1,w,sub_t,h,l1,l2,l3,g1,g2,Freq,S11_re,S21_re,S11_img,S21_img,S11_dB,S21_dB
11.185,2.0,1.0,1.0,34.3,33.1,33.1,1.5,4.0,2.5,0.73249003473923,-0.0133022469173365,0.668980585257435,0.00727564601150602,-0.069711,-36.384897
11.185,2.0,1.0,1.0,34.3,33.1,33.1,1.5,4.0,2.5025,0.7271079316576421,-0.01354226305660449,0.6747016200532665,0.007255043224865712,-0.070454,-36.270355
11.185,2.0,1.0,1.0,34.3,33.1,33.1,1.5,4.0,2.505,0.7216512193265318,-0.013786026566572407,0.6804089547422569,0.007231794457318915,-0.071211,-36.155509
11.185,2.0,1.0,1.0,34.3,33.1,33.1,1.5,4.0,2.5075,0.7161191181769455,-0.014033591226039128,0.6861019181640389,0.007205807013750833,-0.071981,-36.040356
11.185,2.0,1.0,1.0,34.3,33.1,33.1,1.5,4.0,2.51,0.710510839478483,-0.014285011263597916,0.6917798192229743,0.007176985158500488,-0.072764,-35.92489
11.185,2.0,1.0,1.0,34.3,33.1,33.1,1.5,4.0,2.5125,0.7048255853510771,-0.01454034133554695,0.6974419462903395,0.007145230013394513,-0.073562,-35.809107
11.185,2.0,1.0,1.0,34.3,33.1,33.1,1.5,4.0,2.515,0.6990625487853146,-0.014799636501628912,0.7030875665890934,0.007110439452347718,-0.074374,-35.693001
11.185,2.0,1.0,1.0,34.3,33.1,33.1,1.5,4.0,2.5175,0.6932209136718746,-0.015062952198458447,0.7087159255607618,0.007072507992422257,-0.0752,-35.576568
11.185,2.0,1.0,1.0,34.3,33.1,33.1,1.5,4.0,2.52,0.6872998548406567,-0.015330344210490433,0.7143262462139655,0.00703132668123256,-0.076042,-35.459803
11.185,2.0,1.0,1.0,34.3,33.1,33.1,1.5,4.0,2.5225,0.6812985381102626,-0.01560186863837064,0.7199177284541008,0.006986782980582086,-0.076899,-35.342701
11.185,2.0,1.0,1.0,34.3,33.1,33.1,1.5,4.0,2.525,0.6752161203484465,-0.01587758186450398,0.725489548393692,0.006938760646213747,-0.077771,-35.225257
11.185,2.0,1.0,1.0,34.3,33.1,33.1,1.5,4.0,2.5275,0.6690517495442581,-0.01615754051566404,0.7310408576429062,0.006887139603554748,-0.07866,-35.107465
11.185,2.0,1.0,1.0,34.3,33.1,33.1,1.5,4.0,2.53,0.6628045648925996,-0.016441801422458154,0.7365707825797314,0.006831795819332517,-0.079564,-34.989322
11.185,2.0,1.0,1.0,34.3,33.1,33.1,1.5,4.0,2.5325,0.6564736968919654,-0.016730421575451526,0.7420784235992974,0.006772601168936905,-0.080486,-34.870821
11.185,2.0,1.0,1.0,34.3,33.1,33.1,1.5,4.0,2.535,0.6500582674561751,-0.017023458077742814,0.7475628543418262,0.006709423299400921,-0.081425,-34.751958
11.185,2.0,1.0,1.0,34.3,33.1,33.1,1.5,4.0,2.5375,0.6435573900409461,-0.01732096809377085,0.7530231208986755,0.006642125487869556,-0.082381,-34.632727
11.185,2.0,1.0,1.0,34.3,33.1,33.1,1.5,4.0,2.54,0.6369701697862167,-0.017623008794120775,0.7584582409959499,0.006570566495424611,-0.083355,-34.513124
11.185,2.0,1.0,1.0,34.3,33.1,33.1,1.5,4.0,2.5425,0.6302957036751363,-0.017929637296083715,0.7638672031551468,0.006494600416130651,-0.084347,-34.393143
11.185,2.0,1.0,1.0,34.3,33.1,33.1,1.5,4.0,2.545,0.623533080710737,-0.01824091059971061,0.7692489658302857,0.006414076521165378,-0.085358,-34.27278
11.185,2.0,1.0,1.0,34.3,33.1,33.1,1.5,4.0,2.5475,0.6166813821113167,-0.018556885519085343,0.7746024565209766,0.006328839097896047,-0.086388,-34.152028
11.185,2.0,1.0,1.0,34.3,33.1,33.1,1.5,4.0,2.55,0.6097396815256204,-0.01887761860852843,0.7799265708609014,0.006238727283761001,-0.087438,-34.030883
11.185,2.0,1.0,1.0,34.3,33.1,33.1,1.5,4.0,2.5525,0.6027070452689931,-0.019203166083423408,0.7852201716811199,0.006143574894815413,-0.088508,-33.90934
11.185,2.0,1.0,1.0,34.3,33.1,33.1,1.5,4.0,2.555,0.5955825325816864,-0.019533583735343828,0.7904820880476965,0.006043210248797225,-0.089599,-33.787393
11.185,2.0,1.0,1.0,34.3,33.1,33.1,1.5,4.0,2.5575,0.5883651959105987,-0.019868926841138498,0.7957111142730675,0.005937455982569744,-0.09071,-33.665036
11.185,2.0,1.0,1.0,34.3,33.1,33.1,1.5,4.0,2.56,0.5810540812157872,-0.0202092500656139,0.8009060089006212,0.005826128863795989,-0.091844,-33.542265
11.185,2.0,1.0,1.0,34.3,33.1,33.1,1.5,4.0,2.5625,0.5736482283031435,-0.02055460735743286,0.806065493661938,0.0057090395966998796,-0.092999,-33.419075
11.185,2.0,1.0,1.0,34.3,33.1,33.1,1.5,4.0,2.565,0.5661466711846967,-0.020905051837827395,0.8111882524061675,0.00558599262176896,-0.094177,-33.295459
11.185,2.0,1.0,1.0,34.3,33.1,33.1,1.5,4.0,2.5675,0.5585484384681034,-0.021260635681700037,0.816272930000999,0.005456785909254466,-0.095378,-33.171412
11.185,2.0,1.0,1.0,34.3,33.1,33.1,1.5,4.0,2.57,0.5508525537769232,-0.021621409990666137,0.8213181312047179,0.005321210746325101,-0.096603,-33.046929
11.185,2.0,1.0,1.0,34.3,33.1,33.1,1.5,4.0,2.5725,0.5430580362033883,-0.02198742465756359,0.8263224195088367,0.005179051517732657,-0.097852,-32.922005
11.185,2.0,1.0,1.0,34.3,33.1,33.1,1.5,4.0,2.575,0.5351639007954382,-0.022358728221930507,0.8312843159508049,0.005030085479849396,-0.099126,-32.796633
11.185,2.0,1.0,1.0,34.3,33.1,33.1,1.5,4.0,2.5775,0.527169159079897,-0.022735367715924427,0.8362022978963244,0.00487408252794056,-0.100425,-32.670809
11.185,2.0,1.0,1.0,34.3,33.1,33.1,1.5,4.0,2.58,0.5190728196237362,-0.023117388500126596,0.8410747977907986,0.004710804956538255,-0.101751,-32.544526
11.185,2.0,1.0,1.0,34.3,33.1,33.1,1.5,4.0,2.5825,0.5108738886354892,-0.023504834088646332,0.8459002018795063,0.004540007212787354,-0.103103,-32.41778
11.185,2.0,1.0,1.0,34.3,33.1,33.1,1.5,4.0,2.585,0.5025713706089486,-0.023897745962906537,0.8506768488960527,0.0043614356426403275,-0.104483,-32.290564
11.185,2.0,1.0,1.0,34.3,33.1,33.1,1.5,4.0,2.5875,0.4941642690114068,-0.024296163373459172,0.8554030287187547,0.004174828229781757,-0.10589,-32.162874
11.185,2.0,1.0,1.0,34.3,33.1,33.1,1.5,4.0,2.59,0.4856515870188002,-0.024700123129143988,0.8600769809945757,0.00397991432717392,-0.107327,-32.034702
11.185,2.0,1.0,1.0,34.3,33.1,33.1,1.5,4.0,2.5925,0.4770323283002085,-0.025109659372866574,0.8646968937303292,0.0037764143811196784,-0.108793,-31.906044
11.185,2.0,1.0,1.0,34.3,33.1,33.1,1.5,4.0,2.595,0.4683054978543146,-0.025524803343232646,0.8692609018508547,0.0035640396477517235,-0.11029,-31.776894
11.185,2.0,1.0,1.0,34.3,33.1,33.1,1.5,4.0,2.5975,0.45947010290050394,-0.025945583121235943,0.8737670857239606,0.0033424919018661815,-0.111817,-31.647246
11.185,2.0,1.0,1.0,34.3,33.1,33.1,1.5,4.0,2.6,0.45052515382744357,-0.02637202336115305,0.8782134696519551,0.0031114631380322667,-0.113377,-31.517094
11.185,2.0,1.0,1.0,34.3,33.1,33.1,1.5,4.0,2.6025,0.441469665202091,-0.026804145004753834,0.8825980203296461,0.0028706352639241038,-0.114969,-31.386432
11.185,2.0,1.0,1.0,34.3,33.1,33.1,1.5,4.0,2.605,0.43230265684222374,-0.0272419649778899,0.8869186452687696,0.0026196797858361715,-0.116595,-31.255255
11.185,2.0,1.0,1.0,34.3,33.1,33.1,1.5,4.0,2.6075,0.42302315495571774,-0.027685495868473787,0.891173191188854,0.0023582574863628136,-0.118255,-31.123557
11.185,2.0,1.0,1.0,34.3,33.1,33.1,1.5,4.0,2.61,0.413630193349944,-0.028134745584809162,0.8953594423746195,0.0020860180942420454,-0.11995,-30.991331
11.185,2.0,1.0,1.0,34.3,33.1,33.1,1.5,4.0,2.6125,0.4041228147148112,-0.028589716993180254,0.899475119000096,0.001802599946386652,-0.121681,-30.858572
11.185,2.0,1.0,1.0,34.3,33.1,33.1,1.5,4.0,2.615,0.39450007198311204,-0.02905040753355056,0.9035178754197328,0.0015076296421502324,-0.12345,-30.725274
11.185,2.0,1.0,1.0,34.3,33.1,33.1,1.5,4.0,2.6175,0.38476102977203563,-0.0295168088121624,0.9074852984268629,0.001200721689904981,-0.125256,-30.591431
11.185,2.0,1.0,1.0,34.3,33.1,33.1,1.5,4.0,2.62,0.37490476590981664,-0.029988906169767154,0.9113749054800186,0.0008814781460372901,-0.127102,-30.457037
11.185,2.0,1.0,1.0,34.3,33.1,33.1,1.5,4.0,2.6225,0.3649303730517063,-0.0304666782241521,0.9151841428977046,0.0005494882465021198,-0.128988,-30.322085
11.185,2.0,1.0,1.0,34.3,33.1,33.1,1.5,4.0,2.625,0.354836960389614,-0.0309500963855608,0.918910384022348,0.000204328031115502,-0.130915,-30.186571
11.185,2.0,1.0,1.0,34.3,33.1,33.1,1.5,4.0,2.6275,0.3446236554599192,-0.03143912434353614,0.9225509273543272,-0.00015444003919660236,-0.132884,-30.050486
11.185,2.0,1.0,1.0,34.3,33.1,33.1,1.5,4.0,2.63,0.33428960605419517,-0.03193371752363997,0.9261029946570963,-0.0005272674719265155,-0.134897,-29.913827
11.185,2.0,1.0,1.0,34.3,33.1,33.1,1.5,4.0,2.6325,0.3238339822377136,-0.03243382251242787,0.9295637290346124,-0.0009146201389760284,-0.136954,-29.776585
11.185,2.0,1.0,1.0,34.3,33.1,33.1,1.5,4.0,2.635,0.31325597848085013,-0.0329393764489783,0.9329301929824525,-0.0013169786787408935,-0.139057,-29.638756
11.185,2.0,1.0,1.0,34.3,33.1,33.1,1.5,4.0,2.6375,0.3025548159086819,-0.0334503063811919,0.9361993664141891,-0.001734838903858939,-0.141208,-29.500332
11.185,2.0,1.0,1.0,34.3,33.1,33.1,1.5,4.0,2.64,0.2917297446742504,-0.033966528584992814,0.9393681446648305,-0.0021687122141295545,-0.143406,-29.361308
11.185,2.0,1.0,1.0,34.3,33.1,33.1,1.5,4.0,2.6425,0.280780046461245,-0.034487947844472275,0.9424333364733287,-0.002619126014036882,-0.145654,-29.221678
11.185,2.0,1.0,1.0,34.3,33.1,33.1,1.5,4.0,2.645,0.2697050371219816,-0.03501445669092414,0.9453916619464388,-0.003086624134236996,-0.147954,-29.081434
11.185,2.0,1.0,1.0,34.3,33.1,33.1,1.5,4.0,2.6475,0.25850406945685817,-0.0355459345986253,0.9482397505064445,-0.003571767256280027,-0.150305,-28.940571
11.185,2.0,1.0,1.0,34.3,33.1,33.1,1.5,4.0,2.65,0.24717653614159898,-0.03608224713511556,0.9509741388255836,-0.004075133339751816,-0.152711,-28.799082
11.185,2.0,1.0,1.0,34.3,33.1,33.1,1.5,4.0,2.6525,0.2357218728089186,-0.03662324506362665,0.9535912687502772,-0.004597318050915531,-0.155172,-28.656962
11.185,2.0,1.0,1.0,34.3,33.1,33.1,1.5,4.0,2.655,0.22413956129136856,-0.037168763395207555,0.9560874852186354,-0.005138935191830159,-0.15769,-28.514203
11.185,2.0,1.0,1.0,34.3,33.1,33.1,1.5,4.0,2.6575,0.21242913303242328,-0.037718620387980614,0.9584590341750233,-0.00570061712880309,-0.160267,-28.370799
11.185,2.0,1.0,1.0,34.3,33.1,33.1,1.5,4.0,2.66,0.2005901726730529,-0.038272616490851695,0.9607020604858882,-0.006283015218909831,-0.162903,-28.226744
11.185,2.0,1.0,1.0,34.3,33.1,33.1,1.5,4.0,2.6625,0.18862232182128444,-0.038830533228881185,0.962812605861416,-0.006886800233175297,-0.165602,-28.08203
11.185,2.0,1.0,1.0,34.3,33.1,33.1,1.5,4.0,2.665,0.1765252830124309,-0.03939213202740401,0.9647866067880445,-0.007512662774865831,-0.168365,-27.936653
11.185,2.0,1.0,1.0,34.3,33.1,33.1,1.5,4.0,2.6675,0.16429882386798234,-0.03995715297186252,0.9666198924773145,-0.008161313691178918,-0.171193,-27.790605
11.185,2.0,1.0,1.0,34.3,33.1,33.1,1.5,4.0,2.67,0.15194278146126292,-0.0405253135001931,0.9683081828370121,-0.00883348447644809,-0.174089,-27.643879
11.185,2.0,1.0,1.0,34.3,33.1,33.1,1.5,4.0,2.6725,0.13945706689825577,-0.04109630702447765,0.969847086471119,-0.00952992766479426,-0.177054,-27.496469
11.185,2.0,1.0,1.0,34.3,33.1,33.1,1.5,4.0,2.675,0.12684167012220335,-0.041669801478440224,0.97123209871561,-0.010251417209954273,-0.180091,-27.348368
11.185,2.0,1.0,1.0,34.3,33.1,33.1,1.5,4.0,2.6775,0.11409666495074317,-0.042245437787236106,0.9724585997177433,-0.010998748849804329,-0.183201,-27.19957
11.185,2.0,1.0,1.0,34.3,33.1,33.1,1.5,4.0,2.68,0.10122221435460886,-0.042822828255845366,0.9735218525671359,-0.011772740452863802,-0.186387,-27.050068
11.185,2.0,1.0,1.0,34.3,33.1,33.1,1.5,4.0,2.6825,0.08821857598703785,-0.0434015548722444,0.9744170014875512,-0.012574232343817215,-0.189651,-26.899855
11.185,2.0,1.0,1.0,34.3,33.1,33.1,1.5,4.0,2.685,0.07508610797328776,-0.04398116752139148,0.9751390700990903,-0.01340408760482606,-0.192995,-26.748924
11.185,2.0,1.0,1.0,34.3,33.1,33.1,1.5,4.0,2.6875,0.061825274969718014,-0.044561182105920916,0.9756829597611648,-0.01426319234911667,-0.196422,-26.597269
11.185,2.0,1.0,1.0,34.3,33.1,33.1,1.5,4.0,2.69,0.0484366545021545,-0.04514107856929943,0.9760434480074941,-0.015152455963022844,-0.199935,-26.444884
11.185,2.0,1.0,1.0,34.3,33.1,33.1,1.5,4.0,2.6925,0.03492094359326025,-0.045720298817058524,0.9762151870851683,-0.016072811312336257,-0.203535,-26.29176
11.185,2.0,1.0,1.0,34.3,33.1,33.1,1.5,4.0,2.695,0.02127896568884984,-0.046298244531572635,0.9761927026107192,-0.01702521490846319,-0.207226,-26.137891
11.185,2.0,1.0,1.0,34.3,33.1,33.1,1.5,4.0,2.6975,0.007511677893068605,-0.046874274875715924,0.9759703923571121,-0.01801064702951561,-0.21101,-25.983271
11.185,2.0,1.0,1.0,34.3,33.1,33.1,1.5,4.0,2.7,-0.006379821477534115,-0.047447704080587697,0.9755425251865035,-0.019030111791057305,-0.21489,-25.827892
11.185,2.0,1.0,1.0,34.3,33.1,33.1,1.5,4.0,2.7025,-0.020394285011009365,-0.04801779891236302,0.9749032401447211,-0.020084637160803415,-0.21887,-25.671747
11.185,2.0,1.0,1.0,34.3,33.1,33.1,1.5,4.0,2.705,-0.03453030797808598,-0.04858377601318685,0.9740465457344567,-0.021175274911108394,-0.222951,-25.51483
11.185,2.0,1.0,1.0,34.3,33.1,33.1,1.5,4.0,2.7075,-0.048786319761338966,-0.04914479911090273,0.9729663193853876,-0.02230310050259501,-0.227139,-25.357133
11.185,2.0,1.0,1.0,34.3,33.1,33.1,1.5,4.0,2.71,-0.06316057492561683,-0.049699976092276735,0.971656307140561,-0.023469212891751606,-0.231435,-25.198649
11.185,2.0,1.0,1.0,34.3,33.1,33.1,1.5,4.0,2.7125,-0.0776511439199769,-0.050248355934258575,0.9701101235797357,-0.02467473425477588,-0.235843,-25.039371
11.185,2.0,1.0,1.0,34.3,33.1,33.1,1.5,4.0,2.715,-0.09225590340161914,-0.05078892548770474,0.9683212520016413,-0.025920809619349467,-0.240367,-24.879292
11.185,2.0,1.0,1.0,34.3,33.1,33.1,1.5,4.0,2.7175,-0.10697252617254123,-0.05132060610787958,0.9662830448885175,-0.027208606395402558,-0.245011,-24.718404
11.185,2.0,1.0,1.0,34.3,33.1,33.1,1.5,4.0,2.72,-0.12179847071991927,-0.05184225012594955,0.9639887246777541,-0.028539313795257905,-0.249778,-24.556701
11.185,2.0,1.0,1.0,34.3,33.1,33.1,1.5,4.0,2.7225,-0.13673097035165557,-0.0523526371555954,0.9614313848669472,-0.029914142132837985,-0.254673,-24.394174
11.185,2.0,1.0,1.0,34.3,33.1,33.1,1.5,4.0,2.725,-0.15176702191889688,-0.052850470228781664,0.9586039914802481,-0.031334321990857776,-0.259699,-24.230817
11.185,2.0,1.0,1.0,34.3,33.1,33.1,1.5,4.0,2.7275,-0.1669033741179166,-0.053334371754655656,0.9554993849255496,-0.03280110324413393,-0.264862,-24.066621
11.185,2.0,1.0,1.0,34.3,33.1,33.1,1.5,4.0,2.73,-0.18213651536430636,-0.05380287929548558,0.9521102822736918,-0.03431575392628155,-0.270165,-23.90158
11.185,2.0,1.0,1.0,34.3,33.1,33.1,1.5,4.0,2.7325,-0.1974626612331362,-0.05425444115350346,0.9484292799926616,-0.03587955892617262,-0.275613,-23.735686
11.185,2.0,1.0,1.0,34.3,33.1,33.1,1.5,4.0,2.735,-0.21287774145947624,-0.05468741176248427,0.9444488571715665,-0.03749381849956746,-0.281211,-23.56893
11.185,2.0,1.0,1.0,34.3,33.1,33.1,1.5,4.0,2.7375,-0.22837738649460515,-0.05510004687787694,0.9401613792710125,-0.039159846580315884,-0.286965,-23.401305
11.185,2.0,1.0,1.0,34.3,33.1,33.1,1.5,4.0,2.74,-0.24395691361413097,-0.05549049855929856,0.9355591024384955,-0.04087896887443895,-0.292879,-23.232803
11.185,2.0,1.0,1.0,34.3,33.1,33.1,1.5,4.0,2.7425,-0.25961131257539416,-0.05585680993921997,0.9306341784293404,-0.042652520719260185,-0.298959,-23.063416
11.185,2.0,1.0,1.0,34.3,33.1,33.1,1.5,4.0,2.745,-0.275335230822669,-0.056196909771699284,0.9253786601758184,-0.04448184468853047,-0.305211,-22.893135
11.185,2.0,1.0,1.0,34.3,33.1,33.1,1.5,4.0,2.7475,-0.2911229582399983,-0.05650860675507066,0.9197845080491509,-0.04636828792319551,-0.311641,-22.721953
11.185,2.0,1.0,1.0,34.3,33.1,33.1,1.5,4.0,2.75,-0.306968411452926,-0.0567895836225602,0.913843596861269,-0.0483131991660774,-0.318255,-22.54986
11.185,2.0,1.0,1.0,34.3,33.1,33.1,1.5,4.0,2.7525,-0.3228651176819352,-0.057037390994885064,0.9075477236553855,-0.05031792547726946,-0.32506,-22.376848
11.185,2.0,1.0,1.0,34.3,33.1,33.1,1.5,4.0,2.755,-0.33880619815205454,-0.05724944098899276,0.9008886163367129,-0.052383808605478,-0.332062,-22.202908
11.185,2.0,1.0,1.0,34.3,33.1,33.1,1.5,4.0,2.7575,-0.3547843510649761,-0.05742300057721625,0.8938579431969433,-0.05451218098887792,-0.339268,-22.028032
11.185,2.0,1.0,1.0,34.3,33.1,33.1,1.5,4.0,2.76,-0.37079183414181266,-0.05755518469125368,0.886447323388494,-0.056704361357251584,-0.346687,-21.852209
11.185,2.0,1.0,1.0,34.3,33.1,33.1,1.5,4.0,2.7625,-0.38682044674686983,-0.057642949065532155,0.8786483384068668,-0.058961649905275776,-0.354326,-21.675431
11.185,2.0,1.0,1.0,34.3,33.1,33.1,1.5,4.0,2.765,-0.40286151160484757,-0.05768308281467828,0.8704525446419983,-0.06128532300475805,-0.362192,-21.497687
11.185,2.0,1.0,1.0,34.3,33.1,33.1,1.5,4.0,2.7675,-0.41890585612626924,-0.05767220073999322,0.8618514870619246,-0.06367662742141289,-0.370296,-21.318968
11.185,2.0,1.0,1.0,34.3,33.1,33.1,1.5,4.0,2.77,-0.43494379335841454,-0.05760673536001689,0.8528367140946828,-0.06613677399938628,-0.378644,-21.139264
11.185,2.0,1.0,1.0,34.3,33.1,33.1,1.5,4.0,2.7725,-0.45096510258153183,-0.05748292866046043,0.8433997937769872,-0.06866693077414653,-0.387248,-20.958563
11.185,2.0,1.0,1.0,34.3,33.1,33.1,1.5,4.0,2.775,-0.4669590095728204,-0.05729682355898555,0.8335323312409569,-0.071268215471562,-0.396116,-20.776854
11.185,2.0,1.0,1.0,34.3,33.1,33.1,1.5,4.0,2.7775,-0.4829141665634705,-0.057044255080514576,0.8232259876128964,-0.07394168734793133,-0.405259,-20.594128
11.185,2.0,1.0,1.0,34.3,33.1,33.1,1.5,4.0,2.78,-0.4988186319169163,-0.05672084123896054,0.812472500401131,-0.07668833832240043,-0.414688,-20.410371
11.185,2.0,1.0,1.0,34.3,33.1,33.1,1.5,4.0,2.7825,-0.5146598495594121,-0.05632197362147242,0.801263705452828,-0.07950908334953319,-0.424414,-20.225572
11.185,2.0,1.0,1.0,34.3,33.1,33.1,1.5,4.0,2.785,-0.5304246281971471,-0.055842807671495534,0.7895915605629984,-0.08240474997579547,-0.43445,-20.039718
11.185,2.0,1.0,1.0,34.3,33.1,33.1,1.5,4.0,2.7875,-0.5460991203571707,-0.05527825266715183,0.7774481708221815,-0.0853760670192459,-0.444807,-19.852797
11.185,2.0,1.0,1.0,34.3,33.1,33.1,1.5,4.0,2.79,-0.5616688012925949,-0.05462296139164855,0.764825815792972,-0.08842365230681279,-0.455499,-19.664793
11.185,2.0,1.0,1.0,34.3,33.1,33.1,1.5,4.0,2.7925,-0.577118447795706,-0.05387131949263667,0.751716978609505,-0.09154799939803934,-0.46654,-19.475694
11.185,2.0,1.0,1.0,34.3,33.1,33.1,1.5,4.0,2.795,-0.5924321169659175,-0.053017434527660966,0.7381143770981062,-0.09474946321806425,-0.477944,-19.285485
11.185,2.0,1.0,1.0,34.3,33.1,33.1,1.5,4.0,2.7975,-0.6075931249826062,-0.052055124693097664,0.724010997022293,-0.09802824451572123,-0.489729,-19.094149
11.185,2.0,1.0,1.0,34.3,33.1,33.1,1.5,4.0,2.8,-0.6225840259362643,-0.05097790723426306,0.7094001275603083,-0.10138437305494612,-0.501908,-18.901672
11.185,2.0,1.0,1.0,34.3,33.1,33.1,1.5,4.0,2.8025,-0.6373865907745173,-0.04977898653474228,0.6942753991294804,-0.10481768943895976,-0.514501,-18.708035
11.185,2.0,1.0,1.0,34.3,33.1,33.1,1.5,4.0,2.805,-0.6519817864229042,-0.04845124188345599,0.6786308236783088,-0.10832782545685969,-0.527526,-18.513221
11.185,2.0,1.0,1.0,34.3,33.1,33.1,1.5,4.0,2.8075,-0.6663497551435,-0.04698721491860443,0.6624608375749133,-0.11191418283110202,-0.541001,-18.317211
11.185,2.0,1.0,1.0,34.3,33.1,33.1,1.5,4.0,2.81,-0.6804697941978733,-0.04537909674847266,0.6457603472293356,-0.11557591023168275,-0.554948,-18.119986
11.185,2.0,1.0,1.0,34.3,33.1,33.1,1.5,4.0,2.8125,-0.694320335884173,-0.043618714750237,0.628524777597498,-0.119311878408393,-0.569389,-17.921525
11.185,2.0,1.0,1.0,34.3,33.1,33.1,1.5,4.0,2.815,-0.7078789280218,-0.041697519049478424,0.6107501237264094,-0.12312065327608802,-0.584348,-17.721807
11.185,2.0,1.0,1.0,34.3,33.1,33.1,1.5,4.0,2.8175,-0.7211222149608792,-0.03960656868525275,0.5924330055143195,-0.12700046676911708,-0.599848,-17.520807
11.185,2.0,1.0,1.0,34.3,33.1,33.1,1.5,4.0,2.82,-0.734025919197968,-0.03733651746845877,0.5735707258756828,-0.13094918525959345,-0.615917,-17.318503
11.185,2.0,1.0,1.0,34.3,33.1,33.1,1.5,4.0,2.8225,-0.7465648236842496,-0.03487759954512906,0.5541613325198387,-0.13496427530961838,-0.632582,-17.114869
11.185,2.0,1.0,1.0,34.3,33.1,33.1,1.5,4.0,2.825,-0.7587127549180191,-0.03221961468144826,0.5342036835747535,-0.139042766499444,-0.649875,-16.909878
11.185,2.0,1.0,1.0,34.3,33.1,33.1,1.5,4.0,2.8275,-0.7704425669200935,-0.02935191329415177,0.5136975173131443,-0.14318121104135767,-0.667826,-16.703501
