1,w,sub_t,h,l1,l2,l3,g1,g2,Freq,S11_re,S21_re,S11_img,S21_img,S11_dB,S21_dB
11.185,2.0,1.0,1.0,33.3,33.0,33.0,4.4,1.7,2.5,0.870705708766374,-0.00563176166499135,0.48021429162265,0.00495215260296721,-0.049204,-42.499504
11.185,2.0,1.0,1.0,33.3,33.0,33.0,4.4,1.7,2.5025,0.8676132216436553,-0.005743190078618464,0.48568341441444274,0.004975048200695043,-0.049613,-42.385583
11.185,2.0,1.0,1.0,33.3,33.0,33.0,4.4,1.7,2.505,0.8644742233429783,-0.005856469848020512,0.49115261315564696,0.004997433044584158,-0.050029,-42.271462
11.185,2.0,1.0,1.0,33.3,33.0,33.0,4.4,1.7,2.5075,0.8612882945730289,-0.005971633984232819,0.4966216984421899,0.00501928609821419,-0.05045,-42.157134
11.185,2.0,1.0,1.0,33.3,33.0,33.0,4.4,1.7,2.51,0.8580550097243247,-0.006088716250724789,0.5020904754193493,0.005040585619481897,-0.050878,-42.042592
11.185,2.0,1.0,1.0,33.3,33.0,33.0,4.4,1.7,2.5125,0.8547739367763675,-0.00620775118422476,0.5075587436121074,0.005061309134138407,-0.051313,-41.927829
11.185,2.0,1.0,1.0,33.3,33.0,33.0,4.4,1.7,2.515,0.8514446372037894,-0.006328774116219565,0.5130262967502865,0.005081433408222592,-0.051754,-41.812837
11.185,2.0,1.0,1.0,33.3,33.0,33.0,4.4,1.7,2.5175,0.848066665881509,-0.006451821195154116,0.518492922588279,0.00510093441933707,-0.052202,-41.697609
11.185,2.0,1.0,1.0,33.3,33.0,33.0,4.4,1.7,2.52,0.8446395709889046,-0.006576929409358952,0.5239584027192148,0.005119787326713925,-0.052657,-41.582138
11.185,2.0,1.0,1.0,33.3,33.0,33.0,4.4,1.7,2.5225,0.8411628939130296,-0.006704136610733312,0.5294225123833569,0.005137966440011438,-0.05312,-41.466417
11.185,2.0,1.0,1.0,33.3,33.0,33.0,4.4,1.7,2.525,0.837636169150873,-0.006833481539214169,0.5348850202705581,0.005155445186781286,-0.05359,-41.350437
11.185,2.0,1.0,1.0,33.3,33.0,33.0,4.4,1.7,2.5275,0.8340589242106913,-0.00696500384806206,0.5403456883165703,0.005172196078543542,-0.054067,-41.234191
11.185,2.0,1.0,1.0,33.3,33.0,33.0,4.4,1.7,2.53,0.8304306795124302,-0.0070987441299962825,0.5458042714930016,0.005188190675400371,-0.054552,-41.117672
11.185,2.0,1.0,1.0,33.3,33.0,33.0,4.4,1.7,2.5325,0.8267509482872573,-0.00723474394421371,0.551260517590712,0.005203399549119032,-0.055046,-41.000871
11.185,2.0,1.0,1.0,33.3,33.0,33.0,4.4,1.7,2.535,0.8230192364762264,-0.007373045844326853,0.5567141669964312,0.005217792244607514,-0.055547,-40.883782
11.185,2.0,1.0,1.0,33.3,33.0,33.0,4.4,1.7,2.5375,0.8192350426281098,-0.0075136934072587746,0.5621649524623603,0.005231337239705704,-0.056056,-40.766395
11.185,2.0,1.0,1.0,33.3,33.0,33.0,4.4,1.7,2.54,0.8153978577964125,-0.00765673126313404,0.5676125988685323,0.005244001903206156,-0.056574,-40.648703
11.185,2.0,1.0,1.0,33.3,33.0,33.0,4.4,1.7,2.5425,0.8115071654356119,-0.0078022051262069386,0.5730568229776815,0.005255752451017583,-0.057101,-40.530698
11.185,2.0,1.0,1.0,33.3,33.0,33.0,4.4,1.7,2.545,0.8075624412966471,-0.007950161826870276,0.5784973331823676,0.005266553900377384,-0.057637,-40.412371
11.185,2.0,1.0,1.0,33.3,33.0,33.0,4.4,1.7,2.5475,0.8035631533217031,-0.008100649344789828,0.5839338292440874,0.005276370022013891,-0.058182,-40.293714
11.185,2.0,1.0,1.0,33.3,33.0,33.0,4.4,1.7,2.55,0.7995087615383161,-0.008253716843212562,0.5893660020241123,0.005285163290154437,-0.058736,-40.174719
11.185,2.0,1.0,1.0,33.3,33.0,33.0,4.4,1.7,2.5525,0.7953987179528578,-0.008409414704498018,0.5947935332057436,0.005292894830268501,-0.0593,-40.055377
11.185,2.0,1.0,1.0,33.3,33.0,33.0,4.4,1.7,2.555,0.7912324664434296,-0.008567794566925765,0.6002160950077174,0.005299524364428254,-0.059874,-39.935679
11.185,2.0,1.0,1.0,33.3,33.0,33.0,4.4,1.7,2.5575,0.7870094426522186,-0.008728909362834186,0.6056333498884322,0.005305010154163076,-0.060457,-39.815617
11.185,2.0,1.0,1.0,33.3,33.0,33.0,4.4,1.7,2.56,0.7827290738773721,-0.008892813358148274,0.6110449502406884,0.005309308940676889,-0.061051,-39.695181
11.185,2.0,1.0,1.0,33.3,33.0,33.0,4.4,1.7,2.5625,0.7783907789644389,-0.00905956219335778,0.6164505380766048,0.00531237588228776,-0.061656,-39.574363
11.185,2.0,1.0,1.0,33.3,33.0,33.0,4.4,1.7,2.565,0.7739939681974364,-0.009229212926009821,0.6218497447023712,0.005314164488943506,-0.062271,-39.453153
11.185,2.0,1.0,1.0,33.3,33.0,33.0,4.4,1.7,2.5675,0.7695380431896109,-0.009401824074783271,0.6272421903824684,0.005314626553654689,-0.062898,-39.331542
11.185,2.0,1.0,1.0,33.3,33.0,33.0,4.4,1.7,2.57,0.7650223967739509,-0.009577455665216542,0.6326274839929935,0.005313712080680615,-0.063536,-39.20952
11.185,2.0,1.0,1.0,33.3,33.0,33.0,4.4,1.7,2.5725,0.7604464128935254,-0.009756169277163189,0.6380052226636937,0.005311369210289597,-0.064186,-39.087078
11.185,2.0,1.0,1.0,33.3,33.0,33.0,4.4,1.7,2.575,0.7558094664917232,-0.009938028094054606,0.6433749914083066,0.005307544139907077,-0.064847,-38.964206
11.185,2.0,1.0,1.0,33.3,33.0,33.0,4.4,1.7,2.5775,0.7511109234024671,-0.010123096954052838,0.6487363627427822,0.005302181041450803,-0.065521,-38.840894
11.185,2.0,1.0,1.0,33.3,33.0,33.0,4.4,1.7,2.58,0.7463501402404957,-0.01031144240318107,0.6540888962909474,0.0052952219746410815,-0.066207,-38.717131
11.185,2.0,1.0,1.0,33.3,33.0,33.0,4.4,1.7,2.5825,0.7415264642917874,-0.010503132750524734,0.6594321383771545,0.00528660679606041,-0.066907,-38.592909
11.185,2.0,1.0,1.0,33.3,33.0,33.0,4.4,1.7,2.585,0.7366392334042302,-0.01069823812560032,0.6647656216054337,0.0052762730637211765,-0.067619,-38.468215
11.185,2.0,1.0,1.0,33.3,33.0,33.0,4.4,1.7,2.5875,0.7316877758786278,-0.010896830537995414,0.670088864424651,0.005264155936885071,-0.068345,-38.343039
11.185,2.0,1.0,1.0,33.3,33.0,33.0,4.4,1.7,2.59,0.7266714103601498,-0.011098983939388287,0.6754013706791441,0.005250188070861664,-0.069085,-38.217372
11.185,2.0,1.0,1.0,33.3,33.0,33.0,4.4,1.7,2.5925,0.7215894457303288,-0.011304774288062584,0.6807026291443024,0.005234299506494013,-0.06984,-38.0912
11.185,2.0,1.0,1.0,33.3,33.0,33.0,4.4,1.7,2.595,0.7164411809997259,-0.011514279616037609,0.6859921130464999,0.005216417554020415,-0.070609,-37.964514
11.185,2.0,1.0,1.0,33.3,33.0,33.0,4.4,1.7,2.5975,0.7112259052013732,-0.011727580098943764,0.6912692795668063,0.005196466670981057,-0.071393,-37.837301
11.185,2.0,1.0,1.0,33.3,33.0,33.0,4.4,1.7,2.6,0.7059428972851244,-0.01194475812877806,0.6965335693278384,0.005174368333814064,-0.072193,-37.70955
11.185,2.0,1.0,1.0,33.3,33.0,33.0,4.4,1.7,2.6025,0.7005914260130479,-0.012165898389683658,0.7017844058630952,0.005150040902763366,-0.073008,-37.581249
11.185,2.0,1.0,1.0,33.3,33.0,33.0,4.4,1.7,2.605,0.6951707498559874,-0.012391087936905553,0.7070211950681005,0.005123399479691279,-0.07384,-37.452386
11.185,2.0,1.0,1.0,33.3,33.0,33.0,4.4,1.7,2.6075,0.689680116891444,-0.012620416279083311,0.712243324632625,0.005094355758364461,-0.074689,-37.322948
11.185,2.0,1.0,1.0,33.3,33.0,33.0,4.4,1.7,2.61,0.6841187647029254,-0.012853975464051108,0.7174501634532322,0.005062817866746853,-0.075555,-37.192923
11.185,2.0,1.0,1.0,33.3,33.0,33.0,4.4,1.7,2.6125,0.6784859202809159,-0.013091860168326284,0.7226410610253575,0.0050286902008043945,-0.076439,-37.062298
11.185,2.0,1.0,1.0,33.3,33.0,33.0,4.4,1.7,2.615,0.6727807999256268,-0.013334167790477247,0.727815346814087,0.004991873249286228,-0.077341,-36.931059
11.185,2.0,1.0,1.0,33.3,33.0,33.0,4.4,1.7,2.6175,0.6670026091517038,-0.01358099854857407,0.732972329602752,0.0049522634089118975,-0.078262,-36.799193
11.185,2.0,1.0,1.0,33.3,33.0,33.0,4.4,1.7,2.62,0.6611505425950591,-0.013832455581937173,0.7381112968184186,0.004909752789351172,-0.079202,-36.666686
11.185,2.0,1.0,1.0,33.3,33.0,33.0,4.4,1.7,2.6225,0.6552237839220063,-0.014088645057412398,0.7432315138332991,0.004864229007335162,-0.080162,-36.533524
11.185,2.0,1.0,1.0,33.3,33.0,33.0,4.4,1.7,2.625,0.649221505740903,-0.0143496762804147,0.748332223241048,0.00481557496919182,-0.081143,-36.399693
11.185,2.0,1.0,1.0,33.3,33.0,33.0,4.4,1.7,2.6275,0.6431428695164708,-0.014615661810998644,0.7534126441068703,0.004763668641043288,-0.082144,-36.265177
11.185,2.0,1.0,1.0,33.3,33.0,33.0,4.4,1.7,2.63,0.6369870254870135,-0.014886717585228408,0.7584719711902815,0.004708382805844384,-0.083167,-36.129962
11.185,2.0,1.0,1.0,33.3,33.0,33.0,4.4,1.7,2.6325,0.6307531125847302,-0.015162963042138265,0.7635093741393136,0.004649584806378531,-0.084213,-35.994032
11.185,2.0,1.0,1.0,33.3,33.0,33.0,4.4,1.7,2.635,0.6244402583593385,-0.015444521256592158,0.7685239966548763,0.0045871362732603635,-0.085281,-35.85737
11.185,2.0,1.0,1.0,33.3,33.0,33.0,4.4,1.7,2.6375,0.6180475789052343,-0.015731519078370226,0.7735149556239058,0.004520892836915562,-0.086374,-35.719962
11.185,2.0,1.0,1.0,33.3,33.0,33.0,4.4,1.7,2.64,0.6115741787923972,-0.016024087277832055,0.7784813402198655,0.004450703822431207,-0.08749,-35.58179
11.185,2.0,1.0,1.0,33.3,33.0,33.0,4.4,1.7,2.6425,0.6050191510012869,-0.016322360698526987,0.7834222109690455,0.004376411926078377,-0.088632,-35.442837
11.185,2.0,1.0,1.0,33.3,33.0,33.0,4.4,1.7,2.645,0.5983815768619599,-0.016626478417146946,0.7883365987810337,0.004297852872211893,-0.0898,-35.303086
11.185,2.0,1.0,1.0,33.3,33.0,33.0,4.4,1.7,2.6475,0.5916605259976495,-0.016936583911241566,0.7932235039416038,0.004214855049147143,-0.090995,-35.162517
11.185,2.0,1.0,1.0,33.3,33.0,33.0,4.4,1.7,2.65,0.5848550562730391,-0.017252825235143456,0.7980818950661809,0.00412723912249713,-0.092217,-35.021114
11.185,2.0,1.0,1.0,33.3,33.0,33.0,4.4,1.7,2.6525,0.5779642137475084,-0.017575355204578685,0.8029107080118633,0.004034817624326504,-0.093468,-34.878857
11.185,2.0,1.0,1.0,33.3,33.0,33.0,4.4,1.7,2.655,0.570987032633567,-0.017904331590470234,0.8077088447459119,0.003937394516339139,-0.094748,-34.735726
11.185,2.0,1.0,1.0,33.3,33.0,33.0,4.4,1.7,2.6575,0.5639225352607535,-0.01823991732247358,0.8124751721684064,0.003834764725166223,-0.096058,-34.591702
11.185,2.0,1.0,1.0,33.3,33.0,33.0,4.4,1.7,2.66,0.5567697320452438,-0.018582280702819177,0.8172085208866425,0.0037267136476517347,-0.097401,-34.446763
11.185,2.0,1.0,1.0,33.3,33.0,33.0,4.4,1.7,2.6625,0.5495276214654323,-0.018931595631073436,0.8219076839386401,0.0036130166238504333,-0.098775,-34.300889
11.185,2.0,1.0,1.0,33.3,33.0,33.0,4.4,1.7,2.665,0.5421951900437271,-0.01928804184047044,0.8265714154629565,0.0034934383752506515,-0.100184,-34.154057
11.185,2.0,1.0,1.0,33.3,33.0,33.0,4.4,1.7,2.6675,0.5347714123348322,-0.01965180514650745,0.8311984293117592,0.0033677324055139124,-0.101627,-34.006246
11.185,2.0,1.0,1.0,33.3,33.0,33.0,4.4,1.7,2.67,0.5272552509207526,-0.020023077708543214,0.835787397603895,0.003235640360776243,-0.103106,-33.857431
11.185,2.0,1.0,1.0,33.3,33.0,33.0,4.4,1.7,2.6725,0.5196456564127743,-0.020402058305185863,0.8403369492144207,0.003096891346288153,-0.104622,-33.707589
11.185,2.0,1.0,1.0,33.3,33.0,33.0,4.4,1.7,2.675,0.5119415674606641,-0.020788952624306155,0.8448456681967689,0.0029512011958723605,-0.106177,-33.556696
11.185,2.0,1.0,1.0,33.3,33.0,33.0,4.4,1.7,2.6775,0.5041419107693245,-0.021183973568567303,0.849312092133413,0.002798271690349092,-0.107771,-33.404726
11.185,2.0,1.0,1.0,33.3,33.0,33.0,4.4,1.7,2.68,0.49624560112312877,-0.021587341577417693,0.8537347104105384,0.002637789720714336,-0.109408,-33.251653
11.185,2.0,1.0,1.0,33.3,33.0,33.0,4.4,1.7,2.6825,0.4882515414181598,-0.021999284966552197,0.8581119624118339,0.0024694263914545834,-0.111087,-33.097449
11.185,2.0,1.0,1.0,33.3,33.0,33.0,4.4,1.7,2.685,0.4801586227025584,-0.022420040285911998,0.8624422356260959,0.0022928360589358925,-0.11281,-32.942087
11.185,2.0,1.0,1.0,33.3,33.0,33.0,4.4,1.7,2.6875,0.4719657242251736,-0.02284985269735571,0.8667238636628488,0.002107655299304765,-0.11458,-32.785538
11.185,2.0,1.0,1.0,33.3,33.0,33.0,4.4,1.7,2.69,0.4636717134927135,-0.02328897637320533,0.8709551241696569,0.0019135017997954922,-0.116398,-32.627772
11.185,2.0,1.0,1.0,33.3,33.0,33.0,4.4,1.7,2.6925,0.45527544633553846,-0.02373767491694003,0.8751342366442181,0.001709973166716293,-0.118266,-32.468758
11.185,2.0,1.0,1.0,33.3,33.0,33.0,4.4,1.7,2.695,0.4467757669822863,-0.0241962218073843,0.8792593601336484,0.0014966456427134439,-0.120186,-32.308465
11.185,2.0,1.0,1.0,33.3,33.0,33.0,4.4,1.7,2.6975,0.43817150814343153,-0.0246649008678135,0.883328590812664,0.0012730727251461498,-0.122159,-32.146858
11.185,2.0,1.0,1.0,33.3,33.0,33.0,4.4,1.7,2.7,0.42946149110393467,-0.025144006761473135,0.8873399594315069,0.001038783676554521,-0.124189,-31.983904
11.185,2.0,1.0,1.0,33.3,33.0,33.0,4.4,1.7,2.7025,0.42064452582507067,-0.025633845515089106,0.8912914286235717,0.0007932819172599155,-0.126277,-31.819568
11.185,2.0,1.0,1.0,33.3,33.0,33.0,4.4,1.7,2.705,0.41171941105554766,-0.026134735072017627,0.8951808900616366,0.0005360432890639311,-0.128426,-31.653811
11.185,2.0,1.0,1.0,33.3,33.0,33.0,4.4,1.7,2.7075,0.40268493445200004,-0.02664700587676147,0.8990061614504575,0.00026651417783076994,-0.130639,-31.486597
11.185,2.0,1.0,1.0,33.3,33.0,33.0,4.4,1.7,2.71,0.3935398727089551,-0.02717100149264532,0.902764983342176,-1.5890518608002878e-05,-0.132917,-31.317886
11.185,2.0,1.0,1.0,33.3,33.0,33.0,4.4,1.7,2.7125,0.38428299169835595,-0.027707079254508854,0.9064550157595291,-0.0003117895922857364,-0.135265,-31.147635
11.185,2.0,1.0,1.0,33.3,33.0,33.0,4.4,1.7,2.715,0.37491304661876057,-0.028255610958327845,0.910073834610198,-0.0006218379134241679,-0.137685,-30.975803
11.185,2.0,1.0,1.0,33.3,33.0,33.0,4.4,1.7,2.7175,0.36542878215435093,-0.02881698358971491,0.9136189278737703,-0.0009467290239073943,-0.14018,-30.802345
11.185,2.0,1.0,1.0,33.3,33.0,33.0,4.4,1.7,2.72,0.35582893264395987,-0.029391600093272158,0.9170876915406746,-0.0012871979567198144,-0.142754,-30.627214
11.185,2.0,1.0,1.0,33.3,33.0,33.0,4.4,1.7,2.7225,0.3461122222603526,-0.02997988018476619,0.9204774252800788,-0.0016440243045982652,-0.14541,-30.450362
11.185,2.0,1.0,1.0,33.3,33.0,33.0,4.4,1.7,2.725,0.3362773652001787,-0.03058226120805924,0.9237853278110095,-0.002018035563897235,-0.148153,-30.271739
11.185,2.0,1.0,1.0,33.3,33.0,33.0,4.4,1.7,2.7275,0.3263230658850762,-0.031199199038655468,0.9270084919479064,-0.002410110782801574,-0.150986,-30.091292
11.185,2.0,1.0,1.0,33.3,33.0,33.0,4.4,1.7,2.73,0.3162480191746965,-0.031831169035587165,0.9301438992883011,-0.002821184546562947,-0.153915,-29.908967
11.185,2.0,1.0,1.0,33.3,33.0,33.0,4.4,1.7,2.7325,0.3060509105926239,-0.032478667043168236,0.9331884145063466,-0.0032522513364815634,-0.156943,-29.724706
11.185,2.0,1.0,1.0,33.3,33.0,33.0,4.4,1.7,2.735,0.2957304165665772,-0.03314221044385131,0.9361387792113522,-0.003704370303954725,-0.160075,-29.53845
11.185,2.0,1.0,1.0,33.3,33.0,33.0,4.4,1.7,2.7375,0.28528520468471247,-0.03382233926302654,0.9389916053252984,-0.004178670506173822,-0.163318,-29.350137
11.185,2.0,1.0,1.0,33.3,33.0,33.0,4.4,1.7,2.74,0.27471393397049865,-0.03451961732605611,0.9417433679273285,-0.00467635665605894,-0.166677,-29.159701
11.185,2.0,1.0,1.0,33.3,33.0,33.0,4.4,1.7,2.7425,0.2640152551793853,-0.03523463346712291,0.9443903975063914,-0.005198715445908301,-0.170158,-28.967075
11.185,2.0,1.0,1.0,33.3,33.0,33.0,4.4,1.7,2.745,0.25318781112153105,-0.03596800278852263,0.9469288715553411,-0.0057471225121485505,-0.173768,-28.772185
11.185,2.0,1.0,1.0,33.3,33.0,33.0,4.4,1.7,2.7475,0.24223023701613394,-0.036720367967807345,0.9493548054307489,-0.00632305011765763,-0.177514,-28.574959
11.185,2.0,1.0,1.0,33.3,33.0,33.0,4.4,1.7,2.75,0.231141160884553,-0.0374924006086062,0.951664042392253,-0.00692807563860962,-0.181403,-28.375317
11.185,2.0,1.0,1.0,33.3,33.0,33.0,4.4,1.7,2.7525,0.219919203991504,-0.03828480262892282,0.953852242723183,-0.007563890954886954,-0.185445,-28.173176
11.185,2.0,1.0,1.0,33.3,33.0,33.0,4.4,1.7,2.755,0.20856298134626214,-0.039098307678125555,0.9559148718202274,-0.008232312857086218,-0.189648,-27.96845
11.185,2.0,1.0,1.0,33.3,33.0,33.0,4.4,1.7,2.7575,0.1970711022791184,-0.039933682570559154,0.9578471871236861,-0.008935294599369637,-0.194021,-27.761049
11.185,2.0,1.0,1.0,33.3,33.0,33.0,4.4,1.7,2.76,0.18544217111262395,-0.04079172871953193,0.9596442237409826,-0.009674938746240124,-0.198576,-27.550875
11.185,2.0,1.0,1.0,33.3,33.0,33.0,4.4,1.7,2.7625,0.1736747879524282,-0.04167328355014872,0.9613007785941181,-0.010453511483252553,-0.203323,-27.337828
11.185,2.0,1.0,1.0,33.3,33.0,33.0,4.4,1.7,2.765,0.16176754962931764,-0.042579221862768746,0.9628113928960883,-0.011273458587246592,-0.208276,-27.121801
11.185,2.0,1.0,1.0,33.3,33.0,33.0,4.4,1.7,2.7675,0.14971905083254822,-0.04351045711040487,0.9641703327312228,-0.012137423281597302,-0.213447,-26.902683
11.185,2.0,1.0,1.0,33.3,33.0,33.0,4.4,1.7,2.77,0.13752788548532235,-0.044467942542677594,0.9653715674791707,-0.013048266237023638,-0.218852,-26.680354
11.185,2.0,1.0,1.0,33.3,33.0,33.0,4.4,1.7,2.7725,0.1251926484268839,-0.04545267215538999,0.9664087457808429,-0.014009088019657865,-0.224506,-26.45469
11.185,2.0,1.0,1.0,33.3,33.0,33.0,4.4,1.7,2.775,0.11271193748291977,-0.046465681367638616,0.9672751686957876,-0.01502325433653548,-0.230427,-26.225557
11.185,2.0,1.0,1.0,33.3,33.0,33.0,4.4,1.7,2.7775,0.10008435602777624,-0.04750804732663002,0.9679637596428704,-0.016094424485848077,-0.236634,-25.992816
11.185,2.0,1.0,1.0,33.3,33.0,33.0,4.4,1.7,2.78,0.08730851616971529,-0.048580888712770644,0.9684670306478955,-0.017226583486935787,-0.24315,-25.756317
11.185,2.0,1.0,1.0,33.3,33.0,33.0,4.4,1.7,2.7825,0.07438304272569327,-0.04968536488249575,0.9687770443408709,-0.01842407844518608,-0.249996,-25.515902
11.185,2.0,1.0,1.0,33.3,33.0,33.0,4.4,1.7,2.785,0.061306578196996385,-0.05082267414158886,0.968885371049381,-0.01969165980232103,-0.257199,-25.271404
11.185,2.0,1.0,1.0,33.3,33.0,33.0,4.4,1.7,2.7875,0.04807778901449838,-0.05199405088463701,0.9687830402197911,-0.021034528236095064,-0.264787,-25.022644
11.185,2.0,1.0,1.0,33.3,33.0,33.0,4.4,1.7,2.79,0.03469537339567407,-0.053200761263185015,0.9684604852609308,-0.022458388109026475,-0.272792,-24.769432
11.185,2.0,1.0,1.0,33.3,33.0,33.0,4.4,1.7,2.7925,0.02115807124985854,-0.054444096951337284,0.9679074807407472,-0.023969508528089503,-0.281248,-24.511566
11.185,2.0,1.0,1.0,33.3,33.0,33.0,4.4,1.7,2.795,0.0074646766896033275,-0.05572536645681066,0.9671130706693695,-0.025574793272015128,-0.290196,-24.24883
11.185,2.0,1.0,1.0,33.3,33.0,33.0,4.4,1.7,2.7975,-0.006385946137073951,-0.05704588326950201,0.9660654863650343,-0.027281861076958697,-0.299679,-23.980993
11.185,2.0,1.0,1.0,33.3,33.0,33.0,4.4,1.7,2.8,-0.020394842975518388,-0.05840694993760227,0.9647520521136469,-0.029099138053352867,-0.309745,-23.707809
11.185,2.0,1.0,1.0,33.3,33.0,33.0,4.4,1.7,2.8025,-0.03456294397174739,-0.05980983689855339,0.9631590764878258,-0.031035964347205267,-0.320451,-23.429013
11.185,2.0,1.0,1.0,33.3,33.0,33.0,4.4,1.7,2.805,-0.04889103123024104,-0.06125575454917825,0.9612717267740931,-0.033102717570675205,-0.331857,-23.144322
11.185,2.0,1.0,1.0,33.3,33.0,33.0,4.4,1.7,2.8075,-0.06337969744134099,-0.06274581658980372,0.9590738834516872,-0.035310956024959664,-0.344034,-22.853433
11.185,2.0,1.0,1.0,33.3,33.0,33.0,4.4,1.7,2.81,-0.07802929300103917,-0.06428099208551086,0.9565479710542384,-0.03767358534202815,-0.357061,-22.556018
11.185,2.0,1.0,1.0,33.3,33.0,33.0,4.4,1.7,2.8125,-0.09283985825718218,-0.06586204290534986,0.953674761003471,-0.04020505290292129,-0.37103,-22.251726
11.185,2.0,1.0,1.0,33.3,33.0,33.0,4.4,1.7,2.815,-0.10781103646809576,-0.06748944216119944,0.9504331411052263,-0.04292157527556638,-0.386044,-21.940178
11.185,2.0,1.0,1.0,33.3,33.0,33.0,4.4,1.7,2.8175,-0.1229419616602031,-0.06916326788087357,0.9467998453114215,-0.04584140498469115,-0.40222,-21.620966
11.185,2.0,1.0,1.0,33.3,33.0,33.0,4.4,1.7,2.82,-0.13823111369323418,-0.07088306428924582,0.9427491360424314,-0.048985144214246414,-0.419697,-21.293648
11.185,2.0,1.0,1.0,33.3,33.0,33.0,4.4,1.7,2.8225,-0.15367613030835472,-0.07264766056179735,0.9382524297965609,-0.05237611458389891,-0.438633,-20.957747
11.185,2.0,1.0,1.0,33.3,33.0,33.0,4.4,1.7,2.825,-0.16927356249908107,-0.07445493351297784,0.9332778549133075,-0.05604079396791094,-0.459211,-20.612748
11.185,2.0,1.0,1.0,33.3,33.0,33.0,4.4,1.7,2.8275,-0.18501855486064805,-0.07630149604458362,0.9277897281829502,-0.06000933345752938,-0.481645,-20.25809
