1,w,sub_t,h,l1,l2,l3,g1,g2,Freq,S11_re,S21_re,S11_img,S21_img,S11_dB,S21_dB
11.185,2.0,1.0,1.0,33.4,34.5,34.5,2.1,2.3,2.5,0.857665042713164,-0.0128590490603293,0.498648060771687,0.0130523136060638,-0.068993,-34.740253
11.185,2.0,1.0,1.0,33.4,34.5,34.5,2.1,2.3,2.5025,0.8541150590194304,-0.013165341055346102,0.5045168119266286,0.013160277599548248,-0.069829,-34.602728
11.185,2.0,1.0,1.0,33.4,34.5,34.5,2.1,2.3,2.505,0.8505053694658463,-0.01347884480813468,0.5103887093608324,0.013268242135683738,-0.070685,-34.464501
11.185,2.0,1.0,1.0,33.4,34.5,34.5,2.1,2.3,2.5075,0.8468352098925729,-0.013799766964548784,0.5162635178254678,0.013376163952724677,-0.071559,-34.325556
11.185,2.0,1.0,1.0,33.4,34.5,34.5,2.1,2.3,2.51,0.8431037990159411,-0.014128321695189692,0.5221409927375382,0.013483996989917046,-0.072454,-34.185878
11.185,2.0,1.0,1.0,33.4,34.5,34.5,2.1,2.3,2.5125,0.8393103379117358,-0.014464731029213274,0.5280208797780775,0.013591692212627042,-0.07337,-34.045451
11.185,2.0,1.0,1.0,33.4,34.5,34.5,2.1,2.3,2.515,0.8354540094772154,-0.014809225205632673,0.5339029144706211,0.01369919742563231,-0.074307,-33.904257
11.185,2.0,1.0,1.0,33.4,34.5,34.5,2.1,2.3,2.5175,0.8315339778707397,-0.015162043043174464,0.5397868217387468,0.013806457073685758,-0.075266,-33.76228
11.185,2.0,1.0,1.0,33.4,34.5,34.5,2.1,2.3,2.52,0.8275493879277732,-0.015523432329819434,0.5456723154414264,0.013913412028387268,-0.076249,-33.619503
11.185,2.0,1.0,1.0,33.4,34.5,34.5,2.1,2.3,2.5225,0.8234993645519816,-0.015893650233235104,0.551559097884793,0.014019999360316794,-0.077255,-33.475907
11.185,2.0,1.0,1.0,33.4,34.5,34.5,2.1,2.3,2.525,0.8193830120800228,-0.01627296373339382,0.5574468593088726,0.014126152095293746,-0.078286,-33.331475
11.185,2.0,1.0,1.0,33.4,34.5,34.5,2.1,2.3,2.5275,0.8151994136185655,-0.016661650078757306,0.5633352773476833,0.014231798953531292,-0.079342,-33.186188
11.185,2.0,1.0,1.0,33.4,34.5,34.5,2.1,2.3,2.53,0.8109476303519536,-0.01705999726750796,0.5692240164609885,0.014336864070344258,-0.080424,-33.040027
11.185,2.0,1.0,1.0,33.4,34.5,34.5,2.1,2.3,2.5325,0.8066267008188343,-0.01746830455541066,0.5751127273358714,0.014441266696956499,-0.081534,-32.892973
11.185,2.0,1.0,1.0,33.4,34.5,34.5,2.1,2.3,2.535,0.8022356401559462,-0.017886882992003077,0.5810010462561397,0.014544920879822443,-0.082671,-32.745006
11.185,2.0,1.0,1.0,33.4,34.5,34.5,2.1,2.3,2.5375,0.7977734393071483,-0.018316055986932145,0.5868885944374125,0.014647735116737691,-0.083838,-32.596104
11.185,2.0,1.0,1.0,33.4,34.5,34.5,2.1,2.3,2.54,0.7932390641956206,-0.018756159908388494,0.5927749773255695,0.014749611987859491,-0.085035,-32.446248
11.185,2.0,1.0,1.0,33.4,34.5,34.5,2.1,2.3,2.5425,0.7886314548570369,-0.019207544715730485,0.5986597838560593,0.014850447759587562,-0.086263,-32.295416
11.185,2.0,1.0,1.0,33.4,34.5,34.5,2.1,2.3,2.545,0.7839495245313423,-0.019670574628544338,0.6045425856713446,0.014950131959068146,-0.087524,-32.143585
11.185,2.0,1.0,1.0,33.4,34.5,34.5,2.1,2.3,2.5475,0.7791921587106082,-0.020145628834550615,0.6104229362935298,0.015048546916879478,-0.088818,-31.990733
11.185,2.0,1.0,1.0,33.4,34.5,34.5,2.1,2.3,2.55,0.7743582141402375,-0.02063310223894993,0.6163003702489982,0.015145567275228769,-0.090147,-31.836837
11.185,2.0,1.0,1.0,33.4,34.5,34.5,2.1,2.3,2.5525,0.7694465177706216,-0.021133406257989505,0.6221744021415554,0.015241059458741097,-0.091512,-31.681873
11.185,2.0,1.0,1.0,33.4,34.5,34.5,2.1,2.3,2.555,0.7644558656561032,-0.021646969659747498,0.6280445256703312,0.015334881104644534,-0.092915,-31.525817
11.185,2.0,1.0,1.0,33.4,34.5,34.5,2.1,2.3,2.5575,0.7593850217978915,-0.022174239455354402,0.6339102125883225,0.01542688044884983,-0.094357,-31.368643
11.185,2.0,1.0,1.0,33.4,34.5,34.5,2.1,2.3,2.56,0.7542327169273199,-0.022715681844119134,0.6397709115970973,0.015516895664083872,-0.09584,-31.210325
11.185,2.0,1.0,1.0,33.4,34.5,34.5,2.1,2.3,2.5625,0.748997647225555,-0.0232717832162928,0.645626047172787,0.0156047541458661,-0.097364,-31.050837
11.185,2.0,1.0,1.0,33.4,34.5,34.5,2.1,2.3,2.565,0.743678472975577,-0.023843051217492008,0.6514750183180402,0.015690271741698132,-0.098933,-30.890152
11.185,2.0,1.0,1.0,33.4,34.5,34.5,2.1,2.3,2.5675,0.7382738171419428,-0.024430015879115183,0.6573171972341045,0.015773251918379208,-0.100547,-30.728242
11.185,2.0,1.0,1.0,33.4,34.5,34.5,2.1,2.3,2.57,0.7327822638734725,-0.02503323081942679,0.6631519279066779,0.01585348486184989,-0.102209,-30.565076
11.185,2.0,1.0,1.0,33.4,34.5,34.5,2.1,2.3,2.5725,0.7272023569236457,-0.025653274520349326,0.6689785245985475,0.015930746503398967,-0.10392,-30.400627
11.185,2.0,1.0,1.0,33.4,34.5,34.5,2.1,2.3,2.575,0.7215325979830783,-0.02629075168540473,0.6747962702413619,0.016004797465435167,-0.105683,-30.234863
11.185,2.0,1.0,1.0,33.4,34.5,34.5,2.1,2.3,2.5775,0.7157714449180075,-0.026946294684677533,0.6806044147181429,0.016075381919326386,-0.1075,-30.067751
11.185,2.0,1.0,1.0,33.4,34.5,34.5,2.1,2.3,2.58,0.7099173099082379,-0.027620565093143257,0.6864021730272964,0.016142226347020845,-0.109372,-29.899261
11.185,2.0,1.0,1.0,33.4,34.5,34.5,2.1,2.3,2.5825,0.7039685574774723,-0.028314255329216578,0.6921887233179753,0.016205038197292975,-0.111304,-29.729358
11.185,2.0,1.0,1.0,33.4,34.5,34.5,2.1,2.3,2.585,0.6979235024083965,-0.029028090400925063,0.6979632047855943,0.016263504426478125,-0.113297,-29.558007
11.185,2.0,1.0,1.0,33.4,34.5,34.5,2.1,2.3,2.5875,0.6917804075342636,-0.029762829767719053,0.703724715415164,0.01631728991246597,-0.115353,-29.385174
11.185,2.0,1.0,1.0,33.4,34.5,34.5,2.1,2.3,2.59,0.6855374813980656,-0.03051926932657668,0.7094723095588005,0.016366035729500163,-0.117477,-29.21082
11.185,2.0,1.0,1.0,33.4,34.5,34.5,2.1,2.3,2.5925,0.6791928757696487,-0.031298243531776716,0.7152049953323538,0.016409357269955578,-0.11967,-29.034907
11.185,2.0,1.0,1.0,33.4,34.5,34.5,2.1,2.3,2.595,0.6727446830103605,-0.03210062765847458,0.7209217318144525,0.01644684219772705,-0.121937,-28.857398
11.185,2.0,1.0,1.0,33.4,34.5,34.5,2.1,2.3,2.5975,0.666190933273939,-0.03292734022105709,0.7266214260294843,0.016478048216128735,-0.12428,-28.678249
11.185,2.0,1.0,1.0,33.4,34.5,34.5,2.1,2.3,2.6,0.659529591531455,-0.03377934555815209,0.7323029296939765,0.016502500631254025,-0.126704,-28.497421
11.185,2.0,1.0,1.0,33.4,34.5,34.5,2.1,2.3,2.6025,0.6527585544071177,-0.03465765659714854,0.7379650357035488,0.016519689689553408,-0.129212,-28.314868
11.185,2.0,1.0,1.0,33.4,34.5,34.5,2.1,2.3,2.605,0.6458756468106471,-0.03556333781214881,0.743606474335063,0.01652906766590511,-0.131808,-28.130547
11.185,2.0,1.0,1.0,33.4,34.5,34.5,2.1,2.3,2.6075,0.638878618350774,-0.036497508390417134,0.7492259091356538,0.016530045675659927,-0.134498,-27.944409
11.185,2.0,1.0,1.0,33.4,34.5,34.5,2.1,2.3,2.61,0.6317651395131499,-0.03746134562363303,0.7548219324670686,0.016521990180974156,-0.137285,-27.756409
11.185,2.0,1.0,1.0,33.4,34.5,34.5,2.1,2.3,2.6125,0.624532797584573,-0.03845608854159593,0.7603930606700153,0.01650421915815809,-0.140175,-27.566494
11.185,2.0,1.0,1.0,33.4,34.5,34.5,2.1,2.3,2.615,0.6171790923039782,-0.03948304180746956,0.7659377288090349,0.01647599788870597,-0.143173,-27.374613
11.185,2.0,1.0,1.0,33.4,34.5,34.5,2.1,2.3,2.6175,0.6097014312190582,-0.040543579895201715,0.7714542849536172,0.016436534332051566,-0.146285,-27.180713
11.185,2.0,1.0,1.0,33.4,34.5,34.5,2.1,2.3,2.62,0.6020971247256723,-0.041639151571419564,0.7769409839458884,0.016384974032841365,-0.149517,-26.984738
11.185,2.0,1.0,1.0,33.4,34.5,34.5,2.1,2.3,2.6225,0.5943633807653982,-0.042771284705870743,0.7823959805990236,0.016320394509537907,-0.152876,-26.78663
11.185,2.0,1.0,1.0,33.4,34.5,34.5,2.1,2.3,2.625,0.586497299154662,-0.043941591436367,0.787817322263505,0.0162417990643358,-0.156369,-26.586329
11.185,2.0,1.0,1.0,33.4,34.5,34.5,2.1,2.3,2.6275,0.5784958655168153,-0.045151773716186346,0.7932029406903599,0.016148109946581442,-0.160003,-26.383771
11.185,2.0,1.0,1.0,33.4,34.5,34.5,2.1,2.3,2.63,0.5703559447864085,-0.04640362927398533,0.7985506431113161,0.016038160792961366,-0.163787,-26.178894
11.185,2.0,1.0,1.0,33.4,34.5,34.5,2.1,2.3,2.6325,0.5620742742526502,-0.04769905801846379,0.8038581024453482,0.01591068825750465,-0.167729,-25.971628
11.185,2.0,1.0,1.0,33.4,34.5,34.5,2.1,2.3,2.635,0.5536474561067363,-0.04904006892228244,0.8091228465290459,0.015764322732706178,-0.171838,-25.761904
11.185,2.0,1.0,1.0,33.4,34.5,34.5,2.1,2.3,2.6375,0.5450719494553791,-0.05042878742203368,0.8143422462544184,0.015597578049591498,-0.176126,-25.549648
11.185,2.0,1.0,1.0,33.4,34.5,34.5,2.1,2.3,2.64,0.5363440617604787,-0.05186746337336419,0.8195135024818592,0.01540884002900361,-0.180603,-25.334785
11.185,2.0,1.0,1.0,33.4,34.5,34.5,2.1,2.3,2.6425,0.527459939662623,-0.05335847960258088,0.824633631577652,0.015196353738481376,-0.185281,-25.117234
11.185,2.0,1.0,1.0,33.4,34.5,34.5,2.1,2.3,2.645,0.5184155591438976,-0.05490436109816438,0.829699449404259,0.01495820928839091,-0.190173,-24.896914
11.185,2.0,1.0,1.0,33.4,34.5,34.5,2.1,2.3,2.6475,0.5092067149836138,-0.05650778488745139,0.8347075535671455,0.014692325977019752,-0.195293,-24.673737
11.185,2.0,1.0,1.0,33.4,34.5,34.5,2.1,2.3,2.65,0.49982900945901737,-0.05817159064518443,0.8396543036935685,0.014396434566566686,-0.200656,-24.447615
11.185,2.0,1.0,1.0,33.4,34.5,34.5,2.1,2.3,2.6525,0.49027784024219523,-0.05989879208144932,0.8445357994858156,0.014068057439710256,-0.206278,-24.218451
11.185,2.0,1.0,1.0,33.4,34.5,34.5,2.1,2.3,2.655,0.4805483874442902,-0.0616925891565047,0.8493478562531688,0.013704486348919706,-0.212178,-23.986149
11.185,2.0,1.0,1.0,33.4,34.5,34.5,2.1,2.3,2.6575,0.4706355997593677,-0.06355638116875198,0.8540859775822712,0.013302757426951193,-0.218374,-23.750606
11.185,2.0,1.0,1.0,33.4,34.5,34.5,2.1,2.3,2.66,0.46053417966310384,-0.06549378075919342,0.8587453247536113,0.012859623075937751,-0.224889,-23.511713
11.185,2.0,1.0,1.0,33.4,34.5,34.5,2.1,2.3,2.6625,0.4502385676266229,-0.06750862887054886,0.8633206824510459,0.012371520292799093,-0.231745,-23.269358
11.185,2.0,1.0,1.0,33.4,34.5,34.5,2.1,2.3,2.665,0.43974292531398423,-0.06960501069098508,0.8678064202401554,0.01183453491879159,-0.238969,-23.023424
11.185,2.0,1.0,1.0,33.4,34.5,34.5,2.1,2.3,2.6675,0.4290411177441849,-0.07178727260010705,0.8721964492077281,0.011244361218988676,-0.246588,-22.773786
11.185,2.0,1.0,1.0,33.4,34.5,34.5,2.1,2.3,2.67,0.4181266944162846,-0.07406004011715392,0.8764841730566392,0.010596256101071847,-0.254632,-22.520315
11.185,2.0,1.0,1.0,33.4,34.5,34.5,2.1,2.3,2.6725,0.40699286942130514,-0.07642823682644377,0.8806624328349671,0.009884987169314689,-0.263137,-22.262875
11.185,2.0,1.0,1.0,33.4,34.5,34.5,2.1,2.3,2.675,0.39563250059916466,-0.0788971042207387,0.8847234443421494,0.009104773675817268,-0.272139,-22.001324
11.185,2.0,1.0,1.0,33.4,34.5,34.5,2.1,2.3,2.6775,0.38403806784611233,-0.08147222235633272,0.8886587270944001,0.00824921927302273,-0.281679,-21.735512
11.185,2.0,1.0,1.0,33.4,34.5,34.5,2.1,2.3,2.68,0.37220165074197586,-0.08415953115033825,0.892459023541757,0.007311235284702482,-0.291804,-21.465281
11.185,2.0,1.0,1.0,33.4,34.5,34.5,2.1,2.3,2.6825,0.3601149057522742,-0.08696535206566366,0.8961142070044221,0.006282952991377407,-0.302564,-21.190465
11.185,2.0,1.0,1.0,33.4,34.5,34.5,2.1,2.3,2.685,0.3477690433747301,-0.08989640981571434,0.8996131765297996,0.005155623163981931,-0.314016,-20.910892
11.185,2.0,1.0,1.0,33.4,34.5,34.5,2.1,2.3,2.6875,0.335154805752151,-0.0929598535698841,0.902943736555888,0.00391950076862835,-0.326223,-20.626378
11.185,2.0,1.0,1.0,33.4,34.5,34.5,2.1,2.3,2.69,0.32226244547596683,-0.09616327694057793,0.9060924588920188,0.0025637123963182214,-0.339256,-20.336729
11.185,2.0,1.0,1.0,33.4,34.5,34.5,2.1,2.3,2.6925,0.30908170657278783,-0.09951473576711409,0.909044524083345,0.0010761035334822908,-0.353193,-20.041744
11.185,2.0,1.0,1.0,33.4,34.5,34.5,2.1,2.3,2.695,0.29560180902135874,-0.10302276236057321,0.9117835386979798,-0.0005569377304010723,-0.368123,-19.741209
11.185,2.0,1.0,1.0,33.4,34.5,34.5,2.1,2.3,2.6975,0.28181143861688956,-0.1066963744089558,0.9142913244505405,-0.0023506845778102415,-0.384146,-19.434899
11.185,2.0,1.0,1.0,33.4,34.5,34.5,2.1,2.3,2.7,0.2676987446213841,-0.1105450761271206,0.9165476743361275,-0.004322307669283784,-0.401374,-19.122577
11.185,2.0,1.0,1.0,33.4,34.5,34.5,2.1,2.3,2.7025,0.2532513484613797,-0.11457884842212063,0.9185300700760904,-0.006491149288977132,-0.419937,-18.803995
11.185,2.0,1.0,1.0,33.4,34.5,34.5,2.1,2.3,2.705,0.23845636782469834,-0.11880812376648116,0.9202133541516676,-0.008879042048140528,-0.439978,-18.478888
11.185,2.0,1.0,1.0,33.4,34.5,34.5,2.1,2.3,2.7075,0.22330046195331307,-0.12324374004263042,0.9215693485046412,-0.01151067994423999,-0.461663,-18.146983
11.185,2.0,1.0,1.0,33.4,34.5,34.5,2.1,2.3,2.71,0.2077699058483744,-0.1278968657245451,0.9225664105993336,-0.014414050937606393,-0.485182,-17.807988
11.185,2.0,1.0,1.0,33.4,34.5,34.5,2.1,2.3,2.7125,0.19185070365347515,-0.13277888624180711,0.9231689159589163,-0.0176209417649853,-0.51075,-17.461599
11.185,2.0,1.0,1.0,33.4,34.5,34.5,2.1,2.3,2.715,0.1755287548749191,-0.1379012380178515,0.92333665451781,-0.02116752745331073,-0.538618,-17.107497
11.185,2.0,1.0,1.0,33.4,34.5,34.5,2.1,2.3,2.7175,0.15879009161559424,-0.14327517220904679,0.9230241262057506,-0.02509505989274234,-0.569074,-16.745349
11.185,2.0,1.0,1.0,33.4,34.5,34.5,2.1,2.3,2.72,0.14162121101960237,-0.148911424221592,0.9221797191816921,-0.029450671792260262,-0.602452,-16.374807
11.185,2.0,1.0,1.0,33.4,34.5,34.5,2.1,2.3,2.7225,0.12400953514977929,-0.1548197571534799,0.9207447522338176,-0.034288314208707905,-0.639141,-15.99551
11.185,2.0,1.0,1.0,33.4,34.5,34.5,2.1,2.3,2.725,0.10594404121331794,-0.1610083367437724,0.9186523613585085,-0.039669847311094075,-0.679596,-15.607087
11.185,2.0,1.0,1.0,33.4,34.5,34.5,2.1,2.3,2.7275,0.08741611928005445,-0.16748288135386669,0.9158262099505827,-0.045666304597290194,-0.72435,-15.209154
11.185,2.0,1.0,1.0,33.4,34.5,34.5,2.1,2.3,2.73,0.06842073352438852,-0.17424551184919063,0.9121790032581747,-0.052359349550702386,-0.774033,-14.801326
11.185,2.0,1.0,1.0,33.4,34.5,34.5,2.1,2.3,2.7325,0.0489579879772512,-0.1812932016012246,0.907610792218334,-0.05984293928607398,-0.829389,-14.383215
11.185,2.0,1.0,1.0,33.4,34.5,34.5,2.1,2.3,2.735,0.029035230515427772,-0.18861569449579724,0.9020070618133067,-0.06822519979307662,-0.891304,-13.954439
11.185,2.0,1.0,1.0,33.4,34.5,34.5,2.1,2.3,2.7375,0.008669871298492218,-0.19619271688489426,0.8952366183538583,-0.07763049830504837,-0.960836,-13.514636
11.185,2.0,1.0,1.0,33.4,34.5,34.5,2.1,2.3,2.74,-0.012106853940872573,-0.20399025591500497,0.8871493243655131,-0.0882016644053909,-1.039257,-13.063473
11.185,2.0,1.0,1.0,33.4,34.5,34.5,2.1,2.3,2.7425,-0.033244878018266436,-0.211955610210207,0.8775737879010943,-0.10010225396695739,-1.128099,-12.600667
11.185,2.0,1.0,1.0,33.4,34.5,34.5,2.1,2.3,2.745,-0.05466867596768637,-0.22001083982686695,0.8663152085444592,-0.11351865564721994,-1.229221,-12.126015
11.185,2.0,1.0,1.0,33.4,34.5,34.5,2.1,2.3,2.7475,-0.07626855195654036,-0.22804415518038398,0.8531537348760122,-0.12866168890804863,-1.344885,-11.639421
11.185,2.0,1.0,1.0,33.4,34.5,34.5,2.1,2.3,2.75,-0.0978892895143688,-0.23589870226786,0.837843925816896,-0.145767107670715,-1.477856,-11.140949
11.185,2.0,1.0,1.0,33.4,34.5,34.5,2.1,2.3,2.7525,-0.11931556609191185,-0.24335815341207048,0.8201162686694008,-0.16509406762641268,-1.631527,-10.630881
11.185,2.0,1.0,1.0,33.4,34.5,34.5,2.1,2.3,2.755,-0.14025357833808708,-0.25012855809870693,0.7996822352698821,-0.18692009306728244,-1.810073,-10.109802
11.185,2.0,1.0,1.0,33.4,34.5,34.5,2.1,2.3,2.7575,-0.16030857516817817,-0.25581615685999004,0.7762450981438673,-0.21153034784683036,-2.018638,-9.578697
11.185,2.0,1.0,1.0,33.4,34.5,34.5,2.1,2.3,2.76,-0.17895864244739865,-0.2599015010231967,0.7495196954424344,-0.2391980605470505,-2.263554,-9.03909
11.185,2.0,1.0,1.0,33.4,34.5,34.5,2.1,2.3,2.7625,-0.19552642679490345,-0.26171154962737503,0.7192654496398035,-0.27015185259174485,-2.552586,-8.493204
11.185,2.0,1.0,1.0,33.4,34.5,34.5,2.1,2.3,2.765,-0.2091529445648013,-0.2603938444900402,0.6853379190344416,-0.30452475823050823,-2.895162,-7.94416
11.185,2.0,1.0,1.0,33.4,34.5,34.5,2.1,2.3,2.7675,-0.21878164995357813,-0.2549008435175235,0.6477642825741056,-0.34227960929796064,-3.302519,-7.396191
11.185,2.0,1.0,1.0,33.4,34.5,34.5,2.1,2.3,2.77,-0.22316672648382024,-0.24399821022412632,0.6068460353809566,-0.3831075607498921,-3.787557,-6.85487
11.185,2.0,1.0,1.0,33.4,34.5,34.5,2.1,2.3,2.7725,-0.22092634379457568,-0.22631754622080616,0.5632855855467506,-0.4263030464922766,-4.364013,-6.3273
11.185,2.0,1.0,1.0,33.4,34.5,34.5,2.1,2.3,2.775,-0.21066641774995115,-0.20047877767626487,0.5183198177293801,-0.470631919254834,-5.04406,-5.822193
11.185,2.0,1.0,1.0,33.4,34.5,34.5,2.1,2.3,2.7775,-0.19119675999812494,-0.16530377775243107,0.4738220908857666,-0.5142308602960635,-5.832537,-5.349762
11.185,2.0,1.0,1.0,33.4,34.5,34.5,2.1,2.3,2.78,-0.1618398879139195,-0.1201214300919881,0.43230952968092823,-0.5546004318302851,-6.714498,-4.921296
11.185,2.0,1.0,1.0,33.4,34.5,34.5,2.1,2.3,2.7825,-0.12278630293858214,-0.0651184287806795,0.39678070356039097,-0.5887657213301074,-7.631822,-4.548346
11.185,2.0,1.0,1.0,33.4,34.5,34.5,2.1,2.3,2.785,-0.07538742756886835,-0.0016282804885069404,0.3703354707921744,-0.6136521058946057,-8.451756,-4.241525
11.185,2.0,1.0,1.0,33.4,34.5,34.5,2.1,2.3,2.7875,-0.022235269941805948,0.06779055241454436,0.35561163904652443,-0.6266417570410523,-8.963535,-4.009083
11.185,2.0,1.0,1.0,33.4,34.5,34.5,2.1,2.3,2.79,0.03308980158721436,0.13960439372112873,0.3541897096347951,-0.6261613414358318,-8.97754,-3.85559
11.185,2.0,1.0,1.0,33.4,34.5,34.5,2.1,2.3,2.7925,0.08659286906632112,0.2098715796581382,0.3661913918890023,-0.6120779858960079,-8.489537,-3.78112
11.185,2.0,1.0,1.0,33.4,34.5,34.5,2.1,2.3,2.795,0.13458448416249008,0.2749537530389926,0.3902498607216772,-0.5857278689402903,-7.685102,-3.781212
11.185,2.0,1.0,1.0,33.4,34.5,34.5,2.1,2.3,2.7975,0.17428819254214006,0.33211565715427455,0.4238643861401103,-0.549565213647356,-6.777034,-3.847627
11.185,2.0,1.0,1.0,33.4,34.5,34.5,2.1,2.3,2.8,0.20414266643447423,0.37982303480347146,0.4639782805540897,-0.5065909612821483,-5.901513,-3.96964
11.185,2.0,1.0,1.0,33.4,34.5,34.5,2.1,2.3,2.8025,0.2237662750489281,0.4177070707307323,0.5075539790047533,-0.4597845878341127,-5.118974,-4.135465
11.185,2.0,1.0,1.0,33.4,34.5,34.5,2.1,2.3,2.805,0.23368978459256348,0.44629994028284814,0.5519809380612266,-0.41170127545652857,-4.445502,-4.333486
11.185,2.0,1.0,1.0,33.4,34.5,34.5,2.1,2.3,2.8075,0.23500744210644312,0.466689937023739,0.5952672013945993,-0.36428284711674314,-3.876702,-4.553101
11.185,2.0,1.0,1.0,33.4,34.5,34.5,2.1,2.3,2.81,0.22906181308105286,0.4802101075721515,0.6360541642351417,-0.318843300471489,-3.400513,-4.785183
11.185,2.0,1.0,1.0,33.4,34.5,34.5,2.1,2.3,2.8125,0.217216089280444,0.488213386586242,0.673527303459809,-0.276157004806653,-3.003167,-5.022206
11.185,2.0,1.0,1.0,33.4,34.5,34.5,2.1,2.3,2.815,0.2007187512421794,0.4919389938971998,0.7072877295627847,-0.23658548487163314,-2.67169,-5.258177
11.185,2.0,1.0,1.0,33.4,34.5,34.5,2.1,2.3,2.8175,0.18064107305772026,0.49245077735840886,0.7372259069600343,-0.20020196180964842,-2.394771,-5.488454
11.185,2.0,1.0,1.0,33.4,34.5,34.5,2.1,2.3,2.82,0.1578624196239642,0.49062273509881854,0.7634168804682288,-0.16689456693492274,-2.162923,-5.709515
11.185,2.0,1.0,1.0,33.4,34.5,34.5,2.1,2.3,2.8225,0.1330821877839883,0.4871508176245174,0.7860418828193805,-0.1364434267435094,-1.968348,-5.918742
11.185,2.0,1.0,1.0,33.4,34.5,34.5,2.1,2.3,2.825,0.10684377066210446,0.4825765647863795,0.8053338803995034,-0.10857403908479911,-1.804704,-6.11422
11.185,2.0,1.0,1.0,33.4,34.5,34.5,2.1,2.3,2.8275,0.0795617698204082,0.47731390825063513,0.8215420088798435,-0.08299192750519842,-1.666863,-6.294569
11.185,2.0,1.0,1.0,33.4,34.5,34.5,2.1,2.3,2.83,0.051547858194637704,0.4716745963414912,0.8349097054347923,-0.05940369852758152,-1.550686,-6.458806
