1,w,sub_t,h,l1,l2,l3,g1,g2,Freq,S11_re,S21_re,S11_img,S21_img,S11_dB,S21_dB
11.185,2.0,1.0,1.0,33.8,34.1,34.1,4.0,1.6,2.5,0.812250942625163,-0.00959774056808898,0.571459758474611,0.00703408759856112,-0.059831,-38.48952
11.185,2.0,1.0,1.0,33.8,34.1,34.1,4.0,1.6,2.5025,0.8081878159540656,-0.009790991277990001,0.5770749058743613,0.007059858152092333,-0.060425,-38.365252
11.185,2.0,1.0,1.0,33.8,34.1,34.1,4.0,1.6,2.505,0.8040664539757493,-0.009987998248961643,0.5826855182989155,0.007084615782692833,-0.061031,-38.240481
11.185,2.0,1.0,1.0,33.8,34.1,34.1,4.0,1.6,2.5075,0.7998862665593167,-0.010188848538502784,0.5882912462995014,0.007108313614541746,-0.061651,-38.115194
11.185,2.0,1.0,1.0,33.8,34.1,34.1,4.0,1.6,2.51,0.795646654108093,-0.010393631909597795,0.5938917301117658,0.007130902855965621,-0.062284,-37.98938
11.185,2.0,1.0,1.0,33.8,34.1,34.1,4.0,1.6,2.5125,0.791347007388631,-0.010602440939102389,0.5994865993195698,0.007152332708237176,-0.06293,-37.863027
11.185,2.0,1.0,1.0,33.8,34.1,34.1,4.0,1.6,2.515,0.7869867073555509,-0.010815371131431396,0.6050754725068592,0.007172550269277198,-0.063591,-37.736122
11.185,2.0,1.0,1.0,33.8,34.1,34.1,4.0,1.6,2.5175,0.7825651249720413,-0.011032521037854764,0.6106579568970779,0.007191500431928181,-0.064265,-37.608653
11.185,2.0,1.0,1.0,33.8,34.1,34.1,4.0,1.6,2.52,0.7780816210257963,-0.011253992381731555,0.6162336479795986,0.007209125776444714,-0.064955,-37.480606
11.185,2.0,1.0,1.0,33.8,34.1,34.1,4.0,1.6,2.5225,0.7735355459401944,-0.011479890190030657,0.6218021291225689,0.007225366456818023,-0.065659,-37.351968
11.185,2.0,1.0,1.0,33.8,34.1,34.1,4.0,1.6,2.525,0.7689262395804645,-0.011710322931514014,0.6273629711715863,0.007240160080523946,-0.066379,-37.222726
11.185,2.0,1.0,1.0,33.8,34.1,34.1,4.0,1.6,2.5275,0.7642530310545914,-0.011945402661981472,0.632915732033545,0.0072534415812506555,-0.067115,-37.092865
11.185,2.0,1.0,1.0,33.8,34.1,34.1,4.0,1.6,2.53,0.7595152385086889,-0.012185245177005095,0.6384599562449664,0.007265143084130043,-0.067867,-36.962371
11.185,2.0,1.0,1.0,33.8,34.1,34.1,4.0,1.6,2.5325,0.7547121689165416,-0.012429970172610673,0.6439951745240928,0.007275193762957333,-0.068636,-36.83123
11.185,2.0,1.0,1.0,33.8,34.1,34.1,4.0,1.6,2.535,0.7498431178629943,-0.012679701414396028,0.6495209033059707,0.0072835196888446615,-0.069422,-36.699426
11.185,2.0,1.0,1.0,33.8,34.1,34.1,4.0,1.6,2.5375,0.7449073693208498,-0.012934566915610582,0.6550366442596962,0.007290043669708909,-0.070226,-36.566943
11.185,2.0,1.0,1.0,33.8,34.1,34.1,4.0,1.6,2.54,0.7399041954208938,-0.013194699124758458,0.6605418837869552,0.0072946850799461465,-0.071047,-36.433767
11.185,2.0,1.0,1.0,33.8,34.1,34.1,4.0,1.6,2.5425,0.7348328562146449,-0.013460235123327217,0.6660360925009232,0.007297359679593073,-0.071888,-36.299879
11.185,2.0,1.0,1.0,33.8,34.1,34.1,4.0,1.6,2.545,0.7296925994293887,-0.013731316834289372,0.6715187246845343,0.007297979422217206,-0.072748,-36.165265
11.185,2.0,1.0,1.0,33.8,34.1,34.1,4.0,1.6,2.5475,0.724482660215028,-0.014008091242069984,0.6769892177270465,0.0072964522507154425,-0.073628,-36.029907
11.185,2.0,1.0,1.0,33.8,34.1,34.1,4.0,1.6,2.55,0.7192022608822153,-0.014290710624725795,0.6824469915377871,0.007292681880132354,-0.074528,-35.893786
11.185,2.0,1.0,1.0,33.8,34.1,34.1,4.0,1.6,2.5525,0.7138506106312308,-0.014579332799136542,0.68789144793584,0.007286567566532687,-0.075449,-35.756885
11.185,2.0,1.0,1.0,33.8,34.1,34.1,4.0,1.6,2.555,0.7084269052709755,-0.014874121380069806,0.6933219700143923,0.007278003860882257,-0.076391,-35.619186
11.185,2.0,1.0,1.0,33.8,34.1,34.1,4.0,1.6,2.5575,0.7029303269274241,-0.015175246054045754,0.6987379214783338,0.007266880346799158,-0.077356,-35.480668
11.185,2.0,1.0,1.0,33.8,34.1,34.1,4.0,1.6,2.56,0.697360043740823,-0.015482882868999135,0.7041386459536049,0.007253081360938874,-0.078344,-35.341313
11.185,2.0,1.0,1.0,33.8,34.1,34.1,4.0,1.6,2.5625,0.6917152095508406,-0.015797214540812735,0.7095234662666862,0.007236485694667874,-0.079356,-35.2011
11.185,2.0,1.0,1.0,33.8,34.1,34.1,4.0,1.6,2.565,0.6859949635688153,-0.016118430777880867,0.7148916836924833,0.007216966275559331,-0.080393,-35.060008
11.185,2.0,1.0,1.0,33.8,34.1,34.1,4.0,1.6,2.5675,0.6801984300361824,-0.016446728624951286,0.7202425771687343,0.007194389827114187,-0.081454,-34.918015
11.185,2.0,1.0,1.0,33.8,34.1,34.1,4.0,1.6,2.57,0.6743247178680482,-0.016782312827594043,0.7255754024749086,0.007168616504963329,-0.082542,-34.7751
11.185,2.0,1.0,1.0,33.8,34.1,34.1,4.0,1.6,2.5725,0.668372920280812,-0.017125396218752732,0.73088939137342,0.007139499507647659,-0.083657,-34.63124
11.185,2.0,1.0,1.0,33.8,34.1,34.1,4.0,1.6,2.575,0.6623421144026282,-0.017476200128951715,0.7361837507107677,0.007106884659894976,-0.084799,-34.48641
11.185,2.0,1.0,1.0,33.8,34.1,34.1,4.0,1.6,2.5775,0.6562313608653837,-0.017834954821859702,0.7414576614760363,0.007070609966116173,-0.085971,-34.340588
11.185,2.0,1.0,1.0,33.8,34.1,34.1,4.0,1.6,2.58,0.6500397033767522,-0.018201899957050557,0.7467102778139749,0.0070305051316277845,-0.087173,-34.193747
11.185,2.0,1.0,1.0,33.8,34.1,34.1,4.0,1.6,2.5825,0.6437661682707425,-0.018577285081955008,0.7519407259896016,0.00698639104886617,-0.088405,-34.045863
11.185,2.0,1.0,1.0,33.8,34.1,34.1,4.0,1.6,2.585,0.637409764035021,-0.018961370155161264,0.7571481033010428,0.006938079245593614,-0.08967,-33.896907
11.185,2.0,1.0,1.0,33.8,34.1,34.1,4.0,1.6,2.5875,0.6309694808131103,-0.019354426103406996,0.7623314769369999,0.006885371291800359,-0.090968,-33.746853
11.185,2.0,1.0,1.0,33.8,34.1,34.1,4.0,1.6,2.59,0.6244442898794087,-0.01975673541480214,0.767489882774903,0.006828058161678198,-0.0923,-33.595673
11.185,2.0,1.0,1.0,33.8,34.1,34.1,4.0,1.6,2.5925,0.6178331430847486,-0.020168592771040314,0.7726223241154584,0.0067659195466758205,-0.093668,-33.443336
11.185,2.0,1.0,1.0,33.8,34.1,34.1,4.0,1.6,2.595,0.6111349722700278,-0.020590305721595144,0.7777277703488679,0.0066987231152383885,-0.095073,-33.289813
11.185,2.0,1.0,1.0,33.8,34.1,34.1,4.0,1.6,2.5975,0.6043486886451712,-0.02102219540315928,0.7828051555475631,0.006626223714379977,-0.096517,-33.135071
11.185,2.0,1.0,1.0,33.8,34.1,34.1,4.0,1.6,2.6,0.5974731821304444,-0.02146459730786964,0.7878533769797683,0.006548162507730074,-0.098001,-32.979079
11.185,2.0,1.0,1.0,33.8,34.1,34.1,4.0,1.6,2.6025,0.5905073206568365,-0.02191786210417738,0.792871293537653,0.006464266044127578,-0.099526,-32.821803
11.185,2.0,1.0,1.0,33.8,34.1,34.1,4.0,1.6,2.605,0.5834499494219024,-0.022382356514566583,0.7978577240731954,0.00637424525020121,-0.101095,-32.663206
11.185,2.0,1.0,1.0,33.8,34.1,34.1,4.0,1.6,2.6075,0.5762998900971062,-0.02285846425470422,0.8028114456341621,0.0062777943396624325,-0.102709,-32.503254
11.185,2.0,1.0,1.0,33.8,34.1,34.1,4.0,1.6,2.61,0.5690559399823132,-0.02334658703902156,0.8077311915918086,0.006174589631237339,-0.10437,-32.341909
11.185,2.0,1.0,1.0,33.8,34.1,34.1,4.0,1.6,2.6125,0.5617168711026355,-0.023847145658185506,0.8126156496510238,0.006064288266265986,-0.10608,-32.179131
11.185,2.0,1.0,1.0,33.8,34.1,34.1,4.0,1.6,2.615,0.5542814292423542,-0.024360581134424363,0.8174634597326138,0.005946526815983906,-0.107841,-32.014881
11.185,2.0,1.0,1.0,33.8,34.1,34.1,4.0,1.6,2.6175,0.5467483329101253,-0.024887355961226872,0.8222732117162821,0.005820919767360784,-0.109656,-31.849115
11.185,2.0,1.0,1.0,33.8,34.1,34.1,4.0,1.6,2.62,0.5391162722290652,-0.025427955434547223,0.8270434430315918,0.0056870578750820985,-0.111526,-31.681791
11.185,2.0,1.0,1.0,33.8,34.1,34.1,4.0,1.6,2.6225,0.5313839077446627,-0.02598288908332481,0.8317726360827391,0.0055445063658020885,-0.113454,-31.512863
11.185,2.0,1.0,1.0,33.8,34.1,34.1,4.0,1.6,2.625,0.52354986914277,-0.0265526922078703,0.836459215491291,0.00539280297914623,-0.115443,-31.342283
11.185,2.0,1.0,1.0,33.8,34.1,34.1,4.0,1.6,2.6275,0.5156127538690706,-0.02713792753549376,0.8411015451392418,0.005231455828068175,-0.117496,-31.170003
11.185,2.0,1.0,1.0,33.8,34.1,34.1,4.0,1.6,2.63,0.507571125640595,-0.02773918700365579,0.8456979249925245,0.005059941059038808,-0.119615,-30.995971
11.185,2.0,1.0,1.0,33.8,34.1,34.1,4.0,1.6,2.6325,0.499423512838825,-0.028357093681925245,0.8502465876828033,0.004877700290122023,-0.121805,-30.820133
11.185,2.0,1.0,1.0,33.8,34.1,34.1,4.0,1.6,2.635,0.49116840677287266,-0.02899230384513021,0.8547456948225294,0.004684137802231059,-0.124067,-30.642435
11.185,2.0,1.0,1.0,33.8,34.1,34.1,4.0,1.6,2.6375,0.4828042598000013,-0.029645509211310775,0.8591933330251488,0.004478617455702904,-0.126407,-30.462817
11.185,2.0,1.0,1.0,33.8,34.1,34.1,4.0,1.6,2.64,0.4743294832894067,-0.03031743935943009,0.8635875095987385,0.00426045930072013,-0.128828,-30.28122
11.185,2.0,1.0,1.0,33.8,34.1,34.1,4.0,1.6,2.6425,0.4657424454137338,-0.031008864343282153,0.8679261478772097,0.004028935845969373,-0.131334,-30.09758
11.185,2.0,1.0,1.0,33.8,34.1,34.1,4.0,1.6,2.645,0.457041468751136,-0.03172059751968034,0.8722070821484755,0.00378326794517297,-0.13393,-29.91183
11.185,2.0,1.0,1.0,33.8,34.1,34.1,4.0,1.6,2.6475,0.44822482767889615,-0.03245349861081327,0.8764280521335327,0.003522620255658731,-0.13662,-29.723901
11.185,2.0,1.0,1.0,33.8,34.1,34.1,4.0,1.6,2.65,0.43929074553760683,-0.033208477022649674,0.8805866969641025,0.0032460962168246585,-0.139411,-29.533722
11.185,2.0,1.0,1.0,33.8,34.1,34.1,4.0,1.6,2.6525,0.4302373915427525,-0.03398649544345866,0.8846805485991719,0.0029527324890649513,-0.142306,-29.341215
11.185,2.0,1.0,1.0,33.8,34.1,34.1,4.0,1.6,2.655,0.4210628774180332,-0.03478857374892112,0.8887070246124036,0.002641492785281486,-0.145313,-29.146301
11.185,2.0,1.0,1.0,33.8,34.1,34.1,4.0,1.6,2.6575,0.41176525372217354,-0.03561579324293904,0.8926634202725298,0.0023112610173091895,-0.148437,-28.948897
11.185,2.0,1.0,1.0,33.8,34.1,34.1,4.0,1.6,2.66,0.4023425058379789,-0.036469301266128934,0.8965468998275119,0.0019608336681880764,-0.151686,-28.748914
11.185,2.0,1.0,1.0,33.8,34.1,34.1,4.0,1.6,2.6625,0.3927925495892488,-0.037350316207117776,0.9003544868899281,0.0015889112879324077,-0.155068,-28.546262
11.185,2.0,1.0,1.0,33.8,34.1,34.1,4.0,1.6,2.665,0.38311322644762386,-0.03826013295515631,0.904083053805585,0.00119408899492597,-0.15859,-28.340842
11.185,2.0,1.0,1.0,33.8,34.1,34.1,4.0,1.6,2.6675,0.3733022982877501,-0.03920012883621647,0.9077293098690993,0.0007748458468925238,-0.162262,-28.132554
11.185,2.0,1.0,1.0,33.8,34.1,34.1,4.0,1.6,2.67,0.36335744164503203,-0.04017177007864939,0.911289788228925,0.00032953292404250874,-0.166093,-27.921288
11.185,2.0,1.0,1.0,33.8,34.1,34.1,4.0,1.6,2.6725,0.3532762414259913,-0.04117661885860557,0.9147608312990825,-0.00014364005813242216,-0.170094,-27.706934
11.185,2.0,1.0,1.0,33.8,34.1,34.1,4.0,1.6,2.675,0.34305618401673454,-0.0422163409797232,0.9181385744651998,-0.0006466198186085383,-0.174276,-27.489369
11.185,2.0,1.0,1.0,33.8,34.1,34.1,4.0,1.6,2.6775,0.33269464973034857,-0.04329271424598535,0.9214189278373431,-0.0011815265104159157,-0.178652,-27.26847
11.185,2.0,1.0,1.0,33.8,34.1,34.1,4.0,1.6,2.68,0.3221889045293854,-0.04440763759101241,0.9245975557603684,-0.00175067293901611,-0.183235,-27.044102
11.185,2.0,1.0,1.0,33.8,34.1,34.1,4.0,1.6,2.6825,0.31153609095504553,-0.04556314103119546,0.9276698537429023,-0.0023565863380025603,-0.18804,-26.816125
11.185,2.0,1.0,1.0,33.8,34.1,34.1,4.0,1.6,2.685,0.30073321819055054,-0.046761396513727134,0.9306309224067434,-0.0030020330998360334,-0.193085,-26.584388
11.185,2.0,1.0,1.0,33.8,34.1,34.1,4.0,1.6,2.6875,0.289777151182817,-0.048004729733334736,0.9334755379875358,-0.0036900469301689052,-0.198387,-26.348734
11.185,2.0,1.0,1.0,33.8,34.1,34.1,4.0,1.6,2.69,0.2786645987445784,-0.04929563299281473,0.9361981188322349,-0.004423960979387009,-0.203966,-26.108994
11.185,2.0,1.0,1.0,33.8,34.1,34.1,4.0,1.6,2.6925,0.26739210055909185,-0.050636779181501994,0.9387926872362052,-0.005207444607479411,-0.209845,-25.864989
11.185,2.0,1.0,1.0,33.8,34.1,34.1,4.0,1.6,2.695,0.25595601301291854,-0.05203103694144952,0.9412528258385302,-0.006044545562191388,-0.216047,-25.61653
11.185,2.0,1.0,1.0,33.8,34.1,34.1,4.0,1.6,2.6975,0.24435249379007315,-0.053481487081787,0.9435716276435863,-0.006939738500586068,-0.222601,-25.363415
11.185,2.0,1.0,1.0,33.8,34.1,34.1,4.0,1.6,2.7,0.23257748517581922,-0.05499144028524389,0.9457416385534838,-0.00789798096682253,-0.229537,-25.105426
11.185,2.0,1.0,1.0,33.8,34.1,34.1,4.0,1.6,2.7025,0.22062669604282967,-0.05656445612409973,0.9477547910723358,-0.0089247781619812,-0.236889,-24.842335
11.185,2.0,1.0,1.0,33.8,34.1,34.1,4.0,1.6,2.705,0.20849558253128822,-0.0582043633615571,0.9496023275688386,-0.010026258114971081,-0.244694,-24.573894
11.185,2.0,1.0,1.0,33.8,34.1,34.1,4.0,1.6,2.7075,0.1961793274929709,-0.05991528145269097,0.9512747111465203,-0.011209259199433327,-0.252996,-24.299841
11.185,2.0,1.0,1.0,33.8,34.1,34.1,4.0,1.6,2.71,0.18367281885626774,-0.061701643068291026,0.9527615217545352,-0.012481432355964156,-0.261842,-24.019892
11.185,2.0,1.0,1.0,33.8,34.1,34.1,4.0,1.6,2.7125,0.1709706271956271,-0.06356821733322272,0.954051334656287,-0.013851360892133124,-0.271287,-23.733745
11.185,2.0,1.0,1.0,33.8,34.1,34.1,4.0,1.6,2.715,0.15806698297181646,-0.06552013328169495,0.9551315777319136,-0.015328701370491181,-0.281392,-23.441073
11.185,2.0,1.0,1.0,33.8,34.1,34.1,4.0,1.6,2.7175,0.144955754171624,-0.06756290276144752,0.9559883632906755,-0.01692434989013572,-0.292228,-23.141527
11.185,2.0,1.0,1.0,33.8,34.1,34.1,4.0,1.6,2.72,0.13163042545039227,-0.06970244163384895,0.9566062890674176,-0.01865063906287538,-0.303874,-22.834728
11.185,2.0,1.0,1.0,33.8,34.1,34.1,4.0,1.6,2.7225,0.11808408041496943,-0.07194508756949994,0.9569682018184059,-0.020521572235210245,-0.316422,-22.520268
11.185,2.0,1.0,1.0,33.8,34.1,34.1,4.0,1.6,2.725,0.10430938944608949,-0.07429761196073753,0.9570549153447588,-0.022553103082352685,-0.329978,-22.197707
11.185,2.0,1.0,1.0,33.8,34.1,34.1,4.0,1.6,2.7275,0.09029860654478471,-0.07676722236500207,0.9568448727649597,-0.024763470690557256,-0.344663,-21.866568
11.185,2.0,1.0,1.0,33.8,34.1,34.1,4.0,1.6,2.73,0.07604358023881043,-0.07936155031374073,0.9563137403138117,-0.027173602764592762,-0.360618,-21.526334
11.185,2.0,1.0,1.0,33.8,34.1,34.1,4.0,1.6,2.7325,0.06153578580721162,-0.08208861706283481,0.955433916713653,-0.029807602795598596,-0.378009,-21.176443
11.185,2.0,1.0,1.0,33.8,34.1,34.1,4.0,1.6,2.735,0.04676638927620922,-0.08495676661830155,0.9541739380539452,-0.032693341086815216,-0.397029,-20.816285
11.185,2.0,1.0,1.0,33.8,34.1,34.1,4.0,1.6,2.7375,0.03172635825188364,-0.08797455069700458,0.9524977528896817,-0.03586317469217523,-0.417905,-20.445196
11.185,2.0,1.0,1.0,33.8,34.1,34.1,4.0,1.6,2.74,0.016406641345851514,-0.09115054351136888,0.9503638356365942,-0.039354827855890895,-0.440908,-20.062454
11.185,2.0,1.0,1.0,33.8,34.1,34.1,4.0,1.6,2.7425,0.000798447705997233,-0.09449305440718248,0.9477240979617978,-0.043212472774831784,-0.466358,-19.667269
11.185,2.0,1.0,1.0,33.8,34.1,34.1,4.0,1.6,2.745,-0.015106327529858243,-0.09800969194403036,0.9445225473729824,-0.047488060784723986,-0.494643,-19.258781
11.185,2.0,1.0,1.0,33.8,34.1,34.1,4.0,1.6,2.7475,-0.03131446493926328,-0.10170671173790789,0.9406936292612917,-0.052242966695051435,-0.526226,-18.836054
11.185,2.0,1.0,1.0,33.8,34.1,34.1,4.0,1.6,2.75,-0.0478304714545873,-0.105588048869224,0.93616017309378,-0.0575500240658293,-0.561675,-18.398064
11.185,2.0,1.0,1.0,33.8,34.1,34.1,4.0,1.6,2.7525,-0.0646551749928824,-0.10965388869423151,0.9308308456150922,-0.06349604630472855,-0.601682,-17.943701
11.185,2.0,1.0,1.0,33.8,34.1,34.1,4.0,1.6,2.755,-0.08178364804327384,-0.11389855954835419,0.9245969952851428,-0.07018494593609237,-0.647104,-17.471759
11.185,2.0,1.0,1.0,33.8,34.1,34.1,4.0,1.6,2.7575,-0.09920213957087337,-0.11830742501337953,0.917328756699741,-0.07774157806721053,-0.699005,-16.980936
11.185,2.0,1.0,1.0,33.8,34.1,34.1,4.0,1.6,2.76,-0.11688353503978816,-0.1228522938733555,0.9088702804657202,-0.08631643452113283,-0.758723,-16.469842
11.185,2.0,1.0,1.0,33.8,34.1,34.1,4.0,1.6,2.7625,-0.1347806233215393,-0.12748462545154077,0.899033982272721,-0.09609128237985537,-0.82795,-15.937006
11.185,2.0,1.0,1.0,33.8,34.1,34.1,4.0,1.6,2.765,-0.15281608686218304,-0.13212544765542136,0.8875938044691589,-0.10728573411660808,-0.908852,-15.38091
11.185,2.0,1.0,1.0,33.8,34.1,34.1,4.0,1.6,2.7675,-0.1708675935173379,-0.136650372316517,0.8742777339558161,-0.12016447510023029,-1.004217,-14.800038
11.185,2.0,1.0,1.0,33.8,34.1,34.1,4.0,1.6,2.77,-0.1887455911174753,-0.1408673272030477,0.8587603779997085,-0.13504429994880104,-1.117675,-14.192966
11.185,2.0,1.0,1.0,33.8,34.1,34.1,4.0,1.6,2.7725,-0.20616034278859374,-0.14448358773146397,0.8406575647092196,-0.15229892039539822,-1.25398,-13.558523
11.185,2.0,1.0,1.0,33.8,34.1,34.1,4.0,1.6,2.775,-0.22267345375848738,-0.147057460517262,0.8195272649428882,-0.17235714756042145,-1.419392,-12.896043
11.185,2.0,1.0,1.0,33.8,34.1,34.1,4.0,1.6,2.7775,-0.23762805012969287,-0.14792899530007206,0.7948856068811531,-0.19568555264936713,-1.622158,-12.20578
11.185,2.0,1.0,1.0,33.8,34.1,34.1,4.0,1.6,2.78,-0.25005228868485596,-0.1461248408506639,0.7662549118238273,-0.22273857639646913,-1.873054,-11.489561
11.185,2.0,1.0,1.0,33.8,34.1,34.1,4.0,1.6,2.7825,-0.2585368087851088,-0.14023867685506705,0.7332743320928397,-0.2538456019219995,-2.185803,-10.751809
11.185,2.0,1.0,1.0,33.8,34.1,34.1,4.0,1.6,2.785,-0.2611068423819171,-0.12830929709611522,0.6959228540002419,-0.2889859996036787,-2.576792,-10.001034
11.185,2.0,1.0,1.0,33.8,34.1,34.1,4.0,1.6,2.7875,-0.2551603550643385,-0.10776938706113222,0.6549201016947702,-0.327389223961967,-3.062492,-9.251911
11.185,2.0,1.0,1.0,33.8,34.1,34.1,4.0,1.6,2.79,-0.23764358166253585,-0.0756365784046672,0.612346285294018,-0.3669245337145807,-3.650771,-8.527736
11.185,2.0,1.0,1.0,33.8,34.1,34.1,4.0,1.6,2.7925,-0.2057663194945925,-0.029242519832664134,0.5723704274522932,-0.40340076246141665,-4.318597,-7.862504
11.185,2.0,1.0,1.0,33.8,34.1,34.1,4.0,1.6,2.795,-0.15855458852449575,0.032224422747210234,0.5415872070566097,-0.43028064128643617,-4.969502,-7.300673
11.185,2.0,1.0,1.0,33.8,34.1,34.1,4.0,1.6,2.7975,-0.09899231416766836,0.10564471041024535,0.5279764578814611,-0.43977040740854345,-5.39766,-6.891818
11.185,2.0,1.0,1.0,33.8,34.1,34.1,4.0,1.6,2.8,-0.03523229652633844,0.1828775528621731,0.5377756429756861,-0.4259213673256244,-5.369377,-6.678582
11.185,2.0,1.0,1.0,33.8,34.1,34.1,4.0,1.6,2.8025,0.021293730410011525,0.2527209662647136,0.5715841344591034,-0.38837507703698637,-4.852374,-6.681617
11.185,2.0,1.0,1.0,33.8,34.1,34.1,4.0,1.6,2.805,0.060738980989218365,0.30567363277845594,0.6231366771824708,-0.3334212543305123,-4.067266,-6.890814
11.185,2.0,1.0,1.0,33.8,34.1,34.1,4.0,1.6,2.8075,0.07894598321280871,0.3378355088041481,0.6824075387410843,-0.2708891368771888,-3.261385,-7.269669
11.185,2.0,1.0,1.0,33.8,34.1,34.1,4.0,1.6,2.81,0.07762485045093426,0.35098281086100774,0.740271179829435,-0.20963814298217356,-2.56469,-7.769272
11.185,2.0,1.0,1.0,33.8,34.1,34.1,4.0,1.6,2.8125,0.06163230737812133,0.34989669471987,0.7911091777374334,-0.155086742540993,-2.008992,-8.342229
11.185,2.0,1.0,1.0,33.8,34.1,34.1,4.0,1.6,2.815,0.036207695016661406,0.3396955020771288,0.8327644789238302,-0.10929256363170235,-1.581354,-8.950423
11.185,2.0,1.0,1.0,33.8,34.1,34.1,4.0,1.6,2.8175,0.005551489180643542,0.32447326001674265,0.8653015423195788,-0.07216368769981316,-1.256472,-9.566751
11.185,2.0,1.0,1.0,33.8,34.1,34.1,4.0,1.6,2.82,-0.027464333758537036,0.3070273134319566,0.8898135385298981,-0.042614412733336327,-1.009884,-10.173591
11.185,2.0,1.0,1.0,33.8,34.1,34.1,4.0,1.6,2.8225,-0.0610704282536872,0.28908033464047306,0.9076770323603441,-0.019286481968419818,-0.821757,-10.760341
11.185,2.0,1.0,1.0,33.8,34.1,34.1,4.0,1.6,2.825,-0.09426554627098539,0.2716059365929118,0.9201938885929003,-0.0008958487426086105,-0.677075,-11.321168
11.185,2.0,1.0,1.0,33.8,34.1,34.1,4.0,1.6,2.8275,-0.12653498206323727,0.255102606252455,0.9284628733282595,0.013642814091449232,-0.564786,-11.853299
11.185,2.0,1.0,1.0,33.8,34.1,34.1,4.0,1.6,2.83,-0.15765383296647534,0.2397853289897315,0.9333615011410052,0.02519849941386355,-0.476831,-12.35585
