1,w,sub_t,h,l1,l2,l3,g1,g2,Freq,S11_re,S21_re,S11_img,S21_img,S11_dB,S21_dB
11.185,2.0,1.0,1.0,33.2,34.2,34.2,3.2,2.6,2.5,0.878552621415882,-0.00672401534378177,0.464586446531177,0.00641343569019864,-0.05377,-40.637651
11.185,2.0,1.0,1.0,33.2,34.2,34.2,3.2,2.6,2.5025,0.8755437737276364,-0.006869576381237149,0.47010962061207456,0.006456814876357022,-0.054277,-40.511884
11.185,2.0,1.0,1.0,33.2,34.2,34.2,3.2,2.6,2.505,0.8724874797678472,-0.007018022158594062,0.4756344504244611,0.0064999478401545135,-0.054794,-40.385696
11.185,2.0,1.0,1.0,33.2,34.2,34.2,3.2,2.6,2.5075,0.8693832693138493,-0.007169421163458681,0.48116076762834686,0.00654281458192806,-0.05532,-40.259075
11.185,2.0,1.0,1.0,33.2,34.2,34.2,3.2,2.6,2.51,0.8662306637112814,-0.007323844023996427,0.48668839862045604,0.006585394190811555,-0.055855,-40.132009
11.185,2.0,1.0,1.0,33.2,34.2,34.2,3.2,2.6,2.5125,0.863029175688178,-0.00748136359258362,0.49221716434947166,0.006627664799880501,-0.056401,-40.004487
11.185,2.0,1.0,1.0,33.2,34.2,34.2,3.2,2.6,2.515,0.8597783091635944,-0.007642055033394104,0.4977468801244622,0.006669603538799972,-0.056957,-39.876496
11.185,2.0,1.0,1.0,33.2,34.2,34.2,3.2,2.6,2.5175,0.8564775590505418,-0.007805995914137482,0.503277355416173,0.006711186483817972,-0.057524,-39.748023
11.185,2.0,1.0,1.0,33.2,34.2,34.2,3.2,2.6,2.52,0.853126411052981,-0.007973266302180147,0.5088083936508896,0.00675238860493472,-0.058102,-39.619057
11.185,2.0,1.0,1.0,33.2,34.2,34.2,3.2,2.6,2.5225,0.8497243414566304,-0.008143948865293873,0.5143397919965146,0.0067931837100654435,-0.058691,-39.489585
11.185,2.0,1.0,1.0,33.2,34.2,34.2,3.2,2.6,2.525,0.8462708169132984,-0.008318128977293782,0.5198713411405266,0.006833544386002441,-0.059291,-39.359593
11.185,2.0,1.0,1.0,33.2,34.2,34.2,3.2,2.6,2.5275,0.8427652942184632,-0.008495894828843387,0.5254028250594474,0.006873441935966273,-0.059903,-39.229068
11.185,2.0,1.0,1.0,33.2,34.2,34.2,3.2,2.6,2.53,0.8392072200817899,-0.008677337543722755,0.5309340207794173,0.006912846313521769,-0.060528,-39.097997
11.185,2.0,1.0,1.0,33.2,34.2,34.2,3.2,2.6,2.5325,0.8355960308902591,-0.008862551300875725,0.5364646981274704,0.006951726052616487,-0.061164,-38.966366
11.185,2.0,1.0,1.0,33.2,34.2,34.2,3.2,2.6,2.535,0.831931152463558,-0.009051633462572503,0.5419946194730744,0.0069900481934821075,-0.061814,-38.83416
11.185,2.0,1.0,1.0,33.2,34.2,34.2,3.2,2.6,2.5375,0.8282119998013769,-0.009244684709046219,0.5475235394594585,0.007027778204118621,-0.062477,-38.701366
11.185,2.0,1.0,1.0,33.2,34.2,34.2,3.2,2.6,2.54,0.8244379768222082,-0.009441809179986901,0.5530512047242483,0.007064879897060726,-0.063153,-38.567969
11.185,2.0,1.0,1.0,33.2,34.2,34.2,3.2,2.6,2.5425,0.8206084760932402,-0.009643114623301524,0.5585773536088798,0.0071013153411014305,-0.063844,-38.433953
11.185,2.0,1.0,1.0,33.2,34.2,34.2,3.2,2.6,2.545,0.8167228785509004,-0.009848712551577068,0.5641017158562408,0.007137044767623169,-0.064549,-38.299304
11.185,2.0,1.0,1.0,33.2,34.2,34.2,3.2,2.6,2.5475,0.8127805532115794,-0.01005871840671313,0.5696240122959363,0.007172026471159429,-0.065268,-38.164006
11.185,2.0,1.0,1.0,33.2,34.2,34.2,3.2,2.6,2.55,0.8087808568720242,-0.010273251733223902,0.5751439545165766,0.007206216703779606,-0.066003,-38.028042
11.185,2.0,1.0,1.0,33.2,34.2,34.2,3.2,2.6,2.5525,0.8047231337988796,-0.01049243636074276,0.5806612445243877,0.007239569562856843,-0.066754,-37.891397
11.185,2.0,1.0,1.0,33.2,34.2,34.2,3.2,2.6,2.555,0.8006067154067866,-0.010716400596301821,0.5861755743874564,0.007272036871744052,-0.067521,-37.754054
11.185,2.0,1.0,1.0,33.2,34.2,34.2,3.2,2.6,2.5575,0.7964309199244369,-0.010945277426998625,0.5916866258648442,0.007303568052843497,-0.068305,-37.615996
11.185,2.0,1.0,1.0,33.2,34.2,34.2,3.2,2.6,2.56,0.7921950520479248,-0.011179204733705556,0.597194070019753,0.007334109992514407,-0.069106,-37.477205
11.185,2.0,1.0,1.0,33.2,34.2,34.2,3.2,2.6,2.5625,0.7878984025806958,-0.011418325516525949,0.6026975668158825,0.0073636068972145665,-0.069924,-37.337663
11.185,2.0,1.0,1.0,33.2,34.2,34.2,3.2,2.6,2.565,0.7835402480593353,-0.011662788132751333,0.6081967646960555,0.007392000140224213,-0.070761,-37.197352
11.185,2.0,1.0,1.0,33.2,34.2,34.2,3.2,2.6,2.5675,0.7791198503644052,-0.011912746548129325,0.6136913001421106,0.0074192280982432355,-0.071617,-37.056253
11.185,2.0,1.0,1.0,33.2,34.2,34.2,3.2,2.6,2.57,0.7746364563154501,-0.012168360602312496,0.6191807972150074,0.0074452259770925976,-0.072493,-36.914348
11.185,2.0,1.0,1.0,33.2,34.2,34.2,3.2,2.6,2.5725,0.7700892972492547,-0.012429796289422573,0.6246648670740043,0.0074699256256857745,-0.073388,-36.771615
11.185,2.0,1.0,1.0,33.2,34.2,34.2,3.2,2.6,2.575,0.7654775885803538,-0.012697226054735007,0.6301431074736816,0.0074932553373615535,-0.074305,-36.628035
11.185,2.0,1.0,1.0,33.2,34.2,34.2,3.2,2.6,2.5775,0.7608005293427247,-0.01297082910856489,0.6356151022374962,0.007515139637591016,-0.075242,-36.483588
11.185,2.0,1.0,1.0,33.2,34.2,34.2,3.2,2.6,2.58,0.756057301711515,-0.013250791758517929,0.6410804207064491,0.007535499056983838,-0.076203,-36.338251
11.185,2.0,1.0,1.0,33.2,34.2,34.2,3.2,2.6,2.5825,0.7512470705035547,-0.013537307761360284,0.6465386171613496,0.007554249888422024,-0.077186,-36.192003
11.185,2.0,1.0,1.0,33.2,34.2,34.2,3.2,2.6,2.585,0.746368982655333,-0.013830578695857831,0.651989230217019,0.007571303927043344,-0.078193,-36.044822
11.185,2.0,1.0,1.0,33.2,34.2,34.2,3.2,2.6,2.5875,0.7414221666769829,-0.014130814358042127,0.6574317821866723,0.007586568191680847,-0.079224,-35.896684
11.185,2.0,1.0,1.0,33.2,34.2,34.2,3.2,2.6,2.59,0.736405732080736,-0.014438233180474788,0.6628657784145459,0.007599944626234682,-0.080281,-35.747565
11.185,2.0,1.0,1.0,33.2,34.2,34.2,3.2,2.6,2.5925,0.7313187687821557,-0.014753062677208545,0.6682907065747045,0.0076113297793112995,-0.081364,-35.597441
11.185,2.0,1.0,1.0,33.2,34.2,34.2,3.2,2.6,2.595,0.726160346472352,-0.015075539916278177,0.673706035933769,0.007620614460307629,-0.082475,-35.446287
11.185,2.0,1.0,1.0,33.2,34.2,34.2,3.2,2.6,2.5975,0.7209295139592036,-0.015405912021705525,0.6791112165751323,0.007627683369944764,-0.083614,-35.294077
11.185,2.0,1.0,1.0,33.2,34.2,34.2,3.2,2.6,2.6,0.7156252984754746,-0.015744436707163408,0.6845056785820098,0.007632414703062306,-0.084782,-35.140784
11.185,2.0,1.0,1.0,33.2,34.2,34.2,3.2,2.6,2.6025,0.7102467049515301,-0.016091382843621067,0.6898888311764365,0.007634679721273902,-0.08598,-34.986382
11.185,2.0,1.0,1.0,33.2,34.2,34.2,3.2,2.6,2.605,0.7047927152501571,-0.016447031063487903,0.6952600618110834,0.007634342292845598,-0.08721,-34.83084
11.185,2.0,1.0,1.0,33.2,34.2,34.2,3.2,2.6,2.6075,0.6992622873607973,-0.016811674403982763,0.7006187352104656,0.007631258396898645,-0.088473,-34.674131
11.185,2.0,1.0,1.0,33.2,34.2,34.2,3.2,2.6,2.61,0.69365435455026,-0.017185618992688122,0.7059641923578055,0.007625275588745427,-0.08977,-34.516225
11.185,2.0,1.0,1.0,33.2,34.2,34.2,3.2,2.6,2.6125,0.6879678244667331,-0.01756918477850107,0.7112957494234742,0.007616232422843988,-0.091102,-34.357089
11.185,2.0,1.0,1.0,33.2,34.2,34.2,3.2,2.6,2.615,0.6822015781936358,-0.017962706311471083,0.7166126966305499,0.007603957829494761,-0.092471,-34.196693
11.185,2.0,1.0,1.0,33.2,34.2,34.2,3.2,2.6,2.6175,0.6763544692495501,-0.018366533575317246,0.7219142970525817,0.007588270440999595,-0.093879,-34.035003
11.185,2.0,1.0,1.0,33.2,34.2,34.2,3.2,2.6,2.62,0.6704253225301398,-0.018781032876751386,0.7271997853382014,0.007568977862554568,-0.095325,-33.871985
11.185,2.0,1.0,1.0,33.2,34.2,34.2,3.2,2.6,2.6225,0.6644129331875887,-0.01920658779609994,0.7324683663566774,0.007545875882642804,-0.096814,-33.707604
11.185,2.0,1.0,1.0,33.2,34.2,34.2,3.2,2.6,2.625,0.65831606544271,-0.0196436002041165,0.737719213757902,0.00751874761713249,-0.098345,-33.541823
11.185,2.0,1.0,1.0,33.2,34.2,34.2,3.2,2.6,2.6275,0.652133451324402,-0.020092491350321786,0.7429514684396671,0.007487362580652897,-0.099921,-33.374605
11.185,2.0,1.0,1.0,33.2,34.2,34.2,3.2,2.6,2.63,0.6458637893306742,-0.02055370302868958,0.7481642369143184,0.007451475678112073,-0.101544,-33.20591
11.185,2.0,1.0,1.0,33.2,34.2,34.2,3.2,2.6,2.6325,0.6395057430049045,-0.021027698827033453,0.7533565895660533,0.007410826108424764,-0.103216,-33.035698
11.185,2.0,1.0,1.0,33.2,34.2,34.2,3.2,2.6,2.635,0.6330579394204121,-0.021514965467036046,0.7585275587891945,0.007365136171624033,-0.104939,-32.863927
11.185,2.0,1.0,1.0,33.2,34.2,34.2,3.2,2.6,2.6375,0.6265189675657759,-0.02201601424251029,0.7636761369967201,0.007314109969517886,-0.106716,-32.690554
11.185,2.0,1.0,1.0,33.2,34.2,34.2,3.2,2.6,2.64,0.6198873766225946,-0.02253138256419782,0.7688012744871527,0.007257431988915459,-0.108548,-32.515534
11.185,2.0,1.0,1.0,33.2,34.2,34.2,3.2,2.6,2.6425,0.6131616741266165,-0.023061635620195666,0.7739018771565682,0.007194765555160497,-0.110438,-32.33882
11.185,2.0,1.0,1.0,33.2,34.2,34.2,3.2,2.6,2.645,0.6063403240022633,-0.023607368161973882,0.7789768040409849,0.0071257511422501045,-0.112389,-32.160363
11.185,2.0,1.0,1.0,33.2,34.2,34.2,3.2,2.6,2.6475,0.599421744459621,-0.024169206426906457,0.7840248646726843,0.007050004524170123,-0.114404,-31.980114
11.185,2.0,1.0,1.0,33.2,34.2,34.2,3.2,2.6,2.65,0.5924043057418781,-0.024747810209301266,0.7890448162321007,0.0069671147502011095,-0.116486,-31.79802
11.185,2.0,1.0,1.0,33.2,34.2,34.2,3.2,2.6,2.6525,0.585286327710035,-0.025343875093084767,0.794035360474685,0.006876641924819382,-0.118638,-31.614026
11.185,2.0,1.0,1.0,33.2,34.2,34.2,3.2,2.6,2.655,0.5780660772503576,-0.02595813486060048,0.7989951404097113,0.006778114770392199,-0.120864,-31.428077
11.185,2.0,1.0,1.0,33.2,34.2,34.2,3.2,2.6,2.6575,0.5707417654886224,-0.026591364093411996,0.8039227367051001,0.006671027948097772,-0.123168,-31.240113
11.185,2.0,1.0,1.0,33.2,34.2,34.2,3.2,2.6,2.66,0.5633115447935719,-0.02724438098259326,0.8088166637891363,0.006554839109338776,-0.125553,-31.050074
11.185,2.0,1.0,1.0,33.2,34.2,34.2,3.2,2.6,2.6625,0.5557735055502352,-0.027918050367746586,0.813675365616223,0.006428965646299318,-0.128023,-30.857896
11.185,2.0,1.0,1.0,33.2,34.2,34.2,3.2,2.6,2.665,0.5481256726817596,-0.028613287025938825,0.8184972110595992,0.006292781106146164,-0.130584,-30.663511
11.185,2.0,1.0,1.0,33.2,34.2,34.2,3.2,2.6,2.6675,0.5403660018962527,-0.029331059233898064,0.8232804888890549,0.006145611228607294,-0.13324,-30.466852
11.185,2.0,1.0,1.0,33.2,34.2,34.2,3.2,2.6,2.67,0.5324923756326717,-0.030072392629202752,0.8280234022861052,0.005986729561176774,-0.135996,-30.267845
11.185,2.0,1.0,1.0,33.2,34.2,34.2,3.2,2.6,2.6725,0.5245025986771343,-0.030838374398832434,0.8327240628426288,0.00581535259986913,-0.138859,-30.066415
11.185,2.0,1.0,1.0,33.2,34.2,34.2,3.2,2.6,2.675,0.5163943934180598,-0.03163015782636653,0.8373804839815361,0.005630634396140832,-0.141833,-29.862484
11.185,2.0,1.0,1.0,33.2,34.2,34.2,3.2,2.6,2.6775,0.5081653947052572,-0.03244896723234198,0.8419905737294257,0.005431660562135636,-0.144926,-29.655968
11.185,2.0,1.0,1.0,33.2,34.2,34.2,3.2,2.6,2.68,0.49981314427445833,-0.03329610334583633,0.8465521267612307,0.005217441596601635,-0.148145,-29.446782
11.185,2.0,1.0,1.0,33.2,34.2,34.2,3.2,2.6,2.6825,0.49133508469481246,-0.03417294914925735,0.8510628156252414,0.004986905442419653,-0.151496,-29.234835
11.185,2.0,1.0,1.0,33.2,34.2,34.2,3.2,2.6,2.685,0.4827285527924528,-0.035080976242629076,0.8555201810434362,0.004738889173398023,-0.15499,-29.020032
11.185,2.0,1.0,1.0,33.2,34.2,34.2,3.2,2.6,2.6875,0.4739907724984336,-0.03602175177837988,0.8599216211662895,0.004472129692470917,-0.158633,-28.802274
11.185,2.0,1.0,1.0,33.2,34.2,34.2,3.2,2.6,2.69,0.46511884706408285,-0.03699694602279394,0.8642643796428343,0.00418525330529064,-0.162436,-28.581458
11.185,2.0,1.0,1.0,33.2,34.2,34.2,3.2,2.6,2.6925,0.4561097505810531,-0.03800834060589353,0.8685455323451833,0.0038767640119003067,-0.16641,-28.357473
11.185,2.0,1.0,1.0,33.2,34.2,34.2,3.2,2.6,2.695,0.4469603187371914,-0.039057837527573414,0.8727619725613376,0.003545030334148939,-0.170566,-28.130205
11.185,2.0,1.0,1.0,33.2,34.2,34.2,3.2,2.6,2.6975,0.43766723873263685,-0.040147468994311666,0.8769103944402743,0.0031882704669908986,-0.174916,-27.899533
11.185,2.0,1.0,1.0,33.2,34.2,34.2,3.2,2.6,2.7,0.42822703827352065,-0.04127940816767199,0.8809872744379891,0.002804535506950911,-0.179473,-27.66533
11.185,2.0,1.0,1.0,33.2,34.2,34.2,3.2,2.6,2.7025,0.4186360735531598,-0.0424559809130395,0.8849888504714233,0.0023916904697272026,-0.184254,-27.427462
11.185,2.0,1.0,1.0,33.2,34.2,34.2,3.2,2.6,2.705,0.4088905161230165,-0.04367967864444165,0.8889110984375773,0.001947392759840197,-0.189273,-27.185787
11.185,2.0,1.0,1.0,33.2,34.2,34.2,3.2,2.6,2.7075,0.39898633854798354,-0.04495317236871464,0.8927497056960715,0.0014690676968024952,-0.194548,-26.940157
11.185,2.0,1.0,1.0,33.2,34.2,34.2,3.2,2.6,2.71,0.3889192987331875,-0.04627932803935384,0.8965000410428937,0.0009538806324983117,-0.2001,-26.690414
11.185,2.0,1.0,1.0,33.2,34.2,34.2,3.2,2.6,2.7125,0.3786849228028153,-0.047661223336691254,0.9001571206186646,0.00039870511087710574,-0.20595,-26.436392
11.185,2.0,1.0,1.0,33.2,34.2,34.2,3.2,2.6,2.715,0.36827848640624866,-0.04910216599589159,0.9037155690933601,-0.00019991357932145368,-0.212121,-26.177915
11.185,2.0,1.0,1.0,33.2,34.2,34.2,3.2,2.6,2.7175,0.35769499432386714,-0.05060571380670306,0.9071695753473611,-0.0008458002290308229,-0.218641,-25.914796
11.185,2.0,1.0,1.0,33.2,34.2,34.2,3.2,2.6,2.72,0.34692915824573334,-0.052175696407570984,0.9105128417211894,-0.0015431978268486155,-0.225538,-25.646837
11.185,2.0,1.0,1.0,33.2,34.2,34.2,3.2,2.6,2.7225,0.33597537260278054,-0.05381623898970289,0.9137385257276105,-0.0022968230639824018,-0.232844,-25.37383
11.185,2.0,1.0,1.0,33.2,34.2,34.2,3.2,2.6,2.725,0.3248276883449978,-0.05553178801123508,0.9168391729025394,-0.0031119305348538684,-0.240597,-25.09555
11.185,2.0,1.0,1.0,33.2,34.2,34.2,3.2,2.6,2.7275,0.313479784587982,-0.0573271389940135,0.9198066392063705,-0.003994387204586396,-0.248837,-24.811761
11.185,2.0,1.0,1.0,33.2,34.2,34.2,3.2,2.6,2.73,0.3019249380937672,-0.05920746643028029,0.9226320010634037,-0.004950759035731933,-0.257608,-24.522211
11.185,2.0,1.0,1.0,33.2,34.2,34.2,3.2,2.6,2.7325,0.29015599062123887,-0.061178355756304405,0.9253054507295841,-0.005988412060651909,-0.266963,-24.226631
11.185,2.0,1.0,1.0,33.2,34.2,34.2,3.2,2.6,2.735,0.27816531428650765,-0.06324583724414097,0.9278161741895691,-0.007115630671026403,-0.276959,-23.924733
11.185,2.0,1.0,1.0,33.2,34.2,34.2,3.2,2.6,2.7375,0.26594477522896526,-0.06541642150650501,0.930152208180157,-0.008341756494859305,-0.28766,-23.616213
11.185,2.0,1.0,1.0,33.2,34.2,34.2,3.2,2.6,2.74,0.2534856961054141,-0.06769713608233194,0.9323002721891656,-0.009677351973011568,-0.299142,-23.300741
11.185,2.0,1.0,1.0,33.2,34.2,34.2,3.2,2.6,2.7425,0.24077881826203584,-0.07009556224259528,0.9342455703500046,-0.011134393668371781,-0.311487,-22.977968
11.185,2.0,1.0,1.0,33.2,34.2,34.2,3.2,2.6,2.745,0.22781426490396225,-0.07261987068566973,0.9359715569955284,-0.01272650148770153,-0.324791,-22.647518
11.185,2.0,1.0,1.0,33.2,34.2,34.2,3.2,2.6,2.7475,0.2145815072541521,-0.07527885411979578,0.9374596581910535,-0.014469211427745782,-0.339166,-22.308987
11.185,2.0,1.0,1.0,33.2,34.2,34.2,3.2,2.6,2.75,0.201069336652049,-0.0780819537725461,0.938688939760736,-0.0163803012475418,-0.354736,-21.961944
11.185,2.0,1.0,1.0,33.2,34.2,34.2,3.2,2.6,2.7525,0.18726584690954362,-0.0810392755026686,0.9396357100598391,-0.018480180711080204,-0.37165,-21.605923
11.185,2.0,1.0,1.0,33.2,34.2,34.2,3.2,2.6,2.755,0.17315843319198024,-0.08416158924426317,0.9402730429106902,-0.0207923608544978,-0.390076,-21.240424
11.185,2.0,1.0,1.0,33.2,34.2,34.2,3.2,2.6,2.7575,0.15873381647787352,-0.08746030273555462,0.9405702025684424,-0.023344020252069424,-0.410213,-20.864909
11.185,2.0,1.0,1.0,33.2,34.2,34.2,3.2,2.6,2.76,0.1439781066397229,-0.09094739650960025,0.940491948141267,-0.026166690656237196,-0.432292,-20.478799
11.185,2.0,1.0,1.0,33.2,34.2,34.2,3.2,2.6,2.7625,0.12887692291438937,-0.09463530142018443,0.9399976893579888,-0.02929708986649287,-0.456586,-20.081469
11.185,2.0,1.0,1.0,33.2,34.2,34.2,3.2,2.6,2.765,0.11341559877869735,-0.09853669176399094,0.939040458737033,-0.032778136454059324,-0.483419,-19.672247
11.185,2.0,1.0,1.0,33.2,34.2,34.2,3.2,2.6,2.7675,0.09757951016553697,-0.10266415519523936,0.9375656568577303,-0.036660189235992575,-0.513176,-19.250411
11.185,2.0,1.0,1.0,33.2,34.2,34.2,3.2,2.6,2.77,0.0813545832462344,-0.10702968342370767,0.935509517437744,-0.04100256427919715,-0.546316,-18.815182
11.185,2.0,1.0,1.0,33.2,34.2,34.2,3.2,2.6,2.7725,0.06472806317584925,-0.11164390264832402,0.9327972273557894,-0.045875393638955216,-0.583393,-18.365729
11.185,2.0,1.0,1.0,33.2,34.2,34.2,3.2,2.6,2.775,0.04768966195885918,-0.1165149261222744,0.9293406241745985,-0.051361902444567065,-0.62508,-17.901159
11.185,2.0,1.0,1.0,33.2,34.2,34.2,3.2,2.6,2.7775,0.030233257414129164,-0.1216466577406423,0.9250353816383822,-0.05756119280964335,-0.672196,-17.420528
11.185,2.0,1.0,1.0,33.2,34.2,34.2,3.2,2.6,2.78,0.012359394115959692,-0.1270362971331686,0.9197575854951783,-0.06459163091573969,-0.725748,-16.922837
11.185,2.0,1.0,1.0,33.2,34.2,34.2,3.2,2.6,2.7825,-0.0059210472450738115,-0.13267068193442197,0.9133596049915593,-0.072594930349287,-0.786981,-16.407047
11.185,2.0,1.0,1.0,33.2,34.2,34.2,3.2,2.6,2.785,-0.02458147704212243,-0.13852093547482022,0.9056651936622897,-0.08174099625843641,-0.857448,-15.872096
11.185,2.0,1.0,1.0,33.2,34.2,34.2,3.2,2.6,2.7875,-0.04357174170609134,-0.14453464623988543,0.8964638337129532,-0.09223351414044385,-0.939097,-15.316928
11.185,2.0,1.0,1.0,33.2,34.2,34.2,3.2,2.6,2.79,-0.06280666185745319,-0.1506244622192587,0.8855045221258812,-0.10431608358438216,-1.034391,-14.740542
11.185,2.0,1.0,1.0,33.2,34.2,34.2,3.2,2.6,2.7925,-0.08214936388370507,-0.15665151231961016,0.8724895765267062,-0.11827831871419103,-1.146464,-14.142071
11.185,2.0,1.0,1.0,33.2,34.2,34.2,3.2,2.6,2.795,-0.10138719321892797,-0.16240146084694673,0.8570697805237952,-0.13446059880347605,-1.279324,-13.520903
11.185,2.0,1.0,1.0,33.2,34.2,34.2,3.2,2.6,2.7975,-0.12019730921006605,-0.16755032069299247,0.8388435761385328,-0.15325477217856545,-1.438115,-12.87686
11.185,2.0,1.0,1.0,33.2,34.2,34.2,3.2,2.6,2.8,-0.1380985461263014,-0.17161664510346417,0.8173655034254418,-0.17509563948939738,-1.629437,-12.210478
11.185,2.0,1.0,1.0,33.2,34.2,34.2,3.2,2.6,2.8025,-0.15438648360105964,-0.173897084610649,0.7921733375782123,-0.20043382179702407,-1.861697,-11.523415
11.185,2.0,1.0,1.0,33.2,34.2,34.2,3.2,2.6,2.805,-0.1680515701679022,-0.173385192631769,0.7628500619876543,-0.22967398329476296,-2.145409,-10.819038
11.185,2.0,1.0,1.0,33.2,34.2,34.2,3.2,2.6,2.8075,-0.17768904741168012,-0.16868222791205537,0.7291458641256645,-0.2630534135981254,-2.493165,-10.103242
11.185,2.0,1.0,1.0,33.2,34.2,34.2,3.2,2.6,2.81,-0.18143033547729093,-0.15792949029851855,0.6911935683215015,-0.3004278541867487,-2.918635,-9.385527
11.185,2.0,1.0,1.0,33.2,34.2,34.2,3.2,2.6,2.8125,-0.176965613900694,-0.138831510374046,0.649846796202889,-0.34093564242182,-3.4331,-8.680245
11.185,2.0,1.0,1.0,33.2,34.2,34.2,3.2,2.6,2.815,-0.16178528510550433,-0.10889685809737074,0.6071263314334893,-0.38255488592427184,-4.036483,-8.007749
11.185,2.0,1.0,1.0,33.2,34.2,34.2,3.2,2.6,2.8175,-0.13380689982887942,-0.06606167236308741,0.566635531219833,-0.42169221667307993,-4.698258,-7.394791
11.185,2.0,1.0,1.0,33.2,34.2,34.2,3.2,2.6,2.82,-0.09246383820651606,-0.009770915819636397,0.5335933084720053,-0.45315227914981476,-5.327303,-6.873098
11.185,2.0,1.0,1.0,33.2,34.2,34.2,3.2,2.6,2.8225,-0.039965427230995054,0.057771912503820126,0.5139884221407138,-0.4709800970270972,-5.754755,-6.475091
11.185,2.0,1.0,1.0,33.2,34.2,34.2,3.2,2.6,2.825,0.018120660347342575,0.1310300733097857,0.5126672564783968,-0.47036116373868087,-5.797866,-6.226783
11.185,2.0,1.0,1.0,33.2,34.2,34.2,3.2,2.6,2.8275,0.07391283404571651,0.20217485756720963,0.5311216763911667,-0.4498164151826828,-5.412816,-6.140195
11.185,2.0,1.0,1.0,33.2,34.2,34.2,3.2,2.6,2.83,0.11978537945093454,0.2636394736200305,0.5665321663565016,-0.4121480766751117,-4.745571,-6.20927
