1,w,sub_t,h,l1,l2,l3,g1,g2,Freq,S11_re,S21_re,S11_img,S21_img,S11_dB,S21_dB
11.185,2.0,1.0,1.0,33.4,34.8,34.8,4.3,4.3,2.5,0.860476821874873,-0.00493298838119287,0.497637253396057,0.00295961985398498,-0.052153,-44.802544
11.185,2.0,1.0,1.0,33.4,34.8,34.8,4.3,4.3,2.5025,0.8572031851874826,-0.005032917051502618,0.5031387028447323,0.0029680502115235815,-0.052669,-44.667419
11.185,2.0,1.0,1.0,33.4,34.8,34.8,4.3,4.3,2.505,0.8538802941508733,-0.005134843241387152,0.5086399949798481,0.002975983692509084,-0.053195,-44.531725
11.185,2.0,1.0,1.0,33.4,34.8,34.8,4.3,4.3,2.5075,0.850507659217707,-0.0052388214541482896,0.5141409260032748,0.0029834002860730526,-0.053731,-44.395442
11.185,2.0,1.0,1.0,33.4,34.8,34.8,4.3,4.3,2.51,0.8470847818965911,-0.005344908341315198,0.5196412859632584,0.0029902791134736972,-0.054278,-44.258551
11.185,2.0,1.0,1.0,33.4,34.8,34.8,4.3,4.3,2.5125,0.8436111545310537,-0.005453162812818356,0.5251408585423997,0.00299659838047459,-0.054837,-44.121029
11.185,2.0,1.0,1.0,33.4,34.8,34.8,4.3,4.3,2.515,0.8400862600697387,-0.005563646154079473,0.530639420837462,0.003002335326507514,-0.055407,-43.982857
11.185,2.0,1.0,1.0,33.4,34.8,34.8,4.3,4.3,2.5175,0.8365095718272871,-0.005676422150528292,0.5361367431305851,0.003007466170360223,-0.055989,-43.844011
11.185,2.0,1.0,1.0,33.4,34.8,34.8,4.3,4.3,2.52,0.8328805532352933,-0.005791557220100947,0.5416325886514692,0.003011966052105425,-0.056583,-43.704469
11.185,2.0,1.0,1.0,33.4,34.8,34.8,4.3,4.3,2.5225,0.8291986575827086,-0.005909120554322442,0.5471267133300358,0.0030158089709616557,-0.057189,-43.564209
11.185,2.0,1.0,1.0,33.4,34.8,34.8,4.3,4.3,2.525,0.825463327744973,-0.006029184268627741,0.5526188655390737,0.0030189677187465514,-0.057808,-43.423206
11.185,2.0,1.0,1.0,33.4,34.8,34.8,4.3,4.3,2.5275,0.8216739959011253,-0.0061518235626332254,0.5581087858263074,0.003021413808549955,-0.058441,-43.281436
11.185,2.0,1.0,1.0,33.4,34.8,34.8,4.3,4.3,2.53,0.8178300832380659,-0.0062771168911336305,0.5635962066352942,0.0030231173982187406,-0.059088,-43.138874
11.185,2.0,1.0,1.0,33.4,34.8,34.8,4.3,4.3,2.5325,0.8139309996410691,-0.006405146146668258,0.5690808520145174,0.003024047208204482,-0.059748,-42.995493
11.185,2.0,1.0,1.0,33.4,34.8,34.8,4.3,4.3,2.535,0.8099761433695659,-0.0065359968545776375,0.5745624373139835,0.003024170433280328,-0.060423,-42.851268
11.185,2.0,1.0,1.0,33.4,34.8,34.8,4.3,4.3,2.5375,0.8059649007171406,-0.006669758381554212,0.5800406688685673,0.0030234526475833015,-0.061114,-42.70617
11.185,2.0,1.0,1.0,33.4,34.8,34.8,4.3,4.3,2.54,0.801896645654564,-0.0068065241587855095,0.5855152436673081,0.003021857702383345,-0.06182,-42.56017
11.185,2.0,1.0,1.0,33.4,34.8,34.8,4.3,4.3,2.5425,0.7977707394546025,-0.0069463919208891355,0.5909858490077723,0.0030193476159179797,-0.062542,-42.413241
11.185,2.0,1.0,1.0,33.4,34.8,34.8,4.3,4.3,2.545,0.7935865302972078,-0.0070894639619527786,0.5964521621345245,0.00301588245456158,-0.063281,-42.26535
11.185,2.0,1.0,1.0,33.4,34.8,34.8,4.3,4.3,2.5475,0.7893433528535758,-0.007235847410118062,0.6019138498606671,0.0030114202045223057,-0.064037,-42.116468
11.185,2.0,1.0,1.0,33.4,34.8,34.8,4.3,4.3,2.55,0.7850405278473928,-0.007385654522285877,0.6073705681713213,0.0030059166331711674,-0.06481,-41.966561
11.185,2.0,1.0,1.0,33.4,34.8,34.8,4.3,4.3,2.5525,0.7806773615914634,-0.00753900300067443,0.6128219618077916,0.00299932513901149,-0.065603,-41.815595
11.185,2.0,1.0,1.0,33.4,34.8,34.8,4.3,4.3,2.555,0.7762531454976964,-0.007696016333133754,0.6182676638310691,0.00299159658918803,-0.066414,-41.663537
11.185,2.0,1.0,1.0,33.4,34.8,34.8,4.3,4.3,2.5575,0.771767155558249,-0.007856824159309248,0.6237072951631789,0.002982679143310343,-0.067246,-41.51035
11.185,2.0,1.0,1.0,33.4,34.8,34.8,4.3,4.3,2.56,0.7672186517954088,-0.008021562664959608,0.6291404641047282,0.002972518062228932,-0.068098,-41.355997
11.185,2.0,1.0,1.0,33.4,34.8,34.8,4.3,4.3,2.5625,0.76260687767753,-0.00819037500697028,0.634566765826855,0.00296105550024447,-0.068971,-41.200439
11.185,2.0,1.0,1.0,33.4,34.8,34.8,4.3,4.3,2.565,0.7579310594980813,-0.00836341177186743,0.6399857818355846,0.0029482302790554854,-0.069867,-41.043636
11.185,2.0,1.0,1.0,33.4,34.8,34.8,4.3,4.3,2.5675,0.7531904057145488,-0.008540831470930942,0.6453970794063931,0.002933977641549936,-0.070785,-40.885546
11.185,2.0,1.0,1.0,33.4,34.8,34.8,4.3,4.3,2.57,0.7483841062435872,-0.008722801075335351,0.6508002109865413,0.0029182289833189086,-0.071728,-40.726126
11.185,2.0,1.0,1.0,33.4,34.8,34.8,4.3,4.3,2.5725,0.74351133170844,-0.00890949659511611,0.6561947135624696,0.0029009115595169956,-0.072695,-40.565331
11.185,2.0,1.0,1.0,33.4,34.8,34.8,4.3,4.3,2.575,0.7385712326341973,-0.00910110370617229,0.6615801079892546,0.0028819481643989025,-0.073689,-40.403114
11.185,2.0,1.0,1.0,33.4,34.8,34.8,4.3,4.3,2.5775,0.7335629385860011,-0.009297818429981964,0.6669558982787603,0.002861256780531938,-0.074709,-40.239426
11.185,2.0,1.0,1.0,33.4,34.8,34.8,4.3,4.3,2.58,0.7284855572447358,-0.009499847871229844,0.6723215708427508,0.0028387501943046055,-0.075757,-40.074217
11.185,2.0,1.0,1.0,33.4,34.8,34.8,4.3,4.3,2.5825,0.723338173414137,-0.00970741101913582,0.6776765936867699,0.002814335573918987,-0.076835,-39.907433
11.185,2.0,1.0,1.0,33.4,34.8,34.8,4.3,4.3,2.585,0.718119847952562,-0.009920739618937684,0.6830204155500873,0.002787914005557911,-0.077943,-39.739019
11.185,2.0,1.0,1.0,33.4,34.8,34.8,4.3,4.3,2.5875,0.7128296166218693,-0.010140079120733168,0.6883524649864327,0.0027593799828509414,-0.079083,-39.568918
11.185,2.0,1.0,1.0,33.4,34.8,34.8,4.3,4.3,2.59,0.7074664888449813,-0.01036568971373655,0.6936721493795629,0.0027286208441091404,-0.080257,-39.397068
11.185,2.0,1.0,1.0,33.4,34.8,34.8,4.3,4.3,2.5925,0.7020294463626795,-0.010597847454969063,0.6989788538869521,0.002695516151046118,-0.081465,-39.223408
11.185,2.0,1.0,1.0,33.4,34.8,34.8,4.3,4.3,2.595,0.696517441779066,-0.010836845502496927,0.7042719403039919,0.0026599370018359687,-0.08271,-39.047871
11.185,2.0,1.0,1.0,33.4,34.8,34.8,4.3,4.3,2.5975,0.6909293969837969,-0.011082995464576062,0.709550745840093,0.0026217452703531947,-0.083993,-38.870388
11.185,2.0,1.0,1.0,33.4,34.8,34.8,4.3,4.3,2.6,0.6852642014377343,-0.011336628877480565,0.714814581796881,0.002580792762278219,-0.085316,-38.690887
11.185,2.0,1.0,1.0,33.4,34.8,34.8,4.3,4.3,2.6025,0.6795207103069772,-0.011598098826411014,0.7200627321373133,0.002536920277399791,-0.086681,-38.509292
11.185,2.0,1.0,1.0,33.4,34.8,34.8,4.3,4.3,2.605,0.6736977424282857,-0.011867781725730959,0.7252944519329607,0.0024899565658746876,-0.088091,-38.325523
11.185,2.0,1.0,1.0,33.4,34.8,34.8,4.3,4.3,2.6075,0.6677940780867199,-0.012146079276897877,0.7305089656748386,0.0024397171643660803,-0.089546,-38.139497
11.185,2.0,1.0,1.0,33.4,34.8,34.8,4.3,4.3,2.61,0.6618084565837791,-0.012433420624891767,0.7357054654309957,0.002386003095840707,-0.091051,-37.951126
11.185,2.0,1.0,1.0,33.4,34.8,34.8,4.3,4.3,2.6125,0.655739573571402,-0.01273026473674058,0.7408831088315571,0.0023285994142813074,-0.092607,-37.760318
11.185,2.0,1.0,1.0,33.4,34.8,34.8,4.3,4.3,2.615,0.6495860781238418,-0.01303710302896754,0.7460410168589019,0.0022672735726147995,-0.094217,-37.566975
11.185,2.0,1.0,1.0,33.4,34.8,34.8,4.3,4.3,2.6175,0.6433465695155551,-0.013354462274508106,0.7511782714171762,0.002201773588664821,-0.095885,-37.370995
11.185,2.0,1.0,1.0,33.4,34.8,34.8,4.3,4.3,2.62,0.6370195936687609,-0.013682907823950485,0.7562939126511621,0.0021318259798105595,-0.097613,-37.172269
11.185,2.0,1.0,1.0,33.4,34.8,34.8,4.3,4.3,2.6225,0.6306036392291258,-0.014023047180949093,0.7613869359796414,0.002057133432142771,-0.099405,-36.970684
11.185,2.0,1.0,1.0,33.4,34.8,34.8,4.3,4.3,2.625,0.624097133222014,-0.0143755339774594,0.766456288802508,0.00197737216408839,-0.101266,-36.766118
11.185,2.0,1.0,1.0,33.4,34.8,34.8,4.3,4.3,2.6275,0.6174984362346886,-0.014741072401202615,0.7715008668339615,0.0018921889375368914,-0.103198,-36.558444
11.185,2.0,1.0,1.0,33.4,34.8,34.8,4.3,4.3,2.63,0.6108058370616771,-0.015120422135650718,0.7765195100057389,0.0018011976611946858,-0.105207,-36.347527
11.185,2.0,1.0,1.0,33.4,34.8,34.8,4.3,4.3,2.6325,0.6040175467409068,-0.015514403882047986,0.7815109978743721,0.0017039755209251272,-0.107297,-36.133223
11.185,2.0,1.0,1.0,33.4,34.8,34.8,4.3,4.3,2.635,0.597131691896977,-0.015923905543800423,0.7864740444543947,0.0016000585598177897,-0.109474,-35.915379
11.185,2.0,1.0,1.0,33.4,34.8,34.8,4.3,4.3,2.6375,0.590146307294727,-0.016349889166274757,0.7914072923848638,0.001488936616209674,-0.111744,-35.693835
11.185,2.0,1.0,1.0,33.4,34.8,34.8,4.3,4.3,2.64,0.5830593274906573,-0.01679339874002565,0.796309306318911,0.0013700475102568716,-0.114113,-35.468418
11.185,2.0,1.0,1.0,33.4,34.8,34.8,4.3,4.3,2.6425,0.5758685774514145,-0.01725556899315422,0.8011785654045039,0.0012427703481933754,-0.116588,-35.238945
11.185,2.0,1.0,1.0,33.4,34.8,34.8,4.3,4.3,2.645,0.5685717619867309,-0.017737635319438918,0.8060134546983118,0.0011064177871594073,-0.119177,-35.005221
11.185,2.0,1.0,1.0,33.4,34.8,34.8,4.3,4.3,2.6475,0.5611664538183833,-0.018240945013727944,0.8108122553222343,0.0009602270712521315,-0.121889,-34.767035
11.185,2.0,1.0,1.0,33.4,34.8,34.8,4.3,4.3,2.65,0.5536500800759463,-0.018766970015645798,0.8155731331323643,0.0008033496096985572,-0.124732,-34.524166
11.185,2.0,1.0,1.0,33.4,34.8,34.8,4.3,4.3,2.6525,0.5460199069734418,-0.01931732139791491,0.8202941256207291,0.0006348388188127562,-0.127717,-34.276374
11.185,2.0,1.0,1.0,33.4,34.8,34.8,4.3,4.3,2.655,0.5382730223770408,-0.019893765877737824,0.8249731267088063,0.00045363588812006347,-0.130857,-34.023402
11.185,2.0,1.0,1.0,33.4,34.8,34.8,4.3,4.3,2.6575,0.5304063159213781,-0.02049824468016938,0.8296078690149231,0.0002585530544104825,-0.134163,-33.764976
11.185,2.0,1.0,1.0,33.4,34.8,34.8,4.3,4.3,2.66,0.5224164562687745,-0.021132895143022766,0.8341959030811151,4.8253871176517305e-05,-0.137651,-33.500797
11.185,2.0,1.0,1.0,33.4,34.8,34.8,4.3,4.3,2.6625,0.5142998650295232,-0.02180007552577551,0.8387345729229554,-0.00017877016077034357,-0.141336,-33.230548
11.185,2.0,1.0,1.0,33.4,34.8,34.8,4.3,4.3,2.665,0.5060526867694937,-0.02250239357281443,0.8432209871108163,-0.0004242273902693819,-0.145237,-32.953882
11.185,2.0,1.0,1.0,33.4,34.8,34.8,4.3,4.3,2.6675,0.49767075442032266,-0.023242739487387396,0.8476519843928179,-0.0006900592265933967,-0.149374,-32.670427
11.185,2.0,1.0,1.0,33.4,34.8,34.8,4.3,4.3,2.67,0.48914954927311766,-0.024024324100693124,0.8520240926149218,-0.0009784800040596264,-0.153771,-32.379778
11.185,2.0,1.0,1.0,33.4,34.8,34.8,4.3,4.3,2.6725,0.4804841545740595,-0.024850723175220045,0.8563334793639463,-0.00129202506871588,-0.158455,-32.081496
11.185,2.0,1.0,1.0,33.4,34.8,34.8,4.3,4.3,2.675,0.47166920154359526,-0.025725928968148962,0.8605758923299243,-0.0016336090826266304,-0.163454,-31.775102
11.185,2.0,1.0,1.0,33.4,34.8,34.8,4.3,4.3,2.6775,0.46269880640325506,-0.02665441040551264,0.8647465868212202,-0.0020065971013229996,-0.168805,-31.460075
11.185,2.0,1.0,1.0,33.4,34.8,34.8,4.3,4.3,2.68,0.45356649670794896,-0.027641183487576465,0.8688402371222255,-0.002414891719282146,-0.174547,-31.135845
11.185,2.0,1.0,1.0,33.4,34.8,34.8,4.3,4.3,2.6825,0.4442651249389238,-0.028691893867327265,0.8728508273939062,-0.0028630405615813126,-0.180727,-30.801786
11.185,2.0,1.0,1.0,33.4,34.8,34.8,4.3,4.3,2.685,0.43478676690608525,-0.029812913922689876,0.8767715164903209,-0.0033563697179180155,-0.187398,-30.457213
11.185,2.0,1.0,1.0,33.4,34.8,34.8,4.3,4.3,2.6875,0.425122602033684,-0.0310114570813763,0.880594469269417,-0.00390115049650562,-0.194622,-30.101368
11.185,2.0,1.0,1.0,33.4,34.8,34.8,4.3,4.3,2.69,0.4152627720628311,-0.03229571264959834,0.8843106445283508,-0.004504809303462599,-0.202475,-29.733416
11.185,2.0,1.0,1.0,33.4,34.8,34.8,4.3,4.3,2.6925,0.4051962141150945,-0.03367500492074847,0.8879095263242245,-0.0051761937927968,-0.211043,-29.35243
11.185,2.0,1.0,1.0,33.4,34.8,34.8,4.3,4.3,2.695,0.39491046347026065,-0.03515998084500286,0.8913787807602052,-0.0059259130679720105,-0.220431,-28.95738
11.185,2.0,1.0,1.0,33.4,34.8,34.8,4.3,4.3,2.6975,0.3843914209209566,-0.036762830914234455,0.894703813750286,-0.006766776214220009,-0.230764,-28.547119
11.185,2.0,1.0,1.0,33.4,34.8,34.8,4.3,4.3,2.7,0.37362307938699474,-0.03849754793728876,0.8978671959704053,-0.007714362640908955,-0.242192,-28.12036
11.185,2.0,1.0,1.0,33.4,34.8,34.8,4.3,4.3,2.7025,0.36258720501157704,-0.04038022762307965,0.9008479078796269,-0.008787770873545882,-0.254899,-27.675661
11.185,2.0,1.0,1.0,33.4,34.8,34.8,4.3,4.3,2.705,0.3512629700018711,-0.042429412547924227,0.9036203384148557,-0.010010611457713939,-0.269112,-27.211396
11.185,2.0,1.0,1.0,33.4,34.8,34.8,4.3,4.3,2.7075,0.3396265394996841,-0.04466647564481855,0.9061529427669808,-0.011412337422860021,-0.285111,-26.725725
11.185,2.0,1.0,1.0,33.4,34.8,34.8,4.3,4.3,2.71,0.32765062558002944,-0.04711602796628549,0.9084064229846732,-0.013030046753874683,-0.303245,-26.216562
11.185,2.0,1.0,1.0,33.4,34.8,34.8,4.3,4.3,2.7125,0.31530404341141954,-0.049806312747868946,0.9103312329969254,-0.014910952390516236,-0.323961,-25.681531
11.185,2.0,1.0,1.0,33.4,34.8,34.8,4.3,4.3,2.715,0.3025513478979562,-0.05276950344664514,0.9118641161522668,-0.017115806968177782,-0.347825,-25.117919
11.185,2.0,1.0,1.0,33.4,34.8,34.8,4.3,4.3,2.7175,0.2893527135744064,-0.056041737584702274,0.9129232419680883,-0.019723707880652357,-0.375578,-24.522621
11.185,2.0,1.0,1.0,33.4,34.8,34.8,4.3,4.3,2.72,0.2756643850284834,-0.05966255203994572,0.9134012948195455,-0.02283891700278204,-0.408189,-23.892083
11.185,2.0,1.0,1.0,33.4,34.8,34.8,4.3,4.3,2.7225,0.26144034704125163,-0.06367306185030673,0.9131555464644677,-0.026600641183420187,-0.446952,-23.22224
11.185,2.0,1.0,1.0,33.4,34.8,34.8,4.3,4.3,2.725,0.24663649887435035,-0.0681115888491589,0.9119934766241341,-0.03119717132221918,-0.493618,-22.508474
11.185,2.0,1.0,1.0,33.4,34.8,34.8,4.3,4.3,2.7275,0.23121988296027793,-0.07300418457682817,0.909651871712067,-0.03688638356966132,-0.55059,-21.745598
11.185,2.0,1.0,1.0,33.4,34.8,34.8,4.3,4.3,2.73,0.2151880614304957,-0.07834496626982285,0.9057666325394287,-0.04402525500229267,-0.621216,-20.927953
11.185,2.0,1.0,1.0,33.4,34.8,34.8,4.3,4.3,2.7325,0.1986088515238464,-0.08405612244644814,0.8998303163980428,-0.0531111638449312,-0.710207,-20.049694
11.185,2.0,1.0,1.0,33.4,34.8,34.8,4.3,4.3,2.735,0.18170077371635582,-0.08990745756712556,0.8911367978326312,-0.06483524334457136,-0.82421,-19.105556
11.185,2.0,1.0,1.0,33.4,34.8,34.8,4.3,4.3,2.7375,0.16499356616681843,-0.0953567572164263,0.8787240486585127,-0.08013625867530574,-0.972474,-18.092557
11.185,2.0,1.0,1.0,33.4,34.8,34.8,4.3,4.3,2.74,0.14963794405655062,-0.09924344735189872,0.8613665195532001,-0.10020296167733363,-1.167113,-17.013675
11.185,2.0,1.0,1.0,33.4,34.8,34.8,4.3,4.3,2.7425,0.13795295844506061,-0.09925104074648568,0.8377871166928258,-0.1262554065334755,-1.42114,-15.885285
11.185,2.0,1.0,1.0,33.4,34.8,34.8,4.3,4.3,2.745,0.13417375635861784,-0.09118255444714239,0.8075333132812613,-0.15866640327336576,-1.738522,-14.750941
11.185,2.0,1.0,1.0,33.4,34.8,34.8,4.3,4.3,2.7475,0.14463835228513724,-0.06881414151082686,0.7732716843629901,-0.19469015996790992,-2.08401,-13.701864
11.185,2.0,1.0,1.0,33.4,34.8,34.8,4.3,4.3,2.75,0.174858696864767,-0.026847986979653,0.744236521413199,-0.225102039790344,-2.332426,-12.891067
11.185,2.0,1.0,1.0,33.4,34.8,34.8,4.3,4.3,2.7525,0.2212924665550596,0.030966741329766147,0.7354508316204296,-0.2351059688214864,-2.292523,-12.500029
11.185,2.0,1.0,1.0,33.4,34.8,34.8,4.3,4.3,2.755,0.2668077585727183,0.08755601815345358,0.7554226010588572,-0.2165730223287283,-1.925667,-12.630466
11.185,2.0,1.0,1.0,33.4,34.8,34.8,4.3,4.3,2.7575,0.29387949326856644,0.12574654892782067,0.7953579080966691,-0.178484268541664,-1.432957,-13.217655
11.185,2.0,1.0,1.0,33.4,34.8,34.8,4.3,4.3,2.76,0.2990723064877624,0.14241698269249534,0.8390798885486052,-0.1368832224731077,-1.004534,-14.08717
11.185,2.0,1.0,1.0,33.4,34.8,34.8,4.3,4.3,2.7625,0.2890029181267057,0.14427757824278348,0.8767182552968719,-0.10141069435213383,-0.694801,-15.072375
11.185,2.0,1.0,1.0,33.4,34.8,34.8,4.3,4.3,2.765,0.27101144883165823,0.13862859568912508,0.9058997341004119,-0.07428407269665219,-0.486132,-16.066703
11.185,2.0,1.0,1.0,33.4,34.8,34.8,4.3,4.3,2.7675,0.24977321105370873,0.13007913456528702,0.9276772092518439,-0.05437813927850239,-0.348116,-17.016369
11.185,2.0,1.0,1.0,33.4,34.8,34.8,4.3,4.3,2.77,0.22766266078642425,0.12095219321685532,0.9438266169664399,-0.039891007783773434,-0.256546,-17.899297
11.185,2.0,1.0,1.0,33.4,34.8,34.8,4.3,4.3,2.7725,0.2057285335923146,0.1122646345000777,0.9558922102943059,-0.029271525699184724,-0.195175,-18.709494
11.185,2.0,1.0,1.0,33.4,34.8,34.8,4.3,4.3,2.775,0.18436302347953082,0.10439160779381286,0.965015057413927,-0.02137755325804964,-0.15363,-19.448279
11.185,2.0,1.0,1.0,33.4,34.8,34.8,4.3,4.3,2.7775,0.1636580274988332,0.09741777800115337,0.9719925074509641,-0.015411156689217559,-0.125333,-20.119886
11.185,2.0,1.0,1.0,33.4,34.8,34.8,4.3,4.3,2.78,0.14357764541742005,0.0913063521964831,0.9773724360323122,-0.010822484612276494,-0.106074,-20.72939
11.185,2.0,1.0,1.0,33.4,34.8,34.8,4.3,4.3,2.7825,0.12403797263279676,0.0859767546073109,0.9815310848409077,-0.0072313989444121015,-0.093111,-21.281764
11.185,2.0,1.0,1.0,33.4,34.8,34.8,4.3,4.3,2.785,0.10494266168337976,0.08133897391186176,0.9847283379687407,-0.0043721325927067916,-0.084626,-21.781496
11.185,2.0,1.0,1.0,33.4,34.8,34.8,4.3,4.3,2.7875,0.08619787206621783,0.07730785829187702,0.9871449951555147,-0.0020560673215562846,-0.079392,-22.232456
11.185,2.0,1.0,1.0,33.4,34.8,34.8,4.3,4.3,2.79,0.06771776696937232,0.07380830169919848,0.9889075005216655,-0.00014704448468497684,-0.076569,-22.637879
11.185,2.0,1.0,1.0,33.4,34.8,34.8,4.3,4.3,2.7925,0.0494257747186604,0.07077641440682964,0.9901043302121263,0.0014550398696808367,-0.075572,-23.000394
11.185,2.0,1.0,1.0,33.4,34.8,34.8,4.3,4.3,2.795,0.03125404095236302,0.0681590349511414,0.9907969089636395,0.0028252409924277105,-0.075988,-23.322076
11.185,2.0,1.0,1.0,33.4,34.8,34.8,4.3,4.3,2.7975,0.01314218652223171,0.06591266308726032,0.991026931032161,0.0040210552567801535,-0.077527,-23.60449
11.185,2.0,1.0,1.0,33.4,34.8,34.8,4.3,4.3,2.8,-0.004964131458539725,0.06400229644696022,0.9908212923088806,0.005087608411716909,-0.079984,-23.848733
11.185,2.0,1.0,1.0,33.4,34.8,34.8,4.3,4.3,2.8025,-0.023114649445175255,0.06240037582380047,0.9901954073637619,0.006061328102573849,-0.083216,-24.055471
11.185,2.0,1.0,1.0,33.4,34.8,34.8,4.3,4.3,2.805,-0.041355849439743624,0.06108591705830153,0.9891554071585967,0.006972615170959666,-0.087125,-24.224959
11.185,2.0,1.0,1.0,33.4,34.8,34.8,4.3,4.3,2.8075,-0.05973222870628796,0.0600438523233065,0.9876995334446684,0.007847857487704458,-0.091648,-24.357065
11.185,2.0,1.0,1.0,33.4,34.8,34.8,4.3,4.3,2.81,-0.0782875131161906,0.05926458286450618,0.9858189271330541,0.00871102336134503,-0.096754,-24.451267
11.185,2.0,1.0,1.0,33.4,34.8,34.8,4.3,4.3,2.8125,-0.0970658552658291,0.0587437412937842,0.983497926224697,0.00958500634870787,-0.102433,-24.506657
11.185,2.0,1.0,1.0,33.4,34.8,34.8,4.3,4.3,2.815,-0.11611306820838424,0.05848216621674827,0.9807139285308681,0.010492856145931987,-0.108698,-24.521928
11.185,2.0,1.0,1.0,33.4,34.8,34.8,4.3,4.3,2.8175,-0.1354779548881041,0.05848610186059644,0.9774368245029768,0.011459013761632218,-0.115583,-24.495352
11.185,2.0,1.0,1.0,33.4,34.8,34.8,4.3,4.3,2.82,-0.15521380533169196,0.05876764949323376,0.9736279574325235,0.012510670288836316,-0.123146,-24.424743
11.185,2.0,1.0,1.0,33.4,34.8,34.8,4.3,4.3,2.8225,-0.17538015090049677,0.0593455163178527,0.9692385138274182,0.01367938788929508,-0.13147,-24.307413
11.185,2.0,1.0,1.0,33.4,34.8,34.8,4.3,4.3,2.825,-0.1960448901756389,0.060246132845505014,0.9642071760330236,0.015003163683474983,-0.140667,-24.140104
11.185,2.0,1.0,1.0,33.4,34.8,34.8,4.3,4.3,2.8275,-0.21728693781280167,0.0615052442472084,0.9584567680140457,0.016529192258886733,-0.15089,-23.918904
