1,w,sub_t,h,l1,l2,l3,g1,g2,Freq,S11_re,S21_re,S11_img,S21_img,S11_dB,S21_dB
11.185,2.0,1.0,1.0,34.5,34.0,34.0,3.5,2.0,2.5,0.70276788974146,-0.0141030776334926,0.699910803365848,0.00689361873687136,-0.071118,-36.083262
11.185,2.0,1.0,1.0,34.5,34.0,34.0,3.5,2.0,2.5025,0.6970726683047931,-0.014360625740612757,0.7054560722140767,0.006866707429734878,-0.071909,-35.96229
11.185,2.0,1.0,1.0,34.5,34.0,34.0,3.5,2.0,2.505,0.6913024968041052,-0.014622588779053767,0.7109829734259587,0.006836996287691781,-0.072716,-35.840846
11.185,2.0,1.0,1.0,34.5,34.0,34.0,3.5,2.0,2.5075,0.6854566393215499,-0.014889050331402882,0.7164907662542848,0.006804382655077501,-0.073538,-35.71892
11.185,2.0,1.0,1.0,34.5,34.0,34.0,3.5,2.0,2.51,0.6795343521022374,-0.0151600958133594,0.7219786890898426,0.0067687600856759225,-0.074376,-35.596505
11.185,2.0,1.0,1.0,34.5,34.0,34.0,3.5,2.0,2.5125,0.6735348835823775,-0.015435812518172169,0.7274459588528144,0.006730018186259579,-0.07523,-35.473589
11.185,2.0,1.0,1.0,34.5,34.0,34.0,3.5,2.0,2.515,0.6674574744246099,-0.01571628966222086,0.7328917703659157,0.00668804245274494,-0.076101,-35.350164
11.185,2.0,1.0,1.0,34.5,34.0,34.0,3.5,2.0,2.5175,0.6613013575609448,-0.016001618431766545,0.7383152957086611,0.006642714098558549,-0.076988,-35.226219
11.185,2.0,1.0,1.0,34.5,34.0,34.0,3.5,2.0,2.52,0.6550657582437103,-0.016291892030902658,0.7437156835521473,0.006593909874784733,-0.077894,-35.101745
11.185,2.0,1.0,1.0,34.5,34.0,34.0,3.5,2.0,2.5225,0.6487498941049835,-0.016587205730733162,0.7490920584736832,0.006541501881638915,-0.078817,-34.976731
11.185,2.0,1.0,1.0,34.5,34.0,34.0,3.5,2.0,2.525,0.6423529752249336,-0.01688765691980879,0.7544435202506083,0.006485357370778417,-0.079759,-34.851166
11.185,2.0,1.0,1.0,34.5,34.0,34.0,3.5,2.0,2.5275,0.6358742042095795,-0.017193345155848333,0.759769143132586,0.006425338537934029,-0.08072,-34.72504
11.185,2.0,1.0,1.0,34.5,34.0,34.0,3.5,2.0,2.53,0.6293127762784612,-0.017504372218775172,0.7650679750916302,0.0063613023053098895,-0.081701,-34.598342
11.185,2.0,1.0,1.0,34.5,34.0,34.0,3.5,2.0,2.5325,0.622667879362752,-0.01782084216509745,0.7703390370491012,0.006293100093161899,-0.082701,-34.471062
11.185,2.0,1.0,1.0,34.5,34.0,34.0,3.5,2.0,2.535,0.6159386942143559,-0.01814286138365966,0.7755813220788663,0.006220577579927515,-0.083722,-34.343186
11.185,2.0,1.0,1.0,34.5,34.0,34.0,3.5,2.0,2.5375,0.6091243945265772,-0.018470538652793352,0.7807937945857765,0.006143574450235154,-0.084765,-34.214705
11.185,2.0,1.0,1.0,34.5,34.0,34.0,3.5,2.0,2.54,0.6022241470669492,-0.018803985198894067,0.7859753894585827,0.006061924130077073,-0.085829,-34.085605
11.185,2.0,1.0,1.0,34.5,34.0,34.0,3.5,2.0,2.5425,0.5952371118228537,-0.019143314756449963,0.7911250111963685,0.005975453508379251,-0.086915,-33.955876
11.185,2.0,1.0,1.0,34.5,34.0,34.0,3.5,2.0,2.545,0.5881624421605819,-0.01948864362954641,0.7962415330075253,0.005883982644149138,-0.088024,-33.825504
11.185,2.0,1.0,1.0,34.5,34.0,34.0,3.5,2.0,2.5475,0.5809992849985309,-0.01984009075486893,0.8013237958802477,0.0057873244583238614,-0.089158,-33.694477
11.185,2.0,1.0,1.0,34.5,34.0,34.0,3.5,2.0,2.55,0.5737467809952219,-0.020197777766225382,0.8063706076234908,0.0056852844093802654,-0.090315,-33.562783
11.185,2.0,1.0,1.0,34.5,34.0,34.0,3.5,2.0,2.5525,0.5664040647529187,-0.02056182906060463,0.8113807418772389,0.005577660151699635,-0.091498,-33.430407
11.185,2.0,1.0,1.0,34.5,34.0,34.0,3.5,2.0,2.555,0.5589702650375943,-0.02093237186578595,0.8163529370909134,0.0054642411756075275,-0.092706,-33.297336
11.185,2.0,1.0,1.0,34.5,34.0,34.0,3.5,2.0,2.5575,0.551444505016064,-0.021309536309511743,0.8212858954686613,0.005344808427931505,-0.093941,-33.163557
11.185,2.0,1.0,1.0,34.5,34.0,34.0,3.5,2.0,2.56,0.5438259025111412,-0.021693455490226863,0.826178281880185,0.005219133911831332,-0.095203,-33.029055
11.185,2.0,1.0,1.0,34.5,34.0,34.0,3.5,2.0,2.5625,0.536113570275687,-0.022084265549388,0.831028722735722,0.00508698026456637,-0.096494,-32.893816
11.185,2.0,1.0,1.0,34.5,34.0,34.0,3.5,2.0,2.565,0.5283066162864775,-0.022482105745337114,0.8358358048236784,0.004948100311762197,-0.097813,-32.757825
11.185,2.0,1.0,1.0,34.5,34.0,34.0,3.5,2.0,2.5675,0.5204041440588661,-0.02288711852872406,0.8405980741093318,0.004802236596629825,-0.099163,-32.621066
11.185,2.0,1.0,1.0,34.5,34.0,34.0,3.5,2.0,2.57,0.5124052529832318,-0.02329944961945962,0.8453140344929368,0.004649120882472616,-0.100543,-32.483525
11.185,2.0,1.0,1.0,34.5,34.0,34.0,3.5,2.0,2.5725,0.5043090386842745,-0.023719248085165425,0.8499821465254312,0.00448847362668506,-0.101956,-32.345184
11.185,2.0,1.0,1.0,34.5,34.0,34.0,3.5,2.0,2.575,0.4961145934042561,-0.02414666642107712,0.8546008260798471,0.004320003424307993,-0.103401,-32.206027
11.185,2.0,1.0,1.0,34.5,34.0,34.0,3.5,2.0,2.5775,0.48782100641134235,-0.024581860631343617,0.8591684429763928,0.004143406419051658,-0.10488,-32.066038
11.185,2.0,1.0,1.0,34.5,34.0,34.0,3.5,2.0,2.58,0.4794273644342524,-0.025024990311648683,0.8636833195590186,0.0039583656795286444,-0.106394,-31.925199
11.185,2.0,1.0,1.0,34.5,34.0,34.0,3.5,2.0,2.5825,0.4709327521244697,-0.0254762187330621,0.8681437292211566,0.003764550538258956,-0.107945,-31.783492
11.185,2.0,1.0,1.0,34.5,34.0,34.0,3.5,2.0,2.585,0.4623362525473515,-0.025935712927007595,0.8725478948781255,0.0035616158908061413,-0.109532,-31.640899
11.185,2.0,1.0,1.0,34.5,34.0,34.0,3.5,2.0,2.5875,0.453636947703512,-0.026403643771206277,0.8768939873835189,0.0033492014521896434,-0.111159,-31.497401
11.185,2.0,1.0,1.0,34.5,34.0,34.0,3.5,2.0,2.59,0.4448339190819502,-0.0268801860764304,0.8811801238866993,0.0031269309674745757,-0.112825,-31.352979
11.185,2.0,1.0,1.0,34.5,34.0,34.0,3.5,2.0,2.5925,0.4359262482464399,-0.027365518673863005,0.8854043661282818,0.002894411373183835,-0.114533,-31.207612
11.185,2.0,1.0,1.0,34.5,34.0,34.0,3.5,2.0,2.595,0.42691301745681765,-0.02785982450282478,0.8895647186702482,0.0026512319058865893,-0.116283,-31.06128
11.185,2.0,1.0,1.0,34.5,34.0,34.0,3.5,2.0,2.5975,0.4177933103268384,-0.02836329069858186,0.8936591270570857,0.002396963154003319,-0.118078,-30.913961
11.185,2.0,1.0,1.0,34.5,34.0,34.0,3.5,2.0,2.6,0.4085662125204136,-0.028876108679898538,0.8976854759039972,0.002131156048525148,-0.119918,-30.765635
11.185,2.0,1.0,1.0,34.5,34.0,34.0,3.5,2.0,2.6025,0.3992308124881225,-0.029398474235934703,0.9016415869079472,0.0018533407879600089,-0.121806,-30.616278
11.185,2.0,1.0,1.0,34.5,34.0,34.0,3.5,2.0,2.605,0.38978620224599503,-0.029930587612026525,0.9055252167769097,0.0015630256924054002,-0.123743,-30.465868
11.185,2.0,1.0,1.0,34.5,34.0,34.0,3.5,2.0,2.6075,0.3802314781987023,-0.030472653593799862,0.9093340550722986,0.0012596959811839352,-0.125731,-30.314379
11.185,2.0,1.0,1.0,34.5,34.0,34.0,3.5,2.0,2.61,0.3705657420094185,-0.031024881588978086,0.9130657219590961,0.0009428124679705692,-0.127772,-30.161789
11.185,2.0,1.0,1.0,34.5,34.0,34.0,3.5,2.0,2.6125,0.3607881015187635,-0.031587485706141866,0.9167177658577038,0.0006118101667836583,-0.129868,-30.00807
11.185,2.0,1.0,1.0,34.5,34.0,34.0,3.5,2.0,2.615,0.3508976717153926,-0.03216068482956806,0.9202876609910041,0.0002660968015876338,-0.13202,-29.853197
11.185,2.0,1.0,1.0,34.5,34.0,34.0,3.5,2.0,2.6175,0.3408935757610139,-0.032744702689137525,0.9237728048194641,-9.494878842110497e-05,-0.134232,-29.697142
11.185,2.0,1.0,1.0,34.5,34.0,34.0,3.5,2.0,2.62,0.33077494607278,-0.0333397679241343,0.927170515356472,-0.0004719783565392424,-0.136506,-29.539878
11.185,2.0,1.0,1.0,34.5,34.0,34.0,3.5,2.0,2.6225,0.32054092546624546,-0.03394611413956787,0.9304780283553151,-0.0008656760788173732,-0.138843,-29.381375
11.185,2.0,1.0,1.0,34.5,34.0,34.0,3.5,2.0,2.625,0.310190668362368,-0.0345639799534272,0.933692494358344,-0.00127676051731628,-0.141247,-29.221603
11.185,2.0,1.0,1.0,34.5,34.0,34.0,3.5,2.0,2.6275,0.2997233420622663,-0.03519360903301954,0.9368109755979496,-0.0017059867278517808,-0.14372,-29.060531
11.185,2.0,1.0,1.0,34.5,34.0,34.0,3.5,2.0,2.63,0.2891381280938293,-0.03583525011825097,0.939830442737894,-0.0021541485248646477,-0.146265,-28.898126
11.185,2.0,1.0,1.0,34.5,34.0,34.0,3.5,2.0,2.6325,0.27843422363462883,-0.03648915702935451,0.9427477714423558,-0.002622080917336235,-0.148885,-28.734355
11.185,2.0,1.0,1.0,34.5,34.0,34.0,3.5,2.0,2.635,0.267610843016012,-0.03715558865617681,0.945559738758734,-0.0031106627310886707,-0.151583,-28.569183
11.185,2.0,1.0,1.0,34.5,34.0,34.0,3.5,2.0,2.6375,0.2566672193137697,-0.03783480892566132,0.9482630192987385,-0.003620819434398578,-0.154363,-28.402575
11.185,2.0,1.0,1.0,34.5,34.0,34.0,3.5,2.0,2.64,0.24560260603129214,-0.038527086743628855,0.9508541812006598,-0.004153526185626361,-0.157228,-28.234492
11.185,2.0,1.0,1.0,34.5,34.0,34.0,3.5,2.0,2.6425,0.23441627888183733,-0.039232695906318796,0.9533296818538096,-0.004709811123543898,-0.160183,-28.064895
11.185,2.0,1.0,1.0,34.5,34.0,34.0,3.5,2.0,2.645,0.22310753767724667,-0.039951914976420255,0.9556858633640113,-0.005290758923261774,-0.16323,-27.893745
11.185,2.0,1.0,1.0,34.5,34.0,34.0,3.5,2.0,2.6475,0.21167570833132232,-0.040685027117462226,0.9579189477366745,-0.005897514643144562,-0.166375,-27.720999
11.185,2.0,1.0,1.0,34.5,34.0,34.0,3.5,2.0,2.65,0.2001201449870983,-0.041432319879424945,0.9600250317512744,-0.0065312878908929456,-0.169621,-27.546614
11.185,2.0,1.0,1.0,34.5,34.0,34.0,3.5,2.0,2.6525,0.18844023227842496,-0.04219408492726066,0.9620000814980699,-0.007193357340100545,-0.172975,-27.370543
11.185,2.0,1.0,1.0,34.5,34.0,34.0,3.5,2.0,2.655,0.1766353877376165,-0.04297061770263752,0.9638399265444696,-0.00788507563212529,-0.17644,-27.192741
11.185,2.0,1.0,1.0,34.5,34.0,34.0,3.5,2.0,2.6575,0.16470506436256316,-0.04376221700760462,0.9655402536946097,-0.008607874702083424,-0.180022,-27.013156
11.185,2.0,1.0,1.0,34.5,34.0,34.0,3.5,2.0,2.66,0.15264875335854775,-0.04456918449698176,0.9670966003013434,-0.00936327157224832,-0.183728,-26.831739
11.185,2.0,1.0,1.0,34.5,34.0,34.0,3.5,2.0,2.6625,0.14046598707223135,-0.04539182406405308,0.968504347084921,-0.010152874661202954,-0.187563,-26.648434
11.185,2.0,1.0,1.0,34.5,34.0,34.0,3.5,2.0,2.665,0.12815634213783708,-0.04623044110152141,0.96975871040699,-0.010978390662804342,-0.191534,-26.463186
11.185,2.0,1.0,1.0,34.5,34.0,34.0,3.5,2.0,2.6675,0.1157194428586419,-0.047085341616586306,0.9708547339422521,-0.011841632055502902,-0.195649,-26.275937
11.185,2.0,1.0,1.0,34.5,34.0,34.0,3.5,2.0,2.67,0.10315496485044938,-0.04795683117536079,0.9717872796827995,-0.012744525309897442,-0.199914,-26.086625
11.185,2.0,1.0,1.0,34.5,34.0,34.0,3.5,2.0,2.6725,0.09046263897799775,-0.04884521364752644,0.9725510182019772,-0.01368911987074872,-0.204339,-25.895185
11.185,2.0,1.0,1.0,34.5,34.0,34.0,3.5,2.0,2.675,0.0776422556203005,-0.049750789717000206,0.9731404180951895,-0.014677597999154735,-0.208932,-25.701552
11.185,2.0,1.0,1.0,34.5,34.0,34.0,3.5,2.0,2.6775,0.06469366930689106,-0.05067385511832486,0.9735497345043724,-0.015712285571388034,-0.213702,-25.505655
11.185,2.0,1.0,1.0,34.5,34.0,34.0,3.5,2.0,2.68,0.05161680377410908,-0.051614698551266554,0.973772996620575,-0.01679566394320701,-0.21866,-25.30742
11.185,2.0,1.0,1.0,34.5,34.0,34.0,3.5,2.0,2.6825,0.038411657499020486,-0.052573599217498865,0.9738039940451279,-0.01793038300250729,-0.223817,-25.10677
11.185,2.0,1.0,1.0,34.5,34.0,34.0,3.5,2.0,2.685,0.025078309778757666,-0.05355082391298505,0.9736362618737715,-0.01911927554926036,-0.229185,-24.903624
11.185,2.0,1.0,1.0,34.5,34.0,34.0,3.5,2.0,2.6875,0.0116169274352234,-0.0545466235973821,0.973263064349723,-0.0203653731600848,-0.234776,-24.697897
11.185,2.0,1.0,1.0,34.5,34.0,34.0,3.5,2.0,2.69,-0.00197222776030504,-0.05556122934706588,0.9726773769105136,-0.02167192371590728,-0.240606,-24.4895
11.185,2.0,1.0,1.0,34.5,34.0,34.0,3.5,2.0,2.6925,-0.015688790830623488,-0.056594847580682194,0.9718718664291004,-0.02304241079539923,-0.246688,-24.278339
11.185,2.0,1.0,1.0,34.5,34.0,34.0,3.5,2.0,2.695,-0.02953228437077426,-0.05764765442482954,0.9708388694217316,-0.02448057516473676,-0.25304,-24.064314
11.185,2.0,1.0,1.0,34.5,34.0,34.0,3.5,2.0,2.6975,-0.04350210820223998,-0.05871978906177224,0.9695703679628106,-0.025990438626304707,-0.259679,-23.847323
11.185,2.0,1.0,1.0,34.5,34.0,34.0,3.5,2.0,2.7,-0.057597527713302746,-0.059811345869982276,0.9680579630097048,-0.027576330525926857,-0.266626,-23.627254
11.185,2.0,1.0,1.0,34.5,34.0,34.0,3.5,2.0,2.7025,-0.07181766065828885,-0.060922365130583384,0.9662928447974602,-0.029242917260859945,-0.273901,-23.403992
11.185,2.0,1.0,1.0,34.5,34.0,34.0,3.5,2.0,2.705,-0.0861614621425663,-0.06205282202691504,0.9642657599136016,-0.030995235180049773,-0.281528,-23.177414
11.185,2.0,1.0,1.0,34.5,34.0,34.0,3.5,2.0,2.7075,-0.10062770746440548,-0.06320261360850181,0.9619669746056502,-0.03283872732510764,-0.289532,-22.947392
11.185,2.0,1.0,1.0,34.5,34.0,34.0,3.5,2.0,2.71,-0.11521497241643368,-0.06437154332235179,0.9593862338072926,-0.03477928452634935,-0.297943,-22.713789
11.185,2.0,1.0,1.0,34.5,34.0,34.0,3.5,2.0,2.7125,-0.1299216105656494,-0.06555930263067561,0.9565127152919242,-0.03682329144452162,-0.306791,-22.47646
11.185,2.0,1.0,1.0,34.5,34.0,34.0,3.5,2.0,2.715,-0.14474572692773802,-0.06676544913103842,0.9533349782727552,-0.03897767823714662,-0.31611,-22.235251
11.185,2.0,1.0,1.0,34.5,34.0,34.0,3.5,2.0,2.7175,-0.15968514732410524,-0.06798938046780596,0.9498409056649607,-0.041249978630666484,-0.325938,-21.990001
11.185,2.0,1.0,1.0,34.5,34.0,34.0,3.5,2.0,2.72,-0.17473738255235755,-0.06923030316642954,0.9460176391052424,-0.04364839529788756,-0.336318,-21.740537
11.185,2.0,1.0,1.0,34.5,34.0,34.0,3.5,2.0,2.7225,-0.18989958630510462,-0.07048719532684111,0.9418515056851494,-0.04618187357700956,-0.347296,-21.486676
11.185,2.0,1.0,1.0,34.5,34.0,34.0,3.5,2.0,2.725,-0.2051685055278921,-0.07175876186903991,0.9373279351940513,-0.048860184726351,-0.358923,-21.228224
11.185,2.0,1.0,1.0,34.5,34.0,34.0,3.5,2.0,2.7275,-0.2205404216019537,-0.07304338072006406,0.9324313664826619,-0.05169402009056389,-0.371259,-20.964972
11.185,2.0,1.0,1.0,34.5,34.0,34.0,3.5,2.0,2.73,-0.23601108035459145,-0.07433903795049963,0.9271451413458822,-0.05469509776235604,-0.384368,-20.696702
11.185,2.0,1.0,1.0,34.5,34.0,34.0,3.5,2.0,2.7325,-0.2515756084180545,-0.075643249389179,0.9214513840814631,-0.05787628356116467,-0.398324,-20.423178
11.185,2.0,1.0,1.0,34.5,34.0,34.0,3.5,2.0,2.735,-0.2672284128487525,-0.07695296563917225,0.9153308646067487,-0.061251728418693197,-0.413207,-20.144149
11.185,2.0,1.0,1.0,34.5,34.0,34.0,3.5,2.0,2.7375,-0.28296306014643124,-0.0782644566506307,0.9087628427084746,-0.06483702456144276,-0.429111,-19.859348
11.185,2.0,1.0,1.0,34.5,34.0,34.0,3.5,2.0,2.74,-0.2987721298300355,-0.07957317102955598,0.9017248906619537,-0.06864938321055544,-0.446141,-19.568489
11.185,2.0,1.0,1.0,34.5,34.0,34.0,3.5,2.0,2.7425,-0.3146470364713573,-0.08087356401467197,0.8941926910912923,-0.07270783687365831,-0.464416,-19.271268
11.185,2.0,1.0,1.0,34.5,34.0,34.0,3.5,2.0,2.745,-0.33057781247774354,-0.08215888645645741,0.8861398065641104,-0.07703346966929077,-0.484073,-18.967356
11.185,2.0,1.0,1.0,34.5,34.0,34.0,3.5,2.0,2.7475,-0.3465528418433271,-0.08342092507664683,0.8775374170455582,-0.08164967947831682,-0.505267,-18.656405
11.185,2.0,1.0,1.0,34.5,34.0,34.0,3.5,2.0,2.75,-0.362558532412811,-0.0846496816326435,0.868354021018381,-0.0865824760171128,-0.528176,-18.33804
11.185,2.0,1.0,1.0,34.5,34.0,34.0,3.5,2.0,2.7525,-0.3785789107347265,-0.08583297517364431,0.85855509587709,-0.09186081910507166,-0.553008,-18.01186
11.185,2.0,1.0,1.0,34.5,34.0,34.0,3.5,2.0,2.755,-0.39459511907419914,-0.08695594710827963,0.8481027132380115,-0.09751700134075429,-0.580001,-17.677435
11.185,2.0,1.0,1.0,34.5,34.0,34.0,3.5,2.0,2.7575,-0.41058478828004374,-0.08800044298286193,0.8369551052551215,-0.10358707892459781,-0.609434,-17.334306
11.185,2.0,1.0,1.0,34.5,34.0,34.0,3.5,2.0,2.76,-0.42652125252455486,-0.08894423726734729,0.8250661791849783,-0.11011135318107039,-0.641631,-16.981979
11.185,2.0,1.0,1.0,34.5,34.0,34.0,3.5,2.0,2.7625,-0.4423725618891387,-0.08976005750274778,0.8123849797626822,-0.1171349029804567,-0.676973,-16.619929
11.185,2.0,1.0,1.0,34.5,34.0,34.0,3.5,2.0,2.765,-0.4581002356168166,-0.09041435115167469,0.7988551031605137,-0.12470816401695275,-0.715912,-16.247593
11.185,2.0,1.0,1.0,34.5,34.0,34.0,3.5,2.0,2.7675,-0.47365768165009764,-0.09086572148375004,0.7844140735419977,-0.13288754363012312,-0.758981,-15.864374
11.185,2.0,1.0,1.0,34.5,34.0,34.0,3.5,2.0,2.77,-0.48898818564289825,-0.09106293666311222,0.7689927052861394,-0.1417360477814697,-0.806817,-15.469637
11.185,2.0,1.0,1.0,34.5,34.0,34.0,3.5,2.0,2.7725,-0.5040223435741589,-0.09094238751004464,0.7525144936419236,-0.15132387713184553,-0.860185,-15.062711
11.185,2.0,1.0,1.0,34.5,34.0,34.0,3.5,2.0,2.775,-0.5186747748580824,-0.09042483267943094,0.734895108263679,-0.1617289175581507,-0.920008,-14.642896
11.185,2.0,1.0,1.0,34.5,34.0,34.0,3.5,2.0,2.7775,-0.5328399060411602,-0.08941122388421029,0.7160421146042442,-0.1730370001221732,-0.987408,-14.209465
11.185,2.0,1.0,1.0,34.5,34.0,34.0,3.5,2.0,2.78,-0.5463865582121636,-0.0877773477670632,0.6958551281017316,-0.18534172595592133,-1.063755,-13.761677
11.185,2.0,1.0,1.0,34.5,34.0,34.0,3.5,2.0,2.7825,-0.559151005824057,-0.08536695685630853,0.6742267317890472,-0.19874352660972563,-1.150736,-13.298794
11.185,2.0,1.0,1.0,34.5,34.0,34.0,3.5,2.0,2.785,-0.5709281077504339,-0.08198299681554648,0.6510446841099651,-0.21334743565438888,-1.250441,-12.820106
11.185,2.0,1.0,1.0,34.5,34.0,34.0,3.5,2.0,2.7875,-0.5814600614256978,-0.07737648929494881,0.6261962469623835,-0.22925874654289677,-1.365477,-12.324976
11.185,2.0,1.0,1.0,34.5,34.0,34.0,3.5,2.0,2.79,-0.5904223390940988,-0.07123264026868419,0.5995759263398237,-0.24657527357675477,-1.499116,-11.812896
11.185,2.0,1.0,1.0,34.5,34.0,34.0,3.5,2.0,2.7925,-0.5974065170456618,-0.06315389792498101,0.5710986078567659,-0.26537424990871505,-1.655487,-11.283576
11.185,2.0,1.0,1.0,34.5,34.0,34.0,3.5,2.0,2.795,-0.6019001718439196,-0.05264014846139864,0.5407210631039331,-0.28569091424570425,-1.839821,-10.737076
11.185,2.0,1.0,1.0,34.5,34.0,34.0,3.5,2.0,2.7975,-0.6032651036012214,-0.03906732163653493,0.5084761480445804,-0.3074845105315373,-2.058768,-10.173987
11.185,2.0,1.0,1.0,34.5,34.0,34.0,3.5,2.0,2.8,-0.6007173995317002,-0.021667919507860622,0.47452562833290024,-0.3305858377505031,-2.320757,-9.595698
11.185,2.0,1.0,1.0,34.5,34.0,34.0,3.5,2.0,2.8025,-0.593317135823369,0.00047876427179687007,0.4392389873080981,-0.354619101783701,-2.636385,-9.00475
11.185,2.0,1.0,1.0,34.5,34.0,34.0,3.5,2.0,2.805,-0.5799829807778735,0.02843157002168032,0.40330544495209564,-0.3788909874761565,-3.018685,-8.405329
11.185,2.0,1.0,1.0,34.5,34.0,34.0,3.5,2.0,2.8075,-0.5595585116341348,0.0633209579130844,0.3678815906700068,-0.40224471290522745,-3.482931,-7.803884
11.185,2.0,1.0,1.0,34.5,34.0,34.0,3.5,2.0,2.81,-0.530971499269438,0.1061902405522884,0.3347614942875117,-0.4228923039546393,-4.045082,-7.209853
11.185,2.0,1.0,1.0,34.5,34.0,34.0,3.5,2.0,2.8125,-0.493537015529953,0.157694420714758,0.306521271921212,-0.438272953040853,-4.716824,-6.636389
11.185,2.0,1.0,1.0,34.5,34.0,34.0,3.5,2.0,2.815,-0.4474386010723776,0.21762327786745936,0.2865306372028581,-0.4450441494167142,-5.492874,-6.100826
11.185,2.0,1.0,1.0,34.5,34.0,34.0,3.5,2.0,2.8175,-0.39434124018084654,0.28429547051692605,0.2786575271619492,-0.4393776831752722,-6.323552,-5.62445
11.185,2.0,1.0,1.0,34.5,34.0,34.0,3.5,2.0,2.82,-0.33791696391691506,0.35404180293495263,0.2864901641062681,-0.4177334143895129,-7.071583,-5.231006
11.185,2.0,1.0,1.0,34.5,34.0,34.0,3.5,2.0,2.8225,-0.2838602554772814,0.42119662275912023,0.3120884885380323,-0.3780967225890825,-7.496389,-4.943567
11.185,2.0,1.0,1.0,34.5,34.0,34.0,3.5,2.0,2.825,-0.23897077210186346,0.47901372947408916,0.3546984999065569,-0.32124773695001635,-7.377434,-4.780069
11.185,2.0,1.0,1.0,34.5,34.0,34.0,3.5,2.0,2.8275,-0.2093496919618758,0.5214565844063808,0.4102387204374037,-0.25126064142733,-6.73412,-4.748918
11.185,2.0,1.0,1.0,34.5,34.0,34.0,3.5,2.0,2.83,-0.19851523657624376,0.5450613289318944,0.4721533847268395,-0.17464808326896078,-5.811403,-4.846643
