1,w,sub_t,h,l1,l2,l3,g1,g2,Freq,S11_re,S21_re,S11_img,S21_img,S11_dB,S21_dB
11.185,2.0,1.0,1.0,34.7,33.2,33.2,1.5,2.0,2.5,0.653598554528795,-0.0273259722049064,0.743834356582777,0.0148722932012967,-0.08561,-30.141723
11.185,2.0,1.0,1.0,34.7,33.2,33.2,1.5,2.0,2.5025,0.6470606867930497,-0.02783578518208767,0.749365382166089,0.014822380431828534,-0.086693,-30.023804
11.185,2.0,1.0,1.0,34.7,33.2,33.2,1.5,2.0,2.505,0.640436121206603,-0.028354185514728958,0.7548697071882465,0.014766374664671887,-0.087798,-29.905467
11.185,2.0,1.0,1.0,34.7,33.2,33.2,1.5,2.0,2.5075,0.6337239767994565,-0.028881306055733903,0.7603463074839202,0.014704043644996419,-0.088924,-29.786706
11.185,2.0,1.0,1.0,34.7,33.2,33.2,1.5,2.0,2.51,0.6269233648323943,-0.029417280788063722,0.7657941284184799,0.014635146896746222,-0.090073,-29.667516
11.185,2.0,1.0,1.0,34.7,33.2,33.2,1.5,2.0,2.5125,0.6200333890061301,-0.029962244757097918,0.7712120839803139,0.014559435425852236,-0.091244,-29.547892
11.185,2.0,1.0,1.0,34.7,33.2,33.2,1.5,2.0,2.515,0.6130531456908586,-0.030516333996062447,0.7765990558476852,0.01447665141268374,-0.092438,-29.427828
11.185,2.0,1.0,1.0,34.7,33.2,33.2,1.5,2.0,2.5175,0.6059817241773994,-0.031079685444044297,0.781953892429511,0.014386527893368745,-0.093656,-29.30732
11.185,2.0,1.0,1.0,34.7,33.2,33.2,1.5,2.0,2.52,0.5988182069511605,-0.0316524368560894,0.7872754078794713,0.014288788429600978,-0.094899,-29.18636
11.185,2.0,1.0,1.0,34.7,33.2,33.2,1.5,2.0,2.5225,0.591561669990249,-0.03223472670484144,0.7925623810828122,0.014183146766543043,-0.096166,-29.064945
11.185,2.0,1.0,1.0,34.7,33.2,33.2,1.5,2.0,2.525,0.584211183089072,-0.03282669407315235,0.797813554615259,0.014069306478422482,-0.097459,-28.943069
11.185,2.0,1.0,1.0,34.7,33.2,33.2,1.5,2.0,2.5275,0.5767658102088851,-0.03342847853705572,0.8030276336734045,0.013946960601408815,-0.098778,-28.820725
11.185,2.0,1.0,1.0,34.7,33.2,33.2,1.5,2.0,2.53,0.5692246098567972,-0.034040220038457136,0.8082032849759666,0.01381579125334959,-0.100125,-28.697909
11.185,2.0,1.0,1.0,34.7,33.2,33.2,1.5,2.0,2.5325,0.5615866354948282,-0.03466205874685692,0.8133391356353004,0.013675469239931088,-0.101498,-28.574614
11.185,2.0,1.0,1.0,34.7,33.2,33.2,1.5,2.0,2.535,0.5538509359806695,-0.03529413490937724,0.8184337719985629,0.013525653646822617,-0.102901,-28.450835
11.185,2.0,1.0,1.0,34.7,33.2,33.2,1.5,2.0,2.5375,0.5460165560419368,-0.03593658868832013,0.8234857384579107,0.013365991417350868,-0.104332,-28.326566
11.185,2.0,1.0,1.0,34.7,33.2,33.2,1.5,2.0,2.54,0.5380825367857213,-0.03658955998543772,0.8284935362291501,0.01319611691524246,-0.105794,-28.201802
11.185,2.0,1.0,1.0,34.7,33.2,33.2,1.5,2.0,2.5425,0.5300479162453974,-0.03725318825204187,0.8334556220982434,0.013015651471964292,-0.107286,-28.076536
11.185,2.0,1.0,1.0,34.7,33.2,33.2,1.5,2.0,2.545,0.5219117299667081,-0.03792761228403089,0.8383704071350955,0.012824202918181137,-0.10881,-27.950762
11.185,2.0,1.0,1.0,34.7,33.2,33.2,1.5,2.0,2.5475,0.5136730116352693,-0.03861297000085044,0.8432362553740543,0.012621365098843948,-0.110367,-27.824475
11.185,2.0,1.0,1.0,34.7,33.2,33.2,1.5,2.0,2.55,0.5053307937477141,-0.0393093982073499,0.8480514824605896,0.012406717371411649,-0.111956,-27.697669
11.185,2.0,1.0,1.0,34.7,33.2,33.2,1.5,2.0,2.5525,0.4968841083288509,-0.04001703233742638,0.8528143542636053,0.012179824086706887,-0.113581,-27.570337
11.185,2.0,1.0,1.0,34.7,33.2,33.2,1.5,2.0,2.555,0.4883319876972795,-0.040736006178288084,0.8575230854528965,0.01194023405189571,-0.11524,-27.442473
11.185,2.0,1.0,1.0,34.7,33.2,33.2,1.5,2.0,2.5575,0.47967346528205007,-0.04146645157409007,0.8621758380412674,0.011687479975078739,-0.116936,-27.314071
11.185,2.0,1.0,1.0,34.7,33.2,33.2,1.5,2.0,2.56,0.4709075764930931,-0.0422084981076256,0.8667707198908569,0.011421077890978163,-0.118669,-27.185125
11.185,2.0,1.0,1.0,34.7,33.2,33.2,1.5,2.0,2.5625,0.4620333596482525,-0.04296227275867275,0.8713057831832629,0.011140526567199214,-0.12044,-27.055628
11.185,2.0,1.0,1.0,34.7,33.2,33.2,1.5,2.0,2.565,0.45304985695990097,-0.04372789953751218,0.8757790228530912,0.010845306890547267,-0.122251,-26.925575
11.185,2.0,1.0,1.0,34.7,33.2,33.2,1.5,2.0,2.5675,0.44395611558427606,-0.04450549909204241,0.8801883749845864,0.010534881232879443,-0.124103,-26.794958
11.185,2.0,1.0,1.0,34.7,33.2,33.2,1.5,2.0,2.57,0.43475118873680774,-0.045295188286822496,0.8845317151710734,0.010208692795973489,-0.125997,-26.663771
11.185,2.0,1.0,1.0,34.7,33.2,33.2,1.5,2.0,2.5725,0.42543413687686626,-0.04609707975227387,0.8888068568369707,0.009866164934899663,-0.127934,-26.532008
11.185,2.0,1.0,1.0,34.7,33.2,33.2,1.5,2.0,2.575,0.4160040289655417,-0.04691128140216326,0.8930115495222115,0.009506700459389297,-0.129915,-26.399663
11.185,2.0,1.0,1.0,34.7,33.2,33.2,1.5,2.0,2.5775,0.40645994380021494,-0.04773789591737688,0.8971434771289672,0.009129680912702335,-0.131942,-26.266727
11.185,2.0,1.0,1.0,34.7,33.2,33.2,1.5,2.0,2.58,0.3968009714298838,-0.04857702019387848,0.9012002561306458,0.008734465827507644,-0.134016,-26.133195
11.185,2.0,1.0,1.0,34.7,33.2,33.2,1.5,2.0,2.5825,0.3870262146553653,-0.04942874475261409,0.905179433743218,0.008320391958305966,-0.136139,-25.999061
11.185,2.0,1.0,1.0,34.7,33.2,33.2,1.5,2.0,2.585,0.37713479061871685,-0.05029315310899459,0.9090784860590181,0.00788677248994342,-0.138312,-25.864316
11.185,2.0,1.0,1.0,34.7,33.2,33.2,1.5,2.0,2.5875,0.3671258324864052,-0.051170321099445776,0.912894816143257,0.007432896221786599,-0.140536,-25.728955
11.185,2.0,1.0,1.0,34.7,33.2,33.2,1.5,2.0,2.59,0.3569984912309735,-0.052060316162363,0.9166257520936042,0.006958026727157133,-0.142814,-25.59297
11.185,2.0,1.0,1.0,34.7,33.2,33.2,1.5,2.0,2.5925,0.3467519375161682,-0.05296319657065408,0.9202685450632996,0.006461401487654659,-0.145147,-25.456354
11.185,2.0,1.0,1.0,34.7,33.2,33.2,1.5,2.0,2.595,0.33638536369073635,-0.053879010612879294,0.9238203672484068,0.005942231002036059,-0.147536,-25.319101
11.185,2.0,1.0,1.0,34.7,33.2,33.2,1.5,2.0,2.5975,0.32589798589630486,-0.05480779571982761,0.9272783098399368,0.005399697869358966,-0.149983,-25.181203
11.185,2.0,1.0,1.0,34.7,33.2,33.2,1.5,2.0,2.6,0.3152890462950473,-0.055749577533175707,0.9306393809417539,0.0048329558461497266,-0.152491,-25.042652
11.185,2.0,1.0,1.0,34.7,33.2,33.2,1.5,2.0,2.6025,0.30455781542307764,-0.056704368912678355,0.9339005034553063,0.004241128877410135,-0.155062,-24.903442
11.185,2.0,1.0,1.0,34.7,33.2,33.2,1.5,2.0,2.605,0.29370359467577367,-0.05767216887813288,0.9370585129324553,0.003623310101342879,-0.157696,-24.763566
11.185,2.0,1.0,1.0,34.7,33.2,33.2,1.5,2.0,2.6075,0.282725718931535,-0.058652961482133316,0.9401101553978294,0.002978560827748245,-0.160397,-24.623016
11.185,2.0,1.0,1.0,34.7,33.2,33.2,1.5,2.0,2.61,0.27162355932075805,-0.059646714609400665,0.9430520851423745,0.0023059094901252543,-0.163166,-24.481784
11.185,2.0,1.0,1.0,34.7,33.2,33.2,1.5,2.0,2.6125,0.2603965261471094,-0.06065337869822461,0.9458808624899971,0.0016043505716067986,-0.166006,-24.339863
11.185,2.0,1.0,1.0,34.7,33.2,33.2,1.5,2.0,2.615,0.24904407196849687,-0.06167288537929305,0.9485929515394531,0.0008728435049557292,-0.16892,-24.197245
11.185,2.0,1.0,1.0,34.7,33.2,33.2,1.5,2.0,2.6175,0.23756569484547724,-0.06270514602690823,0.9511847178839006,0.00011031154697338013,-0.171908,-24.053923
11.185,2.0,1.0,1.0,34.7,33.2,33.2,1.5,2.0,2.62,0.22596094176515313,-0.06375005021729462,0.9536524263108486,-0.0006843593722056704,-0.174975,-23.909889
11.185,2.0,1.0,1.0,34.7,33.2,33.2,1.5,2.0,2.6225,0.21422941224897502,-0.0648074640884013,0.9559922384855406,-0.0015123218243090176,-0.178123,-23.765135
11.185,2.0,1.0,1.0,34.7,33.2,33.2,1.5,2.0,2.625,0.202370762153246,-0.0658772285952668,0.958200210621163,-0.00237476808182953,-0.181354,-23.619654
11.185,2.0,1.0,1.0,34.7,33.2,33.2,1.5,2.0,2.6275,0.19038470767145838,-0.06695915765468215,0.9602722911396487,-0.0032729313396736063,-0.184671,-23.473437
11.185,2.0,1.0,1.0,34.7,33.2,33.2,1.5,2.0,2.63,0.1782710295480346,-0.06805303617251264,0.9622043183272457,-0.00420808695839436,-0.188078,-23.326476
11.185,2.0,1.0,1.0,34.7,33.2,33.2,1.5,2.0,2.6325,0.16602957751340608,-0.06915861794666646,0.9639920179894482,-0.005181553727628107,-0.191578,-23.178763
11.185,2.0,1.0,1.0,34.7,33.2,33.2,1.5,2.0,2.635,0.1536602749508135,-0.0702756234382879,0.965631001110381,-0.0061946951481109055,-0.195173,-23.030291
11.185,2.0,1.0,1.0,34.7,33.2,33.2,1.5,2.0,2.6375,0.14116312380563856,-0.07140373740332581,0.9671167615222064,-0.007248920730379591,-0.198867,-22.88105
11.185,2.0,1.0,1.0,34.7,33.2,33.2,1.5,2.0,2.64,0.12853820974848934,-0.07254260637618389,0.968444673590687,-0.008345687307970482,-0.202663,-22.731033
11.185,2.0,1.0,1.0,34.7,33.2,33.2,1.5,2.0,2.6425,0.11578570760379533,-0.07369183599667696,0.9696099899236184,-0.009486500362593329,-0.206566,-22.580231
11.185,2.0,1.0,1.0,34.7,33.2,33.2,1.5,2.0,2.645,0.10290588705607788,-0.07485098817102159,0.9706078391094799,-0.010672915358404374,-0.210579,-22.428636
11.185,2.0,1.0,1.0,34.7,33.2,33.2,1.5,2.0,2.6475,0.08989911864660376,-0.0760195780570581,0.9714332234943238,-0.011906539082099207,-0.214706,-22.276239
11.185,2.0,1.0,1.0,34.7,33.2,33.2,1.5,2.0,2.65,0.07676588007360034,-0.07719707086334858,0.972081017005666,-0.013189030985112458,-0.218951,-22.123031
11.185,2.0,1.0,1.0,34.7,33.2,33.2,1.5,2.0,2.6525,0.06350676280979532,-0.07838287845119929,0.972545963032918,-0.01452210452372419,-0.223318,-21.969004
11.185,2.0,1.0,1.0,34.7,33.2,33.2,1.5,2.0,2.655,0.050122479051521694,-0.07957635572804828,0.9728226723747568,-0.015907528492350158,-0.227813,-21.814148
11.185,2.0,1.0,1.0,34.7,33.2,33.2,1.5,2.0,2.6575,0.03661386901423118,-0.08077679681999661,0.9729056212647136,-0.01734712834470541,-0.232439,-21.658456
11.185,2.0,1.0,1.0,34.7,33.2,33.2,1.5,2.0,2.66,0.02298190858983498,-0.08198343101057967,0.9727891494872832,-0.018842787496894175,-0.237202,-21.501917
11.185,2.0,1.0,1.0,34.7,33.2,33.2,1.5,2.0,2.6625,0.009227717381889697,-0.08319541843214708,0.9724674585978607,-0.02039644860577435,-0.242107,-21.344523
11.185,2.0,1.0,1.0,34.7,33.2,33.2,1.5,2.0,2.665,-0.004647432864778721,-0.08441184549546042,0.9719346102609723,-0.0220101148151788,-0.24716,-21.186265
11.185,2.0,1.0,1.0,34.7,33.2,33.2,1.5,2.0,2.6675,-0.018642109422710943,-0.08563172004230846,0.9711845247224747,-0.023685850961720704,-0.252365,-21.027133
11.185,2.0,1.0,1.0,34.7,33.2,33.2,1.5,2.0,2.67,-0.03275470931081664,-0.08685396620509839,0.970210979432705,-0.0254257847309893,-0.257729,-20.867118
11.185,2.0,1.0,1.0,34.7,33.2,33.2,1.5,2.0,2.6725,-0.04698344957517447,-0.08807741895648773,0.9690076078389652,-0.027232107753918364,-0.263258,-20.70621
11.185,2.0,1.0,1.0,34.7,33.2,33.2,1.5,2.0,2.675,-0.06132635710230642,-0.08930081833118174,0.967567898367258,-0.02910707663198834,-0.268959,-20.544399
11.185,2.0,1.0,1.0,34.7,33.2,33.2,1.5,2.0,2.6775,-0.07578125794497062,-0.09052280330103775,0.9658851936147915,-0.031053013878697376,-0.274838,-20.381677
11.185,2.0,1.0,1.0,34.7,33.2,33.2,1.5,2.0,2.68,-0.09034576613972509,-0.09174190528357704,0.9639526897765661,-0.03307230876338489,-0.280903,-20.218033
11.185,2.0,1.0,1.0,34.7,33.2,33.2,1.5,2.0,2.6825,-0.10501727199476936,-0.09295654126291053,0.9617634363312112,-0.035167418042009554,-0.28716,-20.053457
11.185,2.0,1.0,1.0,34.7,33.2,33.2,1.5,2.0,2.685,-0.11979292982581312,-0.09416500650094153,0.9593103360133176,-0.03734086655785533,-0.293618,-19.887939
11.185,2.0,1.0,1.0,34.7,33.2,33.2,1.5,2.0,2.6875,-0.13466964511689936,-0.09536546681549875,0.9565861451016873,-0.03959524769335338,-0.300285,-19.721468
11.185,2.0,1.0,1.0,34.7,33.2,33.2,1.5,2.0,2.69,-0.14964406108226094,-0.09655595040078496,0.9535834740553327,-0.041933223652234376,-0.30717,-19.554035
11.185,2.0,1.0,1.0,34.7,33.2,33.2,1.5,2.0,2.6925,-0.1647125446045142,-0.09773433916420078,0.9502947885316004,-0.04435752554907657,-0.314281,-19.385629
11.185,2.0,1.0,1.0,34.7,33.2,33.2,1.5,2.0,2.695,-0.17987117152351395,-0.09889835955220291,0.9467124108236185,-0.046870953280919746,-0.321629,-19.21624
11.185,2.0,1.0,1.0,34.7,33.2,33.2,1.5,2.0,2.6975,-0.19511571124940225,-0.1000455728364021,0.9428285217572532,-0.049476375153016956,-0.329223,-19.045855
11.185,2.0,1.0,1.0,34.7,33.2,33.2,1.5,2.0,2.7,-0.2104416106723673,-0.10117336482956724,0.9386351630910607,-0.05217672722789341,-0.337073,-18.874466
11.185,2.0,1.0,1.0,34.7,33.2,33.2,1.5,2.0,2.7025,-0.225843977340764,-0.10227893499961123,0.9341242404662528,-0.05497501236372074,-0.345191,-18.70206
11.185,2.0,1.0,1.0,34.7,33.2,33.2,1.5,2.0,2.705,-0.2413175618781939,-0.1033592849479571,0.929287526957601,-0.05787429890449699,-0.353588,-18.528626
11.185,2.0,1.0,1.0,34.7,33.2,33.2,1.5,2.0,2.7075,-0.2568567396092317,-0.10441120621694994,0.9241166672803671,-0.06087771898066806,-0.362278,-18.354153
11.185,2.0,1.0,1.0,34.7,33.2,33.2,1.5,2.0,2.71,-0.27245549136239305,-0.1054312673891633,0.9186031827129865,-0.0639884663745387,-0.371271,-18.178629
11.185,2.0,1.0,1.0,34.7,33.2,33.2,1.5,2.0,2.7125,-0.28810738341797665,-0.10641580043958089,0.9127384768002124,-0.06720979390011611,-0.380584,-18.002043
11.185,2.0,1.0,1.0,34.7,33.2,33.2,1.5,2.0,2.715,-0.30380554656732056,-0.10736088629968799,0.9065138419069576,-0.07054501024178693,-0.390228,-17.824382
11.185,2.0,1.0,1.0,34.7,33.2,33.2,1.5,2.0,2.7175,-0.31954265424898554,-0.10826233959051385,0.8999204666990335,-0.07399747619045646,-0.400221,-17.645635
11.185,2.0,1.0,1.0,34.7,33.2,33.2,1.5,2.0,2.72,-0.33531089972631195,-0.10911569247961933,0.8929494446336449,-0.07757060020934914,-0.410578,-17.465788
11.185,2.0,1.0,1.0,34.7,33.2,33.2,1.5,2.0,2.7225,-0.35110197226980094,-0.10991617761493994,0.885591783549719,-0.08126783325457068,-0.421316,-17.28483
11.185,2.0,1.0,1.0,34.7,33.2,33.2,1.5,2.0,2.725,-0.3669070323066769,-0.11065871008628943,0.8778384164561647,-0.08509266276760574,-0.432454,-17.102748
11.185,2.0,1.0,1.0,34.7,33.2,33.2,1.5,2.0,2.7275,-0.3827166854991487,-0.1113378683632212,0.8696802136249787,-0.08904860574816138,-0.444009,-16.919529
11.185,2.0,1.0,1.0,34.7,33.2,33.2,1.5,2.0,2.73,-0.3985209557118593,-0.11194787415586159,0.861107996105875,-0.09313920080596669,-0.456002,-16.735159
11.185,2.0,1.0,1.0,34.7,33.2,33.2,1.5,2.0,2.7325,-0.41430925682835135,-0.11248257114330866,0.8521125507899173,-0.09736799907925954,-0.468456,-16.549625
11.185,2.0,1.0,1.0,34.7,33.2,33.2,1.5,2.0,2.735,-0.4300703633756386,-0.11293540251226808,0.8426846471616296,-0.1017385538955401,-0.481392,-16.362914
11.185,2.0,1.0,1.0,34.7,33.2,33.2,1.5,2.0,2.7375,-0.44579237991559745,-0.11329938724684366,0.8328150558923638,-0.1062544090366172,-0.494834,-16.175012
11.185,2.0,1.0,1.0,34.7,33.2,33.2,1.5,2.0,2.74,-0.46146270916166565,-0.11356709510886595,0.8224945694425608,-0.11091908545482744,-0.508808,-15.985903
11.185,2.0,1.0,1.0,34.7,33.2,33.2,1.5,2.0,2.7425,-0.47706801877955524,-0.1137306202469394,0.8117140248570381,-0.11573606627038284,-0.523342,-15.795575
11.185,2.0,1.0,1.0,34.7,33.2,33.2,1.5,2.0,2.745,-0.4925942068312717,-0.11378155337160789,0.8004643289559045,-0.120708779860848,-0.538464,-15.604013
11.185,2.0,1.0,1.0,34.7,33.2,33.2,1.5,2.0,2.7475,-0.5080263658229741,-0.11371095243382905,0.7887364861443437,-0.1258405808325359,-0.554206,-15.4112
11.185,2.0,1.0,1.0,34.7,33.2,33.2,1.5,2.0,2.75,-0.523348745319167,-0.113509311744485,0.776521629087573,-0.131134728639834,-0.5706,-15.217123
11.185,2.0,1.0,1.0,34.7,33.2,33.2,1.5,2.0,2.7525,-0.5385447130886475,-0.11316652947413706,0.763811052523173,-0.13659436359180452,-0.587681,-15.021766
11.185,2.0,1.0,1.0,34.7,33.2,33.2,1.5,2.0,2.755,-0.5535967147517598,-0.11267187347494352,0.7505962505120103,-0.1422224799554924,-0.605486,-14.825114
11.185,2.0,1.0,1.0,34.7,33.2,33.2,1.5,2.0,2.7575,-0.5684862319042218,-0.11201394537090151,0.7368689574614998,-0.14802189583181405,-0.624057,-14.627149
11.185,2.0,1.0,1.0,34.7,33.2,33.2,1.5,2.0,2.76,-0.5831937387003064,-0.11118064286876121,0.7226211932916182,-0.15399521944219094,-0.643435,-14.427857
11.185,2.0,1.0,1.0,34.7,33.2,33.2,1.5,2.0,2.7625,-0.5976986568882449,-0.11015912025058443,0.7078453131550752,-0.16014481142180828,-0.663666,-14.22722
11.185,2.0,1.0,1.0,34.7,33.2,33.2,1.5,2.0,2.765,-0.6119793093036204,-0.10893574702056247,0.6925340621693247,-0.16647274266786755,-0.6848,-14.025223
11.185,2.0,1.0,1.0,34.7,33.2,33.2,1.5,2.0,2.7675,-0.6260128718432748,-0.10749606469413693,0.6766806356699567,-0.17298074723790371,-0.70689,-13.821849
11.185,2.0,1.0,1.0,34.7,33.2,33.2,1.5,2.0,2.77,-0.6397753239635565,-0.10582474173754097,0.6602787455532715,-0.17967016973347244,-0.729992,-13.61708
11.185,2.0,1.0,1.0,34.7,33.2,33.2,1.5,2.0,2.7725,-0.653241397773728,-0.10390552669173139,0.6433226933413148,-0.1865419065374989,-0.754166,-13.4109
11.185,2.0,1.0,1.0,34.7,33.2,33.2,1.5,2.0,2.775,-0.6663845258293996,-0.10172119954762668,0.6258074506759814,-0.19359634019859828,-0.779479,-13.203292
11.185,2.0,1.0,1.0,34.7,33.2,33.2,1.5,2.0,2.7775,-0.6791767877735094,-0.09925352148121912,0.607728748030944,-0.20083326617184505,-0.806001,-12.994238
11.185,2.0,1.0,1.0,34.7,33.2,33.2,1.5,2.0,2.78,-0.6915888560256948,-0.0964831831094893,0.5890831725219756,-0.20825181103197155,-0.833807,-12.783722
11.185,2.0,1.0,1.0,34.7,33.2,33.2,1.5,2.0,2.7825,-0.7035899407871048,-0.09338975149347631,0.5698682757985849,-0.21585034117087967,-0.862981,-12.571727
11.185,2.0,1.0,1.0,34.7,33.2,33.2,1.5,2.0,2.785,-0.7151477347099754,-0.08995161619624224,0.5500826931136099,-0.223626360875952,-0.893611,-12.358235
11.185,2.0,1.0,1.0,34.7,33.2,33.2,1.5,2.0,2.7875,-0.7262283576827647,-0.08614593480431461,0.5297262747934482,-0.23157639855799522,-0.925792,-12.143232
11.185,2.0,1.0,1.0,34.7,33.2,33.2,1.5,2.0,2.79,-0.7367963023068713,-0.08194857844565484,0.5088002314702944,-0.2396958797573538,-0.959629,-11.926701
11.185,2.0,1.0,1.0,34.7,33.2,33.2,1.5,2.0,2.7925,-0.746814380794771,-0.0773340779903653,0.4873072945899206,-0.24797898540322447,-0.995236,-11.708627
11.185,2.0,1.0,1.0,34.7,33.2,33.2,1.5,2.0,2.795,-0.7562436742080254,-0.07227557180818218,0.46525189387369537,-0.25641849363469366,-1.032733,-11.488995
11.185,2.0,1.0,1.0,34.7,33.2,33.2,1.5,2.0,2.7975,-0.7650434851841733,-0.06674475618657452,0.44264035359175663,-0.265005603312878,-1.072255,-11.267792
11.185,2.0,1.0,1.0,34.7,33.2,33.2,1.5,2.0,2.8,-0.7731712955827801,-0.060711839793417835,0.4194811096934702,-0.27372973716339166,-1.113947,-11.045007
11.185,2.0,1.0,1.0,34.7,33.2,33.2,1.5,2.0,2.8025,-0.7805827308229512,-0.05414550390894318,0.3957849500398496,-0.2825783222894454,-1.157967,-10.820628
11.185,2.0,1.0,1.0,34.7,33.2,33.2,1.5,2.0,2.805,-0.7872315330995031,-0.047012870564770624,0.37156528018582974,-0.29153654559241604,-1.204487,-10.594648
11.185,2.0,1.0,1.0,34.7,33.2,33.2,1.5,2.0,2.8075,-0.7930695461667786,-0.03927948122718119,0.346838417362404,-0.30058708143475366,-1.253697,-10.367059
11.185,2.0,1.0,1.0,34.7,33.2,33.2,1.5,2.0,2.81,-0.7980467149839434,-0.030909289263418953,0.32162391550070096,-0.3097097886885285,-1.305802,-10.137859
11.185,2.0,1.0,1.0,34.7,33.2,33.2,1.5,2.0,2.8125,-0.8021111042422131,-0.021864670152080663,0.29594492430936165,-0.31888137414440026,-1.36103,-9.907047
11.185,2.0,1.0,1.0,34.7,33.2,33.2,1.5,2.0,2.815,-0.8052089406638224,-0.01210645426221133,0.26982858554551287,-0.3280750191277761,-1.41963,-9.674627
11.185,2.0,1.0,1.0,34.7,33.2,33.2,1.5,2.0,2.8175,-0.8072846849980733,-0.0015939880536528924,0.2433064696844183,-0.3372599661051825,-1.481875,-9.440607
11.185,2.0,1.0,1.0,34.7,33.2,33.2,1.5,2.0,2.82,-0.8082811408667567,0.009714769231687185,0.21641505616120174,-0.34640106209629357,-1.548065,-9.205001
11.185,2.0,1.0,1.0,34.7,33.2,33.2,1.5,2.0,2.8225,-0.8081396090563936,0.021863104885549718,0.18919626018737307,-0.35545825587790286,-1.618534,-8.967829
11.185,2.0,1.0,1.0,34.7,33.2,33.2,1.5,2.0,2.825,-0.8068000975444553,0.03489535788021401,0.16169800877939647,-0.364386046330598,-1.693647,-8.729118
11.185,2.0,1.0,1.0,34.7,33.2,33.2,1.5,2.0,2.8275,-0.8042015995055846,0.04885665773201191,0.13397486800386205,-0.37313287990847355,-1.773812,-8.488904
11.185,2.0,1.0,1.0,34.7,33.2,33.2,1.5,2.0,2.83,-0.8002824537907743,0.06379258274469746,0.10608872245181868,-0.38164049619819057,-1.859477,-8.247232
