1,w,sub_t,h,l1,l2,l3,g1,g2,Freq,S11_re,S21_re,S11_img,S21_img,S11_dB,S21_dB
11.185,2.0,1.0,1.0,34.3,34.1,34.1,3.4,3.6,2.5,0.737388708952506,-0.00938332167277792,0.664299619729771,0.00414917310700946,-0.065479,-39.777269
11.185,2.0,1.0,1.0,34.3,34.1,34.1,3.4,3.6,2.5025,0.7321995062850024,-0.00954814448701225,0.6698987494890768,0.004125012368218957,-0.066165,-39.658418
11.185,2.0,1.0,1.0,34.3,34.1,34.1,3.4,3.6,2.505,0.7269407527016288,-0.009715568790738902,0.6754844366203806,0.004098974558750669,-0.066863,-39.539192
11.185,2.0,1.0,1.0,34.3,34.1,34.1,3.4,3.6,2.5075,0.7216117642049135,-0.00988563848714067,0.6810560789400888,0.0040709970439461824,-0.067574,-39.419581
11.185,2.0,1.0,1.0,34.3,34.1,34.1,3.4,3.6,2.51,0.7162118488772033,-0.010058398304032653,0.6866130572878163,0.004041015058473419,-0.068298,-39.299578
11.185,2.0,1.0,1.0,34.3,34.1,34.1,3.4,3.6,2.5125,0.7107403068722143,-0.010233893809060443,0.6921547350333989,0.0040089616252117835,-0.069034,-39.179174
11.185,2.0,1.0,1.0,34.3,34.1,34.1,3.4,3.6,2.515,0.7051964304118776,-0.010412171425081638,0.6976804575695584,0.0039747674706249085,-0.069784,-39.058361
11.185,2.0,1.0,1.0,34.3,34.1,34.1,3.4,3.6,2.5175,0.6995795037888324,-0.010593278445722746,0.7031895517897793,0.003938360936445753,-0.070548,-38.937131
11.185,2.0,1.0,1.0,34.3,34.1,34.1,3.4,3.6,2.52,0.6938888033748933,-0.010777263051105174,0.7086813255509701,0.0038996678874890205,-0.071325,-38.815474
11.185,2.0,1.0,1.0,34.3,34.1,34.1,3.4,3.6,2.5225,0.6881235976358847,-0.01096417432373148,0.7141550671204342,0.003858611615394592,-0.072117,-38.693382
11.185,2.0,1.0,1.0,34.3,34.1,34.1,3.4,3.6,2.525,0.6822831471532005,-0.011154062264522006,0.7196100446066984,0.0038151127380947896,-0.072924,-38.570846
11.185,2.0,1.0,1.0,34.3,34.1,34.1,3.4,3.6,2.5275,0.6763667046525027,-0.011346977808991871,0.725045505373706,0.0037690890947855594,-0.073745,-38.447856
11.185,2.0,1.0,1.0,34.3,34.1,34.1,3.4,3.6,2.53,0.6703735150399852,-0.011542972843555526,0.7304606754378696,0.0037204556361686457,-0.074582,-38.324404
11.185,2.0,1.0,1.0,34.3,34.1,34.1,3.4,3.6,2.5325,0.6643028154466353,-0.01174210022194524,0.7358547588474712,0.0036691243097179147,-0.075435,-38.20048
11.185,2.0,1.0,1.0,34.3,34.1,34.1,3.4,3.6,2.535,0.6581538352809567,-0.011944413781728893,0.7412269370438767,0.003615003939707859,-0.076304,-38.076074
11.185,2.0,1.0,1.0,34.3,34.1,34.1,3.4,3.6,2.5375,0.6519257962906493,-0.012149968360909182,0.7465763682039996,0.003558000101726288,-0.077189,-37.951177
11.185,2.0,1.0,1.0,34.3,34.1,34.1,3.4,3.6,2.54,0.6456179126337405,-0.01235881981458591,0.7519021865634608,0.0034980149913761737,-0.078092,-37.825778
11.185,2.0,1.0,1.0,34.3,34.1,34.1,3.4,3.6,2.5425,0.6392293909597082,-0.012571025031659822,0.7572035017198344,0.003434947286852948,-0.079012,-37.699868
11.185,2.0,1.0,1.0,34.3,34.1,34.1,3.4,3.6,2.545,0.6327594305011471,-0.012786641951554684,0.7624793979153889,0.003368692005063912,-0.07995,-37.573436
11.185,2.0,1.0,1.0,34.3,34.1,34.1,3.4,3.6,2.5475,0.6262072231765728,-0.013005729580931429,0.7677289332986613,0.0032991403509355574,-0.080906,-37.446471
11.185,2.0,1.0,1.0,34.3,34.1,34.1,3.4,3.6,2.55,0.6195719537049524,-0.013228348010365463,0.7729511391642445,0.0032261795595312304,-0.081881,-37.318963
11.185,2.0,1.0,1.0,34.3,34.1,34.1,3.4,3.6,2.5525,0.6128527997326323,-0.01345455843095492,0.778145019170071,0.0031496927305778477,-0.082875,-37.190901
11.185,2.0,1.0,1.0,34.3,34.1,34.1,3.4,3.6,2.555,0.6060489319733033,-0.01368442315082452,0.7833095485315156,0.003069558654973718,-0.083889,-37.062274
11.185,2.0,1.0,1.0,34.3,34.1,34.1,3.4,3.6,2.5575,0.599159514361716,-0.013918005611485762,0.7884436731915717,0.002985651632821412,-0.084924,-36.93307
11.185,2.0,1.0,1.0,34.3,34.1,34.1,3.4,3.6,2.56,0.5921837042218829,-0.014155370404009701,0.793546308966348,0.0028978412824994253,-0.085979,-36.803278
11.185,2.0,1.0,1.0,34.3,34.1,34.1,3.4,3.6,2.5625,0.585120652450528,-0.014396583284964445,0.7986163406650851,0.0028059923402536974,-0.087056,-36.672885
11.185,2.0,1.0,1.0,34.3,34.1,34.1,3.4,3.6,2.565,0.5779695037165817,-0.014641711192064175,0.8036526211838875,0.0027099644497544173,-0.088155,-36.541881
11.185,2.0,1.0,1.0,34.3,34.1,34.1,3.4,3.6,2.5675,0.5707293966775768,-0.014890822259470533,0.8086539705722982,0.002609611941026498,-0.089276,-36.410251
11.185,2.0,1.0,1.0,34.3,34.1,34.1,3.4,3.6,2.57,0.5633994642138068,-0.015143985832681955,0.8136191750718411,0.0025047835981201988,-0.090421,-36.277985
11.185,2.0,1.0,1.0,34.3,34.1,34.1,3.4,3.6,2.5725,0.5559788336811726,-0.015401272482938258,0.81854698612559,0.0023953224148448517,-0.091589,-36.145068
11.185,2.0,1.0,1.0,34.3,34.1,34.1,3.4,3.6,2.575,0.5484666271836787,-0.015662754021062285,0.823436119357806,0.0022810653378406683,-0.092782,-36.011487
11.185,2.0,1.0,1.0,34.3,34.1,34.1,3.4,3.6,2.5775,0.540861961866582,-0.01592850351064898,0.8282852535226202,0.0021618429962120354,-0.094001,-35.87723
11.185,2.0,1.0,1.0,34.3,34.1,34.1,3.4,3.6,2.58,0.5331639502312526,-0.016198595280506028,0.8330930294207075,0.002037479416889709,-0.095245,-35.742281
11.185,2.0,1.0,1.0,34.3,34.1,34.1,3.4,3.6,2.5825,0.5253717004728347,-0.016473104936237944,0.8378580487828411,0.0019077917248293199,-0.096516,-35.606628
11.185,2.0,1.0,1.0,34.3,34.1,34.1,3.4,3.6,2.585,0.5174843168418707,-0.016752109370854362,0.8425788731191622,0.0017725898270877331,-0.097814,-35.470255
11.185,2.0,1.0,1.0,34.3,34.1,34.1,3.4,3.6,2.5875,0.5095009000310852,-0.0170356867742709,0.847254022532947,0.0016316760797478011,-0.099141,-35.333147
11.185,2.0,1.0,1.0,34.3,34.1,34.1,3.4,3.6,2.59,0.5014205475885954,-0.017323916641556258,0.8518819744975785,0.001484844936585425,-0.100497,-35.19529
11.185,2.0,1.0,1.0,34.3,34.1,34.1,3.4,3.6,2.5925,0.4932423543588638,-0.01761687977976386,0.856461162595378,0.0013318825782887452,-0.101882,-35.056668
11.185,2.0,1.0,1.0,34.3,34.1,34.1,3.4,3.6,2.595,0.484965412952783,-0.01791465831316763,0.86098997521686,0.0011725665209490164,-0.103299,-34.917264
11.185,2.0,1.0,1.0,34.3,34.1,34.1,3.4,3.6,2.5975,0.4765888142483262,-0.018217335686703598,0.8654667542189145,0.0010066652024431132,-0.104747,-34.777062
11.185,2.0,1.0,1.0,34.3,34.1,34.1,3.4,3.6,2.6,0.4681116479232869,-0.018524996667395353,0.8698897935403163,0.0008339375452207478,-0.106228,-34.636045
11.185,2.0,1.0,1.0,34.3,34.1,34.1,3.4,3.6,2.6025,0.45953300302170197,-0.018837727343517224,0.8742573377728685,0.0006541324938925201,-0.107743,-34.494196
11.185,2.0,1.0,1.0,34.3,34.1,34.1,3.4,3.6,2.605,0.4508519685556072,-0.019155615121222297,0.8785675806863986,0.00046698852588627067,-0.109292,-34.351498
11.185,2.0,1.0,1.0,34.3,34.1,34.1,3.4,3.6,2.6075,0.4420676341438809,-0.019478748718330552,0.8828186637056918,0.0002722331333013015,-0.110878,-34.207931
11.185,2.0,1.0,1.0,34.3,34.1,34.1,3.4,3.6,2.61,0.43317909069000843,-0.01980721815493847,0.8870086743373331,6.958227393706086e-05,-0.1125,-34.063477
11.185,2.0,1.0,1.0,34.3,34.1,34.1,3.4,3.6,2.6125,0.42418543110068213,-0.020141114740472265,0.8911356445442998,-0.000141260210692663,-0.114161,-33.918116
11.185,2.0,1.0,1.0,34.3,34.1,34.1,3.4,3.6,2.615,0.41508575104725304,-0.020480531056764603,0.8951975490659844,-0.0003606032127309952,-0.115861,-33.77183
11.185,2.0,1.0,1.0,34.3,34.1,34.1,3.4,3.6,2.6175,0.4058791497721704,-0.02082556093668357,0.8991923036811684,-0.0005887690133039703,-0.117601,-33.624596
11.185,2.0,1.0,1.0,34.3,34.1,34.1,3.4,3.6,2.62,0.39656473094262507,-0.021176299437789623,0.9031177634112942,-0.000826093978588483,-0.119384,-33.476395
11.185,2.0,1.0,1.0,34.3,34.1,34.1,3.4,3.6,2.6225,0.3871416035537484,-0.02153284281043372,0.9069717206611799,-0.00107292929964844,-0.12121,-33.327203
11.185,2.0,1.0,1.0,34.3,34.1,34.1,3.4,3.6,2.625,0.377608882883861,-0.0218952884596389,0.910751903294083,-0.00132964177932625,-0.12308,-33.177
11.185,2.0,1.0,1.0,34.3,34.1,34.1,3.4,3.6,2.6275,0.3679656915043531,-0.022263734900030183,0.9144559726378243,-0.0015966146697660095,-0.124998,-33.025762
11.185,2.0,1.0,1.0,34.3,34.1,34.1,3.4,3.6,2.63,0.3582111603469799,-0.022638281702987408,0.918081521418359,-0.0018742485644592714,-0.126963,-32.873464
11.185,2.0,1.0,1.0,34.3,34.1,34.1,3.4,3.6,2.6325,0.3483444298314781,-0.02301902943509571,0.9216260716169308,-0.0021629623490535903,-0.128978,-32.720083
11.185,2.0,1.0,1.0,34.3,34.1,34.1,3.4,3.6,2.635,0.33836465105660013,-0.023406079586852604,0.9250870722465767,-0.002463194215546302,-0.131044,-32.565593
11.185,2.0,1.0,1.0,34.3,34.1,34.1,3.4,3.6,2.6375,0.3282709870578468,-0.02379953449046311,0.9284618970434323,-0.002775402744908373,-0.133163,-32.409968
11.185,2.0,1.0,1.0,34.3,34.1,34.1,3.4,3.6,2.64,0.3180626141353698,-0.024199497225406135,0.9317478420678257,-0.0031000680636502453,-0.135338,-32.25318
11.185,2.0,1.0,1.0,34.3,34.1,34.1,3.4,3.6,2.6425,0.3077387232557712,-0.024606071510288933,0.9349421232097507,-0.0034376930803544517,-0.13757,-32.095203
11.185,2.0,1.0,1.0,34.3,34.1,34.1,3.4,3.6,2.645,0.29729852153174785,-0.025019361579316536,0.9380418735927607,-0.0037888048087703972,-0.13986,-31.936006
11.185,2.0,1.0,1.0,34.3,34.1,34.1,3.4,3.6,2.6475,0.28674123378381705,-0.02543947204148674,0.9410441408698044,-0.0041539557846953755,-0.142213,-31.775559
11.185,2.0,1.0,1.0,34.3,34.1,34.1,3.4,3.6,2.65,0.27606610418864513,-0.025866507720376113,0.9439458844038682,-0.004533725584563907,-0.144629,-31.613833
11.185,2.0,1.0,1.0,34.3,34.1,34.1,3.4,3.6,2.6525,0.26527239801887903,-0.02630057347209858,0.9467439723256122,-0.004928722454439829,-0.147112,-31.450794
11.185,2.0,1.0,1.0,34.3,34.1,34.1,3.4,3.6,2.655,0.25435940347969765,-0.026741773978700503,0.9494351784593972,-0.005339585058965771,-0.149663,-31.28641
11.185,2.0,1.0,1.0,34.3,34.1,34.1,3.4,3.6,2.6575,0.24332643364776455,-0.02719021351388502,0.9520161791082341,-0.005766984360776534,-0.152286,-31.120645
11.185,2.0,1.0,1.0,34.3,34.1,34.1,3.4,3.6,2.66,0.23217282851872567,-0.02764599567754059,0.9544835496871995,-0.006211625641945444,-0.154983,-30.953465
11.185,2.0,1.0,1.0,34.3,34.1,34.1,3.4,3.6,2.6625,0.22089795716992075,-0.028109223095062162,0.9568337611937803,-0.006674250680213284,-0.157758,-30.784831
11.185,2.0,1.0,1.0,34.3,34.1,34.1,3.4,3.6,2.665,0.2095012200455669,-0.02857999707690277,0.9590631765023726,-0.007155640094067631,-0.160613,-30.614706
11.185,2.0,1.0,1.0,34.3,34.1,34.1,3.4,3.6,2.6675,0.19798205137240082,-0.029058417233151477,0.961168046468771,-0.007656615872208744,-0.163553,-30.443049
11.185,2.0,1.0,1.0,34.3,34.1,34.1,3.4,3.6,2.67,0.186339921714476,-0.029544581037201586,0.9631445058289634,-0.008178044104582623,-0.16658,-30.269818
11.185,2.0,1.0,1.0,34.3,34.1,34.1,3.4,3.6,2.6725,0.17457434067674252,-0.030038583331725984,0.964988568874762,-0.00872083793399772,-0.169698,-30.094971
11.185,2.0,1.0,1.0,34.3,34.1,34.1,3.4,3.6,2.675,0.16268485976803077,-0.030540515769195146,0.9666961248868775,-0.009285960749399316,-0.172912,-29.918462
11.185,2.0,1.0,1.0,34.3,34.1,34.1,3.4,3.6,2.6775,0.15067107543522984,-0.031050466178046705,0.9682629333037813,-0.009874429644183023,-0.176225,-29.740244
11.185,2.0,1.0,1.0,34.3,34.1,34.1,3.4,3.6,2.68,0.13853263228175094,-0.03156851784430057,0.9696846186022595,-0.010487319165518413,-0.179643,-29.560269
11.185,2.0,1.0,1.0,34.3,34.1,34.1,3.4,3.6,2.6825,0.1262692264849743,-0.03209474869689627,0.9709566648626787,-0.011125765383563128,-0.183169,-29.378486
11.185,2.0,1.0,1.0,34.3,34.1,34.1,3.4,3.6,2.685,0.11388060942906324,-0.03262923038326225,0.9720744099888488,-0.011790970312725064,-0.18681,-29.19484
11.185,2.0,1.0,1.0,34.3,34.1,34.1,3.4,3.6,2.6875,0.10136659157166714,-0.03317202721957135,0.9730330395487202,-0.012484206720819034,-0.19057,-29.009278
11.185,2.0,1.0,1.0,34.3,34.1,34.1,3.4,3.6,2.69,0.08872704656541287,-0.03372319499774129,0.9738275801980725,-0.013206823366126873,-0.194455,-28.821741
11.185,2.0,1.0,1.0,34.3,34.1,34.1,3.4,3.6,2.6925,0.07596191565781998,-0.03428277962844217,0.9744528926447381,-0.013960250707075097,-0.198472,-28.632168
11.185,2.0,1.0,1.0,34.3,34.1,34.1,3.4,3.6,2.695,0.06307121239662741,-0.03485081559610051,0.9749036641056034,-0.014746007134558519,-0.202627,-28.440497
11.185,2.0,1.0,1.0,34.3,34.1,34.1,3.4,3.6,2.6975,0.05005502767123748,-0.03542732419805603,0.9751744002026781,-0.01556570578296652,-0.206927,-28.246661
11.185,2.0,1.0,1.0,34.3,34.1,34.1,3.4,3.6,2.7,0.036913535125516865,-0.03601231153552743,0.9752594162377209,-0.016421061982793524,-0.21138,-28.050591
11.185,2.0,1.0,1.0,34.3,34.1,34.1,3.4,3.6,2.7025,0.0236469969824078,-0.03660576621874924,0.9751528277771452,-0.017313901425474836,-0.215993,-27.852215
11.185,2.0,1.0,1.0,34.3,34.1,34.1,3.4,3.6,2.705,0.01025577032703895,-0.03720765674240453,0.9748485404701183,-0.01824616911990253,-0.220776,-27.651456
11.185,2.0,1.0,1.0,34.3,34.1,34.1,3.4,3.6,2.7075,-0.0032596860977193833,-0.03781792848011247,0.9743402390126928,-0.01921993923011557,-0.225739,-27.448236
11.185,2.0,1.0,1.0,34.3,34.1,34.1,3.4,3.6,2.71,-0.016898804520595754,-0.038436500238013566,0.9736213751592767,-0.020237425895098252,-0.23089,-27.24247
11.185,2.0,1.0,1.0,34.3,34.1,34.1,3.4,3.6,2.7125,-0.030660900123291306,-0.039063260297161014,0.9726851546696337,-0.021300995144682044,-0.236241,-27.03407
11.185,2.0,1.0,1.0,34.3,34.1,34.1,3.4,3.6,2.715,-0.04454516228874521,-0.039698061862142774,0.9715245230644672,-0.022413178040468003,-0.241804,-26.822945
11.185,2.0,1.0,1.0,34.3,34.1,34.1,3.4,3.6,2.7175,-0.05855064501667255,-0.0403407178187309,0.9701321500454473,-0.023576685187765112,-0.247592,-26.608998
11.185,2.0,1.0,1.0,34.3,34.1,34.1,3.4,3.6,2.72,-0.07267625638929295,-0.0409909946858858,0.9685004124156523,-0.02479442278410241,-0.253617,-26.392126
11.185,2.0,1.0,1.0,34.3,34.1,34.1,3.4,3.6,2.7225,-0.08692074694945086,-0.04164860562654456,0.9666213753137097,-0.02606951039231454,-0.259896,-26.172221
11.185,2.0,1.0,1.0,34.3,34.1,34.1,3.4,3.6,2.725,-0.10128269682817682,-0.042313202356537835,0.9644867715486843,-0.027405300651959483,-0.266445,-25.949171
11.185,2.0,1.0,1.0,34.3,34.1,34.1,3.4,3.6,2.7275,-0.11576050142885448,-0.04298436576082457,0.9620879787927615,-0.02880540117244976,-0.27328,-25.722856
11.185,2.0,1.0,1.0,34.3,34.1,34.1,3.4,3.6,2.73,-0.13035235543861237,-0.04366159498984957,0.9594159943540064,-0.030273698885338287,-0.280423,-25.49315
11.185,2.0,1.0,1.0,34.3,34.1,34.1,3.4,3.6,2.7325,-0.14505623489383299,-0.04434429476484866,0.9564614072116532,-0.03181438717243424,-0.287892,-25.259919
11.185,2.0,1.0,1.0,34.3,34.1,34.1,3.4,3.6,2.735,-0.15986987697315685,-0.04503176056758186,0.9532143669502627,-0.033431996131608854,-0.295713,-25.023023
11.185,2.0,1.0,1.0,34.3,34.1,34.1,3.4,3.6,2.7375,-0.17479075712663045,-0.04572316132511083,0.9496645491760514,-0.03513142639424057,-0.30391,-24.782313
11.185,2.0,1.0,1.0,34.3,34.1,34.1,3.4,3.6,2.74,-0.1898160630702989,-0.046417519121119244,0.9458011169374186,-0.036917986968285695,-0.31251,-24.53763
11.185,2.0,1.0,1.0,34.3,34.1,34.1,3.4,3.6,2.7425,-0.20494266507877046,-0.047113685368476384,0.9416126776011478,-0.03879743765016151,-0.321545,-24.288807
11.185,2.0,1.0,1.0,34.3,34.1,34.1,3.4,3.6,2.745,-0.22016708188905937,-0.047810312758951506,0.9370872345543232,-0.040776036628333394,-0.331049,-24.035666
11.185,2.0,1.0,1.0,34.3,34.1,34.1,3.4,3.6,2.7475,-0.23548544138253913,-0.04850582215971983,0.932212133008418,-0.042860593993205374,-0.341058,-23.77802
11.185,2.0,1.0,1.0,34.3,34.1,34.1,3.4,3.6,2.75,-0.25089343503055,-0.0491983634456188,0.926973999074345,-0.0450585319732366,-0.351615,-23.515668
11.185,2.0,1.0,1.0,34.3,34.1,34.1,3.4,3.6,2.7525,-0.26638626486452177,-0.0498857690321508,0.9213586711539674,-0.04737795283783486,-0.362766,-23.248396
11.185,2.0,1.0,1.0,34.3,34.1,34.1,3.4,3.6,2.755,-0.2819585814518971,-0.050565498595655574,0.915351122552818,-0.049827715545196466,-0.374563,-22.975978
11.185,2.0,1.0,1.0,34.3,34.1,34.1,3.4,3.6,2.7575,-0.2976044110100998,-0.05123457311933972,0.9089353740589158,-0.0524175223693946,-0.387062,-22.698173
11.185,2.0,1.0,1.0,34.3,34.1,34.1,3.4,3.6,2.76,-0.31331706935321785,-0.05188949596818962,0.9020943950525777,-0.055158016916746745,-0.400328,-22.414721
11.185,2.0,1.0,1.0,34.3,34.1,34.1,3.4,3.6,2.7625,-0.3290890598159716,-0.05252615814796614,0.894809991511396,-0.05806089513712501,-0.414435,-22.125349
11.185,2.0,1.0,1.0,34.3,34.1,34.1,3.4,3.6,2.765,-0.34491195160475036,-0.053139724211985366,0.887062679054386,-0.06113903115015882,-0.429464,-21.829763
11.185,2.0,1.0,1.0,34.3,34.1,34.1,3.4,3.6,2.7675,-0.3607762341452503,-0.05372449440324919,0.8788315389331456,-0.06440661993552078,-0.445507,-21.527647
11.185,2.0,1.0,1.0,34.3,34.1,34.1,3.4,3.6,2.77,-0.3766711418763596,-0.054273737505112565,0.8700940546334721,-0.06787933917280876,-0.46267,-21.218665
11.185,2.0,1.0,1.0,34.3,34.1,34.1,3.4,3.6,2.7725,-0.39258444250979785,-0.05477948745085695,0.8608259265125433,-0.07157453274545142,-0.481072,-20.902458
11.185,2.0,1.0,1.0,34.3,34.1,34.1,3.4,3.6,2.775,-0.40850217994200466,-0.05523229491900236,0.8510008616892653,-0.07551141861961154,-0.50085,-20.578639
11.185,2.0,1.0,1.0,34.3,34.1,34.1,3.4,3.6,2.7775,-0.42440836064622534,-0.05562092279538187,0.8405903362699568,-0.0797113239317763,-0.522162,-20.246793
11.185,2.0,1.0,1.0,34.3,34.1,34.1,3.4,3.6,2.78,-0.4402845693276119,-0.055931971354555854,0.8295633269951266,-0.08419795010047869,-0.545187,-19.906477
11.185,2.0,1.0,1.0,34.3,34.1,34.1,3.4,3.6,2.7825,-0.4561094956790069,-0.056149415090318705,0.8178860096427801,-0.0889976705112272,-0.570136,-19.557213
11.185,2.0,1.0,1.0,34.3,34.1,34.1,3.4,3.6,2.785,-0.4718583489487688,-0.05625402802842351,0.8055214221885333,-0.09413986264004291,-0.597251,-19.198488
11.185,2.0,1.0,1.0,34.3,34.1,34.1,3.4,3.6,2.7875,-0.4875021303538289,-0.056222667716308954,0.7924290920690223,-0.09965727511420518,-0.626817,-18.829754
11.185,2.0,1.0,1.0,34.3,34.1,34.1,3.4,3.6,2.79,-0.5030067246557651,-0.05602737942253371,0.7785646293387404,-0.1055864277433687,-0.659165,-18.450419
11.185,2.0,1.0,1.0,34.3,34.1,34.1,3.4,3.6,2.7925,-0.5183317608334856,-0.05563427076669652,0.7638792917020741,-0.11196803834115678,-0.69469,-18.059851
11.185,2.0,1.0,1.0,34.3,34.1,34.1,3.4,3.6,2.795,-0.5334291769259273,-0.05500209223757613,0.7483195343569808,-0.11884746318456106,-0.733855,-17.657372
11.185,2.0,1.0,1.0,34.3,34.1,34.1,3.4,3.6,2.7975,-0.5482414047712283,-0.05408043984248968,0.7318265688888121,-0.12627512664696663,-0.777216,-17.242258
11.185,2.0,1.0,1.0,34.3,34.1,34.1,3.4,3.6,2.8,-0.5626990653266131,-0.05280747126709787,0.7143359735745894,-0.1343068974273965,-0.825438,-16.813739
11.185,2.0,1.0,1.0,34.3,34.1,34.1,3.4,3.6,2.8025,-0.5767180331753268,-0.051106995088830265,0.6957774262581857,-0.14300434004157803,-0.879322,-16.370999
11.185,2.0,1.0,1.0,34.3,34.1,34.1,3.4,3.6,2.805,-0.590195688470615,-0.048884752555777455,0.6760746764485246,-0.15243472485412482,-0.939841,-15.913181
11.185,2.0,1.0,1.0,34.3,34.1,34.1,3.4,3.6,2.8075,-0.6030061253401785,-0.04602366264906826,0.6551459448211634,-0.16267060861737762,-1.008185,-15.439392
11.185,2.0,1.0,1.0,34.3,34.1,34.1,3.4,3.6,2.81,-0.6149940289692977,-0.04237774490678547,0.6329050503028724,-0.17378868588451937,-1.085816,-14.94872
11.185,2.0,1.0,1.0,34.3,34.1,34.1,3.4,3.6,2.8125,-0.625966874941823,-0.0377643765629575,0.609263739438609,-0.185867437860607,-1.174545,-14.440251
11.185,2.0,1.0,1.0,34.3,34.1,34.1,3.4,3.6,2.815,-0.6356850593120541,-0.031954496298188834,0.5841359628066587,-0.1989828364242743,-1.276629,-13.913108
11.185,2.0,1.0,1.0,34.3,34.1,34.1,3.4,3.6,2.8175,-0.6438495713656062,-0.024660371274326482,0.5574452566419906,-0.21320094973624876,-1.394898,-13.366499
11.185,2.0,1.0,1.0,34.3,34.1,34.1,3.4,3.6,2.82,-0.6500869468804698,-0.015520670634481551,0.5291370093796509,-0.22856567770234143,-1.532925,-12.7998
11.185,2.0,1.0,1.0,34.3,34.1,34.1,3.4,3.6,2.8225,-0.6539316349457351,-0.00408298365731654,0.4991982994639262,-0.24507894432533775,-1.695233,-12.212675
11.185,2.0,1.0,1.0,34.3,34.1,34.1,3.4,3.6,2.825,-0.6548068553007229,0.010215137891834604,0.46768924428914793,-0.2626694286487734,-1.887567,-11.605246
11.185,2.0,1.0,1.0,34.3,34.1,34.1,3.4,3.6,2.8275,-0.652007017559278,0.028063546934835364,0.43479136252342093,-0.28114436513198104,-2.117208,-10.978354
