1,w,sub_t,h,l1,l2,l3,g1,g2,Freq,S11_re,S21_re,S11_img,S21_img,S11_dB,S21_dB
11.185,2.0,1.0,1.0,34.1,33.7,33.7,4.4,3.3,2.5,0.772707575893141,-0.00677912797373037,0.624257717023749,0.00315599743373683,-0.05782,-42.524569
11.185,2.0,1.0,1.0,34.1,33.7,33.7,4.4,3.3,2.5025,0.7680711300966446,-0.00689567063841828,0.6298551680959349,0.0031396635560809634,-0.058365,-42.410294
11.185,2.0,1.0,1.0,34.1,33.7,33.7,4.4,3.3,2.505,0.7633718889248545,-0.007013881011215041,0.6354433358466829,0.003122037576351901,-0.05892,-42.295777
11.185,2.0,1.0,1.0,34.1,33.7,33.7,4.4,3.3,2.5075,0.7586092585887775,-0.007133782786191062,0.6410217522792764,0.003103080407413694,-0.059483,-42.181013
11.185,2.0,1.0,1.0,34.1,33.7,33.7,4.4,3.3,2.51,0.7537826382776925,-0.007255399995562864,0.6465899364740123,0.003082751770977321,-0.060056,-42.065995
11.185,2.0,1.0,1.0,34.1,33.7,33.7,4.4,3.3,2.5125,0.74889142013942,-0.007378757012193348,0.6521473942219209,0.003061010157397853,-0.060638,-41.950715
11.185,2.0,1.0,1.0,34.1,33.7,33.7,4.4,3.3,2.515,0.7439349892644446,-0.0075038785519416906,0.6576936176484175,0.003037812783957022,-0.06123,-41.835168
11.185,2.0,1.0,1.0,34.1,33.7,33.7,4.4,3.3,2.5175,0.7389127236741576,-0.007630789675848962,0.6632280848265999,0.003013115551566181,-0.061832,-41.719345
11.185,2.0,1.0,1.0,34.1,33.7,33.7,4.4,3.3,2.52,0.7338239943134615,-0.007759515792145841,0.6687502593799406,0.002986872999821498,-0.062444,-41.60324
11.185,2.0,1.0,1.0,34.1,33.7,33.7,4.4,3.3,2.5225,0.7286681650480353,-0.00789008265806677,0.6742595900740698,0.0029590382603399937,-0.063067,-41.486847
11.185,2.0,1.0,1.0,34.1,33.7,33.7,4.4,3.3,2.525,0.7234445926665287,-0.00802251638145509,0.6797555103973867,0.0029295630083011415,-0.0637,-41.370157
11.185,2.0,1.0,1.0,34.1,33.7,33.7,4.4,3.3,2.5275,0.7181526268879944,-0.008156843422142004,0.6852374381301997,0.002898397412115213,-0.064344,-41.253164
11.185,2.0,1.0,1.0,34.1,33.7,33.7,4.4,3.3,2.53,0.7127916103748799,-0.008293090593081287,0.6907047749020939,0.002865490081135266,-0.064999,-41.135861
11.185,2.0,1.0,1.0,34.1,33.7,33.7,4.4,3.3,2.5325,0.7073608787519042,-0.008431285061220732,0.6961569057372261,0.0028307880113255042,-0.065665,-41.018239
11.185,2.0,1.0,1.0,34.1,33.7,33.7,4.4,3.3,2.535,0.7018597606311668,-0.008571454348089945,0.7015931985872415,0.002794236528793937,-0.066343,-40.900292
11.185,2.0,1.0,1.0,34.1,33.7,33.7,4.4,3.3,2.5375,0.6962875776438617,-0.008713626330082965,0.707013003851482,0.002755779231093057,-0.067032,-40.782012
11.185,2.0,1.0,1.0,34.1,33.7,33.7,4.4,3.3,2.54,0.6906436444789659,-0.008857829238412846,0.7124156538841754,0.002715357926186178,-0.067734,-40.663391
11.185,2.0,1.0,1.0,34.1,33.7,33.7,4.4,3.3,2.5425,0.6849272689293087,-0.009004091658713879,0.7178004624882683,0.0026729125689724104,-0.068448,-40.544422
11.185,2.0,1.0,1.0,34.1,33.7,33.7,4.4,3.3,2.545,0.679137751945437,-0.00915244253026557,0.7231667243955705,0.0026283811952568367,-0.069174,-40.425096
11.185,2.0,1.0,1.0,34.1,33.7,33.7,4.4,3.3,2.5475,0.6732743876977179,-0.009302911144811089,0.7285137147328538,0.0025816998530469675,-0.069914,-40.305406
11.185,2.0,1.0,1.0,34.1,33.7,33.7,4.4,3.3,2.55,0.6673364636471244,-0.009455527144941071,0.7338406884735771,0.0025328025310491515,-0.070666,-40.185344
11.185,2.0,1.0,1.0,34.1,33.7,33.7,4.4,3.3,2.5525,0.6613232606252029,-0.009610320522011542,0.7391468798748535,0.0024816210842320604,-0.071433,-40.064901
11.185,2.0,1.0,1.0,34.1,33.7,33.7,4.4,3.3,2.555,0.6552340529237008,-0.009767321613563456,0.7444315018993131,0.0024280851563170825,-0.072213,-39.94407
11.185,2.0,1.0,1.0,34.1,33.7,33.7,4.4,3.3,2.5575,0.6490681083943901,-0.009926561100208854,0.7496937456214853,0.002372122099046825,-0.073007,-39.822841
11.185,2.0,1.0,1.0,34.1,33.7,33.7,4.4,3.3,2.56,0.6428246885596332,-0.010088070001946217,0.7549327796183177,0.0023136568880750327,-0.073815,-39.701207
11.185,2.0,1.0,1.0,34.1,33.7,33.7,4.4,3.3,2.5625,0.636503048734259,-0.0102518796738659,0.760147749343444,0.00225261203531199,-0.074638,-39.579158
11.185,2.0,1.0,1.0,34.1,33.7,33.7,4.4,3.3,2.565,0.630102438159346,-0.010418021801203336,0.7653377764848184,0.002188907497549274,-0.075477,-39.456685
11.185,2.0,1.0,1.0,34.1,33.7,33.7,4.4,3.3,2.5675,0.6236221001485436,-0.010586528393695366,0.770501958305301,0.002122460581178239,-0.076331,-39.333781
11.185,2.0,1.0,1.0,34.1,33.7,33.7,4.4,3.3,2.57,0.6170612722475766,-0.010757431779192354,0.7756393669657947,0.002053185842804539,-0.0772,-39.210435
11.185,2.0,1.0,1.0,34.1,33.7,33.7,4.4,3.3,2.5725,0.6104191864076145,-0.01093076459647504,0.7807490488305202,0.0019809949855498017,-0.078086,-39.086639
11.185,2.0,1.0,1.0,34.1,33.7,33.7,4.4,3.3,2.575,0.6036950691732182,-0.011106559787222506,0.7858300237539984,0.0019057967508183324,-0.078989,-38.962382
11.185,2.0,1.0,1.0,34.1,33.7,33.7,4.4,3.3,2.5775,0.5968881418856075,-0.011284850587073675,0.7908812843493165,0.0018274968052936025,-0.079908,-38.837656
11.185,2.0,1.0,1.0,34.1,33.7,33.7,4.4,3.3,2.58,0.5899976209020233,-0.011465670515720526,0.7959017952372315,0.0017459976229138548,-0.080845,-38.712451
11.185,2.0,1.0,1.0,34.1,33.7,33.7,4.4,3.3,2.5825,0.5830227178319899,-0.011649053365968581,0.8008904922756765,0.0016611983615610788,-0.0818,-38.586756
11.185,2.0,1.0,1.0,34.1,33.7,33.7,4.4,3.3,2.585,0.5759626397913263,-0.011835033191693925,0.805846281769203,0.0015729947341804992,-0.082773,-38.460562
11.185,2.0,1.0,1.0,34.1,33.7,33.7,4.4,3.3,2.5875,0.56881658967478,-0.012023644294622693,0.8107680396579083,0.0014812788740291526,-0.083765,-38.333858
11.185,2.0,1.0,1.0,34.1,33.7,33.7,4.4,3.3,2.59,0.5615837664482062,-0.012214921209853156,0.8156546106853653,0.0013859391937332732,-0.084777,-38.206633
11.185,2.0,1.0,1.0,34.1,33.7,33.7,4.4,3.3,2.5925,0.5542633654612446,-0.01240889869003532,0.8205048075450913,0.0012868602378124472,-0.085807,-38.078878
11.185,2.0,1.0,1.0,34.1,33.7,33.7,4.4,3.3,2.595,0.546854578781501,-0.012605611688116736,0.8253174100050451,0.0011839225283063184,-0.086859,-37.95058
11.185,2.0,1.0,1.0,34.1,33.7,33.7,4.4,3.3,2.5975,0.5393565955512588,-0.012805095338556997,0.8300911640096781,0.001077002403114981,-0.08793,-37.82173
11.185,2.0,1.0,1.0,34.1,33.7,33.7,4.4,3.3,2.6,0.5317686023678122,-0.01300738493690636,0.8348247807590191,0.0009659718466373586,-0.089023,-37.692314
11.185,2.0,1.0,1.0,34.1,33.7,33.7,4.4,3.3,2.6025,0.5240897836885555,-0.013212515917636012,0.8395169357642719,0.0008506983122645718,-0.090138,-37.562323
11.185,2.0,1.0,1.0,34.1,33.7,33.7,4.4,3.3,2.605,0.5163193222619924,-0.01342052383010001,0.8441662678794103,0.000731044536253072,-0.091276,-37.431743
11.185,2.0,1.0,1.0,34.1,33.7,33.7,4.4,3.3,2.6075,0.5084563995858974,-0.013631444312499227,0.8487713783082184,0.0006068683424699521,-0.092436,-37.300563
11.185,2.0,1.0,1.0,34.1,33.7,33.7,4.4,3.3,2.61,0.5005001963939097,-0.01384531306370803,0.8533308295862274,0.0004780224374667763,-0.09362,-37.168771
11.185,2.0,1.0,1.0,34.1,33.7,33.7,4.4,3.3,2.6125,0.49244989317187976,-0.014062165812814529,0.8578431445369864,0.0003443541952987707,-0.094828,-37.036352
11.185,2.0,1.0,1.0,34.1,33.7,33.7,4.4,3.3,2.615,0.48430467070535055,-0.014282038286212629,0.8623068052020839,0.0002057054314645026,-0.096061,-36.903295
11.185,2.0,1.0,1.0,34.1,33.7,33.7,4.4,3.3,2.6175,0.476063710659625,-0.014504966172072054,0.8667202517443241,6.191216529497428e-05,-0.097319,-36.769586
11.185,2.0,1.0,1.0,34.1,33.7,33.7,4.4,3.3,2.62,0.46772619619390887,-0.014730985081998663,0.8710818813234447,-8.719562992835119e-05,-0.098604,-36.635212
11.185,2.0,1.0,1.0,34.1,33.7,33.7,4.4,3.3,2.6225,0.45929131261108536,-0.014960130509682238,0.8753900469437487,-0.0002417942899016257,-0.099915,-36.500158
11.185,2.0,1.0,1.0,34.1,33.7,33.7,4.4,3.3,2.625,0.450758248044762,-0.0151924377863115,0.879643056272986,-0.000402066736105545,-0.101255,-36.36441
11.185,2.0,1.0,1.0,34.1,33.7,33.7,4.4,3.3,2.6275,0.4421261941852561,-0.015427942032519439,0.8838391704318237,-0.0005682027673893967,-0.102623,-36.227953
11.185,2.0,1.0,1.0,34.1,33.7,33.7,4.4,3.3,2.63,0.43339434704629265,-0.01566667810660039,0.8879766027531872,-0.0007403993672981981,-0.10402,-36.090773
11.185,2.0,1.0,1.0,34.1,33.7,33.7,4.4,3.3,2.6325,0.4245619077742359,-0.015908680548718572,0.8920535175107546,-0.0009188610281861369,-0.105447,-35.952853
11.185,2.0,1.0,1.0,34.1,33.7,33.7,4.4,3.3,2.635,0.41562808350175745,-0.016153983520804417,0.8960680286158273,-0.0011038000932413973,-0.106905,-35.814177
11.185,2.0,1.0,1.0,34.1,33.7,33.7,4.4,3.3,2.6375,0.4065920882479317,-0.016402620741805825,0.9000181982817822,-0.001295437117637769,-0.108396,-35.67473
11.185,2.0,1.0,1.0,34.1,33.7,33.7,4.4,3.3,2.64,0.39745314386679426,-0.016654625417934076,0.9039020356552648,-0.0014940012501272397,-0.109919,-35.534495
11.185,2.0,1.0,1.0,34.1,33.7,33.7,4.4,3.3,2.6425,0.388210481046534,-0.016910030167509228,0.9077174954132287,-0.00169973063649533,-0.111476,-35.393454
11.185,2.0,1.0,1.0,34.1,33.7,33.7,4.4,3.3,2.645,0.3788633403615342,-0.017168866939973923,0.9114624763248782,-0.0019128728464184043,-0.113067,-35.251589
11.185,2.0,1.0,1.0,34.1,33.7,33.7,4.4,3.3,2.6475,0.3694109733795946,-0.017431166928603505,0.915134819777515,-0.0021336853253917133,-0.114695,-35.108882
11.185,2.0,1.0,1.0,34.1,33.7,33.7,4.4,3.3,2.65,0.35985264382673804,-0.017696960476395164,0.918732308265218,-0.0023624358735384134,-0.116359,-34.965314
11.185,2.0,1.0,1.0,34.1,33.7,33.7,4.4,3.3,2.6525,0.35018762881215393,-0.01796627697456761,0.9222526638391984,-0.0025994031532640435,-0.118062,-34.820866
11.185,2.0,1.0,1.0,34.1,33.7,33.7,4.4,3.3,2.655,0.3404152201158714,-0.01823914475304751,0.925693546518605,-0.0028448772278921734,-0.119804,-34.675517
11.185,2.0,1.0,1.0,34.1,33.7,33.7,4.4,3.3,2.6575,0.3305347255419208,-0.018515590962254483,0.9290525526604337,-0.0030991601336040966,-0.121587,-34.529248
11.185,2.0,1.0,1.0,34.1,33.7,33.7,4.4,3.3,2.66,0.3205454703398359,-0.01879564144542718,0.9323272132870971,-0.0033625664872099638,-0.123411,-34.382036
11.185,2.0,1.0,1.0,34.1,33.7,33.7,4.4,3.3,2.6625,0.3104467986974894,-0.019079320600652493,0.9355149923700641,-0.0036354241325068973,-0.125279,-34.23386
11.185,2.0,1.0,1.0,34.1,33.7,33.7,4.4,3.3,2.665,0.3002380753083603,-0.01936665123167316,0.9386132850678556,-0.003918074828228409,-0.127191,-34.084696
11.185,2.0,1.0,1.0,34.1,33.7,33.7,4.4,3.3,2.6675,0.28991868701652124,-0.019657654386446902,0.941619415916489,-0.004210874980864281,-0.12915,-33.934522
11.185,2.0,1.0,1.0,34.1,33.7,33.7,4.4,3.3,2.67,0.2794880445427435,-0.0199523491823203,0.9445306369702925,-0.0045141964259352504,-0.131156,-33.783313
11.185,2.0,1.0,1.0,34.1,33.7,33.7,4.4,3.3,2.6725,0.2689455842953,-0.02025075261655287,0.9473441258907879,-0.004828427261641238,-0.133211,-33.631044
11.185,2.0,1.0,1.0,34.1,33.7,33.7,4.4,3.3,2.675,0.258290770269239,-0.02055287936078431,0.9500569839810917,-0.005153972739174092,-0.135318,-33.477689
11.185,2.0,1.0,1.0,34.1,33.7,33.7,4.4,3.3,2.6775,0.24752309603807313,-0.020858741537877337,0.952666234163007,-0.005491256214396353,-0.137477,-33.32322
11.185,2.0,1.0,1.0,34.1,33.7,33.7,4.4,3.3,2.68,0.23664208684204563,-0.021168348479385198,0.9551688188936596,-0.005840720166043688,-0.13969,-33.167611
11.185,2.0,1.0,1.0,34.1,33.7,33.7,4.4,3.3,2.6825,0.22564730177738618,-0.021481706461686564,0.957561598018169,-0.006202827286113404,-0.14196,-33.010832
11.185,2.0,1.0,1.0,34.1,33.7,33.7,4.4,3.3,2.685,0.21453833609118955,-0.021798818418596135,0.959841346554433,-0.006578061648663518,-0.144289,-32.852853
11.185,2.0,1.0,1.0,34.1,33.7,33.7,4.4,3.3,2.6875,0.203314823586858,-0.0221196836279924,0.962004752405637,-0.00696692996386988,-0.146678,-32.693642
11.185,2.0,1.0,1.0,34.1,33.7,33.7,4.4,3.3,2.69,0.191976439145366,-0.0224442973696994,0.9640484139955595,-0.007369962924883425,-0.149131,-32.533169
11.185,2.0,1.0,1.0,34.1,33.7,33.7,4.4,3.3,2.6925,0.180522901367908,-0.022772650551515842,0.9659688378211521,-0.007787716655803787,-0.151648,-32.371398
11.185,2.0,1.0,1.0,34.1,33.7,33.7,4.4,3.3,2.695,0.16895397534596177,-0.023104729299886287,0.9677624359161608,-0.008220774269946404,-0.154234,-32.208296
11.185,2.0,1.0,1.0,34.1,33.7,33.7,4.4,3.3,2.6975,0.15726947556513937,-0.023440514511260984,0.9694255232187993,-0.008669747548545437,-0.15689,-32.043826
11.185,2.0,1.0,1.0,34.1,33.7,33.7,4.4,3.3,2.7,0.14546926894979062,-0.023779981359671434,0.9709543148355567,-0.00913527875110918,-0.159619,-31.877949
11.185,2.0,1.0,1.0,34.1,33.7,33.7,4.4,3.3,2.7025,0.1335532780558063,-0.024123098755456207,0.9723449231922386,-0.009618042569851508,-0.162424,-31.710627
11.185,2.0,1.0,1.0,34.1,33.7,33.7,4.4,3.3,2.705,0.12152148441977251,-0.02446982874939089,0.9735933550621566,-0.010118748241970342,-0.165309,-31.541819
11.185,2.0,1.0,1.0,34.1,33.7,33.7,4.4,3.3,2.7075,0.1093739320733108,-0.024820125875691466,0.9746955084600774,-0.010638141835060847,-0.168276,-31.371482
11.185,2.0,1.0,1.0,34.1,33.7,33.7,4.4,3.3,2.71,0.09711073123231813,-0.025173936426457686,0.9756471693890325,-0.011177008722648513,-0.17133,-31.19957
11.185,2.0,1.0,1.0,34.1,33.7,33.7,4.4,3.3,2.7125,0.08473206217175278,-0.025531197649080413,0.9764440084253824,-0.011736176268743471,-0.174473,-31.026039
11.185,2.0,1.0,1.0,34.1,33.7,33.7,4.4,3.3,2.715,0.07223817929776029,-0.02589183685693165,0.977081577125575,-0.012316516742466931,-0.177709,-30.850839
11.185,2.0,1.0,1.0,34.1,33.7,33.7,4.4,3.3,2.7175,0.05962941543019726,-0.02625577044226055,0.9775553042358086,-0.012918950486231448,-0.181044,-30.673919
11.185,2.0,1.0,1.0,34.1,33.7,33.7,4.4,3.3,2.72,0.04690618631014449,-0.026622902778597742,0.9778604916832683,-0.013544449363695464,-0.184481,-30.495227
11.185,2.0,1.0,1.0,34.1,33.7,33.7,4.4,3.3,2.7225,0.03406899534870183,-0.026993124998090295,0.9779923103247119,-0.01419404051681312,-0.188024,-30.314706
11.185,2.0,1.0,1.0,34.1,33.7,33.7,4.4,3.3,2.725,0.02111843863546202,-0.02736631362699488,0.9779457954248475,-0.014868810464805024,-0.19168,-30.132298
11.185,2.0,1.0,1.0,34.1,33.7,33.7,4.4,3.3,2.7275,0.00805521022737213,-0.02774232906000198,0.9777158418331691,-0.015569909581855617,-0.195452,-29.947942
11.185,2.0,1.0,1.0,34.1,33.7,33.7,4.4,3.3,2.73,-0.005119892258432343,-0.02812101385107262,0.977297198823563,-0.01629855699485236,-0.199348,-29.761575
11.185,2.0,1.0,1.0,34.1,33.7,33.7,4.4,3.3,2.7325,-0.01840596172100441,-0.028502190794969923,0.9766844645560426,-0.01705604594761698,-0.203372,-29.573128
11.185,2.0,1.0,1.0,34.1,33.7,33.7,4.4,3.3,2.735,-0.03180197529042555,-0.02888566076955558,0.9758720801142546,-0.0178437496839185,-0.207532,-29.382533
11.185,2.0,1.0,1.0,34.1,33.7,33.7,4.4,3.3,2.7375,-0.045306787645814264,-0.029271200304091624,0.9748543230658772,-0.018663127908220094,-0.211835,-29.189713
11.185,2.0,1.0,1.0,34.1,33.7,33.7,4.4,3.3,2.74,-0.058919123895739646,-0.029658558833086844,0.9736253004855288,-0.019515733890716765,-0.216288,-28.994592
11.185,2.0,1.0,1.0,34.1,33.7,33.7,4.4,3.3,2.7425,-0.07263757197387655,-0.030047455588500787,0.9721789413711577,-0.02040322229192046,-0.220899,-28.797088
11.185,2.0,1.0,1.0,34.1,33.7,33.7,4.4,3.3,2.745,-0.08646057449503758,-0.03043757607514603,0.970508988374997,-0.021327357792009925,-0.225676,-28.597113
11.185,2.0,1.0,1.0,34.1,33.7,33.7,4.4,3.3,2.7475,-0.10038642000760702,-0.03082856806467157,0.9686089887586932,-0.022290024621591433,-0.23063,-28.394577
11.185,2.0,1.0,1.0,34.1,33.7,33.7,4.4,3.3,2.75,-0.114413233567486,-0.0312200370322569,0.966472284469076,-0.0232932371036449,-0.235771,-28.189384
11.185,2.0,1.0,1.0,34.1,33.7,33.7,4.4,3.3,2.7525,-0.12853896654559002,-0.031611540946719814,0.9640920012157921,-0.02433915133153504,-0.241109,-27.981432
11.185,2.0,1.0,1.0,34.1,33.7,33.7,4.4,3.3,2.755,-0.14276138556524498,-0.032002584308687736,0.961461036414465,-0.02543007812537394,-0.246656,-27.770614
11.185,2.0,1.0,1.0,34.1,33.7,33.7,4.4,3.3,2.7575,-0.15707806044700265,-0.03239261131222874,0.9585720458386761,-0.026568497429111975,-0.252425,-27.556817
11.185,2.0,1.0,1.0,34.1,33.7,33.7,4.4,3.3,2.76,-0.17148635101554532,-0.03278099798218532,0.9554174288005252,-0.02775707433394683,-0.258431,-27.339921
11.185,2.0,1.0,1.0,34.1,33.7,33.7,4.4,3.3,2.7625,-0.1859833925958982,-0.03316704311153594,0.951989311652171,-0.028998676940516367,-0.264688,-27.119798
11.185,2.0,1.0,1.0,34.1,33.7,33.7,4.4,3.3,2.765,-0.20056607999269885,-0.03354995778933258,0.948279529369064,-0.030296396303479554,-0.271213,-26.896315
11.185,2.0,1.0,1.0,34.1,33.7,33.7,4.4,3.3,2.7675,-0.21523104970565768,-0.03392885326879137,0.9442796049386929,-0.03165356873822903,-0.278025,-26.669327
11.185,2.0,1.0,1.0,34.1,33.7,33.7,4.4,3.3,2.77,-0.2299746600848027,-0.03430272687523701,0.9399807262358006,-0.03307380081146613,-0.285144,-26.438683
11.185,2.0,1.0,1.0,34.1,33.7,33.7,4.4,3.3,2.7725,-0.24479296906839823,-0.03467044559270217,0.9353737200151041,-0.03456099738619097,-0.292592,-26.204221
11.185,2.0,1.0,1.0,34.1,33.7,33.7,4.4,3.3,2.775,-0.25968170907200133,-0.03503072689336088,0.9304490225943911,-0.03611939314849441,-0.300392,-25.965771
11.185,2.0,1.0,1.0,34.1,33.7,33.7,4.4,3.3,2.7775,-0.27463625850540224,-0.03538211628222426,0.9251966467330903,-0.03775358810972279,-0.308573,-25.723147
11.185,2.0,1.0,1.0,34.1,33.7,33.7,4.4,3.3,2.78,-0.2896516092808695,-0.03572296091630369,0.9196061441323914,-0.039468587654690454,-0.317163,-25.476156
11.185,2.0,1.0,1.0,34.1,33.7,33.7,4.4,3.3,2.7825,-0.3047223295355159,-0.03605137851720371,0.9136665628908975,-0.041269847796423516,-0.326195,-25.224588
11.185,2.0,1.0,1.0,34.1,33.7,33.7,4.4,3.3,2.785,-0.31984252061570095,-0.03636522062173256,0.9073663991424967,-0.043163326402474576,-0.335705,-24.968221
11.185,2.0,1.0,1.0,34.1,33.7,33.7,4.4,3.3,2.7875,-0.33500576715262104,-0.036662028997423,0.9006935419783868,-0.045155541279382046,-0.345736,-24.706817
11.185,2.0,1.0,1.0,34.1,33.7,33.7,4.4,3.3,2.79,-0.3502050787839996,-0.03693898377698813,0.8936352106103005,-0.04725363614285014,-0.356331,-24.440119
11.185,2.0,1.0,1.0,34.1,33.7,33.7,4.4,3.3,2.7925,-0.3654328217310875,-0.0371928415222335,0.8861778825644346,-0.049465455664207895,-0.367543,-24.167855
11.185,2.0,1.0,1.0,34.1,33.7,33.7,4.4,3.3,2.795,-0.3806806380030444,-0.03741986099365998,0.8783072115026599,-0.051799630971187414,-0.379427,-23.88973
11.185,2.0,1.0,1.0,34.1,33.7,33.7,4.4,3.3,2.7975,-0.39593934944502324,-0.037615713850447145,0.8700079330471185,-0.05426567719508028,-0.39205,-23.605428
11.185,2.0,1.0,1.0,34.1,33.7,33.7,4.4,3.3,2.8,-0.4111988431371711,-0.03777537680182921,0.8612637567349001,-0.056874104898085615,-0.405485,-23.31461
11.185,2.0,1.0,1.0,34.1,33.7,33.7,4.4,3.3,2.8025,-0.42644793374210677,-0.037893000828854446,0.852057241951677,-0.05963654748337289,-0.419814,-23.016909
11.185,2.0,1.0,1.0,34.1,33.7,33.7,4.4,3.3,2.805,-0.44167419722646095,-0.037961751933676686,0.842369655390823,-0.06256590698199141,-0.435133,-22.711929
11.185,2.0,1.0,1.0,34.1,33.7,33.7,4.4,3.3,2.8075,-0.4568637688645245,-0.03797361636968215,0.8321808072671768,-0.06567652091532925,-0.45155,-22.399244
11.185,2.0,1.0,1.0,34.1,33.7,33.7,4.4,3.3,2.81,-0.47200109645740723,-0.037919161349553615,0.8214688632018101,-0.06898435322960308,-0.46919,-22.078393
11.185,2.0,1.0,1.0,34.1,33.7,33.7,4.4,3.3,2.8125,-0.487068637118845,-0.0377872396710453,0.810210128421415,-0.0725072125539062,-0.488198,-21.748875
11.185,2.0,1.0,1.0,34.1,33.7,33.7,4.4,3.3,2.815,-0.5020464825853282,-0.037564623340387744,0.7983788007454681,-0.07626500118319121,-0.508739,-21.410148
11.185,2.0,1.0,1.0,34.1,33.7,33.7,4.4,3.3,2.8175,-0.5169118935266461,-0.03723554683740187,0.7859466888715714,-0.08027999812660917,-0.531008,-21.061626
11.185,2.0,1.0,1.0,34.1,33.7,33.7,4.4,3.3,2.82,-0.5316387173865246,-0.036781134782267924,0.7728828928898259,-0.08457717911443204,-0.555234,-20.702669
11.185,2.0,1.0,1.0,34.1,33.7,33.7,4.4,3.3,2.8225,-0.546196656357789,-0.036178680923933254,0.7591534450500825,-0.08918457533466967,-0.581683,-20.332584
11.185,2.0,1.0,1.0,34.1,33.7,33.7,4.4,3.3,2.825,-0.5605503414917423,-0.035400734882755386,0.7447209110452648,-0.0941336704012618,-0.610672,-19.950616
11.185,2.0,1.0,1.0,34.1,33.7,33.7,4.4,3.3,2.8275,-0.5746581547046755,-0.03441393900546206,0.72954395623378,-0.09945983086888899,-0.642578,-19.555944
