1,w,sub_t,h,l1,l2,l3,g1,g2,Freq,S11_re,S21_re,S11_img,S21_img,S11_dB,S21_dB
11.185,2.0,1.0,1.0,33.0,33.5,33.5,4.0,2.0,2.5,0.899476533398652,-0.00503776258657103,0.424305829509807,0.00523716649378179,-0.047627,-42.773088
11.185,2.0,1.0,1.0,33.0,33.5,33.5,4.0,2.0,2.5025,0.8968592443858898,-0.005145875665008739,0.42970770284769744,0.005272334489011721,-0.048014,-42.653798
11.185,2.0,1.0,1.0,33.0,33.5,33.5,4.0,2.0,2.505,0.8941997102153921,-0.005255940185055539,0.43511190684059325,0.0053072853261821795,-0.048408,-42.534266
11.185,2.0,1.0,1.0,33.0,33.5,33.5,4.0,2.0,2.5075,0.8914975559682364,-0.005367995979199481,0.44051831254116164,0.0053420049031283915,-0.048809,-42.414484
11.185,2.0,1.0,1.0,33.0,33.5,33.5,4.0,2.0,2.51,0.8887524005569375,-0.005482083957013388,0.4459267872047212,0.0053764785724520195,-0.049216,-42.294442
11.185,2.0,1.0,1.0,33.0,33.5,33.5,4.0,2.0,2.5125,0.8859638566119116,-0.005598246141617712,0.4513371941614681,0.005410691118393768,-0.04963,-42.174132
11.185,2.0,1.0,1.0,33.0,33.5,33.5,4.0,2.0,2.515,0.8831315303655164,-0.005716525707633412,0.45674939268449694,0.005444626732604254,-0.050052,-42.053543
11.185,2.0,1.0,1.0,33.0,33.5,33.5,4.0,2.0,2.5175,0.8802550215335947,-0.0058369670207033654,0.46216323785344066,0.005478268988754341,-0.05048,-41.932666
11.185,2.0,1.0,1.0,33.0,33.5,33.5,4.0,2.0,2.52,0.8773339231944502,-0.00595961567865283,0.4675785804135916,0.00551160081591913,-0.050916,-41.811491
11.185,2.0,1.0,1.0,33.0,33.5,33.5,4.0,2.0,2.5225,0.8743678216651861,-0.006084518554374574,0.47299526663030655,0.0055446044706711165,-0.05136,-41.690009
11.185,2.0,1.0,1.0,33.0,33.5,33.5,4.0,2.0,2.525,0.8713562963753182,-0.0062117238405217726,0.478413138138544,0.005577261507807534,-0.051811,-41.568211
11.185,2.0,1.0,1.0,33.0,33.5,33.5,4.0,2.0,2.5275,0.868298919737588,-0.006341281096100013,0.48383203178734074,0.005609552749639097,-0.05227,-41.446085
11.185,2.0,1.0,1.0,33.0,33.5,33.5,4.0,2.0,2.53,0.8651952570158861,-0.006473241295054151,0.4892517794790298,0.0056414582537549,-0.052738,-41.323622
11.185,2.0,1.0,1.0,33.0,33.5,33.5,4.0,2.0,2.5325,0.8620448661901978,-0.0066076568769514185,0.49467220800300615,0.005672957279181136,-0.053213,-41.200812
11.185,2.0,1.0,1.0,33.0,33.5,33.5,4.0,2.0,2.535,0.8588472978184728,-0.006744581799868727,0.5000931388638309,0.0057040282508394,-0.053697,-41.077644
11.185,2.0,1.0,1.0,33.0,33.5,33.5,4.0,2.0,2.5375,0.8556020948953262,-0.006884071595595189,0.5055143881034452,0.005734648722205851,-0.05419,-40.954108
11.185,2.0,1.0,1.0,33.0,33.5,33.5,4.0,2.0,2.54,0.8523087927074612,-0.007026183427275308,0.5109357661172742,0.005764795336069242,-0.054692,-40.830193
11.185,2.0,1.0,1.0,33.0,33.5,33.5,4.0,2.0,2.5425,0.8489669186857055,-0.007170976149614742,0.5163570774639746,0.005794443783274786,-0.055203,-40.705889
11.185,2.0,1.0,1.0,33.0,33.5,33.5,4.0,2.0,2.545,0.8455759922535463,-0.007318510371788943,0.5217781206685758,0.005823568759334119,-0.055723,-40.581183
11.185,2.0,1.0,1.0,33.0,33.5,33.5,4.0,2.0,2.5475,0.8421355246720466,-0.007468848523196055,0.5271986880187441,0.00585214391877792,-0.056253,-40.456065
11.185,2.0,1.0,1.0,33.0,33.5,33.5,4.0,2.0,2.55,0.8386450188810047,-0.007622054922205722,0.5326185653539094,0.0058801418271106284,-0.056793,-40.330525
11.185,2.0,1.0,1.0,33.0,33.5,33.5,4.0,2.0,2.5525,0.8351039693362371,-0.007778195848069234,0.5380375318469344,0.00590753391022752,-0.057343,-40.204549
11.185,2.0,1.0,1.0,33.0,33.5,33.5,4.0,2.0,2.555,0.8315118618428278,-0.007937339616158409,0.5434553597780514,0.005934290401135536,-0.057904,-40.078126
11.185,2.0,1.0,1.0,33.0,33.5,33.5,4.0,2.0,2.5575,0.8278681733842016,-0.008099556656721204,0.5488718143007275,0.005960380283814528,-0.058475,-39.951245
11.185,2.0,1.0,1.0,33.0,33.5,33.5,4.0,2.0,2.56,0.8241723719468628,-0.008264919597344399,0.5542866531991258,0.005985771234040197,-0.059056,-39.823893
11.185,2.0,1.0,1.0,33.0,33.5,33.5,4.0,2.0,2.5625,0.8204239163406235,-0.00843350334933275,0.5596996266368044,0.006010429556979759,-0.05965,-39.696058
11.185,2.0,1.0,1.0,33.0,33.5,33.5,4.0,2.0,2.565,0.8166222560141503,-0.008605385198223871,0.5651104768962888,0.0060343201213567945,-0.060254,-39.567727
11.185,2.0,1.0,1.0,33.0,33.5,33.5,4.0,2.0,2.5675,0.8127668308656361,-0.008780644898673789,0.57051893810911,0.006057406289965289,-0.060871,-39.438887
11.185,2.0,1.0,1.0,33.0,33.5,33.5,4.0,2.0,2.57,0.8088570710483963,-0.008959364773963282,0.5759247359759062,0.006079649846303258,-0.061499,-39.309525
11.185,2.0,1.0,1.0,33.0,33.5,33.5,4.0,2.0,2.5725,0.8048923967711732,-0.009141629820390221,0.5813275874761451,0.006101010917069538,-0.06214,-39.179628
11.185,2.0,1.0,1.0,33.0,33.5,33.5,4.0,2.0,2.575,0.800872218092922,-0.009327527816834507,0.5867272005670043,0.006121447890256361,-0.062794,-39.049182
11.185,2.0,1.0,1.0,33.0,33.5,33.5,4.0,2.0,2.5775,0.7967959347118352,-0.009517149439794549,0.5921232738709271,0.006140917328548702,-0.063461,-38.918174
11.185,2.0,1.0,1.0,33.0,33.5,33.5,4.0,2.0,2.58,0.7926629357483495,-0.00971058838422461,0.5975154963513266,0.006159373877717182,-0.064142,-38.786588
11.185,2.0,1.0,1.0,33.0,33.5,33.5,4.0,2.0,2.5825,0.7884725995218506,-0.009907941490511907,0.6029035469759101,0.006176770169666862,-0.064837,-38.654411
11.185,2.0,1.0,1.0,33.0,33.5,33.5,4.0,2.0,2.585,0.7842242933207904,-0.010109308877969432,0.6082870943670279,0.006193056719785895,-0.065545,-38.521627
11.185,2.0,1.0,1.0,33.0,33.5,33.5,4.0,2.0,2.5875,0.7799173731658913,-0.010314794085233281,0.6136657964384488,0.006208181818198007,-0.066269,-38.388222
11.185,2.0,1.0,1.0,33.0,33.5,33.5,4.0,2.0,2.59,0.7755511835661101,-0.010524504217991856,0.6190393000179037,0.006222091414503994,-0.067008,-38.25418
11.185,2.0,1.0,1.0,33.0,33.5,33.5,4.0,2.0,2.5925,0.7711250572669854,-0.010738550104495497,0.6244072404547142,0.006234728995556087,-0.067762,-38.119486
11.185,2.0,1.0,1.0,33.0,33.5,33.5,4.0,2.0,2.595,0.7666383149910007,-0.010957046459333047,0.6297692412117629,0.00624603545577647,-0.068533,-37.984122
11.185,2.0,1.0,1.0,33.0,33.5,33.5,4.0,2.0,2.5975,0.7620902651695245,-0.011180112055991129,0.6351249134410438,0.006255948959492526,-0.06932,-37.848073
11.185,2.0,1.0,1.0,33.0,33.5,33.5,4.0,2.0,2.6,0.7574802036658934,-0.011407869908757013,0.6404738555419462,0.006264404794714633,-0.070124,-37.711321
11.185,2.0,1.0,1.0,33.0,33.5,33.5,4.0,2.0,2.6025,0.7528074134891587,-0.011640447464555307,0.6458156527013962,0.006271335217738951,-0.070946,-37.573849
11.185,2.0,1.0,1.0,33.0,33.5,33.5,4.0,2.0,2.605,0.7480711644979694,-0.011877976805365497,0.6511498764149116,0.006276669287907129,-0.071786,-37.435639
11.185,2.0,1.0,1.0,33.0,33.5,33.5,4.0,2.0,2.6075,0.7432707130940429,-0.012120594861901908,0.6564760839875625,0.006280332691791926,-0.072644,-37.296673
11.185,2.0,1.0,1.0,33.0,33.5,33.5,4.0,2.0,2.61,0.7384053019046224,-0.012368443639299356,0.6617938180137581,0.006282247556026979,-0.073522,-37.156933
11.185,2.0,1.0,1.0,33.0,33.5,33.5,4.0,2.0,2.6125,0.733474159453268,-0.012621670455596248,0.6671026058347082,0.0062823322479205355,-0.07442,-37.016398
11.185,2.0,1.0,1.0,33.0,33.5,33.5,4.0,2.0,2.615,0.7284764998182884,-0.012880428193871352,0.6724019589723296,0.006280501162929137,-0.075338,-36.87505
11.185,2.0,1.0,1.0,33.0,33.5,33.5,4.0,2.0,2.6175,0.7234115222780539,-0.013144875568953678,0.677691372538262,0.006276664497976189,-0.076277,-36.732868
11.185,2.0,1.0,1.0,33.0,33.5,33.5,4.0,2.0,2.62,0.7182784109423797,-0.013415177409696737,0.6829703246165784,0.0062707280095246724,-0.077239,-36.589831
11.185,2.0,1.0,1.0,33.0,33.5,33.5,4.0,2.0,2.6225,0.7130763343690855,-0.013691504957886106,0.68823827561866,0.006262592755197643,-0.078223,-36.445918
11.185,2.0,1.0,1.0,33.0,33.5,33.5,4.0,2.0,2.625,0.70780444516479,-0.0139740361849304,0.693494667608579,0.00625215481765226,-0.07923,-36.301107
11.185,2.0,1.0,1.0,33.0,33.5,33.5,4.0,2.0,2.6275,0.7024618795688868,-0.014262956127583097,0.6987389235972281,0.006239305009277004,-0.080262,-36.155375
11.185,2.0,1.0,1.0,33.0,33.5,33.5,4.0,2.0,2.63,0.6970477570195865,-0.014558457244032933,0.7039704468032681,0.006223928556164365,-0.081318,-36.0087
11.185,2.0,1.0,1.0,33.0,33.5,33.5,4.0,2.0,2.6325,0.6915611797008012,-0.014860739791819589,0.7091886198788336,0.006205904759656038,-0.082401,-35.861056
11.185,2.0,1.0,1.0,33.0,33.5,33.5,4.0,2.0,2.635,0.6860012320685422,-0.015170012229140538,0.7143928040977451,0.006185106633611077,-0.08351,-35.712421
11.185,2.0,1.0,1.0,33.0,33.5,33.5,4.0,2.0,2.6375,0.6803669803553972,-0.015486491641246694,0.7195823385038084,0.0061614005153529956,-0.084647,-35.562767
11.185,2.0,1.0,1.0,33.0,33.5,33.5,4.0,2.0,2.64,0.6746574720514998,-0.01581040419376889,0.7247565390165674,0.006134645648077096,-0.085813,-35.41207
11.185,2.0,1.0,1.0,33.0,33.5,33.5,4.0,2.0,2.6425,0.6688717353603029,-0.01614198561496648,0.7299146974916456,0.0061046937322678085,-0.087009,-35.260301
11.185,2.0,1.0,1.0,33.0,33.5,33.5,4.0,2.0,2.645,0.6630087786272781,-0.016481481709055487,0.7350560807325655,0.006071388443439775,-0.088235,-35.107434
11.185,2.0,1.0,1.0,33.0,33.5,33.5,4.0,2.0,2.6475,0.6570675897395224,-0.016829148902967415,0.7401799294506526,0.006034564913254595,-0.089494,-34.95344
11.185,2.0,1.0,1.0,33.0,33.5,33.5,4.0,2.0,2.65,0.6510471354940388,-0.017185254829077734,0.7452854571693365,0.00599404917076005,-0.090786,-34.798289
11.185,2.0,1.0,1.0,33.0,33.5,33.5,4.0,2.0,2.6525,0.6449463609322982,-0.0175500789466747,0.7503718490687837,0.005949657540174481,-0.092112,-34.64195
11.185,2.0,1.0,1.0,33.0,33.5,33.5,4.0,2.0,2.655,0.638764188638409,-0.01792391320517733,0.7554382607664647,0.0059011959912701716,-0.093475,-34.484393
11.185,2.0,1.0,1.0,33.0,33.5,33.5,4.0,2.0,2.6575,0.6324995179980225,-0.018307062752372063,0.7604838170287925,0.00584845943799233,-0.094874,-34.325583
11.185,2.0,1.0,1.0,33.0,33.5,33.5,4.0,2.0,2.66,0.6261512244147976,-0.018699846691239343,0.7655076104085212,0.005791230980500511,-0.096313,-34.165489
11.185,2.0,1.0,1.0,33.0,33.5,33.5,4.0,2.0,2.6625,0.61971815848097,-0.01910259888925012,0.7705086998020534,0.005729281085297635,-0.097792,-34.004073
11.185,2.0,1.0,1.0,33.0,33.5,33.5,4.0,2.0,2.665,0.6131991450982082,-0.019515668844375157,0.7754861089202277,0.00566236669753617,-0.099313,-33.841302
11.185,2.0,1.0,1.0,33.0,33.5,33.5,4.0,2.0,2.6675,0.6065929825446145,-0.01993942261242872,0.7804388246654824,0.00559023027895054,-0.100877,-33.677136
11.185,2.0,1.0,1.0,33.0,33.5,33.5,4.0,2.0,2.67,0.599898441483279,-0.020374243800800846,0.7853657954075633,0.005512598764132128,-0.102488,-33.511537
11.185,2.0,1.0,1.0,33.0,33.5,33.5,4.0,2.0,2.6725,0.5931142639073699,-0.020820534634101745,0.7902659291491092,0.005429182427050064,-0.104146,-33.344465
11.185,2.0,1.0,1.0,33.0,33.5,33.5,4.0,2.0,2.675,0.5862391620162505,-0.021278717097757287,0.7951380915715083,0.005339673648797134,-0.105854,-33.175878
11.185,2.0,1.0,1.0,33.0,33.5,33.5,4.0,2.0,2.6775,0.5792718170165406,-0.021749234166170892,0.7999811039503661,0.005243745576507454,-0.107613,-33.005733
11.185,2.0,1.0,1.0,33.0,33.5,33.5,4.0,2.0,2.68,0.5722108778414556,-0.022232551122697997,0.8047937409287483,0.005141050662212946,-0.109427,-32.833985
11.185,2.0,1.0,1.0,33.0,33.5,33.5,4.0,2.0,2.6825,0.5650549597810631,-0.022729156979374065,0.8095747281349895,0.0050312190690796005,-0.111298,-32.660586
11.185,2.0,1.0,1.0,33.0,33.5,33.5,4.0,2.0,2.685,0.5578026430153556,-0.023239566005114554,0.8143227396303698,0.004913856930961159,-0.113228,-32.485489
11.185,2.0,1.0,1.0,33.0,33.5,33.5,4.0,2.0,2.6875,0.550452471041205,-0.0237643193719544,0.819036395170207,0.00478854444949606,-0.11522,-32.308642
11.185,2.0,1.0,1.0,33.0,33.5,33.5,4.0,2.0,2.69,0.5430029489833478,-0.02430398692983937,0.823714257259962,0.004654833811029147,-0.117277,-32.129994
11.185,2.0,1.0,1.0,33.0,33.5,33.5,4.0,2.0,2.6925,0.5354525417785094,-0.024859169121530016,0.8283548279857244,0.004512246903431515,-0.119402,-31.949489
11.185,2.0,1.0,1.0,33.0,33.5,33.5,4.0,2.0,2.695,0.5277996722206717,-0.025430499050332928,0.8329565455958778,0.004360272810355079,-0.121599,-31.767069
11.185,2.0,1.0,1.0,33.0,33.5,33.5,4.0,2.0,2.6975,0.5200427188541804,-0.026018644714661518,0.8375177808078689,0.004198365057582083,-0.123871,-31.582676
11.185,2.0,1.0,1.0,33.0,33.5,33.5,4.0,2.0,2.7,0.5121800137000355,-0.026624311424843082,0.8420368328106269,0.0040259385828133615,-0.126223,-31.396248
11.185,2.0,1.0,1.0,33.0,33.5,33.5,4.0,2.0,2.7025,0.504209839799108,-0.027248244419170432,0.8465119249294093,0.0038423663964503485,-0.128658,-31.207718
11.185,2.0,1.0,1.0,33.0,33.5,33.5,4.0,2.0,2.705,0.4961304285543284,-0.02789123169793783,0.8509411999154144,0.00364697589656208,-0.13118,-31.017021
11.185,2.0,1.0,1.0,33.0,33.5,33.5,4.0,2.0,2.7075,0.48793995685194863,-0.0285541070961317,0.8553227148174773,0.003439044796205301,-0.133795,-30.824083
11.185,2.0,1.0,1.0,33.0,33.5,33.5,4.0,2.0,2.71,0.4796365439398693,-0.02923775361759222,0.8596544353873181,0.003217796615465582,-0.136507,-30.628833
11.185,2.0,1.0,1.0,33.0,33.5,33.5,4.0,2.0,2.7125,0.4712182480386368,-0.029943107055826423,0.8639342299630715,0.0029823956838910225,-0.139322,-30.431191
11.185,2.0,1.0,1.0,33.0,33.5,33.5,4.0,2.0,2.715,0.4626830626581131,-0.03067115992927394,0.8681598627680157,0.0027319415912080373,-0.142246,-30.231076
11.185,2.0,1.0,1.0,33.0,33.5,33.5,4.0,2.0,2.7175,0.45402891258991973,-0.031422965761715355,0.8723289865523394,0.002465463015195342,-0.145286,-30.028403
11.185,2.0,1.0,1.0,33.0,33.5,33.5,4.0,2.0,2.72,0.44525364954255386,-0.03219964374170523,0.8764391344952218,0.002181910845078092,-0.148447,-29.823083
11.185,2.0,1.0,1.0,33.0,33.5,33.5,4.0,2.0,2.7225,0.4363550473825335,-0.03300238379841239,0.8804877112721938,0.0018801505065584568,-0.151738,-29.615021
11.185,2.0,1.0,1.0,33.0,33.5,33.5,4.0,2.0,2.725,0.42733079694108866,-0.0338324521350972,0.8844719831783121,0.0015589533802536713,-0.155167,-29.404119
11.185,2.0,1.0,1.0,33.0,33.5,33.5,4.0,2.0,2.7275,0.4181785003416075,-0.03469119726565301,0.8883890671808183,0.0012169871885226603,-0.158741,-29.190273
11.185,2.0,1.0,1.0,33.0,33.5,33.5,4.0,2.0,2.73,0.4088956647984899,-0.0355800566042072,0.89223591875507,0.0008528052059052947,-0.162472,-28.973373
11.185,2.0,1.0,1.0,33.0,33.5,33.5,4.0,2.0,2.7325,0.39947969583297965,-0.0365005636627016,0.8960093183341706,0.0004648341251352301,-0.166368,-28.753304
11.185,2.0,1.0,1.0,33.0,33.5,33.5,4.0,2.0,2.735,0.3899278898462238,-0.03745435591665795,0.8997058561750638,5.1360383209543304e-05,-0.170442,-28.529945
11.185,2.0,1.0,1.0,33.0,33.5,33.5,4.0,2.0,2.7375,0.3802374259840364,-0.038443183404920554,0.9033219154111476,-0.0003894852805723904,-0.174705,-28.303167
11.185,2.0,1.0,1.0,33.0,33.5,33.5,4.0,2.0,2.74,0.3704053572218987,-0.03946891813499762,0.9068536530225546,-0.000859745301348107,-0.179171,-28.072835
11.185,2.0,1.0,1.0,33.0,33.5,33.5,4.0,2.0,2.7425,0.3604286005925447,-0.04053356437155809,0.9102969784089402,-0.0013616551130282582,-0.183855,-27.838806
11.185,2.0,1.0,1.0,33.0,33.5,33.5,4.0,2.0,2.745,0.35030392647241276,-0.041639269891513356,0.9136475291942627,-0.0018976656880801772,-0.188773,-27.600927
11.185,2.0,1.0,1.0,33.0,33.5,33.5,4.0,2.0,2.7475,0.3400279468374213,-0.04278833829460062,0.9169006438267004,-0.002470469226559719,-0.193941,-27.359038
11.185,2.0,1.0,1.0,33.0,33.5,33.5,4.0,2.0,2.75,0.329597102393487,-0.0439832424630794,0.920051330457133,-0.00308302850745829,-0.199381,-27.112969
11.185,2.0,1.0,1.0,33.0,33.5,33.5,4.0,2.0,2.7525,0.31900764848348895,-0.04522663926742997,0.9230942314834326,-0.0037386105110106885,-0.205113,-26.862538
11.185,2.0,1.0,1.0,33.0,33.5,33.5,4.0,2.0,2.755,0.30825563967092723,-0.04652138561587454,0.9260235830314871,-0.0044408250362406795,-0.211162,-26.607553
11.185,2.0,1.0,1.0,33.0,33.5,33.5,4.0,2.0,2.7575,0.29733691290251996,-0.04787055594288872,0.9288331685026473,-0.005193669178348817,-0.217554,-26.347809
11.185,2.0,1.0,1.0,33.0,33.5,33.5,4.0,2.0,2.76,0.2862470691593922,-0.04927746122374456,0.9315162651452793,-0.0060015787014636324,-0.224319,-26.083087
11.185,2.0,1.0,1.0,33.0,33.5,33.5,4.0,2.0,2.7625,0.2749814535216713,-0.05074566958601353,0.9340655823978619,-0.006869487551130388,-0.231489,-25.813155
11.185,2.0,1.0,1.0,33.0,33.5,33.5,4.0,2.0,2.765,0.26353513359808134,-0.05227902856112468,0.936473190493186,-0.0078028970070595,-0.239102,-25.537764
11.185,2.0,1.0,1.0,33.0,33.5,33.5,4.0,2.0,2.7675,0.2519028763154774,-0.05388168897441795,0.9387304374957799,-0.008807956291903167,-0.247199,-25.256648
11.185,2.0,1.0,1.0,33.0,33.5,33.5,4.0,2.0,2.77,0.24007912313054186,-0.05555813040331928,0.9408278525524817,-0.009891556841245604,-0.255827,-24.969521
11.185,2.0,1.0,1.0,33.0,33.5,33.5,4.0,2.0,2.7725,0.22805796382736085,-0.057313188029957364,0.9427550326497819,-0.011061442922766476,-0.265039,-24.676078
11.185,2.0,1.0,1.0,33.0,33.5,33.5,4.0,2.0,2.775,0.21583310921491558,-0.05915208056209325,0.9445005095662999,-0.012326341893255375,-0.274893,-24.375992
11.185,2.0,1.0,1.0,33.0,33.5,33.5,4.0,2.0,2.7775,0.2033978632584892,-0.06108043867377719,0.9460515929527639,-0.013696118132344321,-0.285459,-24.068908
11.185,2.0,1.0,1.0,33.0,33.5,33.5,4.0,2.0,2.78,0.19074509549832974,-0.06310433309492003,0.947394184524113,-0.015181955632052994,-0.296813,-23.754448
11.185,2.0,1.0,1.0,33.0,33.5,33.5,4.0,2.0,2.7825,0.177867215070315,-0.0652303010143187,0.9485125571561195,-0.016796575403692005,-0.309044,-23.4322
11.185,2.0,1.0,1.0,33.0,33.5,33.5,4.0,2.0,2.785,0.16475614830804944,-0.0674653687922738,0.9493890911741871,-0.01855449535567606,-0.322255,-23.101723
11.185,2.0,1.0,1.0,33.0,33.5,33.5,4.0,2.0,2.7875,0.15140332286286728,-0.06981706801801542,0.9500039582169892,-0.020472342184037557,-0.336562,-22.762538
11.185,2.0,1.0,1.0,33.0,33.5,33.5,4.0,2.0,2.79,0.13779966265640087,-0.0722934405648813,0.9503347406396315,-0.022569227213344263,-0.352103,-22.414127
11.185,2.0,1.0,1.0,33.0,33.5,33.5,4.0,2.0,2.7925,0.12393559996879851,-0.07490302630411659,0.9503559713455055,-0.024867201171910203,-0.369036,-22.055928
11.185,2.0,1.0,1.0,33.0,33.5,33.5,4.0,2.0,2.795,0.10980111384155047,-0.07765482425958845,0.9500385750194408,-0.02739180676267801,-0.387548,-21.68733
11.185,2.0,1.0,1.0,33.0,33.5,33.5,4.0,2.0,2.7975,0.09538580814808614,-0.080558213811374,0.9493491867469694,-0.030172752826467905,-0.407857,-21.307671
11.185,2.0,1.0,1.0,33.0,33.5,33.5,4.0,2.0,2.8,0.08067904876819953,-0.08362281647762801,0.9482493176634955,-0.03324474016464149,-0.430224,-20.916229
11.185,2.0,1.0,1.0,33.0,33.5,33.5,4.0,2.0,2.8025,0.06567018820875045,-0.08685826991085134,0.9466943292503365,-0.03664847701928378,-0.454957,-20.512219
11.185,2.0,1.0,1.0,33.0,33.5,33.5,4.0,2.0,2.805,0.05034891911952427,-0.09027387266639766,0.9446321678174014,-0.040431932156023656,-0.482425,-20.094785
11.185,2.0,1.0,1.0,33.0,33.5,33.5,4.0,2.0,2.8075,0.03470581754413347,-0.09387803896439381,0.9420017982432302,-0.04465188578604873,-0.513074,-19.662998
11.185,2.0,1.0,1.0,33.0,33.5,33.5,4.0,2.0,2.81,0.018733165592175065,-0.09767747391900508,0.9387312609974712,-0.04937585336690481,-0.547445,-19.215844
11.185,2.0,1.0,1.0,33.0,33.5,33.5,4.0,2.0,2.8125,0.00242618635998965,-0.101675936742796,0.934735259111325,-0.0546844743500446,-0.586198,-18.752224
11.185,2.0,1.0,1.0,33.0,33.5,33.5,4.0,2.0,2.815,-0.014215111239808065,-0.10587239490428539,0.9299121634046089,-0.060674475849853166,-0.630147,-18.270949
11.185,2.0,1.0,1.0,33.0,33.5,33.5,4.0,2.0,2.8175,-0.0311831822704667,-0.11025827492705605,0.9241403085225135,-0.06746233635885665,-0.6803,-17.770741
11.185,2.0,1.0,1.0,33.0,33.5,33.5,4.0,2.0,2.82,-0.04845884683737187,-0.11481336852552423,0.9172734475073835,-0.07518877866294496,-0.73792,-17.250237
11.185,2.0,1.0,1.0,33.0,33.5,33.5,4.0,2.0,2.8225,-0.06600517566406294,-0.11949973085538063,0.9091352565971642,-0.0840241961300286,-0.804598,-16.708005
11.185,2.0,1.0,1.0,33.0,33.5,33.5,4.0,2.0,2.825,-0.08375835772417861,-0.12425257449997328,0.899512871469027,-0.09417502582486587,-0.882359,-16.142572
11.185,2.0,1.0,1.0,33.0,33.5,33.5,4.0,2.0,2.8275,-0.10161404993558157,-0.12896666952866434,0.8881496648559425,-0.10589085201649565,-0.973797,-15.552485
