1,w,sub_t,h,l1,l2,l3,g1,g2,Freq,S11_re,S21_re,S11_img,S21_img,S11_dB,S21_dB
11.185,2.0,1.0,1.0,33.3,34.1,34.1,4.3,3.3,2.5,0.871014322805492,-0.00471261526622734,0.479335981915383,0.00341040681151949,-0.050546,-44.705746
11.185,2.0,1.0,1.0,33.3,34.1,34.1,4.3,3.3,2.5025,0.8679273955447571,-0.004805221366896116,0.48479931980509283,0.0034221136483708926,-0.050987,-44.584081
11.185,2.0,1.0,1.0,33.3,34.1,34.1,4.3,3.3,2.505,0.8647938157334188,-0.004899410827144692,0.49026293486080735,0.0034333283364237715,-0.051437,-44.462144
11.185,2.0,1.0,1.0,33.3,34.1,34.1,4.3,3.3,2.5075,0.8616131537675034,-0.004995215650696358,0.4957266411488538,0.0034440323699244744,-0.051894,-44.339924
11.185,2.0,1.0,1.0,33.3,34.1,34.1,4.3,3.3,2.51,0.8583849732219622,-0.00509266872421785,0.501190247332407,0.0034542065884606544,-0.052358,-44.217412
11.185,2.0,1.0,1.0,33.3,34.1,34.1,4.3,3.3,2.5125,0.8551088307339055,-0.0051918038486723815,0.5066535564975179,0.003463831149938277,-0.052831,-44.094596
11.185,2.0,1.0,1.0,33.3,34.1,34.1,4.3,3.3,2.515,0.8517842758836462,-0.0052926557720467445,0.5121163659734848,0.003472885502252406,-0.053311,-43.971466
11.185,2.0,1.0,1.0,33.3,34.1,34.1,4.3,3.3,2.5175,0.8484108510735063,-0.005395260223523763,0.5175784671473467,0.0034813483535781494,-0.0538,-43.848012
11.185,2.0,1.0,1.0,33.3,34.1,34.1,4.3,3.3,2.52,0.8449880914043212,-0.005499653949177177,0.5230396452723008,0.0034891976412031104,-0.054298,-43.724222
11.185,2.0,1.0,1.0,33.3,34.1,34.1,4.3,3.3,2.5225,0.8415155245495913,-0.005605874749269091,0.5284996792697955,0.0034964104988177195,-0.054804,-43.600086
11.185,2.0,1.0,1.0,33.3,34.1,34.1,4.3,3.3,2.525,0.8379926706272082,-0.005713961517236803,0.5339583415250851,0.0035029632221742274,-0.055318,-43.475592
11.185,2.0,1.0,1.0,33.3,34.1,34.1,4.3,3.3,2.5275,0.8344190420686934,-0.005823954280459989,0.5394153976759946,0.003508831233019071,-0.055842,-43.350729
11.185,2.0,1.0,1.0,33.3,34.1,34.1,4.3,3.3,2.53,0.8307941434858833,-0.005935894242905187,0.5448706063946297,0.0035139890411969876,-0.056376,-43.225486
11.185,2.0,1.0,1.0,33.3,34.1,34.1,4.3,3.3,2.5325,0.8271174715349804,-0.006049823829750966,0.5503237191617751,0.0035184102048184834,-0.056919,-43.09985
11.185,2.0,1.0,1.0,33.3,34.1,34.1,4.3,3.3,2.535,0.823388514777895,-0.006165786734103567,0.5557744800336957,0.0035220672883744097,-0.057471,-42.973809
11.185,2.0,1.0,1.0,33.3,34.1,34.1,4.3,3.3,2.5375,0.8196067535408025,-0.00628382796591944,0.5612226254010444,0.003524931818673958,-0.058034,-42.847353
11.185,2.0,1.0,1.0,33.3,34.1,34.1,4.3,3.3,2.54,0.8157716597698189,-0.006403993903259289,0.5666678837395721,0.003526974238473096,-0.058607,-42.720467
11.185,2.0,1.0,1.0,33.3,34.1,34.1,4.3,3.3,2.5425,0.8118826968837088,-0.006526332346005798,0.5721099753523189,0.0035281638576516784,-0.059191,-42.59314
11.185,2.0,1.0,1.0,33.3,34.1,34.1,4.3,3.3,2.545,0.8079393196235266,-0.006650892572186172,0.577548612102946,0.0035284688017870125,-0.059785,-42.46536
11.185,2.0,1.0,1.0,33.3,34.1,34.1,4.3,3.3,2.5475,0.8039409738990899,-0.006777725397049627,0.5829834971398465,0.003527855957961004,-0.06039,-42.337111
11.185,2.0,1.0,1.0,33.3,34.1,34.1,4.3,3.3,2.55,0.7998870966321684,-0.006906883235060593,0.5884143246106841,0.0035262909176258924,-0.061007,-42.208383
11.185,2.0,1.0,1.0,33.3,34.1,34.1,4.3,3.3,2.5525,0.7957771155962816,-0.0070384201649779645,0.5938407793669361,0.0035237379163413234,-0.061636,-42.07916
11.185,2.0,1.0,1.0,33.3,34.1,34.1,4.3,3.3,2.555,0.7916104492529671,-0.007172391998203831,0.599262536658057,0.0035201597701812327,-0.062276,-41.94943
11.185,2.0,1.0,1.0,33.3,34.1,34.1,4.3,3.3,2.5575,0.787386506584394,-0.007308856350596398,0.6046792618148172,0.003515517808594283,-0.062929,-41.819177
11.185,2.0,1.0,1.0,33.3,34.1,34.1,4.3,3.3,2.56,0.7831046869221782,-0.00744787271795537,0.6100906099213615,0.0035097718034853283,-0.063595,-41.688388
11.185,2.0,1.0,1.0,33.3,34.1,34.1,4.3,3.3,2.5625,0.7787643797722396,-0.007589502555403075,0.6154962254755032,0.003502879894267793,-0.064273,-41.557048
11.185,2.0,1.0,1.0,33.3,34.1,34.1,4.3,3.3,2.565,0.7743649646355429,-0.00773380936089969,0.6208957420367592,0.0034947985086177693,-0.064965,-41.425142
11.185,2.0,1.0,1.0,33.3,34.1,34.1,4.3,3.3,2.5675,0.7699058108245443,-0.007880858763147446,0.6262887818615729,0.0034854822786395956,-0.06567,-41.292654
11.185,2.0,1.0,1.0,33.3,34.1,34.1,4.3,3.3,2.57,0.7653862772751518,-0.008030718614157571,0.6316749555251736,0.003474883952130652,-0.06639,-41.159569
11.185,2.0,1.0,1.0,33.3,34.1,34.1,4.3,3.3,2.5725,0.7608057123539953,-0.008183459086772532,0.6370538615294686,0.003462954298607897,-0.067124,-41.025871
11.185,2.0,1.0,1.0,33.3,34.1,34.1,4.3,3.3,2.575,0.7561634536607857,-0.008339152777457594,0.6424250858963367,0.0034496420097324034,-0.067873,-40.891542
11.185,2.0,1.0,1.0,33.3,34.1,34.1,4.3,3.3,2.5775,0.7514588278255291,-0.008497874814698507,0.6477882017456509,0.0034348935937385684,-0.068637,-40.756568
11.185,2.0,1.0,1.0,33.3,34.1,34.1,4.3,3.3,2.58,0.7466911503003362,-0.008659702973366564,0.6531427688573174,0.0034186532634432254,-0.069417,-40.620929
11.185,2.0,1.0,1.0,33.3,34.1,34.1,4.3,3.3,2.5825,0.7418597251455488,-0.00882471779543934,0.658488333216584,0.0034008628173748555,-0.070213,-40.484609
11.185,2.0,1.0,1.0,33.3,34.1,34.1,4.3,3.3,2.585,0.7369638448098877,-0.008993002717493906,0.6638244265418052,0.003381461513525291,-0.071026,-40.347589
11.185,2.0,1.0,1.0,33.3,34.1,34.1,4.3,3.3,2.5875,0.7320027899042921,-0.009164644205421261,0.6691505657938217,0.0033603859351846537,-0.071856,-40.20985
11.185,2.0,1.0,1.0,33.3,34.1,34.1,4.3,3.3,2.59,0.7269758289691038,-0.009339731896843749,0.6744662526660355,0.0033375698482751284,-0.072704,-40.071375
11.185,2.0,1.0,1.0,33.3,34.1,34.1,4.3,3.3,2.5925,0.7218822182342092,-0.009518358751755034,0.6797709730542243,0.003312944049548937,-0.07357,-39.932142
11.185,2.0,1.0,1.0,33.3,34.1,34.1,4.3,3.3,2.595,0.7167212013717319,-0.009700621211941454,0.6850641965050438,0.0032864362049619955,-0.074455,-39.792133
11.185,2.0,1.0,1.0,33.3,34.1,34.1,4.3,3.3,2.5975,0.7114920092408183,-0.009886619369787644,0.6903453756421362,0.003257970677474014,-0.075359,-39.651325
11.185,2.0,1.0,1.0,33.3,34.1,34.1,4.3,3.3,2.6,0.7061938596240263,-0.010076457147116007,0.695613945568647,0.003227468343461047,-0.076283,-39.509699
11.185,2.0,1.0,1.0,33.3,34.1,34.1,4.3,3.3,2.6025,0.7008259569547949,-0.010270242484761206,0.700869323244887,0.0031948463968533678,-0.077228,-39.367232
11.185,2.0,1.0,1.0,33.3,34.1,34.1,4.3,3.3,2.605,0.6953874920353984,-0.010468087543636768,0.7061109068397918,0.003160018140032502,-0.078194,-39.223902
11.185,2.0,1.0,1.0,33.3,34.1,34.1,4.3,3.3,2.6075,0.6898776417447638,-0.010670108918112004,0.7113380750547114,0.0031228927604336583,-0.079181,-39.079686
11.185,2.0,1.0,1.0,33.3,34.1,34.1,4.3,3.3,2.61,0.6842955687354589,-0.010876427862582923,0.7165501864179674,0.003083375091702914,-0.080192,-38.934559
11.185,2.0,1.0,1.0,33.3,34.1,34.1,4.3,3.3,2.6125,0.6786404211190942,-0.011087170532194586,0.7217465785484902,0.0030413653581523774,-0.081226,-38.788498
11.185,2.0,1.0,1.0,33.3,34.1,34.1,4.3,3.3,2.615,0.6729113321393156,-0.011302468238750137,0.726926567386723,0.002996758901138532,-0.082283,-38.641478
11.185,2.0,1.0,1.0,33.3,34.1,34.1,4.3,3.3,2.6175,0.6671074198314942,-0.011522457722928479,0.7320894463908181,0.0029494458858588418,-0.083366,-38.493471
11.185,2.0,1.0,1.0,33.3,34.1,34.1,4.3,3.3,2.62,0.6612277866681205,-0.011747281444026975,0.7372344856960122,0.0028993109869178027,-0.084475,-38.344452
11.185,2.0,1.0,1.0,33.3,34.1,34.1,4.3,3.3,2.6225,0.6552715191888303,-0.011977087888548682,0.7423609312348839,0.0028462330508535086,-0.08561,-38.194393
11.185,2.0,1.0,1.0,33.3,34.1,34.1,4.3,3.3,2.625,0.649237687613886,-0.0122120318990658,0.747468003815986,0.0027900847336392,-0.086773,-38.043264
11.185,2.0,1.0,1.0,33.3,34.1,34.1,4.3,3.3,2.6275,0.64312534543981,-0.012452275024915969,0.7525548981581693,0.0027307321109767513,-0.087965,-37.891037
11.185,2.0,1.0,1.0,33.3,34.1,34.1,4.3,3.3,2.63,0.6369335290157614,-0.012697985896422403,0.7576207818776364,0.0026680342589810962,-0.089186,-37.737682
11.185,2.0,1.0,1.0,33.3,34.1,34.1,4.3,3.3,2.6325,0.6306612570990939,-0.012949340624477845,0.762664794424531,0.002601842802610027,-0.090438,-37.583166
11.185,2.0,1.0,1.0,33.3,34.1,34.1,4.3,3.3,2.635,0.6243075303883892,-0.013206523227495968,0.7676860459655609,0.0025320014289232176,-0.091722,-37.427456
11.185,2.0,1.0,1.0,33.3,34.1,34.1,4.3,3.3,2.6375,0.6178713310320916,-0.013469726087911965,0.7726836162088315,0.002458345361950686,-0.093038,-37.27052
11.185,2.0,1.0,1.0,33.3,34.1,34.1,4.3,3.3,2.64,0.61135162211067,-0.013739150440613024,0.7776565531667227,0.002380700795612606,-0.094389,-37.112323
11.185,2.0,1.0,1.0,33.3,34.1,34.1,4.3,3.3,2.6425,0.6047473470900474,-0.014015006895893802,0.7826038718522054,0.0022988842807534957,-0.095776,-36.952827
11.185,2.0,1.0,1.0,33.3,34.1,34.1,4.3,3.3,2.645,0.5980574292437945,-0.0142975159997728,0.7875245529035866,0.002212702061929812,-0.097199,-36.791996
11.185,2.0,1.0,1.0,33.3,34.1,34.1,4.3,3.3,2.6475,0.5912807710413404,-0.01458690883476717,0.7924175411321316,0.0021219493591136374,-0.098661,-36.629791
11.185,2.0,1.0,1.0,33.3,34.1,34.1,4.3,3.3,2.65,0.5844162534991546,-0.014883427664514524,0.797281743986489,0.0020264095889405286,-0.100163,-36.466171
11.185,2.0,1.0,1.0,33.3,34.1,34.1,4.3,3.3,2.6525,0.5774627354915834,-0.015187326625948617,0.8021160299271659,0.001925853519528909,-0.101706,-36.301095
11.185,2.0,1.0,1.0,33.3,34.1,34.1,4.3,3.3,2.655,0.5704190530176243,-0.015498872473091412,0.8069192267036446,0.001820038352220006,-0.103293,-36.134518
11.185,2.0,1.0,1.0,33.3,34.1,34.1,4.3,3.3,2.6575,0.5632840184195871,-0.01581834537691204,0.811690119525894,0.001708706722823855,-0.104925,-35.966397
11.185,2.0,1.0,1.0,33.3,34.1,34.1,4.3,3.3,2.66,0.5560564195491371,-0.016146039786136594,0.8164274491211494,0.0015915856140933978,-0.106603,-35.796683
11.185,2.0,1.0,1.0,33.3,34.1,34.1,4.3,3.3,2.6625,0.5487350188757589,-0.01648226535436843,0.8211299096658139,0.0014683851701719106,-0.108331,-35.625329
11.185,2.0,1.0,1.0,33.3,34.1,34.1,4.3,3.3,2.665,0.5413185525321356,-0.016827347939410205,0.8257961465811903,0.001338797402651496,-0.11011,-35.452283
11.185,2.0,1.0,1.0,33.3,34.1,34.1,4.3,3.3,2.6675,0.5338057292903847,-0.017181630681260638,0.8304247541804411,0.001202494776624578,-0.111942,-35.277492
11.185,2.0,1.0,1.0,33.3,34.1,34.1,4.3,3.3,2.67,0.5261952294624069,-0.01754547516591222,0.8350142731527102,0.0010591286636805319,-0.11383,-35.100901
11.185,2.0,1.0,1.0,33.3,34.1,34.1,4.3,3.3,2.6725,0.5184857037169076,-0.01791926268279381,0.8395631878686513,0.0009083276471729569,-0.115776,-34.922452
11.185,2.0,1.0,1.0,33.3,34.1,34.1,4.3,3.3,2.675,0.5106757718048363,-0.01830339558450157,0.8440699234896931,0.0007496956632263639,-0.117784,-34.742087
11.185,2.0,1.0,1.0,33.3,34.1,34.1,4.3,3.3,2.6775,0.5027640211840959,-0.01869829875834869,0.8485328428611897,0.0005828099588287971,-0.119855,-34.559741
11.185,2.0,1.0,1.0,33.3,34.1,34.1,4.3,3.3,2.68,0.49474900553336965,-0.019104421220249603,0.8529502431671077,0.0004072188459275526,-0.121994,-34.37535
11.185,2.0,1.0,1.0,33.3,34.1,34.1,4.3,3.3,2.6825,0.4866292431438157,-0.019522237842547363,0.8573203523210258,0.0002224392276576847,-0.124203,-34.188844
11.185,2.0,1.0,1.0,33.3,34.1,34.1,4.3,3.3,2.685,0.4784032151761258,-0.019952251228608664,0.8616413250649495,2.7953869629167388e-05,-0.126487,-34.000153
11.185,2.0,1.0,1.0,33.3,34.1,34.1,4.3,3.3,2.6875,0.47006936376907504,-0.020394993748360613,0.8659112387436495,-0.00017679161449093704,-0.128848,-33.809202
11.185,2.0,1.0,1.0,33.3,34.1,34.1,4.3,3.3,2.69,0.4616260899841621,-0.020851029750441685,0.8701280887178652,-0.0003923920981226322,-0.131291,-33.615912
11.185,2.0,1.0,1.0,33.3,34.1,34.1,4.3,3.3,2.6925,0.4530717515692026,-0.021320957968305423,0.8742897833746898,-0.0006194866375893174,-0.13382,-33.420201
11.185,2.0,1.0,1.0,33.3,34.1,34.1,4.3,3.3,2.695,0.4444046605218852,-0.02180541413945955,0.8783941386875891,-0.0008587625742574405,-0.136441,-33.221982
11.185,2.0,1.0,1.0,33.3,34.1,34.1,4.3,3.3,2.6975,0.4356230804321299,-0.022305073859074195,0.8824388722717568,-0.001110960095280067,-0.139157,-33.021166
11.185,2.0,1.0,1.0,33.3,34.1,34.1,4.3,3.3,2.7,0.42672522357979864,-0.02282065569145641,0.8864215968725925,-0.0013768773129386768,-0.141975,-32.817657
11.185,2.0,1.0,1.0,33.3,34.1,34.1,4.3,3.3,2.7025,0.4177092477616697,-0.0233529245653972,0.8903398132159306,-0.0016573759315818915,-0.1449,-32.611355
11.185,2.0,1.0,1.0,33.3,34.1,34.1,4.3,3.3,2.705,0.4085732528187432,-0.023902695482160338,0.8941909021378569,-0.0019533875816888915,-0.147939,-32.402154
11.185,2.0,1.0,1.0,33.3,34.1,34.1,4.3,3.3,2.7075,0.39931527683175455,-0.024470837567922878,0.8979721158993877,-0.0022659209129331057,-0.151098,-32.189945
11.185,2.0,1.0,1.0,33.3,34.1,34.1,4.3,3.3,2.71,0.3899332919493137,-0.025058278505808478,0.9016805685764593,-0.002596069552635175,-0.154386,-31.97461
11.185,2.0,1.0,1.0,33.3,34.1,34.1,4.3,3.3,2.7125,0.380425199809258,-0.025666009386287332,0.9053132253982453,-0.0029450210531022816,-0.157809,-31.756026
11.185,2.0,1.0,1.0,33.3,34.1,34.1,4.3,3.3,2.715,0.3707888265096874,-0.026295090018649395,0.9088668908862183,-0.0033140669715669346,-0.161377,-31.534063
11.185,2.0,1.0,1.0,33.3,34.1,34.1,4.3,3.3,2.7175,0.36102191708167414,-0.026946654750484706,0.9123381956219547,-0.0037046142503981347,-0.1651,-31.308585
11.185,2.0,1.0,1.0,33.3,34.1,34.1,4.3,3.3,2.72,0.35112212941088716,-0.027621918846587816,0.9157235814426947,-0.004118198093732441,-0.168988,-31.079444
11.185,2.0,1.0,1.0,33.3,34.1,34.1,4.3,3.3,2.7225,0.34108702755033976,-0.028322185483393353,0.9190192848291061,-0.004556496570616439,-0.173052,-30.846488
11.185,2.0,1.0,1.0,33.3,34.1,34.1,4.3,3.3,2.725,0.3309140743613485,-0.02904885341983361,0.9222213182083931,-0.005021347215333004,-0.177304,-30.609553
11.185,2.0,1.0,1.0,33.3,34.1,34.1,4.3,3.3,2.7275,0.3206006234145662,-0.029803425410242463,0.9253254488463837,-0.005514765944260864,-0.18176,-30.368467
11.185,2.0,1.0,1.0,33.3,34.1,34.1,4.3,3.3,2.73,0.3101439100780968,-0.030587517429351254,0.9283271749426107,-0.006038968667181415,-0.186433,-30.123045
11.185,2.0,1.0,1.0,33.3,34.1,34.1,4.3,3.3,2.7325,0.2995410417152927,-0.031402868783181645,0.931221698470541,-0.006596396041654944,-0.19134,-29.873093
11.185,2.0,1.0,1.0,33.3,34.1,34.1,4.3,3.3,2.735,0.2887889869116697,-0.032251353182189565,0.9340038942179585,-0.007189741904737216,-0.196501,-29.618401
11.185,2.0,1.0,1.0,33.3,34.1,34.1,4.3,3.3,2.7375,0.2778845636489942,-0.03313499085358473,0.9366682743766936,-0.007821986020430837,-0.201935,-29.358749
11.185,2.0,1.0,1.0,33.3,34.1,34.1,4.3,3.3,2.74,0.2668244263462784,-0.03405596176720888,0.9392089479017128,-0.008496431908295922,-0.207664,-29.0939
11.185,2.0,1.0,1.0,33.3,34.1,34.1,4.3,3.3,2.7425,0.25560505169362296,-0.03501662004211128,0.9416195737015042,-0.009216750674209384,-0.213716,-28.823602
11.185,2.0,1.0,1.0,33.3,34.1,34.1,4.3,3.3,2.745,0.2442227232179726,-0.03601950958669907,0.9438933065273144,-0.009987031955484739,-0.220116,-28.547582
11.185,2.0,1.0,1.0,33.3,34.1,34.1,4.3,3.3,2.7475,0.23267351454305463,-0.037067381000804735,0.946022734188989,-0.010811843328551111,-0.226899,-28.265554
11.185,2.0,1.0,1.0,33.3,34.1,34.1,4.3,3.3,2.75,0.220953271343796,-0.0381632097285206,0.947999804428043,-0.011696299819777,-0.234098,-27.977204
11.185,2.0,1.0,1.0,33.3,34.1,34.1,4.3,3.3,2.7525,0.20905759205498015,-0.0393102153895416,0.9498157394089471,-0.01264614552377372,-0.241754,-27.682201
11.185,2.0,1.0,1.0,33.3,34.1,34.1,4.3,3.3,2.755,0.19698180748438227,-0.040511882124494865,0.9514609353278594,-0.013667849787925682,-0.249913,-27.380184
11.185,2.0,1.0,1.0,33.3,34.1,34.1,4.3,3.3,2.7575,0.184720959615764,-0.04177197965265281,0.9529248440587333,-0.014768720991961195,-0.258626,-27.070767
11.185,2.0,1.0,1.0,33.3,34.1,34.1,4.3,3.3,2.76,0.17226978008677765,-0.04309458453885242,0.9541958330268616,-0.015957041669561193,-0.267952,-26.753533
11.185,2.0,1.0,1.0,33.3,34.1,34.1,4.3,3.3,2.7625,0.1596226691193472,-0.04448410087199057,0.9552610185764172,-0.017242229627658038,-0.277958,-26.42803
11.185,2.0,1.0,1.0,33.3,34.1,34.1,4.3,3.3,2.765,0.14677367610713649,-0.04594527912891431,0.9561060669250669,-0.018635030873537343,-0.28872,-26.093769
11.185,2.0,1.0,1.0,33.3,34.1,34.1,4.3,3.3,2.7675,0.1337164836865553,-0.04748323137480267,0.9567149553014134,-0.02014775163268167,-0.300329,-25.750222
11.185,2.0,1.0,1.0,33.3,34.1,34.1,4.3,3.3,2.77,0.12044439802321516,-0.049103440046125955,0.9570696839428701,-0.021794538626681906,-0.312886,-25.396811
11.185,2.0,1.0,1.0,33.3,34.1,34.1,4.3,3.3,2.7725,0.10695034936590438,-0.05081175624496727,0.9571499271652076,-0.02359171920545741,-0.326513,-25.032912
11.185,2.0,1.0,1.0,33.3,34.1,34.1,4.3,3.3,2.775,0.09322690884960061,-0.052614381550862316,0.9569326085333708,-0.025558216055253113,-0.341348,-24.65784
11.185,2.0,1.0,1.0,33.3,34.1,34.1,4.3,3.3,2.7775,0.07926633035918682,-0.0545178245396933,0.9563913810479978,-0.027716055247142886,-0.357556,-24.270851
11.185,2.0,1.0,1.0,33.3,34.1,34.1,4.3,3.3,2.78,0.06506063043538415,-0.05652881905381941,0.9554959879306993,-0.03009099162665297,-0.375334,-23.871129
11.185,2.0,1.0,1.0,33.3,34.1,34.1,4.3,3.3,2.7825,0.05060172538064693,-0.05865418513382989,0.9542114726824077,-0.032713282326250086,-0.394911,-23.45778
11.185,2.0,1.0,1.0,33.3,34.1,34.1,4.3,3.3,2.785,0.03588165392515275,-0.060900604391353454,0.9524971981536108,-0.03561864794683921,-0.416567,-23.029825
11.185,2.0,1.0,1.0,33.3,34.1,34.1,4.3,3.3,2.7875,0.020892927614370043,-0.06327426791989241,0.9503056228683641,-0.038849472220980334,-0.440635,-22.586187
11.185,2.0,1.0,1.0,33.3,34.1,34.1,4.3,3.3,2.79,0.005629071922351441,-0.06578033419372664,0.9475807682050957,-0.042456305299065605,-0.467522,-22.125686
11.185,2.0,1.0,1.0,33.3,34.1,34.1,4.3,3.3,2.7925,-0.009914547199476915,-0.06842210302113019,0.9442562917516326,-0.04649975366773619,-0.497723,-21.64702
11.185,2.0,1.0,1.0,33.3,34.1,34.1,4.3,3.3,2.795,-0.025739468045741766,-0.07119976356403442,0.9402530600956297,-0.05105286120779454,-0.531852,-21.148763
11.185,2.0,1.0,1.0,33.3,34.1,34.1,4.3,3.3,2.7975,-0.041842230892075886,-0.07410850033768028,0.9354760894386199,-0.056204110035741286,-0.570666,-20.629351
11.185,2.0,1.0,1.0,33.3,34.1,34.1,4.3,3.3,2.8,-0.05821149406782323,-0.07713562612616998,0.9298106982860745,-0.062061192964651214,-0.61512,-20.087076
11.185,2.0,1.0,1.0,33.3,34.1,34.1,4.3,3.3,2.8025,-0.07482365205211233,-0.0802562314867988,0.9231177024658415,-0.06875572227305393,-0.666419,-19.520086
11.185,2.0,1.0,1.0,33.3,34.1,34.1,4.3,3.3,2.805,-0.09163615525587013,-0.08342656044066231,0.9152275009181099,-0.07644902004256465,-0.726098,-18.926393
11.185,2.0,1.0,1.0,33.3,34.1,34.1,4.3,3.3,2.8075,-0.10857728814724447,-0.08657388549880649,0.9059329999381002,-0.08533903514911143,-0.796139,-18.303906
11.185,2.0,1.0,1.0,33.3,34.1,34.1,4.3,3.3,2.81,-0.12553047874451206,-0.08958098238356794,0.8949816085203561,-0.09566814743800083,-0.879109,-17.65049
11.185,2.0,1.0,1.0,33.3,34.1,34.1,4.3,3.3,2.8125,-0.14231018441101,-0.0922622944152778,0.882067227127846,-0.107730934272162,-0.978367,-16.96409
11.185,2.0,1.0,1.0,33.3,34.1,34.1,4.3,3.3,2.815,-0.15862493778424153,-0.0943274434714659,0.8668246936752132,-0.12187944735496245,-1.098323,-16.242949
11.185,2.0,1.0,1.0,33.3,34.1,34.1,4.3,3.3,2.8175,-0.17402131722399575,-0.09532596659520165,0.8488324254950644,-0.13852030979810287,-1.244758,-15.485987
11.185,2.0,1.0,1.0,33.3,34.1,34.1,4.3,3.3,2.82,-0.1878011265949708,-0.09456573065538507,0.8276356384495556,-0.1580913879517238,-1.425167,-14.693449
11.185,2.0,1.0,1.0,33.3,34.1,34.1,4.3,3.3,2.8225,-0.19890550360181486,-0.09099895071632717,0.8028151852628087,-0.18099331922067555,-1.648959,-13.867991
11.185,2.0,1.0,1.0,33.3,34.1,34.1,4.3,3.3,2.825,-0.2057714305325561,-0.08308142086699614,0.7741486568248676,-0.20742994022514027,-1.927031,-13.01641
11.185,2.0,1.0,1.0,33.3,34.1,34.1,4.3,3.3,2.8275,-0.2062058219213863,-0.06864981272562913,0.7419388369902784,-0.23708379928128046,-2.269496,-12.152292
