1,w,sub_t,h,l1,l2,l3,g1,g2,Freq,S11_re,S21_re,S11_img,S21_img,S11_dB,S21_dB
11.185,2.0,1.0,1.0,33.9,33.9,33.9,4.4,3.3,2.5,0.800915484230285,-0.00635438930855598,0.5877285677948,0.00322872999003143,-0.05731,-42.94111
11.185,2.0,1.0,1.0,33.9,33.9,33.9,4.4,3.3,2.5025,0.7966949868303557,-0.00646617448112659,0.5933346991815376,0.003219769738050213,-0.057845,-42.825098
11.185,2.0,1.0,1.0,33.9,33.9,33.9,4.4,3.3,2.505,0.792415712461039,-0.006579654188183651,0.5989347334840093,0.003209727863323272,-0.058389,-42.708822
11.185,2.0,1.0,1.0,33.9,33.9,33.9,4.4,3.3,2.5075,0.7880771002985213,-0.006694856120836878,0.6045282876529452,0.0031985701340030838,-0.058941,-42.592273
11.185,2.0,1.0,1.0,33.9,33.9,33.9,4.4,3.3,2.51,0.7836785821611784,-0.006811808517365134,0.6101149678688227,0.003186261224210537,-0.059503,-42.475444
11.185,2.0,1.0,1.0,33.9,33.9,33.9,4.4,3.3,2.5125,0.7792195824487081,-0.006930540175752191,0.6156943692258097,0.003172764674420477,-0.060074,-42.358327
11.185,2.0,1.0,1.0,33.9,33.9,33.9,4.4,3.3,2.515,0.7746995180829357,-0.007051080466556717,0.6212660754064914,0.0031580428502042232,-0.060654,-42.240914
11.185,2.0,1.0,1.0,33.9,33.9,33.9,4.4,3.3,2.5175,0.770117798450455,-0.007173459346127143,0.6268296583470901,0.0031420568992503108,-0.061245,-42.123197
11.185,2.0,1.0,1.0,33.9,33.9,33.9,4.4,3.3,2.52,0.7654738253472502,-0.007297707370173229,0.6323846778929099,0.0031247667065800295,-0.061845,-42.005168
11.185,2.0,1.0,1.0,33.9,33.9,33.9,4.4,3.3,2.5225,0.7607669929254783,-0.007423855707706061,0.6379306814436893,0.0031061308478700627,-0.062456,-41.886819
11.185,2.0,1.0,1.0,33.9,33.9,33.9,4.4,3.3,2.525,0.7559966876425754,-0.007551936155359285,0.6434672035885826,0.0030861065407889157,-0.063077,-41.768141
11.185,2.0,1.0,1.0,33.9,33.9,33.9,4.4,3.3,2.5275,0.7511622882128726,-0.00768198115210452,0.6489937657304461,0.0030646495942491287,-0.063708,-41.649127
11.185,2.0,1.0,1.0,33.9,33.9,33.9,4.4,3.3,2.53,0.7462631655619191,-0.007814023794374665,0.6545098756991031,0.0030417143554712553,-0.064351,-41.529768
11.185,2.0,1.0,1.0,33.9,33.9,33.9,4.4,3.3,2.5325,0.7412986827837106,-0.007948097851609465,0.6600150273532632,0.003017253654749507,-0.065005,-41.410054
11.185,2.0,1.0,1.0,33.9,33.9,33.9,4.4,3.3,2.535,0.7362681951010365,-0.008084237782238253,0.6655087001707526,0.0029912187478028218,-0.06567,-41.289978
11.185,2.0,1.0,1.0,33.9,33.9,33.9,4.4,3.3,2.5375,0.7311710498291718,-0.008222478750115362,0.6709903588266897,0.0029635592555877647,-0.066347,-41.16953
11.185,2.0,1.0,1.0,33.9,33.9,33.9,4.4,3.3,2.54,0.7260065863431467,-0.008362856641424813,0.6764594527592566,0.0029342231014428018,-0.067036,-41.048702
11.185,2.0,1.0,1.0,33.9,33.9,33.9,4.4,3.3,2.5425,0.7207741360488391,-0.008505408082071148,0.6819154157226778,0.002903156445425173,-0.067737,-40.927484
11.185,2.0,1.0,1.0,33.9,33.9,33.9,4.4,3.3,2.545,0.7154730223581481,-0.008650170455574546,0.6873576653270217,0.0028703036156933893,-0.068451,-40.805867
11.185,2.0,1.0,1.0,33.9,33.9,33.9,4.4,3.3,2.5475,0.7101025606685272,-0.008797181921488609,0.6927856025644152,0.0028356070367795234,-0.069177,-40.683841
11.185,2.0,1.0,1.0,33.9,33.9,33.9,4.4,3.3,2.55,0.7046620583471447,-0.008946481434360986,0.6981986113212699,0.0027990071545852683,-0.069917,-40.561397
11.185,2.0,1.0,1.0,33.9,33.9,33.9,4.4,3.3,2.5525,0.6991508147199921,-0.009098108763256698,0.7035960578760669,0.002760442357926172,-0.07067,-40.438526
11.185,2.0,1.0,1.0,33.9,33.9,33.9,4.4,3.3,2.555,0.6935681210662317,-0.00925210451186637,0.7089772903822777,0.0027198488964365448,-0.071437,-40.315216
11.185,2.0,1.0,1.0,33.9,33.9,33.9,4.4,3.3,2.5575,0.6879132606181209,-0.009408510139221496,0.7143416383359528,0.0026771607946363806,-0.072218,-40.191459
11.185,2.0,1.0,1.0,33.9,33.9,33.9,4.4,3.3,2.56,0.6821855085668558,-0.009567367981040568,0.7196884120274948,0.002632309761948258,-0.073014,-40.067244
11.185,2.0,1.0,1.0,33.9,33.9,33.9,4.4,3.3,2.5625,0.6763841320746901,-0.00972872127173064,0.7250169019771342,0.0025852250984388504,-0.073824,-39.942559
11.185,2.0,1.0,1.0,33.9,33.9,33.9,4.4,3.3,2.565,0.6705083902937032,-0.009892614167070797,0.7303263783535971,0.0025358335960449525,-0.07465,-39.817396
11.185,2.0,1.0,1.0,33.9,33.9,33.9,4.4,3.3,2.5675,0.6645575343916176,-0.010059091767603907,0.7356160903754231,0.0024840594350276544,-0.075491,-39.691742
11.185,2.0,1.0,1.0,33.9,33.9,33.9,4.4,3.3,2.57,0.6585308075850697,-0.01022820014276595,0.7408852656944032,0.0024298240753818584,-0.076348,-39.565586
11.185,2.0,1.0,1.0,33.9,33.9,33.9,4.4,3.3,2.5725,0.6524274451807659,-0.010399986355782462,0.7461331097605592,0.0023730461429091847,-0.077222,-39.438918
11.185,2.0,1.0,1.0,33.9,33.9,33.9,4.4,3.3,2.575,0.6462466746249738,-0.0105744984893634,0.7513588051680781,0.002313641309643627,-0.078112,-39.311726
11.185,2.0,1.0,1.0,33.9,33.9,33.9,4.4,3.3,2.5775,0.6399877155618188,-0.010751785672229213,0.7565615109815871,0.0022515221682964798,-0.07902,-39.183998
11.185,2.0,1.0,1.0,33.9,33.9,33.9,4.4,3.3,2.58,0.6336497799008811,-0.010931898106502474,0.7617403620421354,0.0021865981003656846,-0.079945,-39.055722
11.185,2.0,1.0,1.0,33.9,33.9,33.9,4.4,3.3,2.5825,0.6272320718945978,-0.011114887096001141,0.7668944682522201,0.002118775137528399,-0.080888,-38.926885
11.185,2.0,1.0,1.0,33.9,33.9,33.9,4.4,3.3,2.585,0.6207337882260148,-0.011300805075470818,0.7720229138391682,0.0020479558159097366,-0.08185,-38.797476
11.185,2.0,1.0,1.0,33.9,33.9,33.9,4.4,3.3,2.5875,0.6141541181074412,-0.011489705640795494,0.777124756596159,0.001974039022791062,-0.082831,-38.667481
11.185,2.0,1.0,1.0,33.9,33.9,33.9,4.4,3.3,2.59,0.6074922433905988,-0.011681643580227823,0.782199027100137,0.0018969198352901321,-0.083832,-38.536887
11.185,2.0,1.0,1.0,33.9,33.9,33.9,4.4,3.3,2.5925,0.6007473386888658,-0.011876674906681905,0.7872447279058398,0.0018164893505107364,-0.084852,-38.40568
11.185,2.0,1.0,1.0,33.9,33.9,33.9,4.4,3.3,2.595,0.5939185715122688,-0.012074856891132857,0.7922608327151169,0.0017326345066235908,-0.085894,-38.273848
11.185,2.0,1.0,1.0,33.9,33.9,33.9,4.4,3.3,2.5975,0.5870051024158673,-0.01227624809717076,0.7972462855207034,0.0016452378942992665,-0.086957,-38.141376
11.185,2.0,1.0,1.0,33.9,33.9,33.9,4.4,3.3,2.6,0.580006085162234,-0.012480908416756507,0.8021999997235473,0.0015541775578710624,-0.088041,-38.00825
11.185,2.0,1.0,1.0,33.9,33.9,33.9,4.4,3.3,2.6025,0.5729206668987583,-0.012688899107230488,0.8071208572227527,0.0014593267855587148,-0.089148,-37.874454
11.185,2.0,1.0,1.0,33.9,33.9,33.9,4.4,3.3,2.605,0.5657479883505151,-0.01290028282962639,0.8120077074771747,0.0013605538880320678,-0.090278,-37.739974
11.185,2.0,1.0,1.0,33.9,33.9,33.9,4.4,3.3,2.6075,0.5584871840294895,-0.013115123688344133,0.8168593665376223,0.001257721964538798,-0.091432,-37.604795
11.185,2.0,1.0,1.0,33.9,33.9,33.9,4.4,3.3,2.61,0.5511373824609795,-0.013333487272237791,0.8216746160485913,0.0011506886557592327,-0.09261,-37.468899
11.185,2.0,1.0,1.0,33.9,33.9,33.9,4.4,3.3,2.6125,0.5436977064280243,-0.013555440697176223,0.8264522022183913,0.001039305882485209,-0.093813,-37.332272
11.185,2.0,1.0,1.0,33.9,33.9,33.9,4.4,3.3,2.615,0.5361672732347426,-0.013781052650135517,0.831190834756462,0.0009234195691482976,-0.095042,-37.194897
11.185,2.0,1.0,1.0,33.9,33.9,33.9,4.4,3.3,2.6175,0.5285451949895172,-0.01401039343488346,0.8358891857766017,0.0008028693511436674,-0.096297,-37.056755
11.185,2.0,1.0,1.0,33.9,33.9,33.9,4.4,3.3,2.62,0.5208305789089819,-0.014243535019317655,0.8405458886647733,0.0006774882648104942,-0.09758,-36.91783
11.185,2.0,1.0,1.0,33.9,33.9,33.9,4.4,3.3,2.6225,0.5130225276438108,-0.014480551084519845,0.8451595369100581,0.0005471024188355066,-0.098891,-36.778103
11.185,2.0,1.0,1.0,33.9,33.9,33.9,4.4,3.3,2.625,0.505120139627369,-0.0147215170755883,0.849728682897236,0.000411530645744603,-0.100231,-36.637556
11.185,2.0,1.0,1.0,33.9,33.9,33.9,4.4,3.3,2.6275,0.4971225094482943,-0.014966510254311746,0.8542518366593994,0.00027058413203367174,-0.101601,-36.49617
11.185,2.0,1.0,1.0,33.9,33.9,33.9,4.4,3.3,2.63,0.48902872824815674,-0.01521560975374551,0.8587274645888705,0.00012406602536824729,-0.103002,-36.353924
11.185,2.0,1.0,1.0,33.9,33.9,33.9,4.4,3.3,2.6325,0.48083788414536766,-0.015468896634750977,0.8631539881045993,-2.8228982854433838e-05,-0.104435,-36.210799
11.185,2.0,1.0,1.0,33.9,33.9,33.9,4.4,3.3,2.635,0.4725490626865701,-0.015726453944555307,0.867529782274083,-0.00018651510143532203,-0.1059,-36.066773
11.185,2.0,1.0,1.0,33.9,33.9,33.9,4.4,3.3,2.6375,0.4641613473267955,-0.015988366777385656,0.8718531743877014,-0.00035101591181217057,-0.107399,-35.921825
11.185,2.0,1.0,1.0,33.9,33.9,33.9,4.4,3.3,2.64,0.4556738199397022,-0.01625472233722745,0.8761224424832345,-0.0005219648712036505,-0.108933,-35.775933
11.185,2.0,1.0,1.0,33.9,33.9,33.9,4.4,3.3,2.6425,0.44708556135930616,-0.016525610002748707,0.88033581381812,-0.0006996058488521062,-0.110503,-35.629073
11.185,2.0,1.0,1.0,33.9,33.9,33.9,4.4,3.3,2.645,0.4383956519546363,-0.01680112139442444,0.8844914632868506,-0.0008841936979754907,-0.112111,-35.481223
11.185,2.0,1.0,1.0,33.9,33.9,33.9,4.4,3.3,2.6475,0.4296031722388364,-0.017081350443884306,0.8885875117806914,-0.0010759948662792866,-0.113757,-35.332357
11.185,2.0,1.0,1.0,33.9,33.9,33.9,4.4,3.3,2.65,0.4207072035142702,-0.01736639346549296,0.8926220244866694,-0.001275288048143136,-0.115442,-35.18245
11.185,2.0,1.0,1.0,33.9,33.9,33.9,4.4,3.3,2.6525,0.4117068285553112,-0.017656349230154373,0.8965930091225184,-0.0014823648818896448,-0.117169,-35.031477
11.185,2.0,1.0,1.0,33.9,33.9,33.9,4.4,3.3,2.655,0.402601132330499,-0.01795131904131258,0.9004984141040018,-0.001697530695866579,-0.118938,-34.87941
11.185,2.0,1.0,1.0,33.9,33.9,33.9,4.4,3.3,2.6575,0.39338920276588896,-0.01825140681309287,0.9043361266406924,-0.0019211053074320256,-0.120752,-34.726221
11.185,2.0,1.0,1.0,33.9,33.9,33.9,4.4,3.3,2.66,0.38407013155147235,-0.018556719150498207,0.9081039707559547,-0.002153423879329294,-0.122611,-34.571882
11.185,2.0,1.0,1.0,33.9,33.9,33.9,4.4,3.3,2.6625,0.3746430149926569,-0.018867365431535627,0.9117997052264634,-0.0023948378383795246,-0.124517,-34.416362
11.185,2.0,1.0,1.0,33.9,33.9,33.9,4.4,3.3,2.665,0.36510695490886985,-0.0191834578911033,0.9154210214361677,-0.002645715861910831,-0.126472,-34.259631
11.185,2.0,1.0,1.0,33.9,33.9,33.9,4.4,3.3,2.6675,0.355461059581504,-0.019505111706410668,0.9189655411391012,-0.0029064449378868027,-0.128478,-34.101656
11.185,2.0,1.0,1.0,33.9,33.9,33.9,4.4,3.3,2.67,0.34570444475349854,-0.019832445083640744,0.9224308141248948,-0.003177431505305719,-0.130536,-33.942405
11.185,2.0,1.0,1.0,33.9,33.9,33.9,4.4,3.3,2.6725,0.3358362346830097,-0.02016557934548041,0.9258143157802289,-0.003459102682119042,-0.132649,-33.781842
11.185,2.0,1.0,1.0,33.9,33.9,33.9,4.4,3.3,2.675,0.325855563253778,-0.020504639019051085,0.9291134445387556,-0.003751907588673111,-0.134819,-33.619932
11.185,2.0,1.0,1.0,33.9,33.9,33.9,4.4,3.3,2.6775,0.3157615751449504,-0.020849751923656536,0.9323255192112561,-0.004056318775523977,-0.137048,-33.456638
11.185,2.0,1.0,1.0,33.9,33.9,33.9,4.4,3.3,2.68,0.30555342706331373,-0.021201049257628418,0.9354477761868996,-0.004372833765421286,-0.139338,-33.29192
11.185,2.0,1.0,1.0,33.9,33.9,33.9,4.4,3.3,2.6825,0.29523028904111576,-0.02155866568338698,0.938477366495486,-0.004701976720316983,-0.141692,-33.125739
11.185,2.0,1.0,1.0,33.9,33.9,33.9,4.4,3.3,2.685,0.2847913458028784,-0.021922739409640013,0.9414113527194414,-0.005044300245444231,-0.144112,-32.958053
11.185,2.0,1.0,1.0,33.9,33.9,33.9,4.4,3.3,2.6875,0.2742357982048949,-0.02229341226941205,0.9442467057430556,-0.0054003873438498076,-0.146602,-32.788818
11.185,2.0,1.0,1.0,33.9,33.9,33.9,4.4,3.3,2.69,0.2635628647514399,-0.02267082979231866,0.9469803013250296,-0.005770853536264905,-0.149163,-32.617989
11.185,2.0,1.0,1.0,33.9,33.9,33.9,4.4,3.3,2.6925,0.2527717831920423,-0.023055141269173345,0.9496089164787868,-0.006156349162897058,-0.1518,-32.445519
11.185,2.0,1.0,1.0,33.9,33.9,33.9,4.4,3.3,2.695,0.24186181220468017,-0.023446499806621078,0.9521292256431466,-0.006557561885634884,-0.154514,-32.271358
11.185,2.0,1.0,1.0,33.9,33.9,33.9,4.4,3.3,2.6975,0.23083223317016688,-0.023845062369026872,0.9545377966238976,-0.006975219411320572,-0.157311,-32.095455
11.185,2.0,1.0,1.0,33.9,33.9,33.9,4.4,3.3,2.7,0.21968235204367387,-0.024250989804288775,0.9568310862844182,-0.007410092459188516,-0.160194,-31.917755
11.185,2.0,1.0,1.0,33.9,33.9,33.9,4.4,3.3,2.7025,0.20841150132995628,-0.024664446849581842,0.9590054359608088,-0.007862997998340511,-0.163165,-31.738204
11.185,2.0,1.0,1.0,33.9,33.9,33.9,4.4,3.3,2.705,0.19701904216971472,-0.02508560211224263,0.9610570665739196,-0.008334802784273374,-0.166231,-31.556742
11.185,2.0,1.0,1.0,33.9,33.9,33.9,4.4,3.3,2.7075,0.18550436654545457,-0.025514628020057703,0.9629820734071483,-0.008826427227051757,-0.169395,-31.373308
11.185,2.0,1.0,1.0,33.9,33.9,33.9,4.4,3.3,2.71,0.17386689961637936,-0.025951700734081005,0.9647764205148781,-0.009338849627790718,-0.172661,-31.187838
11.185,2.0,1.0,1.0,33.9,33.9,33.9,4.4,3.3,2.7125,0.16210610219318808,-0.026397000015747168,0.9664359347218383,-0.00987311082476039,-0.176036,-31.000264
11.185,2.0,1.0,1.0,33.9,33.9,33.9,4.4,3.3,2.715,0.1502214733652999,-0.02685070903841532,0.9679562991683961,-0.01043031929573131,-0.179524,-30.810516
11.185,2.0,1.0,1.0,33.9,33.9,33.9,4.4,3.3,2.7175,0.13821255329495172,-0.027313014131520454,0.9693330463507698,-0.011011656769256847,-0.183131,-30.61852
11.185,2.0,1.0,1.0,33.9,33.9,33.9,4.4,3.3,2.72,0.1260789261949791,-0.0277841044431546,0.9705615505981897,-0.011618384404553737,-0.186863,-30.424199
11.185,2.0,1.0,1.0,33.9,33.9,33.9,4.4,3.3,2.7225,0.11382022350984121,-0.028264171504065565,0.971637019921054,-0.012251849607647462,-0.190728,-30.22747
11.185,2.0,1.0,1.0,33.9,33.9,33.9,4.4,3.3,2.725,0.10143612732291486,-0.028753408672639022,0.9725544871548859,-0.012913493560654821,-0.194733,-30.028248
11.185,2.0,1.0,1.0,33.9,33.9,33.9,4.4,3.3,2.7275,0.0889263740170638,-0.029252010436301913,0.9733088003142564,-0.01360485955169866,-0.198884,-29.826443
11.185,2.0,1.0,1.0,33.9,33.9,33.9,4.4,3.3,2.73,0.07629075822053658,-0.029760171539777624,0.9738946120584759,-0.014327602205212309,-0.203192,-29.62196
11.185,2.0,1.0,1.0,33.9,33.9,33.9,4.4,3.3,2.7325,0.06352913707615372,-0.030278085904562612,0.9743063681565796,-0.015083497726592504,-0.207664,-29.414698
11.185,2.0,1.0,1.0,33.9,33.9,33.9,4.4,3.3,2.735,0.0506414348791153,-0.03080594529661598,0.9745382948224777,-0.015874455291622694,-0.21231,-29.204553
11.185,2.0,1.0,1.0,33.9,33.9,33.9,4.4,3.3,2.7375,0.03762764813760039,-0.03134393769027546,0.9745843847718246,-0.016702529730227927,-0.217142,-28.991413
11.185,2.0,1.0,1.0,33.9,33.9,33.9,4.4,3.3,2.74,0.024487851121242767,-0.031892245265445825,0.9744383818295873,-0.01756993567640305,-0.222171,-28.775161
11.185,2.0,1.0,1.0,33.9,33.9,33.9,4.4,3.3,2.7425,0.011222201975862113,-0.032451041961687264,0.9740937638909317,-0.018479063382165366,-0.227408,-28.555672
11.185,2.0,1.0,1.0,33.9,33.9,33.9,4.4,3.3,2.745,-0.002169050500784977,-0.03302049049636539,0.9735437240072138,-0.019432496423789886,-0.232869,-28.332814
11.185,2.0,1.0,1.0,33.9,33.9,33.9,4.4,3.3,2.7475,-0.015685559307316962,-0.03360073873376614,0.9727811493326298,-0.020433031564229792,-0.238568,-28.106449
11.185,2.0,1.0,1.0,33.9,33.9,33.9,4.4,3.3,2.75,-0.0293268707712832,-0.0341919152670913,0.971798597624568,-0.0214837010774811,-0.244521,-27.876428
11.185,2.0,1.0,1.0,33.9,33.9,33.9,4.4,3.3,2.7525,-0.04309241499528566,-0.03479412404432507,0.9705882709405586,-0.022587797889921414,-0.250747,-27.642596
11.185,2.0,1.0,1.0,33.9,33.9,33.9,4.4,3.3,2.755,-0.056981495007652594,-0.035407437830589014,0.9691419861155814,-0.023748903951769925,-0.257264,-27.404785
11.185,2.0,1.0,1.0,33.9,33.9,33.9,4.4,3.3,2.7575,-0.07099327436090096,-0.03603189025182144,0.9674511415335103,-0.024970922320519146,-0.264096,-27.162819
11.185,2.0,1.0,1.0,33.9,33.9,33.9,4.4,3.3,2.76,-0.08512676286140006,-0.03666746610492662,0.9655066796235567,-0.026258113519574647,-0.271265,-26.916508
11.185,2.0,1.0,1.0,33.9,33.9,33.9,4.4,3.3,2.7625,-0.0993808000387529,-0.03731408954471614,0.963299044414065,-0.027615136831960964,-0.278798,-26.665654
11.185,2.0,1.0,1.0,33.9,33.9,33.9,4.4,3.3,2.765,-0.113754035868908,-0.03797160966382529,0.9608181333588361,-0.029047097303874905,-0.286724,-26.410041
11.185,2.0,1.0,1.0,33.9,33.9,33.9,4.4,3.3,2.7675,-0.12824490814570177,-0.0386397828628946,0.9580532425114191,-0.03055959936984081,-0.295077,-26.149442
11.185,2.0,1.0,1.0,33.9,33.9,33.9,4.4,3.3,2.77,-0.1428516157440797,-0.039318251257572503,0.9549930039559424,-0.03215880817474857,-0.303892,-25.883611
11.185,2.0,1.0,1.0,33.9,33.9,33.9,4.4,3.3,2.7725,-0.15757208682527057,-0.04000651617698589,0.9516253142034662,-0.03385151986359994,-0.313211,-25.612288
11.185,2.0,1.0,1.0,33.9,33.9,33.9,4.4,3.3,2.775,-0.17240394078733923,-0.04070390556296744,0.9479372520237745,-0.0356452423439256,-0.323078,-25.335192
11.185,2.0,1.0,1.0,33.9,33.9,33.9,4.4,3.3,2.7775,-0.18734444244729526,-0.04140953376423102,0.9439149838959238,-0.0375482883064551,-0.333546,-25.052023
11.185,2.0,1.0,1.0,33.9,33.9,33.9,4.4,3.3,2.78,-0.20239044653145166,-0.04212225181316173,0.9395436549170756,-0.0395698826261198,-0.344671,-24.762458
11.185,2.0,1.0,1.0,33.9,33.9,33.9,4.4,3.3,2.7825,-0.21753833001951992,-0.042840585745890544,0.9348072625968241,-0.04172028666891168,-0.356519,-24.466149
11.185,2.0,1.0,1.0,33.9,33.9,33.9,4.4,3.3,2.785,-0.2327839091957139,-0.043562659839766926,0.9296885104700917,-0.04401094251337992,-0.369165,-24.162722
11.185,2.0,1.0,1.0,33.9,33.9,33.9,4.4,3.3,2.7875,-0.2481223373530582,-0.044286100743307764,0.9241686378708421,-0.046454640673113896,-0.382694,-23.851774
11.185,2.0,1.0,1.0,33.9,33.9,33.9,4.4,3.3,2.79,-0.26354797790273876,-0.045007917290188854,0.9182272215048232,-0.049065715594298384,-0.397201,-23.532869
11.185,2.0,1.0,1.0,33.9,33.9,33.9,4.4,3.3,2.7925,-0.27905424605858037,-0.045724349222307115,0.9118419436257472,-0.051860274016284104,-0.412799,-23.205536
11.185,2.0,1.0,1.0,33.9,33.9,33.9,4.4,3.3,2.795,-0.2946334101607546,-0.04643067596177547,0.9049883206408029,-0.05485646223713969,-0.429616,-22.869264
11.185,2.0,1.0,1.0,33.9,33.9,33.9,4.4,3.3,2.7975,-0.31027634088223377,-0.0471209737802572,0.8976393848395275,-0.058074779427987895,-0.4478,-22.5235
11.185,2.0,1.0,1.0,33.9,33.9,33.9,4.4,3.3,2.8,-0.3259721927624337,-0.04778780595524266,0.8897653106600352,-0.06153844538325014,-0.467526,-22.167645
11.185,2.0,1.0,1.0,33.9,33.9,33.9,4.4,3.3,2.8025,-0.34170799736467,-0.04842182541162233,0.8813329755116668,-0.06527383244413379,-0.488995,-21.801044
11.185,2.0,1.0,1.0,33.9,33.9,33.9,4.4,3.3,2.805,-0.3574681403381199,-0.04901126241027229,0.8723054437493234,-0.06931097270251345,-0.512447,-21.422988
11.185,2.0,1.0,1.0,33.9,33.9,33.9,4.4,3.3,2.8075,-0.37323368504730453,-0.04954126033970454,0.8626413611243039,-0.07368415279847056,-0.538163,-21.032704
11.185,2.0,1.0,1.0,33.9,33.9,33.9,4.4,3.3,2.81,-0.3889814921744266,-0.0499930095681487,0.8522942462734655,-0.07843260931285642,-0.566479,-20.629349
11.185,2.0,1.0,1.0,33.9,33.9,33.9,4.4,3.3,2.8125,-0.40468306632995,-0.0503426111704542,0.84121166621034,-0.0836013372706342,-0.597797,-20.212006
11.185,2.0,1.0,1.0,33.9,33.9,33.9,4.4,3.3,2.815,-0.4203030351387153,-0.0505595771016816,0.8293342855376002,-0.08924202142785977,-0.632601,-19.779674
11.185,2.0,1.0,1.0,33.9,33.9,33.9,4.4,3.3,2.8175,-0.43579713055910974,-0.05060483814898912,0.8165947863294192,-0.09541409270909947,-0.671478,-19.331265
11.185,2.0,1.0,1.0,33.9,33.9,33.9,4.4,3.3,2.82,-0.4511094922291478,-0.05042808170943349,0.8029166710791202,-0.10218589667726415,-0.715146,-18.865598
11.185,2.0,1.0,1.0,33.9,33.9,33.9,4.4,3.3,2.8225,-0.4661690427801928,-0.049964172574721584,0.7882129913562788,-0.10963593072762819,-0.764486,-18.381394
11.185,2.0,1.0,1.0,33.9,33.9,33.9,4.4,3.3,2.825,-0.4808845878714055,-0.04912831414877497,0.7723851014159322,-0.11785405036606503,-0.820595,-17.87728
11.185,2.0,1.0,1.0,33.9,33.9,33.9,4.4,3.3,2.8275,-0.49513816002974254,-0.04780947592854986,0.7553216391655156,-0.1269424424556067,-0.884841,-17.351791
