1,w,sub_t,h,l1,l2,l3,g1,g2,Freq,S11_re,S21_re,S11_img,S21_img,S11_dB,S21_dB
11.185,2.0,1.0,1.0,33.5,33.2,33.2,4.1,2.5,2.5,0.849951990616677,-0.00590264739534684,0.515721679129382,0.00443028365674514,-0.050729,-42.638533
11.185,2.0,1.0,1.0,33.5,33.2,33.2,4.1,2.5,2.5025,0.8465217642976816,-0.0060144800864264415,0.5212390471426759,0.004442738431127565,-0.051159,-42.524958
11.185,2.0,1.0,1.0,33.5,33.2,33.2,4.1,2.5,2.505,0.8430414606105135,-0.006128091793816148,0.5267549486505626,0.0044544912365305205,-0.051597,-42.411184
11.185,2.0,1.0,1.0,33.5,33.2,33.2,4.1,2.5,2.5075,0.8395106178855004,-0.006243512701317569,0.5322691453125145,0.004465516845899157,-0.052041,-42.297204
11.185,2.0,1.0,1.0,33.5,33.2,33.2,4.1,2.5,2.51,0.8359287677021189,-0.006360773620378577,0.5377813919847171,0.004475789211915721,-0.052493,-42.183011
11.185,2.0,1.0,1.0,33.5,33.2,33.2,4.1,2.5,2.5125,0.8322954348010749,-0.006479906005061654,0.5432914365112562,0.004485281437566509,-0.052952,-42.068599
11.185,2.0,1.0,1.0,33.5,33.2,33.2,4.1,2.5,2.515,0.8286101369960555,-0.006600941967407964,0.5487990195090078,0.004493965745538919,-0.053419,-41.953961
11.185,2.0,1.0,1.0,33.5,33.2,33.2,4.1,2.5,2.5175,0.8248723850852128,-0.006723914293208337,0.5543038741460161,0.0045018134463964245,-0.053894,-41.839089
11.185,2.0,1.0,1.0,33.5,33.2,33.2,4.1,2.5,2.52,0.82108168276242,-0.006848856458193821,0.559805725913172,0.004508794905476683,-0.054376,-41.723977
11.185,2.0,1.0,1.0,33.5,33.2,33.2,4.1,2.5,2.5225,0.8172375265283769,-0.0069758026446574235,0.5653042923889574,0.004514879508455166,-0.054866,-41.608617
11.185,2.0,1.0,1.0,33.5,33.2,33.2,4.1,2.5,2.525,0.8133394056016129,-0.007104787758520756,0.5707992829970558,0.004520035625513893,-0.055364,-41.493003
11.185,2.0,1.0,1.0,33.5,33.2,33.2,4.1,2.5,2.5275,0.8093868018294601,-0.007235847446858347,0.5762903987565964,0.004524230574051545,-0.055871,-41.377126
11.185,2.0,1.0,1.0,33.5,33.2,33.2,4.1,2.5,2.53,0.8053791895990676,-0.007369018115893471,0.581777332024791,0.004527430579868095,-0.056386,-41.260981
11.185,2.0,1.0,1.0,33.5,33.2,33.2,4.1,2.5,2.5325,0.801316035748536,-0.007504336949479734,0.5872597662317282,0.004529600736753553,-0.05691,-41.144558
11.185,2.0,1.0,1.0,33.5,33.2,33.2,4.1,2.5,2.535,0.7971967994782458,-0.0076418419280830955,0.5927373756070776,0.004530704964406794,-0.057443,-41.027852
11.185,2.0,1.0,1.0,33.5,33.2,33.2,4.1,2.5,2.5375,0.7930209322624768,-0.007781571848279366,0.5982098248984349,0.004530705964606425,-0.057985,-40.910854
11.185,2.0,1.0,1.0,33.5,33.2,33.2,4.1,2.5,2.54,0.788787877761402,-0.00792356634278293,0.6036767690810483,0.00452956517555152,-0.058536,-40.793557
11.185,2.0,1.0,1.0,33.5,33.2,33.2,4.1,2.5,2.5425,0.7844970717335569,-0.008067865901022903,0.6091378530586518,0.00452724272428583,-0.059097,-40.675953
11.185,2.0,1.0,1.0,33.5,33.2,33.2,4.1,2.5,2.545,0.7801479419488867,-0.008214511890283504,0.6145927113551132,0.004523697377114294,-0.059667,-40.558034
11.185,2.0,1.0,1.0,33.5,33.2,33.2,4.1,2.5,2.5475,0.7757399081024863,-0.00836354657742585,0.6200409677965992,0.004518886487915486,-0.060248,-40.439793
11.185,2.0,1.0,1.0,33.5,33.2,33.2,4.1,2.5,2.55,0.7712723817291421,-0.008515013151209096,0.6254822351839704,0.0045127659442489735,-0.060838,-40.321222
11.185,2.0,1.0,1.0,33.5,33.2,33.2,4.1,2.5,2.5525,0.7667447661188085,-0.008668955745229499,0.6309161149550554,0.0045052901111504225,-0.061439,-40.202312
11.185,2.0,1.0,1.0,33.5,33.2,33.2,4.1,2.5,2.555,0.7621564562331437,-0.00882541946149645,0.6363421968365135,0.0044964117725016725,-0.062051,-40.083055
11.185,2.0,1.0,1.0,33.5,33.2,33.2,4.1,2.5,2.5575,0.7575068386232469,-0.008984450394665432,0.6417600584849266,0.004486082069856567,-0.062673,-39.963444
11.185,2.0,1.0,1.0,33.5,33.2,33.2,4.1,2.5,2.56,0.752795291348742,-0.009146095656948138,0.6471692651167691,0.00447425043859681,-0.063307,-39.84347
11.185,2.0,1.0,1.0,33.5,33.2,33.2,4.1,2.5,2.5625,0.7480211838983707,-0.009310403403721156,0.6525693691269046,0.004460864541284611,-0.063952,-39.723124
11.185,2.0,1.0,1.0,33.5,33.2,33.2,4.1,2.5,2.565,0.7431838771122468,-0.009477422859854982,0.6579599096952241,0.004445870198071985,-0.064608,-39.602397
11.185,2.0,1.0,1.0,33.5,33.2,33.2,4.1,2.5,2.5675,0.7382827231059613,-0.009647204346785815,0.6633404123810388,0.0044292113140174975,-0.065277,-39.481282
11.185,2.0,1.0,1.0,33.5,33.2,33.2,4.1,2.5,2.57,0.733317065196712,-0.009819799310353998,0.6687103887048267,0.004410829803153716,-0.065957,-39.35977
11.185,2.0,1.0,1.0,33.5,33.2,33.2,4.1,2.5,2.5725,0.728286237831655,-0.009995260349432917,0.6740693357169149,0.0043906655091385995,-0.066651,-39.237851
11.185,2.0,1.0,1.0,33.5,33.2,33.2,4.1,2.5,2.575,0.7231895665186829,-0.010173641245373531,0.6794167355526658,0.004368656122314743,-0.067356,-39.115516
11.185,2.0,1.0,1.0,33.5,33.2,33.2,4.1,2.5,2.5775,0.718026367759849,-0.010354996992290314,0.6847520549737163,0.0043447370929897465,-0.068076,-38.992756
11.185,2.0,1.0,1.0,33.5,33.2,33.2,4.1,2.5,2.58,0.7127959489876662,-0.010539383828215386,0.6900747448948067,0.004318841540739868,-0.068808,-38.869562
11.185,2.0,1.0,1.0,33.5,33.2,33.2,4.1,2.5,2.5825,0.7074976085045169,-0.01072685926714854,0.6953842398957205,0.004290900159527228,-0.069554,-38.745925
11.185,2.0,1.0,1.0,33.5,33.2,33.2,4.1,2.5,2.585,0.7021306354254363,-0.01091748213203155,0.7006799577178284,0.004260841118408031,-0.070315,-38.621834
11.185,2.0,1.0,1.0,33.5,33.2,33.2,4.1,2.5,2.5875,0.6966943096245278,-0.011111312588676363,0.705961298744729,0.0042285899575955875,-0.071089,-38.49728
11.185,2.0,1.0,1.0,33.5,33.2,33.2,4.1,2.5,2.59,0.6911879016853036,-0.01130841218067736,0.711227645466434,0.004194069479627643,-0.071879,-38.372254
11.185,2.0,1.0,1.0,33.5,33.2,33.2,4.1,2.5,2.5925,0.6856106728552375,-0.011508843865339683,0.7164783619265523,0.004157199635371345,-0.072684,-38.246744
11.185,2.0,1.0,1.0,33.5,33.2,33.2,4.1,2.5,2.595,0.679961875004857,-0.011712672050655059,0.7217127931518812,0.00411789740458308,-0.073504,-38.12074
11.185,2.0,1.0,1.0,33.5,33.2,33.2,4.1,2.5,2.5975,0.6742407505916894,-0.011919962633359567,0.7269302645638094,0.004076076670721897,-0.07434,-37.994233
11.185,2.0,1.0,1.0,33.5,33.2,33.2,4.1,2.5,2.6,0.6684465326294184,-0.012130783038107128,0.7321300813709045,0.004031648089696488,-0.075193,-37.867211
11.185,2.0,1.0,1.0,33.5,33.2,33.2,4.1,2.5,2.6025,0.6625784446626206,-0.012345202257794285,0.7373115279420243,0.003984518952204716,-0.076062,-37.739664
11.185,2.0,1.0,1.0,33.5,33.2,33.2,4.1,2.5,2.605,0.656635700747454,-0.01256329089507294,0.7424738671592844,0.003934593039302572,-0.076949,-37.611581
11.185,2.0,1.0,1.0,33.5,33.2,33.2,4.1,2.5,2.6075,0.6506175054387143,-0.012785121205088401,0.7476163397501708,0.0038817704708157853,-0.077853,-37.48295
11.185,2.0,1.0,1.0,33.5,33.2,33.2,4.1,2.5,2.61,0.6445230537836827,-0.013010767139481148,0.7527381635980562,0.003825947546181562,-0.078776,-37.353759
11.185,2.0,1.0,1.0,33.5,33.2,33.2,4.1,2.5,2.6125,0.6383515313232077,-0.013240304391692099,0.7578385330303626,0.0037670165772802034,-0.079717,-37.223998
11.185,2.0,1.0,1.0,33.5,33.2,33.2,4.1,2.5,2.615,0.6321021141004929,-0.013473810443611588,0.7629166180835683,0.00370486571278718,-0.080677,-37.093654
11.185,2.0,1.0,1.0,33.5,33.2,33.2,4.1,2.5,2.6175,0.62577396867809,-0.01371136461361378,0.7679715637442176,0.0036393787535436936,-0.081657,-36.962715
11.185,2.0,1.0,1.0,33.5,33.2,33.2,4.1,2.5,2.62,0.6193662521636094,-0.013953048106018048,0.7730024891650699,0.00357043495840961,-0.082657,-36.831168
11.185,2.0,1.0,1.0,33.5,33.2,33.2,4.1,2.5,2.6225,0.6128781122446947,-0.014198944062021513,0.7780084868554776,0.003497908840025683,-0.083678,-36.699001
11.185,2.0,1.0,1.0,33.5,33.2,33.2,4.1,2.5,2.625,0.606308687233843,-0.0144491376121451,0.782988621845031,0.00342166994987138,-0.084721,-36.566202
11.185,2.0,1.0,1.0,33.5,33.2,33.2,4.1,2.5,2.6275,0.599657106123658,-0.014703715930238568,0.7879419308194877,0.003341582651961668,-0.085785,-36.432756
11.185,2.0,1.0,1.0,33.5,33.2,33.2,4.1,2.5,2.63,0.5929224886531795,-0.01496276828908856,0.7928674212279347,0.003257505884479006,-0.086872,-36.29865
11.185,2.0,1.0,1.0,33.5,33.2,33.2,4.1,2.5,2.6325,0.5861039453859453,-0.015226386117675282,0.797764070360089,0.003169292908586721,-0.087981,-36.16387
11.185,2.0,1.0,1.0,33.5,33.2,33.2,4.1,2.5,2.635,0.5792005778004867,-0.015494663060122104,0.8026308243925951,0.0030767910436140483,-0.089115,-36.028403
11.185,2.0,1.0,1.0,33.5,33.2,33.2,4.1,2.5,2.6375,0.5722114783939903,-0.015767695036383568,0.8074665974031023,0.0029798413877449824,-0.090274,-35.892233
11.185,2.0,1.0,1.0,33.5,33.2,33.2,4.1,2.5,2.64,0.5651357307998813,-0.016045580304716082,0.8122702703508726,0.002878278523277421,-0.091457,-35.755347
11.185,2.0,1.0,1.0,33.5,33.2,33.2,4.1,2.5,2.6425,0.55797240992015,-0.016328419525974646,0.8170406900225669,0.0027719302054503496,-0.092667,-35.617728
11.185,2.0,1.0,1.0,33.5,33.2,33.2,4.1,2.5,2.645,0.5507205820732547,-0.016616315829777885,0.8217766679418173,0.0026606170337601875,-0.093903,-35.479361
11.185,2.0,1.0,1.0,33.5,33.2,33.2,4.1,2.5,2.6475,0.5433793051584987,-0.016909374882581825,0.8264769792410962,0.00254415210460541,-0.095167,-35.340231
11.185,2.0,1.0,1.0,33.5,33.2,33.2,4.1,2.5,2.65,0.535947628837794,-0.017207704957701065,0.8311403614943278,0.0024223406440087095,-0.09646,-35.200321
11.185,2.0,1.0,1.0,33.5,33.2,33.2,4.1,2.5,2.6525,0.5284245947358189,-0.017511417007310886,0.8357655135085686,0.0022949796190686257,-0.097782,-35.059614
11.185,2.0,1.0,1.0,33.5,33.2,33.2,4.1,2.5,2.655,0.520809236659568,-0.017820624736463272,0.8403510940730281,0.0021618573266863486,-0.099133,-34.918094
11.185,2.0,1.0,1.0,33.5,33.2,33.2,4.1,2.5,2.6575,0.5131005808383864,-0.018135444679141622,0.8448957206635569,0.002022752957997465,-0.100517,-34.775742
11.185,2.0,1.0,1.0,33.5,33.2,33.2,4.1,2.5,2.66,0.5052976461856157,-0.01845599627637547,0.849397968100639,0.0018774361368124257,-0.101932,-34.63254
11.185,2.0,1.0,1.0,33.5,33.2,33.2,4.1,2.5,2.6625,0.497399444583049,-0.018782401956427133,0.853856367158789,0.001725666430231161,-0.10338,-34.488471
11.185,2.0,1.0,1.0,33.5,33.2,33.2,4.1,2.5,2.665,0.48940498118942494,-0.019114787217056128,0.8582694031251324,0.0015671928294473045,-0.104863,-34.343515
11.185,2.0,1.0,1.0,33.5,33.2,33.2,4.1,2.5,2.6675,0.4813132547742987,-0.01945328070985294,0.8626355143047795,0.0014017531985919482,-0.106381,-34.197652
11.185,2.0,1.0,1.0,33.5,33.2,33.2,4.1,2.5,2.67,0.47312325807865324,-0.019798014326624674,0.8669530904704649,0.001229073689286807,-0.107935,-34.050862
11.185,2.0,1.0,1.0,33.5,33.2,33.2,4.1,2.5,2.6725,0.4648339782037046,-0.020149123287797974,0.8712204712537372,0.0010488681183793347,-0.109527,-33.903125
11.185,2.0,1.0,1.0,33.5,33.2,33.2,4.1,2.5,2.675,0.4564443970294411,-0.020506746232786543,0.8754359444747855,0.0008608373061147747,-0.111159,-33.754419
11.185,2.0,1.0,1.0,33.5,33.2,33.2,4.1,2.5,2.6775,0.447953491664497,-0.02087102531225041,0.879597744407791,0.000664668371762952,-0.11283,-33.604722
11.185,2.0,1.0,1.0,33.5,33.2,33.2,4.1,2.5,2.68,0.4393602349290602,-0.021242106282148628,0.8837040499784475,0.0004600339834560027,-0.114543,-33.454012
11.185,2.0,1.0,1.0,33.5,33.2,33.2,4.1,2.5,2.6825,0.43066359587261227,-0.021620138599456728,0.8877529828900453,0.0002465915587056256,-0.116299,-33.302266
11.185,2.0,1.0,1.0,33.5,33.2,33.2,4.1,2.5,2.685,0.4218625403283833,-0.022005275519386684,0.8917426056742316,2.3982411751942995e-05,-0.1181,-33.149459
11.185,2.0,1.0,1.0,33.5,33.2,33.2,4.1,2.5,2.6875,0.412956031506522,-0.0223976741939057,0.895670919662243,-0.000208169156452415,-0.119947,-32.995566
11.185,2.0,1.0,1.0,33.5,33.2,33.2,4.1,2.5,2.69,0.4039430306281124,-0.022797495771301697,0.8995358628720673,-0.00045025683020373443,-0.121842,-32.840563
11.185,2.0,1.0,1.0,33.5,33.2,33.2,4.1,2.5,2.6925,0.39482249760225296,-0.02320490549648849,0.9033353078066114,-0.0007026933179605987,-0.123786,-32.684423
11.185,2.0,1.0,1.0,33.5,33.2,33.2,4.1,2.5,2.695,0.38559339174861584,-0.023620072811676003,0.9070670591575252,-0.0009659114636832267,-0.125782,-32.527119
11.185,2.0,1.0,1.0,33.5,33.2,33.2,4.1,2.5,2.6975,0.3762546725679806,-0.02404317145695584,0.9107288514088742,-0.0012403654365941515,-0.127832,-32.368622
11.185,2.0,1.0,1.0,33.5,33.2,33.2,4.1,2.5,2.7,0.3668053005634743,-0.02447437957026031,0.9143183463343154,-0.0015265320059287138,-0.129936,-32.208903
11.185,2.0,1.0,1.0,33.5,33.2,33.2,4.1,2.5,2.7025,0.35724423811537187,-0.024913879786049142,0.9178331303808778,-0.0018249119078830175,-0.132099,-32.047933
11.185,2.0,1.0,1.0,33.5,33.2,33.2,4.1,2.5,2.705,0.347570450412557,-0.025361859331953247,0.92127071193178,-0.0021360313126740356,-0.134321,-31.885681
11.185,2.0,1.0,1.0,33.5,33.2,33.2,4.1,2.5,2.7075,0.3377829064439343,-0.02581851012246161,0.924628518440016,-0.002460443400413456,-0.136605,-31.722113
11.185,2.0,1.0,1.0,33.5,33.2,33.2,4.1,2.5,2.71,0.3278805800533598,-0.026284028848567346,0.9279038934236301,-0.002798730055371802,-0.138953,-31.557198
11.185,2.0,1.0,1.0,33.5,33.2,33.2,4.1,2.5,2.7125,0.31786245106190697,-0.02675861706209204,0.9310940933127066,-0.003151503689184166,-0.141369,-31.3909
11.185,2.0,1.0,1.0,33.5,33.2,33.2,4.1,2.5,2.715,0.3077275064616263,-0.02724248125317526,0.9341962841370965,-0.0035194092046359937,-0.143854,-31.223183
11.185,2.0,1.0,1.0,33.5,33.2,33.2,4.1,2.5,2.7175,0.29747474168528454,-0.027735832919145356,0.9372075380427763,-0.0039031261128804518,-0.146413,-31.054011
11.185,2.0,1.0,1.0,33.5,33.2,33.2,4.1,2.5,2.72,0.28710316195699703,-0.02823888862266921,0.9401248296234649,-0.004303370818295367,-0.149047,-30.883344
11.185,2.0,1.0,1.0,33.5,33.2,33.2,4.1,2.5,2.7225,0.2766117837290818,-0.02875187003670753,0.9429450320527194,-0.004720899086707477,-0.15176,-30.711143
11.185,2.0,1.0,1.0,33.5,33.2,33.2,4.1,2.5,2.725,0.2659996362110342,-0.029275003973362773,0.9456649130001084,-0.005156508714410256,-0.154556,-30.537367
11.185,2.0,1.0,1.0,33.5,33.2,33.2,4.1,2.5,2.7275,0.25526576299705717,-0.02980852239319597,0.9482811303132849,-0.005611042417314765,-0.157438,-30.361972
11.185,2.0,1.0,1.0,33.5,33.2,33.2,4.1,2.5,2.73,0.24440922379932495,-0.030352662390983595,0.9507902274457293,-0.006085390961713928,-0.160411,-30.184912
11.185,2.0,1.0,1.0,33.5,33.2,33.2,4.1,2.5,2.7325,0.23342909629488404,-0.030907666153177568,0.9531886286076484,-0.006580496560558278,-0.163477,-30.006142
11.185,2.0,1.0,1.0,33.5,33.2,33.2,4.1,2.5,2.735,0.2223244780950737,-0.031473780881494946,0.9554726336149182,-0.00709735656185679,-0.166642,-29.825612
11.185,2.0,1.0,1.0,33.5,33.2,33.2,4.1,2.5,2.7375,0.21109448884734197,-0.03205125867607994,0.9576384124080133,-0.007637027458887286,-0.16991,-29.643272
11.185,2.0,1.0,1.0,33.5,33.2,33.2,4.1,2.5,2.74,0.19973827248063147,-0.03264035637051908,0.9596819992095376,-0.008200629255363684,-0.173286,-29.459069
11.185,2.0,1.0,1.0,33.5,33.2,33.2,4.1,2.5,2.7425,0.18825499960688885,-0.03324133530961728,0.9615992862851802,-0.008789350222631609,-0.176776,-29.272947
11.185,2.0,1.0,1.0,33.5,33.2,33.2,4.1,2.5,2.745,0.17664387009299581,-0.03385446105921858,0.9633860172686177,-0.009404452090404854,-0.180385,-29.084849
11.185,2.0,1.0,1.0,33.5,33.2,33.2,4.1,2.5,2.7475,0.16490411581937817,-0.03448000303543292,0.9650377800059805,-0.010047275717597073,-0.184118,-28.894714
11.185,2.0,1.0,1.0,33.5,33.2,33.2,4.1,2.5,2.75,0.153035003643889,-0.0351182340383461,0.966549998869914,-0.0107192472955339,-0.187984,-28.702481
11.185,2.0,1.0,1.0,33.5,33.2,33.2,4.1,2.5,2.7525,0.14103583859234098,-0.035769429672581246,0.9679179264868785,-0.011421885142350352,-0.191987,-28.508081
11.185,2.0,1.0,1.0,33.5,33.2,33.2,4.1,2.5,2.755,0.12890596730034684,-0.03643386763385091,0.9691366348140465,-0.01215680715481293,-0.196136,-28.311448
11.185,2.0,1.0,1.0,33.5,33.2,33.2,4.1,2.5,2.7575,0.11664478173497003,-0.03711182683679663,0.9702010054937937,-0.012925738992295016,-0.200439,-28.112508
11.185,2.0,1.0,1.0,33.5,33.2,33.2,4.1,2.5,2.76,0.10425172322939712,-0.03780358635481568,0.9711057194041958,-0.013730523077338153,-0.204904,-27.911186
11.185,2.0,1.0,1.0,33.5,33.2,33.2,4.1,2.5,2.7625,0.09172628686929393,-0.03850942413708608,0.9718452453129605,-0.014573128508352625,-0.209541,-27.707402
11.185,2.0,1.0,1.0,33.5,33.2,33.2,4.1,2.5,2.765,0.07906802627618563,-0.03922961546141221,0.9724138275295559,-0.015455661992764718,-0.214359,-27.501073
11.185,2.0,1.0,1.0,33.5,33.2,33.2,4.1,2.5,2.7675,0.06627655884109951,-0.039964431073608295,0.9728054724357263,-0.016380379923578343,-0.219368,-27.292111
11.185,2.0,1.0,1.0,33.5,33.2,33.2,4.1,2.5,2.77,0.053351571471253925,-0.04071413495462057,0.9730139337577918,-0.017349701739192595,-0.224581,-27.080425
11.185,2.0,1.0,1.0,33.5,33.2,33.2,4.1,2.5,2.7725,0.040292826924090766,-0.04147898164511042,0.9730326964246836,-0.018366224725774063,-0.230011,-26.865917
11.185,2.0,1.0,1.0,33.5,33.2,33.2,4.1,2.5,2.775,0.027100170816830072,-0.042259213043349925,0.9728549588332196,-0.019432740443952514,-0.235669,-26.648486
11.185,2.0,1.0,1.0,33.5,33.2,33.2,4.1,2.5,2.7775,0.013773539416572448,-0.043055054575471194,0.9724736133160646,-0.020552252987607503,-0.241572,-26.428024
11.185,2.0,1.0,1.0,33.5,33.2,33.2,4.1,2.5,2.78,0.0003129683364060838,-0.04386671061669691,0.9718812245775982,-0.02172799931263768,-0.247736,-26.204417
11.185,2.0,1.0,1.0,33.5,33.2,33.2,4.1,2.5,2.7825,-0.01328139771207361,-0.04469435901732141,0.9710700058277929,-0.022963471908568466,-0.254177,-25.977547
11.185,2.0,1.0,1.0,33.5,33.2,33.2,4.1,2.5,2.785,-0.027009293929082343,-0.045538144556866215,0.9700317923032775,-0.02426244412650938,-0.260915,-25.747285
11.185,2.0,1.0,1.0,33.5,33.2,33.2,4.1,2.5,2.7875,-0.040870322981706245,-0.04639817111268167,0.9687580118170946,-0.025628998524295534,-0.267971,-25.5135
11.185,2.0,1.0,1.0,33.5,33.2,33.2,4.1,2.5,2.79,-0.05486394083993903,-0.04727449228366224,0.9672396519229853,-0.027067558644848746,-0.275368,-25.276048
11.185,2.0,1.0,1.0,33.5,33.2,33.2,4.1,2.5,2.7925,-0.06898944057348871,-0.04816710015358689,0.9654672232149556,-0.028582924708237596,-0.28313,-25.034781
11.185,2.0,1.0,1.0,33.5,33.2,33.2,4.1,2.5,2.795,-0.08324593371957266,-0.04907591180924956,0.9634307182066965,-0.03018031377328165,-0.291286,-24.78954
11.185,2.0,1.0,1.0,33.5,33.2,33.2,4.1,2.5,2.7975,-0.09763232874548548,-0.05000075314262024,0.9611195651462212,-0.03186540501274999,-0.299867,-24.540154
11.185,2.0,1.0,1.0,33.5,33.2,33.2,4.1,2.5,2.8,-0.11214730602244911,-0.050941339359489246,0.9585225760163745,-0.03364439084957332,-0.308906,-24.286447
11.185,2.0,1.0,1.0,33.5,33.2,33.2,4.1,2.5,2.8025,-0.12678928859319977,-0.05189725148385192,0.9556278878491143,-0.035524034822671316,-0.31844,-24.028226
11.185,2.0,1.0,1.0,33.5,33.2,33.2,4.1,2.5,2.805,-0.1415564078479918,-0.052867907980595506,0.9524228963372657,-0.03751173719314563,-0.328511,-23.765288
11.185,2.0,1.0,1.0,33.5,33.2,33.2,4.1,2.5,2.8075,-0.15644646301287687,-0.05385253040966884,0.9488941805582718,-0.039615609468317665,-0.339166,-23.497419
11.185,2.0,1.0,1.0,33.5,33.2,33.2,4.1,2.5,2.81,-0.17145687308814878,-0.05485010176093414,0.9450274174259654,-0.041844559216521936,-0.350457,-23.224386
11.185,2.0,1.0,1.0,33.5,33.2,33.2,4.1,2.5,2.8125,-0.186584619538057,-0.0558593157847911,0.940807284253879,-0.044208386774352,-0.362442,-22.945944
11.185,2.0,1.0,1.0,33.5,33.2,33.2,4.1,2.5,2.815,-0.20182617760487026,-0.056878515209144886,0.9362173475418143,-0.046717895715288234,-0.375186,-22.661829
11.185,2.0,1.0,1.0,33.5,33.2,33.2,4.1,2.5,2.8175,-0.21717743357396532,-0.05790561619166268,0.931239935780831,-0.049385019259648374,-0.388762,-22.371759
11.185,2.0,1.0,1.0,33.5,33.2,33.2,4.1,2.5,2.82,-0.23263358461638675,-0.058938015662373125,0.9258559937050093,-0.052222965165858656,-0.403254,-22.075433
11.185,2.0,1.0,1.0,33.5,33.2,33.2,4.1,2.5,2.8225,-0.24818901693405687,-0.05997247731887554,0.9200449149966392,-0.0552463820566091,-0.418757,-21.772528
11.185,2.0,1.0,1.0,33.5,33.2,33.2,4.1,2.5,2.825,-0.2638371567677907,-0.06100499088276171,0.9137843499720094,-0.05847155060305069,-0.435377,-21.462695
11.185,2.0,1.0,1.0,33.5,33.2,33.2,4.1,2.5,2.8275,-0.27957028731570305,-0.062030597728483544,0.9070499842390423,-0.061916603514357474,-0.453238,-21.145562
