1,w,sub_t,h,l1,l2,l3,g1,g2,Freq,S11_re,S21_re,S11_img,S21_img,S11_dB,S21_dB
11.185,2.0,1.0,1.0,34.0,34.0,34.0,1.5,2.5,2.5,0.772489633374902,-0.0186530993560948,0.621033691026123,0.0142848187592179,-0.077014,-32.580655
11.185,2.0,1.0,1.0,34.0,34.0,34.0,1.5,2.5,2.5025,0.7676168418631298,-0.019048768508752124,0.6268758028968604,0.014339306734737198,-0.077961,-32.452915
11.185,2.0,1.0,1.0,34.0,34.0,34.0,1.5,2.5,2.505,0.7626713568258416,-0.019452566939863383,0.6327105162560791,0.014391440676628111,-0.078928,-32.324613
11.185,2.0,1.0,1.0,34.0,34.0,34.0,1.5,2.5,2.5075,0.7576522979159874,-0.01986468476697263,0.6385372899571687,0.014441094155780019,-0.079916,-32.19574
11.185,2.0,1.0,1.0,34.0,34.0,34.0,1.5,2.5,2.51,0.7525587693086457,-0.020285317315739997,0.6443555643548757,0.01448813500906136,-0.080925,-32.066286
11.185,2.0,1.0,1.0,34.0,34.0,34.0,1.5,2.5,2.5125,0.7473898594185714,-0.020714665277519625,0.6501647606234944,0.01453242506412757,-0.081956,-31.936241
11.185,2.0,1.0,1.0,34.0,34.0,34.0,1.5,2.5,2.515,0.7421446406136274,-0.021152934871800085,0.6559642800475937,0.01457381984980339,-0.08301,-31.805595
11.185,2.0,1.0,1.0,34.0,34.0,34.0,1.5,2.5,2.5175,0.7368221689241693,-0.02160033801362938,0.6617535032839996,0.014612168291203258,-0.084086,-31.674336
11.185,2.0,1.0,1.0,34.0,34.0,34.0,1.5,2.5,2.52,0.7314214837484239,-0.022057092486149284,0.6675317895937228,0.014647312388705242,-0.085187,-31.542454
11.185,2.0,1.0,1.0,34.0,34.0,34.0,1.5,2.5,2.5225,0.7259416075539697,-0.02252342211835898,0.6732984760424009,0.01467908687983487,-0.086312,-31.409938
11.185,2.0,1.0,1.0,34.0,34.0,34.0,1.5,2.5,2.525,0.7203815455753914,-0.022999556968227853,0.6790528766678022,0.014707318883054009,-0.087463,-31.276777
11.185,2.0,1.0,1.0,34.0,34.0,34.0,1.5,2.5,2.5275,0.7147402855082244,-0.023485733511274278,0.6847942816128179,0.0147318275223876,-0.088639,-31.14296
11.185,2.0,1.0,1.0,34.0,34.0,34.0,1.5,2.5,2.53,0.709016797199333,-0.023982194834720846,0.690521956222299,0.01475242353174752,-0.089843,-31.008475
11.185,2.0,1.0,1.0,34.0,34.0,34.0,1.5,2.5,2.5325,0.7032100323338588,-0.02448919083733428,0.6962351401019986,0.014768908837742229,-0.091074,-30.87331
11.185,2.0,1.0,1.0,34.0,34.0,34.0,1.5,2.5,2.535,0.6973189241189224,-0.02500697843505003,0.7019330461377972,0.014781076119678126,-0.092334,-30.737455
11.185,2.0,1.0,1.0,34.0,34.0,34.0,1.5,2.5,2.5375,0.6913423869642812,-0.025535821772473717,0.7076148594732486,0.01478870834537345,-0.093624,-30.600895
11.185,2.0,1.0,1.0,34.0,34.0,34.0,1.5,2.5,2.54,0.6852793161601692,-0.02607599244034348,0.7132797364434269,0.01479157828131448,-0.094943,-30.46362
11.185,2.0,1.0,1.0,34.0,34.0,34.0,1.5,2.5,2.5425,0.6791285875525754,-0.026627769699024844,0.7189268034628863,0.014789447975583719,-0.096294,-30.325616
11.185,2.0,1.0,1.0,34.0,34.0,34.0,1.5,2.5,2.545,0.6728890572162627,-0.027191440708096978,0.7245551558654556,0.014782068211885015,-0.097678,-30.186871
11.185,2.0,1.0,1.0,34.0,34.0,34.0,1.5,2.5,2.5475,0.6665595611258572,-0.027767300762073212,0.7301638566934295,0.014769177932875514,-0.099095,-30.047371
11.185,2.0,1.0,1.0,34.0,34.0,34.0,1.5,2.5,2.55,0.6601389148253726,-0.028355653532281606,0.735751935433604,0.014750503630892715,-0.100546,-29.907104
11.185,2.0,1.0,1.0,34.0,34.0,34.0,1.5,2.5,2.5525,0.6536259130966106,-0.028956811314908317,0.7413183866974146,0.014725758704033563,-0.102033,-29.766056
11.185,2.0,1.0,1.0,34.0,34.0,34.0,1.5,2.5,2.555,0.6470193296268818,-0.0295710952851841,0.7468621688423067,0.014694642775400592,-0.103557,-29.624212
11.185,2.0,1.0,1.0,34.0,34.0,34.0,1.5,2.5,2.5575,0.6403179166765905,-0.030198835757665157,0.7523822025312777,0.01465684097317792,-0.105119,-29.48156
11.185,2.0,1.0,1.0,34.0,34.0,34.0,1.5,2.5,2.56,0.6335204047472662,-0.030840372452525893,0.7578773692273345,0.014612023169036514,-0.10672,-29.338084
11.185,2.0,1.0,1.0,34.0,34.0,34.0,1.5,2.5,2.5625,0.6266255022506968,-0.03149605476774658,0.7633465096194234,0.014559843172191977,-0.108362,-29.193769
11.185,2.0,1.0,1.0,34.0,34.0,34.0,1.5,2.5,2.565,0.6196318951798908,-0.03216624205703426,0.7687884219761774,0.014499937876247305,-0.110046,-29.048602
11.185,2.0,1.0,1.0,34.0,34.0,34.0,1.5,2.5,2.5675,0.6125382467826952,-0.03285130391326605,0.7742018604235763,0.014431926355748949,-0.111773,-28.902566
11.185,2.0,1.0,1.0,34.0,34.0,34.0,1.5,2.5,2.57,0.6053431972389589,-0.03355162045719111,0.7795855331423873,0.014355408909163408,-0.113546,-28.755646
11.185,2.0,1.0,1.0,34.0,34.0,34.0,1.5,2.5,2.5725,0.5980453633422571,-0.03426758263106192,0.7849381004809836,0.014269966044744467,-0.115364,-28.607826
11.185,2.0,1.0,1.0,34.0,34.0,34.0,1.5,2.5,2.575,0.5906433381872964,-0.034999592496794754,0.790258172978849,0.014175157405502051,-0.117231,-28.459089
11.185,2.0,1.0,1.0,34.0,34.0,34.0,1.5,2.5,2.5775,0.5831356908642396,-0.03574806353817629,0.7955443092957759,0.014070520629208468,-0.119148,-28.30942
11.185,2.0,1.0,1.0,34.0,34.0,34.0,1.5,2.5,2.58,0.5755209661613447,-0.03651342096654285,0.8007950140414277,0.013955570139077377,-0.121117,-28.158801
11.185,2.0,1.0,1.0,34.0,34.0,34.0,1.5,2.5,2.5825,0.5677976842774319,-0.037296102029251134,0.8060087354996025,0.013829795860426436,-0.123139,-28.007215
11.185,2.0,1.0,1.0,34.0,34.0,34.0,1.5,2.5,2.585,0.5599643405459054,-0.03809655632014137,0.8111838632411241,0.01369266185828463,-0.125217,-27.854643
11.185,2.0,1.0,1.0,34.0,34.0,34.0,1.5,2.5,2.5875,0.5520194051722006,-0.038915246091059556,0.8163187256189073,0.013543604890528419,-0.127353,-27.701069
11.185,2.0,1.0,1.0,34.0,34.0,34.0,1.5,2.5,2.59,0.5439613229867801,-0.03975264656335014,0.8214115871382791,0.01338203287071889,-0.129548,-27.546473
11.185,2.0,1.0,1.0,34.0,34.0,34.0,1.5,2.5,2.5925,0.5357885132159863,-0.04060924623806056,0.8264606456951765,0.013207323234369642,-0.131806,-27.390837
11.185,2.0,1.0,1.0,34.0,34.0,34.0,1.5,2.5,2.595,0.5274993692733728,-0.0414855472034001,0.8314640296743124,0.013018821201896291,-0.134128,-27.234141
11.185,2.0,1.0,1.0,34.0,34.0,34.0,1.5,2.5,2.5975,0.5190922585743623,-0.04238206543777754,0.8364197948988729,0.012815837930976185,-0.136516,-27.076364
11.185,2.0,1.0,1.0,34.0,34.0,34.0,1.5,2.5,2.6,0.5105655223774483,-0.04329933110648916,0.8413259214226722,0.012597648550485058,-0.138975,-26.917488
11.185,2.0,1.0,1.0,34.0,34.0,34.0,1.5,2.5,2.6025,0.5019174756554977,-0.04423788884984528,0.846180310155081,0.012363490067564839,-0.141505,-26.757491
11.185,2.0,1.0,1.0,34.0,34.0,34.0,1.5,2.5,2.605,0.49314640700109114,-0.04519829806020622,0.8509807793083219,0.012112559138715536,-0.144111,-26.596352
11.185,2.0,1.0,1.0,34.0,34.0,34.0,1.5,2.5,2.6075,0.48425057857031806,-0.04618113314503273,0.8557250606559716,0.011844009695082598,-0.146795,-26.434048
11.185,2.0,1.0,1.0,34.0,34.0,34.0,1.5,2.5,2.61,0.4752282260699075,-0.047186983772647684,0.8604107955906994,0.011556950411332976,-0.149561,-26.270559
11.185,2.0,1.0,1.0,34.0,34.0,34.0,1.5,2.5,2.6125,0.4660775587931507,-0.04821645509694395,0.8650355309683743,0.011250442006663057,-0.152411,-26.10586
11.185,2.0,1.0,1.0,34.0,34.0,34.0,1.5,2.5,2.615,0.4567967597106719,-0.04927016795674703,0.8695967147247144,0.010923494365562272,-0.155349,-25.939929
11.185,2.0,1.0,1.0,34.0,34.0,34.0,1.5,2.5,2.6175,0.4473839856228313,-0.050348759044947254,0.8740916912496162,0.010575063464953986,-0.15838,-25.77274
11.185,2.0,1.0,1.0,34.0,34.0,34.0,1.5,2.5,2.62,0.43783736738128526,-0.051452881041846824,0.8785176965031637,0.010204048093249877,-0.161506,-25.604271
11.185,2.0,1.0,1.0,34.0,34.0,34.0,1.5,2.5,2.6225,0.42815501018812924,-0.05258320270640589,0.8828718528560946,0.009809286345668746,-0.164732,-25.434495
11.185,2.0,1.0,1.0,34.0,34.0,34.0,1.5,2.5,2.625,0.418334993982031,-0.0537404089182058,0.887151163636175,0.00938955187888669,-0.168063,-25.263386
11.185,2.0,1.0,1.0,34.0,34.0,34.0,1.5,2.5,2.6275,0.4083753739218369,-0.05492520066198011,0.8913525073604861,0.0089435499066855,-0.171502,-25.090918
11.185,2.0,1.0,1.0,34.0,34.0,34.0,1.5,2.5,2.63,0.39827418097941153,-0.05613829494544711,0.8954726316320641,0.008469912916744756,-0.175055,-24.917063
11.185,2.0,1.0,1.0,34.0,34.0,34.0,1.5,2.5,2.6325,0.38802942265483975,-0.05738042463992983,0.899508146677625,0.00796719608706594,-0.178728,-24.741794
11.185,2.0,1.0,1.0,34.0,34.0,34.0,1.5,2.5,2.635,0.3776390838287143,-0.05865233823181963,0.9034555185012645,0.007433872378716285,-0.182524,-24.565082
11.185,2.0,1.0,1.0,34.0,34.0,34.0,1.5,2.5,2.6375,0.3671011277679969,-0.05995479947132352,0.9073110616270068,0.006868327279616593,-0.186451,-24.386896
11.185,2.0,1.0,1.0,34.0,34.0,34.0,1.5,2.5,2.64,0.3564134973039366,-0.061288586903098984,0.911070931400907,0.006268853171962332,-0.190514,-24.207208
11.185,2.0,1.0,1.0,34.0,34.0,34.0,1.5,2.5,2.6425,0.3455741162028188,-0.06265449326128886,0.9147311158210192,0.005633643293546578,-0.194719,-24.025985
11.185,2.0,1.0,1.0,34.0,34.0,34.0,1.5,2.5,2.645,0.3345808907528635,-0.06405332470909234,0.9182874268609801,0.004960785260722654,-0.199074,-23.843195
11.185,2.0,1.0,1.0,34.0,34.0,34.0,1.5,2.5,2.6475,0.32343171159350215,-0.06548589990030741,0.92173549125015,0.004248254117994356,-0.203586,-23.658805
11.185,2.0,1.0,1.0,34.0,34.0,34.0,1.5,2.5,2.65,0.312124455816521,-0.06695304883719873,0.925070740670218,0.0034939048762333376,-0.208262,-23.472782
11.185,2.0,1.0,1.0,34.0,34.0,34.0,1.5,2.5,2.6525,0.3006569893723614,-0.0684556114955311,0.9282884013248626,0.002695464498269995,-0.213111,-23.285091
11.185,2.0,1.0,1.0,34.0,34.0,34.0,1.5,2.5,2.655,0.28902716981901316,-0.06999443618361675,0.9313834828354888,0.001850523287072545,-0.218141,-23.095695
11.185,2.0,1.0,1.0,34.0,34.0,34.0,1.5,2.5,2.6575,0.2772328494558187,-0.07157037759764621,0.9343507664121607,0.0009565256278965025,-0.223361,-22.904558
11.185,2.0,1.0,1.0,34.0,34.0,34.0,1.5,2.5,2.66,0.26527187888996184,-0.07318429453036437,0.9371847922446485,1.0760031626449876e-05,-0.228782,-22.711642
11.185,2.0,1.0,1.0,34.0,34.0,34.0,1.5,2.5,2.6625,0.2531421110896648,-0.07483704718418561,0.9398798460539284,-0.0009896515779708893,-0.234414,-22.516908
11.185,2.0,1.0,1.0,34.0,34.0,34.0,1.5,2.5,2.665,0.2408414059852041,-0.07652949403302949,0.9424299447395754,-0.0020477653952404667,-0.240268,-22.320315
11.185,2.0,1.0,1.0,34.0,34.0,34.0,1.5,2.5,2.6675,0.22836763568703763,-0.07826248816934449,0.9448288210531187,-0.0031668281492975713,-0.246356,-22.121822
11.185,2.0,1.0,1.0,34.0,34.0,34.0,1.5,2.5,2.67,0.2157186903995471,-0.08003687306385299,0.9470699072217394,-0.004350290479447356,-0.252692,-21.921386
11.185,2.0,1.0,1.0,34.0,34.0,34.0,1.5,2.5,2.6725,0.20289248511953506,-0.08185347765529523,0.9491463174405155,-0.005601821348561367,-0.259288,-21.718964
11.185,2.0,1.0,1.0,34.0,34.0,34.0,1.5,2.5,2.675,0.189886967220793,-0.08371311067568492,0.9510508291447818,-0.006925323580143956,-0.266159,-21.51451
11.185,2.0,1.0,1.0,34.0,34.0,34.0,1.5,2.5,2.6775,0.17670012503991014,-0.085616554103083,0.9527758629671805,-0.008324950611813044,-0.273322,-21.307977
11.185,2.0,1.0,1.0,34.0,34.0,34.0,1.5,2.5,2.68,0.16332999759449585,-0.0875645556183733,0.9543134612764317,-0.009805124565342884,-0.280793,-21.099317
11.185,2.0,1.0,1.0,34.0,34.0,34.0,1.5,2.5,2.6825,0.14977468558330115,-0.08955781992466015,0.9556552651869457,-0.0113705557412755,-0.28859,-20.888481
11.185,2.0,1.0,1.0,34.0,34.0,34.0,1.5,2.5,2.685,0.1360323638387503,-0.09159699876736446,0.9567924899200917,-0.013026263654357877,-0.296733,-20.675418
11.185,2.0,1.0,1.0,34.0,34.0,34.0,1.5,2.5,2.6875,0.122101295426639,-0.0936826794694072,0.957715898389224,-0.0147775997346576,-0.305242,-20.460074
11.185,2.0,1.0,1.0,34.0,34.0,34.0,1.5,2.5,2.69,0.10797984761562493,-0.09581537176857584,0.9584157728716738,-0.01663027182805541,-0.314141,-20.242397
11.185,2.0,1.0,1.0,34.0,34.0,34.0,1.5,2.5,2.6925,0.0936665099711761,-0.09799549271268078,0.9588818846218519,-0.018590370638808983,-0.323454,-20.022329
11.185,2.0,1.0,1.0,34.0,34.0,34.0,1.5,2.5,2.695,0.07915991486582007,-0.10022334933173768,0.9591034612705063,-0.020664398265817615,-0.333207,-19.799813
11.185,2.0,1.0,1.0,34.0,34.0,34.0,1.5,2.5,2.6975,0.06445886074004721,-0.10249911876442393,0.9590691518465119,-0.022859298992904346,-0.343428,-19.574789
11.185,2.0,1.0,1.0,34.0,34.0,34.0,1.5,2.5,2.7,0.0495623384977936,-0.10482282546748506,0.9587669892493113,-0.0251824925014856,-0.354149,-19.347198
11.185,2.0,1.0,1.0,34.0,34.0,34.0,1.5,2.5,2.7025,0.03446956147722007,-0.10719431508062041,0.958184349993057,-0.02764190968104422,-0.365402,-19.116974
11.185,2.0,1.0,1.0,34.0,34.0,34.0,1.5,2.5,2.705,0.019179999503597438,-0.10961322445438071,0.9573079110379348,-0.030246031218234107,-0.377224,-18.884055
11.185,2.0,1.0,1.0,34.0,34.0,34.0,1.5,2.5,2.7075,0.0036934176072163675,-0.11207894727338592,0.9561236035209991,-0.0330039291485051,-0.389654,-18.648371
11.185,2.0,1.0,1.0,34.0,34.0,34.0,1.5,2.5,2.71,-0.011990079922464578,-0.11459059462006221,0.9546165631990591,-0.035925311553821566,-0.402736,-18.409856
11.185,2.0,1.0,1.0,34.0,34.0,34.0,1.5,2.5,2.7125,-0.027869999373135595,-0.11714694972320971,0.9527710774209327,-0.03902057058511113,-0.416514,-18.168437
11.185,2.0,1.0,1.0,34.0,34.0,34.0,1.5,2.5,2.715,-0.04394540044494502,-0.11974641601888421,0.9505705284575797,-0.042300833976811565,-0.431041,-17.924043
11.185,2.0,1.0,1.0,34.0,34.0,34.0,1.5,2.5,2.7175,-0.060214831056571765,-0.12238695751579204,0.9479973330381936,-0.045778020201180714,-0.446371,-17.676598
11.185,2.0,1.0,1.0,34.0,34.0,34.0,1.5,2.5,2.72,-0.07667625293551333,-0.12506603030082034,0.9450328779711287,-0.049464897379099426,-0.462565,-17.426025
11.185,2.0,1.0,1.0,34.0,34.0,34.0,1.5,2.5,2.7225,-0.09332695662324954,-0.12778050383923117,0.941657451774176,-0.053375146018424656,-0.47969,-17.172247
11.185,2.0,1.0,1.0,34.0,34.0,34.0,1.5,2.5,2.725,-0.11016346431439254,-0.13052657051477526,0.9378501723035501,-0.05752342558595678,-0.497818,-16.915182
11.185,2.0,1.0,1.0,34.0,34.0,34.0,1.5,2.5,2.7275,-0.12718141870538957,-0.13329964161353636,0.9335889104609997,-0.06192544482905927,-0.517028,-16.654748
11.185,2.0,1.0,1.0,34.0,34.0,34.0,1.5,2.5,2.73,-0.14437545574741845,-0.13609422767721227,0.9288502101809759,-0.0665980356404301,-0.537409,-16.390861
11.185,2.0,1.0,1.0,34.0,34.0,34.0,1.5,2.5,2.7325,-0.16173905887580003,-0.13890380083205286,0.9236092050642256,-0.07155923009519205,-0.559057,-16.123435
11.185,2.0,1.0,1.0,34.0,34.0,34.0,1.5,2.5,2.735,-0.17926439191895072,-0.14172063633379325,0.9178395322425515,-0.07682834007132976,-0.582078,-15.852383
11.185,2.0,1.0,1.0,34.0,34.0,34.0,1.5,2.5,2.7375,-0.19694210746885227,-0.14453563015165574,0.9115132443468064,-0.08242603857751843,-0.606592,-15.577617
11.185,2.0,1.0,1.0,34.0,34.0,34.0,1.5,2.5,2.74,-0.21476112701732197,-0.14733808894117553,0.9046007208257815,-0.08837444153741736,-0.632728,-15.299049
11.185,2.0,1.0,1.0,34.0,34.0,34.0,1.5,2.5,2.7425,-0.2327083886242804,-0.1501154882224208,0.8970705803515094,-0.09469718829251438,-0.660631,-15.016589
11.185,2.0,1.0,1.0,34.0,34.0,34.0,1.5,2.5,2.745,-0.2507685572833146,-0.1528531939849636,0.8888895966771285,-0.10141951845630279,-0.690461,-14.730147
11.185,2.0,1.0,1.0,34.0,34.0,34.0,1.5,2.5,2.7475,-0.2689236924869092,-0.15553414228443851,0.8800226211247798,-0.10856834194310883,-0.722398,-14.439635
11.185,2.0,1.0,1.0,34.0,34.0,34.0,1.5,2.5,2.75,-0.287152866773836,-0.158138470683004,0.870432515920421,-0.116172297958054,-0.756641,-14.144966
11.185,2.0,1.0,1.0,34.0,34.0,34.0,1.5,2.5,2.7525,-0.3054317282768026,-0.1606430946299384,0.8600801039187664,-0.1242617974119319,-0.793413,-13.846055
11.185,2.0,1.0,1.0,34.0,34.0,34.0,1.5,2.5,2.755,-0.32373199950246234,-0.16302122110208805,0.848924141946891,-0.13286904154429718,-0.832963,-13.542821
11.185,2.0,1.0,1.0,34.0,34.0,34.0,1.5,2.5,2.7575,-0.3420209038072773,-0.16524179106582232,0.8369213271275454,-0.1420280074121812,-0.875571,-13.235185
11.185,2.0,1.0,1.0,34.0,34.0,34.0,1.5,2.5,2.76,-0.36026051034273765,-0.1672688416440821,0.8240263482289555,-0.1517743882249538,-0.921551,-12.923078
11.185,2.0,1.0,1.0,34.0,34.0,34.0,1.5,2.5,2.7625,-0.378406987726324,-0.16906077836798333,0.8101919974523277,-0.1621454731531221,-0.971256,-12.606437
11.185,2.0,1.0,1.0,34.0,34.0,34.0,1.5,2.5,2.765,-0.39640975648956295,-0.17056954770144722,0.7953693622574124,-0.17317994706528683,-1.025087,-12.285208
11.185,2.0,1.0,1.0,34.0,34.0,34.0,1.5,2.5,2.7675,-0.4142105306637914,-0.17173970035154426,0.7795081220036228,-0.18491758549056006,-1.083492,-11.959353
11.185,2.0,1.0,1.0,34.0,34.0,34.0,1.5,2.5,2.77,-0.43174223997653566,-0.17250733700427734,0.762556980525179,-0.1973988137892317,-1.146984,-11.628848
11.185,2.0,1.0,1.0,34.0,34.0,34.0,1.5,2.5,2.7725,-0.4489278264497206,-0.17279893045807396,0.7444642734373098,-0.21066409186992474,-1.216142,-11.293689
11.185,2.0,1.0,1.0,34.0,34.0,34.0,1.5,2.5,2.775,-0.4656789132717446,-0.17253002221953748,0.7251787981345694,-0.2247530766709219,-1.291625,-10.953896
11.185,2.0,1.0,1.0,34.0,34.0,34.0,1.5,2.5,2.7775,-0.4818943504101951,-0.17160379822743835,0.7046509251714661,-0.2397035039490918,-1.374184,-10.609521
11.185,2.0,1.0,1.0,34.0,34.0,34.0,1.5,2.5,2.78,-0.49745865153769087,-0.16990955847466196,0.6828340619529922,-0.25554971875084076,-1.464676,-10.260648
11.185,2.0,1.0,1.0,34.0,34.0,34.0,1.5,2.5,2.7825,-0.5122403517500491,-0.1673211101889831,0.6596865531090661,-0.27232077057685994,-1.564081,-9.907406
11.185,2.0,1.0,1.0,34.0,34.0,34.0,1.5,2.5,2.785,-0.5260903368841564,-0.16369513552488069,0.6351741158814942,-0.29003797539809106,-1.673524,-9.549975
11.185,2.0,1.0,1.0,34.0,34.0,34.0,1.5,2.5,2.7875,-0.5388402249445976,-0.15886961435284264,0.6092729219849633,-0.3087118336641451,-1.794293,-9.188596
11.185,2.0,1.0,1.0,34.0,34.0,34.0,1.5,2.5,2.79,-0.5503009204394765,-0.15266242291264961,0.5819734474386695,-0.32833818354015065,-1.92787,-8.823583
11.185,2.0,1.0,1.0,34.0,34.0,34.0,1.5,2.5,2.7925,-0.5602615155858646,-0.14487028208567887,0.5532852151717229,-0.34889346543721655,-2.075961,-8.455333
11.185,2.0,1.0,1.0,34.0,34.0,34.0,1.5,2.5,2.795,-0.568488780292409,-0.13526829673788407,0.5232425462991921,-0.3703289829343188,-2.240531,-8.084342
11.185,2.0,1.0,1.0,34.0,34.0,34.0,1.5,2.5,2.7975,-0.574727566349531,-0.12361041075756427,0.4919114069865705,-0.3925640742599897,-2.423849,-7.711223
11.185,2.0,1.0,1.0,34.0,34.0,34.0,1.5,2.5,2.8,-0.5787025487406684,-0.10963119942587435,0.4593973781123943,-0.4154781682252449,-2.62853,-7.336716
11.185,2.0,1.0,1.0,34.0,34.0,34.0,1.5,2.5,2.8025,-0.5801218324801999,-0.09304952565249759,0.4258546710179043,-0.4389018022979717,-2.857595,-6.961713
11.185,2.0,1.0,1.0,34.0,34.0,34.0,1.5,2.5,2.805,-0.5786830539290936,-0.07357468643720116,0.3914959490013264,-0.4626068437961599,-3.114528,-6.587271
11.185,2.0,1.0,1.0,34.0,34.0,34.0,1.5,2.5,2.8075,-0.5740826779102627,-0.05091574749893483,0.35660247575295634,-0.4862963929656299,-3.403345,-6.214629
11.185,2.0,1.0,1.0,34.0,34.0,34.0,1.5,2.5,2.81,-0.5660291994013873,-0.024794770712459453,0.3215337887822048,-0.5095951687295326,-3.728667,-5.845225
11.185,2.0,1.0,1.0,34.0,34.0,34.0,1.5,2.5,2.8125,-0.554260849089432,0.00503547103485275,0.286735691793737,-0.532041580306943,-4.09579,-5.4807
11.185,2.0,1.0,1.0,34.0,34.0,34.0,1.5,2.5,2.815,-0.5385681105796881,0.03876898845726818,0.25274490435953395,-0.5530831412107363,-4.510758,-5.122905
11.185,2.0,1.0,1.0,34.0,34.0,34.0,1.5,2.5,2.8175,-0.5188208156321968,0.07651951735269377,0.2201882698672553,-0.5720773166699857,-4.980403,-4.773893
11.185,2.0,1.0,1.0,34.0,34.0,34.0,1.5,2.5,2.82,-0.4949987438153765,0.11828998202210002,0.1897741264248946,-0.5883001887669357,-5.51235,-4.435894
11.185,2.0,1.0,1.0,34.0,34.0,34.0,1.5,2.5,2.8225,-0.46722352154457497,0.1639406830004304,0.1622734679699725,-0.6009652983670664,-6.114894,-4.111282
11.185,2.0,1.0,1.0,34.0,34.0,34.0,1.5,2.5,2.825,-0.43578830219631265,0.21315971868382752,0.13848907496776905,-0.6092544695586228,-6.796653,-3.802515
11.185,2.0,1.0,1.0,34.0,34.0,34.0,1.5,2.5,2.8275,-0.40118046722690415,0.2654403846061841,0.11921206010511301,-0.6123611577625813,-7.565718,-3.512061
11.185,2.0,1.0,1.0,34.0,34.0,34.0,1.5,2.5,2.83,-0.36409182134224327,0.32007105313570616,0.10516731276760666,-0.609544829672914,-8.42776,-3.242305
