1,w,sub_t,h,l1,l2,l3,g1,g2,Freq,S11_re,S21_re,S11_img,S21_img,S11_dB,S21_dB
11.185,2.0,1.0,1.0,34.3,34.3,34.3,2.6,4.3,2.5,0.733633609706712,-0.0103033251103274,0.667797172412039,0.00462028408650368,-0.069293,-38.94471
11.185,2.0,1.0,1.0,34.3,34.3,34.3,2.6,4.3,2.5025,0.7283596860126552,-0.010490174861438445,0.6734169468598972,0.004596150693113315,-0.070057,-38.821709
11.185,2.0,1.0,1.0,34.3,34.3,34.3,2.6,4.3,2.505,0.7230140479252625,-0.010680166673347976,0.6790232488715189,0.004569924929046723,-0.070835,-38.698266
11.185,2.0,1.0,1.0,34.3,34.3,34.3,2.6,4.3,2.5075,0.7175959473152207,-0.010873359018000173,0.6846154569109428,0.004541532582180701,-0.071628,-38.574371
11.185,2.0,1.0,1.0,34.3,34.3,34.3,2.6,4.3,2.51,0.7121046261844789,-0.011069811634353556,0.6901929310448718,0.004510896733860132,-0.072436,-38.450014
11.185,2.0,1.0,1.0,34.3,34.3,34.3,2.6,4.3,2.5125,0.7065393166015344,-0.011269585557301311,0.6957550123729146,0.004477937647865747,-0.07326,-38.325188
11.185,2.0,1.0,1.0,34.3,34.3,34.3,2.6,4.3,2.515,0.7008992406404735,-0.011472743147172127,0.7013010224394914,0.004442572654223324,-0.074099,-38.199881
11.185,2.0,1.0,1.0,34.3,34.3,34.3,2.6,4.3,2.5175,0.6951836103240857,-0.011679348119811686,0.7068302626267412,0.004404716027580872,-0.074954,-38.074083
11.185,2.0,1.0,1.0,34.3,34.3,34.3,2.6,4.3,2.52,0.6893916275713529,-0.01188946557724517,0.7123420135277722,0.004364278859863682,-0.075826,-37.947785
11.185,2.0,1.0,1.0,34.3,34.3,34.3,2.6,4.3,2.5225,0.6835224841496741,-0.012103162038918067,0.7178355342995429,0.004321168926899709,-0.076715,-37.820977
11.185,2.0,1.0,1.0,34.3,34.3,34.3,2.6,4.3,2.525,0.677575361632167,-0.012320505473512522,0.7233100619946683,0.004275290548688547,-0.077621,-37.693647
11.185,2.0,1.0,1.0,34.3,34.3,34.3,2.6,4.3,2.5275,0.6715494313604239,-0.012541565331333042,0.7287648108713826,0.00422654444296692,-0.078546,-37.565786
11.185,2.0,1.0,1.0,34.3,34.3,34.3,2.6,4.3,2.53,0.6654438544131286,-0.012766412577254155,0.7341989716808689,0.004174827571702511,-0.079488,-37.437382
11.185,2.0,1.0,1.0,34.3,34.3,34.3,2.6,4.3,2.5325,0.6592577815809533,-0.012995119724219715,0.7396117109311476,0.004120032980124072,-0.08045,-37.308426
11.185,2.0,1.0,1.0,34.3,34.3,34.3,2.6,4.3,2.535,0.6529903533481644,-0.013227760867281285,0.745002170126656,0.004062049627871246,-0.08143,-37.178904
11.185,2.0,1.0,1.0,34.3,34.3,34.3,2.6,4.3,2.5375,0.6466406998814317,-0.013464411718159269,0.7503694649826304,0.004000762211821109,-0.082431,-37.048807
11.185,2.0,1.0,1.0,34.3,34.3,34.3,2.6,4.3,2.54,0.6402079410263104,-0.013705149640307642,0.7557126846133616,0.0039360509801189365,-0.083452,-36.918122
11.185,2.0,1.0,1.0,34.3,34.3,34.3,2.6,4.3,2.5425,0.6336911863119294,-0.013950053684459507,0.7610308906933496,0.0038677915369112127,-0.084494,-36.786837
11.185,2.0,1.0,1.0,34.3,34.3,34.3,2.6,4.3,2.545,0.6270895349644323,-0.01419920462462542,0.7663231165903374,0.0037958546372452197,-0.085558,-36.654941
11.185,2.0,1.0,1.0,34.3,34.3,34.3,2.6,4.3,2.5475,0.6204020759297574,-0.014452684994512556,0.7715883664691633,0.003720105971563988,-0.086643,-36.522422
11.185,2.0,1.0,1.0,34.3,34.3,34.3,2.6,4.3,2.55,0.6136278879063535,-0.014710579124327546,0.776825614365325,0.0036404059391878163,-0.087752,-36.389266
11.185,2.0,1.0,1.0,34.3,34.3,34.3,2.6,4.3,2.5525,0.6067660393885076,-0.014972973177918611,0.7820338032270809,0.0035566094101324706,-0.088883,-36.255461
11.185,2.0,1.0,1.0,34.3,34.3,34.3,2.6,4.3,2.555,0.5998155887209298,-0.015239955190207797,0.7872118439248774,0.0034685654745695797,-0.090039,-36.120993
11.185,2.0,1.0,1.0,34.3,34.3,34.3,2.6,4.3,2.5575,0.592775584165343,-0.01551161510485511,0.792358614226825,0.0033761171791882013,-0.091219,-35.98585
11.185,2.0,1.0,1.0,34.3,34.3,34.3,2.6,4.3,2.56,0.5856450639798269,-0.015788044812088776,0.7974729577388798,0.003279101249664186,-0.092425,-35.850018
11.185,2.0,1.0,1.0,34.3,34.3,34.3,2.6,4.3,2.5625,0.5784230565117203,-0.016069338186626612,0.802553682808324,0.0031773477983898426,-0.093657,-35.713483
11.185,2.0,1.0,1.0,34.3,34.3,34.3,2.6,4.3,2.565,0.5711085803049262,-0.01635559112560279,0.8075995613890712,0.0030706800165560904,-0.094915,-35.57623
11.185,2.0,1.0,1.0,34.3,34.3,34.3,2.6,4.3,2.5675,0.5637006442225209,-0.01664690158640288,0.8126093278672424,0.002958913849615415,-0.096201,-35.438246
11.185,2.0,1.0,1.0,34.3,34.3,34.3,2.6,4.3,2.57,0.5561982475856065,-0.0169433696242974,0.8175816778453715,0.0028418576550840358,-0.097516,-35.299514
11.185,2.0,1.0,1.0,34.3,34.3,34.3,2.6,4.3,2.5725,0.5486003803294088,-0.01724509742974907,0.8225152668835384,0.002719311841567022,-0.09886,-35.160021
11.185,2.0,1.0,1.0,34.3,34.3,34.3,2.6,4.3,2.575,0.5409060231776701,-0.017552189365253705,0.827408709195596,0.0025910684878083685,-0.100234,-35.01975
11.185,2.0,1.0,1.0,34.3,34.3,34.3,2.6,4.3,2.5775,0.5331141478364628,-0.017864752001555382,0.8322605762985931,0.0024569109404800776,-0.10164,-34.878685
11.185,2.0,1.0,1.0,34.3,34.3,34.3,2.6,4.3,2.58,0.5252237172085986,-0.018182894153057648,0.8370693956133658,0.002316613389329688,-0.103077,-34.73681
11.185,2.0,1.0,1.0,34.3,34.3,34.3,2.6,4.3,2.5825,0.5172336856298776,-0.01850672691222945,0.8418336490141698,0.002169940418200584,-0.104547,-34.594108
11.185,2.0,1.0,1.0,34.3,34.3,34.3,2.6,4.3,2.585,0.5091429991285098,-0.01883636368277857,0.8465517713250927,0.002016646530329595,-0.106051,-34.450562
11.185,2.0,1.0,1.0,34.3,34.3,34.3,2.6,4.3,2.5875,0.5009505957090953,-0.01917192021133846,0.8512221487608591,0.001856475646202292,-0.107591,-34.306155
11.185,2.0,1.0,1.0,34.3,34.3,34.3,2.6,4.3,2.59,0.49265540566266064,-0.019513514617381374,0.8558431173094925,0.0016891605721158398,-0.109166,-34.160869
11.185,2.0,1.0,1.0,34.3,34.3,34.3,2.6,4.3,2.5925,0.48425635190430855,-0.01986126742103585,0.8604129610541473,0.0015144224374546039,-0.110779,-34.014684
11.185,2.0,1.0,1.0,34.3,34.3,34.3,2.6,4.3,2.595,0.4757523503401683,-0.02021530156844674,0.8649299104312522,0.00133197009852745,-0.112431,-33.867582
11.185,2.0,1.0,1.0,34.3,34.3,34.3,2.6,4.3,2.5975,0.4671423102653987,-0.020575742454271094,0.8693921404219319,0.001141499506644929,-0.114122,-33.719544
11.185,2.0,1.0,1.0,34.3,34.3,34.3,2.6,4.3,2.6,0.4584251347951299,-0.020942717940853728,0.8737977686734698,0.0009426930379295621,-0.115855,-33.570549
11.185,2.0,1.0,1.0,34.3,34.3,34.3,2.6,4.3,2.6025,0.4495997213303599,-0.02131635837356848,0.8781448535473633,0.0007352187821494308,-0.11763,-33.420576
11.185,2.0,1.0,1.0,34.3,34.3,34.3,2.6,4.3,2.605,0.44066496206090916,-0.02169679659174997,0.8824313920902951,0.0005187297876440801,-0.119448,-33.269606
11.185,2.0,1.0,1.0,34.3,34.3,34.3,2.6,4.3,2.6075,0.4316197445077203,-0.022084167934567467,0.886655317924086,0.0002928632591714133,-0.121313,-33.117615
11.185,2.0,1.0,1.0,34.3,34.3,34.3,2.6,4.3,2.61,0.42246295210691465,-0.022478610241113302,0.8908144990504222,5.7239705239483184e-05,-0.123224,-32.964583
11.185,2.0,1.0,1.0,34.3,34.3,34.3,2.6,4.3,2.6125,0.4131934648381885,-0.022880263843888186,0.8949067355658529,-0.0001885379688014036,-0.125183,-32.810485
11.185,2.0,1.0,1.0,34.3,34.3,34.3,2.6,4.3,2.615,0.4038101599002946,-0.023289271554763076,0.8989297572822188,-0.00044488542594599333,-0.127193,-32.655297
11.185,2.0,1.0,1.0,34.3,34.3,34.3,2.6,4.3,2.6175,0.39431191243658215,-0.023705778642383296,0.9028812212473292,-0.0007122379253874839,-0.129255,-32.498997
11.185,2.0,1.0,1.0,34.3,34.3,34.3,2.6,4.3,2.62,0.38469759631374206,-0.024129932799849887,0.9067587091602901,-0.0009910514178031176,-0.131371,-32.341558
11.185,2.0,1.0,1.0,34.3,34.3,34.3,2.6,4.3,2.6225,0.3749660849571467,-0.024561884101368246,0.9105597246754902,-0.0012818037132546185,-0.133543,-32.182955
11.185,2.0,1.0,1.0,34.3,34.3,34.3,2.6,4.3,2.625,0.365116252246449,-0.0250017849463859,0.914281690588738,-0.00158499572734319,-0.135772,-32.023161
11.185,2.0,1.0,1.0,34.3,34.3,34.3,2.6,4.3,2.6275,0.3551469734753414,-0.025449789989556635,0.9179219458985736,-0.0019011528117638928,-0.138062,-31.862148
11.185,2.0,1.0,1.0,34.3,34.3,34.3,2.6,4.3,2.63,0.3450571263797138,-0.025906056054652616,0.9214777427351757,-0.002230826175955071,-0.140414,-31.699889
11.185,2.0,1.0,1.0,34.3,34.3,34.3,2.6,4.3,2.6325,0.33484559223878174,-0.026370742030307457,0.9249462431486705,-0.0025745944071509895,-0.14283,-31.536353
11.185,2.0,1.0,1.0,34.3,34.3,34.3,2.6,4.3,2.635,0.3245112570541114,-0.026844008745197948,0.9283245157479703,-0.0029330650968161535,-0.145313,-31.371512
11.185,2.0,1.0,1.0,34.3,34.3,34.3,2.6,4.3,2.6375,0.3140530128119192,-0.027326018819961342,0.9316095321804874,-0.0033068765821824,-0.147866,-31.205332
11.185,2.0,1.0,1.0,34.3,34.3,34.3,2.6,4.3,2.64,0.303469758834432,-0.027816936492792797,0.9347981634422616,-0.003696699812428557,-0.150492,-31.037784
11.185,2.0,1.0,1.0,34.3,34.3,34.3,2.6,4.3,2.6425,0.2927604032266598,-0.02831692741526231,0.9378871760070822,-0.004103240349948013,-0.153192,-30.868832
11.185,2.0,1.0,1.0,34.3,34.3,34.3,2.6,4.3,2.645,0.2819238644254762,-0.02882615841443385,0.9408732277621727,-0.004527240518150478,-0.155971,-30.698443
11.185,2.0,1.0,1.0,34.3,34.3,34.3,2.6,4.3,2.6475,0.27095907285855786,-0.02934479721684294,0.9437528637368788,-0.004969481708354389,-0.158832,-30.52658
11.185,2.0,1.0,1.0,34.3,34.3,34.3,2.6,4.3,2.65,0.25986497272142606,-0.029873012129294194,0.9465225116095269,-0.005430786859555671,-0.161777,-30.353208
11.185,2.0,1.0,1.0,34.3,34.3,34.3,2.6,4.3,2.6525,0.24864052388171656,-0.030410971670750436,0.9491784769762216,-0.005912023126221068,-0.164811,-30.178287
11.185,2.0,1.0,1.0,34.3,34.3,34.3,2.6,4.3,2.655,0.2372847039206181,-0.030958844148807244,0.9517169383638091,-0.006414104750772739,-0.167937,-30.001778
11.185,2.0,1.0,1.0,34.3,34.3,34.3,2.6,4.3,2.6575,0.22579651032254677,-0.03151679717334326,0.9541339419674975,-0.006937996159111253,-0.171159,-29.82364
11.185,2.0,1.0,1.0,34.3,34.3,34.3,2.6,4.3,2.66,0.21417496282523518,-0.03208499709890886,0.9564253960916895,-0.007484715299401494,-0.174482,-29.64383
11.185,2.0,1.0,1.0,34.3,34.3,34.3,2.6,4.3,2.6625,0.20241910594379056,-0.032663608386227776,0.9585870652704609,-0.008055337246430243,-0.177909,-29.462304
11.185,2.0,1.0,1.0,34.3,34.3,34.3,2.6,4.3,2.665,0.19052801168374112,-0.03325279287182442,0.9606145640417058,-0.00865099809617579,-0.181446,-29.279016
11.185,2.0,1.0,1.0,34.3,34.3,34.3,2.6,4.3,2.6675,0.17850078245988946,-0.0338527089332151,0.9625033503462983,-0.009272899177822841,-0.185097,-29.093919
11.185,2.0,1.0,1.0,34.3,34.3,34.3,2.6,4.3,2.67,0.16633655423969554,-0.034463510535290454,0.9642487185206435,-0.009922311613362562,-0.188869,-28.906963
11.185,2.0,1.0,1.0,34.3,34.3,34.3,2.6,4.3,2.6725,0.15403449993222793,-0.035085346141417936,0.9658457918476305,-0.01060058125815976,-0.192766,-28.718096
11.185,2.0,1.0,1.0,34.3,34.3,34.3,2.6,4.3,2.675,0.14159383304631976,-0.035718357470367855,0.9672895146272645,-0.01130913405950358,-0.196794,-28.527265
11.185,2.0,1.0,1.0,34.3,34.3,34.3,2.6,4.3,2.6775,0.1290138116445404,-0.03636267807735577,0.9685746437240499,-0.0120494818742281,-0.20096,-28.334413
11.185,2.0,1.0,1.0,34.3,34.3,34.3,2.6,4.3,2.68,0.11629374262307662,-0.037018431734230556,0.9696957395434793,-0.012823228791056128,-0.205272,-28.139484
11.185,2.0,1.0,1.0,34.3,34.3,34.3,2.6,4.3,2.6825,0.10343298635160797,-0.03768573058004243,0.9706471563846881,-0.013632078008442928,-0.209735,-27.942415
11.185,2.0,1.0,1.0,34.3,34.3,34.3,2.6,4.3,2.685,0.09043096171188228,-0.03836467300880973,0.9714230321103904,-0.014477839324460947,-0.214358,-27.743145
11.185,2.0,1.0,1.0,34.3,34.3,34.3,2.6,4.3,2.6875,0.0772871515790879,-0.0390553412561494,0.972017277068479,-0.0153624373017436,-0.21915,-27.541607
11.185,2.0,1.0,1.0,34.3,34.3,34.3,2.6,4.3,2.69,0.06400110879638544,-0.03975779864041584,0.9724235621921661,-0.016287920177801393,-0.224119,-27.337733
11.185,2.0,1.0,1.0,34.3,34.3,34.3,2.6,4.3,2.6925,0.05057246270022365,-0.04047208640695093,0.97263530619698,-0.01725646959924907,-0.229274,-27.13145
11.185,2.0,1.0,1.0,34.3,34.3,34.3,2.6,4.3,2.695,0.03700092626266241,-0.041198220115782856,0.9726456617833822,-0.018270411267748025,-0.234627,-26.922684
11.185,2.0,1.0,1.0,34.3,34.3,34.3,2.6,4.3,2.6975,0.02328630392681928,-0.04193618550341555,0.972447500742874,-0.019332226595942435,-0.240187,-26.711357
11.185,2.0,1.0,1.0,34.3,34.3,34.3,2.6,4.3,2.7,0.009428500223385062,-0.042685933737928866,0.9720333978532558,-0.0204445654834844,-0.245968,-26.497386
11.185,2.0,1.0,1.0,34.3,34.3,34.3,2.6,4.3,2.7025,-0.004572470730142912,-0.043447375973150855,0.9713956134348176,-0.02161026033661028,-0.251981,-26.280685
11.185,2.0,1.0,1.0,34.3,34.3,34.3,2.6,4.3,2.705,-0.01871647472953024,-0.04422037709176038,0.9705260744235807,-0.02283234146984721,-0.258241,-26.061165
11.185,2.0,1.0,1.0,34.3,34.3,34.3,2.6,4.3,2.7075,-0.03300324584604323,-0.045004748508353454,0.9694163537999825,-0.02411405404553263,-0.264762,-25.838731
11.185,2.0,1.0,1.0,34.3,34.3,34.3,2.6,4.3,2.71,-0.047432373490912845,-0.04580023988117425,0.9680576481912953,-0.025458876726193264,-0.271562,-25.613285
11.185,2.0,1.0,1.0,34.3,34.3,34.3,2.6,4.3,2.7125,-0.06200328799512407,-0.0466065295546677,0.9664407534433487,-0.026870542236758464,-0.278656,-25.384723
11.185,2.0,1.0,1.0,34.3,34.3,34.3,2.6,4.3,2.715,-0.07671524448545977,-0.04742321352338182,0.9645560379313814,-0.028353060058404125,-0.286065,-25.152935
11.185,2.0,1.0,1.0,34.3,34.3,34.3,2.6,4.3,2.7175,-0.09156730479943097,-0.048249792669986594,0.9623934133506643,-0.029910741503933434,-0.293809,-24.917808
11.185,2.0,1.0,1.0,34.3,34.3,34.3,2.6,4.3,2.72,-0.1065583171358859,-0.04908565798497917,0.9599423026946018,-0.03154822745639633,-0.30191,-24.679221
11.185,2.0,1.0,1.0,34.3,34.3,34.3,2.6,4.3,2.7225,-0.12168689308324508,-0.04993007342143575,0.9571916050906626,-0.03327051908861284,-0.310394,-24.437048
11.185,2.0,1.0,1.0,34.3,34.3,34.3,2.6,4.3,2.725,-0.1369513816012713,-0.050782155972971074,0.9541296571224136,-0.03508301192185034,-0.319286,-24.191155
11.185,2.0,1.0,1.0,34.3,34.3,34.3,2.6,4.3,2.7275,-0.15234983945295535,-0.051640852484491434,0.9507441902184174,-0.036991533627676855,-0.328617,-23.941402
11.185,2.0,1.0,1.0,34.3,34.3,34.3,2.6,4.3,2.73,-0.1678799974870766,-0.05250491261035306,0.9470222836353773,-0.039002386028440195,-0.338419,-23.687641
11.185,2.0,1.0,1.0,34.3,34.3,34.3,2.6,4.3,2.7325,-0.18353922205596016,-0.053372857219487875,0.9429503125030307,-0.041122391809469874,-0.348727,-23.429716
11.185,2.0,1.0,1.0,34.3,34.3,34.3,2.6,4.3,2.735,-0.19932447071193224,-0.05424294140729786,0.9385138903315308,-0.043358946520368306,-0.35958,-23.167462
11.185,2.0,1.0,1.0,34.3,34.3,34.3,2.6,4.3,2.7375,-0.2152322411544503,-0.05511311110389996,0.9336978053079285,-0.04572007651400497,-0.371022,-22.900706
11.185,2.0,1.0,1.0,34.3,34.3,34.3,2.6,4.3,2.74,-0.23125851219045682,-0.05598095206043966,0.9284859496268554,-0.048214503550124084,-0.3831,-22.629263
11.185,2.0,1.0,1.0,34.3,34.3,34.3,2.6,4.3,2.7425,-0.24739867521427972,-0.056843629740647696,0.922861241011717,-0.05085171687556547,-0.395868,-22.352938
11.185,2.0,1.0,1.0,34.3,34.3,34.3,2.6,4.3,2.745,-0.2636474543988824,-0.05769781833226968,0.9168055354875666,-0.053642053684074466,-0.409384,-22.071527
11.185,2.0,1.0,1.0,34.3,34.3,34.3,2.6,4.3,2.7475,-0.2799988134032596,-0.0585396167081763,0.9102995303669806,-0.05659678895376346,-0.423714,-21.78481
11.185,2.0,1.0,1.0,34.3,34.3,34.3,2.6,4.3,2.75,-0.296445845923178,-0.0593644486918423,0.903322656308837,-0.0597282357562594,-0.438931,-21.492558
11.185,2.0,1.0,1.0,34.3,34.3,34.3,2.6,4.3,2.7525,-0.312980646821429,-0.060166944393677584,0.8958529572121982,-0.06304985722312056,-0.455117,-21.194525
11.185,2.0,1.0,1.0,34.3,34.3,34.3,2.6,4.3,2.755,-0.32959415984043877,-0.06094079865454369,0.8878669566216758,-0.06657639143380405,-0.472366,-20.890451
11.185,2.0,1.0,1.0,34.3,34.3,34.3,2.6,4.3,2.7575,-0.34627599698783057,-0.06167860172407259,0.8793395092597308,-0.07032399054227471,-0.49078,-20.580062
11.185,2.0,1.0,1.0,34.3,34.3,34.3,2.6,4.3,2.76,-0.36301422354764645,-0.06237163616763486,0.870243636284932,-0.07431037546642706,-0.510478,-20.263064
11.185,2.0,1.0,1.0,34.3,34.3,34.3,2.6,4.3,2.7625,-0.3797951012476579,-0.06300963257796861,0.8605503429327046,-0.07855500739615856,-0.531592,-19.939148
11.185,2.0,1.0,1.0,34.3,34.3,34.3,2.6,4.3,2.765,-0.396602780331229,-0.06358047489069184,0.8502284173706395,-0.08307927718787948,-0.554275,-19.607984
11.185,2.0,1.0,1.0,34.3,34.3,34.3,2.6,4.3,2.7675,-0.41341892904596395,-0.06406984387233336,0.8392442099590205,-0.08790671334001708,-0.578698,-19.269222
11.185,2.0,1.0,1.0,34.3,34.3,34.3,2.6,4.3,2.77,-0.43022228625095044,-0.064460784545497,0.8275613927449963,-0.09306320858916022,-0.605062,-18.922491
11.185,2.0,1.0,1.0,34.3,34.3,34.3,2.6,4.3,2.7725,-0.4469881193096649,-0.06473317978813696,0.8151407000771207,-0.09857726408792922,-0.633592,-18.567396
11.185,2.0,1.0,1.0,34.3,34.3,34.3,2.6,4.3,2.775,-0.4636875649898385,-0.06486310790607017,0.8019396529133059,-0.10448024841518377,-0.664553,-18.203521
11.185,2.0,1.0,1.0,34.3,34.3,34.3,2.6,4.3,2.7775,-0.4802868255058538,-0.06482205640094382,0.7879122720142124,-0.11080666602118153,-0.698249,-17.830424
11.185,2.0,1.0,1.0,34.3,34.3,34.3,2.6,4.3,2.78,-0.4967461848390277,-0.06457595716553749,0.7730087892122521,-0.11759442567690297,-0.735035,-17.447636
11.185,2.0,1.0,1.0,34.3,34.3,34.3,2.6,4.3,2.7825,-0.5130188017385071,-0.06408399961681413,0.7571753719782213,-0.12488509342158968,-0.775326,-17.054666
11.185,2.0,1.0,1.0,34.3,34.3,34.3,2.6,4.3,2.785,-0.5290492249940546,-0.06329716747843869,0.740353885531608,-0.13272410542467036,-0.819608,-16.650997
11.185,2.0,1.0,1.0,34.3,34.3,34.3,2.6,4.3,2.7875,-0.5447715633463028,-0.06215643171402328,0.722481730158882,-0.14116090269214437,-0.868456,-16.236088
11.185,2.0,1.0,1.0,34.3,34.3,34.3,2.6,4.3,2.79,-0.5601072265240187,-0.06059051625503791,0.703491811262188,-0.15024892960281222,-0.922551,-15.809377
11.185,2.0,1.0,1.0,34.3,34.3,34.3,2.6,4.3,2.7925,-0.5749621354098454,-0.05851313470396076,0.6833127289320162,-0.1600454088767792,-0.982705,-15.370285
11.185,2.0,1.0,1.0,34.3,34.3,34.3,2.6,4.3,2.795,-0.5892232788851675,-0.05581957577693769,0.6618693168131188,-0.1706107624566709,-1.049893,-14.918225
11.185,2.0,1.0,1.0,34.3,34.3,34.3,2.6,4.3,2.7975,-0.6027544743692044,-0.05238249476647334,0.6390837228430031,-0.1820074847789028,-1.125284,-14.452608
11.185,2.0,1.0,1.0,34.3,34.3,34.3,2.6,4.3,2.8,-0.6153911726666371,-0.048046751985264306,0.6148773156916225,-0.19429818340601293,-1.210301,-13.972861
11.185,2.0,1.0,1.0,34.3,34.3,34.3,2.6,4.3,2.8025,-0.6269341439840135,-0.04262313553164195,0.5891738321725282,-0.20754237020626698,-1.306672,-13.478449
11.185,2.0,1.0,1.0,34.3,34.3,34.3,2.6,4.3,2.805,-0.6371419070223404,-0.035880830987476874,0.5619043678524621,-0.221791398852415,-1.416515,-12.968905
11.185,2.0,1.0,1.0,34.3,34.3,34.3,2.6,4.3,2.8075,-0.6457218462767725,-0.02753858426078393,0.5330150739109631,-0.23708068298247648,-1.542437,-12.443871
11.185,2.0,1.0,1.0,34.3,34.3,34.3,2.6,4.3,2.81,-0.6523201555959338,-0.017254697347714402,0.5024787762393413,-0.25341797564680496,-1.687661,-11.903164
11.185,2.0,1.0,1.0,34.3,34.3,34.3,2.6,4.3,2.8125,-0.656511135735329,-0.00461638755148478,0.470312186778787,-0.27076603568918,-1.856189,-11.346854
11.185,2.0,1.0,1.0,34.3,34.3,34.3,2.6,4.3,2.815,-0.657787100580469,0.010870230562862107,0.43660090986975475,-0.2890174728404539,-2.052999,-10.775379
11.185,2.0,1.0,1.0,34.3,34.3,34.3,2.6,4.3,2.8175,-0.6555514230263297,0.02978700195166597,0.40153495738129635,-0.30795905128686896,-2.284287,-10.189699
11.185,2.0,1.0,1.0,34.3,34.3,34.3,2.6,4.3,2.82,-0.6491193631514454,0.05280277180242585,0.3654577058791945,-0.32722251157650406,-2.557733,-9.591497
11.185,2.0,1.0,1.0,34.3,34.3,34.3,2.6,4.3,2.8225,-0.6377345700970006,0.08065669965039897,0.32893056134340326,-0.3462196398451788,-2.882765,-8.983438
11.185,2.0,1.0,1.0,34.3,34.3,34.3,2.6,4.3,2.825,-0.6206136345766592,0.11411344137530922,0.29281289678551803,-0.3640620189048789,-3.270707,-8.369489
11.185,2.0,1.0,1.0,34.3,34.3,34.3,2.6,4.3,2.8275,-0.5970361306259193,0.15387272098211796,0.2583502065646824,-0.37947253052842267,-3.734574,-7.755285
