1,w,sub_t,h,l1,l2,l3,g1,g2,Freq,S11_re,S21_re,S11_img,S21_img,S11_dB,S21_dB
11.185,2.0,1.0,1.0,33.5,34.7,34.7,3.4,4.3,2.5,0.846954981846437,-0.00637083529064047,0.518895517612112,0.00419174892420608,-0.058654,-42.353883
11.185,2.0,1.0,1.0,33.5,34.7,34.7,3.4,4.3,2.5025,0.8434111469669046,-0.006504918124422729,0.5245024830745056,0.00420811839840399,-0.05927,-42.216879
11.185,2.0,1.0,1.0,33.5,34.7,34.7,3.4,4.3,2.505,0.8398136127721528,-0.006641826277378558,0.5301088676598522,0.004223906712426957,-0.059899,-42.079219
11.185,2.0,1.0,1.0,33.5,34.7,34.7,3.4,4.3,2.5075,0.8361618039023743,-0.006781639047593511,0.5357144260395398,0.0042390861535175585,-0.060542,-41.940883
11.185,2.0,1.0,1.0,33.5,34.7,34.7,3.4,4.3,2.51,0.8324551339987253,-0.006924438835381122,0.5413189051289622,0.004253627710721313,-0.061197,-41.80185
11.185,2.0,1.0,1.0,33.5,34.7,34.7,3.4,4.3,2.5125,0.8286930054123722,-0.007070311299621749,0.5469220438099364,0.004267501001426436,-0.061866,-41.662101
11.185,2.0,1.0,1.0,33.5,34.7,34.7,3.4,4.3,2.515,0.8248748089014823,-0.00721934552371729,0.5525235726416643,0.004280674192906524,-0.062549,-41.521614
11.185,2.0,1.0,1.0,33.5,34.7,34.7,3.4,4.3,2.5175,0.8209999233154209,-0.007371634191857717,0.5581232135596098,0.004293113918465267,-0.063247,-41.380368
11.185,2.0,1.0,1.0,33.5,34.7,34.7,3.4,4.3,2.52,0.8170677152653275,-0.007527273776354345,0.5637206795616408,0.004304785187746504,-0.06396,-41.23834
11.185,2.0,1.0,1.0,33.5,34.7,34.7,3.4,4.3,2.5225,0.813077538780212,-0.007686364736856927,0.5693156743806962,0.004315651290732118,-0.064688,-41.095508
11.185,2.0,1.0,1.0,33.5,34.7,34.7,3.4,4.3,2.525,0.8090287349476033,-0.0078490117323424,0.5749078921432323,0.00432567369490505,-0.065432,-40.951847
11.185,2.0,1.0,1.0,33.5,34.7,34.7,3.4,4.3,2.5275,0.8049206315377262,-0.008015323846838234,0.5804970170126094,0.004334811935005373,-0.066193,-40.807335
11.185,2.0,1.0,1.0,33.5,34.7,34.7,3.4,4.3,2.53,0.8007525426100949,-0.008185414829927112,0.5860827228165174,0.004343023494751132,-0.066971,-40.661946
11.185,2.0,1.0,1.0,33.5,34.7,34.7,3.4,4.3,2.5325,0.7965237681013045,-0.008359403353171382,0.5916646726574853,0.004350263679836965,-0.067767,-40.515654
11.185,2.0,1.0,1.0,33.5,34.7,34.7,3.4,4.3,2.535,0.7922335933927049,-0.008537413283696376,0.5972425185054216,0.0043564854814523634,-0.068581,-40.368433
11.185,2.0,1.0,1.0,33.5,34.7,34.7,3.4,4.3,2.5375,0.7878812888565291,-0.008719573976282166,0.6028159007710571,0.0043616394294896015,-0.069414,-40.220256
11.185,2.0,1.0,1.0,33.5,34.7,34.7,3.4,4.3,2.54,0.7834661093789171,-0.00890602058543571,0.608384447859058,0.004365673434524508,-0.070266,-40.071095
11.185,2.0,1.0,1.0,33.5,34.7,34.7,3.4,4.3,2.5425,0.778987293858127,-0.009096894399049416,0.613947775699481,0.004368532617562022,-0.071139,-39.92092
11.185,2.0,1.0,1.0,33.5,34.7,34.7,3.4,4.3,2.545,0.7744440646760961,-0.009292343195400529,0.6195054872561094,0.0043701591264334394,-0.072033,-39.769702
11.185,2.0,1.0,1.0,33.5,34.7,34.7,3.4,4.3,2.5475,0.7698356271413228,-0.009492521625409124,0.6250571720100917,0.00437049193761589,-0.072948,-39.617409
11.185,2.0,1.0,1.0,33.5,34.7,34.7,3.4,4.3,2.55,0.7651611689008514,-0.009697591622254389,0.6306024054171573,0.004369466642114936,-0.073886,-39.46401
11.185,2.0,1.0,1.0,33.5,34.7,34.7,3.4,4.3,2.5525,0.7604198593189615,-0.009907722840647521,0.6361407483365099,0.00436701521390611,-0.074847,-39.309472
11.185,2.0,1.0,1.0,33.5,34.7,34.7,3.4,4.3,2.555,0.7556108488198975,-0.010123093128283276,0.6416717464293402,0.004363065759266923,-0.075833,-39.15376
11.185,2.0,1.0,1.0,33.5,34.7,34.7,3.4,4.3,2.5575,0.7507332681917365,-0.01034388903223693,0.6471949295246853,0.0043575422451494,-0.076844,-38.996839
11.185,2.0,1.0,1.0,33.5,34.7,34.7,3.4,4.3,2.56,0.7457862278482205,-0.01057030634334697,0.652709810950128,0.004350364204536391,-0.07788,-38.838672
11.185,2.0,1.0,1.0,33.5,34.7,34.7,3.4,4.3,2.5625,0.7407688170450419,-0.010802550681927585,0.6582158868246114,0.004341446416493915,-0.078944,-38.679221
11.185,2.0,1.0,1.0,33.5,34.7,34.7,3.4,4.3,2.565,0.7356801030467327,-0.01104083812849301,0.6637126353103248,0.00433069855837047,-0.080037,-38.518447
11.185,2.0,1.0,1.0,33.5,34.7,34.7,3.4,4.3,2.5675,0.7305191302399251,-0.01128539590355169,0.6691995158203163,0.004318024827300993,-0.081158,-38.356308
11.185,2.0,1.0,1.0,33.5,34.7,34.7,3.4,4.3,2.57,0.7252849191883016,-0.011536463100949001,0.6746759681781443,0.00430332352783795,-0.08231,-38.192762
11.185,2.0,1.0,1.0,33.5,34.7,34.7,3.4,4.3,2.5725,0.7199764656240782,-0.011794291479705859,0.6801414117254477,0.0042864866221573325,-0.083494,-38.027766
11.185,2.0,1.0,1.0,33.5,34.7,34.7,3.4,4.3,2.575,0.7145927393703178,-0.01205914631982524,0.6855952443728924,0.00426739923885859,-0.084711,-37.861272
11.185,2.0,1.0,1.0,33.5,34.7,34.7,3.4,4.3,2.5775,0.7091326831877679,-0.012331307348126203,0.6910368415894123,0.004245939135892392,-0.085962,-37.693234
11.185,2.0,1.0,1.0,33.5,34.7,34.7,3.4,4.3,2.58,0.7035952115392362,-0.012611069740823273,0.6964655553240883,0.00422197611259664,-0.08725,-37.523602
11.185,2.0,1.0,1.0,33.5,34.7,34.7,3.4,4.3,2.5825,0.697979209263743,-0.012898745210309592,0.7018807128543638,0.004195371365193751,-0.088575,-37.352323
11.185,2.0,1.0,1.0,33.5,34.7,34.7,3.4,4.3,2.585,0.6922835301518554,-0.01319466318443251,0.7072816155535075,0.0041659767793800675,-0.089939,-37.179344
11.185,2.0,1.0,1.0,33.5,34.7,34.7,3.4,4.3,2.5875,0.686506995412613,-0.013499172087487766,0.7126675375694047,0.004133634152818784,-0.091344,-37.004609
11.185,2.0,1.0,1.0,33.5,34.7,34.7,3.4,4.3,2.59,0.6806483920213992,-0.013812640733213033,0.7180377244057636,0.004098174339403345,-0.092792,-36.82806
11.185,2.0,1.0,1.0,33.5,34.7,34.7,3.4,4.3,2.5925,0.6747064709368519,-0.014135459841254866,0.723391391395694,0.004059416306077558,-0.094286,-36.649634
11.185,2.0,1.0,1.0,33.5,34.7,34.7,3.4,4.3,2.595,0.6686799451735561,-0.014468043689929658,0.7287277220563347,0.004017166091752856,-0.095826,-36.469268
11.185,2.0,1.0,1.0,33.5,34.7,34.7,3.4,4.3,2.5975,0.66256748771565,-0.014810831919628254,0.734045866311715,0.003971215656429722,-0.097415,-36.286896
11.185,2.0,1.0,1.0,33.5,34.7,34.7,3.4,4.3,2.6,0.6563677292547259,-0.015164291502944254,0.739344938569328,0.003921341606971533,-0.099057,-36.102446
11.185,2.0,1.0,1.0,33.5,34.7,34.7,3.4,4.3,2.6025,0.65007925573338,-0.015528918899574928,0.7446240156339097,0.003867303784061585,-0.100752,-35.915847
11.185,2.0,1.0,1.0,33.5,34.7,34.7,3.4,4.3,2.605,0.6437006056734468,-0.01590524241628409,0.7498821344396401,0.0038088436926486473,-0.102505,-35.727021
11.185,2.0,1.0,1.0,33.5,34.7,34.7,3.4,4.3,2.6075,0.637230267265354,-0.016293824794768767,0.7551182895793175,0.0037456827555981476,-0.104318,-35.535889
11.185,2.0,1.0,1.0,33.5,34.7,34.7,3.4,4.3,2.61,0.6306666751920369,-0.016695266053187302,0.7603314306059634,0.0036775203672501956,-0.106195,-35.342365
11.185,2.0,1.0,1.0,33.5,34.7,34.7,3.4,4.3,2.6125,0.6240082071574236,-0.017110206610442342,0.7655204590787271,0.003604031720064505,-0.108138,-35.146361
11.185,2.0,1.0,1.0,33.5,34.7,34.7,3.4,4.3,2.615,0.6172531800855906,-0.017539330726132587,0.7706842253207219,0.003524865373403323,-0.110151,-34.947784
11.185,2.0,1.0,1.0,33.5,34.7,34.7,3.4,4.3,2.6175,0.6103998459522123,-0.017983370293473723,0.7758215248514969,0.0034396405286626205,-0.112239,-34.746536
11.185,2.0,1.0,1.0,33.5,34.7,34.7,3.4,4.3,2.62,0.6034463872047352,-0.01844310902753335,0.7809310944510306,0.0033479439692564255,-0.114406,-34.542514
11.185,2.0,1.0,1.0,33.5,34.7,34.7,3.4,4.3,2.6225,0.5963909117217816,-0.018919387096935948,0.7860116078052861,0.0032493266172304233,-0.116657,-34.335609
11.185,2.0,1.0,1.0,33.5,34.7,34.7,3.4,4.3,2.625,0.589231447255441,-0.0194131062538991,0.791061670675257,0.00314329965031155,-0.118995,-34.125708
11.185,2.0,1.0,1.0,33.5,34.7,34.7,3.4,4.3,2.6275,0.5819659352921402,-0.019925235525220363,0.7960798155218389,0.003029330113742628,-0.121428,-33.912688
11.185,2.0,1.0,1.0,33.5,34.7,34.7,3.4,4.3,2.63,0.5745922242586532,-0.020456817535815523,0.8010644955074276,0.0029068359499873167,-0.12396,-33.696422
11.185,2.0,1.0,1.0,33.5,34.7,34.7,3.4,4.3,2.6325,0.5671080619891299,-0.021008975546839826,0.8060140777815027,0.002775180355941213,-0.126599,-33.476776
11.185,2.0,1.0,1.0,33.5,34.7,34.7,3.4,4.3,2.635,0.5595110873566601,-0.021582921302548828,0.8109268359411442,0.0026336653611634237,-0.129351,-33.253605
11.185,2.0,1.0,1.0,33.5,34.7,34.7,3.4,4.3,2.6375,0.5517988209584839,-0.022179963794184996,0.8158009415377855,0.0024815245012694406,-0.132224,-33.026758
11.185,2.0,1.0,1.0,33.5,34.7,34.7,3.4,4.3,2.64,0.5439686547271088,-0.02280151906566912,0.8206344544779197,0.0023179144372471906,-0.135226,-32.796075
11.185,2.0,1.0,1.0,33.5,34.7,34.7,3.4,4.3,2.6425,0.5360178403199816,-0.023449121205158758,0.8254253121368016,0.0021419053431626246,-0.138367,-32.561384
11.185,2.0,1.0,1.0,33.5,34.7,34.7,3.4,4.3,2.645,0.5279434761173031,-0.024124434689130256,0.8301713169695146,0.001952469850332382,-0.141656,-32.322503
11.185,2.0,1.0,1.0,33.5,34.7,34.7,3.4,4.3,2.6475,0.5197424926305965,-0.02482926827215111,0.8348701223613867,0.0017484702941018818,-0.145105,-32.079238
11.185,2.0,1.0,1.0,33.5,34.7,34.7,3.4,4.3,2.65,0.5114116360928737,-0.02556559064667042,0.839519216407933,0.001528643958000176,-0.148726,-31.831384
11.185,2.0,1.0,1.0,33.5,34.7,34.7,3.4,4.3,2.6525,0.5029474499639657,-0.026335548133829465,0.8441159032507837,0.0012915859468904335,-0.152532,-31.578719
11.185,2.0,1.0,1.0,33.5,34.7,34.7,3.4,4.3,2.655,0.49434625404051036,-0.02714148470952376,0.8486572815174354,0.0010357292427330418,-0.156539,-31.321008
11.185,2.0,1.0,1.0,33.5,34.7,34.7,3.4,4.3,2.6575,0.4856041208082637,-0.027985964720938727,0.8531402193151497,0.0007593213998341113,-0.160763,-31.057998
11.185,2.0,1.0,1.0,33.5,34.7,34.7,3.4,4.3,2.66,0.4767168486131076,-0.028871798708984594,0.8575613251078711,0.0004603972158860796,-0.165224,-30.789419
11.185,2.0,1.0,1.0,33.5,34.7,34.7,3.4,4.3,2.6625,0.46767993115483325,-0.029802072823138896,0.8619169136529751,0.0001367465641410676,-0.169941,-30.514979
11.185,2.0,1.0,1.0,33.5,34.7,34.7,3.4,4.3,2.665,0.45848852272237683,-0.030780182399114227,0.866202965983411,-0.00021412361792808583,-0.174939,-30.234366
11.185,2.0,1.0,1.0,33.5,34.7,34.7,3.4,4.3,2.6675,0.4491373984885917,-0.03180987036868596,0.8704150821788393,-0.0005950344284522815,-0.180244,-29.947243
11.185,2.0,1.0,1.0,33.5,34.7,34.7,3.4,4.3,2.67,0.4396209090641728,-0.03289527128737884,0.8745484253618153,-0.0010091887401206603,-0.185885,-29.653245
11.185,2.0,1.0,1.0,33.5,34.7,34.7,3.4,4.3,2.6725,0.42993292837159036,-0.0340409619020583,0.8785976549616666,-0.0014602355198797545,-0.191897,-29.351979
11.185,2.0,1.0,1.0,33.5,34.7,34.7,3.4,4.3,2.675,0.4200667937381426,-0.035252019339292825,0.8825568467827171,-0.0019523471740130003,-0.198317,-29.04302
11.185,2.0,1.0,1.0,33.5,34.7,34.7,3.4,4.3,2.6775,0.4100152369203974,-0.0365340881786676,0.8864193967586182,-0.0024903130143854087,-0.205191,-28.725902
11.185,2.0,1.0,1.0,33.5,34.7,34.7,3.4,4.3,2.68,0.39977030455943574,-0.0378934578838722,0.8901779044215034,-0.0030796527899192073,-0.212568,-28.400124
11.185,2.0,1.0,1.0,33.5,34.7,34.7,3.4,4.3,2.6825,0.3893232663288297,-0.039337152296766126,0.8938240309961769,-0.003726755339795093,-0.220506,-28.065136
11.185,2.0,1.0,1.0,33.5,34.7,34.7,3.4,4.3,2.685,0.37866450878119334,-0.0408730331495282,0.897348325552798,-0.004439048893784128,-0.229073,-27.720336
11.185,2.0,1.0,1.0,33.5,34.7,34.7,3.4,4.3,2.6875,0.36778341263886327,-0.042509919802816376,0.9007400106877941,-0.005225211498647527,-0.238348,-27.365069
11.185,2.0,1.0,1.0,33.5,34.7,34.7,3.4,4.3,2.69,0.3566682110388417,-0.044257727644214526,0.9039867165719866,-0.006095432666901315,-0.248421,-26.998611
11.185,2.0,1.0,1.0,33.5,34.7,34.7,3.4,4.3,2.6925,0.3453058260863925,-0.046127627725983174,0.9070741486534909,-0.007061740877970256,-0.2594,-26.620167
11.185,2.0,1.0,1.0,33.5,34.7,34.7,3.4,4.3,2.695,0.33368168109497043,-0.048132230184606606,0.9099856694706285,-0.008138416370437045,-0.271414,-26.228859
11.185,2.0,1.0,1.0,33.5,34.7,34.7,3.4,4.3,2.6975,0.32177948626828373,-0.05028579359052305,0.9127017684015483,-0.00934251526085213,-0.284614,-25.823716
11.185,2.0,1.0,1.0,33.5,34.7,34.7,3.4,4.3,2.7,0.3095809966218426,-0.05260446131595036,0.9151993840098122,-0.010694540148868814,-0.299181,-25.403659
11.185,2.0,1.0,1.0,33.5,34.7,34.7,3.4,4.3,2.7025,0.2970657431840927,-0.05510652374369803,0.9174510308614038,-0.012219305093333296,-0.315337,-24.967487
11.185,2.0,1.0,1.0,33.5,34.7,34.7,3.4,4.3,2.705,0.28421074289990156,-0.05781270073182124,0.9194236647161848,-0.013947060735227201,-0.333348,-24.51386
11.185,2.0,1.0,1.0,33.5,34.7,34.7,3.4,4.3,2.7075,0.2709902008243307,-0.06074643055588811,0.9210771945319906,-0.01591497069571371,-0.353544,-24.041275
11.185,2.0,1.0,1.0,33.5,34.7,34.7,3.4,4.3,2.71,0.2573752330354779,-0.06393413668139855,0.9223625133816701,-0.018169066558631316,-0.376332,-23.548049
11.185,2.0,1.0,1.0,33.5,34.7,34.7,3.4,4.3,2.7125,0.2433336653474588,-0.0674054170415314,0.9232188682260528,-0.020766860684463626,-0.402222,-23.032285
11.185,2.0,1.0,1.0,33.5,34.7,34.7,3.4,4.3,2.715,0.22883001057508257,-0.07119305281063654,0.9235703133484258,-0.02378087093145824,-0.431857,-22.491847
11.185,2.0,1.0,1.0,33.5,34.7,34.7,3.4,4.3,2.7175,0.21382581247156782,-0.07533264830264277,0.9233208840267625,-0.027303419153983047,-0.466062,-21.924322
11.185,2.0,1.0,1.0,33.5,34.7,34.7,3.4,4.3,2.72,0.19828069809480683,-0.079861560038683,0.9223479721712078,-0.031453219583569086,-0.5059,-21.326991
11.185,2.0,1.0,1.0,33.5,34.7,34.7,3.4,4.3,2.7225,0.18215475886754215,-0.08481649462870369,0.9204931682648182,-0.03638448972125383,-0.552765,-20.696792
11.185,2.0,1.0,1.0,33.5,34.7,34.7,3.4,4.3,2.725,0.16541338978633555,-0.09022864609974951,0.9175495418004204,-0.04229960728269595,-0.608509,-20.030304
11.185,2.0,1.0,1.0,33.5,34.7,34.7,3.4,4.3,2.7275,0.1480366548132162,-0.09611430490477056,0.9132439782582926,-0.04946668908824388,-0.67562,-19.323745
11.185,2.0,1.0,1.0,33.5,34.7,34.7,3.4,4.3,2.73,0.130036986292788,-0.10245713093274449,0.9072128761574961,-0.058243779490286245,-0.757492,-18.57304
11.185,2.0,1.0,1.0,33.5,34.7,34.7,3.4,4.3,2.7325,0.11149224844717973,-0.10917505938069083,0.8989696033897592,-0.0691112351605284,-0.858807,-17.773991
11.185,2.0,1.0,1.0,33.5,34.7,34.7,3.4,4.3,2.735,0.09260707362027047,-0.11605892532602621,0.88786374418008,-0.08271224953424475,-0.986081,-16.922689
11.185,2.0,1.0,1.0,33.5,34.7,34.7,3.4,4.3,2.7375,0.07382561694762112,-0.12265964540393474,0.8730384788909293,-0.09989511870148379,-1.148388,-16.016359
11.185,2.0,1.0,1.0,33.5,34.7,34.7,3.4,4.3,2.74,0.05603456000685153,-0.12808509850093192,0.8534116042923888,-0.12173159557441762,-1.358146,-15.055063
11.185,2.0,1.0,1.0,33.5,34.7,34.7,3.4,4.3,2.7425,0.040910401811085344,-0.13065269249164932,0.8277568826759125,-0.1494342446258598,-1.631349,-14.044958
11.185,2.0,1.0,1.0,33.5,34.7,34.7,3.4,4.3,2.745,0.03144225415131101,-0.12736689975385923,0.7950806901715687,-0.18397683023678868,-1.984989,-13.004241
11.185,2.0,1.0,1.0,33.5,34.7,34.7,3.4,4.3,2.7475,0.032463385951150864,-0.11339121012118013,0.7556910411031851,-0.2250190075787626,-2.425107,-11.97287
11.185,2.0,1.0,1.0,33.5,34.7,34.7,3.4,4.3,2.75,0.0503450794665786,-0.0823697614390286,0.713410284746221,-0.268685567072258,-2.911638,-11.02501
11.185,2.0,1.0,1.0,33.5,34.7,34.7,3.4,4.3,2.7525,0.08985755605757653,-0.029605343496393786,0.6782122026327637,-0.30494124880742235,-3.297113,-10.274933
11.185,2.0,1.0,1.0,33.5,34.7,34.7,3.4,4.3,2.755,0.14722530930538816,0.04096993433009449,0.6649350001374159,-0.31896007279602145,-3.336563,-9.854204
11.185,2.0,1.0,1.0,33.5,34.7,34.7,3.4,4.3,2.7575,0.20623754990082185,0.11302087335125038,0.6831734215816376,-0.3013391429643002,-2.930606,-9.847283
11.185,2.0,1.0,1.0,33.5,34.7,34.7,3.4,4.3,2.76,0.24791761851901345,0.1676811118919263,0.727044078146002,-0.2582185334836676,-2.291066,-10.232202
11.185,2.0,1.0,1.0,33.5,34.7,34.7,3.4,4.3,2.7625,0.26459106821737177,0.19755089936407033,0.7805017959489441,-0.20570015971174802,-1.680078,-10.897016
11.185,2.0,1.0,1.0,33.5,34.7,34.7,3.4,4.3,2.765,0.2604832819406807,0.20704001944279915,0.8304197553818818,-0.15676602971690307,-1.206469,-11.71075
11.185,2.0,1.0,1.0,33.5,34.7,34.7,3.4,4.3,2.7675,0.24353907078372716,0.20412256467685647,0.8713176532847562,-0.11672945137452245,-0.869783,-12.573394
11.185,2.0,1.0,1.0,33.5,34.7,34.7,3.4,4.3,2.77,0.22013177975661322,0.19512828944980165,0.9028108519742414,-0.08587314515220566,-0.637249,-13.424733
11.185,2.0,1.0,1.0,33.5,34.7,34.7,3.4,4.3,2.7725,0.194107388014225,0.18385316782542646,0.9264377410932305,-0.06261328181770738,-0.477092,-14.234006
11.185,2.0,1.0,1.0,33.5,34.7,34.7,3.4,4.3,2.775,0.16746521190566868,0.1722617864012451,0.9440093275352263,-0.04512207442076395,-0.365908,-14.988021
11.185,2.0,1.0,1.0,33.5,34.7,34.7,3.4,4.3,2.7775,0.14113283092753526,0.16126284115214665,0.9570509885505493,-0.031867734425539175,-0.287868,-15.682945
11.185,2.0,1.0,1.0,33.5,34.7,34.7,3.4,4.3,2.78,0.11547769553786401,0.151216357543705,0.966712329986623,-0.021696058827425133,-0.232522,-16.31953
11.185,2.0,1.0,1.0,33.5,34.7,34.7,3.4,4.3,2.7825,0.09059249447639074,0.14221508788784853,0.9738227233466941,-0.013771576706771625,-0.192979,-16.900551
11.185,2.0,1.0,1.0,33.5,34.7,34.7,3.4,4.3,2.785,0.06644318483673273,0.1342299014018372,0.9789710311992863,-0.007496760429194676,-0.164644,-17.429489
11.185,2.0,1.0,1.0,33.5,34.7,34.7,3.4,4.3,2.7875,0.042942854375637746,0.1271820840779679,0.9825737934910073,-0.0024436041730903236,-0.144409,-17.909878
11.185,2.0,1.0,1.0,33.5,34.7,34.7,3.4,4.3,2.79,0.019987421470796147,0.12097817983666102,0.9849259528457296,0.0016971017561165605,-0.13014,-18.345005
11.185,2.0,1.0,1.0,33.5,34.7,34.7,3.4,4.3,2.7925,-0.002527865630029819,0.11552606128818246,0.9862366332195394,0.005151542057529629,-0.120349,-18.737774
11.185,2.0,1.0,1.0,33.5,34.7,34.7,3.4,4.3,2.795,-0.02470145174134882,0.11074173988638944,0.9866538577214681,0.008087658809558545,-0.113982,-19.090671
11.185,2.0,1.0,1.0,33.5,34.7,34.7,3.4,4.3,2.7975,-0.04662313963996153,0.1065516985094843,0.9862815151035002,0.010632280857253254,-0.110288,-19.405763
11.185,2.0,1.0,1.0,33.5,34.7,34.7,3.4,4.3,2.8,-0.06837395068538536,0.10289313916162579,0.9851910002042764,0.012883035549645065,-0.108723,-19.684715
11.185,2.0,1.0,1.0,33.5,34.7,34.7,3.4,4.3,2.8025,-0.09002696383923742,0.09971333523758727,0.9834292046097486,0.014916727680069642,-0.108894,-19.928816
11.185,2.0,1.0,1.0,33.5,34.7,34.7,3.4,4.3,2.805,-0.1116485367045051,0.09696867201048971,0.9810239870493745,0.016795328221137718,-0.110518,-20.139001
11.185,2.0,1.0,1.0,33.5,34.7,34.7,3.4,4.3,2.8075,-0.13329962633121833,0.09462365411569523,0.977987875607379,0.018570345370707026,-0.113389,-20.315874
11.185,2.0,1.0,1.0,33.5,34.7,34.7,3.4,4.3,2.81,-0.15503708617719988,0.09265000612393032,0.974320498237488,0.020286104390459168,-0.117368,-20.459723
11.185,2.0,1.0,1.0,33.5,34.7,34.7,3.4,4.3,2.8125,-0.176914895100319,0.0910259169573409,0.970010064776337,0.0219823015650681,-0.122362,-20.570529
11.185,2.0,1.0,1.0,33.5,34.7,34.7,3.4,4.3,2.815,-0.19898531333253647,0.08973544291576503,0.9650341039836338,0.02369609369783331,-0.128318,-20.647974
11.185,2.0,1.0,1.0,33.5,34.7,34.7,3.4,4.3,2.8175,-0.2212999787981763,0.08876806797986607,0.959359573231653,0.025463919646786792,-0.135219,-20.691436
11.185,2.0,1.0,1.0,33.5,34.7,34.7,3.4,4.3,2.82,-0.24391096491536546,0.08811841371176866,0.9529423925291917,0.02732321308019908,-0.143078,-20.699983
11.185,2.0,1.0,1.0,33.5,34.7,34.7,3.4,4.3,2.8225,-0.26687182306922846,0.08778608901356924,0.9457263985646889,0.029314149348646807,-0.151942,-20.672363
11.185,2.0,1.0,1.0,33.5,34.7,34.7,3.4,4.3,2.825,-0.29023863130447375,0.08777566894720384,0.9376416603261981,0.031481571247988525,-0.161887,-20.606976
11.185,2.0,1.0,1.0,33.5,34.7,34.7,3.4,4.3,2.8275,-0.31407106558635667,0.08809678921182341,0.9286020380356184,0.033877258725393454,-0.173027,-20.50185
11.185,2.0,1.0,1.0,33.5,34.7,34.7,3.4,4.3,2.83,-0.3384334996143818,0.08876433578455045,0.9185017931507217,0.03656274973271014,-0.185516,-20.354603
