1,w,sub_t,h,l1,l2,l3,g1,g2,Freq,S11_re,S21_re,S11_img,S21_img,S11_dB,S21_dB
11.185,2.0,1.0,1.0,33.7,34.4,34.4,4.1,1.9,2.5,0.824812866043942,-0.00847857827896625,0.55369251271603,0.00624326018182845,-0.057305,-39.552072
11.185,2.0,1.0,1.0,33.7,34.4,34.4,4.1,1.9,2.5025,0.8209601696767238,-0.008651447933212424,0.5592708496370612,0.0062684877425218605,-0.057887,-39.425565
11.185,2.0,1.0,1.0,33.7,34.4,34.4,4.1,1.9,2.505,0.8170519098317783,-0.008827716754942474,0.5648459199072969,0.006292923801706979,-0.05848,-39.298532
11.185,2.0,1.0,1.0,33.7,34.4,34.4,4.1,1.9,2.5075,0.8130875218066713,-0.009007468270459437,0.5704174208095019,0.006316530942897382,-0.059085,-39.17096
11.185,2.0,1.0,1.0,33.7,34.4,34.4,4.1,1.9,2.51,0.8090664313994828,-0.009190788787233364,0.5759850405685318,0.006339270137436941,-0.059702,-39.042835
11.185,2.0,1.0,1.0,33.7,34.4,34.4,4.1,1.9,2.5125,0.8049880547147009,-0.009377767512519767,0.5815484580509526,0.006361100664066799,-0.060331,-38.914143
11.185,2.0,1.0,1.0,33.7,34.4,34.4,4.1,1.9,2.515,0.8008517979632295,-0.009568496678181194,0.587107342453659,0.006381980023772591,-0.060973,-38.784868
11.185,2.0,1.0,1.0,33.7,34.4,34.4,4.1,1.9,2.5175,0.7966570572562136,-0.009763071672095839,0.592661352980968,0.006401863849588189,-0.061628,-38.654996
11.185,2.0,1.0,1.0,33.7,34.4,34.4,4.1,1.9,2.52,0.792403218392345,-0.009961591176564939,0.5982101385096811,0.006420705811006486,-0.062296,-38.524512
11.185,2.0,1.0,1.0,33.7,34.4,34.4,4.1,1.9,2.5225,0.7880896566383023,-0.01016415731415937,0.6037533372415161,0.00643845751262023,-0.062978,-38.393399
11.185,2.0,1.0,1.0,33.7,34.4,34.4,4.1,1.9,2.525,0.7837157365019398,-0.010370875801478814,0.6092905763423351,0.006455068386585011,-0.063675,-38.261643
11.185,2.0,1.0,1.0,33.7,34.4,34.4,4.1,1.9,2.5275,0.7792808114978101,-0.01058185611133106,0.6148214715675108,0.006470485578464087,-0.064386,-38.129226
11.185,2.0,1.0,1.0,33.7,34.4,34.4,4.1,1.9,2.53,0.7747842239045903,-0.010797211643876021,0.6203456268727569,0.00648465382597795,-0.065112,-37.996133
11.185,2.0,1.0,1.0,33.7,34.4,34.4,4.1,1.9,2.5325,0.7702253045139201,-0.011017059907319958,0.6258626340096867,0.006497515330142308,-0.065853,-37.862344
11.185,2.0,1.0,1.0,33.7,34.4,34.4,4.1,1.9,2.535,0.7656033723701483,-0.011241522708789647,0.6313720721053406,0.006509009618235013,-0.066611,-37.727844
11.185,2.0,1.0,1.0,33.7,34.4,34.4,4.1,1.9,2.5375,0.7609177345004221,-0.011470726356062973,0.6368735072248293,0.006519073397984855,-0.067386,-37.592614
11.185,2.0,1.0,1.0,33.7,34.4,34.4,4.1,1.9,2.54,0.7561676856345213,-0.011704801870884834,0.6423664919162267,0.006527640402323588,-0.068177,-37.456635
11.185,2.0,1.0,1.0,33.7,34.4,34.4,4.1,1.9,2.5425,0.7513525079137842,-0.011943885214653387,0.6478505647367555,0.006534641223985601,-0.068986,-37.319888
11.185,2.0,1.0,1.0,33.7,34.4,34.4,4.1,1.9,2.545,0.7464714705884157,-0.01218811752732209,0.6533252497592454,0.006540003139177163,-0.069813,-37.182354
11.185,2.0,1.0,1.0,33.7,34.4,34.4,4.1,1.9,2.5475,0.7415238297024211,-0.012437645380429702,0.6587900560577696,0.006543649919468853,-0.070658,-37.044013
11.185,2.0,1.0,1.0,33.7,34.4,34.4,4.1,1.9,2.55,0.7365088277653199,-0.012692621045243218,0.6642444771712971,0.006545501630989179,-0.071523,-36.904843
11.185,2.0,1.0,1.0,33.7,34.4,34.4,4.1,1.9,2.5525,0.7314256934097587,-0.01295320277707555,0.6696879905440731,0.0065454744199146845,-0.072408,-36.764825
11.185,2.0,1.0,1.0,33.7,34.4,34.4,4.1,1.9,2.555,0.7262736410340264,-0.013219555116927687,0.6751200569413917,0.0065434802831602365,-0.073314,-36.623935
11.185,2.0,1.0,1.0,33.7,34.4,34.4,4.1,1.9,2.5575,0.7210518704284122,-0.013491849211696902,0.6805401198392753,0.0065394268230726405,-0.074241,-36.482151
11.185,2.0,1.0,1.0,33.7,34.4,34.4,4.1,1.9,2.56,0.7157595663842572,-0.013770263154295347,0.6859476047864742,0.0065332169848193984,-0.07519,-36.33945
11.185,2.0,1.0,1.0,33.7,34.4,34.4,4.1,1.9,2.5625,0.710395898284428,-0.0140549823451342,0.691341918737073,0.0065247487750414,-0.076162,-36.195809
11.185,2.0,1.0,1.0,33.7,34.4,34.4,4.1,1.9,2.565,0.7049600196738404,-0.014346199876551394,0.6967224493518416,0.006513914960202754,-0.077157,-36.051203
11.185,2.0,1.0,1.0,33.7,34.4,34.4,4.1,1.9,2.5675,0.6994510678085464,-0.014644116941892483,0.7020885642663057,0.006500602742919941,-0.078177,-35.905606
11.185,2.0,1.0,1.0,33.7,34.4,34.4,4.1,1.9,2.57,0.6938681631817382,-0.014948943271102138,0.7074396103233525,0.006484693414386107,-0.079222,-35.758992
11.185,2.0,1.0,1.0,33.7,34.4,34.4,4.1,1.9,2.5725,0.6882104090248917,-0.015260897594842142,0.7127749127679799,0.006466061980820698,-0.080293,-35.611335
11.185,2.0,1.0,1.0,33.7,34.4,34.4,4.1,1.9,2.575,0.6824768907820988,-0.015580208139327461,0.7180937744015911,0.006444576761669204,-0.081392,-35.462606
11.185,2.0,1.0,1.0,33.7,34.4,34.4,4.1,1.9,2.5775,0.6766666755554581,-0.015907113154264806,0.7233954746929944,0.006420098957048864,-0.082518,-35.312777
11.185,2.0,1.0,1.0,33.7,34.4,34.4,4.1,1.9,2.58,0.6707788115191967,-0.016241861476488744,0.7286792688430126,0.006392482181681311,-0.083674,-35.161819
11.185,2.0,1.0,1.0,33.7,34.4,34.4,4.1,1.9,2.5825,0.6648123272999582,-0.016584713132123508,0.7339443867993064,0.006361571962269041,-0.084861,-35.009699
11.185,2.0,1.0,1.0,33.7,34.4,34.4,4.1,1.9,2.585,0.6587662313204726,-0.016935939980354194,0.7391900322176949,0.0063272051949557415,-0.086078,-34.856388
11.185,2.0,1.0,1.0,33.7,34.4,34.4,4.1,1.9,2.5875,0.6526395111035227,-0.01729582640217221,0.7444153813658925,0.0062892095591554715,-0.087329,-34.701851
11.185,2.0,1.0,1.0,33.7,34.4,34.4,4.1,1.9,2.59,0.6464311325328559,-0.017664670037770832,0.749619581965169,0.006247402883639647,-0.088614,-34.546055
11.185,2.0,1.0,1.0,33.7,34.4,34.4,4.1,1.9,2.5925,0.6401400390673255,-0.018042782576609236,0.754801751965001,0.006201592460325904,-0.089934,-34.388965
11.185,2.0,1.0,1.0,33.7,34.4,34.4,4.1,1.9,2.595,0.6337651509042082,-0.0184304906045405,0.75996097824525,0.0061515743007142165,-0.091291,-34.230545
11.185,2.0,1.0,1.0,33.7,34.4,34.4,4.1,1.9,2.5975,0.6273053640872118,-0.01882813651281912,0.7650963152398614,0.006097132329355158,-0.092686,-34.070755
11.185,2.0,1.0,1.0,33.7,34.4,34.4,4.1,1.9,2.6,0.6207595495542504,-0.019236079474264055,0.7702067834754136,0.006038037508104804,-0.094121,-33.909558
11.185,2.0,1.0,1.0,33.7,34.4,34.4,4.1,1.9,2.6025,0.6141265521195677,-0.019654696492365727,0.7752913680171307,0.005974046884209779,-0.095599,-33.746913
11.185,2.0,1.0,1.0,33.7,34.4,34.4,4.1,1.9,2.605,0.6074051893842066,-0.020084383529694775,0.7803490168141693,0.0059049025544645065,-0.097119,-33.582777
11.185,2.0,1.0,1.0,33.7,34.4,34.4,4.1,1.9,2.6075,0.600594250568236,-0.020525556722596035,0.7853786389350595,0.005830330536776074,-0.098685,-33.417107
11.185,2.0,1.0,1.0,33.7,34.4,34.4,4.1,1.9,2.61,0.5936924952574294,-0.02097865368985453,0.7903791026831403,0.005750039539446443,-0.100299,-33.249857
11.185,2.0,1.0,1.0,33.7,34.4,34.4,4.1,1.9,2.6125,0.5866986520563346,-0.021444134943793717,0.795349233580665,0.005663719617318786,-0.101963,-33.080979
11.185,2.0,1.0,1.0,33.7,34.4,34.4,4.1,1.9,2.615,0.579611417138807,-0.021922485413131666,0.8002878122089085,0.005571040702613777,-0.103678,-32.910424
11.185,2.0,1.0,1.0,33.7,34.4,34.4,4.1,1.9,2.6175,0.5724294526861329,-0.022414216087883618,0.8051935718900857,0.005471650996779885,-0.105448,-32.738141
11.185,2.0,1.0,1.0,33.7,34.4,34.4,4.1,1.9,2.62,0.5651513852017971,-0.02291986579766904,0.8100651961951713,0.005365175207969608,-0.107274,-32.564077
11.185,2.0,1.0,1.0,33.7,34.4,34.4,4.1,1.9,2.6225,0.557775803690736,-0.023440003135981095,0.8149013162597374,0.0052512126168007605,-0.109161,-32.388174
11.185,2.0,1.0,1.0,33.7,34.4,34.4,4.1,1.9,2.625,0.550301257689626,-0.0239752285443069,0.819700507887656,0.00512933495082763,-0.11111,-32.210376
11.185,2.0,1.0,1.0,33.7,34.4,34.4,4.1,1.9,2.6275,0.5427262551332019,-0.0245261765714832,0.8244612884199635,0.004999084045588404,-0.113126,-32.030622
11.185,2.0,1.0,1.0,33.7,34.4,34.4,4.1,1.9,2.63,0.5350492600399773,-0.025093518325336735,0.8291821133431845,0.004859969267158632,-0.11521,-31.848847
11.185,2.0,1.0,1.0,33.7,34.4,34.4,4.1,1.9,2.6325,0.5272686899988241,-0.025677964135528985,0.8338613726080372,0.004711464667763922,-0.117367,-31.664986
11.185,2.0,1.0,1.0,33.7,34.4,34.4,4.1,1.9,2.635,0.5193829134357811,-0.026280266448613126,0.8384973866255064,0.004553005842113911,-0.119602,-31.47897
11.185,2.0,1.0,1.0,33.7,34.4,34.4,4.1,1.9,2.6375,0.5113902466380917,-0.026901222978656943,0.8430884019027367,0.004383986447628344,-0.121917,-31.290725
11.185,2.0,1.0,1.0,33.7,34.4,34.4,4.1,1.9,2.64,0.5032889505097894,-0.027541680139414992,0.8476325862759785,0.004203754346528089,-0.124317,-31.100176
11.185,2.0,1.0,1.0,33.7,34.4,34.4,4.1,1.9,2.6425,0.4950772270302056,-0.02820253678698147,0.8521280236917255,0.0040116073217390255,-0.126808,-30.907243
11.185,2.0,1.0,1.0,33.7,34.4,34.4,4.1,1.9,2.645,0.48675321538337163,-0.0288847483051684,0.8565727084801376,0.003806788311553609,-0.129394,-30.711842
11.185,2.0,1.0,1.0,33.7,34.4,34.4,4.1,1.9,2.6475,0.47831498772254055,-0.029589331069574756,0.8609645390566147,0.0035884800998401446,-0.13208,-30.513887
11.185,2.0,1.0,1.0,33.7,34.4,34.4,4.1,1.9,2.65,0.4697605445297694,-0.030317367330489238,0.8653013109778076,0.0033557993890675135,-0.134874,-30.313284
11.185,2.0,1.0,1.0,33.7,34.4,34.4,4.1,1.9,2.6525,0.4610878095257754,-0.031070010559464928,0.8695807092670861,0.0031077901722725626,-0.137782,-30.109936
11.185,2.0,1.0,1.0,33.7,34.4,34.4,4.1,1.9,2.655,0.45229462407983095,-0.03184849130967565,0.8738002999113598,0.0028434163070236943,-0.14081,-29.903743
11.185,2.0,1.0,1.0,33.7,34.4,34.4,4.1,1.9,2.6575,0.4433787410634758,-0.03265412364608507,0.8779575204155995,0.002561553179061199,-0.143966,-29.694596
11.185,2.0,1.0,1.0,33.7,34.4,34.4,4.1,1.9,2.66,0.43433781808499394,-0.03348831220809714,0.8820496692831652,0.002260978325162841,-0.147258,-29.482383
11.185,2.0,1.0,1.0,33.7,34.4,34.4,4.1,1.9,2.6625,0.4251694100340046,-0.034352559974798254,0.8860738942684054,0.0019403608633441038,-0.150696,-29.266984
11.185,2.0,1.0,1.0,33.7,34.4,34.4,4.1,1.9,2.665,0.4158709608569435,-0.03524847681122326,0.8900271792223872,0.001598249553078871,-0.15429,-29.048273
11.185,2.0,1.0,1.0,33.7,34.4,34.4,4.1,1.9,2.6675,0.4064397944747043,-0.03617778888336214,0.8939063293220958,0.0012330592779936879,-0.15805,-28.826117
11.185,2.0,1.0,1.0,33.7,34.4,34.4,4.1,1.9,2.67,0.39687310474302934,-0.037142349039955454,0.897707954437109,0.0008430557074272265,-0.161988,-28.600376
11.185,2.0,1.0,1.0,33.7,34.4,34.4,4.1,1.9,2.6725,0.38716794434444557,-0.03814414827056269,0.9014284503442138,0.0004263378501032673,-0.166118,-28.370899
11.185,2.0,1.0,1.0,33.7,34.4,34.4,4.1,1.9,2.675,0.3773212124875133,-0.03918532836198426,0.9050639774482072,-1.918183861320369e-05,-0.170452,-28.137529
11.185,2.0,1.0,1.0,33.7,34.4,34.4,4.1,1.9,2.6775,0.36732964127485,-0.040268195888873023,0.9086104366042262,-0.0004958001967549415,-0.175008,-27.900098
11.185,2.0,1.0,1.0,33.7,34.4,34.4,4.1,1.9,2.68,0.3571897805859091,-0.04139523768924151,0.912063441560949,-0.0010060494192867708,-0.179803,-27.658428
11.185,2.0,1.0,1.0,33.7,34.4,34.4,4.1,1.9,2.6825,0.3468979813039232,-0.042569137991393335,0.9154182874518472,-0.0015527270126471098,-0.184854,-27.412329
11.185,2.0,1.0,1.0,33.7,34.4,34.4,4.1,1.9,2.685,0.33645037669902267,-0.04379279737530419,0.9186699146495673,-0.0021389303189022777,-0.190185,-27.161598
11.185,2.0,1.0,1.0,33.7,34.4,34.4,4.1,1.9,2.6875,0.325842861761859,-0.0450693537681079,0.92181286716155,-0.00276809642376713,-0.195818,-26.906022
11.185,2.0,1.0,1.0,33.7,34.4,34.4,4.1,1.9,2.69,0.31507107026487446,-0.04640220568928174,0.9248412445771524,-0.00344404842900929,-0.201781,-26.645369
11.185,2.0,1.0,1.0,33.7,34.4,34.4,4.1,1.9,2.6925,0.30413034931290894,-0.047795037975022645,0.9277486463699416,-0.004171049274330391,-0.208101,-26.379393
11.185,2.0,1.0,1.0,33.7,34.4,34.4,4.1,1.9,2.695,0.29301573113330376,-0.04925185022111663,0.9305281071035639,-0.0049538645465328655,-0.214813,-26.107833
11.185,2.0,1.0,1.0,33.7,34.4,34.4,4.1,1.9,2.6975,0.2817219018508116,-0.05077698818623304,0.9331720207729458,-0.0057978360272597,-0.221954,-25.830406
11.185,2.0,1.0,1.0,33.7,34.4,34.4,4.1,1.9,2.7,0.27024316699937373,-0.05237517838835959,0.9356720521180155,-0.006708968121050262,-0.229565,-25.546808
11.185,2.0,1.0,1.0,33.7,34.4,34.4,4.1,1.9,2.7025,0.2585734135476805,-0.05405156609913918,0.9380190322535118,-0.007694029793912267,-0.237693,-25.256715
11.185,2.0,1.0,1.0,33.7,34.4,34.4,4.1,1.9,2.705,0.24670606826885758,-0.05581175688392505,0.9402028353380509,-0.008760675266310244,-0.246393,-24.959777
11.185,2.0,1.0,1.0,33.7,34.4,34.4,4.1,1.9,2.7075,0.23463405238140017,-0.05766186173429312,0.9422122322225033,-0.009917587478989482,-0.255726,-24.655615
11.185,2.0,1.0,1.0,33.7,34.4,34.4,4.1,1.9,2.71,0.22234973255117704,-0.05960854567212252,0.9440347160246867,-0.01117464933191604,-0.265761,-24.343822
11.185,2.0,1.0,1.0,33.7,34.4,34.4,4.1,1.9,2.7125,0.20984486860581214,-0.06165907943702777,0.9456562933124271,-0.012543148946989649,-0.27658,-24.023956
11.185,2.0,1.0,1.0,33.7,34.4,34.4,4.1,1.9,2.715,0.19711055872240485,-0.06382139345263332,0.9470612329583785,-0.014036026804691286,-0.288274,-23.695538
11.185,2.0,1.0,1.0,33.7,34.4,34.4,4.1,1.9,2.7175,0.18413718348055647,-0.06610413262863267,0.9482317626494526,-0.015668174660081743,-0.300951,-23.35805
11.185,2.0,1.0,1.0,33.7,34.4,34.4,4.1,1.9,2.72,0.1709143511348979,-0.06851670958514575,0.9491477003478387,-0.01745679879582976,-0.314736,-23.010926
11.185,2.0,1.0,1.0,33.7,34.4,34.4,4.1,1.9,2.7225,0.15743084791970632,-0.07106935241891245,0.949786004518983,-0.019421863606625633,-0.329775,-22.653552
11.185,2.0,1.0,1.0,33.7,34.4,34.4,4.1,1.9,2.725,0.1436745994025853,-0.07377314091853647,0.9501202224118588,-0.021586635978874176,-0.346239,-22.285258
11.185,2.0,1.0,1.0,33.7,34.4,34.4,4.1,1.9,2.7275,0.12963265223388545,-0.07664002180030408,0.9501198097639756,-0.0239783567605569,-0.36433,-21.905309
11.185,2.0,1.0,1.0,33.7,34.4,34.4,4.1,1.9,2.73,0.11529119067523871,-0.079682788498636,0.9497492875677571,-0.026629073240293868,-0.384291,-21.512904
11.185,2.0,1.0,1.0,33.7,34.4,34.4,4.1,1.9,2.7325,0.1006356099298401,-0.08291500341529018,0.9489671914037586,-0.029576676532715472,-0.406408,-21.107164
11.185,2.0,1.0,1.0,33.7,34.4,34.4,4.1,1.9,2.735,0.085650679930201,-0.08635082892717168,0.9477247555898309,-0.032866200812454685,-0.431028,-20.687124
11.185,2.0,1.0,1.0,33.7,34.4,34.4,4.1,1.9,2.7375,0.07032085104063111,-0.09000471571511479,0.9459642571164198,-0.03655145832528084,-0.458572,-20.251726
11.185,2.0,1.0,1.0,33.7,34.4,34.4,4.1,1.9,2.74,0.054630780526450776,-0.09389086970828164,0.943616922006963,-0.040697106028738925,-0.489553,-19.799807
11.185,2.0,1.0,1.0,33.7,34.4,34.4,4.1,1.9,2.7425,0.03856620105755128,-0.09802237676094772,0.9406002683449886,-0.04538126754362909,-0.524603,-19.330093
11.185,2.0,1.0,1.0,33.7,34.4,34.4,4.1,1.9,2.745,0.022115318601513567,-0.10240979852253321,0.9368147251579366,-0.050698868356412824,-0.564506,-18.841186
11.185,2.0,1.0,1.0,33.7,34.4,34.4,4.1,1.9,2.7475,0.005271030661393111,-0.10705895013213963,0.9321393254651879,-0.05676588199412779,-0.610245,-18.331561
11.185,2.0,1.0,1.0,33.7,34.4,34.4,4.1,1.9,2.75,-0.0119655809133548,-0.111967408456997,0.926426229547407,-0.0637247256320151,-0.663059,-17.799562
11.185,2.0,1.0,1.0,33.7,34.4,34.4,4.1,1.9,2.7525,-0.029579770034584105,-0.11711904370900822,0.9194938038464686,-0.07175107221487717,-0.724532,-17.243412
11.185,2.0,1.0,1.0,33.7,34.4,34.4,4.1,1.9,2.755,-0.047534538007983254,-0.12247546258688152,0.9111179937513335,-0.08106233073578659,-0.796703,-16.661229
11.185,2.0,1.0,1.0,33.7,34.4,34.4,4.1,1.9,2.7575,-0.0657571708542005,-0.12796261399073416,0.9010218576075765,-0.09192791424439739,-0.882224,-16.051077
11.185,2.0,1.0,1.0,33.7,34.4,34.4,4.1,1.9,2.76,-0.08411813464434015,-0.13344981928630004,0.8888635336123379,-0.10468100823507961,-0.984576,-15.411059
11.185,2.0,1.0,1.0,33.7,34.4,34.4,4.1,1.9,2.7625,-0.10239805155848795,-0.13871700142837104,0.8742239278101122,-0.1197305356934093,-1.108368,-14.739477
11.185,2.0,1.0,1.0,33.7,34.4,34.4,4.1,1.9,2.765,-0.1202363532912666,-0.14340379799897987,0.8565977322494801,-0.13756970343434963,-1.259727,-14.035121
11.185,2.0,1.0,1.0,33.7,34.4,34.4,4.1,1.9,2.7675,-0.13705266261177912,-0.1469317561771365,0.8353963663448463,-0.15877256357526934,-1.446805,-13.297758
11.185,2.0,1.0,1.0,33.7,34.4,34.4,4.1,1.9,2.77,-0.151930288087614,-0.14838922589336181,0.809981541845594,-0.18396000721508796,-1.680324,-12.52894
11.185,2.0,1.0,1.0,33.7,34.4,34.4,4.1,1.9,2.7725,-0.16345492767991326,-0.14637236695469552,0.7797671015066235,-0.21369787302845597,-1.973944,-11.733315
11.185,2.0,1.0,1.0,33.7,34.4,34.4,4.1,1.9,2.775,-0.16952307304641834,-0.13879707153299733,0.7444575213784548,-0.24825956538131572,-2.343649,-10.920652
11.185,2.0,1.0,1.0,33.7,34.4,34.4,4.1,1.9,2.7775,-0.16720077412221332,-0.12276233375504851,0.704525731598356,-0.2871520971075119,-2.804097,-10.108755
11.185,2.0,1.0,1.0,33.7,34.4,34.4,4.1,1.9,2.78,-0.15286382903400467,-0.09469439853497748,0.6620191219844789,-0.32831912425255266,-3.356997,-9.327041
11.185,2.0,1.0,1.0,33.7,34.4,34.4,4.1,1.9,2.7825,-0.12307382466754131,-0.051220719125544344,0.6215702754795602,-0.36714621599540276,-3.963179,-8.619504
11.185,2.0,1.0,1.0,33.7,34.4,34.4,4.1,1.9,2.785,-0.07666235006838455,0.008763671031437062,0.5908681063994715,-0.3960083400550469,-4.497689,-8.043787
11.185,2.0,1.0,1.0,33.7,34.4,34.4,4.1,1.9,2.7875,-0.017570674940924822,0.081295633386134,0.5790733193554918,-0.40585736465331995,-4.741332,-7.661687
11.185,2.0,1.0,1.0,33.7,34.4,34.4,4.1,1.9,2.79,0.04406769494258957,0.15630190855455778,0.592371867834916,-0.39063101602599476,-4.524143,-7.519706
11.185,2.0,1.0,1.0,33.7,34.4,34.4,4.1,1.9,2.7925,0.09546836008742264,0.22113527225077653,0.6293987050023463,-0.35175940060959704,-3.922695,-7.628699
11.185,2.0,1.0,1.0,33.7,34.4,34.4,4.1,1.9,2.795,0.12762333032540754,0.26693571985950104,0.681436648528075,-0.29792530165538067,-3.181768,-7.958416
11.185,2.0,1.0,1.0,33.7,34.4,34.4,4.1,1.9,2.7975,0.1387434146084522,0.2920036601178538,0.737591732037387,-0.23991806972914734,-2.49267,-8.451902
11.185,2.0,1.0,1.0,33.7,34.4,34.4,4.1,1.9,2.8,0.13251835303948092,0.3000446495741806,0.7897397185612556,-0.18574857854876295,-1.929727,-9.047284
11.185,2.0,1.0,1.0,33.7,34.4,34.4,4.1,1.9,2.8025,0.11445521041310458,0.2965353183003537,0.8339387838404896,-0.1392751569943537,-1.496271,-9.692758
11.185,2.0,1.0,1.0,33.7,34.4,34.4,4.1,1.9,2.805,0.08942701220303503,0.2863038605592278,0.8693587881243047,-0.1012798133717665,-1.170306,-10.351396
11.185,2.0,1.0,1.0,33.7,34.4,34.4,4.1,1.9,2.8075,0.06089084067051397,0.27276613993087584,0.8967595100659927,-0.0709798345074967,-0.926503,-10.999635
11.185,2.0,1.0,1.0,33.7,34.4,34.4,4.1,1.9,2.81,0.031007952337922196,0.2580515703098848,0.9174414164566297,-0.0470656158352035,-0.743475,-11.62375
11.185,2.0,1.0,1.0,33.7,34.4,34.4,4.1,1.9,2.8125,0.00101477870141838,0.243373867555119,0.932720028745826,-0.0282185079826348,-0.604969,-12.216525
11.185,2.0,1.0,1.0,33.7,34.4,34.4,4.1,1.9,2.815,-0.028438483241620217,0.2293675496362372,0.9437265838281783,-0.013305874347168284,-0.499134,-12.77477
11.185,2.0,1.0,1.0,33.7,34.4,34.4,4.1,1.9,2.8175,-0.05704858354021549,0.21632508846269555,0.9513663542644528,-0.0014207368924611823,-0.417456,-13.297675
11.185,2.0,1.0,1.0,33.7,34.4,34.4,4.1,1.9,2.82,-0.08470777605998883,0.20434669190444604,0.9563390429025626,0.008139445921861992,-0.353822,-13.785763
11.185,2.0,1.0,1.0,33.7,34.4,34.4,4.1,1.9,2.8225,-0.11141333399629111,0.19342962665869617,0.9591766512926311,0.015910897637303894,-0.303825,-14.240254
11.185,2.0,1.0,1.0,33.7,34.4,34.4,4.1,1.9,2.825,-0.13721533303332037,0.1835196627682038,0.96028098379168,0.022301031956471755,-0.264253,-14.662686
11.185,2.0,1.0,1.0,33.7,34.4,34.4,4.1,1.9,2.8275,-0.16218729841443727,0.1745399261490312,0.9599550869855755,0.027619810784098225,-0.232748,-15.054692
11.185,2.0,1.0,1.0,33.7,34.4,34.4,4.1,1.9,2.83,-0.1864101503167142,0.16640663376757975,0.9584278180109775,0.03210421832406,-0.207555,-15.417876
