1,w,sub_t,h,l1,l2,l3,g1,g2,Freq,S11_re,S21_re,S11_img,S21_img,S11_dB,S21_dB
11.185,2.0,1.0,1.0,34.3,34.6,34.6,1.8,2.7,2.5,0.716695062762362,-0.0238187919637666,0.681890502221391,0.0140222773623199,-0.09383,-31.169299
11.185,2.0,1.0,1.0,34.3,34.6,34.6,1.8,2.7,2.5025,0.7107664607723582,-0.024340529396739738,0.6878478127917427,0.014032128074622185,-0.095175,-31.027238
11.185,2.0,1.0,1.0,34.3,34.6,34.6,1.8,2.7,2.505,0.7047483668729146,-0.024874037844901973,0.6937889147835283,0.014037365911464792,-0.096552,-30.884347
11.185,2.0,1.0,1.0,34.3,34.6,34.6,1.8,2.7,2.5075,0.6986396071349541,-0.025419634924814295,0.6997129095154623,0.014037751340782357,-0.097964,-30.74061
11.185,2.0,1.0,1.0,34.3,34.6,34.6,1.8,2.7,2.51,0.6924389854603352,-0.02597764873809023,0.7056188662752617,0.014033032797526926,-0.099411,-30.596009
11.185,2.0,1.0,1.0,34.3,34.6,34.6,1.8,2.7,2.5125,0.6861452830804101,-0.026548418277635977,0.7115058210267282,0.014022946011492074,-0.100895,-30.450528
11.185,2.0,1.0,1.0,34.3,34.6,34.6,1.8,2.7,2.515,0.6797572580403541,-0.02713229385154815,0.7173727750546106,0.014007213292545978,-0.102416,-30.304148
11.185,2.0,1.0,1.0,34.3,34.6,34.6,1.8,2.7,2.5175,0.6732736446687774,-0.027729637525470946,0.7232186935435225,0.013985542770210945,-0.103977,-30.156851
11.185,2.0,1.0,1.0,34.3,34.6,34.6,1.8,2.7,2.52,0.6666931530320865,-0.028340823584246076,0.7290425040869606,0.013957627584278605,-0.105579,-30.008618
11.185,2.0,1.0,1.0,34.3,34.6,34.6,1.8,2.7,2.5225,0.6600144683730845,-0.028966239013719763,0.7348430951220988,0.013923145022880196,-0.107222,-29.85943
11.185,2.0,1.0,1.0,34.3,34.6,34.6,1.8,2.7,2.525,0.6532362505332475,-0.029606284003604218,0.7406193142858207,0.013881755604136457,-0.108909,-29.709268
11.185,2.0,1.0,1.0,34.3,34.6,34.6,1.8,2.7,2.5275,0.6463571333581191,-0.03026137247232003,0.746369966686998,0.013833102097188313,-0.110641,-29.55811
11.185,2.0,1.0,1.0,34.3,34.6,34.6,1.8,2.7,2.53,0.6393757240852636,-0.0309319326147753,0.7520938130897206,0.013776808478059377,-0.11242,-29.405938
11.185,2.0,1.0,1.0,34.3,34.6,34.6,1.8,2.7,2.5325,0.632290602714193,-0.031618407474066273,0.7577895680017248,0.013712478815414956,-0.114248,-29.252729
11.185,2.0,1.0,1.0,34.3,34.6,34.6,1.8,2.7,2.535,0.625100321357676,-0.032321255538111535,0.7634558976618503,0.013639696080862256,-0.116126,-29.098461
11.185,2.0,1.0,1.0,34.3,34.6,34.6,1.8,2.7,2.5375,0.6178034035738521,-0.033040951362249875,0.7690914179198194,0.013558020877974126,-0.118056,-28.943112
11.185,2.0,1.0,1.0,34.3,34.6,34.6,1.8,2.7,2.54,0.6103983436785635,-0.03377798621885784,0.7746946920011553,0.013466990083714598,-0.120041,-28.78666
11.185,2.0,1.0,1.0,34.3,34.6,34.6,1.8,2.7,2.5425,0.6028836060373106,-0.03453286877505235,0.7802642281493967,0.013366115395389296,-0.122082,-28.62908
11.185,2.0,1.0,1.0,34.3,34.6,34.6,1.8,2.7,2.545,0.5952576243362897,-0.035306125799554895,0.7857984771372035,0.013254881775635885,-0.124182,-28.470349
11.185,2.0,1.0,1.0,34.3,34.6,34.6,1.8,2.7,2.5475,0.5875188008319541,-0.03609830289979314,0.7912958296371393,0.013132745787300943,-0.126343,-28.310442
11.185,2.0,1.0,1.0,34.3,34.6,34.6,1.8,2.7,2.55,0.5796655055785824,-0.03690996529031058,0.7967546134422604,0.012999133809315761,-0.128568,-28.149332
11.185,2.0,1.0,1.0,34.3,34.6,34.6,1.8,2.7,2.5525,0.5716960756334187,-0.037741698593529924,0.8021730905256937,0.012853440123873305,-0.130859,-27.986994
11.185,2.0,1.0,1.0,34.3,34.6,34.6,1.8,2.7,2.555,0.5636088142389272,-0.03859410967388916,0.807549453927482,0.01269502486432127,-0.133218,-27.8234
11.185,2.0,1.0,1.0,34.3,34.6,34.6,1.8,2.7,2.5575,0.5554019899818674,-0.039467827506314425,0.8128818244559972,0.012523211812201628,-0.13565,-27.658523
11.185,2.0,1.0,1.0,34.3,34.6,34.6,1.8,2.7,2.56,0.5470738359289286,-0.04036350407992614,0.8181682471899839,0.012337286030787941,-0.138156,-27.492334
11.185,2.0,1.0,1.0,34.3,34.6,34.6,1.8,2.7,2.5625,0.538622548738819,-0.0412818153377791,0.823406687766169,0.0121364913212739,-0.14074,-27.324803
11.185,2.0,1.0,1.0,34.3,34.6,34.6,1.8,2.7,2.565,0.530046287750822,-0.04222346215331638,0.8285950284358906,0.011920027486448975,-0.143406,-27.155901
11.185,2.0,1.0,1.0,34.3,34.6,34.6,1.8,2.7,2.5675,0.5213431740500586,-0.04318917134405637,0.8337310638727564,0.011687047385235618,-0.146157,-26.985594
11.185,2.0,1.0,1.0,34.3,34.6,34.6,1.8,2.7,2.57,0.5125112895098761,-0.04417969672283412,0.8388124967116154,0.011436653759846217,-0.148996,-26.813852
11.185,2.0,1.0,1.0,34.3,34.6,34.6,1.8,2.7,2.5725,0.503548675812082,-0.04519582018667073,0.8438369327972823,0.011167895815528132,-0.151928,-26.640641
11.185,2.0,1.0,1.0,34.3,34.6,34.6,1.8,2.7,2.575,0.4944533334460782,-0.04623835284303417,0.8488018761194077,0.010879765530879914,-0.154958,-26.465927
11.185,2.0,1.0,1.0,34.3,34.6,34.6,1.8,2.7,2.5775,0.4852232206883403,-0.047308136172879135,0.8537047234075736,0.010571193674517811,-0.158089,-26.289673
11.185,2.0,1.0,1.0,34.3,34.6,34.6,1.8,2.7,2.58,0.4758562525641824,-0.048406043229391155,0.8585427583581878,0.01024104550142375,-0.161326,-26.111843
11.185,2.0,1.0,1.0,34.3,34.6,34.6,1.8,2.7,2.5825,0.4663502997943202,-0.04953297987080146,0.8633131454619122,0.009888116099585972,-0.164674,-25.9324
11.185,2.0,1.0,1.0,34.3,34.6,34.6,1.8,2.7,2.585,0.456703187729461,-0.050689886024958684,0.868012923397262,0.00951112535451129,-0.16814,-25.751304
11.185,2.0,1.0,1.0,34.3,34.6,34.6,1.8,2.7,2.5875,0.4469126952769649,-0.05187773698252884,0.87263899795248,0.009108712495818024,-0.171728,-25.568516
11.185,2.0,1.0,1.0,34.3,34.6,34.6,1.8,2.7,2.59,0.43697655382465267,-0.05309754471470555,0.87718813443395,0.00867943018635323,-0.175444,-25.383992
11.185,2.0,1.0,1.0,34.3,34.6,34.6,1.8,2.7,2.5925,0.4268924461679936,-0.0543503592101367,0.8816569495150699,0.008221738110081245,-0.179296,-25.19769
11.185,2.0,1.0,1.0,34.3,34.6,34.6,1.8,2.7,2.595,0.41665800544839005,-0.055637269824349904,0.8860419024746358,0.007733996010301393,-0.18329,-25.009565
11.185,2.0,1.0,1.0,34.3,34.6,34.6,1.8,2.7,2.5975,0.4062708141119095,-0.05695940663326937,0.8903392857684472,0.007214456124508728,-0.187433,-24.819571
11.185,2.0,1.0,1.0,34.3,34.6,34.6,1.8,2.7,2.6,0.3957284028999104,-0.05831794178038409,0.8945452148717435,0.0066612549563434195,-0.191733,-24.627661
11.185,2.0,1.0,1.0,34.3,34.6,34.6,1.8,2.7,2.6025,0.38502824988539885,-0.05971409080470197,0.8986556173233252,0.006072404318506967,-0.196199,-24.433783
11.185,2.0,1.0,1.0,34.3,34.6,34.6,1.8,2.7,2.605,0.37416777957183317,-0.061149113933734164,0.9026662208946418,0.005445781573149859,-0.20084,-24.237888
11.185,2.0,1.0,1.0,34.3,34.6,34.6,1.8,2.7,2.6075,0.3631443620745636,-0.06262431732229289,0.9065725407985935,0.004779118987974876,-0.205665,-24.039921
11.185,2.0,1.0,1.0,34.3,34.6,34.6,1.8,2.7,2.61,0.351955312409169,-0.06414105421375754,0.9103698658432481,0.004069992117014405,-0.210685,-23.839827
11.185,2.0,1.0,1.0,34.3,34.6,34.6,1.8,2.7,2.6125,0.3405978899158651,-0.0657007259955442,0.9140532434249068,0.0033158071046068783,-0.215911,-23.637549
11.185,2.0,1.0,1.0,34.3,34.6,34.6,1.8,2.7,2.615,0.32906929785497796,-0.0673047831146232,0.917617463242916,0.002513786799364473,-0.221354,-23.433027
11.185,2.0,1.0,1.0,34.3,34.6,34.6,1.8,2.7,2.6175,0.3173666832154774,-0.06895472581190797,0.9210570396049342,0.0016609555517141576,-0.227028,-23.2262
11.185,2.0,1.0,1.0,34.3,34.6,34.6,1.8,2.7,2.62,0.3054871367868639,-0.0706521046259382,0.9243661921761206,0.0007541225537144017,-0.232946,-23.017003
11.185,2.0,1.0,1.0,34.3,34.6,34.6,1.8,2.7,2.6225,0.29342769355466125,-0.07239852060624687,0.9275388250083534,-0.00021013643691929055,-0.239124,-22.80537
11.185,2.0,1.0,1.0,34.3,34.6,34.6,1.8,2.7,2.625,0.281185333491718,-0.0741956251647796,0.930568503666132,-0.00123549916556059,-0.245577,-22.59123
11.185,2.0,1.0,1.0,34.3,34.6,34.6,1.8,2.7,2.6275,0.268756982831712,-0.07604511947936311,0.9334484302437767,-0.00232591894051327,-0.252322,-22.374512
11.185,2.0,1.0,1.0,34.3,34.6,34.6,1.8,2.7,2.63,0.2561395159284292,-0.0779487533459741,0.9361714160436861,-0.0034856489063542747,-0.259379,-22.155141
11.185,2.0,1.0,1.0,34.3,34.6,34.6,1.8,2.7,2.6325,0.24332975782486244,-0.07990832335588248,0.9387298516573268,-0.0047192687803870636,-0.266767,-21.933038
11.185,2.0,1.0,1.0,34.3,34.6,34.6,1.8,2.7,2.635,0.2303244876808457,-0.08192567024891437,0.9411156741588879,-0.0060317143325199175,-0.274509,-21.708122
11.185,2.0,1.0,1.0,34.3,34.6,34.6,1.8,2.7,2.6375,0.21712044323760502,-0.0840026752642159,0.943320331085657,-0.007428309923557763,-0.282629,-21.480309
11.185,2.0,1.0,1.0,34.3,34.6,34.6,1.8,2.7,2.64,0.203714326533305,-0.08614125527397351,0.9453347408386699,-0.008914804456037866,-0.291153,-21.249509
11.185,2.0,1.0,1.0,34.3,34.6,34.6,1.8,2.7,2.6425,0.19010281112676458,-0.08834335644221901,0.9471492490914015,-0.010497411135889475,-0.300109,-21.015631
11.185,2.0,1.0,1.0,34.3,34.6,34.6,1.8,2.7,2.645,0.17628255113853925,-0.09061094609858522,0.9487535807426127,-0.012182851492974038,-0.309529,-20.778579
11.185,2.0,1.0,1.0,34.3,34.6,34.6,1.8,2.7,2.6475,0.16225019248148062,-0.0929460024536975,0.9501367868912347,-0.013978404164584323,-0.319445,-20.538251
11.185,2.0,1.0,1.0,34.3,34.6,34.6,1.8,2.7,2.65,0.14800238672905386,-0.09535050170643766,0.9512871862456417,-0.015891959008959386,-0.329896,-20.294545
11.185,2.0,1.0,1.0,34.3,34.6,34.6,1.8,2.7,2.6525,0.13353580816222912,-0.09782640200063399,0.9521923003059584,-0.01793207718645312,-0.340922,-20.04735
11.185,2.0,1.0,1.0,34.3,34.6,34.6,1.8,2.7,2.655,0.11884717464792091,-0.10037562357625762,0.9528387815756587,-0.020108057924914016,-0.352566,-19.796553
11.185,2.0,1.0,1.0,34.3,34.6,34.6,1.8,2.7,2.6575,0.10393327313873896,-0.10300002432343053,0.9532123339665401,-0.022430012773647198,-0.36488,-19.542034
11.185,2.0,1.0,1.0,34.3,34.6,34.6,1.8,2.7,2.66,0.0887909907502432,-0.10570136978103307,0.9532976244590113,-0.02490894824756889,-0.377916,-19.28367
11.185,2.0,1.0,1.0,34.3,34.6,34.6,1.8,2.7,2.6625,0.0734173525752713,-0.10848129641860832,0.9530781849667281,-0.027556857870030444,-0.391735,-19.021331
11.185,2.0,1.0,1.0,34.3,34.6,34.6,1.8,2.7,2.665,0.05780956764334344,-0.11134126679222248,0.9525363032312405,-0.030386824739161596,-0.406402,-18.754881
11.185,2.0,1.0,1.0,34.3,34.6,34.6,1.8,2.7,2.6675,0.041965084737577256,-0.11428251486149044,0.9516529014387859,-0.03341313586764242,-0.421992,-18.484178
11.185,2.0,1.0,1.0,34.3,34.6,34.6,1.8,2.7,2.67,0.025881660154623943,-0.11730597938327605,0.950407401109318,-0.03665140967787005,-0.438584,-18.209075
11.185,2.0,1.0,1.0,34.3,34.6,34.6,1.8,2.7,2.6725,0.009557439951499038,-0.12041222284154317,0.9487775726600001,-0.04011873817035738,-0.456271,-17.929418
11.185,2.0,1.0,1.0,34.3,34.6,34.6,1.8,2.7,2.675,-0.007008940213304943,-0.1236013328127045,0.9467393678966046,-0.04383384541767242,-0.475153,-17.645045
11.185,2.0,1.0,1.0,34.3,34.6,34.6,1.8,2.7,2.6775,-0.02381823384323856,-0.12687280197696055,0.9442667335443842,-0.04781726416105687,-0.495344,-17.355789
11.185,2.0,1.0,1.0,34.3,34.6,34.6,1.8,2.7,2.68,-0.04087043631543907,-0.13022538213821747,0.9413314038069182,-0.05209153238942235,-0.51697,-17.061476
11.185,2.0,1.0,1.0,34.3,34.6,34.6,1.8,2.7,2.6825,-0.058164605830033286,-0.13365690657065873,0.9379026698555929,-0.056681411841894576,-0.540174,-16.761922
11.185,2.0,1.0,1.0,34.3,34.6,34.6,1.8,2.7,2.685,-0.07569864558506868,-0.13716407372290493,0.93394712413052,-0.0616141303677592,-0.565117,-16.45694
11.185,2.0,1.0,1.0,34.3,34.6,34.6,1.8,2.7,2.6875,-0.0934690385593739,-0.140742183724485,0.929428377415361,-0.0669196499612321,-0.591979,-16.146332
11.185,2.0,1.0,1.0,34.3,34.6,34.6,1.8,2.7,2.69,-0.11147052430501408,-0.14438481718563703,0.9243067468908875,-0.07263096200490356,-0.620968,-15.829897
11.185,2.0,1.0,1.0,34.3,34.6,34.6,1.8,2.7,2.6925,-0.12969570471053857,-0.14808344337802462,0.9185389138571621,-0.07878441072184679,-0.652316,-15.507424
11.185,2.0,1.0,1.0,34.3,34.6,34.6,1.8,2.7,2.695,-0.14813456269488529,-0.15182694193336813,0.9120775506594637,-0.08542004493389033,-0.686289,-15.178699
11.185,2.0,1.0,1.0,34.3,34.6,34.6,1.8,2.7,2.6975,-0.16677387411230962,-0.1556010185865948,0.9048709177250872,-0.09258199678498233,-0.723192,-14.843499
11.185,2.0,1.0,1.0,34.3,34.6,34.6,1.8,2.7,2.7,-0.18559648865785225,-0.15938749109348793,0.896862433752786,-0.10031888387754645,-0.763373,-14.501602
11.185,2.0,1.0,1.0,34.3,34.6,34.6,1.8,2.7,2.7025,-0.20458045011850345,-0.16316341613603863,0.88799022532569,-0.10868422795491268,-0.807232,-14.152781
11.185,2.0,1.0,1.0,34.3,34.6,34.6,1.8,2.7,2.705,-0.22369791977653483,-0.16690002166280815,0.8781866670066587,-0.11773687838122507,-0.855233,-13.796808
11.185,2.0,1.0,1.0,34.3,34.6,34.6,1.8,2.7,2.7075,-0.24291385902494336,-0.1705614015978966,0.8673779299691334,-0.1275414215791218,-0.907909,-13.43346
11.185,2.0,1.0,1.0,34.3,34.6,34.6,1.8,2.7,2.71,-0.2621844182571667,-0.1741029211670847,0.8554835673106949,-0.13816854739897322,-0.965883,-13.062522
11.185,2.0,1.0,1.0,34.3,34.6,34.6,1.8,2.7,2.7125,-0.28145496894894767,-0.1774692713632837,0.8424161786152932,-0.14969532890188628,-1.02988,-12.683787
11.185,2.0,1.0,1.0,34.3,34.6,34.6,1.8,2.7,2.715,-0.30065770494169625,-0.18059210071973425,0.8280812167303747,-0.16220535161034214,-1.100747,-12.297072
11.185,2.0,1.0,1.0,34.3,34.6,34.6,1.8,2.7,2.7175,-0.31970872813744805,-0.18338714249035212,0.81237702831112,-0.1757885997524136,-1.179481,-11.902217
11.185,2.0,1.0,1.0,34.3,34.6,34.6,1.8,2.7,2.72,-0.3385045248316134,-0.185750747302439,0.7951952593191318,-0.1905409676006932,-1.267254,-11.499103
11.185,2.0,1.0,1.0,34.3,34.6,34.6,1.8,2.7,2.7225,-0.3569177348133953,-0.18755572846555885,0.7764218109362839,-0.2065632101992735,-1.365456,-11.087664
11.185,2.0,1.0,1.0,34.3,34.6,34.6,1.8,2.7,2.725,-0.374792121403046,-0.1886464346773138,0.7559386045165642,-0.22395907548727714,-1.475735,-10.667905
11.185,2.0,1.0,1.0,34.3,34.6,34.6,1.8,2.7,2.7275,-0.3919366753796271,-0.1888329914808135,0.7336265107981886,-0.24283226474901723,-1.600055,-10.239922
11.185,2.0,1.0,1.0,34.3,34.6,34.6,1.8,2.7,2.73,-0.408118842901287,-0.18788471206211035,0.7093699225166014,-0.26328174690007206,-1.740765,-9.803938
11.185,2.0,1.0,1.0,34.3,34.6,34.6,1.8,2.7,2.7325,-0.423056977777489,-0.18552279038436292,0.6830636019180689,-0.2853948036910949,-1.90068,-9.360331
11.185,2.0,1.0,1.0,34.3,34.6,34.6,1.8,2.7,2.735,-0.43641231202871317,-0.18141258501554375,0.654622609785909,-0.3092370137558267,-2.083188,-8.909683
11.185,2.0,1.0,1.0,34.3,34.6,34.6,1.8,2.7,2.7375,-0.44778105697728193,-0.1751561208804379,0.6239963007321953,-0.33483821395840063,-2.292369,-8.452831
11.185,2.0,1.0,1.0,34.3,34.6,34.6,1.8,2.7,2.74,-0.4566877418929209,-0.16628592878081325,0.5911875050322188,-0.3621733529948215,-2.533142,-7.990933
11.185,2.0,1.0,1.0,34.3,34.6,34.6,1.8,2.7,2.7425,-0.4625816228987248,-0.15426206082903227,0.5562780209128285,-0.3911371641983764,-2.811439,-7.525544
11.185,2.0,1.0,1.0,34.3,34.6,34.6,1.8,2.7,2.745,-0.46483898670806684,-0.13847509550227627,0.5194612573987235,-0.4215118866929975,-3.134394,-7.058698
11.185,2.0,1.0,1.0,34.3,34.6,34.6,1.8,2.7,2.7475,-0.46277540062508055,-0.11825914276542808,0.48108205391481124,-0.452928095914932,-3.510538,-6.593
11.185,2.0,1.0,1.0,34.3,34.6,34.6,1.8,2.7,2.75,-0.455673239020701,-0.0929200893615715,0.441682029562567,-0.484820388020329,-3.949956,-6.131713
11.185,2.0,1.0,1.0,34.3,34.6,34.6,1.8,2.7,2.7525,-0.44283068529520836,-0.06178512221640967,0.402045929387485,-0.5163825371838585,-4.464326,-5.678836
11.185,2.0,1.0,1.0,34.3,34.6,34.6,1.8,2.7,2.755,-0.423637990033429,-0.024279061912709895,0.36324015202416493,-0.5465309745129856,-5.066639,-5.239142
11.185,2.0,1.0,1.0,34.3,34.6,34.6,1.8,2.7,2.7575,-0.3976837343649895,0.019970076230640985,0.3266293339321302,-0.5738906264983411,-5.770179,-4.818162
11.185,2.0,1.0,1.0,34.3,34.6,34.6,1.8,2.7,2.76,-0.3648867269917375,0.07100102688280324,0.29385202435603464,-0.5968217890104096,-6.585826,-4.422073
11.185,2.0,1.0,1.0,34.3,34.6,34.6,1.8,2.7,2.7625,-0.3256372630237868,0.12838126353188686,0.2667351995729691,-0.613507729536585,-7.515674,-4.057473
11.185,2.0,1.0,1.0,34.3,34.6,34.6,1.8,2.7,2.765,-0.2809165294862056,0.19109221629660234,0.2471339860402839,-0.6221158368792987,-8.539051,-3.731011
11.185,2.0,1.0,1.0,34.3,34.6,34.6,1.8,2.7,2.7675,-0.23235073685169502,0.25748059493977515,0.2367010319319549,-0.6210269925169216,-9.585511,-3.448896
11.185,2.0,1.0,1.0,34.3,34.6,34.6,1.8,2.7,2.77,-0.18215653387728534,0.3253181085890218,0.23661823064376025,-0.6090998656004376,-10.497852,-3.216323
11.185,2.0,1.0,1.0,34.3,34.6,34.6,1.8,2.7,2.7725,-0.1329549305992433,0.3919908035929969,0.247352228242509,-0.5859088456687365,-11.031425,-3.036908
11.185,2.0,1.0,1.0,34.3,34.6,34.6,1.8,2.7,2.775,-0.08747168629316587,0.4547986645490824,0.26850754082667,-0.5518829347415258,-10.982824,-2.912252
11.185,2.0,1.0,1.0,34.3,34.6,34.6,1.8,2.7,2.7775,-0.04818762436655639,0.5113014771914054,0.29883299751122844,-0.5082918186382547,-10.379945,-2.841723
11.185,2.0,1.0,1.0,34.3,34.6,34.6,1.8,2.7,2.78,-0.01702813912245039,0.55962242372888,0.33639017090826007,-0.45707245728604073,-9.45202,-2.822526
11.185,2.0,1.0,1.0,34.3,34.6,34.6,1.8,2.7,2.7825,0.004829842420872764,0.5986329419843769,0.37883768838817866,-0.40054350035469194,-8.430231,-2.85003
11.185,2.0,1.0,1.0,34.3,34.6,34.6,1.8,2.7,2.785,0.01699840744897252,0.6279858938984767,0.4237510195413377,-0.3410878524184564,-7.450802,-2.91828
11.185,2.0,1.0,1.0,34.3,34.6,34.6,1.8,2.7,2.7875,0.019783401412485194,0.6480152505520749,0.468898660203335,-0.28088129356043673,-6.570696,-3.020578
11.185,2.0,1.0,1.0,34.3,34.6,34.6,1.8,2.7,2.79,0.014005071936605926,0.6595545103755347,0.5124256831313628,-0.22171457272281953,-5.804139,-3.150026
11.185,2.0,1.0,1.0,34.3,34.6,34.6,1.8,2.7,2.7925,0.0007940058648992201,0.6637328545919833,0.5529341226619277,-0.1649181266090966,-5.146523,-3.299961
11.185,2.0,1.0,1.0,34.3,34.6,34.6,1.8,2.7,2.795,-0.018591948536631504,0.6617938649157769,0.5894785867883785,-0.11137024215908091,-4.586321,-3.464263
11.185,2.0,1.0,1.0,34.3,34.6,34.6,1.8,2.7,2.7975,-0.042905916918397895,0.6549597520923116,0.6215079393006373,-0.061557626638972324,-4.110418,-3.637513
11.185,2.0,1.0,1.0,34.3,34.6,34.6,1.8,2.7,2.8,-0.07100061787070899,0.644345180702002,0.6487827556948319,-0.015658884690857494,-3.70631,-3.815064
11.185,2.0,1.0,1.0,34.3,34.6,34.6,1.8,2.7,2.8025,-0.10187425812448776,0.6309134004064926,0.6712902233199025,0.026370398209076884,-3.362907,-3.993024
11.185,2.0,1.0,1.0,34.3,34.6,34.6,1.8,2.7,2.805,-0.13468515615584875,0.615463077125888,0.6891689425134386,0.06472304983500438,-3.070704,-4.168195
11.185,2.0,1.0,1.0,34.3,34.6,34.6,1.8,2.7,2.8075,-0.16874644606022016,0.59863447301133,0.7026487400001126,0.09968099872962577,-2.821709,-4.337988
11.185,2.0,1.0,1.0,34.3,34.6,34.6,1.8,2.7,2.81,-0.20350994201116315,0.5809259709256314,0.7120059365436539,0.13157149797351933,-2.609273,-4.500335
11.185,2.0,1.0,1.0,34.3,34.6,34.6,1.8,2.7,2.8125,-0.238545483031868,0.562714720836946,0.717532130749068,0.160736830931367,-2.42789,-4.653595
11.185,2.0,1.0,1.0,34.3,34.6,34.6,1.8,2.7,2.815,-0.27351967059524657,0.5442775842725597,0.7195137207333365,0.18751466396852673,-2.273021,-4.796477
11.185,2.0,1.0,1.0,34.3,34.6,34.6,1.8,2.7,2.8175,-0.30817612952281354,0.52581031424312,0.7182194052166525,0.21222626796294394,-2.140927,-4.927968
11.185,2.0,1.0,1.0,34.3,34.6,34.6,1.8,2.7,2.82,-0.34231824286779544,0.5074440645637156,0.7138933114713433,0.23517025613629575,-2.028534,-5.04727
11.185,2.0,1.0,1.0,34.3,34.6,34.6,1.8,2.7,2.8225,-0.3757946016567788,0.48925901105641106,0.7067519116646388,0.25662000801360824,-1.933318,-5.153753
11.185,2.0,1.0,1.0,34.3,34.6,34.6,1.8,2.7,2.825,-0.4084870254869363,0.47129523412880675,0.6969833735082265,0.27682343460731823,-1.853213,-5.246915
11.185,2.0,1.0,1.0,34.3,34.6,34.6,1.8,2.7,2.8275,-0.440300830662782,0.45356117687266334,0.6847483922474092,0.2960041375544289,-1.786534,-5.326344
11.185,2.0,1.0,1.0,34.3,34.6,34.6,1.8,2.7,2.83,-0.4711569632505619,0.4360400398819096,0.6701818596282121,0.314363317280922,-1.731917,-5.391695
11.185,2.0,1.0,1.0,34.3,34.6,34.6,1.8,2.7,2.8325,-0.5009856190374206,0.4186944586308125,0.6533949519855179,0.3320820034271836,-1.68827,-5.442669
