1,w,sub_t,h,l1,l2,l3,g1,g2,Freq,S11_re,S21_re,S11_img,S21_img,S11_dB,S21_dB
11.185,2.0,1.0,1.0,33.8,33.4,33.4,1.9,3.7,2.5,0.809714594643577,-0.0101695043628273,0.574470915076913,0.00735251573876482,-0.062753,-38.027793
11.185,2.0,1.0,1.0,33.8,33.4,33.4,1.9,3.7,2.5025,0.8054939561217674,-0.01036829724756627,0.5802490266466838,0.007369855380375588,-0.063392,-37.909776
11.185,2.0,1.0,1.0,33.8,33.4,33.4,1.9,3.7,2.505,0.8012107494154292,-0.01057055250769749,0.5860231358522868,0.0073857825799833465,-0.064043,-37.791434
11.185,2.0,1.0,1.0,33.8,33.4,33.4,1.9,3.7,2.5075,0.7968643076821152,-0.010776334034230221,0.5917928500202804,0.0074002391521636275,-0.064705,-37.672759
11.185,2.0,1.0,1.0,33.8,33.4,33.4,1.9,3.7,2.51,0.7924539540133099,-0.010985707011739398,0.5975577642407891,0.007413164787368113,-0.06538,-37.553747
11.185,2.0,1.0,1.0,33.8,33.4,33.4,1.9,3.7,2.5125,0.7879790013055391,-0.011198737942967798,0.6033174609708549,0.007424496969902005,-0.066066,-37.434389
11.185,2.0,1.0,1.0,33.8,33.4,33.4,1.9,3.7,2.515,0.7834387521318369,-0.01141549467362652,0.609071509624695,0.0074341708924917285,-0.066765,-37.314679
11.185,2.0,1.0,1.0,33.8,33.4,33.4,1.9,3.7,2.5175,0.7788324986137419,-0.011636046417368788,0.6148194661503954,0.007442119367290891,-0.067477,-37.19461
11.185,2.0,1.0,1.0,33.8,33.4,33.4,1.9,3.7,2.52,0.7741595222939742,-0.011860463780911504,0.6205608725925839,0.007448272733163347,-0.068201,-37.074175
11.185,2.0,1.0,1.0,33.8,33.4,33.4,1.9,3.7,2.5225,0.7694190940100024,-0.012088818789273814,0.6262952566405756,0.007452558759075965,-0.068939,-36.953368
11.185,2.0,1.0,1.0,33.8,33.4,33.4,1.9,3.7,2.525,0.7646104737686676,-0.01232118491110107,0.6320221311615006,0.007454902543424301,-0.069691,-36.832181
11.185,2.0,1.0,1.0,33.8,33.4,33.4,1.9,3.7,2.5275,0.7597329106220932,-0.012557637084037345,0.637740993717886,0.007455226409106624,-0.070457,-36.710608
11.185,2.0,1.0,1.0,33.8,33.4,33.4,1.9,3.7,2.53,0.7547856425451012,-0.012798251740106828,0.6434513260691395,0.0074534497941522275,-0.071237,-36.58864
11.185,2.0,1.0,1.0,33.8,33.4,33.4,1.9,3.7,2.5325,0.7497678963143686,-0.013043106831060228,0.6491525936563793,0.007449489137700402,-0.072031,-36.466272
11.185,2.0,1.0,1.0,33.8,33.4,33.4,1.9,3.7,2.535,0.7446788873895878,-0.013292281853637887,0.654844245070027,0.007443257761116978,-0.072841,-36.343495
11.185,2.0,1.0,1.0,33.8,33.4,33.4,1.9,3.7,2.5375,0.7395178197969036,-0.013545857874696603,0.6605257114995461,0.007434665744023657,-0.073666,-36.220302
11.185,2.0,1.0,1.0,33.8,33.4,33.4,1.9,3.7,2.54,0.7342838860149169,-0.013803917556142832,0.6661964061647108,0.007423619795005697,-0.074507,-36.096686
11.185,2.0,1.0,1.0,33.8,33.4,33.4,1.9,3.7,2.5425,0.7289762668635726,-0.01406654517960748,0.671855723727749,0.0074100231167501624,-0.075364,-35.972639
11.185,2.0,1.0,1.0,33.8,33.4,33.4,1.9,3.7,2.545,0.7235941313962574,-0.014333826670794508,0.6775030396856826,0.0073937752653561156,-0.076238,-35.848154
11.185,2.0,1.0,1.0,33.8,33.4,33.4,1.9,3.7,2.5475,0.7181366367954787,-0.014605849623425938,0.6831377097421621,0.0073747720035439585,-0.077128,-35.723223
11.185,2.0,1.0,1.0,33.8,33.4,33.4,1.9,3.7,2.55,0.7126029282724844,-0.014882703322702013,0.688759069158084,0.0073529051474778276,-0.078036,-35.597837
11.185,2.0,1.0,1.0,33.8,33.4,33.4,1.9,3.7,2.5525,0.7069921389712527,-0.015164478768185037,0.6943664320802141,0.007328062406900913,-0.078962,-35.47199
11.185,2.0,1.0,1.0,33.8,33.4,33.4,1.9,3.7,2.555,0.7013033898772619,-0.015451268696009093,0.6999590908470578,0.007300127218267352,-0.079906,-35.345672
11.185,2.0,1.0,1.0,33.8,33.4,33.4,1.9,3.7,2.5575,0.695535789731513,-0.015743167600309353,0.7055363152711593,0.007268978570539076,-0.080869,-35.218877
11.185,2.0,1.0,1.0,33.8,33.4,33.4,1.9,3.7,2.56,0.6896884349502946,-0.016040271753752514,0.7110973518969868,0.007234490823298582,-0.081851,-35.091595
11.185,2.0,1.0,1.0,33.8,33.4,33.4,1.9,3.7,2.5625,0.6837604095512113,-0.016342679227044056,0.7166414232335375,0.007196533516811287,-0.082853,-34.963819
11.185,2.0,1.0,1.0,33.8,33.4,33.4,1.9,3.7,2.565,0.6777507850860267,-0.016650489907272734,0.7221677269607586,0.007154971173650805,-0.083875,-34.83554
11.185,2.0,1.0,1.0,33.8,33.4,33.4,1.9,3.7,2.5675,0.671658620580928,-0.016963805514943066,0.7276754351088445,0.007109663091482682,-0.084918,-34.706749
11.185,2.0,1.0,1.0,33.8,33.4,33.4,1.9,3.7,2.57,0.6654829624848292,-0.01728272961953416,0.7331636932094401,0.0070604631265790705,-0.085982,-34.577438
11.185,2.0,1.0,1.0,33.8,33.4,33.4,1.9,3.7,2.5725,0.6592228446263896,-0.017607367653407053,0.7386316194177445,0.007007219467615834,-0.087068,-34.447598
11.185,2.0,1.0,1.0,33.8,33.4,33.4,1.9,3.7,2.575,0.6528772881804642,-0.017937826923869953,0.7440783036044666,0.006949774399279583,-0.088177,-34.31722
11.185,2.0,1.0,1.0,33.8,33.4,33.4,1.9,3.7,2.5775,0.6464453016447439,-0.018274216623193177,0.7495028064165464,0.006887964055187628,-0.089308,-34.186295
11.185,2.0,1.0,1.0,33.8,33.4,33.4,1.9,3.7,2.58,0.6399258808274009,-0.018616647836347984,0.7549041583055184,0.006821618159597334,-0.090464,-34.054814
11.185,2.0,1.0,1.0,33.8,33.4,33.4,1.9,3.7,2.5825,0.6333180088465916,-0.018965233546226107,0.7602813585223506,0.006750559757354128,-0.091643,-33.922768
11.185,2.0,1.0,1.0,33.8,33.4,33.4,1.9,3.7,2.585,0.6266206561427411,-0.019320088636072593,0.7656333740775422,0.006674604931497766,-0.092848,-33.790148
11.185,2.0,1.0,1.0,33.8,33.4,33.4,1.9,3.7,2.5875,0.6198327805045792,-0.01968132988884749,0.7709591386652321,0.006593562507915746,-0.094078,-33.656943
11.185,2.0,1.0,1.0,33.8,33.4,33.4,1.9,3.7,2.59,0.6129533271099701,-0.02004907598320251,0.7762575515500001,0.006507233746400304,-0.095335,-33.523144
11.185,2.0,1.0,1.0,33.8,33.4,33.4,1.9,3.7,2.5925,0.6059812285826298,-0.020423447485736098,0.7815274764150224,0.006415412017430318,-0.096618,-33.388741
11.185,2.0,1.0,1.0,33.8,33.4,33.4,1.9,3.7,2.595,0.5989154050659212,-0.020804566839161695,0.7867677401701596,0.006317882463963795,-0.09793,-33.253725
11.185,2.0,1.0,1.0,33.8,33.4,33.4,1.9,3.7,2.5975,0.591754764314955,-0.021192558345991715,0.7919771317185328,0.006214421647486817,-0.09927,-33.118085
11.185,2.0,1.0,1.0,33.8,33.4,33.4,1.9,3.7,2.6,0.5844982018083351,-0.021587548147308816,0.7971544006800715,0.00610479717752528,-0.10064,-32.98181
11.185,2.0,1.0,1.0,33.8,33.4,33.4,1.9,3.7,2.6025,0.5771446008809648,-0.02198966419615917,0.8022982560704515,0.005988767323781186,-0.10204,-32.844891
11.185,2.0,1.0,1.0,33.8,33.4,33.4,1.9,3.7,2.605,0.5696928328794031,-0.02239903622506312,0.8074073649338092,0.005866080610010603,-0.103471,-32.707317
11.185,2.0,1.0,1.0,33.8,33.4,33.4,1.9,3.7,2.6075,0.5621417573413784,-0.02281579570709827,0.8124803509275255,0.005736475388711088,-0.104934,-32.569077
11.185,2.0,1.0,1.0,33.8,33.4,33.4,1.9,3.7,2.61,0.5544902222011606,-0.023240075809962377,0.817515792857329,0.005599679395635709,-0.10643,-32.43016
11.185,2.0,1.0,1.0,33.8,33.4,33.4,1.9,3.7,2.6125,0.546737064022594,-0.023672011342375874,0.8225122231608912,0.005455409283095868,-0.10796,-32.290555
11.185,2.0,1.0,1.0,33.8,33.4,33.4,1.9,3.7,2.615,0.5388811082617138,-0.02411173869212935,0.8274681263380216,0.005303370130957997,-0.109525,-32.150251
11.185,2.0,1.0,1.0,33.8,33.4,33.4,1.9,3.7,2.6175,0.5309211695610057,-0.024559395755023472,0.8323819373254946,0.00514325493417847,-0.111126,-32.009236
11.185,2.0,1.0,1.0,33.8,33.4,33.4,1.9,3.7,2.62,0.5228560520774737,-0.025015121853885235,0.8372520398144636,0.004974744065655207,-0.112764,-31.867498
11.185,2.0,1.0,1.0,33.8,33.4,33.4,1.9,3.7,2.6225,0.5146845498468408,-0.02547905764677783,0.8420767645083476,0.004797504713108131,-0.11444,-31.725025
11.185,2.0,1.0,1.0,33.8,33.4,33.4,1.9,3.7,2.625,0.506405447186358,-0.0259513450234444,0.846854387318975,0.0046111902886261,-0.116155,-31.581806
11.185,2.0,1.0,1.0,33.8,33.4,33.4,1.9,3.7,2.6275,0.4980175191388355,-0.026432126988947705,0.8515831274987128,0.004415439809441836,-0.117911,-31.437828
11.185,2.0,1.0,1.0,33.8,33.4,33.4,1.9,3.7,2.63,0.48951953196070563,-0.02692154753337954,0.8562611457061908,0.004209877248415475,-0.119708,-31.293078
11.185,2.0,1.0,1.0,33.8,33.4,33.4,1.9,3.7,2.6325,0.4809102436570932,-0.027419751486416497,0.8608865420031592,0.003994110852619858,-0.121549,-31.147543
11.185,2.0,1.0,1.0,33.8,33.4,33.4,1.9,3.7,2.635,0.4721884045670658,-0.027926884355399213,0.8654573537799136,0.0037677324283294047,-0.123434,-31.001212
11.185,2.0,1.0,1.0,33.8,33.4,33.4,1.9,3.7,2.6375,0.46335275800246034,-0.028443092145494633,0.8699715536066159,0.0035303165906181867,-0.125365,-30.854069
11.185,2.0,1.0,1.0,33.8,33.4,33.4,1.9,3.7,2.64,0.45440204094386377,-0.02896852116038223,0.8744270470077544,0.0032814199756677795,-0.127343,-30.706102
11.185,2.0,1.0,1.0,33.8,33.4,33.4,1.9,3.7,2.6425,0.44533498479761546,-0.029503317781770053,0.8788216701568552,0.0030205804137783125,-0.12937,-30.557298
11.185,2.0,1.0,1.0,33.8,33.4,33.4,1.9,3.7,2.645,0.4361503162179135,-0.03004762822590096,0.8831531874884565,0.0027473160609583617,-0.131447,-30.407641
11.185,2.0,1.0,1.0,33.8,33.4,33.4,1.9,3.7,2.6475,0.42684675799840305,-0.030601598275050414,0.8874192892242395,0.0024611244868477933,-0.133576,-30.257118
11.185,2.0,1.0,1.0,33.8,33.4,33.4,1.9,3.7,2.65,0.41742303003788667,-0.03116537298184811,0.8916175888100867,0.0021614817165955783,-0.135759,-30.105713
11.185,2.0,1.0,1.0,33.8,33.4,33.4,1.9,3.7,2.6525,0.4078778503851685,-0.031739096344061,0.8957456202607029,0.0018478412241783313,-0.137997,-29.953413
11.185,2.0,1.0,1.0,33.8,33.4,33.4,1.9,3.7,2.655,0.3982099363682996,-0.0323229109472774,0.899800835408309,0.0015196328744956531,-0.140292,-29.800202
11.185,2.0,1.0,1.0,33.8,33.4,33.4,1.9,3.7,2.6575,0.38841800581392344,-0.03291695757270024,0.9037806010517849,0.001176261811425264,-0.142647,-29.646064
11.185,2.0,1.0,1.0,33.8,33.4,33.4,1.9,3.7,2.66,0.37850077836276463,-0.03352137476701979,0.907682196002474,0.0008171072888541166,-0.145062,-29.490984
11.185,2.0,1.0,1.0,33.8,33.4,33.4,1.9,3.7,2.6625,0.3684569768877475,-0.03413629837105991,0.9115028080227322,0.0004415214415269015,-0.147541,-29.334945
11.185,2.0,1.0,1.0,33.8,33.4,33.4,1.9,3.7,2.665,0.3582853290216453,-0.03476186100360973,0.9152395306531376,4.882799236711176e-05,-0.150086,-29.177931
11.185,2.0,1.0,1.0,33.8,33.4,33.4,1.9,3.7,2.6675,0.3479845688016917,-0.03539819149652042,0.9188893599241051,-0.00036167910726985403,-0.152698,-29.019925
11.185,2.0,1.0,1.0,33.8,33.4,33.4,1.9,3.7,2.67,0.33755343843905383,-0.0360454142768071,0.9224491909475016,-0.000790737108162536,-0.15538,-28.86091
11.185,2.0,1.0,1.0,33.8,33.4,33.4,1.9,3.7,2.6725,0.3269906902216616,-0.03670364869110461,0.9259158143836536,-0.0012391159685794966,-0.158135,-28.700868
11.185,2.0,1.0,1.0,33.8,33.4,33.4,1.9,3.7,2.675,0.3162950885594828,-0.03737300826740766,0.9292859127789774,-0.0017076199386308417,-0.160965,-28.539782
11.185,2.0,1.0,1.0,33.8,33.4,33.4,1.9,3.7,2.6775,0.3054654121819783,-0.03805359990856426,0.9325560567692533,-0.002197089228069415,-0.163873,-28.377632
11.185,2.0,1.0,1.0,33.8,33.4,33.4,1.9,3.7,2.68,0.2945004564981885,-0.03874552301148537,0.9357227011433678,-0.0027084017622572816,-0.166861,-28.2144
11.185,2.0,1.0,1.0,33.8,33.4,33.4,1.9,3.7,2.6825,0.2833990361306629,-0.03944886850547567,0.9387821807621481,-0.00324247503129127,-0.169934,-28.050067
11.185,2.0,1.0,1.0,33.8,33.4,33.4,1.9,3.7,2.685,0.27215998763526184,-0.04016371780248196,0.9417307063266904,-0.0038002680375740098,-0.173093,-27.884613
11.185,2.0,1.0,1.0,33.8,33.4,33.4,1.9,3.7,2.6875,0.2607821724197677,-0.04089014165138197,0.9445643599903538,-0.004382783347427278,-0.176342,-27.718018
11.185,2.0,1.0,1.0,33.8,33.4,33.4,1.9,3.7,2.69,0.24926447987522007,-0.04162819888769883,0.9472790908083675,-0.004991069252668182,-0.179684,-27.550262
11.185,2.0,1.0,1.0,33.8,33.4,33.4,1.9,3.7,2.6925,0.23760583073490957,-0.04237793506931182,0.9498707100187571,-0.00562622204841724,-0.183123,-27.381322
11.185,2.0,1.0,1.0,33.8,33.4,33.4,1.9,3.7,2.695,0.22580518067718036,-0.04313938098783762,0.9523348861480414,-0.006289388433762178,-0.186664,-27.211178
11.185,2.0,1.0,1.0,33.8,33.4,33.4,1.9,3.7,2.6975,0.2138615241893568,-0.04391255104437067,0.9546671399349005,-0.006981768042287882,-0.190308,-27.039808
11.185,2.0,1.0,1.0,33.8,33.4,33.4,1.9,3.7,2.7,0.201773898711553,-0.04469744147717635,0.9568628390647478,-0.007704616109874603,-0.194062,-26.867188
11.185,2.0,1.0,1.0,33.8,33.4,33.4,1.9,3.7,2.7025,0.18954138908054124,-0.045494028427732314,0.9589171927078786,-0.008459246287586757,-0.197929,-26.693295
11.185,2.0,1.0,1.0,33.8,33.4,33.4,1.9,3.7,2.705,0.17716313229553637,-0.04630226583017878,0.9608252458535762,-0.00924703360790522,-0.201913,-26.518106
11.185,2.0,1.0,1.0,33.8,33.4,33.4,1.9,3.7,2.7075,0.16463832262946487,-0.04712208310777198,0.9625818734322975,-0.01006941761300895,-0.20602,-26.341595
11.185,2.0,1.0,1.0,33.8,33.4,33.4,1.9,3.7,2.71,0.15196621711130354,-0.047953382658303206,0.9641817742177651,-0.010927905654276855,-0.210255,-26.163738
11.185,2.0,1.0,1.0,33.8,33.4,33.4,1.9,3.7,2.7125,0.13914614140710888,-0.04879603710864934,0.9656194645005207,-0.011824076372664014,-0.214622,-25.984509
11.185,2.0,1.0,1.0,33.8,33.4,33.4,1.9,3.7,2.715,0.12617749612978266,-0.049649886316617035,0.9668892715242119,-0.012759583370097834,-0.219128,-25.803882
11.185,2.0,1.0,1.0,33.8,33.4,33.4,1.9,3.7,2.7175,0.113059763610108,-0.05051473409603273,0.9679853266756225,-0.01373615908254449,-0.223778,-25.621828
11.185,2.0,1.0,1.0,33.8,33.4,33.4,1.9,3.7,2.72,0.09979251516447364,-0.05139034463856638,0.9689015584191957,-0.014755618865901397,-0.228579,-25.438321
11.185,2.0,1.0,1.0,33.8,33.4,33.4,1.9,3.7,2.7225,0.08637541889773596,-0.052276438603049195,0.9696316849665524,-0.015819865306384018,-0.233537,-25.25333
11.185,2.0,1.0,1.0,33.8,33.4,33.4,1.9,3.7,2.725,0.07280824808318377,-0.053172688840000606,0.9701692066713117,-0.01693089276756965,-0.238659,-25.066828
11.185,2.0,1.0,1.0,33.8,33.4,33.4,1.9,3.7,2.7275,0.05909089016524375,-0.05407871571570793,0.9705073981393203,-0.018090792186756834,-0.243953,-24.878783
11.185,2.0,1.0,1.0,33.8,33.4,33.4,1.9,3.7,2.73,0.045223356434846276,-0.054994081996424256,0.9706393000442876,-0.01930175613374974,-0.249425,-24.689164
11.185,2.0,1.0,1.0,33.8,33.4,33.4,1.9,3.7,2.7325,0.031205792431902118,-0.055918287249065945,0.9705577106387248,-0.020566084145608038,-0.255085,-24.497938
11.185,2.0,1.0,1.0,33.8,33.4,33.4,1.9,3.7,2.735,0.017038489134538506,-0.05685076171009622,0.9702551769501239,-0.021886188351263124,-0.260942,-24.305074
11.185,2.0,1.0,1.0,33.8,33.4,33.4,1.9,3.7,2.7375,0.0027218950003631242,-0.05779085956906204,0.9697239856523815,-0.02326459940019732,-0.267003,-24.110536
11.185,2.0,1.0,1.0,33.8,33.4,33.4,1.9,3.7,2.74,-0.01174337106860612,-0.05873785160740323,0.9689561536027346,-0.02470397270956935,-0.27328,-23.914289
11.185,2.0,1.0,1.0,33.8,33.4,33.4,1.9,3.7,2.7425,-0.026356505758737096,-0.05969091712662396,0.9679434180348364,-0.026207095044232253,-0.279782,-23.716297
11.185,2.0,1.0,1.0,33.8,33.4,33.4,1.9,3.7,2.745,-0.04111650628885025,-0.06064913509260065,0.966677226399195,-0.027776891443975625,-0.28652,-23.516524
11.185,2.0,1.0,1.0,33.8,33.4,33.4,1.9,3.7,2.7475,-0.05602215417038572,-0.06161147441461199,0.9651487258430163,-0.02941643251199881,-0.293507,-23.314929
11.185,2.0,1.0,1.0,33.8,33.4,33.4,1.9,3.7,2.75,-0.0710719976787939,-0.0625767832684932,0.963348752322615,-0.0311289420780212,-0.300755,-23.111474
11.185,2.0,1.0,1.0,33.8,33.4,33.4,1.9,3.7,2.7525,-0.08626433292039005,-0.06354377736301914,0.9612678193430506,-0.03291780524849349,-0.308277,-22.906119
11.185,2.0,1.0,1.0,33.8,33.4,33.4,1.9,3.7,2.755,-0.10159718336674255,-0.0645110270370516,0.9588961063215949,-0.03478657685500029,-0.316087,-22.698819
11.185,2.0,1.0,1.0,33.8,33.4,33.4,1.9,3.7,2.7575,-0.11706827771512114,-0.06547694306200369,0.9562234465741468,-0.03673899031005143,-0.324201,-22.489532
11.185,2.0,1.0,1.0,33.8,33.4,33.4,1.9,3.7,2.76,-0.1326750259181697,-0.06643976100955659,0.9532393149269005,-0.03877896687688924,-0.332634,-22.278214
11.185,2.0,1.0,1.0,33.8,33.4,33.4,1.9,3.7,2.7625,-0.14841449320898029,-0.06739752402814951,0.9499328149596015,-0.040910625356582055,-0.341404,-22.064816
11.185,2.0,1.0,1.0,33.8,33.4,33.4,1.9,3.7,2.765,-0.1642833719284203,-0.06834806385325641,0.946292665891808,-0.043138292191297486,-0.35053,-21.849292
11.185,2.0,1.0,1.0,33.8,33.4,33.4,1.9,3.7,2.7675,-0.18027795094004945,-0.06928897985564805,0.942307189129859,-0.04546651197706045,-0.360031,-21.631592
11.185,2.0,1.0,1.0,33.8,33.4,33.4,1.9,3.7,2.77,-0.19639408239366532,-0.07021761590837067,0.9379642945001377,-0.04790005837220398,-0.369929,-21.411664
11.185,2.0,1.0,1.0,33.8,33.4,33.4,1.9,3.7,2.7725,-0.21262714557118265,-0.07113103482672499,0.9332514662039159,-0.050443945378777805,-0.380246,-21.189456
11.185,2.0,1.0,1.0,33.8,33.4,33.4,1.9,3.7,2.775,-0.22897200751782365,-0.07202599010571814,0.9281557485410938,-0.053103438962987345,-0.391007,-20.964912
11.185,2.0,1.0,1.0,33.8,33.4,33.4,1.9,3.7,2.7775,-0.24542298012694355,-0.07289889464583606,0.9226637314649476,-0.0558840689667823,-0.402239,-20.737976
11.185,2.0,1.0,1.0,33.8,33.4,33.4,1.9,3.7,2.78,-0.2619737733078267,-0.07374578612007798,0.9167615360481997,-0.05879164124539336,-0.41397,-20.50859
11.185,2.0,1.0,1.0,33.8,33.4,33.4,1.9,3.7,2.7825,-0.2786174438217796,-0.07456228859243964,0.9104347999631089,-0.06183224994416673,-0.42623,-20.276693
11.185,2.0,1.0,1.0,33.8,33.4,33.4,1.9,3.7,2.785,-0.29534633932241783,-0.07534356994985836,0.9036686631056706,-0.06501228980159242,-0.439053,-20.042222
11.185,2.0,1.0,1.0,33.8,33.4,33.4,1.9,3.7,2.7875,-0.3121520370801997,-0.0760842946553346,0.8964477535276745,-0.06833846833278698,-0.452475,-19.805112
11.185,2.0,1.0,1.0,33.8,33.4,33.4,1.9,3.7,2.79,-0.32902527680857474,-0.0767785712688452,0.8887561738815188,-0.07181781770759994,-0.466535,-19.565297
11.185,2.0,1.0,1.0,33.8,33.4,33.4,1.9,3.7,2.7925,-0.3459558869385067,-0.07741989411392702,0.8805774886330632,-0.07545770608821571,-0.481274,-19.322707
11.185,2.0,1.0,1.0,33.8,33.4,33.4,1.9,3.7,2.795,-0.3629327036089625,-0.07800107839065039,0.8718947123594569,-0.07926584813068137,-0.496738,-19.077271
11.185,2.0,1.0,1.0,33.8,33.4,33.4,1.9,3.7,2.7975,-0.3799434815520359,-0.07851418794920113,0.8626902995242903,-0.08325031428063183,-0.512978,-18.828914
11.185,2.0,1.0,1.0,33.8,33.4,33.4,1.9,3.7,2.8,-0.3969747959521608,-0.07895045484159814,0.8529461362145891,-0.0874195384026818,-0.530047,-18.577561
11.185,2.0,1.0,1.0,33.8,33.4,33.4,1.9,3.7,2.8025,-0.4140119342480027,-0.0793001896613106,0.8426435344369189,-0.09178232317170977,-0.548003,-18.323131
11.185,2.0,1.0,1.0,33.8,33.4,33.4,1.9,3.7,2.805,-0.4310387767226025,-0.07955268156092159,0.8317632297077008,-0.09634784251810471,-0.566913,-18.065544
11.185,2.0,1.0,1.0,33.8,33.4,33.4,1.9,3.7,2.8075,-0.44803766459134214,-0.07969608670591466,0.8202853828413269,-0.10112564025244111,-0.586845,-17.804715
11.185,2.0,1.0,1.0,33.8,33.4,33.4,1.9,3.7,2.81,-0.4649892541479513,-0.07971730377779197,0.8081895870456021,-0.10612562379121938,-0.607876,-17.540558
11.185,2.0,1.0,1.0,33.8,33.4,33.4,1.9,3.7,2.8125,-0.481872355365999,-0.0796018349822012,0.795454881685936,-0.111358051656014,-0.630093,-17.272984
11.185,2.0,1.0,1.0,33.8,33.4,33.4,1.9,3.7,2.815,-0.4986637531781028,-0.07933363084839794,0.7820597743873372,-0.1168335131135896,-0.653586,-17.0019
11.185,2.0,1.0,1.0,33.8,33.4,33.4,1.9,3.7,2.8175,-0.515338009468889,-0.07889491692704946,0.7679822735194379,-0.12256289795199161,-0.67846,-16.727214
11.185,2.0,1.0,1.0,33.8,33.4,33.4,1.9,3.7,2.82,-0.5318672436240109,-0.0782660003075092,0.7531999335691704,-0.12855735393247078,-0.704825,-16.448827
11.185,2.0,1.0,1.0,33.8,33.4,33.4,1.9,3.7,2.8225,-0.5482208892816743,-0.07742505368877994,0.737689916466757,-0.1348282289013491,-0.732808,-16.166642
11.185,2.0,1.0,1.0,33.8,33.4,33.4,1.9,3.7,2.825,-0.5643654247434398,-0.0763478745590436,0.7214290726152164,-0.1413869938678603,-0.762545,-15.880559
11.185,2.0,1.0,1.0,33.8,33.4,33.4,1.9,3.7,2.8275,-0.5802640743304905,-0.07500761687970414,0.7043940462081357,-0.14824514252754759,-0.794189,-15.590474
