1,w,sub_t,h,l1,l2,l3,g1,g2,Freq,S11_re,S21_re,S11_img,S21_img,S11_dB,S21_dB
11.185,2.0,1.0,1.0,33.0,34.8,34.8,1.8,2.5,2.5,0.890554980996827,-0.0110300559757865,0.438482086584947,0.0131460318784643,-0.064074,-35.309438
11.185,2.0,1.0,1.0,33.0,34.8,34.8,1.8,2.5,2.5025,0.8876610944594757,-0.011311410506661021,0.44410869670560615,0.013286658007889914,-0.064867,-35.164365
11.185,2.0,1.0,1.0,33.0,34.8,34.8,1.8,2.5,2.505,0.8847163967493503,-0.011600008415936643,0.4497414319156223,0.013428615451365351,-0.06568,-35.01844
11.185,2.0,1.0,1.0,33.0,34.8,34.8,1.8,2.5,2.5075,0.8817202135806771,-0.01189608400672486,0.4553802186253914,0.013571910201835938,-0.066512,-34.871642
11.185,2.0,1.0,1.0,33.0,34.8,34.8,1.8,2.5,2.51,0.878671852360958,-0.01219988134170003,0.46102497950230614,0.013716547364662171,-0.067365,-34.723949
11.185,2.0,1.0,1.0,33.0,34.8,34.8,1.8,2.5,2.5125,0.8755706014874665,-0.012511654741111452,0.4666756332608965,0.013862531059501568,-0.06824,-34.57534
11.185,2.0,1.0,1.0,33.0,34.8,34.8,1.8,2.5,2.515,0.8724157296073676,-0.012831669310889247,0.47233209443974156,0.014009864313140101,-0.069136,-34.425794
11.185,2.0,1.0,1.0,33.0,34.8,34.8,1.8,2.5,2.5175,0.8692064848391227,-0.013160201502945796,0.4779942731641056,0.014158548942415878,-0.070056,-34.275287
11.185,2.0,1.0,1.0,33.0,34.8,34.8,1.8,2.5,2.52,0.8659420939526338,-0.013497539709944238,0.48366207489319113,0.014308585426291785,-0.070999,-34.123797
11.185,2.0,1.0,1.0,33.0,34.8,34.8,1.8,2.5,2.5225,0.8626217615054238,-0.013843984896983363,0.48933540015074894,0.014459972766036083,-0.071967,-33.9713
11.185,2.0,1.0,1.0,33.0,34.8,34.8,1.8,2.5,2.525,0.859244668931903,-0.014199851272849411,0.49501414423772416,0.014612708332364005,-0.072961,-33.817772
11.185,2.0,1.0,1.0,33.0,34.8,34.8,1.8,2.5,2.5275,0.855809973582558,-0.014565467003700117,0.5006981969254344,0.014766787698272983,-0.073982,-33.663186
11.185,2.0,1.0,1.0,33.0,34.8,34.8,1.8,2.5,2.53,0.8523168077096519,-0.01494117497227985,0.5063874421276686,0.01492220445617189,-0.07503,-33.507519
11.185,2.0,1.0,1.0,33.0,34.8,34.8,1.8,2.5,2.5325,0.8487642773957464,-0.015327333586024826,0.5120817575499274,0.015078950017756654,-0.076106,-33.350743
11.185,2.0,1.0,1.0,33.0,34.8,34.8,1.8,2.5,2.535,0.8451514614210471,-0.015724317637695818,0.5177810143138323,0.015237013394920033,-0.077213,-33.192832
11.185,2.0,1.0,1.0,33.0,34.8,34.8,1.8,2.5,2.5375,0.8414774100652745,-0.016132519222483543,0.5234850765545618,0.015396380959798233,-0.078351,-33.033757
11.185,2.0,1.0,1.0,33.0,34.8,34.8,1.8,2.5,2.54,0.8377411438393799,-0.016552348715868352,0.5291938009889302,0.015557036181853029,-0.079521,-32.873489
11.185,2.0,1.0,1.0,33.0,34.8,34.8,1.8,2.5,2.5425,0.833941652142052,-0.016984235816883266,0.534907036451495,0.015718959339656707,-0.080724,-32.712
11.185,2.0,1.0,1.0,33.0,34.8,34.8,1.8,2.5,2.545,0.8300778918355309,-0.01742863066183269,0.5406246233957974,0.015882127204790455,-0.081963,-32.549259
11.185,2.0,1.0,1.0,33.0,34.8,34.8,1.8,2.5,2.5475,0.8261487857347856,-0.017886005013961124,0.5463463933575434,0.016046512694978234,-0.083238,-32.385234
11.185,2.0,1.0,1.0,33.0,34.8,34.8,1.8,2.5,2.55,0.8221532210035783,-0.018356853535053026,0.5520721683761857,0.01621208449325536,-0.084551,-32.219894
11.185,2.0,1.0,1.0,33.0,34.8,34.8,1.8,2.5,2.5525,0.8180900474504226,-0.018841695145475273,0.557801760370987,0.0163788066296061,-0.085904,-32.053204
11.185,2.0,1.0,1.0,33.0,34.8,34.8,1.8,2.5,2.555,0.8139580757167725,-0.019341074479763142,0.5635349704672216,0.016546638021098525,-0.087299,-31.885132
11.185,2.0,1.0,1.0,33.0,34.8,34.8,1.8,2.5,2.5575,0.8097560753491487,-0.019855563445493916,0.5692715882676882,0.016715531966083733,-0.088736,-31.715641
11.185,2.0,1.0,1.0,33.0,34.8,34.8,1.8,2.5,2.56,0.8054827727461429,-0.02038576289390176,0.5750113910641678,0.016885435587509445,-0.090219,-31.544696
11.185,2.0,1.0,1.0,33.0,34.8,34.8,1.8,2.5,2.5625,0.8011368489704308,-0.020932304411472032,0.5807541429828539,0.017056289219814058,-0.091749,-31.372258
11.185,2.0,1.0,1.0,33.0,34.8,34.8,1.8,2.5,2.565,0.796716937415016,-0.021495852242615028,0.5864995940570966,0.017228025733208033,-0.093328,-31.198289
11.185,2.0,1.0,1.0,33.0,34.8,34.8,1.8,2.5,2.5675,0.792221621311945,-0.022077105354471434,0.5922474792200306,0.0174005697884031,-0.094959,-31.022748
11.185,2.0,1.0,1.0,33.0,34.8,34.8,1.8,2.5,2.57,0.7876494310706309,-0.02267679965595605,0.5979975172087828,0.017573837014006503,-0.096644,-30.845595
11.185,2.0,1.0,1.0,33.0,34.8,34.8,1.8,2.5,2.5725,0.7829988414317115,-0.02329571038430895,0.6037494093709799,0.017747733097840394,-0.098386,-30.666787
11.185,2.0,1.0,1.0,33.0,34.8,34.8,1.8,2.5,2.575,0.7782682684210306,-0.023934654673710584,0.6095028383631289,0.017922152782360118,-0.100187,-30.486279
11.185,2.0,1.0,1.0,33.0,34.8,34.8,1.8,2.5,2.5775,0.7734560660868616,-0.024594494321944802,0.6152574667292136,0.01809697875311079,-0.10205,-30.304025
11.185,2.0,1.0,1.0,33.0,34.8,34.8,1.8,2.5,2.58,0.7685605230018396,-0.025276138772672416,0.6210129353463666,0.018272080407757022,-0.103979,-30.119978
11.185,2.0,1.0,1.0,33.0,34.8,34.8,1.8,2.5,2.5825,0.7635798585092598,-0.02598054833263467,0.6267688617228743,0.01844731249161967,-0.105976,-29.934089
11.185,2.0,1.0,1.0,33.0,34.8,34.8,1.8,2.5,2.585,0.758512218691385,-0.026708737645047907,0.6325248381318679,0.018622513583824718,-0.108046,-29.746308
11.185,2.0,1.0,1.0,33.0,34.8,34.8,1.8,2.5,2.5875,0.7533556720351717,-0.027461779442618708,0.6382804295619493,0.01879750441608284,-0.110191,-29.55658
11.185,2.0,1.0,1.0,33.0,34.8,34.8,1.8,2.5,2.59,0.7481082047683452,-0.02824080860600838,0.644035171463526,0.018972086003724693,-0.112417,-29.364853
11.185,2.0,1.0,1.0,33.0,34.8,34.8,1.8,2.5,2.5925,0.7427677158359712,-0.029047026556256312,0.6497885672668735,0.019146037565877877,-0.114727,-29.171068
11.185,2.0,1.0,1.0,33.0,34.8,34.8,1.8,2.5,2.595,0.7373320114846468,-0.029881706012646763,0.6555400856446976,0.019319114208521396,-0.117125,-28.975167
11.185,2.0,1.0,1.0,33.0,34.8,34.8,1.8,2.5,2.5975,0.7317987994179558,-0.030746196150829536,0.6612891574883305,0.019491044340535803,-0.119618,-28.777089
11.185,2.0,1.0,1.0,33.0,34.8,34.8,1.8,2.5,2.6,0.7261656824830675,-0.031641928199703004,0.6670351725624099,0.019661526788693227,-0.122209,-28.576771
11.185,2.0,1.0,1.0,33.0,34.8,34.8,1.8,2.5,2.6025,0.7204301518440938,-0.03257042151970147,0.6727774757980491,0.019830227572721605,-0.124905,-28.374146
11.185,2.0,1.0,1.0,33.0,34.8,34.8,1.8,2.5,2.605,0.7145895795930798,-0.03353329020974315,0.6785153631788345,0.019996776296011577,-0.127712,-28.169146
11.185,2.0,1.0,1.0,33.0,34.8,34.8,1.8,2.5,2.6075,0.7086412107442008,-0.03453225029524408,0.6842480771674754,0.020160762101092883,-0.130636,-27.961698
11.185,2.0,1.0,1.0,33.0,34.8,34.8,1.8,2.5,2.61,0.7025821545508677,-0.035569127555362276,0.6899748016133544,0.02032172913153335,-0.133685,-27.75173
11.185,2.0,1.0,1.0,33.0,34.8,34.8,1.8,2.5,2.6125,0.6964093750787882,-0.03664586605407449,0.6956946560724574,0.02047917143322621,-0.136865,-27.539162
11.185,2.0,1.0,1.0,33.0,34.8,34.8,1.8,2.5,2.615,0.6901196809606951,-0.037764537446882115,0.7014066894609253,0.020632527217916835,-0.140185,-27.323915
11.185,2.0,1.0,1.0,33.0,34.8,34.8,1.8,2.5,2.6175,0.6837097142501963,-0.038927351142989765,0.7071098729515516,0.02078117240001869,-0.143655,-27.105904
11.185,2.0,1.0,1.0,33.0,34.8,34.8,1.8,2.5,2.62,0.6771759382829746,-0.040136665411800644,0.71280309200864,0.020924413303972263,-0.147283,-26.88504
11.185,2.0,1.0,1.0,33.0,34.8,34.8,1.8,2.5,2.6225,0.6705146244432778,-0.04139499953262983,0.7184851374403166,0.02106147842324019,-0.15108,-26.661233
11.185,2.0,1.0,1.0,33.0,34.8,34.8,1.8,2.5,2.625,0.663721837722144,-0.0427050470977733,0.724154695328286,0.0211915090930617,-0.155057,-26.434386
11.185,2.0,1.0,1.0,33.0,34.8,34.8,1.8,2.5,2.6275,0.6567934209409417,-0.044069690591621816,0.7298103356725334,0.021313548916776264,-0.159226,-26.204398
11.185,2.0,1.0,1.0,33.0,34.8,34.8,1.8,2.5,2.63,0.6497249774995266,-0.045492017382496495,0.7354504995619743,0.021426531759217087,-0.163602,-25.971164
11.185,2.0,1.0,1.0,33.0,34.8,34.8,1.8,2.5,2.6325,0.6425118524923413,-0.04697533727946284,0.7410734846507907,0.02152926808959697,-0.168198,-25.734576
11.185,2.0,1.0,1.0,33.0,34.8,34.8,1.8,2.5,2.635,0.6351491120181118,-0.048523201823687925,0.7466774286831369,0.02162042941950006,-0.17303,-25.494516
11.185,2.0,1.0,1.0,33.0,34.8,34.8,1.8,2.5,2.6375,0.6276315204891565,-0.0501394255030779,0.7522602907649827,0.021698530537907233,-0.178116,-25.250865
11.185,2.0,1.0,1.0,33.0,34.8,34.8,1.8,2.5,2.64,0.6199535157246537,-0.05182810910010371,0.7578198300296016,0.02176190919320642,-0.183475,-25.003495
11.185,2.0,1.0,1.0,33.0,34.8,34.8,1.8,2.5,2.6425,0.6121091815884306,-0.053593665405961846,0.7633535812809147,0.021808702810149874,-0.189128,-24.752275
11.185,2.0,1.0,1.0,33.0,34.8,34.8,1.8,2.5,2.645,0.6040922179058238,-0.05544084755959462,0.7688588271244313,0.021836821755611097,-0.195097,-24.497063
11.185,2.0,1.0,1.0,33.0,34.8,34.8,1.8,2.5,2.6475,0.5958959073659961,-0.05737478029754291,0.7743325660063439,0.021843918578168368,-0.201409,-24.237713
11.185,2.0,1.0,1.0,33.0,34.8,34.8,1.8,2.5,2.65,0.5875130790859305,-0.05940099442997445,0.7797714754741256,0.021827352539812075,-0.208091,-23.974071
11.185,2.0,1.0,1.0,33.0,34.8,34.8,1.8,2.5,2.6525,0.5789360684805239,-0.061525464889139334,0.785171869842909,0.02178414862949777,-0.215173,-23.705973
11.185,2.0,1.0,1.0,33.0,34.8,34.8,1.8,2.5,2.655,0.5701566730502688,-0.06375465272834085,0.790529651296074,0.02171095009296902,-0.222692,-23.433249
11.185,2.0,1.0,1.0,33.0,34.8,34.8,1.8,2.5,2.6575,0.5611661036652339,-0.06609555148117645,0.7958402532596907,0.021603963325213495,-0.230684,-23.155718
11.185,2.0,1.0,1.0,33.0,34.8,34.8,1.8,2.5,2.66,0.5519549308927482,-0.06855573832068951,0.8010985746613867,0.021458893743572485,-0.239192,-22.873189
11.185,2.0,1.0,1.0,33.0,34.8,34.8,1.8,2.5,2.6625,0.5425130258890918,-0.0711434304836407,0.8062989034052823,0.02127087098154147,-0.248264,-22.58546
11.185,2.0,1.0,1.0,33.0,34.8,34.8,1.8,2.5,2.665,0.5328294953560925,-0.07386754744266914,0.8114348270542606,0.021034361403993833,-0.257953,-22.29232
11.185,2.0,1.0,1.0,33.0,34.8,34.8,1.8,2.5,2.6675,0.5228926100574198,-0.07673777931316317,0.8164991282943089,0.02074306552933071,-0.268317,-21.993543
11.185,2.0,1.0,1.0,33.0,34.8,34.8,1.8,2.5,2.67,0.512689726404209,-0.07976466196432101,0.8214836622446745,0.020389797434620844,-0.279425,-21.688891
11.185,2.0,1.0,1.0,33.0,34.8,34.8,1.8,2.5,2.6725,0.5022072006670456,-0.08295965925366365,0.8263792120491316,0.019966342593239726,-0.291351,-21.378114
11.185,2.0,1.0,1.0,33.0,34.8,34.8,1.8,2.5,2.675,0.4914302954674824,-0.08633525270475195,0.8311753184089123,0.019463289822117986,-0.304182,-21.060943
11.185,2.0,1.0,1.0,33.0,34.8,34.8,1.8,2.5,2.6775,0.4803430783706658,-0.08990503877553056,0.8358600777607322,0.01886983206146114,-0.318013,-20.737097
11.185,2.0,1.0,1.0,33.0,34.8,34.8,1.8,2.5,2.68,0.4689283126748094,-0.09368383358590374,0.8404199026185352,0.018173529528620634,-0.332955,-20.406276
11.185,2.0,1.0,1.0,33.0,34.8,34.8,1.8,2.5,2.6825,0.4571673409211674,-0.09768778453979414,0.8448392361285557,0.017360027323367187,-0.349134,-20.068163
11.185,2.0,1.0,1.0,33.0,34.8,34.8,1.8,2.5,2.685,0.44503996229819714,-0.10193448762039327,0.8491002110637613,0.01641271774408654,-0.366695,-19.722421
11.185,2.0,1.0,1.0,33.0,34.8,34.8,1.8,2.5,2.6875,0.43252430608385584,-0.10644310815943489,0.8531822412185376,0.015312335316811176,-0.385802,-19.368693
11.185,2.0,1.0,1.0,33.0,34.8,34.8,1.8,2.5,2.69,0.419596704700543,-0.11123450144174794,0.857061530351346,0.014036469735606218,-0.406648,-19.0066
11.185,2.0,1.0,1.0,33.0,34.8,34.8,1.8,2.5,2.6925,0.4062315720488825,-0.1163313274040459,0.8607104803333948,0.012558978436033463,-0.429453,-18.635742
11.185,2.0,1.0,1.0,33.0,34.8,34.8,1.8,2.5,2.695,0.39240129582758265,-0.12175815063351002,0.8640969758441907,0.010849276223180658,-0.454476,-18.255694
11.185,2.0,1.0,1.0,33.0,34.8,34.8,1.8,2.5,2.6975,0.37807615695057983,-0.12754151245342776,0.8671835176387644,0.008871474082285296,-0.482018,-17.866007
11.185,2.0,1.0,1.0,33.0,34.8,34.8,1.8,2.5,2.7,0.3632242955345847,-0.13370995550506196,0.8699261699150986,0.006583332834000368,-0.512431,-17.46621
11.185,2.0,1.0,1.0,33.0,34.8,34.8,1.8,2.5,2.7025,0.3478117521047577,-0.14029397204237873,0.8722732794661531,0.003934989493029713,-0.546133,-17.055805
11.185,2.0,1.0,1.0,33.0,34.8,34.8,1.8,2.5,2.705,0.33180262588252013,-0.14732583392131154,0.8741639150048419,0.0008674049482163084,-0.583616,-16.634271
11.185,2.0,1.0,1.0,33.0,34.8,34.8,1.8,2.5,2.7075,0.31515941103872597,-0.15483924322809078,0.8755259643590197,-0.0026895290338402717,-0.625467,-16.201069
11.185,2.0,1.0,1.0,33.0,34.8,34.8,1.8,2.5,2.71,0.2978435991332986,-0.1628687151398069,0.8762738155441729,-0.00681929706600592,-0.672389,-15.75564
11.185,2.0,1.0,1.0,33.0,34.8,34.8,1.8,2.5,2.7125,0.27981667518382664,-0.17144856538598047,0.8763055360990649,-0.011621566724908836,-0.725225,-15.297414
11.185,2.0,1.0,1.0,33.0,34.8,34.8,1.8,2.5,2.715,0.26104169090248835,-0.18061131860196397,0.8754994558254925,-0.017215588580508166,-0.784997,-14.825821
11.185,2.0,1.0,1.0,33.0,34.8,34.8,1.8,2.5,2.7175,0.241485678463337,-0.19038527410279443,0.8737100557759445,-0.02374428582523967,-0.852949,-14.340301
11.185,2.0,1.0,1.0,33.0,34.8,34.8,1.8,2.5,2.72,0.22112328080439766,-0.2007908530989759,0.8707630795363087,-0.031379116101134856,-0.930598,-13.84033
11.185,2.0,1.0,1.0,33.0,34.8,34.8,1.8,2.5,2.7225,0.19994213132353042,-0.21183519478790028,0.8664498269964559,-0.04032574350942122,-1.019816,-13.325441
11.185,2.0,1.0,1.0,33.0,34.8,34.8,1.8,2.5,2.725,0.1779507296334109,-0.2235042554397259,0.8605206929533393,-0.050830456029892404,-1.122914,-12.795274
11.185,2.0,1.0,1.0,33.0,34.8,34.8,1.8,2.5,2.7275,0.1551898414516439,-0.23575138405349816,0.8526782191504759,-0.06318705657138694,-1.242768,-12.249628
11.185,2.0,1.0,1.0,33.0,34.8,34.8,1.8,2.5,2.73,0.13174879932565509,-0.248481001019395,0.8425703147118646,-0.07774356867900235,-1.382969,-11.688544
11.185,2.0,1.0,1.0,33.0,34.8,34.8,1.8,2.5,2.7325,0.10778846494916876,-0.26152562462791784,0.8297849861756849,-0.09490741090640505,-1.548018,-11.112418
11.185,2.0,1.0,1.0,33.0,34.8,34.8,1.8,2.5,2.735,0.0835729280521435,-0.27461417999415016,0.8138490807991766,-0.11514653112086277,-1.743566,-10.522151
11.185,2.0,1.0,1.0,33.0,34.8,34.8,1.8,2.5,2.7375,0.05951200267017934,-0.28732954520928516,0.7942354148341391,-0.13898212513649622,-1.9767,-9.919354
11.185,2.0,1.0,1.0,33.0,34.8,34.8,1.8,2.5,2.74,0.03621569199856183,-0.299054187834426,0.7703854547865194,-0.1669657722123861,-2.256252,-9.306614
11.185,2.0,1.0,1.0,33.0,34.8,34.8,1.8,2.5,2.7425,0.014559004232137114,-0.30890554470332354,0.7417584560980747,-0.19963009467065332,-2.593077,-8.687831
11.185,2.0,1.0,1.0,33.0,34.8,34.8,1.8,2.5,2.745,-0.004250838520033133,-0.31566914890796305,0.707921932713295,-0.23739810306624007,-3.000136,-8.068618
11.185,2.0,1.0,1.0,33.0,34.8,34.8,1.8,2.5,2.7475,-0.018624710552394976,-0.3177494636646255,0.6687001027214966,-0.28043465848022325,-3.492005,-7.456736
11.185,2.0,1.0,1.0,33.0,34.8,34.8,1.8,2.5,2.75,-0.0265979642899923,-0.313176995178292,0.624390944672886,-0.328429557692761,-4.082994,-6.862471
11.185,2.0,1.0,1.0,33.0,34.8,34.8,1.8,2.5,2.7525,-0.025952972730049335,-0.29973170374654573,0.576039284608928,-0.38032503263997813,-4.782151,-6.298827
11.185,2.0,1.0,1.0,33.0,34.8,34.8,1.8,2.5,2.755,-0.014527032810297867,-0.27525165566104814,0.5257034395689013,-0.43405037148136905,-5.581869,-5.781277
11.185,2.0,1.0,1.0,33.0,34.8,34.8,1.8,2.5,2.7575,0.009259612019506787,-0.2381611481099927,0.4765810125084035,-0.4863981519995534,-6.435626,-5.326822
11.185,2.0,1.0,1.0,33.0,34.8,34.8,1.8,2.5,2.76,0.0457312977912277,-0.18814193155733844,0.4328080509432302,-0.5332275124829328,-7.225876,-4.95218
11.185,2.0,1.0,1.0,33.0,34.8,34.8,1.8,2.5,2.7625,0.0933854510663598,-0.12670164700500125,0.3988008962687069,-0.5701240848286553,-7.753038,-4.671249
11.185,2.0,1.0,1.0,33.0,34.8,34.8,1.8,2.5,2.765,0.14877550147252072,-0.05728659057961293,0.37823317204898865,-0.5934226878706864,-7.820045,-4.492432
11.185,2.0,1.0,1.0,33.0,34.8,34.8,1.8,2.5,2.7675,0.20707468524731357,0.01528589082645724,0.37303660762777263,-0.6012032785791039,-7.398422,-4.416767
11.185,2.0,1.0,1.0,33.0,34.8,34.8,1.8,2.5,2.77,0.2631732002204789,0.08592571358559843,0.3829186195677009,-0.5937681690714165,-6.657739,-4.437652
11.185,2.0,1.0,1.0,33.0,34.8,34.8,1.8,2.5,2.7725,0.3128182572843461,0.15040788739279964,0.4056300152918797,-0.5733695410574554,-5.810511,-4.542289
11.185,2.0,1.0,1.0,33.0,34.8,34.8,1.8,2.5,2.775,0.35330968437909577,0.2060638503546075,0.43778014232555673,-0.5433920375695329,-4.996548,-4.714211
11.185,2.0,1.0,1.0,33.0,34.8,34.8,1.8,2.5,2.7775,0.3835883681519876,0.2518658376628915,0.47575554797300385,-0.5074347126487354,-4.277287,-4.935946
11.185,2.0,1.0,1.0,33.0,34.8,34.8,1.8,2.5,2.78,0.40388716680840847,0.28807540881296434,0.5163882301745256,-0.468645067499463,-3.667521,-5.191086
11.185,2.0,1.0,1.0,33.0,34.8,34.8,1.8,2.5,2.7825,0.41522869483809033,0.3157406986043239,0.5572649058590387,-0.42941226373375635,-3.160897,-5.465485
11.185,2.0,1.0,1.0,33.0,34.8,34.8,1.8,2.5,2.785,0.41897975054076014,0.3362515208057467,0.5967529903431724,-0.3913429317419102,-2.743675,-5.747685
11.185,2.0,1.0,1.0,33.0,34.8,34.8,1.8,2.5,2.7875,0.41654629454021447,0.3510354943886035,0.6338749531411135,-0.35538770832222355,-2.400994,-6.028836
11.185,2.0,1.0,1.0,33.0,34.8,34.8,1.8,2.5,2.79,0.4092054458227802,0.3613911782518024,0.6681366919154672,-0.32201304074177545,-2.119337,-6.302352
11.185,2.0,1.0,1.0,33.0,34.8,34.8,1.8,2.5,2.7925,0.3980362561638931,0.36841977398635645,0.6993685041403852,-0.2913599433901195,-1.887273,-6.563477
11.185,2.0,1.0,1.0,33.0,34.8,34.8,1.8,2.5,2.795,0.38390919392021755,0.3730153002976462,0.7276006024217079,-0.2633679712500346,-1.695468,-6.808875
11.185,2.0,1.0,1.0,33.0,34.8,34.8,1.8,2.5,2.7975,0.3675047249399911,0.3758836733206898,0.7529749345085412,-0.23786277368573625,-1.536437,-7.036261
11.185,2.0,1.0,1.0,33.0,34.8,34.8,1.8,2.5,2.8,0.3493428096723875,0.37757257384039355,0.7756869377454053,-0.21461365477923475,-1.404231,-7.244121
11.185,2.0,1.0,1.0,33.0,34.8,34.8,1.8,2.5,2.8025,0.3298136463752105,0.37850248423581545,0.7959492011898921,-0.1933691795866977,-1.294134,-7.431482
11.185,2.0,1.0,1.0,33.0,34.8,34.8,1.8,2.5,2.805,0.3092052836126004,0.37899455613217387,0.813970028420788,-0.17387782161260754,-1.202419,-7.597744
11.185,2.0,1.0,1.0,33.0,34.8,34.8,1.8,2.5,2.8075,0.2877266353236911,0.37929386595049974,0.8299416156686606,-0.15589891211747597,-1.126136,-7.742558
11.185,2.0,1.0,1.0,33.0,34.8,34.8,1.8,2.5,2.81,0.2655258562934506,0.3795880292367633,0.8440341616972812,-0.13920754227271895,-1.06295,-7.865731
11.185,2.0,1.0,1.0,33.0,34.8,34.8,1.8,2.5,2.8125,0.242704630682706,0.380021731187718,0.856393465438801,-0.123595823374776,-1.01102,-7.967156
11.185,2.0,1.0,1.0,33.0,34.8,34.8,1.8,2.5,2.815,0.21932909872832826,0.38070789639769137,0.8671404428048096,-0.10887202811634503,-0.968895,-8.046772
11.185,2.0,1.0,1.0,33.0,34.8,34.8,1.8,2.5,2.8175,0.1954381261864004,0.3817361936798688,0.8763715790749181,-0.09485854227209103,-0.935447,-8.104517
11.185,2.0,1.0,1.0,33.0,34.8,34.8,1.8,2.5,2.82,0.1710495272986602,0.3831794703692996,0.8841597090945343,-0.08138916886894466,-0.909811,-8.140311
11.185,2.0,1.0,1.0,33.0,34.8,34.8,1.8,2.5,2.8225,0.14616474300442805,0.38509859143617253,0.8905547507380455,-0.06830607857745294,-0.891346,-8.154033
11.185,2.0,1.0,1.0,33.0,34.8,34.8,1.8,2.5,2.825,0.12077237732086718,0.38754604590028857,0.8955841559625356,-0.05545654147912374,-0.879603,-8.145503
11.185,2.0,1.0,1.0,33.0,34.8,34.8,1.8,2.5,2.8275,0.09485091591051212,0.3905685838484181,0.8992529210191068,-0.042689472661167786,-0.874312,-8.114478
11.185,2.0,1.0,1.0,33.0,34.8,34.8,1.8,2.5,2.83,0.06837089453106812,0.39420906131269673,0.9015430342375931,-0.02985175464695558,-0.875365,-8.060635
11.185,2.0,1.0,1.0,33.0,34.8,34.8,1.8,2.5,2.8325,0.041296751745847134,0.3985075931054368,0.9024122495453094,-0.016784248594246987,-0.882815,-7.983571
