1,w,sub_t,h,l1,l2,l3,g1,g2,Freq,S11_re,S21_re,S11_img,S21_img,S11_dB,S21_dB
11.185,2.0,1.0,1.0,33.9,33.3,33.3,4.4,1.9,2.5,0.800796066625752,-0.00791913888993484,0.588056685281219,0.00499686004031206,-0.056454,-40.570927
11.185,2.0,1.0,1.0,33.9,33.3,33.3,4.4,1.9,2.5025,0.7965789896683866,-0.008063396813604223,0.5936562524281175,0.004998410976001404,-0.056979,-40.457455
11.185,2.0,1.0,1.0,33.9,33.3,33.3,4.4,1.9,2.505,0.7923033296955913,-0.008209939185937145,0.5992496979612725,0.0049987665051472886,-0.057512,-40.343714
11.185,2.0,1.0,1.0,33.9,33.3,33.3,4.4,1.9,2.5075,0.7879685293709341,-0.008358803800390318,0.6048366396185164,0.00499788574251344,-0.058053,-40.229697
11.185,2.0,1.0,1.0,33.9,33.3,33.3,4.4,1.9,2.51,0.7835740241150274,-0.008510029197717253,0.610416684422594,0.004995726481103391,-0.058603,-40.115397
11.185,2.0,1.0,1.0,33.9,33.3,33.3,4.4,1.9,2.5125,0.7791192420478676,-0.008663654682497027,0.6159894283681997,0.004992245144102644,-0.059162,-40.000807
11.185,2.0,1.0,1.0,33.9,33.3,33.3,4.4,1.9,2.515,0.7746036039329602,-0.008819720340033197,0.621554456099942,0.004987396734862193,-0.059731,-39.88592
11.185,2.0,1.0,1.0,33.9,33.3,33.3,4.4,1.9,2.5175,0.7700265231234025,-0.00897826705363021,0.6271113405809539,0.004981134784833652,-0.060308,-39.770729
11.185,2.0,1.0,1.0,33.9,33.3,33.3,4.4,1.9,2.52,0.7653874055100651,-0.009139336522256541,0.6326596427518852,0.004973411299361219,-0.060896,-39.655228
11.185,2.0,1.0,1.0,33.9,33.3,33.3,4.4,1.9,2.5225,0.7606856494720717,-0.009302971278601416,0.6381989111799781,0.004964176701230187,-0.061493,-39.539408
11.185,2.0,1.0,1.0,33.9,33.3,33.3,4.4,1.9,2.525,0.7559206458297305,-0.009469214707535003,0.6437286816979424,0.0049533797718675126,-0.0621,-39.423263
11.185,2.0,1.0,1.0,33.9,33.3,33.3,4.4,1.9,2.5275,0.7510917778001217,-0.009638111064979636,0.6492484770323312,0.00494096759008298,-0.062718,-39.306785
11.185,2.0,1.0,1.0,33.9,33.3,33.3,4.4,1.9,2.53,0.7461984209555419,-0.0098097054972014,0.6547578064210903,0.004926885468234513,-0.063346,-39.189967
11.185,2.0,1.0,1.0,33.9,33.3,33.3,4.4,1.9,2.5325,0.7412399431850065,-0.009984044060530576,0.660256165219975,0.004911076885694079,-0.063985,-39.0728
11.185,2.0,1.0,1.0,33.9,33.3,33.3,4.4,1.9,2.535,0.7362157046590362,-0.01016117374152027,0.6657430344974998,0.00489348341948449,-0.064635,-38.955278
11.185,2.0,1.0,1.0,33.9,33.3,33.3,4.4,1.9,2.5375,0.7311250577979601,-0.010341142477552072,0.671217880618072,0.004874044671949267,-0.065297,-38.837392
11.185,2.0,1.0,1.0,33.9,33.3,33.3,4.4,1.9,2.54,0.7259673472439753,-0.010523999177898093,0.6766801548129655,0.0048526981953111795,-0.06597,-38.719135
11.185,2.0,1.0,1.0,33.9,33.3,33.3,4.4,1.9,2.5425,0.7207419098372191,-0.010709793745249005,0.6821292927387739,0.004829379412965864,-0.066655,-38.600498
11.185,2.0,1.0,1.0,33.9,33.3,33.3,4.4,1.9,2.545,0.71544807459612,-0.010898577097717252,0.6875647140229618,0.004804021537348593,-0.067352,-38.481474
11.185,2.0,1.0,1.0,33.9,33.3,33.3,4.4,1.9,2.5475,0.710085162702318,-0.011090401191325072,0.692985821796129,0.004776555484203373,-0.068062,-38.362053
11.185,2.0,1.0,1.0,33.9,33.3,33.3,4.4,1.9,2.55,0.7046524874904286,-0.011285319042987345,0.6983920022106024,0.004746909783072656,-0.068785,-38.242228
11.185,2.0,1.0,1.0,33.9,33.3,33.3,4.4,1.9,2.5525,0.6991493544429888,-0.011483384753998392,0.7037826239449217,0.004715010483816428,-0.06952,-38.121989
11.185,2.0,1.0,1.0,33.9,33.3,33.3,4.4,1.9,2.555,0.6935750611908815,-0.011684653534033267,0.7091570376938168,0.004680781058957222,-0.070269,-38.001329
11.185,2.0,1.0,1.0,33.9,33.3,33.3,4.4,1.9,2.5575,0.687928897519595,-0.01188918172567289,0.7145145756432327,0.0046441423016362815,-0.071032,-37.880237
11.185,2.0,1.0,1.0,33.9,33.3,33.3,4.4,1.9,2.56,0.682210145381666,-0.01209702682946318,0.7198545509299423,0.0046050122189525275,-0.071809,-37.758706
11.185,2.0,1.0,1.0,33.9,33.3,33.3,4.4,1.9,2.5625,0.6764180789156871,-0.012308247529517832,0.7251762570852889,0.00456330592044281,-0.072601,-37.636726
11.185,2.0,1.0,1.0,33.9,33.3,33.3,4.4,1.9,2.565,0.6705519644722573,-0.01252290371967498,0.7304789674625785,0.004518935501446393,-0.073407,-37.514287
11.185,2.0,1.0,1.0,33.9,33.3,33.3,4.4,1.9,2.5675,0.6646110606472995,-0.012741056530216961,0.7357619346476091,0.004471809921081739,-0.074229,-37.39138
11.185,2.0,1.0,1.0,33.9,33.3,33.3,4.4,1.9,2.57,0.6585946183231629,-0.012962768355163386,0.7410243898518385,0.004421834874545878,-0.075066,-37.267996
11.185,2.0,1.0,1.0,33.9,33.3,33.3,4.4,1.9,2.5725,0.6525018807179614,-0.013188102880146933,0.7462655422876475,0.004368912659428776,-0.075919,-37.144124
11.185,2.0,1.0,1.0,33.9,33.3,33.3,4.4,1.9,2.575,0.6463320834436193,-0.0134171251108809,0.751484578525148,0.004312942035715948,-0.076788,-37.019755
11.185,2.0,1.0,1.0,33.9,33.3,33.3,4.4,1.9,2.5775,0.6400844545731127,-0.013649901402228038,0.7566806618299664,0.004253818079130972,-0.077675,-36.894877
11.185,2.0,1.0,1.0,33.9,33.3,33.3,4.4,1.9,2.58,0.6337582147174277,-0.013886499487878847,0.7618529314814041,0.0041914320274477135,-0.078578,-36.769481
11.185,2.0,1.0,1.0,33.9,33.3,33.3,4.4,1.9,2.5825,0.6273525771127602,-0.014126988510648439,0.767000502070372,0.00412567111937749,-0.0795,-36.643557
11.185,2.0,1.0,1.0,33.9,33.3,33.3,4.4,1.9,2.585,0.620866747718531,-0.014371439053399026,0.7721224627764461,0.004056418425610669,-0.080439,-36.517092
11.185,2.0,1.0,1.0,33.9,33.3,33.3,4.4,1.9,2.5875,0.6142999253267958,-0.014619923170595737,0.7772178766234018,0.0039835526715640375,-0.081398,-36.390076
11.185,2.0,1.0,1.0,33.9,33.3,33.3,4.4,1.9,2.59,0.6076513016836693,-0.014872514420502215,0.7822857797125192,0.0039069480513551965,-0.082375,-36.262498
11.185,2.0,1.0,1.0,33.9,33.3,33.3,4.4,1.9,2.5925,0.6009200616233971,-0.015129287898021522,0.787325180432965,0.003826474032492966,-0.083373,-36.134346
11.185,2.0,1.0,1.0,33.9,33.3,33.3,4.4,1.9,2.595,0.5941053832157622,-0.015390320268186881,0.7923350586484857,0.003741995150737541,-0.08439,-36.005608
11.185,2.0,1.0,1.0,33.9,33.3,33.3,4.4,1.9,2.5975,0.587206437927504,-0.015655689800306034,0.7973143648596592,0.0036533707945462335,-0.085428,-35.876273
11.185,2.0,1.0,1.0,33.9,33.3,33.3,4.4,1.9,2.6,0.5802223907984959,-0.01592547640276104,0.8022620193408844,0.003560454978480325,-0.086488,-35.746327
11.185,2.0,1.0,1.0,33.9,33.3,33.3,4.4,1.9,2.6025,0.5731524006334451,-0.016199761658463437,0.8071769112512643,0.0034630961049037447,-0.08757,-35.615758
11.185,2.0,1.0,1.0,33.9,33.3,33.3,4.4,1.9,2.605,0.5659956202099032,-0.016478628860963955,0.8120578977185152,0.0033611367132570387,-0.088674,-35.484554
11.185,2.0,1.0,1.0,33.9,33.3,33.3,4.4,1.9,2.6075,0.5587511965034265,-0.016762163051212423,0.8169038028949652,0.0032544132161384585,-0.089802,-35.352701
11.185,2.0,1.0,1.0,33.9,33.3,33.3,4.4,1.9,2.61,0.5514182709307561,-0.017050451054961245,0.8217134169846873,0.003142755621367512,-0.090953,-35.220185
11.185,2.0,1.0,1.0,33.9,33.3,33.3,4.4,1.9,2.6125,0.5439959796119211,-0.017343581520803435,0.8264854952407532,0.00302598723914629,-0.092129,-35.086994
11.185,2.0,1.0,1.0,33.9,33.3,33.3,4.4,1.9,2.615,0.5364834536522061,-0.017641644958831765,0.8312187569315475,0.00290392437336735,-0.093331,-34.953111
11.185,2.0,1.0,1.0,33.9,33.3,33.3,4.4,1.9,2.6175,0.5288798194449842,-0.017944733779902026,0.8359118842750209,0.00277637599604625,-0.094558,-34.818524
11.185,2.0,1.0,1.0,33.9,33.3,33.3,4.4,1.9,2.62,0.521184198996435,-0.018252942335478393,0.8405635213397085,0.002643143403778352,-0.095812,-34.683217
11.185,2.0,1.0,1.0,33.9,33.3,33.3,4.4,1.9,2.6225,0.5133957102732201,-0.0185663669580339,0.8451722729112794,0.0025040198550352775,-0.097094,-34.547175
11.185,2.0,1.0,1.0,33.9,33.3,33.3,4.4,1.9,2.625,0.505513467574255,-0.0188851060019717,0.849736703323293,0.00235879018702491,-0.098404,-34.410382
11.185,2.0,1.0,1.0,33.9,33.3,33.3,4.4,1.9,2.6275,0.4975365819277248,-0.019209259885026995,0.8542553352507893,0.002207230410737576,-0.099744,-34.272822
11.185,2.0,1.0,1.0,33.9,33.3,33.3,4.4,1.9,2.63,0.4894641615145812,-0.019538931130099545,0.8587266484652378,0.002049107282692647,-0.101114,-34.134479
11.185,2.0,1.0,1.0,33.9,33.3,33.3,4.4,1.9,2.6325,0.4812953121197882,-0.01987422440745818,0.8631490785492819,0.0018841778517804425,-0.102515,-33.995336
11.185,2.0,1.0,1.0,33.9,33.3,33.3,4.4,1.9,2.635,0.473029137612647,-0.020215246577246753,0.8675210155696245,0.0017121889794631973,-0.103948,-33.855375
11.185,2.0,1.0,1.0,33.9,33.3,33.3,4.4,1.9,2.6375,0.4646647404575972,-0.020562106732208284,0.8718408027062771,0.0015328768314583304,-0.105414,-33.714579
11.185,2.0,1.0,1.0,33.9,33.3,33.3,4.4,1.9,2.64,0.45620122225692505,-0.020914916240529612,0.8761067348362952,0.0013459663388687758,-0.106915,-33.572928
11.185,2.0,1.0,1.0,33.9,33.3,33.3,4.4,1.9,2.6425,0.4476376843269122,-0.021273788788690802,0.8803170570699661,0.0011511706265571761,-0.10845,-33.430405
11.185,2.0,1.0,1.0,33.9,33.3,33.3,4.4,1.9,2.645,0.43897322830899665,-0.021638840424184635,0.8844699632372892,0.0009481904063721296,-0.110022,-33.286989
11.185,2.0,1.0,1.0,33.9,33.3,33.3,4.4,1.9,2.6475,0.43020695681760507,-0.02201018959794777,0.88856359432242,0.0007367133326298098,-0.111632,-33.142661
11.185,2.0,1.0,1.0,33.9,33.3,33.3,4.4,1.9,2.65,0.42133797412637275,-0.02238795720632007,0.8925960368435778,0.0005164133170287601,-0.113281,-32.997401
11.185,2.0,1.0,1.0,33.9,33.3,33.3,4.4,1.9,2.6525,0.4123653868945887,-0.022772266632316122,0.8965653211757006,0.00028694979992876753,-0.11497,-32.851185
11.185,2.0,1.0,1.0,33.9,33.3,33.3,4.4,1.9,2.655,0.4032883049357311,-0.02316324378596042,0.9004694198129494,4.796697465093189e-05,-0.1167,-32.703994
11.185,2.0,1.0,1.0,33.9,33.3,33.3,4.4,1.9,2.6575,0.3941058420301017,-0.023561017143394893,0.9043062455678871,-0.00020090703884384237,-0.118473,-32.555804
11.185,2.0,1.0,1.0,33.9,33.3,33.3,4.4,1.9,2.66,0.3848171167836328,-0.02396571778442164,0.908073649703908,-0.00046006107487095015,-0.120291,-32.406591
11.185,2.0,1.0,1.0,33.9,33.3,33.3,4.4,1.9,2.6625,0.3754212535350749,-0.024377479428089512,0.9117694199971905,-0.00072990186187241,-0.122155,-32.256332
11.185,2.0,1.0,1.0,33.9,33.3,33.3,4.4,1.9,2.665,0.3659173833138419,-0.024796438465870523,0.9153912787241156,-0.0010108550259440483,-0.124067,-32.105002
11.185,2.0,1.0,1.0,33.9,33.3,33.3,4.4,1.9,2.6675,0.35630464485097674,-0.02522273399189894,0.9189368805697176,-0.0013033661632283092,-0.126028,-31.952576
11.185,2.0,1.0,1.0,33.9,33.3,33.3,4.4,1.9,2.67,0.346582185645778,-0.025656507829662983,0.9224038104523244,-0.0016079019868567152,-0.12804,-31.799025
11.185,2.0,1.0,1.0,33.9,33.3,33.3,4.4,1.9,2.6725,0.33674916309079994,-0.026097904554441567,0.9257895812590858,-0.001924951554673001,-0.130106,-31.644324
11.185,2.0,1.0,1.0,33.9,33.3,33.3,4.4,1.9,2.675,0.3268047456581122,-0.02654707151066508,0.929091631486558,-0.0022550275845761754,-0.132226,-31.488443
11.185,2.0,1.0,1.0,33.9,33.3,33.3,4.4,1.9,2.6775,0.31674811414985676,-0.027004158823249632,0.9323073227799461,-0.0025986678649976905,-0.134404,-31.331354
11.185,2.0,1.0,1.0,33.9,33.3,33.3,4.4,1.9,2.68,0.3065784630163572,-0.0274693194018019,0.9354339373639533,-0.002956436768778849,-0.136641,-31.173024
11.185,2.0,1.0,1.0,33.9,33.3,33.3,4.4,1.9,2.6825,0.2962950017452536,-0.027942708936415324,0.938468675357449,-0.003328926879548981,-0.13894,-31.013424
11.185,2.0,1.0,1.0,33.9,33.3,33.3,4.4,1.9,2.685,0.28589695632537354,-0.02842448588357412,0.941408651963358,-0.0037167607406387074,-0.141303,-30.85252
11.185,2.0,1.0,1.0,33.9,33.3,33.3,4.4,1.9,2.6875,0.27538357078933795,-0.028914811440442514,0.9442508945242483,-0.004120592737601538,-0.143733,-30.690278
11.185,2.0,1.0,1.0,33.9,33.3,33.3,4.4,1.9,2.69,0.2647541088392232,-0.02941384950553877,0.9469923394330497,-0.0045411111265798425,-0.146233,-30.526662
11.185,2.0,1.0,1.0,33.9,33.3,33.3,4.4,1.9,2.6925,0.2540078555599222,-0.029921766623470923,0.9496298288871796,-0.004979040222051867,-0.148805,-30.361636
11.185,2.0,1.0,1.0,33.9,33.3,33.3,4.4,1.9,2.695,0.2431441192253178,-0.03043873191103052,0.9521601074730153,-0.005435142758952224,-0.151452,-30.195161
11.185,2.0,1.0,1.0,33.9,33.3,33.3,4.4,1.9,2.6975,0.23216223320276844,-0.030964916961502966,0.954579818566178,-0.005910222445794057,-0.154178,-30.027199
11.185,2.0,1.0,1.0,33.9,33.3,33.3,4.4,1.9,2.7,0.22106155796202376,-0.031500495723532175,0.9568855005313891,-0.00640512672725443,-0.156986,-29.857707
11.185,2.0,1.0,1.0,33.9,33.3,33.3,4.4,1.9,2.7025,0.20984148319523593,-0.03204564435027562,0.9590735827037675,-0.006920749776750494,-0.15988,-29.686642
11.185,2.0,1.0,1.0,33.9,33.3,33.3,4.4,1.9,2.705,0.1985014300555086,-0.03260054101387505,0.9611403811312552,-0.007458035741856717,-0.162864,-29.51396
11.185,2.0,1.0,1.0,33.9,33.3,33.3,4.4,1.9,2.7075,0.1870408535222078,-0.033165365679435614,0.9630820940554179,-0.008017982268037734,-0.165941,-29.339614
11.185,2.0,1.0,1.0,33.9,33.3,33.3,4.4,1.9,2.71,0.17545924490227657,-0.03374029983172721,0.9648947971050641,-0.008601644329129639,-0.169117,-29.163555
11.185,2.0,1.0,1.0,33.9,33.3,33.3,4.4,1.9,2.7125,0.16375613447788703,-0.03432552614667087,0.9665744381739634,-0.009210138396354439,-0.172395,-28.985731
11.185,2.0,1.0,1.0,33.9,33.3,33.3,4.4,1.9,2.715,0.15193109431213447,-0.034921228098312156,0.9681168319503264,-0.00984464698144414,-0.17578,-28.806091
11.185,2.0,1.0,1.0,33.9,33.3,33.3,4.4,1.9,2.7175,0.1399837412260103,-0.03552758949038288,0.9695176540615851,-0.010506423593755624,-0.179279,-28.624577
11.185,2.0,1.0,1.0,33.9,33.3,33.3,4.4,1.9,2.72,0.12791373996177974,-0.03614479389965279,0.9707724347933167,-0.011196798156146302,-0.182896,-28.441133
11.185,2.0,1.0,1.0,33.9,33.3,33.3,4.4,1.9,2.7225,0.1157208065500129,-0.036773024016030324,0.9718765523357732,-0.011917182929947149,-0.186638,-28.255696
11.185,2.0,1.0,1.0,33.9,33.3,33.3,4.4,1.9,2.725,0.1034047119001886,-0.03741246086170249,0.9728252255053216,-0.012669079005707549,-0.190511,-28.068203
11.185,2.0,1.0,1.0,33.9,33.3,33.3,4.4,1.9,2.7275,0.09096528563777445,-0.038063282868441864,0.9736135058810513,-0.013454083423632237,-0.194522,-27.878588
11.185,2.0,1.0,1.0,33.9,33.3,33.3,4.4,1.9,2.73,0.07840242021443662,-0.038725664788431355,0.9742362692887053,-0.01427389699590448,-0.198678,-27.686779
11.185,2.0,1.0,1.0,33.9,33.3,33.3,4.4,1.9,2.7325,0.06571607532233108,-0.03939977640946419,0.974688206554784,-0.01513033291257718,-0.202988,-27.492704
11.185,2.0,1.0,1.0,33.9,33.3,33.3,4.4,1.9,2.735,0.05290628264872107,-0.040085781039993634,0.9749638134429595,-0.01602532622359134,-0.20746,-27.296284
11.185,2.0,1.0,1.0,33.9,33.3,33.3,4.4,1.9,2.7375,0.03997315101339329,-0.04078383372306897,0.9750573796725819,-0.016960944301989966,-0.212104,-27.097439
11.185,2.0,1.0,1.0,33.9,33.3,33.3,4.4,1.9,2.74,0.026916871938927722,-0.04149407913045754,0.9749629769048073,-0.017939398407792274,-0.216929,-26.896082
11.185,2.0,1.0,1.0,33.9,33.3,33.3,4.4,1.9,2.7425,0.013737725712931031,-0.04221664907895326,0.9746744455653662,-0.018963056488603972,-0.221946,-26.692124
11.185,2.0,1.0,1.0,33.9,33.3,33.3,4.4,1.9,2.745,0.0004360880123533997,-0.04295165959965064,0.974185380353909,-0.020034457372227574,-0.227167,-26.485468
11.185,2.0,1.0,1.0,33.9,33.3,33.3,4.4,1.9,2.7475,-0.012987562826711183,-0.043699207477403336,0.9734891142676816,-0.021156326528753107,-0.232605,-26.276016
11.185,2.0,1.0,1.0,33.9,33.3,33.3,4.4,1.9,2.75,-0.0265326377941998,-0.0444593661612563,0.972578700941539,-0.0223315936053703,-0.238274,-26.06366
11.185,2.0,1.0,1.0,33.9,33.3,33.3,4.4,1.9,2.7525,-0.04019842832703583,-0.04523218092667255,0.9714468950763202,-0.023563411967073098,-0.244189,-25.848288
11.185,2.0,1.0,1.0,33.9,33.3,33.3,4.4,1.9,2.755,-0.05398409642269768,-0.04601766314605776,0.9700861306926528,-0.024855180511261538,-0.250366,-25.629783
11.185,2.0,1.0,1.0,33.9,33.3,33.3,4.4,1.9,2.7575,-0.06788866357292869,-0.046815783494376456,0.9684884969064274,-0.026210568064865134,-0.256823,-25.408019
11.185,2.0,1.0,1.0,33.9,33.3,33.3,4.4,1.9,2.76,-0.08191099830905924,-0.047626463880250575,0.9666457108744317,-0.027633540720051107,-0.263581,-25.182862
11.185,2.0,1.0,1.0,33.9,33.3,33.3,4.4,1.9,2.7625,-0.09604980210618072,-0.04844956784820597,0.9645490875026727,-0.029128392520098984,-0.27066,-24.954172
11.185,2.0,1.0,1.0,33.9,33.3,33.3,4.4,1.9,2.765,-0.11030359333865457,-0.04928488914259148,0.9621895054442513,-0.030699779972082713,-0.278085,-24.721798
11.185,2.0,1.0,1.0,33.9,33.3,33.3,4.4,1.9,2.7675,-0.1246706889117505,-0.050132138055509264,0.9595573688364631,-0.032352760939386355,-0.285882,-24.485582
11.185,2.0,1.0,1.0,33.9,33.3,33.3,4.4,1.9,2.77,-0.13914918311004332,-0.050990925096484625,0.9566425641359677,-0.0340928385568815,-0.294079,-24.245355
11.185,2.0,1.0,1.0,33.9,33.3,33.3,4.4,1.9,2.7725,-0.15373692309828563,-0.05186074141624946,0.9534344113037997,-0.035926010917314094,-0.30271,-24.000935
11.185,2.0,1.0,1.0,33.9,33.3,33.3,4.4,1.9,2.775,-0.16843148037923303,-0.0527409352853554,0.9499216084656753,-0.03785882740205841,-0.311808,-23.75213
11.185,2.0,1.0,1.0,33.9,33.3,33.3,4.4,1.9,2.7775,-0.1832301173480785,-0.05363068376319128,0.9460921690239056,-0.03989845267639849,-0.321415,-23.498735
11.185,2.0,1.0,1.0,33.9,33.3,33.3,4.4,1.9,2.78,-0.1981297478754624,-0.05452895848502975,0.941933350020951,-0.04205273954302276,-0.331575,-23.240531
11.185,2.0,1.0,1.0,33.9,33.3,33.3,4.4,1.9,2.7825,-0.21312689058810952,-0.055434484231827987,0.9374315703464121,-0.04433031205227254,-0.342336,-22.977282
11.185,2.0,1.0,1.0,33.9,33.3,33.3,4.4,1.9,2.785,-0.2282176131822716,-0.056345688613763545,0.9325723171331544,-0.04674066050945697,-0.353754,-22.708736
11.185,2.0,1.0,1.0,33.9,33.3,33.3,4.4,1.9,2.7875,-0.2433974656789234,-0.05726064077297936,0.9273400383979734,-0.049294250304510234,-0.365891,-22.434625
11.185,2.0,1.0,1.0,33.9,33.3,33.3,4.4,1.9,2.79,-0.2586613999836961,-0.05817697646613821,0.92171801964022,-0.052002646824474634,-0.378818,-22.154657
11.185,2.0,1.0,1.0,33.9,33.3,33.3,4.4,1.9,2.7925,-0.2740036724115069,-0.059091806186461884,0.9156882417105477,-0.05487865910215929,-0.392615,-21.868523
11.185,2.0,1.0,1.0,33.9,33.3,33.3,4.4,1.9,2.795,-0.28941772492688106,-0.060001602079074144,0.909231216793302,-0.05793650531232752,-0.407372,-21.575886
11.185,2.0,1.0,1.0,33.9,33.3,33.3,4.4,1.9,2.7975,-0.3048960396696226,-0.060902058227118076,0.9023257988032679,-0.061192003756310814,-0.423192,-21.276385
11.185,2.0,1.0,1.0,33.9,33.3,33.3,4.4,1.9,2.8,-0.3204299597932623,-0.06178791735106141,0.8949489638757944,-0.0646627935808738,-0.440194,-20.96963
11.185,2.0,1.0,1.0,33.9,33.3,33.3,4.4,1.9,2.8025,-0.33600946761973416,-0.06265275495043528,0.8870755559298855,-0.06836859015549042,-0.458514,-20.655201
11.185,2.0,1.0,1.0,33.9,33.3,33.3,4.4,1.9,2.805,-0.35162290844460764,-0.06348870926376693,0.8786779915181385,-0.07233148077131472,-0.478308,-20.332643
11.185,2.0,1.0,1.0,33.9,33.3,33.3,4.4,1.9,2.8075,-0.36725664478929315,-0.064286141907271,0.8697259173759478,-0.07657626709299468,-0.499758,-20.001463
11.185,2.0,1.0,1.0,33.9,33.3,33.3,4.4,1.9,2.81,-0.3828946211835268,-0.06503320937269133,0.8601858133091425,-0.08113086152533834,-0.523076,-19.661126
11.185,2.0,1.0,1.0,33.9,33.3,33.3,4.4,1.9,2.8125,-0.3985178132517039,-0.06571531930271288,0.8500205324353223,-0.08602674522736432,-0.548509,-19.311056
11.185,2.0,1.0,1.0,33.9,33.3,33.3,4.4,1.9,2.815,-0.41410352638951586,-0.0663144370444351,0.8391887705373572,-0.0912994956959567,-0.57635,-18.950624
11.185,2.0,1.0,1.0,33.9,33.3,33.3,4.4,1.9,2.8175,-0.42962449785093204,-0.06680819661574557,0.827644456778556,-0.09698939126658883,-0.606942,-18.579149
11.185,2.0,1.0,1.0,33.9,33.3,33.3,4.4,1.9,2.82,-0.445047740514354,-0.06716875481526041,0.8153360599207445,-0.1031420978835017,-0.640695,-18.195893
11.185,2.0,1.0,1.0,33.9,33.3,33.3,4.4,1.9,2.8225,-0.46033304544158915,-0.06736130626679028,0.8022058085870576,-0.1098094389658694,-0.678101,-17.800055
11.185,2.0,1.0,1.0,33.9,33.3,33.3,4.4,1.9,2.825,-0.4754310315132956,-0.06734214867648972,0.7881888328896927,-0.11705024027098043,-0.719749,-17.39077
11.185,2.0,1.0,1.0,33.9,33.3,33.3,4.4,1.9,2.8275,-0.49028059113966105,-0.06705614876469412,0.7732122510403289,-0.12493122519477699,-0.766356,-16.967102
