1,w,sub_t,h,l1,l2,l3,g1,g2,Freq,S11_re,S21_re,S11_img,S21_img,S11_dB,S21_dB
11.185,2.0,1.0,1.0,33.0,33.5,33.5,2.5,4.0,2.5,0.89936579158795,-0.00502649151844145,0.423635269028035,0.00489576630215828,-0.050999,-43.077336
11.185,2.0,1.0,1.0,33.0,33.5,33.5,2.5,4.0,2.5025,0.8966937733690957,-0.005133649141729137,0.4291454591614287,0.0049260267907576556,-0.051439,-42.956771
11.185,2.0,1.0,1.0,33.0,33.5,33.5,2.5,4.0,2.505,0.8939771218470574,-0.005242719624334885,0.4346592703397528,0.004955960545711874,-0.051887,-42.835988
11.185,2.0,1.0,1.0,33.0,33.5,33.5,2.5,4.0,2.5075,0.8912154059805493,-0.005353740448208611,0.4401765721596497,0.004985549813258907,-0.052341,-42.714981
11.185,2.0,1.0,1.0,33.0,33.5,33.5,2.5,4.0,2.51,0.8884081873556952,-0.005466750021100162,0.445697229921368,0.005014776166456209,-0.052804,-42.593742
11.185,2.0,1.0,1.0,33.0,33.5,33.5,2.5,4.0,2.5125,0.8855550200455518,-0.005581787703781934,0.45122110447602487,0.00504362047777882,-0.053274,-42.472261
11.185,2.0,1.0,1.0,33.0,33.5,33.5,2.5,4.0,2.515,0.8826554504667465,-0.005698893838193934,0.45674805206756597,0.005072062890495691,-0.053752,-42.35053
11.185,2.0,1.0,1.0,33.0,33.5,33.5,2.5,4.0,2.5175,0.8797090172331694,-0.005818109776545885,0.46227792416920094,0.005100082788764266,-0.054238,-42.228542
11.185,2.0,1.0,1.0,33.0,33.5,33.5,2.5,4.0,2.52,0.8767152510066487,-0.0059394779114142855,0.46781056731412957,0.00512765876637938,-0.054733,-42.106289
11.185,2.0,1.0,1.0,33.0,33.5,33.5,2.5,4.0,2.5225,0.8736736743445579,-0.006063041706872571,0.4733458229203133,0.0051547685941091236,-0.055236,-41.98376
11.185,2.0,1.0,1.0,33.0,33.5,33.5,2.5,4.0,2.525,0.8705838015442716,-0.006188845730695211,0.47888352710908744,0.0051813891855468286,-0.055748,-41.860949
11.185,2.0,1.0,1.0,33.0,33.5,33.5,2.5,4.0,2.5275,0.8674451384844128,-0.006316935687677637,0.48442351051736815,0.005207496561404255,-0.056269,-41.737846
11.185,2.0,1.0,1.0,33.0,33.5,33.5,2.5,4.0,2.53,0.8642571824628185,-0.006447358454116157,0.4899655981032031,0.005233065812166481,-0.056799,-41.614443
11.185,2.0,1.0,1.0,33.0,33.5,33.5,2.5,4.0,2.5325,0.8610194220311538,-0.006580162113493544,0.49550960894441454,0.005258071059025348,-0.057338,-41.49073
11.185,2.0,1.0,1.0,33.0,33.5,33.5,2.5,4.0,2.535,0.8577313368260971,-0.006715395993418837,0.5010553560300637,0.0052824854130024395,-0.057887,-41.3667
11.185,2.0,1.0,1.0,33.0,33.5,33.5,2.5,4.0,2.5375,0.8543923973970315,-0.006853110703870681,0.5066026460444508,0.005306280932168494,-0.058445,-41.242343
11.185,2.0,1.0,1.0,33.0,33.5,33.5,2.5,4.0,2.54,0.851002065030158,-0.006993358176797247,0.5121512791433634,0.005329428576860207,-0.059014,-41.117651
11.185,2.0,1.0,1.0,33.0,33.5,33.5,2.5,4.0,2.5425,0.8475597915689572,-0.007136191707126875,0.5177010487222664,0.00535189816278987,-0.059593,-40.992613
11.185,2.0,1.0,1.0,33.0,33.5,33.5,2.5,4.0,2.545,0.8440650192309204,-0.0072816659952469566,0.5232517411761102,0.005373658311937071,-0.060182,-40.867221
11.185,2.0,1.0,1.0,33.0,33.5,33.5,2.5,4.0,2.5475,0.8405171804204715,-0.007429837191010268,0.5288031356504209,0.00539467640110519,-0.060782,-40.741466
11.185,2.0,1.0,1.0,33.0,33.5,33.5,2.5,4.0,2.55,0.8369156975379911,-0.007580762939331649,0.534355003783338,0.005414918508018682,-0.061393,-40.615338
11.185,2.0,1.0,1.0,33.0,33.5,33.5,2.5,4.0,2.5525,0.83325998278487,-0.007734502427439636,0.5399071094382059,0.005434349354829592,-0.062015,-40.488827
11.185,2.0,1.0,1.0,33.0,33.5,33.5,2.5,4.0,2.555,0.8295494379644975,-0.007891116433851646,0.5454592084263681,0.005452932248893756,-0.062649,-40.361924
11.185,2.0,1.0,1.0,33.0,33.5,33.5,2.5,4.0,2.5575,0.8257834542790995,-0.00805066737914376,0.5510110482197466,0.005470629020669273,-0.063295,-40.234619
11.185,2.0,1.0,1.0,33.0,33.5,33.5,2.5,4.0,2.56,0.8219614121223406,-0.008213219378589522,0.5565623676527914,0.005487399958580253,-0.063953,-40.106902
11.185,2.0,1.0,1.0,33.0,33.5,33.5,2.5,4.0,2.5625,0.818082680867599,-0.008378838296745622,0.5621128966133632,0.00550320374067971,-0.064623,-39.978764
11.185,2.0,1.0,1.0,33.0,33.5,33.5,2.5,4.0,2.565,0.8141466186518163,-0.008547591804066411,0.5676623557220964,0.0055179973629351795,-0.065306,-39.850193
11.185,2.0,1.0,1.0,33.0,33.5,33.5,2.5,4.0,2.5675,0.8101525721548385,-0.00871954943563149,0.5732104559997517,0.005531736063949779,-0.066002,-39.72118
11.185,2.0,1.0,1.0,33.0,33.5,33.5,2.5,4.0,2.57,0.8060998763741433,-0.008894782652076482,0.578756898522064,0.005544373245919675,-0.066711,-39.591713
11.185,2.0,1.0,1.0,33.0,33.5,33.5,2.5,4.0,2.5725,0.80198785439486,-0.00907336490281981,0.584301374061559,0.005555860391616511,-0.067434,-39.461784
11.185,2.0,1.0,1.0,33.0,33.5,33.5,2.5,4.0,2.575,0.7978158171549811,-0.009255371691682928,0.5898435627157819,0.005566146977170452,-0.068171,-39.33138
11.185,2.0,1.0,1.0,33.0,33.5,33.5,2.5,4.0,2.5775,0.7935830632056656,-0.009440880645006509,0.5953831335213605,0.005575180380414408,-0.068923,-39.200491
11.185,2.0,1.0,1.0,33.0,33.5,33.5,2.5,4.0,2.58,0.7892888784665315,-0.009629971582369015,0.6009197440532927,0.005582905784535733,-0.069689,-39.069105
11.185,2.0,1.0,1.0,33.0,33.5,33.5,2.5,4.0,2.5825,0.7849325359758299,-0.009822726590019856,0.6064530400088292,0.005589266076764621,-0.070471,-38.937212
11.185,2.0,1.0,1.0,33.0,33.5,33.5,2.5,4.0,2.585,0.7805132956353964,-0.010019230097143844,0.6119826547752654,0.0055942017418114465,-0.071268,-38.8048
11.185,2.0,1.0,1.0,33.0,33.5,33.5,2.5,4.0,2.5875,0.7760304039502681,-0.010219568955079986,0.6175082089809611,0.00559765074974606,-0.072082,-38.671857
11.185,2.0,1.0,1.0,33.0,33.5,33.5,2.5,4.0,2.59,0.7714830937628601,-0.010423832519622006,0.6230293100288236,0.0055995484379925825,-0.072911,-38.538371
11.185,2.0,1.0,1.0,33.0,33.5,33.5,2.5,4.0,2.5925,0.7668705839815828,-0.010632112736535797,0.6285455516115007,0.005599827387091,-0.073758,-38.404331
11.185,2.0,1.0,1.0,33.0,33.5,33.5,2.5,4.0,2.595,0.7621920793037964,-0.010844504230433467,0.6340565132074446,0.005598417289854126,-0.074622,-38.269725
11.185,2.0,1.0,1.0,33.0,33.5,33.5,2.5,4.0,2.5975,0.7574467699329723,-0.011061104397151664,0.6395617595570043,0.005595244813523488,-0.075504,-38.134539
11.185,2.0,1.0,1.0,33.0,33.5,33.5,2.5,4.0,2.6,0.7526338312899561,-0.011282013499787812,0.6450608401176332,0.005590233454500983,-0.076404,-37.998761
11.185,2.0,1.0,1.0,33.0,33.5,33.5,2.5,4.0,2.6025,0.7477524237182077,-0.011507334768555349,0.6505532884972525,0.0055833033852043835,-0.077323,-37.862379
11.185,2.0,1.0,1.0,33.0,33.5,33.5,2.5,4.0,2.605,0.7428016921828963,-0.011737174504626871,0.6560386218647816,0.005574371292563765,-0.078261,-37.725378
11.185,2.0,1.0,1.0,33.0,33.5,33.5,2.5,4.0,2.6075,0.7377807659637293,-0.011971642188141594,0.6615163403367593,0.005563350207642874,-0.07922,-37.587747
11.185,2.0,1.0,1.0,33.0,33.5,33.5,2.5,4.0,2.61,0.7326887583413948,-0.012210850590561302,0.6669859263389494,0.005550149325833508,-0.080199,-37.44947
11.185,2.0,1.0,1.0,33.0,33.5,33.5,2.5,4.0,2.6125,0.7275247662774856,-0.012454915891568816,0.6724468439417467,0.0055346738170321125,-0.081199,-37.310535
11.185,2.0,1.0,1.0,33.0,33.5,33.5,2.5,4.0,2.615,0.7222878700877802,-0.012703957800710548,0.6778985381681465,0.005516824625166487,-0.08222,-37.170928
11.185,2.0,1.0,1.0,33.0,33.5,33.5,2.5,4.0,2.6175,0.7169771331087579,-0.012958099683994488,0.6833404342729514,0.005496498256395843,-0.083264,-37.030633
11.185,2.0,1.0,1.0,33.0,33.5,33.5,2.5,4.0,2.62,0.7115916013572129,-0.013217468695664836,0.6887719369918351,0.0054735865552579446,-0.084331,-36.889636
11.185,2.0,1.0,1.0,33.0,33.5,33.5,2.5,4.0,2.6225,0.7061303031828388,-0.013482195915384349,0.694192429758793,0.005447976467986068,-0.085422,-36.747922
11.185,2.0,1.0,1.0,33.0,33.5,33.5,2.5,4.0,2.625,0.700592248913663,-0.0137524164910651,0.699601273890417,0.00541954979216111,-0.086536,-36.605476
11.185,2.0,1.0,1.0,33.0,33.5,33.5,2.5,4.0,2.6275,0.6949764304941848,-0.014028269787600838,0.7049978077353596,0.00538818291180307,-0.087677,-36.462282
11.185,2.0,1.0,1.0,33.0,33.5,33.5,2.5,4.0,2.63,0.689281821116101,-0.014309899541763066,0.7103813457872357,0.005353746516940629,-0.088842,-36.318325
11.185,2.0,1.0,1.0,33.0,33.5,33.5,2.5,4.0,2.6325,0.6835073748414835,-0.014597454023536268,0.7157511777591159,0.005316105306625113,-0.090035,-36.173587
11.185,2.0,1.0,1.0,33.0,33.5,33.5,2.5,4.0,2.635,0.6776520262182791,-0.014891086204178271,0.7211065676176521,0.005275117674278298,-0.091255,-36.028053
11.185,2.0,1.0,1.0,33.0,33.5,33.5,2.5,4.0,2.6375,0.6717146898880143,-0.015190953931304216,0.7264467525747446,0.005230635374179173,-0.092504,-35.881706
11.185,2.0,1.0,1.0,33.0,33.5,33.5,2.5,4.0,2.64,0.6656942601855621,-0.015497220111305192,0.7317709420345566,0.005182503167803688,-0.093781,-35.734527
11.185,2.0,1.0,1.0,33.0,33.5,33.5,2.5,4.0,2.6425,0.659589610730868,-0.01581005289942487,0.7370783164935115,0.0051305584486327546,-0.095089,-35.586499
11.185,2.0,1.0,1.0,33.0,33.5,33.5,2.5,4.0,2.645,0.6533995940125029,-0.016129625897830048,0.74236802639078,0.005074630843936109,-0.096428,-35.437605
11.185,2.0,1.0,1.0,33.0,33.5,33.5,2.5,4.0,2.6475,0.6471230409629386,-0.016456118362024118,0.7476391909065931,0.005014541791923674,-0.097799,-35.287824
11.185,2.0,1.0,1.0,33.0,33.5,33.5,2.5,4.0,2.65,0.6407587605254212,-0.01678971541596588,0.7528908967055609,0.004950104092528295,-0.099203,-35.13714
11.185,2.0,1.0,1.0,33.0,33.5,33.5,2.5,4.0,2.6525,0.6343055392123671,-0.01713060827626717,0.7581221966219495,0.00488112142994665,-0.100642,-34.985531
11.185,2.0,1.0,1.0,33.0,33.5,33.5,2.5,4.0,2.655,0.627762140655161,-0.01747899448585753,0.7633321082837263,0.0048073878649142155,-0.102116,-34.832978
11.185,2.0,1.0,1.0,33.0,33.5,33.5,2.5,4.0,2.6575,0.6211273051452857,-0.017835078157514925,0.7685196126719096,0.004728687294526852,-0.103627,-34.67946
11.185,2.0,1.0,1.0,33.0,33.5,33.5,2.5,4.0,2.66,0.6143997491667105,-0.018199070227673603,0.7736836526115628,0.004644792877243163,-0.105175,-34.524957
11.185,2.0,1.0,1.0,33.0,33.5,33.5,2.5,4.0,2.6625,0.607578164919482,-0.018571188720931,0.7788231311904876,0.004555466420506693,-0.106763,-34.369447
11.185,2.0,1.0,1.0,33.0,33.5,33.5,2.5,4.0,2.665,0.6006612198344635,-0.018951659025686185,0.7839369101014328,0.0044604577282149,-0.108391,-34.212908
11.185,2.0,1.0,1.0,33.0,33.5,33.5,2.5,4.0,2.6675,0.5936475560792206,-0.019340714181349493,0.78902380790329,0.00435950390502933,-0.110061,-34.055318
11.185,2.0,1.0,1.0,33.0,33.5,33.5,2.5,4.0,2.67,0.5865357900550423,-0.019738595177571636,0.7940825981964629,0.004252328614267219,-0.111774,-33.896652
11.185,2.0,1.0,1.0,33.0,33.5,33.5,2.5,4.0,2.6725,0.5793245118851168,-0.02014555126594432,0.7991120077072251,0.004138641285837263,-0.113533,-33.736888
11.185,2.0,1.0,1.0,33.0,33.5,33.5,2.5,4.0,2.675,0.572012284893946,-0.020561840284626667,0.8041107142755012,0.00401813627037754,-0.115338,-33.576001
11.185,2.0,1.0,1.0,33.0,33.5,33.5,2.5,4.0,2.6775,0.5645976450780723,-0.02098772899635092,0.8090773447400837,0.003890491935419685,-0.117191,-33.413966
11.185,2.0,1.0,1.0,33.0,33.5,33.5,2.5,4.0,2.68,0.5570791005682678,-0.021423493440256,0.8140104727148672,0.003755369699038365,-0.119094,-33.250756
11.185,2.0,1.0,1.0,33.0,33.5,33.5,2.5,4.0,2.6825,0.5494551310833757,-0.02186941929798728,0.8189086162491449,0.0036124129960422627,-0.121049,-33.086346
11.185,2.0,1.0,1.0,33.0,33.5,33.5,2.5,4.0,2.685,0.5417241873760507,-0.022325802274485693,0.8237702353645233,0.0034612461713221672,-0.123058,-32.920709
11.185,2.0,1.0,1.0,33.0,33.5,33.5,2.5,4.0,2.6875,0.533884690670711,-0.022792948493867,0.828593729460375,0.00330147329448598,-0.125123,-32.753816
11.185,2.0,1.0,1.0,33.0,33.5,33.5,2.5,4.0,2.69,0.5259350320941115,-0.023271174910760185,0.8333774345791276,0.0031326768893767264,-0.127246,-32.585638
11.185,2.0,1.0,1.0,33.0,33.5,33.5,2.5,4.0,2.6925,0.5178735720990053,-0.023760809737434767,0.8381196205219851,0.0029544165714810743,-0.129429,-32.416145
11.185,2.0,1.0,1.0,33.0,33.5,33.5,2.5,4.0,2.695,0.5096986398815203,-0.024262192886992027,0.8428184878048771,0.0027662275855874895,-0.131675,-32.245308
11.185,2.0,1.0,1.0,33.0,33.5,33.5,2.5,4.0,2.6975,0.501408532792938,-0.024775676432830858,0.8474721644436154,0.00256761923533758,-0.133986,-32.073094
11.185,2.0,1.0,1.0,33.0,33.5,33.5,2.5,4.0,2.7,0.49300151574677803,-0.025301625084513023,0.8520787025562737,0.0023580731955239547,-0.136365,-31.899472
11.185,2.0,1.0,1.0,33.0,33.5,33.5,2.5,4.0,2.7025,0.48447582062219596,-0.025840416680050934,0.8566360747698035,0.0021370416971147237,-0.138815,-31.724407
11.185,2.0,1.0,1.0,33.0,33.5,33.5,2.5,4.0,2.705,0.47582964566495495,-0.026392442694513154,0.8611421704167508,0.0019039455740181793,-0.141338,-31.547866
11.185,2.0,1.0,1.0,33.0,33.5,33.5,2.5,4.0,2.7075,0.4670611548874207,-0.026958108764688578,0.8655947915067125,0.0016581721595314378,-0.143937,-31.369812
11.185,2.0,1.0,1.0,33.0,33.5,33.5,2.5,4.0,2.71,0.4581684774693289,-0.027537835229361533,0.8699916484557773,0.001399073019230701,-0.146616,-31.190209
11.185,2.0,1.0,1.0,33.0,33.5,33.5,2.5,4.0,2.7125,0.44914970716136565,-0.028132057684525275,0.8743303555557036,0.0011259615057452163,-0.149379,-31.009018
11.185,2.0,1.0,1.0,33.0,33.5,33.5,2.5,4.0,2.715,0.44000290169397493,-0.02874122755258543,0.878608426162889,0.0008381101193957049,-0.152228,-30.826202
11.185,2.0,1.0,1.0,33.0,33.5,33.5,2.5,4.0,2.7175,0.4307260821942405,-0.029365812664281073,0.8828232675853513,0.0005347476570539873,-0.155168,-30.64172
11.185,2.0,1.0,1.0,33.0,33.5,33.5,2.5,4.0,2.72,0.4213172326141776,-0.03000629785165612,0.8869721756438597,0.00021505612977387937,-0.158203,-30.455529
11.185,2.0,1.0,1.0,33.0,33.5,33.5,2.5,4.0,2.7225,0.41177429917434455,-0.030663185549949196,0.891052328881113,-0.00012183257227052862,-0.161337,-30.267586
11.185,2.0,1.0,1.0,33.0,33.5,33.5,2.5,4.0,2.725,0.4020951898274004,-0.03133699640570845,0.8950607823902842,-0.0004768402912445056,-0.164574,-30.077847
11.185,2.0,1.0,1.0,33.0,33.5,33.5,2.5,4.0,2.7275,0.39227777374696876,-0.03202826988777838,0.8989944612314774,-0.0008509465157223834,-0.16792,-29.886266
11.185,2.0,1.0,1.0,33.0,33.5,33.5,2.5,4.0,2.73,0.38231988084817065,-0.03273756489701006,0.9028501534014781,-0.001245192626373783,-0.171379,-29.692794
11.185,2.0,1.0,1.0,33.0,33.5,33.5,2.5,4.0,2.7325,0.37221930134721826,-0.03346546036961194,0.906624502318712,-0.0016606865054034914,-0.174958,-29.497382
11.185,2.0,1.0,1.0,33.0,33.5,33.5,2.5,4.0,2.735,0.36197378536879254,-0.03421255586793775,0.9103139987814002,-0.0020986075453809892,-0.17866,-29.299979
11.185,2.0,1.0,1.0,33.0,33.5,33.5,2.5,4.0,2.7375,0.35158104261139284,-0.03497947215118625,0.913914972352587,-0.002560212097021176,-0.182494,-29.100532
11.185,2.0,1.0,1.0,33.0,33.5,33.5,2.5,4.0,2.74,0.3410387420826512,-0.03576685171690933,0.9174235821208063,-0.0030468393998768716,-0.186465,-28.898984
11.185,2.0,1.0,1.0,33.0,33.5,33.5,2.5,4.0,2.7425,0.3303445119186491,-0.036575359302358806,0.9208358067797423,-0.0035599180448470016,-0.190581,-28.695279
11.185,2.0,1.0,1.0,33.0,33.5,33.5,2.5,4.0,2.745,0.3194959393037551,-0.037405682332478325,0.9241474339641104,-0.004100973022956813,-0.194848,-28.489358
11.185,2.0,1.0,1.0,33.0,33.5,33.5,2.5,4.0,2.7475,0.3084905705103765,-0.03825853129870966,0.9273540487721366,-0.004671633421117909,-0.199275,-28.281158
11.185,2.0,1.0,1.0,33.0,33.5,33.5,2.5,4.0,2.75,0.297325911081431,-0.0391346400496443,0.930451021397325,-0.0052736408326132,-0.203871,-28.070616
11.185,2.0,1.0,1.0,33.0,33.5,33.5,2.5,4.0,2.7525,0.2859994261823873,-0.04003476597082151,0.9334334937835292,-0.005908858557988935,-0.208644,-27.857664
11.185,2.0,1.0,1.0,33.0,33.5,33.5,2.5,4.0,2.755,0.2745085411544941,-0.04095969002653114,0.9362963652076136,-0.006579281680991535,-0.213604,-27.642234
11.185,2.0,1.0,1.0,33.0,33.5,33.5,2.5,4.0,2.7575,0.2628506423064542,-0.0419102166311934,0.9390342766829901,-0.00728704811430644,-0.218762,-27.424253
11.185,2.0,1.0,1.0,33.0,33.5,33.5,2.5,4.0,2.76,0.2510230779885608,-0.04288717331157755,0.9416415940649314,-0.008034450721294053,-0.224129,-27.203645
11.185,2.0,1.0,1.0,33.0,33.5,33.5,2.5,4.0,2.7625,0.23902316000123822,-0.04389141011360118,0.944112389724557,-0.008823950632869516,-0.229717,-26.980334
11.185,2.0,1.0,1.0,33.0,33.5,33.5,2.5,4.0,2.765,0.22684816539946967,-0.044923798698458355,0.9464404226425631,-0.009658191893338414,-0.235539,-26.754236
11.185,2.0,1.0,1.0,33.0,33.5,33.5,2.5,4.0,2.7675,0.21449533876589405,-0.04598523106207655,0.9486191167558573,-0.010540017585630179,-0.24161,-26.525268
11.185,2.0,1.0,1.0,33.0,33.5,33.5,2.5,4.0,2.77,0.2019618950388633,-0.04707661779902797,0.950641537369986,-0.01147248760523947,-0.247944,-26.293341
11.185,2.0,1.0,1.0,33.0,33.5,33.5,2.5,4.0,2.7725,0.18924502299792245,-0.04819888581658368,0.9525003654272443,-0.012458898273605823,-0.254558,-26.058362
11.185,2.0,1.0,1.0,33.0,33.5,33.5,2.5,4.0,2.775,0.17634188952852384,-0.049352975386065194,0.9541878693942941,-0.013502804005998544,-0.261469,-25.820234
11.185,2.0,1.0,1.0,33.0,33.5,33.5,2.5,4.0,2.7775,0.16324964481100396,-0.050539836396359304,0.9556958745035231,-0.014608041276635867,-0.268698,-25.578857
11.185,2.0,1.0,1.0,33.0,33.5,33.5,2.5,4.0,2.78,0.14996542860674783,-0.05176042364762109,0.9570157290487904,-0.01577875515521852,-0.276265,-25.334125
11.185,2.0,1.0,1.0,33.0,33.5,33.5,2.5,4.0,2.7825,0.13648637784811468,-0.05301569099080499,0.9581382673980436,-0.017019428724825293,-0.284192,-25.085929
11.185,2.0,1.0,1.0,33.0,33.5,33.5,2.5,4.0,2.785,0.12280963577914629,-0.054306584079544064,0.9590537693419681,-0.018334915731800957,-0.292505,-24.834152
11.185,2.0,1.0,1.0,33.0,33.5,33.5,2.5,4.0,2.7875,0.10893236294317483,-0.05563403145352676,0.9597519153486126,-0.019730476864511404,-0.30123,-24.578674
11.185,2.0,1.0,1.0,33.0,33.5,33.5,2.5,4.0,2.79,0.0948517503726754,-0.05699893361509347,0.9602217372380695,-0.021211820110403286,-0.310398,-24.319368
11.185,2.0,1.0,1.0,33.0,33.5,33.5,2.5,4.0,2.7925,0.08056503540877621,-0.05840214969099027,0.9604515637279343,-0.022785145700469654,-0.32004,-24.056103
11.185,2.0,1.0,1.0,33.0,33.5,33.5,2.5,4.0,2.795,0.06606952066528593,-0.0598444811862818,0.9604289602284779,-0.02445719621787862,-0.330191,-23.78874
11.185,2.0,1.0,1.0,33.0,33.5,33.5,2.5,4.0,2.7975,0.05136259675883137,-0.061326652233816774,0.9601406621853084,-0.026235312524063293,-0.340892,-23.517132
11.185,2.0,1.0,1.0,33.0,33.5,33.5,2.5,4.0,2.8,0.03644176955680865,-0.06284928561603133,0.9595725011757346,-0.02812749624196309,-0.352185,-23.241128
11.185,2.0,1.0,1.0,33.0,33.5,33.5,2.5,4.0,2.8025,0.021304692854235266,-0.06441287368080867,0.9587093228621398,-0.030142479633232057,-0.364117,-22.960566
11.185,2.0,1.0,1.0,33.0,33.5,33.5,2.5,4.0,2.805,0.005949207585941383,-0.06601774308281702,0.9575348957905221,-0.032289803814901895,-0.37674,-22.675279
11.185,2.0,1.0,1.0,33.0,33.5,33.5,2.5,4.0,2.8075,-0.009626611079395905,-0.06766401204772814,0.9560318098943376,-0.03457990638179019,-0.390113,-22.38509
11.185,2.0,1.0,1.0,33.0,33.5,33.5,2.5,4.0,2.81,-0.02542439712118918,-0.0693515385683069,0.9541813634226345,-0.03702421963402613,-0.404299,-22.089814
11.185,2.0,1.0,1.0,33.0,33.5,33.5,2.5,4.0,2.8125,-0.0414454255177071,-0.0710798575851812,0.951963436857618,-0.0396352807539146,-0.419371,-21.789255
11.185,2.0,1.0,1.0,33.0,33.5,33.5,2.5,4.0,2.815,-0.057690530107213644,-0.07284810476432342,0.9493563522218469,-0.042426855431368836,-0.435407,-21.483207
11.185,2.0,1.0,1.0,33.0,33.5,33.5,2.5,4.0,2.8175,-0.07416000444156938,-0.07465492393668245,0.9463367160023646,-0.04541407659899169,-0.452497,-21.171457
11.185,2.0,1.0,1.0,33.0,33.5,33.5,2.5,4.0,2.82,-0.09085348191968724,-0.07649835458630373,0.942879243744202,-0.048613600100700226,-0.470741,-20.853776
11.185,2.0,1.0,1.0,33.0,33.5,33.5,2.5,4.0,2.8225,-0.10776979062386804,-0.07837569492798827,0.9389565641984737,-0.05204377927184703,-0.490251,-20.529927
11.185,2.0,1.0,1.0,33.0,33.5,33.5,2.5,4.0,2.825,-0.12490677720481212,-0.08028333506164957,0.9345390007663396,-0.05572486053862683,-0.511154,-20.19966
11.185,2.0,1.0,1.0,33.0,33.5,33.5,2.5,4.0,2.8275,-0.14226109281657037,-0.08221655337465478,0.9295943278834389,-0.0596792022263412,-0.533592,-19.862711
