1,w,sub_t,h,l1,l2,l3,g1,g2,Freq,S11_re,S21_re,S11_img,S21_img,S11_dB,S21_dB
11.185,2.0,1.0,1.0,34.1,34.2,34.2,2.0,3.1,2.5,0.76217361227024,-0.0151559151943333,0.633818588083156,0.00978562638197359,-0.076079,-34.87502
11.185,2.0,1.0,1.0,34.1,34.2,34.2,2.0,3.1,2.5025,0.7570925510931708,-0.015465095527980189,0.6397195081267734,0.009799744349522407,-0.076983,-34.746906
11.185,2.0,1.0,1.0,34.1,34.2,34.2,2.0,3.1,2.505,0.751936036531746,-0.015780330927370172,0.6456112006333807,0.009811390691110675,-0.077905,-34.618258
11.185,2.0,1.0,1.0,34.1,34.2,34.2,2.0,3.1,2.5075,0.7467031853435794,-0.016101754825677668,0.6514930524372654,0.00982045241096608,-0.078846,-34.489066
11.185,2.0,1.0,1.0,34.1,34.2,34.2,2.0,3.1,2.51,0.7413931003989103,-0.0164295040576592,0.6573644302393072,0.009826811764495938,-0.079806,-34.359321
11.185,2.0,1.0,1.0,34.1,34.2,34.2,2.0,3.1,2.5125,0.7360048704910228,-0.016763718954650113,0.6632246799119429,0.009830346042317206,-0.080787,-34.229013
11.185,2.0,1.0,1.0,34.1,34.2,34.2,2.0,3.1,2.515,0.7305375701467802,-0.017104543442172875,0.6690731257783844,0.009830927343397392,-0.081787,-34.098132
11.185,2.0,1.0,1.0,34.1,34.2,34.2,2.0,3.1,2.5175,0.7249902594375126,-0.017452125140205162,0.674909069865,0.009828422336694204,-0.082809,-33.966666
11.185,2.0,1.0,1.0,34.1,34.2,34.2,2.0,3.1,2.52,0.7193619837904826,-0.0178066154661544,0.6807317911257401,0.009822692010643955,-0.083853,-33.834606
11.185,2.0,1.0,1.0,34.1,34.2,34.2,2.0,3.1,2.5225,0.7136517738012154,-0.018168169740581858,0.6865405446374112,0.009813591409808113,-0.084918,-33.70194
11.185,2.0,1.0,1.0,34.1,34.2,34.2,2.0,3.1,2.525,0.7078586450469553,-0.018536947295716782,0.6923345607645696,0.009800969357943038,-0.086007,-33.568658
11.185,2.0,1.0,1.0,34.1,34.2,34.2,2.0,3.1,2.5275,0.7019815979015681,-0.018913111586797194,0.6981130442927269,0.00978466816671127,-0.087119,-33.434749
11.185,2.0,1.0,1.0,34.1,34.2,34.2,2.0,3.1,2.53,0.6960196173522175,-0.01929683030626851,0.703875173528491,0.009764523329202742,-0.088255,-33.3002
11.185,2.0,1.0,1.0,34.1,34.2,34.2,2.0,3.1,2.5325,0.6899716728181762,-0.019688275500865982,0.7096200993652093,0.009740363197380307,-0.089416,-33.165001
11.185,2.0,1.0,1.0,34.1,34.2,34.2,2.0,3.1,2.535,0.6838367179721496,-0.020087623691601855,0.7153469443126032,0.009712008642506367,-0.090603,-33.029139
11.185,2.0,1.0,1.0,34.1,34.2,34.2,2.0,3.1,2.5375,0.6776136905645445,-0.02049505599666805,0.7210548014887909,0.009679272697545122,-0.091817,-32.892603
11.185,2.0,1.0,1.0,34.1,34.2,34.2,2.0,3.1,2.54,0.6713015122511162,-0.020910758257259944,0.726742733573033,0.009641960180470007,-0.093057,-32.75538
11.185,2.0,1.0,1.0,34.1,34.2,34.2,2.0,3.1,2.5425,0.6648990884244905,-0.02133492116631432,0.7324097717174365,0.00959986729733279,-0.094326,-32.617457
11.185,2.0,1.0,1.0,34.1,34.2,34.2,2.0,3.1,2.545,0.6584053080500754,-0.021767740400145123,0.7380549144157518,0.009552781223875822,-0.095623,-32.478823
11.185,2.0,1.0,1.0,34.1,34.2,34.2,2.0,3.1,2.5475,0.6518190435069398,-0.02220941675294664,0.7436771263273063,0.009500479664386505,-0.09695,-32.339463
11.185,2.0,1.0,1.0,34.1,34.2,34.2,2.0,3.1,2.55,0.6451391504342479,-0.02266015627412044,0.7492753370540174,0.009442730386403909,-0.098308,-32.199364
11.185,2.0,1.0,1.0,34.1,34.2,34.2,2.0,3.1,2.5525,0.6383644675839317,-0.023120170408363925,0.7548484398682845,0.009379290729794086,-0.099697,-32.058513
11.185,2.0,1.0,1.0,34.1,34.2,34.2,2.0,3.1,2.555,0.6314938166802897,-0.023589676138441814,0.7603952903894775,0.009309907088606718,-0.101119,-31.916896
11.185,2.0,1.0,1.0,34.1,34.2,34.2,2.0,3.1,2.5575,0.6245260022872798,-0.02406889613053819,0.7659147052065836,0.009234314364017374,-0.102575,-31.774499
11.185,2.0,1.0,1.0,34.1,34.2,34.2,2.0,3.1,2.56,0.6174598116843442,-0.024558058882064183,0.7714054604444339,0.009152235386539921,-0.104065,-31.631307
11.185,2.0,1.0,1.0,34.1,34.2,34.2,2.0,3.1,2.5625,0.6102940147516407,-0.02505739887176743,0.7768662902707987,0.009063380305566875,-0.105591,-31.487306
11.185,2.0,1.0,1.0,34.1,34.2,34.2,2.0,3.1,2.565,0.6030273638656525,-0.025567156711960044,0.7822958853414715,0.00896744594415754,-0.107154,-31.34248
11.185,2.0,1.0,1.0,34.1,34.2,34.2,2.0,3.1,2.5675,0.5956585938062159,-0.026087579302644624,0.7876928911802878,0.008864115116844892,-0.108755,-31.196814
11.185,2.0,1.0,1.0,34.1,34.2,34.2,2.0,3.1,2.57,0.5881864216760808,-0.026618919987280405,0.7930559064908507,0.008753055908072866,-0.110395,-31.050292
11.185,2.0,1.0,1.0,34.1,34.2,34.2,2.0,3.1,2.5725,0.5806095468342284,-0.027161438709885192,0.7983834813965389,0.008633920908701574,-0.112076,-30.902898
11.185,2.0,1.0,1.0,34.1,34.2,34.2,2.0,3.1,2.575,0.5729266508442484,-0.027715402173119342,0.8036741156051572,0.008506346407831938,-0.113799,-30.754615
11.185,2.0,1.0,1.0,34.1,34.2,34.2,2.0,3.1,2.5775,0.565136397439207,-0.02828108399694059,0.808926256494363,0.008369951536998129,-0.115566,-30.605428
11.185,2.0,1.0,1.0,34.1,34.2,34.2,2.0,3.1,2.58,0.5572374325045409,-0.02885876487735416,0.8141382971137683,0.008224337363558487,-0.117378,-30.455317
11.185,2.0,1.0,1.0,34.1,34.2,34.2,2.0,3.1,2.5825,0.5492283840806429,-0.029448732744712013,0.8193085740993518,0.008069085929877751,-0.119236,-30.304266
11.185,2.0,1.0,1.0,34.1,34.2,34.2,2.0,3.1,2.585,0.54110786238695,-0.030051282920930938,0.8244353654955259,0.00790375923463825,-0.121142,-30.152257
11.185,2.0,1.0,1.0,34.1,34.2,34.2,2.0,3.1,2.5875,0.5328744598694916,-0.030666718274910874,0.8295168884799194,0.007727898152338905,-0.123099,-29.99927
11.185,2.0,1.0,1.0,34.1,34.2,34.2,2.0,3.1,2.59,0.524526751274037,-0.0312953493753279,0.834551296985585,0.007541021286740349,-0.125106,-29.845288
11.185,2.0,1.0,1.0,34.1,34.2,34.2,2.0,3.1,2.5925,0.5160632937471415,-0.03193749463986396,0.8395366792150177,0.007342623753687338,-0.127167,-29.69029
11.185,2.0,1.0,1.0,34.1,34.2,34.2,2.0,3.1,2.595,0.5074826269676318,-0.03259348047979966,0.8444710550399516,0.007132175888385617,-0.129284,-29.534257
11.185,2.0,1.0,1.0,34.1,34.2,34.2,2.0,3.1,2.5975,0.4987832733112458,-0.03326364143875434,0.8493523732805347,0.006909121871824185,-0.131458,-29.377167
11.185,2.0,1.0,1.0,34.1,34.2,34.2,2.0,3.1,2.6,0.48996373805142596,-0.03394832032418545,0.8541785088569985,0.006672878270615999,-0.133691,-29.219001
11.185,2.0,1.0,1.0,34.1,34.2,34.2,2.0,3.1,2.6025,0.4810225095995283,-0.03464786833007592,0.858947259806469,0.006422832484074968,-0.135987,-29.059737
11.185,2.0,1.0,1.0,34.1,34.2,34.2,2.0,3.1,2.605,0.47195805978798216,-0.035362645149023875,0.8636563441570556,0.006158341091851412,-0.138346,-28.899352
11.185,2.0,1.0,1.0,34.1,34.2,34.2,2.0,3.1,2.6075,0.4627688442003042,-0.036093019071712036,0.868303396650761,0.005878728094909295,-0.140772,-28.737824
11.185,2.0,1.0,1.0,34.1,34.2,34.2,2.0,3.1,2.61,0.4534533025522057,-0.03683936707146223,0.8728859653061589,0.005583283042040691,-0.143267,-28.575129
11.185,2.0,1.0,1.0,34.1,34.2,34.2,2.0,3.1,2.6125,0.44400985912845137,-0.037602074871279534,0.8774015078111103,0.0052712590334734405,-0.145833,-28.411244
11.185,2.0,1.0,1.0,34.1,34.2,34.2,2.0,3.1,2.615,0.4344369232805597,-0.03838153699044365,0.8818473877350552,0.004941870592428633,-0.148475,-28.246145
11.185,2.0,1.0,1.0,34.1,34.2,34.2,2.0,3.1,2.6175,0.4247328899909646,-0.039178156767318006,0.8862208705496343,0.00459429139472386,-0.151193,-28.079805
11.185,2.0,1.0,1.0,34.1,34.2,34.2,2.0,3.1,2.62,0.41489614050977836,-0.03999234635460804,0.8905191194455194,0.004227651845684696,-0.153993,-27.912199
11.185,2.0,1.0,1.0,34.1,34.2,34.2,2.0,3.1,2.6225,0.40492504307092764,-0.04082452668280285,0.894739190932406,0.003841036492718699,-0.156876,-27.743301
11.185,2.0,1.0,1.0,34.1,34.2,34.2,2.0,3.1,2.625,0.394817953695144,-0.0416751273869699,0.898878030208071,0.00343348126091234,-0.159847,-27.573083
11.185,2.0,1.0,1.0,34.1,34.2,34.2,2.0,3.1,2.6275,0.38457321708801334,-0.04254458669143929,0.9029324662813079,0.0030039704979240977,-0.162909,-27.401516
11.185,2.0,1.0,1.0,34.1,34.2,34.2,2.0,3.1,2.63,0.3741891676422012,-0.04343335124618604,0.9068992068323032,0.0025514338132566787,-0.166066,-27.228572
11.185,2.0,1.0,1.0,34.1,34.2,34.2,2.0,3.1,2.6325,0.36366413055390445,-0.044341875907903824,0.9107748327926871,0.002074742695689493,-0.169322,-27.054221
11.185,2.0,1.0,1.0,34.1,34.2,34.2,2.0,3.1,2.635,0.35299642306467427,-0.04527062345782947,0.9145557926260345,0.0015727068912249765,-0.172681,-26.878432
11.185,2.0,1.0,1.0,34.1,34.2,34.2,2.0,3.1,2.6375,0.34218435584098666,-0.04622006424732135,0.9182383962879715,0.0010440705223376885,-0.176148,-26.701174
11.185,2.0,1.0,1.0,34.1,34.2,34.2,2.0,3.1,2.64,0.33122623450527106,-0.047190675760994234,0.9218188088433125,0.00048750792759752373,-0.179728,-26.522413
11.185,2.0,1.0,1.0,34.1,34.2,34.2,2.0,3.1,2.6425,0.32012036133370264,-0.048182942085840966,0.9252930437157006,-9.838080114115941e-05,-0.183425,-26.342116
11.185,2.0,1.0,1.0,34.1,34.2,34.2,2.0,3.1,2.645,0.3088650371377673,-0.049197353273216775,0.928656955543133,-0.0007150746088632054,-0.187246,-26.160248
11.185,2.0,1.0,1.0,34.1,34.2,34.2,2.0,3.1,2.6475,0.29745856334861476,-0.05023440457878261,0.9319062326104263,-0.001364136621975782,-0.191195,-25.976773
11.185,2.0,1.0,1.0,34.1,34.2,34.2,2.0,3.1,2.65,0.2858992443253975,-0.051294595563479685,0.9350363888271396,-0.002047219676993429,-0.195278,-25.791655
11.185,2.0,1.0,1.0,34.1,34.2,34.2,2.0,3.1,2.6525,0.27418538991141655,-0.05237842903628711,0.9380427552166671,-0.002766072265706452,-0.199503,-25.604856
11.185,2.0,1.0,1.0,34.1,34.2,34.2,2.0,3.1,2.655,0.26231531826465265,-0.05348640981687388,0.9409204708791636,-0.0035225449322305743,-0.203876,-25.416335
11.185,2.0,1.0,1.0,34.1,34.2,34.2,2.0,3.1,2.6575,0.2502873589926372,-0.05461904329322213,0.9436644733875647,-0.004318597160648083,-0.208404,-25.226052
11.185,2.0,1.0,1.0,34.1,34.2,34.2,2.0,3.1,2.66,0.2380998566252688,-0.05577683374583129,0.9462694885722739,-0.005156304795596531,-0.213095,-25.033965
11.185,2.0,1.0,1.0,34.1,34.2,34.2,2.0,3.1,2.6625,0.22575117446348086,-0.05696028240613109,0.9487300196459919,-0.0060378680421702855,-0.217956,-24.840031
11.185,2.0,1.0,1.0,34.1,34.2,34.2,2.0,3.1,2.665,0.2132396988464653,-0.058169885212166664,0.9510403356156861,-0.00696562009591316,-0.222998,-24.644204
11.185,2.0,1.0,1.0,34.1,34.2,34.2,2.0,3.1,2.6675,0.20056384388576476,-0.05940613021936294,0.9531944589237413,-0.007942036458529258,-0.228228,-24.446438
11.185,2.0,1.0,1.0,34.1,34.2,34.2,2.0,3.1,2.67,0.1877220567208605,-0.06066949461813997,0.9551861522549249,-0.008969745000278518,-0.233657,-24.246685
11.185,2.0,1.0,1.0,34.1,34.2,34.2,2.0,3.1,2.6725,0.17471282335818789,-0.06196044130318871,0.9570089044397969,-0.01005153683589031,-0.239296,-24.044895
11.185,2.0,1.0,1.0,34.1,34.2,34.2,2.0,3.1,2.675,0.1615346751639224,-0.06327941493119169,0.9586559153786531,-0.011190378087272886,-0.245155,-23.841016
11.185,2.0,1.0,1.0,34.1,34.2,34.2,2.0,3.1,2.6775,0.1481861960905013,-0.064626837394507,0.9601200799028555,-0.012389422613381848,-0.251248,-23.634995
11.185,2.0,1.0,1.0,34.1,34.2,34.2,2.0,3.1,2.68,0.13466603072796438,-0.06600310262762096,0.9613939704825011,-0.01365202579537797,-0.257586,-23.426776
11.185,2.0,1.0,1.0,34.1,34.2,34.2,2.0,3.1,2.6825,0.12097289328407274,-0.067408570650773,0.9624698186806782,-0.01498175947372108,-0.264184,-23.216302
11.185,2.0,1.0,1.0,34.1,34.2,34.2,2.0,3.1,2.685,0.1071055776119576,-0.0688435607407867,0.9633394952450659,-0.016382428143168398,-0.271057,-23.003513
11.185,2.0,1.0,1.0,34.1,34.2,34.2,2.0,3.1,2.6875,0.0930629684212656,-0.0703083436024622,0.963994488717213,-0.0178580865218271,-0.278221,-22.788348
11.185,2.0,1.0,1.0,34.1,34.2,34.2,2.0,3.1,2.69,0.07884405382869909,-0.07180313239450328,0.9644258824285185,-0.019413058621508522,-0.285694,-22.570741
11.185,2.0,1.0,1.0,34.1,34.2,34.2,2.0,3.1,2.6925,0.06444793942694937,-0.07332807244141287,0.9646243297395641,-0.021051958458698936,-0.293493,-22.350628
11.185,2.0,1.0,1.0,34.1,34.2,34.2,2.0,3.1,2.695,0.049873864077999146,-0.0748832294365116,0.9645800273661029,-0.02277971255851696,-0.30164,-22.127937
11.185,2.0,1.0,1.0,34.1,34.2,34.2,2.0,3.1,2.6975,0.03512121766803335,-0.07646857591060435,0.9642826866205375,-0.02460158441812603,-0.310155,-21.902598
11.185,2.0,1.0,1.0,34.1,34.2,34.2,2.0,3.1,2.7,0.020189561097856717,-0.07808397570501205,0.9637215023822404,-0.026523201111158603,-0.319063,-21.674536
11.185,2.0,1.0,1.0,34.1,34.2,34.2,2.0,3.1,2.7025,0.005078648825347558,-0.0797291661458286,0.9628851195935106,-0.028550582230797532,-0.32839,-21.443672
11.185,2.0,1.0,1.0,34.1,34.2,34.2,2.0,3.1,2.705,-0.010211545673466745,-0.08140373756721823,0.9617615970605029,-0.03069017138610713,-0.338162,-21.209928
11.185,2.0,1.0,1.0,34.1,34.2,34.2,2.0,3.1,2.7075,-0.02568080109964039,-0.08310710977406442,0.9603383683201786,-0.0329488704838843,-0.34841,-20.973217
11.185,2.0,1.0,1.0,34.1,34.2,34.2,2.0,3.1,2.71,-0.04132861568900795,-0.08483850496674603,0.9586021993155569,-0.035334077046416126,-0.359167,-20.733454
11.185,2.0,1.0,1.0,34.1,34.2,34.2,2.0,3.1,2.7125,-0.05715417015786669,-0.08659691657141558,0.9565391426025928,-0.03785372483370356,-0.370468,-20.490547
11.185,2.0,1.0,1.0,34.1,34.2,34.2,2.0,3.1,2.715,-0.07315628556713227,-0.08838107332567516,0.9541344877935193,-0.04051632805634085,-0.382352,-20.244401
11.185,2.0,1.0,1.0,34.1,34.2,34.2,2.0,3.1,2.7175,-0.089333375323664,-0.09018939785937183,0.9513727079242411,-0.043331029481513766,-0.394862,-19.994919
11.185,2.0,1.0,1.0,34.1,34.2,34.2,2.0,3.1,2.72,-0.10568339040547535,-0.09201995888022364,0.9482374014185291,-0.04630765274831648,-0.408044,-19.741998
11.185,2.0,1.0,1.0,34.1,34.2,34.2,2.0,3.1,2.7225,-0.12220375674187325,-0.09387041592043333,0.9447112293108738,-0.04945675921821253,-0.42195,-19.485532
11.185,2.0,1.0,1.0,34.1,34.2,34.2,2.0,3.1,2.725,-0.13889130349537382,-0.09573795541886436,0.9407758473852201,-0.05278970968974329,-0.436635,-19.225409
11.185,2.0,1.0,1.0,34.1,34.2,34.2,2.0,3.1,2.7275,-0.1557421807745822,-0.09761921669851563,0.936411832891195,-0.056318731300606314,-0.45216,-18.961515
11.185,2.0,1.0,1.0,34.1,34.2,34.2,2.0,3.1,2.73,-0.17275176504931455,-0.09951020614459588,0.9315986055170453,-0.060056989920889516,-0.468595,-18.693728
11.185,2.0,1.0,1.0,34.1,34.2,34.2,2.0,3.1,2.7325,-0.18991455023394535,-0.1014061975870893,0.9263143423346114,-0.06401866830324086,-0.486014,-18.421926
11.185,2.0,1.0,1.0,34.1,34.2,34.2,2.0,3.1,2.735,-0.20722402204303741,-0.10330161653449323,0.920535886493513,-0.06821905019176204,-0.504499,-18.145977
11.185,2.0,1.0,1.0,34.1,34.2,34.2,2.0,3.1,2.7375,-0.22467251279463468,-0.10518990548211922,0.9142386495390323,-0.07267461049185435,-0.524143,-17.865748
11.185,2.0,1.0,1.0,34.1,34.2,34.2,2.0,3.1,2.74,-0.24225103332862283,-0.1070633670169079,0.9073965073737869,-0.07740311145517327,-0.545048,-17.581099
11.185,2.0,1.0,1.0,34.1,34.2,34.2,2.0,3.1,2.7425,-0.2599490781064537,-0.1089129808472014,0.8999816900943572,-0.08242370462020195,-0.567328,-17.291883
11.185,2.0,1.0,1.0,34.1,34.2,34.2,2.0,3.1,2.745,-0.2777543988478505,-0.1107281901843792,0.8919646662334549,-0.08775703794693109,-0.591109,-16.997953
11.185,2.0,1.0,1.0,34.1,34.2,34.2,2.0,3.1,2.7475,-0.2956527412217349,-0.11249665207577994,0.8833140223561338,-0.09342536716361141,-0.616533,-16.699152
11.185,2.0,1.0,1.0,34.1,34.2,34.2,2.0,3.1,2.75,-0.313627538122501,-0.114203945315187,0.873996339535186,-0.0994526697645647,-0.643759,-16.39532
11.185,2.0,1.0,1.0,34.1,34.2,34.2,2.0,3.1,2.7525,-0.3316595519074762,-0.11583322841748639,0.8639760690192235,-0.1058647593077739,-0.672966,-16.086293
11.185,2.0,1.0,1.0,34.1,34.2,34.2,2.0,3.1,2.755,-0.3497264566256457,-0.11736483881703916,0.8532154104771135,-0.11268939658972273,-0.704354,-15.771902
11.185,2.0,1.0,1.0,34.1,34.2,34.2,2.0,3.1,2.7575,-0.367802349712158,-0.11877582291612976,0.8416741976467347,-0.11995639283092734,-0.73815,-15.451973
11.185,2.0,1.0,1.0,34.1,34.2,34.2,2.0,3.1,2.76,-0.3858571808438232,-0.12003938485754219,0.829309798155859,-0.12769769806812944,-0.774611,-15.126331
11.185,2.0,1.0,1.0,34.1,34.2,34.2,2.0,3.1,2.7625,-0.40385608364589626,-0.12112423992251173,0.8160770368770974,-0.1359474653604904,-0.814028,-14.794799
11.185,2.0,1.0,1.0,34.1,34.2,34.2,2.0,3.1,2.765,-0.421758593728111,-0.12199385628148775,0.8019281556345149,-0.14474207797160338,-0.856732,-14.457196
11.185,2.0,1.0,1.0,34.1,34.2,34.2,2.0,3.1,2.7675,-0.4395177341623614,-0.12260556650522875,0.7868128266648697,-0.1541201221206297,-0.903101,-14.113347
11.185,2.0,1.0,1.0,34.1,34.2,34.2,2.0,3.1,2.77,-0.457078947107052,-0.12290952789015028,0.7706782432961196,-0.16412228186257757,-0.953569,-13.763076
11.185,2.0,1.0,1.0,34.1,34.2,34.2,2.0,3.1,2.7725,-0.47437884803641006,-0.12284750846792392,0.753469319277561,-0.17479112472582017,-1.00863,-13.406216
11.185,2.0,1.0,1.0,34.1,34.2,34.2,2.0,3.1,2.775,-0.491343777290967,-0.1223514738991387,0.7351290386272185,-0.1861707363623704,-1.068858,-13.042607
11.185,2.0,1.0,1.0,34.1,34.2,34.2,2.0,3.1,2.7775,-0.5078881229860763,-0.12134194985209391,0.7155990114221604,-0.19830614899075533,-1.134911,-12.672107
11.185,2.0,1.0,1.0,34.1,34.2,34.2,2.0,3.1,2.78,-0.5239123905778794,-0.11972613581721367,0.6948203084389519,-0.2112424910495755,-1.207553,-12.294592
11.185,2.0,1.0,1.0,34.1,34.2,34.2,2.0,3.1,2.7825,-0.5393009989403095,-0.11739575095009064,0.6727346698452568,-0.22502376335324892,-1.287672,-11.909964
11.185,2.0,1.0,1.0,34.1,34.2,34.2,2.0,3.1,2.785,-0.5539197926815072,-0.11422460249085722,0.6492862111651013,-0.23969111924989897,-1.376302,-11.518165
11.185,2.0,1.0,1.0,34.1,34.2,34.2,2.0,3.1,2.7875,-0.5676132786077304,-0.11006588554237869,0.6244237842677857,-0.25528049206561193,-1.474652,-11.119181
11.185,2.0,1.0,1.0,34.1,34.2,34.2,2.0,3.1,2.79,-0.5802016250201247,-0.10474925376910704,0.5981041924865157,-0.2718193721775515,-1.584137,-10.713063
11.185,2.0,1.0,1.0,34.1,34.2,34.2,2.0,3.1,2.7925,-0.5914775119138246,-0.09807774986770007,0.570296506458419,-0.28932248911222996,-1.706423,-10.299939
11.185,2.0,1.0,1.0,34.1,34.2,34.2,2.0,3.1,2.795,-0.6012029962708718,-0.08982476052281345,0.5409877782006028,-0.30778610382351146,-1.843473,-9.880036
11.185,2.0,1.0,1.0,34.1,34.2,34.2,2.0,3.1,2.7975,-0.6091066699900445,-0.07973127338921496,0.5101904990526525,-0.3271805690157834,-1.997606,-9.453709
11.185,2.0,1.0,1.0,34.1,34.2,34.2,2.0,3.1,2.8,-0.6148815511735585,-0.06750387588958813,0.4779521802342017,-0.34744078320210353,-2.171566,-9.021464
11.185,2.0,1.0,1.0,34.1,34.2,34.2,2.0,3.1,2.8025,-0.6181843758089701,-0.05281416041667493,0.4443674313399497,-0.3684541685811074,-2.368609,-8.584003
11.185,2.0,1.0,1.0,34.1,34.2,34.2,2.0,3.1,2.805,-0.6186372567997038,-0.03530049810786682,0.40959283680089675,-0.3900458789034126,-2.592598,-8.142259
11.185,2.0,1.0,1.0,34.1,34.2,34.2,2.0,3.1,2.8075,-0.6158330509663104,-0.014573513642079856,0.37386472929900927,-0.41196114478577184,-2.848116,-7.697443
11.185,2.0,1.0,1.0,34.1,34.2,34.2,2.0,3.1,2.81,-0.6093461984501497,0.009772987282681816,0.33751955672477935,-0.4338450654001756,-3.140593,-7.251104
11.185,2.0,1.0,1.0,34.1,34.2,34.2,2.0,3.1,2.8125,-0.598751203942809,0.038143486884752,0.301015841094742,-0.45522085058112,-3.476439,-6.805172
11.185,2.0,1.0,1.0,34.1,34.2,34.2,2.0,3.1,2.815,-0.5836511712880017,0.07091223391674807,0.2649556379565651,-0.47546860081361325,-3.863165,-6.362021
11.185,2.0,1.0,1.0,34.1,34.2,34.2,2.0,3.1,2.8175,-0.5637186313071131,0.1083825222742539,0.2301018699925854,-0.49380823605248325,-4.309475,-5.924505
11.185,2.0,1.0,1.0,34.1,34.2,34.2,2.0,3.1,2.82,-0.5387499446176545,0.15073251947398508,0.19738600343626664,-0.5092920721558274,-4.825234,-5.495989
11.185,2.0,1.0,1.0,34.1,34.2,34.2,2.0,3.1,2.8225,-0.5087323647845663,0.19794858440594781,0.16789859306127516,-0.5208144637431746,-5.421203,-5.080344
11.185,2.0,1.0,1.0,34.1,34.2,34.2,2.0,3.1,2.825,-0.4739190404798187,0.2497507994529059,0.14285397589800375,-0.5271471529892202,-6.108224,-4.681896
11.185,2.0,1.0,1.0,34.1,34.2,34.2,2.0,3.1,2.8275,-0.4349018574804414,0.3055207800801318,0.12352104306393155,-0.5270082960398876,-6.895253,-4.305316
11.185,2.0,1.0,1.0,34.1,34.2,34.2,2.0,3.1,2.83,-0.3926659971427489,0.3642477907270458,0.11111601390403156,-0.5191691454610773,-7.784988,-3.955438
