1,w,sub_t,h,l1,l2,l3,g1,g2,Freq,S11_re,S21_re,S11_img,S21_img,S11_dB,S21_dB
11.185,2.0,1.0,1.0,34.5,33.0,33.0,3.0,3.5,2.5,0.703976353264454,-0.0106042245757741,0.699385317730628,0.00440563020163693,-0.066861,-38.798897
11.185,2.0,1.0,1.0,34.5,33.0,33.0,3.0,3.5,2.5025,0.6982983745794812,-0.010778495498761765,0.7049476098557371,0.00436653592754867,-0.067526,-38.688865
11.185,2.0,1.0,1.0,34.5,33.0,33.0,3.0,3.5,2.505,0.6925462657073852,-0.01095507729649398,0.7104915003814579,0.00432511692032546,-0.068202,-38.578598
11.185,2.0,1.0,1.0,34.5,33.0,33.0,3.0,3.5,2.5075,0.6867193391260755,-0.011133992793851334,0.7160162571975257,0.004281304190621028,-0.06889,-38.468093
11.185,2.0,1.0,1.0,34.5,33.0,33.0,3.0,3.5,2.51,0.6808169015885369,-0.011315264652858611,0.7215211284165738,0.004235026786833376,-0.069588,-38.357344
11.185,2.0,1.0,1.0,34.5,33.0,33.0,3.0,3.5,2.5125,0.6748382542421684,-0.011498915344459905,0.7270053418478419,0.004186211738967172,-0.070299,-38.246348
11.185,2.0,1.0,1.0,34.5,33.0,33.0,3.0,3.5,2.515,0.6687826927591719,-0.011684967118602795,0.732468104458298,0.004134784000978511,-0.071021,-38.135101
11.185,2.0,1.0,1.0,34.5,33.0,33.0,3.0,3.5,2.5175,0.6626495074785743,-0.011873441972545628,0.7379086018209414,0.004080666391570422,-0.071755,-38.023599
11.185,2.0,1.0,1.0,34.5,33.0,33.0,3.0,3.5,2.52,0.6564379835604477,-0.012064361617300281,0.743325997550102,0.004023779533406158,-0.072502,-37.911836
11.185,2.0,1.0,1.0,34.5,33.0,33.0,3.0,3.5,2.5225,0.6501474011529729,-0.012257747442115784,0.7487194327234973,0.003964041790707984,-0.073261,-37.799809
11.185,2.0,1.0,1.0,34.5,33.0,33.0,3.0,3.5,2.525,0.643777035572962,-0.012453620476907151,0.7540880252908737,0.0039013692052094814,-0.074034,-37.687513
11.185,2.0,1.0,1.0,34.5,33.0,33.0,3.0,3.5,2.5275,0.6373261575005181,-0.012652001352526691,0.7594308694690235,0.0038356754304291357,-0.074819,-37.574945
11.185,2.0,1.0,1.0,34.5,33.0,33.0,3.0,3.5,2.53,0.630794033188534,-0.012852910258771463,0.7647470351229838,0.0037668716642336193,-0.075617,-37.462099
11.185,2.0,1.0,1.0,34.5,33.0,33.0,3.0,3.5,2.5325,0.6241799246877466,-0.013056366900015923,0.7700355671332388,0.0036948665796593325,-0.07643,-37.348973
11.185,2.0,1.0,1.0,34.5,33.0,33.0,3.0,3.5,2.535,0.6174830900881075,-0.013262390448353348,0.7752954847487525,0.003619566253961582,-0.077256,-37.23556
11.185,2.0,1.0,1.0,34.5,33.0,33.0,3.0,3.5,2.5375,0.6107027837772606,-0.01347099949412385,0.7805257809256536,0.0035408740958607905,-0.078096,-37.121857
11.185,2.0,1.0,1.0,34.5,33.0,33.0,3.0,3.5,2.54,0.6038382567169419,-0.013682211993702903,0.7857254216514282,0.0034586907709567385,-0.078951,-37.00786
11.185,2.0,1.0,1.0,34.5,33.0,33.0,3.0,3.5,2.5425,0.596888756738155,-0.013896045214416501,0.7908933452544666,0.003372914125281418,-0.079821,-36.893563
11.185,2.0,1.0,1.0,34.5,33.0,33.0,3.0,3.5,2.545,0.5898535288560113,-0.014112515676445081,0.7960284616988379,0.0032834391069634914,-0.080705,-36.778964
11.185,2.0,1.0,1.0,34.5,33.0,33.0,3.0,3.5,2.5475,0.5827318156051668,-0.014331639091570406,0.8011296518641565,0.0031901576859774115,-0.081605,-36.664057
11.185,2.0,1.0,1.0,34.5,33.0,33.0,3.0,3.5,2.55,0.5755228573967944,-0.014553430298614866,0.8061957668104635,0.0030929587719513247,-0.082521,-36.548837
11.185,2.0,1.0,1.0,34.5,33.0,33.0,3.0,3.5,2.5525,0.5682258928981221,-0.014777903195414157,0.8112256270280005,0.0029917281300108705,-0.083453,-36.433301
11.185,2.0,1.0,1.0,34.5,33.0,33.0,3.0,3.5,2.555,0.5608401594355467,-0.015005070667159367,0.8162180216718331,0.0028863482946359033,-0.084401,-36.317445
11.185,2.0,1.0,1.0,34.5,33.0,33.0,3.0,3.5,2.5575,0.5533648934224122,-0.01523494451093515,0.8211717077812629,0.002776698481509253,-0.085366,-36.201262
11.185,2.0,1.0,1.0,34.5,33.0,33.0,3.0,3.5,2.56,0.5457993308125788,-0.01546753535627496,0.8260854094839962,0.002662654497339787,-0.086348,-36.08475
11.185,2.0,1.0,1.0,34.5,33.0,33.0,3.0,3.5,2.5625,0.5381427075809362,-0.015702852581545444,0.830957817185069,0.0025440886476430645,-0.087347,-35.967903
11.185,2.0,1.0,1.0,34.5,33.0,33.0,3.0,3.5,2.565,0.5303942602320658,-0.015940904225964333,0.8357875867405496,0.0024208696424652776,-0.088364,-35.850717
11.185,2.0,1.0,1.0,34.5,33.0,33.0,3.0,3.5,2.5675,0.5225532263383181,-0.01618169689704782,0.8405733386160587,0.0022928625000401925,-0.0894,-35.733187
11.185,2.0,1.0,1.0,34.5,33.0,33.0,3.0,3.5,2.57,0.5146188451085864,-0.01642523567327445,0.8453136570301942,0.0021599284483697465,-0.090453,-35.61531
11.185,2.0,1.0,1.0,34.5,33.0,33.0,3.0,3.5,2.5725,0.5065903579891301,-0.01667152400174421,0.8500070890829665,0.002021924824724291,-0.091526,-35.497079
11.185,2.0,1.0,1.0,34.5,33.0,33.0,3.0,3.5,2.575,0.4984670092978399,-0.016920563590601064,0.8546521438693895,0.0018787049730600875,-0.092618,-35.378492
11.185,2.0,1.0,1.0,34.5,33.0,33.0,3.0,3.5,2.5775,0.4902480468933871,-0.017172354295978295,0.8592472915784125,0.001730118139356728,-0.09373,-35.259542
11.185,2.0,1.0,1.0,34.5,33.0,33.0,3.0,3.5,2.58,0.481932722880759,-0.017426894003215728,0.8637909625774098,0.0015760093648811918,-0.094862,-35.140226
11.185,2.0,1.0,1.0,34.5,33.0,33.0,3.0,3.5,2.5825,0.4735202943547125,-0.01768417850208773,0.8682815464825065,0.001416219377388779,-0.096015,-35.020538
11.185,2.0,1.0,1.0,34.5,33.0,33.0,3.0,3.5,2.585,0.4650100241827575,-0.017944201355769157,0.8727173912150398,0.0012505844802771751,-0.097189,-34.900474
11.185,2.0,1.0,1.0,34.5,33.0,33.0,3.0,3.5,2.5875,0.4564011818293129,-0.0182069537632571,0.8770968020445374,0.0010789364397148426,-0.098384,-34.78003
11.185,2.0,1.0,1.0,34.5,33.0,33.0,3.0,3.5,2.59,0.44769304422275163,-0.018472424414952705,0.8814180406186101,0.0009011023697698193,-0.099602,-34.6592
11.185,2.0,1.0,1.0,34.5,33.0,33.0,3.0,3.5,2.5925,0.4388848966670856,-0.018740599341097064,0.8856793239802514,0.0007169046155721407,-0.100842,-34.53798
11.185,2.0,1.0,1.0,34.5,33.0,33.0,3.0,3.5,2.595,0.42997603380012767,-0.019011461752741647,0.8898788235730659,0.0005261606345491626,-0.102105,-34.416365
11.185,2.0,1.0,1.0,34.5,33.0,33.0,3.0,3.5,2.5975,0.4209657605999846,-0.019284991874922455,0.8940146642350396,0.00032868287578007363,-0.103391,-34.294349
11.185,2.0,1.0,1.0,34.5,33.0,33.0,3.0,3.5,2.6,0.4118533934418254,-0.019561166771692402,0.8980849231815167,0.0001242786575228298,-0.104702,-34.17193
11.185,2.0,1.0,1.0,34.5,33.0,33.0,3.0,3.5,2.6025,0.40263826120692253,-0.019839960162653627,0.9020876289781253,-8.724995702392692e-05,-0.106037,-34.0491
11.185,2.0,1.0,1.0,34.5,33.0,33.0,3.0,3.5,2.605,0.393319706445997,-0.02012134223061854,0.9060207605044883,-0.00030610628565400013,-0.107398,-33.925856
11.185,2.0,1.0,1.0,34.5,33.0,33.0,3.0,3.5,2.6075,0.3838970865989892,-0.020405279420011514,0.9098822459096135,-0.0005324991547028711,-0.108784,-33.802192
11.185,2.0,1.0,1.0,34.5,33.0,33.0,3.0,3.5,2.61,0.3743697752734183,-0.020691734225610898,0.9136699615599678,-0.0007666430281228403,-0.110196,-33.678104
11.185,2.0,1.0,1.0,34.5,33.0,33.0,3.0,3.5,2.6125,0.36473716358355,-0.02098066497121405,0.917381730981326,-0.0010087581379862954,-0.111636,-33.553587
11.185,2.0,1.0,1.0,34.5,33.0,33.0,3.0,3.5,2.615,0.3549986615526487,-0.021272025577793303,0.9210153237955898,-0.0012590706163051596,-0.113103,-33.428635
11.185,2.0,1.0,1.0,34.5,33.0,33.0,3.0,3.5,2.6175,0.34515369958066794,-0.02156576532069391,0.9245684546538637,-0.00151781262804621,-0.114598,-33.303243
11.185,2.0,1.0,1.0,34.5,33.0,33.0,3.0,3.5,2.62,0.3352017299797587,-0.02186182857540871,0.928038782167211,-0.001785222505207173,-0.116122,-33.177407
11.185,2.0,1.0,1.0,34.5,33.0,33.0,3.0,3.5,2.6225,0.3251422285800463,-0.022160154551447372,0.9314239078366092,-0.0020615448818074983,-0.117676,-33.05112
11.185,2.0,1.0,1.0,34.5,33.0,33.0,3.0,3.5,2.625,0.314974696408195,-0.0224606770137992,0.93472137498376,-0.00234703082963254,-0.119259,-32.924379
11.185,2.0,1.0,1.0,34.5,33.0,33.0,3.0,3.5,2.6275,0.30469866144129315,-0.022763323991472184,0.9379286676845403,-0.002641937994557138,-0.120874,-32.797177
11.185,2.0,1.0,1.0,34.5,33.0,33.0,3.0,3.5,2.63,0.2943136804386765,-0.023068017472570628,0.9410432097070192,-0.0029465307332581696,-0.12252,-32.669509
11.185,2.0,1.0,1.0,34.5,33.0,33.0,3.0,3.5,2.6325,0.2838193408543454,-0.02337467308535521,0.9440623634561033,-0.0032610802501104644,-0.124199,-32.54137
11.185,2.0,1.0,1.0,34.5,33.0,33.0,3.0,3.5,2.635,0.273215262832664,-0.023683199764709624,0.9469834289270445,-0.003585864734044503,-0.125911,-32.412755
11.185,2.0,1.0,1.0,34.5,33.0,33.0,3.0,3.5,2.6375,0.2625011012901016,-0.023993499403416794,0.9498036426701799,-0.003921169495125303,-0.127657,-32.283658
11.185,2.0,1.0,1.0,34.5,33.0,33.0,3.0,3.5,2.64,0.25167654808576617,-0.02430546648762823,0.9525201767694736,-0.004267287100595923,-0.129437,-32.154074
11.185,2.0,1.0,1.0,34.5,33.0,33.0,3.0,3.5,2.6425,0.24074133428356861,-0.024618987715886446,0.9551301378375772,-0.0046245175101091536,-0.131253,-32.023996
11.185,2.0,1.0,1.0,34.5,33.0,33.0,3.0,3.5,2.645,0.22969523250885227,-0.024933941601039723,0.9576305660303268,-0.004993168209850534,-0.133106,-31.89342
11.185,2.0,1.0,1.0,34.5,33.0,33.0,3.0,3.5,2.6475,0.21853805940235882,-0.025250198054364754,0.9600184340837882,-0.0053735543452373205,-0.134995,-31.76234
11.185,2.0,1.0,1.0,34.5,33.0,33.0,3.0,3.5,2.65,0.20726967817440195,-0.025567617951189482,0.9622906463771624,-0.00576599885185639,-0.136924,-31.63075
11.185,2.0,1.0,1.0,34.5,33.0,33.0,3.0,3.5,2.6525,0.19589000126219003,-0.025886052677282598,0.9644440380250596,-0.00617083258428048,-0.138891,-31.498644
11.185,2.0,1.0,1.0,34.5,33.0,33.0,3.0,3.5,2.655,0.18439899309316032,-0.026205343655252747,0.9664753740028987,-0.006588394442383134,-0.140898,-31.366016
11.185,2.0,1.0,1.0,34.5,33.0,33.0,3.0,3.5,2.6575,0.17279667295726236,-0.026525321850172368,0.9683813483093852,-0.007019031494746979,-0.142947,-31.232861
11.185,2.0,1.0,1.0,34.5,33.0,33.0,3.0,3.5,2.66,0.16108311799107577,-0.02684580725361488,0.9701585831702795,-0.007463099098737215,-0.145037,-31.099171
11.185,2.0,1.0,1.0,34.5,33.0,33.0,3.0,3.5,2.6625,0.14925846627665662,-0.027166608345263802,0.9718036282878975,-0.00792096101678827,-0.147171,-30.964942
11.185,2.0,1.0,1.0,34.5,33.0,33.0,3.0,3.5,2.665,0.1373229200579452,-0.027487521531225304,0.9733129601410541,-0.00839298952842708,-0.149349,-30.830167
11.185,2.0,1.0,1.0,34.5,33.0,33.0,3.0,3.5,2.6675,0.1252767490775801,-0.027808330558140748,0.9746829813403983,-0.008879565537530486,-0.151572,-30.69484
11.185,2.0,1.0,1.0,34.5,33.0,33.0,3.0,3.5,2.67,0.11312029403686595,-0.02812880590216658,0.9759100200443864,-0.009381078674290631,-0.153842,-30.558953
11.185,2.0,1.0,1.0,34.5,33.0,33.0,3.0,3.5,2.6725,0.10085397018160908,-0.028448704131852062,0.9769903294413929,-0.009897927391334943,-0.15616,-30.422502
11.185,2.0,1.0,1.0,34.5,33.0,33.0,3.0,3.5,2.675,0.08847827101646782,-0.028767767243909097,0.9779200873037605,-0.01043051905342371,-0.158526,-30.285478
11.185,2.0,1.0,1.0,34.5,33.0,33.0,3.0,3.5,2.6775,0.0759937721503568,-0.029085721970830505,0.9786953956198673,-0.010979270020121078,-0.160943,-30.147875
11.185,2.0,1.0,1.0,34.5,33.0,33.0,3.0,3.5,2.68,0.06340113527536045,-0.02940227905927098,0.9793122803106012,-0.01154460572081105,-0.163411,-30.009687
11.185,2.0,1.0,1.0,34.5,33.0,33.0,3.0,3.5,2.6825,0.050701112281498296,-0.029717132518060307,0.979766691036925,-0.012126960721405334,-0.165932,-29.870906
11.185,2.0,1.0,1.0,34.5,33.0,33.0,3.0,3.5,2.685,0.03789454950953297,-0.030029958834671983,0.9800545011055315,-0.012726778782064949,-0.168507,-29.731525
11.185,2.0,1.0,1.0,34.5,33.0,33.0,3.0,3.5,2.6875,0.0249823921438925,-0.030340416158918,0.980171507479894,-0.0133445129052351,-0.171138,-29.591537
11.185,2.0,1.0,1.0,34.5,33.0,33.0,3.0,3.5,2.69,0.011965688747598176,-0.03064814345258493,0.9801134309043373,-0.013980625373268229,-0.173826,-29.450935
11.185,2.0,1.0,1.0,34.5,33.0,33.0,3.0,3.5,2.6925,-0.001154404059105501,-0.030952759603667317,0.9798759161490775,-0.014635587774892354,-0.176572,-29.30971
11.185,2.0,1.0,1.0,34.5,33.0,33.0,3.0,3.5,2.695,-0.01437661677487793,-0.03125386250378554,0.9794545323844831,-0.015309881019757035,-0.179379,-29.167854
11.185,2.0,1.0,1.0,34.5,33.0,33.0,3.0,3.5,2.6975,-0.027699562046917994,-0.031551028087306,0.9788447736931494,-0.016003995340276994,-0.182247,-29.025361
11.185,2.0,1.0,1.0,34.5,33.0,33.0,3.0,3.5,2.7,-0.04112172955301798,-0.03184380933059833,0.9780420597286691,-0.016718430279971875,-0.185179,-28.882221
11.185,2.0,1.0,1.0,34.5,33.0,33.0,3.0,3.5,2.7025,-0.05464148073527857,-0.032131735209779334,0.9770417365303193,-0.017453694667490985,-0.188176,-28.738427
11.185,2.0,1.0,1.0,34.5,33.0,33.0,3.0,3.5,2.705,-0.06825704338494912,-0.03241430961519278,0.975839077503178,-0.018210306575497735,-0.191239,-28.593968
11.185,2.0,1.0,1.0,34.5,33.0,33.0,3.0,3.5,2.7075,-0.08196650607820442,-0.03269101022076742,0.974429284573474,-0.0189887932635828,-0.194372,-28.448838
11.185,2.0,1.0,1.0,34.5,33.0,33.0,3.0,3.5,2.71,-0.09576781246294136,-0.032961287306274,0.9728074895292927,-0.01978969110436772,-0.197575,-28.303025
11.185,2.0,1.0,1.0,34.5,33.0,33.0,3.0,3.5,2.7125,-0.10965875539706996,-0.03322456253036615,0.9709687555569949,-0.02061354549196141,-0.200851,-28.156522
11.185,2.0,1.0,1.0,34.5,33.0,33.0,3.0,3.5,2.715,-0.12363697093908241,-0.033480227652140336,0.9689080789840105,-0.021460910731933357,-0.204202,-28.009318
11.185,2.0,1.0,1.0,34.5,33.0,33.0,3.0,3.5,2.7175,-0.13769993219209264,-0.033727643198778606,0.9666203912388686,-0.022332349911974882,-0.20763,-27.861403
11.185,2.0,1.0,1.0,34.5,33.0,33.0,3.0,3.5,2.72,-0.15184494300289855,-0.03396613707664781,0.9641005610395957,-0.023228434752429538,-0.211137,-27.712767
11.185,2.0,1.0,1.0,34.5,33.0,33.0,3.0,3.5,2.7225,-0.16606913151806882,-0.03419500312301576,0.9613433968217592,-0.02414974543589393,-0.214725,-27.563399
11.185,2.0,1.0,1.0,34.5,33.0,33.0,3.0,3.5,2.725,-0.18036944359940563,-0.03441349959530096,0.9583436494176514,-0.025096870415104423,-0.218397,-27.413288
11.185,2.0,1.0,1.0,34.5,33.0,33.0,3.0,3.5,2.7275,-0.1947426361016347,-0.0346208475945026,0.9550960149982167,-0.026070406198360423,-0.222156,-27.262422
11.185,2.0,1.0,1.0,34.5,33.0,33.0,3.0,3.5,2.73,-0.20918527001553633,-0.03481622941914875,0.9515951382894494,-0.027070957111757145,-0.226003,-27.110789
11.185,2.0,1.0,1.0,34.5,33.0,33.0,3.0,3.5,2.7325,-0.2236937034802082,-0.034998786845754803,0.9478356160750334,-0.028099135037544784,-0.229942,-26.958378
11.185,2.0,1.0,1.0,34.5,33.0,33.0,3.0,3.5,2.735,-0.23826408466853674,-0.035167619331392876,0.9438120009970459,-0.02915555912796751,-0.233975,-26.805175
11.185,2.0,1.0,1.0,34.5,33.0,33.0,3.0,3.5,2.7375,-0.25289234455040477,-0.03532178213352894,0.9395188056665007,-0.030240855493984496,-0.238105,-26.651167
11.185,2.0,1.0,1.0,34.5,33.0,33.0,3.0,3.5,2.74,-0.2675741895385132,-0.035460284341785775,0.9349505070954496,-0.03135565686832359,-0.242336,-26.496339
11.185,2.0,1.0,1.0,34.5,33.0,33.0,3.0,3.5,2.7425,-0.28230509402210724,-0.03558208681572394,0.9301015514622089,-0.03250060224237278,-0.24667,-26.340678
11.185,2.0,1.0,1.0,34.5,33.0,33.0,3.0,3.5,2.745,-0.2970802927941893,-0.03568610002209294,0.9249663592211258,-0.03367633647646819,-0.251111,-26.184169
11.185,2.0,1.0,1.0,34.5,33.0,33.0,3.0,3.5,2.7475,-0.31189477337810284,-0.03577118176428259,0.9195393305680153,-0.03488350988319409,-0.255662,-26.026794
11.185,2.0,1.0,1.0,34.5,33.0,33.0,3.0,3.5,2.75,-0.326743268259576,-0.0358361347958871,0.9138148512721,-0.0361227777833634,-0.260327,-25.868539
11.185,2.0,1.0,1.0,34.5,33.0,33.0,3.0,3.5,2.7525,-0.34162024703047766,-0.03587970430936909,0.907787298884903,-0.03739480003439746,-0.265109,-25.709386
11.185,2.0,1.0,1.0,34.5,33.0,33.0,3.0,3.5,2.755,-0.3565199084505377,-0.03590057528976649,0.9014510493360851,-0.038700240530864495,-0.270013,-25.549316
11.185,2.0,1.0,1.0,34.5,33.0,33.0,3.0,3.5,2.7575,-0.371436172433307,-0.03589736972220338,0.8948004839256805,-0.04003976667696982,-0.275043,-25.388311
11.185,2.0,1.0,1.0,34.5,33.0,33.0,3.0,3.5,2.76,-0.38636267196230445,-0.03586864364062873,0.8878299967215983,-0.041414048830800035,-0.280203,-25.226352
11.185,2.0,1.0,1.0,34.5,33.0,33.0,3.0,3.5,2.7625,-0.40129274494307055,-0.03581288400369762,0.8805340023705721,-0.04282375972011848,-0.285497,-25.063416
11.185,2.0,1.0,1.0,34.5,33.0,33.0,3.0,3.5,2.765,-0.4162194259961724,-0.03572850538200082,0.8729069443299887,-0.04426957382946682,-0.290931,-24.899484
11.185,2.0,1.0,1.0,34.5,33.0,33.0,3.0,3.5,2.7675,-0.4311354381955074,-0.035613846438918385,0.864943303527227,-0.04575216675824713,-0.296509,-24.734531
11.185,2.0,1.0,1.0,34.5,33.0,33.0,3.0,3.5,2.77,-0.4460331847551941,-0.03546716618519069,0.8566376074522305,-0.04727221454933099,-0.302238,-24.568534
11.185,2.0,1.0,1.0,34.5,33.0,33.0,3.0,3.5,2.7725,-0.460904740666982,-0.035286639984832446,0.8479844396881283,-0.048830392987542555,-0.308121,-24.401467
11.185,2.0,1.0,1.0,34.5,33.0,33.0,3.0,3.5,2.775,-0.47574184428845245,-0.03507035528722579,0.8389784498837308,-0.05042737686708518,-0.314166,-24.233304
11.185,2.0,1.0,1.0,34.5,33.0,33.0,3.0,3.5,2.7775,-0.4905358888801928,-0.03481630705707548,0.829614364170717,-0.05206383922660372,-0.320378,-24.064018
11.185,2.0,1.0,1.0,34.5,33.0,33.0,3.0,3.5,2.78,-0.5052779140875653,-0.034522392870340306,0.819886996027309,-0.05374045055006908,-0.326765,-23.893578
11.185,2.0,1.0,1.0,34.5,33.0,33.0,3.0,3.5,2.7825,-0.5199585973596305,-0.034186407640222585,0.8097912575892604,-0.05545787793100872,-0.333333,-23.721953
11.185,2.0,1.0,1.0,34.5,33.0,33.0,3.0,3.5,2.785,-0.5345682452941206,-0.03380603793273146,0.7993221714079732,-0.05721678419676743,-0.340089,-23.549111
11.185,2.0,1.0,1.0,34.5,33.0,33.0,3.0,3.5,2.7875,-0.5490967848929552,-0.033378855826171054,0.7884748826547687,-0.059017826988392606,-0.347042,-23.375017
11.185,2.0,1.0,1.0,34.5,33.0,33.0,3.0,3.5,2.79,-0.5635337547076965,-0.0329023122630563,0.7772446717695218,-0.060861657790390496,-0.3542,-23.199635
11.185,2.0,1.0,1.0,34.5,33.0,33.0,3.0,3.5,2.7925,-0.5778682958482186,-0.032373729836336476,0.765626967551414,-0.06274892090288832,-0.361572,-23.022925
11.185,2.0,1.0,1.0,34.5,33.0,33.0,3.0,3.5,2.795,-0.5920891428208946,-0.03179029494430044,0.7536173606892235,-0.06468025234663677,-0.369167,-22.844849
11.185,2.0,1.0,1.0,34.5,33.0,33.0,3.0,3.5,2.7975,-0.6061846141542563,-0.031149049240032513,0.7412116177287187,-0.0666562786886591,-0.376996,-22.665361
11.185,2.0,1.0,1.0,34.5,33.0,33.0,3.0,3.5,2.8,-0.6201426027606519,-0.03044688029163322,0.7284056954752255,-0.06867761577315061,-0.385069,-22.484417
11.185,2.0,1.0,1.0,34.5,33.0,33.0,3.0,3.5,2.8025,-0.6339505659713057,-0.029680511358467533,0.7151957558306202,-0.07074486733827198,-0.393398,-22.301968
11.185,2.0,1.0,1.0,34.5,33.0,33.0,3.0,3.5,2.805,-0.6475955151694214,-0.028846490176258552,0.7015781810659225,-0.07285862349464901,-0.401995,-22.117963
11.185,2.0,1.0,1.0,34.5,33.0,33.0,3.0,3.5,2.8075,-0.6610640049312972,-0.02794117662970172,0.6875495895334931,-0.0750194590354891,-0.410875,-21.932349
11.185,2.0,1.0,1.0,34.5,33.0,33.0,3.0,3.5,2.81,-0.6743421215684978,-0.026960729175182815,0.6731068518269235,-0.07722793154102747,-0.42005,-21.745067
11.185,2.0,1.0,1.0,34.5,33.0,33.0,3.0,3.5,2.8125,-0.687415470944645,-0.0259010898578644,0.658247107402225,-0.0794845792312486,-0.429536,-21.556058
11.185,2.0,1.0,1.0,34.5,33.0,33.0,3.0,3.5,2.815,-0.700269165418121,-0.024757967746529354,0.6429677816812834,-0.08178991851017035,-0.439351,-21.365256
11.185,2.0,1.0,1.0,34.5,33.0,33.0,3.0,3.5,2.8175,-0.7128878097363779,-0.02352682058575697,0.6272666036681271,-0.08414444113200945,-0.449512,-21.172593
11.185,2.0,1.0,1.0,34.5,33.0,33.0,3.0,3.5,2.82,-0.7252554856781659,-0.02220283443782981,0.6111416241209693,-0.08654861090378156,-0.460039,-20.977997
11.185,2.0,1.0,1.0,34.5,33.0,33.0,3.0,3.5,2.8225,-0.7373557352064384,-0.02078090105570699,0.5945912343387125,-0.08900285981971826,-0.470951,-20.781391
11.185,2.0,1.0,1.0,34.5,33.0,33.0,3.0,3.5,2.825,-0.749171541856144,-0.019255592692885057,0.5776141856406,-0.09150758349955876,-0.482274,-20.582692
11.185,2.0,1.0,1.0,34.5,33.0,33.0,3.0,3.5,2.8275,-0.7606853100370604,-0.01762113401530653,0.5602096096427184,-0.09406313577438448,-0.49403,-20.381814
