1,w,sub_t,h,l1,l2,l3,g1,g2,Freq,S11_re,S21_re,S11_img,S21_img,S11_dB,S21_dB
11.185,2.0,1.0,1.0,33.0,33.2,33.2,1.6,1.9,2.5,0.894490246325687,-0.0103764432568772,0.43214671946774,0.0137017370804069,-0.057429,-35.295775
11.185,2.0,1.0,1.0,33.0,33.2,33.2,1.6,1.9,2.5025,0.8917141904877758,-0.01061787777528008,0.43769731663824835,0.013819276750758636,-0.058003,-35.175384
11.185,2.0,1.0,1.0,33.0,33.2,33.2,1.6,1.9,2.505,0.8888914253254514,-0.010864303660419083,0.4432519231902559,0.013937122121785547,-0.058588,-35.054607
11.185,2.0,1.0,1.0,33.0,33.2,33.2,1.6,1.9,2.5075,0.8860214574977712,-0.011115836149502116,0.44881041274678934,0.014055251379480797,-0.059184,-34.933436
11.185,2.0,1.0,1.0,33.0,33.2,33.2,1.6,1.9,2.51,0.8831037841185035,-0.011372593808676962,0.4543726542768439,0.014173641390914687,-0.059792,-34.811861
11.185,2.0,1.0,1.0,33.0,33.2,33.2,1.6,1.9,2.5125,0.8801378925340655,-0.011634698644093383,0.4599385119100734,0.014292267634612622,-0.060411,-34.689874
11.185,2.0,1.0,1.0,33.0,33.2,33.2,1.6,1.9,2.515,0.8771232600952146,-0.011902276217225562,0.46550784474397966,0.014411104127273932,-0.061042,-34.567466
11.185,2.0,1.0,1.0,33.0,33.2,33.2,1.6,1.9,2.5175,0.8740593539222896,-0.012175455764641071,0.47108050664324475,0.014530123346620336,-0.061686,-34.444628
11.185,2.0,1.0,1.0,33.0,33.2,33.2,1.6,1.9,2.52,0.8709456306637646,-0.01245437032241096,0.47665634603086027,0.014649296150149399,-0.062343,-34.32135
11.185,2.0,1.0,1.0,33.0,33.2,33.2,1.6,1.9,2.5225,0.8677815362479018,-0.01273915685536362,0.48223520567064915,0.014768591689555445,-0.063012,-34.197624
11.185,2.0,1.0,1.0,33.0,33.2,33.2,1.6,1.9,2.525,0.8645665056272496,-0.013029956391397337,0.48781692244079994,0.014887977320563184,-0.063696,-34.073441
11.185,2.0,1.0,1.0,33.0,33.2,33.2,1.6,1.9,2.5275,0.8612999625157399,-0.013326914161074281,0.493401327097982,0.015007418507905232,-0.064392,-33.94879
11.185,2.0,1.0,1.0,33.0,33.2,33.2,1.6,1.9,2.53,0.8579813191181268,-0.013630179742730298,0.49898824403159026,0.015126878725155127,-0.065103,-33.823662
11.185,2.0,1.0,1.0,33.0,33.2,33.2,1.6,1.9,2.5325,0.8546099758514902,-0.013939907213346576,0.5045774910076539,0.01524631934911221,-0.065829,-33.698048
11.185,2.0,1.0,1.0,33.0,33.2,33.2,1.6,1.9,2.535,0.8511853210585216,-0.014256255305441033,0.5101688789019144,0.015365699548410865,-0.066569,-33.571938
11.185,2.0,1.0,1.0,33.0,33.2,33.2,1.6,1.9,2.5375,0.8477067307123052,-0.014579387570248731,0.5157622114215406,0.015484976166008536,-0.067325,-33.445321
11.185,2.0,1.0,1.0,33.0,33.2,33.2,1.6,1.9,2.54,0.8441735681122737,-0.014909472547475381,0.5213572848149317,0.015604103595182793,-0.068097,-33.318188
11.185,2.0,1.0,1.0,33.0,33.2,33.2,1.6,1.9,2.5425,0.8405851835710307,-0.015246683941920773,0.5269538875690252,0.015723033648644236,-0.068885,-33.190528
11.185,2.0,1.0,1.0,33.0,33.2,33.2,1.6,1.9,2.545,0.8369409140916957,-0.015591200807283651,0.5325518000934858,0.01584171542034374,-0.069689,-33.062331
11.185,2.0,1.0,1.0,33.0,33.2,33.2,1.6,1.9,2.5475,0.8332400830354334,-0.015943207737475495,0.5381507943911217,0.015960095139528136,-0.070511,-32.933586
11.185,2.0,1.0,1.0,33.0,33.2,33.2,1.6,1.9,2.55,0.8294819997787917,-0.016302895065785993,0.5437506337138444,0.016078116016564104,-0.071351,-32.804283
11.185,2.0,1.0,1.0,33.0,33.2,33.2,1.6,1.9,2.5525,0.8256659593604845,-0.016670459072259666,0.5493510722034218,0.016195718080022094,-0.072208,-32.67441
11.185,2.0,1.0,1.0,33.0,33.2,33.2,1.6,1.9,2.555,0.8217912421172099,-0.017046102199662905,0.554951854516269,0.016312838004472682,-0.073085,-32.543957
11.185,2.0,1.0,1.0,33.0,33.2,33.2,1.6,1.9,2.5575,0.8178571133080967,-0.017430033278436504,0.5605527154314417,0.016429408928415493,-0.073981,-32.412913
11.185,2.0,1.0,1.0,33.0,33.2,33.2,1.6,1.9,2.56,0.813862822727352,-0.017822467761050946,0.5661533794409657,0.016545360261716185,-0.074896,-32.281265
11.185,2.0,1.0,1.0,33.0,33.2,33.2,1.6,1.9,2.5625,0.8098076043046554,-0.018223627966200473,0.5717535603215765,0.01666061748188749,-0.075832,-32.149003
11.185,2.0,1.0,1.0,33.0,33.2,33.2,1.6,1.9,2.565,0.8056906756928288,-0.018633743333295916,0.5773529606868953,0.01677510191850094,-0.07679,-32.016115
11.185,2.0,1.0,1.0,33.0,33.2,33.2,1.6,1.9,2.5675,0.8015112378423016,-0.019053050687736085,0.582951271518988,0.016888730524968466,-0.077769,-31.882588
11.185,2.0,1.0,1.0,33.0,33.2,33.2,1.6,1.9,2.57,0.7972684745618487,-0.019481794517464807,0.5885481716782178,0.017001415636877664,-0.07877,-31.748411
11.185,2.0,1.0,1.0,33.0,33.2,33.2,1.6,1.9,2.5725,0.7929615520650715,-0.019920227261343477,0.5941433273902056,0.017113064716007563,-0.079795,-31.613571
11.185,2.0,1.0,1.0,33.0,33.2,33.2,1.6,1.9,2.575,0.7885896185020658,-0.020368609609896986,0.5997363917086588,0.01722358007908757,-0.080843,-31.478056
11.185,2.0,1.0,1.0,33.0,33.2,33.2,1.6,1.9,2.5775,0.7841518034756895,-0.02082721081901714,0.6053270039527328,0.017332858610298308,-0.081916,-31.341852
11.185,2.0,1.0,1.0,33.0,33.2,33.2,1.6,1.9,2.58,0.7796472175418284,-0.021296309037238635,0.6109147891175142,0.017440791456435636,-0.083015,-31.204947
11.185,2.0,1.0,1.0,33.0,33.2,33.2,1.6,1.9,2.5825,0.7750749516930165,-0.02177619164723195,0.6164993572561303,0.01754726370358555,-0.084139,-31.067327
11.185,2.0,1.0,1.0,33.0,33.2,33.2,1.6,1.9,2.585,0.7704340768247536,-0.022267155622189404,0.6220803028318637,0.017652154034068626,-0.085291,-30.928979
11.185,2.0,1.0,1.0,33.0,33.2,33.2,1.6,1.9,2.5875,0.7657236431838219,-0.02276950789781632,0.6276572040385825,0.017755334362324147,-0.086471,-30.78989
11.185,2.0,1.0,1.0,33.0,33.2,33.2,1.6,1.9,2.59,0.7609426797978857,-0.023283565760670165,0.6332296220876472,0.01785666944830341,-0.087679,-30.650044
11.185,2.0,1.0,1.0,33.0,33.2,33.2,1.6,1.9,2.5925,0.7560901938856058,-0.023809657253632585,0.6387971004593609,0.017956016486834918,-0.088918,-30.509428
11.185,2.0,1.0,1.0,33.0,33.2,33.2,1.6,1.9,2.595,0.7511651702464992,-0.02434812159933217,0.6443591641168703,0.018053224671308068,-0.090187,-30.368027
11.185,2.0,1.0,1.0,33.0,33.2,33.2,1.6,1.9,2.5975,0.7461665706297,-0.02489930964238086,0.6499153186803112,0.018148134729896678,-0.091488,-30.225826
11.185,2.0,1.0,1.0,33.0,33.2,33.2,1.6,1.9,2.6,0.7410933330807778,-0.02546358431132471,0.6554650495588219,0.01824057843240717,-0.092822,-30.08281
11.185,2.0,1.0,1.0,33.0,33.2,33.2,1.6,1.9,2.6025,0.7359443712657138,-0.026041321101254955,0.6610078210378704,0.018330378065688793,-0.09419,-29.938964
11.185,2.0,1.0,1.0,33.0,33.2,33.2,1.6,1.9,2.605,0.7307185737710971,-0.026632908578071,0.6665430753191961,0.0184173458753829,-0.095593,-29.794272
11.185,2.0,1.0,1.0,33.0,33.2,33.2,1.6,1.9,2.6075,0.725414803379574,-0.027238748905432403,0.672070231510439,0.018501283471616184,-0.097033,-29.648718
11.185,2.0,1.0,1.0,33.0,33.2,33.2,1.6,1.9,2.61,0.7200318963195362,-0.027859258395486197,0.6775886845613389,0.018581981196050073,-0.098511,-29.502285
11.185,2.0,1.0,1.0,33.0,33.2,33.2,1.6,1.9,2.6125,0.7145686614879887,-0.028494868084505978,0.6830978041431491,0.01865921744749933,-0.100028,-29.354956
11.185,2.0,1.0,1.0,33.0,33.2,33.2,1.6,1.9,2.615,0.7090238796455023,-0.029146024334631884,0.6885969334676845,0.01873275796310397,-0.101585,-29.206715
11.185,2.0,1.0,1.0,33.0,33.2,33.2,1.6,1.9,2.6175,0.7033963025821157,-0.029813189462951115,0.6940853880421253,0.018802355051801087,-0.103185,-29.057544
11.185,2.0,1.0,1.0,33.0,33.2,33.2,1.6,1.9,2.62,0.697684652252995,-0.03049684239921563,0.6995624543554346,0.01886774677657476,-0.104828,-28.907424
11.185,2.0,1.0,1.0,33.0,33.2,33.2,1.6,1.9,2.6225,0.6918876198826266,-0.031197479373548304,0.705027388491929,0.018928656081679894,-0.106516,-28.756338
11.185,2.0,1.0,1.0,33.0,33.2,33.2,1.6,1.9,2.625,0.686003865036278,-0.0319156146355437,0.710479414667193,0.0189847898607157,-0.108251,-28.604267
11.185,2.0,1.0,1.0,33.0,33.2,33.2,1.6,1.9,2.6275,0.6800320146573986,-0.032651781206228914,0.7159177236811626,0.019035837961090322,-0.110035,-28.451192
11.185,2.0,1.0,1.0,33.0,33.2,33.2,1.6,1.9,2.63,0.6739706620696171,-0.03340653166440446,0.721341471282816,0.019081472120038925,-0.11187,-28.297093
11.185,2.0,1.0,1.0,33.0,33.2,33.2,1.6,1.9,2.6325,0.6678183659419215,-0.03418043896894285,0.7267497764404354,0.01912134482695403,-0.113757,-28.14195
11.185,2.0,1.0,1.0,33.0,33.2,33.2,1.6,1.9,2.635,0.6615736492155981,-0.03497409731867754,0.7321417195109668,0.019155088106340496,-0.115698,-27.985742
11.185,2.0,1.0,1.0,33.0,33.2,33.2,1.6,1.9,2.6375,0.6552349979914519,-0.03578812305156766,0.7375163403014573,0.019182312215221833,-0.117697,-27.82845
11.185,2.0,1.0,1.0,33.0,33.2,33.2,1.6,1.9,2.64,0.64880086037579,-0.036623155584878005,0.7428726360150019,0.019202604248291767,-0.119754,-27.67005
11.185,2.0,1.0,1.0,33.0,33.2,33.2,1.6,1.9,2.6425,0.642269645283653,-0.03747985839815662,0.7482095590729804,0.019215526643523422,-0.121873,-27.510522
11.185,2.0,1.0,1.0,33.0,33.2,33.2,1.6,1.9,2.645,0.6356397211977248,-0.03835892006083837,0.7535260148047438,0.01922061558030857,-0.124055,-27.349842
11.185,2.0,1.0,1.0,33.0,33.2,33.2,1.6,1.9,2.6475,0.628909414881366,-0.03926105530633646,0.7588208589950997,0.01921737926150287,-0.126304,-27.187988
11.185,2.0,1.0,1.0,33.0,33.2,33.2,1.6,1.9,2.65,0.6220770100441809,-0.04018700615451409,0.7640928952792033,0.0192052960699818,-0.128623,-27.024936
11.185,2.0,1.0,1.0,33.0,33.2,33.2,1.6,1.9,2.6525,0.6151407459585884,-0.04113754308443961,0.7693408723735214,0.0191838125894739,-0.131013,-26.860661
11.185,2.0,1.0,1.0,33.0,33.2,33.2,1.6,1.9,2.655,0.6080988160258262,-0.04211346625934113,0.7745634811305985,0.019152341478508906,-0.133479,-26.695139
11.185,2.0,1.0,1.0,33.0,33.2,33.2,1.6,1.9,2.6575,0.6009493662899192,-0.04311560680565565,0.7797593514042818,0.019110259185305414,-0.136024,-26.528345
11.185,2.0,1.0,1.0,33.0,33.2,33.2,1.6,1.9,2.66,0.5936904938981657,-0.04414482814804183,0.7849270487108778,0.019056903490299787,-0.13865,-26.360251
11.185,2.0,1.0,1.0,33.0,33.2,33.2,1.6,1.9,2.6625,0.58632024550682,-0.045202027402164356,0.7900650706704394,0.018991570861792362,-0.141362,-26.190831
11.185,2.0,1.0,1.0,33.0,33.2,33.2,1.6,1.9,2.665,0.5788366156307323,-0.04628813682697914,0.7951718432109847,0.018913513608824793,-0.144163,-26.020057
11.185,2.0,1.0,1.0,33.0,33.2,33.2,1.6,1.9,2.6675,0.5712375449359147,-0.04740412533811873,0.8002457165168575,0.018821936813914097,-0.147058,-25.847901
11.185,2.0,1.0,1.0,33.0,33.2,33.2,1.6,1.9,2.67,0.5635209184741655,-0.048551000083823265,0.8052849607007735,0.01871599502661616,-0.15005,-25.674334
11.185,2.0,1.0,1.0,33.0,33.2,33.2,1.6,1.9,2.6725,0.5556845638591656,-0.04972980808464402,0.8102877611771729,0.01859478869707322,-0.153145,-25.499327
11.185,2.0,1.0,1.0,33.0,33.2,33.2,1.6,1.9,2.675,0.5477262493837841,-0.050941637937871084,0.8152522137124468,0.01845736032669175,-0.156346,-25.322847
11.185,2.0,1.0,1.0,33.0,33.2,33.2,1.6,1.9,2.6775,0.5396436820787224,-0.05218762158729368,0.8201763191253032,0.01830269031087434,-0.15966,-25.144864
11.185,2.0,1.0,1.0,33.0,33.2,33.2,1.6,1.9,2.68,0.5314345057131156,-0.053468936158465714,0.8250579776080008,0.01812969244627294,-0.163091,-24.965344
11.185,2.0,1.0,1.0,33.0,33.2,33.2,1.6,1.9,2.6825,0.5230962987383199,-0.054786805859112754,0.8298949826363865,0.01793720907231296,-0.166645,-24.784255
11.185,2.0,1.0,1.0,33.0,33.2,33.2,1.6,1.9,2.685,0.51462657217682,-0.05614250394366193,0.8346850144335739,0.017724005813726535,-0.170328,-24.601563
11.185,2.0,1.0,1.0,33.0,33.2,33.2,1.6,1.9,2.6875,0.506022767459069,-0.05753735474007004,0.8394256329486749,0.0174887658874944,-0.174147,-24.41723
11.185,2.0,1.0,1.0,33.0,33.2,33.2,1.6,1.9,2.69,0.4972822542121456,-0.05897273573615042,0.8441142703081951,0.0172300839338986,-0.178109,-24.231222
11.185,2.0,1.0,1.0,33.0,33.2,33.2,1.6,1.9,2.6925,0.48840232800532735,-0.06045007972142436,0.8487482226935126,0.016946459327279298,-0.18222,-24.043501
11.185,2.0,1.0,1.0,33.0,33.2,33.2,1.6,1.9,2.695,0.47938020805925047,-0.06197087697909342,0.8533246415931655,0.016636288917531585,-0.186488,-23.854027
11.185,2.0,1.0,1.0,33.0,33.2,33.2,1.6,1.9,2.6975,0.47021303492706146,-0.06353667752103323,0.8578405243735294,0.016297859148311552,-0.190923,-23.662761
11.185,2.0,1.0,1.0,33.0,33.2,33.2,1.6,1.9,2.7,0.4608978681581777,-0.0651490933566476,0.8622927041057018,0.015929337492292975,-0.195532,-23.469662
11.185,2.0,1.0,1.0,33.0,33.2,33.2,1.6,1.9,2.7025,0.4514316839577892,-0.06680980078398434,0.866677838580006,0.015528763137551608,-0.200325,-23.274688
11.185,2.0,1.0,1.0,33.0,33.2,33.2,1.6,1.9,2.705,0.4418113728583242,-0.06852054268857456,0.8709923984324519,0.015094036852188852,-0.205313,-23.077795
11.185,2.0,1.0,1.0,33.0,33.2,33.2,1.6,1.9,2.7075,0.4320337374226801,-0.07028313083196895,0.875232654299583,0.014622909946550007,-0.210505,-22.878937
11.185,2.0,1.0,1.0,33.0,33.2,33.2,1.6,1.9,2.71,0.42209549000339097,-0.0720994481077723,0.8793946629093221,0.014112972243753562,-0.215914,-22.678068
11.185,2.0,1.0,1.0,33.0,33.2,33.2,1.6,1.9,2.7125,0.41199325058696307,-0.07397145073801427,0.8834742520056919,0.01356163895962842,-0.221552,-22.475141
11.185,2.0,1.0,1.0,33.0,33.2,33.2,1.6,1.9,2.715,0.40172354475873473,-0.07590117037677999,0.8874670039943531,0.012966136382433786,-0.227432,-22.270106
11.185,2.0,1.0,1.0,33.0,33.2,33.2,1.6,1.9,2.7175,0.39128280183082487,-0.07789071608098587,0.8913682381837671,0.01232348623078747,-0.233568,-22.062912
11.185,2.0,1.0,1.0,33.0,33.2,33.2,1.6,1.9,2.72,0.38066735318431844,-0.07994227609980856,0.8951729914833061,0.011630488554912367,-0.239976,-21.853505
11.185,2.0,1.0,1.0,33.0,33.2,33.2,1.6,1.9,2.7225,0.3698734308870037,-0.08205811942431127,0.8988759974045495,0.010883703031469237,-0.246673,-21.641833
11.185,2.0,1.0,1.0,33.0,33.2,33.2,1.6,1.9,2.725,0.3588971666601432,-0.08424059702694237,0.9024716631952291,0.010079428485709507,-0.253675,-21.427837
11.185,2.0,1.0,1.0,33.0,33.2,33.2,1.6,1.9,2.7275,0.347734591282056,-0.08649214270647672,0.9059540449166679,0.009213680456256352,-0.261003,-21.211461
11.185,2.0,1.0,1.0,33.0,33.2,33.2,1.6,1.9,2.73,0.33638163453348247,-0.08881527343715043,0.9093168202547275,0.008282166597321741,-0.268677,-20.992644
11.185,2.0,1.0,1.0,33.0,33.2,33.2,1.6,1.9,2.7325,0.32483412580999127,-0.09121258910073914,0.9125532588312082,0.007280259690350389,-0.276719,-20.771325
11.185,2.0,1.0,1.0,33.0,33.2,33.2,1.6,1.9,2.735,0.3130877955509184,-0.09368677145647929,0.9156561897570008,0.006202968011735183,-0.285153,-20.547438
11.185,2.0,1.0,1.0,33.0,33.2,33.2,1.6,1.9,2.7375,0.3011382776631557,-0.09624058217532054,0.9186179661398006,0.005044902775112467,-0.294006,-20.320918
11.185,2.0,1.0,1.0,33.0,33.2,33.2,1.6,1.9,2.74,0.2889811131524589,-0.09887685973110434,0.9214304262276724,0.0038002423355866103,-0.303306,-20.091696
11.185,2.0,1.0,1.0,33.0,33.2,33.2,1.6,1.9,2.7425,0.2766117552158877,-0.10159851490083471,0.924084850834954,0.002462692808782918,-0.313084,-19.859702
11.185,2.0,1.0,1.0,33.0,33.2,33.2,1.6,1.9,2.745,0.26402557609786076,-0.10440852457792532,0.9265719166585763,0.0010254447196694802,-0.323374,-19.624862
11.185,2.0,1.0,1.0,33.0,33.2,33.2,1.6,1.9,2.7475,0.2512178760706496,-0.10730992354463297,0.9288816450507595,-0.000518874745601204,-0.334211,-19.387101
11.185,2.0,1.0,1.0,33.0,33.2,33.2,1.6,1.9,2.75,0.238183894969815,-0.110305793780941,0.931003345767988,-0.00217825435714986,-0.345637,-19.14634
11.185,2.0,1.0,1.0,33.0,33.2,33.2,1.6,1.9,2.7525,0.22491882679845324,-0.11339925080467385,0.9329255551661383,-0.003961356849973031,-0.357693,-18.9025
11.185,2.0,1.0,1.0,33.0,33.2,33.2,1.6,1.9,2.755,0.2114178380138153,-0.11659342643889059,0.9346359682576468,-0.005877582898952339,-0.370429,-18.655496
11.185,2.0,1.0,1.0,33.0,33.2,33.2,1.6,1.9,2.7575,0.19767609022921412,-0.11989144728436797,0.9361213639889688,-0.00793714169261481,-0.383895,-18.405243
11.185,2.0,1.0,1.0,33.0,33.2,33.2,1.6,1.9,2.76,0.1836887682072015,-0.12329640803323934,0.9373675230357597,-0.010151128798168785,-0.39815,-18.151653
11.185,2.0,1.0,1.0,33.0,33.2,33.2,1.6,1.9,2.7625,0.16945111419137387,-0.12681133858995272,0.9383591373501513,-0.012531612072756472,-0.413255,-17.894633
11.185,2.0,1.0,1.0,33.0,33.2,33.2,1.6,1.9,2.765,0.15495846982976305,-0.1304391637618504,0.9390797106307398,-0.015091726438984335,-0.42928,-17.634089
11.185,2.0,1.0,1.0,33.0,33.2,33.2,1.6,1.9,2.7675,0.14020632718938783,-0.13418265403707988,0.9395114488235464,-0.017845778404438573,-0.4463,-17.369926
11.185,2.0,1.0,1.0,33.0,33.2,33.2,1.6,1.9,2.77,0.12519039065744625,-0.13804436567398848,0.9396351397047165,-0.02080936126174159,-0.4644,-17.102043
11.185,2.0,1.0,1.0,33.0,33.2,33.2,1.6,1.9,2.7725,0.10990665187968772,-0.14202656797382793,0.9394300205477727,-0.023999481953049108,-0.483671,-16.830338
11.185,2.0,1.0,1.0,33.0,33.2,33.2,1.6,1.9,2.775,0.09435148031251231,-0.1461311551858587,0.9388736328464722,-0.02743470061404623,-0.504217,-16.554706
11.185,2.0,1.0,1.0,33.0,33.2,33.2,1.6,1.9,2.7775,0.07852173247605149,-0.15035953998695936,0.9379416630582792,-0.03113528381815283,-0.526152,-16.275041
11.185,2.0,1.0,1.0,33.0,33.2,33.2,1.6,1.9,2.78,0.06241488360742672,-0.15471252487037693,0.936607768365969,-0.035123372508912294,-0.549601,-15.991234
11.185,2.0,1.0,1.0,33.0,33.2,33.2,1.6,1.9,2.7825,0.04602918614564224,-0.1591901470512843,0.9348433865437055,-0.039423165519724954,-0.574707,-15.703173
11.185,2.0,1.0,1.0,33.0,33.2,33.2,1.6,1.9,2.785,0.029363860353853976,-0.16379149162854215,0.9326175291834448,-0.044061119411173216,-0.601625,-15.410747
11.185,2.0,1.0,1.0,33.0,33.2,33.2,1.6,1.9,2.7875,0.01241932342670034,-0.16851446670754155,0.929896557820246,-0.04906616507451345,-0.630533,-15.113842
11.185,2.0,1.0,1.0,33.0,33.2,33.2,1.6,1.9,2.79,-0.004802535333063862,-0.17335553296078862,0.9266439429354112,-0.05446994111164787,-0.661626,-14.812346
11.185,2.0,1.0,1.0,33.0,33.2,33.2,1.6,1.9,2.7925,-0.022298024222654544,-0.17830937865124857,0.9228200064733687,-0.060307043348128704,-0.695125,-14.506145
11.185,2.0,1.0,1.0,33.0,33.2,33.2,1.6,1.9,2.795,-0.04006125296941999,-0.18336852943829915,0.9183816494608278,-0.06661528888809337,-0.73128,-14.195128
11.185,2.0,1.0,1.0,33.0,33.2,33.2,1.6,1.9,2.7975,-0.05808365791987849,-0.18852288029917308,0.9132820676696783,-0.07343599177434158,-0.77037,-13.879188
11.185,2.0,1.0,1.0,33.0,33.2,33.2,1.6,1.9,2.8,-0.07635343351885568,-0.1937591346085528,0.9074704601562921,-0.08081424543595994,-0.812713,-13.55822
11.185,2.0,1.0,1.0,33.0,33.2,33.2,1.6,1.9,2.8025,-0.09485485239104165,-0.19906013281770182,0.9008917381201094,-0.08879920451026047,-0.858667,-13.232128
11.185,2.0,1.0,1.0,33.0,33.2,33.2,1.6,1.9,2.805,-0.11356745342324771,-0.2044040502800752,0.8934862450880836,-0.09744435508221716,-0.908639,-12.900823
11.185,2.0,1.0,1.0,33.0,33.2,33.2,1.6,1.9,2.8075,-0.13246507409778907,-0.20976344064378552,0.8851895042502816,-0.10680775759342674,-0.963092,-12.564228
11.185,2.0,1.0,1.0,33.0,33.2,33.2,1.6,1.9,2.81,-0.15151470007743242,-0.21510409800365746,0.8759320152276585,-0.11695224025401707,-1.022555,-12.222282
11.185,2.0,1.0,1.0,33.0,33.2,33.2,1.6,1.9,2.8125,-0.170675101932199,-0.220383707917499,0.865639131122045,-0.127945512271563,-1.087631,-11.874942
11.185,2.0,1.0,1.0,33.0,33.2,33.2,1.6,1.9,2.815,-0.18989522633765424,-0.2255502548498675,0.8542310579597462,-0.1398601550153192,-1.159011,-11.52219
11.185,2.0,1.0,1.0,33.0,33.2,33.2,1.6,1.9,2.8175,-0.20911230772146272,-0.23054015226676622,0.8416230332748843,-0.1527734346849911,-1.237491,-11.164039
11.185,2.0,1.0,1.0,33.0,33.2,33.2,1.6,1.9,2.82,-0.2282496672101001,-0.2352760624803942,0.8277257593468719,-0.1667668613953957,-1.323983,-10.800541
11.185,2.0,1.0,1.0,33.0,33.2,33.2,1.6,1.9,2.8225,-0.2472141703617063,-0.239664377956735,0.8124461902854592,-0.18192539604905525,-1.419541,-10.431794
11.185,2.0,1.0,1.0,33.0,33.2,33.2,1.6,1.9,2.825,-0.26589332579905856,-0.24359234637195085,0.7956888014119519,-0.1983361772871137,-1.525384,-10.057952
11.185,2.0,1.0,1.0,33.0,33.2,33.2,1.6,1.9,2.8275,-0.2841520266453088,-0.24692484138473922,0.7773575045284967,-0.2160866058749824,-1.642923,-9.679243
11.185,2.0,1.0,1.0,33.0,33.2,33.2,1.6,1.9,2.83,-0.3018289699580223,-0.24950081419902576,0.757358413245416,-0.235261583544188,-1.773792,-9.295976
