1,w,sub_t,h,l1,l2,l3,g1,g2,Freq,S11_re,S21_re,S11_img,S21_img,S11_dB,S21_dB
11.185,2.0,1.0,1.0,33.1,33.4,33.4,3.9,2.0,2.5,0.889438878740528,-0.00544416823974866,0.44478893452502,0.0054492538679563,-0.048306,-42.267012
11.185,2.0,1.0,1.0,33.1,33.4,33.4,3.9,2.0,2.5025,0.8866462576311949,-0.005558678179433443,0.4502276415912419,0.005483267633157532,-0.048711,-42.149185
11.185,2.0,1.0,1.0,33.1,33.4,33.4,3.9,2.0,2.505,0.8838096533660291,-0.005675234328007944,0.4556680478734917,0.0055169782908147036,-0.049122,-42.031113
11.185,2.0,1.0,1.0,33.1,33.4,33.4,3.9,2.0,2.5075,0.8809286683076605,-0.0057938772119313095,0.4611100028535957,0.005550368783623788,-0.04954,-41.912787
11.185,2.0,1.0,1.0,33.1,33.4,33.4,3.9,2.0,2.51,0.8780028984449421,-0.005914648414903627,0.4665533516042972,0.00558342142250434,-0.049965,-41.794199
11.185,2.0,1.0,1.0,33.1,33.4,33.4,3.9,2.0,2.5125,0.8750319332805883,-0.006037590612318919,0.4719979346446116,0.005616117860405844,-0.050396,-41.67534
11.185,2.0,1.0,1.0,33.1,33.4,33.4,3.9,2.0,2.515,0.8720153557166671,-0.006162747607057744,0.47744358779046464,0.005648439064896244,-0.050835,-41.556202
11.185,2.0,1.0,1.0,33.1,33.4,33.4,3.9,2.0,2.5175,0.8689527419378932,-0.00629016436668117,0.4828901420004173,0.005680365289469127,-0.05128,-41.436777
11.185,2.0,1.0,1.0,33.1,33.4,33.4,3.9,2.0,2.52,0.8658436612926693,-0.006419887062091175,0.4883374232163275,0.0057118760435012125,-0.051733,-41.317055
11.185,2.0,1.0,1.0,33.1,33.4,33.4,3.9,2.0,2.5225,0.8626876761718297,-0.006551963107725856,0.49378525219873404,0.0057429500607894994,-0.052194,-41.197027
11.185,2.0,1.0,1.0,33.1,33.4,33.4,3.9,2.0,2.525,0.8594843418850248,-0.00668644120336204,0.49923344435679606,0.005773565266590803,-0.052662,-41.076685
11.185,2.0,1.0,1.0,33.1,33.4,33.4,3.9,2.0,2.5275,0.8562332065346895,-0.0068233713776011725,0.5046818095725747,0.005803698743083792,-0.053138,-40.95602
11.185,2.0,1.0,1.0,33.1,33.4,33.4,3.9,2.0,2.53,0.852933810887541,-0.00696280503311912,0.5101301520194461,0.005833326693167644,-0.053623,-40.835021
11.185,2.0,1.0,1.0,33.1,33.4,33.4,3.9,2.0,2.5325,0.84958568824354,-0.007104794993764647,0.5155782699744325,0.005862424402506083,-0.054115,-40.71368
11.185,2.0,1.0,1.0,33.1,33.4,33.4,3.9,2.0,2.535,0.84618836430225,-0.007249395553596249,0.5210259556242229,0.0058909661997206125,-0.054617,-40.591986
11.185,2.0,1.0,1.0,33.1,33.4,33.4,3.9,2.0,2.5375,0.8427413570265361,-0.007396662527951912,0.5264729948646398,0.005918925414629711,-0.055127,-40.469932
11.185,2.0,1.0,1.0,33.1,33.4,33.4,3.9,2.0,2.54,0.8392441765035215,-0.00754665330665192,0.5319191670933071,0.005946274334425715,-0.055646,-40.347505
11.185,2.0,1.0,1.0,33.1,33.4,33.4,3.9,2.0,2.5425,0.8356963248027398,-0.007699426909440293,0.537364244995263,0.005972984157671937,-0.056174,-40.224697
11.185,2.0,1.0,1.0,33.1,33.4,33.4,3.9,2.0,2.545,0.8320972958313975,-0.007855044043776885,0.5428079943212399,0.005999024945997656,-0.056712,-40.101498
11.185,2.0,1.0,1.0,33.1,33.4,33.4,3.9,2.0,2.5475,0.8284465751866769,-0.008013567165098077,0.5482501736583242,0.006024365573358706,-0.05726,-39.977897
11.185,2.0,1.0,1.0,33.1,33.4,33.4,3.9,2.0,2.55,0.8247436400049838,-0.008175060539671519,0.5536905341927152,0.006048973672723591,-0.057817,-39.853883
11.185,2.0,1.0,1.0,33.1,33.4,33.4,3.9,2.0,2.5525,0.8209879588080673,-0.008339590310177265,0.5591288194642458,0.006072815580035939,-0.058385,-39.729447
11.185,2.0,1.0,1.0,33.1,33.4,33.4,3.9,2.0,2.555,0.8171789913459055,-0.008507224564155645,0.5645647651123609,0.006095856275293575,-0.058964,-39.604577
11.185,2.0,1.0,1.0,33.1,33.4,33.4,3.9,2.0,2.5575,0.8133161884362683,-0.008678033405470862,0.5699980986132059,0.006118059320574892,-0.059553,-39.479262
11.185,2.0,1.0,1.0,33.1,33.4,33.4,3.9,2.0,2.56,0.8093989918008537,-0.008852089028947461,0.5754285390074582,0.006139386794830569,-0.060153,-39.353491
11.185,2.0,1.0,1.0,33.1,33.4,33.4,3.9,2.0,2.5625,0.8054268338978905,-0.00902946579834741,0.5808557966185334,0.006159799225247365,-0.060765,-39.227252
11.185,2.0,1.0,1.0,33.1,33.4,33.4,3.9,2.0,2.565,0.801399137751092,-0.00921024032786461,0.5862795727607758,0.006179255514976582,-0.061388,-39.100535
11.185,2.0,1.0,1.0,33.1,33.4,33.4,3.9,2.0,2.5675,0.7973153167748458,-0.009394491567325589,0.5916995594372041,0.006197712867006428,-0.062023,-38.973327
11.185,2.0,1.0,1.0,33.1,33.4,33.4,3.9,2.0,2.57,0.7931747745955081,-0.00958230089129597,0.59711543902639,0.006215126703941689,-0.062671,-38.845616
11.185,2.0,1.0,1.0,33.1,33.4,33.4,3.9,2.0,2.5725,0.7889769048686709,-0.009773752192305096,0.6025268839580058,0.006231450583436537,-0.063331,-38.71739
11.185,2.0,1.0,1.0,33.1,33.4,33.4,3.9,2.0,2.575,0.784721091092258,-0.00996893197841477,0.6079335563765601,0.006246636109010798,-0.064005,-38.588637
11.185,2.0,1.0,1.0,33.1,33.4,33.4,3.9,2.0,2.5775,0.7804067064153017,-0.01016792947537172,0.6133351077928124,0.006260632835957669,-0.064692,-38.459343
11.185,2.0,1.0,1.0,33.1,33.4,33.4,3.9,2.0,2.58,0.7760331134422409,-0.010370836733599361,0.6187311787223301,0.006273388172032744,-0.065392,-38.329497
11.185,2.0,1.0,1.0,33.1,33.4,33.4,3.9,2.0,2.5825,0.7715996640325611,-0.010577748740300383,0.6241213983106282,0.006284847272588849,-0.066107,-38.199083
11.185,2.0,1.0,1.0,33.1,33.4,33.4,3.9,2.0,2.585,0.7671056990956068,-0.010788763536959425,0.6295053839442927,0.006294952929799501,-0.066836,-38.06809
11.185,2.0,1.0,1.0,33.1,33.4,33.4,3.9,2.0,2.5875,0.7625505483803622,-0.011003982342554348,0.6348827408474595,0.00630364545558491,-0.067581,-37.936503
11.185,2.0,1.0,1.0,33.1,33.4,33.4,3.9,2.0,2.59,0.7579335302599984,-0.011223509682803844,0.6402530616629842,0.0063108625578271555,-0.06834,-37.804308
11.185,2.0,1.0,1.0,33.1,33.4,33.4,3.9,2.0,2.5925,0.7532539515109622,-0.011447453525802294,0.6456159260176014,0.0063165392094292495,-0.069116,-37.67149
11.185,2.0,1.0,1.0,33.1,33.4,33.4,3.9,2.0,2.595,0.7485111070863756,-0.011675925424414807,0.6509709000703212,0.006320607509739681,-0.069908,-37.538036
11.185,2.0,1.0,1.0,33.1,33.4,33.4,3.9,2.0,2.5975,0.743704279883485,-0.011909040665831568,0.656317536043289,0.0063229965378263095,-0.070717,-37.403929
11.185,2.0,1.0,1.0,33.1,33.4,33.4,3.9,2.0,2.6,0.7388327405048882,-0.012146918428707222,0.6616553717342595,0.006323632197044833,-0.071543,-37.269155
11.185,2.0,1.0,1.0,33.1,33.4,33.4,3.9,2.0,2.6025,0.733895747013255,-0.012389681948339852,0.666983930009799,0.006322437050302494,-0.072386,-37.133697
11.185,2.0,1.0,1.0,33.1,33.4,33.4,3.9,2.0,2.605,0.7288925446792169,-0.012637458690376035,0.6723027182782816,0.0063193301453713015,-0.073249,-36.99754
11.185,2.0,1.0,1.0,33.1,33.4,33.4,3.9,2.0,2.6075,0.7238223657220939,-0.01289038053356189,0.6776112279416665,0.006314226829552904,-0.07413,-36.860666
11.185,2.0,1.0,1.0,33.1,33.4,33.4,3.9,2.0,2.61,0.7186844290430956,-0.013148583962096389,0.6829089338249926,0.006307038552941941,-0.075031,-36.72306
11.185,2.0,1.0,1.0,33.1,33.4,33.4,3.9,2.0,2.6125,0.7134779399505998,-0.013412210268182533,0.6881952935824547,0.006297672659473033,-0.075952,-36.584704
11.185,2.0,1.0,1.0,33.1,33.4,33.4,3.9,2.0,2.615,0.7082020898770887,-0.013681405765414694,0.6934697470788482,0.006286032164869532,-0.076893,-36.445579
11.185,2.0,1.0,1.0,33.1,33.4,33.4,3.9,2.0,2.6175,0.7028560560872863,-0.013956322013685402,0.6987317157450841,0.006272015520540259,-0.077856,-36.305669
11.185,2.0,1.0,1.0,33.1,33.4,33.4,3.9,2.0,2.62,0.6974390013770048,-0.014237116056344708,0.703980601906393,0.006255516362389103,-0.078842,-36.164953
11.185,2.0,1.0,1.0,33.1,33.4,33.4,3.9,2.0,2.6225,0.691950073762161,-0.01452395067039917,0.7092157880817389,0.006236423243416574,-0.07985,-36.023413
11.185,2.0,1.0,1.0,33.1,33.4,33.4,3.9,2.0,2.625,0.686388406157397,-0.0148169946305937,0.714436636252847,0.00621461934889573,-0.080881,-35.881029
11.185,2.0,1.0,1.0,33.1,33.4,33.4,3.9,2.0,2.6275,0.6807531160436675,-0.015116422988283966,0.7196424871011595,0.006189982192800141,-0.081937,-35.737782
11.185,2.0,1.0,1.0,33.1,33.4,33.4,3.9,2.0,2.63,0.6750433051241237,-0.015422417366072855,0.7248326592108778,0.00616238329404703,-0.083018,-35.593649
11.185,2.0,1.0,1.0,33.1,33.4,33.4,3.9,2.0,2.6325,0.6692580589675591,-0.015735166269258936,0.7300064482361405,0.006131687830990965,-0.084126,-35.448611
11.185,2.0,1.0,1.0,33.1,33.4,33.4,3.9,2.0,2.635,0.6633964466386151,-0.016054865415223576,0.7351631260302147,0.006097754272466391,-0.08526,-35.302644
11.185,2.0,1.0,1.0,33.1,33.4,33.4,3.9,2.0,2.6375,0.6574575203138906,-0.01638171808196979,0.7403019397344249,0.0060604339835228374,-0.086422,-35.155727
11.185,2.0,1.0,1.0,33.1,33.4,33.4,3.9,2.0,2.64,0.651440314883,-0.01671593547711872,0.7454221108243759,0.006019570803827376,-0.087612,-35.007836
11.185,2.0,1.0,1.0,33.1,33.4,33.4,3.9,2.0,2.6425,0.6453438475335701,-0.017057737128771934,0.7505228341107963,0.005975000596526495,-0.088833,-34.858947
11.185,2.0,1.0,1.0,33.1,33.4,33.4,3.9,2.0,2.645,0.6391671173190535,-0.01740735129975638,0.7556032766921505,0.005926550765149573,-0.090085,-34.709036
11.185,2.0,1.0,1.0,33.1,33.4,33.4,3.9,2.0,2.6475,0.6329091047081532,-0.01776501542688943,0.760662576855898,0.005874039735914073,-0.091368,-34.558077
11.185,2.0,1.0,1.0,33.1,33.4,33.4,3.9,2.0,2.65,0.6265687711145265,-0.01813097658703169,0.7656998429250441,0.0058172764025389186,-0.092685,-34.406045
11.185,2.0,1.0,1.0,33.1,33.4,33.4,3.9,2.0,2.6525,0.6201450584053465,-0.01850549199183436,0.7707141520463004,0.005756059530396157,-0.094036,-34.252912
11.185,2.0,1.0,1.0,33.1,33.4,33.4,3.9,2.0,2.655,0.6136368883871354,-0.018888829513245237,0.7757045489158972,0.00569017711652368,-0.095423,-34.098651
11.185,2.0,1.0,1.0,33.1,33.4,33.4,3.9,2.0,2.6575,0.6070431622671631,-0.019281268242001534,0.780670044438697,0.005619405701679626,-0.096846,-33.943233
11.185,2.0,1.0,1.0,33.1,33.4,33.4,3.9,2.0,2.66,0.600362760088542,-0.019683099081522035,0.7856096143158895,0.005543509630240318,-0.098309,-33.786628
11.185,2.0,1.0,1.0,33.1,33.4,33.4,3.9,2.0,2.6625,0.5935945401369807,-0.02009462537980914,0.7905221975561009,0.005462240253322625,-0.099811,-33.628806
11.185,2.0,1.0,1.0,33.1,33.4,33.4,3.9,2.0,2.665,0.586737338316949,-0.02051616360218798,0.795406694904281,0.005375335070040252,-0.101354,-33.469736
11.185,2.0,1.0,1.0,33.1,33.4,33.4,3.9,2.0,2.6675,0.579789967494841,-0.02094804404794596,0.8002619671821702,0.0052825168012823834,-0.102941,-33.309384
11.185,2.0,1.0,1.0,33.1,33.4,33.4,3.9,2.0,2.67,0.5727512168064496,-0.021390611614193374,0.8050868335335766,0.005183492389816347,-0.104573,-33.147718
11.185,2.0,1.0,1.0,33.1,33.4,33.4,3.9,2.0,2.6725,0.5656198509258379,-0.02184422661054829,0.8098800695670088,0.005077951919865234,-0.106251,-32.984702
11.185,2.0,1.0,1.0,33.1,33.4,33.4,3.9,2.0,2.675,0.5583946092924258,-0.02230926562855365,0.8146404053874631,0.0049655674485793826,-0.107979,-32.820299
11.185,2.0,1.0,1.0,33.1,33.4,33.4,3.9,2.0,2.6775,0.5510742052927895,-0.022786122470070953,0.8193665235083356,0.0048459917410017235,-0.109757,-32.654474
11.185,2.0,1.0,1.0,33.1,33.4,33.4,3.9,2.0,2.68,0.5436573253933434,-0.02327520913926124,0.8240570566334948,0.004718856899209671,-0.111587,-32.487186
11.185,2.0,1.0,1.0,33.1,33.4,33.4,3.9,2.0,2.6825,0.5361426282197274,-0.023776956903161665,0.8287105852984842,0.004583772875283232,-0.113473,-32.318396
11.185,2.0,1.0,1.0,33.1,33.4,33.4,3.9,2.0,2.685,0.5285287435782935,-0.024291817426304818,0.8333256353586712,0.004440325856588014,-0.115417,-32.148063
11.185,2.0,1.0,1.0,33.1,33.4,33.4,3.9,2.0,2.6875,0.5208142714146665,-0.024820263985302776,0.8379006753108037,0.004288076510553876,-0.117421,-31.976142
11.185,2.0,1.0,1.0,33.1,33.4,33.4,3.9,2.0,2.69,0.5129977807038762,-0.0253627927698384,0.8424341134329508,0.004126558074653887,-0.119488,-31.802589
11.185,2.0,1.0,1.0,33.1,33.4,33.4,3.9,2.0,2.6925,0.5050778082659931,-0.02591992427707611,0.8469242947261196,0.0039552742756201725,-0.12162,-31.627357
11.185,2.0,1.0,1.0,33.1,33.4,33.4,3.9,2.0,2.695,0.4970528575006835,-0.026492204807121236,0.8513694976389032,0.003773697060045851,-0.123822,-31.450398
11.185,2.0,1.0,1.0,33.1,33.4,33.4,3.9,2.0,2.6975,0.48892139703338716,-0.027080208067836828,0.8557679305543829,0.0035812641163820024,-0.126096,-31.271662
11.185,2.0,1.0,1.0,33.1,33.4,33.4,3.9,2.0,2.7,0.4806818592652007,-0.027684536898059338,0.860117728016011,0.003377376165910342,-0.128445,-31.091096
11.185,2.0,1.0,1.0,33.1,33.4,33.4,3.9,2.0,2.7025,0.47233263881772886,-0.028305825119060227,0.864416946666438,0.0031613939975087806,-0.130874,-30.908645
11.185,2.0,1.0,1.0,33.1,33.4,33.4,3.9,2.0,2.705,0.46387209086338466,-0.028944739524968437,0.8686635608700412,0.002932635217881532,-0.133386,-30.724252
11.185,2.0,1.0,1.0,33.1,33.4,33.4,3.9,2.0,2.7075,0.45529852933068327,-0.02960198202381889,0.8728554579862957,0.0026903706853338358,-0.135985,-30.537859
11.185,2.0,1.0,1.0,33.1,33.4,33.4,3.9,2.0,2.71,0.4466102249731145,-0.030278291941911773,0.8769904332569686,0.0024338205910688134,-0.138677,-30.349402
11.185,2.0,1.0,1.0,33.1,33.4,33.4,3.9,2.0,2.7125,0.43780540328910306,-0.030974448505279202,0.8810661842653759,0.0021621501472828043,-0.141465,-30.158818
11.185,2.0,1.0,1.0,33.1,33.4,33.4,3.9,2.0,2.715,0.42888224227942867,-0.031691273513243176,0.8850803049204852,0.0018744648359457373,-0.144356,-29.966039
11.185,2.0,1.0,1.0,33.1,33.4,33.4,3.9,2.0,2.7175,0.419838870027232,-0.03242963422032923,0.8890302789123838,0.0015698051659550846,-0.147355,-29.770995
11.185,2.0,1.0,1.0,33.1,33.4,33.4,3.9,2.0,2.72,0.41067336208443317,-0.03319044644416088,0.8929134725784216,0.0012471408792169255,-0.150467,-29.573611
11.185,2.0,1.0,1.0,33.1,33.4,33.4,3.9,2.0,2.7225,0.4013837386469521,-0.03397467791840697,0.8967271271110181,0.0009053645379720638,-0.153699,-29.37381
11.185,2.0,1.0,1.0,33.1,33.4,33.4,3.9,2.0,2.725,0.39196796149969565,-0.03478335191136718,0.900468350028486,0.0005432844161647543,-0.157058,-29.171512
11.185,2.0,1.0,1.0,33.1,33.4,33.4,3.9,2.0,2.7275,0.3824239307106783,-0.03561755113236329,0.9041341058190965,0.00015961660661918938,-0.160552,-28.966632
11.185,2.0,1.0,1.0,33.1,33.4,33.4,3.9,2.0,2.73,0.3727494810521277,-0.03647842194971299,0.9077212056556351,-0.00024702375701935223,-0.164188,-28.75908
11.185,2.0,1.0,1.0,33.1,33.4,33.4,3.9,2.0,2.7325,0.36294237812479196,-0.03736717894568622,0.9112262960626529,-0.0006781322795293292,-0.167976,-28.548764
11.185,2.0,1.0,1.0,33.1,33.4,33.4,3.9,2.0,2.735,0.3530003141601641,-0.038285109835418246,0.9146458464010226,-0.001135326217877789,-0.171925,-28.335585
11.185,2.0,1.0,1.0,33.1,33.4,33.4,3.9,2.0,2.7375,0.3429209034738694,-0.03923358077822436,0.9179761350138764,-0.0016203566831623647,-0.176044,-28.11944
11.185,2.0,1.0,1.0,33.1,33.4,33.4,3.9,2.0,2.74,0.332701677542259,-0.040214042111022044,0.9212132338539094,-0.00213512230820015,-0.180346,-27.90022
11.185,2.0,1.0,1.0,33.1,33.4,33.4,3.9,2.0,2.7425,0.3223400796733092,-0.04122803453450685,0.9243529913837557,-0.002681684586202228,-0.184842,-27.677812
11.185,2.0,1.0,1.0,33.1,33.4,33.4,3.9,2.0,2.745,0.3118334592425583,-0.042277195783149,0.9273910135078314,-0.0032622851189054412,-0.189546,-27.452094
11.185,2.0,1.0,1.0,33.1,33.4,33.4,3.9,2.0,2.7475,0.3011790654651323,-0.04336326780976401,0.9303226422547117,-0.003879365051409117,-0.194472,-27.22294
11.185,2.0,1.0,1.0,33.1,33.4,33.4,3.9,2.0,2.75,0.290374040676331,-0.0444881045140182,0.933142931882571,-0.00453558701697339,-0.199635,-26.990215
11.185,2.0,1.0,1.0,33.1,33.4,33.4,3.9,2.0,2.7525,0.2794154130961724,-0.04565368004133431,0.935846622024957,-0.005233859969633296,-0.205054,-26.753777
11.185,2.0,1.0,1.0,33.1,33.4,33.4,3.9,2.0,2.755,0.26830008905832303,-0.04686209767366324,0.9384281074284545,-0.005977367347442786,-0.210747,-26.513476
11.185,2.0,1.0,1.0,33.1,33.4,33.4,3.9,2.0,2.7575,0.2570248446917369,-0.04811559932570352,0.9408814037553458,-0.006769599086673004,-0.216736,-26.269153
11.185,2.0,1.0,1.0,33.1,33.4,33.4,3.9,2.0,2.76,0.24558631705530473,-0.049416575648286415,0.9432001088304994,-0.00761438810002318,-0.223042,-26.02064
11.185,2.0,1.0,1.0,33.1,33.4,33.4,3.9,2.0,2.7625,0.2339809947430838,-0.05076757672338466,0.9453773585991027,-0.008515951943179407,-0.229693,-25.767757
11.185,2.0,1.0,1.0,33.1,33.4,33.4,3.9,2.0,2.765,0.22220520800249008,-0.052171323310570686,0.9474057769262626,-0.009478940527963064,-0.236716,-25.510314
11.185,2.0,1.0,1.0,33.1,33.4,33.4,3.9,2.0,2.7675,0.21025511844260472,-0.05363071857013027,0.9492774182058755,-0.010508490901927327,-0.244143,-25.24811
11.185,2.0,1.0,1.0,33.1,33.4,33.4,3.9,2.0,2.77,0.19812670845819627,-0.05514886013985149,0.9509837015480553,-0.011610290309899064,-0.252009,-24.980928
11.185,2.0,1.0,1.0,33.1,33.4,33.4,3.9,2.0,2.7725,0.18581577056207135,-0.056729052375908834,0.9525153350738456,-0.012790648990493349,-0.260353,-24.708539
11.185,2.0,1.0,1.0,33.1,33.4,33.4,3.9,2.0,2.775,0.17331789691053126,-0.058374818476663023,0.9538622285529794,-0.01405658444987312,-0.269219,-24.430698
11.185,2.0,1.0,1.0,33.1,33.4,33.4,3.9,2.0,2.7775,0.1606284694331641,-0.06008991208256936,0.9550133922625662,-0.015415919308306677,-0.278657,-24.147144
11.185,2.0,1.0,1.0,33.1,33.4,33.4,3.9,2.0,2.78,0.14774265115141788,-0.0618783277734033,0.9559568195062007,-0.01687739524779884,-0.28872,-23.857596
11.185,2.0,1.0,1.0,33.1,33.4,33.4,3.9,2.0,2.7825,0.13465537950747822,-0.06374430964865231,0.9566793496943468,-0.018450806120622793,-0.299473,-23.561754
11.185,2.0,1.0,1.0,33.1,33.4,33.4,3.9,2.0,2.785,0.1213613628496189,-0.06569235685474896,0.9571665082233854,-0.020147153933291948,-0.310987,-23.259298
11.185,2.0,1.0,1.0,33.1,33.4,33.4,3.9,2.0,2.7875,0.10785508166537158,-0.06772722448122347,0.9574023185712992,-0.021978832228915657,-0.323341,-22.949881
11.185,2.0,1.0,1.0,33.1,33.4,33.4,3.9,2.0,2.79,0.09413079676524617,-0.06985391764148063,0.9573690810137461,-0.02395984239133907,-0.336629,-22.633132
11.185,2.0,1.0,1.0,33.1,33.4,33.4,3.9,2.0,2.7925,0.08018256746174791,-0.07207767571914384,0.9570471111065807,-0.026106049634831544,-0.350956,-22.308652
11.185,2.0,1.0,1.0,33.1,33.4,33.4,3.9,2.0,2.795,0.06600428395127514,-0.0744039426082919,0.9564144295191317,-0.028435486982988464,-0.366443,-21.97601
11.185,2.0,1.0,1.0,33.1,33.4,33.4,3.9,2.0,2.7975,0.05158971971836081,-0.07683831717878242,0.9554463928620721,-0.030968717453303006,-0.38323,-21.634741
11.185,2.0,1.0,1.0,33.1,33.4,33.4,3.9,2.0,2.8,0.03693261202437092,-0.07938647597613123,0.9541152527436608,-0.03372926703886567,-0.401481,-21.284343
11.185,2.0,1.0,1.0,33.1,33.4,33.4,3.9,2.0,2.8025,0.022026781676918003,-0.08205405706145294,0.9523896273004107,-0.03674414402180231,-0.421384,-20.924274
11.185,2.0,1.0,1.0,33.1,33.4,33.4,3.9,2.0,2.805,0.006866307676189433,-0.08484648954044115,0.9502338657588826,-0.04004446378574435,-0.443163,-20.553947
11.185,2.0,1.0,1.0,33.1,33.4,33.4,3.9,2.0,2.8075,-0.008554221458483053,-0.08776874718596854,0.9476072820613056,-0.04366620274659247,-0.467078,-20.172725
11.185,2.0,1.0,1.0,33.1,33.4,33.4,3.9,2.0,2.81,-0.02423934907749157,-0.09082499584910575,0.9444632281045503,-0.047651110412636734,-0.493439,-19.779922
11.185,2.0,1.0,1.0,33.1,33.4,33.4,3.9,2.0,2.8125,-0.04019224135821471,-0.09401809194378485,0.9407479706223194,-0.052047814989415325,-0.522614,-19.374791
11.185,2.0,1.0,1.0,33.1,33.4,33.4,3.9,2.0,2.815,-0.05641396671757255,-0.09734887151970233,0.9363993282330574,-0.05691316530780825,-0.555044,-18.956525
11.185,2.0,1.0,1.0,33.1,33.4,33.4,3.9,2.0,2.8175,-0.07290247670755359,-0.10081514386739898,0.9313450170099624,-0.062313859842387416,-0.591259,-18.524254
11.185,2.0,1.0,1.0,33.1,33.4,33.4,3.9,2.0,2.82,-0.08965116403935357,-0.10441026664577426,0.9255006450075083,-0.06832842129633743,-0.631904,-18.077037
11.185,2.0,1.0,1.0,33.1,33.4,33.4,3.9,2.0,2.8225,-0.10664681915364237,-0.10812112593359438,0.9187672905299141,-0.07504958063575656,-0.677765,-17.613865
11.185,2.0,1.0,1.0,33.1,33.4,33.4,3.9,2.0,2.825,-0.1238667279247875,-0.11192526673605258,0.9110285997327235,-0.08258713339993137,-0.729809,-17.133662
11.185,2.0,1.0,1.0,33.1,33.4,33.4,3.9,2.0,2.8275,-0.14127453851282126,-0.11578680634774,0.9021473546392623,-0.09107131542167456,-0.789233,-16.635289
