1,w,sub_t,h,l1,l2,l3,g1,g2,Freq,S11_re,S21_re,S11_img,S21_img,S11_dB,S21_dB
11.185,2.0,1.0,1.0,33.6,34.9,34.9,4.4,2.6,2.5,0.836334684463784,-0.00769903410976127,0.535525136147315,0.00528660779887805,-0.060161,-40.593672
11.185,2.0,1.0,1.0,33.6,34.9,34.9,4.4,2.6,2.5025,0.8326208004996923,-0.007869191468675927,0.541139434456301,0.005314839805773341,-0.060838,-40.449298
11.185,2.0,1.0,1.0,33.6,34.9,34.9,4.4,2.6,2.505,0.8288513190384809,-0.00804338398753896,0.5467519296515464,0.00534261926750245,-0.06153,-40.303996
11.185,2.0,1.0,1.0,33.6,34.9,34.9,4.4,2.6,2.5075,0.8250256226644559,-0.008221745314138598,0.552362349474293,0.005369918307633072,-0.062238,-40.157738
11.185,2.0,1.0,1.0,33.6,34.9,34.9,4.4,2.6,2.51,0.8211430806310337,-0.008404415331207102,0.5579704130902822,0.005396707451187198,-0.062962,-40.010494
11.185,2.0,1.0,1.0,33.6,34.9,34.9,4.4,2.6,2.5125,0.8172030483913645,-0.008591540528944567,0.5635758307681066,0.005422955511185502,-0.063705,-39.862235
11.185,2.0,1.0,1.0,33.6,34.9,34.9,4.4,2.6,2.515,0.8132048671011229,-0.00878327440455187,0.5691783035418589,0.00544862946551686,-0.064465,-39.712927
11.185,2.0,1.0,1.0,33.6,34.9,34.9,4.4,2.6,2.5175,0.8091478630911988,-0.008979777891072058,0.5747775228569227,0.005473694323171247,-0.065243,-39.562537
11.185,2.0,1.0,1.0,33.6,34.9,34.9,4.4,2.6,2.52,0.805031347307762,-0.009181219818065635,0.5803731701976748,0.005498112978765165,-0.066041,-39.411033
11.185,2.0,1.0,1.0,33.6,34.9,34.9,4.4,2.6,2.5225,0.8008546147169662,-0.00938777740689374,0.5859649166956945,0.005521846054166136,-0.066859,-39.258379
11.185,2.0,1.0,1.0,33.6,34.9,34.9,4.4,2.6,2.525,0.7966169436712396,-0.00959963680366271,0.5915524227169817,0.005544851725884315,-0.067698,-39.104537
11.185,2.0,1.0,1.0,33.6,34.9,34.9,4.4,2.6,2.5275,0.792317595233829,-0.009816993653191696,0.5971353374264906,0.005567085536742675,-0.068558,-38.949472
11.185,2.0,1.0,1.0,33.6,34.9,34.9,4.4,2.6,2.53,0.7879558124579106,-0.010040053717710667,0.6027132983281087,0.005588500190160009,-0.069441,-38.793142
11.185,2.0,1.0,1.0,33.6,34.9,34.9,4.4,2.6,2.5325,0.7835308196161966,-0.010269033544380966,0.6082859307780191,0.00560904532518028,-0.070348,-38.635507
11.185,2.0,1.0,1.0,33.6,34.9,34.9,4.4,2.6,2.535,0.779041821376531,-0.01050416118616112,0.6138528474691396,0.005628667270153723,-0.071278,-38.476526
11.185,2.0,1.0,1.0,33.6,34.9,34.9,4.4,2.6,2.5375,0.7744880019185026,-0.01074567698102156,0.619413647884064,0.005647308772715899,-0.072235,-38.316155
11.185,2.0,1.0,1.0,33.6,34.9,34.9,4.4,2.6,2.54,0.7698685239855447,-0.010993834395052589,0.6249679177136462,0.005664908703415546,-0.073217,-38.154347
11.185,2.0,1.0,1.0,33.6,34.9,34.9,4.4,2.6,2.5425,0.7651825278663974,-0.01124890093561427,0.6305152282380146,0.005681401730005358,-0.074227,-37.991055
11.185,2.0,1.0,1.0,33.6,34.9,34.9,4.4,2.6,2.545,0.7604291302991228,-0.011511159141358319,0.6360551356664166,0.005696717959024643,-0.075266,-37.82623
11.185,2.0,1.0,1.0,33.6,34.9,34.9,4.4,2.6,2.5475,0.7556074232901061,-0.011780907656716763,0.6415871804318447,0.005710782540862325,-0.076335,-37.65982
11.185,2.0,1.0,1.0,33.6,34.9,34.9,4.4,2.6,2.55,0.750716472839587,-0.012058462399316438,0.6471108864359081,0.005723515233983272,-0.077436,-37.491773
11.185,2.0,1.0,1.0,33.6,34.9,34.9,4.4,2.6,2.5525,0.7457553175643314,-0.012344157829750015,0.6526257602387817,0.005734829923420295,-0.078569,-37.322031
11.185,2.0,1.0,1.0,33.6,34.9,34.9,4.4,2.6,2.555,0.7407229672069057,-0.012638348334237774,0.6581312901884532,0.005744634087965795,-0.079737,-37.150537
11.185,2.0,1.0,1.0,33.6,34.9,34.9,4.4,2.6,2.5575,0.7356184010197957,-0.012941409731958892,0.6636269454826682,0.005752828209726157,-0.080941,-36.977229
11.185,2.0,1.0,1.0,33.6,34.9,34.9,4.4,2.6,2.56,0.7304405660111928,-0.013253740920244799,0.6691121751560992,0.005759305118811129,-0.082183,-36.802045
11.185,2.0,1.0,1.0,33.6,34.9,34.9,4.4,2.6,2.5625,0.725188375037648,-0.0135757656724331,0.674586406984229,0.00576394926489874,-0.083465,-36.624918
11.185,2.0,1.0,1.0,33.6,34.9,34.9,4.4,2.6,2.565,0.71986070472697,-0.013907934605007317,0.6800490462942473,0.005766635906219143,-0.084788,-36.445777
11.185,2.0,1.0,1.0,33.6,34.9,34.9,4.4,2.6,2.5675,0.7144563932126622,-0.014250727332728856,0.6854994746718472,0.005767230205108455,-0.086155,-36.264551
11.185,2.0,1.0,1.0,33.6,34.9,34.9,4.4,2.6,2.57,0.7089742376587946,-0.014604654832846502,0.6909370485512141,0.00576558621766057,-0.087569,-36.081163
11.185,2.0,1.0,1.0,33.6,34.9,34.9,4.4,2.6,2.5725,0.7034129915514858,-0.014970262042187089,0.6963610976735899,0.005761545763108957,-0.089031,-35.895532
11.185,2.0,1.0,1.0,33.6,34.9,34.9,4.4,2.6,2.575,0.6977713617300435,-0.015348130714048289,0.7017709233975817,0.005754937156349877,-0.090544,-35.707575
11.185,2.0,1.0,1.0,33.6,34.9,34.9,4.4,2.6,2.5775,0.6920480051272173,-0.015738882565392284,0.70716579684179,0.005745573784411557,-0.092111,-35.517204
11.185,2.0,1.0,1.0,33.6,34.9,34.9,4.4,2.6,2.58,0.6862415251838914,-0.0161431827489567,0.712544956837267,0.005733252504605942,-0.093736,-35.324325
11.185,2.0,1.0,1.0,33.6,34.9,34.9,4.4,2.6,2.5825,0.6803504678987655,-0.016561743689644595,0.7179076076637229,0.005717751838479168,-0.095421,-35.128842
11.185,2.0,1.0,1.0,33.6,34.9,34.9,4.4,2.6,2.585,0.6743733174680896,-0.016995329330036814,0.7232529165391111,0.005698829931393425,-0.09717,-34.930651
11.185,2.0,1.0,1.0,33.6,34.9,34.9,4.4,2.6,2.5875,0.6683084914641261,-0.017444759836215865,0.7285800108271875,0.005676222242490379,-0.098988,-34.729644
11.185,2.0,1.0,1.0,33.6,34.9,34.9,4.4,2.6,2.59,0.6621543354936366,-0.017910916822449843,0.7338879749215974,0.005649638923738989,-0.100877,-34.525707
11.185,2.0,1.0,1.0,33.6,34.9,34.9,4.4,2.6,2.5925,0.6559091172690852,-0.018394749161842534,0.739175846757883,0.005618761839552958,-0.102843,-34.318719
11.185,2.0,1.0,1.0,33.6,34.9,34.9,4.4,2.6,2.595,0.6495710200152499,-0.01889727946002319,0.7444426138961853,0.005583241169823457,-0.104891,-34.108553
11.185,2.0,1.0,1.0,33.6,34.9,34.9,4.4,2.6,2.5975,0.6431381351222168,-0.019419611280592882,0.7496872091071234,0.005542691528836777,-0.107026,-33.895073
11.185,2.0,1.0,1.0,33.6,34.9,34.9,4.4,2.6,2.6,0.6366084539420627,-0.01996293722466791,0.7549085053808708,0.005496687520045221,-0.109254,-33.678137
11.185,2.0,1.0,1.0,33.6,34.9,34.9,4.4,2.6,2.6025,0.6299798586104627,-0.0205285479828454,0.7601053102644287,0.005444758631545927,-0.111581,-33.457593
11.185,2.0,1.0,1.0,33.6,34.9,34.9,4.4,2.6,2.605,0.623250111755555,-0.021117842496716596,0.7652763594138675,0.005386383358785064,-0.114015,-33.23328
11.185,2.0,1.0,1.0,33.6,34.9,34.9,4.4,2.6,2.6075,0.6164168449341414,-0.021732339389210324,0.7704203092260893,0.005320982418676639,-0.116564,-33.005027
11.185,2.0,1.0,1.0,33.6,34.9,34.9,4.4,2.6,2.61,0.6094775456089614,-0.02237368984923559,0.7755357283875256,0.005247910892032337,-0.119235,-32.772653
11.185,2.0,1.0,1.0,33.6,34.9,34.9,4.4,2.6,2.6125,0.6024295424495963,-0.023043692187113135,0.7806210881438825,0.005166449097706958,-0.122039,-32.535963
11.185,2.0,1.0,1.0,33.6,34.9,34.9,4.4,2.6,2.615,0.5952699887025045,-0.023744308314120152,0.7856747510539954,0.005075791960596499,-0.124986,-32.294751
11.185,2.0,1.0,1.0,33.6,34.9,34.9,4.4,2.6,2.6175,0.5879958433316052,-0.024477682443322553,0.7906949579400694,0.004975036584561417,-0.128087,-32.048795
11.185,2.0,1.0,1.0,33.6,34.9,34.9,4.4,2.6,2.62,0.5806038495781576,-0.025246162361194938,0.7956798126834478,0.004863167677879865,-0.131355,-31.79786
11.185,2.0,1.0,1.0,33.6,34.9,34.9,4.4,2.6,2.6225,0.573090510525709,-0.026052323682115637,0.8006272644362289,0.0047390403995904275,-0.134805,-31.541692
11.185,2.0,1.0,1.0,33.6,34.9,34.9,4.4,2.6,2.625,0.565452061180378,-0.026898997572852,0.805535086720123,0.0046013600956642,-0.138453,-31.28002
11.185,2.0,1.0,1.0,33.6,34.9,34.9,4.4,2.6,2.6275,0.5576844364859276,-0.027789302524296438,0.8104008527592412,0.004448658268593773,-0.142317,-31.012551
11.185,2.0,1.0,1.0,33.6,34.9,34.9,4.4,2.6,2.63,0.5497832345838273,-0.028726680856217046,0.8152219062353928,0.004279263965117959,-0.146416,-30.738973
11.185,2.0,1.0,1.0,33.6,34.9,34.9,4.4,2.6,2.6325,0.5417436744966254,-0.02971494077162755,0.819995326452998,0.004091269564362486,-0.150775,-30.458945
11.185,2.0,1.0,1.0,33.6,34.9,34.9,4.4,2.6,2.635,0.5335605472536817,-0.03075830493535604,0.8247178866425047,0.0038824896892645146,-0.155418,-30.172102
11.185,2.0,1.0,1.0,33.6,34.9,34.9,4.4,2.6,2.6375,0.5252281592857343,-0.03186146674229704,0.8293860037982833,0.003650411629769819,-0.160375,-29.878048
11.185,2.0,1.0,1.0,33.6,34.9,34.9,4.4,2.6,2.64,0.5167402666818144,-0.03302965567157229,0.8339956780151896,0.0033921352326320674,-0.16568,-29.576353
11.185,2.0,1.0,1.0,33.6,34.9,34.9,4.4,2.6,2.6425,0.5080899986205245,-0.034268713401484956,0.838542418724232,0.003104299646622343,-0.171371,-29.266551
11.185,2.0,1.0,1.0,33.6,34.9,34.9,4.4,2.6,2.645,0.4992697679480094,-0.03558518269599505,0.8430211544869637,0.0027829935682229545,-0.177491,-28.948134
11.185,2.0,1.0,1.0,33.6,34.9,34.9,4.4,2.6,2.6475,0.49027116646678653,-0.036986411476563924,0.8474261220277517,0.0024236446488128983,-0.184093,-28.620548
11.185,2.0,1.0,1.0,33.6,34.9,34.9,4.4,2.6,2.65,0.48108484201213136,-0.03848067497382695,0.8517507288760702,0.002020882412791086,-0.191235,-28.283185
11.185,2.0,1.0,1.0,33.6,34.9,34.9,4.4,2.6,2.6525,0.4717003538168406,-0.04007731942022935,0.8559873822353058,0.0015683672747518632,-0.198986,-27.935381
11.185,2.0,1.0,1.0,33.6,34.9,34.9,4.4,2.6,2.655,0.4621060019960941,-0.041786931401131745,0.8601272743176457,0.0010585758597355657,-0.207427,-27.576404
11.185,2.0,1.0,1.0,33.6,34.9,34.9,4.4,2.6,2.6575,0.45228862622853205,-0.04362153772006567,0.8641601111398785,0.00048252957694954975,-0.216653,-27.205449
11.185,2.0,1.0,1.0,33.6,34.9,34.9,4.4,2.6,2.66,0.4422333678966181,-0.04559484142244955,0.8680737673077267,-0.00017055108094318305,-0.226778,-26.821625
11.185,2.0,1.0,1.0,33.6,34.9,34.9,4.4,2.6,2.6625,0.43192338915307205,-0.04772250038402942,0.8718538431114166,-0.0009136902593351112,-0.237936,-26.423945
11.185,2.0,1.0,1.0,33.6,34.9,34.9,4.4,2.6,2.665,0.4213395417594818,-0.050022455442087756,0.8754830915580866,-0.0017627309438098134,-0.250291,-26.01131
11.185,2.0,1.0,1.0,33.6,34.9,34.9,4.4,2.6,2.6675,0.4104599784157618,-0.05251531510463179,0.8789406706624746,-0.0027370844257981457,-0.264039,-25.582499
11.185,2.0,1.0,1.0,33.6,34.9,34.9,4.4,2.6,2.67,0.39925970027641633,-0.055224802793241136,0.882201158746156,-0.003860717406481124,-0.27942,-25.136143
11.185,2.0,1.0,1.0,33.6,34.9,34.9,4.4,2.6,2.6725,0.38771003758832273,-0.058178269186217796,0.8852332451673457,-0.005163464461358329,-0.296731,-24.670709
11.185,2.0,1.0,1.0,33.6,34.9,34.9,4.4,2.6,2.675,0.3757780680547032,-0.061407264335310685,0.8879979720625877,-0.006682790440181604,-0.31634,-24.184472
11.185,2.0,1.0,1.0,33.6,34.9,34.9,4.4,2.6,2.6775,0.3634259936962092,-0.0649481477271688,0.8904463486479137,-0.008466181399643943,-0.338709,-23.67549
11.185,2.0,1.0,1.0,33.6,34.9,34.9,4.4,2.6,2.68,0.3506105292842495,-0.06884268164641345,0.8925160798222745,-0.010574422406309235,-0.364423,-23.141568
11.185,2.0,1.0,1.0,33.6,34.9,34.9,4.4,2.6,2.6825,0.33728241832201766,-0.07313848951508664,0.89412703241263,-0.013086138768044618,-0.394234,-22.580227
11.185,2.0,1.0,1.0,33.6,34.9,34.9,4.4,2.6,2.685,0.323386313636751,-0.07788913858859316,0.8951748866896482,-0.016104152529981104,-0.429117,-21.988666
11.185,2.0,1.0,1.0,33.6,34.9,34.9,4.4,2.6,2.6875,0.308861492083022,-0.0831533720852249,0.895522161995987,-0.0197644639032138,-0.470355,-21.363728
11.185,2.0,1.0,1.0,33.6,34.9,34.9,4.4,2.6,2.69,0.29364431999889373,-0.08899256581143204,0.8949854326557898,-0.024249037929033018,-0.519658,-20.701882
11.185,2.0,1.0,1.0,33.6,34.9,34.9,4.4,2.6,2.6925,0.2776742501590206,-0.09546461591248032,0.8933170419287514,-0.02980408079711576,-0.579332,-19.999229
11.185,2.0,1.0,1.0,33.6,34.9,34.9,4.4,2.6,2.695,0.2609068078214686,-0.10261078134211253,0.8901790169674684,-0.036766086071974846,-0.652536,-19.251573
11.185,2.0,1.0,1.0,33.6,34.9,34.9,4.4,2.6,2.6975,0.24334027695201282,-0.11042874350450764,0.88510645284577,-0.04559834730279425,-0.743642,-18.454629
11.185,2.0,1.0,1.0,33.6,34.9,34.9,4.4,2.6,2.7,0.22506903786160046,-0.11881889995218825,0.8774583508056806,-0.056939877919181675,-0.858742,-17.604483
11.185,2.0,1.0,1.0,33.6,34.9,34.9,4.4,2.6,2.7025,0.20638803252470928,-0.12747939587555795,0.866358824612868,-0.07166367331590787,-1.006317,-16.698567
11.185,2.0,1.0,1.0,33.6,34.9,34.9,4.4,2.6,2.705,0.18799202797967393,-0.1357062818640437,0.8506493741141944,-0.09092332036607012,-1.197895,-15.737614
11.185,2.0,1.0,1.0,33.6,34.9,34.9,4.4,2.6,2.7075,0.17133628221242628,-0.14203254099683935,0.8289253845020799,-0.11611427897730567,-1.447999,-14.729405
11.185,2.0,1.0,1.0,33.6,34.9,34.9,4.4,2.6,2.71,0.1592138856176271,-0.14365189233703862,0.7998606865334039,-0.14854535998477764,-1.77096,-13.69556
11.185,2.0,1.0,1.0,33.6,34.9,34.9,4.4,2.6,2.7125,0.15640452969348023,-0.13577560359526256,0.763263757236765,-0.18837710505460295,-2.16787,-12.682425
11.185,2.0,1.0,1.0,33.6,34.9,34.9,4.4,2.6,2.715,0.16949372481870012,-0.11182790297767492,0.7224040764265628,-0.2322935579817971,-2.591671,-11.774019
11.185,2.0,1.0,1.0,33.6,34.9,34.9,4.4,2.6,2.7175,0.2036669838145935,-0.06667319880332889,0.6868406509085042,-0.2706904265103205,-2.896877,-11.094749
11.185,2.0,1.0,1.0,33.6,34.9,34.9,4.4,2.6,2.72,0.25558460793278354,-0.0037397112566670727,0.6709945289703061,-0.28914862620035375,-2.877232,-10.776851
11.185,2.0,1.0,1.0,33.6,34.9,34.9,4.4,2.6,2.7225,0.3100028999948976,0.061662982638585336,0.6838418765408214,-0.27877132967779367,-2.4892,-10.887583
11.185,2.0,1.0,1.0,33.6,34.9,34.9,4.4,2.6,2.725,0.3498302351240254,0.11246348289699507,0.7198092700934703,-0.2452335159548285,-1.934764,-11.379431
11.185,2.0,1.0,1.0,33.6,34.9,34.9,4.4,2.6,2.7275,0.3685621903489631,0.14223486381914377,0.764840657467108,-0.20263615701468685,-1.421736,-12.12595
11.185,2.0,1.0,1.0,33.6,34.9,34.9,4.4,2.6,2.73,0.3697442568663932,0.1545895428479954,0.8078665451764514,-0.16203383025487064,-1.027253,-12.99704
11.185,2.0,1.0,1.0,33.6,34.9,34.9,4.4,2.6,2.7325,0.35981831606385767,0.15600234115609674,0.8442235410354739,-0.12805437949028475,-0.745937,-13.90036
11.185,2.0,1.0,1.0,33.6,34.9,34.9,4.4,2.6,2.735,0.3439500549217352,0.1516484072439606,0.8733623055061492,-0.10121557409284698,-0.549929,-14.783151
11.185,2.0,1.0,1.0,33.6,34.9,34.9,4.4,2.6,2.7375,0.3253292145947159,0.14471691120179783,0.8963178379312431,-0.08046020023549882,-0.413287,-15.619828
11.185,2.0,1.0,1.0,33.6,34.9,34.9,4.4,2.6,2.74,0.3056929013734327,0.13694172098215657,0.9144139455081689,-0.06444964195235428,-0.317034,-16.400357
11.185,2.0,1.0,1.0,33.6,34.9,34.9,4.4,2.6,2.7425,0.2859145029155058,0.1291932111822596,0.9288078953143771,-0.05201641177487266,-0.248297,-17.122745
11.185,2.0,1.0,1.0,33.6,34.9,34.9,4.4,2.6,2.745,0.2663982241465749,0.1218736282674691,0.9403978542133725,-0.042254675645579644,-0.198529,-17.788822
11.185,2.0,1.0,1.0,33.6,34.9,34.9,4.4,2.6,2.7475,0.2473050925808764,0.11514316646497971,0.9498497462962361,-0.03449215909591579,-0.162049,-18.402026
11.185,2.0,1.0,1.0,33.6,34.9,34.9,4.4,2.6,2.75,0.228674500063874,0.109041361982662,0.957649462095185,-0.028237229795882,-0.135039,-18.966287
11.185,2.0,1.0,1.0,33.6,34.9,34.9,4.4,2.6,2.7525,0.21048773799825962,0.1035504548486713,0.9641507119817717,-0.023130643134230817,-0.114893,-19.485494
11.185,2.0,1.0,1.0,33.6,34.9,34.9,4.4,2.6,2.755,0.19270066649737666,0.0986279156677388,0.9696120643837439,-0.018908273049037527,-0.099805,-19.963246
11.185,2.0,1.0,1.0,33.6,34.9,34.9,4.4,2.6,2.7575,0.1752602218533735,0.09422285141009075,0.9742238742854256,-0.015374044589808006,-0.0885,-20.402763
11.185,2.0,1.0,1.0,33.6,34.9,34.9,4.4,2.6,2.76,0.15811251193172687,0.09028403553736496,0.9781273906320193,-0.012380736371555023,-0.080067,-20.80687
11.185,2.0,1.0,1.0,33.6,34.9,34.9,4.4,2.6,2.7625,0.14120655186577455,0.08676360794156217,0.981428217453419,-0.009816454169119537,-0.073844,-21.178008
11.185,2.0,1.0,1.0,33.6,34.9,34.9,4.4,2.6,2.765,0.12449575954642354,0.08361855820035392,0.9842058101120955,-0.007595080733898437,-0.069342,-21.518264
11.185,2.0,1.0,1.0,33.6,34.9,34.9,4.4,2.6,2.7675,0.10793832187841862,0.08081109879110157,0.9865202127870836,-0.005649487780130229,-0.066199,-21.829406
11.185,2.0,1.0,1.0,33.6,34.9,34.9,4.4,2.6,2.77,0.09149701423184178,0.07830850794262409,0.988416875969696,-0.003926666360868872,-0.064141,-22.112915
11.185,2.0,1.0,1.0,33.6,34.9,34.9,4.4,2.6,2.7725,0.07513877674758203,0.0760827443459016,0.9899301305213387,-0.0023841955646594568,-0.06296,-22.370014
11.185,2.0,1.0,1.0,33.6,34.9,34.9,4.4,2.6,2.775,0.05883420327617809,0.07410998913578022,0.9910857137822201,-0.0009876511857774342,-0.062498,-22.601694
11.185,2.0,1.0,1.0,33.6,34.9,34.9,4.4,2.6,2.7775,0.042557020029774746,0.07237019276158273,0.9919026198053122,0.0002913204050015126,-0.062632,-22.808735
11.185,2.0,1.0,1.0,33.6,34.9,34.9,4.4,2.6,2.78,0.02628358918117688,0.07084666334129701,0.9923944618708853,0.0014764542223551285,-0.063268,-22.991726
11.185,2.0,1.0,1.0,33.6,34.9,34.9,4.4,2.6,2.7825,0.009992450540646564,0.069525711804574,0.9925704781604876,0.0025879786671738417,-0.064333,-23.151078
11.185,2.0,1.0,1.0,33.6,34.9,34.9,4.4,2.6,2.785,-0.006336097075437948,0.06839635848773268,0.9924362720653238,0.0036434830756156226,-0.06577,-23.287034
11.185,2.0,1.0,1.0,33.6,34.9,34.9,4.4,2.6,2.7875,-0.022720379048891987,0.06745010096895337,0.9919943511768808,0.004658609893479312,-0.067538,-23.39968
11.185,2.0,1.0,1.0,33.6,34.9,34.9,4.4,2.6,2.79,-0.03917769994772462,0.0666807411958272,0.9912445096040969,0.0056476224976257225,-0.069605,-23.488949
11.185,2.0,1.0,1.0,33.6,34.9,34.9,4.4,2.6,2.7925,-0.05572467901785705,0.06608426995485703,0.9901840842132411,0.0066238874469619355,-0.071948,-23.554623
11.185,2.0,1.0,1.0,33.6,34.9,34.9,4.4,2.6,2.795,-0.07237757581914309,0.06565880773210744,0.988808104863481,0.007600301851063749,-0.074553,-23.596335
11.185,2.0,1.0,1.0,33.6,34.9,34.9,4.4,2.6,2.7975,-0.08915261648100818,0.0654046026667107,0.9871093504175209,0.008589691530845454,-0.077412,-23.613565
11.185,2.0,1.0,1.0,33.6,34.9,34.9,4.4,2.6,2.8,-0.10606633213371278,0.0653240884826723,0.9850783152743636,0.009605203080213334,-0.080525,-23.605637
11.185,2.0,1.0,1.0,33.6,34.9,34.9,4.4,2.6,2.8025,-0.12313592265898504,0.06542200802831177,0.9827030846079005,0.010660712518253623,-0.083895,-23.571706
11.185,2.0,1.0,1.0,33.6,34.9,34.9,4.4,2.6,2.805,-0.14037966125891357,0.06570561150492618,0.9799691096618781,0.01177127493338933,-0.087536,-23.510753
11.185,2.0,1.0,1.0,33.6,34.9,34.9,4.4,2.6,2.8075,-0.15781735877760464,0.06618494289426674,0.9768588665465767,0.012953643644549633,-0.091465,-23.421563
11.185,2.0,1.0,1.0,33.6,34.9,34.9,4.4,2.6,2.81,-0.17547091164852624,0.06687323391048745,0.9733513720027915,0.014226894580291824,-0.09571,-23.30271
11.185,2.0,1.0,1.0,33.6,34.9,34.9,4.4,2.6,2.8125,-0.193364964383418,0.0677874326174057,0.96942151615351,0.0156132029470109,-0.100307,-23.152526
11.185,2.0,1.0,1.0,33.6,34.9,34.9,4.4,2.6,2.815,-0.21152772754569385,0.06894890456644098,0.9650391532837295,0.01713883672531613,-0.105304,-22.969072
11.185,2.0,1.0,1.0,33.6,34.9,34.9,4.4,2.6,2.8175,-0.22999200646613904,0.07038435925721048,0.9601678639512123,0.018835458223425697,-0.110762,-22.750092
11.185,2.0,1.0,1.0,33.6,34.9,34.9,4.4,2.6,2.82,-0.24879651651256313,0.07212707588973609,0.954763260043151,0.02074186598326752,-0.116763,-22.492957
11.185,2.0,1.0,1.0,33.6,34.9,34.9,4.4,2.6,2.8225,-0.26798759045551973,0.07421853275083613,0.9487706401507273,0.022906373417107766,-0.123413,-22.1946
11.185,2.0,1.0,1.0,33.6,34.9,34.9,4.4,2.6,2.825,-0.28762142681382225,0.07671058865770902,0.9421217011862005,0.025390122430742467,-0.130853,-21.851418
11.185,2.0,1.0,1.0,33.6,34.9,34.9,4.4,2.6,2.8275,-0.30776709168305244,0.07966842942655078,0.9347298478801305,0.028271795891053192,-0.139271,-21.459155
11.185,2.0,1.0,1.0,33.6,34.9,34.9,4.4,2.6,2.83,-0.3285105802971782,0.08317458731806428,0.926483368470628,0.03165446890069341,-0.148922,-21.012739
