1,w,sub_t,h,l1,l2,l3,g1,g2,Freq,S11_re,S21_re,S11_img,S21_img,S11_dB,S21_dB
11.185,2.0,1.0,1.0,34.1,34.2,34.2,3.5,3.5,2.5,0.769867551606069,-0.00852294974341315,0.626957019070177,0.00433681109065003,-0.062239,-40.388229
11.185,2.0,1.0,1.0,34.1,34.2,34.2,3.5,3.5,2.5025,0.7651691584220346,-0.008678208462155595,0.6325682550735499,0.004325831129671839,-0.062877,-40.267607
11.185,2.0,1.0,1.0,34.1,34.2,34.2,3.5,3.5,2.505,0.760406401942727,-0.008836053386628712,0.6381702322984333,0.004313354770219339,-0.063526,-40.146595
11.185,2.0,1.0,1.0,34.1,34.2,34.2,3.5,3.5,2.5075,0.7555786399622398,-0.008996533463735934,0.6437624705073101,0.004299329710913772,-0.064186,-40.025182
11.185,2.0,1.0,1.0,34.1,34.2,34.2,3.5,3.5,2.51,0.7506852216728963,-0.00915969879612862,0.649344475634015,0.00428370178644201,-0.064859,-39.903359
11.185,2.0,1.0,1.0,34.1,34.2,34.2,3.5,3.5,2.5125,0.7457254875905033,-0.009325600675173303,0.6549157393655245,0.004266414892015509,-0.065545,-39.781117
11.185,2.0,1.0,1.0,34.1,34.2,34.2,3.5,3.5,2.515,0.7406987694813797,-0.009494291615053871,0.6604757387107392,0.0042474109043052774,-0.066242,-39.658447
11.185,2.0,1.0,1.0,34.1,34.2,34.2,3.5,3.5,2.5175,0.7356043902913418,-0.009665825388055322,0.6660239355557999,0.004226629598662674,-0.066953,-39.535338
11.185,2.0,1.0,1.0,34.1,34.2,34.2,3.5,3.5,2.52,0.7304416640767967,-0.009840257061079022,0.6715597762055019,0.004204008562423691,-0.067677,-39.41178
11.185,2.0,1.0,1.0,34.1,34.2,34.2,3.5,3.5,2.5225,0.725209895938151,-0.01001764303344097,0.6770826909103,0.00417948310408163,-0.068415,-39.287764
11.185,2.0,1.0,1.0,34.1,34.2,34.2,3.5,3.5,2.525,0.7199083819557068,-0.010198041076007835,0.6825920933784364,0.004152986158099471,-0.069166,-39.163278
11.185,2.0,1.0,1.0,34.1,34.2,34.2,3.5,3.5,2.5275,0.7145364091282513,-0.010381510371727957,0.6880873802726607,0.004124448185118706,-0.069932,-39.038312
11.185,2.0,1.0,1.0,34.1,34.2,34.2,3.5,3.5,2.53,0.7090932553145585,-0.010568111557617022,0.6935679306910059,0.004093797067305556,-0.070712,-38.912856
11.185,2.0,1.0,1.0,34.1,34.2,34.2,3.5,3.5,2.5325,0.703578189178015,-0.010757906768261702,0.6990331056310612,0.004060957998558676,-0.071508,-38.786899
11.185,2.0,1.0,1.0,34.1,34.2,34.2,3.5,3.5,2.535,0.6979904701346035,-0.010950959680907374,0.7044822474371625,0.0040258533692844566,-0.072318,-38.660429
11.185,2.0,1.0,1.0,34.1,34.2,34.2,3.5,3.5,2.5375,0.6923293483044972,-0.01114733556219916,0.7099146792298808,0.003988402645426411,-0.073145,-38.533435
11.185,2.0,1.0,1.0,34.1,34.2,34.2,3.5,3.5,2.54,0.6865940644675076,-0.011347101316649387,0.7153297043171838,0.003948522241414426,-0.073988,-38.405906
11.185,2.0,1.0,1.0,34.1,34.2,34.2,3.5,3.5,2.5425,0.6807838500226593,-0.011550325536908343,0.7207266055866042,0.0039061253866765782,-0.074847,-38.27783
11.185,2.0,1.0,1.0,34.1,34.2,34.2,3.5,3.5,2.545,0.6748979269521701,-0.011757078555918312,0.7261046448777204,0.0038611219853329696,-0.075723,-38.149194
11.185,2.0,1.0,1.0,34.1,34.2,34.2,3.5,3.5,2.5475,0.6689355077901377,-0.011967432501035907,0.7314630623342216,0.0038134184686637244,-0.076617,-38.019987
11.185,2.0,1.0,1.0,34.1,34.2,34.2,3.5,3.5,2.55,0.6628957955962189,-0.012181461350211581,0.7368010757348135,0.0037629176399158904,-0.077529,-37.890196
11.185,2.0,1.0,1.0,34.1,34.2,34.2,3.5,3.5,2.5525,0.6567779839346553,-0.012399240990319004,0.7421178798021467,0.003709518510983474,-0.078459,-37.759808
11.185,2.0,1.0,1.0,34.1,34.2,34.2,3.5,3.5,2.555,0.6505812568589475,-0.012620849277733348,0.7474126454889619,0.0036531161304614894,-0.079409,-37.62881
11.185,2.0,1.0,1.0,34.1,34.2,34.2,3.5,3.5,2.5575,0.6443047889025497,-0.012846366101260921,0.7526845192405648,0.003593601402540252,-0.080377,-37.497189
11.185,2.0,1.0,1.0,34.1,34.2,34.2,3.5,3.5,2.56,0.6379477450759464,-0.013075873447528488,0.7579326222327187,0.0035308608961670557,-0.081366,-37.364931
11.185,2.0,1.0,1.0,34.1,34.2,34.2,3.5,3.5,2.5625,0.631509280870496,-0.013309455468946015,0.7631560495839947,0.003464776643861278,-0.082375,-37.232022
11.185,2.0,1.0,1.0,34.1,34.2,34.2,3.5,3.5,2.565,0.6249885422694337,-0.013547198554362346,0.7683538695415737,0.0033952259295239435,-0.083406,-37.098448
11.185,2.0,1.0,1.0,34.1,34.2,34.2,3.5,3.5,2.5675,0.6183846657664693,-0.013789191402538823,0.7735251226394235,0.0033220810645342882,-0.084458,-36.964195
11.185,2.0,1.0,1.0,34.1,34.2,34.2,3.5,3.5,2.57,0.6116967783923997,-0.01403552509857283,0.7786688208277476,0.003245209151372735,-0.085533,-36.829247
11.185,2.0,1.0,1.0,34.1,34.2,34.2,3.5,3.5,2.5725,0.6049239977501997,-0.014286293193409065,0.7837839465725148,0.0031644718339528823,-0.08663,-36.693589
11.185,2.0,1.0,1.0,34.1,34.2,34.2,3.5,3.5,2.575,0.5980654320590674,-0.014541591786583334,0.7888694519238298,0.0030797250337828304,-0.087751,-36.557205
11.185,2.0,1.0,1.0,34.1,34.2,34.2,3.5,3.5,2.5775,0.5911201802079188,-0.014801519612350697,0.7939242575518202,0.002990818671008602,-0.088897,-36.420081
11.185,2.0,1.0,1.0,34.1,34.2,34.2,3.5,3.5,2.58,0.5840873318188531,-0.015066178129356891,0.798947251748655,0.002897596369319212,-0.090068,-36.282198
11.185,2.0,1.0,1.0,34.1,34.2,34.2,3.5,3.5,2.5825,0.5769659673211214,-0.015335671614019532,0.8039372893952194,0.002799895143612963,-0.091264,-36.14354
11.185,2.0,1.0,1.0,34.1,34.2,34.2,3.5,3.5,2.585,0.5697551580361736,-0.015610107257793224,0.8088931908908761,0.0026975450692377266,-0.092487,-36.00409
11.185,2.0,1.0,1.0,34.1,34.2,34.2,3.5,3.5,2.5875,0.5624539662743558,-0.015889595268500565,0.8138137410446671,0.002590368931523003,-0.093738,-35.86383
11.185,2.0,1.0,1.0,34.1,34.2,34.2,3.5,3.5,2.59,0.555061445443888,-0.01617424897591883,0.8186976879261768,0.0024781818542186284,-0.095017,-35.722742
11.185,2.0,1.0,1.0,34.1,34.2,34.2,3.5,3.5,2.5925,0.547576640172743,-0.016464184941820757,0.8235437416741954,0.0023607909053417,-0.096325,-35.580808
11.185,2.0,1.0,1.0,34.1,34.2,34.2,3.5,3.5,2.595,0.5399985864441122,-0.016759523074675056,0.8283505732611697,0.0022379946788106814,-0.097663,-35.438007
11.185,2.0,1.0,1.0,34.1,34.2,34.2,3.5,3.5,2.5975,0.5323263117461338,-0.017060386749221498,0.8331168132113222,0.0021095828501101477,-0.099033,-35.29432
11.185,2.0,1.0,1.0,34.1,34.2,34.2,3.5,3.5,2.6,0.524558835236614,-0.01736690293114257,0.8378410502701525,0.0019753357040830587,-0.100434,-35.149728
11.185,2.0,1.0,1.0,34.1,34.2,34.2,3.5,3.5,2.6025,0.5166951679235106,-0.017679202307061534,0.8425218300228835,0.0018350236327855606,-0.101868,-35.004208
11.185,2.0,1.0,1.0,34.1,34.2,34.2,3.5,3.5,2.605,0.5087343128619403,-0.017997419420104705,0.847157653459246,0.0016884066011621695,-0.103337,-34.85774
11.185,2.0,1.0,1.0,34.1,34.2,34.2,3.5,3.5,2.6075,0.5006752653685589,-0.0183216928112718,0.8517469754817999,0.001535233578105573,-0.104841,-34.710301
11.185,2.0,1.0,1.0,34.1,34.2,34.2,3.5,3.5,2.61,0.4925170132541601,-0.018652165166864697,0.8562882033547768,0.0013752419302515272,-0.106381,-34.56187
11.185,2.0,1.0,1.0,34.1,34.2,34.2,3.5,3.5,2.6125,0.48425853707539834,-0.018988983472230114,0.8607796950902165,0.0012081567756257088,-0.107959,-34.412421
11.185,2.0,1.0,1.0,34.1,34.2,34.2,3.5,3.5,2.615,0.47589881040656706,-0.019332299172075684,0.8652197577679034,0.0010336902940002552,-0.109576,-34.261931
11.185,2.0,1.0,1.0,34.1,34.2,34.2,3.5,3.5,2.6175,0.4674368001324318,-0.019682268337620455,0.8696066457853387,0.0008515409905357459,-0.111233,-34.110375
11.185,2.0,1.0,1.0,34.1,34.2,34.2,3.5,3.5,2.62,0.45887146676313884,-0.02003905184084164,0.8739385590336793,0.0006613929089695022,-0.112932,-33.957728
11.185,2.0,1.0,1.0,34.1,34.2,34.2,3.5,3.5,2.6225,0.4502017647722851,-0.020402815536077326,0.8782136409952463,0.0004629147902672357,-0.114674,-33.803963
11.185,2.0,1.0,1.0,34.1,34.2,34.2,3.5,3.5,2.625,0.441426642959305,-0.0207737304492376,0.882429976757822,0.000255759172273219,-0.116461,-33.649052
11.185,2.0,1.0,1.0,34.1,34.2,34.2,3.5,3.5,2.6275,0.43254504483734824,-0.021151972974869798,0.8865855909405571,3.956142547227938e-05,-0.118295,-33.492967
11.185,2.0,1.0,1.0,34.1,34.2,34.2,3.5,3.5,2.63,0.423555909047943,-0.021537725081306726,0.8906784455258563,-0.0001860612804888187,-0.120176,-33.335679
11.185,2.0,1.0,1.0,34.1,34.2,34.2,3.5,3.5,2.6325,0.41445816980376904,-0.02193117452410838,0.8947064375910992,-0.0004215110853907629,-0.122108,-33.177158
11.185,2.0,1.0,1.0,34.1,34.2,34.2,3.5,3.5,2.635,0.40525075736097554,-0.022332515067979807,0.8986673969335116,-0.000667210628584499,-0.124091,-33.017373
11.185,2.0,1.0,1.0,34.1,34.2,34.2,3.5,3.5,2.6375,0.3959325985225615,-0.02274194671731228,0.9025590835808642,-0.0009236043277667725,-0.126128,-32.85629
11.185,2.0,1.0,1.0,34.1,34.2,34.2,3.5,3.5,2.64,0.3865026171744192,-0.023159675955449818,0.9063791851800167,-0.001191159754175574,-0.128221,-32.693877
11.185,2.0,1.0,1.0,34.1,34.2,34.2,3.5,3.5,2.6425,0.3769597348558002,-0.023585915992723788,0.9101253142545218,-0.0014703691127787672,-0.130372,-32.530099
11.185,2.0,1.0,1.0,34.1,34.2,34.2,3.5,3.5,2.645,0.36730287136605094,-0.02402088702322582,0.9137950053216883,-0.0017617508369066985,-0.132584,-32.364921
11.185,2.0,1.0,1.0,34.1,34.2,34.2,3.5,3.5,2.6475,0.35753094540964875,-0.024464816490197792,0.9173857118585113,-0.002065851307757317,-0.134858,-32.198304
11.185,2.0,1.0,1.0,34.1,34.2,34.2,3.5,3.5,2.65,0.3476428752817049,-0.024917939359806848,0.9208948031048474,-0.002383246710294763,-0.137198,-32.03021
11.185,2.0,1.0,1.0,34.1,34.2,34.2,3.5,3.5,2.6525,0.3376375795963574,-0.025380498402931526,0.9243195606909833,-0.002714545038281925,-0.139606,-31.860599
11.185,2.0,1.0,1.0,34.1,34.2,34.2,3.5,3.5,2.655,0.3275139780606296,-0.02585274448442048,0.9276571750754365,-0.0030603882625561594,-0.142084,-31.689431
11.185,2.0,1.0,1.0,34.1,34.2,34.2,3.5,3.5,2.6575,0.31727099229666406,-0.026334936859075578,0.9309047417773075,-0.003421454678187453,-0.144637,-31.51666
11.185,2.0,1.0,1.0,34.1,34.2,34.2,3.5,3.5,2.66,0.30690754671551296,-0.026827343473362138,0.9340592573858251,-0.003798461447877822,-0.147267,-31.342243
11.185,2.0,1.0,1.0,34.1,34.2,34.2,3.5,3.5,2.6625,0.2964225694460473,-0.02733024127154541,0.9371176153278147,-0.0041921673608929285,-0.149978,-31.166132
11.185,2.0,1.0,1.0,34.1,34.2,34.2,3.5,3.5,2.665,0.28581499332295585,-0.027843916504584242,0.9400766013717019,-0.00460337582899006,-0.152773,-30.98828
11.185,2.0,1.0,1.0,34.1,34.2,34.2,3.5,3.5,2.6675,0.2750837569383334,-0.028368665039668874,0.942932888844215,-0.005032938143255549,-0.155656,-30.808635
11.185,2.0,1.0,1.0,34.1,34.2,34.2,3.5,3.5,2.67,0.2642278057619249,-0.028904792667754392,0.9456830335332609,-0.005481757018529161,-0.158632,-30.627145
11.185,2.0,1.0,1.0,34.1,34.2,34.2,3.5,3.5,2.6725,0.25324609333579606,-0.029452615405794486,0.9483234682473322,-0.005950790455215146,-0.161704,-30.443755
11.185,2.0,1.0,1.0,34.1,34.2,34.2,3.5,3.5,2.675,0.24213758255005477,-0.030012459789600435,0.9508504969983218,-0.006441055951812634,-0.164877,-30.258408
11.185,2.0,1.0,1.0,34.1,34.2,34.2,3.5,3.5,2.6775,0.23090124700720907,-0.030584663152312504,0.9532602887706484,-0.006953635105503526,-0.168156,-30.071044
11.185,2.0,1.0,1.0,34.1,34.2,34.2,3.5,3.5,2.68,0.21953607248393123,-0.03116957388233913,0.9555488708350989,-0.007489678642680426,-0.171547,-29.8816
11.185,2.0,1.0,1.0,34.1,34.2,34.2,3.5,3.5,2.6825,0.20804105850042587,-0.03176755165325508,0.9577121215606403,-0.008050411926462562,-0.175055,-29.690012
11.185,2.0,1.0,1.0,34.1,34.2,34.2,3.5,3.5,2.685,0.196415220009238,-0.03237896761650742,0.9597457626716461,-0.008637140994130826,-0.178686,-29.496211
11.185,2.0,1.0,1.0,34.1,34.2,34.2,3.5,3.5,2.6875,0.184657589217393,-0.0330042045457943,0.961645350891275,-0.00925125918411775,-0.182447,-29.300127
11.185,2.0,1.0,1.0,34.1,34.2,34.2,3.5,3.5,2.69,0.17276721755816146,-0.033643656919588184,0.9634062689041336,-0.009894254419848907,-0.186344,-29.101684
11.185,2.0,1.0,1.0,34.1,34.2,34.2,3.5,3.5,2.6925,0.16074317783163491,-0.03429773092538484,0.9650237155626276,-0.010567717226496028,-0.190385,-28.900804
11.185,2.0,1.0,1.0,34.1,34.2,34.2,3.5,3.5,2.695,0.14858456653685356,-0.03496684436576072,0.966492695251375,-0.011273349566741024,-0.194578,-28.697407
11.185,2.0,1.0,1.0,34.1,34.2,34.2,3.5,3.5,2.6975,0.13629050642238164,-0.03565142644209017,0.967808006312579,-0.012012974593180459,-0.198932,-28.491405
11.185,2.0,1.0,1.0,34.1,34.2,34.2,3.5,3.5,2.7,0.12386014928743573,-0.03635191738663937,0.9689642284220144,-0.012788547428250398,-0.203456,-28.28271
11.185,2.0,1.0,1.0,34.1,34.2,34.2,3.5,3.5,2.7025,0.11129267907178664,-0.03706876790752486,0.9699557087900311,-0.013602167097821671,-0.208159,-28.071225
11.185,2.0,1.0,1.0,34.1,34.2,34.2,3.5,3.5,2.705,0.0985873152802588,-0.03780243840344821,0.9707765470443954,-0.01445608976223004,-0.213053,-27.856853
11.185,2.0,1.0,1.0,34.1,34.2,34.2,3.5,3.5,2.7075,0.08574331679675623,-0.038553397895892426,0.9714205786314144,-0.015352743408873347,-0.21815,-27.639489
11.185,2.0,1.0,1.0,34.1,34.2,34.2,3.5,3.5,2.71,0.07275998615396523,-0.03932212261520663,0.971881356548225,-0.016294744194090587,-0.223462,-27.419022
11.185,2.0,1.0,1.0,34.1,34.2,34.2,3.5,3.5,2.7125,0.05963667433847669,-0.040109094163246053,0.9721521311917563,-0.01728491464940277,-0.229003,-27.195337
11.185,2.0,1.0,1.0,34.1,34.2,34.2,3.5,3.5,2.715,0.04637278622783864,-0.040914797158372866,0.9722258280780757,-0.018326303998999444,-0.234788,-26.968312
11.185,2.0,1.0,1.0,34.1,34.2,34.2,3.5,3.5,2.7175,0.032967786776508315,-0.041739716247929576,0.9720950231487689,-0.019422210872391876,-0.240833,-26.737817
11.185,2.0,1.0,1.0,34.1,34.2,34.2,3.5,3.5,2.72,0.01942120809296027,-0.04258433234782629,0.9717519153377938,-0.020576208739358073,-0.247158,-26.503717
11.185,2.0,1.0,1.0,34.1,34.2,34.2,3.5,3.5,2.7225,0.005732657581258063,-0.04344911793747385,0.9711882960217242,-0.02179217444480364,-0.25378,-26.265869
11.185,2.0,1.0,1.0,34.1,34.2,34.2,3.5,3.5,2.725,-0.008098172641010025,-0.04433453119944223,0.9703955149171712,-0.0230743202802757,-0.260722,-26.024119
11.185,2.0,1.0,1.0,34.1,34.2,34.2,3.5,3.5,2.7275,-0.022071494788928454,-0.045241008745060034,0.9693644419197907,-0.024427230098212214,-0.268007,-25.778308
11.185,2.0,1.0,1.0,34.1,34.2,34.2,3.5,3.5,2.73,-0.036187412601614774,-0.046168956607268316,0.9680854242978327,-0.02585590005645668,-0.275662,-25.528264
11.185,2.0,1.0,1.0,34.1,34.2,34.2,3.5,3.5,2.7325,-0.050445906285834625,-0.04711873910734956,0.9665482385573007,-0.027365784676425395,-0.283715,-25.273808
11.185,2.0,1.0,1.0,34.1,34.2,34.2,3.5,3.5,2.735,-0.06484681472630205,-0.048090665108704744,0.9647420361828599,-0.028962849011254524,-0.292198,-25.014746
11.185,2.0,1.0,1.0,34.1,34.2,34.2,3.5,3.5,2.7375,-0.07938981436089285,-0.049084971053586,0.9626552823253638,-0.030653627853538364,-0.301147,-24.750875
11.185,2.0,1.0,1.0,34.1,34.2,34.2,3.5,3.5,2.74,-0.09407439397259283,-0.05010180003103096,0.9602756863494752,-0.03244529306970353,-0.310599,-24.481979
11.185,2.0,1.0,1.0,34.1,34.2,34.2,3.5,3.5,2.7425,-0.10889982446508269,-0.051141175937673915,0.9575901229687965,-0.03434573033421596,-0.3206,-24.207826
11.185,2.0,1.0,1.0,34.1,34.2,34.2,3.5,3.5,2.745,-0.12386512245422895,-0.05220297155651328,0.9545845424758617,-0.03636362675701413,-0.331198,-23.92817
11.185,2.0,1.0,1.0,34.1,34.2,34.2,3.5,3.5,2.7475,-0.13896900620918312,-0.053286869077570596,0.9512438683140315,-0.03850857115807137,-0.342447,-23.64275
11.185,2.0,1.0,1.0,34.1,34.2,34.2,3.5,3.5,2.75,-0.154209842095179,-0.0543923111995718,0.9475518799306,-0.0407911690510212,-0.354409,-23.351284
11.185,2.0,1.0,1.0,34.1,34.2,34.2,3.5,3.5,2.7525,-0.1695855791805487,-0.05551844045811853,0.9434910784870406,-0.043223174761539904,-0.367154,-23.053474
11.185,2.0,1.0,1.0,34.1,34.2,34.2,3.5,3.5,2.755,-0.18509366903973387,-0.05666402378986739,0.9390425325742574,-0.045817643534740445,-0.380758,-22.748999
11.185,2.0,1.0,1.0,34.1,34.2,34.2,3.5,3.5,2.7575,-0.20073096696812615,-0.057827358519520936,0.9341857005783195,-0.048589106988856295,-0.395312,-22.437516
11.185,2.0,1.0,1.0,34.1,34.2,34.2,3.5,3.5,2.76,-0.21649360976418006,-0.059006154887437885,0.9288982257558801,-0.05155377585948913,-0.410916,-22.118657
11.185,2.0,1.0,1.0,34.1,34.2,34.2,3.5,3.5,2.7625,-0.23237686385042583,-0.060197388840511505,0.9231556994001272,-0.05472977465786103,-0.427685,-21.792028
11.185,2.0,1.0,1.0,34.1,34.2,34.2,3.5,3.5,2.765,-0.24837493569058386,-0.061397116979847566,0.9169313867031796,-0.058137413642229345,-0.445753,-21.457204
11.185,2.0,1.0,1.0,34.1,34.2,34.2,3.5,3.5,2.7675,-0.26448073407030415,-0.06260024314976885,0.9101959090524501,-0.06179950437057996,-0.46527,-21.11373
11.185,2.0,1.0,1.0,34.1,34.2,34.2,3.5,3.5,2.77,-0.28068557064729915,-0.06380022296539241,0.9029168755543417,-0.06574172604687044,-0.486415,-20.761116
11.185,2.0,1.0,1.0,34.1,34.2,34.2,3.5,3.5,2.7725,-0.2969787809742637,-0.06498868833989954,0.8950584556024933,-0.06999305084809797,-0.50939,-20.398834
11.185,2.0,1.0,1.0,34.1,34.2,34.2,3.5,3.5,2.775,-0.31334724258798174,-0.06615496841762511,0.8865808833885136,-0.07458623733530947,-0.534435,-20.026317
11.185,2.0,1.0,1.0,34.1,34.2,34.2,3.5,3.5,2.7775,-0.3297747592373249,-0.06728547573825742,0.8774398845569363,-0.07955840174048179,-0.56183,-19.642952
11.185,2.0,1.0,1.0,34.1,34.2,34.2,3.5,3.5,2.78,-0.3462412702018711,-0.06836291625576224,0.8675860150288062,-0.08495167708410724,-0.591905,-19.248081
11.185,2.0,1.0,1.0,34.1,34.2,34.2,3.5,3.5,2.7825,-0.3627218299874107,-0.06936526806163,0.856963902872894,-0.09081396919747001,-0.62505,-18.840995
11.185,2.0,1.0,1.0,34.1,34.2,34.2,3.5,3.5,2.785,-0.37918528518745004,-0.07026445501836016,0.8455113868638975,-0.09719981591696666,-0.661732,-18.420932
11.185,2.0,1.0,1.0,34.1,34.2,34.2,3.5,3.5,2.7875,-0.3955925502297107,-0.0710246162414906,0.8331585515066802,-0.10417134949873574,-0.702508,-17.987076
11.185,2.0,1.0,1.0,34.1,34.2,34.2,3.5,3.5,2.79,-0.4118943497648023,-0.07159983814035967,0.8198266702909222,-0.11179935018218515,-0.748052,-17.538553
11.185,2.0,1.0,1.0,34.1,34.2,34.2,3.5,3.5,2.7925,-0.4280282495913001,-0.07193116950789004,0.8054270908821275,-0.12016435666465332,-0.799179,-17.074434
11.185,2.0,1.0,1.0,34.1,34.2,34.2,3.5,3.5,2.795,-0.44391473652459523,-0.0719426781883132,0.7898601346786853,-0.1293577601523049,-0.856889,-16.593739
11.185,2.0,1.0,1.0,34.1,34.2,34.2,3.5,3.5,2.7975,-0.4594520263100377,-0.0715362259252003,0.7730141499666955,-0.13948274123341314,-0.92241,-16.095442
11.185,2.0,1.0,1.0,34.1,34.2,34.2,3.5,3.5,2.8,-0.4745091737945358,-0.07058453231982881,0.7547649713866407,-0.15065479432282505,-0.997262,-15.578489
11.185,2.0,1.0,1.0,34.1,34.2,34.2,3.5,3.5,2.8025,-0.48891693022028493,-0.06892196853675064,0.7349762289836832,-0.16300139220641835,-1.083344,-15.041825
11.185,2.0,1.0,1.0,34.1,34.2,34.2,3.5,3.5,2.805,-0.5024556464653971,-0.066332374344243,0.7135012667457886,-0.17666002387562402,-1.18304,-14.484433
11.185,2.0,1.0,1.0,34.1,34.2,34.2,3.5,3.5,2.8075,-0.5148393875662218,-0.06253305778875133,0.6901879504051454,-0.19177331460479008,-1.299363,-13.905402
11.185,2.0,1.0,1.0,34.1,34.2,34.2,3.5,3.5,2.81,-0.5256953806094177,-0.057154093663710895,0.6648884839169795,-0.20847909064776504,-1.436141,-13.304031
11.185,2.0,1.0,1.0,34.1,34.2,34.2,3.5,3.5,2.8125,-0.534538145590516,-0.0497122670134857,0.637477675835223,-0.226891918381427,-1.598256,-12.679985
11.185,2.0,1.0,1.0,34.1,34.2,34.2,3.5,3.5,2.815,-0.5407385437791583,-0.03957990114451043,0.6078850897029494,-0.24707063893050427,-1.791929,-12.03353
11.185,2.0,1.0,1.0,34.1,34.2,34.2,3.5,3.5,2.8175,-0.5434902927412671,-0.02595114458889103,0.5761492883754152,-0.26896362193970086,-2.025042,-11.365886
11.185,2.0,1.0,1.0,34.1,34.2,34.2,3.5,3.5,2.82,-0.5417816586142553,-0.007813496766010435,0.5425056465549548,-0.29232017366978386,-2.307411,-10.679723
11.185,2.0,1.0,1.0,34.1,34.2,34.2,3.5,3.5,2.8225,-0.5343903143687162,0.016057284679266294,0.5075214140810985,-0.31655431338210815,-2.650794,-9.979875
11.185,2.0,1.0,1.0,34.1,34.2,34.2,3.5,3.5,2.825,-0.5199374313606729,0.04704252735432683,0.4722882741798863,-0.34055060734261033,-3.068086,-9.274277
11.185,2.0,1.0,1.0,34.1,34.2,34.2,3.5,3.5,2.8275,-0.4970632124316176,0.08650352616024701,0.43866307693616974,-0.3624214863845418,-3.57044,-8.575098
