1,w,sub_t,h,l1,l2,l3,g1,g2,Freq,S11_re,S21_re,S11_img,S21_img,S11_dB,S21_dB
11.185,2.0,1.0,1.0,34.4,34.9,34.9,3.3,2.5,2.5,0.715232623402767,-0.0151582130504205,0.686113065841687,0.00763962280012734,-0.077519,-35.404036
11.185,2.0,1.0,1.0,34.4,34.9,34.9,3.3,2.5,2.5025,0.7096444815044485,-0.015471367908929562,0.6917267713416966,0.0076313055553004,-0.078526,-35.26367
11.185,2.0,1.0,1.0,34.4,34.9,34.9,3.3,2.5,2.505,0.7039793776629564,-0.01579146513466138,0.6973243908791472,0.00762028115516502,-0.079556,-35.12241
11.185,2.0,1.0,1.0,34.4,34.9,34.9,3.3,2.5,2.5075,0.6982364234899923,-0.016118706877570024,0.7029052034463373,0.007606422729531695,-0.080611,-34.980233
11.185,2.0,1.0,1.0,34.4,34.9,34.9,3.3,2.5,2.51,0.6924147147175957,-0.016453303252173562,0.7084684651367782,0.00758959704736275,-0.081691,-34.837117
11.185,2.0,1.0,1.0,34.4,34.9,34.9,3.3,2.5,2.5125,0.6865133307861584,-0.01679547273812182,0.7140134082988943,0.007569664137565513,-0.082798,-34.693039
11.185,2.0,1.0,1.0,34.4,34.9,34.9,3.3,2.5,2.515,0.6805313344126095,-0.01714544260528895,0.7195392406499234,0.0075464768829361165,-0.083931,-34.547974
11.185,2.0,1.0,1.0,34.4,34.9,34.9,3.3,2.5,2.5175,0.674467771137304,-0.01750344936515159,0.7250451443474165,0.007519880585031045,-0.085093,-34.401899
11.185,2.0,1.0,1.0,34.4,34.9,34.9,3.3,2.5,2.52,0.6683216688479697,-0.017869739250355218,0.7305302750155579,0.007489712497532941,-0.086284,-34.254787
11.185,2.0,1.0,1.0,34.4,34.9,34.9,3.3,2.5,2.5225,0.662092037278969,-0.01824456872452953,0.7359937607232317,0.007455801325442937,-0.087506,-34.106612
11.185,2.0,1.0,1.0,34.4,34.9,34.9,3.3,2.5,2.525,0.6557778674839252,-0.018628205024584087,0.741434700910542,0.007417966687173591,-0.088759,-33.957348
11.185,2.0,1.0,1.0,34.4,34.9,34.9,3.3,2.5,2.5275,0.6493781312796194,-0.019020926737903544,0.7468521652601604,0.007376018536328157,-0.090044,-33.806966
11.185,2.0,1.0,1.0,34.4,34.9,34.9,3.3,2.5,2.53,0.6428917806588627,-0.01942302441706453,0.7522451925095534,0.0073297565396336405,-0.091363,-33.655437
11.185,2.0,1.0,1.0,34.4,34.9,34.9,3.3,2.5,2.5325,0.6363177471698297,-0.019834801234921824,0.757612789199775,0.007278969407139225,-0.092717,-33.502732
11.185,2.0,1.0,1.0,34.4,34.9,34.9,3.3,2.5,2.535,0.6296549412591054,-0.02025657368315518,0.7629539283561038,0.007223434170397486,-0.094107,-33.348819
11.185,2.0,1.0,1.0,34.4,34.9,34.9,3.3,2.5,2.5375,0.6229022515754588,-0.02068867231763707,0.7682675480953398,0.007162915403904063,-0.095536,-33.193667
11.185,2.0,1.0,1.0,34.4,34.9,34.9,3.3,2.5,2.54,0.6160585442310471,-0.021131442554274293,0.7735525501540776,0.0070971643845815805,-0.097004,-33.037244
11.185,2.0,1.0,1.0,34.4,34.9,34.9,3.3,2.5,2.5425,0.6091226620164614,-0.021585245519301934,0.7788077983317098,0.007025918183541846,-0.098512,-32.879514
11.185,2.0,1.0,1.0,34.4,34.9,34.9,3.3,2.5,2.545,0.6020934235656746,-0.02205045895835761,0.7840321168412651,0.006948898683747271,-0.100064,-32.720442
11.185,2.0,1.0,1.0,34.4,34.9,34.9,3.3,2.5,2.5475,0.594969622466587,-0.022527478209056796,0.7892242885605,0.006865811516505078,-0.10166,-32.559993
11.185,2.0,1.0,1.0,34.4,34.9,34.9,3.3,2.5,2.55,0.5877500263124126,-0.023016717242215306,0.7943830531748592,0.0067763449089515496,-0.103302,-32.398127
11.185,2.0,1.0,1.0,34.4,34.9,34.9,3.3,2.5,2.5525,0.58043337568875,-0.023518609777334068,0.7995071052030229,0.0066801684338205335,-0.104992,-32.234807
11.185,2.0,1.0,1.0,34.4,34.9,34.9,3.3,2.5,2.555,0.5730183830906062,-0.024033610478479184,0.8045950918947822,0.006576931651811008,-0.106733,-32.06999
11.185,2.0,1.0,1.0,34.4,34.9,34.9,3.3,2.5,2.5575,0.5655037317631286,-0.024562196237260102,0.809645610989838,0.006466262635770842,-0.108527,-31.903635
11.185,2.0,1.0,1.0,34.4,34.9,34.9,3.3,2.5,2.56,0.5578880744591664,-0.02510486755023176,0.8146572083248587,0.006347766364673527,-0.110375,-31.735698
11.185,2.0,1.0,1.0,34.4,34.9,34.9,3.3,2.5,2.5625,0.550170032106097,-0.0256621499987411,0.819628375274701,0.00622102297396331,-0.112281,-31.566133
11.185,2.0,1.0,1.0,34.4,34.9,34.9,3.3,2.5,2.565,0.5423481923735887,-0.026234595839997536,0.8245575460120829,0.006085585847259297,-0.114247,-31.394893
11.185,2.0,1.0,1.0,34.4,34.9,34.9,3.3,2.5,2.5675,0.5344211081331656,-0.026822785718985723,0.8294430945681491,0.005940979532612918,-0.116276,-31.221928
11.185,2.0,1.0,1.0,34.4,34.9,34.9,3.3,2.5,2.57,0.5263872957994711,-0.02742733051176795,0.8342833316743151,0.005786697464474064,-0.118371,-31.047187
11.185,2.0,1.0,1.0,34.4,34.9,34.9,3.3,2.5,2.5725,0.5182452335421376,-0.028048873311743553,0.8390765013633878,0.005622199470202957,-0.120535,-30.870618
11.185,2.0,1.0,1.0,34.4,34.9,34.9,3.3,2.5,2.575,0.509993359356025,-0.028688091571563018,0.8438207773052846,0.005446909037327531,-0.122771,-30.692163
11.185,2.0,1.0,1.0,34.4,34.9,34.9,3.3,2.5,2.5775,0.5016300689763356,-0.02934569941463904,0.8485142588495995,0.005260210314731505,-0.125084,-30.511765
11.185,2.0,1.0,1.0,34.4,34.9,34.9,3.3,2.5,2.58,0.493153713623739,-0.030022450131574386,0.8531549667437599,0.0050614448175226485,-0.127477,-30.329363
11.185,2.0,1.0,1.0,34.4,34.9,34.9,3.3,2.5,2.5825,0.48456259756308684,-0.030719138878344036,0.8577408384915091,0.004849907801387666,-0.129954,-30.144895
11.185,2.0,1.0,1.0,34.4,34.9,34.9,3.3,2.5,2.585,0.47585497545762445,-0.03143660559474621,0.8622697233118479,0.004624844267727085,-0.13252,-29.958294
11.185,2.0,1.0,1.0,34.4,34.9,34.9,3.3,2.5,2.5875,0.4670290494987133,-0.03217573816348507,0.8667393766532933,0.0043854445556707426,-0.135179,-29.769492
11.185,2.0,1.0,1.0,34.4,34.9,34.9,3.3,2.5,2.59,0.4580829662890305,-0.03293747583228712,0.8711474542122006,0.004130839471101489,-0.137937,-29.578416
11.185,2.0,1.0,1.0,34.4,34.9,34.9,3.3,2.5,2.5925,0.449014813454897,-0.033722812923699136,0.8754915053969405,0.0038600948959202786,-0.140799,-29.384991
11.185,2.0,1.0,1.0,34.4,34.9,34.9,3.3,2.5,2.595,0.4398226159609209,-0.03453280285968124,0.8797689661715307,0.0035722058128200935,-0.143771,-29.189138
11.185,2.0,1.0,1.0,34.4,34.9,34.9,3.3,2.5,2.5975,0.43050433209730665,-0.035368562530825855,0.8839771512030203,0.0032660896716069075,-0.14686,-28.990774
11.185,2.0,1.0,1.0,34.4,34.9,34.9,3.3,2.5,2.6,0.4210578491072091,-0.03623127704299765,0.8881132452259568,0.0029405790123921637,-0.150072,-28.789813
11.185,2.0,1.0,1.0,34.4,34.9,34.9,3.3,2.5,2.6025,0.41148097841815523,-0.037122204877438225,0.8921742935246222,0.0025944132485196283,-0.153415,-28.586164
11.185,2.0,1.0,1.0,34.4,34.9,34.9,3.3,2.5,2.605,0.4017714504379265,-0.03804268350390961,0.8961571914189281,0.0022262294975541387,-0.156897,-28.37973
11.185,2.0,1.0,1.0,34.4,34.9,34.9,3.3,2.5,2.6075,0.391926908871382,-0.03899413549027733,0.9000586726225895,0.0018345523316781946,-0.160526,-28.170412
11.185,2.0,1.0,1.0,34.4,34.9,34.9,3.3,2.5,2.61,0.3819449045104439,-0.039978075156050716,0.9038752963219409,0.0014177822989401695,-0.164312,-27.958104
11.185,2.0,1.0,1.0,34.4,34.9,34.9,3.3,2.5,2.6125,0.37182288844491906,-0.040996115821800294,0.9076034328000042,0.0009741830434305586,-0.168266,-27.742694
11.185,2.0,1.0,1.0,34.4,34.9,34.9,3.3,2.5,2.615,0.36155820463700533,-0.04204997771101863,0.9112392474024384,0.0005018668249454027,-0.172399,-27.524066
11.185,2.0,1.0,1.0,34.4,34.9,34.9,3.3,2.5,2.6175,0.35114808179732415,-0.04314149656583155,0.9147786826089171,-1.2217937798686643e-06,-0.176722,-27.302096
11.185,2.0,1.0,1.0,34.4,34.9,34.9,3.3,2.5,2.62,0.34058962449510904,-0.044272633042915024,0.9182174379344464,-0.0005373243626297494,-0.18125,-27.076653
11.185,2.0,1.0,1.0,34.4,34.9,34.9,3.3,2.5,2.6225,0.3298798034300423,-0.04544548296086917,0.9215509473386857,-0.0011088893784470233,-0.185997,-26.847601
11.185,2.0,1.0,1.0,34.4,34.9,34.9,3.3,2.5,2.625,0.319015444788308,-0.0466622884749497,0.92477435376611,-0.00171859590843165,-0.190978,-26.614792
11.185,2.0,1.0,1.0,34.4,34.9,34.9,3.3,2.5,2.6275,0.3079932186009781,-0.047925450259137824,0.9278824803739495,-0.002369380437694801,-0.196213,-26.378074
11.185,2.0,1.0,1.0,34.4,34.9,34.9,3.3,2.5,2.63,0.2968096260194506,-0.04923754077858466,0.9308697979259163,-0.0030644674536405947,-0.20172,-26.137282
11.185,2.0,1.0,1.0,34.4,34.9,34.9,3.3,2.5,2.6325,0.2854609854208292,-0.05060131873686989,0.9337303877349773,-0.0038074043729993197,-0.20752,-25.892245
11.185,2.0,1.0,1.0,34.4,34.9,34.9,3.3,2.5,2.635,0.2739434172568272,-0.05201974478135098,0.9364578994243077,-0.004602101529528337,-0.213638,-25.642777
11.185,2.0,1.0,1.0,34.4,34.9,34.9,3.3,2.5,2.6375,0.2622528275642991,-0.05349599854487507,0.9390455026376648,-0.005452878075948246,-0.2201,-25.388684
11.185,2.0,1.0,1.0,34.4,34.9,34.9,3.3,2.5,2.64,0.2503848900655318,-0.05503349709151801,0.941485831663264,-0.006364514817993622,-0.226934,-25.129758
11.185,2.0,1.0,1.0,34.4,34.9,34.9,3.3,2.5,2.6425,0.23833502680462923,-0.0566359148152863,0.9437709217319535,-0.007342315198267386,-0.234175,-24.865778
11.185,2.0,1.0,1.0,34.4,34.9,34.9,3.3,2.5,2.645,0.22609838729600443,-0.058307204810426935,0.9458921355023859,-0.00839217589141855,-0.241858,-24.596507
11.185,2.0,1.0,1.0,34.4,34.9,34.9,3.3,2.5,2.6475,0.213669826207186,-0.060051621685269535,0.9478400779421415,-0.009520668770682014,-0.250024,-24.321693
11.185,2.0,1.0,1.0,34.4,34.9,34.9,3.3,2.5,2.65,0.20104387966753426,-0.06187374572160489,0.9496044974405232,-0.0107351363725841,-0.25872,-24.041067
11.185,2.0,1.0,1.0,34.4,34.9,34.9,3.3,2.5,2.6525,0.18821474039684857,-0.06377850817898628,0.9511741705285218,-0.012043803438789155,-0.267996,-23.754342
11.185,2.0,1.0,1.0,34.4,34.9,34.9,3.3,2.5,2.655,0.17517623199626933,-0.06577121739474545,0.9525367670121094,-0.013455907673455966,-0.277911,-23.461207
11.185,2.0,1.0,1.0,34.4,34.9,34.9,3.3,2.5,2.6575,0.1619217829577226,-0.06785758511716052,0.9536786916180444,-0.01498185354891996,-0.288533,-23.161331
11.185,2.0,1.0,1.0,34.4,34.9,34.9,3.3,2.5,2.66,0.14844440125377634,-0.07004375220470065,0.9545848973706187,-0.016633393857560116,-0.299936,-22.854358
11.185,2.0,1.0,1.0,34.4,34.9,34.9,3.3,2.5,2.6625,0.13473665080523517,-0.07233631239107065,0.9552386648169457,-0.018423844788793237,-0.312207,-22.539904
11.185,2.0,1.0,1.0,34.4,34.9,34.9,3.3,2.5,2.665,0.12079063174304745,-0.07474233220056117,0.9556213398378847,-0.02036834166549661,-0.325445,-22.217557
11.185,2.0,1.0,1.0,34.4,34.9,34.9,3.3,2.5,2.6675,0.10659796726140432,-0.07726936422463392,0.9557120210457237,-0.02248414417824735,-0.339763,-21.88687
11.185,2.0,1.0,1.0,34.4,34.9,34.9,3.3,2.5,2.67,0.09214980111115549,-0.0799254497291047,0.9554871855809354,-0.02479100210378778,-0.355295,-21.547363
11.185,2.0,1.0,1.0,34.4,34.9,34.9,3.3,2.5,2.6725,0.07743681156748801,-0.08271910479327536,0.9549202393550486,-0.027311595207130376,-0.372192,-21.198513
11.185,2.0,1.0,1.0,34.4,34.9,34.9,3.3,2.5,2.675,0.06244925025640675,-0.08565928165776349,0.9539809742883273,-0.030072064457738874,-0.390635,-20.839757
11.185,2.0,1.0,1.0,34.4,34.9,34.9,3.3,2.5,2.6775,0.047177017881673354,-0.08875529334032403,0.95263491066408,-0.033102656030267255,-0.410832,-20.470484
11.185,2.0,1.0,1.0,34.4,34.9,34.9,3.3,2.5,2.68,0.03160979415887198,-0.09201668437447202,0.9508424971261388,-0.03643850504322361,-0.433031,-20.090029
11.185,2.0,1.0,1.0,34.4,34.9,34.9,3.3,2.5,2.6825,0.01573724687718831,-0.09545302300370806,0.9485581337979005,-0.040120592891509155,-0.457526,-19.697671
11.185,2.0,1.0,1.0,34.4,34.9,34.9,3.3,2.5,2.685,-0.00045064392527543887,-0.09907357923854503,0.9457289751817187,-0.04419692065989952,-0.484665,-19.292626
11.185,2.0,1.0,1.0,34.4,34.9,34.9,3.3,2.5,2.6875,-0.0169630945217335,-0.1028868372308,0.942293458589449,-0.0487239517690813,-0.514869,-18.874042
11.185,2.0,1.0,1.0,34.4,34.9,34.9,3.3,2.5,2.69,-0.03380778289916729,-0.10689976700093713,0.9381794906306548,-0.05376838991775433,-0.548645,-18.440994
11.185,2.0,1.0,1.0,34.4,34.9,34.9,3.3,2.5,2.6925,-0.050989760052128685,-0.11111674599190156,0.9333022087968108,-0.059409373476077595,-0.58661,-17.992478
11.185,2.0,1.0,1.0,34.4,34.9,34.9,3.3,2.5,2.695,-0.06850984419194393,-0.11553796965774582,0.9275612181576292,-0.06574118401568778,-0.629521,-17.527407
11.185,2.0,1.0,1.0,34.4,34.9,34.9,3.3,2.5,2.6975,-0.08636225735534504,-0.12015711392627079,0.9208371868318498,-0.07287658242610702,-0.67831,-17.044609
11.185,2.0,1.0,1.0,34.4,34.9,34.9,3.3,2.5,2.7,-0.10453114796944793,-0.12495789825756762,0.9129876734543514,-0.08095089585179145,-0.734141,-16.542828
11.185,2.0,1.0,1.0,34.4,34.9,34.9,3.3,2.5,2.7025,-0.12298546943306467,-0.1299090273269463,0.9038420666708409,-0.09012697125211476,-0.798475,-16.020734
11.185,2.0,1.0,1.0,34.4,34.9,34.9,3.3,2.5,2.705,-0.14167142573411012,-0.13495673466367214,0.893195564055154,-0.1006010636892938,-0.873162,-15.476937
11.185,2.0,1.0,1.0,34.4,34.9,34.9,3.3,2.5,2.7075,-0.16050131144967916,-0.1400137746083158,0.8808022522222799,-0.1126095936057686,-0.960568,-14.910022
11.185,2.0,1.0,1.0,34.4,34.9,34.9,3.3,2.5,2.71,-0.17933701515995204,-0.1449431608852174,0.8663676619035695,-0.1264363980026514,-1.063743,-14.318607
11.185,2.0,1.0,1.0,34.4,34.9,34.9,3.3,2.5,2.7125,-0.1979656710677103,-0.149534181192353,0.8495418344513087,-0.14241944503995238,-1.186657,-13.701444
11.185,2.0,1.0,1.0,34.4,34.9,34.9,3.3,2.5,2.715,-0.21606391828341223,-0.15346721392412352,0.8299152720948451,-0.16095466280607093,-1.33451,-13.057583
11.185,2.0,1.0,1.0,34.4,34.9,34.9,3.3,2.5,2.7175,-0.23314609179093082,-0.15626276677993428,0.8070227310763692,-0.1824919828723475,-1.514151,-12.386633
11.185,2.0,1.0,1.0,34.4,34.9,34.9,3.3,2.5,2.72,-0.24849098540563463,-0.15720950448875556,0.7803646204669711,-0.20751396971597993,-1.734609,-11.689185
11.185,2.0,1.0,1.0,34.4,34.9,34.9,3.3,2.5,2.7225,-0.26104325321707955,-0.15526747160841237,0.7494641862275918,-0.23647913135857043,-2.007697,-10.967452
11.185,2.0,1.0,1.0,34.4,34.9,34.9,3.3,2.5,2.725,-0.26929317380332835,-0.1489503073753546,0.713992001634011,-0.26969891141131425,-2.348507,-10.226254
11.185,2.0,1.0,1.0,34.4,34.9,34.9,3.3,2.5,2.7275,-0.2711611726255701,-0.13621262814266213,0.6740063118730946,-0.30710070493532204,-2.7752,-9.474418
11.185,2.0,1.0,1.0,34.4,34.9,34.9,3.3,2.5,2.73,-0.26396595072518014,-0.11442040169369692,0.6303671332179194,-0.347820258813011,-3.306452,-8.726653
11.185,2.0,1.0,1.0,34.4,34.9,34.9,3.3,2.5,2.7325,-0.2446498764307898,-0.08057526889687142,0.5853458435717531,-0.38960279714157975,-3.952521,-8.005665
11.185,2.0,1.0,1.0,34.4,34.9,34.9,3.3,2.5,2.735,-0.21054171896505094,-0.0320677969234159,0.5432898718759885,-0.42815217627057683,-4.691708,-7.343742
11.185,2.0,1.0,1.0,34.4,34.9,34.9,3.3,2.5,2.7375,-0.1608856630137646,0.03181718392078713,0.510839135297801,-0.4569242680547212,-5.42359,-6.782108
11.185,2.0,1.0,1.0,34.4,34.9,34.9,3.3,2.5,2.74,-0.09881402005847865,0.10796422783771747,0.49580772383665184,-0.46823544180772675,-5.92457,-6.365747
11.185,2.0,1.0,1.0,34.4,34.9,34.9,3.3,2.5,2.7425,-0.03233642950617665,0.1884662413804707,0.5042116445320576,-0.4561910571312358,-5.929917,-6.132696
11.185,2.0,1.0,1.0,34.4,34.9,34.9,3.3,2.5,2.745,0.027493428645995577,0.2624427568051941,0.5367372824112185,-0.4201526349842111,-5.393385,-6.101176
11.185,2.0,1.0,1.0,34.4,34.9,34.9,3.3,2.5,2.7475,0.07100049535657718,0.32039596301801326,0.5876338682377721,-0.3658095001203284,-4.554921,-6.262236
11.185,2.0,1.0,1.0,34.4,34.9,34.9,3.3,2.5,2.75,0.0936756216175802,0.357926090411695,0.64742427916421,-0.302496157638953,-3.686239,-6.58338
11.185,2.0,1.0,1.0,34.4,34.9,34.9,3.3,2.5,2.7525,0.09656625972915552,0.37609877147614745,0.7071208177524294,-0.2390426289415519,-2.92988,-7.02039
11.185,2.0,1.0,1.0,34.4,34.9,34.9,3.3,2.5,2.755,0.08398045776534671,0.37917547426534653,0.7608049874473374,-0.1812453025368626,-2.321936,-7.529505
11.185,2.0,1.0,1.0,34.4,34.9,34.9,3.3,2.5,2.7575,0.06092518199840371,0.3720920163167817,0.8058429847644261,-0.13166517306165765,-1.850238,-8.074655
11.185,2.0,1.0,1.0,34.4,34.9,34.9,3.3,2.5,2.76,0.03163427019752725,0.35901414715299,0.8418759556687408,-0.09062730065083446,-1.48891,-8.629484
11.185,2.0,1.0,1.0,34.4,34.9,34.9,3.3,2.5,2.7625,-0.0008533021029810234,0.34292700695561024,0.8697145443251897,-0.057310233696610625,-1.212461,-9.176334
11.185,2.0,1.0,1.0,34.4,34.9,34.9,3.3,2.5,2.765,-0.03456994811484999,0.3257596626352362,0.8905848878238093,-0.030487416983048504,-0.999955,-9.70418
11.185,2.0,1.0,1.0,34.4,34.9,34.9,3.3,2.5,2.7675,-0.06833672773083396,0.30866494038564224,0.9057302284535563,-0.008918019809527672,-0.83537,-10.20663
11.185,2.0,1.0,1.0,34.4,34.9,34.9,3.3,2.5,2.77,-0.10149861050134715,0.29228060965862623,0.9162442360329995,0.008490181339541873,-0.706805,-10.680337
11.185,2.0,1.0,1.0,34.4,34.9,34.9,3.3,2.5,2.7725,-0.13372740210064288,0.27692349360785196,0.9230260288853454,0.0226374135516941,-0.605506,-11.123879
11.185,2.0,1.0,1.0,34.4,34.9,34.9,3.3,2.5,2.775,-0.16488966580648065,0.2627194038336026,0.9267890841028691,0.034241296859311536,-0.525042,-11.537003
11.185,2.0,1.0,1.0,34.4,34.9,34.9,3.3,2.5,2.7775,-0.19496314581746677,0.24968527018103576,0.9280890003136688,0.043864602566215355,-0.460665,-11.920131
11.185,2.0,1.0,1.0,34.4,34.9,34.9,3.3,2.5,2.78,-0.22398572991321572,0.23777923730872091,0.9273542224441915,0.05194580998981632,-0.408844,-12.274045
11.185,2.0,1.0,1.0,34.4,34.9,34.9,3.3,2.5,2.7825,-0.2520250824738792,0.2269304323981196,0.9249135504978963,0.05882643276001807,-0.366931,-12.599693
11.185,2.0,1.0,1.0,34.4,34.9,34.9,3.3,2.5,2.785,-0.2791610088120187,0.217056223043117,0.9210187063375966,0.06477345156795572,-0.332923,-12.898064
11.185,2.0,1.0,1.0,34.4,34.9,34.9,3.3,2.5,2.7875,-0.30547551091066993,0.20807192388720672,0.9158620606901258,0.06999697836227005,-0.305288,-13.170115
11.185,2.0,1.0,1.0,34.4,34.9,34.9,3.3,2.5,2.79,-0.33104742345686616,0.19989600979579708,0.9095902420703054,0.07466387967406149,-0.282851,-13.416727
11.185,2.0,1.0,1.0,34.4,34.9,34.9,3.3,2.5,2.7925,-0.35594973964625876,0.1924526914910904,0.9023144556059892,0.0789081874837675,-0.264696,-13.638679
11.185,2.0,1.0,1.0,34.4,34.9,34.9,3.3,2.5,2.795,-0.3802484887700146,0.18567296898658686,0.894118254022692,0.08283903998684783,-0.250113,-13.836636
11.185,2.0,1.0,1.0,34.4,34.9,34.9,3.3,2.5,2.7975,-0.4040024851646818,0.17949482791025656,0.8850633646285146,0.08654675824541068,-0.238541,-14.01114
11.185,2.0,1.0,1.0,34.4,34.9,34.9,3.3,2.5,2.8,-0.4272635442238916,0.17386297191830796,0.875194040235333,0.09010753200310175,-0.229541,-14.162607
11.185,2.0,1.0,1.0,34.4,34.9,34.9,3.3,2.5,2.8025,-0.45007692698304985,0.16872832071422764,0.864540286706355,0.09358707659638306,-0.222768,-14.291328
11.185,2.0,1.0,1.0,34.4,34.9,34.9,3.3,2.5,2.805,-0.4724818738633179,0.1640474047083413,0.8531202280850219,0.09704353572958797,-0.217952,-14.397466
11.185,2.0,1.0,1.0,34.4,34.9,34.9,3.3,2.5,2.8075,-0.4945121468561983,0.15978172800233892,0.8409417992867633,0.1005298393273596,-0.214884,-14.481056
11.185,2.0,1.0,1.0,34.4,34.9,34.9,3.3,2.5,2.81,-0.5161965335777351,0.15589713537629507,0.8280039018708634,0.10409567782036207,-0.213406,-14.542004
11.185,2.0,1.0,1.0,34.4,34.9,34.9,3.3,2.5,2.8125,-0.537559285665746,0.152363196691919,0.814297116278221,0.107789220364784,-0.213403,-14.580084
11.185,2.0,1.0,1.0,34.4,34.9,34.9,3.3,2.5,2.815,-0.5586204734867979,0.14915260767636102,0.7998040305063783,0.11165868168787861,-0.214802,-14.594933
11.185,2.0,1.0,1.0,34.4,34.9,34.9,3.3,2.5,2.8175,-0.579396242200786,0.14624059562263245,0.7844992174749519,0.11575382837093917,-0.21756,-14.586047
11.185,2.0,1.0,1.0,34.4,34.9,34.9,3.3,2.5,2.82,-0.5998989524708229,0.1436043095162608,0.768348868746132,0.12012750910447517,-0.221673,-14.552771
11.185,2.0,1.0,1.0,34.4,34.9,34.9,3.3,2.5,2.8225,-0.6201371829496437,0.14122216438628726,0.7513100684933872,0.12483729419821722,-0.227169,-14.494286
11.185,2.0,1.0,1.0,34.4,34.9,34.9,3.3,2.5,2.825,-0.6401155605973529,0.13907309723549993,0.7333296663684974,0.1299473175532421,-0.234115,-14.409601
11.185,2.0,1.0,1.0,34.4,34.9,34.9,3.3,2.5,2.8275,-0.6598343673138342,0.13713567425010917,0.7143426786802669,0.13553043034735238,-0.242618,-14.297526
11.185,2.0,1.0,1.0,34.4,34.9,34.9,3.3,2.5,2.83,-0.6792888443219921,0.13538696262552027,0.694270111003789,0.14167080173064267,-0.252837,-14.15666
