1,w,sub_t,h,l1,l2,l3,g1,g2,Freq,S11_re,S21_re,S11_img,S21_img,S11_dB,S21_dB
11.185,2.0,1.0,1.0,34.7,33.6,33.6,2.1,2.2,2.5,0.655554747646444,-0.0225048088435536,0.74234527541376,0.0111642331578683,-0.084069,-31.998973
11.185,2.0,1.0,1.0,34.7,33.6,33.6,2.1,2.2,2.5025,0.6490341712967409,-0.022921810104149957,0.7478919930807475,0.01111090030195706,-0.085135,-31.87848
11.185,2.0,1.0,1.0,34.7,33.6,33.6,2.1,2.2,2.505,0.6424271362190442,-0.023345868970199465,0.7534125449688873,0.01105238456692776,-0.086219,-31.757539
11.185,2.0,1.0,1.0,34.7,33.6,33.6,2.1,2.2,2.5075,0.6357327633517167,-0.023777098501290322,0.7589058981076227,0.01098849190845443,-0.087321,-31.636142
11.185,2.0,1.0,1.0,34.7,33.6,33.6,2.1,2.2,2.51,0.6289501666939045,-0.024215613052783767,0.7643709893519657,0.010919021376260298,-0.088442,-31.514285
11.185,2.0,1.0,1.0,34.7,33.6,33.6,2.1,2.2,2.5125,0.6220784535127671,-0.02466152824497868,0.7698067245141015,0.010843764854905675,-0.089583,-31.391961
11.185,2.0,1.0,1.0,34.7,33.6,33.6,2.1,2.2,2.515,0.6151167245693556,-0.02511496092797517,0.7752119774706381,0.01076250679427218,-0.090744,-31.269162
11.185,2.0,1.0,1.0,34.7,33.6,33.6,2.1,2.2,2.5175,0.608064074364193,-0.025576029141913384,0.7805855892448638,0.010675023929312317,-0.091926,-31.145882
11.185,2.0,1.0,1.0,34.7,33.6,33.6,2.1,2.2,2.52,0.6009195914036253,-0.02604485207224214,0.7859263670634039,0.010581084988616334,-0.093129,-31.022115
11.185,2.0,1.0,1.0,34.7,33.6,33.6,2.1,2.2,2.5225,0.5936823584881149,-0.026521549999647877,0.7912330833866065,0.010480450391327013,-0.094354,-30.897853
11.185,2.0,1.0,1.0,34.7,33.6,33.6,2.1,2.2,2.525,0.5863514530236563,-0.02700624424425052,0.7965044749120335,0.010372871931913493,-0.095602,-30.773089
11.185,2.0,1.0,1.0,34.7,33.6,33.6,2.1,2.2,2.5275,0.5789259473575838,-0.02749905710364495,0.801739241550383,0.010258092452293175,-0.096873,-30.647817
11.185,2.0,1.0,1.0,34.7,33.6,33.6,2.1,2.2,2.53,0.5714049091400961,-0.02800011178433807,0.806936045373166,0.010135845500768714,-0.098169,-30.522029
11.185,2.0,1.0,1.0,34.7,33.6,33.6,2.1,2.2,2.5325,0.5637874017128887,-0.028509532326102635,0.8120935095314672,0.010005854977223257,-0.099489,-30.395718
11.185,2.0,1.0,1.0,34.7,33.6,33.6,2.1,2.2,2.535,0.5560724845263452,-0.029027443518734024,0.8172102171450943,0.009867834763992252,-0.100836,-30.268876
11.185,2.0,1.0,1.0,34.7,33.6,33.6,2.1,2.2,2.5375,0.548259213586834,-0.029553970810662848,0.8222847101614126,0.009721488341805778,-0.102209,-30.141495
11.185,2.0,1.0,1.0,34.7,33.6,33.6,2.1,2.2,2.54,0.5403466419357011,-0.03008924020883788,0.827315488183165,0.00956650839016568,-0.103609,-30.013569
11.185,2.0,1.0,1.0,34.7,33.6,33.6,2.1,2.2,2.5425,0.5323338201616531,-0.03063337816925517,0.8323010072645555,0.009402576371496671,-0.105038,-29.885089
11.185,2.0,1.0,1.0,34.7,33.6,33.6,2.1,2.2,2.545,0.5242197969483,-0.031186511477464932,0.8372396786748786,0.009229362098378956,-0.106496,-29.756048
11.185,2.0,1.0,1.0,34.7,33.6,33.6,2.1,2.2,2.5475,0.5160036196587233,-0.0317487671183429,0.8421298676289554,0.00904652328313942,-0.107983,-29.626437
11.185,2.0,1.0,1.0,34.7,33.6,33.6,2.1,2.2,2.55,0.5076843349589917,-0.03232027213436441,0.8469698919836542,0.008853705069046928,-0.109502,-29.496249
11.185,2.0,1.0,1.0,34.7,33.6,33.6,2.1,2.2,2.5525,0.4992609894827139,-0.03290115347156502,0.8517580208997386,0.008650539542321645,-0.111053,-29.365474
11.185,2.0,1.0,1.0,34.7,33.6,33.6,2.1,2.2,2.555,0.4907326305387353,-0.03349153781231839,0.8564924734683076,0.008436645224135326,-0.112637,-29.234105
11.185,2.0,1.0,1.0,34.7,33.6,33.6,2.1,2.2,2.5575,0.48209830686424987,-0.03409155139399956,0.8611714173010754,0.008211626541738883,-0.114254,-29.102133
11.185,2.0,1.0,1.0,34.7,33.6,33.6,2.1,2.2,2.56,0.4733570694256953,-0.034701319812537455,0.8657929670837348,0.007975073277818285,-0.115907,-28.969549
11.185,2.0,1.0,1.0,34.7,33.6,33.6,2.1,2.2,2.5625,0.46450797226990825,-0.03532096780979355,0.8703551830916486,0.007726559997135879,-0.117596,-28.836345
11.185,2.0,1.0,1.0,34.7,33.6,33.6,2.1,2.2,2.565,0.4555500734281393,-0.035950619043626224,0.8748560696671185,0.00746564544947316,-0.119322,-28.702512
11.185,2.0,1.0,1.0,34.7,33.6,33.6,2.1,2.2,2.5675,0.4464824358756815,-0.036590395839423966,0.8792935736574672,0.0071918719478460775,-0.121087,-28.56804
11.185,2.0,1.0,1.0,34.7,33.6,33.6,2.1,2.2,2.57,0.43730412854996514,-0.037240418921802174,0.8836655828131789,0.00690476472091577,-0.122892,-28.43292
11.185,2.0,1.0,1.0,34.7,33.6,33.6,2.1,2.2,2.5725,0.428014227430141,-0.0379008071250701,0.8879699241453558,0.006603831238469424,-0.124737,-28.297143
11.185,2.0,1.0,1.0,34.7,33.6,33.6,2.1,2.2,2.575,0.41861181668131786,-0.038571677080972956,0.8922043622417238,0.006288560508793937,-0.126625,-28.160699
11.185,2.0,1.0,1.0,34.7,33.6,33.6,2.1,2.2,2.5775,0.40909598986677737,-0.03925314288210968,0.896366597540458,0.005958422346710328,-0.128556,-28.023578
11.185,2.0,1.0,1.0,34.7,33.6,33.6,2.1,2.2,2.58,0.3994658512316636,-0.03994531571931288,0.9004542645610774,0.005612866610981195,-0.130533,-27.885771
11.185,2.0,1.0,1.0,34.7,33.6,33.6,2.1,2.2,2.5825,0.3897205170618033,-0.040648303491156446,0.9044649300916874,0.005251322409741531,-0.132556,-27.747267
11.185,2.0,1.0,1.0,34.7,33.6,33.6,2.1,2.2,2.585,0.3798591171215235,-0.04136221038362122,0.9083960913318412,0.004873197272543839,-0.134628,-27.608055
11.185,2.0,1.0,1.0,34.7,33.6,33.6,2.1,2.2,2.5875,0.36988079617450276,-0.0420871364178118,0.9122451739903158,0.004477876287539127,-0.136749,-27.468127
11.185,2.0,1.0,1.0,34.7,33.6,33.6,2.1,2.2,2.59,0.35978471559192915,-0.04282317696345996,0.9160095303370989,0.004064721202249738,-0.138921,-27.32747
11.185,2.0,1.0,1.0,34.7,33.6,33.6,2.1,2.2,2.5925,0.34957005505241967,-0.04357042221579058,0.9196864372089079,0.003633069486315152,-0.141146,-27.186073
11.185,2.0,1.0,1.0,34.7,33.6,33.6,2.1,2.2,2.595,0.33923601433843603,-0.044328956633141785,0.9232730939675673,0.0031822333545178873,-0.143426,-27.043927
11.185,2.0,1.0,1.0,34.7,33.6,33.6,2.1,2.2,2.5975,0.3287818152341193,-0.04509885833254775,0.9267666204106004,0.0027114987483149566,-0.145763,-26.901018
11.185,2.0,1.0,1.0,34.7,33.6,33.6,2.1,2.2,2.6,0.3182067035297693,-0.04588019844027701,0.9301640546334059,0.0022201242740184386,-0.148158,-26.757337
11.185,2.0,1.0,1.0,34.7,33.6,33.6,2.1,2.2,2.6025,0.3075099511384595,-0.04667304039410088,0.9334623508424049,0.0017073400956803993,-0.150614,-26.61287
11.185,2.0,1.0,1.0,34.7,33.6,33.6,2.1,2.2,2.605,0.29669085833055103,-0.047477439193822815,0.9366583771185802,0.0011723467806447007,-0.153132,-26.467607
11.185,2.0,1.0,1.0,34.7,33.6,33.6,2.1,2.2,2.6075,0.28574875609220046,-0.048293440596338666,0.9397489131308466,0.0006143140956326395,-0.155715,-26.321534
11.185,2.0,1.0,1.0,34.7,33.6,33.6,2.1,2.2,2.61,0.2746830086142856,-0.04912108025121164,0.9427306477987284,3.237975112741083e-05,-0.158366,-26.17464
11.185,2.0,1.0,1.0,34.7,33.6,33.6,2.1,2.2,2.6125,0.2634930159185019,-0.04996038277244367,0.9456001769038289,-0.0005743519082834819,-0.161085,-26.026911
11.185,2.0,1.0,1.0,34.7,33.6,33.6,2.1,2.2,2.615,0.2521782166277812,-0.050811360741786465,0.9483540006496453,-0.0012068112700609707,-0.163876,-25.878334
11.185,2.0,1.0,1.0,34.7,33.6,33.6,2.1,2.2,2.6175,0.2407380908885701,-0.05167401363857833,0.9509885211692803,-0.001865964878930341,-0.166742,-25.728897
11.185,2.0,1.0,1.0,34.7,33.6,33.6,2.1,2.2,2.62,0.22917216345294586,-0.05254832669069836,0.9535000399806597,-0.002552816923852282,-0.169684,-25.578585
11.185,2.0,1.0,1.0,34.7,33.6,33.6,2.1,2.2,2.6225,0.2174800069289675,-0.05343426964080402,0.9558847553888993,-0.0032684107895686073,-0.172706,-25.427384
11.185,2.0,1.0,1.0,34.7,33.6,33.6,2.1,2.2,2.625,0.205661245208222,-0.0543317954215523,0.958138759835508,-0.00401383067567343,-0.175811,-25.275281
11.185,2.0,1.0,1.0,34.7,33.6,33.6,2.1,2.2,2.6275,0.19371555707995142,-0.05524083873300502,0.9602580371941514,-0.004790203286304889,-0.179002,-25.12226
11.185,2.0,1.0,1.0,34.7,33.6,33.6,2.1,2.2,2.63,0.18164268004181197,-0.05616131451486057,0.9622384600127571,-0.005598699593692878,-0.182281,-24.968308
11.185,2.0,1.0,1.0,34.7,33.6,33.6,2.1,2.2,2.6325,0.16944241431784912,-0.05709311630556199,0.964075786701783,-0.006440536678953754,-0.185652,-24.813407
11.185,2.0,1.0,1.0,34.7,33.6,33.6,2.1,2.2,2.635,0.1571146270949689,-0.05803611447967215,0.9657656586685288,-0.0073169796536789585,-0.189119,-24.657544
11.185,2.0,1.0,1.0,34.7,33.6,33.6,2.1,2.2,2.6375,0.14465925698990373,-0.05899015435419115,0.9673035973974196,-0.008229343666027017,-0.192685,-24.500702
11.185,2.0,1.0,1.0,34.7,33.6,33.6,2.1,2.2,2.64,0.1320763187593747,-0.05995505415371186,0.9686850014762592,-0.009178995995201928,-0.196353,-24.342864
11.185,2.0,1.0,1.0,34.7,33.6,33.6,2.1,2.2,2.6425,0.11936590826708171,-0.060930602823450634,0.9699051435685027,-0.010167358238369334,-0.200129,-24.184015
11.185,2.0,1.0,1.0,34.7,33.6,33.6,2.1,2.2,2.645,0.10652820772196996,-0.061916557678251556,0.9709591673316698,-0.011195908594247106,-0.204016,-24.024136
11.185,2.0,1.0,1.0,34.7,33.6,33.6,2.1,2.2,2.6475,0.09356349120326997,-0.06291264187463604,0.9718420842820935,-0.012266184247786449,-0.208018,-23.86321
11.185,2.0,1.0,1.0,34.7,33.6,33.6,2.1,2.2,2.65,0.08047213048881231,-0.06391854169183925,0.9725487706062729,-0.013379783860550961,-0.21214,-23.701218
11.185,2.0,1.0,1.0,34.7,33.6,33.6,2.1,2.2,2.6525,0.06725460120439264,-0.06493390360653167,0.9730739639191835,-0.014538370171583314,-0.216386,-23.538144
11.185,2.0,1.0,1.0,34.7,33.6,33.6,2.1,2.2,2.655,0.053911489313124096,-0.06595833114456298,0.9734122599699985,-0.01574367271374679,-0.220763,-23.373966
11.185,2.0,1.0,1.0,34.7,33.6,33.6,2.1,2.2,2.6575,0.04044349796521197,-0.06699138149155981,0.9735581092957584,-0.016997490650710132,-0.225274,-23.208666
11.185,2.0,1.0,1.0,34.7,33.6,33.6,2.1,2.2,2.66,0.0268514547300848,-0.06803256184255128,0.9735058138236711,-0.018301695739930873,-0.229926,-23.042223
11.185,2.0,1.0,1.0,34.7,33.6,33.6,2.1,2.2,2.6625,0.013136319234539348,-0.06908132546897226,0.9732495234228241,-0.019658235427167187,-0.234725,-22.874618
11.185,2.0,1.0,1.0,34.7,33.6,33.6,2.1,2.2,2.665,-0.0007008087676221152,-0.07013706747937096,0.972783232406258,-0.021069136078215096,-0.239676,-22.705828
11.185,2.0,1.0,1.0,34.7,33.6,33.6,2.1,2.2,2.6675,-0.014658680866835886,-0.07119912024791913,0.9721007759845173,-0.02253650635371235,-0.244787,-22.535831
11.185,2.0,1.0,1.0,34.7,33.6,33.6,2.1,2.2,2.67,-0.028735890980081256,-0.07226674848234803,0.9711958266719964,-0.02406254073298032,-0.250063,-22.364605
11.185,2.0,1.0,1.0,34.7,33.6,33.6,2.1,2.2,2.6725,-0.042930865811846415,-0.07333914390020216,0.970061890647628,-0.025649523192968746,-0.255513,-22.192128
11.185,2.0,1.0,1.0,34.7,33.6,33.6,2.1,2.2,2.675,-0.057241854758548656,-0.07441541947925973,0.9686923040717499,-0.027299831048423855,-0.261145,-22.018374
11.185,2.0,1.0,1.0,34.7,33.6,33.6,2.1,2.2,2.6775,-0.07166691921811753,-0.07549460324460228,0.967080229361314,-0.029015938959407,-0.266965,-21.84332
11.185,2.0,1.0,1.0,34.7,33.6,33.6,2.1,2.2,2.68,-0.08620392126297036,-0.07657563155106827,0.9652186514259993,-0.0308004231122319,-0.272983,-21.666939
11.185,2.0,1.0,1.0,34.7,33.6,33.6,2.1,2.2,2.6825,-0.10085051163071658,-0.07765734181565317,0.963100373868278,-0.03265596557974554,-0.279207,-21.489206
11.185,2.0,1.0,1.0,34.7,33.6,33.6,2.1,2.2,2.685,-0.11560411698269354,-0.07873846464978096,0.9607180151510687,-0.03458535886663808,-0.285648,-21.310094
11.185,2.0,1.0,1.0,34.7,33.6,33.6,2.1,2.2,2.6875,-0.13046192637552936,-0.07981761533619045,0.958064004737307,-0.03659151064509557,-0.292316,-21.129574
11.185,2.0,1.0,1.0,34.7,33.6,33.6,2.1,2.2,2.69,-0.14542087688561706,-0.0808932845894035,0.9551305792066508,-0.0386774486855781,-0.299221,-20.947619
11.185,2.0,1.0,1.0,34.7,33.6,33.6,2.1,2.2,2.6925,-0.16047763832032785,-0.08196382853229135,0.9519097783555558,-0.04084632598679325,-0.306375,-20.764197
11.185,2.0,1.0,1.0,34.7,33.6,33.6,2.1,2.2,2.695,-0.17562859694299035,-0.08302745781403215,0.9483934412882697,-0.04310142610795944,-0.313791,-20.579278
11.185,2.0,1.0,1.0,34.7,33.6,33.6,2.1,2.2,2.6975,-0.1908698381311484,-0.08408222578668267,0.9445732025078392,-0.04544616870521572,-0.32148,-20.392831
11.185,2.0,1.0,1.0,34.7,33.6,33.6,2.1,2.2,2.7,-0.2061971278789973,-0.08512601564853033,0.9404404880181435,-0.04788411527240451,-0.329458,-20.204823
11.185,2.0,1.0,1.0,34.7,33.6,33.6,2.1,2.2,2.7025,-0.22160589304534523,-0.08615652645225087,0.935986511450305,-0.0504189750844158,-0.337738,-20.015218
11.185,2.0,1.0,1.0,34.7,33.6,33.6,2.1,2.2,2.705,-0.2370912002376192,-0.08717125786450626,0.9312022702296671,-0.05305461133868159,-0.346337,-19.823983
11.185,2.0,1.0,1.0,34.7,33.6,33.6,2.1,2.2,2.7075,-0.2526477332102786,-0.08816749355082905,0.9260785418030477,-0.055795047487178756,-0.355271,-19.63108
11.185,2.0,1.0,1.0,34.7,33.6,33.6,2.1,2.2,2.71,-0.26826976864222396,-0.08914228304526269,0.9206058799501885,-0.058644473747256766,-0.364559,-19.436471
11.185,2.0,1.0,1.0,34.7,33.6,33.6,2.1,2.2,2.7125,-0.2839511501423255,-0.09009242194805932,0.9147746112085499,-0.06160725377461282,-0.374219,-19.240117
11.185,2.0,1.0,1.0,34.7,33.6,33.6,2.1,2.2,2.715,-0.29968526031470455,-0.0910144302765334,0.9085748314469436,-0.06468793147555507,-0.384273,-19.041978
11.185,2.0,1.0,1.0,34.7,33.6,33.6,2.1,2.2,2.7175,-0.3154649906955627,-0.09190452877367408,0.9019964026311966,-0.06789123792809622,-0.394742,-18.842011
11.185,2.0,1.0,1.0,34.7,33.6,33.6,2.1,2.2,2.72,-0.33128270935107473,-0.09275861295602184,0.8950289498345416,-0.07122209837207226,-0.40565,-18.640172
11.185,2.0,1.0,1.0,34.7,33.6,33.6,2.1,2.2,2.7225,-0.3471302259005868,-0.09357222465628158,0.887661858556878,-0.07468563921704237,-0.417023,-18.436415
11.185,2.0,1.0,1.0,34.7,33.6,33.6,2.1,2.2,2.725,-0.3629987537007072,-0.09434052078678437,0.8798842724311376,-0.07828719500269371,-0.428889,-18.230694
11.185,2.0,1.0,1.0,34.7,33.6,33.6,2.1,2.2,2.7275,-0.3788788688936941,-0.09505823901680639,0.8716850914120616,-0.08203231522936458,-0.441276,-18.022958
11.185,2.0,1.0,1.0,34.7,33.6,33.6,2.1,2.2,2.73,-0.3947604659868835,-0.0957196600194094,0.8630529705635889,-0.08592677095535406,-0.454216,-17.813158
11.185,2.0,1.0,1.0,34.7,33.6,33.6,2.1,2.2,2.7325,-0.4106327095886598,-0.09631856590136115,0.8539763195864539,-0.08997656103217153,-0.467746,-17.60124
11.185,2.0,1.0,1.0,34.7,33.6,33.6,2.1,2.2,2.735,-0.4264839818797608,-0.09684819438222696,0.8444433032586036,-0.0941879178177225,-0.4819,-17.387148
11.185,2.0,1.0,1.0,34.7,33.6,33.6,2.1,2.2,2.7375,-0.44230182534602,-0.09730118823524667,0.8344418429988167,-0.09856731216946549,-0.496721,-17.170827
11.185,2.0,1.0,1.0,34.7,33.6,33.6,2.1,2.2,2.74,-0.45807288023915094,-0.09766953944240937,0.8239596198099776,-0.10312145747327207,-0.512252,-16.952215
11.185,2.0,1.0,1.0,34.7,33.6,33.6,2.1,2.2,2.7425,-0.4737828161652468,-0.09794452744846299,0.8129840789145876,-0.10785731240730864,-0.52854,-16.731251
11.185,2.0,1.0,1.0,34.7,33.6,33.6,2.1,2.2,2.745,-0.4894162571252974,-0.09811665082262626,0.8015024364636405,-0.11278208207146204,-0.545637,-16.507871
11.185,2.0,1.0,1.0,34.7,33.6,33.6,2.1,2.2,2.7475,-0.50495669924751,-0.0981755515516798,0.7895016887835102,-0.11790321702897304,-0.5636,-16.282008
11.185,2.0,1.0,1.0,34.7,33.6,33.6,2.1,2.2,2.75,-0.520386420356698,-0.0981099310930816,0.776968624727472,-0.123228409704677,-0.58249,-16.053592
11.185,2.0,1.0,1.0,34.7,33.6,33.6,2.1,2.2,2.7525,-0.5356863804205872,-0.09790745721097387,0.7638898418229582,-0.12876558745950603,-0.602374,-15.822552
11.185,2.0,1.0,1.0,34.7,33.6,33.6,2.1,2.2,2.755,-0.5508361117958821,-0.09755466050078158,0.7502517670576248,-0.13452290150870647,-0.623326,-15.588813
11.185,2.0,1.0,1.0,34.7,33.6,33.6,2.1,2.2,2.7575,-0.5658135980682046,-0.09703681937905344,0.7360406833328811,-0.14050871066547452,-0.645427,-15.352297
11.185,2.0,1.0,1.0,34.7,33.6,33.6,2.1,2.2,2.76,-0.5805951401386493,-0.09633783217418483,0.7212427628404401,-0.14673155866488805,-0.668764,-15.112924
11.185,2.0,1.0,1.0,34.7,33.6,33.6,2.1,2.2,2.7625,-0.5951552080571391,-0.09544007480109991,0.7058441088945074,-0.1532001435460617,-0.693435,-14.87061
11.185,2.0,1.0,1.0,34.7,33.6,33.6,2.1,2.2,2.765,-0.6094662769392736,-0.0943242423401397,0.6898308080911393,-0.15992327723209393,-0.719548,-14.62527
11.185,2.0,1.0,1.0,34.7,33.6,33.6,2.1,2.2,2.7675,-0.6234986451321437,-0.09296917266979643,0.6731889950804643,-0.16690983303402676,-0.74722,-14.376814
11.185,2.0,1.0,1.0,34.7,33.6,33.6,2.1,2.2,2.77,-0.6372202326195151,-0.09135165012880399,0.6559049327437992,-0.17416867830003993,-0.776582,-14.125152
11.185,2.0,1.0,1.0,34.7,33.6,33.6,2.1,2.2,2.7725,-0.6505963574847144,-0.089446187012264,0.6379651111866729,-0.1817085888141813,-0.80778,-13.870188
11.185,2.0,1.0,1.0,34.7,33.6,33.6,2.1,2.2,2.775,-0.6635894880910321,-0.08722478054930762,0.6193563697149134,-0.18953814079561712,-0.840974,-13.611827
11.185,2.0,1.0,1.0,34.7,33.6,33.6,2.1,2.2,2.7775,-0.6761589685096424,-0.08465664288166513,0.6000660468843501,-0.197665575430029,-0.876343,-13.349969
11.185,2.0,1.0,1.0,34.7,33.6,33.6,2.1,2.2,2.78,-0.6882607146467516,-0.08170790148579578,0.580082164840849,-0.2060986297439468,-0.914088,-13.084515
11.185,2.0,1.0,1.0,34.7,33.6,33.6,2.1,2.2,2.7825,-0.6998468785266067,-0.07834126748791388,0.5593936555393059,-0.21484432626820377,-0.95443,-12.815362
11.185,2.0,1.0,1.0,34.7,33.6,33.6,2.1,2.2,2.785,-0.7108654783209278,-0.07451566945651761,0.5379906380976108,-0.223908712278771,-0.99762,-12.542407
11.185,2.0,1.0,1.0,34.7,33.6,33.6,2.1,2.2,2.7875,-0.7212599920417657,-0.07018585058425907,0.515864758563039,-0.23329653739421058,-1.043938,-12.265549
11.185,2.0,1.0,1.0,34.7,33.6,33.6,2.1,2.2,2.79,-0.7309689134220752,-0.06530192777795285,0.4930096058098616,-0.243010855883671,-1.0937,-11.984686
11.185,2.0,1.0,1.0,34.7,33.6,33.6,2.1,2.2,2.7925,-0.7399252695183793,-0.059808912183334506,0.46942122022132815,-0.2530525371255247,-1.147261,-11.699718
11.185,2.0,1.0,1.0,34.7,33.6,33.6,2.1,2.2,2.795,-0.7480561011492171,-0.05364619224523968,0.44509871531304307,-0.2634196641788947,-1.205023,-11.41055
11.185,2.0,1.0,1.0,34.7,33.6,33.6,2.1,2.2,2.7975,-0.755281909658094,-0.04674698276893396,0.4200450366030689,-0.2741067963148453,-1.267442,-11.117092
11.185,2.0,1.0,1.0,34.7,33.6,33.6,2.1,2.2,2.8,-0.7615160769649978,-0.0390377469066902,0.3942678868882006,-0.2851040665407621,-1.335036,-10.819263
11.185,2.0,1.0,1.0,34.7,33.6,33.6,2.1,2.2,2.8025,-0.7666642708533058,-0.030437602949169012,0.3677808526766622,-0.29639607961094827,-1.408396,-10.516991
11.185,2.0,1.0,1.0,34.7,33.6,33.6,2.1,2.2,2.805,-0.7706238544665703,-0.020857734786464497,0.3406047728249854,-0.3079605697802953,-1.488195,-10.210221
11.185,2.0,1.0,1.0,34.7,33.6,33.6,2.1,2.2,2.8075,-0.7732833287630052,-0.010200834613101508,0.3127693972928394,-0.3197667707645795,-1.575207,-9.898916
11.185,2.0,1.0,1.0,34.7,33.6,33.6,2.1,2.2,2.81,-0.7745218500926833,0.0016393802259112296,0.28431539104787,-0.33177344333757824,-1.670319,-9.583062
11.185,2.0,1.0,1.0,34.7,33.6,33.6,2.1,2.2,2.8125,-0.7742088832495372,0.014778516301081755,0.25529674491780124,-0.3439264993244615,-1.774555,-9.262676
11.185,2.0,1.0,1.0,34.7,33.6,33.6,2.1,2.2,2.815,-0.7722040746740075,0.02934163500188296,0.22578366055001364,-0.35615615548751595,-1.889096,-8.937814
11.185,2.0,1.0,1.0,34.7,33.6,33.6,2.1,2.2,2.8175,-0.7683574625284988,0.04546304943304853,0.19586597887983578,-0.3683735486528857,-2.015312,-8.608581
11.185,2.0,1.0,1.0,34.7,33.6,33.6,2.1,2.2,2.82,-0.7625101818413398,0.0632856303682823,0.16565721792951418,-0.38046674707377814,-2.154796,-8.275138
11.185,2.0,1.0,1.0,34.7,33.6,33.6,2.1,2.2,2.8225,-0.7544958754064821,0.0829594123547968,0.13529927227949207,-0.3922961065130887,-2.309404,-7.93772
11.185,2.0,1.0,1.0,34.7,33.6,33.6,2.1,2.2,2.825,-0.7441430856471503,0.10463922723284372,0.1049677972110439,-0.4036889487600125,-2.481306,-7.596651
11.185,2.0,1.0,1.0,34.7,33.6,33.6,2.1,2.2,2.8275,-0.7312789787990575,0.1284810170790702,0.0748782469345166,-0.41443359356162907,-2.673042,-7.25236
11.185,2.0,1.0,1.0,34.7,33.6,33.6,2.1,2.2,2.83,-0.7157348373353342,0.1546363951204918,0.045292447233260855,-0.4242728633734464,-2.8876,-6.905404
