1,w,sub_t,h,l1,l2,l3,g1,g2,Freq,S11_re,S21_re,S11_img,S21_img,S11_dB,S21_dB
11.185,2.0,1.0,1.0,33.1,34.9,34.9,4.1,3.4,2.5,0.888369496838525,-0.00514415366607071,0.445966768711931,0.00424905524053032,-0.052049,-43.514762
11.185,2.0,1.0,1.0,33.1,34.9,34.9,4.1,3.4,2.5025,0.8855481280618016,-0.005261003195359212,0.4514123057602913,0.0042807509274404715,-0.052569,-43.37214
11.185,2.0,1.0,1.0,33.1,34.9,34.9,4.1,3.4,2.505,0.8826815802031739,-0.005380505102410169,0.4568600563270807,0.004312403588899069,-0.053099,-43.2288
11.185,2.0,1.0,1.0,33.1,34.9,34.9,4.1,3.4,2.5075,0.8797693949637612,-0.0055027414001068845,0.4623098880248322,0.004344005135555858,-0.053641,-43.084717
11.185,2.0,1.0,1.0,33.1,34.9,34.9,4.1,3.4,2.51,0.8768111043210052,-0.005627797677245317,0.46776166441825473,0.004375546998585868,-0.054195,-42.939865
11.185,2.0,1.0,1.0,33.1,34.9,34.9,4.1,3.4,2.5125,0.8738062302166103,-0.005755763297816382,0.47321524487502076,0.004407020095391986,-0.054761,-42.79422
11.185,2.0,1.0,1.0,33.1,34.9,34.9,4.1,3.4,2.515,0.8707542842285427,-0.00588673161374435,0.47867048441019383,0.004438414792414613,-0.055339,-42.647754
11.185,2.0,1.0,1.0,33.1,34.9,34.9,4.1,3.4,2.5175,0.867654767225948,-0.006020800192147148,0.4841272335238859,0.004469720864768698,-0.055931,-42.50044
11.185,2.0,1.0,1.0,33.1,34.9,34.9,4.1,3.4,2.52,0.8645071690057353,-0.006158071058282382,0.48958533803174653,0.004500927452396861,-0.056536,-42.352249
11.185,2.0,1.0,1.0,33.1,34.9,34.9,4.1,3.4,2.5225,0.8613109679094766,-0.006298650955448373,0.4950446388877895,0.004532023012394155,-0.057155,-42.203152
11.185,2.0,1.0,1.0,33.1,34.9,34.9,4.1,3.4,2.525,0.8580656304191335,-0.006442651623229163,0.5005049719990841,0.0045629952671207,-0.057788,-42.05312
11.185,2.0,1.0,1.0,33.1,34.9,34.9,4.1,3.4,2.5275,0.8547706107299968,-0.006590190095602277,0.5059661680317437,0.00459383114767601,-0.058437,-41.902122
11.185,2.0,1.0,1.0,33.1,34.9,34.9,4.1,3.4,2.53,0.8514253502990734,-0.006741389020572175,0.5114280522076105,0.004624516732259881,-0.059101,-41.750124
11.185,2.0,1.0,1.0,33.1,34.9,34.9,4.1,3.4,2.5325,0.8480292773669856,-0.006896377003153059,0.5168904440909743,0.0046550371788901855,-0.05978,-41.597095
11.185,2.0,1.0,1.0,33.1,34.9,34.9,4.1,3.4,2.535,0.8445818064512653,-0.007055288973701617,0.5223531573646052,0.004685376651886069,-0.060477,-41.443
11.185,2.0,1.0,1.0,33.1,34.9,34.9,4.1,3.4,2.5375,0.8410823378087254,-0.007218266583797078,0.5278159995942803,0.004715518241455872,-0.06119,-41.287805
11.185,2.0,1.0,1.0,33.1,34.9,34.9,4.1,3.4,2.54,0.8375302568643543,-0.007385458632085602,0.5332787719809381,0.004745443875649838,-0.061922,-41.131471
11.185,2.0,1.0,1.0,33.1,34.9,34.9,4.1,3.4,2.5425,0.8339249336039425,-0.007557021522748539,0.5387412690994714,0.004775134223848757,-0.062672,-40.973963
11.185,2.0,1.0,1.0,33.1,34.9,34.9,4.1,3.4,2.545,0.8302657219273494,-0.007733119759526437,0.5442032786230754,0.004804568590858627,-0.063441,-40.81524
11.185,2.0,1.0,1.0,33.1,34.9,34.9,4.1,3.4,2.5475,0.8265519589590337,-0.007913926478532417,0.5496645810319425,0.0048337248005662315,-0.06423,-40.655262
11.185,2.0,1.0,1.0,33.1,34.9,34.9,4.1,3.4,2.55,0.8227829643120851,-0.008099624023427465,0.5551249493049755,0.004862579067980492,-0.06504,-40.493987
11.185,2.0,1.0,1.0,33.1,34.9,34.9,4.1,3.4,2.5525,0.8189580393016489,-0.008290404566907602,0.5605841485930063,0.004891105858334947,-0.065872,-40.331371
11.185,2.0,1.0,1.0,33.1,34.9,34.9,4.1,3.4,2.555,0.8150764661031571,-0.008486470782876628,0.5660419358718659,0.004919277731757688,-0.066726,-40.16737
11.185,2.0,1.0,1.0,33.1,34.9,34.9,4.1,3.4,2.5575,0.8111375068503159,-0.008688036574153074,0.5714980595734348,0.0049470651718204,-0.067604,-40.001936
11.185,2.0,1.0,1.0,33.1,34.9,34.9,4.1,3.4,2.56,0.8071404026672494,-0.00889532786109241,0.5769522591925705,0.004974436396056736,-0.068507,-39.83502
11.185,2.0,1.0,1.0,33.1,34.9,34.9,4.1,3.4,2.5625,0.8030843726285701,-0.009108583437106224,0.5824042648675612,0.005001357146285389,-0.069435,-39.666572
11.185,2.0,1.0,1.0,33.1,34.9,34.9,4.1,3.4,2.565,0.7989686126404622,-0.00932805589773447,0.5878537969314566,0.0050277904562808255,-0.070389,-39.496539
11.185,2.0,1.0,1.0,33.1,34.9,34.9,4.1,3.4,2.5675,0.7947922942350882,-0.009554012650688852,0.5933005654312673,0.005053696393998676,-0.071372,-39.324865
11.185,2.0,1.0,1.0,33.1,34.9,34.9,4.1,3.4,2.57,0.7905545632697256,-0.00978673701514549,0.5987442696116565,0.005079031775174532,-0.072383,-39.151493
11.185,2.0,1.0,1.0,33.1,34.9,34.9,4.1,3.4,2.5725,0.7862545385210646,-0.01002652941953945,0.6041845973592773,0.00510374984466787,-0.073426,-38.976364
11.185,2.0,1.0,1.0,33.1,34.9,34.9,4.1,3.4,2.575,0.7818913101639523,-0.010273708708214873,0.6096212246033877,0.005127799921404213,-0.0745,-38.799415
11.185,2.0,1.0,1.0,33.1,34.9,34.9,4.1,3.4,2.5775,0.7774639381225943,-0.010528613568539033,0.6150538146677778,0.005151127002168752,-0.075608,-38.620581
11.185,2.0,1.0,1.0,33.1,34.9,34.9,4.1,3.4,2.58,0.772971450280767,-0.01079160409150991,0.6204820175683257,0.005173671318806397,-0.07675,-38.439794
11.185,2.0,1.0,1.0,33.1,34.9,34.9,4.1,3.4,2.5825,0.7684128405359232,-0.01106306348051099,0.6259054692497056,0.005195367842572161,-0.07793,-38.256982
11.185,2.0,1.0,1.0,33.1,34.9,34.9,4.1,3.4,2.585,0.7637870666802015,-0.011343399924715546,0.6313237907537897,0.005216145728427432,-0.079149,-38.072071
11.185,2.0,1.0,1.0,33.1,34.9,34.9,4.1,3.4,2.5875,0.759093048089168,-0.011633048655759252,0.6367365873112057,0.005235927690970703,-0.080408,-37.884983
11.185,2.0,1.0,1.0,33.1,34.9,34.9,4.1,3.4,2.59,0.7543296631966594,-0.01193247420872165,0.6421434473461782,0.005254629302393664,-0.08171,-37.695637
11.185,2.0,1.0,1.0,33.1,34.9,34.9,4.1,3.4,2.5925,0.7494957467312476,-0.012242172911237964,0.6475439413832867,0.005272158201327713,-0.083057,-37.503946
11.185,2.0,1.0,1.0,33.1,34.9,34.9,4.1,3.4,2.595,0.7445900866865962,-0.012562675627757928,0.6529376208429433,0.005288413199652185,-0.084453,-37.30982
11.185,2.0,1.0,1.0,33.1,34.9,34.9,4.1,3.4,2.5975,0.7396114209942063,-0.01289455078965159,0.658324016710306,0.005303283272215152,-0.085898,-37.113166
11.185,2.0,1.0,1.0,33.1,34.9,34.9,4.1,3.4,2.6,0.7345584338627303,-0.013238407746113028,0.6637026380598107,0.005316646411910213,-0.087397,-36.913883
11.185,2.0,1.0,1.0,33.1,34.9,34.9,4.1,3.4,2.6025,0.7294297517430163,-0.01359490047572997,0.6690729704145354,0.0053283683295756714,-0.088952,-36.711867
11.185,2.0,1.0,1.0,33.1,34.9,34.9,4.1,3.4,2.605,0.7242239388722258,-0.013964731704292613,0.6744344739160916,0.005338300974641337,-0.090567,-36.507007
11.185,2.0,1.0,1.0,33.1,34.9,34.9,4.1,3.4,2.6075,0.7189394923436351,-0.014348657481038547,0.6797865812764842,0.005346280848220992,-0.092245,-36.299188
11.185,2.0,1.0,1.0,33.1,34.9,34.9,4.1,3.4,2.61,0.7135748366408634,-0.014747492273251095,0.685128695478365,0.005352127075289598,-0.093991,-36.088288
11.185,2.0,1.0,1.0,33.1,34.9,34.9,4.1,3.4,2.6125,0.7081283175660993,-0.015162114648139312,0.6904601871840166,0.005355639196511746,-0.095808,-35.874175
11.185,2.0,1.0,1.0,33.1,34.9,34.9,4.1,3.4,2.615,0.702598195481171,-0.015593473621472604,0.6957803918061343,0.005356594632972294,-0.097701,-35.656714
11.185,2.0,1.0,1.0,33.1,34.9,34.9,4.1,3.4,2.6175,0.6969826377677287,-0.016042595764816002,0.7010886061846221,0.005354745768223237,-0.099676,-35.43576
11.185,2.0,1.0,1.0,33.1,34.9,34.9,4.1,3.4,2.62,0.6912797103979951,-0.01651059317776291,0.7063840848029652,0.0053498165813451615,-0.101738,-35.211159
11.185,2.0,1.0,1.0,33.1,34.9,34.9,4.1,3.4,2.6225,0.6854873684901042,-0.01699867244872359,0.7116660354647202,0.005341498751686336,-0.103894,-34.982748
11.185,2.0,1.0,1.0,33.1,34.9,34.9,4.1,3.4,2.625,0.679603445701436,-0.0175081447481133,0.716933614334785,0.00532944714002347,-0.106149,-34.750354
11.185,2.0,1.0,1.0,33.1,34.9,34.9,4.1,3.4,2.6275,0.673625642288878,-0.01804043722184082,0.7221859202306716,0.005313274531377687,-0.108511,-34.513794
11.185,2.0,1.0,1.0,33.1,34.9,34.9,4.1,3.4,2.63,0.6675515116359254,-0.018597105881589936,0.7274219880250352,0.0052925455007108765,-0.110988,-34.272871
11.185,2.0,1.0,1.0,33.1,34.9,34.9,4.1,3.4,2.6325,0.6613784450118635,-0.01917985022247673,0.7326407809911345,0.005266769233063483,-0.11359,-34.027377
11.185,2.0,1.0,1.0,33.1,34.9,34.9,4.1,3.4,2.635,0.6551036542868849,-0.019790529839421117,0.7378411818861879,0.005235391092889728,-0.116326,-33.777089
11.185,2.0,1.0,1.0,33.1,34.9,34.9,4.1,3.4,2.6375,0.6487241522773436,-0.02043118336243358,0.7430219825218058,0.0051977826914754955,-0.119208,-33.521769
11.185,2.0,1.0,1.0,33.1,34.9,34.9,4.1,3.4,2.64,0.6422367303356291,-0.02110405008977975,0.748181871513405,0.005153230143896224,-0.122247,-33.261162
11.185,2.0,1.0,1.0,33.1,34.9,34.9,4.1,3.4,2.6425,0.6356379327271735,-0.021811594768842226,0.7533194198283759,0.005100920134728383,-0.125457,-32.994996
11.185,2.0,1.0,1.0,33.1,34.9,34.9,4.1,3.4,2.645,0.628924027249974,-0.022556536060202945,0.7584330636616317,0.005039923320393457,-0.128854,-32.722976
11.185,2.0,1.0,1.0,33.1,34.9,34.9,4.1,3.4,2.6475,0.6220909714463865,-0.023341879324417947,0.7635210840512607,0.004969174479944038,-0.132454,-32.444788
11.185,2.0,1.0,1.0,33.1,34.9,34.9,4.1,3.4,2.65,0.6151343736283738,-0.0241709544973891,0.7685815824989294,0.00488744867779691,-0.136278,-32.160091
11.185,2.0,1.0,1.0,33.1,34.9,34.9,4.1,3.4,2.6525,0.6080494477806384,-0.02504745997441745,0.7736124516692836,0.004793332511355024,-0.140348,-31.86852
11.185,2.0,1.0,1.0,33.1,34.9,34.9,4.1,3.4,2.655,0.6008309612142402,-0.025975513611525117,0.7786113399965541,0.004685189270144554,-0.144687,-31.569677
11.185,2.0,1.0,1.0,33.1,34.9,34.9,4.1,3.4,2.6575,0.5934731736082801,-0.026959712183576175,0.7835756087063626,0.0045611165127556405,-0.149325,-31.263134
11.185,2.0,1.0,1.0,33.1,34.9,34.9,4.1,3.4,2.66,0.5859697657884986,-0.028005200922208495,0.7885022793415777,0.004418894148564879,-0.154293,-30.948423
11.185,2.0,1.0,1.0,33.1,34.9,34.9,4.1,3.4,2.6625,0.5783137562365789,-0.029117755104984898,0.7933879693284709,0.004255920558663416,-0.159629,-30.625039
11.185,2.0,1.0,1.0,33.1,34.9,34.9,4.1,3.4,2.665,0.5704974028869445,-0.030303876095566756,0.7982288123859136,0.0040691335571131125,-0.165377,-30.292429
11.185,2.0,1.0,1.0,33.1,34.9,34.9,4.1,3.4,2.6675,0.5625120872302892,-0.031570904761145484,0.8030203595992927,0.0038549120132953304,-0.171584,-29.949987
11.185,2.0,1.0,1.0,33.1,34.9,34.9,4.1,3.4,2.67,0.5543481770830069,-0.03292715583886333,0.807757455658715,0.003608952635319843,-0.17831,-29.597054
11.185,2.0,1.0,1.0,33.1,34.9,34.9,4.1,3.4,2.6725,0.5459948635746227,-0.03438207761083523,0.8124340829646981,0.0033261146206070248,-0.185622,-29.232903
11.185,2.0,1.0,1.0,33.1,34.9,34.9,4.1,3.4,2.675,0.537439966925947,-0.03594644220131301,0.8170431638432312,0.0030002224228126094,-0.193599,-28.856733
11.185,2.0,1.0,1.0,33.1,34.9,34.9,4.1,3.4,2.6775,0.5286697044172539,-0.037632572948809534,0.8215763077098708,0.0026238134894134356,-0.202335,-28.467661
11.185,2.0,1.0,1.0,33.1,34.9,34.9,4.1,3.4,2.68,0.5196684125701172,-0.039454616635622226,0.8260234852762366,0.002187813090323999,-0.211943,-28.06471
11.185,2.0,1.0,1.0,33.1,34.9,34.9,4.1,3.4,2.6825,0.5104182140131006,-0.04142886984796051,0.8303726052076114,0.001681111693564238,-0.222556,-27.646793
11.185,2.0,1.0,1.0,33.1,34.9,34.9,4.1,3.4,2.685,0.5008986178660145,-0.04357417028929807,0.8346089591321855,0.0010900108692402026,-0.234338,-27.212701
11.185,2.0,1.0,1.0,33.1,34.9,34.9,4.1,3.4,2.6875,0.491086041001853,-0.0459123652262931,0.838714487240236,0.000397490095729649,-0.247486,-26.761081
11.185,2.0,1.0,1.0,33.1,34.9,34.9,4.1,3.4,2.69,0.4809532367616064,-0.04846886986495312,0.842666796875984,-0.00041777290314539886,-0.262243,-26.290419
11.185,2.0,1.0,1.0,33.1,34.9,34.9,4.1,3.4,2.6925,0.4704686187059684,-0.05127332721408844,0.8464378374255047,-0.0013827246107295096,-0.278908,-25.799013
11.185,2.0,1.0,1.0,33.1,34.9,34.9,4.1,3.4,2.695,0.4595954720010519,-0.0543603756542863,0.8499920916757602,-0.002531740158800912,-0.297859,-25.284941
11.185,2.0,1.0,1.0,33.1,34.9,34.9,4.1,3.4,2.6975,0.44829105843373224,-0.057770516574064255,0.8532840792795132,-0.003909113075165543,-0.319569,-24.746035
11.185,2.0,1.0,1.0,33.1,34.9,34.9,4.1,3.4,2.7,0.43650565148127357,-0.06155104336521335,0.8562548705582748,-0.0055725303397147615,-0.344645,-24.179839
11.185,2.0,1.0,1.0,33.1,34.9,34.9,4.1,3.4,2.7025,0.4241816024101683,-0.06575692763637181,0.8588271609665481,-0.0075979794222538,-0.373872,-23.583571
11.185,2.0,1.0,1.0,33.1,34.9,34.9,4.1,3.4,2.705,0.41125267103902924,-0.0704514246694468,0.8608982314766074,-0.01008675687920568,-0.408276,-22.95408
11.185,2.0,1.0,1.0,33.1,34.9,34.9,4.1,3.4,2.7075,0.39764412369985913,-0.07570588979912991,0.8623297795825785,-0.013175584829943373,-0.449218,-22.287817
11.185,2.0,1.0,1.0,33.1,34.9,34.9,4.1,3.4,2.71,0.38327464375124676,-0.08159775313499662,0.8629331006628752,-0.017051339774972588,-0.498528,-21.580813
11.185,2.0,1.0,1.0,33.1,34.9,34.9,4.1,3.4,2.7125,0.36806219651858735,-0.08820450310839507,0.8624473885671564,-0.021972596820091023,-0.558702,-20.828712
11.185,2.0,1.0,1.0,33.1,34.9,34.9,4.1,3.4,2.715,0.3519382084218977,-0.09558931514137853,0.8605080496690377,-0.028301044912684512,-0.633181,-20.026894
11.185,2.0,1.0,1.0,33.1,34.9,34.9,4.1,3.4,2.7175,0.3348788907226101,-0.10376950747191302,0.8566012727512694,-0.036546441459221715,-0.72676,-19.170799
11.185,2.0,1.0,1.0,33.1,34.9,34.9,4.1,3.4,2.72,0.3169713949278457,-0.11265020139996713,0.8500022097739363,-0.04742759621392245,-0.846136,-18.256655
11.185,2.0,1.0,1.0,33.1,34.9,34.9,4.1,3.4,2.7225,0.29854915251573017,-0.12188904195012079,0.8397020460427767,-0.061943855377967046,-1.000531,-17.282982
11.185,2.0,1.0,1.0,33.1,34.9,34.9,4.1,3.4,2.725,0.28045790984102065,-0.13063104429666902,0.8243586471874239,-0.08142207239010477,-1.202026,-16.253612
11.185,2.0,1.0,1.0,33.1,34.9,34.9,4.1,3.4,2.7275,0.26453950969007156,-0.13702791632484418,0.8023930113821677,-0.1074167297745031,-1.464139,-15.183424
11.185,2.0,1.0,1.0,33.1,34.9,34.9,4.1,3.4,2.73,0.25436012332753916,-0.1375179360675469,0.7725625285685896,-0.14113359630267056,-1.794361,-14.10834
11.185,2.0,1.0,1.0,33.1,34.9,34.9,4.1,3.4,2.7325,0.2557657731375112,-0.12628657430987428,0.7356408942258,-0.18175345390475864,-2.171093,-13.09958
11.185,2.0,1.0,1.0,33.1,34.9,34.9,4.1,3.4,2.735,0.27556867980806443,-0.09659841186633901,0.6974869060971441,-0.22338860103553032,-2.499345,-12.27431
11.185,2.0,1.0,1.0,33.1,34.9,34.9,4.1,3.4,2.7375,0.31584107476262285,-0.04648942391164628,0.6707312132515196,-0.25344992425127305,-2.599249,-11.778441
11.185,2.0,1.0,1.0,33.1,34.9,34.9,4.1,3.4,2.74,0.36692960439682676,0.014332117659274963,0.6683846891673347,-0.2590638903197947,-2.355433,-11.718591
11.185,2.0,1.0,1.0,33.1,34.9,34.9,4.1,3.4,2.7425,0.41140378723494914,0.06851242654609341,0.6917221789976175,-0.23909926818299193,-1.886042,-12.085731
11.185,2.0,1.0,1.0,33.1,34.9,34.9,4.1,3.4,2.745,0.4380275168435593,0.10496276604556734,0.7295858097382132,-0.2047483209980774,-1.401633,-12.762238
11.185,2.0,1.0,1.0,33.1,34.9,34.9,4.1,3.4,2.7475,0.4467992027584361,0.12378469921382174,0.7696957293109947,-0.16822931284355408,-1.012413,-13.60277
11.185,2.0,1.0,1.0,33.1,34.9,34.9,4.1,3.4,2.75,0.443084755365702,0.130376302969945,0.805437729509347,-0.136078379975554,-0.731155,-14.495844
11.185,2.0,1.0,1.0,33.1,34.9,34.9,4.1,3.4,2.7525,0.43214717728670526,0.12999452811350884,0.8350274430710316,-0.11002548495278532,-0.535369,-15.375393
11.185,2.0,1.0,1.0,33.1,34.9,34.9,4.1,3.4,2.755,0.417511492969527,0.12614894600147666,0.8589105912525975,-0.08959499889919906,-0.399846,-16.20861
11.185,2.0,1.0,1.0,33.1,34.9,34.9,4.1,3.4,2.7575,0.40119487059746145,0.12084379829189666,0.8781577580931613,-0.07370140230017526,-0.305289,-16.98208
11.185,2.0,1.0,1.0,33.1,34.9,34.9,4.1,3.4,2.76,0.38426077450952756,0.11513477134460291,0.8938196549682283,-0.06128643835072734,-0.238473,-17.692435
11.185,2.0,1.0,1.0,33.1,34.9,34.9,4.1,3.4,2.7625,0.36723644276045186,0.10954597961371479,0.9067485348470492,-0.05149343973432462,-0.190629,-18.341062
11.185,2.0,1.0,1.0,33.1,34.9,34.9,4.1,3.4,2.765,0.35036291718344437,0.1043189317400106,0.9175895718080302,-0.043673852876589384,-0.155966,-18.931347
11.185,2.0,1.0,1.0,33.1,34.9,34.9,4.1,3.4,2.7675,0.33373275219269455,0.09954934492406481,0.9268187232321653,-0.03734840647996313,-0.130624,-19.467304
11.185,2.0,1.0,1.0,33.1,34.9,34.9,4.1,3.4,2.77,0.3173633568407834,0.09525987882981558,0.9347846667602693,-0.032164740289086426,-0.111995,-19.952912
11.185,2.0,1.0,1.0,33.1,34.9,34.9,4.1,3.4,2.7725,0.3012354991298173,0.09143827262882295,0.9417432871452928,-0.027862723302067086,-0.098285,-20.391826
11.185,2.0,1.0,1.0,33.1,34.9,34.9,4.1,3.4,2.775,0.28531332725380937,0.08805717480890413,0.9478834307522888,-0.024248603387732586,-0.088241,-20.787266
11.185,2.0,1.0,1.0,33.1,34.9,34.9,4.1,3.4,2.7775,0.2695546297603986,0.08508433723679226,0.9533454256584156,-0.02117642482003583,-0.080977,-21.141987
11.185,2.0,1.0,1.0,33.1,34.9,34.9,4.1,3.4,2.78,0.2539159357779908,0.0824877417735626,0.958234217578365,-0.01853483252820555,-0.075852,-21.458296
11.185,2.0,1.0,1.0,33.1,34.9,34.9,4.1,3.4,2.7825,0.23835488370367766,0.0802380689113751,0.9626286634445641,-0.01623770569992328,-0.072402,-21.738078
11.185,2.0,1.0,1.0,33.1,34.9,34.9,4.1,3.4,2.785,0.22283114551529443,0.07830978668791994,0.9665881247959948,-0.014217469472334127,-0.070286,-21.982836
11.185,2.0,1.0,1.0,33.1,34.9,34.9,4.1,3.4,2.7875,0.20730659128656728,0.07668154285546262,0.9701571677300553,-0.012420270907967027,-0.06925,-22.193715
11.185,2.0,1.0,1.0,33.1,34.9,34.9,4.1,3.4,2.79,0.19174505728728738,0.07533622784982168,0.9733689277865403,-0.010802453624301017,-0.069108,-22.371534
11.185,2.0,1.0,1.0,33.1,34.9,34.9,4.1,3.4,2.7925,0.1761119078137557,0.07426090802035484,0.976247522997066,-0.009327938949563826,-0.06972,-22.516807
11.185,2.0,1.0,1.0,33.1,34.9,34.9,4.1,3.4,2.795,0.16037348607641305,0.07344673903967926,0.9788097770563636,-0.007966239944088828,-0.070984,-22.629757
11.185,2.0,1.0,1.0,33.1,34.9,34.9,4.1,3.4,2.7975,0.14449649642117582,0.07288892241557289,0.9810664306604467,-0.006690914435181157,-0.072828,-22.710327
11.185,2.0,1.0,1.0,33.1,34.9,34.9,4.1,3.4,2.8,0.12844732924377017,0.07258674462670278,0.9830229602350102,-0.005478316245703777,-0.075203,-22.758186
11.185,2.0,1.0,1.0,33.1,34.9,34.9,4.1,3.4,2.8025,0.11219132039162885,0.0725437286421374,0.9846800808073766,-0.004306538099092983,-0.078081,-22.772724
11.185,2.0,1.0,1.0,33.1,34.9,34.9,4.1,3.4,2.805,0.09569192244972431,0.07276792637554969,0.9860339774188053,-0.0031544603953719504,-0.081451,-22.753046
11.185,2.0,1.0,1.0,33.1,34.9,34.9,4.1,3.4,2.8075,0.07890975220697787,0.07327238565041469,0.987076282555253,-0.002000830132770434,-0.085319,-22.697956
11.185,2.0,1.0,1.0,33.1,34.9,34.9,4.1,3.4,2.81,0.06180146395654751,0.07407583593372896,0.9877937916907636,-0.0008232949019120768,-0.089707,-22.605932
11.185,2.0,1.0,1.0,33.1,34.9,34.9,4.1,3.4,2.8125,0.0443183794576194,0.0752036541743429,0.98816788132286,0.000402692342742054,-0.094659,-22.475097
11.185,2.0,1.0,1.0,33.1,34.9,34.9,4.1,3.4,2.815,0.026404779288123695,0.07668919760366405,0.9881735591834456,0.0017052034940985095,-0.100236,-22.303169
11.185,2.0,1.0,1.0,33.1,34.9,34.9,4.1,3.4,2.8175,0.007995722706210476,0.07857562800602459,0.987778028046732,0.003117545034127735,-0.106528,-22.087412
11.185,2.0,1.0,1.0,33.1,34.9,34.9,4.1,3.4,2.82,-0.010985792318557785,0.08091840781630583,0.9869385723380713,0.004680557418046208,-0.113659,-21.824547
11.185,2.0,1.0,1.0,33.1,34.9,34.9,4.1,3.4,2.8225,-0.030632600409583505,0.08378873226488977,0.9855994630362189,0.006445823625217306,-0.121798,-21.510661
11.185,2.0,1.0,1.0,33.1,34.9,34.9,4.1,3.4,2.825,-0.051058469521797226,0.08727828951601942,0.983687390145552,0.00848029070307424,-0.131173,-21.141067
11.185,2.0,1.0,1.0,33.1,34.9,34.9,4.1,3.4,2.8275,-0.07240512458756065,0.09150593804836994,0.9811046163211216,0.01087312502487158,-0.142104,-20.710124
11.185,2.0,1.0,1.0,33.1,34.9,34.9,4.1,3.4,2.83,-0.09485209270022654,0.09662719910106571,0.9777184914794318,0.013746182008922301,-0.15504,-20.210998
