1,w,sub_t,h,l1,l2,l3,g1,g2,Freq,S11_re,S21_re,S11_img,S21_img,S11_dB,S21_dB
11.185,2.0,1.0,1.0,33.0,34.2,34.2,2.0,2.1,2.5,0.893208574451472,-0.0099323730261073,0.434295329358442,0.0122849495674976,-0.05932,-36.028041
11.185,2.0,1.0,1.0,33.0,34.2,34.2,2.0,2.1,2.5025,0.8904019108020236,-0.010172933942385401,0.4398548229864047,0.012402266226513695,-0.059963,-35.895521
11.185,2.0,1.0,1.0,33.0,34.2,34.2,2.0,2.1,2.505,0.8875475366532685,-0.010419015912011595,0.44541885326051844,0.012520288989350743,-0.06062,-35.762406
11.185,2.0,1.0,1.0,33.0,34.2,34.2,2.0,2.1,2.5075,0.8846449072599231,-0.010670771648984655,0.4509873124006913,0.012639008852255322,-0.061292,-35.628682
11.185,2.0,1.0,1.0,33.0,34.2,34.2,2.0,2.1,2.51,0.8816934656798467,-0.010928359260167579,0.45656008839615725,0.012758415767652687,-0.061978,-35.494334
11.185,2.0,1.0,1.0,33.0,34.2,34.2,2.0,2.1,2.5125,0.8786926424067177,-0.011191942477772061,0.4621370648181663,0.012878498571098324,-0.062678,-35.35935
11.185,2.0,1.0,1.0,33.0,34.2,34.2,2.0,2.1,2.515,0.8756418549878033,-0.011461690903689987,0.4677181206236951,0.012999244903131361,-0.063394,-35.223713
11.185,2.0,1.0,1.0,33.0,34.2,34.2,2.0,2.1,2.5175,0.8725405076260497,-0.011737780266369584,0.4733031299496338,0.013120641125648811,-0.064127,-35.08741
11.185,2.0,1.0,1.0,33.0,34.2,34.2,2.0,2.1,2.52,0.8693879907656556,-0.012020392690980606,0.47889196189690986,0.013242672232384097,-0.064875,-34.950425
11.185,2.0,1.0,1.0,33.0,34.2,34.2,2.0,2.1,2.5225,0.8661836806602574,-0.012309716983662868,0.4844844803039161,0.013365321753042931,-0.06564,-34.812743
11.185,2.0,1.0,1.0,33.0,34.2,34.2,2.0,2.1,2.525,0.8629269389227776,-0.012605948930706925,0.4900805435086212,0.013488571650610305,-0.066423,-34.674348
11.185,2.0,1.0,1.0,33.0,34.2,34.2,2.0,2.1,2.5275,0.8596171120559366,-0.012909291613572786,0.49568000409865626,0.013612402211300617,-0.067224,-34.535224
11.185,2.0,1.0,1.0,33.0,34.2,34.2,2.0,2.1,2.53,0.8562535309623737,-0.013219955740715664,0.5012827086486307,0.013736791926580803,-0.068044,-34.395354
11.185,2.0,1.0,1.0,33.0,34.2,34.2,2.0,2.1,2.5325,0.8528355104332244,-0.013538159997254572,0.5068884974438749,0.01386171736664501,-0.068882,-34.254722
11.185,2.0,1.0,1.0,33.0,34.2,34.2,2.0,2.1,2.535,0.8493623486139551,-0.01386413141359187,0.5124972041897551,0.013987153044667725,-0.069741,-34.113311
11.185,2.0,1.0,1.0,33.0,34.2,34.2,2.0,2.1,2.5375,0.8458333264461576,-0.014198105754170283,0.5181086557056138,0.014113071271102885,-0.07062,-33.971102
11.185,2.0,1.0,1.0,33.0,34.2,34.2,2.0,2.1,2.54,0.8422477070839184,-0.01454032792763755,0.5237226716023475,0.014239441997232639,-0.071521,-33.828079
11.185,2.0,1.0,1.0,33.0,34.2,34.2,2.0,2.1,2.5425,0.8386047352832909,-0.014891052419780027,0.5293390639425358,0.014366232647099476,-0.072443,-33.684222
11.185,2.0,1.0,1.0,33.0,34.2,34.2,2.0,2.1,2.545,0.8349036367632876,-0.01525054375068469,0.534957636881954,0.014493407936878852,-0.073388,-33.539513
11.185,2.0,1.0,1.0,33.0,34.2,34.2,2.0,2.1,2.5475,0.8311436175367108,-0.015619076957693823,0.5405781862912024,0.014620929680663142,-0.074357,-33.393933
11.185,2.0,1.0,1.0,33.0,34.2,34.2,2.0,2.1,2.55,0.8273238632090005,-0.015996938105833247,0.5462004993561026,0.014748756581537733,-0.07535,-33.247462
11.185,2.0,1.0,1.0,33.0,34.2,34.2,2.0,2.1,2.5525,0.8234435382431805,-0.01638442482751592,0.5518243541553597,0.014876844006725114,-0.076368,-33.100079
11.185,2.0,1.0,1.0,33.0,34.2,34.2,2.0,2.1,2.555,0.819501785188812,-0.016781846893459344,0.5574495192139118,0.015005143745462746,-0.077412,-32.951765
11.185,2.0,1.0,1.0,33.0,34.2,34.2,2.0,2.1,2.5575,0.8154977238727329,-0.017189526816898597,0.5630757530302197,0.015133603748155146,-0.078483,-32.802497
11.185,2.0,1.0,1.0,33.0,34.2,34.2,2.0,2.1,2.56,0.8114304505492002,-0.017607800493333783,0.5687028035756111,0.015262167845205416,-0.079583,-32.652254
11.185,2.0,1.0,1.0,33.0,34.2,34.2,2.0,2.1,2.5625,0.8072990370068635,-0.018037017878222136,0.5743304077636312,0.015390775443779906,-0.080711,-32.501014
11.185,2.0,1.0,1.0,33.0,34.2,34.2,2.0,2.1,2.565,0.8031025296298141,-0.01847754370520847,0.5799582908871783,0.015519361200595395,-0.08187,-32.348754
11.185,2.0,1.0,1.0,33.0,34.2,34.2,2.0,2.1,2.5675,0.7988399484097541,-0.018929758247687847,0.5855861660209845,0.01564785466863195,-0.08306,-32.195451
11.185,2.0,1.0,1.0,33.0,34.2,34.2,2.0,2.1,2.57,0.7945102859060906,-0.01939405812671315,0.5912137333868094,0.015776179915475037,-0.084283,-32.041079
11.185,2.0,1.0,1.0,33.0,34.2,34.2,2.0,2.1,2.5725,0.790112506150528,-0.019870857168494748,0.5968406796784589,0.015904255110762565,-0.085539,-31.885615
11.185,2.0,1.0,1.0,33.0,34.2,34.2,2.0,2.1,2.575,0.7856455434924629,-0.020360587314997354,0.6024666773434754,0.016031992079966147,-0.086831,-31.729034
11.185,2.0,1.0,1.0,33.0,34.2,34.2,2.0,2.1,2.5775,0.7811083013811981,-0.020863699591417637,0.6080913838180568,0.016159295821458218,-0.088159,-31.571308
11.185,2.0,1.0,1.0,33.0,34.2,34.2,2.0,2.1,2.58,0.776499651080686,-0.021380665134630078,0.6137144407114361,0.016286063983511085,-0.089525,-31.412411
11.185,2.0,1.0,1.0,33.0,34.2,34.2,2.0,2.1,2.5825,0.7718184303121562,-0.021911976287019946,0.6193354729355908,0.01641218629753334,-0.090931,-31.252315
11.185,2.0,1.0,1.0,33.0,34.2,34.2,2.0,2.1,2.585,0.7670634418196335,-0.02245814776048117,0.6249540877757542,0.016537543963469955,-0.092377,-31.090993
11.185,2.0,1.0,1.0,33.0,34.2,34.2,2.0,2.1,2.5875,0.7622334518529277,-0.023019717875751314,0.630569873896759,0.016662008982871967,-0.093867,-30.928414
11.185,2.0,1.0,1.0,33.0,34.2,34.2,2.0,2.1,2.59,0.7573271885622583,-0.02359724988268189,0.6361824002797388,0.01678544343466936,-0.095401,-30.764548
11.185,2.0,1.0,1.0,33.0,34.2,34.2,2.0,2.1,2.5925,0.752343340298175,-0.024191333367512162,0.6417912150831884,0.016907698688160926,-0.096982,-30.599365
11.185,2.0,1.0,1.0,33.0,34.2,34.2,2.0,2.1,2.595,0.7472805538099414,-0.024802585753721317,0.6473958444217391,0.017028614547143845,-0.098612,-30.432833
11.185,2.0,1.0,1.0,33.0,34.2,34.2,2.0,2.1,2.5975,0.7421374323349454,-0.025431653903594566,0.6529957910553608,0.017148018318455662,-0.100292,-30.264918
11.185,2.0,1.0,1.0,33.0,34.2,34.2,2.0,2.1,2.6,0.7369125335711005,-0.026079215828244833,0.65859053298091,0.01726572379746716,-0.102025,-30.095587
11.185,2.0,1.0,1.0,33.0,34.2,34.2,2.0,2.1,2.6025,0.731604367523521,-0.026745982514498303,0.6641795219171027,0.0173815301622435,-0.103814,-29.924804
11.185,2.0,1.0,1.0,33.0,34.2,34.2,2.0,2.1,2.605,0.7262113942159895,-0.027432699877780294,0.6697621816730516,0.017495220767169313,-0.10566,-29.752534
11.185,2.0,1.0,1.0,33.0,34.2,34.2,2.0,2.1,2.6075,0.7207320212569446,-0.028140150850934905,0.6753379063894053,0.017606561825801767,-0.107567,-29.578739
11.185,2.0,1.0,1.0,33.0,34.2,34.2,2.0,2.1,2.61,0.7151646012488104,-0.028869157619782277,0.6809060586399622,0.017715300971548546,-0.109538,-29.403381
11.185,2.0,1.0,1.0,33.0,34.2,34.2,2.0,2.1,2.6125,0.7095074290285239,-0.02962058401717595,0.6864659673802616,0.017821165683462554,-0.111574,-29.226419
11.185,2.0,1.0,1.0,33.0,34.2,34.2,2.0,2.1,2.615,0.7037587387260297,-0.030395338088366204,0.6920169257281419,0.017923861562964275,-0.11368,-29.047813
11.185,2.0,1.0,1.0,33.0,34.2,34.2,2.0,2.1,2.6175,0.6979167006263736,-0.031194374841622855,0.6975581885595507,0.01802307044563926,-0.115859,-28.86752
11.185,2.0,1.0,1.0,33.0,34.2,34.2,2.0,2.1,2.62,0.6919794178197111,-0.032018699199330126,0.7030889699009502,0.01811844833037633,-0.118115,-28.685497
11.185,2.0,1.0,1.0,33.0,34.2,34.2,2.0,2.1,2.6225,0.6859449226221539,-0.032869369166142054,0.7086084400974965,0.018209623105975056,-0.12045,-28.501697
11.185,2.0,1.0,1.0,33.0,34.2,34.2,2.0,2.1,2.625,0.679811172748855,-0.0337474992322982,0.714115722733678,0.0182961920529432,-0.12287,-28.316073
11.185,2.0,1.0,1.0,33.0,34.2,34.2,2.0,2.1,2.6275,0.6735760472190059,-0.03465426403185971,0.7196098912803326,0.0183777190954586,-0.125379,-28.128577
11.185,2.0,1.0,1.0,33.0,34.2,34.2,2.0,2.1,2.63,0.6672373419706029,-0.03559090227743801,0.7250899654387583,0.01845373177535765,-0.127982,-27.939159
11.185,2.0,1.0,1.0,33.0,34.2,34.2,2.0,2.1,2.6325,0.6607927651607911,-0.03655872099498493,0.7305549071490364,0.018523717916469323,-0.130682,-27.747765
11.185,2.0,1.0,1.0,33.0,34.2,34.2,2.0,2.1,2.635,0.6542399321253792,-0.037559100084391964,0.7360036162255814,0.018587121943570956,-0.133486,-27.554342
11.185,2.0,1.0,1.0,33.0,34.2,34.2,2.0,2.1,2.6375,0.6475763599686826,-0.03859349723403965,0.7414349255782245,0.018643340815635935,-0.1364,-27.358832
11.185,2.0,1.0,1.0,33.0,34.2,34.2,2.0,2.1,2.64,0.6407994617521706,-0.03966345322005741,0.7468475959718229,0.018691719527768436,-0.139429,-27.161179
11.185,2.0,1.0,1.0,33.0,34.2,34.2,2.0,2.1,2.6425,0.6339065402475113,-0.04077059762391193,0.752240310271225,0.018731546130190346,-0.142579,-26.96132
11.185,2.0,1.0,1.0,33.0,34.2,34.2,2.0,2.1,2.645,0.6268947812163808,-0.041916655005076686,0.7576116671114405,0.018762046205723786,-0.145859,-26.759192
11.185,2.0,1.0,1.0,33.0,34.2,34.2,2.0,2.1,2.6475,0.6197612461759698,-0.04310345156894194,0.762960173924796,0.0187823767392654,-0.149275,-26.554731
11.185,2.0,1.0,1.0,33.0,34.2,34.2,2.0,2.1,2.65,0.612502864605286,-0.04433292237384557,0.7682842392476247,0.018791619303605792,-0.152835,-26.347867
11.185,2.0,1.0,1.0,33.0,34.2,34.2,2.0,2.1,2.6525,0.6051164255433015,-0.04560711912513609,0.7735821642183515,0.018788772475411147,-0.156549,-26.13853
11.185,2.0,1.0,1.0,33.0,34.2,34.2,2.0,2.1,2.655,0.5975985685254656,-0.04692821860855872,0.7788521331665813,0.01877274338301758,-0.160425,-25.926646
11.185,2.0,1.0,1.0,33.0,34.2,34.2,2.0,2.1,2.6575,0.5899457738003503,-0.04829853181997115,0.7840922031785671,0.018742338273627895,-0.164474,-25.712137
11.185,2.0,1.0,1.0,33.0,34.2,34.2,2.0,2.1,2.66,0.582154351762983,-0.049720513853468526,0.789300292507996,0.01869625197119976,-0.168707,-25.494923
11.185,2.0,1.0,1.0,33.0,34.2,34.2,2.0,2.1,2.6625,0.5742204315359164,-0.051196774615412874,0.7944741676819504,0.018633056077409678,-0.173135,-25.274921
11.185,2.0,1.0,1.0,33.0,34.2,34.2,2.0,2.1,2.665,0.5661399486231882,-0.052730090437608124,0.7996114291297512,0.018551185746083745,-0.177772,-25.052043
11.185,2.0,1.0,1.0,33.0,34.2,34.2,2.0,2.1,2.6675,0.5579086315561878,-0.0543234166688876,0.8047094951365475,0.01844892483588053,-0.182632,-24.826198
11.185,2.0,1.0,1.0,33.0,34.2,34.2,2.0,2.1,2.67,0.5495219874440006,-0.05597990133063878,0.8097655838934416,0.018324389216118335,-0.187729,-24.59729
11.185,2.0,1.0,1.0,33.0,34.2,34.2,2.0,2.1,2.6725,0.5409752863342768,-0.05770289992815811,0.8147766933807263,0.018175507965688748,-0.193081,-24.36522
11.185,2.0,1.0,1.0,33.0,34.2,34.2,2.0,2.1,2.675,0.532263544284138,-0.059495991516063246,0.8197395787795987,0.018000002164055697,-0.198705,-24.129884
11.185,2.0,1.0,1.0,33.0,34.2,34.2,2.0,2.1,2.6775,0.5233815050343312,-0.06136299612207017,0.8246507270593616,0.017795360925269257,-0.204621,-23.891172
11.185,2.0,1.0,1.0,33.0,34.2,34.2,2.0,2.1,2.68,0.5143236201740802,-0.06330799363894785,0.8295063283302445,0.01755881426939465,-0.210851,-23.64897
11.185,2.0,1.0,1.0,33.0,34.2,34.2,2.0,2.1,2.6825,0.5050840276793382,-0.06533534429895047,0.8343022434849858,0.017287302359127354,-0.217418,-23.403159
11.185,2.0,1.0,1.0,33.0,34.2,34.2,2.0,2.1,2.685,0.4956565287039362,-0.0674497108478997,0.8390339675732108,0.01697744055068785,-0.224349,-23.153613
11.185,2.0,1.0,1.0,33.0,34.2,34.2,2.0,2.1,2.6875,0.4860345625023574,-0.06965608253649783,0.8436965882590721,0.016625479614992014,-0.231671,-22.900201
11.185,2.0,1.0,1.0,33.0,34.2,34.2,2.0,2.1,2.69,0.47621117936568425,-0.07195980104326424,0.8482847386016934,0.01622726037471746,-0.239417,-22.642784
11.185,2.0,1.0,1.0,33.0,34.2,34.2,2.0,2.1,2.6925,0.4661790114600646,-0.07436658843517205,0.852792543266225,0.01577816187176611,-0.247622,-22.381218
11.185,2.0,1.0,1.0,33.0,34.2,34.2,2.0,2.1,2.695,0.4559302414721577,-0.07688257725648925,0.8572135571165177,0.015273042023553764,-0.256323,-22.115349
11.185,2.0,1.0,1.0,33.0,34.2,34.2,2.0,2.1,2.6975,0.44545656899095937,-0.07951434281073766,0.861540694953515,0.014706169540449404,-0.265563,-21.845018
11.185,2.0,1.0,1.0,33.0,34.2,34.2,2.0,2.1,2.7,0.4347491745942728,-0.08226893766118924,0.8657661509401138,0.014071145654345366,-0.275389,-21.570056
11.185,2.0,1.0,1.0,33.0,34.2,34.2,2.0,2.1,2.7025,0.4237986816657374,-0.08515392831686107,0.8698813059860646,0.01336081394224859,-0.285855,-21.290286
11.185,2.0,1.0,1.0,33.0,34.2,34.2,2.0,2.1,2.705,0.4125951160518878,-0.08817743398656577,0.8738766210461621,0.012567156209843429,-0.297019,-21.00552
11.185,2.0,1.0,1.0,33.0,34.2,34.2,2.0,2.1,2.7075,0.40112786378734433,-0.09134816716391772,0.8777415139005429,0.011681172017098762,-0.308947,-20.715561
11.185,2.0,1.0,1.0,33.0,34.2,34.2,2.0,2.1,2.71,0.3893856272826435,-0.09467547563867373,0.8814642165238329,0.010692738967852024,-0.321712,-20.420203
11.185,2.0,1.0,1.0,33.0,34.2,34.2,2.0,2.1,2.7125,0.3773563806003364,-0.09816938529735723,0.8850316095940224,0.00959045033171705,-0.335397,-20.119226
11.185,2.0,1.0,1.0,33.0,34.2,34.2,2.0,2.1,2.715,0.3650273247639259,-0.10184064275574026,0.8884290300228028,0.008361425900313755,-0.350096,-19.8124
11.185,2.0,1.0,1.0,33.0,34.2,34.2,2.0,2.1,2.7175,0.3523848444821318,-0.10570075642619771,0.8916400465834647,0.006991091177596981,-0.365914,-19.499481
11.185,2.0,1.0,1.0,33.0,34.2,34.2,2.0,2.1,2.72,0.33941446827033805,-0.10976203402180049,0.8946461977429417,0.005462919038730209,-0.382971,-19.180212
11.185,2.0,1.0,1.0,33.0,34.2,34.2,2.0,2.1,2.7225,0.32610083476942875,-0.11403761367866744,0.8974266846392691,0.003758126831828734,-0.401402,-18.854324
11.185,2.0,1.0,1.0,33.0,34.2,34.2,2.0,2.1,2.725,0.3124276691782989,-0.11854148475998008,0.8999580107482741,0.0018553205059134456,-0.421364,-18.521529
11.185,2.0,1.0,1.0,33.0,34.2,34.2,2.0,2.1,2.7275,0.29837777523696885,-0.1232884928822116,0.9022135581136966,-0.0002699243131141689,-0.443033,-18.181528
11.185,2.0,1.0,1.0,33.0,34.2,34.2,2.0,2.1,2.73,0.283933050269218,-0.1282943216301497,0.9041630880313967,-0.0026455563500012635,-0.466613,-17.834005
11.185,2.0,1.0,1.0,33.0,34.2,34.2,2.0,2.1,2.7325,0.2690745336167466,-0.1335754406023967,0.9057721517415916,-0.005303632186523536,-0.49234,-17.478626
11.185,2.0,1.0,1.0,33.0,34.2,34.2,2.0,2.1,2.735,0.2537825026453216,-0.1391490055795856,0.9070013939643858,-0.008281006324357845,-0.520484,-17.115044
11.185,2.0,1.0,1.0,33.0,34.2,34.2,2.0,2.1,2.7375,0.23803663575147893,-0.14503269135969774,0.9078057290091877,-0.011620147965881204,-0.551362,-16.742892
11.185,2.0,1.0,1.0,33.0,34.2,34.2,2.0,2.1,2.74,0.22181626895804463,-0.15124443064775048,0.9081333657435364,-0.015370108092757222,-0.58534,-16.36179
11.185,2.0,1.0,1.0,33.0,34.2,34.2,2.0,2.1,2.7425,0.20510078245491328,-0.15780202262537563,0.9079246540586684,-0.019587664036316132,-0.622848,-15.971344
11.185,2.0,1.0,1.0,33.0,34.2,34.2,2.0,2.1,2.745,0.18787016676308588,-0.16472256151687176,0.9071107219170866,-0.024338672242342367,-0.664393,-15.571145
11.185,2.0,1.0,1.0,33.0,34.2,34.2,2.0,2.1,2.7475,0.17010583634534487,-0.1720216173454402,0.9056118691882652,-0.0296996627567705,-0.710571,-15.160776
11.185,2.0,1.0,1.0,33.0,34.2,34.2,2.0,2.1,2.75,0.15179178314333,-0.179712076454945,0.903335683315155,-0.0357597100524735,-0.76209,-14.739816
11.185,2.0,1.0,1.0,33.0,34.2,34.2,2.0,2.1,2.7525,0.1329161958849484,-0.1878025160703519,0.9001748442181218,-0.04262261236627948,-0.819794,-14.307845
11.185,2.0,1.0,1.0,33.0,34.2,34.2,2.0,2.1,2.755,0.11347371584995612,-0.19629494242495138,0.8960045947977883,-0.05040940265395774,-0.884693,-13.864456
11.185,2.0,1.0,1.0,33.0,34.2,34.2,2.0,2.1,2.7575,0.09346855942217241,-0.2051816624965622,0.8906798740148393,-0.05926119352806101,-0.958002,-13.409266
11.185,2.0,1.0,1.0,33.0,34.2,34.2,2.0,2.1,2.76,0.07291881578881186,-0.21444098160173752,0.8840321500423401,-0.06934231788443519,-1.041191,-12.941936
11.185,2.0,1.0,1.0,33.0,34.2,34.2,2.0,2.1,2.7625,0.05186232765330651,-0.22403131995416523,0.8758660645404165,-0.08084365322626058,-1.136046,-12.462199
11.185,2.0,1.0,1.0,33.0,34.2,34.2,2.0,2.1,2.765,0.030364684530622858,-0.23388322013448776,0.8659561261831843,-0.09398589050372559,-1.244746,-11.96989
11.185,2.0,1.0,1.0,33.0,34.2,34.2,2.0,2.1,2.7675,0.008529996567820832,-0.2438885798429923,0.8540439032306776,-0.1090222966141164,-1.369963,-11.464995
11.185,2.0,1.0,1.0,33.0,34.2,34.2,2.0,2.1,2.77,-0.013484747507637436,-0.2538863097876239,0.8398365063646678,-0.1262401785008019,-1.514986,-10.947718
11.185,2.0,1.0,1.0,33.0,34.2,34.2,2.0,2.1,2.7725,-0.03545084902706722,-0.263643532445605,0.8230076857795453,-0.14595972470204738,-1.683872,-10.41856
11.185,2.0,1.0,1.0,33.0,34.2,34.2,2.0,2.1,2.775,-0.05704376889815866,-0.2728315030377369,0.8032036652440254,-0.16852810302501978,-1.881636,-9.878432
11.185,2.0,1.0,1.0,33.0,34.2,34.2,2.0,2.1,2.7775,-0.07781327434571372,-0.28099583844552595,0.7800569690554691,-0.1943055628631555,-2.114472,-9.328796
11.185,2.0,1.0,1.0,33.0,34.2,34.2,2.0,2.1,2.78,-0.09714850985930118,-0.28752171252795433,0.7532129728280171,-0.22363882112029984,-2.389991,-8.771845
11.185,2.0,1.0,1.0,33.0,34.2,34.2,2.0,2.1,2.7825,-0.11424089613261355,-0.2915969335198231,0.7223755458256036,-0.2568153829170509,-2.717457,-8.210722
11.185,2.0,1.0,1.0,33.0,34.2,34.2,2.0,2.1,2.785,-0.1280518899434765,-0.2921799442051204,0.6873793402452156,-0.2939912738574556,-3.107909,-7.649769
11.185,2.0,1.0,1.0,33.0,34.2,34.2,2.0,2.1,2.7875,-0.13729925996234463,-0.287986393808717,0.6482955986075236,-0.3350853616382849,-3.573987,-7.094793
11.185,2.0,1.0,1.0,33.0,34.2,34.2,2.0,2.1,2.79,-0.14048447725036609,-0.27751684390721,0.6055731642337231,-0.3796386458922865,-4.129014,-6.553305
11.185,2.0,1.0,1.0,33.0,34.2,34.2,2.0,2.1,2.7925,-0.13599259495403448,-0.2591568936072937,0.5602029699303164,-0.42665030429722917,-4.784418,-6.034645
11.185,2.0,1.0,1.0,33.0,34.2,34.2,2.0,2.1,2.795,-0.12229763744571194,-0.23138258455799185,0.5138696702858504,-0.4744268513212458,-5.543666,-5.549897
11.185,2.0,1.0,1.0,33.0,34.2,34.2,2.0,2.1,2.7975,-0.09828871187400044,-0.1930860825399669,0.46902115185720744,-0.5205135861097634,-6.389496,-5.111439
11.185,2.0,1.0,1.0,33.0,34.2,34.2,2.0,2.1,2.8,-0.06368226213713056,-0.14398686717295509,0.42876192144289677,-0.561802056446785,-7.260912,-4.732037
11.185,2.0,1.0,1.0,33.0,34.2,34.2,2.0,2.1,2.8025,-0.019407502604214897,-0.08501547546573066,0.39649265010174634,-0.5948908059818188,-8.024904,-4.423452
11.185,2.0,1.0,1.0,33.0,34.2,34.2,2.0,2.1,2.805,0.03221494985627586,-0.01849019778818758,0.3753062291749343,-0.6166885850443384,-8.480403,-4.194779
11.185,2.0,1.0,1.0,33.0,34.2,34.2,2.0,2.1,2.8075,0.0876651681006492,0.052076458034789885,0.3672952813594778,-0.6251049514087702,-8.459079,-4.050904
11.185,2.0,1.0,1.0,33.0,34.2,34.2,2.0,2.1,2.81,0.1428084026205969,0.12256246028791148,0.3730365991374137,-0.6195632632172,-7.971017,-3.991575
11.185,2.0,1.0,1.0,33.0,34.2,34.2,2.0,2.1,2.8125,0.193688033080334,0.189027941386376,0.39148302368916,-0.60110649868533,-7.194808,-4.011432
11.185,2.0,1.0,1.0,33.0,34.2,34.2,2.0,2.1,2.815,0.23722473544911574,0.24841214598602432,0.42030249765473776,-0.5720570319394858,-6.32775,-4.100975
11.185,2.0,1.0,1.0,33.0,34.2,34.2,2.0,2.1,2.8175,0.27158542557870974,0.2989001305013244,0.4564898716922125,-0.5354050312537391,-5.495328,-4.248123
11.185,2.0,1.0,1.0,33.0,34.2,34.2,2.0,2.1,2.82,0.2961743170189299,0.33991230621452934,0.49699136394593063,-0.4941851658716975,-4.753188,-4.439879
11.185,2.0,1.0,1.0,33.0,34.2,34.2,2.0,2.1,2.8225,0.31136263917772133,0.3718336074421562,0.539151310774041,-0.4510313009132352,-4.115817,-4.663684
11.185,2.0,1.0,1.0,33.0,34.2,34.2,2.0,2.1,2.825,0.3181256705478103,0.3956507339152954,0.5809246427403659,-0.4079652140005823,-3.578548,-4.908309
11.185,2.0,1.0,1.0,33.0,34.2,34.2,2.0,2.1,2.8275,0.31771459365433286,0.4126246068056731,0.6208993678575608,-0.3663748294581519,-3.129541,-5.164276
11.185,2.0,1.0,1.0,33.0,34.2,34.2,2.0,2.1,2.83,0.31142061842943747,0.4240551762096182,0.6582089628446747,-0.3271020901351986,-2.755424,-5.423927
