1,w,sub_t,h,l1,l2,l3,g1,g2,Freq,S11_re,S21_re,S11_img,S21_img,S11_dB,S21_dB
11.185,2.0,1.0,1.0,33.0,33.7,33.7,2.7,3.1,2.5,0.89739696809879,-0.00572367906612561,0.427688361241212,0.00599139846507738,-0.051382,-41.633129
11.185,2.0,1.0,1.0,33.0,33.7,33.7,2.7,3.1,2.5025,0.8947141275907788,-0.005848384275892891,0.4331532768512356,0.006033502381361558,-0.051837,-41.511538
11.185,2.0,1.0,1.0,33.0,33.7,33.7,2.7,3.1,2.505,0.8919872623618859,-0.005975433068131643,0.43862121096066253,0.006075405624346498,-0.052299,-41.389656
11.185,2.0,1.0,1.0,33.0,33.7,33.7,2.7,3.1,2.5075,0.8892159527329612,-0.0061048754429997715,0.44409203546349235,0.006117091519977243,-0.05277,-41.267474
11.185,2.0,1.0,1.0,33.0,33.7,33.7,2.7,3.1,2.51,0.8863997716738298,-0.006236762769703046,0.44956561814792645,0.006158542687938362,-0.053249,-41.144982
11.185,2.0,1.0,1.0,33.0,33.7,33.7,2.7,3.1,2.5125,0.8835382846544402,-0.006371147832188396,0.4550418225497371,0.006199741010233014,-0.053736,-41.022173
11.185,2.0,1.0,1.0,33.0,33.7,33.7,2.7,3.1,2.515,0.8806310494924408,-0.00650808487664164,0.4605205078004288,0.006240667598225252,-0.054232,-40.899036
11.185,2.0,1.0,1.0,33.0,33.7,33.7,2.7,3.1,2.5175,0.8776776161970883,-0.006647629660871752,0.4660015284699764,0.006281302758059906,-0.054737,-40.775561
11.185,2.0,1.0,1.0,33.0,33.7,33.7,2.7,3.1,2.52,0.8746775268093644,-0.006789839505668728,0.47148473440393435,0.006321625954371609,-0.055251,-40.651741
11.185,2.0,1.0,1.0,33.0,33.7,33.7,2.7,3.1,2.5225,0.8716303152381987,-0.0069347733482270375,0.47696997055467366,0.006361615772187908,-0.055774,-40.527563
11.185,2.0,1.0,1.0,33.0,33.7,33.7,2.7,3.1,2.525,0.868535507092663,-0.00708249179773097,0.482457076806524,0.0064012498769257095,-0.056306,-40.40302
11.185,2.0,1.0,1.0,33.0,33.7,33.7,2.7,3.1,2.5275,0.8653926195100161,-0.007233057193203733,0.4879458877945659,0.006440504972374371,-0.056848,-40.2781
11.185,2.0,1.0,1.0,33.0,33.7,33.7,2.7,3.1,2.53,0.8622011609794721,-0.007386533663727017,0.49343623271681053,0.0064793567565513,-0.0574,-40.152795
11.185,2.0,1.0,1.0,33.0,33.7,33.7,2.7,3.1,2.5325,0.858960631161548,-0.007542987191144391,0.4989279351394948,0.006517779875309884,-0.057962,-40.027093
11.185,2.0,1.0,1.0,33.0,33.7,33.7,2.7,3.1,2.535,0.8556705207028507,-0.007702485675367208,0.5044208127952106,0.006555747873570312,-0.058534,-39.900984
11.185,2.0,1.0,1.0,33.0,33.7,33.7,2.7,3.1,2.5375,0.8523303110461572,-0.007865099002408322,0.5099146773735553,0.00659323314403726,-0.059117,-39.774458
11.185,2.0,1.0,1.0,33.0,33.7,33.7,2.7,3.1,2.54,0.8489394742356285,-0.00803089911527686,0.5154093343040016,0.006630206873258118,-0.059711,-39.647505
11.185,2.0,1.0,1.0,33.0,33.7,33.7,2.7,3.1,2.5425,0.8454974727169956,-0.008199960087872599,0.5209045825306466,0.00666663898486723,-0.060317,-39.520113
11.185,2.0,1.0,1.0,33.0,33.7,33.7,2.7,3.1,2.545,0.8420037591325502,-0.008372358202028146,0.5264002142784994,0.006702498079850304,-0.060933,-39.392272
11.185,2.0,1.0,1.0,33.0,33.7,33.7,2.7,3.1,2.5475,0.8384577761107624,-0.008548172027854826,0.531896014810929,0.0067377513736531225,-0.061562,-39.26397
11.185,2.0,1.0,1.0,33.0,33.7,33.7,2.7,3.1,2.55,0.8348589560503334,-0.008727482507555718,0.5373917621779118,0.006772364629946546,-0.062203,-39.135196
11.185,2.0,1.0,1.0,33.0,33.7,33.7,2.7,3.1,2.5525,0.8312067208985029,-0.008910373042880762,0.5428872269546428,0.006806302090847305,-0.062856,-39.005939
11.185,2.0,1.0,1.0,33.0,33.7,33.7,2.7,3.1,2.555,0.8275004819233938,-0.009096929586406975,0.5483821719701145,0.006839526403380541,-0.063522,-38.876187
11.185,2.0,1.0,1.0,33.0,33.7,33.7,2.7,3.1,2.5575,0.8237396394801888,-0.00928724073683825,0.5538763520252037,0.006871998541955873,-0.064201,-38.745929
11.185,2.0,1.0,1.0,33.0,33.7,33.7,2.7,3.1,2.56,0.8199235827709132,-0.009481397838530007,0.5593695135997907,0.0069036777266123645,-0.064893,-38.615152
11.185,2.0,1.0,1.0,33.0,33.7,33.7,2.7,3.1,2.5625,0.816051689597594,-0.009679495085456258,0.5648613945484222,0.006934521336771785,-0.065599,-38.483844
11.185,2.0,1.0,1.0,33.0,33.7,33.7,2.7,3.1,2.565,0.8121233261085391,-0.009881629629848837,0.5703517237839951,0.006964484820221066,-0.066319,-38.351992
11.185,2.0,1.0,1.0,33.0,33.7,33.7,2.7,3.1,2.5675,0.8081378465374931,-0.010087901695752731,0.5758402209488973,0.00699352159702517,-0.067054,-38.219585
11.185,2.0,1.0,1.0,33.0,33.7,33.7,2.7,3.1,2.57,0.804094592935386,-0.010298414697755094,0.5813265960730359,0.007021582958050769,-0.067804,-38.086609
11.185,2.0,1.0,1.0,33.0,33.7,33.7,2.7,3.1,2.5725,0.7999928948943957,-0.010513275365161749,0.5868105492181322,0.0070486179577587595,-0.06857,-37.95305
11.185,2.0,1.0,1.0,33.0,33.7,33.7,2.7,3.1,2.575,0.7958320692640204,-0.010732593871910426,0.5922917701076298,0.007074573300898261,-0.069351,-37.818897
11.185,2.0,1.0,1.0,33.0,33.7,33.7,2.7,3.1,2.5775,0.7916114198588504,-0.010956483972528411,0.597769937741534,0.007099393222709206,-0.070148,-37.684134
11.185,2.0,1.0,1.0,33.0,33.7,33.7,2.7,3.1,2.58,0.7873302371577017,-0.01118506314445986,0.6032447199954444,0.0071230193622114895,-0.070962,-37.548748
11.185,2.0,1.0,1.0,33.0,33.7,33.7,2.7,3.1,2.5825,0.7829877979937603,-0.01141845273710888,0.6087157732030256,0.007145390628128123,-0.071794,-37.412725
11.185,2.0,1.0,1.0,33.0,33.7,33.7,2.7,3.1,2.585,0.7785833652353714,-0.011656778127965334,0.614182741721082,0.007166443056955835,-0.072643,-37.276051
11.185,2.0,1.0,1.0,33.0,33.7,33.7,2.7,3.1,2.5875,0.7741161874570762,-0.01190016888620259,0.619645257476388,0.007186109662661327,-0.07351,-37.138711
11.185,2.0,1.0,1.0,33.0,33.7,33.7,2.7,3.1,2.59,0.7695854986004919,-0.012148758944161477,0.6251029394933417,0.007204320277440845,-0.074396,-37.000689
11.185,2.0,1.0,1.0,33.0,33.7,33.7,2.7,3.1,2.5925,0.7649905176245861,-0.012402686777160093,0.6305553934014785,0.007221001382939954,-0.075302,-36.861971
11.185,2.0,1.0,1.0,33.0,33.7,33.7,2.7,3.1,2.595,0.7603304481449045,-0.012662095592096408,0.6360022109217982,0.007236075931282535,-0.076227,-36.72254
11.185,2.0,1.0,1.0,33.0,33.7,33.7,2.7,3.1,2.5975,0.75560447806124,-0.012927133525341304,0.6414429693308162,0.007249463155209319,-0.077173,-36.582382
11.185,2.0,1.0,1.0,33.0,33.7,33.7,2.7,3.1,2.6,0.7508117791732439,-0.013197953850450618,0.6468772309011646,0.00726107836657153,-0.07814,-36.441478
11.185,2.0,1.0,1.0,33.0,33.7,33.7,2.7,3.1,2.6025,0.7459515067834267,-0.013474715196258433,0.6523045423174875,0.0072708327423661335,-0.079129,-36.299813
11.185,2.0,1.0,1.0,33.0,33.7,33.7,2.7,3.1,2.605,0.7410227992869634,-0.013757581775950632,0.6577244340663214,0.007278633097434937,-0.08014,-36.15737
11.185,2.0,1.0,1.0,33.0,33.7,33.7,2.7,3.1,2.6075,0.7360247777476935,-0.014046723627757043,0.6631364197985248,0.0072843816428805105,-0.081175,-36.014131
11.185,2.0,1.0,1.0,33.0,33.7,33.7,2.7,3.1,2.61,0.7309565454596622,-0.014342316867939976,0.6685399956627592,0.007287975729174817,-0.082233,-35.870078
11.185,2.0,1.0,1.0,33.0,33.7,33.7,2.7,3.1,2.6125,0.7258171874935041,-0.014644543956805403,0.6739346396084008,0.007289307572854891,-0.083317,-35.725193
11.185,2.0,1.0,1.0,33.0,33.7,33.7,2.7,3.1,2.615,0.7206057702269337,-0.01495359397850634,0.6793198106561654,0.007288263965608641,-0.084425,-35.579457
11.185,2.0,1.0,1.0,33.0,33.7,33.7,2.7,3.1,2.6175,0.7153213408585599,-0.015269662935462594,0.6846949481345899,0.007284725964455051,-0.08556,-35.432851
11.185,2.0,1.0,1.0,33.0,33.7,33.7,2.7,3.1,2.62,0.709962926904189,-0.01559295405827489,0.6900594708804024,0.007278568561616392,-0.086723,-35.285355
11.185,2.0,1.0,1.0,33.0,33.7,33.7,2.7,3.1,2.6225,0.7045295356747248,-0.015923678132069845,0.6954127764006671,0.007269660332561229,-0.087913,-35.13695
11.185,2.0,1.0,1.0,33.0,33.7,33.7,2.7,3.1,2.625,0.699020153734727,-0.0162620538402756,0.700754239994413,0.00725786306056903,-0.089132,-34.987613
11.185,2.0,1.0,1.0,33.0,33.7,33.7,2.7,3.1,2.6275,0.6934337463406081,-0.016608308126897467,0.7060832138313334,0.007243031336025447,-0.090382,-34.837326
11.185,2.0,1.0,1.0,33.0,33.7,33.7,2.7,3.1,2.63,0.6877692568574026,-0.016962676578432787,0.7113990259849156,0.007225012128503868,-0.091662,-34.686064
11.185,2.0,1.0,1.0,33.0,33.7,33.7,2.7,3.1,2.6325,0.6820256061529567,-0.01732540382664531,0.7167009794171908,0.0072036443295186,-0.092975,-34.533807
11.185,2.0,1.0,1.0,33.0,33.7,33.7,2.7,3.1,2.635,0.6762016919683108,-0.01769674397350175,0.7219883509120638,0.007178758263649539,-0.094321,-34.380531
11.185,2.0,1.0,1.0,33.0,33.7,33.7,2.7,3.1,2.6375,0.6702963882629784,-0.018076961039662852,0.7272603899539495,0.0071501751655343344,-0.095702,-34.226214
11.185,2.0,1.0,1.0,33.0,33.7,33.7,2.7,3.1,2.64,0.6643085445337054,-0.01846632943802018,0.732516317548194,0.007117706619999341,-0.097118,-34.070829
11.185,2.0,1.0,1.0,33.0,33.7,33.7,2.7,3.1,2.6425,0.6582369851052298,-0.018865134473871753,0.7377553249794578,0.007081153962353577,-0.098571,-33.914354
11.185,2.0,1.0,1.0,33.0,33.7,33.7,2.7,3.1,2.645,0.6520805083914407,-0.019273672873442328,0.7429765725039441,0.007040307635599026,-0.100062,-33.756762
11.185,2.0,1.0,1.0,33.0,33.7,33.7,2.7,3.1,2.6475,0.6458378861252274,-0.01969225334257297,0.7481791879710091,0.0069949465010093765,-0.101594,-33.598028
11.185,2.0,1.0,1.0,33.0,33.7,33.7,2.7,3.1,2.65,0.6395078625551791,-0.02012119715753565,0.7533622653693283,0.006944837098200727,-0.103166,-33.438123
11.185,2.0,1.0,1.0,33.0,33.7,33.7,2.7,3.1,2.6525,0.6330891536072025,-0.020560838790063124,0.7585248632923612,0.006889732850450484,-0.104782,-33.277021
11.185,2.0,1.0,1.0,33.0,33.7,33.7,2.7,3.1,2.655,0.6265804460089307,-0.02101152656883593,0.7636660033174398,0.006829373210619589,-0.106442,-33.114693
11.185,2.0,1.0,1.0,33.0,33.7,33.7,2.7,3.1,2.6575,0.6199803963746986,-0.021473623379825564,0.7687846682922822,0.0067634827425843425,-0.108148,-32.95111
11.185,2.0,1.0,1.0,33.0,33.7,33.7,2.7,3.1,2.66,0.6132876302486694,-0.0219475074080645,0.7738798005222037,0.006691770132591783,-0.109902,-32.78624
11.185,2.0,1.0,1.0,33.0,33.7,33.7,2.7,3.1,2.6625,0.6065007411035407,-0.02243357292359518,0.7789502998506814,0.006613927124403241,-0.111706,-32.620053
11.185,2.0,1.0,1.0,33.0,33.7,33.7,2.7,3.1,2.665,0.599618289292058,-0.022932231114548025,0.7839950216252832,0.006529627371482372,-0.113562,-32.452518
11.185,2.0,1.0,1.0,33.0,33.7,33.7,2.7,3.1,2.6675,0.5926388009483889,-0.023443910970506705,0.7890127745402011,0.006438525198809409,-0.115472,-32.283599
11.185,2.0,1.0,1.0,33.0,33.7,33.7,2.7,3.1,2.67,0.5855607668361782,-0.023969060219542624,0.7940023183458496,0.006340254266149979,-0.117439,-32.113264
11.185,2.0,1.0,1.0,33.0,33.7,33.7,2.7,3.1,2.6725,0.5783826411398815,-0.024508146322542043,0.7989623614150578,0.006234426123771672,-0.119464,-31.941477
11.185,2.0,1.0,1.0,33.0,33.7,33.7,2.7,3.1,2.675,0.5711028401957481,-0.02506165752870312,0.8038915581543825,0.006120628650668869,-0.12155,-31.768201
11.185,2.0,1.0,1.0,33.0,33.7,33.7,2.7,3.1,2.6775,0.5637197411585484,-0.025630103996351555,0.8087885062479588,0.005998424364314928,-0.1237,-31.593399
11.185,2.0,1.0,1.0,33.0,33.7,33.7,2.7,3.1,2.68,0.5562316805998693,-0.02621401898351455,0.813651743720051,0.005867348589798871,-0.125917,-31.417031
11.185,2.0,1.0,1.0,33.0,33.7,33.7,2.7,3.1,2.6825,0.5486369530335231,-0.02681396011299653,0.8184797458010737,0.005726907474905023,-0.128203,-31.239058
11.185,2.0,1.0,1.0,33.0,33.7,33.7,2.7,3.1,2.685,0.5409338093632884,-0.02743051071702638,0.8232709215803162,0.005576575836235926,-0.130562,-31.059438
11.185,2.0,1.0,1.0,33.0,33.7,33.7,2.7,3.1,2.6875,0.533120455247883,-0.0280642812668848,0.828023610426853,0.00541579481984935,-0.132997,-30.878126
11.185,2.0,1.0,1.0,33.0,33.7,33.7,2.7,3.1,2.69,0.5251950493777445,-0.028715910893280266,0.8327360781581858,0.005243969358047487,-0.135511,-30.69508
11.185,2.0,1.0,1.0,33.0,33.7,33.7,2.7,3.1,2.6925,0.5171557016577973,-0.02938606900361417,0.8374065129340044,0.005060465401897143,-0.138108,-30.510253
11.185,2.0,1.0,1.0,33.0,33.7,33.7,2.7,3.1,2.695,0.5090004712900695,-0.03007545700266258,0.8420330208499691,0.004864606906744622,-0.140793,-30.323596
11.185,2.0,1.0,1.0,33.0,33.7,33.7,2.7,3.1,2.6975,0.5007273647495799,-0.030784810123603828,0.8466136212037287,0.004655672545376746,-0.143569,-30.13506
11.185,2.0,1.0,1.0,33.0,33.7,33.7,2.7,3.1,2.7,0.4923343336465929,-0.03151489937672228,0.8511462414022403,0.00443289212053515,-0.14644,-29.944594
11.185,2.0,1.0,1.0,33.0,33.7,33.7,2.7,3.1,2.7025,0.4838192724678881,-0.03226653362353217,0.8556287114760104,0.004195442645162586,-0.149412,-29.752144
11.185,2.0,1.0,1.0,33.0,33.7,33.7,2.7,3.1,2.705,0.47518001618935757,-0.03304056178446536,0.8600587581619251,0.003942444054995083,-0.15249,-29.557655
11.185,2.0,1.0,1.0,33.0,33.7,33.7,2.7,3.1,2.7075,0.46641433775183644,-0.03383787518865936,0.8644339985118897,0.0036729545138465404,-0.155679,-29.361068
11.185,2.0,1.0,1.0,33.0,33.7,33.7,2.7,3.1,2.71,0.4575199453917579,-0.03465941007474271,0.8687519329794567,0.003385965267093801,-0.158984,-29.162325
11.185,2.0,1.0,1.0,33.0,33.7,33.7,2.7,3.1,2.7125,0.448494479817896,-0.03550615025184154,0.8730099379309144,0.003080394993367939,-0.162413,-28.961363
11.185,2.0,1.0,1.0,33.0,33.7,33.7,2.7,3.1,2.715,0.43933551122524866,-0.03637912993028556,0.8772052575207996,0.002755083598199851,-0.165971,-28.758116
11.185,2.0,1.0,1.0,33.0,33.7,33.7,2.7,3.1,2.7175,0.43004053613694077,-0.03727943673166526,0.8813349948644214,0.002408785386234155,-0.169666,-28.552519
11.185,2.0,1.0,1.0,33.0,33.7,33.7,2.7,3.1,2.72,0.4206069740650285,-0.038208214887937214,0.8853961024315538,0.0020401615404825255,-0.173505,-28.3445
11.185,2.0,1.0,1.0,33.0,33.7,33.7,2.7,3.1,2.7225,0.4110321639811958,-0.03916666863916161,0.8893853715758512,0.001647771827778755,-0.177497,-28.133987
11.185,2.0,1.0,1.0,33.0,33.7,33.7,2.7,3.1,2.725,0.40131336058874445,-0.04015606583910813,0.8932994211035309,0.001230065438939124,-0.18165,-27.920904
11.185,2.0,1.0,1.0,33.0,33.7,33.7,2.7,3.1,2.7275,0.39144773038788316,-0.04117774177734535,0.8971346847723027,0.0007853708599050832,-0.185973,-27.70517
11.185,2.0,1.0,1.0,33.0,33.7,33.7,2.7,3.1,2.73,0.38143234752741145,-0.042233103225411656,0.9008873975970514,0.00031188465610280426,-0.190478,-27.486703
11.185,2.0,1.0,1.0,33.0,33.7,33.7,2.7,3.1,2.7325,0.3712641894373915,-0.04332363271316564,0.9045535808222037,-0.00019234096390695536,-0.195175,-27.265417
11.185,2.0,1.0,1.0,33.0,33.7,33.7,2.7,3.1,2.735,0.36094013223960597,-0.04445089303927224,0.9081290254015782,-0.0007294119580408393,-0.200075,-27.041221
11.185,2.0,1.0,1.0,33.0,33.7,33.7,2.7,3.1,2.7375,0.3504569459355721,-0.04561653201682433,0.9116092738044865,-0.00130160780762373,-0.205192,-26.81402
11.185,2.0,1.0,1.0,33.0,33.7,33.7,2.7,3.1,2.74,0.3398112893759622,-0.04682228745108996,0.9149895999413804,-0.0019113986205667385,-0.21054,-26.583716
11.185,2.0,1.0,1.0,33.0,33.7,33.7,2.7,3.1,2.7425,0.32899970502065484,-0.04806999234102633,0.9182649869728715,-0.002561464208533736,-0.216134,-26.350205
11.185,2.0,1.0,1.0,33.0,33.7,33.7,2.7,3.1,2.745,0.3180186135057977,-0.04936158028913561,0.9214301027317764,-0.0032547153992759734,-0.22199,-26.113379
11.185,2.0,1.0,1.0,33.0,33.7,33.7,2.7,3.1,2.7475,0.3068643080435721,-0.050699091094979803,0.9244792724481385,-0.0039943178841885035,-0.228127,-25.873123
11.185,2.0,1.0,1.0,33.0,33.7,33.7,2.7,3.1,2.75,0.295532948692499,-0.0520846764956233,0.927406448421011,-0.00478371894640907,-0.234563,-25.629319
11.185,2.0,1.0,1.0,33.0,33.7,33.7,2.7,3.1,2.7525,0.28402055655185754,-0.0535206060006507,0.9302051762269412,-0.00562667746759058,-0.241321,-25.381842
11.185,2.0,1.0,1.0,33.0,33.7,33.7,2.7,3.1,2.755,0.2723230079540938,-0.05500927274923872,0.9328685569922402,-0.006527297673180704,-0.248424,-25.130561
11.185,2.0,1.0,1.0,33.0,33.7,33.7,2.7,3.1,2.7575,0.26043602875522837,-0.05655319929077478,0.9353892051826186,-0.0074900671482735545,-0.255897,-24.875337
11.185,2.0,1.0,1.0,33.0,33.7,33.7,2.7,3.1,2.76,0.2483551888569662,-0.05815504315708654,0.9377592012776174,-0.008519899740764135,-0.263769,-24.616025
11.185,2.0,1.0,1.0,33.0,33.7,33.7,2.7,3.1,2.7625,0.23607589713734972,-0.059817602051411185,0.9399700385962104,-0.009622184067965724,-0.27207,-24.352473
11.185,2.0,1.0,1.0,33.0,33.7,33.7,2.7,3.1,2.765,0.22359339702235886,-0.06154381842407346,0.9420125634211644,-0.0108028384597614,-0.280835,-24.08452
11.185,2.0,1.0,1.0,33.0,33.7,33.7,2.7,3.1,2.7675,0.21090276300207936,-0.06333678313402746,0.9438769074299544,-0.012068373309030007,-0.290103,-23.811997
11.185,2.0,1.0,1.0,33.0,33.7,33.7,2.7,3.1,2.77,0.19799889848661362,-0.06519973780442129,0.9455524112753162,-0.013425961962401844,-0.299913,-23.534725
11.185,2.0,1.0,1.0,33.0,33.7,33.7,2.7,3.1,2.7725,0.18487653551463584,-0.0671360753633598,0.9470275379641868,-0.0148835214759612,-0.310314,-23.252516
11.185,2.0,1.0,1.0,33.0,33.7,33.7,2.7,3.1,2.775,0.17153023697897193,-0.06914933811045892,0.9482897744543721,-0.016449804786789052,-0.321357,-22.965171
11.185,2.0,1.0,1.0,33.0,33.7,33.7,2.7,3.1,2.7775,0.15795440222888138,-0.07124321245570403,0.9493255196172604,-0.018134506118650834,-0.3331,-22.67248
11.185,2.0,1.0,1.0,33.0,33.7,33.7,2.7,3.1,2.78,0.14414327716080735,-0.07342151922655869,0.9501199563946818,-0.01994838175621567,-0.345606,-22.374222
11.185,2.0,1.0,1.0,33.0,33.7,33.7,2.7,3.1,2.7825,0.13009097023549426,-0.0756881981151812,0.9506569055997933,-0.021903388695646106,-0.35895,-22.07016
11.185,2.0,1.0,1.0,33.0,33.7,33.7,2.7,3.1,2.785,0.11579147628195785,-0.07804728441755854,0.9509186583655691,-0.02401284412023866,-0.373211,-21.760047
11.185,2.0,1.0,1.0,33.0,33.7,33.7,2.7,3.1,2.7875,0.10123871049792414,-0.08050287567071503,0.9508857837187726,-0.02629160916917373,-0.388481,-21.44362
11.185,2.0,1.0,1.0,33.0,33.7,33.7,2.7,3.1,2.79,0.08642655577119883,-0.08305908508366099,0.9505369071398693,-0.028756301077589953,-0.404864,-21.120601
11.185,2.0,1.0,1.0,33.0,33.7,33.7,2.7,3.1,2.7925,0.07134892737978162,-0.08571997773026854,0.949848455247425,-0.03142553847974787,-0.422478,-20.790694
11.185,2.0,1.0,1.0,33.0,33.7,33.7,2.7,3.1,2.795,0.05599986034993097,-0.08848948425842472,0.9487943609069032,-0.03432022549608496,-0.441455,-20.453588
11.185,2.0,1.0,1.0,33.0,33.7,33.7,2.7,3.1,2.7975,0.04037362635437049,-0.0913712852769319,0.9473457220987626,-0.03746388117895573,-0.461949,-20.10895
11.185,2.0,1.0,1.0,33.0,33.7,33.7,2.7,3.1,2.8,0.02446488914170968,-0.0943686574858866,0.9454704067857225,-0.040883021974438036,-0.484134,-19.75643
11.185,2.0,1.0,1.0,33.0,33.7,33.7,2.7,3.1,2.8025,0.008268910270293202,-0.09748426985167381,0.9431325948018672,-0.044607606060668166,-0.508211,-19.395658
11.185,2.0,1.0,1.0,33.0,33.7,33.7,2.7,3.1,2.805,-0.00821817940129799,-0.10071991447188372,0.9402922464762237,-0.04867154971764422,-0.534411,-19.026239
11.185,2.0,1.0,1.0,33.0,33.7,33.7,2.7,3.1,2.8075,-0.024999022138785878,-0.10407615193015661,0.9369044863663297,-0.05311332720365026,-0.563003,-18.64776
11.185,2.0,1.0,1.0,33.0,33.7,33.7,2.7,3.1,2.81,-0.04207456286852301,-0.1075518445070142,0.9329188892409285,-0.057976666832257384,-0.594298,-18.259782
11.185,2.0,1.0,1.0,33.0,33.7,33.7,2.7,3.1,2.8125,-0.0594434304121895,-0.111143542057247,0.928278654545222,-0.0633113568324658,-0.62866,-17.861845
11.185,2.0,1.0,1.0,33.0,33.7,33.7,2.7,3.1,2.815,-0.07710112354944951,-0.1148446739802648,0.9229196554037465,-0.06917417473848009,-0.666518,-17.453464
11.185,2.0,1.0,1.0,33.0,33.7,33.7,2.7,3.1,2.8175,-0.09503893979811057,-0.11864448556703258,0.9167693494310226,-0.07562995283254478,-0.708374,-17.034137
11.185,2.0,1.0,1.0,33.0,33.7,33.7,2.7,3.1,2.82,-0.11324256456606091,-0.12252663690136338,0.909745542326459,-0.08275278846280369,-0.754825,-16.603339
11.185,2.0,1.0,1.0,33.0,33.7,33.7,2.7,3.1,2.8225,-0.13169021156572308,-0.1264673559016278,0.9017550032128051,-0.09062740010373802,-0.806581,-16.160533
11.185,2.0,1.0,1.0,33.0,33.7,33.7,2.7,3.1,2.825,-0.15035017022838784,-0.13043300216206408,0.8926919458081619,-0.09935061496520578,-0.864489,-15.705172
11.185,2.0,1.0,1.0,33.0,33.7,33.7,2.7,3.1,2.8275,-0.16917757020885965,-0.1343768529016063,0.8824364163741052,-0.1090329472416267,-0.929569,-15.23671
11.185,2.0,1.0,1.0,33.0,33.7,33.7,2.7,3.1,2.83,-0.1881101148875654,-0.13823486452406117,0.8708526751681128,-0.11980018055848919,-1.003054,-14.754616
