1,w,sub_t,h,l1,l2,l3,g1,g2,Freq,S11_re,S21_re,S11_img,S21_img,S11_dB,S21_dB
11.185,2.0,1.0,1.0,34.4,33.7,33.7,1.6,2.6,2.5,0.706647770615954,-0.0210246787576172,0.694326024206147,0.0125997383895286,-0.081364,-32.212769
11.185,2.0,1.0,1.0,34.4,33.7,33.7,1.6,2.6,2.5025,0.7007740535345749,-0.021436930976406546,0.7000879117135644,0.012590839536494888,-0.082392,-32.089615
11.185,2.0,1.0,1.0,34.4,33.7,33.7,1.6,2.6,2.505,0.6948178327216671,-0.021856758715631912,0.705832169024247,0.012577786371378206,-0.083439,-31.965985
11.185,2.0,1.0,1.0,34.4,33.7,33.7,1.6,2.6,2.5075,0.6887781805267508,-0.02228430419522457,0.7115579654567934,0.012560405173246629,-0.084505,-31.841872
11.185,2.0,1.0,1.0,34.4,33.7,33.7,1.6,2.6,2.51,0.6826541575679028,-0.02271971220540698,0.7172644438579544,0.012538515519972284,-0.085591,-31.717271
11.185,2.0,1.0,1.0,34.4,33.7,33.7,1.6,2.6,2.5125,0.6764448127316264,-0.023163130128122694,0.7229507197500614,0.01251193001493227,-0.086696,-31.592173
11.185,2.0,1.0,1.0,34.4,33.7,33.7,1.6,2.6,2.515,0.6701491831835666,-0.02361470795618348,0.728615880450405,0.012480454001803103,-0.087823,-31.466571
11.185,2.0,1.0,1.0,34.4,33.7,33.7,1.6,2.6,2.5175,0.6637662943909014,-0.02407459830987347,0.7342589841616004,0.012443885266896913,-0.088972,-31.340457
11.185,2.0,1.0,1.0,34.4,33.7,33.7,1.6,2.6,2.52,0.6572951601572256,-0.024542956450733417,0.7398790590319696,0.012402013728462141,-0.090142,-31.213825
11.185,2.0,1.0,1.0,34.4,33.7,33.7,1.6,2.6,2.5225,0.6507347826708577,-0.025019940292220426,0.7454751021849154,0.012354621112342293,-0.091335,-31.086666
11.185,2.0,1.0,1.0,34.4,33.7,33.7,1.6,2.6,2.525,0.6440841525674948,-0.025505710406918847,0.7510460787162349,0.01230148061335845,-0.092552,-30.958973
11.185,2.0,1.0,1.0,34.4,33.7,33.7,1.6,2.6,2.5275,0.6373422490082391,-0.026000430029948163,0.7565909206583022,0.012242356541746576,-0.093793,-30.830738
11.185,2.0,1.0,1.0,34.4,33.7,33.7,1.6,2.6,2.53,0.6305080397740704,-0.026504265058186004,0.7621085259099835,0.012177003953953046,-0.095058,-30.701952
11.185,2.0,1.0,1.0,34.4,33.7,33.7,1.6,2.6,2.5325,0.6235804813778968,-0.027017384044894194,0.7675977571311222,0.012105168267051552,-0.09635,-30.572609
11.185,2.0,1.0,1.0,34.4,33.7,33.7,1.6,2.6,2.535,0.6165585191953882,-0.027539958189302317,0.7730574406004198,0.012026584856013607,-0.097668,-30.442699
11.185,2.0,1.0,1.0,34.4,33.7,33.7,1.6,2.6,2.5375,0.609441087615885,-0.02807216132066635,0.7784863650354447,0.011940978633023501,-0.099012,-30.312215
11.185,2.0,1.0,1.0,34.4,33.7,33.7,1.6,2.6,2.54,0.6022271102147205,-0.028614169876283412,0.7838832803735051,0.011848063607989935,-0.100385,-30.181147
11.185,2.0,1.0,1.0,34.4,33.7,33.7,1.6,2.6,2.5425,0.5949154999484114,-0.0291661628729,0.78924689651207,0.011747542429364866,-0.101787,-30.049487
11.185,2.0,1.0,1.0,34.4,33.7,33.7,1.6,2.6,2.545,0.587505159374232,-0.029728321870907785,0.7945758820073606,0.011639105904334144,-0.103219,-29.917227
11.185,2.0,1.0,1.0,34.4,33.7,33.7,1.6,2.6,2.5475,0.5799949808958073,-0.030300830930670566,0.7998688627297029,0.011522432497402101,-0.104681,-29.784358
11.185,2.0,1.0,1.0,34.4,33.7,33.7,1.6,2.6,2.55,0.5723838470364163,-0.030883876560276767,0.8051244204742009,0.01139718780633788,-0.106176,-29.65087
11.185,2.0,1.0,1.0,34.4,33.7,33.7,1.6,2.6,2.5525,0.5646706307418656,-0.03147764765395144,0.8103410915252028,0.01126302401440623,-0.107702,-29.516755
11.185,2.0,1.0,1.0,34.4,33.7,33.7,1.6,2.6,2.555,0.5568541957148321,-0.03208233542030465,0.8155173651730265,0.01111957931774661,-0.109263,-29.382003
11.185,2.0,1.0,1.0,34.4,33.7,33.7,1.6,2.6,2.5575,0.5489333967827392,-0.03269813329952523,0.8206516821813363,0.01096647732671153,-0.110858,-29.246605
11.185,2.0,1.0,1.0,34.4,33.7,33.7,1.6,2.6,2.56,0.5409070803013518,-0.03332523686855754,0.825742433203508,0.010803326439913602,-0.112489,-29.110552
11.185,2.0,1.0,1.0,34.4,33.7,33.7,1.6,2.6,2.5625,0.5327740845963888,-0.033963843733223746,0.8307879571462891,0.010629719189669947,-0.114157,-28.973833
11.185,2.0,1.0,1.0,34.4,33.7,33.7,1.6,2.6,2.565,0.5245332404456006,-0.03461415340617046,0.8357865394789792,0.010445231557465285,-0.115863,-28.836438
11.185,2.0,1.0,1.0,34.4,33.7,33.7,1.6,2.6,2.5675,0.5161833716039328,-0.03527636716942774,0.8407364104863193,0.010249422257989131,-0.117609,-28.698359
11.185,2.0,1.0,1.0,34.4,33.7,33.7,1.6,2.6,2.57,0.5077232953745203,-0.03595068792027477,0.8456357434632182,0.010041831990227837,-0.119395,-28.559584
11.185,2.0,1.0,1.0,34.4,33.7,33.7,1.6,2.6,2.5725,0.4991518232284459,-0.03663731999899837,0.8504826528493699,0.00982198265401671,-0.121223,-28.420103
11.185,2.0,1.0,1.0,34.4,33.7,33.7,1.6,2.6,2.575,0.4904677614763861,-0.03733646899701997,0.8552751923017871,0.009589376530380936,-0.123095,-28.279905
11.185,2.0,1.0,1.0,34.4,33.7,33.7,1.6,2.6,2.5775,0.48166991199544434,-0.03804834154374321,0.8600113527031806,0.00934349542390598,-0.125011,-28.138981
11.185,2.0,1.0,1.0,34.4,33.7,33.7,1.6,2.6,2.58,0.47275707301469067,-0.03877314507034084,0.8646890601040711,0.009083799765295355,-0.126974,-27.997318
11.185,2.0,1.0,1.0,34.4,33.7,33.7,1.6,2.6,2.5825,0.46372803996312967,-0.03951108754855934,0.8693061735964588,0.008809727672178733,-0.128985,-27.854907
11.185,2.0,1.0,1.0,34.4,33.7,33.7,1.6,2.6,2.585,0.45458160638407835,-0.04026237720246046,0.8738604831167941,0.008520693966138618,-0.131045,-27.711735
11.185,2.0,1.0,1.0,34.4,33.7,33.7,1.6,2.6,2.5875,0.4453165649201508,-0.04102722219085482,0.8783497071759486,0.00821608914382367,-0.133156,-27.567791
11.185,2.0,1.0,1.0,34.4,33.7,33.7,1.6,2.6,2.59,0.43593170837335243,-0.04180583025799687,0.8827714905137929,0.007895278299910592,-0.135319,-27.423063
11.185,2.0,1.0,1.0,34.4,33.7,33.7,1.6,2.6,2.5925,0.42642583084502717,-0.042598408349916864,0.8871234016759458,0.007557599999565977,-0.137538,-27.277541
11.185,2.0,1.0,1.0,34.4,33.7,33.7,1.6,2.6,2.595,0.41679772896075656,-0.04340516219354759,0.8914029305101661,0.00720236509794611,-0.139813,-27.131211
11.185,2.0,1.0,1.0,34.4,33.7,33.7,1.6,2.6,2.5975,0.4070462031855763,-0.044226295835576364,0.8956074855798064,0.006828855504149793,-0.142147,-26.984061
11.185,2.0,1.0,1.0,34.4,33.7,33.7,1.6,2.6,2.6,0.39717005923526366,-0.04506201113769709,0.8997343914916672,0.006436322886915,-0.144541,-26.836079
11.185,2.0,1.0,1.0,34.4,33.7,33.7,1.6,2.6,2.6025,0.3871681095898218,-0.04591250722466515,0.9037808861355237,0.006023987319218472,-0.146997,-26.687252
11.185,2.0,1.0,1.0,34.4,33.7,33.7,1.6,2.6,2.605,0.37703917511564367,-0.04677797988126437,0.9077441178325212,0.005591035858801048,-0.149519,-26.537568
11.185,2.0,1.0,1.0,34.4,33.7,33.7,1.6,2.6,2.6075,0.366782086803314,-0.04765862089396806,0.9116211423895758,0.0051366210614977965,-0.152107,-26.387012
11.185,2.0,1.0,1.0,34.4,33.7,33.7,1.6,2.6,2.61,0.3563956876284372,-0.048554617332730844,0.9154089200568216,0.004659859424105063,-0.154766,-26.235572
11.185,2.0,1.0,1.0,34.4,33.7,33.7,1.6,2.6,2.6125,0.34587883454336416,-0.04946615076796561,0.9191043123851104,0.004159829753362643,-0.157496,-26.083233
11.185,2.0,1.0,1.0,34.4,33.7,33.7,1.6,2.6,2.615,0.3352304006082314,-0.05039339641734674,0.9227040789804789,0.0036355714574687636,-0.160301,-25.929982
11.185,2.0,1.0,1.0,34.4,33.7,33.7,1.6,2.6,2.6175,0.32444927727028106,-0.05133652221663087,0.9262048741524217,0.0030860827563818478,-0.163183,-25.775805
11.185,2.0,1.0,1.0,34.4,33.7,33.7,1.6,2.6,2.62,0.3135343768010444,-0.05229568780819609,0.9296032434527807,0.002510318806991475,-0.166146,-25.620687
11.185,2.0,1.0,1.0,34.4,33.7,33.7,1.6,2.6,2.6225,0.3024846349016029,-0.053271043440470095,0.9328956201019608,0.0019071897390663375,-0.169192,-25.464613
11.185,2.0,1.0,1.0,34.4,33.7,33.7,1.6,2.6,2.625,0.291299013486878,-0.0542627287708313,0.936078321299148,0.00127555859770611,-0.172324,-25.307568
11.185,2.0,1.0,1.0,34.4,33.7,33.7,1.6,2.6,2.6275,0.2799765036606149,-0.05527087156394072,0.9391475444131487,0.0006142391878386186,-0.175547,-25.149537
11.185,2.0,1.0,1.0,34.4,33.7,33.7,1.6,2.6,2.63,0.26851612889357135,-0.05629558627676672,0.9420993630504206,-7.800618388208675e-05,-0.178862,-24.990505
11.185,2.0,1.0,1.0,34.4,33.7,33.7,1.6,2.6,2.6325,0.256916948418283,-0.05733697252081344,0.944929722996817,-0.0008024690746163583,-0.182274,-24.830454
11.185,2.0,1.0,1.0,34.4,33.7,33.7,1.6,2.6,2.635,0.24517806085473984,-0.05839511339124188,0.9476344380295686,-0.001560497383347416,-0.185786,-24.66937
11.185,2.0,1.0,1.0,34.4,33.7,33.7,1.6,2.6,2.6375,0.23329860808232988,-0.05947007365167289,0.9502091855959571,-0.0023534979465827757,-0.189403,-24.507234
11.185,2.0,1.0,1.0,34.4,33.7,33.7,1.6,2.6,2.64,0.2212777793744815,-0.06056189776248315,0.95264950235517,-0.003182939257168269,-0.193128,-24.344031
11.185,2.0,1.0,1.0,34.4,33.7,33.7,1.6,2.6,2.6425,0.20911481581370447,-0.061670607739328843,0.9549507795798263,-0.0040503543118207575,-0.196966,-24.179742
11.185,2.0,1.0,1.0,34.4,33.7,33.7,1.6,2.6,2.645,0.19680901500596043,-0.06279620082746101,0.9571082584136642,-0.004957343593177148,-0.200921,-24.014351
11.185,2.0,1.0,1.0,34.4,33.7,33.7,1.6,2.6,2.6475,0.18435973611475162,-0.0639386469761099,0.9591170249819576,-0.005905578192329727,-0.204999,-23.847839
11.185,2.0,1.0,1.0,34.4,33.7,33.7,1.6,2.6,2.65,0.1717664052368008,-0.06509788609581312,0.960972005351291,-0.006896803077992163,-0.209204,-23.680187
11.185,2.0,1.0,1.0,34.4,33.7,33.7,1.6,2.6,2.6525,0.15902852114292998,-0.06627382508001478,0.9626679603354212,-0.007932840518584406,-0.213541,-23.511377
11.185,2.0,1.0,1.0,34.4,33.7,33.7,1.6,2.6,2.655,0.14614566140945706,-0.06746633457058114,0.9641994801440859,-0.009015593663669112,-0.218016,-23.341389
11.185,2.0,1.0,1.0,34.4,33.7,33.7,1.6,2.6,2.6575,0.13311748896748432,-0.06867524544501906,0.9655609788718237,-0.010147050291271546,-0.222635,-23.170204
11.185,2.0,1.0,1.0,34.4,33.7,33.7,1.6,2.6,2.66,0.11994375909954286,-0.06990034500115255,0.9667466888240545,-0.011329286727698005,-0.227403,-22.997801
11.185,2.0,1.0,1.0,34.4,33.7,33.7,1.6,2.6,2.6625,0.10662432691542627,-0.071141372812778,0.967750654677998,-0.012564471946502367,-0.232329,-22.82416
11.185,2.0,1.0,1.0,34.4,33.7,33.7,1.6,2.6,2.665,0.09315915534155747,-0.07239801622736648,0.9685667274763178,-0.013854871853244232,-0.237417,-22.649259
11.185,2.0,1.0,1.0,34.4,33.7,33.7,1.6,2.6,2.6675,0.0795483236610921,-0.07366990547417851,0.969188558451833,-0.015202853762604666,-0.242676,-22.473078
11.185,2.0,1.0,1.0,34.4,33.7,33.7,1.6,2.6,2.67,0.06579203664492897,-0.0749566083481952,0.9696095926821534,-0.016610891074290132,-0.248112,-22.295593
11.185,2.0,1.0,1.0,34.4,33.7,33.7,1.6,2.6,2.6725,0.05189063431718426,-0.07625762443199775,0.9698230625737112,-0.018081568153920122,-0.253735,-22.116783
11.185,2.0,1.0,1.0,34.4,33.7,33.7,1.6,2.6,2.675,0.03784460240236187,-0.07757237881413107,0.9698219811754327,-0.01961758542475406,-0.259551,-21.936624
11.185,2.0,1.0,1.0,34.4,33.7,33.7,1.6,2.6,2.6775,0.023654583505391884,-0.07890021525852504,0.969599135323194,-0.021221764675652798,-0.265572,-21.755092
11.185,2.0,1.0,1.0,34.4,33.7,33.7,1.6,2.6,2.68,0.00932138908019777,-0.08024038877517592,0.9691470786172611,-0.022897054590044194,-0.271804,-21.572164
11.185,2.0,1.0,1.0,34.4,33.7,33.7,1.6,2.6,2.6825,-0.0051539877527666655,-0.0815920575374694,0.9684581242362419,-0.0246465364998628,-0.27826,-21.387814
11.185,2.0,1.0,1.0,34.4,33.7,33.7,1.6,2.6,2.685,-0.019770358474242553,-0.08295427408621302,0.967524337592562,-0.026473430367406278,-0.284949,-21.202017
11.185,2.0,1.0,1.0,34.4,33.7,33.7,1.6,2.6,2.6875,-0.034526324447513426,-0.08432597575456904,0.9663375288362941,-0.028381100996770714,-0.291883,-21.014746
11.185,2.0,1.0,1.0,34.4,33.7,33.7,1.6,2.6,2.69,-0.04942026113530046,-0.08570597424159739,0.9648892452163464,-0.030373064474922273,-0.299073,-20.825976
11.185,2.0,1.0,1.0,34.4,33.7,33.7,1.6,2.6,2.6925,-0.06445030116704689,-0.08709294425495398,0.9631707633104891,-0.032452994840503444,-0.306532,-20.635678
11.185,2.0,1.0,1.0,34.4,33.7,33.7,1.6,2.6,2.695,-0.0796143161635618,-0.08848541113536751,0.961173081138749,-0.03462473097605376,-0.314273,-20.443825
11.185,2.0,1.0,1.0,34.4,33.7,33.7,1.6,2.6,2.6975,-0.09490989721740638,-0.08988173736676675,0.9588869101782145,-0.036892283716405544,-0.322312,-20.250387
11.185,2.0,1.0,1.0,34.4,33.7,33.7,1.6,2.6,2.7,-0.11033433391781819,-0.0912801078662443,0.9563026673014775,-0.03925984316245239,-0.330662,-20.055336
11.185,2.0,1.0,1.0,34.4,33.7,33.7,1.6,2.6,2.7025,-0.1258845917984757,-0.09267851393733728,0.9534104666658679,-0.04173178618521543,-0.339341,-19.85864
11.185,2.0,1.0,1.0,34.4,33.7,33.7,1.6,2.6,2.705,-0.14155728807473877,-0.09407473575825483,0.9502001115864767,-0.044312684099963764,-0.348365,-19.660269
11.185,2.0,1.0,1.0,34.4,33.7,33.7,1.6,2.6,2.7075,-0.15734866552416235,-0.09546632326358268,0.9466610864328079,-0.047007310483971415,-0.357754,-19.460191
11.185,2.0,1.0,1.0,34.4,33.7,33.7,1.6,2.6,2.71,-0.17325456434987482,-0.09685057526349565,0.9427825485970436,-0.04982064910406958,-0.367525,-19.258373
11.185,2.0,1.0,1.0,34.4,33.7,33.7,1.6,2.6,2.7125,-0.18927039185068295,-0.0982245166284844,0.938553320591443,-0.05275790191131138,-0.377701,-19.054781
11.185,2.0,1.0,1.0,34.4,33.7,33.7,1.6,2.6,2.715,-0.20539108970444447,-0.09958487334987835,0.9339618823437315,-0.055824497049482474,-0.388304,-18.849382
11.185,2.0,1.0,1.0,34.4,33.7,33.7,1.6,2.6,2.7175,-0.22161109865207787,-0.10092804526687109,0.9289963637726413,-0.05902609681159705,-0.399358,-18.64214
11.185,2.0,1.0,1.0,34.4,33.7,33.7,1.6,2.6,2.72,-0.23792432034838112,-0.10225007622913354,0.9236445377415506,-0.06236860546350533,-0.410888,-18.433018
11.185,2.0,1.0,1.0,34.4,33.7,33.7,1.6,2.6,2.7225,-0.25432407612258673,-0.10354662144025421,0.917893813506754,-0.06585817683589205,-0.422923,-18.22198
11.185,2.0,1.0,1.0,34.4,33.7,33.7,1.6,2.6,2.725,-0.2708030623657325,-0.10481291170096711,0.9117312307989154,-0.06950122156469178,-0.435491,-18.008988
11.185,2.0,1.0,1.0,34.4,33.7,33.7,1.6,2.6,2.7275,-0.28735330223377153,-0.10604371424222452,0.9051434547021814,-0.07330441383473482,-0.448625,-17.794002
11.185,2.0,1.0,1.0,34.4,33.7,33.7,1.6,2.6,2.73,-0.30396609332415353,-0.10723328980641934,0.8981167715262585,-0.07727469745143452,-0.462359,-17.576982
11.185,2.0,1.0,1.0,34.4,33.7,33.7,1.6,2.6,2.7325,-0.3206319509496126,-0.10837534560029209,0.8906370859030004,-0.08141929102974307,-0.47673,-17.357888
11.185,2.0,1.0,1.0,34.4,33.7,33.7,1.6,2.6,2.735,-0.3373405465956394,-0.10946298370505929,0.8826899193821025,-0.08574569204732092,-0.491777,-17.136678
11.185,2.0,1.0,1.0,34.4,33.7,33.7,1.6,2.6,2.7375,-0.35408064110761645,-0.11048864448795087,0.8742604108513709,-0.09026167945870897,-0.507543,-16.913308
11.185,2.0,1.0,1.0,34.4,33.7,33.7,1.6,2.6,2.74,-0.37084001210960804,-0.11144404451452272,0.8653333191672312,-0.09497531450774324,-0.524075,-16.687735
11.185,2.0,1.0,1.0,34.4,33.7,33.7,1.6,2.6,2.7425,-0.38760537510943704,-0.11232010841281845,0.8558930284524534,-0.09989493930482356,-0.541422,-16.459914
11.185,2.0,1.0,1.0,34.4,33.7,33.7,1.6,2.6,2.745,-0.40436229769396637,-0.11310689408875038,0.8459235566025303,-0.10502917265183764,-0.559639,-16.229799
11.185,2.0,1.0,1.0,34.4,33.7,33.7,1.6,2.6,2.7475,-0.4210951061645686,-0.11379351063723128,0.8354085676420558,-0.11038690249815264,-0.578785,-15.997344
11.185,2.0,1.0,1.0,34.4,33.7,33.7,1.6,2.6,2.75,-0.437786783906374,-0.114368028236054,0.824331388690948,-0.115977274293228,-0.598923,-15.762501
11.185,2.0,1.0,1.0,34.4,33.7,33.7,1.6,2.6,2.7525,-0.454418860726379,-0.11481737925006967,0.8126750324405216,-0.12180967436169127,-0.620124,-15.525221
11.185,2.0,1.0,1.0,34.4,33.7,33.7,1.6,2.6,2.755,-0.47097129233638135,-0.11512724971301835,0.800422226205491,-0.12789370726115667,-0.642461,-15.285457
11.185,2.0,1.0,1.0,34.4,33.7,33.7,1.6,2.6,2.7575,-0.4874223290985945,-0.11528196029514597,0.7875554488144242,-0.13423916588701118,-0.666018,-15.043158
11.185,2.0,1.0,1.0,34.4,33.7,33.7,1.6,2.6,2.76,-0.5037483730968502,-0.11526433580893239,0.7740569768337389,-0.14085599285628805,-0.690883,-14.798274
11.185,2.0,1.0,1.0,34.4,33.7,33.7,1.6,2.6,2.7625,-0.5199238225484673,-0.11505556225628524,0.7599089418950599,-0.14775423142831856,-0.717156,-14.550754
11.185,2.0,1.0,1.0,34.4,33.7,33.7,1.6,2.6,2.765,-0.5359209025352014,-0.1146350303830763,0.7450934012204287,-0.15494396389560475,-0.744943,-14.30055
11.185,2.0,1.0,1.0,34.4,33.7,33.7,1.6,2.6,2.7675,-0.551709481012803,-0.11398016468726326,0.729592423822708,-0.16243523499583287,-0.774362,-14.047609
11.185,2.0,1.0,1.0,34.4,33.7,33.7,1.6,2.6,2.77,-0.5672568690662771,-0.11306623683352843,0.7133881953094899,-0.1702379574454238,-0.805542,-13.791882
11.185,2.0,1.0,1.0,34.4,33.7,33.7,1.6,2.6,2.7725,-0.5825276044225672,-0.11186616247167151,0.6964631447488984,-0.17836179616546513,-0.838624,-13.53332
11.185,2.0,1.0,1.0,34.4,33.7,33.7,1.6,2.6,2.775,-0.5974832173296797,-0.11035028055281422,0.6788000976770237,-0.1868160271501257,-0.873764,-13.271874
11.185,2.0,1.0,1.0,34.4,33.7,33.7,1.6,2.6,2.7775,-0.6120819780801848,-0.1084861144063317,0.660382460053052,-0.19560936620233543,-0.911134,-13.007499
11.185,2.0,1.0,1.0,34.4,33.7,33.7,1.6,2.6,2.78,-0.626278625723294,-0.10623811410676,0.6411944388133805,-0.20474976191744723,-0.950924,-12.740149
11.185,2.0,1.0,1.0,34.4,33.7,33.7,1.6,2.6,2.7825,-0.640024077906024,-0.10356738005669494,0.6212213056552036,-0.21424414631828664,-0.993343,-12.469783
11.185,2.0,1.0,1.0,34.4,33.7,33.7,1.6,2.6,2.785,-0.6532651223529808,-0.10043136828122956,0.6004497118067337,-0.22409813542069315,-1.038624,-12.196364
11.185,2.0,1.0,1.0,34.4,33.7,33.7,1.6,2.6,2.7875,-0.6659440912898282,-0.09678357872602962,0.578868062827947,-0.23431567072544163,-1.087025,-11.919857
11.185,2.0,1.0,1.0,34.4,33.7,33.7,1.6,2.6,2.79,-0.6779985212069821,-0.09257322894340793,0.5564669639397026,-0.24489859118315824,-1.138831,-11.640234
11.185,2.0,1.0,1.0,34.4,33.7,33.7,1.6,2.6,2.7925,-0.6893608018336641,-0.0877449170254021,0.5332397480006618,-0.25584612356364084,-1.194362,-11.357476
11.185,2.0,1.0,1.0,34.4,33.7,33.7,1.6,2.6,2.795,-0.6999578201568761,-0.08223827960780924,0.5091831000279131,-0.2671542773930647,-1.253974,-11.071569
11.185,2.0,1.0,1.0,34.4,33.7,33.7,1.6,2.6,2.7975,-0.7097106079086569,-0.07598765335768035,0.48429779405673135,-0.278815128734326,-1.318063,-10.782511
11.185,2.0,1.0,1.0,34.4,33.7,33.7,1.6,2.6,2.8,-0.718534004320839,-0.06892175173082754,0.45858956009565205,-0.2908159751396748,-1.387073,-10.490312
11.185,2.0,1.0,1.0,34.4,33.7,33.7,1.6,2.6,2.8025,-0.726336350304121,-0.06096337313914044,0.43207010085100533,-0.303138342205732,-1.461503,-10.194995
11.185,2.0,1.0,1.0,34.4,33.7,33.7,1.6,2.6,2.805,-0.7330192357754459,-0.05202916222588265,0.4047582796039529,-0.3157568204757709,-1.541913,-9.896602
11.185,2.0,1.0,1.0,34.4,33.7,33.7,1.6,2.6,2.8075,-0.7384773288916304,-0.04202945296619897,0.3766815018716878,-0.32863771021499233,-1.62893,-9.595194
11.185,2.0,1.0,1.0,34.4,33.7,33.7,1.6,2.6,2.81,-0.7425983247276091,-0.030868231065614996,0.3478773139035289,-0.34173745120066457,-1.723265,-9.290858
11.185,2.0,1.0,1.0,34.4,33.7,33.7,1.6,2.6,2.8125,-0.7452630617443277,-0.018443263897613783,0.31839524012691794,-0.3550008156459579,-1.825718,-8.983707
11.185,2.0,1.0,1.0,34.4,33.7,33.7,1.6,2.6,2.815,-0.746345867470888,-0.004646459243023476,0.2882988786374688,-0.36835884544283914,-1.937193,-8.673887
11.185,2.0,1.0,1.0,34.4,33.7,33.7,1.6,2.6,2.8175,-0.7457152103299429,0.010635470486140983,0.25766826773365054,-0.38172652105015736,-2.058717,-8.361583
11.185,2.0,1.0,1.0,34.4,33.7,33.7,1.6,2.6,2.82,-0.7432347524270191,0.027519944083595486,0.22660252602963235,-0.3950001598627028,-2.191453,-8.047025
11.185,2.0,1.0,1.0,34.4,33.7,33.7,1.6,2.6,2.8225,-0.7387649180349662,0.0461269332461831,0.19522275218111287,-0.4080545584236044,-2.336723,-7.730491
11.185,2.0,1.0,1.0,34.4,33.7,33.7,1.6,2.6,2.825,-0.7321651135287975,0.06657673512775579,0.16367514569486874,-0.42073991740240907,-2.496032,-7.412322
11.185,2.0,1.0,1.0,34.4,33.7,33.7,1.6,2.6,2.8275,-0.7232967549450335,0.08898694061141417,0.13213427529938726,-0.4328786231932042,-2.671098,-7.09292
11.185,2.0,1.0,1.0,34.4,33.7,33.7,1.6,2.6,2.83,-0.7120272762626779,0.11346842659106324,0.10080637338901467,-0.44426200779609903,-2.863879,-6.772768
