1,w,sub_t,h,l1,l2,l3,g1,g2,Freq,S11_re,S21_re,S11_img,S21_img,S11_dB,S21_dB
11.185,2.0,1.0,1.0,34.6,34.2,34.2,1.9,3.9,2.5,0.674445672109771,-0.0157716461477006,0.725764736268883,0.00669186761760022,-0.080604,-35.323536
11.185,2.0,1.0,1.0,34.6,34.2,34.2,1.9,3.9,2.5025,0.6681810863150501,-0.0160609976149251,0.7313867416932094,0.006641165693240463,-0.081573,-35.199057
11.185,2.0,1.0,1.0,34.6,34.2,34.2,1.9,3.9,2.505,0.6618315140001902,-0.016355235199087527,0.7369860586485761,0.006586676498171164,-0.08256,-35.0741
11.185,2.0,1.0,1.0,34.6,34.2,34.2,1.9,3.9,2.5075,0.6553960540843251,-0.016654442339873832,0.7425617445709033,0.006528260988115049,-0.083567,-34.948654
11.185,2.0,1.0,1.0,34.6,34.2,34.2,1.9,3.9,2.51,0.6488737957918415,-0.016958703711754387,0.7481128286802029,0.006465775009340977,-0.084594,-34.822713
11.185,2.0,1.0,1.0,34.6,34.2,34.2,1.9,3.9,2.5125,0.6422638187269086,-0.017268105218782512,0.7536383111125008,0.00639906909598075,-0.085641,-34.696267
11.185,2.0,1.0,1.0,34.6,34.2,34.2,1.9,3.9,2.515,0.6355651929612609,-0.017582733987122266,0.7591371620246015,0.006327988258576634,-0.08671,-34.569308
11.185,2.0,1.0,1.0,34.6,34.2,34.2,1.9,3.9,2.5175,0.628776979136111,-0.017902678355105863,0.7646083206708282,0.00625237176344428,-0.0878,-34.441827
11.185,2.0,1.0,1.0,34.6,34.2,34.2,1.9,3.9,2.52,0.6218982285790433,-0.018228027860605556,0.7700506944508475,0.006172052902412419,-0.088912,-34.313815
11.185,2.0,1.0,1.0,34.6,34.2,34.2,1.9,3.9,2.5225,0.6149279834368674,-0.01855887322548744,0.7754631579276332,0.006086858752479249,-0.090046,-34.185264
11.185,2.0,1.0,1.0,34.6,34.2,34.2,1.9,3.9,2.525,0.6078652768253909,-0.01889530633689858,0.7808445518146337,0.005996609924899612,-0.091204,-34.056164
11.185,2.0,1.0,1.0,34.6,34.2,34.2,1.9,3.9,2.5275,0.6007091329971699,-0.01923742022511842,0.7861936819311449,0.005901120303192238,-0.092386,-33.926506
11.185,2.0,1.0,1.0,34.6,34.2,34.2,1.9,3.9,2.53,0.5934585675283444,-0.019585309037685707,0.7915093181248636,0.0058001967695285594,-0.093593,-33.79628
11.185,2.0,1.0,1.0,34.6,34.2,34.2,1.9,3.9,2.5325,0.586112587525717,-0.0199390680094889,0.7967901931605728,0.005693638918935926,-0.094824,-33.665477
11.185,2.0,1.0,1.0,34.6,34.2,34.2,1.9,3.9,2.535,0.5786701918553073,-0.020298793428485947,0.8020350015738735,0.00558123876071712,-0.096082,-33.534088
11.185,2.0,1.0,1.0,34.6,34.2,34.2,1.9,3.9,2.5375,0.5711303713936798,-0.020664582596691235,0.8072423984888205,0.00546278040645545,-0.097366,-33.402103
11.185,2.0,1.0,1.0,34.6,34.2,34.2,1.9,3.9,2.54,0.5634921093034204,-0.02103653378604185,0.8124109983983177,0.005338039743940928,-0.098677,-33.26951
11.185,2.0,1.0,1.0,34.6,34.2,34.2,1.9,3.9,2.5425,0.5557543813341967,-0.021414746188723546,0.8175393739060618,0.005206784096315297,-0.100016,-33.136301
11.185,2.0,1.0,1.0,34.6,34.2,34.2,1.9,3.9,2.545,0.5479161561509356,-0.021799319861505947,0.8226260544287896,0.005068771865695751,-0.101384,-33.002465
11.185,2.0,1.0,1.0,34.6,34.2,34.2,1.9,3.9,2.5475,0.5399763956907409,-0.02219035566359913,0.8276695248575465,0.004923752160495921,-0.102782,-32.867992
11.185,2.0,1.0,1.0,34.6,34.2,34.2,1.9,3.9,2.55,0.5319340555502259,-0.022587955187509633,0.8326682241766551,0.0047714644056177265,-0.104211,-32.73287
11.185,2.0,1.0,1.0,34.6,34.2,34.2,1.9,3.9,2.5525,0.5237880854050971,-0.02299222068232768,0.8376205440389883,0.004611637934643322,-0.10567,-32.597088
11.185,2.0,1.0,1.0,34.6,34.2,34.2,1.9,3.9,2.555,0.5155374294638536,-0.02340325496883886,0.8425248272961544,0.00444399156310437,-0.107162,-32.460637
11.185,2.0,1.0,1.0,34.6,34.2,34.2,1.9,3.9,2.5575,0.5071810269576219,-0.02382116134580143,0.8473793664820981,0.004268233141855191,-0.108687,-32.323503
11.185,2.0,1.0,1.0,34.6,34.2,34.2,1.9,3.9,2.56,0.4987178126682522,-0.024246043486679435,0.8521824022486091,0.004084059089519573,-0.110246,-32.185677
11.185,2.0,1.0,1.0,34.6,34.2,34.2,1.9,3.9,2.5625,0.490146717496908,-0.0246780053260673,0.856932121751159,0.00389115390292139,-0.111841,-32.047145
11.185,2.0,1.0,1.0,34.6,34.2,34.2,1.9,3.9,2.565,0.481466669075508,-0.02511715093497845,0.8616266569834308,0.003689189644345826,-0.113471,-31.907896
11.185,2.0,1.0,1.0,34.6,34.2,34.2,1.9,3.9,2.5675,0.4726765924235448,-0.02556358438410475,0.8662640830588554,0.003477825404411056,-0.115139,-31.767918
11.185,2.0,1.0,1.0,34.6,34.2,34.2,1.9,3.9,2.57,0.4637754106529046,-0.026017409594083944,0.8708424164373942,0.0032567067392571623,-0.116845,-31.627199
11.185,2.0,1.0,1.0,34.6,34.2,34.2,1.9,3.9,2.5725,0.45476204572349477,-0.026478730171731506,0.8753596130957645,0.0030254650806829184,-0.118591,-31.485725
11.185,2.0,1.0,1.0,34.6,34.2,34.2,1.9,3.9,2.575,0.4456354192526367,-0.026947649231110576,0.8798135666392071,0.0027837171177797415,-0.120377,-31.343484
11.185,2.0,1.0,1.0,34.6,34.2,34.2,1.9,3.9,2.5775,0.43639445338136096,-0.027424269198221645,0.8842021063528541,0.0025310641485237592,-0.122205,-31.200462
11.185,2.0,1.0,1.0,34.6,34.2,34.2,1.9,3.9,2.58,0.4270380717009171,-0.027908691597992585,0.8885229951906549,0.0022670913996947393,-0.124076,-31.056647
11.185,2.0,1.0,1.0,34.6,34.2,34.2,1.9,3.9,2.5825,0.4175652002430051,-0.028401016822143046,0.8927739276997623,0.0019913673133902057,-0.125992,-30.912023
11.185,2.0,1.0,1.0,34.6,34.2,34.2,1.9,3.9,2.585,0.40797476853745684,-0.02890134387637627,0.8969525278781788,0.0017034427982979942,-0.127954,-30.766578
11.185,2.0,1.0,1.0,34.6,34.2,34.2,1.9,3.9,2.5875,0.3982657107412928,-0.02940977010522497,0.9010563469633884,0.0014028504437754547,-0.129964,-30.620297
11.185,2.0,1.0,1.0,34.6,34.2,34.2,1.9,3.9,2.59,0.38843696684335177,-0.02992639089273534,0.905082861149598,0.001089103694663864,-0.132022,-30.473165
11.185,2.0,1.0,1.0,34.6,34.2,34.2,1.9,3.9,2.5925,0.3784874839489007,-0.03045129933702176,0.9090294692311277,0.0007616959846349025,-0.134131,-30.325167
11.185,2.0,1.0,1.0,34.6,34.2,34.2,1.9,3.9,2.595,0.36841621764895266,-0.030984585896554697,0.9128934901693552,0.00042009982572917937,-0.136292,-30.176288
11.185,2.0,1.0,1.0,34.6,34.2,34.2,1.9,3.9,2.5975,0.35822213347925735,-0.03152633800586568,0.9166721605805618,6.376585159595353e-05,-0.138506,-30.026512
11.185,2.0,1.0,1.0,34.6,34.2,34.2,1.9,3.9,2.6,0.3479042084742759,-0.03207663965814918,0.9203626321418523,-0.0003078781882135561,-0.140777,-29.875823
11.185,2.0,1.0,1.0,34.6,34.2,34.2,1.9,3.9,2.6025,0.33746143282178387,-0.03263557095202401,0.9239619689122325,-0.0006954284857194821,-0.143105,-29.724204
11.185,2.0,1.0,1.0,34.6,34.2,34.2,1.9,3.9,2.605,0.32689281162407174,-0.03320320759948002,0.9274671445657935,-0.0010995062867547236,-0.145492,-29.571639
11.185,2.0,1.0,1.0,34.6,34.2,34.2,1.9,3.9,2.6075,0.3161973667721304,-0.033779620391768926,0.9308750395337908,-0.001520759061171753,-0.14794,-29.418111
11.185,2.0,1.0,1.0,34.6,34.2,34.2,1.9,3.9,2.61,0.3053741389396143,-0.03436487461971411,0.9341824380522723,-0.001959861734422465,-0.150453,-29.263602
11.185,2.0,1.0,1.0,34.6,34.2,34.2,1.9,3.9,2.6125,0.29442218970380063,-0.034959029444597944,0.9373860251117444,-0.0024175179841433463,-0.153031,-29.108094
11.185,2.0,1.0,1.0,34.6,34.2,34.2,1.9,3.9,2.615,0.2833406038012599,-0.0355621372154376,0.9404823833051805,-0.002894461605619451,-0.155677,-28.951568
11.185,2.0,1.0,1.0,34.6,34.2,34.2,1.9,3.9,2.6175,0.27212849152648205,-0.036174242728080445,0.9434679895705163,-0.003391457950259603,-0.158393,-28.794005
11.185,2.0,1.0,1.0,34.6,34.2,34.2,1.9,3.9,2.62,0.26078499128223465,-0.036795382421130333,0.9463392118235335,-0.0039093054414932596,-0.161182,-28.635386
11.185,2.0,1.0,1.0,34.6,34.2,34.2,1.9,3.9,2.6225,0.2493092722910485,-0.03742558350325558,0.9490923054768688,-0.004448837172798003,-0.164047,-28.47569
11.185,2.0,1.0,1.0,34.6,34.2,34.2,1.9,3.9,2.625,0.237700537477918,-0.03806486300592,0.951723409840616,-0.00501092259288492,-0.16699,-28.314898
11.185,2.0,1.0,1.0,34.6,34.2,34.2,1.9,3.9,2.6275,0.22595802653494065,-0.03871322675501759,0.9542285443997602,-0.005596469283415857,-0.170014,-28.152988
11.185,2.0,1.0,1.0,34.6,34.2,34.2,1.9,3.9,2.63,0.21408101917948885,-0.03937066825427387,0.9566036049634046,-0.006206424834992353,-0.173123,-27.989939
11.185,2.0,1.0,1.0,34.6,34.2,34.2,1.9,3.9,2.6325,0.20206883861828026,-0.04003716747259006,0.9588443596804734,-0.006841778827554299,-0.176318,-27.825727
11.185,2.0,1.0,1.0,34.6,34.2,34.2,1.9,3.9,2.635,0.1899208552306821,-0.040712689526752645,0.960946444916247,-0.007503564921750058,-0.179605,-27.660331
11.185,2.0,1.0,1.0,34.6,34.2,34.2,1.9,3.9,2.6375,0.17763649048558663,-0.041397183250088926,0.9629053609837724,-0.008192863068296627,-0.182985,-27.493727
11.185,2.0,1.0,1.0,34.6,34.2,34.2,1.9,3.9,2.64,0.16521522110726394,-0.04209057963672647,0.9647164677237946,-0.008910801842839168,-0.186463,-27.325891
11.185,2.0,1.0,1.0,34.6,34.2,34.2,1.9,3.9,2.6425,0.15265658350686365,-0.04279279015007876,0.9663749799265082,-0.009658560914342012,-0.190043,-27.156797
11.185,2.0,1.0,1.0,34.6,34.2,34.2,1.9,3.9,2.645,0.13996017849753295,-0.04350370488303957,0.9678759625879606,-0.010437373655608735,-0.193728,-26.98642
11.185,2.0,1.0,1.0,34.6,34.2,34.2,1.9,3.9,2.6475,0.1271256763125837,-0.04422319055609645,0.9692143259935139,-0.011248529905130648,-0.197523,-26.814734
11.185,2.0,1.0,1.0,34.6,34.2,34.2,1.9,3.9,2.65,0.11415282194773901,-0.04495108833816024,0.9703848206202695,-0.012093378890111943,-0.201433,-26.641711
11.185,2.0,1.0,1.0,34.6,34.2,34.2,1.9,3.9,2.6525,0.10104144085032203,-0.04568721147333018,0.9713820318498171,-0.012973332321205818,-0.205461,-26.467324
11.185,2.0,1.0,1.0,34.6,34.2,34.2,1.9,3.9,2.655,0.08779144498011926,-0.04643134269506291,0.9722003744821242,-0.013889867670242358,-0.209614,-26.291543
11.185,2.0,1.0,1.0,34.6,34.2,34.2,1.9,3.9,2.6575,0.07440283926890667,-0.04718323140724852,0.9728340870407444,-0.014844531643010422,-0.213895,-26.114339
11.185,2.0,1.0,1.0,34.6,34.2,34.2,1.9,3.9,2.66,0.060875728507980446,-0.047942590609511435,0.9732772258588677,-0.015838943860002012,-0.218312,-25.935681
11.185,2.0,1.0,1.0,34.6,34.2,34.2,1.9,3.9,2.6625,0.04721032469575281,-0.048709093541601516,0.9735236589350352,-0.01687480075891732,-0.222869,-25.755537
11.185,2.0,1.0,1.0,34.6,34.2,34.2,1.9,3.9,2.665,0.03340695488038296,-0.0494823700190008,0.973567059546573,-0.017953879733681854,-0.227572,-25.573875
11.185,2.0,1.0,1.0,34.6,34.2,34.2,1.9,3.9,2.6675,0.019466069535811092,-0.05026200242879441,0.9734008996079939,-0.01907804352572686,-0.232429,-25.39066
11.185,2.0,1.0,1.0,34.6,34.2,34.2,1.9,3.9,2.67,0.005388251513185223,-0.05104752135140662,0.9730184427607638,-0.020249244884348556,-0.237445,-25.205857
11.185,2.0,1.0,1.0,34.6,34.2,34.2,1.9,3.9,2.6725,-0.008825774386161642,-0.05183840076992555,0.9724127371798977,-0.021469531514072496,-0.242629,-25.019431
11.185,2.0,1.0,1.0,34.6,34.2,34.2,1.9,3.9,2.675,-0.023175131165388083,-0.0526340528243804,0.9715766080819163,-0.02274105132811343,-0.247989,-24.831344
11.185,2.0,1.0,1.0,34.6,34.2,34.2,1.9,3.9,2.6775,-0.037658778658516134,-0.05343382206342544,0.9705026499176732,-0.024066058028233982,-0.253531,-24.641556
11.185,2.0,1.0,1.0,34.6,34.2,34.2,1.9,3.9,2.68,-0.05227550176669935,-0.054236979140353164,0.9691832182325207,-0.025446917032553085,-0.259266,-24.450029
11.185,2.0,1.0,1.0,34.6,34.2,34.2,1.9,3.9,2.6825,-0.0670238978360245,-0.0550427138941089,0.9676104211752131,-0.02688611177413209,-0.265202,-24.25672
11.185,2.0,1.0,1.0,34.6,34.2,34.2,1.9,3.9,2.685,-0.08190236310111511,-0.05585012774892404,0.9657761106358603,-0.028386250394458502,-0.271349,-24.061586
11.185,2.0,1.0,1.0,34.6,34.2,34.2,1.9,3.9,2.6875,-0.0969090781104694,-0.0566582253582015,0.963671872992139,-0.0299500728572303,-0.277718,-23.864582
11.185,2.0,1.0,1.0,34.6,34.2,34.2,1.9,3.9,2.69,-0.11204199204001593,-0.05746590540923884,0.9612890194419361,-0.03158045850909105,-0.284319,-23.665663
11.185,2.0,1.0,1.0,34.6,34.2,34.2,1.9,3.9,2.6925,-0.12729880579079106,-0.058271950495129635,0.9586185758995562,-0.03328043411515282,-0.291166,-23.46478
11.185,2.0,1.0,1.0,34.6,34.2,34.2,1.9,3.9,2.695,-0.1426769537544525,-0.059075015948532816,0.955651272431767,-0.03505318239820006,-0.29827,-23.261884
11.185,2.0,1.0,1.0,34.6,34.2,34.2,1.9,3.9,2.6975,-0.15817358411677435,-0.059873617518780745,0.9523775322091835,-0.03690205111137047,-0.305646,-23.056922
11.185,2.0,1.0,1.0,34.6,34.2,34.2,1.9,3.9,2.7,-0.17378553755356352,-0.06066611775873373,0.9487874599479946,-0.03883056267473675,-0.313307,-22.849841
11.185,2.0,1.0,1.0,34.6,34.2,34.2,1.9,3.9,2.7025,-0.18950932415582375,-0.06145071097064956,0.9448708298168509,-0.04084242440651591,-0.32127,-22.640585
11.185,2.0,1.0,1.0,34.6,34.2,34.2,1.9,3.9,2.705,-0.20534109840071332,-0.062225406540771966,0.9406170727839936,-0.04294153937944272,-0.329552,-22.429095
11.185,2.0,1.0,1.0,34.6,34.2,34.2,1.9,3.9,2.7075,-0.2212766319618727,-0.06298801047002084,0.9360152633805658,-0.04513201793203984,-0.33817,-22.215312
11.185,2.0,1.0,1.0,34.6,34.2,34.2,1.9,3.9,2.71,-0.23731128412630878,-0.06373610488264132,0.9310541058577111,-0.04741818986286911,-0.347144,-21.999172
11.185,2.0,1.0,1.0,34.6,34.2,34.2,1.9,3.9,2.7125,-0.25343996955499765,-0.0644670252654732,0.92572191971776,-0.049804617333130394,-0.356494,-21.780611
11.185,2.0,1.0,1.0,34.6,34.2,34.2,1.9,3.9,2.715,-0.2696571230898072,-0.06517783515705301,0.9200066246038583,-0.052296108498843544,-0.366244,-21.559559
11.185,2.0,1.0,1.0,34.6,34.2,34.2,1.9,3.9,2.7175,-0.2859566612699291,-0.06586529796741845,0.9138957245382292,-0.05489773188792396,-0.376417,-21.335946
11.185,2.0,1.0,1.0,34.6,34.2,34.2,1.9,3.9,2.72,-0.30233194017555415,-0.06652584556547786,0.9073762915073051,-0.05761483152922056,-0.387041,-21.109698
11.185,2.0,1.0,1.0,34.6,34.2,34.2,1.9,3.9,2.7225,-0.31877570916458314,-0.06715554322026435,0.9004349484029383,-0.06045304282940787,-0.398142,-20.880737
11.185,2.0,1.0,1.0,34.6,34.2,34.2,1.9,3.9,2.725,-0.33528006000815397,-0.06775005042428801,0.8930578513435719,-0.0634183091786749,-0.409753,-20.648984
11.185,2.0,1.0,1.0,34.6,34.2,34.2,1.9,3.9,2.7275,-0.3518363708620285,-0.06830457706036394,0.8852306714185677,-0.06651689924647936,-0.421906,-20.414355
11.185,2.0,1.0,1.0,34.6,34.2,34.2,1.9,3.9,2.73,-0.36843524443148296,-0.06881383429635118,0.8769385759242511,-0.06975542490288526,-0.434638,-20.176762
11.185,2.0,1.0,1.0,34.6,34.2,34.2,1.9,3.9,2.7325,-0.3850664395960839,-0.06927197950363981,0.8681662091931295,-0.0731408596676567,-0.447989,-19.936113
11.185,2.0,1.0,1.0,34.6,34.2,34.2,1.9,3.9,2.735,-0.4017187956554425,-0.06967255439315148,0.8588976731602451,-0.07668055754624085,-0.462001,-19.692314
11.185,2.0,1.0,1.0,34.6,34.2,34.2,1.9,3.9,2.7375,-0.41838014823580355,-0.07000841544501835,0.8491165078653325,-0.08038227205655527,-0.476722,-19.445266
11.185,2.0,1.0,1.0,34.6,34.2,34.2,1.9,3.9,2.74,-0.4350372357574899,-0.07027165557263217,0.8388056721595206,-0.0842541751798303,-0.492204,-19.194864
11.185,2.0,1.0,1.0,34.6,34.2,34.2,1.9,3.9,2.7425,-0.45167559520226347,-0.07045351580573798,0.8279475249749122,-0.0883048758786285,-0.508502,-18.941
11.185,2.0,1.0,1.0,34.6,34.2,34.2,1.9,3.9,2.745,-0.46827944573422914,-0.07054428559771564,0.816523807629624,-0.09254343771040267,-0.525679,-18.683562
11.185,2.0,1.0,1.0,34.6,34.2,34.2,1.9,3.9,2.7475,-0.48483155851474874,-0.07053319015583583,0.8045156277863238,-0.0969793949191,-0.543803,-18.422431
11.185,2.0,1.0,1.0,34.6,34.2,34.2,1.9,3.9,2.75,-0.501313110807061,-0.0704082629564883,0.791903445867257,-0.101622766202154,-0.562949,-18.157485
11.185,2.0,1.0,1.0,34.6,34.2,34.2,1.9,3.9,2.7525,-0.5177035221858736,-0.07015620133631348,0.778667064963725,-0.1064840651153303,-0.5832,-17.888595
11.185,2.0,1.0,1.0,34.6,34.2,34.2,1.9,3.9,2.755,-0.5339802703469982,-0.06976220274086266,0.7647856255762334,-0.111574305780154,-0.604648,-17.615627
11.185,2.0,1.0,1.0,34.6,34.2,34.2,1.9,3.9,2.7575,-0.5501186836479264,-0.06920977886098748,0.750237606899952,-0.11690500218138161,-0.627394,-17.338442
11.185,2.0,1.0,1.0,34.6,34.2,34.2,1.9,3.9,2.76,-0.5660917070983241,-0.0684805444901923,0.7350008368502094,-0.12248815886400562,-0.651552,-17.056896
11.185,2.0,1.0,1.0,34.6,34.2,34.2,1.9,3.9,2.7625,-0.5818696380570998,-0.06755397749122025,0.7190525136314131,-0.12833625023391523,-0.677248,-16.770836
11.185,2.0,1.0,1.0,34.6,34.2,34.2,1.9,3.9,2.765,-0.5974198273788002,-0.06640714576657264,0.7023692424246103,-0.13446218489958695,-0.70462,-16.480108
11.185,2.0,1.0,1.0,34.6,34.2,34.2,1.9,3.9,2.7675,-0.612706341188791,-0.06501439658796869,0.6849270917472586,-0.14087925052124653,-0.733828,-16.184547
11.185,2.0,1.0,1.0,34.6,34.2,34.2,1.9,3.9,2.77,-0.6276895778609393,-0.06334700306142915,0.6667016752786181,-0.147601033404664,-0.765045,-15.883987
11.185,2.0,1.0,1.0,34.6,34.2,34.2,1.9,3.9,2.7725,-0.6423258341381608,-0.06137276190301934,0.6476682665148267,-0.15464130552090397,-0.798471,-15.578253
11.185,2.0,1.0,1.0,34.6,34.2,34.2,1.9,3.9,2.775,-0.6565668137019587,-0.05905553610251722,0.6278019556062121,-0.16201386966540465,-0.834327,-15.267167
11.185,2.0,1.0,1.0,34.6,34.2,34.2,1.9,3.9,2.7775,-0.6703590709065758,-0.0563547355034613,0.6070778602442605,-0.16973235098279135,-0.872866,-14.950546
11.185,2.0,1.0,1.0,34.6,34.2,34.2,1.9,3.9,2.78,-0.6836433819178978,-0.05322472789968144,0.585471405642162,-0.17780991994529377,-0.914372,-14.628204
11.185,2.0,1.0,1.0,34.6,34.2,34.2,1.9,3.9,2.7825,-0.6963540352468915,-0.049614173050800264,0.562958692656776,-0.18625892791968396,-0.959169,-14.29995
11.185,2.0,1.0,1.0,34.6,34.2,34.2,1.9,3.9,2.785,-0.708418033809182,-0.04546527221872595,0.5395169781324389,-0.19509043149302863,-1.007626,-13.965593
11.185,2.0,1.0,1.0,34.6,34.2,34.2,1.9,3.9,2.7875,-0.7197542014247585,-0.04071292667124822,0.5151252978484858,-0.20431357551649337,-1.060163,-13.624945
11.185,2.0,1.0,1.0,34.6,34.2,34.2,1.9,3.9,2.79,-0.7302721884601541,-0.03528380045012849,0.48976527029988365,-0.2139347970979129,-1.117264,-13.277816
11.185,2.0,1.0,1.0,34.6,34.2,34.2,1.9,3.9,2.7925,-0.73987137463958,-0.029095286085338463,0.4634221292428086,-0.22395680322750236,-1.179483,-12.924027
11.185,2.0,1.0,1.0,34.6,34.2,34.2,1.9,3.9,2.795,-0.7484396726728253,-0.022054377607895886,0.43608604481253954,-0.23437726304853657,-1.24746,-12.563406
11.185,2.0,1.0,1.0,34.6,34.2,34.2,1.9,3.9,2.7975,-0.7558522453457407,-0.014056464239218943,0.40775380735584654,-0.24518714171187947,-1.321934,-12.195796
11.185,2.0,1.0,1.0,34.6,34.2,34.2,1.9,3.9,2.8,-0.7619701626071845,-0.0049840720095531525,0.3784309650856177,-0.25636858612175933,-1.403763,-11.821063
11.185,2.0,1.0,1.0,34.6,34.2,34.2,1.9,3.9,2.8025,-0.766639046052439,0.005294398657708388,0.3481345261760019,-0.2678922537901141,-1.493948,-11.439101
11.185,2.0,1.0,1.0,34.6,34.2,34.2,1.9,3.9,2.805,-0.7696877788756589,0.01692586087821741,0.3168963573840657,-0.27971395506860103,-1.593654,-11.049844
11.185,2.0,1.0,1.0,34.6,34.2,34.2,1.9,3.9,2.8075,-0.7709274035792044,0.030073532384072565,0.2847674332220615,-0.29177045771440724,-1.704251,-10.653278
11.185,2.0,1.0,1.0,34.6,34.2,34.2,1.9,3.9,2.81,-0.7701503922514995,0.044917545466820925,0.25182310910179007,-0.3039742840732539,-1.827345,-10.249454
11.185,2.0,1.0,1.0,34.6,34.2,34.2,1.9,3.9,2.8125,-0.767130560826254,0.061654905889806,0.218169603242365,-0.316207320584298,-1.964833,-9.838512
11.185,2.0,1.0,1.0,34.6,34.2,34.2,1.9,3.9,2.815,-0.7616240158136428,0.08049841529987385,0.1839518661319777,-0.3283130660888035,-2.118957,-9.420698
11.185,2.0,1.0,1.0,34.6,34.2,34.2,1.9,3.9,2.8175,-0.7533716755119054,0.10167402035812816,0.14936297787842195,-0.3400873844810153,-2.292377,-8.996397
11.185,2.0,1.0,1.0,34.6,34.2,34.2,1.9,3.9,2.82,-0.7421041008590884,0.12541586177232003,0.11465511969153189,-0.3512677214641933,-2.488254,-8.566162
11.185,2.0,1.0,1.0,34.6,34.2,34.2,1.9,3.9,2.8225,-0.7275495998169502,0.15195807187877655,0.08015198228133523,-0.36152092781407263,-2.710356,-8.130758
11.185,2.0,1.0,1.0,34.6,34.2,34.2,1.9,3.9,2.825,-0.7094468144214554,0.18152212951700575,0.046262155300561256,-0.3704301476785567,-2.963175,-7.691201
11.185,2.0,1.0,1.0,34.6,34.2,34.2,1.9,3.9,2.8275,-0.6875632150154294,0.21429837179186226,0.013492531824995513,-0.3774817352510194,-3.252075,-7.248816
