1,w,sub_t,h,l1,l2,l3,g1,g2,Freq,S11_re,S21_re,S11_img,S21_img,S11_dB,S21_dB
11.185,2.0,1.0,1.0,34.4,34.9,34.9,2.8,3.2,2.5,0.712187891035572,-0.0149882973406985,0.689189335369904,0.00729940033926156,-0.078029,-35.560641
11.185,2.0,1.0,1.0,34.4,34.9,34.9,2.8,3.2,2.5025,0.7065298052217384,-0.015296129795141155,0.6948244581433815,0.007285684518820201,-0.079038,-35.420382
11.185,2.0,1.0,1.0,34.4,34.9,34.9,2.8,3.2,2.505,0.7007931275772996,-0.015610679654527138,0.7004433558499946,0.007269134062029393,-0.080071,-35.27926
11.185,2.0,1.0,1.0,34.4,34.9,34.9,2.8,3.2,2.5075,0.6949769372292182,-0.015932136284332238,0.7060452819400767,0.007249618026917658,-0.081128,-35.137255
11.185,2.0,1.0,1.0,34.4,34.9,34.9,2.8,3.2,2.51,0.6890802971962808,-0.016260696144053163,0.7116294659415021,0.007226999057728984,-0.082211,-34.994346
11.185,2.0,1.0,1.0,34.4,34.9,34.9,2.8,3.2,2.5125,0.683102254009128,-0.016596563124618588,0.7171951125791043,0.007201133015829005,-0.083321,-34.85051
11.185,2.0,1.0,1.0,34.4,34.9,34.9,2.8,3.2,2.515,0.6770418373146996,-0.016939948905300827,0.7227414008539405,0.00717186858553151,-0.084458,-34.705728
11.185,2.0,1.0,1.0,34.4,34.9,34.9,2.8,3.2,2.5175,0.6708980594640493,-0.017291073331446367,0.728267483079953,0.007139046852858458,-0.085623,-34.559975
11.185,2.0,1.0,1.0,34.4,34.9,34.9,2.8,3.2,2.52,0.6646699150823635,-0.017650164814445396,0.7337724838753938,0.007102500855068734,-0.086817,-34.413228
11.185,2.0,1.0,1.0,34.4,34.9,34.9,2.8,3.2,2.5225,0.6583563806199638,-0.018017460755468048,0.739255499106138,0.00706205509859064,-0.088041,-34.265464
11.185,2.0,1.0,1.0,34.4,34.9,34.9,2.8,3.2,2.525,0.6519564138829184,-0.018393207994616283,0.7447155947778127,0.007017525042774591,-0.089297,-34.116658
11.185,2.0,1.0,1.0,34.4,34.9,34.9,2.8,3.2,2.5275,0.645468953541801,-0.018777663287268695,0.7501518058733823,0.0069687165466411445,-0.090586,-33.966784
11.185,2.0,1.0,1.0,34.4,34.9,34.9,2.8,3.2,2.53,0.6388929186170093,-0.01917109380953528,0.7555631351325471,0.0069154252755308275,-0.091908,-33.815817
11.185,2.0,1.0,1.0,34.4,34.9,34.9,2.8,3.2,2.5325,0.632227207938897,-0.019573777694893022,0.76094855176901,0.006857436064267865,-0.093265,-33.663728
11.185,2.0,1.0,1.0,34.4,34.9,34.9,2.8,3.2,2.535,0.6254706995808336,-0.019986004604239056,0.7663069901213119,0.006794522233120384,-0.094658,-33.510491
11.185,2.0,1.0,1.0,34.4,34.9,34.9,2.8,3.2,2.5375,0.6186222502631445,-0.020408076331776704,0.7716373482325318,0.00672644485247716,-0.096089,-33.356075
11.185,2.0,1.0,1.0,34.4,34.9,34.9,2.8,3.2,2.54,0.6116806947256862,-0.020840307449350046,0.7769384863537698,0.006652951951756725,-0.097559,-33.200453
11.185,2.0,1.0,1.0,34.4,34.9,34.9,2.8,3.2,2.5425,0.6046448450666242,-0.02128302599205275,0.7822092253657974,0.0065737776676152455,-0.099069,-33.043592
11.185,2.0,1.0,1.0,34.4,34.9,34.9,2.8,3.2,2.545,0.5975134900447556,-0.021736574188173204,0.7874483451127884,0.006488641326021427,-0.100622,-32.885461
11.185,2.0,1.0,1.0,34.4,34.9,34.9,2.8,3.2,2.5475,0.5902853943424942,-0.022201309236789944,0.7926545826414225,0.006397246452209256,-0.102219,-32.726028
11.185,2.0,1.0,1.0,34.4,34.9,34.9,2.8,3.2,2.55,0.5829592977863387,-0.02267760413660969,0.7978266303380331,0.006299279701897785,-0.103861,-32.565258
11.185,2.0,1.0,1.0,34.4,34.9,34.9,2.8,3.2,2.5525,0.5755339145214133,-0.02316584856994191,0.80296313395572,0.006194409706476679,-0.10555,-32.403116
11.185,2.0,1.0,1.0,34.4,34.9,34.9,2.8,3.2,2.555,0.5680079321362993,-0.023666449846032687,0.8080626905225702,0.0060822858240776,-0.10729,-32.239565
11.185,2.0,1.0,1.0,34.4,34.9,34.9,2.8,3.2,2.5575,0.5603800107340607,-0.024179833908342364,0.8131238461212064,0.005962536787585904,-0.10908,-32.074569
11.185,2.0,1.0,1.0,34.4,34.9,34.9,2.8,3.2,2.56,0.5526487819450026,-0.02470644641073997,0.8181450935288742,0.005834769239673304,-0.110925,-31.908087
11.185,2.0,1.0,1.0,34.4,34.9,34.9,2.8,3.2,2.5625,0.5448128478762534,-0.025246753868019677,0.8231248697061646,0.005698566143839381,-0.112825,-31.74008
11.185,2.0,1.0,1.0,34.4,34.9,34.9,2.8,3.2,2.565,0.5368707799928367,-0.025801244886607958,0.8280615531211817,0.005553485059222764,-0.114784,-31.570506
11.185,2.0,1.0,1.0,34.4,34.9,34.9,2.8,3.2,2.5675,0.5288211179244011,-0.026370431481842368,0.8329534608945366,0.005399056265559169,-0.116804,-31.39932
11.185,2.0,1.0,1.0,34.4,34.9,34.9,2.8,3.2,2.57,0.5206623681912191,-0.02695485048875837,0.8377988457489621,0.005234780723107511,-0.118889,-31.226477
11.185,2.0,1.0,1.0,34.4,34.9,34.9,2.8,3.2,2.5725,0.5123930028424898,-0.0275550650739265,0.842595892745505,0.00506012785060371,-0.121039,-31.051931
11.185,2.0,1.0,1.0,34.4,34.9,34.9,2.8,3.2,2.575,0.5040114579993193,-0.028171666356544982,0.8473427157862259,0.004874533102314908,-0.12326,-30.875633
11.185,2.0,1.0,1.0,34.4,34.9,34.9,2.8,3.2,2.5775,0.4955161322940576,-0.028805275147712577,0.8520373538610079,0.004677395323014725,-0.125555,-30.697532
11.185,2.0,1.0,1.0,34.4,34.9,34.9,2.8,3.2,2.58,0.48690538519688686,-0.029456543817592162,0.8566777670134641,0.004468073857146019,-0.127926,-30.517574
11.185,2.0,1.0,1.0,34.4,34.9,34.9,2.8,3.2,2.5825,0.4781775352197069,-0.030126158301028497,0.8612618319979531,0.004245885385537254,-0.130377,-30.335706
11.185,2.0,1.0,1.0,34.4,34.9,34.9,2.8,3.2,2.585,0.46933085798646523,-0.030814840253113006,0.8657873375963316,0.0040101004597388355,-0.132913,-30.151869
11.185,2.0,1.0,1.0,34.4,34.9,34.9,2.8,3.2,2.5875,0.4603635841580496,-0.031523349367191734,0.8702519795592163,0.0037599397002847537,-0.135538,-29.966004
11.185,2.0,1.0,1.0,34.4,34.9,34.9,2.8,3.2,2.59,0.4512738971988096,-0.03225248586890382,0.8746533551321433,0.0034945696208922798,-0.138257,-29.778048
11.185,2.0,1.0,1.0,34.4,34.9,34.9,2.8,3.2,2.5925,0.44205993097056484,-0.03300309320101469,0.8789889571219888,0.0032130980357021476,-0.141073,-29.587936
11.185,2.0,1.0,1.0,34.4,34.9,34.9,2.8,3.2,2.595,0.43271976713872834,-0.03377606091506893,0.8832561674532572,0.002914569001039234,-0.143994,-29.395602
11.185,2.0,1.0,1.0,34.4,34.9,34.9,2.8,3.2,2.5975,0.42325143237377116,-0.034572327787253304,0.8874522501572795,0.0025979572367174613,-0.147023,-29.200973
11.185,2.0,1.0,1.0,34.4,34.9,34.9,2.8,3.2,2.6,0.4136528953298275,-0.0353928851773003,0.8915743437297546,0.0022621619644917273,-0.150168,-29.003975
11.185,2.0,1.0,1.0,34.4,34.9,34.9,2.8,3.2,2.6025,0.40392206338068876,-0.03623878065080206,0.895619452783373,0.0019060000927090778,-0.153434,-28.804531
11.185,2.0,1.0,1.0,34.4,34.9,34.9,2.8,3.2,2.605,0.3940567790917808,-0.037111121886919826,0.899584438912184,0.001528198666340309,-0.15683,-28.60256
11.185,2.0,1.0,1.0,34.4,34.9,34.9,2.8,3.2,2.6075,0.38405481640504197,-0.0380110808951538,0.9034660106727389,0.001127386490157964,-0.160361,-28.397977
11.185,2.0,1.0,1.0,34.4,34.9,34.9,2.8,3.2,2.61,0.3739138765118503,-0.03893989856656245,0.9072607125735692,0.0007020848195929145,-0.164037,-28.190692
11.185,2.0,1.0,1.0,34.4,34.9,34.9,2.8,3.2,2.6125,0.3636315833873668,-0.039898889586566025,0.9109649129489039,0.00025069699843267596,-0.167866,-27.980612
11.185,2.0,1.0,1.0,34.4,34.9,34.9,2.8,3.2,2.615,0.3532054789579153,-0.040889447738167516,0.9145747905743292,-0.00022850309536776294,-0.171857,-27.767639
11.185,2.0,1.0,1.0,34.4,34.9,34.9,2.8,3.2,2.6175,0.3426330178713774,-0.041913051626036785,0.9180863198608608,-0.0007373839553636717,-0.176022,-27.55167
11.185,2.0,1.0,1.0,34.4,34.9,34.9,2.8,3.2,2.62,0.3319115618390615,-0.04297127085332039,0.9214952544390785,-0.0012779708877954392,-0.18037,-27.332597
11.185,2.0,1.0,1.0,34.4,34.9,34.9,2.8,3.2,2.6225,0.3210383735163581,-0.044065772684144064,0.9247971089158993,-0.001852462200874358,-0.184916,-27.110304
11.185,2.0,1.0,1.0,34.4,34.9,34.9,2.8,3.2,2.625,0.310010609888797,-0.0451983292253865,0.927987138552406,-0.00246324738840083,-0.18967,-26.884673
11.185,2.0,1.0,1.0,34.4,34.9,34.9,2.8,3.2,2.6275,0.2988253151300821,-0.04637082516120969,0.9310603165709613,-0.003112927593515478,-0.194649,-26.655576
11.185,2.0,1.0,1.0,34.4,34.9,34.9,2.8,3.2,2.63,0.28747941289977136,-0.047585266072685845,0.9340113087523559,-0.0038043386851139105,-0.199868,-26.42288
11.185,2.0,1.0,1.0,34.4,34.9,34.9,2.8,3.2,2.6325,0.27596969805067545,-0.048843787372275745,0.9368344449275954,-0.004540577334769498,-0.205345,-26.186444
11.185,2.0,1.0,1.0,34.4,34.9,34.9,2.8,3.2,2.635,0.2642928277205844,-0.05014866387828934,0.9395236869023049,-0.005325030547653664,-0.211097,-25.946119
11.185,2.0,1.0,1.0,34.4,34.9,34.9,2.8,3.2,2.6375,0.25244531179016966,-0.05150232004705001,0.9420725922724402,-0.006161409179054807,-0.217147,-25.701748
11.185,2.0,1.0,1.0,34.4,34.9,34.9,2.8,3.2,2.64,0.24042350269997392,-0.05290734086925948,0.944474273495468,-0.007053786061301785,-0.223518,-25.453163
11.185,2.0,1.0,1.0,34.4,34.9,34.9,2.8,3.2,2.6425,0.22822358463569925,-0.054366483420625965,0.9467213514680287,-0.008006639477407549,-0.230234,-25.200188
11.185,2.0,1.0,1.0,34.4,34.9,34.9,2.8,3.2,2.645,0.2158415621143027,-0.05588268903334363,0.948805902725441,-0.009024902851545771,-0.237325,-24.942636
11.185,2.0,1.0,1.0,34.4,34.9,34.9,2.8,3.2,2.6475,0.20327324803630634,-0.057459096021977206,0.9507193992151316,-0.010114021687457472,-0.244821,-24.680307
11.185,2.0,1.0,1.0,34.4,34.9,34.9,2.8,3.2,2.65,0.19051425131553418,-0.059099052851360974,0.9524526393991641,-0.011280018980144838,-0.252757,-24.41299
11.185,2.0,1.0,1.0,34.4,34.9,34.9,2.8,3.2,2.6525,0.1775599642609135,-0.060806131570691126,0.9539956692027065,-0.012529570561285988,-0.261173,-24.140459
11.185,2.0,1.0,1.0,34.4,34.9,34.9,2.8,3.2,2.655,0.1644055499719533,-0.06258414125093668,0.9553376910361174,-0.013870092124117337,-0.270111,-23.862476
11.185,2.0,1.0,1.0,34.4,34.9,34.9,2.8,3.2,2.6575,0.15104593012886994,-0.06443714104358861,0.9564669587663713,-0.015309840020782704,-0.279621,-23.578783
11.185,2.0,1.0,1.0,34.4,34.9,34.9,2.8,3.2,2.66,0.1374757737211623,-0.06636945231620252,0.9573706560840319,-0.016858028348998744,-0.289756,-23.289108
11.185,2.0,1.0,1.0,34.4,34.9,34.9,2.8,3.2,2.6625,0.12368948748087187,-0.068385669098489,0.9580347551862772,-0.018524965363658177,-0.30058,-22.993158
11.185,2.0,1.0,1.0,34.4,34.9,34.9,2.8,3.2,2.665,0.10968120909011385,-0.0704906657703715,0.9584438520513873,-0.020322212885609713,-0.312161,-22.690623
11.185,2.0,1.0,1.0,34.4,34.9,34.9,2.8,3.2,2.6675,0.09544480464697307,-0.07268960051076202,0.9585809737865473,-0.02226277316303048,-0.32458,-22.381166
11.185,2.0,1.0,1.0,34.4,34.9,34.9,2.8,3.2,2.67,0.08097387244056117,-0.07498791246171459,0.9584273525523129,-0.024361308606440264,-0.337927,-22.064429
11.185,2.0,1.0,1.0,34.4,34.9,34.9,2.8,3.2,2.6725,0.0662617558629143,-0.07739130978983011,0.9579621593583613,-0.02663440101126091,-0.352304,-21.740026
11.185,2.0,1.0,1.0,34.4,34.9,34.9,2.8,3.2,2.675,0.051301569352929365,-0.07990574476527096,0.9571621895296588,-0.02910085835748717,-0.367831,-21.407543
11.185,2.0,1.0,1.0,34.4,34.9,34.9,2.8,3.2,2.6775,0.036086242739147595,-0.08253737051597372,0.9560014897905317,-0.03178207910303644,-0.384645,-21.066534
11.185,2.0,1.0,1.0,34.4,34.9,34.9,2.8,3.2,2.68,0.020608591384092767,-0.08529247209166455,0.9544509146213714,-0.034702486149102804,-0.402904,-20.716519
11.185,2.0,1.0,1.0,34.4,34.9,34.9,2.8,3.2,2.6825,0.004861422360660272,-0.08817736166336895,0.9524775967075824,-0.037890045452124745,-0.422791,-20.356978
11.185,2.0,1.0,1.0,34.4,34.9,34.9,2.8,3.2,2.685,-0.011162309164610406,-0.09119822376710679,0.950044312804917,-0.04137688770345289,-0.444523,-19.987353
11.185,2.0,1.0,1.0,34.4,34.9,34.9,2.8,3.2,2.6875,-0.027469273639387674,-0.09436089101319156,0.9471087220596497,-0.045200055721725516,-0.468352,-19.60704
11.185,2.0,1.0,1.0,34.4,34.9,34.9,2.8,3.2,2.69,-0.04406544344072311,-0.09767052295873263,0.9436224486160844,-0.04940240533097272,-0.494574,-19.215385
11.185,2.0,1.0,1.0,34.4,34.9,34.9,2.8,3.2,2.6925,-0.06095563330396853,-0.10113114991576,0.9395299741153467,-0.054033693627763446,-0.523545,-18.811684
11.185,2.0,1.0,1.0,34.4,34.9,34.9,2.8,3.2,2.695,-0.07814285071882211,-0.10474502793821334,0.9347672984209054,-0.0591518956858652,-0.555686,-18.395174
11.185,2.0,1.0,1.0,34.4,34.9,34.9,2.8,3.2,2.6975,-0.09562737978616088,-0.10851172905297195,0.9292603187771611,-0.0648247987222921,-0.591503,-17.965034
11.185,2.0,1.0,1.0,34.4,34.9,34.9,2.8,3.2,2.7,-0.11340548994873956,-0.11242685898736753,0.9229228692073648,-0.07113193095959246,-0.631609,-17.520378
11.185,2.0,1.0,1.0,34.4,34.9,34.9,2.8,3.2,2.7025,-0.13146761480995736,-0.1164802488427597,0.9156543546845592,-0.07816688946440077,-0.676751,-17.060254
11.185,2.0,1.0,1.0,34.4,34.9,34.9,2.8,3.2,2.705,-0.14979577954738746,-0.1206534010444738,0.9073369114088581,-0.08604013417969189,-0.727842,-16.583647
11.185,2.0,1.0,1.0,34.4,34.9,34.9,2.8,3.2,2.7075,-0.16835995901837916,-0.1249158743653587,0.8978320312384112,-0.09488230837164771,-0.78601,-16.089479
11.185,2.0,1.0,1.0,34.4,34.9,34.9,2.8,3.2,2.71,-0.18711290956619062,-0.12922015504073844,0.8869766161507509,-0.1048481176250207,-0.852662,-15.576617
11.185,2.0,1.0,1.0,34.4,34.9,34.9,2.8,3.2,2.7125,-0.20598281809096855,-0.13349436350662905,0.8745784985599995,-0.11612072944089197,-0.929562,-15.043895
11.185,2.0,1.0,1.0,34.4,34.9,34.9,2.8,3.2,2.715,-0.22486282968957008,-0.13763186695783103,0.8604116141292093,-0.12891650488733855,-1.018941,-14.490139
11.185,2.0,1.0,1.0,34.4,34.9,34.9,2.8,3.2,2.7175,-0.24359612566593364,-0.1414764827656888,0.8442113157950709,-0.1434895726625142,-1.123648,-13.914221
11.185,2.0,1.0,1.0,34.4,34.9,34.9,2.8,3.2,2.72,-0.26195471145454075,-0.14480145191427968,0.8256708967175203,-0.16013517955241413,-1.247346,-13.31514
11.185,2.0,1.0,1.0,34.4,34.9,34.9,2.8,3.2,2.7225,-0.27960946335115583,-0.14727976010646637,0.8044414643501231,-0.17918968267448054,-1.394778,-12.692155
11.185,2.0,1.0,1.0,34.4,34.9,34.9,2.8,3.2,2.725,-0.29608841577634737,-0.14844282953370672,0.7801392421657807,-0.2010231268177067,-1.572126,-12.044984
11.185,2.0,1.0,1.0,34.4,34.9,34.9,2.8,3.2,2.7275,-0.3107201850942365,-0.14762453416918495,0.752367731419329,-0.22601701862755927,-1.787458,-11.374113
11.185,2.0,1.0,1.0,34.4,34.9,34.9,2.8,3.2,2.73,-0.3225609332066003,-0.14388901383394057,0.7207676732721302,-0.25451444767089987,-2.051276,-10.681271
11.185,2.0,1.0,1.0,34.4,34.9,34.9,2.8,3.2,2.7325,-0.33030886368985857,-0.13594635457259238,0.6851159483975849,-0.2867215917990994,-2.377058,-9.970107
11.185,2.0,1.0,1.0,34.4,34.9,34.9,2.8,3.2,2.735,-0.3322248048512571,-0.12207472141870129,0.645504413211253,-0.3225299256222984,-2.781488,-9.247166
11.185,2.0,1.0,1.0,34.4,34.9,34.9,2.8,3.2,2.7375,-0.3261087376704902,-0.10009866454742329,0.6026348738839665,-0.3612234643720384,-3.283499,-8.523171
11.185,2.0,1.0,1.0,34.4,34.9,34.9,2.8,3.2,2.74,-0.30943704649286685,-0.06752778325501421,0.5582476735625911,-0.4010543357285351,-3.899878,-7.814525
11.185,2.0,1.0,1.0,34.4,34.9,34.9,2.8,3.2,2.7425,-0.2798321105740938,-0.02202579000974284,0.5156181350918595,-0.43875317550258963,-4.632294,-7.144664
11.185,2.0,1.0,1.0,34.4,34.9,34.9,2.8,3.2,2.745,-0.23604156627263337,0.037615816598171224,0.4798597246134012,-0.46923510968229704,-5.436629,-6.54437
11.185,2.0,1.0,1.0,34.4,34.9,34.9,2.8,3.2,2.7475,-0.17937645456391335,0.11005429615421775,0.45750617885736083,-0.4860251650306722,-6.171048,-6.049666
11.185,2.0,1.0,1.0,34.4,34.9,34.9,2.8,3.2,2.75,-0.114951851198494,0.190179303940434,0.45482524261457,-0.482940714385632,-6.574196,-5.696026
11.185,2.0,1.0,1.0,34.4,34.9,34.9,2.8,3.2,2.7525,-0.051454376247958004,0.26936770612672106,0.47508236932514575,-0.45680154309364746,-6.413974,-5.509436
11.185,2.0,1.0,1.0,34.4,34.9,34.9,2.8,3.2,2.755,0.001365540822248018,0.33798808994715385,0.5163673142035108,-0.4095589233808829,-5.740795,-5.497902
11.185,2.0,1.0,1.0,34.4,34.9,34.9,2.8,3.2,2.7575,0.03631995936618542,0.3889865601411139,0.5719270755216525,-0.3479303973889102,-4.835708,-5.648469
11.185,2.0,1.0,1.0,34.4,34.9,34.9,2.8,3.2,2.76,0.051002013847514245,0.4200522339437731,0.6330033275234371,-0.2805716687897887,-3.943778,-5.9318
11.185,2.0,1.0,1.0,34.4,34.9,34.9,2.8,3.2,2.7625,0.04734740331484782,0.4331522477304089,0.6920163233956643,-0.21493521096092733,-3.17739,-6.31122
11.185,2.0,1.0,1.0,34.4,34.9,34.9,2.8,3.2,2.765,0.029590630528737675,0.4324983466264865,0.7441895409504173,-0.15568624164983788,-2.559468,-6.751148
11.185,2.0,1.0,1.0,34.4,34.9,34.9,2.8,3.2,2.7675,0.002305259523469127,0.4226142136013498,0.7874818880463632,-0.10478782627428833,-2.075151,-7.222
11.185,2.0,1.0,1.0,34.4,34.9,34.9,2.8,3.2,2.77,-0.030680605298266793,0.40727383602766265,0.821721843142327,-0.06236408361672094,-1.699453,-7.701614
11.185,2.0,1.0,1.0,34.4,34.9,34.9,2.8,3.2,2.7725,-0.06658905855186574,0.3892085944226422,0.8477145822423189,-0.02758258331063548,-1.408292,-8.174594
11.185,2.0,1.0,1.0,34.4,34.9,34.9,2.8,3.2,2.775,-0.10358644125461752,0.37021646620690674,0.8666242977879192,0.000738029854760714,-1.181774,-8.630868
11.185,2.0,1.0,1.0,34.4,34.9,34.9,2.8,3.2,2.7775,-0.14054895128178213,0.35139539300822115,0.8796349880982978,0.023795756994845804,-1.004467,-9.064209
11.185,2.0,1.0,1.0,34.4,34.9,34.9,2.8,3.2,2.78,-0.1768369344815639,0.3333666214563104,0.8877998927475369,0.04265868693012898,-0.864723,-9.47102
11.185,2.0,1.0,1.0,34.4,34.9,34.9,2.8,3.2,2.7825,-0.21212116226422859,0.3164460825348341,0.891995308102903,0.05822086774512638,-0.753843,-9.84943
11.185,2.0,1.0,1.0,34.4,34.9,34.9,2.8,3.2,2.785,-0.2462624776264862,0.3007628696824057,0.8929237472341605,0.07120643547213677,-0.66534,-10.198663
11.185,2.0,1.0,1.0,34.4,34.9,34.9,2.8,3.2,2.7875,-0.27923319184567974,0.2863364653419626,0.8911362235423542,0.08219234617937772,-0.594362,-10.518603
11.185,2.0,1.0,1.0,34.4,34.9,34.9,2.8,3.2,2.79,-0.3110676198883885,0.2731252257622459,0.887058984198492,0.0916353622117829,-0.537263,-10.809511
11.185,2.0,1.0,1.0,34.4,34.9,34.9,2.8,3.2,2.7925,-0.34183177518286295,0.26105598256495777,0.8810184408769288,0.09989721230323446,-0.491279,-11.07184
11.185,2.0,1.0,1.0,34.4,34.9,34.9,2.8,3.2,2.795,-0.371605231573691,0.25004165077000295,0.8732621788022606,0.10726589477045671,-0.454308,-11.30611
11.185,2.0,1.0,1.0,34.4,34.9,34.9,2.8,3.2,2.7975,-0.4004705393734058,0.23999137771811702,0.8639757699041987,0.11397289592824092,-0.424737,-11.512834
11.185,2.0,1.0,1.0,34.4,34.9,34.9,2.8,3.2,2.8,-0.4285072498654377,0.23081611895686516,0.8532958320873277,0.12020679394184583,-0.401327,-11.692462
11.185,2.0,1.0,1.0,34.4,34.9,34.9,2.8,3.2,2.8025,-0.4557887012271571,0.22243144075447935,0.8413199747226118,0.12612391109492166,-0.383119,-11.845352
11.185,2.0,1.0,1.0,34.4,34.9,34.9,2.8,3.2,2.805,-0.48238041863129255,0.21475865493044322,0.8281142516090667,0.1318566602259851,-0.369378,-11.971753
11.185,2.0,1.0,1.0,34.4,34.9,34.9,2.8,3.2,2.8075,-0.5083394179432983,0.2077249552531185,0.8137186472839395,0.13752014147562314,-0.35954,-12.071781
11.185,2.0,1.0,1.0,34.4,34.9,34.9,2.8,3.2,2.81,-0.5337139706213798,0.20126295150368884,0.7981510118486569,0.143217443474872,-0.353182,-12.145419
11.185,2.0,1.0,1.0,34.4,34.9,34.9,2.8,3.2,2.8125,-0.558543549037517,0.195309825323007,0.781409757153266,0.149044012149126,-0.349997,-12.192504
11.185,2.0,1.0,1.0,34.4,34.9,34.9,2.8,3.2,2.815,-0.5828587654014229,0.18980622122417917,0.7634755401273401,0.1550913775476654,-0.349775,-12.21272
11.185,2.0,1.0,1.0,34.4,34.9,34.9,2.8,3.2,2.8175,-0.606681167464026,0.1846949110605178,0.7443120870947902,0.16145047494587345,-0.352396,-12.205589
11.185,2.0,1.0,1.0,34.4,34.9,34.9,2.8,3.2,2.82,-0.6300227738827968,0.17991921392336013,0.7238662533403828,0.16821475896099797,-0.357823,-12.170466
11.185,2.0,1.0,1.0,34.4,34.9,34.9,2.8,3.2,2.8225,-0.6528852284861,0.1754211039930069,0.7020673617024277,0.1754832861332759,-0.3661,-12.106524
11.185,2.0,1.0,1.0,34.4,34.9,34.9,2.8,3.2,2.825,-0.6752584276616856,0.1711388866387506,0.6788258195150751,0.18336393006688287,-0.377356,-12.012745
11.185,2.0,1.0,1.0,34.4,34.9,34.9,2.8,3.2,2.8275,-0.6971184264182111,0.1670042585919468,0.6540309724961848,0.191976891684914,-0.391818,-11.887901
11.185,2.0,1.0,1.0,34.4,34.9,34.9,2.8,3.2,2.83,-0.7184243494604696,0.16293847999763741,0.6275481160379704,0.20145867304355444,-0.409824,-11.730539
