1,w,sub_t,h,l1,l2,l3,g1,g2,Freq,S11_re,S21_re,S11_img,S21_img,S11_dB,S21_dB
11.185,2.0,1.0,1.0,34.9,34.7,34.7,4.1,4.2,2.5,0.620008259854937,-0.0113388946793679,0.773028091395801,0.00204386432427413,-0.078962,-38.769723
11.185,2.0,1.0,1.0,34.9,34.7,34.7,4.1,4.2,2.5025,0.6131160484967073,-0.01153593671280856,0.7783638887978538,0.001967561250316937,-0.079939,-38.634407
11.185,2.0,1.0,1.0,34.9,34.7,34.7,4.1,4.2,2.505,0.6061366708239173,-0.011736470601797113,0.7836671111729382,0.001887847866895544,-0.080939,-38.498311
11.185,2.0,1.0,1.0,34.9,34.7,34.7,4.1,4.2,2.5075,0.5990693212768063,-0.011940577979217387,0.7889366259006947,0.001804601197991416,-0.08196,-38.361412
11.185,2.0,1.0,1.0,34.9,34.7,34.7,4.1,4.2,2.51,0.5919131885814245,-0.012148343386723912,0.7941712690920283,0.0017176929668974179,-0.083003,-38.223691
11.185,2.0,1.0,1.0,34.9,34.7,34.7,4.1,4.2,2.5125,0.5846674558878666,-0.012359854421724123,0.799369844667311,0.0016269893055210528,-0.084071,-38.085124
11.185,2.0,1.0,1.0,34.9,34.7,34.7,4.1,4.2,2.515,0.5773313009165458,-0.012575201893817887,0.8045311234023903,0.0015323504438128968,-0.085162,-37.945688
11.185,2.0,1.0,1.0,34.9,34.7,34.7,4.1,4.2,2.5175,0.5699038961125719,-0.012794479991407533,0.8096538419407086,0.0014336303776832117,-0.086278,-37.805359
11.185,2.0,1.0,1.0,34.9,34.7,34.7,4.1,4.2,2.52,0.5623844088082094,-0.013017786459255198,0.8147367017697262,0.0013306765136121747,-0.08742,-37.664114
11.185,2.0,1.0,1.0,34.9,34.7,34.7,4.1,4.2,2.5225,0.5547720013934193,-0.013245222787827679,0.81977836815965,0.001223329287987026,-0.088588,-37.521925
11.185,2.0,1.0,1.0,34.9,34.7,34.7,4.1,4.2,2.525,0.5470658314943734,-0.0134768944153433,0.8247774690623328,0.0011114217590035363,-0.089783,-37.378767
11.185,2.0,1.0,1.0,34.9,34.7,34.7,4.1,4.2,2.5275,0.5392650521598251,-0.013712910943514546,0.8297325939679884,0.0009947791687562422,-0.091007,-37.234612
11.185,2.0,1.0,1.0,34.9,34.7,34.7,4.1,4.2,2.53,0.5313688120551555,-0.013953386368064383,0.8346422927171635,0.0008732184729031254,-0.092259,-37.089432
11.185,2.0,1.0,1.0,34.9,34.7,34.7,4.1,4.2,2.5325,0.523376255663833,-0.014198439325193529,0.8395050742651584,0.0007465478350223069,-0.093542,-36.943198
11.185,2.0,1.0,1.0,34.9,34.7,34.7,4.1,4.2,2.535,0.5152865234959572,-0.014448193355275803,0.8443194053958333,0.000614566082482868,-0.094856,-36.795879
11.185,2.0,1.0,1.0,34.9,34.7,34.7,4.1,4.2,2.5375,0.5070987523034918,-0.014702777185175313,0.84908370938141,0.00047706212031974174,-0.096202,-36.647443
11.185,2.0,1.0,1.0,34.9,34.7,34.7,4.1,4.2,2.54,0.4988120753016612,-0.014962325030704226,0.8537963645845691,0.00033381429923125944,-0.097581,-36.497857
11.185,2.0,1.0,1.0,34.9,34.7,34.7,4.1,4.2,2.5425,0.4904256223959137,-0.015226976920876475,0.8584557029987403,0.0001845897334024684,-0.098995,-36.347088
11.185,2.0,1.0,1.0,34.9,34.7,34.7,4.1,4.2,2.545,0.4819385204137053,-0.015496879045764902,0.863060008722068,2.9143563391068615e-05,-0.100444,-36.1951
11.185,2.0,1.0,1.0,34.9,34.7,34.7,4.1,4.2,2.5475,0.4733498933402647,-0.015772184129934162,0.8676075163600344,-0.0001327818412097168,-0.10193,-36.041855
11.185,2.0,1.0,1.0,34.9,34.7,34.7,4.1,4.2,2.55,0.4646588625572816,-0.016053051833605645,0.8720964093512178,-0.00030145774520720387,-0.103455,-35.887317
11.185,2.0,1.0,1.0,34.9,34.7,34.7,4.1,4.2,2.5525,0.455864547083387,-0.01633964918390915,0.8765248182099895,-0.0004771699838807069,-0.10502,-35.731443
11.185,2.0,1.0,1.0,34.9,34.7,34.7,4.1,4.2,2.555,0.4469660638150049,-0.01663215103879879,0.880890818679322,-0.0006602199789757907,-0.106626,-35.574194
11.185,2.0,1.0,1.0,34.9,34.7,34.7,4.1,4.2,2.5575,0.4379625277660174,-0.016930740586452563,0.8851924297860523,-0.0008509258427496902,-0.108276,-35.415524
11.185,2.0,1.0,1.0,34.9,34.7,34.7,4.1,4.2,2.56,0.42885305230442244,-0.017235609883241427,0.8894276117900626,-0.0010496235791554516,-0.10997,-35.25539
11.185,2.0,1.0,1.0,34.9,34.7,34.7,4.1,4.2,2.5625,0.4196367493839011,-0.0175469604336489,0.8935942640178339,-0.0012566683923329013,-0.11171,-35.093744
11.185,2.0,1.0,1.0,34.9,34.7,34.7,4.1,4.2,2.565,0.41031272976791383,-0.017865003815847044,0.89769022256967,-0.0014724361138069085,-0.1135,-34.930536
11.185,2.0,1.0,1.0,34.9,34.7,34.7,4.1,4.2,2.5675,0.4008801032436474,-0.018189962356986836,0.9017132578885664,-0.0016973247611876384,-0.11534,-34.765714
11.185,2.0,1.0,1.0,34.9,34.7,34.7,4.1,4.2,2.57,0.39133797882273236,-0.018522069862659137,0.9056610721772096,-0.0019317562427657393,-0.117232,-34.599225
11.185,2.0,1.0,1.0,34.9,34.7,34.7,4.1,4.2,2.5725,0.38168546492527594,-0.018861572405409283,0.9095312966478748,-0.002176178224207987,-0.11918,-34.431012
11.185,2.0,1.0,1.0,34.9,34.7,34.7,4.1,4.2,2.575,0.37192166954330275,-0.01920872917766478,0.9133214885880028,-0.0024310661756406127,-0.121185,-34.261015
11.185,2.0,1.0,1.0,34.9,34.7,34.7,4.1,4.2,2.5775,0.36204570037919515,-0.019563813414956485,0.9170291282220109,-0.0026969256197862603,-0.12325,-34.089173
11.185,2.0,1.0,1.0,34.9,34.7,34.7,4.1,4.2,2.58,0.35205666495419036,-0.019927113395886573,0.9206516153472629,-0.0029742946045540216,-0.125378,-33.915421
11.185,2.0,1.0,1.0,34.9,34.7,34.7,4.1,4.2,2.5825,0.3419536706813618,-0.02029893352592317,0.9241862657191644,-0.003263746426623614,-0.127573,-33.73969
11.185,2.0,1.0,1.0,34.9,34.7,34.7,4.1,4.2,2.585,0.3317358248968777,-0.020679595512787703,0.927630307156867,-0.0035658926361855823,-0.129836,-33.561909
11.185,2.0,1.0,1.0,34.9,34.7,34.7,4.1,4.2,2.5875,0.32140223484255936,-0.02106943964195244,0.9309808753371026,-0.0038813863571836174,-0.132172,-33.382001
11.185,2.0,1.0,1.0,34.9,34.7,34.7,4.1,4.2,2.59,0.3109520075920023,-0.02146882616157812,0.9342350092390046,-0.004210925962242538,-0.134584,-33.199888
11.185,2.0,1.0,1.0,34.9,34.7,34.7,4.1,4.2,2.5925,0.3003842499115864,-0.0218781367871109,0.937389646197442,-0.004555259147084697,-0.137076,-33.015486
11.185,2.0,1.0,1.0,34.9,34.7,34.7,4.1,4.2,2.595,0.28969806804682247,-0.022297776336708607,0.9404416165160867,-0.004915187455763093,-0.139652,-32.828707
11.185,2.0,1.0,1.0,34.9,34.7,34.7,4.1,4.2,2.5975,0.2788925674233595,-0.022728174509696157,0.9433876375841729,-0.005291571315654455,-0.142317,-32.639458
11.185,2.0,1.0,1.0,34.9,34.7,34.7,4.1,4.2,2.6,0.2679668522509505,-0.023169787821336735,0.9462243074323428,-0.005685335650044088,-0.145077,-32.44764
11.185,2.0,1.0,1.0,34.9,34.7,34.7,4.1,4.2,2.6025,0.2569200250174538,-0.023623101708357134,0.948948097652964,-0.00609747614655427,-0.147935,-32.253151
11.185,2.0,1.0,1.0,34.9,34.7,34.7,4.1,4.2,2.605,0.2457511858587086,-0.024088632820860715,0.9515553455985493,-0.00652906627190409,-0.150898,-32.05588
11.185,2.0,1.0,1.0,34.9,34.7,34.7,4.1,4.2,2.6075,0.23445943178887196,-0.024566931517474685,0.9540422457580074,-0.006981265137897917,-0.153972,-31.855711
11.185,2.0,1.0,1.0,34.9,34.7,34.7,4.1,4.2,2.61,0.22304385577450242,-0.02505858458178256,0.9564048401940867,-0.007455326340561039,-0.157163,-31.652522
11.185,2.0,1.0,1.0,34.9,34.7,34.7,4.1,4.2,2.6125,0.2115035456344199,-0.025564218179236563,0.9586390079059279,-0.007952607914502372,-0.16048,-31.446182
11.185,2.0,1.0,1.0,34.9,34.7,34.7,4.1,4.2,2.615,0.19983758274623448,-0.02608450107474385,0.9607404529575464,-0.008474583568535888,-0.16393,-31.236553
11.185,2.0,1.0,1.0,34.9,34.7,34.7,4.1,4.2,2.6175,0.18804504053948645,-0.02662014813188899,0.9627046911855316,-0.009022855397140402,-0.167521,-31.023486
11.185,2.0,1.0,1.0,34.9,34.7,34.7,4.1,4.2,2.62,0.17612498275470947,-0.027171924115120656,0.9645270352663011,-0.009599168296462663,-0.171264,-30.806826
11.185,2.0,1.0,1.0,34.9,34.7,34.7,4.1,4.2,2.6225,0.1640764614476472,-0.02774064781601062,0.9662025778837474,-0.010205426354515832,-0.175169,-30.586405
11.185,2.0,1.0,1.0,34.9,34.7,34.7,4.1,4.2,2.625,0.15189851471858,-0.0283271965235707,0.967726172690488,-0.0108437115344977,-0.179246,-30.362046
11.185,2.0,1.0,1.0,34.9,34.7,34.7,4.1,4.2,2.6275,0.13959016414856482,-0.02893251085620328,0.9690924126984624,-0.011516305029688454,-0.18351,-30.133557
11.185,2.0,1.0,1.0,34.9,34.7,34.7,4.1,4.2,2.63,0.12715041192801246,-0.02955759996858508,0.9702956056648872,-0.012225711740553919,-0.187974,-29.900735
11.185,2.0,1.0,1.0,34.9,34.7,34.7,4.1,4.2,2.6325,0.11457823766906755,-0.03020354713986376,0.9713297459546535,-0.012974688412522146,-0.192652,-29.663363
11.185,2.0,1.0,1.0,34.9,34.7,34.7,4.1,4.2,2.635,0.10187259490272939,-0.030871515738890506,0.9721884822565944,-0.013766276080214137,-0.197564,-29.421207
11.185,2.0,1.0,1.0,34.9,34.7,34.7,4.1,4.2,2.6375,0.08903240727611082,-0.031562755546301266,0.9728650804036902,-0.014603837595572012,-0.202726,-29.174014
11.185,2.0,1.0,1.0,34.9,34.7,34.7,4.1,4.2,2.64,0.07605656448649017,-0.03227860938997208,0.9733523803905394,-0.015491101179525924,-0.208162,-28.921517
11.185,2.0,1.0,1.0,34.9,34.7,34.7,4.1,4.2,2.6425,0.06294391801991298,-0.03302052001674718,0.9736427464872545,-0.0164322111375313,-0.213895,-28.663422
11.185,2.0,1.0,1.0,34.9,34.7,34.7,4.1,4.2,2.645,0.04969327680676167,-0.03379003707521803,0.973728009107766,-0.01743178712875773,-0.21995,-28.399417
11.185,2.0,1.0,1.0,34.9,34.7,34.7,4.1,4.2,2.6475,0.03630340297067573,-0.034588824015830424,0.9735993967891476,-0.018494993690185823,-0.22636,-28.129162
11.185,2.0,1.0,1.0,34.9,34.7,34.7,4.1,4.2,2.65,0.022773007938263968,-0.03541866461745098,0.9732474562604976,-0.019627622107688203,-0.233157,-27.852289
11.185,2.0,1.0,1.0,34.9,34.7,34.7,4.1,4.2,2.6525,0.009100749306590196,-0.036281468711868825,0.9726619581030521,-0.020836187218939702,-0.240381,-27.5684
11.185,2.0,1.0,1.0,34.9,34.7,34.7,4.1,4.2,2.655,-0.004714770950685609,-0.037179276482703597,0.9718317848987544,-0.022128042357517794,-0.248076,-27.27706
11.185,2.0,1.0,1.0,34.9,34.7,34.7,4.1,4.2,2.6575,-0.01867500609586653,-0.03811426043846547,0.9707447979943533,-0.02351151644313449,-0.256292,-26.977799
11.185,2.0,1.0,1.0,34.9,34.7,34.7,4.1,4.2,2.66,-0.032781460842734395,-0.03908872376585128,0.9693876780214266,-0.024996078241874872,-0.265086,-26.6701
11.185,2.0,1.0,1.0,34.9,34.7,34.7,4.1,4.2,2.6625,-0.04703568242559575,-0.04010509320734247,0.9677457330419195,-0.026592534132385832,-0.274528,-26.3534
11.185,2.0,1.0,1.0,34.9,34.7,34.7,4.1,4.2,2.665,-0.061439244005872154,-0.041165903801193365,0.9658026665429,-0.028313267412759604,-0.284692,-26.02708
11.185,2.0,1.0,1.0,34.9,34.7,34.7,4.1,4.2,2.6675,-0.0759937167932789,-0.04227377165990048,0.9635402953607326,-0.030172529394432993,-0.295671,-25.690461
11.185,2.0,1.0,1.0,34.9,34.7,34.7,4.1,4.2,2.67,-0.09070062565091858,-0.04343134927768849,0.96093820480818,-0.03218679542418162,-0.307571,-25.342794
11.185,2.0,1.0,1.0,34.9,34.7,34.7,4.1,4.2,2.6725,-0.10556138060230204,-0.044641255395591196,0.9579733245832971,-0.03437520278405279,-0.320516,-24.983252
11.185,2.0,1.0,1.0,34.9,34.7,34.7,4.1,4.2,2.675,-0.1205771731936267,-0.04590596782908854,0.9546194041513292,-0.03676009245501272,-0.334654,-24.610918
11.185,2.0,1.0,1.0,34.9,34.7,34.7,4.1,4.2,2.6775,-0.13574882151657108,-0.04722766228480517,0.9508463597964146,-0.03936768341726653,-0.350164,-24.224776
11.185,2.0,1.0,1.0,34.9,34.7,34.7,4.1,4.2,2.68,-0.15107653997775775,-0.04860797213634298,0.9466194568803142,-0.04222891707016881,-0.367258,-23.82369
11.185,2.0,1.0,1.0,34.9,34.7,34.7,4.1,4.2,2.6825,-0.16655959821239505,-0.05004763194176538,0.9418982792747858,-0.04538052124882041,-0.386195,-23.406394
11.185,2.0,1.0,1.0,34.9,34.7,34.7,4.1,4.2,2.685,-0.18219581565272394,-0.051545948852263775,0.9366354224773081,-0.04886635918562047,-0.40729,-22.971469
11.185,2.0,1.0,1.0,34.9,34.7,34.7,4.1,4.2,2.6875,-0.197980810580811,-0.0531000172522635,0.930774826351193,-0.0527391498540336,-0.430932,-22.517321
11.185,2.0,1.0,1.0,34.9,34.7,34.7,4.1,4.2,2.69,-0.21390687914695491,-0.05470354689730606,0.9242496363329603,-0.057062673861014206,-0.457606,-22.042154
11.185,2.0,1.0,1.0,34.9,34.7,34.7,4.1,4.2,2.6925,-0.22996131110956744,-0.05634510342038302,0.9169794469856621,-0.06191461473196489,-0.48792,-21.543941
11.185,2.0,1.0,1.0,34.9,34.7,34.7,4.1,4.2,2.695,-0.24612383870844587,-0.05800544555389935,0.9088667385105418,-0.06739022938347099,-0.522646,-21.020391
11.185,2.0,1.0,1.0,34.9,34.7,34.7,4.1,4.2,2.6975,-0.2623627356712358,-0.059653457389946776,0.8997922678587459,-0.0736070909030259,-0.562778,-20.468911
11.185,2.0,1.0,1.0,34.9,34.7,34.7,4.1,4.2,2.7,-0.2786287881189778,-0.061239868208150576,0.8896091322961892,-0.08071118982611329,-0.60961,-19.886572
11.185,2.0,1.0,1.0,34.9,34.7,34.7,4.1,4.2,2.7025,-0.29484586821269443,-0.06268744450471231,0.8781352164356276,-0.08888468343996175,-0.664846,-19.270078
11.185,2.0,1.0,1.0,34.9,34.7,34.7,4.1,4.2,2.705,-0.3108960191821514,-0.06387548934799024,0.8651438463564624,-0.09835545988898525,-0.730764,-18.615749
11.185,2.0,1.0,1.0,34.9,34.7,34.7,4.1,4.2,2.7075,-0.3265955823051453,-0.06461506257154083,0.8503529100633426,-0.10940822280839668,-0.81045,-17.919548
11.185,2.0,1.0,1.0,34.9,34.7,34.7,4.1,4.2,2.71,-0.3416566140459568,-0.06460898554755581,0.8334139517672664,-0.12239549422254177,-0.908142,-17.177183
11.185,2.0,1.0,1.0,34.9,34.7,34.7,4.1,4.2,2.7125,-0.3556242053698177,-0.0633869613876256,0.8139059649300413,-0.13774358022934705,-1.029717,-16.384383
11.185,2.0,1.0,1.0,34.9,34.7,34.7,4.1,4.2,2.715,-0.3677751013785239,-0.06020081590445489,0.7913464665136897,-0.1559403861732615,-1.183371,-15.537496
11.185,2.0,1.0,1.0,34.9,34.7,34.7,4.1,4.2,2.7175,-0.37695774599765614,-0.05385956083454882,0.765250818081344,-0.177472943753591,-1.380441,-14.634731
11.185,2.0,1.0,1.0,34.9,34.7,34.7,4.1,4.2,2.72,-0.38135733580058206,-0.042487860326357554,0.7353112282531772,-0.20264076842629253,-1.636024,-13.678617
11.185,2.0,1.0,1.0,34.9,34.7,34.7,4.1,4.2,2.7225,-0.378214734951443,-0.023238764425762233,0.7018451652993588,-0.23109073605295757,-1.967935,-12.680652
11.185,2.0,1.0,1.0,34.9,34.7,34.7,4.1,4.2,2.725,-0.3637116614372886,0.007818448627856951,0.6667661549847316,-0.2608140455004991,-2.389271,-11.66948
11.185,2.0,1.0,1.0,34.9,34.7,34.7,4.1,4.2,2.7275,-0.33373734786944,0.0548969745957297,0.6352575770340495,-0.28642375438463535,-2.882494,-10.703142
11.185,2.0,1.0,1.0,34.9,34.7,34.7,4.1,4.2,2.73,-0.2869766478904714,0.11929925340351068,0.6173214813626232,-0.29757407729298924,-3.340052,-9.880802
11.185,2.0,1.0,1.0,34.9,34.7,34.7,4.1,4.2,2.7325,-0.23072857560966745,0.19342798548788595,0.6255947050430861,-0.2812376745414171,-3.520262,-9.336405
11.185,2.0,1.0,1.0,34.9,34.7,34.7,4.1,4.2,2.735,-0.18331351654961847,0.25833702887883664,0.6654643771193931,-0.23190316281997125,-3.219857,-9.189513
11.185,2.0,1.0,1.0,34.9,34.7,34.7,4.1,4.2,2.7375,-0.16320623000487422,0.2949564167998028,0.7256890612793042,-0.16122377163415444,-2.5707,-9.469508
11.185,2.0,1.0,1.0,34.9,34.7,34.7,4.1,4.2,2.74,-0.17404335558778253,0.2995549906153345,0.78587767357487,-0.09028588297278216,-1.884955,-10.09285
11.185,2.0,1.0,1.0,34.9,34.7,34.7,4.1,4.2,2.7425,-0.20593032178706297,0.28238889168897946,0.8323116567960384,-0.033267614722983396,-1.33624,-10.923188
11.185,2.0,1.0,1.0,34.9,34.7,34.7,4.1,4.2,2.745,-0.2470056271468384,0.25574571519385725,0.8621151879787445,0.006877770099082956,-0.946066,-11.840693
11.185,2.0,1.0,1.0,34.9,34.7,34.7,4.1,4.2,2.7475,-0.2896172028222388,0.22754810207936235,0.8781347182855513,0.03312424788935942,-0.680345,-12.767467
11.185,2.0,1.0,1.0,34.9,34.7,34.7,4.1,4.2,2.75,-0.330233422753313,0.201444739875661,0.884302804960539,0.0495686572116287,-0.501001,-13.661577
11.185,2.0,1.0,1.0,34.9,34.7,34.7,4.1,4.2,2.7525,-0.3677046862839388,0.1786136798987891,0.8838306613241877,0.05955655303472826,-0.379323,-14.503858
11.185,2.0,1.0,1.0,34.9,34.7,34.7,4.1,4.2,2.755,-0.40196039205413475,0.1591146901844736,0.8789472467041204,0.06541250386913493,-0.295971,-15.287629
11.185,2.0,1.0,1.0,34.9,34.7,34.7,4.1,4.2,2.7575,-0.43332794957454446,0.1425959038286839,0.8711044752919521,0.06865407351451179,-0.238353,-16.012447
11.185,2.0,1.0,1.0,34.9,34.7,34.7,4.1,4.2,2.76,-0.46223140596424855,0.12860628087523557,0.8612259427815685,0.0702507000181849,-0.198293,-16.680722
11.185,2.0,1.0,1.0,34.9,34.7,34.7,4.1,4.2,2.7625,-0.48907436102515656,0.11671676119199317,0.8498954059589726,0.0708197753908983,-0.170435,-17.29595
11.185,2.0,1.0,1.0,34.9,34.7,34.7,4.1,4.2,2.765,-0.5142030509328674,0.10655826195245277,0.8374818701371014,0.07075675468370277,-0.151215,-17.861853
11.185,2.0,1.0,1.0,34.9,34.7,34.7,4.1,4.2,2.7675,-0.5379014590925503,0.09782650620077628,0.8242187005339883,0.07031745748427518,-0.138222,-18.381958
11.185,2.0,1.0,1.0,34.9,34.7,34.7,4.1,4.2,2.77,-0.5603977225118167,0.09027519021094256,0.8102528973169452,0.0696693712054587,-0.129797,-18.85942
11.185,2.0,1.0,1.0,34.9,34.7,34.7,4.1,4.2,2.7725,-0.5818733931578429,0.08370623273628805,0.7956757702616998,0.06892365262858557,-0.124783,-19.29696
11.185,2.0,1.0,1.0,34.9,34.7,34.7,4.1,4.2,2.775,-0.6024723811932599,0.07796038315895717,0.7805421500435019,0.06815525609826752,-0.122359,-19.696853
11.185,2.0,1.0,1.0,34.9,34.7,34.7,4.1,4.2,2.7775,-0.6223085824026889,0.0729092106941567,0.7648825196331663,0.06741575210197365,-0.121938,-20.06095
11.185,2.0,1.0,1.0,34.9,34.7,34.7,4.1,4.2,2.78,-0.6414720439071899,0.06844861538431077,0.7487107321932445,0.06674161540191757,-0.123095,-20.390701
11.185,2.0,1.0,1.0,34.9,34.7,34.7,4.1,4.2,2.7825,-0.6600338206932027,0.06449369351845549,0.732028939671672,0.06615968041284796,-0.125523,-20.687181
11.185,2.0,1.0,1.0,34.9,34.7,34.7,4.1,4.2,2.785,-0.6780497506334208,0.06097471267732733,0.7148307276411635,0.06569081101946787,-0.128996,-20.951115
11.185,2.0,1.0,1.0,34.9,34.7,34.7,4.1,4.2,2.7875,-0.6955633669053611,0.05783396023591179,0.6971030710177247,0.06535244006994008,-0.133352,-21.182897
11.185,2.0,1.0,1.0,34.9,34.7,34.7,4.1,4.2,2.79,-0.7126081314072257,0.055023264264569896,0.6788274918853457,0.0651603963691067,-0.138479,-21.382603
11.185,2.0,1.0,1.0,34.9,34.7,34.7,4.1,4.2,2.7925,-0.7292091333529919,0.05250202392623275,0.6599806551784527,0.06513029258115843,-0.144296,-21.550002
11.185,2.0,1.0,1.0,34.9,34.7,34.7,4.1,4.2,2.795,-0.7453843614080288,0.05023561932772785,0.6405345450321877,0.0652786598395762,-0.150758,-21.684552
11.185,2.0,1.0,1.0,34.9,34.7,34.7,4.1,4.2,2.7975,-0.7611456271752297,0.04819409601725363,0.620456302952688,0.06562396283200703,-0.157839,-21.785405
11.185,2.0,1.0,1.0,34.9,34.7,34.7,4.1,4.2,2.8,-0.776499191844174,0.046351036698010724,0.5997077655350156,0.06618760037063888,-0.16554,-21.851389
11.185,2.0,1.0,1.0,34.9,34.7,34.7,4.1,4.2,2.8025,-0.7914461247210627,0.04468254241074384,0.5782447059058755,0.06699498411084928,-0.173878,-21.880996
11.185,2.0,1.0,1.0,34.9,34.7,34.7,4.1,4.2,2.805,-0.8059824000340349,0.0431662471468672,0.5560157536013051,0.06807678880783556,-0.182896,-21.872354
11.185,2.0,1.0,1.0,34.9,34.7,34.7,4.1,4.2,2.8075,-0.820098714204837,0.0417802823035235,0.5329609376302841,0.06947048053705776,-0.192654,-21.823196
11.185,2.0,1.0,1.0,34.9,34.7,34.7,4.1,4.2,2.81,-0.8337799761310574,0.04050208762353356,0.5090097626816564,0.07122225614063328,-0.203242,-21.730815
11.185,2.0,1.0,1.0,34.9,34.7,34.7,4.1,4.2,2.8125,-0.847004382673603,0.0393069275517302,0.484078683829364,0.0733895717626353,-0.214778,-21.592001
11.185,2.0,1.0,1.0,34.9,34.7,34.7,4.1,4.2,2.815,-0.8597419320934071,0.03816590579854925,0.4580677841095729,0.07604450790907237,-0.227419,-21.402972
11.185,2.0,1.0,1.0,34.9,34.7,34.7,4.1,4.2,2.8175,-0.8719521354370505,0.03704315730958984,0.43085637254338666,0.07927832493813228,-0.241374,-21.159273
11.185,2.0,1.0,1.0,34.9,34.7,34.7,4.1,4.2,2.82,-0.8835805347889514,0.03589170091717389,0.402297093428488,0.08320772534311806,-0.256921,-20.855648
11.185,2.0,1.0,1.0,34.9,34.7,34.7,4.1,4.2,2.8225,-0.8945533820492136,0.03464709239138939,0.37220794960374637,0.08798358761686026,-0.274433,-20.48588
11.185,2.0,1.0,1.0,34.9,34.7,34.7,4.1,4.2,2.825,-0.9047693855909223,0.03321740082394049,0.34036136091240604,0.09380331670162954,-0.294423,-20.04257
11.185,2.0,1.0,1.0,34.9,34.7,34.7,4.1,4.2,2.8275,-0.9140866242488012,0.031466892216600914,0.30646895925601725,0.10092853380203755,-0.317611,-19.516851
11.185,2.0,1.0,1.0,34.9,34.7,34.7,4.1,4.2,2.83,-0.9223012111553377,0.029188631988916896,0.2701602111010325,0.10971068272644655,-0.345038,-18.898007
