1,w,sub_t,h,l1,l2,l3,g1,g2,Freq,S11_re,S21_re,S11_img,S21_img,S11_dB,S21_dB
11.185,2.0,1.0,1.0,34.7,34.0,34.0,1.5,2.5,2.5,0.643752283914784,-0.0270651590659015,0.751167512178663,0.013465817589754,-0.093639,-30.391246
11.185,2.0,1.0,1.0,34.7,34.0,34.0,1.5,2.5,2.5025,0.6369038176821138,-0.02759127092698306,0.7567899301638015,0.013404643606280941,-0.094936,-30.264276
11.185,2.0,1.0,1.0,34.7,34.0,34.0,1.5,2.5,2.505,0.6299615785517715,-0.028127026219479424,0.762383427567005,0.013336803819100337,-0.096256,-30.136762
11.185,2.0,1.0,1.0,34.7,34.0,34.0,1.5,2.5,2.5075,0.6229245393435018,-0.028672598636716437,0.7679468118992298,0.01326202671596782,-0.097601,-30.008698
11.185,2.0,1.0,1.0,34.7,34.0,34.0,1.5,2.5,2.51,0.6157916633120633,-0.02922816441423557,0.773478853676685,0.013180030243467509,-0.09897,-29.880074
11.185,2.0,1.0,1.0,34.7,34.0,34.0,1.5,2.5,2.5125,0.6085619043470114,-0.029793902304672746,0.7789782852563599,0.013090521372697611,-0.100366,-29.750883
11.185,2.0,1.0,1.0,34.7,34.0,34.0,1.5,2.5,2.515,0.6012342071951521,-0.03036999354613917,0.7844437996339402,0.012993195645767055,-0.101789,-29.621117
11.185,2.0,1.0,1.0,34.7,34.0,34.0,1.5,2.5,2.5175,0.5938075077071218,-0.030956621823520304,0.7898740492028623,0.012887736702201604,-0.10324,-29.490768
11.185,2.0,1.0,1.0,34.7,34.0,34.0,1.5,2.5,2.52,0.5862807331096049,-0.031553973222067634,0.7952676444732485,0.012773815784310456,-0.10472,-29.359827
11.185,2.0,1.0,1.0,34.7,34.0,34.0,1.5,2.5,2.5225,0.5786528023048344,-0.03216223617260293,0.8006231527493887,0.012651091220520527,-0.106229,-29.228286
11.185,2.0,1.0,1.0,34.7,34.0,34.0,1.5,2.5,2.525,0.5709226261990754,-0.03278160138760751,0.8059390967644239,0.01251920788563275,-0.10777,-29.096136
11.185,2.0,1.0,1.0,34.7,34.0,34.0,1.5,2.5,2.5275,0.5630891080618979,-0.03341226178740705,0.8112139532708271,0.012377796636905452,-0.109342,-28.963368
11.185,2.0,1.0,1.0,34.7,34.0,34.0,1.5,2.5,2.53,0.5551511439181908,-0.03405441241560212,0.8164461515852292,0.01222647372481298,-0.110947,-28.829974
11.185,2.0,1.0,1.0,34.7,34.0,34.0,1.5,2.5,2.5325,0.5471076229749335,-0.03470825034282801,0.8216340720860977,0.012064840177272584,-0.112586,-28.695945
11.185,2.0,1.0,1.0,34.7,34.0,34.0,1.5,2.5,2.535,0.5389574280848849,-0.03537397455785468,0.8267760446627349,0.01189248115606861,-0.11426,-28.561271
11.185,2.0,1.0,1.0,34.7,34.0,34.0,1.5,2.5,2.5375,0.5306994362494958,-0.03605178584495869,0.8318703471139892,0.011708965284143894,-0.115971,-28.425943
11.185,2.0,1.0,1.0,34.7,34.0,34.0,1.5,2.5,2.54,0.5223325191634486,-0.03674188664641739,0.8369152034950522,0.01151384394235719,-0.117719,-28.289951
11.185,2.0,1.0,1.0,34.7,34.0,34.0,1.5,2.5,2.5425,0.5138555438034051,-0.0374444809088816,0.8419087824106436,0.011306650534237545,-0.119506,-28.153286
11.185,2.0,1.0,1.0,34.7,34.0,34.0,1.5,2.5,2.545,0.5052673730636803,-0.038159773912286414,0.8468491952528354,0.011086899717192926,-0.121333,-28.015938
11.185,2.0,1.0,1.0,34.7,34.0,34.0,1.5,2.5,2.5475,0.4965668664417475,-0.03888797207985214,0.8517344943817096,0.010854086598550769,-0.123202,-27.877896
11.185,2.0,1.0,1.0,34.7,34.0,34.0,1.5,2.5,2.55,0.48775288077660545,-0.03962928276761492,0.8565626712470082,0.010607685894728734,-0.125114,-27.739151
11.185,2.0,1.0,1.0,34.7,34.0,34.0,1.5,2.5,2.5525,0.4788242710433003,-0.040383914031797245,0.8613316544488324,0.010347151051746788,-0.12707,-27.599692
11.185,2.0,1.0,1.0,34.7,34.0,34.0,1.5,2.5,2.555,0.4697798912070153,-0.04115207437219989,0.8660393077354352,0.010071913325203652,-0.129073,-27.459509
11.185,2.0,1.0,1.0,34.7,34.0,34.0,1.5,2.5,2.5575,0.46061859514040054,-0.041933972449647056,0.8706834279360717,0.009781380817742628,-0.131123,-27.31859
11.185,2.0,1.0,1.0,34.7,34.0,34.0,1.5,2.5,2.56,0.4513392376080326,-0.04272981677535877,0.8752617428267853,0.009474937471937365,-0.133222,-27.176925
11.185,2.0,1.0,1.0,34.7,34.0,34.0,1.5,2.5,2.5625,0.44194067532212605,-0.043539815369956165,0.8797719089269941,0.009151942016420713,-0.135372,-27.034503
11.185,2.0,1.0,1.0,34.7,34.0,34.0,1.5,2.5,2.565,0.4324217680738652,-0.04436417538961832,0.8842115092246278,0.008811726862971147,-0.137575,-26.891312
11.185,2.0,1.0,1.0,34.7,34.0,34.0,1.5,2.5,2.5675,0.42278137994504394,-0.045203102716707105,0.8885780508275283,0.008453596952159106,-0.139833,-26.74734
11.185,2.0,1.0,1.0,34.7,34.0,34.0,1.5,2.5,2.57,0.41301838060492974,-0.04605680151196303,0.8928689625387431,0.008076828545032482,-0.142148,-26.602576
11.185,2.0,1.0,1.0,34.7,34.0,34.0,1.5,2.5,2.5725,0.40313164669763096,-0.04692547372513402,0.8970815923532854,0.007680667958197628,-0.144521,-26.457008
11.185,2.0,1.0,1.0,34.7,34.0,34.0,1.5,2.5,2.575,0.3931200633255598,-0.0478093185606471,0.9012132048738433,0.007264330239519595,-0.146954,-26.310624
11.185,2.0,1.0,1.0,34.7,34.0,34.0,1.5,2.5,2.5775,0.38298252563494756,-0.04870853189465059,0.9052609786428755,0.006826997781528102,-0.149451,-26.16341
11.185,2.0,1.0,1.0,34.7,34.0,34.0,1.5,2.5,2.58,0.37271794050975887,-0.04962330563945502,0.9092220033884176,0.0063678188694729606,-0.152013,-26.015354
11.185,2.0,1.0,1.0,34.7,34.0,34.0,1.5,2.5,2.5825,0.3623252283807408,-0.05055382705107229,0.913093277180904,0.005885906160821496,-0.154642,-25.866443
11.185,2.0,1.0,1.0,34.7,34.0,34.0,1.5,2.5,2.585,0.35180332515682056,-0.051500277975193416,0.9168717034981764,0.0053803350928357824,-0.157341,-25.716665
11.185,2.0,1.0,1.0,34.7,34.0,34.0,1.5,2.5,2.5875,0.34115118428649743,-0.05246283402655941,0.9205540881958232,0.004850142214702917,-0.160113,-25.566004
11.185,2.0,1.0,1.0,34.7,34.0,34.0,1.5,2.5,2.59,0.33036777895743796,-0.05344166369625513,0.9241371363798837,0.00429432344052478,-0.16296,-25.414448
11.185,2.0,1.0,1.0,34.7,34.0,34.0,1.5,2.5,2.5925,0.31945210444295974,-0.05443692738099753,0.9276174491789003,0.003711832219295446,-0.165885,-25.261983
11.185,2.0,1.0,1.0,34.7,34.0,34.0,1.5,2.5,2.595,0.3084031806047708,-0.05544877632798578,0.930991520412211,0.003101577617813876,-0.168892,-25.108594
11.185,2.0,1.0,1.0,34.7,34.0,34.0,1.5,2.5,2.5975,0.2972200545618698,-0.05647735148833894,0.9342557331513065,0.002462422312290914,-0.171982,-24.954266
11.185,2.0,1.0,1.0,34.7,34.0,34.0,1.5,2.5,2.6,0.285901803536266,-0.0575227822715473,0.9374063561710111,0.0017931804842133941,-0.17516,-24.798984
11.185,2.0,1.0,1.0,34.7,34.0,34.0,1.5,2.5,2.6025,0.27444753788690596,-0.058585185192715085,0.9404395402871645,0.0010926156158313257,-0.178428,-24.642734
11.185,2.0,1.0,1.0,34.7,34.0,34.0,1.5,2.5,2.605,0.26285640434395213,-0.059664662403664755,0.9433513145774243,0.00035943818042590605,-0.18179,-24.485499
11.185,2.0,1.0,1.0,34.7,34.0,34.0,1.5,2.5,2.6075,0.2511275894564756,-0.060761300098196476,0.9461375824817477,-0.00040769677769234805,-0.185251,-24.327263
11.185,2.0,1.0,1.0,34.7,34.0,34.0,1.5,2.5,2.61,0.23926032326752372,-0.06187516678095124,0.9487941177790501,-0.0012101921787181376,-0.188813,-24.168011
11.185,2.0,1.0,1.0,34.7,34.0,34.0,1.5,2.5,2.6125,0.2272538832315408,-0.06300631138840156,0.9513165604364927,-0.002049511563900904,-0.19248,-24.007726
11.185,2.0,1.0,1.0,34.7,34.0,34.0,1.5,2.5,2.615,0.21510759839021784,-0.0641547612494819,0.9537004123278205,-0.0029271818788026327,-0.196258,-23.84639
11.185,2.0,1.0,1.0,34.7,34.0,34.0,1.5,2.5,2.6175,0.20282085382404427,-0.06532051987226144,0.9559410328171214,-0.003844796389180266,-0.20015,-23.683987
11.185,2.0,1.0,1.0,34.7,34.0,34.0,1.5,2.5,2.62,0.19039309539810162,-0.06650356454185212,0.9580336342043843,-0.004804017735616361,-0.204161,-23.520498
11.185,2.0,1.0,1.0,34.7,34.0,34.0,1.5,2.5,2.6225,0.17782383482206465,-0.0677038437134148,0.9599732770292312,-0.0058065811332348735,-0.208296,-23.355906
11.185,2.0,1.0,1.0,34.7,34.0,34.0,1.5,2.5,2.625,0.165112655045905,-0.0689212741826653,0.961754865229208,-0.00685429772303414,-0.21256,-23.190191
11.185,2.0,1.0,1.0,34.7,34.0,34.0,1.5,2.5,2.6275,0.15225921601441558,-0.0701557380146933,0.9633731411490786,-0.007949058081561438,-0.216959,-23.023335
11.185,2.0,1.0,1.0,34.7,34.0,34.0,1.5,2.5,2.63,0.13926326080554027,-0.07140707921014028,0.9648226803976366,-0.009092835895821003,-0.221498,-22.855319
11.185,2.0,1.0,1.0,34.7,34.0,34.0,1.5,2.5,2.6325,0.12612462217942239,-0.07267510008586561,0.9660978865486551,-0.010287691810455865,-0.226182,-22.686122
11.185,2.0,1.0,1.0,34.7,34.0,34.0,1.5,2.5,2.635,0.11284322956730053,-0.07395955734510515,0.9671929856827541,-0.011535777454364874,-0.231019,-22.515724
11.185,2.0,1.0,1.0,34.7,34.0,34.0,1.5,2.5,2.6375,0.09941911653168402,-0.07526015780979964,0.9681020207671629,-0.012839339653997516,-0.236016,-22.344104
11.185,2.0,1.0,1.0,34.7,34.0,34.0,1.5,2.5,2.64,0.08585242873186567,-0.0765765537852096,0.9688188458706084,-0.014200724840607427,-0.241178,-22.171241
11.185,2.0,1.0,1.0,34.7,34.0,34.0,1.5,2.5,2.6425,0.07214343243165992,-0.07790833802410593,0.9693371202109088,-0.015622383658721787,-0.246513,-21.997114
11.185,2.0,1.0,1.0,34.7,34.0,34.0,1.5,2.5,2.645,0.05829252358934937,-0.07925503825472266,0.9696503020332454,-0.01710687578299377,-0.25203,-21.821699
11.185,2.0,1.0,1.0,34.7,34.0,34.0,1.5,2.5,2.6475,0.044300237573253194,-0.08061611123322626,0.9697516423176186,-0.018656874950425274,-0.257736,-21.644974
11.185,2.0,1.0,1.0,34.7,34.0,34.0,1.5,2.5,2.65,0.030167259550045837,-0.08199093627768361,0.969634178314621,-0.020275174214667808,-0.26364,-21.466915
11.185,2.0,1.0,1.0,34.7,34.0,34.0,1.5,2.5,2.6525,0.015894435597152035,-0.08337880823632957,0.9692907269094296,-0.021964691428685276,-0.269751,-21.287498
11.185,2.0,1.0,1.0,34.7,34.0,34.0,1.5,2.5,2.655,0.0014827845949795832,-0.08477892983834387,0.9687138778148666,-0.02372847496151168,-0.276079,-21.106699
11.185,2.0,1.0,1.0,34.7,34.0,34.0,1.5,2.5,2.6575,-0.013066489040150958,-0.08619040337024918,0.9678959865955233,-0.025569709654071154,-0.282635,-20.924491
11.185,2.0,1.0,1.0,34.7,34.0,34.0,1.5,2.5,2.66,-0.027751981716071586,-0.08761222161542612,0.9668291675262886,-0.027491723018056233,-0.289428,-20.74085
11.185,2.0,1.0,1.0,34.7,34.0,34.0,1.5,2.5,2.6625,-0.04257207604538179,-0.08904325798802273,0.96550528629031,-0.029497991680614892,-0.296472,-20.555749
11.185,2.0,1.0,1.0,34.7,34.0,34.0,1.5,2.5,2.665,-0.05752492516751069,-0.09048225578566045,0.9639159525233653,-0.03159214807603518,-0.303777,-20.36916
11.185,2.0,1.0,1.0,34.7,34.0,34.0,1.5,2.5,2.6675,-0.072608435925623,-0.09192781647772497,0.9620525122140099,-0.03377798738366068,-0.311357,-20.181055
11.185,2.0,1.0,1.0,34.7,34.0,34.0,1.5,2.5,2.67,-0.08782025080363062,-0.09337838693761,0.9599060399716922,-0.03605947470887634,-0.319226,-19.991406
11.185,2.0,1.0,1.0,34.7,34.0,34.0,1.5,2.5,2.6725,-0.10315772851944058,-0.09483224551794718,0.9574673311783889,-0.038440752501047906,-0.327398,-19.800182
11.185,2.0,1.0,1.0,34.7,34.0,34.0,1.5,2.5,2.675,-0.11861792316052183,-0.09628748685752123,0.9547268940433857,-0.04092614819870618,-0.33589,-19.607354
11.185,2.0,1.0,1.0,34.7,34.0,34.0,1.5,2.5,2.6775,-0.13419756173677166,-0.09774200529712082,0.9516749415855671,-0.0435201820878983,-0.344718,-19.412891
11.185,2.0,1.0,1.0,34.7,34.0,34.0,1.5,2.5,2.68,-0.14989302001330881,-0.09919347676888678,0.9483013835733349,-0.046227575354347794,-0.353899,-19.216761
11.185,2.0,1.0,1.0,34.7,34.0,34.0,1.5,2.5,2.6825,-0.16570029647214882,-0.10063933900966186,0.9445958184590227,-0.04905325830368698,-0.363454,-19.01893
11.185,2.0,1.0,1.0,34.7,34.0,34.0,1.5,2.5,2.685,-0.1816149842366503,-0.10207676993327285,0.9405475253527749,-0.05200237871636095,-0.373401,-18.819366
11.185,2.0,1.0,1.0,34.7,34.0,34.0,1.5,2.5,2.6875,-0.19763224077577204,-0.10350266397942372,0.9361454560904202,-0.055080310294593336,-0.383764,-18.618034
11.185,2.0,1.0,1.0,34.7,34.0,34.0,1.5,2.5,2.69,-0.21374675518666833,-0.10491360623777399,0.9313782274612789,-0.05829266114776296,-0.394564,-18.414898
11.185,2.0,1.0,1.0,34.7,34.0,34.0,1.5,2.5,2.6925,-0.22995271283361002,-0.10630584412464082,0.9262341136753384,-0.06164528224934182,-0.405828,-18.209922
11.185,2.0,1.0,1.0,34.7,34.0,34.0,1.5,2.5,2.695,-0.24624375709838692,-0.10767525636637561,0.920701039165363,-0.06514427578274058,-0.417581,-18.003069
11.185,2.0,1.0,1.0,34.7,34.0,34.0,1.5,2.5,2.6975,-0.26261294797231866,-0.10901731901764296,0.914766571838502,-0.06879600327456983,-0.429852,-17.7943
11.185,2.0,1.0,1.0,34.7,34.0,34.0,1.5,2.5,2.7,-0.27905271719211644,-0.11032706821431568,0.9084179169146969,-0.07260709339130934,-0.442673,-17.583576
11.185,2.0,1.0,1.0,34.7,34.0,34.0,1.5,2.5,2.7025,-0.29555481959128876,-0.11159905932929594,0.9016419115160598,-0.07658444924856904,-0.456075,-17.370857
11.185,2.0,1.0,1.0,34.7,34.0,34.0,1.5,2.5,2.705,-0.3121102803050116,-0.11282732216502654,0.8944250202034019,-0.08073525505014174,-0.470096,-17.156102
11.185,2.0,1.0,1.0,34.7,34.0,34.0,1.5,2.5,2.7075,-0.3287093374294067,-0.11400531177856287,0.8867533316940143,-0.08506698183598656,-0.484773,-16.939268
11.185,2.0,1.0,1.0,34.7,34.0,34.0,1.5,2.5,2.71,-0.3453413796955615,-0.11512585449361883,0.8786125570399915,-0.08958739207292565,-0.500147,-16.720312
11.185,2.0,1.0,1.0,34.7,34.0,34.0,1.5,2.5,2.7125,-0.36199487867441993,-0.11618108860882449,0.8699880295999222,-0.0943045427678947,-0.516264,-16.499189
11.185,2.0,1.0,1.0,34.7,34.0,34.0,1.5,2.5,2.715,-0.3786573149805743,-0.1171623992624066,0.860864707200482,-0.09922678671935302,-0.533172,-16.275855
11.185,2.0,1.0,1.0,34.7,34.0,34.0,1.5,2.5,2.7175,-0.3953150978910175,-0.11806034686062421,0.8512271769601465,-0.10436277144608645,-0.550923,-16.050262
11.185,2.0,1.0,1.0,34.7,34.0,34.0,1.5,2.5,2.72,-0.4119534777392142,-0.11886458842063821,0.8410596633371165,-0.10972143524177311,-0.569573,-15.822364
11.185,2.0,1.0,1.0,34.7,34.0,34.0,1.5,2.5,2.7225,-0.4285564503855438,-0.11956379111835824,0.830346040070399,-0.11531199969569038,-0.589185,-15.592112
11.185,2.0,1.0,1.0,34.7,34.0,34.0,1.5,2.5,2.725,-0.4451066530028305,-0.12014553726870794,0.819069846809881,-0.12114395789152729,-0.609825,-15.359457
11.185,2.0,1.0,1.0,34.7,34.0,34.0,1.5,2.5,2.7275,-0.46158525035115094,-0.12059621990057455,0.8072143113819324,-0.1272270573437848,-0.631567,-15.12435
11.185,2.0,1.0,1.0,34.7,34.0,34.0,1.5,2.5,2.73,-0.47797181065055805,-0.12090092802276317,0.7947623788160884,-0.13357127655007553,-0.654489,-14.88674
11.185,2.0,1.0,1.0,34.7,34.0,34.0,1.5,2.5,2.7325,-0.49424417009582744,-0.1210433206125625,0.781696748470704,-0.1401867938227138,-0.678678,-14.646575
11.185,2.0,1.0,1.0,34.7,34.0,34.0,1.5,2.5,2.735,-0.5103782849964142,-0.12100548829781776,0.7679999208473772,-0.14708394680804404,-0.704228,-14.403804
11.185,2.0,1.0,1.0,34.7,34.0,34.0,1.5,2.5,2.7375,-0.5263480704712794,-0.12076780165062127,0.7536542559824602,-0.15427318079996455,-0.731243,-14.158376
11.185,2.0,1.0,1.0,34.7,34.0,34.0,1.5,2.5,2.74,-0.542125224587441,-0.12030874497124375,0.7386420456573146,-0.16176498359669367,-0.759835,-13.910238
11.185,2.0,1.0,1.0,34.7,34.0,34.0,1.5,2.5,2.7425,-0.557679036810044,-0.1196047344220113,0.7229456020866529,-0.16956980422758125,-0.79013,-13.659339
11.185,2.0,1.0,1.0,34.7,34.0,34.0,1.5,2.5,2.745,-0.5729761796398836,-0.11862991938227989,0.7065473662372196,-0.17769795237871208,-0.822263,-13.405628
11.185,2.0,1.0,1.0,34.7,34.0,34.0,1.5,2.5,2.7475,-0.5879804823646823,-0.11735596595049047,0.6894300395093319,-0.18615947476006703,-0.856384,-13.149055
11.185,2.0,1.0,1.0,34.7,34.0,34.0,1.5,2.5,2.75,-0.602652685959477,-0.115751821634696,0.671576743195229,-0.194964003969452,-0.892659,-12.889571
11.185,2.0,1.0,1.0,34.7,34.0,34.0,1.5,2.5,2.7525,-0.6169501783617897,-0.11378346047152707,0.6529712109253997,-0.20412057460459712,-0.93127,-12.627128
11.185,2.0,1.0,1.0,34.7,34.0,34.0,1.5,2.5,2.755,-0.630826709647377,-0.11141360812473335,0.6335980202430134,-0.2136374004392369,-0.972419,-12.361684
11.185,2.0,1.0,1.0,34.7,34.0,34.0,1.5,2.5,2.7575,-0.6442320870801598,-0.10860144697631514,0.6134428705228203,-0.22352160539611088,-1.01633,-12.093196
11.185,2.0,1.0,1.0,34.7,34.0,34.0,1.5,2.5,2.76,-0.6571118506535015,-0.10530230188494262,0.5924929156898868,-0.23377889980506183,-1.063249,-11.821627
11.185,2.0,1.0,1.0,34.7,34.0,34.0,1.5,2.5,2.7625,-0.6694069306415136,-0.10146730821053292,0.5707371616069848,-0.2444131920164049,-1.113452,-11.546946
11.185,2.0,1.0,1.0,34.7,34.0,34.0,1.5,2.5,2.765,-0.6810532899170049,-0.09704306497009099,0.548166939594628,-0.2554261238425481,-1.167244,-11.269128
11.185,2.0,1.0,1.0,34.7,34.0,34.0,1.5,2.5,2.7675,-0.6919815554663351,-0.09197127769822193,0.5247764693217881,-0.26681651652872257,-1.224969,-10.988155
11.185,2.0,1.0,1.0,34.7,34.0,34.0,1.5,2.5,2.77,-0.702116645764172,-0.08618839786054498,0.5005635262400483,-0.27857971202673504,-1.287006,-10.704018
11.185,2.0,1.0,1.0,34.7,34.0,34.0,1.5,2.5,2.7725,-0.7113774036154071,-0.07962526866257147,0.4755302307876444,-0.29070679230852037,-1.353781,-10.416721
11.185,2.0,1.0,1.0,34.7,34.0,34.0,1.5,2.5,2.775,-0.7196762479117268,-0.07220679099551683,0.4496839786845801,-0.30318365739034964,-1.425773,-10.126281
11.185,2.0,1.0,1.0,34.7,34.0,34.0,1.5,2.5,2.7775,-0.7269188627065266,-0.06385162828356582,0.4230385336463954,-0.31598994077806564,-1.503517,-9.83273
11.185,2.0,1.0,1.0,34.7,34.0,34.0,1.5,2.5,2.78,-0.7330039483386164,-0.05447197539776534,0.39561530555867364,-0.3290977393982432,-1.587618,-9.536121
11.185,2.0,1.0,1.0,34.7,34.0,34.0,1.5,2.5,2.7825,-0.7378230673175952,-0.043973424861980935,0.36744483827084723,-0.3424701340632419,-1.678754,-9.236529
11.185,2.0,1.0,1.0,34.7,34.0,34.0,1.5,2.5,2.785,-0.7412606276236331,-0.03225497359223403,0.3385685312404217,-0.3560594765846948,-1.777692,-8.934055
11.185,2.0,1.0,1.0,34.7,34.0,34.0,1.5,2.5,2.7875,-0.7431940582638162,-0.01920922566500072,0.3090406176561776,-0.3698054214413393,-1.885299,-8.628832
11.185,2.0,1.0,1.0,34.7,34.0,34.0,1.5,2.5,2.79,-0.7434942466013463,-0.004722861322528925,0.2789304175202004,-0.3836326843048958,-2.002558,-8.32103
11.185,2.0,1.0,1.0,34.7,34.0,34.0,1.5,2.5,2.7925,-0.742026324233414,0.011322540327706307,0.248324876305291,-0.39744851791051183,-2.130582,-8.010859
11.185,2.0,1.0,1.0,34.7,34.0,34.0,1.5,2.5,2.795,-0.7386509078840872,0.02904921786321287,0.21733138670198549,-0.41113990925635613,-2.270639,-7.69858
11.185,2.0,1.0,1.0,34.7,34.0,34.0,1.5,2.5,2.7975,-0.733225923313778,0.04858135497127912,0.18608087071180418,-0.42457052284597196,-2.42417,-7.38451
11.185,2.0,1.0,1.0,34.7,34.0,34.0,1.5,2.5,2.8,-0.7256091623570015,0.07004246866108706,0.15473106962235364,-0.43757744493852757,-2.592818,-7.069028
11.185,2.0,1.0,1.0,34.7,34.0,34.0,1.5,2.5,2.8025,-0.7156617436009024,0.09355188842381176,0.12346994760979542,-0.44996782611364444,-2.778462,-6.752588
11.185,2.0,1.0,1.0,34.7,34.0,34.0,1.5,2.5,2.805,-0.7032526621934064,0.11922014250080874,0.09251905818350165,-0.4615155764845037,-2.983249,-6.435724
11.185,2.0,1.0,1.0,34.7,34.0,34.0,1.5,2.5,2.8075,-0.6882646182127722,0.14714306485255418,0.06213664915307102,-0.4719583417432959,-3.209637,-6.119063
11.185,2.0,1.0,1.0,34.7,34.0,34.0,1.5,2.5,2.81,-0.670601297997449,0.17739445327403824,0.03262019020982245,-0.48099507975403094,-3.460448,-5.803332
11.185,2.0,1.0,1.0,34.7,34.0,34.0,1.5,2.5,2.8125,-0.6501962383047689,0.21001715588006495,0.0043078989951417885,-0.48828466493119294,-3.73892,-5.489368
11.185,2.0,1.0,1.0,34.7,34.0,34.0,1.5,2.5,2.815,-0.6270233162473655,0.24501255264081379,-0.022421277664049933,-0.4934460651614951,-4.048777,-5.178124
11.185,2.0,1.0,1.0,34.7,34.0,34.0,1.5,2.5,2.8175,-0.6011087644744647,0.2823285446333351,-0.04714988870200878,-0.4960607510343086,-4.3943,-4.87068
11.185,2.0,1.0,1.0,34.7,34.0,34.0,1.5,2.5,2.82,-0.5725443980454459,0.3218463785774865,-0.06942716714842184,-0.4956780883091245,-4.780422,-4.56824
11.185,2.0,1.0,1.0,34.7,34.0,34.0,1.5,2.5,2.8225,-0.5415014495315609,0.36336692450350566,-0.0887779809682865,-0.4918244999725185,-5.212815,-4.272133
11.185,2.0,1.0,1.0,34.7,34.0,34.0,1.5,2.5,2.825,-0.5082440469965547,0.4065973839528198,-0.10471629086605036,-0.4840171215919506,-5.697999,-3.98381
11.185,2.0,1.0,1.0,34.7,34.0,34.0,1.5,2.5,2.8275,-0.47314096132592226,0.4511398079671525,-0.11676365828586245,-0.47178246395379836,-6.243435,-3.704825
11.185,2.0,1.0,1.0,34.7,34.0,34.0,1.5,2.5,2.83,-0.4366738499486287,0.4964831921860482,-0.12447295085529797,-0.45468019389881315,-6.857586,-3.436817
