1,w,sub_t,h,l1,l2,l3,g1,g2,Freq,S11_re,S21_re,S11_img,S21_img,S11_dB,S21_dB
11.185,2.0,1.0,1.0,34.1,33.4,33.4,2.2,3.5,2.5,0.765627714604915,-0.0113494117358184,0.631398431320347,0.00684581169532853,-0.0663,-37.552918
11.185,2.0,1.0,1.0,34.1,33.4,33.4,2.2,3.5,2.5025,0.7607726304039508,-0.011559756928240955,0.6371160187202028,0.006841852633437193,-0.066997,-37.436698
11.185,2.0,1.0,1.0,34.1,33.4,33.4,2.2,3.5,2.505,0.7558495811614213,-0.011773562149160864,0.6428240157349788,0.006835921394753005,-0.067705,-37.320154
11.185,2.0,1.0,1.0,34.1,33.4,33.4,2.2,3.5,2.5075,0.7508578641040689,-0.011990884230073003,0.6485218928331408,0.00682794598641948,-0.068424,-37.203281
11.185,2.0,1.0,1.0,34.1,33.4,33.4,2.2,3.5,2.51,0.7457967673499547,-0.012211780926416532,0.6542091047087158,0.006817851971809997,-0.069156,-37.086074
11.185,2.0,1.0,1.0,34.1,33.4,33.4,2.2,3.5,2.5125,0.7406655698589071,-0.012436310925195844,0.6598850898042494,0.006805562381467233,-0.0699,-36.968525
11.185,2.0,1.0,1.0,34.1,33.4,33.4,2.2,3.5,2.515,0.735463541387214,-0.012664533851995143,0.6655492698193398,0.006790997620570444,-0.070656,-36.85063
11.185,2.0,1.0,1.0,34.1,33.4,33.4,2.2,3.5,2.5175,0.7301899424469059,-0.012896510277322634,0.6712010492042929,0.006774075372786717,-0.071425,-36.732381
11.185,2.0,1.0,1.0,34.1,33.4,33.4,2.2,3.5,2.52,0.7248440242699621,-0.013132301722219112,0.6768398146384746,0.006754710500356489,-0.072208,-36.613773
11.185,2.0,1.0,1.0,34.1,33.4,33.4,2.2,3.5,2.5225,0.7194250287778324,-0.013371970663057271,0.682464934492868,0.0067328149402567745,-0.073004,-36.494799
11.185,2.0,1.0,1.0,34.1,33.4,33.4,2.2,3.5,2.525,0.7139321885566443,-0.013615580535456294,0.6880757582763867,0.006708297596278916,-0.073814,-36.375453
11.185,2.0,1.0,1.0,34.1,33.4,33.4,2.2,3.5,2.5275,0.708364726838515,-0.013863195737228681,0.6936716160654474,0.0066810642268504365,-0.074638,-36.255728
11.185,2.0,1.0,1.0,34.1,33.4,33.4,2.2,3.5,2.53,0.7027218574894095,-0.014114881630270564,0.6992518179162974,0.006651017328422554,-0.075476,-36.135618
11.185,2.0,1.0,1.0,34.1,33.4,33.4,2.2,3.5,2.5325,0.6970027850039965,-0.014370704541301918,0.7048156532595851,0.0066180560142380185,-0.07633,-36.015117
11.185,2.0,1.0,1.0,34.1,33.4,33.4,2.2,3.5,2.535,0.6912067045079858,-0.014630731761354142,0.7103623902766469,0.006582075888284748,-0.077199,-35.894218
11.185,2.0,1.0,1.0,34.1,33.4,33.4,2.2,3.5,2.5375,0.6853328017684712,-0.014895031543897338,0.7158912752569613,0.006542968914232377,-0.078083,-35.772913
11.185,2.0,1.0,1.0,34.1,33.4,33.4,2.2,3.5,2.54,0.679380253212803,-0.015163673101490771,0.7214015319362158,0.006500623279140467,-0.078984,-35.651197
11.185,2.0,1.0,1.0,34.1,33.4,33.4,2.2,3.5,2.5425,0.6733482259565681,-0.015436726600832082,0.7268923608144132,0.006454923251716338,-0.079901,-35.529062
11.185,2.0,1.0,1.0,34.1,33.4,33.4,2.2,3.5,2.545,0.6672358778412739,-0.01571426315607253,0.7323629384534334,0.006405749034891925,-0.080835,-35.406502
11.185,2.0,1.0,1.0,34.1,33.4,33.4,2.2,3.5,2.5475,0.6610423574823797,-0.015996354820254983,0.7378124167534306,0.006352976612477819,-0.081787,-35.283509
11.185,2.0,1.0,1.0,34.1,33.4,33.4,2.2,3.5,2.55,0.6547668043283201,-0.016283074574723562,0.7432399222074755,0.006296477589642055,-0.082756,-35.160076
11.185,2.0,1.0,1.0,34.1,33.4,33.4,2.2,3.5,2.5525,0.648408348731256,-0.01657449631634016,0.7486445551337734,0.006236119026950124,-0.083744,-35.036196
11.185,2.0,1.0,1.0,34.1,33.4,33.4,2.2,3.5,2.555,0.6419661120302665,-0.01687069484233462,0.754025388884835,0.006171763267690067,-0.08475,-34.911862
11.185,2.0,1.0,1.0,34.1,33.4,33.4,2.2,3.5,2.5575,0.6354392066477754,-0.01717174583260162,0.7593814690329183,0.006103267758194705,-0.085776,-34.787066
11.185,2.0,1.0,1.0,34.1,33.4,33.4,2.2,3.5,2.56,0.6288267362000409,-0.017477725829243725,0.7647118125310618,0.0060304848608597195,-0.086821,-34.661801
11.185,2.0,1.0,1.0,34.1,33.4,33.4,2.2,3.5,2.5625,0.6221277956225676,-0.01778871221314802,0.7700154068490034,0.005953261659542447,-0.087887,-34.536059
11.185,2.0,1.0,1.0,34.1,33.4,33.4,2.2,3.5,2.565,0.6153414713113572,-0.018104783177367082,0.7752912090832774,0.00587143975701206,-0.088973,-34.409832
11.185,2.0,1.0,1.0,34.1,33.4,33.4,2.2,3.5,2.5675,0.6084668412809698,-0.018426017697059677,0.780538145040743,0.005784855064106647,-0.090081,-34.283113
11.185,2.0,1.0,1.0,34.1,33.4,33.4,2.2,3.5,2.57,0.6015029753403996,-0.018752495495730114,0.7857551082948001,0.005693337580237174,-0.091211,-34.155894
11.185,2.0,1.0,1.0,34.1,33.4,33.4,2.2,3.5,2.5725,0.5944489352878403,-0.01908429700748601,0.7909409592135239,0.005596711164861126,-0.092363,-34.028167
11.185,2.0,1.0,1.0,34.1,33.4,33.4,2.2,3.5,2.575,0.5873037751254645,-0.01942150333501533,0.7960945239589281,0.005494793299532079,-0.093539,-33.899923
11.185,2.0,1.0,1.0,34.1,33.4,33.4,2.2,3.5,2.5775,0.580066541295404,-0.0197641962029624,0.8012145934565574,0.005387394840112521,-0.094738,-33.771154
11.185,2.0,1.0,1.0,34.1,33.4,33.4,2.2,3.5,2.58,0.5727362729381833,-0.02011245790636004,0.8062999223345805,0.0052743197587186465,-0.095961,-33.641852
11.185,2.0,1.0,1.0,34.1,33.4,33.4,2.2,3.5,2.5825,0.5653120021749107,-0.02046637125375175,0.8113492278315575,0.005155364874945698,-0.09721,-33.512009
11.185,2.0,1.0,1.0,34.1,33.4,33.4,2.2,3.5,2.585,0.5577927544146263,-0.020826019504611375,0.8163611886720136,0.005030319575901005,-0.098484,-33.381616
11.185,2.0,1.0,1.0,34.1,33.4,33.4,2.2,3.5,2.5875,0.5501775486882489,-0.021191486300640692,0.8213344439089593,0.004898965524550436,-0.099785,-33.250664
11.185,2.0,1.0,1.0,34.1,33.4,33.4,2.2,3.5,2.59,0.5424653980106733,-0.02156285559049579,0.8262675917324521,0.004761076355860463,-0.101113,-33.119144
11.185,2.0,1.0,1.0,34.1,33.4,33.4,2.2,3.5,2.5925,0.5346553097726153,-0.02194021154746157,0.8311591882433096,0.004616417360193648,-0.102469,-32.987048
11.185,2.0,1.0,1.0,34.1,33.4,33.4,2.2,3.5,2.595,0.5267462861639285,-0.022323638479559697,0.8360077461910322,0.004464745153390399,-0.103853,-32.854366
11.185,2.0,1.0,1.0,34.1,33.4,33.4,2.2,3.5,2.5975,0.5187373246301598,-0.02271322073153969,0.8408117336750139,0.004305807332942022,-0.105267,-32.721089
11.185,2.0,1.0,1.0,34.1,33.4,33.4,2.2,3.5,2.6,0.5106274183642393,-0.02310904257816314,0.8455695728080751,0.004139342119633174,-0.106711,-32.587207
11.185,2.0,1.0,1.0,34.1,33.4,33.4,2.2,3.5,2.6025,0.502415556835299,-0.023511188108149752,0.8502796383413397,0.0039650779840015825,-0.108186,-32.452712
11.185,2.0,1.0,1.0,34.1,33.4,33.4,2.2,3.5,2.605,0.49410072635668484,-0.023919741098108994,0.8549402562494905,0.003782733256931443,-0.109694,-32.317593
11.185,2.0,1.0,1.0,34.1,33.4,33.4,2.2,3.5,2.6075,0.4856819106953805,-0.02433478487573344,0.8595497022753769,0.0035920157236654883,-0.111234,-32.181841
11.185,2.0,1.0,1.0,34.1,33.4,33.4,2.2,3.5,2.61,0.4771580917251511,-0.02475640217147739,0.8641062004329727,0.003392622200485491,-0.112808,-32.045445
11.185,2.0,1.0,1.0,34.1,33.4,33.4,2.2,3.5,2.6125,0.4685282501258402,-0.025184674957889792,0.8686079214676534,0.003184238093274804,-0.114417,-31.908396
11.185,2.0,1.0,1.0,34.1,33.4,33.4,2.2,3.5,2.615,0.45979136613138,-0.02561968427571058,0.8730529812727503,0.0029665369371396615,-0.116062,-31.770683
11.185,2.0,1.0,1.0,34.1,33.4,33.4,2.2,3.5,2.6175,0.4509464203292247,-0.026061510045774998,0.8774394392613214,0.0027391799162247822,-0.117744,-31.632295
11.185,2.0,1.0,1.0,34.1,33.4,33.4,2.2,3.5,2.62,0.44199239451404015,-0.02651023086570213,0.8817652966920807,0.002501815362818507,-0.119464,-31.493223
11.185,2.0,1.0,1.0,34.1,33.4,33.4,2.2,3.5,2.6225,0.432928272598635,-0.026965923790269967,0.8860284949484095,0.002254078234796488,-0.121223,-31.353454
11.185,2.0,1.0,1.0,34.1,33.4,33.4,2.2,3.5,2.625,0.4237530415853,-0.0274286640942978,0.890226913769358,0.00199558957040934,-0.123022,-31.212979
11.185,2.0,1.0,1.0,34.1,33.4,33.4,2.2,3.5,2.6275,0.4144656926008508,-0.0278985250167736,0.8943583694315546,0.001725955919368014,-0.124863,-31.071785
11.185,2.0,1.0,1.0,34.1,33.4,33.4,2.2,3.5,2.63,0.4050652219988733,-0.02837557748486881,0.8984206128809141,0.001444768749131249,-0.126746,-30.929862
11.185,2.0,1.0,1.0,34.1,33.4,33.4,2.2,3.5,2.6325,0.3955506325328462,-0.028859889816384602,0.9024113278130497,0.001151603825244911,-0.128673,-30.787197
11.185,2.0,1.0,1.0,34.1,33.4,33.4,2.2,3.5,2.635,0.38592093460401233,-0.029351527399065876,0.906328128701271,0.0008460205645254667,-0.130646,-30.643779
11.185,2.0,1.0,1.0,34.1,33.4,33.4,2.2,3.5,2.6375,0.37617514758808,-0.029850552345101963,0.9101685587710601,0.0005275613598210566,-0.132665,-30.499596
11.185,2.0,1.0,1.0,34.1,33.4,33.4,2.2,3.5,2.64,0.3663123012450317,-0.0303570231190107,0.9139300879199201,0.00019575087501925385,-0.134733,-30.354636
11.185,2.0,1.0,1.0,34.1,33.4,33.4,2.2,3.5,2.6425,0.35633143721658767,-0.030870994136962725,0.9176101105814791,-0.00014990469109511423,-0.13685,-30.208885
11.185,2.0,1.0,1.0,34.1,33.4,33.4,2.2,3.5,2.645,0.3462316106160773,-0.031392515335460947,0.9212059435327424,-0.0005099183735984273,-0.139018,-30.062332
11.185,2.0,1.0,1.0,34.1,33.4,33.4,2.2,3.5,2.6475,0.3360118917157541,-0.03192163170712869,0.9247148236433971,-0.0008848232443443447,-0.14124,-29.914963
11.185,2.0,1.0,1.0,34.1,33.4,33.4,2.2,3.5,2.65,0.3256713677368315,-0.032458382801191885,0.9281339055660714,-0.0012751732506559742,-0.143515,-29.766765
11.185,2.0,1.0,1.0,34.1,33.4,33.4,2.2,3.5,2.6525,0.3152091447478624,-0.033002802186051526,0.9314602593664587,-0.0016815440914931443,-0.145847,-29.617724
11.185,2.0,1.0,1.0,34.1,33.4,33.4,2.2,3.5,2.655,0.30462434967731733,-0.033554916871146846,0.9346908680922448,-0.002104534132883435,-0.148237,-29.467826
11.185,2.0,1.0,1.0,34.1,33.4,33.4,2.2,3.5,2.6575,0.2939161324466001,-0.034114746685087904,0.9378226252797689,-0.0025447653644931445,-0.150687,-29.317058
11.185,2.0,1.0,1.0,34.1,33.4,33.4,2.2,3.5,2.66,0.28308366823004816,-0.03468230360680337,0.9408523323973902,-0.0030028843993126324,-0.153199,-29.165406
11.185,2.0,1.0,1.0,34.1,33.4,33.4,2.2,3.5,2.6625,0.2721261598488684,-0.03525759104619098,0.9437766962245248,-0.0034795635185299973,-0.155775,-29.012853
11.185,2.0,1.0,1.0,34.1,33.4,33.4,2.2,3.5,2.665,0.261042840306282,-0.03584060307048291,0.9465923261653693,-0.003975501763775087,-0.158417,-28.859386
11.185,2.0,1.0,1.0,34.1,33.4,33.4,2.2,3.5,2.6675,0.24983297547165623,-0.03643132357223245,0.949295731496332,-0.004491426079026176,-0.161127,-28.704989
11.185,2.0,1.0,1.0,34.1,33.4,33.4,2.2,3.5,2.67,0.23849586692176072,-0.03702972537450312,0.9518833185462343,-0.005028092504591154,-0.163908,-28.549646
11.185,2.0,1.0,1.0,34.1,33.4,33.4,2.2,3.5,2.6725,0.22703085494779654,-0.03763576926848183,0.9543513878083695,-0.005586287425699223,-0.166762,-28.393341
11.185,2.0,1.0,1.0,34.1,33.4,33.4,2.2,3.5,2.675,0.21543732173735392,-0.03824940297834696,0.9566961309835554,-0.006166828878369102,-0.169691,-28.236058
11.185,2.0,1.0,1.0,34.1,33.4,33.4,2.2,3.5,2.6775,0.20371469474097084,-0.03887056004779906,0.9589136279533346,-0.006770567915358047,-0.172698,-28.07778
11.185,2.0,1.0,1.0,34.1,33.4,33.4,2.2,3.5,2.68,0.19186245023354628,-0.039499158642196996,0.9609998436825496,-0.00739839003514135,-0.175786,-27.918491
11.185,2.0,1.0,1.0,34.1,33.4,33.4,2.2,3.5,2.6825,0.17988011708149707,-0.04013510025973464,0.9629506250505426,-0.00805121667702173,-0.178958,-27.758171
11.185,2.0,1.0,1.0,34.1,33.4,33.4,2.2,3.5,2.685,0.16776728072717853,-0.04077826834454178,0.9647616976102964,-0.00873000678563038,-0.182217,-27.596804
11.185,2.0,1.0,1.0,34.1,33.4,33.4,2.2,3.5,2.6875,0.15552358740282665,-0.04142852679398455,0.9664286622748846,-0.009435758448246076,-0.185565,-27.434371
11.185,2.0,1.0,1.0,34.1,33.4,33.4,2.2,3.5,2.69,0.14314874858704432,-0.04208571835177778,0.9679469919306614,-0.010169510608534483,-0.189007,-27.270852
11.185,2.0,1.0,1.0,34.1,33.4,33.4,2.2,3.5,2.6925,0.13064254571765196,-0.042749662877795726,0.9693120279766934,-0.010932344860493616,-0.192545,-27.106229
11.185,2.0,1.0,1.0,34.1,33.4,33.4,2.2,3.5,2.695,0.11800483517567668,-0.04342015548466547,0.9705189767899902,-0.011725387326578574,-0.196183,-26.940482
11.185,2.0,1.0,1.0,34.1,33.4,33.4,2.2,3.5,2.6975,0.10523555355614042,-0.04409696453035664,0.9715629061162031,-0.01254981062418167,-0.199925,-26.77359
11.185,2.0,1.0,1.0,34.1,33.4,33.4,2.2,3.5,2.7,0.09233472324244145,-0.04477982945501066,0.9724387413855025,-0.013406835924844162,-0.203775,-26.605533
11.185,2.0,1.0,1.0,34.1,33.4,33.4,2.2,3.5,2.7025,0.07930245830218714,-0.04546845844919868,0.9731412619534754,-0.014297735110792431,-0.207737,-26.436288
11.185,2.0,1.0,1.0,34.1,33.4,33.4,2.2,3.5,2.705,0.06613897072363299,-0.046162525939623625,0.9736650972669618,-0.015223833033606759,-0.211815,-26.265834
11.185,2.0,1.0,1.0,34.1,33.4,33.4,2.2,3.5,2.7075,0.05284457701319045,-0.04686166987699853,0.974004722954871,-0.016186509880056363,-0.216014,-26.094147
11.185,2.0,1.0,1.0,34.1,33.4,33.4,2.2,3.5,2.71,0.03941970517597716,-0.0475654888094074,0.9741544568441255,-0.017187203650359854,-0.220338,-25.921206
11.185,2.0,1.0,1.0,34.1,33.4,33.4,2.2,3.5,2.7125,0.025864902102957655,-0.048273538722887,0.9741084549010328,-0.018227412754361662,-0.224793,-25.746985
11.185,2.0,1.0,1.0,34.1,33.4,33.4,2.2,3.5,2.715,0.012180841390028249,-0.048985329629228046,0.9738607070985239,-0.01930869873134141,-0.229384,-25.571459
11.185,2.0,1.0,1.0,34.1,33.4,33.4,2.2,3.5,2.7175,-0.0016316683836902373,-0.049700321879070634,0.9734050332098534,-0.02043268909940107,-0.234116,-25.394604
11.185,2.0,1.0,1.0,34.1,33.4,33.4,2.2,3.5,2.72,-0.015571674888908723,-0.050417922176234635,0.9727350785295691,-0.02160108034059024,-0.238996,-25.216394
11.185,2.0,1.0,1.0,34.1,33.4,33.4,2.2,3.5,2.7225,-0.029638072758848496,-0.05113747926685989,0.9718443095227481,-0.022815641028140276,-0.244029,-25.0368
11.185,2.0,1.0,1.0,34.1,33.4,33.4,2.2,3.5,2.725,-0.04382959374710879,-0.05185827927429732,0.9707260094037561,-0.024078215102360287,-0.249222,-24.855796
11.185,2.0,1.0,1.0,34.1,33.4,33.4,2.2,3.5,2.7275,-0.05814479629353154,-0.05257954064777087,0.9693732736460611,-0.02539072530191837,-0.254582,-24.673352
11.185,2.0,1.0,1.0,34.1,33.4,33.4,2.2,3.5,2.73,-0.07258205445756169,-0.053300408689568084,0.9677790054249747,-0.026755176757350774,-0.260116,-24.489438
11.185,2.0,1.0,1.0,34.1,33.4,33.4,2.2,3.5,2.7325,-0.08713954617515228,-0.05401994962188979,0.9659359109955612,-0.028173660753730213,-0.265833,-24.304025
11.185,2.0,1.0,1.0,34.1,33.4,33.4,2.2,3.5,2.735,-0.10181524079124991,-0.054737144150433924,0.963836495008433,-0.029648358669439347,-0.271739,-24.117081
11.185,2.0,1.0,1.0,34.1,33.4,33.4,2.2,3.5,2.7375,-0.11660688581554604,-0.055450880477264715,0.9614730557666796,-0.031181546097941708,-0.277844,-23.928572
11.185,2.0,1.0,1.0,34.1,33.4,33.4,2.2,3.5,2.74,-0.13151199284423024,-0.05615994671045228,0.9588376804278369,-0.03277559715927964,-0.284157,-23.738466
11.185,2.0,1.0,1.0,34.1,33.4,33.4,2.2,3.5,2.7425,-0.1465278225850374,-0.05686302261230196,0.9559222401555697,-0.03443298900774966,-0.290687,-23.546726
11.185,2.0,1.0,1.0,34.1,33.4,33.4,2.2,3.5,2.745,-0.16165136891668797,-0.057558670621636894,0.9527183852267085,-0.03615630654175682,-0.297445,-23.353318
11.185,2.0,1.0,1.0,34.1,33.4,33.4,2.2,3.5,2.7475,-0.17687934190694674,-0.05824532607846858,0.949217540100383,-0.03794824732121035,-0.304442,-23.158203
11.185,2.0,1.0,1.0,34.1,33.4,33.4,2.2,3.5,2.75,-0.192208149705788,-0.0589212865713831,0.945410898457412,-0.0398116266969318,-0.311689,-22.961342
11.185,2.0,1.0,1.0,34.1,33.4,33.4,2.2,3.5,2.7525,-0.2076338792213938,-0.059584700318963464,0.9412894182197755,-0.041749383155350366,-0.3192,-22.762696
11.185,2.0,1.0,1.0,34.1,33.4,33.4,2.2,3.5,2.755,-0.22315227547692504,-0.060233553486435214,0.9368438165620504,-0.04376458388018191,-0.326986,-22.562222
11.185,2.0,1.0,1.0,34.1,33.4,33.4,2.2,3.5,2.7575,-0.23875871953494268,-0.0608656563273008,0.9320645649291851,-0.04586043053074933,-0.335062,-22.359878
11.185,2.0,1.0,1.0,34.1,33.4,33.4,2.2,3.5,2.76,-0.25444820486376346,-0.06147862802684687,0.9269418840780761,-0.04804026523397121,-0.343444,-22.155618
11.185,2.0,1.0,1.0,34.1,33.4,33.4,2.2,3.5,2.7625,-0.2702153120059794,-0.0620698801098687,0.9214657391641193,-0.05030757678372489,-0.352147,-21.949396
11.185,2.0,1.0,1.0,34.1,33.4,33.4,2.2,3.5,2.765,-0.28605418139327776,-0.0626365982585235,0.9156258348985372,-0.052666007037081214,-0.361189,-21.741163
11.185,2.0,1.0,1.0,34.1,33.4,33.4,2.2,3.5,2.7675,-0.3019584841335733,-0.06317572236764178,0.9094116108078629,-0.055119357491639244,-0.370587,-21.53087
11.185,2.0,1.0,1.0,34.1,33.4,33.4,2.2,3.5,2.77,-0.3179213905758736,-0.06368392464379348,0.9028122366338877,-0.05767159602161036,-0.380363,-21.318462
11.185,2.0,1.0,1.0,34.1,33.4,33.4,2.2,3.5,2.7725,-0.33393553643492063,-0.06415758553057983,0.8958166079207889,-0.06032686374210565,-0.390536,-21.103887
11.185,2.0,1.0,1.0,34.1,33.4,33.4,2.2,3.5,2.775,-0.3499929862310927,-0.0645927672156144,0.8884133418465502,-0.0630894819609249,-0.401131,-20.887087
11.185,2.0,1.0,1.0,34.1,33.4,33.4,2.2,3.5,2.7775,-0.3660851937708653,-0.06498518444402855,0.8805907733684788,-0.06596395916456682,-0.412171,-20.668004
11.185,2.0,1.0,1.0,34.1,33.4,33.4,2.2,3.5,2.78,-0.3822029593588084,-0.06533017232857412,0.8723369517681995,-0.0689549979696495,-0.423684,-20.446576
11.185,2.0,1.0,1.0,34.1,33.4,33.4,2.2,3.5,2.7825,-0.3983363833929923,-0.06562265080693581,0.8636396377007179,-0.07206750195175501,-0.435697,-20.222738
11.185,2.0,1.0,1.0,34.1,33.4,33.4,2.2,3.5,2.785,-0.4144748159512775,-0.06585708535205391,0.8544863008755513,-0.07530658224011319,-0.448242,-19.996424
11.185,2.0,1.0,1.0,34.1,33.4,33.4,2.2,3.5,2.7875,-0.4306068019252707,-0.06602744349036374,0.8448641185269149,-0.07867756373744153,-0.461352,-19.767565
11.185,2.0,1.0,1.0,34.1,33.4,33.4,2.2,3.5,2.79,-0.44672002120120663,-0.06612714662506305,0.8347599748652735,-0.08218599078849691,-0.475064,-19.536088
11.185,2.0,1.0,1.0,34.1,33.4,33.4,2.2,3.5,2.7925,-0.4628012233214012,-0.0661490165958976,0.8241604617463287,-0.08583763207685549,-0.489417,-19.301917
11.185,2.0,1.0,1.0,34.1,33.4,33.4,2.2,3.5,2.795,-0.47883615598549395,-0.06608521633249921,0.8130518808469129,-0.08963848447531933,-0.504454,-19.064973
11.185,2.0,1.0,1.0,34.1,33.4,33.4,2.2,3.5,2.7975,-0.49480948666589736,-0.06592718387389201,0.8014202477033702,-0.09359477550872217,-0.520221,-18.825174
11.185,2.0,1.0,1.0,34.1,33.4,33.4,2.2,3.5,2.8,-0.5107047165159874,-0.06566555893119712,0.7892512980489694,-0.09771296400600948,-0.53677,-18.582434
11.185,2.0,1.0,1.0,34.1,33.4,33.4,2.2,3.5,2.8025,-0.5265040856406146,-0.06529010106251582,0.7765304969868769,-0.10199973841762942,-0.554156,-18.336663
11.185,2.0,1.0,1.0,34.1,33.4,33.4,2.2,3.5,2.805,-0.5421884686756747,-0.06478959840711565,0.7632430516582327,-0.10646201215016898,-0.57244,-18.087768
11.185,2.0,1.0,1.0,34.1,33.4,33.4,2.2,3.5,2.8075,-0.5577372594849563,-0.0641517657890421,0.7493739282165736,-0.11110691511731989,-0.591688,-17.83565
11.185,2.0,1.0,1.0,34.1,33.4,33.4,2.2,3.5,2.81,-0.5731282436271099,-0.06336313084685118,0.734907874106909,-0.11594178051791748,-0.611974,-17.580209
11.185,2.0,1.0,1.0,34.1,33.4,33.4,2.2,3.5,2.8125,-0.5883374570720865,-0.06240890667525098,0.719829446878724,-0.12097412561957334,-0.633378,-17.321337
11.185,2.0,1.0,1.0,34.1,33.4,33.4,2.2,3.5,2.815,-0.6033390294541522,-0.06127284927533925,0.704123051047198,-0.12621162503999125,-0.655989,-17.058925
11.185,2.0,1.0,1.0,34.1,33.4,33.4,2.2,3.5,2.8175,-0.6181050099371601,-0.05993709790279705,0.6877729848693405,-0.13166207466448582,-0.679905,-16.792856
11.185,2.0,1.0,1.0,34.1,33.4,33.4,2.2,3.5,2.82,-0.6326051735382646,-0.058381996178821095,0.6707634993371175,-0.13733334390162139,-0.705234,-16.523011
11.185,2.0,1.0,1.0,34.1,33.4,33.4,2.2,3.5,2.8225,-0.6468068055109437,-0.05658589158933116,0.6530788722283101,-0.1432333134394805,-0.732096,-16.249266
11.185,2.0,1.0,1.0,34.1,33.4,33.4,2.2,3.5,2.825,-0.6606744611319298,-0.05452491074904705,0.6347035007219852,-0.14936979499843606,-0.760625,-15.97149
11.185,2.0,1.0,1.0,34.1,33.4,33.4,2.2,3.5,2.8275,-0.6741696979777788,-0.05217270755688834,0.6156220169097776,-0.15575042875229725,-0.790969,-15.68955
