1,w,sub_t,h,l1,l2,l3,g1,g2,Freq,S11_re,S21_re,S11_img,S21_img,S11_dB,S21_dB
11.185,2.0,1.0,1.0,33.8,33.6,33.6,2.6,2.7,2.5,0.812676268356414,-0.0108294946447167,0.569794829686254,0.00823478971863318,-0.065158,-37.326177
11.185,2.0,1.0,1.0,33.8,33.6,33.6,2.6,2.7,2.5025,0.8084774284877037,-0.011047032430331756,0.5756029950511926,0.008261891575131923,-0.065838,-37.205708
11.185,2.0,1.0,1.0,33.8,33.6,33.6,2.6,2.7,2.505,0.8042156881008956,-0.011268566172499035,0.5814075486218228,0.008287626357015456,-0.06653,-37.084861
11.185,2.0,1.0,1.0,33.8,33.6,33.6,2.6,2.7,2.5075,0.7998903693751523,-0.011494175243230804,0.5872080936764016,0.008311933032962869,-0.067234,-36.963628
11.185,2.0,1.0,1.0,33.8,33.6,33.6,2.6,2.7,2.51,0.795500784260621,-0.011723940875029018,0.5930042209633785,0.008334748246768794,-0.067951,-36.842
11.185,2.0,1.0,1.0,33.8,33.6,33.6,2.6,2.7,2.5125,0.7910462343438247,-0.011957946209787839,0.5987955082950123,0.008356006221388466,-0.06868,-36.719971
11.185,2.0,1.0,1.0,33.8,33.6,33.6,2.6,2.7,2.515,0.7865260107129811,-0.012196276349009971,0.6045815201274082,0.00837563865862196,-0.069422,-36.597533
11.185,2.0,1.0,1.0,33.8,33.6,33.6,2.6,2.7,2.5175,0.7819393938233853,-0.012439018405367543,0.610361807126467,0.008393574634217676,-0.070178,-36.474677
11.185,2.0,1.0,1.0,33.8,33.6,33.6,2.6,2.7,2.52,0.777285653362976,-0.012686261555638555,0.6161359057192557,0.008409740488165092,-0.070948,-36.351396
11.185,2.0,1.0,1.0,33.8,33.6,33.6,2.6,2.7,2.5225,0.772564048118253,-0.012938097095049346,0.6219033376302497,0.008424059709932125,-0.071731,-36.227682
11.185,2.0,1.0,1.0,33.8,33.6,33.6,2.6,2.7,2.525,0.7677738258406824,-0.013194618493054979,0.6276636094019138,0.008436452818389653,-0.072529,-36.103526
11.185,2.0,1.0,1.0,33.8,33.6,33.6,2.6,2.7,2.5275,0.7629142231137624,-0.013455921450587908,0.6334162118990444,0.008446837236151122,-0.073342,-35.978919
11.185,2.0,1.0,1.0,33.8,33.6,33.6,2.6,2.7,2.53,0.7579844652209324,-0.013722103958805517,0.6391606197962691,0.008455127158039028,-0.07417,-35.853854
11.185,2.0,1.0,1.0,33.8,33.6,33.6,2.6,2.7,2.5325,0.752983766014514,-0.013993266359366765,0.6448962910480927,0.008461233413373985,-0.075014,-35.728321
11.185,2.0,1.0,1.0,33.8,33.6,33.6,2.6,2.7,2.535,0.7479113277858818,-0.014269511406268533,0.6506226663408402,0.008465063321764957,-0.075873,-35.602313
11.185,2.0,1.0,1.0,33.8,33.6,33.6,2.6,2.7,2.5375,0.7427663411370947,-0.01455094432926921,0.6563391685258203,0.00846652054205916,-0.07675,-35.475818
11.185,2.0,1.0,1.0,33.8,33.6,33.6,2.6,2.7,2.54,0.73754798485421,-0.014837672898929247,0.6620452020330126,0.008465504914092242,-0.077643,-35.34883
11.185,2.0,1.0,1.0,33.8,33.6,33.6,2.6,2.7,2.5425,0.7322554257825311,-0.015129807493295533,0.6677401522645477,0.008461912292855964,-0.078554,-35.221338
11.185,2.0,1.0,1.0,33.8,33.6,33.6,2.6,2.7,2.545,0.7268878187040568,-0.015427461166254805,0.6734233849672158,0.008455634374679912,-0.079482,-35.093333
11.185,2.0,1.0,1.0,33.8,33.6,33.6,2.6,2.7,2.5475,0.721444306217416,-0.015730749717581614,0.6790942455832049,0.008446558514998325,-0.080429,-34.964805
11.185,2.0,1.0,1.0,33.8,33.6,33.6,2.6,2.7,2.55,0.7159240186205807,-0.016039791764703316,0.6847520585782615,0.00843456753724826,-0.081395,-34.835746
11.185,2.0,1.0,1.0,33.8,33.6,33.6,2.6,2.7,2.5525,0.7103260737966944,-0.016354708816201713,0.6903961267463693,0.008419539532417756,-0.082381,-34.706144
11.185,2.0,1.0,1.0,33.8,33.6,33.6,2.6,2.7,2.555,0.7046495771033434,-0.01667562534707089,0.6960257304900832,0.008401347648732845,-0.083386,-34.57599
11.185,2.0,1.0,1.0,33.8,33.6,33.6,2.6,2.7,2.5575,0.6988936212656419,-0.017002668875745724,0.7016401270755568,0.008379859870941978,-0.084412,-34.445273
11.185,2.0,1.0,1.0,33.8,33.6,33.6,2.6,2.7,2.56,0.6930572862735238,-0.0173359700429134,0.7072385498612737,0.008354938788622064,-0.085459,-34.313984
11.185,2.0,1.0,1.0,33.8,33.6,33.6,2.6,2.7,2.5625,0.6871396392836499,-0.017675662692115807,0.7128202074994651,0.008326441352895989,-0.086527,-34.182111
11.185,2.0,1.0,1.0,33.8,33.6,33.6,2.6,2.7,2.565,0.6811397345263699,-0.018021883952147846,0.7183842831091334,0.008294218620911462,-0.087618,-34.049644
11.185,2.0,1.0,1.0,33.8,33.6,33.6,2.6,2.7,2.5675,0.6750566132182191,-0.018374774321249468,0.7239299334195489,0.008258115487392033,-0.088732,-33.916571
11.185,2.0,1.0,1.0,33.8,33.6,33.6,2.6,2.7,2.57,0.6688893034804373,-0.018734477753085985,0.7294562878830533,0.008217970402526722,-0.08987,-33.782883
11.185,2.0,1.0,1.0,33.8,33.6,33.6,2.6,2.7,2.5725,0.6626368202640495,-0.01910114174450364,0.7349624477559259,0.008173615075417617,-0.091032,-33.648566
11.185,2.0,1.0,1.0,33.8,33.6,33.6,2.6,2.7,2.575,0.6562981652820679,-0.019474917425040605,0.7404474851460303,0.008124874162255019,-0.092219,-33.51361
11.185,2.0,1.0,1.0,33.8,33.6,33.6,2.6,2.7,2.5775,0.6498723269494293,-0.01985595964816538,0.7459104420258788,0.008071564938336691,-0.093431,-33.378002
11.185,2.0,1.0,1.0,33.8,33.6,33.6,2.6,2.7,2.58,0.6433582803313007,-0.02024442708420567,0.7513503292096961,0.008013496952988483,-0.09467,-33.241731
11.185,2.0,1.0,1.0,33.8,33.6,33.6,2.6,2.7,2.5825,0.6367549871004353,-0.020640482314920557,0.7567661252930026,0.007950471666383794,-0.095937,-33.104785
11.185,2.0,1.0,1.0,33.8,33.6,33.6,2.6,2.7,2.585,0.6300613955043161,-0.021044291929657014,0.7621567755531382,0.007882282067191477,-0.097232,-32.96715
11.185,2.0,1.0,1.0,33.8,33.6,33.6,2.6,2.7,2.5875,0.6232764403428471,-0.021456026623019438,0.7675211908090982,0.0078087122699110195,-0.098556,-32.828814
11.185,2.0,1.0,1.0,33.8,33.6,33.6,2.6,2.7,2.59,0.6163990429574342,-0.02187586129396527,0.7728582462389472,0.007729537090678036,-0.099909,-32.689764
11.185,2.0,1.0,1.0,33.8,33.6,33.6,2.6,2.7,2.5925,0.6094281112323128,-0.022303975146224914,0.7781667801530033,0.007644521600238649,-0.101294,-32.549986
11.185,2.0,1.0,1.0,33.8,33.6,33.6,2.6,2.7,2.595,0.6023625396090858,-0.02274055178992378,0.7834455927208701,0.007553420652705869,-0.10271,-32.409468
11.185,2.0,1.0,1.0,33.8,33.6,33.6,2.6,2.7,2.5975,0.5952012091154405,-0.023185779344266508,0.7886934446503234,0.00745597838861212,-0.104159,-32.268194
11.185,2.0,1.0,1.0,33.8,33.6,33.6,2.6,2.7,2.6,0.587942987409123,-0.023639850541117544,0.7939090558159213,0.007351927710672615,-0.105642,-32.126151
11.185,2.0,1.0,1.0,33.8,33.6,33.6,2.6,2.7,2.6025,0.5805867288383073,-0.02410296282928847,0.7990911038351044,0.007240989730560733,-0.107159,-31.983324
11.185,2.0,1.0,1.0,33.8,33.6,33.6,2.6,2.7,2.605,0.5731312745195523,-0.024575318479312654,0.8042382225894369,0.007122873184879508,-0.108713,-31.839699
11.185,2.0,1.0,1.0,33.8,33.6,33.6,2.6,2.7,2.6075,0.5655754524346484,-0.025057124688455806,0.8093490006884927,0.006997273818382727,-0.110304,-31.69526
11.185,2.0,1.0,1.0,33.8,33.6,33.6,2.6,2.7,2.61,0.55791807754773,-0.02554859368567433,0.8144219798737495,0.006863873732360816,-0.111933,-31.549991
11.185,2.0,1.0,1.0,33.8,33.6,33.6,2.6,2.7,2.6125,0.5501579519441195,-0.026049942836193534,0.819455653359725,0.0067223406959566485,-0.113602,-31.403878
11.185,2.0,1.0,1.0,33.8,33.6,33.6,2.6,2.7,2.615,0.5422938649924701,-0.026561394745332145,0.8244484641093932,0.006572327418012733,-0.115312,-31.256903
11.185,2.0,1.0,1.0,33.8,33.6,33.6,2.6,2.7,2.6175,0.5343245935318965,-0.027083177361147678,0.8293988030407712,0.006413470776877474,-0.117064,-31.109051
11.185,2.0,1.0,1.0,33.8,33.6,33.6,2.6,2.7,2.62,0.5262489020858869,-0.027615524075422254,0.8343050071613568,0.006245391005405547,-0.118859,-30.960303
11.185,2.0,1.0,1.0,33.8,33.6,33.6,2.6,2.7,2.6225,0.5180655431049054,-0.028158673822442894,0.8391653576269172,0.00606769082818394,-0.1207,-30.810644
11.185,2.0,1.0,1.0,33.8,33.6,33.6,2.6,2.7,2.625,0.509773257239773,-0.0287128711749594,0.843978077720883,0.00587995454778999,-0.122588,-30.660054
11.185,2.0,1.0,1.0,33.8,33.6,33.6,2.6,2.7,2.6275,0.5013707736479995,-0.029278366436623533,0.848741330750397,0.005681747076646368,-0.124524,-30.508516
11.185,2.0,1.0,1.0,33.8,33.6,33.6,2.6,2.7,2.63,0.492856810335463,-0.029855415730122684,0.8534532178547762,0.005472612910775854,-0.12651,-30.356011
11.185,2.0,1.0,1.0,33.8,33.6,33.6,2.6,2.7,2.6325,0.48423007453595973,-0.030444281080120438,0.8581117757219136,0.005252075041472215,-0.128548,-30.20252
11.185,2.0,1.0,1.0,33.8,33.6,33.6,2.6,2.7,2.635,0.4754892631313671,-0.031045230490004114,0.8627149742077936,0.005019633800594449,-0.130639,-30.048024
11.185,2.0,1.0,1.0,33.8,33.6,33.6,2.6,2.7,2.6375,0.46663306311536085,-0.03165853801131138,0.8672607138540221,0.004774765634854361,-0.132786,-29.892501
11.185,2.0,1.0,1.0,33.8,33.6,33.6,2.6,2.7,2.64,0.4576601521038303,-0.03228448380456791,0.8717468232978925,0.004516921804100406,-0.134991,-29.735932
11.185,2.0,1.0,1.0,33.8,33.6,33.6,2.6,2.7,2.6425,0.4485691988954257,-0.03292335419010505,0.8761710565691334,0.004245526998201282,-0.137255,-29.578295
11.185,2.0,1.0,1.0,33.8,33.6,33.6,2.6,2.7,2.645,0.4393588640858998,-0.03357544168724914,0.8805310902670646,0.003959977866698335,-0.139581,-29.419569
11.185,2.0,1.0,1.0,33.8,33.6,33.6,2.6,2.7,2.6475,0.4300278007402288,-0.03424104504006966,0.8848245206114542,0.0036596414549204636,-0.141972,-29.259731
11.185,2.0,1.0,1.0,33.8,33.6,33.6,2.6,2.7,2.65,0.420574655126793,-0.034920469227648444,0.889048860359855,0.0033438535397376655,-0.144429,-29.098758
11.185,2.0,1.0,1.0,33.8,33.6,33.6,2.6,2.7,2.6525,0.4109980675183036,-0.035614025456571455,0.8932015355836675,0.003011916857564455,-0.146955,-28.936627
11.185,2.0,1.0,1.0,33.8,33.6,33.6,2.6,2.7,2.655,0.40129667306448585,-0.036322031133059984,0.8972798822946201,0.002663099216605945,-0.149553,-28.773314
11.185,2.0,1.0,1.0,33.8,33.6,33.6,2.6,2.7,2.6575,0.39146910274203,-0.037044809811828804,0.9012811429126593,0.0022966314846639803,-0.152226,-28.608792
11.185,2.0,1.0,1.0,33.8,33.6,33.6,2.6,2.7,2.66,0.381513984387752,-0.03778269111839183,0.9052024625656059,0.0019117054430817936,-0.154977,-28.443038
11.185,2.0,1.0,1.0,33.8,33.6,33.6,2.6,2.7,2.6625,0.37142994382147193,-0.038536010641119375,0.9090408852101279,0.001507471496595331,-0.157808,-28.276024
11.185,2.0,1.0,1.0,33.8,33.6,33.6,2.6,2.7,2.665,0.3612156060656744,-0.03930510978888192,0.9127933495627403,0.0010830362279724375,-0.160724,-28.107724
11.185,2.0,1.0,1.0,33.8,33.6,33.6,2.6,2.7,2.6675,0.3508695966697094,-0.04009033560958113,0.9164566848286577,0.0006374597853486865,-0.163727,-27.938108
11.185,2.0,1.0,1.0,33.8,33.6,33.6,2.6,2.7,2.67,0.3403905431469907,-0.040892040564267915,0.9200276062152593,0.00016975308909848458,-0.166821,-27.76715
11.185,2.0,1.0,1.0,33.8,33.6,33.6,2.6,2.7,2.6725,0.3297770765344689,-0.04171058225086351,0.9235027102158735,-0.00032112515608981367,-0.170009,-27.594818
11.185,2.0,1.0,1.0,33.8,33.6,33.6,2.6,2.7,2.675,0.31902783308460064,-0.04254632307072311,0.9268784696483109,-0.0008362716595586406,-0.173297,-27.421082
11.185,2.0,1.0,1.0,33.8,33.6,33.6,2.6,2.7,2.6775,0.30814145610101046,-0.04339962983040212,0.9301512284312727,-0.0013768419704843912,-0.176688,-27.245911
11.185,2.0,1.0,1.0,33.8,33.6,33.6,2.6,2.7,2.68,0.29711659793021783,-0.04427087326998375,0.9333171960802593,-0.0019440541497424317,-0.180187,-27.069272
11.185,2.0,1.0,1.0,33.8,33.6,33.6,2.6,2.7,2.6825,0.2859519221231023,-0.04516042750818557,0.9363724419029545,-0.0025391927081516996,-0.183799,-26.891131
11.185,2.0,1.0,1.0,33.8,33.6,33.6,2.6,2.7,2.685,0.274646105781193,-0.04606866939316656,0.9393128888722951,-0.0031636128333166445,-0.187527,-26.711454
11.185,2.0,1.0,1.0,33.8,33.6,33.6,2.6,2.7,2.6875,0.2631978421045535,-0.04699597774647352,0.9421343071533982,-0.003818744929371013,-0.191379,-26.530205
11.185,2.0,1.0,1.0,33.8,33.6,33.6,2.6,2.7,2.69,0.2516058431598792,-0.04794273248587467,0.9448323072583452,-0.004506099496235435,-0.195359,-26.347347
11.185,2.0,1.0,1.0,33.8,33.6,33.6,2.6,2.7,2.6925,0.23986884288949606,-0.04890931361089771,0.9474023328003713,-0.005227272377550644,-0.199474,-26.162842
11.185,2.0,1.0,1.0,33.8,33.6,33.6,2.6,2.7,2.695,0.22798560038440618,-0.0498961000326734,0.949839652816308,-0.005983950409260178,-0.20373,-25.976649
11.185,2.0,1.0,1.0,33.8,33.6,33.6,2.6,2.7,2.6975,0.21595490344716933,-0.050903468227155045,0.9521393536231445,-0.006777917503934408,-0.208133,-25.788729
11.185,2.0,1.0,1.0,33.8,33.6,33.6,2.6,2.7,2.7,0.2037755724735747,-0.051931790687872376,0.9542963301712584,-0.007611061209367319,-0.212691,-25.599038
11.185,2.0,1.0,1.0,33.8,33.6,33.6,2.6,2.7,2.7025,0.1914464646855257,-0.05298143415104046,0.9563052768532055,-0.008485379783795908,-0.217412,-25.407532
11.185,2.0,1.0,1.0,33.8,33.6,33.6,2.6,2.7,2.705,0.17896647875169985,-0.05405275756199904,0.9581606777228352,-0.009402989834310342,-0.222303,-25.214166
11.185,2.0,1.0,1.0,33.8,33.6,33.6,2.6,2.7,2.7075,0.16633455983706813,-0.05514610974753493,0.9598567960750592,-0.010366134569706456,-0.227373,-25.018894
11.185,2.0,1.0,1.0,33.8,33.6,33.6,2.6,2.7,2.71,0.15354970512779945,-0.056261826753533,0.9613876633314808,-0.011377192724214759,-0.232632,-24.821665
11.185,2.0,1.0,1.0,33.8,33.6,33.6,2.6,2.7,2.7125,0.1406109698840952,-0.05740022880151017,0.9627470671716137,-0.012438688214292887,-0.23809,-24.622429
11.185,2.0,1.0,1.0,33.8,33.6,33.6,2.6,2.7,2.715,0.12751747408064318,-0.05856161681076754,0.9639285388431241,-0.013553300597043055,-0.243757,-24.421134
11.185,2.0,1.0,1.0,33.8,33.6,33.6,2.6,2.7,2.7175,0.11426840970244716,-0.05974626842500227,0.9649253395777471,-0.01472387640588908,-0.249644,-24.217725
11.185,2.0,1.0,1.0,33.8,33.6,33.6,2.6,2.7,2.72,0.1008630487732903,-0.06095443347306164,0.9657304460317993,-0.015953441446986374,-0.255764,-24.012144
11.185,2.0,1.0,1.0,33.8,33.6,33.6,2.6,2.7,2.7225,0.08730075220491854,-0.062186328782889606,0.9663365346617728,-0.017245214148541712,-0.26213,-23.804333
11.185,2.0,1.0,1.0,33.8,33.6,33.6,2.6,2.7,2.725,0.07358097956778695,-0.06344213225533384,0.9667359649360611,-0.018602620064848488,-0.268756,-23.59423
11.185,2.0,1.0,1.0,33.8,33.6,33.6,2.6,2.7,2.7275,0.059703299898857407,-0.06472197609007208,0.9669207612733937,-0.02002930764753291,-0.275656,-23.381772
11.185,2.0,1.0,1.0,33.8,33.6,33.6,2.6,2.7,2.73,0.04566740367918689,-0.06602593903908047,0.9668825935869934,-0.021529165408320453,-0.282848,-23.166891
11.185,2.0,1.0,1.0,33.8,33.6,33.6,2.6,2.7,2.7325,0.03147311613397418,-0.06735403754340608,0.9666127563006262,-0.023106340610711422,-0.290348,-22.949518
11.185,2.0,1.0,1.0,33.8,33.6,33.6,2.6,2.7,2.735,0.0171204120312778,-0.06870621558597059,0.966102145688514,-0.024765259642388175,-0.298175,-22.729582
11.185,2.0,1.0,1.0,33.8,33.6,33.6,2.6,2.7,2.7375,0.0026094321829157963,-0.0700823330661312,0.9653412353754673,-0.026510650236093402,-0.306351,-22.507007
11.185,2.0,1.0,1.0,33.8,33.6,33.6,2.6,2.7,2.74,-0.012059498116635205,-0.07148215246999563,0.9643200498163159,-0.028347565724215363,-0.314897,-22.281714
11.185,2.0,1.0,1.0,33.8,33.6,33.6,2.6,2.7,2.7425,-0.02688584843975662,-0.07290532357315992,0.963028135554871,-0.030281411531507027,-0.323837,-22.053621
11.185,2.0,1.0,1.0,33.8,33.6,33.6,2.6,2.7,2.745,-0.04186886004539243,-0.07435136586853197,0.9614545300419367,-0.03231797413131221,-0.333197,-21.822643
11.185,2.0,1.0,1.0,33.8,33.6,33.6,2.6,2.7,2.7475,-0.0570075197981495,-0.07581964835994437,0.9595877277694868,-0.034463452713444725,-0.343006,-21.588691
11.185,2.0,1.0,1.0,33.8,33.6,33.6,2.6,2.7,2.75,-0.0723005307538065,-0.0773093663008013,0.957415643453851,-0.0367244938364479,-0.353293,-21.351671
11.185,2.0,1.0,1.0,33.8,33.6,33.6,2.6,2.7,2.7525,-0.08774627890455042,-0.0788195143841777,0.9549255719747721,-0.03910822936328895,-0.364094,-21.111485
11.185,2.0,1.0,1.0,33.8,33.6,33.6,2.6,2.7,2.755,-0.1033427954899238,-0.08034885580434377,0.9521041447497526,-0.04162231800741834,-0.375445,-20.868033
11.185,2.0,1.0,1.0,33.8,33.6,33.6,2.6,2.7,2.7575,-0.11908771417555707,-0.08189588650690555,0.9489372821943763,-0.04427499084523516,-0.387385,-20.621206
11.185,2.0,1.0,1.0,33.8,33.6,33.6,2.6,2.7,2.76,-0.13497822227804834,-0.08345879382230893,0.9454101418901019,-0.04707510118073575,-0.399959,-20.370894
11.185,2.0,1.0,1.0,33.8,33.6,33.6,2.6,2.7,2.7625,-0.15101100506682238,-0.08503540853137702,0.9415070620519553,-0.05003217917767309,-0.413215,-20.11698
11.185,2.0,1.0,1.0,33.8,33.6,33.6,2.6,2.7,2.765,-0.1671821819975393,-0.08662314923694944,0.9372114998613176,-0.053156491702551156,-0.427207,-19.85934
11.185,2.0,1.0,1.0,33.8,33.6,33.6,2.6,2.7,2.7675,-0.18348723352044272,-0.088218957706681,0.9325059642050574,-0.05645910784636371,-0.441993,-19.597848
11.185,2.0,1.0,1.0,33.8,33.6,33.6,2.6,2.7,2.77,-0.19992091685434699,-0.08981922360146487,0.9273719423449478,-0.05995197061140739,-0.457637,-19.33237
11.185,2.0,1.0,1.0,33.8,33.6,33.6,2.6,2.7,2.7725,-0.216477168813025,-0.09141969670304465,0.9217898200339631,-0.06364797525788962,-0.474212,-19.062763
11.185,2.0,1.0,1.0,33.8,33.6,33.6,2.6,2.7,2.775,-0.23314899340592798,-0.09301538439261155,0.9157387946046895,-0.06756105479800767,-0.491797,-18.788882
11.185,2.0,1.0,1.0,33.8,33.6,33.6,2.6,2.7,2.7775,-0.24992833149561822,-0.09460043169669663,0.9091967805869317,-0.07170627309513633,-0.510479,-18.510572
11.185,2.0,1.0,1.0,33.8,33.6,33.6,2.6,2.7,2.78,-0.26680590926515585,-0.09616798069193778,0.902140307477586,-0.0760999259622879,-0.530359,-18.227672
11.185,2.0,1.0,1.0,33.8,33.6,33.6,2.6,2.7,2.7825,-0.2837710616103485,-0.09771000542755813,0.8945444094003344,-0.08075965054264993,-0.551544,-17.940012
11.185,2.0,1.0,1.0,33.8,33.6,33.6,2.6,2.7,2.785,-0.3008115258021416,-0.09921711776110233,0.8863825065758861,-0.08570454307596678,-0.574158,-17.647417
11.185,2.0,1.0,1.0,33.8,33.6,33.6,2.6,2.7,2.7875,-0.31791319983591987,-0.10067833858215221,0.877626278803011,-0.09095528488047826,-0.598339,-17.3497
11.185,2.0,1.0,1.0,33.8,33.6,33.6,2.6,2.7,2.79,-0.33505985876527244,-0.10208082778847433,0.8682455315640352,-0.09653427597381482,-0.624242,-17.046669
11.185,2.0,1.0,1.0,33.8,33.6,33.6,2.6,2.7,2.7925,-0.3522328209699675,-0.10340956504187557,0.8582080559677425,-0.10246577516645741,-0.652042,-16.738122
11.185,2.0,1.0,1.0,33.8,33.6,33.6,2.6,2.7,2.795,-0.3694105546883719,-0.10464697172389824,0.847479484598177,-0.10877604461830524,-0.681936,-16.42385
11.185,2.0,1.0,1.0,33.8,33.6,33.6,2.6,2.7,2.7975,-0.38656821320453405,-0.10577246258594356,0.8360231465464091,-0.11549349565698158,-0.714149,-16.103633
11.185,2.0,1.0,1.0,33.8,33.6,33.6,2.6,2.7,2.8,-0.40367708476746306,-0.10676191329223246,0.8237999265951923,-0.12264883098567504,-0.748935,-15.777247
11.185,2.0,1.0,1.0,33.8,33.6,33.6,2.6,2.7,2.8025,-0.42070394058150856,-0.10758702733429247,0.8107681358831142,-0.13027517608101868,-0.786586,-15.444458
11.185,2.0,1.0,1.0,33.8,33.6,33.6,2.6,2.7,2.805,-0.43761026099555456,-0.10821458260533852,0.7968834046387909,-0.13840818935667948,-0.827435,-15.105024
11.185,2.0,1.0,1.0,33.8,33.6,33.6,2.6,2.7,2.8075,-0.45435131630562403,-0.10860553423228116,0.7820986120770689,-0.1470861362189428,-0.871865,-14.758702
11.185,2.0,1.0,1.0,33.8,33.6,33.6,2.6,2.7,2.81,-0.4708750743793451,-0.1087139460797311,0.7663638747342606,-0.15634990602489116,-0.920317,-14.405241
11.185,2.0,1.0,1.0,33.8,33.6,33.6,2.6,2.7,2.8125,-0.48712090269172953,-0.10848571874257576,0.7496266229871532,-0.16624294257833672,-0.973299,-14.044391
11.185,2.0,1.0,1.0,33.8,33.6,33.6,2.6,2.7,2.815,-0.5030180275376818,-0.10785707703502181,0.7318318070496612,-0.17681104737218825,-1.031405,-13.675903
11.185,2.0,1.0,1.0,33.8,33.6,33.6,2.6,2.7,2.8175,-0.5184837085802744,-0.10675277538083702,0.7129222894250484,-0.18810199926445034,-1.095323,-13.299535
11.185,2.0,1.0,1.0,33.8,33.6,33.6,2.6,2.7,2.82,-0.5334210832835634,-0.10508397587959796,0.6928395019785146,-0.2001649133028426,-1.165858,-12.915057
11.185,2.0,1.0,1.0,33.8,33.6,33.6,2.6,2.7,2.8225,-0.5477166345164873,-0.102745752501219,0.6715244742206748,-0.21304923326891873,-1.243956,-12.522258
11.185,2.0,1.0,1.0,33.8,33.6,33.6,2.6,2.7,2.825,-0.5612372379567651,-0.09961417807529367,0.6489193771844658,-0.22680321508663417,-1.330729,-12.120957
11.185,2.0,1.0,1.0,33.8,33.6,33.6,2.6,2.7,2.8275,-0.5738267575303846,-0.09554296210901231,0.6249697768982633,-0.24147170908936302,-1.427493,-11.711015
