1,w,sub_t,h,l1,l2,l3,g1,g2,Freq,S11_re,S21_re,S11_img,S21_img,S11_dB,S21_dB
11.185,2.0,1.0,1.0,33.9,34.1,34.1,1.8,3.5,2.5,0.793539328796545,-0.0132598961649174,0.594462570911113,0.00934829197716193,-0.074065,-35.796887
11.185,2.0,1.0,1.0,33.9,34.1,34.1,1.8,3.5,2.5025,0.7888937921964592,-0.0135352678128234,0.6004523093413565,0.009373993115889672,-0.074923,-35.669102
11.185,2.0,1.0,1.0,33.9,34.1,34.1,1.8,3.5,2.505,0.7841763283344113,-0.01381605791952461,0.6064371306206293,0.009397775162341134,-0.075797,-35.54082
11.185,2.0,1.0,1.0,33.9,34.1,34.1,1.8,3.5,2.5075,0.7793860799324658,-0.01410238609067531,0.6124165272101398,0.009419546900260579,-0.076689,-35.412033
11.185,2.0,1.0,1.0,33.9,34.1,34.1,1.8,3.5,2.51,0.7745221753686581,-0.014394375023946061,0.6183899743205795,0.00943921325197367,-0.077599,-35.282731
11.185,2.0,1.0,1.0,33.9,34.1,34.1,1.8,3.5,2.5125,0.769583728444427,-0.014692150597010211,0.6243569293004144,0.00945667510286933,-0.078528,-35.152903
11.185,2.0,1.0,1.0,33.9,34.1,34.1,1.8,3.5,2.515,0.7645698381499083,-0.014995841958056874,0.6303168310011195,0.009471829117110146,-0.079476,-35.02254
11.185,2.0,1.0,1.0,33.9,34.1,34.1,1.8,3.5,2.5175,0.7594795884272261,-0.015305581618887775,0.6362690991183598,0.00948456754408553,-0.080444,-34.891631
11.185,2.0,1.0,1.0,33.9,34.1,34.1,1.8,3.5,2.52,0.7543120479318945,-0.015621505550655097,0.6422131335081288,0.009494778015092986,-0.081432,-34.760166
11.185,2.0,1.0,1.0,33.9,34.1,34.1,1.8,3.5,2.5225,0.7490662697924991,-0.015943753282294693,0.648148313476749,0.00950234332969966,-0.08244,-34.628136
11.185,2.0,1.0,1.0,33.9,34.1,34.1,1.8,3.5,2.525,0.7437412913687925,-0.016272468001710283,0.6540739970436362,0.009507141231203867,-0.08347,-34.495528
11.185,2.0,1.0,1.0,33.9,34.1,34.1,1.8,3.5,2.5275,0.7383361340083948,-0.016607796659759196,0.659989520175646,0.009509044170578596,-0.084521,-34.362332
11.185,2.0,1.0,1.0,33.9,34.1,34.1,1.8,3.5,2.53,0.7328498028022961,-0.016949890077090152,0.6658941959917686,0.009507919058241771,-0.085595,-34.228538
11.185,2.0,1.0,1.0,33.9,34.1,34.1,1.8,3.5,2.5325,0.7272812863393722,-0.017298903053879305,0.6717873139368811,0.009503627002954724,-0.086692,-34.094134
11.185,2.0,1.0,1.0,33.9,34.1,34.1,1.8,3.5,2.535,0.7216295564601442,-0.01765499448250768,0.6776681389231975,0.009496023037108002,-0.087813,-33.959109
11.185,2.0,1.0,1.0,33.9,34.1,34.1,1.8,3.5,2.5375,0.7158935680100563,-0.018018327463218783,0.6835359104379897,0.009484955827604186,-0.088958,-33.82345
11.185,2.0,1.0,1.0,33.9,34.1,34.1,1.8,3.5,2.54,0.7100722585925411,-0.01838906942278986,0.6893898416160731,0.00947026737149804,-0.090129,-33.687147
11.185,2.0,1.0,1.0,33.9,34.1,34.1,1.8,3.5,2.5425,0.704164548322188,-0.018767392236244993,0.6952291182754874,0.009451792675499057,-0.091325,-33.550187
11.185,2.0,1.0,1.0,33.9,34.1,34.1,1.8,3.5,2.545,0.6981693395783539,-0.019153472351630837,0.7010528979147057,0.009429359418383318,-0.092548,-33.412559
11.185,2.0,1.0,1.0,33.9,34.1,34.1,1.8,3.5,2.5475,0.6920855167595971,-0.019547490917867623,0.7068603086696229,0.009402787595299271,-0.093798,-33.274249
11.185,2.0,1.0,1.0,33.9,34.1,34.1,1.8,3.5,2.55,0.6859119460393118,-0.019949633915679558,0.7126504482284926,0.009371889142883805,-0.095076,-33.135244
11.185,2.0,1.0,1.0,33.9,34.1,34.1,1.8,3.5,2.5525,0.6796474751230451,-0.020360092291597326,0.7184223827028555,0.009336467544035113,-0.096383,-32.995533
11.185,2.0,1.0,1.0,33.9,34.1,34.1,1.8,3.5,2.555,0.6732909330079432,-0.020779062095013765,0.7241751454524356,0.009296317411108824,-0.09772,-32.855102
11.185,2.0,1.0,1.0,33.9,34.1,34.1,1.8,3.5,2.5575,0.6668411297448618,-0.021206744618260585,0.7299077358618374,0.009251224046223326,-0.099088,-32.713937
11.185,2.0,1.0,1.0,33.9,34.1,34.1,1.8,3.5,2.56,0.660296856203725,-0.021643346539655446,0.7356191180667754,0.009200962977268913,-0.100488,-32.572025
11.185,2.0,1.0,1.0,33.9,34.1,34.1,1.8,3.5,2.5625,0.65365688384274,-0.022089080069454727,0.7413082196274309,0.00914529946812137,-0.10192,-32.429352
11.185,2.0,1.0,1.0,33.9,34.1,34.1,1.8,3.5,2.565,0.6469199644821433,-0.022544163098623223,0.7469739301464128,0.009083988001455287,-0.103387,-32.285903
11.185,2.0,1.0,1.0,33.9,34.1,34.1,1.8,3.5,2.5675,0.6400848300832357,-0.023008819350310232,0.7526150998286345,0.009016771732443477,-0.104887,-32.141664
11.185,2.0,1.0,1.0,33.9,34.1,34.1,1.8,3.5,2.57,0.6331501925334847,-0.023483278533895945,0.7582305379802764,0.00894338191150796,-0.106424,-31.996621
11.185,2.0,1.0,1.0,33.9,34.1,34.1,1.8,3.5,2.5725,0.6261147434385816,-0.023967776501440368,0.7638190114438544,0.008863537274159564,-0.107998,-31.850758
11.185,2.0,1.0,1.0,33.9,34.1,34.1,1.8,3.5,2.575,0.6189771539224004,-0.02446255540633497,0.7693792429662106,0.008776943395824553,-0.10961,-31.704059
11.185,2.0,1.0,1.0,33.9,34.1,34.1,1.8,3.5,2.5775,0.6117360744358884,-0.024967863863918,0.7749099094960744,0.008683292009407357,-0.111262,-31.55651
11.185,2.0,1.0,1.0,33.9,34.1,34.1,1.8,3.5,2.58,0.6043901345760306,-0.025483957113771563,0.7804096404076477,0.008582260283176197,-0.112954,-31.408093
11.185,2.0,1.0,1.0,33.9,34.1,34.1,1.8,3.5,2.5825,0.5969379429160881,-0.026011097183371388,0.7858770156464344,0.008473510056385672,-0.114689,-31.258792
11.185,2.0,1.0,1.0,33.9,34.1,34.1,1.8,3.5,2.585,0.5893780868484695,-0.026549553052703376,0.7913105637933253,0.008356687029860987,-0.116467,-31.108592
11.185,2.0,1.0,1.0,33.9,34.1,34.1,1.8,3.5,2.5875,0.5817091324416734,-0.027099600819401236,0.796708760042691,0.008231419908565811,-0.11829,-30.957473
11.185,2.0,1.0,1.0,33.9,34.1,34.1,1.8,3.5,2.59,0.573929624312895,-0.027661523863888714,0.802070024089974,0.00809731949295701,-0.120159,-30.805419
11.185,2.0,1.0,1.0,33.9,34.1,34.1,1.8,3.5,2.5925,0.5660380855180183,-0.028235613013933594,0.8073927179240018,0.007953977715690815,-0.122077,-30.652413
11.185,2.0,1.0,1.0,33.9,34.1,34.1,1.8,3.5,2.595,0.5580330174608852,-0.02882216670792901,0.8126751435189018,0.007800966619988133,-0.124045,-30.498434
11.185,2.0,1.0,1.0,33.9,34.1,34.1,1.8,3.5,2.5975,0.5499128998238849,-0.0294214911561239,0.817915540420233,0.0076378372756905274,-0.126064,-30.343465
11.185,2.0,1.0,1.0,33.9,34.1,34.1,1.8,3.5,2.6,0.541676190522107,-0.030033900498908063,0.8231120832195271,0.007464118628733879,-0.128136,-30.187486
11.185,2.0,1.0,1.0,33.9,34.1,34.1,1.8,3.5,2.6025,0.5333213256835225,-0.03065971696113259,0.8282628789111146,0.007279316279443131,-0.130264,-30.030478
11.185,2.0,1.0,1.0,33.9,34.1,34.1,1.8,3.5,2.605,0.5248467196578441,-0.03129927100130847,0.8333659641246562,0.007082911184696405,-0.132449,-29.872421
11.185,2.0,1.0,1.0,33.9,34.1,34.1,1.8,3.5,2.6075,0.5162507650570091,-0.03195290145436159,0.8384193022263998,0.006874358278622312,-0.134693,-29.713292
11.185,2.0,1.0,1.0,33.9,34.1,34.1,1.8,3.5,2.61,0.5075318328304811,-0.03262095566644692,0.8434207802816654,0.006653085006078554,-0.136999,-29.553073
11.185,2.0,1.0,1.0,33.9,34.1,34.1,1.8,3.5,2.6125,0.4986882723788716,-0.033303789620120997,0.8483682058705947,0.006418489762706116,-0.139369,-29.39174
11.185,2.0,1.0,1.0,33.9,34.1,34.1,1.8,3.5,2.615,0.48971841170972136,-0.034001768047945274,0.8532593037486059,0.006169940234862853,-0.141805,-29.229272
11.185,2.0,1.0,1.0,33.9,34.1,34.1,1.8,3.5,2.6175,0.48062055763965517,-0.03471526453233362,0.858091712342424,0.005906771632203928,-0.14431,-29.065645
11.185,2.0,1.0,1.0,33.9,34.1,34.1,1.8,3.5,2.62,0.47139299604752977,-0.03544466158917219,0.8628629800718867,0.005628284805096932,-0.146886,-28.900836
11.185,2.0,1.0,1.0,33.9,34.1,34.1,1.8,3.5,2.6225,0.46203399218364327,-0.0361903507324102,0.8675705614870467,0.00533374423842468,-0.149536,-28.734821
11.185,2.0,1.0,1.0,33.9,34.1,34.1,1.8,3.5,2.625,0.452541791040601,-0.0369527325164523,0.872211813209303,0.00502237591264101,-0.152263,-28.567576
11.185,2.0,1.0,1.0,33.9,34.1,34.1,1.8,3.5,2.6275,0.4429146177919553,-0.037732216552771064,0.8767839896644898,0.0046933650221935175,-0.155071,-28.399074
11.185,2.0,1.0,1.0,33.9,34.1,34.1,1.8,3.5,2.63,0.43315067830539483,-0.03852922149668387,0.8812842385949482,0.004345853540608993,-0.157962,-28.229291
11.185,2.0,1.0,1.0,33.9,34.1,34.1,1.8,3.5,2.6325,0.42324815973793406,-0.039344174999712316,0.8857095963366252,0.0039789376206454995,-0.16094,-28.058199
11.185,2.0,1.0,1.0,33.9,34.1,34.1,1.8,3.5,2.635,0.41320523122132463,-0.040177513622340434,0.8900569828462002,0.003591664816940575,-0.164008,-27.88577
11.185,2.0,1.0,1.0,33.9,34.1,34.1,1.8,3.5,2.6375,0.40302004464679225,-0.04102968270130971,0.8943231964620709,0.003183031117524547,-0.16717,-27.711977
11.185,2.0,1.0,1.0,33.9,34.1,34.1,1.8,3.5,2.64,0.3926907355591177,-0.041901136164824555,0.8985049083818073,0.002751977769404889,-0.17043,-27.536791
11.185,2.0,1.0,1.0,33.9,34.1,34.1,1.8,3.5,2.6425,0.3822154241712231,-0.042792336288166206,0.9025986568372766,0.0022973878821628095,-0.173792,-27.36018
11.185,2.0,1.0,1.0,33.9,34.1,34.1,1.8,3.5,2.645,0.3715922165115792,-0.043703753381234625,0.9066008409472115,0.0018180827921165821,-0.177261,-27.182116
11.185,2.0,1.0,1.0,33.9,34.1,34.1,1.8,3.5,2.6475,0.36081920571812587,-0.04463586539841263,0.9105077142253195,0.00131281816809097,-0.180841,-27.002566
11.185,2.0,1.0,1.0,33.9,34.1,34.1,1.8,3.5,2.65,0.34989447349389624,-0.045589157459886065,0.9143153777203111,0.0007802798381767733,-0.184538,-26.821497
11.185,2.0,1.0,1.0,33.9,34.1,34.1,1.8,3.5,2.6525,0.3388160917412969,-0.04656412127210261,0.9180197727622706,0.00021907931505117838,-0.188355,-26.638876
11.185,2.0,1.0,1.0,33.9,34.1,34.1,1.8,3.5,2.655,0.32758212439383305,-0.04756125443342253,0.9216166732877046,-0.0003722510045537033,-0.1923,-26.454668
11.185,2.0,1.0,1.0,33.9,34.1,34.1,1.8,3.5,2.6575,0.31619062946632526,-0.04858105960914377,0.9251016777133039,-0.0009952629928201356,-0.196377,-26.268838
11.185,2.0,1.0,1.0,33.9,34.1,34.1,1.8,3.5,2.66,0.3046396613470447,-0.04962404355796442,0.9284702003259397,-0.0016515983252127391,-0.200593,-26.081349
11.185,2.0,1.0,1.0,33.9,34.1,34.1,1.8,3.5,2.6625,0.2929272733580182,-0.05069071598952204,0.9317174621536876,-0.0023429944278139207,-0.204954,-25.892163
11.185,2.0,1.0,1.0,33.9,34.1,34.1,1.8,3.5,2.665,0.28105152061281913,-0.05178158822989561,0.9348384812796566,-0.003071290872044742,-0.209468,-25.701241
11.185,2.0,1.0,1.0,33.9,34.1,34.1,1.8,3.5,2.6675,0.26901046320479505,-0.052897171668794575,0.9378280625571561,-0.003838436254315047,-0.214141,-25.508543
11.185,2.0,1.0,1.0,33.9,34.1,34.1,1.8,3.5,2.67,0.2568021697626375,-0.05403797595856705,0.9406807866811113,-0.004646495601567612,-0.218982,-25.314027
11.185,2.0,1.0,1.0,33.9,34.1,34.1,1.8,3.5,2.6725,0.2444247214148166,-0.05520450693103302,0.9433909985667652,-0.0054976583474283915,-0.223998,-25.11765
11.185,2.0,1.0,1.0,33.9,34.1,34.1,1.8,3.5,2.675,0.23187621620962923,-0.05639726419342976,0.9459527949824015,-0.006394246927773867,-0.2292,-24.919368
11.185,2.0,1.0,1.0,33.9,34.1,34.1,1.8,3.5,2.6775,0.21915477404351144,-0.05761673835935033,0.9483600113781482,-0.007338726049018295,-0.234595,-24.719134
11.185,2.0,1.0,1.0,33.9,34.1,34.1,1.8,3.5,2.68,0.2062585421570908,-0.05886340786434814,0.950606207847844,-0.008333712687330122,-0.240195,-24.516903
11.185,2.0,1.0,1.0,33.9,34.1,34.1,1.8,3.5,2.6825,0.19318570126617127,-0.06013773530875056,0.952684654155328,-0.009381986882351036,-0.246009,-24.312623
11.185,2.0,1.0,1.0,33.9,34.1,34.1,1.8,3.5,2.685,0.17993447240373753,-0.06144016326202808,0.9545883137504929,-0.010486503394849222,-0.25205,-24.106246
11.185,2.0,1.0,1.0,33.9,34.1,34.1,1.8,3.5,2.6875,0.166503124559203,-0.0627711094536284,0.956309826693784,-0.0116504043041261,-0.25833,-23.897718
11.185,2.0,1.0,1.0,33.9,34.1,34.1,1.8,3.5,2.69,0.15288998321284145,-0.06413096126430627,0.9578414914006311,-0.012877032627947467,-0.264862,-23.686985
11.185,2.0,1.0,1.0,33.9,34.1,34.1,1.8,3.5,2.6925,0.1390934398766703,-0.06552006941943829,0.9591752451095173,-0.014169947055333932,-0.27166,-23.473991
11.185,2.0,1.0,1.0,33.9,34.1,34.1,1.8,3.5,2.695,0.1251119627685838,-0.06693874077131118,0.9603026429688603,-0.015532937890734668,-0.278739,-23.258678
11.185,2.0,1.0,1.0,33.9,34.1,34.1,1.8,3.5,2.6975,0.11094410876420577,-0.06838723004062207,0.9612148356288032,-0.016970044316977986,-0.286116,-23.040986
11.185,2.0,1.0,1.0,33.9,34.1,34.1,1.8,3.5,2.7,0.09658853679155248,-0.06986573036801857,0.9619025452141058,-0.018485573093931416,-0.293808,-22.820852
11.185,2.0,1.0,1.0,33.9,34.1,34.1,1.8,3.5,2.7025,0.08204402285721653,-0.07137436250402583,0.9623560395438048,-0.020084118820054692,-0.301834,-22.598212
11.185,2.0,1.0,1.0,33.9,34.1,34.1,1.8,3.5,2.705,0.06730947692030145,-0.07291316243961127,0.9625651044520431,-0.02177058589494628,-0.310213,-22.372999
11.185,2.0,1.0,1.0,33.9,34.1,34.1,1.8,3.5,2.7075,0.05238396186206086,-0.07448206724932127,0.9625190140525562,-0.023550212332569227,-0.318969,-22.145142
11.185,2.0,1.0,1.0,33.9,34.1,34.1,1.8,3.5,2.71,0.03726671483613818,-0.07608089888366895,0.9622064987767918,-0.025428595586993657,-0.328125,-21.914571
11.185,2.0,1.0,1.0,33.9,34.1,34.1,1.8,3.5,2.7125,0.02195717132711565,-0.07770934560639588,0.9616157110026592,-0.02741172056512525,-0.337705,-21.68121
11.185,2.0,1.0,1.0,33.9,34.1,34.1,1.8,3.5,2.715,0.006454992294964406,-0.07936694072437082,0.9607341880776272,-0.02950599001379561,-0.347739,-21.444981
11.185,2.0,1.0,1.0,33.9,34.1,34.1,1.8,3.5,2.7175,-0.009239905158962473,-0.0810530382020375,0.9595488125266001,-0.031718257481534604,-0.358256,-21.205805
11.185,2.0,1.0,1.0,33.9,34.1,34.1,1.8,3.5,2.72,-0.02512731310102258,-0.08276678468707058,0.9580457692220731,-0.03405586306792189,-0.369288,-20.963598
11.185,2.0,1.0,1.0,33.9,34.1,34.1,1.8,3.5,2.7225,-0.04120669346709129,-0.0845070873975959,0.9562104992820407,-0.03652667218513006,-0.380872,-20.718272
11.185,2.0,1.0,1.0,33.9,34.1,34.1,1.8,3.5,2.725,-0.05747713348221974,-0.08627257723199469,0.9540276504507547,-0.03913911756636001,-0.393046,-20.469739
11.185,2.0,1.0,1.0,33.9,34.1,34.1,1.8,3.5,2.7275,-0.07393729501532868,-0.08806156635765569,0.9514810237096957,-0.041902244763391806,-0.405851,-20.217904
11.185,2.0,1.0,1.0,33.9,34.1,34.1,1.8,3.5,2.73,-0.09058535695940115,-0.08987199941229877,0.9485535158624274,-0.04482576137904657,-0.419335,-19.96267
11.185,2.0,1.0,1.0,33.9,34.1,34.1,1.8,3.5,2.7325,-0.10741894957942111,-0.09170139730746907,0.9452270578390699,-0.047920090278246306,-0.433548,-19.703938
11.185,2.0,1.0,1.0,33.9,34.1,34.1,1.8,3.5,2.735,-0.12443507959622788,-0.09354679245467537,0.941482548476556,-0.051196427011153595,-0.448544,-19.441602
11.185,2.0,1.0,1.0,33.9,34.1,34.1,1.8,3.5,2.7375,-0.14163004457041814,-0.09540465403598887,0.9372997835525816,-0.05466680166046147,-0.464384,-19.175555
11.185,2.0,1.0,1.0,33.9,34.1,34.1,1.8,3.5,2.74,-0.1589993349107446,-0.09727080170746738,0.9326573798887294,-0.05834414528809233,-0.481136,-18.905683
11.185,2.0,1.0,1.0,33.9,34.1,34.1,1.8,3.5,2.7425,-0.17653752155029223,-0.09914030584948377,0.9275326943969731,-0.06224236109891499,-0.498872,-18.631871
11.185,2.0,1.0,1.0,33.9,34.1,34.1,1.8,3.5,2.745,-0.1942381270035754,-0.1010073721558004,0.921901738031197,-0.0663764003533653,-0.517674,-18.353999
11.185,2.0,1.0,1.0,33.9,34.1,34.1,1.8,3.5,2.7475,-0.2120934771306022,-0.10286520797494203,0.9157390847309131,-0.07076234293762934,-0.537631,-18.07194
11.185,2.0,1.0,1.0,33.9,34.1,34.1,1.8,3.5,2.75,-0.230094530480329,-0.104705867373765,0.909017775620799,-0.075417482326949,-0.558843,-17.785567
11.185,2.0,1.0,1.0,33.9,34.1,34.1,1.8,3.5,2.7525,-0.24823068155519865,-0.10652007137365778,0.9017092189733487,-0.08036041443842407,-0.581419,-17.494746
11.185,2.0,1.0,1.0,33.9,34.1,34.1,1.8,3.5,2.755,-0.2664895337190406,-0.10829699920295348,0.8937830867743647,-0.08561112954329479,-0.605482,-17.199339
11.185,2.0,1.0,1.0,33.9,34.1,34.1,1.8,3.5,2.7575,-0.28485663674984585,-0.11002404570244861,0.8852072091802663,-0.09119110596752036,-0.631169,-16.899207
11.185,2.0,1.0,1.0,33.9,34.1,34.1,1.8,3.5,2.76,-0.3033151832037654,-0.11168653920146081,0.8759474687587308,-0.09712340371755798,-0.658632,-16.594203
11.185,2.0,1.0,1.0,33.9,34.1,34.1,1.8,3.5,2.7625,-0.3218456567946989,-0.11326741323714357,0.8659676972073796,-0.10343275537900283,-0.688043,-16.284179
11.185,2.0,1.0,1.0,33.9,34.1,34.1,1.8,3.5,2.765,-0.34042542489425026,-0.11474682440901433,0.8552295783106257,-0.11014565058851973,-0.719592,-15.968984
11.185,2.0,1.0,1.0,33.9,34.1,34.1,1.8,3.5,2.7675,-0.3590282660130808,-0.11610170743722684,0.8436925623017762,-0.11729040899605751,-0.753494,-15.648464
11.185,2.0,1.0,1.0,33.9,34.1,34.1,1.8,3.5,2.77,-0.377623821738347,-0.11730525712798481,0.831313798648543,-0.12489723481369161,-0.789994,-15.322463
11.185,2.0,1.0,1.0,33.9,34.1,34.1,1.8,3.5,2.7725,-0.3961769610876141,-0.11832632545684683,0.8180480967064361,-0.13299824366008767,-0.829364,-14.990825
11.185,2.0,1.0,1.0,33.9,34.1,34.1,1.8,3.5,2.775,-0.4146470436345338,-0.11912872039630337,0.8038479268536264,-0.14162744929034302,-0.871917,-14.653396
11.185,2.0,1.0,1.0,33.9,34.1,34.1,1.8,3.5,2.7775,-0.4329870661372174,-0.11967039150772846,0.7886634788443713,-0.15082069374076548,-0.918004,-14.310022
11.185,2.0,1.0,1.0,33.9,34.1,34.1,1.8,3.5,2.78,-0.4511426758820061,-0.11990248581204403,0.7724427994610512,-0.16061549915522638,-0.968028,-13.960555
11.185,2.0,1.0,1.0,33.9,34.1,34.1,1.8,3.5,2.7825,-0.4690510327489955,-0.11976825624988163,0.7551320384341745,-0.17105081277080067,-1.022447,-13.604855
11.185,2.0,1.0,1.0,33.9,34.1,34.1,1.8,3.5,2.785,-0.48663950143754464,-0.119201804460346,0.7366758404304689,-0.18216660783441035,-1.081787,-13.24279
11.185,2.0,1.0,1.0,33.9,34.1,34.1,1.8,3.5,2.7875,-0.5038241558607344,-0.11812664013976114,0.7170179321460062,-0.19400329213880516,-1.146651,-12.874245
11.185,2.0,1.0,1.0,33.9,34.1,34.1,1.8,3.5,2.79,-0.5205080801814266,-0.11645404162860465,0.6961019677058573,-0.2066008618874833,-1.217732,-12.499125
11.185,2.0,1.0,1.0,33.9,34.1,34.1,1.8,3.5,2.7925,-0.5365794564292297,-0.114081207708638,0.6738727132098643,-0.2199977211808004,-1.295832,-12.11736
11.185,2.0,1.0,1.0,33.9,34.1,34.1,1.8,3.5,2.795,-0.5519094387137968,-0.11088920045414483,0.6502776728697913,-0.2342290660645139,-1.381878,-11.728914
11.185,2.0,1.0,1.0,33.9,34.1,34.1,1.8,3.5,2.7975,-0.5663498310116979,-0.1067406956144739,0.6252692850583907,-0.24932470648889876,-1.476946,-11.333796
11.185,2.0,1.0,1.0,33.9,34.1,34.1,1.8,3.5,2.8,-0.5797306125075893,-0.10147758352123841,0.59880784659151,-0.2653061698176863,-1.582287,-10.932069
11.185,2.0,1.0,1.0,33.9,34.1,34.1,1.8,3.5,2.8025,-0.5918573957682287,-0.09491850411064894,0.5708653566803622,-0.28218289667641105,-1.699361,-10.523864
11.185,2.0,1.0,1.0,33.9,34.1,34.1,1.8,3.5,2.805,-0.6025089641480499,-0.08685645979117873,0.541430505668059,-0.29994730642970047,-1.829876,-10.1094
11.185,2.0,1.0,1.0,33.9,34.1,34.1,1.8,3.5,2.8075,-0.6114351225865056,-0.07705673631658043,0.5105150627719865,-0.3185684804497208,-1.975831,-9.689002
11.185,2.0,1.0,1.0,33.9,34.1,34.1,1.8,3.5,2.81,-0.6183552181107526,-0.06525548222986233,0.47816193238821464,-0.3379841956164203,-2.139574,-9.263125
11.185,2.0,1.0,1.0,33.9,34.1,34.1,1.8,3.5,2.8125,-0.622957850465363,-0.051159459355954,0.444455134778808,-0.358091053213355,-2.323864,-8.832379
11.185,2.0,1.0,1.0,33.9,34.1,34.1,1.8,3.5,2.815,-0.6249025042434802,-0.03444768517818248,0.4095319003216962,-0.3787325130185907,-2.53195,-8.397567
11.185,2.0,1.0,1.0,33.9,34.1,34.1,1.8,3.5,2.8175,-0.6238240891868053,-0.01477594044230814,0.3735969121773066,-0.399684793226004,-2.767651,-7.959716
11.185,2.0,1.0,1.0,33.9,34.1,34.1,1.8,3.5,2.82,-0.6193416570462636,0.008214605423359856,0.33693844333877854,-0.42064088015505974,-3.035461,-7.520114
11.185,2.0,1.0,1.0,33.9,34.1,34.1,1.8,3.5,2.8225,-0.6110728260802549,0.03488313703074905,0.2999456541528353,-0.44119336335228915,-3.340652,-7.080356
11.185,2.0,1.0,1.0,33.9,34.1,34.1,1.8,3.5,2.825,-0.5986555988819641,0.06556763365375376,0.26312559003560204,-0.4608175267781449,-3.689383,-6.642375
11.185,2.0,1.0,1.0,33.9,34.1,34.1,1.8,3.5,2.8275,-0.5817791567403893,0.10055443325583369,0.22711741624504603,-0.47885711562352323,-4.088805,-6.20848
11.185,2.0,1.0,1.0,33.9,34.1,34.1,1.8,3.5,2.83,-0.5602246377339377,0.14003790658302473,0.19270018767743174,-0.49451642210275715,-4.547114,-5.781377
