1,w,sub_t,h,l1,l2,l3,g1,g2,Freq,S11_re,S21_re,S11_img,S21_img,S11_dB,S21_dB
11.185,2.0,1.0,1.0,33.4,33.5,33.5,2.8,2.9,2.5,0.86178105754821,-0.0074457777769246,0.494329187135043,0.00669008133007968,-0.056706,-39.991462
11.185,2.0,1.0,1.0,33.4,33.5,33.5,2.8,2.9,2.5025,0.8584476467573464,-0.007599375435478608,0.49997592133998914,0.00672464860964861,-0.057232,-39.872834
11.185,2.0,1.0,1.0,33.4,33.5,33.5,2.8,2.9,2.505,0.855062386409314,-0.007755748118216942,0.5056232782816773,0.006758592351963199,-0.057768,-39.753904
11.185,2.0,1.0,1.0,33.4,33.5,33.5,2.8,2.9,2.5075,0.8516247571981092,-0.007914951322375205,0.5112710277702953,0.006791881499886245,-0.058312,-39.634665
11.185,2.0,1.0,1.0,33.4,33.5,33.5,2.8,2.9,2.51,0.848134231481282,-0.008077041912986839,0.5169189324604785,0.0068244838040357695,-0.058867,-39.515109
11.185,2.0,1.0,1.0,33.4,33.5,33.5,2.8,2.9,2.5125,0.8445902731413181,-0.008242078162505821,0.5225667476145723,0.006856365773808388,-0.059431,-39.395227
11.185,2.0,1.0,1.0,33.4,33.5,33.5,2.8,2.9,2.515,0.8409923374449705,-0.008410119791739126,0.528214220857968,0.006887492626193134,-0.060005,-39.275013
11.185,2.0,1.0,1.0,33.4,33.5,33.5,2.8,2.9,2.5175,0.8373398709005395,-0.008581228012137626,0.5338610919261988,0.0069178282322649035,-0.060589,-39.154458
11.185,2.0,1.0,1.0,33.4,33.5,33.5,2.8,2.9,2.52,0.8336323111130808,-0.0087554655694967,0.5395070924035231,0.006947335061240539,-0.061184,-39.033554
11.185,2.0,1.0,1.0,33.4,33.5,33.5,2.8,2.9,2.5225,0.8298690866375464,-0.008932896789118967,0.5451519454526471,0.006975974121973665,-0.061789,-38.912292
11.185,2.0,1.0,1.0,33.4,33.5,33.5,2.8,2.9,2.525,0.8260496168298449,-0.009113587622494545,0.5507953655352898,0.0070037049017579334,-0.062405,-38.790664
11.185,2.0,1.0,1.0,33.4,33.5,33.5,2.8,2.9,2.5275,0.8221733116958123,-0.009297605695556346,0.5564370581232332,0.007030485302300381,-0.063032,-38.668662
11.185,2.0,1.0,1.0,33.4,33.5,33.5,2.8,2.9,2.53,0.8182395717381046,-0.009485020358569943,0.5620767193995035,0.007056271572718777,-0.063671,-38.546277
11.185,2.0,1.0,1.0,33.4,33.5,33.5,2.8,2.9,2.5325,0.814247787800998,-0.00967590273772024,0.5677140359493192,0.007081018239408822,-0.064321,-38.423501
11.185,2.0,1.0,1.0,33.4,33.5,33.5,2.8,2.9,2.535,0.8101973409131047,-0.009870325788460308,0.5733486844404151,0.007104678032617422,-0.064983,-38.300325
11.185,2.0,1.0,1.0,33.4,33.5,33.5,2.8,2.9,2.5375,0.8060876021280095,-0.01006836435068914,0.578980331292341,0.007127201809549319,-0.065658,-38.176739
11.185,2.0,1.0,1.0,33.4,33.5,33.5,2.8,2.9,2.54,0.8019179323628288,-0.01027009520582971,0.5846086323343145,0.007148538473823599,-0.066345,-38.052735
11.185,2.0,1.0,1.0,33.4,33.5,33.5,2.8,2.9,2.5425,0.7976876822347034,-0.010475597135879677,0.5902332324511925,0.007168634891086594,-0.067045,-37.928304
11.185,2.0,1.0,1.0,33.4,33.5,33.5,2.8,2.9,2.545,0.7933961918952367,-0.01068495098451228,0.5958537652171064,0.007187435800574893,-0.067758,-37.803437
11.185,2.0,1.0,1.0,33.4,33.5,33.5,2.8,2.9,2.5475,0.7890427908628942,-0.010898239720305786,0.6014698525162684,0.007204883722411366,-0.068485,-37.678123
11.185,2.0,1.0,1.0,33.4,33.5,33.5,2.8,2.9,2.55,0.7846267978533762,-0.011115548502185976,0.6070811041504791,0.007220918860402477,-0.069225,-37.552354
11.185,2.0,1.0,1.0,33.4,33.5,33.5,2.8,2.9,2.5525,0.7801475206079962,-0.011336964747166467,0.6126871174327791,0.007235479000092137,-0.06998,-37.42612
11.185,2.0,1.0,1.0,33.4,33.5,33.5,2.8,2.9,2.555,0.7756042557200791,-0.011562578200478653,0.6182874767667338,0.007248499401811976,-0.070749,-37.299411
11.185,2.0,1.0,1.0,33.4,33.5,33.5,2.8,2.9,2.5575,0.7709962884594111,-0.011792481008184025,0.6238817532107623,0.007259912688451909,-0.071533,-37.172217
11.185,2.0,1.0,1.0,33.4,33.5,33.5,2.8,2.9,2.56,0.7663228925947781,-0.012026767792367181,0.6294695040269211,0.007269648727657551,-0.072333,-37.044528
11.185,2.0,1.0,1.0,33.4,33.5,33.5,2.8,2.9,2.5625,0.7615833302146261,-0.01226553572901143,0.6350502722135182,0.007277634508143423,-0.073148,-36.916334
11.185,2.0,1.0,1.0,33.4,33.5,33.5,2.8,2.9,2.565,0.7567768515458851,-0.01250888462866341,0.6406235860209106,0.007283794009790237,-0.07398,-36.787624
11.185,2.0,1.0,1.0,33.4,33.5,33.5,2.8,2.9,2.5675,0.75190269477101,-0.012756917019997002,0.6461889584497944,0.007288048067174467,-0.074828,-36.658387
11.185,2.0,1.0,1.0,33.4,33.5,33.5,2.8,2.9,2.57,0.7469600858432826,-0.013009738236392334,0.6517458867312761,0.007290314226155728,-0.075693,-36.528614
11.185,2.0,1.0,1.0,33.4,33.5,33.5,2.8,2.9,2.5725,0.7419482383004392,-0.01326745650564968,0.6572938517879805,0.007290506593122959,-0.076575,-36.398292
11.185,2.0,1.0,1.0,33.4,33.5,33.5,2.8,2.9,2.575,0.7368663530766842,-0.013530183042963636,0.6628323176754015,0.007288535676475435,-0.077476,-36.267411
11.185,2.0,1.0,1.0,33.4,33.5,33.5,2.8,2.9,2.5775,0.7317136183131642,-0.013798032147287689,0.6683607310026759,0.007284308219886051,-0.078395,-36.135959
11.185,2.0,1.0,1.0,33.4,33.5,33.5,2.8,2.9,2.58,0.7264892091669807,-0.014071121301224674,0.67387852033191,0.007277727026865703,-0.079333,-36.003924
11.185,2.0,1.0,1.0,33.4,33.5,33.5,2.8,2.9,2.5825,0.7211922876188229,-0.014349571274584822,0.6793850955551594,0.007268690776114469,-0.08029,-35.871296
11.185,2.0,1.0,1.0,33.4,33.5,33.5,2.8,2.9,2.585,0.7158220022793184,-0.014633506231757784,0.6848798472480959,0.0072570938271124,-0.081267,-35.738062
11.185,2.0,1.0,1.0,33.4,33.5,33.5,2.8,2.9,2.5875,0.7103774881941991,-0.014923053843051972,0.6903621459993708,0.00724282601536477,-0.082265,-35.604209
11.185,2.0,1.0,1.0,33.4,33.5,33.5,2.8,2.9,2.59,0.7048578666484017,-0.01521834540015974,0.6958313417146068,0.007225772436677914,-0.083284,-35.469726
11.185,2.0,1.0,1.0,33.4,33.5,33.5,2.8,2.9,2.5925,0.6992622449692091,-0.015519515935914135,0.7012867628939201,0.007205813219799005,-0.084325,-35.334599
11.185,2.0,1.0,1.0,33.4,33.5,33.5,2.8,2.9,2.595,0.6935897163285837,-0.015826704348508115,0.706727715881789,0.007182823286706892,-0.085388,-35.198816
11.185,2.0,1.0,1.0,33.4,33.5,33.5,2.8,2.9,2.5975,0.687839359544816,-0.016140053530355705,0.7121534840880558,0.00715667209979257,-0.086474,-35.062363
11.185,2.0,1.0,1.0,33.4,33.5,33.5,2.8,2.9,2.6,0.6820102388836491,-0.016459710501779058,0.7175633271787485,0.007127223395114093,-0.087584,-34.925228
11.185,2.0,1.0,1.0,33.4,33.5,33.5,2.8,2.9,2.6025,0.6761014038590542,-0.01678582654971383,0.722956480235357,0.00709433490085367,-0.088718,-34.787395
11.185,2.0,1.0,1.0,33.4,33.5,33.5,2.8,2.9,2.605,0.6701118890338219,-0.017118557371631954,0.7283321528811251,0.007057858040042697,-0.089877,-34.648852
11.185,2.0,1.0,1.0,33.4,33.5,33.5,2.8,2.9,2.6075,0.6640407138201766,-0.017458063224887403,0.7336895283728216,0.007017637616554116,-0.091062,-34.509585
11.185,2.0,1.0,1.0,33.4,33.5,33.5,2.8,2.9,2.61,0.65788688228062,-0.017804509081698037,0.7390277626563825,0.006973511483288692,-0.092274,-34.369577
11.185,2.0,1.0,1.0,33.4,33.5,33.5,2.8,2.9,2.6125,0.6516493829292302,-0.01815806478998397,0.7443459833847157,0.0069253101914046695,-0.093514,-34.228815
11.185,2.0,1.0,1.0,33.4,33.5,33.5,2.8,2.9,2.615,0.6453271885336617,-0.018518905240289613,0.749643288895868,0.006872856619355252,-0.094781,-34.087283
11.185,2.0,1.0,1.0,33.4,33.5,33.5,2.8,2.9,2.6175,0.6389192559181127,-0.018887210539023175,0.75491874714963,0.006815965580407519,-0.096078,-33.944966
11.185,2.0,1.0,1.0,33.4,33.5,33.5,2.8,2.9,2.62,0.632424525767548,-0.019263166188254827,0.7601713946205606,0.006754443407217778,-0.097405,-33.801848
11.185,2.0,1.0,1.0,33.4,33.5,33.5,2.8,2.9,2.6225,0.6258419224334772,-0.01964696327232124,0.7654002351452792,0.006688087511930509,-0.098763,-33.657912
11.185,2.0,1.0,1.0,33.4,33.5,33.5,2.8,2.9,2.625,0.619170353741635,-0.0200387986514887,0.77060423872173,0.00661668592015311,-0.100153,-33.513142
11.185,2.0,1.0,1.0,33.4,33.5,33.5,2.8,2.9,2.6275,0.612408710801909,-0.02043887516293583,0.7757823402580117,0.006540016777031844,-0.101576,-33.36752
11.185,2.0,1.0,1.0,33.4,33.5,33.5,2.8,2.9,2.63,0.6055558678209156,-0.0208474018293184,0.7809334382681742,0.006457847823517725,-0.103033,-33.22103
11.185,2.0,1.0,1.0,33.4,33.5,33.5,2.8,2.9,2.6325,0.5986106819176336,-0.021264594075185276,0.786056393512245,0.006369935840763158,-0.104526,-33.073654
11.185,2.0,1.0,1.0,33.4,33.5,33.5,2.8,2.9,2.635,0.5915719929425566,-0.02169067395151737,0.7911500275775581,0.006276026060427583,-0.106055,-32.925373
11.185,2.0,1.0,1.0,33.4,33.5,33.5,2.8,2.9,2.6375,0.5844386233008583,-0.022125870368661767,0.7962131213982588,0.006175851538495924,-0.107621,-32.776168
11.185,2.0,1.0,1.0,33.4,33.5,33.5,2.8,2.9,2.64,0.577209377780088,-0.022570419337937343,0.8012444137096693,0.006069132490020324,-0.109227,-32.62602
11.185,2.0,1.0,1.0,33.4,33.5,33.5,2.8,2.9,2.6425,0.5698830433829885,-0.023024564222182357,0.8062425994339447,0.0059555755819894664,-0.110872,-32.47491
11.185,2.0,1.0,1.0,33.4,33.5,33.5,2.8,2.9,2.645,0.5624583891660513,-0.023488555995514932,0.8112063279932251,0.00583487318130029,-0.11256,-32.322818
11.185,2.0,1.0,1.0,33.4,33.5,33.5,2.8,2.9,2.6475,0.5549341660844973,-0.02396265351256923,0.81613420154621,0.005706702554559921,-0.11429,-32.169722
11.185,2.0,1.0,1.0,33.4,33.5,33.5,2.8,2.9,2.65,0.5473091068443996,-0.024447123787461944,0.821024773143802,0.005570725016174356,-0.116065,-32.015601
11.185,2.0,1.0,1.0,33.4,33.5,33.5,2.8,2.9,2.6525,0.5395819257627845,-0.024942242282730013,0.8258765447991337,0.005426585020883987,-0.117887,-31.860434
11.185,2.0,1.0,1.0,33.4,33.5,33.5,2.8,2.9,2.655,0.5317513186365511,-0.02544829320846509,0.8306879654669707,0.005273909196582384,-0.119756,-31.704198
11.185,2.0,1.0,1.0,33.4,33.5,33.5,2.8,2.9,2.6575,0.5238159626211865,-0.025965569831846197,0.8354574289270875,0.005112305312899895,-0.121674,-31.54687
11.185,2.0,1.0,1.0,33.4,33.5,33.5,2.8,2.9,2.66,0.5157745161203051,-0.026494374797245892,0.8401832715658247,0.0049413611806448515,-0.123644,-31.388427
11.185,2.0,1.0,1.0,33.4,33.5,33.5,2.8,2.9,2.6625,0.5076256186871734,-0.027035020457047327,0.844863770049568,0.004760643476770088,-0.125668,-31.228844
11.185,2.0,1.0,1.0,33.4,33.5,33.5,2.8,2.9,2.665,0.49936789093944045,-0.027587829213269487,0.8494971388834287,0.004569696489063117,-0.127747,-31.068097
11.185,2.0,1.0,1.0,33.4,33.5,33.5,2.8,2.9,2.6675,0.49099993448848567,-0.028153133870040467,0.8540815278478372,0.004368040774247388,-0.129883,-30.906158
11.185,2.0,1.0,1.0,33.4,33.5,33.5,2.8,2.9,2.67,0.4825203318848706,-0.028731277996897484,0.858615019305214,0.004155171722614781,-0.132078,-30.743003
11.185,2.0,1.0,1.0,33.4,33.5,33.5,2.8,2.9,2.6725,0.47392764658156955,-0.029322616302811823,0.8630956253682128,0.003930558021690985,-0.134336,-30.578604
11.185,2.0,1.0,1.0,33.4,33.5,33.5,2.8,2.9,2.675,0.46522042291683025,-0.029927515020742805,0.8675212849203366,0.003693640010750008,-0.136658,-30.412932
11.185,2.0,1.0,1.0,33.4,33.5,33.5,2.8,2.9,2.6775,0.45639718611869695,-0.030546352302413496,0.8718898604789524,0.0034438279172413393,-0.139047,-30.24596
11.185,2.0,1.0,1.0,33.4,33.5,33.5,2.8,2.9,2.68,0.4474564423334564,-0.03117951862286569,0.8761991348898824,0.0031804999653612786,-0.141506,-30.077656
11.185,2.0,1.0,1.0,33.4,33.5,33.5,2.8,2.9,2.6825,0.4383966786805348,-0.031827417194191944,0.8804468078417959,0.0029030003460827807,-0.144037,-29.907991
11.185,2.0,1.0,1.0,33.4,33.5,33.5,2.8,2.9,2.685,0.4292163633366336,-0.03249046438765478,0.8846304921876121,0.002610637036942804,-0.146643,-29.736933
11.185,2.0,1.0,1.0,33.4,33.5,33.5,2.8,2.9,2.6875,0.419913945652242,-0.0331690901631769,0.888747710058964,0.00230267945876489,-0.149329,-29.564448
11.185,2.0,1.0,1.0,33.4,33.5,33.5,2.8,2.9,2.69,0.4104878563040292,-0.033863738504923815,0.8927958887585085,0.0019783559552516736,-0.152096,-29.390505
11.185,2.0,1.0,1.0,33.4,33.5,33.5,2.8,2.9,2.6925,0.40093650748702747,-0.034574867861387366,0.8967723564134897,0.0016368510800043692,-0.154949,-29.215067
11.185,2.0,1.0,1.0,33.4,33.5,33.5,2.8,2.9,2.695,0.39125829315104976,-0.035302951588009036,0.9006743373723811,0.001277302674000566,-0.15789,-29.038098
11.185,2.0,1.0,1.0,33.4,33.5,33.5,2.8,2.9,2.6975,0.381451589286273,-0.036048478389951906,0.9044989473247474,0.0008987987148616765,-0.160925,-28.859562
11.185,2.0,1.0,1.0,33.4,33.5,33.5,2.8,2.9,2.7,0.3715147542636392,-0.036811952762116046,0.9082431881225252,0.0005003739173595372,-0.164058,-28.679421
11.185,2.0,1.0,1.0,33.4,33.5,33.5,2.8,2.9,2.7025,0.3614461292363957,-0.03759389542289443,0.9119039422788334,8.100606250955621e-05,-0.167292,-28.497633
11.185,2.0,1.0,1.0,33.4,33.5,33.5,2.8,2.9,2.705,0.35124403860999787,-0.03839484373745835,0.9154779671180293,-0.00036038796973634346,-0.170632,-28.314159
11.185,2.0,1.0,1.0,33.4,33.5,33.5,2.8,2.9,2.7075,0.34090679058854906,-0.03921535212553198,0.91896188854813,-0.0008249564917927128,-0.174084,-28.128956
11.185,2.0,1.0,1.0,33.4,33.5,33.5,2.8,2.9,2.71,0.3304326778071147,-0.04005599244763625,0.9223521944237528,-0.001313917654240377,-0.177653,-27.94198
11.185,2.0,1.0,1.0,33.4,33.5,33.5,2.8,2.9,2.7125,0.3198199780605458,-0.0409173543626343,0.9256452274644826,-0.001828564479877109,-0.181343,-27.753184
11.185,2.0,1.0,1.0,33.4,33.5,33.5,2.8,2.9,2.715,0.3090669551410009,-0.041800045648056186,0.9288371776898835,-0.002370270323405257,-0.185162,-27.562523
11.185,2.0,1.0,1.0,33.4,33.5,33.5,2.8,2.9,2.7175,0.2981718597981237,-0.04270469247308623,0.9319240743283015,-0.002940494798212678,-0.189116,-27.369946
11.185,2.0,1.0,1.0,33.4,33.5,33.5,2.8,2.9,2.72,0.28713293083793456,-0.043631939612219534,0.934901777151986,-0.0035407902162634644,-0.193211,-27.175403
11.185,2.0,1.0,1.0,33.4,33.5,33.5,2.8,2.9,2.7225,0.2759483963788789,-0.044582450585382453,0.937765967185938,-0.004172808592233438,-0.197454,-26.978841
11.185,2.0,1.0,1.0,33.4,33.5,33.5,2.8,2.9,2.725,0.26461647528638454,-0.04555690770769644,0.9405121367320782,-0.004838309268769236,-0.201854,-26.780204
11.185,2.0,1.0,1.0,33.4,33.5,33.5,2.8,2.9,2.7275,0.25313537881051346,-0.04655601202898879,0.9431355786438618,-0.0055391672262150886,-0.206418,-26.579437
11.185,2.0,1.0,1.0,33.4,33.5,33.5,2.8,2.9,2.73,0.24150331245528955,-0.04758048313950533,0.9456313747791251,-0.006277382147418991,-0.211156,-26.37648
11.185,2.0,1.0,1.0,33.4,33.5,33.5,2.8,2.9,2.7325,0.22971847811278753,-0.04863105881397676,0.947994383550731,-0.007055088316426739,-0.216077,-26.171271
11.185,2.0,1.0,1.0,33.4,33.5,33.5,2.8,2.9,2.735,0.21777907650052794,-0.04970849446108513,0.9502192264852839,-0.007874565439107344,-0.22119,-25.963745
11.185,2.0,1.0,1.0,33.4,33.5,33.5,2.8,2.9,2.7375,0.20568330994704612,-0.05081356233933365,0.9523002736896938,-0.008738250484186638,-0.226508,-25.753837
11.185,2.0,1.0,1.0,33.4,33.5,33.5,2.8,2.9,2.74,0.19342938557806091,-0.05194705049314184,0.954231628113543,-0.009648750654946862,-0.232041,-25.541477
11.185,2.0,1.0,1.0,33.4,33.5,33.5,2.8,2.9,2.7425,0.18101551896453905,-0.05310976135446317,0.9560071084817933,-0.010608857615182196,-0.237802,-25.326591
11.185,2.0,1.0,1.0,33.4,33.5,33.5,2.8,2.9,2.745,0.16843993830453238,-0.0543025099450684,0.9576202307572228,-0.011621563108083826,-0.243805,-25.109105
11.185,2.0,1.0,1.0,33.4,33.5,33.5,2.8,2.9,2.7475,0.1557008892231939,-0.05552612160254438,0.9590641879748052,-0.012690076123822489,-0.250064,-24.88894
11.185,2.0,1.0,1.0,33.4,33.5,33.5,2.8,2.9,2.75,0.142796640290296,-0.056781429138621,0.960331828270772,-0.0138178417909746,-0.256596,-24.666012
11.185,2.0,1.0,1.0,33.4,33.5,33.5,2.8,2.9,2.7525,0.12972548937237785,-0.05806926932118147,0.9614156309070172,-0.015008562188923867,-0.263417,-24.440237
11.185,2.0,1.0,1.0,33.4,33.5,33.5,2.8,2.9,2.755,0.11648577095789964,-0.05939047855064759,0.9623076800664343,-0.016266219303326817,-0.270547,-24.211524
11.185,2.0,1.0,1.0,33.4,33.5,33.5,2.8,2.9,2.7575,0.10307586461919113,-0.060745887576652585,0.9629996361663145,-0.017595100375080632,-0.278004,-23.97978
11.185,2.0,1.0,1.0,33.4,33.5,33.5,2.8,2.9,2.76,0.0894942048055421,-0.06213631507113306,0.9634827044045917,-0.018999825925427944,-0.285812,-23.744905
11.185,2.0,1.0,1.0,33.4,33.5,33.5,2.8,2.9,2.7625,0.0757392921983864,-0.06356255983813419,0.9637476002170192,-0.020485380776428235,-0.293994,-23.506798
11.185,2.0,1.0,1.0,33.4,33.5,33.5,2.8,2.9,2.765,0.06180970690371222,-0.06502539139739666,0.9637845112816064,-0.02205714842759436,-0.302575,-23.265349
11.185,2.0,1.0,1.0,33.4,33.5,33.5,2.8,2.9,2.7675,0.04770412381009862,-0.06652553862656366,0.9635830556593268,-0.023720949196705244,-0.311586,-23.020448
11.185,2.0,1.0,1.0,33.4,33.5,33.5,2.8,2.9,2.77,0.033421330505172285,-0.06806367608361358,0.9631322356063253,-0.025483082586397792,-0.321055,-22.771974
11.185,2.0,1.0,1.0,33.4,33.5,33.5,2.8,2.9,2.7725,0.018960248221389166,-0.06964040755439857,0.9624203865319896,-0.027350374398890227,-0.331018,-22.519803
11.185,2.0,1.0,1.0,33.4,33.5,33.5,2.8,2.9,2.775,0.004319956376850578,-0.07125624627689194,0.9614351205083262,-0.02933022918996106,-0.341513,-22.263807
11.185,2.0,1.0,1.0,33.4,33.5,33.5,2.8,2.9,2.7775,-0.010500278607680463,-0.07291159118009052,0.9601632636583309,-0.03143068873097407,-0.352579,-22.003846
11.185,2.0,1.0,1.0,33.4,33.5,33.5,2.8,2.9,2.78,-0.025500969393561033,-0.0746066983367341,0.9585907866635289,-0.03366049723518582,-0.364263,-21.739778
11.185,2.0,1.0,1.0,33.4,33.5,33.5,2.8,2.9,2.7825,-0.04068236771654436,-0.07634164665914284,0.9567027275328522,-0.03602917420260946,-0.376614,-21.471451
11.185,2.0,1.0,1.0,33.4,33.5,33.5,2.8,2.9,2.785,-0.056044417081179965,-0.07811629665913776,0.9544831056658248,-0.03854709584702957,-0.389688,-21.198707
11.185,2.0,1.0,1.0,33.4,33.5,33.5,2.8,2.9,2.7875,-0.07158669669245335,-0.07993024083685286,0.9519148261223811,-0.04122558618970271,-0.403546,-20.921378
11.185,2.0,1.0,1.0,33.4,33.5,33.5,2.8,2.9,2.79,-0.0873083548403972,-0.08178274394763253,0.9489795728796842,-0.044077019036752235,-0.418257,-20.639288
11.185,2.0,1.0,1.0,33.4,33.5,33.5,2.8,2.9,2.7925,-0.10320802955900046,-0.08367267100639231,0.9456576897141574,-0.04711493220026927,-0.433896,-20.352251
11.185,2.0,1.0,1.0,33.4,33.5,33.5,2.8,2.9,2.795,-0.11928375389300123,-0.0855984004063322,0.9419280471969037,-0.05035415547445414,-0.45055,-20.060074
11.185,2.0,1.0,1.0,33.4,33.5,33.5,2.8,2.9,2.7975,-0.1355328425011789,-0.08755771893033132,0.937767894137286,-0.05381095403346598,-0.468312,-19.76255
11.185,2.0,1.0,1.0,33.4,33.5,33.5,2.8,2.9,2.8,-0.15195175557337312,-0.08954769468929426,0.9331526916600431,-0.057503189069810515,-0.487289,-19.459462
11.185,2.0,1.0,1.0,33.4,33.5,33.5,2.8,2.9,2.8025,-0.16853593510272422,-0.09156452309488484,0.9280559279681153,-0.06145049762926473,-0.507602,-19.150584
11.185,2.0,1.0,1.0,33.4,33.5,33.5,2.8,2.9,2.805,-0.18527960738764693,-0.09360333981750324,0.9224489117450723,-0.06567449370217182,-0.529387,-18.835675
11.185,2.0,1.0,1.0,33.4,33.5,33.5,2.8,2.9,2.8075,-0.20217554418014128,-0.09565799323475793,0.9163005421164799,-0.0701989926732655,-0.552797,-18.514482
11.185,2.0,1.0,1.0,33.4,33.5,33.5,2.8,2.9,2.81,-0.21921477307332787,-0.09772076706644797,0.9095770531619561,-0.07505026117050483,-0.578006,-18.186742
11.185,2.0,1.0,1.0,33.4,33.5,33.5,2.8,2.9,2.8125,-0.236386225437688,-0.0997820416256862,0.902241731213562,-0.0802572941243266,-0.605214,-17.852174
11.185,2.0,1.0,1.0,33.4,33.5,33.5,2.8,2.9,2.815,-0.25367630735567376,-0.10182987927566524,0.8942546036867794,-0.08585212035842749,-0.634647,-17.510486
11.185,2.0,1.0,1.0,33.4,33.5,33.5,2.8,2.9,2.8175,-0.2710683754236244,-0.10384951612356087,0.8855720991078244,-0.09187013714350803,-0.666565,-17.161372
11.185,2.0,1.0,1.0,33.4,33.5,33.5,2.8,2.9,2.82,-0.2885420948125417,-0.10582273753133827,0.8761466795304121,-0.09835047265399731,-0.701268,-16.804512
11.185,2.0,1.0,1.0,33.4,33.5,33.5,2.8,2.9,2.8225,-0.3060726513950996,-0.10772710946729745,0.8659264489753989,-0.10533637287918776,-0.739102,-16.439573
11.185,2.0,1.0,1.0,33.4,33.5,33.5,2.8,2.9,2.825,-0.3236297828117984,-0.10953503081761162,0.8548547453126676,-0.1128756058245303,-0.780469,-16.066209
11.185,2.0,1.0,1.0,33.4,33.5,33.5,2.8,2.9,2.8275,-0.34117658479631935,-0.11121256325363107,0.8428697287663051,-0.12102087017250955,-0.825833,-15.684065
