1,w,sub_t,h,l1,l2,l3,g1,g2,Freq,S11_re,S21_re,S11_img,S21_img,S11_dB,S21_dB
11.185,2.0,1.0,1.0,33.8,34.0,34.0,1.5,3.3,2.5,0.797850801993354,-0.0143123576303021,0.588603996120605,0.010983162942677,-0.074374,-34.874844
11.185,2.0,1.0,1.0,33.8,34.0,34.0,1.5,3.3,2.5025,0.7932900404577845,-0.014615207230849265,0.5945714685974893,0.011024589243411792,-0.075241,-34.747662
11.185,2.0,1.0,1.0,33.8,34.0,34.0,1.5,3.3,2.505,0.7886584614936174,-0.014924111532434926,0.600534764614437,0.011064179910960158,-0.076126,-34.619982
11.185,2.0,1.0,1.0,33.8,34.0,34.0,1.5,3.3,2.5075,0.783955210351108,-0.015239206380101728,0.6064934036945367,0.011101840600613177,-0.077028,-34.491796
11.185,2.0,1.0,1.0,33.8,34.0,34.0,1.5,3.3,2.51,0.7791794175142208,-0.015560631162418124,0.6124468887796417,0.011137472864693148,-0.077949,-34.363095
11.185,2.0,1.0,1.0,33.8,34.0,34.0,1.5,3.3,2.5125,0.7743301984416804,-0.01588852891263065,0.6183947056302659,0.011170973963828677,-0.078888,-34.233869
11.185,2.0,1.0,1.0,33.8,34.0,34.0,1.5,3.3,2.515,0.7694066533047561,-0.01622304641268676,0.6243363222022561,0.011202236668755408,-0.079847,-34.104108
11.185,2.0,1.0,1.0,33.8,34.0,34.0,1.5,3.3,2.5175,0.7644078667218834,-0.016564334300188253,0.6302711879992401,0.011231149052119142,-0.080826,-33.973803
11.185,2.0,1.0,1.0,33.8,34.0,34.0,1.5,3.3,2.52,0.7593329074901861,-0.01691254717833401,0.6361987333998044,0.011257594269727644,-0.081826,-33.842943
11.185,2.0,1.0,1.0,33.8,34.0,34.0,1.5,3.3,2.5225,0.7541808283140385,-0.017267843728907075,0.6421183689582873,0.011281450330662244,-0.082846,-33.711519
11.185,2.0,1.0,1.0,33.8,34.0,34.0,1.5,3.3,2.525,0.7489506655307586,-0.017630386828361082,0.6480294846780399,0.01130258985562599,-0.083889,-33.579521
11.185,2.0,1.0,1.0,33.8,34.0,34.0,1.5,3.3,2.5275,0.7436414388335822,-0.01800034366705591,0.6539314492559416,0.011320879822864994,-0.084953,-33.446937
11.185,2.0,1.0,1.0,33.8,34.0,34.0,1.5,3.3,2.53,0.7382521509920751,-0.018377885871689117,0.6598236092968807,0.011336181300960006,-0.08604,-33.313758
11.185,2.0,1.0,1.0,33.8,34.0,34.0,1.5,3.3,2.5325,0.7327817875701577,-0.018763189630965803,0.6657052884968732,0.011348349167740536,-0.087151,-33.179973
11.185,2.0,1.0,1.0,33.8,34.0,34.0,1.5,3.3,2.535,0.7272293166419243,-0.019156435824543787,0.6715757867934063,0.01135723181452784,-0.088287,-33.045571
11.185,2.0,1.0,1.0,33.8,34.0,34.0,1.5,3.3,2.5375,0.7215936885054995,-0.01955781015528441,0.6774343794815179,0.01136267083486208,-0.089447,-32.91054
11.185,2.0,1.0,1.0,33.8,34.0,34.0,1.5,3.3,2.54,0.7158738353951563,-0.019967503284833557,0.6832803162940654,0.011364500696816712,-0.090633,-32.77487
11.185,2.0,1.0,1.0,33.8,34.0,34.0,1.5,3.3,2.5425,0.7100686711919725,-0.020385710972547468,0.6891128204445363,0.011362548397945592,-0.091845,-32.638548
11.185,2.0,1.0,1.0,33.8,34.0,34.0,1.5,3.3,2.545,0.7041770911333267,-0.020812634217769826,0.6949310876306802,0.011356633101846597,-0.093084,-32.501564
11.185,2.0,1.0,1.0,33.8,34.0,34.0,1.5,3.3,2.5475,0.6981979715215758,-0.021248479405454282,0.7007342849971394,0.0113465657552614,-0.094352,-32.363905
11.185,2.0,1.0,1.0,33.8,34.0,34.0,1.5,3.3,2.55,0.6921301694322604,-0.021693458455116225,0.706521550055176,0.011332148684560037,-0.095649,-32.22556
11.185,2.0,1.0,1.0,33.8,34.0,34.0,1.5,3.3,2.5525,0.6859725224222771,-0.0221477889730804,0.7122919895574633,0.011313175170384776,-0.096975,-32.086515
11.185,2.0,1.0,1.0,33.8,34.0,34.0,1.5,3.3,2.555,0.6797238482384371,-0.022611694407977848,0.7180446783258253,0.011289428999146736,-0.098332,-31.946759
11.185,2.0,1.0,1.0,33.8,34.0,34.0,1.5,3.3,2.5575,0.6733829445269207,-0.02308540420942545,0.7237786580296944,0.011260683989984052,-0.09972,-31.806279
11.185,2.0,1.0,1.0,33.8,34.0,34.0,1.5,3.3,2.56,0.6669485885441737,-0.023569153989801025,0.7294929359128981,0.011226703495696223,-0.101142,-31.665062
11.185,2.0,1.0,1.0,33.8,34.0,34.0,1.5,3.3,2.5625,0.6604195368698366,-0.024063185689003282,0.735186483466293,0.011187239876072844,-0.102597,-31.523094
11.185,2.0,1.0,1.0,33.8,34.0,34.0,1.5,3.3,2.565,0.6537945251223697,-0.02456774774206057,0.7408582350436207,0.011142033941926916,-0.104086,-31.380362
11.185,2.0,1.0,1.0,33.8,34.0,34.0,1.5,3.3,2.5675,0.647072267678101,-0.025083095249420095,0.7465070864177822,0.011090814368029918,-0.105612,-31.236852
11.185,2.0,1.0,1.0,33.8,34.0,34.0,1.5,3.3,2.57,0.6402514573944823,-0.02560949014971814,0.7521318932745976,0.011033297073024334,-0.107174,-31.092551
11.185,2.0,1.0,1.0,33.8,34.0,34.0,1.5,3.3,2.5725,0.6333307653384267,-0.02614720139479249,0.7577314696409534,0.010969184564256433,-0.108774,-30.947444
11.185,2.0,1.0,1.0,33.8,34.0,34.0,1.5,3.3,2.575,0.6263088405206886,-0.02669650512665583,0.7633045862440244,0.010898165245333238,-0.110414,-30.801516
11.185,2.0,1.0,1.0,33.8,34.0,34.0,1.5,3.3,2.5775,0.6191843096373227,-0.02725768485610113,0.7688499687981118,0.010819912684053985,-0.112095,-30.654753
11.185,2.0,1.0,1.0,33.8,34.0,34.0,1.5,3.3,2.58,0.6119557768193863,-0.027831031642556004,0.7743662962153934,0.01073408483820546,-0.113817,-30.50714
11.185,2.0,1.0,1.0,33.8,34.0,34.0,1.5,3.3,2.5825,0.6046218233921289,-0.028416844274743544,0.7798521987367002,0.010640323236533607,-0.115583,-30.35866
11.185,2.0,1.0,1.0,33.8,34.0,34.0,1.5,3.3,2.585,0.5971810076450518,-0.029015429451637587,0.7853062559781617,0.01053825211201639,-0.117394,-30.209299
11.185,2.0,1.0,1.0,33.8,34.0,34.0,1.5,3.3,2.5875,0.5896318646143585,-0.029627101963127133,0.7907269948893545,0.010427477484359347,-0.119251,-30.05904
11.185,2.0,1.0,1.0,33.8,34.0,34.0,1.5,3.3,2.59,0.5819729058794476,-0.030252184869716207,0.7961128876182896,0.010307586188416713,-0.121157,-29.907867
11.185,2.0,1.0,1.0,33.8,34.0,34.0,1.5,3.3,2.5925,0.5742026193752565,-0.03089100968049316,0.801462349278301,0.010178144845005668,-0.123112,-29.755763
11.185,2.0,1.0,1.0,33.8,34.0,34.0,1.5,3.3,2.595,0.5663194692224757,-0.031543916528493865,0.8067737356115935,0.010038698770326744,-0.125118,-29.60271
11.185,2.0,1.0,1.0,33.8,34.0,34.0,1.5,3.3,2.5975,0.5583218955777838,-0.03221125434246554,0.8120453405438862,0.009888770819930892,-0.127177,-29.448692
11.185,2.0,1.0,1.0,33.8,34.0,34.0,1.5,3.3,2.6,0.5502083145065202,-0.03289338101390249,0.8172753936242215,0.009727860162876762,-0.129292,-29.29369
11.185,2.0,1.0,1.0,33.8,34.0,34.0,1.5,3.3,2.6025,0.5419771178804269,-0.03359066355807398,0.8224620573436544,0.009555440981405318,-0.131463,-29.137687
11.185,2.0,1.0,1.0,33.8,34.0,34.0,1.5,3.3,2.605,0.533626673303324,-0.03430347826759811,0.8276034243261056,0.009370961091113178,-0.133694,-28.980662
11.185,2.0,1.0,1.0,33.8,34.0,34.0,1.5,3.3,2.6075,0.5251553240679072,-0.03503221085692431,0.8326975143842812,0.009173840476235574,-0.135986,-28.822598
11.185,2.0,1.0,1.0,33.8,34.0,34.0,1.5,3.3,2.61,0.5165613891471312,-0.03577725659587654,0.8377422714330189,0.008963469734249763,-0.138341,-28.663475
11.185,2.0,1.0,1.0,33.8,34.0,34.0,1.5,3.3,2.6125,0.5078431632240082,-0.03653902043017202,0.8427355602520107,0.008739208423574231,-0.140762,-28.503272
11.185,2.0,1.0,1.0,33.8,34.0,34.0,1.5,3.3,2.615,0.49899891676400104,-0.03731791708656413,0.8476751630892443,0.008500383307672998,-0.143252,-28.341969
11.185,2.0,1.0,1.0,33.8,34.0,34.0,1.5,3.3,2.6175,0.4900268961346597,-0.03811437115995985,0.85255877609598,0.00824628648836619,-0.145812,-28.179546
11.185,2.0,1.0,1.0,33.8,34.0,34.0,1.5,3.3,2.62,0.48092532377754754,-0.03892881717952679,0.8573840055834121,0.007976173420601652,-0.148447,-28.01598
11.185,2.0,1.0,1.0,33.8,34.0,34.0,1.5,3.3,2.6225,0.47169239843806504,-0.03976169965043171,0.862148364090561,0.007689260800348286,-0.151157,-27.85125
11.185,2.0,1.0,1.0,33.8,34.0,34.0,1.5,3.3,2.625,0.462326295459341,-0.0406134730674275,0.866849266252153,0.00738472431663247,-0.153947,-27.685334
11.185,2.0,1.0,1.0,33.8,34.0,34.0,1.5,3.3,2.6275,0.4528251671469396,-0.04148460189603652,0.8714840244545382,0.007061696258042602,-0.15682,-27.518207
11.185,2.0,1.0,1.0,33.8,34.0,34.0,1.5,3.3,2.63,0.44318714321190755,-0.04237556051654411,0.8760498442668103,0.006719262963276535,-0.159779,-27.349848
11.185,2.0,1.0,1.0,33.8,34.0,34.0,1.5,3.3,2.6325,0.43341033130039197,-0.04328683312541955,0.8805438196334415,0.006356462104492225,-0.162827,-27.18023
11.185,2.0,1.0,1.0,33.8,34.0,34.0,1.5,3.3,2.635,0.4234928176189509,-0.04421891358811219,0.884962927813746,0.005972279791339533,-0.165968,-27.00933
11.185,2.0,1.0,1.0,33.8,34.0,34.0,1.5,3.3,2.6375,0.41343266766564524,-0.04517230523641214,0.8893040240524555,0.00556564748259718,-0.169205,-26.837122
11.185,2.0,1.0,1.0,33.8,34.0,34.0,1.5,3.3,2.64,0.40322792707802724,-0.04614752060272084,0.8935638359645808,0.0051354386913009115,-0.172544,-26.66358
11.185,2.0,1.0,1.0,33.8,34.0,34.0,1.5,3.3,2.6425,0.39287662261036554,-0.0471450810826142,0.8977389576164984,0.004680465468130711,-0.175988,-26.488677
11.185,2.0,1.0,1.0,33.8,34.0,34.0,1.5,3.3,2.645,0.38237676325375086,-0.04816551651600936,0.9018258432838994,0.00419947464660564,-0.179542,-26.312386
11.185,2.0,1.0,1.0,33.8,34.0,34.0,1.5,3.3,2.6475,0.3717263415142206,-0.049209364676027594,0.9058208008658503,0.0036911438323200684,-0.18321,-26.134678
11.185,2.0,1.0,1.0,33.8,34.0,34.0,1.5,3.3,2.65,0.3609233348656464,-0.050277170653281515,0.9097199849326667,0.0031540771170252132,-0.186997,-25.955525
11.185,2.0,1.0,1.0,33.8,34.0,34.0,1.5,3.3,2.6525,0.3499657073960617,-0.051369486121762016,0.9135193893836709,0.0025868004968150476,-0.190909,-25.774897
11.185,2.0,1.0,1.0,33.8,34.0,34.0,1.5,3.3,2.655,0.3388514116680701,-0.05248686847076549,0.9172148396891259,0.0019877569719976037,-0.194952,-25.592762
11.185,2.0,1.0,1.0,33.8,34.0,34.0,1.5,3.3,2.6575,0.3275783908163688,-0.05362987978532176,0.9208019846887605,0.0013553013044194243,-0.19913,-25.409091
11.185,2.0,1.0,1.0,33.8,34.0,34.0,1.5,3.3,2.66,0.31614458090799225,-0.05479908565535979,0.9242762879171958,0.0006876944060447545,-0.203451,-25.22385
11.185,2.0,1.0,1.0,33.8,34.0,34.0,1.5,3.3,2.6625,0.3045479135937979,-0.055995053791323246,0.9276330184243883,-1.690266953330682e-05,-0.207921,-25.037006
11.185,2.0,1.0,1.0,33.8,34.0,34.0,1.5,3.3,2.665,0.2927863190829924,-0.05721835242109644,0.93086724105684,-0.0007604351632753328,-0.212547,-24.848526
11.185,2.0,1.0,1.0,33.8,34.0,34.0,1.5,3.3,2.6675,0.2808577294762006,-0.05846954843986094,0.9339738061626902,-0.001544961507677026,-0.217336,-24.658374
11.185,2.0,1.0,1.0,33.8,34.0,34.0,1.5,3.3,2.67,0.2687600824967256,-0.05974920528084067,0.9369473386811217,-0.002372660720342459,-0.222296,-24.466514
11.185,2.0,1.0,1.0,33.8,34.0,34.0,1.5,3.3,2.6725,0.25649132566431776,-0.06105788047072833,0.9397822265734553,-0.0032458403328317086,-0.227437,-24.27291
11.185,2.0,1.0,1.0,33.8,34.0,34.0,1.5,3.3,2.675,0.24404942096109103,-0.06239612282885897,0.9424726085502206,-0.004166944896581542,-0.232765,-24.077522
11.185,2.0,1.0,1.0,33.8,34.0,34.0,1.5,3.3,2.6775,0.23143235004516216,-0.06376446926382756,0.9450123610449519,-0.005138565111047629,-0.238292,-23.880312
11.185,2.0,1.0,1.0,33.8,34.0,34.0,1.5,3.3,2.68,0.21863812007435476,-0.06516344111513776,0.9473950843819544,-0.006163447622811722,-0.244027,-23.68124
11.185,2.0,1.0,1.0,33.8,34.0,34.0,1.5,3.3,2.6825,0.20566477020996177,-0.06659353998051491,0.9496140880812841,-0.007244505548243056,-0.249981,-23.480263
11.185,2.0,1.0,1.0,33.8,34.0,34.0,1.5,3.3,2.685,0.19251037887919212,-0.06805524296159805,0.9516623752400933,-0.008384829776413645,-0.256166,-23.277339
11.185,2.0,1.0,1.0,33.8,34.0,34.0,1.5,3.3,2.6875,0.17917307188478548,-0.06954899725169512,0.9535326259251442,-0.009587701113334604,-0.262593,-23.072423
11.185,2.0,1.0,1.0,33.8,34.0,34.0,1.5,3.3,2.69,0.16565103146142107,-0.07107521397898187,0.9552171795066137,-0.010856603333210599,-0.269275,-22.865471
11.185,2.0,1.0,1.0,33.8,34.0,34.0,1.5,3.3,2.6925,0.1519425063911786,-0.07263426120676578,0.9567080158585233,-0.01219523720729114,-0.276228,-22.656435
11.185,2.0,1.0,1.0,33.8,34.0,34.0,1.5,3.3,2.695,0.138045823304841,-0.07422645597898721,0.9579967353460561,-0.013607535586003755,-0.283464,-22.445267
11.185,2.0,1.0,1.0,33.8,34.0,34.0,1.5,3.3,2.6975,0.12395939931211909,-0.07585205528376368,0.9590745375148064,-0.01509767961537401,-0.291002,-22.231918
11.185,2.0,1.0,1.0,33.8,34.0,34.0,1.5,3.3,2.7,0.10968175612272427,-0.07751124579017857,0.9599321983916972,-0.016670116174193693,-0.298857,-22.016335
11.185,2.0,1.0,1.0,33.8,34.0,34.0,1.5,3.3,2.7025,0.09521153584149573,-0.07920413219336905,0.9605600463019259,-0.018329576623962486,-0.307049,-21.798466
11.185,2.0,1.0,1.0,33.8,34.0,34.0,1.5,3.3,2.705,0.08054751864525592,-0.0809307239798572,0.9609479361009652,-0.02008109696916644,-0.315596,-21.578257
11.185,2.0,1.0,1.0,33.8,34.0,34.0,1.5,3.3,2.7075,0.06568864257692368,-0.08269092039857413,0.961085221715583,-0.021930039530877108,-0.324521,-21.355652
11.185,2.0,1.0,1.0,33.8,34.0,34.0,1.5,3.3,2.71,0.05063402572434021,-0.08448449339260257,0.9609607268830503,-0.023882116241757314,-0.333846,-21.130591
11.185,2.0,1.0,1.0,33.8,34.0,34.0,1.5,3.3,2.7125,0.03538299108783655,-0.08631106821172879,0.9605627139736967,-0.025943413675141542,-0.343597,-20.903017
11.185,2.0,1.0,1.0,33.8,34.0,34.0,1.5,3.3,2.715,0.019935094482396894,-0.08817010138573643,0.959878850778608,-0.028120419924600175,-0.353799,-20.672866
11.185,2.0,1.0,1.0,33.8,34.0,34.0,1.5,3.3,2.7175,0.004290155868340172,-0.09006085569220434,0.9588961751426601,-0.030420053452930033,-0.364481,-20.440076
11.185,2.0,1.0,1.0,33.8,34.0,34.0,1.5,3.3,2.72,-0.011551705440493517,-0.09198237169945078,0.9576010573228663,-0.03284969403031903,-0.375676,-20.20458
11.185,2.0,1.0,1.0,33.8,34.0,34.0,1.5,3.3,2.7225,-0.027590031178853645,-0.09393343540414276,0.9559791599546913,-0.03541721587988599,-0.387416,-19.966313
11.185,2.0,1.0,1.0,33.8,34.0,34.0,1.5,3.3,2.725,-0.04382397955758008,-0.09591254141271022,0.9540153955148818,-0.03813102314403123,-0.399738,-19.725203
11.185,2.0,1.0,1.0,33.8,34.0,34.0,1.5,3.3,2.7275,-0.060252275048315714,-0.09791785103470493,0.9516938811797354,-0.04100008777604797,-0.412682,-19.48118
11.185,2.0,1.0,1.0,33.8,34.0,34.0,1.5,3.3,2.73,-0.07687315176130487,-0.09994714456295443,0.9489978909940406,-0.04403398994681059,-0.426291,-19.234169
11.185,2.0,1.0,1.0,33.8,34.0,34.0,1.5,3.3,2.7325,-0.09368428954220384,-0.10199776690800627,0.9459098052898254,-0.04724296103443079,-0.440612,-18.984096
11.185,2.0,1.0,1.0,33.8,34.0,34.0,1.5,3.3,2.735,-0.11068274178739128,-0.1040665656308075,0.9424110573278391,-0.050637929233306914,-0.455697,-18.730881
11.185,2.0,1.0,1.0,33.8,34.0,34.0,1.5,3.3,2.7375,-0.1278648538323025,-0.10614982027550389,0.9384820771811457,-0.05423056777526506,-0.471601,-18.474445
11.185,2.0,1.0,1.0,33.8,34.0,34.0,1.5,3.3,2.74,-0.1452261706010249,-0.10824316174102691,0.9341022329430588,-0.058033345695960525,-0.488386,-18.214705
11.185,2.0,1.0,1.0,33.8,34.0,34.0,1.5,3.3,2.7425,-0.16276133201500517,-0.11034148024288554,0.9292497694251406,-0.06205958099998219,-0.506118,-17.951577
11.185,2.0,1.0,1.0,33.8,34.0,34.0,1.5,3.3,2.745,-0.18046395444110308,-0.1124388202021014,0.923901744621084,-0.06632349597255827,-0.52487,-17.684974
11.185,2.0,1.0,1.0,33.8,34.0,34.0,1.5,3.3,2.7475,-0.1983264962110364,-0.11452826015315593,0.9180339643559777,-0.07084027424737843,-0.544724,-17.414808
11.185,2.0,1.0,1.0,33.8,34.0,34.0,1.5,3.3,2.75,-0.216340104962101,-0.116601775483615,0.911620915726789,-0.0756261190599596,-0.565768,-17.140989
11.185,2.0,1.0,1.0,33.8,34.0,34.0,1.5,3.3,2.7525,-0.23449444422946394,-0.11865008150123733,0.9046357001801165,-0.08069831188303705,-0.5881,-16.863424
11.185,2.0,1.0,1.0,33.8,34.0,34.0,1.5,3.3,2.755,-0.2527774963602538,-0.12066245396655725,0.8970499673816057,-0.08607527034070304,-0.611826,-16.58202
11.185,2.0,1.0,1.0,33.8,34.0,34.0,1.5,3.3,2.7575,-0.27117533841668184,-0.12262652382746005,0.8888338514253548,-0.09177660391398162,-0.637066,-16.296681
11.185,2.0,1.0,1.0,33.8,34.0,34.0,1.5,3.3,2.76,-0.28967188728797505,-0.12452804244550847,0.8799559114334343,-0.0978231654603183,-0.663952,-16.007313
11.185,2.0,1.0,1.0,33.8,34.0,34.0,1.5,3.3,2.7625,-0.3082486097401393,-0.12635061311206894,0.8703830792324659,-0.10423709594602612,-0.692629,-15.713818
11.185,2.0,1.0,1.0,33.8,34.0,34.0,1.5,3.3,2.765,-0.3268841926018769,-0.12807538411891117,0.8600806175999005,-0.11104185900026234,-0.723259,-15.4161
11.185,2.0,1.0,1.0,33.8,34.0,34.0,1.5,3.3,2.7675,-0.3455541677233879,-0.12968069808091717,0.8490120935893141,-0.11826226090012705,-0.756022,-15.114063
11.185,2.0,1.0,1.0,33.8,34.0,34.0,1.5,3.3,2.77,-0.36423048576804223,-0.13114169162274072,0.8371393727222323,-0.1259244503379422,-0.79112,-14.807614
11.185,2.0,1.0,1.0,33.8,34.0,34.0,1.5,3.3,2.7725,-0.38288103233084636,-0.13242983896175745,0.8244226414362181,-0.1340558907415704,-0.828777,-14.496659
11.185,2.0,1.0,1.0,33.8,34.0,34.0,1.5,3.3,2.775,-0.4014690793641396,-0.13351243238610525,0.8108204671801051,-0.1426852959419187,-0.869244,-14.18111
11.185,2.0,1.0,1.0,33.8,34.0,34.0,1.5,3.3,2.7775,-0.41995266449124163,-0.134351992199358,0.7962899080353862,-0.15184251751935182,-0.912803,-13.860884
11.185,2.0,1.0,1.0,33.8,34.0,34.0,1.5,3.3,2.78,-0.4382838905951323,-0.1349055984717002,0.7807866868222307,-0.16155836910828755,-0.959769,-13.535901
11.185,2.0,1.0,1.0,33.8,34.0,34.0,1.5,3.3,2.7825,-0.45640813821347953,-0.13512413703075554,0.7642654484368836,-0.17186436917740824,-1.0105,-13.206094
11.185,2.0,1.0,1.0,33.8,34.0,34.0,1.5,3.3,2.785,-0.47426318394070155,-0.13495145272759304,0.7466801237936638,-0.18279237920000957,-1.065396,-12.871404
11.185,2.0,1.0,1.0,33.8,34.0,34.0,1.5,3.3,2.7875,-0.49177821949457906,-0.13432340438289717,0.7279844293449285,-0.19437410854662637,-1.124912,-12.531785
11.185,2.0,1.0,1.0,33.8,34.0,34.0,1.5,3.3,2.79,-0.5088727687090704,-0.13316681831103125,0.7081325378522689,-0.20664045073804577,-1.189561,-12.18721
11.185,2.0,1.0,1.0,33.8,34.0,34.0,1.5,3.3,2.7925,-0.5254555039559488,-0.13139834142005846,0.6870799639806043,-0.21962060778599557,-1.259925,-11.837671
11.185,2.0,1.0,1.0,33.8,34.0,34.0,1.5,3.3,2.795,-0.5414229700275548,-0.12892320124164544,0.6647847174128434,-0.23334095018011725,-1.336668,-11.483186
11.185,2.0,1.0,1.0,33.8,34.0,34.0,1.5,3.3,2.7975,-0.5566582331858545,-0.1256338897068588,0.6412087864429827,-0.24782354973310158,-1.420544,-11.123805
11.185,2.0,1.0,1.0,33.8,34.0,34.0,1.5,3.3,2.8,-0.5710294869919911,-0.12140880114399742,0.6163200260881977,-0.2630843112612019,-1.512414,-10.759614
11.185,2.0,1.0,1.0,33.8,34.0,34.0,1.5,3.3,2.8025,-0.5843886660344177,-0.11611087419409165,0.5900945360100565,-0.27913061758510804,-1.613261,-10.390745
11.185,2.0,1.0,1.0,33.8,34.0,34.0,1.5,3.3,2.805,-0.5965701453923045,-0.10958631375012388,0.5625196237559723,-0.29595839174565813,-1.724212,-10.017384
11.185,2.0,1.0,1.0,33.8,34.0,34.0,1.5,3.3,2.8075,-0.607389639429382,-0.10166350447328486,0.5335974560388367,-0.31354847258507934,-1.846558,-9.639778
11.185,2.0,1.0,1.0,33.8,34.0,34.0,1.5,3.3,2.81,-0.6166434601674542,-0.09215227382371752,0.503349501847121,-0.33186219801436423,-1.981781,-9.258254
11.185,2.0,1.0,1.0,33.8,34.0,34.0,1.5,3.3,2.8125,-0.624108354590341,-0.0808437214825554,0.471821861470696,-0.350836098968161,-2.131584,-8.873224
11.185,2.0,1.0,1.0,33.8,34.0,34.0,1.5,3.3,2.815,-0.6295422123938416,-0.0675109042621107,0.4390915484207955,-0.37037563280835223,-2.297927,-8.485203
11.185,2.0,1.0,1.0,33.8,34.0,34.0,1.5,3.3,2.8175,-0.6326860195897401,-0.051910749922071654,0.40527373777615605,-0.3903479366880299,-2.483065,-8.094828
11.185,2.0,1.0,1.0,33.8,34.0,34.0,1.5,3.3,2.82,-0.6332675241421861,-0.033787665098755894,0.37052990335860897,-0.41057367048574206,-2.689594,-7.702866
11.185,2.0,1.0,1.0,33.8,34.0,34.0,1.5,3.3,2.8225,-0.6310071669261763,-0.01287939155374646,0.3350766241585857,-0.43081815863729145,-2.920499,-7.31024
11.185,2.0,1.0,1.0,33.8,34.0,34.0,1.5,3.3,2.825,-0.6256268958061663,0.011074267462070747,0.29919463436429977,-0.45078224399457906,-3.179213,-6.918044
11.185,2.0,1.0,1.0,33.8,34.0,34.0,1.5,3.3,2.8275,-0.6168624923308839,0.038319212633864626,0.26323741165115433,-0.4700935447137642,-3.469677,-6.527553
11.185,2.0,1.0,1.0,33.8,34.0,34.0,1.5,3.3,2.83,-0.6044799560048926,0.06907074588467214,0.2276382457247878,-0.4882991571602512,-3.796399,-6.140242
