1,w,sub_t,h,l1,l2,l3,g1,g2,Freq,S11_re,S21_re,S11_img,S21_img,S11_dB,S21_dB
11.185,2.0,1.0,1.0,33.7,34.5,34.5,3.7,4.1,2.5,0.824070110539123,-0.00660005844442223,0.554604016623447,0.00378309619099064,-0.058249,-42.375271
11.185,2.0,1.0,1.0,33.7,34.5,34.5,3.7,4.1,2.5025,0.8201944566734255,-0.0067311262769906895,0.5601972073784565,0.0037885429582525153,-0.058854,-42.243086
11.185,2.0,1.0,1.0,33.7,34.5,34.5,3.7,4.1,2.505,0.8162626335990377,-0.006864780170163281,0.565787220743868,0.003793165998510479,-0.05947,-42.110309
11.185,2.0,1.0,1.0,33.7,34.5,34.5,3.7,4.1,2.5075,0.8122740603767528,-0.00700108786645312,0.5713737484527384,0.0037969318723135555,-0.060099,-41.976921
11.185,2.0,1.0,1.0,33.7,34.5,34.5,3.7,4.1,2.51,0.8082281460601599,-0.007140119625058651,0.5769564729234398,0.003799805706237184,-0.06074,-41.842906
11.185,2.0,1.0,1.0,33.7,34.5,34.5,3.7,4.1,2.5125,0.8041242894733871,-0.0072819483446524644,0.5825350669463232,0.003801751117518221,-0.061394,-41.708244
11.185,2.0,1.0,1.0,33.7,34.5,34.5,3.7,4.1,2.515,0.7999618789808796,-0.00742664969357936,0.5881091933584487,0.003802730133856764,-0.062062,-41.572917
11.185,2.0,1.0,1.0,33.7,34.5,34.5,3.7,4.1,2.5175,0.7957402922487302,-0.0075743022479932125,0.5936785047057626,0.003802703108014936,-0.062743,-41.436905
11.185,2.0,1.0,1.0,33.7,34.5,34.5,3.7,4.1,2.52,0.7914588959970192,-0.00772498763850683,0.5992426428921235,0.0038016286268098493,-0.063438,-41.300188
11.185,2.0,1.0,1.0,33.7,34.5,34.5,3.7,4.1,2.5225,0.7871170457426062,-0.007878790705975646,0.6048012388144709,0.003799463414062047,-0.064149,-41.162746
11.185,2.0,1.0,1.0,33.7,34.5,34.5,3.7,4.1,2.525,0.7827140855317258,-0.008035799667089363,0.6103539119834372,0.0037961622270202893,-0.064874,-41.024558
11.185,2.0,1.0,1.0,33.7,34.5,34.5,3.7,4.1,2.5275,0.7782493476617209,-0.008196106290502376,0.6159002701286266,0.003791677745740112,-0.065615,-40.885602
11.185,2.0,1.0,1.0,33.7,34.5,34.5,3.7,4.1,2.53,0.7737221523911681,-0.008359806084296269,0.6214399087877185,0.0037859604548442787,-0.066372,-40.745855
11.185,2.0,1.0,1.0,33.7,34.5,34.5,3.7,4.1,2.5325,0.7691318076375914,-0.008526998495637103,0.6269724108785181,0.003778958517040097,-0.067145,-40.605295
11.185,2.0,1.0,1.0,33.7,34.5,34.5,3.7,4.1,2.535,0.7644776086618775,-0.00869778712356537,0.6324973462529856,0.003770617637708413,-0.067936,-40.463898
11.185,2.0,1.0,1.0,33.7,34.5,34.5,3.7,4.1,2.5375,0.7597588377384461,-0.00887227994593932,0.6380142712322034,0.00376088091981344,-0.068744,-40.321639
11.185,2.0,1.0,1.0,33.7,34.5,34.5,3.7,4.1,2.54,0.7549747638101162,-0.009050589561644243,0.6435227281211767,0.0037496887083093783,-0.069571,-40.178494
11.185,2.0,1.0,1.0,33.7,34.5,34.5,3.7,4.1,2.5425,0.7501246421265256,-0.009232833449280484,0.6490222447022385,0.0037369784231380304,-0.070416,-40.034436
11.185,2.0,1.0,1.0,33.7,34.5,34.5,3.7,4.1,2.545,0.745207713864854,-0.009419134243653912,0.6545123337057692,0.0037226843798216546,-0.071281,-39.889438
11.185,2.0,1.0,1.0,33.7,34.5,34.5,3.7,4.1,2.5475,0.7402232057314765,-0.009609620031514695,0.6599924922567881,0.0037067375965541636,-0.072166,-39.743472
11.185,2.0,1.0,1.0,33.7,34.5,34.5,3.7,4.1,2.55,0.7351703295430337,-0.009804424668126074,0.6654622012958906,0.003689065586581754,-0.073072,-39.596511
11.185,2.0,1.0,1.0,33.7,34.5,34.5,3.7,4.1,2.5525,0.7300482817852836,-0.01000368811639289,0.6709209249728291,0.0036695921345383056,-0.073999,-39.448523
11.185,2.0,1.0,1.0,33.7,34.5,34.5,3.7,4.1,2.555,0.7248562431479055,-0.010207556810446479,0.67636811001092,0.0036482370552613054,-0.074949,-39.299479
11.185,2.0,1.0,1.0,33.7,34.5,34.5,3.7,4.1,2.5575,0.7195933780332665,-0.010416184045764701,0.6818031850402665,0.0036249159334565697,-0.075922,-39.149346
11.185,2.0,1.0,1.0,33.7,34.5,34.5,3.7,4.1,2.56,0.7142588340369589,-0.010629730398109383,0.6872255598976025,0.0035995398424049432,-0.076919,-38.998092
11.185,2.0,1.0,1.0,33.7,34.5,34.5,3.7,4.1,2.5625,0.7088517413976837,-0.010848364173789345,0.6926346248903518,0.003572015039706216,-0.077941,-38.845682
11.185,2.0,1.0,1.0,33.7,34.5,34.5,3.7,4.1,2.565,0.7033712124138111,-0.01107226189400814,0.6980297500222788,0.0035422426378343775,-0.078989,-38.692082
11.185,2.0,1.0,1.0,33.7,34.5,34.5,3.7,4.1,2.5675,0.6978163408236808,-0.011301608816334468,0.7034102841778036,0.0035101182470285252,-0.080063,-38.537253
11.185,2.0,1.0,1.0,33.7,34.5,34.5,3.7,4.1,2.57,0.6921862011463734,-0.01153659949664542,0.7087755542617971,0.0034755315877622412,-0.081165,-38.381158
11.185,2.0,1.0,1.0,33.7,34.5,34.5,3.7,4.1,2.5725,0.6864798479793565,-0.011777438395239537,0.7141248642913193,0.003438366069717339,-0.082297,-38.223757
11.185,2.0,1.0,1.0,33.7,34.5,34.5,3.7,4.1,2.575,0.6806963152490112,-0.012024340531205047,0.7194574944353866,0.003398498333828149,-0.083458,-38.06501
11.185,2.0,1.0,1.0,33.7,34.5,34.5,3.7,4.1,2.5775,0.6748346154096133,-0.012277532189562994,0.7247726999984343,0.003355797753556409,-0.084651,-37.904872
11.185,2.0,1.0,1.0,33.7,34.5,34.5,3.7,4.1,2.58,0.6688937385858574,-0.01253725168619133,0.7300697103426546,0.0033101258910951613,-0.085876,-37.7433
11.185,2.0,1.0,1.0,33.7,34.5,34.5,3.7,4.1,2.5825,0.6628726516534489,-0.012803750196082271,0.7353477277438599,0.003261335903676227,-0.087135,-37.580246
11.185,2.0,1.0,1.0,33.7,34.5,34.5,3.7,4.1,2.585,0.6567702972516993,-0.013077292651097467,0.740605926174883,0.003209271894559181,-0.088429,-37.415662
11.185,2.0,1.0,1.0,33.7,34.5,34.5,3.7,4.1,2.5875,0.650585592721335,-0.013358158714076177,0.7458434500098388,0.0031537682025988803,-0.08976,-37.249499
11.185,2.0,1.0,1.0,33.7,34.5,34.5,3.7,4.1,2.59,0.64431742895997,-0.013646643836927317,0.7510594126417688,0.003094648623512338,-0.09113,-37.081701
11.185,2.0,1.0,1.0,33.7,34.5,34.5,3.7,4.1,2.5925,0.6379646691867923,-0.013943060411213919,0.7562528950052649,0.0030317255550752404,-0.09254,-36.912216
11.185,2.0,1.0,1.0,33.7,34.5,34.5,3.7,4.1,2.595,0.6315261476070262,-0.014247739020727148,0.7614229439946291,0.002964799057459011,-0.093991,-36.740984
11.185,2.0,1.0,1.0,33.7,34.5,34.5,3.7,4.1,2.5975,0.625000667965581,-0.014561029806669382,0.7665685707669313,0.0028936558187465404,-0.095487,-36.567947
11.185,2.0,1.0,1.0,33.7,34.5,34.5,3.7,4.1,2.6,0.6183870019780214,-0.01488330395733412,0.7716887489179342,0.002818068014315712,-0.097029,-36.393039
11.185,2.0,1.0,1.0,33.7,34.5,34.5,3.7,4.1,2.6025,0.6116838876255439,-0.01521495533561262,0.7767824125172671,0.0027377920472222337,-0.098619,-36.216196
11.185,2.0,1.0,1.0,33.7,34.5,34.5,3.7,4.1,2.605,0.6048900272989473,-0.015556402259296519,0.7818484539873982,0.002652567154913105,-0.100259,-36.037348
11.185,2.0,1.0,1.0,33.7,34.5,34.5,3.7,4.1,2.6075,0.5980040857747241,-0.015908089451011898,0.7868857218088285,0.002562113865514653,-0.101952,-35.856422
11.185,2.0,1.0,1.0,33.7,34.5,34.5,3.7,4.1,2.61,0.591024688004218,-0.01627049017674979,0.7918930180314524,0.002466132284516611,-0.103701,-35.673342
11.185,2.0,1.0,1.0,33.7,34.5,34.5,3.7,4.1,2.6125,0.5839504166943155,-0.0166441085943925,0.7968690955691823,0.002364300189850395,-0.105509,-35.488028
11.185,2.0,1.0,1.0,33.7,34.5,34.5,3.7,4.1,2.615,0.5767798096553046,-0.01702948233642123,0.8018126552515714,0.002256270910066759,-0.107378,-35.300396
11.185,2.0,1.0,1.0,33.7,34.5,34.5,3.7,4.1,2.6175,0.569511356888294,-0.017427185354185314,0.806722342602266,0.0021416709564645027,-0.109312,-35.110356
11.185,2.0,1.0,1.0,33.7,34.5,34.5,3.7,4.1,2.62,0.5621434973808205,-0.01783783105478671,0.8115967443095339,0.00202009737550032,-0.111314,-34.917815
11.185,2.0,1.0,1.0,33.7,34.5,34.5,3.7,4.1,2.6225,0.5546746155749783,-0.018262075765859326,0.8164343843487335,0.0018911147824921596,-0.113389,-34.722674
11.185,2.0,1.0,1.0,33.7,34.5,34.5,3.7,4.1,2.625,0.547103037467439,-0.0187006225683974,0.821233719710222,0.00175425203135689,-0.115541,-34.524829
11.185,2.0,1.0,1.0,33.7,34.5,34.5,3.7,4.1,2.6275,0.5394270262949514,-0.019154225543422262,0.8259931356787177,0.0016089984677011822,-0.117773,-34.32417
11.185,2.0,1.0,1.0,33.7,34.5,34.5,3.7,4.1,2.63,0.5316447777522906,-0.019623694484797234,0.8307109406012071,0.0014547997037842179,-0.120091,-34.120581
11.185,2.0,1.0,1.0,33.7,34.5,34.5,3.7,4.1,2.6325,0.5237544146818692,-0.020109900138068317,0.8353853600699062,0.0012910528433925847,-0.1225,-33.913939
11.185,2.0,1.0,1.0,33.7,34.5,34.5,3.7,4.1,2.635,0.5157539811652518,-0.020613780034002722,0.8400145304341604,0.0011171010721632954,-0.125006,-33.704112
11.185,2.0,1.0,1.0,33.7,34.5,34.5,3.7,4.1,2.6375,0.5076414359363421,-0.02113634499574095,0.8445964915400147,0.0009322275139105848,-0.127615,-33.490962
11.185,2.0,1.0,1.0,33.7,34.5,34.5,3.7,4.1,2.64,0.4994146450237738,-0.021678686410433773,0.8491291785780382,0.0007356482355102667,-0.130334,-33.274343
11.185,2.0,1.0,1.0,33.7,34.5,34.5,3.7,4.1,2.6425,0.49107137351576463,-0.022241984370212155,0.8536104128980492,0.0005265042611846507,-0.13317,-33.054097
11.185,2.0,1.0,1.0,33.7,34.5,34.5,3.7,4.1,2.645,0.4826092763239052,-0.022827516803717453,0.8580378916228854,0.00030385243074840685,-0.136132,-32.830057
11.185,2.0,1.0,1.0,33.7,34.5,34.5,3.7,4.1,2.6475,0.47402588780269794,-0.023436669738642824,0.8624091758611286,6.665490444512238e-05,-0.139227,-32.602047
11.185,2.0,1.0,1.0,33.7,34.5,34.5,3.7,4.1,2.65,0.46531861005847036,-0.02407094885834813,0.8667216772794285,-0.00018623292195182165,-0.142467,-32.369876
11.185,2.0,1.0,1.0,33.7,34.5,34.5,3.7,4.1,2.6525,0.4564846997540482,-0.0247319925422429,0.8709726427469174,-0.00045607637580959707,-0.145863,-32.133341
11.185,2.0,1.0,1.0,33.7,34.5,34.5,3.7,4.1,2.655,0.44752125318328534,-0.02542158661107001,0.8751591367050658,-0.000744277682804234,-0.149425,-31.892226
11.185,2.0,1.0,1.0,33.7,34.5,34.5,3.7,4.1,2.6575,0.43842518935149416,-0.0261416810353643,0.8792780208431816,-0.001052394773823117,-0.153168,-31.646297
11.185,2.0,1.0,1.0,33.7,34.5,34.5,3.7,4.1,2.66,0.4291932307526764,-0.026894408909319045,0.8833259305690407,-0.0013821632288395762,-0.157106,-31.395305
11.185,2.0,1.0,1.0,33.7,34.5,34.5,3.7,4.1,2.6625,0.41982188148100524,-0.027682108044350458,0.8872992476509602,-0.0017355219752441665,-0.161256,-31.13898
11.185,2.0,1.0,1.0,33.7,34.5,34.5,3.7,4.1,2.665,0.4103074022505586,-0.028507345598346497,0.8911940682658005,-0.0021146434988090538,-0.165636,-30.877033
11.185,2.0,1.0,1.0,33.7,34.5,34.5,3.7,4.1,2.6675,0.40064578182213395,-0.02937294622968947,0.8950061655086666,-0.002521969502726259,-0.170267,-30.609151
11.185,2.0,1.0,1.0,33.7,34.5,34.5,3.7,4.1,2.67,0.3908327042467537,-0.030282024351713406,0.8987309451937152,-0.002960253174719647,-0.175173,-30.334997
11.185,2.0,1.0,1.0,33.7,34.5,34.5,3.7,4.1,2.6725,0.3808635112299625,-0.031238021165582882,0.9023633934870299,-0.003432609508320667,-0.18038,-30.054203
11.185,2.0,1.0,1.0,33.7,34.5,34.5,3.7,4.1,2.675,0.3707331587964534,-0.03224474727014981,0.9058980145428958,-0.00394257549103572,-0.185917,-29.766374
11.185,2.0,1.0,1.0,33.7,34.5,34.5,3.7,4.1,2.6775,0.3604361672882378,-0.03330643178868358,0.9093287558381168,-0.0044941824449123,-0.19182,-29.471076
11.185,2.0,1.0,1.0,33.7,34.5,34.5,3.7,4.1,2.68,0.34996656355900013,-0.03442777911671751,0.9126489182803046,-0.005092043418600726,-0.198127,-29.167838
11.185,2.0,1.0,1.0,33.7,34.5,34.5,3.7,4.1,2.6825,0.3393178140307148,-0.035614034583994335,0.9158510473575874,-0.005741459331731792,-0.204882,-28.856146
11.185,2.0,1.0,1.0,33.7,34.5,34.5,3.7,4.1,2.685,0.3284827470560739,-0.036871060536088254,0.9189268005332133,-0.006448548627380087,-0.212137,-28.535436
11.185,2.0,1.0,1.0,33.7,34.5,34.5,3.7,4.1,2.6875,0.3174534627856354,-0.03820542457335571,0.9218667846779999,-0.007220406586781403,-0.219953,-28.205089
11.185,2.0,1.0,1.0,33.7,34.5,34.5,3.7,4.1,2.69,0.306221228482464,-0.039624501924962904,0.9246603554491378,-0.008065302328433839,-0.228399,-27.864423
11.185,2.0,1.0,1.0,33.7,34.5,34.5,3.7,4.1,2.6925,0.29477635698263926,-0.04113659415953747,0.9272953679860441,-0.008992924028982776,-0.237556,-27.512687
11.185,2.0,1.0,1.0,33.7,34.5,34.5,3.7,4.1,2.695,0.28310806581322134,-0.04275106659438938,0.9297578648474097,-0.010014686318563825,-0.247521,-27.149048
11.185,2.0,1.0,1.0,33.7,34.5,34.5,3.7,4.1,2.6975,0.2712043144351911,-0.04447850677513258,0.9320316823921776,-0.011144118481025615,-0.258408,-26.77258
11.185,2.0,1.0,1.0,33.7,34.5,34.5,3.7,4.1,2.7,0.25905161733279713,-0.04633090609955428,0.9340979502807041,-0.01239735855417577,-0.270354,-26.382255
11.185,2.0,1.0,1.0,33.7,34.5,34.5,3.7,4.1,2.7025,0.24663483149982984,-0.04832186577329805,0.9359344496665153,-0.013793787442772876,-0.283522,-25.97692
11.185,2.0,1.0,1.0,33.7,34.5,34.5,3.7,4.1,2.705,0.2339369187716298,-0.05046682631279535,0.9375147828230513,-0.015356849855385558,-0.29811,-25.555284
11.185,2.0,1.0,1.0,33.7,34.5,34.5,3.7,4.1,2.7075,0.22093868729720073,-0.052783315870182965,0.9388072887087401,-0.017115126930493038,-0.314363,-25.115895
11.185,2.0,1.0,1.0,33.7,34.5,34.5,3.7,4.1,2.71,0.2076185238068283,-0.05529120517278811,0.9397736127812971,-0.019103751332721654,-0.332578,-24.65711
11.185,2.0,1.0,1.0,33.7,34.5,34.5,3.7,4.1,2.7125,0.19395214202580172,-0.058012943023255006,0.9403668014109802,-0.021366293145289685,-0.353128,-24.17707
11.185,2.0,1.0,1.0,33.7,34.5,34.5,3.7,4.1,2.715,0.17991239773009562,-0.060973720979341964,0.9405287357511455,-0.023957299742442567,-0.376483,-23.673659
11.185,2.0,1.0,1.0,33.7,34.5,34.5,3.7,4.1,2.7175,0.16546926692773367,-0.0642014696424789,0.9401866382262621,-0.026945753544731377,-0.403239,-23.144461
11.185,2.0,1.0,1.0,33.7,34.5,34.5,3.7,4.1,2.72,0.1505901679555531,-0.06772650449273128,0.939248263971208,-0.03041983085075614,-0.434164,-22.586714
11.185,2.0,1.0,1.0,33.7,34.5,34.5,3.7,4.1,2.7225,0.1352409638921891,-0.07158048352728644,0.937595210903499,-0.03449352114674536,-0.470261,-21.997251
11.185,2.0,1.0,1.0,33.7,34.5,34.5,3.7,4.1,2.725,0.11938827180965075,-0.0757940491278432,0.9350735203362274,-0.039315924119522665,-0.512858,-21.372439
11.185,2.0,1.0,1.0,33.7,34.5,34.5,3.7,4.1,2.7275,0.10300425287745034,-0.08039198031020196,0.931480366482362,-0.045084408683412805,-0.563742,-20.708124
11.185,2.0,1.0,1.0,33.7,34.5,34.5,3.7,4.1,2.73,0.08607610389237914,-0.08538363842048419,0.9265451338466171,-0.052063306950553466,-0.625348,-19.999586
11.185,2.0,1.0,1.0,33.7,34.5,34.5,3.7,4.1,2.7325,0.06862449484730287,-0.09074447408198488,0.9199026224276422,-0.06061035719667543,-0.701061,-19.241548
11.185,2.0,1.0,1.0,33.7,34.5,34.5,3.7,4.1,2.735,0.050739139376398915,-0.09638044221933854,0.9110558577209059,-0.07121334280612819,-0.79565,-18.428295
11.185,2.0,1.0,1.0,33.7,34.5,34.5,3.7,4.1,2.7375,0.032647330453273546,-0.10205957717731465,0.8993272963457198,-0.08453801116816446,-0.915925,-17.554054
11.185,2.0,1.0,1.0,33.7,34.5,34.5,3.7,4.1,2.74,0.01484565337272547,-0.1072807217302237,0.883804159988517,-0.10148133923779096,-1.071654,-16.613918
11.185,2.0,1.0,1.0,33.7,34.5,34.5,3.7,4.1,2.7425,-0.0016504103216186134,-0.11102519553312747,0.8633080729147645,-0.12319967844336518,-1.276668,-15.605922
11.185,2.0,1.0,1.0,33.7,34.5,34.5,3.7,4.1,2.745,-0.014854806529761443,-0.11130843143739477,0.8364927634866021,-0.15100773069250856,-1.549387,-14.535449
11.185,2.0,1.0,1.0,33.7,34.5,34.5,3.7,4.1,2.7475,-0.021095631113823614,-0.10447291103229449,0.8023642083264094,-0.185854378195089,-1.909568,-13.424046
11.185,2.0,1.0,1.0,33.7,34.5,34.5,3.7,4.1,2.75,-0.0143041824909517,-0.0844962148080537,0.761878404148664,-0.226724461597711,-2.360756,-12.325206
11.185,2.0,1.0,1.0,33.7,34.5,34.5,3.7,4.1,2.7525,0.01314264748105738,-0.04386865345409259,0.7213383088553958,-0.26726375350136444,-2.835779,-11.34574
11.185,2.0,1.0,1.0,33.7,34.5,34.5,3.7,4.1,2.755,0.06444736148769613,0.020410330286363024,0.6956562327754506,-0.29260494500742895,-3.114991,-10.653287
11.185,2.0,1.0,1.0,33.7,34.5,34.5,3.7,4.1,2.7575,0.12778973557384618,0.09635695044490916,0.7025014681488011,-0.28535374119331985,-2.925673,-10.42338
11.185,2.0,1.0,1.0,33.7,34.5,34.5,3.7,4.1,2.76,0.17801575669210998,0.15898583414691708,0.7439676303326341,-0.24380435591055022,-2.327124,-10.720291
11.185,2.0,1.0,1.0,33.7,34.5,34.5,3.7,4.1,2.7625,0.19876240911524193,0.19237984994766352,0.8016239711859977,-0.1864614735996696,-1.661472,-11.440093
11.185,2.0,1.0,1.0,33.7,34.5,34.5,3.7,4.1,2.765,0.1930754855132081,0.19985880519081342,0.855814435326627,-0.13270624262751074,-1.136805,-12.399208
11.185,2.0,1.0,1.0,33.7,34.5,34.5,3.7,4.1,2.7675,0.1720099612838199,0.19246460363499568,0.8981957259180104,-0.0906038220521598,-0.776156,-13.443653
11.185,2.0,1.0,1.0,33.7,34.5,34.5,3.7,4.1,2.77,0.1444096061264614,0.17892389590497781,0.9286622476320054,-0.06012643497101204,-0.539076,-14.48197
11.185,2.0,1.0,1.0,33.7,34.5,34.5,3.7,4.1,2.7725,0.11509345974256042,0.1639552108992398,0.9497992193067474,-0.03865427913864969,-0.384057,-15.47057
11.185,2.0,1.0,1.0,33.7,34.5,34.5,3.7,4.1,2.775,0.08619927958849583,0.1496346917814137,0.964239173451686,-0.02355825496909215,-0.281735,-16.393019
11.185,2.0,1.0,1.0,33.7,34.5,34.5,3.7,4.1,2.7775,0.0585013063416353,0.13670366945602302,0.9739844060836844,-0.01284758881877635,-0.21332,-17.246206
11.185,2.0,1.0,1.0,33.7,34.5,34.5,3.7,4.1,2.78,0.032164389191829484,0.12531087952394065,0.9804220124713156,-0.00514461072678343,-0.167067,-18.032911
11.185,2.0,1.0,1.0,33.7,34.5,34.5,3.7,4.1,2.7825,0.007108204897029652,0.11536896631415458,0.984483874515881,0.0004774960375680398,-0.135601,-18.758146
11.185,2.0,1.0,1.0,33.7,34.5,34.5,3.7,4.1,2.785,-0.016830061143261545,0.10671287466757706,0.9867926918540806,0.004640506925547213,-0.114218,-19.427459
11.185,2.0,1.0,1.0,33.7,34.5,34.5,3.7,4.1,2.7875,-0.03982717954619553,0.09916612370078808,0.9877667237762097,0.00776514436085413,-0.099857,-20.046185
11.185,2.0,1.0,1.0,33.7,34.5,34.5,3.7,4.1,2.79,-0.062047381153368816,0.09256613258804251,0.9876894056842465,0.010139990633915127,-0.090487,-20.619154
11.185,2.0,1.0,1.0,33.7,34.5,34.5,3.7,4.1,2.7925,-0.08363404429861801,0.08677193444090926,0.9867545020186048,0.011966114077550938,-0.084731,-21.150599
11.185,2.0,1.0,1.0,33.7,34.5,34.5,3.7,4.1,2.795,-0.10470890102517463,0.08166466959854327,0.9850953006386761,0.013385906503160858,-0.081643,-21.644172
11.185,2.0,1.0,1.0,33.7,34.5,34.5,3.7,4.1,2.7975,-0.1253740699629961,0.07714540988442506,0.9828036117771117,0.01450185964098405,-0.080559,-22.102982
11.185,2.0,1.0,1.0,33.7,34.5,34.5,3.7,4.1,2.8,-0.14571489916846903,0.07313225787601156,0.9799422650800007,0.015388940758242613,-0.08101,-22.529654
11.185,2.0,1.0,1.0,33.7,34.5,34.5,3.7,4.1,2.8025,-0.16580279441111975,0.06955750798064886,0.9765534294493513,0.016102867371706665,-0.082658,-22.926386
11.185,2.0,1.0,1.0,33.7,34.5,34.5,3.7,4.1,2.805,-0.18569773394143418,0.06636514862930151,0.9726642164688661,0.01668572525142982,-0.085261,-23.294994
11.185,2.0,1.0,1.0,33.7,34.5,34.5,3.7,4.1,2.8075,-0.20545039638806648,0.06350876876811702,0.9682904909412453,0.017169843138803,-0.088642,-23.63696
11.185,2.0,1.0,1.0,33.7,34.5,34.5,3.7,4.1,2.81,-0.22510391947207317,0.06094984585778865,0.9634394780300249,0.017580508440619577,-0.092673,-23.953466
11.185,2.0,1.0,1.0,33.7,34.5,34.5,3.7,4.1,2.8125,-0.244695338679737,0.0586563639071328,0.958111547279659,0.0179379026693542,-0.097262,-24.245423
11.185,2.0,1.0,1.0,33.7,34.5,34.5,3.7,4.1,2.815,-0.26425676099200546,0.0566017056661035,0.9523014211978593,0.01825850583666873,-0.102345,-24.513495
11.185,2.0,1.0,1.0,33.7,34.5,34.5,3.7,4.1,2.8175,-0.2838163246418887,0.05476376813185486,0.9459989707945471,0.018556136406170074,-0.10788,-24.758116
11.185,2.0,1.0,1.0,33.7,34.5,34.5,3.7,4.1,2.82,-0.3033989884992065,0.053124258434159494,0.9391897045976922,0.01884274018329333,-0.113839,-24.979506
11.185,2.0,1.0,1.0,33.7,34.5,34.5,3.7,4.1,2.8225,-0.32302718695993404,0.05166813521743495,0.9318550202072361,0.019129006921620235,-0.120209,-25.177676
11.185,2.0,1.0,1.0,33.7,34.5,34.5,3.7,4.1,2.825,-0.34272137924151963,0.05038316779753491,0.9239722615410833,0.019424870844806267,-0.126991,-25.352439
11.185,2.0,1.0,1.0,33.7,34.5,34.5,3.7,4.1,2.8275,-0.3625005160474297,0.04925959136729762,0.9155146062000036,0.019739936627901508,-0.134192,-25.503408
