1,w,sub_t,h,l1,l2,l3,g1,g2,Freq,S11_re,S21_re,S11_img,S21_img,S11_dB,S21_dB
11.185,2.0,1.0,1.0,33.6,33.2,33.2,2.9,1.6,2.5,0.835023198448549,-0.010471844340648,0.538224377661886,0.00944471827415677,-0.057052,-37.014477
11.185,2.0,1.0,1.0,33.6,33.2,33.2,2.9,1.6,2.5025,0.8313246177646675,-0.010683673160732621,0.5438040300342606,0.009492325399123891,-0.057605,-36.898483
11.185,2.0,1.0,1.0,33.6,33.2,33.2,2.9,1.6,2.505,0.8275720037935795,-0.010899379077044993,0.549381408388396,0.00953909541567454,-0.058169,-36.782135
11.185,2.0,1.0,1.0,33.6,33.2,33.2,2.9,1.6,2.5075,0.8237648204300413,-0.011119041415832608,0.5549562346948355,0.009584984600495566,-0.058743,-36.665426
11.185,2.0,1.0,1.0,33.6,33.2,33.2,2.9,1.6,2.51,0.8199025230559291,-0.011342741487232993,0.56052822256632,0.009629947500522514,-0.059328,-36.548348
11.185,2.0,1.0,1.0,33.6,33.2,33.2,2.9,1.6,2.5125,0.8159845584050607,-0.011570562643335112,0.5660970769853385,0.009673936860317138,-0.059924,-36.430893
11.185,2.0,1.0,1.0,33.6,33.2,33.2,2.9,1.6,2.515,0.8120103644262372,-0.011802590338172879,0.5716624940225637,0.009716903546104654,-0.060531,-36.313053
11.185,2.0,1.0,1.0,33.6,33.2,33.2,2.9,1.6,2.5175,0.8079793701445194,-0.012038912189727824,0.5772241605458246,0.009758796466298354,-0.06115,-36.194821
11.185,2.0,1.0,1.0,33.6,33.2,33.2,2.9,1.6,2.52,0.8038909955207253,-0.01227961804401064,0.5827817539192777,0.009799562488332797,-0.06178,-36.076189
11.185,2.0,1.0,1.0,33.6,33.2,33.2,2.9,1.6,2.5225,0.7997446513091712,-0.012524800041305326,0.5883349416923899,0.009839146351613242,-0.062422,-35.957148
11.185,2.0,1.0,1.0,33.6,33.2,33.2,2.9,1.6,2.525,0.7955397389136485,-0.012774552684655856,0.593883381278366,0.009877490576379462,-0.063077,-35.83769
11.185,2.0,1.0,1.0,33.6,33.2,33.2,2.9,1.6,2.5275,0.7912756502416474,-0.013028972910678654,0.5994267196216162,0.009914535368270994,-0.063744,-35.717807
11.185,2.0,1.0,1.0,33.6,33.2,33.2,2.9,1.6,2.53,0.7869517675568453,-0.013288160162794183,0.60496459285384,0.009950218518366026,-0.064424,-35.597491
11.185,2.0,1.0,1.0,33.6,33.2,33.2,2.9,1.6,2.5325,0.7825674633298649,-0.01355221646696579,0.6104966259382971,0.009984475298455463,-0.065118,-35.476732
11.185,2.0,1.0,1.0,33.6,33.2,33.2,2.9,1.6,2.535,0.7781221000873177,-0.0138212465100454,0.6160224323018085,0.010017238351297513,-0.065824,-35.355523
11.185,2.0,1.0,1.0,33.6,33.2,33.2,2.9,1.6,2.5375,0.7736150302591595,-0.0140953577208247,0.6215416134540079,0.010048437575583722,-0.066545,-35.233854
11.185,2.0,1.0,1.0,33.6,33.2,33.2,2.9,1.6,2.54,0.7690455960243665,-0.014374660353897523,0.6270537585933478,0.010078000005331399,-0.06728,-35.111717
11.185,2.0,1.0,1.0,33.6,33.2,33.2,2.9,1.6,2.5425,0.7644131291549657,-0.014659267576441877,0.6325584441993434,0.0101058496833994,-0.06803,-34.989102
11.185,2.0,1.0,1.0,33.6,33.2,33.2,2.9,1.6,2.545,0.7597169508584379,-0.01494929555803645,0.6380552336105071,0.01013190752880666,-0.068794,-34.865999
11.185,2.0,1.0,1.0,33.6,33.2,33.2,2.9,1.6,2.5475,0.7549563716185358,-0.015244863563627694,0.6435436765873954,0.010156091197511666,-0.069574,-34.742401
11.185,2.0,1.0,1.0,33.6,33.2,33.2,2.9,1.6,2.55,0.7501306910345334,-0.015546094049774686,0.6490233088601937,0.01017831493629243,-0.07037,-34.618297
11.185,2.0,1.0,1.0,33.6,33.2,33.2,2.9,1.6,2.5525,0.7452391976589657,-0.01585311276429617,0.6544936516601813,0.010198489429341094,-0.071182,-34.493677
11.185,2.0,1.0,1.0,33.6,33.2,33.2,2.9,1.6,2.555,0.7402811688338812,-0.016166048849457423,0.6599542112344524,0.010216521637165223,-0.07201,-34.368531
11.185,2.0,1.0,1.0,33.6,33.2,33.2,2.9,1.6,2.5575,0.7352558705256624,-0.016485034948834663,0.6654044783431906,0.010232314627361544,-0.072856,-34.24285
11.185,2.0,1.0,1.0,33.6,33.2,33.2,2.9,1.6,2.56,0.7301625571584655,-0.016810207318003176,0.6708439277387733,0.010245767396799443,-0.073719,-34.116624
11.185,2.0,1.0,1.0,33.6,33.2,33.2,2.9,1.6,2.5625,0.7250004714463308,-0.017141705939200357,0.6762720176259595,0.010256774684723278,-0.074599,-33.989841
11.185,2.0,1.0,1.0,33.6,33.2,33.2,2.9,1.6,2.565,0.7197688442240225,-0.017479674640122633,0.6816881891023601,0.010265226776249223,-0.075499,-33.862492
11.185,2.0,1.0,1.0,33.6,33.2,33.2,2.9,1.6,2.5675,0.7144668942766723,-0.017824261217020083,0.6870918655783564,0.010271009295700068,-0.076417,-33.734565
11.185,2.0,1.0,1.0,33.6,33.2,33.2,2.9,1.6,2.57,0.7090938281682893,-0.018175617562259553,0.6924824521755886,0.010274002989183007,-0.077355,-33.60605
11.185,2.0,1.0,1.0,33.6,33.2,33.2,2.9,1.6,2.5725,0.7036488400692132,-0.018533899796536985,0.6978593351030962,0.010274083495777615,-0.078313,-33.476935
11.185,2.0,1.0,1.0,33.6,33.2,33.2,2.9,1.6,2.575,0.6981311115826029,-0.01889926840592133,0.7032218810101327,0.010271121106658627,-0.079292,-33.347209
11.185,2.0,1.0,1.0,33.6,33.2,33.2,2.9,1.6,2.5775,0.6925398115700411,-0.01927188838392718,0.7085694363146333,0.010264980511432252,-0.080292,-33.216861
11.185,2.0,1.0,1.0,33.6,33.2,33.2,2.9,1.6,2.58,0.6868740959763641,-0.019651929378813146,0.7139013265062555,0.010255520530917087,-0.081313,-33.085878
11.185,2.0,1.0,1.0,33.6,33.2,33.2,2.9,1.6,2.5825,0.6811331076538099,-0.020039565846319947,0.7192168554228607,0.01024259383554702,-0.082357,-32.954249
11.185,2.0,1.0,1.0,33.6,33.2,33.2,2.9,1.6,2.585,0.6753159761856108,-0.02043497720806127,0.7245153044992277,0.010226046648518236,-0.083425,-32.821961
11.185,2.0,1.0,1.0,33.6,33.2,33.2,2.9,1.6,2.5875,0.6694218177091403,-0.020838348015796104,0.7297959319867433,0.01020571843274108,-0.084516,-32.689002
11.185,2.0,1.0,1.0,33.6,33.2,33.2,2.9,1.6,2.59,0.6634497347387632,-0.021249868121816715,0.7350579721427178,0.010181441560591491,-0.085631,-32.55536
11.185,2.0,1.0,1.0,33.6,33.2,33.2,2.9,1.6,2.5925,0.6573988159885109,-0.021669732855695616,0.7403006343879209,0.010153040965386927,-0.086772,-32.42102
11.185,2.0,1.0,1.0,33.6,33.2,33.2,2.9,1.6,2.595,0.6512681361947592,-0.02209814320764536,0.7455231024308305,0.010120333773434714,-0.087939,-32.285969
11.185,2.0,1.0,1.0,33.6,33.2,33.2,2.9,1.6,2.5975,0.6450567559390498,-0.02253530601875026,0.7507245333570168,0.010083128915419064,-0.089133,-32.150195
11.185,2.0,1.0,1.0,33.6,33.2,33.2,2.9,1.6,2.6,0.6387637214712463,-0.022981434178346666,0.7559040566819765,0.010041226715802416,-0.090355,-32.013683
11.185,2.0,1.0,1.0,33.6,33.2,33.2,2.9,1.6,2.6025,0.6323880645332185,-0.02343674682882635,0.7610607733656302,0.009994418458822651,-0.091605,-31.876419
11.185,2.0,1.0,1.0,33.6,33.2,33.2,2.9,1.6,2.605,0.625928802183245,-0.023901469578157288,0.7661937547866028,0.009942485929561911,-0.092884,-31.738388
11.185,2.0,1.0,1.0,33.6,33.2,33.2,2.9,1.6,2.6075,0.6193849366213696,-0.02437583472042139,0.7713020416742586,0.009885200928449842,-0.094194,-31.599576
11.185,2.0,1.0,1.0,33.6,33.2,33.2,2.9,1.6,2.61,0.6127554550159457,-0.02486008146467274,0.7763846429963722,0.009822324757443933,-0.095535,-31.459967
11.185,2.0,1.0,1.0,33.6,33.2,33.2,2.9,1.6,2.6125,0.6060393293316199,-0.025354456172439744,0.7814405348001443,0.00975360767599403,-0.096909,-31.319546
11.185,2.0,1.0,1.0,33.6,33.2,33.2,2.9,1.6,2.615,0.5992355161590305,-0.025859212604194617,0.7864686590041553,0.009678788324757057,-0.098316,-31.178297
11.185,2.0,1.0,1.0,33.6,33.2,33.2,2.9,1.6,2.6175,0.5923429565465298,-0.026374612175120545,0.7914679221386631,0.009597593114870823,-0.099758,-31.036204
11.185,2.0,1.0,1.0,33.6,33.2,33.2,2.9,1.6,2.62,0.5853605758342385,-0.02690092422052385,0.7964371940314899,0.00950973558042554,-0.101236,-30.89325
11.185,2.0,1.0,1.0,33.6,33.2,33.2,2.9,1.6,2.6225,0.5782872834907798,-0.027438426271234308,0.801375306436569,0.00941491569158883,-0.10275,-30.749418
11.185,2.0,1.0,1.0,33.6,33.2,33.2,2.9,1.6,2.625,0.571121972953088,-0.0279874043393455,0.806281051601984,0.00931281912563897,-0.104303,-30.604691
11.185,2.0,1.0,1.0,33.6,33.2,33.2,2.9,1.6,2.6275,0.5638635214696693,-0.028548153214654325,0.8111531807741539,0.009203116492941612,-0.105895,-30.45905
11.185,2.0,1.0,1.0,33.6,33.2,33.2,2.9,1.6,2.63,0.5565107899477783,-0.029120976772158306,0.8159904026345568,0.009085462514669018,-0.107529,-30.312477
11.185,2.0,1.0,1.0,33.6,33.2,33.2,2.9,1.6,2.6325,0.5490626228049831,-0.02970618829096349,0.8207913816651103,0.008959495148800713,-0.109204,-30.164954
11.185,2.0,1.0,1.0,33.6,33.2,33.2,2.9,1.6,2.635,0.5415178478256373,-0.030304110784969054,0.8255547364380859,0.008824834660660363,-0.110924,-30.016461
11.185,2.0,1.0,1.0,33.6,33.2,33.2,2.9,1.6,2.6375,0.5338752760228398,-0.03091507734566648,0.8302790378260768,0.008681082633936937,-0.112689,-29.866979
11.185,2.0,1.0,1.0,33.6,33.2,33.2,2.9,1.6,2.64,0.5261337015064856,-0.0315394314974053,0.8349628071272519,0.008527820917796842,-0.114502,-29.716486
11.185,2.0,1.0,1.0,33.6,33.2,33.2,2.9,1.6,2.6425,0.5182919013581067,-0.032177527565445035,0.8396045141007158,0.008364610505327335,-0.116363,-29.564963
11.185,2.0,1.0,1.0,33.6,33.2,33.2,2.9,1.6,2.645,0.5103486355132354,-0.032829731057104065,0.8442025749064245,0.008190990338144504,-0.118275,-29.412387
11.185,2.0,1.0,1.0,33.6,33.2,33.2,2.9,1.6,2.6475,0.5023026466521257,-0.03349641905628917,0.848755349943654,0.008006476031556109,-0.120239,-29.258737
11.185,2.0,1.0,1.0,33.6,33.2,33.2,2.9,1.6,2.65,0.4941526600997062,-0.03417798063165277,0.8532611415815585,0.007810558514183902,-0.122259,-29.103989
11.185,2.0,1.0,1.0,33.6,33.2,33.2,2.9,1.6,2.6525,0.4858973837358056,-0.034874817258590415,0.8577181917747831,0.007602702575414912,-0.124335,-28.948122
11.185,2.0,1.0,1.0,33.6,33.2,33.2,2.9,1.6,2.655,0.4775355079167117,-0.03558734325522977,0.8621246795565809,0.0073823453134660945,-0.12647,-28.79111
11.185,2.0,1.0,1.0,33.6,33.2,33.2,2.9,1.6,2.6575,0.4690657054093131,-0.03631598623251164,0.8664787184011914,0.007148894476199639,-0.128667,-28.632929
11.185,2.0,1.0,1.0,33.6,33.2,33.2,2.9,1.6,2.66,0.460486631339173,-0.03706118755837035,0.870778353446582,0.006901726686119686,-0.130927,-28.473554
11.185,2.0,1.0,1.0,33.6,33.2,33.2,2.9,1.6,2.6625,0.4517969231540648,-0.03782340283593696,0.8750215585678544,0.006640185540195911,-0.133253,-28.312958
11.185,2.0,1.0,1.0,33.6,33.2,33.2,2.9,1.6,2.665,0.442995200604639,-0.03860310239556968,0.8792062332908097,0.006363579574299967,-0.135649,-28.151114
11.185,2.0,1.0,1.0,33.6,33.2,33.2,2.9,1.6,2.6675,0.4340800657441538,-0.039400771800376704,0.8833301995341689,0.006071180081088416,-0.138117,-27.987996
11.185,2.0,1.0,1.0,33.6,33.2,33.2,2.9,1.6,2.67,0.4250501029493738,-0.04021691236473199,0.8873911981679964,0.0057622187691154176,-0.14066,-27.823573
11.185,2.0,1.0,1.0,33.6,33.2,33.2,2.9,1.6,2.6725,0.41590387896504816,-0.04105204168508781,0.8913868853746575,0.005435885249795627,-0.143281,-27.657817
11.185,2.0,1.0,1.0,33.6,33.2,33.2,2.9,1.6,2.675,0.4066399429746754,-0.041906694182150275,0.8953148287974318,0.0050913243375537215,-0.145984,-27.490697
11.185,2.0,1.0,1.0,33.6,33.2,33.2,2.9,1.6,2.6775,0.3972568267006213,-0.04278142165320452,0.8991725034604705,0.004727633147070197,-0.148772,-27.322182
11.185,2.0,1.0,1.0,33.6,33.2,33.2,2.9,1.6,2.68,0.38775304453705367,-0.043676793833044854,0.9029572874422641,0.004343857969954956,-0.151648,-27.152239
11.185,2.0,1.0,1.0,33.6,33.2,33.2,2.9,1.6,2.6825,0.3781270937196554,-0.04459339896156772,0.9066664572830331,0.003938990911426311,-0.154618,-26.980835
11.185,2.0,1.0,1.0,33.6,33.2,33.2,2.9,1.6,2.685,0.3683774545366018,-0.04553184435562681,0.9102971831045649,0.003511966265623009,-0.157685,-26.807934
11.185,2.0,1.0,1.0,33.6,33.2,33.2,2.9,1.6,2.6875,0.3585025905859318,-0.04649275698218766,0.9138465234188855,0.0030616566060111027,-0.160854,-26.633501
11.185,2.0,1.0,1.0,33.6,33.2,33.2,2.9,1.6,2.69,0.34850094908520357,-0.04747678402917867,0.9173114195997556,0.0025868685649329914,-0.164129,-26.4575
11.185,2.0,1.0,1.0,33.6,33.2,33.2,2.9,1.6,2.6925,0.33837096124013927,-0.048484593469660525,0.9206886899883666,0.0020863382736547365,-0.167515,-26.279891
11.185,2.0,1.0,1.0,33.6,33.2,33.2,2.9,1.6,2.695,0.32811104268002367,-0.04951687461402521,0.9239750236016314,0.001558726431268084,-0.171019,-26.100634
11.185,2.0,1.0,1.0,33.6,33.2,33.2,2.9,1.6,2.6975,0.3177195939687266,-0.050574338643872556,0.9271669734081724,0.0010026129674473438,-0.174645,-25.919689
11.185,2.0,1.0,1.0,33.6,33.2,33.2,2.9,1.6,2.7,0.3071950012016498,-0.0516577191199391,0.9302609491333916,0.00041649126031260145,-0.1784,-25.737013
11.185,2.0,1.0,1.0,33.6,33.2,33.2,2.9,1.6,2.7025,0.2965356367004337,-0.052767772454956154,0.933253209550895,-0.00020123813354564645,-0.18229,-25.552562
11.185,2.0,1.0,1.0,33.6,33.2,33.2,2.9,1.6,2.705,0.28573985981918626,-0.053905278340561864,0.9361398542128596,-0.0008522742845338385,-0.186322,-25.366289
11.185,2.0,1.0,1.0,33.6,33.2,33.2,2.9,1.6,2.7075,0.27480601787815084,-0.055071040115283985,0.9389168145667459,-0.0015384232839401987,-0.190503,-25.178147
11.185,2.0,1.0,1.0,33.6,33.2,33.2,2.9,1.6,2.71,0.26373244724334427,-0.05626588505816092,0.9415798443998556,-0.0022616062850958425,-0.194842,-24.988086
11.185,2.0,1.0,1.0,33.6,33.2,33.2,2.9,1.6,2.7125,0.25251747457369744,-0.05749066458963496,0.9441245095466838,-0.003023868257330957,-0.199347,-24.796055
11.185,2.0,1.0,1.0,33.6,33.2,33.2,2.9,1.6,2.715,0.24115941826084822,-0.058746254357897314,0.9465461767865273,-0.003827387525747562,-0.204027,-24.602001
11.185,2.0,1.0,1.0,33.6,33.2,33.2,2.9,1.6,2.7175,0.2296565900909254,-0.0600335541847648,0.9488400018504689,-0.004674486178281844,-0.208891,-24.405868
11.185,2.0,1.0,1.0,33.6,33.2,33.2,2.9,1.6,2.72,0.21800729716269585,-0.06135348784030311,0.9510009164473576,-0.005567641431060962,-0.21395,-24.207597
11.185,2.0,1.0,1.0,33.6,33.2,33.2,2.9,1.6,2.7225,0.20620984410229376,-0.0627070026096364,0.9530236142077511,-0.006509498053823903,-0.219216,-24.007129
11.185,2.0,1.0,1.0,33.6,33.2,33.2,2.9,1.6,2.725,0.1942625356218462,-0.0640950686085135,0.9549025354326441,-0.007502881969338869,-0.224699,-23.804402
11.185,2.0,1.0,1.0,33.6,33.2,33.2,2.9,1.6,2.7275,0.1821636794775367,-0.06551867779602903,0.9566318505201425,-0.008550815154515678,-0.230414,-23.599348
11.185,2.0,1.0,1.0,33.6,33.2,33.2,2.9,1.6,2.73,0.16991158989262428,-0.06697884262315745,0.9582054419277058,-0.009656531986498022,-0.236374,-23.391901
11.185,2.0,1.0,1.0,33.6,33.2,33.2,2.9,1.6,2.7325,0.1575045915226733,-0.06847659424411945,0.9596168845099716,-0.010823497194684475,-0.242593,-23.181989
11.185,2.0,1.0,1.0,33.6,33.2,33.2,2.9,1.6,2.735,0.14494102405435888,-0.07001298020371885,0.960859424052188,-0.012055425599674248,-0.24909,-22.969537
11.185,2.0,1.0,1.0,33.6,33.2,33.2,2.9,1.6,2.7375,0.1322192475460104,-0.07158906149713777,0.961925953796567,-0.013356303842885012,-0.25588,-22.754469
11.185,2.0,1.0,1.0,33.6,33.2,33.2,2.9,1.6,2.74,0.11933764863822326,-0.07320590887874137,0.9628089887330542,-0.014730414336442763,-0.262984,-22.536702
11.185,2.0,1.0,1.0,33.6,33.2,33.2,2.9,1.6,2.7425,0.10629464778703347,-0.07486459827249815,0.9635006373966256,-0.016182361692339192,-0.270422,-22.316152
11.185,2.0,1.0,1.0,33.6,33.2,33.2,2.9,1.6,2.745,0.09308870770121622,-0.0765662051077962,0.9639925708798117,-0.0177171019232672,-0.278216,-22.092731
11.185,2.0,1.0,1.0,33.6,33.2,33.2,2.9,1.6,2.7475,0.07971834320027121,-0.07831179736973265,0.9642759887310811,-0.01933997474558393,-0.286392,-21.866344
11.185,2.0,1.0,1.0,33.6,33.2,33.2,2.9,1.6,2.75,0.0661821327518642,-0.0801024271110296,0.964341581366415,-0.021056739358117,-0.294975,-21.636895
11.185,2.0,1.0,1.0,33.6,33.2,33.2,2.9,1.6,2.7525,0.05247873199862675,-0.08193912012202069,0.9641794885720497,-0.02287361411975581,-0.303996,-21.404281
11.185,2.0,1.0,1.0,33.6,33.2,33.2,2.9,1.6,2.755,0.038606889646024274,-0.08382286339370619,0.9637792536203064,-0.024797320604762512,-0.313485,-21.168396
11.185,2.0,1.0,1.0,33.6,33.2,33.2,2.9,1.6,2.7575,0.02456546615816285,-0.0857545899342308,0.9631297724565734,-0.0268351325783596,-0.323479,-20.929127
11.185,2.0,1.0,1.0,33.6,33.2,33.2,2.9,1.6,2.76,0.010353455799867212,-0.08773516040829983,0.9622192373430963,-0.02899493050736571,-0.334017,-20.686355
11.185,2.0,1.0,1.0,33.6,33.2,33.2,2.9,1.6,2.7625,-0.004029987325231509,-0.08976534095827,0.9610350742630818,-0.0312852623024895,-0.345139,-20.439957
11.185,2.0,1.0,1.0,33.6,33.2,33.2,2.9,1.6,2.765,-0.01858551845451719,-0.09184577643021792,0.9595638732957567,-0.033715411081377704,-0.356893,-20.189803
11.185,2.0,1.0,1.0,33.6,33.2,33.2,2.9,1.6,2.7675,-0.03331356561114076,-0.0939769580624073,0.957791311068348,-0.03629547084571346,-0.369331,-19.935755
11.185,2.0,1.0,1.0,33.6,33.2,33.2,2.9,1.6,2.77,-0.048214286155832724,-0.09615918448988471,0.9557020642735545,-0.03903643108251347,-0.38251,-19.677669
11.185,2.0,1.0,1.0,33.6,33.2,33.2,2.9,1.6,2.7725,-0.06328751503565046,-0.09839251466827383,0.9532797131101406,-0.04195027142999641,-0.396493,-19.415393
11.185,2.0,1.0,1.0,33.6,33.2,33.2,2.9,1.6,2.775,-0.07853270300844825,-0.10067671101066113,0.9505066333595003,-0.04505006769234563,-0.411351,-19.148769
11.185,2.0,1.0,1.0,33.6,33.2,33.2,2.9,1.6,2.7775,-0.09394884273734347,-0.10301117064924481,0.9473638756528495,-0.04835011064498481,-0.427162,-18.877626
11.185,2.0,1.0,1.0,33.6,33.2,33.2,2.9,1.6,2.78,-0.10953438017280699,-0.10539484225979338,0.9438310303133526,-0.051866039241154724,-0.444013,-18.601789
11.185,2.0,1.0,1.0,33.6,33.2,33.2,2.9,1.6,2.7825,-0.1252871080482062,-0.10782612529879476,0.9398860759784975,-0.05561499000838706,-0.462004,-18.321069
11.185,2.0,1.0,1.0,33.6,33.2,33.2,2.9,1.6,2.785,-0.14120403757794892,-0.1103027477711598,0.9355052100260388,-0.05961576460401406,-0.481243,-18.035271
11.185,2.0,1.0,1.0,33.6,33.2,33.2,2.9,1.6,2.7875,-0.1572812435286623,-0.11282161773339588,0.9306626586521776,-0.06388901767210099,-0.501855,-17.744187
11.185,2.0,1.0,1.0,33.6,33.2,33.2,2.9,1.6,2.79,-0.17351367668567846,-0.11537864259641077,0.9253304642990656,-0.0684574672941627,-0.52398,-17.447599
11.185,2.0,1.0,1.0,33.6,33.2,33.2,2.9,1.6,2.7925,-0.1898949362999386,-0.11796850886417115,0.9194782480258147,-0.07334613042758627,-0.547775,-17.145277
11.185,2.0,1.0,1.0,33.6,33.2,33.2,2.9,1.6,2.795,-0.20641699329865024,-0.12058441315444082,0.9130729444010437,-0.07858258574056827,-0.573421,-16.836978
11.185,2.0,1.0,1.0,33.6,33.2,33.2,2.9,1.6,2.7975,-0.22306985278169558,-0.1232177331014632,0.9060785066241787,-0.08419726612269962,-0.601123,-16.522449
11.185,2.0,1.0,1.0,33.6,33.2,33.2,2.9,1.6,2.8,-0.23984114148603355,-0.1258576239195144,0.8984555799436713,-0.09022378278974566,-0.631113,-16.201423
11.185,2.0,1.0,1.0,33.6,33.2,33.2,2.9,1.6,2.8025,-0.2567156023337073,-0.12849052286381452,0.890161142162192,-0.09669928218157679,-0.663661,-15.87362
11.185,2.0,1.0,1.0,33.6,33.2,33.2,2.9,1.6,2.805,-0.2736744737036385,-0.1310995393803441,0.8811481112914374,-0.10366483558470703,-0.699073,-15.538748
11.185,2.0,1.0,1.0,33.6,33.2,33.2,2.9,1.6,2.8075,-0.29069472546219033,-0.133663703169714,0.8713649225214536,-0.11116585931828196,-0.737706,-15.196504
11.185,2.0,1.0,1.0,33.6,33.2,33.2,2.9,1.6,2.81,-0.3077481167917824,-0.1361570354435931,0.8607550800094731,-0.11925255999898313,-0.779973,-14.846573
11.185,2.0,1.0,1.0,33.6,33.2,33.2,2.9,1.6,2.8125,-0.324800032174282,-0.138547400031571,0.849256694166006,-0.127980394254941,-0.826353,-14.488629
11.185,2.0,1.0,1.0,33.6,33.2,33.2,2.9,1.6,2.815,-0.34180804120259856,-0.1407950803903994,0.836802022985659,-0.1374105244326866,-0.877405,-14.12234
11.185,2.0,1.0,1.0,33.6,33.2,33.2,2.9,1.6,2.8175,-0.35872011491873185,-0.1428510156887231,0.8233170477868235,-0.14761024009229182,-0.933789,-13.74737
11.185,2.0,1.0,1.0,33.6,33.2,33.2,2.9,1.6,2.82,-0.3754724159292475,-0.14465461381056594,0.8087211312865252,-0.1586532976276963,-0.996277,-13.363384
11.185,2.0,1.0,1.0,33.6,33.2,33.2,2.9,1.6,2.8225,-0.3919865617223747,-0.146131041434887,0.7929268318115515,-0.17062010463138744,-1.065787,-12.970054
11.185,2.0,1.0,1.0,33.6,33.2,33.2,2.9,1.6,2.825,-0.40816624107348587,-0.14718787197356856,0.7758399852617729,-0.18359763804280163,-1.143407,-12.567069
11.185,2.0,1.0,1.0,33.6,33.2,33.2,2.9,1.6,2.8275,-0.4238930439525891,-0.14771095285424235,0.7573602212407045,-0.1976789306684647,-1.230437,-12.154149
11.185,2.0,1.0,1.0,33.6,33.2,33.2,2.9,1.6,2.83,-0.4390213497361188,-0.14755933819564387,0.7373821584076462,-0.21296188253224055,-1.328436,-11.731059
