1,w,sub_t,h,l1,l2,l3,g1,g2,Freq,S11_re,S21_re,S11_img,S21_img,S11_dB,S21_dB
11.185,2.0,1.0,1.0,34.7,33.4,33.4,3.2,2.7,2.5,0.663498210871757,-0.0136063169030971,0.737358856331065,0.00535151179660961,-0.070367,-36.700521
11.185,2.0,1.0,1.0,34.7,33.4,33.4,3.2,2.7,2.5025,0.6572466783084079,-0.013833051276301515,0.7428218635508458,0.005297061390285763,-0.071119,-36.587393
11.185,2.0,1.0,1.0,34.7,33.4,33.4,3.2,2.7,2.505,0.6509153855166664,-0.014062967874333303,0.7482602674527081,0.005239428281096643,-0.071884,-36.473956
11.185,2.0,1.0,1.0,34.7,33.4,33.4,3.2,2.7,2.5075,0.6445036114636526,-0.014296101313114543,0.7536731641680265,0.005178513662905867,-0.072662,-36.360206
11.185,2.0,1.0,1.0,34.7,33.4,33.4,3.2,2.7,2.51,0.6380106308869061,-0.014532486113132853,0.759059625841743,0.005114215783486482,-0.073453,-36.246138
11.185,2.0,1.0,1.0,34.7,33.4,33.4,3.2,2.7,2.5125,0.6314357145099897,-0.014772156664773044,0.764418700013843,0.0050464298526222955,-0.074257,-36.131746
11.185,2.0,1.0,1.0,34.7,33.4,33.4,3.2,2.7,2.515,0.6247781292734871,-0.015015147191350834,0.7697494089867813,0.004975047947278887,-0.075075,-36.017027
11.185,2.0,1.0,1.0,34.7,33.4,33.4,3.2,2.7,2.5175,0.6180371385821467,-0.015261491709722776,0.7750507491786551,0.004899958913752753,-0.075907,-35.901975
11.185,2.0,1.0,1.0,34.7,33.4,33.4,3.2,2.7,2.52,0.6112120025689154,-0.015511223988340922,0.7803216904619469,0.00482104826670394,-0.076754,-35.786584
11.185,2.0,1.0,1.0,34.7,33.4,33.4,3.2,2.7,2.5225,0.6043019783766849,-0.015764377502611934,0.7855611754876405,0.0047381980849754484,-0.077615,-35.67085
11.185,2.0,1.0,1.0,34.7,33.4,33.4,3.2,2.7,2.525,0.5973063204585565,-0.0160209853874163,0.790768118994552,0.004651286904098935,-0.078491,-35.554767
11.185,2.0,1.0,1.0,34.7,33.4,33.4,3.2,2.7,2.5275,0.5902242808974933,-0.016281080386632535,0.7959414071037093,0.0045601896053837675,-0.079383,-35.438331
11.185,2.0,1.0,1.0,34.7,33.4,33.4,3.2,2.7,2.53,0.583055109746264,-0.016544694799505568,0.8010798965976231,0.0044647773014838705,-0.080291,-35.321535
11.185,2.0,1.0,1.0,34.7,33.4,33.4,3.2,2.7,2.5325,0.5757980553885985,-0.016811860423689436,0.8061824141843082,0.004364917218332543,-0.081214,-35.204374
11.185,2.0,1.0,1.0,34.7,33.4,33.4,3.2,2.7,2.535,0.5684523649225276,-0.017082608494785913,0.8112477557459385,0.004260472573333407,-0.082155,-35.086843
11.185,2.0,1.0,1.0,34.7,33.4,33.4,3.2,2.7,2.5375,0.5610172845669185,-0.017356969622190892,0.8162746855719987,0.004151302449691715,-0.083112,-34.968937
11.185,2.0,1.0,1.0,34.7,33.4,33.4,3.2,2.7,2.54,0.5534920600922434,-0.01763497372105191,0.8212619355768552,0.004037261666766979,-0.084086,-34.850649
11.185,2.0,1.0,1.0,34.7,33.4,33.4,3.2,2.7,2.5425,0.5458759372766682,-0.01791664994012884,0.8262082045016519,0.003918200646324156,-0.085079,-34.731974
11.185,2.0,1.0,1.0,34.7,33.4,33.4,3.2,2.7,2.545,0.538168162388589,-0.018202026585340324,0.8311121571004684,0.003793965274557651,-0.086089,-34.612906
11.185,2.0,1.0,1.0,34.7,33.4,33.4,3.2,2.7,2.5475,0.530367982696792,-0.018491131038765915,0.8359724233106917,0.003664396759757724,-0.087118,-34.49344
11.185,2.0,1.0,1.0,34.7,33.4,33.4,3.2,2.7,2.55,0.5224746470094285,-0.01878398967286386,0.840787597407591,0.0035293314854858877,-0.088167,-34.373569
11.185,2.0,1.0,1.0,34.7,33.4,33.4,3.2,2.7,2.5525,0.5144874062430974,-0.01908062775965026,0.8455562371430708,0.0033886008591212493,-0.089235,-34.253288
11.185,2.0,1.0,1.0,34.7,33.4,33.4,3.2,2.7,2.555,0.5064055140233072,-0.01938106937457375,0.8502768628686523,0.0032420311556360924,-0.090322,-34.13259
11.185,2.0,1.0,1.0,34.7,33.4,33.4,3.2,2.7,2.5575,0.498228227317681,-0.019685337294805916,0.8549479566427194,0.0030894433564541274,-0.091431,-34.01147
11.185,2.0,1.0,1.0,34.7,33.4,33.4,3.2,2.7,2.56,0.4899548071033147,-0.019993452891651994,0.859567961322108,0.002930652983241078,-0.09256,-33.88992
11.185,2.0,1.0,1.0,34.7,33.4,33.4,3.2,2.7,2.5625,0.4815845190697232,-0.02030543601677299,0.8641352796381597,0.0027654699264718524,-0.093711,-33.767936
11.185,2.0,1.0,1.0,34.7,33.4,33.4,3.2,2.7,2.565,0.4731166343588847,-0.020621304881893697,0.8686482732573735,0.002593698268614403,-0.094884,-33.64551
11.185,2.0,1.0,1.0,34.7,33.4,33.4,3.2,2.7,2.5675,0.46455043034393967,-0.020941075931653126,0.873105261826841,0.0024151361017648526,-0.096079,-33.522635
11.185,2.0,1.0,1.0,34.7,33.4,33.4,3.2,2.7,2.57,0.4558851914481455,-0.021264763709238108,0.8775045220046821,0.0022295753395633546,-0.097298,-33.399307
11.185,2.0,1.0,1.0,34.7,33.4,33.4,3.2,2.7,2.5725,0.44712021000575225,-0.021592380714421093,0.8818442864757371,0.002036801523214529,-0.09854,-33.275516
11.185,2.0,1.0,1.0,34.7,33.4,33.4,3.2,2.7,2.575,0.43825478716651745,-0.021923937253602793,0.8861227429528225,0.0018365936214306624,-0.099806,-33.151258
11.185,2.0,1.0,1.0,34.7,33.4,33.4,3.2,2.7,2.5775,0.4292882338456368,-0.022259441281441385,0.8903380331638915,0.0016287238241097135,-0.101098,-33.026525
11.185,2.0,1.0,1.0,34.7,33.4,33.4,3.2,2.7,2.58,0.4202198717209285,-0.02259889823362562,0.8944882518255011,0.001412957329553511,-0.102415,-32.90131
11.185,2.0,1.0,1.0,34.7,33.4,33.4,3.2,2.7,2.5825,0.4110490342791504,-0.022942310850328707,0.8985714456030328,0.0011890521250247608,-0.103758,-32.775607
11.185,2.0,1.0,1.0,34.7,33.4,33.4,3.2,2.7,2.585,0.40177506791342166,-0.023289678989852885,0.9025856120581712,0.0009567587604349958,-0.105128,-32.649407
11.185,2.0,1.0,1.0,34.7,33.4,33.4,3.2,2.7,2.5875,0.3923973330737467,-0.023640999431950773,0.9065286985842044,0.000715820114946374,-0.106526,-32.522704
11.185,2.0,1.0,1.0,34.7,33.4,33.4,3.2,2.7,2.59,0.38291520547272717,-0.02399626567028053,0.9103986013297728,0.0004659711562639916,-0.107951,-32.395489
11.185,2.0,1.0,1.0,34.7,33.4,33.4,3.2,2.7,2.5925,0.37332807734859946,-0.024355467693424587,0.9141931641117469,0.00020693869238509556,-0.109406,-32.267757
11.185,2.0,1.0,1.0,34.7,33.4,33.4,3.2,2.7,2.595,0.3636353587878041,-0.02471859175386912,0.9179101773180051,-6.155888443642921e-05,-0.11089,-32.139499
11.185,2.0,1.0,1.0,34.7,33.4,33.4,3.2,2.7,2.5975,0.35383647910934635,-0.025085620124311377,0.9215473768009327,-0.00033981186176294847,-0.112405,-32.010706
11.185,2.0,1.0,1.0,34.7,33.4,33.4,3.2,2.7,2.6,0.34393088831328344,-0.02545653084062484,0.9251024427625624,-0.000628119479346127,-0.113951,-31.881372
11.185,2.0,1.0,1.0,34.7,33.4,33.4,3.2,2.7,2.6025,0.33391805859574825,-0.025831297430778416,0.9285729986323226,-0.0009267902100737285,-0.115529,-31.751489
11.185,2.0,1.0,1.0,34.7,33.4,33.4,3.2,2.7,2.605,0.32379748593295277,-0.026209888628964745,0.9319566099384904,-0.0012361420497778517,-0.11714,-31.621047
11.185,2.0,1.0,1.0,34.7,33.4,33.4,3.2,2.7,2.6075,0.3135686917367222,-0.026592268074151992,0.9352507831744913,-0.0015565028162040698,-0.118785,-31.490039
11.185,2.0,1.0,1.0,34.7,33.4,33.4,3.2,2.7,2.61,0.30323122458414564,-0.026978393992231422,0.938452964661302,-0.001888210457455712,-0.120465,-31.358456
11.185,2.0,1.0,1.0,34.7,33.4,33.4,3.2,2.7,2.6125,0.2927846620240178,-0.027368218860882795,0.9415605394073082,-0.002231613370244297,-0.12218,-31.226289
11.185,2.0,1.0,1.0,34.7,33.4,33.4,3.2,2.7,2.615,0.2822286124627858,-0.02776168905623351,0.9445708299670604,-0.0025870707282931856,-0.123931,-31.093531
11.185,2.0,1.0,1.0,34.7,33.4,33.4,3.2,2.7,2.6175,0.2715627171328243,-0.02815874448033057,0.9474810953004813,-0.0029549528212598894,-0.125721,-30.96017
11.185,2.0,1.0,1.0,34.7,33.4,33.4,3.2,2.7,2.62,0.2607866521458925,-0.028559318168390125,0.9502885296341846,-0.0033356414045642197,-0.127548,-30.826199
11.185,2.0,1.0,1.0,34.7,33.4,33.4,3.2,2.7,2.6225,0.24990013063469527,-0.02896333587472728,0.9529902613266823,-0.0037295300605300545,-0.129416,-30.691608
11.185,2.0,1.0,1.0,34.7,33.4,33.4,3.2,2.7,2.625,0.238902904985588,-0.0293707156362029,0.955583351739349,-0.0041370245712735,-0.131324,-30.556388
11.185,2.0,1.0,1.0,34.7,33.4,33.4,3.2,2.7,2.6275,0.2277947691654403,-0.02978136731195545,0.9580647941151832,-0.004558543303796978,-0.133274,-30.420528
11.185,2.0,1.0,1.0,34.7,33.4,33.4,3.2,2.7,2.63,0.2165755611458334,-0.0301951920981093,0.9604315124674694,-0.004994517607777463,-0.135267,-30.284019
11.185,2.0,1.0,1.0,34.7,33.4,33.4,3.2,2.7,2.6325,0.20524516542777652,-0.030612082016070297,0.962680360480596,-0.005445392226569131,-0.137304,-30.14685
11.185,2.0,1.0,1.0,34.7,33.4,33.4,3.2,2.7,2.635,0.193803515670196,-0.031031919372932145,0.9648081204254507,-0.0059116257219761995,-0.139387,-30.009011
11.185,2.0,1.0,1.0,34.7,33.4,33.4,3.2,2.7,2.6375,0.18225059742557165,-0.03145457619242201,0.9668115020918526,-0.006393690913389048,-0.141517,-29.870491
11.185,2.0,1.0,1.0,34.7,33.4,33.4,3.2,2.7,2.64,0.17058645098605174,-0.03187991361471338,0.9686871417407353,-0.006892075331921646,-0.143694,-29.731279
11.185,2.0,1.0,1.0,34.7,33.4,33.4,3.2,2.7,2.6425,0.1588111743435772,-0.03230778126332167,0.9704316010788175,-0.007407281690232111,-0.145922,-29.591365
11.185,2.0,1.0,1.0,34.7,33.4,33.4,3.2,2.7,2.645,0.14692492626749334,-0.032738016577180375,0.9720413662587319,-0.007939828368761582,-0.1482,-29.450736
11.185,2.0,1.0,1.0,34.7,33.4,33.4,3.2,2.7,2.6475,0.1349279295032914,-0.033170444105863936,0.9735128469076303,-0.008490249919182949,-0.150531,-29.30938
11.185,2.0,1.0,1.0,34.7,33.4,33.4,3.2,2.7,2.65,0.12282047409608414,-0.033604874765783846,0.9748423751875095,-0.009059097585913244,-0.152916,-29.167286
11.185,2.0,1.0,1.0,34.7,33.4,33.4,3.2,2.7,2.6525,0.11060292084262185,-0.03404110505502755,0.976026204890568,-0.009646939846611554,-0.155356,-29.024441
11.185,2.0,1.0,1.0,34.7,33.4,33.4,3.2,2.7,2.655,0.09827570487559004,-0.03447891622434578,0.9770605105730823,-0.01025436297266207,-0.157854,-28.880833
11.185,2.0,1.0,1.0,34.7,33.4,33.4,3.2,2.7,2.6575,0.0858393393840986,-0.03491807340160557,0.9779413867314048,-0.010881971610724135,-0.160411,-28.736448
11.185,2.0,1.0,1.0,34.7,33.4,33.4,3.2,2.7,2.66,0.07329441947430848,-0.035358324666828395,0.9786648470238218,-0.01153038938652344,-0.163029,-28.591273
11.185,2.0,1.0,1.0,34.7,33.4,33.4,3.2,2.7,2.6625,0.06064162617424751,-0.03579940007471048,0.9792268235421313,-0.012200259532160624,-0.16571,-28.445293
11.185,2.0,1.0,1.0,34.7,33.4,33.4,3.2,2.7,2.665,0.04788173058690958,-0.03624101062128006,0.97962316613691,-0.012892245538326156,-0.168456,-28.298496
11.185,2.0,1.0,1.0,34.7,33.4,33.4,3.2,2.7,2.6675,0.03501559819590368,-0.03668284715107997,0.9798496418005701,-0.013607031832932152,-0.171269,-28.150865
11.185,2.0,1.0,1.0,34.7,33.4,33.4,3.2,2.7,2.67,0.022044193327959455,-0.03712457920096999,0.9799019341123616,-0.014345324487809275,-0.17415,-28.002386
11.185,2.0,1.0,1.0,34.7,33.4,33.4,3.2,2.7,2.6725,0.008968583776718074,-0.03756585377631875,0.9797756427496231,-0.01510785195526749,-0.177103,-27.853043
11.185,2.0,1.0,1.0,34.7,33.4,33.4,3.2,2.7,2.675,-0.00421005440755987,-0.03800629405499605,0.9794662830695862,-0.015895365836481205,-0.18013,-27.702821
11.185,2.0,1.0,1.0,34.7,33.4,33.4,3.2,2.7,2.6775,-0.017490431957677893,-0.038445498014180374,0.9789692857661536,-0.01670864168384477,-0.183233,-27.551701
11.185,2.0,1.0,1.0,34.7,33.4,33.4,3.2,2.7,2.68,-0.03087114125366068,-0.03888303697455555,0.9782799966060685,-0.017548479839641494,-0.186414,-27.399669
11.185,2.0,1.0,1.0,34.7,33.4,33.4,3.2,2.7,2.6825,-0.0443506510062534,-0.03931845405598131,0.9773936762489128,-0.018415706313589256,-0.189676,-27.246704
11.185,2.0,1.0,1.0,34.7,33.4,33.4,3.2,2.7,2.685,-0.057927300754479966,-0.03975126253818105,0.9763055001553922,-0.019311173702068227,-0.193023,-27.09279
11.185,2.0,1.0,1.0,34.7,33.4,33.4,3.2,2.7,2.6875,-0.07159929517158199,-0.04018094411938204,0.9750105585882446,-0.020235762152099632,-0.196457,-26.937907
11.185,2.0,1.0,1.0,34.7,33.4,33.4,3.2,2.7,2.69,-0.08536469817347485,-0.04060694706517101,0.9735038567101463,-0.021190380373435045,-0.19998,-26.782035
11.185,2.0,1.0,1.0,34.7,33.4,33.4,3.2,2.7,2.6925,-0.09922142682341435,-0.04102868423907476,0.9717803147827652,-0.02217596670243641,-0.203597,-26.625155
11.185,2.0,1.0,1.0,34.7,33.4,33.4,3.2,2.7,2.695,-0.1131672450261419,-0.04144553100552979,0.9698347684710551,-0.02319349022177112,-0.207311,-26.467244
11.185,2.0,1.0,1.0,34.7,33.4,33.4,3.2,2.7,2.6975,-0.1271997570043213,-0.04185682299496761,0.9676619692566075,-0.024243951940334723,-0.211125,-26.308282
11.185,2.0,1.0,1.0,34.7,33.4,33.4,3.2,2.7,2.7,-0.14131640054942893,-0.04226185371967988,0.9652565849636991,-0.025328386038223804,-0.215042,-26.148244
11.185,2.0,1.0,1.0,34.7,33.4,33.4,3.2,2.7,2.7025,-0.15551444003864154,-0.04265987202794549,0.9626132004013103,-0.026447861182042752,-0.219068,-25.987108
11.185,2.0,1.0,1.0,34.7,33.4,33.4,3.2,2.7,2.705,-0.16979095920836762,-0.043050079382565616,0.9597263181240671,-0.02760348191632061,-0.223205,-25.824849
11.185,2.0,1.0,1.0,34.7,33.4,33.4,3.2,2.7,2.7075,-0.18414285367424094,-0.04343162694845545,0.9565903593146141,-0.028796390137356444,-0.227458,-25.661441
11.185,2.0,1.0,1.0,34.7,33.4,33.4,3.2,2.7,2.71,-0.19856682318616523,-0.04380361247224925,0.9531996647894116,-0.030027766656397073,-0.231832,-25.496857
11.185,2.0,1.0,1.0,34.7,33.4,33.4,3.2,2.7,2.7125,-0.2130593636058001,-0.044165076934971924,0.9495484961293783,-0.031298832859689645,-0.236332,-25.33107
11.185,2.0,1.0,1.0,34.7,33.4,33.4,3.2,2.7,2.715,-0.22761675859234437,-0.044515000956677264,0.9456310369361423,-0.03261085247363801,-0.240963,-25.164051
11.185,2.0,1.0,1.0,34.7,33.4,33.4,3.2,2.7,2.7175,-0.24223507098066646,-0.044852300929520174,0.9414413942138739,-0.03396513344403803,-0.245729,-24.99577
11.185,2.0,1.0,1.0,34.7,33.4,33.4,3.2,2.7,2.72,-0.25691013383384687,-0.04517582485297634,0.9369735998758727,-0.0353630299391638,-0.250637,-24.826195
11.185,2.0,1.0,1.0,34.7,33.4,33.4,3.2,2.7,2.7225,-0.27163754114974653,-0.04548434784180314,0.9322216123740396,-0.03680594448734217,-0.255693,-24.655292
11.185,2.0,1.0,1.0,34.7,33.4,33.4,3.2,2.7,2.725,-0.28641263819844126,-0.04577656727379168,0.9271793184484141,-0.03829533026056101,-0.260903,-24.483029
11.185,2.0,1.0,1.0,34.7,33.4,33.4,3.2,2.7,2.7275,-0.3012305114641156,-0.0460510975403405,0.9218405349926505,-0.03983269351664565,-0.266274,-24.309368
11.185,2.0,1.0,1.0,34.7,33.4,33.4,3.2,2.7,2.73,-0.31608597816121314,-0.04630646435830161,0.9161990110301482,-0.0414195962135594,-0.271814,-24.134271
11.185,2.0,1.0,1.0,34.7,33.4,33.4,3.2,2.7,2.7325,-0.33097357529024074,-0.046541098596342194,0.9102484297940211,-0.04305765881048045,-0.277528,-23.957701
11.185,2.0,1.0,1.0,34.7,33.4,33.4,3.2,2.7,2.735,-0.34588754819349626,-0.04675332956311885,0.9039824109026815,-0.04474856327143371,-0.283427,-23.779614
11.185,2.0,1.0,1.0,34.7,33.4,33.4,3.2,2.7,2.7375,-0.3608218385650563,-0.04694137769777928,0.8973945126211029,-0.046494056288430737,-0.289519,-23.599968
11.185,2.0,1.0,1.0,34.7,33.4,33.4,3.2,2.7,2.74,-0.37577007186240274,-0.04710334659554665,0.8904782341961598,-0.04829595274225862,-0.295812,-23.418718
11.185,2.0,1.0,1.0,34.7,33.4,33.4,3.2,2.7,2.7425,-0.3907255440590473,-0.04723721429226343,0.8832270182525783,-0.05015613942025748,-0.302318,-23.235814
11.185,2.0,1.0,1.0,34.7,33.4,33.4,3.2,2.7,2.745,-0.40568120766815324,-0.0473408237215882,0.8756342532342024,-0.05207657901159082,-0.309045,-23.051208
11.185,2.0,1.0,1.0,34.7,33.4,33.4,3.2,2.7,2.7475,-0.42062965695626525,-0.047411872246855245,0.8676932758733493,-0.054059314401620664,-0.316007,-22.864847
11.185,2.0,1.0,1.0,34.7,33.4,33.4,3.2,2.7,2.75,-0.435563112253616,-0.0474479001561677,0.85939737366913,-0.0561064732879932,-0.323214,-22.676674
11.185,2.0,1.0,1.0,34.7,33.4,33.4,3.2,2.7,2.7525,-0.45047340325277707,-0.04744627799382887,0.8507397873538255,-0.05822027314185486,-0.330681,-22.486632
11.185,2.0,1.0,1.0,34.7,33.4,33.4,3.2,2.7,2.755,-0.4653519511702417,-0.04740419258338028,0.841713713324707,-0.06040302653816871,-0.338421,-22.294659
11.185,2.0,1.0,1.0,34.7,33.4,33.4,3.2,2.7,2.7575,-0.4801897496256873,-0.04731863157691784,0.8323123060173017,-0.06265714687928332,-0.346449,-22.10069
11.185,2.0,1.0,1.0,34.7,33.4,33.4,3.2,2.7,2.76,-0.49497734407027055,-0.04718636634153675,0.8225286801951154,-0.06498515453554891,-0.354783,-21.904656
11.185,2.0,1.0,1.0,34.7,33.4,33.4,3.2,2.7,2.7625,-0.5097048095683722,-0.0470039329661602,0.8123559131303881,-0.06738968342573039,-0.363438,-21.706487
11.185,2.0,1.0,1.0,34.7,33.4,33.4,3.2,2.7,2.765,-0.524361726705428,-0.04676761113998411,0.8017870466508757,-0.06987348805794737,-0.372436,-21.506105
11.185,2.0,1.0,1.0,34.7,33.4,33.4,3.2,2.7,2.7675,-0.5389371553575906,-0.04647340061655711,0.7908150890292277,-0.07243945104859356,-0.381796,-21.303429
11.185,2.0,1.0,1.0,34.7,33.4,33.4,3.2,2.7,2.77,-0.5534196060157883,-0.04611699493418459,0.7794330166945637,-0.07509059113173396,-0.39154,-21.098376
11.185,2.0,1.0,1.0,34.7,33.4,33.4,3.2,2.7,2.7725,-0.567797008306019,-0.04569375201281672,0.7676337757510798,-0.07783007166431392,-0.401695,-20.890855
11.185,2.0,1.0,1.0,34.7,33.4,33.4,3.2,2.7,2.775,-0.5820566762885486,-0.04519866118855311,0.7554102832963648,-0.08066120962248408,-0.412285,-20.680771
11.185,2.0,1.0,1.0,34.7,33.4,33.4,3.2,2.7,2.7775,-0.5961852700489598,-0.04462630617781403,0.7427554285436389,-0.08358748507055212,-0.423341,-20.468023
11.185,2.0,1.0,1.0,34.7,33.4,33.4,3.2,2.7,2.78,-0.6101687530122584,-0.043970823382251265,0.7296620737684242,-0.08661255106540862,-0.434893,-20.252504
11.185,2.0,1.0,1.0,34.7,33.4,33.4,3.2,2.7,2.7825,-0.6239923443149732,-0.043225854850373245,0.7161230551226251,-0.08974024393424973,-0.446978,-20.034101
11.185,2.0,1.0,1.0,34.7,33.4,33.4,3.2,2.7,2.785,-0.6376404654568277,-0.04238449509999434,0.7021311833895888,-0.09297459383018868,-0.459633,-19.812695
11.185,2.0,1.0,1.0,34.7,33.4,33.4,3.2,2.7,2.7875,-0.6510966803196178,-0.04143923087380987,0.6876792447950258,-0.09631983542638735,-0.472901,-19.588158
11.185,2.0,1.0,1.0,34.7,33.4,33.4,3.2,2.7,2.79,-0.6643436274829676,-0.040381872744833625,0.6727600020435665,-0.09978041855153195,-0.486827,-19.360355
11.185,2.0,1.0,1.0,34.7,33.4,33.4,3.2,2.7,2.7925,-0.6773629435795219,-0.039203477304556415,0.6573661958238974,-0.10336101849359017,-0.501462,-19.129141
11.185,2.0,1.0,1.0,34.7,33.4,33.4,3.2,2.7,2.795,-0.6901351762105361,-0.03789425844901172,0.641490547121806,-0.10706654559946265,-0.516865,-18.894365
11.185,2.0,1.0,1.0,34.7,33.4,33.4,3.2,2.7,2.7975,-0.7026396846801091,-0.03644348601995317,0.6251257608077535,-0.11090215366819663,-0.533097,-18.655865
11.185,2.0,1.0,1.0,34.7,33.4,33.4,3.2,2.7,2.8,-0.7148545264943295,-0.03483936975220423,0.6082645311326615,-0.11487324646563293,-0.550227,-18.413467
11.185,2.0,1.0,1.0,34.7,33.4,33.4,3.2,2.7,2.8025,-0.7267563272010968,-0.033068926114687314,0.5908995499852967,-0.11898548146636782,-0.568335,-18.166989
11.185,2.0,1.0,1.0,34.7,33.4,33.4,3.2,2.7,2.805,-0.7383201307058074,-0.031117825200629553,0.5730235190529864,-0.1232447696386182,-0.587507,-17.916234
11.185,2.0,1.0,1.0,34.7,33.4,33.4,3.2,2.7,2.8075,-0.749519226674652,-0.02897021430903614,0.5546291674059957,-0.12765726970759878,-0.607841,-17.660994
11.185,2.0,1.0,1.0,34.7,33.4,33.4,3.2,2.7,2.81,-0.7603249510150831,-0.026608514249635305,0.53570927652354,-0.1322293748349987,-0.629445,-17.401047
11.185,2.0,1.0,1.0,34.7,33.4,33.4,3.2,2.7,2.8125,-0.770706454684654,-0.024013183679796934,0.5162567154340079,-0.13696768899839337,-0.652444,-17.136158
11.185,2.0,1.0,1.0,34.7,33.4,33.4,3.2,2.7,2.815,-0.7806304352048602,-0.021162445924928542,0.4962644895043719,-0.14187898949471697,-0.676976,-16.866075
11.185,2.0,1.0,1.0,34.7,33.4,33.4,3.2,2.7,2.8175,-0.7900608242239813,-0.018031971722366973,0.47572580755195715,-0.14697017085900246,-0.7032,-16.590528
11.185,2.0,1.0,1.0,34.7,33.4,33.4,3.2,2.7,2.82,-0.7989584232598218,-0.01459451014093699,0.4546341734567117,-0.1522481639934152,-0.731295,-16.309233
11.185,2.0,1.0,1.0,34.7,33.4,33.4,3.2,2.7,2.8225,-0.8072804783382053,-0.01081945854372789,0.43298351044657174,-0.15771982232108342,-0.761467,-16.021885
11.185,2.0,1.0,1.0,34.7,33.4,33.4,3.2,2.7,2.825,-0.8149801826104963,-0.006672360865164925,0.41076832887707737,-0.16339176415134507,-0.79395,-15.72816
11.185,2.0,1.0,1.0,34.7,33.4,33.4,3.2,2.7,2.8275,-0.8220060941791036,-0.0021143216622082255,0.3879839518519845,-0.16927015694792366,-0.829014,-15.427715
