1,w,sub_t,h,l1,l2,l3,g1,g2,Freq,S11_re,S21_re,S11_img,S21_img,S11_dB,S21_dB
11.185,2.0,1.0,1.0,34.2,33.9,33.9,4.0,3.2,2.5,0.755105546474429,-0.00817543093252828,0.644740390963143,0.00378960479686297,-0.061783,-40.904505
11.185,2.0,1.0,1.0,34.2,33.9,33.9,4.0,3.2,2.5025,0.7502029707248205,-0.008317423330108558,0.6503327161108907,0.0037704512275388096,-0.062389,-40.788556
11.185,2.0,1.0,1.0,34.2,33.9,33.9,4.0,3.2,2.505,0.7452346039767358,-0.008461554823322318,0.655913705472762,0.003749730258432513,-0.063004,-40.672301
11.185,2.0,1.0,1.0,34.2,33.9,33.9,4.0,3.2,2.5075,0.7401998161886629,-0.008607858915599377,0.6614828305531484,0.0037273920397795676,-0.063631,-40.555732
11.185,2.0,1.0,1.0,34.2,33.9,33.9,4.0,3.2,2.51,0.7350979700082212,-0.008756369683412719,0.6670395481925913,0.003703385114041805,-0.064268,-40.438841
11.185,2.0,1.0,1.0,34.2,33.9,33.9,4.0,3.2,2.5125,0.7299284207604754,-0.008907121785014868,0.6725833001497057,0.0036776563580332576,-0.064916,-40.321621
11.185,2.0,1.0,1.0,34.2,33.9,33.9,4.0,3.2,2.515,0.7246905164407956,-0.009060150469201963,0.6781135126713855,0.003650150922691536,-0.065575,-40.204064
11.185,2.0,1.0,1.0,34.2,33.9,33.9,4.0,3.2,2.5175,0.7193835977125622,-0.009215491584096623,0.6836295960509542,0.00362081217038449,-0.066245,-40.086163
11.185,2.0,1.0,1.0,34.2,33.9,33.9,4.0,3.2,2.52,0.714006997909992,-0.009373181585941555,0.6891309441739428,0.0035895816096360848,-0.066928,-39.96791
11.185,2.0,1.0,1.0,34.2,33.9,33.9,4.0,3.2,2.5225,0.7085600430464299,-0.009533257547893165,0.6946169340511306,0.0035563988271490998,-0.067622,-39.849297
11.185,2.0,1.0,1.0,34.2,33.9,33.9,4.0,3.2,2.525,0.7030420518284078,-0.009695757168805753,0.7000869253385182,0.003521201416995201,-0.068329,-39.730316
11.185,2.0,1.0,1.0,34.2,33.9,33.9,4.0,3.2,2.5275,0.6974523356758203,-0.009860718781994262,0.7055402598438639,0.0034839249068362556,-0.069048,-39.610958
11.185,2.0,1.0,1.0,34.2,33.9,33.9,4.0,3.2,2.53,0.6917901987485913,-0.01002818136396305,0.7109762610194087,0.0034445026810323793,-0.06978,-39.491216
11.185,2.0,1.0,1.0,34.2,33.9,33.9,4.0,3.2,2.5325,0.6860549379801916,-0.010198184543088042,0.7163942334404159,0.003402865900484612,-0.070525,-39.371081
11.185,2.0,1.0,1.0,34.2,33.9,33.9,4.0,3.2,2.535,0.6802458431184071,-0.010370768608237142,0.7217934622691331,0.0033589434190513974,-0.071284,-39.250544
11.185,2.0,1.0,1.0,34.2,33.9,33.9,4.0,3.2,2.5375,0.6743621967737811,-0.010545974517313286,0.7271732127037721,0.0033126616963678264,-0.072057,-39.129597
11.185,2.0,1.0,1.0,34.2,33.9,33.9,4.0,3.2,2.54,0.6684032744761472,-0.010723843905703596,0.7325327294120997,0.003263944706888389,-0.072843,-39.008231
11.185,2.0,1.0,1.0,34.2,33.9,33.9,4.0,3.2,2.5425,0.6623683447397161,-0.010904419094615807,0.7378712359492124,0.0032127138449613165,-0.073644,-38.886438
11.185,2.0,1.0,1.0,34.2,33.9,33.9,4.0,3.2,2.545,0.656256669137185,-0.011087743099282411,0.7431879341590668,0.0031588878257331273,-0.07446,-38.764207
11.185,2.0,1.0,1.0,34.2,33.9,33.9,4.0,3.2,2.5475,0.6500675023833695,-0.011273859637010884,0.7484820035593042,0.003102382581668637,-0.075291,-38.641531
11.185,2.0,1.0,1.0,34.2,33.9,33.9,4.0,3.2,2.55,0.6438000924288673,-0.01146281313505695,0.753752600708936,0.0030431111544590083,-0.076137,-38.518399
11.185,2.0,1.0,1.0,34.2,33.9,33.9,4.0,3.2,2.5525,0.6374536805643073,-0.01165464873829557,0.7589988585583856,0.002980983582077404,-0.076999,-38.394801
11.185,2.0,1.0,1.0,34.2,33.9,33.9,4.0,3.2,2.555,0.6310275015357408,-0.011849412316662528,0.7642198857814311,0.002915906780725206,-0.077878,-38.27073
11.185,2.0,1.0,1.0,34.2,33.9,33.9,4.0,3.2,2.5575,0.6245207836717647,-0.012047150472337592,0.7694147660885349,0.0028477844213977534,-0.078773,-38.146173
11.185,2.0,1.0,1.0,34.2,33.9,33.9,4.0,3.2,2.56,0.6179327490230052,-0.012247910546636707,0.7745825575210477,0.002776516800779846,-0.079686,-38.021122
11.185,2.0,1.0,1.0,34.2,33.9,33.9,4.0,3.2,2.5625,0.6112626135146,-0.012451740626579577,0.7797222917257624,0.0027020007061643093,-0.080615,-37.895567
11.185,2.0,1.0,1.0,34.2,33.9,33.9,4.0,3.2,2.565,0.6045095871123519,-0.012658689551094907,0.7848329732092736,0.002624129274065894,-0.081563,-37.769495
11.185,2.0,1.0,1.0,34.2,33.9,33.9,4.0,3.2,2.5675,0.5976728740032687,-0.012868806916822816,0.7899135785715811,0.002542791842182726,-0.082529,-37.642898
11.185,2.0,1.0,1.0,34.2,33.9,33.9,4.0,3.2,2.57,0.5907516727912155,-0.01308214308347107,0.7949630557183548,0.0024578737943343632,-0.083514,-37.515765
11.185,2.0,1.0,1.0,34.2,33.9,33.9,4.0,3.2,2.5725,0.5837451767084502,-0.013298749178677408,0.7999803230512782,0.00236925639798053,-0.084519,-37.388083
11.185,2.0,1.0,1.0,34.2,33.9,33.9,4.0,3.2,2.575,0.5766525738438469,-0.013518677102326413,0.8049642686358439,0.002276816633899313,-0.085543,-37.259842
11.185,2.0,1.0,1.0,34.2,33.9,33.9,4.0,3.2,2.5775,0.5694730473886416,-0.013741979530265304,0.8099137493459739,0.0021804270175740906,-0.086588,-37.13103
11.185,2.0,1.0,1.0,34.2,33.9,33.9,4.0,3.2,2.58,0.5622057759005794,-0.01396870991735748,0.8148275899847967,0.002079955411808871,-0.087654,-37.001636
11.185,2.0,1.0,1.0,34.2,33.9,33.9,4.0,3.2,2.5825,0.5548499335873663,-0.014198922499808383,0.8197045823809203,0.0019752648300576485,-0.088741,-36.871648
11.185,2.0,1.0,1.0,34.2,33.9,33.9,4.0,3.2,2.585,0.5474046906103889,-0.01443267229669142,0.8245434844594826,0.0018662132299187015,-0.08985,-36.741053
11.185,2.0,1.0,1.0,34.2,33.9,33.9,4.0,3.2,2.5875,0.5398692134096778,-0.014670015110596055,0.8293430192872558,0.0017526532962053823,-0.090982,-36.609838
11.185,2.0,1.0,1.0,34.2,33.9,33.9,4.0,3.2,2.59,0.5322426650511728,-0.014911007527312805,0.8341018740910531,0.001634432212964066,-0.092137,-36.477991
11.185,2.0,1.0,1.0,34.2,33.9,33.9,4.0,3.2,2.5925,0.5245242055973451,-0.015155706914462436,0.8388186992486422,0.001511391423763803,-0.093316,-36.345499
11.185,2.0,1.0,1.0,34.2,33.9,33.9,4.0,3.2,2.595,0.5167129925023305,-0.015404171418967551,0.8434921072513547,0.0013833663795350638,-0.094519,-36.212348
11.185,2.0,1.0,1.0,34.2,33.9,33.9,4.0,3.2,2.5975,0.5088081810327216,-0.015656459963256788,0.8481206716375391,0.0012501862731797288,-0.095748,-36.078525
11.185,2.0,1.0,1.0,34.2,33.9,33.9,4.0,3.2,2.6,0.5008089247152605,-0.01591263224007955,0.8527029258959672,0.0011116737601194874,-0.097003,-35.944015
11.185,2.0,1.0,1.0,34.2,33.9,33.9,4.0,3.2,2.6025,0.4927143758127106,-0.01617274870579958,0.8572373623382611,0.0009676446638860275,-0.098284,-35.808804
11.185,2.0,1.0,1.0,34.2,33.9,33.9,4.0,3.2,2.605,0.4845236858292301,-0.016436870572021756,0.8617224309393795,0.0008179076657892307,-0.099593,-35.672877
11.185,2.0,1.0,1.0,34.2,33.9,33.9,4.0,3.2,2.6075,0.4762360060466439,-0.01670505979539324,0.8661565381451265,0.0006622639776260292,-0.10093,-35.536219
11.185,2.0,1.0,1.0,34.2,33.9,33.9,4.0,3.2,2.61,0.46785048809306506,-0.016977379065403662,0.8705380456456284,0.0005005069963132987,-0.102297,-35.398814
11.185,2.0,1.0,1.0,34.2,33.9,33.9,4.0,3.2,2.6125,0.4593662845453743,-0.017253891789992908,0.874865269113634,0.00033242193923963746,-0.103693,-35.260647
11.185,2.0,1.0,1.0,34.2,33.9,33.9,4.0,3.2,2.615,0.45078254956712804,-0.017534662078754527,0.8791364769064659,0.00015778545903776344,-0.10512,-35.1217
11.185,2.0,1.0,1.0,34.2,33.9,33.9,4.0,3.2,2.6175,0.44209843958355466,-0.017819754723502,0.8833498887303438,-2.363476362515307e-05,-0.106579,-34.981958
11.185,2.0,1.0,1.0,34.2,33.9,33.9,4.0,3.2,2.62,0.433313113995347,-0.018109235175940933,0.8875036742657604,-0.00021208045075436235,-0.10807,-34.841402
11.185,2.0,1.0,1.0,34.2,33.9,33.9,4.0,3.2,2.6225,0.4244257359330347,-0.018403169522163542,0.8915959517524965,-0.00040780318287032607,-0.109595,-34.700015
11.185,2.0,1.0,1.0,34.2,33.9,33.9,4.0,3.2,2.625,0.415435473053832,-0.0187016244536514,0.895624786532745,-0.000611064881759608,-0.111155,-34.557779
11.185,2.0,1.0,1.0,34.2,33.9,33.9,4.0,3.2,2.6275,0.4063414983828839,-0.019004667234439786,0.8995881895507704,-0.0008221383220554152,-0.112751,-34.414675
11.185,2.0,1.0,1.0,34.2,33.9,33.9,4.0,3.2,2.63,0.3971429912009771,-0.019312365664058095,0.9034841158073476,-0.0010413076737285415,-0.114383,-34.270683
11.185,2.0,1.0,1.0,34.2,33.9,33.9,4.0,3.2,2.6325,0.38783913798083347,-0.019624788035819924,0.907310462767165,-0.0012688690777474371,-0.116054,-34.125783
11.185,2.0,1.0,1.0,34.2,33.9,33.9,4.0,3.2,2.635,0.3784291333742258,-0.019942003089987472,0.9110650687171957,-0.0015051312573599461,-0.117764,-33.979955
11.185,2.0,1.0,1.0,34.2,33.9,33.9,4.0,3.2,2.6375,0.3689121812522631,-0.02026407996128307,0.9147457110738942,-0.0017504161676612246,-0.119515,-33.833177
11.185,2.0,1.0,1.0,34.2,33.9,33.9,4.0,3.2,2.64,0.35928749580126507,-0.02059108812015936,0.9183501046369391,-0.0020050596863476406,-0.121307,-33.685429
11.185,2.0,1.0,1.0,34.2,33.9,33.9,4.0,3.2,2.6425,0.3495543026768167,-0.020923097307172206,0.9218758997870041,-0.0022694123488120896,-0.123144,-33.536686
11.185,2.0,1.0,1.0,34.2,33.9,33.9,4.0,3.2,2.645,0.33971184021869516,-0.021260177459723795,0.9253206806248508,-0.00254384013102046,-0.125024,-33.386926
11.185,2.0,1.0,1.0,34.2,33.9,33.9,4.0,3.2,2.6475,0.3297593607294879,-0.02160239863035678,0.9286819630488119,-0.002828725283920384,-0.126952,-33.236125
11.185,2.0,1.0,1.0,34.2,33.9,33.9,4.0,3.2,2.65,0.31969613181987533,-0.021949830895682393,0.9319571927674563,-0.0031244672234779576,-0.128927,-33.084258
11.185,2.0,1.0,1.0,34.2,33.9,33.9,4.0,3.2,2.6525,0.30952143782374997,-0.022302544254913386,0.9351437432439068,-0.0034314834808164604,-0.130952,-32.931299
11.185,2.0,1.0,1.0,34.2,33.9,33.9,4.0,3.2,2.655,0.29923458128643166,-0.022660608516848306,0.9382389135680121,-0.003750210717353461,-0.133028,-32.777222
11.185,2.0,1.0,1.0,34.2,33.9,33.9,4.0,3.2,2.6575,0.2888348845295248,-0.023024093174008244,0.941239926252125,-0.0040811058102944,-0.135157,-32.621999
11.185,2.0,1.0,1.0,34.2,33.9,33.9,4.0,3.2,2.66,0.2783216912960912,-0.023393067262465792,0.9441439249458983,-0.004424647014356009,-0.137342,-32.465601
11.185,2.0,1.0,1.0,34.2,33.9,33.9,4.0,3.2,2.6625,0.267694368480098,-0.023767599205718797,0.9469479720649758,-0.004781335206162772,-0.139583,-32.308
11.185,2.0,1.0,1.0,34.2,33.9,33.9,4.0,3.2,2.665,0.2569523079443092,-0.024147756640751618,0.9496490463279695,-0.005151695218391632,-0.141884,-32.149165
11.185,2.0,1.0,1.0,34.2,33.9,33.9,4.0,3.2,2.6675,0.24609492843109387,-0.024533606224181593,0.9522440401955246,-0.0055362772714418335,-0.144247,-31.989064
11.185,2.0,1.0,1.0,34.2,33.9,33.9,4.0,3.2,2.67,0.23512167757093658,-0.024925213416115158,0.9547297572045637,-0.005935658511188757,-0.146674,-31.827664
11.185,2.0,1.0,1.0,34.2,33.9,33.9,4.0,3.2,2.6725,0.22403203399374508,-0.025322642239019314,0.9571029091901206,-0.006350444662248897,-0.149166,-31.664931
11.185,2.0,1.0,1.0,34.2,33.9,33.9,4.0,3.2,2.675,0.2128255095485045,-0.025725955008550835,0.9593601133862613,-0.006781271807151645,-0.151728,-31.500831
11.185,2.0,1.0,1.0,34.2,33.9,33.9,4.0,3.2,2.6775,0.20150165163719574,-0.02613521203286982,0.961497889396695,-0.00722880830289474,-0.154362,-31.335325
11.185,2.0,1.0,1.0,34.2,33.9,33.9,4.0,3.2,2.68,0.19006004566945192,-0.02655047127648392,0.9635126560245513,-0.007693756847567135,-0.15707,-31.168376
11.185,2.0,1.0,1.0,34.2,33.9,33.9,4.0,3.2,2.6825,0.1785003176449571,-0.02697178798411778,0.965400727949631,-0.008176856711071635,-0.159856,-30.999945
11.185,2.0,1.0,1.0,34.2,33.9,33.9,4.0,3.2,2.685,0.16682213687122782,-0.027399214259466266,0.96715831224004,-0.008678886145492842,-0.162723,-30.829989
11.185,2.0,1.0,1.0,34.2,33.9,33.9,4.0,3.2,2.6875,0.155025218825184,-0.0278327985929549,0.968781504683568,-0.00920066499234771,-0.165675,-30.658466
11.185,2.0,1.0,1.0,34.2,33.9,33.9,4.0,3.2,2.69,0.14310932816773855,-0.028272585331781078,0.9702662859224161,-0.009743057505858535,-0.168715,-30.485332
11.185,2.0,1.0,1.0,34.2,33.9,33.9,4.0,3.2,2.6925,0.13107428192158707,-0.028718614084526545,0.9716085173728961,-0.01030697541352414,-0.171846,-30.310538
11.185,2.0,1.0,1.0,34.2,33.9,33.9,4.0,3.2,2.695,0.11891995282353329,-0.029170919051488484,0.9728039369094664,-0.010893381237668266,-0.175074,-30.134037
11.185,2.0,1.0,1.0,34.2,33.9,33.9,4.0,3.2,2.6975,0.10664627286395556,-0.029629528270552336,0.9738481542898684,-0.011503291904354057,-0.178402,-29.955777
11.185,2.0,1.0,1.0,34.2,33.9,33.9,4.0,3.2,2.7,0.09425323702751949,-0.030094462766883944,0.9747366462952998,-0.012137782669106869,-0.181836,-29.775706
11.185,2.0,1.0,1.0,34.2,33.9,33.9,4.0,3.2,2.7025,0.0817409072509973,-0.030565735592921646,0.9754647515561672,-0.012797991392341005,-0.185379,-29.593768
11.185,2.0,1.0,1.0,34.2,33.9,33.9,4.0,3.2,2.705,0.06910941661610472,-0.031043350743045546,0.9760276650302335,-0.013485123201289194,-0.189038,-29.409904
11.185,2.0,1.0,1.0,34.2,33.9,33.9,4.0,3.2,2.7075,0.05635897379761273,-0.03152730192484595,0.9764204320957006,-0.014200455579657394,-0.192818,-29.224055
11.185,2.0,1.0,1.0,34.2,33.9,33.9,4.0,3.2,2.71,0.04348986778983766,-0.03201757116602953,0.9766379422168384,-0.014945343931243537,-0.196725,-29.036156
11.185,2.0,1.0,1.0,34.2,33.9,33.9,4.0,3.2,2.7125,0.030502472937839364,-0.03251412723262332,0.9766749221342105,-0.015721227669460557,-0.200765,-28.84614
11.185,2.0,1.0,1.0,34.2,33.9,33.9,4.0,3.2,2.715,0.01739725430358563,-0.03301692383015316,0.9765259285251677,-0.01652963689118639,-0.204946,-28.653939
11.185,2.0,1.0,1.0,34.2,33.9,33.9,4.0,3.2,2.7175,0.004174773401842097,-0.03352589755478675,0.9761853400729618,-0.017372199700752215,-0.209275,-28.459477
11.185,2.0,1.0,1.0,34.2,33.9,33.9,4.0,3.2,2.72,-0.009164305653952159,-0.03404096555588743,0.9756473488744674,-0.01825065025830888,-0.213759,-28.26268
11.185,2.0,1.0,1.0,34.2,33.9,33.9,4.0,3.2,2.7225,-0.0226192095492947,-0.03456202286486896,0.9749059511069444,-0.01916683763644582,-0.218408,-28.063465
11.185,2.0,1.0,1.0,34.2,33.9,33.9,4.0,3.2,2.725,-0.03618904865538099,-0.0350889393374565,0.9739549368632033,-0.020122735579957054,-0.223231,-27.861747
11.185,2.0,1.0,1.0,34.2,33.9,33.9,4.0,3.2,2.7275,-0.049872809341815275,-0.035621556147212435,0.9727878790519512,-0.02112045327628803,-0.228237,-27.657438
11.185,2.0,1.0,1.0,34.2,33.9,33.9,4.0,3.2,2.73,-0.06366934564101087,-0.036159681757152916,0.971398121245451,-0.022162247258696376,-0.233437,-27.450442
11.185,2.0,1.0,1.0,34.2,33.9,33.9,4.0,3.2,2.7325,-0.07757737017720567,-0.03670308728311439,0.9697787643399136,-0.023250534580838155,-0.238844,-27.240661
11.185,2.0,1.0,1.0,34.2,33.9,33.9,4.0,3.2,2.735,-0.09159544425733819,-0.03725150114674773,0.9679226518746312,-0.02438790742068434,-0.244469,-27.02799
11.185,2.0,1.0,1.0,34.2,33.9,33.9,4.0,3.2,2.7375,-0.10572196700232067,-0.0378046028970793,0.9658223538335049,-0.02557714929381236,-0.250326,-26.812318
11.185,2.0,1.0,1.0,34.2,33.9,33.9,4.0,3.2,2.74,-0.11995516337462421,-0.03836201605677095,0.9634701487267453,-0.026821253081675062,-0.256431,-26.593529
11.185,2.0,1.0,1.0,34.2,33.9,33.9,4.0,3.2,2.7425,-0.1342930709307554,-0.03892329982168471,0.9608580037205513,-0.028123441110010767,-0.262799,-26.371499
11.185,2.0,1.0,1.0,34.2,33.9,33.9,4.0,3.2,2.745,-0.14873352509403284,-0.03948793940903058,0.9579775525478451,-0.02948718754678081,-0.269448,-26.146097
11.185,2.0,1.0,1.0,34.2,33.9,33.9,4.0,3.2,2.7475,-0.1632741427027591,-0.04005533480891735,0.9548200708928065,-0.030916243428703766,-0.276399,-25.917187
11.185,2.0,1.0,1.0,34.2,33.9,33.9,4.0,3.2,2.75,-0.177912303539707,-0.0406247876448541,0.951376448895103,-0.0324146646715139,-0.283671,-25.684619
11.185,2.0,1.0,1.0,34.2,33.9,33.9,4.0,3.2,2.7525,-0.1926451294886802,-0.04119548578856428,0.9476371603652293,-0.033986843472591524,-0.291288,-25.44824
11.185,2.0,1.0,1.0,34.2,33.9,33.9,4.0,3.2,2.755,-0.20746946089014023,-0.04176648530071719,0.943592228238977,-0.035637543576851234,-0.299276,-25.207885
11.185,2.0,1.0,1.0,34.2,33.9,33.9,4.0,3.2,2.7575,-0.22238182957700314,-0.042336689178495895,0.9392311857251692,-0.03737193994921164,-0.307664,-24.963377
11.185,2.0,1.0,1.0,34.2,33.9,33.9,4.0,3.2,2.76,-0.23737842795957056,-0.04290482227903787,0.9345430325148556,-0.03919566348128177,-0.316482,-24.71453
11.185,2.0,1.0,1.0,34.2,33.9,33.9,4.0,3.2,2.7625,-0.25245507338950574,-0.043469401649258485,0.9295161853199059,-0.04111485145807596,-0.325766,-24.461146
11.185,2.0,1.0,1.0,34.2,33.9,33.9,4.0,3.2,2.765,-0.2676071668599016,-0.04402870132044333,0.9241384218923787,-0.04313620462478698,-0.335553,-24.203011
11.185,2.0,1.0,1.0,34.2,33.9,33.9,4.0,3.2,2.7675,-0.28282964488266893,-0.044580710411292655,0.9183968175403378,-0.04526705182643757,-0.345888,-23.939901
11.185,2.0,1.0,1.0,34.2,33.9,33.9,4.0,3.2,2.77,-0.29811692311414245,-0.04512308311428926,0.9122776729983527,-0.04751542334728983,-0.356818,-23.671574
11.185,2.0,1.0,1.0,34.2,33.9,33.9,4.0,3.2,2.7725,-0.3134628299597254,-0.04565307880232048,0.9057664323286578,-0.049890134255128275,-0.368396,-23.39777
11.185,2.0,1.0,1.0,34.2,33.9,33.9,4.0,3.2,2.775,-0.3288605279589294,-0.04616749006593966,0.8988475893188234,-0.05240087926083557,-0.380684,-23.118215
11.185,2.0,1.0,1.0,34.2,33.9,33.9,4.0,3.2,2.7775,-0.3443024202076117,-0.04666255595097735,0.8915045806011501,-0.05505834083867386,-0.393749,-22.832611
11.185,2.0,1.0,1.0,34.2,33.9,33.9,4.0,3.2,2.78,-0.35978003838071027,-0.04713385697794658,0.8837196634457494,-0.05787431261920521,-0.407667,-22.54064
11.185,2.0,1.0,1.0,34.2,33.9,33.9,4.0,3.2,2.7825,-0.3752839080317262,-0.04757618764467337,0.8754737758730963,-0.060861840365039194,-0.422528,-22.241961
11.185,2.0,1.0,1.0,34.2,33.9,33.9,4.0,3.2,2.785,-0.3908033857057544,-0.04798340098338325,0.866746376395202,-0.06403538316683648,-0.438428,-21.936208
11.185,2.0,1.0,1.0,34.2,33.9,33.9,4.0,3.2,2.7875,-0.4063264609321664,-0.04834821828537207,0.8575152603353978,-0.06741099784514593,-0.455483,-21.622984
11.185,2.0,1.0,1.0,34.2,33.9,33.9,4.0,3.2,2.79,-0.4218395142568645,-0.04866199521664507,0.8477563493115674,-0.07100654989588942,-0.473822,-21.301865
11.185,2.0,1.0,1.0,34.2,33.9,33.9,4.0,3.2,2.7925,-0.4373270199913064,-0.048914433087562686,0.8374434501278785,-0.07484195464204717,-0.493594,-20.972391
11.185,2.0,1.0,1.0,34.2,33.9,33.9,4.0,3.2,2.795,-0.4527711791080209,-0.04909322082178104,0.8265479790608556,-0.07893945249597421,-0.514974,-20.634068
11.185,2.0,1.0,1.0,34.2,33.9,33.9,4.0,3.2,2.7975,-0.4681514634452948,-0.04918358894287911,0.8150386474412014,-0.08332392230160138,-0.538162,-20.286359
11.185,2.0,1.0,1.0,34.2,33.9,33.9,4.0,3.2,2.8,-0.483444046753647,-0.04916775132115226,0.8028811046795785,-0.08802323645718657,-0.563392,-19.928688
11.185,2.0,1.0,1.0,34.2,33.9,33.9,4.0,3.2,2.8025,-0.49862109065916205,-0.049024203038962856,0.7900375357203558,-0.09306866066049244,-0.590941,-19.560428
11.185,2.0,1.0,1.0,34.2,33.9,33.9,4.0,3.2,2.805,-0.5136498437068877,-0.04872683292125568,0.7764662117513544,-0.09849529925156675,-0.621132,-19.180903
11.185,2.0,1.0,1.0,34.2,33.9,33.9,4.0,3.2,2.8075,-0.5284914984386226,-0.04824379620566534,0.7621209965303453,-0.10434258357675438,-0.654351,-18.789381
11.185,2.0,1.0,1.0,34.2,33.9,33.9,4.0,3.2,2.81,-0.543099733828612,-0.047536075383600274,0.746950817011217,-0.11065479446671464,-0.691055,-18.385074
11.185,2.0,1.0,1.0,34.2,33.9,33.9,4.0,3.2,2.8125,-0.557418846868303,-0.0465556339697823,0.730899117844466,-0.117481599042467,-0.731796,-17.967127
11.185,2.0,1.0,1.0,34.2,33.9,33.9,4.0,3.2,2.815,-0.5713813457579349,-0.04524303698065556,0.7139033376672022,-0.12487856377772759,-0.777238,-17.534623
11.185,2.0,1.0,1.0,34.2,33.9,33.9,4.0,3.2,2.8175,-0.5849048356941762,-0.043524370925597994,0.6958944755485018,-0.13290757542722548,-0.828187,-17.086579
11.185,2.0,1.0,1.0,34.2,33.9,33.9,4.0,3.2,2.82,-0.5978879740088109,-0.04130724255726237,0.6767968660647319,-0.1416370515921704,-0.885632,-16.621946
11.185,2.0,1.0,1.0,34.2,33.9,33.9,4.0,3.2,2.8225,-0.6102052019899517,-0.03847556712935689,0.6565283634618405,-0.15114174122537866,-0.95079,-16.139615
11.185,2.0,1.0,1.0,34.2,33.9,33.9,4.0,3.2,2.825,-0.6216998752415754,-0.03488277268170601,0.63500126892609,-0.16150178275088026,-1.025173,-15.638432
11.185,2.0,1.0,1.0,34.2,33.9,33.9,4.0,3.2,2.8275,-0.6321753167855984,-0.030342950859550192,0.612124551706844,-0.17280047241612925,-1.110671,-15.117215
