1,w,sub_t,h,l1,l2,l3,g1,g2,Freq,S11_re,S21_re,S11_img,S21_img,S11_dB,S21_dB
11.185,2.0,1.0,1.0,34.4,33.0,33.0,2.1,2.1,2.5,0.715036298859257,-0.0182246698367081,0.686935301032971,0.0111051470970239,-0.073771,-33.41547
11.185,2.0,1.0,1.0,34.4,33.0,33.0,2.1,2.1,2.5025,0.7094358399191619,-0.01856261111033023,0.692584870210469,0.011093574310304324,-0.074584,-33.300903
11.185,2.0,1.0,1.0,34.4,33.0,33.0,2.1,2.1,2.505,0.7037596987500719,-0.018906144154241883,0.6982176238774819,0.011078618984040946,-0.075412,-33.185977
11.185,2.0,1.0,1.0,34.4,33.0,33.0,2.1,2.1,2.5075,0.6980071169072313,-0.01925535909767967,0.7038328350516782,0.011060154189397698,-0.076256,-33.070686
11.185,2.0,1.0,1.0,34.4,33.0,33.0,2.1,2.1,2.51,0.6921773278059198,-0.019610347260110867,0.709429755758241,0.011038048604199288,-0.077116,-32.955027
11.185,2.0,1.0,1.0,34.4,33.0,33.0,2.1,2.1,2.5125,0.6862695567751121,-0.01997120114117172,0.7150076164151847,0.0110121663559072,-0.077993,-32.838992
11.185,2.0,1.0,1.0,34.4,33.0,33.0,2.1,2.1,2.515,0.6802830211210626,-0.020338014408328393,0.720565625201292,0.010982366858805062,-0.078886,-32.722577
11.185,2.0,1.0,1.0,34.4,33.0,33.0,2.1,2.1,2.5175,0.6742169302014344,-0.020710881882089558,0.7261029674061986,0.010948504645176734,-0.079796,-32.605777
11.185,2.0,1.0,1.0,34.4,33.0,33.0,2.1,2.1,2.52,0.668070485510583,-0.021089899518589687,0.731618804762187,0.010910429190252433,-0.080724,-32.488585
11.185,2.0,1.0,1.0,34.4,33.0,33.0,2.1,2.1,2.5225,0.6618428807766858,-0.021475164389348482,0.7371122747571915,0.010867984730690223,-0.08167,-32.370996
11.185,2.0,1.0,1.0,34.4,33.0,33.0,2.1,2.1,2.525,0.6555333020713906,-0.0218667746580012,0.7425824899285633,0.010821010076350944,-0.082634,-32.253005
11.185,2.0,1.0,1.0,34.4,33.0,33.0,2.1,2.1,2.5275,0.6491409279327232,-0.022264829553781854,0.7480285371370985,0.01076933841511704,-0.083617,-32.134606
11.185,2.0,1.0,1.0,34.4,33.0,33.0,2.1,2.1,2.53,0.6426649295020328,-0.022669429341525018,0.7534494768208354,0.010712797110495996,-0.084619,-32.015793
11.185,2.0,1.0,1.0,34.4,33.0,33.0,2.1,2.1,2.5325,0.6361044706757764,-0.023080675287939837,0.758844342228125,0.010651207491739782,-0.085641,-31.89656
11.185,2.0,1.0,1.0,34.4,33.0,33.0,2.1,2.1,2.535,0.629458708272985,-0.023498669623893048,0.7642121386294717,0.010584384636201918,-0.086683,-31.776902
11.185,2.0,1.0,1.0,34.4,33.0,33.0,2.1,2.1,2.5375,0.622726792219322,-0.023923515502420344,0.7695518425076194,0.010512137143645156,-0.087745,-31.656813
11.185,2.0,1.0,1.0,34.4,33.0,33.0,2.1,2.1,2.54,0.6159078657486547,-0.024355316952169588,0.7748624007253788,0.010434266902200335,-0.088828,-31.536286
11.185,2.0,1.0,1.0,34.4,33.0,33.0,2.1,2.1,2.5425,0.6090010656231252,-0.02479417882595939,0.7801427296706643,0.010350568845668814,-0.089934,-31.415316
11.185,2.0,1.0,1.0,34.4,33.0,33.0,2.1,2.1,2.545,0.602005522372756,-0.025240206744116367,0.7853917143782098,0.010260830701847605,-0.091061,-31.293897
11.185,2.0,1.0,1.0,34.4,33.0,33.0,2.1,2.1,2.5475,0.5949203605556767,-0.025693507032234917,0.7906082076274307,0.010164832731548218,-0.09221,-31.172023
11.185,2.0,1.0,1.0,34.4,33.0,33.0,2.1,2.1,2.55,0.5877446990400924,-0.02615418665297841,0.7957910290159061,0.010062347457965682,-0.093383,-31.049687
11.185,2.0,1.0,1.0,34.4,33.0,33.0,2.1,2.1,2.5525,0.5804776513092157,-0.026622353131519692,0.8009389640079153,0.00995313938604461,-0.09458,-30.926883
11.185,2.0,1.0,1.0,34.4,33.0,33.0,2.1,2.1,2.555,0.5731183257903805,-0.027098114474190863,0.8060507629575167,0.0098369647114761,-0.095801,-30.803605
11.185,2.0,1.0,1.0,34.4,33.0,33.0,2.1,2.1,2.5575,0.5656658262096718,-0.02758157907988764,0.8111251401056035,0.009713571018947483,-0.097047,-30.679846
11.185,2.0,1.0,1.0,34.4,33.0,33.0,2.1,2.1,2.56,0.5581192519734439,-0.028072855643743046,0.8161607725504064,0.00958269696925353,-0.098319,-30.555601
11.185,2.0,1.0,1.0,34.4,33.0,33.0,2.1,2.1,2.5625,0.5504776985781689,-0.028572053052556723,0.8211562991908901,0.009444071974865563,-0.099617,-30.430863
11.185,2.0,1.0,1.0,34.4,33.0,33.0,2.1,2.1,2.565,0.5427402580501227,-0.029079280271433007,0.8261103196425127,0.009297415863541011,-0.100942,-30.305624
11.185,2.0,1.0,1.0,34.4,33.0,33.0,2.1,2.1,2.5675,0.5349060194165162,-0.029594646221045816,0.8310213931248038,0.00914243852954243,-0.102295,-30.179879
11.185,2.0,1.0,1.0,34.4,33.0,33.0,2.1,2.1,2.57,0.5269740692097122,-0.03011825964491456,0.8358880373202329,0.008978839572021833,-0.103676,-30.053621
11.185,2.0,1.0,1.0,34.4,33.0,33.0,2.1,2.1,2.5725,0.5189434920062879,-0.03065022896603434,0.8407087272038439,0.008806307920110685,-0.105086,-29.926843
11.185,2.0,1.0,1.0,34.4,33.0,33.0,2.1,2.1,2.575,0.510813371002761,-0.03119066213216399,0.8454818938431381,0.008624521444242837,-0.106526,-29.799539
11.185,2.0,1.0,1.0,34.4,33.0,33.0,2.1,2.1,2.5775,0.5025827886299057,-0.03173966644903112,0.8502059231676925,0.008433146553222349,-0.107996,-29.6717
11.185,2.0,1.0,1.0,34.4,33.0,33.0,2.1,2.1,2.58,0.4942508272076584,-0.032297348400667766,0.8548791547080237,0.008231837776533362,-0.109498,-29.543321
11.185,2.0,1.0,1.0,34.4,33.0,33.0,2.1,2.1,2.5825,0.4858165696427167,-0.03286381345604123,0.8594998803032181,0.008020237331373938,-0.111033,-29.414394
11.185,2.0,1.0,1.0,34.4,33.0,33.0,2.1,2.1,2.585,0.4772791001710394,-0.03343916586109074,0.8640663427768581,0.007797974673880477,-0.112601,-29.284913
11.185,2.0,1.0,1.0,34.4,33.0,33.0,2.1,2.1,2.5875,0.4686375051475468,-0.03402350841522791,0.8685767345808003,0.007564666033994451,-0.114202,-29.154869
11.185,2.0,1.0,1.0,34.4,33.0,33.0,2.1,2.1,2.59,0.4598908738854488,-0.03461694223129642,0.8730291964063835,0.007319913933406629,-0.115839,-29.024256
11.185,2.0,1.0,1.0,34.4,33.0,33.0,2.1,2.1,2.5925,0.4510382995477162,-0.0352195664779271,0.8774218157626676,0.007063306685998631,-0.117512,-28.893066
11.185,2.0,1.0,1.0,34.4,33.0,33.0,2.1,2.1,2.595,0.4420788800933701,-0.03583147810315373,0.8817526255213204,0.0067944178801865995,-0.119222,-28.761291
11.185,2.0,1.0,1.0,34.4,33.0,33.0,2.1,2.1,2.5975,0.4330117192813299,-0.03645277153808848,0.8860196024278321,0.006512805842554728,-0.12097,-28.628925
11.185,2.0,1.0,1.0,34.4,33.0,33.0,2.1,2.1,2.6,0.4238359277347526,-0.037083538379376516,0.8902206655787288,0.006218013082151069,-0.122758,-28.495959
11.185,2.0,1.0,1.0,34.4,33.0,33.0,2.1,2.1,2.6025,0.4145506240688896,-0.037723867049069826,0.8943536748645328,0.005909565714803755,-0.124585,-28.362386
11.185,2.0,1.0,1.0,34.4,33.0,33.0,2.1,2.1,2.605,0.4051549360856407,-0.03837384243047697,0.8984164293782356,0.005586972866797086,-0.126454,-28.228197
11.185,2.0,1.0,1.0,34.4,33.0,33.0,2.1,2.1,2.6075,0.39564800203814066,-0.03903354547845025,0.902406665789112,0.0052497260572353655,-0.128366,-28.093386
11.185,2.0,1.0,1.0,34.4,33.0,33.0,2.1,2.1,2.61,0.3860289719688599,-0.039703052802478656,0.9063220566817392,0.0048972985584050804,-0.130322,-27.957943
11.185,2.0,1.0,1.0,34.4,33.0,33.0,2.1,2.1,2.6125,0.37629700912486447,-0.040382436220849506,0.910160208860155,0.004529144733430875,-0.132323,-27.82186
11.185,2.0,1.0,1.0,34.4,33.0,33.0,2.1,2.1,2.615,0.3664512914540364,-0.041071762284032254,0.9139186616171612,0.004144699350509206,-0.13437,-27.68513
11.185,2.0,1.0,1.0,34.4,33.0,33.0,2.1,2.1,2.6175,0.3564910131862648,-0.04177109176532069,0.917594884968801,0.0037433768729876376,-0.136465,-27.547744
11.185,2.0,1.0,1.0,34.4,33.0,33.0,2.1,2.1,2.62,0.34641538650376297,-0.04248047911664419,0.921186277854176,0.0033245707245463723,-0.13861,-27.409693
11.185,2.0,1.0,1.0,34.4,33.0,33.0,2.1,2.1,2.6225,0.33622364330487453,-0.04319997188732789,0.9246901663007999,0.0028876525287247256,-0.140806,-27.270969
11.185,2.0,1.0,1.0,34.4,33.0,33.0,2.1,2.1,2.625,0.325915037065952,-0.0439296101034348,0.92810380155579,0.00243197132202841,-0.143054,-27.131563
11.185,2.0,1.0,1.0,34.4,33.0,33.0,2.1,2.1,2.6275,0.3154888448060514,-0.04466942560517731,0.9314243581833076,0.0019568527398380864,-0.145356,-26.991466
11.185,2.0,1.0,1.0,34.4,33.0,33.0,2.1,2.1,2.63,0.3049443691594571,-0.0454194413397195,0.9346489321287308,0.0014615981743359432,-0.147713,-26.850669
11.185,2.0,1.0,1.0,34.4,33.0,33.0,2.1,2.1,2.6325,0.29428094056124593,-0.046179670606520125,0.937774538750179,0.0009454839036581995,-0.150128,-26.709163
11.185,2.0,1.0,1.0,34.4,33.0,33.0,2.1,2.1,2.635,0.28349791955134707,-0.046950116252183406,0.9407981108181247,0.0004077601914761662,-0.152602,-26.566939
11.185,2.0,1.0,1.0,34.4,33.0,33.0,2.1,2.1,2.6375,0.27259469920282503,-0.04773076981158471,0.9437164964839299,-0.00015234964379314442,-0.155138,-26.423987
11.185,2.0,1.0,1.0,34.4,33.0,33.0,2.1,2.1,2.64,0.2615707076803094,-0.048521610591832035,0.9465264572183505,-0.0007356501909483056,-0.157736,-26.280298
11.185,2.0,1.0,1.0,34.4,33.0,33.0,2.1,2.1,2.6425,0.25042541093486603,-0.04932260469539461,0.9492246657211085,-0.0013429749399342524,-0.1604,-26.135861
11.185,2.0,1.0,1.0,34.4,33.0,33.0,2.1,2.1,2.645,0.23915831554179753,-0.050133703978492344,0.9518077038028827,-0.0019751873085362974,-0.16313,-25.990668
11.185,2.0,1.0,1.0,34.4,33.0,33.0,2.1,2.1,2.6475,0.22776897168821772,-0.050954844940579995,0.9542720602411866,-0.0026331817026219273,-0.16593,-25.844708
11.185,2.0,1.0,1.0,34.4,33.0,33.0,2.1,2.1,2.65,0.21625697631752744,-0.05178594754048764,0.9566141286117996,-0.003317884610704143,-0.168802,-25.697971
11.185,2.0,1.0,1.0,34.4,33.0,33.0,2.1,2.1,2.6525,0.2046219764382757,-0.052626913934475765,0.9588302050976489,-0.0040302557335800075,-0.171747,-25.550446
11.185,2.0,1.0,1.0,34.4,33.0,33.0,2.1,2.1,2.655,0.19286367260520526,-0.053477627131156204,0.9609164862771922,-0.004771289149781426,-0.174769,-25.402123
11.185,2.0,1.0,1.0,34.4,33.0,33.0,2.1,2.1,2.6575,0.1809818225806662,-0.05433794955788167,0.9628690668946506,-0.005542014517542766,-0.17787,-25.252992
11.185,2.0,1.0,1.0,34.4,33.0,33.0,2.1,2.1,2.66,0.16897624518495105,-0.055207721532845824,0.9646839376146253,-0.006343498313962683,-0.181053,-25.103041
11.185,2.0,1.0,1.0,34.4,33.0,33.0,2.1,2.1,2.6625,0.15684682434451572,-0.05608675963674121,0.9663569827639495,-0.0071768451119894935,-0.18432,-24.952259
11.185,2.0,1.0,1.0,34.4,33.0,33.0,2.1,2.1,2.665,0.14459351334745627,-0.05697485497740421,0.9678839780638517,-0.008043198895820627,-0.187675,-24.800635
11.185,2.0,1.0,1.0,34.4,33.0,33.0,2.1,2.1,2.6675,0.13221633931608653,-0.05787177134041711,0.9692605883558617,-0.008943744415240363,-0.19112,-24.648157
11.185,2.0,1.0,1.0,34.4,33.0,33.0,2.1,2.1,2.67,0.11971540790689063,-0.05877724321815516,0.9704823653251736,-0.00987970857936079,-0.194659,-24.494814
11.185,2.0,1.0,1.0,34.4,33.0,33.0,2.1,2.1,2.6725,0.10709090824866603,-0.05969097370923651,0.9715447452255346,-0.010852361890148904,-0.198295,-24.340594
11.185,2.0,1.0,1.0,34.4,33.0,33.0,2.1,2.1,2.675,0.0943431181301734,-0.060612632279766404,0.9724430466101067,-0.011863019916032051,-0.202031,-24.185484
11.185,2.0,1.0,1.0,34.4,33.0,33.0,2.1,2.1,2.6775,0.08147240944916621,-0.06154185237715498,0.9731724680731318,-0.012913044805770341,-0.205871,-24.029473
11.185,2.0,1.0,1.0,34.4,33.0,33.0,2.1,2.1,2.68,0.06847925393529819,-0.0624782288866309,0.973728086007635,-0.014003846842664786,-0.209819,-23.872546
11.185,2.0,1.0,1.0,34.4,33.0,33.0,2.1,2.1,2.6825,0.055364229160009826,-0.0634213154198495,0.9741048523848769,-0.015136886039026229,-0.213879,-23.714692
11.185,2.0,1.0,1.0,34.4,33.0,33.0,2.1,2.1,2.685,0.04212802484716721,-0.06437062142423144,0.974297592561738,-0.016313673770676967,-0.218055,-23.555897
11.185,2.0,1.0,1.0,34.4,33.0,33.0,2.1,2.1,2.6875,0.02877144949898301,-0.0653256091008242,0.9743010031227102,-0.01753577445106975,-0.222351,-23.396147
11.185,2.0,1.0,1.0,34.4,33.0,33.0,2.1,2.1,2.69,0.015295437352510755,-0.06628569011757149,0.9741096497637425,-0.018804807244400652,-0.226772,-23.235429
11.185,2.0,1.0,1.0,34.4,33.0,33.0,2.1,2.1,2.6925,0.0017010556827776993,-0.0672502221038959,0.9737179652257786,-0.020122447816857857,-0.231323,-23.073729
11.185,2.0,1.0,1.0,34.4,33.0,33.0,2.1,2.1,2.695,-0.012010487530371006,-0.06821850491142287,0.9731202472864451,-0.021490430124867062,-0.236008,-22.911032
11.185,2.0,1.0,1.0,34.4,33.0,33.0,2.1,2.1,2.6975,-0.025837835553800634,-0.0691897766245202,0.9723106568190253,-0.02291054823889642,-0.240833,-22.747323
11.185,2.0,1.0,1.0,34.4,33.0,33.0,2.1,2.1,2.7,-0.03977947445194057,-0.07016320930305422,0.9712832159286039,-0.024384658201015808,-0.245804,-22.582586
11.185,2.0,1.0,1.0,34.4,33.0,33.0,2.1,2.1,2.7025,-0.05383372421686123,-0.07113790443839127,0.9700318061760502,-0.025914679914011602,-0.250925,-22.416808
11.185,2.0,1.0,1.0,34.4,33.0,33.0,2.1,2.1,2.705,-0.0679987294561647,-0.0721128881021662,0.9685501669013402,-0.027502599059390974,-0.256204,-22.249971
11.185,2.0,1.0,1.0,34.4,33.0,33.0,2.1,2.1,2.7075,-0.08227244961604772,-0.0730871057657013,0.9668318936586713,-0.02915046904108548,-0.261646,-22.082059
11.185,2.0,1.0,1.0,34.4,33.0,33.0,2.1,2.1,2.71,-0.09665264871536113,-0.07405941676616391,0.9648704367768153,-0.030860412951060654,-0.267259,-21.913055
11.185,2.0,1.0,1.0,34.4,33.0,33.0,2.1,2.1,2.7125,-0.1111368845649277,-0.07502858839359193,0.9626591000592155,-0.03263462555235622,-0.273048,-21.742943
11.185,2.0,1.0,1.0,34.4,33.0,33.0,2.1,2.1,2.715,-0.12572249744469974,-0.0759932895707679,0.9601910396395817,-0.03447537527429066,-0.279023,-21.571705
11.185,2.0,1.0,1.0,34.4,33.0,33.0,2.1,2.1,2.7175,-0.14040659820932466,-0.07695208409556625,0.9574592630099736,-0.03638500621366945,-0.28519,-21.399321
11.185,2.0,1.0,1.0,34.4,33.0,33.0,2.1,2.1,2.72,-0.15518605579067984,-0.07790342341281982,0.9544566282398463,-0.03836594013480529,-0.291558,-21.225775
11.185,2.0,1.0,1.0,34.4,33.0,33.0,2.1,2.1,2.7225,-0.17005748406360496,-0.07884563887991115,0.9511758434060611,-0.040420678459983234,-0.298136,-21.051046
11.185,2.0,1.0,1.0,34.4,33.0,33.0,2.1,2.1,2.725,-0.18501722803847995,-0.07977693348717735,0.947609466255652,-0.042551804240642,-0.304932,-20.875114
11.185,2.0,1.0,1.0,34.4,33.0,33.0,2.1,2.1,2.7275,-0.20006134934153555,-0.0806953729907866,0.943749904125016,-0.04476198409799964,-0.311957,-20.69796
11.185,2.0,1.0,1.0,34.4,33.0,33.0,2.1,2.1,2.73,-0.21518561094060368,-0.08159887641196384,0.9395894141414003,-0.04705397012005058,-0.319221,-20.519563
11.185,2.0,1.0,1.0,34.4,33.0,33.0,2.1,2.1,2.7325,-0.23038546107061444,-0.08248520585228043,0.9351201037349283,-0.049430601699813115,-0.326734,-20.339901
11.185,2.0,1.0,1.0,34.4,33.0,33.0,2.1,2.1,2.735,-0.24565601630925077,-0.08335195557012418,0.9303339314921237,-0.05189480729732233,-0.334509,-20.158951
11.185,2.0,1.0,1.0,34.4,33.0,33.0,2.1,2.1,2.7375,-0.2609920437489701,-0.08419654025839725,0.9252227083849429,-0.05444960610513091,-0.342557,-19.97669
11.185,2.0,1.0,1.0,34.4,33.0,33.0,2.1,2.1,2.74,-0.2763879422067623,-0.08501618245788173,0.919778099412751,-0.05709810959390297,-0.350892,-19.793096
11.185,2.0,1.0,1.0,34.4,33.0,33.0,2.1,2.1,2.7425,-0.2918377224078425,-0.08580789903452196,0.9139916256986088,-0.05984352291103093,-0.359526,-19.608143
11.185,2.0,1.0,1.0,34.4,33.0,33.0,2.1,2.1,2.745,-0.3073349860734472,-0.0865684866420171,0.9078546670856713,-0.0626891461009458,-0.368476,-19.421806
11.185,2.0,1.0,1.0,34.4,33.0,33.0,2.1,2.1,2.7475,-0.32287290383646255,-0.08729450608353773,0.9013584652846283,-0.06563837511086988,-0.377756,-19.234059
11.185,2.0,1.0,1.0,34.4,33.0,33.0,2.1,2.1,2.75,-0.338444191901185,-0.0879822654779858,0.894494127628926,-0.0686947025400315,-0.387383,-19.044875
11.185,2.0,1.0,1.0,34.4,33.0,33.0,2.1,2.1,2.7525,-0.3540410873553678,-0.08862780212692611,0.8872526315012671,-0.07186171808370291,-0.397375,-18.854226
11.185,2.0,1.0,1.0,34.4,33.0,33.0,2.1,2.1,2.755,-0.3696553220335626,-0.08922686296801975,0.87962482950266,-0.07514310861566176,-0.40775,-18.662083
11.185,2.0,1.0,1.0,34.4,33.0,33.0,2.1,2.1,2.7575,-0.3852780948206447,-0.08977488348939966,0.8716014554442529,-0.07854265784364618,-0.418528,-18.468415
11.185,2.0,1.0,1.0,34.4,33.0,33.0,2.1,2.1,2.76,-0.4009000422728877,-0.09026696496679695,0.8631731312526765,-0.08206424546179582,-0.429731,-18.273193
11.185,2.0,1.0,1.0,34.4,33.0,33.0,2.1,2.1,2.7625,-0.41651120742147535,-0.09069784987126485,0.8543303748917376,-0.0857118457117546,-0.441382,-18.076383
11.185,2.0,1.0,1.0,34.4,33.0,33.0,2.1,2.1,2.765,-0.4321010066090612,-0.09106189527987843,0.8450636094174968,-0.08948952524965714,-0.453505,-17.877952
11.185,2.0,1.0,1.0,34.4,33.0,33.0,2.1,2.1,2.7675,-0.44765819419435277,-0.09135304410470588,0.8353631733003458,-0.09340144019931193,-0.466127,-17.677866
11.185,2.0,1.0,1.0,34.4,33.0,33.0,2.1,2.1,2.77,-0.46317082494224265,-0.09156479393646628,0.8252193321670641,-0.09745183225206508,-0.479275,-17.476089
11.185,2.0,1.0,1.0,34.4,33.0,33.0,2.1,2.1,2.7725,-0.47862621389753285,-0.09169016327847211,0.8146222921386387,-0.10164502365053131,-0.492981,-17.272583
11.185,2.0,1.0,1.0,34.4,33.0,33.0,2.1,2.1,2.775,-0.494010893518997,-0.09172165492353189,0.8035622149663664,-0.1059854108660161,-0.507276,-17.06731
11.185,2.0,1.0,1.0,34.4,33.0,33.0,2.1,2.1,2.7775,-0.5093105678266313,-0.09165121620130327,0.7920292352002243,-0.11047745674724681,-0.522196,-16.860229
11.185,2.0,1.0,1.0,34.4,33.0,33.0,2.1,2.1,2.78,-0.5245100632890219,-0.09147019579599974,0.7800134796606191,-0.1151256808801164,-0.537778,-16.651299
11.185,2.0,1.0,1.0,34.4,33.0,33.0,2.1,2.1,2.7825,-0.5395932761489665,-0.09116929680422277,0.7675050895284099,-0.11993464785342327,-0.554063,-16.440476
11.185,2.0,1.0,1.0,34.4,33.0,33.0,2.1,2.1,2.785,-0.5545431158543743,-0.09073852566994536,0.7544942454197661,-0.12490895307287089,-0.571095,-16.227716
11.185,2.0,1.0,1.0,34.4,33.0,33.0,2.1,2.1,2.7875,-0.5693414442273912,-0.09016713659825784,0.7409711958736734,-0.13005320570326792,-0.588922,-16.012972
11.185,2.0,1.0,1.0,34.4,33.0,33.0,2.1,2.1,2.79,-0.5839690099682372,-0.08944357101145058,0.7269262897521978,-0.13537200824527273,-0.607596,-15.796195
11.185,2.0,1.0,1.0,34.4,33.0,33.0,2.1,2.1,2.7925,-0.5984053780511337,-0.08855539157052761,0.7123500131394787,-0.14086993216591556,-0.627171,-15.577336
11.185,2.0,1.0,1.0,34.4,33.0,33.0,2.1,2.1,2.795,-0.6126288535285247,-0.08748921024261531,0.6972330314270134,-0.1465514888990698,-0.647709,-15.356342
11.185,2.0,1.0,1.0,34.4,33.0,33.0,2.1,2.1,2.7975,-0.626616399216937,-0.0862306098505436,0.681566237393501,-0.1524210954099059,-0.669276,-15.133158
11.185,2.0,1.0,1.0,34.4,33.0,33.0,2.1,2.1,2.8,-0.6403435466943239,-0.0847640584959773,0.6653408062305887,-0.15848303337270167,-0.691944,-14.90773
11.185,2.0,1.0,1.0,34.4,33.0,33.0,2.1,2.1,2.8025,-0.6537842999957606,-0.08307281620317725,0.6485482586358983,-0.16474140083978078,-0.715792,-14.68
11.185,2.0,1.0,1.0,34.4,33.0,33.0,2.1,2.1,2.805,-0.6669110313538166,-0.08113883308866282,0.6311805332965447,-0.17120005507588765,-0.740904,-14.449906
11.185,2.0,1.0,1.0,34.4,33.0,33.0,2.1,2.1,2.8075,-0.6796943682945644,-0.07894263832537092,0.6132300703261357,-0.17786254499093,-0.767376,-14.217388
11.185,2.0,1.0,1.0,34.4,33.0,33.0,2.1,2.1,2.81,-0.6921030713737301,-0.07646321914208572,0.5946899075029157,-0.18473203131771446,-0.795309,-13.982382
11.185,2.0,1.0,1.0,34.4,33.0,33.0,2.1,2.1,2.8125,-0.704103901824913,-0.0736778890850315,0.575553791494817,-0.191811192341718,-0.824816,-13.744821
11.185,2.0,1.0,1.0,34.4,33.0,33.0,2.1,2.1,2.815,-0.7156614784002968,-0.07056214477548084,0.5558163066581624,-0.19910211258746038,-0.856023,-13.504639
11.185,2.0,1.0,1.0,34.4,33.0,33.0,2.1,2.1,2.8175,-0.7267381227230908,-0.06708951043441734,0.5354730244722357,-0.20660615138927546,-0.889065,-13.261767
11.185,2.0,1.0,1.0,34.4,33.0,33.0,2.1,2.1,2.82,-0.7372936925528156,-0.0632313695252124,0.5145206772347751,-0.21432378771025604,-0.924094,-13.016133
11.185,2.0,1.0,1.0,34.4,33.0,33.0,2.1,2.1,2.8225,-0.7472854025062434,-0.05895678300468317,0.4929573603086538,-0.22225443690697433,-0.961277,-12.767666
11.185,2.0,1.0,1.0,34.4,33.0,33.0,2.1,2.1,2.825,-0.7566676320008002,-0.05423229389399017,0.4707827679943318,-0.23039623435247197,-1.000798,-12.516292
11.185,2.0,1.0,1.0,34.4,33.0,33.0,2.1,2.1,2.8275,-0.7653917205230549,-0.04902171821298241,0.4479984690245422,-0.23874577990752885,-1.042863,-12.26194
11.185,2.0,1.0,1.0,34.4,33.0,33.0,2.1,2.1,2.83,-0.7734057508113851,-0.04328592280343852,0.4246082287571305,-0.24729783615042278,-1.087701,-12.004534
