1,w,sub_t,h,l1,l2,l3,g1,g2,Freq,S11_re,S21_re,S11_img,S21_img,S11_dB,S21_dB
11.185,2.0,1.0,1.0,34.3,34.2,34.2,1.6,2.5,2.5,0.721359682538383,-0.0220524576834362,0.678375925498239,0.0139797935483021,-0.085286,-31.663777
11.185,2.0,1.0,1.0,34.3,34.2,34.2,1.6,2.5,2.5025,0.7156747847227451,-0.02250853649698696,0.6841886395622091,0.013994362576126875,-0.08639,-31.533683
11.185,2.0,1.0,1.0,34.3,34.2,34.2,1.6,2.5,2.505,0.7099075848837654,-0.02297386338266669,0.6899862493282607,0.014005030889713355,-0.087519,-31.402979
11.185,2.0,1.0,1.0,34.3,34.2,34.2,1.6,2.5,2.5075,0.704057099382596,-0.023448649625333388,0.6957679710337368,0.0140116134588049,-0.088672,-31.271654
11.185,2.0,1.0,1.0,34.3,34.2,34.2,1.6,2.5,2.51,0.6981223289830826,-0.02393311200618278,0.7015329949161049,0.014013917083101787,-0.089852,-31.139699
11.185,2.0,1.0,1.0,34.3,34.2,34.2,1.6,2.5,2.5125,0.6921022586490967,-0.02442747295166945,0.7072804842806142,0.014011740003639188,-0.091059,-31.007102
11.185,2.0,1.0,1.0,34.3,34.2,34.2,1.6,2.5,2.515,0.6859958573434607,-0.024931960685822485,0.71300957453117,0.014004871493809612,-0.092293,-30.873852
11.185,2.0,1.0,1.0,34.3,34.2,34.2,1.6,2.5,2.5175,0.6798020778288485,-0.025446809385936377,0.7187193721627358,0.013993091428849516,-0.093556,-30.739938
11.185,2.0,1.0,1.0,34.3,34.2,34.2,1.6,2.5,2.52,0.673519856471115,-0.025972259341606782,0.7244089537135312,0.013976169832532859,-0.094847,-30.605349
11.185,2.0,1.0,1.0,34.3,34.2,34.2,1.6,2.5,2.5225,0.6671481130455241,-0.026508557117062608,0.730077364675134,0.013953866399734604,-0.096169,-30.470072
11.185,2.0,1.0,1.0,34.3,34.2,34.2,1.6,2.5,2.525,0.6606857505463938,-0.027055955716730147,0.7357236183585673,0.013925929993438741,-0.097522,-30.334095
11.185,2.0,1.0,1.0,34.3,34.2,34.2,1.6,2.5,2.5275,0.6541316550007049,-0.027614714753944287,0.7413466947142868,0.013892098114673571,-0.098907,-30.197407
11.185,2.0,1.0,1.0,34.3,34.2,34.2,1.6,2.5,2.53,0.6474846952863085,-0.028185100622698075,0.7469455391038946,0.01385209634375668,-0.100325,-30.059996
11.185,2.0,1.0,1.0,34.3,34.2,34.2,1.6,2.5,2.5325,0.6407437229553773,-0.02876738667229836,0.7525190610212885,0.01380563775112476,-0.101777,-29.921847
11.185,2.0,1.0,1.0,34.3,34.2,34.2,1.6,2.5,2.535,0.6339075720638262,-0.02936185338476502,0.7580661327608146,0.013752422275908812,-0.103264,-29.78295
11.185,2.0,1.0,1.0,34.3,34.2,34.2,1.6,2.5,2.5375,0.6269750590074892,-0.02996878855477896,0.7635855880298565,0.0136921360702927,-0.104787,-29.64329
11.185,2.0,1.0,1.0,34.3,34.2,34.2,1.6,2.5,2.54,0.6199449823659051,-0.03058848747194928,0.7690762205031466,0.013624450807559358,-0.106347,-29.502854
11.185,2.0,1.0,1.0,34.3,34.2,34.2,1.6,2.5,2.5425,0.6128161227546302,-0.03122125310512703,0.7745367823159353,0.013549022951588179,-0.107946,-29.361629
11.185,2.0,1.0,1.0,34.3,34.2,34.2,1.6,2.5,2.545,0.605587242687096,-0.03186739628844912,0.7799659824929803,0.01346549298541308,-0.109585,-29.219601
11.185,2.0,1.0,1.0,34.3,34.2,34.2,1.6,2.5,2.5475,0.5982570864471064,-0.03252723590874243,0.78536248531012,0.01337348459628818,-0.111265,-29.076755
11.185,2.0,1.0,1.0,34.3,34.2,34.2,1.6,2.5,2.55,0.5908243799731557,-0.03320109909386394,0.7907249085850532,0.013272603814529918,-0.112987,-28.933078
11.185,2.0,1.0,1.0,34.3,34.2,34.2,1.6,2.5,2.5525,0.5832878307558834,-0.03388932140148331,0.796051821893674,0.013162438103214926,-0.114753,-28.788553
11.185,2.0,1.0,1.0,34.3,34.2,34.2,1.6,2.5,2.555,0.5756461277500685,-0.03459224700774681,0.8013417447081467,0.013042555395609312,-0.116564,-28.643167
11.185,2.0,1.0,1.0,34.3,34.2,34.2,1.6,2.5,2.5575,0.5678979413026949,-0.035310228895178035,0.8065931444526538,0.012912503076982771,-0.118423,-28.496904
11.185,2.0,1.0,1.0,34.3,34.2,34.2,1.6,2.5,2.56,0.5600419230987874,-0.0360436290390794,0.811804434472471,0.01277180690722649,-0.12033,-28.349747
11.185,2.0,1.0,1.0,34.3,34.2,34.2,1.6,2.5,2.5625,0.5520767061268227,-0.036792818591598796,0.8169739719117861,0.012619969880434598,-0.122287,-28.201682
11.185,2.0,1.0,1.0,34.3,34.2,34.2,1.6,2.5,2.565,0.5440009046657193,-0.037558178062511216,0.8221000554953807,0.01245647101733646,-0.124296,-28.052691
11.185,2.0,1.0,1.0,34.3,34.2,34.2,1.6,2.5,2.5675,0.5358131142955934,-0.038340097495636265,0.8271809232089532,0.012280764086167241,-0.126359,-27.902759
11.185,2.0,1.0,1.0,34.3,34.2,34.2,1.6,2.5,2.57,0.5275119119346369,-0.03913897663967233,0.8322147498725667,0.012092276247244177,-0.128478,-27.751867
11.185,2.0,1.0,1.0,34.3,34.2,34.2,1.6,2.5,2.5725,0.5190958559047231,-0.039955225112067144,0.8371996446013095,0.011890406616168761,-0.130654,-27.599998
11.185,2.0,1.0,1.0,34.3,34.2,34.2,1.6,2.5,2.575,0.5105634860285772,-0.040789262554364596,0.8421336481468871,0.01167452474020155,-0.132891,-27.447134
11.185,2.0,1.0,1.0,34.3,34.2,34.2,1.6,2.5,2.5775,0.5019133237616138,-0.04164151877726916,0.8470147301134393,0.011443968981949873,-0.13519,-27.293257
11.185,2.0,1.0,1.0,34.3,34.2,34.2,1.6,2.5,2.58,0.4931438723618449,-0.04251243389344271,0.8518407860404122,0.01119804480407374,-0.137553,-27.138348
11.185,2.0,1.0,1.0,34.3,34.2,34.2,1.6,2.5,2.5825,0.4842536171015645,-0.04340245843579847,0.8566096343448558,0.010936022948239681,-0.139983,-26.982388
11.185,2.0,1.0,1.0,34.3,34.2,34.2,1.6,2.5,2.585,0.47524102552491104,-0.04431205345877358,0.8613190131149612,0.010657137501042307,-0.142483,-26.825358
11.185,2.0,1.0,1.0,34.3,34.2,34.2,1.6,2.5,2.5875,0.4661045477557628,-0.04524169061974545,0.8659665767461223,0.010360583839058388,-0.145055,-26.667236
11.185,2.0,1.0,1.0,34.3,34.2,34.2,1.6,2.5,2.59,0.456842616860897,-0.04619185223740209,0.8705498924101412,0.010045516444599256,-0.147702,-26.508003
11.185,2.0,1.0,1.0,34.3,34.2,34.2,1.6,2.5,2.5925,0.4474536492737969,-0.047163031323479265,0.8750664363476054,0.009711046583076186,-0.150426,-26.347637
11.185,2.0,1.0,1.0,34.3,34.2,34.2,1.6,2.5,2.595,0.43793604528506697,-0.048155731583826474,0.8795135899726777,0.009356239832192295,-0.153232,-26.186117
11.185,2.0,1.0,1.0,34.3,34.2,34.2,1.6,2.5,2.5975,0.42828818960597226,-0.049170467384267426,0.8838886357788323,0.008980113452407642,-0.156123,-26.02342
11.185,2.0,1.0,1.0,34.3,34.2,34.2,1.6,2.5,2.6,0.4185084520123077,-0.05020776367615009,0.8881887530331968,0.00858163358730071,-0.159101,-25.859524
11.185,2.0,1.0,1.0,34.3,34.2,34.2,1.6,2.5,2.6025,0.40859518807655903,-0.05126815587584919,0.8924110132462479,0.00815971228154988,-0.162171,-25.694405
11.185,2.0,1.0,1.0,34.3,34.2,34.2,1.6,2.5,2.605,0.3985467399970895,-0.05235218969177193,0.8965523754026777,0.0077132043032852775,-0.165335,-25.528039
11.185,2.0,1.0,1.0,34.3,34.2,34.2,1.6,2.5,2.6075,0.3883614375340597,-0.05346042089161021,0.9006096809381291,0.007240903756506724,-0.1686,-25.360403
11.185,2.0,1.0,1.0,34.3,34.2,34.2,1.6,2.5,2.61,0.378037599062791,-0.05459341500168004,0.9045796484453905,0.006741540468115143,-0.171967,-25.19147
11.185,2.0,1.0,1.0,34.3,34.2,34.2,1.6,2.5,2.6125,0.36757353275641635,-0.055751746929169406,0.9084588680923775,0.006213776132860069,-0.175443,-25.021214
11.185,2.0,1.0,1.0,34.3,34.2,34.2,1.6,2.5,2.615,0.3569675379109574,-0.05693600049696502,0.9122437957328727,0.005656200198156949,-0.179032,-24.84961
11.185,2.0,1.0,1.0,34.3,34.2,34.2,1.6,2.5,2.6175,0.3462179064274192,-0.05814676787943076,0.9159307466895537,0.00506732546925633,-0.182738,-24.67663
11.185,2.0,1.0,1.0,34.3,34.2,34.2,1.6,2.5,2.62,0.3353229244670674,-0.05938464892604663,0.9195158891872158,0.00444558341365802,-0.186567,-24.502246
11.185,2.0,1.0,1.0,34.3,34.2,34.2,1.6,2.5,2.6225,0.32428087429787494,-0.060650250358164216,0.9229952374124117,0.0037893191419274396,-0.190525,-24.326428
11.185,2.0,1.0,1.0,34.3,34.2,34.2,1.6,2.5,2.625,0.313090036352188,-0.0619441848222571,0.926364644173823,0.00309678604019721,-0.194618,-24.149148
11.185,2.0,1.0,1.0,34.3,34.2,34.2,1.6,2.5,2.6275,0.30174869151786504,-0.06326706978093811,0.9296197931356744,0.0023661400275919947,-0.198851,-23.970375
11.185,2.0,1.0,1.0,34.3,34.2,34.2,1.6,2.5,2.63,0.29025512368780104,-0.06461952622060838,0.9327561905942958,0.0015954334096024154,-0.203232,-23.790078
11.185,2.0,1.0,1.0,34.3,34.2,34.2,1.6,2.5,2.6325,0.27860762259558153,-0.0660021771518936,0.9357691567655567,0.0007826082960283893,-0.207767,-23.608224
11.185,2.0,1.0,1.0,34.3,34.2,34.2,1.6,2.5,2.635,0.2668044869683156,-0.06741564587594046,0.9386538165482796,-7.45104504933781e-05,-0.212465,-23.424781
11.185,2.0,1.0,1.0,34.3,34.2,34.2,1.6,2.5,2.6375,0.2548440280313874,-0.06886055398614867,0.9414050897259979,-0.0009782227721908383,-0.217332,-23.239713
11.185,2.0,1.0,1.0,34.3,34.2,34.2,1.6,2.5,2.64,0.24272457340401327,-0.07033751907094835,0.9440176805663243,-0.0019309615199628136,-0.222377,-23.052987
11.185,2.0,1.0,1.0,34.3,34.2,34.2,1.6,2.5,2.6425,0.2304444714292772,-0.07184715207871134,0.9464860667739652,-0.002935301146478113,-0.22761,-22.864566
11.185,2.0,1.0,1.0,34.3,34.2,34.2,1.6,2.5,2.645,0.2180020959876375,-0.07339005430075324,0.948804487749831,-0.003993967035339977,-0.23304,-22.674413
11.185,2.0,1.0,1.0,34.3,34.2,34.2,1.6,2.5,2.6475,0.20539585184900425,-0.07496681392253034,0.9509669321048916,-0.005109845516958031,-0.238677,-22.482488
11.185,2.0,1.0,1.0,34.3,34.2,34.2,1.6,2.5,2.65,0.192624180625385,-0.07657800208647353,0.9529671243732896,-0.0062859946259406834,-0.244531,-22.288754
11.185,2.0,1.0,1.0,34.3,34.2,34.2,1.6,2.5,2.6525,0.17968556739402047,-0.07822416840228388,0.9547985108647685,-0.007525655659303908,-0.250615,-22.093169
11.185,2.0,1.0,1.0,34.3,34.2,34.2,1.6,2.5,2.655,0.16657854806979247,-0.07990583583184521,0.9564542445917539,-0.008832265599616243,-0.256942,-21.895691
11.185,2.0,1.0,1.0,34.3,34.2,34.2,1.6,2.5,2.6575,0.15330171761600436,-0.08162349486596879,0.9579271692012836,-0.010209470472345453,-0.263523,-21.696277
11.185,2.0,1.0,1.0,34.3,34.2,34.2,1.6,2.5,2.66,0.139853739194201,-0.08337759689884248,0.9592098018365769,-0.011661139712174551,-0.270373,-21.494882
11.185,2.0,1.0,1.0,34.3,34.2,34.2,1.6,2.5,2.6625,0.12623335436708494,-0.08516854669304931,0.9602943148472696,-0.013191381618886883,-0.277508,-21.29146
11.185,2.0,1.0,1.0,34.3,34.2,34.2,1.6,2.5,2.665,0.11243939448373495,-0.08699669381313467,0.9611725162612234,-0.014804559989590326,-0.284944,-21.085964
11.185,2.0,1.0,1.0,34.3,34.2,34.2,1.6,2.5,2.6675,0.09847079339384858,-0.08886232288860442,0.9618358289244736,-0.016505312020512225,-0.292698,-20.878344
11.185,2.0,1.0,1.0,34.3,34.2,34.2,1.6,2.5,2.67,0.08432660165764283,-0.0907656425476349,0.962275268209173,-0.018298567578338257,-0.300789,-20.66855
11.185,2.0,1.0,1.0,34.3,34.2,34.2,1.6,2.5,2.6725,0.07000600244098497,-0.09270677284023496,0.9624814181826103,-0.02018956994799743,-0.309238,-20.456531
11.185,2.0,1.0,1.0,34.3,34.2,34.2,1.6,2.5,2.675,0.05550832931168781,-0.09468573094368556,0.9624444061233886,-0.022183898170841675,-0.318065,-20.242231
11.185,2.0,1.0,1.0,34.3,34.2,34.2,1.6,2.5,2.6775,0.04083308618310002,-0.09670241491326143,0.9621538752639274,-0.02428749109419626,-0.327294,-20.025595
11.185,2.0,1.0,1.0,34.3,34.2,34.2,1.6,2.5,2.68,0.02597996968594501,-0.09875658520688649,0.9615989556317613,-0.0265066732600911,-0.336951,-19.806566
11.185,2.0,1.0,1.0,34.3,34.2,34.2,1.6,2.5,2.6825,0.010948894289490268,-0.10084784367276951,0.9607682328557852,-0.028848182767375607,-0.347063,-19.585084
11.185,2.0,1.0,1.0,34.3,34.2,34.2,1.6,2.5,2.685,-0.004259979460768271,-0.10297560964339832,0.9596497147980915,-0.03131920124707661,-0.35766,-19.361089
11.185,2.0,1.0,1.0,34.3,34.2,34.2,1.6,2.5,2.6875,-0.0196462131683825,-0.105139092726536,0.958230795867685,-0.0339273860953208,-0.368772,-19.134517
11.185,2.0,1.0,1.0,34.3,34.2,34.2,1.6,2.5,2.69,-0.03520905479219285,-0.10733726182296653,0.9564982188697545,-0.03668090511089058,-0.380436,-18.905302
11.185,2.0,1.0,1.0,34.3,34.2,34.2,1.6,2.5,2.6925,-0.050947398280625396,-0.10956880983037337,0.9544380342440242,-0.039588473684780474,-0.392688,-18.673379
11.185,2.0,1.0,1.0,34.3,34.2,34.2,1.6,2.5,2.695,-0.06685973799898232,-0.1118321134113701,0.9520355565489306,-0.04265939468601306,-0.40557,-18.438676
11.185,2.0,1.0,1.0,34.3,34.2,34.2,1.6,2.5,2.6975,-0.08294411722004856,-0.11412518710964946,0.9492753180562229,-0.045903601180301734,-0.419125,-18.201123
11.185,2.0,1.0,1.0,34.3,34.2,34.2,1.6,2.5,2.7,-0.09919806983861412,-0.11644563098940539,0.9461410193345594,-0.04933170210427349,-0.433403,-17.960646
11.185,2.0,1.0,1.0,34.3,34.2,34.2,1.6,2.5,2.7025,-0.11561855434399046,-0.11879057084737422,0.9426154767228859,-0.05295503099596958,-0.448457,-17.717168
11.185,2.0,1.0,1.0,34.3,34.2,34.2,1.6,2.5,2.705,-0.1322018789381172,-0.12115658990135701,0.938680566627247,-0.056785697849581374,-0.464343,-17.470612
11.185,2.0,1.0,1.0,34.3,34.2,34.2,1.6,2.5,2.7075,-0.14894361651782662,-0.12353965069096937,0.9343171666216129,-0.06083664411562527,-0.481125,-17.220897
11.185,2.0,1.0,1.0,34.3,34.2,34.2,1.6,2.5,2.71,-0.16583850804456085,-0.12593500573222044,0.9295050933985235,-0.06512170080276959,-0.498874,-16.96794
11.185,2.0,1.0,1.0,34.3,34.2,34.2,1.6,2.5,2.7125,-0.18288035259977198,-0.1283370952436046,0.9242230377039736,-0.0696556495489962,-0.517663,-16.711656
11.185,2.0,1.0,1.0,34.3,34.2,34.2,1.6,2.5,2.715,-0.2000618821650238,-0.13073943000351668,0.9184484965101906,-0.07445428641084419,-0.537579,-16.451957
11.185,2.0,1.0,1.0,34.3,34.2,34.2,1.6,2.5,2.7175,-0.2173746188680857,-0.13313445710249072,0.9121577028380663,-0.07953448796153835,-0.558711,-16.188756
11.185,2.0,1.0,1.0,34.3,34.2,34.2,1.6,2.5,2.72,-0.2348087120951227,-0.13551340601422662,0.9053255538492717,-0.0849142790808044,-0.581163,-15.921959
11.185,2.0,1.0,1.0,34.3,34.2,34.2,1.6,2.5,2.7225,-0.2523527524797574,-0.13786611202177218,0.8979255381003052,-0.09061290154724057,-0.605046,-15.651476
11.185,2.0,1.0,1.0,34.3,34.2,34.2,1.6,2.5,2.725,-0.2699935593372947,-0.14018081359485524,0.8899296632046335,-0.09665088219053998,-0.630485,-15.37721
11.185,2.0,1.0,1.0,34.3,34.2,34.2,1.6,2.5,2.7275,-0.28771593761310477,-0.1424439198172199,0.8813083856068619,-0.10305009890350225,-0.657617,-15.099067
11.185,2.0,1.0,1.0,34.3,34.2,34.2,1.6,2.5,2.73,-0.30550239985477795,-0.14463974340610106,0.872030544762692,-0.10983384222445797,-0.686596,-14.81695
11.185,2.0,1.0,1.0,34.3,34.2,34.2,1.6,2.5,2.7325,-0.32333284809823937,-0.14675019424934735,0.8620633047754113,-0.11702686944440917,-0.717592,-14.530762
11.185,2.0,1.0,1.0,34.3,34.2,34.2,1.6,2.5,2.735,-0.3411842098815222,-0.14875442771255779,0.8513721075079753,-0.12465544722571475,-0.750795,-14.240406
11.185,2.0,1.0,1.0,34.3,34.2,34.2,1.6,2.5,2.7375,-0.35903002187614,-0.15062844124848862,0.8399206424241775,-0.13274737748582632,-0.786417,-13.945787
11.185,2.0,1.0,1.0,34.3,34.2,34.2,1.6,2.5,2.74,-0.37683995387331687,-0.15234461209257782,0.8276708399809111,-0.1413319997325016,-0.824696,-13.64681
11.185,2.0,1.0,1.0,34.3,34.2,34.2,1.6,2.5,2.7425,-0.39457926511337554,-0.1538711680841556,0.8145828973794951,-0.15044016105292182,-0.865899,-13.343386
11.185,2.0,1.0,1.0,34.3,34.2,34.2,1.6,2.5,2.745,-0.412208184253316,-0.15517158296510505,0.8006153479887543,-0.16010414245691698,-0.910324,-13.035426
11.185,2.0,1.0,1.0,34.3,34.2,34.2,1.6,2.5,2.7475,-0.4296812037114316,-0.15620388695752002,0.7857251888977479,-0.17035752713271765,-0.95831,-12.722852
11.185,2.0,1.0,1.0,34.3,34.2,34.2,1.6,2.5,2.75,-0.446946278830229,-0.156919883131089,0.769868084984908,-0.181234992249222,-1.010238,-12.40559
11.185,2.0,1.0,1.0,34.3,34.2,34.2,1.6,2.5,2.7525,-0.46394392243898064,-0.15726426021839313,0.7529986727677072,-0.1927720010673412,-1.066539,-12.083578
11.185,2.0,1.0,1.0,34.3,34.2,34.2,1.6,2.5,2.755,-0.4806061862326122,-0.15717359337972936,0.7350709933052236,-0.2050043661224918,-1.127701,-11.756767
11.185,2.0,1.0,1.0,34.3,34.2,34.2,1.6,2.5,2.7575,-0.49685552227977053,-0.15657522632361245,0.7160390907560268,-0.217967646920432,-1.19428,-11.425125
11.185,2.0,1.0,1.0,34.3,34.2,34.2,1.6,2.5,2.76,-0.5126035214390748,-0.15538603166395848,0.6958578220262173,-0.23169633676949808,-1.266907,-11.088641
11.185,2.0,1.0,1.0,34.3,34.2,34.2,1.6,2.5,2.7625,-0.5277495311983673,-0.15351105213882527,0.6744839334127083,-0.24622278291916294,-1.346306,-10.747328
11.185,2.0,1.0,1.0,34.3,34.2,34.2,1.6,2.5,2.765,-0.5421791643995401,-0.15084203427023646,0.6518774722886693,-0.26157577205497945,-1.4333,-10.401233
11.185,2.0,1.0,1.0,34.3,34.2,34.2,1.6,2.5,2.7675,-0.5557627237162904,-0.1472558794534942,0.6280036155294209,-0.27777869957637336,-1.528836,-10.05044
11.185,2.0,1.0,1.0,34.3,34.2,34.2,1.6,2.5,2.77,-0.5683535862162228,-0.14261305692773593,0.602835011037482,-0.29484722645799416,-1.634,-9.695081
11.185,2.0,1.0,1.0,34.3,34.2,34.2,1.6,2.5,2.7725,-0.5797866198566332,-0.1367560505889764,0.576354743341209,-0.3127863129220167,-1.750043,-9.335343
11.185,2.0,1.0,1.0,34.3,34.2,34.2,1.6,2.5,2.775,-0.5898767417047719,-0.1295079495277676,0.5485600468981716,-0.3315865055425187,-1.878405,-8.971483
11.185,2.0,1.0,1.0,34.3,34.2,34.2,1.6,2.5,2.7775,-0.5984177786581905,-0.12067134312003427,0.5194668982369995,-0.3512193469584513,-2.020751,-8.603834
11.185,2.0,1.0,1.0,34.3,34.2,34.2,1.6,2.5,2.78,-0.6051818580209566,-0.11002774801596239,0.48911561540085063,-0.3716317801049972,-2.179008,-8.23283
11.185,2.0,1.0,1.0,34.3,34.2,34.2,1.6,2.5,2.7825,-0.6099196393082496,-0.09733787828979527,0.45757757283164563,-0.39273943925902755,-2.355405,-7.859011
11.185,2.0,1.0,1.0,34.3,34.2,34.2,1.6,2.5,2.785,-0.6123618000907511,-0.08234317130753682,0.42496309127445836,-0.4144187688039646,-2.552529,-7.483051
11.185,2.0,1.0,1.0,34.3,34.2,34.2,1.6,2.5,2.7875,-0.6122223038206996,-0.06476909679856821,0.3914304713879021,-0.43649800153255275,-2.773381,-7.105771
11.185,2.0,1.0,1.0,34.3,34.2,34.2,1.6,2.5,2.79,-0.6092040961860926,-0.04433089495506906,0.3571959891424664,-0.45874717886996064,-3.021444,-6.728164
11.185,2.0,1.0,1.0,34.3,34.2,34.2,1.6,2.5,2.7925,-0.6030079781821912,-0.0207424906944364,0.32254444175121844,-0.4808676245954774,-3.300758,-6.351416
11.185,2.0,1.0,1.0,34.3,34.2,34.2,1.6,2.5,2.795,-0.5933454537725451,0.00627061947556713,0.2878395082315999,-0.5024816079861895,-3.616002,-5.97692
11.185,2.0,1.0,1.0,34.3,34.2,34.2,1.6,2.5,2.7975,-0.5799562943733562,0.036953767564246356,0.2535327625226858,-0.5231233579527431,-3.972585,-5.6063
11.185,2.0,1.0,1.0,34.3,34.2,34.2,1.6,2.5,2.8,-0.5626313289332115,0.07150029449369824,0.22016966636337443,-0.5422330996330522,-4.37673,-5.241414
11.185,2.0,1.0,1.0,34.3,34.2,34.2,1.6,2.5,2.8025,-0.5412404719527816,0.11002350054553507,0.1883903317895182,-0.5591563210964302,-4.835543,-4.884362
11.185,2.0,1.0,1.0,34.3,34.2,34.2,1.6,2.5,2.805,-0.5157651641666708,0.15252419277353627,0.15892239743209086,-0.5731509220166942,-5.357042,-4.537466
11.185,2.0,1.0,1.0,34.3,34.2,34.2,1.6,2.5,2.8075,-0.4863331885233305,0.19885586714383222,0.13256320011656297,-0.5834050572393021,-5.950073,-4.203249
11.185,2.0,1.0,1.0,34.3,34.2,34.2,1.6,2.5,2.81,-0.4532523062506643,0.24869107874579965,0.11014879823656024,-0.5890681118006855,-6.624002,-3.884376
11.185,2.0,1.0,1.0,34.3,34.2,34.2,1.6,2.5,2.8125,-0.417037568829997,0.30149413899367,0.0925085817927582,-0.589296064974068,-7.387891,-3.583588
11.185,2.0,1.0,1.0,34.3,34.2,34.2,1.6,2.5,2.815,-0.37842594126835405,0.3565064949289067,0.08040635312613517,-0.5833103528252912,-8.248613,-3.303598
11.185,2.0,1.0,1.0,34.3,34.2,34.2,1.6,2.5,2.8175,-0.33837162805578985,0.41275138546057016,0.07447179375779248,-0.5704663107808405,-9.206689,-3.046974
11.185,2.0,1.0,1.0,34.3,34.2,34.2,1.6,2.5,2.82,-0.2980168397188587,0.46906301996411853,0.0751296536657475,-0.5503238628334677,-10.247589,-2.816009
11.185,2.0,1.0,1.0,34.3,34.2,34.2,1.6,2.5,2.8225,-0.25863600466675934,0.5241422580963504,0.0825368790846899,-0.5227102522832501,-11.325035,-2.612582
11.185,2.0,1.0,1.0,34.3,34.2,34.2,1.6,2.5,2.825,-0.22155633716938697,0.5766358682352225,0.09653905855031016,-0.4877634534197644,-12.335351,-2.438036
11.185,2.0,1.0,1.0,34.3,34.2,34.2,1.6,2.5,2.8275,-0.1880631578357547,0.6252309656545418,0.1166560427362509,-0.4459464331772121,-13.100133,-2.293085
11.185,2.0,1.0,1.0,34.3,34.2,34.2,1.6,2.5,2.83,-0.15930278136987905,0.6687518250387146,0.1421021641531933,-0.3980268613027805,-13.413171,-2.177751
