1,w,sub_t,h,l1,l2,l3,g1,g2,Freq,S11_re,S21_re,S11_img,S21_img,S11_dB,S21_dB
11.185,2.0,1.0,1.0,33.0,34.7,34.7,2.8,2.3,2.5,0.894241144735476,-0.00773565626398714,0.43310375451875,0.00869640166594186,-0.055746,-38.68164
11.185,2.0,1.0,1.0,33.0,34.7,34.7,2.8,2.3,2.5025,0.891505985808711,-0.007921341873705414,0.43855392307096286,0.008779440326961617,-0.056334,-38.544114
11.185,2.0,1.0,1.0,33.0,34.7,34.7,2.8,2.3,2.505,0.8887255720853392,-0.008111369748285377,0.44400771398482525,0.008863028546056025,-0.056934,-38.405904
11.185,2.0,1.0,1.0,33.0,34.7,34.7,2.8,2.3,2.5075,0.8858994102107934,-0.008305868329087062,0.44946502740375627,0.008947164970238834,-0.057548,-38.266995
11.185,2.0,1.0,1.0,33.0,34.7,34.7,2.8,2.3,2.51,0.883026995553063,-0.008504971093825413,0.45492576002340335,0.009031847757925433,-0.058175,-38.127365
11.185,2.0,1.0,1.0,33.0,34.7,34.7,2.8,2.3,2.5125,0.8801078118336221,-0.0087088168027743,0.46038980494704845,0.009117074536392992,-0.058815,-37.986997
11.185,2.0,1.0,1.0,33.0,34.7,34.7,2.8,2.3,2.515,0.877141330741047,-0.00891754975938164,0.4658570515341713,0.009202842355708257,-0.059471,-37.845872
11.185,2.0,1.0,1.0,33.0,34.7,34.7,2.8,2.3,2.5175,0.8741270115262569,-0.009131320086278741,0.4713273852417245,0.009289147638810013,-0.060141,-37.703968
11.185,2.0,1.0,1.0,33.0,34.7,34.7,2.8,2.3,2.52,0.8710643005782168,-0.009350284017744693,0.47680068745767523,0.009375986127403585,-0.060826,-37.561266
11.185,2.0,1.0,1.0,33.0,34.7,34.7,2.8,2.3,2.5225,0.8679526309788717,-0.0095746042097685,0.48227683532628673,0.009463352823290604,-0.061527,-37.417745
11.185,2.0,1.0,1.0,33.0,34.7,34.7,2.8,2.3,2.525,0.8647914220359659,-0.009804450068944176,0.4877557015646173,0.009551241924721048,-0.062245,-37.273383
11.185,2.0,1.0,1.0,33.0,34.7,34.7,2.8,2.3,2.5275,0.8615800787923126,-0.01003999810153201,0.49323715426963544,0.00963964675731326,-0.062979,-37.128158
11.185,2.0,1.0,1.0,33.0,34.7,34.7,2.8,2.3,2.53,0.8583179915099622,-0.010281432284127088,0.4987210567153087,0.009728559699042195,-0.063731,-36.982047
11.185,2.0,1.0,1.0,33.0,34.7,34.7,2.8,2.3,2.5325,0.8550045351275943,-0.010528944457494254,0.5042072671389715,0.009817972098746044,-0.064502,-36.835028
11.185,2.0,1.0,1.0,33.0,34.7,34.7,2.8,2.3,2.535,0.8516390686893193,-0.01078273474525742,0.5096956385162146,0.009907874187545367,-0.065291,-36.687077
11.185,2.0,1.0,1.0,33.0,34.7,34.7,2.8,2.3,2.5375,0.8482209347429421,-0.011043011999270599,0.5151860183234575,0.00999825498250665,-0.066099,-36.538168
11.185,2.0,1.0,1.0,33.0,34.7,34.7,2.8,2.3,2.54,0.8447494587055686,-0.011309994273653133,0.5206782482873131,0.010089102181813157,-0.066928,-36.388277
11.185,2.0,1.0,1.0,33.0,34.7,34.7,2.8,2.3,2.5425,0.8412239481942624,-0.011583909329638608,0.5261721641197462,0.010180402050628978,-0.067777,-36.237379
11.185,2.0,1.0,1.0,33.0,34.7,34.7,2.8,2.3,2.545,0.8376436923192767,-0.01186499517357198,0.5316675952379523,0.010272139296756156,-0.068648,-36.085445
11.185,2.0,1.0,1.0,33.0,34.7,34.7,2.8,2.3,2.5475,0.83400796093717,-0.012153500630590588,0.5371643644677605,0.01036429693508906,-0.069542,-35.932449
11.185,2.0,1.0,1.0,33.0,34.7,34.7,2.8,2.3,2.55,0.8303160038608777,-0.012449685956747917,0.5426622877292792,0.010456856139763418,-0.070459,-35.778363
11.185,2.0,1.0,1.0,33.0,34.7,34.7,2.8,2.3,2.5525,0.8265670500235822,-0.012753823492580476,0.5481611737033302,0.01054979608277702,-0.071401,-35.623157
11.185,2.0,1.0,1.0,33.0,34.7,34.7,2.8,2.3,2.555,0.8227603065929209,-0.013066198361388105,0.5536608234771242,0.010643093757726116,-0.072368,-35.466802
11.185,2.0,1.0,1.0,33.0,34.7,34.7,2.8,2.3,2.5575,0.8188949580317796,-0.01338710921579103,0.559161030167436,0.010736723787150583,-0.07336,-35.309266
11.185,2.0,1.0,1.0,33.0,34.7,34.7,2.8,2.3,2.56,0.8149701651015941,-0.01371686903645203,0.5646615785193665,0.010830658211812864,-0.074381,-35.150518
11.185,2.0,1.0,1.0,33.0,34.7,34.7,2.8,2.3,2.5625,0.8109850638036927,-0.014055805987209962,0.5701622444785891,0.010924866260046264,-0.075429,-34.990526
11.185,2.0,1.0,1.0,33.0,34.7,34.7,2.8,2.3,2.565,0.806938764253819,-0.014404264331265886,0.5756627947347459,0.011019314095095753,-0.076507,-34.829254
11.185,2.0,1.0,1.0,33.0,34.7,34.7,2.8,2.3,2.5675,0.8028303494845294,-0.014762605413497923,0.5811629862334047,0.011113964538134197,-0.077616,-34.666669
11.185,2.0,1.0,1.0,33.0,34.7,34.7,2.8,2.3,2.57,0.7986588741696508,-0.015131208714464887,0.5866625656537123,0.01120877676436751,-0.078757,-34.502733
11.185,2.0,1.0,1.0,33.0,34.7,34.7,2.8,2.3,2.5725,0.7944233632644442,-0.015510472982191152,0.5921612688485642,0.011303705969336834,-0.079931,-34.33741
11.185,2.0,1.0,1.0,33.0,34.7,34.7,2.8,2.3,2.575,0.7901228105545137,-0.015900817448416937,0.5976588202437375,0.011398703002181593,-0.081141,-34.170662
11.185,2.0,1.0,1.0,33.0,34.7,34.7,2.8,2.3,2.5775,0.7857561771058215,-0.016302683136653954,0.6031549321920452,0.011493713962237015,-0.082386,-34.002447
11.185,2.0,1.0,1.0,33.0,34.7,34.7,2.8,2.3,2.58,0.7813223896074325,-0.016716534270114332,0.6086493042781013,0.011588679754898001,-0.08367,-33.832725
11.185,2.0,1.0,1.0,33.0,34.7,34.7,2.8,2.3,2.5825,0.7768203385977698,-0.017142859788390707,0.6141416225687767,0.01168353560217972,-0.084994,-33.661452
11.185,2.0,1.0,1.0,33.0,34.7,34.7,2.8,2.3,2.585,0.7722488765642559,-0.017582174982665157,0.6196315588038301,0.011778210502835186,-0.086359,-33.488586
11.185,2.0,1.0,1.0,33.0,34.7,34.7,2.8,2.3,2.5875,0.7676068159051697,-0.018035023260228544,0.6251187695205389,0.011872626636241824,-0.087767,-33.314079
11.185,2.0,1.0,1.0,33.0,34.7,34.7,2.8,2.3,2.59,0.7628929267414294,-0.01850197805020988,0.630602895105384,0.011966698703529437,-0.089221,-33.137883
11.185,2.0,1.0,1.0,33.0,34.7,34.7,2.8,2.3,2.5925,0.7581059345647081,-0.018983644863665966,0.6360835587649967,0.012060333198578424,-0.090723,-32.959951
11.185,2.0,1.0,1.0,33.0,34.7,34.7,2.8,2.3,2.595,0.7532445177068894,-0.019480663522575853,0.6415603654075573,0.012153427600552227,-0.092275,-32.780229
11.185,2.0,1.0,1.0,33.0,34.7,34.7,2.8,2.3,2.5975,0.748307304614251,-0.019993710573850108,0.6470329004247455,0.012245869478523378,-0.09388,-32.598665
11.185,2.0,1.0,1.0,33.0,34.7,34.7,2.8,2.3,2.6,0.7432928709079966,-0.020523501906214197,0.6525007283630173,0.012337535497485305,-0.095539,-32.415204
11.185,2.0,1.0,1.0,33.0,34.7,34.7,2.8,2.3,2.6025,0.7381997362107492,-0.02107079558979028,0.6579633914715045,0.01242829031358625,-0.097257,-32.229788
11.185,2.0,1.0,1.0,33.0,34.7,34.7,2.8,2.3,2.605,0.733026360716363,-0.021636394960409852,0.6634204081121508,0.012517985344746286,-0.099035,-32.042357
11.185,2.0,1.0,1.0,33.0,34.7,34.7,2.8,2.3,2.6075,0.7277711414778923,-0.02222115197317035,0.6688712710156985,0.01260645740088653,-0.100878,-31.852848
11.185,2.0,1.0,1.0,33.0,34.7,34.7,2.8,2.3,2.61,0.7224324083857128,-0.022825970852544838,0.6743154453649004,0.012693527155768294,-0.102789,-31.661197
11.185,2.0,1.0,1.0,33.0,34.7,34.7,2.8,2.3,2.6125,0.7170084198045775,-0.023451812069505775,0.6797523666837022,0.01277899743985794,-0.104771,-31.467337
11.185,2.0,1.0,1.0,33.0,34.7,34.7,2.8,2.3,2.615,0.7114973578347724,-0.024099696679682585,0.685181438508107,0.012862651330639465,-0.106828,-31.271196
11.185,2.0,1.0,1.0,33.0,34.7,34.7,2.8,2.3,2.6175,0.7058973231584601,-0.024770711060594773,0.6906020298109047,0.012944250013318646,-0.108964,-31.072702
11.185,2.0,1.0,1.0,33.0,34.7,34.7,2.8,2.3,2.62,0.7002063294276649,-0.025466012090557592,0.6960134721483673,0.013023530380814241,-0.111185,-30.871776
11.185,2.0,1.0,1.0,33.0,34.7,34.7,2.8,2.3,2.6225,0.6944222971451043,-0.026186832817019185,0.7014150564922209,0.013100202337209002,-0.113495,-30.66834
11.185,2.0,1.0,1.0,33.0,34.7,34.7,2.8,2.3,2.625,0.688543046983159,-0.0269344886679444,0.706806029704631,0.013173945763312,-0.115899,-30.462309
11.185,2.0,1.0,1.0,33.0,34.7,34.7,2.8,2.3,2.6275,0.6825662924794728,-0.02771038426652339,0.7121855906074186,0.013244407096516416,-0.118403,-30.253595
11.185,2.0,1.0,1.0,33.0,34.7,34.7,2.8,2.3,2.63,0.6764896320400335,-0.02851602091705471,0.71755288558904,0.013311195469541019,-0.121013,-30.042107
11.185,2.0,1.0,1.0,33.0,34.7,34.7,2.8,2.3,2.6325,0.670310540171812,-0.029353004838489908,0.7229070036838681,0.013373878343705146,-0.123736,-29.827748
11.185,2.0,1.0,1.0,33.0,34.7,34.7,2.8,2.3,2.635,0.6640263578570612,-0.0302230562319735,0.7282469710476679,0.013431976561840283,-0.126579,-29.610418
11.185,2.0,1.0,1.0,33.0,34.7,34.7,2.8,2.3,2.6375,0.6576342819699952,-0.03112801927996383,0.7335717447406,0.013484958733468604,-0.129551,-29.39001
11.185,2.0,1.0,1.0,33.0,34.7,34.7,2.8,2.3,2.64,0.6511313536235066,-0.03206987318738943,0.7388802057141994,0.01353223485008949,-0.132659,-29.166414
11.185,2.0,1.0,1.0,33.0,34.7,34.7,2.8,2.3,2.6425,0.644514445318706,-0.03305074439002513,0.7441711508810629,0.01357314901083359,-0.135913,-28.939513
11.185,2.0,1.0,1.0,33.0,34.7,34.7,2.8,2.3,2.645,0.6377802467529521,-0.034072920072161846,0.7494432841249095,0.013606971117787067,-0.139323,-28.709183
11.185,2.0,1.0,1.0,33.0,34.7,34.7,2.8,2.3,2.6475,0.6309252491224454,-0.03513886315501725,0.7546952060834673,0.013632887375238231,-0.1429,-28.475296
11.185,2.0,1.0,1.0,33.0,34.7,34.7,2.8,2.3,2.65,0.6239457277329467,-0.03625122893958792,0.7599254025064681,0.013649989397071495,-0.146657,-28.237716
11.185,2.0,1.0,1.0,33.0,34.7,34.7,2.8,2.3,2.6525,0.6168377227063461,-0.03741288361320468,0.7651322309547014,0.013657261690431606,-0.150606,-27.996298
11.185,2.0,1.0,1.0,33.0,34.7,34.7,2.8,2.3,2.655,0.6095970175410423,-0.03862692485846405,0.770313905562384,0.013653567240248334,-0.154763,-27.750892
11.185,2.0,1.0,1.0,33.0,34.7,34.7,2.8,2.3,2.6575,0.6022191152499384,-0.03989670483701446,0.7754684795321429,0.013637630866550007,-0.159143,-27.501337
11.185,2.0,1.0,1.0,33.0,34.7,34.7,2.8,2.3,2.66,0.5946992117605205,-0.04122585585958021,0.7805938249677485,0.0136080199625882,-0.163765,-27.247464
11.185,2.0,1.0,1.0,33.0,34.7,34.7,2.8,2.3,2.6625,0.587032166216292,-0.04261831909832597,0.785687609571562,0.013563122143984476,-0.168648,-26.989093
11.185,2.0,1.0,1.0,33.0,34.7,34.7,2.8,2.3,2.665,0.5792124677668686,-0.04407837674905867,0.7907472696382335,0.013501119244046268,-0.173813,-26.726036
11.185,2.0,1.0,1.0,33.0,34.7,34.7,2.8,2.3,2.6675,0.5712341983744867,-0.04561068810971589,0.7957699786591387,0.01341995697384726,-0.179286,-26.458089
11.185,2.0,1.0,1.0,33.0,34.7,34.7,2.8,2.3,2.67,0.563090991096405,-0.047220330109092414,0.8007526107081019,0.013317309422254474,-0.185093,-26.18504
11.185,2.0,1.0,1.0,33.0,34.7,34.7,2.8,2.3,2.6725,0.5547759832248352,-0.04891284289677886,0.8056916976011581,0.01319053739396114,-0.191264,-25.906661
11.185,2.0,1.0,1.0,33.0,34.7,34.7,2.8,2.3,2.675,0.5462817635775723,-0.05069428119277151,0.810583378602708,0.0130366393639877,-0.197833,-25.62271
11.185,2.0,1.0,1.0,33.0,34.7,34.7,2.8,2.3,2.6775,0.5376003131326179,-0.052571272193940796,0.8154233411761308,0.012852193553787519,-0.204838,-25.332929
11.185,2.0,1.0,1.0,33.0,34.7,34.7,2.8,2.3,2.68,0.5287229380883928,-0.05455108094491842,0.8202067509341483,0.012633289292514262,-0.212321,-25.037042
11.185,2.0,1.0,1.0,33.0,34.7,34.7,2.8,2.3,2.6825,0.519640194307827,-0.05664168420273546,0.8249281685141182,0.012375445398363319,-0.220331,-24.734757
11.185,2.0,1.0,1.0,33.0,34.7,34.7,2.8,2.3,2.685,0.5103418019710066,-0.05885185395631537,0.829581450561433,0.012073512774712554,-0.228921,-24.425758
11.185,2.0,1.0,1.0,33.0,34.7,34.7,2.8,2.3,2.6875,0.5008165491205092,-0.06119125190035904,0.8341596313181915,0.011721557732085924,-0.238154,-24.109708
11.185,2.0,1.0,1.0,33.0,34.7,34.7,2.8,2.3,2.69,0.4910521826423862,-0.0636705363018362,0.8386547804422778,0.011312721677802383,-0.2481,-23.786248
11.185,2.0,1.0,1.0,33.0,34.7,34.7,2.8,2.3,2.6925,0.48103528509524723,-0.06630148282483472,0.8430578315684131,0.010839051705301155,-0.258839,-23.454989
11.185,2.0,1.0,1.0,33.0,34.7,34.7,2.8,2.3,2.695,0.47075113569934707,-0.06909712097666697,0.8473583746943926,0.010291295191506202,-0.270464,-23.115514
11.185,2.0,1.0,1.0,33.0,34.7,34.7,2.8,2.3,2.6975,0.46018355375816666,-0.07207188787343859,0.8515444036352784,0.009658649676252644,-0.283083,-22.767376
11.185,2.0,1.0,1.0,33.0,34.7,34.7,2.8,2.3,2.7,0.4493147228576616,-0.07524180094594762,0.8556020074062065,0.008928456923677297,-0.296817,-22.41009
11.185,2.0,1.0,1.0,33.0,34.7,34.7,2.8,2.3,2.7025,0.4381249944535155,-0.07862465093609541,0.859514991297798,0.008085826979251903,-0.311812,-22.043135
11.185,2.0,1.0,1.0,33.0,34.7,34.7,2.8,2.3,2.705,0.4265926700423732,-0.08224021594215739,0.8632644093654954,0.00711317400733986,-0.328234,-21.665947
11.185,2.0,1.0,1.0,33.0,34.7,34.7,2.8,2.3,2.7075,0.4146937622202202,-0.08611049615704171,0.8668279847558179,0.005989640414277611,-0.346282,-21.277917
11.185,2.0,1.0,1.0,33.0,34.7,34.7,2.8,2.3,2.71,0.4024017368769541,-0.09025996699024719,0.8701793873241912,0.004690378818464042,-0.366187,-20.878385
11.185,2.0,1.0,1.0,33.0,34.7,34.7,2.8,2.3,2.7125,0.3896872420597606,-0.09471584497293842,0.8732873288084384,0.0031856522718877915,-0.388225,-20.466637
11.185,2.0,1.0,1.0,33.0,34.7,34.7,2.8,2.3,2.715,0.376517834446717,-0.09950835542984997,0.8761144236780279,0.0014397010391909307,-0.412727,-20.0419
11.185,2.0,1.0,1.0,33.0,34.7,34.7,2.8,2.3,2.7175,0.36285772315118026,-0.10467098211820106,0.8786157477261513,-0.000590691750119547,-0.440087,-19.603336
11.185,2.0,1.0,1.0,33.0,34.7,34.7,2.8,2.3,2.72,0.34866756470235716,-0.1102406649103793,0.8807370052882892,-0.002958024357969748,-0.470784,-19.150038
11.185,2.0,1.0,1.0,33.0,34.7,34.7,2.8,2.3,2.7225,0.33390436566118403,-0.11625788899641425,0.8824121881570662,-0.005726407078849663,-0.5054,-18.681027
11.185,2.0,1.0,1.0,33.0,34.7,34.7,2.8,2.3,2.725,0.31852158545020026,-0.12276657299769617,0.8835605731114842,-0.008974551728256102,-0.544648,-18.195251
11.185,2.0,1.0,1.0,33.0,34.7,34.7,2.8,2.3,2.7275,0.30246958962425013,-0.129813605810218,0.8840828588538413,-0.012799618335644204,-0.589408,-17.691578
11.185,2.0,1.0,1.0,33.0,34.7,34.7,2.8,2.3,2.73,0.28569669582087814,-0.13744779013043307,0.8838561862385104,-0.01732217398884957,-0.640776,-17.168808
11.185,2.0,1.0,1.0,33.0,34.7,34.7,2.8,2.3,2.7325,0.2681512014828651,-0.14571780403698104,0.8827277197752375,-0.022692584238296662,-0.700126,-16.625681
11.185,2.0,1.0,1.0,33.0,34.7,34.7,2.8,2.3,2.735,0.24978501656171492,-0.15466855838194177,0.8805064018372327,-0.029099223423574586,-0.769197,-16.060893
11.185,2.0,1.0,1.0,33.0,34.7,34.7,2.8,2.3,2.7375,0.23055989628367698,-0.1643349567582255,0.8769524471149417,-0.03677893338447949,-0.850207,-15.473142
11.185,2.0,1.0,1.0,33.0,34.7,34.7,2.8,2.3,2.74,0.2104578548480899,-0.17473148058158824,0.8717641793764241,-0.04603012451177361,-0.946007,-14.861186
11.185,2.0,1.0,1.0,33.0,34.7,34.7,2.8,2.3,2.7425,0.1894982484266094,-0.18583511704433248,0.8645620488873983,-0.05722867570707754,-1.060291,-14.223955
11.185,2.0,1.0,1.0,33.0,34.7,34.7,2.8,2.3,2.745,0.16776537757766477,-0.197557790622461,0.8548703662428186,-0.07084609156653657,-1.197877,-13.560713
11.185,2.0,1.0,1.0,33.0,34.7,34.7,2.8,2.3,2.7475,0.14545237945519884,-0.20970254641875924,0.8420989674585738,-0.08746769634969197,-1.365064,-12.871336
11.185,2.0,1.0,1.0,33.0,34.7,34.7,2.8,2.3,2.75,0.122929548716818,-0.22189537788504,0.825530673359644,-0.107805000012076,-1.570087,-12.156718
11.185,2.0,1.0,1.0,33.0,34.7,34.7,2.8,2.3,2.7525,0.10084719464575248,-0.23348264230114046,0.8043277344360495,-0.1326890562475521,-1.823598,-11.419411
11.185,2.0,1.0,1.0,33.0,34.7,34.7,2.8,2.3,2.755,0.08028186235688609,-0.24338531262713928,0.7775839288607341,-0.16301818874875387,-2.139005,-10.664553
11.185,2.0,1.0,1.0,33.0,34.7,34.7,2.8,2.3,2.7575,0.062922847540656,-0.2499132345082653,0.7444705791343154,-0.19961193719458464,-2.532135,-9.901178
11.185,2.0,1.0,1.0,33.0,34.7,34.7,2.8,2.3,2.76,0.05125814444010057,-0.2505803266770536,0.7045504572443115,-0.24289751173883223,-3.018831,-9.143894
11.185,2.0,1.0,1.0,33.0,34.7,34.7,2.8,2.3,2.7625,0.04863343278975285,-0.24204703249975362,0.6583383392939046,-0.292350472956348,-3.607381,-8.4147
11.185,2.0,1.0,1.0,33.0,34.7,34.7,2.8,2.3,2.765,0.05892209541911493,-0.22045144447671894,0.6081005280938265,-0.34569797512983286,-4.279908,-7.74417
11.185,2.0,1.0,1.0,33.0,34.7,34.7,2.8,2.3,2.7675,0.08545954824671984,-0.1824742656288602,0.5585998726955074,-0.39817836045387284,-4.957506,-7.170543
11.185,2.0,1.0,1.0,33.0,34.7,34.7,2.8,2.3,2.77,0.12916358258998367,-0.12721351736913591,0.5170297579147746,-0.4426121994942574,-5.466771,-6.734822
11.185,2.0,1.0,1.0,33.0,34.7,34.7,2.8,2.3,2.7725,0.1866644563710095,-0.05804438873345043,0.49126035522141487,-0.47115691628490686,-5.588072,-6.47127
11.185,2.0,1.0,1.0,33.0,34.7,34.7,2.8,2.3,2.775,0.2501860000805417,0.01727213077338849,0.48661681214020425,-0.47852007877585406,-5.237642,-6.396342
11.185,2.0,1.0,1.0,33.0,34.7,34.7,2.8,2.3,2.7775,0.3101495201205198,0.08919383385583977,0.5032856516831902,-0.4645370990694212,-4.565663,-6.502365
11.185,2.0,1.0,1.0,33.0,34.7,34.7,2.8,2.3,2.78,0.3589236313978299,0.15013473121690865,0.5365396035528098,-0.4339348861883727,-3.801755,-6.760472
11.185,2.0,1.0,1.0,33.0,34.7,34.7,2.8,2.3,2.7825,0.3929743937304031,0.196599322959426,0.5794183592158106,-0.3936529519608493,-3.09667,-7.130634
11.185,2.0,1.0,1.0,33.0,34.7,34.7,2.8,2.3,2.785,0.412513806665602,0.22882328705466962,0.6255414597521148,-0.3500415259822137,-2.506736,-7.572371
11.185,2.0,1.0,1.0,33.0,34.7,34.7,2.8,2.3,2.7875,0.41986491210786064,0.2491403056131581,0.6704911157410758,-0.3074889564796982,-2.035333,-8.051518
11.185,2.0,1.0,1.0,33.0,34.7,34.7,2.8,2.3,2.79,0.4179510065300031,0.26047699263614377,0.7118536689139011,-0.268384965839471,-1.66586,-8.542482
11.185,2.0,1.0,1.0,33.0,34.7,34.7,2.8,2.3,2.7925,0.40943916709314543,0.2655014638275203,0.7486687907018529,-0.23367173897503646,-1.377819,-9.027652
11.185,2.0,1.0,1.0,33.0,34.7,34.7,2.8,2.3,2.795,0.3964348310362885,0.2663208745116756,0.7808357078936404,-0.20343611368093506,-1.152811,-9.495697
11.185,2.0,1.0,1.0,33.0,34.7,34.7,2.8,2.3,2.7975,0.38047308616021785,0.2644739871797964,0.8086805190941287,-0.1773404621917566,-0.976033,-9.939786
11.185,2.0,1.0,1.0,33.0,34.7,34.7,2.8,2.3,2.8,0.36262093560500164,0.26103378222372814,0.8326951227003714,-0.15488234996280364,-0.836118,-10.356122
11.185,2.0,1.0,1.0,33.0,34.7,34.7,2.8,2.3,2.8025,0.34359706468737017,0.25672717948729806,0.8533989059877242,-0.1355318838324586,-0.724507,-10.742871
11.185,2.0,1.0,1.0,33.0,34.7,34.7,2.8,2.3,2.805,0.323874054133074,0.2520371017322279,0.8712743738204755,-0.1187954578773588,-0.634795,-11.099421
11.185,2.0,1.0,1.0,33.0,34.7,34.7,2.8,2.3,2.8075,0.303755538910772,0.24727950377544833,0.8867428474502403,-0.10423963904245648,-0.562185,-11.425888
11.185,2.0,1.0,1.0,33.0,34.7,34.7,2.8,2.3,2.81,0.2834310419802917,0.2426581396057656,0.9001600470003287,-0.09149528219864271,-0.503069,-11.722796
11.185,2.0,1.0,1.0,33.0,34.7,34.7,2.8,2.3,2.8125,0.263013704801892,0.238302297835934,0.911820533976297,-0.0802528337484609,-0.454715,-11.990871
11.185,2.0,1.0,1.0,33.0,34.7,34.7,2.8,2.3,2.815,0.2425657908520897,0.2342923786080603,0.921965373840897,-0.07025442214344406,-0.415038,-12.230911
11.185,2.0,1.0,1.0,33.0,34.7,34.7,2.8,2.3,2.8175,0.22211575018598564,0.23067709499460748,0.9307903191824451,-0.0612854070046917,-0.382439,-12.443704
11.185,2.0,1.0,1.0,33.0,34.7,34.7,2.8,2.3,2.82,0.2016695628379923,0.2274850134750463,0.9384533401286024,-0.053166539584823105,-0.355682,-12.629974
11.185,2.0,1.0,1.0,33.0,34.7,34.7,2.8,2.3,2.8225,0.1812182347130582,0.22473230681960685,0.945081084168229,-0.04574713450491505,-0.333804,-12.790356
11.185,2.0,1.0,1.0,33.0,34.7,34.7,2.8,2.3,2.825,0.16074271083490116,0.2224279870022853,0.9507741996525957,-0.038899300245315356,-0.316059,-12.925374
11.185,2.0,1.0,1.0,33.0,34.7,34.7,2.8,2.3,2.8275,0.1402170504340036,0.22057746841054773,0.9556116050514414,-0.0325131253988723,-0.301862,-13.035429
11.185,2.0,1.0,1.0,33.0,34.7,34.7,2.8,2.3,2.83,0.119610424329587,0.21918503060420322,0.9596538339790646,-0.02649266499539802,-0.290759,-13.120794
11.185,2.0,1.0,1.0,33.0,34.7,34.7,2.8,2.3,2.8325,0.09888830503744425,0.21825556296936888,0.9629455873835585,-0.020752562812344593,-0.282404,-13.181606
