1,w,sub_t,h,l1,l2,l3,g1,g2,Freq,S11_re,S21_re,S11_img,S21_img,S11_dB,S21_dB
11.185,2.0,1.0,1.0,33.0,33.6,33.6,4.1,4.4,2.5,0.899760458609122,-0.00324431451259987,0.424056454385957,0.00239375328050268,-0.046313,-47.889962
11.185,2.0,1.0,1.0,33.0,33.6,33.6,4.1,4.4,2.5025,0.8971610115084034,-0.003307666660640787,0.42943201857926405,0.002401357840828086,-0.046677,-47.770969
11.185,2.0,1.0,1.0,33.0,33.6,33.6,4.1,4.4,2.505,0.8945199688665763,-0.003371985336714891,0.4348097133399308,0.0024085821532546722,-0.047047,-47.651904
11.185,2.0,1.0,1.0,33.0,33.6,33.6,4.1,4.4,2.5075,0.8918369721604292,-0.0034372864490404,0.4401894100733808,0.0024154139090062834,-0.047423,-47.532759
11.185,2.0,1.0,1.0,33.0,33.6,33.6,4.1,4.4,2.51,0.8891116572479154,-0.003503586253886105,0.4455709764772213,0.0024218404238588198,-0.047804,-47.413525
11.185,2.0,1.0,1.0,33.0,33.6,33.6,4.1,4.4,2.5125,0.8863436542767039,-0.0035709013649537756,0.45095427642004987,0.0024278486249753833,-0.048192,-47.294193
11.185,2.0,1.0,1.0,33.0,33.6,33.6,4.1,4.4,2.515,0.8835325875913433,-0.0036392487630655455,0.4563391698164825,0.0024334250372174157,-0.048585,-47.174756
11.185,2.0,1.0,1.0,33.0,33.6,33.6,4.1,4.4,2.5175,0.8806780756390304,-0.003708645806167738,0.4617255124982626,0.002438555768908059,-0.048984,-47.055204
11.185,2.0,1.0,1.0,33.0,33.6,33.6,4.1,4.4,2.52,0.8777797308739609,-0.0037791102396641353,0.4671131560813398,0.0024432264970225825,-0.04939,-46.935529
11.185,2.0,1.0,1.0,33.0,33.6,33.6,4.1,4.4,2.5225,0.8748371596602605,-0.0038506602070911607,0.4725019478287578,0.002447422451779563,-0.049802,-46.815722
11.185,2.0,1.0,1.0,33.0,33.6,33.6,4.1,4.4,2.525,0.8718499621734797,-0.003923314261149255,0.47789173050923706,0.002451128400605005,-0.050221,-46.695776
11.185,2.0,1.0,1.0,33.0,33.6,33.6,4.1,4.4,2.5275,0.8688177323006353,-0.003997091375104327,0.4832823422512941,0.002454328631440183,-0.050646,-46.575681
11.185,2.0,1.0,1.0,33.0,33.6,33.6,4.1,4.4,2.53,0.8657400575387986,-0.004072010954574526,0.48867361639274715,0.0024570069353623747,-0.051078,-46.455428
11.185,2.0,1.0,1.0,33.0,33.6,33.6,4.1,4.4,2.5325,0.8626165188922127,-0.004148092849718043,0.4940653813254574,0.002459146588485997,-0.051517,-46.335009
11.185,2.0,1.0,1.0,33.0,33.6,33.6,4.1,4.4,2.535,0.8594466907679282,-0.004225357367838323,0.499457460335144,0.0024607303331101076,-0.051963,-46.214415
11.185,2.0,1.0,1.0,33.0,33.6,33.6,4.1,4.4,2.5375,0.856230140869954,-0.004303825286424106,0.5048496714360989,0.002461740358075885,-0.052416,-46.093637
11.185,2.0,1.0,1.0,33.0,33.6,33.6,4.1,4.4,2.54,0.8529664300919093,-0.0043835178666424045,0.5102418272006365,0.0024621582782963177,-0.052877,-45.972667
11.185,2.0,1.0,1.0,33.0,33.6,33.6,4.1,4.4,2.5425,0.849655112408173,-0.004464456867303397,0.5156337345830937,0.002461965113417817,-0.053345,-45.851495
11.185,2.0,1.0,1.0,33.0,33.6,33.6,4.1,4.4,2.545,0.8462957347635195,-0.004546664559317326,0.5210251947381972,0.0024611412655713965,-0.053821,-45.730112
11.185,2.0,1.0,1.0,33.0,33.6,33.6,4.1,4.4,2.5475,0.8428878369612413,-0.004630163740664287,0.5264160028335938,0.0024596664961685734,-0.054305,-45.608509
11.185,2.0,1.0,1.0,33.0,33.6,33.6,4.1,4.4,2.55,0.8394309515497431,-0.0047149777518990564,0.5318059478563626,0.0024575199016948733,-0.054797,-45.486678
11.185,2.0,1.0,1.0,33.0,33.6,33.6,4.1,4.4,2.5525,0.8359246037076205,-0.004801130492213922,0.5371948124132742,0.0024546798884507934,-0.055297,-45.364607
11.185,2.0,1.0,1.0,33.0,33.6,33.6,4.1,4.4,2.555,0.8323683111272002,-0.004888646436084095,0.5425823725246023,0.002451124146187495,-0.055805,-45.24229
11.185,2.0,1.0,1.0,33.0,33.6,33.6,4.1,4.4,2.5575,0.8287615838965543,-0.0049775506505211915,0.5479683974112544,0.0024468296205812715,-0.056322,-45.119715
11.185,2.0,1.0,1.0,33.0,33.6,33.6,4.1,4.4,2.56,0.8251039243799817,-0.005067868812961622,0.5533526492749836,0.002441772484487753,-0.056848,-44.996874
11.185,2.0,1.0,1.0,33.0,33.6,33.6,4.1,4.4,2.5625,0.8213948270969623,-0.00515962722981836,0.5587348830714427,0.002435928107913156,-0.057382,-44.873756
11.185,2.0,1.0,1.0,33.0,33.6,33.6,4.1,4.4,2.565,0.8176337785995778,-0.005252852855725853,0.5641148462758337,0.0024292710266363786,-0.057926,-44.750353
11.185,2.0,1.0,1.0,33.0,33.6,33.6,4.1,4.4,2.5675,0.8138202573484127,-0.005347573313509358,0.5694922786408744,0.002421774909411667,-0.058479,-44.626654
11.185,2.0,1.0,1.0,33.0,33.6,33.6,4.1,4.4,2.57,0.8099537335869329,-0.005443816914911972,0.5748669119468255,0.002413412523677481,-0.059042,-44.502649
11.185,2.0,1.0,1.0,33.0,33.6,33.6,4.1,4.4,2.5725,0.806033669214351,-0.005541612682114001,0.5802384697432875,0.00240415569969261,-0.059615,-44.378329
11.185,2.0,1.0,1.0,33.0,33.6,33.6,4.1,4.4,2.575,0.802059517656987,-0.0056409903700815715,0.5856066670824707,0.002393975293015791,-0.060197,-44.253682
11.185,2.0,1.0,1.0,33.0,33.6,33.6,4.1,4.4,2.5775,0.798030723738131,-0.005741980489783033,0.5909712102436346,0.0023828411452401,-0.06079,-44.128699
11.185,2.0,1.0,1.0,33.0,33.6,33.6,4.1,4.4,2.58,0.7939467235464291,-0.005844614332314051,0.5963317964483723,0.002370722042887655,-0.061394,-44.00337
11.185,2.0,1.0,1.0,33.0,33.6,33.6,4.1,4.4,2.5825,0.789806944302791,-0.005948923993974649,0.6016881135664118,0.0023575856743644707,-0.062008,-43.877683
11.185,2.0,1.0,1.0,33.0,33.6,33.6,4.1,4.4,2.585,0.7856108042258501,-0.006054942402343374,0.6070398398115854,0.0023433985848690313,-0.062633,-43.751628
11.185,2.0,1.0,1.0,33.0,33.6,33.6,4.1,4.4,2.5875,0.7813577123959818,-0.006162703343397005,0.6123866434276056,0.002328126129141154,-0.063269,-43.625194
11.185,2.0,1.0,1.0,33.0,33.6,33.6,4.1,4.4,2.59,0.777047068617909,-0.0062722414897261715,0.6177281823632693,0.0023117324219309645,-0.063917,-43.498371
11.185,2.0,1.0,1.0,33.0,33.6,33.6,4.1,4.4,2.5925,0.7726782632819085,-0.006383592429900855,0.623064103936706,0.002294180286059473,-0.064577,-43.371146
11.185,2.0,1.0,1.0,33.0,33.6,33.6,4.1,4.4,2.595,0.7682506772236536,-0.00649679269904216,0.6283940444882427,0.0022754311979343894,-0.065249,-43.243508
11.185,2.0,1.0,1.0,33.0,33.6,33.6,4.1,4.4,2.5975,0.763763681582708,-0.006611879810660566,0.633717629021481,0.0022554452303757216,-0.065933,-43.115447
11.185,2.0,1.0,1.0,33.0,33.6,33.6,4.1,4.4,2.6,0.7592166376597055,-0.006728892289823916,0.6390344708321245,0.0022341809925959908,-0.06663,-42.986949
11.185,2.0,1.0,1.0,33.0,33.6,33.6,4.1,4.4,2.6025,0.7546088967722537,-0.006847869707722329,0.6443441711240941,0.0022115955671698,-0.06734,-42.858004
11.185,2.0,1.0,1.0,33.0,33.6,33.6,4.1,4.4,2.605,0.7499398001095827,-0.006968852717701096,0.6496463186124491,0.002187644443816197,-0.068063,-42.728599
11.185,2.0,1.0,1.0,33.0,33.6,33.6,4.1,4.4,2.6075,0.7452086785859893,-0.007091883092836836,0.6549404891126042,0.002162281449805538,-0.0688,-42.598722
11.185,2.0,1.0,1.0,33.0,33.6,33.6,4.1,4.4,2.61,0.7404148526931129,-0.007217003765136551,0.6602262451153047,0.0021354586767894884,-0.069551,-42.468359
11.185,2.0,1.0,1.0,33.0,33.6,33.6,4.1,4.4,2.6125,0.7355576323510808,-0.007344258866444231,0.6655031353468123,0.0021071264038390524,-0.070316,-42.337499
11.185,2.0,1.0,1.0,33.0,33.6,33.6,4.1,4.4,2.615,0.7306363167585762,-0.007473693771144645,0.6707706943137179,0.0020772330164605885,-0.071096,-42.206128
11.185,2.0,1.0,1.0,33.0,33.6,33.6,4.1,4.4,2.6175,0.7256501942418776,-0.007605355140759082,0.6760284418317668,0.0020457249213436776,-0.071891,-42.074233
11.185,2.0,1.0,1.0,33.0,33.6,33.6,4.1,4.4,2.62,0.7205985421029172,-0.007739290970534255,0.6812758825380604,0.0020125464565771086,-0.072702,-41.9418
11.185,2.0,1.0,1.0,33.0,33.6,33.6,4.1,4.4,2.6225,0.715480626466418,-0.007875550638131184,0.6865125053859713,0.001977639797050771,-0.073529,-41.808816
11.185,2.0,1.0,1.0,33.0,33.6,33.6,4.1,4.4,2.625,0.710295702126171,-0.00801418495452763,0.691737783122056,0.00194094485474059,-0.074371,-41.675267
11.185,2.0,1.0,1.0,33.0,33.6,33.6,4.1,4.4,2.6275,0.7050430123905067,-0.00815524621725519,0.6969511717442404,0.0019023991735518566,-0.075231,-41.541137
11.185,2.0,1.0,1.0,33.0,33.6,33.6,4.1,4.4,2.63,0.6997217889270326,-0.008298788266098823,0.7021521099404986,0.0018619378183725144,-0.076108,-41.406413
11.185,2.0,1.0,1.0,33.0,33.6,33.6,4.1,4.4,2.6325,0.6943312516067037,-0.008444866541395646,0.7073400185072113,0.001819493257961961,-0.077002,-41.271079
11.185,2.0,1.0,1.0,33.0,33.6,33.6,4.1,4.4,2.635,0.6888706083472953,-0.008593538145077646,0.712514299746348,0.001774995241273255,-0.077915,-41.135121
11.185,2.0,1.0,1.0,33.0,33.6,33.6,4.1,4.4,2.6375,0.6833390549563612,-0.008744861904612516,0.717674336840569,0.001728370666776205,-0.078847,-40.998521
11.185,2.0,1.0,1.0,33.0,33.6,33.6,4.1,4.4,2.64,0.6777357749737408,-0.008898898440007174,0.722819493205308,0.0016795434443157475,-0.079797,-40.861265
11.185,2.0,1.0,1.0,33.0,33.6,33.6,4.1,4.4,2.6425,0.6720599395137112,-0.009055710234048,0.7279491118168202,0.001628434349004481,-0.080767,-40.723336
11.185,2.0,1.0,1.0,33.0,33.6,33.6,4.1,4.4,2.645,0.666310707106858,-0.00921536170596421,0.7330625145151541,0.0015749608666093499,-0.081758,-40.584717
11.185,2.0,1.0,1.0,33.0,33.6,33.6,4.1,4.4,2.6475,0.6604872235417596,-0.009377919288712205,0.7381590012809209,0.0015190370298500773,-0.082769,-40.445391
11.185,2.0,1.0,1.0,33.0,33.6,33.6,4.1,4.4,2.65,0.6545886217065581,-0.009543451510092216,0.7432378494846957,0.0014605732449808348,-0.083802,-40.30534
11.185,2.0,1.0,1.0,33.0,33.6,33.6,4.1,4.4,2.6525,0.6486140214305363,-0.009712029077921708,0.7482983131077886,0.0013994761079768755,-0.084857,-40.164547
11.185,2.0,1.0,1.0,33.0,33.6,33.6,4.1,4.4,2.655,0.6425625293257625,-0.009883724969505661,0.7533396219330826,0.0013356482095926764,-0.085935,-40.022993
11.185,2.0,1.0,1.0,33.0,33.6,33.6,4.1,4.4,2.6575,0.6364332386289207,-0.010058614525659301,0.75836098070453,0.0012689879284986814,-0.087036,-39.880658
11.185,2.0,1.0,1.0,33.0,33.6,33.6,4.1,4.4,2.66,0.6302252290434093,-0.01023677554955591,0.7633615682538282,0.0011993892116386516,-0.088161,-39.737524
11.185,2.0,1.0,1.0,33.0,33.6,33.6,4.1,4.4,2.6625,0.623937566581817,-0.01041828841069057,0.7683405365926924,0.0011267413408779868,-0.089312,-39.59357
11.185,2.0,1.0,1.0,33.0,33.6,33.6,4.1,4.4,2.665,0.6175693034088572,-0.010603236154270562,0.7732970099690674,0.0010509286849358862,-0.090487,-39.448776
11.185,2.0,1.0,1.0,33.0,33.6,33.6,4.1,4.4,2.6675,0.6111194776848761,-0.010791704616363348,0.7782300838854725,0.000971830435508366,-0.091689,-39.303121
11.185,2.0,1.0,1.0,33.0,33.6,33.6,4.1,4.4,2.67,0.6045871134100164,-0.01098378254515627,0.783138824077601,0.0008893203263960093,-0.092918,-39.156584
11.185,2.0,1.0,1.0,33.0,33.6,33.6,4.1,4.4,2.6725,0.5979712202691353,-0.01117956172870546,0.7880222654511417,0.0008032663343471908,-0.094176,-39.009141
11.185,2.0,1.0,1.0,33.0,33.6,33.6,4.1,4.4,2.675,0.5912707934775695,-0.011379137129577282,0.7928794109746531,0.0007135303602153976,-0.095462,-38.860771
11.185,2.0,1.0,1.0,33.0,33.6,33.6,4.1,4.4,2.6775,0.5844848136278347,-0.011582607026813062,0.7977092305261878,0.0006199678889050103,-0.096778,-38.711449
11.185,2.0,1.0,1.0,33.0,33.6,33.6,4.1,4.4,2.68,0.5776122465373388,-0.011790073165677291,0.8025106596911864,0.0005224276264436987,-0.098125,-38.561151
11.185,2.0,1.0,1.0,33.0,33.6,33.6,4.1,4.4,2.6825,0.5706520430971942,-0.012001640915680538,0.8072825985089799,0.0004207511123700848,-0.099504,-38.409853
11.185,2.0,1.0,1.0,33.0,33.6,33.6,4.1,4.4,2.685,0.5636031391221896,-0.012217419437401997,0.8120239101650675,0.00031477230545942766,-0.100915,-38.257528
11.185,2.0,1.0,1.0,33.0,33.6,33.6,4.1,4.4,2.6875,0.556464455201988,-0.0124375218586726,0.816733419626091,0.000204317140628216,-0.102361,-38.104151
11.185,2.0,1.0,1.0,33.0,33.6,33.6,4.1,4.4,2.69,0.5492348965536066,-0.012662065460716706,0.8214099122142194,8.920305465730831e-05,-0.103841,-37.949693
11.185,2.0,1.0,1.0,33.0,33.6,33.6,4.1,4.4,2.6925,0.5419133528752035,-0.012891171874892696,0.8260521321173921,-3.0761521849751785e-05,-0.105359,-37.794127
11.185,2.0,1.0,1.0,33.0,33.6,33.6,4.1,4.4,2.695,0.5344986982012188,-0.013124967290713834,0.8306587808315766,-0.00015577770910200537,-0.106913,-37.637424
11.185,2.0,1.0,1.0,33.0,33.6,33.6,4.1,4.4,2.6975,0.526989790758856,-0.01336358267587883,0.835228515530915,-0.0002860567624521648,-0.108507,-37.479552
11.185,2.0,1.0,1.0,33.0,33.6,33.6,4.1,4.4,2.7,0.519385472825918,-0.013607154009088367,0.8397599473612529,-0.0004218206998275564,-0.110141,-37.320482
11.185,2.0,1.0,1.0,33.0,33.6,33.6,4.1,4.4,2.7025,0.51168457058995,-0.01385582252647676,0.8442516396522056,-0.0005633029760008288,-0.111816,-37.160182
11.185,2.0,1.0,1.0,33.0,33.6,33.6,4.1,4.4,2.705,0.5038858940086591,-0.014109734982541214,0.848702106042469,-0.0007107492078132613,-0.113535,-36.998617
11.185,2.0,1.0,1.0,33.0,33.6,33.6,4.1,4.4,2.7075,0.4959882366715179,-0.01436904392650931,0.8531098085126417,-0.0008644179548784953,-0.115299,-36.835754
11.185,2.0,1.0,1.0,33.0,33.6,33.6,4.1,4.4,2.71,0.4879903756624643,-0.014633907995144732,0.8574731553193006,-0.0010245815607565364,-0.11711,-36.671557
11.185,2.0,1.0,1.0,33.0,33.6,33.6,4.1,4.4,2.7125,0.47989107142355775,-0.014904492223054467,0.8617904988235108,-0.0011915270601037594,-0.118968,-36.505989
11.185,2.0,1.0,1.0,33.0,33.6,33.6,4.1,4.4,2.715,0.4716890676194318,-0.015180968371625993,0.866060133206316,-0.0013655571578794193,-0.120877,-36.339012
11.185,2.0,1.0,1.0,33.0,33.6,33.6,4.1,4.4,2.7175,0.4633830910023438,-0.01546351527778992,0.8702802920630548,-0.001546991287333319,-0.122838,-36.170586
11.185,2.0,1.0,1.0,33.0,33.6,33.6,4.1,4.4,2.72,0.4549718512775969,-0.015752319223873337,0.8744491458675554,-0.0017361667542185127,-0.124854,-36.000671
11.185,2.0,1.0,1.0,33.0,33.6,33.6,4.1,4.4,2.7225,0.44645404096904534,-0.016047574329879195,0.8785647992964032,-0.0019334399754808275,-0.126925,-35.829224
11.185,2.0,1.0,1.0,33.0,33.6,33.6,4.1,4.4,2.725,0.4378283352844027,-0.01634948296959694,0.8826252884024691,-0.002139187821581788,-0.129056,-35.6562
11.185,2.0,1.0,1.0,33.0,33.6,33.6,4.1,4.4,2.7275,0.42909339197997454,-0.016658256212020342,0.8866285776258183,-0.002353809072629969,-0.131247,-35.481554
11.185,2.0,1.0,1.0,33.0,33.6,33.6,4.1,4.4,2.73,0.4202478512244597,-0.016974114289614525,0.890572556628856,-0.002577725999640399,-0.133502,-35.305238
11.185,2.0,1.0,1.0,33.0,33.6,33.6,4.1,4.4,2.7325,0.4112903354613802,-0.017297287095037646,0.894455036941215,-0.002811386083532509,-0.135823,-35.127201
11.185,2.0,1.0,1.0,33.0,33.6,33.6,4.1,4.4,2.735,0.40221944926971215,-0.017628014707978704,0.8982737483982939,-0.0030552638859330196,-0.138214,-34.947394
11.185,2.0,1.0,1.0,33.0,33.6,33.6,4.1,4.4,2.7375,0.3930337792222295,-0.017966547953818936,0.9020263353556357,-0.0033098630874960296,-0.140676,-34.765761
11.185,2.0,1.0,1.0,33.0,33.6,33.6,4.1,4.4,2.74,0.38373189374110184,-0.0183131489958562,0.9057103526593161,-0.0035757187113148107,-0.143215,-34.582246
11.185,2.0,1.0,1.0,33.0,33.6,33.6,4.1,4.4,2.7425,0.37431234295025473,-0.018668091962845346,0.9093232613502951,-0.003853399551111484,-0.145832,-34.396792
11.185,2.0,1.0,1.0,33.0,33.6,33.6,4.1,4.4,2.745,0.3647736585240528,-0.019031663613594287,0.9128624240781201,-0.004143510826287244,-0.148531,-34.209337
11.185,2.0,1.0,1.0,33.0,33.6,33.6,4.1,4.4,2.7475,0.35511435353191584,-0.019404164040309913,0.9163251001964932,-0.00444669708864152,-0.151317,-34.019817
11.185,2.0,1.0,1.0,33.0,33.6,33.6,4.1,4.4,2.75,0.345332922278558,-0.0197859074122977,0.919708440509925,-0.00476364540867275,-0.154194,-33.828167
11.185,2.0,1.0,1.0,33.0,33.6,33.6,4.1,4.4,2.7525,0.33542784013970806,-0.02017722276147206,0.9230094816369678,-0.005095088872915216,-0.157165,-33.634316
11.185,2.0,1.0,1.0,33.0,33.6,33.6,4.1,4.4,2.755,0.3253975633933615,-0.020578454810914467,0.9262251399512385,-0.005441810427813428,-0.160236,-33.438193
11.185,2.0,1.0,1.0,33.0,33.6,33.6,4.1,4.4,2.7575,0.3152405290468919,-0.02098996484740488,0.9293522050565844,-0.005804647110270697,-0.163412,-33.23972
11.185,2.0,1.0,1.0,33.0,33.6,33.6,4.1,4.4,2.76,0.3049551546607962,-0.021412131638418853,0.9323873327471403,-0.006184494710321143,-0.166698,-33.038819
11.185,2.0,1.0,1.0,33.0,33.6,33.6,4.1,4.4,2.7625,0.29453983817033585,-0.021845352393502278,0.9353270373966341,-0.006582312917482628,-0.170099,-32.835407
11.185,2.0,1.0,1.0,33.0,33.6,33.6,4.1,4.4,2.765,0.2839929577070876,-0.022290043769162576,0.938167683713921,-0.006999131009376446,-0.173622,-32.629395
11.185,2.0,1.0,1.0,33.0,33.6,33.6,4.1,4.4,2.7675,0.27331287142334815,-0.022746642915400947,0.9409054777932409,-0.0074360541493073105,-0.177274,-32.420693
11.185,2.0,1.0,1.0,33.0,33.6,33.6,4.1,4.4,2.77,0.26249791732355204,-0.02321560856069297,0.943536457377914,-0.007894270368867267,-0.181061,-32.209204
11.185,2.0,1.0,1.0,33.0,33.6,33.6,4.1,4.4,2.7725,0.2515464131084805,-0.023697422130519896,0.9460564812448483,-0.008375058322476004,-0.184992,-31.994826
11.185,2.0,1.0,1.0,33.0,33.6,33.6,4.1,4.4,2.775,0.2404566560400645,-0.024192588892364027,0.9484612176041213,-0.00887979591335953,-0.189074,-31.777455
11.185,2.0,1.0,1.0,33.0,33.6,33.6,4.1,4.4,2.7775,0.22922692283725846,-0.024701639117277015,0.9507461313926477,-0.009409969905107589,-0.193317,-31.556978
11.185,2.0,1.0,1.0,33.0,33.6,33.6,4.1,4.4,2.78,0.2178554696168056,-0.02522512924455006,0.9529064703232192,-0.009967186650009067,-0.197731,-31.333276
11.185,2.0,1.0,1.0,33.0,33.6,33.6,4.1,4.4,2.7825,0.20634053189711277,-0.02576364303144969,0.9549372495294897,-0.010553184085283846,-0.202325,-31.106227
11.185,2.0,1.0,1.0,33.0,33.6,33.6,4.1,4.4,2.785,0.194680324688906,-0.02631779266417903,0.9568332346233138,-0.011169845171650232,-0.207111,-30.875698
11.185,2.0,1.0,1.0,33.0,33.6,33.6,4.1,4.4,2.7875,0.18287304270349627,-0.02688821979883309,0.958588922952484,-0.011819212976016803,-0.212101,-30.641552
11.185,2.0,1.0,1.0,33.0,33.6,33.6,4.1,4.4,2.79,0.17091686071843626,-0.027475596491728118,0.9601985228136225,-0.012503507632256826,-0.21731,-30.403643
11.185,2.0,1.0,1.0,33.0,33.6,33.6,4.1,4.4,2.7925,0.15880993415191824,-0.028080625966533938,0.9616559303357928,-0.013225145451930723,-0.222751,-30.161816
11.185,2.0,1.0,1.0,33.0,33.6,33.6,4.1,4.4,2.795,0.14655039991191748,-0.02870404315043665,0.9629547037041358,-0.01398676050161925,-0.228442,-29.915908
11.185,2.0,1.0,1.0,33.0,33.6,33.6,4.1,4.4,2.7975,0.13413637760494937,-0.029346614892179212,0.9640880343380934,-0.01479122901657595,-0.234399,-29.665745
11.185,2.0,1.0,1.0,33.0,33.6,33.6,4.1,4.4,2.8,0.12156597121327131,-0.03000913975011624,0.9650487145738894,-0.015641697083402933,-0.240642,-29.411144
11.185,2.0,1.0,1.0,33.0,33.6,33.6,4.1,4.4,2.8025,0.10883727138023629,-0.030692447206826283,0.9658291013237295,-0.016541612099425368,-0.247192,-29.15191
11.185,2.0,1.0,1.0,33.0,33.6,33.6,4.1,4.4,2.805,0.09594835848303077,-0.031397396126380525,0.9664210750921869,-0.017494758605908902,-0.254074,-28.887835
11.185,2.0,1.0,1.0,33.0,33.6,33.6,4.1,4.4,2.8075,0.08289730672290047,-0.03212487221845724,0.9668159936202614,-0.01850529919929161,-0.261312,-28.618699
11.185,2.0,1.0,1.0,33.0,33.6,33.6,4.1,4.4,2.81,0.06968218952855168,-0.032875784206712166,0.967004639295844,-0.019577821352961922,-0.268936,-28.344268
11.185,2.0,1.0,1.0,33.0,33.6,33.6,4.1,4.4,2.8125,0.056301086653219,-0.033651058312654,0.966977159311058,-0.0207173911364292,-0.276978,-28.064291
11.185,2.0,1.0,1.0,33.0,33.6,33.6,4.1,4.4,2.815,0.04275209345575219,-0.034451630554789996,0.9667229973563546,-0.021929615004721972,-0.285474,-27.778501
11.185,2.0,1.0,1.0,33.0,33.6,33.6,4.1,4.4,2.8175,0.029033332999005745,-0.03527843621806499,0.9662308154112214,-0.023220711055514365,-0.294463,-27.486613
11.185,2.0,1.0,1.0,33.0,33.6,33.6,4.1,4.4,2.82,0.015142971785264548,-0.03613239566005316,0.9654884039130555,-0.024597591423489898,-0.303991,-27.188322
11.185,2.0,1.0,1.0,33.0,33.6,33.6,4.1,4.4,2.8225,0.0010792401925927575,-0.03701439537377993,0.9644825782483541,-0.026067957811444983,-0.314107,-26.883301
11.185,2.0,1.0,1.0,33.0,33.6,33.6,4.1,4.4,2.825,-0.01315954100308032,-0.03792526290331872,0.9631990591005853,-0.027640412558703694,-0.324868,-26.5712
11.185,2.0,1.0,1.0,33.0,33.6,33.6,4.1,4.4,2.8275,-0.027574926211725657,-0.03886573378149397,0.9616223336905247,-0.029324588135593528,-0.33634,-26.251643
