1,w,sub_t,h,l1,l2,l3,g1,g2,Freq,S11_re,S21_re,S11_img,S21_img,S11_dB,S21_dB
11.185,2.0,1.0,1.0,33.3,33.9,33.9,3.0,3.1,2.5,0.869345819653258,-0.00663902801932015,0.481266243462818,0.00578892887352833,-0.05516,-41.102033
11.185,2.0,1.0,1.0,33.3,33.9,33.9,3.0,3.1,2.5025,0.8661645806960429,-0.006776596613440937,0.4868495692265533,0.005820100275942651,-0.055669,-40.980198
11.185,2.0,1.0,1.0,33.3,33.9,33.9,3.0,3.1,2.505,0.8629337999689338,-0.006916707569099699,0.49243381538306535,0.005850772749328494,-0.056187,-40.858029
11.185,2.0,1.0,1.0,33.3,33.9,33.9,3.0,3.1,2.5075,0.8596529893466839,-0.007059414965128521,0.4980187819351417,0.005880920771672834,-0.056714,-40.735517
11.185,2.0,1.0,1.0,33.3,33.9,33.9,3.0,3.1,2.51,0.856321652531169,-0.007204774357355835,0.5036042627129604,0.005910517805939517,-0.057251,-40.612652
11.185,2.0,1.0,1.0,33.3,33.9,33.9,3.0,3.1,2.5125,0.8529392848985394,-0.0073528428280759586,0.5091900451658704,0.005939536255959966,-0.057797,-40.489424
11.185,2.0,1.0,1.0,33.3,33.9,33.9,3.0,3.1,2.515,0.8495053733431392,-0.007503679037495076,0.5147759101469687,0.005967947420172464,-0.058353,-40.365824
11.185,2.0,1.0,1.0,33.3,33.9,33.9,3.0,3.1,2.5175,0.8460193961181136,-0.007657343277244015,0.5203616316901709,0.0059957214430906725,-0.058919,-40.241842
11.185,2.0,1.0,1.0,33.3,33.9,33.9,3.0,3.1,2.52,0.8424808226726154,-0.007813897526056574,0.5259469767795082,0.006022827264375685,-0.059495,-40.117468
11.185,2.0,1.0,1.0,33.3,33.9,33.9,3.0,3.1,2.5225,0.8388891134855193,-0.007973405507715439,0.5315317051103106,0.0060492325653770055,-0.060082,-39.992692
11.185,2.0,1.0,1.0,33.3,33.9,33.9,3.0,3.1,2.525,0.8352437198955457,-0.008135932751373797,0.53711556884198,0.006074903713000225,-0.060679,-39.867504
11.185,2.0,1.0,1.0,33.3,33.9,33.9,3.0,3.1,2.5275,0.8315440839276956,-0.008301546654366925,0.5426983123420089,0.0060998057007493585,-0.061288,-39.741892
11.185,2.0,1.0,1.0,33.3,33.9,33.9,3.0,3.1,2.53,0.8277896381158958,-0.008470316547633678,0.5482796719208834,0.006123902086782452,-0.061908,-39.615848
11.185,2.0,1.0,1.0,33.3,33.9,33.9,3.0,3.1,2.5325,0.8239798053217409,-0.008642313763875501,0.5538593755575068,0.006147154928808749,-0.06254,-39.489359
11.185,2.0,1.0,1.0,33.3,33.9,33.9,3.0,3.1,2.535,0.8201139985492231,-0.008817611708586408,0.55943714261476,0.0061695247156441655,-0.063183,-39.362415
11.185,2.0,1.0,1.0,33.3,33.9,33.9,3.0,3.1,2.5375,0.8161916207553335,-0.008996285934095702,0.56501268354478,0.0061909702952298905,-0.063839,-39.235006
11.185,2.0,1.0,1.0,33.3,33.9,33.9,3.0,3.1,2.54,0.8122120646564072,-0.009178414216773156,0.5705856995835368,0.006211448798906138,-0.064507,-39.107119
11.185,2.0,1.0,1.0,33.3,33.9,33.9,3.0,3.1,2.5425,0.8081747125300864,-0.00936407663755469,0.5761558824342621,0.006230915561719485,-0.065188,-38.978743
11.185,2.0,1.0,1.0,33.3,33.9,33.9,3.0,3.1,2.545,0.8040789360127671,-0.009553355665955063,0.5817229139392559,0.006249324038526578,-0.065882,-38.849867
11.185,2.0,1.0,1.0,33.3,33.9,33.9,3.0,3.1,2.5475,0.7999240958923879,-0.009746336247745077,0.587286465739566,0.006266625715641637,-0.06659,-38.72048
11.185,2.0,1.0,1.0,33.3,33.9,33.9,3.0,3.1,2.55,0.7957095418964102,-0.009943105896479879,0.5928461989220454,0.00628277001775795,-0.067312,-38.590568
11.185,2.0,1.0,1.0,33.3,33.9,33.9,3.0,3.1,2.5525,0.7914346124748431,-0.010143754789075586,0.5984017636532067,0.006297704209854381,-0.068048,-38.460119
11.185,2.0,1.0,1.0,33.3,33.9,33.9,3.0,3.1,2.555,0.7870986345781389,-0.01034837586564459,0.603952798799322,0.006311373293778992,-0.068799,-38.329122
11.185,2.0,1.0,1.0,33.3,33.9,33.9,3.0,3.1,2.5575,0.7827009234297947,-0.010557064933810343,0.6094989315321545,0.006323719899178782,-0.069565,-38.197564
11.185,2.0,1.0,1.0,33.3,33.9,33.9,3.0,3.1,2.56,0.7782407822934775,-0.010769920777737464,0.6150397769196732,0.006334684168423492,-0.070346,-38.065431
11.185,2.0,1.0,1.0,33.3,33.9,33.9,3.0,3.1,2.5625,0.773717502234488,-0.0109870452721249,0.620574937501085,0.00634420363514399,-0.071144,-37.93271
11.185,2.0,1.0,1.0,33.3,33.9,33.9,3.0,3.1,2.565,0.769130361875349,-0.011208543501427236,0.626104002845471,0.006352213095980629,-0.071957,-37.799389
11.185,2.0,1.0,1.0,33.3,33.9,33.9,3.0,3.1,2.5675,0.7644786271453275,-0.01143452388458268,0.6316265490932663,0.006358644475106681,-0.072788,-37.665452
11.185,2.0,1.0,1.0,33.3,33.9,33.9,3.0,3.1,2.57,0.7597615510236505,-0.011665098305545896,0.6371421384797983,0.006363426681060754,-0.073636,-37.530887
11.185,2.0,1.0,1.0,33.3,33.9,33.9,3.0,3.1,2.5725,0.7549783732761846,-0.01190038224993983,0.6426503188400378,0.006366485455387828,-0.074501,-37.395679
11.185,2.0,1.0,1.0,33.3,33.9,33.9,3.0,3.1,2.575,0.7501283201853312,-0.012140494948161048,0.6481506230936764,0.006367743212551558,-0.075385,-37.259813
11.185,2.0,1.0,1.0,33.3,33.9,33.9,3.0,3.1,2.5775,0.7452106042728722,-0.012385559525294503,0.6536425687095858,0.006367118870540807,-0.076288,-37.123275
11.185,2.0,1.0,1.0,33.3,33.9,33.9,3.0,3.1,2.58,0.7402244240154872,-0.012635703158213656,0.6591256571486583,0.006364527671549138,-0.07721,-36.986049
11.185,2.0,1.0,1.0,33.3,33.9,33.9,3.0,3.1,2.5825,0.7351689635526402,-0.012891057240268632,0.6645993732839811,0.006359880992060046,-0.078152,-36.84812
11.185,2.0,1.0,1.0,33.3,33.9,33.9,3.0,3.1,2.585,0.73004339238653,-0.013151757553987493,0.670063184797207,0.00635308614161863,-0.079115,-36.709472
11.185,2.0,1.0,1.0,33.3,33.9,33.9,3.0,3.1,2.5875,0.7248468650737577,-0.01341794445224485,0.6755165415499426,0.00634404614951575,-0.080099,-36.570089
11.185,2.0,1.0,1.0,33.3,33.9,33.9,3.0,3.1,2.59,0.7195785209083662,-0.013689763048379237,0.6809588749288755,0.006332659538549864,-0.081105,-36.429953
11.185,2.0,1.0,1.0,33.3,33.9,33.9,3.0,3.1,2.5925,0.7142374835958617,-0.013967363415774417,0.6863895971632983,0.006318820084966504,-0.082133,-36.289049
11.185,2.0,1.0,1.0,33.3,33.9,33.9,3.0,3.1,2.595,0.7088228609178276,-0.0142509007974491,0.6918081006135852,0.006302416563604377,-0.083185,-36.147359
11.185,2.0,1.0,1.0,33.3,33.9,33.9,3.0,3.1,2.5975,0.7033337443866844,-0.014540535826238748,0.697213757029103,0.006283332477198435,-0.08426,-36.004864
11.185,2.0,1.0,1.0,33.3,33.9,33.9,3.0,3.1,2.6,0.697769208890146,-0.014836434756189136,0.7026059167739159,0.006261445768706918,-0.08536,-35.861548
11.185,2.0,1.0,1.0,33.3,33.9,33.9,3.0,3.1,2.6025,0.692128312324883,-0.015138769705822903,0.707983908018535,0.00623662851543605,-0.086486,-35.71739
11.185,2.0,1.0,1.0,33.3,33.9,33.9,3.0,3.1,2.605,0.6864100952188638,-0.015447718913983074,0.71334703589587,0.006208746603635781,-0.087638,-35.572372
11.185,2.0,1.0,1.0,33.3,33.9,33.9,3.0,3.1,2.6075,0.6806135803418165,-0.01576346700900657,0.7186945816193699,0.00617765938213039,-0.088817,-35.426475
11.185,2.0,1.0,1.0,33.3,33.9,33.9,3.0,3.1,2.61,0.6747377723032169,-0.016086205292027433,0.7240258015612315,0.006143219293426057,-0.090025,-35.279678
11.185,2.0,1.0,1.0,33.3,33.9,33.9,3.0,3.1,2.6125,0.6687816571371554,-0.016416132035267164,0.7293399262883878,0.006105271480608163,-0.091261,-35.13196
11.185,2.0,1.0,1.0,33.3,33.9,33.9,3.0,3.1,2.615,0.6627442018733978,-0.016753452796223915,0.7346361595538285,0.006063653368194379,-0.092527,-34.9833
11.185,2.0,1.0,1.0,33.3,33.9,33.9,3.0,3.1,2.6175,0.6566243540939111,-0.017098380748737298,0.7399136772406119,0.006018194214954407,-0.093825,-34.833677
11.185,2.0,1.0,1.0,33.3,33.9,33.9,3.0,3.1,2.62,0.6504210414740568,-0.017451137031967774,0.7451716262557441,0.005968714636531486,-0.095154,-34.683069
11.185,2.0,1.0,1.0,33.3,33.9,33.9,3.0,3.1,2.6225,0.6441331713076103,-0.017811951118406617,0.7504091233708833,0.00591502609551295,-0.096516,-34.531451
11.185,2.0,1.0,1.0,33.3,33.9,33.9,3.0,3.1,2.625,0.637759630014704,-0.0181810612021018,0.755625254006576,0.00585693035638675,-0.097913,-34.378802
11.185,2.0,1.0,1.0,33.3,33.9,33.9,3.0,3.1,2.6275,0.6312992826317102,-0.018558714608373585,0.7608190709565055,0.005794218902591859,-0.099346,-34.225095
11.185,2.0,1.0,1.0,33.3,33.9,33.9,3.0,3.1,2.63,0.6247509722820228,-0.018945168226376215,0.7659895930479174,0.005726672312617525,-0.100815,-34.070307
11.185,2.0,1.0,1.0,33.3,33.9,33.9,3.0,3.1,2.6325,0.6181135196266134,-0.01934068896596003,0.7711358037341057,0.005654059591827869,-0.102323,-33.914412
11.185,2.0,1.0,1.0,33.3,33.9,33.9,3.0,3.1,2.635,0.6113857222931528,-0.019745554240385932,0.7762566496144843,0.005576137456381674,-0.10387,-33.757383
11.185,2.0,1.0,1.0,33.3,33.9,33.9,3.0,3.1,2.6375,0.6045663542824031,-0.020160052476554655,0.7813510388774084,0.005492649565277047,-0.105458,-33.599193
11.185,2.0,1.0,1.0,33.3,33.9,33.9,3.0,3.1,2.64,0.5976541653504739,-0.02058448365452797,0.7864178396605004,0.00540332569617785,-0.107088,-33.439815
11.185,2.0,1.0,1.0,33.3,33.9,33.9,3.0,3.1,2.6425,0.5906478803654533,-0.02101915987824275,0.7914558783227754,0.0053078808602632765,-0.108763,-33.279218
11.185,2.0,1.0,1.0,33.3,33.9,33.9,3.0,3.1,2.645,0.5835461986367929,-0.021464405979451373,0.796463937622374,0.005206014350884072,-0.110484,-33.117375
11.185,2.0,1.0,1.0,33.3,33.9,33.9,3.0,3.1,2.6475,0.5763477932157132,-0.021920560157064253,0.8014407547931492,0.005097408720300527,-0.112253,-32.954252
11.185,2.0,1.0,1.0,33.3,33.9,33.9,3.0,3.1,2.65,0.5690513101647531,-0.02238797465422089,0.8063850195127737,0.004981728678214285,-0.114071,-32.78982
11.185,2.0,1.0,1.0,33.3,33.9,33.9,3.0,3.1,2.6525,0.5616553677944797,-0.022867016475577942,0.8112953717543161,0.004858619905179098,-0.11594,-32.624046
11.185,2.0,1.0,1.0,33.3,33.9,33.9,3.0,3.1,2.655,0.5541585558651727,-0.023358068147473387,0.8161703995125412,0.004727707773280499,-0.117864,-32.456895
11.185,2.0,1.0,1.0,33.3,33.9,33.9,3.0,3.1,2.6575,0.546559434751189,-0.023861528523811758,0.8210086363953343,0.0045885959656997224,-0.119843,-32.288332
11.185,2.0,1.0,1.0,33.3,33.9,33.9,3.0,3.1,2.66,0.5388565345655012,-0.02437781364070581,0.8258085590697355,0.004440864985913467,-0.12188,-32.118323
11.185,2.0,1.0,1.0,33.3,33.9,33.9,3.0,3.1,2.6625,0.5310483542417574,-0.02490735762311935,0.8305685845510532,0.004284070546319438,-0.123978,-31.946829
11.185,2.0,1.0,1.0,33.3,33.9,33.9,3.0,3.1,2.665,0.5231333605709761,-0.02545061364697188,0.8352870673223988,0.0041177418250013375,-0.12614,-31.773812
11.185,2.0,1.0,1.0,33.3,33.9,33.9,3.0,3.1,2.6675,0.5151099871898278,-0.026008054960393195,0.8399622962706962,0.00394137957814567,-0.128367,-31.599232
11.185,2.0,1.0,1.0,33.3,33.9,33.9,3.0,3.1,2.67,0.5069766335172056,-0.02658017596806075,0.8445924914238224,0.0037544540942756072,-0.130663,-31.423047
11.185,2.0,1.0,1.0,33.3,33.9,33.9,3.0,3.1,2.6725,0.49873166363557303,-0.02716749338279782,0.8491758004719493,0.003556402974959192,-0.133031,-31.245216
11.185,2.0,1.0,1.0,33.3,33.9,33.9,3.0,3.1,2.675,0.49037340511335414,-0.027770547448876085,0.8537102950543735,0.0033466287249559624,-0.135475,-31.065694
11.185,2.0,1.0,1.0,33.3,33.9,33.9,3.0,3.1,2.6775,0.4819001477643666,-0.028389903241730644,0.8581939667911416,0.0031244961328616406,-0.137997,-30.884434
11.185,2.0,1.0,1.0,33.3,33.9,33.9,3.0,3.1,2.68,0.4733101423400616,-0.02902615204907259,0.8626247230365477,0.0028893294211710845,-0.140601,-30.70139
11.185,2.0,1.0,1.0,33.3,33.9,33.9,3.0,3.1,2.6825,0.46460159915008586,-0.029679912838658222,0.8670003823290565,0.002640409142264869,-0.143291,-30.516511
11.185,2.0,1.0,1.0,33.3,33.9,33.9,3.0,3.1,2.685,0.455772686606419,-0.03035183381825235,0.8713186695093846,0.0023769687941033874,-0.146072,-30.329747
11.185,2.0,1.0,1.0,33.3,33.9,33.9,3.0,3.1,2.6875,0.4468215296861,-0.0310425940935876,0.875577210475283,0.00209819112633527,-0.148948,-30.141044
11.185,2.0,1.0,1.0,33.3,33.9,33.9,3.0,3.1,2.69,0.43774620830734073,-0.03175290543037745,0.879773526537941,0.0018032041040461333,-0.151923,-29.950347
11.185,2.0,1.0,1.0,33.3,33.9,33.9,3.0,3.1,2.6925,0.4285447556135816,-0.03248351412667048,0.8839050283408788,0.0014910764924287695,-0.155003,-29.757599
11.185,2.0,1.0,1.0,33.3,33.9,33.9,3.0,3.1,2.695,0.41921515615992494,-0.033235203002022665,0.8879690092975363,0.0011608130211795404,-0.158192,-29.562739
11.185,2.0,1.0,1.0,33.3,33.9,33.9,3.0,3.1,2.6975,0.40975534399619434,-0.03400879351011141,0.8919626384985484,0.0008113490823370194,-0.161497,-29.365704
11.185,2.0,1.0,1.0,33.3,33.9,33.9,3.0,3.1,2.7,0.4001632006408868,-0.034805147981478005,0.8958829530337061,0.0004415449094879376,-0.164924,-29.166431
11.185,2.0,1.0,1.0,33.3,33.9,33.9,3.0,3.1,2.7025,0.3904365529402626,-0.035625172003058814,0.8997268496668166,5.017917966125689e-05,-0.168479,-28.964852
11.185,2.0,1.0,1.0,33.3,33.9,33.9,3.0,3.1,2.705,0.3805731708070453,-0.03646981694100521,0.9034910757939092,-0.00036405802830887044,-0.172169,-28.760896
11.185,2.0,1.0,1.0,33.3,33.9,33.9,3.0,3.1,2.7075,0.3705707648335042,-0.037340082612956814,0.9071722196063968,-0.0008025729937956577,-0.176002,-28.554489
11.185,2.0,1.0,1.0,33.3,33.9,33.9,3.0,3.1,2.71,0.3604269837742818,-0.03823702011537955,0.9107666993706297,-0.0012668769174927611,-0.179987,-28.345554
11.185,2.0,1.0,1.0,33.3,33.9,33.9,3.0,3.1,2.7125,0.35013941189515235,-0.039161734810726656,0.9142707517236799,-0.0017585953836947387,-0.18413,-28.134013
11.185,2.0,1.0,1.0,33.3,33.9,33.9,3.0,3.1,2.715,0.33970556618514325,-0.04011538947796061,0.9176804188718197,-0.0022794788308455193,-0.188443,-27.91978
11.185,2.0,1.0,1.0,33.3,33.9,33.9,3.0,3.1,2.7175,0.3291228934311159,-0.04109920762826356,0.9209915345627993,-0.002831414154469885,-0.192936,-27.702768
11.185,2.0,1.0,1.0,33.3,33.9,33.9,3.0,3.1,2.72,0.3183887671562432,-0.04211447698544229,0.9241997086853061,-0.003416437583920255,-0.197618,-27.482885
11.185,2.0,1.0,1.0,33.3,33.9,33.9,3.0,3.1,2.7225,0.30750048442685823,-0.04316255312742585,0.9273003103285365,-0.004036748994387293,-0.202503,-27.260036
11.185,2.0,1.0,1.0,33.3,33.9,33.9,3.0,3.1,2.725,0.2964552625362877,-0.044244863281132536,0.9302884491111291,-0.004694727838792621,-0.207602,-27.034119
11.185,2.0,1.0,1.0,33.3,33.9,33.9,3.0,3.1,2.7275,0.28525023557955786,-0.04536291025760004,0.9331589545612803,-0.0053929509110650555,-0.212931,-26.80503
11.185,2.0,1.0,1.0,33.3,33.9,33.9,3.0,3.1,2.73,0.27388245093990393,-0.04651827650724777,0.9359063532979817,-0.006134212183531093,-0.218504,-26.572658
11.185,2.0,1.0,1.0,33.3,33.9,33.9,3.0,3.1,2.7325,0.2623488657169523,-0.04771262826605859,0.9385248437262449,-0.006921544997518729,-0.224338,-26.336886
11.185,2.0,1.0,1.0,33.3,33.9,33.9,3.0,3.1,2.735,0.2506463431381538,-0.04894771975174845,0.9410082679159465,-0.0077582469286858425,-0.23045,-26.097593
11.185,2.0,1.0,1.0,33.3,33.9,33.9,3.0,3.1,2.7375,0.238771649009973,-0.05022539735391964,0.943350080283421,-0.008647907698155897,-0.236861,-25.85465
11.185,2.0,1.0,1.0,33.3,33.9,33.9,3.0,3.1,2.74,0.22672144828461105,-0.05154760374285749,0.9455433126358449,-0.009594440558573763,-0.243592,-25.607923
11.185,2.0,1.0,1.0,33.3,33.9,33.9,3.0,3.1,2.7425,0.2144923018426825,-0.0529163817968321,0.9475805350691493,-0.01060211765227261,-0.250667,-25.357269
11.185,2.0,1.0,1.0,33.3,33.9,33.9,3.0,3.1,2.745,0.2020806636239251,-0.05433387821601479,0.9494538121288087,-0.011675609918736432,-0.258112,-25.102538
11.185,2.0,1.0,1.0,33.3,33.9,33.9,3.0,3.1,2.7475,0.1894828782785344,-0.055802346650443285,0.9511546535470513,-0.012820032222723366,-0.265955,-24.843573
11.185,2.0,1.0,1.0,33.3,33.9,33.9,3.0,3.1,2.75,0.176695179563672,-0.0573241501173756,0.952673958757087,-0.0140409944854821,-0.274228,-24.580206
11.185,2.0,1.0,1.0,33.3,33.9,33.9,3.0,3.1,2.7525,0.16371368977636097,-0.058901762416576325,0.9540019542515753,-0.015344659732699193,-0.282966,-24.312263
11.185,2.0,1.0,1.0,33.3,33.9,33.9,3.0,3.1,2.755,0.1505344205995467,-0.060537768166383135,0.9551281226947489,-0.01673781012805313,-0.292207,-24.039557
11.185,2.0,1.0,1.0,33.3,33.9,33.9,3.0,3.1,2.7575,0.13715327584809028,-0.062234860973280126,0.9560411225107095,-0.018227922245189584,-0.301995,-23.761891
11.185,2.0,1.0,1.0,33.3,33.9,33.9,3.0,3.1,2.76,0.1235660567432125,-0.06399583910597094,0.9567286964486683,-0.01982325304914521,-0.312377,-23.479057
11.185,2.0,1.0,1.0,33.3,33.9,33.9,3.0,3.1,2.7625,0.10976847052659998,-0.06582359786220728,0.9571775673626159,-0.0215329383174028,-0.323407,-23.190834
11.185,2.0,1.0,1.0,33.3,33.9,33.9,3.0,3.1,2.765,0.09575614346177302,-0.06772111758046327,0.9573733191300067,-0.02336710553874543,-0.335143,-22.896988
11.185,2.0,1.0,1.0,33.3,33.9,33.9,3.0,3.1,2.7675,0.08152463957652796,-0.06969144594268141,0.9573002602620283,-0.025337003694235746,-0.347653,-22.597272
11.185,2.0,1.0,1.0,33.3,33.9,33.9,3.0,3.1,2.77,0.06706948689812375,-0.07173767281710516,0.956941267315831,-0.027455152759883084,-0.361013,-22.291422
11.185,2.0,1.0,1.0,33.3,33.9,33.9,3.0,3.1,2.7725,0.0523862134512295,-0.0738628953729912,0.9562776046937691,-0.02973551628747532,-0.375307,-21.979157
11.185,2.0,1.0,1.0,33.3,33.9,33.9,3.0,3.1,2.775,0.03747039596584107,-0.07607017052352374,0.9552887167917824,-0.03219370103291991,-0.39063,-21.660179
11.185,2.0,1.0,1.0,33.3,33.9,33.9,3.0,3.1,2.7775,0.022317725129857312,-0.07836245086841327,0.9539519877223492,-0.03484718832595435,-0.407093,-21.334173
11.185,2.0,1.0,1.0,33.3,33.9,33.9,3.0,3.1,2.78,0.006924092387727982,-0.08074249914487683,0.9522424629700489,-0.037715602727699186,-0.42482,-21.000801
11.185,2.0,1.0,1.0,33.3,33.9,33.9,3.0,3.1,2.7825,-0.008714295174475162,-0.08321277466262449,0.9501325263233388,-0.04082102451904213,-0.443951,-20.659703
11.185,2.0,1.0,1.0,33.3,33.9,33.9,3.0,3.1,2.785,-0.024600763280859254,-0.08577528317051998,0.9475915242512831,-0.04418835371583021,-0.464651,-20.310499
11.185,2.0,1.0,1.0,33.3,33.9,33.9,3.0,3.1,2.7875,-0.04073797097367843,-0.08843137891097616,0.9445853285533216,-0.0478457346208124,-0.487106,-19.952779
11.185,2.0,1.0,1.0,33.3,33.9,33.9,3.0,3.1,2.79,-0.05712764829495775,-0.09118150403399698,0.941075826614089,-0.05182505138574943,-0.511533,-19.586112
11.185,2.0,1.0,1.0,33.3,33.9,33.9,3.0,3.1,2.7925,-0.07377025144590683,-0.0940248457549956,0.9370203269840224,-0.05616250662858667,-0.538184,-19.210034
11.185,2.0,1.0,1.0,33.3,33.9,33.9,3.0,3.1,2.795,-0.09066450927722802,-0.09695888522608054,0.9323708663727824,-0.06089929673583331,-0.567353,-18.824056
11.185,2.0,1.0,1.0,33.3,33.9,33.9,3.0,3.1,2.7975,-0.10780682629473716,-0.09997880347451592,0.9270734026701146,-0.06608239889396769,-0.599383,-18.427656
11.185,2.0,1.0,1.0,33.3,33.9,33.9,3.0,3.1,2.8,-0.1251904956924697,-0.1030766981652779,0.9210668776348874,-0.07176548579710186,-0.634677,-18.020281
11.185,2.0,1.0,1.0,33.3,33.9,33.9,3.0,3.1,2.8025,-0.1428046601882248,-0.1062405493159775,0.9142821330113816,-0.07800998377646907,-0.673715,-17.601349
11.185,2.0,1.0,1.0,33.3,33.9,33.9,3.0,3.1,2.805,-0.16063293721566754,-0.10945285102752304,0.9066406660600036,-0.08488628777313768,-0.717065,-17.170244
11.185,2.0,1.0,1.0,33.3,33.9,33.9,3.0,3.1,2.8075,-0.17865159645368453,-0.1126887979446155,0.8980532165412114,-0.09247514041770226,-0.765405,-16.726325
11.185,2.0,1.0,1.0,33.3,33.9,33.9,3.0,3.1,2.81,-0.19682713934755858,-0.11591387715611425,0.8884181899160778,-0.10086916964794176,-0.819551,-16.268927
11.185,2.0,1.0,1.0,33.3,33.9,33.9,3.0,3.1,2.8125,-0.215113079246329,-0.119080665677228,0.877619945615537,-0.110174555114658,-0.880489,-15.797366
11.185,2.0,1.0,1.0,33.3,33.9,33.9,3.0,3.1,2.815,-0.2334456536991731,-0.12212456723455066,0.865527022334139,-0.12051275048196657,-0.949418,-15.310956
11.185,2.0,1.0,1.0,33.3,33.9,33.9,3.0,3.1,2.8175,-0.2517381141497025,-0.12495813670960322,0.8519904467815046,-0.13202211433196892,-1.0278,-14.809025
11.185,2.0,1.0,1.0,33.3,33.9,33.9,3.0,3.1,2.82,-0.26987313123131007,-0.12746353487944762,0.8368423978903181,-0.14485917714719299,-1.117437,-14.290937
11.185,2.0,1.0,1.0,33.3,33.9,33.9,3.0,3.1,2.8225,-0.28769272962160614,-0.12948253366679274,0.8198957060399509,-0.15919906508767884,-1.220553,-13.75614
11.185,2.0,1.0,1.0,33.3,33.9,33.9,3.0,3.1,2.825,-0.3049850406209405,-0.1308033687510542,0.8009450035905167,-0.1752342662163793,-1.339912,-13.204216
11.185,2.0,1.0,1.0,33.3,33.9,33.9,3.0,3.1,2.8275,-0.3214670752717297,-0.13114365412375026,0.7797708779113686,-0.1931703931437133,-1.478961,-12.634963
11.185,2.0,1.0,1.0,33.3,33.9,33.9,3.0,3.1,2.83,-0.3367627711875389,-0.13012862703701822,0.7561492045448762,-0.2132167754251752,-1.642012,-12.048512
