1,w,sub_t,h,l1,l2,l3,g1,g2,Freq,S11_re,S21_re,S11_img,S21_img,S11_dB,S21_dB
11.185,2.0,1.0,1.0,34.4,33.2,33.2,2.6,3.3,2.5,0.719228261083347,-0.0119208250464992,0.683705520895108,0.00585957319322703,-0.066773,-37.534013
11.185,2.0,1.0,1.0,34.4,33.2,33.2,2.6,3.3,2.5025,0.7137426179419943,-0.012127824227866402,0.6893145050247222,0.00583129733163794,-0.067477,-37.4211
11.185,2.0,1.0,1.0,34.4,33.2,33.2,2.6,3.3,2.505,0.7081840389954621,-0.012337892560804527,0.6949074920159389,0.005800576605619624,-0.068191,-37.3079
11.185,2.0,1.0,1.0,34.4,33.2,33.2,2.6,3.3,2.5075,0.7025518132681355,-0.012551070091733367,0.7004837980789328,0.005767331543329241,-0.068917,-37.19441
11.185,2.0,1.0,1.0,34.4,33.2,33.2,2.6,3.3,2.51,0.6968452227901987,-0.012767397136278275,0.7060427202363895,0.005731480217815538,-0.069654,-37.080625
11.185,2.0,1.0,1.0,34.4,33.2,33.2,2.6,3.3,2.5125,0.6910635426643162,-0.012986914261455542,0.7115835357905385,0.005692938167313608,-0.070402,-36.966538
11.185,2.0,1.0,1.0,34.4,33.2,33.2,2.6,3.3,2.515,0.6852060411415446,-0.013209662266281367,0.7171055017761462,0.00565161831288739,-0.071163,-36.852146
11.185,2.0,1.0,1.0,34.4,33.2,33.2,2.6,3.3,2.5175,0.679271979707012,-0.013435682160707379,0.7226078543991346,0.005607430873332699,-0.071936,-36.737444
11.185,2.0,1.0,1.0,34.4,33.2,33.2,2.6,3.3,2.52,0.6732606131758886,-0.013665015142782585,0.7280898084605305,0.005560283277252046,-0.072722,-36.622425
11.185,2.0,1.0,1.0,34.4,33.2,33.2,2.6,3.3,2.5225,0.6671711898002433,-0.013897702573932743,0.7335505567653948,0.005510080072208793,-0.07352,-36.507086
11.185,2.0,1.0,1.0,34.4,33.2,33.2,2.6,3.3,2.525,0.6610029513873636,-0.014133785952245417,0.7389892695164352,0.00545672283086605,-0.074332,-36.391421
11.185,2.0,1.0,1.0,34.4,33.2,33.2,2.6,3.3,2.5275,0.6547551334301691,-0.014373306883640923,0.7444050936919678,0.005400110054012857,-0.075158,-36.275425
11.185,2.0,1.0,1.0,34.4,33.2,33.2,2.6,3.3,2.53,0.6484269652503792,-0.014616307050802678,0.7497971524078956,0.005340137070377404,-0.075997,-36.159093
11.185,2.0,1.0,1.0,34.4,33.2,33.2,2.6,3.3,2.5325,0.6420176701551116,-0.01486282817973451,0.7551645442633872,0.005276695933123921,-0.07685,-36.042418
11.185,2.0,1.0,1.0,34.4,33.2,33.2,2.6,3.3,2.535,0.6355264656076275,-0.015112912003804647,0.760506342669928,0.005209675312927342,-0.077719,-35.925397
11.185,2.0,1.0,1.0,34.4,33.2,33.2,2.6,3.3,2.5375,0.6289525634129802,-0.015366600225127855,0.7658215951634082,0.005138960387516708,-0.078602,-35.808023
11.185,2.0,1.0,1.0,34.4,33.2,33.2,2.6,3.3,2.54,0.6222951699193401,-0.015623934473130091,0.7711093226989347,0.005064432727575049,-0.0795,-35.690292
11.185,2.0,1.0,1.0,34.4,33.2,33.2,2.6,3.3,2.5425,0.6155534862358187,-0.015884956260130714,0.7763685189280395,0.004985970178880748,-0.080415,-35.572197
11.185,2.0,1.0,1.0,34.4,33.2,33.2,2.6,3.3,2.545,0.6087267084676437,-0.01614970693376859,0.7815981494579642,0.004903446740572172,-0.081345,-35.453734
11.185,2.0,1.0,1.0,34.4,33.2,33.2,2.6,3.3,2.5475,0.6018140279695906,-0.016418227626088362,0.7867971510926975,0.004816732439414122,-0.082292,-35.334896
11.185,2.0,1.0,1.0,34.4,33.2,33.2,2.6,3.3,2.55,0.5948146316185802,-0.016690559199094634,0.7919644310554703,0.004725693199941585,-0.083256,-35.215678
11.185,2.0,1.0,1.0,34.4,33.2,33.2,2.6,3.3,2.5525,0.587727702106451,-0.01696674218656862,0.7970988661923795,0.004630190710353103,-0.084238,-35.096074
11.185,2.0,1.0,1.0,34.4,33.2,33.2,2.6,3.3,2.555,0.5805524182538939,-0.017246816731933595,0.8021993021568539,0.004530082284022685,-0.085237,-34.976079
11.185,2.0,1.0,1.0,34.4,33.2,33.2,2.6,3.3,2.5575,0.5732879553466277,-0.017530822521941842,0.8072645525746718,0.004425220716495963,-0.086254,-34.855687
11.185,2.0,1.0,1.0,34.4,33.2,33.2,2.6,3.3,2.56,0.5659334854949265,-0.017818798715943867,0.8122933981892324,0.004315454137833231,-0.08729,-34.734892
11.185,2.0,1.0,1.0,34.4,33.2,33.2,2.6,3.3,2.5625,0.558488178017654,-0.018110783870488013,0.8172845859868182,0.00420062586015846,-0.088346,-34.613688
11.185,2.0,1.0,1.0,34.4,33.2,33.2,2.6,3.3,2.565,0.5509511998520088,-0.01840681585898446,0.8222368283015851,0.004080574220270077,-0.089421,-34.492069
11.185,2.0,1.0,1.0,34.4,33.2,33.2,2.6,3.3,2.5675,0.5433217159902541,-0.018706931786153236,0.8271488019000214,0.003955132417166319,-0.090516,-34.370029
11.185,2.0,1.0,1.0,34.4,33.2,33.2,2.6,3.3,2.57,0.535598889944735,-0.01901116789696103,0.8320191470446525,0.003824128344334266,-0.091632,-34.247562
11.185,2.0,1.0,1.0,34.4,33.2,33.2,2.6,3.3,2.5725,0.5277818842425598,-0.019319559479734693,0.8368464665367679,0.0036873844166486406,-0.092769,-34.124662
11.185,2.0,1.0,1.0,34.4,33.2,33.2,2.6,3.3,2.575,0.5198698609513706,-0.019632140763123446,0.8416293247379689,0.0035447173917230665,-0.093928,-34.001322
11.185,2.0,1.0,1.0,34.4,33.2,33.2,2.6,3.3,2.5775,0.5118619822376971,-0.0199489448065634,0.8463662465703624,0.0033959381855534717,-0.095109,-33.877537
11.185,2.0,1.0,1.0,34.4,33.2,33.2,2.6,3.3,2.58,0.5037574109594458,-0.020270003383878632,0.851055716495233,0.003240851682289836,-0.096312,-33.7533
11.185,2.0,1.0,1.0,34.4,33.2,33.2,2.6,3.3,2.5825,0.49555531129413055,-0.0205953468596351,0.8556961774700784,0.003079256537969473,-0.09754,-33.628605
11.185,2.0,1.0,1.0,34.4,33.2,33.2,2.6,3.3,2.585,0.48725484940453984,-0.02092500405784073,0.8602860298838815,0.002910944978042123,-0.098791,-33.503445
11.185,2.0,1.0,1.0,34.4,33.2,33.2,2.6,3.3,2.5875,0.47885519414357813,-0.021259002122564465,0.864823630470564,0.002735702588513663,-0.100067,-33.377814
11.185,2.0,1.0,1.0,34.4,33.2,33.2,2.6,3.3,2.59,0.47035551780011975,-0.021597366370023196,0.8693072912005613,0.002553308100533012,-0.101368,-33.251704
11.185,2.0,1.0,1.0,34.4,33.2,33.2,2.6,3.3,2.5925,0.4617549968877504,-0.021940120131661776,0.8737352781505238,0.0023635331682430993,-0.102695,-33.12511
11.185,2.0,1.0,1.0,34.4,33.2,33.2,2.6,3.3,2.595,0.4530528129783934,-0.022287284587724287,0.8781058103511603,0.0021661421397149478,-0.104048,-32.998025
11.185,2.0,1.0,1.0,34.4,33.2,33.2,2.6,3.3,2.5975,0.4442481535828449,-0.022638878590789193,0.8824170586133123,0.0019608918207806025,-0.105429,-32.870441
11.185,2.0,1.0,1.0,34.4,33.2,33.2,2.6,3.3,2.6,0.4353402130803595,-0.02299491847871171,0.8866671443323657,0.0017475312315783187,-0.106838,-32.742352
11.185,2.0,1.0,1.0,34.4,33.2,33.2,2.6,3.3,2.6025,0.42632819369950736,-0.023355417876385603,0.8908541382711636,0.0015258013556215086,-0.108276,-32.613751
11.185,2.0,1.0,1.0,34.4,33.2,33.2,2.6,3.3,2.605,0.4172113065525822,-0.02372038748570663,0.894976059321647,0.00129543488120017,-0.109743,-32.484631
11.185,2.0,1.0,1.0,34.4,33.2,33.2,2.6,3.3,2.6075,0.40798877272596146,-0.024089834863084834,0.8990308732454957,0.0010561559349217275,-0.11124,-32.354984
11.185,2.0,1.0,1.0,34.4,33.2,33.2,2.6,3.3,2.61,0.398659824428893,-0.02446376418381801,0.9030164913940966,0.0008076798071969868,-0.112768,-32.224803
11.185,2.0,1.0,1.0,34.4,33.2,33.2,2.6,3.3,2.6125,0.3892237062032719,-0.02484217599260095,0.9069307694082566,0.0005497126694742074,-0.114328,-32.094081
11.185,2.0,1.0,1.0,34.4,33.2,33.2,2.6,3.3,2.615,0.37967967619707277,-0.02522506693940632,0.9107715058981155,0.0002819512830236415,-0.115921,-31.962811
11.185,2.0,1.0,1.0,34.4,33.2,33.2,2.6,3.3,2.6175,0.37002700750420564,-0.025612429499930648,0.9145364411038194,4.082699074067551e-06,-0.117547,-31.830984
11.185,2.0,1.0,1.0,34.4,33.2,33.2,2.6,3.3,2.62,0.3602649895736555,-0.026004251679754117,0.9182232555375719,-0.0002842160498989602,-0.119207,-31.698594
11.185,2.0,1.0,1.0,34.4,33.2,33.2,2.6,3.3,2.6225,0.3503929296908579,-0.026400516701318814,0.9218295686077828,-0.0005832782679336728,-0.120903,-31.565632
11.185,2.0,1.0,1.0,34.4,33.2,33.2,2.6,3.3,2.625,0.340410154534411,-0.0268012026727773,0.925352937226116,-0.000893447922591267,-0.122635,-31.432091
11.185,2.0,1.0,1.0,34.4,33.2,33.2,2.6,3.3,2.6275,0.3303160118112631,-0.027206282237714954,0.9287908543983387,-0.0012150799814157015,-0.124405,-31.297962
11.185,2.0,1.0,1.0,34.4,33.2,33.2,2.6,3.3,2.63,0.32010987197368984,-0.027615722204691367,0.9321407477999851,-0.0015485407580435972,-0.126213,-31.163238
11.185,2.0,1.0,1.0,34.4,33.2,33.2,2.6,3.3,2.6325,0.30979113002144715,-0.02802948315548992,0.9353999783379415,-0.0018942082681648572,-0.12806,-31.027909
11.185,2.0,1.0,1.0,34.4,33.2,33.2,2.6,3.3,2.635,0.29935920739261446,-0.028447519030901546,0.9385658386992022,-0.0022524725955322005,-0.129947,-30.891969
11.185,2.0,1.0,1.0,34.4,33.2,33.2,2.6,3.3,2.6375,0.28881355394676916,-0.0288697766928039,0.9416355518881383,-0.002623736268217473,-0.131876,-30.755408
11.185,2.0,1.0,1.0,34.4,33.2,33.2,2.6,3.3,2.64,0.27815365004420906,-0.029296195461227546,0.9446062697537893,-0.0030084146453112914,-0.133848,-30.618218
11.185,2.0,1.0,1.0,34.4,33.2,33.2,2.6,3.3,2.6425,0.26737900872512643,-0.029726706625027334,0.9474750715087945,-0.0034069363142588513,-0.135864,-30.48039
11.185,2.0,1.0,1.0,34.4,33.2,33.2,2.6,3.3,2.645,0.2564891779926941,-0.030161232924698553,0.9502389622417547,-0.0038197434990244294,-0.137924,-30.341916
11.185,2.0,1.0,1.0,34.4,33.2,33.2,2.6,3.3,2.6475,0.2454837432042026,-0.030599688005793713,0.9528948714249454,-0.00424729247927268,-0.140031,-30.202785
11.185,2.0,1.0,1.0,34.4,33.2,33.2,2.6,3.3,2.65,0.23436232957444733,-0.03104197584131056,0.9554396514195028,-0.00469005402075332,-0.142186,-30.062989
11.185,2.0,1.0,1.0,34.4,33.2,33.2,2.6,3.3,2.6525,0.2231246047957949,-0.031487990121321724,0.9578700759803269,-0.0051485138170700925,-0.14439,-29.922519
11.185,2.0,1.0,1.0,34.4,33.2,33.2,2.6,3.3,2.655,0.21177028177935817,-0.03193761360802413,0.960182838763179,-0.005623172943013907,-0.146644,-29.781365
11.185,2.0,1.0,1.0,34.4,33.2,33.2,2.6,3.3,2.6575,0.2002991215219506,-0.032390717454271536,0.9623745518366107,-0.006114548319633451,-0.14895,-29.639518
11.185,2.0,1.0,1.0,34.4,33.2,33.2,2.6,3.3,2.66,0.18871093610355813,-0.03284716048354584,0.9644417442015627,-0.006623173191213742,-0.151309,-29.496967
11.185,2.0,1.0,1.0,34.4,33.2,33.2,2.6,3.3,2.6625,0.1770055918202362,-0.03330678842919617,0.9663808603217063,-0.007149597614326929,-0.153724,-29.353702
11.185,2.0,1.0,1.0,34.4,33.2,33.2,2.6,3.3,2.665,0.16518301245743314,-0.033769433130647654,0.9681882586677837,-0.007694388959116831,-0.156195,-29.209714
11.185,2.0,1.0,1.0,34.4,33.2,33.2,2.6,3.3,2.6675,0.15324318270893503,-0.03423491168413979,0.9698602102794656,-0.008258132422970377,-0.158724,-29.064992
11.185,2.0,1.0,1.0,34.4,33.2,33.2,2.6,3.3,2.67,0.14118615174671426,-0.03470302554540619,0.9713928973484621,-0.008841431556726873,-0.161313,-28.919525
11.185,2.0,1.0,1.0,34.4,33.2,33.2,2.6,3.3,2.6725,0.12901203694711724,-0.035173559581544986,0.9727824118268845,-0.009444908803568724,-0.163964,-28.773302
11.185,2.0,1.0,1.0,34.4,33.2,33.2,2.6,3.3,2.675,0.11672102777899061,-0.03564628106915775,0.9740247540651025,-0.010069206050731543,-0.166678,-28.626312
11.185,2.0,1.0,1.0,34.4,33.2,33.2,2.6,3.3,2.6775,0.10431338985946492,-0.036120938635647276,0.9751158314836288,-0.010714985194166837,-0.169459,-28.478545
11.185,2.0,1.0,1.0,34.4,33.2,33.2,2.6,3.3,2.68,0.09178946918325115,-0.03659726114036493,0.9760514572838175,-0.01138292871628458,-0.172306,-28.329987
11.185,2.0,1.0,1.0,34.4,33.2,33.2,2.6,3.3,2.6825,0.07914969653149813,-0.03707495649208009,0.9768273492024646,-0.012073740276896752,-0.175224,-28.180628
11.185,2.0,1.0,1.0,34.4,33.2,33.2,2.6,3.3,2.685,0.06639459206635256,-0.037553710399010835,0.97743912831571,-0.012788145317478813,-0.178213,-28.030455
11.185,2.0,1.0,1.0,34.4,33.2,33.2,2.6,3.3,2.6875,0.053524770117554445,-0.03803318504740144,0.9778823178979065,-0.013526891678860347,-0.181276,-27.879456
11.185,2.0,1.0,1.0,34.4,33.2,33.2,2.6,3.3,2.69,0.040540944167570196,-0.038513017704354495,0.9781523423414803,-0.014290750232450376,-0.184416,-27.727619
11.185,2.0,1.0,1.0,34.4,33.2,33.2,2.6,3.3,2.6925,0.02744393204187675,-0.03899281924032998,0.9782445261441074,-0.015080515525101153,-0.187635,-27.574929
11.185,2.0,1.0,1.0,34.4,33.2,33.2,2.6,3.3,2.695,0.014234661311261335,-0.03947217256639323,0.9781540929698556,-0.01589700643770565,-0.190935,-27.421374
11.185,2.0,1.0,1.0,34.4,33.2,33.2,2.6,3.3,2.6975,0.000914174913098932,-0.039950630980944014,0.9778761647913018,-0.016741066857625823,-0.194319,-27.26694
11.185,2.0,1.0,1.0,34.4,33.2,33.2,2.6,3.3,2.7,-0.01251636300116668,-0.0404277164202666,0.9774057611199609,-0.017613566365039565,-0.19779,-27.111612
11.185,2.0,1.0,1.0,34.4,33.2,33.2,2.6,3.3,2.7025,-0.026055660984967245,-0.04090291760682108,0.9767377983327179,-0.01851540093329623,-0.201351,-26.955377
11.185,2.0,1.0,1.0,34.4,33.2,33.2,2.6,3.3,2.705,-0.039702293974336084,-0.041375688088728206,0.9758670891023038,-0.01944749364336374,-0.205004,-26.79822
11.185,2.0,1.0,1.0,34.4,33.2,33.2,2.6,3.3,2.7075,-0.05345469671659376,-0.041845444163395626,0.9747883419402371,-0.020410795412450614,-0.208753,-26.640125
11.185,2.0,1.0,1.0,34.4,33.2,33.2,2.6,3.3,2.71,-0.06731115694184603,-0.04231156267766801,0.9734961608609742,-0.0214062857368799,-0.212602,-26.481076
11.185,2.0,1.0,1.0,34.4,33.2,33.2,2.6,3.3,2.7125,-0.08126980826892606,-0.042773378696274664,0.9719850451764191,-0.022434973449291896,-0.216552,-26.321057
11.185,2.0,1.0,1.0,34.4,33.2,33.2,2.6,3.3,2.715,-0.09532862283704091,-0.0432301830296643,0.9702493894302681,-0.023497897490244054,-0.220609,-26.160052
11.185,2.0,1.0,1.0,34.4,33.2,33.2,2.6,3.3,2.7175,-0.10948540365406845,-0.04368121961157012,0.9682834834820618,-0.0245961276942718,-0.224776,-25.998043
11.185,2.0,1.0,1.0,34.4,33.2,33.2,2.6,3.3,2.72,-0.12373777665200424,-0.04412568271581998,0.9660815127511521,-0.025730765590462668,-0.229057,-25.835013
11.185,2.0,1.0,1.0,34.4,33.2,33.2,2.6,3.3,2.7225,-0.13808318243967202,-0.044562714000989156,0.9636375586311636,-0.026902945217584958,-0.233455,-25.670942
11.185,2.0,1.0,1.0,34.4,33.2,33.2,2.6,3.3,2.725,-0.15251886774220208,-0.044991399370476345,0.9609455990858975,-0.028113833953787287,-0.237975,-25.505812
11.185,2.0,1.0,1.0,34.4,33.2,33.2,2.6,3.3,2.7275,-0.16704187651629343,-0.045410765634455376,0.9579995094379387,-0.029364633360865554,-0.242622,-25.339604
11.185,2.0,1.0,1.0,34.4,33.2,33.2,2.6,3.3,2.73,-0.18164904072951032,-0.04581977695889836,0.9547930633616312,-0.03065658004304841,-0.2474,-25.172296
11.185,2.0,1.0,1.0,34.4,33.2,33.2,2.6,3.3,2.7325,-0.1963369707911435,-0.04621733108547108,0.9513199340923748,-0.031990946520208036,-0.252315,-25.003868
11.185,2.0,1.0,1.0,34.4,33.2,33.2,2.6,3.3,2.735,-0.21110204562123433,-0.04660225530453847,0.9475736958645783,-0.03336904211532929,-0.257371,-24.834298
11.185,2.0,1.0,1.0,34.4,33.2,33.2,2.6,3.3,2.7375,-0.22594040234333831,-0.046973302161786384,0.9435478255909064,-0.03479221385598369,-0.262574,-24.663564
11.185,2.0,1.0,1.0,34.4,33.2,33.2,2.6,3.3,2.74,-0.24084792558539603,-0.04732914487701294,0.939235704795824,-0.03626184738943109,-0.267929,-24.491641
11.185,2.0,1.0,1.0,34.4,33.2,33.2,2.6,3.3,2.7425,-0.2558202363717138,-0.047668372451476405,0.9346306218167596,-0.03777936791082085,-0.273444,-24.318506
11.185,2.0,1.0,1.0,34.4,33.2,33.2,2.6,3.3,2.745,-0.2708526805874001,-0.04798948443774467,0.9297257742865503,-0.03934624110375926,-0.279124,-24.144133
11.185,2.0,1.0,1.0,34.4,33.2,33.2,2.6,3.3,2.7475,-0.285940316994805,-0.04829088534326214,0.92451427191121,-0.04096397409225505,-0.284975,-23.968495
11.185,2.0,1.0,1.0,34.4,33.2,33.2,2.6,3.3,2.75,-0.301077904779316,-0.0485708786357825,0.918989139557425,-0.0426341164027252,-0.291006,-23.791565
11.185,2.0,1.0,1.0,34.4,33.2,33.2,2.6,3.3,2.7525,-0.3162598905993713,-0.04882766031536695,0.9131433206645906,-0.04435826093432782,-0.297224,-23.613315
11.185,2.0,1.0,1.0,34.4,33.2,33.2,2.6,3.3,2.755,-0.33148039511266714,-0.049059312013774586,0.9069696809966865,-0.0461380449353618,-0.303636,-23.433714
11.185,2.0,1.0,1.0,34.4,33.2,33.2,2.6,3.3,2.7575,-0.34673319894722987,-0.04926379357769982,0.900461012749781,-0.04797515098282098,-0.310252,-23.252733
11.185,2.0,1.0,1.0,34.4,33.2,33.2,2.6,3.3,2.76,-0.3620117280820857,-0.04943893508739562,0.8936100390316081,-0.04987130796135837,-0.317079,-23.070337
11.185,2.0,1.0,1.0,34.4,33.2,33.2,2.6,3.3,2.7625,-0.37730903859787945,-0.0495824282566654,0.8864094187303782,-0.05182829203690065,-0.324128,-22.886493
11.185,2.0,1.0,1.0,34.4,33.2,33.2,2.6,3.3,2.765,-0.39261780075255187,-0.04969181715393911,0.8788517517908941,-0.053847927618874386,-0.331409,-22.701166
11.185,2.0,1.0,1.0,34.4,33.2,33.2,2.6,3.3,2.7675,-0.4079302823312846,-0.04976448817706181,0.8709295849171595,-0.055932088303432666,-0.338933,-22.514319
11.185,2.0,1.0,1.0,34.4,33.2,33.2,2.6,3.3,2.77,-0.4232383312130278,-0.049797659206408725,0.8626354177220354,-0.05808269778812922,-0.34671,-22.325913
11.185,2.0,1.0,1.0,34.4,33.2,33.2,2.6,3.3,2.7725,-0.43853335708796176,-0.04978836785186184,0.8539617093462261,-0.06030173074608589,-0.354754,-22.135907
11.185,2.0,1.0,1.0,34.4,33.2,33.2,2.6,3.3,2.775,-0.4538063122511227,-0.04973345869890413,0.8449008855710454,-0.06259121364475669,-0.363077,-21.94426
11.185,2.0,1.0,1.0,34.4,33.2,33.2,2.6,3.3,2.7775,-0.4690476713868631,-0.04962956944742302,0.8354453464521049,-0.064953225490772,-0.371693,-21.750925
11.185,2.0,1.0,1.0,34.4,33.2,33.2,2.6,3.3,2.78,-0.4842474102466896,-0.04947311582357782,0.8255874745044735,-0.067389898477912,-0.380617,-21.555857
11.185,2.0,1.0,1.0,34.4,33.2,33.2,2.6,3.3,2.7825,-0.4993949831089601,-0.049260275130056506,0.8153196434741273,-0.06990341850981939,-0.389866,-21.359007
11.185,2.0,1.0,1.0,34.4,33.2,33.2,2.6,3.3,2.785,-0.5144792988929331,-0.04898696828295595,0.8046342277358096,-0.07249602556242563,-0.399456,-21.160323
11.185,2.0,1.0,1.0,34.4,33.2,33.2,2.6,3.3,2.7875,-0.5294886957809998,-0.0486488401640862,0.7935236123641338,-0.07517001384292012,-0.409405,-20.959751
11.185,2.0,1.0,1.0,34.4,33.2,33.2,2.6,3.3,2.79,-0.5444109141817438,-0.048241238095373236,0.7819802039330541,-0.07792773169217308,-0.419733,-20.757234
11.185,2.0,1.0,1.0,34.4,33.2,33.2,2.6,3.3,2.7925,-0.5592330678418441,-0.04775918821684118,0.7699964421092413,-0.08077158116537168,-0.430463,-20.552712
11.185,2.0,1.0,1.0,34.4,33.2,33.2,2.6,3.3,2.795,-0.573941612886788,-0.04719736952093565,0.7575648121177561,-0.08370401721082028,-0.441615,-20.346123
11.185,2.0,1.0,1.0,34.4,33.2,33.2,2.6,3.3,2.7975,-0.5885223145378718,-0.04655008526321046,0.7446778581745603,-0.08672754634872569,-0.453217,-20.1374
11.185,2.0,1.0,1.0,34.4,33.2,33.2,2.6,3.3,2.8,-0.6029602112159157,-0.045811231432050764,0.7313281980002171,-0.08984472472968616,-0.465293,-19.926473
11.185,2.0,1.0,1.0,34.4,33.2,33.2,2.6,3.3,2.8025,-0.6172395756993353,-0.04497426191748374,0.7175085385538804,-0.09305815542554809,-0.477874,-19.713269
11.185,2.0,1.0,1.0,34.4,33.2,33.2,2.6,3.3,2.805,-0.631343872955293,-0.04403214997048514,0.7032116931572766,-0.09637048477223639,-0.49099,-19.497711
11.185,2.0,1.0,1.0,34.4,33.2,33.2,2.6,3.3,2.8075,-0.6452557142064227,-0.04297734548866134,0.6884306002161976,-0.09978439754371757,-0.504677,-19.279716
11.185,2.0,1.0,1.0,34.4,33.2,33.2,2.6,3.3,2.81,-0.6589568067313191,-0.04180172760080025,0.6731583437938997,-0.10330261068672521,-0.518971,-19.059199
11.185,2.0,1.0,1.0,34.4,33.2,33.2,2.6,3.3,2.8125,-0.672427898823101,-0.04049655195048053,0.6573881763487625,-0.10692786528517888,-0.533913,-18.836068
11.185,2.0,1.0,1.0,34.4,33.2,33.2,2.6,3.3,2.815,-0.6856487192461598,-0.03905239199644095,0.6411135440202208,-0.11066291634878339,-0.549547,-18.610228
11.185,2.0,1.0,1.0,34.4,33.2,33.2,2.6,3.3,2.8175,-0.6985979104347009,-0.03745907355346234,0.6243281149356813,-0.11451051992885451,-0.565922,-18.381578
11.185,2.0,1.0,1.0,34.4,33.2,33.2,2.6,3.3,2.82,-0.7112529545668429,-0.03570560169059869,0.6070258111208767,-0.1184734169520023,-0.583092,-18.15001
11.185,2.0,1.0,1.0,34.4,33.2,33.2,2.6,3.3,2.8225,-0.7235900915229339,-0.03378007898218026,0.5892008447320305,-0.12255431302389849,-0.601114,-17.915411
11.185,2.0,1.0,1.0,34.4,33.2,33.2,2.6,3.3,2.825,-0.7355842275947936,-0.03166961396947707,0.5708477594965155,-0.12675585328472547,-0.620053,-17.677662
11.185,2.0,1.0,1.0,34.4,33.2,33.2,2.6,3.3,2.8275,-0.7472088336521243,-0.029360218535649688,0.5519614784575072,-0.1310805911872483,-0.63998,-17.436637
