1,w,sub_t,h,l1,l2,l3,g1,g2,Freq,S11_re,S21_re,S11_img,S21_img,S11_dB,S21_dB
11.185,2.0,1.0,1.0,34.2,33.7,33.7,2.9,2.2,2.5,0.753253768371918,-0.013914294356222,0.645427452032298,0.00869328314074883,-0.070191,-35.69956
11.185,2.0,1.0,1.0,34.2,33.7,33.7,2.9,2.2,2.5025,0.7481401311005891,-0.014183004709526962,0.6512131474575211,0.008695319967782252,-0.070966,-35.578869
11.185,2.0,1.0,1.0,34.2,33.7,33.7,2.9,2.2,2.505,0.7429542626570054,-0.014456520095966064,0.6569873749791129,0.008694971975960636,-0.071755,-35.45775
11.185,2.0,1.0,1.0,34.2,33.7,33.7,2.9,2.2,2.5075,0.7376954077112149,-0.01473493189186175,0.6627495176271496,0.00869214399580792,-0.072559,-35.336194
11.185,2.0,1.0,1.0,34.2,33.7,33.7,2.9,2.2,2.51,0.7323628014501944,-0.015018333446193521,0.6684989401309238,0.008686737334436331,-0.073378,-35.214194
11.185,2.0,1.0,1.0,34.2,33.7,33.7,2.9,2.2,2.5125,0.7269556695335062,-0.015306820125589152,0.6742349883609005,0.008678649632386461,-0.074211,-35.091742
11.185,2.0,1.0,1.0,34.2,33.7,33.7,2.9,2.2,2.515,0.721473228053642,-0.0156004893601863,0.6799569887532265,0.00866777471397746,-0.075061,-34.968829
11.185,2.0,1.0,1.0,34.2,33.7,33.7,2.9,2.2,2.5175,0.7159146835014083,-0.015899440690361234,0.6856642477161824,0.008654002430838382,-0.075926,-34.845448
11.185,2.0,1.0,1.0,34.2,33.7,33.7,2.9,2.2,2.52,0.7102792327366942,-0.016203775814322655,0.6913560510180027,0.008637218498273118,-0.076808,-34.721589
11.185,2.0,1.0,1.0,34.2,33.7,33.7,2.9,2.2,2.5225,0.7045660629650257,-0.016513598636563737,0.6970316631554085,0.008617304324089073,-0.077707,-34.597245
11.185,2.0,1.0,1.0,34.2,33.7,33.7,2.9,2.2,2.525,0.6987743517202807,-0.016829015317165356,0.7026903267022256,0.008594136829500502,-0.078623,-34.472406
11.185,2.0,1.0,1.0,34.2,33.7,33.7,2.9,2.2,2.5275,0.6929032668539977,-0.017150134321938265,0.708331261637408,0.008567588261693926,-0.079557,-34.347064
11.185,2.0,1.0,1.0,34.2,33.7,33.7,2.9,2.2,2.53,0.6869519665317204,-0.017477066473389667,0.7139536646517547,0.008537525997618247,-0.080509,-34.22121
11.185,2.0,1.0,1.0,34.2,33.7,33.7,2.9,2.2,2.5325,0.6809195992368411,-0.01780992500249741,0.7195567084326041,0.008503812338536233,-0.08148,-34.094833
11.185,2.0,1.0,1.0,34.2,33.7,33.7,2.9,2.2,2.535,0.674805303782431,-0.01814882560126797,0.7251395409257468,0.008466304294847626,-0.082471,-33.967926
11.185,2.0,1.0,1.0,34.2,33.7,33.7,2.9,2.2,2.5375,0.6686082093315849,-0.018493886476053722,0.7307012845737596,0.008424853360662244,-0.083481,-33.840479
11.185,2.0,1.0,1.0,34.2,33.7,33.7,2.9,2.2,2.54,0.6623274354268122,-0.018845228401596217,0.7362410355299502,0.008379305277572314,-0.084512,-33.712481
11.185,2.0,1.0,1.0,34.2,33.7,33.7,2.9,2.2,2.5425,0.6559620920290516,-0.019202974775761078,0.7417578628470597,0.008329499787037366,-0.085564,-33.583922
11.185,2.0,1.0,1.0,34.2,33.7,33.7,2.9,2.2,2.545,0.6495112795669129,-0.019567251674919312,0.7472508076398288,0.008275270370760276,-0.086637,-33.454794
11.185,2.0,1.0,1.0,34.2,33.7,33.7,2.9,2.2,2.5475,0.6429740889967844,-0.019938187909928313,0.7527188822204991,0.008216443978393329,-0.087733,-33.325085
11.185,2.0,1.0,1.0,34.2,33.7,33.7,2.9,2.2,2.55,0.6363496018744595,-0.020315915082654103,0.7581610692062978,0.008152840741872561,-0.088852,-33.194785
11.185,2.0,1.0,1.0,34.2,33.7,33.7,2.9,2.2,2.5525,0.6296368904390098,-0.02070056764297036,0.7635763205978757,0.008084273675633996,-0.089994,-33.063882
11.185,2.0,1.0,1.0,34.2,33.7,33.7,2.9,2.2,2.555,0.6228350177096219,-0.021092282946161688,0.7689635568276622,0.008010548361916952,-0.09116,-32.932368
11.185,2.0,1.0,1.0,34.2,33.7,33.7,2.9,2.2,2.5575,0.6159430375961884,-0.021491201310646513,0.7743216657770373,0.007931462620309892,-0.092351,-32.800229
11.185,2.0,1.0,1.0,34.2,33.7,33.7,2.9,2.2,2.56,0.6089599950244764,-0.021897466075925118,0.7796495017611605,0.007846806160638735,-0.093568,-32.667454
11.185,2.0,1.0,1.0,34.2,33.7,33.7,2.9,2.2,2.5625,0.6018849260767316,-0.022311223660646282,0.784945884480257,0.007756360218238741,-0.094811,-32.534033
11.185,2.0,1.0,1.0,34.2,33.7,33.7,2.9,2.2,2.565,0.5947168581486275,-0.02273262362067275,0.7902095979361148,0.007659897170587703,-0.096081,-32.399953
11.185,2.0,1.0,1.0,34.2,33.7,33.7,2.9,2.2,2.5675,0.5874548101235306,-0.023161818707009636,0.7954393893124471,0.007557180134210939,-0.09738,-32.265201
11.185,2.0,1.0,1.0,34.2,33.7,33.7,2.9,2.2,2.57,0.5800977925650751,-0.02359896492344508,0.8006339678177565,0.007447962540694388,-0.098707,-32.129767
11.185,2.0,1.0,1.0,34.2,33.7,33.7,2.9,2.2,2.5725,0.5726448079291229,-0.02404422158373285,0.8057920034892375,0.0073319876905645585,-0.100064,-31.993636
11.185,2.0,1.0,1.0,34.2,33.7,33.7,2.9,2.2,2.575,0.5650948507962223,-0.02449775136812729,0.8109121259561949,0.007208988283707789,-0.101451,-31.856796
11.185,2.0,1.0,1.0,34.2,33.7,33.7,2.9,2.2,2.5775,0.5574469081257579,-0.02495972037905834,0.8159929231613653,0.007078685924911772,-0.102871,-31.719234
11.185,2.0,1.0,1.0,34.2,33.7,33.7,2.9,2.2,2.58,0.5496999595330305,-0.025430298195708943,0.8210329400384523,0.006940790603011748,-0.104322,-31.580935
11.185,2.0,1.0,1.0,34.2,33.7,33.7,2.9,2.2,2.5825,0.5418529775905819,-0.025909657927230736,0.826030677144099,0.0067950001420189875,-0.105807,-31.441887
11.185,2.0,1.0,1.0,34.2,33.7,33.7,2.9,2.2,2.585,0.5339049281551624,-0.02639797626430244,0.8309845892424075,0.006640999622493355,-0.107327,-31.302076
11.185,2.0,1.0,1.0,34.2,33.7,33.7,2.9,2.2,2.5875,0.5258547707217889,-0.0268954335287023,0.8358930838400279,0.006478460771297284,-0.108883,-31.161485
11.185,2.0,1.0,1.0,34.2,33.7,33.7,2.9,2.2,2.59,0.5177014588064601,-0.027402213720527504,0.8407545196697139,0.006307041317735303,-0.110475,-31.020102
11.185,2.0,1.0,1.0,34.2,33.7,33.7,2.9,2.2,2.5925,0.5094439403591472,-0.02791850456265169,0.8455672051201223,0.006126384313937625,-0.112106,-30.87791
11.185,2.0,1.0,1.0,34.2,33.7,33.7,2.9,2.2,2.595,0.5010811582088082,-0.028444497541965874,0.8503293966094989,0.005936117417186811,-0.113775,-30.734894
11.185,2.0,1.0,1.0,34.2,33.7,33.7,2.9,2.2,2.5975,0.49261205054223056,-0.028980387946896047,0.8550392969007605,0.005735852131719836,-0.115486,-30.591037
11.185,2.0,1.0,1.0,34.2,33.7,33.7,2.9,2.2,2.6,0.48403555141865817,-0.029526374900632854,0.8596950533553033,0.005525183007348384,-0.117238,-30.446325
11.185,2.0,1.0,1.0,34.2,33.7,33.7,2.9,2.2,2.6025,0.47535059132225016,-0.03008266138944393,0.8642947561227329,0.005303686792043602,-0.119034,-30.300739
11.185,2.0,1.0,1.0,34.2,33.7,33.7,2.9,2.2,2.605,0.46655609775453316,-0.03064945428536983,0.8688364362634902,0.0050709215354098405,-0.120875,-30.154262
11.185,2.0,1.0,1.0,34.2,33.7,33.7,2.9,2.2,2.6075,0.45765099586917346,-0.03122696436252311,0.8733180638011772,0.004826425639736768,-0.122762,-30.006877
11.185,2.0,1.0,1.0,34.2,33.7,33.7,2.9,2.2,2.61,0.44863420915150926,-0.031815406306120494,0.8777375457011508,0.004569716855061275,-0.124697,-29.858566
11.185,2.0,1.0,1.0,34.2,33.7,33.7,2.9,2.2,2.6125,0.43950466014545225,-0.03241499871328025,0.8820927237717202,0.004300291214388809,-0.126681,-29.70931
11.185,2.0,1.0,1.0,34.2,33.7,33.7,2.9,2.2,2.615,0.430261271230525,-0.03302596408450468,0.8863813724840353,0.0040176219049179295,-0.128717,-29.55909
11.185,2.0,1.0,1.0,34.2,33.7,33.7,2.9,2.2,2.6175,0.4209029654519989,-0.033648528804641885,0.8906011967064499,0.0037211580707799756,-0.130806,-29.407887
11.185,2.0,1.0,1.0,34.2,33.7,33.7,2.9,2.2,2.62,0.411428667407286,-0.034282923111983034,0.8947498293488363,0.0034103235424392734,-0.132951,-29.255679
11.185,2.0,1.0,1.0,34.2,33.7,33.7,2.9,2.2,2.6225,0.4018373041919317,-0.03492938105399424,0.8988248289120209,0.003084515487503253,-0.135152,-29.102447
11.185,2.0,1.0,1.0,34.2,33.7,33.7,2.9,2.2,2.625,0.392127806408848,-0.0355881404280049,0.902823676937072,0.0027431029772577,-0.137413,-28.948168
11.185,2.0,1.0,1.0,34.2,33.7,33.7,2.9,2.2,2.6275,0.3822991092446078,-0.03625944270498047,0.9067437753488304,0.0023854254627655802,-0.139735,-28.792822
11.185,2.0,1.0,1.0,34.2,33.7,33.7,2.9,2.2,2.63,0.3723501536169638,-0.03694353293428207,0.9105824436875836,0.0020107911538490585,-0.142121,-28.636385
11.185,2.0,1.0,1.0,34.2,33.7,33.7,2.9,2.2,2.6325,0.3622798873980358,-0.037640659627067856,0.9143369162222843,0.0016184752937038484,-0.144573,-28.478834
11.185,2.0,1.0,1.0,34.2,33.7,33.7,2.9,2.2,2.635,0.3520872667179595,-0.03835107461570971,0.9180043389381968,0.001207718321269318,-0.147094,-28.320145
11.185,2.0,1.0,1.0,34.2,33.7,33.7,2.9,2.2,2.6375,0.3417712573541679,-0.03907503288628006,0.9215817663912284,0.0007777239127927011,-0.149687,-28.160293
11.185,2.0,1.0,1.0,34.2,33.7,33.7,2.9,2.2,2.64,0.33133083621187787,-0.03981279238080864,0.9250661584205436,0.0003276568932714595,-0.152353,-27.999253
11.185,2.0,1.0,1.0,34.2,33.7,33.7,2.9,2.2,2.6425,0.3207649929018495,-0.040564613765600756,0.9284543767103335,-0.0001433589923704695,-0.155097,-27.836999
11.185,2.0,1.0,1.0,34.2,33.7,33.7,2.9,2.2,2.645,0.3100727314219621,-0.04133076016145431,0.9317431811907927,-0.0006362434594276695,-0.157921,-27.673503
11.185,2.0,1.0,1.0,34.2,33.7,33.7,2.9,2.2,2.6475,0.29925307194976647,-0.04211149683109225,0.9349292262674502,-0.0011519622269402017,-0.160829,-27.508738
11.185,2.0,1.0,1.0,34.2,33.7,33.7,2.9,2.2,2.65,0.28830505275375945,-0.04290709081854135,0.9380090568670274,-0.001691529737768182,-0.163824,-27.342674
11.185,2.0,1.0,1.0,34.2,33.7,33.7,2.9,2.2,2.6525,0.27722773223192554,-0.043717810534518495,0.9409791042868701,-0.002256012069599933,-0.166909,-27.175282
11.185,2.0,1.0,1.0,34.2,33.7,33.7,2.9,2.2,2.655,0.26602019108681246,-0.044543925281131665,0.94383568183378,-0.002846530052630268,-0.170089,-27.006531
11.185,2.0,1.0,1.0,34.2,33.7,33.7,2.9,2.2,2.6575,0.2546815346473716,-0.04538570470833591,0.9465749802367333,-0.003464262611132363,-0.173368,-26.836389
11.185,2.0,1.0,1.0,34.2,33.7,33.7,2.9,2.2,2.66,0.24321089534881418,-0.04624341819360537,0.9491930628164118,-0.004110450347794832,-0.176749,-26.664823
11.185,2.0,1.0,1.0,34.2,33.7,33.7,2.9,2.2,2.6625,0.23160743538287884,-0.04711733413515937,0.9516858603928561,-0.004786399391520923,-0.180238,-26.491799
11.185,2.0,1.0,1.0,34.2,33.7,33.7,2.9,2.2,2.665,0.21987034953222495,-0.0480077191478023,0.9540491659106061,-0.005493485531407014,-0.18384,-26.317281
11.185,2.0,1.0,1.0,34.2,33.7,33.7,2.9,2.2,2.6675,0.2079988682041797,-0.04891483714896939,0.956278628758659,-0.00623315866185797,-0.187558,-26.141233
11.185,2.0,1.0,1.0,34.2,33.7,33.7,2.9,2.2,2.67,0.19599226068075543,-0.04983894832089993,0.9583697487602104,-0.007006947566288517,-0.1914,-25.963617
11.185,2.0,1.0,1.0,34.2,33.7,33.7,2.9,2.2,2.6725,0.18384983860376666,-0.050780307932929765,0.9603178698045757,-0.007816465069619569,-0.19537,-25.784394
11.185,2.0,1.0,1.0,34.2,33.7,33.7,2.9,2.2,2.675,0.1715709597161691,-0.05173916500569195,0.9621181730907455,-0.008663413592855013,-0.199475,-25.603522
11.185,2.0,1.0,1.0,34.2,33.7,33.7,2.9,2.2,2.6775,0.15915503188321198,-0.052715760796473714,0.9637656699488215,-0.009549591146443093,-0.203722,-25.42096
11.185,2.0,1.0,1.0,34.2,33.7,33.7,2.9,2.2,2.68,0.14660151741994454,-0.05371032708205232,0.9652551942019297,-0.01047689780293633,-0.208116,-25.236663
11.185,2.0,1.0,1.0,34.2,33.7,33.7,2.9,2.2,2.6825,0.13390993775499752,-0.05472308421196298,0.9665813940271348,-0.011447342693709972,-0.212666,-25.050586
11.185,2.0,1.0,1.0,34.2,33.7,33.7,2.9,2.2,2.685,0.12107987846439457,-0.05575423890125234,0.9677387232693548,-0.012463051579233974,-0.217379,-24.862681
11.185,2.0,1.0,1.0,34.2,33.7,33.7,2.9,2.2,2.6875,0.10811099471363603,-0.05680398172726744,0.9687214321571475,-0.013526275047684194,-0.222265,-24.672899
11.185,2.0,1.0,1.0,34.2,33.7,33.7,2.9,2.2,2.69,0.09500301715149283,-0.05787248428980465,0.9695235573635488,-0.014639397402580117,-0.227331,-24.481188
11.185,2.0,1.0,1.0,34.2,33.7,33.7,2.9,2.2,2.6925,0.08175575830490261,-0.05895989598788389,0.9701389113486892,-0.01580494630674692,-0.232588,-24.287495
11.185,2.0,1.0,1.0,34.2,33.7,33.7,2.9,2.2,2.695,0.06836911953139575,-0.06006634035936449,0.9705610709137572,-0.01702560325727824,-0.238045,-24.091764
11.185,2.0,1.0,1.0,34.2,33.7,33.7,2.9,2.2,2.6975,0.05484309859351312,-0.06119191092141762,0.9707833648877552,-0.01830421497445182,-0.243715,-23.893937
11.185,2.0,1.0,1.0,34.2,33.7,33.7,2.9,2.2,2.7,0.04117779792922711,-0.062336666440293814,0.9707988608594297,-0.01964380579679928,-0.249608,-23.693953
11.185,2.0,1.0,1.0,34.2,33.7,33.7,2.9,2.2,2.7025,0.027373433703380853,-0.0635006255476436,0.9706003508565255,-0.021047591184910654,-0.255738,-23.491749
11.185,2.0,1.0,1.0,34.2,33.7,33.7,2.9,2.2,2.705,0.013430345738110572,-0.06468376060755325,0.9701803358630952,-0.022518992448167966,-0.262118,-23.287259
11.185,2.0,1.0,1.0,34.2,33.7,33.7,2.9,2.2,2.7075,-0.0006509915645358727,-0.06588599072310451,0.9695310090526135,-0.02406165282163115,-0.268764,-23.080413
11.185,2.0,1.0,1.0,34.2,33.7,33.7,2.9,2.2,2.71,-0.014869957176787432,-0.06710717375322389,0.968644237600261,-0.025679455034896145,-0.275691,-22.871141
11.185,2.0,1.0,1.0,34.2,33.7,33.7,2.9,2.2,2.7125,-0.02922577012404858,-0.0683470971893495,0.9675115429213664,-0.02737654053110406,-0.282916,-22.659366
11.185,2.0,1.0,1.0,34.2,33.7,33.7,2.9,2.2,2.715,-0.043717474711628984,-0.06960546771638944,0.9661240791647909,-0.02915733051260332,-0.290458,-22.445009
11.185,2.0,1.0,1.0,34.2,33.7,33.7,2.9,2.2,2.7175,-0.05834392409304161,-0.07088189925284115,0.9644726097694809,-0.03102654901028359,-0.298338,-22.227987
11.185,2.0,1.0,1.0,34.2,33.7,33.7,2.9,2.2,2.72,-0.07310376193880265,-0.07217589922987698,0.9625474818694361,-0.03298924819654009,-0.306578,-22.008214
11.185,2.0,1.0,1.0,34.2,33.7,33.7,2.9,2.2,2.7225,-0.08799540192338642,-0.07348685282759423,0.9603385983065832,-0.03505083618745585,-0.315201,-21.785599
11.185,2.0,1.0,1.0,34.2,33.7,33.7,2.9,2.2,2.725,-0.10301700469874067,-0.0748140048371461,0.9578353869823062,-0.03721710760834927,-0.324234,-21.560047
11.185,2.0,1.0,1.0,34.2,33.7,33.7,2.9,2.2,2.7275,-0.11816645196423117,-0.07615643875850871,0.9550267672462942,-0.03949427722860979,-0.333705,-21.331457
11.185,2.0,1.0,1.0,34.2,33.7,33.7,2.9,2.2,2.73,-0.13344131717263247,-0.07751305267321007,0.9519011129857525,-0.041889017006946416,-0.343645,-21.099725
11.185,2.0,1.0,1.0,34.2,33.7,33.7,2.9,2.2,2.7325,-0.14883883232800685,-0.07888253134705392,0.9484462120386355,-0.044408496927039354,-0.354089,-20.864739
11.185,2.0,1.0,1.0,34.2,33.7,33.7,2.9,2.2,2.735,-0.16435585023033583,-0.08026331391675395,0.9446492215111608,-0.04706043004622672,-0.365073,-20.626384
11.185,2.0,1.0,1.0,34.2,33.7,33.7,2.9,2.2,2.7375,-0.17998880140063825,-0.08165355639280952,0.9404966185325053,-0.04985312222631442,-0.376639,-20.384538
11.185,2.0,1.0,1.0,34.2,33.7,33.7,2.9,2.2,2.74,-0.19573364477394814,-0.08305108806444358,0.9359741459283157,-0.05279552706569099,-0.388831,-20.139071
11.185,2.0,1.0,1.0,34.2,33.7,33.7,2.9,2.2,2.7425,-0.21158581107086136,-0.08445336071546553,0.9310667522398929,-0.05589730660523374,-0.4017,-19.889848
11.185,2.0,1.0,1.0,34.2,33.7,33.7,2.9,2.2,2.745,-0.22754013754417446,-0.08585738934569559,0.925758525458446,-0.05916889843613993,-0.415301,-19.636726
11.185,2.0,1.0,1.0,34.2,33.7,33.7,2.9,2.2,2.7475,-0.24359079253719498,-0.08725968283265859,0.9200326197850142,-0.06262158989434313,-0.429694,-19.379555
11.185,2.0,1.0,1.0,34.2,33.7,33.7,2.9,2.2,2.75,-0.259731187973943,-0.0886561626521591,0.913871174668848,-0.0662676000812222,-0.444947,-19.118175
11.185,2.0,1.0,1.0,34.2,33.7,33.7,2.9,2.2,2.7525,-0.2759538775156945,-0.09004206739109129,0.9072552253236924,-0.07012017050024795,-0.461135,-18.852419
11.185,2.0,1.0,1.0,34.2,33.7,33.7,2.9,2.2,2.755,-0.292250437646746,-0.0914118403152713,0.9001646038778619,-0.07419366513856647,-0.478342,-18.582109
11.185,2.0,1.0,1.0,34.2,33.7,33.7,2.9,2.2,2.7575,-0.30861132837489846,-0.09275899667912568,0.8925778302882034,-0.078503680843249,-0.496662,-18.30706
11.185,2.0,1.0,1.0,34.2,33.7,33.7,2.9,2.2,2.76,-0.3250257295234643,-0.09407596675773278,0.8844719921515073,-0.08306716883221875,-0.516201,-18.027073
11.185,2.0,1.0,1.0,34.2,33.7,33.7,2.9,2.2,2.7625,-0.34148134772054484,-0.09535390971394238,0.8758226125964806,-0.08790256812272516,-0.537075,-17.741939
11.185,2.0,1.0,1.0,34.2,33.7,33.7,2.9,2.2,2.765,-0.3579641881187567,-0.09658249234550219,0.8666035055592766,-0.09302995153115066,-0.55942,-17.451439
11.185,2.0,1.0,1.0,34.2,33.7,33.7,2.9,2.2,2.7675,-0.374458283556188,-0.09774962544149864,0.8567866179703768,-0.0984711846618742,-0.583384,-17.15534
11.185,2.0,1.0,1.0,34.2,33.7,33.7,2.9,2.2,2.77,-0.3909453722375152,-0.09884114885498847,0.8463418587599959,-0.10425009790994579,-0.609138,-16.853396
11.185,2.0,1.0,1.0,34.2,33.7,33.7,2.9,2.2,2.7725,-0.40740451299943337,-0.09984045439705691,0.8352369151938513,-0.11039267088121076,-0.636878,-16.545349
11.185,2.0,1.0,1.0,34.2,33.7,33.7,2.9,2.2,2.775,-0.42381162473754247,-0.10072803318867878,0.8234370579815758,-0.11692722768323086,-0.666824,-16.230926
11.185,2.0,1.0,1.0,34.2,33.7,33.7,2.9,2.2,2.7775,-0.44013893350477307,-0.10148093106498554,0.8109049379995015,-0.12388464011714972,-0.699229,-15.90984
11.185,2.0,1.0,1.0,34.2,33.7,33.7,2.9,2.2,2.78,-0.4563543070179293,-0.10207209188746849,0.7976003795412347,-0.13129853370078037,-0.734386,-15.58179
11.185,2.0,1.0,1.0,34.2,33.7,33.7,2.9,2.2,2.7825,-0.47242045168221963,-0.10246956404121546,0.7834801780420819,-0.13920548838743715,-0.77263,-15.246459
11.185,2.0,1.0,1.0,34.2,33.7,33.7,2.9,2.2,2.785,-0.4882939416058062,-0.10263553982214814,0.7684979146265828,-0.14764522140378528,-0.81435,-14.903518
11.185,2.0,1.0,1.0,34.2,33.7,33.7,2.9,2.2,2.7875,-0.503924042265873,-0.10252519070030514,0.7526038061828415,-0.15666073323305138,-0.859998,-14.552624
11.185,2.0,1.0,1.0,34.2,33.7,33.7,2.9,2.2,2.79,-0.5192512833724348,-0.1020852534559012,0.7357446187938264,-0.16629838859817522,-0.910102,-14.193424
11.185,2.0,1.0,1.0,34.2,33.7,33.7,2.9,2.2,2.7925,-0.5342057260022238,-0.101252312885226,0.7178636854126593,-0.17660789119879072,-0.96528,-13.825553
11.185,2.0,1.0,1.0,34.2,33.7,33.7,2.9,2.2,2.795,-0.5487048583667835,-0.09995071630589875,0.6989010872806964,-0.18764209230936857,-1.02626,-13.448644
11.185,2.0,1.0,1.0,34.2,33.7,33.7,2.9,2.2,2.7975,-0.5626510431112488,-0.09809004395485331,0.678794085018342,-0.19945654690402004,-1.093903,-13.062329
11.185,2.0,1.0,1.0,34.2,33.7,33.7,2.9,2.2,2.8,-0.5759284279369628,-0.09556204872446389,0.6574779226879842,-0.21210869364343587,-1.169233,-12.666245
11.185,2.0,1.0,1.0,34.2,33.7,33.7,2.9,2.2,2.8025,-0.5883992228821758,-0.09223697084459898,0.6348871806621684,-0.2256564826607603,-1.253469,-12.260052
11.185,2.0,1.0,1.0,34.2,33.7,33.7,2.9,2.2,2.805,-0.5998992460583116,-0.08795913242079831,0.6109579264037225,-0.24015620211742078,-1.348079,-11.843438
11.185,2.0,1.0,1.0,34.2,33.7,33.7,2.9,2.2,2.8075,-0.6102326526718037,-0.08254173088524616,0.5856310133278472,-0.25565915404542444,-1.454829,-11.416148
11.185,2.0,1.0,1.0,34.2,33.7,33.7,2.9,2.2,2.81,-0.6191658029538366,-0.07576079264880306,0.5588570150415286,-0.27220669398669844,-1.575858,-10.978002
11.185,2.0,1.0,1.0,34.2,33.7,33.7,2.9,2.2,2.8125,-0.6264203152395111,-0.06734834063775234,0.5306034637702891,-0.2898229693899419,-1.713772,-10.528941
11.185,2.0,1.0,1.0,34.2,33.7,33.7,2.9,2.2,2.815,-0.6316655266677579,-0.056985007646081214,0.5008652929235433,-0.3085044639123924,-1.871753,-10.069065
11.185,2.0,1.0,1.0,34.2,33.7,33.7,2.9,2.2,2.8175,-0.6345109017375965,-0.0442926471142187,0.4696796595671809,-0.3282051844165982,-2.053704,-9.598707
11.185,2.0,1.0,1.0,34.2,33.7,33.7,2.9,2.2,2.82,-0.6344994713906649,-0.028828036339625704,0.4371466134590342,-0.3488160452183443,-2.264427,-9.118508
11.185,2.0,1.0,1.0,34.2,33.7,33.7,2.9,2.2,2.8225,-0.6311042668251362,-0.010079646831842348,0.4034573038149937,-0.37013679275517697,-2.509826,-8.629535
11.185,2.0,1.0,1.0,34.2,33.7,33.7,2.9,2.2,2.825,-0.6237310699075514,0.01252919398047008,0.3689313930501992,-0.39183885446350775,-2.79716,-8.133412
11.185,2.0,1.0,1.0,34.2,33.7,33.7,2.9,2.2,2.8275,-0.6117327519907685,0.039625496302225595,0.334064728404063,-0.41341813799530025,-3.13528,-7.632493
