1,w,sub_t,h,l1,l2,l3,g1,g2,Freq,S11_re,S21_re,S11_img,S21_img,S11_dB,S21_dB
11.185,2.0,1.0,1.0,34.0,33.5,33.5,2.5,4.0,2.5,0.78518634702575,-0.00921134211613798,0.607254389740763,0.00537454729505353,-0.064423,-39.441075
11.185,2.0,1.0,1.0,34.0,33.5,33.5,2.5,4.0,2.5025,0.7805686998730215,-0.009381907262155691,0.6130583272648295,0.00536876271750737,-0.065073,-39.323943
11.185,2.0,1.0,1.0,34.0,33.5,33.5,2.5,4.0,2.505,0.7758841465468297,-0.009555214309743145,0.6188551996824392,0.005361342225038941,-0.065735,-39.206519
11.185,2.0,1.0,1.0,34.0,33.5,33.5,2.5,4.0,2.5075,0.7711319892705093,-0.00973130754892642,0.6246445170891985,0.005352227972240288,-0.066408,-39.088795
11.185,2.0,1.0,1.0,34.0,33.5,33.5,2.5,4.0,2.51,0.7663115209569987,-0.009910231970241249,0.6304257748382815,0.005341360174539147,-0.067093,-38.970766
11.185,2.0,1.0,1.0,34.0,33.5,33.5,2.5,4.0,2.5125,0.7614220251443782,-0.01009203326967836,0.6361984530886017,0.005328677038860029,-0.06779,-38.852425
11.185,2.0,1.0,1.0,34.0,33.5,33.5,2.5,4.0,2.515,0.7564627759349614,-0.010276757853152685,0.6419620163392842,0.005314114691634681,-0.068499,-38.733765
11.185,2.0,1.0,1.0,34.0,33.5,33.5,2.5,4.0,2.5175,0.7514330379382455,-0.010464452840449957,0.6477159129500104,0.005297607104053104,-0.069221,-38.614781
11.185,2.0,1.0,1.0,34.0,33.5,33.5,2.5,4.0,2.52,0.7463320662180234,-0.010655166068602461,0.6534595746468328,0.005279086014442314,-0.069956,-38.495466
11.185,2.0,1.0,1.0,34.0,33.5,33.5,2.5,4.0,2.5225,0.7411591062440049,-0.010848946094640818,0.6591924160129871,0.005258480847654033,-0.070705,-38.375812
11.185,2.0,1.0,1.0,34.0,33.5,33.5,2.5,4.0,2.525,0.7359133938482788,-0.011045842197666434,0.6649138339642867,0.005235718631338492,-0.071466,-38.255814
11.185,2.0,1.0,1.0,34.0,33.5,33.5,2.5,4.0,2.5275,0.7305941551869959,-0.011245904380184458,0.6706232072086212,0.005210723908974732,-0.072242,-38.135466
11.185,2.0,1.0,1.0,34.0,33.5,33.5,2.5,4.0,2.53,0.725200606707665,-0.01144918336863297,0.6763198956890807,0.0051834186495232715,-0.073031,-38.014759
11.185,2.0,1.0,1.0,34.0,33.5,33.5,2.5,4.0,2.5325,0.7197319551224665,-0.011655730613040326,0.6820032400102235,0.005153722153560094,-0.073835,-37.893688
11.185,2.0,1.0,1.0,34.0,33.5,33.5,2.5,4.0,2.535,0.7141873973880231,-0.011865598285737385,0.6876725608469901,0.005121550955745132,-0.074654,-37.772245
11.185,2.0,1.0,1.0,34.0,33.5,33.5,2.5,4.0,2.5375,0.7085661206920907,-0.012078839279046003,0.6933271583357353,0.005086818723471878,-0.075488,-37.650424
11.185,2.0,1.0,1.0,34.0,33.5,33.5,2.5,4.0,2.54,0.7028673024476455,-0.012295507201860935,0.6989663114468605,0.005049436151536892,-0.076337,-37.528217
11.185,2.0,1.0,1.0,34.0,33.5,33.5,2.5,4.0,2.5425,0.6970901102948859,-0.012515656375035239,0.7045892773385031,0.005009310852662451,-0.077202,-37.405618
11.185,2.0,1.0,1.0,34.0,33.5,33.5,2.5,4.0,2.545,0.6912337021116792,-0.012739341825474195,0.710195290690721,0.004966347243695955,-0.078083,-37.282619
11.185,2.0,1.0,1.0,34.0,33.5,33.5,2.5,4.0,2.5475,0.6852972260330389,-0.012966619278835426,0.7157835630195973,0.004920446427303557,-0.078981,-37.159213
11.185,2.0,1.0,1.0,34.0,33.5,33.5,2.5,4.0,2.55,0.6792798204802064,-0.013197545150727087,0.7213532819706959,0.004871506068965522,-0.079895,-37.035394
11.185,2.0,1.0,1.0,34.0,33.5,33.5,2.5,4.0,2.5525,0.6731806141999978,-0.013432176536286717,0.72690361059124,0.00481942026907324,-0.080827,-36.911152
11.185,2.0,1.0,1.0,34.0,33.5,33.5,2.5,4.0,2.555,0.6669987263150583,-0.013670571198017657,0.7324336865804189,0.004764079429917761,-0.081777,-36.786482
11.185,2.0,1.0,1.0,34.0,33.5,33.5,2.5,4.0,2.5575,0.6607332663857377,-0.013912787551749886,0.7379426215171867,0.004705370117350593,-0.082744,-36.661374
11.185,2.0,1.0,1.0,34.0,33.5,33.5,2.5,4.0,2.56,0.6543833344843235,-0.014158884650583405,0.7434295000648927,0.004643174916886587,-0.083731,-36.535823
11.185,2.0,1.0,1.0,34.0,33.5,33.5,2.5,4.0,2.5625,0.6479480212824162,-0.01440892216666318,0.7488933791520973,0.004577372284008791,-0.084736,-36.40982
11.185,2.0,1.0,1.0,34.0,33.5,33.5,2.5,4.0,2.565,0.6414264081522528,-0.014662960370623914,0.7543332871288817,0.004507836388423381,-0.085761,-36.283356
11.185,2.0,1.0,1.0,34.0,33.5,33.5,2.5,4.0,2.5675,0.6348175672828652,-0.01492106010853171,0.7597482228979604,0.0044344369520010005,-0.086806,-36.156425
11.185,2.0,1.0,1.0,34.0,33.5,33.5,2.5,4.0,2.57,0.6281205618119615,-0.01518328277613851,0.7651371550198863,0.0043570390801286555,-0.087871,-36.029018
11.185,2.0,1.0,1.0,34.0,33.5,33.5,2.5,4.0,2.5725,0.6213344459745069,-0.015449690290252234,0.7704990207916163,0.004275503086182606,-0.088957,-35.901127
11.185,2.0,1.0,1.0,34.0,33.5,33.5,2.5,4.0,2.575,0.6144582652689966,-0.015720345057011968,0.7758327252977005,0.004189684308819424,-0.090065,-35.772744
11.185,2.0,1.0,1.0,34.0,33.5,33.5,2.5,4.0,2.5775,0.6074910566424963,-0.015995309936843585,0.7811371404333254,0.004099432921767996,-0.091195,-35.643861
11.185,2.0,1.0,1.0,34.0,33.5,33.5,2.5,4.0,2.58,0.6004318486955682,-0.016274648205855145,0.786411103898436,0.004004593735789014,-0.092347,-35.514468
11.185,2.0,1.0,1.0,34.0,33.5,33.5,2.5,4.0,2.5825,0.5932796619082447,-0.016558423513415917,0.7916534181621508,0.0039050059924535135,-0.093522,-35.384558
11.185,2.0,1.0,1.0,34.0,33.5,33.5,2.5,4.0,2.585,0.5860335088883089,-0.01684669983564391,0.7968628493966492,0.0038005031493743126,-0.094722,-35.254121
11.185,2.0,1.0,1.0,34.0,33.5,33.5,2.5,4.0,2.5875,0.5786923946431645,-0.017139541424509585,0.8020381263797088,0.003690912656506361,-0.095945,-35.123149
11.185,2.0,1.0,1.0,34.0,33.5,33.5,2.5,4.0,2.59,0.5712553168766846,-0.017437012752241222,0.807177939365055,0.0035760557231136495,-0.097194,-34.991633
11.185,2.0,1.0,1.0,34.0,33.5,33.5,2.5,4.0,2.5925,0.5637212663124661,-0.017739178450697952,0.8122809389196509,0.003455747074979698,-0.098468,-34.859564
11.185,2.0,1.0,1.0,34.0,33.5,33.5,2.5,4.0,2.595,0.5560892270450204,-0.01804610324535077,0.817345734727064,0.0033297947014179017,-0.099769,-34.726932
11.185,2.0,1.0,1.0,34.0,33.5,33.5,2.5,4.0,2.5975,0.5483581769204867,-0.018357851883489807,0.8223708943560124,0.003197999591616372,-0.101096,-34.593728
11.185,2.0,1.0,1.0,34.0,33.5,33.5,2.5,4.0,2.6,0.5405270879485473,-0.018674489056246697,0.8273549419931896,0.003060155459827269,-0.102452,-34.459944
11.185,2.0,1.0,1.0,34.0,33.5,33.5,2.5,4.0,2.6025,0.5325949267473211,-0.018996079313994062,0.8322963571394302,0.002916048458887169,-0.103835,-34.325568
11.185,2.0,1.0,1.0,34.0,33.5,33.5,2.5,4.0,2.605,0.5245606550230728,-0.01932268697465292,0.8371935732683026,0.0027654568815277643,-0.105248,-34.190591
11.185,2.0,1.0,1.0,34.0,33.5,33.5,2.5,4.0,2.6075,0.5164232300867065,-0.019654376024405392,0.8420449764461543,0.002608150848909538,-0.106691,-34.055003
11.185,2.0,1.0,1.0,34.0,33.5,33.5,2.5,4.0,2.61,0.508181605409094,-0.019991210010275203,0.846848903912654,0.002443891985780459,-0.108165,-33.918795
11.185,2.0,1.0,1.0,34.0,33.5,33.5,2.5,4.0,2.6125,0.4998347312173901,-0.020333251924000116,0.851603642620852,0.002272433081632452,-0.109671,-33.781955
11.185,2.0,1.0,1.0,34.0,33.5,33.5,2.5,4.0,2.615,0.491381555134601,-0.020680564076579852,0.8563074277357566,0.002093517737193649,-0.111209,-33.644473
11.185,2.0,1.0,1.0,34.0,33.5,33.5,2.5,4.0,2.6175,0.4828210228648114,-0.02103320796283825,0.8609584410904272,0.0019068799955614772,-0.112781,-33.50634
11.185,2.0,1.0,1.0,34.0,33.5,33.5,2.5,4.0,2.62,0.47415207892655686,-0.0213912441152918,0.8655548095985581,0.001712243957243717,-0.114387,-33.367542
11.185,2.0,1.0,1.0,34.0,33.5,33.5,2.5,4.0,2.6225,0.465373667436989,-0.021754731946565697,0.8700946036225345,0.001509323378335361,-0.116028,-33.228071
11.185,2.0,1.0,1.0,34.0,33.5,33.5,2.5,4.0,2.625,0.456484732949612,-0.0221237295795425,0.874575835295898,0.00129782125101928,-0.117706,-33.087914
11.185,2.0,1.0,1.0,34.0,33.5,33.5,2.5,4.0,2.6275,0.4474842213484981,-0.022498293664371047,0.8789964567991905,0.0010774293655322967,-0.119421,-32.94706
11.185,2.0,1.0,1.0,34.0,33.5,33.5,2.5,4.0,2.63,0.43837108080203996,-0.022878479181397862,0.8833543585881101,0.0008478278526936807,-0.121175,-32.805497
11.185,2.0,1.0,1.0,34.0,33.5,33.5,2.5,4.0,2.6325,0.4291442627794866,-0.023264339229015225,0.8876473675728961,0.0006086847060423684,-0.122968,-32.663214
11.185,2.0,1.0,1.0,34.0,33.5,33.5,2.5,4.0,2.635,0.41980272313362693,-0.02365592479534548,0.8918732452478854,0.00035965528257622903,-0.124802,-32.520198
11.185,2.0,1.0,1.0,34.0,33.5,33.5,2.5,4.0,2.6375,0.41034542325320206,-0.02405328451260043,0.8960296857701374,0.00010038178103171775,-0.126678,-32.376437
11.185,2.0,1.0,1.0,34.0,33.5,33.5,2.5,4.0,2.64,0.4007713312887829,-0.024456464392869096,0.9001143139860527,-0.00016950730341910793,-0.128597,-32.231918
11.185,2.0,1.0,1.0,34.0,33.5,33.5,2.5,4.0,2.6425,0.39107942345605684,-0.024865507543991385,0.9041246834048785,-0.0004503977492393462,-0.130561,-32.086629
11.185,2.0,1.0,1.0,34.0,33.5,33.5,2.5,4.0,2.645,0.38126868542067066,-0.025280453864074934,0.9080582741180094,-0.0007426902046200318,-0.132571,-31.940556
11.185,2.0,1.0,1.0,34.0,33.5,33.5,2.5,4.0,2.6475,0.37133811376899883,-0.025701339713101592,0.9119124906629763,-0.0010468008109197234,-0.134628,-31.793686
11.185,2.0,1.0,1.0,34.0,33.5,33.5,2.5,4.0,2.65,0.36128671756939446,-0.026128197559951532,0.9156846598310167,-0.0013631618548557176,-0.136733,-31.646006
11.185,2.0,1.0,1.0,34.0,33.5,33.5,2.5,4.0,2.6525,0.35111352002880175,-0.026561055603041596,0.919372028417134,-0.0016922224509296794,-0.138889,-31.497501
11.185,2.0,1.0,1.0,34.0,33.5,33.5,2.5,4.0,2.655,0.34081756024975735,-0.02699993736263672,0.9229717609115171,-0.0020344492556628236,-0.141096,-31.348157
11.185,2.0,1.0,1.0,34.0,33.5,33.5,2.5,4.0,2.6575,0.33039789509316886,-0.027444861242738244,0.9264809371312412,-0.0023903272153062943,-0.143357,-31.197959
11.185,2.0,1.0,1.0,34.0,33.5,33.5,2.5,4.0,2.66,0.31985360115248446,-0.02789584006028849,0.9298965497911155,-0.0027603603487943254,-0.145673,-31.046894
11.185,2.0,1.0,1.0,34.0,33.5,33.5,2.5,4.0,2.6625,0.3091837768452009,-0.028352880539249288,0.9332155020126001,-0.003145072567814297,-0.148045,-30.894944
11.185,2.0,1.0,1.0,34.0,33.5,33.5,2.5,4.0,2.665,0.29838754462793776,-0.028815982766917204,0.9364346047696839,-0.0035450085359831985,-0.150476,-30.742095
11.185,2.0,1.0,1.0,34.0,33.5,33.5,2.5,4.0,2.6675,0.28746405334170627,-0.02928513960962149,0.9395505742706006,-0.003960734569242115,-0.152968,-30.588331
11.185,2.0,1.0,1.0,34.0,33.5,33.5,2.5,4.0,2.67,0.27641248069428265,-0.02976033608471963,0.9425600292743369,-0.004392839579712299,-0.155522,-30.433636
11.185,2.0,1.0,1.0,34.0,33.5,33.5,2.5,4.0,2.6725,0.26523203588704425,-0.03024154868554863,0.9454594883407736,-0.004841936065397991,-0.158141,-30.277992
11.185,2.0,1.0,1.0,34.0,33.5,33.5,2.5,4.0,2.675,0.2539219623939855,-0.030728744655711206,0.9482453670134227,-0.00530866114827075,-0.160826,-30.121382
11.185,2.0,1.0,1.0,34.0,33.5,33.5,2.5,4.0,2.6775,0.24248154090111126,-0.03122188120877199,0.9509139749336373,-0.0057936776634337755,-0.163581,-29.96379
11.185,2.0,1.0,1.0,34.0,33.5,33.5,2.5,4.0,2.68,0.23091009241480684,-0.03172090468910415,0.9534615128851894,-0.006297675302237717,-0.166406,-29.805196
11.185,2.0,1.0,1.0,34.0,33.5,33.5,2.5,4.0,2.6825,0.21920698154834733,-0.03222574966926023,0.9558840697681559,-0.006821371812405962,-0.169306,-29.645582
11.185,2.0,1.0,1.0,34.0,33.5,33.5,2.5,4.0,2.685,0.2073716199961818,-0.032736337978841165,0.9581776195009605,-0.007365514258428645,-0.172281,-29.48493
11.185,2.0,1.0,1.0,34.0,33.5,33.5,2.5,4.0,2.6875,0.195403470206232,-0.0332525776593943,0.960338017849499,-0.00793088034569908,-0.175335,-29.323219
11.185,2.0,1.0,1.0,34.0,33.5,33.5,2.5,4.0,2.69,0.18330204926104085,-0.033774361839387555,0.9623609991821989,-0.008518279812096947,-0.178472,-29.16043
11.185,2.0,1.0,1.0,34.0,33.5,33.5,2.5,4.0,2.6925,0.1710669329792711,-0.034301567522773524,0.9642421731498612,-0.00912855589097293,-0.181692,-28.996542
11.185,2.0,1.0,1.0,34.0,33.5,33.5,2.5,4.0,2.695,0.1586977602497677,-0.034834054284068,0.9659770212891432,-0.00976258684975288,-0.185001,-28.831534
11.185,2.0,1.0,1.0,34.0,33.5,33.5,2.5,4.0,2.6975,0.1461942376111365,-0.035371662862221334,0.9675608935484644,-0.010421287608670202,-0.1884,-28.665385
11.185,2.0,1.0,1.0,34.0,33.5,33.5,2.5,4.0,2.7,0.1335561440906901,-0.03591421364484282,0.9689890047350822,-0.011105611444439193,-0.191893,-28.49807
11.185,2.0,1.0,1.0,34.0,33.5,33.5,2.5,4.0,2.7025,0.12078333631742369,-0.03646150503354919,0.9702564308820806,-0.011816551784016026,-0.195484,-28.329568
11.185,2.0,1.0,1.0,34.0,33.5,33.5,2.5,4.0,2.705,0.10787575392474781,-0.037013311680331056,0.9713581055339138,-0.012555144093946789,-0.199176,-28.159856
11.185,2.0,1.0,1.0,34.0,33.5,33.5,2.5,4.0,2.7075,0.09483342525972988,-0.037569382583862596,0.9722888159490577,-0.013322467871185179,-0.202974,-27.988907
11.185,2.0,1.0,1.0,34.0,33.5,33.5,2.5,4.0,2.71,0.08165647341677817,-0.03812943903360249,0.9730431992183181,-0.014119648741669849,-0.20688,-27.816697
11.185,2.0,1.0,1.0,34.0,33.5,33.5,2.5,4.0,2.7125,0.06834512261497962,-0.03869317238834063,0.9736157382971374,-0.014947860673392266,-0.2109,-27.6432
11.185,2.0,1.0,1.0,34.0,33.5,33.5,2.5,4.0,2.715,0.05489970493972348,-0.03926024167451588,0.9740007579502016,-0.015808328311153166,-0.215038,-27.46839
11.185,2.0,1.0,1.0,34.0,33.5,33.5,2.5,4.0,2.7175,0.0413206674707705,-0.03983027098815213,0.9741924206064768,-0.016702329440711428,-0.219299,-27.292238
11.185,2.0,1.0,1.0,34.0,33.5,33.5,2.5,4.0,2.72,0.027608579820661925,-0.04040284668261073,0.9741847221226372,-0.017631197590563717,-0.223687,-27.114715
11.185,2.0,1.0,1.0,34.0,33.5,33.5,2.5,4.0,2.7225,0.013764142109190431,-0.04097751432252079,0.9739714874527036,-0.018596324780170485,-0.228208,-26.935793
11.185,2.0,1.0,1.0,34.0,33.5,33.5,2.5,4.0,2.725,-0.00021180659814832114,-0.04155377538219066,0.9735463662214151,-0.019599164424049645,-0.232867,-26.75544
11.185,2.0,1.0,1.0,34.0,33.5,33.5,2.5,4.0,2.7275,-0.01431827935760584,-0.04213108366450951,0.9729028281987413,-0.020641234401813997,-0.23767,-26.573624
11.185,2.0,1.0,1.0,34.0,33.5,33.5,2.5,4.0,2.73,-0.028554131887733206,-0.04270884141376967,0.9720341586725705,-0.021724120304910097,-0.242623,-26.390314
11.185,2.0,1.0,1.0,34.0,33.5,33.5,2.5,4.0,2.7325,-0.042918052547426276,-0.04328639509295595,0.9709334537163534,-0.022849478871546557,-0.247733,-26.205475
11.185,2.0,1.0,1.0,34.0,33.5,33.5,2.5,4.0,2.735,-0.05740855171254955,-0.0438630307928037,0.9695936153481856,-0.02401904162205897,-0.253007,-26.019072
11.185,2.0,1.0,1.0,34.0,33.5,33.5,2.5,4.0,2.7375,-0.07202395050872211,-0.04443796923628352,0.9680073465774109,-0.0252346187077585,-0.258451,-25.831068
11.185,2.0,1.0,1.0,34.0,33.5,33.5,2.5,4.0,2.74,-0.08676236885368134,-0.045010360338064076,0.966167146334478,-0.026498102987138124,-0.264073,-25.641426
11.185,2.0,1.0,1.0,34.0,33.5,33.5,2.5,4.0,2.7425,-0.10162171275816914,-0.045579277273879525,0.9640653042793528,-0.027811474344166476,-0.269882,-25.450106
11.185,2.0,1.0,1.0,34.0,33.5,33.5,2.5,4.0,2.745,-0.11659966082910149,-0.04614371000950303,0.9616938954834144,-0.02917680426426798,-0.275886,-25.257068
11.185,2.0,1.0,1.0,34.0,33.5,33.5,2.5,4.0,2.7475,-0.13169364991298113,-0.046702558233125246,0.9590447749792573,-0.030596260684466345,-0.282094,-25.06227
11.185,2.0,1.0,1.0,34.0,33.5,33.5,2.5,4.0,2.75,-0.146900859810978,-0.0472546236282552,0.956109572172474,-0.0320721131350356,-0.288516,-24.865667
11.185,2.0,1.0,1.0,34.0,33.5,33.5,2.5,4.0,2.7525,-0.16221819698960366,-0.047798601416688055,0.9528796851090138,-0.03360673819083826,-0.295162,-24.667213
11.185,2.0,1.0,1.0,34.0,33.5,33.5,2.5,4.0,2.755,-0.17764227720250111,-0.048333071092491936,0.9493462745914109,-0.035202625251309565,-0.302044,-24.466862
11.185,2.0,1.0,1.0,34.0,33.5,33.5,2.5,4.0,2.7575,-0.19316940692924633,-0.048856486258203276,0.9455002581368189,-0.036862382668735295,-0.309173,-24.264564
11.185,2.0,1.0,1.0,34.0,33.5,33.5,2.5,4.0,2.76,-0.20879556352609838,-0.04936716346330796,0.9413323037696714,-0.03858874424501191,-0.316562,-24.060267
11.185,2.0,1.0,1.0,34.0,33.5,33.5,2.5,4.0,2.7625,-0.22451637397112253,-0.0498632699324319,0.9368328236417575,-0.04038457611743228,-0.324224,-23.853917
11.185,2.0,1.0,1.0,34.0,33.5,33.5,2.5,4.0,2.765,-0.240327092071892,-0.05034281005622187,0.9319919674727253,-0.04225288405411071,-0.332173,-23.645459
11.185,2.0,1.0,1.0,34.0,33.5,33.5,2.5,4.0,2.7675,-0.2562225739875209,-0.05080361050140435,0.9267996158046219,-0.04419682117936512,-0.340426,-23.434834
11.185,2.0,1.0,1.0,34.0,33.5,33.5,2.5,4.0,2.77,-0.2721972518981919,-0.051243303777641275,0.921245373065074,-0.046219696148586425,-0.348998,-23.221982
11.185,2.0,1.0,1.0,34.0,33.5,33.5,2.5,4.0,2.7725,-0.2882451056336555,-0.051659310077192426,0.9153185604352911,-0.04832498179068193,-0.357907,-23.006837
11.185,2.0,1.0,1.0,34.0,33.5,33.5,2.5,4.0,2.775,-0.30435963204766797,-0.052048817178609756,0.9090082085215867,-0.05051632423389064,-0.367172,-22.789335
11.185,2.0,1.0,1.0,34.0,33.5,33.5,2.5,4.0,2.7775,-0.32053381189673996,-0.05240875817723257,0.9023030498323674,-0.0527975525273806,-0.376815,-22.569405
11.185,2.0,1.0,1.0,34.0,33.5,33.5,2.5,4.0,2.78,-0.3367600739488437,-0.052735786772533245,0.8951915110675044,-0.05517268876623415,-0.386856,-22.346975
11.185,2.0,1.0,1.0,34.0,33.5,33.5,2.5,4.0,2.7825,-0.35303025600998467,-0.05302624980469884,0.8876617052333812,-0.05764595872079399,-0.397321,-22.121968
11.185,2.0,1.0,1.0,34.0,33.5,33.5,2.5,4.0,2.785,-0.36933556251281247,-0.053276156689429005,0.8797014236057276,-0.06022180296240649,-0.408234,-21.894305
11.185,2.0,1.0,1.0,34.0,33.5,33.5,2.5,4.0,2.7875,-0.3856665182610631,-0.05348114534984465,0.8712981275739694,-0.06290488846566136,-0.419624,-21.663903
11.185,2.0,1.0,1.0,34.0,33.5,33.5,2.5,4.0,2.79,-0.4020129178651258,-0.053636444186553806,0.862438940416151,-0.06570012065154322,-0.431522,-21.430674
11.185,2.0,1.0,1.0,34.0,33.5,33.5,2.5,4.0,2.7925,-0.41836377033647276,-0.05373682956003005,0.8531106390734815,-0.06861265581538681,-0.443959,-21.194526
11.185,2.0,1.0,1.0,34.0,33.5,33.5,2.5,4.0,2.795,-0.4347072382302613,-0.05377657818204976,0.8432996460196495,-0.0716479138569282,-0.456973,-20.955363
11.185,2.0,1.0,1.0,34.0,33.5,33.5,2.5,4.0,2.7975,-0.45103057063438473,-0.05374941372326485,0.8329920213536698,-0.0748115911953487,-0.470603,-20.713086
11.185,2.0,1.0,1.0,34.0,33.5,33.5,2.5,4.0,2.8,-0.46732002919776755,-0.053648446840058844,0.8221734552885974,-0.0781096737080082,-0.48489,-20.467586
11.185,2.0,1.0,1.0,34.0,33.5,33.5,2.5,4.0,2.8025,-0.48356080626795406,-0.0534661077032955,0.8108292612642065,-0.08154844947482394,-0.499882,-20.218755
11.185,2.0,1.0,1.0,34.0,33.5,33.5,2.5,4.0,2.805,-0.49973693406574055,-0.05319406997173016,0.7989443699836124,-0.08513452103764911,-0.51563,-19.966474
11.185,2.0,1.0,1.0,34.0,33.5,33.5,2.5,4.0,2.8075,-0.5158311836590456,-0.05282316499059148,0.786503324765563,-0.08887481679122919,-0.53219,-19.710621
11.185,2.0,1.0,1.0,34.0,33.5,33.5,2.5,4.0,2.81,-0.5318249523061926,-0.0523432848075961,0.7734902787217912,-0.09277660100388409,-0.549625,-19.451068
11.185,2.0,1.0,1.0,34.0,33.5,33.5,2.5,4.0,2.8125,-0.547698137515694,-0.0517432723803811,0.759888994419159,-0.0968474818149889,-0.568001,-19.187679
11.185,2.0,1.0,1.0,34.0,33.5,33.5,2.5,4.0,2.815,-0.5634289959112617,-0.05101079709648091,0.7456828468783019,-0.10109541636370573,-0.587395,-18.920312
11.185,2.0,1.0,1.0,34.0,33.5,33.5,2.5,4.0,2.8175,-0.5789939846914836,-0.05013221343450022,0.7308548310059936,-0.10552871195778726,-0.607889,-18.648817
11.185,2.0,1.0,1.0,34.0,33.5,33.5,2.5,4.0,2.82,-0.5943675831280284,-0.049092400257602975,0.7153875748719278,-0.110156021878029,-0.629577,-18.373038
11.185,2.0,1.0,1.0,34.0,33.5,33.5,2.5,4.0,2.8225,-0.6095220911486402,-0.04787457784212698,0.6992633606411602,-0.11498633401430713,-0.65256,-18.092809
11.185,2.0,1.0,1.0,34.0,33.5,33.5,2.5,4.0,2.825,-0.6244274015950964,-0.046460099299367515,0.682464155485634,-0.12002895001900325,-0.676953,-17.807957
11.185,2.0,1.0,1.0,34.0,33.5,33.5,2.5,4.0,2.8275,-0.6390507422272049,-0.04482821254217534,0.6649716554530701,-0.1252934520120369,-0.702883,-17.518301
