1,w,sub_t,h,l1,l2,l3,g1,g2,Freq,S11_re,S21_re,S11_img,S21_img,S11_dB,S21_dB
11.185,2.0,1.0,1.0,34.3,33.5,33.5,2.3,3.9,2.5,0.734944290951419,-0.0115513130301048,0.666148927173534,0.00574217961123745,-0.070501,-37.788324
11.185,2.0,1.0,1.0,34.3,33.5,33.5,2.3,3.9,2.5025,0.7295717949385482,-0.011757538913357526,0.6719026002778058,0.0057175787561851215,-0.071249,-37.671806
11.185,2.0,1.0,1.0,34.3,33.5,33.5,2.3,3.9,2.505,0.724124638783654,-0.01196696660875295,0.6776424050644675,0.005690602819683001,-0.07201,-37.554971
11.185,2.0,1.0,1.0,34.3,33.5,33.5,2.3,3.9,2.5075,0.7186020596843912,-0.012179642896378138,0.6833676626216734,0.005661170821860136,-0.072785,-37.437814
11.185,2.0,1.0,1.0,34.3,33.5,33.5,2.3,3.9,2.51,0.7130032863093679,-0.012395615038319518,0.6890776742530278,0.005629199128855985,-0.073574,-37.320328
11.185,2.0,1.0,1.0,34.3,33.5,33.5,2.3,3.9,2.5125,0.7073275388260903,-0.01261493076616722,0.6947717208976895,0.00559460136162744,-0.074376,-37.202509
11.185,2.0,1.0,1.0,34.3,33.5,33.5,2.3,3.9,2.515,0.7015740289374884,-0.012837638267024578,0.700449062534069,0.005557288301494197,-0.075194,-37.084349
11.185,2.0,1.0,1.0,34.3,33.5,33.5,2.3,3.9,2.5175,0.695741959927569,-0.013063786167921289,0.7061089375666724,0.0055171677923016955,-0.076026,-36.965844
11.185,2.0,1.0,1.0,34.3,33.5,33.5,2.3,3.9,2.52,0.6898305267167395,-0.013293423518523806,0.7117505621956817,0.00547414463907867,-0.076873,-36.846987
11.185,2.0,1.0,1.0,34.3,33.5,33.5,2.3,3.9,2.5225,0.6838389159274115,-0.013526599772028606,0.7173731297687974,0.005428120503059618,-0.077736,-36.727772
11.185,2.0,1.0,1.0,34.3,33.5,33.5,2.3,3.9,2.525,0.6777663059604814,-0.01376336476411878,0.7229758101149173,0.005378993792939131,-0.078615,-36.608194
11.185,2.0,1.0,1.0,34.3,33.5,33.5,2.3,3.9,2.5275,0.6716118670833453,-0.014003768689855775,0.7285577488591867,0.0053266595522197795,-0.079509,-36.488246
11.185,2.0,1.0,1.0,34.3,33.5,33.5,2.3,3.9,2.53,0.6653747615301354,-0.014247862078370775,0.7341180667189442,0.005271009342510074,-0.08042,-36.367922
11.185,2.0,1.0,1.0,34.3,33.5,33.5,2.3,3.9,2.5325,0.6590541436148821,-0.01449569576521247,0.7396558587801043,0.005211931122623721,-0.081349,-36.247216
11.185,2.0,1.0,1.0,34.3,33.5,33.5,2.3,3.9,2.535,0.652649159858359,-0.014747320862198912,0.7451701937534906,0.005149309123326495,-0.082294,-36.126122
11.185,2.0,1.0,1.0,34.3,33.5,33.5,2.3,3.9,2.5375,0.6461589491294045,-0.015002788724611542,0.7506601132106347,0.0050830237175706495,-0.083257,-36.004633
11.185,2.0,1.0,1.0,34.3,33.5,33.5,2.3,3.9,2.54,0.6395826428015369,-0.015262150915560971,0.7561246307985484,0.005012951286051865,-0.084238,-35.882744
11.185,2.0,1.0,1.0,34.3,33.5,33.5,2.3,3.9,2.5425,0.6329193649257385,-0.015525459167342472,0.7615627314329791,0.004938964077916847,-0.085237,-35.760447
11.185,2.0,1.0,1.0,34.3,33.5,33.5,2.3,3.9,2.545,0.6261682324203176,-0.015792765339589173,0.76697337046964,0.004860930066444238,-0.086256,-35.637736
11.185,2.0,1.0,1.0,34.3,33.5,33.5,2.3,3.9,2.5475,0.6193283552788093,-0.016064121374018414,0.772355472852905,0.004778712799514945,-0.087294,-35.514605
11.185,2.0,1.0,1.0,34.3,33.5,33.5,2.3,3.9,2.55,0.6123988367969042,-0.016339579245555843,0.777707932241475,0.004692171244680807,-0.088351,-35.391047
11.185,2.0,1.0,1.0,34.3,33.5,33.5,2.3,3.9,2.5525,0.605378773819478,-0.016619190909606882,0.7830296101104772,0.0046011596286344774,-0.089429,-35.267055
11.185,2.0,1.0,1.0,34.3,33.5,33.5,2.3,3.9,2.555,0.5982672570088056,-0.016903008245233275,0.788319334829504,0.0045055272708759446,-0.090527,-35.142623
11.185,2.0,1.0,1.0,34.3,33.5,33.5,2.3,3.9,2.5575,0.5910633711351186,-0.01719108299397677,0.793575900716063,0.004405118411363759,-0.091647,-35.017744
11.185,2.0,1.0,1.0,34.3,33.5,33.5,2.3,3.9,2.56,0.5837661953907285,-0.017483466694056257,0.7987980670639186,0.0042997720319314925,-0.092788,-34.89241
11.185,2.0,1.0,1.0,34.3,33.5,33.5,2.3,3.9,2.5625,0.5763748037289729,-0.017780210609648985,0.8039845571458117,0.0041893216712427135,-0.093952,-34.766616
11.185,2.0,1.0,1.0,34.3,33.5,33.5,2.3,3.9,2.565,0.5688882652293172,-0.018081365654948476,0.8091340571900375,0.0040735952330486335,-0.095138,-34.640354
11.185,2.0,1.0,1.0,34.3,33.5,33.5,2.3,3.9,2.5675,0.5613056444900126,-0.018386982312673102,0.8142452153303651,0.003952414787505768,-0.096348,-34.513616
11.185,2.0,1.0,1.0,34.3,33.5,33.5,2.3,3.9,2.57,0.5536260020497621,-0.018697110546680096,0.8193166405287905,0.0038255963653008296,-0.097582,-34.386396
11.185,2.0,1.0,1.0,34.3,33.5,33.5,2.3,3.9,2.5725,0.5458483948399219,-0.0190117997083185,0.8243469014706141,0.003692949744322495,-0.09884,-34.258687
11.185,2.0,1.0,1.0,34.3,33.5,33.5,2.3,3.9,2.575,0.5379718766688444,-0.019331098436132402,0.8293345254313452,0.00355427822860987,-0.100123,-34.13048
11.185,2.0,1.0,1.0,34.3,33.5,33.5,2.3,3.9,2.5775,0.5299954987400326,-0.019655054548502478,0.8342779971149376,0.0034093784192985917,-0.101432,-34.001769
11.185,2.0,1.0,1.0,34.3,33.5,33.5,2.3,3.9,2.58,0.5219183102058693,-0.019983714928788383,0.8391757574628721,0.003258039977275248,-0.102768,-33.872546
11.185,2.0,1.0,1.0,34.3,33.5,33.5,2.3,3.9,2.5825,0.5137393587587372,-0.020317125402508844,0.8440262024336278,0.0031000453772413723,-0.10413,-33.742803
11.185,2.0,1.0,1.0,34.3,33.5,33.5,2.3,3.9,2.585,0.5054576912614747,-0.020655330606066946,0.8488276817520574,0.0029351696528777033,-0.10552,-33.612533
11.185,2.0,1.0,1.0,34.3,33.5,33.5,2.3,3.9,2.5875,0.49707235441914877,-0.020998373846499392,0.8535784976282619,0.002763180132788798,-0.106939,-33.481728
11.185,2.0,1.0,1.0,34.3,33.5,33.5,2.3,3.9,2.59,0.4885823954942737,-0.021346296951695293,0.8582769034455018,0.002583836166897458,-0.108386,-33.35038
11.185,2.0,1.0,1.0,34.3,33.5,33.5,2.3,3.9,2.5925,0.4799868630676474,-0.021699140110497717,0.8629211024167688,0.0023968888429467105,-0.109864,-33.21848
11.185,2.0,1.0,1.0,34.3,33.5,33.5,2.3,3.9,2.595,0.4712848078471262,-0.02205694170206346,0.8675092462096203,0.0022020806927561254,-0.111372,-33.086021
11.185,2.0,1.0,1.0,34.3,33.5,33.5,2.3,3.9,2.5975,0.46247528352671763,-0.022419738113820042,0.8720394335389325,0.0019991453878669017,-0.112912,-32.952995
11.185,2.0,1.0,1.0,34.3,33.5,33.5,2.3,3.9,2.6,0.4535573476985141,-0.022787563547316935,0.8765097087272387,0.0017878074241976947,-0.114484,-32.819392
11.185,2.0,1.0,1.0,34.3,33.5,33.5,2.3,3.9,2.6025,0.4445300628200949,-0.023160449811224698,0.8809180602323557,0.0015677817953216,-0.116089,-32.685205
11.185,2.0,1.0,1.0,34.3,33.5,33.5,2.3,3.9,2.605,0.43539249724011725,-0.02353842610069067,0.885262419142052,0.0013387736539602398,-0.117728,-32.550425
11.185,2.0,1.0,1.0,34.3,33.5,33.5,2.3,3.9,2.6075,0.42614372628498126,-0.023921518762209316,0.8895406576355207,0.0011004779612788901,-0.119403,-32.415044
11.185,2.0,1.0,1.0,34.3,33.5,33.5,2.3,3.9,2.61,0.41678283340954936,-0.024309751043113646,0.8937505874114927,0.0008525791235519583,-0.121113,-32.279051
11.185,2.0,1.0,1.0,34.3,33.5,33.5,2.3,3.9,2.6125,0.40730891141503917,-0.024703142824738674,0.8978899580828548,0.0005947506157547551,-0.12286,-32.142439
11.185,2.0,1.0,1.0,34.3,33.5,33.5,2.3,3.9,2.615,0.3977210637373521,-0.02510171033824791,0.9019564555376933,0.0003266545916219349,-0.124644,-32.005198
11.185,2.0,1.0,1.0,34.3,33.5,33.5,2.3,3.9,2.6175,0.3880184058092471,-0.025505465862050252,0.9059477002667451,4.794147969936606e-05,-0.126468,-31.867319
11.185,2.0,1.0,1.0,34.3,33.5,33.5,2.3,3.9,2.62,0.3782000664999004,-0.025914417399667676,0.9098612456572915,-0.00024175043509995836,-0.128332,-31.728793
11.185,2.0,1.0,1.0,34.3,33.5,33.5,2.3,3.9,2.6225,0.3682651896355604,-0.026328568336841697,0.9136945762535987,-0.000542795444941487,-0.130237,-31.58961
11.185,2.0,1.0,1.0,34.3,33.5,33.5,2.3,3.9,2.625,0.358212935605176,-0.0267479170765884,0.917445105984082,-0.000855580868035996,-0.132184,-31.449759
11.185,2.0,1.0,1.0,34.3,33.5,33.5,2.3,3.9,2.6275,0.3480424830550094,-0.027172456650831598,0.9211101763554558,-0.00118050751366703,-0.134175,-31.309232
11.185,2.0,1.0,1.0,34.3,33.5,33.5,2.3,3.9,2.63,0.33775303067645934,-0.027602174307153206,0.9246870546141889,-0.0015179901638329488,-0.13621,-31.168019
11.185,2.0,1.0,1.0,34.3,33.5,33.5,2.3,3.9,2.6325,0.32734379909146577,-0.028037051069107463,0.9281729318757229,-0.0018684580720757537,-0.138291,-31.026108
11.185,2.0,1.0,1.0,34.3,33.5,33.5,2.3,3.9,2.635,0.3168140328400842,-0.028477061268443835,0.9315649212219447,-0.0022323554800879443,-0.140419,-30.88349
11.185,2.0,1.0,1.0,34.3,33.5,33.5,2.3,3.9,2.6375,0.30616300247499434,-0.028922172047475374,0.9348600557675617,-0.002610142152704999,-0.142597,-30.740154
11.185,2.0,1.0,1.0,34.3,33.5,33.5,2.3,3.9,2.64,0.29539000676789273,-0.029372342829715264,0.9380552866961329,-0.003002293931912739,-0.144824,-30.596089
11.185,2.0,1.0,1.0,34.3,33.5,33.5,2.3,3.9,2.6425,0.28449437503298514,-0.029827524756777413,0.9411474812665783,-0.0034093033105155723,-0.147102,-30.451284
11.185,2.0,1.0,1.0,34.3,33.5,33.5,2.3,3.9,2.645,0.2734754695729395,-0.03028766008940652,0.9441334207912003,-0.0038316800261336726,-0.149434,-30.305728
11.185,2.0,1.0,1.0,34.3,33.5,33.5,2.3,3.9,2.6475,0.262332688252963,-0.030752681570358438,0.9470097985862996,-0.0042699516762165855,-0.151821,-30.15941
11.185,2.0,1.0,1.0,34.3,33.5,33.5,2.3,3.9,2.65,0.2510654672088155,-0.03122251174669968,0.9497732178966891,-0.0047246643547820275,-0.154263,-30.012318
11.185,2.0,1.0,1.0,34.3,33.5,33.5,2.3,3.9,2.6525,0.2396732836949241,-0.0316970622489274,0.9524201897955065,-0.005196383311609557,-0.156764,-29.86444
11.185,2.0,1.0,1.0,34.3,33.5,33.5,2.3,3.9,2.655,0.22815565907891014,-0.03217623302413671,0.954947131060924,-0.005685693634642162,-0.159324,-29.715763
11.185,2.0,1.0,1.0,34.3,33.5,33.5,2.3,3.9,2.6575,0.21651216198919046,-0.0326599115202681,0.9573503620315165,-0.006193200956369998,-0.161946,-29.566277
11.185,2.0,1.0,1.0,34.3,33.5,33.5,2.3,3.9,2.66,0.20474241162254017,-0.03314797181826329,0.9596261044422333,-0.006719532184993646,-0.164631,-29.415967
11.185,2.0,1.0,1.0,34.3,33.5,33.5,2.3,3.9,2.6625,0.19284608121883764,-0.0336402737087339,0.9617704792431161,-0.007265336261188474,-0.167382,-29.264821
11.185,2.0,1.0,1.0,34.3,33.5,33.5,2.3,3.9,2.665,0.1808229017104578,-0.034136661709509,0.9637795044031141,-0.007831284941315112,-0.170201,-29.112826
11.185,2.0,1.0,1.0,34.3,33.5,33.5,2.3,3.9,2.6675,0.16867266555416965,-0.034636964020165105,0.9656490927015603,-0.00841807360794468,-0.173089,-28.959969
11.185,2.0,1.0,1.0,34.3,33.5,33.5,2.3,3.9,2.67,0.15639523075366482,-0.03514099140936407,0.967375049510108,-0.009026422108593054,-0.176049,-28.806235
11.185,2.0,1.0,1.0,34.3,33.5,33.5,2.3,3.9,2.6725,0.14399052508120888,-0.035648536030518284,0.9689530705681696,-0.00965707562358301,-0.179083,-28.65161
11.185,2.0,1.0,1.0,34.3,33.5,33.5,2.3,3.9,2.675,0.13145855050730593,-0.036159370160972655,0.9703787397551451,-0.01031080556397713,-0.182193,-28.496081
11.185,2.0,1.0,1.0,34.3,33.5,33.5,2.3,3.9,2.6775,0.11879938784760213,-0.03667324485953542,0.9716475268630111,-0.010988410500550789,-0.185383,-28.339632
11.185,2.0,1.0,1.0,34.3,33.5,33.5,2.3,3.9,2.68,0.10601320163669063,-0.037189888536800816,0.9727547853731059,-0.011690717124798095,-0.188654,-28.182248
11.185,2.0,1.0,1.0,34.3,33.5,33.5,2.3,3.9,2.6825,0.0931002452389091,-0.03770900543228226,0.9736957502412541,-0.01241858124298862,-0.19201,-28.023914
11.185,2.0,1.0,1.0,34.3,33.5,33.5,2.3,3.9,2.685,0.08006086620666486,-0.0382302739919159,0.9744655356956694,-0.013172888804316446,-0.195454,-27.864613
11.185,2.0,1.0,1.0,34.3,33.5,33.5,2.3,3.9,2.6875,0.0668955118973015,-0.0387533451389904,0.975059133052416,-0.0139545569642062,-0.198987,-27.70433
11.185,2.0,1.0,1.0,34.3,33.5,33.5,2.3,3.9,2.69,0.053604735360069856,-0.039277840431011034,0.9754714085535217,-0.014764535183860008,-0.202614,-27.543047
11.185,2.0,1.0,1.0,34.3,33.5,33.5,2.3,3.9,2.6925,0.040189201505248406,-0.03980335009440842,0.9756971012332128,-0.015603806367152646,-0.206338,-27.380748
11.185,2.0,1.0,1.0,34.3,33.5,33.5,2.3,3.9,2.695,0.026649693568152968,-0.04032943092834418,0.9757308208180763,-0.016473388035992742,-0.210161,-27.217414
11.185,2.0,1.0,1.0,34.3,33.5,33.5,2.3,3.9,2.6975,0.012987119881265854,-0.04085560406815163,0.9755670456673875,-0.017374333545288077,-0.214088,-27.053028
11.185,2.0,1.0,1.0,34.3,33.5,33.5,2.3,3.9,2.7,-0.0007974790314450601,-0.04138135259815848,0.9752001207601722,-0.01830773333865526,-0.218122,-26.887571
11.185,2.0,1.0,1.0,34.3,33.5,33.5,2.3,3.9,2.7025,-0.014702923023374396,-0.04190611900277822,0.9746242557360708,-0.019274716246021145,-0.222267,-26.721024
11.185,2.0,1.0,1.0,34.3,33.5,33.5,2.3,3.9,2.705,-0.028727884541665586,-0.042429302443802504,0.9738335229974067,-0.020276450824257358,-0.226528,-26.553366
11.185,2.0,1.0,1.0,34.3,33.5,33.5,2.3,3.9,2.7075,-0.04287088047483241,-0.0429502558507848,0.9728218558804138,-0.021314146741976077,-0.230908,-26.384578
11.185,2.0,1.0,1.0,34.3,33.5,33.5,2.3,3.9,2.71,-0.05713026361419625,-0.043468282810249136,0.971583046903978,-0.022389056209590478,-0.235411,-26.214638
11.185,2.0,1.0,1.0,34.3,33.5,33.5,2.3,3.9,2.7125,-0.07150421371077526,-0.04398263423818919,0.9701107461047601,-0.023502475455704958,-0.240043,-26.043524
11.185,2.0,1.0,1.0,34.3,33.5,33.5,2.3,3.9,2.715,-0.08599072810806786,-0.04449250481891401,0.968398459468097,-0.024655746250843606,-0.244809,-25.871215
11.185,2.0,1.0,1.0,34.3,33.5,33.5,2.3,3.9,2.7175,-0.10058761192993346,-0.044997029191744364,0.9664395474645914,-0.025850257479448063,-0.249713,-25.697687
11.185,2.0,1.0,1.0,34.3,33.5,33.5,2.3,3.9,2.72,-0.11529246780133905,-0.04549527786533946,0.9642272237028955,-0.027087446760971048,-0.254761,-25.522917
11.185,2.0,1.0,1.0,34.3,33.5,33.5,2.3,3.9,2.7225,-0.1301026850782332,-0.04598625283752577,0.9617545537097583,-0.028368802120759203,-0.259959,-25.346879
11.185,2.0,1.0,1.0,34.3,33.5,33.5,2.3,3.9,2.725,-0.14501542856103053,-0.0464688828963758,0.9590144538490889,-0.029695863711236736,-0.265312,-25.169548
11.185,2.0,1.0,1.0,34.3,33.5,33.5,2.3,3.9,2.7275,-0.1600276266642833,-0.046942018575930465,0.9559996903923951,-0.03107022558368727,-0.270828,-24.990898
11.185,2.0,1.0,1.0,34.3,33.5,33.5,2.3,3.9,2.73,-0.17513595901297618,-0.0474044267373308,0.9527028787537778,-0.03249353751063969,-0.276512,-24.810902
11.185,2.0,1.0,1.0,34.3,33.5,33.5,2.3,3.9,2.7325,-0.19033684343340593,-0.047854784743202435,0.9491164829033358,-0.033967506858519264,-0.282371,-24.62953
11.185,2.0,1.0,1.0,34.3,33.5,33.5,2.3,3.9,2.735,-0.20562642230393702,-0.04829167418987167,0.9452328149737858,-0.03549390050977835,-0.288414,-24.446754
11.185,2.0,1.0,1.0,34.3,33.5,33.5,2.3,3.9,2.7375,-0.22100054822786092,-0.04871357415834778,0.9410440350759918,-0.03707454683318434,-0.294648,-24.262544
11.185,2.0,1.0,1.0,34.3,33.5,33.5,2.3,3.9,2.74,-0.23645476898706705,-0.049118853940929505,0.9365421513401357,-0.038711337700264116,-0.301081,-24.076867
11.185,2.0,1.0,1.0,34.3,33.5,33.5,2.3,3.9,2.7425,-0.25198431173142904,-0.04950576519573073,0.9317190202004463,-0.040406230545085346,-0.307722,-23.889691
11.185,2.0,1.0,1.0,34.3,33.5,33.5,2.3,3.9,2.745,-0.2675840663543366,-0.04987243347630533,0.9265663469427202,-0.042161250463539406,-0.31458,-23.700982
11.185,2.0,1.0,1.0,34.3,33.5,33.5,2.3,3.9,2.7475,-0.2832485679997763,-0.05021684907781256,0.9210756865353308,-0.04397849234705518,-0.321666,-23.510704
11.185,2.0,1.0,1.0,34.3,33.5,33.5,2.3,3.9,2.75,-0.298971978640784,-0.0505368571347191,0.915238444766208,-0.045860123044165,-0.328989,-23.318821
11.185,2.0,1.0,1.0,34.3,33.5,33.5,2.3,3.9,2.7525,-0.31474806766254226,-0.05083014689778683,0.9090458797102055,-0.04780838354150112,-0.336561,-23.125294
11.185,2.0,1.0,1.0,34.3,33.5,33.5,2.3,3.9,2.755,-0.33057019137613813,-0.051094240109938335,0.9024891035536811,-0.049825591153564,-0.344393,-22.930083
11.185,2.0,1.0,1.0,34.3,33.5,33.5,2.3,3.9,2.7575,-0.34643127138067387,-0.051326478391405646,0.8955590848058099,-0.05191414170788575,-0.352499,-22.733147
11.185,2.0,1.0,1.0,34.3,33.5,33.5,2.3,3.9,2.76,-0.36232377168186364,-0.051524009534203254,0.8882466509294579,-0.054076511708900106,-0.360892,-22.534442
11.185,2.0,1.0,1.0,34.3,33.5,33.5,2.3,3.9,2.7625,-0.3782396744645464,-0.05168377259427575,0.8805424914283214,-0.05631526045982651,-0.369585,-22.333923
11.185,2.0,1.0,1.0,34.3,33.5,33.5,2.3,3.9,2.765,-0.39417045440412957,-0.051802481656457185,0.8724371614316815,-0.058633032117005844,-0.378595,-22.131542
11.185,2.0,1.0,1.0,34.3,33.5,33.5,2.3,3.9,2.7675,-0.4101070513879966,-0.05187660813244744,0.8639210858237252,-0.06103255764522436,-0.387938,-21.927251
11.185,2.0,1.0,1.0,34.3,33.5,33.5,2.3,3.9,2.77,-0.42603984150184604,-0.051902361435111774,0.8549845639711177,-0.06351665663541568,-0.397631,-21.720998
11.185,2.0,1.0,1.0,34.3,33.5,33.5,2.3,3.9,2.7725,-0.4419586061176662,-0.05187566785328045,0.8456177751106484,-0.06608823893745,-0.407693,-21.512728
11.185,2.0,1.0,1.0,34.3,33.5,33.5,2.3,3.9,2.775,-0.45785249889912094,-0.05179214742955011,0.835810784468646,-0.06875030605021404,-0.418144,-21.302386
11.185,2.0,1.0,1.0,34.3,33.5,33.5,2.3,3.9,2.7775,-0.4737100105163215,-0.051647088619019225,0.8255535501958083,-0.07150595219843325,-0.429006,-21.089912
11.185,2.0,1.0,1.0,34.3,33.5,33.5,2.3,3.9,2.78,-0.48951893083475884,-0.051435420479025405,0.8148359312156545,-0.07435836501023182,-0.440303,-20.875245
11.185,2.0,1.0,1.0,34.3,33.5,33.5,2.3,3.9,2.7825,-0.5052663083119671,-0.051151682108337794,0.8036476961025183,-0.07731082569065754,-0.45206,-20.65832
11.185,2.0,1.0,1.0,34.3,33.5,33.5,2.3,3.9,2.785,-0.5209384063002372,-0.05078998901838026,0.7919785331265266,-0.08036670856364167,-0.464303,-20.43907
11.185,2.0,1.0,1.0,34.3,33.5,33.5,2.3,3.9,2.7875,-0.5365206559129299,-0.050343996078341655,0.7798180616293895,-0.08352947982718958,-0.477062,-20.217422
11.185,2.0,1.0,1.0,34.3,33.5,33.5,2.3,3.9,2.79,-0.5519976050660963,-0.04980685662981372,0.7671558449268877,-0.08680269533299571,-0.49037,-19.993304
11.185,2.0,1.0,1.0,34.3,33.5,33.5,2.3,3.9,2.7925,-0.5673528632541401,-0.04917117731416304,0.7539814049732253,-0.09018999716077955,-0.50426,-19.766636
11.185,2.0,1.0,1.0,34.3,33.5,33.5,2.3,3.9,2.795,-0.5825690415586184,-0.0484289680963739,0.7402842390703719,-0.09369510870788518,-0.518769,-19.537336
11.185,2.0,1.0,1.0,34.3,33.5,33.5,2.3,3.9,2.7975,-0.5976276873208888,-0.04757158690171517,0.72605383896431,-0.09732182795402958,-0.53394,-19.305319
11.185,2.0,1.0,1.0,34.3,33.5,33.5,2.3,3.9,2.8,-0.6125092128319803,-0.046589678205305865,0.7112797127419282,-0.10107401848716635,-0.549815,-19.070495
11.185,2.0,1.0,1.0,34.3,33.5,33.5,2.3,3.9,2.8025,-0.6271928173052059,-0.045473104828457844,0.6959514100305394,-0.10495559778614581,-0.566444,-18.832767
11.185,2.0,1.0,1.0,34.3,33.5,33.5,2.3,3.9,2.805,-0.6416564012977488,-0.044210872098469925,0.680058551110094,-0.10897052214555111,-0.583879,-18.592037
11.185,2.0,1.0,1.0,34.3,33.5,33.5,2.3,3.9,2.8075,-0.6558764726354527,-0.042791043419236285,0.6635908606809109,-0.11312276749314477,-0.602179,-18.3482
11.185,2.0,1.0,1.0,34.3,33.5,33.5,2.3,3.9,2.81,-0.6698280427692932,-0.04120064617756835,0.6465382071928564,-0.11741630518508255,-0.621406,-18.101145
11.185,2.0,1.0,1.0,34.3,33.5,33.5,2.3,3.9,2.8125,-0.683484512351378,-0.039425566773589,0.62889064884252,-0.12185507166138,-0.641631,-17.850758
11.185,2.0,1.0,1.0,34.3,33.5,33.5,2.3,3.9,2.815,-0.6968175446621993,-0.03745043341228038,0.6106384875917839,-0.12644293059534276,-0.662931,-17.596917
11.185,2.0,1.0,1.0,34.3,33.5,33.5,2.3,3.9,2.8175,-0.709796925348953,-0.035258485127076654,0.5917723328653954,-0.1311836258648837,-0.68539,-17.339494
11.185,2.0,1.0,1.0,34.3,33.5,33.5,2.3,3.9,2.82,-0.7223904067472913,-0.032831425325847034,0.5722831769602128,-0.13608072329742166,-0.709103,-17.078355
11.185,2.0,1.0,1.0,34.3,33.5,33.5,2.3,3.9,2.8225,-0.7345635348579755,-0.03014925795647203,0.5521624846615939,-0.141137538676617,-0.734173,-16.813361
11.185,2.0,1.0,1.0,34.3,33.5,33.5,2.3,3.9,2.825,-0.746279456838486,-0.027190104187016128,0.5314023001341054,-0.14635704892777351,-0.760717,-16.544364
11.185,2.0,1.0,1.0,34.3,33.5,33.5,2.3,3.9,2.8275,-0.7574987066543281,-0.02392999729044566,0.509995374860105,-0.15174178269353875,-0.788862,-16.271209
