1,w,sub_t,h,l1,l2,l3,g1,g2,Freq,S11_re,S21_re,S11_img,S21_img,S11_dB,S21_dB
11.185,2.0,1.0,1.0,33.8,33.7,33.7,1.6,1.9,2.5,0.802270961121872,-0.0189710553093573,0.582532369010061,0.0169308775007566,-0.074541,-31.893942
11.185,2.0,1.0,1.0,33.8,33.7,33.7,1.6,1.9,2.5025,0.7978450022960116,-0.019385125301972696,0.5884050438649909,0.017024773980321484,-0.07545,-31.767697
11.185,2.0,1.0,1.0,33.8,33.7,33.7,1.6,1.9,2.505,0.793350831662211,-0.01980789094408993,0.594274024273413,0.017117000594365297,-0.076378,-31.640912
11.185,2.0,1.0,1.0,33.8,33.7,33.7,1.6,1.9,2.5075,0.7887876212588318,-0.02023955838223907,0.6001388740534762,0.01720744688648313,-0.077326,-31.513578
11.185,2.0,1.0,1.0,33.8,33.7,33.7,1.6,1.9,2.51,0.7841545278756396,-0.02068033954799507,0.6059991415976361,0.017295997204732048,-0.078296,-31.385684
11.185,2.0,1.0,1.0,33.8,33.7,33.7,1.6,1.9,2.5125,0.7794506927478236,-0.021130452341802088,0.6118543592901248,0.017382530447790128,-0.079287,-31.257221
11.185,2.0,1.0,1.0,33.8,33.7,33.7,1.6,1.9,2.515,0.7746752412439064,-0.021590120823027577,0.6177040429005449,0.017466919797657833,-0.080301,-31.12818
11.185,2.0,1.0,1.0,33.8,33.7,33.7,1.6,1.9,2.5175,0.7698272825474715,-0.022059575406447117,0.6235476909524502,0.017549032438118495,-0.081337,-30.99855
11.185,2.0,1.0,1.0,33.8,33.7,33.7,1.6,1.9,2.52,0.7649059093326199,-0.022539053065373956,0.6293847840657485,0.0176287292581268,-0.082397,-30.868322
11.185,2.0,1.0,1.0,33.8,33.7,33.7,1.6,1.9,2.5225,0.7599101974331117,-0.023028797541642637,0.6352147842716566,0.017705864539237993,-0.083481,-30.737486
11.185,2.0,1.0,1.0,33.8,33.7,33.7,1.6,1.9,2.525,0.754839205505108,-0.023529059562669128,0.6410371342989136,0.01778028562613657,-0.08459,-30.60603
11.185,2.0,1.0,1.0,33.8,33.7,33.7,1.6,1.9,2.5275,0.7496919746834682,-0.024040097065806572,0.6468512568298551,0.017851832579259017,-0.085725,-30.473944
11.185,2.0,1.0,1.0,33.8,33.7,33.7,1.6,1.9,2.53,0.7444675282315565,-0.024562175430222023,0.6526565537248766,0.01792033780844074,-0.086886,-30.341218
11.185,2.0,1.0,1.0,33.8,33.7,33.7,1.6,1.9,2.5325,0.7391648711845166,-0.025095567716523562,0.6584524052137393,0.017985625686447647,-0.088075,-30.20784
11.185,2.0,1.0,1.0,33.8,33.7,33.7,1.6,1.9,2.535,0.733782989985985,-0.025640554914366606,0.6642381690520873,0.01804751214117607,-0.089291,-30.073799
11.185,2.0,1.0,1.0,33.8,33.7,33.7,1.6,1.9,2.5375,0.7283208521182375,-0.026197426198270767,0.6700131796414271,0.018105804225224217,-0.090537,-29.939084
11.185,2.0,1.0,1.0,33.8,33.7,33.7,1.6,1.9,2.54,0.7227774057257561,-0.02676647919188134,0.675776747110748,0.018160299661451943,-0.091812,-29.803683
11.185,2.0,1.0,1.0,33.8,33.7,33.7,1.6,1.9,2.5425,0.7171515792322344,-0.027348020240905067,0.6815281563578386,0.01821078636305282,-0.093118,-29.667585
11.185,2.0,1.0,1.0,33.8,33.7,33.7,1.6,1.9,2.545,0.711442280951053,-0.027942364694952718,0.6872666660482446,0.018257041926560365,-0.094456,-29.530776
11.185,2.0,1.0,1.0,33.8,33.7,33.7,1.6,1.9,2.5475,0.7056483986892799,-0.028549837198513933,0.6929915075696805,0.018298833096105447,-0.095826,-29.393246
11.185,2.0,1.0,1.0,33.8,33.7,33.7,1.6,1.9,2.55,0.6997687993452535,-0.029170771991289972,0.6987018839396026,0.01833591519712442,-0.09723,-29.254982
11.185,2.0,1.0,1.0,33.8,33.7,33.7,1.6,1.9,2.5525,0.6938023284998721,-0.029805513218098552,0.7043969686634711,0.018368031537593976,-0.098669,-29.11597
11.185,2.0,1.0,1.0,33.8,33.7,33.7,1.6,1.9,2.555,0.6877478100016896,-0.03045441524856215,0.710075904541119,0.01839491277473541,-0.100144,-28.976197
11.185,2.0,1.0,1.0,33.8,33.7,33.7,1.6,1.9,2.5575,0.6816040455459899,-0.031117843006776856,0.7157378024184651,0.018416276244986172,-0.101656,-28.835652
11.185,2.0,1.0,1.0,33.8,33.7,33.7,1.6,1.9,2.56,0.6753698142480289,-0.031796172311145815,0.7213817398816218,0.018431825254882517,-0.103206,-28.694319
11.185,2.0,1.0,1.0,33.8,33.7,33.7,1.6,1.9,2.5625,0.6690438722106804,-0.0324897902245485,0.7270067598903047,0.018441248330330836,-0.104796,-28.552185
11.185,2.0,1.0,1.0,33.8,33.7,33.7,1.6,1.9,2.565,0.6626249520867524,-0.033199095414991366,0.7326118693472119,0.018444218421562804,-0.106428,-28.409236
11.185,2.0,1.0,1.0,33.8,33.7,33.7,1.6,1.9,2.5675,0.6561117626363191,-0.03392449852686646,0.7381960375998455,0.01844039206087996,-0.108101,-28.265458
11.185,2.0,1.0,1.0,33.8,33.7,33.7,1.6,1.9,2.57,0.6495029882794362,-0.03466642256291383,0.7437581948710296,0.018429408470080177,-0.109819,-28.120835
11.185,2.0,1.0,1.0,33.8,33.7,33.7,1.6,1.9,2.5725,0.6427972886446928,-0.035425303276950024,0.7492972306141156,0.01841088861423585,-0.111581,-27.975354
11.185,2.0,1.0,1.0,33.8,33.7,33.7,1.6,1.9,2.575,0.6359932981141146,-0.036201589577384584,0.7548119917886181,0.01838443419824854,-0.113391,-27.828998
11.185,2.0,1.0,1.0,33.8,33.7,33.7,1.6,1.9,2.5775,0.6290896253650197,-0.0369957439415018,0.7603012810517213,0.018349626602342694,-0.11525,-27.681753
11.185,2.0,1.0,1.0,33.8,33.7,33.7,1.6,1.9,2.58,0.6220848529095055,-0.03780824284042737,0.7657638548608154,0.01830602575237644,-0.117159,-27.533602
11.185,2.0,1.0,1.0,33.8,33.7,33.7,1.6,1.9,2.5825,0.614977536632354,-0.038639577174640595,0.7711984214818794,0.01825316892054113,-0.11912,-27.384528
11.185,2.0,1.0,1.0,33.8,33.7,33.7,1.6,1.9,2.585,0.6077662053282507,-0.0394902527198147,0.7766036388981679,0.018190569451687722,-0.121135,-27.234516
11.185,2.0,1.0,1.0,33.8,33.7,33.7,1.6,1.9,2.5875,0.600449360239335,-0.04036079058268902,0.7819781126132946,0.018117715410160273,-0.123207,-27.083548
11.185,2.0,1.0,1.0,33.8,33.7,33.7,1.6,1.9,2.59,0.5930254745942484,-0.041251727666572875,0.78732039334238,0.018034068141626718,-0.125337,-26.931607
11.185,2.0,1.0,1.0,33.8,33.7,33.7,1.6,1.9,2.5925,0.5854929931499867,-0.042163617145974566,0.7926289745844877,0.01793906074397501,-0.127527,-26.778675
11.185,2.0,1.0,1.0,33.8,33.7,33.7,1.6,1.9,2.595,0.5778503317380718,-0.04309702894971599,0.7979022900690954,0.0178320964408896,-0.12978,-26.624733
11.185,2.0,1.0,1.0,33.8,33.7,33.7,1.6,1.9,2.5975,0.5700958768167073,-0.04405255025174701,0.8031387110688393,0.01771254685122263,-0.132099,-26.469764
11.185,2.0,1.0,1.0,33.8,33.7,33.7,1.6,1.9,2.6,0.5622279850308515,-0.04503078596870581,0.8083365435701828,0.017579750146743144,-0.134485,-26.313749
11.185,2.0,1.0,1.0,33.8,33.7,33.7,1.6,1.9,2.6025,0.5542449827823721,-0.04603235926307245,0.8134940252930772,0.017433009090261263,-0.136941,-26.156667
11.185,2.0,1.0,1.0,33.8,33.7,33.7,1.6,1.9,2.605,0.5461451658127142,-0.0470579120505486,0.8186093225500228,0.017271588945494316,-0.139471,-25.998499
11.185,2.0,1.0,1.0,33.8,33.7,33.7,1.6,1.9,2.6075,0.5379267988008558,-0.04810810551003555,0.8236805269342007,0.017094715249354343,-0.142077,-25.839224
11.185,2.0,1.0,1.0,33.8,33.7,33.7,1.6,1.9,2.61,0.5295881149796631,-0.04918362059429643,0.8287056518256206,0.016901571436591316,-0.144762,-25.678822
11.185,2.0,1.0,1.0,33.8,33.7,33.7,1.6,1.9,2.6125,0.5211273157741615,-0.05028515853906011,0.8336826287033383,0.01669129630591464,-0.14753,-25.517272
11.185,2.0,1.0,1.0,33.8,33.7,33.7,1.6,1.9,2.615,0.5125425704656841,-0.05141344136794305,0.838609303250941,0.01646298131583594,-0.150384,-25.354551
11.185,2.0,1.0,1.0,33.8,33.7,33.7,1.6,1.9,2.6175,0.5038320158863835,-0.05256921239013713,0.843483431241472,0.01621566769751548,-0.153327,-25.190636
11.185,2.0,1.0,1.0,33.8,33.7,33.7,1.6,1.9,2.62,0.49499375614914726,-0.053753236687322146,0.8483026741869172,0.015948343370851964,-0.156364,-25.025506
11.185,2.0,1.0,1.0,33.8,33.7,33.7,1.6,1.9,2.6225,0.4860258624186042,-0.054966301585700185,0.8530645947362175,0.015659939648920512,-0.159498,-24.859136
11.185,2.0,1.0,1.0,33.8,33.7,33.7,1.6,1.9,2.625,0.476926372729664,-0.0562092171084111,0.857766651804479,0.015349327714625,-0.162734,-24.691503
11.185,2.0,1.0,1.0,33.8,33.7,33.7,1.6,1.9,2.6275,0.46769329186081626,-0.057482816402864415,0.862406195414712,0.015015314852084656,-0.166076,-24.52258
11.185,2.0,1.0,1.0,33.8,33.7,33.7,1.6,1.9,2.63,0.4583245912703779,-0.05878795613668922,0.8669804612319216,0.014656640413806486,-0.169529,-24.352344
11.185,2.0,1.0,1.0,33.8,33.7,33.7,1.6,1.9,2.6325,0.44881820910492376,-0.06012551685506005,0.8714865647677233,0.014271971503093532,-0.173098,-24.180768
11.185,2.0,1.0,1.0,33.8,33.7,33.7,1.6,1.9,2.635,0.4391720502903246,-0.06149640329107779,0.875921495231923,0.013859898349395291,-0.176788,-24.007826
11.185,2.0,1.0,1.0,33.8,33.7,33.7,1.6,1.9,2.6375,0.42938398671718,-0.06290154461965111,0.8802821090055367,0.013418929352402392,-0.180604,-23.833489
11.185,2.0,1.0,1.0,33.8,33.7,33.7,1.6,1.9,2.64,0.4194518575339463,-0.06434189464392397,0.8845651227076461,0.012947485768611456,-0.184553,-23.65773
11.185,2.0,1.0,1.0,33.8,33.7,33.7,1.6,1.9,2.6425,0.40937346956283394,-0.06581843190168325,0.8887671058261742,0.012443896011822709,-0.188641,-23.48052
11.185,2.0,1.0,1.0,33.8,33.7,33.7,1.6,1.9,2.645,0.3991465978554918,-0.06733215967735409,0.892884472880192,0.011906389536560862,-0.192875,-23.301829
11.185,2.0,1.0,1.0,33.8,33.7,33.7,1.6,1.9,2.6475,0.38876898640777535,-0.06888410590309331,0.8969134750786109,0.011333090270714186,-0.197261,-23.121627
11.185,2.0,1.0,1.0,33.8,33.7,33.7,1.6,1.9,2.65,0.3782383490554096,-0.0704753229301019,0.9008501914371936,0.010722009560745977,-0.201807,-22.939882
11.185,2.0,1.0,1.0,33.8,33.7,33.7,1.6,1.9,2.6525,0.36755237057533874,-0.07210688714853099,0.9046905193125384,0.010071038589623639,-0.206521,-22.756562
11.185,2.0,1.0,1.0,33.8,33.7,33.7,1.6,1.9,2.655,0.35670870802078425,-0.07377989843123678,0.9084301643081989,0.009377940224110716,-0.211412,-22.571634
11.185,2.0,1.0,1.0,33.8,33.7,33.7,1.6,1.9,2.6575,0.3457049923218952,-0.07549547937304188,0.9120646295042443,0.00864034024425219,-0.216488,-22.385065
11.185,2.0,1.0,1.0,33.8,33.7,33.7,1.6,1.9,2.66,0.33453883018813313,-0.07725477429305545,0.9155892039574035,0.007855717903724016,-0.221759,-22.196818
11.185,2.0,1.0,1.0,33.8,33.7,33.7,1.6,1.9,2.6625,0.32320780635352653,-0.07905894796289556,0.9189989504143589,0.007021395765188189,-0.227236,-22.006858
11.185,2.0,1.0,1.0,33.8,33.7,33.7,1.6,1.9,2.665,0.3117094862115008,-0.0809091840182552,0.9222886921758298,0.006134528749861031,-0.232928,-21.815149
11.185,2.0,1.0,1.0,33.8,33.7,33.7,1.6,1.9,2.6675,0.3000414188925276,-0.08280668300504537,0.9254529990436874,0.0051920923351448075,-0.238848,-21.621652
11.185,2.0,1.0,1.0,33.8,33.7,33.7,1.6,1.9,2.67,0.28820114084516363,-0.08475266000423416,0.9284861722775168,0.004190869828339262,-0.245009,-21.426327
11.185,2.0,1.0,1.0,33.8,33.7,33.7,1.6,1.9,2.6725,0.2761861799895675,-0.08674834177131001,0.9313822284806965,0.003127438638135292,-0.251423,-21.229135
11.185,2.0,1.0,1.0,33.8,33.7,33.7,1.6,1.9,2.675,0.26399406052232216,-0.0887949633168759,0.9341348823292062,0.0019981554587440217,-0.258104,-21.030035
11.185,2.0,1.0,1.0,33.8,33.7,33.7,1.6,1.9,2.6775,0.2516223084625412,-0.0908937638440508,0.9367375280489957,0.0007991402741179725,-0.265069,-20.828983
11.185,2.0,1.0,1.0,33.8,33.7,33.7,1.6,1.9,2.68,0.23906845804211566,-0.09304598194586118,0.9391832195397205,-0.000473740918260306,-0.272332,-20.625935
11.185,2.0,1.0,1.0,33.8,33.7,33.7,1.6,1.9,2.6825,0.22633005905773876,-0.09525284995141363,0.9414646490341342,-0.0018248947731154944,-0.279912,-20.420847
11.185,2.0,1.0,1.0,33.8,33.7,33.7,1.6,1.9,2.685,0.21340468531937853,-0.09751558729304162,0.943574124173193,-0.003259020770927727,-0.287828,-20.213671
11.185,2.0,1.0,1.0,33.8,33.7,33.7,1.6,1.9,2.6875,0.20028994434949554,-0.09983539274744137,0.9455035433672083,-0.004781133027361175,-0.296099,-20.00436
11.185,2.0,1.0,1.0,33.8,33.7,33.7,1.6,1.9,2.69,0.18698348850999524,-0.10221343538167559,0.947244369302971,-0.006396583877028559,-0.304747,-19.792865
11.185,2.0,1.0,1.0,33.8,33.7,33.7,1.6,1.9,2.6925,0.17348302775997035,-0.10465084400931587,0.9487876004459351,-0.008111089380976549,-0.313797,-19.579134
11.185,2.0,1.0,1.0,33.8,33.7,33.7,1.6,1.9,2.695,0.15978634427765517,-0.10714869493237347,0.9501237403751174,-0.009930756918679874,-0.323272,-19.363116
11.185,2.0,1.0,1.0,33.8,33.7,33.7,1.6,1.9,2.6975,0.14589130921480392,-0.10970799771038096,0.9512427647767319,-0.011862115037115362,-0.3332,-19.144756
11.185,2.0,1.0,1.0,33.8,33.7,33.7,1.6,1.9,2.7,0.13179590189229817,-0.11232967865825084,0.9521340859106492,-0.013912145741443237,-0.343612,-18.923999
11.185,2.0,1.0,1.0,33.8,33.7,33.7,1.6,1.9,2.7025,0.11749823179257132,-0.11501456172849608,0.9527865143519378,-0.016088319423763497,-0.354538,-18.700787
11.185,2.0,1.0,1.0,33.8,33.7,33.7,1.6,1.9,2.705,0.10299656375873997,-0.11776334637997486,0.9531882177983813,-0.01839863263796122,-0.366013,-18.475063
11.185,2.0,1.0,1.0,33.8,33.7,33.7,1.6,1.9,2.7075,0.08828934687330985,-0.12057658197335751,0.9533266767242479,-0.02085164893938744,-0.378075,-18.246766
11.185,2.0,1.0,1.0,33.8,33.7,33.7,1.6,1.9,2.71,0.07337524756234907,-0.12345463816155133,0.9531886366515673,-0.02345654301740698,-0.390764,-18.015833
11.185,2.0,1.0,1.0,33.8,33.7,33.7,1.6,1.9,2.7125,0.05825318755576016,-0.12639767065978175,0.9527600568034033,-0.02622314835588496,-0.404124,-17.782201
11.185,2.0,1.0,1.0,33.8,33.7,33.7,1.6,1.9,2.715,0.04292238743271074,-0.12940558168297944,0.9520260549002174,-0.029162008660388726,-0.418204,-17.545804
11.185,2.0,1.0,1.0,33.8,33.7,33.7,1.6,1.9,2.7175,0.027382416595460958,-0.13247797422540333,0.9509708478619718,-0.03228443328984692,-0.433057,-17.306576
11.185,2.0,1.0,1.0,33.8,33.7,33.7,1.6,1.9,2.72,0.011633250647492445,-0.13561409922650552,0.9495776881867016,-0.03560255692278784,-0.448738,-17.064446
11.185,2.0,1.0,1.0,33.8,33.7,33.7,1.6,1.9,2.7225,-0.004324662694346758,-0.13881279451503029,0.9478287957936911,-0.03912940367167958,-0.465312,-16.819345
11.185,2.0,1.0,1.0,33.8,33.7,33.7,1.6,1.9,2.725,-0.020490327845301876,-0.14207241424689274,0.9457052851488718,-0.04287895583019154,-0.482845,-16.571201
11.185,2.0,1.0,1.0,33.8,33.7,33.7,1.6,1.9,2.7275,-0.03686211424056015,-0.1453907473478189,0.9431870875360047,-0.04686622739343643,-0.501415,-16.319938
11.185,2.0,1.0,1.0,33.8,33.7,33.7,1.6,1.9,2.73,-0.05343765611053757,-0.14876492323472332,0.9402528684046023,-0.05110734242519737,-0.521101,-16.065483
11.185,2.0,1.0,1.0,33.8,33.7,33.7,1.6,1.9,2.7325,-0.0702137371116877,-0.1521913028157525,0.9368799398211867,-0.055619618252283155,-0.541997,-15.807758
11.185,2.0,1.0,1.0,33.8,33.7,33.7,1.6,1.9,2.735,-0.08718615746120344,-0.15566535245261043,0.9330441681828903,-0.06042165333592448,-0.5642,-15.546686
11.185,2.0,1.0,1.0,33.8,33.7,33.7,1.6,1.9,2.7375,-0.10434958085627442,-0.15918149820472824,0.9287198775324809,-0.06553341949278693,-0.587821,-15.282188
11.185,2.0,1.0,1.0,33.8,33.7,33.7,1.6,1.9,2.74,-0.12169735803677312,-0.16273295725725892,0.9238797490556561,-0.07097635789990663,-0.612982,-15.014185
11.185,2.0,1.0,1.0,33.8,33.7,33.7,1.6,1.9,2.7425,-0.13922132336900608,-0.16631154295811432,0.9184947176624505,-0.07677347800118862,-0.639816,-14.742596
11.185,2.0,1.0,1.0,33.8,33.7,33.7,1.6,1.9,2.745,-0.15691156028171455,-0.16990743934799712,0.9125338669772461,-0.08294945801584253,-0.668473,-14.467343
11.185,2.0,1.0,1.0,33.8,33.7,33.7,1.6,1.9,2.7475,-0.17475613077046157,-0.17350894045757773,0.9059643246146639,-0.0895307452032836,-0.699117,-14.188345
11.185,2.0,1.0,1.0,33.8,33.7,33.7,1.6,1.9,2.75,-0.192740763500117,-0.177102148965614,0.898751160336656,-0.0965456533293576,-0.731933,-13.905525
11.185,2.0,1.0,1.0,33.8,33.7,33.7,1.6,1.9,2.7525,-0.21084849428003444,-0.18067062806257717,0.8908572906145328,-0.10402445386114934,-0.767126,-13.618807
11.185,2.0,1.0,1.0,33.8,33.7,33.7,1.6,1.9,2.755,-0.22905925186949766,-0.18419499955376686,0.8822433943133248,-0.11199945623712473,-0.804922,-13.328117
11.185,2.0,1.0,1.0,33.8,33.7,33.7,1.6,1.9,2.7575,-0.2473493812096154,-0.18765248038037782,0.8728678457437892,-0.12050507104803923,-0.84558,-13.033385
11.185,2.0,1.0,1.0,33.8,33.7,33.7,1.6,1.9,2.76,-0.26569109530173174,-0.19101634886637844,0.8626866732734413,-0.12957784803843025,-0.889383,-12.734548
11.185,2.0,1.0,1.0,33.8,33.7,33.7,1.6,1.9,2.7625,-0.28405184611217726,-0.194255331162832,0.8516535541541295,-0.13925647839766495,-0.936654,-12.431548
11.185,2.0,1.0,1.0,33.8,33.7,33.7,1.6,1.9,2.765,-0.30239360415705246,-0.19733289763705367,0.8397198593318529,-0.14958174773237026,-0.987753,-12.124335
11.185,2.0,1.0,1.0,33.8,33.7,33.7,1.6,1.9,2.7675,-0.3206720359279932,-0.20020645845934443,0.8268347658975019,-0.16059642225703077,-1.043088,-11.81287
11.185,2.0,1.0,1.0,33.8,33.7,33.7,1.6,1.9,2.77,-0.3388355682355331,-0.202826447548234,0.8129454596779264,-0.17234504594468222,-1.103119,-11.49713
11.185,2.0,1.0,1.0,33.8,33.7,33.7,1.6,1.9,2.7725,-0.3568243291234328,-0.20513528459606978,0.7979974564340139,-0.18487362046735706,-1.168364,-11.177104
11.185,2.0,1.0,1.0,33.8,33.7,33.7,1.6,1.9,2.775,-0.3745689566021732,-0.20706620646385981,0.7819350774103606,-0.19822913254306204,-1.239414,-10.852804
11.185,2.0,1.0,1.0,33.8,33.7,33.7,1.6,1.9,2.7775,-0.39198926955902863,-0.2085419622985386,0.7647021237392354,-0.21245888462345716,-1.316937,-10.524265
11.185,2.0,1.0,1.0,33.8,33.7,33.7,1.6,1.9,2.78,-0.40899280050131,-0.20947337195702848,0.7462428045596272,-0.22760957458393472,-1.401694,-10.191552
11.185,2.0,1.0,1.0,33.8,33.7,33.7,1.6,1.9,2.7825,-0.425473198182942,-0.20975775561501203,0.7265029856824281,-0.24372605820132467,-1.494554,-9.854765
11.185,2.0,1.0,1.0,33.8,33.7,33.7,1.6,1.9,2.785,-0.4413085208317964,-0.20927725496391408,0.7054318390282055,-0.2608497149065912,-1.596509,-9.514046
11.185,2.0,1.0,1.0,33.8,33.7,33.7,1.6,1.9,2.7875,-0.4563594591338546,-0.20789708464196993,0.6829839873614509,-0.2790163230956341,-1.708693,-9.169588
11.185,2.0,1.0,1.0,33.8,33.7,33.7,1.6,1.9,2.79,-0.47046755416955127,-0.20546377831995563,0.6591222529833644,-0.298253337217869,-1.832406,-8.821641
11.185,2.0,1.0,1.0,33.8,33.7,33.7,1.6,1.9,2.7925,-0.4834535112571643,-0.20180352927414413,0.6338211311477502,-0.3185764467943208,-1.969142,-8.470527
11.185,2.0,1.0,1.0,33.8,33.7,33.7,1.6,1.9,2.795,-0.49511575839769234,-0.19672077257492845,0.6070711159686034,-0.3399852904741571,-2.120616,-8.116649
11.185,2.0,1.0,1.0,33.8,33.7,33.7,1.6,1.9,2.7975,-0.5052294597977811,-0.1899972172555159,0.5788840037929106,-0.36245820087463493,-2.288805,-7.760503
11.185,2.0,1.0,1.0,33.8,33.7,33.7,1.6,1.9,2.8,-0.5135462720085691,-0.18139161324317607,0.5492992795787731,-0.3859458750396376,-2.475985,-7.402697
11.185,2.0,1.0,1.0,33.8,33.7,33.7,1.6,1.9,2.8025,-0.5197952219047952,-0.17064062881163547,0.5183916463354157,-0.41036391022649926,-2.684781,-7.04396
11.185,2.0,1.0,1.0,33.8,33.7,33.7,1.6,1.9,2.805,-0.5236851878573636,-0.15746131573214714,0.4862796740072106,-0.4355842274345489,-2.918222,-6.685167
11.185,2.0,1.0,1.0,33.8,33.7,33.7,1.6,1.9,2.8075,-0.5249095680005289,-0.1415557412639064,0.4531354079623657,-0.46142553987826734,-3.179798,-6.327344
11.185,2.0,1.0,1.0,33.8,33.7,33.7,1.6,1.9,2.81,-0.523153803689607,-0.12261845006103361,0.4191945736853831,-0.48764322519721304,-3.473534,-5.971693
11.185,2.0,1.0,1.0,33.8,33.7,33.7,1.6,1.9,2.8125,-0.5181064615046852,-0.10034745469412552,0.3847667319854662,-0.5139192399520892,-3.804061,-5.619601
11.185,2.0,1.0,1.0,33.8,33.7,33.7,1.6,1.9,2.815,-0.5094745189765405,-0.07445939666889638,0.3502443768056492,-0.5398530742050044,-4.176691,-5.272647
11.185,2.0,1.0,1.0,33.8,33.7,33.7,1.6,1.9,2.8175,-0.49700329007312855,-0.044709313486673286,0.316109544663166,-0.5649551639248102,-4.597487,-4.932606
11.185,2.0,1.0,1.0,33.8,33.7,33.7,1.6,1.9,2.82,-0.4805010028958823,-0.010915028328432582,0.2829360731406761,-0.5886446079339341,-5.073317,-4.601444
11.185,2.0,1.0,1.0,33.8,33.7,33.7,1.6,1.9,2.8225,-0.45986735140864127,0.027014505061879527,0.2513853034594167,-0.6102533772938586,-5.611847,-4.281294
11.185,2.0,1.0,1.0,33.8,33.7,33.7,1.6,1.9,2.825,-0.43512437293514455,0.06904853149395698,0.2221929173327558,-0.6290393113246091,-6.221423,-3.974429
11.185,2.0,1.0,1.0,33.8,33.7,33.7,1.6,1.9,2.8275,-0.4064468210838542,0.1150042997714271,0.1961449169680011,-0.6442098812393968,-6.91069,-3.683205
11.185,2.0,1.0,1.0,33.8,33.7,33.7,1.6,1.9,2.83,-0.37418799649149814,0.16452134643217148,0.17404168005710646,-0.6549577897800599,-7.687671,-3.409999
