1,w,sub_t,h,l1,l2,l3,g1,g2,Freq,S11_re,S21_re,S11_img,S21_img,S11_dB,S21_dB
11.185,2.0,1.0,1.0,33.4,33.7,33.7,2.2,3.6,2.5,0.858248368201197,-0.00783095458420494,0.500161702037464,0.00675169585180926,-0.05792,-39.709847
11.185,2.0,1.0,1.0,33.4,33.7,33.7,2.2,3.6,2.5025,0.8548299469783354,-0.007993344522500617,0.505855361340773,0.0067855422197266,-0.058484,-39.588556
11.185,2.0,1.0,1.0,33.4,33.7,33.7,2.2,3.6,2.505,0.8513578930800023,-0.008158738702671845,0.5115498703479027,0.00681868958725623,-0.059058,-39.466928
11.185,2.0,1.0,1.0,33.4,33.7,33.7,2.2,3.6,2.5075,0.8478316429961601,-0.008327199270482248,0.5172449928026478,0.0068511026732291135,-0.059642,-39.344955
11.185,2.0,1.0,1.0,33.4,33.7,33.7,2.2,3.6,2.51,0.8442506236697477,-0.008498789942517248,0.5229404847505831,0.00688274479617833,-0.060236,-39.22263
11.185,2.0,1.0,1.0,33.4,33.7,33.7,2.2,3.6,2.5125,0.8406142523217085,-0.008673576052583575,0.5286360942733774,0.006913577815023354,-0.060841,-39.099943
11.185,2.0,1.0,1.0,33.4,33.7,33.7,2.2,3.6,2.515,0.8369219362728154,-0.008851624599654466,0.5343315612136946,0.0069435620669901724,-0.061457,-38.976887
11.185,2.0,1.0,1.0,33.4,33.7,33.7,2.2,3.6,2.5175,0.8331730727622587,-0.009033004297416297,0.5400266168902853,0.006972656302624541,-0.062085,-38.853453
11.185,2.0,1.0,1.0,33.4,33.7,33.7,2.2,3.6,2.52,0.8293670487629347,-0.009217785625475724,0.5457209838029102,0.007000817617747224,-0.062724,-38.729632
11.185,2.0,1.0,1.0,33.4,33.7,33.7,2.2,3.6,2.5225,0.825503240793408,-0.009406040882287902,0.55141437532667,0.007028001382191248,-0.063375,-38.605415
11.185,2.0,1.0,1.0,33.4,33.7,33.7,2.2,3.6,2.525,0.8215810147264878,-0.009597844239869032,0.5571064953953412,0.0070541611651524115,-0.064037,-38.480794
11.185,2.0,1.0,1.0,33.4,33.7,33.7,2.2,3.6,2.5275,0.81759972559437,-0.009793271800359203,0.5627970381732676,0.007079248656973849,-0.064713,-38.35576
11.185,2.0,1.0,1.0,33.4,33.7,33.7,2.2,3.6,2.53,0.8135587173903157,-0.00999240165450313,0.5684856877153551,0.007103213587175248,-0.065401,-38.230302
11.185,2.0,1.0,1.0,33.4,33.7,33.7,2.2,3.6,2.5325,0.8094573228668098,-0.010195313942119618,0.5741721176146853,0.007126003638526248,-0.066102,-38.104413
11.185,2.0,1.0,1.0,33.4,33.7,33.7,2.2,3.6,2.535,0.8052948633301559,-0.010402090914633675,0.5798559906372552,0.007147564356951001,-0.066816,-37.978083
11.185,2.0,1.0,1.0,33.4,33.7,33.7,2.2,3.6,2.5375,0.801070648431482,-0.010612816999746352,0.5855369583433094,0.007167839057039046,-0.067544,-37.851302
11.185,2.0,1.0,1.0,33.4,33.7,33.7,2.2,3.6,2.54,0.7967839759540934,-0.010827578868322385,0.5912146606947201,0.007186768722923305,-0.068286,-37.724061
11.185,2.0,1.0,1.0,33.4,33.7,33.7,2.2,3.6,2.5425,0.7924341315971547,-0.011046465503576826,0.596888725647846,0.007204291904272055,-0.069043,-37.596349
11.185,2.0,1.0,1.0,33.4,33.7,33.7,2.2,3.6,2.545,0.7880203887556487,-0.011269568272646016,0.6025587687312608,0.0072203446071259225,-0.069814,-37.468158
11.185,2.0,1.0,1.0,33.4,33.7,33.7,2.2,3.6,2.5475,0.7835420082965899,-0.01149698100063064,0.6082243926077201,0.0072348601792948525,-0.070601,-37.339477
11.185,2.0,1.0,1.0,33.4,33.7,33.7,2.2,3.6,2.55,0.7789982383314463,-0.011728800047202937,0.6138851866197249,0.007247769190011914,-0.071403,-37.210295
11.185,2.0,1.0,1.0,33.4,33.7,33.7,2.2,3.6,2.5525,0.7743883139847526,-0.011965124385871342,0.6195407263179566,0.007258999303522544,-0.072221,-37.080603
11.185,2.0,1.0,1.0,33.4,33.7,33.7,2.2,3.6,2.555,0.7697114571588785,-0.012206055686001768,0.6251905729718937,0.007268475146267339,-0.073056,-36.95039
11.185,2.0,1.0,1.0,33.4,33.7,33.7,2.2,3.6,2.5575,0.7649668762949251,-0.012451698397696553,0.6308342730618272,0.007276118167294992,-0.073907,-36.819645
11.185,2.0,1.0,1.0,33.4,33.7,33.7,2.2,3.6,2.56,0.7601537661297354,-0.012702159839635772,0.636471357751478,0.007281846491519356,-0.074776,-36.688357
11.185,2.0,1.0,1.0,33.4,33.7,33.7,2.2,3.6,2.5625,0.7552713074489998,-0.012957550289989872,0.6421013423403905,0.0072855747654094844,-0.075663,-36.556515
11.185,2.0,1.0,1.0,33.4,33.7,33.7,2.2,3.6,2.565,0.750318666836433,-0.013217983080515706,0.6477237256952044,0.007287213994675543,-0.076568,-36.424109
11.185,2.0,1.0,1.0,33.4,33.7,33.7,2.2,3.6,2.5675,0.7452949964190281,-0.013483574693951866,0.6533379896588944,0.007286671373485018,-0.077492,-36.291126
11.185,2.0,1.0,1.0,33.4,33.7,33.7,2.2,3.6,2.57,0.7401994336083734,-0.01375444486483325,0.6589435984369961,0.007283850104713478,-0.078435,-36.157555
11.185,2.0,1.0,1.0,33.4,33.7,33.7,2.2,3.6,2.5725,0.7350311008380331,-0.014030716683848301,0.6645399979597983,0.007278649210701514,-0.079398,-36.023385
11.185,2.0,1.0,1.0,33.4,33.7,33.7,2.2,3.6,2.575,0.7297891052970058,-0.014312516705866063,0.6701266152194333,0.007270963333955129,-0.080381,-35.888602
11.185,2.0,1.0,1.0,33.4,33.7,33.7,2.2,3.6,2.5775,0.7244725386592645,-0.014599975061764326,0.6757028575807175,0.007260682527188813,-0.081385,-35.753196
11.185,2.0,1.0,1.0,33.4,33.7,33.7,2.2,3.6,2.58,0.7190804768094149,-0.014893225574193682,0.6812681120645654,0.0072476920320708755,-0.082411,-35.617153
11.185,2.0,1.0,1.0,33.4,33.7,33.7,2.2,3.6,2.5825,0.7136119795644784,-0.015192405877415936,0.6868217446027083,0.007231872045987307,-0.08346,-35.480461
11.185,2.0,1.0,1.0,33.4,33.7,33.7,2.2,3.6,2.585,0.7080660903918652,-0.01549765754135903,0.6923630992624091,0.007213097476094482,-0.084531,-35.343106
11.185,2.0,1.0,1.0,33.4,33.7,33.7,2.2,3.6,2.5875,0.7024418361235546,-0.015809126200034405,0.6978914974397619,0.00719123767988026,-0.085626,-35.205077
11.185,2.0,1.0,1.0,33.4,33.7,33.7,2.2,3.6,2.59,0.6967382266665707,-0.01612696168446509,0.7034062370201105,0.007166156191400554,-0.086745,-35.066358
11.185,2.0,1.0,1.0,33.4,33.7,33.7,2.2,3.6,2.5925,0.6909542547097985,-0.016451318160277503,0.708906591504038,0.0071377104322999365,-0.087888,-34.926937
11.185,2.0,1.0,1.0,33.4,33.7,33.7,2.2,3.6,2.595,0.6850888954272449,-0.01678235427011034,0.7143918090972693,0.007105751406662924,-0.089058,-34.7868
11.185,2.0,1.0,1.0,33.4,33.7,33.7,2.2,3.6,2.5975,0.6791411061778195,-0.017120233280999552,0.7198611117627642,0.0070701233786756934,-0.090254,-34.645932
11.185,2.0,1.0,1.0,33.4,33.7,33.7,2.2,3.6,2.6,0.673109826201764,-0.017465123236897636,0.725313694233166,0.007030663532005489,-0.091478,-34.504318
11.185,2.0,1.0,1.0,33.4,33.7,33.7,2.2,3.6,2.6025,0.6669939763138563,-0.01781719711648808,0.7307487229816558,0.006987201609727427,-0.092729,-34.361945
11.185,2.0,1.0,1.0,33.4,33.7,33.7,2.2,3.6,2.605,0.6607924585935302,-0.01817663299645776,0.7361653351491667,0.006939559533543703,-0.09401,-34.218796
11.185,2.0,1.0,1.0,33.4,33.7,33.7,2.2,3.6,2.6075,0.6545041560720871,-0.018543614220388277,0.7415626374257761,0.0068875510009500296,-0.09532,-34.074857
11.185,2.0,1.0,1.0,33.4,33.7,33.7,2.2,3.6,2.61,0.6481279324171907,-0.018918329573428188,0.7469397048839715,0.00683098105890559,-0.096661,-33.930112
11.185,2.0,1.0,1.0,33.4,33.7,33.7,2.2,3.6,2.6125,0.6416626316148571,-0.019300973462905564,0.7522955797613384,0.006769645652456578,-0.098035,-33.784543
11.185,2.0,1.0,1.0,33.4,33.7,33.7,2.2,3.6,2.615,0.6351070776491846,-0.01969174610503822,0.7576292701900861,0.006703331146648767,-0.099441,-33.638136
11.185,2.0,1.0,1.0,33.4,33.7,33.7,2.2,3.6,2.6175,0.6284600741801037,-0.020090853717893986,0.7629397488706396,0.006631813819940074,-0.10088,-33.490873
11.185,2.0,1.0,1.0,33.4,33.7,33.7,2.2,3.6,2.62,0.6217204042194505,-0.020498508720747207,0.7682259516863732,0.00655485932718992,-0.102355,-33.342736
11.185,2.0,1.0,1.0,33.4,33.7,33.7,2.2,3.6,2.6225,0.6148868298057051,-0.02091492993997212,0.7734867762563802,0.006472222130155125,-0.103866,-33.193709
11.185,2.0,1.0,1.0,33.4,33.7,33.7,2.2,3.6,2.625,0.607958091677794,-0.0213403428216,0.77872108042294,0.00638364489326544,-0.105415,-33.043772
11.185,2.0,1.0,1.0,33.4,33.7,33.7,2.2,3.6,2.6275,0.6009329089483738,-0.021774979650658718,0.7839276806701777,0.0062888578422786254,-0.107002,-32.892909
11.185,2.0,1.0,1.0,33.4,33.7,33.7,2.2,3.6,2.63,0.5938099787770851,-0.0222190797773944,0.7891053504701375,0.006187578083229332,-0.108629,-32.741099
11.185,2.0,1.0,1.0,33.4,33.7,33.7,2.2,3.6,2.6325,0.5865879760443118,-0.022672889850458382,0.7942528185522626,0.006079508878883444,-0.110297,-32.588324
11.185,2.0,1.0,1.0,33.4,33.7,33.7,2.2,3.6,2.635,0.5792655530260478,-0.023136664057118263,0.7993687670919987,0.005964338879688787,-0.112008,-32.434563
11.185,2.0,1.0,1.0,33.4,33.7,33.7,2.2,3.6,2.6375,0.5718413390705425,-0.023610664370525374,0.8044518298139467,0.005841741305974193,-0.113763,-32.279796
11.185,2.0,1.0,1.0,33.4,33.7,33.7,2.2,3.6,2.64,0.5643139402774512,-0.02409516080403868,0.8095005900046756,0.005711373077887444,-0.115564,-32.124003
11.185,2.0,1.0,1.0,33.4,33.7,33.7,2.2,3.6,2.6425,0.5566819391803451,-0.024590431672565173,0.8145135784299683,0.005572873889278891,-0.117412,-31.967162
11.185,2.0,1.0,1.0,33.4,33.7,33.7,2.2,3.6,2.645,0.5489438944334821,-0.025096763860832684,0.8194892711508922,0.005425865221427522,-0.119309,-31.809251
11.185,2.0,1.0,1.0,33.4,33.7,33.7,2.2,3.6,2.6475,0.5410983405038878,-0.02561445309845635,0.824426087232704,0.005269949292168829,-0.121257,-31.650248
11.185,2.0,1.0,1.0,33.4,33.7,33.7,2.2,3.6,2.65,0.5331437873698649,-0.02614380424159829,0.8293223863401457,0.005104707935614096,-0.123257,-31.49013
11.185,2.0,1.0,1.0,33.4,33.7,33.7,2.2,3.6,2.6525,0.5250787202272489,-0.026685131560944306,0.8341764662122263,0.004929701407249323,-0.125313,-31.328873
11.185,2.0,1.0,1.0,33.4,33.7,33.7,2.2,3.6,2.655,0.5169015992047983,-0.02723875903563912,0.8389865600090727,0.004744467108759876,-0.127424,-31.166453
11.185,2.0,1.0,1.0,33.4,33.7,33.7,2.2,3.6,2.6575,0.5086108590903312,-0.027805020652718476,0.8437508335228625,0.004548518226446827,-0.129595,-31.002844
11.185,2.0,1.0,1.0,33.4,33.7,33.7,2.2,3.6,2.66,0.5002049090693788,-0.028384260711463122,0.8484673822442644,0.004341342276572396,-0.131827,-30.838022
11.185,2.0,1.0,1.0,33.4,33.7,33.7,2.2,3.6,2.6625,0.4916821324783424,-0.028976834131962628,0.8531342282751193,0.004122399550395361,-0.134122,-30.67196
11.185,2.0,1.0,1.0,33.4,33.7,33.7,2.2,3.6,2.665,0.48304088657436495,-0.029583106767023703,0.8577493170774128,0.0038911214510227244,-0.136483,-30.504631
11.185,2.0,1.0,1.0,33.4,33.7,33.7,2.2,3.6,2.6675,0.47427950232440813,-0.030203455716373753,0.8623105140477488,0.0036469087135106346,-0.138912,-30.336007
11.185,2.0,1.0,1.0,33.4,33.7,33.7,2.2,3.6,2.67,0.4653962842163095,-0.030838269641903535,0.8668156009057313,0.0033891294988837193,-0.141412,-30.16606
11.185,2.0,1.0,1.0,33.4,33.7,33.7,2.2,3.6,2.6725,0.45638951009492595,-0.03148794908244982,0.871262271883664,0.0031171173519039734,-0.143987,-29.99476
11.185,2.0,1.0,1.0,33.4,33.7,33.7,2.2,3.6,2.675,0.4472574310268693,-0.03215290676633772,0.875648129703972,0.002830169011499986,-0.146639,-29.822076
11.185,2.0,1.0,1.0,33.4,33.7,33.7,2.2,3.6,2.6775,0.4379982711977496,-0.032833567919580336,0.8799706813296229,0.0025275420617517615,-0.149371,-29.647978
11.185,2.0,1.0,1.0,33.4,33.7,33.7,2.2,3.6,2.68,0.4286102278463239,-0.03353037056725794,0.8842273334715576,0.002208452410211049,-0.152186,-29.472434
11.185,2.0,1.0,1.0,33.4,33.7,33.7,2.2,3.6,2.6825,0.4190914712405308,-0.034243765825166306,0.8884153878357982,0.0018720715791057292,-0.155089,-29.295409
11.185,2.0,1.0,1.0,33.4,33.7,33.7,2.2,3.6,2.685,0.4094401447009743,-0.03497421817832467,0.8925320360914007,0.0015175237936199475,-0.158083,-29.116871
11.185,2.0,1.0,1.0,33.4,33.7,33.7,2.2,3.6,2.6875,0.39965436467816223,-0.0357222057423547,0.8965743545387543,0.0011438828499434886,-0.161171,-28.936784
11.185,2.0,1.0,1.0,33.4,33.7,33.7,2.2,3.6,2.69,0.38973222089061765,-0.036488220503073814,0.9005392984559378,0.0007501687441293379,-0.164358,-28.755111
11.185,2.0,1.0,1.0,33.4,33.7,33.7,2.2,3.6,2.6925,0.3796717765318756,-0.03727276852887445,0.9044236960988226,0.00033534404096845357,-0.167649,-28.571815
11.185,2.0,1.0,1.0,33.4,33.7,33.7,2.2,3.6,2.695,0.3694710685554902,-0.038076370149563825,0.9082242423284178,-0.00010169003993194356,-0.171049,-28.386858
11.185,2.0,1.0,1.0,33.4,33.7,33.7,2.2,3.6,2.6975,0.3591281080483127,-0.038899560094307964,0.9119374918365174,-0.0005620978459223823,-0.174561,-28.200199
11.185,2.0,1.0,1.0,33.4,33.7,33.7,2.2,3.6,2.7,0.34864088070376564,-0.03974288758012008,0.9155598519380083,-0.0010471138484744072,-0.178191,-28.011798
11.185,2.0,1.0,1.0,33.4,33.7,33.7,2.2,3.6,2.7025,0.3380073474083575,-0.04060691634094896,0.9190875748952321,-0.0015580475660242976,-0.181946,-27.821611
11.185,2.0,1.0,1.0,33.4,33.7,33.7,2.2,3.6,2.705,0.32722544495655204,-0.04149222458580998,0.9225167497364977,-0.002096288885842115,-0.18583,-27.629594
11.185,2.0,1.0,1.0,33.4,33.7,33.7,2.2,3.6,2.7075,0.31629308691117786,-0.04239940487253377,0.9258432935271835,-0.0026633138216642037,-0.18985,-27.435703
11.185,2.0,1.0,1.0,33.4,33.7,33.7,2.2,3.6,2.71,0.3052081646289939,-0.043329063881537795,0.9290629420478317,-0.003260690747595159,-0.194013,-27.239888
11.185,2.0,1.0,1.0,33.4,33.7,33.7,2.2,3.6,2.7125,0.2939685484737924,-0.044281822071506,0.9321712398291455,-0.0038900871529795994,-0.198326,-27.042103
11.185,2.0,1.0,1.0,33.4,33.7,33.7,2.2,3.6,2.715,0.2825720892426597,-0.045258313195928025,0.9351635294888136,-0.004553276967606047,-0.202797,-26.842296
11.185,2.0,1.0,1.0,33.4,33.7,33.7,2.2,3.6,2.7175,0.27101661983470726,-0.04625918365603768,0.9380349403095375,-0.005252148511800858,-0.207433,-26.640415
11.185,2.0,1.0,1.0,33.4,33.7,33.7,2.2,3.6,2.72,0.25929995719591964,-0.047285091661710126,0.9407803759914901,-0.005988713131755154,-0.212243,-26.436405
11.185,2.0,1.0,1.0,33.4,33.7,33.7,2.2,3.6,2.7225,0.24741990457872332,-0.048336706167242414,0.9433945015055775,-0.0067651145868806075,-0.217237,-26.230211
11.185,2.0,1.0,1.0,33.4,33.7,33.7,2.2,3.6,2.725,0.2353742541607308,-0.04941470554351756,0.9458717289662145,-0.007583639263180339,-0.222424,-26.021773
11.185,2.0,1.0,1.0,33.4,33.7,33.7,2.2,3.6,2.7275,0.2231607900737989,-0.05051977594172743,0.948206202433866,-0.008446727294655046,-0.227815,-25.811032
11.185,2.0,1.0,1.0,33.4,33.7,33.7,2.2,3.6,2.73,0.21077729190247016,-0.05165260929640937,0.95039178154808,-0.009356984683718355,-0.233421,-25.597925
11.185,2.0,1.0,1.0,33.4,33.7,33.7,2.2,3.6,2.7325,0.1982215387199675,-0.0528139009068747,0.9524220238812023,-0.010317196521607635,-0.239255,-25.382385
11.185,2.0,1.0,1.0,33.4,33.7,33.7,2.2,3.6,2.735,0.18549131374070568,-0.05400434652591179,0.9542901658911471,-0.01133034142094535,-0.245329,-25.164347
11.185,2.0,1.0,1.0,33.4,33.7,33.7,2.2,3.6,2.7375,0.17258440968075753,-0.055224638872681066,0.9559891023384653,-0.012399607285089808,-0.251658,-24.943738
11.185,2.0,1.0,1.0,33.4,33.7,33.7,2.2,3.6,2.74,0.15949863493248992,-0.05647546347263813,0.9575113640182623,-0.013528408552849569,-0.258256,-24.720486
11.185,2.0,1.0,1.0,33.4,33.7,33.7,2.2,3.6,2.7425,0.14623182067679671,-0.057757493710738024,0.9588490936411569,-0.014720405072700069,-0.265141,-24.494514
11.185,2.0,1.0,1.0,33.4,33.7,33.7,2.2,3.6,2.745,0.13278182907672723,-0.05907138496461194,0.9599940196792207,-0.015979522778008695,-0.272329,-24.265744
11.185,2.0,1.0,1.0,33.4,33.7,33.7,2.2,3.6,2.7475,0.11914656272021192,-0.06041776766129898,0.9609374279724794,-0.01730997635414681,-0.27984,-24.034093
11.185,2.0,1.0,1.0,33.4,33.7,33.7,2.2,3.6,2.75,0.105323975507848,-0.0617972390737808,0.961670130868909,-0.0187162941099537,-0.287694,-23.799474
11.185,2.0,1.0,1.0,33.4,33.7,33.7,2.2,3.6,2.7525,0.0913120852151152,-0.06321035364117625,0.962182433645657,-0.020203345290036655,-0.295913,-23.561799
11.185,2.0,1.0,1.0,33.4,33.7,33.7,2.2,3.6,2.755,0.07710898799794388,-0.0646576115580211,0.9624640979312185,-0.021776370091075508,-0.304523,-23.320974
11.185,2.0,1.0,1.0,33.4,33.7,33.7,2.2,3.6,2.7575,0.06271287515744033,-0.06613944533238067,0.9625043018172668,-0.023441012674878046,-0.313548,-23.076901
11.185,2.0,1.0,1.0,33.4,33.7,33.7,2.2,3.6,2.76,0.04812205253540084,-0.06765620395816571,0.9622915963145625,-0.025203357503609036,-0.323019,-22.82948
11.185,2.0,1.0,1.0,33.4,33.7,33.7,2.2,3.6,2.7625,0.03333496297855739,-0.06920813428219526,0.9618138577695726,-0.027069969358602487,-0.332966,-22.578604
11.185,2.0,1.0,1.0,33.4,33.7,33.7,2.2,3.6,2.765,0.018350212388701458,-0.07079535906912093,0.9610582358170212,-0.029047937443577043,-0.343423,-22.324163
11.185,2.0,1.0,1.0,33.4,33.7,33.7,2.2,3.6,2.7675,0.0031665999703947667,-0.07241785117471627,0.9600110963984637,-0.031144924015982664,-0.354428,-22.066042
11.185,2.0,1.0,1.0,33.4,33.7,33.7,2.2,3.6,2.77,-0.012216846598860145,-0.0740754031270697,0.9586579593281479,-0.033369218036529,-0.366021,-21.80412
11.185,2.0,1.0,1.0,33.4,33.7,33.7,2.2,3.6,2.7725,-0.027800830215396616,-0.0757675912820497,0.956983429835157,-0.035729794376400136,-0.378248,-21.538271
11.185,2.0,1.0,1.0,33.4,33.7,33.7,2.2,3.6,2.775,-0.04358573658959135,-0.07749373355934557,0.95497112345567,-0.03823637917368968,-0.391158,-21.268364
11.185,2.0,1.0,1.0,33.4,33.7,33.7,2.2,3.6,2.7775,-0.05957157845993984,-0.07925283957268113,0.9526035835920101,-0.04089952198419756,-0.404805,-20.994262
11.185,2.0,1.0,1.0,33.4,33.7,33.7,2.2,3.6,2.78,-0.07575793032529567,-0.0810435517354539,0.9498621909975864,-0.04373067542531892,-0.419249,-20.715822
11.185,2.0,1.0,1.0,33.4,33.7,33.7,2.2,3.6,2.7825,-0.09214385195449584,-0.08286407564249947,0.9467270643911833,-0.04674228306287704,-0.434557,-20.432892
11.185,2.0,1.0,1.0,33.4,33.7,33.7,2.2,3.6,2.785,-0.10872779858826631,-0.08471209768947306,0.9431769513540061,-0.04994787633577243,-0.450803,-20.145318
11.185,2.0,1.0,1.0,33.4,33.7,33.7,2.2,3.6,2.7875,-0.12550751533140705,-0.0865846874806814,0.9391891086235702,-0.053362181346874,-0.468067,-19.852934
11.185,2.0,1.0,1.0,33.4,33.7,33.7,2.2,3.6,2.79,-0.14247991272841673,-0.08847818207853599,0.9347391708776158,-0.05700123636306043,-0.486441,-19.555571
11.185,2.0,1.0,1.0,33.4,33.7,33.7,2.2,3.6,2.7925,-0.15964091990332732,-0.0903880485441307,0.9298010071095372,-0.06088252085176791,-0.506026,-19.253049
11.185,2.0,1.0,1.0,33.4,33.7,33.7,2.2,3.6,2.795,-0.1769853109015533,-0.09230872048577511,0.9243465637495801,-0.065025096820495,-0.526936,-18.945183
11.185,2.0,1.0,1.0,33.4,33.7,33.7,2.2,3.6,2.7975,-0.19450649896943742,-0.09423340344276199,0.9183456938049105,-0.06944976309780909,-0.549297,-18.631779
11.185,2.0,1.0,1.0,33.4,33.7,33.7,2.2,3.6,2.8,-0.21219629241229546,-0.09615384285179795,0.911765971506537,-0.07417922296945861,-0.573252,-18.312634
11.185,2.0,1.0,1.0,33.4,33.7,33.7,2.2,3.6,2.8025,-0.23004460434323074,-0.0980600470334632,0.9045724923039652,-0.07923826521925725,-0.598961,-17.987538
11.185,2.0,1.0,1.0,33.4,33.7,33.7,2.2,3.6,2.805,-0.24803910702529552,-0.09993995604886495,0.8967276585974387,-0.08465395806347492,-0.626607,-17.656273
11.185,2.0,1.0,1.0,33.4,33.7,33.7,2.2,3.6,2.8075,-0.26616481956323806,-0.1017790453579126,0.8881909524230918,-0.09045585462927601,-0.656395,-17.318613
11.185,2.0,1.0,1.0,33.4,33.7,33.7,2.2,3.6,2.81,-0.28440361535534603,-0.10355985089896065,0.8789186975193751,-0.09667620740160912,-0.688558,-16.974325
11.185,2.0,1.0,1.0,33.4,33.7,33.7,2.2,3.6,2.8125,-0.302733632902436,-0.105261399438157,0.868863814956541,-0.103350187296622,-0.723361,-16.623167
11.185,2.0,1.0,1.0,33.4,33.7,33.7,2.2,3.6,2.815,-0.3211285702198742,-0.106858524737671,0.857975579014572,-0.11051610050436679,-0.761109,-16.264894
11.185,2.0,1.0,1.0,33.4,33.7,33.7,2.2,3.6,2.8175,-0.3395568391457057,-0.10832104620368349,0.8461993835359406,-0.11821559269364569,-0.802149,-15.899254
11.185,2.0,1.0,1.0,33.4,33.7,33.7,2.2,3.6,2.82,-0.3579805512407039,-0.10961278215766025,0.8334765339491946,-0.12649382519856503,-0.846882,-15.525993
11.185,2.0,1.0,1.0,33.4,33.7,33.7,2.2,3.6,2.8225,-0.37635430173748885,-0.11069036473469365,0.8197440870879749,-0.13539960088302536,-0.895768,-15.144857
11.185,2.0,1.0,1.0,33.4,33.7,33.7,2.2,3.6,2.825,-0.3946237122076445,-0.11150181774647479,0.8049347705314742,-0.1449854077977997,-0.949342,-14.755594
11.185,2.0,1.0,1.0,33.4,33.7,33.7,2.2,3.6,2.8275,-0.41272368652781427,-0.11198485290816478,0.7889770264177862,-0.15530733556200374,-1.008223,-14.35796
