1,w,sub_t,h,l1,l2,l3,g1,g2,Freq,S11_re,S21_re,S11_img,S21_img,S11_dB,S21_dB
11.185,2.0,1.0,1.0,33.8,33.9,33.9,3.2,2.5,2.5,0.810758540777436,-0.00943864816636691,0.573536496397425,0.00683986947287011,-0.060026,-38.668704
11.185,2.0,1.0,1.0,33.8,33.9,33.9,3.2,2.5,2.5025,0.8066495867321963,-0.009625280661061041,0.5791833198732377,0.006860168154066568,-0.060628,-38.547789
11.185,2.0,1.0,1.0,33.8,33.9,33.9,3.2,2.5,2.505,0.8024816271840636,-0.009815315989091508,0.5848255938028398,0.0068793373563629705,-0.061241,-38.426469
11.185,2.0,1.0,1.0,33.8,33.9,33.9,3.2,2.5,2.5075,0.7982540614811531,-0.010008825594541724,0.5904629597697981,0.006897328750464485,-0.061865,-38.304733
11.185,2.0,1.0,1.0,33.8,33.9,33.9,3.2,2.5,2.51,0.7939662797920016,-0.01020588280592273,0.5960950486434864,0.006914092130001884,-0.062501,-38.182572
11.185,2.0,1.0,1.0,33.8,33.9,33.9,3.2,2.5,2.5125,0.7896176629703001,-0.01040656289641335,0.601721480236592,0.006929575330941935,-0.063148,-38.059978
11.185,2.0,1.0,1.0,33.8,33.9,33.9,3.2,2.5,2.515,0.785207582418201,-0.010610943146392734,0.6073418629511577,0.0069437241470867,-0.063808,-37.936939
11.185,2.0,1.0,1.0,33.8,33.9,33.9,3.2,2.5,2.5175,0.7807353999482247,-0.0108191029083682,0.6129557934127101,0.006956482241445904,-0.06448,-37.813447
11.185,2.0,1.0,1.0,33.8,33.9,33.9,3.2,2.5,2.52,0.7762004676437674,-0.0110311236744058,0.6185628560920448,0.0069677910532517,-0.065165,-37.689491
11.185,2.0,1.0,1.0,33.8,33.9,33.9,3.2,2.5,2.5225,0.7716021277182429,-0.011247089146176737,0.6241626229141641,0.00697758970037232,-0.065863,-37.565061
11.185,2.0,1.0,1.0,33.8,33.9,33.9,3.2,2.5,2.525,0.7669397123728626,-0.01146708530773954,0.6297546528539016,0.00698581487686352,-0.066575,-37.440147
11.185,2.0,1.0,1.0,33.8,33.9,33.9,3.2,2.5,2.5275,0.7622125436530764,-0.01169120050118314,0.6353384915177005,0.006992400745382336,-0.0673,-37.314739
11.185,2.0,1.0,1.0,33.8,33.9,33.9,3.2,2.5,2.53,0.7574199333037029,-0.011919525505262778,0.6409136707110055,0.0069972788241670775,-0.06804,-37.188825
11.185,2.0,1.0,1.0,33.8,33.9,33.9,3.2,2.5,2.5325,0.7525611826227626,-0.012152153617167863,0.6464797079907034,0.007000377868270546,-0.068794,-37.062395
11.185,2.0,1.0,1.0,33.8,33.9,33.9,3.2,2.5,2.535,0.7476355823140409,-0.012389180737569002,0.6520361062020154,0.007001623744711637,-0.069563,-36.935438
11.185,2.0,1.0,1.0,33.8,33.9,33.9,3.2,2.5,2.5375,0.742642412338413,-0.012630705459096904,0.6575823529992164,0.007000939301187822,-0.070348,-36.807942
11.185,2.0,1.0,1.0,33.8,33.9,33.9,3.2,2.5,2.54,0.7375809417639483,-0.012876829158417338,0.6631179203495279,0.006998244227968678,-0.071148,-36.679897
11.185,2.0,1.0,1.0,33.8,33.9,33.9,3.2,2.5,2.5425,0.7324504286148297,-0.013127656092072735,0.6686422640194984,0.006993454912563201,-0.071964,-36.55129
11.185,2.0,1.0,1.0,33.8,33.9,33.9,3.2,2.5,2.545,0.7272501197191135,-0.013383293496271065,0.6741548230431486,0.006986484286727285,-0.072797,-36.422109
11.185,2.0,1.0,1.0,33.8,33.9,33.9,3.2,2.5,2.5475,0.72197925055537,-0.013643851690812525,0.6796550191711158,0.006977241665346964,-0.073648,-36.292342
11.185,2.0,1.0,1.0,33.8,33.9,33.9,3.2,2.5,2.55,0.7166370450982247,-0.013909444187355628,0.6851422563000173,0.006965632576702113,-0.074515,-36.161978
11.185,2.0,1.0,1.0,33.8,33.9,33.9,3.2,2.5,2.5525,0.7112227156628503,-0.014180187802233306,0.6906159198811658,0.006951558583579214,-0.075401,-36.031003
11.185,2.0,1.0,1.0,33.8,33.9,33.9,3.2,2.5,2.555,0.7057354627484336,-0.014456202774044411,0.6960753763077739,0.006934917094665702,-0.076305,-35.899404
11.185,2.0,1.0,1.0,33.8,33.9,33.9,3.2,2.5,2.5575,0.700174474880654,-0.014737612886255651,0.701519972279711,0.0069156011656176675,-0.077229,-35.767168
11.185,2.0,1.0,1.0,33.8,33.9,33.9,3.2,2.5,2.56,0.6945389284532214,-0.015024545595063594,0.7069490341448164,0.006893499289148968,-0.078172,-35.634282
11.185,2.0,1.0,1.0,33.8,33.9,33.9,3.2,2.5,2.5625,0.6888279875685034,-0.015317132162780363,0.7123618672157432,0.006868495173442977,-0.079135,-35.500732
11.185,2.0,1.0,1.0,33.8,33.9,33.9,3.2,2.5,2.565,0.6830408038772792,-0.015615507797020827,0.7177577550612312,0.0068404675081373675,-0.080119,-35.366505
11.185,2.0,1.0,1.0,33.8,33.9,33.9,3.2,2.5,2.5675,0.6771765164176714,-0.01591981179598488,0.7231359587706413,0.006809289717076989,-0.081125,-35.231585
11.185,2.0,1.0,1.0,33.8,33.9,33.9,3.2,2.5,2.57,0.6712342514532852,-0.016230187700146087,0.7284957161905357,0.006774829696970676,-0.082153,-35.095958
11.185,2.0,1.0,1.0,33.8,33.9,33.9,3.2,2.5,2.5725,0.6652131223105956,-0.016546783450673824,0.7338362411319921,0.006736949541022309,-0.083203,-34.959609
11.185,2.0,1.0,1.0,33.8,33.9,33.9,3.2,2.5,2.575,0.6591122292156284,-0.01686975155493619,0.7391567225472839,0.006695505246537666,-0.084277,-34.822523
11.185,2.0,1.0,1.0,33.8,33.9,33.9,3.2,2.5,2.5775,0.6529306591299682,-0.017199249259450426,0.7444563236744478,0.006650346405431229,-0.085375,-34.684684
11.185,2.0,1.0,1.0,33.8,33.9,33.9,3.2,2.5,2.58,0.6466674855861377,-0.01753543873066747,0.7497341811482003,0.006601315876475054,-0.086498,-34.546075
11.185,2.0,1.0,1.0,33.8,33.9,33.9,3.2,2.5,2.5825,0.640321768522378,-0.017878487244001658,0.7549894040755442,0.006548249438042115,-0.087646,-34.406682
11.185,2.0,1.0,1.0,33.8,33.9,33.9,3.2,2.5,2.585,0.6338925541168718,-0.018228567381537355,0.7602210730743029,0.006490975419998442,-0.088821,-34.266486
11.185,2.0,1.0,1.0,33.8,33.9,33.9,3.2,2.5,2.5875,0.627378874621437,-0.018585857238872034,0.7654282392727242,0.006429314313292067,-0.090024,-34.12547
11.185,2.0,1.0,1.0,33.8,33.9,33.9,3.2,2.5,2.59,0.6207797481947284,-0.018950540641578476,0.77060992326814,0.006363078355671444,-0.091254,-33.983617
11.185,2.0,1.0,1.0,33.8,33.9,33.9,3.2,2.5,2.5925,0.6140941787349632,-0.019322807371800116,0.775765114042566,0.006292071091839,-0.092514,-33.840909
11.185,2.0,1.0,1.0,33.8,33.9,33.9,3.2,2.5,2.595,0.6073211557122155,-0.019702853405518823,0.7808927678329511,0.006216086906207929,-0.093804,-33.697327
11.185,2.0,1.0,1.0,33.8,33.9,33.9,3.2,2.5,2.5975,0.6004596540002742,-0.02009088116106944,0.7859918069536584,0.006134910526280378,-0.095124,-33.552851
11.185,2.0,1.0,1.0,33.8,33.9,33.9,3.2,2.5,2.6,0.5935086337080954,-0.020487099759504673,0.7910611185685543,0.006048316494499775,-0.096477,-33.407463
11.185,2.0,1.0,1.0,33.8,33.9,33.9,3.2,2.5,2.6025,0.5864670400108605,-0.02089172529745017,0.7960995534099198,0.005956068606251248,-0.097864,-33.261142
11.185,2.0,1.0,1.0,33.8,33.9,33.9,3.2,2.5,2.605,0.5793338029806321,-0.021304981133125196,0.8011059244411848,0.005857919311486289,-0.099284,-33.113867
11.185,2.0,1.0,1.0,33.8,33.9,33.9,3.2,2.5,2.6075,0.5721078374166155,-0.02172709818624161,0.8060790054602557,0.005753609077233005,-0.10074,-32.965617
11.185,2.0,1.0,1.0,33.8,33.9,33.9,3.2,2.5,2.61,0.5647880426750166,-0.022158315252534574,0.8110175296399765,0.005642865708016257,-0.102233,-32.816371
11.185,2.0,1.0,1.0,33.8,33.9,33.9,3.2,2.5,2.6125,0.5573733024984727,-0.022598879333718645,0.8159201880019842,0.005525403620952652,-0.103763,-32.666106
11.185,2.0,1.0,1.0,33.8,33.9,33.9,3.2,2.5,2.615,0.549862484845031,-0.02304904598370767,0.820785627819942,0.00540092307200055,-0.105334,-32.514798
11.185,2.0,1.0,1.0,33.8,33.9,33.9,3.2,2.5,2.6175,0.5422544417166518,-0.023509079671979603,0.8256124509477895,0.005269109329531097,-0.106945,-32.362424
11.185,2.0,1.0,1.0,33.8,33.9,33.9,3.2,2.5,2.62,0.534548008987183,-0.023979254165016044,0.8303992120683195,0.00512963179104243,-0.108598,-32.20896
11.185,2.0,1.0,1.0,33.8,33.9,33.9,3.2,2.5,2.6225,0.5267420062297555,-0.024459852926793823,0.8351444168570054,0.004982143038458449,-0.110295,-32.05438
11.185,2.0,1.0,1.0,33.8,33.9,33.9,3.2,2.5,2.625,0.518835236543554,-0.0249511695393523,0.839846520055546,0.00482627782703481,-0.112038,-31.898658
11.185,2.0,1.0,1.0,33.8,33.9,33.9,3.2,2.5,2.6275,0.5108264863798746,-0.02545350814451574,0.8445039234491679,0.004661652002433053,-0.113828,-31.741767
11.185,2.0,1.0,1.0,33.8,33.9,33.9,3.2,2.5,2.63,0.5027145253674093,-0.025967183907895097,0.8491149737411844,0.004487861340011942,-0.115667,-31.583681
11.185,2.0,1.0,1.0,33.8,33.9,33.9,3.2,2.5,2.6325,0.49449810613667106,-0.02649252350634803,0.8536779603177401,0.004304480299821324,-0.117558,-31.424369
11.185,2.0,1.0,1.0,33.8,33.9,33.9,3.2,2.5,2.635,0.4861759641434751,-0.027029865640125432,0.8581911128950435,0.004111060690157983,-0.119501,-31.263804
11.185,2.0,1.0,1.0,33.8,33.9,33.9,3.2,2.5,2.6375,0.47774681749139625,-0.02757956157097934,0.8626525990406916,0.003907130231850137,-0.121499,-31.101954
11.185,2.0,1.0,1.0,33.8,33.9,33.9,3.2,2.5,2.64,0.46920936675310626,-0.028141975687559592,0.8670605215599158,0.003692191014668404,-0.123555,-30.938789
11.185,2.0,1.0,1.0,33.8,33.9,33.9,3.2,2.5,2.6425,0.46056229479052957,-0.028717486099461953,0.8714129157367122,0.0034657178364076685,-0.12567,-30.774275
11.185,2.0,1.0,1.0,33.8,33.9,33.9,3.2,2.5,2.645,0.45180426657375045,-0.029306485261335505,0.8757077464188786,0.003227156414234535,-0.127847,-30.60838
11.185,2.0,1.0,1.0,33.8,33.9,33.9,3.2,2.5,2.6475,0.44293392899863593,-0.029909380628483508,0.8799429049348969,0.0029759214568395526,-0.130089,-30.441069
11.185,2.0,1.0,1.0,33.8,33.9,33.9,3.2,2.5,2.65,0.4339499107031568,-0.0305265953454178,0.8841162058294398,0.0027113945847545076,-0.132399,-30.272305
11.185,2.0,1.0,1.0,33.8,33.9,33.9,3.2,2.5,2.6525,0.42485082188247925,-0.031158568968831343,0.8882253834029424,0.002432922084883869,-0.134779,-30.102052
11.185,2.0,1.0,1.0,33.8,33.9,33.9,3.2,2.5,2.655,0.4156352541029008,-0.031805758226453186,0.892268088039208,0.0021398124838299328,-0.137233,-29.930272
11.185,2.0,1.0,1.0,33.8,33.9,33.9,3.2,2.5,2.6575,0.406301780114842,-0.032468637813221034,0.8962418823033856,0.0018313339229528232,-0.139763,-29.756924
11.185,2.0,1.0,1.0,33.8,33.9,33.9,3.2,2.5,2.66,0.39684895366519446,-0.0331477012261553,0.9001442367907763,0.0015067113162673007,-0.142374,-29.581968
11.185,2.0,1.0,1.0,33.8,33.9,33.9,3.2,2.5,2.6625,0.38727530930947895,-0.03384346163923725,0.903972525704897,0.0011651232702213218,-0.145068,-29.40536
11.185,2.0,1.0,1.0,33.8,33.9,33.9,3.2,2.5,2.665,0.37757936222443567,-0.03455645281947165,0.9077240221408743,0.0008056987420860768,-0.147851,-29.227057
11.185,2.0,1.0,1.0,33.8,33.9,33.9,3.2,2.5,2.6675,0.3677596080219423,-0.03528723008514008,0.9113958930476409,0.0004275134110919171,-0.150725,-29.047011
11.185,2.0,1.0,1.0,33.8,33.9,33.9,3.2,2.5,2.67,0.35781452256541424,-0.03603637130702362,0.9149851938394633,2.958573351734555e-05,-0.153696,-28.865176
11.185,2.0,1.0,1.0,33.8,33.9,33.9,3.2,2.5,2.6725,0.34774256179022794,-0.03680447795306266,0.9184888626240306,-0.0003891273503576438,-0.156767,-28.681501
11.185,2.0,1.0,1.0,33.8,33.9,33.9,3.2,2.5,2.675,0.33754216153020206,-0.0375921761765229,0.9219037140105516,-0.0008297350932420788,-0.159945,-28.495935
11.185,2.0,1.0,1.0,33.8,33.9,33.9,3.2,2.5,2.6775,0.32721173735271464,-0.03840011794722444,0.9252264324571139,-0.0012934180417815348,-0.163234,-28.308424
11.185,2.0,1.0,1.0,33.8,33.9,33.9,3.2,2.5,2.68,0.3167496844057721,-0.03922898222473745,0.9284535651117635,-0.0017814336062354828,-0.166641,-28.118913
11.185,2.0,1.0,1.0,33.8,33.9,33.9,3.2,2.5,2.6825,0.3061543772812764,-0.04007947617162008,0.9315815140962811,-0.002295122149048246,-0.17017,-27.927341
11.185,2.0,1.0,1.0,33.8,33.9,33.9,3.2,2.5,2.685,0.2954241698997637,-0.040952336403745994,0.9346065281755559,-0.002835913648601876,-0.173829,-27.73365
11.185,2.0,1.0,1.0,33.8,33.9,33.9,3.2,2.5,2.6875,0.284557395423345,-0.0418483302734687,0.93752469374833,-0.00340533500139745,-0.177625,-27.537775
11.185,2.0,1.0,1.0,33.8,33.9,33.9,3.2,2.5,2.69,0.2735523662051973,-0.04276825717976533,0.9403319250871935,-0.004005018033833126,-0.181565,-27.33965
11.185,2.0,1.0,1.0,33.8,33.9,33.9,3.2,2.5,2.6925,0.2624073737860444,-0.04371294989750188,0.9430239537465293,-0.004636708303786401,-0.185657,-27.139207
11.185,2.0,1.0,1.0,33.8,33.9,33.9,3.2,2.5,2.695,0.2511206889506466,-0.044683275915488846,0.9455963170467071,-0.005302274782519161,-0.18991,-26.936373
11.185,2.0,1.0,1.0,33.8,33.9,33.9,3.2,2.5,2.6975,0.23969056186037496,-0.04568013876993576,0.9480443455309511,-0.006003720519235223,-0.194333,-26.731073
11.185,2.0,1.0,1.0,33.8,33.9,33.9,3.2,2.5,2.7,0.22811522228192072,-0.046704479356133186,0.9503631492775415,-0.006743194404133233,-0.198936,-26.523229
11.185,2.0,1.0,1.0,33.8,33.9,33.9,3.2,2.5,2.7025,0.2163928799368088,-0.04775727719652686,0.9525476029344518,-0.007523004161324339,-0.20373,-26.312757
11.185,2.0,1.0,1.0,33.8,33.9,33.9,3.2,2.5,2.705,0.20452172500231627,-0.04883955163759088,0.9545923293254004,-0.008345630720812975,-0.208726,-26.099571
11.185,2.0,1.0,1.0,33.8,33.9,33.9,3.2,2.5,2.7075,0.19249992880154576,-0.0499523629408068,0.9564916814555255,-0.00921374413928249,-0.213938,-25.883581
11.185,2.0,1.0,1.0,33.8,33.9,33.9,3.2,2.5,2.71,0.18032564472925455,-0.05109681322429014,0.9582397227209942,-0.010130221263105834,-0.219379,-25.664693
11.185,2.0,1.0,1.0,33.8,33.9,33.9,3.2,2.5,2.7125,0.16799700947097385,-0.05227404720078457,0.9598302050990785,-0.011098165354366231,-0.225064,-25.442805
11.185,2.0,1.0,1.0,33.8,33.9,33.9,3.2,2.5,2.715,0.15551214458642615,-0.053485252644372955,0.9612565450632239,-0.012120927932327401,-0.231009,-25.217815
11.185,2.0,1.0,1.0,33.8,33.9,33.9,3.2,2.5,2.7175,0.14286915854489993,-0.05473166050171342,0.9625117969304547,-0.013202133119491108,-0.237231,-24.989612
11.185,2.0,1.0,1.0,33.8,33.9,33.9,3.2,2.5,2.72,0.13006614932089472,-0.056014544543131366,0.9635886233052694,-0.014345704823974917,-0.243751,-24.75808
11.185,2.0,1.0,1.0,33.8,33.9,33.9,3.2,2.5,2.7225,0.11710120768382573,-0.05733522042350216,0.9644792622340247,-0.015555897139487794,-0.250589,-24.523098
11.185,2.0,1.0,1.0,33.8,33.9,33.9,3.2,2.5,2.725,0.10397242134743613,-0.05869504399131887,0.9651754906252249,-0.01683732840186962,-0.257767,-24.284538
11.185,2.0,1.0,1.0,33.8,33.9,33.9,3.2,2.5,2.7275,0.09067788018390534,-0.06009540864510953,0.9656685834229376,-0.01819501940847221,-0.265312,-24.042264
11.185,2.0,1.0,1.0,33.8,33.9,33.9,3.2,2.5,2.73,0.07721568275693477,-0.06153774148746185,0.9659492679407751,-0.019634436385276025,-0.27325,-23.796136
11.185,2.0,1.0,1.0,33.8,33.9,33.9,3.2,2.5,2.7325,0.06358394448950479,-0.06302349796584011,0.9660076726704977,-0.02116153937862154,-0.281614,-23.546001
11.185,2.0,1.0,1.0,33.8,33.9,33.9,3.2,2.5,2.735,0.04978080785892251,-0.06455415461293304,0.9658332697699851,-0.02278283685616256,-0.290435,-23.291702
11.185,2.0,1.0,1.0,33.8,33.9,33.9,3.2,2.5,2.7375,0.03580445510832,-0.06613119940335471,0.9654148103069927,-0.024505447427990212,-0.299751,-23.033071
11.185,2.0,1.0,1.0,33.8,33.9,33.9,3.2,2.5,2.74,0.021653124085179186,-0.067756119122892,0.9647402511845207,-0.02633716974714692,-0.309605,-22.76993
11.185,2.0,1.0,1.0,33.8,33.9,33.9,3.2,2.5,2.7425,0.007325127970654506,-0.06943038299435786,0.9637966724966391,-0.028286561822917496,-0.320041,-22.50209
11.185,2.0,1.0,1.0,33.8,33.9,33.9,3.2,2.5,2.745,-0.007181120142841415,-0.07115542161173745,0.962570183855668,-0.030363031184892048,-0.33111,-22.229353
11.185,2.0,1.0,1.0,33.8,33.9,33.9,3.2,2.5,2.7475,-0.021867076622495357,-0.07293259999033755,0.9610458179871287,-0.03257693757620528,-0.34287,-21.951507
11.185,2.0,1.0,1.0,33.8,33.9,33.9,3.2,2.5,2.75,-0.0367340290984605,-0.0747631832302978,0.9592074096018,-0.0349397101366218,-0.355385,-21.668327
11.185,2.0,1.0,1.0,33.8,33.9,33.9,3.2,2.5,2.7525,-0.05178304878458743,-0.07664829289480174,0.957037457217327,-0.03746398136714098,-0.368725,-21.379575
11.185,2.0,1.0,1.0,33.8,33.9,33.9,3.2,2.5,2.755,-0.0670149308902831,-0.0785888516973354,0.954516965207527,-0.04016374055509113,-0.382972,-21.084997
11.185,2.0,1.0,1.0,33.8,33.9,33.9,3.2,2.5,2.7575,-0.08243012004057301,-0.08058551344114437,0.9516252628974118,-0.043054509790291955,-0.398217,-20.784323
11.185,2.0,1.0,1.0,33.8,33.9,33.9,3.2,2.5,2.76,-0.09802861677475891,-0.08263857431471369,0.9483397969878751,-0.04615354622674642,-0.414562,-20.477267
11.185,2.0,1.0,1.0,33.8,33.9,33.9,3.2,2.5,2.7625,-0.11380986009875552,-0.08474786056156997,0.9446358929784145,-0.04948007484754991,-0.432124,-20.163522
11.185,2.0,1.0,1.0,33.8,33.9,33.9,3.2,2.5,2.765,-0.12977257964415606,-0.08691258613376633,0.9404864805544648,-0.05305555667771102,-0.451038,-19.842761
11.185,2.0,1.0,1.0,33.8,33.9,33.9,3.2,2.5,2.7675,-0.14591460913427165,-0.08913117210326851,0.9358617771181449,-0.05690399815957783,-0.471454,-19.514638
11.185,2.0,1.0,1.0,33.8,33.9,33.9,3.2,2.5,2.77,-0.16223265043503848,-0.09140101720680974,0.9307289227776108,-0.061052308247906195,-0.493549,-19.178781
11.185,2.0,1.0,1.0,33.8,33.9,33.9,3.2,2.5,2.7725,-0.17872197429064968,-0.09371820575385842,0.9250515591982864,-0.06553071066836412,-0.517524,-18.834794
11.185,2.0,1.0,1.0,33.8,33.9,33.9,3.2,2.5,2.775,-0.19537603966076858,-0.09607713498787623,0.9187893438155029,-0.07037321965724494,-0.543612,-18.482256
11.185,2.0,1.0,1.0,33.8,33.9,33.9,3.2,2.5,2.7775,-0.21218600805382376,-0.09847003852780917,0.9118973901185418,-0.07561818825538409,-0.572086,-18.120717
11.185,2.0,1.0,1.0,33.8,33.9,33.9,3.2,2.5,2.78,-0.22914012194069588,-0.10088637528731063,0.9043256242263414,-0.08130893867991296,-0.60326,-17.749699
11.185,2.0,1.0,1.0,33.8,33.9,33.9,3.2,2.5,2.7825,-0.24622290663583013,-0.10331204368237054,0.8960180481020263,-0.08749448412794313,-0.637507,-17.368692
11.185,2.0,1.0,1.0,33.8,33.9,33.9,3.2,2.5,2.785,-0.263414142151587,-0.10572836820814939,0.8869119010240049,-0.09423035005173495,-0.675264,-16.977157
11.185,2.0,1.0,1.0,33.8,33.9,33.9,3.2,2.5,2.7875,-0.28068753441619704,-0.10811078855849451,0.8769367142121931,-0.1015794996242031,-0.717048,-16.574522
11.185,2.0,1.0,1.0,33.8,33.9,33.9,3.2,2.5,2.79,-0.2980089925339913,-0.11042715903619806,0.8660132602075108,-0.10961336138788523,-0.763476,-16.160187
11.185,2.0,1.0,1.0,33.8,33.9,33.9,3.2,2.5,2.7925,-0.31533438873623243,-0.11263553636542395,0.8540524109965961,-0.11841294469281577,-0.815286,-15.733523
11.185,2.0,1.0,1.0,33.8,33.9,33.9,3.2,2.5,2.795,-0.33260663823717784,-0.11468129512488236,0.840953940612555,-0.12807000685997624,-0.873366,-15.293878
11.185,2.0,1.0,1.0,33.8,33.9,33.9,3.2,2.5,2.7975,-0.3497518850489067,-0.11649335959857204,0.8266053448535541,-0.13868819928606396,-0.93879,-14.840584
11.185,2.0,1.0,1.0,33.8,33.9,33.9,3.2,2.5,2.8,-0.3666745147627831,-0.11797927679767736,0.8108808120788271,-0.15038405879218986,-1.012869,-14.372971
11.185,2.0,1.0,1.0,33.8,33.9,33.9,3.2,2.5,2.8025,-0.3832506353998991,-0.11901877684141428,0.7936405792716905,-0.16328761106788822,-1.097207,-13.890386
11.185,2.0,1.0,1.0,33.8,33.9,33.9,3.2,2.5,2.805,-0.39931957512592675,-0.11945537632448466,0.7747310691805178,-0.17754219285791964,-1.193783,-13.392216
11.185,2.0,1.0,1.0,33.8,33.9,33.9,3.2,2.5,2.8075,-0.4146728514860277,-0.1190854883419305,0.7539864614780739,-0.1933028448969676,-1.305048,-12.877937
11.185,2.0,1.0,1.0,33.8,33.9,33.9,3.2,2.5,2.81,-0.4290399987906363,-0.11764443733815817,0.7312327535637734,-0.21073222915650489,-1.43406,-12.347168
11.185,2.0,1.0,1.0,33.8,33.9,33.9,3.2,2.5,2.8125,-0.442070661300321,-0.114788800412935,0.706295984078731,-0.229992413577064,-1.58465,-11.799761
11.185,2.0,1.0,1.0,33.8,33.9,33.9,3.2,2.5,2.815,-0.45331259964694515,-0.11007473778846721,0.679017209751404,-0.2512299613034847,-1.761629,-11.23592
11.185,2.0,1.0,1.0,33.8,33.9,33.9,3.2,2.5,2.8175,-0.46218596671422474,-0.10293268155984146,0.6492781227093744,-0.2745504826303953,-1.971046,-10.656374
11.185,2.0,1.0,1.0,33.8,33.9,33.9,3.2,2.5,2.82,-0.46795583818110975,-0.09264036971778614,0.6170428707189721,-0.29997715851866963,-2.220482,-10.062617
11.185,2.0,1.0,1.0,33.8,33.9,33.9,3.2,2.5,2.8225,-0.46970827671722265,-0.07829947680868898,0.5824234340709353,-0.32738598780273515,-2.519338,-9.457226
11.185,2.0,1.0,1.0,33.8,33.9,33.9,3.2,2.5,2.825,-0.4663412270985931,-0.05882704719574054,0.5457768970394098,-0.3564095632277906,-2.879006,-8.844281
11.185,2.0,1.0,1.0,33.8,33.9,33.9,3.2,2.5,2.8275,-0.45659134872980556,-0.032982626108633895,0.5078408247676536,-0.38630332707841025,-3.31262,-8.229887
