1,w,sub_t,h,l1,l2,l3,g1,g2,Freq,S11_re,S21_re,S11_img,S21_img,S11_dB,S21_dB
11.185,2.0,1.0,1.0,34.7,34.7,34.7,4.2,2.8,2.5,0.665013815878425,-0.012308244254993,0.735392374887006,0.00408736542315882,-0.074265,-37.741755
11.185,2.0,1.0,1.0,34.7,34.7,34.7,4.2,2.8,2.5025,0.6588014205427903,-0.012531575958209624,0.7408302781780147,0.004036581858816896,-0.075133,-37.611153
11.185,2.0,1.0,1.0,34.7,34.7,34.7,4.2,2.8,2.505,0.6525089238657535,-0.012758985026002001,0.7462440295191285,0.003982828312397939,-0.07602,-37.479857
11.185,2.0,1.0,1.0,34.7,34.7,34.7,4.2,2.8,2.5075,0.6461355470280515,-0.012990566157005017,0.7516327282143589,0.003925994670377134,-0.076927,-37.347853
11.185,2.0,1.0,1.0,34.7,34.7,34.7,4.2,2.8,2.51,0.6396805033411387,-0.01322641711428142,0.7569954483829088,0.0038659662279812634,-0.077854,-37.215121
11.185,2.0,1.0,1.0,34.7,34.7,34.7,4.2,2.8,2.5125,0.6331429982603366,-0.01346663886012293,0.7623312382019486,0.003802623456212209,-0.078801,-37.081645
11.185,2.0,1.0,1.0,34.7,34.7,34.7,4.2,2.8,2.515,0.6265222294019137,-0.013711335698429052,0.7676391191231545,0.0037358417544284964,-0.07977,-36.947406
11.185,2.0,1.0,1.0,34.7,34.7,34.7,4.2,2.8,2.5175,0.6198173865641464,-0.013960615425170514,0.7729180850617516,0.0036654911874132506,-0.080761,-36.812386
11.185,2.0,1.0,1.0,34.7,34.7,34.7,4.2,2.8,2.52,0.6130276517523536,-0.014214589487485049,0.7781671015567555,0.0035914362057641513,-0.081774,-36.676566
11.185,2.0,1.0,1.0,34.7,34.7,34.7,4.2,2.8,2.5225,0.6061521992079262,-0.01447337315199204,0.7833851049009602,0.0035135353483398864,-0.082811,-36.539925
11.185,2.0,1.0,1.0,34.7,34.7,34.7,4.2,2.8,2.525,0.5991901954413014,-0.014737085682960779,0.7885710012391675,0.0034316409253848986,-0.083872,-36.402445
11.185,2.0,1.0,1.0,34.7,34.7,34.7,4.2,2.8,2.5275,0.5921407992688313,-0.015005850531014229,0.7937236656329997,0.003345598680832012,-0.084957,-36.264103
11.185,2.0,1.0,1.0,34.7,34.7,34.7,4.2,2.8,2.53,0.5850031618534658,-0.015279795533104278,0.7988419410905168,0.0032552474321464256,-0.086068,-36.124878
11.185,2.0,1.0,1.0,34.7,34.7,34.7,4.2,2.8,2.5325,0.5777764267491247,-0.015559053124552212,0.8039246375587277,0.0031604186859268157,-0.087206,-35.984747
11.185,2.0,1.0,1.0,34.7,34.7,34.7,4.2,2.8,2.535,0.5704597299485964,-0.015843760564010653,0.8089705308769263,0.003060936227311339,-0.08837,-35.843689
11.185,2.0,1.0,1.0,34.7,34.7,34.7,4.2,2.8,2.5375,0.5630521999347723,-0.016134060172271984,0.8139783616885933,0.0029566156810586636,-0.089563,-35.701679
11.185,2.0,1.0,1.0,34.7,34.7,34.7,4.2,2.8,2.54,0.5555529577349547,-0.016430099585921766,0.8189468343094423,0.0028472640419681754,-0.090785,-35.558692
11.185,2.0,1.0,1.0,34.7,34.7,34.7,4.2,2.8,2.5425,0.5479611169779351,-0.016732032026916966,0.8238746155489589,0.002732679172085066,-0.092037,-35.414703
11.185,2.0,1.0,1.0,34.7,34.7,34.7,4.2,2.8,2.545,0.5402757839534742,-0.017040016589255864,0.8287603334825486,0.002612649261885537,-0.093319,-35.269686
11.185,2.0,1.0,1.0,34.7,34.7,34.7,4.2,2.8,2.5475,0.5324960576737563,-0.01735421854400177,0.8336025761711489,0.002486952252365238,-0.094634,-35.123614
11.185,2.0,1.0,1.0,34.7,34.7,34.7,4.2,2.8,2.55,0.5246210299362832,-0.017674809664027957,0.838399890324886,0.00235535521464939,-0.095983,-34.976458
11.185,2.0,1.0,1.0,34.7,34.7,34.7,4.2,2.8,2.5525,0.5166497853876397,-0.018001968569961398,0.8431507799070012,0.002217613683403579,-0.097365,-34.82819
11.185,2.0,1.0,1.0,34.7,34.7,34.7,4.2,2.8,2.555,0.5085814015874076,-0.018335881098929037,0.84785370467395,0.002073470939949745,-0.098784,-34.67878
11.185,2.0,1.0,1.0,34.7,34.7,34.7,4.2,2.8,2.5575,0.5004149490714408,-0.018676740697842052,0.85250707864715,0.0019226572405680105,-0.100239,-34.528196
11.185,2.0,1.0,1.0,34.7,34.7,34.7,4.2,2.8,2.56,0.4921494914135852,-0.019024748843100677,0.8571092685114091,0.0017648889849993753,-0.101733,-34.376406
11.185,2.0,1.0,1.0,34.7,34.7,34.7,4.2,2.8,2.5625,0.48378408528479144,-0.01938011548876033,0.8616585919345637,0.0015998678196400375,-0.103266,-34.223377
11.185,2.0,1.0,1.0,34.7,34.7,34.7,4.2,2.8,2.565,0.4753177805084192,-0.01974305954537431,0.8661533158022999,0.0014272796693279375,-0.104841,-34.069073
11.185,2.0,1.0,1.0,34.7,34.7,34.7,4.2,2.8,2.5675,0.46674962011039384,-0.0201138093919154,0.8705916543614753,0.001246793690971721,-0.106458,-33.913458
11.185,2.0,1.0,1.0,34.7,34.7,34.7,4.2,2.8,2.57,0.45807864036267004,-0.02049260342338581,0.8749717672645754,0.0010580611415276883,-0.108121,-33.756495
11.185,2.0,1.0,1.0,34.7,34.7,34.7,4.2,2.8,2.5725,0.4493038708182734,-0.02087969063694823,0.8792917575071106,0.0008607141520082613,-0.109829,-33.598145
11.185,2.0,1.0,1.0,34.7,34.7,34.7,4.2,2.8,2.575,0.4404243343359806,-0.021275331259654633,0.8835496692488736,0.0006543643982695865,-0.111586,-33.438367
11.185,2.0,1.0,1.0,34.7,34.7,34.7,4.2,2.8,2.5775,0.4314390470924476,-0.021679797421115286,0.8877434855089386,0.0004386016582771515,-0.113393,-33.277118
11.185,2.0,1.0,1.0,34.7,34.7,34.7,4.2,2.8,2.58,0.42234701857934187,-0.02209337387473832,0.8918711257231496,0.0002129922443631653,-0.115253,-33.114356
11.185,2.0,1.0,1.0,34.7,34.7,34.7,4.2,2.8,2.5825,0.4131472515827347,-0.022516358771486077,0.8959304431515164,-2.2922702349232554e-05,-0.117167,-32.950032
11.185,2.0,1.0,1.0,34.7,34.7,34.7,4.2,2.8,2.585,0.4038387421417023,-0.022949064490432915,0.8999192221214668,-0.0002696290696986908,-0.119138,-32.784101
11.185,2.0,1.0,1.0,34.7,34.7,34.7,4.2,2.8,2.5875,0.3944204794827233,-0.02339181853078091,0.9038351750912216,-0.0005276418004752035,-0.121168,-32.616511
11.185,2.0,1.0,1.0,34.7,34.7,34.7,4.2,2.8,2.59,0.3848914459261036,-0.02384496447038904,0.9076759395156196,-0.0007975071046595585,-0.123261,-32.447211
11.185,2.0,1.0,1.0,34.7,34.7,34.7,4.2,2.8,2.5925,0.37525061676020305,-0.024308862996305535,0.9114390744945658,-0.0010798048781482006,-0.125419,-32.276146
11.185,2.0,1.0,1.0,34.7,34.7,34.7,4.2,2.8,2.595,0.36549696007884275,-0.02478389301325768,0.9151220571817646,-0.0013751513507279213,-0.127645,-32.10326
11.185,2.0,1.0,1.0,34.7,34.7,34.7,4.2,2.8,2.5975,0.3556294365767178,-0.02527045283655783,0.918722278928539,-0.0016842019889555873,-0.129942,-31.928492
11.185,2.0,1.0,1.0,34.7,34.7,34.7,4.2,2.8,2.6,0.3456469992971632,-0.025768961476419428,0.9222370411343039,-0.0020076546829008585,-0.132314,-31.75178
11.185,2.0,1.0,1.0,34.7,34.7,34.7,4.2,2.8,2.6025,0.3355485933260281,-0.026279860021250722,0.9256635507714764,-0.0023462532494983794,-0.134764,-31.573059
11.185,2.0,1.0,1.0,34.7,34.7,34.7,4.2,2.8,2.605,0.3253331554248021,-0.02680361312810142,0.9289989155483157,-0.0027007912896005516,-0.137297,-31.392262
11.185,2.0,1.0,1.0,34.7,34.7,34.7,4.2,2.8,2.6075,0.3149996135955043,-0.027340710629075348,0.9322401386682336,-0.0030721164408228606,-0.139917,-31.209315
11.185,2.0,1.0,1.0,34.7,34.7,34.7,4.2,2.8,2.61,0.3045468865691619,-0.027891669263188108,0.9353841131383585,-0.003461135074036479,-0.142627,-31.024143
11.185,2.0,1.0,1.0,34.7,34.7,34.7,4.2,2.8,2.6125,0.2939738832089939,-0.028457034543834706,0.9384276155735419,-0.00386881748802029,-0.145434,-30.836668
11.185,2.0,1.0,1.0,34.7,34.7,34.7,4.2,2.8,2.615,0.283279501818699,-0.029037382772722595,0.9413672994343123,-0.004296203664488936,-0.148342,-30.646807
11.185,2.0,1.0,1.0,34.7,34.7,34.7,4.2,2.8,2.6175,0.2724626293455318,-0.02963332321181064,0.9441996876283582,-0.004744409654651538,-0.151358,-30.454472
11.185,2.0,1.0,1.0,34.7,34.7,34.7,4.2,2.8,2.62,0.26152214046713507,-0.030245500425445087,0.9469211643947737,-0.00521463467884926,-0.154486,-30.259571
11.185,2.0,1.0,1.0,34.7,34.7,34.7,4.2,2.8,2.6225,0.2504568965504453,-0.03087459680547184,0.9495279663781816,-0.005708169032931814,-0.157734,-30.062006
11.185,2.0,1.0,1.0,34.7,34.7,34.7,4.2,2.8,2.625,0.239265744470471,-0.0315213352925779,0.952016172785705,-0.00622640290918183,-0.161109,-29.861677
11.185,2.0,1.0,1.0,34.7,34.7,34.7,4.2,2.8,2.6275,0.22794751527626633,-0.03218648230742634,0.9543816945032141,-0.006770836256165115,-0.164619,-29.658475
11.185,2.0,1.0,1.0,34.7,34.7,34.7,4.2,2.8,2.63,0.21650102269133048,-0.03287085090519678,0.9566202620277487,-0.007343089821342177,-0.168272,-29.452285
11.185,2.0,1.0,1.0,34.7,34.7,34.7,4.2,2.8,2.6325,0.20492506143578773,-0.0335753041668373,0.9587274120501276,-0.007944917543173176,-0.172077,-29.242988
11.185,2.0,1.0,1.0,34.7,34.7,34.7,4.2,2.8,2.635,0.19321840535836624,-0.03430075883950431,0.9606984724946365,-0.008578220486481065,-0.176044,-29.030455
11.185,2.0,1.0,1.0,34.7,34.7,34.7,4.2,2.8,2.6375,0.18137980536757162,-0.035048189237129414,0.9625285457906058,-0.00924506254682773,-0.180185,-28.814553
11.185,2.0,1.0,1.0,34.7,34.7,34.7,4.2,2.8,2.64,0.16940798715366165,-0.03581863140952989,0.9642124901126303,-0.00994768818763147,-0.18451,-28.595137
11.185,2.0,1.0,1.0,34.7,34.7,34.7,4.2,2.8,2.6425,0.15730164869669283,-0.036613187584611157,0.9657448982807656,-0.010688542518955024,-0.189034,-28.372055
11.185,2.0,1.0,1.0,34.7,34.7,34.7,4.2,2.8,2.645,0.14505945756122512,-0.03743303088252133,0.9671200739578836,-0.011470294080870764,-0.19377,-28.145147
11.185,2.0,1.0,1.0,34.7,34.7,34.7,4.2,2.8,2.6475,0.13268004798605104,-0.03827941029245555,0.9683320047164302,-0.012295860758947584,-0.198735,-27.914239
11.185,2.0,1.0,1.0,34.7,34.7,34.7,4.2,2.8,2.65,0.12016201778830879,-0.03915365589130982,0.9693743314687938,-0.013168439337084736,-0.203945,-27.679149
11.185,2.0,1.0,1.0,34.7,34.7,34.7,4.2,2.8,2.6525,0.10750392511690071,-0.0400571842673752,0.970240313661388,-0.01409153928653878,-0.20942,-27.439683
11.185,2.0,1.0,1.0,34.7,34.7,34.7,4.2,2.8,2.655,0.09470428511142628,-0.04099150409018305,0.9709227895187184,-0.015069021503247253,-0.215182,-27.19563
11.185,2.0,1.0,1.0,34.7,34.7,34.7,4.2,2.8,2.6575,0.08176156655246312,-0.04195822173731361,0.9714141304855034,-0.016105142842992973,-0.221254,-26.94677
11.185,2.0,1.0,1.0,34.7,34.7,34.7,4.2,2.8,2.66,0.06867418862945472,-0.04295904684759175,0.971706188846531,-0.017204607471362657,-0.227663,-26.692863
11.185,2.0,1.0,1.0,34.7,34.7,34.7,4.2,2.8,2.6625,0.055440518007803946,-0.04399579761366965,0.9717902372980977,-0.0183726262500798,-0.234437,-26.433655
11.185,2.0,1.0,1.0,34.7,34.7,34.7,4.2,2.8,2.665,0.04205886645224437,-0.04507040555017339,0.9716568989922585,-0.019614985632352075,-0.241612,-26.168871
11.185,2.0,1.0,1.0,34.7,34.7,34.7,4.2,2.8,2.6675,0.02852748936667032,-0.04618491936897504,0.9712960662639728,-0.020938127849027217,-0.249223,-25.898216
11.185,2.0,1.0,1.0,34.7,34.7,34.7,4.2,2.8,2.67,0.014844585751223684,-0.04734150745059099,0.970696805866497,-0.0223492445495317,-0.257312,-25.621374
11.185,2.0,1.0,1.0,34.7,34.7,34.7,4.2,2.8,2.6725,0.0010083002698358435,-0.04854245820608152,0.969847248062916,-0.02385638653579119,-0.265929,-25.338003
11.185,2.0,1.0,1.0,34.7,34.7,34.7,4.2,2.8,2.675,-0.01298327161497498,-0.04979017735751165,0.9687344563267303,-0.025468592818067314,-0.275125,-25.047734
11.185,2.0,1.0,1.0,34.7,34.7,34.7,4.2,2.8,2.6775,-0.027132074121028874,-0.051087180799517615,0.9673442736603016,-0.027196042960324525,-0.284963,-24.750168
11.185,2.0,1.0,1.0,34.7,34.7,34.7,4.2,2.8,2.68,-0.04144007542054424,-0.05243608120103295,0.9656611406056739,-0.029050237609902867,-0.295514,-24.444873
11.185,2.0,1.0,1.0,34.7,34.7,34.7,4.2,2.8,2.6825,-0.055909243199049045,-0.053839565809807255,0.9636678788449956,-0.031044213274245253,-0.306859,-24.13138
11.185,2.0,1.0,1.0,34.7,34.7,34.7,4.2,2.8,2.685,-0.07054150802680546,-0.05530036195454176,0.9613454327990018,-0.03319279888387202,-0.31909,-23.80918
11.185,2.0,1.0,1.0,34.7,34.7,34.7,4.2,2.8,2.6875,-0.08533870972517214,-0.05682118538750597,0.9586725597434523,-0.035512923552997046,-0.332316,-23.477716
11.185,2.0,1.0,1.0,34.7,34.7,34.7,4.2,2.8,2.69,-0.10030252001916388,-0.058404664711182865,0.9556254565610328,-0.038023987329608204,-0.346663,-23.136383
11.185,2.0,1.0,1.0,34.7,34.7,34.7,4.2,2.8,2.6925,-0.11543433209220554,-0.06005323244776073,0.9521773081839943,-0.0407483097594747,-0.362279,-22.784519
11.185,2.0,1.0,1.0,34.7,34.7,34.7,4.2,2.8,2.695,-0.1307351038497616,-0.061768969490238496,0.9482977388750629,-0.043711674955882907,-0.379337,-22.421398
11.185,2.0,1.0,1.0,34.7,34.7,34.7,4.2,2.8,2.6975,-0.14620513623692694,-0.06355338420015366,0.9439521425093345,-0.04694399679635981,-0.398044,-22.046226
11.185,2.0,1.0,1.0,34.7,34.7,34.7,4.2,2.8,2.7,-0.16184376006528936,-0.0654070995150466,0.9391008616765402,-0.050480134134022255,-0.418645,-21.658126
11.185,2.0,1.0,1.0,34.7,34.7,34.7,4.2,2.8,2.7025,-0.17764889331920464,-0.06732940993249562,0.9336981773975256,-0.05436089382928496,-0.441433,-21.256135
11.185,2.0,1.0,1.0,34.7,34.7,34.7,4.2,2.8,2.705,-0.19361641405586702,-0.06931765337594133,0.9276910612044752,-0.05863426929997674,-0.466763,-20.839192
11.185,2.0,1.0,1.0,34.7,34.7,34.7,4.2,2.8,2.7075,-0.20973926907022963,-0.07136631801035632,0.9210176290059462,-0.06335697439973546,-0.495066,-20.406124
11.185,2.0,1.0,1.0,34.7,34.7,34.7,4.2,2.8,2.71,-0.22600620127299506,-0.07346576688493635,0.91360522154418,-0.06859634673619248,-0.526872,-19.955635
11.185,2.0,1.0,1.0,34.7,34.7,34.7,4.2,2.8,2.7125,-0.2423999227203429,-0.07560040735410815,0.9053680200410278,-0.07443271029841028,-0.562835,-19.486294
11.185,2.0,1.0,1.0,34.7,34.7,34.7,4.2,2.8,2.715,-0.25889447529032156,-0.077746047468737,0.8962040900912157,-0.08096230213692779,-0.603769,-18.996521
11.185,2.0,1.0,1.0,34.7,34.7,34.7,4.2,2.8,2.7175,-0.2754513912744915,-0.07986605218033627,0.8859917377065893,-0.08830087601650757,-0.650701,-18.484576
11.185,2.0,1.0,1.0,34.7,34.7,34.7,4.2,2.8,2.72,-0.2920140669766912,-0.08190571377044474,0.8745850715966051,-0.09658808433253804,-0.704936,-17.948551
11.185,2.0,1.0,1.0,34.7,34.7,34.7,4.2,2.8,2.7225,-0.3084994558560357,-0.08378394581242353,0.8618087232617052,-0.10599267995174717,-0.76815,-17.386372
11.185,2.0,1.0,1.0,34.7,34.7,34.7,4.2,2.8,2.725,-0.32478571713326887,-0.0853809421546831,0.847451840076116,-0.11671841290987701,-0.842518,-16.795817
11.185,2.0,1.0,1.0,34.7,34.7,34.7,4.2,2.8,2.7275,-0.3406937414923274,-0.08651973352520613,0.8312618577986761,-0.12901010118569212,-0.930896,-16.174558
11.185,2.0,1.0,1.0,34.7,34.7,34.7,4.2,2.8,2.73,-0.3559594213406038,-0.08693853060721986,0.8129394258099744,-0.143158481973793,-1.037066,-15.52026
11.185,2.0,1.0,1.0,34.7,34.7,34.7,4.2,2.8,2.7325,-0.3701920719828166,-0.08624930142220834,0.792137698256445,-0.1595006032922604,-1.166087,-14.830763
11.185,2.0,1.0,1.0,34.7,34.7,34.7,4.2,2.8,2.735,-0.38281267259630647,-0.08387633188252798,0.7684729874957883,-0.17840872882764816,-1.324758,-14.104423
11.185,2.0,1.0,1.0,34.7,34.7,34.7,4.2,2.8,2.7375,-0.3929644239287813,-0.07896741854176881,0.7415612929103,-0.20025322430900974,-1.522212,-13.340701
11.185,2.0,1.0,1.0,34.7,34.7,34.7,4.2,2.8,2.74,-0.3993904641280478,-0.07027281488921074,0.7111093834887222,-0.225310793709238,-1.770547,-12.541197
11.185,2.0,1.0,1.0,34.7,34.7,34.7,4.2,2.8,2.7425,-0.4002878660986855,-0.0560015310751791,0.6771132044897581,-0.2535655587401523,-2.08511,-11.711361
11.185,2.0,1.0,1.0,34.7,34.7,34.7,4.2,2.8,2.745,-0.39319358668526944,-0.033711319685826475,0.640248241434586,-0.28431920397181937,-2.483214,-10.863246
11.185,2.0,1.0,1.0,34.7,34.7,34.7,4.2,2.8,2.7475,-0.37507446192650995,-0.000404817050136701,0.6025465217003262,-0.31551769094422627,-2.977908,-10.019519
11.185,2.0,1.0,1.0,34.7,34.7,34.7,4.2,2.8,2.75,-0.343007165144496,0.0467841272221087,0.568331485316952,-0.342827540447596,-3.559017,-9.218352
11.185,2.0,1.0,1.0,34.7,34.7,34.7,4.2,2.8,2.7525,-0.2960011098749357,0.10876972052573665,0.5448853630921937,-0.3589912076631693,-4.150848,-8.516888
11.185,2.0,1.0,1.0,34.7,34.7,34.7,4.2,2.8,2.755,-0.2379696411936375,0.18157203359980717,0.5413809448085334,-0.3549219267508832,-4.56276,-7.987723
11.185,2.0,1.0,1.0,34.7,34.7,34.7,4.2,2.8,2.7575,-0.179704537536013,0.25440534515594454,0.5644851769595881,-0.32409305936809724,-4.547705,-7.701688
11.185,2.0,1.0,1.0,34.7,34.7,34.7,4.2,2.8,2.76,-0.1358087046795876,0.3127888414000473,0.6124395450180735,-0.26837755957274356,-4.050263,-7.699003
11.185,2.0,1.0,1.0,34.7,34.7,34.7,4.2,2.8,2.7625,-0.11665188626360125,0.346531773753296,0.6740787738218574,-0.19893197741974883,-3.297636,-7.968088
11.185,2.0,1.0,1.0,34.7,34.7,34.7,4.2,2.8,2.765,-0.12299097362327986,0.3549927125366983,0.7353903224965431,-0.1296436900761051,-2.549832,-8.451887
11.185,2.0,1.0,1.0,34.7,34.7,34.7,4.2,2.8,2.7675,-0.14828831282614863,0.34471499376886433,0.7867642120374834,-0.06997848263819353,-1.931505,-9.075411
11.185,2.0,1.0,1.0,34.7,34.7,34.7,4.2,2.8,2.77,-0.18434013987185774,0.32384300874891375,0.824827970010272,-0.023214719195392062,-1.461057,-9.771049
11.185,2.0,1.0,1.0,34.7,34.7,34.7,4.2,2.8,2.7725,-0.224771142893895,0.2986826749127455,0.8503150136723803,0.011421181837525421,-1.115073,-10.489454
11.185,2.0,1.0,1.0,34.7,34.7,34.7,4.2,2.8,2.775,-0.26571108677888633,0.2730496220669125,0.8655521670955754,0.03626503569079052,-0.863011,-11.199228
11.185,2.0,1.0,1.0,34.7,34.7,34.7,4.2,2.8,2.7775,-0.30519787354258365,0.24886877704706598,0.8730037252410545,0.053778238519486474,-0.678911,-11.882389
11.185,2.0,1.0,1.0,34.7,34.7,34.7,4.2,2.8,2.78,-0.3424251601951517,0.22692204552864875,0.8747218221852842,0.06600808724534334,-0.543378,-12.529715
11.185,2.0,1.0,1.0,34.7,34.7,34.7,4.2,2.8,2.7825,-0.3771987675125701,0.20738695455617717,0.8722537422553817,0.0744988765043831,-0.442615,-13.137264
11.185,2.0,1.0,1.0,34.7,34.7,34.7,4.2,2.8,2.785,-0.4096141552258576,0.19015572089550117,0.8667136142735747,0.08036452257309484,-0.366957,-13.704105
11.185,2.0,1.0,1.0,34.7,34.7,34.7,4.2,2.8,2.7875,-0.4398838718002108,0.17500570684131486,0.8588871068916557,0.08439314463444718,-0.309641,-14.230922
11.185,2.0,1.0,1.0,34.7,34.7,34.7,4.2,2.8,2.79,-0.4682517526709561,0.1616840287626002,0.8493238427028579,0.08713909922076685,-0.265901,-14.7192
11.185,2.0,1.0,1.0,34.7,34.7,34.7,4.2,2.8,2.7925,-0.4949534468048359,0.14994636865669658,0.8384077420134631,0.0889929596957537,-0.232345,-15.170741
11.185,2.0,1.0,1.0,34.7,34.7,34.7,4.2,2.8,2.795,-0.5202004560089942,0.1395725705360947,0.8264073507785242,0.09023157453747448,-0.206531,-15.587411
11.185,2.0,1.0,1.0,34.7,34.7,34.7,4.2,2.8,2.7975,-0.5441755704463356,0.13037100281963715,0.8135108692663598,0.09105292899339451,-0.186676,-15.970987
11.185,2.0,1.0,1.0,34.7,34.7,34.7,4.2,2.8,2.8,-0.567033494714096,0.12217781658780888,0.7998502650009072,0.09160018162364561,-0.171467,-16.323085
11.185,2.0,1.0,1.0,34.7,34.7,34.7,4.2,2.8,2.8025,-0.5889035770483501,0.11485414500543153,0.7855178307459273,0.09197822256108555,-0.159925,-16.645127
11.185,2.0,1.0,1.0,34.7,34.7,34.7,4.2,2.8,2.805,-0.6098931571651465,0.10828270465584365,0.7705775763076103,0.09226513191777913,-0.15131,-16.938324
11.185,2.0,1.0,1.0,34.7,34.7,34.7,4.2,2.8,2.8075,-0.6300908569710629,0.10236446063414723,0.7550730951332942,0.09252017364104645,-0.145062,-17.203681
11.185,2.0,1.0,1.0,34.7,34.7,34.7,4.2,2.8,2.81,-0.6495695382652453,0.09701562242981367,0.7390330160597675,0.0927894339731285,-0.140751,-17.441992
11.185,2.0,1.0,1.0,34.7,34.7,34.7,4.2,2.8,2.8125,-0.668388843401043,0.0921650481688218,0.722474787318987,0.0931098545366554,-0.138047,-17.653855
11.185,2.0,1.0,1.0,34.7,34.7,34.7,4.2,2.8,2.815,-0.6865973219950965,0.08775204844920724,0.7054072949596724,0.09351216907675332,-0.136694,-17.839675
11.185,2.0,1.0,1.0,34.7,34.7,34.7,4.2,2.8,2.8175,-0.7042341819496254,0.08372454553662416,0.687832653229809,0.09402309240010755,-0.136495,-17.999669
11.185,2.0,1.0,1.0,34.7,34.7,34.7,4.2,2.8,2.82,-0.7213307130777099,0.08003753250867526,0.6697473933344869,0.09466700357935186,-0.137302,-18.133869
11.185,2.0,1.0,1.0,34.7,34.7,34.7,4.2,2.8,2.8225,-0.7379114299312237,0.07665177660404925,0.6511432010594557,0.09546729518865853,-0.139,-18.242129
11.185,2.0,1.0,1.0,34.7,34.7,34.7,4.2,2.8,2.825,-0.7539949736103668,0.0735327147871097,0.6320073007654288,0.09644751446031913,-0.141508,-18.324114
11.185,2.0,1.0,1.0,34.7,34.7,34.7,4.2,2.8,2.8275,-0.7695948034218661,0.07064949398425252,0.6123225449502709,0.09763239322640203,-0.144769,-18.379306
11.185,2.0,1.0,1.0,34.7,34.7,34.7,4.2,2.8,2.83,-0.7847196994276212,0.06797411181798228,0.5920672392586805,0.09904884658642119,-0.148752,-18.406989
