1,w,sub_t,h,l1,l2,l3,g1,g2,Freq,S11_re,S21_re,S11_img,S21_img,S11_dB,S21_dB
11.185,2.0,1.0,1.0,34.9,33.8,33.8,3.5,3.7,2.5,0.625091551501037,-0.0113688039006902,0.769676928483727,0.00279498135243926,-0.073837,-38.630841
11.185,2.0,1.0,1.0,34.9,33.8,33.8,3.5,3.7,2.5025,0.6183440250967294,-0.01154419255247132,0.7749931468031632,0.0027228962240922246,-0.074625,-38.517598
11.185,2.0,1.0,1.0,34.9,33.8,33.8,3.5,3.7,2.505,0.6115128874711219,-0.011721691965361644,0.7802784140970597,0.002647805873026301,-0.075426,-38.404059
11.185,2.0,1.0,1.0,34.9,33.8,33.8,3.5,3.7,2.5075,0.6045974293431541,-0.011901315464371226,0.7855316808979573,0.0025696252032309215,-0.076241,-38.29022
11.185,2.0,1.0,1.0,34.9,33.8,33.8,3.5,3.7,2.51,0.5975969395323313,-0.012083075815409083,0.7907518707007634,0.002488266737337579,-0.077069,-38.176076
11.185,2.0,1.0,1.0,34.9,33.8,33.8,3.5,3.7,2.5125,0.5905107052912436,-0.012266985181253093,0.795937879302885,0.0024036405488689935,-0.077912,-38.061621
11.185,2.0,1.0,1.0,34.9,33.8,33.8,3.5,3.7,2.515,0.5833380126579866,-0.01245305507521061,0.8010885741313757,0.002315654192596334,-0.07877,-37.946851
11.185,2.0,1.0,1.0,34.9,33.8,33.8,3.5,3.7,2.5175,0.5760781468293718,-0.012641296312360254,0.8062027935570193,0.002224212632954886,-0.079642,-37.831759
11.185,2.0,1.0,1.0,34.9,33.8,33.8,3.5,3.7,2.52,0.5687303925558163,-0.012831718958260746,0.8112793461953317,0.0021292181704670532,-0.080529,-37.716341
11.185,2.0,1.0,1.0,34.9,33.8,33.8,3.5,3.7,2.5225,0.56129403455887,-0.01302433227500756,0.816317010194437,0.002030570366121171,-0.081431,-37.600591
11.185,2.0,1.0,1.0,34.9,33.8,33.8,3.5,3.7,2.525,0.5537683579723354,-0.01321914466451338,0.8213145325098308,0.0019281659636526062,-0.08235,-37.484503
11.185,2.0,1.0,1.0,34.9,33.8,33.8,3.5,3.7,2.5275,0.5461526488079886,-0.013416163608881003,0.8262706281660412,0.0018218988096722361,-0.083284,-37.368073
11.185,2.0,1.0,1.0,34.9,33.8,33.8,3.5,3.7,2.53,0.5384461944469574,-0.013615395607733411,0.8311839795052216,0.001711659771586661,-0.084235,-37.251294
11.185,2.0,1.0,1.0,34.9,33.8,33.8,3.5,3.7,2.5325,0.5306482841578185,-0.013816846112358245,0.8360532354227352,0.0015973366532522127,-0.085202,-37.134162
11.185,2.0,1.0,1.0,34.9,33.8,33.8,3.5,3.7,2.535,0.5227582096425386,-0.014020519456517966,0.8408770105898261,0.0014788141083038023,-0.086187,-37.01667
11.185,2.0,1.0,1.0,34.9,33.8,33.8,3.5,3.7,2.5375,0.5147752656114152,-0.014226418783769982,0.8456538846634719,0.0013559735510980553,-0.087189,-36.898812
11.185,2.0,1.0,1.0,34.9,33.8,33.8,3.5,3.7,2.54,0.5066987503882053,-0.014434545971133927,0.8503824014835706,0.0012286930652077742,-0.08821,-36.780583
11.185,2.0,1.0,1.0,34.9,33.8,33.8,3.5,3.7,2.5425,0.4985279665466745,-0.014644901548936728,0.8550610682576288,0.0010968473094039274,-0.089248,-36.661977
11.185,2.0,1.0,1.0,34.9,33.8,33.8,3.5,3.7,2.545,0.49026222157983834,-0.014857484616656645,0.8596883547331529,0.0009603074210586775,-0.090305,-36.542989
11.185,2.0,1.0,1.0,34.9,33.8,33.8,3.5,3.7,2.5475,0.48190082860322475,-0.015072292754580711,0.8642626923579737,0.000818940916901458,-0.091382,-36.423611
11.185,2.0,1.0,1.0,34.9,33.8,33.8,3.5,3.7,2.55,0.4734431070934806,-0.015289321931081762,0.8687824734288002,0.0006726115910572458,-0.092478,-36.303839
11.185,2.0,1.0,1.0,34.9,33.8,33.8,3.5,3.7,2.5525,0.4648883836637625,-0.015508566405309713,0.8732460502282844,0.0005211794102947309,-0.093593,-36.183665
11.185,2.0,1.0,1.0,34.9,33.8,33.8,3.5,3.7,2.555,0.45623599287732114,-0.015730018625086547,0.8776517341509781,0.0003645004064087853,-0.09473,-36.063084
11.185,2.0,1.0,1.0,34.9,33.8,33.8,3.5,3.7,2.5575,0.4474852781007704,-0.01595366911978058,0.8819977948185761,0.0002024265656591531,-0.095887,-35.942089
11.185,2.0,1.0,1.0,34.9,33.8,33.8,3.5,3.7,2.56,0.4386355923985833,-0.016179506387927967,0.8862824591848828,3.4805715184860196e-05,-0.097065,-35.820675
11.185,2.0,1.0,1.0,34.9,33.8,33.8,3.5,3.7,2.5625,0.429686299470375,-0.0164075167793565,0.890503910631004,-0.00013851859369022,-0.098266,-35.698833
11.185,2.0,1.0,1.0,34.9,33.8,33.8,3.5,3.7,2.565,0.42063677463258914,-0.016637684371557764,0.8946602880513232,-0.0003177072053478052,-0.099488,-35.576559
11.185,2.0,1.0,1.0,34.9,33.8,33.8,3.5,3.7,2.5675,0.41148640584626645,-0.016869990840038606,0.898749684930849,-0.0005029254830530341,-0.100734,-35.453845
11.185,2.0,1.0,1.0,34.9,33.8,33.8,3.5,3.7,2.57,0.40223459479258744,-0.0171044153223731,0.9027701484146092,-0.0006943434355147643,-0.102003,-35.330684
11.185,2.0,1.0,1.0,34.9,33.8,33.8,3.5,3.7,2.5725,0.3928807579979464,-0.01734093427566069,0.9067196783698195,-0.0008921358469283556,-0.103296,-35.207071
11.185,2.0,1.0,1.0,34.9,33.8,33.8,3.5,3.7,2.575,0.3834243280103602,-0.017579521327083306,0.9105962264416094,-0.0010964824106052607,-0.104613,-35.082996
11.185,2.0,1.0,1.0,34.9,33.8,33.8,3.5,3.7,2.5775,0.3738647546290509,-0.017820147117238592,0.9143976951031715,-0.0013075678662992924,-0.105956,-34.958455
11.185,2.0,1.0,1.0,34.9,33.8,33.8,3.5,3.7,2.58,0.3642015061890958,-0.018062779135911037,0.9181219367012622,-0.0015255821413452323,-0.107324,-34.833438
11.185,2.0,1.0,1.0,34.9,33.8,33.8,3.5,3.7,2.5825,0.35443407090307044,-0.01830738154992567,0.9217667524980645,-0.0017507204957319656,-0.108718,-34.70794
11.185,2.0,1.0,1.0,34.9,33.8,33.8,3.5,3.7,2.585,0.34456195826166874,-0.018553915022711958,0.9253298917105015,-0.0019831836712389107,-0.110139,-34.581952
11.185,2.0,1.0,1.0,34.9,33.8,33.8,3.5,3.7,2.5875,0.3345847004953101,-0.018802336525186016,0.9288090505481648,-0.0022231780447732378,-0.111588,-34.455467
11.185,2.0,1.0,1.0,34.9,33.8,33.8,3.5,3.7,2.59,0.32450185409880894,-0.019052599137539008,0.9322018712511203,-0.002470915786052188,-0.113065,-34.328478
11.185,2.0,1.0,1.0,34.9,33.8,33.8,3.5,3.7,2.5925,0.3143130014211952,-0.01930465184149999,0.9355059411289405,-0.0027266150197863895,-0.114571,-34.200975
11.185,2.0,1.0,1.0,34.9,33.8,33.8,3.5,3.7,2.595,0.30401775232284783,-0.01955843930261637,0.9387187916023939,-0.0029904999925283483,-0.116106,-34.072953
11.185,2.0,1.0,1.0,34.9,33.8,33.8,3.5,3.7,2.5975,0.2936157459021025,-0.019813901642073008,0.9418378972493495,-0.003262801244363265,-0.117672,-33.944401
11.185,2.0,1.0,1.0,34.9,33.8,33.8,3.5,3.7,2.6,0.2831066522935632,-0.02007097419754419,0.9448606748565226,-0.0035437557856314865,-0.119269,-33.815312
11.185,2.0,1.0,1.0,34.9,33.8,33.8,3.5,3.7,2.6025,0.2724901745403816,-0.020329587272544813,0.947784482478819,-0.0038336072788851087,-0.120897,-33.685677
11.185,2.0,1.0,1.0,34.9,33.8,33.8,3.5,3.7,2.605,0.2617660505427691,-0.02058966587371842,0.9506066185081342,-0.004132606226298511,-0.122558,-33.555488
11.185,2.0,1.0,1.0,34.9,33.8,33.8,3.5,3.7,2.6075,0.2509340550850845,-0.020851129435466468,0.9533243207535722,-0.00444101016276775,-0.124253,-33.424736
11.185,2.0,1.0,1.0,34.9,33.8,33.8,3.5,3.7,2.61,0.23999400194383297,-0.021113891531290216,0.9559347655351828,-0.004759083854953721,-0.125981,-33.293411
11.185,2.0,1.0,1.0,34.9,33.8,33.8,3.5,3.7,2.6125,0.2289457460789544,-0.021377859571179453,0.9584350667934128,-0.0050870995065448905,-0.127745,-33.161505
11.185,2.0,1.0,1.0,34.9,33.8,33.8,3.5,3.7,2.615,0.217789185910795,-0.02164293448434104,0.9608222752166106,-0.005425336970038315,-0.129545,-33.029007
11.185,2.0,1.0,1.0,34.9,33.8,33.8,3.5,3.7,2.6175,0.20652426568518759,-0.021909010386519684,0.9630933773890376,-0.00577408396536282,-0.131382,-32.895908
11.185,2.0,1.0,1.0,34.9,33.8,33.8,3.5,3.7,2.62,0.1951509779290777,-0.02217597423111424,0.9652452949619749,-0.00613363630569721,-0.133257,-32.762199
11.185,2.0,1.0,1.0,34.9,33.8,33.8,3.5,3.7,2.6225,0.18366936599913256,-0.02244370544324387,0.9672748838506373,-0.006504298130867456,-0.135171,-32.627868
11.185,2.0,1.0,1.0,34.9,33.8,33.8,3.5,3.7,2.625,0.172079526725819,-0.0227120755358622,0.969178933459751,-0.00688638214874041,-0.137125,-32.492906
11.185,2.0,1.0,1.0,34.9,33.8,33.8,3.5,3.7,2.6275,0.16038161315539212,-0.0229809477069592,0.9709541659407793,-0.007280209885071565,-0.139119,-32.357301
11.185,2.0,1.0,1.0,34.9,33.8,33.8,3.5,3.7,2.63,0.14857583739228541,-0.023250176416823625,0.9725972354839113,-0.007686111942304703,-0.141156,-32.221043
11.185,2.0,1.0,1.0,34.9,33.8,33.8,3.5,3.7,2.6325,0.13666247354435948,-0.023519606944268755,0.9741047276480822,-0.008104428267869234,-0.143236,-32.08412
11.185,2.0,1.0,1.0,34.9,33.8,33.8,3.5,3.7,2.635,0.12464186077349516,-0.023789074920645276,0.9754731587324023,-0.008535508432571903,-0.14536,-31.946521
11.185,2.0,1.0,1.0,34.9,33.8,33.8,3.5,3.7,2.6375,0.11251440645397878,-0.024058405840380638,0.9766989751925356,-0.008979711919735853,-0.14753,-31.808233
11.185,2.0,1.0,1.0,34.9,33.8,33.8,3.5,3.7,2.64,0.10028058944112161,-0.024327414546689984,0.9777785531056811,-0.009437408425804735,-0.149747,-31.669245
11.185,2.0,1.0,1.0,34.9,33.8,33.8,3.5,3.7,2.6425,0.08794096345256541,-0.024595904690999558,0.9787081976879476,-0.0099089781731962,-0.152012,-31.529543
11.185,2.0,1.0,1.0,34.9,33.8,33.8,3.5,3.7,2.645,0.07549616056467971,-0.02486366816451244,0.9794841428680356,-0.010394812236267524,-0.154327,-31.389114
11.185,2.0,1.0,1.0,34.9,33.8,33.8,3.5,3.7,2.6475,0.06294689482645212,-0.025130484500218455,0.9801025509212637,-0.010895312881339478,-0.156693,-31.247945
11.185,2.0,1.0,1.0,34.9,33.8,33.8,3.5,3.7,2.65,0.05029396599322802,-0.025396120243514793,0.9805595121680833,-0.011410893921818287,-0.159111,-31.106022
11.185,2.0,1.0,1.0,34.9,33.8,33.8,3.5,3.7,2.6525,0.03753826338269549,-0.02566032828944742,0.9808510447413397,-0.01194198108955612,-0.161582,-30.963331
11.185,2.0,1.0,1.0,34.9,33.8,33.8,3.5,3.7,2.655,0.02468076985538703,-0.02592284718441857,0.9809730944266253,-0.01248901242370647,-0.16411,-30.819857
11.185,2.0,1.0,1.0,34.9,33.8,33.8,3.5,3.7,2.6575,0.011722565922043333,-0.026183400390014166,0.9809215345801521,-0.013052438678452074,-0.166694,-30.675584
11.185,2.0,1.0,1.0,34.9,33.8,33.8,3.5,3.7,2.66,-0.0013351660198963693,-0.02644169550639896,0.9806921661286496,-0.013632723751122526,-0.169338,-30.530497
11.185,2.0,1.0,1.0,34.9,33.8,33.8,3.5,3.7,2.6625,-0.014491137318387345,-0.026697423452494613,0.9802807176558319,-0.014230345132367081,-0.172042,-30.384578
11.185,2.0,1.0,1.0,34.9,33.8,33.8,3.5,3.7,2.665,-0.027743948565233864,-0.026950257599899084,0.9796828455800298,-0.014845794380217278,-0.174808,-30.237812
11.185,2.0,1.0,1.0,34.9,33.8,33.8,3.5,3.7,2.6675,-0.0410920849586049,-0.027199852857218248,0.9788941344275692,-0.015479577620052892,-0.177639,-30.09018
11.185,2.0,1.0,1.0,34.9,33.8,33.8,3.5,3.7,2.67,-0.05453391152737098,-0.027445844701159756,0.9779100972065016,-0.016132216072688763,-0.180537,-29.941665
11.185,2.0,1.0,1.0,34.9,33.8,33.8,3.5,3.7,2.6725,-0.06806766821496311,-0.027687848150383408,0.9767261758852039,-0.016804246613019533,-0.183502,-29.792247
11.185,2.0,1.0,1.0,34.9,33.8,33.8,3.5,3.7,2.675,-0.08169146482040222,-0.0279254566777005,0.9753377419803354,-0.01749622236190148,-0.186539,-29.641906
11.185,2.0,1.0,1.0,34.9,33.8,33.8,3.5,3.7,2.6775,-0.09540327579410521,-0.028158241055767422,0.9737400972585105,-0.018208713314218403,-0.189648,-29.490623
11.185,2.0,1.0,1.0,34.9,33.8,33.8,3.5,3.7,2.68,-0.10920093488594612,-0.028385748130919843,0.9719284745558878,-0.018942307006371277,-0.192833,-29.338375
11.185,2.0,1.0,1.0,34.9,33.8,33.8,3.5,3.7,2.6825,-0.12308212964292849,-0.028607499519226805,0.9698980387197089,-0.019697609226751775,-0.196096,-29.185141
11.185,2.0,1.0,1.0,34.9,33.8,33.8,3.5,3.7,2.685,-0.13704439575365196,-0.028822990218218617,0.9676438876755579,-0.02047524477311497,-0.199439,-29.030898
11.185,2.0,1.0,1.0,34.9,33.8,33.8,3.5,3.7,2.6875,-0.151085111236484,-0.029031687127027,0.965161053623807,-0.0212758582611517,-0.202866,-28.875622
11.185,2.0,1.0,1.0,34.9,33.8,33.8,3.5,3.7,2.69,-0.16520149046810517,-0.029233027466882,0.9624445043683957,-0.022100114988986248,-0.206379,-28.719288
11.185,2.0,1.0,1.0,34.9,33.8,33.8,3.5,3.7,2.6925,-0.17939057804866693,-0.029426417093009413,0.9594891447805999,-0.0229487018627928,-0.209981,-28.56187
11.185,2.0,1.0,1.0,34.9,33.8,33.8,3.5,3.7,2.695,-0.1936492424993567,-0.029611228687958038,0.9562898184000151,-0.023822328389229215,-0.213675,-28.403341
11.185,2.0,1.0,1.0,34.9,33.8,33.8,3.5,3.7,2.6975,-0.20797416978761313,-0.029786799825245003,0.9528413091743467,-0.02472172774095199,-0.217465,-28.243672
11.185,2.0,1.0,1.0,34.9,33.8,33.8,3.5,3.7,2.7,-0.22236185667447791,-0.029952430890911406,0.9491383433389519,-0.025647657902081213,-0.221354,-28.082834
11.185,2.0,1.0,1.0,34.9,33.8,33.8,3.5,3.7,2.7025,-0.23680860387778974,-0.0301073828491233,0.9451755914363059,-0.026600902901158043,-0.225347,-27.920796
11.185,2.0,1.0,1.0,34.9,33.8,33.8,3.5,3.7,2.705,-0.25131050904384283,-0.030250874836294437,0.9409476704746953,-0.027582274139865158,-0.229446,-27.757526
11.185,2.0,1.0,1.0,34.9,33.8,33.8,3.5,3.7,2.7075,-0.2658634595189669,-0.030382081566335813,0.9364491462244453,-0.02859261182658131,-0.233656,-27.592989
11.185,2.0,1.0,1.0,34.9,33.8,33.8,3.5,3.7,2.71,-0.28046312491096514,-0.030500130527505918,0.9316745356488882,-0.029632786524710606,-0.237982,-27.427151
11.185,2.0,1.0,1.0,34.9,33.8,33.8,3.5,3.7,2.7125,-0.2951049494286517,-0.030604098948921556,0.926618309466012,-0.030703700826679583,-0.242427,-27.259974
11.185,2.0,1.0,1.0,34.9,33.8,33.8,3.5,3.7,2.715,-0.30978414398566667,-0.03069301051203695,0.9212748948353646,-0.03180629116552774,-0.246998,-27.091419
11.185,2.0,1.0,1.0,34.9,33.8,33.8,3.5,3.7,2.7175,-0.32449567805228097,-0.03076583177927194,0.9156386781632131,-0.03294152977714401,-0.251699,-26.921445
11.185,2.0,1.0,1.0,34.9,33.8,33.8,3.5,3.7,2.72,-0.3392342712360493,-0.030821468308396507,0.9097040080172691,-0.03411042682742146,-0.256535,-26.75001
11.185,2.0,1.0,1.0,34.9,33.8,33.8,3.5,3.7,2.7225,-0.3539943845688177,-0.030858760417208704,0.9034651981403744,-0.03531403271993121,-0.261514,-26.577068
11.185,2.0,1.0,1.0,34.9,33.8,33.8,3.5,3.7,2.725,-0.36877021147353634,-0.030876478558380365,0.8969165305504966,-0.03655344060114161,-0.26664,-26.402573
11.185,2.0,1.0,1.0,34.9,33.8,33.8,3.5,3.7,2.7275,-0.38355566837978594,-0.030873318259015018,0.8900522587120747,-0.03782978908176302,-0.27192,-26.226473
11.185,2.0,1.0,1.0,34.9,33.8,33.8,3.5,3.7,2.73,-0.39834438495130337,-0.030847894573346555,0.8828666107612965,-0.03914426519445028,-0.277362,-26.048718
11.185,2.0,1.0,1.0,34.9,33.8,33.8,3.5,3.7,2.7325,-0.4131296938825625,-0.030798735989989275,0.8753537927652035,-0.04049810760988289,-0.282973,-25.869252
11.185,2.0,1.0,1.0,34.9,33.8,33.8,3.5,3.7,2.735,-0.4279046202138038,-0.030724277727075762,0.8675079919915715,-0.041892610135133596,-0.288761,-25.688016
11.185,2.0,1.0,1.0,34.9,33.8,33.8,3.5,3.7,2.7375,-0.4426618701052603,-0.03062285433932349,0.8593233801634447,-0.04332912552025226,-0.294736,-25.50495
11.185,2.0,1.0,1.0,34.9,33.8,33.8,3.5,3.7,2.74,-0.4573938190009894,-0.030492691550343842,0.850794116668811,-0.04480906960110347,-0.300906,-25.319989
11.185,2.0,1.0,1.0,34.9,33.8,33.8,3.5,3.7,2.7425,-0.47209249910075196,-0.03033189721111288,0.8419143516923913,-0.046333925808706274,-0.307281,-25.133065
11.185,2.0,1.0,1.0,34.9,33.8,33.8,3.5,3.7,2.745,-0.48674958604431273,-0.030138451271172335,0.8326782292327732,-0.04790525007759178,-0.313872,-24.944106
11.185,2.0,1.0,1.0,34.9,33.8,33.8,3.5,3.7,2.7475,-0.5013563846960909,-0.02991019463248614,0.823079889964265,-0.049524676187995734,-0.32069,-24.753036
11.185,2.0,1.0,1.0,34.9,33.8,33.8,3.5,3.7,2.75,-0.515903813898816,-0.0296448167365396,0.813113473898837,-0.0511939215789807,-0.327749,-24.559775
11.185,2.0,1.0,1.0,34.9,33.8,33.8,3.5,3.7,2.7525,-0.5303823900422898,-0.029339841712750704,0.8027731227995392,-0.052914793671759795,-0.335062,-24.364238
11.185,2.0,1.0,1.0,34.9,33.8,33.8,3.5,3.7,2.755,-0.5447822092667589,-0.02899261289000009,0.7920529822928384,-0.0546891967444743,-0.342643,-24.166335
11.185,2.0,1.0,1.0,34.9,33.8,33.8,3.5,3.7,2.7575,-0.5590929280894248,-0.028600275442375367,0.7809472036235564,-0.056519139401321,-0.350508,-23.96597
11.185,2.0,1.0,1.0,34.9,33.8,33.8,3.5,3.7,2.76,-0.5733037422058239,-0.02815975690426312,0.7694499449928148,-0.058406742680027775,-0.358675,-23.763043
11.185,2.0,1.0,1.0,34.9,33.8,33.8,3.5,3.7,2.7625,-0.5874033631747814,-0.027667745247685935,0.7575553724166574,-0.06035424884200515,-0.367162,-23.557447
11.185,2.0,1.0,1.0,34.9,33.8,33.8,3.5,3.7,2.765,-0.6013799926448026,-0.027120664165096193,0.7452576600413952,-0.0623640308886836,-0.37599,-23.349068
11.185,2.0,1.0,1.0,34.9,33.8,33.8,3.5,3.7,2.7675,-0.615221293719473,-0.026514645142242842,0.7325509898514883,-0.06443860284513929,-0.385181,-23.137786
11.185,2.0,1.0,1.0,34.9,33.8,33.8,3.5,3.7,2.77,-0.6289143589884986,-0.025845495836454152,0.7194295507076789,-0.06658063084748563,-0.394759,-22.923472
11.185,2.0,1.0,1.0,34.9,33.8,33.8,3.5,3.7,2.7725,-0.6424456746664584,-0.02510866419361484,0.7058875366579368,-0.06879294506283487,-0.404751,-22.705991
11.185,2.0,1.0,1.0,34.9,33.8,33.8,3.5,3.7,2.775,-0.6558010801810673,-0.024299197639630468,0.691919144472615,-0.07107855245881632,-0.415187,-22.485198
11.185,2.0,1.0,1.0,34.9,33.8,33.8,3.5,3.7,2.7775,-0.6689657224333302,-0.023411696566114984,0.6775185703696949,-0.07344065042219743,-0.426099,-22.260939
11.185,2.0,1.0,1.0,34.9,33.8,33.8,3.5,3.7,2.78,-0.6819240038093841,-0.02244026119150593,0.6626800059178498,-0.07588264120112656,-0.437522,-22.033049
11.185,2.0,1.0,1.0,34.9,33.8,33.8,3.5,3.7,2.7825,-0.6946595228531751,-0.021378430713062276,0.6473976331373202,-0.07840814711026162,-0.449497,-21.801354
11.185,2.0,1.0,1.0,34.9,33.8,33.8,3.5,3.7,2.785,-0.7071550063047327,-0.02021911346637327,0.6316656188643439,-0.0810210263890753,-0.462067,-21.565667
11.185,2.0,1.0,1.0,34.9,33.8,33.8,3.5,3.7,2.7875,-0.7193922309629388,-0.01895450656993388,0.6154781085094428,-0.08372538953616351,-0.47528,-21.325788
11.185,2.0,1.0,1.0,34.9,33.8,33.8,3.5,3.7,2.79,-0.7313519335355547,-0.017576003244150533,0.5988292194291263,-0.0865256158501423,-0.48919,-21.081506
11.185,2.0,1.0,1.0,34.9,33.8,33.8,3.5,3.7,2.7925,-0.743013706281847,-0.016074085645942256,0.5817130342536794,-0.08942636978208801,-0.503859,-20.832592
11.185,2.0,1.0,1.0,34.9,33.8,33.8,3.5,3.7,2.795,-0.754355875820337,-0.01443820063840017,0.5641235946818934,-0.0924326165339556,-0.519353,-20.578803
11.185,2.0,1.0,1.0,34.9,33.8,33.8,3.5,3.7,2.7975,-0.7653553619495719,-0.012656615403191957,0.546054896483168,-0.09554963610627516,-0.535749,-20.319879
11.185,2.0,1.0,1.0,34.9,33.8,33.8,3.5,3.7,2.8,-0.7759875126919795,-0.010716249181013148,0.5275008867595118,-0.0987830346854533,-0.553132,-20.055541
11.185,2.0,1.0,1.0,34.9,33.8,33.8,3.5,3.7,2.8025,-0.7862259109946707,-0.008602476667246334,0.5084554649443562,-0.10213875183706213,-0.571598,-19.785491
11.185,2.0,1.0,1.0,34.9,33.8,33.8,3.5,3.7,2.805,-0.7960421475745583,-0.006298897665129388,0.4889124895918322,-0.10562306139684016,-0.591258,-19.509407
11.185,2.0,1.0,1.0,34.9,33.8,33.8,3.5,3.7,2.8075,-0.8054055532401363,-0.00378706646944402,0.468865793794781,-0.10924256317104103,-0.612236,-19.226946
11.185,2.0,1.0,1.0,34.9,33.8,33.8,3.5,3.7,2.81,-0.8142828826123323,-0.0010461730743571364,0.44830921313855604,-0.11300416149675986,-0.634673,-18.937739
11.185,2.0,1.0,1.0,34.9,33.8,33.8,3.5,3.7,2.8125,-0.8226379394458386,0.001947333385009447,0.4272366315568693,-0.11691502526635023,-0.658732,-18.641389
11.185,2.0,1.0,1.0,34.9,33.8,33.8,3.5,3.7,2.815,-0.8304311316557142,0.005220190600464371,0.4056420524524648,-0.12098252204255602,-0.684601,-18.337469
11.185,2.0,1.0,1.0,34.9,33.8,33.8,3.5,3.7,2.8175,-0.8376189416065757,0.008802852605529125,0.3835197051857048,-0.1252141161792781,-0.712495,-18.025522
11.185,2.0,1.0,1.0,34.9,33.8,33.8,3.5,3.7,2.82,-0.8441532941437124,0.012730119989071156,0.3608642008064328,-0.12961721713210536,-0.742663,-17.705056
11.185,2.0,1.0,1.0,34.9,33.8,33.8,3.5,3.7,2.8225,-0.849980801156958,0.017041891571834153,0.3376707561154825,-0.13419895899192563,-0.775398,-17.37554
11.185,2.0,1.0,1.0,34.9,33.8,33.8,3.5,3.7,2.825,-0.8550418571067208,0.021784062580143166,0.3139355123654506,-0.13896588513808178,-0.81104,-17.036406
11.185,2.0,1.0,1.0,34.9,33.8,33.8,3.5,3.7,2.8275,-0.8592695548915991,0.02700959929320286,0.28965598495833206,-0.14392350198343518,-0.849989,-16.687045
