1,w,sub_t,h,l1,l2,l3,g1,g2,Freq,S11_re,S21_re,S11_img,S21_img,S11_dB,S21_dB
11.185,2.0,1.0,1.0,34.1,34.8,34.8,4.3,2.6,2.5,0.769036159743417,-0.00988019248335129,0.627275864960897,0.00518153607519696,-0.066116,-39.049475
11.185,2.0,1.0,1.0,34.1,34.8,34.8,4.3,2.6,2.5025,0.7642982491228253,-0.010082072955619904,0.6329010719101292,0.005183073005062556,-0.066892,-38.910548
11.185,2.0,1.0,1.0,34.1,34.8,34.8,4.3,2.6,2.505,0.7594942932088512,-0.010288384458338124,0.638517049657357,0.005183183854236169,-0.067686,-38.770759
11.185,2.0,1.0,1.0,34.1,34.8,34.8,4.3,2.6,2.5075,0.7546235701652108,-0.010499261060801603,0.6441233073294439,0.005181804384521108,-0.068498,-38.630082
11.185,2.0,1.0,1.0,34.1,34.8,34.8,4.3,2.6,2.51,0.7496853450656078,-0.010714842567902484,0.6497193390492361,0.005178867159776496,-0.069328,-38.488493
11.185,2.0,1.0,1.0,34.1,34.8,34.8,4.3,2.6,2.5125,0.7446788695307802,-0.01093527483868368,0.6553046234038243,0.005174301348587413,-0.070178,-38.345965
11.185,2.0,1.0,1.0,34.1,34.8,34.8,4.3,2.6,2.515,0.7396033813464049,-0.01116071012652045,0.6608786228888479,0.005168032512111062,-0.071048,-38.202472
11.185,2.0,1.0,1.0,34.1,34.8,34.8,4.3,2.6,2.5175,0.7344581040603222,-0.011391307442654167,0.6664407833272766,0.00515998237578213,-0.071938,-38.057985
11.185,2.0,1.0,1.0,34.1,34.8,34.8,4.3,2.6,2.52,0.7292422465573632,-0.011627232944963515,0.6719905332609974,0.0051500685834263045,-0.07285,-37.912477
11.185,2.0,1.0,1.0,34.1,34.8,34.8,4.3,2.6,2.5225,0.7239550026099343,-0.011868660354030582,0.6775272833133242,0.00513820443218057,-0.073784,-37.765917
11.185,2.0,1.0,1.0,34.1,34.8,34.8,4.3,2.6,2.525,0.718595550402287,-0.012115771398753602,0.6830504255204448,0.005124298586450685,-0.074741,-37.618275
11.185,2.0,1.0,1.0,34.1,34.8,34.8,4.3,2.6,2.5275,0.7131630520262233,-0.012368756293970079,0.6885593326295625,0.005108254768949157,-0.075722,-37.469519
11.185,2.0,1.0,1.0,34.1,34.8,34.8,4.3,2.6,2.53,0.707656652945762,-0.012627814252789096,0.6940533573613163,0.005089971426646177,-0.076727,-37.319617
11.185,2.0,1.0,1.0,34.1,34.8,34.8,4.3,2.6,2.5325,0.7020754814280206,-0.012893154036594051,0.6995318316338056,0.00506934136923053,-0.077759,-37.168534
11.185,2.0,1.0,1.0,34.1,34.8,34.8,4.3,2.6,2.535,0.6964186479373007,-0.013164994545964686,0.7049940657452778,0.005046251377412558,-0.078816,-37.016235
11.185,2.0,1.0,1.0,34.1,34.8,34.8,4.3,2.6,2.5375,0.6906852444890534,-0.013443565456090267,0.7104393475122301,0.005020581778103682,-0.079902,-36.862684
11.185,2.0,1.0,1.0,34.1,34.8,34.8,4.3,2.6,2.54,0.6848743439600476,-0.013729107900601337,0.7158669413593546,0.004992205983171241,-0.081016,-36.707842
11.185,2.0,1.0,1.0,34.1,34.8,34.8,4.3,2.6,2.5425,0.6789849993506745,-0.014021875208146711,0.7212760873573432,0.004960989988089542,-0.08216,-36.55167
11.185,2.0,1.0,1.0,34.1,34.8,34.8,4.3,2.6,2.545,0.6730162429948959,-0.014322133696483446,0.7266660002041682,0.004926791826380621,-0.083335,-36.394127
11.185,2.0,1.0,1.0,34.1,34.8,34.8,4.3,2.6,2.5475,0.6669670857128613,-0.014630163529342582,0.732035868144937,0.004889460975254947,-0.084543,-36.23517
11.185,2.0,1.0,1.0,34.1,34.8,34.8,4.3,2.6,2.55,0.6608365159006552,-0.0149462596418849,0.7373848518248977,0.004848837707314446,-0.085784,-36.074756
11.185,2.0,1.0,1.0,34.1,34.8,34.8,4.3,2.6,2.5525,0.6546234985510694,-0.015270732741177098,0.7427120830695123,0.004804752382559078,-0.087061,-35.912837
11.185,2.0,1.0,1.0,34.1,34.8,34.8,4.3,2.6,2.555,0.6483269741985671,-0.015603910388810522,0.7480166635848313,0.004757024674231264,-0.088374,-35.749367
11.185,2.0,1.0,1.0,34.1,34.8,34.8,4.3,2.6,2.5575,0.6419458577808734,-0.01594613817355782,0.7532976635705938,0.004705462721227824,-0.089726,-35.584294
11.185,2.0,1.0,1.0,34.1,34.8,34.8,4.3,2.6,2.56,0.6354790374087592,-0.016297780982832234,0.7585541202375248,0.004649862198891732,-0.091118,-35.417568
11.185,2.0,1.0,1.0,34.1,34.8,34.8,4.3,2.6,2.5625,0.6289253730346097,-0.016659224382690803,0.7637850362192867,0.004590005298946254,-0.092551,-35.249132
11.185,2.0,1.0,1.0,34.1,34.8,34.8,4.3,2.6,2.565,0.622283695009281,-0.017030876117223162,0.7689893778683248,0.00452565960813381,-0.094029,-35.078932
11.185,2.0,1.0,1.0,34.1,34.8,34.8,4.3,2.6,2.5675,0.615552802515527,-0.017413167739404198,0.7741660734234478,0.004456576873743694,-0.095553,-34.906906
11.185,2.0,1.0,1.0,34.1,34.8,34.8,4.3,2.6,2.57,0.6087314618648672,-0.017806556386890788,0.7793140110354326,0.004382491642630048,-0.097125,-34.732994
11.185,2.0,1.0,1.0,34.1,34.8,34.8,4.3,2.6,2.5725,0.6018184046432044,-0.018211526717820187,0.7844320366350875,0.004303119758497433,-0.098748,-34.557129
11.185,2.0,1.0,1.0,34.1,34.8,34.8,4.3,2.6,2.575,0.5948123256887142,-0.01862859302345908,0.7895189516261215,0.004218156700127501,-0.100424,-34.379245
11.185,2.0,1.0,1.0,34.1,34.8,34.8,4.3,2.6,2.5775,0.5877118808834979,-0.01905830153657867,0.7945735103827267,0.004127275740786614,-0.102155,-34.199271
11.185,2.0,1.0,1.0,34.1,34.8,34.8,4.3,2.6,2.58,0.5805156847381946,-0.019501232956734615,0.7995944175289523,0.0040301259062339575,-0.103946,-34.01713
11.185,2.0,1.0,1.0,34.1,34.8,34.8,4.3,2.6,2.5825,0.5732223077461166,-0.01995800521624807,0.8045803249736977,0.003926329705473075,-0.105799,-33.832746
11.185,2.0,1.0,1.0,34.1,34.8,34.8,4.3,2.6,2.585,0.5658302734805049,-0.02042927651366378,0.8095298286713116,0.0038154806045758672,-0.107716,-33.646035
11.185,2.0,1.0,1.0,34.1,34.8,34.8,4.3,2.6,2.5875,0.5583380554050634,-0.020915748644861915,0.8144414650733559,0.0036971402094557715,-0.109703,-33.456912
11.185,2.0,1.0,1.0,34.1,34.8,34.8,4.3,2.6,2.59,0.5507440733640777,-0.02141817066588095,0.8193137072318802,0.0035708351182588806,-0.111763,-33.265285
11.185,2.0,1.0,1.0,34.1,34.8,34.8,4.3,2.6,2.5925,0.5430466897139077,-0.0219373429259522,0.8241449605084578,0.003436053397932355,-0.113899,-33.07106
11.185,2.0,1.0,1.0,34.1,34.8,34.8,4.3,2.6,2.595,0.5352442050525956,-0.022474121514333173,0.828933557836044,0.0032922406323460476,-0.116118,-32.874134
11.185,2.0,1.0,1.0,34.1,34.8,34.8,4.3,2.6,2.5975,0.5273348534983848,-0.02302942317036869,0.8336777544722739,0.0031387954808712567,-0.118422,-32.674403
11.185,2.0,1.0,1.0,34.1,34.8,34.8,4.3,2.6,2.6,0.5193167974612539,-0.023604230712917774,0.8383757221728045,0.0029750646763040097,-0.120819,-32.471753
11.185,2.0,1.0,1.0,34.1,34.8,34.8,4.3,2.6,2.6025,0.5111881218437593,-0.02419959905300923,0.8430255427014328,0.0028003373791420333,-0.123313,-32.266067
11.185,2.0,1.0,1.0,34.1,34.8,34.8,4.3,2.6,2.605,0.502946827598508,-0.024816661862495305,0.847625200579636,0.002613838791095049,-0.125912,-32.057219
11.185,2.0,1.0,1.0,34.1,34.8,34.8,4.3,2.6,2.6075,0.49459082455922937,-0.02545663898174909,0.8521725749613127,0.0024147229138531965,-0.128621,-31.845077
11.185,2.0,1.0,1.0,34.1,34.8,34.8,4.3,2.6,2.61,0.4861179234504261,-0.026120844661337284,0.856665430498386,0.002202064318963469,-0.131449,-31.6295
11.185,2.0,1.0,1.0,34.1,34.8,34.8,4.3,2.6,2.6125,0.47752582696668605,-0.02681069674635318,0.8611014070387073,0.001974848770438874,-0.134403,-31.410338
11.185,2.0,1.0,1.0,34.1,34.8,34.8,4.3,2.6,2.615,0.4688121197966536,-0.027527726928036688,0.8654780079685751,0.0017319625125368748,-0.137493,-31.187435
11.185,2.0,1.0,1.0,34.1,34.8,34.8,4.3,2.6,2.6175,0.4599742574479663,-0.0282735922057991,0.8697925869768899,0.0014721799998500251,-0.140728,-30.960622
11.185,2.0,1.0,1.0,34.1,34.8,34.8,4.3,2.6,2.62,0.45100955370774914,-0.02905008772424417,0.8740423329752185,0.001194149804021246,-0.14412,-30.729719
11.185,2.0,1.0,1.0,34.1,34.8,34.8,4.3,2.6,2.6225,0.4419151665480083,-0.02985916117472488,0.8782242528559018,0.0008963783792214124,-0.147681,-30.494536
11.185,2.0,1.0,1.0,34.1,34.8,34.8,4.3,2.6,2.625,0.432688082255934,-0.0307029289799672,0.882335151706578,0.000577211304720432,-0.151423,-30.254869
11.185,2.0,1.0,1.0,34.1,34.8,34.8,4.3,2.6,2.6275,0.423325097534937,-0.03158369451399296,0.8863716100212371,0.00023481154453127546,-0.155363,-30.010501
11.185,2.0,1.0,1.0,34.1,34.8,34.8,4.3,2.6,2.63,0.41382279928259763,-0.03250396864870405,0.8903299573513538,-0.00013286583250844388,-0.159515,-29.7612
11.185,2.0,1.0,1.0,34.1,34.8,34.8,4.3,2.6,2.6325,0.40417754170559217,-0.03346649296388776,0.8942062417210621,-0.0005281031485159066,-0.163898,-29.506715
11.185,2.0,1.0,1.0,34.1,34.8,34.8,4.3,2.6,2.635,0.39438542037829455,-0.03447426600994119,0.897996193981543,-0.0009534546533824065,-0.168534,-29.246779
11.185,2.0,1.0,1.0,34.1,34.8,34.8,4.3,2.6,2.6375,0.3844422427900805,-0.03553057307320862,0.9016951860937552,-0.0014117871139211846,-0.173444,-28.981104
11.185,2.0,1.0,1.0,34.1,34.8,34.8,4.3,2.6,2.64,0.37434349485548385,-0.03663901996336323,0.9052981820949163,-0.0019063277004252302,-0.178655,-28.709382
11.185,2.0,1.0,1.0,34.1,34.8,34.8,4.3,2.6,2.6425,0.36408430278053733,-0.037803571421442195,0.9087996802090013,-0.0024407207109020204,-0.184196,-28.431278
11.185,2.0,1.0,1.0,34.1,34.8,34.8,4.3,2.6,2.645,0.3536593895873039,-0.039028594836323614,0.9121936441868668,-0.0030190950479356553,-0.190099,-28.146431
11.185,2.0,1.0,1.0,34.1,34.8,34.8,4.3,2.6,2.6475,0.3430630254971862,-0.040318910056208156,0.9154734214833266,-0.0036461448413269535,-0.196403,-27.854452
11.185,2.0,1.0,1.0,34.1,34.8,34.8,4.3,2.6,2.65,0.33228897126346674,-0.04167984618835225,0.9186316452645562,-0.004327226223472058,-0.20315,-27.554917
11.185,2.0,1.0,1.0,34.1,34.8,34.8,4.3,2.6,2.6525,0.32133041342862056,-0.043117306390896434,0.921660116446304,-0.005068474056976819,-0.21039,-27.247367
11.185,2.0,1.0,1.0,34.1,34.8,34.8,4.3,2.6,2.655,0.31017989036950255,-0.044637841767362865,0.9245496609331653,-0.005876943443611421,-0.218178,-26.931301
11.185,2.0,1.0,1.0,34.1,34.8,34.8,4.3,2.6,2.6575,0.29882920789761097,-0.04624873556304375,0.9272899558820259,-0.006760782189785443,-0.22658,-26.606174
11.185,2.0,1.0,1.0,34.1,34.8,34.8,4.3,2.6,2.66,0.28726934312615166,-0.04795809890842082,0.9298693170396308,-0.007729442175126302,-0.235672,-26.271389
11.185,2.0,1.0,1.0,34.1,34.8,34.8,4.3,2.6,2.6625,0.2754903353418667,-0.04977497931602388,0.932274436854515,-0.00879393991762944,-0.245542,-25.926292
11.185,2.0,1.0,1.0,34.1,34.8,34.8,4.3,2.6,2.665,0.26348116279656225,-0.05170948294361077,0.9344900599280976,-0.009967179759803319,-0.256293,-25.570164
11.185,2.0,1.0,1.0,34.1,34.8,34.8,4.3,2.6,2.6675,0.2512296047762792,-0.05377291117163751,0.936498578156063,-0.01126435730682945,-0.268047,-25.202215
11.185,2.0,1.0,1.0,34.1,34.8,34.8,4.3,2.6,2.67,0.23872208920606214,-0.05597791111355924,0.9382795222075825,-0.012703466440211688,-0.280951,-24.821572
11.185,2.0,1.0,1.0,34.1,34.8,34.8,4.3,2.6,2.6725,0.22594352772291904,-0.05833863796337001,0.9398089182137903,-0.014305940989046402,-0.295177,-24.427267
11.185,2.0,1.0,1.0,34.1,34.8,34.8,4.3,2.6,2.675,0.21287714312723605,-0.06087092405364744,0.94105846785941,-0.016097472791061773,-0.310934,-24.018227
11.185,2.0,1.0,1.0,34.1,34.8,34.8,4.3,2.6,2.6775,0.19950429928788796,-0.06359244425962299,0.9419944953092164,-0.018109062594265042,-0.328474,-23.593261
11.185,2.0,1.0,1.0,34.1,34.8,34.8,4.3,2.6,2.68,0.18580435241815385,-0.06652285844358566,0.9425765838624697,-0.02037838071941809,-0.348106,-23.151036
11.185,2.0,1.0,1.0,34.1,34.8,34.8,4.3,2.6,2.6825,0.17175455768773026,-0.0696838964497889,0.9427557964996895,-0.022951543021483972,-0.37021,-22.690064
11.185,2.0,1.0,1.0,34.1,34.8,34.8,4.3,2.6,2.685,0.15733009072597645,-0.07309932538418762,0.9424723341498241,-0.02588544784547466,-0.39526,-22.208678
11.185,2.0,1.0,1.0,34.1,34.8,34.8,4.3,2.6,2.6875,0.142504287209711,-0.0767946950222328,0.941652428809643,-0.0292508760763601,-0.423847,-21.705007
11.185,2.0,1.0,1.0,34.1,34.8,34.8,4.3,2.6,2.69,0.12724927855136786,-0.08079668202612962,0.9402041892237344,-0.03313663532505766,-0.456724,-21.176952
11.185,2.0,1.0,1.0,34.1,34.8,34.8,4.3,2.6,2.6925,0.11153733094230885,-0.08513172397181569,0.9380120068055428,-0.037655138519321535,-0.494857,-20.622154
11.185,2.0,1.0,1.0,34.1,34.8,34.8,4.3,2.6,2.695,0.09534342015317906,-0.08982340849685733,0.9349289809003176,-0.04294995439946408,-0.539495,-20.037974
11.185,2.0,1.0,1.0,34.1,34.8,34.8,4.3,2.6,2.6975,0.07864997021952302,-0.0948876865787524,0.9307666326578106,-0.049206054960128025,-0.592284,-19.421473
11.185,2.0,1.0,1.0,34.1,34.8,34.8,4.3,2.6,2.7,0.06145538527846323,-0.10032427744929334,0.9252809640156444,-0.05666369372141149,-0.655411,-18.769414
11.185,2.0,1.0,1.0,34.1,34.8,34.8,4.3,2.6,2.7025,0.043789252583188124,-0.10610138442773281,0.9181537649547032,-0.0656369953100918,-0.731824,-18.078308
11.185,2.0,1.0,1.0,34.1,34.8,34.8,4.3,2.6,2.705,0.02573931672975433,-0.11212862221112238,0.9089682370461717,-0.07653816045833768,-0.825545,-17.34453
11.185,2.0,1.0,1.0,34.1,34.8,34.8,4.3,2.6,2.7075,0.007499225351354218,-0.11820916647131746,0.897179204333994,-0.08990696829589122,-0.942113,-16.564601
11.185,2.0,1.0,1.0,34.1,34.8,34.8,4.3,2.6,2.71,-0.01054738032840346,-0.12395559219607902,0.8820823016432613,-0.10644110868756225,-1.089197,-15.73575
11.185,2.0,1.0,1.0,34.1,34.8,34.8,4.3,2.6,2.7125,-0.0276808992744935,-0.12864398174315012,0.8627981989057935,-0.1270111692201601,-1.277348,-14.857032
11.185,2.0,1.0,1.0,34.1,34.8,34.8,4.3,2.6,2.715,-0.042601646353945706,-0.13097029941981186,0.8383176708262469,-0.15261432644956072,-1.520627,-13.931421
11.185,2.0,1.0,1.0,34.1,34.8,34.8,4.3,2.6,2.7175,-0.05305689025636163,-0.12867898091160052,0.8077211715458186,-0.1841530429599773,-1.836072,-12.969613
11.185,2.0,1.0,1.0,34.1,34.8,34.8,4.3,2.6,2.72,-0.05539443700380696,-0.11812031423780887,0.7708125083916343,-0.22179972162749462,-2.238653,-11.996437
11.185,2.0,1.0,1.0,34.1,34.8,34.8,4.3,2.6,2.7225,-0.04443028130723532,-0.09412559355330628,0.7295251210795559,-0.263591213493541,-2.723116,-11.060167
11.185,2.0,1.0,1.0,34.1,34.8,34.8,4.3,2.6,2.725,-0.014773509200573328,-0.05134214119211659,0.6901230585557175,-0.3032370642672103,-3.219479,-10.241606
11.185,2.0,1.0,1.0,34.1,34.8,34.8,4.3,2.6,2.7275,0.034810000769088044,0.01140142624262336,0.6643642770449053,-0.3289801961982503,-3.539968,-9.651392
11.185,2.0,1.0,1.0,34.1,34.8,34.8,4.3,2.6,2.73,0.09552987372075207,0.08525649059531502,0.6650881055874137,-0.3280355679975351,-3.453729,-9.397707
11.185,2.0,1.0,1.0,34.1,34.8,34.8,4.3,2.6,2.7325,0.14961793368073456,0.1524547066133435,0.6957525128503657,-0.2970369734247533,-2.954573,-9.528287
11.185,2.0,1.0,1.0,34.1,34.8,34.8,4.3,2.6,2.735,0.18224070894414274,0.19823244984238356,0.7459096293050305,-0.2464947721753541,-2.294478,-9.997578
11.185,2.0,1.0,1.0,34.1,34.8,34.8,4.3,2.6,2.7375,0.19062942400583252,0.2199051032085801,0.8001438930505865,-0.19181854842467466,-1.696874,-10.69802
11.185,2.0,1.0,1.0,34.1,34.8,34.8,4.3,2.6,2.74,0.1808106232762335,0.22354782946938048,0.848151182103256,-0.14326484266060815,-1.237516,-11.518204
11.185,2.0,1.0,1.0,34.1,34.8,34.8,4.3,2.6,2.7425,0.1603703503907254,0.21675779789833471,0.8864218924900863,-0.10429384291067746,-0.907316,-12.376129
11.185,2.0,1.0,1.0,34.1,34.8,34.8,4.3,2.6,2.745,0.1348918435935222,0.20511054966226536,0.9153577847209505,-0.07446861301010478,-0.674878,-13.222479
11.185,2.0,1.0,1.0,34.1,34.8,34.8,4.3,2.6,2.7475,0.10764771771462872,0.19186623078724313,0.9366792626754481,-0.05204693688012893,-0.511197,-14.031662
11.185,2.0,1.0,1.0,34.1,34.8,34.8,4.3,2.6,2.75,0.080314818721013,0.178690374786401,0.952179719903571,-0.035221951434979,-0.394832,-14.792436
11.185,2.0,1.0,1.0,34.1,34.8,34.8,4.3,2.6,2.7525,0.05365525441088109,0.1663363786183422,0.9633292510614208,-0.022514409417218925,-0.311053,-15.501409
11.185,2.0,1.0,1.0,34.1,34.8,34.8,4.3,2.6,2.755,0.027953874662411993,0.15508278837990858,0.9712308896297764,-0.012814052831631987,-0.249954,-16.159178
11.185,2.0,1.0,1.0,34.1,34.8,34.8,4.3,2.6,2.7575,0.0032623135360133546,0.14497676936709833,0.9766833529935194,-0.005315611919106769,-0.204876,-16.768197
11.185,2.0,1.0,1.0,34.1,34.8,34.8,4.3,2.6,2.76,-0.02047356166581732,0.13596102308938132,0.980258012713641,0.0005587877619373228,-0.171298,-17.331638
11.185,2.0,1.0,1.0,34.1,34.8,34.8,4.3,2.6,2.7625,-0.04334965463600885,0.12793738243709732,0.9823632218054548,0.0052242520720895535,-0.146109,-17.852815
11.185,2.0,1.0,1.0,34.1,34.8,34.8,4.3,2.6,2.765,-0.06547264467283781,0.1207975288434419,0.9832921097998961,0.008981056375545832,-0.127137,-18.334899
11.185,2.0,1.0,1.0,34.1,34.8,34.8,4.3,2.6,2.7675,-0.08694575211539628,0.11443704102277057,0.9832564823363662,0.012048616286722425,-0.112837,-18.78079
11.185,2.0,1.0,1.0,34.1,34.8,34.8,4.3,2.6,2.77,-0.10786286396510811,0.1087611484842687,0.9824104430453188,0.014589150681796786,-0.102101,-19.193075
11.185,2.0,1.0,1.0,34.1,34.8,34.8,4.3,2.6,2.7725,-0.12830673242644525,0.10368645679594174,0.9808667876001758,0.016724107419542347,-0.094115,-19.574018
11.185,2.0,1.0,1.0,34.1,34.8,34.8,4.3,2.6,2.775,-0.14834907596724006,0.09914080115675551,0.9787084152357478,0.018545607277970975,-0.088282,-19.925579
11.185,2.0,1.0,1.0,34.1,34.8,34.8,4.3,2.6,2.7775,-0.16805149486188745,0.09506230723335163,0.9759963241380717,0.020124477799542313,-0.084151,-20.249435
11.185,2.0,1.0,1.0,34.1,34.8,34.8,4.3,2.6,2.78,-0.1874666656094862,0.09139818906526095,0.9727752594595139,0.02151594885605919,-0.081383,-20.547006
11.185,2.0,1.0,1.0,34.1,34.8,34.8,4.3,2.6,2.7825,-0.20663956000253667,0.0881035346611964,0.96907773780568,0.02276373595311244,-0.079719,-20.819476
11.185,2.0,1.0,1.0,34.1,34.8,34.8,4.3,2.6,2.785,-0.22560857705690962,0.08514018895730756,0.9649269385750117,0.023903003640126482,-0.078959,-21.067818
11.185,2.0,1.0,1.0,34.1,34.8,34.8,4.3,2.6,2.7875,-0.24440654703902556,0.08247577380365227,0.9603387957878221,0.024962544847437644,-0.078951,-21.292812
11.185,2.0,1.0,1.0,34.1,34.8,34.8,4.3,2.6,2.79,-0.2630616011514619,0.08008285105177557,0.955323518792251,0.025966407173444374,-0.079573,-21.495059
11.185,2.0,1.0,1.0,34.1,34.8,34.8,4.3,2.6,2.7925,-0.2815979160002901,0.07793821981248211,0.9498866992009287,0.026935126765969344,-0.080734,-21.674996
11.185,2.0,1.0,1.0,34.1,34.8,34.8,4.3,2.6,2.795,-0.30003634807466467,0.076022333307878,0.9440301130586225,0.02788668295084499,-0.08236,-21.832907
11.185,2.0,1.0,1.0,34.1,34.8,34.8,4.3,2.6,2.7975,-0.318394974956283,0.07431881967375645,0.9377522939412934,0.028837254568031857,-0.084396,-21.96893
11.185,2.0,1.0,1.0,34.1,34.8,34.8,4.3,2.6,2.8,-0.33668955934562944,0.07281409211416509,0.9310489293993238,0.02980183710675985,-0.0868,-22.083064
11.185,2.0,1.0,1.0,34.1,34.8,34.8,4.3,2.6,2.8025,-0.35493395052283255,0.07149703572001413,0.9239131165280893,0.03079476493056333,-0.089541,-22.175171
11.185,2.0,1.0,1.0,34.1,34.8,34.8,4.3,2.6,2.805,-0.3731404361934205,0.07035876042403623,0.9163355002152472,0.03183017302728039,-0.092597,-22.244977
11.185,2.0,1.0,1.0,34.1,34.8,34.8,4.3,2.6,2.8075,-0.3913200561087989,0.06939241169312255,0.908304308213748,0.032922426439694355,-0.095954,-22.292074
11.185,2.0,1.0,1.0,34.1,34.8,34.8,4.3,2.6,2.81,-0.40948288753159506,0.06859303254458363,0.8998052894996444,0.03408654197809641,-0.099606,-22.315916
11.185,2.0,1.0,1.0,34.1,34.8,34.8,4.3,2.6,2.8125,-0.427638311583659,0.0679574722888002,0.890821555531094,0.0353386255074142,-0.103555,-22.315812
11.185,2.0,1.0,1.0,34.1,34.8,34.8,4.3,2.6,2.815,-0.44579526877258485,0.06748433905936624,0.8813333172944482,0.036696348852066255,-0.107808,-22.290922
11.185,2.0,1.0,1.0,34.1,34.8,34.8,4.3,2.6,2.8175,-0.4639625115200679,0.06717399471748593,0.8713175036890063,0.03817949324765315,-0.11238,-22.240243
11.185,2.0,1.0,1.0,34.1,34.8,34.8,4.3,2.6,2.82,-0.48214886127225404,0.06702859212748817,0.8607472380590477,0.039810591644730976,-0.117295,-22.162596
11.185,2.0,1.0,1.0,34.1,34.8,34.8,4.3,2.6,2.8225,-0.5003634776907482,0.06705215608598392,0.8495911385096547,0.04161571073485441,-0.122584,-22.056612
11.185,2.0,1.0,1.0,34.1,34.8,34.8,4.3,2.6,2.825,-0.5186161473831832,0.06725071028410082,0.8378123926307878,0.04362542649758457,-0.128289,-21.920704
11.185,2.0,1.0,1.0,34.1,34.8,34.8,4.3,2.6,2.8275,-0.5369175994107901,0.06763245341872764,0.8253675363383761,0.04587606624331612,-0.134468,-21.75304
11.185,2.0,1.0,1.0,34.1,34.8,34.8,4.3,2.6,2.83,-0.5552798539795448,0.06820798756686192,0.8122048365861475,0.04841131854114846,-0.141191,-21.551511
