1,w,sub_t,h,l1,l2,l3,g1,g2,Freq,S11_re,S21_re,S11_img,S21_img,S11_dB,S21_dB
11.185,2.0,1.0,1.0,33.5,33.0,33.0,3.5,2.0,2.5,0.849000312077702,-0.00741478944704056,0.516764660644312,0.00634509147918781,-0.053102,-40.211839
11.185,2.0,1.0,1.0,33.5,33.0,33.0,3.5,2.0,2.5025,0.8455437424340297,-0.0075597365430501206,0.5222992308182606,0.006371477054985924,-0.05357,-40.09904
11.185,2.0,1.0,1.0,33.5,33.0,33.0,3.5,2.0,2.505,0.8420364797732715,-0.007707154625680507,0.5278323978899354,0.006397165548668497,-0.054046,-39.985953
11.185,2.0,1.0,1.0,33.5,33.0,33.0,3.5,2.0,2.5075,0.8384780469068462,-0.007857088856712935,0.5333639203486149,0.006422125442793746,-0.05453,-39.872575
11.185,2.0,1.0,1.0,33.5,33.0,33.0,3.5,2.0,2.51,0.8348679595019223,-0.008009585354641201,0.5388935496548756,0.006446324132538409,-0.055021,-39.758899
11.185,2.0,1.0,1.0,33.5,33.0,33.0,3.5,2.0,2.5125,0.8312057259819672,-0.008164691218864737,0.5444210300212865,0.0064697278860432255,-0.055521,-39.64492
11.185,2.0,1.0,1.0,33.5,33.0,33.0,3.5,2.0,2.515,0.8274908474266167,-0.008322454554591097,0.5499460981862964,0.006492301803122336,-0.056029,-39.530632
11.185,2.0,1.0,1.0,33.5,33.0,33.0,3.5,2.0,2.5175,0.8237228174709005,-0.008482924498470113,0.5554684831810625,0.006514009772260168,-0.056545,-39.416031
11.185,2.0,1.0,1.0,33.5,33.0,33.0,3.5,2.0,2.52,0.8199011222038627,-0.00864615124498361,0.560987906089014,0.006534814425816056,-0.057069,-39.30111
11.185,2.0,1.0,1.0,33.5,33.0,33.0,3.5,2.0,2.5225,0.8160252400666366,-0.008812186073613925,0.5665040797978819,0.00655467709335125,-0.057603,-39.185864
11.185,2.0,1.0,1.0,33.5,33.0,33.0,3.5,2.0,2.525,0.8120946417500108,-0.008981081376817126,0.5720167087439663,0.006573557752990016,-0.058145,-39.070287
11.185,2.0,1.0,1.0,33.5,33.0,33.0,3.5,2.0,2.5275,0.8081087900915499,-0.009152890688825932,0.5775254886483786,0.006591414980720778,-0.058697,-38.954372
11.185,2.0,1.0,1.0,33.5,33.0,33.0,3.5,2.0,2.53,0.8040671399723237,-0.00932766871530904,0.5830301062449799,0.006608205897538783,-0.059258,-38.838115
11.185,2.0,1.0,1.0,33.5,33.0,33.0,3.5,2.0,2.5325,0.7999691382133142,-0.009505471363914038,0.5885302389997481,0.006623886114326372,-0.059828,-38.721509
11.185,2.0,1.0,1.0,33.5,33.0,33.0,3.5,2.0,2.535,0.795814223471558,-0.009686355775722693,0.5940255548212864,0.00663840967436114,-0.060409,-38.604547
11.185,2.0,1.0,1.0,33.5,33.0,33.0,3.5,2.0,2.5375,0.7916018261361095,-0.009870380357646771,0.5995157117621638,0.0066517289933367375,-0.060999,-38.487224
11.185,2.0,1.0,1.0,33.5,33.0,33.0,3.5,2.0,2.54,0.7873313682238923,-0.010057604815795434,0.6050003577107897,0.00666379479677437,-0.0616,-38.369533
11.185,2.0,1.0,1.0,33.5,33.0,33.0,3.5,2.0,2.5425,0.7830022632755261,-0.01024809018984429,0.6104791300734991,0.006674556054696788,-0.062212,-38.251466
11.185,2.0,1.0,1.0,33.5,33.0,33.0,3.5,2.0,2.545,0.7786139162512168,-0.010441898888438775,0.6159516554465119,0.0066839599134289615,-0.062834,-38.133019
11.185,2.0,1.0,1.0,33.5,33.0,33.0,3.5,2.0,2.5475,0.7741657234268101,-0.010639094725664006,0.6214175492774214,0.0066919516243828265,-0.063467,-38.014184
11.185,2.0,1.0,1.0,33.5,33.0,33.0,3.5,2.0,2.55,0.7696570722900967,-0.010839742958616056,0.6268764155158639,0.006698474469674641,-0.064112,-37.894953
11.185,2.0,1.0,1.0,33.5,33.0,33.0,3.5,2.0,2.5525,0.7650873414374969,-0.011043910326108079,0.6323278462529786,0.0067034696844160795,-0.064769,-37.775321
11.185,2.0,1.0,1.0,33.5,33.0,33.0,3.5,2.0,2.555,0.7604559004712198,-0.011251665088548898,0.637771421349291,0.006706876375509962,-0.065437,-37.655279
11.185,2.0,1.0,1.0,33.5,33.0,33.0,3.5,2.0,2.5575,0.7557621098970319,-0.011463077069030013,0.6432067080506124,0.006708631436773223,-0.066117,-37.53482
11.185,2.0,1.0,1.0,33.5,33.0,33.0,3.5,2.0,2.56,0.7510053210227603,-0.011678217695659505,0.6486332605915351,0.006708669460198438,-0.06681,-37.413938
11.185,2.0,1.0,1.0,33.5,33.0,33.0,3.5,2.0,2.5625,0.7461848758576742,-0.011897160045182095,0.6540506197860978,0.006706922643155106,-0.067516,-37.292624
11.185,2.0,1.0,1.0,33.5,33.0,33.0,3.5,2.0,2.565,0.7413001070128814,-0.012119978887925764,0.6594583126051717,0.0067033206913200815,-0.068235,-37.170871
11.185,2.0,1.0,1.0,33.5,33.0,33.0,3.5,2.0,2.5675,0.7363503376029105,-0.012346750734116091,0.6648558517400965,0.0066977907171144385,-0.068967,-37.048671
11.185,2.0,1.0,1.0,33.5,33.0,33.0,3.5,2.0,2.57,0.7313348811486337,-0.012577553881601297,0.6702427351520864,0.006690257133410442,-0.069713,-36.926015
11.185,2.0,1.0,1.0,33.5,33.0,33.0,3.5,2.0,2.5725,0.7262530414817094,-0.012812468465031564,0.6756184456069005,0.006680641542259427,-0.070474,-36.802896
11.185,2.0,1.0,1.0,33.5,33.0,33.0,3.5,2.0,2.575,0.7211041126507325,-0.013051576506537549,0.6809824501942559,0.006668862618375242,-0.071249,-36.679306
11.185,2.0,1.0,1.0,33.5,33.0,33.0,3.5,2.0,2.5775,0.7158873788292891,-0.013294961967954171,0.6863341998314322,0.006654835987093066,-0.072038,-36.555235
11.185,2.0,1.0,1.0,33.5,33.0,33.0,3.5,2.0,2.58,0.710602114226129,-0.013542710804636508,0.6916731287505031,0.006638474096505959,-0.072843,-36.430676
11.185,2.0,1.0,1.0,33.5,33.0,33.0,3.5,2.0,2.5825,0.705247582997672,-0.013794911020916794,0.6969986539686079,0.006619686083463524,-0.073664,-36.305618
11.185,2.0,1.0,1.0,33.5,33.0,33.0,3.5,2.0,2.585,0.6998230391630882,-0.014051652727251122,0.7023101747406378,0.006598377633098099,-0.074501,-36.180054
11.185,2.0,1.0,1.0,33.5,33.0,33.0,3.5,2.0,2.5875,0.6943277265221977,-0.01431302819910684,0.7076070719937079,0.006574450831522379,-0.075354,-36.053974
11.185,2.0,1.0,1.0,33.5,33.0,33.0,3.5,2.0,2.59,0.6887608785764603,-0.014579131937641874,0.7128887077427328,0.006547804011321503,-0.076224,-35.927369
11.185,2.0,1.0,1.0,33.5,33.0,33.0,3.5,2.0,2.5925,0.6831217184533208,-0.014850060732228615,0.7181544244864224,0.006518331589437985,-0.077112,-35.800229
11.185,2.0,1.0,1.0,33.5,33.0,33.0,3.5,2.0,2.595,0.6774094588342235,-0.015125913724875283,0.7234035445829526,0.006485923897023173,-0.078017,-35.672544
11.185,2.0,1.0,1.0,33.5,33.0,33.0,3.5,2.0,2.5975,0.6716233018865903,-0.015406792476599882,0.7286353696045726,0.006450467000801578,-0.078941,-35.544304
11.185,2.0,1.0,1.0,33.5,33.0,33.0,3.5,2.0,2.6,0.6657624392000984,-0.015692801035810763,0.7338491796703385,0.006411842515465675,-0.079884,-35.415499
11.185,2.0,1.0,1.0,33.5,33.0,33.0,3.5,2.0,2.6025,0.6598260517276134,-0.01598404600875006,0.7390442327561498,0.006369927406587085,-0.080846,-35.286119
11.185,2.0,1.0,1.0,33.5,33.0,33.0,3.5,2.0,2.605,0.653813309731133,-0.016280636632055877,0.7442197639812294,0.006324593783497627,-0.081828,-35.156153
11.185,2.0,1.0,1.0,33.5,33.0,33.0,3.5,2.0,2.6075,0.6477233727331366,-0.016582684847499973,0.7493749848701288,0.00627570868155663,-0.08283,-35.02559
11.185,2.0,1.0,1.0,33.5,33.0,33.0,3.5,2.0,2.61,0.6415553894737579,-0.01689030537895704,0.7545090825893184,0.006223133833183845,-0.083853,-34.894418
11.185,2.0,1.0,1.0,33.5,33.0,33.0,3.5,2.0,2.6125,0.6353084978742022,-0.01720361581166294,0.7596212191573648,0.0061667254269947205,-0.084898,-34.762628
11.185,2.0,1.0,1.0,33.5,33.0,33.0,3.5,2.0,2.615,0.628981825006873,-0.017522736673818,0.7647105306276619,0.006106333854330653,-0.085966,-34.630206
11.185,2.0,1.0,1.0,33.5,33.0,33.0,3.5,2.0,2.6175,0.6225744870726939,-0.01784779152059088,0.7697761262426117,0.006041803442429786,-0.087056,-34.497141
11.185,2.0,1.0,1.0,33.5,33.0,33.0,3.5,2.0,2.62,0.6160855893861354,-0.018178907020578273,0.7748170875581214,0.005972972173431256,-0.088169,-34.363421
11.185,2.0,1.0,1.0,33.5,33.0,33.0,3.5,2.0,2.6225,0.6095142263684785,-0.018516213044774216,0.7798324675372084,0.0058996713883505475,-0.089307,-34.229033
11.185,2.0,1.0,1.0,33.5,33.0,33.0,3.5,2.0,2.625,0.602859481549904,-0.0188598427580999,0.784821289611445,0.00582172547510486,-0.09047,-34.093965
11.185,2.0,1.0,1.0,33.5,33.0,33.0,3.5,2.0,2.6275,0.5961204275809864,-0.01920993271354524,0.7897825467089246,0.00573895153960115,-0.091658,-33.958203
11.185,2.0,1.0,1.0,33.5,33.0,33.0,3.5,2.0,2.63,0.5892961262542437,-0.01956662294896746,0.7947152002473383,0.0056511590588312335,-0.092873,-33.821735
11.185,2.0,1.0,1.0,33.5,33.0,33.0,3.5,2.0,2.6325,0.5823856285364076,-0.019930057086591176,0.7996181790906977,0.005558149514842146,-0.094115,-33.684546
11.185,2.0,1.0,1.0,33.5,33.0,33.0,3.5,2.0,2.635,0.5753879746121247,-0.020300382435248388,0.8044903784681404,0.005459716008369744,-0.095386,-33.546622
11.185,2.0,1.0,1.0,33.5,33.0,33.0,3.5,2.0,2.6375,0.5683021939398433,-0.020677750095392067,0.8093306588531833,0.005355642850834231,-0.096685,-33.40795
11.185,2.0,1.0,1.0,33.5,33.0,33.0,3.5,2.0,2.64,0.5611273053206591,-0.021062315066912026,0.8141378448016934,0.005245705133302036,-0.098014,-33.268514
11.185,2.0,1.0,1.0,33.5,33.0,33.0,3.5,2.0,2.6425,0.5538623169809814,-0.02145423635977216,0.8189107237467366,0.005129668270915386,-0.099373,-33.128299
11.185,2.0,1.0,1.0,33.5,33.0,33.0,3.5,2.0,2.645,0.5465062266698811,-0.021853677107481925,0.8236480447483732,0.005007287521178339,-0.100765,-32.98729
11.185,2.0,1.0,1.0,33.5,33.0,33.0,3.5,2.0,2.6475,0.5390580217720738,-0.022260804683401744,0.8283485171963372,0.004878307474368227,-0.102189,-32.845471
11.185,2.0,1.0,1.0,33.5,33.0,33.0,3.5,2.0,2.65,0.531516679437504,-0.022675790819874704,0.8330108094634354,0.004742461514207979,-0.103647,-32.702826
11.185,2.0,1.0,1.0,33.5,33.0,33.0,3.5,2.0,2.6525,0.5238811667286106,-0.023098811730156304,0.8376335475073294,0.004599471246794453,-0.105139,-32.559338
11.185,2.0,1.0,1.0,33.5,33.0,33.0,3.5,2.0,2.655,0.5161504407863456,-0.0235300482331047,0.8422153134182667,0.00444904589561971,-0.106668,-32.41499
11.185,2.0,1.0,1.0,33.5,33.0,33.0,3.5,2.0,2.6575,0.5083234490161462,-0.023969685880570198,0.8467546439101252,0.004290881660355398,-0.108234,-32.269764
11.185,2.0,1.0,1.0,33.5,33.0,33.0,3.5,2.0,2.66,0.500399129295089,-0.024417915087402896,0.8512500287519952,0.0041246610368853775,-0.109838,-32.123643
11.185,2.0,1.0,1.0,33.5,33.0,33.0,3.5,2.0,2.6625,0.49237641020156203,-0.024874931263971153,0.8556999091373123,0.003950052095871354,-0.111483,-31.976607
11.185,2.0,1.0,1.0,33.5,33.0,33.0,3.5,2.0,2.665,0.4842542112688342,-0.025340934951056514,0.8601026759873791,0.003766707716917188,-0.113168,-31.828638
11.185,2.0,1.0,1.0,33.5,33.0,33.0,3.5,2.0,2.6675,0.47603144326403524,-0.025816131956952624,0.8644566681858644,0.0035742647751603046,-0.114895,-31.679716
11.185,2.0,1.0,1.0,33.5,33.0,33.0,3.5,2.0,2.67,0.46770700849411273,-0.026300733496562197,0.8687601707406509,0.00337234327685568,-0.116667,-31.529821
11.185,2.0,1.0,1.0,33.5,33.0,33.0,3.5,2.0,2.6725,0.45927980114045314,-0.026794956332237232,0.873011412869131,0.003160545440234786,-0.118484,-31.378932
11.185,2.0,1.0,1.0,33.5,33.0,33.0,3.5,2.0,2.675,0.45074870762397173,-0.02729902291605749,0.8772085660027578,0.0029384547176089628,-0.120348,-31.227029
11.185,2.0,1.0,1.0,33.5,33.0,33.0,3.5,2.0,2.6775,0.4421126070025793,-0.02781316153318404,0.8813497417063549,0.002705634754344775,-0.122261,-31.074088
11.185,2.0,1.0,1.0,33.5,33.0,33.0,3.5,2.0,2.68,0.4333703714030715,-0.028337606445854303,0.8854329895073401,0.0024616282799656284,-0.124225,-30.920088
11.185,2.0,1.0,1.0,33.5,33.0,33.0,3.5,2.0,2.6825,0.4245208664896412,-0.028872598037508395,0.8894562946296316,0.002205955926221476,-0.12624,-30.765005
11.185,2.0,1.0,1.0,33.5,33.0,33.0,3.5,2.0,2.685,0.41556295197134513,-0.029418382956445763,0.8934175756266084,0.001938114966517888,-0.128311,-30.608815
11.185,2.0,1.0,1.0,33.5,33.0,33.0,3.5,2.0,2.6875,0.40649548215104897,-0.029975214258306956,0.8973146819070209,0.0016575779706002527,-0.130437,-30.451494
11.185,2.0,1.0,1.0,33.5,33.0,33.0,3.5,2.0,2.69,0.3973173065185658,-0.030543351546556307,0.901145391147254,0.0013637913678418612,-0.132623,-30.293016
11.185,2.0,1.0,1.0,33.5,33.0,33.0,3.5,2.0,2.6925,0.38802727039087825,-0.03112306111000535,0.9049074065827937,0.0010561739118839228,-0.134869,-30.133355
11.185,2.0,1.0,1.0,33.5,33.0,33.0,3.5,2.0,2.695,0.3786242156026227,-0.03171461605625532,0.9085983541711204,0.0007341150387140587,-0.137178,-29.972484
11.185,2.0,1.0,1.0,33.5,33.0,33.0,3.5,2.0,2.6975,0.3691069812502002,-0.03231829643976002,0.9122157796175965,0.0003969731095362518,-0.139553,-29.810376
11.185,2.0,1.0,1.0,33.5,33.0,33.0,3.5,2.0,2.7,0.3594744044932331,-0.03293438938299641,0.9157571452551422,4.407352897924815e-05,-0.141996,-29.647
11.185,2.0,1.0,1.0,33.5,33.0,33.0,3.5,2.0,2.7025,0.3497253214173415,-0.033563189188992065,0.9192198267676861,-0.0003252932717030183,-0.14451,-29.482328
11.185,2.0,1.0,1.0,33.5,33.0,33.0,3.5,2.0,2.705,0.3398585679626234,-0.034204997443178745,0.9226011097464307,-0.0007118739977753209,-0.147098,-29.316328
11.185,2.0,1.0,1.0,33.5,33.0,33.0,3.5,2.0,2.7075,0.3298729809225793,-0.034860123102220315,0.9258981860669763,-0.0011164548129392541,-0.149763,-29.148969
11.185,2.0,1.0,1.0,33.5,33.0,33.0,3.5,2.0,2.71,0.3197673990187086,-0.035528882567092857,0.9291081500741802,-0.0015398638336723924,-0.152508,-28.980219
11.185,2.0,1.0,1.0,33.5,33.0,33.0,3.5,2.0,2.7125,0.3095406640564765,-0.036211599737266745,0.9322279945603846,-0.001982973810983297,-0.155337,-28.810042
11.185,2.0,1.0,1.0,33.5,33.0,33.0,3.5,2.0,2.715,0.2991916221689627,-0.036908606042343764,0.9352546065212162,-0.0024467050160777164,-0.158253,-28.638404
11.185,2.0,1.0,1.0,33.5,33.0,33.0,3.5,2.0,2.7175,0.28871912515512876,-0.03762024044693003,0.938184762671596,-0.0029320283481003334,-0.16126,-28.465268
11.185,2.0,1.0,1.0,33.5,33.0,33.0,3.5,2.0,2.72,0.27812203192041046,-0.03834684942385966,0.941015124702823,-0.003439968683975085,-0.164363,-28.290597
11.185,2.0,1.0,1.0,33.5,33.0,33.0,3.5,2.0,2.7225,0.2673992100281597,-0.03908878689011556,0.9437422342596402,-0.003971608492442856,-0.167564,-28.114351
11.185,2.0,1.0,1.0,33.5,33.0,33.0,3.5,2.0,2.725,0.25654953737148367,-0.03984641409889525,0.9463625076139696,-0.004528091736708402,-0.17087,-27.936491
11.185,2.0,1.0,1.0,33.5,33.0,33.0,3.5,2.0,2.7275,0.2455719039760842,-0.04062009948023462,0.9488722300095425,-0.005110628092700616,-0.174285,-27.756972
11.185,2.0,1.0,1.0,33.5,33.0,33.0,3.5,2.0,2.73,0.23446521394605588,-0.04141021842138703,0.9512675496488582,-0.0057204975128435686,-0.177813,-27.575753
11.185,2.0,1.0,1.0,33.5,33.0,33.0,3.5,2.0,2.7325,0.2232283875660224,-0.04221715297674957,0.9535444712908037,-0.006359055168486329,-0.181461,-27.392787
11.185,2.0,1.0,1.0,33.5,33.0,33.0,3.5,2.0,2.735,0.21186036357475999,-0.0430412914954809,0.9556988494237356,-0.007027736807778628,-0.185234,-27.208028
11.185,2.0,1.0,1.0,33.5,33.0,33.0,3.5,2.0,2.7375,0.20036010162740953,-0.043883028153035866,0.9577263809748868,-0.007728064569872054,-0.189138,-27.021425
11.185,2.0,1.0,1.0,33.5,33.0,33.0,3.5,2.0,2.74,0.18872658496572098,-0.044742762370592874,0.959622597512492,-0.00846165330092486,-0.193181,-26.83293
11.185,2.0,1.0,1.0,33.5,33.0,33.0,3.5,2.0,2.7425,0.17695882331844032,-0.04562089810372173,0.961382856891997,-0.009230217422570719,-0.197368,-26.642487
11.185,2.0,1.0,1.0,33.5,33.0,33.0,3.5,2.0,2.745,0.16505585605711853,-0.046517842978549905,0.9630023342920244,-0.010035578409347283,-0.201709,-26.450042
11.185,2.0,1.0,1.0,33.5,33.0,33.0,3.5,2.0,2.7475,0.1530167556362866,-0.047434007250058884,0.9644760125793371,-0.010879672938171579,-0.20621,-26.255537
11.185,2.0,1.0,1.0,33.5,33.0,33.0,3.5,2.0,2.75,0.140840631351256,-0.0483698025528775,0.965798671934732,-0.011764561780396,-0.21088,-26.058912
11.185,2.0,1.0,1.0,33.5,33.0,33.0,3.5,2.0,2.7525,0.12852663345187756,-0.049325640409907015,0.9669648786635493,-0.012692439515402085,-0.215729,-25.860105
11.185,2.0,1.0,1.0,33.5,33.0,33.0,3.5,2.0,2.755,0.11607395765656973,-0.050301930458177824,0.967968973105069,-0.013665645154232025,-0.220766,-25.659049
11.185,2.0,1.0,1.0,33.5,33.0,33.0,3.5,2.0,2.7575,0.10348185011793411,-0.05129907834431759,0.9688050565444126,-0.014686673772584122,-0.226003,-25.455677
11.185,2.0,1.0,1.0,33.5,33.0,33.0,3.5,2.0,2.76,0.09074961289967853,-0.05231748323368948,0.9694669770184057,-0.01575818926477997,-0.231451,-25.249917
11.185,2.0,1.0,1.0,33.5,33.0,33.0,3.5,2.0,2.7625,0.07787661003437378,-0.05335753486739065,0.9699483138930344,-0.016883038344287695,-0.237122,-25.041694
11.185,2.0,1.0,1.0,33.5,33.0,33.0,3.5,2.0,2.765,0.06486227424337128,-0.0544196100895578,0.9702423610743556,-0.01806426593227583,-0.243029,-24.830931
11.185,2.0,1.0,1.0,33.5,33.0,33.0,3.5,2.0,2.7675,0.05170611441415883,-0.05550406875343733,0.9703421086966993,-0.019305132093785204,-0.249188,-24.617544
11.185,2.0,1.0,1.0,33.5,33.0,33.0,3.5,2.0,2.77,0.03840772394710501,-0.056611248897977674,0.9702402231114547,-0.020609130701760906,-0.255614,-24.401449
11.185,2.0,1.0,1.0,33.5,33.0,33.0,3.5,2.0,2.7725,0.02496679010353465,-0.057741461066710506,0.9699290249761827,-0.021980010032758516,-0.262324,-24.182554
11.185,2.0,1.0,1.0,33.5,33.0,33.0,3.5,2.0,2.775,0.011383104510974903,-0.058894981616728646,0.9694004652169022,-0.023421795525078993,-0.269337,-23.960766
11.185,2.0,1.0,1.0,33.5,33.0,33.0,3.5,2.0,2.7775,-0.0023434249898084515,-0.06007204483676564,0.9686460986055488,-0.02493881496088345,-0.276672,-23.735985
11.185,2.0,1.0,1.0,33.5,33.0,33.0,3.5,2.0,2.78,-0.016212760936742246,-0.06127283365869315,0.9676570546592822,-0.026535726369082756,-0.284352,-23.508107
11.185,2.0,1.0,1.0,33.5,33.0,33.0,3.5,2.0,2.7825,-0.030224721016214404,-0.062497468704865444,0.9664240055278162,-0.028217548986134083,-0.2924,-23.277023
11.185,2.0,1.0,1.0,33.5,33.0,33.0,3.5,2.0,2.785,-0.0443789606989685,-0.06374599536305155,0.964937130488499,-0.02998969765808087,-0.300843,-23.042615
11.185,2.0,1.0,1.0,33.5,33.0,33.0,3.5,2.0,2.7875,-0.0586749533688324,-0.06501836851917987,0.9631860766156026,-0.03185802112006974,-0.309709,-22.804763
11.185,2.0,1.0,1.0,33.5,33.0,33.0,3.5,2.0,2.79,-0.07311196749624559,-0.06631443450329888,0.9611599151292168,-0.03382884465015904,-0.319031,-22.563339
11.185,2.0,1.0,1.0,33.5,33.0,33.0,3.5,2.0,2.7925,-0.08768904031716229,-0.06763390971289411,0.9588470928591687,-0.03590901766354282,-0.328841,-22.318206
11.185,2.0,1.0,1.0,33.5,33.0,33.0,3.5,2.0,2.795,-0.10240494736627768,-0.06897635526609092,0.9562353781792996,-0.03810596689255482,-0.33918,-22.069222
11.185,2.0,1.0,1.0,33.5,33.0,33.0,3.5,2.0,2.7975,-0.11725816707633402,-0.0703411469003919,0.953311800675909,-0.040427755888223796,-0.350087,-21.816236
11.185,2.0,1.0,1.0,33.5,33.0,33.0,3.5,2.0,2.8,-0.13224683948672705,-0.07172743916426871,0.9500625837098366,-0.042883151682102744,-0.361611,-21.559088
11.185,2.0,1.0,1.0,33.5,33.0,33.0,3.5,2.0,2.8025,-0.1473687178964287,-0.0731341227413008,0.9464730689131092,-0.04548169956387117,-0.373803,-21.297609
11.185,2.0,1.0,1.0,33.5,33.0,33.0,3.5,2.0,2.805,-0.1626211120386702,-0.07455977348972323,0.9425276315270045,-0.048233807062079685,-0.38672,-21.03162
11.185,2.0,1.0,1.0,33.5,33.0,33.0,3.5,2.0,2.8075,-0.1780008210351305,-0.07600259146159406,0.9382095853377175,-0.05115083836333513,-0.400425,-20.76093
11.185,2.0,1.0,1.0,33.5,33.0,33.0,3.5,2.0,2.81,-0.19350405398925197,-0.07746032776923857,0.9335010757979834,-0.05424522056966207,-0.414992,-20.485339
11.185,2.0,1.0,1.0,33.5,33.0,33.0,3.5,2.0,2.8125,-0.20912633558112348,-0.07893019667162411,0.9283829597383559,-0.05753056337424478,-0.430498,-20.204634
11.185,2.0,1.0,1.0,33.5,33.0,33.0,3.5,2.0,2.815,-0.22486239340361863,-0.08040876963354027,0.9228346698721819,-0.061021793930271885,-0.447035,-19.918587
11.185,2.0,1.0,1.0,33.5,33.0,33.0,3.5,2.0,2.8175,-0.2407060229968817,-0.0818918473320634,0.9168340620879726,-0.06473530889163032,-0.464703,-19.626956
11.185,2.0,1.0,1.0,33.5,33.0,33.0,3.5,2.0,2.82,-0.2566499255520124,-0.08337430460424151,0.9103572433100202,-0.0686891458093443,-0.483616,-19.329487
11.185,2.0,1.0,1.0,33.5,33.0,33.0,3.5,2.0,2.8225,-0.27268551200810026,-0.08484990209109508,0.9033783775069552,-0.07290317625942352,-0.503905,-19.025907
11.185,2.0,1.0,1.0,33.5,33.0,33.0,3.5,2.0,2.825,-0.2888026656864307,-0.08631105676339047,0.8958694672619683,-0.07739932323235724,-0.525716,-18.715925
11.185,2.0,1.0,1.0,33.5,33.0,33.0,3.5,2.0,2.8275,-0.30498945359696267,-0.08774856152056046,0.8878001082253071,-0.08220180539387746,-0.549218,-18.399234
