1,w,sub_t,h,l1,l2,l3,g1,g2,Freq,S11_re,S21_re,S11_img,S21_img,S11_dB,S21_dB
11.185,2.0,1.0,1.0,34.2,34.2,34.2,2.7,2.8,2.5,0.751423423165442,-0.0134917687214219,0.647181180783488,0.00789989373042431,-0.072342,-36.118346
11.185,2.0,1.0,1.0,34.2,34.2,34.2,2.7,2.8,2.5025,0.7462761241554146,-0.013754801385404957,0.6529679260458002,0.007897492303457602,-0.073161,-35.993499
11.185,2.0,1.0,1.0,34.2,34.2,34.2,2.7,2.8,2.505,0.7410557627088815,-0.014022694659072419,0.6587431186924345,0.007892739573779537,-0.073996,-35.868154
11.185,2.0,1.0,1.0,34.2,34.2,34.2,2.7,2.8,2.5075,0.7357615530616265,-0.014295550050944014,0.6645061378146508,0.007885539543049762,-0.074847,-35.742303
11.185,2.0,1.0,1.0,34.2,34.2,34.2,2.7,2.8,2.51,0.7303926986247457,-0.014573471590196825,0.6702563436968478,0.007875792423214479,-0.075715,-35.615935
11.185,2.0,1.0,1.0,34.2,34.2,34.2,2.7,2.8,2.5125,0.7249483918837984,-0.01485656589836402,0.6759930772177436,0.007863394471190499,-0.0766,-35.489039
11.185,2.0,1.0,1.0,34.2,34.2,34.2,2.7,2.8,2.515,0.7194278143001774,-0.015144942263280687,0.6817156592312656,0.0078482378153983,-0.077503,-35.361606
11.185,2.0,1.0,1.0,34.2,34.2,34.2,2.7,2.8,2.5175,0.713830136214947,-0.015438712715349108,0.6874233899263645,0.007830210273687395,-0.078424,-35.233625
11.185,2.0,1.0,1.0,34.2,34.2,34.2,2.7,2.8,2.52,0.7081545167553737,-0.015737992106198754,0.6931155481649506,0.00780919516216703,-0.079363,-35.105085
11.185,2.0,1.0,1.0,34.2,34.2,34.2,2.7,2.8,2.5225,0.70240010374443,-0.016042898189816322,0.6987913907970775,0.007785071094424579,-0.080321,-34.975976
11.185,2.0,1.0,1.0,34.2,34.2,34.2,2.7,2.8,2.525,0.696566033613518,-0.016353551706224503,0.7044501519524996,0.0077577117705799415,-0.081299,-34.846286
11.185,2.0,1.0,1.0,34.2,34.2,34.2,2.7,2.8,2.5275,0.6906514313187158,-0.016670076467789872,0.7100910423076634,0.007726985755588893,-0.082298,-34.716004
11.185,2.0,1.0,1.0,34.2,34.2,34.2,2.7,2.8,2.53,0.6846554102608485,-0.016992599448240393,0.7157132483271402,0.007692756246168752,-0.083317,-34.585119
11.185,2.0,1.0,1.0,34.2,34.2,34.2,2.7,2.8,2.5325,0.6785770722097023,-0.017321250874476415,0.7213159314784795,0.007654880825679109,-0.084357,-34.453619
11.185,2.0,1.0,1.0,34.2,34.2,34.2,2.7,2.8,2.535,0.6724155072327176,-0.01765616432125941,0.7268982274194027,0.00761321120624481,-0.085419,-34.321492
11.185,2.0,1.0,1.0,34.2,34.2,34.2,2.7,2.8,2.5375,0.6661697936285321,-0.017997476808863773,0.7324592451561878,0.007567592957361132,-0.086504,-34.188726
11.185,2.0,1.0,1.0,34.2,34.2,34.2,2.7,2.8,2.54,0.65983899786574,-0.018345328903778935,0.7379980661720649,0.007517865220168536,-0.087612,-34.055308
11.185,2.0,1.0,1.0,34.2,34.2,34.2,2.7,2.8,2.5425,0.6534221745272714,-0.01869986482254846,0.7435137435243534,0.0074638604065294075,-0.088744,-33.921225
11.185,2.0,1.0,1.0,34.2,34.2,34.2,2.7,2.8,2.545,0.6469183662608189,-0.01906123253883465,0.7490053009090273,0.007405403881978494,-0.089901,-33.786465
11.185,2.0,1.0,1.0,34.2,34.2,34.2,2.7,2.8,2.5475,0.6403266037357596,-0.019429583893795167,0.7544717316912961,0.007342313631554682,-0.091083,-33.651014
11.185,2.0,1.0,1.0,34.2,34.2,34.2,2.7,2.8,2.55,0.6336459056070327,-0.019805074709860745,0.7599119979007559,0.007274399907451368,-0.092291,-33.514859
11.185,2.0,1.0,1.0,34.2,34.2,34.2,2.7,2.8,2.5525,0.6268752784864967,-0.020187864907998388,0.7653250291895233,0.007201464857347313,-0.093526,-33.377986
11.185,2.0,1.0,1.0,34.2,34.2,34.2,2.7,2.8,2.555,0.6200137169222713,-0.02057811862854648,0.7707097217517433,0.007123302132199027,-0.094789,-33.240381
11.185,2.0,1.0,1.0,34.2,34.2,34.2,2.7,2.8,2.5575,0.6130602033866341,-0.020976004355703574,0.7760649372027204,0.007039696472186748,-0.09608,-33.102029
11.185,2.0,1.0,1.0,34.2,34.2,34.2,2.7,2.8,2.56,0.6060137082730698,-0.021381695045750226,0.7813895014158371,0.0069504232694116075,-0.097401,-32.962915
11.185,2.0,1.0,1.0,34.2,34.2,34.2,2.7,2.8,2.5625,0.598873189903087,-0.021795368259079406,0.7866822033153216,0.006855248105838249,-0.098752,-32.823025
11.185,2.0,1.0,1.0,34.2,34.2,34.2,2.7,2.8,2.565,0.5916375945434751,-0.02221720629610568,0.7919417936228019,0.006753926264865251,-0.100135,-32.682342
11.185,2.0,1.0,1.0,34.2,34.2,34.2,2.7,2.8,2.5675,0.5843058564347023,-0.022647396337116335,0.7971669835554609,0.006646202214785282,-0.10155,-32.540851
11.185,2.0,1.0,1.0,34.2,34.2,34.2,2.7,2.8,2.57,0.5768768978312037,-0.02308613058612015,0.8023564434734651,0.006531809062265018,-0.102998,-32.398536
11.185,2.0,1.0,1.0,34.2,34.2,34.2,2.7,2.8,2.5725,0.5693496290543424,-0.023533606418739958,0.8075088014742106,0.006410467973832988,-0.104481,-32.25538
11.185,2.0,1.0,1.0,34.2,34.2,34.2,2.7,2.8,2.575,0.5617229485588929,-0.023990026534182328,0.8126226419307487,0.0062818875632086706,-0.105999,-32.111365
11.185,2.0,1.0,1.0,34.2,34.2,34.2,2.7,2.8,2.5775,0.553995743013937,-0.024455599111304564,0.8176965039715967,0.006145763242137477,-0.107554,-31.966476
11.185,2.0,1.0,1.0,34.2,34.2,34.2,2.7,2.8,2.58,0.5461668873991204,-0.024930537968781745,0.8227288798989512,0.006001776532214708,-0.109147,-31.820692
11.185,2.0,1.0,1.0,34.2,34.2,34.2,2.7,2.8,2.5825,0.5382352451172822,-0.02541506272935713,0.8277182135421162,0.005849594334980841,-0.11078,-31.673997
11.185,2.0,1.0,1.0,34.2,34.2,34.2,2.7,2.8,2.585,0.5301996681245321,-0.02590939898813515,0.8326628985427508,0.005688868157355352,-0.112453,-31.52637
11.185,2.0,1.0,1.0,34.2,34.2,34.2,2.7,2.8,2.5875,0.5220589970789232,-0.026413778484849777,0.837561276568281,0.0055192332892385195,-0.114167,-31.377794
11.185,2.0,1.0,1.0,34.2,34.2,34.2,2.7,2.8,2.59,0.5138120615089526,-0.026928439280006676,0.8424116354495879,0.005340307929853966,-0.115926,-31.228247
11.185,2.0,1.0,1.0,34.2,34.2,34.2,2.7,2.8,2.5925,0.5054576800031895,-0.027453625934762495,0.8472122072387887,0.005151692259122475,-0.117729,-31.077709
11.185,2.0,1.0,1.0,34.2,34.2,34.2,2.7,2.8,2.595,0.49699466042245627,-0.027989589694357615,0.8519611661826123,0.004952967450050712,-0.119579,-30.92616
11.185,2.0,1.0,1.0,34.2,34.2,34.2,2.7,2.8,2.5975,0.4884218001360411,-0.028536588674870612,0.8566566266065654,0.004743694617781108,-0.121477,-30.773578
11.185,2.0,1.0,1.0,34.2,34.2,34.2,2.7,2.8,2.6,0.47973788628357955,-0.029094888053000537,0.8612966407046787,0.004523413700582553,-0.123425,-30.61994
11.185,2.0,1.0,1.0,34.2,34.2,34.2,2.7,2.8,2.6025,0.47094169606434333,-0.02966476025851488,0.8658791962292531,0.0042916422676574015,-0.125425,-30.465224
11.185,2.0,1.0,1.0,34.2,34.2,34.2,2.7,2.8,2.605,0.4620319970557986,-0.030246485168921953,0.870402214074584,0.004047874248198529,-0.127479,-30.309406
11.185,2.0,1.0,1.0,34.2,34.2,34.2,2.7,2.8,2.6075,0.45300754756347783,-0.030840350305831696,0.8748635457481334,0.003791578575645682,-0.129588,-30.152462
11.185,2.0,1.0,1.0,34.2,34.2,34.2,2.7,2.8,2.61,0.44386709700434207,-0.031446651032362875,0.8792609707221332,0.003522197740558259,-0.131755,-29.994368
11.185,2.0,1.0,1.0,34.2,34.2,34.2,2.7,2.8,2.6125,0.4346093863260219,-0.03206569075082957,0.8835921936579827,0.0032391462449356903,-0.133982,-29.835096
11.185,2.0,1.0,1.0,34.2,34.2,34.2,2.7,2.8,2.615,0.425233148464502,-0.032697781099796666,0.8878548414952052,0.0029418089501740056,-0.136272,-29.674622
11.185,2.0,1.0,1.0,34.2,34.2,34.2,2.7,2.8,2.6175,0.41573710884307996,-0.033343242149426015,0.892046460395989,0.002629539310138465,-0.138626,-29.512917
11.185,2.0,1.0,1.0,34.2,34.2,34.2,2.7,2.8,2.62,0.40611998591565673,-0.0340024025938449,0.8961645125355865,0.0023016574800513606,-0.141048,-29.349954
11.185,2.0,1.0,1.0,34.2,34.2,34.2,2.7,2.8,2.6225,0.3963804917577159,-0.03467559993904385,0.9002063727279903,0.0019574482910329227,-0.14354,-29.185703
11.185,2.0,1.0,1.0,34.2,34.2,34.2,2.7,2.8,2.625,0.386517332708691,-0.0353631806845541,0.904169324875352,0.001596159079184,-0.146104,-29.020135
11.185,2.0,1.0,1.0,34.2,34.2,34.2,2.7,2.8,2.6275,0.37652921006974677,-0.03606550049685879,0.90805055822858,0.001216997357046847,-0.148745,-28.853218
11.185,2.0,1.0,1.0,34.2,34.2,34.2,2.7,2.8,2.63,0.36641482086146454,-0.03678292437214527,0.9118471634453846,0.0008191283141212257,-0.151465,-28.684922
11.185,2.0,1.0,1.0,34.2,34.2,34.2,2.7,2.8,2.6325,0.3561728586463504,-0.03751582678560977,0.9155561284307779,0.0004016721318252122,-0.154267,-28.515212
11.185,2.0,1.0,1.0,34.2,34.2,34.2,2.7,2.8,2.635,0.3458020144216523,-0.03826459182406271,0.919174333943596,-3.629890313314194e-05,-0.157156,-28.344054
11.185,2.0,1.0,1.0,34.2,34.2,34.2,2.7,2.8,2.6375,0.3353009775885713,-0.03902961329804872,0.9226985489510605,-0.0004957635045881504,-0.160134,-28.171414
11.185,2.0,1.0,1.0,34.2,34.2,34.2,2.7,2.8,2.64,0.32466843700461695,-0.03981129482907843,0.9261254257116367,-0.0009777547313233308,-0.163205,-27.997255
11.185,2.0,1.0,1.0,34.2,34.2,34.2,2.7,2.8,2.6425,0.31390308212671847,-0.04061004990684672,0.9294514945644898,-0.0014833635913706815,-0.166375,-27.821539
11.185,2.0,1.0,1.0,34.2,34.2,34.2,2.7,2.8,2.645,0.3030036042535516,-0.04142630191048237,0.9326731584016945,-0.0020137429296924114,-0.169647,-27.644227
11.185,2.0,1.0,1.0,34.2,34.2,34.2,2.7,2.8,2.6475,0.2919686978766329,-0.04226048408690351,0.9357866867969122,-0.0025701116251482196,-0.173026,-27.465278
11.185,2.0,1.0,1.0,34.2,34.2,34.2,2.7,2.8,2.65,0.2807970621508857,-0.04311303947823049,0.9387882097615944,-0.0031537591253471995,-0.176517,-27.28465
11.185,2.0,1.0,1.0,34.2,34.2,34.2,2.7,2.8,2.6525,0.26948740249687314,-0.04398442078889376,0.9416737110966837,-0.00376605035098329,-0.180126,-27.1023
11.185,2.0,1.0,1.0,34.2,34.2,34.2,2.7,2.8,2.655,0.2580384323483569,-0.04487509018155739,0.9444390213045206,-0.004408431004614877,-0.183857,-26.918182
11.185,2.0,1.0,1.0,34.2,34.2,34.2,2.7,2.8,2.6575,0.24644887506084404,-0.04578551898919447,0.947079810021773,-0.005082433322597238,-0.187718,-26.73225
11.185,2.0,1.0,1.0,34.2,34.2,34.2,2.7,2.8,2.66,0.23471746599882753,-0.046716187328582244,0.9495915779300907,-0.005789682313079305,-0.191714,-26.544454
11.185,2.0,1.0,1.0,34.2,34.2,34.2,2.7,2.8,2.6625,0.22284295482202052,-0.04766758359805976,0.9519696480963543,-0.0065319025276799145,-0.195852,-26.354745
11.185,2.0,1.0,1.0,34.2,34.2,34.2,2.7,2.8,2.665,0.2108241079937195,-0.04864020383956142,0.9542091566891295,-0.007310925419739673,-0.200139,-26.163069
11.185,2.0,1.0,1.0,34.2,34.2,34.2,2.7,2.8,2.6675,0.19865971153791248,-0.04963455094161859,0.9563050430119073,-0.008128697347965726,-0.204584,-25.969371
11.185,2.0,1.0,1.0,34.2,34.2,34.2,2.7,2.8,2.67,0.18634857407567568,-0.05065113365613793,0.9582520387869901,-0.008987288290950338,-0.209195,-25.773595
11.185,2.0,1.0,1.0,34.2,34.2,34.2,2.7,2.8,2.6725,0.17388953017604744,-0.051690465397196655,0.9600446566163257,-0.009888901345532743,-0.21398,-25.575681
11.185,2.0,1.0,1.0,34.2,34.2,34.2,2.7,2.8,2.675,0.1612814440620757,-0.052753062784729035,0.9616771775369766,-0.010835883090409433,-0.21895,-25.375568
11.185,2.0,1.0,1.0,34.2,34.2,34.2,2.7,2.8,2.6775,0.14852321371908844,-0.05383944388966193,0.963143637579339,-0.011830734905907197,-0.224114,-25.17319
11.185,2.0,1.0,1.0,34.2,34.2,34.2,2.7,2.8,2.68,0.13561377545981496,-0.05495012612960668,0.9644378132252552,-0.012876125351559041,-0.229483,-24.968482
11.185,2.0,1.0,1.0,34.2,34.2,34.2,2.7,2.8,2.6825,0.12255210900988657,-0.0560856237554185,0.9655532056508863,-0.013974903715233848,-0.23507,-24.761372
11.185,2.0,1.0,1.0,34.2,34.2,34.2,2.7,2.8,2.685,0.10933724318770706,-0.05724644485853243,0.9664830236252736,-0.015130114861261795,-0.240886,-24.551787
11.185,2.0,1.0,1.0,34.2,34.2,34.2,2.7,2.8,2.6875,0.09596826226518218,-0.058433087816658194,0.9672201649196968,-0.016345015520476933,-0.246947,-24.339651
11.185,2.0,1.0,1.0,34.2,34.2,34.2,2.7,2.8,2.69,0.08244431311052483,-0.05964603708078846,0.9677571960650997,-0.01762309218262044,-0.253267,-24.124885
11.185,2.0,1.0,1.0,34.2,34.2,34.2,2.7,2.8,2.6925,0.06876461323184509,-0.060885758189089936,0.9680863302745455,-0.018968080771397992,-0.259861,-23.907404
11.185,2.0,1.0,1.0,34.2,34.2,34.2,2.7,2.8,2.695,0.05492845986116162,-0.062152691872529475,0.9681994033247039,-0.02038398830496595,-0.266748,-23.687121
11.185,2.0,1.0,1.0,34.2,34.2,34.2,2.7,2.8,2.6975,0.04093524024331917,-0.0634472470923827,0.9680878471642113,-0.021875116770125873,-0.273946,-23.463945
11.185,2.0,1.0,1.0,34.2,34.2,34.2,2.7,2.8,2.7,0.02678444332406526,-0.06476979282021833,0.9677426609872095,-0.023446089467404417,-0.281477,-23.23778
11.185,2.0,1.0,1.0,34.2,34.2,34.2,2.7,2.8,2.7025,0.012475673067199296,-0.0661206483355636,0.9671543794766414,-0.025101880116992402,-0.289361,-23.008524
11.185,2.0,1.0,1.0,34.2,34.2,34.2,2.7,2.8,2.705,-0.0019913363265360684,-0.06750007177396364,0.9663130378837936,-0.02684784505268166,-0.297625,-22.776074
11.185,2.0,1.0,1.0,34.2,34.2,34.2,2.7,2.8,2.7075,-0.01661670297461142,-0.0689082466070418,0.9652081335671875,-0.02868975887308196,-0.306294,-22.540319
11.185,2.0,1.0,1.0,34.2,34.2,34.2,2.7,2.8,2.71,-0.03140037725568833,-0.0703452656745502,0.9638285835648597,-0.030633853967114967,-0.315397,-22.301141
11.185,2.0,1.0,1.0,34.2,34.2,34.2,2.7,2.8,2.7125,-0.046342118679146616,-0.07181111231396509,0.962162677718407,-0.032686864384775756,-0.324967,-22.05842
11.185,2.0,1.0,1.0,34.2,34.2,34.2,2.7,2.8,2.715,-0.06144146912903048,-0.07330563804303598,0.9601980268042856,-0.03485607458511438,-0.335038,-21.812027
11.185,2.0,1.0,1.0,34.2,34.2,34.2,2.7,2.8,2.7175,-0.07669772181996286,-0.0748285361413015,0.9579215050568468,-0.037149373662087155,-0.345649,-21.561828
11.185,2.0,1.0,1.0,34.2,34.2,34.2,2.7,2.8,2.72,-0.09210988516835279,-0.0763793103434897,0.9553191863877942,-0.03957531572606478,-0.356843,-21.30768
11.185,2.0,1.0,1.0,34.2,34.2,34.2,2.7,2.8,2.7225,-0.10767664061843388,-0.07795723769543399,0.9523762735172516,-0.042143187205050066,-0.368665,-21.049434
11.185,2.0,1.0,1.0,34.2,34.2,34.2,2.7,2.8,2.725,-0.12339629326239439,-0.07956132442474607,0.9490770191320519,-0.044863081925531983,-0.381169,-20.786933
11.185,2.0,1.0,1.0,34.2,34.2,34.2,2.7,2.8,2.7275,-0.13926671384845066,-0.08119025343541507,0.9454046380766378,-0.047745984938668176,-0.394412,-20.520012
11.185,2.0,1.0,1.0,34.2,34.2,34.2,2.7,2.8,2.73,-0.15528527046893956,-0.08284232173690488,0.9413412094613968,-0.05080386617285579,-0.408456,-20.248494
11.185,2.0,1.0,1.0,34.2,34.2,34.2,2.7,2.8,2.7325,-0.1714487478489459,-0.08451536575067356,0.9368675674430554,-0.05404978511779454,-0.423374,-19.972196
11.185,2.0,1.0,1.0,34.2,34.2,34.2,2.7,2.8,2.735,-0.1877532516970661,-0.0862066719832205,0.9319631792940373,-0.05749800787564318,-0.439245,-19.690923
11.185,2.0,1.0,1.0,34.2,34.2,34.2,2.7,2.8,2.7375,-0.2041940950118316,-0.08791286999328912,0.9266060092361263,-0.0611641380479257,-0.456157,-19.40447
11.185,2.0,1.0,1.0,34.2,34.2,34.2,2.7,2.8,2.74,-0.22076566253237537,-0.08962980388451113,0.9207723663748412,-0.06506526305575533,-0.47421,-19.11262
11.185,2.0,1.0,1.0,34.2,34.2,34.2,2.7,2.8,2.7425,-0.23746124864554274,-0.09135237768928889,0.914436734945099,-0.06922011760511922,-0.493517,-18.815143
11.185,2.0,1.0,1.0,34.2,34.2,34.2,2.7,2.8,2.745,-0.2542728629691082,-0.09307436893168003,0.9075715849822179,-0.07364926609180121,-0.514204,-18.511799
11.185,2.0,1.0,1.0,34.2,34.2,34.2,2.7,2.8,2.7475,-0.27119099646683503,-0.09478820331172946,0.9001471614901428,-0.07837530576682239,-0.536413,-18.202331
11.185,2.0,1.0,1.0,34.2,34.2,34.2,2.7,2.8,2.75,-0.288204339245072,-0.0964846817719898,0.89213125022868,-0.0834230924151142,-0.560309,-17.88647
11.185,2.0,1.0,1.0,34.2,34.2,34.2,2.7,2.8,2.7525,-0.3052994390436191,-0.09815264910196468,0.8834889184396941,-0.08881999008107078,-0.586076,-17.563932
11.185,2.0,1.0,1.0,34.2,34.2,34.2,2.7,2.8,2.755,-0.32246028675476607,-0.09977859059899903,0.8741822292621543,-0.09459614592124624,-0.613926,-17.234417
11.185,2.0,1.0,1.0,34.2,34.2,34.2,2.7,2.8,2.7575,-0.3396678119445947,-0.10134613999920795,0.8641699293703649,-0.10078479045413465,-0.644102,-16.897611
11.185,2.0,1.0,1.0,34.2,34.2,34.2,2.7,2.8,2.76,-0.35689926713908304,-0.10283547775236027,0.8534071106893506,-0.10742256212993409,-0.676882,-16.553181
11.185,2.0,1.0,1.0,34.2,34.2,34.2,2.7,2.8,2.7625,-0.37412747436543153,-0.10422259353758011,0.8418448491597251,-0.11454985299704057,-0.71259,-16.200781
11.185,2.0,1.0,1.0,34.2,34.2,34.2,2.7,2.8,2.765,-0.3913199008595475,-0.10547838046193275,0.8294298268273951,-0.12221116891399784,-0.751601,-15.840046
11.185,2.0,1.0,1.0,34.2,34.2,34.2,2.7,2.8,2.7675,-0.4084375226783727,-0.10656752037680538,0.816103948581855,-0.13045549268936873,-0.794348,-15.4706
11.185,2.0,1.0,1.0,34.2,34.2,34.2,2.7,2.8,2.77,-0.42543342488477714,-0.10744710989288359,0.801803972476572,-0.1393366309200229,-0.841343,-15.09205
11.185,2.0,1.0,1.0,34.2,34.2,34.2,2.7,2.8,2.7725,-0.442251074707052,-0.1080649646945715,0.7864611839170764,-0.14891351397256106,-0.893184,-14.703994
11.185,2.0,1.0,1.0,34.2,34.2,34.2,2.7,2.8,2.775,-0.4588221894068893,-0.10835752546059335,0.7700011608015009,-0.1592504018301251,-0.950576,-14.306022
11.185,2.0,1.0,1.0,34.2,34.2,34.2,2.7,2.8,2.7775,-0.47506410354170026,-0.10824727213670245,0.7523437013889142,-0.1704169239970774,-1.014355,-13.897722
11.185,2.0,1.0,1.0,34.2,34.2,34.2,2.7,2.8,2.78,-0.49087652140319654,-0.10763953503064724,0.7334030227296227,-0.18248784589397612,-1.085519,-13.478689
11.185,2.0,1.0,1.0,34.2,34.2,34.2,2.7,2.8,2.7825,-0.5061375211622513,-0.10641857274499175,0.7130883898005319,-0.1955424023863294,-1.165258,-13.048534
11.185,2.0,1.0,1.0,34.2,34.2,34.2,2.7,2.8,2.785,-0.5206986609863862,-0.10444277168738933,0.6913054107716774,-0.20966296467638207,-1.255006,-12.6069
11.185,2.0,1.0,1.0,34.2,34.2,34.2,2.7,2.8,2.7875,-0.5343790307240486,-0.10153881640161444,0.6679583410757175,-0.22493270095186696,-1.356496,-12.153481
11.185,2.0,1.0,1.0,34.2,34.2,34.2,2.7,2.8,2.79,-0.5469581079291486,-0.09749469644824109,0.6429538895977004,-0.24143174277631999,-1.471829,-11.688055
11.185,2.0,1.0,1.0,34.2,34.2,34.2,2.7,2.8,2.7925,-0.5581673357887293,-0.09205147561585948,0.6162072276686533,-0.2592311653081282,-1.603572,-11.210518
11.185,2.0,1.0,1.0,34.2,34.2,34.2,2.7,2.8,2.795,-0.5676804800815839,-0.08489388962784201,0.5876511784198898,-0.27838381781723054,-1.754869,-10.720934
11.185,2.0,1.0,1.0,34.2,34.2,34.2,2.7,2.8,2.7975,-0.5751031036803517,-0.07564011945789248,0.5572499162440473,-0.2989106965136322,-1.929584,-10.219609
11.185,2.0,1.0,1.0,34.2,34.2,34.2,2.7,2.8,2.8,-0.5799620159367795,-0.06383160297620638,0.5250189179496696,-0.3207811508029603,-2.13248,-9.707176
11.185,2.0,1.0,1.0,34.2,34.2,34.2,2.7,2.8,2.8025,-0.5816964506716489,-0.04892463535365062,0.49105331224959464,-0.3438848236162415,-2.369435,-9.184713
11.185,2.0,1.0,1.0,34.2,34.2,34.2,2.7,2.8,2.805,-0.5796541844001394,-0.030286948072267793,0.4555670013744567,-0.3679930168845623,-2.647683,-8.653889
11.185,2.0,1.0,1.0,34.2,34.2,34.2,2.7,2.8,2.8075,-0.5730980182642476,-0.007204633548535521,0.41894461366502267,-0.3927075053326804,-2.976074,-8.117154
11.185,2.0,1.0,1.0,34.2,34.2,34.2,2.7,2.8,2.81,-0.5612310931778574,0.02109223027656991,0.3818068112552927,-0.41739636415010833,-3.365283,-7.577951
11.185,2.0,1.0,1.0,34.2,34.2,34.2,2.7,2.8,2.8125,-0.543253065277263,0.0553734320327539,0.345085628064589,-0.441120203903796,-3.827815,-7.04096
11.185,2.0,1.0,1.0,34.2,34.2,34.2,2.7,2.8,2.815,-0.5184619550668865,0.0963074593935537,0.3100989219153393,-0.4625597141850323,-4.377498,-6.512346
11.185,2.0,1.0,1.0,34.2,34.2,34.2,2.7,2.8,2.8175,-0.48641545339465236,0.14430194936355298,0.27860058181402403,-0.47996766928261203,-5.027686,-5.999942
11.185,2.0,1.0,1.0,34.2,34.2,34.2,2.7,2.8,2.82,-0.447155254867242,0.19928261028710367,0.2527668666620645,-0.4911844799879825,-5.786612,-5.513312
11.185,2.0,1.0,1.0,34.2,34.2,34.2,2.7,2.8,2.8225,-0.4014720999793263,0.2604331061182552,0.2350656040952799,-0.4937695822442679,-6.646711,-5.063554
11.185,2.0,1.0,1.0,34.2,34.2,34.2,2.7,2.8,2.825,-0.35114550389729515,0.325961418617759,0.22795888870543413,-0.4852966996573747,-7.562963,-4.66274
11.185,2.0,1.0,1.0,34.2,34.2,34.2,2.7,2.8,2.8275,-0.2990436405609097,0.39300561950652646,0.23343197155858694,-0.46381914564345983,-8.418861,-4.322896
11.185,2.0,1.0,1.0,34.2,34.2,34.2,2.7,2.8,2.83,-0.24895245536511362,0.4578073478734492,0.25243038383220373,-0.4284231491428188,-9.006702,-4.054594
