1,w,sub_t,h,l1,l2,l3,g1,g2,Freq,S11_re,S21_re,S11_img,S21_img,S11_dB,S21_dB
11.185,2.0,1.0,1.0,33.5,33.8,33.8,3.1,2.8,2.5,0.847571880441167,-0.00755841150306192,0.518238114506598,0.00615359602356735,-0.057054,-40.222932
11.185,2.0,1.0,1.0,33.5,33.8,33.8,3.1,2.8,2.5025,0.8440508418773205,-0.007710709454777818,0.5238370850494786,0.006180806742803946,-0.057589,-40.102948
11.185,2.0,1.0,1.0,33.5,33.8,33.8,3.1,2.8,2.505,0.8404771566314427,-0.00786576802000481,0.529435010438242,0.0062073133102604795,-0.058134,-39.982618
11.185,2.0,1.0,1.0,33.5,33.8,33.8,3.1,2.8,2.5075,0.836850302571712,-0.008023644481183808,0.5350316390595068,0.006233083398824152,-0.058689,-39.861932
11.185,2.0,1.0,1.0,33.5,33.8,33.8,3.1,2.8,2.51,0.8331697491776882,-0.008184397628023313,0.5406267116849164,0.006258083432119216,-0.059253,-39.740883
11.185,2.0,1.0,1.0,33.5,33.8,33.8,3.1,2.8,2.5125,0.829434957398877,-0.00834808780567601,0.5462199612220344,0.006282278531592973,-0.059828,-39.61946
11.185,2.0,1.0,1.0,33.5,33.8,33.8,3.1,2.8,2.515,0.8256453795109542,-0.008514776964743669,0.5518111124568531,0.00630563246108659,-0.060413,-39.497656
11.185,2.0,1.0,1.0,33.5,33.8,33.8,3.1,2.8,2.5175,0.8218004589696205,-0.008684528713191848,0.5573998817875782,0.006328107568755354,-0.061008,-39.375459
11.185,2.0,1.0,1.0,33.5,33.8,33.8,3.1,2.8,2.52,0.817899630262039,-0.00885740837026023,0.5629859769493831,0.006349664726194473,-0.061614,-39.252862
11.185,2.0,1.0,1.0,33.5,33.8,33.8,3.1,2.8,2.5225,0.8139423187558376,-0.009033483022457137,0.5685690967297621,0.006370263264618386,-0.062231,-39.129854
11.185,2.0,1.0,1.0,33.5,33.8,33.8,3.1,2.8,2.525,0.8099279405456181,-0.009212821581733872,0.5741489306741441,0.006389860907931702,-0.06286,-39.006426
11.185,2.0,1.0,1.0,33.5,33.8,33.8,3.1,2.8,2.5275,0.8058559022969487,-0.009395494845937685,0.5797251587813856,0.00640841370251927,-0.0635,-38.882568
11.185,2.0,1.0,1.0,33.5,33.8,33.8,3.1,2.8,2.53,0.8017256010877947,-0.009581575561647897,0.5852974511887405,0.006425875943573768,-0.064152,-38.758269
11.185,2.0,1.0,1.0,33.5,33.8,33.8,3.1,2.8,2.5325,0.7975364242473488,-0.009771138489504927,0.5908654678459078,0.006442200097765499,-0.064816,-38.633521
11.185,2.0,1.0,1.0,33.5,33.8,33.8,3.1,2.8,2.535,0.7932877491922187,-0.00996426047214869,0.5964288581777233,0.006457336722048792,-0.065493,-38.508311
11.185,2.0,1.0,1.0,33.5,33.8,33.8,3.1,2.8,2.5375,0.7889789432599357,-0.010161020504887519,0.601987260735041,0.006471234378384582,-0.066183,-38.382631
11.185,2.0,1.0,1.0,33.5,33.8,33.8,3.1,2.8,2.54,0.7846093635397338,-0.010361499809226585,0.6075403028333376,0.006483839544145717,-0.066885,-38.256469
11.185,2.0,1.0,1.0,33.5,33.8,33.8,3.1,2.8,2.5425,0.7801783567005612,-0.01056578190939129,0.6130876001785482,0.006495096517955362,-0.067602,-38.129815
11.185,2.0,1.0,1.0,33.5,33.8,33.8,3.1,2.8,2.545,0.7756852588162731,-0.010773952711987882,0.6186287564796116,0.006504947320693757,-0.068332,-38.002657
11.185,2.0,1.0,1.0,33.5,33.8,33.8,3.1,2.8,2.5475,0.7711293951879689,-0.010986100588952094,0.6241633630471802,0.0065133315913895136,-0.069076,-37.874984
11.185,2.0,1.0,1.0,33.5,33.8,33.8,3.1,2.8,2.55,0.7665100801634076,-0.01120231646394482,0.6296909983779385,0.006520186477694396,-0.069835,-37.746785
11.185,2.0,1.0,1.0,33.5,33.8,33.8,3.1,2.8,2.5525,0.7618266169534768,-0.011422693902361539,0.6352112277239107,0.006525446520618927,-0.070609,-37.618048
11.185,2.0,1.0,1.0,33.5,33.8,33.8,3.1,2.8,2.555,0.7570782974456354,-0.011647329205132645,0.6407236026461489,0.006529043533185851,-0.071399,-37.488762
11.185,2.0,1.0,1.0,33.5,33.8,33.8,3.1,2.8,2.5575,0.7522644020142969,-0.011876321506501674,0.6462276605521381,0.00653090647263325,-0.072204,-37.358914
11.185,2.0,1.0,1.0,33.5,33.8,33.8,3.1,2.8,2.56,0.7473841993280832,-0.012109772875977589,0.651722924216213,0.006530961305775978,-0.073025,-37.228493
11.185,2.0,1.0,1.0,33.5,33.8,33.8,3.1,2.8,2.5625,0.7424369461539015,-0.012347788424669779,0.6572089012822686,0.006529130867104973,-0.073863,-37.097485
11.185,2.0,1.0,1.0,33.5,33.8,33.8,3.1,2.8,2.565,0.7374218871577671,-0.01259047641622571,0.6626850837479972,0.006525334709176373,-0.074719,-36.965877
11.185,2.0,1.0,1.0,33.5,33.8,33.8,3.1,2.8,2.5675,0.7323382547023254,-0.0128379483826032,0.6681509474298252,0.00651948894480949,-0.075592,-36.833658
11.185,2.0,1.0,1.0,33.5,33.8,33.8,3.1,2.8,2.57,0.7271852686409883,-0.013090319244923461,0.6736059514077151,0.006511506080579761,-0.076483,-36.700813
11.185,2.0,1.0,1.0,33.5,33.8,33.8,3.1,2.8,2.5725,0.7219621361086228,-0.01334770743966455,0.679049537448925,0.006501294841054764,-0.077392,-36.56733
11.185,2.0,1.0,1.0,33.5,33.8,33.8,3.1,2.8,2.575,0.7166680513087097,-0.013610235050470005,0.6844811294097701,0.006488759983183224,-0.078321,-36.433194
11.185,2.0,1.0,1.0,33.5,33.8,33.8,3.1,2.8,2.5775,0.7113021952968944,-0.01387802794586391,0.6899001326143891,0.00647380210020213,-0.07927,-36.298391
11.185,2.0,1.0,1.0,33.5,33.8,33.8,3.1,2.8,2.58,0.7058637357608476,-0.014151215923179094,0.695305933209447,0.006456317414382317,-0.080239,-36.162906
11.185,2.0,1.0,1.0,33.5,33.8,33.8,3.1,2.8,2.5825,0.7003518267963339,-0.014429932859026169,0.7006978974936567,0.006436197557880982,-0.081229,-36.026726
11.185,2.0,1.0,1.0,33.5,33.8,33.8,3.1,2.8,2.585,0.6947656086794051,-0.014714316866646236,0.7060753712209223,0.006413329340916672,-0.08224,-35.889835
11.185,2.0,1.0,1.0,33.5,33.8,33.8,3.1,2.8,2.5875,0.6891042076345995,-0.015004510460514583,0.7114376788758573,0.006387594506421481,-0.083274,-35.752217
11.185,2.0,1.0,1.0,33.5,33.8,33.8,3.1,2.8,2.59,0.6833667355990511,-0.015300660728581656,0.7167841229203182,0.006358869470262263,-0.08433,-35.613858
11.185,2.0,1.0,1.0,33.5,33.8,33.8,3.1,2.8,2.5925,0.6775522899823762,-0.015602919512561748,0.7221139830095615,0.006327025046052623,-0.08541,-35.47474
11.185,2.0,1.0,1.0,33.5,33.8,33.8,3.1,2.8,2.595,0.6716599534222232,-0.015911443596704156,0.7274265151764882,0.0062919261535019375,-0.086514,-35.334847
11.185,2.0,1.0,1.0,33.5,33.8,33.8,3.1,2.8,2.5975,0.6656887935353375,-0.016226394905508278,0.7327209509823966,0.006253431509165004,-0.087644,-35.194164
11.185,2.0,1.0,1.0,33.5,33.8,33.8,3.1,2.8,2.6,0.6596378626640004,-0.016547940710870748,0.7379964966325264,0.0062113932983672675,-0.088799,-35.052671
11.185,2.0,1.0,1.0,33.5,33.8,33.8,3.1,2.8,2.6025,0.6535061976176839,-0.01687625384918409,0.743252332054574,0.006165656826982044,-0.089981,-34.910352
11.185,2.0,1.0,1.0,33.5,33.8,33.8,3.1,2.8,2.605,0.6472928194097483,-0.017211512948935245,0.7484876099382464,0.006116060151631666,-0.09119,-34.767188
11.185,2.0,1.0,1.0,33.5,33.8,33.8,3.1,2.8,2.6075,0.6409967329889995,-0.017553902669389176,0.7537014547337864,0.006062433686766716,-0.092427,-34.623161
11.185,2.0,1.0,1.0,33.5,33.8,33.8,3.1,2.8,2.61,0.6346169269659123,-0.017903613950974097,0.7588929616072552,0.006004599786953394,-0.093694,-34.478252
11.185,2.0,1.0,1.0,33.5,33.8,33.8,3.1,2.8,2.6125,0.6281523733333,-0.018260844278027114,0.7640611953502132,0.005942372302559659,-0.094991,-34.332442
11.185,2.0,1.0,1.0,33.5,33.8,33.8,3.1,2.8,2.615,0.6216020271811987,-0.018625797954595756,0.7692051892412668,0.005875556106880456,-0.09632,-34.185709
11.185,2.0,1.0,1.0,33.5,33.8,33.8,3.1,2.8,2.6175,0.6149648264057255,-0.01899868639403481,0.7743239438567778,0.005803946592578429,-0.09768,-34.038034
11.185,2.0,1.0,1.0,33.5,33.8,33.8,3.1,2.8,2.62,0.6082396914116318,-0.01937972842318332,0.7794164258278156,0.005727329135134461,-0.099075,-33.889396
11.185,2.0,1.0,1.0,33.5,33.8,33.8,3.1,2.8,2.6225,0.6014255248082631,-0.019769150601954073,0.7844815665402431,0.005645478520806212,-0.100503,-33.739773
11.185,2.0,1.0,1.0,33.5,33.8,33.8,3.1,2.8,2.625,0.59452121109862,-0.0201671875592183,0.789518260774571,0.00555815833637499,-0.101968,-33.589142
11.185,2.0,1.0,1.0,33.5,33.8,33.8,3.1,2.8,2.6275,0.5875256163611651,-0.020574082345922964,0.7945253652819703,0.005465120317724259,-0.103469,-33.43748
11.185,2.0,1.0,1.0,33.5,33.8,33.8,3.1,2.8,2.63,0.580437587924024,-0.020990086806434816,0.7995016972925522,0.005366103654030248,-0.105009,-33.284765
11.185,2.0,1.0,1.0,33.5,33.8,33.8,3.1,2.8,2.6325,0.5732559540311792,-0.021415461969163413,0.8044460329517082,0.005260834244059745,-0.106589,-33.130972
11.185,2.0,1.0,1.0,33.5,33.8,33.8,3.1,2.8,2.635,0.565979523500229,-0.021850478457582017,0.8093571056799909,0.005149023900751756,-0.108209,-32.976075
11.185,2.0,1.0,1.0,33.5,33.8,33.8,3.1,2.8,2.6375,0.5586070853712705,-0.022295416922828003,0.8142336044516008,0.005030369499913161,-0.109873,-32.82005
11.185,2.0,1.0,1.0,33.5,33.8,33.8,3.1,2.8,2.64,0.5511374085463839,-0.02275056849913796,0.819074171986215,0.004904552068472699,-0.11158,-32.662869
11.185,2.0,1.0,1.0,33.5,33.8,33.8,3.1,2.8,2.6425,0.5435692414192238,-0.02321623528344283,0.8238774028483501,0.004771235807314645,-0.113334,-32.504505
11.185,2.0,1.0,1.0,33.5,33.8,33.8,3.1,2.8,2.645,0.5359013114941261,-0.023692730840527428,0.8286418414480557,0.004630067043245072,-0.115135,-32.344931
11.185,2.0,1.0,1.0,33.5,33.8,33.8,3.1,2.8,2.6475,0.5281323249941429,-0.02418038073523593,0.8333659799361222,0.004480673104124769,-0.116986,-32.184117
11.185,2.0,1.0,1.0,33.5,33.8,33.8,3.1,2.8,2.65,0.5202609664573353,-0.02467952309329058,0.8380482559864386,0.0043226611106303246,-0.118888,-32.022034
11.185,2.0,1.0,1.0,33.5,33.8,33.8,3.1,2.8,2.6525,0.5122858983206747,-0.025190509192371834,0.8426870504574319,0.004155616677469061,-0.120844,-31.858651
11.185,2.0,1.0,1.0,33.5,33.8,33.8,3.1,2.8,2.655,0.5042057604907794,-0.02571370408520037,0.8472806849238251,0.0039791025161682566,-0.122855,-31.693935
11.185,2.0,1.0,1.0,33.5,33.8,33.8,3.1,2.8,2.6575,0.4960191699007445,-0.026249487256445846,0.8518274190691312,0.0037926569307771634,-0.124924,-31.527854
11.185,2.0,1.0,1.0,33.5,33.8,33.8,3.1,2.8,2.66,0.4877247200522404,-0.02679825331538058,0.8563254479283737,0.0035957921969482676,-0.127053,-31.360374
11.185,2.0,1.0,1.0,33.5,33.8,33.8,3.1,2.8,2.6625,0.4793209805420356,-0.027360412726281397,0.8607728989695719,0.003387992813898222,-0.129246,-31.19146
11.185,2.0,1.0,1.0,33.5,33.8,33.8,3.1,2.8,2.665,0.47080649657204565,-0.027936392578676063,0.8651678290013807,0.0031687136176667295,-0.131503,-31.021076
11.185,2.0,1.0,1.0,33.5,33.8,33.8,3.1,2.8,2.6675,0.4621797884420135,-0.028526637399608114,0.8695082208930529,0.00293737774288974,-0.133829,-30.849184
11.185,2.0,1.0,1.0,33.5,33.8,33.8,3.1,2.8,2.67,0.4534393510238683,-0.029131610010178787,0.8737919800915112,0.0026933744189572575,-0.136226,-30.675745
11.185,2.0,1.0,1.0,33.5,33.8,33.8,3.1,2.8,2.6725,0.44458365321681564,-0.029751792428689982,0.8780169309187793,0.002436056584923911,-0.138697,-30.500718
11.185,2.0,1.0,1.0,33.5,33.8,33.8,3.1,2.8,2.675,0.43561113738222645,-0.03038768682277226,0.8821808126312879,0.002164738305854775,-0.141246,-30.324063
11.185,2.0,1.0,1.0,33.5,33.8,33.8,3.1,2.8,2.6775,0.4265202187573952,-0.031039816512922477,0.8862812752206406,0.001878691971404674,-0.143876,-30.145737
11.185,2.0,1.0,1.0,33.5,33.8,33.8,3.1,2.8,2.68,0.41730928484728375,-0.03170872702989775,0.8903158749332861,0.0015771452553083735,-0.146591,-29.965693
11.185,2.0,1.0,1.0,33.5,33.8,33.8,3.1,2.8,2.6825,0.40797669479346604,-0.03239498722839941,0.8942820694840781,0.0012592778120811313,-0.149395,-29.783886
11.185,2.0,1.0,1.0,33.5,33.8,33.8,3.1,2.8,2.685,0.3985207787195746,-0.03309919045944036,0.8981772129359983,0.000924217684548661,-0.152292,-29.600268
11.185,2.0,1.0,1.0,33.5,33.8,33.8,3.1,2.8,2.6875,0.388939837052736,-0.0338219558036923,0.901998550215223,0.000571037392808295,-0.155287,-29.414788
11.185,2.0,1.0,1.0,33.5,33.8,33.8,3.1,2.8,2.69,0.37923213982070786,-0.034563929367958594,0.9057432112272699,0.00019874967181727498,-0.158384,-29.227394
11.185,2.0,1.0,1.0,33.5,33.8,33.8,3.1,2.8,2.6925,0.3693959259247187,-0.03532578564669134,0.9094082045360121,-0.00019369717904578067,-0.161588,-29.038033
11.185,2.0,1.0,1.0,33.5,33.8,33.8,3.1,2.8,2.695,0.35942940238845117,-0.03610822895014461,0.9129904105629406,-0.0006074243754519132,-0.164905,-28.846647
11.185,2.0,1.0,1.0,33.5,33.8,33.8,3.1,2.8,2.6975,0.349330743584083,-0.0369119949003192,0.9164865742590348,-0.0010436282025697353,-0.168341,-28.653179
11.185,2.0,1.0,1.0,33.5,33.8,33.8,3.1,2.8,2.7,0.33909809043704,-0.03773785199525694,0.9198932971958846,-0.00150358609602987,-0.171902,-28.457568
11.185,2.0,1.0,1.0,33.5,33.8,33.8,3.1,2.8,2.7025,0.3287295496119139,-0.0385866032414752,0.9232070290162845,-0.0019886633073153033,-0.175595,-28.259749
11.185,2.0,1.0,1.0,33.5,33.8,33.8,3.1,2.8,2.705,0.3182231926831531,-0.03945908785331991,0.9264240581771142,-0.0025003202187276314,-0.179426,-28.059657
11.185,2.0,1.0,1.0,33.5,33.8,33.8,3.1,2.8,2.7075,0.30757705529548174,-0.040356183016731086,0.9295405019089628,-0.003040120381339623,-0.183403,-27.857222
11.185,2.0,1.0,1.0,33.5,33.8,33.8,3.1,2.8,2.71,0.29678913632077153,-0.04127880571326693,0.9325522953073685,-0.0036097393587763084,-0.187535,-27.652373
11.185,2.0,1.0,1.0,33.5,33.8,33.8,3.1,2.8,2.7125,0.28585739702026014,-0.04222791459815305,0.9354551794596058,-0.004210974470449041,-0.19183,-27.445034
11.185,2.0,1.0,1.0,33.5,33.8,33.8,3.1,2.8,2.715,0.2747797602237627,-0.04320451192349494,0.9382446884983973,-0.004845755540222083,-0.196298,-27.235126
11.185,2.0,1.0,1.0,33.5,33.8,33.8,3.1,2.8,2.7175,0.2635541095409238,-0.04420964549448954,0.9409161354595836,-0.005516156770664217,-0.200949,-27.022568
11.185,2.0,1.0,1.0,33.5,33.8,33.8,3.1,2.8,2.72,0.25217828862384906,-0.045244410642335794,0.9434645968042116,-0.006224409879325796,-0.205794,-26.807273
11.185,2.0,1.0,1.0,33.5,33.8,33.8,3.1,2.8,2.7225,0.24065010050570612,-0.046309952192365555,0.9458848954465314,-0.006972918652235335,-0.210845,-26.589152
11.185,2.0,1.0,1.0,33.5,33.8,33.8,3.1,2.8,2.725,0.2289673070465836,-0.04740746639944517,0.9481715821074239,-0.007764275091425897,-0.216116,-26.368109
11.185,2.0,1.0,1.0,33.5,33.8,33.8,3.1,2.8,2.7275,0.2171276285260098,-0.048538202814628555,0.9503189147874929,-0.008601277358280337,-0.221619,-26.144046
11.185,2.0,1.0,1.0,33.5,33.8,33.8,3.1,2.8,2.73,0.2051287434318869,-0.04970346603696399,0.952320836124733,-0.009486949743375484,-0.227371,-25.916859
11.185,2.0,1.0,1.0,33.5,33.8,33.8,3.1,2.8,2.7325,0.1929682885082548,-0.05090461729178937,0.9541709483677487,-0.010424564926993207,-0.233388,-25.68644
11.185,2.0,1.0,1.0,33.5,33.8,33.8,3.1,2.8,2.735,0.18064385914025582,-0.05214307576116947,0.955862485656083,-0.011417668833347631,-0.239687,-25.452674
11.185,2.0,1.0,1.0,33.5,33.8,33.8,3.1,2.8,2.7375,0.16815301017443332,-0.05342031957254356,0.9573882832534022,-0.012470108426784528,-0.24629,-25.21544
11.185,2.0,1.0,1.0,33.5,33.8,33.8,3.1,2.8,2.74,0.155493257297281,-0.05473788632718466,0.9587407433258749,-0.013586062850875727,-0.253216,-24.974613
11.185,2.0,1.0,1.0,33.5,33.8,33.8,3.1,2.8,2.7425,0.14266207912581008,-0.05609737301946544,0.9599117967958712,-0.014770078372777634,-0.260491,-24.730058
11.185,2.0,1.0,1.0,33.5,33.8,33.8,3.1,2.8,2.745,0.12965692020268058,-0.05750043515958986,0.9608928607282624,-0.016027107667028247,-0.268139,-24.481637
11.185,2.0,1.0,1.0,33.5,33.8,33.8,3.1,2.8,2.7475,0.1164751951368872,-0.05894878486435743,0.9616747906215347,-0.01736255405699387,-0.27619,-24.2292
11.185,2.0,1.0,1.0,33.5,33.8,33.8,3.1,2.8,2.75,0.103114294191983,-0.0604441876201149,0.962247826876039,-0.018782321430685,-0.284674,-23.972592
11.185,2.0,1.0,1.0,33.5,33.8,33.8,3.1,2.8,2.7525,0.08957159070050132,-0.06198845734596725,0.9626015345946526,-0.020292870663251493,-0.293627,-23.711648
11.185,2.0,1.0,1.0,33.5,33.8,33.8,3.1,2.8,2.755,0.07584445078000643,-0.06358344928937344,0.9627247357334455,-0.02190128351430813,-0.303086,-23.446194
11.185,2.0,1.0,1.0,33.5,33.8,33.8,3.1,2.8,2.7575,0.061930245948429975,-0.06523105016491493,0.9626054324581459,-0.023615335127997107,-0.313095,-23.176045
11.185,2.0,1.0,1.0,33.5,33.8,33.8,3.1,2.8,2.76,0.04782636939146209,-0.06693316479325083,0.9622307203716384,-0.025443576451740807,-0.3237,-22.901008
11.185,2.0,1.0,1.0,33.5,33.8,33.8,3.1,2.8,2.7625,0.033530256831554035,-0.0686916983018815,0.9615866900534473,-0.02739542811106904,-0.334954,-22.620874
11.185,2.0,1.0,1.0,33.5,33.8,33.8,3.1,2.8,2.765,0.019039413199111163,-0.07050853270038038,0.9606583150879227,-0.029481287538671318,-0.346916,-22.335426
11.185,2.0,1.0,1.0,33.5,33.8,33.8,3.1,2.8,2.7675,0.00435144662697532,-0.0723854963246462,0.9594293244469551,-0.03171265146273766,-0.359651,-22.044431
11.185,2.0,1.0,1.0,33.5,33.8,33.8,3.1,2.8,2.77,-0.010535888299794169,-0.07432432423706312,0.9578820567273676,-0.0341022562204971,-0.373234,-21.747642
11.185,2.0,1.0,1.0,33.5,33.8,33.8,3.1,2.8,2.7725,-0.025624635578655627,-0.07632660714536284,0.9559972933142231,-0.036664238786196617,-0.387748,-21.444798
11.185,2.0,1.0,1.0,33.5,33.8,33.8,3.1,2.8,2.775,-0.040916567967336885,-0.07839372572711213,0.9537540670394948,-0.03941432189783674,-0.403286,-21.13562
11.185,2.0,1.0,1.0,33.5,33.8,33.8,3.1,2.8,2.7775,-0.056413098281686905,-0.08052676637222315,0.9511294423216488,-0.04237002724307322,-0.419956,-20.819812
11.185,2.0,1.0,1.0,33.5,33.8,33.8,3.1,2.8,2.78,-0.07211516664610401,-0.08272641322053856,0.948098262096722,-0.045550921330305326,-0.437879,-20.497059
11.185,2.0,1.0,1.0,33.5,33.8,33.8,3.1,2.8,2.7825,-0.08802309703804745,-0.08499280989258988,0.9446328560796917,-0.04897889943195304,-0.457192,-20.167026
11.185,2.0,1.0,1.0,33.5,33.8,33.8,3.1,2.8,2.785,-0.10413641451910534,-0.08732538237850401,0.9407027040253625,-0.0526785138436654,-0.478054,-19.829354
11.185,2.0,1.0,1.0,33.5,33.8,33.8,3.1,2.8,2.7875,-0.12045361198866614,-0.0897226120147606,0.9362740467009807,-0.056677353645534244,-0.500647,-19.483664
11.185,2.0,1.0,1.0,33.5,33.8,33.8,3.1,2.8,2.79,-0.13697185193233188,-0.09218174414268557,0.9313094362665264,-0.06100648415063982,-0.52518,-19.129549
11.185,2.0,1.0,1.0,33.5,33.8,33.8,3.1,2.8,2.7925,-0.15368658419681036,-0.09469841363975313,0.9257672167441667,-0.0657009552217487,-0.551895,-18.766579
11.185,2.0,1.0,1.0,33.5,33.8,33.8,3.1,2.8,2.795,-0.17059105494528265,-0.09726616268732201,0.9196009243596346,-0.07080038851486348,-0.581075,-18.394294
11.185,2.0,1.0,1.0,33.5,33.8,33.8,3.1,2.8,2.7975,-0.1876756741475876,-0.09987581840659768,0.912758596958269,-0.07634965426670762,-0.61305,-18.012206
11.185,2.0,1.0,1.0,33.5,33.8,33.8,3.1,2.8,2.8,-0.2049271985911335,-0.1025146877173639,0.9051819817838905,-0.0823996481371754,-0.648206,-17.619799
11.185,2.0,1.0,1.0,33.5,33.8,33.8,3.1,2.8,2.8025,-0.2223276736007241,-0.10516551309973948,0.8968056322401474,-0.08900817727025155,-0.686998,-17.216525
11.185,2.0,1.0,1.0,33.5,33.8,33.8,3.1,2.8,2.805,-0.2398530582983986,-0.1078051147490066,0.8875558877881157,-0.09624096119771412,-0.729969,-16.801808
11.185,2.0,1.0,1.0,33.5,33.8,33.8,3.1,2.8,2.8075,-0.2574714348578875,-0.11040262046271193,0.8773497384304375,-0.10417274593035343,-0.77776,-16.375043
11.185,2.0,1.0,1.0,33.5,33.8,33.8,3.1,2.8,2.81,-0.27514066998095765,-0.11291715267654592,0.8660935888139075,-0.11288851605765607,-0.831143,-15.935603
11.185,2.0,1.0,1.0,33.5,33.8,33.8,3.1,2.8,2.8125,-0.292805354560506,-0.115294800212567,0.853681960901153,-0.12248476588831,-0.891047,-15.48284
11.185,2.0,1.0,1.0,33.5,33.8,33.8,3.1,2.8,2.815,-0.3103927928344627,-0.11746464818772802,0.8399962148825579,-0.1330707501981801,-0.958596,-15.016099
11.185,2.0,1.0,1.0,33.5,33.8,33.8,3.1,2.8,2.8175,-0.3278077432501198,-0.11933357116230707,0.8249034357529436,-0.14476956786389725,-1.035159,-14.53473
11.185,2.0,1.0,1.0,33.5,33.8,33.8,3.1,2.8,2.82,-0.3449255293112234,-0.12077941157717473,0.8082557437815188,-0.1577188216696715,-1.122415,-14.038111
11.185,2.0,1.0,1.0,33.5,33.8,33.8,3.1,2.8,2.8225,-0.361583043718628,-0.12164207169233249,0.7898904656399472,-0.17207042042150386,-1.222433,-13.525679
11.185,2.0,1.0,1.0,33.5,33.8,33.8,3.1,2.8,2.825,-0.3775670768067856,-0.12171195620586263,0.7696318863258196,-0.18798880842801255,-1.337776,-12.99698
11.185,2.0,1.0,1.0,33.5,33.8,33.8,3.1,2.8,2.8275,-0.3925993448968375,-0.12071514856682092,0.7472957437902309,-0.20564646936996536,-1.471632,-12.451732
11.185,2.0,1.0,1.0,33.5,33.8,33.8,3.1,2.8,2.83,-0.4063176507500913,-0.11829476118083312,0.7226983003286924,-0.22521488535064932,-1.627988,-11.889924
