1,w,sub_t,h,l1,l2,l3,g1,g2,Freq,S11_re,S21_re,S11_img,S21_img,S11_dB,S21_dB
11.185,2.0,1.0,1.0,34.6,33.9,33.9,3.0,2.2,2.5,0.681335004724132,-0.0161434280838839,0.720163100663087,0.00777033316678483,-0.075118,-34.935107
11.185,2.0,1.0,1.0,34.6,33.9,33.9,3.0,2.2,2.5025,0.6752911580865775,-0.01643843982713138,0.725699755073351,0.007733272543191823,-0.075975,-34.814521
11.185,2.0,1.0,1.0,34.6,33.9,33.9,3.0,2.2,2.505,0.6691679750917054,-0.0167384264228496,0.7312146291115033,0.00769277526635207,-0.076849,-34.693474
11.185,2.0,1.0,1.0,34.6,33.9,33.9,3.0,2.2,2.5075,0.6629646791961431,-0.017043476063223706,0.7367068708094086,0.007648715956086703,-0.077739,-34.571958
11.185,2.0,1.0,1.0,34.6,33.9,33.9,3.0,2.2,2.51,0.6566804865719259,-0.01735367854595934,0.7421756041972978,0.007600964684833066,-0.078647,-34.449965
11.185,2.0,1.0,1.0,34.6,33.9,33.9,3.0,2.2,2.5125,0.6503146062009559,-0.017669125295785227,0.7476199286129807,0.007549386797255261,-0.079572,-34.327486
11.185,2.0,1.0,1.0,34.6,33.9,33.9,3.0,2.2,2.515,0.6438662399805382,-0.01798990938552579,0.7530389179911161,0.007493842721862507,-0.080516,-34.204513
11.185,2.0,1.0,1.0,34.6,33.9,33.9,3.0,2.2,2.5175,0.6373345828406318,-0.01831612555666877,0.7584316201319413,0.00743418777423336,-0.081478,-34.081037
11.185,2.0,1.0,1.0,34.6,33.9,33.9,3.0,2.2,2.52,0.6307188228734227,-0.018647870239349513,0.763797055948858,0.007370271951420682,-0.082459,-33.957048
11.185,2.0,1.0,1.0,34.6,33.9,33.9,3.0,2.2,2.5225,0.6240181414759232,-0.018985241571663064,0.7691342186942278,0.0073019397170876335,-0.08346,-33.832539
11.185,2.0,1.0,1.0,34.6,33.9,33.9,3.0,2.2,2.525,0.6172317135062677,-0.019328339418211313,0.7744420731627396,0.0072290297768982156,-0.084481,-33.707499
11.185,2.0,1.0,1.0,34.6,33.9,33.9,3.0,2.2,2.5275,0.6103587074544526,-0.019677265387781046,0.7797195548716694,0.007151374843658015,-0.085523,-33.581919
11.185,2.0,1.0,1.0,34.6,33.9,33.9,3.0,2.2,2.53,0.6033982856282889,-0.02003212285004222,0.7849655692173273,0.007068801391670781,-0.086585,-33.45579
11.185,2.0,1.0,1.0,34.6,33.9,33.9,3.0,2.2,2.5325,0.5963496043553704,-0.020393016951143376,0.7901789906069777,0.006981129399743894,-0.08767,-33.329102
11.185,2.0,1.0,1.0,34.6,33.9,33.9,3.0,2.2,2.535,0.5892118142018956,-0.020760054628075727,0.7953586615654781,0.006888172082241461,-0.088777,-33.201845
11.185,2.0,1.0,1.0,34.6,33.9,33.9,3.0,2.2,2.5375,0.5819840602092382,-0.021133344621658317,0.8005033918158571,0.006789735607547285,-0.089906,-33.074009
11.185,2.0,1.0,1.0,34.6,33.9,33.9,3.0,2.2,2.54,0.5746654821491795,-0.021512997487992406,0.8056119573330359,0.006685618803260436,-0.09106,-32.945583
11.185,2.0,1.0,1.0,34.6,33.9,33.9,3.0,2.2,2.5425,0.5672552147987755,-0.0218991256082138,0.8106830993698442,0.006575612847402991,-0.092237,-32.816558
11.185,2.0,1.0,1.0,34.6,33.9,33.9,3.0,2.2,2.545,0.5597523882358719,-0.022291843196360288,0.8157155234544752,0.006459500944875635,-0.09344,-32.686922
11.185,2.0,1.0,1.0,34.6,33.9,33.9,3.0,2.2,2.5475,0.5521561281563372,-0.02269126630515404,0.8207078983584578,0.006337057988347564,-0.094668,-32.556664
11.185,2.0,1.0,1.0,34.6,33.9,33.9,3.0,2.2,2.55,0.5444655562141087,-0.023097512829482345,0.8256588550342338,0.0062080502027141325,-0.095922,-32.425774
11.185,2.0,1.0,1.0,34.6,33.9,33.9,3.0,2.2,2.5525,0.5366797903852449,-0.02351070250733948,0.830566985521323,0.0060722347722014566,-0.097203,-32.29424
11.185,2.0,1.0,1.0,34.6,33.9,33.9,3.0,2.2,2.555,0.5287979453571819,-0.0239309569179743,0.8354308418200884,0.005929359449135469,-0.098513,-32.16205
11.185,2.0,1.0,1.0,34.6,33.9,33.9,3.0,2.2,2.5575,0.5208191329444827,-0.024358399476962715,0.8402489347320228,0.005779162143328446,-0.099851,-32.029193
11.185,2.0,1.0,1.0,34.6,33.9,33.9,3.0,2.2,2.56,0.5127424625324289,-0.024793155427902218,0.8450197326654325,0.005621370490967136,-0.101218,-31.895656
11.185,2.0,1.0,1.0,34.6,33.9,33.9,3.0,2.2,2.5625,0.504567041549855,-0.0252353518303953,0.849741660405368,0.00545570140181075,-0.102616,-31.761427
11.185,2.0,1.0,1.0,34.6,33.9,33.9,3.0,2.2,2.565,0.4962919759726944,-0.02568511754396297,0.8544130978465744,0.005281860583426028,-0.104045,-31.626494
11.185,2.0,1.0,1.0,34.6,33.9,33.9,3.0,2.2,2.5675,0.4879163708598059,-0.026142583207493554,0.859032378688172,0.005099542041100633,-0.105506,-31.490843
11.185,2.0,1.0,1.0,34.6,33.9,33.9,3.0,2.2,2.57,0.47943933092268126,-0.026607881213797997,0.8635977890887364,0.004908427551980545,-0.107001,-31.354462
11.185,2.0,1.0,1.0,34.6,33.9,33.9,3.0,2.2,2.5725,0.4708599611307524,-0.02708114567880454,0.8681075662803496,0.0047081861118764175,-0.108529,-31.217336
11.185,2.0,1.0,1.0,34.6,33.9,33.9,3.0,2.2,2.575,0.4621773673540802,-0.027562512404881202,0.872559897140139,0.00449847335307356,-0.110093,-31.079453
11.185,2.0,1.0,1.0,34.6,33.9,33.9,3.0,2.2,2.5775,0.45339065704531034,-0.02805211883772824,0.8769529167177237,0.004278930931362099,-0.111694,-30.940797
11.185,2.0,1.0,1.0,34.6,33.9,33.9,3.0,2.2,2.58,0.44449893996287043,-0.028550104016230322,0.8812847067169152,0.004049185880374601,-0.113331,-30.801355
11.185,2.0,1.0,1.0,34.6,33.9,33.9,3.0,2.2,2.5825,0.43550132893747984,-0.02905660851460263,0.8855532939298992,0.0038088499311796525,-0.115008,-30.661111
11.185,2.0,1.0,1.0,34.6,33.9,33.9,3.0,2.2,2.585,0.42639694068416406,-0.02957177437609934,0.8897566486220487,0.0035575187949292825,-0.116724,-30.52005
11.185,2.0,1.0,1.0,34.6,33.9,33.9,3.0,2.2,2.5875,0.41718489666206465,-0.030095745037486257,0.8938926828653792,0.00329477140619414,-0.118482,-30.378157
11.185,2.0,1.0,1.0,34.6,33.9,33.9,3.0,2.2,2.59,0.40786432398447925,-0.030628665243400757,0.8979592488185335,0.003020169124443014,-0.120282,-30.235415
11.185,2.0,1.0,1.0,34.6,33.9,33.9,3.0,2.2,2.5925,0.3984343563816698,-0.03117068094963814,0.9019541369510725,0.002733254890930507,-0.122126,-30.091809
11.185,2.0,1.0,1.0,34.6,33.9,33.9,3.0,2.2,2.595,0.38889413521915717,-0.03172193921430923,0.9058750742096405,0.0024335523380474297,-0.124015,-29.947321
11.185,2.0,1.0,1.0,34.6,33.9,33.9,3.0,2.2,2.5975,0.37924281057431736,-0.03228258807571028,0.9097197221234863,0.0021205648479593418,-0.125952,-29.801934
11.185,2.0,1.0,1.0,34.6,33.9,33.9,3.0,2.2,2.6,0.36947954237431074,-0.03285277641563138,0.9134856748465583,0.0017937745571119635,-0.127936,-29.65563
11.185,2.0,1.0,1.0,34.6,33.9,33.9,3.0,2.2,2.6025,0.3596035015985209,-0.03343265380669885,0.9171704571332501,0.0014526413029110619,-0.129972,-29.508392
11.185,2.0,1.0,1.0,34.6,33.9,33.9,3.0,2.2,2.605,0.3496138715488689,-0.034022370342209556,0.9207715222446239,0.0010966015085892241,-0.132059,-29.360199
11.185,2.0,1.0,1.0,34.6,33.9,33.9,3.0,2.2,2.6075,0.3395098491915881,-0.03462207644675084,0.9242862497817037,0.0007250670019510115,-0.134199,-29.211033
11.185,2.0,1.0,1.0,34.6,33.9,33.9,3.0,2.2,2.61,0.32929064657425083,-0.03523192266572838,0.9277119434421655,0.0003374237633364104,-0.136396,-29.060875
11.185,2.0,1.0,1.0,34.6,33.9,33.9,3.0,2.2,2.6125,0.3189554923221023,-0.03585205943172392,0.931045828696441,-6.69694022418049e-05,-0.13865,-28.909703
11.185,2.0,1.0,1.0,34.6,33.9,33.9,3.0,2.2,2.615,0.3085036332179783,-0.03648263680538808,0.9342850503789529,-0.0004887822742511165,-0.140964,-28.757496
11.185,2.0,1.0,1.0,34.6,33.9,33.9,3.0,2.2,2.6175,0.2979343358704331,-0.037123804188324554,0.9374266701897962,-0.0009287147130056083,-0.143339,-28.604233
11.185,2.0,1.0,1.0,34.6,33.9,33.9,3.0,2.2,2.62,0.28724688847496505,-0.03777571000515121,0.9404676641018249,-0.001387498249674339,-0.145779,-28.449892
11.185,2.0,1.0,1.0,34.6,33.9,33.9,3.0,2.2,2.6225,0.27644060267359544,-0.038438501351612545,0.9434049196676231,-0.0018658977769108243,-0.148286,-28.29445
11.185,2.0,1.0,1.0,34.6,33.9,33.9,3.0,2.2,2.625,0.265514815518464,-0.0391123236052741,0.946235233220365,-0.00236471334768927,-0.150862,-28.137882
11.185,2.0,1.0,1.0,34.6,33.9,33.9,3.0,2.2,2.6275,0.25446889154547264,-0.03979731999494259,0.9489553069620232,-0.002884782090599655,-0.153509,-27.980164
11.185,2.0,1.0,1.0,34.6,33.9,33.9,3.0,2.2,2.63,0.2433022249645281,-0.04049363112451932,0.9515617459317713,-0.003426980250584315,-0.156232,-27.821271
11.185,2.0,1.0,1.0,34.6,33.9,33.9,3.0,2.2,2.6325,0.23201424197343803,-0.04120139444650133,0.9540510548467511,-0.003992225364904049,-0.159031,-27.661177
11.185,2.0,1.0,1.0,34.6,33.9,33.9,3.0,2.2,2.635,0.22060440320307453,-0.04192074367979731,0.9564196348066445,-0.004581478585008075,-0.161912,-27.499855
11.185,2.0,1.0,1.0,34.6,33.9,33.9,3.0,2.2,2.6375,0.20907220630211482,-0.04265180816589404,0.9586637798526286,-0.005195747155957522,-0.164876,-27.337277
11.185,2.0,1.0,1.0,34.6,33.9,33.9,3.0,2.2,2.64,0.19741718867032917,-0.0433947121567122,0.9607796733703889,-0.005836087066132094,-0.167928,-27.173414
11.185,2.0,1.0,1.0,34.6,33.9,33.9,3.0,2.2,2.6425,0.1856389303502561,-0.04414957402668455,0.9627633843258275,-0.006503605881134037,-0.171071,-27.008237
11.185,2.0,1.0,1.0,34.6,33.9,33.9,3.0,2.2,2.645,0.17373705708798828,-0.044916505400690185,0.964610863320936,-0.007199465777120661,-0.174309,-26.841713
11.185,2.0,1.0,1.0,34.6,33.9,33.9,3.0,2.2,2.6475,0.1617112435748277,-0.045695610188453036,0.9663179384560513,-0.007924886790246471,-0.177646,-26.673813
11.185,2.0,1.0,1.0,34.6,33.9,33.9,3.0,2.2,2.65,0.1495612168827244,-0.04648698351484504,0.9678803109832398,-0.008681150300504186,-0.181086,-26.504501
11.185,2.0,1.0,1.0,34.6,33.9,33.9,3.0,2.2,2.6525,0.1372867601077688,-0.047290710534208955,0.9692935507340009,-0.009469602770030963,-0.184633,-26.333745
11.185,2.0,1.0,1.0,34.6,33.9,33.9,3.0,2.2,2.655,0.12488771623744054,-0.04810686511530962,0.97055309130265,-0.010291659757922657,-0.188294,-26.161508
11.185,2.0,1.0,1.0,34.6,33.9,33.9,3.0,2.2,2.6575,0.11236399225906629,-0.04893550838179391,0.971654224964789,-0.011148810235782873,-0.192072,-25.987753
11.185,2.0,1.0,1.0,34.6,33.9,33.9,3.0,2.2,2.66,0.09971556352886485,-0.04977668709107528,0.9725920973080077,-0.012042621230665948,-0.195973,-25.812442
11.185,2.0,1.0,1.0,34.6,33.9,33.9,3.0,2.2,2.6625,0.08694247842316803,-0.05063043183230367,0.9733617015494757,-0.012974742824769916,-0.200003,-25.635536
11.185,2.0,1.0,1.0,34.6,33.9,33.9,3.0,2.2,2.665,0.07404486329591736,-0.05149675502150315,0.9739578725123067,-0.013946913544239827,-0.204168,-25.456992
11.185,2.0,1.0,1.0,34.6,33.9,33.9,3.0,2.2,2.6675,0.0610229277695048,-0.05237564866899376,0.9743752802294161,-0.014960966172778407,-0.208474,-25.276767
11.185,2.0,1.0,1.0,34.6,33.9,33.9,3.0,2.2,2.67,0.047876970389287586,-0.053267081890811946,0.9746084231401235,-0.016018834029484518,-0.212929,-25.094818
11.185,2.0,1.0,1.0,34.6,33.9,33.9,3.0,2.2,2.6725,0.034607384676000066,-0.05417099813192373,0.9746516208407962,-0.017122557754484496,-0.21754,-24.911097
11.185,2.0,1.0,1.0,34.6,33.9,33.9,3.0,2.2,2.675,0.021214665614697852,-0.05508731206449959,0.9744990063464626,-0.018274292650542756,-0.222314,-24.725555
11.185,2.0,1.0,1.0,34.6,33.9,33.9,3.0,2.2,2.6775,0.0076994166240037624,-0.05601590611930523,0.9741445178153586,-0.01947631663400182,-0.227261,-24.538142
11.185,2.0,1.0,1.0,34.6,33.9,33.9,3.0,2.2,2.68,-0.005937642944661828,-0.05695662660221589,0.9735818896828433,-0.020731038854160794,-0.232389,-24.348806
11.185,2.0,1.0,1.0,34.6,33.9,33.9,3.0,2.2,2.6825,-0.019695669721268693,-0.05790927934086158,0.9728046431449108,-0.022041009046637108,-0.237707,-24.15749
11.185,2.0,1.0,1.0,34.6,33.9,33.9,3.0,2.2,2.685,-0.033573687580257416,-0.05887362479828433,0.9718060759245746,-0.023408927693455716,-0.243227,-23.964138
11.185,2.0,1.0,1.0,34.6,33.9,33.9,3.0,2.2,2.6875,-0.0475705781785956,-0.0598493725810317,0.970579251246525,-0.0248376570706508,-0.24896,-23.76869
11.185,2.0,1.0,1.0,34.6,33.9,33.9,3.0,2.2,2.69,-0.061685070684074424,-0.060836175258095954,0.9691169859367257,-0.02633023327316527,-0.254916,-23.571082
11.185,2.0,1.0,1.0,34.6,33.9,33.9,3.0,2.2,2.6925,-0.07591573059644903,-0.06183362139425495,0.9674118375537485,-0.027889879316905918,-0.26111,-23.371249
11.185,2.0,1.0,1.0,34.6,33.9,33.9,3.0,2.2,2.695,-0.09026094754906402,-0.06284122768632389,0.9654560904475562,-0.029520019429065927,-0.267555,-23.169123
11.185,2.0,1.0,1.0,34.6,33.9,33.9,3.0,2.2,2.6975,-0.10471892196129758,-0.06385843007321816,0.9632417406290859,-0.031224294650440444,-0.274266,-22.964631
11.185,2.0,1.0,1.0,34.6,33.9,33.9,3.0,2.2,2.7,-0.11928765039150899,-0.0648845736700302,0.9607604793200265,-0.03300657988753948,-0.281259,-22.757698
11.185,2.0,1.0,1.0,34.6,33.9,33.9,3.0,2.2,2.7025,-0.13396490941615613,-0.06591890135199223,0.9580036750366411,-0.03487100256806351,-0.288552,-22.548246
11.185,2.0,1.0,1.0,34.6,33.9,33.9,3.0,2.2,2.705,-0.1487482378321523,-0.0669605407855017,0.9549623540440335,-0.03682196307088733,-0.296163,-22.336191
11.185,2.0,1.0,1.0,34.6,33.9,33.9,3.0,2.2,2.7075,-0.16363491694585658,-0.06800848966950054,0.9516271789977669,-0.038864157121323115,-0.304114,-22.121446
11.185,2.0,1.0,1.0,34.6,33.9,33.9,3.0,2.2,2.71,-0.17862194867212464,-0.06906159891036905,0.9479884255680364,-0.04100260036427201,-0.312426,-21.90392
11.185,2.0,1.0,1.0,34.6,33.9,33.9,3.0,2.2,2.7125,-0.19370603111940785,-0.0701185534059046,0.944035956817395,-0.04324265535215218,-0.321124,-21.683517
11.185,2.0,1.0,1.0,34.6,33.9,33.9,3.0,2.2,2.715,-0.20888353128040246,-0.07117785005734811,0.939759195076234,-0.04559006121137064,-0.330235,-21.460136
11.185,2.0,1.0,1.0,34.6,33.9,33.9,3.0,2.2,2.7175,-0.22415045438036224,-0.07223777256097998,0.9351470910305681,-0.04805096628078254,-0.339787,-21.233671
11.185,2.0,1.0,1.0,34.6,33.9,33.9,3.0,2.2,2.72,-0.23950240935468764,-0.07329636245023917,0.9301880897041479,-0.05063196404815002,-0.349812,-21.004009
11.185,2.0,1.0,1.0,34.6,33.9,33.9,3.0,2.2,2.7225,-0.25493456983091844,-0.074351385762881,0.9248700929813457,-0.0533401327461553,-0.360346,-20.771034
11.185,2.0,1.0,1.0,34.6,33.9,33.9,3.0,2.2,2.725,-0.2704416298743053,-0.07540029459193553,0.9191804182788339,-0.056183079007917726,-0.371425,-20.534621
11.185,2.0,1.0,1.0,34.6,33.9,33.9,3.0,2.2,2.7275,-0.28601775361682696,-0.07644018264002517,0.9131057529329719,-0.05916898602302446,-0.383093,-20.294639
11.185,2.0,1.0,1.0,34.6,33.9,33.9,3.0,2.2,2.73,-0.3016565177211132,-0.07746773372872404,0.9066321038266192,-0.062306666678199465,-0.395395,-20.050949
11.185,2.0,1.0,1.0,34.6,33.9,33.9,3.0,2.2,2.7325,-0.31735084542735703,-0.07847916201176217,0.8997447417346781,-0.06560562221104506,-0.408383,-19.803406
11.185,2.0,1.0,1.0,34.6,33.9,33.9,3.0,2.2,2.735,-0.3330929306846848,-0.07947014239505325,0.89242813982375,-0.0690761069492084,-0.422113,-19.551855
11.185,2.0,1.0,1.0,34.6,33.9,33.9,3.0,2.2,2.7375,-0.3488741505687812,-0.08043572936799304,0.8846659056999634,-0.07272919974852794,-0.436649,-19.296132
11.185,2.0,1.0,1.0,34.6,33.9,33.9,3.0,2.2,2.74,-0.36468496382275745,-0.08137026208703396,0.8764407063642763,-0.0765768827785878,-0.452061,-19.036066
11.185,2.0,1.0,1.0,34.6,33.9,33.9,3.0,2.2,2.7425,-0.3805147929128774,-0.08226725310907475,0.867734185411372,-0.08063212832737804,-0.468426,-18.771474
11.185,2.0,1.0,1.0,34.6,33.9,33.9,3.0,2.2,2.745,-0.3963518864459828,-0.08311925762983711,0.8585268718047466,-0.084908994300639,-0.485832,-18.502161
11.185,2.0,1.0,1.0,34.6,33.9,33.9,3.0,2.2,2.7475,-0.4121831581276829,-0.08391771941766554,0.8487980795879191,-0.08942272906476774,-0.504377,-18.227924
11.185,2.0,1.0,1.0,34.6,33.9,33.9,3.0,2.2,2.75,-0.427993997620042,-0.0846527888167816,0.838525797966096,-0.0941898862087235,-0.524171,-17.948544
11.185,2.0,1.0,1.0,34.6,33.9,33.9,3.0,2.2,2.7525,-0.4437680476482121,-0.08531310718952813,0.8276865713375803,-0.09922844965710502,-0.545338,-17.663793
11.185,2.0,1.0,1.0,34.6,33.9,33.9,3.0,2.2,2.755,-0.4594869404613367,-0.08588555092920033,0.8162553691026975,-0.10455796932051854,-0.568018,-17.373426
11.185,2.0,1.0,1.0,34.6,33.9,33.9,3.0,2.2,2.7575,-0.4751299852180416,-0.08635492664752815,0.8042054454773633,-0.11019970707365875,-0.592371,-17.077185
11.185,2.0,1.0,1.0,34.6,33.9,33.9,3.0,2.2,2.76,-0.49067379597098437,-0.08670360725440573,0.7915081901559655,-0.1161767922393996,-0.618577,-16.774796
11.185,2.0,1.0,1.0,34.6,33.9,33.9,3.0,2.2,2.7625,-0.5060918475832007,-0.08691109631715506,0.7781329715991122,-0.12251438483398126,-0.646843,-16.465971
11.185,2.0,1.0,1.0,34.6,33.9,33.9,3.0,2.2,2.765,-0.5213539440178497,-0.08695350520954782,0.7640469761019809,-0.12923984345928213,-0.677405,-16.150403
11.185,2.0,1.0,1.0,34.6,33.9,33.9,3.0,2.2,2.7675,-0.536425579879565,-0.08680292401427603,0.7492150478209181,-0.13638289272185264,-0.710536,-15.827768
11.185,2.0,1.0,1.0,34.6,33.9,33.9,3.0,2.2,2.77,-0.5512671717065607,-0.08642666278383757,0.7335995378736495,-0.14397578214271972,-0.74655,-15.497725
11.185,2.0,1.0,1.0,34.6,33.9,33.9,3.0,2.2,2.7725,-0.5658331301582399,-0.08578633443438427,0.717160174871333,-0.15205342431000413,-0.78581,-15.159916
11.185,2.0,1.0,1.0,34.6,33.9,33.9,3.0,2.2,2.775,-0.5800707377469213,-0.08483674407876579,0.6998539753421978,-0.16065349396812612,-0.82874,-14.813963
11.185,2.0,1.0,1.0,34.6,33.9,33.9,3.0,2.2,2.7775,-0.5939187889747175,-0.08352454184852029,0.6816352212528176,-0.16981646105137504,-0.875834,-14.459474
11.185,2.0,1.0,1.0,34.6,33.9,33.9,3.0,2.2,2.78,-0.6073059405696333,-0.08178658712114298,0.6624555443389657,-0.1795855182476991,-0.927672,-14.09604
11.185,2.0,1.0,1.0,34.6,33.9,33.9,3.0,2.2,2.7825,-0.6201487090300787,-0.07954796161680971,0.6422641747991714,-0.19000634595397034,-0.984939,-13.72324
11.185,2.0,1.0,1.0,34.6,33.9,33.9,3.0,2.2,2.785,-0.6323490412499144,-0.07671955741821423,0.6210084372959782,-0.20112663225346744,-1.048445,-13.340645
11.185,2.0,1.0,1.0,34.6,33.9,33.9,3.0,2.2,2.7875,-0.6437913725526424,-0.07319515453389297,0.5986346132417278,-0.21299522973701487,-1.119156,-12.947822
11.185,2.0,1.0,1.0,34.6,33.9,33.9,3.0,2.2,2.79,-0.6543390770153871,-0.06884789315264171,0.5750893392668079,-0.2256607803729597,-1.198227,-12.544348
11.185,2.0,1.0,1.0,34.6,33.9,33.9,3.0,2.2,2.7925,-0.6638302113734256,-0.06352604205611989,0.5503217833047972,-0.23916956850895968,-1.287046,-12.129816
11.185,2.0,1.0,1.0,34.6,33.9,33.9,3.0,2.2,2.795,-0.6720724631318523,-0.05704797378321369,0.5242869393382734,-0.25356226303445445,-1.387296,-11.703856
11.185,2.0,1.0,1.0,34.6,33.9,33.9,3.0,2.2,2.7975,-0.6788372482314818,-0.04919629144606991,0.49695051870184154,-0.2688690736095183,-1.501018,-11.266163
11.185,2.0,1.0,1.0,34.6,33.9,33.9,3.0,2.2,2.8,-0.6838529850373967,-0.03971113276088586,0.46829610003223565,-0.28510266260045314,-1.63071,-10.816524
11.185,2.0,1.0,1.0,34.6,33.9,33.9,3.0,2.2,2.8025,-0.6867977349761911,-0.028282839094577298,0.4383354399506099,-0.3022479154865291,-1.779437,-10.354871
11.185,2.0,1.0,1.0,34.6,33.9,33.9,3.0,2.2,2.805,-0.6872917028662072,-0.014544477835960655,0.40712314284422013,-0.3202473774425512,-1.950982,-9.88134
11.185,2.0,1.0,1.0,34.6,33.9,33.9,3.0,2.2,2.8075,-0.684890619810977,0.0019347673492698216,0.37477721941066616,-0.3389808335691527,-2.150027,-9.396356
11.185,2.0,1.0,1.0,34.6,33.9,33.9,3.0,2.2,2.81,-0.6790819157958194,0.02165344511262512,0.34150735944186195,-0.3582372147234763,-2.382379,-8.900748
11.185,2.0,1.0,1.0,34.6,33.9,33.9,3.0,2.2,2.8125,-0.669286993332175,0.0451756346261369,0.307652834552445,-0.377676918957101,-2.655239,-8.395894
11.185,2.0,1.0,1.0,34.6,33.9,33.9,3.0,2.2,2.815,-0.6548750080897795,0.07311732088231551,0.2737314780782978,-0.39678310100789405,-2.977503,-7.88391
11.185,2.0,1.0,1.0,34.6,33.9,33.9,3.0,2.2,2.8175,-0.6351964102070315,0.10611314056200086,0.24049950928196262,-0.4148021481556674,-3.360029,-7.367882
11.185,2.0,1.0,1.0,34.6,33.9,33.9,3.0,2.2,2.82,-0.6096477794485078,0.14475202506093135,0.20901801552118188,-0.4306774862098488,-3.815764,-6.85214
11.185,2.0,1.0,1.0,34.6,33.9,33.9,3.0,2.2,2.8225,-0.5777819446350902,0.18946781197538287,0.1807142608139993,-0.4429884566256787,-4.359383,-6.34256
11.185,2.0,1.0,1.0,34.6,33.9,33.9,3.0,2.2,2.825,-0.5394759851224301,0.240372260987235,0.1574134708003151,-0.449918454239699,-5.005695,-5.846836
11.185,2.0,1.0,1.0,34.6,33.9,33.9,3.0,2.2,2.8275,-0.4951589447573085,0.29702858895774853,0.1413002000313746,-0.449292981025087,-5.765114,-5.37467
