1,w,sub_t,h,l1,l2,l3,g1,g2,Freq,S11_re,S21_re,S11_img,S21_img,S11_dB,S21_dB
11.185,2.0,1.0,1.0,34.9,33.7,33.7,2.4,2.3,2.5,0.605224714776179,-0.0228583040082397,0.783352656232347,0.00904304204007182,-0.088013,-32.187627
11.185,2.0,1.0,1.0,34.9,33.7,33.7,2.4,2.3,2.5025,0.5979321000049337,-0.02326633144306052,0.7887765877558354,0.008945975826958661,-0.089107,-32.066618
11.185,2.0,1.0,1.0,34.9,33.7,33.7,2.4,2.3,2.505,0.5905454001115811,-0.023680775437457953,0.7941636423356543,0.008842728143499389,-0.090223,-31.945175
11.185,2.0,1.0,1.0,34.9,33.7,33.7,2.4,2.3,2.5075,0.583063776056665,-0.02410171769957179,0.7995124942307813,0.008733083043726888,-0.091359,-31.823292
11.185,2.0,1.0,1.0,34.9,33.7,33.7,2.4,2.3,2.51,0.5754863875073265,-0.024529239869407155,0.804821781900293,0.008616817382353915,-0.092516,-31.700963
11.185,2.0,1.0,1.0,34.9,33.7,33.7,2.4,2.3,2.5125,0.5678123933090129,-0.024963423432449897,0.8100901070785881,0.00849370056519037,-0.093695,-31.578181
11.185,2.0,1.0,1.0,34.9,33.7,33.7,2.4,2.3,2.515,0.560040951985929,-0.02540434962683104,0.815316033829935,0.008363494290547025,-0.094897,-31.454942
11.185,2.0,1.0,1.0,34.9,33.7,33.7,2.4,2.3,2.5175,0.5521712222716071,-0.025852099343641008,0.82049808758209,0.00822595228129087,-0.096122,-31.331238
11.185,2.0,1.0,1.0,34.9,33.7,33.7,2.4,2.3,2.52,0.5442023636709518,-0.02630675301997274,0.825634754138755,0.008080820007204404,-0.097371,-31.207063
11.185,2.0,1.0,1.0,34.9,33.7,33.7,2.4,2.3,2.5225,0.536133537055254,-0.026768390524244776,0.830724478670645,0.007927834397288459,-0.098644,-31.082411
11.185,2.0,1.0,1.0,34.9,33.7,33.7,2.4,2.3,2.525,0.5279639052916608,-0.02723709103333207,0.8357656646849719,0.007766723541632513,-0.099943,-30.957276
11.185,2.0,1.0,1.0,34.9,33.7,33.7,2.4,2.3,2.5275,0.5196926339086759,-0.027712932901001592,0.8407566729731515,0.007597206382464722,-0.101267,-30.83165
11.185,2.0,1.0,1.0,34.9,33.7,33.7,2.4,2.3,2.53,0.5113188917993516,-0.028195993517119773,0.8456958205365582,0.007418992393975496,-0.102617,-30.705527
11.185,2.0,1.0,1.0,34.9,33.7,33.7,2.4,2.3,2.5325,0.5028418519638556,-0.028686349157067904,0.8505813794901834,0.007231781250495791,-0.103995,-30.578901
11.185,2.0,1.0,1.0,34.9,33.7,33.7,2.4,2.3,2.535,0.49426069229319075,-0.029184074820767476,0.8554115759440705,0.007035262482592905,-0.105401,-30.451763
11.185,2.0,1.0,1.0,34.9,33.7,33.7,2.4,2.3,2.5375,0.4855745963959289,-0.02968924406067946,0.8601845888624136,0.006829115120629488,-0.106836,-30.324108
11.185,2.0,1.0,1.0,34.9,33.7,33.7,2.4,2.3,2.54,0.47678275446985413,-0.030201928798106088,0.8648985489002464,0.006613007325315008,-0.1083,-30.195928
11.185,2.0,1.0,1.0,34.9,33.7,33.7,2.4,2.3,2.5425,0.4678843642205259,-0.03072219912708037,0.8695515372176739,0.006386596004758169,-0.109795,-30.067216
11.185,2.0,1.0,1.0,34.9,33.7,33.7,2.4,2.3,2.545,0.458878631828825,-0.03125012310508659,0.8741415842716138,0.006149526417510593,-0.111321,-29.937964
11.185,2.0,1.0,1.0,34.9,33.7,33.7,2.4,2.3,2.5475,0.4497647729696557,-0.03178576652980724,0.8786666685850648,0.005901431761071736,-0.112879,-29.808165
11.185,2.0,1.0,1.0,34.9,33.7,33.7,2.4,2.3,2.55,0.440542013884009,-0.03232919270104526,0.883124715493946,0.005641932745301058,-0.11447,-29.67781
11.185,2.0,1.0,1.0,34.9,33.7,33.7,2.4,2.3,2.5525,0.4312095925067651,-0.0328804621669138,0.8875135958715785,0.0053706371501656795,-0.116096,-29.546893
11.185,2.0,1.0,1.0,34.9,33.7,33.7,2.4,2.3,2.555,0.4217667596526019,-0.03343963245333458,0.8918311248309372,0.005087139367222054,-0.117756,-29.415406
11.185,2.0,1.0,1.0,34.9,33.7,33.7,2.4,2.3,2.5575,0.41221278026254726,-0.034006757775822544,0.8960750604048274,0.0047910199242116695,-0.119452,-29.283339
11.185,2.0,1.0,1.0,34.9,33.7,33.7,2.4,2.3,2.56,0.4025469347137892,-0.034581888732472456,0.9002431022041897,0.004481844992119242,-0.121186,-29.150686
11.185,2.0,1.0,1.0,34.9,33.7,33.7,2.4,2.3,2.5625,0.39276852019543224,-0.03516507197699492,0.9043328900547807,0.004159165874018608,-0.122957,-29.017437
11.185,2.0,1.0,1.0,34.9,33.7,33.7,2.4,2.3,2.565,0.38287685215302913,-0.035756349870577284,0.908342002612532,0.003822518475000815,-0.124768,-28.883584
11.185,2.0,1.0,1.0,34.9,33.7,33.7,2.4,2.3,2.5675,0.3728712658048074,-0.03635576011126539,0.9122679559579294,0.003471422752448299,-0.126619,-28.749119
11.185,2.0,1.0,1.0,34.9,33.7,33.7,2.4,2.3,2.57,0.3627511177326195,-0.03696333533948226,0.9161082021698227,0.0031053821458887137,-0.128512,-28.614032
11.185,2.0,1.0,1.0,34.9,33.7,33.7,2.4,2.3,2.5725,0.3525157875507662,-0.037579102718208246,0.9198601278791259,0.0027238829856265157,-0.130447,-28.478314
11.185,2.0,1.0,1.0,34.9,33.7,33.7,2.4,2.3,2.575,0.3421646796559665,-0.038203083486253925,0.9235210528029241,0.0023263938793158774,-0.132427,-28.341957
11.185,2.0,1.0,1.0,34.9,33.7,33.7,2.4,2.3,2.5775,0.33169722506186555,-0.03883529248295443,0.927088228259573,0.0019123650756012807,-0.134452,-28.20495
11.185,2.0,1.0,1.0,34.9,33.7,33.7,2.4,2.3,2.58,0.3211128833216147,-0.0394757376425045,0.9305588356654386,0.0014812278039104897,-0.136524,-28.067285
11.185,2.0,1.0,1.0,34.9,33.7,33.7,2.4,2.3,2.5825,0.3104111445421713,-0.04012441945603761,0.9339299850139966,0.0010323935894452488,-0.138644,-27.928951
11.185,2.0,1.0,1.0,34.9,33.7,33.7,2.4,2.3,2.585,0.29959153149413137,-0.040781330399425234,0.9371987133380709,0.0005652535423679912,-0.140813,-27.789938
11.185,2.0,1.0,1.0,34.9,33.7,33.7,2.4,2.3,2.5875,0.28865360182103333,-0.041446454324638206,0.9403619831560827,7.91776201360639e-05,-0.143034,-27.650236
11.185,2.0,1.0,1.0,34.9,33.7,33.7,2.4,2.3,2.59,0.277596950352247,-0.04211976581236531,0.9434166809032339,-0.0004264861381135016,-0.145308,-27.509836
11.185,2.0,1.0,1.0,34.9,33.7,33.7,2.4,2.3,2.5925,0.26642121152369647,-0.0428012294834297,0.9463596153486532,-0.0009524124062823017,-0.147636,-27.368725
11.185,2.0,1.0,1.0,34.9,33.7,33.7,2.4,2.3,2.595,0.25512606191086923,-0.04349079926637181,0.9491875159995866,-0.0014992993963389262,-0.150021,-27.226894
11.185,2.0,1.0,1.0,34.9,33.7,33.7,2.4,2.3,2.5975,0.24371122287869124,-0.0441884176183887,0.9518970314938182,-0.0020678697149286323,-0.152463,-27.084331
11.185,2.0,1.0,1.0,34.9,33.7,33.7,2.4,2.3,2.6,0.2321764633530796,-0.044894014696620646,0.9544847279815841,-0.002658871252896688,-0.154965,-26.941024
11.185,2.0,1.0,1.0,34.9,33.7,33.7,2.4,2.3,2.6025,0.22052160271916013,-0.04560750747656324,0.956947087498317,-0.0032730781091287234,-0.157529,-26.796963
11.185,2.0,1.0,1.0,34.9,33.7,33.7,2.4,2.3,2.605,0.20874651385133067,-0.046328798814155296,0.9592805063296678,-0.003911291550184425,-0.160157,-26.652135
11.185,2.0,1.0,1.0,34.9,33.7,33.7,2.4,2.3,2.6075,0.19685112628059595,-0.047057776447841274,0.9614812933703184,-0.004574341007279534,-0.16285,-26.506527
11.185,2.0,1.0,1.0,34.9,33.7,33.7,2.4,2.3,2.61,0.1848354295048156,-0.04779431193663706,0.9635456684781957,-0.005263085112253486,-0.165612,-26.360129
11.185,2.0,1.0,1.0,34.9,33.7,33.7,2.4,2.3,2.6125,0.172699476447752,-0.04853825952993664,0.9654697608257912,-0.005978412774253125,-0.168444,-26.212926
11.185,2.0,1.0,1.0,34.9,33.7,33.7,2.4,2.3,2.615,0.1604433870730628,-0.04928945496447606,0.9672496072503588,-0.00672124429895547,-0.171348,-26.064905
11.185,2.0,1.0,1.0,34.9,33.7,33.7,2.4,2.3,2.6175,0.14806735215969813,-0.050047714183524473,0.9688811506048792,-0.007492532552257186,-0.174327,-25.916054
11.185,2.0,1.0,1.0,34.9,33.7,33.7,2.4,2.3,2.62,0.13557163724541185,-0.05081283197299558,0.9703602381117225,-0.008293264170468004,-0.177384,-25.766358
11.185,2.0,1.0,1.0,34.9,33.7,33.7,2.4,2.3,2.6225,0.122956586745463,-0.05158458050875949,0.9716826197210675,-0.009124460819163713,-0.180521,-25.615803
11.185,2.0,1.0,1.0,34.9,33.7,33.7,2.4,2.3,2.625,0.110222628253922,-0.0523627078089838,0.972843946476173,-0.00998718050297834,-0.183742,-25.464375
11.185,2.0,1.0,1.0,34.9,33.7,33.7,2.4,2.3,2.6275,0.09737027703537122,-0.05314693608484402,0.973839768887696,-0.01088251892875448,-0.187048,-25.312059
11.185,2.0,1.0,1.0,34.9,33.7,33.7,2.4,2.3,2.63,0.08440014071520638,-0.05393695998240097,0.9746655353193096,-0.011811610924610458,-0.190444,-25.158839
11.185,2.0,1.0,1.0,34.9,33.7,33.7,2.4,2.3,2.6325,0.07131292417720057,-0.05473244470785445,0.9753165903869283,-0.012775631917641873,-0.193931,-25.0047
11.185,2.0,1.0,1.0,34.9,33.7,33.7,2.4,2.3,2.635,0.05810943467748968,-0.055533024027733725,0.9757881733739185,-0.013775799473137626,-0.197515,-24.849625
11.185,2.0,1.0,1.0,34.9,33.7,33.7,2.4,2.3,2.6375,0.04479058718467746,-0.05633829813487328,0.9760754166646948,-0.014813374898368724,-0.201197,-24.693598
11.185,2.0,1.0,1.0,34.9,33.7,33.7,2.4,2.3,2.64,0.03135740995633038,-0.05714783137023938,0.9761733441991571,-0.015889664914197667,-0.204982,-24.536602
11.185,2.0,1.0,1.0,34.9,33.7,33.7,2.4,2.3,2.6425,0.01781105036284546,-0.05796114978980806,0.9760768699504309,-0.01700602339795492,-0.208874,-24.378619
11.185,2.0,1.0,1.0,34.9,33.7,33.7,2.4,2.3,2.645,0.004152780970350723,-0.0587777385647454,0.9757807964283985,-0.018163853201245177,-0.212876,-24.21963
11.185,2.0,1.0,1.0,34.9,33.7,33.7,2.4,2.3,2.6475,-0.00961599410486216,-0.05959703920208547,0.9752798132114842,-0.01936460804657093,-0.216993,-24.059618
11.185,2.0,1.0,1.0,34.9,33.7,33.7,2.4,2.3,2.65,-0.023493732557004203,-0.0604184465719431,0.9745684955091617,-0.020609794506905366,-0.22123,-23.898562
11.185,2.0,1.0,1.0,34.9,33.7,33.7,2.4,2.3,2.6525,-0.03747874695211582,-0.06124130572600333,0.9736413027575996,-0.021900974072594104,-0.22559,-23.736442
11.185,2.0,1.0,1.0,34.9,33.7,33.7,2.4,2.3,2.655,-0.05156919747459413,-0.06206490849060811,0.972492577250816,-0.02323976531023832,-0.230079,-23.573239
11.185,2.0,1.0,1.0,34.9,33.7,33.7,2.4,2.3,2.6575,-0.06576308434211087,-0.0628884898161694,0.971116542809634,-0.02462784611848802,-0.234702,-23.40893
11.185,2.0,1.0,1.0,34.9,33.7,33.7,2.4,2.3,2.66,-0.0800582398707666,-0.06371122386287659,0.9695073034906577,-0.02606695608596592,-0.239465,-23.243494
11.185,2.0,1.0,1.0,34.9,33.7,33.7,2.4,2.3,2.6625,-0.09445232017068649,-0.06453221980070277,0.9676588423373578,-0.02755889895684142,-0.244373,-23.076907
11.185,2.0,1.0,1.0,34.9,33.7,33.7,2.4,2.3,2.665,-0.10894279645055793,-0.06535051729952887,0.965565020175245,-0.02910554520988801,-0.249432,-22.909147
11.185,2.0,1.0,1.0,34.9,33.7,33.7,2.4,2.3,2.6675,-0.12352694590750281,-0.06616508168275832,0.9632195744529615,-0.0307088347571607,-0.254649,-22.740189
11.185,2.0,1.0,1.0,34.9,33.7,33.7,2.4,2.3,2.67,-0.13820184217648943,-0.06697479871507499,0.9606161181309663,-0.032370779768752383,-0.26003,-22.570008
11.185,2.0,1.0,1.0,34.9,33.7,33.7,2.4,2.3,2.6725,-0.15296434531089795,-0.06777846899193911,0.9577481386192941,-0.034093467630391366,-0.265583,-22.398577
11.185,2.0,1.0,1.0,34.9,33.7,33.7,2.4,2.3,2.675,-0.1678110912629086,-0.06857480189500217,0.9546089967657488,-0.035879064040932905,-0.271315,-22.225869
11.185,2.0,1.0,1.0,34.9,33.7,33.7,2.4,2.3,2.6775,-0.18273848082915686,-0.06936240907378803,0.9511919258956426,-0.03772981625707616,-0.277234,-22.051856
11.185,2.0,1.0,1.0,34.9,33.7,33.7,2.4,2.3,2.68,-0.1977426680233196,-0.0701397974096852,0.9474900309040934,-0.03964805649286932,-0.283348,-21.87651
11.185,2.0,1.0,1.0,34.9,33.7,33.7,2.4,2.3,2.6825,-0.21281954783306892,-0.07090536141345678,0.9434962874016931,-0.0416362054817538,-0.289667,-21.699798
11.185,2.0,1.0,1.0,34.9,33.7,33.7,2.4,2.3,2.685,-0.22796474331402083,-0.07165737500203295,0.939203540914304,-0.04369677620901524,-0.2962,-21.521691
11.185,2.0,1.0,1.0,34.9,33.7,33.7,2.4,2.3,2.6875,-0.24317359196782787,-0.07239398259421503,0.9346045061376478,-0.04583237782253064,-0.302958,-21.342155
11.185,2.0,1.0,1.0,34.9,33.7,33.7,2.4,2.3,2.69,-0.25844113134528296,-0.07311318945800196,0.9296917662474538,-0.04804571972959316,-0.30995,-21.161155
11.185,2.0,1.0,1.0,34.9,33.7,33.7,2.4,2.3,2.6925,-0.27376208380829176,-0.07381285123443575,0.9244577722660113,-0.050339615887336965,-0.317189,-20.978658
11.185,2.0,1.0,1.0,34.9,33.7,33.7,2.4,2.3,2.695,-0.28913084037633735,-0.07449066255402628,0.9188948424864156,-0.0527169892937898,-0.324687,-20.794624
11.185,2.0,1.0,1.0,34.9,33.7,33.7,2.4,2.3,2.6975,-0.3045414435739551,-0.07514414465181882,0.9129951619562365,-0.0551808766858456,-0.332457,-20.609017
11.185,2.0,1.0,1.0,34.9,33.7,33.7,2.4,2.3,2.7,-0.3199875691850691,-0.07577063187583133,0.9067507820232721,-0.05773443344933472,-0.340513,-20.421795
11.185,2.0,1.0,1.0,34.9,33.7,33.7,2.4,2.3,2.7025,-0.33546250680806927,-0.07636725697074002,0.9001536199472189,-0.06038093874484459,-0.348869,-20.232917
11.185,2.0,1.0,1.0,34.9,33.7,33.7,2.4,2.3,2.705,-0.35095913909168386,-0.07693093500409105,0.893195458582826,-0.06312380085084948,-0.357543,-20.04234
11.185,2.0,1.0,1.0,34.9,33.7,33.7,2.4,2.3,2.7075,-0.3664699195159641,-0.07745834578572781,0.8858679461424432,-0.06596656272292735,-0.366551,-19.850016
11.185,2.0,1.0,1.0,34.9,33.7,33.7,2.4,2.3,2.71,-0.3819868485646543,-0.07794591461224006,0.8781625960489686,-0.06891290776419558,-0.375911,-19.6559
11.185,2.0,1.0,1.0,34.9,33.7,33.7,2.4,2.3,2.7125,-0.39750144811458504,-0.07838979114673987,0.8700707868943595,-0.07196666579736566,-0.385644,-19.45994
11.185,2.0,1.0,1.0,34.9,33.7,33.7,2.4,2.3,2.715,-0.41300473384405023,-0.07878582621974962,0.8615837625242678,-0.07513181922273358,-0.39577,-19.262085
11.185,2.0,1.0,1.0,34.9,33.7,33.7,2.4,2.3,2.7175,-0.42848718543502023,-0.07912954630901153,0.8526926322763121,-0.07841250933866634,-0.406313,-19.06228
11.185,2.0,1.0,1.0,34.9,33.7,33.7,2.4,2.3,2.72,-0.4439387143129196,-0.07941612542407361,0.8433883714085053,-0.08181304279128225,-0.417298,-18.860468
11.185,2.0,1.0,1.0,34.9,33.7,33.7,2.4,2.3,2.7225,-0.4593486286320578,-0.07964035408498328,0.8336618217657973,-0.08533789810759018,-0.428751,-18.656589
11.185,2.0,1.0,1.0,34.9,33.7,33.7,2.4,2.3,2.725,-0.4747055951737408,-0.07979660504263732,0.8235036927472974,-0.08899173225065259,-0.4407,-18.450581
11.185,2.0,1.0,1.0,34.9,33.7,33.7,2.4,2.3,2.7275,-0.4899975977771784,-0.07987879534051483,0.8129045626551546,-0.09277938711567756,-0.453179,-18.242379
11.185,2.0,1.0,1.0,34.9,33.7,33.7,2.4,2.3,2.73,-0.5052118918691321,-0.07988034426274318,0.8018548805294641,-0.09670589586125417,-0.46622,-18.031912
11.185,2.0,1.0,1.0,34.9,33.7,33.7,2.4,2.3,2.7325,-0.5203349545963024,-0.07979412665068644,0.7903449686028263,-0.100776488939117,-0.47986,-17.81911
11.185,2.0,1.0,1.0,34.9,33.7,33.7,2.4,2.3,2.735,-0.5353524299930262,-0.07961242099830762,0.7783650255452058,-0.1049965996472629,-0.49414,-17.603897
11.185,2.0,1.0,1.0,34.9,33.7,33.7,2.4,2.3,2.7375,-0.5502490685350482,-0.07932685165408888,0.7659051307159139,-0.10937186898315826,-0.509103,-17.386192
11.185,2.0,1.0,1.0,34.9,33.7,33.7,2.4,2.3,2.74,-0.565008660335906,-0.0789283243627642,0.7529552496976656,-0.11390814951374825,-0.524798,-17.165914
11.185,2.0,1.0,1.0,34.9,33.7,33.7,2.4,2.3,2.7425,-0.5796139611346115,-0.07840695427179095,0.7395052414602593,-0.11861150790416473,-0.541277,-16.942975
11.185,2.0,1.0,1.0,34.9,33.7,33.7,2.4,2.3,2.745,-0.5940466100992764,-0.07775198540342453,0.7255448675924381,-0.1234882256537072,-0.558596,-16.717282
11.185,2.0,1.0,1.0,34.9,33.7,33.7,2.4,2.3,2.7475,-0.608287038329487,-0.07695170045132596,0.7110638041542109,-0.12854479747129693,-0.576819,-16.48874
11.185,2.0,1.0,1.0,34.9,33.7,33.7,2.4,2.3,2.75,-0.622314366777786,-0.0759933195984776,0.696051656844335,-0.133787926577426,-0.596015,-16.257248
11.185,2.0,1.0,1.0,34.9,33.7,33.7,2.4,2.3,2.7525,-0.6361062921253064,-0.07486288686831913,0.6804979803557721,-0.1392245160384081,-0.61626,-16.022699
11.185,2.0,1.0,1.0,34.9,33.7,33.7,2.4,2.3,2.755,-0.6496389589355523,-0.07354514231085768,0.664392303014913,-0.14486165501242168,-0.637639,-15.784983
11.185,2.0,1.0,1.0,34.9,33.7,33.7,2.4,2.3,2.7575,-0.662886816171173,-0.07202337808748474,0.6477241580794955,-0.1507065985040164,-0.660243,-15.543982
11.185,2.0,1.0,1.0,34.9,33.7,33.7,2.4,2.3,2.76,-0.6758224558885805,-0.070279276250043,0.6304831234200865,-0.15676673886996856,-0.684176,-15.299574
11.185,2.0,1.0,1.0,34.9,33.7,33.7,2.4,2.3,2.7625,-0.6884164316228532,-0.06829272570952084,0.6126588717483514,-0.16304956687658492,-0.709552,-15.051631
11.185,2.0,1.0,1.0,34.9,33.7,33.7,2.4,2.3,2.765,-0.7006370536394031,-0.06604161555687624,0.5942412341056246,-0.16956261955376783,-0.736499,-14.800018
11.185,2.0,1.0,1.0,34.9,33.7,33.7,2.4,2.3,2.7675,-0.7124501578602865,-0.06350160153389892,0.5752202800158165,-0.1763134113955828,-0.765158,-14.544594
11.185,2.0,1.0,1.0,34.9,33.7,33.7,2.4,2.3,2.77,-0.7238188448755167,-0.06064584205955708,0.555586418574248,-0.18330934458428383,-0.795688,-14.285214
11.185,2.0,1.0,1.0,34.9,33.7,33.7,2.4,2.3,2.7725,-0.7347031850310538,-0.057444699805274974,0.5353305258342675,-0.19055759281886087,-0.828267,-14.021722
11.185,2.0,1.0,1.0,34.9,33.7,33.7,2.4,2.3,2.775,-0.7450598851604101,-0.05386540439615467,0.5144441052244777,-0.19806495195254176,-0.863096,-13.753961
11.185,2.0,1.0,1.0,34.9,33.7,33.7,2.4,2.3,2.7775,-0.7548419121207042,-0.04987167141971569,0.4929194894534009,-0.2058376489138817,-0.900399,-13.481763
11.185,2.0,1.0,1.0,34.9,33.7,33.7,2.4,2.3,2.78,-0.7639980679466397,-0.04542327258987019,0.47075009452635336,-0.21388109821266962,-0.94043,-13.204958
11.185,2.0,1.0,1.0,34.9,33.7,33.7,2.4,2.3,2.7825,-0.7724725112097358,-0.040475551704666296,0.4479307392241565,-0.22219959260237182,-0.983479,-12.923368
11.185,2.0,1.0,1.0,34.9,33.7,33.7,2.4,2.3,2.785,-0.7802042191599375,-0.03497888104751184,0.42445804681412047,-0.23079591104661373,-1.029873,-12.63681
11.185,2.0,1.0,1.0,34.9,33.7,33.7,2.4,2.3,2.7875,-0.7871263855747033,-0.02887805325636983,0.4003309500514242,-0.2396708228489133,-1.079985,-12.345099
11.185,2.0,1.0,1.0,34.9,33.7,33.7,2.4,2.3,2.79,-0.7931657501570966,-0.02211160463516572,0.37555132588749085,-0.24882246144955594,-1.134243,-12.048047
11.185,2.0,1.0,1.0,34.9,33.7,33.7,2.4,2.3,2.7925,-0.7982418571172765,-0.014611067715616747,0.3501247929729753,-0.25824553473260087,-1.193136,-11.745464
11.185,2.0,1.0,1.0,34.9,33.7,33.7,2.4,2.3,2.795,-0.8022662436876614,-0.006300154043916426,0.32406171329867817,-0.26793033044980014,-1.257228,-11.437162
11.185,2.0,1.0,1.0,34.9,33.7,33.7,2.4,2.3,2.7975,-0.8051415644044646,0.0029061266906704403,0.29737844945302044,-0.2778614652679811,-1.327171,-11.122959
11.185,2.0,1.0,1.0,34.9,33.7,33.7,2.4,2.3,2.8,-0.8067606649542446,0.013102397031634308,0.27009894127214285,-0.28801631370540437,-1.403717,-10.80268
11.185,2.0,1.0,1.0,34.9,33.7,33.7,2.4,2.3,2.8025,-0.8070056315304461,0.024393865255741633,0.2422566803353651,-0.29836303863449043,-1.487744,-10.476166
11.185,2.0,1.0,1.0,34.9,33.7,33.7,2.4,2.3,2.805,-0.8057468597833721,0.03689725739558016,0.2138971778527115,-0.3088581280678277,-1.580277,-10.143277
11.185,2.0,1.0,1.0,34.9,33.7,33.7,2.4,2.3,2.8075,-0.8028422140732043,0.050741656475171475,0.18508104067357348,-0.31944332395777836,-1.682514,-9.803905
11.185,2.0,1.0,1.0,34.9,33.7,33.7,2.4,2.3,2.81,-0.7981363862242367,0.06606913910388944,0.15588779039899378,-0.33004180876727723,-1.795866,-9.45798
11.185,2.0,1.0,1.0,34.9,33.7,33.7,2.4,2.3,2.8125,-0.791460617773682,0.08303504477644286,0.12642057967115483,-0.3405534968691477,-1.921998,-9.105488
11.185,2.0,1.0,1.0,34.9,33.7,33.7,2.4,2.3,2.815,-0.7826330264462391,0.10180763659672575,0.09681197336326053,-0.35084926470970956,-2.062885,-8.746489
11.185,2.0,1.0,1.0,34.9,33.7,33.7,2.4,2.3,2.8175,-0.7714598829952749,0.1225668070388475,0.06723096300182808,-0.36076395374778014,-2.220874,-8.381134
11.185,2.0,1.0,1.0,34.9,33.7,33.7,2.4,2.3,2.82,-0.7577383258599586,0.1455013416879618,0.03789135754279134,-0.3700880062271902,-2.398769,-8.009699
11.185,2.0,1.0,1.0,34.9,33.7,33.7,2.4,2.3,2.8225,-0.7412611844046951,0.1708040717494752,0.009061622075100053,-0.37855766631699383,-2.599926,-7.632614
11.185,2.0,1.0,1.0,34.9,33.7,33.7,2.4,2.3,2.825,-0.7218248083398113,0.19866402122869542,-0.018923913293809755,-0.3858438293237337,-2.82838,-7.250509
11.185,2.0,1.0,1.0,34.9,33.7,33.7,2.4,2.3,2.8275,-0.6992410614729964,0.2292543971599781,-0.04565282479496542,-0.39153989476536727,-3.088988,-6.864258
11.185,2.0,1.0,1.0,34.9,33.7,33.7,2.4,2.3,2.83,-0.673354899393563,0.26271501417755433,-0.0706221544400134,-0.39514943579154527,-3.387608,-6.475044
