1,w,sub_t,h,l1,l2,l3,g1,g2,Freq,S11_re,S21_re,S11_img,S21_img,S11_dB,S21_dB
11.185,2.0,1.0,1.0,34.1,34.0,34.0,4.0,2.9,2.5,0.770077972733061,-0.00834236763402397,0.626962071646143,0.00427829605303895,-0.060784,-40.560165
11.185,2.0,1.0,1.0,34.1,34.0,34.0,4.0,2.9,2.5025,0.7653916020240266,-0.008491358869740477,0.6325669344078668,0.004266854764502535,-0.061384,-40.442679
11.185,2.0,1.0,1.0,34.1,34.0,34.0,4.0,2.9,2.505,0.7606414219123473,-0.008642734983003537,0.6381623887368473,0.004253957105866987,-0.061995,-40.324847
11.185,2.0,1.0,1.0,34.1,34.0,34.0,4.0,2.9,2.5075,0.7558268113701263,-0.008796538020809284,0.6437479549107284,0.004239553870755211,-0.062616,-40.206661
11.185,2.0,1.0,1.0,34.1,34.0,34.0,4.0,2.9,2.51,0.7509471415530723,-0.008952810924130816,0.6493231396827476,0.004223594179395574,-0.063248,-40.088113
11.185,2.0,1.0,1.0,34.1,34.0,34.0,4.0,2.9,2.5125,0.7460017757535425,-0.009111597550141202,0.6548874358853242,0.004206025414449132,-0.063891,-39.969194
11.185,2.0,1.0,1.0,34.1,34.0,34.0,4.0,2.9,2.515,0.740990069356409,-0.009272942695084845,0.6604403220219571,0.0041867931540159435,-0.064546,-39.849896
11.185,2.0,1.0,1.0,34.1,34.0,34.0,4.0,2.9,2.5175,0.73591136979796,-0.009436892117819931,0.6659812618470438,0.004165841101677294,-0.065212,-39.73021
11.185,2.0,1.0,1.0,34.1,34.0,34.0,4.0,2.9,2.52,0.7307650165280418,-0.00960349256405659,0.6715097039332738,0.004143111013421444,-0.06589,-39.610127
11.185,2.0,1.0,1.0,34.1,34.0,34.0,4.0,2.9,2.5225,0.7255503409756875,-0.009772791791314614,0.6770250812261854,0.004118542621292008,-0.06658,-39.489639
11.185,2.0,1.0,1.0,34.1,34.0,34.0,4.0,2.9,2.525,0.720266666518453,-0.009944838594628077,0.6825268105855022,0.004092073553588089,-0.067283,-39.368736
11.185,2.0,1.0,1.0,34.1,34.0,34.0,4.0,2.9,2.5275,0.7149133084557161,-0.010119682833023471,0.6880142923128358,0.004063639251435075,-0.067998,-39.247409
11.185,2.0,1.0,1.0,34.1,34.0,34.0,4.0,2.9,2.53,0.7094895739862064,-0.010297375456799792,0.693486909665316,0.004033172881533983,-0.068727,-39.125649
11.185,2.0,1.0,1.0,34.1,34.0,34.0,4.0,2.9,2.5325,0.7039947621900345,-0.010477968535640418,0.6989440283547159,0.004000605244884979,-0.069469,-39.003447
11.185,2.0,1.0,1.0,34.1,34.0,34.0,4.0,2.9,2.535,0.6984281640155059,-0.010661515287588007,0.7043849960316111,0.003965864681269006,-0.070225,-38.880792
11.185,2.0,1.0,1.0,34.1,34.0,34.0,4.0,2.9,2.5375,0.6927890622710315,-0.010848070108914455,0.7098091417540895,0.00392887696925644,-0.070995,-38.757675
11.185,2.0,1.0,1.0,34.1,34.0,34.0,4.0,2.9,2.54,0.6870767316224405,-0.011037688604919852,0.7152157754405319,0.0038895652214984604,-0.071779,-38.634085
11.185,2.0,1.0,1.0,34.1,34.0,34.0,4.0,2.9,2.5425,0.681290438596027,-0.011230427621696359,0.720604187305943,0.003847849775040458,-0.072578,-38.510013
11.185,2.0,1.0,1.0,34.1,34.0,34.0,4.0,2.9,2.545,0.6754294415876799,-0.011426345278893054,0.7259736472813065,0.0038036480763799945,-0.073393,-38.385448
11.185,2.0,1.0,1.0,34.1,34.0,34.0,4.0,2.9,2.5475,0.6694929908784588,-0.011625501003521095,0.7313234044154069,0.0037568745609742956,-0.074223,-38.26038
11.185,2.0,1.0,1.0,34.1,34.0,34.0,4.0,2.9,2.55,0.6634803286569824,-0.011827955564839244,0.7366526862585648,0.003707440526882259,-0.075069,-38.134797
11.185,2.0,1.0,1.0,34.1,34.0,34.0,4.0,2.9,2.5525,0.6573906890490452,-0.012033771110361819,0.7419606982276609,0.003655254002205842,-0.075931,-38.008689
11.185,2.0,1.0,1.0,34.1,34.0,34.0,4.0,2.9,2.555,0.6512232981548574,-0.012243011203033229,0.7472466229518597,0.0036002196059723986,-0.07681,-37.882045
11.185,2.0,1.0,1.0,34.1,34.0,34.0,4.0,2.9,2.5575,0.6449773740943446,-0.012455740859615013,0.7525096195983771,0.003542238402076248,-0.077706,-37.754852
11.185,2.0,1.0,1.0,34.1,34.0,34.0,4.0,2.9,2.56,0.638652127060967,-0.012672026590333415,0.7577488231776147,0.0034812077458711474,-0.078621,-37.6271
11.185,2.0,1.0,1.0,34.1,34.0,34.0,4.0,2.9,2.5625,0.6322467593845214,-0.012891936439837033,0.762963343826979,0.0034170211229775887,-0.079553,-37.498776
11.185,2.0,1.0,1.0,34.1,34.0,34.0,4.0,2.9,2.565,0.6257604656034164,-0.013115540029517756,0.768152266072645,0.0033495679798383666,-0.080504,-37.369868
11.185,2.0,1.0,1.0,34.1,34.0,34.0,4.0,2.9,2.5675,0.6191924325469464,-0.01334290860124847,0.7733146480685049,0.003278733545523536,-0.081474,-37.240364
11.185,2.0,1.0,1.0,34.1,34.0,34.0,4.0,2.9,2.57,0.6125418394280897,-0.013574115062594632,0.7784495208115123,0.0032043986442498733,-0.082464,-37.110251
11.185,2.0,1.0,1.0,34.1,34.0,34.0,4.0,2.9,2.5725,0.6058078579473929,-0.01380923403355894,0.7835558873325891,0.0031264394980428977,-0.083474,-36.979515
11.185,2.0,1.0,1.0,34.1,34.0,34.0,4.0,2.9,2.575,0.5989896524085289,-0.014048341894920362,0.7886327218622222,0.0030447275189268083,-0.084505,-36.848145
11.185,2.0,1.0,1.0,34.1,34.0,34.0,4.0,2.9,2.5775,0.5920863798461358,-0.01429151683823145,0.793678968969846,0.0029591290899842228,-0.085557,-36.716124
11.185,2.0,1.0,1.0,34.1,34.0,34.0,4.0,2.9,2.58,0.5850971901665759,-0.014538838917539982,0.7986935426760406,0.002869505334578506,-0.086631,-36.583441
11.185,2.0,1.0,1.0,34.1,34.0,34.0,4.0,2.9,2.5825,0.5780212263022682,-0.014790390102904456,0.8036753255365595,0.0027757118729789206,-0.087728,-36.450081
11.185,2.0,1.0,1.0,34.1,34.0,34.0,4.0,2.9,2.585,0.5708576243802962,-0.015046254335773656,0.8086231676971125,0.0026775985655721423,-0.088848,-36.316028
11.185,2.0,1.0,1.0,34.1,34.0,34.0,4.0,2.9,2.5875,0.5636055139059991,-0.015306517586304707,0.8135358859178082,0.0025750092417814474,-0.089992,-36.181269
11.185,2.0,1.0,1.0,34.1,34.0,34.0,4.0,2.9,2.59,0.5562640179623124,-0.015571267912694928,0.8184122625660692,0.0024677814137477427,-0.09116,-36.045787
11.185,2.0,1.0,1.0,34.1,34.0,34.0,4.0,2.9,2.5925,0.5488322534256148,-0.015840595522606155,0.8232510445767995,0.0023557459737536994,-0.092354,-35.909566
11.185,2.0,1.0,1.0,34.1,34.0,34.0,4.0,2.9,2.595,0.5413093311989314,-0.016114592836760772,0.8280509423784709,0.0022387268742920484,-0.093574,-35.772592
11.185,2.0,1.0,1.0,34.1,34.0,34.0,4.0,2.9,2.5975,0.533694356463302,-0.016393354554792423,0.8328106287837749,0.002116540789592695,-0.094821,-35.634846
11.185,2.0,1.0,1.0,34.1,34.0,34.0,4.0,2.9,2.6,0.5259864289482253,-0.016676977723434246,0.8375287378433472,0.001988996757328646,-0.096096,-35.496313
11.185,2.0,1.0,1.0,34.1,34.0,34.0,4.0,2.9,2.6025,0.5181846432220939,-0.016965561807129475,0.8422038636610196,0.0018558957991181178,-0.097399,-35.356973
11.185,2.0,1.0,1.0,34.1,34.0,34.0,4.0,2.9,2.605,0.5102880890035688,-0.01725920876114961,0.8468345591689367,0.00171703051832575,-0.098731,-35.21681
11.185,2.0,1.0,1.0,34.1,34.0,34.0,4.0,2.9,2.6075,0.502295851494902,-0.017558023107306225,0.8514193348607779,0.0015721846735453344,-0.100094,-35.075806
11.185,2.0,1.0,1.0,34.1,34.0,34.0,4.0,2.9,2.61,0.4942070117382499,-0.01786211201234058,0.855956657481191,0.001421132726009236,-0.101488,-34.93394
11.185,2.0,1.0,1.0,34.1,34.0,34.0,4.0,2.9,2.6125,0.48602064699604997,-0.01817158536907536,0.8604449486694421,0.0012636393590239956,-0.102915,-34.791193
11.185,2.0,1.0,1.0,34.1,34.0,34.0,4.0,2.9,2.615,0.47773583115659807,-0.018486555880409695,0.8648825835551117,0.0010994589673687426,-0.104374,-34.647546
11.185,2.0,1.0,1.0,34.1,34.0,34.0,4.0,2.9,2.6175,0.4693516351660073,-0.01880713914623403,0.8692678893035353,0.000928335114416829,-0.105868,-34.502977
11.185,2.0,1.0,1.0,34.1,34.0,34.0,4.0,2.9,2.62,0.4608671274877687,-0.019133453753338456,0.8735991436085179,0.0007499999545459512,-0.107398,-34.357465
11.185,2.0,1.0,1.0,34.1,34.0,34.0,4.0,2.9,2.6225,0.4522813745911971,-0.019465621368378747,0.8778745731296334,0.0005641736181879238,-0.108964,-34.210988
11.185,2.0,1.0,1.0,34.1,34.0,34.0,4.0,2.9,2.625,0.443593441470114,-0.0198037668339563,0.882092351871247,0.000370563556635693,-0.110568,-34.063524
11.185,2.0,1.0,1.0,34.1,34.0,34.0,4.0,2.9,2.6275,0.43480239219314,-0.020148018267856664,0.8862505995001595,0.00016886384346394623,-0.112212,-33.915048
11.185,2.0,1.0,1.0,34.1,34.0,34.0,4.0,2.9,2.63,0.42590729048708,-0.020498507165475684,0.8903473795985006,-4.1245570862890436e-05,-0.113896,-33.765538
11.185,2.0,1.0,1.0,34.1,34.0,34.0,4.0,2.9,2.6325,0.41690720035492035,-0.020855368505443953,0.8943806978482466,-0.00026009965493807726,-0.115621,-33.614967
11.185,2.0,1.0,1.0,34.1,34.0,34.0,4.0,2.9,2.635,0.4078011867300434,-0.021218740858437616,0.8983485001433992,-0.0004880491470043027,-0.117391,-33.463311
11.185,2.0,1.0,1.0,34.1,34.0,34.0,4.0,2.9,2.6375,0.3985883161683487,-0.02158876649913466,0.9022486706255407,-0.0007254614646627544,-0.119205,-33.310542
11.185,2.0,1.0,1.0,34.1,34.0,34.0,4.0,2.9,2.64,0.38926765758002974,-0.021965591521243222,0.9060790296380815,-0.000972721678597422,-0.121066,-33.156633
11.185,2.0,1.0,1.0,34.1,34.0,34.0,4.0,2.9,2.6425,0.3798382830028867,-0.022349365955484406,0.9098373315940971,-0.0012302335556825309,-0.122975,-33.001557
11.185,2.0,1.0,1.0,34.1,34.0,34.0,4.0,2.9,2.645,0.3702992684191298,-0.022740243890363655,0.9135212627521667,-0.0014984206773623685,-0.124934,-32.845282
11.185,2.0,1.0,1.0,34.1,34.0,34.0,4.0,2.9,2.6475,0.3606496946177506,-0.023138383595504096,0.917128438894114,-0.0017777276397717547,-0.126946,-32.687779
11.185,2.0,1.0,1.0,34.1,34.0,34.0,4.0,2.9,2.65,0.3508886481046449,-0.02354394764724268,0.9206564028979428,-0.002068621342708189,-0.129011,-32.529017
11.185,2.0,1.0,1.0,34.1,34.0,34.0,4.0,2.9,2.6525,0.34101522206286355,-0.023957103056101506,0.9241026221985964,-0.002371592375282368,-0.131132,-32.368962
11.185,2.0,1.0,1.0,34.1,34.0,34.0,4.0,2.9,2.655,0.33102851736544253,-0.02437802139564645,0.927464486128449,-0.0026871565068698026,-0.133311,-32.207581
11.185,2.0,1.0,1.0,34.1,34.0,34.0,4.0,2.9,2.6575,0.32092764364350385,-0.024806878932117877,0.930739303128587,-0.0030158562928758004,-0.135551,-32.044838
11.185,2.0,1.0,1.0,34.1,34.0,34.0,4.0,2.9,2.66,0.31071172041248374,-0.025243856754072917,0.9339242978210259,-0.0033582628058162096,-0.137854,-31.880698
11.185,2.0,1.0,1.0,34.1,34.0,34.0,4.0,2.9,2.6625,0.3003798782595836,-0.02568914090110243,0.9370166079309447,-0.0037149775033258805,-0.140223,-31.715122
11.185,2.0,1.0,1.0,34.1,34.0,34.0,4.0,2.9,2.665,0.28993126009577613,-0.026142922490477383,0.9400132810468609,-0.004086634245947125,-0.142659,-31.548071
11.185,2.0,1.0,1.0,34.1,34.0,34.0,4.0,2.9,2.6675,0.2793650224760213,-0.02660539784032999,0.9429112712053477,-0.004473901478939442,-0.145167,-31.379504
11.185,2.0,1.0,1.0,34.1,34.0,34.0,4.0,2.9,2.67,0.2686803369916586,-0.027076768587680815,0.94570743528539,-0.004877484593912999,-0.147749,-31.209378
11.185,2.0,1.0,1.0,34.1,34.0,34.0,4.0,2.9,2.6725,0.25787639173934224,-0.027557241799272717,0.9483985291958119,-0.005298128487838972,-0.150409,-31.03765
11.185,2.0,1.0,1.0,34.1,34.0,34.0,4.0,2.9,2.675,0.24695239287135787,-0.02804703007275268,0.9509812038372956,-0.005736620338961618,-0.153149,-30.864273
11.185,2.0,1.0,1.0,34.1,34.0,34.0,4.0,2.9,2.6775,0.23590756623266418,-0.028546351625250252,0.9534520008183829,-0.006193792621357644,-0.155973,-30.6892
11.185,2.0,1.0,1.0,34.1,34.0,34.0,4.0,2.9,2.68,0.2247411590906405,-0.029055430365809543,0.9558073479023862,-0.0066705263823933925,-0.158886,-30.51238
11.185,2.0,1.0,1.0,34.1,34.0,34.0,4.0,2.9,2.6825,0.21345244196425542,-0.0295744959474301,0.9580435541594104,-0.007167754810159934,-0.161891,-30.333761
11.185,2.0,1.0,1.0,34.1,34.0,34.0,4.0,2.9,2.685,0.20204071056020736,-0.030103783793638334,0.960156804794538,-0.007686467121169533,-0.164993,-30.153289
11.185,2.0,1.0,1.0,34.1,34.0,34.0,4.0,2.9,2.6875,0.19050528782462797,-0.03064353509351442,0.9621431556196613,-0.008227712802223732,-0.168196,-29.970907
11.185,2.0,1.0,1.0,34.1,34.0,34.0,4.0,2.9,2.69,0.1788455261201332,-0.031193996757913175,0.9639985271324071,-0.008792606244481008,-0.171506,-29.786555
11.185,2.0,1.0,1.0,34.1,34.0,34.0,4.0,2.9,2.6925,0.1670608095394043,-0.0317554213282027,0.965718698160966,-0.009382331812432601,-0.174927,-29.600171
11.185,2.0,1.0,1.0,34.1,34.0,34.0,4.0,2.9,2.695,0.1551505563682315,-0.03232806682714904,0.9672992990283573,-0.00999814939582028,-0.178466,-29.411691
11.185,2.0,1.0,1.0,34.1,34.0,34.0,4.0,2.9,2.6975,0.14311422171289767,-0.03291219653955501,0.9687358041836324,-0.010641400498607043,-0.182128,-29.221047
11.185,2.0,1.0,1.0,34.1,34.0,34.0,4.0,2.9,2.7,0.13095130030927302,-0.03350807870783255,0.9700235242406002,-0.011313514926045317,-0.185919,-29.028167
11.185,2.0,1.0,1.0,34.1,34.0,34.0,4.0,2.9,2.7025,0.11866132953380526,-0.03411598612478195,0.9711575973567431,-0.012016018138828164,-0.189848,-28.832976
11.185,2.0,1.0,1.0,34.1,34.0,34.0,4.0,2.9,2.705,0.10624389264011684,-0.0347361956023564,0.9721329798758703,-0.012750539352399849,-0.193921,-28.635396
11.185,2.0,1.0,1.0,34.1,34.0,34.0,4.0,2.9,2.7075,0.09369862224904978,-0.035368987290987856,0.9729444361476017,-0.013518820469945868,-0.198146,-28.435345
11.185,2.0,1.0,1.0,34.1,34.0,34.0,4.0,2.9,2.71,0.08102520412505129,-0.036014643818982436,0.9735865274246938,-0.014322725949587903,-0.202533,-28.232737
11.185,2.0,1.0,1.0,34.1,34.0,34.0,4.0,2.9,2.7125,0.06822338127783176,-0.03667344921537918,0.9740535997252965,-0.015164253720142932,-0.20709,-28.02748
11.185,2.0,1.0,1.0,34.1,34.0,34.0,4.0,2.9,2.715,0.05529295843559083,-0.03734568757226391,0.974339770531134,-0.01604554727577038,-0.211828,-27.819479
11.185,2.0,1.0,1.0,34.1,34.0,34.0,4.0,2.9,2.7175,0.042233806945016515,-0.03803164139356418,0.9744389141739251,-0.01696890909829251,-0.216757,-27.608633
11.185,2.0,1.0,1.0,34.1,34.0,34.0,4.0,2.9,2.72,0.02904587016406932,-0.03873158956645459,0.9743446457407797,-0.01793681557735896,-0.22189,-27.394837
11.185,2.0,1.0,1.0,34.1,34.0,34.0,4.0,2.9,2.7225,0.015729169426777725,-0.03944580487824021,0.974050303304094,-0.018951933623451444,-0.22724,-27.177978
11.185,2.0,1.0,1.0,34.1,34.0,34.0,4.0,2.9,2.725,0.0022838106753893033,-0.04017455098540323,0.9735489282522742,-0.020017139197584726,-0.23282,-26.957938
11.185,2.0,1.0,1.0,34.1,34.0,34.0,4.0,2.9,2.7275,-0.011290008125064744,-0.0409180787217004,0.9728332434633942,-0.021135538015199348,-0.238647,-26.734593
11.185,2.0,1.0,1.0,34.1,34.0,34.0,4.0,2.9,2.73,-0.024991988650474032,-0.041676621607921883,0.9718956290240898,-0.022310488720992668,-0.244737,-26.50781
11.185,2.0,1.0,1.0,34.1,34.0,34.0,4.0,2.9,2.7325,-0.03882172279049285,-0.04245039039607096,0.9707280951492024,-0.02354562887735928,-0.251107,-26.27745
11.185,2.0,1.0,1.0,34.1,34.0,34.0,4.0,2.9,2.735,-0.05277868192458298,-0.04323956644391081,0.9693222519030045,-0.02484490416291091,-0.25778,-26.043365
11.185,2.0,1.0,1.0,34.1,34.0,34.0,4.0,2.9,2.7375,-0.0668622046497037,-0.04404429367030131,0.9676692752584176,-0.02621260124071854,-0.264776,-25.805399
11.185,2.0,1.0,1.0,34.1,34.0,34.0,4.0,2.9,2.74,-0.08107148265155537,-0.04486466878527696,0.9657598689550033,-0.02765338483020567,-0.27212,-25.563384
11.185,2.0,1.0,1.0,34.1,34.0,34.0,4.0,2.9,2.7425,-0.09540554434072544,-0.04570072941854301,0.9635842215271397,-0.029172339604156706,-0.279839,-25.317144
11.185,2.0,1.0,1.0,34.1,34.0,34.0,4.0,2.9,2.745,-0.10986323578703604,-0.04655243968232725,0.9611319577684696,-0.030775017635598163,-0.287963,-25.066491
11.185,2.0,1.0,1.0,34.1,34.0,34.0,4.0,2.9,2.7475,-0.1244431983749422,-0.04741967259460331,0.9583920837740071,-0.03246749224140519,-0.296524,-24.811225
11.185,2.0,1.0,1.0,34.1,34.0,34.0,4.0,2.9,2.75,-0.139143842463789,-0.0483021886505007,0.955352924553674,-0.034256419213993,-0.30556,-24.551133
11.185,2.0,1.0,1.0,34.1,34.0,34.0,4.0,2.9,2.7525,-0.15396331616127673,-0.0491996096553023,0.9520020530360481,-0.036149106603678406,-0.315112,-24.285987
11.185,2.0,1.0,1.0,34.1,34.0,34.0,4.0,2.9,2.755,-0.16889946809591824,-0.0501113867114831,0.9483262090734758,-0.03815359441736167,-0.325224,-24.015545
11.185,2.0,1.0,1.0,34.1,34.0,34.0,4.0,2.9,2.7575,-0.18394980279111023,-0.05103676097121975,0.9443112068131482,-0.040278745840111985,-0.335949,-23.739546
11.185,2.0,1.0,1.0,34.1,34.0,34.0,4.0,2.9,2.76,-0.19911142688147065,-0.05197471540687077,0.9399418285062184,-0.042534351872074806,-0.347343,-23.457713
11.185,2.0,1.0,1.0,34.1,34.0,34.0,4.0,2.9,2.7625,-0.21438098394769167,-0.05292391539156323,0.9352017024798455,-0.04493125161200548,-0.359472,-23.169747
11.185,2.0,1.0,1.0,34.1,34.0,34.0,4.0,2.9,2.765,-0.22975457514731418,-0.0538826352888975,0.9300731625859474,-0.04748147081982111,-0.372409,-22.875331
11.185,2.0,1.0,1.0,34.1,34.0,34.0,4.0,2.9,2.7675,-0.2452276620436891,-0.05484866748316165,0.9245370859548513,-0.050198381863933224,-0.386238,-22.57412
11.185,2.0,1.0,1.0,34.1,34.0,34.0,4.0,2.9,2.77,-0.26079494702675643,-0.055819209283295514,0.918572705310949,-0.0530968887152187,-0.401053,-22.265746
11.185,2.0,1.0,1.0,34.1,34.0,34.0,4.0,2.9,2.7725,-0.27645022540077296,-0.05679072182968768,0.9121573914404851,-0.05619364129817568,-0.416962,-21.949812
11.185,2.0,1.0,1.0,34.1,34.0,34.0,4.0,2.9,2.775,-0.29218620148253005,-0.05775875342049761,0.9052664006306607,-0.059507284258525105,-0.43409,-21.625889
11.185,2.0,1.0,1.0,34.1,34.0,34.0,4.0,2.9,2.7775,-0.30799425876701086,-0.05871771741450924,0.8978725810215612,-0.06305874605686426,-0.45258,-21.293518
11.185,2.0,1.0,1.0,34.1,34.0,34.0,4.0,2.9,2.78,-0.32386417118390587,-0.059660611870493895,0.8899460308373852,-0.06687157523992378,-0.472599,-20.952198
11.185,2.0,1.0,1.0,34.1,34.0,34.0,4.0,2.9,2.7825,-0.3397837384226783,-0.06057866408785424,0.8814537004215226,-0.07097233174276352,-0.494338,-20.601391
11.185,2.0,1.0,1.0,34.1,34.0,34.0,4.0,2.9,2.785,-0.35573832288109986,-0.061460877860633374,0.8723589289604743,-0.07539104206642704,-0.518023,-20.240515
11.185,2.0,1.0,1.0,34.1,34.0,34.0,4.0,2.9,2.7875,-0.3717102584881949,-0.06229345405026784,0.8626209058816845,-0.08016172801817263,-0.543919,-19.86894
11.185,2.0,1.0,1.0,34.1,34.0,34.0,4.0,2.9,2.79,-0.3876780917680808,-0.0630590453341604,0.8521940464028666,-0.08532301914191788,-0.572337,-19.485981
11.185,2.0,1.0,1.0,34.1,34.0,34.0,4.0,2.9,2.7925,-0.4036156020772532,-0.06373579274437972,0.8410272710467257,-0.09091885855473265,-0.603647,-19.090901
11.185,2.0,1.0,1.0,34.1,34.0,34.0,4.0,2.9,2.795,-0.41949052962275324,-0.06429607355513808,0.8290631809009756,-0.09699930985867662,-0.638292,-18.682899
11.185,2.0,1.0,1.0,34.1,34.0,34.0,4.0,2.9,2.7975,-0.4352629148020651,-0.06470486539327884,0.8162371253512876,-0.10362146777286242,-0.676801,-18.26111
11.185,2.0,1.0,1.0,34.1,34.0,34.0,4.0,2.9,2.8,-0.45088291807308073,-0.06491759765642661,0.802476169250235,-0.11085046484104626,-0.719815,-17.824603
11.185,2.0,1.0,1.0,34.1,34.0,34.0,4.0,2.9,2.8025,-0.466287942576216,-0.06487731511157002,0.7876979859240201,-0.11876054713685835,-0.768117,-17.372373
11.185,2.0,1.0,1.0,34.1,34.0,34.0,4.0,2.9,2.805,-0.4813988176916668,-0.0645109156125754,0.7718097376887173,-0.12743615675446565,-0.822661,-16.903351
11.185,2.0,1.0,1.0,34.1,34.0,34.0,4.0,2.9,2.8075,-0.49611471524298095,-0.06372413897682998,0.7547070678441232,-0.1369728969726161,-0.884628,-16.416398
11.185,2.0,1.0,1.0,34.1,34.0,34.0,4.0,2.9,2.81,-0.5103063553678298,-0.06239487159907186,0.736273436293501,-0.14747814869644066,-0.955489,-15.910324
11.185,2.0,1.0,1.0,34.1,34.0,34.0,4.0,2.9,2.8125,-0.523806911923757,-0.0603641873413639,0.716380216613684,-0.159070922933628,-1.037085,-15.383905
11.185,2.0,1.0,1.0,34.1,34.0,34.0,4.0,2.9,2.815,-0.5363998501296503,-0.057424372317248014,0.6948882880955731,-0.17188022189662688,-1.131741,-14.83592
11.185,2.0,1.0,1.0,34.1,34.0,34.0,4.0,2.9,2.8175,-0.5478027434110851,-0.05330300097890825,0.6716523878255708,-0.1860406563594631,-1.242417,-14.265211
11.185,2.0,1.0,1.0,34.1,34.0,34.0,4.0,2.9,2.82,-0.557645990218503,-0.04764201124518135,0.6465303713365301,-0.20168319541331356,-1.3729,-13.670786
11.185,2.0,1.0,1.0,34.1,34.0,34.0,4.0,2.9,2.8225,-0.5654454589261884,-0.03997083980745259,0.6194009691764396,-0.21891750716498445,-1.528062,-13.051971
11.185,2.0,1.0,1.0,34.1,34.0,34.0,4.0,2.9,2.825,-0.5705688303577983,-0.02967342132072885,0.5901958900456697,-0.23780012205743847,-1.714174,-12.408656
11.185,2.0,1.0,1.0,34.1,34.0,34.0,4.0,2.9,2.8275,-0.5721976384674675,-0.01595107114827922,0.5589554613865371,-0.25827936991262584,-1.939277,-11.741672
