1,w,sub_t,h,l1,l2,l3,g1,g2,Freq,S11_re,S21_re,S11_img,S21_img,S11_dB,S21_dB
11.185,2.0,1.0,1.0,34.8,33.0,33.0,1.8,4.0,2.5,0.63720799708397,-0.0154429444537499,0.759246819060336,0.00555273959084767,-0.07672,-35.697355
11.185,2.0,1.0,1.0,34.8,33.0,33.0,1.8,4.0,2.5025,0.6304606087997215,-0.015695603782068246,0.7647347066929704,0.005476720768689359,-0.07756,-35.585461
11.185,2.0,1.0,1.0,34.8,33.0,33.0,1.8,4.0,2.505,0.623626090379166,-0.015951537220526515,0.7701928462107407,0.0053967426154413215,-0.078414,-35.4733
11.185,2.0,1.0,1.0,34.8,33.0,33.0,1.8,4.0,2.5075,0.6167036522989192,-0.01621076722811845,0.7756201480572138,0.005312685215713332,-0.079283,-35.360867
11.185,2.0,1.0,1.0,34.8,33.0,33.0,1.8,4.0,2.51,0.6096925019603967,-0.016473315296162767,0.7810154933697567,0.005224425274424336,-0.080167,-35.248161
11.185,2.0,1.0,1.0,34.8,33.0,33.0,1.8,4.0,2.5125,0.6025918440349102,-0.016739201868830333,0.7863777332323116,0.005131836028298269,-0.081067,-35.135176
11.185,2.0,1.0,1.0,34.8,33.0,33.0,1.8,4.0,2.515,0.5954008808312676,-0.01700844625941848,0.7917056879126078,0.005034787155634205,-0.081982,-35.021911
11.185,2.0,1.0,1.0,34.8,33.0,33.0,1.8,4.0,2.5175,0.5881188126869559,-0.017281066562174346,0.7969981460837237,0.004933144684365682,-0.082912,-34.908362
11.185,2.0,1.0,1.0,34.8,33.0,33.0,1.8,4.0,2.52,0.580744838383969,-0.017557079559462344,0.8022538640299536,0.004826770898429039,-0.08386,-34.794526
11.185,2.0,1.0,1.0,34.8,33.0,33.0,1.8,4.0,2.5225,0.5732781555904586,-0.017836500624060968,0.807471564836922,0.004715524242465998,-0.084823,-34.680399
11.185,2.0,1.0,1.0,34.8,33.0,33.0,1.8,4.0,2.525,0.5657179613293593,-0.018119343616367477,0.8126499375659544,0.00459925922489196,-0.085804,-34.565978
11.185,2.0,1.0,1.0,34.8,33.0,33.0,1.8,4.0,2.5275,0.5580634524752202,-0.018405620776278993,0.8177876364127088,0.004477826319366623,-0.086802,-34.45126
11.185,2.0,1.0,1.0,34.8,33.0,33.0,1.8,4.0,2.53,0.5503138262805372,-0.01869534260950952,0.8228832798501167,0.004351071864711977,-0.087818,-34.336242
11.185,2.0,1.0,1.0,34.8,33.0,33.0,1.8,4.0,2.5325,0.5424682809328847,-0.018988517768093745,0.8279354497557004,0.004218837963328549,-0.088852,-34.22092
11.185,2.0,1.0,1.0,34.8,33.0,33.0,1.8,4.0,2.535,0.5345260161442281,-0.019285152924818957,0.8329426905233906,0.004080962378169662,-0.089904,-34.105292
11.185,2.0,1.0,1.0,34.8,33.0,33.0,1.8,4.0,2.5375,0.5264862337738443,-0.01958525264131563,0.8379035081599745,0.003937278428341731,-0.090975,-33.989354
11.185,2.0,1.0,1.0,34.8,33.0,33.0,1.8,4.0,2.54,0.5183481384863122,-0.01988881922952887,0.8428163693663713,0.0037876148834077392,-0.092066,-33.873103
11.185,2.0,1.0,1.0,34.8,33.0,33.0,1.8,4.0,2.5425,0.5101109384461002,-0.02019585260628156,0.8476797006039597,0.003631795856481106,-0.093176,-33.756535
11.185,2.0,1.0,1.0,34.8,33.0,33.0,1.8,4.0,2.545,0.5017738460503368,-0.0205063501406302,0.8524918871462355,0.003469640696207511,-0.094306,-33.639649
11.185,2.0,1.0,1.0,34.8,33.0,33.0,1.8,4.0,2.5475,0.4933360787013979,-0.020820306493703443,0.8572512721161148,0.0033009638777440294,-0.095456,-33.52244
11.185,2.0,1.0,1.0,34.8,33.0,33.0,1.8,4.0,2.55,0.4847968596209771,-0.021137713450703657,0.8619561555092751,0.003125574892856942,-0.096627,-33.404906
11.185,2.0,1.0,1.0,34.8,33.0,33.0,1.8,4.0,2.5525,0.4761554187074321,-0.021458559744739023,0.8666047932039522,0.0029432781392724748,-0.09782,-33.287043
11.185,2.0,1.0,1.0,34.8,33.0,33.0,1.8,4.0,2.555,0.46741099343815457,-0.021782830872144998,0.8711953959577017,0.0027538728094291727,-0.099035,-33.168849
11.185,2.0,1.0,1.0,34.8,33.0,33.0,1.8,4.0,2.5575,0.4585628298188681,-0.02211050889894112,0.875726128391685,0.002557152778795111,-0.100272,-33.05032
11.185,2.0,1.0,1.0,34.8,33.0,33.0,1.8,4.0,2.56,0.4496101833817485,-0.022441572258058276,0.8801951079631051,0.002352906493929587,-0.101531,-32.931454
11.185,2.0,1.0,1.0,34.8,33.0,33.0,1.8,4.0,2.5625,0.4405523202343599,-0.022775995536960723,0.8846004039265045,0.002140916860485293,-0.102814,-32.812248
11.185,2.0,1.0,1.0,34.8,33.0,33.0,1.8,4.0,2.565,0.4313885181614354,-0.02311374925527579,0.8889400362847122,0.0019209611313662194,-0.104121,-32.692698
11.185,2.0,1.0,1.0,34.8,33.0,33.0,1.8,4.0,2.5675,0.42211806778160993,-0.023454799632031762,0.8932119747303071,0.0016928107952746537,-0.105452,-32.572802
11.185,2.0,1.0,1.0,34.8,33.0,33.0,1.8,4.0,2.57,0.41274027376125677,-0.023799108342095088,0.8974141375785646,0.0014562314659021223,-0.106807,-32.452557
11.185,2.0,1.0,1.0,34.8,33.0,33.0,1.8,4.0,2.5725,0.40325445608764793,-0.02414663226138534,0.9015443906929461,0.001210982772040475,-0.108188,-32.331959
11.185,2.0,1.0,1.0,34.8,33.0,33.0,1.8,4.0,2.575,0.3936599514037103,-0.024497323200436003,0.9056005464042906,0.0009568182489129016,-0.109595,-32.211007
11.185,2.0,1.0,1.0,34.8,33.0,33.0,1.8,4.0,2.5775,0.383956114406729,-0.02485112762585844,0.9095803624249843,0.0006934852310489419,-0.111029,-32.089697
11.185,2.0,1.0,1.0,34.8,33.0,33.0,1.8,4.0,2.58,0.3741423193133753,-0.02520798636925516,0.9134815407594868,0.00042072474705412216,-0.112489,-31.968027
11.185,2.0,1.0,1.0,34.8,33.0,33.0,1.8,4.0,2.5825,0.36421796139351653,-0.025567834323119838,0.9173017266127369,0.00013827141665209876,-0.113977,-31.845994
11.185,2.0,1.0,1.0,34.8,33.0,33.0,1.8,4.0,2.585,0.3541824585753211,-0.02593060012324962,0.921038507298063,-0.0001541466495934279,-0.115493,-31.723595
11.185,2.0,1.0,1.0,34.8,33.0,33.0,1.8,4.0,2.5875,0.34403525312419847,-0.026296205817188053,0.9246894111463927,-0.0004568079474388377,-0.117039,-31.600828
11.185,2.0,1.0,1.0,34.8,33.0,33.0,1.8,4.0,2.59,0.33377581339821477,-0.026664566518206548,0.9282519064186672,-0.0007699976725316878,-0.118613,-31.477689
11.185,2.0,1.0,1.0,34.8,33.0,33.0,1.8,4.0,2.5925,0.32340363568260794,-0.02703559004432584,0.931723400223551,-0.0010940078098877312,-0.120218,-31.354177
11.185,2.0,1.0,1.0,34.8,33.0,33.0,1.8,4.0,2.595,0.31291824610615293,-0.02740917654186949,0.935101237442671,-0.0014291372187319026,-0.121854,-31.230289
11.185,2.0,1.0,1.0,34.8,33.0,33.0,1.8,4.0,2.5975,0.3023192026420821,-0.027785218093037894,0.9383826996657915,-0.0017756917121239024,-0.123521,-31.106022
11.185,2.0,1.0,1.0,34.8,33.0,33.0,1.8,4.0,2.6,0.29160609719637176,-0.028163598306983333,0.9415650041385248,-0.0021339841307482905,-0.12522,-30.981375
11.185,2.0,1.0,1.0,34.8,33.0,33.0,1.8,4.0,2.6025,0.2807785577862219,-0.02854419189386338,0.9446453027253484,-0.0025043344102065684,-0.126952,-30.856343
11.185,2.0,1.0,1.0,34.8,33.0,33.0,1.8,4.0,2.605,0.2698362508115506,-0.028926864221347975,0.9476206808909082,-0.0028870696411057322,-0.128718,-30.730926
11.185,2.0,1.0,1.0,34.8,33.0,33.0,1.8,4.0,2.6075,0.25877888342241323,-0.02931147085305151,0.950488156702806,-0.0032825241211897897,-0.130518,-30.605121
11.185,2.0,1.0,1.0,34.8,33.0,33.0,1.8,4.0,2.61,0.24760620598521071,-0.029697857068364062,0.9532446798592606,-0.003691039398713199,-0.132353,-30.478925
11.185,2.0,1.0,1.0,34.8,33.0,33.0,1.8,4.0,2.6125,0.23631801465059785,-0.030085857363155184,0.9558871307452972,-0.0041129643062049635,-0.134224,-30.352336
11.185,2.0,1.0,1.0,34.8,33.0,33.0,1.8,4.0,2.615,0.22491415402598705,-0.03047529493082974,0.9584123195213294,-0.004548654983717753,-0.136132,-30.225353
11.185,2.0,1.0,1.0,34.8,33.0,33.0,1.8,4.0,2.6175,0.21339451995555078,-0.03086598112321869,0.9608169852482658,-0.004998474890603248,-0.138078,-30.097973
11.185,2.0,1.0,1.0,34.8,33.0,33.0,1.8,4.0,2.62,0.20175906241059777,-0.03125771489079766,0.963097795053537,-0.005462794804795003,-0.140062,-29.970193
11.185,2.0,1.0,1.0,34.8,33.0,33.0,1.8,4.0,2.6225,0.19000778849316183,-0.03165028220173634,0.9652513433426969,-0.005941992808524307,-0.142085,-29.842013
11.185,2.0,1.0,1.0,34.8,33.0,33.0,1.8,4.0,2.625,0.178140765555643,-0.0320434554392939,0.967274151061545,-0.00643645425932804,-0.144148,-29.71343
11.185,2.0,1.0,1.0,34.8,33.0,33.0,1.8,4.0,2.6275,0.16615812443923073,-0.03243699277709448,0.9691626650140273,-0.006946571745148408,-0.146253,-29.584441
11.185,2.0,1.0,1.0,34.8,33.0,33.0,1.8,4.0,2.63,0.15406006283383059,-0.03283063753183381,0.9709132572414542,-0.007472745022254489,-0.148399,-29.455047
11.185,2.0,1.0,1.0,34.8,33.0,33.0,1.8,4.0,2.6325,0.14184684876207446,-0.03322411749299274,0.9725222244688922,-0.008015380934650138,-0.150588,-29.325243
11.185,2.0,1.0,1.0,34.8,33.0,33.0,1.8,4.0,2.635,0.12951882418998262,-0.03361714422915991,0.9739857876249568,-0.008574893313560936,-0.152822,-29.19503
11.185,2.0,1.0,1.0,34.8,33.0,33.0,1.8,4.0,2.6375,0.11707640876663865,-0.03400941237059546,0.9753000914415071,-0.009151702855521394,-0.1551,-29.064404
11.185,2.0,1.0,1.0,34.8,33.0,33.0,1.8,4.0,2.64,0.10452010369516264,-0.03440059886770549,0.9764612041401567,-0.009746236977511214,-0.157424,-28.933365
11.185,2.0,1.0,1.0,34.8,33.0,33.0,1.8,4.0,2.6425,0.09185049573710567,-0.03479036222513306,0.9774651172128301,-0.010358929647511903,-0.159795,-28.801911
11.185,2.0,1.0,1.0,34.8,33.0,33.0,1.8,4.0,2.645,0.07906826135220603,-0.03517834171121904,0.9783077453039832,-0.010990221188779823,-0.162214,-28.670041
11.185,2.0,1.0,1.0,34.8,33.0,33.0,1.8,4.0,2.6475,0.06617417097524907,-0.03556415654263377,0.978984926202492,-0.01164055805605361,-0.164682,-28.537752
11.185,2.0,1.0,1.0,34.8,33.0,33.0,1.8,4.0,2.65,0.053169093431539895,-0.03594740504403737,0.9794924209515778,-0.01231039258183596,-0.1672,-28.405045
11.185,2.0,1.0,1.0,34.8,33.0,33.0,1.8,4.0,2.6525,0.04005400049230232,-0.03632766378268465,0.9798259140855545,-0.013000182690807023,-0.16977,-28.271917
11.185,2.0,1.0,1.0,34.8,33.0,33.0,1.8,4.0,2.655,0.026829971570936757,-0.03670448667796055,0.9799810140025712,-0.013710391580352218,-0.172393,-28.138367
11.185,2.0,1.0,1.0,34.8,33.0,33.0,1.8,4.0,2.6575,0.013498198560876817,-0.03707740408590222,0.9799532534829344,-0.014441487365102305,-0.175069,-28.004394
11.185,2.0,1.0,1.0,34.8,33.0,33.0,1.8,4.0,2.66,5.999081535619637e-05,-0.037445921858845745,0.9797380903630015,-0.015193942683308,-0.1778,-27.869997
11.185,2.0,1.0,1.0,34.8,33.0,33.0,1.8,4.0,2.6625,-0.013483219730921184,-0.037809520380419424,0.9793309083750595,-0.015968234262790076,-0.180588,-27.735176
11.185,2.0,1.0,1.0,34.8,33.0,33.0,1.8,4.0,2.665,-0.027129873298660952,-0.03816765357620133,0.978727018163988,-0.016764842444131945,-0.183433,-27.599928
11.185,2.0,1.0,1.0,34.8,33.0,33.0,1.8,4.0,2.6675,-0.04087827686025748,-0.03851974790045746,0.9779216584919768,-0.017584250658703005,-0.186337,-27.464253
11.185,2.0,1.0,1.0,34.8,33.0,33.0,1.8,4.0,2.67,-0.05472659859687003,-0.038865201299485244,0.9769099976428923,-0.01842694485903128,-0.189301,-27.328151
11.185,2.0,1.0,1.0,34.8,33.0,33.0,1.8,4.0,2.6725,-0.06867286221815636,-0.03920338215220331,0.9756871350383876,-0.019293412898973596,-0.192327,-27.19162
11.185,2.0,1.0,1.0,34.8,33.0,33.0,1.8,4.0,2.675,-0.0827149411471363,-0.03953362818874956,0.9742481030781506,-0.020184143861064423,-0.195416,-27.05466
11.185,2.0,1.0,1.0,34.8,33.0,33.0,1.8,4.0,2.6775,-0.09685055257320778,-0.03985524538798116,0.9725878692171713,-0.021099627328366004,-0.19857,-26.91727
11.185,2.0,1.0,1.0,34.8,33.0,33.0,1.8,4.0,2.68,-0.11107725137708793,-0.04016750685490794,0.9707013382931691,-0.02204035259808466,-0.201789,-26.77945
11.185,2.0,1.0,1.0,34.8,33.0,33.0,1.8,4.0,2.6825,-0.12539242393202066,-0.04046965167923495,0.9685833551177956,-0.023006807834169522,-0.205076,-26.641199
11.185,2.0,1.0,1.0,34.8,33.0,33.0,1.8,4.0,2.685,-0.13979328178648487,-0.040760883776343126,0.9662287073454412,-0.023999479156068624,-0.208433,-26.502516
11.185,2.0,1.0,1.0,34.8,33.0,33.0,1.8,4.0,2.6875,-0.15427685523429088,-0.04104037071219589,0.9636321286338971,-0.025018849660782435,-0.21186,-26.363401
11.185,2.0,1.0,1.0,34.8,33.0,33.0,1.8,4.0,2.69,-0.16883998677891288,-0.041307242513824796,0.9607883021113052,-0.026065398375328622,-0.215359,-26.223854
11.185,2.0,1.0,1.0,34.8,33.0,33.0,1.8,4.0,2.6925,-0.1834793244997298,-0.04156059046721913,0.9576918641641564,-0.027139599136721947,-0.218933,-26.083874
11.185,2.0,1.0,1.0,34.8,33.0,33.0,1.8,4.0,2.695,-0.19819131532879652,-0.04179946590461984,0.9543374085612445,-0.02824191939656193,-0.222583,-25.943461
11.185,2.0,1.0,1.0,34.8,33.0,33.0,1.8,4.0,2.6975,-0.2129721982478057,-0.042022878983400624,0.9507194909287048,-0.029372818947339497,-0.22631,-25.802615
11.185,2.0,1.0,1.0,34.8,33.0,33.0,1.8,4.0,2.7,-0.22781799741588482,-0.0422297974589011,0.9468326335913139,-0.030532748567586435,-0.230116,-25.661335
11.185,2.0,1.0,1.0,34.8,33.0,33.0,1.8,4.0,2.7025,-0.24272451523999905,-0.0424191454537642,0.9426713307953771,-0.03172214858303702,-0.234004,-25.519621
11.185,2.0,1.0,1.0,34.8,33.0,33.0,1.8,4.0,2.705,-0.2576873254008452,-0.04258980222651579,0.9382300543284587,-0.0329414473410171,-0.237975,-25.377473
11.185,2.0,1.0,1.0,34.8,33.0,33.0,1.8,4.0,2.7075,-0.27270176584832684,-0.042740600942310476,0.9335032595511941,-0.03419105959535023,-0.242032,-25.23489
11.185,2.0,1.0,1.0,34.8,33.0,33.0,1.8,4.0,2.71,-0.2877629317818899,-0.042870327448949946,0.9284853918562608,-0.035471384799154376,-0.246175,-25.091872
11.185,2.0,1.0,1.0,34.8,33.0,33.0,1.8,4.0,2.7125,-0.30286566863229136,-0.04297771906145703,0.9231708935693883,-0.03678280530301058,-0.250408,-24.94842
11.185,2.0,1.0,1.0,34.8,33.0,33.0,1.8,4.0,2.715,-0.31800456506265223,-0.04306146335865951,0.9175542113069922,-0.038125684456110066,-0.254733,-24.804532
11.185,2.0,1.0,1.0,34.8,33.0,33.0,1.8,4.0,2.7175,-0.33317394600796807,-0.043120196995396105,0.9116298038046012,-0.03950036460813177,-0.259151,-24.660209
11.185,2.0,1.0,1.0,34.8,33.0,33.0,1.8,4.0,2.72,-0.34836786577360096,-0.04315250453410353,0.9053921502297867,-0.040907165009767654,-0.263665,-24.515449
11.185,2.0,1.0,1.0,34.8,33.0,33.0,1.8,4.0,2.7225,-0.36358010121466505,-0.04315691729967275,0.8988357589926909,-0.04234637961000593,-0.268277,-24.370252
11.185,2.0,1.0,1.0,34.8,33.0,33.0,1.8,4.0,2.725,-0.3788041450195439,-0.043131912261570884,0.8919551770665386,-0.04381827474848292,-0.27299,-24.224619
11.185,2.0,1.0,1.0,34.8,33.0,33.0,1.8,4.0,2.7275,-0.3940331991222199,-0.04307591094730867,0.8847449998297343,-0.045323086741455056,-0.277806,-24.078548
11.185,2.0,1.0,1.0,34.8,33.0,33.0,1.8,4.0,2.73,-0.40926016826940464,-0.04298727839138842,0.8771998814401063,-0.04686101936018297,-0.282727,-23.932038
11.185,2.0,1.0,1.0,34.8,33.0,33.0,1.8,4.0,2.7325,-0.4244776537698565,-0.042864322123886286,0.8693145457508811,-0.04843224120079783,-0.287756,-23.785088
11.185,2.0,1.0,1.0,34.8,33.0,33.0,1.8,4.0,2.735,-0.4396779474545418,-0.04270529120280465,0.8610837977767027,-0.05003688294500347,-0.292897,-23.637698
11.185,2.0,1.0,1.0,34.8,33.0,33.0,1.8,4.0,2.7375,-0.4548530258776221,-0.04250837529426307,0.8525025357166509,-0.05167503451127563,-0.29815,-23.489866
11.185,2.0,1.0,1.0,34.8,33.0,33.0,1.8,4.0,2.74,-0.46999454478941516,-0.04227170380448142,0.8435657635397287,-0.0533467420965336,-0.303521,-23.341591
11.185,2.0,1.0,1.0,34.8,33.0,33.0,1.8,4.0,2.7425,-0.48509383391363464,-0.041993345067331954,0.8342686041366684,-0.055052005108592594,-0.30901,-23.192871
11.185,2.0,1.0,1.0,34.8,33.0,33.0,1.8,4.0,2.745,-0.500141892062275,-0.04167130559099747,0.8246063130400596,-0.056790772990034225,-0.314622,-23.043704
11.185,2.0,1.0,1.0,34.8,33.0,33.0,1.8,4.0,2.7475,-0.5151293826223922,-0.04130352936695822,0.8145742927129356,-0.05856294193446936,-0.320359,-22.894088
11.185,2.0,1.0,1.0,34.8,33.0,33.0,1.8,4.0,2.75,-0.530046629449871,-0.0408878972441357,0.804168107403807,-0.0603683514964969,-0.326225,-22.744021
11.185,2.0,1.0,1.0,34.8,33.0,33.0,1.8,4.0,2.7525,-0.5448836132059119,-0.040422226370539105,0.7933834985639536,-0.062206781096977325,-0.332223,-22.5935
11.185,2.0,1.0,1.0,34.8,33.0,33.0,1.8,4.0,2.755,-0.5596299681723845,-0.0399042697041773,0.7822164008204249,-0.06407794642553367,-0.338356,-22.442521
11.185,2.0,1.0,1.0,34.8,33.0,33.0,1.8,4.0,2.7575,-0.5742749795825478,-0.03933171559431222,0.7706629584956951,-0.06598149574246279,-0.344629,-22.291081
11.185,2.0,1.0,1.0,34.8,33.0,33.0,1.8,4.0,2.76,-0.5888075815035925,-0.038702187433326554,0.7587195426623317,-0.0679170060824502,-0.351044,-22.139176
11.185,2.0,1.0,1.0,34.8,33.0,33.0,1.8,4.0,2.7625,-0.603216355307297,-0.03801324337854889,0.7463827687183388,-0.06988397936265765,-0.357605,-21.986802
11.185,2.0,1.0,1.0,34.8,33.0,33.0,1.8,4.0,2.765,-0.6174895287645732,-0.03726237614231704,0.733649514466034,-0.0718818383978367,-0.364318,-21.833953
11.185,2.0,1.0,1.0,34.8,33.0,33.0,1.8,4.0,2.7675,-0.6316149757988603,-0.03644701284735381,0.7205169386745285,-0.07390992282513144,-0.371185,-21.680623
11.185,2.0,1.0,1.0,34.8,33.0,33.0,1.8,4.0,2.77,-0.6455802169322095,-0.035564514943166176,0.7069825001028657,-0.07596748494112872,-0.378211,-21.526807
11.185,2.0,1.0,1.0,34.8,33.0,33.0,1.8,4.0,2.7725,-0.6593724204563681,-0.034612178177657826,0.6930439769581456,-0.07805368545347832,-0.3854,-21.372498
11.185,2.0,1.0,1.0,34.8,33.0,33.0,1.8,4.0,2.775,-0.672978404359263,-0.033587232616446513,0.6786994867599256,-0.08016758914901626,-0.392758,-21.217687
11.185,2.0,1.0,1.0,34.8,33.0,33.0,1.8,4.0,2.7775,-0.6863846390349415,-0.03248684270050172,0.6639475065795247,-0.08230816047975285,-0.400289,-21.062367
11.185,2.0,1.0,1.0,34.8,33.0,33.0,1.8,4.0,2.78,-0.6995772508022582,-0.03130810733064963,0.648786893620055,-0.08447425906729705,-0.407998,-20.906527
11.185,2.0,1.0,1.0,34.8,33.0,33.0,1.8,4.0,2.7825,-0.7125420262542622,-0.030048059965231997,0.6332169061005279,-0.08666463512524968,-0.415891,-20.750158
11.185,2.0,1.0,1.0,34.8,33.0,33.0,1.8,4.0,2.785,-0.7252644174565178,-0.028703668714730547,0.6172372244050445,-0.08887792479777956,-0.423974,-20.593249
11.185,2.0,1.0,1.0,34.8,33.0,33.0,1.8,4.0,2.7875,-0.7377295480081827,-0.027271836414497666,0.6008479724560615,-0.0911126454109268,-0.432251,-20.435786
11.185,2.0,1.0,1.0,34.8,33.0,33.0,1.8,4.0,2.79,-0.7499222199748738,-0.025749400653832463,0.5840497392690113,-0.09336719063115174,-0.440731,-20.277757
11.185,2.0,1.0,1.0,34.8,33.0,33.0,1.8,4.0,2.7925,-0.7618269216967289,-0.024133133736535143,0.5668436006443572,-0.09563982552316398,-0.449418,-20.119146
11.185,2.0,1.0,1.0,34.8,33.0,33.0,1.8,4.0,2.795,-0.7734278364691786,-0.022419742544730822,0.5492311409524082,-0.09792868149611351,-0.458321,-19.959939
11.185,2.0,1.0,1.0,34.8,33.0,33.0,1.8,4.0,2.7975,-0.7847088520870634,-0.02060586827420912,0.5312144749661674,-0.1002317511236816,-0.467446,-19.800116
11.185,2.0,1.0,1.0,34.8,33.0,33.0,1.8,4.0,2.8,-0.7956535712355688,-0.01868808600573906,0.5127962696980972,-0.1025468828194668,-0.476801,-19.63966
11.185,2.0,1.0,1.0,34.8,33.0,33.0,1.8,4.0,2.8025,-0.8062453227033726,-0.016662904072838054,0.49397976619814205,-0.10487177534416854,-0.486394,-19.478549
11.185,2.0,1.0,1.0,34.8,33.0,33.0,1.8,4.0,2.805,-0.8164671733849221,-0.014526763182273823,0.47476880127295534,-0.10720397211538195,-0.496234,-19.316761
11.185,2.0,1.0,1.0,34.8,33.0,33.0,1.8,4.0,2.8075,-0.8263019410294391,-0.012276035239181962,0.4551678290897606,-0.10954085528421499,-0.506331,-19.154273
11.185,2.0,1.0,1.0,34.8,33.0,33.0,1.8,4.0,2.81,-0.8357322076845426,-0.009907021824103997,0.43518194263322724,-0.11187963953529549,-0.516694,-18.991058
11.185,2.0,1.0,1.0,34.8,33.0,33.0,1.8,4.0,2.8125,-0.844740333771882,-0.00741595226451475,0.414816894990196,-0.114217365557924,-0.527333,-18.827087
11.185,2.0,1.0,1.0,34.8,33.0,33.0,1.8,4.0,2.815,-0.8533084727212451,-0.004798981238520255,0.3940791204450159,-0.1165508931260137,-0.53826,-18.662331
11.185,2.0,1.0,1.0,34.8,33.0,33.0,1.8,4.0,2.8175,-0.8614185860781566,-0.0020521858434260874,0.37297575537833744,-0.11887689371283612,-0.549487,-18.496757
11.185,2.0,1.0,1.0,34.8,33.0,33.0,1.8,4.0,2.82,-0.8690524589879717,0.0008284379431798439,0.35151465897415707,-0.12119184255330002,-0.561027,-18.330329
11.185,2.0,1.0,1.0,34.8,33.0,33.0,1.8,4.0,2.8225,-0.8761917159472425,0.003846979487258272,0.32970443375449365,-0.12349201005128277,-0.572892,-18.16301
11.185,2.0,1.0,1.0,34.8,33.0,33.0,1.8,4.0,2.825,-0.8828178367004449,0.007007618489514901,0.30755444597828047,-0.12577345241216556,-0.585099,-17.994759
11.185,2.0,1.0,1.0,34.8,33.0,33.0,1.8,4.0,2.8275,-0.888912172147409,0.010314630831321838,0.2850748459611943,-0.1280320013608944,-0.597662,-17.825533
