1,w,sub_t,h,l1,l2,l3,g1,g2,Freq,S11_re,S21_re,S11_img,S21_img,S11_dB,S21_dB
11.185,2.0,1.0,1.0,34.1,33.5,33.5,3.3,1.9,2.5,0.767762846025636,-0.0121836201326403,0.629198335969194,0.00789101453551526,-0.064093,-36.763175
11.185,2.0,1.0,1.0,34.1,33.5,33.5,3.3,1.9,2.5025,0.7629536212985252,-0.012414460347313994,0.6349032067070022,0.007896949209071386,-0.064755,-36.64581
11.185,2.0,1.0,1.0,34.1,33.5,33.5,3.3,1.9,2.505,0.7580775674291472,-0.012649283533261505,0.6405981254076373,0.007900995721060896,-0.065428,-36.528064
11.185,2.0,1.0,1.0,34.1,33.5,33.5,3.3,1.9,2.5075,0.7531340197535419,-0.012888164200364522,0.6462825686857108,0.007903080991182471,-0.066114,-36.409932
11.185,2.0,1.0,1.0,34.1,33.5,33.5,3.3,1.9,2.51,0.7481223051622006,-0.013131178466565209,0.6519559981601828,0.007903129291754941,-0.066812,-36.291405
11.185,2.0,1.0,1.0,34.1,33.5,33.5,3.3,1.9,2.5125,0.7430417420497949,-0.013378404095248266,0.6576178600068288,0.007901062143317275,-0.067524,-36.172475
11.185,2.0,1.0,1.0,34.1,33.5,33.5,3.3,1.9,2.515,0.7378916402681321,-0.013629920533474291,0.6632675844971562,0.00789679820566438,-0.068249,-36.053135
11.185,2.0,1.0,1.0,34.1,33.5,33.5,3.3,1.9,2.5175,0.7326713010825953,-0.013885808951077381,0.6689045855233174,0.00789025316407493,-0.068987,-35.933376
11.185,2.0,1.0,1.0,34.1,33.5,33.5,3.3,1.9,2.52,0.7273800171322989,-0.014146152280653999,0.6745282601085927,0.007881339610509587,-0.06974,-35.813191
11.185,2.0,1.0,1.0,34.1,33.5,33.5,3.3,1.9,2.5225,0.7220170723942559,-0.014411035258442556,0.6801379879029454,0.007869966919507072,-0.070507,-35.692571
11.185,2.0,1.0,1.0,34.1,33.5,33.5,3.3,1.9,2.525,0.7165817421518121,-0.014680544466116314,0.6857331306631942,0.007856041118545157,-0.071288,-35.571507
11.185,2.0,1.0,1.0,34.1,33.5,33.5,3.3,1.9,2.5275,0.7110732929676543,-0.014954768373500772,0.6913130317172899,0.00783946475254164,-0.072084,-35.449993
11.185,2.0,1.0,1.0,34.1,33.5,33.5,3.3,1.9,2.53,0.705490982661706,-0.015233797382227235,0.6968770154121724,0.00782013674224271,-0.072896,-35.328018
11.185,2.0,1.0,1.0,34.1,33.5,33.5,3.3,1.9,2.5325,0.699834060294229,-0.015517723870336106,0.7024243865446772,0.007797952236141311,-0.073724,-35.205574
11.185,2.0,1.0,1.0,34.1,33.5,33.5,3.3,1.9,2.535,0.6941017661544757,-0.01580664223783658,0.7079544297749321,0.00777280245562331,-0.074568,-35.082653
11.185,2.0,1.0,1.0,34.1,33.5,33.5,3.3,1.9,2.5375,0.6882933317552611,-0.016100648953244825,0.7134664090216529,0.007744574532980893,-0.075428,-34.959244
11.185,2.0,1.0,1.0,34.1,33.5,33.5,3.3,1.9,2.54,0.6824079798338203,-0.016399842601091827,0.7189595668387534,0.00771315134189561,-0.076305,-34.83534
11.185,2.0,1.0,1.0,34.1,33.5,33.5,3.3,1.9,2.5425,0.6764449243593555,-0.01670432393042071,0.7244331237726253,0.007678411320029217,-0.0772,-34.71093
11.185,2.0,1.0,1.0,34.1,33.5,33.5,3.3,1.9,2.545,0.6704033705476892,-0.017014195904283512,0.7298862776994542,0.00764022828328165,-0.078113,-34.586006
11.185,2.0,1.0,1.0,34.1,33.5,33.5,3.3,1.9,2.5475,0.6642825148834648,-0.017329563750226602,0.7353182031418781,0.007598471231268546,-0.079044,-34.460557
11.185,2.0,1.0,1.0,34.1,33.5,33.5,3.3,1.9,2.55,0.6580815451503436,-0.017650535011778178,0.7407280505643032,0.007553004143537364,-0.079994,-34.334573
11.185,2.0,1.0,1.0,34.1,33.5,33.5,3.3,1.9,2.5525,0.6517996404697,-0.017977219600946177,0.7461149456461222,0.007503685766053975,-0.080963,-34.208046
11.185,2.0,1.0,1.0,34.1,33.5,33.5,3.3,1.9,2.555,0.6454359713483047,-0.018309729851699208,0.7514779885320916,0.00745036938737137,-0.081952,-34.080963
11.185,2.0,1.0,1.0,34.1,33.5,33.5,3.3,1.9,2.5575,0.6389896997355317,-0.018648180574454273,0.7568162530590622,0.007392902603954512,-0.082962,-33.953316
11.185,2.0,1.0,1.0,34.1,33.5,33.5,3.3,1.9,2.56,0.632459979090656,-0.018992689111544964,0.7621287859582342,0.007331127074028482,-0.083992,-33.825093
11.185,2.0,1.0,1.0,34.1,33.5,33.5,3.3,1.9,2.5625,0.625845954460821,-0.019343375393663414,0.7674146060320702,0.007264878259319133,-0.085044,-33.696284
11.185,2.0,1.0,1.0,34.1,33.5,33.5,3.3,1.9,2.565,0.6191467625702852,-0.019700361997266953,0.7726727033049663,0.007193985154001182,-0.086118,-33.566878
11.185,2.0,1.0,1.0,34.1,33.5,33.5,3.3,1.9,2.5675,0.6123615319216115,-0.02006377420291357,0.7779020381467271,0.007118270000106777,-0.087215,-33.436863
11.185,2.0,1.0,1.0,34.1,33.5,33.5,3.3,1.9,2.57,0.6054893829094551,-0.020433740054526417,0.7831015403678623,0.007037547988632352,-0.088336,-33.306228
11.185,2.0,1.0,1.0,34.1,33.5,33.5,3.3,1.9,2.5725,0.5985294279476762,-0.020810390419522075,0.7882701082856686,0.006951626945494851,-0.08948,-33.174962
11.185,2.0,1.0,1.0,34.1,33.5,33.5,3.3,1.9,2.575,0.5914807716105134,-0.021193859049803976,0.7934066077600124,0.006860307001471019,-0.090649,-33.043052
11.185,2.0,1.0,1.0,34.1,33.5,33.5,3.3,1.9,2.5775,0.5843425107886072,-0.021584282643545418,0.79850987119767,0.0067633802451525,-0.091844,-32.910486
11.185,2.0,1.0,1.0,34.1,33.5,33.5,3.3,1.9,2.58,0.5771137348606956,-0.021981800907723715,0.8035786965240378,0.006660630357897305,-0.093065,-32.777252
11.185,2.0,1.0,1.0,34.1,33.5,33.5,3.3,1.9,2.5825,0.5697935258818351,-0.02238655662134405,0.8086118461209512,0.006551832229732955,-0.094313,-32.643337
11.185,2.0,1.0,1.0,34.1,33.5,33.5,3.3,1.9,2.585,0.5623809587890664,-0.02279869569927913,0.813608045729299,0.006436751555005072,-0.095588,-32.508728
11.185,2.0,1.0,1.0,34.1,33.5,33.5,3.3,1.9,2.5875,0.5548751016254596,-0.023218367256633357,0.8185659833150377,0.006315144406550786,-0.096893,-32.373412
11.185,2.0,1.0,1.0,34.1,33.5,33.5,3.3,1.9,2.59,0.5472750157835571,-0.02364572367356293,0.8234843078971383,0.006186756787089177,-0.098227,-32.237375
11.185,2.0,1.0,1.0,34.1,33.5,33.5,3.3,1.9,2.5925,0.5395797562692394,-0.02408092066039172,0.8283616283359311,0.006051324156353265,-0.099591,-32.100604
11.185,2.0,1.0,1.0,34.1,33.5,33.5,3.3,1.9,2.595,0.5317883719871442,-0.024524117322955133,0.8331965120801968,0.005908570932489376,-0.100986,-31.963084
11.185,2.0,1.0,1.0,34.1,33.5,33.5,3.3,1.9,2.5975,0.5238999060487736,-0.024975476227976322,0.8379874838712859,0.0057582099660427495,-0.102414,-31.8248
11.185,2.0,1.0,1.0,34.1,33.5,33.5,3.3,1.9,2.6,0.5159133961045158,-0.025435163468354192,0.8427330244024445,0.005599941984797769,-0.103875,-31.685738
11.185,2.0,1.0,1.0,34.1,33.5,33.5,3.3,1.9,2.6025,0.5078278747008775,-0.025903348728116938,0.84743156893138,0.00543345500754943,-0.105371,-31.545882
11.185,2.0,1.0,1.0,34.1,33.5,33.5,3.3,1.9,2.605,0.49964236966425235,-0.026380205346900453,0.8520815058440318,0.005258423724803455,-0.106902,-31.405217
11.185,2.0,1.0,1.0,34.1,33.5,33.5,3.3,1.9,2.6075,0.4913559045126632,-0.026865910383642944,0.8566811751673394,0.005074508844176398,-0.10847,-31.263727
11.185,2.0,1.0,1.0,34.1,33.5,33.5,3.3,1.9,2.61,0.48296749889697854,-0.027360644679251242,0.8612288670286721,0.004881356398160208,-0.110075,-31.121395
11.185,2.0,1.0,1.0,34.1,33.5,33.5,3.3,1.9,2.6125,0.47447616907316925,-0.027864592917932387,0.8657228200594458,0.004678597011714759,-0.11172,-30.978204
11.185,2.0,1.0,1.0,34.1,33.5,33.5,3.3,1.9,2.615,0.4658809284072803,-0.028377943686804158,0.8701612197402522,0.004465845126893393,-0.113405,-30.834137
11.185,2.0,1.0,1.0,34.1,33.5,33.5,3.3,1.9,2.6175,0.45718078791487976,-0.028900889533425816,0.8745421966846758,0.004242698181608213,-0.115131,-30.689176
11.185,2.0,1.0,1.0,34.1,33.5,33.5,3.3,1.9,2.62,0.4483747568368441,-0.02943362702075809,0.878863824858737,0.004008735739279013,-0.116901,-30.543304
11.185,2.0,1.0,1.0,34.1,33.5,33.5,3.3,1.9,2.6225,0.439461843253441,-0.029976356779046736,0.8831241197327201,0.0037635185659085314,-0.118716,-30.3965
11.185,2.0,1.0,1.0,34.1,33.5,33.5,3.3,1.9,2.625,0.430441054738816,-0.0305292835540903,0.887321036361861,0.00350658765090145,-0.120576,-30.248747
11.185,2.0,1.0,1.0,34.1,33.5,33.5,3.3,1.9,2.6275,0.4213113990580722,-0.031092616251154975,0.8914524673921357,0.0032374631674683962,-0.122485,-30.100023
11.185,2.0,1.0,1.0,34.1,33.5,33.5,3.3,1.9,2.63,0.4120718849093052,-0.031666567973873114,0.8955162409870953,0.0029556433682975834,-0.124443,-29.95031
11.185,2.0,1.0,1.0,34.1,33.5,33.5,3.3,1.9,2.6325,0.4027215227130901,-0.032251356057235364,0.8995101186713509,0.00266060341172128,-0.126452,-29.799584
11.185,2.0,1.0,1.0,34.1,33.5,33.5,3.3,1.9,2.635,0.3932593254520773,-0.03284720209375502,0.9034317930859929,0.002351794113149624,-0.128515,-29.647826
11.185,2.0,1.0,1.0,34.1,33.5,33.5,3.3,1.9,2.6375,0.38368430956355015,-0.033454331951701353,0.9072788856508079,0.00202864061619634,-0.130633,-29.495013
11.185,2.0,1.0,1.0,34.1,33.5,33.5,3.3,1.9,2.64,0.3739954958879507,-0.034072975784216725,0.9110489441277582,0.0016905409773646564,-0.132807,-29.341121
11.185,2.0,1.0,1.0,34.1,33.5,33.5,3.3,1.9,2.6425,0.3641919106766485,-0.0347033680279093,0.9147394400796941,0.0013368646576431532,-0.135042,-29.186127
11.185,2.0,1.0,1.0,34.1,33.5,33.5,3.3,1.9,2.645,0.3542725866624232,-0.035345747389383765,0.9183477662177524,0.0009669509137282133,-0.137337,-29.030008
11.185,2.0,1.0,1.0,34.1,33.5,33.5,3.3,1.9,2.6475,0.34423656419640863,-0.03600035681793444,0.921871233630321,0.0005801070810282942,-0.139697,-28.872736
11.185,2.0,1.0,1.0,34.1,33.5,33.5,3.3,1.9,2.65,0.3340828924555259,-0.03666744346237258,0.9253070688858022,0.00017560673974747424,-0.142123,-28.714288
11.185,2.0,1.0,1.0,34.1,33.5,33.5,3.3,1.9,2.6525,0.32381063072478805,-0.03734725860975714,0.9286524110006895,-0.00024731224531892085,-0.144619,-28.554635
11.185,2.0,1.0,1.0,34.1,33.5,33.5,3.3,1.9,2.655,0.3134188497591624,-0.03804005760339086,0.9319043082637046,-0.0006894498216286054,-0.147186,-28.39375
11.185,2.0,1.0,1.0,34.1,33.5,33.5,3.3,1.9,2.6575,0.3029066332301374,-0.03874609973719804,0.9350597149058303,-0.0011516459936121897,-0.149828,-28.231605
11.185,2.0,1.0,1.0,34.1,33.5,33.5,3.3,1.9,2.66,0.2922730792625469,-0.03946564812308514,0.9381154876051324,-0.0016347832276915996,-0.152548,-28.06817
11.185,2.0,1.0,1.0,34.1,33.5,33.5,3.3,1.9,2.6625,0.28151730206776215,-0.040198969527548076,0.9410683818141496,-0.0021397890310732377,-0.155349,-27.903414
11.185,2.0,1.0,1.0,34.1,33.5,33.5,3.3,1.9,2.665,0.27063843367987267,-0.040946334173133876,0.9439150478964292,-0.002667638719269843,-0.158235,-27.737305
11.185,2.0,1.0,1.0,34.1,33.5,33.5,3.3,1.9,2.6675,0.2596356258021982,-0.041708015499879694,0.9466520270574406,-0.003219358388633728,-0.161209,-27.569811
11.185,2.0,1.0,1.0,34.1,33.5,33.5,3.3,1.9,2.67,0.24850805177216245,-0.042484289881036606,0.9492757470535643,-0.0037960281119369882,-0.164275,-27.400898
11.185,2.0,1.0,1.0,34.1,33.5,33.5,3.3,1.9,2.6725,0.2372549086534051,-0.043275436286708234,0.9517825176611979,-0.004398785376753266,-0.167437,-27.23053
11.185,2.0,1.0,1.0,34.1,33.5,33.5,3.3,1.9,2.675,0.2258754194649945,-0.04408173588800161,0.9541685258861055,-0.005028828788481887,-0.1707,-27.058671
11.185,2.0,1.0,1.0,34.1,33.5,33.5,3.3,1.9,2.6775,0.21436883555867686,-0.04490347159329058,0.9564298308910242,-0.005687422062114403,-0.174068,-26.885283
11.185,2.0,1.0,1.0,34.1,33.5,33.5,3.3,1.9,2.68,0.20273443915633182,-0.04574092750695162,0.9585623586171959,-0.00637589832928904,-0.177545,-26.710327
11.185,2.0,1.0,1.0,34.1,33.5,33.5,3.3,1.9,2.6825,0.19097154606131536,-0.0465943882995018,0.9605618960727736,-0.0070956647900933785,-0.181138,-26.533761
11.185,2.0,1.0,1.0,34.1,33.5,33.5,3.3,1.9,2.685,0.17907950855894825,-0.047464138476430856,0.9624240852581327,-0.007848207742141098,-0.184851,-26.355543
11.185,2.0,1.0,1.0,34.1,33.5,33.5,3.3,1.9,2.6875,0.167057718523376,-0.0483504615311254,0.964144416694701,-0.00863509802299919,-0.18869,-26.175629
11.185,2.0,1.0,1.0,34.1,33.5,33.5,3.3,1.9,2.69,0.1549056107502542,-0.04925363896505599,0.9657182225201554,-0.009457996906023992,-0.192662,-25.993973
11.185,2.0,1.0,1.0,34.1,33.5,33.5,3.3,1.9,2.6925,0.14262266653721445,-0.05017394915584311,0.9671406691085929,-0.01031866249402992,-0.196774,-25.810527
11.185,2.0,1.0,1.0,34.1,33.5,33.5,3.3,1.9,2.695,0.13020841753715778,-0.051111666050829216,0.9684067491694368,-0.011218956660231523,-0.201031,-25.625241
11.185,2.0,1.0,1.0,34.1,33.5,33.5,3.3,1.9,2.6975,0.11766244991277741,-0.05206705766025411,0.9695112732734645,-0.01216085259153203,-0.205442,-25.438064
11.185,2.0,1.0,1.0,34.1,33.5,33.5,3.3,1.9,2.7,0.10498440882488216,-0.053040384320137766,0.9704488607481752,-0.01314644299543017,-0.210016,-25.24894
11.185,2.0,1.0,1.0,34.1,33.5,33.5,3.3,1.9,2.7025,0.09217400329173005,-0.05403189669009224,0.9712139298778323,-0.014177949039065562,-0.21476,-25.057814
11.185,2.0,1.0,1.0,34.1,33.5,33.5,3.3,1.9,2.705,0.07923101146223034,-0.05504183344581142,0.9718006873356254,-0.015257730096782827,-0.219683,-24.864626
11.185,2.0,1.0,1.0,34.1,33.5,33.5,3.3,1.9,2.7075,0.06615528635226783,-0.056070418619328675,0.9722031167666041,-0.01638829439180887,-0.224797,-24.669314
11.185,2.0,1.0,1.0,34.1,33.5,33.5,3.3,1.9,2.71,0.0529467621012137,-0.05711785853245641,0.9724149664298501,-0.017572310627740673,-0.230111,-24.471815
11.185,2.0,1.0,1.0,34.1,33.5,33.5,3.3,1.9,2.7125,0.039605460814571385,-0.058184338259743104,0.9724297357970576,-0.018812620717191923,-0.235637,-24.27206
11.185,2.0,1.0,1.0,34.1,33.5,33.5,3.3,1.9,2.715,0.02613150006947511,-0.05927001754646924,0.9722406609916261,-0.02011225372814226,-0.241388,-24.069979
11.185,2.0,1.0,1.0,34.1,33.5,33.5,3.3,1.9,2.7175,0.01252510117232917,-0.060375026094569274,0.9718406989376768,-0.0214744411832622,-0.247377,-23.865498
11.185,2.0,1.0,1.0,34.1,33.5,33.5,3.3,1.9,2.72,-0.0012134017271316646,-0.06149945811428761,0.971222510071615,-0.022902633864570757,-0.253618,-23.65854
11.185,2.0,1.0,1.0,34.1,33.5,33.5,3.3,1.9,2.7225,-0.015083551543318315,-0.062643366021429,0.9703784394497655,-0.02440052029486753,-0.260128,-23.449022
11.185,2.0,1.0,1.0,34.1,33.5,33.5,3.3,1.9,2.725,-0.029084757040517953,-0.06380675313882654,0.9693004960638808,-0.025972047089283582,-0.266923,-23.236861
11.185,2.0,1.0,1.0,34.1,33.5,33.5,3.3,1.9,2.7275,-0.043216280328368786,-0.06498956523526563,0.9679803301515257,-0.02762144139510043,-0.274021,-23.021965
11.185,2.0,1.0,1.0,34.1,33.5,33.5,3.3,1.9,2.73,-0.05747722286822899,-0.06619168070460202,0.9664092082601163,-0.02935323566625299,-0.281444,-22.804242
11.185,2.0,1.0,1.0,34.1,33.5,33.5,3.3,1.9,2.7325,-0.07186650975537752,-0.06741289915157098,0.9645779857911677,-0.03117229505118156,-0.289212,-22.583591
11.185,2.0,1.0,1.0,34.1,33.5,33.5,3.3,1.9,2.735,-0.08638287199825538,-0.06865292810695636,0.9624770767145742,-0.0330838477093013,-0.297349,-22.359909
11.185,2.0,1.0,1.0,34.1,33.5,33.5,3.3,1.9,2.7375,-0.10102482646352354,-0.06991136754218824,0.9600964201009168,-0.03509351841306533,-0.305882,-22.133086
11.185,2.0,1.0,1.0,34.1,33.5,33.5,3.3,1.9,2.74,-0.11579065309207576,-0.07118769178985165,0.9574254430720099,-0.037207365840247524,-0.314839,-21.903006
11.185,2.0,1.0,1.0,34.1,33.5,33.5,3.3,1.9,2.7425,-0.13067836891436513,-0.07248122839978045,0.9544530197156197,-0.03943192401491027,-0.324252,-21.669546
11.185,2.0,1.0,1.0,34.1,33.5,33.5,3.3,1.9,2.745,-0.14568569830001823,-0.07379113336701107,0.951167425448502,-0.04177424841707083,-0.334154,-21.432579
11.185,2.0,1.0,1.0,34.1,33.5,33.5,3.3,1.9,2.7475,-0.16081003876307617,-0.0751163620544764,0.9475562862417619,-0.044241967350568887,-0.344583,-21.191967
11.185,2.0,1.0,1.0,34.1,33.5,33.5,3.3,1.9,2.75,-0.176048421505552,-0.0764556349947969,0.94360652204318,-0.0468433392373628,-0.355582,-20.947568
11.185,2.0,1.0,1.0,34.1,33.5,33.5,3.3,1.9,2.7525,-0.19139746571226446,-0.07780739758629163,0.9393042836416176,-0.049587316595195885,-0.367197,-20.699228
11.185,2.0,1.0,1.0,34.1,33.5,33.5,3.3,1.9,2.755,-0.20685332540158444,-0.07916977249055386,0.9346348821181084,-0.05248361755491751,-0.379478,-20.446787
11.185,2.0,1.0,1.0,34.1,33.5,33.5,3.3,1.9,2.7575,-0.22241162738049527,-0.08054050328345627,0.9295827099162148,-0.05554280588463143,-0.392482,-20.190075
11.185,2.0,1.0,1.0,34.1,33.5,33.5,3.3,1.9,2.76,-0.23806739853579215,-0.08191688759623897,0.9241311524404252,-0.058776380609856564,-0.406273,-19.928909
11.185,2.0,1.0,1.0,34.1,33.5,33.5,3.3,1.9,2.7625,-0.253814980301756,-0.08329569759327649,0.9182624889563339,-0.06219687645224581,-0.420921,-19.663099
11.185,2.0,1.0,1.0,34.1,33.5,33.5,3.3,1.9,2.765,-0.2696479276582955,-0.08467308514913066,0.9119577814216318,-0.0658179764515963,-0.436505,-19.392441
11.185,2.0,1.0,1.0,34.1,33.5,33.5,3.3,1.9,2.7675,-0.28555888940818147,-0.0860444684849571,0.9051967497259061,-0.0696546382844367,-0.453113,-19.116718
11.185,2.0,1.0,1.0,34.1,33.5,33.5,3.3,1.9,2.77,-0.30153946572602863,-0.08740439627243934,0.8979576316659008,-0.07372323594039557,-0.470846,-18.835701
11.185,2.0,1.0,1.0,34.1,33.5,33.5,3.3,1.9,2.7725,-0.3175800380249613,-0.08874638427180945,0.8902170258414623,-0.07804171855547436,-0.489816,-18.549146
11.185,2.0,1.0,1.0,34.1,33.5,33.5,3.3,1.9,2.775,-0.33366956499801653,-0.09006271838868624,0.8819497155421143,-0.08262978831212592,-0.510149,-18.256792
11.185,2.0,1.0,1.0,34.1,33.5,33.5,3.3,1.9,2.7775,-0.34979533719443995,-0.09134421654665101,0.8731284716309379,-0.08750909937449484,-0.53199,-17.958364
11.185,2.0,1.0,1.0,34.1,33.5,33.5,3.3,1.9,2.78,-0.36594268060150165,-0.092579939895008,0.863723832460661,-0.0927034797934438,-0.555504,-17.653567
11.185,2.0,1.0,1.0,34.1,33.5,33.5,3.3,1.9,2.7825,-0.3820945973119738,-0.09375684149662904,0.8537038590372005,-0.09823917812963957,-0.58088,-17.342089
11.185,2.0,1.0,1.0,34.1,33.5,33.5,3.3,1.9,2.785,-0.39823132832762226,-0.09485933763191942,0.8430338640695233,-0.10414513611305709,-0.608332,-17.023598
11.185,2.0,1.0,1.0,34.1,33.5,33.5,3.3,1.9,2.7875,-0.41432981970311517,-0.09586878303653407,0.8316761143493187,-0.11045328784663443,-0.638109,-16.697739
11.185,2.0,1.0,1.0,34.1,33.5,33.5,3.3,1.9,2.79,-0.4303630683496917,-0.09676282654191126,0.819589507295217,-0.11719888466520904,-0.670499,-16.364139
11.185,2.0,1.0,1.0,34.1,33.5,33.5,3.3,1.9,2.7925,-0.4462993176128427,-0.09751461743049492,0.8067292247820947,-0.1244208424721231,-0.705836,-16.022399
11.185,2.0,1.0,1.0,34.1,33.5,33.5,3.3,1.9,2.795,-0.4621010648682497,-0.09809182501072834,0.7930463710153655,-0.13216210473783988,-0.744507,-15.672098
11.185,2.0,1.0,1.0,34.1,33.5,33.5,3.3,1.9,2.7975,-0.477723833427708,-0.09845542404805852,0.7784876068876264,-0.14047000867639475,-0.78697,-15.312792
11.185,2.0,1.0,1.0,34.1,33.5,33.5,3.3,1.9,2.8,-0.49311464853137826,-0.09855818628231985,0.7629948019893824,-0.14939663340379494,-0.83376,-14.944014
11.185,2.0,1.0,1.0,34.1,33.5,33.5,3.3,1.9,2.8025,-0.508210141605673,-0.09834280280929347,0.7465047387523541,-0.15899909562024434,-0.885511,-14.565277
11.185,2.0,1.0,1.0,34.1,33.5,33.5,3.3,1.9,2.805,-0.5229341878100575,-0.0977395431364808,0.728948923331523,-0.16933973831152688,-0.942976,-14.176075
11.185,2.0,1.0,1.0,34.1,33.5,33.5,3.3,1.9,2.8075,-0.5371949589103249,-0.09666333398121738,0.7102535881060086,-0.18048612783034185,-1.007057,-13.775886
11.185,2.0,1.0,1.0,34.1,33.5,33.5,3.3,1.9,2.81,-0.5508812469766236,-0.09501011465245669,0.6903400159891564,-0.19251072963999125,-1.078834,-13.364187
11.185,2.0,1.0,1.0,34.1,33.5,33.5,3.3,1.9,2.8125,-0.563857885788908,-0.0926522976316266,0.669125384210403,-0.20549006590915,-1.159615,-12.940455
11.185,2.0,1.0,1.0,34.1,33.5,33.5,3.3,1.9,2.815,-0.5759600700359887,-0.08943313664375231,0.6465244250973289,-0.2195030588860877,-1.250987,-12.504192
11.185,2.0,1.0,1.0,34.1,33.5,33.5,3.3,1.9,2.8175,-0.58698635594229,-0.08515978859303247,0.6224523479962625,-0.23462811832854716,-1.35489,-12.054942
11.185,2.0,1.0,1.0,34.1,33.5,33.5,3.3,1.9,2.82,-0.5966901379106574,-0.07959486722954015,0.5968296791748362,-0.2509383200514241,-1.473707,-11.59233
11.185,2.0,1.0,1.0,34.1,33.5,33.5,3.3,1.9,2.8225,-0.6047694664414526,-0.07244635747290751,0.5695899796874844,-0.26849372180463255,-1.610384,-11.116107
11.185,2.0,1.0,1.0,34.1,33.5,33.5,3.3,1.9,2.825,-0.6108552616302246,-0.06335594826848637,0.5406918212897707,-0.2873294460245969,-1.768573,-10.626216
11.185,2.0,1.0,1.0,34.1,33.5,33.5,3.3,1.9,2.8275,-0.6144983862320557,-0.051886250312047716,0.5101369565707128,-0.30743760793157043,-1.952828,-10.122888
