1,w,sub_t,h,l1,l2,l3,g1,g2,Freq,S11_re,S21_re,S11_img,S21_img,S11_dB,S21_dB
11.185,2.0,1.0,1.0,33.6,33.7,33.7,3.8,2.9,2.5,0.837900786530241,-0.00646277992695325,0.534166046705727,0.00457568871511344,-0.05502,-42.027016
11.185,2.0,1.0,1.0,33.6,33.7,33.7,3.8,2.9,2.5025,0.8342515711412382,-0.006586393198722668,0.5397428563489362,0.004586421252853034,-0.055517,-41.910074
11.185,2.0,1.0,1.0,33.6,33.7,33.7,3.8,2.9,2.505,0.8305492602093153,-0.006712058231131289,0.545317371318348,0.0045963446899750906,-0.056023,-41.792856
11.185,2.0,1.0,1.0,33.6,33.7,33.7,3.8,2.9,2.5075,0.826793345818121,-0.006839812950004022,0.5508893160828233,0.004605429143544634,-0.056537,-41.675357
11.185,2.0,1.0,1.0,33.6,33.7,33.7,3.8,2.9,2.51,0.822983312540107,-0.006969696165957468,0.5564584071097658,0.004613643700518914,-0.05706,-41.557567
11.185,2.0,1.0,1.0,33.6,33.7,33.7,3.8,2.9,2.5125,0.8191186373349408,-0.007101747599325575,0.5620243526171224,0.0046209563780874666,-0.057591,-41.439478
11.185,2.0,1.0,1.0,33.6,33.7,33.7,3.8,2.9,2.515,0.8151987894473257,-0.007236007905922785,0.567586852317657,0.004627334082286095,-0.058132,-41.321083
11.185,2.0,1.0,1.0,33.6,33.7,33.7,3.8,2.9,2.5175,0.811223230304279,-0.007372518703677919,0.5731455971552182,0.004632742564799386,-0.058681,-41.202372
11.185,2.0,1.0,1.0,33.6,33.7,33.7,3.8,2.9,2.52,0.8071914134119044,-0.007511322600174066,0.5787002690327544,0.004637146377861207,-0.059241,-41.083338
11.185,2.0,1.0,1.0,33.6,33.7,33.7,3.8,2.9,2.5225,0.8031027842517228,-0.007652463221131799,0.5842505405317717,0.004640508827157343,-0.059809,-40.963972
11.185,2.0,1.0,1.0,33.6,33.7,33.7,3.8,2.9,2.525,0.7989567801766064,-0.007795985239873468,0.5897960746229706,0.004642791922629153,-0.060388,-40.844266
11.185,2.0,1.0,1.0,33.6,33.7,33.7,3.8,2.9,2.5275,0.7947528303063748,-0.00794193440780988,0.5953365243677486,0.004643956327071218,-0.060977,-40.72421
11.185,2.0,1.0,1.0,33.6,33.7,33.7,3.8,2.9,2.53,0.7904903554231186,-0.008090357585991467,0.6008715326102573,0.004643961302409526,-0.061576,-40.603796
11.185,2.0,1.0,1.0,33.6,33.7,33.7,3.8,2.9,2.5325,0.7861687678663161,-0.008241302777768281,0.6064007316596944,0.004642764653540462,-0.062186,-40.483015
11.185,2.0,1.0,1.0,33.6,33.7,33.7,3.8,2.9,2.535,0.7817874714278096,-0.008394819162605963,0.6119237429624993,0.0046403226696032016,-0.062807,-40.361858
11.185,2.0,1.0,1.0,33.6,33.7,33.7,3.8,2.9,2.5375,0.7773458612467217,-0.008550957131106445,0.6174401767640886,0.0046365900625509665,-0.063438,-40.240316
11.185,2.0,1.0,1.0,33.6,33.7,33.7,3.8,2.9,2.54,0.7728433237043876,-0.00870976832128463,0.6229496317597866,0.0046315199028786206,-0.064081,-40.118379
11.185,2.0,1.0,1.0,33.6,33.7,33.7,3.8,2.9,2.5425,0.7682792363193864,-0.008871305656155721,0.628451694734564,0.004625063552354844,-0.064736,-39.996038
11.185,2.0,1.0,1.0,33.6,33.7,33.7,3.8,2.9,2.545,0.7636529676427659,-0.009035623382689708,0.6339459401911977,0.004617170593598025,-0.065403,-39.873283
11.185,2.0,1.0,1.0,33.6,33.7,33.7,3.8,2.9,2.5475,0.7589638771535541,-0.009202777112191866,0.6394319299664367,0.004607788756326091,-0.066081,-39.750104
11.185,2.0,1.0,1.0,33.6,33.7,33.7,3.8,2.9,2.55,0.7542113151546507,-0.009372823862173642,0.644909212834766,0.004596863840098313,-0.066773,-39.626493
11.185,2.0,1.0,1.0,33.6,33.7,33.7,3.8,2.9,2.5525,0.7493946226692221,-0.009545822099778419,0.6503773240993028,0.004584339633356791,-0.067477,-39.502437
11.185,2.0,1.0,1.0,33.6,33.7,33.7,3.8,2.9,2.555,0.7445131313376951,-0.00972183178683186,0.655835785169391,0.004570157828563471,-0.068194,-39.377929
11.185,2.0,1.0,1.0,33.6,33.7,33.7,3.8,2.9,2.5575,0.739566163315474,-0.009900914426590583,0.6612841031243996,0.0045542579332141135,-0.068925,-39.252955
11.185,2.0,1.0,1.0,33.6,33.7,33.7,3.8,2.9,2.56,0.7345530311715118,-0.01008313311226461,0.6667217702632273,0.00453657717649868,-0.069669,-39.127508
11.185,2.0,1.0,1.0,33.6,33.7,33.7,3.8,2.9,2.5625,0.7294730377878639,-0.010268552577395748,0.6721482636389989,0.004517050411360567,-0.070428,-39.001574
11.185,2.0,1.0,1.0,33.6,33.7,33.7,3.8,2.9,2.565,0.7243254762603578,-0.010457239248175917,0.6775630445784059,0.0044956100116927975,-0.071201,-38.875144
11.185,2.0,1.0,1.0,33.6,33.7,33.7,3.8,2.9,2.5675,0.7191096298005412,-0.010649261297795962,0.6829655581851233,0.004472185764390791,-0.071989,-38.748207
11.185,2.0,1.0,1.0,33.6,33.7,33.7,3.8,2.9,2.57,0.7138247716390471,-0.010844688702918435,0.688355232826713,0.004446704755963496,-0.072792,-38.62075
11.185,2.0,1.0,1.0,33.6,33.7,33.7,3.8,2.9,2.5725,0.7084701649305492,-0.011043593302375108,0.6937314796043982,0.004419091253384082,-0.073611,-38.492763
11.185,2.0,1.0,1.0,33.6,33.7,33.7,3.8,2.9,2.575,0.7030450626604727,-0.01124604885819297,0.6990936918050573,0.004389266578840926,-0.074446,-38.364234
11.185,2.0,1.0,1.0,33.6,33.7,33.7,3.8,2.9,2.5775,0.6975487075536447,-0.011452131119060035,0.7044412443347612,0.0043571489780250185,-0.075297,-38.23515
11.185,2.0,1.0,1.0,33.6,33.7,33.7,3.8,2.9,2.58,0.6919803319850736,-0.011661917886347638,0.7097734931331476,0.004322653481566423,-0.076165,-38.105499
11.185,2.0,1.0,1.0,33.6,33.7,33.7,3.8,2.9,2.5825,0.6863391578930494,-0.011875489082811422,0.7150897745678931,0.004285691759205086,-0.077051,-37.97527
11.185,2.0,1.0,1.0,33.6,33.7,33.7,3.8,2.9,2.585,0.6806243966947813,-0.01209292682410265,0.7203894048084963,0.004246171966251148,-0.077954,-37.844448
11.185,2.0,1.0,1.0,33.6,33.7,33.7,3.8,2.9,2.5875,0.674835249204783,-0.012314315493225047,0.7256716791785741,0.004203998581861175,-0.078876,-37.713021
11.185,2.0,1.0,1.0,33.6,33.7,33.7,3.8,2.9,2.59,0.6689709055562393,-0.012539741818083178,0.7309358714857912,0.004159072238620026,-0.079817,-37.580975
11.185,2.0,1.0,1.0,33.6,33.7,33.7,3.8,2.9,2.5925,0.6630305451255872,-0.012769294952274576,0.7361812333285502,0.004111289542883994,-0.080777,-37.448298
11.185,2.0,1.0,1.0,33.6,33.7,33.7,3.8,2.9,2.595,0.6570133364605739,-0.013003066559287088,0.7414069933784713,0.0040605428852993905,-0.081757,-37.314975
11.185,2.0,1.0,1.0,33.6,33.7,33.7,3.8,2.9,2.5975,0.6509184372120344,-0.013241150900271757,0.7466123566376891,0.004006720240869606,-0.082757,-37.180992
11.185,2.0,1.0,1.0,33.6,33.7,33.7,3.8,2.9,2.6,0.6447449940696751,-0.01348364492557216,0.7517965036699094,0.003949704957895985,-0.083779,-37.046334
11.185,2.0,1.0,1.0,33.6,33.7,33.7,3.8,2.9,2.6025,0.6384921427021507,-0.013730648370198342,0.7569585898041177,0.003889375535068849,-0.084822,-36.910986
11.185,2.0,1.0,1.0,33.6,33.7,33.7,3.8,2.9,2.605,0.6321590077017171,-0.013982263853448638,0.7620977443097869,0.003825605385929528,-0.085887,-36.774934
11.185,2.0,1.0,1.0,33.6,33.7,33.7,3.8,2.9,2.6075,0.6257447025337879,-0.01423859698289072,0.7672130695423488,0.0037582625898651798,-0.086976,-36.638162
11.185,2.0,1.0,1.0,33.6,33.7,33.7,3.8,2.9,2.61,0.6192483294917096,-0.014499756462925376,0.7723036400576248,0.0036872096287356485,-0.088088,-36.500653
11.185,2.0,1.0,1.0,33.6,33.7,33.7,3.8,2.9,2.6125,0.6126689796570952,-0.014765854208171596,0.7773685016938529,0.0036123031081589023,-0.089224,-36.362392
11.185,2.0,1.0,1.0,33.6,33.7,33.7,3.8,2.9,2.615,0.6060057328660617,-0.015037005461923356,0.7824066706198469,0.0035333934624078933,-0.090385,-36.223361
11.185,2.0,1.0,1.0,33.6,33.7,33.7,3.8,2.9,2.6175,0.5992576576817509,-0.015313328919941381,0.7874171323477458,0.003450324641788366,-0.091572,-36.083544
11.185,2.0,1.0,1.0,33.6,33.7,33.7,3.8,2.9,2.62,0.592423811373502,-0.015594946859861406,0.7923988407087147,0.0033629337812766773,-0.092786,-35.942923
11.185,2.0,1.0,1.0,33.6,33.7,33.7,3.8,2.9,2.6225,0.5855032399030728,-0.015881985276513678,0.7973507167898612,0.003271050849098201,-0.094027,-35.801479
11.185,2.0,1.0,1.0,33.6,33.7,33.7,3.8,2.9,2.625,0.578494977918335,-0.0161745740234652,0.802271647830501,0.00317449827382094,-0.095296,-35.659195
11.185,2.0,1.0,1.0,33.6,33.7,33.7,3.8,2.9,2.6275,0.5713980487548505,-0.016472846961115395,0.8071604860758176,0.00307309054842002,-0.096595,-35.516051
11.185,2.0,1.0,1.0,33.6,33.7,33.7,3.8,2.9,2.63,0.5642114644457878,-0.016776942111692034,0.8120160475857972,0.002966633809641765,-0.097923,-35.372028
11.185,2.0,1.0,1.0,33.6,33.7,33.7,3.8,2.9,2.6325,0.5569342257406374,-0.017087001821515062,0.8168371109972007,0.0028549253908556884,-0.099283,-35.227105
11.185,2.0,1.0,1.0,33.6,33.7,33.7,3.8,2.9,2.635,0.5495653221331968,-0.017403172930914482,0.8216224162361615,0.0027377533464292,-0.100675,-35.081263
11.185,2.0,1.0,1.0,33.6,33.7,33.7,3.8,2.9,2.6375,0.5421037318993406,-0.01772560695221109,0.8263706631788412,0.002614895945491118,-0.102099,-34.934479
11.185,2.0,1.0,1.0,33.6,33.7,33.7,3.8,2.9,2.64,0.5345484221450667,-0.018054460256189214,0.8310805102573868,0.0024861211327661717,-0.103558,-34.786732
11.185,2.0,1.0,1.0,33.6,33.7,33.7,3.8,2.9,2.6425,0.5268983488653753,-0.0183898942675128,0.8357505730082224,0.0023511859539600364,-0.105053,-34.637999
11.185,2.0,1.0,1.0,33.6,33.7,33.7,3.8,2.9,2.645,0.5191524570145264,-0.018732075669561428,0.8403794225594956,0.002209835942950398,-0.106584,-34.488258
11.185,2.0,1.0,1.0,33.6,33.7,33.7,3.8,2.9,2.6475,0.5113096805882582,-0.019081176619183356,0.8449655840542488,0.002061804467796779,-0.108153,-34.337484
11.185,2.0,1.0,1.0,33.6,33.7,33.7,3.8,2.9,2.65,0.5033689427185508,-0.019437374971890832,0.8495075350056251,0.0019068120323091577,-0.109761,-34.185653
11.185,2.0,1.0,1.0,33.6,33.7,33.7,3.8,2.9,2.6525,0.4953291557815898,-0.019800854518043837,0.8540037035801076,0.0017445655296206505,-0.111409,-34.032739
11.185,2.0,1.0,1.0,33.6,33.7,33.7,3.8,2.9,2.655,0.48718922151954236,-0.02017180523059499,0.8584524668044914,0.0015747574438795557,-0.1131,-33.878717
11.185,2.0,1.0,1.0,33.6,33.7,33.7,3.8,2.9,2.6575,0.47894803117684603,-0.020550423524993523,0.8628521486919059,0.0013970649958139224,-0.114834,-33.723559
11.185,2.0,1.0,1.0,33.6,33.7,33.7,3.8,2.9,2.66,0.47060446565170133,-0.02093691253186813,0.8672010182818249,0.001211149227521631,-0.116613,-33.567239
11.185,2.0,1.0,1.0,33.6,33.7,33.7,3.8,2.9,2.6625,0.4621573956635197,-0.021331482383132337,0.871497287588559,0.001016654021394906,-0.118439,-33.409726
11.185,2.0,1.0,1.0,33.6,33.7,33.7,3.8,2.9,2.665,0.45360568193707557,-0.021734350512178608,0.8757391094522425,0.0008132050475966967,-0.120313,-33.250991
11.185,2.0,1.0,1.0,33.6,33.7,33.7,3.8,2.9,2.6675,0.4449481754042008,-0.02214574196884447,0.8799245752857914,0.00060040863396139,-0.122238,-33.091004
11.185,2.0,1.0,1.0,33.6,33.7,33.7,3.8,2.9,2.67,0.4361837174238572,-0.02256588974985127,0.8840517127107107,0.0003778505515874566,-0.124215,-32.929733
11.185,2.0,1.0,1.0,33.6,33.7,33.7,3.8,2.9,2.6725,0.4273111400214928,-0.022995035145428864,0.8881184830739794,0.00014509470871580513,-0.126246,-32.767146
11.185,2.0,1.0,1.0,33.6,33.7,33.7,3.8,2.9,2.675,0.41832926614865523,-0.02343342810284279,0.8921227788374828,-9.831825525959726e-05,-0.128334,-32.603207
11.185,2.0,1.0,1.0,33.6,33.7,33.7,3.8,2.9,2.6775,0.40923690996387635,-0.023881327607545074,0.8960624208306639,-0.000352872484638291,-0.13048,-32.437883
11.185,2.0,1.0,1.0,33.6,33.7,33.7,3.8,2.9,2.68,0.40003287713593344,-0.024339002082655367,0.8999351553561411,-0.0006190785410360493,-0.132687,-32.271136
11.185,2.0,1.0,1.0,33.6,33.7,33.7,3.8,2.9,2.6825,0.39071596517068496,-0.0248067298074629,0.903738651137004,-0.0008974751667428817,-0.134959,-32.102929
11.185,2.0,1.0,1.0,33.6,33.7,33.7,3.8,2.9,2.685,0.3812849637627634,-0.025284799355600716,0.9074704960933797,-0.0011886311899369964,-0.137296,-31.933223
11.185,2.0,1.0,1.0,33.6,33.7,33.7,3.8,2.9,2.6875,0.371738655173548,-0.0257735100534971,0.91112819393455,-0.00149314758517895,-0.139702,-31.761977
11.185,2.0,1.0,1.0,33.6,33.7,33.7,3.8,2.9,2.69,0.3620758146369919,-0.02627317245962884,0.9147091605514768,-0.001811659704066918,-0.142181,-31.589149
11.185,2.0,1.0,1.0,33.6,33.7,33.7,3.8,2.9,2.6925,0.35229521079501586,-0.026784108865006415,0.918210720192975,-0.002144839692575088,-0.144735,-31.414695
11.185,2.0,1.0,1.0,33.6,33.7,33.7,3.8,2.9,2.695,0.3423956061644495,-0.027306653815182328,0.921630101406931,-0.002493399113436537,-0.147367,-31.23857
11.185,2.0,1.0,1.0,33.6,33.7,33.7,3.8,2.9,2.6975,0.3323757576376785,-0.027841154653903515,0.9249644327259441,-0.0028580917940071037,-0.150081,-31.060727
11.185,2.0,1.0,1.0,33.6,33.7,33.7,3.8,2.9,2.7,0.3222344170195315,-0.028387972088302352,0.9282107380744133,-0.0032397169223822306,-0.152881,-30.881115
11.185,2.0,1.0,1.0,33.6,33.7,33.7,3.8,2.9,2.7025,0.31197033160323395,-0.02894748077523629,0.9313659318715131,-0.0036391224171786187,-0.155771,-30.699685
11.185,2.0,1.0,1.0,33.6,33.7,33.7,3.8,2.9,2.705,0.3015822447887536,-0.029520069928024563,0.9344268138015007,-0.004057208599372827,-0.158755,-30.516382
11.185,2.0,1.0,1.0,33.6,33.7,33.7,3.8,2.9,2.7075,0.29106889674734554,-0.030106143942384964,0.93739006321947,-0.004494932197969923,-0.161838,-30.331151
11.185,2.0,1.0,1.0,33.6,33.7,33.7,3.8,2.9,2.71,0.2804290251367814,-0.030706123039801973,0.9402522331568265,-0.004953310725098767,-0.165024,-30.143933
11.185,2.0,1.0,1.0,33.6,33.7,33.7,3.8,2.9,2.7125,0.26966136587250067,-0.03132044392586607,0.9430097438864471,-0.005433427260485124,-0.168319,-29.95467
11.185,2.0,1.0,1.0,33.6,33.7,33.7,3.8,2.9,2.715,0.25876465396088355,-0.03194956046025474,0.9456588760025276,-0.005936435690196435,-0.171727,-29.763296
11.185,2.0,1.0,1.0,33.6,33.7,33.7,3.8,2.9,2.7175,0.24773762440198527,-0.032593944333953205,0.9481957629645072,-0.006463566450188862,-0.175256,-29.569747
11.185,2.0,1.0,1.0,33.6,33.7,33.7,3.8,2.9,2.72,0.23657901317048635,-0.03325408574799833,0.9506163830480115,-0.007016132831619833,-0.178911,-29.373953
11.185,2.0,1.0,1.0,33.6,33.7,33.7,3.8,2.9,2.7225,0.2252875582852821,-0.033930494086399296,0.9529165506384063,-0.007595537912239011,-0.1827,-29.175843
11.185,2.0,1.0,1.0,33.6,33.7,33.7,3.8,2.9,2.725,0.21386200098027516,-0.03462369857388687,0.9550919067941006,-0.00820328218658885,-0.186628,-28.975339
11.185,2.0,1.0,1.0,33.6,33.7,33.7,3.8,2.9,2.7275,0.20230108699139462,-0.03533424890668964,0.9571379089970697,-0.008840971977404431,-0.190705,-28.772365
11.185,2.0,1.0,1.0,33.6,33.7,33.7,3.8,2.9,2.73,0.19060356797805028,-0.03606271584150096,0.9590498199969011,-0.009510328721692902,-0.194938,-28.566835
11.185,2.0,1.0,1.0,33.6,33.7,33.7,3.8,2.9,2.7325,0.17876820310095884,-0.0368096917240861,0.9608226956418499,-0.010213199237748655,-0.199337,-28.358665
11.185,2.0,1.0,1.0,33.6,33.7,33.7,3.8,2.9,2.735,0.16679376078299174,-0.037575790934399014,0.9624513715755607,-0.010951567094088155,-0.203912,-28.147761
11.185,2.0,1.0,1.0,33.6,33.7,33.7,3.8,2.9,2.7375,0.15467902068536357,-0.038361650219445154,0.9639304486609814,-0.011727565218308792,-0.208672,-27.934029
11.185,2.0,1.0,1.0,33.6,33.7,33.7,3.8,2.9,2.74,0.14242277593854039,-0.03916792887818094,0.9652542769731443,-0.012543489903574519,-0.21363,-27.717368
11.185,2.0,1.0,1.0,33.6,33.7,33.7,3.8,2.9,2.7425,0.13002383567586098,-0.039995308754185645,0.9664169381794602,-0.01340181639328348,-0.218798,-27.497671
11.185,2.0,1.0,1.0,33.6,33.7,33.7,3.8,2.9,2.745,0.11748102792855314,-0.040844493981260256,0.9674122260993794,-0.014305216251023345,-0.22419,-27.274827
11.185,2.0,1.0,1.0,33.6,33.7,33.7,3.8,2.9,2.7475,0.10479320295398652,-0.04171621041404201,0.9682336252040681,-0.015256576753839183,-0.229819,-27.048717
11.185,2.0,1.0,1.0,33.6,33.7,33.7,3.8,2.9,2.75,0.0919592370853013,-0.042611204659519,0.968874286780323,-0.0162590225829056,-0.235703,-26.819219
11.185,2.0,1.0,1.0,33.6,33.7,33.7,3.8,2.9,2.7525,0.07897803721079247,-0.043530242605241264,0.9693270024403516,-0.017315940127863114,-0.241858,-26.586201
11.185,2.0,1.0,1.0,33.6,33.7,33.7,3.8,2.9,2.755,0.06584854601655456,-0.04447410731502523,0.9695841746091144,-0.018431004770459468,-0.248305,-26.349525
11.185,2.0,1.0,1.0,33.6,33.7,33.7,3.8,2.9,2.7575,0.052569748157179894,-0.045443596131823354,0.9696377835623262,-0.019608211571109566,-0.255063,-26.109044
11.185,2.0,1.0,1.0,33.6,33.7,33.7,3.8,2.9,2.76,0.03914067755846437,-0.04643951678853016,0.9694793505192497,-0.020851909850135842,-0.262156,-25.864604
11.185,2.0,1.0,1.0,33.6,33.7,33.7,3.8,2.9,2.7625,0.02556042610497462,-0.047462682278816185,0.9690998962131685,-0.022166842235770243,-0.269609,-25.61604
11.185,2.0,1.0,1.0,33.6,33.7,33.7,3.8,2.9,2.765,0.011828154026841824,-0.048513904178951406,0.9684898942664542,-0.023558188845791247,-0.27745,-25.363179
11.185,2.0,1.0,1.0,33.6,33.7,33.7,3.8,2.9,2.7675,-0.002056897622473737,-0.04959398403464089,0.9676392185836512,-0.025031617381782983,-0.285711,-25.105837
11.185,2.0,1.0,1.0,33.6,33.7,33.7,3.8,2.9,2.77,-0.01609539190799843,-0.05070370232974531,0.9665370838414865,-0.026593340047815883,-0.294425,-24.843816
11.185,2.0,1.0,1.0,33.6,33.7,33.7,3.8,2.9,2.7725,-0.030287877761365507,-0.05184380443072316,0.9651719779950969,-0.028250178362930978,-0.303631,-24.57691
11.185,2.0,1.0,1.0,33.6,33.7,33.7,3.8,2.9,2.775,-0.0446347677646463,-0.053014982744286614,0.9635315855300479,-0.030009637124057367,-0.313371,-24.304895
11.185,2.0,1.0,1.0,33.6,33.7,33.7,3.8,2.9,2.7775,-0.05913631099864882,-0.05421785412642957,0.9616026999639858,-0.031879988998748,-0.323693,-24.027537
11.185,2.0,1.0,1.0,33.6,33.7,33.7,3.8,2.9,2.78,-0.07379255972763192,-0.05545293132590997,0.9593711238329234,-0.03387037149235518,-0.334649,-23.744581
11.185,2.0,1.0,1.0,33.6,33.7,33.7,3.8,2.9,2.7825,-0.0886033283624368,-0.056720586917645,0.9568215540768298,-0.03599089835022276,-0.346299,-23.455761
11.185,2.0,1.0,1.0,33.6,33.7,33.7,3.8,2.9,2.785,-0.10356814271859519,-0.05802100775904802,0.9539374503575394,-0.03825278783186598,-0.35871,-23.160787
11.185,2.0,1.0,1.0,33.6,33.7,33.7,3.8,2.9,2.7875,-0.11868617703492157,-0.059354137455427815,0.9507008833875723,-0.04066851074210885,-0.371958,-22.859351
11.185,2.0,1.0,1.0,33.6,33.7,33.7,3.8,2.9,2.79,-0.13395617550169178,-0.060719603609555986,0.9470923598083401,-0.04325196163652495,-0.38613,-22.551125
11.185,2.0,1.0,1.0,33.6,33.7,33.7,3.8,2.9,2.7925,-0.14937635411176584,-0.0621166257021415,0.9430906195161043,-0.046018657249230904,-0.401322,-22.235755
11.185,2.0,1.0,1.0,33.6,33.7,33.7,3.8,2.9,2.795,-0.16494427742067566,-0.06354389823237697,0.9386724005790139,-0.04898596693473391,-0.417647,-21.91286
11.185,2.0,1.0,1.0,33.6,33.7,33.7,3.8,2.9,2.7975,-0.18065670318417923,-0.06499944214355319,0.9338121660044224,-0.05217338078587519,-0.435233,-21.582034
11.185,2.0,1.0,1.0,33.6,33.7,33.7,3.8,2.9,2.8,-0.19650938570060375,-0.06648041543545137,0.9284817855916766,-0.05560282209732591,-0.454226,-21.242838
11.185,2.0,1.0,1.0,33.6,33.7,33.7,3.8,2.9,2.8025,-0.21249682583715382,-0.06798287104153958,0.9226501649391785,-0.05929901199046807,-0.474796,-20.8948
11.185,2.0,1.0,1.0,33.6,33.7,33.7,3.8,2.9,2.805,-0.22861195191328246,-0.06950144627626907,0.9162828123802037,-0.06328989528601739,-0.497142,-20.537413
11.185,2.0,1.0,1.0,33.6,33.7,33.7,3.8,2.9,2.8075,-0.2448457105042619,-0.07102896309346142,0.9093413332455846,-0.06760713805894161,-0.521493,-20.170128
11.185,2.0,1.0,1.0,33.6,33.7,33.7,3.8,2.9,2.81,-0.26118653933633834,-0.07255591156794146,0.9017828394959,-0.07228670863302014,-0.548118,-19.792358
11.185,2.0,1.0,1.0,33.6,33.7,33.7,3.8,2.9,2.8125,-0.277619685110171,-0.0740697797648573,0.893559261633592,-0.0773695548676637,-0.577335,-19.403465
11.185,2.0,1.0,1.0,33.6,33.7,33.7,3.8,2.9,2.815,-0.2941263163964161,-0.07555418058899512,0.8846165492702542,-0.08290239108484067,-0.609519,-19.002765
11.185,2.0,1.0,1.0,33.6,33.7,33.7,3.8,2.9,2.8175,-0.3106823644312274,-0.07698770905863107,0.8748937474526858,-0.08893860721592159,-0.645116,-18.589523
11.185,2.0,1.0,1.0,33.6,33.7,33.7,3.8,2.9,2.82,-0.3272570009603819,-0.07834244000484315,0.8643219390053082,-0.09553930956164113,-0.684661,-18.162947
11.185,2.0,1.0,1.0,33.6,33.7,33.7,3.8,2.9,2.8225,-0.34381062986842825,-0.07958194411510486,0.8528230507257807,-0.10277449496687882,-0.728798,-17.722191
11.185,2.0,1.0,1.0,33.6,33.7,33.7,3.8,2.9,2.825,-0.36029222501021374,-0.08065865638479999,0.840308536684802,-0.11072434483078698,-0.778306,-17.266352
11.185,2.0,1.0,1.0,33.6,33.7,33.7,3.8,2.9,2.8275,-0.3766357863163576,-0.08151037134561495,0.8266779809090566,-0.11948059646828912,-0.834139,-16.794476
