1,w,sub_t,h,l1,l2,l3,g1,g2,Freq,S11_re,S21_re,S11_img,S21_img,S11_dB,S21_dB
11.185,2.0,1.0,1.0,33.0,34.7,34.7,4.1,2.2,2.5,0.898343281933669,-0.00562738415180079,0.425865731251631,0.00567165491391165,-0.050751,-41.949403
11.185,2.0,1.0,1.0,33.0,34.7,34.7,4.1,2.2,2.5025,0.8956941876208084,-0.00575888360165901,0.4312792179367544,0.005720942526377369,-0.051245,-41.811546
11.185,2.0,1.0,1.0,33.0,34.7,34.7,4.1,2.2,2.505,0.8930017047283506,-0.005893344152480457,0.4366956243404441,0.005770418221326766,-0.051749,-41.673044
11.185,2.0,1.0,1.0,33.0,34.7,34.7,4.1,2.2,2.5075,0.8902654019352972,-0.006030852918839002,0.44211483728213397,0.005820078362506658,-0.052263,-41.533877
11.185,2.0,1.0,1.0,33.0,34.7,34.7,4.1,2.2,2.51,0.8874848389436027,-0.00617150055546896,0.44753674012835687,0.005869918986675497,-0.052789,-41.394023
11.185,2.0,1.0,1.0,33.0,34.7,34.7,4.1,2.2,2.5125,0.8846595662024183,-0.006315381440520066,0.45296121266594824,0.005919935778186116,-0.053326,-41.253461
11.185,2.0,1.0,1.0,33.0,34.7,34.7,4.1,2.2,2.515,0.881789124619191,-0.006462593870295539,0.4583881309700626,0.0059701240414246496,-0.053874,-41.11217
11.185,2.0,1.0,1.0,33.0,34.7,34.7,4.1,2.2,2.5175,0.8788730452567496,-0.006613240266317181,0.4638173672666895,0.006020478670904771,-0.054434,-40.970126
11.185,2.0,1.0,1.0,33.0,34.7,34.7,4.1,2.2,2.52,0.8759108490154103,-0.00676742739563339,0.469248789789371,0.0060709941187956935,-0.055006,-40.827306
11.185,2.0,1.0,1.0,33.0,34.7,34.7,4.1,2.2,2.5225,0.8729020462990905,-0.00692526660536284,0.4746822626297491,0.006121664359639145,-0.055591,-40.683688
11.185,2.0,1.0,1.0,33.0,34.7,34.7,4.1,2.2,2.525,0.869846136664301,-0.007086874072553611,0.4801176455815935,0.006172482851984345,-0.056189,-40.539246
11.185,2.0,1.0,1.0,33.0,34.7,34.7,4.1,2.2,2.5275,0.8667426084508049,-0.007252371070530528,0.4855547939778893,0.00622344249664182,-0.056801,-40.393955
11.185,2.0,1.0,1.0,33.0,34.7,34.7,4.1,2.2,2.53,0.8635909383926346,-0.007421884253006541,0.4909935585205449,0.0062745355912239825,-0.057427,-40.247789
11.185,2.0,1.0,1.0,33.0,34.7,34.7,4.1,2.2,2.5325,0.8603905912080266,-0.007595545957348137,0.4964337851022381,0.006325753780604379,-0.058067,-40.100722
11.185,2.0,1.0,1.0,33.0,34.7,34.7,4.1,2.2,2.535,0.8571410191667174,-0.007773494528508926,0.5018753146198812,0.006377088002887505,-0.058723,-39.952726
11.185,2.0,1.0,1.0,33.0,34.7,34.7,4.1,2.2,2.5375,0.8538416616329068,-0.007955874665283007,0.5073179827791164,0.006428528430435212,-0.059394,-39.803773
11.185,2.0,1.0,1.0,33.0,34.7,34.7,4.1,2.2,2.54,0.850491944582032,-0.008142837790682084,0.5127616198892266,0.006480064405445386,-0.060081,-39.653834
11.185,2.0,1.0,1.0,33.0,34.7,34.7,4.1,2.2,2.5425,0.8470912800893333,-0.008334542448406663,0.5182060506477641,0.0065316843695205585,-0.060785,-39.502879
11.185,2.0,1.0,1.0,33.0,34.7,34.7,4.1,2.2,2.545,0.8436390657880016,-0.008531154727567311,0.5236510939141414,0.006583375786601017,-0.061507,-39.350876
11.185,2.0,1.0,1.0,33.0,34.7,34.7,4.1,2.2,2.5475,0.840134684294498,-0.008732848718015813,0.5290965624713424,0.0066351250585630775,-0.062246,-39.197794
11.185,2.0,1.0,1.0,33.0,34.7,34.7,4.1,2.2,2.55,0.8365775025983886,-0.008939806998873583,0.5345422627748484,0.006686917432702745,-0.063005,-39.043599
11.185,2.0,1.0,1.0,33.0,34.7,34.7,4.1,2.2,2.5525,0.832966871413811,-0.009152221163094198,0.5399879946877396,0.006738736900231822,-0.063783,-38.888258
11.185,2.0,1.0,1.0,33.0,34.7,34.7,4.1,2.2,2.555,0.8293021244893787,-0.00937029238117745,0.5454335512008659,0.006790566084809036,-0.064581,-38.731735
11.185,2.0,1.0,1.0,33.0,34.7,34.7,4.1,2.2,2.5575,0.8255825778730318,-0.009594232007460218,0.5508787181368314,0.006842386120012012,-0.0654,-38.573993
11.185,2.0,1.0,1.0,33.0,34.7,34.7,4.1,2.2,2.56,0.8218075291279948,-0.00982426223275492,0.5563232738363999,0.006894176514519392,-0.066241,-38.414994
11.185,2.0,1.0,1.0,33.0,34.7,34.7,4.1,2.2,2.5625,0.81797625649561,-0.010060616787489499,0.5617669888257866,0.006945915003623011,-0.067105,-38.2547
11.185,2.0,1.0,1.0,33.0,34.7,34.7,4.1,2.2,2.565,0.8140880180003723,-0.010303541699930878,0.5672096254631126,0.006997577385514722,-0.067993,-38.093068
11.185,2.0,1.0,1.0,33.0,34.7,34.7,4.1,2.2,2.5675,0.8101420504920361,-0.010553296114550739,0.5726509375620934,0.0070491373405971135,-0.068905,-37.930058
11.185,2.0,1.0,1.0,33.0,34.7,34.7,4.1,2.2,2.57,0.8061375686190912,-0.010810153176127841,0.5780906699908188,0.007100566231841555,-0.069843,-37.765626
11.185,2.0,1.0,1.0,33.0,34.7,34.7,4.1,2.2,2.5725,0.8020737637273234,-0.011074400985777074,0.583528558243204,0.007151832883961208,-0.070809,-37.599725
11.185,2.0,1.0,1.0,33.0,34.7,34.7,4.1,2.2,2.575,0.7979498026764879,-0.011346343635767121,0.588964327980406,0.0072029033388723625,-0.071802,-37.43231
11.185,2.0,1.0,1.0,33.0,34.7,34.7,4.1,2.2,2.5775,0.7937648265673686,-0.011626302330739373,0.5943976945391497,0.007253740584581757,-0.072825,-37.26333
11.185,2.0,1.0,1.0,33.0,34.7,34.7,4.1,2.2,2.58,0.7895179493706378,-0.011914616603787129,0.5998283624035171,0.007304304254250729,-0.073879,-37.092734
11.185,2.0,1.0,1.0,33.0,34.7,34.7,4.1,2.2,2.5825,0.7852082564479673,-0.012211645636805683,0.6052560246363208,0.007354550291743605,-0.074965,-36.92047
11.185,2.0,1.0,1.0,33.0,34.7,34.7,4.1,2.2,2.585,0.7808348029547617,-0.0125177696955962,0.6106803622656389,0.007404430579456223,-0.076084,-36.746483
11.185,2.0,1.0,1.0,33.0,34.7,34.7,4.1,2.2,2.5875,0.7763966121126573,-0.012833391691419085,0.6161010436215285,0.007453892523630492,-0.077239,-36.570714
11.185,2.0,1.0,1.0,33.0,34.7,34.7,4.1,2.2,2.59,0.7718926733385498,-0.013158938882060928,0.6215177236172112,0.007502878591678602,-0.078431,-36.393103
11.185,2.0,1.0,1.0,33.0,34.7,34.7,4.1,2.2,2.5925,0.7673219402153346,-0.013494864727032221,0.6269300429682734,0.0075513257952510475,-0.079663,-36.213589
11.185,2.0,1.0,1.0,33.0,34.7,34.7,4.1,2.2,2.595,0.7626833282877874,-0.01384165091327157,0.6323376273424564,0.0075991651118650265,-0.080934,-36.032105
11.185,2.0,1.0,1.0,33.0,34.7,34.7,4.1,2.2,2.5975,0.7579757126649598,-0.014199809569734777,0.6377400864315912,0.00764632083684463,-0.082249,-35.848583
11.185,2.0,1.0,1.0,33.0,34.7,34.7,4.1,2.2,2.6,0.7531979254081953,-0.014569885691521069,0.6431370129359546,0.007692709856080827,-0.08361,-35.662952
11.185,2.0,1.0,1.0,33.0,34.7,34.7,4.1,2.2,2.6025,0.7483487526812345,-0.014952459796786412,0.6485279814498763,0.007738240828669246,-0.085017,-35.475137
11.185,2.0,1.0,1.0,33.0,34.7,34.7,4.1,2.2,2.605,0.7434269316358748,-0.015348150842659272,0.6539125472357494,0.007782813266785576,-0.086475,-35.28506
11.185,2.0,1.0,1.0,33.0,34.7,34.7,4.1,2.2,2.6075,0.7384311470032444,-0.015757619429765755,0.6592902448715786,0.007826316498166142,-0.087987,-35.092639
11.185,2.0,1.0,1.0,33.0,34.7,34.7,4.1,2.2,2.61,0.7333600273568006,-0.01618157132886284,0.6646605867548767,0.007868628494220082,-0.089554,-34.897787
11.185,2.0,1.0,1.0,33.0,34.7,34.7,4.1,2.2,2.6125,0.7282121410086644,-0.016620761367545787,0.6700230614429603,0.007909614544038556,-0.09118,-34.700416
11.185,2.0,1.0,1.0,33.0,34.7,34.7,4.1,2.2,2.615,0.722985991495692,-0.017075997720139,0.6753771318064419,0.007949125751305106,-0.09287,-34.50043
11.185,2.0,1.0,1.0,33.0,34.7,34.7,4.1,2.2,2.6175,0.7176800126057228,-0.017548146649808517,0.6807222329688525,0.007986997327248026,-0.094625,-34.297729
11.185,2.0,1.0,1.0,33.0,34.7,34.7,4.1,2.2,2.62,0.7122925628874945,-0.018038137758788417,0.6860577700007555,0.008023046648185914,-0.096452,-34.092209
11.185,2.0,1.0,1.0,33.0,34.7,34.7,4.1,2.2,2.6225,0.7068219195797186,-0.018546969810546828,0.6913831153312695,0.008057071040752088,-0.098353,-33.88376
11.185,2.0,1.0,1.0,33.0,34.7,34.7,4.1,2.2,2.625,0.701266271885517,-0.0190757171969241,0.696697605833377,0.00808884525135558,-0.100335,-33.672266
11.185,2.0,1.0,1.0,33.0,34.7,34.7,4.1,2.2,2.6275,0.6956237135075902,-0.019625537133984725,0.7020005395316462,0.008118118548615291,-0.102401,-33.457603
11.185,2.0,1.0,1.0,33.0,34.7,34.7,4.1,2.2,2.63,0.689892234346903,-0.020197677682800848,0.7072911718715709,0.008144611398108303,-0.104558,-33.239644
11.185,2.0,1.0,1.0,33.0,34.7,34.7,4.1,2.2,2.6325,0.6840697112529449,-0.02079348670596481,0.7125687114784817,0.008168011637447412,-0.106812,-33.01825
11.185,2.0,1.0,1.0,33.0,34.7,34.7,4.1,2.2,2.635,0.6781538976963876,-0.021414421887692107,0.7178323153203028,0.008187970066008231,-0.10917,-32.793279
11.185,2.0,1.0,1.0,33.0,34.7,34.7,4.1,2.2,2.6375,0.6721424122147435,-0.022062061965405787,0.7230810831718697,0.008204095347009879,-0.111639,-32.564575
11.185,2.0,1.0,1.0,33.0,34.7,34.7,4.1,2.2,2.64,0.6660327254578167,-0.022738119344253075,0.7283140512583626,0.008215948099424683,-0.114228,-32.331977
11.185,2.0,1.0,1.0,33.0,34.7,34.7,4.1,2.2,2.6425,0.6598221456316986,-0.023444454293781395,0.7335301849307365,0.008223034032472144,-0.116945,-32.095314
11.185,2.0,1.0,1.0,33.0,34.7,34.7,4.1,2.2,2.645,0.6535078021068825,-0.024183090958837646,0.7387283701958204,0.008224795945137881,-0.1198,-31.8544
11.185,2.0,1.0,1.0,33.0,34.7,34.7,4.1,2.2,2.6475,0.6470866269167744,-0.024956235455655167,0.7439074038865147,0.008220604375830614,-0.122804,-31.609042
11.185,2.0,1.0,1.0,33.0,34.7,34.7,4.1,2.2,2.65,0.6405553338261735,-0.025766296370300007,0.7490659822115088,0.008209746641148943,-0.12597,-31.359033
11.185,2.0,1.0,1.0,33.0,34.7,34.7,4.1,2.2,2.6525,0.6339103945937455,-0.026615908031654065,0.7542026873667633,0.008191413945451587,-0.12931,-31.104149
11.185,2.0,1.0,1.0,33.0,34.7,34.7,4.1,2.2,2.655,0.6271480119861036,-0.027507956996765694,0.7593159718198006,0.00816468617151268,-0.132841,-30.844156
11.185,2.0,1.0,1.0,33.0,34.7,34.7,4.1,2.2,2.6575,0.6202640890217629,-0.028445612264918527,0.7644041397885559,0.008128513873109805,-0.136577,-30.5788
11.185,2.0,1.0,1.0,33.0,34.7,34.7,4.1,2.2,2.66,0.6132541938280303,-0.029432359830906744,0.7694653253242495,0.008081696877862496,-0.140539,-30.307809
11.185,2.0,1.0,1.0,33.0,34.7,34.7,4.1,2.2,2.6625,0.6061135193795023,-0.030472042301084058,0.7744974662656852,0.008022858766352866,-0.144748,-30.030894
11.185,2.0,1.0,1.0,33.0,34.7,34.7,4.1,2.2,2.665,0.5988368372491124,-0.0315689044318558,0.7794982731518578,0.007950416312741937,-0.149226,-29.747741
11.185,2.0,1.0,1.0,33.0,34.7,34.7,4.1,2.2,2.6675,0.5914184443366315,-0.03272764561433891,0.7844651919490228,0.007862542741087815,-0.154,-29.458014
11.185,2.0,1.0,1.0,33.0,34.7,34.7,4.1,2.2,2.67,0.5838521013389205,-0.033953480526933144,0.7893953591519786,0.007757123354820858,-0.159102,-29.16135
11.185,2.0,1.0,1.0,33.0,34.7,34.7,4.1,2.2,2.6725,0.5761309614839308,-0.03525220941670511,0.7942855474362587,0.0076317017134389835,-0.164565,-28.857357
11.185,2.0,1.0,1.0,33.0,34.7,34.7,4.1,2.2,2.675,0.5682474877575086,-0.03663029975934671,0.7991320995399368,0.0074834140321934604,-0.170429,-28.545611
11.185,2.0,1.0,1.0,33.0,34.7,34.7,4.1,2.2,2.6775,0.5601933564983462,-0.0380949813960173,0.8039308474023896,0.007308908828875668,-0.176738,-28.225652
11.185,2.0,1.0,1.0,33.0,34.7,34.7,4.1,2.2,2.68,0.5519593448101988,-0.039654357664950145,0.8086770127297173,0.007104247984059974,-0.183546,-27.89698
11.185,2.0,1.0,1.0,33.0,34.7,34.7,4.1,2.2,2.6825,0.5435351987290172,-0.041317535548587435,0.8133650840197676,0.006864784244502245,-0.190911,-27.55905
11.185,2.0,1.0,1.0,33.0,34.7,34.7,4.1,2.2,2.685,0.5349094784730305,-0.043094778455406026,0.8179886635623598,0.006585008682583357,-0.198904,-27.21127
11.185,2.0,1.0,1.0,33.0,34.7,34.7,4.1,2.2,2.6875,0.5260693763853717,-0.044997685959385754,0.8225402758901186,0.0062583595858178714,-0.207606,-26.85299
11.185,2.0,1.0,1.0,33.0,34.7,34.7,4.1,2.2,2.69,0.5170005023470705,-0.047039405632472844,0.8270111263914612,0.005876981489105221,-0.217113,-26.483497
11.185,2.0,1.0,1.0,33.0,34.7,34.7,4.1,2.2,2.6925,0.5076866305031922,-0.04923488301467593,0.8313907950236014,0.005431419293313531,-0.227538,-26.102008
11.185,2.0,1.0,1.0,33.0,34.7,34.7,4.1,2.2,2.695,0.4981094001463142,-0.05160115673062346,0.8356668448694203,0.004910227227699205,-0.239014,-25.707663
11.185,2.0,1.0,1.0,33.0,34.7,34.7,4.1,2.2,2.6975,0.48824796263603243,-0.05415770668043961,0.8398243180738939,0.004299465218807857,-0.251702,-25.299509
11.185,2.0,1.0,1.0,33.0,34.7,34.7,4.1,2.2,2.7,0.47807856550549754,-0.056926863897588734,0.8438450816079662,0.003582045162796369,-0.265795,-24.876493
11.185,2.0,1.0,1.0,33.0,34.7,34.7,4.1,2.2,2.7025,0.46757406481951636,-0.059934290666815764,0.8477069710699731,0.002736875396657781,-0.281526,-24.437446
11.185,2.0,1.0,1.0,33.0,34.7,34.7,4.1,2.2,2.705,0.45670335817389596,-0.0632095380522203,0.8513826604704735,0.0017377314592349582,-0.299181,-23.981067
11.185,2.0,1.0,1.0,33.0,34.7,34.7,4.1,2.2,2.7075,0.4454307349054025,-0.06678668364311047,0.8548381568705983,0.0005517522550511452,-0.31911,-23.505906
11.185,2.0,1.0,1.0,33.0,34.7,34.7,4.1,2.2,2.71,0.43371514979790876,-0.07070504238415379,0.8580307767124835,-0.0008625811361052074,-0.34175,-23.010346
11.185,2.0,1.0,1.0,33.0,34.7,34.7,4.1,2.2,2.7125,0.4215094467963634,-0.07500992281927739,0.8609063995356973,-0.002558187638178899,-0.367648,-22.492577
11.185,2.0,1.0,1.0,33.0,34.7,34.7,4.1,2.2,2.715,0.40875959921800026,-0.0797533606732234,0.8633957054401002,-0.004603141867735544,-0.397497,-21.950577
11.185,2.0,1.0,1.0,33.0,34.7,34.7,4.1,2.2,2.7175,0.39540410993245806,-0.0849946841315433,0.8654089720240176,-0.0070858657341869875,-0.432185,-21.382084
11.185,2.0,1.0,1.0,33.0,34.7,34.7,4.1,2.2,2.72,0.3813738613735097,-0.09080061802237072,0.8668288164743676,-0.010122367128521683,-0.472859,-20.784584
11.185,2.0,1.0,1.0,33.0,34.7,34.7,4.1,2.2,2.7225,0.3665929822774769,-0.09724435611827689,0.8674999963411664,-0.013866406833655205,-0.521025,-20.155293
11.185,2.0,1.0,1.0,33.0,34.7,34.7,4.1,2.2,2.725,0.3509818219301118,-0.10440250586255229,0.8672150070141715,-0.0185238465217736,-0.578678,-19.491172
11.185,2.0,1.0,1.0,33.0,34.7,34.7,4.1,2.2,2.7275,0.33446411393136166,-0.11234781792350802,0.8656937381049454,-0.024372899943174063,-0.648496,-18.788977
11.185,2.0,1.0,1.0,33.0,34.7,34.7,4.1,2.2,2.73,0.3169822841417847,-0.12113374127185797,0.8625549738044317,-0.031792475107904304,-0.734112,-18.045392
11.185,2.0,1.0,1.0,33.0,34.7,34.7,4.1,2.2,2.7325,0.2985283656323817,-0.1307633422507587,0.8572774424801726,-0.04130085537371061,-0.840497,-17.25731
11.185,2.0,1.0,1.0,33.0,34.7,34.7,4.1,2.2,2.735,0.27920439707937206,-0.1411287319105001,0.8491496838069246,-0.053605371459344256,-0.974476,-16.422394
11.185,2.0,1.0,1.0,33.0,34.7,34.7,4.1,2.2,2.7375,0.2593372174322608,-0.15189616295990666,0.8372146790121062,-0.06965698852948556,-1.145346,-15.54014
11.185,2.0,1.0,1.0,33.0,34.7,34.7,4.1,2.2,2.74,0.23968881239617582,-0.16229584933840221,0.8202357877183725,-0.09068307282556981,-1.365359,-14.61384
11.185,2.0,1.0,1.0,33.0,34.7,34.7,4.1,2.2,2.7425,0.22181663345736954,-0.17076260632409984,0.7967644687162504,-0.11811765471108916,-1.649209,-13.654054
11.185,2.0,1.0,1.0,33.0,34.7,34.7,4.1,2.2,2.745,0.20860569824711545,-0.1744066434680522,0.765507951784181,-0.1532310920689759,-2.009913,-12.684318
11.185,2.0,1.0,1.0,33.0,34.7,34.7,4.1,2.2,2.7475,0.20477973487106393,-0.16850925767916763,0.7263696330259284,-0.1960877262567655,-2.4447,-11.749261
11.185,2.0,1.0,1.0,33.0,34.7,34.7,4.1,2.2,2.75,0.2165652990481,-0.146871160960578,0.682494929305801,-0.243503816316656,-2.901368,-10.922381
11.185,2.0,1.0,1.0,33.0,34.7,34.7,4.1,2.2,2.7525,0.24885994608746229,-0.10465703297131894,0.6424825478916202,-0.2868559831012783,-3.23567,-10.304003
11.185,2.0,1.0,1.0,33.0,34.7,34.7,4.1,2.2,2.755,0.29956997669928065,-0.04404706621719798,0.619162624474842,-0.3133415981486741,-3.250429,-9.994657
11.185,2.0,1.0,1.0,33.0,34.7,34.7,4.1,2.2,2.7575,0.3566371379523286,0.022847733949196012,0.6218441593465914,-0.3137506092063344,-2.891381,-10.045339
11.185,2.0,1.0,1.0,33.0,34.7,34.7,4.1,2.2,2.76,0.4046600897852651,0.08066487330101856,0.6485867650460069,-0.2901387506895791,-2.33279,-10.424534
11.185,2.0,1.0,1.0,33.0,34.7,34.7,4.1,2.2,2.7625,0.4350011398100837,0.12086974779424275,0.688741776120209,-0.25320430083203094,-1.780994,-11.039044
11.185,2.0,1.0,1.0,33.0,34.7,34.7,4.1,2.2,2.765,0.4478657173770902,0.14375840997090142,0.7315971345440652,-0.21363351712581152,-1.332296,-11.784487
11.185,2.0,1.0,1.0,33.0,34.7,34.7,4.1,2.2,2.7675,0.44777024300410795,0.1538910747158464,0.7709481112107398,-0.17757640694801297,-0.997098,-12.579363
11.185,2.0,1.0,1.0,33.0,34.7,34.7,4.1,2.2,2.77,0.4394733250230268,0.1560349625377624,0.8046151641363588,-0.14716451933126576,-0.754404,-13.372015
11.185,2.0,1.0,1.0,33.0,34.7,34.7,4.1,2.2,2.7725,0.42647877221037017,0.153687376875724,0.8325701059126571,-0.12239408001400105,-0.579636,-14.134113
11.185,2.0,1.0,1.0,33.0,34.7,34.7,4.1,2.2,2.775,0.4110037849441871,0.14905591551543154,0.8555890673308768,-0.10246992451655677,-0.452961,-14.852166
11.185,2.0,1.0,1.0,33.0,34.7,34.7,4.1,2.2,2.7775,0.39434687093226,0.14343108997242626,0.8745982569454035,-0.08645472256465163,-0.360085,-15.521152
11.185,2.0,1.0,1.0,33.0,34.7,34.7,4.1,2.2,2.78,0.377232765028506,0.1375323521096014,0.8904286479984646,-0.07351060769872936,-0.291105,-16.14055
11.185,2.0,1.0,1.0,33.0,34.7,34.7,4.1,2.2,2.7825,0.3600488325901528,0.131744312592151,0.9037543911015082,-0.0629585738448826,-0.23922,-16.712058
11.185,2.0,1.0,1.0,33.0,34.7,34.7,4.1,2.2,2.785,0.34298992120159505,0.12626110236435442,0.9150996983076376,-0.05427039847528307,-0.199741,-17.238338
11.185,2.0,1.0,1.0,33.0,34.7,34.7,4.1,2.2,2.7875,0.3261429999798676,0.12117055150220177,0.924865168681789,-0.04704169359064237,-0.169401,-17.722361
11.185,2.0,1.0,1.0,33.0,34.7,34.7,4.1,2.2,2.79,0.30953561541789115,0.11650229532476501,0.9333553541374042,-0.04096401934599038,-0.145895,-18.167064
11.185,2.0,1.0,1.0,33.0,34.7,34.7,4.1,2.2,2.7925,0.2931633888476197,0.11225503074986135,0.9408020224655699,-0.03580145543577029,-0.12757,-18.575187
11.185,2.0,1.0,1.0,33.0,34.7,34.7,4.1,2.2,2.795,0.27700553992362903,0.10841188525936132,0.9473822726267414,-0.03137239666469291,-0.113228,-18.949204
11.185,2.0,1.0,1.0,33.0,34.7,34.7,4.1,2.2,2.7975,0.2610335907190232,0.1049490312422212,0.9532321572209871,-0.027535876821029356,-0.101988,-19.291304
11.185,2.0,1.0,1.0,33.0,34.7,34.7,4.1,2.2,2.8,0.24521618118065522,0.10184045975305044,0.958456776321432,-0.02418143527466273,-0.093192,-19.603392
11.185,2.0,1.0,1.0,33.0,34.7,34.7,4.1,2.2,2.8025,0.2295216622943169,0.09906056855779179,0.9631377223420436,-0.0212216352487959,-0.086346,-19.887107
11.185,2.0,1.0,1.0,33.0,34.7,34.7,4.1,2.2,2.805,0.21391941818424687,0.09658550840478006,0.9673385754353914,-0.018586527910402318,-0.081073,-20.143841
11.185,2.0,1.0,1.0,33.0,34.7,34.7,4.1,2.2,2.8075,0.19838046286704683,0.0943938290926039,0.9711089745042372,-0.016219533249161696,-0.077084,-20.374759
11.185,2.0,1.0,1.0,33.0,34.7,34.7,4.1,2.2,2.81,0.18287762596973872,0.09246673783830191,0.9744876476156148,-0.014074351034749612,-0.074154,-20.58082
11.185,2.0,1.0,1.0,33.0,34.7,34.7,4.1,2.2,2.8125,0.167385508587507,0.0907881511385249,0.977504678973671,-0.0121126220258622,-0.072109,-20.762792
11.185,2.0,1.0,1.0,33.0,34.7,34.7,4.1,2.2,2.815,0.15188031318768633,0.08934464557966589,0.9801832116838941,-0.010302137303312725,-0.070814,-20.921267
11.185,2.0,1.0,1.0,33.0,34.7,34.7,4.1,2.2,2.8175,0.13633960620528282,0.08812536921348478,0.9825407293799253,-0.008615449189632451,-0.07016,-21.05667
11.185,2.0,1.0,1.0,33.0,34.7,34.7,4.1,2.2,2.82,0.12074204518171652,0.08712194978174526,0.9845900194427121,-0.007028776673242691,-0.070066,-21.169272
11.185,2.0,1.0,1.0,33.0,34.7,34.7,4.1,2.2,2.8225,0.10506708620360199,0.08632842161381353,0.9863398914467106,-0.0055211261185515465,-0.070466,-21.259197
11.185,2.0,1.0,1.0,33.0,34.7,34.7,4.1,2.2,2.825,0.0892946774845204,0.08574118505779547,0.9877957032525992,-0.004073567596281795,-0.071312,-21.326418
11.185,2.0,1.0,1.0,33.0,34.7,34.7,4.1,2.2,2.8275,0.07340493852589655,0.08535900832691601,0.9889597313916512,-0.002668620709396977,-0.072567,-21.37077
11.185,2.0,1.0,1.0,33.0,34.7,34.7,4.1,2.2,2.83,0.057377819766525534,0.08518308022574976,0.9898314102782322,-0.0012897128828377508,-0.074207,-21.391938
