1,w,sub_t,h,l1,l2,l3,g1,g2,Freq,S11_re,S21_re,S11_img,S21_img,S11_dB,S21_dB
11.185,2.0,1.0,1.0,33.7,33.0,33.0,4.2,3.6,2.5,0.827263747748897,-0.00524623636877614,0.551317309543884,0.00295072719009974,-0.051041,-44.409342
11.185,2.0,1.0,1.0,33.7,33.0,33.0,4.2,3.6,2.5025,0.823477834172552,-0.005337372816905865,0.5568671262350877,0.002946315820084115,-0.051478,-44.29827
11.185,2.0,1.0,1.0,33.7,33.0,33.0,4.2,3.6,2.505,0.8196383477232323,-0.005429778928152856,0.5624134208745473,0.002941060952020437,-0.051921,-44.187066
11.185,2.0,1.0,1.0,33.7,33.0,33.0,4.2,3.6,2.5075,0.8157447930214404,-0.005523471696173387,0.5679558957043009,0.0029349375546902437,-0.052371,-44.075723
11.185,2.0,1.0,1.0,33.7,33.0,33.0,4.2,3.6,2.51,0.8117966680085417,-0.005618468336481833,0.5734942446372461,0.002927919878955448,-0.052828,-43.964237
11.185,2.0,1.0,1.0,33.7,33.0,33.0,4.2,3.6,2.5125,0.8077934638832434,-0.005714786287260436,0.5790281530125798,0.002919981435363006,-0.053293,-43.852602
11.185,2.0,1.0,1.0,33.7,33.0,33.0,4.2,3.6,2.515,0.803734665039153,-0.005812443210016053,0.5845572973442736,0.0029110949709970526,-0.053764,-43.740811
11.185,2.0,1.0,1.0,33.7,33.0,33.0,4.2,3.6,2.5175,0.7996197490035398,-0.005911456990072533,0.5900813450623638,0.0029012324455519414,-0.054243,-43.62886
11.185,2.0,1.0,1.0,33.7,33.0,33.0,4.2,3.6,2.52,0.7954481863774164,-0.00601184573688629,0.5955999542468816,0.0028903650065973197,-0.05473,-43.516742
11.185,2.0,1.0,1.0,33.7,33.0,33.0,4.2,3.6,2.5225,0.7912194407770874,-0.006113627784171916,0.6011127733541874,0.002878462964006534,-0.055224,-43.404451
11.185,2.0,1.0,1.0,33.7,33.0,33.0,4.2,3.6,2.525,0.7869329687772928,-0.006216821689824178,0.60661944093552,0.0028654957635173613,-0.055726,-43.291983
11.185,2.0,1.0,1.0,33.7,33.0,33.0,4.2,3.6,2.5275,0.7825882198560976,-0.006321446235621764,0.6121195853475337,0.0028514319593937625,-0.056236,-43.179331
11.185,2.0,1.0,1.0,33.7,33.0,33.0,4.2,3.6,2.53,0.7781846363416899,-0.006427520426697062,0.6176128244545985,0.0028362391861553823,-0.056754,-43.066489
11.185,2.0,1.0,1.0,33.7,33.0,33.0,4.2,3.6,2.5325,0.7737216533612457,-0.006535063490755918,0.6230987653226355,0.0028198841293409285,-0.057281,-42.953451
11.185,2.0,1.0,1.0,33.7,33.0,33.0,4.2,3.6,2.535,0.769198698792037,-0.00664409487702991,0.628577003904262,0.002802332495269427,-0.057816,-42.840212
11.185,2.0,1.0,1.0,33.7,33.0,33.0,4.2,3.6,2.5375,0.7646151932149694,-0.006754634254942635,0.6340471247149881,0.0027835489797624897,-0.058359,-42.726765
11.185,2.0,1.0,1.0,33.7,33.0,33.0,4.2,3.6,2.54,0.7599705498707388,-0.006866701512470911,0.6395087005002354,0.002763497235789213,-0.058912,-42.613105
11.185,2.0,1.0,1.0,33.7,33.0,33.0,4.2,3.6,2.5425,0.7552641746188116,-0.006980316754180249,0.64496129189292,0.0027421398399931803,-0.059474,-42.499226
11.185,2.0,1.0,1.0,33.7,33.0,33.0,4.2,3.6,2.545,0.7504954658994446,-0.007095500298912881,0.6504044470613402,0.0027194382580603186,-0.060044,-42.385122
11.185,2.0,1.0,1.0,33.7,33.0,33.0,4.2,3.6,2.5475,0.7456638146989747,-0.007212272677105365,0.6558377013471043,0.0026953528088838855,-0.060625,-42.270786
11.185,2.0,1.0,1.0,33.7,33.0,33.0,4.2,3.6,2.55,0.7407686045186013,-0.007330654627711817,0.6612605768928377,0.002669842627481391,-0.061215,-42.156213
11.185,2.0,1.0,1.0,33.7,33.0,33.0,4.2,3.6,2.5525,0.735809211346937,-0.007450667094706566,0.6666725822593756,0.00264286562661662,-0.061814,-42.041396
11.185,2.0,1.0,1.0,33.7,33.0,33.0,4.2,3.6,2.555,0.7307850036365664,-0.007572331223139671,0.6720732120321765,0.002614378457077434,-0.062424,-41.926329
11.185,2.0,1.0,1.0,33.7,33.0,33.0,4.2,3.6,2.5575,0.7256953422849027,-0.007695668354716345,0.6774619464166606,0.002584336466558496,-0.063044,-41.811007
11.185,2.0,1.0,1.0,33.7,33.0,33.0,4.2,3.6,2.56,0.7205395806196333,-0.007820700022869982,0.6828382508221755,0.002552693657095665,-0.063674,-41.695423
11.185,2.0,1.0,1.0,33.7,33.0,33.0,4.2,3.6,2.5625,0.7153170643890584,-0.0079474479472968,0.688201575434291,0.002519402640996669,-0.064316,-41.57957
11.185,2.0,1.0,1.0,33.7,33.0,33.0,4.2,3.6,2.565,0.7100271317576439,-0.00807593402791828,0.6935513547751191,0.002484414595210248,-0.064968,-41.463442
11.185,2.0,1.0,1.0,33.7,33.0,33.0,4.2,3.6,2.5675,0.7046691133071369,-0.008206180338235317,0.6988870072513368,0.0024476792140736,-0.065631,-41.347033
11.185,2.0,1.0,1.0,33.7,33.0,33.0,4.2,3.6,2.57,0.6992423320435871,-0.008338209118036604,0.7042079346895975,0.0024091446603752586,-0.066305,-41.230337
11.185,2.0,1.0,1.0,33.7,33.0,33.0,4.2,3.6,2.5725,0.6937461034106585,-0.008472042765420818,0.7095135218590073,0.002368757514668043,-0.066991,-41.113347
11.185,2.0,1.0,1.0,33.7,33.0,33.0,4.2,3.6,2.575,0.6881797353096175,-0.008607703828090696,0.7148031359803263,0.0023264627227635422,-0.067689,-40.996056
11.185,2.0,1.0,1.0,33.7,33.0,33.0,4.2,3.6,2.5775,0.6825425281264168,-0.008745214993873892,0.7200761262215627,0.0022822035413371062,-0.068399,-40.878458
11.185,2.0,1.0,1.0,33.7,33.0,33.0,4.2,3.6,2.58,0.6768337747663064,-0.008884599080423362,0.7253318231796082,0.0022359214815687164,-0.069121,-40.760546
11.185,2.0,1.0,1.0,33.7,33.0,33.0,4.2,3.6,2.5825,0.6710527606964223,-0.009025879024047612,0.7305695383475732,0.002187556250742086,-0.069856,-40.642314
11.185,2.0,1.0,1.0,33.7,33.0,33.0,4.2,3.6,2.585,0.6651987639968393,-0.009169077867617415,0.7357885635674536,0.0021370456917208704,-0.070604,-40.523754
11.185,2.0,1.0,1.0,33.7,33.0,33.0,4.2,3.6,2.5875,0.6592710554205786,-0.009314218747493467,0.7409881704677804,0.0020843257202171617,-0.071365,-40.40486
11.185,2.0,1.0,1.0,33.7,33.0,33.0,4.2,3.6,2.59,0.653268898463106,-0.009461324879415542,0.7461676098858703,0.00202933025976371,-0.07214,-40.285625
11.185,2.0,1.0,1.0,33.7,33.0,33.0,4.2,3.6,2.5925,0.6471915494418633,-0.009610419543291102,0.7513261112743159,0.001971991174297166,-0.072928,-40.166042
11.185,2.0,1.0,1.0,33.7,33.0,33.0,4.2,3.6,2.595,0.6410382575864225,-0.009761526066816422,0.7564628820913233,0.0019122381982556213,-0.073731,-40.046103
11.185,2.0,1.0,1.0,33.7,33.0,33.0,4.2,3.6,2.5975,0.6348082651398557,-0.009914667807861086,0.7615771071745293,0.0018499988640889936,-0.074548,-39.925803
11.185,2.0,1.0,1.0,33.7,33.0,33.0,4.2,3.6,2.6,0.6285008074719626,-0.010069868135541532,0.7666679480979012,0.0017851984270762524,-0.075379,-39.805133
11.185,2.0,1.0,1.0,33.7,33.0,33.0,4.2,3.6,2.6025,0.6221151132050282,-0.010227150409905105,0.7717345425113197,0.001717759787338612,-0.076226,-39.684085
11.185,2.0,1.0,1.0,33.7,33.0,33.0,4.2,3.6,2.605,0.6156504043527945,-0.010386537960142326,0.7767760034624656,0.0016476034089322005,-0.077088,-39.562654
11.185,2.0,1.0,1.0,33.7,33.0,33.0,4.2,3.6,2.6075,0.6091058964733884,-0.010548054061239329,0.7817914187005943,0.0015746472358986882,-0.077966,-39.440831
11.185,2.0,1.0,1.0,33.7,33.0,33.0,4.2,3.6,2.61,0.6024807988369705,-0.01071172190897786,0.7867798499617987,0.0014988066051460796,-0.07886,-39.318609
11.185,2.0,1.0,1.0,33.7,33.0,33.0,4.2,3.6,2.6125,0.5957743146089012,-0.010877564593184666,0.7917403322353567,0.0014199941560258458,-0.079771,-39.19598
11.185,2.0,1.0,1.0,33.7,33.0,33.0,4.2,3.6,2.615,0.5889856410492665,-0.01104560506912644,0.7966718730107535,0.0013381197364660468,-0.080698,-39.072935
11.185,2.0,1.0,1.0,33.7,33.0,33.0,4.2,3.6,2.6175,0.5821139697296444,-0.011215866126940146,0.8015734515049628,0.0012530903055130022,-0.081643,-38.949469
11.185,2.0,1.0,1.0,33.7,33.0,33.0,4.2,3.6,2.62,0.5751584867680316,-0.01138837035898225,0.8064440178695794,0.0011648098321270259,-0.082605,-38.825571
11.185,2.0,1.0,1.0,33.7,33.0,33.0,4.2,3.6,2.6225,0.5681183730828839,-0.011563140124973555,0.8112824923773919,0.0010731791900692807,-0.083585,-38.701235
11.185,2.0,1.0,1.0,33.7,33.0,33.0,4.2,3.6,2.625,0.560992804667297,-0.0117401975148086,0.816087764587971,0.000978096048709537,-0.084584,-38.576452
11.185,2.0,1.0,1.0,33.7,33.0,33.0,4.2,3.6,2.6275,0.5537809528843557,-0.011919564308891463,0.8208586924918782,0.0008794547595746215,-0.085602,-38.451214
11.185,2.0,1.0,1.0,33.7,33.0,33.0,4.2,3.6,2.63,0.5464819847847737,-0.01210126193585081,0.8255941016330708,0.0007771462384489566,-0.08664,-38.325512
11.185,2.0,1.0,1.0,33.7,33.0,33.0,4.2,3.6,2.6325,0.5390950634479594,-0.012285311427478577,0.8302927842090996,0.0006710578428281153,-0.087697,-38.199338
11.185,2.0,1.0,1.0,33.7,33.0,33.0,4.2,3.6,2.635,0.531619348347723,-0.012471733370727373,0.8349534981486966,0.0005610732445158052,-0.088774,-38.072683
11.185,2.0,1.0,1.0,33.7,33.0,33.0,4.2,3.6,2.6375,0.5240539957438782,-0.012660547856590971,0.8395749661663434,0.0004470722971436474,-0.089873,-37.945538
11.185,2.0,1.0,1.0,33.7,33.0,33.0,4.2,3.6,2.64,0.5163981591010457,-0.012851774425682774,0.844155874793437,0.0003289308983804987,-0.090992,-37.817894
11.185,2.0,1.0,1.0,33.7,33.0,33.0,4.2,3.6,2.6425,0.5086509895360394,-0.013045432010314356,0.8486948733856527,0.00020652084658590513,-0.092134,-37.689742
11.185,2.0,1.0,1.0,33.7,33.0,33.0,4.2,3.6,2.645,0.5008116362952649,-0.013241538872864974,0.8531905731061293,7.970969164785972e-05,-0.093298,-37.561073
11.185,2.0,1.0,1.0,33.7,33.0,33.0,4.2,3.6,2.6475,0.49287924726362975,-0.013440112540219516,0.8576415458840982,-5.1639420268756954e-05,-0.094485,-37.431878
11.185,2.0,1.0,1.0,33.7,33.0,33.0,4.2,3.6,2.65,0.48485296950651136,-0.013641169734038621,0.8620463233486048,-0.00018766790835383278,-0.095696,-37.302146
11.185,2.0,1.0,1.0,33.7,33.0,33.0,4.2,3.6,2.6525,0.47673194984644424,-0.013844726296609357,0.8664033957369502,-0.0003285219254694444,-0.09693,-37.171868
11.185,2.0,1.0,1.0,33.7,33.0,33.0,4.2,3.6,2.655,0.46851533547619095,-0.014050797112009614,0.8707112107775398,-0.0004743525334785425,-0.09819,-37.041034
11.185,2.0,1.0,1.0,33.7,33.0,33.0,4.2,3.6,2.6575,0.4602022746099974,-0.014259396022301843,0.8749681725467955,-0.0006253158859287903,-0.099475,-36.909634
11.185,2.0,1.0,1.0,33.7,33.0,33.0,4.2,3.6,2.66,0.45179191717486417,-0.014470535738453279,0.879172640299835,-0.0007815734184560536,-0.100786,-36.777657
11.185,2.0,1.0,1.0,33.7,33.0,33.0,4.2,3.6,2.6625,0.44328341554378115,-0.014684227745660597,0.8833229272746191,-0.000943292047295062,-0.102123,-36.645093
11.185,2.0,1.0,1.0,33.7,33.0,33.0,4.2,3.6,2.665,0.43467592531291266,-0.014900482202735746,0.88741729946931,-0.0011106443763083309,-0.103488,-36.511932
11.185,2.0,1.0,1.0,33.7,33.0,33.0,4.2,3.6,2.6675,0.42596860612485177,-0.015119307835186401,0.891453974392572,-0.0012838089129699273,-0.104881,-36.378161
11.185,2.0,1.0,1.0,33.7,33.0,33.0,4.2,3.6,2.67,0.4171606225401123,-0.015340711821600924,0.895431119786605,-0.0014629702937692824,-0.106303,-36.243771
11.185,2.0,1.0,1.0,33.7,33.0,33.0,4.2,3.6,2.6725,0.4082511449591298,-0.015564699672921133,0.8993468523227036,-0.0016483195195295048,-0.107755,-36.10875
11.185,2.0,1.0,1.0,33.7,33.0,33.0,4.2,3.6,2.675,0.39923935059715415,-0.015791275104157235,0.9031992362691635,-0.001840054201167419,-0.109237,-35.973085
11.185,2.0,1.0,1.0,33.7,33.0,33.0,4.2,3.6,2.6775,0.3901244245144853,-0.01602043989806956,0.9069862821313937,-0.002038378816457244,-0.11075,-35.836766
11.185,2.0,1.0,1.0,33.7,33.0,33.0,4.2,3.6,2.68,0.380905560704622,-0.016252193760308342,0.9107059452641196,-0.002243504978398092,-0.112296,-35.69978
11.185,2.0,1.0,1.0,33.7,33.0,33.0,4.2,3.6,2.6825,0.3715819632430018,-0.016486534165466506,0.9143561244555898,-0.0024556517158256246,-0.113874,-35.562114
11.185,2.0,1.0,1.0,33.7,33.0,33.0,4.2,3.6,2.685,0.36215284749909793,-0.016723456193462913,0.9179346604837463,-0.002675045766953182,-0.115486,-35.423756
11.185,2.0,1.0,1.0,33.7,33.0,33.0,4.2,3.6,2.6875,0.3526174414147731,-0.01696295235563041,0.9214393346443409,-0.0029019218865754533,-0.117133,-35.284693
11.185,2.0,1.0,1.0,33.7,33.0,33.0,4.2,3.6,2.69,0.3429749868518997,-0.01720501240983805,0.9248678672510245,-0.0031365231677194356,-0.118816,-35.144912
11.185,2.0,1.0,1.0,33.7,33.0,33.0,4.2,3.6,2.6925,0.3332247410123547,-0.017449623163927862,0.9282179161074854,-0.0033791013785849397,-0.120536,-35.004398
11.185,2.0,1.0,1.0,33.7,33.0,33.0,4.2,3.6,2.695,0.3233659779336725,-0.01769676826669152,0.9314870749517281,-0.003629917315676948,-0.122293,-34.863138
11.185,2.0,1.0,1.0,33.7,33.0,33.0,4.2,3.6,2.6975,0.3133979900636948,-0.017946427985555485,0.9346728718726661,-0.003889241174100602,-0.124089,-34.721118
11.185,2.0,1.0,1.0,33.7,33.0,33.0,4.2,3.6,2.7,0.3033200899177697,-0.018198578970077612,0.9377727676992041,-0.004157352936060695,-0.125926,-34.578323
11.185,2.0,1.0,1.0,33.7,33.0,33.0,4.2,3.6,2.7025,0.293131611822118,-0.01845319400029003,0.9407841543620653,-0.00443454277868818,-0.127803,-34.434737
11.185,2.0,1.0,1.0,33.7,33.0,33.0,4.2,3.6,2.705,0.2828319137471885,-0.01871024171884573,0.9437043532286412,-0.00472111150240158,-0.129723,-34.290346
11.185,2.0,1.0,1.0,33.7,33.0,33.0,4.2,3.6,2.7075,0.27242037923492407,-0.018969686345844197,0.9465306134112035,-0.005017370981106098,-0.131687,-34.145133
11.185,2.0,1.0,1.0,33.7,33.0,33.0,4.2,3.6,2.71,0.2618964194240575,-0.019231487375118487,0.9492601100488455,-0.005323644635636009,-0.133696,-33.999082
11.185,2.0,1.0,1.0,33.7,33.0,33.0,4.2,3.6,2.7125,0.25125947517768044,-0.01949559925066789,0.9518899425635898,-0.005640267931958354,-0.13575,-33.852177
11.185,2.0,1.0,1.0,33.7,33.0,33.0,4.2,3.6,2.715,0.24050901931752525,-0.01976197102180813,0.9544171328911122,-0.005967588905779363,-0.137853,-33.704399
11.185,2.0,1.0,1.0,33.7,33.0,33.0,4.2,3.6,2.7175,0.22964455896955974,-0.02003054597549148,0.9568386236865971,-0.006305968715329541,-0.140005,-33.555732
11.185,2.0,1.0,1.0,33.7,33.0,33.0,4.2,3.6,2.72,0.21866563802569286,-0.020301261244114157,0.9591512765062635,-0.006655782224251045,-0.142207,-33.406157
11.185,2.0,1.0,1.0,33.7,33.0,33.0,4.2,3.6,2.7225,0.20757183972655618,-0.020574047386982593,0.9613518699651358,-0.007017418616673596,-0.144462,-33.255655
11.185,2.0,1.0,1.0,33.7,33.0,33.0,4.2,3.6,2.725,0.1963627893705774,-0.02084882794344492,0.9634370978716597,-0.007391282046741313,-0.146771,-33.104206
11.185,2.0,1.0,1.0,33.7,33.0,33.0,4.2,3.6,2.7275,0.18503815715471092,-0.021125518955516606,0.9654035673397889,-0.007777792325050182,-0.149136,-32.951792
11.185,2.0,1.0,1.0,33.7,33.0,33.0,4.2,3.6,2.73,0.17359766115249278,-0.021404028457626283,0.9672477968791675,-0.008177385644668165,-0.151558,-32.79839
11.185,2.0,1.0,1.0,33.7,33.0,33.0,4.2,3.6,2.7325,0.16204107043525862,-0.02168425593088852,0.9689662144640435,-0.008590515349647741,-0.154039,-32.64398
11.185,2.0,1.0,1.0,33.7,33.0,33.0,4.2,3.6,2.735,0.15036820834268022,-0.02196609171906225,0.97055515558153,-0.009017652749198768,-0.156582,-32.488539
11.185,2.0,1.0,1.0,33.7,33.0,33.0,4.2,3.6,2.7375,0.13857895590900632,-0.02224941640307966,0.9720108612597987,-0.00945928798097686,-0.159188,-32.332046
11.185,2.0,1.0,1.0,33.7,33.0,33.0,4.2,3.6,2.74,0.12667325545173364,-0.022534100130724235,0.9733294760767516,-0.009915930927256796,-0.16186,-32.174476
11.185,2.0,1.0,1.0,33.7,33.0,33.0,4.2,3.6,2.7425,0.1146511143297114,-0.022820001897695494,0.9745070461496375,-0.010388112188109184,-0.164599,-32.015805
11.185,2.0,1.0,1.0,33.7,33.0,33.0,4.2,3.6,2.745,0.10251260887806932,-0.02310696877591582,0.9755395171059889,-0.010876384116081854,-0.167409,-31.856007
11.185,2.0,1.0,1.0,33.7,33.0,33.0,4.2,3.6,2.7475,0.0902578885277261,-0.023394835084507012,0.9764227320361302,-0.011381321917312325,-0.170291,-31.695058
11.185,2.0,1.0,1.0,33.7,33.0,33.0,4.2,3.6,2.75,0.0778871801176414,-0.0236834214983852,0.977152429427348,-0.0119035248244665,-0.173248,-31.532929
11.185,2.0,1.0,1.0,33.7,33.0,33.0,4.2,3.6,2.7525,0.06540079240846337,-0.023972534088884407,0.9777242410796093,-0.012443617347417819,-0.176284,-31.369592
11.185,2.0,1.0,1.0,33.7,33.0,33.0,4.2,3.6,2.755,0.05279912080671525,-0.024261963290212202,0.9781336900024703,-0.013002250608155262,-0.1794,-31.205019
11.185,2.0,1.0,1.0,33.7,33.0,33.0,4.2,3.6,2.7575,0.04008265230922231,-0.02455148278486116,0.9783761882925228,-0.013580103767047026,-0.182599,-31.039179
11.185,2.0,1.0,1.0,33.7,33.0,33.0,4.2,3.6,2.76,0.02725197067815455,-0.024840848300327255,0.9784470349903476,-0.014177885548289876,-0.185886,-30.872041
11.185,2.0,1.0,1.0,33.7,33.0,33.0,4.2,3.6,2.7625,0.014307761857727651,-0.025129796308619255,0.9783414139155279,-0.014796335873160728,-0.189262,-30.703572
11.185,2.0,1.0,1.0,33.7,33.0,33.0,4.2,3.6,2.765,0.0012508196444466634,-0.025418042619057918,0.9780543914777525,-0.015436227610554527,-0.192733,-30.533738
11.185,2.0,1.0,1.0,33.7,33.0,33.0,4.2,3.6,2.7675,-0.01191794837632777,-0.025705280853748184,0.9775809144614328,-0.016098368455259852,-0.1963,-30.362504
11.185,2.0,1.0,1.0,33.7,33.0,33.0,4.2,3.6,2.77,-0.02519751461368345,-0.02599118079384333,0.9769158077805444,-0.016783602945499188,-0.199969,-30.189833
11.185,2.0,1.0,1.0,33.7,33.0,33.0,4.2,3.6,2.7725,-0.038586724959321236,-0.026275386583278295,0.9760537721995814,-0.017492814632455576,-0.203743,-30.015687
11.185,2.0,1.0,1.0,33.7,33.0,33.0,4.2,3.6,2.775,-0.0520842919642377,-0.026557514775011903,0.9749893820155254,-0.018226928415839488,-0.207626,-29.840025
11.185,2.0,1.0,1.0,33.7,33.0,33.0,4.2,3.6,2.7775,-0.0656887876860154,-0.026837152202947395,0.9737170826946244,-0.0189869130610332,-0.211624,-29.662805
11.185,2.0,1.0,1.0,33.7,33.0,33.0,4.2,3.6,2.78,-0.0793986361870514,-0.02711385366056436,0.9722311884564594,-0.01977378391500496,-0.21574,-29.483985
11.185,2.0,1.0,1.0,33.7,33.0,33.0,4.2,3.6,2.7825,-0.09321210566193805,-0.027387139364850526,0.97052587979629,-0.020588605840027634,-0.219981,-29.303518
11.185,2.0,1.0,1.0,33.7,33.0,33.0,4.2,3.6,2.785,-0.1071273001699139,-0.02765649218131954,0.9685952009349281,-0.021432496386301195,-0.224351,-29.121358
11.185,2.0,1.0,1.0,33.7,33.0,33.0,4.2,3.6,2.7875,-0.12114215094543623,-0.027921354582682432,0.9664330571834142,-0.022306629226873535,-0.228856,-28.937453
11.185,2.0,1.0,1.0,33.7,33.0,33.0,4.2,3.6,2.79,-0.13525440725680693,-0.02818112531003767,0.9640332122074804,-0.023212237880830072,-0.233503,-28.751751
11.185,2.0,1.0,1.0,33.7,33.0,33.0,4.2,3.6,2.7925,-0.14946162677896613,-0.028435155701179476,0.9613892851742006,-0.024150619753592634,-0.238298,-28.564199
11.185,2.0,1.0,1.0,33.7,33.0,33.0,4.2,3.6,2.795,-0.16376116544228583,-0.028682745645697026,0.9584947477602175,-0.02512314052638859,-0.243247,-28.374738
11.185,2.0,1.0,1.0,33.7,33.0,33.0,4.2,3.6,2.7975,-0.17815016671400313,-0.02892313912084002,0.9553429209975766,-0.02613123893054255,-0.248359,-28.183308
11.185,2.0,1.0,1.0,33.7,33.0,33.0,4.2,3.6,2.8,-0.19262555026306652,-0.02915551925552323,0.9519269719292985,-0.02717643194627742,-0.253642,-27.989847
11.185,2.0,1.0,1.0,33.7,33.0,33.0,4.2,3.6,2.8025,-0.20718399995211229,-0.029379002862176335,0.9482399100424288,-0.0282603204702159,-0.259103,-27.794287
11.185,2.0,1.0,1.0,33.7,33.0,33.0,4.2,3.6,2.805,-0.22182195109207853,-0.02959263436722362,0.9442745834413058,-0.029384595500822744,-0.264752,-27.596559
11.185,2.0,1.0,1.0,33.7,33.0,33.0,4.2,3.6,2.8075,-0.23653557688531637,-0.029795379060580055,0.9400236747181161,-0.03055104489668267,-0.2706,-27.396588
11.185,2.0,1.0,1.0,33.7,33.0,33.0,4.2,3.6,2.81,-0.2513207739716747,-0.029986115572400156,0.9354796964713588,-0.03176156076883616,-0.276655,-27.194299
11.185,2.0,1.0,1.0,33.7,33.0,33.0,4.2,3.6,2.8125,-0.26617314697854,-0.0301636274710898,0.930634986415604,-0.0330181475754742,-0.28293,-26.989608
11.185,2.0,1.0,1.0,33.7,33.0,33.0,4.2,3.6,2.815,-0.28108799195998724,-0.030326593859901475,0.9254817020176896,-0.034322930995216126,-0.289437,-26.78243
11.185,2.0,1.0,1.0,33.7,33.0,33.0,4.2,3.6,2.8175,-0.2960602785913069,-0.030473578829801336,0.9200118145852635,-0.035678167664037704,-0.29619,-26.572674
11.185,2.0,1.0,1.0,33.7,33.0,33.0,4.2,3.6,2.82,-0.3110846309628446,-0.030603019603157283,0.9142171027231674,-0.0370862558707893,-0.303202,-26.360243
11.185,2.0,1.0,1.0,33.7,33.0,33.0,4.2,3.6,2.8225,-0.32615530679051535,-0.030713213175453884,0.9080891450614759,-0.03854974731723659,-0.310488,-26.145037
11.185,2.0,1.0,1.0,33.7,33.0,33.0,4.2,3.6,2.825,-0.3412661748286816,-0.03080230122985131,0.901619312145951,-0.04007136006076933,-0.318067,-25.926948
11.185,2.0,1.0,1.0,33.7,33.0,33.0,4.2,3.6,2.8275,-0.3564106902333137,-0.030868253060944133,0.8947987573670854,-0.04165399277145301,-0.325955,-25.705862
