1,w,sub_t,h,l1,l2,l3,g1,g2,Freq,S11_re,S21_re,S11_img,S21_img,S11_dB,S21_dB
11.185,2.0,1.0,1.0,33.0,34.4,34.4,2.5,3.2,2.5,0.8950784836142,-0.00652604234918658,0.431746404355134,0.00687779545136743,-0.054319,-40.462727
11.185,2.0,1.0,1.0,33.0,34.4,34.4,2.5,3.2,2.5025,0.8923535940605667,-0.00667498071006782,0.4372127137005686,0.006934028414481066,-0.054849,-40.332197
11.185,2.0,1.0,1.0,33.0,34.4,34.4,2.5,3.2,2.505,0.8895837591615305,-0.0068270621277782256,0.4426824519035694,0.006990312695065889,-0.05539,-40.201183
11.185,2.0,1.0,1.0,33.0,34.4,34.4,2.5,3.2,2.5075,0.8867685161745495,-0.006982367122138683,0.448155505984586,0.007046635509063631,-0.055941,-40.069673
11.185,2.0,1.0,1.0,33.0,34.4,34.4,2.5,3.2,2.51,0.883907393014699,-0.007140978923792081,0.45363175909357645,0.007102983332900814,-0.056503,-39.937653
11.185,2.0,1.0,1.0,33.0,34.4,34.4,2.5,3.2,2.5125,0.8809999080098337,-0.007302983587159554,0.45911109035740727,0.007159341861461471,-0.057076,-39.805109
11.185,2.0,1.0,1.0,33.0,34.4,34.4,2.5,3.2,2.515,0.8780455696470469,-0.007468470109011815,0.46459337472094536,0.007215695963456147,-0.05766,-39.672027
11.185,2.0,1.0,1.0,33.0,34.4,34.4,2.5,3.2,2.5175,0.8750438763100195,-0.007637530552980313,0.47007848278152653,0.007272029634007952,-0.058256,-39.538394
11.185,2.0,1.0,1.0,33.0,34.4,34.4,2.5,3.2,2.52,0.8719943160068061,-0.00781026018035441,0.47556628061646905,0.007328325944261089,-0.058865,-39.404194
11.185,2.0,1.0,1.0,33.0,34.4,34.4,2.5,3.2,2.5225,0.8688963660876106,-0.007986757587533968,0.48105662960326795,0.007384566987803106,-0.059485,-39.269414
11.185,2.0,1.0,1.0,33.0,34.4,34.4,2.5,3.2,2.525,0.8657494929520395,-0.008167124850530637,0.4865493862321032,0.007440733823675269,-0.060119,-39.134037
11.185,2.0,1.0,1.0,33.0,34.4,34.4,2.5,3.2,2.5275,0.8625531517453132,-0.008351467676939143,0.49204440191025545,0.00749680641572771,-0.060766,-38.998049
11.185,2.0,1.0,1.0,33.0,34.4,34.4,2.5,3.2,2.53,0.85930678604288,-0.008539895565826882,0.4975415227579953,0.007552763568057268,-0.061426,-38.861433
11.185,2.0,1.0,1.0,33.0,34.4,34.4,2.5,3.2,2.5325,0.8560098275228358,-0.008732521976021663,0.503040589395498,0.007608582856242831,-0.0621,-38.724175
11.185,2.0,1.0,1.0,33.0,34.4,34.4,2.5,3.2,2.535,0.8526616956255173,-0.008929464503311104,0.5085414367202975,0.0076642405540733646,-0.062789,-38.586257
11.185,2.0,1.0,1.0,33.0,34.4,34.4,2.5,3.2,2.5375,0.849261797199602,-0.009130845067101158,0.5140438936747476,0.007719711555435172,-0.063492,-38.447664
11.185,2.0,1.0,1.0,33.0,34.4,34.4,2.5,3.2,2.54,0.8458095261339941,-0.009336790107121328,0.5195477830029528,0.007774969290999792,-0.064211,-38.308377
11.185,2.0,1.0,1.0,33.0,34.4,34.4,2.5,3.2,2.5425,0.8423042629747348,-0.009547430790805543,0.5250529209965648,0.00782998563932413,-0.064945,-38.168381
11.185,2.0,1.0,1.0,33.0,34.4,34.4,2.5,3.2,2.545,0.8387453745261277,-0.009762903232020356,0.5305591172288149,0.00788473083194022,-0.065696,-38.027656
11.185,2.0,1.0,1.0,33.0,34.4,34.4,2.5,3.2,2.5475,0.8351322134352098,-0.009983348721863584,0.5360661742760963,0.007939173351978746,-0.066463,-37.886185
11.185,2.0,1.0,1.0,33.0,34.4,34.4,2.5,3.2,2.55,0.8314641177586366,-0.010208913972306022,0.5415738874263839,0.007993279825828987,-0.067248,-37.74395
11.185,2.0,1.0,1.0,33.0,34.4,34.4,2.5,3.2,2.5525,0.8277404105110049,-0.010439751373506527,0.5470820443736818,0.008047014907297475,-0.06805,-37.60093
11.185,2.0,1.0,1.0,33.0,34.4,34.4,2.5,3.2,2.555,0.8239603991935459,-0.01067601926569201,0.5525904248976946,0.00810034115367962,-0.068871,-37.457108
11.185,2.0,1.0,1.0,33.0,34.4,34.4,2.5,3.2,2.5575,0.8201233753020555,-0.010917882226559225,0.5580988005277939,0.008153218893107692,-0.069711,-37.312463
11.185,2.0,1.0,1.0,33.0,34.4,34.4,2.5,3.2,2.56,0.8162286138128605,-0.011165511375226988,0.5636069341903217,0.008205606082482567,-0.07057,-37.166974
11.185,2.0,1.0,1.0,33.0,34.4,34.4,2.5,3.2,2.5625,0.8122753726455177,-0.011419084693845302,0.569114579838185,0.008257458155234975,-0.07145,-37.020621
11.185,2.0,1.0,1.0,33.0,34.4,34.4,2.5,3.2,2.565,0.8082628921008544,-0.011678787368052184,0.5746214820616192,0.00830872785809389,-0.07235,-36.873382
11.185,2.0,1.0,1.0,33.0,34.4,34.4,2.5,3.2,2.5675,0.804190394272864,-0.011944812147558024,0.5801273756788938,0.008359365075965217,-0.073272,-36.725235
11.185,2.0,1.0,1.0,33.0,34.4,34.4,2.5,3.2,2.57,0.8000570824328554,-0.012217359728240718,0.5856319853056667,0.008409316643943088,-0.074217,-36.576158
11.185,2.0,1.0,1.0,33.0,34.4,34.4,2.5,3.2,2.5725,0.7958621403841307,-0.012496639157237087,0.5911350249015562,0.008458526145382866,-0.075184,-36.426128
11.185,2.0,1.0,1.0,33.0,34.4,34.4,2.5,3.2,2.575,0.7916047317853544,-0.012782868262637536,0.5966361972924011,0.008506933694868997,-0.076176,-36.275121
11.185,2.0,1.0,1.0,33.0,34.4,34.4,2.5,3.2,2.5775,0.7872839994406177,-0.01307627410951538,0.6021351936665532,0.008554475704797466,-0.077192,-36.123113
11.185,2.0,1.0,1.0,33.0,34.4,34.4,2.5,3.2,2.58,0.782899064554067,-0.013377093484161358,0.6076316930433798,0.00860108463417326,-0.078234,-35.970077
11.185,2.0,1.0,1.0,33.0,34.4,34.4,2.5,3.2,2.5825,0.7784490259467862,-0.013685573408546257,0.6131253617120519,0.008646688718087674,-0.079303,-35.81599
11.185,2.0,1.0,1.0,33.0,34.4,34.4,2.5,3.2,2.585,0.7739329592334531,-0.01400197168719621,0.6186158526384571,0.008691211676192565,-0.080399,-35.660824
11.185,2.0,1.0,1.0,33.0,34.4,34.4,2.5,3.2,2.5875,0.7693499159560896,-0.014326557488846927,0.6241028048379532,0.008734572398322149,-0.081524,-35.504553
11.185,2.0,1.0,1.0,33.0,34.4,34.4,2.5,3.2,2.59,0.7646989226720186,-0.014659611965438298,0.6295858427114212,0.008776684605233094,-0.082678,-35.347147
11.185,2.0,1.0,1.0,33.0,34.4,34.4,2.5,3.2,2.5925,0.7599789799928944,-0.015001428911223313,0.6350645753418832,0.008817456482226925,-0.083863,-35.188579
11.185,2.0,1.0,1.0,33.0,34.4,34.4,2.5,3.2,2.595,0.7551890615714443,-0.01535231546500104,0.6405385957486739,0.008856790283197321,-0.08508,-35.028818
11.185,2.0,1.0,1.0,33.0,34.4,34.4,2.5,3.2,2.5975,0.7503281130322517,-0.015712592858738005,0.6460074800958974,0.00889458190239123,-0.08633,-34.867835
11.185,2.0,1.0,1.0,33.0,34.4,34.4,2.5,3.2,2.6,0.7453950508426351,-0.01608259721612157,0.6514707868515708,0.008930720410894377,-0.087615,-34.705598
11.185,2.0,1.0,1.0,33.0,34.4,34.4,2.5,3.2,2.6025,0.7403887611193347,-0.01646268040489686,0.6569280558935277,0.008965087554541966,-0.088936,-34.542073
11.185,2.0,1.0,1.0,33.0,34.4,34.4,2.5,3.2,2.605,0.7353080983663546,-0.016853210947174086,0.6623788075577618,0.008997557209605255,-0.090294,-34.377229
11.185,2.0,1.0,1.0,33.0,34.4,34.4,2.5,3.2,2.6075,0.730151884138917,-0.01725457499226159,0.667822541624478,0.009027994792218625,-0.091691,-34.21103
11.185,2.0,1.0,1.0,33.0,34.4,34.4,2.5,3.2,2.61,0.7249189056280536,-0.01766717735698497,0.6732587362366276,0.009056256617077265,-0.093128,-34.04344
11.185,2.0,1.0,1.0,33.0,34.4,34.4,2.5,3.2,2.6125,0.7196079141598715,-0.018091442638897694,0.6786868467451953,0.009082189200449677,-0.094607,-33.874424
11.185,2.0,1.0,1.0,33.0,34.4,34.4,2.5,3.2,2.615,0.7142176236030138,-0.018527816408276825,0.6841063044749076,0.009105628502001962,-0.096131,-33.703942
11.185,2.0,1.0,1.0,33.0,34.4,34.4,2.5,3.2,2.6175,0.7087467086772669,-0.018976766485335365,0.6895165154033622,0.009126399099323817,-0.0977,-33.531957
11.185,2.0,1.0,1.0,33.0,34.4,34.4,2.5,3.2,2.62,0.7031938031556244,-0.019438784309675855,0.6949168587458534,0.009144313288352083,-0.099317,-33.358426
11.185,2.0,1.0,1.0,33.0,34.4,34.4,2.5,3.2,2.6225,0.697557497951419,-0.01991438640966146,0.700306685437342,0.009159170102119696,-0.100984,-33.183308
11.185,2.0,1.0,1.0,33.0,34.4,34.4,2.5,3.2,2.625,0.69183633908139,-0.0204041159801002,0.705685316502055,0.00917075423938141,-0.102703,-33.006561
11.185,2.0,1.0,1.0,33.0,34.4,34.4,2.5,3.2,2.6275,0.6860288254946749,-0.020908544577434053,0.7110520413002042,0.009178834893685428,-0.104476,-32.828138
11.185,2.0,1.0,1.0,33.0,34.4,34.4,2.5,3.2,2.63,0.6801334067568173,-0.021428273942497855,0.7164061156400807,0.009183164472347217,-0.106307,-32.647993
11.185,2.0,1.0,1.0,33.0,34.4,34.4,2.5,3.2,2.6325,0.6741484805768316,-0.02196393796188574,0.7217467597424847,0.00918347719352374,-0.108197,-32.466078
11.185,2.0,1.0,1.0,33.0,34.4,34.4,2.5,3.2,2.635,0.6680723901642425,-0.022516204780031003,0.727073156042927,0.009179487548159643,-0.110149,-32.282344
11.185,2.0,1.0,1.0,33.0,34.4,34.4,2.5,3.2,2.6375,0.6619034214017671,-0.023085779075292436,0.7323844468153348,0.009170888611958705,-0.112168,-32.096737
11.185,2.0,1.0,1.0,33.0,34.4,34.4,2.5,3.2,2.64,0.655639799817899,-0.02367340451465226,0.7376797315990785,0.009157350190695294,-0.114255,-31.909205
11.185,2.0,1.0,1.0,33.0,34.4,34.4,2.5,3.2,2.6425,0.649279687342152,-0.024279866403084903,0.7429580644089169,0.009138516780085081,-0.116414,-31.719692
11.185,2.0,1.0,1.0,33.0,34.4,34.4,2.5,3.2,2.645,0.6428211788239923,-0.024905994545267738,0.7482184507049809,0.009114005319050064,-0.118649,-31.528139
11.185,2.0,1.0,1.0,33.0,34.4,34.4,2.5,3.2,2.6475,0.6362622982946288,-0.025552666339091867,0.7534598440970641,0.009083402712484145,-0.120963,-31.334486
11.185,2.0,1.0,1.0,33.0,34.4,34.4,2.5,3.2,2.65,0.6296009949487219,-0.026220810122417514,0.7586811427542532,0.00904626309651127,-0.123362,-31.138671
11.185,2.0,1.0,1.0,33.0,34.4,34.4,2.5,3.2,2.6525,0.6228351388207888,-0.026911408796716264,0.7638811854871922,0.009002104815654065,-0.125849,-30.940629
11.185,2.0,1.0,1.0,33.0,34.4,34.4,2.5,3.2,2.655,0.6159625161284806,-0.02762550375369301,0.7690587474660706,0.008950407077234115,-0.128429,-30.740291
11.185,2.0,1.0,1.0,33.0,34.4,34.4,2.5,3.2,2.6575,0.6089808242520867,-0.028364199133693122,0.7742125355325026,0.008890606243610308,-0.131107,-30.537587
11.185,2.0,1.0,1.0,33.0,34.4,34.4,2.5,3.2,2.66,0.6018876663164426,-0.029128666447720802,0.7793411830578804,0.00882209171743777,-0.133888,-30.332443
11.185,2.0,1.0,1.0,33.0,34.4,34.4,2.5,3.2,2.6625,0.5946805453379268,-0.02992014959824556,0.7844432442943224,0.008744201368862602,-0.136779,-30.124783
11.185,2.0,1.0,1.0,33.0,34.4,34.4,2.5,3.2,2.665,0.5873568578953056,-0.030739970337702684,0.7895171881568802,0.00865621644633332,-0.139786,-29.914527
11.185,2.0,1.0,1.0,33.0,34.4,34.4,2.5,3.2,2.6675,0.5799138872789019,-0.03158953420772525,0.794561391367038,0.008557355904318876,-0.142916,-29.70159
11.185,2.0,1.0,1.0,33.0,34.4,34.4,2.5,3.2,2.67,0.5723487960677328,-0.03247033700674256,0.7995741308775598,0.00844677007149385,-0.146176,-29.485886
11.185,2.0,1.0,1.0,33.0,34.4,34.4,2.5,3.2,2.6725,0.5646586180789597,-0.033383971838673386,0.8045535754871321,0.008323533571632376,-0.149573,-29.267324
11.185,2.0,1.0,1.0,33.0,34.4,34.4,2.5,3.2,2.675,0.5568402496281104,-0.03433213680108545,0.8094977765397295,0.00818663739626072,-0.153117,-29.045807
11.185,2.0,1.0,1.0,33.0,34.4,34.4,2.5,3.2,2.6775,0.548890440032016,-0.03531664337744055,0.8144046575879013,0.008034980012715309,-0.156817,-28.821237
11.185,2.0,1.0,1.0,33.0,34.4,34.4,2.5,3.2,2.68,0.5408057812792046,-0.03633942560494536,0.8192720028807575,0.007867357373222382,-0.160683,-28.593508
11.185,2.0,1.0,1.0,33.0,34.4,34.4,2.5,3.2,2.6825,0.5325826967846027,-0.03740255009712303,0.8240974445158401,0.007682451669468071,-0.164725,-28.362512
11.185,2.0,1.0,1.0,33.0,34.4,34.4,2.5,3.2,2.685,0.5242174291366661,-0.03850822700857186,0.8288784480687614,0.007478818652258922,-0.168956,-28.128132
11.185,2.0,1.0,1.0,33.0,34.4,34.4,2.5,3.2,2.6875,0.515706026735581,-0.0396588220384994,0.833612296484636,0.00725487330657257,-0.173389,-27.89025
11.185,2.0,1.0,1.0,33.0,34.4,34.4,2.5,3.2,2.69,0.5070443292108217,-0.040856869579543056,0.8382960719801412,0.007008873637680041,-0.178038,-27.648737
11.185,2.0,1.0,1.0,33.0,34.4,34.4,2.5,3.2,2.6925,0.4982279514951642,-0.04210508712910951,0.8429266356634019,0.006738902283029579,-0.182917,-27.403461
11.185,2.0,1.0,1.0,33.0,34.4,34.4,2.5,3.2,2.695,0.48925226642031844,-0.043406391091914916,0.847500604529488,0.0064428456159151114,-0.188045,-27.154283
11.185,2.0,1.0,1.0,33.0,34.4,34.4,2.5,3.2,2.6975,0.48011238568664183,-0.04476391411451796,0.8520143254305798,0.006118369949030452,-0.193439,-26.901054
11.185,2.0,1.0,1.0,33.0,34.4,34.4,2.5,3.2,2.7,0.4708031390462849,-0.04618102410518203,0.8564638455498015,0.005762894376890571,-0.199121,-26.64362
11.185,2.0,1.0,1.0,33.0,34.4,34.4,2.5,3.2,2.7025,0.46131905152570796,-0.04766134510509959,0.8608448788239917,0.0053735597133944876,-0.205112,-26.381817
11.185,2.0,1.0,1.0,33.0,34.4,34.4,2.5,3.2,2.705,0.4516543185004665,-0.04920878018936075,0.8651527676602525,0.004947192881579131,-0.211437,-26.115473
11.185,2.0,1.0,1.0,33.0,34.4,34.4,2.5,3.2,2.7075,0.44180277842302756,-0.05082753658733706,0.8693824391704249,0.004480265993235934,-0.218124,-25.844405
11.185,2.0,1.0,1.0,33.0,34.4,34.4,2.5,3.2,2.71,0.4317578829944025,-0.05252215322128688,0.8735283550020653,0.00396884921203504,-0.225203,-25.568421
11.185,2.0,1.0,1.0,33.0,34.4,34.4,2.5,3.2,2.7125,0.4215126645639281,-0.054297530867438944,0.8775844536685161,0.0034085563195445337,-0.232707,-25.287317
11.185,2.0,1.0,1.0,33.0,34.4,34.4,2.5,3.2,2.715,0.41105970054101315,-0.05615896514331348,0.8815440840672116,0.002794481692099416,-0.240675,-25.000878
11.185,2.0,1.0,1.0,33.0,34.4,34.4,2.5,3.2,2.7175,0.4003910746111276,-0.05811218251541299,0.8853999286157818,0.002121127139177963,-0.249148,-24.708874
11.185,2.0,1.0,1.0,33.0,34.4,34.4,2.5,3.2,2.72,0.38949833457041433,-0.06016337949811222,0.8891439141188373,0.001382316739948687,-0.258173,-24.411064
11.185,2.0,1.0,1.0,33.0,34.4,34.4,2.5,3.2,2.7225,0.3783724466353412,-0.0623192651711884,0.8927671080909555,0.0005710974303455217,-0.267803,-24.107189
11.185,2.0,1.0,1.0,33.0,34.4,34.4,2.5,3.2,2.725,0.36700374615505166,-0.06458710707085386,0.896259597786066,-0.00032037737866089225,-0.278097,-23.796976
11.185,2.0,1.0,1.0,33.0,34.4,34.4,2.5,3.2,2.7275,0.35538188476709603,-0.0669747803946044,0.8996103485986886,-0.0013009844514904315,-0.289121,-23.480136
11.185,2.0,1.0,1.0,33.0,34.4,34.4,2.5,3.2,2.73,0.34349577421047633,-0.06949082028553577,0.9028070377810419,-0.002380791663438658,-0.300951,-23.156357
11.185,2.0,1.0,1.0,33.0,34.4,34.4,2.5,3.2,2.7325,0.3313335272687357,-0.07214447670145102,0.9058358585277637,-0.0035712481240149857,-0.313674,-22.825309
11.185,2.0,1.0,1.0,33.0,34.4,34.4,2.5,3.2,2.735,0.31888239669676655,-0.07494577099181554,0.9086812883737733,-0.0048854094901871845,-0.327387,-22.486642
11.185,2.0,1.0,1.0,33.0,34.4,34.4,2.5,3.2,2.7375,0.30612871353939264,-0.07790555275004506,0.9113258144766172,-0.006338205837519796,-0.342202,-22.13998
11.185,2.0,1.0,1.0,33.0,34.4,34.4,2.5,3.2,2.74,0.2930578270510928,-0.08103555470657171,0.9137496066446508,-0.007946761157243033,-0.358247,-21.784922
11.185,2.0,1.0,1.0,33.0,34.4,34.4,2.5,3.2,2.7425,0.27965404957886963,-0.08434844227537604,0.9159301268424149,-0.009730775665395004,-0.37567,-21.42104
11.185,2.0,1.0,1.0,33.0,34.4,34.4,2.5,3.2,2.745,0.2659006114239872,-0.08785785271395709,0.9178416612504228,-0.0117129847499175,-0.394643,-21.047877
11.185,2.0,1.0,1.0,33.0,34.4,34.4,2.5,3.2,2.7475,0.2517796330677609,-0.09157841648989766,0.9194547576518756,-0.013919711668862456,-0.415364,-20.664943
11.185,2.0,1.0,1.0,33.0,34.4,34.4,2.5,3.2,2.75,0.237272125541088,-0.0955257500578857,0.920735546813218,-0.0163815351973338,-0.438066,-20.271715
11.185,2.0,1.0,1.0,33.0,34.4,34.4,2.5,3.2,2.7525,0.2223580345837681,-0.09971640439377401,0.9216449214468064,-0.019134098473722428,-0.463019,-19.867634
11.185,2.0,1.0,1.0,33.0,34.4,34.4,2.5,3.2,2.755,0.20701635122519554,-0.1041677466616305,0.9221375401079676,-0.022219091500604336,-0.490545,-19.452105
11.185,2.0,1.0,1.0,33.0,34.4,34.4,2.5,3.2,2.7575,0.19122532146284746,-0.10889774236841587,0.9221606158129864,-0.025685447283706923,-0.521022,-19.024491
11.185,2.0,1.0,1.0,33.0,34.4,34.4,2.5,3.2,2.76,0.17496280218710542,-0.11392459092534865,0.9216524401614401,-0.029590800550257083,-0.554901,-18.584114
11.185,2.0,1.0,1.0,33.0,34.4,34.4,2.5,3.2,2.7625,0.15820683139083172,-0.11926614670073582,0.9205405833682473,-0.03400326831268832,-0.592722,-18.130257
11.185,2.0,1.0,1.0,33.0,34.4,34.4,2.5,3.2,2.765,0.1409365109035959,-0.12493902753171963,0.9187396992933006,-0.03900362279979135,-0.635135,-17.662162
11.185,2.0,1.0,1.0,33.0,34.4,34.4,2.5,3.2,2.7675,0.12313334359156063,-0.1309572690873769,0.916148853486855,-0.044687938279834735,-0.682927,-17.179034
11.185,2.0,1.0,1.0,33.0,34.4,34.4,2.5,3.2,2.77,0.1047832301765383,-0.13733032045110255,0.9126482840812483,-0.05117080142073445,-0.737057,-16.680048
11.185,2.0,1.0,1.0,33.0,34.4,34.4,2.5,3.2,2.7725,0.08587942205040848,-0.14406008534604195,0.9080955053924293,-0.05858917474649453,-0.7987,-16.16436
11.185,2.0,1.0,1.0,33.0,34.4,34.4,2.5,3.2,2.775,0.06642685739277752,-0.15113658290493778,0.902320682632165,-0.06710698420144179,-0.869308,-15.631123
11.185,2.0,1.0,1.0,33.0,34.4,34.4,2.5,3.2,2.7775,0.04644849389462816,-0.1585316164857956,0.895121262339723,-0.07692044571375044,-0.950684,-15.07952
11.185,2.0,1.0,1.0,33.0,34.4,34.4,2.5,3.2,2.78,0.02599451081247957,-0.1661895804626748,0.8862559718379939,-0.0882640172442381,-1.045082,-14.5088
11.185,2.0,1.0,1.0,33.0,34.4,34.4,2.5,3.2,2.7825,0.0051556035057223545,-0.1740141856724408,0.8754385639523439,-0.10141660055689493,-1.155336,-13.91835
11.185,2.0,1.0,1.0,33.0,34.4,34.4,2.5,3.2,2.785,-0.015917959739118272,-0.18184943910635204,0.8623321869102017,-0.11670711468187751,-1.285028,-13.307783
11.185,2.0,1.0,1.0,33.0,34.4,34.4,2.5,3.2,2.7875,-0.036989342274069865,-0.18945270879378837,0.8465461805655127,-0.13451764453378445,-1.438703,-12.677082
11.185,2.0,1.0,1.0,33.0,34.4,34.4,2.5,3.2,2.79,-0.05769760655117234,-0.19645728447618055,0.8276387150026038,-0.15528075818472067,-1.622129,-12.0268
11.185,2.0,1.0,1.0,33.0,34.4,34.4,2.5,3.2,2.7925,-0.07750709795111385,-0.20232189727685893,0.8051313819557525,-0.1794649004371602,-1.842603,-11.358344
11.185,2.0,1.0,1.0,33.0,34.4,34.4,2.5,3.2,2.795,-0.09564261728375198,-0.20626607714686615,0.7785460387392671,-0.20753759479322156,-2.109262,-10.674372
11.185,2.0,1.0,1.0,33.0,34.4,34.4,2.5,3.2,2.7975,-0.11101383944107435,-0.20719479916402658,0.7474799784005467,-0.23989043163864462,-2.433256,-9.979329
11.185,2.0,1.0,1.0,33.0,34.4,34.4,2.5,3.2,2.8,-0.1221432989076006,-0.20362670015703652,0.7117416054890142,-0.2767037375134081,-2.827498,-9.28012
11.185,2.0,1.0,1.0,33.0,34.4,34.4,2.5,3.2,2.8025,-0.1271334916760407,-0.19366130861699854,0.6715703920925069,-0.31772723661259067,-3.305253,-8.586904
11.185,2.0,1.0,1.0,33.0,34.4,34.4,2.5,3.2,2.805,-0.1237420746306866,-0.17505405090243986,0.6279500255691672,-0.361967841597183,-3.876047,-7.91385
11.185,2.0,1.0,1.0,33.0,34.4,34.4,2.5,3.2,2.8075,-0.10966939662163927,-0.14550292106090304,0.5829716684293278,-0.4073275463588666,-4.536013,-7.279568
11.185,2.0,1.0,1.0,33.0,34.4,34.4,2.5,3.2,2.81,-0.0831593591156188,-0.10324744246159265,0.5400975827044067,-0.4503407193337139,-5.248798,-6.706697
11.185,2.0,1.0,1.0,33.0,34.4,34.4,2.5,3.2,2.8125,-0.0438963368933683,-0.0479626191423934,0.504043426581911,-0.486291581891579,-5.917827,-6.220022
11.185,2.0,1.0,1.0,33.0,34.4,34.4,2.5,3.2,2.815,0.006101822094424305,0.01835123852171721,0.4799795765526132,-0.5100104659265099,-6.374843,-5.842799
11.185,2.0,1.0,1.0,33.0,34.4,34.4,2.5,3.2,2.8175,0.0621974737452293,0.0910836433280465,0.47205563928573047,-0.5173445115499159,-6.445388,-5.591829
11.185,2.0,1.0,1.0,33.0,34.4,34.4,2.5,3.2,2.82,0.117975583533601,0.16385421614832169,0.48185177318475714,-0.5067009504096265,-6.088895,-5.473029
11.185,2.0,1.0,1.0,33.0,34.4,34.4,2.5,3.2,2.8225,0.16703727212044125,0.23030081581642864,0.5077108083495129,-0.4797120834618484,-5.441328,-5.479648
11.185,2.0,1.0,1.0,33.0,34.4,34.4,2.5,3.2,2.825,0.20478361015862953,0.2858575502656453,0.5454274562230081,-0.44054746890395424,-4.692531,-5.594111
11.185,2.0,1.0,1.0,33.0,34.4,34.4,2.5,3.2,2.8275,0.22923748805172497,0.32857368591406233,0.5898032735511253,-0.3943633665023845,-3.974867,-5.792472
11.185,2.0,1.0,1.0,33.0,34.4,34.4,2.5,3.2,2.83,0.24074152836261614,0.3588122291879433,0.6361132957604291,-0.3458405164109617,-3.347976,-6.049326
