1,w,sub_t,h,l1,l2,l3,g1,g2,Freq,S11_re,S21_re,S11_img,S21_img,S11_dB,S21_dB
11.185,2.0,1.0,1.0,33.5,33.1,33.1,2.6,3.3,2.5,0.847343874419557,-0.0072817628371053,0.519186521492207,0.00588835815277646,-0.054425,-40.570161
11.185,2.0,1.0,1.0,33.5,33.1,33.1,2.6,3.3,2.5025,0.8438233487849465,-0.007423759834070243,0.5247824197961874,0.005909838053469046,-0.054917,-40.455723
11.185,2.0,1.0,1.0,33.5,33.1,33.1,2.6,3.3,2.505,0.8402504224359052,-0.007568130291899993,0.5303771981660436,0.005930511380548262,-0.055417,-40.341045
11.185,2.0,1.0,1.0,33.5,33.1,33.1,2.6,3.3,2.5075,0.8366245855098279,-0.007714916305677613,0.5359706031168215,0.005950345335331937,-0.055926,-40.226123
11.185,2.0,1.0,1.0,33.5,33.1,33.1,2.6,3.3,2.51,0.8329453203778683,-0.007864160838632254,0.5415623735870945,0.005969305983820371,-0.056443,-40.11095
11.185,2.0,1.0,1.0,33.5,33.1,33.1,2.6,3.3,2.5125,0.8292121015343212,-0.008015907741247531,0.547152240697906,0.005987358214739764,-0.056968,-39.995519
11.185,2.0,1.0,1.0,33.5,33.1,33.1,2.6,3.3,2.515,0.8254243954852716,-0.008170201770756183,0.5527399275040624,0.0060044656959034794,-0.057502,-39.879824
11.185,2.0,1.0,1.0,33.5,33.1,33.1,2.6,3.3,2.5175,0.8215816606365781,-0.00832708861102644,0.5583251487375059,0.00602059082881743,-0.058046,-39.763858
11.185,2.0,1.0,1.0,33.5,33.1,33.1,2.6,3.3,2.52,0.8176833471812336,-0.008486614892842413,0.5639076105425205,0.006035694701452547,-0.058598,-39.647615
11.185,2.0,1.0,1.0,33.5,33.1,33.1,2.6,3.3,2.5225,0.813728896986184,-0.008648828214581492,0.5694870102024715,0.0060497370391038845,-0.05916,-39.531088
11.185,2.0,1.0,1.0,33.5,33.1,33.1,2.6,3.3,2.525,0.8097177434786579,-0.008813777163290744,0.5750630358578226,0.006062676153251148,-0.059732,-39.41427
11.185,2.0,1.0,1.0,33.5,33.1,33.1,2.6,3.3,2.5275,0.8056493115320861,-0.008981511336165128,0.5806353662151209,0.0060744688883325295,-0.060314,-39.297156
11.185,2.0,1.0,1.0,33.5,33.1,33.1,2.6,3.3,2.53,0.801523017351697,-0.009152081362428217,0.5862036702466479,0.006085070566337661,-0.060905,-39.179738
11.185,2.0,1.0,1.0,33.5,33.1,33.1,2.6,3.3,2.5325,0.7973382683598643,-0.009325538925615552,0.5917676068804238,0.006094434929123462,-0.061507,-39.062009
11.185,2.0,1.0,1.0,33.5,33.1,33.1,2.6,3.3,2.535,0.7930944630813016,-0.009501936786261565,0.5973268246802427,0.006102514078349127,-0.06212,-38.943962
11.185,2.0,1.0,1.0,33.5,33.1,33.1,2.6,3.3,2.5375,0.7887909910282113,-0.009681328804988463,0.602880961515391,0.006109258412923419,-0.062743,-38.825591
11.185,2.0,1.0,1.0,33.5,33.1,33.1,2.6,3.3,2.54,0.784427232585484,-0.009863769965995767,0.6084296442197107,0.006114616563851553,-0.063378,-38.706889
11.185,2.0,1.0,1.0,33.5,33.1,33.1,2.6,3.3,2.5425,0.7800025588960671,-0.010049316400947656,0.6139724882396382,0.006118535326362323,-0.064023,-38.587847
11.185,2.0,1.0,1.0,33.5,33.1,33.1,2.6,3.3,2.545,0.7755163317466273,-0.010238025413254161,0.6195090972708506,0.006120959589192586,-0.064681,-38.46846
11.185,2.0,1.0,1.0,33.5,33.1,33.1,2.6,3.3,2.5475,0.7709679034536383,-0.01042995550274185,0.6250390628831167,0.00612183226089686,-0.06535,-38.34872
11.185,2.0,1.0,1.0,33.5,33.1,33.1,2.6,3.3,2.55,0.766356616750028,-0.010625166390707623,0.6305619641329764,0.006121094193045837,-0.066031,-38.22862
11.185,2.0,1.0,1.0,33.5,33.1,33.1,2.6,3.3,2.5525,0.7616818046725483,-0.010823719045347912,0.6360773671637957,0.006118684100169438,-0.066724,-38.108153
11.185,2.0,1.0,1.0,33.5,33.1,33.1,2.6,3.3,2.555,0.7569427904500199,-0.011025675707554354,0.6415848247927991,0.006114538476292756,-0.06743,-37.98731
11.185,2.0,1.0,1.0,33.5,33.1,33.1,2.6,3.3,2.5575,0.7521388873926211,-0.01123109991706585,0.6470838760846148,0.006108591507905433,-0.06815,-37.866084
11.185,2.0,1.0,1.0,33.5,33.1,33.1,2.6,3.3,2.56,0.7472693987824175,-0.011440056538963307,0.6525740459108674,0.006100774983197235,-0.068882,-37.744469
11.185,2.0,1.0,1.0,33.5,33.1,33.1,2.6,3.3,2.5625,0.7423336177653164,-0.011652611790493926,0.6580548444953442,0.006091018197383875,-0.069628,-37.622455
11.185,2.0,1.0,1.0,33.5,33.1,33.1,2.6,3.3,2.565,0.7373308272446597,-0.011868833268207408,0.6635257669442367,0.006079247853937029,-0.070388,-37.500036
11.185,2.0,1.0,1.0,33.5,33.1,33.1,2.6,3.3,2.5675,0.7322602997766837,-0.012088789975385735,0.6689862927609319,0.006065387961524112,-0.071162,-37.377203
11.185,2.0,1.0,1.0,33.5,33.1,33.1,2.6,3.3,2.57,0.7271212974680756,-0.012312552349744502,0.6744358853448279,0.0060493597264525975,-0.071951,-37.253949
11.185,2.0,1.0,1.0,33.5,33.1,33.1,2.6,3.3,2.5725,0.7219130718758843,-0.012540192291381766,0.6798739914736144,0.006031081440402362,-0.072755,-37.130265
11.185,2.0,1.0,1.0,33.5,33.1,33.1,2.6,3.3,2.575,0.7166348639100553,-0.01277178319094716,0.6853000407684421,0.006010468363218824,-0.073574,-37.006144
11.185,2.0,1.0,1.0,33.5,33.1,33.1,2.6,3.3,2.5775,0.7112859037388766,-0.013007399958000003,0.6907134451413862,0.005987432600527041,-0.074409,-36.881576
11.185,2.0,1.0,1.0,33.5,33.1,33.1,2.6,3.3,2.58,0.7058654106976461,-0.013247119049522417,0.6961135982245786,0.005961882975914304,-0.07526,-36.756554
11.185,2.0,1.0,1.0,33.5,33.1,33.1,2.6,3.3,2.5825,0.7003725932008747,-0.013491018498549095,0.7014998747803751,0.005933724897414786,-0.076127,-36.631068
11.185,2.0,1.0,1.0,33.5,33.1,33.1,2.6,3.3,2.585,0.6948066486583859,-0.013739177942871243,0.7068716300918856,0.005902860218015962,-0.077011,-36.505112
11.185,2.0,1.0,1.0,33.5,33.1,33.1,2.6,3.3,2.5875,0.6891667633956666,-0.013991678653767126,0.7122281993331788,0.005869187089890342,-0.077913,-36.378675
11.185,2.0,1.0,1.0,33.5,33.1,33.1,2.6,3.3,2.59,0.6834521125788705,-0.014248603564706728,0.71756889691844,0.005832599812041153,-0.078832,-36.251748
11.185,2.0,1.0,1.0,33.5,33.1,33.1,2.6,3.3,2.5925,0.6776618601448808,-0.01451003729997373,0.7228930158293474,0.00579298867103121,-0.07977,-36.124324
11.185,2.0,1.0,1.0,33.5,33.1,33.1,2.6,3.3,2.595,0.6717951587368879,-0.014776066203138701,0.7281998269198764,0.005750239774449369,-0.080727,-35.996392
11.185,2.0,1.0,1.0,33.5,33.1,33.1,2.6,3.3,2.5975,0.665851149645934,-0.015046778365315202,0.7334885781977504,0.005704234876745072,-0.081702,-35.867944
11.185,2.0,1.0,1.0,33.5,33.1,33.1,2.6,3.3,2.6,0.6598289627589331,-0.015322263653119885,0.7387584940816933,0.0056548511970451925,-0.082697,-35.73897
11.185,2.0,1.0,1.0,33.5,33.1,33.1,2.6,3.3,2.6025,0.6537277165137015,-0.015602613736251207,0.7440087746336165,0.00560196122854271,-0.083713,-35.609461
11.185,2.0,1.0,1.0,33.5,33.1,33.1,2.6,3.3,2.605,0.6475465178615445,-0.015887922114593195,0.7492385947648552,0.005545432539024726,-0.084749,-35.479407
11.185,2.0,1.0,1.0,33.5,33.1,33.1,2.6,3.3,2.6075,0.6412844622380113,-0.016178284144741036,0.7544471034155068,0.005485127562081733,-0.085807,-35.348797
11.185,2.0,1.0,1.0,33.5,33.1,33.1,2.6,3.3,2.61,0.6349406335424458,-0.016473797065834937,0.759633422705909,0.00542090337851509,-0.086886,-35.217623
11.185,2.0,1.0,1.0,33.5,33.1,33.1,2.6,3.3,2.6125,0.6285141041270075,-0.01677456002457846,0.7647966470592475,0.005352611487430198,-0.087988,-35.085874
11.185,2.0,1.0,1.0,33.5,33.1,33.1,2.6,3.3,2.615,0.6220039347958692,-0.017080674099306005,0.769935842294255,0.0052800975664736155,-0.089113,-34.95354
11.185,2.0,1.0,1.0,33.5,33.1,33.1,2.6,3.3,2.6175,0.6154091748153626,-0.017392242322948833,0.7750500446868954,0.005203201220641688,-0.090261,-34.82061
11.185,2.0,1.0,1.0,33.5,33.1,33.1,2.6,3.3,2.62,0.6087288619358636,-0.017709369704738263,0.7801382599999146,0.005121755719051654,-0.091434,-34.687074
11.185,2.0,1.0,1.0,33.5,33.1,33.1,2.6,3.3,2.6225,0.6019620224262752,-0.018032163250466943,0.785199462479082,0.0050355877190344294,-0.092632,-34.552921
11.185,2.0,1.0,1.0,33.5,33.1,33.1,2.6,3.3,2.625,0.59510767112202,-0.0183607319811127,0.790232593814878,0.0049445169768649,-0.093856,-34.418139
11.185,2.0,1.0,1.0,33.5,33.1,33.1,2.6,3.3,2.6275,0.5881648114874901,-0.018695186949612756,0.7952365620683788,0.004848356044408984,-0.095106,-34.282719
11.185,2.0,1.0,1.0,33.5,33.1,33.1,2.6,3.3,2.63,0.5811324356939845,-0.01903564125555329,0.8002102405599877,0.004746909950920036,-0.096383,-34.146647
11.185,2.0,1.0,1.0,33.5,33.1,33.1,2.6,3.3,2.6325,0.574009524714213,-0.01938221005752128,0.8051524667196461,0.004639975869171883,-0.097689,-34.009914
11.185,2.0,1.0,1.0,33.5,33.1,33.1,2.6,3.3,2.635,0.5667950484345128,-0.01973501058283891,0.810062040897071,0.004527342765065379,-0.099023,-33.872506
11.185,2.0,1.0,1.0,33.5,33.1,33.1,2.6,3.3,2.6375,0.5594879657860108,-0.020094162134375922,0.8149377251305261,0.004408791029792288,-0.100386,-33.734412
11.185,2.0,1.0,1.0,33.5,33.1,33.1,2.6,3.3,2.64,0.5520872248959985,-0.020459786094107965,0.8197782418725584,0.004284092093583289,-0.10178,-33.59562
11.185,2.0,1.0,1.0,33.5,33.1,33.1,2.6,3.3,2.6425,0.5445917632609238,-0.02083200592305782,0.8245822726710694,0.0041530080200053695,-0.103206,-33.456117
11.185,2.0,1.0,1.0,33.5,33.1,33.1,2.6,3.3,2.645,0.5370005079424387,-0.02121094715722136,0.8293484568040146,0.004015291079709944,-0.104664,-33.315891
11.185,2.0,1.0,1.0,33.5,33.1,33.1,2.6,3.3,2.6475,0.5293123757880626,-0.021596737399045166,0.8340753898659543,0.0038706833024613973,-0.106154,-33.174928
11.185,2.0,1.0,1.0,33.5,33.1,33.1,2.6,3.3,2.65,0.521526273678093,-0.021989506303982772,0.8387616223046092,0.003718916006202564,-0.10768,-33.033215
11.185,2.0,1.0,1.0,33.5,33.1,33.1,2.6,3.3,2.6525,0.5136410988005351,-0.022389385561609552,0.8434056579054611,0.0035597093018323992,-0.10924,-32.89074
11.185,2.0,1.0,1.0,33.5,33.1,33.1,2.6,3.3,2.655,0.5056557389558815,-0.02279650887073278,0.8480059522223934,0.003392771572284992,-0.110837,-32.747487
11.185,2.0,1.0,1.0,33.5,33.1,33.1,2.6,3.3,2.6575,0.4975690728937296,-0.023211011907876843,0.8525609109522374,0.0032177989244084114,-0.112471,-32.603444
11.185,2.0,1.0,1.0,33.5,33.1,33.1,2.6,3.3,2.66,0.48937997068333305,-0.023633032288467557,0.8570688882510129,0.0030344746120395984,-0.114144,-32.458595
11.185,2.0,1.0,1.0,33.5,33.1,33.1,2.6,3.3,2.6625,0.48108729412031653,-0.024062709519976338,0.8615281849895324,0.0028424684285695335,-0.115856,-32.312926
11.185,2.0,1.0,1.0,33.5,33.1,33.1,2.6,3.3,2.665,0.47268989717192095,-0.02450018494621637,0.8659370469459515,0.002641436067173736,-0.11761,-32.166423
11.185,2.0,1.0,1.0,33.5,33.1,33.1,2.6,3.3,2.6675,0.4641866264633135,-0.024945601681904336,0.8702936629326931,0.002431018446764117,-0.119406,-32.01907
11.185,2.0,1.0,1.0,33.5,33.1,33.1,2.6,3.3,2.67,0.45557632180764146,-0.02539910453652084,0.8745961628550867,0.002210841001584277,-0.121246,-31.870851
11.185,2.0,1.0,1.0,33.5,33.1,33.1,2.6,3.3,2.6725,0.44685781678268566,-0.02586083992640934,0.8788426156989085,0.001980512932227507,-0.123131,-31.72175
11.185,2.0,1.0,1.0,33.5,33.1,33.1,2.6,3.3,2.675,0.43802993935717305,-0.026330955773952003,0.8830310274438694,0.001739626415705268,-0.125062,-31.571752
11.185,2.0,1.0,1.0,33.5,33.1,33.1,2.6,3.3,2.6775,0.429091512569982,-0.026809601392552757,0.8871593388999489,0.0014877557720259875,-0.127042,-31.420839
11.185,2.0,1.0,1.0,33.5,33.1,33.1,2.6,3.3,2.68,0.4200413552657076,-0.027296927356031425,0.8912254234633143,0.0012244565845699839,-0.129071,-31.268995
11.185,2.0,1.0,1.0,33.5,33.1,33.1,2.6,3.3,2.6825,0.4108782828902793,-0.027793085350902948,0.8952270847883833,0.0009492647713494556,-0.131152,-31.116201
11.185,2.0,1.0,1.0,33.5,33.1,33.1,2.6,3.3,2.685,0.40160110835056706,-0.028298228009864118,0.8991620543724125,0.000661695604039402,-0.133286,-30.962441
11.185,2.0,1.0,1.0,33.5,33.1,33.1,2.6,3.3,2.6875,0.39220864294218305,-0.028812508724649355,0.9030279890487884,0.00036124267143873226,-0.135475,-30.807696
11.185,2.0,1.0,1.0,33.5,33.1,33.1,2.6,3.3,2.69,0.3826996973499882,-0.02933608143623374,0.906822468384982,4.737678378001843e-05,-0.137721,-30.651947
11.185,2.0,1.0,1.0,33.5,33.1,33.1,2.6,3.3,2.6925,0.3730730827260816,-0.029869100400166538,0.9105429919809142,-0.0002804551859552569,-0.140026,-30.495174
11.185,2.0,1.0,1.0,33.5,33.1,33.1,2.6,3.3,2.695,0.3633276118504592,-0.03041171992459271,0.9141869766632083,-0.0006228315278421833,-0.142392,-30.337359
11.185,2.0,1.0,1.0,33.5,33.1,33.1,2.6,3.3,2.6975,0.35346210037980486,-0.030964094078281202,0.9177517535705655,-0.000980356992371548,-0.14482,-30.178481
11.185,2.0,1.0,1.0,33.5,33.1,33.1,2.6,3.3,2.7,0.34347536819035407,-0.03152637636570625,0.9212345651251903,-0.001353664164126006,-0.147314,-30.018519
11.185,2.0,1.0,1.0,33.5,33.1,33.1,2.6,3.3,2.7025,0.3333662408211357,-0.03209871936592858,0.9246325618848996,-0.0017434149168978153,-0.149876,-29.857453
11.185,2.0,1.0,1.0,33.5,33.1,33.1,2.6,3.3,2.705,0.32313355102440694,-0.03268127433169365,0.9279427992702054,-0.002150301955760465,-0.152508,-29.69526
11.185,2.0,1.0,1.0,33.5,33.1,33.1,2.6,3.3,2.7075,0.3127761404305712,-0.0332741907447933,0.9311622341603006,-0.002575050452031568,-0.155213,-29.531918
11.185,2.0,1.0,1.0,33.5,33.1,33.1,2.6,3.3,2.71,0.30229286133544775,-0.033877615823329335,0.9342877213514839,-0.0030184197775198224,-0.157993,-29.367403
11.185,2.0,1.0,1.0,33.5,33.1,33.1,2.6,3.3,2.7125,0.2916825786183373,-0.03449169397606273,0.9373160098711375,-0.003481205344951878,-0.160852,-29.201693
11.185,2.0,1.0,1.0,33.5,33.1,33.1,2.6,3.3,2.715,0.2809441718000115,-0.03511656619852269,0.9402437391399031,-0.0039642405620110704,-0.163792,-29.034764
11.185,2.0,1.0,1.0,33.5,33.1,33.1,2.6,3.3,2.7175,0.2700765372504554,-0.03575236940498968,0.9430674349742016,-0.004468398907014764,-0.166816,-28.866589
11.185,2.0,1.0,1.0,33.5,33.1,33.1,2.6,3.3,2.72,0.25907859055700616,-0.03639923568983065,0.9457835054206903,-0.004994596134890223,-0.169928,-28.697144
11.185,2.0,1.0,1.0,33.5,33.1,33.1,2.6,3.3,2.7225,0.24794926906436143,-0.03705729151096686,0.9483882364136648,-0.0055437926228135,-0.173132,-28.526402
11.185,2.0,1.0,1.0,33.5,33.1,33.1,2.6,3.3,2.725,0.23668753459894495,-0.0377266567874632,0.950877787245746,-0.00611699586562706,-0.17643,-28.354335
11.185,2.0,1.0,1.0,33.5,33.1,33.1,2.6,3.3,2.7275,0.22529237639110167,-0.03840744390235457,0.953248185841501,-0.006715263131985633,-0.179827,-28.180917
11.185,2.0,1.0,1.0,33.5,33.1,33.1,2.6,3.3,2.73,0.21376281420983223,-0.03909975660083128,0.955495323822855,-0.007339704293072812,-0.183327,-28.006118
11.185,2.0,1.0,1.0,33.5,33.1,33.1,2.6,3.3,2.7325,0.20209790172598927,-0.039803688772808876,0.957614951354318,-0.007991484836720695,-0.186934,-27.829908
11.185,2.0,1.0,1.0,33.5,33.1,33.1,2.6,3.3,2.735,0.19029673012136175,-0.04051932310766072,0.95960267175511,-0.008671829080827566,-0.190653,-27.652256
11.185,2.0,1.0,1.0,33.5,33.1,33.1,2.6,3.3,2.7375,0.17835843196259055,-0.041246729607502225,0.9614539358642696,-0.00938202360114372,-0.194488,-27.473132
11.185,2.0,1.0,1.0,33.5,33.1,33.1,2.6,3.3,2.74,0.1662821853606757,-0.04198596394384485,0.9631640361437012,-0.010123420889765476,-0.198444,-27.292502
11.185,2.0,1.0,1.0,33.5,33.1,33.1,2.6,3.3,2.7425,0.15406721843875884,-0.042737065640672534,0.9647281005029191,-0.01089744326207062,-0.202527,-27.110333
11.185,2.0,1.0,1.0,33.5,33.1,33.1,2.6,3.3,2.745,0.14171281413309197,-0.04350005606500035,0.9661410858279034,-0.011705587031347706,-0.206742,-26.92659
11.185,2.0,1.0,1.0,33.5,33.1,33.1,2.6,3.3,2.7475,0.12921831535453865,-0.04427493620372729,0.9673977711950152,-0.01254942697202781,-0.211096,-26.741236
11.185,2.0,1.0,1.0,33.5,33.1,33.1,2.6,3.3,2.75,0.116583130540708,-0.0450616842030489,0.96849275074933,-0.0134306210942417,-0.215593,-26.554236
11.185,2.0,1.0,1.0,33.5,33.1,33.1,2.6,3.3,2.7525,0.10380673963192152,-0.045860252643820286,0.9694204262249829,-0.014350915754396214,-0.220242,-26.365551
11.185,2.0,1.0,1.0,33.5,33.1,33.1,2.6,3.3,2.755,0.09088870050768937,-0.046670565522995894,0.9701749990831904,-0.01531215112862718,-0.225049,-26.17514
11.185,2.0,1.0,1.0,33.5,33.1,33.1,2.6,3.3,2.7575,0.07782865592425713,-0.047492514907570844,0.9707504622415086,-0.01631626707833825,-0.230022,-25.982963
11.185,2.0,1.0,1.0,33.5,33.1,33.1,2.6,3.3,2.76,0.06462634099827164,-0.04832595722324183,0.9711405913655659,-0.01736530943960203,-0.235168,-25.788978
11.185,2.0,1.0,1.0,33.5,33.1,33.1,2.6,3.3,2.7625,0.051281591286557564,-0.049170709135217566,0.9713389356919796,-0.018461436771001413,-0.240496,-25.593139
11.185,2.0,1.0,1.0,33.5,33.1,33.1,2.6,3.3,2.765,0.03779435151771628,-0.0500265429731591,0.9713388083483907,-0.019606927597542095,-0.246015,-25.395402
11.185,2.0,1.0,1.0,33.5,33.1,33.1,2.6,3.3,2.7675,0.024164685037686488,-0.05089318164600309,0.9711332761335094,-0.020804188191579098,-0.251735,-25.195719
11.185,2.0,1.0,1.0,33.5,33.1,33.1,2.6,3.3,2.77,0.010392784038731081,-0.05177029298531715,0.970715148716773,-0.02205576093531434,-0.257666,-24.994041
11.185,2.0,1.0,1.0,33.5,33.1,33.1,2.6,3.3,2.7725,-0.003521019350305835,-0.052657483447702276,0.9700769672135864,-0.02336433331333462,-0.263819,-24.790317
11.185,2.0,1.0,1.0,33.5,33.1,33.1,2.6,3.3,2.775,-0.017576241025099353,-0.05355429109743697,0.969210992088204,-0.024732747587895464,-0.270205,-24.584493
11.185,2.0,1.0,1.0,33.5,33.1,33.1,2.6,3.3,2.7775,-0.031772231819996166,-0.05446017777987058,0.968109190332051,-0.026164011214238544,-0.276838,-24.376516
11.185,2.0,1.0,1.0,33.5,33.1,33.1,2.6,3.3,2.78,-0.046108163264414255,-0.05537452038378795,0.9667632218606657,-0.027661308058160406,-0.28373,-24.166328
11.185,2.0,1.0,1.0,33.5,33.1,33.1,2.6,3.3,2.7825,-0.06058301205627066,-0.056296601076826554,0.9651644250674998,-0.029228010483336547,-0.290896,-23.953869
11.185,2.0,1.0,1.0,33.5,33.1,33.1,2.6,3.3,2.785,-0.0751955431107621,-0.05722559638174522,0.9633038014674731,-0.03086769238155884,-0.298352,-23.739078
11.185,2.0,1.0,1.0,33.5,33.1,33.1,2.6,3.3,2.7875,-0.08994429102368312,-0.05816056494253191,0.9611719993575253,-0.03258414322503197,-0.306113,-23.52189
11.185,2.0,1.0,1.0,33.5,33.1,33.1,2.6,3.3,2.79,-0.1048275397665606,-0.05910043380761025,0.9587592964154055,-0.034381383226191435,-0.314198,-23.302239
11.185,2.0,1.0,1.0,33.5,33.1,33.1,2.6,3.3,2.7925,-0.11984330040538135,-0.060043983032237944,0.9560555811516696,-0.036263679697089234,-0.322627,-23.080054
11.185,2.0,1.0,1.0,33.5,33.1,33.1,2.6,3.3,2.795,-0.134989286605329,-0.06098982837302559,0.953050333123362,-0.038235564707175804,-0.331419,-22.855263
11.185,2.0,1.0,1.0,33.5,33.1,33.1,2.6,3.3,2.7975,-0.15026288764964527,-0.0619364018136194,0.9497326018112895,-0.04030185414516437,-0.340598,-22.627789
11.185,2.0,1.0,1.0,33.5,33.1,33.1,2.6,3.3,2.8,-0.16566113866114848,-0.0628819296212034,0.9460909840562415,-0.042467668297450835,-0.350187,-22.397555
11.185,2.0,1.0,1.0,33.5,33.1,33.1,2.6,3.3,2.8025,-0.18118068766861234,-0.06382440758759293,0.9421135999432788,-0.044738454062031544,-0.360213,-22.164477
11.185,2.0,1.0,1.0,33.5,33.1,33.1,2.6,3.3,2.805,-0.19681775910629326,-0.06476157305515395,0.9377880670175693,-0.04712000892267931,-0.370704,-21.928469
11.185,2.0,1.0,1.0,33.5,33.1,33.1,2.6,3.3,2.8075,-0.21256811327194264,-0.06569087326526928,0.9331014727105956,-0.04961850681292121,-0.381692,-21.689441
11.185,2.0,1.0,1.0,33.5,33.1,33.1,2.6,3.3,2.81,-0.2284270011949677,-0.06660942949390351,0.9280403448525704,-0.0522405260024389,-0.39321,-21.447299
11.185,2.0,1.0,1.0,33.5,33.1,33.1,2.6,3.3,2.8125,-0.244389114280033,-0.0675139963531135,0.922590620146265,-0.0549930791391499,-0.405295,-21.201945
11.185,2.0,1.0,1.0,33.5,33.1,33.1,2.6,3.3,2.815,-0.2604485279902049,-0.06840091553678784,0.9167376104802898,-0.057883645577328745,-0.417988,-20.953276
11.185,2.0,1.0,1.0,33.5,33.1,33.1,2.6,3.3,2.8175,-0.2765986387147109,-0.06926606317076126,0.9104659669675704,-0.06092020611427694,-0.431331,-20.701185
11.185,2.0,1.0,1.0,33.5,33.1,33.1,2.6,3.3,2.82,-0.292832092826423,-0.07010478978848786,0.9037596416091945,-0.06411128024336084,-0.445373,-20.445558
11.185,2.0,1.0,1.0,33.5,33.1,33.1,2.6,3.3,2.8225,-0.3091407067693255,-0.07091185178980733,0.8966018465074642,-0.06746596600722109,-0.460168,-20.186278
11.185,2.0,1.0,1.0,33.5,33.1,33.1,2.6,3.3,2.825,-0.32551537682182663,-0.07168133304742878,0.8889750105881485,-0.0709939824983078,-0.475772,-19.923222
11.185,2.0,1.0,1.0,33.5,33.1,33.1,2.6,3.3,2.8275,-0.34194597695240586,-0.07240655509814094,0.880860733844935,-0.07470571500027329,-0.492251,-19.656261
