1,w,sub_t,h,l1,l2,l3,g1,g2,Freq,S11_re,S21_re,S11_img,S21_img,S11_dB,S21_dB
11.185,2.0,1.0,1.0,33.0,34.0,34.0,3.0,3.0,2.5,0.897886709417217,-0.00552647539384208,0.426944248315926,0.00568425171547841,-0.050313,-42.016764
11.185,2.0,1.0,1.0,33.0,34.0,34.0,3.0,3.0,2.5025,0.8952246962361176,-0.005647145818196228,0.4323792807922358,0.005724922318952991,-0.050764,-41.893308
11.185,2.0,1.0,1.0,33.0,34.0,34.0,3.0,3.0,2.505,0.8925192533670823,-0.005770152988501189,0.4378171860169218,0.0057654671230981,-0.051224,-41.76948
11.185,2.0,1.0,1.0,33.0,34.0,34.0,3.0,3.0,2.5075,0.8897699686927878,-0.005895549511305638,0.44325784053156253,0.005805870937966244,-0.051692,-41.645273
11.185,2.0,1.0,1.0,33.0,34.0,34.0,3.0,3.0,2.51,0.8869764227517125,-0.006023389505974396,0.44870111697803927,0.0058461179180020265,-0.052167,-41.520677
11.185,2.0,1.0,1.0,33.0,34.0,34.0,3.0,3.0,2.5125,0.8841381885811241,-0.006153728659995692,0.454146883959061,0.005886191532364302,-0.052652,-41.395684
11.185,2.0,1.0,1.0,33.0,34.0,34.0,3.0,3.0,2.515,0.8812548315558181,-0.0062866242867324305,0.45959500589366226,0.005926074533696369,-0.053144,-41.270283
11.185,2.0,1.0,1.0,33.0,34.0,34.0,3.0,3.0,2.5175,0.8783259092224539,-0.0064221353857419235,0.46504534286744703,0.005965748925249992,-0.053646,-41.144467
11.185,2.0,1.0,1.0,33.0,34.0,34.0,3.0,3.0,2.52,0.8753509711293215,-0.006560322705798311,0.47049775047738335,0.006005195926265727,-0.054156,-41.018224
11.185,2.0,1.0,1.0,33.0,34.0,34.0,3.0,3.0,2.5225,0.8723295586513713,-0.006701248810756525,0.4759520796708879,0.0060443959355029895,-0.054676,-40.891545
11.185,2.0,1.0,1.0,33.0,34.0,34.0,3.0,3.0,2.525,0.8692612048103207,-0.006844978148407778,0.4814081765789852,0.006083328492807233,-0.055206,-40.76442
11.185,2.0,1.0,1.0,33.0,34.0,34.0,3.0,3.0,2.5275,0.8661454340896522,-0.006991577122484112,0.48686588234327904,0.006121972238594381,-0.055745,-40.636839
11.185,2.0,1.0,1.0,33.0,34.0,34.0,3.0,3.0,2.53,0.8629817622443002,-0.007141114167978833,0.4923250329364596,0.006160304871122783,-0.056294,-40.508791
11.185,2.0,1.0,1.0,33.0,34.0,34.0,3.0,3.0,2.5325,0.8597696961048193,-0.007293659829960397,0.497785458976078,0.006198303101415563,-0.056854,-40.380266
11.185,2.0,1.0,1.0,33.0,34.0,34.0,3.0,3.0,2.535,0.8565087333758066,-0.007449286846068076,0.5032469855312867,0.006235942605685954,-0.057424,-40.251253
11.185,2.0,1.0,1.0,33.0,34.0,34.0,3.0,3.0,2.5375,0.8531983624283542,-0.007608070232888489,0.5087094319222306,0.006273197975107464,-0.058005,-40.121741
11.185,2.0,1.0,1.0,33.0,34.0,34.0,3.0,3.0,2.54,0.8498380620862765,-0.007770087376425504,0.514172611511765,0.00631004266276035,-0.058597,-39.991717
11.185,2.0,1.0,1.0,33.0,34.0,34.0,3.0,3.0,2.5425,0.8464273014058548,-0.007935418126888357,0.5196363314891529,0.0063464489275730515,-0.0592,-39.861172
11.185,2.0,1.0,1.0,33.0,34.0,34.0,3.0,3.0,2.545,0.8429655394488286,-0.008104144898037489,0.525100392645375,0.006382387775064789,-0.059816,-39.730092
11.185,2.0,1.0,1.0,33.0,34.0,34.0,3.0,3.0,2.5475,0.839452225048341,-0.008276352771342163,0.5305645891396603,0.006417828894680592,-0.060443,-39.598467
11.185,2.0,1.0,1.0,33.0,34.0,34.0,3.0,3.0,2.55,0.835886796567528,-0.008452129605220756,0.5360287082568451,0.00645274059349606,-0.061083,-39.466282
11.185,2.0,1.0,1.0,33.0,34.0,34.0,3.0,3.0,2.5525,0.8322686816504372,-0.00863156614965126,0.5414925301551048,0.006487089726051278,-0.061736,-39.333526
11.185,2.0,1.0,1.0,33.0,34.0,34.0,3.0,3.0,2.555,0.8285972969649229,-0.008814756166458451,0.546955827603622,0.006520841620056304,-0.062402,-39.200186
11.185,2.0,1.0,1.0,33.0,34.0,34.0,3.0,3.0,2.5575,0.8248720479371566,-0.009001796555604655,0.5524183657097008,0.006553959997691485,-0.063081,-39.066248
11.185,2.0,1.0,1.0,33.0,34.0,34.0,3.0,3.0,2.56,0.8210923284773721,-0.009192787487830697,0.5578799016348104,0.006586406892203893,-0.063775,-38.931699
11.185,2.0,1.0,1.0,33.0,34.0,34.0,3.0,3.0,2.5625,0.81725752069643,-0.009387832544018641,0.5633401842990179,0.006618142559479726,-0.064483,-38.796525
11.185,2.0,1.0,1.0,33.0,34.0,34.0,3.0,3.0,2.565,0.8133669946127703,-0.009587038861671506,0.5687989540732402,0.006649125384247194,-0.065205,-38.660711
11.185,2.0,1.0,1.0,33.0,34.0,34.0,3.0,3.0,2.5675,0.8094201078492937,-0.009790517288930512,0.5742559424586868,0.0066793117805370485,-0.065943,-38.524243
11.185,2.0,1.0,1.0,33.0,34.0,34.0,3.0,3.0,2.57,0.8054162053196776,-0.009998382546581997,0.5797108717528592,0.006708656086000779,-0.066696,-38.387107
11.185,2.0,1.0,1.0,33.0,34.0,34.0,3.0,3.0,2.5725,0.8013546189036101,-0.01021075339853293,0.5851634547014084,0.006737110449652401,-0.067466,-38.249287
11.185,2.0,1.0,1.0,33.0,34.0,34.0,3.0,3.0,2.575,0.7972346671103803,-0.010427752831269795,0.5906133941351132,0.006764624712567563,-0.068252,-38.110766
11.185,2.0,1.0,1.0,33.0,34.0,34.0,3.0,3.0,2.5775,0.7930556547302419,-0.010649508242849675,0.5960603825911965,0.006791146281034548,-0.069055,-37.97153
11.185,2.0,1.0,1.0,33.0,34.0,34.0,3.0,3.0,2.58,0.7888168724729171,-0.010876151642010739,0.6015041019181419,0.00681661999161253,-0.069876,-37.831562
11.185,2.0,1.0,1.0,33.0,34.0,34.0,3.0,3.0,2.5825,0.7845175965925641,-0.011107819858030986,0.6069442228631206,0.00684098796750623,-0.070715,-37.690844
11.185,2.0,1.0,1.0,33.0,34.0,34.0,3.0,3.0,2.585,0.7801570884985011,-0.011344654762007649,0.6123804046410731,0.006864189465619205,-0.071573,-37.54936
11.185,2.0,1.0,1.0,33.0,34.0,34.0,3.0,3.0,2.5875,0.7757345943509087,-0.011586803500278832,0.617812294484433,0.006886160713594119,-0.07245,-37.407091
11.185,2.0,1.0,1.0,33.0,34.0,34.0,3.0,3.0,2.59,0.7712493446407048,-0.011834418740758829,0.6232395271723907,0.006906834736090074,-0.073347,-37.264019
11.185,2.0,1.0,1.0,33.0,34.0,34.0,3.0,3.0,2.5925,0.7667005537527031,-0.012087658933016924,0.6286617245385486,0.00692614116948531,-0.074265,-37.120127
11.185,2.0,1.0,1.0,33.0,34.0,34.0,3.0,3.0,2.595,0.7620874195111342,-0.012346688582986643,0.6340784949556945,0.006944006064121842,-0.075204,-36.975393
11.185,2.0,1.0,1.0,33.0,34.0,34.0,3.0,3.0,2.5975,0.7574091227065095,-0.012611678543261555,0.6394894327963718,0.006960351673135044,-0.076165,-36.8298
11.185,2.0,1.0,1.0,33.0,34.0,34.0,3.0,3.0,2.6,0.7526648266027594,-0.012882806320000629,0.6448941178677952,0.006975096226826447,-0.077148,-36.683325
11.185,2.0,1.0,1.0,33.0,34.0,34.0,3.0,3.0,2.6025,0.7478536764234958,-0.013160256397545086,0.6502921148195576,0.006988153691446828,-0.078156,-36.535949
11.185,2.0,1.0,1.0,33.0,34.0,34.0,3.0,3.0,2.605,0.7429747988161539,-0.013444220581931078,0.6556829725224765,0.006999433511156985,-0.079187,-36.38765
11.185,2.0,1.0,1.0,33.0,34.0,34.0,3.0,3.0,2.6075,0.7380273012926833,-0.013734898364571476,0.6610662234167655,0.0070088403318224685,-0.080244,-36.238406
11.185,2.0,1.0,1.0,33.0,34.0,34.0,3.0,3.0,2.61,0.733010271645366,-0.014032497307478152,0.6664413828276059,0.007016273705177886,-0.081326,-36.088194
11.185,2.0,1.0,1.0,33.0,34.0,34.0,3.0,3.0,2.6125,0.7279227773362151,-0.014337233451501926,0.6718079482460222,0.007021627771762389,-0.082436,-35.936991
11.185,2.0,1.0,1.0,33.0,34.0,34.0,3.0,3.0,2.615,0.7227638648583009,-0.014649331749181753,0.6771653985728061,0.00702479092088063,-0.083573,-35.784773
11.185,2.0,1.0,1.0,33.0,34.0,34.0,3.0,3.0,2.6175,0.7175325590672258,-0.014969026523919434,0.6825131933230368,0.007025645425681984,-0.084739,-35.631515
11.185,2.0,1.0,1.0,33.0,34.0,34.0,3.0,3.0,2.62,0.7122278624808243,-0.015296561957331633,0.6878507717885538,0.007024067051269766,-0.085935,-35.477192
11.185,2.0,1.0,1.0,33.0,34.0,34.0,3.0,3.0,2.6225,0.7068487545450077,-0.01563219260677891,0.6931775521555152,0.007019924633555893,-0.087162,-35.321777
11.185,2.0,1.0,1.0,33.0,34.0,34.0,3.0,3.0,2.625,0.701394190863534,-0.0159761839552306,0.698492930573907,0.00701307962635572,-0.088421,-35.165243
11.185,2.0,1.0,1.0,33.0,34.0,34.0,3.0,3.0,2.6275,0.6958631023892659,-0.01632881299580105,0.7037962801756362,0.0070033856139758675,-0.089713,-35.007563
11.185,2.0,1.0,1.0,33.0,34.0,34.0,3.0,3.0,2.63,0.6902543945743198,-0.016690368853480686,0.7090869500375037,0.006990687786277703,-0.09104,-34.848708
11.185,2.0,1.0,1.0,33.0,34.0,34.0,3.0,3.0,2.6325,0.6845669464762733,-0.01706115344679536,0.7143642640850452,0.0069748223729016,-0.092403,-34.688647
11.185,2.0,1.0,1.0,33.0,34.0,34.0,3.0,3.0,2.635,0.6787996098173747,-0.017441482192351462,0.719627519932857,0.0069556160330038344,-0.093803,-34.527351
11.185,2.0,1.0,1.0,33.0,34.0,34.0,3.0,3.0,2.6375,0.6729512079934495,-0.01783168475547303,0.7248759876566108,0.00693288519649061,-0.095242,-34.364787
11.185,2.0,1.0,1.0,33.0,34.0,34.0,3.0,3.0,2.64,0.6670205350288972,-0.018232105850406705,0.7301089084915351,0.006906435352320292,-0.096721,-34.200924
11.185,2.0,1.0,1.0,33.0,34.0,34.0,3.0,3.0,2.6425,0.6610063544739021,-0.018643106093863878,0.7353254934516112,0.006876060278989962,-0.098242,-34.035727
11.185,2.0,1.0,1.0,33.0,34.0,34.0,3.0,3.0,2.645,0.6549073982396232,-0.019065062915993785,0.74052492186321,0.006841541211808309,-0.099806,-33.869161
11.185,2.0,1.0,1.0,33.0,34.0,34.0,3.0,3.0,2.6475,0.6487223653667767,-0.01949837153323197,0.745706339806249,0.00680264594098805,-0.101416,-33.701192
11.185,2.0,1.0,1.0,33.0,34.0,34.0,3.0,3.0,2.65,0.6424499207226135,-0.019943445987856478,0.7508688584552984,0.006759127833950594,-0.103073,-33.53178
11.185,2.0,1.0,1.0,33.0,34.0,34.0,3.0,3.0,2.6525,0.6360886936208876,-0.020400720259504068,0.7560115523122478,0.006710724774522618,-0.10478,-33.360888
11.185,2.0,1.0,1.0,33.0,34.0,34.0,3.0,3.0,2.655,0.6296372763588888,-0.020870649454364627,0.7611334573213425,0.006657158010898265,-0.106538,-33.188477
11.185,2.0,1.0,1.0,33.0,34.0,34.0,3.0,3.0,2.6575,0.6230942226651268,-0.021353711078277375,0.766233568856401,0.0065981309033446445,-0.108349,-33.014503
11.185,2.0,1.0,1.0,33.0,34.0,34.0,3.0,3.0,2.66,0.6164580460506554,-0.021850406400509108,0.7713108395689572,0.006533327561611555,-0.110217,-32.838926
11.185,2.0,1.0,1.0,33.0,34.0,34.0,3.0,3.0,2.6625,0.6097272180564112,-0.022361261915604596,0.77636417708487,0.006462411360869313,-0.112143,-32.6617
11.185,2.0,1.0,1.0,33.0,34.0,34.0,3.0,3.0,2.665,0.6029001663882179,-0.022886830911371007,0.7813924415355875,0.006385023323711563,-0.114131,-32.482779
11.185,2.0,1.0,1.0,33.0,34.0,34.0,3.0,3.0,2.6675,0.5959752729303899,-0.02342769515178843,0.7863944429086988,0.006300780354310935,-0.116182,-32.302117
11.185,2.0,1.0,1.0,33.0,34.0,34.0,3.0,3.0,2.67,0.5889508716279871,-0.023984466684449743,0.7913689382007147,0.006209273309173619,-0.118301,-32.119662
11.185,2.0,1.0,1.0,33.0,34.0,34.0,3.0,3.0,2.6725,0.5818252462268771,-0.02455778978301651,0.796314628353049,0.006110064887084118,-0.120489,-31.935365
11.185,2.0,1.0,1.0,33.0,34.0,34.0,3.0,3.0,2.675,0.5745966278597536,-0.02514834303614836,0.8012301549499694,0.0060026873187243755,-0.122752,-31.749172
11.185,2.0,1.0,1.0,33.0,34.0,34.0,3.0,3.0,2.6775,0.5672631924651346,-0.025756841595434333,0.8061140966547906,0.005886639834063151,-0.125092,-31.561026
11.185,2.0,1.0,1.0,33.0,34.0,34.0,3.0,3.0,2.68,0.5598230580251532,-0.026384039596023052,0.8109649653577532,0.005761385882889739,-0.127512,-31.370872
11.185,2.0,1.0,1.0,33.0,34.0,34.0,3.0,3.0,2.6825,0.5522742816066173,-0.02703073276493599,0.8157812020057901,0.005626350080771916,-0.130018,-31.178648
11.185,2.0,1.0,1.0,33.0,34.0,34.0,3.0,3.0,2.685,0.5446148561883353,-0.02769776123345888,0.8205611720807267,0.00548091484918156,-0.132614,-30.984292
11.185,2.0,1.0,1.0,33.0,34.0,34.0,3.0,3.0,2.6875,0.5368427072560928,-0.028386012571552655,0.8253031606882593,0.005324416714493545,-0.135304,-30.78774
11.185,2.0,1.0,1.0,33.0,34.0,34.0,3.0,3.0,2.69,0.5289556891449143,-0.029096425063916673,0.83000536721526,0.005156142225939465,-0.138093,-30.588924
11.185,2.0,1.0,1.0,33.0,34.0,34.0,3.0,3.0,2.6925,0.5209515811062664,-0.029829991249194023,0.8346658995074917,0.004975323447291867,-0.140988,-30.387772
11.185,2.0,1.0,1.0,33.0,34.0,34.0,3.0,3.0,2.695,0.5128280830757947,-0.030587761745826794,0.8392827675134861,0.004781132970964695,-0.143992,-30.184213
11.185,2.0,1.0,1.0,33.0,34.0,34.0,3.0,3.0,2.6975,0.5045828111148177,-0.03137084939028213,0.8438538763331414,0.004572678396197715,-0.147113,-29.978168
11.185,2.0,1.0,1.0,33.0,34.0,34.0,3.0,3.0,2.7,0.49621329249632967,-0.03218043371576327,0.8483770186012237,0.004348996204907129,-0.150358,-29.769559
11.185,2.0,1.0,1.0,33.0,34.0,34.0,3.0,3.0,2.7025,0.4877169604034893,-0.03301776580212707,0.8528498661263695,0.004109044959435886,-0.153734,-29.5583
11.185,2.0,1.0,1.0,33.0,34.0,34.0,3.0,3.0,2.705,0.4790911482056446,-0.033884173530536216,0.8572699606950344,0.0038516977356197186,-0.157247,-29.344304
11.185,2.0,1.0,1.0,33.0,34.0,34.0,3.0,3.0,2.7075,0.4703330832737197,-0.03478106727939792,0.8616347039369701,0.0035757336920301725,-0.160908,-29.127481
11.185,2.0,1.0,1.0,33.0,34.0,34.0,3.0,3.0,2.71,0.4614398802934063,-0.03570994610136427,0.8659413461338178,0.0032798286616686177,-0.164724,-28.907734
11.185,2.0,1.0,1.0,33.0,34.0,34.0,3.0,3.0,2.7125,0.45240853403093617,-0.03667240442459123,0.8701869738350101,0.0029625446353868895,-0.168706,-28.684962
11.185,2.0,1.0,1.0,33.0,34.0,34.0,3.0,3.0,2.715,0.44323591150241426,-0.03767013932503265,0.8743684961248309,0.0026223179864687017,-0.172864,-28.459061
11.185,2.0,1.0,1.0,33.0,34.0,34.0,3.0,3.0,2.7175,0.4339187434936999,-0.03870495842025139,0.8784826293607503,0.0022574462625941758,-0.17721,-28.229919
11.185,2.0,1.0,1.0,33.0,34.0,34.0,3.0,3.0,2.72,0.42445361537377485,-0.03977878843898002,0.8825258801753065,0.0018660733441872904,-0.181756,-27.997422
11.185,2.0,1.0,1.0,33.0,34.0,34.0,3.0,3.0,2.7225,0.41483695714047925,-0.040893684524361644,0.8864945265011304,0.0014461727361539773,-0.186516,-27.761447
11.185,2.0,1.0,1.0,33.0,34.0,34.0,3.0,3.0,2.725,0.40506503263365107,-0.042051840332286455,0.8903845963402157,0.000995528722329809,-0.191505,-27.521867
11.185,2.0,1.0,1.0,33.0,34.0,34.0,3.0,3.0,2.7275,0.3951339278471533,-0.0432555989893075,0.8941918439531396,0.0005117150674465947,-0.196739,-27.278546
11.185,2.0,1.0,1.0,33.0,34.0,34.0,3.0,3.0,2.73,0.38503953826850484,-0.04450746497694402,0.8979117230901859,-7.929101259540566e-06,-0.202237,-27.031343
11.185,2.0,1.0,1.0,33.0,34.0,34.0,3.0,3.0,2.7325,0.3747775551730411,-0.04581011701036383,0.9015393568226189,-0.0005663266632045705,-0.208016,-26.780108
11.185,2.0,1.0,1.0,33.0,34.0,34.0,3.0,3.0,2.735,0.3643434507995154,-0.047166421978868264,0.9050695034565449,-0.0011666936291744178,-0.214101,-26.524685
11.185,2.0,1.0,1.0,33.0,34.0,34.0,3.0,3.0,2.7375,0.35373246233641403,-0.04857945001249567,0.9084965179214493,-0.0018125746151414514,-0.220513,-26.264906
11.185,2.0,1.0,1.0,33.0,34.0,34.0,3.0,3.0,2.74,0.34293957465426483,-0.05005249073229822,0.9118143079174748,-0.0025078833648370645,-0.227279,-26.000597
11.185,2.0,1.0,1.0,33.0,34.0,34.0,3.0,3.0,2.7425,0.3319595017302091,-0.05158907072993463,0.9150162839760195,-0.0032569491479952526,-0.234428,-25.731571
11.185,2.0,1.0,1.0,33.0,34.0,34.0,3.0,3.0,2.745,0.3207866667292686,-0.05319297230309388,0.9180953024325994,-0.004064570014174041,-0.241993,-25.457631
11.185,2.0,1.0,1.0,33.0,34.0,34.0,3.0,3.0,2.7475,0.3094151807347813,-0.05486825344411772,0.9210436001233661,-0.004936074066501614,-0.250008,-25.17857
11.185,2.0,1.0,1.0,33.0,34.0,34.0,3.0,3.0,2.75,0.29783882016224,-0.0566192690361988,0.923852719390008,-0.00587739014262805,-0.258515,-24.894167
11.185,2.0,1.0,1.0,33.0,34.0,34.0,3.0,3.0,2.7525,0.2860510029515405,-0.05845069314945394,0.9265134217031112,-0.00689512956034821,-0.267556,-24.604188
11.185,2.0,1.0,1.0,33.0,34.0,34.0,3.0,3.0,2.755,0.2740447637195092,-0.06036754224085777,0.9290155878803734,-0.007996680913667766,-0.277182,-24.308384
11.185,2.0,1.0,1.0,33.0,34.0,34.0,3.0,3.0,2.7575,0.26181272817739915,-0.06237519893765886,0.9313481024696161,-0.009190320305035188,-0.287449,-24.006489
11.185,2.0,1.0,1.0,33.0,34.0,34.0,3.0,3.0,2.76,0.2493470872904114,-0.06447943591000013,0.9334987193701642,-0.010485339887881577,-0.29842,-23.698224
11.185,2.0,1.0,1.0,33.0,34.0,34.0,3.0,3.0,2.7625,0.23663957189667653,-0.0666864390964663,0.9354539051586449,-0.011892198191459154,-0.310166,-23.383287
11.185,2.0,1.0,1.0,33.0,34.0,34.0,3.0,3.0,2.765,0.2236814288374967,-0.06900282921052334,0.9371986558399643,-0.013422696433288302,-0.322767,-23.06136
11.185,2.0,1.0,1.0,33.0,34.0,34.0,3.0,3.0,2.7675,0.21046340011456777,-0.07143567999072671,0.938716281828314,-0.015090185925667564,-0.336315,-22.7321
11.185,2.0,1.0,1.0,33.0,34.0,34.0,3.0,3.0,2.77,0.19697570723320876,-0.07399253101369951,0.9399881548356844,-0.01690981279167978,-0.350915,-22.395145
11.185,2.0,1.0,1.0,33.0,34.0,34.0,3.0,3.0,2.7725,0.18320804378282962,-0.07668139199713145,0.940993408956367,-0.01889880757212693,-0.366685,-22.050103
11.185,2.0,1.0,1.0,33.0,34.0,34.0,3.0,3.0,2.775,0.16914958054435575,-0.07951073428364575,0.9417085865240288,-0.021076828987801922,-0.383765,-21.696558
11.185,2.0,1.0,1.0,33.0,34.0,34.0,3.0,3.0,2.7775,0.15478898913637654,-0.0824894634791125,0.9421072172094633,-0.02346637319346647,-0.402311,-21.334066
11.185,2.0,1.0,1.0,33.0,34.0,34.0,3.0,3.0,2.78,0.1401144926112356,-0.08562686482848621,0.9421593162352199,-0.02609326240544401,-0.422509,-20.962147
11.185,2.0,1.0,1.0,33.0,34.0,34.0,3.0,3.0,2.7825,0.1251139547643871,-0.08893250957569414,0.9418307844092715,-0.028987229899696144,-0.444572,-20.580291
11.185,2.0,1.0,1.0,33.0,34.0,34.0,3.0,3.0,2.785,0.10977502461672316,-0.09241610588326253,0.941082688818025,-0.03218262216362428,-0.46875,-20.187951
11.185,2.0,1.0,1.0,33.0,34.0,34.0,3.0,3.0,2.7875,0.0940853591304273,-0.09608727132772414,0.939870398368951,-0.03571924353802377,-0.495337,-19.78454
11.185,2.0,1.0,1.0,33.0,34.0,34.0,3.0,3.0,2.79,0.07803295652619083,-0.09995519474447619,0.93814254286636,-0.03964337406825485,-0.52468,-19.369431
11.185,2.0,1.0,1.0,33.0,34.0,34.0,3.0,3.0,2.7925,0.06160664573562855,-0.10402814213130097,0.9358397579548818,-0.04400899747345253,-0.55719,-18.941954
11.185,2.0,1.0,1.0,33.0,34.0,34.0,3.0,3.0,2.795,0.04479679620243185,-0.10831274279758818,0.932893171269655,-0.04887928293486664,-0.593359,-18.501396
11.185,2.0,1.0,1.0,33.0,34.0,34.0,3.0,3.0,2.7975,0.0275963388153128,-0.11281296562060836,0.929222578046627,-0.05432837123240134,-0.633776,-18.047
11.185,2.0,1.0,1.0,33.0,34.0,34.0,3.0,3.0,2.8,0.01000222661127724,-0.11752865779092246,0.9247342485141709,-0.060443521368796216,-0.679153,-17.577965
11.185,2.0,1.0,1.0,33.0,34.0,34.0,3.0,3.0,2.8025,-0.0079824821543217,-0.12245346505165941,0.9193183071232222,-0.06732767569303315,-0.730354,-17.093452
11.185,2.0,1.0,1.0,33.0,34.0,34.0,3.0,3.0,2.805,-0.026345659188191844,-0.1275718765450173,0.912845629898252,-0.07510249485362878,-0.788437,-16.592592
11.185,2.0,1.0,1.0,33.0,34.0,34.0,3.0,3.0,2.8075,-0.0450618914460562,-0.13285502999642604,0.9051642298505098,-0.08391188976866729,-0.854702,-16.074496
11.185,2.0,1.0,1.0,33.0,34.0,34.0,3.0,3.0,2.81,-0.06408649579501857,-0.13825476249684138,0.8960951577089278,-0.09392602007007912,-0.930761,-15.538284
11.185,2.0,1.0,1.0,33.0,34.0,34.0,3.0,3.0,2.8125,-0.0833470319414853,-0.143695184999865,0.8854280650636,-0.105345608522982,-1.018622,-14.983109
11.185,2.0,1.0,1.0,33.0,34.0,34.0,3.0,3.0,2.815,-0.10273130129193088,-0.14906078231931072,0.8729168098203552,-0.11840618878856565,-1.120804,-14.408221
11.185,2.0,1.0,1.0,33.0,34.0,34.0,3.0,3.0,2.8175,-0.12207046418298799,-0.1541796924410855,0.8582759157763313,-0.13338147444321366,-1.240486,-13.813036
11.185,2.0,1.0,1.0,33.0,34.0,34.0,3.0,3.0,2.82,-0.1411155078138706,-0.15880042927070928,0.8411794715788167,-0.15058426989844054,-1.381691,-13.197262
11.185,2.0,1.0,1.0,33.0,34.0,34.0,3.0,3.0,2.8225,-0.15950496449336662,-0.16255999422626066,0.821265392833369,-0.1703620189185895,-1.549524,-12.561065
11.185,2.0,1.0,1.0,33.0,34.0,34.0,3.0,3.0,2.825,-0.17672181642931278,-0.16494137520040156,0.7981501935886779,-0.193081891374791,-1.750452,-11.905327
11.185,2.0,1.0,1.0,33.0,34.0,34.0,3.0,3.0,2.8275,-0.19203862510654504,-0.16521954649897977,0.7714628879411755,-0.2190968861821999,-1.992597,-11.231996
11.185,2.0,1.0,1.0,33.0,34.0,34.0,3.0,3.0,2.83,-0.2044535197619226,-0.16239867277459719,0.7409115439111164,-0.24867961783666498,-2.285954,-10.544581
