1,w,sub_t,h,l1,l2,l3,g1,g2,Freq,S11_re,S21_re,S11_img,S21_img,S11_dB,S21_dB
11.185,2.0,1.0,1.0,34.3,33.5,33.5,4.0,4.2,2.5,0.740836056364474,-0.00703795401460241,0.660836272512747,0.00246915918129524,-0.063246,-42.546945
11.185,2.0,1.0,1.0,34.3,33.5,33.5,4.0,4.2,2.5025,0.7356836657599172,-0.007150708763844344,0.666464579852924,0.002438930509731923,-0.06385,-42.435083
11.185,2.0,1.0,1.0,34.3,33.5,33.5,4.0,4.2,2.505,0.730462502872633,-0.007264892764395983,0.6720794004719945,0.002407165998479861,-0.064464,-42.323017
11.185,2.0,1.0,1.0,34.3,33.5,33.5,4.0,4.2,2.5075,0.7251719255459813,-0.00738052021162456,0.6776801364005327,0.0023738227756088096,-0.065088,-42.210741
11.185,2.0,1.0,1.0,34.3,33.5,33.5,4.0,4.2,2.51,0.7198112853056507,-0.007497605267056352,0.68326617347142,0.002338856774095006,-0.065722,-42.098251
11.185,2.0,1.0,1.0,34.3,33.5,33.5,4.0,4.2,2.5125,0.7143799274090099,-0.007616162045940916,0.6888368808811972,0.0023022226965791425,-0.066366,-41.985541
11.185,2.0,1.0,1.0,34.3,33.5,33.5,4.0,4.2,2.515,0.7088771909017835,-0.007736204604049847,0.6943916107403666,0.0022638739790447706,-0.06702,-41.872605
11.185,2.0,1.0,1.0,34.3,33.5,33.5,4.0,4.2,2.5175,0.703302408682468,-0.007857746923670687,0.6999296976124023,0.0022237627533834904,-0.067685,-41.759438
11.185,2.0,1.0,1.0,34.3,33.5,33.5,4.0,4.2,2.52,0.6976549075748827,-0.007980802898755465,0.7054504580412521,0.0021818398088114437,-0.06836,-41.646035
11.185,2.0,1.0,1.0,34.3,33.5,33.5,4.0,4.2,2.5225,0.6919340084093182,-0.008105386319180365,0.7109531900670754,0.002138054552101048,-0.069047,-41.532389
11.185,2.0,1.0,1.0,34.3,33.5,33.5,4.0,4.2,2.525,0.6861390261127163,-0.008231510854071965,0.7164371727300066,0.002092354966590433,-0.069745,-41.418496
11.185,2.0,1.0,1.0,34.3,33.5,33.5,4.0,4.2,2.5275,0.6802692698083598,-0.008359190034152579,0.7219016655616971,0.0020446875699317766,-0.070454,-41.30435
11.185,2.0,1.0,1.0,34.3,33.5,33.5,4.0,4.2,2.53,0.6743240429255799,-0.008488437233055167,0.7273459080644044,0.0019949973705386927,-0.071175,-41.189946
11.185,2.0,1.0,1.0,34.3,33.5,33.5,4.0,4.2,2.5325,0.6683026433199872,-0.008619265647556006,0.7327691191773941,0.0019432278226911416,-0.071908,-41.075276
11.185,2.0,1.0,1.0,34.3,33.5,33.5,4.0,4.2,2.535,0.6622043634047668,-0.008751688276670675,0.7381704967304289,0.0018893207802551115,-0.072652,-40.960337
11.185,2.0,1.0,1.0,34.3,33.5,33.5,4.0,4.2,2.5375,0.6560284902936131,-0.008885717899556058,0.7435492168841009,0.0018332164489730572,-0.07341,-40.845122
11.185,2.0,1.0,1.0,34.3,33.5,33.5,4.0,4.2,2.54,0.6497743059558798,-0.00902136705215886,0.7489044335567902,0.0017748533372791558,-0.07418,-40.729626
11.185,2.0,1.0,1.0,34.3,33.5,33.5,4.0,4.2,2.5425,0.6434410873845633,-0.00915864800254756,0.75423527783802,0.0017141682055920567,-0.074963,-40.613842
11.185,2.0,1.0,1.0,34.3,33.5,33.5,4.0,4.2,2.545,0.6370281067777578,-0.009297572724862329,0.7595408573879796,0.0016510960140364097,-0.075759,-40.497765
11.185,2.0,1.0,1.0,34.3,33.5,33.5,4.0,4.2,2.5475,0.6305346317342564,-0.009438152871813444,0.7648202558229984,0.0015855698685422737,-0.076569,-40.381388
11.185,2.0,1.0,1.0,34.3,33.5,33.5,4.0,4.2,2.55,0.6239599254639754,-0.009580399745656434,0.7700725320867642,0.0015175209652699513,-0.077392,-40.264707
11.185,2.0,1.0,1.0,34.3,33.5,33.5,4.0,4.2,2.5525,0.61730324701395,-0.009724324267567395,0.7752967198070558,0.0014468785333061644,-0.078229,-40.147715
11.185,2.0,1.0,1.0,34.3,33.5,33.5,4.0,4.2,2.555,0.6105638515106356,-0.009869936945339573,0.7804918266378045,0.0013735697755748368,-0.079081,-40.030405
11.185,2.0,1.0,1.0,34.3,33.5,33.5,4.0,4.2,2.5575,0.6037409904193046,-0.01001724783931728,0.7856568335862817,0.0012975198079044502,-0.079947,-39.912772
11.185,2.0,1.0,1.0,34.3,33.5,33.5,4.0,4.2,2.56,0.5968339118213629,-0.01016626652647984,0.7907906943252148,0.0012186515961913672,-0.080829,-39.794809
11.185,2.0,1.0,1.0,34.3,33.5,33.5,4.0,4.2,2.5625,0.589841860710433,-0.010317002062583552,0.7958923344896596,0.001136885891596097,-0.081725,-39.676511
11.185,2.0,1.0,1.0,34.3,33.5,33.5,4.0,4.2,2.565,0.5827640793080822,-0.01046946294226576,0.8009606509584594,0.0010521411637076485,-0.082637,-39.55787
11.185,2.0,1.0,1.0,34.3,33.5,33.5,4.0,4.2,2.5675,0.5755998074001306,-0.010623657057009413,0.805994511120116,0.000964333531607949,-0.083565,-39.438882
11.185,2.0,1.0,1.0,34.3,33.5,33.5,4.0,4.2,2.57,0.5683482826944884,-0.010779591650862544,0.8109927521229403,0.0008733766927661935,-0.08451,-39.319538
11.185,2.0,1.0,1.0,34.3,33.5,33.5,4.0,4.2,2.5725,0.5610087412015126,-0.010937273273801406,0.8159541801093406,0.0007791818496897968,-0.085471,-39.199833
11.185,2.0,1.0,1.0,34.3,33.5,33.5,4.0,4.2,2.575,0.5535804176379289,-0.011096707732620354,0.8208775694341255,0.0006816576342558322,-0.086449,-39.07976
11.185,2.0,1.0,1.0,34.3,33.5,33.5,4.0,4.2,2.5775,0.5460625458553886,-0.011257900039226037,0.8257616618667208,0.0005807100296438568,-0.087444,-38.959312
11.185,2.0,1.0,1.0,34.3,33.5,33.5,4.0,4.2,2.58,0.5384543592947787,-0.011420854356207382,0.8306051657772089,0.0004762422897874366,-0.088457,-38.838483
11.185,2.0,1.0,1.0,34.3,33.5,33.5,4.0,4.2,2.5825,0.5307550914674404,-0.0115855739395463,0.8354067553061262,0.0003681548562581168,-0.089488,-38.717266
11.185,2.0,1.0,1.0,34.3,33.5,33.5,4.0,4.2,2.585,0.5229639764645058,-0.01175206107832736,0.8401650695179679,0.00025634527249248913,-0.090538,-38.595653
11.185,2.0,1.0,1.0,34.3,33.5,33.5,4.0,4.2,2.5875,0.5150802494955925,-0.011920317031297648,0.844878711538383,0.0001407080952678478,-0.091607,-38.473639
11.185,2.0,1.0,1.0,34.3,33.5,33.5,4.0,4.2,2.59,0.5071031474581653,-0.012090341960120262,0.849546247675035,2.1134803329058742e-05,-0.092695,-38.351215
11.185,2.0,1.0,1.0,34.3,33.5,33.5,4.0,4.2,2.5925,0.4990319095388862,-0.01226213485915733,0.8541662065221947,-0.00010248629693642434,-0.093803,-38.228375
11.185,2.0,1.0,1.0,34.3,33.5,33.5,4.0,4.2,2.595,0.49086577784837243,-0.012435693481609706,0.8587370780490701,-0.00023027016888250474,-0.094931,-38.105111
11.185,2.0,1.0,1.0,34.3,33.5,33.5,4.0,4.2,2.5975,0.48260399809077764,-0.012611014261831956,0.8632573126719936,-0.0003623351461601846,-0.096079,-37.981416
11.185,2.0,1.0,1.0,34.3,33.5,33.5,4.0,4.2,2.6,0.4742458202697022,-0.012788092233631957,0.8677253203105729,-0.0004988030365631354,-0.097249,-37.857282
11.185,2.0,1.0,1.0,34.3,33.5,33.5,4.0,4.2,2.6025,0.46579049943198286,-0.012966920944353843,0.8721394694279447,-0.0006397992292869352,-0.098441,-37.732703
11.185,2.0,1.0,1.0,34.3,33.5,33.5,4.0,4.2,2.605,0.45723729645094746,-0.013147492364533879,0.8764980860553396,-0.0007854528057330988,-0.099655,-37.607669
11.185,2.0,1.0,1.0,34.3,33.5,33.5,4.0,4.2,2.6075,0.44858547885080075,-0.013329796792906442,0.8807994528011704,-0.0009358966539944349,-0.100892,-37.482173
11.185,2.0,1.0,1.0,34.3,33.5,33.5,4.0,4.2,2.61,0.4398343216738485,-0.013513822756526194,0.8850418078449293,-0.001091267587167122,-0.102151,-37.356208
11.185,2.0,1.0,1.0,34.3,33.5,33.5,4.0,4.2,2.6125,0.43098310839232523,-0.013699556905760121,0.8892233439161972,-0.0012517064656418072,-0.103435,-37.229764
11.185,2.0,1.0,1.0,34.3,33.5,33.5,4.0,4.2,2.615,0.42203113186664726,-0.013886983903889715,0.8933422072591469,-0.0014173583235355326,-0.104743,-37.102835
11.185,2.0,1.0,1.0,34.3,33.5,33.5,4.0,4.2,2.6175,0.4129776953519882,-0.014076086311049327,0.8973964965829418,-0.0015883724994346564,-0.106076,-36.975411
11.185,2.0,1.0,1.0,34.3,33.5,33.5,4.0,4.2,2.62,0.403822113555108,-0.01426684446221189,0.9013842619985134,-0.001764902771629945,-0.107434,-36.847483
11.185,2.0,1.0,1.0,34.3,33.5,33.5,4.0,4.2,2.6225,0.3945637137434433,-0.014459236338917552,0.9053035039422423,-0.001947107498035413,-0.108818,-36.719044
11.185,2.0,1.0,1.0,34.3,33.5,33.5,4.0,4.2,2.625,0.38520183690854,-0.0146532374344229,0.909152172087128,-0.00213514976099424,-0.110229,-36.590084
11.185,2.0,1.0,1.0,34.3,33.5,33.5,4.0,4.2,2.6275,0.3757358389859347,-0.014848820611931319,0.9129281642421199,-0.0023291975171885735,-0.111668,-36.460595
11.185,2.0,1.0,1.0,34.3,33.5,33.5,4.0,4.2,2.63,0.36616509213369414,-0.0150459559555446,0.9166293252403112,-0.0025294237528834217,-0.113135,-36.330566
11.185,2.0,1.0,1.0,34.3,33.5,33.5,4.0,4.2,2.6325,0.3564889860718592,-0.015244610613555915,0.9202534458168101,-0.0027360066447502597,-0.11463,-36.199989
11.185,2.0,1.0,1.0,34.3,33.5,33.5,4.0,4.2,2.635,0.3467069294851204,-0.015444748633681409,0.923798261477146,-0.0029491297265327484,-0.116155,-36.068854
11.185,2.0,1.0,1.0,34.3,33.5,33.5,4.0,4.2,2.6375,0.3368183514911115,-0.015646330789803806,0.9272614513571609,-0.0031689820618343192,-0.117709,-35.937152
11.185,2.0,1.0,1.0,34.3,33.5,33.5,4.0,4.2,2.64,0.3268227031767435,-0.01584931439977625,0.9306406370754405,-0.0033957584233284964,-0.119295,-35.804871
11.185,2.0,1.0,1.0,34.3,33.5,33.5,4.0,4.2,2.6425,0.3167194592051387,-0.016053653133806137,0.9339333815793587,-0.003629659478712511,-0.120913,-35.672003
11.185,2.0,1.0,1.0,34.3,33.5,33.5,4.0,4.2,2.645,0.30650811949569595,-0.016259296812909368,0.9371371879859983,-0.003870891983749742,-0.122563,-35.538536
11.185,2.0,1.0,1.0,34.3,33.5,33.5,4.0,4.2,2.6475,0.2961882109799684,-0.016466191196893205,0.940249498419208,-0.004119668982771328,-0.124246,-35.40446
11.185,2.0,1.0,1.0,34.3,33.5,33.5,4.0,4.2,2.65,0.28575928943601814,-0.016674277761291413,0.9432676928442328,-0.004376210017035931,-0.125964,-35.269764
11.185,2.0,1.0,1.0,34.3,33.5,33.5,4.0,4.2,2.6525,0.275220941404073,-0.01688349346263674,0.946189087901387,-0.004640741341376743,-0.127717,-35.134437
11.185,2.0,1.0,1.0,34.3,33.5,33.5,4.0,4.2,2.655,0.2645727861862686,-0.017093770491416624,0.9490109357404061,-0.004913496149599093,-0.129505,-34.998467
11.185,2.0,1.0,1.0,34.3,33.5,33.5,4.0,4.2,2.6575,0.25381447793340356,-0.01730503601201239,0.9517304228571821,-0.005194714809128664,-0.131331,-34.861842
11.185,2.0,1.0,1.0,34.3,33.5,33.5,4.0,4.2,2.66,0.24294570782165162,-0.017517211888874704,0.9543446689347125,-0.005484645105450729,-0.133194,-34.724551
11.185,2.0,1.0,1.0,34.3,33.5,33.5,4.0,4.2,2.6625,0.23196620632226855,-0.017730214398135654,0.9568507256902092,-0.005783542496924855,-0.135097,-34.586581
11.185,2.0,1.0,1.0,34.3,33.5,33.5,4.0,4.2,2.665,0.22087574556735132,-0.0179439539238007,0.9592455757304206,-0.006091670380609245,-0.137039,-34.447919
11.185,2.0,1.0,1.0,34.3,33.5,33.5,4.0,4.2,2.6675,0.20967414181481503,-0.018158334637601255,0.9615261314173615,-0.006409300369780884,-0.139023,-34.308553
11.185,2.0,1.0,1.0,34.3,33.5,33.5,4.0,4.2,2.67,0.1983612580157776,-0.018373254161520358,0.9636892337467299,-0.006736712583897521,-0.141048,-34.168469
11.185,2.0,1.0,1.0,34.3,33.5,33.5,4.0,4.2,2.6725,0.1869370064875885,-0.018588603211929896,0.9657316512414729,-0.00707419595181183,-0.143117,-34.027652
11.185,2.0,1.0,1.0,34.3,33.5,33.5,4.0,4.2,2.675,0.17540135169586132,-0.018804265224194643,0.9676500788629998,-0.0074220485291180424,-0.145231,-33.88609
11.185,2.0,1.0,1.0,34.3,33.5,33.5,4.0,4.2,2.6775,0.16375431314884165,-0.019020115956509303,0.9694411369427548,-0.00778057783059098,-0.14739,-33.743767
11.185,2.0,1.0,1.0,34.3,33.5,33.5,4.0,4.2,2.68,0.15199596840754054,-0.01923602307163524,0.9711013701369318,-0.008150101178761587,-0.149596,-33.600668
11.185,2.0,1.0,1.0,34.3,33.5,33.5,4.0,4.2,2.6825,0.14012645621514194,-0.019451845695094214,0.9726272464072324,-0.00853094606976848,-0.151851,-33.456777
11.185,2.0,1.0,1.0,34.3,33.5,33.5,4.0,4.2,2.685,0.128145979749183,-0.019667433948255954,0.9740151560307213,-0.008923450557728689,-0.154156,-33.31208
11.185,2.0,1.0,1.0,34.3,33.5,33.5,4.0,4.2,2.6875,0.116054810000131,-0.0198826284546234,0.975261410641899,-0.0093279636589851,-0.156511,-33.166559
11.185,2.0,1.0,1.0,34.3,33.5,33.5,4.0,4.2,2.69,0.10385328927997638,-0.02009725981747105,0.9763622423102871,-0.009744845777713744,-0.15892,-33.020197
11.185,2.0,1.0,1.0,34.3,33.5,33.5,4.0,4.2,2.6925,0.09154183486457818,-0.020311148066829404,0.9773138026568261,-0.010174469154514526,-0.161383,-32.872976
11.185,2.0,1.0,1.0,34.3,33.5,33.5,4.0,4.2,2.695,0.07912094277351216,-0.020524102073625837,0.9781121620125902,-0.010617218339759064,-0.163902,-32.724879
11.185,2.0,1.0,1.0,34.3,33.5,33.5,4.0,4.2,2.6975,0.06659119169125627,-0.020735918928591338,0.978753308623303,-0.011073490693642184,-0.166478,-32.575887
11.185,2.0,1.0,1.0,34.3,33.5,33.5,4.0,4.2,2.7,0.05395324703364006,-0.020946383283316834,0.9792331479032738,-0.0115436969150648,-0.169114,-32.42598
11.185,2.0,1.0,1.0,34.3,33.5,33.5,4.0,4.2,2.7025,0.04120786516351572,-0.02115526665059354,0.9795475017423922,-0.0120282616016862,-0.171811,-32.275137
11.185,2.0,1.0,1.0,34.3,33.5,33.5,4.0,4.2,2.705,0.028355897759754473,-0.021362326660891336,0.9796921078698676,-0.012527623843705506,-0.174571,-32.123339
11.185,2.0,1.0,1.0,34.3,33.5,33.5,4.0,4.2,2.7075,0.015398296343719453,-0.021567306271516807,0.9796626192783953,-0.013042237854185817,-0.177396,-31.970562
11.185,2.0,1.0,1.0,34.3,33.5,33.5,4.0,4.2,2.71,0.0023361169675399644,-0.021769932924643777,0.9794546037124268,-0.013572573639007582,-0.180289,-31.816786
11.185,2.0,1.0,1.0,34.3,33.5,33.5,4.0,4.2,2.7125,-0.010829474931418453,-0.02196991765001633,0.9790635432241815,-0.014119117709844411,-0.183251,-31.661986
11.185,2.0,1.0,1.0,34.3,33.5,33.5,4.0,4.2,2.715,-0.024097199505265,-0.022166954107685672,0.9784848338009324,-0.014682373843889512,-0.186285,-31.506138
11.185,2.0,1.0,1.0,34.3,33.5,33.5,4.0,4.2,2.7175,-0.03746565729471433,-0.022360717565647992,0.9777137850670171,-0.015262863894434299,-0.189393,-31.349217
11.185,2.0,1.0,1.0,34.3,33.5,33.5,4.0,4.2,2.72,-0.05093332384761414,-0.022550863806694865,0.9767456200638232,-0.015861128656808915,-0.192577,-31.191196
11.185,2.0,1.0,1.0,34.3,33.5,33.5,4.0,4.2,2.7225,-0.06449854415161471,-0.022737027958163212,0.9755754751108057,-0.016477728794652476,-0.195841,-31.032049
11.185,2.0,1.0,1.0,34.3,33.5,33.5,4.0,4.2,2.725,-0.07815952687535348,-0.022918823237565302,0.9741983997503207,-0.01711324583197831,-0.199187,-30.871747
11.185,2.0,1.0,1.0,34.3,33.5,33.5,4.0,4.2,2.7275,-0.09191433841222185,-0.02309583960628381,0.9726093567787054,-0.017768283217059554,-0.202617,-30.71026
11.185,2.0,1.0,1.0,34.3,33.5,33.5,4.0,4.2,2.73,-0.10576089672020614,-0.023267642322616012,0.9708032223656211,-0.018443467464770505,-0.206136,-30.547557
11.185,2.0,1.0,1.0,34.3,33.5,33.5,4.0,4.2,2.7325,-0.1196969649509249,-0.0234337703844326,0.9687747862632184,-0.019139449384702877,-0.209746,-30.383606
11.185,2.0,1.0,1.0,34.3,33.5,33.5,4.0,4.2,2.735,-0.1337201448601248,-0.0235937348505606,0.966518752106027,-0.019856905403125263,-0.21345,-30.218373
11.185,2.0,1.0,1.0,34.3,33.5,33.5,4.0,4.2,2.7375,-0.14782786999130237,-0.023747017028690007,0.9640297378018278,-0.020596538987690073,-0.217252,-30.051823
11.185,2.0,1.0,1.0,34.3,33.5,33.5,4.0,4.2,2.74,-0.1620173986231006,-0.023893066516112327,0.9613022760129505,-0.021359082184712445,-0.221156,-29.883919
11.185,2.0,1.0,1.0,34.3,33.5,33.5,4.0,4.2,2.7425,-0.17628580647005881,-0.024031299077904952,0.9583308147264461,-0.022145297279869577,-0.225166,-29.714623
11.185,2.0,1.0,1.0,34.3,33.5,33.5,4.0,4.2,2.745,-0.19062997912499002,-0.02416109434524252,0.9551097179105582,-0.022955978594299303,-0.229286,-29.543894
11.185,2.0,1.0,1.0,34.3,33.5,33.5,4.0,4.2,2.7475,-0.20504660422974594,-0.024281793314311437,0.9516332662536189,-0.023791954429331855,-0.23352,-29.371689
11.185,2.0,1.0,1.0,34.3,33.5,33.5,4.0,4.2,2.75,-0.219532163359253,-0.0243926956237842,0.947895657980061,-0.0246540891744786,-0.237874,-29.197966
11.185,2.0,1.0,1.0,34.3,33.5,33.5,4.0,4.2,2.7525,-0.23408292360158098,-0.024493056585926445,0.9438910097366237,-0.025543285594841564,-0.242351,-29.022676
11.185,2.0,1.0,1.0,34.3,33.5,33.5,4.0,4.2,2.755,-0.24869492881424124,-0.0245820839431039,0.9396133575399467,-0.02646048731581387,-0.246958,-28.845771
11.185,2.0,1.0,1.0,34.3,33.5,33.5,4.0,4.2,2.7575,-0.26336399053389875,-0.024658934317662317,0.93505665777463,-0.02740668152483499,-0.251699,-28.667201
11.185,2.0,1.0,1.0,34.3,33.5,33.5,4.0,4.2,2.76,-0.27808567851308064,-0.024722709318790424,0.9302147882284877,-0.028382901912056942,-0.256582,-28.48691
11.185,2.0,1.0,1.0,34.3,33.5,33.5,4.0,4.2,2.7625,-0.2928553108533313,-0.024772451264950868,0.9250815491489938,-0.029390231874103074,-0.261612,-28.304842
11.185,2.0,1.0,1.0,34.3,33.5,33.5,4.0,4.2,2.765,-0.30766794369923367,-0.02480713847466843,0.9196506643019364,-0.03042980800766808,-0.266796,-28.120938
11.185,2.0,1.0,1.0,34.3,33.5,33.5,4.0,4.2,2.7675,-0.32251836045187604,-0.02482568007176471,0.913915782009886,-0.03150282392255451,-0.272141,-27.935135
11.185,2.0,1.0,1.0,34.3,33.5,33.5,4.0,4.2,2.77,-0.33740106045349627,-0.024826910243374852,0.9078704761443193,-0.03261053440688751,-0.277656,-27.747366
11.185,2.0,1.0,1.0,34.3,33.5,33.5,4.0,4.2,2.7725,-0.35231024708679676,-0.024809581880085883,0.901508247040996,-0.033754259980722706,-0.283347,-27.557562
11.185,2.0,1.0,1.0,34.3,33.5,33.5,4.0,4.2,2.775,-0.3672398152229349,-0.024772359517084563,0.8948225223035097,-0.03493539187809835,-0.289226,-27.365648
11.185,2.0,1.0,1.0,34.3,33.5,33.5,4.0,4.2,2.7775,-0.3821833379407123,-0.0247138114830319,0.8878066574547048,-0.036155397501804354,-0.2953,-27.171547
11.185,2.0,1.0,1.0,34.3,33.5,33.5,4.0,4.2,2.78,-0.3971340524262386,-0.024632401149182605,0.8804539363898896,-0.03741582639978437,-0.301581,-26.975177
11.185,2.0,1.0,1.0,34.3,33.5,33.5,4.0,4.2,2.7825,-0.41208484494635483,-0.024526477154666524,0.8727575715794202,-0.03871831681716922,-0.30808,-26.77645
11.185,2.0,1.0,1.0,34.3,33.5,33.5,4.0,4.2,2.785,-0.42702823477055524,-0.024394262464396462,0.8647107039612321,-0.040064602883502005,-0.314808,-26.575275
11.185,2.0,1.0,1.0,34.3,33.5,33.5,4.0,4.2,2.7875,-0.4419563568937561,-0.024233842093225905,0.856306402456268,-0.04145652250074614,-0.321778,-26.371553
11.185,2.0,1.0,1.0,34.3,33.5,33.5,4.0,4.2,2.79,-0.4568609433861117,-0.024043149303091677,0.8475376630314402,-0.04289602600420097,-0.329006,-26.165182
11.185,2.0,1.0,1.0,34.3,33.5,33.5,4.0,4.2,2.7925,-0.47173330316475054,-0.02381995004815714,0.838397407225798,-0.044385185675440926,-0.336505,-25.956051
11.185,2.0,1.0,1.0,34.3,33.5,33.5,4.0,4.2,2.795,-0.4865642999452046,-0.023561825405452545,0.8288784800459258,-0.045926206193832426,-0.344294,-25.744045
11.185,2.0,1.0,1.0,34.3,33.5,33.5,4.0,4.2,2.7975,-0.5013443280859935,-0.023266151684025547,0.8189736471264971,-0.04752143612094888,-0.352389,-25.529039
11.185,2.0,1.0,1.0,34.3,33.5,33.5,4.0,4.2,2.8,-0.5160632859870462,-0.02293007785273148,0.8086755910411643,-0.04917338052020542,-0.360812,-25.310902
11.185,2.0,1.0,1.0,34.3,33.5,33.5,4.0,4.2,2.8025,-0.5307105466394622,-0.022550499863759,0.7979769066381838,-0.050884714822009076,-0.369583,-25.089495
11.185,2.0,1.0,1.0,34.3,33.5,33.5,4.0,4.2,2.805,-0.5452749248484544,-0.0221240313736469,0.7868700952643408,-0.052658300052361884,-0.378726,-24.864669
11.185,2.0,1.0,1.0,34.3,33.5,33.5,4.0,4.2,2.8075,-0.5597446405602859,-0.02164697027324589,0.775347557730441,-0.054497199549669154,-0.388268,-24.636264
11.185,2.0,1.0,1.0,34.3,33.5,33.5,4.0,4.2,2.81,-0.5741072776147339,-0.021115260329530684,0.7634015858626436,-0.056404697299769574,-0.398237,-24.404112
11.185,2.0,1.0,1.0,34.3,33.5,33.5,4.0,4.2,2.8125,-0.588349737112279,-0.0205244471113052,0.751024352477109,-0.0583843180218966,-0.408665,-24.168033
11.185,2.0,1.0,1.0,34.3,33.5,33.5,4.0,4.2,2.815,-0.6024581844254432,-0.01986962721259705,0.7382078996122744,-0.06043984913695407,-0.419587,-23.927834
11.185,2.0,1.0,1.0,34.3,33.5,33.5,4.0,4.2,2.8175,-0.616417988689594,-0.019145389595598326,0.7249441248556875,-0.06257536474205912,-0.431043,-23.683308
11.185,2.0,1.0,1.0,34.3,33.5,33.5,4.0,4.2,2.82,-0.6302136533722683,-0.01834574764146877,0.7112247656134271,-0.06479525169887711,-0.443075,-23.434236
11.185,2.0,1.0,1.0,34.3,33.5,33.5,4.0,4.2,2.8225,-0.6438287362317788,-0.01746406021226866,0.6970413811940015,-0.06710423791375145,-0.455731,-23.180381
11.185,2.0,1.0,1.0,34.3,33.5,33.5,4.0,4.2,2.825,-0.6572457566228187,-0.016492939678254454,0.6823853326206522,-0.06950742283926642,-0.469066,-22.92149
11.185,2.0,1.0,1.0,34.3,33.5,33.5,4.0,4.2,2.8275,-0.6704460876731878,-0.015424144436023803,0.6672477601545032,-0.07201031015160751,-0.483141,-22.657292
