1,w,sub_t,h,l1,l2,l3,g1,g2,Freq,S11_re,S21_re,S11_img,S21_img,S11_dB,S21_dB
11.185,2.0,1.0,1.0,34.2,33.0,33.0,3.6,3.7,2.5,0.756309938012253,-0.007618103262321,0.643843591617194,0.00344047689281466,-0.058856,-41.556945
11.185,2.0,1.0,1.0,34.2,33.0,33.0,3.6,3.7,2.5025,0.7514252537711029,-0.007744196655595126,0.6494417164700858,0.003418693078470154,-0.059406,-41.447229
11.185,2.0,1.0,1.0,34.2,33.0,33.0,3.6,3.7,2.505,0.746475158777863,-0.007871966617464383,0.6550286184367844,0.0033954091980775455,-0.059964,-41.337324
11.185,2.0,1.0,1.0,34.2,33.0,33.0,3.6,3.7,2.5075,0.7414590382222684,-0.008001431781426264,0.6606037728251694,0.0033705815958119368,-0.060531,-41.227224
11.185,2.0,1.0,1.0,34.2,33.0,33.0,3.6,3.7,2.51,0.7363762706361073,-0.008132610827088745,0.666166640604599,0.0033441653843740184,-0.061108,-41.116924
11.185,2.0,1.0,1.0,34.2,33.0,33.0,3.6,3.7,2.5125,0.7312262279080343,-0.00826552246888292,0.6717166680098247,0.003316114408812912,-0.061693,-41.006421
11.185,2.0,1.0,1.0,34.2,33.0,33.0,3.6,3.7,2.515,0.7260082753040461,-0.008400185443998629,0.6772532861345888,0.0032863812092739438,-0.062288,-40.895708
11.185,2.0,1.0,1.0,34.2,33.0,33.0,3.6,3.7,2.5175,0.7207217714939653,-0.008536618499501436,0.6827759105146486,0.003254916982641024,-0.062893,-40.784782
11.185,2.0,1.0,1.0,34.2,33.0,33.0,3.6,3.7,2.52,0.7153660685842607,-0.0086748403785878,0.6882839407000112,0.003221671543041908,-0.063507,-40.673638
11.185,2.0,1.0,1.0,34.2,33.0,33.0,3.6,3.7,2.5225,0.7099405121575965,-0.008814869805932355,0.6937767598161173,0.0031865932811843472,-0.064131,-40.562271
11.185,2.0,1.0,1.0,34.2,33.0,33.0,3.6,3.7,2.525,0.7044444413194669,-0.008956725472080119,0.6992537341137498,0.0031496291224903873,-0.064766,-40.450675
11.185,2.0,1.0,1.0,34.2,33.0,33.0,3.6,3.7,2.5275,0.6988771887523259,-0.009100426016832835,0.7047142125074184,0.003110724483994828,-0.065411,-40.338847
11.185,2.0,1.0,1.0,34.2,33.0,33.0,3.6,3.7,2.53,0.6932380807776337,-0.00924599001157721,0.7101575261019695,0.0030698232299738236,-0.066067,-40.226782
11.185,2.0,1.0,1.0,34.2,33.0,33.0,3.6,3.7,2.5325,0.6875264374262535,-0.009393435940499493,0.7155829877071803,0.003026867626268149,-0.066733,-40.114474
11.185,2.0,1.0,1.0,34.2,33.0,33.0,3.6,3.7,2.535,0.6817415725176501,-0.009542782180628871,0.7209898913400894,0.0029817982932655047,-0.067411,-40.001919
11.185,2.0,1.0,1.0,34.2,33.0,33.0,3.6,3.7,2.5375,0.6758827937483837,-0.009694046980648328,0.7263775117148111,0.0029345541575049035,-0.068099,-39.889112
11.185,2.0,1.0,1.0,34.2,33.0,33.0,3.6,3.7,2.54,0.6699494027903847,-0.009847248438409863,0.7317451037195871,0.002885072401865866,-0.0688,-39.776049
11.185,2.0,1.0,1.0,34.2,33.0,33.0,3.6,3.7,2.5425,0.6639406953995388,-0.010002404477086864,0.7370919018808293,0.0028332884143040062,-0.069512,-39.662723
11.185,2.0,1.0,1.0,34.2,33.0,33.0,3.6,3.7,2.545,0.6578559615351254,-0.010159532819893617,0.742417119813905,0.002779135735094397,-0.070236,-39.54913
11.185,2.0,1.0,1.0,34.2,33.0,33.0,3.6,3.7,2.5475,0.6516944854906896,-0.010318650963298537,0.7477199496604062,0.002722546002542445,-0.070972,-39.435266
11.185,2.0,1.0,1.0,34.2,33.0,33.0,3.6,3.7,2.55,0.6454555460369262,-0.01047977614865422,0.7529995615116857,0.0026634488971222464,-0.071721,-39.321124
11.185,2.0,1.0,1.0,34.2,33.0,33.0,3.6,3.7,2.5525,0.6391384165772203,-0.010642925332163135,0.7582551028183764,0.0026017720840011242,-0.072483,-39.206701
11.185,2.0,1.0,1.0,34.2,33.0,33.0,3.6,3.7,2.555,0.6327423653164764,-0.010808115153094782,0.7634856977856922,0.0025374411539080093,-0.073257,-39.091991
11.185,2.0,1.0,1.0,34.2,33.0,33.0,3.6,3.7,2.5575,0.6262666554439226,-0.01097536190016548,0.7686904467542538,0.0024703795623035687,-0.074045,-38.976989
11.185,2.0,1.0,1.0,34.2,33.0,33.0,3.6,3.7,2.56,0.6197105453305981,-0.011144681475987529,0.7738684255662064,0.0024005085668083025,-0.074847,-38.86169
11.185,2.0,1.0,1.0,34.2,33.0,33.0,3.6,3.7,2.5625,0.6130732887422642,-0.011316089359490534,0.7790186849164104,0.002327747162844645,-0.075662,-38.746089
11.185,2.0,1.0,1.0,34.2,33.0,33.0,3.6,3.7,2.565,0.6063541350684993,-0.011489600566212893,0.7841402496884845,0.0022520120174483785,-0.076492,-38.63018
11.185,2.0,1.0,1.0,34.2,33.0,33.0,3.6,3.7,2.5675,0.5995523295688012,-0.01166522960635598,0.789232118275472,0.002173217401204105,-0.077336,-38.513959
11.185,2.0,1.0,1.0,34.2,33.0,33.0,3.6,3.7,2.57,0.5926671136365138,-0.01184299044048932,0.7942932618849444,0.002091275118258494,-0.078195,-38.397421
11.185,2.0,1.0,1.0,34.2,33.0,33.0,3.6,3.7,2.5725,0.5856977250814639,-0.012022896432789212,0.7993226238283314,0.0020060944343650825,-0.079069,-38.280559
11.185,2.0,1.0,1.0,34.2,33.0,33.0,3.6,3.7,2.575,0.5786433984322127,-0.01220496030168764,0.8043191187942997,0.0019175820029131213,-0.079958,-38.163368
11.185,2.0,1.0,1.0,34.2,33.0,33.0,3.6,3.7,2.5775,0.5715033652588735,-0.012389194067802577,0.8092816321059941,0.0018256417888932919,-0.080863,-38.045844
11.185,2.0,1.0,1.0,34.2,33.0,33.0,3.6,3.7,2.58,0.5642768545174811,-0.012575608999014687,0.8142090189619867,0.0017301749907515434,-0.081784,-37.927981
11.185,2.0,1.0,1.0,34.2,33.0,33.0,3.6,3.7,2.5825,0.5569630929169382,-0.012764215552549174,0.8191001036607856,0.0016310799600830095,-0.082722,-37.809774
11.185,2.0,1.0,1.0,34.2,33.0,33.0,3.6,3.7,2.585,0.5495613053096136,-0.012955023313914266,0.8239536788087638,0.001528252119116756,-0.083676,-37.691216
11.185,2.0,1.0,1.0,34.2,33.0,33.0,3.6,3.7,2.5875,0.5420707151066939,-0.013148040932541728,0.8287685045114028,0.0014215838759417578,-0.084648,-37.572304
11.185,2.0,1.0,1.0,34.2,33.0,33.0,3.6,3.7,2.59,0.5344905447194643,-0.013343276053966744,0.8335433075477426,0.0013109645374250575,-0.085637,-37.45303
11.185,2.0,1.0,1.0,34.2,33.0,33.0,3.6,3.7,2.5925,0.5268200160276972,-0.013540735248377027,0.8382767805279756,0.0011962802197714123,-0.086643,-37.333389
11.185,2.0,1.0,1.0,34.2,33.0,33.0,3.6,3.7,2.595,0.5190583508764308,-0.013740423935353126,0.8429675810341135,0.0010774137566750257,-0.087669,-37.213377
11.185,2.0,1.0,1.0,34.2,33.0,33.0,3.6,3.7,2.5975,0.5112047716024024,-0.013942346304613985,0.8476143307437268,0.0009542446050125415,-0.088713,-37.092986
11.185,2.0,1.0,1.0,34.2,33.0,33.0,3.6,3.7,2.6,0.5032585015915096,-0.014146505232571892,0.8522156145367252,0.0008266487480271168,-0.089776,-36.972212
11.185,2.0,1.0,1.0,34.2,33.0,33.0,3.6,3.7,2.6025,0.49521876586870056,-0.014352902194492907,0.8567699795852306,0.0006944985959534887,-0.090858,-36.851049
11.185,2.0,1.0,1.0,34.2,33.0,33.0,3.6,3.7,2.605,0.48708479172172886,-0.014561537172049057,0.8612759344265938,0.000557662884033118,-0.091961,-36.729491
11.185,2.0,1.0,1.0,34.2,33.0,33.0,3.6,3.7,2.6075,0.47885580936030514,-0.01477240855603825,0.8657319480196493,0.0004160065678698662,-0.093084,-36.607531
11.185,2.0,1.0,1.0,34.2,33.0,33.0,3.6,3.7,2.61,0.4705310526121938,-0.014985513044037417,0.8701364487843485,0.00026939071607572307,-0.094228,-36.485164
11.185,2.0,1.0,1.0,34.2,33.0,33.0,3.6,3.7,2.6125,0.46210975965788853,-0.01520084553274409,0.8744878236249275,0.00011767240015713922,-0.095393,-36.362385
11.185,2.0,1.0,1.0,34.2,33.0,33.0,3.6,3.7,2.615,0.45359117380553343,-0.01541839900474965,0.8787844169368514,-3.929541840769343e-05,-0.09658,-36.239186
11.185,2.0,1.0,1.0,34.2,33.0,33.0,3.6,3.7,2.6175,0.44497454430784417,-0.015638164409475235,0.8830245295977704,-0.00020166400394928014,-0.09779,-36.115562
11.185,2.0,1.0,1.0,34.2,33.0,33.0,3.6,3.7,2.62,0.43625912722282484,-0.015860130537989514,0.8872064179428234,-0.0003695889652937047,-0.099022,-35.991507
11.185,2.0,1.0,1.0,34.2,33.0,33.0,3.6,3.7,2.6225,0.42744418632013986,-0.016084283891414246,0.8913282927246361,-0.0005432303774039887,-0.100278,-35.867014
11.185,2.0,1.0,1.0,34.2,33.0,33.0,3.6,3.7,2.625,0.418528994035083,-0.0163106085426089,0.895388318058453,-0.000722752906022606,-0.101558,-35.742078
11.185,2.0,1.0,1.0,34.2,33.0,33.0,3.6,3.7,2.6275,0.40951283247211895,-0.016539085990812795,0.8993846103528829,-0.0009083259353627357,-0.102862,-35.61669
11.185,2.0,1.0,1.0,34.2,33.0,33.0,3.6,3.7,2.63,0.40039499446006543,-0.016769695008907,0.9033152372268075,-0.0011001236988931495,-0.104191,-35.490846
11.185,2.0,1.0,1.0,34.2,33.0,33.0,3.6,3.7,2.6325,0.3911747846610382,-0.017002411482942754,0.9071782164130775,-0.001298325413262478,-0.105546,-35.364539
11.185,2.0,1.0,1.0,34.2,33.0,33.0,3.6,3.7,2.635,0.38185152073535095,-0.017237208243566945,0.9109715146496937,-0.0015031154154065544,-0.106927,-35.237762
11.185,2.0,1.0,1.0,34.2,33.0,33.0,3.6,3.7,2.6375,0.3724245345646375,-0.01747405488895718,0.9146930465592429,-0.0017146833028821667,-0.108335,-35.110508
11.185,2.0,1.0,1.0,34.2,33.0,33.0,3.6,3.7,2.64,0.3628931735355072,-0.01771291759886196,0.9183406735174594,-0.0019332240774701099,-0.109771,-34.982771
11.185,2.0,1.0,1.0,34.2,33.0,33.0,3.6,3.7,2.6425,0.3532568018861539,-0.017953758939320736,0.9219122025118505,-0.0021589382920880903,-0.111235,-34.854543
11.185,2.0,1.0,1.0,34.2,33.0,33.0,3.6,3.7,2.645,0.3435148021183691,-0.018196537657620214,0.9254053849914482,-0.0023920322010548174,-0.112727,-34.725818
11.185,2.0,1.0,1.0,34.2,33.0,33.0,3.6,3.7,2.6475,0.3336665764775153,-0.01844120846702079,0.9288179157088152,-0.0026327179137442956,-0.114249,-34.596588
11.185,2.0,1.0,1.0,34.2,33.0,33.0,3.6,3.7,2.65,0.323711548503033,-0.018687721820766345,0.932147431555582,-0.002881213551669905,-0.115802,-34.466847
11.185,2.0,1.0,1.0,34.2,33.0,33.0,3.6,3.7,2.6525,0.3136491646522105,-0.018936023674864834,0.9353915103928571,-0.003137743409035412,-0.117385,-34.336587
11.185,2.0,1.0,1.0,34.2,33.0,33.0,3.6,3.7,2.655,0.30347889599990663,-0.019186055239105944,0.938547669878027,-0.003402538116791252,-0.119,-34.2058
11.185,2.0,1.0,1.0,34.2,33.0,33.0,3.6,3.7,2.6575,0.2932002400170782,-0.019437752715752536,0.941613366289534,-0.003675834810232893,-0.120648,-34.07448
11.185,2.0,1.0,1.0,34.2,33.0,33.0,3.6,3.7,2.66,0.28281272243096767,-0.019691047025318036,0.9445859933513998,-0.003957877300178106,-0.122329,-33.942618
11.185,2.0,1.0,1.0,34.2,33.0,33.0,3.6,3.7,2.6625,0.2723158991699258,-0.019945863518810763,0.9474628810593599,-0.004248916247759916,-0.124044,-33.810207
11.185,2.0,1.0,1.0,34.2,33.0,33.0,3.6,3.7,2.665,0.2617093583958405,-0.020202121675797595,0.9502412945106679,-0.004549209342873366,-0.125794,-33.677239
11.185,2.0,1.0,1.0,34.2,33.0,33.0,3.6,3.7,2.6675,0.2509927226272824,-0.020459734787604787,0.9529184327397399,-0.004859021486312806,-0.12758,-33.543706
11.185,2.0,1.0,1.0,34.2,33.0,33.0,3.6,3.7,2.67,0.24016565095648107,-0.020718609624941067,0.9554914275619902,-0.005178624975640629,-0.129403,-33.4096
11.185,2.0,1.0,1.0,34.2,33.0,33.0,3.6,3.7,2.6725,0.2292278413633073,-0.02097864608919034,0.9579573424284034,-0.005508299694827649,-0.131263,-33.274912
11.185,2.0,1.0,1.0,34.2,33.0,33.0,3.6,3.7,2.675,0.218179033129547,-0.021239736846582754,0.9603131712934925,-0.005848333307709254,-0.133163,-33.139634
11.185,2.0,1.0,1.0,34.2,33.0,33.0,3.6,3.7,2.6775,0.20701900935671255,-0.02150176694441167,0.9625558374995842,-0.006199021455304262,-0.135102,-33.003757
11.185,2.0,1.0,1.0,34.2,33.0,33.0,3.6,3.7,2.68,0.1957475995907698,-0.021764613408418804,0.9646821926804557,-0.006560667957047853,-0.137081,-32.867273
11.185,2.0,1.0,1.0,34.2,33.0,33.0,3.6,3.7,2.6825,0.18436468255715277,-0.022028144820423385,0.9666890156876293,-0.006933585015994768,-0.139102,-32.730172
11.185,2.0,1.0,1.0,34.2,33.0,33.0,3.6,3.7,2.685,0.17287018900947823,-0.0222922208752196,0.9685730115428043,-0.007318093428055981,-0.141167,-32.592446
11.185,2.0,1.0,1.0,34.2,33.0,33.0,3.6,3.7,2.6875,0.161264104695436,-0.0225566919157126,0.9703308104201123,-0.00771452279533962,-0.143275,-32.454084
11.185,2.0,1.0,1.0,34.2,33.0,33.0,3.6,3.7,2.69,0.1495464734433194,-0.022821398445203832,0.9719589666621483,-0.00812321174367589,-0.145428,-32.315078
11.185,2.0,1.0,1.0,34.2,33.0,33.0,3.6,3.7,2.6925,0.1377174003727045,-0.023086170615674563,0.9734539578339031,-0.008544508144418334,-0.147628,-32.175418
11.185,2.0,1.0,1.0,34.2,33.0,33.0,3.6,3.7,2.695,0.1257770552328108,-0.023350827690846475,0.9748121838190082,-0.008978769340624661,-0.149875,-32.035093
11.185,2.0,1.0,1.0,34.2,33.0,33.0,3.6,3.7,2.6975,0.11372567587204174,-0.0236151774827261,0.9760299659629288,-0.009426362377739106,-0.152171,-31.894094
11.185,2.0,1.0,1.0,34.2,33.0,33.0,3.6,3.7,2.7,0.10156357184224325,-0.02387901576025834,0.9771035462680004,-0.009887664238912925,-0.154518,-31.752409
11.185,2.0,1.0,1.0,34.2,33.0,33.0,3.6,3.7,2.7025,0.0892911281412099,-0.02414212562862844,0.9780290866454318,-0.010363062085124055,-0.156916,-31.610028
11.185,2.0,1.0,1.0,34.2,33.0,33.0,3.6,3.7,2.705,0.07690880909691472,-0.02440427687765616,0.9788026682297135,-0.010852953500278328,-0.159366,-31.466941
11.185,2.0,1.0,1.0,34.2,33.0,33.0,3.6,3.7,2.7075,0.06441716239694761,-0.024665225297623664,0.9794202907610908,-0.01135774674150499,-0.161872,-31.323135
11.185,2.0,1.0,1.0,34.2,33.0,33.0,3.6,3.7,2.71,0.051816823266622014,-0.024924711960764557,0.9798778720420344,-0.01187786099488951,-0.164433,-31.178599
11.185,2.0,1.0,1.0,34.2,33.0,33.0,3.6,3.7,2.7125,0.03910851879911593,-0.025182462466519055,0.9801712474739488,-0.012413726636924905,-0.167052,-31.033322
11.185,2.0,1.0,1.0,34.2,33.0,33.0,3.6,3.7,2.715,0.026293072441018344,-0.025438186148523976,0.9802961696805882,-0.012965785502003085,-0.169731,-30.88729
11.185,2.0,1.0,1.0,34.2,33.0,33.0,3.6,3.7,2.7175,0.013371408636552184,-0.025691575241157397,0.9802483082249513,-0.013534491156315966,-0.17247,-30.740491
11.185,2.0,1.0,1.0,34.2,33.0,33.0,3.6,3.7,2.72,0.0003445576337093978,-0.025942304003293132,0.9800232494266881,-0.014120309178588565,-0.175272,-30.592912
11.185,2.0,1.0,1.0,34.2,33.0,33.0,3.6,3.7,2.7225,-0.01278633954459566,-0.026190027796740012,0.9796164962873097,-0.014723717448128615,-0.178138,-30.44454
11.185,2.0,1.0,1.0,34.2,33.0,33.0,3.6,3.7,2.725,-0.026020025961265673,-0.02643438211663951,0.979023468530796,-0.015345206440741624,-0.181071,-30.29536
11.185,2.0,1.0,1.0,34.2,33.0,33.0,3.6,3.7,2.7275,-0.03935512345473077,-0.02667498157087391,0.9782395027673821,-0.015985279533141033,-0.184073,-30.145359
11.185,2.0,1.0,1.0,34.2,33.0,33.0,3.6,3.7,2.73,-0.05279012715474088,-0.026911418805291656,0.9772598527886307,-0.01664445331656386,-0.187145,-29.994521
11.185,2.0,1.0,1.0,34.2,33.0,33.0,3.6,3.7,2.7325,-0.06632339982150202,-0.027143263371282488,0.9760796900020636,-0.017323257920401274,-0.190289,-29.842832
11.185,2.0,1.0,1.0,34.2,33.0,33.0,3.6,3.7,2.735,-0.07995316600548225,-0.027370060531931525,0.9746941040138849,-0.018022237346756863,-0.193508,-29.690276
11.185,2.0,1.0,1.0,34.2,33.0,33.0,3.6,3.7,2.7375,-0.09367750602537253,-0.027591330002642418,0.9730981033685251,-0.018741949816965663,-0.196805,-29.536835
11.185,2.0,1.0,1.0,34.2,33.0,33.0,3.6,3.7,2.74,-0.10749434976172197,-0.027806564621741997,0.9712866164539001,-0.01948296813123603,-0.200181,-29.382494
11.185,2.0,1.0,1.0,34.2,33.0,33.0,3.6,3.7,2.7425,-0.12140147026390731,-0.028015228946156674,0.9692544925814367,-0.020245880042723617,-0.20364,-29.227234
11.185,2.0,1.0,1.0,34.2,33.0,33.0,3.6,3.7,2.745,-0.1353964771681743,-0.02821675776677832,0.9669965032500668,-0.02103128864750492,-0.207183,-29.071038
11.185,2.0,1.0,1.0,34.2,33.0,33.0,3.6,3.7,2.7475,-0.14947680992451357,-0.02841055453760863,0.9645073436034364,-0.021839812792095712,-0.210813,-28.913886
11.185,2.0,1.0,1.0,34.2,33.0,33.0,3.6,3.7,2.75,-0.163639730830259,-0.0285959897121777,0.961781634089699,-0.0226720875003539,-0.214534,-28.755759
11.185,2.0,1.0,1.0,34.2,33.0,33.0,3.6,3.7,2.7525,-0.1778823178681772,-0.028772398980067327,0.9588139223331872,-0.02352876442181832,-0.218349,-28.596637
11.185,2.0,1.0,1.0,34.2,33.0,33.0,3.6,3.7,2.755,-0.19220145734691085,-0.028939081395619567,0.9555986852273112,-0.02441051230376876,-0.22226,-28.436497
11.185,2.0,1.0,1.0,34.2,33.0,33.0,3.6,3.7,2.7575,-0.20659383634151604,-0.029095297390072116,0.9521303312578825,-0.025318017489548223,-0.226271,-28.275318
11.185,2.0,1.0,1.0,34.2,33.0,33.0,3.6,3.7,2.76,-0.2210559349316147,-0.029240266657411074,0.948403203065929,-0.026251984445962287,-0.230385,-28.113077
11.185,2.0,1.0,1.0,34.2,33.0,33.0,3.6,3.7,2.7625,-0.23558401823458627,-0.029373165903165084,0.944411580258869,-0.027213136322874542,-0.234606,-27.94975
11.185,2.0,1.0,1.0,34.2,33.0,33.0,3.6,3.7,2.765,-0.25017412823078927,-0.029493126444158208,0.9401496824786151,-0.028202215548439512,-0.238938,-27.785311
11.185,2.0,1.0,1.0,34.2,33.0,33.0,3.6,3.7,2.7675,-0.26482207537746033,-0.02959923164587669,0.9356116727348321,-0.029219984463765683,-0.243385,-27.619735
11.185,2.0,1.0,1.0,34.2,33.0,33.0,3.6,3.7,2.77,-0.2795234300072577,-0.02969051418256532,0.9307916610111009,-0.03026722600117918,-0.247951,-27.452993
11.185,2.0,1.0,1.0,34.2,33.0,33.0,3.6,3.7,2.7725,-0.29427351350683756,-0.029765953103427042,0.9256837081512663,-0.031344744410658085,-0.25264,-27.285057
11.185,2.0,1.0,1.0,34.2,33.0,33.0,3.6,3.7,2.775,-0.30906738926973243,-0.029824470686323892,0.9202818300325577,-0.03245336603943767,-0.257457,-27.115898
11.185,2.0,1.0,1.0,34.2,33.0,33.0,3.6,3.7,2.7775,-0.3238998534167855,-0.02986492905814203,0.9145800020313852,-0.03359394017023734,-0.262407,-26.945483
11.185,2.0,1.0,1.0,34.2,33.0,33.0,3.6,3.7,2.78,-0.33876542527588976,-0.02988612655844149,0.9085721637868738,-0.0347673399240375,-0.267495,-26.773779
11.185,2.0,1.0,1.0,34.2,33.0,33.0,3.6,3.7,2.7825,-0.353658337611016,-0.029886793820127426,0.9022522242662673,-0.03597446323382491,-0.272728,-26.600753
11.185,2.0,1.0,1.0,34.2,33.0,33.0,3.6,3.7,2.785,-0.3685725265884676,-0.029865589537599047,0.8956140671352583,-0.037216233896241596,-0.278109,-26.426367
11.185,2.0,1.0,1.0,34.2,33.0,33.0,3.6,3.7,2.7875,-0.3835016214655598,-0.029821095889095157,0.8886515564351635,-0.0384936027085842,-0.283647,-26.250583
11.185,2.0,1.0,1.0,34.2,33.0,33.0,3.6,3.7,2.79,-0.3984389339840477,-0.029751813575702946,0.8813585425675804,-0.03980754869912716,-0.289346,-26.073362
11.185,2.0,1.0,1.0,34.2,33.0,33.0,3.6,3.7,2.7925,-0.41337744744675686,-0.029656156434638536,0.8737288685857831,-0.04115908045924543,-0.295215,-25.894661
11.185,2.0,1.0,1.0,34.2,33.0,33.0,3.6,3.7,2.795,-0.42830980545161684,-0.029532445578864523,0.8657563767906098,-0.04254923758630383,-0.301261,-25.714436
11.185,2.0,1.0,1.0,34.2,33.0,33.0,3.6,3.7,2.7975,-0.4432283002519881,-0.02937890300876982,0.8574349156270817,-0.04397909224670778,-0.307491,-25.53264
11.185,2.0,1.0,1.0,34.2,33.0,33.0,3.6,3.7,2.8,-0.4581248607061167,-0.02919364463438008,0.8487583468762802,-0.04544975086888849,-0.313914,-25.349223
11.185,2.0,1.0,1.0,34.2,33.0,33.0,3.6,3.7,2.8025,-0.4729910397712611,-0.028974672638246355,0.8397205531353894,-0.0469623559762511,-0.320539,-25.164135
11.185,2.0,1.0,1.0,34.2,33.0,33.0,3.6,3.7,2.805,-0.48781800148945653,-0.02871986709961662,0.830315445577094,-0.048518088170235396,-0.327375,-24.977319
11.185,2.0,1.0,1.0,34.2,33.0,33.0,3.6,3.7,2.8075,-0.5025965074018839,-0.028426976789518943,0.8205369719778789,-0.050118168273557445,-0.334433,-24.788719
11.185,2.0,1.0,1.0,34.2,33.0,33.0,3.6,3.7,2.81,-0.5173169023170531,-0.02809360903376132,0.810379125003221,-0.05176385964335097,-0.341724,-24.598272
11.185,2.0,1.0,1.0,34.2,33.0,33.0,3.6,3.7,2.8125,-0.531969099344004,-0.0277172185263007,0.799835950736328,-0.0534564706632192,-0.34926,-24.405915
11.185,2.0,1.0,1.0,34.2,33.0,33.0,3.6,3.7,2.815,-0.5465425640857866,-0.02729509495863584,0.7889015574359811,-0.05519735742204131,-0.357053,-24.21158
11.185,2.0,1.0,1.0,34.2,33.0,33.0,3.6,3.7,2.8175,-0.56102629786925,-0.026824349311463463,0.7775701245084239,-0.05698792658559346,-0.365117,-24.015192
11.185,2.0,1.0,1.0,34.2,33.0,33.0,3.6,3.7,2.82,-0.5754088198650342,-0.026301898632352348,0.765835911678197,-0.058829638464478744,-0.373466,-23.816677
11.185,2.0,1.0,1.0,34.2,33.0,33.0,3.6,3.7,2.8225,-0.5896781479255835,-0.025724449097115673,0.7536932683436462,-0.06072401027827724,-0.382118,-23.615953
11.185,2.0,1.0,1.0,34.2,33.0,33.0,3.6,3.7,2.825,-0.603821777938421,-0.025088477122266535,0.7411366431047604,-0.0626726196109351,-0.391088,-23.412934
11.185,2.0,1.0,1.0,34.2,33.0,33.0,3.6,3.7,2.8275,-0.6178266614562693,-0.024390208260684547,0.7281605934544344,-0.06467710804585032,-0.400396,-23.207529
