1,w,sub_t,h,l1,l2,l3,g1,g2,Freq,S11_re,S21_re,S11_img,S21_img,S11_dB,S21_dB
11.185,2.0,1.0,1.0,33.8,34.0,34.0,2.3,3.5,2.5,0.803428643149323,-0.0103860397351713,0.58244772114985,0.00726968643234144,-0.066771,-37.93935
11.185,2.0,1.0,1.0,33.8,34.0,34.0,2.3,3.5,2.5025,0.7990545981349656,-0.01059416621318638,0.5882976848016618,0.007287471015109036,-0.067479,-37.816126
11.185,2.0,1.0,1.0,33.8,34.0,34.0,2.3,3.5,2.505,0.7946153840321091,-0.010806132213913024,0.5941425220088437,0.007303820429826678,-0.0682,-37.69249
11.185,2.0,1.0,1.0,33.8,34.0,34.0,2.3,3.5,2.5075,0.7901103012326841,-0.011022016977703225,0.5999817975116833,0.007318672821691229,-0.068935,-37.568433
11.185,2.0,1.0,1.0,33.8,34.0,34.0,2.3,3.5,2.51,0.785538639404688,-0.011241901702102678,0.605815062639154,0.0073319639154380825,-0.069683,-37.443945
11.185,2.0,1.0,1.0,33.8,34.0,34.0,2.3,3.5,2.5125,0.7808996773391698,-0.011465869596927912,0.6116418548707511,0.007343626912348439,-0.070446,-37.319019
11.185,2.0,1.0,1.0,33.8,34.0,34.0,2.3,3.5,2.515,0.7761926827963309,-0.011694005941029498,0.6174616973832681,0.007353592382384956,-0.071223,-37.193645
11.185,2.0,1.0,1.0,33.8,34.0,34.0,2.3,3.5,2.5175,0.7714169123508391,-0.011926398140792951,0.6232740985819164,0.007361788151198632,-0.072015,-37.067814
11.185,2.0,1.0,1.0,33.8,34.0,34.0,2.3,3.5,2.52,0.7665716112364344,-0.012163135790431864,0.6290785516152126,0.007368139181732885,-0.072822,-36.941515
11.185,2.0,1.0,1.0,33.8,34.0,34.0,2.3,3.5,2.5225,0.761656013189952,-0.012404310734127262,0.6348745338729809,0.007372567450135728,-0.073645,-36.814741
11.185,2.0,1.0,1.0,33.8,34.0,34.0,2.3,3.5,2.525,0.7566693402948508,-0.012650017130070357,0.6406615064668371,0.007374991815672676,-0.074484,-36.68748
11.185,2.0,1.0,1.0,33.8,34.0,34.0,2.3,3.5,2.5275,0.7516108028243774,-0.01290035151646557,0.6464389136924644,0.007375327884315358,-0.075339,-36.559724
11.185,2.0,1.0,1.0,33.8,34.0,34.0,2.3,3.5,2.53,0.7464795990844952,-0.013155412879552903,0.6522061824729616,0.007373487865659601,-0.076212,-36.431461
11.185,2.0,1.0,1.0,33.8,34.0,34.0,2.3,3.5,2.5325,0.7412749152567162,-0.013415302723709171,0.6579627217825207,0.0073693804228072745,-0.077101,-36.302683
11.185,2.0,1.0,1.0,33.8,34.0,34.0,2.3,3.5,2.535,0.7359959252409786,-0.01368012514368934,0.6637079220496568,0.007362910514822153,-0.078009,-36.173378
11.185,2.0,1.0,1.0,33.8,34.0,34.0,2.3,3.5,2.5375,0.7306417904987467,-0.013949986899069552,0.6694411545391616,0.007353979231346794,-0.078934,-36.043536
11.185,2.0,1.0,1.0,33.8,34.0,34.0,2.3,3.5,2.54,0.7252116598964926,-0.014224997490954792,0.675161770711937,0.007342483618940877,-0.079879,-35.913147
11.185,2.0,1.0,1.0,33.8,34.0,34.0,2.3,3.5,2.5425,0.7197046695497495,-0.014505269241014904,0.6808691015618045,0.007328316498674355,-0.080842,-35.7822
11.185,2.0,1.0,1.0,33.8,34.0,34.0,2.3,3.5,2.545,0.7141199426679415,-0.014790917372912644,0.6865624569283568,0.007311366274478997,-0.081826,-35.650683
11.185,2.0,1.0,1.0,33.8,34.0,34.0,2.3,3.5,2.5475,0.7084565894002038,-0.015082060096188704,0.6922411247848609,0.007291516731729913,-0.08283,-35.518585
11.185,2.0,1.0,1.0,33.8,34.0,34.0,2.3,3.5,2.55,0.7027137066824164,-0.015378818692668664,0.6979043705001915,0.0072686468254949295,-0.083854,-35.385896
11.185,2.0,1.0,1.0,33.8,34.0,34.0,2.3,3.5,2.5525,0.6968903780857156,-0.015681317605455915,0.7035514360736979,0.007242630457853501,-0.0849,-35.252602
11.185,2.0,1.0,1.0,33.8,34.0,34.0,2.3,3.5,2.555,0.690985673666733,-0.015989684530575983,0.709181539341878,0.0072133362436469835,-0.085968,-35.118694
11.185,2.0,1.0,1.0,33.8,34.0,34.0,2.3,3.5,2.5575,0.6849986498198535,-0.016304050511335676,0.7147938731556698,0.007180627263981312,-0.087059,-34.984157
11.185,2.0,1.0,1.0,33.8,34.0,34.0,2.3,3.5,2.56,0.678928349131802,-0.016624550035459852,0.7203876045270929,0.007144360806757034,-0.088174,-34.84898
11.185,2.0,1.0,1.0,33.8,34.0,34.0,2.3,3.5,2.5625,0.6727738002388816,-0.016951321135067574,0.7259618737439337,0.007104388093454098,-0.089312,-34.713151
11.185,2.0,1.0,1.0,33.8,34.0,34.0,2.3,3.5,2.565,0.6665340176872131,-0.017284505489547304,0.7315157934510856,0.007060553991346569,-0.090475,-34.576657
11.185,2.0,1.0,1.0,33.8,34.0,34.0,2.3,3.5,2.5675,0.6602080017963609,-0.017624248531387735,0.7370484476970803,0.0070126967102664296,-0.091663,-34.439484
11.185,2.0,1.0,1.0,33.8,34.0,34.0,2.3,3.5,2.57,0.6537947385267413,-0.017970699555018954,0.7425588909442793,0.006960647482976119,-0.092877,-34.30162
11.185,2.0,1.0,1.0,33.8,34.0,34.0,2.3,3.5,2.5725,0.6472931993512463,-0.018324011828713647,0.7480461470411071,0.006904230228143935,-0.094119,-34.163051
11.185,2.0,1.0,1.0,33.8,34.0,34.0,2.3,3.5,2.575,0.6407023411315481,-0.018684342709594084,0.7535092081546165,0.006843261194847799,-0.095388,-34.023762
11.185,2.0,1.0,1.0,33.8,34.0,34.0,2.3,3.5,2.5775,0.634021105999584,-0.01905185376178454,0.7589470336615908,0.006777548587456951,-0.096685,-33.883741
11.185,2.0,1.0,1.0,33.8,34.0,34.0,2.3,3.5,2.58,0.6272484212447514,-0.019426710877741966,0.7643585489962709,0.006706892169660968,-0.098012,-33.742972
11.185,2.0,1.0,1.0,33.8,34.0,34.0,2.3,3.5,2.5825,0.6203831992073827,-0.01980908440279074,0.7697426444527196,0.006631082846327551,-0.09937,-33.60144
11.185,2.0,1.0,1.0,33.8,34.0,34.0,2.3,3.5,2.585,0.6134243371791206,-0.020199149262876297,0.7750981739396804,0.006549902221777079,-0.100758,-33.459132
11.185,2.0,1.0,1.0,33.8,34.0,34.0,2.3,3.5,2.5875,0.6063707173108381,-0.02059708509554288,0.7804239536857075,0.006463122132959298,-0.102179,-33.31603
11.185,2.0,1.0,1.0,33.8,34.0,34.0,2.3,3.5,2.59,0.599221206528828,-0.021003076384126792,0.7857187608921686,0.006370504155908675,-0.103633,-33.17212
11.185,2.0,1.0,1.0,33.8,34.0,34.0,2.3,3.5,2.5925,0.5919746564599989,-0.02141731259514243,0.7909813323316296,0.006271799083734875,-0.105122,-33.027386
11.185,2.0,1.0,1.0,33.8,34.0,34.0,2.3,3.5,2.595,0.5846299033669157,-0.021839988318819753,0.7962103628889287,0.006166746374277368,-0.106645,-32.881811
11.185,2.0,1.0,1.0,33.8,34.0,34.0,2.3,3.5,2.5975,0.5771857680935385,-0.022271303412733885,0.8014045040421296,0.006055073565412634,-0.108205,-32.735378
11.185,2.0,1.0,1.0,33.8,34.0,34.0,2.3,3.5,2.6,0.569641056022613,-0.0227114631484425,0.806562362280344,0.005936495655853074,-0.109803,-32.58807
11.185,2.0,1.0,1.0,33.8,34.0,34.0,2.3,3.5,2.6025,0.5619945570457304,-0.023160678361020978,0.8116824974552219,0.005810714449112133,-0.11144,-32.439869
11.185,2.0,1.0,1.0,33.8,34.0,34.0,2.3,3.5,2.605,0.5542450455471342,-0.023619165601355338,0.8167634210627317,0.005677417858132673,-0.113117,-32.290758
11.185,2.0,1.0,1.0,33.8,34.0,34.0,2.3,3.5,2.6075,0.5463912804024632,-0.024087147291017148,0.8218035944516044,0.005536279167884446,-0.114836,-32.140718
11.185,2.0,1.0,1.0,33.8,34.0,34.0,2.3,3.5,2.61,0.5384320049936978,-0.024564851879504686,0.8268014269545982,0.005386956253025809,-0.116598,-31.989729
11.185,2.0,1.0,1.0,33.8,34.0,34.0,2.3,3.5,2.6125,0.5303659472416731,-0.025052514003589897,0.8317552739384817,0.005229090747499024,-0.118404,-31.837774
11.185,2.0,1.0,1.0,33.8,34.0,34.0,2.3,3.5,2.615,0.5221918196576403,-0.025550374648457094,0.8366634347683602,0.005062307162680208,-0.120255,-31.684831
11.185,2.0,1.0,1.0,33.8,34.0,34.0,2.3,3.5,2.6175,0.513908319415485,-0.02605868131026004,0.8415241506816631,0.004886211950437091,-0.122155,-31.53088
11.185,2.0,1.0,1.0,33.8,34.0,34.0,2.3,3.5,2.62,0.5055141284463277,-0.02657768815965576,0.8463356025668026,0.004700392507154274,-0.124104,-31.3759
11.185,2.0,1.0,1.0,33.8,34.0,34.0,2.3,3.5,2.6225,0.4970079135573753,-0.027107656205796055,0.8510959086411541,0.004504416114466971,-0.126103,-31.21987
11.185,2.0,1.0,1.0,33.8,34.0,34.0,2.3,3.5,2.625,0.488388326577091,-0.0276488534601669,0.855803122022627,0.00429782881209613,-0.128156,-31.062768
11.185,2.0,1.0,1.0,33.8,34.0,34.0,2.3,3.5,2.6275,0.47965400452885204,-0.028201555099567392,0.8604552281886965,0.0040801541977977165,-0.130263,-30.904571
11.185,2.0,1.0,1.0,33.8,34.0,34.0,2.3,3.5,2.63,0.4708035698355373,-0.028766043627401428,0.8650501423163031,0.003850892149025214,-0.132427,-30.745257
11.185,2.0,1.0,1.0,33.8,34.0,34.0,2.3,3.5,2.6325,0.46183563055764115,-0.029342609032325002,0.8695857064955511,0.00360951746044984,-0.13465,-30.5848
11.185,2.0,1.0,1.0,33.8,34.0,34.0,2.3,3.5,2.635,0.45274878066777985,-0.02993154894314113,0.8740596868095964,0.0033554783909890517,-0.136933,-30.423176
11.185,2.0,1.0,1.0,33.8,34.0,34.0,2.3,3.5,2.6375,0.4435416003647093,-0.03053316877866193,0.8784697702725387,0.0030881951134500234,-0.13928,-30.260361
11.185,2.0,1.0,1.0,33.8,34.0,34.0,2.3,3.5,2.64,0.4342126564302483,-0.03114778189106388,0.8828135616165106,0.0028070580593013766,-0.141693,-30.096328
11.185,2.0,1.0,1.0,33.8,34.0,34.0,2.3,3.5,2.6425,0.42476050263285464,-0.0317757097010358,0.8870885799184436,0.0025114261504356676,-0.144174,-29.93105
11.185,2.0,1.0,1.0,33.8,34.0,34.0,2.3,3.5,2.645,0.4151836801819337,-0.0324172818227666,0.8912922550562615,0.0022006249090704894,-0.146726,-29.764501
11.185,2.0,1.0,1.0,33.8,34.0,34.0,2.3,3.5,2.6475,0.40548071823738374,-0.033072836176527065,0.8954219239833987,0.0018739444361521196,-0.149352,-29.596651
11.185,2.0,1.0,1.0,33.8,34.0,34.0,2.3,3.5,2.65,0.39565013447929637,-0.033742719086269655,0.8994748268096677,0.0015306372477644644,-0.152054,-29.427471
11.185,2.0,1.0,1.0,33.8,34.0,34.0,2.3,3.5,2.6525,0.3856904357432937,-0.03442728535928598,0.9034481026754637,0.0011699159581004294,-0.154837,-29.256932
11.185,2.0,1.0,1.0,33.8,34.0,34.0,2.3,3.5,2.655,0.37560011872747323,-0.03512689834453265,0.9073387854052533,0.0007909507965090126,-0.157702,-29.085003
11.185,2.0,1.0,1.0,33.8,34.0,34.0,2.3,3.5,2.6575,0.3653776707776217,-0.0358419299657346,0.9111437989250561,0.0003928669449867733,-0.160654,-28.911651
11.185,2.0,1.0,1.0,33.8,34.0,34.0,2.3,3.5,2.66,0.3550215707580483,-0.036572760724808744,0.9148599524273343,-2.525831878296143e-05,-0.163696,-28.736843
11.185,2.0,1.0,1.0,33.8,34.0,34.0,2.3,3.5,2.6625,0.3445302900161953,-0.0373197796704968,0.918483935265245,-0.00046439868913185047,-0.166833,-28.560546
11.185,2.0,1.0,1.0,33.8,34.0,34.0,2.3,3.5,2.665,0.3339022934500853,-0.03808338432635242,0.9220123115566239,-0.0009255821286781722,-0.170067,-28.382725
11.185,2.0,1.0,1.0,33.8,34.0,34.0,2.3,3.5,2.6675,0.3231360406887068,-0.038863980571366544,0.9254415144762914,-0.0014098944126930495,-0.173404,-28.203343
11.185,2.0,1.0,1.0,33.8,34.0,34.0,2.3,3.5,2.67,0.31222998739658653,-0.03966198246553504,0.9287678402133518,-0.0019184829429656459,-0.176848,-28.022362
11.185,2.0,1.0,1.0,33.8,34.0,34.0,2.3,3.5,2.6725,0.3011825867151185,-0.04047781201154082,0.9319874415679855,-0.002452560854648313,-0.180403,-27.839745
11.185,2.0,1.0,1.0,33.8,34.0,34.0,2.3,3.5,2.675,0.2899922908547386,-0.04131189884242199,0.9350963211598856,-0.0030134114418598227,-0.184076,-27.655451
11.185,2.0,1.0,1.0,33.8,34.0,34.0,2.3,3.5,2.6775,0.278657552853725,-0.04216467982360333,0.9380903242178433,-0.003602392930373973,-0.187871,-27.469438
11.185,2.0,1.0,1.0,33.8,34.0,34.0,2.3,3.5,2.68,0.26717682852135505,-0.043036598555944335,0.9409651309170981,-0.004220943628543129,-0.191794,-27.281665
11.185,2.0,1.0,1.0,33.8,34.0,34.0,2.3,3.5,2.6825,0.25554857858540314,-0.043928104764468554,0.9437162482278301,-0.0048705874907381125,-0.195851,-27.092086
11.185,2.0,1.0,1.0,33.8,34.0,34.0,2.3,3.5,2.685,0.24377127106648064,-0.0448396535551458,0.9463390012346178,-0.0055529401310658085,-0.200048,-26.900656
11.185,2.0,1.0,1.0,33.8,34.0,34.0,2.3,3.5,2.6875,0.231843383904673,-0.0457717045194464,0.948828523882705,-0.00626971532898685,-0.204394,-26.707327
11.185,2.0,1.0,1.0,33.8,34.0,34.0,2.3,3.5,2.69,0.2197634078672938,-0.04672472066331783,0.9511797491025126,-0.007022732072752289,-0.208894,-26.51205
11.185,2.0,1.0,1.0,33.8,34.0,34.0,2.3,3.5,2.6925,0.20752984977040526,-0.04769916713368362,0.9533873982589607,-0.007813922191357394,-0.213557,-26.314774
11.185,2.0,1.0,1.0,33.8,34.0,34.0,2.3,3.5,2.695,0.19514123605127956,-0.0486955097114379,0.9554459698666867,-0.008645338631024737,-0.218391,-26.115445
11.185,2.0,1.0,1.0,33.8,34.0,34.0,2.3,3.5,2.6975,0.18259611673404816,-0.0497142130351322,0.9573497275062229,-0.009519164438157694,-0.223405,-25.91401
11.185,2.0,1.0,1.0,33.8,34.0,34.0,2.3,3.5,2.7,0.16989306983680588,-0.05075573851398015,0.9590926868694196,-0.010437722517297743,-0.228608,-25.71041
11.185,2.0,1.0,1.0,33.8,34.0,34.0,2.3,3.5,2.7025,0.15703070627528626,-0.05182054188233822,0.9606686018549153,-0.011403486239980642,-0.234012,-25.504587
11.185,2.0,1.0,1.0,33.8,34.0,34.0,2.3,3.5,2.705,0.14400767532625766,-0.05290907034026779,0.9620709496260649,-0.012419090988584772,-0.239626,-25.296478
11.185,2.0,1.0,1.0,33.8,34.0,34.0,2.3,3.5,2.7075,0.13082267072307124,-0.05402175921597771,0.9632929145344193,-0.013487346728417516,-0.245462,-25.08602
11.185,2.0,1.0,1.0,33.8,34.0,34.0,2.3,3.5,2.71,0.11747443746665552,-0.05515902807564672,0.9643273708014382,-0.014611251711487744,-0.251534,-24.873147
11.185,2.0,1.0,1.0,33.8,34.0,34.0,2.3,3.5,2.7125,0.10396177944784656,-0.056321276194074066,0.9651668638395354,-0.01579400742680481,-0.257854,-24.657788
11.185,2.0,1.0,1.0,33.8,34.0,34.0,2.3,3.5,2.715,0.09028356799176095,-0.05750887728547274,0.9658035900806234,-0.017039034924740126,-0.264437,-24.439872
11.185,2.0,1.0,1.0,33.8,34.0,34.0,2.3,3.5,2.7175,0.07643875145216189,-0.05872217337713068,0.9662293751659224,-0.018349992657158237,-0.2713,-24.219323
11.185,2.0,1.0,1.0,33.8,34.0,34.0,2.3,3.5,2.72,0.062426366004094506,-0.05996146768915319,0.9664356503347612,-0.01973079599080906,-0.278458,-23.996063
11.185,2.0,1.0,1.0,33.8,34.0,34.0,2.3,3.5,2.7225,0.04824554780681094,-0.06122701636052414,0.966413426832243,-0.021185638569066714,-0.285931,-23.770011
11.185,2.0,1.0,1.0,33.8,34.0,34.0,2.3,3.5,2.725,0.03389554673714621,-0.06251901883460781,0.9661532681358075,-0.022719015716661475,-0.293737,-23.541082
11.185,2.0,1.0,1.0,33.8,34.0,34.0,2.3,3.5,2.7275,0.019375741926442227,-0.06383760668518819,0.9656452597786684,-0.024335750103805943,-0.3019,-23.309186
11.185,2.0,1.0,1.0,33.8,34.0,34.0,2.3,3.5,2.73,0.004685659373284294,-0.06518283062621659,0.9648789765237328,-0.026041019910223742,-0.310441,-23.074231
11.185,2.0,1.0,1.0,33.8,34.0,34.0,2.3,3.5,2.7325,-0.010175008049578422,-0.06655464540348716,0.9638434466145779,-0.0278403897562769,-0.319386,-22.83612
11.185,2.0,1.0,1.0,33.8,34.0,34.0,2.3,3.5,2.735,-0.0252063778208695,-0.06795289221305749,0.9625271128003907,-0.029739844697809794,-0.328763,-22.594752
11.185,2.0,1.0,1.0,33.8,34.0,34.0,2.3,3.5,2.7375,-0.04040835179070418,-0.06937727822770078,0.9609177897991368,-0.03174582761365491,-0.338602,-22.350021
11.185,2.0,1.0,1.0,33.8,34.0,34.0,2.3,3.5,2.74,-0.05578058647899966,-0.07082735273694639,0.9590026178276624,-0.03386528035005868,-0.348936,-22.101817
11.185,2.0,1.0,1.0,33.8,34.0,34.0,2.3,3.5,2.7425,-0.07132245904426386,-0.07230247931584666,0.9567680117889026,-0.036105689024621586,-0.3598,-21.850024
11.185,2.0,1.0,1.0,33.8,34.0,34.0,2.3,3.5,2.745,-0.08703302820429464,-0.07380180332944855,0.9541996056649641,-0.03847513393356737,-0.371234,-21.594522
11.185,2.0,1.0,1.0,33.8,34.0,34.0,2.3,3.5,2.7475,-0.10291098925829634,-0.07532421395034307,0.9512821916210072,-0.04098234454997938,-0.383281,-21.335183
11.185,2.0,1.0,1.0,33.8,34.0,34.0,2.3,3.5,2.75,-0.11895462220162,-0.0768682997110903,0.94799965327908,-0.0436367601464627,-0.395989,-21.071876
11.185,2.0,1.0,1.0,33.8,34.0,34.0,2.3,3.5,2.7525,-0.13516173173419152,-0.07843229642623681,0.9443348925744914,-0.04644859662252136,-0.409409,-20.804462
11.185,2.0,1.0,1.0,33.8,34.0,34.0,2.3,3.5,2.755,-0.15152957773491982,-0.08001402609329919,0.9402697495615538,-0.04942892016320733,-0.4236,-20.532795
11.185,2.0,1.0,1.0,33.8,34.0,34.0,2.3,3.5,2.7575,-0.16805479449872038,-0.08161082511022005,0.9357849144930027,-0.05258972839892854,-0.438624,-20.256723
11.185,2.0,1.0,1.0,33.8,34.0,34.0,2.3,3.5,2.76,-0.1847332966998987,-0.08321945981826528,0.9308598314618701,-0.05594403977312901,-0.454553,-19.976087
11.185,2.0,1.0,1.0,33.8,34.0,34.0,2.3,3.5,2.7625,-0.2015601696433952,-0.08483602698177459,0.9254725928711433,-0.05950599184980721,-0.471465,-19.69072
11.185,2.0,1.0,1.0,33.8,34.0,34.0,2.3,3.5,2.765,-0.21852954087830725,-0.08645583633442579,0.9195998239929191,-0.06329094929910362,-0.489448,-19.400446
11.185,2.0,1.0,1.0,33.8,34.0,34.0,2.3,3.5,2.7675,-0.23563442965788142,-0.08807327173725456,0.9132165569054052,-0.06731562227607531,-0.508599,-19.105084
11.185,2.0,1.0,1.0,33.8,34.0,34.0,2.3,3.5,2.77,-0.25286657001422536,-0.08968162678405082,0.9062960931682392,-0.07159819584055338,-0.529026,-18.80444
11.185,2.0,1.0,1.0,33.8,34.0,34.0,2.3,3.5,2.7725,-0.27021620234691773,-0.09127290982755758,0.8988098547350456,-0.07615847093400326,-0.550852,-18.498315
11.185,2.0,1.0,1.0,33.8,34.0,34.0,2.3,3.5,2.775,-0.28767182736966523,-0.0928376123520754,0.8907272228363214,-0.0810180172037931,-0.574215,-18.186498
11.185,2.0,1.0,1.0,33.8,34.0,34.0,2.3,3.5,2.7775,-0.30521991497854684,-0.09436443334493431,0.8820153649362281,-0.0862003376060974,-0.599269,-17.86877
11.185,2.0,1.0,1.0,33.8,34.0,34.0,2.3,3.5,2.78,-0.3228445590524741,-0.0958399507736873,0.8726390504302696,-0.09173104417014617,-0.626188,-17.544903
11.185,2.0,1.0,1.0,33.8,34.0,34.0,2.3,3.5,2.7825,-0.34052706731636256,-0.09724822940255858,0.8625604565851249,-0.09763804349147548,-0.655171,-17.214658
11.185,2.0,1.0,1.0,33.8,34.0,34.0,2.3,3.5,2.785,-0.3582454731279073,-0.09857035191728131,0.8517389674350813,-0.10395172933357168,-0.686443,-16.877787
11.185,2.0,1.0,1.0,33.8,34.0,34.0,2.3,3.5,2.7875,-0.3759739533200013,-0.09978385760146263,0.8401309700904639,-0.1107051780083243,-0.720261,-16.534034
11.185,2.0,1.0,1.0,33.8,34.0,34.0,2.3,3.5,2.79,-0.39368213297062327,-0.10086206954554702,0.8276896553869714,-0.11793433977303867,-0.756919,-16.183135
11.185,2.0,1.0,1.0,33.8,34.0,34.0,2.3,3.5,2.7925,-0.4113342541106899,-0.10177328749936901,0.8143648332923897,-0.12567821604601795,-0.796753,-15.824815
11.185,2.0,1.0,1.0,33.8,34.0,34.0,2.3,3.5,2.795,-0.42888818086563596,-0.10247981894455045,0.8001027783738063,-0.13397900742125407,-0.840151,-15.458798
11.185,2.0,1.0,1.0,33.8,34.0,34.0,2.3,3.5,2.7975,-0.4462942083448585,-0.10293681574475343,0.7848461274397038,-0.14288221073288437,-0.887561,-15.084798
11.185,2.0,1.0,1.0,33.8,34.0,34.0,2.3,3.5,2.8,-0.46349363681119843,-0.10309087788793583,0.7685338609187671,-0.15243663407259192,-0.939503,-14.702533
11.185,2.0,1.0,1.0,33.8,34.0,34.0,2.3,3.5,2.8025,-0.48041706649101984,-0.10287837956463593,0.7511014125790707,-0.16269428574240036,-0.996581,-14.31172
11.185,2.0,1.0,1.0,33.8,34.0,34.0,2.3,3.5,2.805,-0.4969823622881776,-0.10222346657685157,0.7324809701009681,-0.17371007535855987,-1.0595,-13.912085
11.185,2.0,1.0,1.0,33.8,34.0,34.0,2.3,3.5,2.8075,-0.5130922325297099,-0.10103566870761002,0.712602053461745,-0.18554124104017947,-1.129088,-13.503365
11.185,2.0,1.0,1.0,33.8,34.0,34.0,2.3,3.5,2.81,-0.5286313632790204,-0.09920706775121432,0.6913924912010553,-0.19824638368000583,-1.206319,-13.085324
11.185,2.0,1.0,1.0,33.8,34.0,34.0,2.3,3.5,2.8125,-0.543463052394944,-0.0966089640561782,0.668779959040591,-0.211883945058726,-1.292341,-12.657756
11.185,2.0,1.0,1.0,33.8,34.0,34.0,2.3,3.5,2.815,-0.557425299819589,-0.09308799603697765,0.6446943040820295,-0.22650990793934986,-1.388518,-12.220506
11.185,2.0,1.0,1.0,33.8,34.0,34.0,2.3,3.5,2.8175,-0.5703263396217584,-0.08846169517254612,0.6190709540841424,-0.24217442001796347,-1.496473,-11.773487
11.185,2.0,1.0,1.0,33.8,34.0,34.0,2.3,3.5,2.82,-0.5819396561132193,-0.08251351445138844,0.591855807676245,-0.2589169470424341,-1.618141,-11.316703
11.185,2.0,1.0,1.0,33.8,34.0,34.0,2.3,3.5,2.8225,-0.5919986274989593,-0.07498746756512047,0.563012118124422,-0.2767594430255789,-1.755845,-10.850283
11.185,2.0,1.0,1.0,33.8,34.0,34.0,2.3,3.5,2.825,-0.6001911101538683,-0.06558268346524049,0.5325300154212869,-0.2956968919741914,-1.912372,-10.37452
11.185,2.0,1.0,1.0,33.8,34.0,34.0,2.3,3.5,2.8275,-0.6061545480497709,-0.05394844951229474,0.5004394430976472,-0.31568444138124935,-2.091078,-9.889919
