1,w,sub_t,h,l1,l2,l3,g1,g2,Freq,S11_re,S21_re,S11_img,S21_img,S11_dB,S21_dB
11.185,2.0,1.0,1.0,34.6,33.5,33.5,3.8,3.3,2.5,0.682182118955601,-0.0103786313991781,0.720108307545726,0.00355034115840414,-0.070365,-39.196589
11.185,2.0,1.0,1.0,34.6,33.5,33.5,3.8,3.3,2.5025,0.6760718708033752,-0.010546983542257223,0.7257351891690689,0.0034995400417395044,-0.071087,-39.083835
11.185,2.0,1.0,1.0,34.6,33.5,33.5,3.8,3.3,2.505,0.6698815279559387,-0.010717497945622932,0.731339285923166,0.0034462046384164838,-0.071822,-38.970826
11.185,2.0,1.0,1.0,34.6,33.5,33.5,3.8,3.3,2.5075,0.6636103694999992,-0.01089019300286911,0.7369197116754579,0.0033902611498314917,-0.072568,-38.857555
11.185,2.0,1.0,1.0,34.6,33.5,33.5,3.8,3.3,2.51,0.6572576704657088,-0.011065086797425848,0.7424755569021312,0.0033316336997013217,-0.073327,-38.744019
11.185,2.0,1.0,1.0,34.6,33.5,33.5,3.8,3.3,2.5125,0.6508227020465861,-0.011242197069935367,0.7480058880967485,0.0032702442748208218,-0.074098,-38.630212
11.185,2.0,1.0,1.0,34.6,33.5,33.5,3.8,3.3,2.515,0.6443047318346886,-0.011421541183828522,0.753509747166155,0.0032060126641685334,-0.074882,-38.516129
11.185,2.0,1.0,1.0,34.6,33.5,33.5,3.8,3.3,2.5175,0.6377030240717638,-0.011603136089015509,0.7589861508135062,0.0031388563963183434,-0.075679,-38.401767
11.185,2.0,1.0,1.0,34.6,33.5,33.5,3.8,3.3,2.52,0.6310168399170883,-0.011786998283600747,0.7644340899083176,0.0030686906751141055,-0.07649,-38.287119
11.185,2.0,1.0,1.0,34.6,33.5,33.5,3.8,3.3,2.5225,0.6242454377327904,-0.011973143773527302,0.769852528843397,0.0029954283135637796,-0.077314,-38.172181
11.185,2.0,1.0,1.0,34.6,33.5,33.5,3.8,3.3,2.525,0.6173880733874231,-0.012161588030052859,0.7752404048785824,0.0029189796659081584,-0.078152,-38.056948
11.185,2.0,1.0,1.0,34.6,33.5,33.5,3.8,3.3,2.5275,0.6104440005786221,-0.012352345944954232,0.7805966274711819,0.0028392525578189395,-0.079005,-37.941414
11.185,2.0,1.0,1.0,34.6,33.5,33.5,3.8,3.3,2.53,0.6034124711757058,-0.012545431783352734,0.7859200775930429,0.0027561522146796057,-0.079872,-37.825576
11.185,2.0,1.0,1.0,34.6,33.5,33.5,3.8,3.3,2.5325,0.5962927355831003,-0.01274085913404836,0.7912096070341917,0.002669581187901736,-0.080753,-37.709427
11.185,2.0,1.0,1.0,34.6,33.5,33.5,3.8,3.3,2.535,0.5890840431255054,-0.01293864085724548,0.7964640376929989,0.0025794392792286387,-0.08165,-37.592962
11.185,2.0,1.0,1.0,34.6,33.5,33.5,3.8,3.3,2.5375,0.5817856424557699,-0.01313878902954728,0.80168216085284,0.0024856234629770666,-0.082563,-37.476177
11.185,2.0,1.0,1.0,34.6,33.5,33.5,3.8,3.3,2.54,0.5743967819864447,-0.013341314886091379,0.8068627364452466,0.002388027806166563,-0.083491,-37.359065
11.185,2.0,1.0,1.0,34.6,33.5,33.5,3.8,3.3,2.5425,0.5669167103460524,-0.013546228759692646,0.8120044922995603,0.0022865433864855274,-0.084435,-37.241623
11.185,2.0,1.0,1.0,34.6,33.5,33.5,3.8,3.3,2.545,0.5593446768611241,-0.013753540016853817,0.817106123379124,0.0021810582080414734,-0.085396,-37.123844
11.185,2.0,1.0,1.0,34.6,33.5,33.5,3.8,3.3,2.5475,0.551679932065114,-0.013963256990497854,0.8221662910040611,0.002071457114842229,-0.086374,-37.005723
11.185,2.0,1.0,1.0,34.6,33.5,33.5,3.8,3.3,2.55,0.5439217282353036,-0.014175386909270381,0.827183622060747,0.001957621701953493,-0.087369,-36.887254
11.185,2.0,1.0,1.0,34.6,33.5,33.5,3.8,3.3,2.5525,0.5360693199589047,-0.01438993582325235,0.8321567081980534,0.0018394302242772257,-0.088381,-36.768433
11.185,2.0,1.0,1.0,34.6,33.5,33.5,3.8,3.3,2.555,0.5281219647295445,-0.014606908525917544,0.8370841050105368,0.0017167575028937013,-0.089412,-36.649253
11.185,2.0,1.0,1.0,34.6,33.5,33.5,3.8,3.3,2.5575,0.5200789235754003,-0.014826308472161293,0.841964331208726,0.0015894748289091523,-0.090461,-36.52971
11.185,2.0,1.0,1.0,34.6,33.5,33.5,3.8,3.3,2.56,0.5119394617202874,-0.01504813769221936,0.8467958677767209,0.0014574498647492776,-0.091529,-36.409796
11.185,2.0,1.0,1.0,34.6,33.5,33.5,3.8,3.3,2.5625,0.5037028492790256,-0.015272396701287523,0.8515771571173425,0.0013205465428378484,-0.092616,-36.289507
11.185,2.0,1.0,1.0,34.6,33.5,33.5,3.8,3.3,2.565,0.49536836198847406,-0.015499084404644878,0.8563066021851232,0.0011786249615971449,-0.093722,-36.168837
11.185,2.0,1.0,1.0,34.6,33.5,33.5,3.8,3.3,2.5675,0.4869352819756603,-0.01572819799807396,0.8609825656074432,0.0010315412787065721,-0.094849,-36.04778
11.185,2.0,1.0,1.0,34.6,33.5,33.5,3.8,3.3,2.57,0.47840289856446755,-0.015959732863362597,0.8656033687942003,0.0008791476015528655,-0.095996,-35.926329
11.185,2.0,1.0,1.0,34.6,33.5,33.5,3.8,3.3,2.5725,0.4697705091223942,-0.016193682458662144,0.8701672910364088,0.0007212918748040523,-0.097165,-35.80448
11.185,2.0,1.0,1.0,34.6,33.5,33.5,3.8,3.3,2.575,0.4610374199489463,-0.01643003820346686,0.8746725685941982,0.00055781776503667,-0.098354,-35.682225
11.185,2.0,1.0,1.0,34.6,33.5,33.5,3.8,3.3,2.5775,0.4522029472072648,-0.016668789357969036,0.8791173937747219,0.0003885645423440606,-0.099566,-35.55956
11.185,2.0,1.0,1.0,34.6,33.5,33.5,3.8,3.3,2.58,0.4432664179006415,-0.016909922896532165,0.8834999140005476,0.00021336695885052073,-0.1008,-35.436476
11.185,2.0,1.0,1.0,34.6,33.5,33.5,3.8,3.3,2.5825,0.43422717089561036,-0.017153423375014975,0.8878182308691551,3.2055124053470076e-05,-0.102057,-35.312969
11.185,2.0,1.0,1.0,34.6,33.5,33.5,3.8,3.3,2.585,0.42508455799336414,-0.01739927279166448,0.8920703992042335,-0.00015554562308719508,-0.103338,-35.189031
11.185,2.0,1.0,1.0,34.6,33.5,33.5,3.8,3.3,2.5875,0.4158379450512718,-0.01764745044128551,0.8962544260995388,-0.0003496148453967612,-0.104642,-35.064656
11.185,2.0,1.0,1.0,34.6,33.5,33.5,3.8,3.3,2.59,0.406486713156346,-0.017897932762379252,0.9003682699561215,-0.0005503371421582412,-0.105971,-34.939838
11.185,2.0,1.0,1.0,34.6,33.5,33.5,3.8,3.3,2.5925,0.39703025985251755,-0.018150693176930164,0.9044098395138385,-0.0007579022873020526,-0.107326,-34.81457
11.185,2.0,1.0,1.0,34.6,33.5,33.5,3.8,3.3,2.595,0.387468000423667,-0.018405701922504472,0.9083769928781114,-0.0009725053712090244,-0.108706,-34.688845
11.185,2.0,1.0,1.0,34.6,33.5,33.5,3.8,3.3,2.5975,0.3777993692343541,-0.01866292587630958,0.9122675365429835,-0.0011943469462287728,-0.110112,-34.562655
11.185,2.0,1.0,1.0,34.6,33.5,33.5,3.8,3.3,2.6,0.3680238211302684,-0.018922328370844996,0.9160792244116331,-0.0014236331760205292,-0.111546,-34.435995
11.185,2.0,1.0,1.0,34.6,33.5,33.5,3.8,3.3,2.6025,0.35814083290047005,-0.019183869000759,0.9198097568155347,-0.001660575988829862,-0.113007,-34.308856
11.185,2.0,1.0,1.0,34.6,33.5,33.5,3.8,3.3,2.605,0.34814990480348473,-0.01944750342050637,0.923456779533621,-0.001905393234821864,-0.114496,-34.181232
11.185,2.0,1.0,1.0,34.6,33.5,33.5,3.8,3.3,2.6075,0.3380505621594222,-0.019713183132382902,0.9270178828128401,-0.002158308847599174,-0.116014,-34.053115
11.185,2.0,1.0,1.0,34.6,33.5,33.5,3.8,3.3,2.61,0.3278423570102766,-0.01998085526449068,0.930490600391627,-0.002419553010041207,-0.117562,-33.924497
11.185,2.0,1.0,1.0,34.6,33.5,33.5,3.8,3.3,2.6125,0.3175248698506337,-0.020250462338166502,0.9338724085279129,-0.002689362324611893,-0.119141,-33.795372
11.185,2.0,1.0,1.0,34.6,33.5,33.5,3.8,3.3,2.615,0.3070977114310142,-0.02052194202438237,0.9371607250334014,-0.002967979988292646,-0.12075,-33.665729
11.185,2.0,1.0,1.0,34.6,33.5,33.5,3.8,3.3,2.6175,0.296560524636167,-0.020795226888599874,0.940352908315951,-0.0032556559723099098,-0.122391,-33.535563
11.185,2.0,1.0,1.0,34.6,33.5,33.5,3.8,3.3,2.62,0.28591298644060065,-0.02107024412353531,0.9434462564320302,-0.0035526472068402,-0.124065,-33.404865
11.185,2.0,1.0,1.0,34.6,33.5,33.5,3.8,3.3,2.6225,0.2751548099437037,-0.021346915269261836,0.9464380061513192,-0.0038592177708901628,-0.125773,-33.273625
11.185,2.0,1.0,1.0,34.6,33.5,33.5,3.8,3.3,2.625,0.264285746486835,-0.0216251559200439,0.949325332035671,-0.00417563908756541,-0.127515,-33.141836
11.185,2.0,1.0,1.0,34.6,33.5,33.5,3.8,3.3,2.6275,0.2533055878547504,-0.021904875417266625,0.9521053455347732,-0.004502190124961684,-0.129291,-33.00949
11.185,2.0,1.0,1.0,34.6,33.5,33.5,3.8,3.3,2.63,0.24221416856379985,-0.022185976527785627,0.9547750941009673,-0.004839157602931145,-0.131104,-32.876576
11.185,2.0,1.0,1.0,34.6,33.5,33.5,3.8,3.3,2.6325,0.23101136823929483,-0.022468355106984084,0.9573315603258549,-0.005186836206000214,-0.132954,-32.743086
11.185,2.0,1.0,1.0,34.6,33.5,33.5,3.8,3.3,2.635,0.2196971140845111,-0.02275189974578253,0.9597716611014162,-0.005545528802741571,-0.134842,-32.609011
11.185,2.0,1.0,1.0,34.6,33.5,33.5,3.8,3.3,2.6375,0.20827138344375382,-0.02303649140079937,0.9620922468085448,-0.005915546671929713,-0.136769,-32.474341
11.185,2.0,1.0,1.0,34.6,33.5,33.5,3.8,3.3,2.64,0.19673420646192427,-0.023322003006813433,0.9642901005360338,-0.0062972097358435985,-0.138736,-32.339065
11.185,2.0,1.0,1.0,34.6,33.5,33.5,3.8,3.3,2.6425,0.18508566884305572,-0.023608299070622913,0.9663619373331943,-0.006690846801112751,-0.140744,-32.203175
11.185,2.0,1.0,1.0,34.6,33.5,33.5,3.8,3.3,2.645,0.17332591471023698,-0.02389523524533874,0.9683044034994439,-0.007096795807544032,-0.142793,-32.066659
11.185,2.0,1.0,1.0,34.6,33.5,33.5,3.8,3.3,2.6475,0.1614551495693677,-0.02418265788408506,0.9701140759143465,-0.007515404085408791,-0.144886,-31.929508
11.185,2.0,1.0,1.0,34.6,33.5,33.5,3.8,3.3,2.65,0.14947364337912475,-0.024470403572010628,0.9717874614117428,-0.007947028621719624,-0.147023,-31.791709
11.185,2.0,1.0,1.0,34.6,33.5,33.5,3.8,3.3,2.6525,0.13738173372958143,-0.024758298635436285,0.9733209962017523,-0.008392036336077262,-0.149206,-31.653253
11.185,2.0,1.0,1.0,34.6,33.5,33.5,3.8,3.3,2.655,0.12517982913178743,-0.025046158626881688,0.9747110453445813,-0.008850804366730828,-0.151436,-31.514126
11.185,2.0,1.0,1.0,34.6,33.5,33.5,3.8,3.3,2.6575,0.11286841242066302,-0.025333787784620348,0.975953902280236,-0.009323720367557374,-0.153713,-31.374318
11.185,2.0,1.0,1.0,34.6,33.5,33.5,3.8,3.3,2.66,0.10044804427350838,-0.02562097846531037,0.9770457884183307,-0.009811182816742217,-0.15604,-31.233816
11.185,2.0,1.0,1.0,34.6,33.5,33.5,3.8,3.3,2.6625,0.08791936684636174,-0.025907510548135726,0.977982852792396,-0.010313601338019963,-0.158418,-31.092608
11.185,2.0,1.0,1.0,34.6,33.5,33.5,3.8,3.3,2.665,0.07528310753041523,-0.02619315080876895,0.9787611717831572,-0.010831397035428724,-0.160847,-30.95068
11.185,2.0,1.0,1.0,34.6,33.5,33.5,3.8,3.3,2.6675,0.06254008283065819,-0.0264776522613271,0.9793767489154065,-0.011365002842625453,-0.163331,-30.808019
11.185,2.0,1.0,1.0,34.6,33.5,33.5,3.8,3.3,2.67,0.04969120236882561,-0.02676075346634201,0.9798255147332303,-0.011914863887923075,-0.16587,-30.664611
11.185,2.0,1.0,1.0,34.6,33.5,33.5,3.8,3.3,2.6725,0.03673747301272017,-0.027042177802595106,0.9801033267583984,-0.012481437876329078,-0.168465,-30.520442
11.185,2.0,1.0,1.0,34.6,33.5,33.5,3.8,3.3,2.675,0.023680003133889002,-0.027321632700478857,0.9802059695368797,-0.013065195489999988,-0.171119,-30.375497
11.185,2.0,1.0,1.0,34.6,33.5,33.5,3.8,3.3,2.6775,0.010520006995595726,-0.027598808834337917,0.9801291547784776,-0.013666620808672788,-0.173834,-30.22976
11.185,2.0,1.0,1.0,34.6,33.5,33.5,3.8,3.3,2.68,-0.002741190727038545,-0.027873379271008792,0.9798685215946584,-0.014286211751799411,-0.17661,-30.083216
11.185,2.0,1.0,1.0,34.6,33.5,33.5,3.8,3.3,2.6825,-0.016102150292861266,-0.028144998571516054,0.9794196368396644,-0.014924480544287126,-0.17945,-29.935849
11.185,2.0,1.0,1.0,34.6,33.5,33.5,3.8,3.3,2.685,-0.029561312104733443,-0.028413301842592196,0.9787779955600386,-0.015581954207949672,-0.182356,-29.78764
11.185,2.0,1.0,1.0,34.6,33.5,33.5,3.8,3.3,2.6875,-0.0431169917819882,-0.028677903734362575,0.9779390215576496,-0.016259175080989972,-0.18533,-29.638572
11.185,2.0,1.0,1.0,34.6,33.5,33.5,3.8,3.3,2.69,-0.05676737509357305,-0.028938397380170528,0.9768980680712664,-0.016956701368076484,-0.188375,-29.488627
11.185,2.0,1.0,1.0,34.6,33.5,33.5,3.8,3.3,2.6925,-0.07051051275014683,-0.029194353274111233,0.9756504185816571,-0.01767510772384369,-0.191491,-29.337786
11.185,2.0,1.0,1.0,34.6,33.5,33.5,3.8,3.3,2.695,-0.08434431505331644,-0.029445318081381375,0.9741912877450496,-0.018414985872933626,-0.194682,-29.186028
11.185,2.0,1.0,1.0,34.6,33.5,33.5,3.8,3.3,2.6975,-0.09826654640023212,-0.029690813376037812,0.9725158224596261,-0.019176945270024653,-0.197951,-29.033334
11.185,2.0,1.0,1.0,34.6,33.5,33.5,3.8,3.3,2.7,-0.11227481964159663,-0.029930334300177937,0.9706191030695291,-0.01996161380364005,-0.201299,-28.879681
11.185,2.0,1.0,1.0,34.6,33.5,33.5,3.8,3.3,2.7025,-0.12636659029104919,-0.030163348137901887,0.9684961447105456,-0.020769638547924272,-0.204729,-28.725047
11.185,2.0,1.0,1.0,34.6,33.5,33.5,3.8,3.3,2.705,-0.14053915058365268,-0.03038929279668168,0.9661418988013304,-0.02160168656699782,-0.208244,-28.569408
11.185,2.0,1.0,1.0,34.6,33.5,33.5,3.8,3.3,2.7075,-0.1547896233810412,-0.030607575187933292,0.9635512546836282,-0.022458445776976508,-0.211848,-28.412741
11.185,2.0,1.0,1.0,34.6,33.5,33.5,3.8,3.3,2.71,-0.16911495592031803,-0.03081756949765102,0.9607190414144516,-0.02334062587125186,-0.215543,-28.255019
11.185,2.0,1.0,1.0,34.6,33.5,33.5,3.8,3.3,2.7125,-0.18351191340349704,-0.031018615336905968,0.9576400297126421,-0.02424895931520178,-0.219332,-28.096216
11.185,2.0,1.0,1.0,34.6,33.5,33.5,3.8,3.3,2.715,-0.19797707242365134,-0.031210015760814173,0.9543089340615715,-0.025184202417118325,-0.223219,-27.936305
11.185,2.0,1.0,1.0,34.6,33.5,33.5,3.8,3.3,2.7175,-0.21250681422330636,-0.03139103514322424,0.9507204149690021,-0.026147136482824632,-0.227208,-27.775255
11.185,2.0,1.0,1.0,34.6,33.5,33.5,3.8,3.3,2.72,-0.22709731777973163,-0.031560896892839266,0.9468690813842578,-0.02713856906219847,-0.231302,-27.613037
11.185,2.0,1.0,1.0,34.6,33.5,33.5,3.8,3.3,2.7225,-0.2417445527108722,-0.031718780994744636,0.9427494932718866,-0.02815933529664269,-0.235505,-27.449618
11.185,2.0,1.0,1.0,34.6,33.5,33.5,3.8,3.3,2.725,-0.2564442719942773,-0.03186382135933425,0.938356164339894,-0.02921029937743471,-0.239822,-27.284965
11.185,2.0,1.0,1.0,34.6,33.5,33.5,3.8,3.3,2.7275,-0.27119200449010256,-0.03199510295837697,0.9336835649193667,-0.030292356125875282,-0.244257,-27.119043
11.185,2.0,1.0,1.0,34.6,33.5,33.5,3.8,3.3,2.73,-0.2859830472572719,-0.03211165872540155,0.9287261249909352,-0.031406432707222515,-0.248815,-26.951816
11.185,2.0,1.0,1.0,34.6,33.5,33.5,3.8,3.3,2.7325,-0.3008124576499615,-0.03221246619465925,0.9234782373519368,-0.032553490491574695,-0.253501,-26.783244
11.185,2.0,1.0,1.0,34.6,33.5,33.5,3.8,3.3,2.735,-0.3156750451788912,-0.03229644384958817,0.9179342609164266,-0.03373452707613835,-0.25832,-26.613287
11.185,2.0,1.0,1.0,34.6,33.5,33.5,3.8,3.3,2.7375,-0.33056536311902995,-0.032362447147896836,0.912088524138261,-0.03495057848471406,-0.263278,-26.441902
11.185,2.0,1.0,1.0,34.6,33.5,33.5,3.8,3.3,2.74,-0.3454776998416827,-0.03240926418602521,0.9059353285453488,-0.036202721561742666,-0.268381,-26.269045
11.185,2.0,1.0,1.0,34.6,33.5,33.5,3.8,3.3,2.7425,-0.36040606984486384,-0.03243561096075043,0.8994689523708259,-0.03749207657990317,-0.273636,-26.094668
11.185,2.0,1.0,1.0,34.6,33.5,33.5,3.8,3.3,2.745,-0.37534420445079314,-0.0324401261799763,0.8926836542643718,-0.03881981008202943,-0.279049,-25.918721
11.185,2.0,1.0,1.0,34.6,33.5,33.5,3.8,3.3,2.7475,-0.39028554213369065,-0.032421365568164516,0.8855736770640671,-0.04018713798004096,-0.284628,-25.741153
11.185,2.0,1.0,1.0,34.6,33.5,33.5,3.8,3.3,2.75,-0.405223218434111,-0.0323777956042916,0.878133251606152,-0.041595328935653,-0.29038,-25.561907
11.185,2.0,1.0,1.0,34.6,33.5,33.5,3.8,3.3,2.7525,-0.4201500554081465,-0.032307786621488664,0.870356600546774,-0.04304570804985606,-0.296314,-25.380926
11.185,2.0,1.0,1.0,34.6,33.5,33.5,3.8,3.3,2.755,-0.435058550550363,-0.032209605187441225,0.8622379421662466,-0.04453966089052455,-0.30244,-25.198148
11.185,2.0,1.0,1.0,34.6,33.5,33.5,3.8,3.3,2.7575,-0.44994086511829884,-0.03208140567297432,0.8537714941225092,-0.04607863789003911,-0.308766,-25.013508
11.185,2.0,1.0,1.0,34.6,33.5,33.5,3.8,3.3,2.76,-0.4647888117734996,-0.031921220902745365,0.844951477116499,-0.04766415914744929,-0.315303,-24.826937
11.185,2.0,1.0,1.0,34.6,33.5,33.5,3.8,3.3,2.7625,-0.47959384143866735,-0.03172695176629708,0.8357721184277703,-0.04929781967247288,-0.322063,-24.638363
11.185,2.0,1.0,1.0,34.6,33.5,33.5,3.8,3.3,2.765,-0.4943470292529008,-0.031496355649499375,0.826227655274301,-0.05098129511146535,-0.329057,-24.447709
11.185,2.0,1.0,1.0,34.6,33.5,33.5,3.8,3.3,2.7675,-0.5090390594857725,-0.031227033525176282,0.8163123379457436,-0.052716347998362084,-0.336299,-24.254894
11.185,2.0,1.0,1.0,34.6,33.5,33.5,3.8,3.3,2.77,-0.523660209246555,-0.030916415516922813,0.8060204326546668,-0.054504834576423175,-0.343802,-24.059831
11.185,2.0,1.0,1.0,34.6,33.5,33.5,3.8,3.3,2.7725,-0.5382003307956671,-0.03056174472111048,0.7953462240456887,-0.056348712239281624,-0.351583,-23.86243
11.185,2.0,1.0,1.0,34.6,33.5,33.5,3.8,3.3,2.775,-0.5526488322313918,-0.030160059038069398,0.7842840172978225,-0.05825004764218082,-0.359658,-23.662592
11.185,2.0,1.0,1.0,34.6,33.5,33.5,3.8,3.3,2.7775,-0.5669946562843395,-0.029708170723463788,0.7728281397512502,-0.06021102553617185,-0.368044,-23.460216
11.185,2.0,1.0,1.0,34.6,33.5,33.5,3.8,3.3,2.78,-0.5812262569046122,-0.029202643323796778,0.7609729419862062,-0.0622339583791635,-0.376762,-23.255192
11.185,2.0,1.0,1.0,34.6,33.5,33.5,3.8,3.3,2.7825,-0.5953315732699355,-0.028639765604392773,0.7487127982791887,-0.0643212967776878,-0.385834,-23.047403
11.185,2.0,1.0,1.0,34.6,33.5,33.5,3.8,3.3,2.785,-0.6092980007762376,-0.028015522012411212,0.7360421063607435,-0.06647564081158377,-0.395283,-22.836727
11.185,2.0,1.0,1.0,34.6,33.5,33.5,3.8,3.3,2.7875,-0.6231123584923856,-0.027325559139386606,0.7229552864003618,-0.06869975228978498,-0.405134,-22.623032
11.185,2.0,1.0,1.0,34.6,33.5,33.5,3.8,3.3,2.79,-0.6367608524660581,-0.026565147554932094,0.7094467791484418,-0.07099656797815095,-0.415417,-22.406178
11.185,2.0,1.0,1.0,34.6,33.5,33.5,3.8,3.3,2.7925,-0.6502290341546727,-0.0257291382725128,0.6955110431741464,-0.07336921382851397,-0.426162,-22.186015
11.185,2.0,1.0,1.0,34.6,33.5,33.5,3.8,3.3,2.795,-0.6635017531199368,-0.02481191297578609,0.6811425511528718,-0.075821020220196,-0.437404,-21.962386
11.185,2.0,1.0,1.0,34.6,33.5,33.5,3.8,3.3,2.7975,-0.6765631029623309,-0.023807326975281217,0.6663357851804872,-0.07835553819887496,-0.449182,-21.735119
11.185,2.0,1.0,1.0,34.6,33.5,33.5,3.8,3.3,2.8,-0.6893963592770354,-0.022708643674379473,0.6510852311261796,-0.08097655665986224,-0.461537,-21.504034
11.185,2.0,1.0,1.0,34.6,33.5,33.5,3.8,3.3,2.8025,-0.7019839081777203,-0.02150845909359116,0.6353853720862059,-0.08368812036942261,-0.474517,-21.268937
11.185,2.0,1.0,1.0,34.6,33.5,33.5,3.8,3.3,2.805,-0.7143071636509583,-0.02019861472421117,0.6192306810724996,-0.08649454864319578,-0.488173,-21.02962
11.185,2.0,1.0,1.0,34.6,33.5,33.5,3.8,3.3,2.8075,-0.726346471660242,-0.018770096645691237,0.6026156131704852,-0.08940045439751447,-0.502565,-20.785863
11.185,2.0,1.0,1.0,34.6,33.5,33.5,3.8,3.3,2.81,-0.7380809985013995,-0.017212918431990475,0.5855345975401273,-0.09241076314718126,-0.517757,-20.537426
11.185,2.0,1.0,1.0,34.6,33.5,33.5,3.8,3.3,2.8125,-0.749488600403096,-0.0155159848739736,0.56798202982723,-0.0955307313280811,-0.533823,-20.284057
11.185,2.0,1.0,1.0,34.6,33.5,33.5,3.8,3.3,2.815,-0.7605456707465517,-0.013666932936757536,0.5499522658174943,-0.09876596305574392,-0.550846,-20.025481
11.185,2.0,1.0,1.0,34.6,33.5,33.5,3.8,3.3,2.8175,-0.7712269605206296,-0.01165194562687323,0.5314396175305452,-0.10212242406533109,-0.568919,-19.761405
11.185,2.0,1.0,1.0,34.6,33.5,33.5,3.8,3.3,2.82,-0.781505366700071,-0.009455533532079775,0.5124383534513753,-0.1056064510783392,-0.588148,-19.491514
11.185,2.0,1.0,1.0,34.6,33.5,33.5,3.8,3.3,2.8225,-0.7913516820950981,-0.007060277676939456,0.4929427052830329,-0.10922475415653123,-0.608653,-19.21547
11.185,2.0,1.0,1.0,34.6,33.5,33.5,3.8,3.3,2.825,-0.8007342988206338,-0.00444652596099288,0.4729468845468978,-0.11298440866473237,-0.630571,-18.932908
11.185,2.0,1.0,1.0,34.6,33.5,33.5,3.8,3.3,2.8275,-0.809618855812144,-0.0015920337539762864,0.4524451136533971,-0.11689283217427159,-0.65406,-18.643437
