1,w,sub_t,h,l1,l2,l3,g1,g2,Freq,S11_re,S21_re,S11_img,S21_img,S11_dB,S21_dB
11.185,2.0,1.0,1.0,34.8,34.8,34.8,2.6,3.6,2.5,0.633866895580333,-0.0171065678174122,0.760527628051172,0.00579251324404827,-0.086899,-34.865322
11.185,2.0,1.0,1.0,34.8,34.8,34.8,2.6,3.6,2.5025,0.627100027851576,-0.01743248609490685,0.7659475332004421,0.005722225972375583,-0.088049,-34.728402
11.185,2.0,1.0,1.0,34.8,34.8,34.8,2.6,3.6,2.505,0.6202439673744208,-0.017764768155845583,0.7713379795055031,0.005647404933810582,-0.089225,-34.5907
11.185,2.0,1.0,1.0,34.8,34.8,34.8,2.6,3.6,2.5075,0.6132977615004904,-0.018103565761484683,0.7766978568363639,0.005567867207604493,-0.090427,-34.452199
11.185,2.0,1.0,1.0,34.8,34.8,34.8,2.6,3.6,2.51,0.6062604462505147,-0.01844903533648647,0.7820260213974108,0.005483421783098596,-0.091657,-34.312882
11.185,2.0,1.0,1.0,34.8,34.8,34.8,2.6,3.6,2.5125,0.5991310462763231,-0.01880133814901613,0.7873212946039516,0.005393869138832653,-0.092915,-34.17273
11.185,2.0,1.0,1.0,34.8,34.8,34.8,2.6,3.6,2.515,0.5919085748273807,-0.019160640499331052,0.7925824619144417,0.005299000795730312,-0.094202,-34.031726
11.185,2.0,1.0,1.0,34.8,34.8,34.8,2.6,3.6,2.5175,0.5845920337220782,-0.01952711391732551,0.797808271616074,0.005198598842486163,-0.09552,-33.889849
11.185,2.0,1.0,1.0,34.8,34.8,34.8,2.6,3.6,2.52,0.577180413323956,-0.019900935369523448,0.8029974335612855,0.005092435431122663,-0.096869,-33.74708
11.185,2.0,1.0,1.0,34.8,34.8,34.8,2.6,3.6,2.5225,0.5696726925230758,-0.020282287476037535,0.8081486178524895,0.0049802722405136255,-0.09825,-33.603399
11.185,2.0,1.0,1.0,34.8,34.8,34.8,2.6,3.6,2.525,0.562067838722726,-0.02067135873804609,0.8132604534722252,0.0048618599054829036,-0.099664,-33.458786
11.185,2.0,1.0,1.0,34.8,34.8,34.8,2.6,3.6,2.5275,0.5543648078316513,-0.021068343776368823,0.8183315268556579,0.004736937408880767,-0.101113,-33.313218
11.185,2.0,1.0,1.0,34.8,34.8,34.8,2.6,3.6,2.53,0.5465625442620157,-0.021473443581756013,0.8233603804021132,0.0046052314338148725,-0.102597,-33.166675
11.185,2.0,1.0,1.0,34.8,34.8,34.8,2.6,3.6,2.5325,0.538659980933279,-0.021886865777541026,0.8283455109221246,0.004466455672963719,-0.104119,-33.019133
11.185,2.0,1.0,1.0,34.8,34.8,34.8,2.6,3.6,2.535,0.5306560392821764,-0.022308824895342153,0.8332853680161479,0.00432031009162703,-0.105678,-32.870569
11.185,2.0,1.0,1.0,34.8,34.8,34.8,2.6,3.6,2.5375,0.522549629279002,-0.022739542664536313,0.8381783523808075,0.0041664801408678705,-0.107277,-32.720959
11.185,2.0,1.0,1.0,34.8,34.8,34.8,2.6,3.6,2.54,0.5143396494503668,-0.02317924831626833,0.8430228140381917,0.004004635916768472,-0.108917,-32.570278
11.185,2.0,1.0,1.0,34.8,34.8,34.8,2.6,3.6,2.5425,0.5060249869086175,-0.023628178902797902,0.8478170504833512,0.0038344312614573012,-0.1106,-32.418502
11.185,2.0,1.0,1.0,34.8,34.8,34.8,2.6,3.6,2.545,0.4976045173880955,-0.02408657963302874,0.8525593047447334,0.003655502801161278,-0.112326,-32.265602
11.185,2.0,1.0,1.0,34.8,34.8,34.8,2.6,3.6,2.5475,0.4890771052884171,-0.024554704225106045,0.857247763351812,0.0034674689160911136,-0.114098,-32.111554
11.185,2.0,1.0,1.0,34.8,34.8,34.8,2.6,3.6,2.55,0.48044160372493644,-0.02503281527701229,0.8618805542037344,0.0032699286364741517,-0.115917,-31.956327
11.185,2.0,1.0,1.0,34.8,34.8,34.8,2.6,3.6,2.5525,0.47169685458658356,-0.025521184656131526,0.8664557443321472,0.0030624604585042835,-0.117785,-31.799894
11.185,2.0,1.0,1.0,34.8,34.8,34.8,2.6,3.6,2.555,0.46284168860123687,-0.026020093908797955,0.8709713375508547,0.0028446210733711294,-0.119704,-31.642225
11.185,2.0,1.0,1.0,34.8,34.8,34.8,2.6,3.6,2.5575,0.4538749254088128,-0.026529834690883224,0.8754252719841985,0.0026159440018604153,-0.121676,-31.483288
11.185,2.0,1.0,1.0,34.8,34.8,34.8,2.6,3.6,2.56,0.44479537364225563,-0.027050709220516275,0.8798154174653391,0.0023759381262700033,-0.123703,-31.323051
11.185,2.0,1.0,1.0,34.8,34.8,34.8,2.6,3.6,2.5625,0.435601831016634,-0.0275830307540661,0.884139572794731,0.002124086110556,-0.125788,-31.161482
11.185,2.0,1.0,1.0,34.8,34.8,34.8,2.6,3.6,2.565,0.42629308442653285,-0.028127124086548896,0.8883954628482015,0.0018598426986982572,-0.127932,-30.998547
11.185,2.0,1.0,1.0,34.8,34.8,34.8,2.6,3.6,2.5675,0.41686791005200496,-0.02868332607764504,0.8925807355229229,0.0015826328802443007,-0.130138,-30.834208
11.185,2.0,1.0,1.0,34.8,34.8,34.8,2.6,3.6,2.57,0.4073250734733285,-0.029251986204529876,0.8966929585084724,0.0012918499108389033,-0.132408,-30.668431
11.185,2.0,1.0,1.0,34.8,34.8,34.8,2.6,3.6,2.5725,0.39766332979489605,-0.02983346714272677,0.9007296158688055,0.0009868531742608423,-0.134746,-30.501176
11.185,2.0,1.0,1.0,34.8,34.8,34.8,2.6,3.6,2.575,0.38788142377860974,-0.030428145376182967,0.9046881044195536,0.0006669658710489282,-0.137154,-30.332404
11.185,2.0,1.0,1.0,34.8,34.8,34.8,2.6,3.6,2.5775,0.37797808998723287,-0.031036411837742924,0.9085657298833717,0.00033147251718634076,-0.139636,-30.162075
11.185,2.0,1.0,1.0,34.8,34.8,34.8,2.6,3.6,2.58,0.3679520529382735,-0.03165867258114372,0.912359702804274,-2.0383765496816415e-05,-0.142193,-29.990144
11.185,2.0,1.0,1.0,34.8,34.8,34.8,2.6,3.6,2.5825,0.3578020272690661,-0.032295349485581,0.916067134199781,-0.0003894041875762215,-0.144831,-29.816569
11.185,2.0,1.0,1.0,34.8,34.8,34.8,2.6,3.6,2.585,0.3475267179139428,-0.03294688099377895,0.9196850309274067,-0.0007764374816012162,-0.147553,-29.641303
11.185,2.0,1.0,1.0,34.8,34.8,34.8,2.6,3.6,2.5875,0.33712482029455215,-0.033613722884340703,0.923210290739389,-0.0011823833682141735,-0.150362,-29.464297
11.185,2.0,1.0,1.0,34.8,34.8,34.8,2.6,3.6,2.59,0.3265950205246967,-0.03429634907894095,0.926639696996592,-0.001608196326963917,-0.153263,-29.285503
11.185,2.0,1.0,1.0,34.8,34.8,34.8,2.6,3.6,2.5925,0.31593599563135955,-0.03499525248464236,0.9299699130092027,-0.0020548897032396925,-0.156259,-29.104869
11.185,2.0,1.0,1.0,34.8,34.8,34.8,2.6,3.6,2.595,0.3051464137940832,-0.03571094587124779,0.9331974759680245,-0.002523540186465952,-0.159356,-28.92234
11.185,2.0,1.0,1.0,34.8,34.8,34.8,2.6,3.6,2.5975,0.29422493460531596,-0.03644396278313267,0.9363187904259096,-0.003015292698909307,-0.162559,-28.73786
11.185,2.0,1.0,1.0,34.8,34.8,34.8,2.6,3.6,2.6,0.2831702093550715,-0.0371948584843995,0.939330121284013,-0.0035313657392255114,-0.165873,-28.55137
11.185,2.0,1.0,1.0,34.8,34.8,34.8,2.6,3.6,2.6025,0.27198088134404996,-0.03796421093543847,0.9422275862319855,-0.004073057230303468,-0.169304,-28.362809
11.185,2.0,1.0,1.0,34.8,34.8,34.8,2.6,3.6,2.605,0.26065558623037915,-0.038752621798027145,0.9450071475849753,-0.0046417509271473424,-0.172857,-28.172113
11.185,2.0,1.0,1.0,34.8,34.8,34.8,2.6,3.6,2.6075,0.24919295241640546,-0.039560717464906775,0.947664603453071,-0.005238923447585498,-0.17654,-27.979215
11.185,2.0,1.0,1.0,34.8,34.8,34.8,2.6,3.6,2.61,0.23759160148353944,-0.0403891501082859,0.9501955781706606,-0.005866151996647668,-0.180359,-27.784045
11.185,2.0,1.0,1.0,34.8,34.8,34.8,2.6,3.6,2.6125,0.22585014868506129,-0.041238598739871096,0.9525955119037475,-0.006525122864664971,-0.184321,-27.58653
11.185,2.0,1.0,1.0,34.8,34.8,34.8,2.6,3.6,2.615,0.21396720350917944,-0.04210977027272523,0.9548596493425371,-0.007217640789707187,-0.188436,-27.386593
11.185,2.0,1.0,1.0,34.8,34.8,34.8,2.6,3.6,2.6175,0.20194137032759182,-0.043003400572402296,0.9569830273742042,-0.007945639287094143,-0.192711,-27.184154
11.185,2.0,1.0,1.0,34.8,34.8,34.8,2.6,3.6,2.62,0.18977124914838184,-0.04392025548127773,0.9589604616165562,-0.008711192062665171,-0.197155,-26.97913
11.185,2.0,1.0,1.0,34.8,34.8,34.8,2.6,3.6,2.6225,0.17745543649657528,-0.04486113179562005,0.9607865316769116,-0.009516525642560947,-0.20178,-26.771431
11.185,2.0,1.0,1.0,34.8,34.8,34.8,2.6,3.6,2.625,0.164992526451221,-0.0458268581695334,0.962455564981555,-0.0103640333708212,-0.206596,-26.560965
11.185,2.0,1.0,1.0,34.8,34.8,34.8,2.6,3.6,2.6275,0.15238111187461464,-0.04681829591320238,0.9639616189992967,-0.01125629094756622,-0.211615,-26.347635
11.185,2.0,1.0,1.0,34.8,34.8,34.8,2.6,3.6,2.63,0.13961978587781085,-0.04783633964456066,0.9652984616572072,-0.012196073705393762,-0.216849,-26.131338
11.185,2.0,1.0,1.0,34.8,34.8,34.8,2.6,3.6,2.6325,0.1267071435769331,-0.048881917743214015,0.9664595497172135,-0.01318637585050184,-0.222312,-25.911968
11.185,2.0,1.0,1.0,34.8,34.8,34.8,2.6,3.6,2.635,0.11364178420779424,-0.04995599254267244,0.9674380048478968,-0.014230431928642302,-0.228021,-25.689409
11.185,2.0,1.0,1.0,34.8,34.8,34.8,2.6,3.6,2.6375,0.10042231368240793,-0.05105956018107396,0.9682265870858773,-0.015331740815171899,-0.233991,-25.463544
11.185,2.0,1.0,1.0,34.8,34.8,34.8,2.6,3.6,2.64,0.0870473476909302,-0.052193650010840746,0.968817665334532,-0.016494092574217314,-0.24024,-25.234245
11.185,2.0,1.0,1.0,34.8,34.8,34.8,2.6,3.6,2.6425,0.0735155154775231,-0.05335932344309663,0.9692031844930524,-0.01772159858550704,-0.246788,-25.001381
11.185,2.0,1.0,1.0,34.8,34.8,34.8,2.6,3.6,2.645,0.05982546444968254,-0.05455767207196121,0.9693746287448508,-0.019018725400221856,-0.253657,-24.764809
11.185,2.0,1.0,1.0,34.8,34.8,34.8,2.6,3.6,2.6475,0.0459758658194648,-0.055789814885405124,0.9693229804589423,-0.020390332861002853,-0.260871,-24.524383
11.185,2.0,1.0,1.0,34.8,34.8,34.8,2.6,3.6,2.65,0.031965421523743216,-0.05705689432118127,0.9690386740693092,-0.0218417171081501,-0.268455,-24.279944
11.185,2.0,1.0,1.0,34.8,34.8,34.8,2.6,3.6,2.6525,0.017792872731935923,-0.05836007086580165,0.9685115441925363,-0.023378659196545835,-0.276438,-24.031326
11.185,2.0,1.0,1.0,34.8,34.8,34.8,2.6,3.6,2.655,0.0034570103267098965,-0.05970051581827294,0.9677307671204399,-0.02500748016901857,-0.284854,-23.778351
11.185,2.0,1.0,1.0,34.8,34.8,34.8,2.6,3.6,2.6575,-0.011043312159326198,-0.061079401743949616,0.9666847946778475,-0.02673510357534621,-0.293736,-23.520834
11.185,2.0,1.0,1.0,34.8,34.8,34.8,2.6,3.6,2.66,-0.02570916254440775,-0.06249789002180861,0.965361279262028,-0.028569126596320885,-0.303123,-23.258573
11.185,2.0,1.0,1.0,34.8,34.8,34.8,2.6,3.6,2.6625,-0.04054151017246088,-0.06395711473333314,0.9637469886737415,-0.030517901134538308,-0.313061,-22.991358
11.185,2.0,1.0,1.0,34.8,34.8,34.8,2.6,3.6,2.665,-0.055541201298435414,-0.06545816194344542,0.9618277091043277,-0.03259062647421822,-0.323597,-22.718963
11.185,2.0,1.0,1.0,34.8,34.8,34.8,2.6,3.6,2.6675,-0.07070892846449436,-0.06700204317095272,0.9595881343505183,-0.034797455399002114,-0.334785,-22.441147
11.185,2.0,1.0,1.0,34.8,34.8,34.8,2.6,3.6,2.67,-0.08604519231874228,-0.06858966152122387,0.957011738979813,-0.037149615998432896,-0.346688,-22.157654
11.185,2.0,1.0,1.0,34.8,34.8,34.8,2.6,3.6,2.6725,-0.10155025390448723,-0.07022176853534753,0.954080632752958,-0.03965955180142516,-0.359374,-21.86821
11.185,2.0,1.0,1.0,34.8,34.8,34.8,2.6,3.6,2.675,-0.11722407489985531,-0.07189890926872163,0.9507753931136906,-0.042341083361124916,-0.37292,-21.572522
11.185,2.0,1.0,1.0,34.8,34.8,34.8,2.6,3.6,2.6775,-0.1330662425756316,-0.07362135240900322,0.947074871964181,-0.04520959499472249,-0.387415,-21.270277
11.185,2.0,1.0,1.0,34.8,34.8,34.8,2.6,3.6,2.68,-0.14907587531041316,-0.0753890013264719,0.9429559722408546,-0.04828225107051995,-0.402959,-20.96114
11.185,2.0,1.0,1.0,34.8,34.8,34.8,2.6,3.6,2.6825,-0.1652515032853419,-0.07720128074891763,0.9383933889707627,-0.051578247050893124,-0.419667,-20.644749
11.185,2.0,1.0,1.0,34.8,34.8,34.8,2.6,3.6,2.685,-0.18159091737971164,-0.0790569921731811,0.9333593085041434,-0.05511910146233619,-0.437668,-20.32072
11.185,2.0,1.0,1.0,34.8,34.8,34.8,2.6,3.6,2.6875,-0.198090977172252,-0.0809541290373613,0.92782305846659,-0.0589289960896255,-0.457113,-19.988637
11.185,2.0,1.0,1.0,34.8,34.8,34.8,2.6,3.6,2.69,-0.21474736614239195,-0.08288963990532591,0.9217506996414873,-0.06303517299213145,-0.478177,-19.648055
11.185,2.0,1.0,1.0,34.8,34.8,34.8,2.6,3.6,2.6925,-0.2315542784161996,-0.08485912421714886,0.9151045494796665,-0.0674683984160464,-0.501059,-19.298492
11.185,2.0,1.0,1.0,34.8,34.8,34.8,2.6,3.6,2.695,-0.24850401637571612,-0.08685644020344942,0.9078426252626022,-0.0722635053019622,-0.525994,-18.939433
11.185,2.0,1.0,1.0,34.8,34.8,34.8,2.6,3.6,2.6975,-0.2655864716830679,-0.08887319789030569,0.8999179931872482,-0.07746002779281895,-0.553256,-18.57032
11.185,2.0,1.0,1.0,34.8,34.8,34.8,2.6,3.6,2.7,-0.28278845311804734,-0.09089810110085214,0.8912780079460906,-0.08310294278154641,-0.583168,-18.190555
11.185,2.0,1.0,1.0,34.8,34.8,34.8,2.6,3.6,2.7025,-0.30009281219833905,-0.09291609011247287,0.881863426038883,-0.08924353480824136,-0.61611,-17.799493
11.185,2.0,1.0,1.0,34.8,34.8,34.8,2.6,3.6,2.705,-0.31747730060992563,-0.09490721993986512,0.8716073756128084,-0.09594040098729371,-0.652535,-17.396438
11.185,2.0,1.0,1.0,34.8,34.8,34.8,2.6,3.6,2.7075,-0.33491307031571976,-0.09684518640705204,0.860434167045151,-0.10326061116430116,-0.692986,-16.980645
11.185,2.0,1.0,1.0,34.8,34.8,34.8,2.6,3.6,2.71,-0.3523626954915775,-0.09869538094488668,0.8482579334289215,-0.11128103351570982,-0.738114,-16.551315
11.185,2.0,1.0,1.0,34.8,34.8,34.8,2.6,3.6,2.7125,-0.3697775519853564,-0.10041231228662423,0.8349811014731837,-0.12008982446711867,-0.78871,-16.107595
11.185,2.0,1.0,1.0,34.8,34.8,34.8,2.6,3.6,2.715,-0.3870943305914024,-0.10193617479723138,0.8204927159904783,-0.12978805927329995,-0.845736,-15.648579
11.185,2.0,1.0,1.0,34.8,34.8,34.8,2.6,3.6,2.7175,-0.4042303796941698,-0.10318826378524211,0.8046666834265052,-0.14049143766728714,-0.910377,-15.173313
11.185,2.0,1.0,1.0,34.8,34.8,34.8,2.6,3.6,2.72,-0.421077464360367,-0.10406483155195988,0.7873600758057886,-0.15233192382078445,-0.984098,-14.680806
11.185,2.0,1.0,1.0,34.8,34.8,34.8,2.6,3.6,2.7225,-0.4374933862736856,-0.10442883783237,0.7684117695039449,-0.16545904830986544,-1.068726,-14.170045
11.185,2.0,1.0,1.0,34.8,34.8,34.8,2.6,3.6,2.725,-0.45329072828675604,-0.10409887113967373,0.747641922423915,-0.18004037340646856,-1.166561,-13.640027
11.185,2.0,1.0,1.0,34.8,34.8,34.8,2.6,3.6,2.7275,-0.4682217749273445,-0.10283430958050208,0.7248531823767274,-0.19626023886598176,-1.280514,-13.089806
11.185,2.0,1.0,1.0,34.8,34.8,34.8,2.6,3.6,2.73,-0.48195844814571326,-0.1003155830297726,0.6998351711029326,-0.2143152627352292,-1.414308,-12.518566
11.185,2.0,1.0,1.0,34.8,34.8,34.8,2.6,3.6,2.7325,-0.4940659793975148,-0.09611828574342755,0.6723748597512456,-0.23440401589448664,-1.572728,-11.925734
11.185,2.0,1.0,1.0,34.8,34.8,34.8,2.6,3.6,2.735,-0.5039692418616645,-0.08968009394018155,0.6422771666616532,-0.2567066002702114,-1.761966,-11.311159
11.185,2.0,1.0,1.0,34.8,34.8,34.8,2.6,3.6,2.7375,-0.5109116906271548,-0.08026046044823154,0.6094027359299478,-0.2813472756506671,-1.990065,-10.675362
11.185,2.0,1.0,1.0,34.8,34.8,34.8,2.6,3.6,2.74,-0.5139097238892902,-0.0668958933827854,0.5737335748690258,-0.30832962546134096,-2.267451,-10.019927
11.185,2.0,1.0,1.0,34.8,34.8,34.8,2.6,3.6,2.7425,-0.511711882844701,-0.04836014671585548,0.5354816866146547,-0.3374293822175631,-2.607524,-9.34804
11.185,2.0,1.0,1.0,34.8,34.8,34.8,2.6,3.6,2.745,-0.5027857144930122,-0.02315186743671555,0.49525898844600846,-0.3680269705148383,-3.027053,-8.665254
11.185,2.0,1.0,1.0,34.8,34.8,34.8,2.6,3.6,2.7475,-0.4853789205068579,0.01044432662850604,0.45432246174792,-0.3988661836306288,-3.545762,-7.980479
11.185,2.0,1.0,1.0,34.8,34.8,34.8,2.6,3.6,2.75,-0.457735691953622,0.0541436845269879,0.414882472873495,-0.427751140703266,-4.183354,-7.307146
11.185,2.0,1.0,1.0,34.8,34.8,34.8,2.6,3.6,2.7525,-0.41857826057476055,0.10918595781695595,0.38039091492237315,-0.45126399203313866,-4.94979,-6.664303
11.185,2.0,1.0,1.0,34.8,34.8,34.8,2.6,3.6,2.755,-0.3679337451747027,0.1755206570907315,0.35559164239848057,-0.46471792024404823,-5.819961,-6.077072
11.185,2.0,1.0,1.0,34.8,34.8,34.8,2.6,3.6,2.7575,-0.3081957717783018,0.25076299203782065,0.34596696435531593,-0.4627058618335158,-6.682129,-5.575535
11.185,2.0,1.0,1.0,34.8,34.8,34.8,2.6,3.6,2.76,-0.24490087240025926,0.32943379181178295,0.35625995472848965,-0.440558752964981,-7.283963,-5.191043
11.185,2.0,1.0,1.0,34.8,34.8,34.8,2.6,3.6,2.7625,-0.18632339570580975,0.40336562532510484,0.3883043160710212,-0.396482126020032,-7.316639,-4.949832
11.185,2.0,1.0,1.0,34.8,34.8,34.8,2.6,3.6,2.765,-0.14133248407807453,0.46381954013682186,0.43934423180834486,-0.3332043589096025,-6.71624,-4.865777
11.185,2.0,1.0,1.0,34.8,34.8,34.8,2.6,3.6,2.7675,-0.11631758759513093,0.5045131388623576,0.502326049792678,-0.2576792180887237,-5.75345,-4.935869
11.185,2.0,1.0,1.0,34.8,34.8,34.8,2.6,3.6,2.77,-0.1131375559493066,0.5236332180741077,0.5683421058756897,-0.17867129382749866,-4.739027,-5.141151
11.185,2.0,1.0,1.0,34.8,34.8,34.8,2.6,3.6,2.7725,-0.1293486156040913,0.5236013012626152,0.6296168030372649,-0.1038145319719147,-3.838939,-5.45253
11.185,2.0,1.0,1.0,34.8,34.8,34.8,2.6,3.6,2.775,-0.16009035455894977,0.5092095727960402,0.6812475255854311,-0.03790301761369723,-3.100459,-5.838073
11.185,2.0,1.0,1.0,34.8,34.8,34.8,2.6,3.6,2.7775,-0.2001150919298257,0.48562095826232926,0.7212854493630535,0.01718204545674424,-2.515803,-6.268618
11.185,2.0,1.0,1.0,34.8,34.8,34.8,2.6,3.6,2.78,-0.2450236782356356,0.4571542362335854,0.749873176167335,0.061618643136038716,-2.059678,-6.720552
11.185,2.0,1.0,1.0,34.8,34.8,34.8,2.6,3.6,2.7825,-0.2916570889996797,0.4269013997295296,0.7682526605152894,0.09666527655100254,-1.705187,-7.176295
11.185,2.0,1.0,1.0,34.8,34.8,34.8,2.6,3.6,2.785,-0.33799080355384215,0.3968340315986649,0.7780409264934033,0.12394783948402081,-1.429176,-7.623549
11.185,2.0,1.0,1.0,34.8,34.8,34.8,2.6,3.6,2.7875,-0.382854507365046,0.36808070334349624,0.780823433589541,0.1450601036977685,-1.213273,-8.05414
11.185,2.0,1.0,1.0,34.8,34.8,34.8,2.6,3.6,2.79,-0.4256524078445997,0.34120296426727725,0.7779766349958123,0.16139006469228978,-1.043412,-8.462881
11.185,2.0,1.0,1.0,34.8,34.8,34.8,2.6,3.6,2.7925,-0.4661457906136739,0.3164095241396286,0.7706207463639406,0.17407441085014763,-0.908998,-8.846662
11.185,2.0,1.0,1.0,34.8,34.8,34.8,2.6,3.6,2.795,-0.5043031554849132,0.293703594490538,0.7596338046235551,0.1840131919457978,-0.802082,-9.203751
11.185,2.0,1.0,1.0,34.8,34.8,34.8,2.6,3.6,2.7975,-0.540204054560925,0.27297718544347455,0.7456881775501373,0.1919064702413072,-0.716701,-9.533307
11.185,2.0,1.0,1.0,34.8,34.8,34.8,2.6,3.6,2.8,-0.5739803584448594,0.25406844572650683,0.7292906814216475,0.19829445062769005,-0.648363,-9.835037
11.185,2.0,1.0,1.0,34.8,34.8,34.8,2.6,3.6,2.8025,-0.6057818127530141,0.23679500215453278,0.7108185498900067,0.20359350021217743,-0.593667,-10.108966
11.185,2.0,1.0,1.0,34.8,34.8,34.8,2.6,3.6,2.805,-0.6357566635624123,0.22097237308144263,0.6905489365414534,0.20812581534784355,-0.550022,-10.355275
11.185,2.0,1.0,1.0,34.8,34.8,34.8,2.6,3.6,2.8075,-0.6640413202601031,0.2064233738291656,0.6686820002790621,0.2121428166463389,-0.515447,-10.574206
11.185,2.0,1.0,1.0,34.8,34.8,34.8,2.6,3.6,2.81,-0.6907552656754454,0.19298221373685304,0.6453584763709383,0.21584318768217925,-0.488421,-10.765984
11.185,2.0,1.0,1.0,34.8,34.8,34.8,2.6,3.6,2.8125,-0.715998888332129,0.180495531393791,0.620672810231349,0.219386641513311,-0.467773,-10.930773
11.185,2.0,1.0,1.0,34.8,34.8,34.8,2.6,3.6,2.815,-0.7398528299524559,0.16882169824417223,0.594682835994885,0.2229044041542315,-0.452608,-11.068647
11.185,2.0,1.0,1.0,34.8,34.8,34.8,2.6,3.6,2.8175,-0.7623780007555807,0.15782915440381043,0.5674168055735151,0.2265072300000839,-0.442247,-11.179563
11.185,2.0,1.0,1.0,34.8,34.8,34.8,2.6,3.6,2.82,-0.7836157469927589,0.1473941930933658,0.5388783948444313,0.23029158761187302,-0.436185,-11.26335
11.185,2.0,1.0,1.0,34.8,34.8,34.8,2.6,3.6,2.8225,-0.8035878448515442,0.137398395498452,0.5090501600988507,0.23434450204778504,-0.434064,-11.319692
11.185,2.0,1.0,1.0,34.8,34.8,34.8,2.6,3.6,2.825,-0.8222960952037587,0.12772578131171802,0.4778957964096293,0.23874741714817307,-0.435649,-11.348119
11.185,2.0,1.0,1.0,34.8,34.8,34.8,2.6,3.6,2.8275,-0.8397213360883786,0.11825964698293658,0.4453614585852595,0.2435793442363449,-0.440821,-11.347998
11.185,2.0,1.0,1.0,34.8,34.8,34.8,2.6,3.6,2.83,-0.8558216918066333,0.10887899130547801,0.41137634145424623,0.24891948583476,-0.449566,-11.318522
