1,w,sub_t,h,l1,l2,l3,g1,g2,Freq,S11_re,S21_re,S11_img,S21_img,S11_dB,S21_dB
11.185,2.0,1.0,1.0,34.0,33.0,33.0,2.5,3.5,2.5,0.783133307388207,-0.00941236587216713,0.610615012319257,0.00578332582080832,-0.060577,-39.134996
11.185,2.0,1.0,1.0,34.0,33.0,33.0,2.5,3.5,2.5025,0.7785937165368226,-0.009582553859386476,0.6162854493129878,0.005780353973120825,-0.061161,-39.022645
11.185,2.0,1.0,1.0,34.0,33.0,33.0,2.5,3.5,2.505,0.7739907383560387,-0.009755370332393749,0.6219481714726757,0.0057758238049947525,-0.061754,-38.910043
11.185,2.0,1.0,1.0,34.0,33.0,33.0,2.5,3.5,2.5075,0.7693237474042944,-0.009930855004154008,0.6276027240741711,0.0057696818284199616,-0.062358,-38.797186
11.185,2.0,1.0,1.0,34.0,33.0,33.0,2.5,3.5,2.51,0.7645921101544414,-0.01010904813549489,0.6332486394459963,0.005761872841590737,-0.062971,-38.684069
11.185,2.0,1.0,1.0,34.0,33.0,33.0,2.5,3.5,2.5125,0.7597951849464554,-0.010289990535335462,0.6388854365809661,0.005752339871119514,-0.063595,-38.570686
11.185,2.0,1.0,1.0,34.0,33.0,33.0,2.5,3.5,2.515,0.7549323219434875,-0.010473723560320725,0.644512620736599,0.005741024112210899,-0.06423,-38.457031
11.185,2.0,1.0,1.0,34.0,33.0,33.0,2.5,3.5,2.5175,0.7500028630915262,-0.010660289113815674,0.6501296830239806,0.0057278648667206805,-0.064875,-38.3431
11.185,2.0,1.0,1.0,34.0,33.0,33.0,2.5,3.5,2.52,0.7450061420829314,-0.010849729644210193,0.6557360999847787,0.005712799479023089,-0.065532,-38.228887
11.185,2.0,1.0,1.0,34.0,33.0,33.0,2.5,3.5,2.5225,0.7399414843241532,-0.011042088142482448,0.6613313331560531,0.005695763269605396,-0.0662,-38.114387
11.185,2.0,1.0,1.0,34.0,33.0,33.0,2.5,3.5,2.525,0.7348082069079208,-0.011237408138965998,0.6669148286225365,0.005676689466306958,-0.066879,-37.999594
11.185,2.0,1.0,1.0,34.0,33.0,33.0,2.5,3.5,2.5275,0.7296056185902372,-0.011435733699262004,0.6724860165560378,0.005655509133116083,-0.06757,-37.884502
11.185,2.0,1.0,1.0,34.0,33.0,33.0,2.5,3.5,2.53,0.7243330197725163,-0.011637109419233856,0.6780443107415983,0.005632151096435132,-0.068273,-37.769107
11.185,2.0,1.0,1.0,34.0,33.0,33.0,2.5,3.5,2.5325,0.7189897024892241,-0.011841580419018637,0.6835891080900484,0.005606541868721185,-0.068989,-37.653402
11.185,2.0,1.0,1.0,34.0,33.0,33.0,2.5,3.5,2.535,0.7135749504013941,-0.01204919233598512,0.6891197881365912,0.005578605569405437,-0.069717,-37.537381
11.185,2.0,1.0,1.0,34.0,33.0,33.0,2.5,3.5,2.5375,0.7080880387964265,-0.012259991316563532,0.6946357125250202,0.0055482638429916915,-0.070458,-37.42104
11.185,2.0,1.0,1.0,34.0,33.0,33.0,2.5,3.5,2.54,0.7025282345945763,-0.012474024006868308,0.7001362244771925,0.005515435774230662,-0.071211,-37.304373
11.185,2.0,1.0,1.0,34.0,33.0,33.0,2.5,3.5,2.5425,0.6968947963625814,-0.012691337542030124,0.70562064824736,0.005480037800261748,-0.071979,-37.187374
11.185,2.0,1.0,1.0,34.0,33.0,33.0,2.5,3.5,2.545,0.6911869743348844,-0.01291197953414743,0.7110882885609447,0.005441983619611643,-0.07276,-37.070036
11.185,2.0,1.0,1.0,34.0,33.0,33.0,2.5,3.5,2.5475,0.6854040104429483,-0.013135998058763849,0.7165384300373462,0.005401184097934166,-0.073555,-36.952355
11.185,2.0,1.0,1.0,34.0,33.0,33.0,2.5,3.5,2.55,0.6795451383531588,-0.013363441639770766,0.7219703365963678,0.005357547170371168,-0.074364,-36.834324
11.185,2.0,1.0,1.0,34.0,33.0,33.0,2.5,3.5,2.5525,0.6736095835138783,-0.013594359232628373,0.727383250847813,0.005310977740410863,-0.075188,-36.715937
11.185,2.0,1.0,1.0,34.0,33.0,33.0,2.5,3.5,2.555,0.667596563212196,-0.013828800205793036,0.7327763934638286,0.005261377575114479,-0.076027,-36.597189
11.185,2.0,1.0,1.0,34.0,33.0,33.0,2.5,3.5,2.5575,0.6615052866409754,-0.014066814320231017,0.7381489625335473,0.005208645196578473,-0.076882,-36.478073
11.185,2.0,1.0,1.0,34.0,33.0,33.0,2.5,3.5,2.56,0.6553349549768371,-0.014308451706891162,0.7435001328995644,0.005152675769493122,-0.077752,-36.358584
11.185,2.0,1.0,1.0,34.0,33.0,33.0,2.5,3.5,2.5625,0.6490847614697182,-0.014553762842002351,0.7488290554757967,0.005093360984655396,-0.078638,-36.238715
11.185,2.0,1.0,1.0,34.0,33.0,33.0,2.5,3.5,2.565,0.6427538915447083,-0.014802798520052788,0.7541348565462567,0.005030588938286651,-0.07954,-36.118461
11.185,2.0,1.0,1.0,34.0,33.0,33.0,2.5,3.5,2.5675,0.6363415229168926,-0.015055609824299293,0.7594166370442544,0.004964244007002011,-0.080459,-35.997814
11.185,2.0,1.0,1.0,34.0,33.0,33.0,2.5,3.5,2.57,0.6298468257199547,-0.01531224809464607,0.7646734718115573,0.00489420671827144,-0.081395,-35.876769
11.185,2.0,1.0,1.0,34.0,33.0,33.0,2.5,3.5,2.5725,0.6232689626493466,-0.015572764892722926,0.7699044088370129,0.004820353616208519,-0.082349,-35.755319
11.185,2.0,1.0,1.0,34.0,33.0,33.0,2.5,3.5,2.575,0.616607089120866,-0.0158372119639815,0.775108468474145,0.004742557122514317,-0.083321,-35.633459
11.185,2.0,1.0,1.0,34.0,33.0,33.0,2.5,3.5,2.5775,0.6098603534455221,-0.016105641196618465,0.7802846426372142,0.004660685392400694,-0.084312,-35.51118
11.185,2.0,1.0,1.0,34.0,33.0,33.0,2.5,3.5,2.58,0.6030278970216236,-0.016378104577121903,0.7854318939752473,0.004574602165308691,-0.085321,-35.388478
11.185,2.0,1.0,1.0,34.0,33.0,33.0,2.5,3.5,2.5825,0.5961088545450507,-0.01665465414222615,0.7905491550235259,0.0044841666102326165,-0.086349,-35.265346
11.185,2.0,1.0,1.0,34.0,33.0,33.0,2.5,3.5,2.585,0.5891023542387428,-0.016935341927045506,0.7956353273320114,0.004389233165452545,-0.087397,-35.141776
11.185,2.0,1.0,1.0,34.0,33.0,33.0,2.5,3.5,2.5875,0.582007518102463,-0.01722021990914558,0.8006892805702106,0.004289651372472389,-0.088466,-35.017762
11.185,2.0,1.0,1.0,34.0,33.0,33.0,2.5,3.5,2.59,0.5748234621839731,-0.017509339948294424,0.8057098516079404,0.004185265703951994,-0.089555,-34.893298
11.185,2.0,1.0,1.0,34.0,33.0,33.0,2.5,3.5,2.5925,0.5675492968727844,-0.017802753721621562,0.8106958435714953,0.004075915385415883,-0.090665,-34.768376
11.185,2.0,1.0,1.0,34.0,33.0,33.0,2.5,3.5,2.595,0.5601841272177391,-0.01810051265389533,0.815646024874677,0.003961434210512144,-0.091797,-34.64299
11.185,2.0,1.0,1.0,34.0,33.0,33.0,2.5,3.5,2.5975,0.5527270532696946,-0.01840266784261279,0.8205591282241887,0.0038416503495890034,-0.092952,-34.517132
11.185,2.0,1.0,1.0,34.0,33.0,33.0,2.5,3.5,2.6,0.5451771704506829,-0.01870926997757686,0.8254338495988633,0.0037163861513461664,-0.094129,-34.390796
11.185,2.0,1.0,1.0,34.0,33.0,33.0,2.5,3.5,2.6025,0.5375335699509693,-0.01902036925461594,0.8302688472022128,0.0035854579373122836,-0.09533,-34.263975
11.185,2.0,1.0,1.0,34.0,33.0,33.0,2.5,3.5,2.605,0.5297953391554923,-0.01933601528308087,0.8350627403878007,0.0034486757888892625,-0.096554,-34.136661
11.185,2.0,1.0,1.0,34.0,33.0,33.0,2.5,3.5,2.6075,0.5219615621012517,-0.019656256986731607,0.83981410855692,0.0033058433266969106,-0.097803,-34.008847
11.185,2.0,1.0,1.0,34.0,33.0,33.0,2.5,3.5,2.61,0.514031319967288,-0.019981142497601977,0.8445214900280916,0.003156757481941122,-0.099078,-33.880525
11.185,2.0,1.0,1.0,34.0,33.0,33.0,2.5,3.5,2.6125,0.5060036915989565,-0.020310719042407183,0.8491833808778901,0.0030012082595205995,-0.100378,-33.751689
11.185,2.0,1.0,1.0,34.0,33.0,33.0,2.5,3.5,2.615,0.4978777540682935,-0.020645032821031365,0.8537982337526296,0.0028389784925768598,-0.101705,-33.62233
11.185,2.0,1.0,1.0,34.0,33.0,33.0,2.5,3.5,2.6175,0.48965258327236205,-0.020984128876604124,0.8583644566504396,0.002669843588182907,-0.103059,-33.492441
11.185,2.0,1.0,1.0,34.0,33.0,33.0,2.5,3.5,2.62,0.4813272545715359,-0.021328050956646003,0.862880411673285,0.002493571263855742,-0.104441,-33.362014
11.185,2.0,1.0,1.0,34.0,33.0,33.0,2.5,3.5,2.6225,0.47290084346977734,-0.021676841364730793,0.8673444137485108,0.0023099212745673336,-0.105851,-33.231042
11.185,2.0,1.0,1.0,34.0,33.0,33.0,2.5,3.5,2.625,0.464372426339082,-0.0220305408020781,0.871754729319486,0.00211864512991908,-0.107291,-33.099516
11.185,2.0,1.0,1.0,34.0,33.0,33.0,2.5,3.5,2.6275,0.45574108119031725,-0.022389188198455343,0.8761095750049789,0.0019194858011325438,-0.108761,-32.967429
11.185,2.0,1.0,1.0,34.0,33.0,33.0,2.5,3.5,2.63,0.44700588849283474,-0.022752820531728717,0.8804071162268878,0.0017121774174992872,-0.110261,-32.834772
11.185,2.0,1.0,1.0,34.0,33.0,33.0,2.5,3.5,2.6325,0.4381659320453067,-0.0231214726353633,0.8846454658060078,0.0014964449519209654,-0.111794,-32.701536
11.185,2.0,1.0,1.0,34.0,33.0,33.0,2.5,3.5,2.635,0.4292202999003736,-0.023495176993128867,0.8888226825255299,0.0012720038951589243,-0.113359,-32.567715
11.185,2.0,1.0,1.0,34.0,33.0,33.0,2.5,3.5,2.6375,0.4201680853457981,-0.023873963520222065,0.8929367696620024,0.001038559918401516,-0.114958,-32.433299
11.185,2.0,1.0,1.0,34.0,33.0,33.0,2.5,3.5,2.64,0.4110083879449277,-0.02425785932996797,0.8969856734835485,0.0007958085237434274,-0.116591,-32.298279
11.185,2.0,1.0,1.0,34.0,33.0,33.0,2.5,3.5,2.6425,0.4017403146394279,-0.024646888485210686,0.9009672817151441,0.000543434682161949,-0.118259,-32.162647
11.185,2.0,1.0,1.0,34.0,33.0,33.0,2.5,3.5,2.645,0.39236298091734584,-0.025041071733448654,0.9048794219708308,0.00028111245855890046,-0.119963,-32.026394
11.185,2.0,1.0,1.0,34.0,33.0,33.0,2.5,3.5,2.6475,0.38287551204972964,-0.025440426224710624,0.9087198601527854,8.504623427033267e-06,-0.121705,-31.889512
11.185,2.0,1.0,1.0,34.0,33.0,33.0,2.5,3.5,2.65,0.3732770443991322,-0.025844965211107355,0.9124862988172284,-0.0002747377493154361,-0.123485,-31.75199
11.185,2.0,1.0,1.0,34.0,33.0,33.0,2.5,3.5,2.6525,0.3635667268035411,-0.026254697726924084,0.9161763755072017,-0.000568975698790252,-0.125304,-31.61382
11.185,2.0,1.0,1.0,34.0,33.0,33.0,2.5,3.5,2.655,0.35374372203934934,-0.026669628248051996,0.9197876610523383,-0.0008745828084080318,-0.127164,-31.474993
11.185,2.0,1.0,1.0,34.0,33.0,33.0,2.5,3.5,2.6575,0.34380720836720624,-0.027089756329477053,0.923317657835804,-0.0011919456523963132,-0.129065,-31.335498
11.185,2.0,1.0,1.0,34.0,33.0,33.0,2.5,3.5,2.66,0.33375638116472045,-0.027515076219466413,0.9267637980286716,-0.0015214642581175954,-0.131009,-31.195327
11.185,2.0,1.0,1.0,34.0,33.0,33.0,2.5,3.5,2.6625,0.32359045465017733,-0.02794557644900411,0.9301234417920875,-0.0018635525847018983,-0.132997,-31.054469
11.185,2.0,1.0,1.0,34.0,33.0,33.0,2.5,3.5,2.665,0.3133086637015838,-0.0283812393949375,0.9333938754476716,-0.0022186390185335685,-0.135031,-30.912914
11.185,2.0,1.0,1.0,34.0,33.0,33.0,2.5,3.5,2.6675,0.3029102657755815,-0.028822040815194683,0.9365723096167,-0.0025871668861456847,-0.13711,-30.770652
11.185,2.0,1.0,1.0,34.0,33.0,33.0,2.5,3.5,2.67,0.2923945429309273,-0.02926794935433045,0.9396558773287254,-0.002969594985091186,-0.139238,-30.627674
11.185,2.0,1.0,1.0,34.0,33.0,33.0,2.5,3.5,2.6725,0.28176080396144043,-0.029718926017543203,0.9426416321004165,-0.003366398133375067,-0.141415,-30.483967
11.185,2.0,1.0,1.0,34.0,33.0,33.0,2.5,3.5,2.675,0.27100838664355864,-0.030174923611185497,0.9455265459855083,-0.0037780677380457755,-0.143643,-30.339523
11.185,2.0,1.0,1.0,34.0,33.0,33.0,2.5,3.5,2.6775,0.2601366601038194,-0.030635886147661568,0.948307507596899,-0.004205112383560692,-0.145923,-30.194329
11.185,2.0,1.0,1.0,34.0,33.0,33.0,2.5,3.5,2.68,0.2491450273118238,-0.031101748212465863,0.9509813201020842,-0.004648058440555877,-0.148257,-30.048374
11.185,2.0,1.0,1.0,34.0,33.0,33.0,2.5,3.5,2.6825,0.23803292770448992,-0.031572434290968676,0.9535446991932469,-0.005107450695664123,-0.150646,-29.901648
11.185,2.0,1.0,1.0,34.0,33.0,33.0,2.5,3.5,2.685,0.22679983994760186,-0.03204785805239436,0.9559942710335126,-0.005583853003043843,-0.153093,-29.754139
11.185,2.0,1.0,1.0,34.0,33.0,33.0,2.5,3.5,2.6875,0.215445284840952,-0.0325279215882674,0.958326570181044,-0.00607784895829386,-0.155598,-29.605835
11.185,2.0,1.0,1.0,34.0,33.0,33.0,2.5,3.5,2.69,0.20396882837362726,-0.033012514602415825,0.960538037492826,-0.006590042595446081,-0.158164,-29.456724
11.185,2.0,1.0,1.0,34.0,33.0,33.0,2.5,3.5,2.6925,0.19237008493621974,-0.03350151354942488,0.9626250180102184,-0.007121059107744884,-0.160792,-29.306794
11.185,2.0,1.0,1.0,34.0,33.0,33.0,2.5,3.5,2.695,0.18064872069710328,-0.03399478071821796,0.964583758828527,-0.00767154559293372,-0.163486,-29.156033
11.185,2.0,1.0,1.0,34.0,33.0,33.0,2.5,3.5,2.6975,0.1688044571501168,-0.03449216325721509,0.9664104069531066,-0.008242171823788905,-0.166245,-29.004427
11.185,2.0,1.0,1.0,34.0,33.0,33.0,2.5,3.5,2.7,0.15683707484139192,-0.0349934921372676,0.9681010071447129,-0.00883363104465165,-0.169074,-28.851964
11.185,2.0,1.0,1.0,34.0,33.0,33.0,2.5,3.5,2.7025,0.14474641728329696,-0.03549858104830254,0.9696514997570955,-0.009446640794726771,-0.171973,-28.698631
11.185,2.0,1.0,1.0,34.0,33.0,33.0,2.5,3.5,2.705,0.13253239506388353,-0.03600722522531831,0.971057718570071,-0.01008194375892842,-0.174945,-28.544413
11.185,2.0,1.0,1.0,34.0,33.0,33.0,2.5,3.5,2.7075,0.12019499016049522,-0.036519200199063094,0.9723153886216099,-0.010740308647067548,-0.177993,-28.389298
11.185,2.0,1.0,1.0,34.0,33.0,33.0,2.5,3.5,2.71,0.1077342604666279,-0.03703426046638403,0.9734201240427521,-0.0114225311021881,-0.181119,-28.23327
11.185,2.0,1.0,1.0,34.0,33.0,33.0,2.5,3.5,2.7125,0.09515034454145617,-0.03755213807487194,0.9743674258994875,-0.01212943463887103,-0.184326,-28.076315
11.185,2.0,1.0,1.0,34.0,33.0,33.0,2.5,3.5,2.715,0.08244346659189244,-0.038072541116024185,0.9751526800460552,-0.012861871612334028,-0.187616,-27.91842
11.185,2.0,1.0,1.0,34.0,33.0,33.0,2.5,3.5,2.7175,0.06961394169743026,-0.03859515212071604,0.9757711549944632,-0.013620724219165627,-0.190992,-27.759567
11.185,2.0,1.0,1.0,34.0,33.0,33.0,2.5,3.5,2.72,0.05666218128850542,-0.03911962635029846,0.9762179998053917,-0.01440690553053726,-0.194457,-27.599742
11.185,2.0,1.0,1.0,34.0,33.0,33.0,2.5,3.5,2.7225,0.043588698889536336,-0.039645589976128194,0.9764882420060107,-0.01522136055874334,-0.198015,-27.438929
11.185,2.0,1.0,1.0,34.0,33.0,33.0,2.5,3.5,2.725,0.030394116138374908,-0.040172638139773495,0.976576785540649,-0.016065067357918256,-0.201667,-27.27711
11.185,2.0,1.0,1.0,34.0,33.0,33.0,2.5,3.5,2.7275,0.01707916909435012,-0.04070033288553002,0.9764784087606609,-0.01693903815978156,-0.205419,-27.114271
11.185,2.0,1.0,1.0,34.0,33.0,33.0,2.5,3.5,2.73,0.0036447148477418076,-0.04122820095621111,0.9761877624602646,-0.017844320545251296,-0.209272,-26.950392
11.185,2.0,1.0,1.0,34.0,33.0,33.0,2.5,3.5,2.7325,-0.009908261555929108,-0.04175573144244649,0.9756993679655857,-0.018781998652759417,-0.213232,-26.785456
11.185,2.0,1.0,1.0,34.0,33.0,33.0,2.5,3.5,2.735,-0.023578639862711023,-0.04228237327492065,0.9750076152846079,-0.01975319442408078,-0.217301,-26.619446
11.185,2.0,1.0,1.0,34.0,33.0,33.0,2.5,3.5,2.7375,-0.0373651570133617,-0.04280753254810432,0.9741067613262206,-0.020759068888465647,-0.221483,-26.452341
11.185,2.0,1.0,1.0,34.0,33.0,33.0,2.5,3.5,2.74,-0.051266399187253134,-0.043330569663064054,0.9729909281970796,-0.021800823485828076,-0.225784,-26.284124
11.185,2.0,1.0,1.0,34.0,33.0,33.0,2.5,3.5,2.7425,-0.0652807934706741,-0.04385079627587315,0.9716541015855205,-0.022879701429698626,-0.230207,-26.114773
11.185,2.0,1.0,1.0,34.0,33.0,33.0,2.5,3.5,2.745,-0.07940659913221569,-0.04436747203697541,0.970090129242337,-0.023996989110588146,-0.234757,-25.944269
11.185,2.0,1.0,1.0,34.0,33.0,33.0,2.5,3.5,2.7475,-0.09364189848694826,-0.04487980110556105,0.9682927195688149,-0.02515401754033364,-0.239438,-25.77259
11.185,2.0,1.0,1.0,34.0,33.0,33.0,2.5,3.5,2.75,-0.107984587329988,-0.0453869284215878,0.966255440323031,-0.0263521638379002,-0.244256,-25.599714
11.185,2.0,1.0,1.0,34.0,33.0,33.0,2.5,3.5,2.7525,-0.12243236491885509,-0.045887935716500086,0.963971717456065,-0.02759285275699086,-0.249217,-25.42562
11.185,2.0,1.0,1.0,34.0,33.0,33.0,2.5,3.5,2.755,-0.13698272348264576,-0.04638183724195343,0.9614348340904662,-0.028877558255664126,-0.254325,-25.250283
11.185,2.0,1.0,1.0,34.0,33.0,33.0,2.5,3.5,2.7575,-0.15163293723462717,-0.046867575193911805,0.9586379296539972,-0.030207805107975095,-0.259587,-25.07368
11.185,2.0,1.0,1.0,34.0,33.0,33.0,2.5,3.5,2.76,-0.16638005086310012,-0.04734401480733251,0.9555739991824704,-0.031585170557418586,-0.265008,-24.895785
11.185,2.0,1.0,1.0,34.0,33.0,33.0,2.5,3.5,2.7625,-0.1812208674736324,-0.047809939094262226,0.9522358928062715,-0.033011286011675633,-0.270597,-24.716573
11.185,2.0,1.0,1.0,34.0,33.0,33.0,2.5,3.5,2.765,-0.19615193595359842,-0.04826404319550222,0.9486163154360223,-0.03448783877781244,-0.276358,-24.536019
11.185,2.0,1.0,1.0,34.0,33.0,33.0,2.5,3.5,2.7675,-0.21116953772767866,-0.0487049283130328,0.9447078266637842,-0.036016573836656685,-0.282301,-24.354092
11.185,2.0,1.0,1.0,34.0,33.0,33.0,2.5,3.5,2.77,-0.22626967287034616,-0.04913109518707259,0.9405028408971615,-0.03759929565456164,-0.288432,-24.170767
11.185,2.0,1.0,1.0,34.0,33.0,33.0,2.5,3.5,2.7725,-0.24144804553837995,-0.04954093707794695,0.9359936277447983,-0.03923787003013365,-0.294759,-23.986012
11.185,2.0,1.0,1.0,34.0,33.0,33.0,2.5,3.5,2.775,-0.25670004868311325,-0.04993273220879617,0.9311723126729289,-0.04093422597273549,-0.301292,-23.799797
11.185,2.0,1.0,1.0,34.0,33.0,33.0,2.5,3.5,2.7775,-0.2720207479983382,-0.05030463562051634,0.9260308779540075,-0.042690357608645875,-0.308039,-23.61209
11.185,2.0,1.0,1.0,34.0,33.0,33.0,2.5,3.5,2.78,-0.28740486505547364,-0.050654670385122745,0.9205611639298986,-0.04450832610963042,-0.31501,-23.422859
11.185,2.0,1.0,1.0,34.0,33.0,33.0,2.5,3.5,2.7825,-0.3028467595727008,-0.05098071811788533,0.914754870613853,-0.04639026163730431,-0.322215,-23.232067
11.185,2.0,1.0,1.0,34.0,33.0,33.0,2.5,3.5,2.785,-0.3183404107592759,-0.051280508722023846,0.9086035596573652,-0.048338365295021314,-0.329666,-23.039681
11.185,2.0,1.0,1.0,34.0,33.0,33.0,2.5,3.5,2.7875,-0.3338793976697923,-0.05155160929236465,0.9020986567102846,-0.050354911077006397,-0.337374,-22.845662
11.185,2.0,1.0,1.0,34.0,33.0,33.0,2.5,3.5,2.79,-0.34945687849607826,-0.05179141209604646,0.8952314542050821,-0.052442247802031355,-0.345351,-22.649971
11.185,2.0,1.0,1.0,34.0,33.0,33.0,2.5,3.5,2.7925,-0.36506556871604373,-0.05199712153898599,0.8879931145992416,-0.0546028010159871,-0.353611,-22.452568
11.185,2.0,1.0,1.0,34.0,33.0,33.0,2.5,3.5,2.795,-0.38069771800954305,-0.052165740016236736,0.8803746741132373,-0.05683907484416313,-0.362167,-22.253411
11.185,2.0,1.0,1.0,34.0,33.0,33.0,2.5,3.5,2.7975,-0.3963450858404253,-0.0522940525324229,0.8723670470058298,-0.05915365376973239,-0.371035,-22.052456
11.185,2.0,1.0,1.0,34.0,33.0,33.0,2.5,3.5,2.8,-0.4119989155918185,-0.05237860996492384,0.8639610304333675,-0.06154920430975388,-0.380231,-21.849656
11.185,2.0,1.0,1.0,34.0,33.0,33.0,2.5,3.5,2.8025,-0.42764990712757195,-0.05241571082719885,0.8551473099458113,-0.06402847655370487,-0.389771,-21.644963
11.185,2.0,1.0,1.0,34.0,33.0,33.0,2.5,3.5,2.805,-0.4432881876367502,-0.05240138137233655,0.8459164656793964,-0.06659430552194029,-0.399675,-21.438328
11.185,2.0,1.0,1.0,34.0,33.0,33.0,2.5,3.5,2.8075,-0.45890328059973157,-0.052331353857302934,0.8362589793145186,-0.0692496122922638,-0.409962,-21.229698
11.185,2.0,1.0,1.0,34.0,33.0,33.0,2.5,3.5,2.81,-0.4744840726934503,-0.052201042766125215,0.8261652418779379,-0.0719974048316335,-0.420653,-21.019018
11.185,2.0,1.0,1.0,34.0,33.0,33.0,2.5,3.5,2.8125,-0.49001877842923,-0.0520055187650246,0.815625562481112,-0.0748407784564957,-0.43177,-20.806229
11.185,2.0,1.0,1.0,34.0,33.0,33.0,2.5,3.5,2.815,-0.5054949022892207,-0.05173948013387596,0.8046301781019045,-0.07778291582886102,-0.44334,-20.591273
11.185,2.0,1.0,1.0,34.0,33.0,33.0,2.5,3.5,2.8175,-0.5208991980959224,-0.05139722138586227,0.7931692645356984,-0.08082708637534833,-0.455387,-20.374085
11.185,2.0,1.0,1.0,34.0,33.0,33.0,2.5,3.5,2.82,-0.5362176253132797,-0.05097259875026633,0.7812329486648174,-0.08397664499229936,-0.467942,-20.1546
11.185,2.0,1.0,1.0,34.0,33.0,33.0,2.5,3.5,2.8225,-0.5514353019366848,-0.05045899215140158,0.7688113222230709,-0.08723502987076012,-0.481033,-19.932747
11.185,2.0,1.0,1.0,34.0,33.0,33.0,2.5,3.5,2.825,-0.5665364535821731,-0.049849263269051175,0.7558944572662949,-0.09060575923950336,-0.494696,-19.708455
11.185,2.0,1.0,1.0,34.0,33.0,33.0,2.5,3.5,2.8275,-0.5815043583314136,-0.0491357092116987,0.7424724236013802,-0.09409242678093305,-0.508967,-19.481646
