1,w,sub_t,h,l1,l2,l3,g1,g2,Freq,S11_re,S21_re,S11_img,S21_img,S11_dB,S21_dB
11.185,2.0,1.0,1.0,34.6,34.3,34.3,3.8,2.9,2.5,0.685778632433491,-0.0115257789703083,0.716955680010189,0.00440100253649579,-0.068647,-38.1755
11.185,2.0,1.0,1.0,34.6,34.3,34.3,3.8,2.9,2.5025,0.6798794930675482,-0.011726149876098742,0.7224336556613049,0.004358857517265054,-0.069402,-38.054795
11.185,2.0,1.0,1.0,34.6,34.3,34.3,3.8,2.9,2.505,0.6739042311651922,-0.011929712101922525,0.7278909052662179,0.004314123712308911,-0.070172,-37.933638
11.185,2.0,1.0,1.0,34.6,34.3,34.3,3.8,2.9,2.5075,0.667852122527395,-0.012136520576340582,0.7333266373672128,0.00426671401266696,-0.070956,-37.812021
11.185,2.0,1.0,1.0,34.6,34.3,34.3,3.8,2.9,2.51,0.6617224363074081,-0.012346631295076925,0.738740038755556,0.00421653825074184,-0.071756,-37.689932
11.185,2.0,1.0,1.0,34.6,34.3,34.3,3.8,2.9,2.5125,0.6555144350937743,-0.012560101343081947,0.7441302738615329,0.004163503078077379,-0.07257,-37.567364
11.185,2.0,1.0,1.0,34.6,34.3,34.3,3.8,2.9,2.515,0.6492273750027089,-0.012776988917052735,0.7494964841273866,0.0041075118374485345,-0.073399,-37.444306
11.185,2.0,1.0,1.0,34.6,34.3,34.3,3.8,2.9,2.5175,0.642860505780352,-0.012997353348418193,0.7548377873626422,0.004048464428951155,-0.074245,-37.320748
11.185,2.0,1.0,1.0,34.6,34.3,34.3,3.8,2.9,2.52,0.636413070915371,-0.013221255126797,0.7601532770813173,0.003986257169758433,-0.075107,-37.196679
11.185,2.0,1.0,1.0,34.6,34.3,34.3,3.8,2.9,2.5225,0.6298843077624692,-0.013448755923935211,0.7654420218204614,0.003920782647190921,-0.075986,-37.07209
11.185,2.0,1.0,1.0,34.6,34.3,34.3,3.8,2.9,2.525,0.6232734476773197,-0.013679918618131549,0.770703064439491,0.003851929564721734,-0.076882,-36.946969
11.185,2.0,1.0,1.0,34.6,34.3,34.3,3.8,2.9,2.5275,0.6165797161635064,-0.013914807319155818,0.7759354213997423,0.003779582580514735,-0.077796,-36.821307
11.185,2.0,1.0,1.0,34.6,34.3,34.3,3.8,2.9,2.53,0.6098023330320701,-0.014153487393667796,0.7811380820236322,0.0037036221380661767,-0.078728,-36.695091
11.185,2.0,1.0,1.0,34.6,34.3,34.3,3.8,2.9,2.5325,0.6029405125742712,-0.014396025491141664,0.786310007732827,0.0036239242884907453,-0.079678,-36.56831
11.185,2.0,1.0,1.0,34.6,34.3,34.3,3.8,2.9,2.535,0.5959934637482117,-0.014642489570301138,0.7914501312647632,0.003540360503962209,-0.080648,-36.440954
11.185,2.0,1.0,1.0,34.6,34.3,34.3,3.8,2.9,2.5375,0.5889603903799981,-0.014892948926068761,0.7965573558668534,0.0034527974817840333,-0.081637,-36.313009
11.185,2.0,1.0,1.0,34.6,34.3,34.3,3.8,2.9,2.54,0.5818404913801318,-0.015147474217033103,0.8016305544676832,0.0033610969385296646,-0.082646,-36.184464
11.185,2.0,1.0,1.0,34.6,34.3,34.3,3.8,2.9,2.5425,0.5746329609758567,-0.015406137493434778,0.8066685688244668,0.0032651153936521953,-0.083676,-36.055307
11.185,2.0,1.0,1.0,34.6,34.3,34.3,3.8,2.9,2.545,0.567336988960222,-0.015669012225672005,0.8116702086460084,0.0031647039419199613,-0.084728,-35.925525
11.185,2.0,1.0,1.0,34.6,34.3,34.3,3.8,2.9,2.5475,0.5599517609586515,-0.015936173333323703,0.816634250690362,0.0030597080139887402,-0.085801,-35.795105
11.185,2.0,1.0,1.0,34.6,34.3,34.3,3.8,2.9,2.55,0.5524764587138193,-0.01620769721468669,0.8215594378363773,0.0029499671243714757,-0.086897,-35.664034
11.185,2.0,1.0,1.0,34.6,34.3,34.3,3.8,2.9,2.5525,0.5449102603897146,-0.01648366177682064,0.8264444781282363,0.0028353146060109214,-0.088015,-35.532297
11.185,2.0,1.0,1.0,34.6,34.3,34.3,3.8,2.9,2.555,0.5372523408957497,-0.016764146466091836,0.8312880437920847,0.002715577330602982,-0.089158,-35.399882
11.185,2.0,1.0,1.0,34.6,34.3,34.3,3.8,2.9,2.5575,0.5295018722318483,-0.01704923229920341,0.8360887702237855,0.0025905754137533375,-0.090325,-35.266774
11.185,2.0,1.0,1.0,34.6,34.3,34.3,3.8,2.9,2.56,0.5216580238554708,-0.017339001894695293,0.8408452549467842,0.0024601219039815034,-0.091517,-35.132959
11.185,2.0,1.0,1.0,34.6,34.3,34.3,3.8,2.9,2.5625,0.5137199630715734,-0.01763353950489366,0.8455560565390065,0.0023240224545102712,-0.092735,-34.998421
11.185,2.0,1.0,1.0,34.6,34.3,34.3,3.8,2.9,2.565,0.5056868554465236,-0.017932931048282964,0.8502196935276728,0.0021820749766966133,-0.09398,-34.863144
11.185,2.0,1.0,1.0,34.6,34.3,34.3,3.8,2.9,2.5675,0.4975578652470725,-0.01823726414226882,0.8548346432508173,0.0020340692738704783,-0.095252,-34.727114
11.185,2.0,1.0,1.0,34.6,34.3,34.3,3.8,2.9,2.57,0.48933215590548396,-0.018546628136291255,0.8593993406842506,0.001879786654250924,-0.096553,-34.590314
11.185,2.0,1.0,1.0,34.6,34.3,34.3,3.8,2.9,2.5725,0.4810088905119908,-0.01886111414524169,0.8639121772326099,0.0017189995215018306,-0.097883,-34.452728
11.185,2.0,1.0,1.0,34.6,34.3,34.3,3.8,2.9,2.575,0.4725872323357925,-0.01918081508312475,0.8683714994830662,0.0015514709413746517,-0.099242,-34.314337
11.185,2.0,1.0,1.0,34.6,34.3,34.3,3.8,2.9,2.5775,0.4640663453758523,-0.01950582569689759,0.8727756079201516,0.0013769541827580048,-0.100633,-34.175125
11.185,2.0,1.0,1.0,34.6,34.3,34.3,3.8,2.9,2.58,0.45544539494281133,-0.019836242600404095,0.8771227556000635,0.0011951922313160805,-0.102055,-34.035074
11.185,2.0,1.0,1.0,34.6,34.3,34.3,3.8,2.9,2.5825,0.4467235482733707,-0.02017216430830822,0.8814111467827079,0.0010059172737461295,-0.103511,-33.894164
11.185,2.0,1.0,1.0,34.6,34.3,34.3,3.8,2.9,2.585,0.43789997517858475,-0.020513691269912773,0.885638935519571,0.000808850150519032,-0.105,-33.752377
11.185,2.0,1.0,1.0,34.6,34.3,34.3,3.8,2.9,2.5875,0.42897384872751976,-0.020860925902729324,0.8898042241954337,0.0006036997747859813,-0.106525,-33.609693
11.185,2.0,1.0,1.0,34.6,34.3,34.3,3.8,2.9,2.59,0.4199443459678544,-0.021213972625643587,0.8939050620217062,0.0003901625149346678,-0.108086,-33.466091
11.185,2.0,1.0,1.0,34.6,34.3,34.3,3.8,2.9,2.5925,0.41081064868499934,-0.02157293789149233,0.8979394434790665,0.00016792153805830868,-0.109684,-33.321551
11.185,2.0,1.0,1.0,34.6,34.3,34.3,3.8,2.9,2.595,0.40157194420145076,-0.021937930218838476,0.901905306706834,-6.335388863753132e-05,-0.111321,-33.176051
11.185,2.0,1.0,1.0,34.6,34.3,34.3,3.8,2.9,2.5975,0.3922274262181098,-0.022309060222693602,0.9058005318363254,-0.000304009141732154,-0.112997,-33.029568
11.185,2.0,1.0,1.0,34.6,34.3,34.3,3.8,2.9,2.6,0.38277629569941457,-0.02268644064389996,0.9096229392652122,-0.0005544050343230405,-0.114715,-32.88208
11.185,2.0,1.0,1.0,34.6,34.3,34.3,3.8,2.9,2.6025,0.3732177618042205,-0.023070186376830136,0.9133702878696007,-0.0008149186614479966,-0.116476,-32.733562
11.185,2.0,1.0,1.0,34.6,34.3,34.3,3.8,2.9,2.605,0.3635510428644332,-0.023460414495015777,0.9170402731503016,-0.0010859443024042652,-0.118281,-32.583991
11.185,2.0,1.0,1.0,34.6,34.3,34.3,3.8,2.9,2.6075,0.3537753674135229,-0.023857244274245466,0.9206305253094087,-0.0013678943845625779,-0.120132,-32.43334
11.185,2.0,1.0,1.0,34.6,34.3,34.3,3.8,2.9,2.61,0.3438899752671579,-0.02426079721260447,0.9241386072529546,-0.0016612005137069045,-0.122031,-32.281584
11.185,2.0,1.0,1.0,34.6,34.3,34.3,3.8,2.9,2.6125,0.33389411865830854,-0.02467119704684057,0.9275620125149787,-0.0019663145764083584,-0.123978,-32.128695
11.185,2.0,1.0,1.0,34.6,34.3,34.3,3.8,2.9,2.615,0.32378706342929514,-0.025088569764343864,0.9308981630979485,-0.002283709920472289,-0.125977,-31.974646
11.185,2.0,1.0,1.0,34.6,34.3,34.3,3.8,2.9,2.6175,0.3135680902834491,-0.02551304360991265,0.9341444072238917,-0.002613882620082911,-0.128028,-31.819406
11.185,2.0,1.0,1.0,34.6,34.3,34.3,3.8,2.9,2.62,0.3032364960991563,-0.025944749086348053,0.9372980169900982,-0.0029573528329236843,-0.130134,-31.662946
11.185,2.0,1.0,1.0,34.6,34.3,34.3,3.8,2.9,2.6225,0.29279159530927557,-0.026383818947764228,0.9403561859225816,-0.003314666257274149,-0.132298,-31.505235
11.185,2.0,1.0,1.0,34.6,34.3,34.3,3.8,2.9,2.625,0.282232721349145,-0.0268303881843249,0.943316026419766,-0.00368639569788904,-0.13452,-31.34624
11.185,2.0,1.0,1.0,34.6,34.3,34.3,3.8,2.9,2.6275,0.2715592281765553,-0.02728459399691157,0.9461745670781125,-0.004073142750364723,-0.136804,-31.185928
11.185,2.0,1.0,1.0,34.6,34.3,34.3,3.8,2.9,2.63,0.260770491867407,-0.02774657575998587,0.9489287498904556,-0.004475539614694683,-0.139152,-31.024263
11.185,2.0,1.0,1.0,34.6,34.3,34.3,3.8,2.9,2.6325,0.24986591229101476,-0.028216474970633804,0.9515754273068261,-0.004894251049834545,-0.141566,-30.861209
11.185,2.0,1.0,1.0,34.6,34.3,34.3,3.8,2.9,2.635,0.23884491486938084,-0.028694435181451865,0.9541113591464194,-0.0053299764823429045,-0.14405,-30.696729
11.185,2.0,1.0,1.0,34.6,34.3,34.3,3.8,2.9,2.6375,0.2277069524251574,-0.029180601914557357,0.9565332093480554,-0.005783452283559559,-0.146606,-30.530784
11.185,2.0,1.0,1.0,34.6,34.3,34.3,3.8,2.9,2.64,0.21645150712342462,-0.02967512255356755,0.9588375425450638,-0.006255454231348222,-0.149237,-30.363332
11.185,2.0,1.0,1.0,34.6,34.3,34.3,3.8,2.9,2.6425,0.20507809251297707,-0.030178146209871158,0.9610208204488898,-0.006746800174181543,-0.151946,-30.194332
11.185,2.0,1.0,1.0,34.6,34.3,34.3,3.8,2.9,2.645,0.19358625567337262,-0.030689823558921456,0.9630793980238633,-0.007258352917317095,-0.154738,-30.023738
11.185,2.0,1.0,1.0,34.6,34.3,34.3,3.8,2.9,2.6475,0.18197557947470025,-0.031210306641569624,0.9650095194335182,-0.0077910233530289795,-0.157615,-29.851506
11.185,2.0,1.0,1.0,34.6,34.3,34.3,3.8,2.9,2.65,0.17024568495780756,-0.031739748624637354,0.9668073137364782,-0.008345773859352562,-0.160582,-29.677587
11.185,2.0,1.0,1.0,34.6,34.3,34.3,3.8,2.9,2.6525,0.15839623384372617,-0.03227830351395659,0.9684687903072471,-0.008923621994612389,-0.163642,-29.50193
11.185,2.0,1.0,1.0,34.6,34.3,34.3,3.8,2.9,2.655,0.1464269311820365,-0.032826125811974145,0.9699898339542453,-0.009525644518181194,-0.1668,-29.324484
11.185,2.0,1.0,1.0,34.6,34.3,34.3,3.8,2.9,2.6575,0.1343375281492907,-0.03338337011067473,0.9713661997039534,-0.010152981771508862,-0.170061,-29.145195
11.185,2.0,1.0,1.0,34.6,34.3,34.3,3.8,2.9,2.66,0.12212782501007126,-0.03395019060901349,0.9725935072161348,-0.010806842457526625,-0.173429,-28.964004
11.185,2.0,1.0,1.0,34.6,34.3,34.3,3.8,2.9,2.6625,0.10979767425507213,-0.03452674054218409,0.9736672347906585,-0.01148850886114721,-0.17691,-28.780852
11.185,2.0,1.0,1.0,34.6,34.3,34.3,3.8,2.9,2.665,0.09734698393267445,-0.035113171507866164,0.97458271292133,-0.012199342558820126,-0.18051,-28.595678
11.185,2.0,1.0,1.0,34.6,34.3,34.3,3.8,2.9,2.6675,0.08477572119301378,-0.035709632671994965,0.9753351173463876,-0.012940790671061905,-0.184235,-28.408414
11.185,2.0,1.0,1.0,34.6,34.3,34.3,3.8,2.9,2.67,0.0720839160664598,-0.03631626983353102,0.975919461538643,-0.013714392718673184,-0.188091,-28.218994
11.185,2.0,1.0,1.0,34.6,34.3,34.3,3.8,2.9,2.6725,0.05927166550194935,-0.03693322432405401,0.9763305885707074,-0.014521788151104392,-0.192085,-28.027345
11.185,2.0,1.0,1.0,34.6,34.3,34.3,3.8,2.9,2.675,0.046339137694835254,-0.03756063171367002,0.9765631622820073,-0.015364724624287712,-0.196226,-27.833391
11.185,2.0,1.0,1.0,34.6,34.3,34.3,3.8,2.9,2.6775,0.03328657673885945,-0.038198620289547826,0.9766116576643419,-0.01624506711539663,-0.20052,-27.637054
11.185,2.0,1.0,1.0,34.6,34.3,34.3,3.8,2.9,2.68,0.020114307642845438,-0.03884730926722761,0.9764703503712727,-0.0171648079736213,-0.204976,-27.438251
11.185,2.0,1.0,1.0,34.6,34.3,34.3,3.8,2.9,2.6825,0.006822741759921931,-0.03950680668745763,0.976133305243395,-0.018126078019402716,-0.209605,-27.236893
11.185,2.0,1.0,1.0,34.6,34.3,34.3,3.8,2.9,2.685,-0.006587617314401174,-0.04017720694245617,0.9755943637263743,-0.019131158819942533,-0.214416,-27.032889
11.185,2.0,1.0,1.0,34.6,34.3,34.3,3.8,2.9,2.6875,-0.02011616730855035,-0.0408585878648497,0.9748471300410284,-0.020182496286512263,-0.219421,-26.826142
11.185,2.0,1.0,1.0,34.6,34.3,34.3,3.8,2.9,2.69,-0.033762200226373426,-0.04155100729971628,0.973884955944449,-0.021282715759536323,-0.22463,-26.61655
11.185,2.0,1.0,1.0,34.6,34.3,34.3,3.8,2.9,2.6925,-0.047524894589468944,-0.042254499064679776,0.9727009238975892,-0.022434638771076897,-0.230058,-26.404006
11.185,2.0,1.0,1.0,34.6,34.3,34.3,3.8,2.9,2.695,-0.061403306857648145,-0.04296906818425601,0.9712878284275142,-0.023641301701739517,-0.235719,-26.188394
11.185,2.0,1.0,1.0,34.6,34.3,34.3,3.8,2.9,2.6975,-0.0753963618926445,-0.043694685261910234,0.9696381554407633,-0.024905976580821592,-0.241627,-25.969596
11.185,2.0,1.0,1.0,34.6,34.3,34.3,3.8,2.9,2.7,-0.089502842302907,-0.04443127982560281,0.967744059207416,-0.026232194315478907,-0.2478,-25.747484
11.185,2.0,1.0,1.0,34.6,34.3,34.3,3.8,2.9,2.7025,-0.10372137647425089,-0.045178732448828564,0.9655973366924386,-0.027623770677727116,-0.254255,-25.521925
11.185,2.0,1.0,1.0,34.6,34.3,34.3,3.8,2.9,2.705,-0.1180504250504069,-0.0459368654078145,0.9631893988607466,-0.029084835428285116,-0.261014,-25.292775
11.185,2.0,1.0,1.0,34.6,34.3,34.3,3.8,2.9,2.7075,-0.1324882655776166,-0.04670543158481261,0.9605112385237519,-0.03061986501490034,-0.268098,-25.059883
11.185,2.0,1.0,1.0,34.6,34.3,34.3,3.8,2.9,2.71,-0.14703297496575898,-0.047484101264941285,0.9575533942265008,-0.032233719351385116,-0.275531,-24.82309
11.185,2.0,1.0,1.0,34.6,34.3,34.3,3.8,2.9,2.7125,-0.1616824093424149,-0.048272446396867646,0.9543059095940689,-0.03393168326394694,-0.283341,-24.582226
11.185,2.0,1.0,1.0,34.6,34.3,34.3,3.8,2.9,2.715,-0.17643418078177744,-0.04906992179197225,0.9507582874614366,-0.03571951328563893,-0.291557,-24.337109
11.185,2.0,1.0,1.0,34.6,34.3,34.3,3.8,2.9,2.7175,-0.1912856302727428,-0.04987584261768689,0.9468994380001594,-0.03760349059041425,-0.300212,-24.087548
11.185,2.0,1.0,1.0,34.6,34.3,34.3,3.8,2.9,2.72,-0.20623379614357032,-0.05068935739223157,0.9427176199247358,-0.03959048098829523,-0.309342,-23.833337
11.185,2.0,1.0,1.0,34.6,34.3,34.3,3.8,2.9,2.7225,-0.22127537697656277,-0.051509415501974756,0.938200373708272,-0.041688003056040354,-0.318989,-23.574257
11.185,2.0,1.0,1.0,34.6,34.3,34.3,3.8,2.9,2.725,-0.2364066878142518,-0.05233472802874775,0.9333344455566103,-0.043904305657403754,-0.329197,-23.310076
11.185,2.0,1.0,1.0,34.6,34.3,34.3,3.8,2.9,2.7275,-0.25162360816617024,-0.05316372037913386,0.9281057006780827,-0.0462484563182987,-0.340017,-23.040544
11.185,2.0,1.0,1.0,34.6,34.3,34.3,3.8,2.9,2.73,-0.2669215199538565,-0.05399447483339601,0.9224990241370382,-0.04873044217004638,-0.351506,-22.765395
11.185,2.0,1.0,1.0,34.6,34.3,34.3,3.8,2.9,2.7325,-0.28229523305908594,-0.0548246606551478,0.9164982072874877,-0.05136128546422156,-0.363729,-22.484342
11.185,2.0,1.0,1.0,34.6,34.3,34.3,3.8,2.9,2.735,-0.2977388955354904,-0.05565144879356216,0.9100858174424994,-0.0541531760014333,-0.376758,-22.197079
11.185,2.0,1.0,1.0,34.6,34.3,34.3,3.8,2.9,2.7375,-0.31324588476692244,-0.05647140742743555,0.9032430480390387,-0.057119623209758455,-0.390676,-21.903278
11.185,2.0,1.0,1.0,34.6,34.3,34.3,3.8,2.9,2.74,-0.32880867485314347,-0.05728037359096537,0.8959495461014362,-0.06027563106167808,-0.405576,-21.602585
11.185,2.0,1.0,1.0,34.6,34.3,34.3,3.8,2.9,2.7425,-0.3444186742036188,-0.05807329481275209,0.8881832132862589,-0.06363789953433792,-0.421564,-21.294621
11.185,2.0,1.0,1.0,34.6,34.3,34.3,3.8,2.9,2.745,-0.3600660256267425,-0.058844032995786416,0.879919976207844,-0.06722505689535913,-0.438764,-20.978976
11.185,2.0,1.0,1.0,34.6,34.3,34.3,3.8,2.9,2.7475,-0.375739358985502,-0.059585120536878734,0.8711335211064535,-0.07105792772556327,-0.457316,-20.65521
11.185,2.0,1.0,1.0,34.6,34.3,34.3,3.8,2.9,2.75,-0.391425483575707,-0.0602874557529722,0.861794987253424,-0.0751598422463296,-0.477383,-20.322846
11.185,2.0,1.0,1.0,34.6,34.3,34.3,3.8,2.9,2.7525,-0.40710900353098345,-0.06093992080969555,0.8518726128385867,-0.07955699315290939,-0.499153,-19.98137
11.185,2.0,1.0,1.0,34.6,34.3,34.3,3.8,2.9,2.755,-0.42277183444465316,-0.061528900208110054,0.8413313265457603,-0.08427884667299985,-0.522848,-19.630228
11.185,2.0,1.0,1.0,34.6,34.3,34.3,3.8,2.9,2.7575,-0.43839259257775026,-0.062037671033183445,0.830132277754102,-0.08935861480770961,-0.548725,-19.268818
11.185,2.0,1.0,1.0,34.6,34.3,34.3,3.8,2.9,2.76,-0.4539458188868966,-0.06244562699234822,0.81823229858608,-0.09483379538653025,-0.577087,-18.896492
11.185,2.0,1.0,1.0,34.6,34.3,34.3,3.8,2.9,2.7625,-0.46940098782298717,-0.06272728594093104,0.8055832923299335,-0.1007467852002091,-0.608295,-18.512546
11.185,2.0,1.0,1.0,34.6,34.3,34.3,3.8,2.9,2.765,-0.48472123428724456,-0.06285101396663956,0.7921315458891938,-0.10714556826396815,-0.642776,-18.116222
11.185,2.0,1.0,1.0,34.6,34.3,34.3,3.8,2.9,2.7675,-0.4998617097465572,-0.06277737664826571,0.7778169701746105,-0.11408447487568615,-0.681045,-17.706698
11.185,2.0,1.0,1.0,34.6,34.3,34.3,3.8,2.9,2.77,-0.5147674482457673,-0.06245699775528289,0.7625722839450746,-0.12162499536098895,-0.72372,-17.28309
11.185,2.0,1.0,1.0,34.6,34.3,34.3,3.8,2.9,2.7725,-0.5293705822142648,-0.06182776472179454,0.7463221771506684,-0.12983661158641907,-0.771552,-16.844449
11.185,2.0,1.0,1.0,34.6,34.3,34.3,3.8,2.9,2.775,-0.5435866931524825,-0.060811165325872246,0.7289825253311224,-0.13879757343502844,-0.825459,-16.389758
11.185,2.0,1.0,1.0,34.6,34.3,34.3,3.8,2.9,2.7775,-0.5573100095395958,-0.05930746719640469,0.7104597869895486,-0.14859548650530063,-0.886572,-15.917941
11.185,2.0,1.0,1.0,34.6,34.3,34.3,3.8,2.9,2.78,-0.5704070697348522,-0.05718935721381519,0.6906508174434521,-0.15932747488133067,-0.956292,-15.427864
11.185,2.0,1.0,1.0,34.6,34.3,34.3,3.8,2.9,2.7825,-0.5827083492655557,-0.05429353968372236,0.6694435023024727,-0.17109951196152895,-1.036372,-14.918363
11.185,2.0,1.0,1.0,34.6,34.3,34.3,3.8,2.9,2.785,-0.5939972141372336,-0.05040965497352656,0.6467188951500948,-0.18402422915081937,-1.129017,-14.388264
11.185,2.0,1.0,1.0,34.6,34.3,34.3,3.8,2.9,2.7875,-0.6039954258085578,-0.04526574562261416,0.6223560072310265,-0.19821604650709163,-1.237028,-13.836444
11.185,2.0,1.0,1.0,34.6,34.3,34.3,3.8,2.9,2.79,-0.6123443494190645,-0.038509425619264355,0.5962411507497297,-0.21378171221894895,-1.363981,-13.261906
11.185,2.0,1.0,1.0,34.6,34.3,34.3,3.8,2.9,2.7925,-0.6185811504352623,-0.02968404748177703,0.5682849412798053,-0.2308031295355192,-1.514473,-12.663917
11.185,2.0,1.0,1.0,34.6,34.3,34.3,3.8,2.9,2.795,-0.6221099297435645,-0.018199836701250333,0.5384519258667271,-0.24930748387651705,-1.694426,-12.042211
11.185,2.0,1.0,1.0,34.6,34.3,34.3,3.8,2.9,2.7975,-0.6221696168507599,-0.003301850755588899,0.5068105130926658,-0.2692169698571306,-1.911466,-11.397298
11.185,2.0,1.0,1.0,34.6,34.3,34.3,3.8,2.9,2.8,-0.6178048214058559,0.0159589690494171,0.4736143722921919,-0.2902669305901795,-2.175321,-10.730941
11.185,2.0,1.0,1.0,34.6,34.3,34.3,3.8,2.9,2.8025,-0.6078550193656036,0.040736161376981335,0.43942971451066115,-0.3118779990887498,-2.498109,-10.046838
11.185,2.0,1.0,1.0,34.6,34.3,34.3,3.8,2.9,2.805,-0.590994690644581,0.07234673086129217,0.4053221987746348,-0.332968567902688,-2.894081,-9.351599
11.185,2.0,1.0,1.0,34.6,34.3,34.3,3.8,2.9,2.8075,-0.5658847559174992,0.11211818338550338,0.3731030733708781,-0.35170819999832553,-3.377793,-8.656025
11.185,2.0,1.0,1.0,34.6,34.3,34.3,3.8,2.9,2.81,-0.531527967112266,0.1610307828421955,0.34558734075470054,-0.3652596960155159,-3.958252,-7.9766
11.185,2.0,1.0,1.0,34.6,34.3,34.3,3.8,2.9,2.8125,-0.48792467288053,0.2190587792981,0.326712240388217,-0.369662403582234,-4.624184,-7.336812
11.185,2.0,1.0,1.0,34.6,34.3,34.3,3.8,2.9,2.815,-0.43701525407231995,0.28422537083393357,0.3212080509237032,-0.36016582339960734,-5.314209,-6.767407
11.185,2.0,1.0,1.0,34.6,34.3,34.3,3.8,2.9,2.8175,-0.383561041319113,0.3517220060781352,0.3334392702479932,-0.3323957346527588,-5.878742,-6.304218
11.185,2.0,1.0,1.0,34.6,34.3,34.3,3.8,2.9,2.82,-0.3351337762886628,0.4139250502314863,0.3653748478274155,-0.28439191268389447,-6.093944,-5.98233
11.185,2.0,1.0,1.0,34.6,34.3,34.3,3.8,2.9,2.8225,-0.3003546654374325,0.4621694354908623,0.41460144900609697,-0.2185978338100434,-5.815209,-5.827183
11.185,2.0,1.0,1.0,34.6,34.3,34.3,3.8,2.9,2.825,-0.2857052921713431,0.4899515878164683,0.4740890851296337,-0.14208743247407857,-5.137283,-5.846236
11.185,2.0,1.0,1.0,34.6,34.3,34.3,3.8,2.9,2.8275,-0.29292567180258267,0.4955366071929967,0.5345279787097335,-0.06421147113224436,-4.300112,-6.026169
