1,w,sub_t,h,l1,l2,l3,g1,g2,Freq,S11_re,S21_re,S11_img,S21_img,S11_dB,S21_dB
11.185,2.0,1.0,1.0,34.2,34.3,34.3,3.9,3.7,2.5,0.754813995915755,-0.00815512168974024,0.644853919457665,0.00354055865726039,-0.063078,-41.021445
11.185,2.0,1.0,1.0,34.2,34.3,34.3,3.9,3.7,2.5025,0.7499022795092454,-0.00830053545524597,0.6504455261924635,0.0035212108679661042,-0.06373,-40.899211
11.185,2.0,1.0,1.0,34.2,34.3,34.3,3.9,3.7,2.505,0.7449242570803818,-0.008448346902366581,0.6560259510042398,0.003500294668936833,-0.064394,-40.776554
11.185,2.0,1.0,1.0,34.2,34.3,34.3,3.9,3.7,2.5075,0.7398792732972111,-0.008598602195080933,0.6615946642473777,0.0034777569739030184,-0.06507,-40.653463
11.185,2.0,1.0,1.0,34.2,34.3,34.3,3.9,3.7,2.51,0.7347666644544171,-0.008751348658301024,0.6671511212193446,0.003453542792156119,-0.065758,-40.529926
11.185,2.0,1.0,1.0,34.2,34.3,34.3,3.9,3.7,2.5125,0.7295857584156566,-0.00890663481540816,0.6726947617116221,0.0034275951488470127,-0.06646,-40.405934
11.185,2.0,1.0,1.0,34.2,34.3,34.3,3.9,3.7,2.515,0.7243358745582656,-0.00906451042734748,0.6782250095467658,0.003399855001350657,-0.067174,-40.281475
11.185,2.0,1.0,1.0,34.2,34.3,34.3,3.9,3.7,2.5175,0.7190163237205213,-0.009225026533359652,0.6837412721010947,0.0033702611514676946,-0.067902,-40.156538
11.185,2.0,1.0,1.0,34.2,34.3,34.3,3.9,3.7,2.52,0.7136264081516183,-0.009388235493436918,0.6892429398125375,0.0033387501532178647,-0.068644,-40.03111
11.185,2.0,1.0,1.0,34.2,34.3,34.3,3.9,3.7,2.5225,0.7081654214645741,-0.00955419103259266,0.6947293856730866,0.0033052562159635772,-0.069399,-39.905181
11.185,2.0,1.0,1.0,34.2,34.3,34.3,3.9,3.7,2.525,0.7026326485922236,-0.00972294828704277,0.7001999647053392,0.003269711102583495,-0.07017,-39.778739
11.185,2.0,1.0,1.0,34.2,34.3,34.3,3.9,3.7,2.5275,0.697027365746525,-0.009894563852399722,0.7056540134225513,0.003232044022396555,-0.070955,-39.651771
11.185,2.0,1.0,1.0,34.2,34.3,34.3,3.9,3.7,2.53,0.6913488403813777,-0.010069095833988876,0.7110908492716084,0.0031921815185156598,-0.071756,-39.524264
11.185,2.0,1.0,1.0,34.2,34.3,34.3,3.9,3.7,2.5325,0.6855963311591684,-0.010246603899402825,0.7165097700582984,0.003150047349287329,-0.072572,-39.396207
11.185,2.0,1.0,1.0,34.2,34.3,34.3,3.9,3.7,2.535,0.6797690879212673,-0.010427149333416787,0.7219100533542333,0.0031055623634488622,-0.073404,-39.267585
11.185,2.0,1.0,1.0,34.2,34.3,34.3,3.9,3.7,2.5375,0.6738663516627122,-0.010610795095395824,0.7272909558847408,0.003058644368607837,-0.074253,-39.138386
11.185,2.0,1.0,1.0,34.2,34.3,34.3,3.9,3.7,2.54,0.667887354511313,-0.010797605879333243,0.7326517128970114,0.0030092079926195576,-0.075119,-39.008595
11.185,2.0,1.0,1.0,34.2,34.3,34.3,3.9,3.7,2.5425,0.6618313197114273,-0.01098764817666874,0.7379915375077561,0.002957164537406814,-0.076002,-38.8782
11.185,2.0,1.0,1.0,34.2,34.3,34.3,3.9,3.7,2.545,0.655697461612662,-0.011180990342044983,0.7433096200295796,0.002902421824731973,-0.076903,-38.747185
11.185,2.0,1.0,1.0,34.2,34.3,34.3,3.9,3.7,2.5475,0.6494849856637714,-0.011377702662168686,0.7486051272752459,0.002844884033394664,-0.077822,-38.615537
11.185,2.0,1.0,1.0,34.2,34.3,34.3,3.9,3.7,2.55,0.6431930884120066,-0.011577857427958865,0.7538772018389679,0.0027844515272875043,-0.07876,-38.483239
11.185,2.0,1.0,1.0,34.2,34.3,34.3,3.9,3.7,2.5525,0.6368209575082227,-0.011781529010170773,0.7591249613537862,0.0027210206736995256,-0.079718,-38.350277
11.185,2.0,1.0,1.0,34.2,34.3,34.3,3.9,3.7,2.555,0.6303677717180063,-0.011988793938700733,0.7643474977240894,0.00265448365120804,-0.080696,-38.216636
11.185,2.0,1.0,1.0,34.2,34.3,34.3,3.9,3.7,2.5575,0.6238327009391283,-0.012199730985790061,0.7695438763322291,0.0025847282464491472,-0.081694,-38.082298
11.185,2.0,1.0,1.0,34.2,34.3,34.3,3.9,3.7,2.56,0.6172149062256317,-0.012414421253358445,0.7747131352181615,0.0025116376389996077,-0.082714,-37.947248
11.185,2.0,1.0,1.0,34.2,34.3,34.3,3.9,3.7,2.5625,0.6105135398188534,-0.012632948264717005,0.7798542842309549,0.0024350901735418033,-0.083755,-37.811468
11.185,2.0,1.0,1.0,34.2,34.3,34.3,3.9,3.7,2.565,0.6037277451856992,-0.012855398060923425,0.7849663041509524,0.0023549591184158594,-0.084819,-37.674941
11.185,2.0,1.0,1.0,34.2,34.3,34.3,3.9,3.7,2.5675,0.5968566570645021,-0.013081859302063443,0.7900481457812918,0.0022711124095898096,-0.085905,-37.537649
11.185,2.0,1.0,1.0,34.2,34.3,34.3,3.9,3.7,2.57,0.5898994015187837,-0.01331242337375971,0.7950987290074077,0.0021834123789982443,-0.087016,-37.399575
11.185,2.0,1.0,1.0,34.2,34.3,34.3,3.9,3.7,2.5725,0.5828550959992561,-0.013547184499231082,0.8001169418230518,0.0020917154661118345,-0.088151,-37.260698
11.185,2.0,1.0,1.0,34.2,34.3,34.3,3.9,3.7,2.575,0.575722849414402,-0.013786239857246665,0.8051016393212704,0.0019958719115042126,-0.089311,-37.121
11.185,2.0,1.0,1.0,34.2,34.3,34.3,3.9,3.7,2.5775,0.5685017622099766,-0.014029689706343764,0.8100516426486628,0.0018957254310767273,-0.090497,-36.98046
11.185,2.0,1.0,1.0,34.2,34.3,34.3,3.9,3.7,2.58,0.5611909264577783,-0.014277637515702359,0.8149657379211446,0.0017911128694862407,-0.09171,-36.839058
11.185,2.0,1.0,1.0,34.2,34.3,34.3,3.9,3.7,2.5825,0.5537894259540279,-0.014530190103099758,0.8198426750992994,0.0016818638311934303,-0.092951,-36.696774
11.185,2.0,1.0,1.0,34.2,34.3,34.3,3.9,3.7,2.585,0.5462963363277132,-0.014787457780392617,0.82468116682127,0.0015678002874098223,-0.09422,-36.553584
11.185,2.0,1.0,1.0,34.2,34.3,34.3,3.9,3.7,2.5875,0.5387107251592362,-0.01504955450701071,0.8294798871909836,0.0014487361570674848,-0.095519,-36.409467
11.185,2.0,1.0,1.0,34.2,34.3,34.3,3.9,3.7,2.59,0.5310316521097198,-0.015316598051976745,0.834237470519338,0.001324476859766354,-0.096848,-36.2644
11.185,2.0,1.0,1.0,34.2,34.3,34.3,3.9,3.7,2.5925,0.5232581690613,-0.015588710165001386,0.8389525100158001,0.001194818838466847,-0.098208,-36.118358
11.185,2.0,1.0,1.0,34.2,34.3,34.3,3.9,3.7,2.595,0.5153893202687629,-0.015866016757246183,0.8436235564276412,0.00105954904948993,-0.099602,-35.971317
11.185,2.0,1.0,1.0,34.2,34.3,34.3,3.9,3.7,2.5975,0.5074241425228307,-0.016148648092379852,0.8482491166238358,0.0009184444171586657,-0.101028,-35.823251
11.185,2.0,1.0,1.0,34.2,34.3,34.3,3.9,3.7,2.6,0.4993616653254301,-0.016436738988605523,0.8528276521203961,0.000771271250163404,-0.10249,-35.674135
11.185,2.0,1.0,1.0,34.2,34.3,34.3,3.9,3.7,2.6025,0.4912009110772562,-0.016730429032375486,0.8573575775436103,0.0006177846164547568,-0.103988,-35.523941
11.185,2.0,1.0,1.0,34.2,34.3,34.3,3.9,3.7,2.605,0.4829408952779152,-0.017029862804563766,0.8618372590273933,0.000457727673158479,-0.105522,-35.372641
11.185,2.0,1.0,1.0,34.2,34.3,34.3,3.9,3.7,2.6075,0.4745806267389298,-0.017335190119917934,0.8662650125405935,0.0002908309476646959,-0.107096,-35.220206
11.185,2.0,1.0,1.0,34.2,34.3,34.3,3.9,3.7,2.61,0.46611910780987387,-0.01764656628066669,0.8706391021397163,0.00011681156566257835,-0.108709,-35.066605
11.185,2.0,1.0,1.0,34.2,34.3,34.3,3.9,3.7,2.6125,0.4575553346178636,-0.017964152345218195,0.8749577381421326,-6.462757853144861e-05,-0.110364,-34.911809
11.185,2.0,1.0,1.0,34.2,34.3,34.3,3.9,3.7,2.615,0.44888829732062024,-0.018288115412947288,0.8792190752143616,-0.00025379871447529925,-0.112062,-34.755785
11.185,2.0,1.0,1.0,34.2,34.3,34.3,3.9,3.7,2.6175,0.4401169803732985,-0.018618628926132565,0.8834212103694775,-0.00045103015658098835,-0.113804,-34.598498
11.185,2.0,1.0,1.0,34.2,34.3,34.3,3.9,3.7,2.62,0.43124036280922656,-0.01895587299017463,0.8875621808671588,-0.0006566673398073881,-0.115593,-34.439916
11.185,2.0,1.0,1.0,34.2,34.3,34.3,3.9,3.7,2.6225,0.42225741853467524,-0.01930003471329449,0.8916399620091939,-0.000871073936955841,-0.117429,-34.280001
11.185,2.0,1.0,1.0,34.2,34.3,34.3,3.9,3.7,2.625,0.413167116637763,-0.0196513085669883,0.895652464822562,-0.00109463306519098,-0.119316,-34.118716
11.185,2.0,1.0,1.0,34.2,34.3,34.3,3.9,3.7,2.6275,0.4039684217115112,-0.020009896768584952,0.8995975336213956,-0.0013277485902307897,-0.121255,-33.956023
11.185,2.0,1.0,1.0,34.2,34.3,34.3,3.9,3.7,2.63,0.39466029419108034,-0.020376009687333867,0.9034729434381779,-0.0015708465375702117,-0.123248,-33.791882
11.185,2.0,1.0,1.0,34.2,34.3,34.3,3.9,3.7,2.6325,0.38524169070513203,-0.0207498662755241,0.907276397313559,-0.001824376621137829,-0.125296,-33.626251
11.185,2.0,1.0,1.0,34.2,34.3,34.3,3.9,3.7,2.635,0.37571156444125126,-0.021131694526214266,0.9110055234329318,-0.0020888139009483555,-0.127404,-33.459085
11.185,2.0,1.0,1.0,34.2,34.3,34.3,3.9,3.7,2.6375,0.3660688655253057,-0.021521731959221874,0.9146578720966745,-0.002364660582624865,-0.129573,-33.290341
11.185,2.0,1.0,1.0,34.2,34.3,34.3,3.9,3.7,2.64,0.3563125414145671,-0.021920226137097105,0.9182309125094361,-0.002652447973144046,-0.131805,-33.119971
11.185,2.0,1.0,1.0,34.2,34.3,34.3,3.9,3.7,2.6425,0.3464415373044167,-0.022327435212859275,0.9217220293721937,-0.002952738608827849,-0.134104,-32.947925
11.185,2.0,1.0,1.0,34.2,34.3,34.3,3.9,3.7,2.645,0.33645479654841476,-0.02274362851133053,0.9251285192588763,-0.0032661285734961374,-0.136473,-32.774152
11.185,2.0,1.0,1.0,34.2,34.3,34.3,3.9,3.7,2.6475,0.3263512610914944,-0.0231690871459363,0.9284475867572366,-0.0035932500268378957,-0.138914,-32.5986
11.185,2.0,1.0,1.0,34.2,34.3,34.3,3.9,3.7,2.65,0.3161298719160404,-0.02360410467285481,0.9316763403511811,-0.0039347739654907446,-0.141431,-32.421212
11.185,2.0,1.0,1.0,34.2,34.3,34.3,3.9,3.7,2.6525,0.3057895695006885,-0.024048987784386903,0.9348117880189531,-0.004291413242083541,-0.144027,-32.24193
11.185,2.0,1.0,1.0,34.2,34.3,34.3,3.9,3.7,2.655,0.2953292942916505,-0.024504057043366376,0.9378508325184427,-0.00466392587064797,-0.146707,-32.060693
11.185,2.0,1.0,1.0,34.2,34.3,34.3,3.9,3.7,2.6575,0.2847479871865713,-0.024969647660333508,0.9407902663271921,-0.0050531186503972175,-0.149475,-31.877437
11.185,2.0,1.0,1.0,34.2,34.3,34.3,3.9,3.7,2.66,0.2740445900309953,-0.02544611031503186,0.9436267662005674,-0.005459851143977995,-0.152334,-31.692096
11.185,2.0,1.0,1.0,34.2,34.3,34.3,3.9,3.7,2.6625,0.26321804612783645,-0.025933812023548875,0.946356887306743,-0.005885040051003689,-0.155289,-31.5046
11.185,2.0,1.0,1.0,34.2,34.3,34.3,3.9,3.7,2.665,0.2522673007604775,-0.026433137052071697,0.9489770568917213,-0.006329664023071916,-0.158346,-31.314876
11.185,2.0,1.0,1.0,34.2,34.3,34.3,3.9,3.7,2.6675,0.24119130173067727,-0.02694448787775621,0.9514835674212636,-0.006794768972667834,-0.161509,-31.122846
11.185,2.0,1.0,1.0,34.2,34.3,34.3,3.9,3.7,2.67,0.2299889999129811,-0.027468286196554736,0.9538725691393846,-0.007281473935494705,-0.164784,-30.928432
11.185,2.0,1.0,1.0,34.2,34.3,34.3,3.9,3.7,2.6725,0.2186593498281977,-0.028004973976994845,0.9561400619746445,-0.007790977554010485,-0.168178,-30.731547
11.185,2.0,1.0,1.0,34.2,34.3,34.3,3.9,3.7,2.675,0.20720131023956145,-0.02855501455776075,0.9582818867157856,-0.00832456525947206,-0.171697,-30.532102
11.185,2.0,1.0,1.0,34.2,34.3,34.3,3.9,3.7,2.6775,0.19561384477657826,-0.029118893785457765,0.9602937153670006,-0.008883617240825228,-0.175348,-30.330006
11.185,2.0,1.0,1.0,34.2,34.3,34.3,3.9,3.7,2.68,0.1838959225933944,-0.029697121187020344,0.9621710405800423,-0.009469617301591177,-0.179139,-30.125158
11.185,2.0,1.0,1.0,34.2,34.3,34.3,3.9,3.7,2.6825,0.172046519070877,-0.03029023116876041,0.9639091640451524,-0.010084162720811357,-0.183078,-29.917455
11.185,2.0,1.0,1.0,34.2,34.3,34.3,3.9,3.7,2.685,0.16006461657461732,-0.030898784230875203,0.9655031837050094,-0.010728975251505311,-0.187174,-29.706788
11.185,2.0,1.0,1.0,34.2,34.3,34.3,3.9,3.7,2.6875,0.147949205284967,-0.0315233681821746,0.966947979635137,-0.0114059134104288,-0.191437,-29.493042
11.185,2.0,1.0,1.0,34.2,34.3,34.3,3.9,3.7,2.69,0.13569928412028762,-0.03216459933458975,0.9682381984097642,-0.012116986236746938,-0.195878,-29.276094
11.185,2.0,1.0,1.0,34.2,34.3,34.3,3.9,3.7,2.6925,0.12331386178089983,-0.03282312365038028,0.9693682357435787,-0.012864368725229997,-0.200507,-29.055815
11.185,2.0,1.0,1.0,34.2,34.3,34.3,3.9,3.7,2.695,0.11079195794960545,-0.03349961780648841,0.9703322171659596,-0.01365041917254289,-0.205338,-28.832069
11.185,2.0,1.0,1.0,34.2,34.3,34.3,3.9,3.7,2.6975,0.09813260469503114,-0.03419479012965546,0.9711239764444952,-0.014477698714125034,-0.210385,-28.604712
11.185,2.0,1.0,1.0,34.2,34.3,34.3,3.9,3.7,2.7,0.08533484813771519,-0.03490938134209217,0.9717370314272986,-0.015348993375230179,-0.215662,-28.37359
11.185,2.0,1.0,1.0,34.2,34.3,34.3,3.9,3.7,2.7025,0.07239775045604871,-0.03564416503981624,0.9721645569176467,-0.01626733901439127,-0.221185,-28.13854
11.185,2.0,1.0,1.0,34.2,34.3,34.3,3.9,3.7,2.705,0.05932039233154365,-0.03639994780312958,0.9723993541276537,-0.017236049602665386,-0.226974,-27.899391
11.185,2.0,1.0,1.0,34.2,34.3,34.3,3.9,3.7,2.7075,0.0461018759613645,-0.03717756880968988,0.9724338161781013,-0.018258749359708656,-0.233049,-27.655957
11.185,2.0,1.0,1.0,34.2,34.3,34.3,3.9,3.7,2.71,0.032741328803040794,-0.03797789878333784,0.9722598890160413,-0.019339409360715838,-0.23943,-27.408044
11.185,2.0,1.0,1.0,34.2,34.3,34.3,3.9,3.7,2.7125,0.019237908263627635,-0.038801838063824555,0.9718690270073768,-0.020482389339877765,-0.246144,-27.155442
11.185,2.0,1.0,1.0,34.2,34.3,34.3,3.9,3.7,2.715,0.005590807607223805,-0.03965031352058615,0.9712521423236115,-0.021692485550370597,-0.253216,-26.89793
11.185,2.0,1.0,1.0,34.2,34.3,34.3,3.9,3.7,2.7175,-0.00820073656562255,-0.04052427395345472,0.9703995470754954,-0.02297498570311293,-0.260678,-26.635269
11.185,2.0,1.0,1.0,34.2,34.3,34.3,3.9,3.7,2.72,-0.02213743480921271,-0.04142468351894536,0.9693008869445253,-0.024335732202947647,-0.268563,-26.367205
11.185,2.0,1.0,1.0,34.2,34.3,34.3,3.9,3.7,2.7225,-0.03621993270195152,-0.042352512584915694,0.967945064818257,-0.025781195139444775,-0.276909,-26.093465
11.185,2.0,1.0,1.0,34.2,34.3,34.3,3.9,3.7,2.725,-0.050448795323237705,-0.043308725238685494,0.9663201526368664,-0.027318556780015366,-0.285758,-25.813757
11.185,2.0,1.0,1.0,34.2,34.3,34.3,3.9,3.7,2.7275,-0.06482448733441304,-0.04429426244037128,0.9644132892936914,-0.028955809667826758,-0.295159,-25.527767
11.185,2.0,1.0,1.0,34.2,34.3,34.3,3.9,3.7,2.73,-0.07934734735191333,-0.045310019505438365,0.962210561985718,-0.03070187086146159,-0.305164,-25.235158
11.185,2.0,1.0,1.0,34.2,34.3,34.3,3.9,3.7,2.7325,-0.09401755489205797,-0.04635681619281766,0.9596968678612051,-0.03256671538664348,-0.315837,-24.935565
11.185,2.0,1.0,1.0,34.2,34.3,34.3,3.9,3.7,2.735,-0.1088350876220858,-0.047435357132313706,0.9568557521361106,-0.0345615326266312,-0.327245,-24.628596
11.185,2.0,1.0,1.0,34.2,34.3,34.3,3.9,3.7,2.7375,-0.12379966592246536,-0.04854617959910637,0.9536692180175974,-0.03669891018695194,-0.339469,-24.313828
11.185,2.0,1.0,1.0,34.2,34.3,34.3,3.9,3.7,2.74,-0.13891068078307217,-0.04968958466684415,0.9501175027433394,-0.038993050768974594,-0.352599,-23.990801
11.185,2.0,1.0,1.0,34.2,34.3,34.3,3.9,3.7,2.7425,-0.15416709972587575,-0.0508655464503971,0.9461788127722478,-0.041460028820844264,-0.366742,-23.65902
11.185,2.0,1.0,1.0,34.2,34.3,34.3,3.9,3.7,2.745,-0.16956734363547155,-0.052073592352983804,0.9418290095880589,-0.04411809525849245,-0.382017,-23.317944
11.185,2.0,1.0,1.0,34.2,34.3,34.3,3.9,3.7,2.7475,-0.1851091248973448,-0.05331264477359163,0.9370412356335934,-0.046988040429029695,-0.398568,-22.966988
11.185,2.0,1.0,1.0,34.2,34.3,34.3,3.9,3.7,2.75,-0.200789233821928,-0.0545808113435373,0.931785467501257,-0.0500936277983263,-0.416557,-22.605514
11.185,2.0,1.0,1.0,34.2,34.3,34.3,3.9,3.7,2.7525,-0.21660325558370613,-0.055875106064368414,0.9260279805792668,-0.0534621136638584,-0.436179,-22.232825
11.185,2.0,1.0,1.0,34.2,34.3,34.3,3.9,3.7,2.755,-0.23254519326828285,-0.05719107716230776,0.9197307058103725,-0.05712487159771611,-0.457663,-21.848162
11.185,2.0,1.0,1.0,34.2,34.3,34.3,3.9,3.7,2.7575,-0.24860696328267615,-0.05852230825649308,0.912850455003924,-0.06111814436002556,-0.481278,-21.450695
11.185,2.0,1.0,1.0,34.2,34.3,34.3,3.9,3.7,2.76,-0.26477771615223816,-0.05985974638816239,0.9053379862675444,-0.06548395066258597,-0.507349,-21.039515
11.185,2.0,1.0,1.0,34.2,34.3,34.3,3.9,3.7,2.7625,-0.2810429168458774,-0.061190791852951926,0.897136875767668,-0.07027117921386364,-0.536265,-20.613626
11.185,2.0,1.0,1.0,34.2,34.3,34.3,3.9,3.7,2.765,-0.2973830916424184,-0.06249805807285079,0.8881821567020826,-0.07553690740754058,-0.568498,-20.171938
11.185,2.0,1.0,1.0,34.2,34.3,34.3,3.9,3.7,2.7675,-0.31377210932041827,-0.06375767116484604,0.8783986822529152,-0.08134798562574859,-0.604622,-19.713257
11.185,2.0,1.0,1.0,34.2,34.3,34.3,3.9,3.7,2.77,-0.33017480739855115,-0.06493692281469113,0.8676991688611045,-0.08778292792122745,-0.645344,-19.236273
11.185,2.0,1.0,1.0,34.2,34.3,34.3,3.9,3.7,2.7725,-0.3465436908019155,-0.06599100827907634,0.855981884372242,-0.09493414086653824,-0.691541,-18.739562
11.185,2.0,1.0,1.0,34.2,34.3,34.3,3.9,3.7,2.775,-0.36281430826697775,-0.06685846172656894,0.8431279720894361,-0.10291049500919751,-0.744306,-18.22157
11.185,2.0,1.0,1.0,34.2,34.3,34.3,3.9,3.7,2.7775,-0.3788987332077426,-0.06745472638764737,0.8289984650278064,-0.11184017928741091,-0.805021,-17.680626
11.185,2.0,1.0,1.0,34.2,34.3,34.3,3.9,3.7,2.78,-0.3946763161602516,-0.0676630434418214,0.8134311798555814,-0.12187364314218355,-0.875443,-17.114943
11.185,2.0,1.0,1.0,34.2,34.3,34.3,3.9,3.7,2.7825,-0.40998050457246776,-0.06732148175924371,0.7962379534768432,-0.13318615840290485,-0.957829,-16.522655
11.185,2.0,1.0,1.0,34.2,34.3,34.3,3.9,3.7,2.785,-0.4245800122329296,-0.06620443203656054,0.7772032211460265,-0.14597900101250078,-1.055106,-15.901869
11.185,2.0,1.0,1.0,34.2,34.3,34.3,3.9,3.7,2.7875,-0.4381519595679381,-0.06399625063271751,0.7560859627895422,-0.16047723591709767,-1.171096,-15.25078
11.185,2.0,1.0,1.0,34.2,34.3,34.3,3.9,3.7,2.79,-0.4502438891701264,-0.06025405514719868,0.7326289772490713,-0.17692018189209913,-1.310825,-14.567852
11.185,2.0,1.0,1.0,34.2,34.3,34.3,3.9,3.7,2.7925,-0.4602211684594813,-0.054356326627097835,0.706582992212729,-0.1955371436493671,-1.480919,-13.852147
11.185,2.0,1.0,1.0,34.2,34.3,34.3,3.9,3.7,2.795,-0.4671973588506381,-0.04543508949718228,0.6777593790818286,-0.21649485960532838,-1.690066,-13.10386
11.185,2.0,1.0,1.0,34.2,34.3,34.3,3.9,3.7,2.7975,-0.46995059003906775,-0.03229491362682431,0.6461355063994058,-0.23979309027447837,-1.949448,-12.325199
11.185,2.0,1.0,1.0,34.2,34.3,34.3,3.9,3.7,2.8,-0.46684554070557804,-0.013338406444905295,0.6120510778381789,-0.26507089259232663,-2.272741,-11.521776
11.185,2.0,1.0,1.0,34.2,34.3,34.3,3.9,3.7,2.8025,-0.45582127411127676,0.013442083023281965,0.576545647736309,-0.29127492751973405,-2.674632,-10.704698
11.185,2.0,1.0,1.0,34.2,34.3,34.3,3.9,3.7,2.805,-0.43458699868099654,0.050266651719312806,0.5418694358027485,-0.31615978211723605,-3.165132,-9.89345
11.185,2.0,1.0,1.0,34.2,34.3,34.3,3.9,3.7,2.8075,-0.4012846436348165,0.09891058731852824,0.5120782812692058,-0.3357106763682744,-3.733994,-9.119172
11.185,2.0,1.0,1.0,34.2,34.3,34.3,3.9,3.7,2.81,-0.3559041722784322,0.1593114287603038,0.4932855122842765,-0.3439112795122868,-4.318002,-8.42679
11.185,2.0,1.0,1.0,34.2,34.3,34.3,3.9,3.7,2.8125,-0.302295191887069,0.227604049751113,0.492638805342473,-0.33377033371815,-4.761555,-7.872632
11.185,2.0,1.0,1.0,34.2,34.3,34.3,3.9,3.7,2.815,-0.24935050704491388,0.2949919412786089,0.5151766022574213,-0.3004221728866105,-4.846792,-7.513556
11.185,2.0,1.0,1.0,34.2,34.3,34.3,3.9,3.7,2.8175,-0.20893523300162264,0.34982564161916435,0.5597140461085927,-0.24514547533781367,-4.474124,-7.387983
11.185,2.0,1.0,1.0,34.2,34.3,34.3,3.9,3.7,2.82,-0.19034716655535303,0.3830568893873293,0.6176579774779162,-0.17646759376205545,-3.791008,-7.49889
11.185,2.0,1.0,1.0,34.2,34.3,34.3,3.9,3.7,2.8225,-0.1957124206830403,0.39271785742930837,0.6770547301209137,-0.10613889670222847,-3.039002,-7.812209
11.185,2.0,1.0,1.0,34.2,34.3,34.3,3.9,3.7,2.825,-0.22047894893294842,0.3833743121709212,0.7283622671133895,-0.04346807028687346,-2.372295,-8.272064
11.185,2.0,1.0,1.0,34.2,34.3,34.3,3.9,3.7,2.8275,-0.25742859769498483,0.36215612436333533,0.7670969371909989,0.007234791927118038,-1.839529,-8.82035
