1,w,sub_t,h,l1,l2,l3,g1,g2,Freq,S11_re,S21_re,S11_img,S21_img,S11_dB,S21_dB
11.185,2.0,1.0,1.0,34.4,34.5,34.5,3.1,1.9,2.5,0.716027236280054,-0.0166227465871709,0.685756153870514,0.0093444776922031,-0.074657,-34.393344
11.185,2.0,1.0,1.0,34.4,34.5,34.5,3.1,1.9,2.5025,0.710457080219036,-0.016954744334471524,0.6913760215869932,0.00934074516278095,-0.075569,-34.263014
11.185,2.0,1.0,1.0,34.4,34.5,34.5,3.1,1.9,2.505,0.7048109299428658,-0.017293410750216474,0.696979749680938,0.00933411535376361,-0.076501,-34.132015
11.185,2.0,1.0,1.0,34.4,34.5,34.5,3.1,1.9,2.5075,0.6990879581811131,-0.01763890856161093,0.7025666212030249,0.009324460822776265,-0.077453,-34.000333
11.185,2.0,1.0,1.0,34.4,34.5,34.5,3.1,1.9,2.51,0.6932873254900722,-0.017991405572964244,0.7081358974129807,0.00931164850789367,-0.078426,-33.867953
11.185,2.0,1.0,1.0,34.4,34.5,34.5,3.1,1.9,2.5125,0.6874081800767621,-0.01835107486324614,0.7136868170508233,0.00929553944488521,-0.079421,-33.734862
11.185,2.0,1.0,1.0,34.4,34.5,34.5,3.1,1.9,2.515,0.6814496576199061,-0.01871809499297618,0.719218595579895,0.0092759884679108,-0.080438,-33.601043
11.185,2.0,1.0,1.0,34.4,34.5,34.5,3.1,1.9,2.5175,0.6754108810877453,-0.0190926502209639,0.724730424400276,0.009252843892543062,-0.081477,-33.466481
11.185,2.0,1.0,1.0,34.4,34.5,34.5,3.1,1.9,2.52,0.6692909605524946,-0.019474930731451887,0.7302214700311176,0.009225947179903405,-0.082541,-33.331162
11.185,2.0,1.0,1.0,34.4,34.5,34.5,3.1,1.9,2.5225,0.6630889930012756,-0.01986513287224481,0.7356908732602817,0.009195132580604885,-0.083628,-33.195068
11.185,2.0,1.0,1.0,34.4,34.5,34.5,3.1,1.9,2.525,0.6568040621432927,-0.02026345940444907,0.7411377482596209,0.009160226757089931,-0.084741,-33.058183
11.185,2.0,1.0,1.0,34.4,34.5,34.5,3.1,1.9,2.5275,0.6504352382130332,-0.02067011976448414,0.7465611816640828,0.009121048382838472,-0.08588,-32.92049
11.185,2.0,1.0,1.0,34.4,34.5,34.5,3.1,1.9,2.53,0.6439815777692348,-0.021085330339070337,0.7519602316126981,0.00907740771679797,-0.087046,-32.781972
11.185,2.0,1.0,1.0,34.4,34.5,34.5,3.1,1.9,2.5325,0.6374421234893429,-0.021509314753942764,0.7573339267493934,0.00902910615125231,-0.088239,-32.642611
11.185,2.0,1.0,1.0,34.4,34.5,34.5,3.1,1.9,2.535,0.630815903959142,-0.021942304177090116,0.7626812651813997,0.008975935731198972,-0.089462,-32.502389
11.185,2.0,1.0,1.0,34.4,34.5,34.5,3.1,1.9,2.5375,0.6241019334572366,-0.022384537637367186,0.7680012133928733,0.008917678643142999,-0.090713,-32.361286
11.185,2.0,1.0,1.0,34.4,34.5,34.5,3.1,1.9,2.54,0.6172992117340003,-0.022836262359387138,0.7732927051111702,0.008854106671039752,-0.091996,-32.219283
11.185,2.0,1.0,1.0,34.4,34.5,34.5,3.1,1.9,2.5425,0.6104067237845883,-0.02329773411565727,0.7785546401230148,0.008784980616925434,-0.09331,-32.076361
11.185,2.0,1.0,1.0,34.4,34.5,34.5,3.1,1.9,2.545,0.60342343961557,-0.023769217596985335,0.7837858830375972,0.008710049683562756,-0.094657,-31.932499
11.185,2.0,1.0,1.0,34.4,34.5,34.5,3.1,1.9,2.5475,0.5963483140046983,-0.024250986802250366,0.7889852619933855,0.008629050816196821,-0.096038,-31.787677
11.185,2.0,1.0,1.0,34.4,34.5,34.5,3.1,1.9,2.55,0.5891802862532629,-0.02474332544870482,0.7941515673052155,0.008541708000261246,-0.097455,-31.641871
11.185,2.0,1.0,1.0,34.4,34.5,34.5,3.1,1.9,2.5525,0.5819182799304722,-0.025246527404050097,0.7992835500478889,0.008447731511594007,-0.098908,-31.495061
11.185,2.0,1.0,1.0,34.4,34.5,34.5,3.1,1.9,2.555,0.5745612026091964,-0.025760897141609722,0.8043799205722678,0.008346817115414455,-0.100398,-31.347224
11.185,2.0,1.0,1.0,34.4,34.5,34.5,3.1,1.9,2.5575,0.5671079455923907,-0.026286750220012388,0.8094393469494561,0.008238645209972712,-0.101928,-31.198335
11.185,2.0,1.0,1.0,34.4,34.5,34.5,3.1,1.9,2.56,0.5595573836294331,-0.026824413788887648,0.8144604533383187,0.008122879910408784,-0.103499,-31.04837
11.185,2.0,1.0,1.0,34.4,34.5,34.5,3.1,1.9,2.5625,0.5519083746215491,-0.02737422712217755,0.8194418182711675,0.007999168067945053,-0.105111,-30.897305
11.185,2.0,1.0,1.0,34.4,34.5,34.5,3.1,1.9,2.565,0.5441597593154136,-0.027936542180771465,0.8243819728519943,0.007867138219079754,-0.106768,-30.745114
11.185,2.0,1.0,1.0,34.4,34.5,34.5,3.1,1.9,2.5675,0.536310360983961,-0.028511724206282143,0.8292793988611222,0.007726399458944414,-0.10847,-30.59177
11.185,2.0,1.0,1.0,34.4,34.5,34.5,3.1,1.9,2.57,0.5283589850933235,-0.029100152347899137,0.8341325267595929,0.007576540232429936,-0.11022,-30.437245
11.185,2.0,1.0,1.0,34.4,34.5,34.5,3.1,1.9,2.5725,0.5203044189547427,-0.029702220324381304,0.8389397335860134,0.007417127036066667,-0.112019,-30.281512
11.185,2.0,1.0,1.0,34.4,34.5,34.5,3.1,1.9,2.575,0.5121454313602063,-0.0303183371233794,0.8436993407378637,0.007247703022958667,-0.113869,-30.12454
11.185,2.0,1.0,1.0,34.4,34.5,34.5,3.1,1.9,2.5775,0.5038807722004445,-0.03094892774042015,0.8484096116285552,0.007067786502309097,-0.115772,-29.966301
11.185,2.0,1.0,1.0,34.4,34.5,34.5,3.1,1.9,2.58,0.49550917206383116,-0.03159443396002692,0.8530687492106517,0.00687686932422786,-0.117731,-29.806761
11.185,2.0,1.0,1.0,34.4,34.5,34.5,3.1,1.9,2.5825,0.4870293418145958,-0.032255315181606244,0.8576748933547652,0.006674415139568826,-0.119747,-29.64589
11.185,2.0,1.0,1.0,34.4,34.5,34.5,3.1,1.9,2.585,0.4784399721486621,-0.032932049292883805,0.8622261180725549,0.006459857523494756,-0.121824,-29.483653
11.185,2.0,1.0,1.0,34.4,34.5,34.5,3.1,1.9,2.5875,0.4697397331252744,-0.03362513359384176,0.8667204285711388,0.0062325979502957886,-0.123964,-29.320017
11.185,2.0,1.0,1.0,34.4,34.5,34.5,3.1,1.9,2.59,0.4609272736724746,-0.03433508577427398,0.8711557581248943,0.005992003605679266,-0.12617,-29.154944
11.185,2.0,1.0,1.0,34.4,34.5,34.5,3.1,1.9,2.5925,0.4520012210643323,-0.03506244494824956,0.8755299647491809,0.005737405021285553,-0.128444,-28.988399
11.185,2.0,1.0,1.0,34.4,34.5,34.5,3.1,1.9,2.595,0.4429601803677327,-0.035807772748947024,0.879840827658907,0.005468093514547117,-0.130789,-28.820342
11.185,2.0,1.0,1.0,34.4,34.5,34.5,3.1,1.9,2.5975,0.4338027338563554,-0.03657165448749728,0.8840860434930126,0.005183318415170225,-0.13321,-28.650733
11.185,2.0,1.0,1.0,34.4,34.5,34.5,3.1,1.9,2.6,0.42452744038938806,-0.037354700379638346,0.8882632222839046,0.004882284057459792,-0.135709,-28.479532
11.185,2.0,1.0,1.0,34.4,34.5,34.5,3.1,1.9,2.6025,0.41513283475238666,-0.03815754684414962,0.8923698831485771,0.004564146515389303,-0.13829,-28.306695
11.185,2.0,1.0,1.0,34.4,34.5,34.5,3.1,1.9,2.605,0.40561742695757813,-0.03898085787718085,0.8964034496755516,0.004228010054711449,-0.140956,-28.132178
11.185,2.0,1.0,1.0,34.4,34.5,34.5,3.1,1.9,2.6075,0.3959797015008422,-0.03982532650671966,0.9003612449788403,0.00387292327346573,-0.143713,-27.955934
11.185,2.0,1.0,1.0,34.4,34.5,34.5,3.1,1.9,2.61,0.3862181165725307,-0.04069167633154443,0.9042404863868432,0.003497874898923449,-0.146565,-27.777915
11.185,2.0,1.0,1.0,34.4,34.5,34.5,3.1,1.9,2.6125,0.37633110321927143,-0.041580663149071335,0.9080382797303441,0.0031017892052611173,-0.149516,-27.598072
11.185,2.0,1.0,1.0,34.4,34.5,34.5,3.1,1.9,2.615,0.3663170644539351,-0.04249307667651941,0.9117516131895489,0.0026835210120097924,-0.152571,-27.416351
11.185,2.0,1.0,1.0,34.4,34.5,34.5,3.1,1.9,2.6175,0.3561743743110573,-0.04342974236975803,0.9153773506552908,0.00224185021851937,-0.155736,-27.232698
11.185,2.0,1.0,1.0,34.4,34.5,34.5,3.1,1.9,2.62,0.34590137684516825,-0.04439152334406042,0.9189122245541103,0.0017754758242141053,-0.159016,-27.047057
11.185,2.0,1.0,1.0,34.4,34.5,34.5,3.1,1.9,2.6225,0.3354963850698177,-0.045379322400726375,0.9223528280806711,0.0012830093782066224,-0.162418,-26.85937
11.185,2.0,1.0,1.0,34.4,34.5,34.5,3.1,1.9,2.625,0.324957679835519,-0.0463940841631286,0.925695606773955,0.000762967794766783,-0.165948,-26.669573
11.185,2.0,1.0,1.0,34.4,34.5,34.5,3.1,1.9,2.6275,0.31428350864546634,-0.04743679732514493,0.9289368493655711,0.00021376546307293203,-0.169614,-26.477605
11.185,2.0,1.0,1.0,34.4,34.5,34.5,3.1,1.9,2.63,0.30347208440877976,-0.04850849701410026,0.9320726778193258,-0.0003662944295429932,-0.173422,-26.283396
11.185,2.0,1.0,1.0,34.4,34.5,34.5,3.1,1.9,2.6325,0.2925215841321845,-0.0496102672692037,0.9350990364706353,-0.0009790294521946682,-0.177382,-26.086878
11.185,2.0,1.0,1.0,34.4,34.5,34.5,3.1,1.9,2.635,0.28143014755263435,-0.05074324363494074,0.9380116801622443,-0.0016263884663163264,-0.181502,-25.887976
11.185,2.0,1.0,1.0,34.4,34.5,34.5,3.1,1.9,2.6375,0.27019587571540266,-0.051908615866870546,0.9408061612588215,-0.0023104632601336425,-0.185792,-25.686615
11.185,2.0,1.0,1.0,34.4,34.5,34.5,3.1,1.9,2.64,0.2588168295048269,-0.053107630744658824,0.9434778154069972,-0.0030335014150298977,-0.190261,-25.482715
11.185,2.0,1.0,1.0,34.4,34.5,34.5,3.1,1.9,2.6425,0.2472910281383578,-0.054341594983781064,0.9460217458889191,-0.0037979205555182054,-0.194921,-25.276191
11.185,2.0,1.0,1.0,34.4,34.5,34.5,3.1,1.9,2.645,0.2356164476389007,-0.05561187823297293,0.9484328063961394,-0.004606324155793597,-0.199785,-25.066954
11.185,2.0,1.0,1.0,34.4,34.5,34.5,3.1,1.9,2.6475,0.22379101930611173,-0.05691991613892,0.9507055820259308,-0.00546151910042706,-0.204864,-24.854914
11.185,2.0,1.0,1.0,34.4,34.5,34.5,3.1,1.9,2.65,0.2118126282143919,-0.05826721345256663,0.9528343682735679,-0.0063665352252638,-0.210174,-24.639973
11.185,2.0,1.0,1.0,34.4,34.5,34.5,3.1,1.9,2.6525,0.19967911177450146,-0.05965534714236156,0.9548131477608952,-0.007324647097666471,-0.21573,-24.422029
11.185,2.0,1.0,1.0,34.4,34.5,34.5,3.1,1.9,2.655,0.18738825840710924,-0.06108596946827849,0.9566355644028753,-0.008339398333733228,-0.221548,-24.200974
11.185,2.0,1.0,1.0,34.4,34.5,34.5,3.1,1.9,2.6575,0.17493780639133455,-0.0625608109558675,0.9582948946687581,-0.009414628794961863,-0.227648,-23.976697
11.185,2.0,1.0,1.0,34.4,34.5,34.5,3.1,1.9,2.66,0.16232544296969798,-0.06408168319113797,0.9597840155419527,-0.010554505059197444,-0.234048,-23.749079
11.185,2.0,1.0,1.0,34.4,34.5,34.5,3.1,1.9,2.6625,0.14954880381445898,-0.06565048133368162,0.9610953687210744,-0.011763554621953323,-0.240771,-23.517994
11.185,2.0,1.0,1.0,34.4,34.5,34.5,3.1,1.9,2.665,0.13660547298984843,-0.0672691862158152,0.9622209205325789,-0.01304670435599121,-0.247842,-23.283311
11.185,2.0,1.0,1.0,34.4,34.5,34.5,3.1,1.9,2.6675,0.12349298358247594,-0.06893986585794548,0.9631521169405763,-0.014409323841338044,-0.255286,-23.044891
11.185,2.0,1.0,1.0,34.4,34.5,34.5,3.1,1.9,2.67,0.11020881921982338,-0.07066467618269594,0.9638798329397799,-0.01585727427708846,-0.263133,-22.802587
11.185,2.0,1.0,1.0,34.4,34.5,34.5,3.1,1.9,2.6725,0.09675041675743763,-0.07244586064976175,0.9643943155000185,-0.01739696380319642,-0.271416,-22.556243
11.185,2.0,1.0,1.0,34.4,34.5,34.5,3.1,1.9,2.675,0.08311517049267393,-0.07428574845640157,0.9646851190919817,-0.01903541019840428,-0.280169,-22.305696
11.185,2.0,1.0,1.0,34.4,34.5,34.5,3.1,1.9,2.6775,0.06930043836115014,-0.07618675085025471,0.9647410326598533,-0.020780312083553815,-0.289433,-22.05077
11.185,2.0,1.0,1.0,34.4,34.5,34.5,3.1,1.9,2.68,0.05530355069784841,-0.07815135497574233,0.9645499967121367,-0.022640129952638643,-0.299251,-21.791282
11.185,2.0,1.0,1.0,34.4,34.5,34.5,3.1,1.9,2.6825,0.04112182230562878,-0.08018211451476392,0.9640990089716467,-0.024624178582903215,-0.309673,-21.527037
11.185,2.0,1.0,1.0,34.4,34.5,34.5,3.1,1.9,2.685,0.026752568780408235,-0.0822816361764346,0.963374016752125,-0.026742732647025782,-0.320754,-21.257826
11.185,2.0,1.0,1.0,34.4,34.5,34.5,3.1,1.9,2.6875,0.012193128307856791,-0.0844525608256501,0.9623597939040848,-0.029007147673148624,-0.332553,-20.983429
11.185,2.0,1.0,1.0,34.4,34.5,34.5,3.1,1.9,2.69,-0.0025591095108011973,-0.08669753769849325,0.9610397997864134,-0.031429998881972045,-0.345142,-20.70361
11.185,2.0,1.0,1.0,34.4,34.5,34.5,3.1,1.9,2.6925,-0.017506665802943813,-0.08901918971031507,0.959396017261585,-0.034025240885659024,-0.358596,-20.418121
11.185,2.0,1.0,1.0,34.4,34.5,34.5,3.1,1.9,2.695,-0.03265192296195077,-0.09142006728842102,0.9574087661676733,-0.03680839177397725,-0.373004,-20.126696
11.185,2.0,1.0,1.0,34.4,34.5,34.5,3.1,1.9,2.6975,-0.047997060251647315,-0.09390258741402872,0.9550564880749793,-0.039796745753790594,-0.388464,-19.82905
11.185,2.0,1.0,1.0,34.4,34.5,34.5,3.1,1.9,2.7,-0.06354397017179082,-0.0964689535817689,0.952315497372286,-0.04300961926488898,-0.40509,-19.524881
11.185,2.0,1.0,1.0,34.4,34.5,34.5,3.1,1.9,2.7025,-0.07929414999401692,-0.0991210511047848,0.9491596928305501,-0.046468636385239404,-0.423009,-19.213867
11.185,2.0,1.0,1.0,34.4,34.5,34.5,3.1,1.9,2.705,-0.09524856118667473,-0.10186031050875893,0.9455602227435811,-0.050198060378150035,-0.44237,-18.895663
11.185,2.0,1.0,1.0,34.4,34.5,34.5,3.1,1.9,2.7075,-0.11140744721345903,-0.1046875295330453,0.9414850955332715,-0.05422517943514944,-0.463341,-18.569899
11.185,2.0,1.0,1.0,34.4,34.5,34.5,3.1,1.9,2.71,-0.1277700972291044,-0.10760264130724959,0.9368987263267492,-0.05858075603535961,-0.486118,-18.236183
11.185,2.0,1.0,1.0,34.4,34.5,34.5,3.1,1.9,2.7125,-0.14433453925460968,-0.11060441234680536,0.9317614084778664,-0.06329955086118436,-0.510925,-17.894095
11.185,2.0,1.0,1.0,34.4,34.5,34.5,3.1,1.9,2.715,-0.1610971411513748,-0.11369004877051346,0.9260286973609705,-0.06842093383518075,-0.538026,-17.543183
11.185,2.0,1.0,1.0,34.4,34.5,34.5,3.1,1.9,2.7175,-0.17805209066180475,-0.11685468212211866,0.919650692113895,-0.0739895964708011,-0.567727,-17.182969
11.185,2.0,1.0,1.0,34.4,34.5,34.5,3.1,1.9,2.72,-0.1951907163059765,-0.12009069674345886,0.9125711995508761,-0.08005638115833692,-0.600389,-16.812941
11.185,2.0,1.0,1.0,34.4,34.5,34.5,3.1,1.9,2.7225,-0.21250059815364253,-0.12338684793667674,0.9047267635735536,-0.08667924386812251,-0.636436,-16.432553
11.185,2.0,1.0,1.0,34.4,34.5,34.5,3.1,1.9,2.725,-0.22996440025206105,-0.126727102999207,0.8960455437275259,-0.09392436639787458,-0.676372,-16.041227
11.185,2.0,1.0,1.0,34.4,34.5,34.5,3.1,1.9,2.7275,-0.24755833320301174,-0.13008911404687185,0.8864460291961346,-0.10186743160919191,-0.720798,-15.638349
11.185,2.0,1.0,1.0,34.4,34.5,34.5,3.1,1.9,2.73,-0.2652501239471311,-0.13344220027306017,0.8758355813706221,-0.11059506821531619,-0.770434,-15.223277
11.185,2.0,1.0,1.0,34.4,34.5,34.5,3.1,1.9,2.7325,-0.28299632750829307,-0.1367446752225473,0.8641088123219133,-0.12020645747202753,-0.826148,-14.795335
11.185,2.0,1.0,1.0,34.4,34.5,34.5,3.1,1.9,2.735,-0.3007387588751797,-0.1399402984157181,0.8511458332105976,-0.13081506741637094,-0.888994,-14.353828
11.185,2.0,1.0,1.0,34.4,34.5,34.5,3.1,1.9,2.7375,-0.31839974840146407,-0.1429535563307176,0.8368104544208946,-0.14255043261265538,-0.96026,-13.898048
11.185,2.0,1.0,1.0,34.4,34.5,34.5,3.1,1.9,2.74,-0.3358758271523248,-0.14568338145034818,0.8209485018471848,-0.15555981490286921,-1.041528,-13.427289
11.185,2.0,1.0,1.0,34.4,34.5,34.5,3.1,1.9,2.7425,-0.35302932714046853,-0.14799479749788214,0.8033865536116698,-0.17000944120584757,-1.134756,-12.940878
11.185,2.0,1.0,1.0,34.4,34.5,34.5,3.1,1.9,2.745,-0.36967723821853354,-0.1497078370312109,0.7839316339436689,-0.1860847827457303,-1.242386,-12.438206
11.185,2.0,1.0,1.0,34.4,34.5,34.5,3.1,1.9,2.7475,-0.3855765144791213,-0.15058293024654448,0.762372780848271,-0.2039889616692315,-1.367476,-11.918788
11.185,2.0,1.0,1.0,34.4,34.5,34.5,3.1,1.9,2.75,-0.400404913603049,-0.150301856392988,0.738486013313854,-0.223937764549783,-1.513887,-11.38234
11.185,2.0,1.0,1.0,34.4,34.5,34.5,3.1,1.9,2.7525,-0.4137364887572952,-0.14844338746856608,0.7120451761053365,-0.24614879462359415,-1.68651,-10.828903
11.185,2.0,1.0,1.0,34.4,34.5,34.5,3.1,1.9,2.755,-0.42501125925627375,-0.1444531620320571,0.6828425741376252,-0.27082086850466414,-1.891571,-10.259
11.185,2.0,1.0,1.0,34.4,34.5,34.5,3.1,1.9,2.7575,-0.4334998050621699,-0.13760854504527345,0.650725338700294,-0.2980977455869957,-2.13699,-9.673878
11.185,2.0,1.0,1.0,34.4,34.5,34.5,3.1,1.9,2.76,-0.43826636259400287,-0.12698205501536705,0.615656032672108,-0.328007732935345,-2.432804,-9.075829
11.185,2.0,1.0,1.0,34.4,34.5,34.5,3.1,1.9,2.7625,-0.43813974532010486,-0.11141266462180216,0.5778084804406853,-0.36036825668845646,-2.791554,-8.468621
11.185,2.0,1.0,1.0,34.4,34.5,34.5,3.1,1.9,2.765,-0.43171179060079257,-0.08950461023266457,0.537710214372638,-0.3946441144489979,-3.228428,-7.858053
11.185,2.0,1.0,1.0,34.4,34.5,34.5,3.1,1.9,2.7675,-0.4173992532727795,-0.05968946907513873,0.49643655951151205,-0.4297545068956379,-3.76057,-7.252609
11.185,2.0,1.0,1.0,34.4,34.5,34.5,3.1,1.9,2.77,-0.3936247357053953,-0.020406775012052854,0.455839475845028,-0.46384579807091536,-4.404165,-6.66413
11.185,2.0,1.0,1.0,34.4,34.5,34.5,3.1,1.9,2.7725,-0.3591825769646346,0.029531414568606924,0.418745572679273,-0.4940954497181191,-5.166125,-6.108296
11.185,2.0,1.0,1.0,34.4,34.5,34.5,3.1,1.9,2.775,-0.31382479153215975,0.09035749829529008,0.3889799685698954,-0.5166898387401253,-6.024225,-5.604575
11.185,2.0,1.0,1.0,34.4,34.5,34.5,3.1,1.9,2.7775,-0.2589835688153163,0.160630551119208,0.37100196382452644,-0.5271886553028751,-6.888504,-5.175122
11.185,2.0,1.0,1.0,34.4,34.5,34.5,3.1,1.9,2.78,-0.1983297031562097,0.23668337477199125,0.36898016670985534,-0.5214464420903763,-7.557698,-4.842249
11.185,2.0,1.0,1.0,34.4,34.5,34.5,3.1,1.9,2.7825,-0.13768011752000328,0.3127182972793742,0.3854173709046547,-0.4969800743433971,-7.759791,-4.624555
11.185,2.0,1.0,1.0,34.4,34.5,34.5,3.1,1.9,2.785,-0.08390382078729051,0.3818986941256894,0.41990370210909794,-0.45420572324701486,-7.366978,-4.53273
11.185,2.0,1.0,1.0,34.4,34.5,34.5,3.1,1.9,2.7875,-0.04308416920043551,0.4381772960108896,0.4688085792749649,-0.3967400657716776,-6.543563,-4.566746
11.185,2.0,1.0,1.0,34.4,34.5,34.5,3.1,1.9,2.79,-0.018850619531299996,0.4779522117717638,0.5262698289533515,-0.3304122416497632,-5.570262,-4.71584
11.185,2.0,1.0,1.0,34.4,34.5,34.5,3.1,1.9,2.7925,-0.011766797246324295,0.5006705999772747,0.5859558846559658,-0.26151023000225393,-4.640951,-4.961295
11.185,2.0,1.0,1.0,34.4,34.5,34.5,3.1,1.9,2.795,-0.019901484115313974,0.5082569924595997,0.6426269636826508,-0.195230314425458,-3.836658,-5.280631
11.185,2.0,1.0,1.0,34.4,34.5,34.5,3.1,1.9,2.7975,-0.039995018363079914,0.5039519621071732,0.6928770612280241,-0.134942384247492,-3.17243,-5.651485
11.185,2.0,1.0,1.0,34.4,34.5,34.5,3.1,1.9,2.8,-0.06854268088296159,0.4912353138468622,0.7350857681277332,-0.08224040050492025,-2.635643,-6.054159
11.185,2.0,1.0,1.0,34.4,34.5,34.5,3.1,1.9,2.8025,-0.1024627764172125,0.4731630550166284,0.7689555765471516,-0.03740382758644439,-2.205541,-6.472729
11.185,2.0,1.0,1.0,34.4,34.5,34.5,3.1,1.9,2.805,-0.1393563952930679,0.45211034046850723,0.7949830411998259,7.615119409385997e-05,-1.861401,-6.895111
11.185,2.0,1.0,1.0,34.4,34.5,34.5,3.1,1.9,2.8075,-0.17750762515483648,0.42977213237478074,0.8140406788572303,0.03108106375953334,-1.585334,-7.31258
11.185,2.0,1.0,1.0,34.4,34.5,34.5,3.1,1.9,2.81,-0.21576777909927822,0.4072788155139966,0.8271075772036058,0.05659763674369595,-1.362831,-7.719095
11.185,2.0,1.0,1.0,34.4,34.5,34.5,3.1,1.9,2.8125,-0.253413330017096,0.385337691575551,0.835121931821344,0.0775715316963115,-1.182463,-8.110645
11.185,2.0,1.0,1.0,34.4,34.5,34.5,3.1,1.9,2.815,-0.2900191684505325,0.36435907684991725,0.8389144234936153,0.09484140956209765,-1.035352,-8.484695
11.185,2.0,1.0,1.0,34.4,34.5,34.5,3.1,1.9,2.8175,-0.325359955229542,0.34455437869607036,0.839188232372346,0.1091193047207802,-0.914635,-8.839746
11.185,2.0,1.0,1.0,34.4,34.5,34.5,3.1,1.9,2.82,-0.3593389130574427,0.3260068468403408,0.8365227917410527,0.12099455309620649,-0.815006,-9.175013
11.185,2.0,1.0,1.0,34.4,34.5,34.5,3.1,1.9,2.8225,-0.3919387861631531,0.3087202635561858,0.8313877719456524,0.13094785802534817,-0.73235,-9.490191
11.185,2.0,1.0,1.0,34.4,34.5,34.5,3.1,1.9,2.825,-0.4231891421184801,0.2926513761812567,0.8241600623668053,0.1393683177361406,-0.663463,-9.785281
11.185,2.0,1.0,1.0,34.4,34.5,34.5,3.1,1.9,2.8275,-0.4531451079602471,0.2777309557246758,0.8151402552898731,0.14656995011653137,-0.605835,-10.060472
11.185,2.0,1.0,1.0,34.4,34.5,34.5,3.1,1.9,2.83,-0.48187384933819094,0.2638771520088288,0.8045671851952039,0.15280628585335831,-0.55749,-10.316062
