1,w,sub_t,h,l1,l2,l3,g1,g2,Freq,S11_re,S21_re,S11_img,S21_img,S11_dB,S21_dB
11.185,2.0,1.0,1.0,34.9,34.7,34.7,3.0,3.8,2.5,0.612631206247815,-0.0155699148761648,0.777935619883227,0.00425184544942435,-0.08552,-35.841915
11.185,2.0,1.0,1.0,34.9,34.7,34.7,3.0,3.8,2.5025,0.6055855864920647,-0.015855651789196987,0.7832742015806435,0.004168560301929,-0.086621,-35.706053
11.185,2.0,1.0,1.0,34.9,34.7,34.7,3.0,3.8,2.505,0.5984489378858734,-0.016146720230765955,0.7885791074234377,0.004080829923792516,-0.087747,-35.569409
11.185,2.0,1.0,1.0,34.9,34.7,34.7,3.0,3.8,2.5075,0.5912203554256252,-0.016443242818522004,0.7938491242141901,0.003988483011512633,-0.088901,-35.431965
11.185,2.0,1.0,1.0,34.9,34.7,34.7,3.0,3.8,2.51,0.583898925939792,-0.01674534590977267,0.799083003698158,0.0038913408642929134,-0.090082,-35.293703
11.185,2.0,1.0,1.0,34.9,34.7,34.7,3.0,3.8,2.5125,0.5764837281726957,-0.017053159753061955,0.8042794614564173,0.0037892170007537583,-0.091291,-35.154604
11.185,2.0,1.0,1.0,34.9,34.7,34.7,3.0,3.8,2.515,0.5689738328766524,-0.017366818647621973,0.8094371757575026,0.0036819167516174865,-0.092529,-35.014649
11.185,2.0,1.0,1.0,34.9,34.7,34.7,3.0,3.8,2.5175,0.5613683029127446,-0.01768646111118402,0.8145547863653778,0.0035692368265725903,-0.093798,-34.873818
11.185,2.0,1.0,1.0,34.9,34.7,34.7,3.0,3.8,2.52,0.553666193360455,-0.01801223005667022,0.8196308933014526,0.0034509648533643388,-0.095097,-34.732091
11.185,2.0,1.0,1.0,34.9,34.7,34.7,3.0,3.8,2.5225,0.5458665516364032,-0.018344272978322407,0.8246640555581385,0.0033268788869901846,-0.096429,-34.589446
11.185,2.0,1.0,1.0,34.9,34.7,34.7,3.0,3.8,2.525,0.5379684176223861,-0.018682742147863213,0.8296527897612878,0.0031967468866861254,-0.097794,-34.445862
11.185,2.0,1.0,1.0,34.9,34.7,34.7,3.0,3.8,2.5275,0.5299708238029355,-0.019027794821324703,0.834595568778616,0.0030603261581853484,-0.099193,-34.301317
11.185,2.0,1.0,1.0,34.9,34.7,34.7,3.0,3.8,2.53,0.5218727954125845,-0.01937959345722529,0.8394908202709884,0.002917362758500152,-0.100627,-34.155787
11.185,2.0,1.0,1.0,34.9,34.7,34.7,3.0,3.8,2.5325,0.5136733505930107,-0.01973830594681877,0.8443369251831685,0.0027675908602248812,-0.102098,-34.009249
11.185,2.0,1.0,1.0,34.9,34.7,34.7,3.0,3.8,2.535,0.5053715005602016,-0.0201041058571939,0.8491322161703849,0.0026107320720794155,-0.103607,-33.861677
11.185,2.0,1.0,1.0,34.9,34.7,34.7,3.0,3.8,2.5375,0.4969662497817879,-0.02047717268805071,0.8538749759566963,0.0024464947121042497,-0.105155,-33.713047
11.185,2.0,1.0,1.0,34.9,34.7,34.7,3.0,3.8,2.54,0.4884565961646253,-0.02085769214304104,0.8585634356208395,0.0022745730295758784,-0.106743,-33.563332
11.185,2.0,1.0,1.0,34.9,34.7,34.7,3.0,3.8,2.5425,0.4798415312527093,-0.021245856416616696,0.8631957728048115,0.0020946463713329786,-0.108374,-33.412505
11.185,2.0,1.0,1.0,34.9,34.7,34.7,3.0,3.8,2.545,0.47112004043545536,-0.02164186449739464,0.8677701098400427,0.0019063782877851308,-0.110047,-33.260538
11.185,2.0,1.0,1.0,34.9,34.7,34.7,3.0,3.8,2.5475,0.4622911031663562,-0.022045922489114887,0.8722845117854906,0.0017094155734087024,-0.111766,-33.107402
11.185,2.0,1.0,1.0,34.9,34.7,34.7,3.0,3.8,2.55,0.45335369319195645,-0.022458243950338404,0.8767369843715125,0.0015033872360165907,-0.113531,-32.953066
11.185,2.0,1.0,1.0,34.9,34.7,34.7,3.0,3.8,2.5525,0.4443067787910971,-0.022879050254105533,0.8811254718427076,0.0012879033885126183,-0.115344,-32.7975
11.185,2.0,1.0,1.0,34.9,34.7,34.7,3.0,3.8,2.555,0.4351493230242611,-0.023308570968855996,0.8854478546923104,0.0010625540561972943,-0.117208,-32.640671
11.185,2.0,1.0,1.0,34.9,34.7,34.7,3.0,3.8,2.5575,0.42588028399286215,-0.023747044261991986,0.8897019472799548,0.0008269078919762169,-0.119123,-32.482546
11.185,2.0,1.0,1.0,34.9,34.7,34.7,3.0,3.8,2.56,0.41649861510823494,-0.024194717327551192,0.8938854953237867,0.0005805107910201799,-0.121093,-32.32309
11.185,2.0,1.0,1.0,34.9,34.7,34.7,3.0,3.8,2.5625,0.40700326537002907,-0.024651846839543204,0.8979961732569827,0.0003228843955303313,-0.123119,-32.162266
11.185,2.0,1.0,1.0,34.9,34.7,34.7,3.0,3.8,2.565,0.39739317965364307,-0.025118699432595742,0.9020315814376919,5.352447925818554e-05,-0.125204,-32.000037
11.185,2.0,1.0,1.0,34.9,34.7,34.7,3.0,3.8,2.5675,0.3876672990063012,-0.025595552211643915,0.9059892432002469,-0.0002281007996947603,-0.12735,-31.836365
11.185,2.0,1.0,1.0,34.9,34.7,34.7,3.0,3.8,2.57,0.3778245609512664,-0.02608269329248947,0.9098666017341369,-0.0005225527905389069,-0.129559,-31.671208
11.185,2.0,1.0,1.0,34.9,34.7,34.7,3.0,3.8,2.5725,0.367863899799653,-0.026580422375146413,0.9136610167758138,-0.0008304244000807814,-0.131834,-31.504526
11.185,2.0,1.0,1.0,34.9,34.7,34.7,3.0,3.8,2.575,0.3577842469692316,-0.027089051351973092,0.9173697610966705,-0.0011523423173933703,-0.134178,-31.336272
11.185,2.0,1.0,1.0,34.9,34.7,34.7,3.0,3.8,2.5775,0.3475845313095636,-0.027608904952672392,0.920990016768657,-0.0014889694304415202,-0.136594,-31.166403
11.185,2.0,1.0,1.0,34.9,34.7,34.7,3.0,3.8,2.58,0.3372636794327561,-0.028140321428310088,0.9245188711868702,-0.001841007454271799,-0.139085,-30.99487
11.185,2.0,1.0,1.0,34.9,34.7,34.7,3.0,3.8,2.5825,0.32682061604908436,-0.028683653276556937,0.9279533128260237,-0.00220919979268618,-0.141654,-30.821624
11.185,2.0,1.0,1.0,34.9,34.7,34.7,3.0,3.8,2.585,0.3162542643067293,-0.029239268010396596,0.9312902267049252,-0.0025943346579312505,-0.144306,-30.646614
11.185,2.0,1.0,1.0,34.9,34.7,34.7,3.0,3.8,2.5875,0.3055635461348628,-0.029807548972548923,0.9345263895300173,-0.0029972484759071432,-0.147044,-30.469784
11.185,2.0,1.0,1.0,34.9,34.7,34.7,3.0,3.8,2.59,0.294747382589383,-0.030388896197831607,0.9376584644854322,-0.0034188296077724855,-0.149872,-30.291079
11.185,2.0,1.0,1.0,34.9,34.7,34.7,3.0,3.8,2.5925,0.28380469420065507,-0.030983727325608827,0.9406829956329698,-0.0038600224226667612,-0.152794,-30.110439
11.185,2.0,1.0,1.0,34.9,34.7,34.7,3.0,3.8,2.595,0.2727344013228064,-0.031592478564338444,0.9435964018807863,-0.0043218317606538124,-0.155815,-29.927803
11.185,2.0,1.0,1.0,34.9,34.7,34.7,3.0,3.8,2.5975,0.2615354244842926,-0.032215605710014805,0.9463949704742682,-0.004805327830002441,-0.15894,-29.743106
11.185,2.0,1.0,1.0,34.9,34.7,34.7,3.0,3.8,2.6,0.2502066847398247,-0.032853585219985375,0.9490748499565109,-0.005311651588653583,-0.162175,-29.556281
11.185,2.0,1.0,1.0,34.9,34.7,34.7,3.0,3.8,2.6025,0.23874710402418825,-0.03350691534316831,0.951632042538833,-0.0058420206663028695,-0.165525,-29.367257
11.185,2.0,1.0,1.0,34.9,34.7,34.7,3.0,3.8,2.605,0.22715560550909775,-0.03417611730708613,0.9540623958137502,-0.006397735891087258,-0.168995,-29.17596
11.185,2.0,1.0,1.0,34.9,34.7,34.7,3.0,3.8,2.6075,0.2154311139650788,-0.034861736561296576,0.9563615937336184,-0.006980188493568433,-0.172594,-28.98231
11.185,2.0,1.0,1.0,34.9,34.7,34.7,3.0,3.8,2.61,0.2035725561314856,-0.03556434407570797,0.95852514676744,-0.007590868070747277,-0.176328,-28.786228
11.185,2.0,1.0,1.0,34.9,34.7,34.7,3.0,3.8,2.6125,0.1915788610991971,-0.03628453769082343,0.9605483811360479,-0.008231371404454693,-0.180204,-28.587625
11.185,2.0,1.0,1.0,34.9,34.7,34.7,3.0,3.8,2.615,0.17944896071244382,-0.037022943515086545,0.9624264270115566,-0.008903412241913688,-0.18423,-28.386413
11.185,2.0,1.0,1.0,34.9,34.7,34.7,3.0,3.8,2.6175,0.16718178999868213,-0.03778021736207983,0.9641542055503394,-0.00960883216188279,-0.188417,-28.182494
11.185,2.0,1.0,1.0,34.9,34.7,34.7,3.0,3.8,2.62,0.15477628763858667,-0.0385570462172107,0.965726414609498,-0.010349612667963755,-0.192772,-27.97577
11.185,2.0,1.0,1.0,34.9,34.7,34.7,3.0,3.8,2.6225,0.1422313964922998,-0.039354149719525215,0.9671375129741865,-0.011127888671848343,-0.197308,-27.766134
11.185,2.0,1.0,1.0,34.9,34.7,34.7,3.0,3.8,2.625,0.129546064203338,-0.0401722816391749,0.968381702896772,-0.0119459635540498,-0.202035,-27.553473
11.185,2.0,1.0,1.0,34.9,34.7,34.7,3.0,3.8,2.6275,0.11671924390817554,-0.041012231324535645,0.9694529107179085,-0.012806326018697035,-0.206965,-27.337671
11.185,2.0,1.0,1.0,34.9,34.7,34.7,3.0,3.8,2.63,0.10374989508813699,-0.04187482508464094,0.9703447653032184,-0.013711668993062373,-0.212112,-27.118602
11.185,2.0,1.0,1.0,34.9,34.7,34.7,3.0,3.8,2.6325,0.09063698461112978,-0.04276092746196345,0.9710505739864848,-0.014664910862648253,-0.21749,-26.896133
11.185,2.0,1.0,1.0,34.9,34.7,34.7,3.0,3.8,2.635,0.07737948802471843,-0.04367144233701879,0.9715632956597062,-0.015669219380057015,-0.223117,-26.670126
11.185,2.0,1.0,1.0,34.9,34.7,34.7,3.0,3.8,2.6375,0.06397639117994974,-0.044607313788949714,0.9718755105904917,-0.016728038641975734,-0.229009,-26.440431
11.185,2.0,1.0,1.0,34.9,34.7,34.7,3.0,3.8,2.64,0.050426692288139806,-0.04556952661413629,0.9719793864762389,-0.017845119595196593,-0.235185,-26.20689
11.185,2.0,1.0,1.0,34.9,34.7,34.7,3.0,3.8,2.6425,0.03672940454224426,-0.046559106376565906,0.9718666401599386,-0.01902455461183166,-0.241668,-25.969337
11.185,2.0,1.0,1.0,34.9,34.7,34.7,3.0,3.8,2.645,0.02288355947199651,-0.047577118827431826,0.9715284943315364,-0.020270816768441408,-0.24848,-25.727593
11.185,2.0,1.0,1.0,34.9,34.7,34.7,3.0,3.8,2.6475,0.008888211250460413,-0.04862466848483759,0.9709556284179062,-0.02158880457695311,-0.255648,-25.481468
11.185,2.0,1.0,1.0,34.9,34.7,34.7,3.0,3.8,2.65,-0.005257557768025778,-0.04970289610452767,0.9701381227195263,-0.022983893051038685,-0.263201,-25.230761
11.185,2.0,1.0,1.0,34.9,34.7,34.7,3.0,3.8,2.6525,-0.01955462991779441,-0.05081297469516563,0.969065394677294,-0.024461992155046595,-0.27117,-24.975254
11.185,2.0,1.0,1.0,34.9,34.7,34.7,3.0,3.8,2.655,-0.03400384303459306,-0.051956103631529554,0.9677261259422206,-0.026029613879844104,-0.279592,-24.714718
11.185,2.0,1.0,1.0,34.9,34.7,34.7,3.0,3.8,2.6575,-0.04860597861011226,-0.05313350028892485,0.9661081786655228,-0.02769394942868143,-0.288506,-24.448906
11.185,2.0,1.0,1.0,34.9,34.7,34.7,3.0,3.8,2.66,-0.06336174651015006,-0.05434638845267003,0.9641984991168098,-0.029462958286033795,-0.297957,-24.177552
11.185,2.0,1.0,1.0,34.9,34.7,34.7,3.0,3.8,2.6625,-0.07827176524632254,-0.05559598253490855,0.9619830063607693,-0.031345471295190254,-0.307995,-23.900374
11.185,2.0,1.0,1.0,34.9,34.7,34.7,3.0,3.8,2.665,-0.09333653648646531,-0.05688346634004953,0.9594464632620993,-0.03335131030102394,-0.318678,-23.617066
11.185,2.0,1.0,1.0,34.9,34.7,34.7,3.0,3.8,2.6675,-0.10855641208654616,-0.05820996473650137,0.956572326524444,-0.03549142744139391,-0.330069,-23.3273
11.185,2.0,1.0,1.0,34.9,34.7,34.7,3.0,3.8,2.67,-0.12393155139374026,-0.05957650608423939,0.9533425717770134,-0.03777806781713189,-0.342241,-23.030723
11.185,2.0,1.0,1.0,34.9,34.7,34.7,3.0,3.8,2.6725,-0.1394618658600223,-0.060983972591492006,0.9497374888713244,-0.04022496006528391,-0.355278,-22.726953
11.185,2.0,1.0,1.0,34.9,34.7,34.7,3.0,3.8,2.675,-0.15514694705483237,-0.0624330348692739,0.9457354415017408,-0.042847540338869415,-0.369274,-22.415578
11.185,2.0,1.0,1.0,34.9,34.7,34.7,3.0,3.8,2.6775,-0.17098597288592954,-0.06392406573610748,0.9413125839696476,-0.04566321640283698,-0.384339,-22.096152
11.185,2.0,1.0,1.0,34.9,34.7,34.7,3.0,3.8,2.68,-0.18697758510605025,-0.06545702668039018,0.9364425263141133,-0.048691680043733386,-0.400598,-21.768192
11.185,2.0,1.0,1.0,34.9,34.7,34.7,3.0,3.8,2.6825,-0.20311972882620588,-0.0670313181505138,0.9310959370617525,-0.05195527782425341,-0.418198,-21.431172
11.185,2.0,1.0,1.0,34.9,34.7,34.7,3.0,3.8,2.685,-0.21940944152905167,-0.06864558178102682,0.9252400704228034,-0.055479452468653316,-0.437308,-21.084522
11.185,2.0,1.0,1.0,34.9,34.7,34.7,3.0,3.8,2.6875,-0.23584257462788916,-0.0702974384464172,0.9188382017861971,-0.059293269925392425,-0.458128,-20.72762
11.185,2.0,1.0,1.0,34.9,34.7,34.7,3.0,3.8,2.69,-0.2524134244470203,-0.07198314018877167,0.9118489517460753,-0.06343005050653938,-0.480891,-20.359789
11.185,2.0,1.0,1.0,34.9,34.7,34.7,3.0,3.8,2.6925,-0.2691142408829351,-0.07369710590801022,0.904225474538774,-0.06792812652458406,-0.505875,-19.980287
11.185,2.0,1.0,1.0,34.9,34.7,34.7,3.0,3.8,2.695,-0.2859345698902685,-0.07543129924080987,0.8959144816387574,-0.07283175356782892,-0.533408,-19.588306
11.185,2.0,1.0,1.0,34.9,34.7,34.7,3.0,3.8,2.6975,-0.30286036878282896,-0.0771743908364696,0.8868550654177079,-0.07819220790086197,-0.563886,-19.18296
11.185,2.0,1.0,1.0,34.9,34.7,34.7,3.0,3.8,2.7,-0.31987280888604125,-0.07891062413520014,0.8769772815103156,-0.08406910814444259,-0.597786,-18.763279
11.185,2.0,1.0,1.0,34.9,34.7,34.7,3.0,3.8,2.7025,-0.3369466449849877,-0.08061827062687371,0.8662004426238021,-0.09053200462009564,-0.635686,-18.328201
11.185,2.0,1.0,1.0,34.9,34.7,34.7,3.0,3.8,2.705,-0.35404798034323376,-0.08226751277651093,0.8544310726724608,-0.09766228288979344,-0.678295,-17.876562
11.185,2.0,1.0,1.0,34.9,34.7,34.7,3.0,3.8,2.7075,-0.37113118251909116,-0.08381752349500654,0.841560471783811,-0.10555542573411973,-0.726489,-17.40709
11.185,2.0,1.0,1.0,34.9,34.7,34.7,3.0,3.8,2.71,-0.3881345980295661,-0.08521241014351807,0.8274618567399324,-0.11432366354117766,-0.781359,-16.918401
11.185,2.0,1.0,1.0,34.9,34.7,34.7,3.0,3.8,2.7125,-0.4049745574828984,-0.08637554398724316,0.8119870809417177,-0.12409900425268143,-0.844274,-16.408991
11.185,2.0,1.0,1.0,34.9,34.7,34.7,3.0,3.8,2.715,-0.42153693497228,-0.08720158213502771,0.7949630280302128,-0.13503654680287164,-0.916975,-15.877246
11.185,2.0,1.0,1.0,34.9,34.7,34.7,3.0,3.8,2.7175,-0.43766519647778607,-0.08754518069635733,0.7761879610398785,-0.14731780156865704,-1.001693,-15.32145
11.185,2.0,1.0,1.0,34.9,34.7,34.7,3.0,3.8,2.72,-0.45314340586557655,-0.08720496226745564,0.755428482727586,-0.16115338399281368,-1.10132,-14.739824
11.185,2.0,1.0,1.0,34.9,34.7,34.7,3.0,3.8,2.7225,-0.4676720224821346,-0.08590071022443578,0.7324184864677155,-0.1767837582039834,-1.219645,-14.130592
11.185,2.0,1.0,1.0,34.9,34.7,34.7,3.0,3.8,2.725,-0.4808335306683518,-0.08324102895393506,0.706862850593107,-0.19447540338883804,-1.361682,-13.492094
11.185,2.0,1.0,1.0,34.9,34.7,34.7,3.0,3.8,2.7275,-0.4920441407575312,-0.0786779828796958,0.6784511851503421,-0.21450735584450983,-1.534134,-12.822993
11.185,2.0,1.0,1.0,34.9,34.7,34.7,3.0,3.8,2.73,-0.5004875499969221,-0.07144504437491746,0.6468915743602949,-0.23713870566453893,-1.746021,-12.122622
11.185,2.0,1.0,1.0,34.9,34.7,34.7,3.0,3.8,2.7325,-0.5050286357151199,-0.06047655460476802,0.611982302555732,-0.2625400620522326,-2.009517,-11.391549
11.185,2.0,1.0,1.0,34.9,34.7,34.7,3.0,3.8,2.735,-0.5041129337010498,-0.044314589529978035,0.5737523976182449,-0.2906599843856551,-2.340919,-10.6325
11.185,2.0,1.0,1.0,34.9,34.7,34.7,3.0,3.8,2.7375,-0.49568060272464,-0.021030893634413603,0.5327187949171517,-0.32098166935333766,-2.761434,-9.851791
11.185,2.0,1.0,1.0,34.9,34.7,34.7,3.0,3.8,2.74,-0.4771774250285663,0.011757524431891255,0.49031895798659547,-0.3521155126043465,-3.296512,-9.061457
11.185,2.0,1.0,1.0,34.9,34.7,34.7,3.0,3.8,2.7425,-0.4458487967042083,0.05660351765151032,0.4495449580472444,-0.3812055941389782,-3.969945,-8.282102
11.185,2.0,1.0,1.0,34.9,34.7,34.7,3.0,3.8,2.745,-0.39963697177004043,0.11537600153500396,0.41563452180215205,-0.40329082639697345,-4.782583,-7.545981
11.185,2.0,1.0,1.0,34.9,34.7,34.7,3.0,3.8,2.7475,-0.33898910676322247,0.1875563657995118,0.3962406176634433,-0.411170034294709,-5.655585,-6.898631
11.185,2.0,1.0,1.0,34.9,34.7,34.7,3.0,3.8,2.75,-0.269251217495861,0.268008761133227,0.399932019714727,-0.396845527966441,-6.336857,-6.395674
11.185,2.0,1.0,1.0,34.9,34.7,34.7,3.0,3.8,2.7525,-0.201762138181852,0.3460103699106198,0.4321845137470462,-0.35530446061953347,-6.43035,-6.091277
11.185,2.0,1.0,1.0,34.9,34.7,34.7,3.0,3.8,2.755,-0.15085941263712666,0.40812994004390907,0.49062371442129116,-0.2889389616759923,-5.792685,-6.019631
11.185,2.0,1.0,1.0,34.9,34.7,34.7,3.0,3.8,2.7575,-0.12711116183785134,0.44458253386474,0.5642276571583121,-0.2081962601796151,-4.755908,-6.179842
11.185,2.0,1.0,1.0,34.9,34.7,34.7,3.0,3.8,2.76,-0.1322938275708629,0.45385830056901805,0.6385897313920327,-0.1265815944819067,-3.713061,-6.53627
11.185,2.0,1.0,1.0,34.9,34.7,34.7,3.0,3.8,2.7625,-0.16049923450389417,0.44159858066254354,0.7026222516920815,-0.054402477692450484,-2.844663,-7.03403
11.185,2.0,1.0,1.0,34.9,34.7,34.7,3.0,3.8,2.765,-0.2029942852165287,0.4160193796022675,0.7513163891500342,0.0037514462430936904,-2.177546,-7.617376
11.185,2.0,1.0,1.0,34.9,34.7,34.7,3.0,3.8,2.7675,-0.2521469476605119,0.3842571681954903,0.7844848076497416,0.04778911397075176,-1.681337,-8.240901
11.185,2.0,1.0,1.0,34.9,34.7,34.7,3.0,3.8,2.77,-0.30281178326095115,0.3510996127072769,0.8043308080325552,0.07983257725909947,-1.315654,-8.87247
11.185,2.0,1.0,1.0,34.9,34.7,34.7,3.0,3.8,2.7725,-0.3520917649525444,0.31922510963631606,0.8136670837472522,0.10255496056326686,-1.045649,-9.49148
11.185,2.0,1.0,1.0,34.9,34.7,34.7,3.0,3.8,2.775,-0.3986219814624393,0.2898798489708559,0.8150543333908884,0.11838180893682682,-0.844878,-10.085764
11.185,2.0,1.0,1.0,34.9,34.7,34.7,3.0,3.8,2.7775,-0.44193246639054995,0.2634757148525656,0.8105329296178524,0.12924561219232422,-0.694239,-10.648764
11.185,2.0,1.0,1.0,34.9,34.7,34.7,3.0,3.8,2.78,-0.48202003981098845,0.23999064572050643,0.8016265531521338,0.13659270919032082,-0.580175,-11.177426
11.185,2.0,1.0,1.0,34.9,34.7,34.7,3.0,3.8,2.7825,-0.5190966891033076,0.2192032703709934,0.7894355409246608,0.14147268458596216,-0.493091,-11.670787
11.185,2.0,1.0,1.0,34.9,34.7,34.7,3.0,3.8,2.785,-0.5534535924903488,0.2008193151694638,0.7747406513090503,0.14463666418204538,-0.426159,-12.129069
11.185,2.0,1.0,1.0,34.9,34.7,34.7,3.0,3.8,2.7875,-0.5853926718494241,0.18453493914114988,0.7580905540089893,0.1466199251568132,-0.37448,-12.553117
11.185,2.0,1.0,1.0,34.9,34.7,34.7,3.0,3.8,2.79,-0.6151950552420089,0.17006565309854332,0.7398682712550785,0.14780458222415782,-0.3345,-12.944055
11.185,2.0,1.0,1.0,34.9,34.7,34.7,3.0,3.8,2.7925,-0.6431087523499505,0.1571573500474025,0.7203392363373965,0.14846497203758163,-0.303616,-13.303087
11.185,2.0,1.0,1.0,34.9,34.7,34.7,3.0,3.8,2.795,-0.6693458383964801,0.14558849025746284,0.6996852345594423,0.14879979933337226,-0.279901,-13.631373
11.185,2.0,1.0,1.0,34.9,34.7,34.7,3.0,3.8,2.7975,-0.6940840061215166,0.13516821698768153,0.6780280981718319,0.1489547110811514,-0.261913,-13.929961
11.185,2.0,1.0,1.0,34.9,34.7,34.7,3.0,3.8,2.8,-0.7174698432094022,0.12573284541385846,0.6554461568869104,0.14903813629760984,-0.248566,-14.199752
11.185,2.0,1.0,1.0,34.9,34.7,34.7,3.0,3.8,2.8025,-0.7396225236846267,0.11714192383560738,0.6319856187785319,0.1491324488922247,-0.239036,-14.441475
11.185,2.0,1.0,1.0,34.9,34.7,34.7,3.0,3.8,2.805,-0.7606372957899635,0.10927441660649675,0.6076684058635816,0.14930190009641436,-0.232696,-14.655683
11.185,2.0,1.0,1.0,34.9,34.7,34.7,3.0,3.8,2.8075,-0.7805885013599924,0.10202522566125317,0.5824974944500554,0.14959832392932554,-0.229069,-14.842744
11.185,2.0,1.0,1.0,34.9,34.7,34.7,3.0,3.8,2.81,-0.7995320331981355,0.09530210161846768,0.5564604765103375,0.15006530931231382,-0.227797,-15.002842
11.185,2.0,1.0,1.0,34.9,34.7,34.7,3.0,3.8,2.8125,-0.817507213153333,0.0890229155844302,0.529531826735831,0.15074131977504,-0.22861,-15.135975
11.185,2.0,1.0,1.0,34.9,34.7,34.7,3.0,3.8,2.815,-0.8345380995657603,0.08311322598953591,0.5016741995814622,0.1516620971077368,-0.231317,-15.241952
11.185,2.0,1.0,1.0,34.9,34.7,34.7,3.0,3.8,2.8175,-0.8506342316889918,0.07750405810396716,0.47283896875095976,0.15286258752799706,-0.235788,-15.320391
11.185,2.0,1.0,1.0,34.9,34.7,34.7,3.0,3.8,2.82,-0.8657908018583748,0.0721298048564021,0.44296614221918174,0.15437856305620157,-0.241949,-15.370714
11.185,2.0,1.0,1.0,34.9,34.7,34.7,3.0,3.8,2.8225,-0.8799882181204824,0.0669261491039177,0.4119837280794487,0.1562480665959886,-0.249775,-15.392139
11.185,2.0,1.0,1.0,34.9,34.7,34.7,3.0,3.8,2.825,-0.8931909812131937,0.06182789492500241,0.37980658288698815,0.15851277962897947,-0.259292,-15.383666
11.185,2.0,1.0,1.0,34.9,34.7,34.7,3.0,3.8,2.8275,-0.9053457476039597,0.05676657494820472,0.34633474002427883,0.16121939138724664,-0.270576,-15.34407
11.185,2.0,1.0,1.0,34.9,34.7,34.7,3.0,3.8,2.83,-0.9163783792401894,0.0516676678927909,0.311451188363481,0.16442103382718062,-0.283758,-15.271876
