1,w,sub_t,h,l1,l2,l3,g1,g2,Freq,S11_re,S21_re,S11_img,S21_img,S11_dB,S21_dB
11.185,2.0,1.0,1.0,33.4,33.1,33.1,3.6,4.3,2.5,0.861170080911181,-0.00450423537087683,0.497070926477063,0.00297184756684991,-0.049384,-45.358084
11.185,2.0,1.0,1.0,33.4,33.1,33.1,3.6,4.3,2.5025,0.8579058021866504,-0.004586956616722066,0.5025920617183586,0.002975080300053398,-0.049789,-45.244556
11.185,2.0,1.0,1.0,33.4,33.1,33.1,3.6,4.3,2.505,0.8545928193813237,-0.004670887409703879,0.5081127671876,0.0029776784729442242,-0.0502,-45.130914
11.185,2.0,1.0,1.0,33.4,33.1,33.1,3.6,4.3,2.5075,0.8512306860345907,-0.004756045600968553,0.5136328272305074,0.002979622183093472,-0.050618,-45.017154
11.185,2.0,1.0,1.0,33.4,33.1,33.1,3.6,4.3,2.51,0.8478189491425904,-0.004842449343139061,0.5191520200013429,0.002980890938058281,-0.051043,-44.903268
11.185,2.0,1.0,1.0,33.4,33.1,33.1,3.6,4.3,2.5125,0.844357149071473,-0.004930117095154233,0.5246701172722189,0.002981463636087259,-0.051474,-44.78925
11.185,2.0,1.0,1.0,33.4,33.1,33.1,3.6,4.3,2.515,0.8408448194703014,-0.005019067627139833,0.5301868842366859,0.002981318546135672,-0.051911,-44.675093
11.185,2.0,1.0,1.0,33.4,33.1,33.1,3.6,4.3,2.5175,0.8372814871836449,-0.005109320025307966,0.5357020793074024,0.0029804332871632955,-0.052356,-44.560792
11.185,2.0,1.0,1.0,33.4,33.1,33.1,3.6,4.3,2.52,0.8336666721639155,-0.005200893696881441,0.5412154539077265,0.002978784806686602,-0.052807,-44.44634
11.185,2.0,1.0,1.0,33.4,33.1,33.1,3.6,4.3,2.5225,0.8299998873835128,-0.005293808375038728,0.5467267522570161,0.002976349358556127,-0.053266,-44.33173
11.185,2.0,1.0,1.0,33.4,33.1,33.1,3.6,4.3,2.525,0.8262806387468324,-0.00538808412387556,0.5522357111494651,0.0029731024799278514,-0.053732,-44.216956
11.185,2.0,1.0,1.0,33.4,33.1,33.1,3.6,4.3,2.5275,0.8225084250022042,-0.00548374134337828,0.5577420597262679,0.0029690189673970504,-0.054205,-44.102012
11.185,2.0,1.0,1.0,33.4,33.1,33.1,3.6,4.3,2.53,0.8186827376538408,-0.005580800774403754,0.5632455192409007,0.002964072852260611,-0.054686,-43.986891
11.185,2.0,1.0,1.0,33.4,33.1,33.1,3.6,4.3,2.5325,0.8148030608738622,-0.005679283503660423,0.5687458028173148,0.0029582373748732356,-0.055175,-43.871586
11.185,2.0,1.0,1.0,33.4,33.1,33.1,3.6,4.3,2.535,0.8108688714144835,-0.005779210968684476,0.5742426152008206,0.00295148495806083,-0.055672,-43.756092
11.185,2.0,1.0,1.0,33.4,33.1,33.1,3.6,4.3,2.5375,0.806879638520455,-0.005880604962804429,0.5797356525014317,0.0029437871795530476,-0.056177,-43.6404
11.185,2.0,1.0,1.0,33.4,33.1,33.1,3.6,4.3,2.54,0.8028348238418407,-0.005983487640087373,0.5852246019294408,0.002935114743395055,-0.056689,-43.524506
11.185,2.0,1.0,1.0,33.4,33.1,33.1,3.6,4.3,2.5425,0.7987338813472424,-0.006087881520259029,0.5907091415229893,0.002925437450296963,-0.057211,-43.408401
11.185,2.0,1.0,1.0,33.4,33.1,33.1,3.6,4.3,2.545,0.7945762572375651,-0.006193809493589594,0.5961889398673765,0.002914724166877291,-0.057741,-43.29208
11.185,2.0,1.0,1.0,33.4,33.1,33.1,3.6,4.3,2.5475,0.7903613898604475,-0.006301294825736334,0.6016636558058541,0.0029029427937552156,-0.05828,-43.175535
11.185,2.0,1.0,1.0,33.4,33.1,33.1,3.6,4.3,2.55,0.786088709625464,-0.006410361162533657,0.607132938141653,0.00289006023244374,-0.058827,-43.058761
11.185,2.0,1.0,1.0,33.4,33.1,33.1,3.6,4.3,2.5525,0.78175763892024,-0.006521032534720031,0.6125964253309525,0.002876042350994222,-0.059384,-42.941749
11.185,2.0,1.0,1.0,33.4,33.1,33.1,3.6,4.3,2.555,0.7773675920276018,-0.006633333362591057,0.6180537451665276,0.0028608539483401694,-0.05995,-42.824493
11.185,2.0,1.0,1.0,33.4,33.1,33.1,3.6,4.3,2.5575,0.7729179750439097,-0.006747288460566634,0.6235045144517861,0.002844458717285768,-0.060526,-42.706987
11.185,2.0,1.0,1.0,33.4,33.1,33.1,3.6,4.3,2.56,0.768408185798728,-0.006862923041659439,0.6289483386648854,0.00282681920608241,-0.061111,-42.589223
11.185,2.0,1.0,1.0,33.4,33.1,33.1,3.6,4.3,2.5625,0.7638376137759922,-0.006980262721831009,0.6343848116126358,0.002807896778533079,-0.061707,-42.471195
11.185,2.0,1.0,1.0,33.4,33.1,33.1,3.6,4.3,2.565,0.7592056400368395,-0.007099333524220791,0.639813515073872,0.00278765157256261,-0.062312,-42.352895
11.185,2.0,1.0,1.0,33.4,33.1,33.1,3.6,4.3,2.5675,0.754511637144293,-0.007220161883232105,0.6452340184319615,0.002766042457188064,-0.062928,-42.234315
11.185,2.0,1.0,1.0,33.4,33.1,33.1,3.6,4.3,2.57,0.7497549690899842,-0.007342774648458253,0.650645878296122,0.002743026987820829,-0.063555,-42.11545
11.185,2.0,1.0,1.0,33.4,33.1,33.1,3.6,4.3,2.5725,0.7449349912231189,-0.007467199088430485,0.6560486381112027,0.0027185613598284327,-0.064192,-41.996291
11.185,2.0,1.0,1.0,33.4,33.1,33.1,3.6,4.3,2.575,0.7400510501819033,-0.007593462894168204,0.6614418277555696,0.0026926003602809074,-0.06484,-41.876832
11.185,2.0,1.0,1.0,33.4,33.1,33.1,3.6,4.3,2.5775,0.7351024838276562,-0.00772159418251063,0.6668249631267333,0.002665097317802687,-0.0655,-41.757065
11.185,2.0,1.0,1.0,33.4,33.1,33.1,3.6,4.3,2.58,0.730088621181854,-0.007851621499207196,0.6721975457143351,0.002636004050447206,-0.066172,-41.636982
11.185,2.0,1.0,1.0,33.4,33.1,33.1,3.6,4.3,2.5825,0.7250087823663551,-0.007983573821742931,0.677559062160116,0.0026052708115073477,-0.066855,-41.516576
11.185,2.0,1.0,1.0,33.4,33.1,33.1,3.6,4.3,2.585,0.7198622785470818,-0.008117480561872746,0.6829089838044522,0.0025728462331705026,-0.06755,-41.39584
11.185,2.0,1.0,1.0,33.4,33.1,33.1,3.6,4.3,2.5875,0.7146484118814369,-0.008253371567837283,0.6882467662190624,0.002538677267922646,-0.068258,-41.274765
11.185,2.0,1.0,1.0,33.4,33.1,33.1,3.6,4.3,2.59,0.7093664754697664,-0.008391277126230421,0.6935718487254471,0.002502709127600811,-0.068978,-41.153344
11.185,2.0,1.0,1.0,33.4,33.1,33.1,3.6,4.3,2.5925,0.7040157533111745,-0.00853122796348713,0.6988836538986366,0.0024648852199884853,-0.069711,-41.031569
11.185,2.0,1.0,1.0,33.4,33.1,33.1,3.6,4.3,2.595,0.6985955202640443,-0.008673255246957248,0.704181587055785,0.0024251470828430544,-0.070458,-40.909433
11.185,2.0,1.0,1.0,33.4,33.1,33.1,3.6,4.3,2.5975,0.6931050420116005,-0.008817390585529375,0.7094650357291624,0.0023834343152386106,-0.071218,-40.786927
11.185,2.0,1.0,1.0,33.4,33.1,33.1,3.6,4.3,2.6,0.6875435750329019,-0.008963666029765636,0.7147333691230576,0.002339684506101613,-0.071992,-40.664042
11.185,2.0,1.0,1.0,33.4,33.1,33.1,3.6,4.3,2.6025,0.6819103665796582,-0.009112114071505672,0.7199859375541029,0.002293833159810672,-0.07278,-40.540772
11.185,2.0,1.0,1.0,33.4,33.1,33.1,3.6,4.3,2.605,0.6762046546592857,-0.009262767642895475,0.7252220718745263,0.0022458136187246385,-0.073582,-40.417107
11.185,2.0,1.0,1.0,33.4,33.1,33.1,3.6,4.3,2.6075,0.6704256680246425,-0.009415660114793136,0.7304410828777974,0.0021955569824962423,-0.0744,-40.293039
11.185,2.0,1.0,1.0,33.4,33.1,33.1,3.6,4.3,2.61,0.6645726261709161,-0.00957082529450034,0.7356422606861446,0.0021429920240214305,-0.075232,-40.16856
11.185,2.0,1.0,1.0,33.4,33.1,33.1,3.6,4.3,2.6125,0.6586447393401443,-0.00972829742276509,0.7408248741193879,0.0020880451018654867,-0.07608,-40.043661
11.185,2.0,1.0,1.0,33.4,33.1,33.1,3.6,4.3,2.615,0.6526412085338905,-0.009888111169996902,0.7459881700445293,0.0020306400689999162,-0.076945,-39.918333
11.185,2.0,1.0,1.0,33.4,33.1,33.1,3.6,4.3,2.6175,0.6465612255346233,-0.010050301631631703,0.7511313727055113,0.001970698177673618,-0.077825,-39.792567
11.185,2.0,1.0,1.0,33.4,33.1,33.1,3.6,4.3,2.62,0.6404039729363677,-0.010214904322579283,0.7562536830325511,0.0019081379802336133,-0.078722,-39.666355
11.185,2.0,1.0,1.0,33.4,33.1,33.1,3.6,4.3,2.6225,0.6341686241852372,-0.010381955170681382,0.7613542779304392,0.0018428752256994978,-0.079636,-39.539687
11.185,2.0,1.0,1.0,33.4,33.1,33.1,3.6,4.3,2.625,0.627854343630494,-0.010551490509103,0.766432309545158,0.00177482275188546,-0.080568,-39.412554
11.185,2.0,1.0,1.0,33.4,33.1,33.1,3.6,4.3,2.6275,0.6214602865867884,-0.010723547067574812,0.7714869045081885,0.0017038903728518874,-0.081518,-39.284947
11.185,2.0,1.0,1.0,33.4,33.1,33.1,3.6,4.3,2.63,0.6149855994083109,-0.010898161962397727,0.7765171631578238,0.0016299847614567296,-0.082486,-39.156855
11.185,2.0,1.0,1.0,33.4,33.1,33.1,3.6,4.3,2.6325,0.6084294195755854,-0.011075372685114973,0.7815221587368096,0.0015530093267633349,-0.083473,-39.02827
11.185,2.0,1.0,1.0,33.4,33.1,33.1,3.6,4.3,2.635,0.6017908757956949,-0.011255217089750032,0.786500936565605,0.0014728640860478853,-0.084479,-38.899181
11.185,2.0,1.0,1.0,33.4,33.1,33.1,3.6,4.3,2.6375,0.5950690881167761,-0.011437733378501097,0.7914525131905326,0.0013894455311347295,-0.085505,-38.769579
11.185,2.0,1.0,1.0,33.4,33.1,33.1,3.6,4.3,2.64,0.5882631680576346,-0.011622960085775668,0.7963758755060897,0.0013026464887717082,-0.086551,-38.639454
11.185,2.0,1.0,1.0,33.4,33.1,33.1,3.6,4.3,2.6425,0.5813722187534156,-0.011810936060439375,0.8012699798506329,0.0012123559747414011,-0.087619,-38.508794
11.185,2.0,1.0,1.0,33.4,33.1,33.1,3.6,4.3,2.645,0.5743953351182856,-0.012001700446144707,0.8061337510746699,0.0011184590413856601,-0.088707,-38.37759
11.185,2.0,1.0,1.0,33.4,33.1,33.1,3.6,4.3,2.6475,0.5673316040261484,-0.01219529265959513,0.8109660815809303,0.0010208366182017162,-0.089818,-38.245831
11.185,2.0,1.0,1.0,33.4,33.1,33.1,3.6,4.3,2.65,0.560180104510445,-0.012391752366589737,0.815765830335411,0.0009193653451475854,-0.09095,-38.113506
11.185,2.0,1.0,1.0,33.4,33.1,33.1,3.6,4.3,2.6525,0.552939907984194,-0.012591119455681327,0.8205318218485096,0.0008139173982727716,-0.092106,-37.980603
11.185,2.0,1.0,1.0,33.4,33.1,33.1,3.6,4.3,2.655,0.545610078481422,-0.012793434009269699,0.825262845125401,0.0007043603072659082,-0.093286,-37.847113
11.185,2.0,1.0,1.0,33.4,33.1,33.1,3.6,4.3,2.6575,0.5381896729212493,-0.012998736271937261,0.8299576525847363,0.0005905567644868069,-0.09449,-37.713023
11.185,2.0,1.0,1.0,33.4,33.1,33.1,3.6,4.3,2.66,0.5306777413959275,-0.013207066615820542,0.8346149589447454,0.00047236442502233343,-0.095719,-37.578321
11.185,2.0,1.0,1.0,33.4,33.1,33.1,3.6,4.3,2.6625,0.5230733274842184,-0.013418465502794753,0.8392334400757878,0.0003496356972772452,-0.096973,-37.442995
11.185,2.0,1.0,1.0,33.4,33.1,33.1,3.6,4.3,2.665,0.5153754685915402,-0.01363297344323262,0.8438117318183831,0.00022221752357942377,-0.098254,-37.307035
11.185,2.0,1.0,1.0,33.4,33.1,33.1,3.6,4.3,2.6675,0.5075831963184292,-0.01385063095107907,0.8483484287657007,8.995115024588741e-05,-0.099562,-37.170426
11.185,2.0,1.0,1.0,33.4,33.1,33.1,3.6,4.3,2.67,0.49969553685889473,-0.014071478494964674,0.8528420830094869,-4.73281134800703e-05,-0.100898,-37.033156
11.185,2.0,1.0,1.0,33.4,33.1,33.1,3.6,4.3,2.6725,0.49171151143035857,-0.014295556445058479,0.8572912028483645,-0.0001897911482496494,-0.102262,-36.895213
11.185,2.0,1.0,1.0,33.4,33.1,33.1,3.6,4.3,2.675,0.4836301367369495,-0.014522905015337591,0.861694251457402,-0.0003376152898562348,-0.103655,-36.756584
11.185,2.0,1.0,1.0,33.4,33.1,33.1,3.6,4.3,2.6775,0.47545042546801086,-0.014753564200925452,0.8660496455178386,-0.0004909846076260622,-0.105079,-36.617254
11.185,2.0,1.0,1.0,33.4,33.1,33.1,3.6,4.3,2.68,0.46717138683377013,-0.01498757371012326,0.8703557538057941,-0.0006500901967142424,-0.106533,-36.47721
11.185,2.0,1.0,1.0,33.4,33.1,33.1,3.6,4.3,2.6825,0.4587920271402401,-0.015224972890728366,0.8746108957387764,-0.0008151304851218666,-0.10802,-36.336439
11.185,2.0,1.0,1.0,33.4,33.1,33.1,3.6,4.3,2.685,0.45031135040549564,-0.0154658006502014,0.87881333987875,-0.0009863115563057338,-0.109539,-36.194925
11.185,2.0,1.0,1.0,33.4,33.1,33.1,3.6,4.3,2.6875,0.44172835901960894,-0.01571009536920756,0.8829613023904992,-0.0011638474883132975,-0.111092,-36.052654
11.185,2.0,1.0,1.0,33.4,33.1,33.1,3.6,4.3,2.69,0.4330420544506351,-0.015957894808018482,0.8870529454539691,-0.00134796071044025,-0.112679,-35.90961
11.185,2.0,1.0,1.0,33.4,33.1,33.1,3.6,4.3,2.6925,0.4242514379991393,-0.016209236005219278,0.891086375629233,-0.0015388823784809487,-0.114302,-35.76578
11.185,2.0,1.0,1.0,33.4,33.1,33.1,3.6,4.3,2.695,0.41535551160394435,-0.016464155168117355,0.8950596421726802,-0.00173685276971649,-0.115963,-35.621146
11.185,2.0,1.0,1.0,33.4,33.1,33.1,3.6,4.3,2.6975,0.40635327870183147,-0.01672268755420033,0.8989707353029781,-0.0019421216988709323,-0.117661,-35.475693
11.185,2.0,1.0,1.0,33.4,33.1,33.1,3.6,4.3,2.7,0.3972437451441579,-0.016984867342932957,0.9028175844152934,-0.0021549489563545627,-0.119397,-35.329404
11.185,2.0,1.0,1.0,33.4,33.1,33.1,3.6,4.3,2.7025,0.3880259201734345,-0.017250727497123166,0.9065980562422233,-0.0023756047702126627,-0.121175,-35.182263
11.185,2.0,1.0,1.0,33.4,33.1,33.1,3.6,4.3,2.705,0.37869881746312123,-0.017520299613018892,0.9103099529597997,-0.0026043702933034414,-0.122993,-35.034251
11.185,2.0,1.0,1.0,33.4,33.1,33.1,3.6,4.3,2.7075,0.3692614562240271,-0.01779361375822478,0.9139510102368806,-0.0028415381173454743,-0.124855,-34.885351
11.185,2.0,1.0,1.0,33.4,33.1,33.1,3.6,4.3,2.71,0.3597128623809176,-0.018070698296445403,0.9175188952261666,-0.0030874128156001507,-0.12676,-34.735544
11.185,2.0,1.0,1.0,33.4,33.1,33.1,3.6,4.3,2.7125,0.35005206982308834,-0.018351579697973817,0.9210112044949904,-0.003342311516092073,-0.128711,-34.584813
11.185,2.0,1.0,1.0,33.4,33.1,33.1,3.6,4.3,2.715,0.34027812173289274,-0.018636282334744105,0.9244254618939558,-0.003606564507418916,-0.130709,-34.433136
11.185,2.0,1.0,1.0,33.4,33.1,33.1,3.6,4.3,2.7175,0.33039007199641185,-0.01892482825865935,0.9277591163613966,-0.0038805158793659006,-0.132755,-34.280496
11.185,2.0,1.0,1.0,33.4,33.1,33.1,3.6,4.3,2.72,0.3203869867006937,-0.01921723696178515,0.9310095396615197,-0.004164524200716137,-0.134851,-34.126871
11.185,2.0,1.0,1.0,33.4,33.1,33.1,3.6,4.3,2.7225,0.3102679457222098,-0.019513525116867426,0.9341740240539931,-0.004458963236843412,-0.136998,-33.97224
11.185,2.0,1.0,1.0,33.4,33.1,33.1,3.6,4.3,2.725,0.30003204441147946,-0.019813706296484324,0.9372497798925884,-0.004764222709884098,-0.139199,-33.816582
11.185,2.0,1.0,1.0,33.4,33.1,33.1,3.6,4.3,2.7275,0.28967839537903056,-0.020117790668981176,0.9402339331503778,-0.005080709104518274,-0.141455,-33.659874
11.185,2.0,1.0,1.0,33.4,33.1,33.1,3.6,4.3,2.73,0.2792061303882265,-0.020425784669154554,0.9431235228687886,-0.005408846522641913,-0.143768,-33.502094
11.185,2.0,1.0,1.0,33.4,33.1,33.1,3.6,4.3,2.7325,0.26861440236074907,-0.020737690641451915,0.9459154985276783,-0.005749077590491502,-0.14614,-33.343217
11.185,2.0,1.0,1.0,33.4,33.1,33.1,3.6,4.3,2.735,0.25790238750092115,-0.02105350645322828,0.9486067173333699,-0.006101864422085356,-0.148573,-33.183221
11.185,2.0,1.0,1.0,33.4,33.1,33.1,3.6,4.3,2.7375,0.24706928754537932,-0.021373225075353375,0.951193941421386,-0.006467689643181749,-0.151069,-33.022079
11.185,2.0,1.0,1.0,33.4,33.1,33.1,3.6,4.3,2.74,0.23611433214504343,-0.02169683412718317,0.9536738349703616,-0.00684705748031979,-0.15363,-32.859765
11.185,2.0,1.0,1.0,33.4,33.1,33.1,3.6,4.3,2.7425,0.22503678138672958,-0.02202431538260046,0.9560429612233509,-0.007240494919913081,-0.156259,-32.696254
11.185,2.0,1.0,1.0,33.4,33.1,33.1,3.6,4.3,2.745,0.2138359284622461,-0.022355644233480854,0.9582977794124276,-0.007648552942810779,-0.158957,-32.531517
11.185,2.0,1.0,1.0,33.4,33.1,33.1,3.6,4.3,2.7475,0.20251110249331547,-0.02269078910655136,0.96043464158214,-0.008071807840227853,-0.161729,-32.365525
11.185,2.0,1.0,1.0,33.4,33.1,33.1,3.6,4.3,2.75,0.191061671521219,-0.0230297108291731,0.962449789306982,-0.00851086261748734,-0.164575,-32.198251
11.185,2.0,1.0,1.0,33.4,33.1,33.1,3.6,4.3,2.7525,0.1794870456706765,-0.023372361939088832,0.9643393502976197,-0.008966348492609315,-0.1675,-32.029661
11.185,2.0,1.0,1.0,33.4,33.1,33.1,3.6,4.3,2.755,0.16778668049815837,-0.023718685932625064,0.9660993348901041,-0.009438926497438929,-0.170506,-31.859727
11.185,2.0,1.0,1.0,33.4,33.1,33.1,3.6,4.3,2.7575,0.15596008053552032,-0.024068616445218537,0.967725632411764,-0.009929289189730269,-0.173596,-31.688414
11.185,2.0,1.0,1.0,33.4,33.1,33.1,3.6,4.3,2.76,0.14400680304073785,-0.02442207635743573,0.9692140074168345,-0.01043816248540331,-0.176773,-31.515688
11.185,2.0,1.0,1.0,33.4,33.1,33.1,3.6,4.3,2.7625,0.13192646196834928,-0.02477897681886492,0.9705600957841833,-0.010966307621079497,-0.180041,-31.341516
11.185,2.0,1.0,1.0,33.4,33.1,33.1,3.6,4.3,2.765,0.1197187321732764,-0.025139216181365318,0.9717594006687003,-0.011514523257983224,-0.183404,-31.165859
11.185,2.0,1.0,1.0,33.4,33.1,33.1,3.6,4.3,2.7675,0.10738335386278534,-0.025502678832145444,0.9728072882970212,-0.012083647739385172,-0.186865,-30.988681
11.185,2.0,1.0,1.0,33.4,33.1,33.1,3.6,4.3,2.77,0.09492013731259838,-0.02586923391599458,0.9736989835972477,-0.01267456151497343,-0.190429,-30.809942
11.185,2.0,1.0,1.0,33.4,33.1,33.1,3.6,4.3,2.7725,0.08232896786459123,-0.02623873393468559,0.9744295656511885,-0.013288189746878575,-0.194099,-30.629602
11.185,2.0,1.0,1.0,33.4,33.1,33.1,3.6,4.3,2.775,0.06960981122506926,-0.02661101321008226,0.9749939629563548,-0.013925505113571332,-0.197881,-30.447618
11.185,2.0,1.0,1.0,33.4,33.1,33.1,3.6,4.3,2.7775,0.056762719084415596,-0.026985886195792272,0.9753869484834973,-0.014587530829509693,-0.201778,-30.263946
11.185,2.0,1.0,1.0,33.4,33.1,33.1,3.6,4.3,2.78,0.043787835080892186,-0.027363145620274896,0.9756031345138234,-0.015275343900259869,-0.205796,-30.078541
11.185,2.0,1.0,1.0,33.4,33.1,33.1,3.6,4.3,2.7825,0.030685401133704604,-0.027742560442102653,0.9756369672381853,-0.01599007863487015,-0.209941,-29.891354
11.185,2.0,1.0,1.0,33.4,33.1,33.1,3.6,4.3,2.785,0.017455764172976004,-0.028123873595548833,0.9754827210984276,-0.01673293043957439,-0.214218,-29.702336
11.185,2.0,1.0,1.0,33.4,33.1,33.1,3.6,4.3,2.7875,0.004099383297315609,-0.028506799501767783,0.9751344928487196,-0.017505159919455303,-0.218633,-29.511434
11.185,2.0,1.0,1.0,33.4,33.1,33.1,3.6,4.3,2.79,-0.009383162607011632,-0.028891021317503277,0.9745861953120156,-0.01830809731756041,-0.223192,-29.318596
11.185,2.0,1.0,1.0,33.4,33.1,33.1,3.6,4.3,2.7925,-0.022991166747353745,-0.02927618788941927,0.9738315508037665,-0.01914314732414977,-0.227903,-29.123764
11.185,2.0,1.0,1.0,33.4,33.1,33.1,3.6,4.3,2.795,-0.036723785764022514,-0.029661910377723453,0.9728640841915686,-0.02001179429232956,-0.232773,-28.92688
11.185,2.0,1.0,1.0,33.4,33.1,33.1,3.6,4.3,2.7975,-0.05058003048011331,-0.03004775850763772,0.9716771155555903,-0.020915607900309895,-0.237809,-28.727881
11.185,2.0,1.0,1.0,33.4,33.1,33.1,3.6,4.3,2.8,-0.06455875600834314,-0.030433256401354622,0.9702637524102194,-0.021856249305001484,-0.243019,-28.526704
11.185,2.0,1.0,1.0,33.4,33.1,33.1,3.6,4.3,2.8025,-0.07865865115447714,-0.030817877936254557,0.9686168814424463,-0.022835477836662735,-0.248413,-28.323281
11.185,2.0,1.0,1.0,33.4,33.1,33.1,3.6,4.3,2.805,-0.09287822704892172,-0.031201041567186828,0.9667291597169035,-0.02385515828991591,-0.254001,-28.117541
11.185,2.0,1.0,1.0,33.4,33.1,33.1,3.6,4.3,2.8075,-0.1072158049287703,-0.03158210454133824,0.9645930052911683,-0.02491726887272969,-0.259791,-27.909411
11.185,2.0,1.0,1.0,33.4,33.1,33.1,3.6,4.3,2.81,-0.12166950298169729,-0.031960356423388736,0.9622005871778043,-0.02602390988200448,-0.265796,-27.698812
11.185,2.0,1.0,1.0,33.4,33.1,33.1,3.6,4.3,2.8125,-0.136237222150363,-0.0323350118360033,0.959543814581557,-0.0271773131822801,-0.272027,-27.485664
11.185,2.0,1.0,1.0,33.4,33.1,33.1,3.6,4.3,2.815,-0.15091663078114234,-0.03270520230589416,0.9566143253310475,-0.02837985257292615,-0.278496,-27.26988
11.185,2.0,1.0,1.0,33.4,33.1,33.1,3.6,4.3,2.8175,-0.16570514798344735,-0.033069967088298284,0.9534034734140341,-0.029634055139071143,-0.285217,-27.051371
11.185,2.0,1.0,1.0,33.4,33.1,33.1,3.6,4.3,2.82,-0.18059992554533036,-0.03342824282226082,0.9499023155137922,-0.03094261369260667,-0.292206,-26.830043
11.185,2.0,1.0,1.0,33.4,33.1,33.1,3.6,4.3,2.8225,-0.1955978282267148,-0.03377885184500313,0.9461015964311621,-0.032308400421992255,-0.299477,-26.605797
11.185,2.0,1.0,1.0,33.4,33.1,33.1,3.6,4.3,2.825,-0.21069541222284544,-0.034120488965163134,0.9419917332622281,-0.033734481883424226,-0.307048,-26.378526
11.185,2.0,1.0,1.0,33.4,33.1,33.1,3.6,4.3,2.8275,-0.2258889015564405,-0.034451706460953455,0.9375627981852405,-0.035224135481357256,-0.314938,-26.148122
