1,w,sub_t,h,l1,l2,l3,g1,g2,Freq,S11_re,S21_re,S11_img,S21_img,S11_dB,S21_dB
11.185,2.0,1.0,1.0,34.1,34.7,34.7,3.4,3.4,2.5,0.766065201827685,-0.0102957864647136,0.630516927310946,0.00542079769809787,-0.068251,-38.68419
11.185,2.0,1.0,1.0,34.1,34.7,34.7,3.4,3.4,2.5025,0.761256704695803,-0.010503564346603442,0.6361719141064333,0.00542052905054397,-0.06905,-38.547818
11.185,2.0,1.0,1.0,34.1,34.7,34.7,3.4,3.4,2.505,0.7563807220748994,-0.010715717971819482,0.6418175536141056,0.00541868005042539,-0.069866,-38.410688
11.185,2.0,1.0,1.0,34.1,34.7,34.7,3.4,3.4,2.5075,0.7514365088066183,-0.010932369231489488,0.6474533382449003,0.00541518130878418,-0.070699,-38.272778
11.185,2.0,1.0,1.0,34.1,34.7,34.7,3.4,3.4,2.51,0.7464233067446052,-0.011153644707719217,0.6530787447312735,0.005409960181302478,-0.071552,-38.134068
11.185,2.0,1.0,1.0,34.1,34.7,34.7,3.4,3.4,2.5125,0.7413403444484694,-0.01137967590722337,0.6586932335794241,0.0054029405845074105,-0.072423,-37.994537
11.185,2.0,1.0,1.0,34.1,34.7,34.7,3.4,3.4,2.515,0.7361868368650434,-0.01161059950924461,0.6642962484984717,0.005394042799519342,-0.073314,-37.854165
11.185,2.0,1.0,1.0,34.1,34.7,34.7,3.4,3.4,2.5175,0.7309619849960797,-0.011846557628786692,0.6698872158052818,0.005383183262345746,-0.074225,-37.712928
11.185,2.0,1.0,1.0,34.1,34.7,34.7,3.4,3.4,2.52,0.7256649755513909,-0.01208769809628309,0.6754655438035317,0.005370274339636988,-0.075157,-37.570804
11.185,2.0,1.0,1.0,34.1,34.7,34.7,3.4,3.4,2.5225,0.7202949805864106,-0.01233417475490462,0.6810306221354873,0.005355224088713104,-0.076111,-37.427769
11.185,2.0,1.0,1.0,34.1,34.7,34.7,3.4,3.4,2.525,0.7148511571230051,-0.012586147776821066,0.6865818211048567,0.005337936000563977,-0.077087,-37.283798
11.185,2.0,1.0,1.0,34.1,34.7,34.7,3.4,3.4,2.5275,0.709332646752292,-0.012843783999839828,0.6921184909689397,0.005318308724399107,-0.078086,-37.138868
11.185,2.0,1.0,1.0,34.1,34.7,34.7,3.4,3.4,2.53,0.7037385752181039,-0.013107257285962943,0.6976399611981462,0.0052962357721859634,-0.079108,-36.992952
11.185,2.0,1.0,1.0,34.1,34.7,34.7,3.4,3.4,2.5325,0.6980680519795983,-0.013376748903547486,0.703145539700794,0.005271605201463815,-0.080156,-36.846023
11.185,2.0,1.0,1.0,34.1,34.7,34.7,3.4,3.4,2.535,0.6923201697513773,-0.013652447934891579,0.708634512010926,0.005244299274553869,-0.081229,-36.698054
11.185,2.0,1.0,1.0,34.1,34.7,34.7,3.4,3.4,2.5375,0.6864940040193394,-0.013934551711237133,0.7141061404366577,0.005214194092093438,-0.082329,-36.549017
11.185,2.0,1.0,1.0,34.1,34.7,34.7,3.4,3.4,2.54,0.6805886125302942,-0.014223266277356275,0.7195596631663825,0.005181159198618911,-0.083456,-36.398883
11.185,2.0,1.0,1.0,34.1,34.7,34.7,3.4,3.4,2.5425,0.6746030347532024,-0.014518806888082497,0.7249942933298894,0.005145057157686054,-0.084612,-36.24762
11.185,2.0,1.0,1.0,34.1,34.7,34.7,3.4,3.4,2.545,0.6685362913096728,-0.014821398539368313,0.7304092180111796,0.00510574309375761,-0.085797,-36.095198
11.185,2.0,1.0,1.0,34.1,34.7,34.7,3.4,3.4,2.5475,0.6623873833711553,-0.015131276536681849,0.7358035972094699,0.005063064197798138,-0.087013,-35.941584
11.185,2.0,1.0,1.0,34.1,34.7,34.7,3.4,3.4,2.55,0.6561552920199554,-0.015448687103825694,0.7411765627445314,0.005016859193192588,-0.08826,-35.786745
11.185,2.0,1.0,1.0,34.1,34.7,34.7,3.4,3.4,2.5525,0.6498389775709859,-0.015773888035546343,0.746527217102116,0.004966957758241331,-0.089541,-35.630646
11.185,2.0,1.0,1.0,34.1,34.7,34.7,3.4,3.4,2.555,0.643437378850785,-0.01610714939762305,0.7518546322148282,0.00491317990107675,-0.090856,-35.47325
11.185,2.0,1.0,1.0,34.1,34.7,34.7,3.4,3.4,2.5575,0.6369494124300321,-0.01644875427848559,0.7571578481733016,0.004855335282391111,-0.092206,-35.314521
11.185,2.0,1.0,1.0,34.1,34.7,34.7,3.4,3.4,2.56,0.6303739718053888,-0.016798999596796083,0.7624358718620089,0.004793222480848915,-0.093594,-35.15442
11.185,2.0,1.0,1.0,34.1,34.7,34.7,3.4,3.4,2.5625,0.623709926526057,-0.0171581969698749,0.76768767551345,0.00472662819548194,-0.09502,-34.992906
11.185,2.0,1.0,1.0,34.1,34.7,34.7,3.4,3.4,2.565,0.6169561212599688,-0.017526673648328668,0.7729121951737765,0.004655326378706213,-0.096487,-34.829938
11.185,2.0,1.0,1.0,34.1,34.7,34.7,3.4,3.4,2.5675,0.6101113747940057,-0.017904773522780023,0.7781083290721456,0.0045790772928709636,-0.097995,-34.665472
11.185,2.0,1.0,1.0,34.1,34.7,34.7,3.4,3.4,2.57,0.6031744789620176,-0.018292858209197748,0.7832749358852575,0.004497626482405171,-0.099547,-34.499462
11.185,2.0,1.0,1.0,34.1,34.7,34.7,3.4,3.4,2.5725,0.5961441974937747,-0.018691308219995463,0.7884108328875501,0.004410703652698011,-0.101145,-34.331863
11.185,2.0,1.0,1.0,34.1,34.7,34.7,3.4,3.4,2.575,0.5890192647772294,-0.019100524228802287,0.7935147939764082,0.004318021445752585,-0.102791,-34.162626
11.185,2.0,1.0,1.0,34.1,34.7,34.7,3.4,3.4,2.5775,0.5817983845256388,-0.019520928437654253,0.7985855475605338,0.004219274101464885,-0.104486,-33.991698
11.185,2.0,1.0,1.0,34.1,34.7,34.7,3.4,3.4,2.58,0.5744802283401698,-0.019952966056265932,0.8036217742981602,0.004114135991961441,-0.106234,-33.819028
11.185,2.0,1.0,1.0,34.1,34.7,34.7,3.4,3.4,2.5825,0.5670634341575573,-0.020397106904093496,0.808622104670214,0.004002260014864827,-0.108036,-33.644559
11.185,2.0,1.0,1.0,34.1,34.7,34.7,3.4,3.4,2.585,0.5595466045712324,-0.020853847147052865,0.8135851163716545,0.0038832758295422568,-0.109895,-33.468234
11.185,2.0,1.0,1.0,34.1,34.7,34.7,3.4,3.4,2.5875,0.5519283050130099,-0.0213237111820627,0.8185093315021204,0.003756787918314493,-0.111814,-33.289993
11.185,2.0,1.0,1.0,34.1,34.7,34.7,3.4,3.4,2.59,0.5442070617809649,-0.021807253684042915,0.8233932135345884,0.00362237345223833,-0.113796,-33.109773
11.185,2.0,1.0,1.0,34.1,34.7,34.7,3.4,3.4,2.5925,0.5363813598974498,-0.022305061831638835,0.828235164037975,0.003479579938330184,-0.115844,-32.927508
11.185,2.0,1.0,1.0,34.1,34.7,34.7,3.4,3.4,2.595,0.5284496407793667,-0.022817757729786118,0.8330335191264011,0.0033279226219674954,-0.117962,-32.743128
11.185,2.0,1.0,1.0,34.1,34.7,34.7,3.4,3.4,2.5975,0.5204102997006571,-0.023346001049312805,0.8377865456041587,0.0031668816145670156,-0.120152,-32.556562
11.185,2.0,1.0,1.0,34.1,34.7,34.7,3.4,3.4,2.6,0.5122616830246444,-0.023890491906107723,0.8424924367711606,0.0029958987124434977,-0.122419,-32.367735
11.185,2.0,1.0,1.0,34.1,34.7,34.7,3.4,3.4,2.6025,0.5040020851811532,-0.024451974005031765,0.8471493078486985,0.0028143738678934743,-0.124767,-32.176566
11.185,2.0,1.0,1.0,34.1,34.7,34.7,3.4,3.4,2.605,0.49562974536029697,-0.0250312380767223,0.8517551909796183,0.0026216612678927795,-0.127201,-31.982973
11.185,2.0,1.0,1.0,34.1,34.7,34.7,3.4,3.4,2.6075,0.48714284389141294,-0.025629125638812113,0.856308029750337,0.00241706496922595,-0.129724,-31.786868
11.185,2.0,1.0,1.0,34.1,34.7,34.7,3.4,3.4,2.61,0.4785394982717254,-0.026246533116888515,0.8608056731743516,0.0021998340311853155,-0.132343,-31.588159
11.185,2.0,1.0,1.0,34.1,34.7,34.7,3.4,3.4,2.6125,0.46981775880492055,-0.026884416364831028,0.8652458690677854,0.001969157078001925,-0.135063,-31.386751
11.185,2.0,1.0,1.0,34.1,34.7,34.7,3.4,3.4,2.615,0.46097560380482894,-0.02754379562904377,0.8696262567368428,0.0017241562126367902,-0.13789,-31.18254
11.185,2.0,1.0,1.0,34.1,34.7,34.7,3.4,3.4,2.6175,0.452010934313763,-0.02822576100662859,0.8739443588845041,0.001463880191183296,-0.140831,-30.975421
11.185,2.0,1.0,1.0,34.1,34.7,34.7,3.4,3.4,2.62,0.4429215682786252,-0.02893147845381347,0.8781975726290033,0.001187296752523053,-0.143892,-30.765279
11.185,2.0,1.0,1.0,34.1,34.7,34.7,3.4,3.4,2.6225,0.433705234120614,-0.029662196408057773,0.8823831595091564,0.0008932839806229677,-0.147082,-30.551997
11.185,2.0,1.0,1.0,34.1,34.7,34.7,3.4,3.4,2.625,0.424359563626117,-0.0304192530953056,0.886498234330883,0.000580620556394025,-0.150408,-30.335447
11.185,2.0,1.0,1.0,34.1,34.7,34.7,3.4,3.4,2.6275,0.41488208407694843,-0.031204084602999185,0.8905397526846435,0.000247974731683876,-0.15388,-30.115497
11.185,2.0,1.0,1.0,34.1,34.7,34.7,3.4,3.4,2.63,0.40527020952749987,-0.03201823380979101,0.8945044969341123,-0.00010610817104358107,-0.157508,-29.892005
11.185,2.0,1.0,1.0,34.1,34.7,34.7,3.4,3.4,2.6325,0.3955212311242998,-0.032863360274591726,0.8983890604412823,-0.00048321996454604683,-0.161303,-29.664822
11.185,2.0,1.0,1.0,34.1,34.7,34.7,3.4,3.4,2.635,0.38563230634986323,-0.0337412512007993,0.9021898297509825,-0.0008851057810502958,-0.165276,-29.433789
11.185,2.0,1.0,1.0,34.1,34.7,34.7,3.4,3.4,2.6375,0.3756004470573613,-0.034653833606416766,0.9059029644069831,-0.0013136825580520512,-0.169442,-29.198738
11.185,2.0,1.0,1.0,34.1,34.7,34.7,3.4,3.4,2.64,0.36542250614533456,-0.03560318784745615,0.9095243740104477,-0.0017710602095227092,-0.173814,-28.959489
11.185,2.0,1.0,1.0,34.1,34.7,34.7,3.4,3.4,2.6425,0.35509516270239344,-0.03659156266065715,0.9130496920569724,-0.002259565940037436,-0.178408,-28.715852
11.185,2.0,1.0,1.0,34.1,34.7,34.7,3.4,3.4,2.645,0.34461490543032164,-0.037621391912208556,0.9164742459977776,-0.002781772249019483,-0.183243,-28.467623
11.185,2.0,1.0,1.0,34.1,34.7,34.7,3.4,3.4,2.6475,0.3339780141303471,-0.038695313261859814,0.9197930228597193,-0.003340529281911086,-0.188338,-28.214586
11.185,2.0,1.0,1.0,34.1,34.7,34.7,3.4,3.4,2.65,0.32318053901153154,-0.03981618897641081,0.9230006296227827,-0.003939002319593124,-0.193714,-27.956508
11.185,2.0,1.0,1.0,34.1,34.7,34.7,3.4,3.4,2.6525,0.3122182775527354,-0.04098712915273217,0.9260912473860556,-0.004580715363100556,-0.199397,-27.693141
11.185,2.0,1.0,1.0,34.1,34.7,34.7,3.4,3.4,2.655,0.30108674862082196,-0.04221151763750876,0.9290585781458006,-0.005269601975767339,-0.205413,-27.42422
11.185,2.0,1.0,1.0,34.1,34.7,34.7,3.4,3.4,2.6575,0.2897811635191463,-0.04349304095758772,0.9318957827514044,-0.006010064799809072,-0.211793,-27.149458
11.185,2.0,1.0,1.0,34.1,34.7,34.7,3.4,3.4,2.66,0.27829639361362163,-0.044835720599140254,0.9345954082831147,-0.006807045482549919,-0.218572,-26.868549
11.185,2.0,1.0,1.0,34.1,34.7,34.7,3.4,3.4,2.6625,0.2666269341621244,-0.046243948992547586,0.9371493026917083,-0.00766610714663218,-0.225788,-26.581162
11.185,2.0,1.0,1.0,34.1,34.7,34.7,3.4,3.4,2.665,0.25476686396159454,-0.04772252956785943,0.9395485140312508,-0.008593532041598155,-0.233486,-26.286941
11.185,2.0,1.0,1.0,34.1,34.7,34.7,3.4,3.4,2.6675,0.24270980043394086,-0.04927672123488799,0.9417831709713704,-0.009596437651432676,-0.241715,-25.9855
11.185,2.0,1.0,1.0,34.1,34.7,34.7,3.4,3.4,2.67,0.23044884980863956,-0.05091228760028167,0.9438423404544551,-0.010682915343874883,-0.250533,-25.676424
11.185,2.0,1.0,1.0,34.1,34.7,34.7,3.4,3.4,2.6725,0.21797655214561223,-0.05263555114242955,0.9457138573123083,-0.011862196685591459,-0.260005,-25.35926
11.185,2.0,1.0,1.0,34.1,34.7,34.7,3.4,3.4,2.675,0.20528482110490903,-0.054453452395242824,0.947384119304322,-0.013144853883190685,-0.270207,-25.033518
11.185,2.0,1.0,1.0,34.1,34.7,34.7,3.4,3.4,2.6775,0.1923648786536222,-0.05637361389985044,0.9488378392891279,-0.014543042538448136,-0.281225,-24.698664
11.185,2.0,1.0,1.0,34.1,34.7,34.7,3.4,3.4,2.68,0.17920718537220678,-0.058404408202166753,0.9500577439643951,-0.01607079715455409,-0.293162,-24.354114
11.185,2.0,1.0,1.0,34.1,34.7,34.7,3.4,3.4,2.6825,0.16580136778487956,-0.060555028401198106,0.9510242056295674,-0.01774439277155097,-0.306134,-23.999233
11.185,2.0,1.0,1.0,34.1,34.7,34.7,3.4,3.4,2.685,0.1521361453506171,-0.06283555852947614,0.9517147895055063,-0.019582789978141737,-0.32028,-23.633323
11.185,2.0,1.0,1.0,34.1,34.7,34.7,3.4,3.4,2.6875,0.138199261658971,-0.0652570391274082,0.952103693957969,-0.0216081856637407,-0.335764,-23.255619
11.185,2.0,1.0,1.0,34.1,34.7,34.7,3.4,3.4,2.69,0.12397742736279967,-0.06783152037460392,0.9521610540743296,-0.023846698676023237,-0.35278,-22.865279
11.185,2.0,1.0,1.0,34.1,34.7,34.7,3.4,3.4,2.6925,0.10945628705264163,-0.07057209046169058,0.9518520698274682,-0.02632922863220721,-0.371559,-22.461376
11.185,2.0,1.0,1.0,34.1,34.7,34.7,3.4,3.4,2.695,0.09462042959260716,-0.07349285957344083,0.9511359076992578,-0.02909253830968979,-0.392379,-22.042884
11.185,2.0,1.0,1.0,34.1,34.7,34.7,3.4,3.4,2.6975,0.07945347292513334,-0.07660886838796897,0.949964308007471,-0.03218062641258351,-0.415579,-21.60867
11.185,2.0,1.0,1.0,34.1,34.7,34.7,3.4,3.4,2.7,0.06393827247819023,-0.07993587192899311,0.9482798077881311,-0.03564647953905379,-0.441571,-21.157477
11.185,2.0,1.0,1.0,34.1,34.7,34.7,3.4,3.4,2.7025,0.048057331084775314,-0.08348992095912922,0.9460134589874907,-0.03955432175627825,-0.470861,-20.687908
11.185,2.0,1.0,1.0,34.1,34.7,34.7,3.4,3.4,2.705,0.031793534337112545,-0.08728661734349638,0.9430818815207026,-0.04398251965051848,-0.504079,-20.198413
11.185,2.0,1.0,1.0,34.1,34.7,34.7,3.4,3.4,2.7075,0.015131409456510649,-0.09133984613848982,0.9393834378251594,-0.049027352594071566,-0.542015,-19.687269
11.185,2.0,1.0,1.0,34.1,34.7,34.7,3.4,3.4,2.71,-0.0019407737168794174,-0.09565966753977379,0.934793247781497,-0.054807924214482384,-0.58567,-19.152565
11.185,2.0,1.0,1.0,34.1,34.7,34.7,3.4,3.4,2.7125,-0.019427543506004653,-0.1002488559818471,0.9291566809100622,-0.06147257086248099,-0.636323,-18.592183
11.185,2.0,1.0,1.0,34.1,34.7,34.7,3.4,3.4,2.715,-0.03732056674939209,-0.10509725063647138,0.9222808753649585,-0.06920720723530549,-0.69563,-18.0038
11.185,2.0,1.0,1.0,34.1,34.7,34.7,3.4,3.4,2.7175,-0.05558940509620957,-0.11017254571031738,0.9139237705090602,-0.0782461079387316,-0.765763,-17.384887
11.185,2.0,1.0,1.0,34.1,34.7,34.7,3.4,3.4,2.72,-0.0741664030202696,-0.11540525856271745,0.9037801836926683,-0.08888557473044155,-0.849595,-16.732747
11.185,2.0,1.0,1.0,34.1,34.7,34.7,3.4,3.4,2.7225,-0.09292193324322073,-0.12066414225817051,0.8914648161414442,-0.10150057941100163,-0.950984,-16.044604
11.185,2.0,1.0,1.0,34.1,34.7,34.7,3.4,3.4,2.725,-0.11162380614724231,-0.12571592399542833,0.8764932207647504,-0.11656332182893507,-1.075157,-15.317782
11.185,2.0,1.0,1.0,34.1,34.7,34.7,3.4,3.4,2.7275,-0.12987090275629692,-0.1301595644153688,0.8582648110850818,-0.1346596060581189,-1.229254,-14.550058
11.185,2.0,1.0,1.0,34.1,34.7,34.7,3.4,3.4,2.73,-0.1469859161738239,-0.1333201616759463,0.8360593604178636,-0.15649161656079852,-1.423057,-13.740305
11.185,2.0,1.0,1.0,34.1,34.7,34.7,3.4,3.4,2.7325,-0.16184708749843976,-0.1340827855486053,0.8090751031933416,-0.1828391657040668,-1.669824,-12.889663
11.185,2.0,1.0,1.0,34.1,34.7,34.7,3.4,3.4,2.735,-0.17264176220446975,-0.13064965332140652,0.7765712784057301,-0.21441715756226334,-1.986868,-12.003559
11.185,2.0,1.0,1.0,34.1,34.7,34.7,3.4,3.4,2.7375,-0.1765611024270945,-0.12024055999718972,0.7382404280522673,-0.25150545940687585,-2.394473,-11.095075
11.185,2.0,1.0,1.0,34.1,34.7,34.7,3.4,3.4,2.74,-0.16959041987137058,-0.09889059389096667,0.6950118176232576,-0.29315300909681474,-2.908977,-10.190062
11.185,2.0,1.0,1.0,34.1,34.7,34.7,3.4,3.4,2.7425,-0.1468868662518078,-0.061832464053299126,0.6504464713318299,-0.33580053762425155,-3.519755,-9.333564
11.185,2.0,1.0,1.0,34.1,34.7,34.7,3.4,3.4,2.745,-0.10471388951470799,-0.005419542154799589,0.6123091207380079,-0.3717381524217511,-4.135393,-8.594334
11.185,2.0,1.0,1.0,34.1,34.7,34.7,3.4,3.4,2.7475,-0.04457519201518662,0.06878728014753198,0.5923289192957938,-0.389368067864983,-4.524216,-8.059322
11.185,2.0,1.0,1.0,34.1,34.7,34.7,3.4,3.4,2.75,0.022892530141152,0.15020175446338,0.601137164178027,-0.378235630401491,-4.414235,-7.8088
11.185,2.0,1.0,1.0,34.1,34.7,34.7,3.4,3.4,2.7525,0.08055037774235349,0.22186704919760578,0.6398820436848083,-0.3373054603651288,-3.80972,-7.878125
11.185,2.0,1.0,1.0,34.1,34.7,34.7,3.4,3.4,2.755,0.11490750017078885,0.27050957880385235,0.6977755937397995,-0.2773232431009313,-3.009479,-8.236667
11.185,2.0,1.0,1.0,34.1,34.7,34.7,3.4,3.4,2.7575,0.12330433110045842,0.2935944507345988,0.7597712370429595,-0.21317740326359688,-2.273437,-8.806045
11.185,2.0,1.0,1.0,34.1,34.7,34.7,3.4,3.4,2.76,0.1114238182246234,0.2968096653923089,0.81517461768629,-0.15539898021406454,-1.694595,-9.498337
11.185,2.0,1.0,1.0,34.1,34.7,34.7,3.4,3.4,2.7625,0.08704785497608258,0.2878782243819998,0.8597323372129865,-0.10813542300369478,-1.268439,-10.242597
11.185,2.0,1.0,1.0,34.1,34.7,34.7,3.4,3.4,2.765,0.05637521178627875,0.2729307909995741,0.8934065020702422,-0.07137474931257246,-0.961759,-10.991657
11.185,2.0,1.0,1.0,34.1,34.7,34.7,3.4,3.4,2.7675,0.02330921738440113,0.2558170771442286,0.9178724870305318,-0.043424624776901094,-0.741553,-11.718038
11.185,2.0,1.0,1.0,34.1,34.7,34.7,3.4,3.4,2.77,-0.010015938969473406,0.2386353047636835,0.9351022657005637,-0.022310011670416557,-0.58232,-12.407512
11.185,2.0,1.0,1.0,34.1,34.7,34.7,3.4,3.4,2.7725,-0.04256428642243068,0.22239921005963162,0.9468133733681672,-0.006313821545150937,-0.465944,-13.053836
11.185,2.0,1.0,1.0,34.1,34.7,34.7,3.4,3.4,2.775,-0.0739108479221693,0.2075206791073889,0.9543446983929644,0.005903391590574075,-0.379924,-13.655259
11.185,2.0,1.0,1.0,34.1,34.7,34.7,3.4,3.4,2.7775,-0.10394683883371827,0.19410108462612322,0.9586905770057088,0.01533908385138481,-0.315672,-14.212403
11.185,2.0,1.0,1.0,34.1,34.7,34.7,3.4,3.4,2.78,-0.132715886457245,0.1820928018151224,0.9605741181947929,0.022722351724385543,-0.267261,-14.727041
11.185,2.0,1.0,1.0,34.1,34.7,34.7,3.4,3.4,2.7825,-0.16032740410336588,0.1713844441136213,0.9605171804170866,0.02858377462235294,-0.230551,-15.201418
11.185,2.0,1.0,1.0,34.1,34.7,34.7,3.4,3.4,2.785,-0.18691251424534572,0.16184411223637088,0.9588959204666068,0.033310733444389985,-0.202615,-15.637877
11.185,2.0,1.0,1.0,34.1,34.7,34.7,3.4,3.4,2.7875,-0.21260264197422674,0.15334031624027064,0.9559818237801238,0.037188243602086404,-0.181356,-16.038666
11.185,2.0,1.0,1.0,34.1,34.7,34.7,3.4,3.4,2.79,-0.237519913389648,0.14575129783628046,0.9519710755440227,0.04042820192343799,-0.16525,-16.405842
11.185,2.0,1.0,1.0,34.1,34.7,34.7,3.4,3.4,2.7925,-0.26177356180221656,0.138968466662518,0.947005319518329,0.04319010086814586,-0.153177,-16.741229
11.185,2.0,1.0,1.0,34.1,34.7,34.7,3.4,3.4,2.795,-0.285459290568574,0.1328969521561682,0.9411862795453156,0.04559568123916347,-0.144305,-17.046404
11.185,2.0,1.0,1.0,34.1,34.7,34.7,3.4,3.4,2.7975,-0.308660004634862,0.1274548295506057,0.934586069890975,0.047739344603627346,-0.138008,-17.322704
11.185,2.0,1.0,1.0,34.1,34.7,34.7,3.4,3.4,2.8,-0.331447096718592,0.12257181641827114,0.9272544862405595,0.04969561448680082,-0.133814,-17.571232
11.185,2.0,1.0,1.0,34.1,34.7,34.7,3.4,3.4,2.8025,-0.3538818813747064,0.11818783560696365,0.9192241738641478,0.051524543357635254,-0.131363,-17.792869
11.185,2.0,1.0,1.0,34.1,34.7,34.7,3.4,3.4,2.805,-0.3760169832416209,0.1142516311225499,0.9105142901172472,0.05327568666891734,-0.13038,-17.988287
11.185,2.0,1.0,1.0,34.1,34.7,34.7,3.4,3.4,2.8075,-0.3978975958618232,0.11071951533471176,0.9011330848511495,0.0549910754269158,-0.130656,-18.157962
11.185,2.0,1.0,1.0,34.1,34.7,34.7,3.4,3.4,2.81,-0.41956258299818816,0.10755427107632645,0.8910796888791518,0.05670748947734409,-0.132033,-18.30218
11.185,2.0,1.0,1.0,34.1,34.7,34.7,3.4,3.4,2.8125,-0.441045420995235,0.104724205407289,0.880345308317911,0.0584582461022577,-0.134392,-18.421045
11.185,2.0,1.0,1.0,34.1,34.7,34.7,3.4,3.4,2.815,-0.46237499209608324,0.10220233948528933,0.868913957945191,0.06027465951680004,-0.137649,-18.514482
11.185,2.0,1.0,1.0,34.1,34.7,34.7,3.4,3.4,2.8175,-0.48357624192391985,0.09996571386003966,0.8567628203853015,0.06218728757484575,-0.141747,-18.582242
11.185,2.0,1.0,1.0,34.1,34.7,34.7,3.4,3.4,2.82,-0.5046707133045784,0.09799478662846815,0.8438622835230097,0.0642270565835264,-0.146651,-18.623898
11.185,2.0,1.0,1.0,34.1,34.7,34.7,3.4,3.4,2.8225,-0.5256769650633146,0.09627290102931063,0.8301756815277926,0.0664263398269441,-0.152352,-18.638844
11.185,2.0,1.0,1.0,34.1,34.7,34.7,3.4,3.4,2.825,-0.5466108790841065,0.09478579784186254,0.8156587419120115,0.06882005792572614,-0.158857,-18.626285
11.185,2.0,1.0,1.0,34.1,34.7,34.7,3.4,3.4,2.8275,-0.5674858517627749,0.09352114534927836,0.8002587195019192,0.0714468683207188,-0.166199,-18.585233
11.185,2.0,1.0,1.0,34.1,34.7,34.7,3.4,3.4,2.83,-0.5883128564193626,0.09246805458491089,0.7839131757114891,0.07435051665932811,-0.17443,-18.514485
