1,w,sub_t,h,l1,l2,l3,g1,g2,Freq,S11_re,S21_re,S11_img,S21_img,S11_dB,S21_dB
11.185,2.0,1.0,1.0,33.1,34.7,34.7,1.9,2.1,2.5,0.883319114974416,-0.012407315426379,0.452148269804336,0.014708934062748,-0.067002,-34.314531
11.185,2.0,1.0,1.0,33.1,34.7,34.7,1.9,2.1,2.5025,0.8802586058950744,-0.012722403995636898,0.4578703245418363,0.01486161665922699,-0.067841,-34.171107
11.185,2.0,1.0,1.0,33.1,34.7,34.7,1.9,2.1,2.505,0.8771444764791281,-0.013045533842422503,0.4635980704958443,0.015015575087103928,-0.0687,-34.02685
11.185,2.0,1.0,1.0,33.1,34.7,34.7,1.9,2.1,2.5075,0.8739760112510297,-0.013376960734798627,0.4693313949643716,0.015170806469994302,-0.069581,-33.881743
11.185,2.0,1.0,1.0,33.1,34.7,34.7,1.9,2.1,2.51,0.8707524758602432,-0.013716950875217291,0.4750701800427034,0.015327306501571557,-0.070484,-33.735764
11.185,2.0,1.0,1.0,33.1,34.7,34.7,1.9,2.1,2.5125,0.8674731163738628,-0.0140657814217335,0.4808143023537458,0.015485069314569468,-0.071409,-33.588894
11.185,2.0,1.0,1.0,33.1,34.7,34.7,1.9,2.1,2.515,0.8641371585333394,-0.014423741040055331,0.48656363276217734,0.015644087338573403,-0.072357,-33.441111
11.185,2.0,1.0,1.0,33.1,34.7,34.7,1.9,2.1,2.5175,0.8607438069730279,-0.014791130488538973,0.49231803607116814,0.01580435114558677,-0.07333,-33.292394
11.185,2.0,1.0,1.0,33.1,34.7,34.7,1.9,2.1,2.52,0.8572922443980918,-0.015168263238403697,0.49807737070037006,0.0159658492822611,-0.074328,-33.142721
11.185,2.0,1.0,1.0,33.1,34.7,34.7,1.9,2.1,2.5225,0.8537816307191342,-0.015555466131616392,0.503841488343711,0.01612856808756665,-0.075352,-32.99207
11.185,2.0,1.0,1.0,33.1,34.7,34.7,1.9,2.1,2.525,0.8502111021406884,-0.015953080079092803,0.5096102336054389,0.016292491494560107,-0.076403,-32.840417
11.185,2.0,1.0,1.0,33.1,34.7,34.7,1.9,2.1,2.5275,0.8465797702005156,-0.01636146080207051,0.5153834436126931,0.016457600814769893,-0.077482,-32.68774
11.185,2.0,1.0,1.0,33.1,34.7,34.7,1.9,2.1,2.53,0.8428867207563961,-0.01678097961973827,0.5211609476027146,0.01662387450356972,-0.07859,-32.534012
11.185,2.0,1.0,1.0,33.1,34.7,34.7,1.9,2.1,2.5325,0.8391310129168489,-0.017212024286458353,0.526942566482642,0.016791287904744885,-0.079728,-32.379211
11.185,2.0,1.0,1.0,33.1,34.7,34.7,1.9,2.1,2.535,0.8353116779119216,-0.017654999882188604,0.5327281123596402,0.016959812972270248,-0.080899,-32.223309
11.185,2.0,1.0,1.0,33.1,34.7,34.7,1.9,2.1,2.5375,0.8314277178999032,-0.01811032976000969,0.5385173880388724,0.017129417967112526,-0.082101,-32.06628
11.185,2.0,1.0,1.0,33.1,34.7,34.7,1.9,2.1,2.54,0.8274781047054458,-0.018578456554987743,0.544310186486606,0.017300067126640367,-0.083338,-31.908098
11.185,2.0,1.0,1.0,33.1,34.7,34.7,1.9,2.1,2.5425,0.8234617784842382,-0.01905984325895733,0.5501062902554587,0.017471720303969297,-0.084611,-31.748735
11.185,2.0,1.0,1.0,33.1,34.7,34.7,1.9,2.1,2.545,0.8193776463089595,-0.0195549743661972,0.5559054708684883,0.017644332574282693,-0.08592,-31.588161
11.185,2.0,1.0,1.0,33.1,34.7,34.7,1.9,2.1,2.5475,0.8152245806708047,-0.020064357095395967,0.561707488158491,0.017817853804850618,-0.087268,-31.426347
11.185,2.0,1.0,1.0,33.1,34.7,34.7,1.9,2.1,2.55,0.8110014178903872,-0.020588522693771625,0.5675120895585223,0.017992228185111887,-0.088655,-31.263263
11.185,2.0,1.0,1.0,33.1,34.7,34.7,1.9,2.1,2.5525,0.8067069564313102,-0.02112802782971405,0.5733190093391846,0.01816739371278307,-0.090085,-31.098878
11.185,2.0,1.0,1.0,33.1,34.7,34.7,1.9,2.1,2.555,0.8023399551091057,-0.021683456080883227,0.579127967787819,0.01834328163151194,-0.091558,-30.933158
11.185,2.0,1.0,1.0,33.1,34.7,34.7,1.9,2.1,2.5575,0.7978991311876122,-0.022255419525305565,0.5849386703241682,0.018519815815088412,-0.093077,-30.766071
11.185,2.0,1.0,1.0,33.1,34.7,34.7,1.9,2.1,2.56,0.7933831583541777,-0.022844560443685106,0.5907508065465035,0.018696912092661427,-0.094643,-30.597583
11.185,2.0,1.0,1.0,33.1,34.7,34.7,1.9,2.1,2.5625,0.7887906645642996,-0.023451553141886277,0.5965640492015548,0.01887447750877496,-0.096259,-30.427658
11.185,2.0,1.0,1.0,33.1,34.7,34.7,1.9,2.1,2.565,0.7841202297454744,-0.024077105903358525,0.6023780530708375,0.019052409511320385,-0.097927,-30.256259
11.185,2.0,1.0,1.0,33.1,34.7,34.7,1.9,2.1,2.5675,0.7793703833491261,-0.02472196308216846,0.608192453765125,0.019230595059696307,-0.099649,-30.083349
11.185,2.0,1.0,1.0,33.1,34.7,34.7,1.9,2.1,2.57,0.7745396017384447,-0.025386907348291802,0.6140068664178918,0.019408909644556122,-0.101428,-29.908888
11.185,2.0,1.0,1.0,33.1,34.7,34.7,1.9,2.1,2.5725,0.7696263053988655,-0.026072762097904562,0.6198208842674844,0.01958721620949524,-0.103266,-29.732838
11.185,2.0,1.0,1.0,33.1,34.7,34.7,1.9,2.1,2.575,0.7646288559566821,-0.026780394042611556,0.6256340771165727,0.019765363963865322,-0.105167,-29.555155
11.185,2.0,1.0,1.0,33.1,34.7,34.7,1.9,2.1,2.5775,0.7595455529899313,-0.0275107159928741,0.6314459896560883,0.019943187074584166,-0.107133,-29.375797
11.185,2.0,1.0,1.0,33.1,34.7,34.7,1.9,2.1,2.58,0.7543746306141907,-0.028264689852359432,0.6372561396393114,0.020120503223313383,-0.109168,-29.194719
11.185,2.0,1.0,1.0,33.1,34.7,34.7,1.9,2.1,2.5825,0.7491142538242624,-0.029043329841552,0.6430640158900387,0.020297112013676333,-0.111275,-29.011875
11.185,2.0,1.0,1.0,33.1,34.7,34.7,1.9,2.1,2.585,0.7437625145709085,-0.029847705970750562,0.6488690761267678,0.020472793211254343,-0.113457,-28.827218
11.185,2.0,1.0,1.0,33.1,34.7,34.7,1.9,2.1,2.5875,0.7383174275497578,-0.03067894778455439,0.6546707445826004,0.020647304796896533,-0.11572,-28.640698
11.185,2.0,1.0,1.0,33.1,34.7,34.7,1.9,2.1,2.59,0.7327769256772816,-0.031538248402129494,0.6604684093979785,0.02082038081136437,-0.118066,-28.452264
11.185,2.0,1.0,1.0,33.1,34.7,34.7,1.9,2.1,2.5925,0.7271388552262407,-0.0324268688799729,0.6662614197604634,0.020991728966460503,-0.1205,-28.261862
11.185,2.0,1.0,1.0,33.1,34.7,34.7,1.9,2.1,2.595,0.7214009705902832,-0.03334614292657857,0.6720490827623878,0.021161027994503794,-0.123028,-28.069438
11.185,2.0,1.0,1.0,33.1,34.7,34.7,1.9,2.1,2.5975,0.7155609286442891,-0.0342974820013955,0.6778306599434135,0.02132792470424663,-0.125653,-27.874934
11.185,2.0,1.0,1.0,33.1,34.7,34.7,1.9,2.1,2.6,0.7096162826637179,-0.035282380833771464,0.6836053634805999,0.0214920307070054,-0.128382,-27.678291
11.185,2.0,1.0,1.0,33.1,34.7,34.7,1.9,2.1,2.6025,0.7035644757624525,-0.03630242340125023,0.6893723519835472,0.021652918771802986,-0.131221,-27.479448
11.185,2.0,1.0,1.0,33.1,34.7,34.7,1.9,2.1,2.605,0.6974028338044649,-0.03735928941066729,0.6951307258463744,0.021810118762596663,-0.134175,-27.278339
11.185,2.0,1.0,1.0,33.1,34.7,34.7,1.9,2.1,2.6075,0.6911285577400332,-0.03845476133001318,0.7008795221015791,0.02196311310405693,-0.137252,-27.074899
11.185,2.0,1.0,1.0,33.1,34.7,34.7,1.9,2.1,2.61,0.6847387153121092,-0.039590732024059765,0.7066177087130895,0.022111331714729277,-0.140458,-26.869057
11.185,2.0,1.0,1.0,33.1,34.7,34.7,1.9,2.1,2.6125,0.6782302320727415,-0.04076921305232686,0.7123441782368769,0.022254146337571175,-0.143802,-26.660742
11.185,2.0,1.0,1.0,33.1,34.7,34.7,1.9,2.1,2.615,0.6715998816431568,-0.04199234369415946,0.7180577407671133,0.02239086418760526,-0.147293,-26.449878
11.185,2.0,1.0,1.0,33.1,34.7,34.7,1.9,2.1,2.6175,0.6648442751441085,-0.04326240077255784,0.7237571160738034,0.022520720824517212,-0.150938,-26.236387
11.185,2.0,1.0,1.0,33.1,34.7,34.7,1.9,2.1,2.62,0.6579598497153304,-0.04458180935602384,0.7294409248238185,0.022642872144159325,-0.154748,-26.020188
11.185,2.0,1.0,1.0,33.1,34.7,34.7,1.9,2.1,2.6225,0.6509428560343411,-0.045953154426128524,0.7351076787608973,0.02275638536674507,-0.158735,-25.801193
11.185,2.0,1.0,1.0,33.1,34.7,34.7,1.9,2.1,2.625,0.643789344735365,-0.0473791936078371,0.7407557697011,0.0228602288806143,-0.162908,-25.579315
11.185,2.0,1.0,1.0,33.1,34.7,34.7,1.9,2.1,2.6275,0.6364951516185984,-0.048862871069943296,0.7463834571778502,0.022953260778310263,-0.167282,-25.35446
11.185,2.0,1.0,1.0,33.1,34.7,34.7,1.9,2.1,2.63,0.6290558815285349,-0.050407332714313795,0.7519888545444877,0.02303421589572777,-0.171869,-25.126531
11.185,2.0,1.0,1.0,33.1,34.7,34.7,1.9,2.1,2.6325,0.6214668907673405,-0.05201594278511962,0.7575699133114377,0.023101691134540612,-0.176685,-24.895426
11.185,2.0,1.0,1.0,33.1,34.7,34.7,1.9,2.1,2.635,0.6137232678953929,-0.053692302042869615,0.7631244054588103,0.023154128812110174,-0.181746,-24.661038
11.185,2.0,1.0,1.0,33.1,34.7,34.7,1.9,2.1,2.6375,0.6058198127559768,-0.05544026766291012,0.768649903422379,0.02318979774055438,-0.187069,-24.423256
11.185,2.0,1.0,1.0,33.1,34.7,34.7,1.9,2.1,2.64,0.5977510135447549,-0.057263975034110626,0.7741437574001935,0.023206771686321397,-0.192674,-24.181963
11.185,2.0,1.0,1.0,33.1,34.7,34.7,1.9,2.1,2.6425,0.5895110217271224,-0.05916786165065399,0.7796030695669147,0.023202904801899817,-0.198583,-23.937035
11.185,2.0,1.0,1.0,33.1,34.7,34.7,1.9,2.1,2.645,0.5810936245879268,-0.06115669330808426,0.7850246647114951,0.0231758035502963,-0.204819,-23.688345
11.185,2.0,1.0,1.0,33.1,34.7,34.7,1.9,2.1,2.6475,0.572492215178629,-0.06323559283376884,0.7904050567286193,0.023122794558291308,-0.211407,-23.435756
11.185,2.0,1.0,1.0,33.1,34.7,34.7,1.9,2.1,2.65,0.5636997594071208,-0.06541007160132081,0.7957404102926096,0.023040887733398123,-0.218377,-23.179127
11.185,2.0,1.0,1.0,33.1,34.7,34.7,1.9,2.1,2.6525,0.5547087599958244,-0.06768606409763839,0.801026496920666,0.02292673385840729,-0.225758,-22.918309
11.185,2.0,1.0,1.0,33.1,34.7,34.7,1.9,2.1,2.655,0.5455112170151684,-0.0700699658291431,0.8062586444861943,0.022776575732114487,-0.233587,-22.653144
11.185,2.0,1.0,1.0,33.1,34.7,34.7,1.9,2.1,2.6575,0.5360985846836926,-0.07256867486905866,0.8114316790671047,0.022586191750034235,-0.241901,-22.383466
11.185,2.0,1.0,1.0,33.1,34.7,34.7,1.9,2.1,2.66,0.5264617241147064,-0.0751896373581825,0.8165398578019754,0.022350830608098775,-0.250743,-22.109102
11.185,2.0,1.0,1.0,33.1,34.7,34.7,1.9,2.1,2.6625,0.5165908516857097,-0.07794089727458546,0.8215767911707086,0.02206513555751419,-0.260162,-21.829867
11.185,2.0,1.0,1.0,33.1,34.7,34.7,1.9,2.1,2.665,0.5064754827147053,-0.08083115077889542,0.8265353528058375,0.02172305633018361,-0.270209,-21.545568
11.185,2.0,1.0,1.0,33.1,34.7,34.7,1.9,2.1,2.6675,0.4961043701531271,-0.08386980541536226,0.8314075745636499,0.021317746479149025,-0.280945,-21.255999
11.185,2.0,1.0,1.0,33.1,34.7,34.7,1.9,2.1,2.67,0.48546543805647774,-0.08706704439652745,0.8361845241255075,0.020841443422158597,-0.292436,-20.960945
11.185,2.0,1.0,1.0,33.1,34.7,34.7,1.9,2.1,2.6725,0.4745457096826907,-0.09043389610938878,0.8408561618402635,0.020285327919930016,-0.304757,-20.660178
11.185,2.0,1.0,1.0,33.1,34.7,34.7,1.9,2.1,2.675,0.4633312302108965,-0.09398230883722525,0.8454111728350626,0.019639359040661712,-0.317993,-20.353454
11.185,2.0,1.0,1.0,33.1,34.7,34.7,1.9,2.1,2.6775,0.4518069842924318,-0.09772523047099475,0.8498367695851912,0.018892079830046708,-0.332239,-20.040521
11.185,2.0,1.0,1.0,33.1,34.7,34.7,1.9,2.1,2.68,0.439956808973534,-0.10167669265561534,0.8541184591081925,0.01803038788595518,-0.347605,-19.721106
11.185,2.0,1.0,1.0,33.1,34.7,34.7,1.9,2.1,2.6825,0.4277633030097612,-0.10585189833496379,0.8582397676894227,0.017039263785440458,-0.364214,-19.394925
11.185,2.0,1.0,1.0,33.1,34.7,34.7,1.9,2.1,2.685,0.41520773428825586,-0.11026731096274515,0.8621819145019208,0.015901448775529126,-0.382206,-19.061675
11.185,2.0,1.0,1.0,33.1,34.7,34.7,1.9,2.1,2.6875,0.4022699480732804,-0.11494074264701,0.8659234235881791,0.014597061253971578,-0.401745,-18.721035
11.185,2.0,1.0,1.0,33.1,34.7,34.7,1.9,2.1,2.69,0.38892828021602044,-0.11989143707126695,0.8694396613477497,0.013103139254959578,-0.423015,-18.372669
11.185,2.0,1.0,1.0,33.1,34.7,34.7,1.9,2.1,2.6925,0.37515948149456685,-0.12514014101224735,0.8727022838324233,0.011393093328124333,-0.446231,-18.016218
11.185,2.0,1.0,1.0,33.1,34.7,34.7,1.9,2.1,2.695,0.36093866211821796,-0.1307091554103204,0.8756785746879997,0.009436050755827746,-0.471641,-17.651305
11.185,2.0,1.0,1.0,33.1,34.7,34.7,1.9,2.1,2.6975,0.34623926948495953,-0.1366223529009803,0.878330650389795,0.007196067886093811,-0.499535,-17.277533
11.185,2.0,1.0,1.0,33.1,34.7,34.7,1.9,2.1,2.7,0.3310331180071789,-0.1429051430016732,0.8806145043938678,0.00463118236369017,-0.530249,-16.894484
11.185,2.0,1.0,1.0,33.1,34.7,34.7,1.9,2.1,2.7025,0.31529049790107533,-0.14958435808681156,0.882478855891572,0.0016922711452092465,-0.564179,-16.501721
11.185,2.0,1.0,1.0,33.1,34.7,34.7,1.9,2.1,2.705,0.2989804012325192,-0.1566880219162354,0.8838637620077583,-0.0016783266164131364,-0.601791,-16.098786
11.185,2.0,1.0,1.0,33.1,34.7,34.7,1.9,2.1,2.7075,0.28207091957754543,-0.16424494646230361,0.8846989446725362,-0.00554847028526743,-0.643637,-15.685206
11.185,2.0,1.0,1.0,33.1,34.7,34.7,1.9,2.1,2.71,0.2645298902784241,-0.1722840802267604,0.884901775469335,-0.00999821837825065,-0.690371,-15.260495
11.185,2.0,1.0,1.0,33.1,34.7,34.7,1.9,2.1,2.7125,0.24632590007396374,-0.18083349954382355,0.8843748545098871,-0.01512223261676961,-0.742779,-14.824157
11.185,2.0,1.0,1.0,33.1,34.7,34.7,1.9,2.1,2.715,0.22742979943482822,-0.1899188899673056,0.8830031147725623,-0.021032653406908606,-0.801802,-14.375696
11.185,2.0,1.0,1.0,33.1,34.7,34.7,1.9,2.1,2.7175,0.20781694302949424,-0.19956130297167907,0.8806503850141234,-0.02786251298468493,-0.868577,-13.914629
11.185,2.0,1.0,1.0,33.1,34.7,34.7,1.9,2.1,2.72,0.1874704575659657,-0.20977388771084265,0.8771553588510608,-0.03576973788042145,-0.944487,-13.440499
11.185,2.0,1.0,1.0,33.1,34.7,34.7,1.9,2.1,2.7225,0.1663859552965056,-0.2205571810210348,0.8723269562337181,-0.044941753665569864,-1.03122,-12.9529
11.185,2.0,1.0,1.0,33.1,34.7,34.7,1.9,2.1,2.725,0.14457826777858987,-0.23189238324551276,0.865939145492004,-0.055600623012616354,-1.130845,-12.451511
11.185,2.0,1.0,1.0,33.1,34.7,34.7,1.9,2.1,2.7275,0.12209097625398273,-0.2437318466741265,0.8577254511057113,-0.06800849133330203,-1.245919,-11.93614
11.185,2.0,1.0,1.0,33.1,34.7,34.7,1.9,2.1,2.73,0.09900976081008135,-0.25598575894213754,0.8473736551494813,-0.08247283203555289,-1.379611,-11.406787
11.185,2.0,1.0,1.0,33.1,34.7,34.7,1.9,2.1,2.7325,0.0754808587309808,-0.2685037372728118,0.8345216872012959,-0.09935049784073645,-1.535863,-10.863727
11.185,2.0,1.0,1.0,33.1,34.7,34.7,1.9,2.1,2.735,0.05173614635021879,-0.28104982772836823,0.8187565016022421,-0.1190487829118968,-1.719599,-10.30763
11.185,2.0,1.0,1.0,33.1,34.7,34.7,1.9,2.1,2.7375,0.028126380071522884,-0.2932693845933199,0.7996190094261125,-0.14202043642120893,-1.936968,-9.739706
11.185,2.0,1.0,1.0,33.1,34.7,34.7,1.9,2.1,2.74,0.00516362391336016,-0.3046468149506483,0.7766200160730832,-0.16874769200476827,-2.195636,-9.161912
11.185,2.0,1.0,1.0,33.1,34.7,34.7,1.9,2.1,2.7425,-0.016427753630002435,-0.31445481710737183,0.7492746640336253,-0.19970784059287935,-2.505092,-8.577199
11.185,2.0,1.0,1.0,33.1,34.7,34.7,1.9,2.1,2.745,-0.03565590513503967,-0.3216995086705797,0.7171657827522353,-0.23530998852269872,-2.876887,-7.989817
11.185,2.0,1.0,1.0,33.1,34.7,34.7,1.9,2.1,2.7475,-0.05121378948302813,-0.32507306524997714,0.6800486026890535,-0.2757906082883499,-3.32464,-7.405663
11.185,2.0,1.0,1.0,33.1,34.7,34.7,1.9,2.1,2.75,-0.0614623985704387,-0.32293729257229,0.638007572931236,-0.321057224345411,-3.863365,-6.83262
11.185,2.0,1.0,1.0,33.1,34.7,34.7,1.9,2.1,2.7525,-0.06448400255976469,-0.31337707682073257,0.5916651171719247,-0.37048047615010793,-4.507198,-6.280811
11.185,2.0,1.0,1.0,33.1,34.7,34.7,1.9,2.1,2.755,-0.05825743126068701,-0.2943755000004272,0.5424149803333925,-0.4226619207795771,-5.263555,-5.762627
11.185,2.0,1.0,1.0,33.1,34.7,34.7,1.9,2.1,2.7575,-0.04100150520626668,-0.2641564226054808,0.4926061336421377,-0.4752514569563537,-6.12002,-5.29233
11.185,2.0,1.0,1.0,33.1,34.7,34.7,1.9,2.1,2.76,-0.011683503291611802,-0.2216911530505003,0.44555061122392886,-0.524940566468962,-7.019074,-4.885049
11.185,2.0,1.0,1.0,33.1,34.7,34.7,1.9,2.1,2.7625,0.02941640339885936,-0.16726017931546555,0.4052142926998945,-0.5677716367459137,-7.823478,-4.555095
11.185,2.0,1.0,1.0,33.1,34.7,34.7,1.9,2.1,2.765,0.08031901352024758,-0.10283636547926812,0.3755361692124068,-0.5998170909404683,-8.312711,-4.313808
11.185,2.0,1.0,1.0,33.1,34.7,34.7,1.9,2.1,2.7675,0.13740834057344775,-0.032020810618575944,0.3595238230685204,-0.6180804436999315,-8.293323,-4.167459
11.185,2.0,1.0,1.0,33.1,34.7,34.7,1.9,2.1,2.77,0.19605315198569956,0.04057826858817995,0.3584783054803342,-0.6212670498176911,-7.774304,-4.115946
11.185,2.0,1.0,1.0,33.1,34.7,34.7,1.9,2.1,2.7725,0.2515931974143827,0.11032877582385835,0.3717148945291071,-0.6100598666951172,-6.957872,-4.152782
11.185,2.0,1.0,1.0,33.1,34.7,34.7,1.9,2.1,2.775,0.30027514847546505,0.1735063168180843,0.39689747160546657,-0.5867840092760379,-6.060867,-4.266411
11.185,2.0,1.0,1.0,33.1,34.7,34.7,1.9,2.1,2.7775,0.3397800179862886,0.22781778725437393,0.43077672797111355,-0.5546700558398276,-5.21406,-4.442289
11.185,2.0,1.0,1.0,33.1,34.7,34.7,1.9,2.1,2.78,0.36925093773917855,0.2724271571129286,0.46997305234309256,-0.517074123589727,-4.470631,-4.665048
11.185,2.0,1.0,1.0,33.1,34.7,34.7,1.9,2.1,2.7825,0.3889738518929584,0.30763612949002944,0.5115362412493287,-0.4769211125411528,-3.840815,-4.920177
11.185,2.0,1.0,1.0,33.1,34.7,34.7,1.9,2.1,2.785,0.3999395116128348,0.33444734926608255,0.5532053631374824,-0.43644686877003774,-3.316255,-5.195031
11.185,2.0,1.0,1.0,33.1,34.7,34.7,1.9,2.1,2.7875,0.40345390057324443,0.3541764420401133,0.5934317467532696,-0.39717611088583765,-2.882465,-5.479224
11.185,2.0,1.0,1.0,33.1,34.7,34.7,1.9,2.1,2.79,0.4008662624614866,0.36818149001223427,0.6312715325478708,-0.3600299415683269,-2.524348,-5.764606
11.185,2.0,1.0,1.0,33.1,34.7,34.7,1.9,2.1,2.7925,0.3934142322371848,0.3777092252743548,0.6662352080219844,-0.3254758909896669,-2.228313,-6.045009
11.185,2.0,1.0,1.0,33.1,34.7,34.7,1.9,2.1,2.795,0.3821559996308998,0.38382787043373506,0.6981447847619562,-0.2936701232739476,-1.982881,-6.315904
11.185,2.0,1.0,1.0,33.1,34.7,34.7,1.9,2.1,2.7975,0.36795620967092907,0.3874134242020482,0.7270192586302068,-0.264571332071704,-1.778654,-6.574053
11.185,2.0,1.0,1.0,33.1,34.7,34.7,1.9,2.1,2.8,0.3514999048278393,0.38916380060894395,0.7529914899204543,-0.2380232601113391,-1.608059,-6.817205
11.185,2.0,1.0,1.0,33.1,34.7,34.7,1.9,2.1,2.8025,0.33331803391963205,0.3896244296822466,0.7762519565184591,-0.21381040417221986,-1.465038,-7.043843
11.185,2.0,1.0,1.0,33.1,34.7,34.7,1.9,2.1,2.805,0.3138153236661938,0.38921617106448725,0.7970127887426289,-0.19169348375282685,-1.344759,-7.252982
11.185,2.0,1.0,1.0,33.1,34.7,34.7,1.9,2.1,2.8075,0.29329605698037886,0.3882611179119801,0.8154859959152645,-0.17143074013118187,-1.243369,-7.444014
11.185,2.0,1.0,1.0,33.1,34.7,34.7,1.9,2.1,2.81,0.2719860437874263,0.38700459465409637,0.8318711108256155,-0.15278981445301765,-1.157792,-7.616596
11.185,2.0,1.0,1.0,33.1,34.7,34.7,1.9,2.1,2.8125,0.250050491709923,0.385633063952323,0.846348821341154,-0.135553611391571,-1.085564,-7.770557
11.185,2.0,1.0,1.0,33.1,34.7,34.7,1.9,2.1,2.815,0.22760813031680144,0.3842882986366273,0.8590782530143986,-0.11952246165274796,-1.024714,-7.905839
11.185,2.0,1.0,1.0,33.1,34.7,34.7,1.9,2.1,2.8175,0.20474217262196104,0.383078400738046,0.8701963699335997,-0.10451409369236689,-0.973657,-8.022447
11.185,2.0,1.0,1.0,33.1,34.7,34.7,1.9,2.1,2.82,0.18150872359498743,0.38208627329047173,0.879818516101206,-0.09036236921616457,-0.931125,-8.120416
11.185,2.0,1.0,1.0,33.1,34.7,34.7,1.9,2.1,2.8225,0.15794318411820268,0.3813760870409159,0.8880394880524364,-0.07691536644415971,-0.896103,-8.199783
11.185,2.0,1.0,1.0,33.1,34.7,34.7,1.9,2.1,2.825,0.13406510962643103,0.3809981925319201,0.8949347667341884,-0.0640331541697851,-0.867788,-8.260569
11.185,2.0,1.0,1.0,33.1,34.7,34.7,1.9,2.1,2.8275,0.10988189356374965,0.38099283566864184,0.9005616854270575,-0.05158544563603635,-0.845551,-8.302768
11.185,2.0,1.0,1.0,33.1,34.7,34.7,1.9,2.1,2.83,0.08539156827121604,0.3813929528286427,0.9049604009007234,-0.03944922379306628,-0.828911,-8.32633
11.185,2.0,1.0,1.0,33.1,34.7,34.7,1.9,2.1,2.8325,0.06058495342991497,0.3822262526378379,0.9081545874659256,-0.027506367866659078,-0.817519,-8.331157
