1,w,sub_t,h,l1,l2,l3,g1,g2,Freq,S11_re,S21_re,S11_img,S21_img,S11_dB,S21_dB
11.185,2.0,1.0,1.0,34.0,33.5,33.5,3.4,4.2,2.5,0.78773370888514,-0.00705022556951161,0.604638964820281,0.00347842564271025,-0.060735,-42.089755
11.185,2.0,1.0,1.0,34.0,33.5,33.5,3.4,4.2,2.5025,0.7831918771605824,-0.007173763104145925,0.6104027214759009,0.0034638856425121063,-0.061315,-41.974905
11.185,2.0,1.0,1.0,34.0,33.5,33.5,3.4,4.2,2.505,0.7785853608505412,-0.007299105179779053,0.6161590631806335,0.003448002885660284,-0.061904,-41.859812
11.185,2.0,1.0,1.0,34.0,33.5,33.5,3.4,4.2,2.5075,0.773913519763772,-0.0074262750471475614,0.6219075211942827,0.0034307342371527735,-0.062504,-41.744473
11.185,2.0,1.0,1.0,34.0,33.5,33.5,3.4,4.2,2.51,0.7691757057468303,-0.007555296423552068,0.6276476132243124,0.0034120352554216603,-0.063113,-41.628885
11.185,2.0,1.0,1.0,34.0,33.5,33.5,3.4,4.2,2.5125,0.7643712626487689,-0.007686193469469609,0.6333788430315079,0.0033918601715692246,-0.063733,-41.513043
11.185,2.0,1.0,1.0,34.0,33.5,33.5,3.4,4.2,2.515,0.7594995262893509,-0.007818990765372303,0.639100700024709,0.0033701618616639667,-0.064363,-41.396943
11.185,2.0,1.0,1.0,34.0,33.5,33.5,3.4,4.2,2.5175,0.7545598244309734,-0.007953713289285234,0.6448126588443364,0.0033468918130478095,-0.065003,-41.280581
11.185,2.0,1.0,1.0,34.0,33.5,33.5,3.4,4.2,2.52,0.7495514767544579,-0.00809038639537072,0.650514178934466,0.0033220000854877114,-0.065655,-41.163951
11.185,2.0,1.0,1.0,34.0,33.5,33.5,3.4,4.2,2.5225,0.7444737948389037,-0.008229035793648205,0.6562047041031769,0.0032954352678761984,-0.066317,-41.04705
11.185,2.0,1.0,1.0,34.0,33.5,33.5,3.4,4.2,2.525,0.7393260821457202,-0.008369687530836797,0.6618836620709403,0.003267144431056802,-0.066991,-40.929871
11.185,2.0,1.0,1.0,34.0,33.5,33.5,3.4,4.2,2.5275,0.7341076340069754,-0.008512367972224866,0.6675504640067996,0.003237073077234525,-0.067677,-40.812409
11.185,2.0,1.0,1.0,34.0,33.5,33.5,3.4,4.2,2.53,0.7288177376181365,-0.008657103784420283,0.6732045040521111,0.00320516508632647,-0.068374,-40.69466
11.185,2.0,1.0,1.0,34.0,33.5,33.5,3.4,4.2,2.5325,0.7234556720352301,-0.008803921918806029,0.6788451588316416,0.0031713626595177694,-0.069083,-40.576616
11.185,2.0,1.0,1.0,34.0,33.5,33.5,3.4,4.2,2.535,0.7180207081763691,-0.008952849595511488,0.6844717869518424,0.003135606260213022,-0.069805,-40.458273
11.185,2.0,1.0,1.0,34.0,33.5,33.5,3.4,4.2,2.5375,0.7125121088275009,-0.00910391428770601,0.6900837284861436,0.0030978345525097617,-0.070539,-40.339623
11.185,2.0,1.0,1.0,34.0,33.5,33.5,3.4,4.2,2.54,0.7069291286520726,-0.009257143706024177,0.6956803044471837,0.0030579843372691385,-0.071286,-40.220663
11.185,2.0,1.0,1.0,34.0,33.5,33.5,3.4,4.2,2.5425,0.7012710142041214,-0.009412565782938144,0.7012608162459406,0.0030159904858166665,-0.072045,-40.101384
11.185,2.0,1.0,1.0,34.0,33.5,33.5,3.4,4.2,2.545,0.695537003944023,-0.009570208656900633,0.7068245451378248,0.0029717858712722664,-0.072819,-39.98178
11.185,2.0,1.0,1.0,34.0,33.5,33.5,3.4,4.2,2.5475,0.689726328255754,-0.00973010065609083,0.7123707516559208,0.002925301297480493,-0.073606,-39.861846
11.185,2.0,1.0,1.0,34.0,33.5,33.5,3.4,4.2,2.55,0.6838382094639754,-0.009892270281604283,0.7178986750317431,0.002876465425489791,-0.074406,-39.741575
11.185,2.0,1.0,1.0,34.0,33.5,33.5,3.4,4.2,2.5525,0.6778718618485297,-0.010056746189934586,0.7234075326040793,0.0028252046975117623,-0.075222,-39.620959
11.185,2.0,1.0,1.0,34.0,33.5,33.5,3.4,4.2,2.555,0.6718264916528304,-0.010223557174602452,0.7288965192168608,0.0027714432582754533,-0.076051,-39.499993
11.185,2.0,1.0,1.0,34.0,33.5,33.5,3.4,4.2,2.5575,0.6657012970811071,-0.010392732146792339,0.7343648066074294,0.002715102873680007,-0.076896,-39.37867
11.185,2.0,1.0,1.0,34.0,33.5,33.5,3.4,4.2,2.56,0.6594954682772107,-0.01056430011486092,0.7398115427872218,0.0026561028466377886,-0.077756,-39.256981
11.185,2.0,1.0,1.0,34.0,33.5,33.5,3.4,4.2,2.5625,0.653208187274314,-0.0107382901625848,0.74523585141784,0.00259435992999116,-0.078631,-39.134922
11.185,2.0,1.0,1.0,34.0,33.5,33.5,3.4,4.2,2.565,0.6468386278997933,-0.010914731426016311,0.7506368311868185,0.0025297882363771707,-0.079523,-39.012484
11.185,2.0,1.0,1.0,34.0,33.5,33.5,3.4,4.2,2.5675,0.6403859556117942,-0.011093653068816182,0.7560135551893863,0.002462299144907802,-0.08043,-38.889659
11.185,2.0,1.0,1.0,34.0,33.5,33.5,3.4,4.2,2.57,0.6338493272317268,-0.011275084255931754,0.7613650703255233,0.002391801204524794,-0.081355,-38.766442
11.185,2.0,1.0,1.0,34.0,33.5,33.5,3.4,4.2,2.5725,0.6272278905172528,-0.011459054125487264,0.7666903967261083,0.0023182000338822467,-0.082296,-38.642824
11.185,2.0,1.0,1.0,34.0,33.5,33.5,3.4,4.2,2.575,0.6205207834877872,-0.011645591758749713,0.7719885272289476,0.002241398217602524,-0.083255,-38.518798
11.185,2.0,1.0,1.0,34.0,33.5,33.5,3.4,4.2,2.5775,0.6137271333591625,-0.011834726148030574,0.7772584269363891,0.0021612951987441194,-0.084232,-38.394356
11.185,2.0,1.0,1.0,34.0,33.5,33.5,3.4,4.2,2.58,0.6068460548466154,-0.012026486162378407,0.7824990329035906,0.002077787167313035,-0.085228,-38.269491
11.185,2.0,1.0,1.0,34.0,33.5,33.5,3.4,4.2,2.5825,0.5998766474169149,-0.012220900510912626,0.7877092540343766,0.0019907669446413536,-0.086242,-38.144194
11.185,2.0,1.0,1.0,34.0,33.5,33.5,3.4,4.2,2.585,0.5928179907295044,-0.012417997703641593,0.7928879713063157,0.0019001238634492002,-0.087276,-38.018458
11.185,2.0,1.0,1.0,34.0,33.5,33.5,3.4,4.2,2.5875,0.5856691368201202,-0.01261780600960186,0.7980340385165697,0.0018057436433976746,-0.08833,-37.892275
11.185,2.0,1.0,1.0,34.0,33.5,33.5,3.4,4.2,2.59,0.5784290961124703,-0.012820353412146658,0.803146283838651,0.0017075082619318405,-0.089405,-37.765636
11.185,2.0,1.0,1.0,34.0,33.5,33.5,3.4,4.2,2.5925,0.5710968109683426,-0.013025667561203939,0.8082235125654461,0.0016052958202033205,-0.090502,-37.638534
11.185,2.0,1.0,1.0,34.0,33.5,33.5,3.4,4.2,2.595,0.5636711020102405,-0.013233775722313464,0.8132645111857699,0.0014989804038524615,-0.091622,-37.510959
11.185,2.0,1.0,1.0,34.0,33.5,33.5,3.4,4.2,2.5975,0.556150548689641,-0.01344470472224355,0.8182680507010703,0.0013884319384190361,-0.092767,-37.382904
11.185,2.0,1.0,1.0,34.0,33.5,33.5,3.4,4.2,2.6,0.5485331888889606,-0.013658480890975582,0.8232328727743458,0.0012735160391398564,-0.093943,-37.254359
11.185,2.0,1.0,1.0,34.0,33.5,33.5,3.4,4.2,2.6025,0.540815624173959,-0.013875129999832758,0.8281575449762697,0.0011540938548791895,-0.095162,-37.125316
11.185,2.0,1.0,1.0,34.0,33.5,33.5,3.4,4.2,2.605,0.5329896305395022,-0.01409467719551667,0.8330392010056235,0.001030021905925437,-0.096468,-36.995765
11.185,2.0,1.0,1.0,34.0,33.5,33.5,3.4,4.2,2.6075,0.525025430051119,-0.01431714692980098,0.8378566767944405,0.0009011519153737566,-0.098141,-36.865699
11.185,2.0,1.0,1.0,34.0,33.5,33.5,3.4,4.2,2.61,0.5170759837786659,-0.014542562884615912,0.8423913089611096,0.0007673306337998014,-0.101096,-36.735107
11.185,2.0,1.0,1.0,34.0,33.5,33.5,3.4,4.2,2.6125,0.5091424150657003,-0.014770947892242257,0.847303731990754,0.0006283996569143544,-0.100389,-36.603979
11.185,2.0,1.0,1.0,34.0,33.5,33.5,3.4,4.2,2.615,0.5009246592584229,-0.015002323850315056,0.8520535746791501,0.00048419523587158933,-0.101406,-36.472308
11.185,2.0,1.0,1.0,34.0,33.5,33.5,3.4,4.2,2.6175,0.4926148939868187,-0.015236711631318735,0.85671867083992,0.0003345480798863244,-0.102671,-36.340082
11.185,2.0,1.0,1.0,34.0,33.5,33.5,3.4,4.2,2.62,0.4842091282046465,-0.015474130986235825,0.8613235676485103,0.000179283150796549,-0.104004,-36.207292
11.185,2.0,1.0,1.0,34.0,33.5,33.5,3.4,4.2,2.6225,0.47570370796849604,-0.015714600441989645,0.86587206464943,1.8219449186531747e-05,-0.105375,-36.073927
11.185,2.0,1.0,1.0,34.0,33.5,33.5,3.4,4.2,2.625,0.467096473877382,-0.0159581371922979,0.870364147304302,-0.000148830208335008,-0.10678,-35.939978
11.185,2.0,1.0,1.0,34.0,33.5,33.5,3.4,4.2,2.6275,0.4583859055258351,-0.016204756981530143,0.8747987082739639,-0.0003220594211320607,-0.108215,-35.805434
11.185,2.0,1.0,1.0,34.0,33.5,33.5,3.4,4.2,2.63,0.44957077142103397,-0.01645447398113485,0.8791742139328411,-0.0005016684462678435,-0.109681,-35.670285
11.185,2.0,1.0,1.0,34.0,33.5,33.5,3.4,4.2,2.6325,0.4406499852828228,-0.016707300658173267,0.8834889176979847,-0.0006878644504432025,-0.111179,-35.534519
11.185,2.0,1.0,1.0,34.0,33.5,33.5,3.4,4.2,2.635,0.4316225417830248,-0.01696324763546692,0.8877409414465346,-0.0008808617726575713,-0.112707,-35.398125
11.185,2.0,1.0,1.0,34.0,33.5,33.5,3.4,4.2,2.6375,0.4224874855246114,-0.01722232354283156,0.8919283105101335,-0.0010808821981346938,-0.114269,-35.261092
11.185,2.0,1.0,1.0,34.0,33.5,33.5,3.4,4.2,2.64,0.41324389520588833,-0.01748453485883599,0.8960489699058621,-0.0012881552440894635,-0.115863,-35.123409
11.185,2.0,1.0,1.0,34.0,33.5,33.5,3.4,4.2,2.6425,0.4038908752809932,-0.017749885742484362,0.9001007921341023,-0.0015029184579478723,-0.117491,-34.985064
11.185,2.0,1.0,1.0,34.0,33.5,33.5,3.4,4.2,2.645,0.3944275515793255,-0.018018377854179753,0.904081580851127,-0.001725417728671653,-0.119155,-34.846044
11.185,2.0,1.0,1.0,34.0,33.5,33.5,3.4,4.2,2.6475,0.3848530691451386,-0.01829001016528169,0.9079890723770215,-0.001955907611881351,-0.120854,-34.706338
11.185,2.0,1.0,1.0,34.0,33.5,33.5,3.4,4.2,2.65,0.3751665913932666,-0.018564778755522184,0.9118209359972216,-0.002194651669517513,-0.12259,-34.565932
11.185,2.0,1.0,1.0,34.0,33.5,33.5,3.4,4.2,2.6525,0.3653673000881725,-0.01884267659749098,0.9155747735546184,-0.0024419228248281537,-0.124363,-34.424814
11.185,2.0,1.0,1.0,34.0,33.5,33.5,3.4,4.2,2.655,0.35545439586664906,-0.019123693327345797,0.9192481186032478,-0.00269800373352528,-0.126176,-34.282971
11.185,2.0,1.0,1.0,34.0,33.5,33.5,3.4,4.2,2.6575,0.34542709914019387,-0.019407815000839646,0.9228384352778245,-0.0029631871720100437,-0.128028,-34.14039
11.185,2.0,1.0,1.0,34.0,33.5,33.5,3.4,4.2,2.66,0.3352846512782777,-0.019695023833691486,0.9263431169703185,-0.0032377764436296616,-0.129922,-33.997056
11.185,2.0,1.0,1.0,34.0,33.5,33.5,3.4,4.2,2.6625,0.3250263160118676,-0.019985297925252693,0.9297594848692942,-0.0035220858039958607,-0.131858,-33.852955
11.185,2.0,1.0,1.0,34.0,33.5,33.5,3.4,4.2,2.665,0.3146513810195158,-0.02027861096434346,0.9330847863971022,-0.003816440906470219,-0.133838,-33.708073
11.185,2.0,1.0,1.0,34.0,33.5,33.5,3.4,4.2,2.6675,0.3041591596726413,-0.020574931916045435,0.9363161935676277,-0.004121179269000018,-0.135862,-33.562395
11.185,2.0,1.0,1.0,34.0,33.5,33.5,3.4,4.2,2.67,0.29354899292569453,-0.020874224688143716,0.9394508012796763,-0.004436650763576582,-0.137933,-33.415906
11.185,2.0,1.0,1.0,34.0,33.5,33.5,3.4,4.2,2.6725,0.28282025134286287,-0.021176447775807603,0.9424856255562847,-0.004763218129682555,-0.140051,-33.268591
11.185,2.0,1.0,1.0,34.0,33.5,33.5,3.4,4.2,2.675,0.27197233725699504,-0.021481553882986903,0.9454176017371193,-0.005101257513197079,-0.142218,-33.120432
11.185,2.0,1.0,1.0,34.0,33.5,33.5,3.4,4.2,2.6775,0.26100468705915203,-0.021789489518876968,0.9482435826291259,-0.005451159032341303,-0.144436,-32.971414
11.185,2.0,1.0,1.0,34.0,33.5,33.5,3.4,4.2,2.68,0.24991677361916037,-0.022100194567670924,0.95096033661922,-0.005813327372368356,-0.146706,-32.82152
11.185,2.0,1.0,1.0,34.0,33.5,33.5,3.4,4.2,2.6825,0.2387081088389782,-0.022413601829667628,0.9535645457518981,-0.006188182410836118,-0.149029,-32.670732
11.185,2.0,1.0,1.0,34.0,33.5,33.5,3.4,4.2,2.685,0.22737824634173734,-0.022729636531642155,0.9560528037740225,-0.006576159875447025,-0.151408,-32.519033
11.185,2.0,1.0,1.0,34.0,33.5,33.5,3.4,4.2,2.6875,0.215926784300185,-0.0230482158042044,0.958421614148595,-0.00697771203659892,-0.153843,-32.366404
11.185,2.0,1.0,1.0,34.0,33.5,33.5,3.4,4.2,2.69,0.20435336840893786,-0.023369248123673646,0.9606673880390136,-0.007393308436964926,-0.156338,-32.212825
11.185,2.0,1.0,1.0,34.0,33.5,33.5,3.4,4.2,2.6925,0.1926576950054971,-0.023692632715778785,0.9627864422651035,-0.007823436660612542,-0.158893,-32.058279
11.185,2.0,1.0,1.0,34.0,33.5,33.5,3.4,4.2,2.695,0.18083951434555778,-0.024018258918250556,0.9647749972320081,-0.008268603144379227,-0.161511,-31.902743
11.185,2.0,1.0,1.0,34.0,33.5,33.5,3.4,4.2,2.6975,0.16889863403852118,-0.024346005499106524,0.9666291748329314,-0.008729334034453603,-0.164194,-31.746198
11.185,2.0,1.0,1.0,34.0,33.5,33.5,3.4,4.2,2.7,0.15683492264964854,-0.024675739927131096,0.9683449963265658,-0.009206176091359626,-0.166944,-31.588622
11.185,2.0,1.0,1.0,34.0,33.5,33.5,3.4,4.2,2.7025,0.14464831347565843,-0.025007317590725515,0.9699183801899651,-0.009699697646819501,-0.169763,-31.429993
11.185,2.0,1.0,1.0,34.0,33.5,33.5,3.4,4.2,2.705,0.13233880850105884,-0.02534058096093551,0.971345139947493,-0.01021048961627144,-0.172653,-31.270289
11.185,2.0,1.0,1.0,34.0,33.5,33.5,3.4,4.2,2.7075,0.11990648254291814,-0.02567535869405885,0.9726209819763667,-0.01073916657115206,-0.175618,-31.109484
11.185,2.0,1.0,1.0,34.0,33.5,33.5,3.4,4.2,2.71,0.10735148759227056,-0.0260114646687802,0.9737415032891873,-0.011286367875417739,-0.178659,-30.947556
11.185,2.0,1.0,1.0,34.0,33.5,33.5,3.4,4.2,2.7125,0.09467405736083434,-0.026348696952276346,0.9747021892936885,-0.011852758891181366,-0.18178,-30.784479
11.185,2.0,1.0,1.0,34.0,33.5,33.5,3.4,4.2,2.715,0.08187451204227227,-0.026686836689167746,0.9754984115297568,-0.012439032258782385,-0.184982,-30.620226
11.185,2.0,1.0,1.0,34.0,33.5,33.5,3.4,4.2,2.7175,0.06895326329778705,-0.027025646906561306,0.9761254253835571,-0.013045909257094769,-0.18827,-30.454771
11.185,2.0,1.0,1.0,34.0,33.5,33.5,3.4,4.2,2.72,0.055910819476517735,-0.02736487122771906,0.976578367778351,-0.013674141250412667,-0.191646,-30.288085
11.185,2.0,1.0,1.0,34.0,33.5,33.5,3.4,4.2,2.7225,0.04274779108183781,-0.02770423248609335,0.976852254841281,-0.014324511228845592,-0.195114,-30.120139
11.185,2.0,1.0,1.0,34.0,33.5,33.5,3.4,4.2,2.725,0.02946489649553359,-0.02804343123057311,0.9769419795450407,-0.014997835449802101,-0.198676,-29.950903
11.185,2.0,1.0,1.0,34.0,33.5,33.5,3.4,4.2,2.7275,0.01606296797259696,-0.028382144111782782,0.9768423093229303,-0.0156949651888641,-0.202337,-29.780346
11.185,2.0,1.0,1.0,34.0,33.5,33.5,3.4,4.2,2.73,0.0025429579204447397,-0.028720022138138287,0.9765478836553012,-0.016416788609139792,-0.2061,-29.608435
11.185,2.0,1.0,1.0,34.0,33.5,33.5,3.4,4.2,2.7325,-0.011094054522610553,-0.02905668878908805,0.976053211624818,-0.01716423275906249,-0.209969,-29.435136
11.185,2.0,1.0,1.0,34.0,33.5,33.5,3.4,4.2,2.735,-0.024846856593515758,-0.029391737971518516,0.9753526694372951,-0.017938265709563757,-0.213949,-29.260414
11.185,2.0,1.0,1.0,34.0,33.5,33.5,3.4,4.2,2.7375,-0.03871409467778067,-0.029724731803668313,0.9744404979040912,-0.018739898842617963,-0.218044,-29.084233
11.185,2.0,1.0,1.0,34.0,33.5,33.5,3.4,4.2,2.74,-0.05269426673081735,-0.030055198209038504,0.9733107998811562,-0.019570189304330597,-0.222258,-28.906553
11.185,2.0,1.0,1.0,34.0,33.5,33.5,3.4,4.2,2.7425,-0.06678571432642401,-0.030382628300680607,0.9719575376587819,-0.020430242637045865,-0.226598,-28.727335
11.185,2.0,1.0,1.0,34.0,33.5,33.5,3.4,4.2,2.745,-0.08098661430941713,-0.030706473533848255,0.9703745302949485,-0.02132121560638554,-0.231067,-28.546539
11.185,2.0,1.0,1.0,34.0,33.5,33.5,3.4,4.2,2.7475,-0.09529497002704525,-0.031026142602271153,0.9685554508837955,-0.022244319240720675,-0.235671,-28.364119
11.185,2.0,1.0,1.0,34.0,33.5,33.5,3.4,4.2,2.75,-0.109708602111086,-0.0313409980501996,0.966493823749215,-0.0232008221023357,-0.240417,-28.180032
11.185,2.0,1.0,1.0,34.0,33.5,33.5,3.4,4.2,2.7525,-0.12422513877937741,-0.031650352568814065,0.9641830215518165,-0.024192053811483656,-0.245311,-27.99423
11.185,2.0,1.0,1.0,34.0,33.5,33.5,3.4,4.2,2.755,-0.13884200562189056,-0.03195346494152897,0.9616162622955367,-0.02521940884667802,-0.250359,-27.806664
11.185,2.0,1.0,1.0,34.0,33.5,33.5,3.4,4.2,2.7575,-0.15355641483230903,-0.03224953559806267,0.9587866062178978,-0.02628435064693788,-0.255568,-27.617281
11.185,2.0,1.0,1.0,34.0,33.5,33.5,3.4,4.2,2.76,-0.16836535384114182,-0.032537701731795744,0.9556869525454251,-0.027388416044316403,-0.260946,-27.426029
11.185,2.0,1.0,1.0,34.0,33.5,33.5,3.4,4.2,2.7625,-0.18326557330086385,-0.03281703192879413,0.9523100360928269,-0.028533220057934874,-0.266501,-27.23285
11.185,2.0,1.0,1.0,34.0,33.5,33.5,3.4,4.2,2.765,-0.19825357436697097,-0.033086520249791064,0.948648423681375,-0.029720461083925547,-0.272242,-27.037685
11.185,2.0,1.0,1.0,34.0,33.5,33.5,3.4,4.2,2.7675,-0.21332559521127228,-0.03334507969825284,0.9446945103482958,-0.030951926519195674,-0.278178,-26.840473
11.185,2.0,1.0,1.0,34.0,33.5,33.5,3.4,4.2,2.77,-0.22847759669489542,-0.03359153499821212,0.9404405153149612,-0.03222949886078458,-0.284318,-26.641147
11.185,2.0,1.0,1.0,34.0,33.5,33.5,3.4,4.2,2.7725,-0.2437052471181376,-0.033824614594619336,0.9358784776771828,-0.03355516232682072,-0.290673,-26.439639
11.185,2.0,1.0,1.0,34.0,33.5,33.5,3.4,4.2,2.775,-0.25900390595224326,-0.034042941776282074,0.9310002517759132,-0.034931010049731065,-0.297254,-26.235878
11.185,2.0,1.0,1.0,34.0,33.5,33.5,3.4,4.2,2.7775,-0.2743686064440687,-0.034245024806723916,0.9257975022011284,-0.036359251897428044,-0.304074,-26.029787
11.185,2.0,1.0,1.0,34.0,33.5,33.5,3.4,4.2,2.78,-0.2897940369680719,-0.03442924593113386,0.9202616983755432,-0.03784222298372871,-0.311146,-25.821288
11.185,2.0,1.0,1.0,34.0,33.5,33.5,3.4,4.2,2.7825,-0.3052745209805969,-0.03459384910755439,0.9143841086581236,-0.039382392935249755,-0.318483,-25.610295
11.185,2.0,1.0,1.0,34.0,33.5,33.5,3.4,4.2,2.785,-0.32080399540869325,-0.03473692628705058,0.9081557938999846,-0.040982375988496106,-0.326102,-25.396722
11.185,2.0,1.0,1.0,34.0,33.5,33.5,3.4,4.2,2.7875,-0.3363759872787203,-0.034856402040182116,0.9015676003773297,-0.042644941997776416,-0.334017,-25.180474
11.185,2.0,1.0,1.0,34.0,33.5,33.5,3.4,4.2,2.79,-0.35198358835839855,-0.03495001629491018,0.8946101520174602,-0.04437302844194061,-0.342247,-24.961454
11.185,2.0,1.0,1.0,34.0,33.5,33.5,3.4,4.2,2.7925,-0.3676194275484242,-0.03501530491320397,0.8872738418247624,-0.04616975352563765,-0.350812,-24.739558
11.185,2.0,1.0,1.0,34.0,33.5,33.5,3.4,4.2,2.795,-0.38327564071552533,-0.03504957778896219,0.8795488224038935,-0.0480384304787621,-0.359732,-24.514676
11.185,2.0,1.0,1.0,34.0,33.5,33.5,3.4,4.2,2.7975,-0.3989438376061689,-0.03504989409710647,0.8714249954674536,-0.049982583165776966,-0.36903,-24.286693
11.185,2.0,1.0,1.0,34.0,33.5,33.5,3.4,4.2,2.8,-0.41461506541778875,-0.03501303426121882,0.8628920002052993,-0.05200596312445474,-0.378731,-24.055486
11.185,2.0,1.0,1.0,34.0,33.5,33.5,3.4,4.2,2.8025,-0.43027976853000777,-0.0349354681329184,0.8539392003828717,-0.05411256816082968,-0.388862,-23.820925
11.185,2.0,1.0,1.0,34.0,33.5,33.5,3.4,4.2,2.805,-0.4459277438096459,-0.034813318787910316,0.8445556700268508,-0.05630666263328522,-0.399452,-23.582872
11.185,2.0,1.0,1.0,34.0,33.5,33.5,3.4,4.2,2.8075,-0.46154809079738557,-0.03464232123836391,0.8347301775489077,-0.05859279956291167,-0.410535,-23.341183
11.185,2.0,1.0,1.0,34.0,33.5,33.5,3.4,4.2,2.81,-0.4771291559569967,-0.03441777523540529,0.824451168153379,-0.06097584470846237,-0.422146,-23.095703
11.185,2.0,1.0,1.0,34.0,33.5,33.5,3.4,4.2,2.8125,-0.49265847001562,-0.0341344911846438,0.813706744373817,-0.0634610027408749,-0.434325,-22.846266
11.185,2.0,1.0,1.0,34.0,33.5,33.5,3.4,4.2,2.815,-0.5081226772403578,-0.03378672801638265,0.8024846445885616,-0.0660538456423038,-0.447115,-22.5927
11.185,2.0,1.0,1.0,34.0,33.5,33.5,3.4,4.2,2.8175,-0.5235074552753257,-0.033368121633831335,0.7907722193797456,-0.06876034343497818,-0.460564,-22.334818
11.185,2.0,1.0,1.0,34.0,33.5,33.5,3.4,4.2,2.82,-0.5387974238962312,-0.03287160229901329,0.7785564056273401,-0.0715868973119323,-0.474726,-22.072424
11.185,2.0,1.0,1.0,34.0,33.5,33.5,3.4,4.2,2.8225,-0.5539760407159962,-0.03228929899698359,0.7658236982754972,-0.07454037518919206,-0.48966,-21.805307
11.185,2.0,1.0,1.0,34.0,33.5,33.5,3.4,4.2,2.825,-0.5690254814821971,-0.031612428431851955,0.7525601197801549,-0.07762814961968591,-0.505433,-21.533243
11.185,2.0,1.0,1.0,34.0,33.5,33.5,3.4,4.2,2.8275,-0.5839265021293155,-0.030831165837359967,0.7387511873549927,-0.08085813789245494,-0.522118,-21.255994
