1,w,sub_t,h,l1,l2,l3,g1,g2,Freq,S11_re,S21_re,S11_img,S21_img,S11_dB,S21_dB
11.185,2.0,1.0,1.0,34.0,34.5,34.5,3.4,2.6,2.5,0.782822916599063,-0.0104908702415558,0.610407963240168,0.00656148811513526,-0.063832,-38.149922
11.185,2.0,1.0,1.0,34.0,34.5,34.5,3.4,2.6,2.5025,0.7783018472365001,-0.010699938503907528,0.6160335311265486,0.0065736465499131,-0.064531,-38.021641
11.185,2.0,1.0,1.0,34.0,34.5,34.5,3.4,2.6,2.505,0.7737173632813019,-0.010913121942639683,0.6216517054863542,0.006584421427403498,-0.065244,-37.89278
11.185,2.0,1.0,1.0,34.0,34.5,34.5,3.4,2.6,2.5075,0.7690687923352472,-0.011130520895267285,0.6272620483821261,0.006593751943239003,-0.065971,-37.763326
11.185,2.0,1.0,1.0,34.0,34.5,34.5,3.4,2.6,2.51,0.7643554511313576,-0.011352238930767753,0.632864108646486,0.006601574680283691,-0.066713,-37.633264
11.185,2.0,1.0,1.0,34.0,34.5,34.5,3.4,2.6,2.5125,0.7595766453335724,-0.011578382981547774,0.63845742144327,0.0066078234794820535,-0.06747,-37.502581
11.185,2.0,1.0,1.0,34.0,34.5,34.5,3.4,2.6,2.515,0.7547316693312813,-0.011809063481996573,0.644041507812337,0.006612429303248255,-0.068243,-37.371262
11.185,2.0,1.0,1.0,34.0,34.5,34.5,3.4,2.6,2.5175,0.7498198060284834,-0.012044394514012447,0.6496158741972828,0.006615320090895154,-0.069032,-37.239292
11.185,2.0,1.0,1.0,34.0,34.5,34.5,3.4,2.6,2.52,0.7448403266272874,-0.012284493959919238,0.6551800119552766,0.006616420605563346,-0.069837,-37.106657
11.185,2.0,1.0,1.0,34.0,34.5,34.5,3.4,2.6,2.5225,0.7397924904054938,-0.012529483663213837,0.6607333968481491,0.006615652272069008,-0.07066,-36.97334
11.185,2.0,1.0,1.0,34.0,34.5,34.5,3.4,2.6,2.525,0.7346755444879237,-0.01277948959761951,0.6662754885138527,0.006612933005043749,-0.071501,-36.839327
11.185,2.0,1.0,1.0,34.0,34.5,34.5,3.4,2.6,2.5275,0.7294887236111769,-0.013034642044950612,0.6718057299173252,0.00660817702668982,-0.072359,-36.7046
11.185,2.0,1.0,1.0,34.0,34.5,34.5,3.4,2.6,2.53,0.7242312498814587,-0.01329507578232989,0.6773235467797354,0.0066012946734199385,-0.073236,-36.569143
11.185,2.0,1.0,1.0,34.0,34.5,34.5,3.4,2.6,2.5325,0.7189023325250845,-0.013560930279338674,0.6828283469850261,0.006592192190592209,-0.074133,-36.432939
11.185,2.0,1.0,1.0,34.0,34.5,34.5,3.4,2.6,2.535,0.7135011676312388,-0.013832349905719988,0.6883195199626003,0.006580771514486239,-0.075049,-36.295971
11.185,2.0,1.0,1.0,34.0,34.5,34.5,3.4,2.6,2.5375,0.7080269378865506,-0.014109484150299226,0.6937964360449018,0.006566930040596014,-0.075986,-36.158221
11.185,2.0,1.0,1.0,34.0,34.5,34.5,3.4,2.6,2.54,0.7024788123009749,-0.014392487851836087,0.6992584457985791,0.006550560377238782,-0.076945,-36.01967
11.185,2.0,1.0,1.0,34.0,34.5,34.5,3.4,2.6,2.5425,0.6968559459244602,-0.01468152144257077,0.7047048793278112,0.006531550083394732,-0.077925,-35.880299
11.185,2.0,1.0,1.0,34.0,34.5,34.5,3.4,2.6,2.545,0.691157479553821,-0.014976751205285938,0.7101350455482822,0.006509781389600725,-0.078927,-35.74009
11.185,2.0,1.0,1.0,34.0,34.5,34.5,3.4,2.6,2.5475,0.6853825394291978,-0.015278349544763876,0.7155482314301752,0.006485130900619985,-0.079953,-35.599022
11.185,2.0,1.0,1.0,34.0,34.5,34.5,3.4,2.6,2.55,0.6795302369194085,-0.015586495274585723,0.7209437012084496,0.006457469278500199,-0.081003,-35.457075
11.185,2.0,1.0,1.0,34.0,34.5,34.5,3.4,2.6,2.5525,0.6735996681954814,-0.015901373920288266,0.7263206955585125,0.0064266609045098184,-0.082078,-35.314228
11.185,2.0,1.0,1.0,34.0,34.5,34.5,3.4,2.6,2.555,0.6675899138915472,-0.01622317803997216,0.7316784307352779,0.0063925635183106014,-0.083179,-35.170459
11.185,2.0,1.0,1.0,34.0,34.5,34.5,3.4,2.6,2.5575,0.6615000387522271,-0.016552107563537775,0.7370160976734357,0.006355027832576766,-0.084306,-35.025746
11.185,2.0,1.0,1.0,34.0,34.5,34.5,3.4,2.6,2.56,0.6553290912655808,-0.016888370151813954,0.7423328610465801,0.006313897121110326,-0.085461,-34.880066
11.185,2.0,1.0,1.0,34.0,34.5,34.5,3.4,2.6,2.5625,0.6490761032805757,-0.01723218157694337,0.7476278582826695,0.006269006778325123,-0.086644,-34.733396
11.185,2.0,1.0,1.0,34.0,34.5,34.5,3.4,2.6,2.565,0.6427400896079609,-0.017583766125495254,0.7529001985330751,0.006220183847774836,-0.087857,-34.585711
11.185,2.0,1.0,1.0,34.0,34.5,34.5,3.4,2.6,2.5675,0.6363200476033339,-0.017943357025887247,0.7581489615922495,0.00616724651718551,-0.0891,-34.436987
11.185,2.0,1.0,1.0,34.0,34.5,34.5,3.4,2.6,2.57,0.629814956731066,-0.018311196901827937,0.7633731967647988,0.006110003577213308,-0.090375,-34.287198
11.185,2.0,1.0,1.0,34.0,34.5,34.5,3.4,2.6,2.5725,0.6232237781076405,-0.018687538253624222,0.7685719216764687,0.006048253840883696,-0.091682,-34.136316
11.185,2.0,1.0,1.0,34.0,34.5,34.5,3.4,2.6,2.575,0.6165454540228302,-0.01907264396934501,0.7737441210252443,0.005981785520377002,-0.093024,-33.984316
11.185,2.0,1.0,1.0,34.0,34.5,34.5,3.4,2.6,2.5775,0.6097789074369939,-0.019466787867995987,0.7788887452684278,0.00591037555749898,-0.094401,-33.831168
11.185,2.0,1.0,1.0,34.0,34.5,34.5,3.4,2.6,2.58,0.602923041452615,-0.019870255277030374,0.7840047092411895,0.005833788903816992,-0.095814,-33.676843
11.185,2.0,1.0,1.0,34.0,34.5,34.5,3.4,2.6,2.5825,0.595976738758032,-0.020283343646716783,0.7890908907016789,0.005751777746040786,-0.097266,-33.521312
11.185,2.0,1.0,1.0,34.0,34.5,34.5,3.4,2.6,2.585,0.5889388610411304,-0.020706363204085924,0.7941461287973074,0.005664080671783901,-0.098757,-33.364543
11.185,2.0,1.0,1.0,34.0,34.5,34.5,3.4,2.6,2.5875,0.5818082483705415,-0.021139637649408644,0.7991692224463297,0.005570421770344862,-0.100289,-33.206504
11.185,2.0,1.0,1.0,34.0,34.5,34.5,3.4,2.6,2.59,0.5745837185416988,-0.02158350489840071,0.8041589286282615,0.0054705096625966365,-0.101863,-33.047161
11.185,2.0,1.0,1.0,34.0,34.5,34.5,3.4,2.6,2.5925,0.567264066384809,-0.022038317873620292,0.8091139605760594,0.005364036453455793,-0.103482,-32.886481
11.185,2.0,1.0,1.0,34.0,34.5,34.5,3.4,2.6,2.595,0.5598480630315795,-0.022504445348813785,0.8140329858622654,0.005250676599715086,-0.105148,-32.724427
11.185,2.0,1.0,1.0,34.0,34.5,34.5,3.4,2.6,2.5975,0.552334455137183,-0.0229822728502881,0.8189146243705531,0.005130085685252084,-0.106861,-32.560964
11.185,2.0,1.0,1.0,34.0,34.5,34.5,3.4,2.6,2.6,0.5447219640536659,-0.02347220361973331,0.8237574461432211,0.005001899094763572,-0.108625,-32.396052
11.185,2.0,1.0,1.0,34.0,34.5,34.5,3.4,2.6,2.6025,0.537009284950621,-0.023974659643300044,0.8285599690941824,0.00486573057620735,-0.110441,-32.229651
11.185,2.0,1.0,1.0,34.0,34.5,34.5,3.4,2.6,2.605,0.5291950858785505,-0.024490082752151608,0.8333206565759215,0.00472117068104531,-0.112312,-32.061722
11.185,2.0,1.0,1.0,34.0,34.5,34.5,3.4,2.6,2.6075,0.5212780067699281,-0.02501893580016275,0.8380379147876181,0.004567785070157401,-0.11424,-31.892221
11.185,2.0,1.0,1.0,34.0,34.5,34.5,3.4,2.6,2.61,0.513256658372483,-0.025561703924930693,0.8427100900102509,0.004405112671918957,-0.116227,-31.721103
11.185,2.0,1.0,1.0,34.0,34.5,34.5,3.4,2.6,2.6125,0.5051296211087197,-0.026118895898802914,0.8473354656529151,0.00423266367737787,-0.118277,-31.548324
11.185,2.0,1.0,1.0,34.0,34.5,34.5,3.4,2.6,2.615,0.4968954438551039,-0.02669104557721536,0.8519122590928178,0.004049917355711279,-0.120391,-31.373834
11.185,2.0,1.0,1.0,34.0,34.5,34.5,3.4,2.6,2.6175,0.48855264263374965,-0.02727871345227133,0.8564386182893718,0.0038563196711552347,-0.122574,-31.197586
11.185,2.0,1.0,1.0,34.0,34.5,34.5,3.4,2.6,2.62,0.48009969920874046,-0.027882488320194083,0.8609126181505647,0.00365128068034653,-0.124829,-31.019526
11.185,2.0,1.0,1.0,34.0,34.5,34.5,3.4,2.6,2.6225,0.47153505957847663,-0.028502989072041632,0.8653322566271732,0.0034341716864600192,-0.127158,-30.839601
11.185,2.0,1.0,1.0,34.0,34.5,34.5,3.4,2.6,2.625,0.462857132354661,-0.0291408666178984,0.869695450507444,0.00320432212361945,-0.129566,-30.657754
11.185,2.0,1.0,1.0,34.0,34.5,34.5,3.4,2.6,2.6275,0.4540642870176008,-0.029796805955656654,0.8740000308815524,0.002961016141747972,-0.132057,-30.473929
11.185,2.0,1.0,1.0,34.0,34.5,34.5,3.4,2.6,2.63,0.4451548520365963,-0.030471528396468283,0.8782437382412932,0.002703488858251973,-0.134634,-30.288063
11.185,2.0,1.0,1.0,34.0,34.5,34.5,3.4,2.6,2.6325,0.4361271128431119,-0.03116579395999952,0.8824242171761358,0.002430922238616437,-0.137303,-30.100094
11.185,2.0,1.0,1.0,34.0,34.5,34.5,3.4,2.6,2.635,0.42697930964331926,-0.03188040395375039,0.8865390106217667,0.002142440563054273,-0.140068,-29.909954
11.185,2.0,1.0,1.0,34.0,34.5,34.5,3.4,2.6,2.6375,0.41770963505538605,-0.032616203751918024,0.8905855536115386,0.0018371054306895117,-0.142934,-29.717576
11.185,2.0,1.0,1.0,34.0,34.5,34.5,3.4,2.6,2.64,0.40831623155556085,-0.03337408579058139,0.8945611664746873,0.0015139102462486866,-0.145907,-29.522885
11.185,2.0,1.0,1.0,34.0,34.5,34.5,3.4,2.6,2.6425,0.3987971887157569,-0.03415499279736639,0.8984630474176006,0.001171774126749911,-0.148992,-29.325807
11.185,2.0,1.0,1.0,34.0,34.5,34.5,3.4,2.6,2.645,0.3891505402138241,-0.03495992127521086,0.9022882644157351,0.0008095351570407955,-0.152197,-29.126263
11.185,2.0,1.0,1.0,34.0,34.5,34.5,3.4,2.6,2.6475,0.37937426059618573,-0.035789925261372584,0.9060337463337026,0.00042594291305985294,-0.155528,-28.924169
11.185,2.0,1.0,1.0,34.0,34.5,34.5,3.4,2.6,2.65,0.3694662617708656,-0.036646120384404575,0.909696273179394,1.965016013776826e-05,-0.158993,-28.719439
11.185,2.0,1.0,1.0,34.0,34.5,34.5,3.4,2.6,2.6525,0.3594243892073636,-0.03752968824341955,0.9132724653844819,-0.000410796379752743,-0.162599,-28.511981
11.185,2.0,1.0,1.0,34.0,34.5,34.5,3.4,2.6,2.655,0.34924641781809873,-0.03844188113556458,0.9167587719879348,-0.0008669663134872191,-0.166355,-28.301699
11.185,2.0,1.0,1.0,34.0,34.5,34.5,3.4,2.6,2.6575,0.338930047494629,-0.03938402715915372,0.9201514575808419,-0.001350557054884418,-0.170271,-28.088494
11.185,2.0,1.0,1.0,34.0,34.5,34.5,3.4,2.6,2.66,0.32847289827032544,-0.040357535721302684,0.9234465878494404,-0.0018634066565031077,-0.174357,-27.872258
11.185,2.0,1.0,1.0,34.0,34.5,34.5,3.4,2.6,2.6625,0.3178725050799611,-0.041363903480068256,0.9266400135281925,-0.002407508181099542,-0.178624,-27.652882
11.185,2.0,1.0,1.0,34.0,34.5,34.5,3.4,2.6,2.665,0.3071263120857266,-0.04240472075188249,0.9297273525453447,-0.002985025827885651,-0.183084,-27.430249
11.185,2.0,1.0,1.0,34.0,34.5,34.5,3.4,2.6,2.6675,0.2962316665388775,-0.0434816784152865,0.9327039701088016,-0.0035983130630527563,-0.187751,-27.204233
11.185,2.0,1.0,1.0,34.0,34.5,34.5,3.4,2.6,2.67,0.28518581214658273,-0.04459657534137639,0.9355649564393563,-0.004249933044519499,-0.192638,-26.974707
11.185,2.0,1.0,1.0,34.0,34.5,34.5,3.4,2.6,2.6725,0.2739858819151305,-0.04575132637961267,0.9383051018100619,-0.004942681678737985,-0.197763,-26.741532
11.185,2.0,1.0,1.0,34.0,34.5,34.5,3.4,2.6,2.675,0.2626288904437889,-0.0469479709242553,0.9409188684933515,-0.005679613704149091,-0.203141,-26.504563
11.185,2.0,1.0,1.0,34.0,34.5,34.5,3.4,2.6,2.6775,0.25111172564893675,-0.0481886820810576,0.9434003591495115,-0.006464072263349193,-0.208791,-26.263648
11.185,2.0,1.0,1.0,34.0,34.5,34.5,3.4,2.6,2.68,0.23943113990646656,-0.04947577644512819,0.9457432811091085,-0.007299722506441949,-0.214736,-26.018623
11.185,2.0,1.0,1.0,34.0,34.5,34.5,3.4,2.6,2.6825,0.2275837406129842,-0.05081172448794799,0.9479409059051117,-0.008190589864160422,-0.220998,-25.769316
11.185,2.0,1.0,1.0,34.0,34.5,34.5,3.4,2.6,2.685,0.2155659801844619,-0.05219916153288684,0.94998602329439,-0.00914110374453622,-0.227603,-25.515546
11.185,2.0,1.0,1.0,34.0,34.5,34.5,3.4,2.6,2.6875,0.20337414553685143,-0.05364089927216822,0.9518708888687523,-0.010156147545345178,-0.234578,-25.257118
11.185,2.0,1.0,1.0,34.0,34.5,34.5,3.4,2.6,2.69,0.19100434712937409,-0.05513993774136128,0.953587164187513,-0.011241116041454731,-0.241956,-24.993827
11.185,2.0,1.0,1.0,34.0,34.5,34.5,3.4,2.6,2.6925,0.17845250770144647,-0.056699477616410796,0.9551258481602602,-0.012401981407958994,-0.249771,-24.725454
11.185,2.0,1.0,1.0,34.0,34.5,34.5,3.4,2.6,2.695,0.16571435090361958,-0.058322932627962405,0.9564771981619513,-0.013645369384608365,-0.258063,-24.451765
11.185,2.0,1.0,1.0,34.0,34.5,34.5,3.4,2.6,2.6975,0.15278539011800762,-0.060013941791495065,0.957630639062686,-0.014978647384500329,-0.266875,-24.172513
11.185,2.0,1.0,1.0,34.0,34.5,34.5,3.4,2.6,2.7,0.13966091789405038,-0.061776381020257176,0.9585746579888517,-0.0164100267127343,-0.276256,-23.887431
11.185,2.0,1.0,1.0,34.0,34.5,34.5,3.4,2.6,2.7025,0.1263359966034002,-0.0636143735085798,0.9592966821851427,-0.01794868150435488,-0.286263,-23.596236
11.185,2.0,1.0,1.0,34.0,34.5,34.5,3.4,2.6,2.705,0.11280545116089047,-0.06553229802840156,0.9597829367984501,-0.019604887534908497,-0.296957,-23.298624
11.185,2.0,1.0,1.0,34.0,34.5,34.5,3.4,2.6,2.7075,0.09906386499063954,-0.06753479394787636,0.9600182787301449,-0.0213901847258115,-0.30841,-22.994271
11.185,2.0,1.0,1.0,34.0,34.5,34.5,3.4,2.6,2.71,0.08510558087067924,-0.06962676132459261,0.9599860018717931,-0.023317567991092497,-0.320703,-22.682827
11.185,2.0,1.0,1.0,34.0,34.5,34.5,3.4,2.6,2.7125,0.07092470891194906,-0.07181335380120947,0.9596676080121284,-0.025401712090284093,-0.333927,-22.36392
11.185,2.0,1.0,1.0,34.0,34.5,34.5,3.4,2.6,2.715,0.05651514478261514,-0.07409996117388808,0.9590425364317833,-0.0276592374120665,-0.348187,-22.037145
11.185,2.0,1.0,1.0,34.0,34.5,34.5,3.4,2.6,2.7175,0.0418706024666021,-0.07649217732357426,0.9580878436268052,-0.030109025173963983,-0.363607,-21.702071
11.185,2.0,1.0,1.0,34.0,34.5,34.5,3.4,2.6,2.72,0.02698466747366053,-0.07899574756969253,0.9567778226485857,-0.03277259245773328,-0.380325,-21.35823
11.185,2.0,1.0,1.0,34.0,34.5,34.5,3.4,2.6,2.7225,0.011850878677860572,-0.08161648724472023,0.9550835491269285,-0.0356745398962164,-0.398504,-21.00512
11.185,2.0,1.0,1.0,34.0,34.5,34.5,3.4,2.6,2.725,-0.0035371498897411387,-0.08436016013921345,0.952972338048426,-0.03884308778961189,-0.418334,-20.642196
11.185,2.0,1.0,1.0,34.0,34.5,34.5,3.4,2.6,2.7275,-0.01918555156106812,-0.08723230106169058,0.9504070916727602,-0.042310720076193464,-0.440037,-20.268873
11.185,2.0,1.0,1.0,34.0,34.5,34.5,3.4,2.6,2.73,-0.035099951931388464,-0.09023796056558485,0.9473455144551901,-0.04611496004069902,-0.463874,-19.884516
11.185,2.0,1.0,1.0,34.0,34.5,34.5,3.4,2.6,2.7325,-0.051285105446566615,-0.093381341148323,0.9437391653833714,-0.05029930702929294,-0.490154,-19.488438
11.185,2.0,1.0,1.0,34.0,34.5,34.5,3.4,2.6,2.735,-0.06774438053850322,-0.09666528180914448,0.9395323116560163,-0.05491436982141993,-0.519245,-19.079898
11.185,2.0,1.0,1.0,34.0,34.5,34.5,3.4,2.6,2.7375,-0.08447903240491077,-0.10009053013431525,0.9346605401770424,-0.06001923963018433,-0.551587,-18.658094
11.185,2.0,1.0,1.0,34.0,34.5,34.5,3.4,2.6,2.74,-0.1014871770499346,-0.10365471567988489,0.9290490752281649,-0.06568315363617322,-0.58771,-18.222161
11.185,2.0,1.0,1.0,34.0,34.5,34.5,3.4,2.6,2.7425,-0.11876234350307653,-0.10735090185942349,0.9226107427793637,-0.07198750762588318,-0.628257,-17.771167
11.185,2.0,1.0,1.0,34.0,34.5,34.5,3.4,2.6,2.745,-0.13629142809379904,-0.1111655407310487,0.9152435161323692,-0.07902828175409872,-0.674014,-17.304113
11.185,2.0,1.0,1.0,34.0,34.5,34.5,3.4,2.6,2.7475,-0.1540517978433685,-0.11507557863707976,0.9068275779291353,-0.08691894269553276,-0.725946,-16.819932
11.185,2.0,1.0,1.0,34.0,34.5,34.5,3.4,2.6,2.75,-0.17200717879306,-0.119044350024367,0.897221847752604,-0.0957938707148544,-0.78525,-16.317499
11.185,2.0,1.0,1.0,34.0,34.5,34.5,3.4,2.6,2.7525,-0.19010180454406725,-0.12301573724320786,0.8862599673713824,-0.10581231668202894,-0.85342,-15.795637
11.185,2.0,1.0,1.0,34.0,34.5,34.5,3.4,2.6,2.755,-0.20825207064077697,-0.12690584614086947,0.8737458347271049,-0.11716279421648702,-0.932337,-15.253145
11.185,2.0,1.0,1.0,34.0,34.5,34.5,3.4,2.6,2.7575,-0.22633461780874845,-0.13059112736149756,0.8594489837962825,-0.13006760530057818,-1.024389,-14.688837
11.185,2.0,1.0,1.0,34.0,34.5,34.5,3.4,2.6,2.76,-0.2441693291243445,-0.1338914397425776,0.8431005123914792,-0.1447867922539528,-1.132628,-14.101606
11.185,2.0,1.0,1.0,34.0,34.5,34.5,3.4,2.6,2.7625,-0.26149517037101505,-0.13654600345991874,0.8243910267889788,-0.1616200426797109,-1.260982,-13.490532
11.185,2.0,1.0,1.0,34.0,34.5,34.5,3.4,2.6,2.765,-0.27793619509642686,-0.13817959394742557,0.8029734805745801,-0.18090366882091363,-1.414538,-12.855048
11.185,2.0,1.0,1.0,34.0,34.5,34.5,3.4,2.6,2.7675,-0.2929546286843314,-0.13825593711194084,0.7784762891079098,-0.20299728859401245,-1.599895,-12.195199
11.185,2.0,1.0,1.0,34.0,34.5,34.5,3.4,2.6,2.77,-0.30578844068426647,-0.13601578425193012,0.7505363585730724,-0.22825060185276924,-1.825593,-11.512037
11.185,2.0,1.0,1.0,34.0,34.5,34.5,3.4,2.6,2.7725,-0.31537389201418514,-0.13040024804728018,0.7188683984587046,-0.2569339775086622,-2.102554,-10.80821
11.185,2.0,1.0,1.0,34.0,34.5,34.5,3.4,2.6,2.775,-0.3202627641150408,-0.11996921238443334,0.6833961191307965,-0.2891074373724645,-2.444312,-10.088815
11.185,2.0,1.0,1.0,34.0,34.5,34.5,3.4,2.6,2.7775,-0.3185657636248841,-0.10284635967386928,0.6444796158435022,-0.32439410407399355,-2.866455,-9.36258
11.185,2.0,1.0,1.0,34.0,34.5,34.5,3.4,2.6,2.78,-0.3079962974232305,-0.07676481696744378,0.6032695893219171,-0.3616280869331814,-3.383805,-8.643341
11.185,2.0,1.0,1.0,34.0,34.5,34.5,3.4,2.6,2.7825,-0.28615321807082805,-0.03935118683529191,0.5621731482891236,-0.39839286393673,-4.002017,-7.951603
11.185,2.0,1.0,1.0,34.0,34.5,34.5,3.4,2.6,2.785,-0.2512297177947117,0.011166876250897578,0.5252781714315667,-0.43060356150699136,-4.697574,-7.315528
11.185,2.0,1.0,1.0,34.0,34.5,34.5,3.4,2.6,2.7875,-0.20324138784221243,0.07473970554089653,0.498333933923842,-0.4525337645309145,-5.381358,-6.770103
11.185,2.0,1.0,1.0,34.0,34.5,34.5,3.4,2.6,2.79,-0.1454350173085434,0.14810166017760962,0.4876952875296027,-0.4578738275537465,-5.867035,-6.352942
11.185,2.0,1.0,1.0,34.0,34.5,34.5,3.4,2.6,2.7925,-0.08483416856877658,0.22424326291690755,0.4979991866270311,-0.4420434995895067,-5.931193,-6.096169
11.185,2.0,1.0,1.0,34.0,34.5,34.5,3.4,2.6,2.795,-0.03073158505916187,0.2939251238987774,0.5295707719501411,-0.404760129828561,-5.506919,-6.016732
11.185,2.0,1.0,1.0,34.0,34.5,34.5,3.4,2.6,2.7975,0.008647707148063464,0.34899795333406036,0.5775929145219182,-0.3508436086221094,-4.766589,-6.110275
11.185,2.0,1.0,1.0,34.0,34.5,34.5,3.4,2.6,2.8,0.029125283145255455,0.3853500695009729,0.6340457559626416,-0.28827248411645223,-3.948434,-6.352695
11.185,2.0,1.0,1.0,34.0,34.5,34.5,3.4,2.6,2.8025,0.03115271228589482,0.4034685112880905,0.6909598913353937,-0.22494980635563078,-3.202124,-6.708275
11.185,2.0,1.0,1.0,34.0,34.5,34.5,3.4,2.6,2.805,0.018220779742895443,0.40684703785110704,0.7426968975973467,-0.16644695212785593,-2.581155,-7.139275
11.185,2.0,1.0,1.0,34.0,34.5,34.5,3.4,2.6,2.8075,-0.005231414224926081,0.39990733106871,0.7864292012227144,-0.11553780324328067,-2.086615,-7.612644
11.185,2.0,1.0,1.0,34.0,34.5,34.5,3.4,2.6,2.81,-0.03521123470537491,0.38661718957002345,0.8214732611625006,-0.07286773897549662,-1.700159,-8.10278
11.185,2.0,1.0,1.0,34.0,34.5,34.5,3.4,2.6,2.8125,-0.068704278785516,0.369966784047365,0.848370757479842,-0.0378685614340071,-1.399897,-8.591481
11.185,2.0,1.0,1.0,34.0,34.5,34.5,3.4,2.6,2.815,-0.10367163768108723,0.35197463025097075,0.868180974910317,-0.009461186050560434,-1.166305,-9.066636
11.185,2.0,1.0,1.0,34.0,34.5,34.5,3.4,2.6,2.8175,-0.13884141079150436,0.3338965396836572,0.8820652627216958,0.013532660142583676,-0.983695,-9.520634
11.185,2.0,1.0,1.0,34.0,34.5,34.5,3.4,2.6,2.82,-0.17347680750683125,0.3164568517556266,0.8910896522940783,0.03219552373604432,-0.840017,-9.948989
11.185,2.0,1.0,1.0,34.0,34.5,34.5,3.4,2.6,2.8225,-0.2071883713393503,0.30003528625233306,0.8961547257214871,0.047445534200386184,-0.726192,-10.349289
11.185,2.0,1.0,1.0,34.0,34.5,34.5,3.4,2.6,2.825,-0.23980093696791172,0.28479915474023904,0.8979882762459371,0.06002988244069653,-0.635428,-10.720441
11.185,2.0,1.0,1.0,34.0,34.5,34.5,3.4,2.6,2.8275,-0.2712658632206319,0.27079047838683656,0.8971638854817489,0.07054388952058586,-0.562641,-11.062165
11.185,2.0,1.0,1.0,34.0,34.5,34.5,3.4,2.6,2.83,-0.3016055938227873,0.2579809494411202,0.8941269891998097,0.07945742135670834,-0.504007,-11.374652
