1,w,sub_t,h,l1,l2,l3,g1,g2,Freq,S11_re,S21_re,S11_img,S21_img,S11_dB,S21_dB
11.185,2.0,1.0,1.0,33.9,34.9,34.9,2.3,4.3,2.5,0.791120593650507,-0.0106181037271039,0.598587069328229,0.00644622874633156,-0.069262,-38.116397
11.185,2.0,1.0,1.0,33.9,34.9,34.9,2.3,4.3,2.5025,0.7866273869291681,-0.01084459579272713,0.6043198008863525,0.006466164620030659,-0.070115,-37.974666
11.185,2.0,1.0,1.0,33.9,34.9,34.9,2.3,4.3,2.505,0.7820676351958853,-0.011076322873575519,0.6100471454521714,0.0064848030597448566,-0.070988,-37.832073
11.185,2.0,1.0,1.0,33.9,34.9,34.9,2.3,4.3,2.5075,0.7774405277876886,-0.01131343739724368,0.6157686897675821,0.0065020723485729745,-0.071882,-37.688598
11.185,2.0,1.0,1.0,33.9,34.9,34.9,2.3,4.3,2.51,0.7727452368840252,-0.011556097671116665,0.6214840064395164,0.006517897151733047,-0.072797,-37.544223
11.185,2.0,1.0,1.0,33.9,34.9,34.9,2.3,4.3,2.5125,0.7679809170057852,-0.011804468172940275,0.6271926533818009,0.006532198305419642,-0.073735,-37.398926
11.185,2.0,1.0,1.0,33.9,34.9,34.9,2.3,4.3,2.515,0.7631467044923399,-0.012058719858867233,0.632894173230667,0.006544892591095358,-0.074695,-37.252688
11.185,2.0,1.0,1.0,33.9,34.9,34.9,2.3,4.3,2.5175,0.7582417169552434,-0.012319030490212197,0.6385880927322911,0.006555892494047866,-0.075679,-37.105488
11.185,2.0,1.0,1.0,33.9,34.9,34.9,2.3,4.3,2.52,0.7532650527071025,-0.012585584980248669,0.6442739221006408,0.006565105944936625,-0.076687,-36.957302
11.185,2.0,1.0,1.0,33.9,34.9,34.9,2.3,4.3,2.5225,0.7482157901640416,-0.012858575762488627,0.6499511543437356,0.006572436042935309,-0.077721,-36.808109
11.185,2.0,1.0,1.0,33.9,34.9,34.9,2.3,4.3,2.525,0.7430929872200345,-0.013138203182005427,0.6556192645563219,0.006577780758945153,-0.07878,-36.657884
11.185,2.0,1.0,1.0,33.9,34.9,34.9,2.3,4.3,2.5275,0.7378956805912388,-0.013424675911489527,0.661277709176756,0.0065810326172107475,-0.079866,-36.506605
11.185,2.0,1.0,1.0,33.9,34.9,34.9,2.3,4.3,2.53,0.7326228851283366,-0.013718211393868427,0.6669259252057309,0.006582078353508897,-0.08098,-36.354245
11.185,2.0,1.0,1.0,33.9,34.9,34.9,2.3,4.3,2.5325,0.7272735930946987,-0.014019036313476814,0.6725633293842704,0.006580798547905162,-0.082122,-36.200779
11.185,2.0,1.0,1.0,33.9,34.9,34.9,2.3,4.3,2.535,0.7218467734080086,-0.014327387097933979,0.6781893173282068,0.006577067229876007,-0.083294,-36.04618
11.185,2.0,1.0,1.0,33.9,34.9,34.9,2.3,4.3,2.5375,0.7163413708428038,-0.014643510453069889,0.6838032626160903,0.006570751453376432,-0.084497,-35.89042
11.185,2.0,1.0,1.0,33.9,34.9,34.9,2.3,4.3,2.54,0.7107563051911447,-0.01496766393344682,0.689404515827242,0.006561710839190721,-0.085732,-35.733472
11.185,2.0,1.0,1.0,33.9,34.9,34.9,2.3,4.3,2.5425,0.7050904703784019,-0.015300116551247613,0.6949924035263381,0.0065497970816347185,-0.086999,-35.575306
11.185,2.0,1.0,1.0,33.9,34.9,34.9,2.3,4.3,2.545,0.6993427335308814,-0.01564114942654616,0.7005662271905877,0.006534853416377146,-0.088301,-35.41589
11.185,2.0,1.0,1.0,33.9,34.9,34.9,2.3,4.3,2.5475,0.6935119339917214,-0.01599105648224808,0.7061252620752129,0.006516714045812082,-0.089638,-35.255194
11.185,2.0,1.0,1.0,33.9,34.9,34.9,2.3,4.3,2.55,0.6875968822811634,-0.016350145187287828,0.7116687560125243,0.006495203518042332,-0.091011,-35.093184
11.185,2.0,1.0,1.0,33.9,34.9,34.9,2.3,4.3,2.5525,0.6815963589969738,-0.016718737351993928,0.7171959281394193,0.006470136055112192,-0.092423,-34.929827
11.185,2.0,1.0,1.0,33.9,34.9,34.9,2.3,4.3,2.555,0.6755091136503726,-0.017097169979899397,0.722705967547657,0.006441314825661876,-0.093875,-34.765088
11.185,2.0,1.0,1.0,33.9,34.9,34.9,2.3,4.3,2.5575,0.6693338634324206,-0.017485796180671767,0.7281980318506706,0.006408531156649711,-0.095367,-34.598929
11.185,2.0,1.0,1.0,33.9,34.9,34.9,2.3,4.3,2.56,0.6630692919053431,-0.017884986149276923,0.7336712456600633,0.0063715636781978575,-0.096903,-34.431314
11.185,2.0,1.0,1.0,33.9,34.9,34.9,2.3,4.3,2.5625,0.6567140476127301,-0.01829512821698202,0.7391246989642256,0.006330177394955875,-0.098483,-34.262203
11.185,2.0,1.0,1.0,33.9,34.9,34.9,2.3,4.3,2.565,0.6502667426019929,-0.01871662998033766,0.7445574454007289,0.006284122676628288,-0.100109,-34.091555
11.185,2.0,1.0,1.0,33.9,34.9,34.9,2.3,4.3,2.5675,0.6437259508518054,-0.019149919514880157,0.7499685004132397,0.00623313415947253,-0.101784,-33.919327
11.185,2.0,1.0,1.0,33.9,34.9,34.9,2.3,4.3,2.57,0.6370902065965524,-0.019595446680954972,0.7553568392827362,0.006176929549622626,-0.103509,-33.745476
11.185,2.0,1.0,1.0,33.9,34.9,34.9,2.3,4.3,2.5725,0.6303580025390144,-0.020053684529797382,0.7607213950216526,0.006115208318020239,-0.105287,-33.569956
11.185,2.0,1.0,1.0,33.9,34.9,34.9,2.3,4.3,2.575,0.6235277879416481,-0.020525130818821933,0.7660610561183228,0.00604765027551815,-0.10712,-33.39272
11.185,2.0,1.0,1.0,33.9,34.9,34.9,2.3,4.3,2.5775,0.6165979665858476,-0.021010309645978414,0.7713746641176553,0.005973914015341022,-0.10901,-33.213717
11.185,2.0,1.0,1.0,33.9,34.9,34.9,2.3,4.3,2.58,0.609566894587482,-0.021509773214040982,0.7766610110223426,0.005893635208522301,-0.11096,-33.032896
11.185,2.0,1.0,1.0,33.9,34.9,34.9,2.3,4.3,2.5825,0.602432878055792,-0.022024103736819668,0.7819188364970712,0.005806424736149322,-0.112973,-32.850204
11.185,2.0,1.0,1.0,33.9,34.9,34.9,2.3,4.3,2.585,0.5951941705814042,-0.022553915500534868,0.7871468248560853,0.00571186664021813,-0.115052,-32.665583
11.185,2.0,1.0,1.0,33.9,34.9,34.9,2.3,4.3,2.5875,0.5878489705376796,-0.023099857094991547,0.7923436018120883,0.00560951587257568,-0.117199,-32.478977
11.185,2.0,1.0,1.0,33.9,34.9,34.9,2.3,4.3,2.59,0.5803954181779655,-0.02366261383074759,0.7975077309617147,0.0054988958187708785,-0.119419,-32.290323
11.185,2.0,1.0,1.0,33.9,34.9,34.9,2.3,4.3,2.5925,0.5728315925094123,-0.024242910360213546,0.8026377099797058,0.005379495570591885,-0.121714,-32.099559
11.185,2.0,1.0,1.0,33.9,34.9,34.9,2.3,4.3,2.595,0.5651555079219394,-0.024841513522565382,0.8077319664903397,0.005250766917571683,-0.124089,-31.906616
11.185,2.0,1.0,1.0,33.9,34.9,34.9,2.3,4.3,2.5975,0.5573651105485294,-0.025459235434534253,0.812788853580558,0.005112121023720799,-0.126548,-31.711427
11.185,2.0,1.0,1.0,33.9,34.9,34.9,2.3,4.3,2.6,0.5494582743304276,-0.02609693685157567,0.817806644914529,0.004962924751111873,-0.129096,-31.513917
11.185,2.0,1.0,1.0,33.9,34.9,34.9,2.3,4.3,2.6025,0.5414327967578246,-0.02675553082665444,0.8227835294039104,0.004802496586585495,-0.131736,-31.314012
11.185,2.0,1.0,1.0,33.9,34.9,34.9,2.3,4.3,2.605,0.5332863942532619,-0.027435986696951443,0.8277176053818124,0.004630102121646609,-0.134473,-31.11163
11.185,2.0,1.0,1.0,33.9,34.9,34.9,2.3,4.3,2.6075,0.5250166971612482,-0.028139334432235003,0.832606874221155,0.004444949028432918,-0.137315,-30.906688
11.185,2.0,1.0,1.0,33.9,34.9,34.9,2.3,4.3,2.61,0.5166212443033595,-0.02886666938250348,0.837449233329643,0.0042461814662754505,-0.140265,-30.699099
11.185,2.0,1.0,1.0,33.9,34.9,34.9,2.3,4.3,2.6125,0.508097477053314,-0.02961915746683914,0.8422424684437494,0.004032873843630172,-0.143331,-30.48877
11.185,2.0,1.0,1.0,33.9,34.9,34.9,2.3,4.3,2.615,0.4994427328811772,-0.030398040850281596,0.8469842451325814,0.0038040238487838836,-0.14652,-30.275604
11.185,2.0,1.0,1.0,33.9,34.9,34.9,2.3,4.3,2.6175,0.4906542383098204,-0.03120464416099124,0.8516720994090637,0.0035585446494137037,-0.149838,-30.0595
11.185,2.0,1.0,1.0,33.9,34.9,34.9,2.3,4.3,2.62,0.48172910121994017,-0.032040381306107917,0.8563034273301002,0.003295256145446973,-0.153294,-29.84035
11.185,2.0,1.0,1.0,33.9,34.9,34.9,2.3,4.3,2.6225,0.4726643024322988,-0.0329067629515877,0.8608754734488272,0.0030128751412663427,-0.156896,-29.618042
11.185,2.0,1.0,1.0,33.9,34.9,34.9,2.3,4.3,2.625,0.463456686487228,-0.0338054047390081,0.865385317960189,0.00271000428160067,-0.160654,-29.392457
11.185,2.0,1.0,1.0,33.9,34.9,34.9,2.3,4.3,2.6275,0.454102951531724,-0.03473803632096004,0.8698298623552184,0.002385119569755572,-0.164578,-29.163469
11.185,2.0,1.0,1.0,33.9,34.9,34.9,2.3,4.3,2.63,0.444599638213535,-0.03570651130627538,0.8742058133687065,0.002036556256374101,-0.16868,-28.930946
11.185,2.0,1.0,1.0,33.9,34.9,34.9,2.3,4.3,2.6325,0.4349431174694376,-0.03671281821706884,0.8785096649684548,0.0016624928506639635,-0.172971,-28.694749
11.185,2.0,1.0,1.0,33.9,34.9,34.9,2.3,4.3,2.635,0.42512957708115545,-0.037759092571477734,0.8827376780907684,0.00126093296276877,-0.177464,-28.454729
11.185,2.0,1.0,1.0,33.9,34.9,34.9,2.3,4.3,2.6375,0.41515500685709106,-0.03884763021912913,0.8868858577746909,0.0008296846341818807,-0.182175,-28.210729
11.185,2.0,1.0,1.0,33.9,34.9,34.9,2.3,4.3,2.64,0.4050151822810105,-0.039980902070787,0.8909499272848938,0.0003663367509201331,-0.18712,-27.962584
11.185,2.0,1.0,1.0,33.9,34.9,34.9,2.3,4.3,2.6425,0.39470564645007106,-0.041161570379305436,0.8949252987376688,-0.00013176794072406516,-0.192316,-27.710117
11.185,2.0,1.0,1.0,33.9,34.9,34.9,2.3,4.3,2.645,0.38422169010396867,-0.04239250674585618,0.8988070396532476,-0.0006675637865754936,-0.197782,-27.453141
11.185,2.0,1.0,1.0,33.9,34.9,34.9,2.3,4.3,2.6475,0.3735583295246745,-0.04367681204316572,0.9025898347469269,-0.0012442978256470155,-0.203541,-27.191458
11.185,2.0,1.0,1.0,33.9,34.9,34.9,2.3,4.3,2.65,0.36271028206238703,-0.04501783846579613,0.9062679421366413,-0.0018655708540899808,-0.209616,-26.924855
11.185,2.0,1.0,1.0,33.9,34.9,34.9,2.3,4.3,2.6525,0.3516719390185286,-0.046419213935610985,0.9098351429796893,-0.002535384929521323,-0.216035,-26.653107
11.185,2.0,1.0,1.0,33.9,34.9,34.9,2.3,4.3,2.655,0.3404373355914533,-0.04788486910740224,0.9132846833489343,-0.0032581984934796806,-0.222826,-26.375974
11.185,2.0,1.0,1.0,33.9,34.9,34.9,2.3,4.3,2.6575,0.3290001175666568,-0.049419067233436864,0.9166092069093295,-0.0040389905362776925,-0.230023,-26.093196
11.185,2.0,1.0,1.0,33.9,34.9,34.9,2.3,4.3,2.66,0.31735350441261967,-0.05102643715380839,0.9198006766469349,-0.0048833355332137335,-0.237663,-25.8045
11.185,2.0,1.0,1.0,33.9,34.9,34.9,2.3,4.3,2.6625,0.30549024842946604,-0.05271200967795224,0.9228502835189324,-0.005797491259230114,-0.245788,-25.509589
11.185,2.0,1.0,1.0,33.9,34.9,34.9,2.3,4.3,2.665,0.2934025895954478,-0.05448125760560688,0.9257483394143222,-0.006788502060345325,-0.254445,-25.208148
11.185,2.0,1.0,1.0,33.9,34.9,34.9,2.3,4.3,2.6675,0.2810822057737823,-0.05634013959409039,0.928484151214612,-0.007864320749967615,-0.263688,-24.899836
11.185,2.0,1.0,1.0,33.9,34.9,34.9,2.3,4.3,2.67,0.26852015799106654,-0.05829514800009081,0.9310458719876951,-0.009033953039591654,-0.273578,-24.584287
11.185,2.0,1.0,1.0,33.9,34.9,34.9,2.3,4.3,2.6725,0.25570683059616506,-0.060353360689109334,0.9334203243914156,-0.010307629349472203,-0.284183,-24.261106
11.185,2.0,1.0,1.0,33.9,34.9,34.9,2.3,4.3,2.675,0.24263186628106886,-0.06252249658604578,0.9355927901470422,-0.011697010032111942,-0.295582,-23.929867
11.185,2.0,1.0,1.0,33.9,34.9,34.9,2.3,4.3,2.6775,0.22928409623207627,-0.06481097439447707,0.937546757889403,-0.013215431553964256,-0.307868,-23.59011
11.185,2.0,1.0,1.0,33.9,34.9,34.9,2.3,4.3,2.68,0.21565146613947234,-0.06722797337809379,0.9392636197067147,-0.01487820311640099,-0.321144,-23.241336
11.185,2.0,1.0,1.0,33.9,34.9,34.9,2.3,4.3,2.6825,0.20172095951466856,-0.0697834942835241,0.940722304112373,-0.0167029656850074,-0.335533,-22.883003
11.185,2.0,1.0,1.0,33.9,34.9,34.9,2.3,4.3,2.685,0.18747852087853387,-0.0724884172518938,0.941898829861013,-0.018710128607833658,-0.351176,-22.514523
11.185,2.0,1.0,1.0,33.9,34.9,34.9,2.3,4.3,2.6875,0.1729089830945048,-0.07535455171041022,0.9427657606886533,-0.02092340316530292,-0.36824,-22.135256
11.185,2.0,1.0,1.0,33.9,34.9,34.9,2.3,4.3,2.69,0.1579960057313123,-0.07839467044309176,0.9432915353972638,-0.023370457807567455,-0.38692,-21.744504
11.185,2.0,1.0,1.0,33.9,34.9,34.9,2.3,4.3,2.6925,0.14272203532167077,-0.08162251583742809,0.9434396402851252,-0.026083726895883712,-0.407449,-21.341504
11.185,2.0,1.0,1.0,33.9,34.9,34.9,2.3,4.3,2.695,0.12706830445833836,-0.08505275996592564,0.9431675811727902,-0.02910141399270628,-0.430101,-20.925422
11.185,2.0,1.0,1.0,33.9,34.9,34.9,2.3,4.3,2.6975,0.11101489595894973,-0.0887008905708909,0.9424255994380549,-0.03246874281264614,-0.45521,-20.495345
11.185,2.0,1.0,1.0,33.9,34.9,34.9,2.3,4.3,2.7,0.0945409125909548,-0.09258298044366622,0.9411550595831388,-0.03623952470152835,-0.483173,-20.050272
11.185,2.0,1.0,1.0,33.9,34.9,34.9,2.3,4.3,2.7025,0.07762481483969906,-0.09671527541649542,0.9392864137048159,-0.040478131979972104,-0.514479,-19.589105
11.185,2.0,1.0,1.0,33.9,34.9,34.9,2.3,4.3,2.705,0.06024502331001642,-0.10111350195221157,0.9367366194085707,-0.045261992813032864,-0.549724,-19.110638
11.185,2.0,1.0,1.0,33.9,34.9,34.9,2.3,4.3,2.7075,0.04238093557538798,-0.10579174237065171,0.9334058507524966,-0.05068475648870232,-0.589646,-18.613551
11.185,2.0,1.0,1.0,33.9,34.9,34.9,2.3,4.3,2.71,0.024014590879127103,-0.11076064333830608,0.9291732957546494,-0.05686031847644493,-0.635166,-18.096398
11.185,2.0,1.0,1.0,33.9,34.9,34.9,2.3,4.3,2.7125,0.005133348201103382,-0.11602459419240246,0.92389177962146,-0.06392794076293247,-0.687444,-17.557603
11.185,2.0,1.0,1.0,33.9,34.9,34.9,2.3,4.3,2.715,-0.014265846845075987,-0.12157730853465572,0.9173808955969868,-0.072058748129225,-0.747956,-16.995457
11.185,2.0,1.0,1.0,33.9,34.9,34.9,2.3,4.3,2.7175,-0.03416969584229505,-0.12739492173541161,0.9094182818120433,-0.08146390725976882,-0.8186,-16.408129
11.185,2.0,1.0,1.0,33.9,34.9,34.9,2.3,4.3,2.72,-0.05453783673581211,-0.13342521040025515,0.8997286946628825,-0.09240475985468743,-0.901841,-15.79369
11.185,2.0,1.0,1.0,33.9,34.9,34.9,2.3,4.3,2.7225,-0.07528589245256763,-0.13957074454056537,0.8879706945359094,-0.10520498668913948,-1.00092,-15.150161
11.185,2.0,1.0,1.0,33.9,34.9,34.9,2.3,4.3,2.725,-0.09625864997773774,-0.14566255482670334,0.8737212945463786,-0.12026431800634992,-1.120146,-14.475619
11.185,2.0,1.0,1.0,33.9,34.9,34.9,2.3,4.3,2.7275,-0.11718771829245697,-0.15141906762478,0.8564602925193197,-0.13807193819472713,-1.265299,-13.768376
11.185,2.0,1.0,1.0,33.9,34.9,34.9,2.3,4.3,2.73,-0.13762515696888045,-0.1563825425211646,0.8355591777108126,-0.15921466765090012,-1.444204,-13.027287
11.185,2.0,1.0,1.0,33.9,34.9,34.9,2.3,4.3,2.7325,-0.1568411838569871,-0.15982240593061334,0.8102863931370685,-0.18436851541455218,-1.667488,-12.25228
11.185,2.0,1.0,1.0,33.9,34.9,34.9,2.3,4.3,2.735,-0.17367211087057186,-0.16059361396188662,0.7798548201743829,-0.21424923290665948,-1.94951,-11.44523
11.185,2.0,1.0,1.0,33.9,34.9,34.9,2.3,4.3,2.7375,-0.18631086124703045,-0.1569447094104978,0.7435637938084055,-0.24947371973362428,-2.309191,-10.611363
11.185,2.0,1.0,1.0,33.9,34.9,34.9,2.3,4.3,2.74,-0.1920651822114541,-0.14630091226664774,0.7011301256934565,-0.2902471769137225,-2.769776,-9.761413
11.185,2.0,1.0,1.0,33.9,34.9,34.9,2.3,4.3,2.7425,-0.18720759473273432,-0.1251365770049806,0.6533451245134391,-0.33575525371112813,-3.354459,-8.914663
11.185,2.0,1.0,1.0,33.9,34.9,34.9,2.3,4.3,2.745,-0.16725815747577927,-0.08924204334901466,0.6031533234874437,-0.38317961002614626,-4.069697,-8.10255
11.185,2.0,1.0,1.0,33.9,34.9,34.9,2.3,4.3,2.7475,-0.12832857865878355,-0.03494040142912691,0.5568960490587683,-0.42656326220779384,-4.859819,-7.371289
11.185,2.0,1.0,1.0,33.9,34.9,34.9,2.3,4.3,2.75,-0.0700337033311719,0.0382836712002968,0.524550876695228,-0.456543283221846,-5.527515,-6.779929
11.185,2.0,1.0,1.0,33.9,34.9,34.9,2.3,4.3,2.7525,0.0010890753397495268,0.12460239110437782,0.5169562467191551,-0.46274261334814043,-5.730905,-6.389213
11.185,2.0,1.0,1.0,33.9,34.9,34.9,2.3,4.3,2.755,0.0713727019871223,0.21134691145203816,0.5397337570443076,-0.43926641162861146,-5.281121,-6.241124
11.185,2.0,1.0,1.0,33.9,34.9,34.9,2.3,4.3,2.7575,0.1258316364408261,0.2839956545861534,0.5885882642178836,-0.3893936253403827,-4.409679,-6.339864
11.185,2.0,1.0,1.0,33.9,34.9,34.9,2.3,4.3,2.76,0.15585780458540313,0.33348739843463626,0.6515412158857457,-0.3241542825008876,-3.479495,-6.649639
11.185,2.0,1.0,1.0,33.9,34.9,34.9,2.3,4.3,2.7625,0.16160725842554016,0.35914541882772616,0.7159810486113098,-0.25591689059299977,-2.686161,-7.111275
11.185,2.0,1.0,1.0,33.9,34.9,34.9,2.3,4.3,2.765,0.14860879911948421,0.36593550971735783,0.7736542790703751,-0.1932443138356889,-2.071704,-7.663639
11.185,2.0,1.0,1.0,33.9,34.9,34.9,2.3,4.3,2.7675,0.12343877718371324,0.3602848290690897,0.8211930886518465,-0.13992070691173797,-1.614058,-8.256989
11.185,2.0,1.0,1.0,33.9,34.9,34.9,2.3,4.3,2.77,0.0914069295646709,0.34759678225383434,0.8583933015995621,-0.09643073750316256,-1.277305,-8.856479
11.185,2.0,1.0,1.0,33.9,34.9,34.9,2.3,4.3,2.7725,0.05607563323530056,0.3315960695196476,0.8864734063950613,-0.06167548464208831,-1.029342,-9.440111
11.185,2.0,1.0,1.0,33.9,34.9,34.9,2.3,4.3,2.775,0.019580338355392815,0.3145640003228656,0.9070227390468836,-0.034077727011427784,-0.845613,-9.995147
11.185,2.0,1.0,1.0,33.9,34.9,34.9,2.3,4.3,2.7775,-0.016905858781071502,0.2977806986694533,0.9215262549279618,-0.012109223372365682,-0.708384,-10.514893
11.185,2.0,1.0,1.0,33.9,34.9,34.9,2.3,4.3,2.78,-0.05279862684363341,0.2819023399117686,0.9312097353805403,0.005522675127494364,-0.605111,-10.99636
11.185,2.0,1.0,1.0,33.9,34.9,34.9,2.3,4.3,2.7825,-0.08785296785400058,0.26722046271666855,0.9370270513726304,0.019846824377209884,-0.526948,-11.438715
11.185,2.0,1.0,1.0,33.9,34.9,34.9,2.3,4.3,2.785,-0.12201048894942587,0.25382360603866017,0.9396974575273047,0.031659576229952566,-0.467634,-11.842314
11.185,2.0,1.0,1.0,33.9,34.9,34.9,2.3,4.3,2.7875,-0.1553101740356784,0.24169289471948147,0.9397529299446322,0.04157078263368049,-0.422698,-12.208107
11.185,2.0,1.0,1.0,33.9,34.9,34.9,2.3,4.3,2.79,-0.18783778547241914,0.23075671254109628,0.9375808738920256,0.05004724075287132,-0.388918,-12.537287
11.185,2.0,1.0,1.0,33.9,34.9,34.9,2.3,4.3,2.7925,-0.2196978626615547,0.22092112750804282,0.9334583397279927,0.057448480653088004,-0.363955,-12.831083
11.185,2.0,1.0,1.0,33.9,34.9,34.9,2.3,4.3,2.795,-0.25099863906498254,0.21208628951818587,0.9275779449372396,0.06405457192441164,-0.346096,-13.090637
11.185,2.0,1.0,1.0,33.9,34.9,34.9,2.3,4.3,2.7975,-0.28184421549842265,0.20415483302857362,0.9200669090101424,0.07008717806642437,-0.334081,-13.316942
11.185,2.0,1.0,1.0,33.9,34.9,34.9,2.3,4.3,2.8,-0.31233072421538377,0.19703577337744255,0.9110007271671011,0.0757253630998823,-0.326988,-13.510799
11.185,2.0,1.0,1.0,33.9,34.9,34.9,2.3,4.3,2.8025,-0.3425446081991798,0.19064588758688011,0.9004127759635366,0.08111749119157424,-0.324146,-13.672806
11.185,2.0,1.0,1.0,33.9,34.9,34.9,2.3,4.3,2.805,-0.372561932862023,0.18490970008993327,0.8883008439666353,0.08639029205513261,-0.325078,-13.803341
11.185,2.0,1.0,1.0,33.9,34.9,34.9,2.3,4.3,2.8075,-0.40244809257687475,0.1797586887541551,0.8746313109378419,0.0916559128783528,-0.329463,-13.902563
11.185,2.0,1.0,1.0,33.9,34.9,34.9,2.3,4.3,2.81,-0.4322575175889639,0.17513003031027022,0.8593414825587071,0.09701757542298366,-0.337107,-13.970405
11.185,2.0,1.0,1.0,33.9,34.9,34.9,2.3,4.3,2.8125,-0.4620331103666912,0.17096502498392854,0.8423404220462501,0.10257430664449815,-0.347927,-14.006571
11.185,2.0,1.0,1.0,33.9,34.9,34.9,2.3,4.3,2.815,-0.4918051897884454,0.1672072235211139,0.8235084954381924,0.10842510463296204,-0.36194,-14.010535
11.185,2.0,1.0,1.0,33.9,34.9,34.9,2.3,4.3,2.8175,-0.521589720240716,0.16380019264575382,0.8026957545289487,0.11467282910844406,-0.379261,-13.981533
11.185,2.0,1.0,1.0,33.9,34.9,34.9,2.3,4.3,2.82,-0.5513855607740904,0.1606847749774509,0.7797192138344737,0.12142805809910456,-0.400108,-13.918553
11.185,2.0,1.0,1.0,33.9,34.9,34.9,2.3,4.3,2.8225,-0.5811703879302167,0.1577956088259249,0.7543590329414541,0.1288131215483163,-0.424806,-13.820328
11.185,2.0,1.0,1.0,33.9,34.9,34.9,2.3,4.3,2.825,-0.6108948187044504,0.15505655437339202,0.7263535957184932,0.13696649968818161,-0.453803,-13.685323
11.185,2.0,1.0,1.0,33.9,34.9,34.9,2.3,4.3,2.8275,-0.6404740749717034,0.15237450399595912,0.695393493106338,0.14604774725132091,-0.487698,-13.511724
11.185,2.0,1.0,1.0,33.9,34.9,34.9,2.3,4.3,2.83,-0.6697762688799389,0.14963080626893355,0.6611144881120136,0.15624305440092845,-0.527268,-13.297424
