1,w,sub_t,h,l1,l2,l3,g1,g2,Freq,S11_re,S21_re,S11_img,S21_img,S11_dB,S21_dB
11.185,2.0,1.0,1.0,34.2,33.4,33.4,4.4,2.0,2.5,0.756639720879919,-0.00911541244170918,0.643236507355091,0.00476700404093233,-0.0601,-39.754525
11.185,2.0,1.0,1.0,34.2,33.4,33.4,4.4,2.0,2.5025,0.7517778683663874,-0.0092745212585704,0.6488109080755964,0.00475283646455946,-0.060678,-39.641454
11.185,2.0,1.0,1.0,34.2,33.4,33.4,4.4,2.0,2.505,0.7468510651025445,-0.009436043407062906,0.6543742005671035,0.00473702186486079,-0.061266,-39.528097
11.185,2.0,1.0,1.0,34.2,33.4,33.4,4.4,2.0,2.5075,0.7418586958694989,-0.009600015246987302,0.6599258664204195,0.00471950705814536,-0.061863,-39.414448
11.185,2.0,1.0,1.0,34.2,33.4,33.4,4.4,2.0,2.51,0.7368001385105879,-0.009766473721420655,0.6654653729882897,0.004700237190516092,-0.06247,-39.3005
11.185,2.0,1.0,1.0,34.2,33.4,33.4,4.4,2.0,2.5125,0.7316747639279405,-0.009935456364150353,0.6709921729851905,0.0046791556792137486,-0.063088,-39.186246
11.185,2.0,1.0,1.0,34.2,33.4,33.4,4.4,2.0,2.515,0.7264819360837705,-0.01010700130701197,0.6765057040761758,0.004656204151662195,-0.063716,-39.071681
11.185,2.0,1.0,1.0,34.2,33.4,33.4,4.4,2.0,2.5175,0.7212210120067014,-0.010281147287114921,0.6820053884544667,0.004631322382113844,-0.064354,-38.956798
11.185,2.0,1.0,1.0,34.2,33.4,33.4,4.4,2.0,2.52,0.7158913418034069,-0.010457933653939355,0.6874906324075153,0.0046044482257885985,-0.065004,-38.841589
11.185,2.0,1.0,1.0,34.2,33.4,33.4,4.4,2.0,2.5225,0.7104922686759081,-0.010637400376285357,0.6929608258712155,0.0045755175503944725,-0.065664,-38.726048
11.185,2.0,1.0,1.0,34.2,33.4,33.4,4.4,2.0,2.525,0.7050231289448347,-0.01081958804905546,0.6984153419719707,0.004544464164912165,-0.066336,-38.610167
11.185,2.0,1.0,1.0,34.2,33.4,33.4,4.4,2.0,2.5275,0.6994832520790053,-0.011004537899849598,0.7038535365562983,0.004511219745519466,-0.06702,-38.493941
11.185,2.0,1.0,1.0,34.2,33.4,33.4,4.4,2.0,2.53,0.6938719607316978,-0.011192291795349512,0.7092747477076453,0.0044757137585255844,-0.067715,-38.377362
11.185,2.0,1.0,1.0,34.2,33.4,33.4,4.4,2.0,2.5325,0.6881885707839765,-0.01138289224746945,0.7146782952500871,0.004437873380177588,-0.068423,-38.260421
11.185,2.0,1.0,1.0,34.2,33.4,33.4,4.4,2.0,2.535,0.682432391395477,-0.011576382419247236,0.7200634802385808,0.00439762341319483,-0.069143,-38.143113
11.185,2.0,1.0,1.0,34.2,33.4,33.4,4.4,2.0,2.5375,0.676602725063072,-0.01177280613044833,0.7254295844354088,0.004354886199878705,-0.069875,-38.02543
11.185,2.0,1.0,1.0,34.2,33.4,33.4,4.4,2.0,2.54,0.6706988676878424,-0.011972207862853839,0.7307758697724848,0.00430958153163687,-0.070621,-37.907364
11.185,2.0,1.0,1.0,34.2,33.4,33.4,4.4,2.0,2.5425,0.6647201086508099,-0.012174632765201353,0.7361015777991445,0.004261626554753058,-0.071381,-37.788907
11.185,2.0,1.0,1.0,34.2,33.4,33.4,4.4,2.0,2.545,0.6586657308979098,-0.012380126657745103,0.7414059291150661,0.004210935672222876,-0.072153,-37.670051
11.185,2.0,1.0,1.0,34.2,33.4,33.4,4.4,2.0,2.5475,0.6525350110346995,-0.012588736036399753,0.7466881227879313,0.004157420441467158,-0.07294,-37.550789
11.185,2.0,1.0,1.0,34.2,33.4,33.4,4.4,2.0,2.55,0.6463272194313125,-0.012800508076430206,0.7519473357554598,0.0041009894677231425,-0.073742,-37.431113
11.185,2.0,1.0,1.0,34.2,33.4,33.4,4.4,2.0,2.5525,0.640041620338219,-0.013015490635645888,0.7571827222114093,0.004041548292902837,-0.074558,-37.311013
11.185,2.0,1.0,1.0,34.2,33.4,33.4,4.4,2.0,2.555,0.6336774720133355,-0.013233732257057058,0.7623934129751512,0.003978999279695139,-0.075389,-37.190483
11.185,2.0,1.0,1.0,34.2,33.4,33.4,4.4,2.0,2.5575,0.6272340268610923,-0.013455282170945848,0.7675785148444113,0.003913241490676202,-0.076235,-37.069512
11.185,2.0,1.0,1.0,34.2,33.4,33.4,4.4,2.0,2.56,0.6207105315840669,-0.013680190296302804,0.772737109930751,0.003844170562177847,-0.077098,-36.948094
11.185,2.0,1.0,1.0,34.2,33.4,33.4,4.4,2.0,2.5625,0.6141062273478314,-0.013908507241575422,0.7778682549773722,0.0037716785726498525,-0.077976,-36.826218
11.185,2.0,1.0,1.0,34.2,33.4,33.4,4.4,2.0,2.565,0.6074203499596831,-0.01414028430467237,0.7829709806587993,0.0036956539052352337,-0.078872,-36.703876
11.185,2.0,1.0,1.0,34.2,33.4,33.4,4.4,2.0,2.5675,0.6006521300619656,-0.014375573472161972,0.7880442908619977,0.0036159811042617857,-0.079784,-36.581058
11.185,2.0,1.0,1.0,34.2,33.4,33.4,4.4,2.0,2.57,0.5938007933407066,-0.014614427417600318,0.7930871619484716,0.0035325407253337287,-0.080714,-36.457756
11.185,2.0,1.0,1.0,34.2,33.4,33.4,4.4,2.0,2.5725,0.5868655607503376,-0.014856899498919355,0.798098541996874,0.0034452091786890842,-0.081661,-36.33396
11.185,2.0,1.0,1.0,34.2,33.4,33.4,4.4,2.0,2.575,0.5798456487552929,-0.015103043754800169,0.8030773500256563,0.0033538585654665502,-0.082627,-36.20966
11.185,2.0,1.0,1.0,34.2,33.4,33.4,4.4,2.0,2.5775,0.5727402695893191,-0.015352914899951619,0.808022475195257,0.0032583565065040206,-0.083612,-36.084847
11.185,2.0,1.0,1.0,34.2,33.4,33.4,4.4,2.0,2.58,0.5655486315333604,-0.015606568319208852,0.8129327759893422,0.0031585659632661508,-0.084616,-35.959509
11.185,2.0,1.0,1.0,34.2,33.4,33.4,4.4,2.0,2.5825,0.5582699392129208,-0.01586406006035967,0.817807079374585,0.0030543450504729305,-0.08564,-35.833638
11.185,2.0,1.0,1.0,34.2,33.4,33.4,4.4,2.0,2.585,0.5509033939158459,-0.01612544682560028,0.8226441799384419,0.0029455468399734747,-0.086685,-35.707222
11.185,2.0,1.0,1.0,34.2,33.4,33.4,4.4,2.0,2.5875,0.5434481939315015,-0.016390785961514928,0.8274428390044147,0.002832019155378494,-0.08775,-35.580251
11.185,2.0,1.0,1.0,34.2,33.4,33.4,4.4,2.0,2.59,0.5359035349123741,-0.016660135447465408,0.8322017837242239,0.0027136043569339113,-0.088837,-35.452713
11.185,2.0,1.0,1.0,34.2,33.4,33.4,4.4,2.0,2.5925,0.5282686102591507,-0.01693355388226893,0.8369197061463289,0.002590139116081882,-0.089945,-35.324599
11.185,2.0,1.0,1.0,34.2,33.4,33.4,4.4,2.0,2.595,0.5205426115304003,-0.01721110046903226,0.8415952622602149,0.0024614541791189303,-0.091077,-35.195895
11.185,2.0,1.0,1.0,34.2,33.4,33.4,4.4,2.0,2.5975,0.5127247288779874,-0.017492834998001708,0.8462270710158456,0.0023273741193199286,-0.092231,-35.066592
11.185,2.0,1.0,1.0,34.2,33.4,33.4,4.4,2.0,2.6,0.5048141515094371,-0.017778817827276333,0.8508137133176525,0.00218771707685254,-0.09341,-34.936675
11.185,2.0,1.0,1.0,34.2,33.4,33.4,4.4,2.0,2.6025,0.4968100681785019,-0.018069109861220137,0.8553537309924222,0.0020422944857602034,-0.094613,-34.806135
11.185,2.0,1.0,1.0,34.2,33.4,33.4,4.4,2.0,2.605,0.48871166770521574,-0.018363772526396604,0.859845625730425,0.0018909107872389635,-0.095841,-34.674957
11.185,2.0,1.0,1.0,34.2,33.4,33.4,4.4,2.0,2.6075,0.4805181395268092,-0.01866286774483441,0.8642878579990791,0.0017333631283795463,-0.097095,-34.54313
11.185,2.0,1.0,1.0,34.2,33.4,33.4,4.4,2.0,2.61,0.4722286742808861,-0.018966457904417144,0.8686788459284525,0.001569441045484342,-0.098375,-34.410639
11.185,2.0,1.0,1.0,34.2,33.4,33.4,4.4,2.0,2.6125,0.46384246442233007,-0.019274605826174514,0.8730169641678497,0.0013989261310045928,-0.099683,-34.277473
11.185,2.0,1.0,1.0,34.2,33.4,33.4,4.4,2.0,2.615,0.45535870487546626,-0.019587374728232188,0.8773005427127041,0.0012215916830710517,-0.10102,-34.143616
11.185,2.0,1.0,1.0,34.2,33.4,33.4,4.4,2.0,2.6175,0.4467765937230731,-0.019904828186158078,0.8815278657009691,0.0010372023365153363,-0.102385,-34.009055
11.185,2.0,1.0,1.0,34.2,33.4,33.4,4.4,2.0,2.62,0.438095332933895,-0.020227030089420225,0.8856971701781507,0.0008455136741943075,-0.10378,-33.873776
11.185,2.0,1.0,1.0,34.2,33.4,33.4,4.4,2.0,2.6225,0.4293141291303677,-0.0205540445936472,0.8898066448300982,0.0006462718173388581,-0.105206,-33.737763
11.185,2.0,1.0,1.0,34.2,33.4,33.4,4.4,2.0,2.625,0.420432194398372,-0.0208859360683534,0.893854428682579,0.000439212993548883,-0.106663,-33.601001
11.185,2.0,1.0,1.0,34.2,33.4,33.4,4.4,2.0,2.6275,0.41144874714084906,-0.021222769039763573,0.8978386097666785,0.00022406308094739683,-0.108154,-33.463475
11.185,2.0,1.0,1.0,34.2,33.4,33.4,4.4,2.0,2.63,0.40236301297724,-0.021564608128336073,0.9017572237489346,5.371268887726458e-07,-0.109677,-33.325169
11.185,2.0,1.0,1.0,34.2,33.4,33.4,4.4,2.0,2.6325,0.39317422569076504,-0.021911517980548537,0.9056082525250874,-0.00023166116051399945,-0.111236,-33.186065
11.185,2.0,1.0,1.0,34.2,33.4,33.4,4.4,2.0,2.635,0.38388162822563726,-0.022263563194468254,0.909389622776253,-0.000472839949919217,-0.11283,-33.046148
11.185,2.0,1.0,1.0,34.2,33.4,33.4,4.4,2.0,2.6375,0.37448447373643134,-0.022620808238584467,0.9130992044862052,-0.0007233198553742464,-0.11446,-32.905399
11.185,2.0,1.0,1.0,34.2,33.4,33.4,4.4,2.0,2.64,0.36498202669185176,-0.022983317363330195,0.9167348094184133,-0.0009834345382226078,-0.116129,-32.763801
11.185,2.0,1.0,1.0,34.2,33.4,33.4,4.4,2.0,2.6425,0.35537356403532566,-0.023351154504663546,0.9202941895513119,-0.001253531344686086,-0.117837,-32.621336
11.185,2.0,1.0,1.0,34.2,33.4,33.4,4.4,2.0,2.645,0.34565837640488073,-0.023724383179017206,0.923775035470209,-0.0015339719817130972,-0.119586,-32.477983
11.185,2.0,1.0,1.0,34.2,33.4,33.4,4.4,2.0,2.6475,0.3358357694149206,-0.02410306636885395,0.9271749747140758,-0.0018251332339070383,-0.121376,-32.333723
11.185,2.0,1.0,1.0,34.2,33.4,33.4,4.4,2.0,2.65,0.3259050650025945,-0.024487266397989177,0.9304915700753119,-0.002127407724596093,-0.123209,-32.188537
11.185,2.0,1.0,1.0,34.2,33.4,33.4,4.4,2.0,2.6525,0.3158656028416336,-0.024877044795750956,0.9337223178504035,-0.0024412047243749803,-0.125087,-32.042403
11.185,2.0,1.0,1.0,34.2,33.4,33.4,4.4,2.0,2.655,0.3057167418265844,-0.025272462148953328,0.9368646460392185,-0.002766951010749508,-0.127011,-31.8953
11.185,2.0,1.0,1.0,34.2,33.4,33.4,4.4,2.0,2.6575,0.29545786163059246,-0.025673577940544597,0.9399159124904186,-0.0031050917828417506,-0.128983,-31.747205
11.185,2.0,1.0,1.0,34.2,33.4,33.4,4.4,2.0,2.66,0.28508836433998264,-0.026080450373670207,0.9428734029902736,-0.0034560916354780076,-0.131004,-31.598095
11.185,2.0,1.0,1.0,34.2,33.4,33.4,4.4,2.0,2.6625,0.2746076761691003,-0.02649313617974751,0.9457343292918283,-0.003820435597381077,-0.133076,-31.447947
11.185,2.0,1.0,1.0,34.2,33.4,33.4,4.4,2.0,2.665,0.2640152492590008,-0.0269116904089934,0.9484958270811034,-0.004198630238633155,-0.135201,-31.296736
11.185,2.0,1.0,1.0,34.2,33.4,33.4,4.4,2.0,2.6675,0.2533105635638592,-0.027336166201663625,0.9511549538766026,-0.004591204853064016,-0.137381,-31.144436
11.185,2.0,1.0,1.0,34.2,33.4,33.4,4.4,2.0,2.67,0.24249312882909652,-0.027766614538062572,0.9537086868580521,-0.004998712721764501,-0.139617,-30.991022
11.185,2.0,1.0,1.0,34.2,33.4,33.4,4.4,2.0,2.6725,0.23156248666552867,-0.028203083965150432,0.9561539206197759,-0.0054217324645266995,-0.141913,-30.836465
11.185,2.0,1.0,1.0,34.2,33.4,33.4,4.4,2.0,2.675,0.22051821272409483,-0.02864562029731294,0.9584874648436439,-0.005860869486681038,-0.144269,-30.680738
11.185,2.0,1.0,1.0,34.2,33.4,33.4,4.4,2.0,2.6775,0.20935991897600637,-0.029094266288562855,0.960706041885909,-0.006316757529544842,-0.146689,-30.523812
11.185,2.0,1.0,1.0,34.2,33.4,33.4,4.4,2.0,2.68,0.19808725610349726,-0.02954906127310252,0.9628062842716055,-0.006790060333523588,-0.149175,-30.365654
11.185,2.0,1.0,1.0,34.2,33.4,33.4,4.4,2.0,2.6825,0.18669991600675379,-0.030010040770789417,0.9647847320894067,-0.007281473423827166,-0.151729,-30.206236
11.185,2.0,1.0,1.0,34.2,33.4,33.4,4.4,2.0,2.685,0.17519763443297737,-0.030477236053607335,0.9666378302790145,-0.007791726029792066,-0.154354,-30.045522
11.185,2.0,1.0,1.0,34.2,33.4,33.4,4.4,2.0,2.6875,0.16358019373406177,-0.03095067366873718,0.9683619258021496,-0.00832158314994628,-0.157053,-29.88348
11.185,2.0,1.0,1.0,34.2,33.4,33.4,4.4,2.0,2.69,0.15184742575986157,-0.03143037491324321,0.9699532646871698,-0.008871847776235798,-0.159829,-29.720073
11.185,2.0,1.0,1.0,34.2,33.4,33.4,4.4,2.0,2.6925,0.13999921489468484,-0.03191635525472537,0.971407988936022,-0.009443363292267758,-0.162685,-29.555265
11.185,2.0,1.0,1.0,34.2,33.4,33.4,4.4,2.0,2.695,0.1280355012453334,-0.03240862369152069,0.9727221332809033,-0.010037016062029705,-0.165625,-29.389018
11.185,2.0,1.0,1.0,34.2,33.4,33.4,4.4,2.0,2.6975,0.115956283989794,-0.032907182045157836,0.9738916217763641,-0.010653738227350718,-0.168652,-29.221291
11.185,2.0,1.0,1.0,34.2,33.4,33.4,4.4,2.0,2.7,0.10376162489670082,-0.03341202417674847,0.9749122642107352,-0.01129451073439163,-0.17177,-29.052043
11.185,2.0,1.0,1.0,34.2,33.4,33.4,4.4,2.0,2.7025,0.09145165202665456,-0.03392313511782562,0.9757797523187743,-0.011960366611731605,-0.174983,-28.88123
11.185,2.0,1.0,1.0,34.2,33.4,33.4,4.4,2.0,2.705,0.0790265636278522,-0.03444049010477599,0.9764896557749679,-0.012652394525179583,-0.178296,-28.708806
11.185,2.0,1.0,1.0,34.2,33.4,33.4,4.4,2.0,2.7075,0.06648663223980184,-0.03496405350443433,0.9770374179443634,-0.013371742637332068,-0.181712,-28.534724
11.185,2.0,1.0,1.0,34.2,33.4,33.4,4.4,2.0,2.71,0.05383220902073921,-0.03549377761657442,0.9774183513646073,-0.01411962280316031,-0.185236,-28.358935
11.185,2.0,1.0,1.0,34.2,33.4,33.4,4.4,2.0,2.7125,0.04106372831618107,-0.036029601336894396,0.9776276329295273,-0.014897315136600602,-0.188875,-28.181386
11.185,2.0,1.0,1.0,34.2,33.4,33.4,4.4,2.0,2.715,0.028181712488449553,-0.0365714486616034,0.9776602987405382,-0.015706172987297203,-0.192633,-28.002024
11.185,2.0,1.0,1.0,34.2,33.4,33.4,4.4,2.0,2.7175,0.01518677702969532,-0.03711922701180918,0.9775112385876158,-0.016547628371382406,-0.196517,-27.820791
11.185,2.0,1.0,1.0,34.2,33.4,33.4,4.4,2.0,2.72,0.002079635984115305,-0.03767282535249537,0.9771751900164433,-0.017423197905551496,-0.200532,-27.637627
11.185,2.0,1.0,1.0,34.2,33.4,33.4,4.4,2.0,2.7225,-0.011138892291225121,-0.038232112076886884,0.9766467319323562,-0.018334489299804156,-0.204685,-27.452471
11.185,2.0,1.0,1.0,34.2,33.4,33.4,4.4,2.0,2.725,-0.024467878993052975,-0.03879693262229898,0.9759202776849556,-0.019283208471175775,-0.208984,-27.265255
11.185,2.0,1.0,1.0,34.2,33.4,33.4,4.4,2.0,2.7275,-0.03790627832696573,-0.0393671067780375,0.9749900675694239,-0.020271167348719477,-0.213437,-27.075912
11.185,2.0,1.0,1.0,34.2,33.4,33.4,4.4,2.0,2.73,-0.05145292050561701,-0.03994242563938346,0.9738501606717076,-0.02130029244905207,-0.218051,-26.884369
11.185,2.0,1.0,1.0,34.2,33.4,33.4,4.4,2.0,2.7325,-0.06510650423732331,-0.04052264815396794,0.9724944259743872,-0.022372634312139917,-0.222836,-26.690549
11.185,2.0,1.0,1.0,34.2,33.4,33.4,4.4,2.0,2.735,-0.07886558864363441,-0.041107497197679733,0.9709165326283142,-0.02349037789885967,-0.227802,-26.494372
11.185,2.0,1.0,1.0,34.2,33.4,33.4,4.4,2.0,2.7375,-0.09272858453393346,-0.04169665510635295,0.9691099392814603,-0.024655854065480622,-0.232958,-26.295753
11.185,2.0,1.0,1.0,34.2,33.4,33.4,4.4,2.0,2.74,-0.10669374495255993,-0.04228975857650241,0.9670678823407569,-0.02587155224584398,-0.238317,-26.094604
11.185,2.0,1.0,1.0,34.2,33.4,33.4,4.4,2.0,2.7425,-0.12075915489896598,-0.042886392832866625,0.9647833630246438,-0.027140134490003395,-0.243891,-25.890829
11.185,2.0,1.0,1.0,34.2,33.4,33.4,4.4,2.0,2.745,-0.13492272010324474,-0.04348608494194336,0.9622491330430836,-0.02846445102881031,-0.249693,-25.684329
11.185,2.0,1.0,1.0,34.2,33.4,33.4,4.4,2.0,2.7475,-0.14918215471771437,-0.044088296128400394,0.9594576787177036,-0.029847557557841905,-0.255738,-25.474999
11.185,2.0,1.0,1.0,34.2,33.4,33.4,4.4,2.0,2.75,-0.163534967758776,-0.0446924129243768,0.956401203326635,-0.0312927344616995,-0.262041,-25.262727
11.185,2.0,1.0,1.0,34.2,33.4,33.4,4.4,2.0,2.7525,-0.1779784481015098,-0.04529773694925204,0.9530716074262002,-0.03280350823167872,-0.268621,-25.047395
11.185,2.0,1.0,1.0,34.2,33.4,33.4,4.4,2.0,2.755,-0.19250964779065496,-0.045903473078160416,0.9494604668638729,-0.0343836753668539,-0.275495,-24.828878
11.185,2.0,1.0,1.0,34.2,33.4,33.4,4.4,2.0,2.7575,-0.20712536338452794,-0.04650871570978474,0.9455590081531101,-0.03603732909159781,-0.282684,-24.607043
11.185,2.0,1.0,1.0,34.2,33.4,33.4,4.4,2.0,2.76,-0.22182211499072524,-0.04711243278576811,0.94135808082971,-0.0377688892724507,-0.290212,-24.38175
11.185,2.0,1.0,1.0,34.2,33.4,33.4,4.4,2.0,2.7625,-0.23659612258191426,-0.04771344714292808,0.9368481263499843,-0.039583135975265124,-0.298103,-24.152847
11.185,2.0,1.0,1.0,34.2,33.4,33.4,4.4,2.0,2.765,-0.2514432790931703,-0.04831041469215195,0.9320191430219437,-0.04148524717101418,-0.306384,-23.920175
11.185,2.0,1.0,1.0,34.2,33.4,33.4,4.4,2.0,2.7675,-0.2663591196952425,-0.04890179881037242,0.9268606463801176,-0.04348084117716594,-0.315087,-23.683564
11.185,2.0,1.0,1.0,34.2,33.4,33.4,4.4,2.0,2.77,-0.2813387865056303,-0.04948584019921811,0.9213616243207353,-0.04557602451290404,-0.324245,-23.442833
11.185,2.0,1.0,1.0,34.2,33.4,33.4,4.4,2.0,2.7725,-0.2963769878347834,-0.05006052129924563,0.9155104862046447,-0.0477774459527806,-0.333896,-23.197787
11.185,2.0,1.0,1.0,34.2,33.4,33.4,4.4,2.0,2.775,-0.311467950859599,-0.050623524143635884,0.9092950050079556,-0.05009235768696503,-0.344081,-22.94822
11.185,2.0,1.0,1.0,34.2,33.4,33.4,4.4,2.0,2.7775,-0.3266053663595599,-0.051172180279017064,0.9027022514523745,-0.052528684639657305,-0.354847,-22.693909
11.185,2.0,1.0,1.0,34.2,33.4,33.4,4.4,2.0,2.78,-0.3417823238285541,-0.051703411059554165,0.8957185188755896,-0.055095103163215406,-0.366246,-22.434618
11.185,2.0,1.0,1.0,34.2,33.4,33.4,4.4,2.0,2.7825,-0.3569912348683582,-0.05221365621531336,0.888329237403749,-0.05780113051687453,-0.378336,-22.170091
11.185,2.0,1.0,1.0,34.2,33.4,33.4,4.4,2.0,2.785,-0.3722237422547254,-0.05269878808322568,0.8805188757603154,-0.06065722675822605,-0.391184,-21.900054
11.185,2.0,1.0,1.0,34.2,33.4,33.4,4.4,2.0,2.7875,-0.3874706114111838,-0.053154008237338374,0.8722708287859449,-0.06367491092477143,-0.404865,-21.624215
11.185,2.0,1.0,1.0,34.2,33.4,33.4,4.4,2.0,2.79,-0.4027216001881802,-0.05357372242305328,0.8635672884515083,-0.06686689366251876,-0.419461,-21.342255
11.185,2.0,1.0,1.0,34.2,33.4,33.4,4.4,2.0,2.7925,-0.4179653017697071,-0.053951388632917215,0.8543890958224171,-0.07024722876669628,-0.435071,-21.053835
11.185,2.0,1.0,1.0,34.2,33.4,33.4,4.4,2.0,2.795,-0.4331889541428083,-0.054279331786368665,0.8447155710826413,-0.07383148642975391,-0.451802,-20.758586
11.185,2.0,1.0,1.0,34.2,33.4,33.4,4.4,2.0,2.7975,-0.44837820776836546,-0.05454851669533901,0.8345243183648514,-0.077636951329592,-0.469782,-20.45611
11.185,2.0,1.0,1.0,34.2,33.4,33.4,4.4,2.0,2.8,-0.46351684075222865,-0.054748268681283505,0.8237910017845441,-0.08168284900942402,-0.489154,-20.145977
11.185,2.0,1.0,1.0,34.2,33.4,33.4,4.4,2.0,2.8025,-0.47858640775543954,-0.05486592818143618,0.8124890887878575,-0.08599060425168016,-0.510086,-19.827724
11.185,2.0,1.0,1.0,34.2,33.4,33.4,4.4,2.0,2.805,-0.4935658048603048,-0.05488642170573025,0.8005895567753569,-0.09058413524977352,-0.532772,-19.500844
11.185,2.0,1.0,1.0,34.2,33.4,33.4,4.4,2.0,2.8075,-0.5084307272988305,-0.0547917262598694,0.7880605590927995,-0.09549018719607472,-0.557438,-19.164791
11.185,2.0,1.0,1.0,34.2,33.4,33.4,4.4,2.0,2.81,-0.5231529899083363,-0.05456019739923691,0.7748670471088397,-0.1007387082058977,-0.584349,-18.818973
11.185,2.0,1.0,1.0,34.2,33.4,33.4,4.4,2.0,2.8125,-0.5376996708040578,-0.05416572183246001,0.7609703465960497,-0.10636326891630883,-0.613818,-18.462744
11.185,2.0,1.0,1.0,34.2,33.4,33.4,4.4,2.0,2.815,-0.5520320262351327,-0.05357664315383927,0.7463276895943622,-0.11240152403466662,-0.646215,-18.095406
11.185,2.0,1.0,1.0,34.2,33.4,33.4,4.4,2.0,2.8175,-0.5661041078184058,-0.052754392775365366,0.7308917083392689,-0.11889570859075034,-0.681982,-17.716198
11.185,2.0,1.0,1.0,34.2,33.4,33.4,4.4,2.0,2.82,-0.5798609908555522,-0.051651736019256995,0.7146099072642264,-0.1258931520881446,-0.721647,-17.324297
11.185,2.0,1.0,1.0,34.2,33.4,33.4,4.4,2.0,2.8225,-0.5932364923063547,-0.05021051374741833,0.6974241451137412,-0.13344677759020362,-0.76585,-16.91881
11.185,2.0,1.0,1.0,34.2,33.4,33.4,4.4,2.0,2.825,-0.6061502167649095,-0.048358720474031655,0.6792701860265613,-0.14161552584302461,-0.815366,-16.498776
11.185,2.0,1.0,1.0,34.2,33.4,33.4,4.4,2.0,2.8275,-0.6185037155293842,-0.04600670781037124,0.6600774229128309,-0.15046460004156126,-0.871145,-16.063158
