1,w,sub_t,h,l1,l2,l3,g1,g2,Freq,S11_re,S21_re,S11_img,S21_img,S11_dB,S21_dB
11.185,2.0,1.0,1.0,33.8,34.1,34.1,2.9,3.6,2.5,0.811045644617667,-0.00826572575921805,0.572914681285055,0.00539391059610017,-0.061115,-40.113675
11.185,2.0,1.0,1.0,33.8,34.1,34.1,2.9,3.6,2.5025,0.8069258878471831,-0.008425793229126389,0.5785824233675457,0.005402859914300971,-0.061729,-39.991978
11.185,2.0,1.0,1.0,33.8,34.1,34.1,2.9,3.6,2.505,0.8027466068594032,-0.008588699224448978,0.5842457811247999,0.0054106715297339665,-0.062353,-39.869894
11.185,2.0,1.0,1.0,33.8,34.1,34.1,2.9,3.6,2.5075,0.7985071893696152,-0.00875450138044599,0.5899043945410799,0.0054173006019056094,-0.062989,-39.747415
11.185,2.0,1.0,1.0,33.8,34.1,34.1,2.9,3.6,2.51,0.7942070136553558,-0.008923258804157074,0.595557892725392,0.005422700605921195,-0.063637,-39.624531
11.185,2.0,1.0,1.0,33.8,34.1,34.1,2.9,3.6,2.5125,0.7898454484174763,-0.009095032119539196,0.601205893561816,0.005426823261661884,-0.064296,-39.501232
11.185,2.0,1.0,1.0,33.8,34.1,34.1,2.9,3.6,2.515,0.7854218526398674,-0.009269883514231856,0.6068480033481292,0.005429618459594048,-0.064968,-39.377509
11.185,2.0,1.0,1.0,33.8,34.1,34.1,2.9,3.6,2.5175,0.7809355754478955,-0.009447876788018825,0.6124838164222673,0.005431034183029349,-0.065652,-39.253353
11.185,2.0,1.0,1.0,33.8,34.1,34.1,2.9,3.6,2.52,0.7763859559655581,-0.009629077403058031,0.6181129147761905,0.005431016426641797,-0.066349,-39.128752
11.185,2.0,1.0,1.0,33.8,34.1,34.1,2.9,3.6,2.5225,0.7717723231714229,-0.009813552535954123,0.6237348676566487,0.005429509111035882,-0.067059,-39.003698
11.185,2.0,1.0,1.0,33.8,34.1,34.1,2.9,3.6,2.525,0.7670939957533633,-0.010001371131752996,0.6293492311523748,0.005426453993148422,-0.067783,-38.87818
11.185,2.0,1.0,1.0,33.8,34.1,34.1,2.9,3.6,2.5275,0.7623502819621455,-0.010192603959941092,0.6349555477671732,0.0054217905722515405,-0.06852,-38.752188
11.185,2.0,1.0,1.0,33.8,34.1,34.1,2.9,3.6,2.53,0.7575404794639127,-0.010387323672535044,0.6405533459783592,0.005415455991309868,-0.069272,-38.62571
11.185,2.0,1.0,1.0,33.8,34.1,34.1,2.9,3.6,2.5325,0.7526638751916118,-0.01058560486435351,0.6461421397799846,0.005407384933430169,-0.070038,-38.498737
11.185,2.0,1.0,1.0,33.8,34.1,34.1,2.9,3.6,2.535,0.7477197451954165,-0.010787524135565767,0.6517214282102597,0.005397509513123432,-0.070819,-38.371257
11.185,2.0,1.0,1.0,33.8,34.1,34.1,2.9,3.6,2.5375,0.7427073544922083,-0.01099316015661724,0.6572906948625351,0.005385759162082382,-0.071615,-38.243259
11.185,2.0,1.0,1.0,33.8,34.1,34.1,2.9,3.6,2.54,0.7376259569141727,-0.011202593735636616,0.6628494073792077,0.005372060509157027,-0.072427,-38.114733
11.185,2.0,1.0,1.0,33.8,34.1,34.1,2.9,3.6,2.5425,0.7324747949565769,-0.01141590788843469,0.6683970169278624,0.005356337254191049,-0.073255,-37.985665
11.185,2.0,1.0,1.0,33.8,34.1,34.1,2.9,3.6,2.545,0.7272530996248,-0.011633187911210452,0.6739329576589317,0.00533851003535841,-0.074099,-37.856046
11.185,2.0,1.0,1.0,33.8,34.1,34.1,2.9,3.6,2.5475,0.7219600902806975,-0.01185452145608506,0.6794566461441237,0.005318496289615739,-0.074961,-37.725862
11.185,2.0,1.0,1.0,33.8,34.1,34.1,2.9,3.6,2.55,0.7165949744883646,-0.01207999860959183,0.684967480794842,0.005296210105860891,-0.07584,-37.595101
11.185,2.0,1.0,1.0,33.8,34.1,34.1,2.9,3.6,2.5525,0.7111569478594081,-0.0123097119742548,0.690464841259749,0.005271562070358586,-0.076737,-37.463752
11.185,2.0,1.0,1.0,33.8,34.1,34.1,2.9,3.6,2.555,0.7056451938977957,-0.012543756753396718,0.6959480878006284,0.005244459103965795,-0.077652,-37.331801
11.185,2.0,1.0,1.0,33.8,34.1,34.1,2.9,3.6,2.5575,0.7000588838443923,-0.01278223083932341,0.7014165606456243,0.00521480429065579,-0.078586,-37.199236
11.185,2.0,1.0,1.0,33.8,34.1,34.1,2.9,3.6,2.56,0.6943971765212847,-0.013025234905039353,0.7068695793188897,0.005182496696805313,-0.07954,-37.066043
11.185,2.0,1.0,1.0,33.8,34.1,34.1,2.9,3.6,2.5625,0.6886592181760038,-0.013272872499656365,0.7123064419456475,0.005147431180672203,-0.080513,-36.932208
11.185,2.0,1.0,1.0,33.8,34.1,34.1,2.9,3.6,2.565,0.6828441423257569,-0.013525250147666243,0.7177264245315966,0.005109498191449103,-0.081507,-36.797719
11.185,2.0,1.0,1.0,33.8,34.1,34.1,2.9,3.6,2.5675,0.6769510696018023,-0.013782477452256128,0.723128780215534,0.005068583557236081,-0.082522,-36.662561
11.185,2.0,1.0,1.0,33.8,34.1,34.1,2.9,3.6,2.57,0.6709791075940891,-0.014044667202854305,0.7285127384940179,0.005024568261226884,-0.083559,-36.52672
11.185,2.0,1.0,1.0,33.8,34.1,34.1,2.9,3.6,2.5725,0.6649273506962988,-0.014311935487104268,0.7338775044168255,0.004977328205352021,-0.084618,-36.390181
11.185,2.0,1.0,1.0,33.8,34.1,34.1,2.9,3.6,2.575,0.6587948799514419,-0.014584401807473439,0.739222257751883,0.004926733960567633,-0.0857,-36.252929
11.185,2.0,1.0,1.0,33.8,34.1,34.1,2.9,3.6,2.5775,0.652580762898157,-0.014862189202714414,0.7445461521182717,0.0048726505029172305,-0.086806,-36.114949
11.185,2.0,1.0,1.0,33.8,34.1,34.1,2.9,3.6,2.58,0.64628405341788,-0.015145424374406012,0.7498483140858462,0.0048149369344298275,-0.087936,-35.976225
11.185,2.0,1.0,1.0,33.8,34.1,34.1,2.9,3.6,2.5825,0.6399037915830501,-0.01543423781881432,0.755127842239889,0.004753446187846223,-0.089091,-35.836742
11.185,2.0,1.0,1.0,33.8,34.1,34.1,2.9,3.6,2.585,0.6334390035065404,-0.01572876396432355,0.7603838062091625,0.004688024714089035,-0.090273,-35.696482
11.185,2.0,1.0,1.0,33.8,34.1,34.1,2.9,3.6,2.5875,0.626888701192493,-0.016029141314700505,0.7656152456555971,0.004618512151309529,-0.09148,-35.555429
11.185,2.0,1.0,1.0,33.8,34.1,34.1,2.9,3.6,2.59,0.6202518823887775,-0.016335512598467043,0.770821169223748,0.004544740974252081,-0.092716,-35.413566
11.185,2.0,1.0,1.0,33.8,34.1,34.1,2.9,3.6,2.5925,0.613527530441266,-0.016648024924670466,0.7760005534480555,0.004466536122581048,-0.093979,-35.270876
11.185,2.0,1.0,1.0,33.8,34.1,34.1,2.9,3.6,2.595,0.6067146141501708,-0.016966829945352126,0.7811523416157896,0.004383714606705923,-0.095272,-35.127339
11.185,2.0,1.0,1.0,33.8,34.1,34.1,2.9,3.6,2.5975,0.599812087628661,-0.017292084025031264,0.7862754425834483,0.0042960850895253835,-0.096595,-34.982939
11.185,2.0,1.0,1.0,33.8,34.1,34.1,2.9,3.6,2.6,0.5928188901640207,-0.017623948417533425,0.7913687295442239,0.004203447442383368,-0.09795,-34.837655
11.185,2.0,1.0,1.0,33.8,34.1,34.1,2.9,3.6,2.6025,0.5857339460816151,-0.01796258945050741,0.7964310387439795,0.004105592273391686,-0.099336,-34.691468
11.185,2.0,1.0,1.0,33.8,34.1,34.1,2.9,3.6,2.605,0.5785561646119338,-0.01830817871799133,0.8014611681430335,0.004002300426123366,-0.100755,-34.544358
11.185,2.0,1.0,1.0,33.8,34.1,34.1,2.9,3.6,2.6075,0.5712844397610154,-0.018660893281399523,0.8064578760208329,0.0038933424465144597,-0.102209,-34.396305
11.185,2.0,1.0,1.0,33.8,34.1,34.1,2.9,3.6,2.61,0.5639176501845686,-0.019020915879321403,0.8114198795204157,0.003778478015633266,-0.103699,-34.247288
11.185,2.0,1.0,1.0,33.8,34.1,34.1,2.9,3.6,2.6125,0.5564546590661161,-0.019388435146534152,0.8163458531293227,0.0036574553457768403,-0.105224,-34.097285
11.185,2.0,1.0,1.0,33.8,34.1,34.1,2.9,3.6,2.615,0.5488943139995139,-0.01976364584264883,0.8212344270934051,0.0035300105371395742,-0.106788,-33.946274
11.185,2.0,1.0,1.0,33.8,34.1,34.1,2.9,3.6,2.6175,0.5412354468762343,-0.0201467490908204,0.8260841857596688,0.0033958668920609602,-0.108391,-33.794232
11.185,2.0,1.0,1.0,33.8,34.1,34.1,2.9,3.6,2.62,0.533476873777798,-0.020537952626969273,0.8308936658440644,0.0032547341836004426,-0.110035,-33.641135
11.185,2.0,1.0,1.0,33.8,34.1,34.1,2.9,3.6,2.6225,0.525617394873791,-0.020937471059970316,0.8356613546197708,0.0031063078749010513,-0.11172,-33.48696
11.185,2.0,1.0,1.0,33.8,34.1,34.1,2.9,3.6,2.625,0.517655794325935,-0.021345526143278,0.840385688021197,0.00295026828549059,-0.113449,-33.33168
11.185,2.0,1.0,1.0,33.8,34.1,34.1,2.9,3.6,2.6275,0.509590840198683,-0.02176234705846667,0.8450650486585685,0.0027862797003239334,-0.115223,-33.175272
11.185,2.0,1.0,1.0,33.8,34.1,34.1,2.9,3.6,2.63,0.5014212843768916,-0.022188170711167902,0.8496977637375192,0.0026139894169910894,-0.117044,-33.017708
11.185,2.0,1.0,1.0,33.8,34.1,34.1,2.9,3.6,2.6325,0.4931458624911321,-0.02262324203989354,0.8542821028776912,0.0024330267260960687,-0.118913,-32.858961
11.185,2.0,1.0,1.0,33.8,34.1,34.1,2.9,3.6,2.635,0.4847632938512712,-0.023067814338231015,0.8588162758238174,0.0022430018193518625,-0.120832,-32.699003
11.185,2.0,1.0,1.0,33.8,34.1,34.1,2.9,3.6,2.6375,0.47627228138900124,-0.023522149590892275,0.8632984300422488,0.002043504619427171,-0.122804,-32.537805
11.185,2.0,1.0,1.0,33.8,34.1,34.1,2.9,3.6,2.64,0.4676715116100468,-0.02398651882408763,0.8677266481952663,0.0018341035250166084,-0.124829,-32.375337
11.185,2.0,1.0,1.0,33.8,34.1,34.1,2.9,3.6,2.6425,0.45895965455688514,-0.024461202470675594,0.8720989454848511,0.0016143440639863527,-0.126911,-32.211569
11.185,2.0,1.0,1.0,33.8,34.1,34.1,2.9,3.6,2.645,0.45013536378285807,-0.02494649075051416,0.8764132668568759,0.0013837474467553149,-0.129051,-32.046469
11.185,2.0,1.0,1.0,33.8,34.1,34.1,2.9,3.6,2.6475,0.4411972763386856,-0.025442684066399428,0.8806674840558494,0.0011418090113110902,-0.131252,-31.880004
11.185,2.0,1.0,1.0,33.8,34.1,34.1,2.9,3.6,2.65,0.432144012772463,-0.025950093415928556,0.884859392519462,0.0008879965504096258,-0.133516,-31.712139
11.185,2.0,1.0,1.0,33.8,34.1,34.1,2.9,3.6,2.6525,0.42297417714441393,-0.026469040819553345,0.8889867081011743,0.0006217485105699712,-0.135846,-31.54284
11.185,2.0,1.0,1.0,33.8,34.1,34.1,2.9,3.6,2.655,0.41368635705774176,-0.026999859765008575,0.8930470636080208,0.0003424720514260365,-0.138244,-31.372071
11.185,2.0,1.0,1.0,33.8,34.1,34.1,2.9,3.6,2.6575,0.404279123707171,-0.027542895668189026,0.8970380051395291,4.9540952834762436e-05,-0.140713,-31.199794
11.185,2.0,1.0,1.0,33.8,34.1,34.1,2.9,3.6,2.66,0.39475103194692507,-0.028098506350411327,0.9009569882123365,-0.0002577066441580108,-0.143257,-31.02597
11.185,2.0,1.0,1.0,33.8,34.1,34.1,2.9,3.6,2.6625,0.385100620380171,-0.028667062531829445,0.904801373653537,-0.0005799706778403233,-0.145879,-30.850559
11.185,2.0,1.0,1.0,33.8,34.1,34.1,2.9,3.6,2.665,0.375326411472185,-0.029248948340563213,0.9085684232441354,-0.0009179918048091923,-0.148581,-30.673519
11.185,2.0,1.0,1.0,33.8,34.1,34.1,2.9,3.6,2.6675,0.36542691168990415,-0.02984456183684133,0.912255295092053,-0.0012725542561675446,-0.151368,-30.494807
11.185,2.0,1.0,1.0,33.8,34.1,34.1,2.9,3.6,2.67,0.3554006116708481,-0.030454315551149184,0.9158590387120549,-0.001644488931738767,-0.154244,-30.314378
11.185,2.0,1.0,1.0,33.8,34.1,34.1,2.9,3.6,2.6725,0.3452459864248964,-0.031078637034989233,0.9193765897875955,-0.0020346767553602665,-0.157211,-30.132186
11.185,2.0,1.0,1.0,33.8,34.1,34.1,2.9,3.6,2.675,0.33496149557296356,-0.031717969422397414,0.9228047645869064,-0.002444052316864513,-0.160276,-29.948182
11.185,2.0,1.0,1.0,33.8,34.1,34.1,2.9,3.6,2.6775,0.3245455836272231,-0.032372771999801445,0.9261402540027216,-0.002873607829215079,-0.163441,-29.762316
11.185,2.0,1.0,1.0,33.8,34.1,34.1,2.9,3.6,2.68,0.3139966803183408,-0.033043520781124075,0.9293796171816433,-0.0033243974324830314,-0.166713,-29.574537
11.185,2.0,1.0,1.0,33.8,34.1,34.1,2.9,3.6,2.6825,0.3033132009760715,-0.03373070908421988,0.9325192747054205,-0.003797541879972334,-0.170096,-29.384789
11.185,2.0,1.0,1.0,33.8,34.1,34.1,2.9,3.6,2.685,0.2924935469706534,-0.03443484810374273,0.9355555012821701,-0.004294233645893278,-0.173595,-29.193017
11.185,2.0,1.0,1.0,33.8,34.1,34.1,2.9,3.6,2.6875,0.281536106223729,-0.0351564674743542,0.938484417900776,-0.00481574249859636,-0.177217,-28.999161
11.185,2.0,1.0,1.0,33.8,34.1,34.1,2.9,3.6,2.69,0.2704392537990892,-0.03589611581674471,0.9413019833962848,-0.005363421588604566,-0.180968,-28.803162
11.185,2.0,1.0,1.0,33.8,34.1,34.1,2.9,3.6,2.6925,0.2592013525853036,-0.036654361257217584,0.944003985368033,-0.005938714106592244,-0.184854,-28.604954
11.185,2.0,1.0,1.0,33.8,34.1,34.1,2.9,3.6,2.695,0.24782075408457716,-0.037431791909500065,0.946586030385273,-0.006543160573165708,-0.188883,-28.404472
11.185,2.0,1.0,1.0,33.8,34.1,34.1,2.9,3.6,2.6975,0.23629579932473158,-0.038229016304945275,0.9490435334071875,-0.0071784068299177405,-0.193062,-28.201647
11.185,2.0,1.0,1.0,33.8,34.1,34.1,2.9,3.6,2.7,0.22462481991438876,-0.039046663754263945,0.9513717063352861,-0.007846212809884243,-0.1974,-27.996407
11.185,2.0,1.0,1.0,33.8,34.1,34.1,2.9,3.6,2.7025,0.21280613926518363,-0.03988538462029067,0.9535655456059402,-0.00854846217539887,-0.201905,-27.788675
11.185,2.0,1.0,1.0,33.8,34.1,34.1,2.9,3.6,2.705,0.2008380740093898,-0.040745850476888744,0.955619818719241,-0.00928717292258395,-0.206587,-27.578374
11.185,2.0,1.0,1.0,33.8,34.1,34.1,2.9,3.6,2.7075,0.18871893564675507,-0.041628754123800835,0.9575290495871152,-0.010064509064566848,-0.211456,-27.365421
11.185,2.0,1.0,1.0,33.8,34.1,34.1,2.9,3.6,2.71,0.17644703246094964,-0.04253480942083527,0.9592875025684873,-0.01088279352019777,-0.216523,-27.149729
11.185,2.0,1.0,1.0,33.8,34.1,34.1,2.9,3.6,2.7125,0.1640206717539278,-0.04346475089702081,0.9608891650419391,-0.0117445223518783,-0.221801,-26.931209
11.185,2.0,1.0,1.0,33.8,34.1,34.1,2.9,3.6,2.715,0.1514381624560973,-0.04441933308096098,0.9623277283464677,-0.012652380515410344,-0.2273,-26.709766
11.185,2.0,1.0,1.0,33.8,34.1,34.1,2.9,3.6,2.7175,0.13869781818178564,-0.04539932948721048,0.9635965668980997,-0.013609259306947742,-0.233037,-26.485301
11.185,2.0,1.0,1.0,33.8,34.1,34.1,2.9,3.6,2.72,0.12579796081361352,-0.04640553117963442,0.9646887152638948,-0.014618275717640142,-0.239026,-26.25771
11.185,2.0,1.0,1.0,33.8,34.1,34.1,2.9,3.6,2.7225,0.11273692471639492,-0.04743874481584317,0.9655968429447065,-0.015682793935940426,-0.245283,-26.026885
11.185,2.0,1.0,1.0,33.8,34.1,34.1,2.9,3.6,2.725,0.09951306170217145,-0.04849979005621895,0.9663132265831716,-0.016806449271433994,-0.251826,-25.792711
11.185,2.0,1.0,1.0,33.8,34.1,34.1,2.9,3.6,2.7275,0.08612474689325686,-0.04958949619593332,0.9668297192732789,-0.01799317481320009,-0.258674,-25.555067
11.185,2.0,1.0,1.0,33.8,34.1,34.1,2.9,3.6,2.73,0.07257038566140447,-0.05070869784759723,0.9671377166013387,-0.01924723118097569,-0.265849,-25.313827
11.185,2.0,1.0,1.0,33.8,34.1,34.1,2.9,3.6,2.7325,0.05884842185921836,-0.051858229464478926,0.9672281189944243,-0.02057323977981805,-0.273375,-25.068859
11.185,2.0,1.0,1.0,33.8,34.1,34.1,2.9,3.6,2.735,0.04495734760682604,-0.05303891844787432,0.9670912898900125,-0.021976220029708154,-0.281275,-24.820021
11.185,2.0,1.0,1.0,33.8,34.1,34.1,2.9,3.6,2.7375,0.030895714954395578,-0.0542515765251202,0.9667170091683335,-0.023461631112033796,-0.289579,-24.567167
11.185,2.0,1.0,1.0,33.8,34.1,34.1,2.9,3.6,2.74,0.016662149812331106,-0.05549698901424202,0.9660944212049631,-0.025035418856734135,-0.298317,-24.31014
11.185,2.0,1.0,1.0,33.8,34.1,34.1,2.9,3.6,2.7425,0.002255368628914131,-0.056775901503962056,0.9652119768038805,-0.026704068488991255,-0.307522,-24.048776
11.185,2.0,1.0,1.0,33.8,34.1,34.1,2.9,3.6,2.745,-0.012325801595481342,-0.05808900336949182,0.9640573681578789,-0.02847466406487899,-0.317233,-23.782901
11.185,2.0,1.0,1.0,33.8,34.1,34.1,2.9,3.6,2.7475,-0.027082399232646274,-0.05943690740976277,0.9626174558517967,-0.03035495555385297,-0.327489,-23.512333
11.185,2.0,1.0,1.0,33.8,34.1,34.1,2.9,3.6,2.75,-0.0420152989946611,-0.0608201247235863,0.960878186771119,-0.0323534346752347,-0.338338,-23.236876
11.185,2.0,1.0,1.0,33.8,34.1,34.1,2.9,3.6,2.7525,-0.0571251768391505,-0.062239033731778165,0.9588245016012306,-0.03447942076912271,-0.349829,-22.956326
11.185,2.0,1.0,1.0,33.8,34.1,34.1,2.9,3.6,2.755,-0.07241246743858638,-0.06369384198814626,0.95644023039702,-0.03674315818300427,-0.36202,-22.670464
11.185,2.0,1.0,1.0,33.8,34.1,34.1,2.9,3.6,2.7575,-0.0878773125053592,-0.06518453908970073,0.9537079744648896,-0.03915592688756321,-0.374974,-22.379061
11.185,2.0,1.0,1.0,33.8,34.1,34.1,2.9,3.6,2.76,-0.10351949784097192,-0.06671083857648911,0.9506089725254513,-0.041730168302700925,-0.388763,-22.081871
11.185,2.0,1.0,1.0,33.8,34.1,34.1,2.9,3.6,2.7625,-0.11933837644140895,-0.06827210617942654,0.9471229488112944,-0.04447962862141439,-0.403465,-21.778635
11.185,2.0,1.0,1.0,33.8,34.1,34.1,2.9,3.6,2.765,-0.13533277430912916,-0.06986727109828175,0.9432279403970081,-0.047419522268004895,-0.419171,-21.469076
11.185,2.0,1.0,1.0,33.8,34.1,34.1,2.9,3.6,2.7675,-0.15150087475292132,-0.07149471612972395,0.938900100656206,-0.050566718519821655,-0.435982,-21.152903
11.185,2.0,1.0,1.0,33.8,34.1,34.1,2.9,3.6,2.77,-0.16784007584496166,-0.07315214136224764,0.9341134752935792,-0.05393995475726276,-0.454014,-20.829803
11.185,2.0,1.0,1.0,33.8,34.1,34.1,2.9,3.6,2.7725,-0.18434681427721233,-0.07483639473898902,0.9288397469148539,-0.0575600802790331,-0.473397,-20.499445
11.185,2.0,1.0,1.0,33.8,34.1,34.1,2.9,3.6,2.775,-0.20101634702157606,-0.07654326096648104,0.9230479435879143,-0.061450335114424284,-0.494282,-20.161476
11.185,2.0,1.0,1.0,33.8,34.1,34.1,2.9,3.6,2.7775,-0.21784247982459523,-0.07826719789285985,0.9167041063420831,-0.06563666875377584,-0.51684,-19.815522
11.185,2.0,1.0,1.0,33.8,34.1,34.1,2.9,3.6,2.78,-0.23481722849249548,-0.08000100642904368,0.9097709100991108,-0.07014810415261039,-0.541267,-19.461184
11.185,2.0,1.0,1.0,33.8,34.1,34.1,2.9,3.6,2.7825,-0.2519303949282119,-0.08173541612489163,0.902207232213311,-0.07501715265973755,-0.567792,-19.098036
11.185,2.0,1.0,1.0,33.8,34.1,34.1,2.9,3.6,2.785,-0.26916903468169606,-0.08345856335504002,0.8939676627589668,-0.08028028553568371,-0.596678,-18.725629
11.185,2.0,1.0,1.0,33.8,34.1,34.1,2.9,3.6,2.7875,-0.28651678599187097,-0.0851553323428694,0.8850019511667845,-0.08597846723969196,-0.628231,-18.343484
11.185,2.0,1.0,1.0,33.8,34.1,34.1,2.9,3.6,2.79,-0.3039530214415971,-0.08680652046919901,0.8752543851387818,-0.09215775431158525,-0.662811,-17.951092
11.185,2.0,1.0,1.0,33.8,34.1,34.1,2.9,3.6,2.7925,-0.3214517717808657,-0.08838777784582483,0.8646631005349764,-0.098869960889434,-0.70084,-17.547917
11.185,2.0,1.0,1.0,33.8,34.1,34.1,2.9,3.6,2.795,-0.33898035638965707,-0.08986825618261798,0.8531593260255279,-0.10617338678991362,-0.742814,-17.133394
11.185,2.0,1.0,1.0,33.8,34.1,34.1,2.9,3.6,2.7975,-0.3564976352462273,-0.09120888254746634,0.840666575148219,-0.11413359523410392,-0.789325,-16.706929
11.185,2.0,1.0,1.0,33.8,34.1,34.1,2.9,3.6,2.8,-0.3739517719443452,-0.0923601485296204,0.8270998132005619,-0.12282421254370249,-0.841076,-16.267903
11.185,2.0,1.0,1.0,33.8,34.1,34.1,2.9,3.6,2.8025,-0.39127736494513665,-0.09325927326805247,0.8123646505401309,-0.13232769807203976,-0.898911,-15.815676
11.185,2.0,1.0,1.0,33.8,34.1,34.1,2.9,3.6,2.805,-0.40839176362375496,-0.09382655858571015,0.7963566526356453,-0.1427359940381066,-0.96385,-15.349596
11.185,2.0,1.0,1.0,33.8,34.1,34.1,2.9,3.6,2.8075,-0.4251903361295893,-0.09396070545203025,0.7789609186879833,-0.15415090377609972,-1.037125,-14.869008
11.185,2.0,1.0,1.0,33.8,34.1,34.1,2.9,3.6,2.81,-0.44154039862453015,-0.09353280420160595,0.7600521770959958,-0.16668395102125663,-1.120244,-14.373274
11.185,2.0,1.0,1.0,33.8,34.1,34.1,2.9,3.6,2.8125,-0.457273454905208,-0.0923786511769407,0.73949579580989,-0.180455324040161,-1.215052,-13.8618
11.185,2.0,1.0,1.0,33.8,34.1,34.1,2.9,3.6,2.815,-0.4721753445302288,-0.0902889944744988,0.7171503353974953,-0.19559128020663505,-1.323828,-13.334067
11.185,2.0,1.0,1.0,33.8,34.1,34.1,2.9,3.6,2.8175,-0.48597388487741794,-0.0869972996313663,0.6928726197277981,-0.21221904208249154,-1.449396,-12.789692
11.185,2.0,1.0,1.0,33.8,34.1,34.1,2.9,3.6,2.82,-0.49832367624061147,-0.08216471024235074,0.6665268118053337,-0.23045770741829016,-1.595272,-12.228503
11.185,2.0,1.0,1.0,33.8,34.1,34.1,2.9,3.6,2.8225,-0.5087880308042635,-0.07536216956500913,0.6379997137667186,-0.25040297007764983,-1.765852,-11.650639
11.185,2.0,1.0,1.0,33.8,34.1,34.1,2.9,3.6,2.825,-0.5168186888750644,-0.06605036844422904,0.6072254960301412,-0.2721024717387343,-1.966628,-11.056706
11.185,2.0,1.0,1.0,33.8,34.1,34.1,2.9,3.6,2.8275,-0.5217354446745006,-0.053559635208987134,0.574224257695604,-0.29551741907602813,-2.204458,-10.447974
