1,w,sub_t,h,l1,l2,l3,g1,g2,Freq,S11_re,S21_re,S11_img,S21_img,S11_dB,S21_dB
11.185,2.0,1.0,1.0,33.6,34.9,34.9,3.3,3.1,2.5,0.833698467583841,-0.00871326763358167,0.539331412401946,0.0064522134385255,-0.061533,-39.297696
11.185,2.0,1.0,1.0,33.6,34.9,34.9,3.3,3.1,2.5025,0.8299448391279969,-0.00890630754693768,0.5449441301672739,0.00648984342452312,-0.062233,-39.156369
11.185,2.0,1.0,1.0,33.6,34.9,34.9,3.3,3.1,2.505,0.8261348752582242,-0.009103813929641822,0.5505553261759045,0.006527000920841722,-0.062949,-39.014214
11.185,2.0,1.0,1.0,33.6,34.9,34.9,3.3,3.1,2.5075,0.8222679335376387,-0.009305924798196308,0.5561647332503488,0.006563653028029466,-0.063682,-38.87121
11.185,2.0,1.0,1.0,33.6,34.9,34.9,3.3,3.1,2.51,0.8183433576716219,-0.009512784002860502,0.5617720755096565,0.006599765007943265,-0.064431,-38.727333
11.185,2.0,1.0,1.0,33.6,34.9,34.9,3.3,3.1,2.5125,0.8143604770594957,-0.009724541540610393,0.5673770680347975,0.006635300164320908,-0.065198,-38.582558
11.185,2.0,1.0,1.0,33.6,34.9,34.9,3.3,3.1,2.515,0.8103186063234018,-0.009941353888411495,0.5729794165181857,0.006670219714254271,-0.065983,-38.436861
11.185,2.0,1.0,1.0,33.6,34.9,34.9,3.3,3.1,2.5175,0.8062170448127939,-0.010163384358351823,0.57857881689633,0.006704482649761731,-0.066787,-38.290215
11.185,2.0,1.0,1.0,33.6,34.9,34.9,3.3,3.1,2.52,0.8020550760827689,-0.010390803476315052,0.5841749549644775,0.0067380455885776335,-0.06761,-38.142594
11.185,2.0,1.0,1.0,33.6,34.9,34.9,3.3,3.1,2.5225,0.7978319673443662,-0.01062378938602186,0.5897675059720359,0.006770862613186774,-0.068454,-37.993971
11.185,2.0,1.0,1.0,33.6,34.9,34.9,3.3,3.1,2.525,0.7935469688847437,-0.010862528280431775,0.5953561341974442,0.006802885097033275,-0.069318,-37.844318
11.185,2.0,1.0,1.0,33.6,34.9,34.9,3.3,3.1,2.5275,0.7891993134549878,-0.011107214862675449,0.6009404925010492,0.006834061516721458,-0.070203,-37.693605
11.185,2.0,1.0,1.0,33.6,34.9,34.9,3.3,3.1,2.53,0.7847882156231042,-0.011358052838884945,0.6065202218543929,0.006864337248902768,-0.071111,-37.541803
11.185,2.0,1.0,1.0,33.6,34.9,34.9,3.3,3.1,2.5325,0.780312871089513,-0.011615255445508635,0.6120949508441852,0.0068936543504044745,-0.072043,-37.38888
11.185,2.0,1.0,1.0,33.6,34.9,34.9,3.3,3.1,2.535,0.7757724559621137,-0.011879046013935225,0.6176642951490615,0.0069219513200006865,-0.072998,-37.234804
11.185,2.0,1.0,1.0,33.6,34.9,34.9,3.3,3.1,2.5375,0.7711661259877398,-0.012149658575518394,0.6232278569870315,0.00694916284005289,-0.073978,-37.079543
11.185,2.0,1.0,1.0,33.6,34.9,34.9,3.3,3.1,2.54,0.7664930157364893,-0.012427338510386897,0.6287852245313336,0.006975219496053389,-0.074984,-36.923063
11.185,2.0,1.0,1.0,33.6,34.9,34.9,3.3,3.1,2.5425,0.7617522377351085,-0.012712343243748866,0.6343359712921631,0.007000047471884258,-0.076018,-36.765327
11.185,2.0,1.0,1.0,33.6,34.9,34.9,3.3,3.1,2.545,0.7569428815452243,-0.013004942993760623,0.6398796554614947,0.007023568218361589,-0.077079,-36.6063
11.185,2.0,1.0,1.0,33.6,34.9,34.9,3.3,3.1,2.5475,0.7520640127818199,-0.013305421575427889,0.6454158192179074,0.007045698092355371,-0.078169,-36.445943
11.185,2.0,1.0,1.0,33.6,34.9,34.9,3.3,3.1,2.55,0.7471146720668751,-0.01361407726545368,0.6509439879880186,0.007066347963464821,-0.07929,-36.284217
11.185,2.0,1.0,1.0,33.6,34.9,34.9,3.3,3.1,2.5525,0.742093873912616,-0.01393122373343735,0.6564636696607403,0.007085422784874959,-0.080443,-36.121082
11.185,2.0,1.0,1.0,33.6,34.9,34.9,3.3,3.1,2.555,0.7370006055282229,-0.014257191045381907,0.6619743537501626,0.007102821124623153,-0.081628,-35.956495
11.185,2.0,1.0,1.0,33.6,34.9,34.9,3.3,3.1,2.5575,0.7318338255432358,-0.014592326746076906,0.6674755105024093,0.007118434653051061,-0.082848,-35.790412
11.185,2.0,1.0,1.0,33.6,34.9,34.9,3.3,3.1,2.56,0.7265924626401995,-0.014936997027608109,0.6729665899412505,0.007132147581705602,-0.084104,-35.622789
11.185,2.0,1.0,1.0,33.6,34.9,34.9,3.3,3.1,2.5625,0.7212754140882914,-0.015291587992008759,0.6784470208466821,0.007143836048370405,-0.085397,-35.453578
11.185,2.0,1.0,1.0,33.6,34.9,34.9,3.3,3.1,2.565,0.7158815441688087,-0.015656507016921627,0.683916209659976,0.007153367442246444,-0.08673,-35.282729
11.185,2.0,1.0,1.0,33.6,34.9,34.9,3.3,3.1,2.5675,0.7104096824824184,-0.016032184234096657,0.6893735393079269,0.007160599662544493,-0.088104,-35.110193
11.185,2.0,1.0,1.0,33.6,34.9,34.9,3.3,3.1,2.57,0.704858622126956,-0.016419074131623336,0.6948183679381408,0.00716538030289116,-0.08952,-34.935915
11.185,2.0,1.0,1.0,33.6,34.9,34.9,3.3,3.1,2.5725,0.6992271177333362,-0.01681765729200148,0.7002500275561897,0.007167545752961289,-0.090981,-34.759841
11.185,2.0,1.0,1.0,33.6,34.9,34.9,3.3,3.1,2.575,0.6935138833457463,-0.01722844227950834,0.7056678225542851,0.007166920207620676,-0.09249,-34.581912
11.185,2.0,1.0,1.0,33.6,34.9,34.9,3.3,3.1,2.5775,0.6877175901307312,-0.017651967691848007,0.7110710281198088,0.007163314572564684,-0.094048,-34.40207
11.185,2.0,1.0,1.0,33.6,34.9,34.9,3.3,3.1,2.58,0.6818368638980162,-0.018088804392787015,0.7164588885104906,0.007156525253945141,-0.095657,-34.220251
11.185,2.0,1.0,1.0,33.6,34.9,34.9,3.3,3.1,2.5825,0.6758702824139123,-0.01853955794442666,0.7218306151812808,0.007146332817757119,-0.097322,-34.03639
11.185,2.0,1.0,1.0,33.6,34.9,34.9,3.3,3.1,2.585,0.6698163724859196,-0.01900487125995708,0.7271853847459164,0.007132500502772569,-0.099043,-33.85042
11.185,2.0,1.0,1.0,33.6,34.9,34.9,3.3,3.1,2.5875,0.663673606794569,-0.019485427500229704,0.7325223367538566,0.007114772568507928,-0.100825,-33.662268
11.185,2.0,1.0,1.0,33.6,34.9,34.9,3.3,3.1,2.59,0.6574404004456795,-0.01998195324030493,0.7378405712605108,0.00709287245704757,-0.10267,-33.47186
11.185,2.0,1.0,1.0,33.6,34.9,34.9,3.3,3.1,2.5925,0.6511151072128945,-0.020495221935341743,0.7431391461655781,0.007066500744451287,-0.104582,-33.279118
11.185,2.0,1.0,1.0,33.6,34.9,34.9,3.3,3.1,2.595,0.644696015436663,-0.021026057718840824,0.7484170742905881,0.007035332853864917,-0.106565,-33.083961
11.185,2.0,1.0,1.0,33.6,34.9,34.9,3.3,3.1,2.5975,0.6381813435415361,-0.02157533957041288,0.7536733201625111,0.006999016498246706,-0.108623,-32.886302
11.185,2.0,1.0,1.0,33.6,34.9,34.9,3.3,3.1,2.6,0.6315692351288225,-0.022144005894985944,0.7589067964652602,0.0069571688156979655,-0.110759,-32.686053
11.185,2.0,1.0,1.0,33.6,34.9,34.9,3.3,3.1,2.6025,0.6248577535960961,-0.02273305956078814,0.76411636011507,0.00690937315461136,-0.112979,-32.483119
11.185,2.0,1.0,1.0,33.6,34.9,34.9,3.3,3.1,2.605,0.6180448762286755,-0.02334357344965113,0.7693008079088289,0.0068551754590606305,-0.115288,-32.2774
11.185,2.0,1.0,1.0,33.6,34.9,34.9,3.3,3.1,2.6075,0.6111284877009359,-0.023976696580298298,0.7744588716863566,0.006794080196854496,-0.117691,-32.068794
11.185,2.0,1.0,1.0,33.6,34.9,34.9,3.3,3.1,2.61,0.6041063729169404,-0.02463366087345584,0.7795892129379917,0.006725545763217875,-0.120194,-31.85719
11.185,2.0,1.0,1.0,33.6,34.9,34.9,3.3,3.1,2.6125,0.5969762091102514,-0.025315788637032953,0.7846904167775389,0.006648979281854912,-0.122803,-31.642472
11.185,2.0,1.0,1.0,33.6,34.9,34.9,3.3,3.1,2.615,0.5897355571116998,-0.02602450086045234,0.7897609851871275,0.006563730711828252,-0.125525,-31.424521
11.185,2.0,1.0,1.0,33.6,34.9,34.9,3.3,3.1,2.6175,0.5823818516811099,-0.026761326419718796,0.7947993294244436,0.006469086152810329,-0.128369,-31.203207
11.185,2.0,1.0,1.0,33.6,34.9,34.9,3.3,3.1,2.62,0.5749123907841751,-0.027527912309267592,0.7998037614636314,0.006364260222280591,-0.131341,-30.978394
11.185,2.0,1.0,1.0,33.6,34.9,34.9,3.3,3.1,2.6225,0.567324323678569,-0.02832603503336635,0.8047724843181048,0.006248387355478962,-0.134452,-30.749941
11.185,2.0,1.0,1.0,33.6,34.9,34.9,3.3,3.1,2.625,0.559614637653559,-0.0291576133092377,0.809703581065839,0.00612051185153926,-0.137711,-30.517695
11.185,2.0,1.0,1.0,33.6,34.9,34.9,3.3,3.1,2.6275,0.5517801432443151,-0.030024722256585767,0.8145950023642983,0.005979576456166581,-0.141128,-30.281495
11.185,2.0,1.0,1.0,33.6,34.9,34.9,3.3,3.1,2.63,0.5438174577153773,-0.030929609274372653,0.8194445522016779,0.005824409231181644,-0.144717,-30.041173
11.185,2.0,1.0,1.0,33.6,34.9,34.9,3.3,3.1,2.6325,0.5357229865765674,-0.03187471183613717,0.8242498715819764,0.00565370841257952,-0.148489,-29.796546
11.185,2.0,1.0,1.0,33.6,34.9,34.9,3.3,3.1,2.635,0.5274929028583478,-0.03286267747060496,0.829008419781407,0.00546602489936979,-0.15246,-29.547424
11.185,2.0,1.0,1.0,33.6,34.9,34.9,3.3,3.1,2.6375,0.5191231238313343,-0.033896386235657175,0.8337174527402138,0.005259741942735148,-0.156646,-29.293601
11.185,2.0,1.0,1.0,33.6,34.9,34.9,3.3,3.1,2.64,0.5106092848053092,-0.03497897604190515,0.8383739980636377,0.005033051515629021,-0.161065,-29.034861
11.185,2.0,1.0,1.0,33.6,34.9,34.9,3.3,3.1,2.6425,0.5019467095855779,-0.036113871238276404,0.8429748259942895,0.004783926732541596,-0.165735,-28.770971
11.185,2.0,1.0,1.0,33.6,34.9,34.9,3.3,3.1,2.645,0.49313037709739016,-0.03730481493746399,0.84751641557999,0.004510089552300141,-0.17068,-28.501683
11.185,2.0,1.0,1.0,33.6,34.9,34.9,3.3,3.1,2.6475,0.4841548836110705,-0.038555905635250874,0.851994915089016,0.0042089728263513095,-0.175925,-28.226732
11.185,2.0,1.0,1.0,33.6,34.9,34.9,3.3,3.1,2.65,0.47501439990966693,-0.03987163876616254,0.8564060955094505,0.0038776755417910423,-0.181497,-27.945834
11.185,2.0,1.0,1.0,33.6,34.9,34.9,3.3,3.1,2.6525,0.46570262263583245,-0.04125695394025361,0.8607452956987368,0.0035129098405001107,-0.187427,-27.658684
11.185,2.0,1.0,1.0,33.6,34.9,34.9,3.3,3.1,2.655,0.45621271893333476,-0.042717288723689135,0.8650073574078976,0.0031109380573865293,-0.193751,-27.364954
11.185,2.0,1.0,1.0,33.6,34.9,34.9,3.3,3.1,2.6575,0.44653726335988797,-0.044258639960443685,0.869186547971083,0.002667497591281228,-0.200508,-27.064291
11.185,2.0,1.0,1.0,33.6,34.9,34.9,3.3,3.1,2.66,0.4366681658908425,-0.04588763378462272,0.8732764678977204,0.002177710874076681,-0.207746,-26.756316
11.185,2.0,1.0,1.0,33.6,34.9,34.9,3.3,3.1,2.6625,0.42659658965813546,-0.04761160564203662,0.8772699398944408,0.0016359770007711265,-0.215514,-26.440619
11.185,2.0,1.0,1.0,33.6,34.9,34.9,3.3,3.1,2.665,0.41631285687832453,-0.049438691822913605,0.881158874927958,0.001035840676323201,-0.223873,-26.116755
11.185,2.0,1.0,1.0,33.6,34.9,34.9,3.3,3.1,2.6675,0.40580634122416254,-0.05137793419815342,0.8849341097513704,0.00036983295878350436,-0.232892,-25.784242
11.185,2.0,1.0,1.0,33.6,34.9,34.9,3.3,3.1,2.67,0.39506534469907434,-0.053439400035756875,0.888585208764853,-0.00037072325720987915,-0.242648,-25.44256
11.185,2.0,1.0,1.0,33.6,34.9,34.9,3.3,3.1,2.6725,0.38407695690782445,-0.05563431892705344,0.8921002210440478,-0.0011959520885002017,-0.253235,-25.091138
11.185,2.0,1.0,1.0,33.6,34.9,34.9,3.3,3.1,2.675,0.37282689452265994,-0.05797523893047239,0.8954653806768363,-0.0021177195785657445,-0.264759,-24.729358
11.185,2.0,1.0,1.0,33.6,34.9,34.9,3.3,3.1,2.6775,0.3612993187964226,-0.06047620396930951,0.8986647349683163,-0.003149999956706563,-0.277344,-24.356543
11.185,2.0,1.0,1.0,33.6,34.9,34.9,3.3,3.1,2.68,0.3494766292975811,-0.06315295417385186,0.9016796802813036,-0.0043093332568326275,-0.29114,-23.971952
11.185,2.0,1.0,1.0,33.6,34.9,34.9,3.3,3.1,2.6825,0.3373392328458322,-0.06602315002817209,0.904488378824458,-0.005615400692306122,-0.306321,-23.574772
11.185,2.0,1.0,1.0,33.6,34.9,34.9,3.3,3.1,2.685,0.32486528825890426,-0.06910661952018457,0.9070650209507716,-0.007091752829336694,-0.323096,-23.164111
11.185,2.0,1.0,1.0,33.6,34.9,34.9,3.3,3.1,2.6875,0.312030430560872,-0.0724256244223708,0.909378885598827,-0.00876673738685898,-0.341716,-22.738985
11.185,2.0,1.0,1.0,33.6,34.9,34.9,3.3,3.1,2.69,0.2988074837155859,-0.07600513638764855,0.9113931351512363,-0.010674689643925506,-0.362484,-22.298309
11.185,2.0,1.0,1.0,33.6,34.9,34.9,3.3,3.1,2.6925,0.285166180353012,-0.07987310412100532,0.9130632584494249,-0.012857470678813387,-0.385769,-21.840885
11.185,2.0,1.0,1.0,33.6,34.9,34.9,3.3,3.1,2.695,0.2710729230736008,-0.08406067677677904,0.9143350445517703,-0.015366469396409205,-0.412025,-21.365388
11.185,2.0,1.0,1.0,33.6,34.9,34.9,3.3,3.1,2.6975,0.2564906493577979,-0.08860232135379345,0.9151419266996061,-0.018265226815441713,-0.441814,-20.870349
11.185,2.0,1.0,1.0,33.6,34.9,34.9,3.3,3.1,2.7,0.24137890874366866,-0.09353572540743531,0.9154014763814678,-0.021632899776627988,-0.475836,-20.354145
11.185,2.0,1.0,1.0,33.6,34.9,34.9,3.3,3.1,2.7025,0.22569434028929689,-0.09890129745973607,0.9150107457008675,-0.025568861624563156,-0.514977,-19.814978
11.185,2.0,1.0,1.0,33.6,34.9,34.9,3.3,3.1,2.705,0.20939187380880764,-0.10474094288197143,0.9138400461530748,-0.03019884562347995,-0.560365,-19.250872
11.185,2.0,1.0,1.0,33.6,34.9,34.9,3.3,3.1,2.7075,0.19242721065705012,-0.11109556246332987,0.9117246086449244,-0.03568317738203952,-0.613452,-18.65966
11.185,2.0,1.0,1.0,33.6,34.9,34.9,3.3,3.1,2.71,0.17476153984441015,-0.11800032423244503,0.9084533964253412,-0.04222781177056457,-0.676129,-18.038994
11.185,2.0,1.0,1.0,33.6,34.9,34.9,3.3,3.1,2.7125,0.15637013601085356,-0.1254760748085126,0.9037541679646703,-0.050099058941457685,-0.750888,-17.386381
11.185,2.0,1.0,1.0,33.6,34.9,34.9,3.3,3.1,2.715,0.13725767739847738,-0.13351407725431477,0.8972738070176167,-0.05964295674530516,-0.841044,-16.699255
11.185,2.0,1.0,1.0,33.6,34.9,34.9,3.3,3.1,2.7175,0.11748515978381885,-0.14204924782516942,0.8885532190007152,-0.0713099572355612,-0.951062,-15.975134
11.185,2.0,1.0,1.0,33.6,34.9,34.9,3.3,3.1,2.72,0.09721668488164503,-0.1509137047263413,0.8769974127866901,-0.0856842712001465,-1.086992,-15.21192
11.185,2.0,1.0,1.0,33.6,34.9,34.9,3.3,3.1,2.7225,0.07679977403690627,-0.159757147917125,0.8618453607209975,-0.10351325517070015,-1.257063,-14.408437
11.185,2.0,1.0,1.0,33.6,34.9,34.9,3.3,3.1,2.725,0.056900264542608055,-0.1679133153832882,0.8421544849403373,-0.1257220406929418,-1.472384,-13.565383
11.185,2.0,1.0,1.0,33.6,34.9,34.9,3.3,3.1,2.7275,0.03871935916104316,-0.1741854430795242,0.8168385360671103,-0.15337490877461152,-1.747528,-12.686979
11.185,2.0,1.0,1.0,33.6,34.9,34.9,3.3,3.1,2.73,0.024312549726309376,-0.1765316820678711,0.7848472771940483,-0.1874958365539191,-2.100131,-11.783678
11.185,2.0,1.0,1.0,33.6,34.9,34.9,3.3,3.1,2.7325,0.0169659010900086,-0.1716954121713099,0.7456596228727894,-0.22857863114955765,-2.54694,-10.876318
11.185,2.0,1.0,1.0,33.6,34.9,34.9,3.3,3.1,2.735,0.021371294104098555,-0.15503736743837068,0.7003322961165518,-0.27554852424546955,-3.089875,-10.001582
11.185,2.0,1.0,1.0,33.6,34.9,34.9,3.3,3.1,2.7375,0.042892304985478594,-0.12127064251320854,0.6531604593292478,-0.32412308791719024,-3.680914,-9.216797
11.185,2.0,1.0,1.0,33.6,34.9,34.9,3.3,3.1,2.74,0.08486710216215072,-0.06713614323770153,0.6130290221519569,-0.3654894814516008,-4.167933,-8.598383
11.185,2.0,1.0,1.0,33.6,34.9,34.9,3.3,3.1,2.7425,0.14415557296138803,0.00420021959807099,0.5918449848898071,-0.38787880322346235,-4.305543,-8.22557
11.185,2.0,1.0,1.0,33.6,34.9,34.9,3.3,3.1,2.745,0.20899562990256168,0.08106010100478224,0.5981843840645057,-0.3828627761675139,-3.963104,-8.148698
11.185,2.0,1.0,1.0,33.6,34.9,34.9,3.3,3.1,2.7475,0.26412806662417215,0.1483578218376275,0.630694199063209,-0.3518546076653895,-3.301823,-8.362076
11.185,2.0,1.0,1.0,33.6,34.9,34.9,3.3,3.1,2.75,0.299661007504486,0.196365068716411,0.679127142858954,-0.305038414983522,-2.588402,-8.807188
11.185,2.0,1.0,1.0,33.6,34.9,34.9,3.3,3.1,2.7525,0.31446878008791906,0.2240346898421169,0.7317110533889174,-0.2540602512009369,-1.97711,-9.402921
11.185,2.0,1.0,1.0,33.6,34.9,34.9,3.3,3.1,2.755,0.3129190686228756,0.23573393297094067,0.780586151923577,-0.20666599016102363,-1.504374,-10.07529
11.185,2.0,1.0,1.0,33.6,34.9,34.9,3.3,3.1,2.7575,0.3005373462116504,0.23695183081070945,0.8224142361643892,-0.1661215456407362,-1.153814,-10.770539
11.185,2.0,1.0,1.0,33.6,34.9,34.9,3.3,3.1,2.76,0.28179814709434575,0.2321227991843846,0.856723692065081,-0.1328619006815209,-0.897035,-11.454919
11.185,2.0,1.0,1.0,33.6,34.9,34.9,3.3,3.1,2.7625,0.25970422019747746,0.22421876594205464,0.8843148039167102,-0.10607099125356001,-0.708576,-12.109476
11.185,2.0,1.0,1.0,33.6,34.9,34.9,3.3,3.1,2.765,0.23607619838606686,0.21504066659195933,0.9063406220794504,-0.0845894511545029,-0.569087,-12.724761
11.185,2.0,1.0,1.0,33.6,34.9,34.9,3.3,3.1,2.7675,0.21194676302821788,0.2056105812777383,0.9239050831514236,-0.06731005459991131,-0.464713,-13.296952
11.185,2.0,1.0,1.0,33.6,34.9,34.9,3.3,3.1,2.77,0.1878672716843124,0.19647583334649515,0.9379325654105859,-0.053305073169373454,-0.385734,-13.825364
11.185,2.0,1.0,1.0,33.6,34.9,34.9,3.3,3.1,2.7725,0.16410859754885646,0.18790781996294734,0.9491532926548744,-0.041839570865790744,-0.325346,-14.310958
11.185,2.0,1.0,1.0,33.6,34.9,34.9,3.3,3.1,2.775,0.14078312001517104,0.18002263022073292,0.9581288401464215,-0.03234543088771904,-0.278755,-14.755471
11.185,2.0,1.0,1.0,33.6,34.9,34.9,3.3,3.1,2.7775,0.11791612721704517,0.1728515796288605,0.9652860666612466,-0.02438729985122408,-0.242552,-15.160932
11.185,2.0,1.0,1.0,33.6,34.9,34.9,3.3,3.1,2.78,0.09548677209969483,0.16638164945909054,0.9709481111867905,-0.017631579935397625,-0.214279,-15.529393
11.185,2.0,1.0,1.0,33.6,34.9,34.9,3.3,3.1,2.7825,0.07345123356644918,0.16057836514291327,0.9753594665514848,-0.011821354155924361,-0.192146,-15.862786
11.185,2.0,1.0,1.0,33.6,34.9,34.9,3.3,3.1,2.785,0.051755614878162985,0.15539856717601516,0.9787052162729557,-0.006757115149320865,-0.174834,-16.162856
11.185,2.0,1.0,1.0,33.6,34.9,34.9,3.3,3.1,2.7875,0.030342959044071614,0.15079740477455056,0.9811254294473666,-0.0022822847307774575,-0.161357,-16.431128
11.185,2.0,1.0,1.0,33.6,34.9,34.9,3.3,3.1,2.79,0.009156903857896926,0.14673204522643404,0.9827258076533182,0.0017275780383931053,-0.150976,-16.668899
11.185,2.0,1.0,1.0,33.6,34.9,34.9,3.3,3.1,2.7925,-0.011856574577981432,0.14316353096409815,0.9835855191111186,0.0053728214531101656,-0.143126,-16.877239
11.185,2.0,1.0,1.0,33.6,34.9,34.9,3.3,3.1,2.795,-0.032748498148975874,0.14005760763482325,0.9837629478447286,0.008735733190861196,-0.137381,-17.057003
11.185,2.0,1.0,1.0,33.6,34.9,34.9,3.3,3.1,2.7975,-0.053566825981329676,0.13738499725223882,0.9832998994098008,0.011885111196608053,-0.133411,-17.208833
11.185,2.0,1.0,1.0,33.6,34.9,34.9,3.3,3.1,2.8,-0.07435672453525717,0.13512138977234198,0.9822246565076439,0.014879780717495045,-0.130966,-17.333169
11.185,2.0,1.0,1.0,33.6,34.9,34.9,3.3,3.1,2.8025,-0.09516101518591163,0.13324731077878565,0.980554165471767,0.017771357757281274,-0.129856,-17.430258
11.185,2.0,1.0,1.0,33.6,34.9,34.9,3.3,3.1,2.805,-0.11602071525319442,0.13174795631289282,0.9782955510029078,0.020606482426101375,-0.129942,-17.500157
11.185,2.0,1.0,1.0,33.6,34.9,34.9,3.3,3.1,2.8075,-0.13697562918817074,0.13061304764872073,0.975447094126561,0.02342869212612283,-0.131122,-17.542734
11.185,2.0,1.0,1.0,33.6,34.9,34.9,3.3,3.1,2.81,-0.15806497080598927,0.12983673716349822,0.9719987607333861,0.02628006864076045,-0.13333,-17.557669
11.185,2.0,1.0,1.0,33.6,34.9,34.9,3.3,3.1,2.8125,-0.179328012002779,0.129417584534463,0.967932330056057,0.0292027709957919,-0.136531,-17.544451
11.185,2.0,1.0,1.0,33.6,34.9,34.9,3.3,3.1,2.815,-0.20080476230366123,0.12935861627154008,0.9632211398083518,0.032240554934684154,-0.140719,-17.502367
11.185,2.0,1.0,1.0,33.6,34.9,34.9,3.3,3.1,2.8175,-0.22253668911139415,0.1296674786137504,0.9578294337761707,0.03544037883661684,-0.145916,-17.430496
11.185,2.0,1.0,1.0,33.6,34.9,34.9,3.3,3.1,2.82,-0.24456749179681556,0.13035669243533332,0.9517112647951145,0.03885420503696466,-0.152173,-17.327692
11.185,2.0,1.0,1.0,33.6,34.9,34.9,3.3,3.1,2.8225,-0.26694394409043265,0.13144401767916417,0.9448088672093835,0.04254112634178726,-0.159577,-17.19256
11.185,2.0,1.0,1.0,33.6,34.9,34.9,3.3,3.1,2.825,-0.2897168180520705,0.13295293244193163,0.9370503628772413,0.04656998341449775,-0.168253,-17.023435
11.185,2.0,1.0,1.0,33.6,34.9,34.9,3.3,3.1,2.8275,-0.3129418975038695,0.1349132259057582,0.9283465962496996,0.051022695550393585,-0.178373,-16.818345
11.185,2.0,1.0,1.0,33.6,34.9,34.9,3.3,3.1,2.83,-0.3366810755500751,0.13736169088192837,0.9185867960611035,0.05599861490086976,-0.190173,-16.574968
