1,w,sub_t,h,l1,l2,l3,g1,g2,Freq,S11_re,S21_re,S11_img,S21_img,S11_dB,S21_dB
11.185,2.0,1.0,1.0,34.7,34.2,34.2,1.6,3.5,2.5,0.648880876065553,-0.0208386755315588,0.747419315501902,0.00886386065519135,-0.089149,-32.900364
11.185,2.0,1.0,1.0,34.7,34.2,34.2,1.6,3.5,2.5025,0.6420758911860618,-0.02123053941353156,0.7531027482302918,0.008792064562965654,-0.090287,-32.773363
11.185,2.0,1.0,1.0,34.7,34.2,34.2,1.6,3.5,2.505,0.6351768644785932,-0.02162919624349969,0.7587578866385079,0.008714804620552895,-0.091449,-32.645848
11.185,2.0,1.0,1.0,34.7,34.2,34.2,1.6,3.5,2.5075,0.6281827861087813,-0.022034759830826558,0.764383554302012,0.008631872077782194,-0.092635,-32.517811
11.185,2.0,1.0,1.0,34.7,34.2,34.2,1.6,3.5,2.51,0.6210926369677335,-0.022447345293603805,0.769978538940133,0.008543050336602766,-0.093846,-32.389243
11.185,2.0,1.0,1.0,34.7,34.2,34.2,1.6,3.5,2.5125,0.6139053888743989,-0.022867069017154056,0.775541591306245,0.008448114638647072,-0.095082,-32.260136
11.185,2.0,1.0,1.0,34.7,34.2,34.2,1.6,3.5,2.515,0.6066200047999528,-0.0232940486069497,0.7810714240435088,0.008346831739529579,-0.096343,-32.130483
11.185,2.0,1.0,1.0,34.7,34.2,34.2,1.6,3.5,2.5175,0.5992354391155492,-0.023728402835504165,0.7865667105051126,0.008238959569281293,-0.097632,-32.000274
11.185,2.0,1.0,1.0,34.7,34.2,34.2,1.6,3.5,2.52,0.591750637864846,-0.024170251582761017,0.7920260835379291,0.008124246878291795,-0.098947,-31.869501
11.185,2.0,1.0,1.0,34.7,34.2,34.2,1.6,3.5,2.5225,0.5841645390628438,-0.02461971576947085,0.7974481342284838,0.008002432868099998,-0.100291,-31.738154
11.185,2.0,1.0,1.0,34.7,34.2,34.2,1.6,3.5,2.525,0.5764760730225853,-0.025076917283009693,0.8028314106100835,0.007873246806343227,-0.101664,-31.606227
11.185,2.0,1.0,1.0,34.7,34.2,34.2,1.6,3.5,2.5275,0.5686841627114216,-0.02554197889505102,0.8081744163299416,0.007736407625140641,-0.103066,-31.473708
11.185,2.0,1.0,1.0,34.7,34.2,34.2,1.6,3.5,2.53,0.560787724138598,-0.026015024170461382,0.8134756092750831,0.0075916235021524685,-0.104499,-31.340589
11.185,2.0,1.0,1.0,34.7,34.2,34.2,1.6,3.5,2.5325,0.5527856667760421,-0.026496177366742753,0.8187334001557971,0.007438591423518893,-0.105963,-31.206861
11.185,2.0,1.0,1.0,34.7,34.2,34.2,1.6,3.5,2.535,0.5446768940143094,-0.026985563323295454,0.8239461510453691,0.007276996727844243,-0.107459,-31.072515
11.185,2.0,1.0,1.0,34.7,34.2,34.2,1.6,3.5,2.5375,0.5364603036557944,-0.027483307339720032,0.8291121738747714,0.007106512630351635,-0.108989,-30.93754
11.185,2.0,1.0,1.0,34.7,34.2,34.2,1.6,3.5,2.54,0.5281347884473871,-0.02798953504232147,0.8342297288809912,0.006926799726289414,-0.110553,-30.801928
11.185,2.0,1.0,1.0,34.7,34.2,34.2,1.6,3.5,2.5425,0.5196992366549058,-0.028504372237914376,0.8392970230076069,0.0067375054726266,-0.112151,-30.665668
11.185,2.0,1.0,1.0,34.7,34.2,34.2,1.6,3.5,2.545,0.5111525326817691,-0.02902794475396257,0.844312208256208,0.006538263647027014,-0.113786,-30.52875
11.185,2.0,1.0,1.0,34.7,34.2,34.2,1.6,3.5,2.5475,0.5024935577344888,-0.029560378264012466,0.8492733799872039,0.0063286937830418916,-0.115458,-30.391164
11.185,2.0,1.0,1.0,34.7,34.2,34.2,1.6,3.5,2.55,0.49372119053772756,-0.030101798097304833,0.854178575168559,0.0061084005804078224,-0.117168,-30.252899
11.185,2.0,1.0,1.0,34.7,34.2,34.2,1.6,3.5,2.5525,0.4848343081018225,-0.030652329031361506,0.8590257705708919,0.0058769732892837755,-0.118918,-30.113946
11.185,2.0,1.0,1.0,34.7,34.2,34.2,1.6,3.5,2.555,0.4758317865458291,-0.031212095066257467,0.8638128809074271,0.005633985067200267,-0.120708,-29.974294
11.185,2.0,1.0,1.0,34.7,34.2,34.2,1.6,3.5,2.5575,0.4667125019793114,-0.03178121917918897,0.8685377569171667,0.005378992307434937,-0.12254,-29.83393
11.185,2.0,1.0,1.0,34.7,34.2,34.2,1.6,3.5,2.56,0.45747533144631086,-0.03235982305784245,0.8731981833896638,0.005111533937464461,-0.124415,-29.692846
11.185,2.0,1.0,1.0,34.7,34.2,34.2,1.6,3.5,2.5625,0.44811915393510016,-0.03294802681095709,0.8777918771297114,0.004831130686074609,-0.126335,-29.551028
11.185,2.0,1.0,1.0,34.7,34.2,34.2,1.6,3.5,2.565,0.4386428514575375,-0.03354594865435057,0.8823164848602387,0.004537284317639683,-0.1283,-29.408466
11.185,2.0,1.0,1.0,34.7,34.2,34.2,1.6,3.5,2.5675,0.4290453102020812,-0.03415370457054356,0.88676958106166,0.004229476832009487,-0.130312,-29.265148
11.185,2.0,1.0,1.0,34.7,34.2,34.2,1.6,3.5,2.57,0.4193254217647226,-0.03477140793997704,0.8911486657458678,0.0039071696283614,-0.132373,-29.121062
11.185,2.0,1.0,1.0,34.7,34.2,34.2,1.6,3.5,2.5725,0.4094820844623732,-0.03539916914165996,0.8954511621630594,0.0035698026312946133,-0.134484,-28.976196
11.185,2.0,1.0,1.0,34.7,34.2,34.2,1.6,3.5,2.575,0.3995142047334923,-0.036037095120917316,0.8996744144394859,0.0032167933773564294,-0.136647,-28.830537
11.185,2.0,1.0,1.0,34.7,34.2,34.2,1.6,3.5,2.5775,0.38942069863102924,-0.036685288921726705,0.9038156851442397,0.0028475360601001114,-0.138864,-28.684074
11.185,2.0,1.0,1.0,34.7,34.2,34.2,1.6,3.5,2.58,0.3792004934130551,-0.037343849180934675,0.9078721527830881,0.00246140053167774,-0.141135,-28.536792
11.185,2.0,1.0,1.0,34.7,34.2,34.2,1.6,3.5,2.5825,0.36885252923676976,-0.03801286958142991,0.911840909217382,0.0020577312588709947,-0.143463,-28.388679
11.185,2.0,1.0,1.0,34.7,34.2,34.2,1.6,3.5,2.585,0.358375760961918,-0.03869243826112033,0.9157189570059684,0.0016358462313595828,-0.14585,-28.239722
11.185,2.0,1.0,1.0,34.7,34.2,34.2,1.6,3.5,2.5875,0.347769160070018,-0.03938263717430784,0.9195032066680563,0.0011950358199129566,-0.148298,-28.089907
11.185,2.0,1.0,1.0,34.7,34.2,34.2,1.6,3.5,2.59,0.3370317167061721,-0.040083541401783364,0.9231904738648736,0.0007345615820793393,-0.150809,-27.93922
11.185,2.0,1.0,1.0,34.7,34.2,34.2,1.6,3.5,2.5925,0.32616244185066984,-0.04079521840566737,0.9267774764979795,0.0002536550128205172,-0.153384,-27.787647
11.185,2.0,1.0,1.0,34.7,34.2,34.2,1.6,3.5,2.595,0.31516036962802707,-0.04151772722469873,0.9302608317220156,-0.00024848376258256906,-0.156026,-27.635173
11.185,2.0,1.0,1.0,34.7,34.2,34.2,1.6,3.5,2.5975,0.30402455976156745,-0.04225111760532636,0.9336370528696452,-0.0007726873561646597,-0.158738,-27.481784
11.185,2.0,1.0,1.0,34.7,34.2,34.2,1.6,3.5,2.6,0.2927541001821759,-0.04299542906357439,0.9369025462864173,-0.001319822548400918,-0.161522,-27.327464
11.185,2.0,1.0,1.0,34.7,34.2,34.2,1.6,3.5,2.6025,0.2813481098003969,-0.04375068987223616,0.9400536080731954,-0.0018907917859146757,-0.16438,-27.172198
11.185,2.0,1.0,1.0,34.7,34.2,34.2,1.6,3.5,2.605,0.26980574145163205,-0.04451691596750297,0.9430864207338476,-0.0024865347490169633,-0.167314,-27.01597
11.185,2.0,1.0,1.0,34.7,34.2,34.2,1.6,3.5,2.6075,0.2581261850248158,-0.04529410976863573,0.945997049725754,-0.0031080299924808787,-0.170328,-26.858764
11.185,2.0,1.0,1.0,34.7,34.2,34.2,1.6,3.5,2.61,0.24630867078564214,-0.04608225890375104,0.9487814399107386,-0.0037562966631210504,-0.173425,-26.700564
11.185,2.0,1.0,1.0,34.7,34.2,34.2,1.6,3.5,2.6125,0.23435247290611766,-0.04688133483420652,0.9514354119039669,-0.004432396297917645,-0.176607,-26.541353
11.185,2.0,1.0,1.0,34.7,34.2,34.2,1.6,3.5,2.615,0.22225691321301044,-0.04769129136942398,0.9539546583183126,-0.005137434706603065,-0.179878,-26.381112
11.185,2.0,1.0,1.0,34.7,34.2,34.2,1.6,3.5,2.6175,0.21002136516863995,-0.04851206306328845,0.9563347399017099,-0.005872563942809596,-0.18324,-26.219825
11.185,2.0,1.0,1.0,34.7,34.2,34.2,1.6,3.5,2.62,0.19764525809831013,-0.04934356348249194,0.9585710815649534,-0.006638984368067345,-0.186698,-26.057474
11.185,2.0,1.0,1.0,34.7,34.2,34.2,1.6,3.5,2.6225,0.18512808167972708,-0.05018568333634657,0.9606589682974214,-0.007437946813133314,-0.190254,-25.89404
11.185,2.0,1.0,1.0,34.7,34.2,34.2,1.6,3.5,2.625,0.172469390710808,-0.0510382884566681,0.962593540968167,-0.00827075484132854,-0.193913,-25.729503
11.185,2.0,1.0,1.0,34.7,34.2,34.2,1.6,3.5,2.6275,0.15966881017340678,-0.05190121761532151,0.9643697920098487,-0.009138767118764435,-0.197678,-25.563845
11.185,2.0,1.0,1.0,34.7,34.2,34.2,1.6,3.5,2.63,0.1467260406118077,-0.05277428016590315,0.9659825609829704,-0.010043399896537384,-0.201554,-25.397045
11.185,2.0,1.0,1.0,34.7,34.2,34.2,1.6,3.5,2.6325,0.13364086384615764,-0.05365725349481372,0.967426530017907,-0.010986129610175614,-0.205545,-25.229083
11.185,2.0,1.0,1.0,34.7,34.2,34.2,1.6,3.5,2.635,0.12041314904253195,-0.05454988026563652,0.9686962191322764,-0.011968495601822829,-0.209656,-25.059938
11.185,2.0,1.0,1.0,34.7,34.2,34.2,1.6,3.5,2.6375,0.10704285916294679,-0.055451865439249945,0.969785981421207,-0.012992102970837686,-0.21389,-24.889588
11.185,2.0,1.0,1.0,34.7,34.2,34.2,1.6,3.5,2.64,0.09353005782039081,-0.05636287305048201,0.9706899981181846,-0.014058625558681316,-0.218254,-24.718011
11.185,2.0,1.0,1.0,34.7,34.2,34.2,1.6,3.5,2.6425,0.07987491656592505,-0.057282522720314664,0.9714022735242135,-0.015169809074136892,-0.222753,-24.545184
11.185,2.0,1.0,1.0,34.7,34.2,34.2,1.6,3.5,2.645,0.0660777226369977,-0.05821038588066833,0.9719166298031934,-0.01632747436507223,-0.227392,-24.371084
11.185,2.0,1.0,1.0,34.7,34.2,34.2,1.6,3.5,2.6475,0.05213888719846164,-0.0591459816866098,0.9722267016415252,-0.01753352084309242,-0.232177,-24.195687
11.185,2.0,1.0,1.0,34.7,34.2,34.2,1.6,3.5,2.65,0.038058954110318205,-0.06008877258841116,0.9723259307702244,-0.018789930067544383,-0.237114,-24.018968
11.185,2.0,1.0,1.0,34.7,34.2,34.2,1.6,3.5,2.6525,0.023838609259081198,-0.06103815953321386,0.9722075603480247,-0.02009876949540239,-0.24221,-23.840902
11.185,2.0,1.0,1.0,34.7,34.2,34.2,1.6,3.5,2.655,0.009478690492650734,-0.06199347676309776,0.9718646292042814,-0.021462196403598793,-0.247471,-23.661462
11.185,2.0,1.0,1.0,34.7,34.2,34.2,1.6,3.5,2.6575,-0.005019801797916175,-0.06295398617307302,0.9712899659408994,-0.0228824619903219,-0.252906,-23.480622
11.185,2.0,1.0,1.0,34.7,34.2,34.2,1.6,3.5,2.66,-0.01965569340264578,-0.06391887118888498,0.9704761828929401,-0.02436191566169911,-0.258521,-23.298354
11.185,2.0,1.0,1.0,34.7,34.2,34.2,1.6,3.5,2.6625,-0.03442762427162414,-0.06488723012048352,0.9694156699481876,-0.025903009510077506,-0.264325,-23.114629
11.185,2.0,1.0,1.0,34.7,34.2,34.2,1.6,3.5,2.665,-0.049334035692867775,-0.06585806894253737,0.9681005882266289,-0.02750830298980246,-0.270327,-22.929417
11.185,2.0,1.0,1.0,34.7,34.2,34.2,1.6,3.5,2.6675,-0.06437315660811754,-0.06683029344838683,0.9665228636216718,-0.029180467795927634,-0.276535,-22.74269
11.185,2.0,1.0,1.0,34.7,34.2,34.2,1.6,3.5,2.67,-0.07954298899997359,-0.06780270071829896,0.9646741802059906,-0.0309222929506687,-0.282959,-22.554415
11.185,2.0,1.0,1.0,34.7,34.2,34.2,1.6,3.5,2.6725,-0.09484129227750603,-0.0687739698367153,0.9625459735061058,-0.0327366901015643,-0.28961,-22.36456
11.185,2.0,1.0,1.0,34.7,34.2,34.2,1.6,3.5,2.675,-0.11026556658049587,-0.06974265178631661,0.9601294236513646,-0.034626699034211804,-0.296499,-22.173092
11.185,2.0,1.0,1.0,34.7,34.2,34.2,1.6,3.5,2.6775,-0.12581303491471785,-0.07070715843906278,0.9574154484048365,-0.03659549340103792,-0.303636,-21.979976
11.185,2.0,1.0,1.0,34.7,34.2,34.2,1.6,3.5,2.68,-0.14148062402203146,-0.07166575055582124,0.9543946960858255,-0.03864638666577888,-0.311035,-21.785177
11.185,2.0,1.0,1.0,34.7,34.2,34.2,1.6,3.5,2.6825,-0.15726494387938478,-0.07261652469664234,0.9510575383964378,-0.040782838261100136,-0.318708,-21.588659
11.185,2.0,1.0,1.0,34.7,34.2,34.2,1.6,3.5,2.685,-0.17316226571011356,-0.07355739893307753,0.9473940631678162,-0.04300845995400034,-0.32667,-21.390383
11.185,2.0,1.0,1.0,34.7,34.2,34.2,1.6,3.5,2.6875,-0.189168498378854,-0.0744860972420007,0.943394067045624,-0.0453270224101841,-0.334936,-21.190311
11.185,2.0,1.0,1.0,34.7,34.2,34.2,1.6,3.5,2.69,-0.20527916302794075,-0.07540013244704694,0.9390470481389861,-0.047742461944328775,-0.343521,-20.988402
11.185,2.0,1.0,1.0,34.7,34.2,34.2,1.6,3.5,2.6925,-0.22148936579816045,-0.07629678755884253,0.9343421986627988,-0.050258887437953564,-0.352442,-20.784615
11.185,2.0,1.0,1.0,34.7,34.2,34.2,1.6,3.5,2.695,-0.23779376845976982,-0.07717309534846382,0.9292683976101125,-0.052880587400197035,-0.361718,-20.578905
11.185,2.0,1.0,1.0,34.7,34.2,34.2,1.6,3.5,2.6975,-0.25418655676092605,-0.07802581596981954,0.9238142034995083,-0.05561203713903016,-0.371367,-20.371229
11.185,2.0,1.0,1.0,34.7,34.2,34.2,1.6,3.5,2.7,-0.27066140627936963,-0.07885141242563937,0.9179678472522319,-0.05845790600093088,-0.381412,-20.16154
11.185,2.0,1.0,1.0,34.7,34.2,34.2,1.6,3.5,2.7025,-0.2872114455395564,-0.07964602364820289,0.911717225265799,-0.06142306462553235,-0.391875,-19.949791
11.185,2.0,1.0,1.0,34.7,34.2,34.2,1.6,3.5,2.705,-0.30382921613069147,-0.08040543493955021,0.9050498927650723,-0.06451259214776653,-0.402779,-19.735931
11.185,2.0,1.0,1.0,34.7,34.2,34.2,1.6,3.5,2.7075,-0.3205066295313168,-0.08112504548632239,0.8979530575290894,-0.06773178326308564,-0.41415,-19.519909
11.185,2.0,1.0,1.0,34.7,34.2,34.2,1.6,3.5,2.71,-0.3372349203124766,-0.08179983263122566,0.8904135741127325,-0.07108615505081964,-0.426017,-19.301672
11.185,2.0,1.0,1.0,34.7,34.2,34.2,1.6,3.5,2.7125,-0.35400459535397355,-0.0824243125459773,0.8824179387073887,-0.0745814534259145,-0.438409,-19.081165
11.185,2.0,1.0,1.0,34.7,34.2,34.2,1.6,3.5,2.715,-0.3708053786660154,-0.0829924969090071,0.8739522848150183,-0.07822365905926193,-0.451358,-18.85833
11.185,2.0,1.0,1.0,34.7,34.2,34.2,1.6,3.5,2.7175,-0.3876261513613813,-0.08349784514470192,0.8650023799464585,-0.08201899257054597,-0.464901,-18.63311
11.185,2.0,1.0,1.0,34.7,34.2,34.2,1.6,3.5,2.72,-0.4044548862704394,-0.08393321172903849,0.8555536235988803,-0.08597391875364917,-0.479074,-18.405441
11.185,2.0,1.0,1.0,34.7,34.2,34.2,1.6,3.5,2.7225,-0.4212785766323961,-0.08429078800854277,0.8455910468203282,-0.09009514954165311,-0.493918,-18.175262
11.185,2.0,1.0,1.0,34.7,34.2,34.2,1.6,3.5,2.725,-0.4380831582303804,-0.08456203791506237,0.835099313733527,-0.09438964535435879,-0.509479,-17.942506
11.185,2.0,1.0,1.0,34.7,34.2,34.2,1.6,3.5,2.7275,-0.45485342426498204,-0.08473762688733245,0.8240627254684959,-0.0988646143938189,-0.525805,-17.707105
11.185,2.0,1.0,1.0,34.7,34.2,34.2,1.6,3.5,2.73,-0.4715729321797848,-0.08480734323122151,0.8124652270472802,-0.10352750935970768,-0.542947,-17.468988
11.185,2.0,1.0,1.0,34.7,34.2,34.2,1.6,3.5,2.7325,-0.4882239015631825,-0.08476001106346338,0.8002904178772136,-0.10838602094316002,-0.560964,-17.228083
11.185,2.0,1.0,1.0,34.7,34.2,34.2,1.6,3.5,2.735,-0.5047871021525733,-0.08458339388834384,0.7875215666461259,-0.11344806732078465,-0.579918,-16.984315
11.185,2.0,1.0,1.0,34.7,34.2,34.2,1.6,3.5,2.7375,-0.5212417308602112,-0.08426408775315634,0.7741416315785222,-0.11872177870497962,-0.599877,-16.737605
11.185,2.0,1.0,1.0,34.7,34.2,34.2,1.6,3.5,2.74,-0.5375652766243213,-0.0837874028166199,0.7601332872122732,-0.12421547580635185,-0.620916,-16.487873
11.185,2.0,1.0,1.0,34.7,34.2,34.2,1.6,3.5,2.7425,-0.5537333717657205,-0.08313723204568181,0.7454789590979913,-0.1299376408217158,-0.643116,-16.235035
11.185,2.0,1.0,1.0,34.7,34.2,34.2,1.6,3.5,2.745,-0.569719628400272,-0.08229590563184148,0.7301608681170837,-0.13589687926793745,-0.666568,-15.979007
11.185,2.0,1.0,1.0,34.7,34.2,34.2,1.6,3.5,2.7475,-0.5854954583237979,-0.08124402959102273,0.7141610864700753,-0.14210187062719323,-0.69137,-15.7197
11.185,2.0,1.0,1.0,34.7,34.2,34.2,1.6,3.5,2.75,-0.601029874652552,-0.0799603068852894,0.697461607817292,-0.148561305340195,-0.717631,-15.457024
11.185,2.0,1.0,1.0,34.7,34.2,34.2,1.6,3.5,2.7525,-0.6162892733751212,-0.0784213392867046,0.6800444345748421,-0.15528380516522505,-0.745472,-15.190885
11.185,2.0,1.0,1.0,34.7,34.2,34.2,1.6,3.5,2.755,-0.6312371928598377,-0.0766014081025961,0.6618916859987292,-0.16227782329406654,-0.775024,-14.921189
11.185,2.0,1.0,1.0,34.7,34.2,34.2,1.6,3.5,2.7575,-0.6458340492782961,-0.07447223181063674,0.6429857314509096,-0.16955151985933015,-0.806435,-14.64784
11.185,2.0,1.0,1.0,34.7,34.2,34.2,1.6,3.5,2.76,-0.6600368458688449,-0.07200269863013403,0.6233093541595314,-0.1771126075554348,-0.839868,-14.370738
11.185,2.0,1.0,1.0,34.7,34.2,34.2,1.6,3.5,2.7625,-0.673798853999701,-0.06915857210867951,0.6028459518918465,-0.1849681609976631,-0.875504,-14.089785
11.185,2.0,1.0,1.0,34.7,34.2,34.2,1.6,3.5,2.765,-0.6870692641351518,-0.06590216796667506,0.5815797822879968,-0.19312438212541125,-0.913546,-13.80488
11.185,2.0,1.0,1.0,34.7,34.2,34.2,1.6,3.5,2.7675,-0.6997928051088634,-0.062192000765196716,0.5594962621973264,-0.20158631237771035,-0.954218,-13.515923
11.185,2.0,1.0,1.0,34.7,34.2,34.2,1.6,3.5,2.77,-0.7119093306322043,-0.057982399511701456,0.5365823322606843,-0.21035748048760464,-0.997774,-13.222815
11.185,2.0,1.0,1.0,34.7,34.2,34.2,1.6,3.5,2.7725,-0.7233533728021128,-0.053223092182962325,0.5128269002407865,-0.2194394725103906,-1.044495,-12.925458
11.185,2.0,1.0,1.0,34.7,34.2,34.2,1.6,3.5,2.775,-0.7340536636429619,-0.04785876044543824,0.48822137926679077,-0.22883140807189212,-1.094701,-12.623759
11.185,2.0,1.0,1.0,34.7,34.2,34.2,1.6,3.5,2.7775,-0.7439326275802364,-0.041828567749879385,0.46276034027448876,-0.23852930375377332,-1.148747,-12.317627
11.185,2.0,1.0,1.0,34.7,34.2,34.2,1.6,3.5,2.78,-0.7529058504125582,-0.03506566668010996,0.43644230152381125,-0.24852530099196032,-1.207039,-12.006979
11.185,2.0,1.0,1.0,34.7,34.2,34.2,1.6,3.5,2.7825,-0.7608815340999553,-0.02749669522140142,0.4092706821719808,-0.2588067318441916,-1.270032,-11.691741
11.185,2.0,1.0,1.0,34.7,34.2,34.2,1.6,3.5,2.785,-0.7677599518801098,-0.019041276838322335,0.38125495144096355,-0.26935499151966763,-1.338245,-11.37185
11.185,2.0,1.0,1.0,34.7,34.2,34.2,1.6,3.5,2.7875,-0.7734329253203646,-0.009611546371236917,0.3524120098388226,-0.28014418176617667,-1.412266,-11.047259
11.185,2.0,1.0,1.0,34.7,34.2,34.2,1.6,3.5,2.79,-0.777783354490652,0.0008882666530858251,0.3227678439557407,-0.29113948430307796,-1.492766,-10.717937
11.185,2.0,1.0,1.0,34.7,34.2,34.2,1.6,3.5,2.7925,-0.7806848452139215,0.012562152944539254,0.29235950115861936,-0.3022952188763779,-1.580509,-10.383881
11.185,2.0,1.0,1.0,34.7,34.2,34.2,1.6,3.5,2.795,-0.7820014941681065,0.02552247548896143,0.26123743438369523,-0.31355253686915935,-1.676372,-10.045114
11.185,2.0,1.0,1.0,34.7,34.2,34.2,1.6,3.5,2.7975,-0.7815879144517959,0.03988987585647909,0.22946826911088392,-0.3248366997947976,-1.781359,-9.701696
11.185,2.0,1.0,1.0,34.7,34.2,34.2,1.6,3.5,2.8,-0.779289612125902,0.05579282422279637,0.19713804286673034,-0.33605389406120306,-1.896628,-9.353733
11.185,2.0,1.0,1.0,34.7,34.2,34.2,1.6,3.5,2.8025,-0.7749438591863405,0.07336666791245935,0.16435595983601387,-0.3470875415253212,-2.023511,-9.001384
11.185,2.0,1.0,1.0,34.7,34.2,34.2,1.6,3.5,2.805,-0.7683812510865348,0.09275199107835772,0.13125868591136047,-0.3577940829945473,-2.163547,-8.644872
11.185,2.0,1.0,1.0,34.7,34.2,34.2,1.6,3.5,2.8075,-0.7594281872673558,0.11409204847691769,0.09801517799353515,-0.36799824372261536,-2.318519,-8.284499
11.185,2.0,1.0,1.0,34.7,34.2,34.2,1.6,3.5,2.81,-0.7479105697087686,0.1375289807021886,0.06483198920755141,-0.3774878423936037,-2.490495,-7.920661
11.185,2.0,1.0,1.0,34.7,34.2,34.2,1.6,3.5,2.8125,-0.733659073371463,0.163198460687202,0.0319589108724805,-0.386008286034357,-2.681881,-7.553861
11.185,2.0,1.0,1.0,34.7,34.2,34.2,1.6,3.5,2.815,-0.7165163956539052,0.19122236971073653,-0.00030530691028444416,-0.3932570120490103,-2.895477,-7.184733
11.185,2.0,1.0,1.0,34.7,34.2,34.2,1.6,3.5,2.8175,-0.6963469257828809,0.22169906943840925,-0.03160758118691754,-0.398878304781109,-3.134548,-6.814059
11.185,2.0,1.0,1.0,34.7,34.2,34.2,1.6,3.5,2.82,-0.6730492671918971,0.2546908467963743,-0.06153611678966168,-0.4024591353908561,-3.40291,-6.442789
11.185,2.0,1.0,1.0,34.7,34.2,34.2,1.6,3.5,2.8225,-0.6465719636985182,0.29020819322319164,-0.08961795087949698,-0.40352695189884774,-3.70502,-6.072067
11.185,2.0,1.0,1.0,34.7,34.2,34.2,1.6,3.5,2.825,-0.6169325794770445,0.3281907828027784,-0.1153196783108264,-0.40155066933904804,-4.046091,-5.70325
11.185,2.0,1.0,1.0,34.7,34.2,34.2,1.6,3.5,2.8275,-0.5842399101740154,0.3684853874159911,-0.13805295467071374,-0.3959464432272334,-4.432214,-5.337924
