1,w,sub_t,h,l1,l2,l3,g1,g2,Freq,S11_re,S21_re,S11_img,S21_img,S11_dB,S21_dB
11.185,2.0,1.0,1.0,33.5,33.4,33.4,3.3,2.4,2.5,0.848778555707558,-0.00760431106105416,0.516928780832451,0.00638871987129697,-0.054012,-40.059413
11.185,2.0,1.0,1.0,33.5,33.4,33.4,3.3,2.4,2.5025,0.8452591750713043,-0.007756243850474696,0.5225559967889251,0.006416480757033618,-0.054507,-39.942596
11.185,2.0,1.0,1.0,33.5,33.4,33.4,3.3,2.4,2.505,0.8416870428396979,-0.007910839127267892,0.5281820516405134,0.006443501990396247,-0.05501,-39.825489
11.185,2.0,1.0,1.0,33.5,33.4,33.4,3.3,2.4,2.5075,0.8380616479469412,-0.008068148386249615,0.5338066856869298,0.006469750838110617,-0.055522,-39.708083
11.185,2.0,1.0,1.0,33.5,33.4,33.4,3.3,2.4,2.51,0.8343824715355409,-0.00822822435372636,0.5394296315546908,0.006495193366216619,-0.056043,-39.59037
11.185,2.0,1.0,1.0,33.5,33.4,33.4,3.3,2.4,2.5125,0.830648986841291,-0.008391121022319706,0.5450506139537539,0.0065197943922920025,-0.056574,-39.472344
11.185,2.0,1.0,1.0,33.5,33.4,33.4,3.3,2.4,2.515,0.8268606590771159,-0.008556893686929024,0.550669349426369,0.006543517435571643,-0.057113,-39.353996
11.185,2.0,1.0,1.0,33.5,33.4,33.4,3.3,2.4,2.5175,0.8230169453158082,-0.008725598981874758,0.5562855460878527,0.0065663246648572215,-0.057662,-39.235318
11.185,2.0,1.0,1.0,33.5,33.4,33.4,3.3,2.4,2.52,0.8191172943716708,-0.008897294919267778,0.5618989033590253,0.006588176844107611,-0.058221,-39.116302
11.185,2.0,1.0,1.0,33.5,33.4,33.4,3.3,2.4,2.5225,0.815161146681113,-0.009072040928650603,0.5675091116899968,0.006609033275594533,-0.05879,-38.996941
11.185,2.0,1.0,1.0,33.5,33.4,33.4,3.3,2.4,2.525,0.8111479341822102,-0.009249897897959804,0.5731158522750156,0.006628851740500162,-0.059369,-38.877226
11.185,2.0,1.0,1.0,33.5,33.4,33.4,3.3,2.4,2.5275,0.8070770801932743,-0.009430928215860451,0.5787187967580606,0.006647588436827667,-0.059959,-38.757148
11.185,2.0,1.0,1.0,33.5,33.4,33.4,3.3,2.4,2.53,0.8029479992904672,-0.009615195815505047,0.5843176069288432,0.006665197914487906,-0.060559,-38.6367
11.185,2.0,1.0,1.0,33.5,33.4,33.4,3.3,2.4,2.5325,0.7987600971845006,-0.009802766219772923,0.5899119344088823,0.0066816330074165875,-0.06117,-38.515873
11.185,2.0,1.0,1.0,33.5,33.4,33.4,3.3,2.4,2.535,0.7945127705964601,-0.009993706588047805,0.5955014203273044,0.0066968447625701,-0.061793,-38.394657
11.185,2.0,1.0,1.0,33.5,33.4,33.4,3.3,2.4,2.5375,0.7902054071328113,-0.01018808576459351,0.6010856949859846,0.006710782365636649,-0.062426,-38.273046
11.185,2.0,1.0,1.0,33.5,33.4,33.4,3.3,2.4,2.54,0.7858373851596261,-0.010385974328591457,0.6066643775136574,0.006723393063291781,-0.063072,-38.151029
11.185,2.0,1.0,1.0,33.5,33.4,33.4,3.3,2.4,2.5425,0.7814080736760981,-0.010587444645905475,0.6122370755085952,0.006734622081815823,-0.06373,-38.028598
11.185,2.0,1.0,1.0,33.5,33.4,33.4,3.3,2.4,2.545,0.7769168321873918,-0.010792570922643064,0.6178033846694342,0.006744412541881868,-0.0644,-37.905743
11.185,2.0,1.0,1.0,33.5,33.4,33.4,3.3,2.4,2.5475,0.7723630105769066,-0.011001429260584589,0.6233628884137112,0.006752705369308352,-0.065083,-37.782456
11.185,2.0,1.0,1.0,33.5,33.4,33.4,3.3,2.4,2.55,0.7677459489780062,-0.0112140977145565,0.6289151574836764,0.006759439201560737,-0.065778,-37.658726
11.185,2.0,1.0,1.0,33.5,33.4,33.4,3.3,2.4,2.5525,0.763064977645305,-0.011430656351826093,0.6344597495388791,0.0067645502897733505,-0.066487,-37.534545
11.185,2.0,1.0,1.0,33.5,33.4,33.4,3.3,2.4,2.555,0.7583194168255764,-0.011651187313601121,0.6399962087350662,0.006767972396044679,-0.06721,-37.409903
11.185,2.0,1.0,1.0,33.5,33.4,33.4,3.3,2.4,2.5575,0.7535085766283693,-0.011875774878719726,0.6455240652888641,0.006769636685751603,-0.067946,-37.28479
11.185,2.0,1.0,1.0,33.5,33.4,33.4,3.3,2.4,2.56,0.7486317568964325,-0.012104505529620484,0.6510428350277063,0.006769471614602411,-0.068697,-37.159196
11.185,2.0,1.0,1.0,33.5,33.4,33.4,3.3,2.4,2.5625,0.7436882470760305,-0.012337468020687426,0.6565520189244546,0.006767402810141218,-0.069463,-37.03311
11.185,2.0,1.0,1.0,33.5,33.4,33.4,3.3,2.4,2.565,0.7386773260872571,-0.012574753449067512,0.6620511026161263,0.006763352947389186,-0.070244,-36.906523
11.185,2.0,1.0,1.0,33.5,33.4,33.4,3.3,2.4,2.5675,0.7335982621944612,-0.01281645532806451,0.667539555906112,0.0067572416182947286,-0.07104,-36.779424
11.185,2.0,1.0,1.0,33.5,33.4,33.4,3.3,2.4,2.57,0.7284503128768917,-0.013062669663216495,0.6730168322492495,0.00674898519463918,-0.071852,-36.651802
11.185,2.0,1.0,1.0,33.5,33.4,33.4,3.3,2.4,2.5725,0.7232327246996868,-0.013313495031170035,0.6784823682190845,0.006738496684023515,-0.072681,-36.523646
11.185,2.0,1.0,1.0,33.5,33.4,33.4,3.3,2.4,2.575,0.7179447331853418,-0.013569032661469428,0.683935582956617,0.006725685578538871,-0.073526,-36.394946
11.185,2.0,1.0,1.0,33.5,33.4,33.4,3.3,2.4,2.5775,0.7125855626857861,-0.0138293865213843,0.6893758775997973,0.006710457695693539,-0.074388,-36.26569
11.185,2.0,1.0,1.0,33.5,33.4,33.4,3.3,2.4,2.58,0.7071544262552262,-0.014094663403904964,0.6948026346930052,0.006692715011143573,-0.075269,-36.135867
11.185,2.0,1.0,1.0,33.5,33.4,33.4,3.3,2.4,2.5825,0.7016505255238993,-0.014364973019041678,0.7002152175757079,0.006672355482744944,-0.076167,-36.005465
11.185,2.0,1.0,1.0,33.5,33.4,33.4,3.3,2.4,2.585,0.6960730505729078,-0.01464042808856883,0.705612969749445,0.00664927286540832,-0.077084,-35.874471
11.185,2.0,1.0,1.0,33.5,33.4,33.4,3.3,2.4,2.5875,0.6904211798103065,-0.014921144444363406,0.7109952142222628,0.0066233565162076,-0.07802,-35.742875
11.185,2.0,1.0,1.0,33.5,33.4,33.4,3.3,2.4,2.59,0.684694079848628,-0.015207241130492547,0.716361252829651,0.006594491189151206,-0.078976,-35.610663
11.185,2.0,1.0,1.0,33.5,33.4,33.4,3.3,2.4,2.5925,0.6788909053840347,-0.01549884050921371,0.7217103655310153,0.006562556818988015,-0.079952,-35.477822
11.185,2.0,1.0,1.0,33.5,33.4,33.4,3.3,2.4,2.595,0.6730107990773151,-0.01579606837105703,0.7270418096806394,0.006527428293372678,-0.080949,-35.344341
11.185,2.0,1.0,1.0,33.5,33.4,33.4,3.3,2.4,2.5975,0.6670528914369264,-0.016099054049168896,0.7323548192720648,0.006488975212670719,-0.081968,-35.210206
11.185,2.0,1.0,1.0,33.5,33.4,33.4,3.3,2.4,2.6,0.6610163007043179,-0.016407930538103344,0.7376486041547351,0.006447061636630402,-0.083009,-35.075402
11.185,2.0,1.0,1.0,33.5,33.4,33.4,3.3,2.4,2.6025,0.6549001327417848,-0.016722834617255957,0.7429223492216965,0.006401545817094296,-0.084072,-34.939918
11.185,2.0,1.0,1.0,33.5,33.4,33.4,3.3,2.4,2.605,0.6487034809230913,-0.01704390697914542,0.7481752135670924,0.006352279915864223,-0.085159,-34.803738
11.185,2.0,1.0,1.0,33.5,33.4,33.4,3.3,2.4,2.6075,0.6424254260271423,-0.017371292362755628,0.7534063296120941,0.006299109706766995,-0.08627,-34.666849
11.185,2.0,1.0,1.0,33.5,33.4,33.4,3.3,2.4,2.61,0.6360650361349884,-0.01770513969216222,0.7586148021978562,0.006241874260900736,-0.087406,-34.529235
11.185,2.0,1.0,1.0,33.5,33.4,33.4,3.3,2.4,2.6125,0.6296213665304545,-0.018045602220676405,0.7637997076439886,0.0061804056139638025,-0.088568,-34.390882
11.185,2.0,1.0,1.0,33.5,33.4,33.4,3.3,2.4,2.615,0.623093459604709,-0.0183928376807505,0.7689600927709617,0.006114528414488187,-0.089756,-34.251774
11.185,2.0,1.0,1.0,33.5,33.4,33.4,3.3,2.4,2.6175,0.6164803447651116,-0.018747008439899012,0.7740949738847458,0.006044059551708759,-0.090971,-34.111896
11.185,2.0,1.0,1.0,33.5,33.4,33.4,3.3,2.4,2.62,0.6097810383486835,-0.019108281662900968,0.7792033357219071,0.005968807761704117,-0.092214,-33.971231
11.185,2.0,1.0,1.0,33.5,33.4,33.4,3.3,2.4,2.6225,0.6029945435405649,-0.019476829480560637,0.7842841303532614,0.005888573210340014,-0.093486,-33.829764
11.185,2.0,1.0,1.0,33.5,33.4,33.4,3.3,2.4,2.625,0.596119850297863,-0.0198528291653138,0.789336276044054,0.00580314705143131,-0.094788,-33.687477
11.185,2.0,1.0,1.0,33.5,33.4,33.4,3.3,2.4,2.6275,0.5891559352792832,-0.020236463313980945,0.794358656068539,0.005712310958415694,-0.096121,-33.544353
11.185,2.0,1.0,1.0,33.5,33.4,33.4,3.3,2.4,2.63,0.5821017617809858,-0.02062792003797776,0.7993501174766564,0.005615836627696202,-0.097486,-33.400375
11.185,2.0,1.0,1.0,33.5,33.4,33.4,3.3,2.4,2.6325,0.574956279679122,-0.02102739316130735,0.8043094698103763,0.005513485251664093,-0.098884,-33.255524
11.185,2.0,1.0,1.0,33.5,33.4,33.4,3.3,2.4,2.635,0.5677184253795314,-0.021435082426669163,0.8092354837671089,0.005405006959250393,-0.100315,-33.109782
11.185,2.0,1.0,1.0,33.5,33.4,33.4,3.3,2.4,2.6375,0.5603871217751163,-0.0218511937100311,0.8141268898073949,0.005290140221684051,-0.101782,-32.96313
11.185,2.0,1.0,1.0,33.5,33.4,33.4,3.3,2.4,2.64,0.5529612782114137,-0.022275939244023758,0.818982376703918,0.005168611220937405,-0.103285,-32.815548
11.185,2.0,1.0,1.0,33.5,33.4,33.4,3.3,2.4,2.6425,0.5454397904609583,-0.02270953785052508,0.8238005900286381,0.005040133178136647,-0.104826,-32.667016
11.185,2.0,1.0,1.0,33.5,33.4,33.4,3.3,2.4,2.645,0.5378215407070204,-0.02315221518281401,0.8285801305746497,0.004904405638983117,-0.106405,-32.517513
11.185,2.0,1.0,1.0,33.5,33.4,33.4,3.3,2.4,2.6475,0.5301053975373793,-0.023604203977681506,0.8333195527090866,0.004761113712980515,-0.108025,-32.367018
11.185,2.0,1.0,1.0,33.5,33.4,33.4,3.3,2.4,2.65,0.522290215948782,-0.02406574431789435,0.8380173626531552,0.004609927262992486,-0.109686,-32.21551
11.185,2.0,1.0,1.0,33.5,33.4,33.4,3.3,2.4,2.6525,0.5143748373628542,-0.024537083905412264,0.8426720166850363,0.004450500041350167,-0.11139,-32.062966
11.185,2.0,1.0,1.0,33.5,33.4,33.4,3.3,2.4,2.655,0.5063580896541942,-0.025018478345764886,0.847281919261116,0.004282468768401405,-0.113139,-31.909363
11.185,2.0,1.0,1.0,33.5,33.4,33.4,3.3,2.4,2.6575,0.4982387871914983,-0.025510191443993906,0.8518454210506056,0.004105452149030597,-0.114934,-31.754677
11.185,2.0,1.0,1.0,33.5,33.4,33.4,3.3,2.4,2.66,0.4900157308925871,-0.026012495512565396,0.8563608168782431,0.003919049822278923,-0.116778,-31.598883
11.185,2.0,1.0,1.0,33.5,33.4,33.4,3.3,2.4,2.6625,0.48168770829429136,-0.026525671691649228,0.8608263435693171,0.0037228412387549934,-0.118671,-31.441958
11.185,2.0,1.0,1.0,33.5,33.4,33.4,3.3,2.4,2.665,0.4732534936381922,-0.02705001028215322,0.8652401776907974,0.003516384460042167,-0.120615,-31.283874
11.185,2.0,1.0,1.0,33.5,33.4,33.4,3.3,2.4,2.6675,0.464711847973335,-0.0275858110918801,0.8696004331818041,0.0032992148737777584,-0.122614,-31.124605
11.185,2.0,1.0,1.0,33.5,33.4,33.4,3.3,2.4,2.67,0.45606151927708805,-0.028133383795152133,0.873905158866093,0.003070843817484925,-0.124668,-30.964123
11.185,2.0,1.0,1.0,33.5,33.4,33.4,3.3,2.4,2.6725,0.4473012425954278,-0.02869304830621428,0.8781523358385863,0.002830757103593082,-0.126779,-30.8024
11.185,2.0,1.0,1.0,33.5,33.4,33.4,3.3,2.4,2.675,0.4384297402040621,-0.029265135166681278,0.8823398747172567,0.0025784134373572844,-0.128952,-30.639407
11.185,2.0,1.0,1.0,33.5,33.4,33.4,3.3,2.4,2.6775,0.42944572179190865,-0.029849985947237756,0.8864656127509117,0.002313242718592883,-0.131186,-30.475114
11.185,2.0,1.0,1.0,33.5,33.4,33.4,3.3,2.4,2.68,0.42034788466860157,-0.03044795366372793,0.8905273107725408,0.002034644217256413,-0.133486,-30.309488
11.185,2.0,1.0,1.0,33.5,33.4,33.4,3.3,2.4,2.6825,0.4111349139978783,-0.031059403207678277,0.8945226499869309,0.00174198461192188,-0.135854,-30.142498
11.185,2.0,1.0,1.0,33.5,33.4,33.4,3.3,2.4,2.685,0.40180548305886526,-0.03168471179118585,0.8984492285801806,0.0014345958791134087,-0.138292,-29.974111
11.185,2.0,1.0,1.0,33.5,33.4,33.4,3.3,2.4,2.6875,0.392358253537527,-0.032324269405963,0.902304558137561,0.00111177302024112,-0.140804,-29.804291
11.185,2.0,1.0,1.0,33.5,33.4,33.4,3.3,2.4,2.69,0.382791875850794,-0.03297847929615832,0.9060860598548274,0.0007727716115389577,-0.143393,-29.633003
11.185,2.0,1.0,1.0,33.5,33.4,33.4,3.3,2.4,2.6925,0.37310498950615517,-0.033647758444366245,0.9097910605266303,0.00041680516089807656,-0.146063,-29.460211
11.185,2.0,1.0,1.0,33.5,33.4,33.4,3.3,2.4,2.695,0.3632962234998991,-0.03433253806998128,0.9134167882939931,4.304225381043717e-05,-0.148816,-29.285875
11.185,2.0,1.0,1.0,33.5,33.4,33.4,3.3,2.4,2.6975,0.35336419675751435,-0.03503326413874874,0.916960368131003,-0.00034939653123722546,-0.151656,-29.109956
11.185,2.0,1.0,1.0,33.5,33.4,33.4,3.3,2.4,2.7,0.34330751862030395,-0.03575039788198934,0.9204188170487713,-0.0007614419596804453,-0.154588,-28.932413
11.185,2.0,1.0,1.0,33.5,33.4,33.4,3.3,2.4,2.7025,0.33312478938274503,-0.036484416323532276,0.9237890389924176,-0.00119407975421143,-0.157616,-28.753202
11.185,2.0,1.0,1.0,33.5,33.4,33.4,3.3,2.4,2.705,0.3228146008858194,-0.03723581281184849,0.9270678194042142,-0.0016483545112771251,-0.160744,-28.572281
11.185,2.0,1.0,1.0,33.5,33.4,33.4,3.3,2.4,2.7075,0.312375537172255,-0.03800509755423452,0.9302518194231165,-0.0021253739504430743,-0.163976,-28.389602
11.185,2.0,1.0,1.0,33.5,33.4,33.4,3.3,2.4,2.71,0.30180617521052444,-0.038792798149117395,0.9333375696876003,-0.0026263135296524204,-0.167319,-28.205118
11.185,2.0,1.0,1.0,33.5,33.4,33.4,3.3,2.4,2.7125,0.2911050856954758,-0.03959946011162393,0.93632146370503,-0.003152421463153589,-0.170778,-28.018779
11.185,2.0,1.0,1.0,33.5,33.4,33.4,3.3,2.4,2.715,0.2802708339347101,-0.04042564738643974,0.9391997507465886,-0.0037050241830896306,-0.174358,-27.830533
11.185,2.0,1.0,1.0,33.5,33.4,33.4,3.3,2.4,2.7175,0.26930198083127316,-0.04127194284064727,0.9419685282220772,-0.004285532290505863,-0.178065,-27.640327
11.185,2.0,1.0,1.0,33.5,33.4,33.4,3.3,2.4,2.72,0.25819708397496877,-0.04213894872762718,0.9446237334835382,-0.0048954470469142666,-0.181906,-27.448104
11.185,2.0,1.0,1.0,33.5,33.4,33.4,3.3,2.4,2.7225,0.24695469885661797,-0.04302728711118784,0.9471611350006072,-0.005536367463646255,-0.185888,-27.253807
11.185,2.0,1.0,1.0,33.5,33.4,33.4,3.3,2.4,2.725,0.23557338022208987,-0.043937600236777154,0.9495763228436086,-0.006209998053126471,-0.190018,-27.057373
11.185,2.0,1.0,1.0,33.5,33.4,33.4,3.3,2.4,2.7275,0.22405168358575656,-0.044870550833870565,0.9518646984026254,-0.006918157314036244,-0.194306,-26.858741
11.185,2.0,1.0,1.0,33.5,33.4,33.4,3.3,2.4,2.73,0.21238816692657828,-0.045826822330297855,0.954021463261863,-0.007662787031236427,-0.198758,-26.657844
11.185,2.0,1.0,1.0,33.5,33.4,33.4,3.3,2.4,2.7325,0.20058139259409974,-0.046807118955285755,0.9560416071385384,-0.008445962481451842,-0.203385,-26.454612
11.185,2.0,1.0,1.0,33.5,33.4,33.4,3.3,2.4,2.735,0.1886299294566645,-0.04781216570318275,0.9579198947839632,-0.00926990364726536,-0.208197,-26.248973
11.185,2.0,1.0,1.0,33.5,33.4,33.4,3.3,2.4,2.7375,0.17653235533006878,-0.04884270812405067,0.9596508517313185,-0.010136987555148136,-0.213204,-26.040853
11.185,2.0,1.0,1.0,33.5,33.4,33.4,3.3,2.4,2.74,0.16428725973207725,-0.04989951190033008,0.9612287487595327,-0.011049761868310535,-0.218419,-25.830171
11.185,2.0,1.0,1.0,33.5,33.4,33.4,3.3,2.4,2.7425,0.15189324701680637,-0.05098336216036712,0.9626475849254005,-0.012010959882401537,-0.223852,-25.616845
11.185,2.0,1.0,1.0,33.5,33.4,33.4,3.3,2.4,2.745,0.13934893995341935,-0.0520950624694057,0.9639010689962749,-0.013023517091837916,-0.22952,-25.400789
11.185,2.0,1.0,1.0,33.5,33.4,33.4,3.3,2.4,2.7475,0.12665298382611836,-0.053235433426323434,0.9649825990928822,-0.014090589517226198,-0.235435,-25.181912
11.185,2.0,1.0,1.0,33.5,33.4,33.4,3.3,2.4,2.75,0.113804051147655,-0.0544053107794381,0.965885240325657,-0.0152155740104059,-0.241614,-24.960117
11.185,2.0,1.0,1.0,33.5,33.4,33.4,3.3,2.4,2.7525,0.10080084709703502,-0.05560554295654624,0.9666017001778182,-0.016402130783647467,-0.248074,-24.735307
11.185,2.0,1.0,1.0,33.5,33.4,33.4,3.3,2.4,2.755,0.08764211581456588,-0.05683698788224571,0.9671243013536526,-0.017654208444115214,-0.254834,-24.507374
11.185,2.0,1.0,1.0,33.5,33.4,33.4,3.3,2.4,2.7575,0.07432664771471095,-0.05810050892863297,0.9674449517703095,-0.018976071854612378,-0.261916,-24.27621
11.185,2.0,1.0,1.0,33.5,33.4,33.4,3.3,2.4,2.76,0.060853288010677416,-0.059396969812509456,0.967555111325014,-0.020372333187723583,-0.269341,-24.041697
11.185,2.0,1.0,1.0,33.5,33.4,33.4,3.3,2.4,2.7625,0.04722094668550002,-0.0607272282118792,0.9674457550158782,-0.021847986593802878,-0.277133,-23.803714
11.185,2.0,1.0,1.0,33.5,33.4,33.4,3.3,2.4,2.765,0.03342861019459334,-0.06209212782498019,0.9671073319322965,-0.02340844696499333,-0.285321,-23.562131
11.185,2.0,1.0,1.0,33.5,33.4,33.4,3.3,2.4,2.7675,0.019475355246426164,-0.06349248853414392,0.9665297195587715,-0.025059593349017605,-0.293933,-23.316813
11.185,2.0,1.0,1.0,33.5,33.4,33.4,3.3,2.4,2.77,0.005360365084050699,-0.06492909426160266,0.9657021727523579,-0.026807817649451057,-0.303002,-23.067616
11.185,2.0,1.0,1.0,33.5,33.4,33.4,3.3,2.4,2.7725,-0.008917051215713226,-0.06640267801140655,0.9646132666567975,-0.028660079345450836,-0.312564,-22.814389
11.185,2.0,1.0,1.0,33.5,33.4,33.4,3.3,2.4,2.775,-0.023357435792044537,-0.0679139034763552,0.9632508327037304,-0.03062396707561803,-0.322659,-22.556972
11.185,2.0,1.0,1.0,33.5,33.4,33.4,3.3,2.4,2.7775,-0.037961154620511334,-0.06946334244556429,0.9616018867205443,-0.0327077680602617,-0.333331,-22.295196
11.185,2.0,1.0,1.0,33.5,33.4,33.4,3.3,2.4,2.78,-0.052728364745078124,-0.0710514470696364,0.9596525480127623,-0.034920546486591014,-0.344628,-22.028881
11.185,2.0,1.0,1.0,33.5,33.4,33.4,3.3,2.4,2.7825,-0.06765897493676655,-0.07267851581701344,0.9573879481131743,-0.037272232155354315,-0.356605,-21.757839
11.185,2.0,1.0,1.0,33.5,33.4,33.4,3.3,2.4,2.785,-0.08275259831075003,-0.07434465167492803,0.9547921276868429,-0.03977372088853853,-0.369322,-21.481868
11.185,2.0,1.0,1.0,33.5,33.4,33.4,3.3,2.4,2.7875,-0.09800849507714184,-0.0760497107958918,0.9518479198471124,-0.04243698842942427,-0.382847,-21.200755
11.185,2.0,1.0,1.0,33.5,33.4,33.4,3.3,2.4,2.79,-0.11342550315101828,-0.07779323934584798,0.9485368178692448,-0.04527521983210835,-0.397255,-20.914274
11.185,2.0,1.0,1.0,33.5,33.4,33.4,3.3,2.4,2.7925,-0.12900195377765006,-0.07957439574692932,0.9448388249821852,-0.04830295664063136,-0.412632,-20.622184
11.185,2.0,1.0,1.0,33.5,33.4,33.4,3.3,2.4,2.795,-0.14473556860568385,-0.08139185479244482,0.9407322835729687,-0.051536264500329707,-0.429075,-20.32423
11.185,2.0,1.0,1.0,33.5,33.4,33.4,3.3,2.4,2.7975,-0.16062333371912693,-0.08324368920012126,0.9361936807522011,-0.05499292422620081,-0.44669,-20.02014
11.185,2.0,1.0,1.0,33.5,33.4,33.4,3.3,2.4,2.8,-0.17666134496064043,-0.08512722300417987,0.9311974268059242,-0.058692649771873724,-0.465603,-19.709625
11.185,2.0,1.0,1.0,33.5,33.4,33.4,3.3,2.4,2.8025,-0.19284461736698874,-0.08703884969192403,0.9257156026082839,-0.0626573369891659,-0.485952,-19.392378
11.185,2.0,1.0,1.0,33.5,33.4,33.4,3.3,2.4,2.805,-0.20916684959254164,-0.08897380606700399,0.9197176716094533,-0.06691134752360614,-0.507899,-19.068072
11.185,2.0,1.0,1.0,33.5,33.4,33.4,3.3,2.4,2.8075,-0.22562013168652442,-0.09092589033895822,0.9131701515789599,-0.07148183262146951,-0.531627,-18.736358
11.185,2.0,1.0,1.0,33.5,33.4,33.4,3.3,2.4,2.81,-0.24219458134069413,-0.09288710972539604,0.9060362409357214,-0.07639910196968908,-0.557346,-18.396864
11.185,2.0,1.0,1.0,33.5,33.4,33.4,3.3,2.4,2.8125,-0.258877889508117,-0.0948472386835631,0.898275394332206,-0.0816970428531457,-0.585301,-18.049198
11.185,2.0,1.0,1.0,33.5,33.4,33.4,3.3,2.4,2.815,-0.27565475081128143,-0.0967932634657488,0.8898428423429746,-0.08741359473441616,-0.615774,-17.692938
11.185,2.0,1.0,1.0,33.5,33.4,33.4,3.3,2.4,2.8175,-0.2925061470170685,-0.09870868163059658,0.8806890508963473,-0.09359128358310248,-0.649096,-17.327641
11.185,2.0,1.0,1.0,33.5,33.4,33.4,3.3,2.4,2.82,-0.3094084425486804,-0.10057261593675818,0.8707591178922475,-0.1002778184999404,-0.68565,-16.952835
11.185,2.0,1.0,1.0,33.5,33.4,33.4,3.3,2.4,2.8225,-0.3263322388774577,-0.1023586900505202,0.8599921079143225,-0.10752674975737084,-0.72589,-16.568021
11.185,2.0,1.0,1.0,33.5,33.4,33.4,3.3,2.4,2.825,-0.3432409188674884,-0.1040335979006222,0.8483203320789823,-0.11539818131581304,-0.77035,-16.172676
11.185,2.0,1.0,1.0,33.5,33.4,33.4,3.3,2.4,2.8275,-0.3600887917260852,-0.1055552783150376,0.8356685904393258,-0.12395952061991582,-0.819666,-15.76625
