1,w,sub_t,h,l1,l2,l3,g1,g2,Freq,S11_re,S21_re,S11_img,S21_img,S11_dB,S21_dB
11.185,2.0,1.0,1.0,33.0,34.8,34.8,2.5,1.6,2.5,0.897816928726804,-0.0110970670909779,0.423386205178373,0.0139353577926771,-0.064178,-34.984764
11.185,2.0,1.0,1.0,33.0,34.8,34.8,2.5,1.6,2.5025,0.8950098492771481,-0.01138688272980459,0.429074571710804,0.01408979898669027,-0.064987,-34.838832
11.185,2.0,1.0,1.0,33.0,34.8,34.8,2.5,1.6,2.505,0.8921521138037773,-0.01168431127416354,0.4347694715290096,0.014245899747595327,-0.065815,-34.692001
11.185,2.0,1.0,1.0,33.0,34.8,34.8,2.5,1.6,2.5075,0.889243057646468,-0.01198960645135741,0.44047082205665583,0.014403678202121415,-0.066662,-34.54425
11.185,2.0,1.0,1.0,33.0,34.8,34.8,2.5,1.6,2.51,0.8862819980975596,-0.012303033025782022,0.4461785370692776,0.014563152148152295,-0.067529,-34.395553
11.185,2.0,1.0,1.0,33.0,34.8,34.8,2.5,1.6,2.5125,0.8832682336661246,-0.012624867394370309,0.4518925265092663,0.014724338983598937,-0.068418,-34.245888
11.185,2.0,1.0,1.0,33.0,34.8,34.8,2.5,1.6,2.515,0.8802010433003458,-0.012955398220439725,0.45761269628927026,0.014887255627356948,-0.069329,-34.09523
11.185,2.0,1.0,1.0,33.0,34.8,34.8,2.5,1.6,2.5175,0.877079685565105,-0.013294927108824808,0.46333894808301296,0.015051918431506345,-0.070262,-33.943553
11.185,2.0,1.0,1.0,33.0,34.8,34.8,2.5,1.6,2.52,0.8739033977715316,-0.01364376932542961,0.469071179102484,0.015218343083808096,-0.071219,-33.790831
11.185,2.0,1.0,1.0,33.0,34.8,34.8,2.5,1.6,2.5225,0.8706713950549931,-0.014002254564606183,0.47480928186028826,0.015386544499443681,-0.072201,-33.637038
11.185,2.0,1.0,1.0,33.0,34.8,34.8,2.5,1.6,2.525,0.8673828693976937,-0.014370727768061031,0.48055314391587456,0.015556536700833424,-0.073209,-33.482147
11.185,2.0,1.0,1.0,33.0,34.8,34.8,2.5,1.6,2.5275,0.864036988591714,-0.01474954999932159,0.48630264760418185,0.015728332684222465,-0.074243,-33.326127
11.185,2.0,1.0,1.0,33.0,34.8,34.8,2.5,1.6,2.53,0.8606328951379718,-0.015139099378152339,0.492057669745101,0.015901944271578178,-0.075306,-33.168952
11.185,2.0,1.0,1.0,33.0,34.8,34.8,2.5,1.6,2.5325,0.85716970507616,-0.01553977207971337,0.4978180813319719,0.016077381946170054,-0.076397,-33.010589
11.185,2.0,1.0,1.0,33.0,34.8,34.8,2.5,1.6,2.535,0.8536465067402862,-0.015951983403680436,0.5035837471971459,0.016254654670010717,-0.077519,-32.851009
11.185,2.0,1.0,1.0,33.0,34.8,34.8,2.5,1.6,2.5375,0.8500623594339491,-0.016376168919036996,0.5093545256523972,0.01643376968111912,-0.078673,-32.690178
11.185,2.0,1.0,1.0,33.0,34.8,34.8,2.5,1.6,2.54,0.8464162920189353,-0.016812785690777054,0.5151302681017512,0.016614732268319193,-0.079859,-32.528065
11.185,2.0,1.0,1.0,33.0,34.8,34.8,2.5,1.6,2.5425,0.8427073014101328,-0.017262313595341812,0.5209108186239813,0.01679754552101338,-0.081081,-32.364634
11.185,2.0,1.0,1.0,33.0,34.8,34.8,2.5,1.6,2.545,0.838934350969094,-0.017725256732269944,0.5266960135217299,0.01698221005105473,-0.082338,-32.199852
11.185,2.0,1.0,1.0,33.0,34.8,34.8,2.5,1.6,2.5475,0.8350963687878526,-0.018202144940252175,0.5324856808338266,0.017168723683478805,-0.083633,-32.03368
11.185,2.0,1.0,1.0,33.0,34.8,34.8,2.5,1.6,2.55,0.8311922458537784,-0.018693535426586225,0.538279639806994,0.01735708111246518,-0.084968,-31.866082
11.185,2.0,1.0,1.0,33.0,34.8,34.8,2.5,1.6,2.5525,0.8272208340853815,-0.0192000145199038,0.5440777003226275,0.01754727351842339,-0.086344,-31.697018
11.185,2.0,1.0,1.0,33.0,34.8,34.8,2.5,1.6,2.555,0.8231809442279467,-0.019722199557032898,0.5498796622738471,0.01773928814158755,-0.087764,-31.526449
11.185,2.0,1.0,1.0,33.0,34.8,34.8,2.5,1.6,2.5575,0.8190713435968004,-0.02026074091593942,0.5556853148873984,0.017933107806898746,-0.089228,-31.354332
11.185,2.0,1.0,1.0,33.0,34.8,34.8,2.5,1.6,2.56,0.8148907536547667,-0.020816324207916674,0.5614944359842772,0.018128710394282713,-0.090741,-31.180624
11.185,2.0,1.0,1.0,33.0,34.8,34.8,2.5,1.6,2.5625,0.8106378474089979,-0.021389672643536493,0.5673067911722112,0.01832606824764515,-0.092303,-31.005281
11.185,2.0,1.0,1.0,33.0,34.8,34.8,2.5,1.6,2.565,0.8063112466108352,-0.02198154958839433,0.5731221329621988,0.018525147515026368,-0.093918,-30.828257
11.185,2.0,1.0,1.0,33.0,34.8,34.8,2.5,1.6,2.5675,0.8019095187406499,-0.022592761326354686,0.5789401998003032,0.018725907411330324,-0.095587,-30.649502
11.185,2.0,1.0,1.0,33.0,34.8,34.8,2.5,1.6,2.57,0.797431173757699,-0.02322416004989925,0.584760715004713,0.01892829939388408,-0.097315,-30.468968
11.185,2.0,1.0,1.0,33.0,34.8,34.8,2.5,1.6,2.5725,0.7928746605928959,-0.02387664709928352,0.5905833855967524,0.01913226623972932,-0.099104,-30.286602
11.185,2.0,1.0,1.0,33.0,34.8,34.8,2.5,1.6,2.575,0.7882383633599988,-0.02455117647457025,0.5964079010129432,0.019337741012013576,-0.100956,-30.10235
11.185,2.0,1.0,1.0,33.0,34.8,34.8,2.5,1.6,2.5775,0.7835205972580418,-0.025248758647265498,0.6022339316834628,0.019544645901053332,-0.102876,-29.916158
11.185,2.0,1.0,1.0,33.0,34.8,34.8,2.5,1.6,2.58,0.7787196041348031,-0.025970464701254133,0.6080611274602548,0.01975289092359427,-0.104868,-29.727965
11.185,2.0,1.0,1.0,33.0,34.8,34.8,2.5,1.6,2.5825,0.7738335476777212,-0.02671743083609617,0.6138891158756826,0.019962372461397447,-0.106934,-29.537713
11.185,2.0,1.0,1.0,33.0,34.8,34.8,2.5,1.6,2.585,0.7688605081948451,-0.02749086326949465,0.6197175002098358,0.020172971617536447,-0.10908,-29.345337
11.185,2.0,1.0,1.0,33.0,34.8,34.8,2.5,1.6,2.5875,0.7637984769440982,-0.028292043580032025,0.6255458573414076,0.02038455236555907,-0.111309,-29.150772
11.185,2.0,1.0,1.0,33.0,34.8,34.8,2.5,1.6,2.59,0.7586453499642745,-0.029122334536039803,0.6313737353532982,0.020596959462964318,-0.113628,-28.953951
11.185,2.0,1.0,1.0,33.0,34.8,34.8,2.5,1.6,2.5925,0.7533989213556829,-0.029983186461925368,0.6372006508598015,0.020810016096072935,-0.11604,-28.7548
11.185,2.0,1.0,1.0,33.0,34.8,34.8,2.5,1.6,2.595,0.7480568759521551,-0.03087614419940162,0.6430260860170897,0.021023521218301887,-0.118552,-28.553247
11.185,2.0,1.0,1.0,33.0,34.8,34.8,2.5,1.6,2.5975,0.7426167813190494,-0.031802854728039995,0.6488494851728281,0.021237246537909645,-0.121169,-28.349213
11.185,2.0,1.0,1.0,33.0,34.8,34.8,2.5,1.6,2.6,0.7370760790039256,-0.032765075517456756,0.654670251103759,0.02145093310430561,-0.123899,-28.142616
11.185,2.0,1.0,1.0,33.0,34.8,34.8,2.5,1.6,2.6025,0.7314320749574582,-0.03376468369242529,0.6604877407818874,0.02166428743382076,-0.126748,-27.933373
11.185,2.0,1.0,1.0,33.0,34.8,34.8,2.5,1.6,2.605,0.7256819290318262,-0.034803686102403336,0.6663012606003149,0.021876977106191714,-0.129724,-27.721393
11.185,2.0,1.0,1.0,33.0,34.8,34.8,2.5,1.6,2.6075,0.7198226434520519,-0.03588423039859266,0.6721100609783207,0.022088625751621575,-0.132835,-27.506584
11.185,2.0,1.0,1.0,33.0,34.8,34.8,2.5,1.6,2.61,0.7138510501423605,-0.03700861723489103,0.6779133302518741,0.022298807334786237,-0.136091,-27.288849
11.185,2.0,1.0,1.0,33.0,34.8,34.8,2.5,1.6,2.6125,0.7077637967742884,-0.03817931372422339,0.683710187739761,0.02250703962617986,-0.139501,-27.068084
11.185,2.0,1.0,1.0,33.0,34.8,34.8,2.5,1.6,2.615,0.7015573313857972,-0.03939896829901189,0.6894996758565219,0.022712776732168614,-0.143075,-26.844182
11.185,2.0,1.0,1.0,33.0,34.8,34.8,2.5,1.6,2.6175,0.6952278854006312,-0.04067042714429918,0.6952807511207459,0.02291540053246258,-0.146826,-26.617031
11.185,2.0,1.0,1.0,33.0,34.8,34.8,2.5,1.6,2.62,0.688771454854235,-0.04199675239465756,0.7010522738802096,0.0231142108466109,-0.150766,-26.386511
11.185,2.0,1.0,1.0,33.0,34.8,34.8,2.5,1.6,2.6225,0.6821837796063023,-0.04338124231191566,0.7068129965429034,0.02330841411866994,-0.15491,-26.152499
11.185,2.0,1.0,1.0,33.0,34.8,34.8,2.5,1.6,2.625,0.675460320289939,-0.0448274536904203,0.712561550063978,0.0234971103701562,-0.159272,-25.914862
11.185,2.0,1.0,1.0,33.0,34.8,34.8,2.5,1.6,2.6275,0.6685962327128849,-0.04633922677060556,0.7182964283916847,0.02367927812437243,-0.163869,-25.673462
11.185,2.0,1.0,1.0,33.0,34.8,34.8,2.5,1.6,2.63,0.6615863393866532,-0.047920712980656026,0.7240159705185172,0.023853756948345725,-0.168721,-25.428153
11.185,2.0,1.0,1.0,33.0,34.8,34.8,2.5,1.6,2.6325,0.6544250978140094,-0.04957640587084004,0.7297183397149072,0.024019227189672625,-0.173846,-25.17878
11.185,2.0,1.0,1.0,33.0,34.8,34.8,2.5,1.6,2.635,0.6471065651131258,-0.0513111756563643,0.7354014994389869,0.02417418640176305,-0.179268,-24.925182
11.185,2.0,1.0,1.0,33.0,34.8,34.8,2.5,1.6,2.6375,0.6396243584970798,-0.05313030784334347,0.741063185313696,0.02431692184867022,-0.185012,-24.667184
11.185,2.0,1.0,1.0,33.0,34.8,34.8,2.5,1.6,2.64,0.6319716110590918,-0.0550395464796055,0.7467008724372911,0.024445478355514305,-0.191106,-24.404605
11.185,2.0,1.0,1.0,33.0,34.8,34.8,2.5,1.6,2.6425,0.6241409222360488,-0.05704514264858215,0.752311737139528,0.024557620616731484,-0.19758,-24.13725
11.185,2.0,1.0,1.0,33.0,34.8,34.8,2.5,1.6,2.645,0.6161243022342515,-0.059153908911491936,0.7578926121061924,0.024650788884880523,-0.204469,-23.864915
11.185,2.0,1.0,1.0,33.0,34.8,34.8,2.5,1.6,2.6475,0.6079131096010948,-0.061373280501326656,0.76343993356012,0.024722046728336014,-0.211811,-23.587382
11.185,2.0,1.0,1.0,33.0,34.8,34.8,2.5,1.6,2.65,0.5994979810136285,-0.06371138418249656,0.7689496788956779,0.02476801925527743,-0.21965,-23.304418
11.185,2.0,1.0,1.0,33.0,34.8,34.8,2.5,1.6,2.6525,0.5908687522294586,-0.06617711581265606,0.7744172928007603,0.02478481983886594,-0.228033,-23.015777
11.185,2.0,1.0,1.0,33.0,34.8,34.8,2.5,1.6,2.655,0.5820143690073857,-0.06878022777772419,0.7798375994464918,0.02476796292519513,-0.237017,-22.721196
11.185,2.0,1.0,1.0,33.0,34.8,34.8,2.5,1.6,2.6575,0.5729227866564841,-0.07153142761553993,0.7852046977547416,0.02471225993645978,-0.246661,-22.420394
11.185,2.0,1.0,1.0,33.0,34.8,34.8,2.5,1.6,2.66,0.563580856716575,-0.07444248929407193,0.790511836035024,0.024611694564507014,-0.257037,-22.113071
11.185,2.0,1.0,1.0,33.0,34.8,34.8,2.5,1.6,2.6625,0.5539741991174978,-0.07752637875913639,0.7957512613728305,0.02445927284236629,-0.268225,-21.798908
11.185,2.0,1.0,1.0,33.0,34.8,34.8,2.5,1.6,2.665,0.5440870580216371,-0.08079739550153753,0.8009140379958166,0.024246842228441184,-0.280315,-21.477562
11.185,2.0,1.0,1.0,33.0,34.8,34.8,2.5,1.6,2.6675,0.5339021394445902,-0.08427133199320237,0.8059898273699779,0.02396487246774415,-0.293412,-21.148666
11.185,2.0,1.0,1.0,33.0,34.8,34.8,2.5,1.6,2.67,0.5234004287061041,-0.08796565287237522,0.8109666208898636,0.023602189112114876,-0.307636,-20.811826
11.185,2.0,1.0,1.0,33.0,34.8,34.8,2.5,1.6,2.6725,0.5125609858408867,-0.09189969566521755,0.8158304135995628,0.02314564816214926,-0.323126,-20.46662
11.185,2.0,1.0,1.0,33.0,34.8,34.8,2.5,1.6,2.675,0.5013607173804114,-0.09609489453078177,0.8205648042493644,0.022579737173223948,-0.340042,-20.112595
11.185,2.0,1.0,1.0,33.0,34.8,34.8,2.5,1.6,2.6775,0.4897741235333184,-0.10057502787640284,0.8251505029383142,0.02188608412984739,-0.358573,-19.749262
11.185,2.0,1.0,1.0,33.0,34.8,34.8,2.5,1.6,2.68,0.47777302094695906,-0.10536648950659533,0.8295647223280777,0.021042850151100294,-0.378937,-19.376099
11.185,2.0,1.0,1.0,33.0,34.8,34.8,2.5,1.6,2.6825,0.46532624324200933,-0.11049858092349897,0.8337804215602589,0.020023975270308456,-0.401393,-18.992541
11.185,2.0,1.0,1.0,33.0,34.8,34.8,2.5,1.6,2.685,0.45239932486539924,-0.11600381899986124,0.8377653630747233,0.018798237645337768,-0.426245,-18.597982
11.185,2.0,1.0,1.0,33.0,34.8,34.8,2.5,1.6,2.6875,0.4389541792642619,-0.12191824773540454,0.8414809308725575,0.01732807497075652,-0.453856,-18.19177
11.185,2.0,1.0,1.0,33.0,34.8,34.8,2.5,1.6,2.69,0.42494879112552886,-0.12828173400300705,0.8448806435860586,0.015568101780472375,-0.484659,-17.773207
11.185,2.0,1.0,1.0,33.0,34.8,34.8,2.5,1.6,2.6925,0.4103369562890674,-0.13513821325625588,0.8479082760153598,0.013463236768488963,-0.519173,-17.341544
11.185,2.0,1.0,1.0,33.0,34.8,34.8,2.5,1.6,2.695,0.39506812478909337,-0.14253582924558097,0.8504954774114101,0.010946329079714101,-0.55803,-16.895981
11.185,2.0,1.0,1.0,33.0,34.8,34.8,2.5,1.6,2.6975,0.3790874367722446,-0.15052687742124715,0.852558742526616,0.007935140558099626,-0.601994,-16.435667
11.185,2.0,1.0,1.0,33.0,34.8,34.8,2.5,1.6,2.7,0.3623360947400339,-0.15916740794755074,0.8539955513899182,0.0043285012975224175,-0.652008,-15.959706
11.185,2.0,1.0,1.0,33.0,34.8,34.8,2.5,1.6,2.7025,0.3447522994882452,-0.16851626032961237,0.8546794459873736,1.408670426657022e-06,-0.70923,-15.467164
11.185,2.0,1.0,1.0,33.0,34.8,34.8,2.5,1.6,2.705,0.32627310798880116,-0.17863317090854838,0.8544537592768295,-0.005201211881651655,-0.775105,-14.957078
11.185,2.0,1.0,1.0,33.0,34.8,34.8,2.5,1.6,2.7075,0.30683777481264535,-0.18957539150630678,0.8531236629583795,-0.011472413807714299,-0.851443,-14.428485
11.185,2.0,1.0,1.0,33.0,34.8,34.8,2.5,1.6,2.71,0.2863934526530276,-0.20139194439532507,0.8504461765775753,-0.019053155847492415,-0.940531,-13.880459
11.185,2.0,1.0,1.0,33.0,34.8,34.8,2.5,1.6,2.7125,0.2649046067457953,-0.21411416125202654,0.8461178290486443,-0.028244548841247878,-1.045278,-13.31217
11.185,2.0,1.0,1.0,33.0,34.8,34.8,2.5,1.6,2.715,0.2423682149573497,-0.2277404400224874,0.8397598822667687,-0.03942250258739438,-1.169413,-12.722974
11.185,2.0,1.0,1.0,33.0,34.8,34.8,2.5,1.6,2.7175,0.2188378603639746,-0.24221212439228995,0.8309016082989056,-0.053054267572788485,-1.317745,-12.112558
11.185,2.0,1.0,1.0,33.0,34.8,34.8,2.5,1.6,2.72,0.1944612215183287,-0.2573760221330582,0.8189634215458192,-0.06971505424316335,-1.496502,-11.481145
11.185,2.0,1.0,1.0,33.0,34.8,34.8,2.5,1.6,2.7225,0.16953710996089794,-0.2729274503364532,0.8032443553180805,-0.09010022536552033,-1.71376,-10.829808
11.185,2.0,1.0,1.0,33.0,34.8,34.8,2.5,1.6,2.725,0.14459949521010482,-0.28832642890223603,0.7829234939039107,-0.11502344474474369,-1.979942,-10.160918
11.185,2.0,1.0,1.0,33.0,34.8,34.8,2.5,1.6,2.7275,0.12053511221539813,-0.30268052016152186,0.75709394958146,-0.14538221462592688,-2.308296,-9.478777
11.185,2.0,1.0,1.0,33.0,34.8,34.8,2.5,1.6,2.73,0.09873401960796163,-0.31459506910925017,0.7248618683504255,-0.18205840024540468,-2.715057,-8.790468
11.185,2.0,1.0,1.0,33.0,34.8,34.8,2.5,1.6,2.7325,0.08125056850360395,-0.32201350998128175,0.6855597109454299,-0.225704686480343,-3.218516,-8.106913
11.185,2.0,1.0,1.0,33.0,34.8,34.8,2.5,1.6,2.735,0.07090377985915736,-0.32211878913889225,0.6391306105569078,-0.2763605141174343,-3.835084,-7.444003
11.185,2.0,1.0,1.0,33.0,34.8,34.8,2.5,1.6,2.7375,0.07116607837951423,-0.31144677413832506,0.5867055724474702,-0.3328762324942224,-4.568163,-6.823426
11.185,2.0,1.0,1.0,33.0,34.8,34.8,2.5,1.6,2.74,0.08561338031300916,-0.286438046842001,0.5312608987355351,-0.39225859848972294,-5.382497,-6.272471
11.185,2.0,1.0,1.0,33.0,34.8,34.8,2.5,1.6,2.7425,0.11676564616905333,-0.24459782582732328,0.4779825905484794,-0.4493110557038044,-6.160024,-5.821821
11.185,2.0,1.0,1.0,33.0,34.8,34.8,2.5,1.6,2.745,0.16452498463981793,-0.1860553695772873,0.4337343810677429,-0.49717147640928777,-6.671699,-5.500651
11.185,2.0,1.0,1.0,33.0,34.8,34.8,2.5,1.6,2.7475,0.22506911196551743,-0.11466370939921293,0.4052623160838568,-0.5291122868645369,-6.677764,-5.32973
11.185,2.0,1.0,1.0,33.0,34.8,34.8,2.5,1.6,2.75,0.291307777269724,-0.0375326891094859,0.396738185070863,-0.540996868025531,-6.157158,-5.315252
11.185,2.0,1.0,1.0,33.0,34.8,34.8,2.5,1.6,2.7525,0.3550857345694436,0.03718367179940597,0.408179283777286,-0.5328516708558616,-5.335829,-5.446776
11.185,2.0,1.0,1.0,33.0,34.8,34.8,2.5,1.6,2.755,0.4098303211267437,0.10293675199584312,0.4358503721582279,-0.5084505199396796,-4.462062,-5.700574
11.185,2.0,1.0,1.0,33.0,34.8,34.8,2.5,1.6,2.7575,0.45203086008854915,0.1562549100979726,0.47416634597474894,-0.4734005329632255,-3.673751,-6.046323
11.185,2.0,1.0,1.0,33.0,34.8,34.8,2.5,1.6,2.76,0.48110996087224706,0.19660263500725816,0.5176799417184103,-0.4331515019891366,-3.014999,-6.453676
11.185,2.0,1.0,1.0,33.0,34.8,34.8,2.5,1.6,2.7625,0.4983898430331375,0.22533762562718757,0.5622119876441217,-0.39187028058794526,-2.483555,-6.89648
11.185,2.0,1.0,1.0,33.0,34.8,34.8,2.5,1.6,2.765,0.5060038701045823,0.24461881454566348,0.6050871717527466,-0.3522121793861784,-2.060907,-7.354377
11.185,2.0,1.0,1.0,33.0,34.8,34.8,2.5,1.6,2.7675,0.5061624147700817,0.25667302235059675,0.6448745834717917,-0.31558621342223947,-1.725896,-7.812658
11.185,2.0,1.0,1.0,33.0,34.8,34.8,2.5,1.6,2.77,0.5007941500839408,0.26343880179968343,0.6809956866171512,-0.28255038519591513,-1.459674,-8.261301
11.185,2.0,1.0,1.0,33.0,34.8,34.8,2.5,1.6,2.7725,0.4914367177296871,0.2664597142996043,0.7133830386362928,-0.2531541819131586,-1.246925,-8.693838
11.185,2.0,1.0,1.0,33.0,34.8,34.8,2.5,1.6,2.775,0.4792530513361465,0.2669026439388837,0.7422397683730063,-0.2271791441542912,-1.075696,-9.106341
11.185,2.0,1.0,1.0,33.0,34.8,34.8,2.5,1.6,2.7775,0.4650945902060168,0.26562231691982824,0.7678895239914098,-0.20428845968336928,-0.936826,-9.496628
11.185,2.0,1.0,1.0,33.0,34.8,34.8,2.5,1.6,2.78,0.44957178618529725,0.26323258311396425,0.7906908851029185,-0.18411196303441477,-0.823334,-9.863682
11.185,2.0,1.0,1.0,33.0,34.8,34.8,2.5,1.6,2.7825,0.433115967348696,0.26016870406040377,0.810992614930594,-0.16629033267252602,-0.729899,-10.207238
11.185,2.0,1.0,1.0,33.0,34.8,34.8,2.5,1.6,2.785,0.41602835011810996,0.25673658052096554,0.8291129062787141,-0.15049538614165237,-0.652452,-10.5275
11.185,2.0,1.0,1.0,33.0,34.8,34.8,2.5,1.6,2.7875,0.3985168762870847,0.2531496906145347,0.8453318979641009,-0.13643719905909082,-0.58786,-10.824951
11.185,2.0,1.0,1.0,33.0,34.8,34.8,2.5,1.6,2.79,0.38072310278507865,0.24955602429133159,0.8598910785638701,-0.12386441475554469,-0.533696,-11.10023
11.185,2.0,1.0,1.0,33.0,34.8,34.8,2.5,1.6,2.7925,0.36274151079764816,0.2460574143181584,0.8729959542045498,-0.11256134756303307,-0.488066,-11.35404
11.185,2.0,1.0,1.0,33.0,34.8,34.8,2.5,1.6,2.795,0.34463324715886506,0.24272329534836856,0.8848200082525743,-0.10234383340994428,-0.449483,-11.587103
11.185,2.0,1.0,1.0,33.0,34.8,34.8,2.5,1.6,2.7975,0.3264358582974411,0.23960046141076058,0.8955089298448916,-0.09305483561324371,-0.416767,-11.800116
11.185,2.0,1.0,1.0,33.0,34.8,34.8,2.5,1.6,2.8,0.30817017050509615,0.23671998090535762,0.9051846168617951,-0.08456028824321624,-0.38898,-11.993737
11.185,2.0,1.0,1.0,33.0,34.8,34.8,2.5,1.6,2.8025,0.2898451480885643,0.2341021035307171,0.9139487444296993,-0.07674537640232484,-0.365368,-12.168568
11.185,2.0,1.0,1.0,33.0,34.8,34.8,2.5,1.6,2.805,0.2714613203787663,0.23175975182580597,0.9218858383164095,-0.06951130616577718,-0.345327,-12.325146
11.185,2.0,1.0,1.0,33.0,34.8,34.8,2.5,1.6,2.8075,0.2530131945379574,0.22970101555532813,0.9290658650802666,-0.06277254542245675,-0.328364,-12.463944
11.185,2.0,1.0,1.0,33.0,34.8,34.8,2.5,1.6,2.81,0.23449094737108186,0.2279309434206702,0.9355463824426032,-0.05645448565139346,-0.314082,-12.585362
11.185,2.0,1.0,1.0,33.0,34.8,34.8,2.5,1.6,2.8125,0.2158816021535,0.226452839604195,0.941374303554681,-0.0504914643703012,-0.302159,-12.689734
11.185,2.0,1.0,1.0,33.0,34.8,34.8,2.5,1.6,2.815,0.19716983526913498,0.22526921179360299,0.9465873283295672,-0.044825087942034166,-0.292332,-12.777322
11.185,2.0,1.0,1.0,33.0,34.8,34.8,2.5,1.6,2.8175,0.17833851448271215,0.22438247480935408,0.951215089564796,-0.03940279887170535,-0.28439,-12.84832
11.185,2.0,1.0,1.0,33.0,34.8,34.8,2.5,1.6,2.82,0.1593690404409144,0.22379548424300166,0.955280054193238,-0.03417663763970924,-0.278164,-12.902853
11.185,2.0,1.0,1.0,33.0,34.8,34.8,2.5,1.6,2.8225,0.1402415416444098,0.22351195373156177,0.9587982121429488,-0.029102154945460715,-0.273521,-12.940976
11.185,2.0,1.0,1.0,33.0,34.8,34.8,2.5,1.6,2.825,0.12093495796358729,0.22353679494393766,0.9617795776012344,-0.02413743522395207,-0.270361,-12.962675
11.185,2.0,1.0,1.0,33.0,34.8,34.8,2.5,1.6,2.8275,0.10142703691943078,0.22387640916393559,0.9642285201461595,-0.01924219608325583,-0.26861,-12.967868
11.185,2.0,1.0,1.0,33.0,34.8,34.8,2.5,1.6,2.83,0.0816942591289607,0.22453895221214307,0.9661439361583962,-0.014376930717834214,-0.268222,-12.956398
11.185,2.0,1.0,1.0,33.0,34.8,34.8,2.5,1.6,2.8325,0.06171170363976944,0.22553458943334867,0.9675192639342909,-0.00950206125612168,-0.269175,-12.928035
