1,w,sub_t,h,l1,l2,l3,g1,g2,Freq,S11_re,S21_re,S11_img,S21_img,S11_dB,S21_dB
11.185,2.0,1.0,1.0,33.6,34.1,34.1,2.2,1.5,2.5,0.831619943736928,-0.0170109019052472,0.540211547005729,0.0166345307611685,-0.072609,-32.471234
11.185,2.0,1.0,1.0,33.6,34.1,34.1,2.2,1.5,2.5025,0.827625975752542,-0.017408455173682502,0.5461209992589461,0.01675945129411116,-0.073524,-32.336366
11.185,2.0,1.0,1.0,33.6,34.1,34.1,2.2,1.5,2.505,0.8235674688689579,-0.01781524155225116,0.5520302569674201,0.016883895073696833,-0.074461,-32.200799
11.185,2.0,1.0,1.0,33.6,34.1,34.1,2.2,1.5,2.5075,0.8194436046473228,-0.018231518935096603,0.5579389832076284,0.017007787792107223,-0.07542,-32.064519
11.185,2.0,1.0,1.0,33.6,34.1,34.1,2.2,1.5,2.51,0.8152535470215648,-0.018657554294434765,0.5638468285796919,0.017131050778441077,-0.076402,-31.927511
11.185,2.0,1.0,1.0,33.6,34.1,34.1,2.2,1.5,2.5125,0.8109964417871411,-0.019093624068749662,0.5697534306910477,0.017253600739607813,-0.077407,-31.789759
11.185,2.0,1.0,1.0,33.6,34.1,34.1,2.2,1.5,2.515,0.8066714160692718,-0.019540014570566477,0.5756584136151778,0.017375349484326244,-0.078437,-31.651249
11.185,2.0,1.0,1.0,33.6,34.1,34.1,2.2,1.5,2.5175,0.8022775777695823,-0.019997022414939433,0.5815613873238902,0.017496203628998095,-0.079491,-31.511965
11.185,2.0,1.0,1.0,33.6,34.1,34.1,2.2,1.5,2.52,0.797814014989974,-0.020464954969867624,0.5874619470915683,0.017616064284121755,-0.080572,-31.37189
11.185,2.0,1.0,1.0,33.6,34.1,34.1,2.2,1.5,2.5225,0.7932797954325088,-0.020944130829930862,0.5933596728696415,0.01773482671980518,-0.081679,-31.231008
11.185,2.0,1.0,1.0,33.6,34.1,34.1,2.2,1.5,2.525,0.7886739657739661,-0.02143488031452336,0.5992541286294478,0.017852380008815654,-0.082814,-31.089302
11.185,2.0,1.0,1.0,33.6,34.1,34.1,2.2,1.5,2.5275,0.7839955510136757,-0.021937545992156488,0.6051448616714948,0.017968606645474196,-0.083977,-30.946755
11.185,2.0,1.0,1.0,33.6,34.1,34.1,2.2,1.5,2.53,0.7792435537931311,-0.02245248323239796,0.6110314018989658,0.01808338213855809,-0.08517,-30.803348
11.185,2.0,1.0,1.0,33.6,34.1,34.1,2.2,1.5,2.5325,0.7744169536857713,-0.0229800607871228,0.6169132610531645,0.018196574576220762,-0.086394,-30.659065
11.185,2.0,1.0,1.0,33.6,34.1,34.1,2.2,1.5,2.535,0.7695147064552257,-0.023520661402864823,0.6227899319084184,0.01830804416076448,-0.08765,-30.513885
11.185,2.0,1.0,1.0,33.6,34.1,34.1,2.2,1.5,2.5375,0.7645357432802005,-0.024074682466177975,0.6286608874237268,0.018417642710916973,-0.088939,-30.367791
11.185,2.0,1.0,1.0,33.6,34.1,34.1,2.2,1.5,2.54,0.7594789699440462,-0.0246425366840508,0.6345255798482642,0.018525213129053957,-0.090261,-30.220761
11.185,2.0,1.0,1.0,33.6,34.1,34.1,2.2,1.5,2.5425,0.754343265986923,-0.025224652801555766,0.6403834397775858,0.018630588830586402,-0.09162,-30.072778
11.185,2.0,1.0,1.0,33.6,34.1,34.1,2.2,1.5,2.545,0.7491274838183294,-0.025821476359069038,0.646233875157132,0.018733593132483444,-0.093015,-29.923819
11.185,2.0,1.0,1.0,33.6,34.1,34.1,2.2,1.5,2.5475,0.7438304477876109,-0.02643347049155678,0.652076270229328,0.018834038597626734,-0.094449,-29.773863
11.185,2.0,1.0,1.0,33.6,34.1,34.1,2.2,1.5,2.55,0.7384509532098767,-0.027061116772603026,0.6579099844202998,0.018931726331395976,-0.095922,-29.62289
11.185,2.0,1.0,1.0,33.6,34.1,34.1,2.2,1.5,2.5525,0.7329877653446065,-0.027704916106037782,0.6637343511618257,0.019026445226553564,-0.097436,-29.470876
11.185,2.0,1.0,1.0,33.6,34.1,34.1,2.2,1.5,2.555,0.727439618323991,-0.028365389668232578,0.6695486766438171,0.01911797115213057,-0.098993,-29.317799
11.185,2.0,1.0,1.0,33.6,34.1,34.1,2.2,1.5,2.5575,0.721805214027869,-0.02904307990434425,0.6753522384921875,0.0192060660816205,-0.100595,-29.163636
11.185,2.0,1.0,1.0,33.6,34.1,34.1,2.2,1.5,2.56,0.7160832209018946,-0.029738551582024847,0.6811442843664933,0.01929047715533812,-0.102243,-29.008361
11.185,2.0,1.0,1.0,33.6,34.1,34.1,2.2,1.5,2.5625,0.7102722727153049,-0.030452392906367087,0.6869240304712465,0.01937093567131522,-0.103939,-28.851951
11.185,2.0,1.0,1.0,33.6,34.1,34.1,2.2,1.5,2.565,0.7043709672544152,-0.03118521670012878,0.692690659974241,0.019447155998563524,-0.105685,-28.69438
11.185,2.0,1.0,1.0,33.6,34.1,34.1,2.2,1.5,2.5675,0.6983778649476756,-0.03193766165356765,0.6984433213245929,0.019518834405933518,-0.107484,-28.535621
11.185,2.0,1.0,1.0,33.6,34.1,34.1,2.2,1.5,2.57,0.6922914874178189,-0.032710393648537214,0.7041811264625457,0.01958564779913625,-0.109337,-28.375648
11.185,2.0,1.0,1.0,33.6,34.1,34.1,2.2,1.5,2.5725,0.6861103159562948,-0.03350410716182968,0.709903148912308,0.019647252357755343,-0.111246,-28.214432
11.185,2.0,1.0,1.0,33.6,34.1,34.1,2.2,1.5,2.575,0.6798327899148443,-0.03431952675311507,0.7156084217483745,0.019703282063263168,-0.113215,-28.051946
11.185,2.0,1.0,1.0,33.6,34.1,34.1,2.2,1.5,2.5775,0.6734573050086722,-0.03515740864321851,0.7212959354248211,0.0197533471081399,-0.115246,-27.888159
11.185,2.0,1.0,1.0,33.6,34.1,34.1,2.2,1.5,2.58,0.6669822115252814,-0.03601854238889342,0.7269646354560738,0.01979703217518514,-0.117342,-27.72304
11.185,2.0,1.0,1.0,33.6,34.1,34.1,2.2,1.5,2.5825,0.6604058124325698,-0.036903752660703046,0.7326134199364572,0.01983389457498797,-0.119504,-27.55656
11.185,2.0,1.0,1.0,33.6,34.1,34.1,2.2,1.5,2.585,0.6537263613793461,-0.03781390113109971,0.7382411368845712,0.01986346222825487,-0.121737,-27.388685
11.185,2.0,1.0,1.0,33.6,34.1,34.1,2.2,1.5,2.5875,0.6469420605808824,-0.03874988848031399,0.7438465813971212,0.019885231478304042,-0.124044,-27.219381
11.185,2.0,1.0,1.0,33.6,34.1,34.1,2.2,1.5,2.59,0.640051058581609,-0.039712656528213056,0.7494284925952014,0.019898664717456063,-0.126428,-27.048615
11.185,2.0,1.0,1.0,33.6,34.1,34.1,2.2,1.5,2.5925,0.6330514478864425,-0.040703190500883134,0.7549855503442883,0.01990318780930259,-0.128893,-26.87635
11.185,2.0,1.0,1.0,33.6,34.1,34.1,2.2,1.5,2.595,0.6259412624516572,-0.041722521441317474,0.7605163717271644,0.01989818728686825,-0.131443,-26.702551
11.185,2.0,1.0,1.0,33.6,34.1,34.1,2.2,1.5,2.5975,0.618718475025498,-0.042771728774263135,0.7660195072467941,0.019883007304476088,-0.134081,-26.527179
11.185,2.0,1.0,1.0,33.6,34.1,34.1,2.2,1.5,2.6,0.611380994328075,-0.04385194303599176,0.7714934367336391,0.019856946318653982,-0.136812,-26.350194
11.185,2.0,1.0,1.0,33.6,34.1,34.1,2.2,1.5,2.6025,0.6039266620593093,-0.04496434878050977,0.776936564929087,0.019819253470637656,-0.139641,-26.171556
11.185,2.0,1.0,1.0,33.6,34.1,34.1,2.2,1.5,2.605,0.5963532497229178,-0.04611018767451939,0.7823472167135089,0.019769124639896715,-0.142573,-25.991224
11.185,2.0,1.0,1.0,33.6,34.1,34.1,2.2,1.5,2.6075,0.5886584552535947,-0.04729076179427397,0.7877236319438766,0.01970569813457926,-0.145613,-25.809153
11.185,2.0,1.0,1.0,33.6,34.1,34.1,2.2,1.5,2.61,0.5808398994336957,-0.0485074371383366,0.7930639598618455,0.0196280499807949,-0.148766,-25.625298
11.185,2.0,1.0,1.0,33.6,34.1,34.1,2.2,1.5,2.6125,0.5728951220848103,-0.04976164737115636,0.7983662530286766,0.019535188768155565,-0.152039,-25.439613
11.185,2.0,1.0,1.0,33.6,34.1,34.1,2.2,1.5,2.615,0.5648215780186977,-0.05105489781329608,0.8036284607382153,0.019426050003906216,-0.155437,-25.25205
11.185,2.0,1.0,1.0,33.6,34.1,34.1,2.2,1.5,2.6175,0.5566166327311273,-0.05238876969508542,0.8088484218533116,0.01929948992221682,-0.158969,-25.062557
11.185,2.0,1.0,1.0,33.6,34.1,34.1,2.2,1.5,2.62,0.5482775578212015,-0.05376492469141191,0.8140238570045019,0.01915427868866709,-0.162641,-24.871084
11.185,2.0,1.0,1.0,33.6,34.1,34.1,2.2,1.5,2.6225,0.539801526117822,-0.05518510975628508,0.8191523600822304,0.01898909293253292,-0.166461,-24.677577
11.185,2.0,1.0,1.0,33.6,34.1,34.1,2.2,1.5,2.625,0.531185606494078,-0.0566511622766798,0.824231388945391,0.0188025075310323,-0.170437,-24.481978
11.185,2.0,1.0,1.0,33.6,34.1,34.1,2.2,1.5,2.6275,0.5224267583494933,-0.058165015565975205,0.8292582552592564,0.018592986560076106,-0.174579,-24.28423
11.185,2.0,1.0,1.0,33.6,34.1,34.1,2.2,1.5,2.63,0.5135218257393879,-0.059728704717978275,0.8342301133647849,0.018358873315085636,-0.178896,-24.084272
11.185,2.0,1.0,1.0,33.6,34.1,34.1,2.2,1.5,2.6325,0.5044675311300629,-0.06134437284303662,0.8391439480686437,0.018098379292910634,-0.183399,-23.882041
11.185,2.0,1.0,1.0,33.6,34.1,34.1,2.2,1.5,2.635,0.49526046875822355,-0.0630142777080002,0.8439965612288419,0.017809572011537142,-0.188099,-23.677472
11.185,2.0,1.0,1.0,33.6,34.1,34.1,2.2,1.5,2.6375,0.4858970975730943,-0.06474079880171482,0.8487845569942729,0.017490361527846107,-0.193009,-23.470497
11.185,2.0,1.0,1.0,33.6,34.1,34.1,2.2,1.5,2.64,0.4763737337401434,-0.06652644484720097,0.8535043255374777,0.0171384854948339,-0.198141,-23.261044
11.185,2.0,1.0,1.0,33.6,34.1,34.1,2.2,1.5,2.6425,0.46668654268644433,-0.06837386178051758,0.8581520250980847,0.01675149257804636,-0.203509,-23.04904
11.185,2.0,1.0,1.0,33.6,34.1,34.1,2.2,1.5,2.645,0.4568315306695501,-0.07028584121437358,0.8627235621292535,0.016326724026056172,-0.20913,-22.834407
11.185,2.0,1.0,1.0,33.6,34.1,34.1,2.2,1.5,2.6475,0.44680453585466906,-0.07226532940154877,0.8672145693104953,0.015861293161086025,-0.21502,-22.617064
11.185,2.0,1.0,1.0,33.6,34.1,34.1,2.2,1.5,2.65,0.4366012188891725,-0.07431543670883477,0.8716203811568037,0.01535206252273352,-0.221198,-22.396929
11.185,2.0,1.0,1.0,33.6,34.1,34.1,2.2,1.5,2.6525,0.4262170529694999,-0.07643944760607495,0.8759360069153909,0.014795618359433741,-0.227682,-22.173913
11.185,2.0,1.0,1.0,33.6,34.1,34.1,2.2,1.5,2.655,0.4156473134037258,-0.07864083116650085,0.8801561003966132,0.014188242117945034,-0.234495,-21.947924
11.185,2.0,1.0,1.0,33.6,34.1,34.1,2.2,1.5,2.6575,0.40488706668425156,-0.08092325206323094,0.8842749263338008,0.013525878529730112,-0.241659,-21.718867
11.185,2.0,1.0,1.0,33.6,34.1,34.1,2.2,1.5,2.66,0.39393115909994575,-0.08329058203173392,0.8882863228065295,0.012804099833429217,-0.249202,-21.486642
11.185,2.0,1.0,1.0,33.6,34.1,34.1,2.2,1.5,2.6625,0.3827742049367517,-0.08574691174817137,0.8921836591919022,0.01201806560325949,-0.257151,-21.251144
11.185,2.0,1.0,1.0,33.6,34.1,34.1,2.2,1.5,2.665,0.37141057434152763,-0.08829656304749403,0.8959597890269674,0.011162477572447128,-0.265536,-21.012263
11.185,2.0,1.0,1.0,33.6,34.1,34.1,2.2,1.5,2.6675,0.35983438095763315,-0.09094410137122137,0.8996069970704871,0.01023152874673729,-0.274392,-20.769885
11.185,2.0,1.0,1.0,33.6,34.1,34.1,2.2,1.5,2.67,0.34803946948442727,-0.09369434829081115,0.9031169397415517,0.009218845993312028,-0.283755,-20.52389
11.185,2.0,1.0,1.0,33.6,34.1,34.1,2.2,1.5,2.6725,0.336019403369526,-0.09655239389553744,0.9064805779832165,0.008117425162327292,-0.293668,-20.27415
11.185,2.0,1.0,1.0,33.6,34.1,34.1,2.2,1.5,2.675,0.3237674529158821,-0.09952360876024229,0.9096881014481962,0.006919557648586828,-0.304174,-20.020535
11.185,2.0,1.0,1.0,33.6,34.1,34.1,2.2,1.5,2.6775,0.31127658418014154,-0.1026136551135047,0.9127288427268859,0.00561674712582693,-0.315324,-19.762904
11.185,2.0,1.0,1.0,33.6,34.1,34.1,2.2,1.5,2.68,0.2985394491605116,-0.10582849670464115,0.9155911801311338,0.0041996149813435845,-0.327174,-19.501114
11.185,2.0,1.0,1.0,33.6,34.1,34.1,2.2,1.5,2.6825,0.2855483779291777,-0.10917440671072096,0.9182624273052499,0.002657792739211418,-0.339786,-19.23501
11.185,2.0,1.0,1.0,33.6,34.1,34.1,2.2,1.5,2.685,0.272295373566371,-0.11265797282239344,0.9207287076525486,0.0009797994803071642,-0.353227,-18.964433
11.185,2.0,1.0,1.0,33.6,34.1,34.1,2.2,1.5,2.6875,0.25877211101348,-0.116286098386676,0.922974811235002,-0.000847098059803521,-0.367575,-18.689214
11.185,2.0,1.0,1.0,33.6,34.1,34.1,2.2,1.5,2.69,0.24496994129832617,-0.12006599814904324,0.924984031417311,-0.0028370454156935836,-0.382915,-18.409175
11.185,2.0,1.0,1.0,33.6,34.1,34.1,2.2,1.5,2.6925,0.230879903018663,-0.12400518670413807,0.9267379780772078,-0.005005783484329438,-0.399343,-18.124132
11.185,2.0,1.0,1.0,33.6,34.1,34.1,2.2,1.5,2.695,0.2164927435294167,-0.12811145720545553,0.9282163636818955,-0.0073708584445541635,-0.416967,-17.833888
11.185,2.0,1.0,1.0,33.6,34.1,34.1,2.2,1.5,2.6975,0.2017989530022142,-0.13239284716207375,0.9293967579279467,-0.009951862758060545,-0.435909,-17.538239
11.185,2.0,1.0,1.0,33.6,34.1,34.1,2.2,1.5,2.7,0.18678881546201712,-0.13685758721592367,0.9302543059505998,-0.012770712187402089,-0.456305,-17.23697
11.185,2.0,1.0,1.0,33.6,34.1,34.1,2.2,1.5,2.7025,0.17145248211905817,-0.14151402758237827,0.9307614043227955,-0.0158519645398636,-0.478312,-16.929855
11.185,2.0,1.0,1.0,33.6,34.1,34.1,2.2,1.5,2.705,0.15578007388918938,-0.14637053526637533,0.9308873281835346,-0.0192231867115889,-0.502107,-16.616658
11.185,2.0,1.0,1.0,33.6,34.1,34.1,2.2,1.5,2.7075,0.13976182204204762,-0.15143535312656364,0.9305978018670101,-0.022915377556015408,-0.527891,-16.297131
11.185,2.0,1.0,1.0,33.6,34.1,34.1,2.2,1.5,2.71,0.12338825857842357,-0.15671640920799712,0.9298545043702249,-0.02696345511145465,-0.555894,-15.971016
11.185,2.0,1.0,1.0,33.6,34.1,34.1,2.2,1.5,2.7125,0.10665047140348083,-0.1622210613131736,0.9286144999442204,-0.031406817747573604,-0.586381,-15.638046
11.185,2.0,1.0,1.0,33.6,34.1,34.1,2.2,1.5,2.715,0.08954044387621324,-0.16795575728893866,0.9268295831067482,-0.03628998974372491,-0.619656,-15.297939
11.185,2.0,1.0,1.0,33.6,34.1,34.1,2.2,1.5,2.7175,0.07205150419421003,-0.17392558565887223,0.9244455265987266,-0.041663362546543015,-0.656071,-14.950408
11.185,2.0,1.0,1.0,33.6,34.1,34.1,2.2,1.5,2.72,0.054178917724192865,-0.1801336836237244,0.9214012204843232,-0.04758404322728662,-0.696034,-14.595155
11.185,2.0,1.0,1.0,33.6,34.1,34.1,2.2,1.5,2.7225,0.035920665330234657,-0.1865804595742111,0.9176276911145695,-0.05411682108085281,-0.74002,-14.231878
11.185,2.0,1.0,1.0,33.6,34.1,34.1,2.2,1.5,2.725,0.01727846363002484,-0.1932625744718987,0.9130469906530707,-0.06133526126170201,-0.788582,-13.860268
11.185,2.0,1.0,1.0,33.6,34.1,34.1,2.2,1.5,2.7275,-0.0017409002887746807,-0.20017160997927358,0.9075709522603398,-0.06932292987734431,-0.842372,-13.480019
11.185,2.0,1.0,1.0,33.6,34.1,34.1,2.2,1.5,2.73,-0.021123825917501195,-0.2072923301566307,0.901099814330824,-0.0781747465802563,-0.902156,-13.09083
11.185,2.0,1.0,1.0,33.6,34.1,34.1,2.2,1.5,2.7325,-0.04084762749024394,-0.21460041691835938,0.8935207316289404,-0.08799844616630642,-0.968841,-12.692414
11.185,2.0,1.0,1.0,33.6,34.1,34.1,2.2,1.5,2.735,-0.06087757917897305,-0.22205952635776446,0.8847062151740458,-0.0989161066197193,-1.043503,-12.284505
11.185,2.0,1.0,1.0,33.6,34.1,34.1,2.2,1.5,2.7375,-0.08116308271120265,-0.22961747300695695,0.8745125813271449,-0.11106566241986988,-1.127431,-11.866875
11.185,2.0,1.0,1.0,33.6,34.1,34.1,2.2,1.5,2.74,-0.1016327156662754,-0.23720130262268752,0.86277855111438,-0.12460226141061638,-1.222164,-11.439349
11.185,2.0,1.0,1.0,33.6,34.1,34.1,2.2,1.5,2.7425,-0.12218786764331624,-0.2447109639124004,0.8493242339341716,-0.1396992306574236,-1.329561,-11.001832
11.185,2.0,1.0,1.0,33.6,34.1,34.1,2.2,1.5,2.745,-0.1426946234931267,-0.25201124277800624,0.83395087004426,-0.15654827700366838,-1.451866,-10.554333
11.185,2.0,1.0,1.0,33.6,34.1,34.1,2.2,1.5,2.7475,-0.1629735227803477,-0.2589215941039194,0.8164419128649046,-0.17535834244006973,-1.591804,-10.097014
11.185,2.0,1.0,1.0,33.6,34.1,34.1,2.2,1.5,2.75,-0.182786841332819,-0.265203524569999,0.79656632850677,-0.196352239898242,-1.752697,-9.630235
11.185,2.0,1.0,1.0,33.6,34.1,34.1,2.2,1.5,2.7525,-0.20182315578958654,-0.27054529692390905,0.774085399948651,-0.21975978822767805,-1.938602,-9.154626
11.185,2.0,1.0,1.0,33.6,34.1,34.1,2.2,1.5,2.755,-0.21967925273166194,-0.2745440284321647,0.7487648614083897,-0.24580563209851822,-2.154485,-8.671168
11.185,2.0,1.0,1.0,33.6,34.1,34.1,2.2,1.5,2.7575,-0.23584006802216714,-0.27668588067061434,0.7203948368804411,-0.27468929195538433,-2.406425,-8.181299
11.185,2.0,1.0,1.0,33.6,34.1,34.1,2.2,1.5,2.76,-0.24965848807132107,-0.2763261813078015,0.6888207203449004,-0.30655433685377514,-2.701848,-7.687045
11.185,2.0,1.0,1.0,33.6,34.1,34.1,2.2,1.5,2.7625,-0.2603387600604352,-0.2726732251842898,0.6539885623049285,-0.3414431606303572,-3.049762,-7.191165
11.185,2.0,1.0,1.0,33.6,34.1,34.1,2.2,1.5,2.765,-0.26693016307231826,-0.2647823874694094,0.6160081937919335,-0.37923419201547776,-3.460953,-6.697318
11.185,2.0,1.0,1.0,33.6,34.1,34.1,2.2,1.5,2.7675,-0.2683414717663556,-0.25157102525595865,0.575235302424054,-0.4195603988144211,-3.947997,-6.21023
11.185,2.0,1.0,1.0,33.6,34.1,34.1,2.2,1.5,2.77,-0.2633909209641201,-0.23186876314467045,0.5323686363740022,-0.46171298195304383,-4.524823,-5.735831
11.185,2.0,1.0,1.0,33.6,34.1,34.1,2.2,1.5,2.7725,-0.2509088496572328,-0.2045201522660852,0.48854905714752117,-0.5045435696202869,-5.205176,-5.281325
11.185,2.0,1.0,1.0,33.6,34.1,34.1,2.2,1.5,2.775,-0.22990702533572357,-0.16855344125579202,0.445433021442442,-0.5463922567392808,-5.998631,-4.855123
11.185,2.0,1.0,1.0,33.6,34.1,34.1,2.2,1.5,2.7775,-0.1998143309399934,-0.12341486238427966,0.40519738702432695,-0.585084331807925,-6.901343,-4.466573
11.185,2.0,1.0,1.0,33.6,34.1,34.1,2.2,1.5,2.78,-0.1607490320860015,-0.06923849631371658,0.3704243343551108,-0.6180463928918521,-7.876674,-4.125413
11.185,2.0,1.0,1.0,33.6,34.1,34.1,2.2,1.5,2.7825,-0.11375740001594639,-0.00708167728467162,0.3438294187816349,-0.6425781500819434,-8.822005,-3.840953
11.185,2.0,1.0,1.0,33.6,34.1,34.1,2.2,1.5,2.785,-0.06091641946376964,0.06097562612402807,0.3278443405557805,-0.6562677238549567,-9.539236,-3.621048
11.185,2.0,1.0,1.0,33.6,34.1,34.1,2.2,1.5,2.7875,-0.0052063440289719645,0.13196053257997648,0.32414142128825385,-0.657463366850467,-9.784189,-3.471045
11.185,2.0,1.0,1.0,33.6,34.1,34.1,2.2,1.5,2.79,0.049871626554406544,0.2023896464777582,0.33325026712913103,-0.6456519052007123,-9.448399,-3.392977
11.185,2.0,1.0,1.0,33.6,34.1,34.1,2.2,1.5,2.7925,0.10084665876013091,0.2688177983265579,0.35441568044433214,-0.6215963455002093,-8.671625,-3.385233
11.185,2.0,1.0,1.0,33.6,34.1,34.1,2.2,1.5,2.795,0.14482622336239726,0.32838144428381133,0.3857592896693471,-0.5871717151649579,-7.70101,-3.442807
11.185,2.0,1.0,1.0,33.6,34.1,34.1,2.2,1.5,2.7975,0.17986821307312598,0.37916580864022703,0.42468034866783005,-0.5449644104666445,-6.722203,-3.558048
11.185,2.0,1.0,1.0,33.6,34.1,34.1,2.2,1.5,2.8,0.20509203743539628,0.4203121167704346,0.46834369803781706,-0.49778664040209447,-5.826802,-3.721696
11.185,2.0,1.0,1.0,33.6,34.1,34.1,2.2,1.5,2.8025,0.22055617287509457,0.45189322243625385,0.5141016184129061,-0.448258061479914,-5.045313,-3.923919
11.185,2.0,1.0,1.0,33.6,34.1,34.1,2.2,1.5,2.805,0.2270007224667288,0.47465611233022675,0.5597618952274406,-0.3985410691783999,-4.378705,-4.155179
11.185,2.0,1.0,1.0,33.6,34.1,34.1,2.2,1.5,2.8075,0.2255610991205287,0.48973676778714353,0.6036925428404818,-0.35023854771036367,-3.816145,-4.40681
11.185,2.0,1.0,1.0,33.6,34.1,34.1,2.2,1.5,2.81,0.2175247931599131,0.49841861004163285,0.6448037356997287,-0.30441333344325117,-3.343356,-4.671328
11.185,2.0,1.0,1.0,33.6,34.1,34.1,2.2,1.5,2.8125,0.204160510799864,0.501963273174551,0.68246149580508,-0.261675014700718,-2.946194,-4.94252
11.185,2.0,1.0,1.0,33.6,34.1,34.1,2.2,1.5,2.815,0.18661821456967273,0.5015119579515861,0.7163783116617665,-0.2222892001361705,-2.612002,-5.215392
11.185,2.0,1.0,1.0,33.6,34.1,34.1,2.2,1.5,2.8175,0.16588405207872425,0.49804128074010784,0.7465088051238448,-0.18628142605101253,-2.329979,-5.486037
11.185,2.0,1.0,1.0,33.6,34.1,34.1,2.2,1.5,2.82,0.14277140086037732,0.4923548870478481,0.7729634801767428,-0.1535228725138705,-2.091126,-5.751468
11.185,2.0,1.0,1.0,33.6,34.1,34.1,2.2,1.5,2.8225,0.11793233306546369,0.48509521712389636,0.7959437026070955,-0.12379485805647782,-1.888042,-6.009452
11.185,2.0,1.0,1.0,33.6,34.1,34.1,2.2,1.5,2.825,0.09187850212746236,0.4767645101818242,0.8156959541643563,-0.09683412462484484,-1.71468,-6.258362
11.185,2.0,1.0,1.0,33.6,34.1,34.1,2.2,1.5,2.8275,0.06500468209721756,0.4677483461331503,0.8324815045613705,-0.07236278566661945,-1.566108,-6.497037
11.185,2.0,1.0,1.0,33.6,34.1,34.1,2.2,1.5,2.83,0.03761128526805517,0.45833809909026785,0.8465574819283395,-0.05010695260320075,-1.438307,-6.724684
11.185,2.0,1.0,1.0,33.6,34.1,34.1,2.2,1.5,2.8325,0.009924178140233244,0.4487506544430809,0.8581659078457007,-0.029807460892773294,-1.327994,-6.940779
