1,w,sub_t,h,l1,l2,l3,g1,g2,Freq,S11_re,S21_re,S11_img,S21_img,S11_dB,S21_dB
11.185,2.0,1.0,1.0,34.0,34.1,34.1,1.8,3.2,2.5,0.774967265503297,-0.0149587417232592,0.618374987514101,0.0101489591074982,-0.074633,-34.85764
11.185,2.0,1.0,1.0,34.0,34.1,34.1,1.8,3.2,2.5025,0.7700662413205398,-0.015266026025209612,0.6243080425678585,0.010170503836274002,-0.075514,-34.730269
11.185,2.0,1.0,1.0,34.0,34.1,34.1,1.8,3.2,2.505,0.7650911633084998,-0.015579327962905839,0.6302338237103228,0.010189738218437348,-0.076413,-34.602388
11.185,2.0,1.0,1.0,34.0,34.1,34.1,1.8,3.2,2.5075,0.760041152280752,-0.015898779222590028,0.6361517650490213,0.010206554798337182,-0.07733,-34.473988
11.185,2.0,1.0,1.0,34.0,34.1,34.1,1.8,3.2,2.51,0.754915314701082,-0.01622451481912144,0.6420612817096115,0.01022084159349141,-0.078267,-34.345058
11.185,2.0,1.0,1.0,34.0,34.1,34.1,1.8,3.2,2.5125,0.7497127424700616,-0.016556673186281304,0.6479617691681873,0.010232481889830787,-0.079223,-34.215589
11.185,2.0,1.0,1.0,34.0,34.1,34.1,1.8,3.2,2.515,0.7444325127108525,-0.016895396269387773,0.6538526025585729,0.010241354026771704,-0.080199,-34.085572
11.185,2.0,1.0,1.0,34.0,34.1,34.1,1.8,3.2,2.5175,0.7390736875544526,-0.017240829620249403,0.6597331359535402,0.010247331171559636,-0.081196,-33.954996
11.185,2.0,1.0,1.0,34.0,34.1,34.1,1.8,3.2,2.52,0.7336353139245804,-0.01759312249448611,0.6656027016188701,0.010250281082291054,-0.082213,-33.823851
11.185,2.0,1.0,1.0,34.0,34.1,34.1,1.8,3.2,2.5225,0.7281164233224631,-0.017952427951236957,0.6714606092390943,0.010250065858983937,-0.083253,-33.692127
11.185,2.0,1.0,1.0,34.0,34.1,34.1,1.8,3.2,2.525,0.7225160316117698,-0.018318902955275863,0.677306145113724,0.010246541682030194,-0.084315,-33.559813
11.185,2.0,1.0,1.0,34.0,34.1,34.1,1.8,3.2,2.5275,0.716833138803966,-0.018692708481545927,0.6831385713227017,0.01023955853732018,-0.0854,-33.426899
11.185,2.0,1.0,1.0,34.0,34.1,34.1,1.8,3.2,2.53,0.7110667288444142,-0.019074009622120375,0.6889571248597424,0.010228959927287526,-0.086508,-33.293373
11.185,2.0,1.0,1.0,34.0,34.1,34.1,1.8,3.2,2.5325,0.7052157693995414,-0.019462975695588882,0.6947610167321843,0.010214582567072618,-0.087641,-33.159224
11.185,2.0,1.0,1.0,34.0,34.1,34.1,1.8,3.2,2.535,0.6992792116454319,-0.019859780358862867,0.7005494310258816,0.010196256064955705,-0.088799,-33.024442
11.185,2.0,1.0,1.0,34.0,34.1,34.1,1.8,3.2,2.5375,0.693255990058255,-0.020264601721380924,0.7063215239336087,0.010173802586153545,-0.089982,-32.889014
11.185,2.0,1.0,1.0,34.0,34.1,34.1,1.8,3.2,2.54,0.6871450222069294,-0.020677622461689363,0.712076422745357,0.010147036499018965,-0.091192,-32.75293
11.185,2.0,1.0,1.0,34.0,34.1,34.1,1.8,3.2,2.5425,0.6809452085485053,-0.021099029946358643,0.7178132247988455,0.010115764002618422,-0.092429,-32.616177
11.185,2.0,1.0,1.0,34.0,34.1,34.1,1.8,3.2,2.545,0.6746554322267496,-0.021529016351184097,0.7235309963884444,0.010079782734597522,-0.093695,-32.478743
11.185,2.0,1.0,1.0,34.0,34.1,34.1,1.8,3.2,2.5475,0.6682745588744958,-0.021967778784605874,0.729228771630648,0.010038881358174306,-0.094989,-32.340615
11.185,2.0,1.0,1.0,34.0,34.1,34.1,1.8,3.2,2.55,0.6618014364203125,-0.022415519413265816,0.7349055512841227,0.009992839127022481,-0.096313,-32.201782
11.185,2.0,1.0,1.0,34.0,34.1,34.1,1.8,3.2,2.5525,0.6552348949001696,-0.022872445589600193,0.7405603015222437,0.00994142542672777,-0.097667,-32.062231
11.185,2.0,1.0,1.0,34.0,34.1,34.1,1.8,3.2,2.555,0.6485737462747512,-0.023338769981347377,0.7461919526559371,0.009884399291410096,-0.099053,-31.921948
11.185,2.0,1.0,1.0,34.0,34.1,34.1,1.8,3.2,2.5575,0.6418167842531812,-0.0238147107028263,0.7517993978045209,0.009821508894013913,-0.100472,-31.78092
11.185,2.0,1.0,1.0,34.0,34.1,34.1,1.8,3.2,2.56,0.6349627841239657,-0.024300491447814335,0.7573814915121029,0.00975249100866576,-0.101924,-31.639134
11.185,2.0,1.0,1.0,34.0,34.1,34.1,1.8,3.2,2.5625,0.6280105025940244,-0.024796341623825456,0.7629370483069717,0.009677070443392107,-0.10341,-31.496575
11.185,2.0,1.0,1.0,34.0,34.1,34.1,1.8,3.2,2.565,0.6209586776367507,-0.02530249648755571,0.7684648412012701,0.009594959441371976,-0.104933,-31.353231
11.185,2.0,1.0,1.0,34.0,34.1,34.1,1.8,3.2,2.5675,0.6138060283501424,-0.02581919728122715,0.773963600128078,0.009505857048777249,-0.106492,-31.209086
11.185,2.0,1.0,1.0,34.0,34.1,34.1,1.8,3.2,2.57,0.6065512548260941,-0.026346691369519865,0.7794320103128932,0.009409448447116197,-0.108089,-31.064125
11.185,2.0,1.0,1.0,34.0,34.1,34.1,1.8,3.2,2.5725,0.5991930380320615,-0.026885232376735645,0.7848687105762925,0.009305404247852528,-0.109726,-30.918334
11.185,2.0,1.0,1.0,34.0,34.1,34.1,1.8,3.2,2.575,0.5917300397064016,-0.027435080323786748,0.7902722915644022,0.009193379746917954,-0.111403,-30.771698
11.185,2.0,1.0,1.0,34.0,34.1,34.1,1.8,3.2,2.5775,0.5841609022687959,-0.027996501764543946,0.7956412939035865,0.009073014136566053,-0.113122,-30.624201
11.185,2.0,1.0,1.0,34.0,34.1,34.1,1.8,3.2,2.58,0.5764842487472944,-0.02856976992101436,0.8009742062755518,0.008943929671836815,-0.114884,-30.475826
11.185,2.0,1.0,1.0,34.0,34.1,34.1,1.8,3.2,2.5825,0.5686986827236309,-0.029155164816750134,0.8062694634088612,0.008805730788706563,-0.116691,-30.326559
11.185,2.0,1.0,1.0,34.0,34.1,34.1,1.8,3.2,2.585,0.5608027882986187,-0.029752973407803425,0.8115254439825744,0.008658003170785362,-0.118544,-30.176381
11.185,2.0,1.0,1.0,34.0,34.1,34.1,1.8,3.2,2.5875,0.5527951300795736,-0.030363489710460306,0.8167404684375036,0.008500312761202314,-0.120445,-30.025276
11.185,2.0,1.0,1.0,34.0,34.1,34.1,1.8,3.2,2.59,0.5446742531918962,-0.03098701492487832,0.8219127966902617,0.008332204716068846,-0.122396,-29.873227
11.185,2.0,1.0,1.0,34.0,34.1,34.1,1.8,3.2,2.5925,0.5364386833171074,-0.03162385755364733,0.82704062574502,0.008153202295651089,-0.124398,-29.720216
11.185,2.0,1.0,1.0,34.0,34.1,34.1,1.8,3.2,2.595,0.528086926759864,-0.03227433351416087,0.8321220871975233,0.007962805689093449,-0.126453,-29.566224
11.185,2.0,1.0,1.0,34.0,34.1,34.1,1.8,3.2,2.5975,0.5196174705466547,-0.032938766243550625,0.8371552446256091,0.0077604907682283005,-0.128563,-29.411234
11.185,2.0,1.0,1.0,34.0,34.1,34.1,1.8,3.2,2.6,0.5110287825591648,-0.03361748679477512,0.8421380908600801,0.0075457077656726655,-0.130729,-29.255225
11.185,2.0,1.0,1.0,34.0,34.1,34.1,1.8,3.2,2.6025,0.5023193117055365,-0.034310833922279106,0.8470685451293739,0.007317879872051083,-0.132955,-29.098179
11.185,2.0,1.0,1.0,34.0,34.1,34.1,1.8,3.2,2.605,0.4934874881330385,-0.03501915415544385,0.8519444500710738,0.007076401746793471,-0.135242,-28.940075
11.185,2.0,1.0,1.0,34.0,34.1,34.1,1.8,3.2,2.6075,0.4845317234859985,-0.035742801857826294,0.8567635686027989,0.006820637936531588,-0.137592,-28.780894
11.185,2.0,1.0,1.0,34.0,34.1,34.1,1.8,3.2,2.61,0.4754504112131821,-0.03648213926993715,0.8615235806445408,0.00654992119465977,-0.140008,-28.620613
11.185,2.0,1.0,1.0,34.0,34.1,34.1,1.8,3.2,2.6125,0.4662419269292009,-0.03723753653303262,0.8662220796839664,0.0062635506951270225,-0.142493,-28.459212
11.185,2.0,1.0,1.0,34.0,34.1,34.1,1.8,3.2,2.615,0.45690462883494865,-0.03800937169108194,0.8708565691756128,0.005960790132987052,-0.145048,-28.296669
11.185,2.0,1.0,1.0,34.0,34.1,34.1,1.8,3.2,2.6175,0.4474368582025519,-0.03879803066772297,0.8754244587642778,0.005640865703647543,-0.147677,-28.13296
11.185,2.0,1.0,1.0,34.0,34.1,34.1,1.8,3.2,2.62,0.4378369399308244,-0.03960390721462737,0.8799230603222289,0.005302963952122046,-0.150383,-27.968064
11.185,2.0,1.0,1.0,34.0,34.1,34.1,1.8,3.2,2.6225,0.42810318317778984,-0.04042740282725744,0.8843495837891102,0.0049462294828977295,-0.153168,-27.801955
11.185,2.0,1.0,1.0,34.0,34.1,34.1,1.8,3.2,2.625,0.41823388207751,-0.0412689266234983,0.888701132802621,0.00456976252028044,-0.156035,-27.63461
11.185,2.0,1.0,1.0,34.0,34.1,34.1,1.8,3.2,2.6275,0.40822731654910044,-0.04212889518009803,0.8929747001071996,0.004172616308261444,-0.158989,-27.466003
11.185,2.0,1.0,1.0,34.0,34.1,34.1,1.8,3.2,2.63,0.39808175320666206,-0.04300773232121721,0.8971671627269721,0.003753794338061429,-0.162033,-27.296109
11.185,2.0,1.0,1.0,34.0,34.1,34.1,1.8,3.2,2.6325,0.3877954463796967,-0.043905868852688726,0.9012752768882363,0.003312247390543484,-0.16517,-27.124902
11.185,2.0,1.0,1.0,34.0,34.1,34.1,1.8,3.2,2.635,0.3773666392545556,-0.04482374223479142,0.9052956726756345,0.002846870379630127,-0.168404,-26.952354
11.185,2.0,1.0,1.0,34.0,34.1,34.1,1.8,3.2,2.6375,0.3667935651485668,-0.045761796185447456,0.9092248484049604,0.002356498981720274,-0.171739,-26.778438
11.185,2.0,1.0,1.0,34.0,34.1,34.1,1.8,3.2,2.64,0.3560744489296578,-0.04672048020474426,0.9130591646942745,0.001839906034848053,-0.17518,-26.603124
11.185,2.0,1.0,1.0,34.0,34.1,34.1,1.8,3.2,2.6425,0.3452075085957002,-0.04770024901053893,0.9167948382135381,0.0012957976899726895,-0.178731,-26.426383
11.185,2.0,1.0,1.0,34.0,34.1,34.1,1.8,3.2,2.645,0.3341909570292612,-0.04870156187361698,0.920427935091491,0.0007228092953044336,-0.182397,-26.248186
11.185,2.0,1.0,1.0,34.0,34.1,34.1,1.8,3.2,2.6475,0.32302300394518146,-0.04972488183941852,0.923954363956768,0.0001195009929597047,-0.186184,-26.0685
11.185,2.0,1.0,1.0,34.0,34.1,34.1,1.8,3.2,2.65,0.3117018580502501,-0.050770674821699106,0.9273698685884891,-0.0005156469945231155,-0.190096,-25.887293
11.185,2.0,1.0,1.0,34.0,34.1,34.1,1.8,3.2,2.6525,0.3002257294364661,-0.051839408551618345,0.9306700201495121,-0.001184239412187587,-0.194139,-25.704533
11.185,2.0,1.0,1.0,34.0,34.1,34.1,1.8,3.2,2.655,0.2885928322316681,-0.0529315513636425,0.9338502089734325,-0.0018879713816607575,-0.19832,-25.520186
11.185,2.0,1.0,1.0,34.0,34.1,34.1,1.8,3.2,2.6575,0.2768013875341022,-0.054047570797235475,0.9369056358740423,-0.0026286341999035836,-0.202645,-25.334216
11.185,2.0,1.0,1.0,34.0,34.1,34.1,1.8,3.2,2.66,0.2648496266605084,-0.055187931990591105,0.9398313029433967,-0.0034081215589488725,-0.20712,-25.146587
11.185,2.0,1.0,1.0,34.0,34.1,34.1,1.8,3.2,2.6625,0.25273579474075686,-0.05635309583955726,0.9426220038018769,-0.004228436220571426,-0.211753,-24.957261
11.185,2.0,1.0,1.0,34.0,34.1,34.1,1.8,3.2,2.665,0.2404581546959359,-0.05754351689137644,0.9452723132605935,-0.005091697182786005,-0.216552,-24.766201
11.185,2.0,1.0,1.0,34.0,34.1,34.1,1.8,3.2,2.6675,0.22801499164123754,-0.05875964093884869,0.9477765763531847,-0.006000147378279838,-0.221524,-24.573367
11.185,2.0,1.0,1.0,34.0,34.1,34.1,1.8,3.2,2.67,0.2154046177599319,-0.06000190227594765,0.9501288966904745,-0.006956161948384719,-0.226679,-24.378718
11.185,2.0,1.0,1.0,34.0,34.1,34.1,1.8,3.2,2.6725,0.2026253777004108,-0.06127072057069585,0.9523231240875863,-0.007962257139997014,-0.232025,-24.182211
11.185,2.0,1.0,1.0,34.0,34.1,34.1,1.8,3.2,2.675,0.18967565455472793,-0.06256649730513748,0.954352841408836,-0.009021099876983029,-0.237573,-23.983803
11.185,2.0,1.0,1.0,34.0,34.1,34.1,1.8,3.2,2.6775,0.17655387648437038,-0.06388961172542874,0.9562113505711912,-0.010135518062098826,-0.243332,-23.783449
11.185,2.0,1.0,1.0,34.0,34.1,34.1,1.8,3.2,2.68,0.16325852406735564,-0.06524041623725976,0.9578916576420785,-0.011308511670308554,-0.249315,-23.581102
11.185,2.0,1.0,1.0,34.0,34.1,34.1,1.8,3.2,2.6825,0.14978813845028524,-0.06661923117287456,0.9593864569619568,-0.012543264699647467,-0.255533,-23.376714
11.185,2.0,1.0,1.0,34.0,34.1,34.1,1.8,3.2,2.685,0.13614133039986306,-0.0680263388457065,0.9606881142162937,-0.013843158051454786,-0.261999,-23.170236
11.185,2.0,1.0,1.0,34.0,34.1,34.1,1.8,3.2,2.6875,0.122316790360841,-0.0694619767968635,0.961788648375309,-0.015211783417911,-0.268727,-22.961616
11.185,2.0,1.0,1.0,34.0,34.1,34.1,1.8,3.2,2.69,0.10831329964165876,-0.07092633012416807,0.9626797124131748,-0.016652958261374383,-0.275731,-22.750801
11.185,2.0,1.0,1.0,34.0,34.1,34.1,1.8,3.2,2.6925,0.09412974286534886,-0.07241952276888447,0.9633525727111933,-0.01817074197702898,-0.283028,-22.537736
11.185,2.0,1.0,1.0,34.0,34.1,34.1,1.8,3.2,2.695,0.07976512184218644,-0.07394160761732814,0.9637980870418548,-0.019769453337803587,-0.290634,-22.322364
11.185,2.0,1.0,1.0,34.0,34.1,34.1,1.8,3.2,2.6975,0.06521857104206308,-0.07549255525387623,0.9640066810226229,-0.021453689328418252,-0.298567,-22.104625
11.185,2.0,1.0,1.0,34.0,34.1,34.1,1.8,3.2,2.7,0.050489374869609895,-0.0770722411780206,0.963968322919861,-0.023228345483671628,-0.306847,-21.88446
11.185,2.0,1.0,1.0,34.0,34.1,34.1,1.8,3.2,2.7025,0.03557698697368065,-0.07868043127052674,0.9636724966745022,-0.025098637854681298,-0.315496,-21.661805
11.185,2.0,1.0,1.0,34.0,34.1,34.1,1.8,3.2,2.705,0.020481051856081785,-0.08031676526184796,0.9631081730120815,-0.02707012673558849,-0.324535,-21.436594
11.185,2.0,1.0,1.0,34.0,34.1,34.1,1.8,3.2,2.7075,0.005201429082647805,-0.08198073791900169,0.9622637784906529,-0.029148742292115427,-0.33399,-21.20876
11.185,2.0,1.0,1.0,34.0,34.1,34.1,1.8,3.2,2.71,-0.010261779555795207,-0.08367167762427986,0.9611271623311407,-0.03134081224209066,-0.343888,-20.978232
11.185,2.0,1.0,1.0,34.0,34.1,34.1,1.8,3.2,2.7125,-0.025908199533761597,-0.08538872196948057,0.9596855608661757,-0.0336530917463554,-0.354257,-20.744938
11.185,2.0,1.0,1.0,34.0,34.1,34.1,1.8,3.2,2.715,-0.04173714927425516,-0.08713078993162984,0.9579255594357463,-0.036092795675918096,-0.365128,-20.508802
11.185,2.0,1.0,1.0,34.0,34.1,34.1,1.8,3.2,2.7175,-0.05774760149715884,-0.0888965501290827,0.9558330515516678,-0.03866763342731647,-0.376536,-20.269746
11.185,2.0,1.0,1.0,34.0,34.1,34.1,1.8,3.2,2.72,-0.07393813962487025,-0.09068438457884354,0.9533931951486538,-0.04138584646214078,-0.388517,-20.027689
11.185,2.0,1.0,1.0,34.0,34.1,34.1,1.8,3.2,2.7225,-0.0903069085437867,-0.09249234728509141,0.9505903657385839,-0.04425624874764133,-0.401112,-19.782548
11.185,2.0,1.0,1.0,34.0,34.1,34.1,1.8,3.2,2.725,-0.10685155891137818,-0.09431811688302158,0.9474081062876936,-0.047288270272004704,-0.414364,-19.534234
11.185,2.0,1.0,1.0,34.0,34.1,34.1,1.8,3.2,2.7275,-0.12356918407200049,-0.09615894243874122,0.9438290736455408,-0.050492003798640446,-0.428322,-19.282658
11.185,2.0,1.0,1.0,34.0,34.1,34.1,1.8,3.2,2.73,-0.14045624849688104,-0.09801158136204242,0.9398349813718689,-0.053878255006474376,-0.443037,-19.027727
11.185,2.0,1.0,1.0,34.0,34.1,34.1,1.8,3.2,2.7325,-0.1575085064917478,-0.09987222822105167,0.9354065388357136,-0.05745859613505038,-0.458568,-18.769343
11.185,2.0,1.0,1.0,34.0,34.1,34.1,1.8,3.2,2.735,-0.17472090971494247,-0.101736433051968,0.930523386504013,-0.06124542321052112,-0.474976,-18.507407
11.185,2.0,1.0,1.0,34.0,34.1,34.1,1.8,3.2,2.7375,-0.19208750181515852,-0.10359900752879443,0.9251640273993263,-0.06525201686667471,-0.492331,-18.241816
11.185,2.0,1.0,1.0,34.0,34.1,34.1,1.8,3.2,2.74,-0.20960129822558327,-0.10545391709184436,0.9193057547942282,-0.06949260668784682,-0.51071,-17.972461
11.185,2.0,1.0,1.0,34.0,34.1,34.1,1.8,3.2,2.7425,-0.22725414883429346,-0.10729415682389831,0.9129245763315805,-0.07398243888003603,-0.530196,-17.699233
11.185,2.0,1.0,1.0,34.0,34.1,34.1,1.8,3.2,2.745,-0.2450365808822216,-0.10911160850247303,0.9059951349255034,-0.07873784691249261,-0.550881,-17.422017
11.185,2.0,1.0,1.0,34.0,34.1,34.1,1.8,3.2,2.7475,-0.26293761901247564,-0.11089687583832587,0.8984906270209276,-0.08377632455133746,-0.572869,-17.140695
11.185,2.0,1.0,1.0,34.0,34.1,34.1,1.8,3.2,2.75,-0.280944578899971,-0.11263909442604,0.890382719087242,-0.0891166004123236,-0.596274,-16.855148
11.185,2.0,1.0,1.0,34.0,34.1,34.1,1.8,3.2,2.7525,-0.2990428303196774,-0.11432571237390272,0.8816414636161288,-0.09477871276978139,-0.62122,-16.56525
11.185,2.0,1.0,1.0,34.0,34.1,34.1,1.8,3.2,2.755,-0.31721552485673943,-0.11594223693898652,0.8722352164136352,-0.10078408284489151,-0.647851,-16.270874
11.185,2.0,1.0,1.0,34.0,34.1,34.1,1.8,3.2,2.7575,-0.3354432827146397,-0.11747194176174676,0.8621305576586078,-0.10715558412256183,-0.676321,-15.97189
11.185,2.0,1.0,1.0,34.0,34.1,34.1,1.8,3.2,2.76,-0.35370383223228447,-0.11889552846688305,0.8512922200908027,-0.11391760436595876,-0.706808,-15.668165
11.185,2.0,1.0,1.0,34.0,34.1,34.1,1.8,3.2,2.7625,-0.3719715947756326,-0.12019073547166188,0.8396830288521906,-0.12109609585210258,-0.739507,-15.359566
11.185,2.0,1.0,1.0,34.0,34.1,34.1,1.8,3.2,2.765,-0.3902172066281991,-0.12133188582374636,0.8272638590106652,-0.12871860786548464,-0.77464,-15.045957
11.185,2.0,1.0,1.0,34.0,34.1,34.1,1.8,3.2,2.7675,-0.40840696838264123,-0.1222893647927122,0.813993618743141,-0.13681429356413044,-0.812455,-14.727203
11.185,2.0,1.0,1.0,34.0,34.1,34.1,1.8,3.2,2.77,-0.4265022111642262,-0.12302901679426222,0.7998292686667495,-0.14541388085381476,-0.853232,-14.403167
11.185,2.0,1.0,1.0,34.0,34.1,34.1,1.8,3.2,2.7725,-0.44445856785355314,-0.12351145009040605,0.784725891034723,-0.15454959372120103,-0.897289,-14.073719
11.185,2.0,1.0,1.0,34.0,34.1,34.1,1.8,3.2,2.775,-0.46222513641649193,-0.12369123667741859,0.7686368266456526,-0.16425500640013557,-0.944984,-13.738729
11.185,2.0,1.0,1.0,34.0,34.1,34.1,1.8,3.2,2.7775,-0.47974352164671313,-0.12351599399730624,0.7515139025806178,-0.17456480755106593,-0.996728,-13.398076
11.185,2.0,1.0,1.0,34.0,34.1,34.1,1.8,3.2,2.78,-0.4969467413164896,-0.12292533482086553,0.733307780556351,-0.18551444505140235,-1.052984,-13.051646
11.185,2.0,1.0,1.0,34.0,34.1,34.1,1.8,3.2,2.7825,-0.5137579832697834,-0.12184967220194845,0.7139684640831344,-0.19713961371042413,-1.114284,-12.699338
11.185,2.0,1.0,1.0,34.0,34.1,34.1,1.8,3.2,2.785,-0.5300892019025472,-0.1202088683106699,0.6934460130986833,-0.2094755378861943,-1.181237,-12.341067
11.185,2.0,1.0,1.0,34.0,34.1,34.1,1.8,3.2,2.7875,-0.5458395465181706,-0.1179107199678061,0.6716915276838766,-0.22255598822973346,-1.254542,-11.976772
11.185,2.0,1.0,1.0,34.0,34.1,34.1,1.8,3.2,2.79,-0.5608936213042944,-0.11484928089163902,0.6486584781898181,-0.2364119562819987,-1.335003,-11.606416
11.185,2.0,1.0,1.0,34.0,34.1,34.1,1.8,3.2,2.7925,-0.5751195886655244,-0.11090303252635492,0.6243044778363698,-0.25106989218828274,-1.423548,-11.229999
11.185,2.0,1.0,1.0,34.0,34.1,34.1,1.8,3.2,2.795,-0.5883671464427078,-0.10593293389643388,0.5985936155263893,-0.2665493894269333,-1.52125,-10.847566
11.185,2.0,1.0,1.0,34.0,34.1,34.1,1.8,3.2,2.7975,-0.6004654379324672,-0.09978040896456952,0.571499490683281,-0.2828601767431614,-1.629355,-10.459215
11.185,2.0,1.0,1.0,34.0,34.1,34.1,1.8,3.2,2.8,-0.6112209951930352,-0.0922653710122476,0.5430091168698371,-0.29999825290814824,-1.749311,-10.065115
11.185,2.0,1.0,1.0,34.0,34.1,34.1,1.8,3.2,2.8025,-0.6204158753514021,-0.08318444201518227,0.5131278837741534,-0.3179409774594853,-1.882802,-9.665516
11.185,2.0,1.0,1.0,34.0,34.1,34.1,1.8,3.2,2.805,-0.6278062316985301,-0.07230960595958007,0.4818857824547264,-0.3366409155480068,-2.031797,-9.260772
11.185,2.0,1.0,1.0,34.0,34.1,34.1,1.8,3.2,2.8075,-0.6331216716456105,-0.05938764382942182,0.44934509754653934,-0.3560182362709047,-2.198599,-8.85136
11.185,2.0,1.0,1.0,34.0,34.1,34.1,1.8,3.2,2.81,-0.6360658964419843,-0.044140838845346926,0.41560973840278054,-0.37595149525695715,-2.3859,-8.437904
11.185,2.0,1.0,1.0,34.0,34.1,34.1,1.8,3.2,2.8125,-0.636319293815245,-0.0262696143153188,0.380836298164812,-0.396266714211989,-2.596859,-8.021204
11.185,2.0,1.0,1.0,34.0,34.1,34.1,1.8,3.2,2.815,-0.6335443576900963,-0.005457966543501092,0.34524676689246003,-0.41672483084386414,-2.835177,-7.602267
11.185,2.0,1.0,1.0,34.0,34.1,34.1,1.8,3.2,2.8175,-0.6273950180677231,0.01861723890183743,0.30914254586437545,-0.4370078678175194,-3.105192,-7.18234
11.185,2.0,1.0,1.0,34.0,34.1,34.1,1.8,3.2,2.82,-0.6175311349206754,0.046271871122173985,0.27291897474115917,-0.4567045987669376,-3.411976,-6.762939
11.185,2.0,1.0,1.0,34.0,34.1,34.1,1.8,3.2,2.8225,-0.6036394642898516,0.077793748360811,0.23707895757577963,-0.4752971062620511,-3.761441,-6.345884
11.185,2.0,1.0,1.0,34.0,34.1,34.1,1.8,3.2,2.825,-0.585462220829584,0.11341435513173016,0.20224345093671325,-0.49215043751934334,-4.160439,-5.933323
11.185,2.0,1.0,1.0,34.0,34.1,34.1,1.8,3.2,2.8275,-0.5628337734693228,0.15327253386015377,0.16915561286383252,-0.5065085140252952,-4.616834,-5.527747
11.185,2.0,1.0,1.0,34.0,34.1,34.1,1.8,3.2,2.83,-0.53572483364985,0.19737078376782335,0.13867446957995416,-0.517500378745736,-5.139498,-5.131986
