1,w,sub_t,h,l1,l2,l3,g1,g2,Freq,S11_re,S21_re,S11_img,S21_img,S11_dB,S21_dB
11.185,2.0,1.0,1.0,34.8,34.2,34.2,1.7,3.6,2.5,0.627219510263691,-0.0203173493941719,0.765697740901466,0.0077421994721839,-0.089081,-33.25381
11.185,2.0,1.0,1.0,34.8,34.2,34.2,1.7,3.6,2.5025,0.6201558037501425,-0.020689021517777604,0.7712640883729638,0.007655832596985168,-0.090215,-33.127856
11.185,2.0,1.0,1.0,34.8,34.2,34.2,1.7,3.6,2.505,0.6129968181885742,-0.02106686255997163,0.7767981963731279,0.007563894072660516,-0.091372,-33.001404
11.185,2.0,1.0,1.0,34.8,34.2,34.2,1.7,3.6,2.5075,0.6057415771622078,-0.021450966688587952,0.7822988076041281,0.007466179840883113,-0.092553,-32.874447
11.185,2.0,1.0,1.0,34.8,34.2,34.2,1.7,3.6,2.51,0.5983890971933967,-0.02184142875080411,0.787764627482476,0.007362478432703868,-0.093759,-32.746977
11.185,2.0,1.0,1.0,34.8,34.2,34.2,1.7,3.6,2.5125,0.5909383880472445,-0.022238344211723753,0.7931943230307432,0.007252570683840636,-0.094989,-32.618986
11.185,2.0,1.0,1.0,34.8,34.2,34.2,1.7,3.6,2.515,0.583388453061084,-0.022641809086860993,0.7985865217372727,0.007136229438380314,-0.096245,-32.490465
11.185,2.0,1.0,1.0,34.8,34.2,34.2,1.7,3.6,2.5175,0.5757382895012925,-0.02305191986808576,0.8039398103830088,0.0070132192403946575,-0.097527,-32.361407
11.185,2.0,1.0,1.0,34.8,34.2,34.2,1.7,3.6,2.52,0.5679868889489738,-0.02346877344256015,0.8092527338346216,0.0068832960129496445,-0.098836,-32.231804
11.185,2.0,1.0,1.0,34.8,34.2,34.2,1.7,3.6,2.5225,0.5601332377161458,-0.023892467004160152,0.8145237938029936,0.0067462067239633695,-0.100173,-32.101646
11.185,2.0,1.0,1.0,34.8,34.2,34.2,1.7,3.6,2.525,0.5521763172941109,-0.02432309795684715,0.8197514475662223,0.006601689038343124,-0.101538,-31.970927
11.185,2.0,1.0,1.0,34.8,34.2,34.2,1.7,3.6,2.5275,0.5441151048358188,-0.024760763809412067,0.8249341066562118,0.006449470955806733,-0.102933,-31.839636
11.185,2.0,1.0,1.0,34.8,34.2,34.2,1.7,3.6,2.53,0.5359485736741093,-0.0252055620609777,0.8300701355079186,0.006289270433764886,-0.104357,-31.707765
11.185,2.0,1.0,1.0,34.8,34.2,34.2,1.7,3.6,2.5325,0.5276756938778036,-0.025657590076600602,0.8351578500703284,0.006120794994613672,-0.105812,-31.575305
11.185,2.0,1.0,1.0,34.8,34.2,34.2,1.7,3.6,2.535,0.5192954328477329,-0.026116944952269728,0.8401955163781998,0.005943741316756164,-0.107299,-31.442248
11.185,2.0,1.0,1.0,34.8,34.2,34.2,1.7,3.6,2.5375,0.5108067559549175,-0.0265837233685474,0.8451813490836259,0.005757794808640345,-0.108818,-31.308583
11.185,2.0,1.0,1.0,34.8,34.2,34.2,1.7,3.6,2.54,0.5022086272231748,-0.027058021432048242,0.8501135099464029,0.005562629165068078,-0.11037,-31.174303
11.185,2.0,1.0,1.0,34.8,34.2,34.2,1.7,3.6,2.5425,0.4935000100585895,-0.027539934503893325,0.8549901062822486,0.005357905904995122,-0.111957,-31.039397
11.185,2.0,1.0,1.0,34.8,34.2,34.2,1.7,3.6,2.545,0.4846798680284149,-0.02802955701421704,0.8598091893678479,0.005143273890005417,-0.113579,-30.903855
11.185,2.0,1.0,1.0,34.8,34.2,34.2,1.7,3.6,2.5475,0.47574716569207526,-0.028526982261737287,0.8645687528017121,0.00491836882260663,-0.115238,-30.767668
11.185,2.0,1.0,1.0,34.8,34.2,34.2,1.7,3.6,2.55,0.46670086948708467,-0.029032302197333455,0.8692667308198389,0.00468281272345119,-0.116933,-30.630827
11.185,2.0,1.0,1.0,34.8,34.2,34.2,1.7,3.6,2.5525,0.45753994867288095,-0.029545607190495534,0.8739009965651234,0.004436213386548714,-0.118667,-30.49332
11.185,2.0,1.0,1.0,34.8,34.2,34.2,1.7,3.6,2.555,0.44826337633567676,-0.030066985777433282,0.8784693603094915,0.00417816381148868,-0.120441,-30.355138
11.185,2.0,1.0,1.0,34.8,34.2,34.2,1.7,3.6,2.5575,0.43887013045761714,-0.03059652438954194,0.8829695676277156,0.003908241611647893,-0.122255,-30.21627
11.185,2.0,1.0,1.0,34.8,34.2,34.2,1.7,3.6,2.56,0.4293591950537243,-0.031134307060830986,0.8873992975218337,0.0036260083973090915,-0.124111,-30.076705
11.185,2.0,1.0,1.0,34.8,34.2,34.2,1.7,3.6,2.5625,0.4197295613802518,-0.03168041511281903,0.8917561604951396,0.003331009132565209,-0.12601,-29.936434
11.185,2.0,1.0,1.0,34.8,34.2,34.2,1.7,3.6,2.565,0.4099802292182883,-0.03223492681529211,0.8960376965746831,0.0030227714648316494,-0.127954,-29.795444
11.185,2.0,1.0,1.0,34.8,34.2,34.2,1.7,3.6,2.5675,0.40011020823665533,-0.03279791702120239,0.9002413732811917,0.002700805025732656,-0.129943,-29.653725
11.185,2.0,1.0,1.0,34.8,34.2,34.2,1.7,3.6,2.57,0.3901185194383406,-0.03336945677386149,0.9043645835453956,0.002364600702069391,-0.131979,-29.511265
11.185,2.0,1.0,1.0,34.8,34.2,34.2,1.7,3.6,2.5725,0.38000419669493807,-0.03394961288444406,0.9084046435696661,0.0020136298755154473,-0.134064,-29.368052
11.185,2.0,1.0,1.0,34.8,34.2,34.2,1.7,3.6,2.575,0.36976628837381786,-0.03453844747767221,0.9123587906339319,0.0016473436296220456,-0.136199,-29.224075
11.185,2.0,1.0,1.0,34.8,34.2,34.2,1.7,3.6,2.5775,0.3594038590629889,-0.035136017503390696,0.9162241808448204,0.0012651719226460991,-0.138385,-29.079322
11.185,2.0,1.0,1.0,34.8,34.2,34.2,1.7,3.6,2.58,0.34891599139888874,-0.03574237421157486,0.9199978868269887,0.0008665227246450066,-0.140625,-28.93378
11.185,2.0,1.0,1.0,34.8,34.2,34.2,1.7,3.6,2.5825,0.3383017880026104,-0.036357562588123775,0.9236768953556174,0.000450781117205557,-0.14292,-28.787437
11.185,2.0,1.0,1.0,34.8,34.2,34.2,1.7,3.6,2.585,0.32756037353039447,-0.03698162074859529,0.9272581049290596,1.73083540986491e-05,-0.145271,-28.64028
11.185,2.0,1.0,1.0,34.8,34.2,34.2,1.7,3.6,2.5875,0.3166908968444992,-0.037614579286819216,0.9307383232806536,-0.00043455911893283943,-0.147681,-28.492296
11.185,2.0,1.0,1.0,34.8,34.2,34.2,1.7,3.6,2.59,0.3056925333109516,-0.038256460575092036,0.934114264828705,-0.0009055106871285733,-0.150151,-28.343472
11.185,2.0,1.0,1.0,34.8,34.2,34.2,1.7,3.6,2.5925,0.29456448723097184,-0.03890727801240172,0.9373825480637149,-0.0013962626343762628,-0.152683,-28.193793
11.185,2.0,1.0,1.0,34.8,34.2,34.2,1.7,3.6,2.595,0.2833059944133276,-0.03956703521685439,0.9405396928719101,-0.0019075592576468737,-0.15528,-28.043247
11.185,2.0,1.0,1.0,34.8,34.2,34.2,1.7,3.6,2.5975,0.2719163248951896,-0.04023572515817625,0.9435821177941792,-0.0024401740303604718,-0.157943,-27.891819
11.185,2.0,1.0,1.0,34.8,34.2,34.2,1.7,3.6,2.6,0.2603947858195725,-0.04091332922583925,0.9465061372195712,-0.002994910816943643,-0.160675,-27.739494
11.185,2.0,1.0,1.0,34.8,34.2,34.2,1.7,3.6,2.6025,0.24874072447786463,-0.04159981622800225,0.9493079585125074,-0.0035726051409469637,-0.163478,-27.586258
11.185,2.0,1.0,1.0,34.8,34.2,34.2,1.7,3.6,2.605,0.23695353152643625,-0.042295141316080455,0.9519836790729451,-0.004174125509205007,-0.166354,-27.432096
11.185,2.0,1.0,1.0,34.8,34.2,34.2,1.7,3.6,2.6075,0.22503264438688636,-0.04299924482933225,0.9545292833287569,-0.0048003747946348315,-0.169307,-27.276991
11.185,2.0,1.0,1.0,34.8,34.2,34.2,1.7,3.6,2.61,0.21297755084000514,-0.04371205105339946,0.9569406396596344,-0.005452291680392561,-0.172338,-27.120929
11.185,2.0,1.0,1.0,34.8,34.2,34.2,1.7,3.6,2.6125,0.20078779282414702,-0.04443346688624098,0.9592134972518999,-0.006130852168232533,-0.17545,-26.963892
11.185,2.0,1.0,1.0,34.8,34.2,34.2,1.7,3.6,2.615,0.18846297044938057,-0.04516338040435532,0.9613434828836749,-0.006837071154044748,-0.178647,-26.805865
11.185,2.0,1.0,1.0,34.8,34.2,34.2,1.7,3.6,2.6175,0.17600274623945014,-0.0459016593215984,0.963326097639894,-0.007572004073679378,-0.181931,-26.64683
11.185,2.0,1.0,1.0,34.8,34.2,34.2,1.7,3.6,2.62,0.1634068496143454,-0.04664814933225365,0.965156713556779,-0.008336748622308935,-0.185306,-26.48677
11.185,2.0,1.0,1.0,34.8,34.2,34.2,1.7,3.6,2.6225,0.15067508162707421,-0.0474026723293084,0.9668305701954367,-0.009132446550719283,-0.188774,-26.325667
11.185,2.0,1.0,1.0,34.8,34.2,34.2,1.7,3.6,2.625,0.137807319969144,-0.0481650244881111,0.968342771144342,-0.00996028554206662,-0.192339,-26.163503
11.185,2.0,1.0,1.0,34.8,34.2,34.2,1.7,3.6,2.6275,0.12480352426012153,-0.048934974204741584,0.9696882804505927,-0.010821501172788711,-0.196006,-26.000259
11.185,2.0,1.0,1.0,34.8,34.2,34.2,1.7,3.6,2.63,0.11166374163775043,-0.04971225987749294,0.9708619189799288,-0.011717378961505938,-0.199777,-25.835916
11.185,2.0,1.0,1.0,34.8,34.2,34.2,1.7,3.6,2.6325,0.09838811266614421,-0.05049658751884488,0.9718583607056158,-0.01264925650990083,-0.203656,-25.670453
11.185,2.0,1.0,1.0,34.8,34.2,34.2,1.7,3.6,2.635,0.08497687758081031,-0.051287628184187334,0.9726721289264667,-0.01361852573971334,-0.207649,-25.503851
11.185,2.0,1.0,1.0,34.8,34.2,34.2,1.7,3.6,2.6375,0.07143038289056491,-0.05208501520232071,0.973297592414416,-0.01462663523013752,-0.211758,-25.336088
11.185,2.0,1.0,1.0,34.8,34.2,34.2,1.7,3.6,2.64,0.05774908835778213,-0.05288834119140392,0.9737289614922434,-0.01567509266004835,-0.215989,-25.167144
11.185,2.0,1.0,1.0,34.8,34.2,34.2,1.7,3.6,2.6425,0.04393357438004085,-0.05369715484252603,0.9739602840422301,-0.016765467359620857,-0.220347,-24.996997
11.185,2.0,1.0,1.0,34.8,34.2,34.2,1.7,3.6,2.645,0.029984549797869565,-0.05451095745143295,0.9739854414467696,-0.017899392976029403,-0.224837,-24.825622
11.185,2.0,1.0,1.0,34.8,34.2,34.2,1.7,3.6,2.6475,0.015902860155196957,-0.05532919917711897,0.9737981444622074,-0.019078570258021843,-0.229463,-24.652998
11.185,2.0,1.0,1.0,34.8,34.2,34.2,1.7,3.6,2.65,0.0016894964410943264,-0.05615127500399409,0.9733919290274459,-0.02030476996425681,-0.234232,-24.479101
11.185,2.0,1.0,1.0,34.8,34.2,34.2,1.7,3.6,2.6525,-0.012654395656268757,-0.056976520382105315,0.9727601520092141,-0.021579835900345595,-0.23915,-24.303905
11.185,2.0,1.0,1.0,34.8,34.2,34.2,1.7,3.6,2.655,-0.027127505950178925,-0.057804206517448276,0.9718959868862382,-0.022905688089580326,-0.244222,-24.127385
11.185,2.0,1.0,1.0,34.8,34.2,34.2,1.7,3.6,2.6575,-0.04172834937436786,-0.05863353528167353,0.9707924193750084,-0.024284326082306087,-0.249456,-23.949515
11.185,2.0,1.0,1.0,34.8,34.2,34.2,1.7,3.6,2.66,-0.05645525498139972,-0.05946363370748104,0.9694422430003189,-0.025717832408831236,-0.254858,-23.770268
11.185,2.0,1.0,1.0,34.8,34.2,34.2,1.7,3.6,2.6625,-0.07130635427807855,-0.060293548032643696,0.967838054614337,-0.027208376180632807,-0.260436,-23.589616
11.185,2.0,1.0,1.0,34.8,34.2,34.2,1.7,3.6,2.665,-0.08627956885187428,-0.061122237251885904,0.9659722498686386,-0.02875821684439786,-0.266197,-23.407531
11.185,2.0,1.0,1.0,34.8,34.2,34.2,1.7,3.6,2.6675,-0.1013725972382139,-0.061948566131699974,0.9638370186444032,-0.030369708093114657,-0.27215,-23.223982
11.185,2.0,1.0,1.0,34.8,34.2,34.2,1.7,3.6,2.67,-0.11658290097404585,-0.062771297638587,0.9614243404469321,-0.03204530193798736,-0.278303,-23.038938
11.185,2.0,1.0,1.0,34.8,34.2,34.2,1.7,3.6,2.6725,-0.1319076897780038,-0.06358908472607355,0.958725979771696,-0.03378755294434211,-0.284666,-22.85237
11.185,2.0,1.0,1.0,34.8,34.2,34.2,1.7,3.6,2.675,-0.14734390579190146,-0.06440046142014208,0.9557334814504168,-0.035599122633903024,-0.291249,-22.664242
11.185,2.0,1.0,1.0,34.8,34.2,34.2,1.7,3.6,2.6775,-0.1628882068120556,-0.06520383313632684,0.9524381659871992,-0.03748278405480161,-0.298061,-22.474523
11.185,2.0,1.0,1.0,34.8,34.2,34.2,1.7,3.6,2.68,-0.1785369484319638,-0.06599746615460325,0.9488311248965502,-0.03944142651938573,-0.305114,-22.283176
11.185,2.0,1.0,1.0,34.8,34.2,34.2,1.7,3.6,2.6825,-0.19428616501003435,-0.06677947617022367,0.9449032160572305,-0.041478060508259855,-0.31242,-22.090166
11.185,2.0,1.0,1.0,34.8,34.2,34.2,1.7,3.6,2.685,-0.2101315493673954,-0.06754781582974236,0.9406450590984651,-0.04359582273695226,-0.319991,-21.895455
11.185,2.0,1.0,1.0,34.8,34.2,34.2,1.7,3.6,2.6875,-0.22606843111099,-0.068300261151483,0.936047030838071,-0.0457979813790658,-0.32784,-21.699004
11.185,2.0,1.0,1.0,34.8,34.2,34.2,1.7,3.6,2.69,-0.24209175346622086,-0.06903439671851701,0.9310992607957123,-0.048087941436636826,-0.335981,-21.500773
11.185,2.0,1.0,1.0,34.8,34.2,34.2,1.7,3.6,2.6925,-0.2581960484911292,-0.06974759951967512,0.9257916268088461,-0.05046925024457881,-0.34443,-21.30072
11.185,2.0,1.0,1.0,34.8,34.2,34.2,1.7,3.6,2.695,-0.2743754105302171,-0.07043702130003264,0.9201137507841652,-0.05294560309134901,-0.353203,-21.098803
11.185,2.0,1.0,1.0,34.8,34.2,34.2,1.7,3.6,2.6975,-0.2906234677505816,-0.07109956926650526,0.9140549946236063,-0.055520848932211125,-0.362317,-20.894976
11.185,2.0,1.0,1.0,34.8,34.2,34.2,1.7,3.6,2.7,-0.30693335158543533,-0.07173188497643086,0.9076044563715383,-0.05819899616440033,-0.371791,-20.689193
11.185,2.0,1.0,1.0,34.8,34.2,34.2,1.7,3.6,2.7025,-0.3232976638905498,-0.07233032121705046,0.9007509666388083,-0.060984218424917774,-0.381644,-20.481406
11.185,2.0,1.0,1.0,34.8,34.2,34.2,1.7,3.6,2.705,-0.3397084415968869,-0.0728909166613596,0.893483085370236,-0.06388086036122562,-0.391898,-20.271564
11.185,2.0,1.0,1.0,34.8,34.2,34.2,1.7,3.6,2.7075,-0.35615711861784516,-0.07340936806055623,0.8857890990352689,-0.06689344331243235,-0.402575,-20.059616
11.185,2.0,1.0,1.0,34.8,34.2,34.2,1.7,3.6,2.71,-0.3726344847413454,-0.07388099970490929,0.8776570183373721,-0.07002667082314358,-0.4137,-19.845507
11.185,2.0,1.0,1.0,34.8,34.2,34.2,1.7,3.6,2.7125,-0.38913064120540297,-0.07430072985293099,0.8690745765567839,-0.07328543389348378,-0.4253,-19.629182
11.185,2.0,1.0,1.0,34.8,34.2,34.2,1.7,3.6,2.715,-0.4056349526200815,-0.07466303379279253,0.860029228664346,-0.07667481584613299,-0.437403,-19.410581
11.185,2.0,1.0,1.0,34.8,34.2,34.2,1.7,3.6,2.7175,-0.42213599485860465,-0.07496190315951527,0.8505081513719192,-0.08020009666377799,-0.45004,-19.189646
11.185,2.0,1.0,1.0,34.8,34.2,34.2,1.7,3.6,2.72,-0.43862149849513854,-0.07519080108605279,0.8404982443185613,-0.08386675661710191,-0.463243,-18.966312
11.185,2.0,1.0,1.0,34.8,34.2,34.2,1.7,3.6,2.7225,-0.45507828731598393,-0.07534261271537054,0.829986132632244,-0.08768047896313247,-0.47705,-18.740513
11.185,2.0,1.0,1.0,34.8,34.2,34.2,1.7,3.6,2.725,-0.4714922113736911,-0.07540959054341753,0.8189581711561752,-0.09164715144488592,-0.491498,-18.512183
11.185,2.0,1.0,1.0,34.8,34.2,34.2,1.7,3.6,2.7275,-0.4878480739896922,-0.07538329399880055,0.8074004506882594,-0.09577286626404045,-0.506631,-18.281249
11.185,2.0,1.0,1.0,34.8,34.2,34.2,1.7,3.6,2.73,-0.5041295520392522,-0.07525452259332809,0.7952988066544944,-0.10006391812652045,-0.522494,-18.047639
11.185,2.0,1.0,1.0,34.8,34.2,34.2,1.7,3.6,2.7325,-0.520319108772614,-0.07501324189771907,0.7826388307244827,-0.10452679987378115,-0.539136,-17.811275
11.185,2.0,1.0,1.0,34.8,34.2,34.2,1.7,3.6,2.735,-0.5363978983371344,-0.07464850150799715,0.7694058859834292,-0.10916819510684939,-0.556614,-17.572079
11.185,2.0,1.0,1.0,34.8,34.2,34.2,1.7,3.6,2.7375,-0.5523456610666899,-0.07414834406984719,0.7555851264037045,-0.11399496708185719,-0.574986,-17.329966
11.185,2.0,1.0,1.0,34.8,34.2,34.2,1.7,3.6,2.74,-0.5681406084959248,-0.07349970432007484,0.7411615215154738,-0.119014142999934,-0.594316,-17.084852
11.185,2.0,1.0,1.0,34.8,34.2,34.2,1.7,3.6,2.7425,-0.5837592969382044,-0.07268829698609869,0.7261198873658663,-0.12423289262495738,-0.614678,-16.836647
11.185,2.0,1.0,1.0,34.8,34.2,34.2,1.7,3.6,2.745,-0.5991764883372369,-0.07169849225635913,0.7104449250871183,-0.12965849993246337,-0.636147,-16.585259
11.185,2.0,1.0,1.0,34.8,34.2,34.2,1.7,3.6,2.7475,-0.6143649969644706,-0.07051317739746969,0.6941212686749865,-0.13529832621310858,-0.658811,-16.330591
11.185,2.0,1.0,1.0,34.8,34.2,34.2,1.7,3.6,2.75,-0.629295520388995,-0.0691136029496052,0.677133543920349,-0.141159762713611,-0.682764,-16.072544
11.185,2.0,1.0,1.0,34.8,34.2,34.2,1.7,3.6,2.7525,-0.6439364529969634,-0.06747921178301058,0.6594664408526072,-0.14725017048388084,-0.70811,-15.811014
11.185,2.0,1.0,1.0,34.8,34.2,34.2,1.7,3.6,2.755,-0.6582536801883846,-0.06558744915050793,0.6411048025592828,-0.153576804595088,-0.734964,-15.545897
11.185,2.0,1.0,1.0,34.8,34.2,34.2,1.7,3.6,2.7575,-0.6722103512379953,-0.0634135517308866,0.6220337338614792,-0.16014671928035623,-0.763453,-15.277081
11.185,2.0,1.0,1.0,34.8,34.2,34.2,1.7,3.6,2.76,-0.6857666286849092,-0.06093031353718868,0.6022387340733069,-0.1669666498041638,-0.79372,-15.004454
11.185,2.0,1.0,1.0,34.8,34.2,34.2,1.7,3.6,2.7625,-0.6988794120292795,-0.05810782647819823,0.5817058589827171,-0.17404286596045043,-0.825921,-14.727899
11.185,2.0,1.0,1.0,34.8,34.2,34.2,1.7,3.6,2.765,-0.7115020334861839,-0.05491319333396529,0.56042191829545,-0.18138099099927252,-0.860231,-14.447299
11.185,2.0,1.0,1.0,34.8,34.2,34.2,1.7,3.6,2.7675,-0.7235839236104704,-0.0513102109694233,0.5383747161222079,-0.18898577844815748,-0.896846,-14.162532
11.185,2.0,1.0,1.0,34.8,34.2,34.2,1.7,3.6,2.77,-0.735070244806885,-0.04725902180957937,0.5155533437082382,-0.19686083768078141,-0.935984,-13.873475
11.185,2.0,1.0,1.0,34.8,34.2,34.2,1.7,3.6,2.7725,-0.7459014911411457,-0.04271573199843061,0.4919485355574292,-0.20500829713904287,-0.97789,-13.580003
11.185,2.0,1.0,1.0,34.8,34.2,34.2,1.7,3.6,2.775,-0.7560130535569911,-0.03763199534844491,0.46755310244939857,-0.21342839177521256,-1.022841,-13.281994
11.185,2.0,1.0,1.0,34.8,34.2,34.2,1.7,3.6,2.7775,-0.7653347507010426,-0.03195456327680357,0.44236245765286586,-0.22211895848354113,-1.071145,-12.979322
11.185,2.0,1.0,1.0,34.8,34.2,34.2,1.7,3.6,2.78,-0.7737903272236403,-0.025624802579698347,0.41637525596856123,-0.23107481996830934,-1.123153,-12.671866
11.185,2.0,1.0,1.0,34.8,34.2,34.2,1.7,3.6,2.7825,-0.7812969238779157,-0.018578185334046628,0.38959416915253453,-0.24028703358458195,-1.179262,-12.359509
11.185,2.0,1.0,1.0,34.8,34.2,34.2,1.7,3.6,2.785,-0.7877645272735725,-0.010743758727620565,0.36202682582339035,-0.2497419771402655,-1.239922,-12.042139
11.185,2.0,1.0,1.0,34.8,34.2,34.2,1.7,3.6,2.7875,-0.793095412143124,-0.002043607589435363,0.3336869491596265,-0.25942023844683076,-1.305645,-11.719653
11.185,2.0,1.0,1.0,34.8,34.2,34.2,1.7,3.6,2.79,-0.7971835959549389,0.007607670671757256,0.30459573149865027,-0.26929526959549144,-1.377015,-11.391961
11.185,2.0,1.0,1.0,34.8,34.2,34.2,1.7,3.6,2.7925,-0.7999143353168984,0.018303449456103217,0.2747834912047132,-0.2793317606642811,-1.454699,-11.058987
11.185,2.0,1.0,1.0,34.8,34.2,34.2,1.7,3.6,2.795,-0.8011637066938474,0.03014547241080168,0.2442916635518716,-0.28948368115033724,-1.539465,-10.720676
11.185,2.0,1.0,1.0,34.8,34.2,34.2,1.7,3.6,2.7975,-0.8007983315527217,0.04324410913123306,0.21317518326916954,-0.2996919314634869,-1.632193,-10.377003
11.185,2.0,1.0,1.0,34.8,34.2,34.2,1.7,3.6,2.8,-0.7986753294057645,0.05771838407901093,0.1815053207958495,-0.30988154232266224,-1.733898,-10.027972
11.185,2.0,1.0,1.0,34.8,34.2,34.2,1.7,3.6,2.8025,-0.7946426127857276,0.07369566521666741,0.14937303554573,-0.31995835849901355,-1.845756,-9.673635
11.185,2.0,1.0,1.0,34.8,34.2,34.2,1.7,3.6,2.805,-0.7885396774885859,0.09131085967092521,0.11689290502368135,-0.32980514758607876,-1.969126,-9.314093
11.185,2.0,1.0,1.0,34.8,34.2,34.2,1.7,3.6,2.8075,-0.7801990908586459,0.11070491439945486,0.08420767464001531,-0.339277088154865,-2.105592,-8.949515
11.185,2.0,1.0,1.0,34.8,34.2,34.2,1.7,3.6,2.81,-0.7694489413048947,0.1320223594836372,0.05149344397629261,-0.3481966202931321,-2.256997,-8.58015
11.185,2.0,1.0,1.0,34.8,34.2,34.2,1.7,3.6,2.8125,-0.756116583134121,0.155407560744587,0.0189654533094421,-0.356347692857847,-2.425493,-8.206344
11.185,2.0,1.0,1.0,34.8,34.2,34.2,1.7,3.6,2.815,-0.7400340890800021,0.18099926988915993,-0.013115650967177074,-0.36346952612306116,-2.613602,-7.828562
11.185,2.0,1.0,1.0,34.8,34.2,34.2,1.7,3.6,2.8175,-0.7210459009582079,0.20892298185838834,-0.044437324829734996,-0.3692501389178302,-2.824278,-7.447408
11.185,2.0,1.0,1.0,34.8,34.2,34.2,1.7,3.6,2.82,-0.6990192316682116,0.23928054532280713,-0.07462885456479333,-0.37332008086534957,-3.060996,-7.063655
11.185,2.0,1.0,1.0,34.8,34.2,34.2,1.7,3.6,2.8225,-0.6738577931963401,0.2721364492219741,-0.10325601847973213,-0.3752470777660106,-3.327842,-6.67827
11.185,2.0,1.0,1.0,34.8,34.2,34.2,1.7,3.6,2.825,-0.6455193640064864,0.3075002669588374,-0.12981775089654696,-0.3745326511354419,-3.629629,-6.292443
11.185,2.0,1.0,1.0,34.8,34.2,34.2,1.7,3.6,2.8275,-0.6140375052908195,0.3453049400106078,-0.15374631145848863,-0.37061220670133393,-3.972023,-5.907621
