1,w,sub_t,h,l1,l2,l3,g1,g2,Freq,S11_re,S21_re,S11_img,S21_img,S11_dB,S21_dB
11.185,2.0,1.0,1.0,33.1,33.6,33.6,3.7,4.4,2.5,0.89097499616913,-0.00372615180229066,0.441758051997796,0.00280003979808885,-0.048096,-46.630516
11.185,2.0,1.0,1.0,33.1,33.6,33.6,3.7,4.4,2.5025,0.888205553272342,-0.0037992123870176256,0.44720068797351714,0.0028093013883743337,-0.048487,-46.511854
11.185,2.0,1.0,1.0,33.1,33.6,33.6,3.7,4.4,2.505,0.8853922699528399,-0.0038734185737802585,0.4526451714144481,0.0028181321837517383,-0.048884,-46.393074
11.185,2.0,1.0,1.0,33.1,33.6,33.6,3.7,4.4,2.5075,0.8825347540537273,-0.003948789806731506,0.4580913538661026,0.002826517440489736,-0.049288,-46.274168
11.185,2.0,1.0,1.0,33.1,33.6,33.6,3.7,4.4,2.51,0.8796326072610268,-0.00402534595833508,0.46353908250839837,0.002834441948608388,-0.049697,-46.155127
11.185,2.0,1.0,1.0,33.1,33.6,33.6,3.7,4.4,2.5125,0.8766854250037578,-0.004103107340825505,0.46898820001347813,0.002841890015155681,-0.050113,-46.035944
11.185,2.0,1.0,1.0,33.1,33.6,33.6,3.7,4.4,2.515,0.8736927963525476,-0.004182094718031013,0.47443854439905203,0.0028488454468076274,-0.050536,-45.91661
11.185,2.0,1.0,1.0,33.1,33.6,33.6,3.7,4.4,2.5175,0.8706543039167645,-0.004262329317572482,0.47988994887708847,0.002855291531760931,-0.050966,-45.797118
11.185,2.0,1.0,1.0,33.1,33.6,33.6,3.7,4.4,2.52,0.867569523740161,-0.004343832843453276,0.485342241697721,0.002861211020885578,-0.051402,-45.677458
11.185,2.0,1.0,1.0,33.1,33.6,33.6,3.7,4.4,2.5225,0.8644380251950254,-0.004426627489053894,0.4907952459881811,0.0028665861081029137,-0.051846,-45.557624
11.185,2.0,1.0,1.0,33.1,33.6,33.6,3.7,4.4,2.525,0.8612593708748256,-0.004510735950547967,0.4962487795866137,0.0028713984099532053,-0.052296,-45.437605
11.185,2.0,1.0,1.0,33.1,33.6,33.6,3.7,4.4,2.5275,0.8580331164853396,-0.0045961814407550405,0.5017026548705895,0.002875628944314314,-0.052754,-45.317395
11.185,2.0,1.0,1.0,33.1,33.6,33.6,3.7,4.4,2.53,0.8547588107342708,-0.0046829877034475316,0.507156678580134,0.0028792581082318636,-0.05322,-45.196983
11.185,2.0,1.0,1.0,33.1,33.6,33.6,3.7,4.4,2.5325,0.8514359952193369,-0.004771179028129324,0.512610651635085,0.002882265654817975,-0.053693,-45.076363
11.185,2.0,1.0,1.0,33.1,33.6,33.6,3.7,4.4,2.535,0.848064204314829,-0.004860780265304673,0.5180643689465926,0.0028846306691745465,-0.054173,-44.955525
11.185,2.0,1.0,1.0,33.1,33.6,33.6,3.7,4.4,2.5375,0.8446429650566434,-0.004951816842256802,0.5235176192225448,0.0028863315432938004,-0.054662,-44.834461
11.185,2.0,1.0,1.0,33.1,33.6,33.6,3.7,4.4,2.54,0.8411717970257755,-0.005044314779356258,0.5289701847667242,0.002887345949886631,-0.055159,-44.713162
11.185,2.0,1.0,1.0,33.1,33.6,33.6,3.7,4.4,2.5425,0.8376502122302801,-0.00513830070692058,0.5344218412714707,0.0028876508150863147,-0.055664,-44.591619
11.185,2.0,1.0,1.0,33.1,33.6,33.6,3.7,4.4,2.545,0.8340777149856959,-0.005233801882647202,0.5398723576036282,0.0028872222899725165,-0.056178,-44.469824
11.185,2.0,1.0,1.0,33.1,33.6,33.6,3.7,4.4,2.5475,0.830453801793941,-0.00533084620964315,0.5453214955835332,0.0028860357208571716,-0.056701,-44.347767
11.185,2.0,1.0,1.0,33.1,33.6,33.6,3.7,4.4,2.55,0.8267779612206739,-0.0054294622550755825,0.5507690097568183,0.002884065618270612,-0.057232,-44.225439
11.185,2.0,1.0,1.0,33.1,33.6,33.6,3.7,4.4,2.5525,0.823049673771138,-0.005529679269468996,0.5562146471587583,0.002881285624582936,-0.057772,-44.102831
11.185,2.0,1.0,1.0,33.1,33.6,33.6,3.7,4.4,2.555,0.819268411764483,-0.005631527206675667,0.5616581470709092,0.002877668480191678,-0.058322,-43.979935
11.185,2.0,1.0,1.0,33.1,33.6,33.6,3.7,4.4,2.5575,0.8154336392065807,-0.0057350367445477436,0.5670992407697688,0.002873185988202951,-0.058881,-43.85674
11.185,2.0,1.0,1.0,33.1,33.6,33.6,3.7,4.4,2.56,0.8115448116613436,-0.00584023930633986,0.5725376512671648,0.002867808977529205,-0.05945,-43.733238
11.185,2.0,1.0,1.0,33.1,33.6,33.6,3.7,4.4,2.5625,0.807601376120558,-0.005947167082873906,0.5779730930420844,0.0028615072643218037,-0.060029,-43.609418
11.185,2.0,1.0,1.0,33.1,33.6,33.6,3.7,4.4,2.565,0.8036027708722459,-0.00605585305549758,0.5834052717636382,0.0028542496116523955,-0.060618,-43.485272
11.185,2.0,1.0,1.0,33.1,33.6,33.6,3.7,4.4,2.5675,0.7995484253675791,-0.006166331019871533,0.5888338840048352,0.0028460036873512807,-0.061218,-43.360789
11.185,2.0,1.0,1.0,33.1,33.6,33.6,3.7,4.4,2.57,0.795437760086356,-0.0062786356106202005,0.5942586169468391,0.002836736019906102,-0.061828,-43.23596
11.185,2.0,1.0,1.0,33.1,33.6,33.6,3.7,4.4,2.5725,0.7912701864010703,-0.006392802326884311,0.5996791480733673,0.002826411952317951,-0.062449,-43.110774
11.185,2.0,1.0,1.0,33.1,33.6,33.6,3.7,4.4,2.575,0.7870451064395922,-0.006508867558814165,0.6050951448548624,0.002814995593805927,-0.063081,-42.985222
11.185,2.0,1.0,1.0,33.1,33.6,33.6,3.7,4.4,2.5775,0.7827619129464944,-0.006626868615045647,0.610506264422072,0.0028024497692444696,-0.063724,-42.859293
11.185,2.0,1.0,1.0,33.1,33.6,33.6,3.7,4.4,2.58,0.778419989143052,-0.006746843751201799,0.6159121532286383,0.0027887359662107022,-0.064379,-42.732977
11.185,2.0,1.0,1.0,33.1,33.6,33.6,3.7,4.4,2.5825,0.7740187085859467,-0.006868832199466671,0.6213124467023016,0.0027738142795111355,-0.065046,-42.606262
11.185,2.0,1.0,1.0,33.1,33.6,33.6,3.7,4.4,2.585,0.769557435024721,-0.006992874199278836,0.6267067688842838,0.0027576433530495425,-0.065726,-42.47914
11.185,2.0,1.0,1.0,33.1,33.6,33.6,3.7,4.4,2.5875,0.7650355222580135,-0.007119011029196012,0.6320947320564235,0.0027401803188881494,-0.066418,-42.351598
11.185,2.0,1.0,1.0,33.1,33.6,33.6,3.7,4.4,2.59,0.7604523139886297,-0.007247285039983678,0.6374759363555885,0.0027213807333458765,-0.067123,-42.223626
11.185,2.0,1.0,1.0,33.1,33.6,33.6,3.7,4.4,2.5925,0.7558071436774861,-0.007377739688984317,0.6428499693749012,0.002701198509966577,-0.06784,-42.095212
11.185,2.0,1.0,1.0,33.1,33.6,33.6,3.7,4.4,2.595,0.7510993343964961,-0.007510419575826068,0.6482164057512575,0.0026795858491797594,-0.068572,-41.966345
11.185,2.0,1.0,1.0,33.1,33.6,33.6,3.7,4.4,2.5975,0.7463281986804357,-0.007645370479533756,0.6535748067386371,0.002656493164464783,-0.069317,-41.837014
11.185,2.0,1.0,1.0,33.1,33.6,33.6,3.7,4.4,2.6,0.7414930383778624,-0.0077826393971074615,0.658924719766644,0.0026318690048168936,-0.070077,-41.707206
11.185,2.0,1.0,1.0,33.1,33.6,33.6,3.7,4.4,2.6025,0.736593144501155,-0.00792227458363839,0.6642656779837095,0.0026056599733002175,-0.070851,-41.57691
11.185,2.0,1.0,1.0,33.1,33.6,33.6,3.7,4.4,2.605,0.7316277970757341,-0.008064325594034796,0.6695971997843666,0.002577810641458376,-0.07164,-41.446114
11.185,2.0,1.0,1.0,33.1,33.6,33.6,3.7,4.4,2.6075,0.7265962649885488,-0.00820884332643534,0.6749187883199658,0.002548263459338138,-0.072444,-41.314804
11.185,2.0,1.0,1.0,33.1,33.6,33.6,3.7,4.4,2.61,0.7214978058359114,-0.008355880067390839,0.6802299309921789,0.0025169586608648417,-0.073264,-41.182969
11.185,2.0,1.0,1.0,33.1,33.6,33.6,3.7,4.4,2.6125,0.7163316657707595,-0.008505489538900486,0.6855300989286109,0.0024838341642899548,-0.0741,-41.050596
11.185,2.0,1.0,1.0,33.1,33.6,33.6,3.7,4.4,2.615,0.711097079349443,-0.008657726947392967,0.6908187464398046,0.0024488254674127443,-0.074953,-40.917671
11.185,2.0,1.0,1.0,33.1,33.6,33.6,3.7,4.4,2.6175,0.7057932693781371,-0.008812649034748106,0.6960953104568792,0.00241186553725641,-0.075822,-40.784182
11.185,2.0,1.0,1.0,33.1,33.6,33.6,3.7,4.4,2.62,0.7004194467589814,-0.008970314131459975,0.7013592099490243,0.0023728846938568565,-0.076709,-40.650114
11.185,2.0,1.0,1.0,33.1,33.6,33.6,3.7,4.4,2.6225,0.6949748103360557,-0.009130782212048142,0.7066098453200222,0.002331810487798188,-0.077614,-40.515453
11.185,2.0,1.0,1.0,33.1,33.6,33.6,3.7,4.4,2.625,0.689458546741323,-0.00929411495282939,0.711846597782921,0.00228856757110246,-0.078537,-40.380187
11.185,2.0,1.0,1.0,33.1,33.6,33.6,3.7,4.4,2.6275,0.6838698302406456,-0.009460375792169698,0.7170688287119646,0.0022430775610535175,-0.079479,-40.244299
11.185,2.0,1.0,1.0,33.1,33.6,33.6,3.7,4.4,2.63,0.6782078225800245,-0.009629629993341233,0.7222758789708074,0.0021952588965028505,-0.080441,-40.107775
11.185,2.0,1.0,1.0,33.1,33.6,33.6,3.7,4.4,2.6325,0.6724716728321901,-0.009801944710118237,0.7274670682160149,0.002145026686174115,-0.081422,-39.9706
11.185,2.0,1.0,1.0,33.1,33.6,33.6,3.7,4.4,2.635,0.6666605172437,-0.009977389055251706,0.7326416941747846,0.0020922925484449656,-0.082424,-39.832759
11.185,2.0,1.0,1.0,33.1,33.6,33.6,3.7,4.4,2.6375,0.6607734790826998,-0.010156034171971903,0.737799031895769,0.0020369644420475236,-0.083447,-39.694235
11.185,2.0,1.0,1.0,33.1,33.6,33.6,3.7,4.4,2.64,0.6548096684875045,-0.010337953308675547,0.7429383329718326,0.0019789464870855547,-0.084492,-39.555014
11.185,2.0,1.0,1.0,33.1,33.6,33.6,3.7,4.4,2.6425,0.6487681823161798,-0.01052322189696427,0.7480588247334871,0.001918138775720803,-0.085559,-39.415077
11.185,2.0,1.0,1.0,33.1,33.6,33.6,3.7,4.4,2.645,0.6426481039973067,-0.010711917633209398,0.753159709411701,0.0018544371718311656,-0.086649,-39.274409
11.185,2.0,1.0,1.0,33.1,33.6,33.6,3.7,4.4,2.6475,0.6364485033821183,-0.010904120563829924,0.7582401632686924,0.001787733098889286,-0.087762,-39.132992
11.185,2.0,1.0,1.0,33.1,33.6,33.6,3.7,4.4,2.65,0.6301684365982027,-0.01109991317447934,0.7632993356952471,0.0017179133152504652,-0.0889,-38.990807
11.185,2.0,1.0,1.0,33.1,33.6,33.6,3.7,4.4,2.6525,0.6238069459050039,-0.011299380483349754,0.7683363482729915,0.0016448596759755223,-0.090063,-38.847838
11.185,2.0,1.0,1.0,33.1,33.6,33.6,3.7,4.4,2.655,0.6173630595513143,-0.011502610138813228,0.7733502937999926,0.0015684488802436508,-0.091251,-38.704065
11.185,2.0,1.0,1.0,33.1,33.6,33.6,3.7,4.4,2.6575,0.6108357916350142,-0.011709692521632651,0.7783402352779306,0.0014885522033337563,-0.092466,-38.55947
11.185,2.0,1.0,1.0,33.1,33.6,33.6,3.7,4.4,2.66,0.6042241419652824,-0.011920720851987926,0.7833052048589945,0.0014050352120702086,-0.093709,-38.414032
11.185,2.0,1.0,1.0,33.1,33.6,33.6,3.7,4.4,2.6625,0.5975270959275468,-0.012135791301577652,0.7882442027505246,0.0013177574625371198,-0.09498,-38.267732
11.185,2.0,1.0,1.0,33.1,33.6,33.6,3.7,4.4,2.665,0.5907436243514239,-0.012355003111070469,0.7931561960753177,0.0012265721787664916,-0.096279,-38.120548
11.185,2.0,1.0,1.0,33.1,33.6,33.6,3.7,4.4,2.6675,0.5838726833819377,-0.012578458713196527,0.798040117685352,0.0011313259109957626,-0.097609,-37.972461
11.185,2.0,1.0,1.0,33.1,33.6,33.6,3.7,4.4,2.67,0.5769132143542987,-0.012806263861785173,0.8028948649265575,0.0010318581719724125,-0.09897,-37.823447
11.185,2.0,1.0,1.0,33.1,33.6,33.6,3.7,4.4,2.6725,0.5698641436725431,-0.013038527767071978,0.8077192983520967,0.0009280010496509082,-0.100363,-37.673484
11.185,2.0,1.0,1.0,33.1,33.6,33.6,3.7,4.4,2.675,0.5627243826923508,-0.013275363237616451,0.8125122403814299,0.0008195787944857047,-0.101788,-37.52255
11.185,2.0,1.0,1.0,33.1,33.6,33.6,3.7,4.4,2.6775,0.5554928276083666,-0.013516886829189573,0.8172724739022701,0.0007064073793652812,-0.103248,-37.370621
11.185,2.0,1.0,1.0,33.1,33.6,33.6,3.7,4.4,2.68,0.5481683593463645,-0.013763219001009753,0.8219987408123147,0.0005882940300598121,-0.104743,-37.217672
11.185,2.0,1.0,1.0,33.1,33.6,33.6,3.7,4.4,2.6825,0.5407498434606157,-0.01401448427972508,0.8266897404974118,0.0004650367238649802,-0.106275,-37.063678
11.185,2.0,1.0,1.0,33.1,33.6,33.6,3.7,4.4,2.685,0.5332361300368251,-0.014270811431561076,0.8313441282425844,0.00033642365391451686,-0.107844,-36.908614
11.185,2.0,1.0,1.0,33.1,33.6,33.6,3.7,4.4,2.6875,0.525626053601024,-0.0145323336430724,0.835960513572056,0.000202232656403531,-0.109452,-36.752452
11.185,2.0,1.0,1.0,33.1,33.6,33.6,3.7,4.4,2.69,0.5179184330348316,-0.014799188710958798,0.8405374585141223,6.223059771008843e-05,-0.1111,-36.595165
11.185,2.0,1.0,1.0,33.1,33.6,33.6,3.7,4.4,2.6925,0.510112071497489,-0.01507151924142738,0.8450734757864091,-8.382728187895754e-05,-0.11279,-36.436725
11.185,2.0,1.0,1.0,33.1,33.6,33.6,3.7,4.4,2.695,0.5022057563551314,-0.015349472859602052,0.8495670268966627,-0.00023619807144247015,-0.114523,-36.277102
11.185,2.0,1.0,1.0,33.1,33.6,33.6,3.7,4.4,2.6975,0.4941982591177358,-0.01563320242950433,0.8540165201538781,-0.0003951519436479731,-0.116301,-36.116267
11.185,2.0,1.0,1.0,33.1,33.6,33.6,3.7,4.4,2.7,0.48608833538425184,-0.015922866285147354,0.8584203085840786,-0.0005609729642532158,-0.118125,-35.954188
11.185,2.0,1.0,1.0,33.1,33.6,33.6,3.7,4.4,2.7025,0.4778747247964096,-0.01621862847330461,0.8627766877446424,-0.0007339599616372339,-0.119997,-35.790833
11.185,2.0,1.0,1.0,33.1,33.6,33.6,3.7,4.4,2.705,0.4695561510017588,-0.01652065900853107,0.8670838934304954,-0.0009144274615817821,-0.121919,-35.626168
11.185,2.0,1.0,1.0,33.1,33.6,33.6,3.7,4.4,2.7075,0.4611313216264997,-0.016829134141028736,0.871340099264939,-0.001102706693044545,-0.123893,-35.460159
11.185,2.0,1.0,1.0,33.1,33.6,33.6,3.7,4.4,2.71,0.4525989282587292,-0.017144236637958995,0.8755434141672229,-0.001299146671244526,-0.12592,-35.29277
11.185,2.0,1.0,1.0,33.1,33.6,33.6,3.7,4.4,2.7125,0.4439576464427384,-0.01746615607881113,0.8796918796882562,-0.0015041153650262424,-0.128004,-35.123965
11.185,2.0,1.0,1.0,33.1,33.6,33.6,3.7,4.4,2.715,0.4352061356850737,-0.01779508916543567,0.8837834672050608,-0.00171800095618879,-0.130145,-34.953705
11.185,2.0,1.0,1.0,33.1,33.6,33.6,3.7,4.4,2.7175,0.4263430394731164,-0.018131240047344593,0.8878160749636791,-0.001941213199268073,-0.132346,-34.781951
11.185,2.0,1.0,1.0,33.1,33.6,33.6,3.7,4.4,2.72,0.4173669853070128,-0.01847482066286436,0.8917875249592658,-0.002174184891159861,-0.134611,-34.608661
11.185,2.0,1.0,1.0,33.1,33.6,33.6,3.7,4.4,2.7225,0.40827658474584577,-0.018826051096698045,0.8956955596409941,-0.002417373460976155,-0.13694,-34.433793
11.185,2.0,1.0,1.0,33.1,33.6,33.6,3.7,4.4,2.725,0.3990704334690774,-0.019185159954410478,0.8995378384281691,-0.0026712626916512543,-0.139338,-34.257302
11.185,2.0,1.0,1.0,33.1,33.6,33.6,3.7,4.4,2.7275,0.389747111354348,-0.019552384754289897,0.9033119340225857,-0.002936364586080078,-0.141806,-34.079143
11.185,2.0,1.0,1.0,33.1,33.6,33.6,3.7,4.4,2.73,0.38030518257291207,-0.019927972336951674,0.9070153285005936,-0.0032132213919880068,-0.144348,-33.899269
11.185,2.0,1.0,1.0,33.1,33.6,33.6,3.7,4.4,2.7325,0.37074319570410874,-0.020312179292942573,0.9106454091666447,-0.0035024078013289836,-0.146968,-33.717629
11.185,2.0,1.0,1.0,33.1,33.6,33.6,3.7,4.4,2.735,0.3610596838705002,-0.020705272408452356,0.914199464148109,-0.0038045333418069457,-0.149668,-33.534171
11.185,2.0,1.0,1.0,33.1,33.6,33.6,3.7,4.4,2.7375,0.35125316489552366,-0.021107529129054232,0.9176746777089971,-0.004120244980142999,-0.152452,-33.348843
11.185,2.0,1.0,1.0,33.1,33.6,33.6,3.7,4.4,2.74,0.3413221414858165,-0.021519238041152567,0.9210681252577275,-0.004450229959003439,-0.155324,-33.161588
11.185,2.0,1.0,1.0,33.1,33.6,33.6,3.7,4.4,2.7425,0.33126510144071014,-0.021940699370513142,0.9243767680213163,-0.004795218892094821,-0.158288,-32.972349
11.185,2.0,1.0,1.0,33.1,33.6,33.6,3.7,4.4,2.745,0.32108051789182446,-0.02237222549686886,0.9275974473551961,-0.005155989144868989,-0.161349,-32.781064
11.185,2.0,1.0,1.0,33.1,33.6,33.6,3.7,4.4,2.7475,0.3107668495762306,-0.02281414148311688,0.9307268786543174,-0.005533368531613003,-0.16451,-32.587671
11.185,2.0,1.0,1.0,33.1,33.6,33.6,3.7,4.4,2.75,0.300322541147254,-0.0232667856170297,0.933761644827127,-0.00592823936348557,-0.167778,-32.392102
11.185,2.0,1.0,1.0,33.1,33.6,33.6,3.7,4.4,2.7525,0.2897460235278013,-0.02373050996266754,0.9366981892894201,-0.006341542886369727,-0.171156,-32.19429
11.185,2.0,1.0,1.0,33.1,33.6,33.6,3.7,4.4,2.755,0.2790357143120232,-0.024205680917769465,0.9395328084298272,-0.006774284152325647,-0.174652,-31.994163
11.185,2.0,1.0,1.0,33.1,33.6,33.6,3.7,4.4,2.7575,0.26819001822226074,-0.024692679772279083,0.9422616434927217,-0.00722753737403604,-0.17827,-31.791645
11.185,2.0,1.0,1.0,33.1,33.6,33.6,3.7,4.4,2.76,0.25720732762968457,-0.025191903261776522,0.944880671817516,-0.0077024518180519586,-0.182017,-31.586657
11.185,2.0,1.0,1.0,33.1,33.6,33.6,3.7,4.4,2.7625,0.2460860231486985,-0.025703764107884938,0.9473856973655042,-0.008200258299998741,-0.185901,-31.379117
11.185,2.0,1.0,1.0,33.1,33.6,33.6,3.7,4.4,2.765,0.23482447431734493,-0.026228691535625098,0.9497723404564794,-0.008722276353335712,-0.189928,-31.168939
11.185,2.0,1.0,1.0,33.1,33.6,33.6,3.7,4.4,2.7675,0.2234210403785085,-0.02676713175511029,0.9520360266270609,-0.009269922152962991,-0.194106,-30.956032
11.185,2.0,1.0,1.0,33.1,33.6,33.6,3.7,4.4,2.77,0.21187407117988485,-0.027319548391804123,0.9541719745108733,-0.00984471728613961,-0.198444,-30.740302
11.185,2.0,1.0,1.0,33.1,33.6,33.6,3.7,4.4,2.7725,0.20018190821460327,-0.027886422845656456,0.9561751826270967,-0.01044829847606518,-0.202952,-30.521648
11.185,2.0,1.0,1.0,33.1,33.6,33.6,3.7,4.4,2.775,0.18834288582915512,-0.028468254554625597,0.9580404149481817,-0.011082428378376502,-0.207638,-30.299965
11.185,2.0,1.0,1.0,33.1,33.6,33.6,3.7,4.4,2.7775,0.17635533263121456,-0.029065561132167784,0.9597621850993516,-0.011749007588070548,-0.212515,-30.075145
11.185,2.0,1.0,1.0,33.1,33.6,33.6,3.7,4.4,2.78,0.16421757313716798,-0.02967887834096522,0.961334739021425,-0.0124500880143842,-0.217593,-29.847071
11.185,2.0,1.0,1.0,33.1,33.6,33.6,3.7,4.4,2.7825,0.15192792970822447,-0.03030875985613117,0.962752035904029,-0.013187887804447176,-0.222885,-29.615621
11.185,2.0,1.0,1.0,33.1,33.6,33.6,3.7,4.4,2.785,0.13948472483500213,-0.03095577675996335,0.9640077271677837,-0.013964808023643329,-0.228405,-29.380668
11.185,2.0,1.0,1.0,33.1,33.6,33.6,3.7,4.4,2.7875,0.12688628384436482,-0.031620516696474844,0.9650951332408417,-0.014783451332270868,-0.234168,-29.142074
11.185,2.0,1.0,1.0,33.1,33.6,33.6,3.7,4.4,2.79,0.11413093811929734,-0.03230358259675944,0.9660072178363781,-0.015646642935117736,-0.24019,-28.899699
11.185,2.0,1.0,1.0,33.1,33.6,33.6,3.7,4.4,2.7925,0.1012170289439683,-0.03300559086488835,0.9667365593922111,-0.016557454123951907,-0.246489,-28.65339
11.185,2.0,1.0,1.0,33.1,33.6,33.6,3.7,4.4,2.795,0.0881429121125955,-0.033727168887423546,0.9672753192804827,-0.017519228783877745,-0.253084,-28.402989
11.185,2.0,1.0,1.0,33.1,33.6,33.6,3.7,4.4,2.7975,0.07490696347398741,-0.03446895169638867,0.967615206332724,-0.018535613294444264,-0.259997,-28.148326
11.185,2.0,1.0,1.0,33.1,33.6,33.6,3.7,4.4,2.8,0.06150758562510887,-0.03523157757392559,0.9677474371519155,-0.01961059032706008,-0.267251,-27.889224
11.185,2.0,1.0,1.0,33.1,33.6,33.6,3.7,4.4,2.8025,0.047943216019285896,-0.03601568233462296,0.9676626915961676,-0.020748517123728244,-0.274872,-27.625492
11.185,2.0,1.0,1.0,33.1,33.6,33.6,3.7,4.4,2.805,0.0342123368204281,-0.03682189195574416,0.9673510627158122,-0.021954168940880817,-0.282889,-27.356929
11.185,2.0,1.0,1.0,33.1,33.6,33.6,3.7,4.4,2.8075,0.020313486917715503,-0.037650813142576525,0.9668020003039083,-0.023232788459171667,-0.291332,-27.083324
11.185,2.0,1.0,1.0,33.1,33.6,33.6,3.7,4.4,2.81,0.006245276620496531,-0.0385030213110069,0.9660042470756767,-0.024590142099117494,-0.300238,-26.804447
11.185,2.0,1.0,1.0,33.1,33.6,33.6,3.7,4.4,2.8125,-0.00799359431299333,-0.0393790453358955,0.964945766320678,-0.0260325843478072,-0.309644,-26.520059
11.185,2.0,1.0,1.0,33.1,33.6,33.6,3.7,4.4,2.815,-0.022404314488783276,-0.04027934824360721,0.9636136596672742,-0.027567131398790416,-0.319594,-26.229903
11.185,2.0,1.0,1.0,33.1,33.6,33.6,3.7,4.4,2.8175,-0.036987933489335455,-0.04120430280931968,0.961994073355535,-0.029201545641953135,-0.330136,-25.933704
11.185,2.0,1.0,1.0,33.1,33.6,33.6,3.7,4.4,2.82,-0.051745327961121364,-0.04215416074016027,0.9600720911246445,-0.030944432820159906,-0.341325,-25.631171
11.185,2.0,1.0,1.0,33.1,33.6,33.6,3.7,4.4,2.8225,-0.06667715949194582,-0.043129013764883914,0.9578316114748878,-0.032805354003494436,-0.353222,-25.321991
11.185,2.0,1.0,1.0,33.1,33.6,33.6,3.7,4.4,2.825,-0.0817838221235668,-0.04412874448449019,0.9552552066518176,-0.03479495493035882,-0.365895,-25.005831
11.185,2.0,1.0,1.0,33.1,33.6,33.6,3.7,4.4,2.8275,-0.09706537673572332,-0.045152964232211934,0.9523239602089846,-0.0369251157393187,-0.379421,-24.682332
