1,w,sub_t,h,l1,l2,l3,g1,g2,Freq,S11_re,S21_re,S11_img,S21_img,S11_dB,S21_dB
11.185,2.0,1.0,1.0,33.2,34.2,34.2,3.1,4.1,2.5,0.878330423404097,-0.00513782395217859,0.465273685833363,0.00412216368218564,-0.052677,-43.626157
11.185,2.0,1.0,1.0,33.2,34.2,34.2,3.1,4.1,2.5025,0.8753490420486439,-0.005243567059326993,0.47074312503134214,0.004142519378719225,-0.053156,-43.501254
11.185,2.0,1.0,1.0,33.2,34.2,34.2,3.1,4.1,2.505,0.8723213549353623,-0.005351245474807755,0.4762139045886065,0.004162460280816726,-0.053643,-43.37602
11.185,2.0,1.0,1.0,33.2,34.2,34.2,3.1,4.1,2.5075,0.8692469162942853,-0.005460901477917566,0.48168586366006316,0.004181967528691334,-0.054139,-43.250443
11.185,2.0,1.0,1.0,33.2,34.2,34.2,3.1,4.1,2.51,0.8661252725724046,-0.005572578583274596,0.48715883638815544,0.00420102152482888,-0.054643,-43.124513
11.185,2.0,1.0,1.0,33.2,34.2,34.2,3.1,4.1,2.5125,0.8629559622766678,-0.0056863215861899345,0.49263265173049053,0.004219601901173014,-0.055157,-42.998218
11.185,2.0,1.0,1.0,33.2,34.2,34.2,3.1,4.1,2.515,0.859738515812998,-0.005802176610054998,0.4981071332813953,0.004237687484632663,-0.05568,-42.871547
11.185,2.0,1.0,1.0,33.2,34.2,34.2,3.1,4.1,2.5175,0.856472455321201,-0.005920191155850265,0.5035820990871359,0.0042552562608132736,-0.056213,-42.744488
11.185,2.0,1.0,1.0,33.2,34.2,34.2,3.1,4.1,2.52,0.8531572945056066,-0.006040414153887617,0.5090573614545651,0.004272285335866715,-0.056755,-42.617029
11.185,2.0,1.0,1.0,33.2,34.2,34.2,3.1,4.1,2.5225,0.8497925384613071,-0.006162896017904348,0.514532726752898,0.004288750896347632,-0.057307,-42.48916
11.185,2.0,1.0,1.0,33.2,34.2,34.2,3.1,4.1,2.525,0.8463776834958152,-0.006287688701635314,0.5200079952083516,0.004304628166956408,-0.057869,-42.360867
11.185,2.0,1.0,1.0,33.2,34.2,34.2,3.1,4.1,2.5275,0.8429122169459852,-0.006414845757996554,0.5254829606913426,0.004319891366040747,-0.058442,-42.232138
11.185,2.0,1.0,1.0,33.2,34.2,34.2,3.1,4.1,2.53,0.8393956169900141,-0.006544422401022266,0.5309574104959227,0.004334513658718904,-0.059026,-42.102961
11.185,2.0,1.0,1.0,33.2,34.2,34.2,3.1,4.1,2.5325,0.8358273524543413,-0.0066764755707060365,0.5364311251111256,0.004348467107478193,-0.05962,-41.973323
11.185,2.0,1.0,1.0,33.2,34.2,34.2,3.1,4.1,2.535,0.8322068826152423,-0.006811064000906584,0.5419038779838795,0.0043617226200921705,-0.060226,-41.843212
11.185,2.0,1.0,1.0,33.2,34.2,34.2,3.1,4.1,2.5375,0.8285336569949195,-0.006948248290488128,0.5473754352731084,0.004374249894688575,-0.060844,-41.712614
11.185,2.0,1.0,1.0,33.2,34.2,34.2,3.1,4.1,2.54,0.8248071151518628,-0.007088090977876893,0.552845555594646,0.004386017361788412,-0.061473,-41.581516
11.185,2.0,1.0,1.0,33.2,34.2,34.2,3.1,4.1,2.5425,0.8210266864652535,-0.007230656619226565,0.5583139897565519,0.0043969921231235085,-0.062115,-41.449903
11.185,2.0,1.0,1.0,33.2,34.2,34.2,3.1,4.1,2.545,0.8171917899131621,-0.0073760118703981,0.5637804804844001,0.004407139887025813,-0.062769,-41.317763
11.185,2.0,1.0,1.0,33.2,34.2,34.2,3.1,4.1,2.5475,0.8133018338442942,-0.007524225572972379,0.5692447621360837,0.0044164249001667905,-0.063436,-41.185082
11.185,2.0,1.0,1.0,33.2,34.2,34.2,3.1,4.1,2.55,0.8093562157429909,-0.007675368844529324,0.5747065604056684,0.0044248098754087846,-0.064116,-41.051844
11.185,2.0,1.0,1.0,33.2,34.2,34.2,3.1,4.1,2.5525,0.8053543219872177,-0.007829515173441545,0.5801655920157733,0.004432255915512471,-0.06481,-40.918035
11.185,2.0,1.0,1.0,33.2,34.2,34.2,3.1,4.1,2.555,0.8012955275992161,-0.007986740518447999,0.5856215643979603,0.004438722432425414,-0.065518,-40.783641
11.185,2.0,1.0,1.0,33.2,34.2,34.2,3.1,4.1,2.5575,0.7971791959885007,-0.008147123413290557,0.5910741753605576,0.004444167061855946,-0.06624,-40.648645
11.185,2.0,1.0,1.0,33.2,34.2,34.2,3.1,4.1,2.56,0.7930046786868555,-0.008310745076715535,0.5965231127433229,0.004448545572813783,-0.066977,-40.513033
11.185,2.0,1.0,1.0,33.2,34.2,34.2,3.1,4.1,2.5625,0.788771315074962,-0.00847768952816301,0.601968054058309,0.00445181177177455,-0.067729,-40.376787
11.185,2.0,1.0,1.0,33.2,34.2,34.2,3.1,4.1,2.565,0.7844784321002654,-0.008648043709488896,0.6074086661162676,0.004453917401098521,-0.068497,-40.239893
11.185,2.0,1.0,1.0,33.2,34.2,34.2,3.1,4.1,2.5675,0.7801253439856679,-0.008821897613088674,0.6128446046378612,0.00445481203130494,-0.069281,-40.102334
11.185,2.0,1.0,1.0,33.2,34.2,34.2,3.1,4.1,2.57,0.7757113519286065,-0.0089993444168173,0.6182755138489471,0.004454442946771769,-0.070081,-39.964091
11.185,2.0,1.0,1.0,33.2,34.2,34.2,3.1,4.1,2.5725,0.7712357437900328,-0.009180480626128019,0.6237010260591058,0.004452755024396293,-0.070899,-39.825148
11.185,2.0,1.0,1.0,33.2,34.2,34.2,3.1,4.1,2.575,0.7666977937728082,-0.009365406223882109,0.6291207612225801,0.004449690604714692,-0.071733,-39.685488
11.185,2.0,1.0,1.0,33.2,34.2,34.2,3.1,4.1,2.5775,0.7620967620889629,-0.009554224828314821,0.6345343264806877,0.004445189354937574,-0.072586,-39.545091
11.185,2.0,1.0,1.0,33.2,34.2,34.2,3.1,4.1,2.58,0.7574318946152536,-0.009747043859676728,0.6399413156847535,0.004439188123314277,-0.073458,-39.40394
11.185,2.0,1.0,1.0,33.2,34.2,34.2,3.1,4.1,2.5825,0.7527024225364006,-0.009943974716108524,0.6453413088985175,0.004431620784189641,-0.074348,-39.262014
11.185,2.0,1.0,1.0,33.2,34.2,34.2,3.1,4.1,2.585,0.7479075619753512,-0.010145132959347216,0.6507338718789064,0.004422418073064045,-0.075259,-39.119295
11.185,2.0,1.0,1.0,33.2,34.2,34.2,3.1,4.1,2.5875,0.7430465136098615,-0.010350638510906673,0.6561185555339969,0.004411507410909031,-0.07619,-38.975762
11.185,2.0,1.0,1.0,33.2,34.2,34.2,3.1,4.1,2.59,0.7381184622746487,-0.010560615859422431,0.661494895356887,0.00439881271692713,-0.077141,-38.831395
11.185,2.0,1.0,1.0,33.2,34.2,34.2,3.1,4.1,2.5925,0.7331225765482989,-0.0107751942799036,0.6668624108341404,0.004384254208874701,-0.078115,-38.686172
11.185,2.0,1.0,1.0,33.2,34.2,34.2,3.1,4.1,2.595,0.7280580083240724,-0.010994508065689475,0.672220604827327,0.004367748189989625,-0.079111,-38.540071
11.185,2.0,1.0,1.0,33.2,34.2,34.2,3.1,4.1,2.5975,0.7229238923636624,-0.01121869677397089,0.6775689629261239,0.0043492068214818986,-0.08013,-38.393072
11.185,2.0,1.0,1.0,33.2,34.2,34.2,3.1,4.1,2.6,0.7177193458329111,-0.011447905485801203,0.6829069527712769,0.004328537879452318,-0.081172,-38.245149
11.185,2.0,1.0,1.0,33.2,34.2,34.2,3.1,4.1,2.6025,0.7124434678184118,-0.011682285081593977,0.6882340233456469,0.0043056444950029735,-0.08224,-38.096281
11.185,2.0,1.0,1.0,33.2,34.2,34.2,3.1,4.1,2.605,0.7070953388238223,-0.011921992533182742,0.6935496042313779,0.0042804248761910526,-0.083333,-37.946442
11.185,2.0,1.0,1.0,33.2,34.2,34.2,3.1,4.1,2.6075,0.7016740202446518,-0.012167191213602333,0.6988531048311155,0.004252772010354292,-0.084452,-37.795608
11.185,2.0,1.0,1.0,33.2,34.2,34.2,3.1,4.1,2.61,0.696178553820168,-0.012418051225843585,0.7041439135510073,0.0042225733452001335,-0.085598,-37.643753
11.185,2.0,1.0,1.0,33.2,34.2,34.2,3.1,4.1,2.6125,0.6906079610609732,-0.012674749751933915,0.7094213969430574,0.004189710446900468,-0.086773,-37.490851
11.185,2.0,1.0,1.0,33.2,34.2,34.2,3.1,4.1,2.615,0.6849612426506695,-0.012937471423805207,0.7146848988042025,0.004154058633267854,-0.087977,-37.336875
11.185,2.0,1.0,1.0,33.2,34.2,34.2,3.1,4.1,2.6175,0.6792373778199283,-0.013206408717528978,0.7199337392292503,0.004115486579905328,-0.089211,-37.181796
11.185,2.0,1.0,1.0,33.2,34.2,34.2,3.1,4.1,2.62,0.673435323691124,-0.013481762372629774,0.7251672136145942,0.004073855897018767,-0.090476,-37.025586
11.185,2.0,1.0,1.0,33.2,34.2,34.2,3.1,4.1,2.6225,0.6675540145915351,-0.013763741838328094,0.730384591609351,0.00402902067435501,-0.091774,-36.868215
11.185,2.0,1.0,1.0,33.2,34.2,34.2,3.1,4.1,2.625,0.661592361332985,-0.0140525657487192,0.735585116010266,0.00398082699147921,-0.093105,-36.709652
11.185,2.0,1.0,1.0,33.2,34.2,34.2,3.1,4.1,2.6275,0.6555492504555629,-0.01434846242906363,0.7407680015964239,0.003929112390326615,-0.094471,-36.549866
11.185,2.0,1.0,1.0,33.2,34.2,34.2,3.1,4.1,2.63,0.6494235434329177,-0.014651670435548547,0.7459324338994461,0.003873705306655141,-0.095874,-36.388824
11.185,2.0,1.0,1.0,33.2,34.2,34.2,3.1,4.1,2.6325,0.6432140758363675,-0.01496243913108207,0.7510775679044417,0.003814424456681096,-0.097314,-36.226493
11.185,2.0,1.0,1.0,33.2,34.2,34.2,3.1,4.1,2.635,0.6369196564548487,-0.015281029299902922,0.7562025266765764,0.0037510781747966512,-0.098793,-36.062837
11.185,2.0,1.0,1.0,33.2,34.2,34.2,3.1,4.1,2.6375,0.6305390663674691,-0.015607713804029522,0.7613063999076033,0.0036834636978399396,-0.100312,-35.89782
11.185,2.0,1.0,1.0,33.2,34.2,34.2,3.1,4.1,2.64,0.6240710579651257,-0.015942778284838775,0.7663882423761927,0.003611366390910133,-0.101874,-35.731406
11.185,2.0,1.0,1.0,33.2,34.2,34.2,3.1,4.1,2.6425,0.6175143539173679,-0.0162865219133535,0.7714470723152719,0.0035345589091851227,-0.10348,-35.563555
11.185,2.0,1.0,1.0,33.2,34.2,34.2,3.1,4.1,2.645,0.6108676460803181,-0.01663925819313752,0.7764818696789348,0.0034528002896000707,-0.105131,-35.394227
11.185,2.0,1.0,1.0,33.2,34.2,34.2,3.1,4.1,2.6475,0.6041295943411041,-0.017001315820046325,0.781491574300728,0.003365834965572899,-0.10683,-35.223383
11.185,2.0,1.0,1.0,33.2,34.2,34.2,3.1,4.1,2.65,0.5972988253938197,-0.01737303960346577,0.7864750839342808,0.003273391697208049,-0.108578,-35.050977
11.185,2.0,1.0,1.0,33.2,34.2,34.2,3.1,4.1,2.6525,0.5903739314416259,-0.017754791454091475,0.7914312521663185,0.003175182408561266,-0.110378,-34.876967
11.185,2.0,1.0,1.0,33.2,34.2,34.2,3.1,4.1,2.655,0.5833534688190392,-0.018146951443767174,0.7963588861910406,0.0030709009225917275,-0.112232,-34.701306
11.185,2.0,1.0,1.0,33.2,34.2,34.2,3.1,4.1,2.6575,0.5762359565279641,-0.018549918943407618,0.8012567444336858,0.002960221583350671,-0.114142,-34.523946
11.185,2.0,1.0,1.0,33.2,34.2,34.2,3.1,4.1,2.66,0.5690198746803902,-0.01896411384559335,0.8061235340097446,0.002842797753737694,-0.116111,-34.344838
11.185,2.0,1.0,1.0,33.2,34.2,34.2,3.1,4.1,2.6625,0.5617036628400232,-0.0193899778790398,0.8109579080048246,0.0027182601757798166,-0.118141,-34.16393
11.185,2.0,1.0,1.0,33.2,34.2,34.2,3.1,4.1,2.665,0.5542857182543756,-0.01982797602282305,0.8157584625584626,0.002586215178828507,-0.120235,-33.981169
11.185,2.0,1.0,1.0,33.2,34.2,34.2,3.1,4.1,2.6675,0.5467643939680601,-0.020278598028988543,0.8205237337332714,0.0024462427193012786,-0.122397,-33.796498
11.185,2.0,1.0,1.0,33.2,34.2,34.2,3.1,4.1,2.67,0.5391379968071137,-0.020742360062993296,0.8252521941486604,0.0022978942335844478,-0.124629,-33.609861
11.185,2.0,1.0,1.0,33.2,34.2,34.2,3.1,4.1,2.6725,0.5314047852232193,-0.021219806472334322,0.8299422493559074,0.002140690283425901,-0.126935,-33.421196
11.185,2.0,1.0,1.0,33.2,34.2,34.2,3.1,4.1,2.675,0.5235629669856212,-0.021711511694711604,0.8345922339285708,0.001974117970539896,-0.129318,-33.230442
11.185,2.0,1.0,1.0,33.2,34.2,34.2,3.1,4.1,2.6775,0.515610696707331,-0.022218082318168794,0.8392004072390695,0.0017976280941680517,-0.131783,-33.037532
11.185,2.0,1.0,1.0,33.2,34.2,34.2,3.1,4.1,2.68,0.5075460731909275,-0.022740159306858423,0.8437649488886234,0.0016106320219349056,-0.134332,-32.842398
11.185,2.0,1.0,1.0,33.2,34.2,34.2,3.1,4.1,2.6825,0.4993671365778219,-0.023278420407400174,0.8482839537536223,0.0014124982404345292,-0.136972,-32.644969
11.185,2.0,1.0,1.0,33.2,34.2,34.2,3.1,4.1,2.685,0.49107186528327873,-0.02383358275225469,0.8527554266067466,0.0012025485475039533,-0.139706,-32.445171
11.185,2.0,1.0,1.0,33.2,34.2,34.2,3.1,4.1,2.6875,0.482658172697752,-0.0244064056781262,0.857177276265724,0.000980053842986852,-0.14254,-32.242926
11.185,2.0,1.0,1.0,33.2,34.2,34.2,3.1,4.1,2.69,0.4741239036332213,-0.02499769377915042,0.8615473092163703,0.0007442294688540903,-0.145478,-32.038153
11.185,2.0,1.0,1.0,33.2,34.2,34.2,3.1,4.1,2.6925,0.4654668304911008,-0.02560830021653092,0.8658632226493372,0.0004942300426910642,-0.148527,-31.830768
11.185,2.0,1.0,1.0,33.2,34.2,34.2,3.1,4.1,2.695,0.45668464912608103,-0.02623913030835951,0.8701225968417047,0.0002291437206324931,-0.151694,-31.62068
11.185,2.0,1.0,1.0,33.2,34.2,34.2,3.1,4.1,2.6975,0.4477749743777443,-0.026891145425614493,0.8743228868049125,-5.201418337113282e-05,-0.154984,-31.407798
11.185,2.0,1.0,1.0,33.2,34.2,34.2,3.1,4.1,2.7,0.4387353352391768,-0.027565367222765442,0.8784614131093902,-0.0003503083057517763,-0.158405,-31.192023
11.185,2.0,1.0,1.0,33.2,34.2,34.2,3.1,4.1,2.7025,0.42956316962887064,-0.028262882234039822,0.8825353517832722,-0.0006668911652211355,-0.161964,-30.973254
11.185,2.0,1.0,1.0,33.2,34.2,34.2,3.1,4.1,2.705,0.4202558187291585,-0.028984846869207215,0.8865417231674902,-0.00100301202911355,-0.165671,-30.751382
11.185,2.0,1.0,1.0,33.2,34.2,34.2,3.1,4.1,2.7075,0.41081052085110015,-0.029732492845706726,0.8904773795919074,-0.0013600268418957186,-0.169535,-30.526296
11.185,2.0,1.0,1.0,33.2,34.2,34.2,3.1,4.1,2.71,0.401224404782303,-0.030507133097046453,0.8943389917165222,-0.0017394093634618213,-0.173565,-30.297877
11.185,2.0,1.0,1.0,33.2,34.2,34.2,3.1,4.1,2.7125,0.39149448257053815,-0.0313101682006022,0.8981230333575635,-0.002142763688218082,-0.177772,-30.065999
11.185,2.0,1.0,1.0,33.2,34.2,34.2,3.1,4.1,2.715,0.38161764169237783,-0.03214309337115668,0.9018257645898193,-0.0025718383435064333,-0.182168,-29.830532
11.185,2.0,1.0,1.0,33.2,34.2,34.2,3.1,4.1,2.7175,0.3715906365524253,-0.03300750606965008,0.9054432128829492,-0.0030285421984523565,-0.186766,-29.591337
11.185,2.0,1.0,1.0,33.2,34.2,34.2,3.1,4.1,2.72,0.36141007925530694,-0.0339051142794956,0.9089711519898265,-0.003514962452844132,-0.19158,-29.348269
11.185,2.0,1.0,1.0,33.2,34.2,34.2,3.1,4.1,2.7225,0.351072429589506,-0.034837745505234594,0.9124050782578459,-0.004033385021389705,-0.196626,-29.101172
11.185,2.0,1.0,1.0,33.2,34.2,34.2,3.1,4.1,2.725,0.340573984159866,-0.03580735654993671,0.9157401839781459,-0.004586317683144097,-0.201919,-28.849886
11.185,2.0,1.0,1.0,33.2,34.2,34.2,3.1,4.1,2.7275,0.3299108646043258,-0.036816044128169134,0.9189713273209246,-0.005176516430905298,-0.207479,-28.594236
11.185,2.0,1.0,1.0,33.2,34.2,34.2,3.1,4.1,2.73,0.3190790048311052,-0.03786605636992841,0.9220929983251572,-0.005807015533194474,-0.213325,-28.334042
11.185,2.0,1.0,1.0,33.2,34.2,34.2,3.1,4.1,2.7325,0.3080741372156473,-0.03895980526682309,0.9250992803152532,-0.006481161914879278,-0.219481,-28.069111
11.185,2.0,1.0,1.0,33.2,34.2,34.2,3.1,4.1,2.735,0.2968917777036058,-0.04009988010381958,0.9279838060019411,-0.007202654575023604,-0.225971,-27.799237
11.185,2.0,1.0,1.0,33.2,34.2,34.2,3.1,4.1,2.7375,0.28552720977840257,-0.04128906190641735,0.9307397073855991,-0.007975589896473364,-0.232823,-27.524203
11.185,2.0,1.0,1.0,33.2,34.2,34.2,3.1,4.1,2.74,0.27397546727181094,-0.042530338911958294,0.933359558411867,-0.008804513866377301,-0.240067,-27.243779
11.185,2.0,1.0,1.0,33.2,34.2,34.2,3.1,4.1,2.7425,0.262231316026513,-0.043826923041838495,0.9358353091249153,-0.009694482427013785,-0.247737,-26.957719
11.185,2.0,1.0,1.0,33.2,34.2,34.2,3.1,4.1,2.745,0.25028923446505713,-0.04518226730442481,0.9381582098145896,-0.010651131420353439,-0.255871,-26.665761
11.185,2.0,1.0,1.0,33.2,34.2,34.2,3.1,4.1,2.7475,0.2381433931858527,-0.046600083990639,0.9403187233491478,-0.011680757888308475,-0.264512,-26.367627
11.185,2.0,1.0,1.0,33.2,34.2,34.2,3.1,4.1,2.75,0.225787633801926,-0.0480843634273332,0.942306423511857,-0.0127904148569124,-0.273707,-26.063019
11.185,2.0,1.0,1.0,33.2,34.2,34.2,3.1,4.1,2.7525,0.21321544737351472,-0.04963939291648586,0.94410987670034,-0.01398802218355,-0.283511,-25.751618
11.185,2.0,1.0,1.0,33.2,34.2,34.2,3.1,4.1,2.755,0.200419952976823,-0.05126977529520666,0.9457165037805632,-0.015282496603076007,-0.293985,-25.433084
11.185,2.0,1.0,1.0,33.2,34.2,34.2,3.1,4.1,2.7575,0.18739387722049008,-0.052980446280639644,0.9471124181855195,-0.016683904798157994,-0.305196,-25.107054
11.185,2.0,1.0,1.0,33.2,34.2,34.2,3.1,4.1,2.76,0.17412953589949806,-0.05477668938432435,0.948282235477185,-0.01820364417557781,-0.317224,-24.773135
11.185,2.0,1.0,1.0,33.2,34.2,34.2,3.1,4.1,2.7625,0.1606188195067929,-0.05666414664912735,0.9492088485053884,-0.019854657096814464,-0.330159,-24.430908
11.185,2.0,1.0,1.0,33.2,34.2,34.2,3.1,4.1,2.765,0.1468531850677006,-0.058648822717158676,0.9498731609431028,-0.02165168564274549,-0.344103,-24.079921
11.185,2.0,1.0,1.0,33.2,34.2,34.2,3.1,4.1,2.7675,0.1328236578088784,-0.06073707869200562,0.9502537702841938,-0.02361157565785396,-0.359175,-23.71969
11.185,2.0,1.0,1.0,33.2,34.2,34.2,3.1,4.1,2.77,0.11852084764757848,-0.06293561078861017,0.9503265892686882,-0.02575364090559054,-0.375512,-23.349689
11.185,2.0,1.0,1.0,33.2,34.2,34.2,3.1,4.1,2.7725,0.10393498756873416,-0.065251406690287,0.9500643920425021,-0.02810010078123423,-0.393272,-22.969356
11.185,2.0,1.0,1.0,33.2,34.2,34.2,3.1,4.1,2.775,0.08905600390710819,-0.06769166959644551,0.9494362680290547,-0.030676608303600073,-0.412641,-22.578079
11.185,2.0,1.0,1.0,33.2,34.2,34.2,3.1,4.1,2.7775,0.07387363274779682,-0.07026369577151483,0.9484069623286842,-0.033512889199675606,-0.433835,-22.175202
11.185,2.0,1.0,1.0,33.2,34.2,34.2,3.1,4.1,2.78,0.05837760265289882,-0.07297468544805824,0.9469360762840416,-0.03664351798693295,-0.457112,-21.76001
11.185,2.0,1.0,1.0,33.2,34.2,34.2,3.1,4.1,2.7825,0.04255791252567656,-0.0758314583921277,0.9449770954598945,-0.04010886323738097,-0.482775,-21.331735
11.185,2.0,1.0,1.0,33.2,34.2,34.2,3.1,4.1,2.785,0.026405245830920687,-0.07884003312300462,0.9424762045080141,-0.04395624184517631,-0.511184,-20.889542
11.185,2.0,1.0,1.0,33.2,34.2,34.2,3.1,4.1,2.7875,0.009911580371233209,-0.08200501094077416,0.9393708391356268,-0.0482413311947699,-0.542775,-20.432532
11.185,2.0,1.0,1.0,33.2,34.2,34.2,3.1,4.1,2.79,-0.006928920998863352,-0.08532867995314453,0.9355879148165421,-0.05302989848400329,-0.57807,-19.959731
11.185,2.0,1.0,1.0,33.2,34.2,34.2,3.1,4.1,2.7925,-0.024118615046932468,-0.08880971634145524,0.9310416606438607,-0.05839991742276544,-0.617704,-19.470093
11.185,2.0,1.0,1.0,33.2,34.2,34.2,3.1,4.1,2.795,-0.04165449834287282,-0.0924413044247255,0.9256309765603956,-0.0644441523619527,-0.662456,-18.962495
11.185,2.0,1.0,1.0,33.2,34.2,34.2,3.1,4.1,2.7975,-0.05952548035937562,-0.0962084151916279,0.9192362269826359,-0.07127329475464103,-0.713284,-18.435738
11.185,2.0,1.0,1.0,33.2,34.2,34.2,3.1,4.1,2.8,-0.07770842517472172,-0.10008386249954969,0.9117153915374836,-0.07901972876993878,-0.771378,-17.888555
11.185,2.0,1.0,1.0,33.2,34.2,34.2,3.1,4.1,2.8025,-0.09616239881349235,-0.10402257944207612,0.9028995300774985,-0.08784196615479134,-0.838226,-17.319627
11.185,2.0,1.0,1.0,33.2,34.2,34.2,3.1,4.1,2.805,-0.11482029926988634,-0.10795330039279304,0.8925876148719757,-0.09792969476663237,-0.915706,-16.727608
11.185,2.0,1.0,1.0,33.2,34.2,34.2,3.1,4.1,2.8075,-0.13357667441671117,-0.1117664669573524,0.880540995699336,-0.10950917327917965,-1.006199,-16.111176
11.185,2.0,1.0,1.0,33.2,34.2,34.2,3.1,4.1,2.81,-0.15227001881339117,-0.11529666869750196,0.866478200865335,-0.12284827006707118,-1.112755,-15.469108
11.185,2.0,1.0,1.0,33.2,34.2,34.2,3.1,4.1,2.8125,-0.17065717508637,-0.118297273973726,0.850071633739254,-0.138259594478142,-1.239291,-14.800413
11.185,2.0,1.0,1.0,33.2,34.2,34.2,3.1,4.1,2.815,-0.18837672278858703,-0.1204041766374085,0.8309493412852088,-0.15609856651671672,-1.390858,-14.104533
11.185,2.0,1.0,1.0,33.2,34.2,34.2,3.1,4.1,2.8175,-0.20489772543215648,-0.12108508702082471,0.8087079695628856,-0.1767503622796213,-1.57396,-13.381657
11.185,2.0,1.0,1.0,33.2,34.2,34.2,3.1,4.1,2.82,-0.2194508119544617,-0.11957141071912337,0.7829480975216118,-0.200594653016918,-1.796892,-12.633204
11.185,2.0,1.0,1.0,33.2,34.2,34.2,3.1,4.1,2.8225,-0.23094245981790115,-0.11477363195746308,0.7533512100396635,-0.22792908651145233,-2.069976,-11.862546
11.185,2.0,1.0,1.0,33.2,34.2,34.2,3.1,4.1,2.825,-0.237865139859543,-0.1051928133219619,0.7198284385967323,-0.25882174812329256,-2.40534,-11.076036
11.185,2.0,1.0,1.0,33.2,34.2,34.2,3.1,4.1,2.8275,-0.23824381931248517,-0.0888683739116351,0.6827802037750477,-0.2928540154116772,-2.815407,-10.284409
