1,w,sub_t,h,l1,l2,l3,g1,g2,Freq,S11_re,S21_re,S11_img,S21_img,S11_dB,S21_dB
11.185,2.0,1.0,1.0,33.6,33.1,33.1,3.8,4.0,2.5,0.838676802160193,-0.00509780890425504,0.533697257528883,0.00306793025697037,-0.051501,-44.509986
11.185,2.0,1.0,1.0,33.6,33.1,33.1,3.8,4.0,2.5025,0.8350464359603615,-0.005188884053995221,0.5392673920217717,0.003066661341638721,-0.051939,-44.397474
11.185,2.0,1.0,1.0,33.6,33.1,33.1,3.8,4.0,2.505,0.8313635715668292,-0.005281264941843105,0.5448350990951686,0.0030646023022020616,-0.052384,-44.284828
11.185,2.0,1.0,1.0,33.6,33.1,33.1,3.8,4.0,2.5075,0.8276277218752707,-0.005374969993197241,0.5504001037212366,0.0030617289567399664,-0.052835,-44.172041
11.185,2.0,1.0,1.0,33.6,33.1,33.1,3.8,4.0,2.51,0.82383839302178,-0.005470017907519212,0.5559621231052295,0.003058016414187609,-0.053294,-44.059108
11.185,2.0,1.0,1.0,33.6,33.1,33.1,3.8,4.0,2.5125,0.8199950843092308,-0.00556642766107817,0.5615208664538528,0.003053439051604563,-0.05376,-43.946022
11.185,2.0,1.0,1.0,33.6,33.1,33.1,3.8,4.0,2.515,0.816097288134193,-0.005664218509615505,0.5670760347368827,0.0030479704906531324,-0.054233,-43.832778
11.185,2.0,1.0,1.0,33.6,33.1,33.1,3.8,4.0,2.5175,0.8121444899145168,-0.0057634099909205224,0.5726273204418297,0.003041583573256223,-0.054714,-43.719369
11.185,2.0,1.0,1.0,33.6,33.1,33.1,3.8,4.0,2.52,0.8081361680176709,-0.005864021927307694,0.5781744073214681,0.0030342503364037205,-0.055202,-43.60579
11.185,2.0,1.0,1.0,33.6,33.1,33.1,3.8,4.0,2.5225,0.8040717936899612,-0.005966074427985316,0.5837169701339899,0.0030259419860751376,-0.055698,-43.492034
11.185,2.0,1.0,1.0,33.6,33.1,33.1,3.8,4.0,2.525,0.7999508309867276,-0.0060695878913048324,0.5892546743755973,0.0030166288702446285,-0.056202,-43.378095
11.185,2.0,1.0,1.0,33.6,33.1,33.1,3.8,4.0,2.5275,0.7957727367036503,-0.006174583006879493,0.5947871760053018,0.0030062804509333576,-0.056714,-43.263968
11.185,2.0,1.0,1.0,33.6,33.1,33.1,3.8,4.0,2.53,0.7915369603092943,-0.006281080757559848,0.600314121161697,0.0029948652752727666,-0.057234,-43.149645
11.185,2.0,1.0,1.0,33.6,33.1,33.1,3.8,4.0,2.5325,0.7872429438790245,-0.006389102421253288,0.6058351458714815,0.0029823509455404085,-0.057763,-43.035121
11.185,2.0,1.0,1.0,33.6,33.1,33.1,3.8,4.0,2.535,0.7828901220304352,-0.006498669572573848,0.6113498757494912,0.0029687040881287625,-0.0583,-42.92039
11.185,2.0,1.0,1.0,33.6,33.1,33.1,3.8,4.0,2.5375,0.7784779218604563,-0.006609804084307293,0.616857925689987,0.002953890321405559,-0.058846,-42.805446
11.185,2.0,1.0,1.0,33.6,33.1,33.1,3.8,4.0,2.54,0.7740057628842811,-0.006722528128676149,0.622358899548953,0.0029378742224224737,-0.059401,-42.690282
11.185,2.0,1.0,1.0,33.6,33.1,33.1,3.8,4.0,2.5425,0.7694730569763013,-0.0068368641783878425,0.6278523898171433,0.0029206192924271695,-0.059965,-42.574891
11.185,2.0,1.0,1.0,33.6,33.1,33.1,3.8,4.0,2.545,0.764879208313217,-0.00695283500744839,0.633337977283614,0.0029020879211316642,-0.060539,-42.459268
11.185,2.0,1.0,1.0,33.6,33.1,33.1,3.8,4.0,2.5475,0.7602236133195235,-0.007070463691722618,0.6388152306894532,0.0028822413496880513,-0.061121,-42.343406
11.185,2.0,1.0,1.0,33.6,33.1,33.1,3.8,4.0,2.55,0.7555056606155602,-0.007189773609221319,0.6442837063714518,0.002861039632320577,-0.061714,-42.227299
11.185,2.0,1.0,1.0,33.6,33.1,33.1,3.8,4.0,2.5525,0.7507247309683517,-0.007310788440093539,0.6497429478953995,0.0028384415965603624,-0.062317,-42.11094
11.185,2.0,1.0,1.0,33.6,33.1,33.1,3.8,4.0,2.555,0.7458801972454483,-0.007433532166302007,0.6551924856787302,0.0028144048020276643,-0.062929,-41.994322
11.185,2.0,1.0,1.0,33.6,33.1,33.1,3.8,4.0,2.5575,0.7409714243720076,-0.007558029070957318,0.6606318366022073,0.0027888854977027792,-0.063552,-41.87744
11.185,2.0,1.0,1.0,33.6,33.1,33.1,3.8,4.0,2.56,0.7359977692913672,-0.007684303737285611,0.6660605036103326,0.0027618385776255134,-0.064186,-41.760287
11.185,2.0,1.0,1.0,33.6,33.1,33.1,3.8,4.0,2.5625,0.730958580929368,-0.0078123810472024826,0.6714779753001635,0.002733217534959415,-0.06483,-41.642855
11.185,2.0,1.0,1.0,33.6,33.1,33.1,3.8,4.0,2.565,0.7258532001626993,-0.007942286179464741,0.6768837254982154,0.0027029744143545337,-0.065486,-41.525138
11.185,2.0,1.0,1.0,33.6,33.1,33.1,3.8,4.0,2.5675,0.7206809597915687,-0.008074044607368887,0.682277212825102,0.0026710597625395067,-0.066153,-41.40713
11.185,2.0,1.0,1.0,33.6,33.1,33.1,3.8,4.0,2.57,0.7154411845169876,-0.00820768209596446,0.6876578802475792,0.0026374225770704864,-0.066831,-41.288824
11.185,2.0,1.0,1.0,33.6,33.1,33.1,3.8,4.0,2.5725,0.710133190923004,-0.008343224698747532,0.6930251546176387,0.0026020102531611644,-0.067521,-41.170212
11.185,2.0,1.0,1.0,33.6,33.1,33.1,3.8,4.0,2.575,0.7047562874642185,-0.008480698753797769,0.6983784461982877,0.0025647685285147734,-0.068223,-41.051287
11.185,2.0,1.0,1.0,33.6,33.1,33.1,3.8,4.0,2.5775,0.6993097744589396,-0.008620130879320176,0.7037171481756449,0.0025256414260751837,-0.068937,-40.932044
11.185,2.0,1.0,1.0,33.6,33.1,33.1,3.8,4.0,2.58,0.6937929440883602,-0.008761547968550384,0.7090406361569769,0.0024845711946102538,-0.069664,-40.812474
11.185,2.0,1.0,1.0,33.6,33.1,33.1,3.8,4.0,2.5825,0.6882050804021393,-0.008904977183979576,0.7143482676542859,0.0024414982470368726,-0.070404,-40.692571
11.185,2.0,1.0,1.0,33.6,33.1,33.1,3.8,4.0,2.585,0.6825454593308159,-0.009050445950852396,0.719639381553052,0.0023963610963925464,-0.071156,-40.572326
11.185,2.0,1.0,1.0,33.6,33.1,33.1,3.8,4.0,2.5875,0.6768133487054825,-0.009197981949888651,0.7249132975657288,0.002349096289353983,-0.071923,-40.451734
11.185,2.0,1.0,1.0,33.6,33.1,33.1,3.8,4.0,2.59,0.6710080082851886,-0.00934761310917602,0.7301693156695716,0.0022996383371984455,-0.072702,-40.330786
11.185,2.0,1.0,1.0,33.6,33.1,33.1,3.8,4.0,2.5925,0.6651286897925424,-0.009499367595178243,0.7354067155283833,0.00224791964409838,-0.073496,-40.209475
11.185,2.0,1.0,1.0,33.6,33.1,33.1,3.8,4.0,2.595,0.6591746369580405,-0.009653273802799177,0.7406247558977332,0.0021938704326352186,-0.074305,-40.087794
11.185,2.0,1.0,1.0,33.6,33.1,33.1,3.8,4.0,2.5975,0.6531450855736357,-0.009809360344440243,0.7458226740132212,0.0021374186664114723,-0.075128,-39.965735
11.185,2.0,1.0,1.0,33.6,33.1,33.1,3.8,4.0,2.6,0.6470392635561176,-0.009967656037983913,0.7509996849613294,0.002078489969635582,-0.075966,-39.843289
11.185,2.0,1.0,1.0,33.6,33.1,33.1,3.8,4.0,2.6025,0.6408563910208965,-0.010128189893632464,0.7561549810323949,0.0020170075435471673,-0.076819,-39.72045
11.185,2.0,1.0,1.0,33.6,33.1,33.1,3.8,4.0,2.605,0.6345956803667987,-0.010290991099526395,0.76128773105525,0.00195289207954339,-0.077688,-39.59721
11.185,2.0,1.0,1.0,33.6,33.1,33.1,3.8,4.0,2.6075,0.6282563363725319,-0.010456089006062189,0.766397079713039,0.0018860616688609975,-0.078573,-39.47356
11.185,2.0,1.0,1.0,33.6,33.1,33.1,3.8,4.0,2.61,0.6218375563055035,-0.010623513108824024,0.7714821468397245,0.0018164317086604438,-0.079475,-39.349492
11.185,2.0,1.0,1.0,33.6,33.1,33.1,3.8,4.0,2.6125,0.6153385300437014,-0.010793293030038934,0.7765420266967946,0.0017439148043512174,-0.080393,-39.224998
11.185,2.0,1.0,1.0,33.6,33.1,33.1,3.8,4.0,2.615,0.6087584402113909,-0.010965458498458792,0.7815757872296628,0.0016684206679887662,-0.081329,-39.10007
11.185,2.0,1.0,1.0,33.6,33.1,33.1,3.8,4.0,2.6175,0.6020964623294213,-0.01114003932756658,0.7865824693032403,0.001589856012564896,-0.082282,-38.974698
11.185,2.0,1.0,1.0,33.6,33.1,33.1,3.8,4.0,2.62,0.5953517649809668,-0.011317065391997698,0.7915610859161649,0.0015081244420041926,-0.083254,-38.848876
11.185,2.0,1.0,1.0,33.6,33.1,33.1,3.8,4.0,2.6225,0.5885235099935631,-0.011496566602060635,0.7965106213931573,0.0014231263366688291,-0.084244,-38.722594
11.185,2.0,1.0,1.0,33.6,33.1,33.1,3.8,4.0,2.625,0.581610852638368,-0.0116785728762328,0.801430030554954,0.00133475873416396,-0.085253,-38.595842
11.185,2.0,1.0,1.0,33.6,33.1,33.1,3.8,4.0,2.6275,0.5746129418475787,-0.011863114111500584,0.8063182378652816,0.0012429152052243551,-0.086281,-38.468613
11.185,2.0,1.0,1.0,33.6,33.1,33.1,3.8,4.0,2.63,0.5675289204510241,-0.012050220151403538,0.8111741365543121,0.0011474857244513374,-0.087329,-38.340897
11.185,2.0,1.0,1.0,33.6,33.1,33.1,3.8,4.0,2.6325,0.5603579254329734,-0.01223992075163326,0.8159965877180356,0.0010483565356559986,-0.088398,-38.212684
11.185,2.0,1.0,1.0,33.6,33.1,33.1,3.8,4.0,2.635,0.5530990882102624,-0.012432245543028738,0.820784419392981,0.0009454100115517327,-0.089487,-38.083966
11.185,2.0,1.0,1.0,33.6,33.1,33.1,3.8,4.0,2.6375,0.5457515349328997,-0.012627223991798156,0.8255364256057063,0.0008385245075243654,-0.090598,-37.954733
11.185,2.0,1.0,1.0,33.6,33.1,33.1,3.8,4.0,2.64,0.5383143868083399,-0.012824885356787713,0.83025136539648,0.0007275742091924087,-0.091731,-37.824975
11.185,2.0,1.0,1.0,33.6,33.1,33.1,3.8,4.0,2.6425,0.5307867604507138,-0.013025258643604327,0.8349279618165569,0.0006124289734548702,-0.092886,-37.694682
11.185,2.0,1.0,1.0,33.6,33.1,33.1,3.8,4.0,2.645,0.5231677682563257,-0.013228372555387596,0.8395649008984579,0.0004929541627049148,-0.094064,-37.563845
11.185,2.0,1.0,1.0,33.6,33.1,33.1,3.8,4.0,2.6475,0.5154565188068159,-0.01343425544001176,0.8441608305986472,0.0003690104718703483,-0.095266,-37.432453
11.185,2.0,1.0,1.0,33.6,33.1,33.1,3.8,4.0,2.65,0.5076521173014285,-0.013642935233484633,0.8487143597120145,0.0002404537479209591,-0.096493,-37.300495
11.185,2.0,1.0,1.0,33.6,33.1,33.1,3.8,4.0,2.6525,0.4997536660199329,-0.013854439399293103,0.8532240567575285,0.00010713480146224863,-0.097744,-37.167961
11.185,2.0,1.0,1.0,33.6,33.1,33.1,3.8,4.0,2.655,0.49176026481776497,-0.01406879486342967,0.8576884488344745,-3.110078998916809e-05,-0.099021,-37.034841
11.185,2.0,1.0,1.0,33.6,33.1,33.1,3.8,4.0,2.6575,0.4836710116550764,-0.01428602794481432,0.8621060204486387,-0.00017441288747611352,-0.100323,-36.901123
11.185,2.0,1.0,1.0,33.6,33.1,33.1,3.8,4.0,2.66,0.4754850031614266,-0.014506164280807882,0.866475212307833,-0.0003229670052727982,-0.101653,-36.766796
11.185,2.0,1.0,1.0,33.6,33.1,33.1,3.8,4.0,2.6625,0.46720133523795837,-0.014729228747490237,0.8707944200861241,-0.0004769345352409702,-0.103011,-36.631849
11.185,2.0,1.0,1.0,33.6,33.1,33.1,3.8,4.0,2.665,0.45881910369895107,-0.014955245374355457,0.8750619931561618,-0.0006364929813840607,-0.104396,-36.49627
11.185,2.0,1.0,1.0,33.6,33.1,33.1,3.8,4.0,2.6675,0.45033740495477204,-0.015184237253049451,0.8792762332889634,-0.0008018262051452761,-0.105811,-36.360047
11.185,2.0,1.0,1.0,33.6,33.1,33.1,3.8,4.0,2.67,0.4417553367383059,-0.015416226439750581,0.8834353933205384,-0.0009731246820310199,-0.107256,-36.223168
11.185,2.0,1.0,1.0,33.6,33.1,33.1,3.8,4.0,2.6725,0.43307199887705083,-0.015651233850763783,0.8875376757847335,-0.0011505857701793588,-0.108731,-36.085621
11.185,2.0,1.0,1.0,33.6,33.1,33.1,3.8,4.0,2.675,0.4242864941131788,-0.01588927915086787,0.8915812315116591,-0.0013344139915328213,-0.110238,-35.947393
11.185,2.0,1.0,1.0,33.6,33.1,33.1,3.8,4.0,2.6775,0.41539792897395034,-0.01613038063392164,0.8955641581910887,-0.001524821326320116,-0.111778,-35.808471
11.185,2.0,1.0,1.0,33.6,33.1,33.1,3.8,4.0,2.68,0.4064054146949798,-0.016374555095198407,0.8994844989002002,-0.0017220275215982387,-0.113351,-35.668842
11.185,2.0,1.0,1.0,33.6,33.1,33.1,3.8,4.0,2.6825,0.39730806819898373,-0.01662181769487732,0.903340240595042,-0.0019262604146575355,-0.114958,-35.528493
11.185,2.0,1.0,1.0,33.6,33.1,33.1,3.8,4.0,2.685,0.3881050131327328,-0.016872181812078474,0.9071293125651052,-0.0021377562721483796,-0.1166,-35.387409
11.185,2.0,1.0,1.0,33.6,33.1,33.1,3.8,4.0,2.6875,0.37879538096507376,-0.017125658888780534,0.9108495848503885,-0.0023567601458477244,-0.118278,-35.245576
11.185,2.0,1.0,1.0,33.6,33.1,33.1,3.8,4.0,2.69,0.3693783121490229,-0.017382258262908422,0.9144988666203353,-0.002583526246048582,-0.119994,-35.102981
11.185,2.0,1.0,1.0,33.6,33.1,33.1,3.8,4.0,2.6925,0.3598529573510301,-0.017641986989824207,0.9180749045140383,-0.002818318333626637,-0.121748,-34.959608
11.185,2.0,1.0,1.0,33.6,33.1,33.1,3.8,4.0,2.695,0.3502184787507194,-0.01790484965139165,0.9215753809410905,-0.003061410131913558,-0.123542,-34.815441
11.185,2.0,1.0,1.0,33.6,33.1,33.1,3.8,4.0,2.6975,0.3404740514144842,-0.018170848151720535,0.9249979123424835,-0.0033130857595907266,-0.125377,-34.670467
11.185,2.0,1.0,1.0,33.6,33.1,33.1,3.8,4.0,2.7,0.3306188647465419,-0.018439981498622738,0.9283400474109267,-0.003573640185905678,-0.127253,-34.524667
11.185,2.0,1.0,1.0,33.6,33.1,33.1,3.8,4.0,2.7025,0.3206521240211593,-0.018712245569733894,0.9315992652699837,-0.0038433797096131357,-0.129172,-34.378027
11.185,2.0,1.0,1.0,33.6,33.1,33.1,3.8,4.0,2.705,0.31057305199997287,-0.018987632862166724,0.9347729736113982,-0.004122622463147386,-0.131136,-34.230529
11.185,2.0,1.0,1.0,33.6,33.1,33.1,3.8,4.0,2.7075,0.30038089063847945,-0.01926613222446747,0.9378585067899895,-0.004411698943650359,-0.133146,-34.082156
11.185,2.0,1.0,1.0,33.6,33.1,33.1,3.8,4.0,2.71,0.2900749028859821,-0.019547728569541605,0.9408531238754699,-0.004710952572604671,-0.135203,-33.93289
11.185,2.0,1.0,1.0,33.6,33.1,33.1,3.8,4.0,2.7125,0.279654374583454,-0.01983240256710044,0.9437540066605419,-0.005020740285960438,-0.137308,-33.782713
11.185,2.0,1.0,1.0,33.6,33.1,33.1,3.8,4.0,2.715,0.26911861646401686,-0.020120130314053002,0.9465582576245938,-0.005341433156793888,-0.139464,-33.631606
11.185,2.0,1.0,1.0,33.6,33.1,33.1,3.8,4.0,2.7175,0.2584669662609281,-0.020410882981128625,0.949262897852304,-0.005673417052700955,-0.141672,-33.479551
11.185,2.0,1.0,1.0,33.6,33.1,33.1,3.8,4.0,2.72,0.24769879092823485,-0.020704626433860417,0.9518648649064111,-0.0060170933303088404,-0.143933,-33.326526
11.185,2.0,1.0,1.0,33.6,33.1,33.1,3.8,4.0,2.7225,0.2368134889794578,-0.021001320825891047,0.9543610106538943,-0.006372879569485619,-0.146249,-33.172512
11.185,2.0,1.0,1.0,33.6,33.1,33.1,3.8,4.0,2.725,0.22581049294999636,-0.021300920162371943,0.9567480990447207,-0.006741210350042172,-0.148623,-33.017488
11.185,2.0,1.0,1.0,33.6,33.1,33.1,3.8,4.0,2.7275,0.21468927198915116,-0.021603371831019885,0.9590228038422929,-0.007122538073959698,-0.151055,-32.861432
11.185,2.0,1.0,1.0,33.6,33.1,33.1,3.8,4.0,2.73,0.20344933458804026,-0.021908616098162113,0.9611817063046159,-0.007517333836431709,-0.153548,-32.704321
11.185,2.0,1.0,1.0,33.6,33.1,33.1,3.8,4.0,2.7325,0.19209023144994025,-0.022216585566844266,0.9632212928151408,-0.007926088349297226,-0.156105,-32.546132
11.185,2.0,1.0,1.0,33.6,33.1,33.1,3.8,4.0,2.735,0.18061155850998586,-0.022527204593788645,0.9651379524621093,-0.008349312920751747,-0.158726,-32.386842
11.185,2.0,1.0,1.0,33.6,33.1,33.1,3.8,4.0,2.7375,0.1690129601114937,-0.02284038866167181,0.9669279745651033,-0.008787540495568432,-0.161415,-32.226426
11.185,2.0,1.0,1.0,33.6,33.1,33.1,3.8,4.0,2.74,0.157294132346617,-0.0231560437028342,0.9685875461473351,-0.009241326760437997,-0.164173,-32.064859
11.185,2.0,1.0,1.0,33.6,33.1,33.1,3.8,4.0,2.7425,0.14545482656944597,-0.023474065370137055,0.9701127493520437,-0.009711251319454146,-0.167004,-31.902113
11.185,2.0,1.0,1.0,33.6,33.1,33.1,3.8,4.0,2.745,0.13349485309017536,-0.023794338250237208,0.9714995588011215,-0.010197918945229105,-0.16991,-31.738163
11.185,2.0,1.0,1.0,33.6,33.1,33.1,3.8,4.0,2.7475,0.1214140850594713,-0.024116735014052045,0.972743838893857,-0.010701960911629962,-0.172893,-31.572979
11.185,2.0,1.0,1.0,33.6,33.1,33.1,3.8,4.0,2.75,0.109212462552747,-0.0244411154986276,0.973841341043369,-0.0112240364146864,-0.175956,-31.406532
11.185,2.0,1.0,1.0,33.6,33.1,33.1,3.8,4.0,2.7525,0.09688999686469617,-0.024767325713995432,0.9747877008479573,-0.011764834088836225,-0.179103,-31.238793
11.185,2.0,1.0,1.0,33.6,33.1,33.1,3.8,4.0,2.755,0.0844467750251449,-0.0250951967678959,0.9755784351941927,-0.01232507362635766,-0.182337,-31.06973
11.185,2.0,1.0,1.0,33.6,33.1,33.1,3.8,4.0,2.7575,0.07188296454802001,-0.025424543700451073,0.9762089392880934,-0.012905507508593598,-0.18566,-30.899311
11.185,2.0,1.0,1.0,33.6,33.1,33.1,3.8,4.0,2.76,0.059198818426173916,-0.025755164219969328,0.9766744836101923,-0.01350692285840615,-0.189077,-30.727501
11.185,2.0,1.0,1.0,33.6,33.1,33.1,3.8,4.0,2.7625,0.0463946803856964,-0.026086837330050534,0.9769702107896661,-0.01413014342422836,-0.192591,-30.554265
11.185,2.0,1.0,1.0,33.6,33.1,33.1,3.8,4.0,2.765,0.03347099041449683,-0.02641932183700851,0.9770911323919833,-0.014776031707104523,-0.196205,-30.379568
11.185,2.0,1.0,1.0,33.6,33.1,33.1,3.8,4.0,2.7675,0.02042829058113954,-0.026752354725325625,0.9770321256136818,-0.015445491243250144,-0.199925,-30.203371
11.185,2.0,1.0,1.0,33.6,33.1,33.1,3.8,4.0,2.77,0.007267231161292591,-0.0270856493873734,0.976787929876943,-0.01613946905592844,-0.203754,-30.025634
11.185,2.0,1.0,1.0,33.6,33.1,33.1,3.8,4.0,2.7725,-0.00601142290925587,-0.027418893691949983,0.9763531433155352,-0.01685895829184347,-0.207697,-29.846318
11.185,2.0,1.0,1.0,33.6,33.1,33.1,3.8,4.0,2.775,-0.01940678523429393,-0.027751747874267537,0.9757222191424395,-0.01760500105881356,-0.211758,-29.665378
11.185,2.0,1.0,1.0,33.6,33.1,33.1,3.8,4.0,2.7775,-0.032917840786826275,-0.028083842227835124,0.9748894618880527,-0.01837869148322628,-0.215944,-29.482771
11.185,2.0,1.0,1.0,33.6,33.1,33.1,3.8,4.0,2.78,-0.04654343834359379,-0.028414774576182626,0.9738490234962208,-0.019181179007711976,-0.220259,-29.29845
11.185,2.0,1.0,1.0,33.6,33.1,33.1,3.8,4.0,2.7825,-0.06028228249668809,-0.028744107499508283,0.9725948992635062,-0.02001367195162524,-0.224708,-29.112366
11.185,2.0,1.0,1.0,33.6,33.1,33.1,3.8,4.0,2.785,-0.07413292521149978,-0.029071365288052053,0.9711209236049686,-0.02087744135933017,-0.229299,-28.924469
11.185,2.0,1.0,1.0,33.6,33.1,33.1,3.8,4.0,2.7875,-0.08809375689662596,-0.029396030590225615,0.9694207656273397,-0.021773825163958167,-0.234038,-28.734705
11.185,2.0,1.0,1.0,33.6,33.1,33.1,3.8,4.0,2.79,-0.10216299694737561,-0.02971754071919328,0.9674879244877231,-0.0227042326972992,-0.238931,-28.54302
11.185,2.0,1.0,1.0,33.6,33.1,33.1,3.8,4.0,2.7925,-0.11633868371973345,-0.03003528357659695,0.9653157245128635,-0.023670149579816883,-0.243986,-28.349355
11.185,2.0,1.0,1.0,33.6,33.1,33.1,3.8,4.0,2.795,-0.13061866388627308,-0.030348593146344225,0.9628973100504888,-0.024673143028504978,-0.249211,-28.15365
11.185,2.0,1.0,1.0,33.6,33.1,33.1,3.8,4.0,2.7975,-0.14500058111906378,-0.030656744504696274,0.9602256400202591,-0.025714867624450997,-0.254614,-27.955841
11.185,2.0,1.0,1.0,33.6,33.1,33.1,3.8,4.0,2.8,-0.15948186403735107,-0.030958948285149262,0.9572934821273191,-0.0267970715866204,-0.260204,-27.755862
11.185,2.0,1.0,1.0,33.6,33.1,33.1,3.8,4.0,2.8025,-0.17405971334911044,-0.031254344527605796,0.9540934066963533,-0.027921603603552378,-0.265992,-27.553642
11.185,2.0,1.0,1.0,33.6,33.1,33.1,3.8,4.0,2.805,-0.18873108810551747,-0.031541995830865296,0.9506177800782825,-0.029090420280442945,-0.271986,-27.349108
11.185,2.0,1.0,1.0,33.6,33.1,33.1,3.8,4.0,2.8075,-0.20349269097562322,-0.03182087971525573,0.9468587575752171,-0.030305594265550788,-0.2782,-27.142183
11.185,2.0,1.0,1.0,33.6,33.1,33.1,3.8,4.0,2.81,-0.21834095243466925,-0.0320898800879645,0.9428082758219513,-0.03156932312706265,-0.284643,-26.932786
11.185,2.0,1.0,1.0,33.6,33.1,33.1,3.8,4.0,2.8125,-0.233272013743187,-0.032347777686921,0.938458044554061,-0.0328839390595795,-0.29133,-26.72083
11.185,2.0,1.0,1.0,33.6,33.1,33.1,3.8,4.0,2.815,-0.24828170857490567,-0.032593239359485014,0.9337995376833602,-0.03425191950832491,-0.298273,-26.506228
11.185,2.0,1.0,1.0,33.6,33.1,33.1,3.8,4.0,2.8175,-0.263365543128807,-0.03282480600913521,0.9288239835911403,-0.03567589880910444,-0.30549,-26.288882
11.185,2.0,1.0,1.0,33.6,33.1,33.1,3.8,4.0,2.82,-0.278518674533906,-0.03304087901617725,0.923522354537991,-0.037158680953059776,-0.312994,-26.068695
11.185,2.0,1.0,1.0,33.6,33.1,33.1,3.8,4.0,2.8225,-0.2937358873235535,-0.03323970490637586,0.9178853550760908,-0.03870325359744043,-0.320805,-25.845559
11.185,2.0,1.0,1.0,33.6,33.1,33.1,3.8,4.0,2.825,-0.30901156771831373,-0.033419358003381965,0.9119034093355243,-0.0403128034570377,-0.32894,-25.619364
11.185,2.0,1.0,1.0,33.6,33.1,33.1,3.8,4.0,2.8275,-0.32433967541154196,-0.03357772075566815,0.9055666470403118,-0.04199073322564578,-0.337422,-25.389992
