1,w,sub_t,h,l1,l2,l3,g1,g2,Freq,S11_re,S21_re,S11_img,S21_img,S11_dB,S21_dB
11.185,2.0,1.0,1.0,34.8,33.2,33.2,4.3,2.4,2.5,0.646313713239799,-0.0114535612779805,0.75269927481266,0.00355874551879633,-0.068824,-38.42094
11.185,2.0,1.0,1.0,34.8,33.2,33.2,4.3,2.4,2.5025,0.6398509320026323,-0.011632349932811085,0.7580957404480169,0.003496786451781917,-0.069527,-38.310929
11.185,2.0,1.0,1.0,34.8,33.2,33.2,4.3,2.4,2.505,0.6333074533943206,-0.011813308647937379,0.7634646218571591,0.003431983292686824,-0.070241,-38.20067
11.185,2.0,1.0,1.0,34.8,33.2,33.2,4.3,2.4,2.5075,0.6266825947870985,-0.011996450755033377,0.7688049589096391,0.0033642564909476896,-0.070967,-38.090158
11.185,2.0,1.0,1.0,34.8,33.2,33.2,4.3,2.4,2.51,0.6199756713290275,-0.012181789070785223,0.7741157670437424,0.003293524372532777,-0.071704,-37.979389
11.185,2.0,1.0,1.0,34.8,33.2,33.2,4.3,2.4,2.5125,0.613185996230893,-0.012369335857505513,0.7793960366789022,0.0032197030824478745,-0.072454,-37.868358
11.185,2.0,1.0,1.0,34.8,33.2,33.2,4.3,2.4,2.515,0.6063128810704309,-0.012559102781720888,0.7846447326168472,0.003142706525772874,-0.073216,-37.757061
11.185,2.0,1.0,1.0,34.8,33.2,33.2,4.3,2.4,2.5175,0.5993556361146534,-0.012751100870640245,0.7898607934314327,0.0030624463071998176,-0.073991,-37.645495
11.185,2.0,1.0,1.0,34.8,33.2,33.2,4.3,2.4,2.52,0.5923135706610272,-0.012945340466407738,0.7950431308471572,0.0029788316690427382,-0.074779,-37.533653
11.185,2.0,1.0,1.0,34.8,33.2,33.2,4.3,2.4,2.5225,0.585185993398346,-0.013141831178039352,0.8001906291063386,0.0028917694276900815,-0.07558,-37.421534
11.185,2.0,1.0,1.0,34.8,33.2,33.2,4.3,2.4,2.525,0.577972212788102,-0.013340581830939533,0.8053021443249886,0.0028011639084696617,-0.076394,-37.309131
11.185,2.0,1.0,1.0,34.8,33.2,33.2,4.3,2.4,2.5275,0.5706715374672356,-0.013541600413888077,0.8103765038374041,0.002706916878896773,-0.077222,-37.19644
11.185,2.0,1.0,1.0,34.8,33.2,33.2,4.3,2.4,2.53,0.563283276673159,-0.013744894023384469,0.8154125055295328,0.0026089274802758603,-0.078064,-37.083457
11.185,2.0,1.0,1.0,34.8,33.2,33.2,4.3,2.4,2.5325,0.5558067406919753,-0.013950468805230909,0.8204089171611889,0.0025070921576258683,-0.078921,-36.970177
11.185,2.0,1.0,1.0,34.8,33.2,33.2,4.3,2.4,2.535,0.5482412413308444,-0.014158329893231835,0.8253644756772178,0.0024013045878999817,-0.079792,-36.856596
11.185,2.0,1.0,1.0,34.8,33.2,33.2,4.3,2.4,2.5375,0.5405860924154997,-0.014368481344880986,0.8302778865077238,0.0022914556064700733,-0.080678,-36.742709
11.185,2.0,1.0,1.0,34.8,33.2,33.2,4.3,2.4,2.54,0.5328406103139165,-0.014580926073903233,0.8351478228575183,0.0021774331318465795,-0.081579,-36.628511
11.185,2.0,1.0,1.0,34.8,33.2,33.2,4.3,2.4,2.5425,0.5250041144871983,-0.014795665779512378,0.8399729249849595,0.0020591220886044762,-0.082496,-36.513998
11.185,2.0,1.0,1.0,34.8,33.2,33.2,4.3,2.4,2.545,0.5170759280687592,-0.015012700872240325,0.8447517994703942,0.0019364043284862496,-0.083429,-36.399164
11.185,2.0,1.0,1.0,34.8,33.2,33.2,4.3,2.4,2.5475,0.509055378472936,-0.015232030396187203,0.8494830184744279,0.0018091585496529826,-0.084378,-36.284006
11.185,2.0,1.0,1.0,34.8,33.2,33.2,4.3,2.4,2.55,0.500941798034161,-0.015453651947536633,0.8541651189863169,0.0016772602140546022,-0.085344,-36.168517
11.185,2.0,1.0,1.0,34.8,33.2,33.2,4.3,2.4,2.5525,0.49273452467791806,-0.01567756158917258,0.8587966020627603,0.0015405814628909377,-0.086326,-36.052694
11.185,2.0,1.0,1.0,34.8,33.2,33.2,4.3,2.4,2.555,0.4844329026246793,-0.01590375376122918,0.8633759320574682,0.0013989910301349922,-0.087326,-35.936531
11.185,2.0,1.0,1.0,34.8,33.2,33.2,4.3,2.4,2.5575,0.4760362831280886,-0.016132221187397468,0.8679015358418767,0.0012523541540901987,-0.088344,-35.820022
11.185,2.0,1.0,1.0,34.8,33.2,33.2,4.3,2.4,2.56,0.46754402524870153,-0.01636295477680531,0.8723718020174416,0.0011005324869537627,-0.089379,-35.703164
11.185,2.0,1.0,1.0,34.8,33.2,33.2,4.3,2.4,2.5625,0.4589554966645997,-0.016595943521280535,0.8767850801199936,0.0009433840023581602,-0.090433,-35.58595
11.185,2.0,1.0,1.0,34.8,33.2,33.2,4.3,2.4,2.565,0.45027007452024664,-0.016831174387799245,0.8811396798166732,0.0007807629008627429,-0.091506,-35.468376
11.185,2.0,1.0,1.0,34.8,33.2,33.2,4.3,2.4,2.5675,0.4414871463150073,-0.01706863220591271,0.8854338700960267,0.0006125195133682581,-0.092599,-35.350436
11.185,2.0,1.0,1.0,34.8,33.2,33.2,4.3,2.4,2.57,0.43260611083274775,-0.017308299549939146,0.8896658784518915,0.0004385002024261298,-0.093711,-35.232125
11.185,2.0,1.0,1.0,34.8,33.2,33.2,4.3,2.4,2.5725,0.42362637911400375,-0.017550156615697424,0.8938338900617624,0.0002585472614149936,-0.094843,-35.113438
11.185,2.0,1.0,1.0,34.8,33.2,33.2,4.3,2.4,2.575,0.4145473754722284,-0.01779418109155081,0.8979360469603803,7.249881155650938e-05,-0.095996,-34.994368
11.185,2.0,1.0,1.0,34.8,33.2,33.2,4.3,2.4,2.5775,0.405368538555659,-0.01804034802352009,0.9019704472093676,-0.00011981130325771454,-0.09717,-34.87491
11.185,2.0,1.0,1.0,34.8,33.2,33.2,4.3,2.4,2.58,0.3960893224563967,-0.018288629674214848,0.9059351440637701,-0.0003185536238565493,-0.098365,-34.755059
11.185,2.0,1.0,1.0,34.8,33.2,33.2,4.3,2.4,2.5825,0.3867091978682931,-0.018538995375323046,0.9098281451364774,-0.0005239031854266069,-0.099582,-34.634809
11.185,2.0,1.0,1.0,34.8,33.2,33.2,4.3,2.4,2.585,0.3772276532953117,-0.018791411373386968,0.9136474115615268,-0.0007360396294258446,-0.100822,-34.514154
11.185,2.0,1.0,1.0,34.8,33.2,33.2,4.3,2.4,2.5875,0.3676441963120228,-0.01904584066858385,0.9173908571574046,-0.0009551473178051724,-0.102085,-34.393088
11.185,2.0,1.0,1.0,34.8,33.2,33.2,4.3,2.4,2.59,0.35795835487796324,-0.019302242846217163,0.9210563475915103,-0.0011814154495695763,-0.103371,-34.271605
11.185,2.0,1.0,1.0,34.8,33.2,33.2,4.3,2.4,2.5925,0.3481696787075747,-0.019560573900613627,0.9246416995470745,-0.0014150381797136196,-0.104681,-34.1497
11.185,2.0,1.0,1.0,34.8,33.2,33.2,4.3,2.4,2.595,0.3382777406975193,-0.019820786051106796,0.9281446798938557,-0.0016562147405662529,-0.106016,-34.027365
11.185,2.0,1.0,1.0,34.8,33.2,33.2,4.3,2.4,2.5975,0.3282821384131269,-0.020082827549776774,0.9315630048640905,-0.0019051495655845055,-0.107376,-33.904594
11.185,2.0,1.0,1.0,34.8,33.2,33.2,4.3,2.4,2.6,0.3181824956358198,-0.02034664248060048,0.9348943392352262,-0.002162052415636714,-0.108762,-33.781382
11.185,2.0,1.0,1.0,34.8,33.2,33.2,4.3,2.4,2.6025,0.30797846397334544,-0.020612170549652347,0.9381362955210821,-0.0024271385078203827,-0.110175,-33.657721
11.185,2.0,1.0,1.0,34.8,33.2,33.2,4.3,2.4,2.605,0.29766972453466356,-0.020879346865980936,0.9412864331731918,-0.0027006286468641096,-0.111614,-33.533605
11.185,2.0,1.0,1.0,34.8,33.2,33.2,4.3,2.4,2.6075,0.2872559896713714,-0.02114810171276943,0.9443422577941855,-0.0029827493591674404,-0.113081,-33.409028
11.185,2.0,1.0,1.0,34.8,33.2,33.2,4.3,2.4,2.61,0.276737004787558,-0.021418360308371315,0.9473012203651675,-0.0032737330295385743,-0.114576,-33.283982
11.185,2.0,1.0,1.0,34.8,33.2,33.2,4.3,2.4,2.6125,0.26611255021997215,-0.02169004255679482,0.9501607164891965,-0.0035738180406967007,-0.116099,-33.15846
11.185,2.0,1.0,1.0,34.8,33.2,33.2,4.3,2.4,2.615,0.2553824431904104,-0.021963062787189305,0.9529180856530535,-0.003883248915613515,-0.117653,-33.032455
11.185,2.0,1.0,1.0,34.8,33.2,33.2,4.3,2.4,2.6175,0.24454653983223967,-0.02223732948186659,0.9555706105096384,-0.004202276462777329,-0.119237,-32.905961
11.185,2.0,1.0,1.0,34.8,33.2,33.2,4.3,2.4,2.62,0.2336047372929521,-0.022512744992368005,0.9581155161834423,-0.004531157924473922,-0.120852,-32.778969
11.185,2.0,1.0,1.0,34.8,33.2,33.2,4.3,2.4,2.6225,0.22255697591463966,-0.02278920524306469,0.9605499696016968,-0.004870157128190352,-0.122498,-32.651471
11.185,2.0,1.0,1.0,34.8,33.2,33.2,4.3,2.4,2.625,0.211403241494306,-0.0230665994217518,0.962871078853896,-0.00521954464126092,-0.124177,-32.523461
11.185,2.0,1.0,1.0,34.8,33.2,33.2,4.3,2.4,2.6275,0.2001435676258424,-0.0233448096566723,0.9650758925825809,-0.005579597928891304,-0.12589,-32.39493
11.185,2.0,1.0,1.0,34.8,33.2,33.2,4.3,2.4,2.63,0.18877803812555824,-0.02362371067937378,0.9671613994083459,-0.005950601515713874,-0.127636,-32.265871
11.185,2.0,1.0,1.0,34.8,33.2,33.2,4.3,2.4,2.6325,0.17730678954305557,-0.02390316947277193,0.9691245273922404,-0.006332847151047496,-0.129418,-32.136274
11.185,2.0,1.0,1.0,34.8,33.2,33.2,4.3,2.4,2.635,0.1657300137592526,-0.02418304490375826,0.9709621435388222,-0.006726633978058536,-0.131235,-32.006131
11.185,2.0,1.0,1.0,34.8,33.2,33.2,4.3,2.4,2.6375,0.15404796067330442,-0.024463187339652245,0.9726710533433018,-0.0071322687070448166,-0.13309,-31.875434
11.185,2.0,1.0,1.0,34.8,33.2,33.2,4.3,2.4,2.64,0.14226094098009864,-0.024743438247757713,0.9742480003863478,-0.007550065793095037,-0.134982,-31.744173
11.185,2.0,1.0,1.0,34.8,33.2,33.2,4.3,2.4,2.6425,0.1303693290400075,-0.025023629777236687,0.9756896659802673,-0.007980347618407338,-0.136912,-31.61234
11.185,2.0,1.0,1.0,34.8,33.2,33.2,4.3,2.4,2.645,0.11837356584244556,-0.02530358432246627,0.9769926688704337,-0.008423444679589031,-0.138883,-31.479925
11.185,2.0,1.0,1.0,34.8,33.2,33.2,4.3,2.4,2.6475,0.10627416206478066,-0.025583114066988672,0.9781535649959705,-0.008879695780300274,-0.140894,-31.346918
11.185,2.0,1.0,1.0,34.8,33.2,33.2,4.3,2.4,2.65,0.09407170122801088,-0.02586202050710626,0.9791688473138227,-0.009349448229652788,-0.142947,-31.21331
11.185,2.0,1.0,1.0,34.8,33.2,33.2,4.3,2.4,2.6525,0.08176684295059643,-0.026140093954105575,0.9800349456905407,-0.009833058046823339,-0.145042,-31.07909
11.185,2.0,1.0,1.0,34.8,33.2,33.2,4.3,2.4,2.655,0.06936032630168193,-0.026417113014024447,0.9807482268661682,-0.010330890172404924,-0.147182,-30.944247
11.185,2.0,1.0,1.0,34.8,33.2,33.2,4.3,2.4,2.6575,0.05685297325490096,-0.026692844043793455,0.9813049944948066,-0.010843318687079532,-0.149367,-30.808772
11.185,2.0,1.0,1.0,34.8,33.2,33.2,4.3,2.4,2.66,0.0442456922438075,-0.026967040582494693,0.9817014892665291,-0.011370727038271543,-0.151598,-30.672652
11.185,2.0,1.0,1.0,34.8,33.2,33.2,4.3,2.4,2.6625,0.03153948181990496,-0.02723944275638127,0.9819338891154283,-0.011913508275520254,-0.153877,-30.535876
11.185,2.0,1.0,1.0,34.8,33.2,33.2,4.3,2.4,2.665,0.01873543441407862,-0.027509776656191295,0.9819983095186989,-0.012472065295401893,-0.156205,-30.398432
11.185,2.0,1.0,1.0,34.8,33.2,33.2,4.3,2.4,2.6675,0.005834740202162983,-0.027777753685165118,0.9818908038917402,-0.013046811096928863,-0.158583,-30.260308
11.185,2.0,1.0,1.0,34.8,33.2,33.2,4.3,2.4,2.67,-0.00716130892478608,-0.028043069876038867,0.9816073640843284,-0.01363816904846824,-0.161013,-30.121491
11.185,2.0,1.0,1.0,34.8,33.2,33.2,4.3,2.4,2.6725,-0.02025131528509698,-0.028305405175132987,0.9811439209830128,-0.014246573167342444,-0.163496,-29.981967
11.185,2.0,1.0,1.0,34.8,33.2,33.2,4.3,2.4,2.675,-0.03343377122561211,-0.02856442269148162,0.9804963452248734,-0.014872468413412825,-0.166034,-29.841724
11.185,2.0,1.0,1.0,34.8,33.2,33.2,4.3,2.4,2.6775,-0.046707054835202794,-0.028819767908757187,0.9796604480278397,-0.015516310998097714,-0.168628,-29.700747
11.185,2.0,1.0,1.0,34.8,33.2,33.2,4.3,2.4,2.68,-0.06006942555263146,-0.029071067857527052,0.9786319821427697,-0.016178568710445075,-0.17128,-29.559022
11.185,2.0,1.0,1.0,34.8,33.2,33.2,4.3,2.4,2.6825,-0.07351901966883995,-0.029317930245137236,0.9774066429324274,-0.016859721262063095,-0.173992,-29.416532
11.185,2.0,1.0,1.0,34.8,33.2,33.2,4.3,2.4,2.685,-0.08705384572389965,-0.029559942540244286,0.9759800695824595,-0.017560260652919088,-0.176765,-29.273263
11.185,2.0,1.0,1.0,34.8,33.2,33.2,4.3,2.4,2.6875,-0.10067177979896089,-0.02979667100871038,0.974347846449379,-0.018280691560241518,-0.179602,-29.129198
11.185,2.0,1.0,1.0,34.8,33.2,33.2,4.3,2.4,2.69,-0.11437056070362171,-0.03002765969722988,0.9725055045504117,-0.019021531753008806,-0.182504,-28.98432
11.185,2.0,1.0,1.0,34.8,33.2,33.2,4.3,2.4,2.6925,-0.12814778505925667,-0.030252429360667393,0.9704485231998919,-0.01978331253478656,-0.185474,-28.83861
11.185,2.0,1.0,1.0,34.8,33.2,33.2,4.3,2.4,2.695,-0.14200090227885742,-0.03047047632864656,0.968172331796687,-0.020566579217972815,-0.188513,-28.692051
11.185,2.0,1.0,1.0,34.8,33.2,33.2,4.3,2.4,2.6975,-0.15592720944400484,-0.03068127130643501,0.9656723117668132,-0.021371891632850804,-0.191624,-28.544623
11.185,2.0,1.0,1.0,34.8,33.2,33.2,4.3,2.4,2.7,-0.16992384607954525,-0.030884258104608944,0.96294379866511,-0.022199824675210554,-0.194808,-28.396306
11.185,2.0,1.0,1.0,34.8,33.2,33.2,4.3,2.4,2.7025,-0.18398778882651065,-0.031078852291350472,0.9599820844394192,-0.023050968896709517,-0.19807,-28.247079
11.185,2.0,1.0,1.0,34.8,33.2,33.2,4.3,2.4,2.705,-0.19811584601367882,-0.03126443976051321,0.9567824198602468,-0.02392593114258348,-0.20141,-28.09692
11.185,2.0,1.0,1.0,34.8,33.2,33.2,4.3,2.4,2.7075,-0.2123046521279899,-0.0314403752077829,0.9533400171183377,-0.024825335241811287,-0.204833,-27.945806
11.185,2.0,1.0,1.0,34.8,33.2,33.2,4.3,2.4,2.71,-0.2265506621837545,-0.03160598050634221,0.9496500525919729,-0.025749822755370508,-0.20834,-27.793712
11.185,2.0,1.0,1.0,34.8,33.2,33.2,4.3,2.4,2.7125,-0.24085014599024707,-0.03176054297240879,0.9457076697850574,-0.026700053788814508,-0.211935,-27.640614
11.185,2.0,1.0,1.0,34.8,33.2,33.2,4.3,2.4,2.715,-0.25519918231671584,-0.03190331350983575,0.9415079824362642,-0.027676707876046112,-0.21562,-27.486486
11.185,2.0,1.0,1.0,34.8,33.2,33.2,4.3,2.4,2.7175,-0.2695936529532914,-0.03203350462162423,0.937046077798537,-0.02868048494187561,-0.2194,-27.331299
11.185,2.0,1.0,1.0,34.8,33.2,33.2,4.3,2.4,2.72,-0.2840292366653823,-0.032150288274675656,0.9323170200872375,-0.029712106351727927,-0.223278,-27.175024
11.185,2.0,1.0,1.0,34.8,33.2,33.2,4.3,2.4,2.7225,-0.2985014030382662,-0.03225279360237916,0.9273158540940201,-0.030772316057721665,-0.227257,-27.017632
11.185,2.0,1.0,1.0,34.8,33.2,33.2,4.3,2.4,2.725,-0.3130054062072306,-0.03234010442765876,0.9220376089622015,-0.03186188185127249,-0.231341,-26.85909
11.185,2.0,1.0,1.0,34.8,33.2,33.2,4.3,2.4,2.7275,-0.3275362784672537,-0.03241125658685845,0.9164773021179221,-0.03298159673340643,-0.235534,-26.699364
11.185,2.0,1.0,1.0,34.8,33.2,33.2,4.3,2.4,2.73,-0.3420888237543433,-0.03246523503227954,0.9106299433497863,-0.03413228041508156,-0.239842,-26.538419
11.185,2.0,1.0,1.0,34.8,33.2,33.2,4.3,2.4,2.7325,-0.35665761098850784,-0.03250097068825879,0.9044905390278222,-0.035314780961050334,-0.244268,-26.376218
11.185,2.0,1.0,1.0,34.8,33.2,33.2,4.3,2.4,2.735,-0.3712369672657557,-0.032517337032328376,0.8980540964506571,-0.0365299765921295,-0.248817,-26.212722
11.185,2.0,1.0,1.0,34.8,33.2,33.2,4.3,2.4,2.7375,-0.38582097088347267,-0.03251314636916748,0.8913156283075819,-0.03777877766221198,-0.253495,-26.047888
11.185,2.0,1.0,1.0,34.8,33.2,33.2,4.3,2.4,2.74,-0.40040344417982376,-0.03248714576066438,0.8842701572397891,-0.03906212882794662,-0.258308,-25.881675
11.185,2.0,1.0,1.0,34.8,33.2,33.2,4.3,2.4,2.7425,-0.4149779461635214,-0.032438012570366576,0.8769127204824259,-0.040381011430753386,-0.263261,-25.714035
11.185,2.0,1.0,1.0,34.8,33.2,33.2,4.3,2.4,2.745,-0.42953776490528645,-0.03236434957480276,0.8692383745662589,-0.0417364461127275,-0.268361,-25.54492
11.185,2.0,1.0,1.0,34.8,33.2,33.2,4.3,2.4,2.7475,-0.4440759096561812,-0.03226467958749105,0.8612422000545911,-0.04312949569003799,-0.273614,-25.374279
11.185,2.0,1.0,1.0,34.8,33.2,33.2,4.3,2.4,2.75,-0.458585102651035,-0.0321374395337564,0.852919306287714,-0.0445612683096466,-0.279029,-25.202057
11.185,2.0,1.0,1.0,34.8,33.2,33.2,4.3,2.4,2.7525,-0.4730577705468394,-0.031980973905599744,0.8442648361035007,-0.04603292091756757,-0.284613,-25.028197
11.185,2.0,1.0,1.0,34.8,33.2,33.2,4.3,2.4,2.755,-0.4874860354361694,-0.03179352751558567,0.835273970498816,-0.04754566306946645,-0.290373,-24.852639
11.185,2.0,1.0,1.0,34.8,33.2,33.2,4.3,2.4,2.7575,-0.5018617053643047,-0.031573237456805986,0.8259419331921628,-0.0491007611171591,-0.296321,-24.675318
11.185,2.0,1.0,1.0,34.8,33.2,33.2,4.3,2.4,2.76,-0.5161762642651265,-0.031318124162147826,0.8162639950435184,-0.05069954280750247,-0.302465,-24.496165
11.185,2.0,1.0,1.0,34.8,33.2,33.2,4.3,2.4,2.7625,-0.5304208612151186,-0.0310260814400045,0.8062354782824874,-0.05234340233327941,-0.308815,-24.315109
11.185,2.0,1.0,1.0,34.8,33.2,33.2,4.3,2.4,2.765,-0.544586298886125,-0.030694865344806383,0.7958517604908776,-0.05403380587892033,-0.315384,-24.132072
11.185,2.0,1.0,1.0,34.8,33.2,33.2,4.3,2.4,2.7675,-0.5586630210555483,-0.030322081718830263,0.7851082782805737,-0.05577229770725967,-0.322184,-23.946973
11.185,2.0,1.0,1.0,34.8,33.2,33.2,4.3,2.4,2.77,-0.5726410990069531,-0.02990517221607505,0.7740005306021266,-0.05756050683692691,-0.329228,-23.759726
11.185,2.0,1.0,1.0,34.8,33.2,33.2,4.3,2.4,2.7725,-0.5865102166234885,-0.02944139858886385,0.7625240816140443,-0.059400154363330605,-0.33653,-23.570239
11.185,2.0,1.0,1.0,34.8,33.2,33.2,4.3,2.4,2.775,-0.600259653940639,-0.028927824982383724,0.7506745630373063,-0.06129306147939703,-0.344108,-23.378413
11.185,2.0,1.0,1.0,34.8,33.2,33.2,4.3,2.4,2.7775,-0.6138782688821925,-0.028361297940564183,0.7384476759144666,-0.06324115825508161,-0.351977,-23.184144
11.185,2.0,1.0,1.0,34.8,33.2,33.2,4.3,2.4,2.78,-0.6273544768529912,-0.027738423777256042,0.725839191687934,-0.06524649323694637,-0.360158,-22.987322
11.185,2.0,1.0,1.0,34.8,33.2,33.2,4.3,2.4,2.7825,-0.6406762278020119,-0.027055542908058894,0.7128449525082486,-0.06731124393042687,-0.36867,-22.787826
11.185,2.0,1.0,1.0,34.8,33.2,33.2,4.3,2.4,2.785,-0.6538309802981671,-0.026308700668462495,0.6994608706804623,-0.06943772822735074,-0.377536,-22.585533
11.185,2.0,1.0,1.0,34.8,33.2,33.2,4.3,2.4,2.7875,-0.6668056720761109,-0.025493614060904817,0.6856829271562846,-0.07162841683911825,-0.386782,-22.380305
11.185,2.0,1.0,1.0,34.8,33.2,33.2,4.3,2.4,2.79,-0.6795866864076695,-0.02460563377404382,0.6715071689818143,-0.07388594679086706,-0.396434,-22.172
11.185,2.0,1.0,1.0,34.8,33.2,33.2,4.3,2.4,2.7925,-0.6921598135325718,-0.023639700698481786,0.6569297056171788,-0.07621313602264007,-0.406524,-21.960462
11.185,2.0,1.0,1.0,34.8,33.2,33.2,4.3,2.4,2.795,-0.7045102062355996,-0.02259029602000589,0.6419467040564958,-0.07861299912843159,-0.417084,-21.745528
11.185,2.0,1.0,1.0,34.8,33.2,33.2,4.3,2.4,2.7975,-0.716622328480385,-0.021451383798726742,0.6265543826969928,-0.0810887642406547,-0.428153,-21.52702
11.185,2.0,1.0,1.0,34.8,33.2,33.2,4.3,2.4,2.8,-0.7284798957964196,-0.020216344733566507,0.6107490039375872,-0.08364389103298953,-0.43977,-21.304749
11.185,2.0,1.0,1.0,34.8,33.2,33.2,4.3,2.4,2.8025,-0.7400658058564292,-0.01887789955800257,0.5945268655344005,-0.08628208976438512,-0.451983,-21.078512
11.185,2.0,1.0,1.0,34.8,33.2,33.2,4.3,2.4,2.805,-0.7513620573657234,-0.01742802020430537,0.57788429080934,-0.0890073412153694,-0.464842,-20.84809
11.185,2.0,1.0,1.0,34.8,33.2,33.2,4.3,2.4,2.8075,-0.7623496550000096,-0.015857826496566505,0.5608176179060594,-0.09182391726668511,-0.478406,-20.613251
11.185,2.0,1.0,1.0,34.8,33.2,33.2,4.3,2.4,2.81,-0.7730084976566169,-0.014157465671063733,0.5433231884266997,-0.0947364017284904,-0.492739,-20.373741
11.185,2.0,1.0,1.0,34.8,33.2,33.2,4.3,2.4,2.8125,-0.7833172467048335,-0.01231597145513785,0.5253973359781741,-0.09774971083056737,-0.507914,-20.129289
11.185,2.0,1.0,1.0,34.8,33.2,33.2,4.3,2.4,2.815,-0.7932531702077076,-0.01032109873650219,0.5070363754298937,-0.1008691125088773,-0.524014,-19.879603
11.185,2.0,1.0,1.0,34.8,33.2,33.2,4.3,2.4,2.8175,-0.8027919582060095,-0.008159128990661017,0.4882365940657223,-0.10410024324168393,-0.541131,-19.624368
11.185,2.0,1.0,1.0,34.8,33.2,33.2,4.3,2.4,2.82,-0.8119075030630025,-0.00581464056306042,0.46899424634332537,-0.10744912065788431,-0.559373,-19.363243
11.185,2.0,1.0,1.0,34.8,33.2,33.2,4.3,2.4,2.8225,-0.8205716375121093,-0.003270236572036641,0.4493055547128993,-0.11092214940290429,-0.578861,-19.095861
11.185,2.0,1.0,1.0,34.8,33.2,33.2,4.3,2.4,2.825,-0.8287538213610631,-0.0005062215422910864,0.4291667199772247,-0.11452611672140678,-0.599734,-18.821824
11.185,2.0,1.0,1.0,34.8,33.2,33.2,4.3,2.4,2.8275,-0.83642076570129,0.00249978418643316,0.4085739461138427,-0.11826817278472607,-0.622152,-18.540702
