1,w,sub_t,h,l1,l2,l3,g1,g2,Freq,S11_re,S21_re,S11_img,S21_img,S11_dB,S21_dB
11.185,2.0,1.0,1.0,33.7,33.7,33.7,1.8,2.6,2.5,0.819515110494854,-0.0135119977509954,0.55944664895015,0.0117226600767589,-0.067465,-34.94857
11.185,2.0,1.0,1.0,33.7,33.7,33.7,1.8,2.6,2.5025,0.8154060001132556,-0.0137993633796607,0.5652679564343399,0.011782548462509106,-0.068219,-34.824731
11.185,2.0,1.0,1.0,33.7,33.7,33.7,1.8,2.6,2.505,0.8112337194249988,-0.014092445329716336,0.5710871934550045,0.011841179270989854,-0.068987,-34.700431
11.185,2.0,1.0,1.0,33.7,33.7,33.7,1.8,2.6,2.5075,0.8069975408414487,-0.014391371741138725,0.5769039946022425,0.011898479822314897,-0.06977,-34.575662
11.185,2.0,1.0,1.0,33.7,33.7,33.7,1.8,2.6,2.51,0.8026967241335955,-0.014696274162922834,0.5827179820516505,0.011954374241565442,-0.070569,-34.450416
11.185,2.0,1.0,1.0,33.7,33.7,33.7,1.8,2.6,2.5125,0.7983305161992328,-0.01500728765544259,0.5885287651201261,0.012008783312221393,-0.071383,-34.324684
11.185,2.0,1.0,1.0,33.7,33.7,33.7,1.8,2.6,2.515,0.7938981508262463,-0.015324550896107987,0.5943359398048169,0.012061624322296181,-0.072214,-34.198455
11.185,2.0,1.0,1.0,33.7,33.7,33.7,1.8,2.6,2.5175,0.789398848452007,-0.015648206288424494,0.6001390883044828,0.012112810902776697,-0.073062,-34.071722
11.185,2.0,1.0,1.0,33.7,33.7,33.7,1.8,2.6,2.52,0.7848318159188381,-0.015978400074563397,0.6059377785225433,0.01216225285794518,-0.073928,-33.944475
11.185,2.0,1.0,1.0,33.7,33.7,33.7,1.8,2.6,2.5225,0.7801962462255706,-0.016315282451551998,0.6117315635509951,0.012209855987134404,-0.074811,-33.816705
11.185,2.0,1.0,1.0,33.7,33.7,33.7,1.8,2.6,2.525,0.7754913182751617,-0.016659007691197672,0.6175199811343972,0.01225552189743997,-0.075712,-33.688401
11.185,2.0,1.0,1.0,33.7,33.7,33.7,1.8,2.6,2.5275,0.7707161966183917,-0.01700973426386102,0.6233025531130517,0.012299147806885432,-0.076632,-33.559554
11.185,2.0,1.0,1.0,33.7,33.7,33.7,1.8,2.6,2.53,0.7658700311936466,-0.017367624966194564,0.6290787848444613,0.01234062633750347,-0.077572,-33.430155
11.185,2.0,1.0,1.0,33.7,33.7,33.7,1.8,2.6,2.5325,0.7609519570628039,-0.017732847052967186,0.6348481646021176,0.012379845297763316,-0.078531,-33.300192
11.185,2.0,1.0,1.0,33.7,33.7,33.7,1.8,2.6,2.535,0.7559610941432421,-0.01810557237309612,0.6406101629506169,0.012416687453741405,-0.079511,-33.169657
11.185,2.0,1.0,1.0,33.7,33.7,33.7,1.8,2.6,2.5375,0.7508965469360158,-0.018485977510007582,0.6463642320960392,0.012451030288390038,-0.080511,-33.038538
11.185,2.0,1.0,1.0,33.7,33.7,33.7,1.8,2.6,2.54,0.7457574042502352,-0.018874243926453014,0.6521098052104904,0.01248274574822336,-0.081534,-32.906825
11.185,2.0,1.0,1.0,33.7,33.7,33.7,1.8,2.6,2.5425,0.7405427389237013,-0.01927055811390446,0.6578462957296389,0.012511699976692174,-0.082578,-32.774508
11.185,2.0,1.0,1.0,33.7,33.7,33.7,1.8,2.6,2.545,0.7352516075398708,-0.019675111746656117,0.6635730966220185,0.012537753033476056,-0.083646,-32.641575
11.185,2.0,1.0,1.0,33.7,33.7,33.7,1.8,2.6,2.5475,0.7298830501412278,-0.0200881018407588,0.6692895796287995,0.012560758598869657,-0.084737,-32.508015
11.185,2.0,1.0,1.0,33.7,33.7,33.7,1.8,2.6,2.55,0.7244360899391445,-0.020509730917913284,0.6749950944726825,0.01258056366238848,-0.085852,-32.373817
11.185,2.0,1.0,1.0,33.7,33.7,33.7,1.8,2.6,2.5525,0.7189097330203641,-0.02094020717444756,0.6806889680344594,0.012597008194660577,-0.086992,-32.23897
11.185,2.0,1.0,1.0,33.7,33.7,33.7,1.8,2.6,2.555,0.7133029680502064,-0.021379744655503897,0.6863705034957485,0.012609924801612535,-0.088158,-32.103462
11.185,2.0,1.0,1.0,33.7,33.7,33.7,1.8,2.6,2.5575,0.7076147659726556,-0.021828563434556556,0.6920389794463049,0.01261913835989047,-0.08935,-31.967281
11.185,2.0,1.0,1.0,33.7,33.7,33.7,1.8,2.6,2.56,0.7018440797074932,-0.022286889798378402,0.6976936489542208,0.01262446563238684,-0.09057,-31.830415
11.185,2.0,1.0,1.0,33.7,33.7,33.7,1.8,2.6,2.5625,0.6959898438446642,-0.022754956437573838,0.7033337385972449,0.012625714862671524,-0.091817,-31.692852
11.185,2.0,1.0,1.0,33.7,33.7,33.7,1.8,2.6,2.565,0.6900509743360841,-0.023233002642785553,0.7089584474533501,0.012622685347040924,-0.093094,-31.554578
11.185,2.0,1.0,1.0,33.7,33.7,33.7,1.8,2.6,2.5675,0.6840263681851382,-0.023721274506679886,0.7145669460485599,0.012615166982815848,-0.094401,-31.415583
11.185,2.0,1.0,1.0,33.7,33.7,33.7,1.8,2.6,2.57,0.6779149031341339,-0.024220025131805798,0.7201583752599598,0.012602939791423691,-0.095738,-31.275851
11.185,2.0,1.0,1.0,33.7,33.7,33.7,1.8,2.6,2.5725,0.6717154373500087,-0.02472951484441409,0.7257318451716573,0.012585773414702158,-0.097107,-31.135371
11.185,2.0,1.0,1.0,33.7,33.7,33.7,1.8,2.6,2.575,0.6654268091086389,-0.025250011414310828,0.7312864338813787,0.012563426582752689,-0.098509,-30.994129
11.185,2.0,1.0,1.0,33.7,33.7,33.7,1.8,2.6,2.5775,0.6590478364781215,-0.025781790280806183,0.7368211862551985,0.012535646551558153,-0.099945,-30.852111
11.185,2.0,1.0,1.0,33.7,33.7,33.7,1.8,2.6,2.58,0.6525773170014572,-0.026325134784803916,0.7423351126277922,0.012502168508453189,-0.101416,-30.709302
11.185,2.0,1.0,1.0,33.7,33.7,33.7,1.8,2.6,2.5825,0.6460140273790954,-0.026880336407057222,0.7478271874454321,0.012462714943403036,-0.102923,-30.565689
11.185,2.0,1.0,1.0,33.7,33.7,33.7,1.8,2.6,2.585,0.6393567231518732,-0.02744769501259536,0.7532963478487701,0.012416994983902106,-0.104468,-30.421257
11.185,2.0,1.0,1.0,33.7,33.7,33.7,1.8,2.6,2.5875,0.6326041383849169,-0.02802751910130098,0.7587414921922938,0.012364703691148128,-0.106051,-30.275992
11.185,2.0,1.0,1.0,33.7,33.7,33.7,1.8,2.6,2.59,0.625754985353162,-0.02862012606458483,0.7641614784971149,0.012305521314979329,-0.107674,-30.129877
11.185,2.0,1.0,1.0,33.7,33.7,33.7,1.8,2.6,2.5925,0.6188079542291917,-0.02922584244807689,0.7695551228335995,0.012239112504884408,-0.109338,-29.982898
11.185,2.0,1.0,1.0,33.7,33.7,33.7,1.8,2.6,2.595,0.6117617127742014,-0.029845004220206854,0.7749211976300446,0.012165125474195584,-0.111044,-29.835038
11.185,2.0,1.0,1.0,33.7,33.7,33.7,1.8,2.6,2.5975,0.6046149060329467,-0.030477957046507624,0.7802584299034728,0.012083191114369268,-0.112795,-29.686282
11.185,2.0,1.0,1.0,33.7,33.7,33.7,1.8,2.6,2.6,0.5973661560336538,-0.031125056569420835,0.7855654994082668,0.011992922056026244,-0.114591,-29.536612
11.185,2.0,1.0,1.0,33.7,33.7,33.7,1.8,2.6,2.6025,0.5900140614939718,-0.03178666869332571,0.7908410366981491,0.011893911673184007,-0.116435,-29.386013
11.185,2.0,1.0,1.0,33.7,33.7,33.7,1.8,2.6,2.605,0.5825571975341409,-0.03246316987444588,0.7960836210967022,0.011785733026841305,-0.118327,-29.234466
11.185,2.0,1.0,1.0,33.7,33.7,33.7,1.8,2.6,2.6075,0.5749941153986999,-0.033154947415210065,0.8012917785713036,0.011667937743792545,-0.12027,-29.081955
11.185,2.0,1.0,1.0,33.7,33.7,33.7,1.8,2.6,2.61,0.5673233421881908,-0.03386239976255772,0.8064639795050085,0.011540054826235711,-0.122265,-28.92846
11.185,2.0,1.0,1.0,33.7,33.7,33.7,1.8,2.6,2.6125,0.5595433806024642,-0.03458593680957969,0.8115986363605613,0.011401589387402327,-0.124315,-28.773965
11.185,2.0,1.0,1.0,33.7,33.7,33.7,1.8,2.6,2.615,0.5516527086973636,-0.0353259801997719,0.8166941012303028,0.011252021308071134,-0.126422,-28.618449
11.185,2.0,1.0,1.0,33.7,33.7,33.7,1.8,2.6,2.6175,0.543649779656778,-0.036082963633050094,0.8217486632653129,0.011090803808433494,-0.128586,-28.461893
11.185,2.0,1.0,1.0,33.7,33.7,33.7,1.8,2.6,2.62,0.5355330215822288,-0.03685733317252714,0.8267605459766854,0.010917361929346326,-0.130812,-28.304279
11.185,2.0,1.0,1.0,33.7,33.7,33.7,1.8,2.6,2.6225,0.5273008373024182,-0.03764954755089351,0.8317279044013159,0.010731090916546723,-0.1331,-28.145585
11.185,2.0,1.0,1.0,33.7,33.7,33.7,1.8,2.6,2.625,0.518951604205432,-0.0384600784750434,0.836648822124043,0.0105313545008933,-0.135454,-27.985791
11.185,2.0,1.0,1.0,33.7,33.7,33.7,1.8,2.6,2.6275,0.5104836740965438,-0.03928941092738622,0.8415213081474199,0.010317483067151864,-0.137875,-27.824876
11.185,2.0,1.0,1.0,33.7,33.7,33.7,1.8,2.6,2.63,0.5018953730849401,-0.0401380434620311,0.8463432935997355,0.010088771703245798,-0.140367,-27.662817
11.185,2.0,1.0,1.0,33.7,33.7,33.7,1.8,2.6,2.6325,0.4931850015030113,-0.04100648849376346,0.85111262827124,0.009844478121243552,-0.142933,-27.499594
11.185,2.0,1.0,1.0,33.7,33.7,33.7,1.8,2.6,2.635,0.4843508338622742,-0.041895272577414044,0.8558270769677865,0.009583820440648313,-0.145575,-27.335182
11.185,2.0,1.0,1.0,33.7,33.7,33.7,1.8,2.6,2.6375,0.4753911188504441,-0.042804936674871785,0.8604843156702708,0.009305974823789394,-0.148296,-27.169559
11.185,2.0,1.0,1.0,33.7,33.7,33.7,1.8,2.6,2.64,0.46630407937464935,-0.043736036406586035,0.8650819274874336,0.009010072952275025,-0.1511,-27.0027
11.185,2.0,1.0,1.0,33.7,33.7,33.7,1.8,2.6,2.6425,0.4570879126563967,-0.0446891422839463,0.8696173983885723,0.008695199332560013,-0.15399,-26.834581
11.185,2.0,1.0,1.0,33.7,33.7,33.7,1.8,2.6,2.645,0.44774079038447273,-0.045664839918411096,0.8740881127017319,0.008360388417684122,-0.156969,-26.665177
11.185,2.0,1.0,1.0,33.7,33.7,33.7,1.8,2.6,2.6475,0.4382608589327212,-0.0466637302026661,0.8784913483618041,0.008004621531158808,-0.160042,-26.494462
11.185,2.0,1.0,1.0,33.7,33.7,33.7,1.8,2.6,2.65,0.42864623965037496,-0.04768642945842511,0.8828242718917568,0.0076268235777966495,-0.163213,-26.322409
11.185,2.0,1.0,1.0,33.7,33.7,33.7,1.8,2.6,2.6525,0.41889502923360034,-0.04873356954472208,0.8870839330988484,0.007225859524991581,-0.166485,-26.148991
11.185,2.0,1.0,1.0,33.7,33.7,33.7,1.8,2.6,2.655,0.4090053001878064,-0.049805797919683335,0.8912672594663197,0.00680053063654947,-0.169863,-25.97418
11.185,2.0,1.0,1.0,33.7,33.7,33.7,1.8,2.6,2.6575,0.39897510139150805,-0.05090377764778214,0.8953710502193737,0.006349570439634898,-0.173352,-25.797947
11.185,2.0,1.0,1.0,33.7,33.7,33.7,1.8,2.6,2.66,0.38880245877372205,-0.052028187343457745,0.8993919700426521,0.005871640403721628,-0.176956,-25.620263
11.185,2.0,1.0,1.0,33.7,33.7,33.7,1.8,2.6,2.6625,0.3784853761183834,-0.053179721040709275,0.9033265424244374,0.0053653253086003855,-0.180682,-25.441096
11.185,2.0,1.0,1.0,33.7,33.7,33.7,1.8,2.6,2.665,0.36802183601083605,-0.05435908797682348,0.9071711426008511,0.004829128276494555,-0.184534,-25.260416
11.185,2.0,1.0,1.0,33.7,33.7,33.7,1.8,2.6,2.6675,0.3574098009433334,-0.055567012276736286,0.9109219900710422,0.004261465441142561,-0.188519,-25.078191
11.185,2.0,1.0,1.0,33.7,33.7,33.7,1.8,2.6,2.67,0.3466472145985431,-0.05680423252264577,0.914575140651942,0.0036606602243098004,-0.192642,-24.894387
11.185,2.0,1.0,1.0,33.7,33.7,33.7,1.8,2.6,2.6725,0.335732003332409,-0.058071501191339546,0.9181264780385022,0.0030249371875727036,-0.19691,-24.708971
11.185,2.0,1.0,1.0,33.7,33.7,33.7,1.8,2.6,2.675,0.32466207788041646,-0.05936958393923662,0.9215717048324273,0.002352415424351434,-0.201331,-24.521907
11.185,2.0,1.0,1.0,33.7,33.7,33.7,1.8,2.6,2.6775,0.31343533531433626,-0.060699258712334454,0.9249063329992355,0.0016411014540301382,-0.205912,-24.333159
11.185,2.0,1.0,1.0,33.7,33.7,33.7,1.8,2.6,2.68,0.3020496612799657,-0.062061314655036906,0.928125673710038,0.0008888815765764334,-0.210661,-24.14269
11.185,2.0,1.0,1.0,33.7,33.7,33.7,1.8,2.6,2.6825,0.2905029325503745,-0.06345655078815562,0.9312248265205937,9.351364232074572e-05,-0.215585,-23.950461
11.185,2.0,1.0,1.0,33.7,33.7,33.7,1.8,2.6,2.685,0.27879301993357636,-0.06488577442216185,0.9341986678361321,-0.0007473818125478612,-0.220695,-23.756434
11.185,2.0,1.0,1.0,33.7,33.7,33.7,1.8,2.6,2.6875,0.266917791578744,-0.0663497992669304,0.937041838605839,-0.00163633111868938,-0.225999,-23.560567
11.185,2.0,1.0,1.0,33.7,33.7,33.7,1.8,2.6,2.69,0.25487511673089724,-0.06784944319366737,0.9397487311860456,-0.002576017773345463,-0.231509,-23.362819
11.185,2.0,1.0,1.0,33.7,33.7,33.7,1.8,2.6,2.6925,0.24266286999068742,-0.06938552559834545,0.9423134753057307,-0.003569293551260312,-0.237234,-23.163145
11.185,2.0,1.0,1.0,33.7,33.7,33.7,1.8,2.6,2.695,0.23027893614361922,-0.07095886430863811,0.9447299230621115,-0.004619190496782916,-0.243187,-22.961502
11.185,2.0,1.0,1.0,33.7,33.7,33.7,1.8,2.6,2.6975,0.21772121563176136,-0.0725702719679245,0.9469916328677294,-0.005728933873496129,-0.24938,-22.757844
11.185,2.0,1.0,1.0,33.7,33.7,33.7,1.8,2.6,2.7,0.2049876307512043,-0.07422055182021786,0.9490918522634463,-0.006901956154628015,-0.255826,-22.552122
11.185,2.0,1.0,1.0,33.7,33.7,33.7,1.8,2.6,2.7025,0.19207613267000961,-0.07591049280869513,0.9510234995043186,-0.0081419121450057,-0.26254,-22.344288
11.185,2.0,1.0,1.0,33.7,33.7,33.7,1.8,2.6,2.705,0.17898470937484923,-0.077640863887577,0.9527791438170774,-0.009452695333447343,-0.269536,-22.134291
11.185,2.0,1.0,1.0,33.7,33.7,33.7,1.8,2.6,2.7075,0.16571139466986048,-0.07941240743220872,0.9543509842191678,-0.010838455583284261,-0.276832,-21.922078
11.185,2.0,1.0,1.0,33.7,33.7,33.7,1.8,2.6,2.71,0.15225427836901748,-0.0812258316149419,0.9557308267798015,-0.012303618278179497,-0.284446,-21.707596
11.185,2.0,1.0,1.0,33.7,33.7,33.7,1.8,2.6,2.7125,0.13861151784377154,-0.08308180159446786,0.9569100601932718,-0.013852905050591105,-0.292395,-21.490789
11.185,2.0,1.0,1.0,33.7,33.7,33.7,1.8,2.6,2.715,0.1247813511114831,-0.08498092934314053,0.9578796295238916,-0.015491356231090606,-0.300701,-21.271599
11.185,2.0,1.0,1.0,33.7,33.7,33.7,1.8,2.6,2.7175,0.11076211167748866,-0.0869237619100272,0.958630007970379,-0.01722435516830018,-0.309385,-21.049965
11.185,2.0,1.0,1.0,33.7,33.7,33.7,1.8,2.6,2.72,0.09655224537552239,-0.08891076788631735,0.9591511664853218,-0.019057654581370324,-0.318472,-20.825828
11.185,2.0,1.0,1.0,33.7,33.7,33.7,1.8,2.6,2.7225,0.08215032948797743,-0.09094232180359157,0.9594325410726491,-0.020997405119632686,-0.327987,-20.599122
11.185,2.0,1.0,1.0,33.7,33.7,33.7,1.8,2.6,2.725,0.06755509447038795,-0.0930186861534214,0.9594629975729607,-0.02305018631713791,-0.337959,-20.369782
11.185,2.0,1.0,1.0,33.7,33.7,33.7,1.8,2.6,2.7275,0.05276544865417238,-0.09513999066787741,0.9592307937332857,-0.025223040143075488,-0.348416,-20.13774
11.185,2.0,1.0,1.0,33.7,33.7,33.7,1.8,2.6,2.73,0.03778050635964225,-0.09730620844353971,0.9587235383447483,-0.027523507362196872,-0.359393,-19.902924
11.185,2.0,1.0,1.0,33.7,33.7,33.7,1.8,2.6,2.7325,0.022599619918672473,-0.09951712842519575,0.9579281472190231,-0.029959666931951977,-0.370925,-19.665264
11.185,2.0,1.0,1.0,33.7,33.7,33.7,1.8,2.6,2.735,0.007222416185012756,-0.10177232368790956,0.9568307957631225,-0.03254017867446863,-0.38305,-19.424682
11.185,2.0,1.0,1.0,33.7,33.7,33.7,1.8,2.6,2.7375,-0.008351161798083304,-0.10407111486566813,0.9554168679026214,-0.03527432947097732,-0.39581,-19.181102
11.185,2.0,1.0,1.0,33.7,33.7,33.7,1.8,2.6,2.74,-0.024120807196200453,-0.10641252796911356,0.9536709010970899,-0.03817208323269017,-0.409252,-18.934442
11.185,2.0,1.0,1.0,33.7,33.7,33.7,1.8,2.6,2.7425,-0.04008579494643029,-0.10879524571131483,0.9515765271897041,-0.04124413490408424,-0.423426,-18.68462
11.185,2.0,1.0,1.0,33.7,33.7,33.7,1.8,2.6,2.745,-0.056244919436536034,-0.11121755131607987,0.949116408837607,-0.04450196875002949,-0.438386,-18.431551
11.185,2.0,1.0,1.0,33.7,33.7,33.7,1.8,2.6,2.7475,-0.07259642308218094,-0.11367726361436148,0.9462721712832841,-0.04795792116477112,-0.454192,-18.175145
11.185,2.0,1.0,1.0,33.7,33.7,33.7,1.8,2.6,2.75,-0.0891379143841363,-0.116171662036737,0.943024329253151,-0.0516252482150414,-0.470912,-17.915312
11.185,2.0,1.0,1.0,33.7,33.7,33.7,1.8,2.6,2.7525,-0.10586627381418247,-0.11869739987892451,0.9393522088122874,-0.05551819808720679,-0.488616,-17.651957
11.185,2.0,1.0,1.0,33.7,33.7,33.7,1.8,2.6,2.755,-0.12277754560596277,-0.12125040394732639,0.9352338640694319,-0.05965208854363263,-0.507385,-17.384985
11.185,2.0,1.0,1.0,33.7,33.7,33.7,1.8,2.6,2.7575,-0.13986681320910416,-0.12382575837639206,0.9306459887213999,-0.06404338939898521,-0.527307,-17.114294
11.185,2.0,1.0,1.0,33.7,33.7,33.7,1.8,2.6,2.76,-0.15712805579410924,-0.1264175700420007,0.9255638225607709,-0.06870980989328342,-0.548478,-16.839785
11.185,2.0,1.0,1.0,33.7,33.7,33.7,1.8,2.6,2.7625,-0.1745539827643129,-0.12901881256726278,0.9199610532575101,-0.0736703906527328,-0.571007,-16.561351
11.185,2.0,1.0,1.0,33.7,33.7,33.7,1.8,2.6,2.765,-0.1921358427304507,-0.1316211454204228,0.9138097139804504,-0.07894559967545138,-0.595013,-16.278886
11.185,2.0,1.0,1.0,33.7,33.7,33.7,1.8,2.6,2.7675,-0.20986320282416465,-0.1342147040298068,0.9070800777692527,-0.08455743143626136,-0.620626,-15.992282
11.185,2.0,1.0,1.0,33.7,33.7,33.7,1.8,2.6,2.77,-0.22772369355970598,-0.13678785617868627,0.8997405500286948,-0.09052950774579405,-0.647996,-15.701426
11.185,2.0,1.0,1.0,33.7,33.7,33.7,1.8,2.6,2.7725,-0.2457027136891832,-0.1393269191847171,0.8917575611297736,-0.09688717838951537,-0.677285,-15.406208
11.185,2.0,1.0,1.0,33.7,33.7,33.7,1.8,2.6,2.775,-0.2637830886287624,-0.14181583150703272,0.8830954619108365,-0.10365761876748202,-0.708677,-15.106515
11.185,2.0,1.0,1.0,33.7,33.7,33.7,1.8,2.6,2.7775,-0.2819446750571853,-0.14423577145513147,0.8737164259338472,-0.11086992069877726,-0.742378,-14.802232
11.185,2.0,1.0,1.0,33.7,33.7,33.7,1.8,2.6,2.78,-0.30016390320564623,-0.14656471459920647,0.8635803637388886,-0.1185551711732754,-0.778616,-14.493248
11.185,2.0,1.0,1.0,33.7,33.7,33.7,1.8,2.6,2.7825,-0.31841324718075326,-0.148776920312967,0.852644856145925,-0.12674651203589848,-0.81765,-14.179452
11.185,2.0,1.0,1.0,33.7,33.7,33.7,1.8,2.6,2.785,-0.33666061241730827,-0.15084233664416621,0.8408651159929713,-0.1354791712595932,-0.859773,-13.860735
11.185,2.0,1.0,1.0,33.7,33.7,33.7,1.8,2.6,2.7875,-0.35486862809492964,-0.1527259114553559,0.8281939907184246,-0.14479045345874994,-0.905311,-13.536994
11.185,2.0,1.0,1.0,33.7,33.7,33.7,1.8,2.6,2.79,-0.3729938311594669,-0.15438679659406027,0.8145820220712242,-0.15471967343730794,-0.954639,-13.208133
11.185,2.0,1.0,1.0,33.7,33.7,33.7,1.8,2.6,2.7925,-0.3909857276048854,-0.15577743087617807,0.7999775841823814,-0.16530801163917802,-1.008177,-12.874063
11.185,2.0,1.0,1.0,33.7,33.7,33.7,1.8,2.6,2.795,-0.40878571611121944,-0.1568424871143807,0.7843271275140287,-0.1765982641158294,-1.066407,-12.534708
11.185,2.0,1.0,1.0,33.7,33.7,33.7,1.8,2.6,2.7975,-0.4263258593242883,-0.15751766861917754,0.7675755641166687,-0.18863445174892135,-1.129873,-12.190007
11.185,2.0,1.0,1.0,33.7,33.7,33.7,1.8,2.6,2.8,-0.4435274894853084,-0.1577283420234387,0.7496668395032641,-0.20146124363497864,-1.199202,-11.839917
11.185,2.0,1.0,1.0,33.7,33.7,33.7,1.8,2.6,2.8025,-0.4602996384689273,-0.15738799662445652,0.7305447486330052,-0.21512313741330846,-1.275108,-11.484424
11.185,2.0,1.0,1.0,33.7,33.7,33.7,1.8,2.6,2.805,-0.47653728855506916,-0.15639652668488546,0.7101540682968617,-0.22966332459049493,-1.358411,-11.123539
11.185,2.0,1.0,1.0,33.7,33.7,33.7,1.8,2.6,2.8075,-0.4921194508187165,-0.15463834365446633,0.6884420958058447,-0.24512215139156757,-1.450057,-10.757316
11.185,2.0,1.0,1.0,33.7,33.7,33.7,1.8,2.6,2.81,-0.5069070947461064,-0.15198034193293464,0.6653607042429553,-0.2615350654080525,-1.551132,-10.385855
11.185,2.0,1.0,1.0,33.7,33.7,33.7,1.8,2.6,2.8125,-0.520740978060145,-0.148269767064279,0.640869047114205,-0.278929915851448,-1.662893,-10.009312
11.185,2.0,1.0,1.0,33.7,33.7,33.7,1.8,2.6,2.815,-0.5334394629495173,-0.14333207230489964,0.6149370686575291,-0.2973234519170636,-1.786796,-9.627914
11.185,2.0,1.0,1.0,33.7,33.7,33.7,1.8,2.6,2.8175,-0.5447964578444009,-0.13696890222471134,0.5875499976259057,-0.3167168423211398,-1.924527,-9.241975
11.185,2.0,1.0,1.0,33.7,33.7,33.7,1.8,2.6,2.82,-0.5545796970168642,-0.128956414807767,0.5587140172476582,-0.33709002427705054,-2.078045,-8.851908
11.185,2.0,1.0,1.0,33.7,33.7,33.7,1.8,2.6,2.8225,-0.5625296680961105,-0.11904425088536554,0.5284633044075324,-0.3583946898641993,-2.249629,-8.458248
11.185,2.0,1.0,1.0,33.7,33.7,33.7,1.8,2.6,2.825,-0.5683596235059355,-0.1069555850679968,0.496868604751478,-0.3805457439950518,-2.441929,-8.061673
11.185,2.0,1.0,1.0,33.7,33.7,33.7,1.8,2.6,2.8275,-0.571757266155252,-0.09238884593752492,0.4640474397877698,-0.40341113852745697,-2.658033,-7.663029
11.185,2.0,1.0,1.0,33.7,33.7,33.7,1.8,2.6,2.83,-0.5723888761573872,-0.07502186885498698,0.43017590326719457,-0.4268001252570422,-2.901533,-7.263353
