1,w,sub_t,h,l1,l2,l3,g1,g2,Freq,S11_re,S21_re,S11_img,S21_img,S11_dB,S21_dB
11.185,2.0,1.0,1.0,34.2,34.4,34.4,2.8,4.4,2.5,0.750945839050994,-0.00945730602971192,0.648478086263849,0.00432228049864885,-0.068092,-39.660829
11.185,2.0,1.0,1.0,34.2,34.4,34.4,2.8,4.4,2.5025,0.7459246924126803,-0.009631883914467412,0.6541187766403428,0.0043041630203166335,-0.068835,-39.535087
11.185,2.0,1.0,1.0,34.2,34.4,34.4,2.8,4.4,2.505,0.7408343809325612,-0.009809524038659279,0.6597482917252728,0.0042842305863492695,-0.069593,-39.408859
11.185,2.0,1.0,1.0,34.2,34.4,34.4,2.8,4.4,2.5075,0.7356741762682524,-0.009990289345502185,0.6653660723105718,0.004262416765532173,-0.070365,-39.282134
11.185,2.0,1.0,1.0,34.2,34.4,34.4,2.8,4.4,2.51,0.7304433397751323,-0.010174244408081836,0.6709715425253581,0.004238652596729568,-0.071151,-39.154901
11.185,2.0,1.0,1.0,34.2,34.4,34.4,2.8,4.4,2.5125,0.725141122393816,-0.010361455481183699,0.6765641093085187,0.004212866478438202,-0.071953,-39.027149
11.185,2.0,1.0,1.0,34.2,34.4,34.4,2.8,4.4,2.515,0.7197667645384856,-0.010551990555118343,0.6821431618634896,0.0041849840527475165,-0.072771,-38.898866
11.185,2.0,1.0,1.0,34.2,34.4,34.4,2.8,4.4,2.5175,0.7143194959862278,-0.010745919411634717,0.68770807109453,0.004154928083377516,-0.073605,-38.77004
11.185,2.0,1.0,1.0,34.2,34.4,34.4,2.8,4.4,2.52,0.7087985357675041,-0.010943313682017524,0.6932581890237923,0.004122618327444405,-0.074455,-38.64066
11.185,2.0,1.0,1.0,34.2,34.4,34.4,2.8,4.4,2.5225,0.7032030920579332,-0.011144246907469608,0.6987928481884093,0.004087971400578129,-0.075322,-38.510713
11.185,2.0,1.0,1.0,34.2,34.4,34.4,2.8,4.4,2.525,0.6975323620715264,-0.011348794601886428,0.7043113610168311,0.004050900634992096,-0.076206,-38.380186
11.185,2.0,1.0,1.0,34.2,34.4,34.4,2.8,4.4,2.5275,0.6917855319555428,-0.01155703431713451,0.7098130191835711,0.004011315930075732,-0.077109,-38.249067
11.185,2.0,1.0,1.0,34.2,34.4,34.4,2.8,4.4,2.53,0.6859617766871621,-0.01176904571095193,0.715297092941492,0.003969123595052195,-0.078029,-38.117343
11.185,2.0,1.0,1.0,34.2,34.4,34.4,2.8,4.4,2.5325,0.6800602599721401,-0.011984910617595306,0.7207628304307185,0.0039242261832093265,-0.078969,-37.985001
11.185,2.0,1.0,1.0,34.2,34.4,34.4,2.8,4.4,2.535,0.6740801341456513,-0.012204713121364437,0.7262094569632194,0.0038765223171800854,-0.079928,-37.852026
11.185,2.0,1.0,1.0,34.2,34.4,34.4,2.8,4.4,2.5375,0.6680205400755276,-0.01242853963314212,0.7316361742820425,0.0038259065047060816,-0.080907,-37.718406
11.185,2.0,1.0,1.0,34.2,34.4,34.4,2.8,4.4,2.54,0.6618806070681018,-0.01265647897009505,0.7370421597941383,0.003772268944281573,-0.081906,-37.584125
11.185,2.0,1.0,1.0,34.2,34.4,34.4,2.8,4.4,2.5425,0.6556594527768795,-0.012888622438688296,0.7424265657756612,0.0037154953200282293,-0.082927,-37.44917
11.185,2.0,1.0,1.0,34.2,34.4,34.4,2.8,4.4,2.545,0.6493561831142802,-0.013125063921175238,0.7477885185485527,0.003655466585104677,-0.083969,-37.313524
11.185,2.0,1.0,1.0,34.2,34.4,34.4,2.8,4.4,2.5475,0.642969892166699,-0.01336589996573198,0.7531271176271638,0.0035920587329003454,-0.085034,-37.177175
11.185,2.0,1.0,1.0,34.2,34.4,34.4,2.8,4.4,2.55,0.6364996621131244,-0.01361122988041609,0.7584414348336083,0.003525142555210252,-0.086121,-37.040104
11.185,2.0,1.0,1.0,34.2,34.4,34.4,2.8,4.4,2.5525,0.6299445631476208,-0.013861155831137019,0.763730513380434,0.0034545833865233795,-0.087232,-36.902298
11.185,2.0,1.0,1.0,34.2,34.4,34.4,2.8,4.4,2.555,0.6233036534059203,-0.014115782943837375,0.7689933669191543,0.0033802408334911325,-0.088367,-36.763739
11.185,2.0,1.0,1.0,34.2,34.4,34.4,2.8,4.4,2.5575,0.6165759788964359,-0.014375219411093647,0.7742289785530779,0.0033019684885714413,-0.089528,-36.624411
11.185,2.0,1.0,1.0,34.2,34.4,34.4,2.8,4.4,2.56,0.6097605734360093,-0.014639576603355726,0.7794362998127672,0.0032196136267653775,-0.090714,-36.484296
11.185,2.0,1.0,1.0,34.2,34.4,34.4,2.8,4.4,2.5625,0.6028564585907059,-0.014908969185057108,0.7846142495923862,0.0031330168842746424,-0.091927,-36.343377
11.185,2.0,1.0,1.0,34.2,34.4,34.4,2.8,4.4,2.565,0.5958626436219918,-0.015183515235838906,0.7897617130450632,0.003042011917818692,-0.093168,-36.201636
11.185,2.0,1.0,1.0,34.2,34.4,34.4,2.8,4.4,2.5675,0.5887781254386583,-0.01546333637714258,0.7948775404352783,0.0029464250432475404,-0.094436,-36.059054
11.185,2.0,1.0,1.0,34.2,34.4,34.4,2.8,4.4,2.57,0.5816018885548423,-0.015748557904441067,0.7999605459461789,0.002846074851973037,-0.095734,-35.915612
11.185,2.0,1.0,1.0,34.2,34.4,34.4,2.8,4.4,2.5725,0.5743329050545384,-0.01603930892539009,0.8050095064395553,0.0027407718036224255,-0.097062,-35.771292
11.185,2.0,1.0,1.0,34.2,34.4,34.4,2.8,4.4,2.575,0.5669701345629936,-0.016335722504195196,0.8100231601660863,0.0026303177931870183,-0.098421,-35.626072
11.185,2.0,1.0,1.0,34.2,34.4,34.4,2.8,4.4,2.5775,0.5595125242254089,-0.016637935812505427,0.8150002054232864,0.0025145056907877796,-0.099812,-35.479932
11.185,2.0,1.0,1.0,34.2,34.4,34.4,2.8,4.4,2.58,0.5519590086933818,-0.016946090287157982,0.8199392991583991,0.002393118852029712,-0.101236,-35.332851
11.185,2.0,1.0,1.0,34.2,34.4,34.4,2.8,4.4,2.5825,0.5443085101195406,-0.01726033179511439,0.8248390555133225,0.0022659305967329957,-0.102694,-35.184807
11.185,2.0,1.0,1.0,34.2,34.4,34.4,2.8,4.4,2.585,0.5365599381608535,-0.01758081080594273,0.8296980443083953,0.0021327036536477446,-0.104188,-35.035778
11.185,2.0,1.0,1.0,34.2,34.4,34.4,2.8,4.4,2.5875,0.5287121899911021,-0.017907682572216314,0.8345147894616765,0.0019931895685432527,-0.105718,-34.88574
11.185,2.0,1.0,1.0,34.2,34.4,34.4,2.8,4.4,2.59,0.5207641503230536,-0.018241107318214263,0.8392877673400804,0.0018471280728329154,-0.107285,-34.73467
11.185,2.0,1.0,1.0,34.2,34.4,34.4,2.8,4.4,2.5925,0.5127146914408597,-0.01858125043732425,0.8440154050384673,0.0016942464096480544,-0.108892,-34.582544
11.185,2.0,1.0,1.0,34.2,34.4,34.4,2.8,4.4,2.595,0.5045626732432829,-0.018928282698561647,0.8486960785824602,0.0015342586139879425,-0.11054,-34.429335
11.185,2.0,1.0,1.0,34.2,34.4,34.4,2.8,4.4,2.5975,0.49630694329832487,-0.019282380462633898,0.8533281110504715,0.001366864743272272,-0.112229,-34.275019
11.185,2.0,1.0,1.0,34.2,34.4,34.4,2.8,4.4,2.6,0.4879463369099091,-0.019643725907990628,0.8579097706100083,0.0011917500542796451,-0.113961,-34.119567
11.185,2.0,1.0,1.0,34.2,34.4,34.4,2.8,4.4,2.6025,0.479479677197288,-0.02001250726731051,0.8624392684629564,0.001008584122084619,-0.115738,-33.962953
11.185,2.0,1.0,1.0,34.2,34.4,34.4,2.8,4.4,2.605,0.47090577518787585,-0.020388919074886384,0.8669147566940965,0.000817019896189015,-0.117562,-33.805148
11.185,2.0,1.0,1.0,34.2,34.4,34.4,2.8,4.4,2.6075,0.462223429924267,-0.02077316242537416,0.8713343260166089,0.0006166926885901033,-0.119434,-33.646122
11.185,2.0,1.0,1.0,34.2,34.4,34.4,2.8,4.4,2.61,0.453431428586238,-0.02116544524437486,0.8756960034077835,0.0004072190880182563,-0.121356,-33.485844
11.185,2.0,1.0,1.0,34.2,34.4,34.4,2.8,4.4,2.6125,0.44452854662859176,-0.02156598257131724,0.879997749627582,0.0001881957940173284,-0.12333,-33.324284
11.185,2.0,1.0,1.0,34.2,34.4,34.4,2.8,4.4,2.615,0.4355135479357482,-0.02197499685510079,0.8842374566120037,-4.08016360843246e-05,-0.125358,-33.161409
11.185,2.0,1.0,1.0,34.2,34.4,34.4,2.8,4.4,2.6175,0.4263851849940879,-0.022392718262944148,0.8884129447325075,-0.00028022013495379653,-0.127441,-32.997184
11.185,2.0,1.0,1.0,34.2,34.4,34.4,2.8,4.4,2.62,0.4171421990831018,-0.02281938500286208,0.8925219599119092,-0.0005305305762005652,-0.129583,-32.831574
11.185,2.0,1.0,1.0,34.2,34.4,34.4,2.8,4.4,2.6225,0.4077833204865048,-0.023255243660159842,0.8965621705862977,-0.0007922293377599505,-0.131786,-32.664545
11.185,2.0,1.0,1.0,34.2,34.4,34.4,2.8,4.4,2.625,0.398307268724601,-0.0237005495482874,0.900531164501477,-0.00106583998794353,-0.134051,-32.496057
11.185,2.0,1.0,1.0,34.2,34.4,34.4,2.8,4.4,2.6275,0.38871275280926426,-0.024155567074334784,0.9044264453313652,-0.001351915105450948,-0.136382,-32.326073
11.185,2.0,1.0,1.0,34.2,34.4,34.4,2.8,4.4,2.63,0.37899847152309185,-0.024620570119366993,0.9082454291044993,-0.0016510382458355787,-0.138781,-32.154552
11.185,2.0,1.0,1.0,34.2,34.4,34.4,2.8,4.4,2.6325,0.3691631137244292,-0.0250958424336929,0.911985440423427,-0.0019638260682469486,-0.141252,-31.981451
11.185,2.0,1.0,1.0,34.2,34.4,34.4,2.8,4.4,2.635,0.3592053586801792,-0.025581678047029648,0.9156437084601926,-0.002290930637775327,-0.143796,-31.806729
11.185,2.0,1.0,1.0,34.2,34.4,34.4,2.8,4.4,2.6375,0.34912387642854453,-0.02607838169335427,0.919217362709389,-0.002633041920397972,-0.146418,-31.630338
11.185,2.0,1.0,1.0,34.2,34.4,34.4,2.8,4.4,2.64,0.3389173281741101,-0.02658626925002819,0.9227034284782902,-0.0029908904894161512,-0.14912,-31.452234
11.185,2.0,1.0,1.0,34.2,34.4,34.4,2.8,4.4,2.6425,0.32858436671804914,-0.027105668190516373,0.9260988220913595,-0.003365250464393515,-0.151907,-31.272366
11.185,2.0,1.0,1.0,34.2,34.4,34.4,2.8,4.4,2.645,0.31812363692657525,-0.02763691804970456,0.9294003457839847,-0.0037569427059969385,-0.154782,-31.090685
11.185,2.0,1.0,1.0,34.2,34.4,34.4,2.8,4.4,2.6475,0.3075337762412912,-0.02818037090042062,0.9326046822574693,-0.004166838292836526,-0.15775,-30.907137
11.185,2.0,1.0,1.0,34.2,34.4,34.4,2.8,4.4,2.65,0.2968134152355721,-0.028736391839283646,0.9357083888641796,-0.004595862309450401,-0.160814,-30.721668
11.185,2.0,1.0,1.0,34.2,34.4,34.4,2.8,4.4,2.6525,0.28596117822188577,-0.029305359479407673,0.9387078913881746,-0.00504499797802367,-0.163979,-30.534219
11.185,2.0,1.0,1.0,34.2,34.4,34.4,2.8,4.4,2.655,0.27497568391564803,-0.02988766644676654,0.9415994773826344,-0.005515291170338099,-0.167251,-30.344733
11.185,2.0,1.0,1.0,34.2,34.4,34.4,2.8,4.4,2.6575,0.26385554616225754,-0.03048371987613974,0.9443792890208157,-0.0060078553408764715,-0.170634,-30.153145
11.185,2.0,1.0,1.0,34.2,34.4,34.4,2.8,4.4,2.66,0.2525993747350528,-0.031093941901485282,0.9470433154120798,-0.006523876927047122,-0.174133,-29.959392
11.185,2.0,1.0,1.0,34.2,34.4,34.4,2.8,4.4,2.6625,0.24120577621336253,-0.03171877013427332,0.9495873843286556,-0.007064621268215216,-0.177756,-29.763405
11.185,2.0,1.0,1.0,34.2,34.4,34.4,2.8,4.4,2.665,0.22967335495143767,-0.03235865812172434,0.9520071532820535,-0.007631439101775511,-0.181508,-29.565113
11.185,2.0,1.0,1.0,34.2,34.4,34.4,2.8,4.4,2.6675,0.21800071415113734,-0.03301407577495127,0.954298099880396,-0.008225773701949652,-0.185397,-29.364443
11.185,2.0,1.0,1.0,34.2,34.4,34.4,2.8,4.4,2.67,0.20618645705361074,-0.033685509754650296,0.9564555113891543,-0.008849168735535465,-0.189429,-29.161316
11.185,2.0,1.0,1.0,34.2,34.4,34.4,2.8,4.4,2.6725,0.19422918826818658,-0.03437346379911,0.9584744734077575,-0.009503276918611313,-0.193612,-28.95565
11.185,2.0,1.0,1.0,34.2,34.4,34.4,2.8,4.4,2.675,0.18212751526027163,-0.0350784589758106,0.9603498575630053,-0.010189869569422982,-0.197955,-28.747362
11.185,2.0,1.0,1.0,34.2,34.4,34.4,2.8,4.4,2.6775,0.1698800500243438,-0.035801033833622015,0.9620763081070172,-0.010910847165589719,-0.202468,-28.536361
11.185,2.0,1.0,1.0,34.2,34.4,34.4,2.8,4.4,2.68,0.15748541097341806,-0.03654174442740632,0.9636482272922037,-0.011668251028623724,-0.207159,-28.322553
11.185,2.0,1.0,1.0,34.2,34.4,34.4,2.8,4.4,2.6825,0.1449422250827785,-0.03730116418047665,0.9650597593782069,-0.01246427627592482,-0.212041,-28.105841
11.185,2.0,1.0,1.0,34.2,34.4,34.4,2.8,4.4,2.685,0.1322491303335541,-0.03807988354259359,0.9663047731054609,-0.013301286200224995,-0.217123,-27.88612
11.185,2.0,1.0,1.0,34.2,34.4,34.4,2.8,4.4,2.6875,0.11940477851129871,-0.038878509391662854,0.9673768424465652,-0.014181828259440402,-0.222419,-27.663281
11.185,2.0,1.0,1.0,34.2,34.4,34.4,2.8,4.4,2.69,0.10640783842644433,-0.039697664115621534,0.9682692254194246,-0.015108651886533144,-0.227942,-27.437211
11.185,2.0,1.0,1.0,34.2,34.4,34.4,2.8,4.4,2.6925,0.09325699963781206,-0.040537984296656004,0.9689748407144997,-0.016084728359970785,-0.233708,-27.207788
11.185,2.0,1.0,1.0,34.2,34.4,34.4,2.8,4.4,2.695,0.07995097677809589,-0.04140011890222496,0.9694862418516801,-0.01711327301146176,-0.239731,-26.974886
11.185,2.0,1.0,1.0,34.2,34.4,34.4,2.8,4.4,2.6975,0.06648851460191076,-0.042284726865573566,0.9697955885393603,-0.018197770089780387,-0.24603,-26.738369
11.185,2.0,1.0,1.0,34.2,34.4,34.4,2.8,4.4,2.7,0.05286839390399001,-0.04319247391147413,0.969894614858117,-0.019342000648725082,-0.252624,-26.498096
11.185,2.0,1.0,1.0,34.2,34.4,34.4,2.8,4.4,2.7025,0.039089438488331164,-0.044124028449538166,0.9697745938326218,-0.02055007388498417,-0.259534,-26.253918
11.185,2.0,1.0,1.0,34.2,34.4,34.4,2.8,4.4,2.705,0.025150523410528487,-0.0450800563159534,0.9694262978865162,-0.021826462419394066,-0.266782,-26.005676
11.185,2.0,1.0,1.0,34.2,34.4,34.4,2.8,4.4,2.7075,0.011050584766985675,-0.04606121409282445,0.9688399545939369,-0.023176042094735935,-0.274394,-25.753201
11.185,2.0,1.0,1.0,34.2,34.4,34.4,2.8,4.4,2.71,-0.0032113686309494134,-0.04706814066974223,0.9680051970460134,-0.02460413695704184,-0.282398,-25.496318
11.185,2.0,1.0,1.0,34.2,34.4,34.4,2.8,4.4,2.7125,-0.01763624127935819,-0.04810144663134824,0.9669110080381318,-0.02611657019812603,-0.290825,-25.234836
11.185,2.0,1.0,1.0,34.2,34.4,34.4,2.8,4.4,2.715,-0.0322248341808364,-0.049161700953056706,0.9655456571508015,-0.027719721967946743,-0.299709,-24.968557
11.185,2.0,1.0,1.0,34.2,34.4,34.4,2.8,4.4,2.7175,-0.046977824572966585,-0.05024941435902392,0.9638966296396573,-0.02942059512036944,-0.309087,-24.697266
11.185,2.0,1.0,1.0,34.2,34.4,34.4,2.8,4.4,2.72,-0.06189574137747859,-0.05136501853447767,0.9619505458636464,-0.031226890139598885,-0.319002,-24.420739
11.185,2.0,1.0,1.0,34.2,34.4,34.4,2.8,4.4,2.7225,-0.07697893535674823,-0.052508840178949974,0.9596930697593359,-0.03314709071254146,-0.3295,-24.138733
11.185,2.0,1.0,1.0,34.2,34.4,34.4,2.8,4.4,2.725,-0.09222754270337287,-0.053681068625106555,0.9571088046065647,-0.035190561671248816,-0.340634,-23.850993
11.185,2.0,1.0,1.0,34.2,34.4,34.4,2.8,4.4,2.7275,-0.10764144045523208,-0.05488171541308792,0.9541811740187542,-0.03736766133719351,-0.352463,-23.557244
11.185,2.0,1.0,1.0,34.2,34.4,34.4,2.8,4.4,2.73,-0.12322019170025555,-0.056110563780549384,0.9508922857205598,-0.0396898706644975,-0.365053,-23.257194
11.185,2.0,1.0,1.0,34.2,34.4,34.4,2.8,4.4,2.7325,-0.13896297798348783,-0.05736710547477086,0.9472227752357157,-0.04216994201289211,-0.378478,-22.95053
11.185,2.0,1.0,1.0,34.2,34.4,34.4,2.8,4.4,2.735,-0.1548685156148043,-0.05865046157644437,0.943151626086737,-0.04482207089491614,-0.392823,-22.636916
11.185,2.0,1.0,1.0,34.2,34.4,34.4,2.8,4.4,2.7375,-0.1709349516472726,-0.05995928309309339,0.9386559624923844,-0.04766209464856408,-0.408184,-22.315994
11.185,2.0,1.0,1.0,34.2,34.4,34.4,2.8,4.4,2.74,-0.18715973408376557,-0.06129162586369752,0.9337108098248407,-0.0507077226995411,-0.424671,-21.987379
11.185,2.0,1.0,1.0,34.2,34.4,34.4,2.8,4.4,2.7425,-0.20353944927913548,-0.06264479272075073,0.9282888172433067,-0.053978803908841855,-0.442409,-21.650657
11.185,2.0,1.0,1.0,34.2,34.4,34.4,2.8,4.4,2.745,-0.22006961740921752,-0.06401513375385623,0.9223599359448301,-0.05749763746030054,-0.461541,-21.305385
11.185,2.0,1.0,1.0,34.2,34.4,34.4,2.8,4.4,2.7475,-0.23674443410259563,-0.06539779273606662,0.9158910453646021,-0.06128933482987551,-0.482234,-20.951085
11.185,2.0,1.0,1.0,34.2,34.4,34.4,2.8,4.4,2.75,-0.253556442638572,-0.0667863840726335,0.908845518430789,-0.0653822415783014,-0.50468,-20.587242
11.185,2.0,1.0,1.0,34.2,34.4,34.4,2.8,4.4,2.7525,-0.2704961161790443,-0.06817257968529901,0.9011827156761417,-0.06980842897646801,-0.529103,-20.213303
11.185,2.0,1.0,1.0,34.2,34.4,34.4,2.8,4.4,2.755,-0.28755132287392005,-0.0695455786047132,0.8928573967250887,-0.07460426671062739,-0.555765,-19.828671
11.185,2.0,1.0,1.0,34.2,34.4,34.4,2.8,4.4,2.7575,-0.3047066377400063,-0.07089142308985888,0.8838190365962795,-0.07981108893318828,-0.584974,-19.432703
11.185,2.0,1.0,1.0,34.2,34.4,34.4,2.8,4.4,2.76,-0.3219424531064125,-0.0721921129720992,0.8740110337267152,-0.08547596637885478,-0.617094,-19.024705
11.185,2.0,1.0,1.0,34.2,34.4,34.4,2.8,4.4,2.7625,-0.3392338229661386,-0.07342445345489942,0.8633697972374987,-0.09165259654502238,-0.652557,-18.603933
11.185,2.0,1.0,1.0,34.2,34.4,34.4,2.8,4.4,2.765,-0.35654895415192484,-0.07455854917105982,0.8518237037687437,-0.09840232098351503,-0.691881,-18.169582
11.185,2.0,1.0,1.0,34.2,34.4,34.4,2.8,4.4,2.7675,-0.3738472266545285,-0.07555582670446605,0.8392919210024357,-0.10579527176335247,-0.735687,-17.720793
11.185,2.0,1.0,1.0,34.2,34.4,34.4,2.8,4.4,2.77,-0.39107658365307396,-0.07636642606638684,0.8256831088061409,-0.11391163508272169,-0.78473,-17.256645
11.185,2.0,1.0,1.0,34.2,34.4,34.4,2.8,4.4,2.7725,-0.4081700750411157,-0.07692574491274079,0.8108940348968602,-0.12284299367663194,-0.839927,-16.776159
11.185,2.0,1.0,1.0,34.2,34.4,34.4,2.8,4.4,2.775,-0.4250412615505177,-0.07714984278304281,0.7948081886651251,-0.13269366242864702,-0.902407,-16.278301
11.185,2.0,1.0,1.0,34.2,34.4,34.4,2.8,4.4,2.7775,-0.44157808446642216,-0.07692931087630485,0.7772945587472545,-0.1435818489763622,-0.973565,-15.761995
11.185,2.0,1.0,1.0,34.2,34.4,34.4,2.8,4.4,2.78,-0.45763467337392905,-0.0761210809640037,0.758206881117036,-0.1556403290286668,-1.055138,-15.226135
11.185,2.0,1.0,1.0,34.2,34.4,34.4,2.8,4.4,2.7825,-0.473020400157912,-0.07453748396547748,0.7373839045492496,-0.1690160848972424,-1.149311,-14.66962
11.185,2.0,1.0,1.0,34.2,34.4,34.4,2.8,4.4,2.785,-0.48748530207411483,-0.07193168530941538,0.7146516238047647,-0.18386795089482094,-1.258843,-14.091404
11.185,2.0,1.0,1.0,34.2,34.4,34.4,2.8,4.4,2.7875,-0.5007008300722839,-0.0679784609832926,0.689829100114865,-0.2003606386379554,-1.387252,-13.49057
11.185,2.0,1.0,1.0,34.2,34.4,34.4,2.8,4.4,2.79,-0.5122348379846251,-0.06224924326777513,0.662740578453449,-0.2186524245077131,-1.539045,-12.866451
11.185,2.0,1.0,1.0,34.2,34.4,34.4,2.8,4.4,2.7925,-0.5215200652632369,-0.054180711247164344,0.6332383362001075,-0.2388720573770535,-1.720017,-12.21882
11.185,2.0,1.0,1.0,34.2,34.4,34.4,2.8,4.4,2.795,-0.5278166230544014,-0.04303747179514708,0.6012432985706923,-0.26107784962051683,-1.937631,-11.548159
11.185,2.0,1.0,1.0,34.2,34.4,34.4,2.8,4.4,2.7975,-0.530172255588223,-0.0278726569567811,0.5668140347992902,-0.2851883517901531,-2.201433,-10.856078
11.185,2.0,1.0,1.0,34.2,34.4,34.4,2.8,4.4,2.8,-0.5273913911967324,-0.007497524508323773,0.5302587590815645,-0.3108700371036387,-2.523427,-10.145897
11.185,2.0,1.0,1.0,34.2,34.4,34.4,2.8,4.4,2.8025,-0.518038282003072,0.019514562576678537,0.4923069208435561,-0.33736552961897015,-2.918088,-9.423479
11.185,2.0,1.0,1.0,34.2,34.4,34.4,2.8,4.4,2.805,-0.5005240400598555,0.05473994007088145,0.4543498277603072,-0.36325315875307584,-3.401236,-8.698293
11.185,2.0,1.0,1.0,34.2,34.4,34.4,2.8,4.4,2.8075,-0.4733604723319941,0.09964946151423297,0.4187281454413132,-0.3861603405637118,-3.985882,-7.984668
11.185,2.0,1.0,1.0,34.2,34.4,34.4,2.8,4.4,2.81,-0.43568499296141766,0.15508253412216283,0.38896443519198637,-0.4025329739566713,-4.670995,-7.302924
11.185,2.0,1.0,1.0,34.2,34.4,34.4,2.8,4.4,2.8125,-0.388108607130672,0.220399310633202,0.369700245437103,-0.407701321461046,-5.416545,-6.679734
11.185,2.0,1.0,1.0,34.2,34.4,34.4,2.8,4.4,2.815,-0.3337098635349548,0.29248917783460754,0.3659709736664197,-0.3966082090274124,-6.103077,-6.146655
11.185,2.0,1.0,1.0,34.2,34.4,34.4,2.8,4.4,2.8175,-0.2785700437025077,0.36524032335959,0.38157957897549,-0.36543648638407217,-6.512976,-5.735793
11.185,2.0,1.0,1.0,34.2,34.4,34.4,2.8,4.4,2.82,-0.23096510806328138,0.43035295995207046,0.41699527760868454,-0.3137079559381024,-6.435344,-5.472687
11.185,2.0,1.0,1.0,34.2,34.4,34.4,2.8,4.4,2.8225,-0.19890964871591277,0.4797982142077294,0.468117302721226,-0.24551428695474195,-5.872055,-5.368784
11.185,2.0,1.0,1.0,34.2,34.4,34.4,2.8,4.4,2.825,-0.18722540195863857,0.5087490859913895,0.527204511059866,-0.16858151340210017,-5.044585,-5.41747
11.185,2.0,1.0,1.0,34.2,34.4,34.4,2.8,4.4,2.8275,-0.19611225720817418,0.5170063323430147,0.5856526526149696,-0.09148800915081624,-4.185635,-5.596174
