1,w,sub_t,h,l1,l2,l3,g1,g2,Freq,S11_re,S21_re,S11_img,S21_img,S11_dB,S21_dB
11.185,2.0,1.0,1.0,34.3,34.6,34.6,3.3,3.0,2.5,0.73433432110692,-0.0122032052732424,0.666710943169932,0.00609714210192316,-0.071151,-37.302691
11.185,2.0,1.0,1.0,34.3,34.6,34.6,3.3,3.0,2.5025,0.729050318614064,-0.012442177994149603,0.672344218896008,0.00608496846300344,-0.071986,-37.17073
11.185,2.0,1.0,1.0,34.3,34.6,34.6,3.3,3.0,2.505,0.7236938416478798,-0.012685882012193471,0.6779639407593803,0.00607058698931694,-0.07284,-37.038097
11.185,2.0,1.0,1.0,34.3,34.6,34.6,3.3,3.0,2.5075,0.7182641097600455,-0.012934434729628207,0.6835694741925918,0.006053905957428449,-0.073711,-36.904776
11.185,2.0,1.0,1.0,34.3,34.6,34.6,3.3,3.0,2.51,0.7127603308033919,-0.013187957419286246,0.6891601655257641,0.006034829649544671,-0.074602,-36.770753
11.185,2.0,1.0,1.0,34.3,34.6,34.6,3.3,3.0,2.5125,0.7071817007464024,-0.013446575388253085,0.6947353413548502,0.006013258149784471,-0.075511,-36.63601
11.185,2.0,1.0,1.0,34.3,34.6,34.6,3.3,3.0,2.515,0.7015274034834359,-0.013710418150074939,0.7002943078857737,0.005989087128155557,-0.076441,-36.500531
11.185,2.0,1.0,1.0,34.3,34.6,34.6,3.3,3.0,2.5175,0.6957966106404231,-0.01397961960602564,0.7058363502532481,0.005962207611368529,-0.077391,-36.3643
11.185,2.0,1.0,1.0,34.3,34.6,34.6,3.3,3.0,2.52,0.689988481375734,-0.014254318235997415,0.7113607318130372,0.00593250573954798,-0.078362,-36.227298
11.185,2.0,1.0,1.0,34.3,34.6,34.6,3.3,3.0,2.5225,0.6841021621759281,-0.014534657299618205,0.716866693406282,0.005899862507823724,-0.079356,-36.089508
11.185,2.0,1.0,1.0,34.3,34.6,34.6,3.3,3.0,2.525,0.6781367866460262,-0.014820785048244143,0.7223534525944787,0.005864153491699909,-0.080371,-35.950911
11.185,2.0,1.0,1.0,34.3,34.6,34.6,3.3,3.0,2.5275,0.6720914752939308,-0.015112854948520178,0.7278202028635569,0.005825248555007984,-0.08141,-35.811489
11.185,2.0,1.0,1.0,34.3,34.6,34.6,3.3,3.0,2.53,0.6659653353085927,-0.015411025918253345,0.7332661127954051,0.005783011539147835,-0.082473,-35.671222
11.185,2.0,1.0,1.0,34.3,34.6,34.6,3.3,3.0,2.5325,0.6597574603314623,-0.01571546257539753,0.73869032520508,0.005737299932210512,-0.083561,-35.530089
11.185,2.0,1.0,1.0,34.3,34.6,34.6,3.3,3.0,2.535,0.653466930220727,-0.016026335501007287,0.7440919562418004,0.00568796451645436,-0.084674,-35.388072
11.185,2.0,1.0,1.0,34.3,34.6,34.6,3.3,3.0,2.5375,0.6470928108078037,-0.016343821517081785,0.749470094451679,0.005634848992472668,-0.085814,-35.245147
11.185,2.0,1.0,1.0,34.3,34.6,34.6,3.3,3.0,2.54,0.6406341536454718,-0.01666810398028924,0.7548237998000001,0.005577789578244005,-0.086981,-35.101295
11.185,2.0,1.0,1.0,34.3,34.6,34.6,3.3,3.0,2.5425,0.6340899957469983,-0.01699937309263642,0.7601521026506736,0.005516614581095097,-0.088176,-34.956491
11.185,2.0,1.0,1.0,34.3,34.6,34.6,3.3,3.0,2.545,0.6274593593155314,-0.017337826230228604,0.7654540027003105,0.005451143940427916,-0.089401,-34.810715
11.185,2.0,1.0,1.0,34.3,34.6,34.6,3.3,3.0,2.5475,0.6207412514629796,-0.017683668291352542,0.7707284678641538,0.005381188738867241,-0.090656,-34.66394
11.185,2.0,1.0,1.0,34.3,34.6,34.6,3.3,3.0,2.55,0.613934663917487,-0.01803711206521058,0.7759744331108929,0.005306550679267863,-0.091942,-34.516144
11.185,2.0,1.0,1.0,34.3,34.6,34.6,3.3,3.0,2.5525,0.6070385727185805,-0.018398378622735162,0.7811907992430994,0.005227021524782921,-0.093261,-34.367301
11.185,2.0,1.0,1.0,34.3,34.6,34.6,3.3,3.0,2.555,0.6000519378989156,-0.018767697731026226,0.7863764316198023,0.005142382498930057,-0.094613,-34.217384
11.185,2.0,1.0,1.0,34.3,34.6,34.6,3.3,3.0,2.5575,0.5929737031514826,-0.01914530829307369,0.7915301588173731,0.005052403642300381,-0.096,-34.066368
11.185,2.0,1.0,1.0,34.3,34.6,34.6,3.3,3.0,2.56,0.5858027954810126,-0.019531458814558266,0.796650771224573,0.004956843122231938,-0.097423,-33.914224
11.185,2.0,1.0,1.0,34.3,34.6,34.6,3.3,3.0,2.5625,0.5785381248381962,-0.019926407899666595,0.8017370195672464,0.004855446491410444,-0.098883,-33.760924
11.185,2.0,1.0,1.0,34.3,34.6,34.6,3.3,3.0,2.565,0.5711785837351883,-0.02033042477801178,0.8067876133577342,0.004747945890961483,-0.100382,-33.606439
11.185,2.0,1.0,1.0,34.3,34.6,34.6,3.3,3.0,2.5675,0.5637230468407425,-0.020743789864916207,0.8118012192636113,0.004634059193156523,-0.101922,-33.450737
11.185,2.0,1.0,1.0,34.3,34.6,34.6,3.3,3.0,2.57,0.556170370553131,-0.021166795357498817,0.8167764593898654,0.0045134890783617276,-0.103503,-33.293787
11.185,2.0,1.0,1.0,34.3,34.6,34.6,3.3,3.0,2.5725,0.5485193925488446,-0.021599745869204313,0.8217119094680588,0.004385922040310269,-0.105128,-33.135556
11.185,2.0,1.0,1.0,34.3,34.6,34.6,3.3,3.0,2.575,0.5407689313048626,-0.022042959105628975,0.8266060969453891,0.00425102731316685,-0.106798,-32.976011
11.185,2.0,1.0,1.0,34.3,34.6,34.6,3.3,3.0,2.5775,0.5329177855920724,-0.02249676658473029,0.8314574989658681,0.004108455713169423,-0.108516,-32.815117
11.185,2.0,1.0,1.0,34.3,34.6,34.6,3.3,3.0,2.58,0.52496473393719,-0.022961514404762125,0.8362645402350471,0.0039578383868692805,-0.110282,-32.652837
11.185,2.0,1.0,1.0,34.3,34.6,34.6,3.3,3.0,2.5825,0.5169085340502461,-0.02343756406355383,0.8410255907588605,0.0037987854571343324,-0.112099,-32.489133
11.185,2.0,1.0,1.0,34.3,34.6,34.6,3.3,3.0,2.585,0.5087479222144633,-0.023925293333049887,0.8457389634461485,0.0036308845571220443,-0.11397,-32.323967
11.185,2.0,1.0,1.0,34.3,34.6,34.6,3.3,3.0,2.5875,0.5004816126349987,-0.024425097193353947,0.8504029115633631,0.003453699241350917,-0.115896,-32.157298
11.185,2.0,1.0,1.0,34.3,34.6,34.6,3.3,3.0,2.59,0.4921082967427244,-0.02493738883087243,0.8550156260286725,0.003266767261789317,-0.117879,-31.989085
11.185,2.0,1.0,1.0,34.3,34.6,34.6,3.3,3.0,2.5925,0.4836266424488159,-0.025462600705537842,0.8595752325313492,0.0030695986955178427,-0.119924,-31.819283
11.185,2.0,1.0,1.0,34.3,34.6,34.6,3.3,3.0,2.595,0.475035293345558,-0.02600118569250447,0.8640797884606919,0.002861673908985114,-0.122031,-31.647847
11.185,2.0,1.0,1.0,34.3,34.6,34.6,3.3,3.0,2.5975,0.46633286784828437,-0.026553618304161683,0.8685272796270389,0.002642441342142665,-0.124204,-31.47473
11.185,2.0,1.0,1.0,34.3,34.6,34.6,3.3,3.0,2.6,0.4575179582729376,-0.027120395998792828,0.8729156167553632,0.0024113150937839266,-0.126447,-31.299882
11.185,2.0,1.0,1.0,34.3,34.6,34.6,3.3,3.0,2.6025,0.44858912984320465,-0.02770204058273299,0.877242631729719,0.002167672287191746,-0.128761,-31.123254
11.185,2.0,1.0,1.0,34.3,34.6,34.6,3.3,3.0,2.605,0.43954491962059133,-0.028299099713445092,0.8815060735642269,0.0019108501926804527,-0.131151,-30.944791
11.185,2.0,1.0,1.0,34.3,34.6,34.6,3.3,3.0,2.6075,0.43038383535023683,-0.028912148511538064,0.885703604073382,0.0016401430807573376,-0.133621,-30.764439
11.185,2.0,1.0,1.0,34.3,34.6,34.6,3.3,3.0,2.61,0.4211043542145808,-0.02954179129040306,0.8898327932111195,0.0013547987763734056,-0.136174,-30.582139
11.185,2.0,1.0,1.0,34.3,34.6,34.6,3.3,3.0,2.6125,0.4117049214862984,-0.030188663412836977,0.8938911140443477,0.0010540148810222387,-0.138814,-30.397831
11.185,2.0,1.0,1.0,34.3,34.6,34.6,3.3,3.0,2.615,0.4021839490711576,-0.030853433284760038,0.897875937322292,0.0007369346252088367,-0.141546,-30.211453
11.185,2.0,1.0,1.0,34.3,34.6,34.6,3.3,3.0,2.6175,0.39253981393067616,-0.031536804496912124,0.901784525598064,0.00040264230896509145,-0.144375,-30.022938
11.185,2.0,1.0,1.0,34.3,34.6,34.6,3.3,3.0,2.62,0.38277085637356195,-0.03223951812622974,0.9056140268532538,5.0158282534876615e-05,-0.147306,-29.832219
11.185,2.0,1.0,1.0,34.3,34.6,34.6,3.3,3.0,2.6225,0.37287537820406597,-0.032962355209454,0.9093614675697885,-0.00032156658702362574,-0.150344,-29.639222
11.185,2.0,1.0,1.0,34.3,34.6,34.6,3.3,3.0,2.625,0.36285164071445,-0.0337061394023864,0.913023745185864,-0.000713657024901402,-0.153495,-29.443873
11.185,2.0,1.0,1.0,34.3,34.6,34.6,3.3,3.0,2.6275,0.3526978625078002,-0.034471739839090916,0.9165976198641472,-0.0011273201033043967,-0.156766,-29.246094
11.185,2.0,1.0,1.0,34.3,34.6,34.6,3.3,3.0,2.63,0.3424122171365026,-0.03526007420620069,0.9200797054904851,-0.0015638527217133578,-0.160163,-29.045801
11.185,2.0,1.0,1.0,34.3,34.6,34.6,3.3,3.0,2.6325,0.3319928305407712,-0.036072112048312836,0.9234664598098449,-0.002024649903723622,-0.163694,-28.842908
11.185,2.0,1.0,1.0,34.3,34.6,34.6,3.3,3.0,2.635,0.3214377782707369,-0.036908878321196964,0.926754173592895,-0.002511214014642863,-0.167367,-28.637325
11.185,2.0,1.0,1.0,34.3,34.6,34.6,3.3,3.0,2.6375,0.3107450824748996,-0.03777145721015153,0.9299389587110715,-0.0030251650192409407,-0.171189,-28.428956
11.185,2.0,1.0,1.0,34.3,34.6,34.6,3.3,3.0,2.64,0.29991270863711816,-0.0386609962312501,0.9330167349799625,-0.0035682519167684256,-0.175172,-28.2177
11.185,2.0,1.0,1.0,34.3,34.6,34.6,3.3,3.0,2.6425,0.2889385620440681,-0.03957871063331987,0.9359832156097095,-0.004142365511043339,-0.179324,-28.003453
11.185,2.0,1.0,1.0,34.3,34.6,34.6,3.3,3.0,2.645,0.27782048396516623,-0.04052588811817687,0.9388338910764519,-0.00474955269761057,-0.183656,-27.786103
11.185,2.0,1.0,1.0,34.3,34.6,34.6,3.3,3.0,2.6475,0.2665562475276154,-0.041503893895718444,0.9415640111999017,-0.005392032478359535,-0.188181,-27.565534
11.185,2.0,1.0,1.0,34.3,34.6,34.6,3.3,3.0,2.65,0.25514355327064386,-0.04251417608873673,0.9441685651780877,-0.006072213947357903,-0.192912,-27.341621
11.185,2.0,1.0,1.0,34.3,34.6,34.6,3.3,3.0,2.6525,0.24358002436556742,-0.04355827149944802,0.9466422592901681,-0.006792716530982127,-0.197862,-27.114235
11.185,2.0,1.0,1.0,34.3,34.6,34.6,3.3,3.0,2.655,0.23186320149217823,-0.04463781174536559,0.9489794919308191,-0.0075563928118995176,-0.203048,-26.883238
11.185,2.0,1.0,1.0,34.3,34.6,34.6,3.3,3.0,2.6575,0.21999053736797058,-0.04575452976572305,0.9511743255835104,-0.008366354321501263,-0.208486,-26.648485
11.185,2.0,1.0,1.0,34.3,34.6,34.6,3.3,3.0,2.66,0.2079593909352541,-0.04691026669051574,0.9532204552732305,-0.009226000750776092,-0.214195,-26.409823
11.185,2.0,1.0,1.0,34.3,34.6,34.6,3.3,3.0,2.6625,0.19576702122340278,-0.04810697905143397,0.9551111729597146,-0.010139053107491774,-0.220195,-26.167086
11.185,2.0,1.0,1.0,34.3,34.6,34.6,3.3,3.0,2.665,0.18341058092035256,-0.049346746296303,0.9568393272372664,-0.011109591440567888,-0.22651,-25.920104
11.185,2.0,1.0,1.0,34.3,34.6,34.6,3.3,3.0,2.6675,0.17088710971086954,-0.050631778544483516,0.9583972775934634,-0.012142097863921567,-0.233164,-25.668693
11.185,2.0,1.0,1.0,34.3,34.6,34.6,3.3,3.0,2.67,0.1581935274709227,-0.05196442448787133,0.9597768423423481,-0.013241505745877687,-0.240185,-25.412657
11.185,2.0,1.0,1.0,34.3,34.6,34.6,3.3,3.0,2.6725,0.14532662745083144,-0.053347179297751,0.9609692391830219,-0.01441325609141757,-0.247605,-25.151788
11.185,2.0,1.0,1.0,34.3,34.6,34.6,3.3,3.0,2.675,0.13228306963852166,-0.054782692337919686,0.9619650171355378,-0.015663362339262916,-0.255456,-24.885867
11.185,2.0,1.0,1.0,34.3,34.6,34.6,3.3,3.0,2.6775,0.11905937457343081,-0.05627377440397876,0.9627539783647355,-0.016998485031735247,-0.263779,-24.614657
11.185,2.0,1.0,1.0,34.3,34.6,34.6,3.3,3.0,2.68,0.1056519179884239,-0.057823404100407934,0.9633250881095152,-0.018426018102041943,-0.272615,-24.337907
11.185,2.0,1.0,1.0,34.3,34.6,34.6,3.3,3.0,2.6825,0.09205692680124425,-0.05943473282142129,0.9636663705775003,-0.01995418887306629,-0.282014,-24.055348
11.185,2.0,1.0,1.0,34.3,34.6,34.6,3.3,3.0,2.685,0.07827047717136967,-0.06111108760561838,0.9637647882280371,-0.02159217428881155,-0.292029,-23.766693
11.185,2.0,1.0,1.0,34.3,34.6,34.6,3.3,3.0,2.6875,0.06428849560087642,-0.06285597087026597,0.9636061013305068,-0.02335023642306303,-0.302721,-23.471634
11.185,2.0,1.0,1.0,34.3,34.6,34.6,3.3,3.0,2.69,0.05010676441333416,-0.06467305567422646,0.9631747040261484,-0.02523988095301317,-0.314161,-23.16984
11.185,2.0,1.0,1.0,34.3,34.6,34.6,3.3,3.0,2.6925,0.03572093342703985,-0.0665661746753652,0.962453432309528,-0.027274043077877286,-0.326427,-22.860956
11.185,2.0,1.0,1.0,34.3,34.6,34.6,3.3,3.0,2.695,0.021126540295046202,-0.0685393002919513,0.9614233383428062,-0.029467306340565675,-0.33961,-22.544601
11.185,2.0,1.0,1.0,34.3,34.6,34.6,3.3,3.0,2.6975,0.006319042880121415,-0.07059651268301938,0.9600634242746426,-0.03183616101998554,-0.353813,-22.220364
11.185,2.0,1.0,1.0,34.3,34.6,34.6,3.3,3.0,2.7,-0.008706131739790072,-0.07274195093862262,0.9583503271974769,-0.034399310259087566,-0.369156,-21.887801
11.185,2.0,1.0,1.0,34.3,34.6,34.6,3.3,3.0,2.7025,-0.023953515351243418,-0.07497974118894443,0.9562579449696861,-0.03717803394885391,-0.385775,-21.546435
11.185,2.0,1.0,1.0,34.3,34.6,34.6,3.3,3.0,2.705,-0.03942749515137599,-0.0773138930193781,0.9537569902653334,-0.04019662268499952,-0.40383,-21.195748
11.185,2.0,1.0,1.0,34.3,34.6,34.6,3.3,3.0,2.7075,-0.05513216689961847,-0.07974815235780879,0.9508144572898348,-0.043482896951424536,-0.423507,-20.835181
11.185,2.0,1.0,1.0,34.3,34.6,34.6,3.3,3.0,2.71,-0.07107112828836135,-0.08228579450923523,0.9473929819962564,-0.0470688301748334,-0.445025,-20.46413
11.185,2.0,1.0,1.0,34.3,34.6,34.6,3.3,3.0,2.7125,-0.08724718979405639,-0.0849293347169144,0.9434500722268693,-0.05099129855705685,-0.468639,-20.081936
11.185,2.0,1.0,1.0,34.3,34.6,34.6,3.3,3.0,2.715,-0.10366197130659079,-0.08768012475414114,0.9389371788702208,-0.05529298573240587,-0.494653,-19.687888
11.185,2.0,1.0,1.0,34.3,34.6,34.6,3.3,3.0,2.7175,-0.12031534011464279,-0.09053779146990598,0.9337985727933421,-0.06002347637402384,-0.52343,-19.281213
11.185,2.0,1.0,1.0,34.3,34.6,34.6,3.3,3.0,2.72,-0.1372046276732368,-0.09349945527837777,0.9279699850324612,-0.06524057981620537,-0.555403,-18.861074
11.185,2.0,1.0,1.0,34.3,34.6,34.6,3.3,3.0,2.7225,-0.15432353653892722,-0.09655864088245887,0.9213769598246636,-0.07101193222422827,-0.591095,-18.426561
11.185,2.0,1.0,1.0,34.3,34.6,34.6,3.3,3.0,2.725,-0.1716606113136258,-0.09970375551120154,0.9139328624109687,-0.07741693292697306,-0.631141,-17.976692
11.185,2.0,1.0,1.0,34.3,34.6,34.6,3.3,3.0,2.7275,-0.18919709308205646,-0.10291595643156189,0.9055364780947104,-0.0845490752423864,-0.676319,-17.510405
11.185,2.0,1.0,1.0,34.3,34.6,34.6,3.3,3.0,2.73,-0.20690389789992622,-0.106166151882263,0.8960691398250903,-0.09251873041656217,-0.727584,-17.026561
11.185,2.0,1.0,1.0,34.3,34.6,34.6,3.3,3.0,2.7325,-0.2247373451741617,-0.10941076693456758,0.8853913365195872,-0.10145642723111677,-0.786129,-16.523944
11.185,2.0,1.0,1.0,34.3,34.6,34.6,3.3,3.0,2.735,-0.24263309541714345,-0.11258574269990825,0.8733387986297731,-0.1115166242740097,-0.853441,-16.001272
11.185,2.0,1.0,1.0,34.3,34.6,34.6,3.3,3.0,2.7375,-0.2604975173747375,-0.11559800300200208,0.8597181596949168,-0.12288186841212528,-0.931403,-15.457216
11.185,2.0,1.0,1.0,34.3,34.6,34.6,3.3,3.0,2.74,-0.27819536524837385,-0.11831329153382483,0.8443025059448402,-0.13576701904893648,-1.022413,-14.890434
11.185,2.0,1.0,1.0,34.3,34.6,34.6,3.3,3.0,2.7425,-0.2955321809147853,-0.12053882955261884,0.8268275477392604,-0.15042279720252213,-1.129552,-14.299637
11.185,2.0,1.0,1.0,34.3,34.6,34.6,3.3,3.0,2.745,-0.31222923499162925,-0.12199866301301646,0.8069899518741332,-0.1671371189079758,-1.256806,-13.683686
11.185,2.0,1.0,1.0,34.3,34.6,34.6,3.3,3.0,2.7475,-0.3278881442993375,-0.12229892170430333,0.7844508686836618,-0.18623119351935558,-1.409375,-13.041762
11.185,2.0,1.0,1.0,34.3,34.6,34.6,3.3,3.0,2.75,-0.341941807317406,-0.120879759617878,0.758850381183571,-0.208044711980084,-1.594058,-12.373626
11.185,2.0,1.0,1.0,34.3,34.6,34.6,3.3,3.0,2.7525,-0.35358872749014936,-0.11695122753776442,0.7298432601887846,-0.2328998754268976,-1.819747,-11.680027
11.185,2.0,1.0,1.0,34.3,34.6,34.6,3.3,3.0,2.755,-0.3617109935805245,-0.10941357502933748,0.6971739297204409,-0.26102666006539393,-2.097949,-10.963336
11.185,2.0,1.0,1.0,34.3,34.6,34.6,3.3,3.0,2.7575,-0.3647862145296073,-0.0967724850205849,0.6608191773072732,-0.29242139446115545,-2.443149,-10.228474
11.185,2.0,1.0,1.0,34.3,34.6,34.6,3.3,3.0,2.76,-0.3608282041677943,-0.07708398156625614,0.6212377589353119,-0.3266006231872232,-2.872381,-9.484234
11.185,2.0,1.0,1.0,34.3,34.6,34.6,3.3,3.0,2.7625,-0.34744079989162835,-0.048012470224734816,0.5797631799122506,-0.36221574805857776,-3.402354,-8.74501
11.185,2.0,1.0,1.0,34.3,34.6,34.6,3.3,3.0,2.765,-0.3221466192707103,-0.0071607248247600895,0.5391234220433047,-0.39654667269559873,-4.040273,-8.032698
11.185,2.0,1.0,1.0,34.3,34.6,34.6,3.3,3.0,2.7675,-0.2832138119468131,0.04711160167870569,0.5039057079171954,-0.4250564048197693,-4.760832,-7.378042
11.185,2.0,1.0,1.0,34.3,34.6,34.6,3.3,3.0,2.77,-0.2310880104007113,0.11428281455817808,0.4804757303887449,-0.44149006842432237,-5.462864,-6.819909
11.185,2.0,1.0,1.0,34.3,34.6,34.6,3.3,3.0,2.7725,-0.16998681361661405,0.19012272284123102,0.47562895715932185,-0.4392210146902125,-5.932582,-6.400474
11.185,2.0,1.0,1.0,34.3,34.6,34.6,3.3,3.0,2.775,-0.10832339958634087,0.26631663374451126,0.4937556546745419,-0.41403829400063796,-5.925605,-6.155529
11.185,2.0,1.0,1.0,34.3,34.6,34.6,3.3,3.0,2.7775,-0.05655031935229607,0.3326204691351967,0.5339217906716911,-0.3669792077039417,-5.401999,-6.102845
11.185,2.0,1.0,1.0,34.3,34.6,34.6,3.3,3.0,2.78,-0.023021239877835206,0.3809227955996213,0.5894345330013872,-0.30469830510943957,-4.584669,-6.235266
11.185,2.0,1.0,1.0,34.3,34.6,34.6,3.3,3.0,2.7825,-0.010853379334119981,0.4082797497538078,0.650740555821963,-0.2365858048275348,-3.730635,-6.523477
11.185,2.0,1.0,1.0,34.3,34.6,34.6,3.3,3.0,2.785,-0.01799708937999892,0.41679595645394696,0.7093421351932575,-0.17093331269919268,-2.98009,-6.926386
11.185,2.0,1.0,1.0,34.3,34.6,34.6,3.3,3.0,2.7875,-0.03961223268724601,0.4112703876007483,0.7599878271334352,-0.11281867523096498,-2.372085,-7.402356
11.185,2.0,1.0,1.0,34.3,34.6,34.6,3.3,3.0,2.79,-0.07050595149510436,0.3968100435604337,0.8006553085757273,-0.06415206404824354,-1.89754,-7.916293
11.185,2.0,1.0,1.0,34.3,34.6,34.6,3.3,3.0,2.7925,-0.10645814281853627,0.37754494575060027,0.8314619005899548,-0.024757816899802634,-1.532534,-8.441991
11.185,2.0,1.0,1.0,34.3,34.6,34.6,3.3,3.0,2.795,-0.14453844808884794,0.35633013613390396,0.8535573222921219,0.006538044248173577,-1.252565,-8.961487
11.185,2.0,1.0,1.0,34.3,34.6,34.6,3.3,3.0,2.7975,-0.1829208068318967,0.3349351451054873,0.8683947810947017,0.03119616713777538,-1.037111,-9.463272
11.185,2.0,1.0,1.0,34.3,34.6,34.6,3.3,3.0,2.8,-0.22056820887670933,0.31435661923288066,0.8773617557017631,0.05060570952531413,-0.87027,-9.940433
11.185,2.0,1.0,1.0,34.3,34.6,34.6,3.3,3.0,2.8025,-0.2569531786813575,0.2950935682424194,0.8816383999359493,0.06594866515819559,-0.740121,-10.389139
11.185,2.0,1.0,1.0,34.3,34.6,34.6,3.3,3.0,2.805,-0.29185568632514586,0.27734559726908026,0.8821716267884383,0.07817669135404787,-0.637847,-10.807536
11.185,2.0,1.0,1.0,34.3,34.6,34.6,3.3,3.0,2.8075,-0.3252309376759481,0.26114220045606973,0.8796975385861073,0.08803460664520067,-0.556936,-11.194989
11.185,2.0,1.0,1.0,34.3,34.6,34.6,3.3,3.0,2.81,-0.3571277833301361,0.2464223130455085,0.8747783585333252,0.09609761898175749,-0.492568,-11.551582
11.185,2.0,1.0,1.0,34.3,34.6,34.6,3.3,3.0,2.8125,-0.387640332445691,0.233081319722086,0.867839176850302,0.102808080024172,-0.441152,-11.877794
11.185,2.0,1.0,1.0,34.3,34.6,34.6,3.3,3.0,2.815,-0.4168802097161302,0.2209978722181225,0.8591993098199661,0.10850680106974293,-0.399992,-12.174286
11.185,2.0,1.0,1.0,34.3,34.6,34.6,3.3,3.0,2.8175,-0.44496123093879014,0.2100485800339153,0.8490972608611841,0.11345802944169195,-0.36705,-12.441775
11.185,2.0,1.0,1.0,34.3,34.6,34.6,3.3,3.0,2.82,-0.47199137479530673,0.20011558286159833,0.8377098803537285,0.1178687307800404,-0.340773,-12.680948
11.185,2.0,1.0,1.0,34.3,34.6,34.6,3.3,3.0,2.8225,-0.4980689491030505,0.19109002781097248,0.8251667756034334,0.1219032512002649,-0.31997,-12.892414
11.185,2.0,1.0,1.0,34.3,34.6,34.6,3.3,3.0,2.825,-0.5232811051593879,0.18287324249181716,0.811561012924325,0.12569441529649514,-0.303724,-13.076669
11.185,2.0,1.0,1.0,34.3,34.6,34.6,3.3,3.0,2.8275,-0.5477036135715554,0.1753766491846688,0.7969569894574117,0.12935195182326772,-0.291328,-13.234079
11.185,2.0,1.0,1.0,34.3,34.6,34.6,3.3,3.0,2.83,-0.5714012674830377,0.16852101976337505,0.7813961611609129,0.13296895257546876,-0.282236,-13.364868
