1,w,sub_t,h,l1,l2,l3,g1,g2,Freq,S11_re,S21_re,S11_img,S21_img,S11_dB,S21_dB
11.185,2.0,1.0,1.0,33.0,34.8,34.8,3.4,2.7,2.5,0.896355785557937,-0.00633479223630035,0.429365874194039,0.00644457004220295,-0.053271,-40.879796
11.185,2.0,1.0,1.0,33.0,34.8,34.8,3.4,2.7,2.5025,0.8936598872438718,-0.0064858876065652885,0.43480375766453916,0.00650442902298599,-0.053827,-40.737896
11.185,2.0,1.0,1.0,33.0,34.8,34.8,3.4,2.7,2.505,0.8909194124335712,-0.006640560442871042,0.44024507476728736,0.006564647882649647,-0.054395,-40.595251
11.185,2.0,1.0,1.0,33.0,34.8,34.8,3.4,2.7,2.5075,0.8881338855485692,-0.006798921857692622,0.44568972356176073,0.006625226001083219,-0.054976,-40.451838
11.185,2.0,1.0,1.0,33.0,34.8,34.8,3.4,2.7,2.51,0.8853028201131734,-0.006961087659328349,0.45113759882762144,0.006686162451365042,-0.055569,-40.307635
11.185,2.0,1.0,1.0,33.0,34.8,34.8,3.4,2.7,2.5125,0.882425718379161,-0.007127178602436471,0.4565885919351993,0.006747455969633009,-0.056176,-40.162617
11.185,2.0,1.0,1.0,33.0,34.8,34.8,3.4,2.7,2.515,0.87950207093111,-0.007297320654678988,0.46204259071004605,0.006809104922126125,-0.056797,-40.016761
11.185,2.0,1.0,1.0,33.0,34.8,34.8,3.4,2.7,2.5175,0.8765313562710386,-0.007471645280684541,0.46749947929116475,0.0068711072691141194,-0.057431,-39.870043
11.185,2.0,1.0,1.0,33.0,34.8,34.8,3.4,2.7,2.52,0.8735130403808895,-0.007650289744646573,0.4729591379825101,0.0069334605254032,-0.058081,-39.722436
11.185,2.0,1.0,1.0,33.0,34.8,34.8,3.4,2.7,2.5225,0.8704465762612958,-0.007833397432988328,0.47842144309727574,0.006996161717068114,-0.058746,-39.573914
11.185,2.0,1.0,1.0,33.0,34.8,34.8,3.4,2.7,2.525,0.8673314034449103,-0.008021118198651723,0.48388626679449226,0.007059207334026523,-0.059427,-39.424452
11.185,2.0,1.0,1.0,33.0,34.8,34.8,3.4,2.7,2.5275,0.8641669474824426,-0.008213608728705609,0.4893534769073747,0.007122593278025674,-0.060124,-39.27402
11.185,2.0,1.0,1.0,33.0,34.8,34.8,3.4,2.7,2.53,0.8609526193993842,-0.008411032937122115,0.49482293676281464,0.007186314805563825,-0.060838,-39.12259
11.185,2.0,1.0,1.0,33.0,34.8,34.8,3.4,2.7,2.5325,0.8576878151212205,-0.008613562384736977,0.5002945049913621,0.00725036646521529,-0.06157,-38.970134
11.185,2.0,1.0,1.0,33.0,34.8,34.8,3.4,2.7,2.535,0.8543719148647312,-0.008821376728595462,0.5057680353269711,0.007314742028765815,-0.06232,-38.816621
11.185,2.0,1.0,1.0,33.0,34.8,34.8,3.4,2.7,2.5375,0.8510042824927656,-0.009034664203089435,0.5112433763956971,0.007379434415497841,-0.06309,-38.662018
11.185,2.0,1.0,1.0,33.0,34.8,34.8,3.4,2.7,2.54,0.8475842648296292,-0.009253622135518027,0.5167203714924712,0.007444435608885797,-0.063879,-38.506295
11.185,2.0,1.0,1.0,33.0,34.8,34.8,3.4,2.7,2.5425,0.8441111909339709,-0.009478457498952885,0.5221988583449745,0.007509736564876565,-0.064688,-38.349418
11.185,2.0,1.0,1.0,33.0,34.8,34.8,3.4,2.7,2.545,0.8405843713257382,-0.009709387505566614,0.5276786688635213,0.0075753271108298876,-0.065519,-38.191353
11.185,2.0,1.0,1.0,33.0,34.8,34.8,3.4,2.7,2.5475,0.8370030971634752,-0.009946640243889405,0.5331596288757519,0.007641195834082469,-0.066372,-38.032063
11.185,2.0,1.0,1.0,33.0,34.8,34.8,3.4,2.7,2.55,0.8333666393678419,-0.010190455363799273,0.5386415578448122,0.00770732995897377,-0.067249,-37.871513
11.185,2.0,1.0,1.0,33.0,34.8,34.8,3.4,2.7,2.5525,0.8296742476868644,-0.010441084813429159,0.5441242685695102,0.007773715211027143,-0.068149,-37.709664
11.185,2.0,1.0,1.0,33.0,34.8,34.8,3.4,2.7,2.555,0.8259251496979534,-0.010698793632594955,0.5496075668648165,0.007840335666818637,-0.069074,-37.546476
11.185,2.0,1.0,1.0,33.0,34.8,34.8,3.4,2.7,2.5575,0.8221185497412478,-0.01096386080781726,0.5550912512208459,0.007907173587879459,-0.070026,-37.38191
11.185,2.0,1.0,1.0,33.0,34.8,34.8,3.4,2.7,2.56,0.8182536277782833,-0.011236580194530828,0.5605751124382515,0.00797420923676875,-0.071005,-37.215923
11.185,2.0,1.0,1.0,33.0,34.8,34.8,3.4,2.7,2.5625,0.8143295381693642,-0.011517261512659867,0.5660589332377083,0.008041420673212181,-0.072012,-37.04847
11.185,2.0,1.0,1.0,33.0,34.8,34.8,3.4,2.7,2.565,0.8103454083623345,-0.011806231422388258,0.571542487840889,0.008108783527928648,-0.073049,-36.879508
11.185,2.0,1.0,1.0,33.0,34.8,34.8,3.4,2.7,2.5675,0.8063003374846688,-0.012103834687683333,0.5770255415199842,0.00817627075145233,-0.074117,-36.708988
11.185,2.0,1.0,1.0,33.0,34.8,34.8,3.4,2.7,2.57,0.80219339482994,-0.012410435435948927,0.5825078501124792,0.008243852334900206,-0.075218,-36.536861
11.185,2.0,1.0,1.0,33.0,34.8,34.8,3.4,2.7,2.5725,0.7980236182287532,-0.012726418523101832,0.5879891594974471,0.008311494999220391,-0.076352,-36.363078
11.185,2.0,1.0,1.0,33.0,34.8,34.8,3.4,2.7,2.575,0.7937900122931482,-0.013052191014394757,0.5934692050291427,0.00837916184898554,-0.077522,-36.187585
11.185,2.0,1.0,1.0,33.0,34.8,34.8,3.4,2.7,2.5775,0.7894915465222454,-0.013388183792471205,0.5989477109231125,0.00844681198624786,-0.078729,-36.010326
11.185,2.0,1.0,1.0,33.0,34.8,34.8,3.4,2.7,2.58,0.7851271532555396,-0.01373485330544306,0.6044243895893897,0.008514400079345497,-0.079975,-35.831246
11.185,2.0,1.0,1.0,33.0,34.8,34.8,3.4,2.7,2.5825,0.7806957254586758,-0.014092683469259126,0.6098989409066016,0.008581875880822456,-0.081263,-35.650284
11.185,2.0,1.0,1.0,33.0,34.8,34.8,3.4,2.7,2.585,0.7761961143248055,-0.01446218774029982,0.6153710514299422,0.008649183687783831,-0.082593,-35.467379
11.185,2.0,1.0,1.0,33.0,34.8,34.8,3.4,2.7,2.5875,0.7716271266726078,-0.01484391137602237,0.6208403935249731,0.008716261737033755,-0.083969,-35.282465
11.185,2.0,1.0,1.0,33.0,34.8,34.8,3.4,2.7,2.59,0.7669875221198321,-0.015238433903622093,0.6263066244180391,0.00878304152621017,-0.085392,-35.095475
11.185,2.0,1.0,1.0,33.0,34.8,34.8,3.4,2.7,2.5925,0.7622760100086341,-0.015646371819107757,0.6317693851527536,0.008849447050813435,-0.086865,-34.906339
11.185,2.0,1.0,1.0,33.0,34.8,34.8,3.4,2.7,2.595,0.7574912460560965,-0.016068381541955088,0.637228299440405,0.00891539394548697,-0.088391,-34.714983
11.185,2.0,1.0,1.0,33.0,34.8,34.8,3.4,2.7,2.5975,0.7526318286999745,-0.016505162653657573,0.642682972390327,0.008980788516111917,-0.089973,-34.521331
11.185,2.0,1.0,1.0,33.0,34.8,34.8,3.4,2.7,2.6,0.7476962951059563,-0.016957461452090747,0.6481329891040938,0.009045526647170857,-0.091614,-34.325301
11.185,2.0,1.0,1.0,33.0,34.8,34.8,3.4,2.7,2.6025,0.7426831167983889,-0.017426074857723666,0.6535779131148762,0.009109492566364645,-0.093316,-34.126809
11.185,2.0,1.0,1.0,33.0,34.8,34.8,3.4,2.7,2.605,0.7375906948714596,-0.017911854712426168,0.6590172846503345,0.009172557445556674,-0.095085,-33.925768
11.185,2.0,1.0,1.0,33.0,34.8,34.8,3.4,2.7,2.6075,0.7324173547321546,-0.01841571251703238,0.6644506186938878,0.009234577813687191,-0.096923,-33.722084
11.185,2.0,1.0,1.0,33.0,34.8,34.8,3.4,2.7,2.61,0.7271613403197801,-0.018938624660043674,0.6698774028150671,0.009295393753241064,-0.098835,-33.51566
11.185,2.0,1.0,1.0,33.0,34.8,34.8,3.4,2.7,2.6125,0.7218208077392915,-0.019481638197024174,0.6752970947347361,0.009354826847044306,-0.100826,-33.306394
11.185,2.0,1.0,1.0,33.0,34.8,34.8,3.4,2.7,2.615,0.716393818237006,-0.020045877248516898,0.6807091195851143,0.009412677836443228,-0.102899,-33.094179
11.185,2.0,1.0,1.0,33.0,34.8,34.8,3.4,2.7,2.6175,0.7108783304372261,-0.020632550093881215,0.6861128668175637,0.009468723945105733,-0.105062,-32.878903
11.185,2.0,1.0,1.0,33.0,34.8,34.8,3.4,2.7,2.62,0.705272191746659,-0.02124295704954571,0.6915076867027845,0.009522715814542101,-0.107319,-32.660445
11.185,2.0,1.0,1.0,33.0,34.8,34.8,3.4,2.7,2.6225,0.6995731288199905,-0.021878499233055394,0.6968928863580709,0.009574373987674025,-0.109677,-32.438682
11.185,2.0,1.0,1.0,33.0,34.8,34.8,3.4,2.7,2.625,0.693778736964273,-0.0225406883292852,0.702267725224278,0.00962338486505117,-0.112142,-32.21348
11.185,2.0,1.0,1.0,33.0,34.8,34.8,3.4,2.7,2.6275,0.6878864683413959,-0.02323115749268161,0.7076314099006838,0.009669396044156916,-0.114723,-31.984701
11.185,2.0,1.0,1.0,33.0,34.8,34.8,3.4,2.7,2.63,0.6818936188065066,-0.023951673539832994,0.7129830882284072,0.00971201093512783,-0.117427,-31.752198
11.185,2.0,1.0,1.0,33.0,34.8,34.8,3.4,2.7,2.6325,0.6757973131951075,-0.02470415061061125,0.7183218424917904,0.009750782525430976,-0.120263,-31.515813
11.185,2.0,1.0,1.0,33.0,34.8,34.8,3.4,2.7,2.635,0.6695944888420815,-0.02549066550423302,0.7236466815812553,0.009785206140738953,-0.123242,-31.275382
11.185,2.0,1.0,1.0,33.0,34.8,34.8,3.4,2.7,2.6375,0.6632818770812037,-0.02631347492965223,0.7289565319294868,0.009814711018315148,-0.126375,-31.03073
11.185,2.0,1.0,1.0,33.0,34.8,34.8,3.4,2.7,2.64,0.6568559824327717,-0.027175034948684184,0.7342502269939613,0.009838650471284413,-0.129672,-30.781671
11.185,2.0,1.0,1.0,33.0,34.8,34.8,3.4,2.7,2.6425,0.650313059138661,-0.02807802293631885,0.7395264950109918,0.009856290375455767,-0.133149,-30.528007
11.185,2.0,1.0,1.0,33.0,34.8,34.8,3.4,2.7,2.645,0.6436490846468296,-0.02902536243723197,0.7447839446873165,0.009866795652619437,-0.136819,-30.269529
11.185,2.0,1.0,1.0,33.0,34.8,34.8,3.4,2.7,2.6475,0.6368597295793277,-0.030020251362217674,0.7500210484218035,0.009869214352572948,-0.1407,-30.006011
11.185,2.0,1.0,1.0,33.0,34.8,34.8,3.4,2.7,2.65,0.6299403236370251,-0.031066194045213824,0.7552361225582922,0.009862458846796653,-0.144808,-29.737215
11.185,2.0,1.0,1.0,33.0,34.8,34.8,3.4,2.7,2.6525,0.6228858167979618,-0.03216703777323817,0.7604273040558541,0.009845283534854674,-0.149166,-29.462887
11.185,2.0,1.0,1.0,33.0,34.8,34.8,3.4,2.7,2.655,0.6156907350511842,-0.03332701451090359,0.7655925228185169,0.009816258323935494,-0.153795,-29.182752
11.185,2.0,1.0,1.0,33.0,34.8,34.8,3.4,2.7,2.6575,0.6083491297704869,-0.03455078867182665,0.7707294687440228,0.009773736964191617,-0.158723,-28.896518
11.185,2.0,1.0,1.0,33.0,34.8,34.8,3.4,2.7,2.66,0.6008545196678751,-0.03584351194552059,0.7758355523194846,0.009715819096808746,-0.163976,-28.603871
11.185,2.0,1.0,1.0,33.0,34.8,34.8,3.4,2.7,2.6625,0.5931998240694168,-0.0372108863754172,0.7809078572958523,0.009640304583607788,-0.16959,-28.304474
11.185,2.0,1.0,1.0,33.0,34.8,34.8,3.4,2.7,2.665,0.5853772860198426,-0.03865923710758097,0.7859430835932225,0.00954463831725685,-0.1756,-27.997963
11.185,2.0,1.0,1.0,33.0,34.8,34.8,3.4,2.7,2.6675,0.5773783834393039,-0.040195596497525174,0.7909374780985812,0.00942584323408695,-0.18205,-27.683947
11.185,2.0,1.0,1.0,33.0,34.8,34.8,3.4,2.7,2.67,0.5691937262172266,-0.041827801582365313,0.7958867503808609,0.00928043863239009,-0.188988,-27.362003
11.185,2.0,1.0,1.0,33.0,34.8,34.8,3.4,2.7,2.6725,0.5608129367246976,-0.04356460730613665,0.8007859695165532,0.009104340090801839,-0.196469,-27.031673
11.185,2.0,1.0,1.0,33.0,34.8,34.8,3.4,2.7,2.675,0.5522245107481526,-0.045415818336500414,0.8056294371261273,0.008892736219636413,-0.204559,-26.69246
11.185,2.0,1.0,1.0,33.0,34.8,34.8,3.4,2.7,2.6775,0.5434156552838669,-0.047392442839383556,0.8104105302758877,0.00863993607439897,-0.21333,-26.343825
11.185,2.0,1.0,1.0,33.0,34.8,34.8,3.4,2.7,2.68,0.5343720989783545,-0.04950687218933297,0.8151215059749878,0.008339179192713637,-0.222871,-25.985181
11.185,2.0,1.0,1.0,33.0,34.8,34.8,3.4,2.7,2.6825,0.5250778702546705,-0.051773091285253946,0.8197532564167288,0.00798239771292665,-0.233281,-25.615887
11.185,2.0,1.0,1.0,33.0,34.8,34.8,3.4,2.7,2.685,0.5155150373435243,-0.05420692489679475,0.8242950006290387,0.007559916655102453,-0.24468,-25.235244
11.185,2.0,1.0,1.0,33.0,34.8,34.8,3.4,2.7,2.6875,0.5056634035837905,-0.05682632624098334,0.8287338934606396,0.007060073854515541,-0.257208,-24.842485
11.185,2.0,1.0,1.0,33.0,34.8,34.8,3.4,2.7,2.69,0.495500150563621,-0.05965171468548078,0.8330545263377086,0.0064687347522973645,-0.271031,-24.436768
11.185,2.0,1.0,1.0,33.0,34.8,34.8,3.4,2.7,2.6925,0.48499942112866157,-0.06270636990489671,0.837238285265518,0.005768668577893887,-0.286349,-24.017167
11.185,2.0,1.0,1.0,33.0,34.8,34.8,3.4,2.7,2.695,0.47413183434361994,-0.06601688962537636,0.8412625190895314,0.004938740409911764,-0.303402,-23.582661
11.185,2.0,1.0,1.0,33.0,34.8,34.8,3.4,2.7,2.6975,0.4628639258122862,-0.06961371663134597,0.8450994535770662,0.0039528567380017424,-0.32248,-23.132123
11.185,2.0,1.0,1.0,33.0,34.8,34.8,3.4,2.7,2.7,0.4511575105276893,-0.073531736805212,0.848714762262789,0.0027785783810261584,-0.343939,-22.664307
11.185,2.0,1.0,1.0,33.0,34.8,34.8,3.4,2.7,2.7025,0.43896897377880517,-0.07781094152321495,0.8520656700600134,0.0013752809123535497,-0.368217,-22.17783
11.185,2.0,1.0,1.0,33.0,34.8,34.8,3.4,2.7,2.705,0.4262485124323811,-0.08249713096917445,0.8550984157922925,-0.000308305291854613,-0.395858,-21.671162
11.185,2.0,1.0,1.0,33.0,34.8,34.8,3.4,2.7,2.7075,0.4129393810667745,-0.08764260308379279,0.8577448284609238,-0.0023374119310614625,-0.427543,-21.142607
11.185,2.0,1.0,1.0,33.0,34.8,34.8,3.4,2.7,2.71,0.3989772574780291,-0.09330671373817599,0.8599176699691946,-0.004795741268127952,-0.464136,-20.590284
11.185,2.0,1.0,1.0,33.0,34.8,34.8,3.4,2.7,2.7125,0.38428995272828775,-0.09955608520180684,0.8615042516978266,-0.007791640353340866,-0.506742,-20.012123
11.185,2.0,1.0,1.0,33.0,34.8,34.8,3.4,2.7,2.715,0.36879789359277176,-0.1064640418354078,0.8623576284968758,-0.011466610234324,-0.55679,-19.405852
11.185,2.0,1.0,1.0,33.0,34.8,34.8,3.4,2.7,2.7175,0.3524161757522064,-0.11410849072903105,0.8622843969215451,-0.016007083404380135,-0.616146,-18.769009
11.185,2.0,1.0,1.0,33.0,34.8,34.8,3.4,2.7,2.72,0.33505966280952126,-0.12256680676431839,0.8610277743943698,-0.021660734775058043,-0.687284,-18.098979
11.185,2.0,1.0,1.0,33.0,34.8,34.8,3.4,2.7,2.7225,0.31665383987200185,-0.13190508419661584,0.8582442640608918,-0.02875893916716126,-0.773509,-17.39308
11.185,2.0,1.0,1.0,33.0,34.8,34.8,3.4,2.7,2.725,0.29715636384762584,-0.14215695368362855,0.8534720230301175,-0.0377471475698935,-0.879287,-16.648743
11.185,2.0,1.0,1.0,33.0,34.8,34.8,3.4,2.7,2.7275,0.2765982232020686,-0.1532833266518268,0.8460896730708035,-0.049224314720578324,-1.010696,-15.863849
11.185,2.0,1.0,1.0,33.0,34.8,34.8,3.4,2.7,2.73,0.25516018806170654,-0.1650979066428204,0.8352673961743471,-0.06398944195535315,-1.176016,-15.037352
11.185,2.0,1.0,1.0,33.0,34.8,34.8,3.4,2.7,2.7325,0.2333106932124186,-0.17713326927611836,0.8199218741312181,-0.08308379279905034,-1.386414,-14.170381
11.185,2.0,1.0,1.0,33.0,34.8,34.8,3.4,2.7,2.735,0.21204362626340187,-0.18841060857446693,0.7987121793380123,-0.10779248138624783,-1.656406,-13.268152
11.185,2.0,1.0,1.0,33.0,34.8,34.8,3.4,2.7,2.7375,0.19325508150652249,-0.1970762132342167,0.7701720742190511,-0.13951259966585997,-2.003063,-12.343106
11.185,2.0,1.0,1.0,33.0,34.8,34.8,3.4,2.7,2.74,0.18023747403666684,-0.19992751362809963,0.7331820969680749,-0.17929101071471099,-2.440935,-11.419667
11.185,2.0,1.0,1.0,33.0,34.8,34.8,3.4,2.7,2.7425,0.17802598620535218,-0.1920885889855271,0.6880980725337902,-0.22672733053546473,-2.965605,-10.54023
11.185,2.0,1.0,1.0,33.0,34.8,34.8,3.4,2.7,2.745,0.1927746125621595,-0.16763442529077585,0.6386752692475134,-0.2781148395027256,-3.515735,-9.769569
11.185,2.0,1.0,1.0,33.0,34.8,34.8,3.4,2.7,2.7475,0.2288729268496454,-0.12240483141744705,0.5937689785931948,-0.32482085076784606,-3.926046,-9.190435
11.185,2.0,1.0,1.0,33.0,34.8,34.8,3.4,2.7,2.75,0.284021793507643,-0.0587657107196205,0.565777637341829,-0.354850010523528,-3.971019,-8.881599
11.185,2.0,1.0,1.0,33.0,34.8,34.8,3.4,2.7,2.7525,0.34695712992562944,0.012257773985397123,0.5638648940500964,-0.35944840571397235,-3.582059,-8.882221
11.185,2.0,1.0,1.0,33.0,34.8,34.8,3.4,2.7,2.755,0.40291026389675844,0.07636041612887977,0.5873216950309804,-0.3394825130404385,-2.947493,-9.169301
11.185,2.0,1.0,1.0,33.0,34.8,34.8,3.4,2.7,2.7575,0.4422924672260104,0.12436956861588314,0.6269666440724058,-0.30397134172982776,-2.300987,-9.67114
11.185,2.0,1.0,1.0,33.0,34.8,34.8,3.4,2.7,2.76,0.46357036631700266,0.15494290806197134,0.6722300504769879,-0.2631737836738031,-1.760104,-10.302685
11.185,2.0,1.0,1.0,33.0,34.8,34.8,3.4,2.7,2.7625,0.4701322781592688,0.17146320045060645,0.7159498667275414,-0.22397856608659866,-1.345356,-10.992723
11.185,2.0,1.0,1.0,33.0,34.8,34.8,3.4,2.7,2.765,0.46650348355862437,0.17836190257078263,0.7548372386868083,-0.18950560583782536,-1.03802,-11.692488
11.185,2.0,1.0,1.0,33.0,34.8,34.8,3.4,2.7,2.7675,0.4564607987506358,0.17931148656896617,0.7880887777955988,-0.16047764154698738,-0.812148,-12.372788
11.185,2.0,1.0,1.0,33.0,34.8,34.8,3.4,2.7,2.77,0.4426338764997025,0.17685795239927965,0.8160702459468913,-0.13650105667797155,-0.645454,-13.018013
11.185,2.0,1.0,1.0,33.0,34.8,34.8,3.4,2.7,2.7725,0.4266968387815835,0.17261741186464014,0.8395436553792972,-0.1168115832016394,-0.521235,-13.62093
11.185,2.0,1.0,1.0,33.0,34.8,34.8,3.4,2.7,2.775,0.40966337924992474,0.16756685814639682,0.8593098793465754,-0.1006160769322076,-0.427579,-14.179111
11.185,2.0,1.0,1.0,33.0,34.8,34.8,3.4,2.7,2.7775,0.39212655508058847,0.16227816269389897,0.8760753054202378,-0.08721817543995754,-0.356125,-14.692727
11.185,2.0,1.0,1.0,33.0,34.8,34.8,3.4,2.7,2.78,0.37442183292216435,0.15707635141912826,0.8904197326541531,-0.07604705388802846,-0.301002,-15.163252
11.185,2.0,1.0,1.0,33.0,34.8,34.8,3.4,2.7,2.7825,0.3567300324942985,0.15213917328774235,0.9028036403794333,-0.06664892615154729,-0.258059,-15.592734
11.185,2.0,1.0,1.0,33.0,34.8,34.8,3.4,2.7,2.785,0.3391401830160598,0.14755772819294952,0.9135873984983711,-0.058667546869385655,-0.224328,-15.983382
11.185,2.0,1.0,1.0,33.0,34.8,34.8,3.4,2.7,2.7875,0.3216873359146887,0.14337286759198056,0.9230515034118807,-0.051824059979852434,-0.197662,-16.337356
11.185,2.0,1.0,1.0,33.0,34.8,34.8,3.4,2.7,2.79,0.30437516647030083,0.13959693501482456,0.9314141451859298,-0.045899626813416305,-0.176489,-16.656653
11.185,2.0,1.0,1.0,33.0,34.8,34.8,3.4,2.7,2.7925,0.28718943447731937,0.1362267320243811,0.9388453293099001,-0.04072149749529788,-0.159643,-16.943056
11.185,2.0,1.0,1.0,33.0,34.8,34.8,3.4,2.7,2.795,0.27010596177379004,0.1332512474395092,0.9454778287201787,-0.036152205120045855,-0.146249,-17.198116
11.185,2.0,1.0,1.0,33.0,34.8,34.8,3.4,2.7,2.7975,0.2530953119534287,0.1306562600671297,0.9514155314158468,-0.032081301944560894,-0.135648,-17.42315
11.185,2.0,1.0,1.0,33.0,34.8,34.8,3.4,2.7,2.8,0.23612547656071028,0.12842707410432436,0.9567397514883561,-0.02841906571628276,-0.127333,-17.619249
11.185,2.0,1.0,1.0,33.0,34.8,34.8,3.4,2.7,2.8025,0.21916334807287832,0.1265501421529901,0.9615139829945709,-0.025091695666573113,-0.120918,-17.787284
11.185,2.0,1.0,1.0,33.0,34.8,34.8,3.4,2.7,2.805,0.2021754477686001,0.12501403196313976,0.9657874729599315,-0.0220376199859387,-0.116104,-17.927922
11.185,2.0,1.0,1.0,33.0,34.8,34.8,3.4,2.7,2.8075,0.18512818936518957,0.1238100153699237,0.96959789800823,-0.019204625596136286,-0.112661,-18.041629
11.185,2.0,1.0,1.0,33.0,34.8,34.8,3.4,2.7,2.81,0.16798784589366217,0.12293245197458876,0.9729733548764339,-0.016547591259598003,-0.110412,-18.128683
11.185,2.0,1.0,1.0,33.0,34.8,34.8,3.4,2.7,2.8125,0.150720317560708,0.122379077031434,0.975933817319668,-0.0140266576749682,-0.109226,-18.189175
11.185,2.0,1.0,1.0,33.0,34.8,34.8,3.4,2.7,2.815,0.1332907545101104,0.1221512658304948,0.9784921674065984,-0.011605706149259945,-0.109004,-18.223012
11.185,2.0,1.0,1.0,33.0,34.8,34.8,3.4,2.7,2.8175,0.1156630597873139,0.1222543257155751,0.9806548744502723,-0.009251043624626918,-0.109678,-18.229918
11.185,2.0,1.0,1.0,33.0,34.8,34.8,3.4,2.7,2.82,0.09779927792145512,0.1226978559968821,0.9824223666338071,-0.006930208529250924,-0.111208,-18.209428
11.185,2.0,1.0,1.0,33.0,34.8,34.8,3.4,2.7,2.8225,0.07965885924730896,0.1234962121455444,0.9837891159549544,-0.004610820553969172,-0.113579,-18.160878
11.185,2.0,1.0,1.0,33.0,34.8,34.8,3.4,2.7,2.825,0.061197776609347034,0.12466911208616692,0.984743433788312,-0.0022593985939852873,-0.116797,-18.083396
11.185,2.0,1.0,1.0,33.0,34.8,34.8,3.4,2.7,2.8275,0.042367457322204725,0.12624242846183012,0.9852669493844192,0.00015993565398995547,-0.120899,-17.975886
11.185,2.0,1.0,1.0,33.0,34.8,34.8,3.4,2.7,2.83,0.0231134773647177,0.1282492215342068,0.9853337136744655,0.002686967151108912,-0.125944,-17.836999
