1,w,sub_t,h,l1,l2,l3,g1,g2,Freq,S11_re,S21_re,S11_img,S21_img,S11_dB,S21_dB
11.185,2.0,1.0,1.0,33.0,34.5,34.5,1.5,2.5,2.5,0.89165819528487,-0.0116338267276292,0.435873685266886,0.0143186917574354,-0.06546,-34.680476
11.185,2.0,1.0,1.0,33.0,34.5,34.5,1.5,2.5,2.5025,0.8887354811922535,-0.01192684622478096,0.4415997674882013,0.014463886533996722,-0.06625,-34.541319
11.185,2.0,1.0,1.0,33.0,34.5,34.5,1.5,2.5,2.505,0.885760331965282,-0.012227051575784366,0.44733270224770355,0.014610120037014934,-0.067058,-34.401455
11.185,2.0,1.0,1.0,33.0,34.5,34.5,1.5,2.5,2.5075,0.882732058341275,-0.012534656421645337,0.4530723955200543,0.014757382116617071,-0.067885,-34.260869
11.185,2.0,1.0,1.0,33.0,34.5,34.5,1.5,2.5,2.51,0.8796499538342041,-0.012849882432124345,0.4588187483535473,0.014905661055481075,-0.068731,-34.119545
11.185,2.0,1.0,1.0,33.0,34.5,34.5,1.5,2.5,2.5125,0.8765132941559977,-0.013172959670523409,0.4645716566127913,0.01505494344727904,-0.069597,-33.977466
11.185,2.0,1.0,1.0,33.0,34.5,34.5,1.5,2.5,2.515,0.8733213366123322,-0.013504126977918068,0.4703310107069952,0.01520521406596266,-0.070484,-33.834615
11.185,2.0,1.0,1.0,33.0,34.5,34.5,1.5,2.5,2.5175,0.8700733194715236,-0.013843632378019721,0.4760966953028824,0.015356455725156872,-0.071393,-33.690975
11.185,2.0,1.0,1.0,33.0,34.5,34.5,1.5,2.5,2.52,0.866768461305009,-0.014191733503939732,0.4818685890212239,0.015508649126863217,-0.072323,-33.546529
11.185,2.0,1.0,1.0,33.0,34.5,34.5,1.5,2.5,2.5225,0.8634059602978472,-0.014548698048217594,0.4876465641158444,0.01566177269860502,-0.073276,-33.401259
11.185,2.0,1.0,1.0,33.0,34.5,34.5,1.5,2.5,2.525,0.8599849935275276,-0.014914804237562798,0.4934304861339257,0.015815802418069267,-0.074253,-33.255146
11.185,2.0,1.0,1.0,33.0,34.5,34.5,1.5,2.5,2.5275,0.8565047162092833,-0.01529034133387022,0.499220213556296,0.015970711624215844,-0.075255,-33.108171
11.185,2.0,1.0,1.0,33.0,34.5,34.5,1.5,2.5,2.53,0.852964260905984,-0.01567561016317342,0.5050155974162935,0.01612647081373327,-0.076282,-32.960316
11.185,2.0,1.0,1.0,33.0,34.5,34.5,1.5,2.5,2.5325,0.849362736700545,-0.01607092367432359,0.5108164808956913,0.016283047421617,-0.077335,-32.811561
11.185,2.0,1.0,1.0,33.0,34.5,34.5,1.5,2.5,2.535,0.8456992283286451,-0.01647660752930408,0.5166226988960302,0.016440405584536195,-0.078415,-32.661886
11.185,2.0,1.0,1.0,33.0,34.5,34.5,1.5,2.5,2.5375,0.8419727952694167,-0.016893000727237515,0.5224340775835695,0.01659850588553205,-0.079524,-32.51127
11.185,2.0,1.0,1.0,33.0,34.5,34.5,1.5,2.5,2.54,0.8381824707915768,-0.017320456264281133,0.5282504339059214,0.016757305078455055,-0.080662,-32.359693
11.185,2.0,1.0,1.0,33.0,34.5,34.5,1.5,2.5,2.5425,0.8343272609523169,-0.017759341831778595,0.5340715750782609,0.016916755790400872,-0.08183,-32.207132
11.185,2.0,1.0,1.0,33.0,34.5,34.5,1.5,2.5,2.545,0.8304061435460672,-0.018210040555201368,0.5398972980368222,0.01707680620024055,-0.083029,-32.053566
11.185,2.0,1.0,1.0,33.0,34.5,34.5,1.5,2.5,2.5475,0.8264180670000537,-0.018672951776607372,0.5457273888571875,0.017237399691159182,-0.084261,-31.898972
11.185,2.0,1.0,1.0,33.0,34.5,34.5,1.5,2.5,2.55,0.8223619492133298,-0.01914849188354741,0.5515616221346707,0.017398474474918553,-0.085527,-31.743327
11.185,2.0,1.0,1.0,33.0,34.5,34.5,1.5,2.5,2.5525,0.8182366763357574,-0.01963709518756752,0.557399760323821,0.017559963185339488,-0.086828,-31.586607
11.185,2.0,1.0,1.0,33.0,34.5,34.5,1.5,2.5,2.555,0.8140411014831093,-0.020139214855699725,0.5632415530338427,0.017721792438253576,-0.088165,-31.428787
11.185,2.0,1.0,1.0,33.0,34.5,34.5,1.5,2.5,2.5575,0.809774043384225,-0.020655323898588707,0.5690867362764105,0.017883882354907347,-0.08954,-31.269844
11.185,2.0,1.0,1.0,33.0,34.5,34.5,1.5,2.5,2.56,0.8054342849558311,-0.02118591621918277,0.5749350316620262,0.01804614604550041,-0.090955,-31.10975
11.185,2.0,1.0,1.0,33.0,34.5,34.5,1.5,2.5,2.5625,0.801020571800314,-0.0217315077262255,0.580786145540726,0.0182084890492095,-0.09241,-30.948479
11.185,2.0,1.0,1.0,33.0,34.5,34.5,1.5,2.5,2.565,0.7965316106213712,-0.022292637517108093,0.5866397680825313,0.018370808726682786,-0.093909,-30.786006
11.185,2.0,1.0,1.0,33.0,34.5,34.5,1.5,2.5,2.5675,0.7919660675521071,-0.02286986913500687,0.5924955722925933,0.018532993600579296,-0.095451,-30.6223
11.185,2.0,1.0,1.0,33.0,34.5,34.5,1.5,2.5,2.57,0.7873225663896907,-0.02346379190561427,0.5983532129555108,0.018694922639276752,-0.09704,-30.457335
11.185,2.0,1.0,1.0,33.0,34.5,34.5,1.5,2.5,2.5725,0.7825996867302691,-0.024075022359196438,0.6042123255027367,0.01885646447836376,-0.098678,-30.291081
11.185,2.0,1.0,1.0,33.0,34.5,34.5,1.5,2.5,2.575,0.7777959619973275,-0.0247042057441676,0.6100725247964038,0.019017476573972247,-0.100365,-30.123506
11.185,2.0,1.0,1.0,33.0,34.5,34.5,1.5,2.5,2.5775,0.77290987735616,-0.025352017638867054,0.6159334038222172,0.019177804281377785,-0.102105,-29.954581
11.185,2.0,1.0,1.0,33.0,34.5,34.5,1.5,2.5,2.58,0.7679398675065447,-0.026019165668772506,0.6217945322833193,0.019337279851596126,-0.1039,-29.784273
11.185,2.0,1.0,1.0,33.0,34.5,34.5,1.5,2.5,2.5825,0.7628843143450786,-0.026706391336963137,0.6276554550862172,0.01949572133792309,-0.105752,-29.612549
11.185,2.0,1.0,1.0,33.0,34.5,34.5,1.5,2.5,2.585,0.7577415444879663,-0.027414471976289937,0.6335156907089085,0.019652931403491877,-0.107663,-29.439375
11.185,2.0,1.0,1.0,33.0,34.5,34.5,1.5,2.5,2.5875,0.7525098266442968,-0.028144222832408534,0.6393747294403358,0.019808696019941285,-0.109637,-29.264716
11.185,2.0,1.0,1.0,33.0,34.5,34.5,1.5,2.5,2.59,0.7471873688290737,-0.028896499287580975,0.6452320314791204,0.01996278304619547,-0.111676,-29.088537
11.185,2.0,1.0,1.0,33.0,34.5,34.5,1.5,2.5,2.5925,0.7417723154043538,-0.029672199235979257,0.6510870248782545,0.02011494067512424,-0.113784,-28.910799
11.185,2.0,1.0,1.0,33.0,34.5,34.5,1.5,2.5,2.595,0.7362627439359436,-0.030472265622117283,0.6569391033209496,0.02026489573447211,-0.115963,-28.731465
11.185,2.0,1.0,1.0,33.0,34.5,34.5,1.5,2.5,2.5975,0.7306566618520395,-0.031297689155014415,0.6627876237112559,0.020412351826893528,-0.118217,-28.550494
11.185,2.0,1.0,1.0,33.0,34.5,34.5,1.5,2.5,2.6,0.7249520028891038,-0.032149511211747736,0.6686319035611956,0.02055698729218221,-0.12055,-28.367847
11.185,2.0,1.0,1.0,33.0,34.5,34.5,1.5,2.5,2.6025,0.7191466233090537,-0.033028826945205945,0.6744712181541238,0.02069845297281477,-0.122965,-28.183481
11.185,2.0,1.0,1.0,33.0,34.5,34.5,1.5,2.5,2.605,0.7132382978705009,-0.033936788612108255,0.6803047974617144,0.02083636976170712,-0.125467,-27.997352
11.185,2.0,1.0,1.0,33.0,34.5,34.5,1.5,2.5,2.6075,0.7072247155353796,-0.03487460913871137,0.6861318227893465,0.020970325908572257,-0.12806,-27.809415
11.185,2.0,1.0,1.0,33.0,34.5,34.5,1.5,2.5,2.61,0.7011034748907246,-0.03584356594310394,0.6919514231217304,0.02109987405842889,-0.130748,-27.619625
11.185,2.0,1.0,1.0,33.0,34.5,34.5,1.5,2.5,2.6125,0.6948720792636867,-0.036845005034589325,0.6977626711372784,0.021224527992599624,-0.133537,-27.427932
11.185,2.0,1.0,1.0,33.0,34.5,34.5,1.5,2.5,2.615,0.6885279315060403,-0.037880345412398646,0.7035645788559601,0.021343759038888837,-0.136431,-27.234287
11.185,2.0,1.0,1.0,33.0,34.5,34.5,1.5,2.5,2.6175,0.682068328422481,-0.03895108378784835,0.70935609288109,0.021456992113496425,-0.139438,-27.038639
11.185,2.0,1.0,1.0,33.0,34.5,34.5,1.5,2.5,2.62,0.6754904548148594,-0.040058799656092915,0.7151360891906654,0.02156360135251982,-0.142561,-26.840934
11.185,2.0,1.0,1.0,33.0,34.5,34.5,1.5,2.5,2.6225,0.6687913771121988,-0.04120516074581884,0.7209033674283466,0.021662905285541226,-0.145809,-26.641117
11.185,2.0,1.0,1.0,33.0,34.5,34.5,1.5,2.5,2.625,0.661968036553888,-0.0423919288775725,0.726656644637881,0.0217541614976967,-0.149188,-26.439131
11.185,2.0,1.0,1.0,33.0,34.5,34.5,1.5,2.5,2.6275,0.6550172418907452,-0.043620966263966346,0.7323945483776421,0.021836560719656426,-0.152705,-26.234916
11.185,2.0,1.0,1.0,33.0,34.5,34.5,1.5,2.5,2.63,0.6479356615658393,-0.044894242287696444,0.7381156091437586,0.021909220276983752,-0.156369,-26.028412
11.185,2.0,1.0,1.0,33.0,34.5,34.5,1.5,2.5,2.6325,0.6407198153339001,-0.046213840796200174,0.7438182520209773,0.02197117682122598,-0.160187,-25.819554
11.185,2.0,1.0,1.0,33.0,34.5,34.5,1.5,2.5,2.635,0.6333660652749459,-0.047581967954837205,0.7495007874697055,0.02202137825464366,-0.16417,-25.608277
11.185,2.0,1.0,1.0,33.0,34.5,34.5,1.5,2.5,2.6375,0.6258706061543736,-0.04900096070368538,0.7551614011454003,0.0220586747484874,-0.168327,-25.39451
11.185,2.0,1.0,1.0,33.0,34.5,34.5,1.5,2.5,2.64,0.6182294550781932,-0.05047329586640165,0.7607981426324059,0.022081808740946472,-0.172669,-25.178184
11.185,2.0,1.0,1.0,33.0,34.5,34.5,1.5,2.5,2.6425,0.6104384403884674,-0.05200159996305423,0.7664089129580979,0.022089403785011487,-0.177208,-24.959224
11.185,2.0,1.0,1.0,33.0,34.5,34.5,1.5,2.5,2.645,0.6024931897402516,-0.053588659782349175,0.7719914507345486,0.022079952098185848,-0.181955,-24.737553
11.185,2.0,1.0,1.0,33.0,34.5,34.5,1.5,2.5,2.6475,0.5943891172976011,-0.05523743377217853,0.7775433167533605,0.02205180064483513,-0.186925,-24.51309
11.185,2.0,1.0,1.0,33.0,34.5,34.5,1.5,2.5,2.65,0.5861214099825521,-0.05695106431081846,0.7830618768344283,0.022003135557500844,-0.192132,-24.285752
11.185,2.0,1.0,1.0,33.0,34.5,34.5,1.5,2.5,2.6525,0.5776850127075867,-0.058732890924239924,0.7885442827005253,0.021931964675175112,-0.197593,-24.055452
11.185,2.0,1.0,1.0,33.0,34.5,34.5,1.5,2.5,2.655,0.5690746125190131,-0.06058646451774403,0.7939874506162353,0.021836097943648918,-0.203324,-23.8221
11.185,2.0,1.0,1.0,33.0,34.5,34.5,1.5,2.5,2.6575,0.5602846215763662,-0.06251556269216972,0.7993880374908903,0.021713125384846977,-0.209344,-23.585601
11.185,2.0,1.0,1.0,33.0,34.5,34.5,1.5,2.5,2.66,0.551309158891484,-0.0645242062159862,0.8047424141000478,0.021560392297595387,-0.215674,-23.345857
11.185,2.0,1.0,1.0,33.0,34.5,34.5,1.5,2.5,2.6625,0.5421420307509429,-0.06661667672421209,0.8100466350274433,0.02137497130043846,-0.222336,-23.102765
11.185,2.0,1.0,1.0,33.0,34.5,34.5,1.5,2.5,2.665,0.5327767097474543,-0.06879753571272577,0.8152964048679957,0.021153630766619483,-0.229355,-22.856219
11.185,2.0,1.0,1.0,33.0,34.5,34.5,1.5,2.5,2.6675,0.52320631235057,-0.0710716448913928,0.8204870401607292,0.02089279913060051,-0.236758,-22.606106
11.185,2.0,1.0,1.0,33.0,34.5,34.5,1.5,2.5,2.67,0.5134235749553969,-0.07344418795057024,0.8256134264365793,0.02058852446268339,-0.244573,-22.352311
11.185,2.0,1.0,1.0,33.0,34.5,34.5,1.5,2.5,2.6725,0.5034208283614554,-0.07592069378160358,0.8306699696677177,0.020236428611195966,-0.252834,-22.09471
11.185,2.0,1.0,1.0,33.0,34.5,34.5,1.5,2.5,2.675,0.493189970653968,-0.07850706117126442,0.8356505412896268,0.019831655097723323,-0.261575,-21.833178
11.185,2.0,1.0,1.0,33.0,34.5,34.5,1.5,2.5,2.6775,0.4827224384889029,-0.08120958496041261,0.8405484158315972,0.019368809816889584,-0.270835,-21.56758
11.185,2.0,1.0,1.0,33.0,34.5,34.5,1.5,2.5,2.68,0.47200917682406524,-0.08403498361561752,0.8453562000318213,0.0188418934345372,-0.280659,-21.297778
11.185,2.0,1.0,1.0,33.0,34.5,34.5,1.5,2.5,2.6825,0.46104060719517326,-0.08699042810517975,0.8500657521254722,0.018244224192472267,-0.291093,-21.023627
11.185,2.0,1.0,1.0,33.0,34.5,34.5,1.5,2.5,2.685,0.44980659471318074,-0.09008357189300661,0.8546680897728545,0.017568349609049582,-0.302191,-20.744973
11.185,2.0,1.0,1.0,33.0,34.5,34.5,1.5,2.5,2.6875,0.438296414063753,-0.0933225817584951,0.859153284833747,0.0168059453067148,-0.314012,-20.461657
11.185,2.0,1.0,1.0,33.0,34.5,34.5,1.5,2.5,2.69,0.4264987149303492,-0.09671616900938661,0.8635103428862362,0.01594769889304751,-0.326621,-20.173513
11.185,2.0,1.0,1.0,33.0,34.5,34.5,1.5,2.5,2.6925,0.41440148745008365,-0.10027362046622922,0.8677270650252787,0.014983176462535034,-0.340091,-19.880367
11.185,2.0,1.0,1.0,33.0,34.5,34.5,1.5,2.5,2.695,0.4019920285614724,-0.10400482834666243,0.8717898890481519,0.013900668862680073,-0.354504,-19.582035
11.185,2.0,1.0,1.0,33.0,34.5,34.5,1.5,2.5,2.6975,0.3892569104346388,-0.10792031784588473,0.8756837066298601,0.012687014369063703,-0.369951,-19.278327
11.185,2.0,1.0,1.0,33.0,34.5,34.5,1.5,2.5,2.7,0.37618195261364556,-0.11203127077050554,0.8793916524988941,0.01132739382741777,-0.386536,-18.969042
11.185,2.0,1.0,1.0,33.0,34.5,34.5,1.5,2.5,2.7025,0.36275220008098513,-0.11634954300282299,0.8828948609289504,0.009805093633076474,-0.404375,-18.653972
11.185,2.0,1.0,1.0,33.0,34.5,34.5,1.5,2.5,2.705,0.3489519102210056,-0.12088767280667624,0.8861721840508664,0.008101231115274195,-0.423599,-18.332899
11.185,2.0,1.0,1.0,33.0,34.5,34.5,1.5,2.5,2.7075,0.3347645526710738,-0.12565887597553613,0.8891998655470315,0.006194435961705938,-0.444355,-18.005596
11.185,2.0,1.0,1.0,33.0,34.5,34.5,1.5,2.5,2.71,0.32017282738485126,-0.1306770224906899,0.891951162205524,0.00406048024556613,-0.466813,-17.671824
11.185,2.0,1.0,1.0,33.0,34.5,34.5,1.5,2.5,2.7125,0.3051587079940133,-0.13595658759968807,0.8943959045756669,0.0016718483956698182,-0.491165,-17.331338
11.185,2.0,1.0,1.0,33.0,34.5,34.5,1.5,2.5,2.715,0.289703519879122,-0.1415125679074599,0.8964999865823237,-0.0010027629175678927,-0.51763,-16.983882
11.185,2.0,1.0,1.0,33.0,34.5,34.5,1.5,2.5,2.7175,0.27378806542577117,-0.1473603500168025,0.8982247724419165,-0.003999026502380983,-0.546458,-16.62919
11.185,2.0,1.0,1.0,33.0,34.5,34.5,1.5,2.5,2.72,0.25739281298337946,-0.1535155152278471,0.8995264076265936,-0.007357661067859162,-0.57794,-16.26699
11.185,2.0,1.0,1.0,33.0,34.5,34.5,1.5,2.5,2.7225,0.24049817136749596,-0.1599935585028586,0.9003550190398952,-0.011125217000229165,-0.612409,-15.897002
11.185,2.0,1.0,1.0,33.0,34.5,34.5,1.5,2.5,2.725,0.22308487875025762,-0.16680949292774672,0.9006537881704583,-0.015354987511347092,-0.65025,-15.51894
11.185,2.0,1.0,1.0,33.0,34.5,34.5,1.5,2.5,2.7275,0.2051345439784514,-0.173977301747205,0.9003578800746584,-0.02010806205838983,-0.691913,-15.132517
11.185,2.0,1.0,1.0,33.0,34.5,34.5,1.5,2.5,2.73,0.18663039039207668,-0.1815091880735318,0.8993932110897926,-0.025454538844680557,-0.737918,-14.737445
11.185,2.0,1.0,1.0,33.0,34.5,34.5,1.5,2.5,2.7325,0.16755826788960895,-0.1894145567741896,0.8976750399753124,-0.03147491137547348,-0.78888,-14.33344
11.185,2.0,1.0,1.0,33.0,34.5,34.5,1.5,2.5,2.735,0.14790801925988847,-0.19769864287757363,0.8951063719462165,-0.0382616392370165,-0.845515,-13.92023
11.185,2.0,1.0,1.0,33.0,34.5,34.5,1.5,2.5,2.7375,0.1276753127621809,-0.20636067502266472,0.8915761746977964,-0.04592090360076567,-0.908672,-13.49756
11.185,2.0,1.0,1.0,33.0,34.5,34.5,1.5,2.5,2.74,0.1068640856980934,-0.21539142991665927,0.8869574229180508,-0.05457453054447584,-0.979354,-13.065206
11.185,2.0,1.0,1.0,33.0,34.5,34.5,1.5,2.5,2.7425,0.08548978417585447,-0.22476999357641603,0.8811050172856599,-0.06436203580399155,-1.058753,-12.622984
11.185,2.0,1.0,1.0,33.0,34.5,34.5,1.5,2.5,2.745,0.06358363259795913,-0.23445949715329517,0.8738536719546077,-0.075442696656746,-1.148293,-12.170771
11.185,2.0,1.0,1.0,33.0,34.5,34.5,1.5,2.5,2.7475,0.04119822112344913,-0.2444015408770793,0.8650159402388623,-0.08799748113050465,-1.249678,-11.708528
11.185,2.0,1.0,1.0,33.0,34.5,34.5,1.5,2.5,2.75,0.0184147556166788,-0.25450896396266,0.854380664470209,-0.102230548864343,-1.364955,-11.236326
11.185,2.0,1.0,1.0,33.0,34.5,34.5,1.5,2.5,2.7525,-0.004647638742254157,-0.2646565723313992,0.8417123098936762,-0.11836986474947787,-1.496594,-10.754389
11.185,2.0,1.0,1.0,33.0,34.5,34.5,1.5,2.5,2.755,-0.02782015413272235,-0.2746694218441231,0.8267518950703335,-0.13666621502109141,-1.647581,-10.263137
11.185,2.0,1.0,1.0,33.0,34.5,34.5,1.5,2.5,2.7575,-0.050869728435801384,-0.2843083128142439,0.8092205851475051,-0.15738956340081248,-1.821533,-9.76325
11.185,2.0,1.0,1.0,33.0,34.5,34.5,1.5,2.5,2.76,-0.07348151537983577,-0.2932523505886581,0.7888274861359862,-0.18082121585640082,-2.022836,-9.25574
11.185,2.0,1.0,1.0,33.0,34.5,34.5,1.5,2.5,2.7625,-0.09523869612083596,-0.30107887582771403,0.7652837615996514,-0.2072396832058917,-2.256804,-8.74204
11.185,2.0,1.0,1.0,33.0,34.5,34.5,1.5,2.5,2.765,-0.11560079077240104,-0.30724192450608995,0.7383258249355568,-0.23689750423528896,-2.529857,-8.224115
11.185,2.0,1.0,1.0,33.0,34.5,34.5,1.5,2.5,2.7675,-0.13388309716408897,-0.3110518406617869,0.7077508631502867,-0.2699857954397291,-2.849699,-7.704575
11.185,2.0,1.0,1.0,33.0,34.5,34.5,1.5,2.5,2.77,-0.14924215378716904,-0.311660923676968,0.6734679446305827,-0.30658330270933987,-3.225461,-7.186806
11.185,2.0,1.0,1.0,33.0,34.5,34.5,1.5,2.5,2.7725,-0.16067523380310028,-0.3080630837745911,0.6355667850575945,-0.34658791095002606,-3.667723,-6.675089
11.185,2.0,1.0,1.0,33.0,34.5,34.5,1.5,2.5,2.775,-0.16704542526038174,-0.29911900194990554,0.5944029077601345,-0.3896318985304992,-4.188255,-6.174693
11.185,2.0,1.0,1.0,33.0,34.5,34.5,1.5,2.5,2.7775,-0.16714654832331582,-0.2836209561626023,0.550691354531281,-0.434988778907863,-4.799111,-5.691898
11.185,2.0,1.0,1.0,33.0,34.5,34.5,1.5,2.5,2.78,-0.15982138764274365,-0.2604106800171736,0.5055908286766414,-0.48148979437455824,-5.510388,-5.233913
11.185,2.0,1.0,1.0,33.0,34.5,34.5,1.5,2.5,2.7825,-0.14413866714979034,-0.22855557611149951,0.46074779530644555,-0.5274804029476711,-6.325239,-4.808637
11.185,2.0,1.0,1.0,33.0,34.5,34.5,1.5,2.5,2.785,-0.11961553106763409,-0.18757000946233207,0.418261017437692,-0.5708560535400627,-7.229638,-4.424217
11.185,2.0,1.0,1.0,33.0,34.5,34.5,1.5,2.5,2.7875,-0.08644405704388192,-0.13764031475924587,0.38053070887387536,-0.6092127865482172,-8.17368,-4.088407
11.185,2.0,1.0,1.0,33.0,34.5,34.5,1.5,2.5,2.79,-0.045652590454973774,-0.07978461588487508,0.349982358526878,-0.6401223763418884,-9.045802,-3.807791
11.185,2.0,1.0,1.0,33.0,34.5,34.5,1.5,2.5,2.7925,0.0008752512840596064,-0.01587077911532092,0.32870329829942746,-0.6614939265720226,-9.663888,-3.586984
11.185,2.0,1.0,1.0,33.0,34.5,34.5,1.5,2.5,2.795,0.05057114102309089,0.05155427486510288,0.3180818302101659,-0.6719324140072331,-9.84081,-3.427997
11.185,2.0,1.0,1.0,33.0,34.5,34.5,1.5,2.5,2.7975,0.1005233909431878,0.11960491993176546,0.3185615222424163,-0.6709821642287221,-9.523888,-3.329933
11.185,2.0,1.0,1.0,33.0,34.5,34.5,1.5,2.5,2.8,0.1478991404110435,0.18547710987602234,0.32959313328956247,-0.6591734288559497,-8.843702,-3.289092
11.185,2.0,1.0,1.0,33.0,34.5,34.5,1.5,2.5,2.8025,0.19032406443320712,0.24682585736077986,0.34979309399312714,-0.6378634956644199,-7.997558,-3.299464
11.185,2.0,1.0,1.0,33.0,34.5,34.5,1.5,2.5,2.805,0.22612131986769837,0.30200227151992115,0.37724197737505943,-0.6089388234160618,-7.134484,-3.353469
11.185,2.0,1.0,1.0,33.0,34.5,34.5,1.5,2.5,2.8075,0.2543758949185147,0.35011674641536966,0.40982025440558023,-0.5744804896691836,-6.332788,-3.442763
11.185,2.0,1.0,1.0,33.0,34.5,34.5,1.5,2.5,2.81,0.2748539525829242,0.3909579730716575,0.44549236770462813,-0.5364814052441854,-5.622365,-3.558959
11.185,2.0,1.0,1.0,33.0,34.5,34.5,1.5,2.5,2.8125,0.287839755140709,0.424830173102901,0.482493030893033,-0.4966609983048,-5.007925,-3.694167
11.185,2.0,1.0,1.0,33.0,34.5,34.5,1.5,2.5,2.815,0.29395205019063986,0.45237013809291826,0.5194126951956324,-0.45638024750931305,-4.483093,-3.841323
11.185,2.0,1.0,1.0,33.0,34.5,34.5,1.5,2.5,2.8175,0.29398177968000827,0.47438566989284187,0.5552052069382468,-0.4166340387473963,-4.03757,-3.994347
11.185,2.0,1.0,1.0,33.0,34.5,34.5,1.5,2.5,2.82,0.28876988973568557,0.4917340254269997,0.589148212460238,-0.3780903813844659,-3.660433,-4.148161
11.185,2.0,1.0,1.0,33.0,34.5,34.5,1.5,2.5,2.8225,0.2791270907767895,0.5052421329918836,0.6207826168609191,-0.341150291017082,-3.341536,-4.298622
11.185,2.0,1.0,1.0,33.0,34.5,34.5,1.5,2.5,2.825,0.26578857385449733,0.5156615662852811,0.649848868550683,-0.3060106595228102,-3.071997,-4.442415
11.185,2.0,1.0,1.0,33.0,34.5,34.5,1.5,2.5,2.8275,0.24939400108478424,0.5236486054542668,0.676229748642722,-0.2727204917383756,-2.844278,-4.576921
11.185,2.0,1.0,1.0,33.0,34.5,34.5,1.5,2.5,2.83,0.23048381376665572,0.5297604481973542,0.6999035284263053,-0.24122667167349876,-2.6521,-4.700099
11.185,2.0,1.0,1.0,33.0,34.5,34.5,1.5,2.5,2.8325,0.20950493913445495,0.53446066602095,0.7209079073350149,-0.21140884767605544,-2.490286,-4.810363
