1,w,sub_t,h,l1,l2,l3,g1,g2,Freq,S11_re,S21_re,S11_img,S21_img,S11_dB,S21_dB
11.185,2.0,1.0,1.0,33.3,33.1,33.1,4.3,2.9,2.5,0.871198521538207,-0.00464748287697031,0.479485953927463,0.00348847668330598,-0.048504,-44.714874
11.185,2.0,1.0,1.0,33.3,33.1,33.1,4.3,2.9,2.5025,0.8681239276058869,-0.004735125774216427,0.484938871787901,0.003498653094480387,-0.048894,-44.601465
11.185,2.0,1.0,1.0,33.3,33.1,33.1,4.3,2.9,2.505,0.8650032057448377,-0.004824111681401314,0.4903918715655178,0.003508286610457564,-0.04929,-44.487925
11.185,2.0,1.0,1.0,33.3,33.1,33.1,4.3,2.9,2.5075,0.8618359454216171,-0.004914462207783754,0.4958447663598489,0.003517358754486114,-0.049692,-44.374246
11.185,2.0,1.0,1.0,33.3,33.1,33.1,4.3,2.9,2.51,0.8586217299963884,-0.005006199391494056,0.5012973639636328,0.003525850478340035,-0.0501,-44.260422
11.185,2.0,1.0,1.0,33.3,33.1,33.1,4.3,2.9,2.5125,0.8553601366374621,-0.005099345709299926,0.50674946669809,0.0035337421427018042,-0.050515,-44.146446
11.185,2.0,1.0,1.0,33.3,33.1,33.1,4.3,2.9,2.515,0.8520507362351744,-0.005193924086616073,0.5122008712432471,0.0035410134967980727,-0.050935,-44.032312
11.185,2.0,1.0,1.0,33.3,33.1,33.1,4.3,2.9,2.5175,0.8486930933151393,-0.005289957907764694,0.5176513684631305,0.003547643657256576,-0.051363,-43.918011
11.185,2.0,1.0,1.0,33.3,33.1,33.1,4.3,2.9,2.52,0.8452867659508916,-0.005387471026493116,0.5231007432256907,0.003553611086150504,-0.051797,-43.803538
11.185,2.0,1.0,1.0,33.3,33.1,33.1,4.3,2.9,2.5225,0.8418313056759711,-0.005486487776755803,0.5285487742172646,0.003558893568195619,-0.052238,-43.688885
11.185,2.0,1.0,1.0,33.3,33.1,33.1,4.3,2.9,2.525,0.8383262573954707,-0.005587032983768181,0.5339952337514301,0.0035634681870633524,-0.052686,-43.574045
11.185,2.0,1.0,1.0,33.3,33.1,33.1,4.3,2.9,2.5275,0.8347711592970928,-0.005689131975339516,0.5394398875720621,0.003567311300771367,-0.053141,-43.459012
11.185,2.0,1.0,1.0,33.3,33.1,33.1,4.3,2.9,2.53,0.8311655427617541,-0.005792810593492813,0.5448824946504058,0.0035703985161113275,-0.053604,-43.343777
11.185,2.0,1.0,1.0,33.3,33.1,33.1,4.3,2.9,2.5325,0.8275089322737913,-0.005898095206379235,0.5503228069759869,0.0035727046620714904,-0.054074,-43.228335
11.185,2.0,1.0,1.0,33.3,33.1,33.1,4.3,2.9,2.535,0.8238008453308026,-0.006005012720495782,0.5557605693411577,0.003574203762209629,-0.054551,-43.112678
11.185,2.0,1.0,1.0,33.3,33.1,33.1,4.3,2.9,2.5375,0.8200407923531937,-0.006113590593213949,0.5611955191190758,0.0035748690059296388,-0.055037,-42.996799
11.185,2.0,1.0,1.0,33.3,33.1,33.1,4.3,2.9,2.54,0.8162282765934745,-0.006223856845628768,0.5666273860349124,0.003574672718612778,-0.05553,-42.88069
11.185,2.0,1.0,1.0,33.3,33.1,33.1,4.3,2.9,2.5425,0.8123627940453663,-0.0063358400757364325,0.5720558919300716,0.0035735863305521396,-0.056031,-42.764344
11.185,2.0,1.0,1.0,33.3,33.1,33.1,4.3,2.9,2.545,0.8084438333527907,-0.006449569471950371,0.5774807505192037,0.003571580344635885,-0.05654,-42.647754
11.185,2.0,1.0,1.0,33.3,33.1,33.1,4.3,2.9,2.5475,0.8044708757188068,-0.006565074826964448,0.5829016671397683,0.0035686243027228054,-0.057058,-42.530912
11.185,2.0,1.0,1.0,33.3,33.1,33.1,4.3,2.9,2.55,0.8004433948145643,-0.00668238655197409,0.588318338493935,0.003564686750649885,-0.057585,-42.413812
11.185,2.0,1.0,1.0,33.3,33.1,33.1,4.3,2.9,2.5525,0.7963608566883641,-0.006801535691264074,0.5937304523825453,0.0035597352018091467,-0.05812,-42.296444
11.185,2.0,1.0,1.0,33.3,33.1,33.1,4.3,2.9,2.555,0.7922227196748993,-0.006922553937174532,0.5991376874309081,0.003553736099227416,-0.058665,-42.178802
11.185,2.0,1.0,1.0,33.3,33.1,33.1,4.3,2.9,2.5575,0.788028434304769,-0.007045473645455069,0.6045397128061579,0.003546654776079239,-0.059218,-42.060877
11.185,2.0,1.0,1.0,33.3,33.1,33.1,4.3,2.9,2.56,0.7837774432143656,-0.007170327851018308,0.6099361879258983,0.0035384554145594703,-0.059781,-41.942663
11.185,2.0,1.0,1.0,33.3,33.1,33.1,4.3,2.9,2.5625,0.7794691810562313,-0.007297150284103757,0.6153267621578595,0.0035291010030381324,-0.060353,-41.824151
11.185,2.0,1.0,1.0,33.3,33.1,33.1,4.3,2.9,2.565,0.7751030744099908,-0.007425975386864372,0.6207110745102798,0.0035185532914159116,-0.060936,-41.705333
11.185,2.0,1.0,1.0,33.3,33.1,33.1,4.3,2.9,2.5675,0.7706785416939858,-0.00755683833038702,0.6260887533127049,0.003506772744594373,-0.061528,-41.586201
11.185,2.0,1.0,1.0,33.3,33.1,33.1,4.3,2.9,2.57,0.766194993077718,-0.007689775032159581,0.6314594158869021,0.003493718493970178,-0.062131,-41.466748
11.185,2.0,1.0,1.0,33.3,33.1,33.1,4.3,2.9,2.5725,0.7616518303952426,-0.007824822173997398,0.636822668207569,0.003479348286857459,-0.062744,-41.346964
11.185,2.0,1.0,1.0,33.3,33.1,33.1,4.3,2.9,2.575,0.7570484470596414,-0.00796201722044221,0.6421781045525045,0.0034636184337376637,-0.063367,-41.226841
11.185,2.0,1.0,1.0,33.3,33.1,33.1,4.3,2.9,2.5775,0.7523842279787238,-0.008101398437646554,0.6475253071418968,0.003446483753229891,-0.064002,-41.106372
11.185,2.0,1.0,1.0,33.3,33.1,33.1,4.3,2.9,2.58,0.7476585494721175,-0.00824300491275848,0.6528638457663793,0.003427897514669371,-0.064648,-40.985547
11.185,2.0,1.0,1.0,33.3,33.1,33.1,4.3,2.9,2.5825,0.7428707791898962,-0.008386876573819578,0.6581932774034859,0.003407811378174876,-0.065305,-40.864358
11.185,2.0,1.0,1.0,33.3,33.1,33.1,4.3,2.9,2.585,0.7380202760329326,-0.008533054210192292,0.6635131458221237,0.0033861753320793505,-0.065974,-40.742796
11.185,2.0,1.0,1.0,33.3,33.1,33.1,4.3,2.9,2.5875,0.7331063900751511,-0.008681579493530666,0.6688229811746803,0.0033629376275907,-0.066656,-40.620852
11.185,2.0,1.0,1.0,33.3,33.1,33.1,4.3,2.9,2.59,0.7281284624878792,-0.008832494999310728,0.6741222995763446,0.003338044710541935,-0.067349,-40.498518
11.185,2.0,1.0,1.0,33.3,33.1,33.1,4.3,2.9,2.5925,0.7230858254664941,-0.008985844228935662,0.679410602671236,0.00331144115008161,-0.068055,-40.375784
11.185,2.0,1.0,1.0,33.3,33.1,33.1,4.3,2.9,2.595,0.7179778021595974,-0.00914167163243341,0.6846873771848919,0.0032830695641469848,-0.068774,-40.252641
11.185,2.0,1.0,1.0,33.3,33.1,33.1,4.3,2.9,2.5975,0.7128037066009257,-0.009300022631762304,0.6899520944626778,0.0032528705415524896,-0.069506,-40.129079
11.185,2.0,1.0,1.0,33.3,33.1,33.1,4.3,2.9,2.6,0.7075628436442547,-0.009460943644742849,0.6952042099936409,0.0032207825605164125,-0.070252,-40.005089
11.185,2.0,1.0,1.0,33.3,33.1,33.1,4.3,2.9,2.6025,0.702254508901546,-0.009624482109633334,0.7004431629193253,0.0031867419034381315,-0.071011,-39.880661
11.185,2.0,1.0,1.0,33.3,33.1,33.1,4.3,2.9,2.605,0.6968779886846066,-0.009790686510367146,0.7056683755270557,0.0031506825677262785,-0.071785,-39.755786
11.185,2.0,1.0,1.0,33.3,33.1,33.1,4.3,2.9,2.6075,0.6914325599505422,-0.00995960640247046,0.7108792527271568,0.003112536172466435,-0.072573,-39.630453
11.185,2.0,1.0,1.0,33.3,33.1,33.1,4.3,2.9,2.61,0.6859174902513149,-0.010131292439680284,0.7160751815135769,0.003072231860703816,-0.073376,-39.504653
11.185,2.0,1.0,1.0,33.3,33.1,33.1,4.3,2.9,2.6125,0.6803320376877058,-0.01030579640128132,0.7212555304073546,0.0030296961971021602,-0.074194,-39.378375
11.185,2.0,1.0,1.0,33.3,33.1,33.1,4.3,2.9,2.615,0.6746754508680293,-0.010483171220181877,0.7264196488823508,0.0029848530607250083,-0.075028,-39.251608
11.185,2.0,1.0,1.0,33.3,33.1,33.1,4.3,2.9,2.6175,0.6689469688719425,-0.01066347101175021,0.7315668667726364,0.00293762353266988,-0.075878,-39.124342
11.185,2.0,1.0,1.0,33.3,33.1,33.1,4.3,2.9,2.62,0.6631458212197255,-0.010846751103430311,0.7366964936609158,0.0028879257782679266,-0.076745,-38.996566
11.185,2.0,1.0,1.0,33.3,33.1,33.1,4.3,2.9,2.6225,0.6572712278474147,-0.011033068065160169,0.7418078182473394,0.0028356749235435024,-0.077628,-38.868269
11.185,2.0,1.0,1.0,33.3,33.1,33.1,4.3,2.9,2.625,0.651322399088213,-0.0112224797406126,0.746900107698016,0.00278078292560814,-0.078529,-38.739439
11.185,2.0,1.0,1.0,33.3,33.1,33.1,4.3,2.9,2.6275,0.6452985356605957,-0.011415045279280956,0.7519726069725419,0.0027231584366416246,-0.079447,-38.610066
11.185,2.0,1.0,1.0,33.3,33.1,33.1,4.3,2.9,2.63,0.6391988286635745,-0.011610825169431745,0.7570245381298011,0.0026627066610903642,-0.080383,-38.480137
11.185,2.0,1.0,1.0,33.3,33.1,33.1,4.3,2.9,2.6325,0.6330224595795982,-0.011809881271946298,0.7620550996112866,0.002599329205687867,-0.081339,-38.349641
11.185,2.0,1.0,1.0,33.3,33.1,33.1,4.3,2.9,2.635,0.6267686002855924,-0.012012276855073499,0.7670634655011445,0.002532923921875966,-0.082313,-38.218565
11.185,2.0,1.0,1.0,33.3,33.1,33.1,4.3,2.9,2.6375,0.6204364130726763,-0.012218076630115997,0.7720487847621177,0.0024633847401761607,-0.083307,-38.086897
11.185,2.0,1.0,1.0,33.3,33.1,33.1,4.3,2.9,2.64,0.6140250506750987,-0.012427346788072502,0.7770101804465401,0.0023906014960296505,-0.084321,-37.954624
11.185,2.0,1.0,1.0,33.3,33.1,33.1,4.3,2.9,2.6425,0.6075336563089988,-0.012640155037257189,0.7819467488814685,0.002314459746591264,-0.085356,-37.821734
11.185,2.0,1.0,1.0,33.3,33.1,33.1,4.3,2.9,2.645,0.6009613637215945,-0.012856570641918587,0.78685755882703,0.002234840577925838,-0.086413,-37.688213
11.185,2.0,1.0,1.0,33.3,33.1,33.1,4.3,2.9,2.6475,0.5943072972514588,-0.013076664461878473,0.7917416506069991,0.002151620402017239,-0.087491,-37.554047
11.185,2.0,1.0,1.0,33.3,33.1,33.1,4.3,2.9,2.65,0.5875705719005496,-0.01330050899321177,0.7965980352105952,0.00206467074295704,-0.088592,-37.419223
11.185,2.0,1.0,1.0,33.3,33.1,33.1,4.3,2.9,2.6525,0.5807502934187354,-0.013528178409985527,0.8014256933644126,0.0019738580116351085,-0.089716,-37.283727
11.185,2.0,1.0,1.0,33.3,33.1,33.1,4.3,2.9,2.655,0.5738455584015427,-0.013759748607076138,0.806223574573383,0.0018790432682040232,-0.090864,-37.147545
11.185,2.0,1.0,1.0,33.3,33.1,33.1,4.3,2.9,2.6575,0.5668554544019366,-0.01399529724408071,0.8109905961295897,0.0017800819715361378,-0.092036,-37.010661
11.185,2.0,1.0,1.0,33.3,33.1,33.1,4.3,2.9,2.66,0.5597790600569549,-0.014234903790336966,0.8157256420877013,0.0016768237148333683,-0.093234,-36.873061
11.185,2.0,1.0,1.0,33.3,33.1,33.1,4.3,2.9,2.6625,0.5526154452300833,-0.014478649571064343,0.8204275622057382,0.001569111946487403,-0.094457,-36.734728
11.185,2.0,1.0,1.0,33.3,33.1,33.1,4.3,2.9,2.665,0.5453636711702676,-0.014726617814634368,0.8250951708498143,0.0014567836752183297,-0.095708,-36.595648
11.185,2.0,1.0,1.0,33.3,33.1,33.1,4.3,2.9,2.6675,0.538022790688558,-0.01497889370097705,0.8297272458614188,0.0013396691584464065,-0.096985,-36.455804
11.185,2.0,1.0,1.0,33.3,33.1,33.1,4.3,2.9,2.67,0.5305918483533719,-0.015235564411124633,0.8343225273857409,0.0012175915727693175,-0.098291,-36.31518
11.185,2.0,1.0,1.0,33.3,33.1,33.1,4.3,2.9,2.6725,0.5230698807054568,-0.015496719177888038,0.8388797166594476,0.0010903666653297897,-0.099626,-36.173757
11.185,2.0,1.0,1.0,33.3,33.1,33.1,4.3,2.9,2.675,0.5154559164936668,-0.01576244933765863,0.8433974747562362,0.0009578023847619307,-0.100992,-36.03152
11.185,2.0,1.0,1.0,33.3,33.1,33.1,4.3,2.9,2.6775,0.5077489769327342,-0.016032848383316988,0.8478744212883895,0.0008196984902996643,-0.102388,-35.888449
11.185,2.0,1.0,1.0,33.3,33.1,33.1,4.3,2.9,2.68,0.4999480759842625,-0.016308012018226126,0.852309133062459,0.0006758461375162209,-0.103816,-35.744527
11.185,2.0,1.0,1.0,33.3,33.1,33.1,4.3,2.9,2.6825,0.49205222066225607,-0.016588038211273713,0.85670014268708,0.0005260274390384059,-0.105277,-35.599734
11.185,2.0,1.0,1.0,33.3,33.1,33.1,4.3,2.9,2.685,0.48406041136453987,-0.016873027252918695,0.8610459371308106,0.0003700149984427115,-0.106772,-35.454052
11.185,2.0,1.0,1.0,33.3,33.1,33.1,4.3,2.9,2.6875,0.475971642231509,-0.0171630818121842,0.865344956227745,0.000207571415390679,-0.108302,-35.307459
11.185,2.0,1.0,1.0,33.3,33.1,33.1,4.3,2.9,2.69,0.4677849015337357,-0.01745830699452285,0.8695955911284992,3.844875989698936e-05,-0.109868,-35.159936
11.185,2.0,1.0,1.0,33.3,33.1,33.1,4.3,2.9,2.6925,0.45949917208999475,-0.01775881040046339,0.8737961826940267,-0.00013761198655622652,-0.111472,-35.011462
11.185,2.0,1.0,1.0,33.3,33.1,33.1,4.3,2.9,2.695,0.45111343171742496,-0.018064702184926076,0.8779450198295186,-0.00032088152554152547,-0.113114,-34.862014
11.185,2.0,1.0,1.0,33.3,33.1,33.1,4.3,2.9,2.6975,0.44262665371555,-0.01837609511707102,0.8820403377554795,-0.000511642874545498,-0.114796,-34.71157
11.185,2.0,1.0,1.0,33.3,33.1,33.1,4.3,2.9,2.7,0.434037807386057,-0.018693104640515726,0.8860803162128327,-0.0007101920411022854,-0.116519,-34.560107
11.185,2.0,1.0,1.0,33.3,33.1,33.1,4.3,2.9,2.7025,0.4253458585902697,-0.019015848933722747,0.8900630775986973,-0.0009168387414015327,-0.118285,-34.407602
11.185,2.0,1.0,1.0,33.3,33.1,33.1,4.3,2.9,2.705,0.4165497703464104,-0.01934444897032636,0.8939866850292061,-0.0011319071668585451,-0.120095,-34.254029
11.185,2.0,1.0,1.0,33.3,33.1,33.1,4.3,2.9,2.7075,0.40764850346882486,-0.01967902857911546,0.8978491403254665,-0.001355736802452821,-0.121951,-34.099363
11.185,2.0,1.0,1.0,33.3,33.1,33.1,4.3,2.9,2.71,0.3986410172515075,-0.020019714503346067,0.9016483819184387,-0.0015886833009917014,-0.123854,-33.943579
11.185,2.0,1.0,1.0,33.3,33.1,33.1,4.3,2.9,2.7125,0.38952627019836134,-0.020366636458992667,0.905382282668176,-0.0018311194178438667,-0.125805,-33.786649
11.185,2.0,1.0,1.0,33.3,33.1,33.1,4.3,2.9,2.715,0.3803032208028119,-0.02071992719148005,0.9090486475924735,-0.0020834360111156823,-0.127808,-33.628546
11.185,2.0,1.0,1.0,33.3,33.1,33.1,4.3,2.9,2.7175,0.37097082837953155,-0.021079722530359144,0.9126452114995576,-0.002346043112718186,-0.129863,-33.46924
11.185,2.0,1.0,1.0,33.3,33.1,33.1,4.3,2.9,2.72,0.36152805395122206,-0.021446161441293722,0.9161696365189708,-0.0026193710762980947,-0.131972,-33.308701
11.185,2.0,1.0,1.0,33.3,33.1,33.1,4.3,2.9,2.7225,0.35197386119357404,-0.021819386074620386,0.9196195095242811,-0.00290387180859027,-0.134138,-33.1469
11.185,2.0,1.0,1.0,33.3,33.1,33.1,4.3,2.9,2.725,0.3423072174417738,-0.022199541809615794,0.9229923394406585,-0.0032000200913958415,-0.136363,-32.983804
11.185,2.0,1.0,1.0,33.3,33.1,33.1,4.3,2.9,2.7275,0.3325270947621031,-0.022586777293460272,0.9262855544297119,-0.0035083150021124714,-0.138649,-32.81938
11.185,2.0,1.0,1.0,33.3,33.1,33.1,4.3,2.9,2.73,0.3226324710925014,-0.022981244473717282,0.9294964989432355,-0.003829281441543265,-0.140998,-32.653594
11.185,2.0,1.0,1.0,33.3,33.1,33.1,4.3,2.9,2.7325,0.3126223314561887,-0.023383098622947778,0.932622430636712,-0.004163471778606634,-0.143413,-32.48641
11.185,2.0,1.0,1.0,33.3,33.1,33.1,4.3,2.9,2.735,0.30249566925281396,-0.023792498353849834,0.935660517132489,-0.004511467622565436,-0.145896,-32.317791
11.185,2.0,1.0,1.0,33.3,33.1,33.1,4.3,2.9,2.7375,0.29225148763192543,-0.024209605623042973,0.9386078326215241,-0.004873881734509031,-0.148451,-32.1477
11.185,2.0,1.0,1.0,33.3,33.1,33.1,4.3,2.9,2.74,0.2818888009539809,-0.0246345857213031,0.9414613542914286,-0.00525136009106757,-0.15108,-31.976097
11.185,2.0,1.0,1.0,33.3,33.1,33.1,4.3,2.9,2.7425,0.27140663634456413,-0.025067607247684864,0.944217958567255,-0.0056445841147348946,-0.153786,-31.80294
11.185,2.0,1.0,1.0,33.3,33.1,33.1,4.3,2.9,2.745,0.2608040353480014,-0.02550884206454016,0.9468744171499891,-0.006054273086740878,-0.156573,-31.628187
11.185,2.0,1.0,1.0,33.3,33.1,33.1,4.3,2.9,2.7475,0.2500800556871669,-0.02595846522993788,0.9494273928360645,-0.006481186760172683,-0.159444,-31.451794
11.185,2.0,1.0,1.0,33.3,33.1,33.1,4.3,2.9,2.75,0.23923377313693,-0.0264166549033987,0.951873435099354,-0.00692612819302111,-0.162403,-31.273713
11.185,2.0,1.0,1.0,33.3,33.1,33.1,4.3,2.9,2.7525,0.22826428351950312,-0.02688359222017013,0.9542089754149728,-0.007389946823053087,-0.165454,-31.093896
11.185,2.0,1.0,1.0,33.3,33.1,33.1,4.3,2.9,2.755,0.21717070483082454,-0.027359461128450484,0.9564303223018372,-0.007873541808920683,-0.168601,-30.912294
11.185,2.0,1.0,1.0,33.3,33.1,33.1,4.3,2.9,2.7575,0.20595217950814823,-0.02784444818301917,0.9585336560582269,-0.008377865664751037,-0.171849,-30.728854
11.185,2.0,1.0,1.0,33.3,33.1,33.1,4.3,2.9,2.76,0.19460787685024822,-0.02833874228760103,0.9605150231614985,-0.008903928218662623,-0.175201,-30.543521
11.185,2.0,1.0,1.0,33.3,33.1,33.1,4.3,2.9,2.7625,0.18313699560300745,-0.028842534376968668,0.9623703302996185,-0.009452800929282426,-0.178664,-30.356238
11.185,2.0,1.0,1.0,33.3,33.1,33.1,4.3,2.9,2.765,0.17153876672483725,-0.029356017028217114,0.964095337998192,-0.010025621598449845,-0.182242,-30.166946
11.185,2.0,1.0,1.0,33.3,33.1,33.1,4.3,2.9,2.7675,0.1598124563482796,-0.029879383988792176,0.9656856538021155,-0.010623599522964666,-0.185942,-29.975581
11.185,2.0,1.0,1.0,33.3,33.1,33.1,4.3,2.9,2.77,0.14795736895639897,-0.030412829606659073,0.9671367249658174,-0.011248021133550366,-0.18977,-29.78208
11.185,2.0,1.0,1.0,33.3,33.1,33.1,4.3,2.9,2.7725,0.1359728507952454,-0.030956548145389718,0.968443830600101,-0.01190025617525535,-0.193731,-29.586373
11.185,2.0,1.0,1.0,33.3,33.1,33.1,4.3,2.9,2.775,0.12385829354681581,-0.03151073296385129,0.9696020732168334,-0.012581764490422004,-0.197834,-29.38839
11.185,2.0,1.0,1.0,33.3,33.1,33.1,4.3,2.9,2.7775,0.1116131382906702,-0.03207557553649136,0.9706063696049394,-0.013294103473246274,-0.202085,-29.188055
11.185,2.0,1.0,1.0,33.3,33.1,33.1,4.3,2.9,2.78,0.09923687978678819,-0.032651264285812644,0.971451440962226,-0.014038936273986518,-0.206493,-28.98529
11.185,2.0,1.0,1.0,33.3,33.1,33.1,4.3,2.9,2.7825,0.0867290711175782,-0.033237983193374024,0.9721318021972918,-0.014818040841238878,-0.211067,-28.780012
11.185,2.0,1.0,1.0,33.3,33.1,33.1,4.3,2.9,2.785,0.07408932873320451,-0.03383591014935371,0.9726417503039444,-0.01563331990259944,-0.215815,-28.572135
11.185,2.0,1.0,1.0,33.3,33.1,33.1,4.3,2.9,2.7875,0.06131733795204883,-0.0344452149931499,0.9729753516969034,-0.016486811997719283,-0.220749,-28.361568
11.185,2.0,1.0,1.0,33.3,33.1,33.1,4.3,2.9,2.79,0.048412858977158246,-0.035066057188403874,0.9731264283817979,-0.017380703693541208,-0.225879,-28.148214
11.185,2.0,1.0,1.0,33.3,33.1,33.1,4.3,2.9,2.7925,0.03537573350055376,-0.035698583064859894,0.9730885428142333,-0.01831734312971604,-0.231217,-27.931974
11.185,2.0,1.0,1.0,33.3,33.1,33.1,4.3,2.9,2.795,0.022205891980451854,-0.03634292254623517,0.9728549812815553,-0.0192992550632671,-0.236776,-27.71274
11.185,2.0,1.0,1.0,33.3,33.1,33.1,4.3,2.9,2.7975,0.008903361692586473,-0.03699918526721494,0.9724187356164022,-0.020329157605965445,-0.24257,-27.490401
11.185,2.0,1.0,1.0,33.3,33.1,33.1,4.3,2.9,2.8,-0.004531724323792841,-0.037667455963201785,0.9717724830226188,-0.021409980876203008,-0.248614,-27.264838
11.185,2.0,1.0,1.0,33.3,33.1,33.1,4.3,2.9,2.8025,-0.018099117280868573,-0.03834778899270643,0.9709085637608685,-0.022544887820062014,-0.254924,-27.035926
11.185,2.0,1.0,1.0,33.3,33.1,33.1,4.3,2.9,2.805,-0.03179844144477843,-0.039040201823284125,0.9698189564025683,-0.023737297494605965,-0.26152,-26.803534
11.185,2.0,1.0,1.0,33.3,33.1,33.1,4.3,2.9,2.8075,-0.04562918151684987,-0.039744667276432125,0.9684952503154929,-0.024990911151120423,-0.268421,-26.567521
11.185,2.0,1.0,1.0,33.3,33.1,33.1,4.3,2.9,2.81,-0.05959066834099861,-0.04046110428327004,0.9669286149914951,-0.026309741508246037,-0.275648,-26.327739
11.185,2.0,1.0,1.0,33.3,33.1,33.1,4.3,2.9,2.8125,-0.0736820626309172,-0.0411893668491307,0.965109765764767,-0.0276981456660328,-0.283226,-26.084031
11.185,2.0,1.0,1.0,33.3,33.1,33.1,4.3,2.9,2.815,-0.08790233634416365,-0.04192923085883337,0.9630289253963584,-0.029160862183516257,-0.29118,-25.836231
11.185,2.0,1.0,1.0,33.3,33.1,33.1,4.3,2.9,2.8175,-0.10225025124764807,-0.04268037827212596,0.9606757809152573,-0.030703052926363883,-0.29954,-25.584161
11.185,2.0,1.0,1.0,33.3,33.1,33.1,4.3,2.9,2.82,-0.1167243341162372,-0.043442378156434376,0.9580394350059424,-0.03233035038972782,-0.308339,-25.327632
11.185,2.0,1.0,1.0,33.3,33.1,33.1,4.3,2.9,2.8225,-0.13132284787773985,-0.044214663876258074,0.9551083511142058,-0.03404891131730944,-0.31761,-25.066445
11.185,2.0,1.0,1.0,33.3,33.1,33.1,4.3,2.9,2.825,-0.14604375785651064,-0.0449965055984278,0.9518702913039981,-0.03586547757390217,-0.327395,-24.800385
11.185,2.0,1.0,1.0,33.3,33.1,33.1,4.3,2.9,2.8275,-0.16088469206522427,-0.04578697707104203,0.9483122457343403,-0.037787445388946926,-0.337738,-24.529224
