1,w,sub_t,h,l1,l2,l3,g1,g2,Freq,S11_re,S21_re,S11_img,S21_img,S11_dB,S21_dB
11.185,2.0,1.0,1.0,33.5,33.5,33.5,1.8,2.8,2.5,0.844737076043868,-0.0110697164512835,0.52165903080884,0.010298754926654,-0.062513,-36.409181
11.185,2.0,1.0,1.0,33.5,33.5,33.5,1.8,2.8,2.5025,0.8410870710674443,-0.011303649484534103,0.5273849417718253,0.010356935479455744,-0.063159,-36.288608
11.185,2.0,1.0,1.0,33.5,33.5,33.5,1.8,2.8,2.505,0.8373803907063642,-0.011542091276303507,0.5331108534145296,0.010414286727832223,-0.063817,-36.167642
11.185,2.0,1.0,1.0,33.5,33.5,33.5,1.8,2.8,2.5075,0.8336164152255847,-0.011785139033129359,0.5388364932401457,0.010470758291963917,-0.064487,-36.046277
11.185,2.0,1.0,1.0,33.5,33.5,33.5,1.8,2.8,2.51,0.8297945141416461,-0.012032892463846622,0.5445615796558828,0.010526297641960539,-0.065169,-35.924503
11.185,2.0,1.0,1.0,33.5,33.5,33.5,1.8,2.8,2.5125,0.8259140460208505,-0.012285453853020902,0.5502858216513731,0.010580850002868675,-0.065865,-35.802313
11.185,2.0,1.0,1.0,33.5,33.5,33.5,1.8,2.8,2.515,0.8219743582737197,-0.012542928136729347,0.5560089184652364,0.01063435825513508,-0.066574,-35.679698
11.185,2.0,1.0,1.0,33.5,33.5,33.5,1.8,2.8,2.5175,0.8179747869456955,-0.01280542298076493,0.5617305592392985,0.010686762830288542,-0.067296,-35.556651
11.185,2.0,1.0,1.0,33.5,33.5,33.5,1.8,2.8,2.52,0.8139146565040262,-0.013073048861345162,0.5674504226599794,0.010738001601587902,-0.068032,-35.433163
11.185,2.0,1.0,1.0,33.5,33.5,33.5,1.8,2.8,2.5225,0.8097932796208048,-0.013345919148405008,0.5731681765862927,0.010788009769369812,-0.068783,-35.309225
11.185,2.0,1.0,1.0,33.5,33.5,33.5,1.8,2.8,2.525,0.805609956952114,-0.013624150191559613,0.5788834776639326,0.010836719740814542,-0.069548,-35.184829
11.185,2.0,1.0,1.0,33.5,33.5,33.5,1.8,2.8,2.5275,0.8013639769132325,-0.013907861408822607,0.584595970924849,0.010884061003831338,-0.070329,-35.059966
11.185,2.0,1.0,1.0,33.5,33.5,33.5,1.8,2.8,2.53,0.797054615449876,-0.014197175378168114,0.5903052893717065,0.010929959994747331,-0.071124,-34.934627
11.185,2.0,1.0,1.0,33.5,33.5,33.5,1.8,2.8,2.5325,0.7926811358054329,-0.014492217932028172,0.5960110535465946,0.010974339959465671,-0.071936,-34.808804
11.185,2.0,1.0,1.0,33.5,33.5,33.5,1.8,2.8,2.535,0.7882427882841601,-0.014793118254818237,0.6017128710833213,0.011017120807737934,-0.072764,-34.682487
11.185,2.0,1.0,1.0,33.5,33.5,33.5,1.8,2.8,2.5375,0.7837388100103226,-0.015100008983586372,0.607410336242585,0.011058218960175826,-0.073609,-34.555667
11.185,2.0,1.0,1.0,33.5,33.5,33.5,1.8,2.8,2.54,0.7791684246832427,-0.015413026311883697,0.6131030294292993,0.011097547187603307,-0.07447,-34.428335
11.185,2.0,1.0,1.0,33.5,33.5,33.5,1.8,2.8,2.5425,0.7745308423282434,-0.015732310096956185,0.618790516691298,0.01113501444232733,-0.07535,-34.30048
11.185,2.0,1.0,1.0,33.5,33.5,33.5,1.8,2.8,2.545,0.7698252590434733,-0.016058003970358992,0.6244723491986177,0.011170525680879168,-0.076247,-34.172095
11.185,2.0,1.0,1.0,33.5,33.5,33.5,1.8,2.8,2.5475,0.7650508567426089,-0.016390255452097602,0.6301480627024991,0.011203981677751032,-0.077163,-34.043168
11.185,2.0,1.0,1.0,33.5,33.5,33.5,1.8,2.8,2.55,0.7602068028934138,-0.016729216068401474,0.6358171769732415,0.01123527882962368,-0.078099,-33.91369
11.185,2.0,1.0,1.0,33.5,33.5,33.5,1.8,2.8,2.5525,0.7552922502521893,-0.01707504147323632,0.6414791952159475,0.011264308949549154,-0.079053,-33.78365
11.185,2.0,1.0,1.0,33.5,33.5,33.5,1.8,2.8,2.555,0.7503063365940996,-0.017427891573665096,0.6471336034632015,0.011290959050520246,-0.080029,-33.65304
11.185,2.0,1.0,1.0,33.5,33.5,33.5,1.8,2.8,2.5575,0.7452481844394055,-0.017787930659166767,0.6527798699436435,0.011315111117821798,-0.081024,-33.521847
11.185,2.0,1.0,1.0,33.5,33.5,33.5,1.8,2.8,2.56,0.7401169007756364,-0.018155327535023653,0.6584174444253466,0.011336641869522022,-0.082042,-33.390062
11.185,2.0,1.0,1.0,33.5,33.5,33.5,1.8,2.8,2.5625,0.7349115767757358,-0.01853025565988907,0.6640457575328718,0.011355422504420138,-0.083081,-33.257673
11.185,2.0,1.0,1.0,33.5,33.5,33.5,1.8,2.8,2.565,0.7296312875122293,-0.01891289328764724,0.6696642200367927,0.01137131843672491,-0.084142,-33.124671
11.185,2.0,1.0,1.0,33.5,33.5,33.5,1.8,2.8,2.5675,0.724275091667486,-0.019303423613676218,0.6752722221144277,0.011384189016690327,-0.085227,-32.991043
11.185,2.0,1.0,1.0,33.5,33.5,33.5,1.8,2.8,2.57,0.7188420312401382,-0.01970203492562585,0.6808691325804525,0.011393887236386445,-0.086336,-32.856779
11.185,2.0,1.0,1.0,33.5,33.5,33.5,1.8,2.8,2.5725,0.7133311312477574,-0.020108920758819787,0.686454298085996,0.011400259419729473,-0.08747,-32.721867
11.185,2.0,1.0,1.0,33.5,33.5,33.5,1.8,2.8,2.575,0.7077413994258892,-0.020524280056389798,0.6920270422847407,0.011403144895838187,-0.088629,-32.586295
11.185,2.0,1.0,1.0,33.5,33.5,33.5,1.8,2.8,2.5775,0.7020718259235746,-0.020948317334247523,0.6975866649644689,0.011402375654722982,-0.089814,-32.450052
11.185,2.0,1.0,1.0,33.5,33.5,33.5,1.8,2.8,2.58,0.696321382995501,-0.021381242850995286,0.7031324411424191,0.011397775984247864,-0.091026,-32.313124
11.185,2.0,1.0,1.0,33.5,33.5,33.5,1.8,2.8,2.5825,0.6904890246909461,-0.02182327278287404,0.7086636201227203,0.011389162087236143,-0.092265,-32.175501
11.185,2.0,1.0,1.0,33.5,33.5,33.5,1.8,2.8,2.585,0.6845736865397075,-0.02227462940383942,0.714179424514071,0.011376341677514229,-0.093533,-32.03717
11.185,2.0,1.0,1.0,33.5,33.5,33.5,1.8,2.8,2.5875,0.6785742852352273,-0.022735541270851832,0.7196790492057439,0.011359113553608151,-0.094831,-31.898117
11.185,2.0,1.0,1.0,33.5,33.5,33.5,1.8,2.8,2.59,0.6724897183151642,-0.023206243414456817,0.7251616602998594,0.011337267148719788,-0.096159,-31.758329
11.185,2.0,1.0,1.0,33.5,33.5,33.5,1.8,2.8,2.5925,0.666318863839676,-0.023686977534723402,0.7306263939977902,0.011310582055516277,-0.097519,-31.617794
11.185,2.0,1.0,1.0,33.5,33.5,33.5,1.8,2.8,2.595,0.660060580067736,-0.024177992202594447,0.7360723554383954,0.011278827524166658,-0.09891,-31.476498
11.185,2.0,1.0,1.0,33.5,33.5,33.5,1.8,2.8,2.5975,0.6537137051318174,-0.024679543066692587,0.7414986174856909,0.011241761931951514,-0.100335,-31.334427
11.185,2.0,1.0,1.0,33.5,33.5,33.5,1.8,2.8,2.6,0.6472770567113391,-0.02519189306560552,0.746904219463385,0.011199132222654248,-0.101795,-31.191567
11.185,2.0,1.0,1.0,33.5,33.5,33.5,1.8,2.8,2.6025,0.6407494317053143,-0.025715312645658107,0.7522881658335763,0.011150673313820076,-0.103289,-31.047903
11.185,2.0,1.0,1.0,33.5,33.5,33.5,1.8,2.8,2.605,0.634129605904673,-0.026250079984156512,0.7576494248167498,0.011096107469832073,-0.104821,-30.903422
11.185,2.0,1.0,1.0,33.5,33.5,33.5,1.8,2.8,2.6075,0.6274163336648103,-0.026796481218063373,0.7629869269500216,0.011035143638610087,-0.10639,-30.758108
11.185,2.0,1.0,1.0,33.5,33.5,33.5,1.8,2.8,2.61,0.6206083475789582,-0.02735481067803527,0.7682995635804047,0.010967476749581912,-0.107999,-30.611946
11.185,2.0,1.0,1.0,33.5,33.5,33.5,1.8,2.8,2.6125,0.613704358153051,-0.02792537112771981,0.7735861852896745,0.010892786970407554,-0.109648,-30.46492
11.185,2.0,1.0,1.0,33.5,33.5,33.5,1.8,2.8,2.615,0.6067030534828189,-0.028508474008171494,0.7788456002471901,0.010810738919756663,-0.111339,-30.317015
11.185,2.0,1.0,1.0,33.5,33.5,33.5,1.8,2.8,2.6175,0.5996030989339503,-0.029104439687201295,0.7840765724868008,0.010720980833241842,-0.113073,-30.168214
11.185,2.0,1.0,1.0,33.5,33.5,33.5,1.8,2.8,2.62,0.5924031368262221,-0.029713597713425743,0.7892778201037308,0.010623143679400869,-0.114852,-30.018501
11.185,2.0,1.0,1.0,33.5,33.5,33.5,1.8,2.8,2.6225,0.5851017861226225,-0.030336287074723654,0.794448013367062,0.010516840222390795,-0.116677,-29.867859
11.185,2.0,1.0,1.0,33.5,33.5,33.5,1.8,2.8,2.625,0.57769764212459,-0.0309728564607427,0.79958577274315,0.0104016640278107,-0.11855,-29.716271
11.185,2.0,1.0,1.0,33.5,33.5,33.5,1.8,2.8,2.6275,0.5701892761746109,-0.03162366452902669,0.8046896668250241,0.010277188407802607,-0.120473,-29.563718
11.185,2.0,1.0,1.0,33.5,33.5,33.5,1.8,2.8,2.63,0.5625752353675598,-0.03228908017424693,0.8097582101624667,0.010142965301291518,-0.122447,-29.410184
11.185,2.0,1.0,1.0,33.5,33.5,33.5,1.8,2.8,2.6325,0.5548540422723135,-0.0329694827999277,0.8147898609871378,0.009998524084911968,-0.124475,-29.255649
11.185,2.0,1.0,1.0,33.5,33.5,33.5,1.8,2.8,2.635,0.5470241946653305,-0.033665262591946694,0.8197830188267209,0.00984337030983171,-0.126557,-29.100095
11.185,2.0,1.0,1.0,33.5,33.5,33.5,1.8,2.8,2.6375,0.5390841652780862,-0.03437682079296687,0.8247360220016552,0.009676984359313759,-0.128697,-28.943502
11.185,2.0,1.0,1.0,33.5,33.5,33.5,1.8,2.8,2.64,0.5310324015604257,-0.035104569976819426,0.8296471449975942,0.0094988200214633,-0.130896,-28.785851
11.185,2.0,1.0,1.0,33.5,33.5,33.5,1.8,2.8,2.6425,0.5228673254621579,-0.035848934321695045,0.8345145957062291,0.009308302971172893,-0.133156,-28.627122
11.185,2.0,1.0,1.0,33.5,33.5,33.5,1.8,2.8,2.645,0.5145873332354417,-0.03661034988082509,0.8393365125266246,0.009104829154811958,-0.135481,-28.467293
11.185,2.0,1.0,1.0,33.5,33.5,33.5,1.8,2.8,2.6475,0.5061907952608055,-0.03738926484912713,0.8441109613186459,0.008887763070700282,-0.137872,-28.306344
11.185,2.0,1.0,1.0,33.5,33.5,33.5,1.8,2.8,2.65,0.49767605589993,-0.03818613982406314,0.8488359321994684,0.008656435937851278,-0.140332,-28.144252
11.185,2.0,1.0,1.0,33.5,33.5,33.5,1.8,2.8,2.6525,0.48904143337871536,-0.03900144805869144,0.8535093361734819,0.008410143744874593,-0.142863,-27.980996
11.185,2.0,1.0,1.0,33.5,33.5,33.5,1.8,2.8,2.655,0.4802852197044768,-0.03983567570460377,0.8581290015852415,0.008148145170274354,-0.145469,-27.816553
11.185,2.0,1.0,1.0,33.5,33.5,33.5,1.8,2.8,2.6575,0.47140568062159566,-0.040689322042099324,0.8626926703843166,0.007869659364672078,-0.148152,-27.6509
11.185,2.0,1.0,1.0,33.5,33.5,33.5,1.8,2.8,2.66,0.4624010556104034,-0.04156289969456875,0.8671979941900824,0.007573863584712516,-0.150916,-27.484012
11.185,2.0,1.0,1.0,33.5,33.5,33.5,1.8,2.8,2.6625,0.4532695579346268,-0.04245693482363039,0.8716425301435933,0.007259890667572559,-0.153764,-27.315865
11.185,2.0,1.0,1.0,33.5,33.5,33.5,1.8,2.8,2.665,0.44400937474330127,-0.043371967301073594,0.8760237365327146,0.0069268263340786845,-0.156699,-27.146434
11.185,2.0,1.0,1.0,33.5,33.5,33.5,1.8,2.8,2.6675,0.4346186672337715,-0.04430855085310716,0.8803389681756155,0.006573706307445902,-0.159725,-26.975692
11.185,2.0,1.0,1.0,33.5,33.5,33.5,1.8,2.8,2.67,0.42509557088310446,-0.04526725317178674,0.8845854715465966,0.006199513233563331,-0.162846,-26.803614
11.185,2.0,1.0,1.0,33.5,33.5,33.5,1.8,2.8,2.6725,0.4154381957561169,-0.0462486559877793,0.8887603796269634,0.005803173387572692,-0.166065,-26.630172
11.185,2.0,1.0,1.0,33.5,33.5,33.5,1.8,2.8,2.675,0.40564462689916647,-0.04725335509781373,0.8928607064623032,0.005383553150193535,-0.169388,-26.455339
11.185,2.0,1.0,1.0,33.5,33.5,33.5,1.8,2.8,2.6775,0.39571292482991044,-0.048281960339248677,0.8968833414060445,0.0049394552358442475,-0.172818,-26.279084
11.185,2.0,1.0,1.0,33.5,33.5,33.5,1.8,2.8,2.68,0.3856411261344482,-0.04933509550314319,0.9008250430275739,0.004469614653069835,-0.176361,-26.10138
11.185,2.0,1.0,1.0,33.5,33.5,33.5,1.8,2.8,2.6825,0.375427244184626,-0.050413398176027774,0.9046824326614195,0.003972694376113041,-0.180021,-25.922195
11.185,2.0,1.0,1.0,33.5,33.5,33.5,1.8,2.8,2.685,0.36506926998978617,-0.05151751949922472,0.908451987572115,0.003447280704632021,-0.183804,-25.741499
11.185,2.0,1.0,1.0,33.5,33.5,33.5,1.8,2.8,2.6875,0.3545651731989995,-0.05264812383302669,0.9121300337072693,0.002891878286569223,-0.187716,-25.559259
11.185,2.0,1.0,1.0,33.5,33.5,33.5,1.8,2.8,2.69,0.34391290327175394,-0.05380588831129168,0.9157127380090848,0.0023049047769905396,-0.191762,-25.375442
11.185,2.0,1.0,1.0,33.5,33.5,33.5,1.8,2.8,2.6925,0.3331103908372732,-0.05499150227002052,0.9191961002521225,0.0016846851033251121,-0.195948,-25.190014
11.185,2.0,1.0,1.0,33.5,33.5,33.5,1.8,2.8,2.695,0.3221555492651729,-0.05620566653119951,0.922575944372363,0.0010294453048291796,-0.200282,-25.002941
11.185,2.0,1.0,1.0,33.5,33.5,33.5,1.8,2.8,2.6975,0.31104627647295097,-0.057449092520603824,0.9258479092497204,0.00033730591124358545,-0.204771,-24.814187
11.185,2.0,1.0,1.0,33.5,33.5,33.5,1.8,2.8,2.7,0.29978045699908035,-0.05872250119528037,0.9290074389028934,-0.0003937251774971448,-0.209421,-24.623714
11.185,2.0,1.0,1.0,33.5,33.5,33.5,1.8,2.8,2.7025,0.28835596437409877,-0.06002662175304755,0.9320497720519793,-0.001165760352053036,-0.214242,-24.431484
11.185,2.0,1.0,1.0,33.5,33.5,33.5,1.8,2.8,2.705,0.2767706638262784,-0.06136219009246371,0.9349699310004077,-0.0019810405402266398,-0.219242,-24.237459
11.185,2.0,1.0,1.0,33.5,33.5,33.5,1.8,2.8,2.7075,0.2650224153631893,-0.06272994698728361,0.9377627097836071,-0.002841944088593293,-0.224429,-24.041597
11.185,2.0,1.0,1.0,33.5,33.5,33.5,1.8,2.8,2.71,0.2531090772759161,-0.06413063593432826,0.9404226615272434,-0.003750996332961939,-0.229814,-23.843857
11.185,2.0,1.0,1.0,33.5,33.5,33.5,1.8,2.8,2.7125,0.24102851011882834,-0.06556500062786819,0.9429440849529305,-0.004710879916244731,-0.235408,-23.644196
11.185,2.0,1.0,1.0,33.5,33.5,33.5,1.8,2.8,2.715,0.2287785812249234,-0.06703378200691901,0.9453210099638947,-0.005724445917571902,-0.24122,-23.442569
11.185,2.0,1.0,1.0,33.5,33.5,33.5,1.8,2.8,2.7175,0.21635716982481437,-0.06853771481416268,0.9475471822372306,-0.006794725862212972,-0.247263,-23.238932
11.185,2.0,1.0,1.0,33.5,33.5,33.5,1.8,2.8,2.72,0.20376217284674683,-0.0700775235963614,0.9496160467429811,-0.007924944688084579,-0.253549,-23.033236
11.185,2.0,1.0,1.0,33.5,33.5,33.5,1.8,2.8,2.7225,0.19099151148562624,-0.0716539180659597,0.951520730103382,-0.00911853475137732,-0.260093,-22.825432
11.185,2.0,1.0,1.0,33.5,33.5,33.5,1.8,2.8,2.725,0.1780431386413188,-0.0732675877318404,0.953254021698117,-0.010379150961133133,-0.266908,-22.615472
11.185,2.0,1.0,1.0,33.5,33.5,33.5,1.8,2.8,2.7275,0.1649150473404606,-0.07491919569369222,0.9548083534133528,-0.011710687140503714,-0.27401,-22.403302
11.185,2.0,1.0,1.0,33.5,33.5,33.5,1.8,2.8,2.73,0.15160528027229608,-0.07660937147883828,0.9561757779236179,-0.013117293720904102,-0.281416,-22.188869
11.185,2.0,1.0,1.0,33.5,33.5,33.5,1.8,2.8,2.7325,0.13811194058760765,-0.07833870278235987,0.9573479453862718,-0.014603396884392522,-0.289144,-21.972118
11.185,2.0,1.0,1.0,33.5,33.5,33.5,1.8,2.8,2.735,0.12443320413141341,-0.08010772595050367,0.9583160784183341,-0.01617371927932168,-0.297213,-21.752992
11.185,2.0,1.0,1.0,33.5,33.5,33.5,1.8,2.8,2.7375,0.11056733330490573,-0.08191691502324604,0.9590709452148909,-0.01783330244462538,-0.305644,-21.531431
11.185,2.0,1.0,1.0,33.5,33.5,33.5,1.8,2.8,2.74,0.09651269278090259,-0.08376666912393482,0.9596028306571212,-0.019587531088964983,-0.314459,-21.307374
11.185,2.0,1.0,1.0,33.5,33.5,33.5,1.8,2.8,2.7425,0.08226776733034052,-0.08565729795152881,0.9599015052463842,-0.02144215938229403,-0.323683,-21.080759
11.185,2.0,1.0,1.0,33.5,33.5,33.5,1.8,2.8,2.745,0.06783118205594071,-0.08758900509333399,0.9599561916887605,-0.023403339429076513,-0.333342,-20.85152
11.185,2.0,1.0,1.0,33.5,33.5,33.5,1.8,2.8,2.7475,0.05320172537394993,-0.08956186883243836,0.9597555289422577,-0.02547765210423398,-0.343463,-20.619589
11.185,2.0,1.0,1.0,33.5,33.5,33.5,1.8,2.8,2.75,0.0383783751368136,-0.0915758200732361,0.959287533526756,-0.0276721404446329,-0.354078,-20.384898
11.185,2.0,1.0,1.0,33.5,33.5,33.5,1.8,2.8,2.7525,0.023360328350105864,-0.09363061694930146,0.9585395578850704,-0.029994345800182082,-0.365221,-20.147373
11.185,2.0,1.0,1.0,33.5,33.5,33.5,1.8,2.8,2.755,0.00814703500733917,-0.09572581560901196,0.9574982455727562,-0.03245234695888651,-0.376926,-19.906942
11.185,2.0,1.0,1.0,33.5,33.5,33.5,1.8,2.8,2.7575,-0.0072617633519115815,-0.0978607365940795,0.9561494830451752,-0.0350548024688131,-0.389234,-19.663526
11.185,2.0,1.0,1.0,33.5,33.5,33.5,1.8,2.8,2.76,-0.02286598965965659,-0.10003442613256058,0.9544783478037767,-0.037810996385914654,-0.402187,-19.417047
11.185,2.0,1.0,1.0,33.5,33.5,33.5,1.8,2.8,2.7625,-0.03866518110089211,-0.10224561155875578,0.9524690526607635,-0.040730887678842566,-0.415832,-19.167422
11.185,2.0,1.0,1.0,33.5,33.5,33.5,1.8,2.8,2.765,-0.054658431716951915,-0.10449264994497784,0.9501048858839798,-0.043825163518578354,-0.430219,-18.914567
11.185,2.0,1.0,1.0,33.5,33.5,33.5,1.8,2.8,2.7675,-0.07084432673767617,-0.10677346888142354,0.9473681469940435,-0.04710529666981954,-0.445406,-18.658394
11.185,2.0,1.0,1.0,33.5,33.5,33.5,1.8,2.8,2.77,-0.08722086737266095,-0.10908549816671857,0.9442400780063402,-0.05058360717974458,-0.461452,-18.398813
11.185,2.0,1.0,1.0,33.5,33.5,33.5,1.8,2.8,2.7725,-0.10378538458572281,-0.11142559096898902,0.9407007899451565,-0.05427332852437532,-0.478426,-18.135733
11.185,2.0,1.0,1.0,33.5,33.5,33.5,1.8,2.8,2.775,-0.12053444013633283,-0.11378993278078771,0.9367291845107135,-0.0581886783184851,-0.4964,-17.869056
11.185,2.0,1.0,1.0,33.5,33.5,33.5,1.8,2.8,2.7775,-0.13746371289153198,-0.11617393621543555,0.9323028708584757,-0.062344933615654095,-0.515455,-17.598684
11.185,2.0,1.0,1.0,33.5,33.5,33.5,1.8,2.8,2.78,-0.15456786808555106,-0.11857211937118864,0.9273980775618785,-0.06675851071259424,-0.535682,-17.324517
11.185,2.0,1.0,1.0,33.5,33.5,33.5,1.8,2.8,2.7825,-0.17184040682495666,-0.1209779651162426,0.9219895599850494,-0.07144704921582501,-0.557178,-17.046452
11.185,2.0,1.0,1.0,33.5,33.5,33.5,1.8,2.8,2.785,-0.18927349269714977,-0.12338375821444586,0.9160505035046953,-0.07642949991577264,-0.580054,-16.764381
11.185,2.0,1.0,1.0,33.5,33.5,33.5,1.8,2.8,2.7875,-0.20685775183087837,-0.12578039671061422,0.9095524233075859,-0.0817262157259588,-0.604429,-16.478197
11.185,2.0,1.0,1.0,33.5,33.5,33.5,1.8,2.8,2.79,-0.224582042171068,-0.12815717341726857,0.9024650618743472,-0.0873590445609372,-0.63044,-16.18779
11.185,2.0,1.0,1.0,33.5,33.5,33.5,1.8,2.8,2.7925,-0.24243318705788003,-0.13050152268332738,0.894756285770558,-0.0933514225172766,-0.658235,-15.893048
11.185,2.0,1.0,1.0,33.5,33.5,33.5,1.8,2.8,2.795,-0.26039566743464077,-0.1327987268727683,0.8863919840392404,-0.09972846505061816,-0.687982,-15.593858
11.185,2.0,1.0,1.0,33.5,33.5,33.5,1.8,2.8,2.7975,-0.27845126614560806,-0.13503157613270722,0.8773359713720049,-0.10651705296170798,-0.719866,-15.290105
11.185,2.0,1.0,1.0,33.5,33.5,33.5,1.8,2.8,2.8,-0.29657865682204193,-0.13717997408524957,0.8675499003893941,-0.11374590885594081,-0.754097,-14.981677
11.185,2.0,1.0,1.0,33.5,33.5,33.5,1.8,2.8,2.8025,-0.3147529287994983,-0.13922048104238643,0.8569931888603525,-0.12144565824880961,-0.790909,-14.66846
11.185,2.0,1.0,1.0,33.5,33.5,33.5,1.8,2.8,2.805,-0.33294503837870576,-0.14112578523625827,0.845622969632135,-0.1296488675589581,-0.830564,-14.350345
11.185,2.0,1.0,1.0,33.5,33.5,33.5,1.8,2.8,2.8075,-0.35112117557218814,-0.14286409141415515,0.8333940735449398,-0.1383900487427084,-0.87336,-14.027223
11.185,2.0,1.0,1.0,33.5,33.5,33.5,1.8,2.8,2.81,-0.36924203433149344,-0.14439841503142004,0.8202590588184601,-0.14770561713226849,-0.919631,-13.698992
11.185,2.0,1.0,1.0,33.5,33.5,33.5,1.8,2.8,2.8125,-0.387261973227922,-0.145685769288643,0.806168304501699,-0.157633784965085,-0.969756,-13.365558
11.185,2.0,1.0,1.0,33.5,33.5,33.5,1.8,2.8,2.815,-0.40512805282425296,-0.1466762315629995,0.7910701907905149,-0.1682143679188465,-1.024165,-13.026835
11.185,2.0,1.0,1.0,33.5,33.5,33.5,1.8,2.8,2.8175,-0.4227789357707774,-0.1473118756215656,0.7749113955952887,-0.17948847544301838,-1.083345,-12.682751
11.185,2.0,1.0,1.0,33.5,33.5,33.5,1.8,2.8,2.82,-0.4401436363502223,-0.14752555673940873,0.7576373449737686,-0.19149804751796667,-1.147854,-12.333248
11.185,2.0,1.0,1.0,33.5,33.5,33.5,1.8,2.8,2.8225,-0.457140108312327,-0.14723953900413683,0.7391928652429625,-0.20428519037040146,-1.218327,-11.978291
11.185,2.0,1.0,1.0,33.5,33.5,33.5,1.8,2.8,2.825,-0.4736736641368786,-0.14636395842345606,0.7195230970540959,-0.21789125133048254,-1.295491,-11.61787
11.185,2.0,1.0,1.0,33.5,33.5,33.5,1.8,2.8,2.8275,-0.48963522640483453,-0.1447951230167899,0.6985747467005835,-0.23235555819428655,-1.380182,-11.252009
11.185,2.0,1.0,1.0,33.5,33.5,33.5,1.8,2.8,2.83,-0.5048994241994209,-0.14241366331300925,0.6762977675206444,-0.2477137310738049,-1.473358,-10.880771
