1,w,sub_t,h,l1,l2,l3,g1,g2,Freq,S11_re,S21_re,S11_img,S21_img,S11_dB,S21_dB
11.185,2.0,1.0,1.0,34.8,34.7,34.7,4.0,2.0,2.5,0.64219046548789,-0.0163299737656207,0.754408459766694,0.00591013764619809,-0.080917,-35.205719
11.185,2.0,1.0,1.0,34.8,34.7,34.7,4.0,2.0,2.5025,0.6356055963696665,-0.01663801530654575,0.7598135232197527,0.005849519063758531,-0.081933,-35.071832
11.185,2.0,1.0,1.0,34.8,34.7,34.7,4.0,2.0,2.505,0.6289357974122325,-0.01695204895913828,0.7651901919650338,0.005784872318589226,-0.082972,-34.937159
11.185,2.0,1.0,1.0,34.8,34.7,34.7,4.0,2.0,2.5075,0.6221802301316695,-0.01727222280834872,0.770537428552619,0.005716036977934848,-0.084035,-34.801684
11.185,2.0,1.0,1.0,34.8,34.7,34.7,4.0,2.0,2.51,0.6153380474770742,-0.017598689935317186,0.7758541659107382,0.005642845505317787,-0.085123,-34.665386
11.185,2.0,1.0,1.0,34.8,34.7,34.7,4.0,2.0,2.5125,0.6084083938249504,-0.017931608641859248,0.7811393064145039,0.005565122880872384,-0.086235,-34.528246
11.185,2.0,1.0,1.0,34.8,34.7,34.7,4.0,2.0,2.515,0.601390404975433,-0.01827114268765911,0.7863917209189083,0.0054826861970669,-0.087374,-34.390245
11.185,2.0,1.0,1.0,34.8,34.7,34.7,4.0,2.0,2.5175,0.5942832081501692,-0.018617461541021313,0.791610247754106,0.005395344227914643,-0.08854,-34.251361
11.185,2.0,1.0,1.0,34.8,34.7,34.7,4.0,2.0,2.52,0.5870859219915977,-0.018970740644096973,0.7967936916808734,0.005302896969604869,-0.089734,-34.111574
11.185,2.0,1.0,1.0,34.8,34.7,34.7,4.0,2.0,2.5225,0.5797976565633731,-0.01933116169356901,0.8019408228039251,0.005205135150297331,-0.090956,-33.970861
11.185,2.0,1.0,1.0,34.8,34.7,34.7,4.0,2.0,2.525,0.5724175133515867,-0.01969891293785786,0.8070503754406191,0.005101839706618262,-0.092208,-33.8292
11.185,2.0,1.0,1.0,34.8,34.7,34.7,4.0,2.0,2.5275,0.5649445852664039,-0.020074189491989136,0.812121046942343,0.004992781224166649,-0.093491,-33.686568
11.185,2.0,1.0,1.0,34.8,34.7,34.7,4.0,2.0,2.53,0.5573779566436846,-0.02045719367135374,0.8171514964656384,0.004877719339088617,-0.094806,-33.542939
11.185,2.0,1.0,1.0,34.8,34.7,34.7,4.0,2.0,2.5325,0.5497167032460671,-0.020848135345686192,0.8221403436898812,0.004756402097498947,-0.096153,-33.398291
11.185,2.0,1.0,1.0,34.8,34.7,34.7,4.0,2.0,2.535,0.5419598922629268,-0.021247232314691684,0.8270861674780322,0.004628565269220303,-0.097535,-33.252596
11.185,2.0,1.0,1.0,34.8,34.7,34.7,4.0,2.0,2.5375,0.5341065823085541,-0.02165471070686273,0.8319875044766487,0.004493931611968991,-0.098952,-33.105829
11.185,2.0,1.0,1.0,34.8,34.7,34.7,4.0,2.0,2.54,0.5261558234177818,-0.022070805403149863,0.8368428476510178,0.004352210081735578,-0.100406,-32.957961
11.185,2.0,1.0,1.0,34.8,34.7,34.7,4.0,2.0,2.5425,0.5181066570382039,-0.022495760487282045,0.8416506447508445,0.004203094984689028,-0.101898,-32.808965
11.185,2.0,1.0,1.0,34.8,34.7,34.7,4.0,2.0,2.545,0.509958116018015,-0.022929829724675485,0.8464092967015208,0.00404626506546218,-0.103429,-32.658811
11.185,2.0,1.0,1.0,34.8,34.7,34.7,4.0,2.0,2.5475,0.5017092245883883,-0.023373277072024103,0.8511171559154763,0.0038813825261549677,-0.105001,-32.507468
11.185,2.0,1.0,1.0,34.8,34.7,34.7,4.0,2.0,2.55,0.49335899833913693,-0.023826377219834553,0.8557725245175991,0.003708091969809194,-0.106616,-32.354905
11.185,2.0,1.0,1.0,34.8,34.7,34.7,4.0,2.0,2.5525,0.484906444186322,-0.024289416170347907,0.8603736524780683,0.0035260192614588854,-0.108275,-32.201089
11.185,2.0,1.0,1.0,34.8,34.7,34.7,4.0,2.0,2.555,0.47635056033023676,-0.024762691853490556,0.864918735645279,0.003334770299132957,-0.109979,-32.045986
11.185,2.0,1.0,1.0,34.8,34.7,34.7,4.0,2.0,2.5575,0.46769033620205835,-0.025246514783707822,0.8694059136707588,0.003133929686373508,-0.111732,-31.889561
11.185,2.0,1.0,1.0,34.8,34.7,34.7,4.0,2.0,2.56,0.4589247523972716,-0.025741208760765688,0.8738332678171024,0.002923059296921834,-0.113534,-31.731777
11.185,2.0,1.0,1.0,34.8,34.7,34.7,4.0,2.0,2.5625,0.4500527805937214,-0.026247111617855857,0.878198818638995,0.002701696721200639,-0.115389,-31.572597
11.185,2.0,1.0,1.0,34.8,34.7,34.7,4.0,2.0,2.565,0.4410733834519414,-0.026764576020609332,0.8825005235262903,0.0024693535830711765,-0.117297,-31.411981
11.185,2.0,1.0,1.0,34.8,34.7,34.7,4.0,2.0,2.5675,0.4319855144951603,-0.027293970320913668,0.8867362740968652,0.002225513714049726,-0.119261,-31.249887
11.185,2.0,1.0,1.0,34.8,34.7,34.7,4.0,2.0,2.57,0.42278811796608073,-0.027835679469744218,0.8909038934256046,0.0019696311707096863,-0.121285,-31.086273
11.185,2.0,1.0,1.0,34.8,34.7,34.7,4.0,2.0,2.5725,0.4134801286572569,-0.02839010599355659,0.8950011330942562,0.001701128079348397,-0.123369,-30.921095
11.185,2.0,1.0,1.0,34.8,34.7,34.7,4.0,2.0,2.575,0.4040604717115543,-0.028957671039148945,0.8990256700451504,0.0014193922901373055,-0.125518,-30.754306
11.185,2.0,1.0,1.0,34.8,34.7,34.7,4.0,2.0,2.5775,0.3945280623888357,-0.02953881549229147,0.9029751032197157,0.0011237748208666703,-0.127734,-30.585857
11.185,2.0,1.0,1.0,34.8,34.7,34.7,4.0,2.0,2.58,0.3848818057946464,-0.0301340011758334,0.9068469499604475,0.0008135870680061978,-0.13002,-30.415699
11.185,2.0,1.0,1.0,34.8,34.7,34.7,4.0,2.0,2.5825,0.37512059656624575,-0.03074371213343865,0.9106386421523546,0.00048809776008786136,-0.13238,-30.243779
11.185,2.0,1.0,1.0,34.8,34.7,34.7,4.0,2.0,2.585,0.3652433185109437,-0.03136845600556494,0.914347522076934,0.00014652962532997655,-0.134817,-30.070042
11.185,2.0,1.0,1.0,34.8,34.7,34.7,4.0,2.0,2.5875,0.35524884419120556,-0.03200876550479233,0.9179708379483176,-0.00021194425809949185,-0.137335,-29.894431
11.185,2.0,1.0,1.0,34.8,34.7,34.7,4.0,2.0,2.59,0.3451360344505685,-0.03266519999811481,0.9215057390973259,-0.0005882044648012954,-0.139938,-29.716886
11.185,2.0,1.0,1.0,34.8,34.7,34.7,4.0,2.0,2.5925,0.3349037378738596,-0.03333834720433847,0.9249492707647443,-0.0009831896180629977,-0.14263,-29.537343
11.185,2.0,1.0,1.0,34.8,34.7,34.7,4.0,2.0,2.595,0.3245507901747754,-0.03402882501526387,0.9282983684599674,-0.0013979012244623994,-0.145416,-29.355738
11.185,2.0,1.0,1.0,34.8,34.7,34.7,4.0,2.0,2.5975,0.314076013503305,-0.0347372834498723,0.9315498518353299,-0.0018334089986899492,-0.148301,-29.172002
11.185,2.0,1.0,1.0,34.8,34.7,34.7,4.0,2.0,2.6,0.30347821566504296,-0.035464406751258344,0.9347004180196323,-0.0022908567370828583,-0.15129,-28.986062
11.185,2.0,1.0,1.0,34.8,34.7,34.7,4.0,2.0,2.6025,0.29275618924395125,-0.03621091563654895,0.937746634346577,-0.002771468806379085,-0.15439,-28.797844
11.185,2.0,1.0,1.0,34.8,34.7,34.7,4.0,2.0,2.605,0.2819087106197039,-0.03697756971049162,0.9406849304047861,-0.0032765573234664136,-0.157605,-28.607267
11.185,2.0,1.0,1.0,34.8,34.7,34.7,4.0,2.0,2.6075,0.27093453887043495,-0.03776517005374701,0.9435115893256185,-0.0038075301126177874,-0.160944,-28.414248
11.185,2.0,1.0,1.0,34.8,34.7,34.7,4.0,2.0,2.61,0.25983241455150885,-0.038574561997146005,0.946222738212841,-0.004365899539140812,-0.164412,-28.218701
11.185,2.0,1.0,1.0,34.8,34.7,34.7,4.0,2.0,2.6125,0.2486010583408907,-0.03940663809320624,0.9488143376040915,-0.004953292332824482,-0.168018,-28.020531
11.185,2.0,1.0,1.0,34.8,34.7,34.7,4.0,2.0,2.615,0.23723916954194754,-0.040262341295970915,0.9512821698375823,-0.005571460531407061,-0.171771,-27.819644
11.185,2.0,1.0,1.0,34.8,34.7,34.7,4.0,2.0,2.6175,0.2257454244351184,-0.04114266835963542,0.9536218261782365,-0.006222293693957482,-0.175679,-27.615935
11.185,2.0,1.0,1.0,34.8,34.7,34.7,4.0,2.0,2.62,0.21411847447095164,-0.04204867346532747,0.9558286925349085,-0.0069078325570889115,-0.179753,-27.409298
11.185,2.0,1.0,1.0,34.8,34.7,34.7,4.0,2.0,2.6225,0.20235694429877107,-0.04298147208363569,0.9578979335738322,-0.007630284333941251,-0.184003,-27.199618
11.185,2.0,1.0,1.0,34.8,34.7,34.7,4.0,2.0,2.625,0.19045942962788,-0.0439422450777958,0.959824475002304,-0.00839203988765624,-0.188441,-26.986776
11.185,2.0,1.0,1.0,34.8,34.7,34.7,4.0,2.0,2.6275,0.1784244949219957,-0.04493224304856161,0.9616029837597869,-0.00919569304856484,-0.193079,-26.770642
11.185,2.0,1.0,1.0,34.8,34.7,34.7,4.0,2.0,2.63,0.16625067093305365,-0.04595279091628619,0.9632278458101482,-0.010044062388642656,-0.197933,-26.551084
11.185,2.0,1.0,1.0,34.8,34.7,34.7,4.0,2.0,2.6325,0.15393645208797085,-0.04700529272811238,0.9646931411771124,-0.010940215819371124,-0.203017,-26.327959
11.185,2.0,1.0,1.0,34.8,34.7,34.7,4.0,2.0,2.635,0.1414802937522714,-0.048091236667718605,0.9659926158035824,-0.011887498441662743,-0.208349,-26.101113
11.185,2.0,1.0,1.0,34.8,34.7,34.7,4.0,2.0,2.6375,0.1288806094083891,-0.04921220023087187,0.9671196497423263,-0.012889564151065552,-0.213947,-25.870388
11.185,2.0,1.0,1.0,34.8,34.7,34.7,4.0,2.0,2.64,0.11613576780528144,-0.05036985551089968,0.9680672210978419,-0.013950411590629106,-0.219832,-25.635612
11.185,2.0,1.0,1.0,34.8,34.7,34.7,4.0,2.0,2.6425,0.10324409016127346,-0.05156597451248499,0.9688278650341924,-0.015074425150764667,-0.226026,-25.396603
11.185,2.0,1.0,1.0,34.8,34.7,34.7,4.0,2.0,2.645,0.09020384753586044,-0.052802434377788046,0.9693936270370952,-0.016266421844107724,-0.232555,-25.153168
11.185,2.0,1.0,1.0,34.8,34.7,34.7,4.0,2.0,2.6475,0.07701325853140126,-0.05408122236292961,0.969756009465949,-0.01753170503867429,-0.239447,-24.905099
11.185,2.0,1.0,1.0,34.8,34.7,34.7,4.0,2.0,2.65,0.06367048754595306,-0.05540444034151222,0.9699059102467036,-0.018876126220581407,-0.246733,-24.652177
11.185,2.0,1.0,1.0,34.8,34.7,34.7,4.0,2.0,2.6525,0.05017364387915042,-0.05677430852993309,0.9698335523320489,-0.020306156185866616,-0.254448,-24.394165
11.185,2.0,1.0,1.0,34.8,34.7,34.7,4.0,2.0,2.655,0.036520782100536116,-0.05819316801982258,0.9695284022820562,-0.021828967339025288,-0.262631,-24.130811
11.185,2.0,1.0,1.0,34.8,34.7,34.7,4.0,2.0,2.6575,0.022709904233909294,-0.05966348155653808,0.9689790759842315,-0.023452529115703044,-0.271327,-23.861844
11.185,2.0,1.0,1.0,34.8,34.7,34.7,4.0,2.0,2.66,0.008738964504148098,-0.061187831806434785,0.9681732291224472,-0.025185718963572055,-0.280585,-23.586973
11.185,2.0,1.0,1.0,34.8,34.7,34.7,4.0,2.0,2.6625,-0.005394122347517252,-0.06276891609197373,0.9670974295004408,-0.027038451827695393,-0.29046,-23.305888
11.185,2.0,1.0,1.0,34.8,34.7,34.7,4.0,2.0,2.665,-0.019691467824387226,-0.06440953621843182,0.9657370077044067,-0.029021831718529262,-0.301017,-23.01825
11.185,2.0,1.0,1.0,34.8,34.7,34.7,4.0,2.0,2.6675,-0.03415518968314176,-0.06611258153551829,0.964075881820782,-0.031148329722239642,-0.312328,-22.7237
11.185,2.0,1.0,1.0,34.8,34.7,34.7,4.0,2.0,2.67,-0.04878738272096019,-0.06788100272505575,0.9620963509723752,-0.03343199378228368,-0.324475,-22.421844
11.185,2.0,1.0,1.0,34.8,34.7,34.7,4.0,2.0,2.6725,-0.06359007699659112,-0.06971777291691138,0.9597788512513937,-0.03588869678608437,-0.337554,-22.112261
11.185,2.0,1.0,1.0,34.8,34.7,34.7,4.0,2.0,2.675,-0.07856517894350895,-0.07162583151799873,0.9571016661527229,-0.03853643099124734,-0.351673,-21.794494
11.185,2.0,1.0,1.0,34.8,34.7,34.7,4.0,2.0,2.6775,-0.09371438918514233,-0.07360800446379911,0.9540405817711568,-0.04139565869708177,-0.366959,-21.468046
11.185,2.0,1.0,1.0,34.8,34.7,34.7,4.0,2.0,2.68,-0.10903908858205733,-0.07566689228385472,0.9505684747316077,-0.044489731401640864,-0.383559,-21.132378
11.185,2.0,1.0,1.0,34.8,34.7,34.7,4.0,2.0,2.6825,-0.12454018086846043,-0.07780471414743705,0.946654817961288,-0.04784539259417223,-0.401644,-20.786905
11.185,2.0,1.0,1.0,34.8,34.7,34.7,4.0,2.0,2.685,-0.1402178757953168,-0.08002309154124669,0.9422650858581189,-0.05149338294978413,-0.421416,-20.430989
11.185,2.0,1.0,1.0,34.8,34.7,34.7,4.0,2.0,2.6875,-0.15607139044407983,-0.0823227488729259,0.937360036014734,-0.05546917116514469,-0.443112,-20.063934
11.185,2.0,1.0,1.0,34.8,34.7,34.7,4.0,2.0,2.69,-0.17209853751177911,-0.08470309928160506,0.9318948392752473,-0.05981383915150413,-0.467015,-19.684982
11.185,2.0,1.0,1.0,34.8,34.7,34.7,4.0,2.0,2.6925,-0.1882951567223531,-0.08716167107698697,0.9258180234141833,-0.0645751569047729,-0.49346,-19.293303
11.185,2.0,1.0,1.0,34.8,34.7,34.7,4.0,2.0,2.695,-0.20465432735616226,-0.08969331175697928,0.9190701881138869,-0.06980889012283391,-0.522853,-18.88799
11.185,2.0,1.0,1.0,34.8,34.7,34.7,4.0,2.0,2.6975,-0.2211652736308873,-0.09228907984679266,0.9115824403949719,-0.07558039231812001,-0.555683,-18.468052
11.185,2.0,1.0,1.0,34.8,34.7,34.7,4.0,2.0,2.7,-0.23781183646341505,-0.09493469594355851,0.9032744909521162,-0.08196654203946474,-0.592548,-18.032406
11.185,2.0,1.0,1.0,34.8,34.7,34.7,4.0,2.0,2.7025,-0.25457032924102435,-0.09760836748503088,0.8940523447341805,-0.08905809307297463,-0.634181,-17.579872
11.185,2.0,1.0,1.0,34.8,34.7,34.7,4.0,2.0,2.705,-0.2714065130420411,-0.10027771814798479,0.8838055174121714,-0.09696250724381651,-0.681489,-17.109163
11.185,2.0,1.0,1.0,34.8,34.7,34.7,4.0,2.0,2.7075,-0.28827130553622304,-0.10289542945858995,0.8724037209289982,-0.10580732772734436,-0.735605,-16.618891
11.185,2.0,1.0,1.0,34.8,34.7,34.7,4.0,2.0,2.71,-0.30509465896563787,-0.10539302023173779,0.8596930016316912,-0.11574410981888915,-0.797959,-16.107561
11.185,2.0,1.0,1.0,34.8,34.7,34.7,4.0,2.0,2.7125,-0.3217767798357358,-0.10767192204987155,0.8454914137052961,-0.12695282522114457,-0.870365,-15.573594
11.185,2.0,1.0,1.0,34.8,34.7,34.7,4.0,2.0,2.715,-0.3381754812685709,-0.10959062054089555,0.8295845266260382,-0.13964643619022307,-0.955154,-15.015346
11.185,2.0,1.0,1.0,34.8,34.7,34.7,4.0,2.0,2.7175,-0.3540879182208996,-0.11094608181200154,0.8117215078969836,-0.1540748856004805,-1.055344,-14.431176
11.185,2.0,1.0,1.0,34.8,34.7,34.7,4.0,2.0,2.72,-0.3692242277789373,-0.11144694233782278,0.7916133966599858,-0.17052685919477567,-1.174878,-13.819537
11.185,2.0,1.0,1.0,34.8,34.7,34.7,4.0,2.0,2.7225,-0.3831697203907141,-0.11067504845882582,0.768936864940108,-0.1893259651011078,-1.318948,-13.179155
11.185,2.0,1.0,1.0,34.8,34.7,34.7,4.0,2.0,2.725,-0.39533150033155007,-0.10803115030404077,0.7433499087253306,-0.2108147736204311,-1.494419,-12.509319
11.185,2.0,1.0,1.0,34.8,34.7,34.7,4.0,2.0,2.7275,-0.40486558867096284,-0.10266075408016881,0.714531581561712,-0.23531438710634575,-1.710364,-11.810349
11.185,2.0,1.0,1.0,34.8,34.7,34.7,4.0,2.0,2.73,-0.4105840942038722,-0.09335967440405848,0.6822674857343458,-0.26303743302473964,-1.97864,-11.084362
11.185,2.0,1.0,1.0,34.8,34.7,34.7,4.0,2.0,2.7325,-0.4108542252468413,-0.07847130619802883,0.6466170947151029,-0.2939177555816142,-2.314249,-10.336452
11.185,2.0,1.0,1.0,34.8,34.7,34.7,4.0,2.0,2.735,-0.4035331633468644,-0.055820468717286416,0.6082145198792984,-0.32730427275247137,-2.734652,-9.57645
11.185,2.0,1.0,1.0,34.8,34.7,34.7,4.0,2.0,2.7375,-0.3860521209271289,-0.02279926380914476,0.568752031424476,-0.36146886651433163,-3.255843,-8.821339
11.185,2.0,1.0,1.0,34.8,34.7,34.7,4.0,2.0,2.74,-0.3558758656523946,0.023164615875783917,0.5316190979836181,-0.39295627407986194,-3.879938,-8.09805
11.185,2.0,1.0,1.0,34.8,34.7,34.7,4.0,2.0,2.7425,-0.3116487524367793,0.08344070275353825,0.5024137884012428,-0.41606479742782887,-4.564975,-7.445532
11.185,2.0,1.0,1.0,34.8,34.7,34.7,4.0,2.0,2.745,-0.2551140784971387,0.15624256238499382,0.48856799055095984,-0.4232305710349658,-5.174381,-6.913591
11.185,2.0,1.0,1.0,34.8,34.7,34.7,4.0,2.0,2.7475,-0.1929380209715784,0.23477546360476811,0.49707728884399066,-0.4073413133581096,-5.462065,-6.555164
11.185,2.0,1.0,1.0,34.8,34.7,34.7,4.0,2.0,2.75,-0.136273396412576,0.307688755957634,0.530487669384281,-0.365819189536242,-5.228967,-6.411213
11.185,2.0,1.0,1.0,34.8,34.7,34.7,4.0,2.0,2.7525,-0.09659266416013887,0.3633216770986799,0.5839936347773629,-0.30356277816308236,-4.554623,-6.494554
11.185,2.0,1.0,1.0,34.8,34.7,34.7,4.0,2.0,2.755,-0.0802454979401176,0.39523331003656376,0.6470635867656549,-0.23128020260927132,-3.714776,-6.784018
11.185,2.0,1.0,1.0,34.8,34.7,34.7,4.0,2.0,2.7575,-0.08644041073545557,0.40424014714376433,0.7086542429600071,-0.16018367248484686,-2.927171,-7.233799
11.185,2.0,1.0,1.0,34.8,34.7,34.7,4.0,2.0,2.76,-0.10966007769779093,0.39595099696433345,0.7614179028049378,-0.09772134088368761,-2.278378,-7.790382
11.185,2.0,1.0,1.0,34.8,34.7,34.7,4.0,2.0,2.7625,-0.14333706507471075,0.37703195181442256,0.8024870847603064,-0.04678968144042386,-1.774847,-8.406062
11.185,2.0,1.0,1.0,34.8,34.7,34.7,4.0,2.0,2.765,-0.1821123230570269,0.3529166378437667,0.832073216940974,-0.00716140342940155,-1.393562,-9.044769
11.185,2.0,1.0,1.0,34.8,34.7,34.7,4.0,2.0,2.7675,-0.22241562103300996,0.3272204682675253,0.8518038353105996,0.022825571991847732,-1.106767,-9.68211
11.185,2.0,1.0,1.0,34.8,34.7,34.7,4.0,2.0,2.77,-0.26218206648310677,0.30203027515243924,0.863637179511834,0.045167086001973146,-0.89051,-10.302936
11.185,2.0,1.0,1.0,34.8,34.7,34.7,4.0,2.0,2.7725,-0.3003668800731043,0.278397474889752,0.8693553781788691,0.06167919381450113,-0.726301,-10.898588
11.185,2.0,1.0,1.0,34.8,34.7,34.7,4.0,2.0,2.775,-0.33653777026653936,0.2567519006552458,0.8704049889082289,0.07383689833172385,-0.600504,-11.464635
11.185,2.0,1.0,1.0,34.8,34.7,34.7,4.0,2.0,2.7775,-0.3705997639656661,0.23718101824185533,0.8678964539575192,0.08277391463959428,-0.503229,-11.999269
11.185,2.0,1.0,1.0,34.8,34.7,34.7,4.0,2.0,2.78,-0.40262846376799116,0.2195990700791542,0.862658567960707,0.0893381118035655,-0.427331,-12.502247
11.185,2.0,1.0,1.0,34.8,34.7,34.7,4.0,2.0,2.7825,-0.4327754674845243,0.20384299704689385,0.8553016949792936,0.09415575726001926,-0.367622,-12.974206
11.185,2.0,1.0,1.0,34.8,34.7,34.7,4.0,2.0,2.785,-0.46121741860952714,0.1897240994768146,0.846273031532114,0.09768765534062869,-0.320312,-13.41625
11.185,2.0,1.0,1.0,34.8,34.7,34.7,4.0,2.0,2.7875,-0.4881300530058907,0.17705434451319554,0.8359000543013483,0.10027328287646788,-0.282605,-13.829685
11.185,2.0,1.0,1.0,34.8,34.7,34.7,4.0,2.0,2.79,-0.5136760535438475,0.1656586689231791,0.8244230339637629,0.10216382677093737,-0.252413,-14.215873
11.185,2.0,1.0,1.0,34.8,34.7,34.7,4.0,2.0,2.7925,-0.5380002903194256,0.15537979102933172,0.8120187880890518,0.10354633383402802,-0.228167,-14.576138
11.185,2.0,1.0,1.0,34.8,34.7,34.7,4.0,2.0,2.795,-0.5612288597961881,0.14607916890421896,0.7988178442023299,0.10456117904518278,-0.208671,-14.911719
11.185,2.0,1.0,1.0,34.8,34.7,34.7,4.0,2.0,2.7975,-0.5834699610035391,0.1376360939319803,0.7849167954955033,0.10531466319564306,-0.193007,-15.223742
11.185,2.0,1.0,1.0,34.8,34.7,34.7,4.0,2.0,2.8,-0.6048155581114352,0.12994598461988927,0.770387199760855,0.10588811235900744,-0.180463,-15.513207
11.185,2.0,1.0,1.0,34.8,34.7,34.7,4.0,2.0,2.8025,-0.6253432824836296,0.12291843449686718,0.755282006119114,0.10634448034140552,-0.170484,-15.780986
11.185,2.0,1.0,1.0,34.8,34.7,34.7,4.0,2.0,2.805,-0.6451183024102717,0.11647528877903596,0.739640213655568,0.10673317095505012,-0.162631,-16.027822
11.185,2.0,1.0,1.0,34.8,34.7,34.7,4.0,2.0,2.8075,-0.664195036707144,0.11054887418871379,0.7234902610270556,0.10709358930983805,-0.156558,-16.254333
11.185,2.0,1.0,1.0,34.8,34.7,34.7,4.0,2.0,2.81,-0.6826186661913608,0.10508042711222386,0.7068524996190148,0.10745778323370193,-0.151988,-16.461016
11.185,2.0,1.0,1.0,34.8,34.7,34.7,4.0,2.0,2.8125,-0.700426436411952,0.100018724995629,0.689740999290842,0.107852431578683,-0.148701,-16.648252
11.185,2.0,1.0,1.0,34.8,34.7,34.7,4.0,2.0,2.815,-0.7176487635124608,0.09531890664673541,0.6721648627844881,0.10830036303528534,-0.14652,-16.816306
11.185,2.0,1.0,1.0,34.8,34.7,34.7,4.0,2.0,2.8175,-0.7343101624441688,0.09094145905009049,0.6541291733450769,0.10882173794030012,-0.145302,-16.965335
11.185,2.0,1.0,1.0,34.8,34.7,34.7,4.0,2.0,2.82,-0.7504300182636477,0.08685134595285847,0.6356356634764524,0.10943498986173014,-0.144936,-17.095386
11.185,2.0,1.0,1.0,34.8,34.7,34.7,4.0,2.0,2.8225,-0.766023219826729,0.08301725384368172,0.6166831664233616,0.11015759890317886,-0.145332,-17.206397
11.185,2.0,1.0,1.0,34.8,34.7,34.7,4.0,2.0,2.825,-0.7811006723571224,0.07941093237982844,0.5972678927027578,0.111006751540635,-0.146422,-17.298199
11.185,2.0,1.0,1.0,34.8,34.7,34.7,4.0,2.0,2.8275,-0.7956697018792555,0.07600660791425118,0.5773835595142521,0.11199993024872183,-0.148152,-17.370511
11.185,2.0,1.0,1.0,34.8,34.7,34.7,4.0,2.0,2.83,-0.8097343606767863,0.07278045001575927,0.5570213894987219,0.1131554687690835,-0.150487,-17.422937
