1,w,sub_t,h,l1,l2,l3,g1,g2,Freq,S11_re,S21_re,S11_img,S21_img,S11_dB,S21_dB
11.185,2.0,1.0,1.0,34.4,34.5,34.5,2.3,3.2,2.5,0.71318606520732,-0.0154898392761794,0.688378087557475,0.00796687189579721,-0.07668,-35.179756
11.185,2.0,1.0,1.0,34.4,34.5,34.5,2.3,3.2,2.5025,0.7075303025167932,-0.015792330789648736,0.6940377491784564,0.007949980249734114,-0.077614,-35.050112
11.185,2.0,1.0,1.0,34.4,34.5,34.5,2.3,3.2,2.505,0.7017964317410897,-0.016100646881208172,0.6996811403588763,0.007930074773250527,-0.078567,-34.919865
11.185,2.0,1.0,1.0,34.4,34.5,34.5,2.3,3.2,2.5075,0.6959835836923975,-0.016414918011673083,0.7053075186378679,0.007907029677254696,-0.07954,-34.789003
11.185,2.0,1.0,1.0,34.4,34.5,34.5,2.3,3.2,2.51,0.6900908765886739,-0.016735278170050383,0.7109161185155596,0.007880713898243479,-0.080534,-34.657515
11.185,2.0,1.0,1.0,34.4,34.5,34.5,2.3,3.2,2.5125,0.6841174159148967,-0.01706186498390109,0.7165061506828468,0.007850990850774368,-0.08155,-34.525388
11.185,2.0,1.0,1.0,34.4,34.5,34.5,2.3,3.2,2.515,0.6780622942857292,-0.017394819833526476,0.7220768012227168,0.007817718166723024,-0.082587,-34.392609
11.185,2.0,1.0,1.0,34.4,34.5,34.5,2.3,3.2,2.5175,0.6719245913098477,-0.0177342879701137,0.7276272307818948,0.007780747420521534,-0.083646,-34.259166
11.185,2.0,1.0,1.0,34.4,34.5,34.5,2.3,3.2,2.52,0.6657033734561327,-0.018080418637979146,0.7331565737114942,0.0077399238395169856,-0.084729,-34.125046
11.185,2.0,1.0,1.0,34.4,34.5,34.5,2.3,3.2,2.5225,0.6593976939220164,-0.018433365201051606,0.7386639371752909,0.007695085998530257,-0.085835,-33.990235
11.185,2.0,1.0,1.0,34.4,34.5,34.5,2.3,3.2,2.525,0.653006592504224,-0.018793285273742064,0.7441484002241656,0.007646065497629739,-0.086966,-33.85472
11.185,2.0,1.0,1.0,34.4,34.5,34.5,2.3,3.2,2.5275,0.6465290954722045,-0.019160340856348407,0.7496090128351816,0.007592686622065608,-0.088122,-33.718487
11.185,2.0,1.0,1.0,34.4,34.5,34.5,2.3,3.2,2.53,0.639964215444568,-0.019534698475144906,0.755044794913653,0.007534765983234661,-0.089305,-33.581521
11.185,2.0,1.0,1.0,34.4,34.5,34.5,2.3,3.2,2.5325,0.6333109512688402,-0.019916529327313193,0.7604547352564974,0.00747211213946417,-0.090514,-33.443808
11.185,2.0,1.0,1.0,34.4,34.5,34.5,2.3,3.2,2.535,0.6265682879048908,-0.020306009430869333,0.765837790475045,0.007404525195315757,-0.09175,-33.305334
11.185,2.0,1.0,1.0,34.4,34.5,34.5,2.3,3.2,2.5375,0.6197351963124094,-0.02070331977974352,0.7711928838753652,0.007331796378014852,-0.093015,-33.166083
11.185,2.0,1.0,1.0,34.4,34.5,34.5,2.3,3.2,2.54,0.6128106333428238,-0.021108646504171897,0.776518904294076,0.007253707589508596,-0.09431,-33.026039
11.185,2.0,1.0,1.0,34.4,34.5,34.5,2.3,3.2,2.5425,0.6057935416360817,-0.021522181036558292,0.7818147048874509,0.007170030932543253,-0.095634,-32.885187
11.185,2.0,1.0,1.0,34.4,34.5,34.5,2.3,3.2,2.545,0.5986828495227562,-0.021944120282962703,0.787079101871524,0.007080528209031854,-0.09699,-32.743511
11.185,2.0,1.0,1.0,34.4,34.5,34.5,2.3,3.2,2.5475,0.5914774709319659,-0.022374666800371965,0.7923108732107245,0.00698495038885145,-0.098379,-32.600993
11.185,2.0,1.0,1.0,34.4,34.5,34.5,2.3,3.2,2.55,0.584176305305608,-0.022814028979904134,0.7975087572524542,0.006883037047067302,-0.0998,-32.457617
11.185,2.0,1.0,1.0,34.4,34.5,34.5,2.3,3.2,2.5525,0.5767782375195012,-0.023262421236093418,0.8026714513047963,0.006774515767427132,-0.101256,-32.313365
11.185,2.0,1.0,1.0,34.4,34.5,34.5,2.3,3.2,2.555,0.5692821378120002,-0.023720064202395575,0.8077976101544193,0.006659101509800618,-0.102748,-32.16822
11.185,2.0,1.0,1.0,34.4,34.5,34.5,2.3,3.2,2.5575,0.5616868617207436,-0.024187184933044892,0.8128858445214963,0.006536495939057021,-0.104276,-32.022163
11.185,2.0,1.0,1.0,34.4,34.5,34.5,2.3,3.2,2.56,0.5539912500282292,-0.02466401711138224,0.8179347194482762,0.006406386712675507,-0.105842,-31.875175
11.185,2.0,1.0,1.0,34.4,34.5,34.5,2.3,3.2,2.5625,0.5461941287169574,-0.02515080126475975,0.8229427526176828,0.00626844672416642,-0.107448,-31.727237
11.185,2.0,1.0,1.0,34.4,34.5,34.5,2.3,3.2,2.565,0.5382943089349354,-0.02564778498610889,0.8279084125981007,0.0061223332991463385,-0.109094,-31.578329
11.185,2.0,1.0,1.0,34.4,34.5,34.5,2.3,3.2,2.5675,0.5302905869724347,-0.026155223162238558,0.8328301170101898,0.005967687340653275,-0.110782,-31.428431
11.185,2.0,1.0,1.0,34.4,34.5,34.5,2.3,3.2,2.57,0.5221817442509147,-0.026673378208901723,0.8377062306113203,0.005804132420007345,-0.112514,-31.277522
11.185,2.0,1.0,1.0,34.4,34.5,34.5,2.3,3.2,2.5725,0.5139665473251357,-0.02720252031263983,0.8425350632928515,0.005631273809216967,-0.11429,-31.125581
11.185,2.0,1.0,1.0,34.4,34.5,34.5,2.3,3.2,2.575,0.5056437478995591,-0.02774292767937236,0.8473148679851571,0.005448697450595746,-0.116114,-30.972585
11.185,2.0,1.0,1.0,34.4,34.5,34.5,2.3,3.2,2.5775,0.4972120828602347,-0.0282948867896596,0.8520438384649032,0.005255968858888951,-0.117985,-30.818512
11.185,2.0,1.0,1.0,34.4,34.5,34.5,2.3,3.2,2.58,0.48867027432346805,-0.02885869266050634,0.856720107058652,0.005052631950808677,-0.119907,-30.66334
11.185,2.0,1.0,1.0,34.4,34.5,34.5,2.3,3.2,2.5825,0.4800170297026846,-0.02943464911351779,0.86134174223644,0.0048382077964369925,-0.121881,-30.507043
11.185,2.0,1.0,1.0,34.4,34.5,34.5,2.3,3.2,2.585,0.4712510417950405,-0.030023069049140046,0.8659067460884362,0.004612193286475647,-0.123909,-30.349597
11.185,2.0,1.0,1.0,34.4,34.5,34.5,2.3,3.2,2.5875,0.46237098888946615,-0.030624274726631377,0.8704130516772751,0.0043740597087928825,-0.125993,-30.190978
11.185,2.0,1.0,1.0,34.4,34.5,34.5,2.3,3.2,2.59,0.4533755348980054,-0.031238598049309795,0.8748585202580267,0.004123251227137555,-0.128135,-30.031158
11.185,2.0,1.0,1.0,34.4,34.5,34.5,2.3,3.2,2.5925,0.4442633295124778,-0.031866380854500054,0.8792409383571264,0.003859183254253453,-0.130338,-29.870112
11.185,2.0,1.0,1.0,34.4,34.5,34.5,2.3,3.2,2.595,0.43503300838872494,-0.032507975207464665,0.8835580147008533,0.003581240710925657,-0.132603,-29.707811
11.185,2.0,1.0,1.0,34.4,34.5,34.5,2.3,3.2,2.5975,0.4256831933608931,-0.03316374369843929,0.8878073769831516,0.003288776161717761,-0.134933,-29.544228
11.185,2.0,1.0,1.0,34.4,34.5,34.5,2.3,3.2,2.6,0.4162124926885076,-0.03383405974170375,0.8919865684617192,0.002981107817308397,-0.137332,-29.379332
11.185,2.0,1.0,1.0,34.4,34.5,34.5,2.3,3.2,2.6025,0.40661950133936975,-0.034519307875392875,0.896093044370303,0.0026575173923970652,-0.139801,-29.213094
11.185,2.0,1.0,1.0,34.4,34.5,34.5,2.3,3.2,2.605,0.39690280131163647,-0.03521988406050051,0.9001241681341076,0.0023172478071115748,-0.142344,-29.045482
11.185,2.0,1.0,1.0,34.4,34.5,34.5,2.3,3.2,2.6075,0.38706096199884366,-0.0359361959772182,0.9040772073740213,0.001959500718706282,-0.144964,-28.876465
11.185,2.0,1.0,1.0,34.4,34.5,34.5,2.3,3.2,2.61,0.3770925406020612,-0.036668663316407606,0.9079493296840742,0.0015834338690723668,-0.147663,-28.706008
11.185,2.0,1.0,1.0,34.4,34.5,34.5,2.3,3.2,2.6125,0.36699608259384736,-0.03741771806359314,0.911737598165124,0.001188158232179648,-0.150446,-28.534077
11.185,2.0,1.0,1.0,34.4,34.5,34.5,2.3,3.2,2.615,0.35677012223925886,-0.03818380477238409,0.9154389666961551,0.0007727349440167186,-0.153317,-28.360638
11.185,2.0,1.0,1.0,34.4,34.5,34.5,2.3,3.2,2.6175,0.3464131831798096,-0.038967380823685324,0.9190502749228192,0.00033617199587262787,-0.156278,-28.185652
11.185,2.0,1.0,1.0,34.4,34.5,34.5,2.3,3.2,2.62,0.3359237790870155,-0.03976891666640758,0.9225682429409141,-0.00012257933010904567,-0.159334,-28.009084
11.185,2.0,1.0,1.0,34.4,34.5,34.5,2.3,3.2,2.6225,0.3253004143929986,-0.040588896034639374,0.9259894656503019,-0.0006046283062982738,-0.162489,-27.830892
11.185,2.0,1.0,1.0,34.4,34.5,34.5,2.3,3.2,2.625,0.314541585106651,-0.0414278161353646,0.929310406752367,-0.00111114891142602,-0.165748,-27.651036
11.185,2.0,1.0,1.0,34.4,34.5,34.5,2.3,3.2,2.6275,0.3036457797249196,-0.04228618779979428,0.9325273923614414,-0.0016433843171020646,-0.169116,-27.469475
11.185,2.0,1.0,1.0,34.4,34.5,34.5,2.3,3.2,2.63,0.2926114802501394,-0.04316453559018513,0.9356366041976232,-0.002202651740124279,-0.172597,-27.286164
11.185,2.0,1.0,1.0,34.4,34.5,34.5,2.3,3.2,2.6325,0.2814371633258137,-0.044063397852633295,0.9386340723250889,-0.002790347694973463,-0.176198,-27.101059
11.185,2.0,1.0,1.0,34.4,34.5,34.5,2.3,3.2,2.635,0.27012130150499825,-0.044983326704707484,0.9415156673962737,-0.0034079536845395006,-0.179925,-26.914113
11.185,2.0,1.0,1.0,34.4,34.5,34.5,2.3,3.2,2.6375,0.2586623646674827,-0.04592488794488854,0.9442770923581478,-0.0040570423712065345,-0.183782,-26.725277
11.185,2.0,1.0,1.0,34.4,34.5,34.5,2.3,3.2,2.64,0.24705882160427195,-0.04688866086856795,0.9469138735721662,-0.0047392842749932555,-0.187778,-26.5345
11.185,2.0,1.0,1.0,34.4,34.5,34.5,2.3,3.2,2.6425,0.2353091417906723,-0.04787523797275578,0.9494213512942538,-0.005456455050555998,-0.191919,-26.341731
11.185,2.0,1.0,1.0,34.4,34.5,34.5,2.3,3.2,2.645,0.22341179737242134,-0.04888522452860748,0.9517946694553714,-0.006210443400596471,-0.196212,-26.146914
11.185,2.0,1.0,1.0,34.4,34.5,34.5,2.3,3.2,2.6475,0.21136526539306422,-0.04991923799730475,0.954028764676654,-0.007003259689645501,-0.200666,-25.949994
11.185,2.0,1.0,1.0,34.4,34.5,34.5,2.3,3.2,2.65,0.19916803029509925,-0.050977907260632456,0.9561183544457711,-0.007837045329418466,-0.205289,-25.750912
11.185,2.0,1.0,1.0,34.4,34.5,34.5,2.3,3.2,2.6525,0.18681858673257823,-0.05206187163265392,0.9580579243728996,-0.00871408301505141,-0.210091,-25.549606
11.185,2.0,1.0,1.0,34.4,34.5,34.5,2.3,3.2,2.655,0.17431544273876,-0.053171779613083274,0.9598417144354098,-0.009636807900664873,-0.215081,-25.346014
11.185,2.0,1.0,1.0,34.4,34.5,34.5,2.3,3.2,2.6575,0.16165712329951426,-0.05430828733609741,0.9614637041099137,-0.010607819812980021,-0.220271,-25.140067
11.185,2.0,1.0,1.0,34.4,34.5,34.5,2.3,3.2,2.66,0.14884217439143027,-0.05547205666024745,0.9629175962785305,-0.011629896613303171,-0.225671,-24.931699
11.185,2.0,1.0,1.0,34.4,34.5,34.5,2.3,3.2,2.6625,0.13586916755336897,-0.056663752835561326,0.9641967997829342,-0.012706008831258874,-0.231294,-24.720836
11.185,2.0,1.0,1.0,34.4,34.5,34.5,2.3,3.2,2.665,0.12273670507172191,-0.057884041672619124,0.9652944104847666,-0.013839335708405393,-0.237153,-24.507405
11.185,2.0,1.0,1.0,34.4,34.5,34.5,2.3,3.2,2.6675,0.10944342587334142,-0.05913358612494604,0.9662031906740303,-0.015033282806514687,-0.243263,-24.291326
11.185,2.0,1.0,1.0,34.4,34.5,34.5,2.3,3.2,2.67,0.09598801223625836,-0.060413042180133096,0.966915546647972,-0.016291501354124233,-0.249639,-24.072517
11.185,2.0,1.0,1.0,34.4,34.5,34.5,2.3,3.2,2.6725,0.08236919744758614,-0.061723053936126385,0.9674235042613039,-0.01761790952623891,-0.256298,-23.850895
11.185,2.0,1.0,1.0,34.4,34.5,34.5,2.3,3.2,2.675,0.06858577456089358,-0.06306424771651747,0.9677186822241552,-0.019016715876117175,-0.263257,-23.626369
11.185,2.0,1.0,1.0,34.4,34.5,34.5,2.3,3.2,2.6775,0.05463660643263933,-0.06443722505169432,0.9677922628964855,-0.02049244516528806,-0.270537,-23.398846
11.185,2.0,1.0,1.0,34.4,34.5,34.5,2.3,3.2,2.68,0.0405206372498711,-0.06584255432043704,0.9676349602963581,-0.022049966868717654,-0.27816,-23.16823
11.185,2.0,1.0,1.0,34.4,34.5,34.5,2.3,3.2,2.6825,0.026236905800473408,-0.06728076080788539,0.9672369850041163,-0.02369452666684191,-0.286148,-22.934417
11.185,2.0,1.0,1.0,34.4,34.5,34.5,2.3,3.2,2.685,0.011784560784042488,-0.06875231488939944,0.966588005604456,-0.025431781275517693,-0.294526,-22.697301
11.185,2.0,1.0,1.0,34.4,34.5,34.5,2.3,3.2,2.6875,-0.00283712148220558,-0.0702576179940094,0.965677106263235,-0.0272678370093535,-0.303324,-22.456771
11.185,2.0,1.0,1.0,34.4,34.5,34.5,2.3,3.2,2.69,-0.017628716540265255,-0.07179698593388632,0.9644927399848565,-0.029209292523979323,-0.31257,-22.212708
11.185,2.0,1.0,1.0,34.4,34.5,34.5,2.3,3.2,2.6925,-0.03259062794690815,-0.07337062910502908,0.9630226770386833,-0.03126328623922047,-0.322299,-21.96499
11.185,2.0,1.0,1.0,34.4,34.5,34.5,2.3,3.2,2.695,-0.047723059504875195,-0.0749786289660426,0.9612539479784245,-0.03343754900847924,-0.332546,-21.713488
11.185,2.0,1.0,1.0,34.4,34.5,34.5,2.3,3.2,2.6975,-0.06302598284669378,-0.07662091008267233,0.9591727806062347,-0.035740462670563126,-0.343352,-21.458067
11.185,2.0,1.0,1.0,34.4,34.5,34.5,2.3,3.2,2.7,-0.0784990995022035,-0.07829720688084504,0.9567645301527128,-0.03818112519923554,-0.354762,-21.198583
11.185,2.0,1.0,1.0,34.4,34.5,34.5,2.3,3.2,2.7025,-0.09414179640342094,-0.08000702407449557,0.9540136018546689,-0.0407694232533879,-0.366823,-20.934888
11.185,2.0,1.0,1.0,34.4,34.5,34.5,2.3,3.2,2.705,-0.10995309356363876,-0.08174958951901863,0.9509033650142567,-0.04351611302706265,-0.37959,-20.666824
11.185,2.0,1.0,1.0,34.4,34.5,34.5,2.3,3.2,2.7075,-0.1259315824027304,-0.0835237979776473,0.9474160575159797,-0.04643291040340848,-0.393124,-20.394227
11.185,2.0,1.0,1.0,34.4,34.5,34.5,2.3,3.2,2.71,-0.14207535286572204,-0.08532814396493682,0.9435326796630913,-0.049532591529101805,-0.40749,-20.116922
11.185,2.0,1.0,1.0,34.4,34.5,34.5,2.3,3.2,2.7125,-0.1583819070827062,-0.08716064143454251,0.9392328760737504,-0.05282910504398309,-0.422763,-19.834726
11.185,2.0,1.0,1.0,34.4,34.5,34.5,2.3,3.2,2.715,-0.174848056826813,-0.08901872758963605,0.9344948042534276,-0.05633769732120275,-0.439025,-19.547447
11.185,2.0,1.0,1.0,34.4,34.5,34.5,2.3,3.2,2.7175,-0.1914698014208755,-0.09089914749119035,0.9292949883389091,-0.06007505219048004,-0.456369,-19.254883
11.185,2.0,1.0,1.0,34.4,34.5,34.5,2.3,3.2,2.72,-0.20824218199414746,-0.09279781539375034,0.9236081563997484,-0.06405944672220024,-0.4749,-18.95682
11.185,2.0,1.0,1.0,34.4,34.5,34.5,2.3,3.2,2.7225,-0.22515910706260991,-0.09470964781490342,0.9174070595987265,-0.06831092472935196,-0.494734,-18.653035
11.185,2.0,1.0,1.0,34.4,34.5,34.5,2.3,3.2,2.725,-0.24221314325530877,-0.0966283621991614,0.9106622714745248,-0.0728514896769984,-0.516002,-18.34329
11.185,2.0,1.0,1.0,34.4,34.5,34.5,2.3,3.2,2.7275,-0.2593952635795447,-0.0985462336140592,0.9033419656478843,-0.07770531864440934,-0.538856,-18.027339
11.185,2.0,1.0,1.0,34.4,34.5,34.5,2.3,3.2,2.73,-0.2766945438396839,-0.10045380014685049,0.8954116704124966,-0.08289899881771902,-0.563463,-17.70492
11.185,2.0,1.0,1.0,34.4,34.5,34.5,2.3,3.2,2.7325,-0.29409779561220495,-0.10233950546860643,0.8868339990198241,-0.08846178763485432,-0.590016,-17.375759
11.185,2.0,1.0,1.0,34.4,34.5,34.5,2.3,3.2,2.735,-0.3115891214266187,-0.10418926429307804,0.87756835509947,-0.09442589706297391,-0.618737,-17.03957
11.185,2.0,1.0,1.0,34.4,34.5,34.5,2.3,3.2,2.7375,-0.3291493743787866,-0.10598593305152247,0.867570613713324,-0.10082680142218772,-0.649877,-16.696053
11.185,2.0,1.0,1.0,34.4,34.5,34.5,2.3,3.2,2.74,-0.3467555001536784,-0.10770866387687758,0.8567927802244223,-0.10770356647611933,-0.683727,-16.344893
11.185,2.0,1.0,1.0,34.4,34.5,34.5,2.3,3.2,2.7425,-0.36437973417578706,-0.10933211475938331,0.8451826317610539,-0.11509919489956598,-0.720621,-15.985764
11.185,2.0,1.0,1.0,34.4,34.5,34.5,2.3,3.2,2.745,-0.38198862012947593,-0.11082548229505175,0.832683349991085,-0.12306097928886628,-0.760947,-15.618329
11.185,2.0,1.0,1.0,34.4,34.5,34.5,2.3,3.2,2.7475,-0.39954180817718044,-0.11215131557910865,0.8192331597894725,-0.13164084800413886,-0.805157,-15.242238
11.185,2.0,1.0,1.0,34.4,34.5,34.5,2.3,3.2,2.75,-0.416990581640527,-0.113264060291418,0.804764997038647,-0.140895680471225,-0.853777,-14.857134
11.185,2.0,1.0,1.0,34.4,34.5,34.5,2.3,3.2,2.7525,-0.43427604955102517,-0.11410827073631134,0.7892062414626247,-0.1508875559124769,-0.907424,-14.462656
11.185,2.0,1.0,1.0,34.4,34.5,34.5,2.3,3.2,2.755,-0.451326929336121,-0.11461641455240162,0.7724785687798307,-0.16168388110628124,-0.966825,-14.05844
11.185,2.0,1.0,1.0,34.4,34.5,34.5,2.3,3.2,2.7575,-0.4680568293325387,-0.11470618035302178,0.754498002974727,-0.17335731629545695,-1.03284,-13.644131
11.185,2.0,1.0,1.0,34.4,34.5,34.5,2.3,3.2,2.76,-0.48436092580569007,-0.11427718369352166,0.7351752874683254,-0.18598538045301524,-1.106489,-13.219386
11.185,2.0,1.0,1.0,34.4,34.5,34.5,2.3,3.2,2.7625,-0.5001119158656961,-0.11320695365586321,0.7144167479445507,-0.1996495632571365,-1.188989,-12.783892
11.185,2.0,1.0,1.0,34.4,34.5,34.5,2.3,3.2,2.765,-0.5151551203174898,-0.11134607520520234,0.6921258955579428,-0.21443369535889795,-1.281802,-12.337377
11.185,2.0,1.0,1.0,34.4,34.5,34.5,2.3,3.2,2.7675,-0.5293026167462639,-0.1085123689829458,0.6682061247976514,-0.23042122329815454,-1.386683,-11.879636
11.185,2.0,1.0,1.0,34.4,34.5,34.5,2.3,3.2,2.77,-0.5423263164210961,-0.10448402373615241,0.6425650043215302,-0.24769089188476234,-1.505759,-11.410558
11.185,2.0,1.0,1.0,34.4,34.5,34.5,2.3,3.2,2.7725,-0.5539499814269659,-0.09899167962303639,0.615120850574165,-0.2663101461216359,-1.641609,-10.930164
11.185,2.0,1.0,1.0,34.4,34.5,34.5,2.3,3.2,2.775,-0.5638403473255134,-0.09170962959511142,0.5858125186562622,-0.28632532121176035,-1.797379,-10.438659
11.185,2.0,1.0,1.0,34.4,34.5,34.5,2.3,3.2,2.7775,-0.5715978283523625,-0.08224661750442158,0.5546136376992565,-0.307747397997678,-1.976913,-9.936496
11.185,2.0,1.0,1.0,34.4,34.5,34.5,2.3,3.2,2.78,-0.5767478200903723,-0.07013724859569656,0.5215528283106377,-0.3305317930316469,-2.184921,-9.424461
11.185,2.0,1.0,1.0,34.4,34.5,34.5,2.3,3.2,2.7825,-0.5787344912421988,-0.05483590260367138,0.48674168403412593,-0.354550410820775,-2.427171,-8.903777
11.185,2.0,1.0,1.0,34.4,34.5,34.5,2.3,3.2,2.785,-0.5769203014258601,-0.03571638082678172,0.4504122955609308,-0.3795541920142919,-2.710716,-8.376237
11.185,2.0,1.0,1.0,34.4,34.5,34.5,2.3,3.2,2.7875,-0.5705963952350296,-0.012082424590647619,0.4129655002032963,-0.40512498997136054,-3.044126,-7.844358
11.185,2.0,1.0,1.0,34.4,34.5,34.5,2.3,3.2,2.79,-0.5590114505753178,0.01680334127752708,0.37502926872958897,-0.4306173784865608,-3.437669,-7.311561
11.185,2.0,1.0,1.0,34.4,34.5,34.5,2.3,3.2,2.7925,-0.5414290448496714,0.051662017104358075,0.3375228592987106,-0.4550947695377416,-3.90334,-6.782355
11.185,2.0,1.0,1.0,34.4,34.5,34.5,2.3,3.2,2.795,-0.5172248762762516,0.09310131176882662,0.30171565612427276,-0.47727091376088276,-4.454455,-6.262508
11.185,2.0,1.0,1.0,34.4,34.5,34.5,2.3,3.2,2.7975,-0.48603268902974917,0.14146992685970908,0.2692596149989379,-0.49547781465646734,-5.104233,-5.759158
11.185,2.0,1.0,1.0,34.4,34.5,34.5,2.3,3.2,2.8,-0.4479376089712297,0.19666480398815211,0.24216258670956023,-0.507692678752118,-5.862129,-5.280795
11.185,2.0,1.0,1.0,34.4,34.5,34.5,2.3,3.2,2.8025,-0.40369398244792953,0.2579141610325011,0.22266216782097265,-0.5116640721672479,-6.725445,-4.837029
11.185,2.0,1.0,1.0,34.4,34.5,34.5,2.3,3.2,2.805,-0.35491219584249994,0.32359173822689624,0.21296707797324582,-0.5051700531658866,-7.661979,-4.43808
11.185,2.0,1.0,1.0,34.4,34.5,34.5,2.3,3.2,2.8075,-0.30412676107810593,0.3911496861432592,0.21486812993065,-0.48640602029841784,-8.580444,-4.093934
11.185,2.0,1.0,1.0,34.4,34.5,34.5,2.3,3.2,2.81,-0.2546519746016584,0.45726333786319945,0.22928621862795184,-0.45443484771522036,-9.302587,-3.813236
11.185,2.0,1.0,1.0,34.4,34.5,34.5,2.3,3.2,2.8125,-0.210180716708981,0.518231840770723,0.255896346966329,-0.409560624284329,-9.599562,-3.602107
11.185,2.0,1.0,1.0,34.4,34.5,34.5,2.3,3.2,2.815,-0.17418851429897145,0.5705723437271437,0.2929923862767203,-0.3534619541815231,-9.348455,-3.463166
11.185,2.0,1.0,1.0,34.4,34.5,34.5,2.3,3.2,2.8175,-0.14931803506546046,0.6116328931265332,0.3376915973890851,-0.2889864966559839,-8.654038,-3.395064
11.185,2.0,1.0,1.0,34.4,34.5,34.5,2.3,3.2,2.82,-0.13695672814259766,0.6400120801509772,0.3864362243746217,-0.21964977544038572,-7.744579,-3.392659
11.185,2.0,1.0,1.0,34.4,34.5,34.5,2.3,3.2,2.8225,-0.1371412470017724,0.6556526079416175,0.43561739585470977,-0.14901277280116818,-6.807477,-3.447798
11.185,2.0,1.0,1.0,34.4,34.5,34.5,2.3,3.2,2.825,-0.1487751802527165,0.6596226719912086,0.48211206082915065,-0.0801468925010796,-5.941994,-3.550441
11.185,2.0,1.0,1.0,34.4,34.5,34.5,2.3,3.2,2.8275,-0.17002923378233983,0.6537158937685228,0.5235976387923558,-0.01532089129110182,-5.18465,-3.689834
11.185,2.0,1.0,1.0,34.4,34.5,34.5,2.3,3.2,2.83,-0.19876524088750194,0.6400279645119984,0.5586253028106039,0.044071559262785304,-4.539884,-3.855477
