1,w,sub_t,h,l1,l2,l3,g1,g2,Freq,S11_re,S21_re,S11_img,S21_img,S11_dB,S21_dB
11.185,2.0,1.0,1.0,34.8,34.1,34.1,3.2,3.5,2.5,0.644500766174032,-0.012707452663789,0.753041268014563,0.00395470130051183,-0.076885,-37.517348
11.185,2.0,1.0,1.0,34.8,34.1,34.1,3.2,3.5,2.5025,0.6379646309323583,-0.012917684344921741,0.7584600438632688,0.0038889351946538083,-0.077733,-37.399516
11.185,2.0,1.0,1.0,34.8,34.1,34.1,3.2,3.5,2.505,0.6313453449336638,-0.013130898685152109,0.7638509780864648,0.003819932601481841,-0.078597,-37.281296
11.185,2.0,1.0,1.0,34.8,34.1,34.1,3.2,3.5,2.5075,0.6246421536776766,-0.013347132188677807,0.7692130722105561,0.003747591921351505,-0.079475,-37.162683
11.185,2.0,1.0,1.0,34.8,34.1,34.1,3.2,3.5,2.51,0.6178542985243968,-0.013566421447920593,0.7745453009985875,0.0036718083182242394,-0.08037,-37.04367
11.185,2.0,1.0,1.0,34.8,34.1,34.1,3.2,3.5,2.5125,0.6109810169413067,-0.013788803117097986,0.7798466117473022,0.003592473608209101,-0.08128,-36.924249
11.185,2.0,1.0,1.0,34.8,34.1,34.1,3.2,3.5,2.515,0.6040215427677978,-0.014014313883830435,0.785115923567435,0.0035094761438815313,-0.082208,-36.804413
11.185,2.0,1.0,1.0,34.8,34.1,34.1,3.2,3.5,2.5175,0.5969751064976536,-0.01424299043866711,0.7903521266469198,0.0034227006941983354,-0.083152,-36.684155
11.185,2.0,1.0,1.0,34.8,34.1,34.1,3.2,3.5,2.52,0.5898409355804203,-0.014474869442406842,0.7955540814967391,0.003332028319818228,-0.084113,-36.563467
11.185,2.0,1.0,1.0,34.8,34.1,34.1,3.2,3.5,2.5225,0.5826182547425864,-0.014709987491081943,0.8007206181790939,0.003237336243628187,-0.085092,-36.442343
11.185,2.0,1.0,1.0,34.8,34.1,34.1,3.2,3.5,2.525,0.5753062863294719,-0.014948381078467755,0.8058505355176225,0.0031384977162650443,-0.086089,-36.320773
11.185,2.0,1.0,1.0,34.8,34.1,34.1,3.2,3.5,2.5275,0.567904250668799,-0.01519008655596913,0.8109426002893733,0.003035381876411026,-0.087105,-36.198751
11.185,2.0,1.0,1.0,34.8,34.1,34.1,3.2,3.5,2.53,0.5604113664569591,-0.015435140089729231,0.8159955463982371,0.00292785360563021,-0.08814,-36.076269
11.185,2.0,1.0,1.0,34.8,34.1,34.1,3.2,3.5,2.5325,0.5528268511690084,-0.015683577614794417,0.8210080740295658,0.002815773377500429,-0.089194,-35.953318
11.185,2.0,1.0,1.0,34.8,34.1,34.1,3.2,3.5,2.535,0.5451499214934789,-0.015935434786160656,0.8259788487856986,0.0026989971007818814,-0.090268,-35.829891
11.185,2.0,1.0,1.0,34.8,34.1,34.1,3.2,3.5,2.5375,0.5373797937931483,-0.016190746926515225,0.8309065008021148,0.0025773759563495037,-0.091363,-35.70598
11.185,2.0,1.0,1.0,34.8,34.1,34.1,3.2,3.5,2.54,0.5295156845929279,-0.016449548970476593,0.8357896238439567,0.002450756227601604,-0.092478,-35.581575
11.185,2.0,1.0,1.0,34.8,34.1,34.1,3.2,3.5,2.5425,0.5215568110960974,-0.016711875405123543,0.8406267743826613,0.002318979124040081,-0.093616,-35.456668
11.185,2.0,1.0,1.0,34.8,34.1,34.1,3.2,3.5,2.545,0.5135023917301531,-0.01697776020659045,0.8454164706524386,0.0021818805977017472,-0.094775,-35.331251
11.185,2.0,1.0,1.0,34.8,34.1,34.1,3.2,3.5,2.5475,0.5053516467236001,-0.017247236772493423,0.8501571916863607,0.002039291152100815,-0.095956,-35.205314
11.185,2.0,1.0,1.0,34.8,34.1,34.1,3.2,3.5,2.55,0.4971037987150343,-0.01752033784993619,0.8548473763318251,0.0018910356433234563,-0.097161,-35.078849
11.185,2.0,1.0,1.0,34.8,34.1,34.1,3.2,3.5,2.5525,0.48875807339597227,-0.017797095458828602,0.8594854222451545,0.0017369330728945137,-0.09839,-34.951846
11.185,2.0,1.0,1.0,34.8,34.1,34.1,3.2,3.5,2.555,0.480313700188878,-0.01807754081023434,0.8640696848651276,0.0015767963720131107,-0.099642,-34.824297
11.185,2.0,1.0,1.0,34.8,34.1,34.1,3.2,3.5,2.5575,0.4717699129619331,-0.018361704219445982,0.8685984763652307,0.0014104321767306437,-0.10092,-34.696191
11.185,2.0,1.0,1.0,34.8,34.1,34.1,3.2,3.5,2.56,0.4631259507821508,-0.018649615013465425,0.8730700645844264,0.0012376405936180559,-0.102224,-34.567518
11.185,2.0,1.0,1.0,34.8,34.1,34.1,3.2,3.5,2.5625,0.45438105870848094,-0.018941301432547453,0.8774826719362678,0.0010582149554419294,-0.103553,-34.438269
11.185,2.0,1.0,1.0,34.8,34.1,34.1,3.2,3.5,2.565,0.44553448862661876,-0.019236790525440965,0.8818344742961801,0.0008719415663384711,-0.10491,-34.308434
11.185,2.0,1.0,1.0,34.8,34.1,34.1,3.2,3.5,2.5675,0.4365855001273178,-0.019536108037938402,0.8861235998667476,0.0006785994359427535,-0.106294,-34.178002
11.185,2.0,1.0,1.0,34.8,34.1,34.1,3.2,3.5,2.57,0.42753336143003584,-0.019839278294317718,0.8903481280208674,0.0004779600018956368,-0.107707,-34.046963
11.185,2.0,1.0,1.0,34.8,34.1,34.1,3.2,3.5,2.5725,0.4183773503538418,-0.020146324071232666,0.8945060881226368,0.0002697868401133593,-0.109149,-33.915305
11.185,2.0,1.0,1.0,34.8,34.1,34.1,3.2,3.5,2.575,0.4091167553375718,-0.020457266463576717,0.8985954583258555,5.383536216489932e-05,-0.110621,-33.783018
11.185,2.0,1.0,1.0,34.8,34.1,34.1,3.2,3.5,2.5775,0.3997508765112971,-0.020772124741813197,0.9026141643500383,-0.00017014750094146818,-0.112123,-33.65009
11.185,2.0,1.0,1.0,34.8,34.1,34.1,3.2,3.5,2.58,0.3902790268212503,-0.02109091620022801,0.906560078233852,-0.0004024236293078502,-0.113657,-33.51651
11.185,2.0,1.0,1.0,34.8,34.1,34.1,3.2,3.5,2.5825,0.3807005332104143,-0.021413655995523008,0.9104310170658974,-0.0006432640598289275,-0.115224,-33.382266
11.185,2.0,1.0,1.0,34.8,34.1,34.1,3.2,3.5,2.585,0.37101473785709577,-0.021740356975126447,0.9142247416927786,-0.0008929493478570384,-0.116824,-33.247346
11.185,2.0,1.0,1.0,34.8,34.1,34.1,3.2,3.5,2.5875,0.3612209994738455,-0.022071029494550136,0.9179389554044105,-0.0011517699457608878,-0.118459,-33.111737
11.185,2.0,1.0,1.0,34.8,34.1,34.1,3.2,3.5,2.59,0.35131869466922666,-0.02240568122307549,0.921571302596521,-0.001420026599351741,-0.120128,-32.975427
11.185,2.0,1.0,1.0,34.8,34.1,34.1,3.2,3.5,2.5925,0.34130721937497,-0.022744316936994916,0.9251193674103362,-0.0016980307632212847,-0.121834,-32.838403
11.185,2.0,1.0,1.0,34.8,34.1,34.1,3.2,3.5,2.595,0.3311859903412102,-0.023086938299577597,0.9285806723494109,-0.0019861050361100513,-0.123578,-32.700651
11.185,2.0,1.0,1.0,34.8,34.1,34.1,3.2,3.5,2.5975,0.320954446702531,-0.023433543626864017,0.9319526768736183,-0.0022845836175083133,-0.125359,-32.562157
11.185,2.0,1.0,1.0,34.8,34.1,34.1,3.2,3.5,2.6,0.3106120516177015,-0.023784127638325495,0.9352327759702763,-0.0025938127867790044,-0.127181,-32.422908
11.185,2.0,1.0,1.0,34.8,34.1,34.1,3.2,3.5,2.6025,0.3001582939860869,-0.024138681191345664,0.938418298702413,-0.0029141514061894356,-0.129043,-32.282889
11.185,2.0,1.0,1.0,34.8,34.1,34.1,3.2,3.5,2.605,0.28959269024379,-0.024497190998401072,0.9415065067341739,-0.0032459714493442275,-0.130947,-32.142086
11.185,2.0,1.0,1.0,34.8,34.1,34.1,3.2,3.5,2.6075,0.27891478624275856,-0.02485963932572384,0.9444945928333446,-0.0035896585566252705,-0.132894,-32.000482
11.185,2.0,1.0,1.0,34.8,34.1,34.1,3.2,3.5,2.61,0.2681241592161785,-0.025226003672130112,0.9473796793509739,-0.003945612619369596,-0.134886,-31.858063
11.185,2.0,1.0,1.0,34.8,34.1,34.1,3.2,3.5,2.6125,0.25722041983360894,-0.02559625642658828,0.9501588166780618,-0.004314248394652321,-0.136923,-31.714812
11.185,2.0,1.0,1.0,34.8,34.1,34.1,3.2,3.5,2.615,0.24620321434946704,-0.025970364502979227,0.9528289816792308,-0.004695996152689545,-0.139008,-31.570713
11.185,2.0,1.0,1.0,34.8,34.1,34.1,3.2,3.5,2.6175,0.23507222684861456,-0.026348288950366974,0.9553870761033024,-0.005091302359037152,-0.141141,-31.425748
11.185,2.0,1.0,1.0,34.8,34.1,34.1,3.2,3.5,2.62,0.22382718159295423,-0.026729984536952245,0.9578299249706088,-0.005500630393939627,-0.143325,-31.279901
11.185,2.0,1.0,1.0,34.8,34.1,34.1,3.2,3.5,2.6225,0.2124678454730998,-0.027115399305718484,0.9601542749368713,-0.005924461311374732,-0.145561,-31.133152
11.185,2.0,1.0,1.0,34.8,34.1,34.1,3.2,3.5,2.625,0.2009940305694,-0.0275044740995987,0.962356792633364,-0.00636329464055104,-0.14785,-30.985484
11.185,2.0,1.0,1.0,34.8,34.1,34.1,3.2,3.5,2.6275,0.18940559682674038,-0.0278971420537965,0.9644340629830176,-0.006817649232847838,-0.150195,-30.836877
11.185,2.0,1.0,1.0,34.8,34.1,34.1,3.2,3.5,2.63,0.1777024548477978,-0.028293328052670534,0.9663825874920271,-0.007288064157437963,-0.152597,-30.687312
11.185,2.0,1.0,1.0,34.8,34.1,34.1,3.2,3.5,2.6325,0.1658845688096334,-0.028692948148349332,0.9681987825163924,-0.007775099649113353,-0.155057,-30.536767
11.185,2.0,1.0,1.0,34.8,34.1,34.1,3.2,3.5,2.635,0.15395195950875157,-0.029095908937971454,0.9698789775026881,-0.00827933811213567,-0.157579,-30.385223
11.185,2.0,1.0,1.0,34.8,34.1,34.1,3.2,3.5,2.6375,0.14190470754004095,-0.029502106896142945,0.9714194132022076,-0.008801385184269294,-0.160164,-30.232656
11.185,2.0,1.0,1.0,34.8,34.1,34.1,3.2,3.5,2.64,0.12974295661527804,-0.029911427658869217,0.9728162398573924,-0.009341870865520789,-0.162814,-30.079044
11.185,2.0,1.0,1.0,34.8,34.1,34.1,3.2,3.5,2.6425,0.11746691702724864,-0.0303237452548402,0.9740655153592804,-0.00990145071651027,-0.165532,-29.924365
11.185,2.0,1.0,1.0,34.8,34.1,34.1,3.2,3.5,2.645,0.10507686926584216,-0.030738921279530713,0.9751632033744204,-0.010480807131844558,-0.16832,-29.768593
11.185,2.0,1.0,1.0,34.8,34.1,34.1,3.2,3.5,2.6475,0.09257316779294635,-0.031156804007106378,0.9761051714393812,-0.011080650694348555,-0.17118,-29.611704
11.185,2.0,1.0,1.0,34.8,34.1,34.1,3.2,3.5,2.65,0.07995624498332675,-0.03157722743460203,0.9768871890206683,-0.011701721616549211,-0.174115,-29.453672
11.185,2.0,1.0,1.0,34.8,34.1,34.1,3.2,3.5,2.6525,0.06722661523928894,-0.032000010252247864,0.9775049255374265,-0.012344791276394408,-0.177128,-29.29447
11.185,2.0,1.0,1.0,34.8,34.1,34.1,3.2,3.5,2.655,0.05438487928735996,-0.03242495473315812,0.9779539483438664,-0.013010663854845561,-0.180222,-29.13407
11.185,2.0,1.0,1.0,34.8,34.1,34.1,3.2,3.5,2.6575,0.04143172866593772,-0.03285184553485238,0.9782297206678132,-0.013700178083697936,-0.183399,-28.972444
11.185,2.0,1.0,1.0,34.8,34.1,34.1,3.2,3.5,2.66,0.02836795041353811,-0.03328044840424028,0.9783275995011664,-0.014414209112777951,-0.186664,-28.809561
11.185,2.0,1.0,1.0,34.8,34.1,34.1,3.2,3.5,2.6625,0.015194431968087767,-0.03371050877675603,0.9782428334373866,-0.01515367050654292,-0.190019,-28.645391
11.185,2.0,1.0,1.0,34.8,34.1,34.1,3.2,3.5,2.665,0.0019121662885663695,-0.03414175025926256,0.9779705604503364,-0.015919516381078924,-0.193468,-28.4799
11.185,2.0,1.0,1.0,34.8,34.1,34.1,3.2,3.5,2.6675,-0.011477742788563823,-0.03457387298513531,0.9775058056078971,-0.016712743693560832,-0.197014,-28.313056
11.185,2.0,1.0,1.0,34.8,34.1,34.1,3.2,3.5,2.67,-0.024974074944624308,-0.03500655182857162,0.9768434787128008,-0.01753439469742782,-0.200663,-28.144823
11.185,2.0,1.0,1.0,34.8,34.1,34.1,3.2,3.5,2.6725,-0.038575487510754444,-0.03543943446362142,0.9759783718619484,-0.01838555957783806,-0.204417,-27.975165
11.185,2.0,1.0,1.0,34.8,34.1,34.1,3.2,3.5,2.675,-0.05228050932028095,-0.035872139251673076,0.9749051569142134,-0.019267379283420937,-0.208281,-27.804044
11.185,2.0,1.0,1.0,34.8,34.1,34.1,3.2,3.5,2.6775,-0.06608753426318041,-0.036304252939127965,0.9736183828552468,-0.020181048571957017,-0.212261,-27.63142
11.185,2.0,1.0,1.0,34.8,34.1,34.1,3.2,3.5,2.68,-0.07999481452242993,-0.03673532814471755,0.9721124730461591,-0.02112781928940458,-0.21636,-27.457253
11.185,2.0,1.0,1.0,34.8,34.1,34.1,3.2,3.5,2.6825,-0.09400045346964132,-0.037164880613314785,0.9703817223411041,-0.022109003903672198,-0.220585,-27.281499
11.185,2.0,1.0,1.0,34.8,34.1,34.1,3.2,3.5,2.685,-0.10810239819473269,-0.03759238621012069,0.9684202940566637,-0.023125979316742096,-0.224941,-27.104114
11.185,2.0,1.0,1.0,34.8,34.1,34.1,3.2,3.5,2.6875,-0.12229843164128767,-0.038017277625707294,0.9662222167735912,-0.02418019098119135,-0.229433,-26.92505
11.185,2.0,1.0,1.0,34.8,34.1,34.1,3.2,3.5,2.69,-0.13658616431561937,-0.03843894075850067,0.9637813809488065,-0.02527315734987376,-0.234069,-26.744259
11.185,2.0,1.0,1.0,34.8,34.1,34.1,3.2,3.5,2.6925,-0.15096302553351315,-0.03885671073681464,0.9610915353125379,-0.026406474690547792,-0.238855,-26.56169
11.185,2.0,1.0,1.0,34.8,34.1,34.1,3.2,3.5,2.695,-0.16542625416370232,-0.03926986753740098,0.9581462830221729,-0.027581822300584532,-0.243797,-26.377288
11.185,2.0,1.0,1.0,34.8,34.1,34.1,3.2,3.5,2.6975,-0.17997288882165013,-0.03967763115155865,0.9549390775405686,-0.028800968160627702,-0.248905,-26.190998
11.185,2.0,1.0,1.0,34.8,34.1,34.1,3.2,3.5,2.7,-0.194599757460692,-0.040079156243006904,0.9514632182024069,-0.030065775070218244,-0.254186,-26.002762
11.185,2.0,1.0,1.0,34.8,34.1,34.1,3.2,3.5,2.7025,-0.20930346630006114,-0.040473526233825434,0.9477118454273701,-0.031378207313012565,-0.259649,-25.812517
11.185,2.0,1.0,1.0,34.8,34.1,34.1,3.2,3.5,2.705,-0.22408038802052738,-0.040859746745615606,0.9436779355336903,-0.0327403379043454,-0.265304,-25.620199
11.185,2.0,1.0,1.0,34.8,34.1,34.1,3.2,3.5,2.7075,-0.23892664914817852,-0.04123673831242165,0.9393542950996331,-0.034154356479587776,-0.27116,-25.42574
11.185,2.0,1.0,1.0,34.8,34.1,34.1,3.2,3.5,2.71,-0.2538381165348052,-0.04160332826961203,0.9347335548139013,-0.03562257788807265,-0.277228,-25.22907
11.185,2.0,1.0,1.0,34.8,34.1,34.1,3.2,3.5,2.7125,-0.2688103828293924,-0.04195824170855526,0.9298081627485246,-0.037147451564384856,-0.283521,-25.030113
11.185,2.0,1.0,1.0,34.8,34.1,34.1,3.2,3.5,2.715,-0.28383875081876053,-0.04230009137015713,0.924570376979622,-0.03873157175659083,-0.29005,-24.82879
11.185,2.0,1.0,1.0,34.8,34.1,34.1,3.2,3.5,2.7175,-0.2989182164960444,-0.042627366330723095,0.9190122574722378,-0.040377688699597965,-0.296831,-24.62502
11.185,2.0,1.0,1.0,34.8,34.1,34.1,3.2,3.5,2.72,-0.31404345069299644,-0.0429384193106423,0.9131256571353641,-0.042088720831349485,-0.303876,-24.418715
11.185,2.0,1.0,1.0,34.8,34.1,34.1,3.2,3.5,2.7225,-0.3292087790853369,-0.04323145240941771,0.9069022119420234,-0.04386776816004802,-0.311203,-24.209783
11.185,2.0,1.0,1.0,34.8,34.1,34.1,3.2,3.5,2.725,-0.34440816034865035,-0.04350450103882898,0.9003333299969586,-0.04571812690211387,-0.318828,-23.998127
11.185,2.0,1.0,1.0,34.8,34.1,34.1,3.2,3.5,2.7275,-0.3596351622050698,-0.043755415788586424,0.8934101794209246,-0.04764330552319398,-0.326771,-23.783646
11.185,2.0,1.0,1.0,34.8,34.1,34.1,3.2,3.5,2.73,-0.37488293505645875,-0.043981841914583056,0.8861236749057886,-0.049647042328231285,-0.335052,-23.566232
11.185,2.0,1.0,1.0,34.8,34.1,34.1,3.2,3.5,2.7325,-0.3901441828472866,-0.044181196087424886,0.8784644627786105,-0.05173332476142411,-0.343693,-23.345771
11.185,2.0,1.0,1.0,34.8,34.1,34.1,3.2,3.5,2.735,-0.4054111307375937,-0.044350639976651215,0.8704229043956812,-0.053906410592744564,-0.352718,-23.122143
11.185,2.0,1.0,1.0,34.8,34.1,34.1,3.2,3.5,2.7375,-0.42067548909173497,-0.04448705017191701,0.8619890576691668,-0.05617085118444322,-0.362155,-22.89522
11.185,2.0,1.0,1.0,34.8,34.1,34.1,3.2,3.5,2.74,-0.4359284131991608,-0.044586983853916046,0.8531526565099605,-0.058531517048363325,-0.372032,-22.664868
11.185,2.0,1.0,1.0,34.8,34.1,34.1,3.2,3.5,2.7425,-0.4511604580364062,-0.04464663952193609,0.8439030879507626,-0.060993625922536196,-0.382382,-22.430944
11.185,2.0,1.0,1.0,34.8,34.1,34.1,3.2,3.5,2.745,-0.46636152725080743,-0.04466181195789997,0.8342293666941281,-0.06356277361275753,-0.393239,-22.193297
11.185,2.0,1.0,1.0,34.8,34.1,34.1,3.2,3.5,2.7475,-0.4815208153915943,-0.044627840453934586,0.8241201068121161,-0.06624496786069904,-0.404643,-21.951766
11.185,2.0,1.0,1.0,34.8,34.1,34.1,3.2,3.5,2.75,-0.496626742227049,-0.0445395491462278,0.813563490308653,-0.0690466655131479,-0.416638,-21.706182
11.185,2.0,1.0,1.0,34.8,34.1,34.1,3.2,3.5,2.7525,-0.5116668777602287,-0.044391178075066616,0.80254723224497,-0.0719748132751035,-0.429269,-21.456362
11.185,2.0,1.0,1.0,34.8,34.1,34.1,3.2,3.5,2.755,-0.5266278562813329,-0.044176303320742426,0.7910585421254136,-0.07503689232970638,-0.442591,-21.202116
11.185,2.0,1.0,1.0,34.8,34.1,34.1,3.2,3.5,2.7575,-0.5414952774611417,-0.043887744236474784,0.7790840812498809,-0.07824096709607443,-0.456662,-20.943237
11.185,2.0,1.0,1.0,34.8,34.1,34.1,3.2,3.5,2.76,-0.556253592082839,-0.043517455399036814,0.7666099157662343,-0.08159573836599769,-0.471549,-20.679509
11.185,2.0,1.0,1.0,34.8,34.1,34.1,3.2,3.5,2.7625,-0.5708859695122248,-0.04305640040827426,0.7536214652098681,-0.08511060100359764,-0.487324,-20.410699
11.185,2.0,1.0,1.0,34.8,34.1,34.1,3.2,3.5,2.765,-0.5853741433965101,-0.04249440406691457,0.7401034464103718,-0.08879570629638531,-0.50407,-20.13656
11.185,2.0,1.0,1.0,34.8,34.1,34.1,3.2,3.5,2.7675,-0.599698231332967,-0.04181997873526258,0.7260398127940787,-0.09266202889471675,-0.521881,-19.856827
11.185,2.0,1.0,1.0,34.8,34.1,34.1,3.2,3.5,2.77,-0.6138365233264667,-0.04102011974817904,0.7114136893404075,-0.09672143804550483,-0.540862,-19.571219
11.185,2.0,1.0,1.0,34.8,34.1,34.1,3.2,3.5,2.7725,-0.627765232716984,-0.04008006366237047,0.6962073037935151,-0.10098677248147869,-0.56113,-19.279436
11.185,2.0,1.0,1.0,34.8,34.1,34.1,3.2,3.5,2.775,-0.6414582018516498,-0.03898300171829645,0.6804019152368348,-0.10547191782171217,-0.582822,-18.981155
11.185,2.0,1.0,1.0,34.8,34.1,34.1,3.2,3.5,2.7775,-0.6548865530345961,-0.03770973918800337,0.6639777418749806,-0.11019188460528925,-0.606091,-18.676034
11.185,2.0,1.0,1.0,34.8,34.1,34.1,3.2,3.5,2.78,-0.6680182731305142,-0.03623828915752729,0.6469138909314823,-0.1151628840225321,-0.631114,-18.363705
11.185,2.0,1.0,1.0,34.8,34.1,34.1,3.2,3.5,2.7825,-0.6808177175236862,-0.034543386661554494,0.6291882950992395,-0.12040239689186986,-0.658094,-18.043775
11.185,2.0,1.0,1.0,34.8,34.1,34.1,3.2,3.5,2.785,-0.6932450158226477,-0.03259590582929337,0.6107776621682106,-0.12592922926260622,-0.687263,-17.715826
11.185,2.0,1.0,1.0,34.8,34.1,34.1,3.2,3.5,2.7875,-0.7052553576069414,-0.030362158672303328,0.5916574475806424,-0.13176354492961764,-0.718892,-17.379408
11.185,2.0,1.0,1.0,34.8,34.1,34.1,3.2,3.5,2.79,-0.7167981314718054,-0.027803049184673145,0.5718018641260788,-0.13792686073228447,-0.753295,-17.034044
11.185,2.0,1.0,1.0,34.8,34.1,34.1,3.2,3.5,2.7925,-0.7278158844596015,-0.02487305035706753,0.5511839493583348,-0.14444198421280416,-0.790841,-16.679221
11.185,2.0,1.0,1.0,34.8,34.1,34.1,3.2,3.5,2.795,-0.7382430614989508,-0.021518964357376564,0.5297757204150509,-0.15133286421869704,-0.831961,-16.314398
11.185,2.0,1.0,1.0,34.8,34.1,34.1,3.2,3.5,2.7975,-0.7480044755757347,-0.017678417376134993,0.5075484589285291,-0.1586243121858848,-0.877162,-15.938995
11.185,2.0,1.0,1.0,34.8,34.1,34.1,3.2,3.5,2.8,-0.7570134490330386,-0.01327803047452215,0.4844731873319126,-0.166341533457217,-0.92705,-15.552401
11.185,2.0,1.0,1.0,34.8,34.1,34.1,3.2,3.5,2.8025,-0.7651695549211813,-0.008231196484981603,0.460521424526859,-0.17450938167098123,-0.982342,-15.153973
11.185,2.0,1.0,1.0,34.8,34.1,34.1,3.2,3.5,2.805,-0.7723558755412941,-0.002435381436478279,0.43566634707558594,-0.18315121155408698,-1.043903,-14.743036
11.185,2.0,1.0,1.0,34.8,34.1,34.1,3.2,3.5,2.8075,-0.7784356851730287,0.004231140990026605,0.4098845367639483,-0.1922871514911019,-1.112773,-14.318892
11.185,2.0,1.0,1.0,34.8,34.1,34.1,3.2,3.5,2.81,-0.783248459365755,0.011913217960402425,0.38315857348941196,-0.20193154017158832,-1.190215,-13.880827
11.185,2.0,1.0,1.0,34.8,34.1,34.1,3.2,3.5,2.8125,-0.786605121603093,0.0207834965390028,0.355480843458552,-0.212089162074762,-1.277771,-13.428125
11.185,2.0,1.0,1.0,34.8,34.1,34.1,3.2,3.5,2.815,-0.7882824734565658,0.031047905984400652,0.32685908914617756,-0.2227497621897224,-1.377337,-12.960089
11.185,2.0,1.0,1.0,34.8,34.1,34.1,3.2,3.5,2.8175,-0.7880168413383476,0.04295191007713697,0.29732444472203545,-0.23388010605049822,-1.491257,-12.476076
11.185,2.0,1.0,1.0,34.8,34.1,34.1,3.2,3.5,2.82,-0.7854971550857404,0.05678731652257724,0.26694299486554024,-0.24541256092762737,-1.622447,-11.975538
11.185,2.0,1.0,1.0,34.8,34.1,34.1,3.2,3.5,2.8225,-0.7803580249684519,0.0728990837900262,0.23583227656327305,-0.25722879748982885,-1.774557,-11.458098
11.185,2.0,1.0,1.0,34.8,34.1,34.1,3.2,3.5,2.825,-0.7721740266554984,0.09169093144137347,0.20418460087943666,-0.2691367599688927,-1.952174,-10.923639
11.185,2.0,1.0,1.0,34.8,34.1,34.1,3.2,3.5,2.8275,-0.7604575307497361,0.11362744811820752,0.17229953332183098,-0.2808385972575538,-2.161087,-10.372448
