1,w,sub_t,h,l1,l2,l3,g1,g2,Freq,S11_re,S21_re,S11_img,S21_img,S11_dB,S21_dB
11.185,2.0,1.0,1.0,34.0,33.4,33.4,1.9,2.5,2.5,0.779373141642656,-0.0148709972303542,0.614071287650259,0.0111230860518356,-0.067816,-34.623451
11.185,2.0,1.0,1.0,34.0,33.4,33.4,1.9,2.5,2.5025,0.7747100518251425,-0.015166583356415245,0.6198072204171775,0.011153173925727995,-0.068563,-34.504836
11.185,2.0,1.0,1.0,34.0,33.4,33.4,1.9,2.5,2.505,0.7699800998668418,-0.015467565550302946,0.6255356719794711,0.011181241393301677,-0.069324,-34.385817
11.185,2.0,1.0,1.0,34.0,33.4,33.4,1.9,2.5,2.5075,0.765182560436849,-0.015774050325624806,0.631256155766896,0.011207198548137096,-0.070099,-34.266387
11.185,2.0,1.0,1.0,34.0,33.4,33.4,1.9,2.5,2.51,0.760316697688985,-0.016086146532466535,0.6369681701472386,0.011230951989759727,-0.070888,-34.146539
11.185,2.0,1.0,1.0,34.0,33.4,33.4,1.9,2.5,2.5125,0.7553817651341519,-0.016403965407721113,0.6426711979420937,0.011252404680642659,-0.071692,-34.026266
11.185,2.0,1.0,1.0,34.0,33.4,33.4,1.9,2.5,2.515,0.7503770055140475,-0.016727620626125327,0.6483647059259441,0.011271455796907998,-0.072511,-33.905561
11.185,2.0,1.0,1.0,34.0,33.4,33.4,1.9,2.5,2.5175,0.7453016506764691,-0.01705722835197526,0.6540481443079319,0.011288000572426042,-0.073345,-33.784415
11.185,2.0,1.0,1.0,34.0,33.4,33.4,1.9,2.5,2.52,0.7401549214524494,-0.017392907291488,0.659720946195738,0.011301930135995977,-0.074195,-33.662823
11.185,2.0,1.0,1.0,34.0,33.4,33.4,1.9,2.5,2.5225,0.7349360275354997,-0.017734778745771732,0.6653825270408988,0.011313131341273725,-0.075062,-33.540776
11.185,2.0,1.0,1.0,34.0,33.4,33.4,1.9,2.5,2.525,0.7296441673632281,-0.018082966664363653,0.6710322840649305,0.011321486589097148,-0.075945,-33.418266
11.185,2.0,1.0,1.0,34.0,33.4,33.4,1.9,2.5,2.5275,0.7242785280016348,-0.018437597699284602,0.6766695956655555,0.011326873641838781,-0.076846,-33.295286
11.185,2.0,1.0,1.0,34.0,33.4,33.4,1.9,2.5,2.53,0.7188382850324119,-0.018798801259557747,0.6822938208023184,0.011329165429397521,-0.077765,-33.171829
11.185,2.0,1.0,1.0,34.0,33.4,33.4,1.9,2.5,2.5325,0.7133226024435833,-0.019166709566128138,0.6879042983608481,0.01132822984642021,-0.078702,-33.047885
11.185,2.0,1.0,1.0,34.0,33.4,33.4,1.9,2.5,2.535,0.7077306325238442,-0.019541457707114775,0.6935003464949961,0.011323929540321164,-0.079657,-32.923447
11.185,2.0,1.0,1.0,34.0,33.4,33.4,1.9,2.5,2.5375,0.7020615157610006,-0.0199231836933167,0.6990812619460325,0.011316121689646403,-0.080632,-32.798507
11.185,2.0,1.0,1.0,34.0,33.4,33.4,1.9,2.5,2.54,0.696314380744913,-0.020312028513887543,0.7046463193380726,0.011304657772303106,-0.081627,-32.673057
11.185,2.0,1.0,1.0,34.0,33.4,33.4,1.9,2.5,2.5425,0.6904883440753868,-0.020708136192080454,0.7101947704488589,0.011289383323150345,-0.082643,-32.547088
11.185,2.0,1.0,1.0,34.0,33.4,33.4,1.9,2.5,2.545,0.6845825102754831,-0.021111653840958266,0.7157258434549846,0.011270137680418898,-0.083679,-32.420592
11.185,2.0,1.0,1.0,34.0,33.4,33.4,1.9,2.5,2.5475,0.6785959717107551,-0.021522731718947863,0.7212387421506117,0.011246753720399271,-0.084736,-32.29356
11.185,2.0,1.0,1.0,34.0,33.4,33.4,1.9,2.5,2.55,0.6725278085149311,-0.021941523285108563,0.7267326451387114,0.01121905757980705,-0.085816,-32.165984
11.185,2.0,1.0,1.0,34.0,33.4,33.4,1.9,2.5,2.5525,0.6663770885226373,-0.02236818525396795,0.7322067049937768,0.011186868365200523,-0.086919,-32.037854
11.185,2.0,1.0,1.0,34.0,33.4,33.4,1.9,2.5,2.555,0.6601428672097474,-0.022802877649764648,0.737660047394958,0.011149997848792986,-0.088045,-31.909161
11.185,2.0,1.0,1.0,34.0,33.4,33.4,1.9,2.5,2.5575,0.6538241876420148,-0.023245763859921647,0.7430917702285005,0.01110825014996424,-0.089195,-31.779897
11.185,2.0,1.0,1.0,34.0,33.4,33.4,1.9,2.5,2.56,0.6474200804326833,-0.02369701068755292,0.7485009426583179,0.011061421401737683,-0.090371,-31.650053
11.185,2.0,1.0,1.0,34.0,33.4,33.4,1.9,2.5,2.5625,0.6409295637098075,-0.024156788402789793,0.7538866041634963,0.011009299401448003,-0.091571,-31.519618
11.185,2.0,1.0,1.0,34.0,33.4,33.4,1.9,2.5,2.565,0.6343516430940633,-0.02462527079269131,0.7592477635414676,0.010951663244781244,-0.092798,-31.388583
11.185,2.0,1.0,1.0,34.0,33.4,33.4,1.9,2.5,2.5675,0.6276853116878995,-0.025102635209476584,0.7645833978755281,0.010888282942322355,-0.094052,-31.256939
11.185,2.0,1.0,1.0,34.0,33.4,33.4,1.9,2.5,2.57,0.6209295500769074,-0.02558906261679648,0.7698924514653372,0.010818919017696488,-0.095333,-31.124676
11.185,2.0,1.0,1.0,34.0,33.4,33.4,1.9,2.5,2.5725,0.6140833263443661,-0.0260847376337312,0.7751738347189627,0.010743322086338245,-0.096643,-30.991783
11.185,2.0,1.0,1.0,34.0,33.4,33.4,1.9,2.5,2.575,0.6071455960999772,-0.026589848576169896,0.7804264230049753,0.010661232413867005,-0.097983,-30.858251
11.185,2.0,1.0,1.0,34.0,33.4,33.4,1.9,2.5,2.5775,0.6001153025238664,-0.027104587495197462,0.7856490554630331,0.010572379452988763,-0.099353,-30.72407
11.185,2.0,1.0,1.0,34.0,33.4,33.4,1.9,2.5,2.58,0.5929913764270128,-0.027629150212077142,0.7908405337713238,0.010476481357781573,-0.100754,-30.589228
11.185,2.0,1.0,1.0,34.0,33.4,33.4,1.9,2.5,2.5825,0.5857727363293214,-0.028163736349376738,0.795999620869173,0.010373244474154974,-0.102188,-30.453715
11.185,2.0,1.0,1.0,34.0,33.4,33.4,1.9,2.5,2.585,0.5784582885566641,-0.0287085493577463,0.8011250396330274,0.010262362805203875,-0.103654,-30.317521
11.185,2.0,1.0,1.0,34.0,33.4,33.4,1.9,2.5,2.5875,0.5710469273582744,-0.029263796537806423,0.8062154715039709,0.010143517450101799,-0.105155,-30.180633
11.185,2.0,1.0,1.0,34.0,33.4,33.4,1.9,2.5,2.59,0.5635375350459979,-0.02982968905655689,0.8112695550648147,0.010016376015098215,-0.106691,-30.043042
11.185,2.0,1.0,1.0,34.0,33.4,33.4,1.9,2.5,2.5925,0.5559289821569834,-0.03040644195765884,0.8162858845647513,0.009880591995099554,-0.108263,-29.904736
11.185,2.0,1.0,1.0,34.0,33.4,33.4,1.9,2.5,2.595,0.5482201276415257,-0.03099427416488345,0.8212630083894288,0.009735804124223415,-0.109873,-29.765702
11.185,2.0,1.0,1.0,34.0,33.4,33.4,1.9,2.5,2.5975,0.5404098190778572,-0.03159340847795554,0.8261994274742402,0.009581635693618066,-0.111521,-29.625929
11.185,2.0,1.0,1.0,34.0,33.4,33.4,1.9,2.5,2.6,0.5324968929158375,-0.03220407155994515,0.8310935936584986,0.00941769383473711,-0.113209,-29.485406
11.185,2.0,1.0,1.0,34.0,33.4,33.4,1.9,2.5,2.6025,0.5244801747516147,-0.03282649391528392,0.8359439079780518,0.009243568766149618,-0.114938,-29.34412
11.185,2.0,1.0,1.0,34.0,33.4,33.4,1.9,2.5,2.605,0.5163584796354556,-0.03346090985739671,0.8407487188938102,0.009058833001849,-0.11671,-29.202058
11.185,2.0,1.0,1.0,34.0,33.4,33.4,1.9,2.5,2.6075,0.5081306124151197,-0.03410755746484224,0.8455063204534924,0.008863040518899206,-0.118525,-29.059207
11.185,2.0,1.0,1.0,34.0,33.4,33.4,1.9,2.5,2.61,0.4997953681173044,-0.03476667852475656,0.8502149503838031,0.008655725882125301,-0.120386,-28.915556
11.185,2.0,1.0,1.0,34.0,33.4,33.4,1.9,2.5,2.6125,0.4913515323698602,-0.03543851846227752,0.8548727881101018,0.00843640332341197,-0.122293,-28.77109
11.185,2.0,1.0,1.0,34.0,33.4,33.4,1.9,2.5,2.615,0.4827978818676653,-0.036123326254507454,0.8594779527004843,0.008204565773023847,-0.124248,-28.625795
11.185,2.0,1.0,1.0,34.0,33.4,33.4,1.9,2.5,2.6175,0.47413318488526585,-0.03682135432743358,0.8640285007310424,0.00795968384020036,-0.126254,-28.47966
11.185,2.0,1.0,1.0,34.0,33.4,33.4,1.9,2.5,2.62,0.46535620183958937,-0.03753285843407843,0.868522424068906,0.00770120474010429,-0.12831,-28.332668
11.185,2.0,1.0,1.0,34.0,33.4,33.4,1.9,2.5,2.6225,0.4564656859062809,-0.038258097511992176,0.8729576475695132,0.0074285511640211875,-0.130421,-28.184807
11.185,2.0,1.0,1.0,34.0,33.4,33.4,1.9,2.5,2.625,0.447460383693482,-0.0389973335180153,0.877332026684346,0.00714112008950939,-0.132586,-28.036061
11.185,2.0,1.0,1.0,34.0,33.4,33.4,1.9,2.5,2.6275,0.4383390359771179,-0.03975083123805132,0.8816433449752081,0.0068382815269910115,-0.134808,-27.886416
11.185,2.0,1.0,1.0,34.0,33.4,33.4,1.9,2.5,2.63,0.42910037850208504,-0.04051885806936973,0.8858893115309006,0.006519377199050353,-0.137089,-27.735857
11.185,2.0,1.0,1.0,34.0,33.4,33.4,1.9,2.5,2.6325,0.41974314285403447,-0.04130168377272591,0.8900675582819276,0.0061837191484662764,-0.139432,-27.584367
11.185,2.0,1.0,1.0,34.0,33.4,33.4,1.9,2.5,2.635,0.41026605740680394,-0.04209958019132608,0.89417563720866,0.005830588270750325,-0.141837,-27.431932
11.185,2.0,1.0,1.0,34.0,33.4,33.4,1.9,2.5,2.6375,0.4006678483509361,-0.042912820933378545,0.8982110174381072,0.0054592327666871275,-0.144308,-27.278535
11.185,2.0,1.0,1.0,34.0,33.4,33.4,1.9,2.5,2.64,0.3909472408090966,-0.04374168101466527,0.9021710822242239,0.005068866510082437,-0.146847,-27.124159
11.185,2.0,1.0,1.0,34.0,33.4,33.4,1.9,2.5,2.6425,0.3811029600446987,-0.04458643645721529,0.9060531258063673,0.0046586673256106305,-0.149457,-26.968788
11.185,2.0,1.0,1.0,34.0,33.4,33.4,1.9,2.5,2.645,0.371133732770485,-0.045447363839789805,0.9098543501402537,0.004227775171319125,-0.152139,-26.812405
11.185,2.0,1.0,1.0,34.0,33.4,33.4,1.9,2.5,2.6475,0.36103828856436704,-0.04632473979546563,0.9135718614954312,0.0037752902199897818,-0.154897,-26.654991
11.185,2.0,1.0,1.0,34.0,33.4,33.4,1.9,2.5,2.65,0.3508153614003572,-0.047218840451148096,0.9172026669129727,0.003300270833173073,-0.157734,-26.49653
11.185,2.0,1.0,1.0,34.0,33.4,33.4,1.9,2.5,2.6525,0.3404636913031238,-0.048129940803329135,0.9207436705167071,0.00280173142130427,-0.160652,-26.337002
11.185,2.0,1.0,1.0,34.0,33.4,33.4,1.9,2.5,2.655,0.329982026135283,-0.04905831402385314,0.9241916696709671,0.0022786401828700487,-0.163654,-26.176388
11.185,2.0,1.0,1.0,34.0,33.4,33.4,1.9,2.5,2.6575,0.3193691235273625,-0.050004230688828845,0.9275433509773965,0.0017299167151275745,-0.166745,-26.01467
11.185,2.0,1.0,1.0,34.0,33.4,33.4,1.9,2.5,2.66,0.30862375296114236,-0.05096795792314094,0.9307952861029493,0.0011544294883773238,-0.169927,-25.851828
11.185,2.0,1.0,1.0,34.0,33.4,33.4,1.9,2.5,2.6625,0.29774469801798215,-0.051949758452257314,0.9339439274307405,0.0005509931752552114,-0.173204,-25.687841
11.185,2.0,1.0,1.0,34.0,33.4,33.4,1.9,2.5,2.665,0.2867307588046948,-0.052949889552192354,0.9369856035249451,-8.16341740625543e-05,-0.17658,-25.522689
11.185,2.0,1.0,1.0,34.0,33.4,33.4,1.9,2.5,2.6675,0.2755807545706312,-0.05396860188755111,0.9399165144003848,-0.0007447541204580153,-0.180058,-25.35635
11.185,2.0,1.0,1.0,34.0,33.4,33.4,1.9,2.5,2.67,0.2642935265307689,-0.05500613822655526,0.9427327265869259,-0.0014397309986444468,-0.183644,-25.188803
11.185,2.0,1.0,1.0,34.0,33.4,33.4,1.9,2.5,2.6725,0.25286794091090503,-0.05606273202080742,0.9454301679781933,-0.0021679952651797747,-0.187341,-25.020025
11.185,2.0,1.0,1.0,34.0,33.4,33.4,1.9,2.5,2.675,0.24130289223248144,-0.05713860583627832,0.948004622453497,-0.0029310470435287604,-0.191154,-24.849994
11.185,2.0,1.0,1.0,34.0,33.4,33.4,1.9,2.5,2.6775,0.22959730685610946,-0.05823396962059803,0.9504517242611812,-0.003730459878776059,-0.195088,-24.678687
11.185,2.0,1.0,1.0,34.0,33.4,33.4,1.9,2.5,2.68,0.21775014680458468,-0.059349018790159136,0.952766952150915,-0.004567884715433644,-0.199148,-24.506078
11.185,2.0,1.0,1.0,34.0,33.4,33.4,1.9,2.5,2.6825,0.20576041388811533,-0.06048393211880134,0.9549456232416704,-0.005445054112681827,-0.20334,-24.332144
11.185,2.0,1.0,1.0,34.0,33.4,33.4,1.9,2.5,2.685,0.19362715415654247,-0.061638869407898825,0.9569828866113526,-0.006363786712338154,-0.207669,-24.15686
11.185,2.0,1.0,1.0,34.0,33.4,33.4,1.9,2.5,2.6875,0.181349462705695,-0.0628139689155138,0.958873716593183,-0.007325991975855,-0.212142,-23.980198
11.185,2.0,1.0,1.0,34.0,33.4,33.4,1.9,2.5,2.69,0.1689264888676059,-0.06400934451985624,0.9606129057630519,-0.008333675207715534,-0.216764,-23.802134
11.185,2.0,1.0,1.0,34.0,33.4,33.4,1.9,2.5,2.6925,0.1563574418171362,-0.06522508258960141,0.9621950576011205,-0.009388942883728987,-0.221544,-23.622638
11.185,2.0,1.0,1.0,34.0,33.4,33.4,1.9,2.5,2.695,0.14364159663082102,-0.06646123853059763,0.9636145788099376,-0.010494008303907917,-0.226487,-23.441684
11.185,2.0,1.0,1.0,34.0,33.4,33.4,1.9,2.5,2.6975,0.1307783008371855,-0.06771783297513152,0.9648656712703363,-0.01165119759086558,-0.231602,-23.259241
11.185,2.0,1.0,1.0,34.0,33.4,33.4,1.9,2.5,2.7,0.11776698150184257,-0.06899484757614162,0.9659423236152532,-0.012862956055966449,-0.236896,-23.075281
11.185,2.0,1.0,1.0,34.0,33.4,33.4,1.9,2.5,2.7025,0.10460715289498178,-0.07029222036455178,0.9668383024005299,-0.014131854956827911,-0.242379,-22.889773
11.185,2.0,1.0,1.0,34.0,33.4,33.4,1.9,2.5,2.705,0.09129842479385426,-0.07160984062314878,0.967547142850576,-0.015460598671169367,-0.248059,-22.702685
11.185,2.0,1.0,1.0,34.0,33.4,33.4,1.9,2.5,2.7075,0.07784051147830087,-0.07294754322512105,0.9680621391556014,-0.016852032313453093,-0.253946,-22.513984
11.185,2.0,1.0,1.0,34.0,33.4,33.4,1.9,2.5,2.71,0.06423324148355926,-0.07430510237939397,0.9683763342959446,-0.018309149822226454,-0.260051,-22.323638
11.185,2.0,1.0,1.0,34.0,33.4,33.4,1.9,2.5,2.7125,0.0504765681814483,-0.07568222471818858,0.9684825093678094,-0.019835102547561045,-0.266383,-22.131613
11.185,2.0,1.0,1.0,34.0,33.4,33.4,1.9,2.5,2.715,0.03657058126878636,-0.07707854165467097,0.9683731723835918,-0.021433208369450823,-0.272956,-21.937872
11.185,2.0,1.0,1.0,34.0,33.4,33.4,1.9,2.5,2.7175,0.02251551925057738,-0.07849360093005335,0.968040546518838,-0.023106961379466242,-0.27978,-21.742379
11.185,2.0,1.0,1.0,34.0,33.4,33.4,1.9,2.5,2.72,0.008311783015273395,-0.07992685725991332,0.967476557776878,-0.024860042159316156,-0.28687,-21.545098
11.185,2.0,1.0,1.0,34.0,33.4,33.4,1.9,2.5,2.7225,-0.006040049389609424,-0.08137766197868698,0.9666728220412736,-0.026696328691211555,-0.29424,-21.345988
11.185,2.0,1.0,1.0,34.0,33.4,33.4,1.9,2.5,2.725,-0.02053920666078498,-0.0828452515690623,0.9656206314855498,-0.028619907935973958,-0.301905,-21.145011
11.185,2.0,1.0,1.0,34.0,33.4,33.4,1.9,2.5,2.7275,-0.03518470668678459,-0.08432873494921343,0.9643109403092314,-0.030635088115645668,-0.30988,-20.942125
11.185,2.0,1.0,1.0,34.0,33.4,33.4,1.9,2.5,2.73,-0.04997533738933786,-0.08582707937519145,0.9627343497691696,-0.032746411737800775,-0.318184,-20.737288
11.185,2.0,1.0,1.0,34.0,33.4,33.4,1.9,2.5,2.7325,-0.0649096357902861,-0.08733909479813806,0.9608810924755502,-0.034958669398756304,-0.326834,-20.530456
11.185,2.0,1.0,1.0,34.0,33.4,33.4,1.9,2.5,2.735,-0.07998586511552325,-0.08886341649596874,0.9587410159230143,-0.03727691440224503,-0.335851,-20.321585
11.185,2.0,1.0,1.0,34.0,33.4,33.4,1.9,2.5,2.7375,-0.09520198972466787,-0.0903984857765134,0.956303565229206,-0.03970647822869536,-0.345255,-20.110626
11.185,2.0,1.0,1.0,34.0,33.4,33.4,1.9,2.5,2.74,-0.11055564762921298,-0.09194252852337954,0.9535577650559275,-0.04225298688780018,-0.35507,-19.897533
11.185,2.0,1.0,1.0,34.0,33.4,33.4,1.9,2.5,2.7425,-0.12604412033259998,-0.09349353132663979,0.9504922006923165,-0.04492237818329274,-0.365321,-19.682257
11.185,2.0,1.0,1.0,34.0,33.4,33.4,1.9,2.5,2.745,-0.14166429969230507,-0.0950492149073165,0.9470949982853788,-0.047720919913399294,-0.376033,-19.464744
11.185,2.0,1.0,1.0,34.0,33.4,33.4,1.9,2.5,2.7475,-0.15741265146620903,-0.09660700450702846,0.943353804211196,-0.0506552290228829,-0.387236,-19.244944
11.185,2.0,1.0,1.0,34.0,33.4,33.4,1.9,2.5,2.75,-0.17328517516258,-0.0981639968714182,0.939255763590849,-0.0537322917123752,-0.398961,-19.022802
11.185,2.0,1.0,1.0,34.0,33.4,33.4,1.9,2.5,2.7525,-0.18927735976415194,-0.09971692340742377,0.9347874979691104,-0.056959484497130036,-0.41124,-18.798261
11.185,2.0,1.0,1.0,34.0,33.4,33.4,1.9,2.5,2.755,-0.2053841348413227,-0.10126210903925045,0.9299350821921906,-0.06034459618958515,-0.42411,-18.571263
11.185,2.0,1.0,1.0,34.0,33.4,33.4,1.9,2.5,2.7575,-0.2215998165064848,-0.10279542622519017,0.9246840205442455,-0.06389585075715798,-0.437609,-18.341748
11.185,2.0,1.0,1.0,34.0,33.4,33.4,1.9,2.5,2.76,-0.23791804758979945,-0.10431224352616095,0.9190192222323461,-0.06762193097719385,-0.451782,-18.109656
11.185,2.0,1.0,1.0,34.0,33.4,33.4,1.9,2.5,2.7625,-0.25433173133545944,-0.10580736803592583,0.9129249763476468,-0.07153200277339646,-0.466673,-17.874921
11.185,2.0,1.0,1.0,34.0,33.4,33.4,1.9,2.5,2.765,-0.27083295782507594,-0.10727498089112608,0.9063849264786908,-0.07563574007035448,-0.482332,-17.637478
11.185,2.0,1.0,1.0,34.0,33.4,33.4,1.9,2.5,2.7675,-0.28741292223016834,-0.10870856497518011,0.8993820452134863,-0.07994334994253555,-0.498815,-17.39726
11.185,2.0,1.0,1.0,34.0,33.4,33.4,1.9,2.5,2.77,-0.3040618338771891,-0.1101008238123015,0.8918986088432821,-0.08446559775830062,-0.51618,-17.154197
11.185,2.0,1.0,1.0,34.0,33.4,33.4,1.9,2.5,2.7725,-0.320768814974536,-0.11144359051481903,0.8839161726765936,-0.0892138319243392,-0.534493,-16.908218
11.185,2.0,1.0,1.0,34.0,33.4,33.4,1.9,2.5,2.775,-0.3375217876999768,-0.11272772549703361,0.8754155474916365,-0.09420000771682645,-0.553825,-16.659248
11.185,2.0,1.0,1.0,34.0,33.4,33.4,1.9,2.5,2.7775,-0.35430734817718224,-0.11394300150046045,0.8663767778046599,-0.09943670953680901,-0.574253,-16.407212
11.185,2.0,1.0,1.0,34.0,33.4,33.4,1.9,2.5,2.78,-0.37111062568014774,-0.11507797428697705,0.8567791228177881,-0.10493717074177336,-0.595863,-16.152032
11.185,2.0,1.0,1.0,34.0,33.4,33.4,1.9,2.5,2.7825,-0.38791512519278193,-0.11611983714690942,0.8466010411417986,-0.11071528997427303,-0.61875,-15.893629
11.185,2.0,1.0,1.0,34.0,33.4,33.4,1.9,2.5,2.785,-0.40470255121726767,-0.11705425713772977,0.8358201806773319,-0.1167856426211859,-0.643016,-15.631922
11.185,2.0,1.0,1.0,34.0,33.4,33.4,1.9,2.5,2.7875,-0.4214526104685415,-0.1178651907157502,0.8244133753960056,-0.12316348568026976,-0.668775,-15.366828
11.185,2.0,1.0,1.0,34.0,33.4,33.4,1.9,2.5,2.79,-0.43814279081495927,-0.11853467614934023,0.8123566512068602,-0.12986475386802668,-0.696152,-15.098262
11.185,2.0,1.0,1.0,34.0,33.4,33.4,1.9,2.5,2.7925,-0.4547481135295235,-0.11904259981077156,0.7996252436438048,-0.13690604425437136,-0.725288,-14.82614
11.185,2.0,1.0,1.0,34.0,33.4,33.4,1.9,2.5,2.795,-0.47124085560800316,-0.11936643314072151,0.7861936307906349,-0.14430458603097865,-0.756337,-14.550375
11.185,2.0,1.0,1.0,34.0,33.4,33.4,1.9,2.5,2.7975,-0.48759023859915296,-0.11948093677447948,0.7720355857018224,-0.15207819118164373,-0.789469,-14.270881
11.185,2.0,1.0,1.0,34.0,33.4,33.4,1.9,2.5,2.8,-0.5037620800938116,-0.11935782802747058,0.7571242536155207,-0.16024518078882688,-0.824875,-13.987572
11.185,2.0,1.0,1.0,34.0,33.4,33.4,1.9,2.5,2.8025,-0.5197184037565743,-0.11896540768321007,0.7414322605338263,-0.16882428043751627,-0.862767,-13.700361
11.185,2.0,1.0,1.0,34.0,33.4,33.4,1.9,2.5,2.805,-0.5354170035909259,-0.11826814184373516,0.7249318613158429,-0.17783447661448432,-0.903383,-13.409166
11.185,2.0,1.0,1.0,34.0,33.4,33.4,1.9,2.5,2.8075,-0.5508109580554814,-0.11722619454079822,0.7075951373523458,-0.1872948240876813,-0.946988,-13.113904
11.185,2.0,1.0,1.0,34.0,33.4,33.4,1.9,2.5,2.81,-0.5658480897664853,-0.11579490693656753,0.6893942562373582,-0.19722419191733465,-0.993879,-12.814498
11.185,2.0,1.0,1.0,34.0,33.4,33.4,1.9,2.5,2.8125,-0.580470366929357,-0.113924219364892,0.670301808701092,-0.207640932918802,-1.044391,-12.510876
11.185,2.0,1.0,1.0,34.0,33.4,33.4,1.9,2.5,2.815,-0.5946132434784971,-0.11155803331653799,0.6502912415073344,-0.2185624579819431,-1.098901,-12.202972
11.185,2.0,1.0,1.0,34.0,33.4,33.4,1.9,2.5,2.8175,-0.6082049363597182,-0.10863351194396567,0.629337409136497,-0.230004692564329,-1.157832,-11.890729
11.185,2.0,1.0,1.0,34.0,33.4,33.4,1.9,2.5,2.82,-0.621165640722329,-0.10508032001085363,0.6074172719579358,-0.24198138783323478,-1.221667,-11.574103
11.185,2.0,1.0,1.0,34.0,33.4,33.4,1.9,2.5,2.8225,-0.6334066873453458,-0.10081980778473934,0.5845107743077522,-0.2545032532707645,-1.290949,-11.253064
11.185,2.0,1.0,1.0,34.0,33.4,33.4,1.9,2.5,2.825,-0.6448296518658704,-0.09576414862660636,0.5606019424540357,-0.26757687105749395,-1.366297,-10.927598
11.185,2.0,1.0,1.0,34.0,33.4,33.4,1.9,2.5,2.8275,-0.655325432910298,-0.08981544756848273,0.5356802497939354,-0.28120334527272267,-1.448415,-10.597718
11.185,2.0,1.0,1.0,34.0,33.4,33.4,1.9,2.5,2.83,-0.6647733268255256,-0.08286484875841964,0.509742304592502,-0.2953766310910097,-1.538109,-10.263461
