1,w,sub_t,h,l1,l2,l3,g1,g2,Freq,S11_re,S21_re,S11_img,S21_img,S11_dB,S21_dB
11.185,2.0,1.0,1.0,34.1,33.7,33.7,2.7,3.2,2.5,0.766751717476225,-0.0108479017732662,0.629889340876068,0.00634439116739381,-0.067098,-38.015401
11.185,2.0,1.0,1.0,34.1,33.7,33.7,2.7,3.2,2.5025,0.7619125944122199,-0.011049491540527244,0.6356094664595238,0.0063392966083900635,-0.067798,-37.897405
11.185,2.0,1.0,1.0,34.1,33.7,33.7,2.7,3.2,2.505,0.7570056312859312,-0.011254450782576435,0.6413199869070605,0.0063323404640451275,-0.06851,-37.77905
11.185,2.0,1.0,1.0,34.1,33.7,33.7,2.7,3.2,2.5075,0.7520301333455547,-0.011462839074449655,0.6470203710510739,0.00632345421490899,-0.069234,-37.660329
11.185,2.0,1.0,1.0,34.1,33.7,33.7,2.7,3.2,2.51,0.7469853968506007,-0.011674717129328141,0.6527100721343833,0.006312566932571371,-0.069971,-37.541235
11.185,2.0,1.0,1.0,34.1,33.7,33.7,2.7,3.2,2.5125,0.7418707090172642,-0.0118901468179663,0.6583885273384484,0.006299605188093485,-0.070722,-37.42176
11.185,2.0,1.0,1.0,34.1,33.7,33.7,2.7,3.2,2.515,0.7366853479675098,-0.012109191188166717,0.6640551572971957,0.006284492956618483,-0.071486,-37.301898
11.185,2.0,1.0,1.0,34.1,33.7,33.7,2.7,3.2,2.5175,0.7314285826821827,-0.012331914484275695,0.6697093655959887,0.006267151517984112,-0.072263,-37.18164
11.185,2.0,1.0,1.0,34.1,33.7,33.7,2.7,3.2,2.52,0.7260996729584337,-0.01255838216667069,0.6753505382552923,0.006247499353151927,-0.073055,-37.06098
11.185,2.0,1.0,1.0,34.1,33.7,33.7,2.7,3.2,2.5225,0.7206978693718085,-0.01278866093120572,0.6809780431985296,0.006225452036258038,-0.073862,-36.93991
11.185,2.0,1.0,1.0,34.1,33.7,33.7,2.7,3.2,2.525,0.7152224132433217,-0.01302281872858203,0.6865912297036515,0.006200922122080055,-0.074683,-36.818422
11.185,2.0,1.0,1.0,34.1,33.7,33.7,2.7,3.2,2.5275,0.7096725366118889,-0.013260924783603358,0.6921894278379028,0.00617381902870417,-0.075519,-36.696508
11.185,2.0,1.0,1.0,34.1,33.7,33.7,2.7,3.2,2.53,0.7040474622125005,-0.0135030496142753,0.6977719478752471,0.006144048915164873,-0.076372,-36.574161
11.185,2.0,1.0,1.0,34.1,33.7,33.7,2.7,3.2,2.5325,0.6983464034605372,-0.013749265050701598,0.703338079695911,0.006111514553817937,-0.07724,-36.451372
11.185,2.0,1.0,1.0,34.1,33.7,33.7,2.7,3.2,2.535,0.6925685644426482,-0.01399964425372906,0.7088870921674862,0.006076115197194213,-0.078124,-36.328133
11.185,2.0,1.0,1.0,34.1,33.7,33.7,2.7,3.2,2.5375,0.6867131399146511,-0.014254261733283992,0.7144182325069922,0.006037746439068608,-0.079025,-36.204437
11.185,2.0,1.0,1.0,34.1,33.7,33.7,2.7,3.2,2.54,0.6807793153069173,-0.014513193366343465,0.7199307256233147,0.00599630006946385,-0.079943,-36.080274
11.185,2.0,1.0,1.0,34.1,33.7,33.7,2.7,3.2,2.5425,0.6747662667377411,-0.014776516414475424,0.7254237734393839,0.005951663923293713,-0.080879,-35.955636
11.185,2.0,1.0,1.0,34.1,33.7,33.7,2.7,3.2,2.545,0.6686731610352213,-0.015044309540876401,0.7308965541934627,0.005903721722334092,-0.081833,-35.830515
11.185,2.0,1.0,1.0,34.1,33.7,33.7,2.7,3.2,2.5475,0.6624991557682097,-0.015316652826832484,0.7363482217188618,0.0058523529101930614,-0.082806,-35.704901
11.185,2.0,1.0,1.0,34.1,33.7,33.7,2.7,3.2,2.55,0.6562433992868969,-0.015593627787518896,0.741777904701423,0.005797432479932893,-0.083798,-35.578787
11.185,2.0,1.0,1.0,34.1,33.7,33.7,2.7,3.2,2.5525,0.6499050307736719,-0.015875317387047883,0.7471847059140256,0.005738830793977674,-0.084809,-35.452163
11.185,2.0,1.0,1.0,34.1,33.7,33.7,2.7,3.2,2.555,0.6434831803048809,-0.01616180605266747,0.7525677014274178,0.005676413395919315,-0.08584,-35.325019
11.185,2.0,1.0,1.0,34.1,33.7,33.7,2.7,3.2,2.5575,0.6369769689241751,-0.01645317968800477,0.7579259397965937,0.005610040813813021,-0.086891,-35.197347
11.185,2.0,1.0,1.0,34.1,33.7,33.7,2.7,3.2,2.56,0.6303855087281681,-0.0167495256852364,0.7632584412219335,0.0055395683545299895,-0.087964,-35.069138
11.185,2.0,1.0,1.0,34.1,33.7,33.7,2.7,3.2,2.5625,0.6237079029651571,-0.01705093293606332,0.7685641966843031,0.005464845888709883,-0.089058,-34.94038
11.185,2.0,1.0,1.0,34.1,33.7,33.7,2.7,3.2,2.565,0.6169432461476975,-0.017357491841351297,0.7738421670532696,0.00538571762582959,-0.090174,-34.811066
11.185,2.0,1.0,1.0,34.1,33.7,33.7,2.7,3.2,2.5675,0.6100906241798845,-0.01766929431929085,0.779091282167559,0.005302021878876381,-0.091313,-34.681184
11.185,2.0,1.0,1.0,34.1,33.7,33.7,2.7,3.2,2.57,0.6031491145002101,-0.017986433811915226,0.7843104398868642,0.005213590818083348,-0.092476,-34.550725
11.185,2.0,1.0,1.0,34.1,33.7,33.7,2.7,3.2,2.5725,0.5961177862409334,-0.018309005289803344,0.7894985051140687,0.005120250213153061,-0.093663,-34.419678
11.185,2.0,1.0,1.0,34.1,33.7,33.7,2.7,3.2,2.575,0.5889957004049411,-0.018637105254778456,0.7946543087869206,0.005021819163361153,-0.094874,-34.288034
11.185,2.0,1.0,1.0,34.1,33.7,33.7,2.7,3.2,2.5775,0.5817819100611338,-0.01897083174039731,0.7997766468381547,0.004918109814894821,-0.09611,-34.15578
11.185,2.0,1.0,1.0,34.1,33.7,33.7,2.7,3.2,2.58,0.5744754605594253,-0.019310284310008193,0.8048642791230285,0.004808927064742202,-0.097373,-34.022907
11.185,2.0,1.0,1.0,34.1,33.7,33.7,2.7,3.2,2.5825,0.5670753897664919,-0.019655564052136327,0.8099159283131956,0.0046940682504067735,-0.098662,-33.889403
11.185,2.0,1.0,1.0,34.1,33.7,33.7,2.7,3.2,2.585,0.5595807283234893,-0.020006773572934428,0.8149302787557974,0.004573322824676191,-0.099979,-33.755258
11.185,2.0,1.0,1.0,34.1,33.7,33.7,2.7,3.2,2.5875,0.5519904999269974,-0.02036401698541528,0.8199059752966222,0.004446472014627077,-0.101324,-33.620459
11.185,2.0,1.0,1.0,34.1,33.7,33.7,2.7,3.2,2.59,0.5443037216345412,-0.020727399895156217,0.8248416220661132,0.004313288463996331,-0.102698,-33.484995
11.185,2.0,1.0,1.0,34.1,33.7,33.7,2.7,3.2,2.5925,0.5365194041960846,-0.021097029382141565,0.8297357812269929,0.004173535857993968,-0.104102,-33.348854
11.185,2.0,1.0,1.0,34.1,33.7,33.7,2.7,3.2,2.595,0.5286365524130059,-0.021473013978379085,0.8345869716821803,0.0040269685295745246,-0.105537,-33.212024
11.185,2.0,1.0,1.0,34.1,33.7,33.7,2.7,3.2,2.5975,0.5206541655260961,-0.021855463640892983,0.8393936677416679,0.003873331046120243,-0.107004,-33.074492
11.185,2.0,1.0,1.0,34.1,33.7,33.7,2.7,3.2,2.6,0.5125712376342452,-0.02224448971966691,0.8441542977469342,0.003712357775421354,-0.108503,-32.936246
11.185,2.0,1.0,1.0,34.1,33.7,33.7,2.7,3.2,2.6025,0.5043867581455626,-0.022640204920066388,0.8488672426514219,0.0035437724297670155,-0.110036,-32.797272
11.185,2.0,1.0,1.0,34.1,33.7,33.7,2.7,3.2,2.605,0.4960997122627528,-0.02304272325923396,0.8535308345555597,0.003367287586881097,-0.111603,-32.657558
11.185,2.0,1.0,1.0,34.1,33.7,33.7,2.7,3.2,2.6075,0.4877090815046947,-0.023452160015904146,0.858143355194711,0.0031826041863533324,-0.113206,-32.51709
11.185,2.0,1.0,1.0,34.1,33.7,33.7,2.7,3.2,2.61,0.47921384426626706,-0.0238686316730351,0.8627030343783871,0.0029894110001263256,-0.114845,-32.375854
11.185,2.0,1.0,1.0,34.1,33.7,33.7,2.7,3.2,2.6125,0.4706129764185747,-0.024292255852602404,0.8672080483789757,0.0027873840755007493,-0.116523,-32.233836
11.185,2.0,1.0,1.0,34.1,33.7,33.7,2.7,3.2,2.615,0.4619054519518481,-0.024723151241840796,0.8716565182681492,0.0025761861490164505,-0.118239,-32.091022
11.185,2.0,1.0,1.0,34.1,33.7,33.7,2.7,3.2,2.6175,0.4530902436634339,-0.025161437510155135,0.8760465081990383,0.0023554660294544077,-0.119995,-31.947397
11.185,2.0,1.0,1.0,34.1,33.7,33.7,2.7,3.2,2.62,0.44416632389340727,-0.025607235215851308,0.8803760236321522,0.0021248579480818933,-0.121793,-31.802945
11.185,2.0,1.0,1.0,34.1,33.7,33.7,2.7,3.2,2.6225,0.4351326653104908,-0.026060665701763176,0.8846430095029437,0.00188398087413161,-0.123634,-31.657652
11.185,2.0,1.0,1.0,34.1,33.7,33.7,2.7,3.2,2.625,0.42598824175114,-0.0265218509787606,0.888845348328778,0.00163243779336424,-0.125518,-31.511501
11.185,2.0,1.0,1.0,34.1,33.7,33.7,2.7,3.2,2.6275,0.4167320291147722,-0.026990913596038887,0.8929808582529863,0.0013698149474082454,-0.127448,-31.364477
11.185,2.0,1.0,1.0,34.1,33.7,33.7,2.7,3.2,2.63,0.40736300631834393,-0.02746797649697857,0.8970472910235212,0.0010956810314066822,-0.129425,-31.216562
11.185,2.0,1.0,1.0,34.1,33.7,33.7,2.7,3.2,2.6325,0.3978801563136376,-0.027953162859257533,0.9010423299036212,0.0008095863473193127,-0.13145,-31.06774
11.185,2.0,1.0,1.0,34.1,33.7,33.7,2.7,3.2,2.635,0.3882824671708312,-0.028446595917771163,0.9049635875117298,0.0005110619100338933,-0.133526,-30.917992
11.185,2.0,1.0,1.0,34.1,33.7,33.7,2.7,3.2,2.6375,0.3785689332321528,-0.028948398768775023,0.9088086035877514,0.00019961850323051803,-0.135653,-30.767303
11.185,2.0,1.0,1.0,34.1,33.7,33.7,2.7,3.2,2.64,0.3687385563396186,-0.029458694153521217,0.9125748426825705,-0.0001252543182886564,-0.137834,-30.615652
11.185,2.0,1.0,1.0,34.1,33.7,33.7,2.7,3.2,2.6425,0.3587903471411554,-0.029977604219481598,0.916259691767546,-0.00046408928333715717,-0.14007,-30.463021
11.185,2.0,1.0,1.0,34.1,33.7,33.7,2.7,3.2,2.645,0.3487233264796372,-0.03050525025707388,0.9198604577605018,-0.0008174425199545836,-0.142363,-30.309391
11.185,2.0,1.0,1.0,34.1,33.7,33.7,2.7,3.2,2.6475,0.3385365268696818,-0.03104175240959698,0.9233743649645082,-0.001185894735986495,-0.144715,-30.154742
11.185,2.0,1.0,1.0,34.1,33.7,33.7,2.7,3.2,2.65,0.3282289940673426,-0.0315872293538547,0.9267985524154934,-0.0015700524690503911,-0.147129,-29.999053
11.185,2.0,1.0,1.0,34.1,33.7,33.7,2.7,3.2,2.6525,0.3177997887382289,-0.03214179794869612,0.9301300711344639,-0.001970549410649661,-0.149605,-29.842304
11.185,2.0,1.0,1.0,34.1,33.7,33.7,2.7,3.2,2.655,0.30724798822988075,-0.032705572848417894,0.9333658812798153,-0.0023880478095768196,-0.152148,-29.684472
11.185,2.0,1.0,1.0,34.1,33.7,33.7,2.7,3.2,2.6575,0.29657268845470103,-0.033278666077664915,0.9365028491948891,-0.002823239960157682,-0.154759,-29.525537
11.185,2.0,1.0,1.0,34.1,33.7,33.7,2.7,3.2,2.66,0.28577300589014043,-0.03386118656411531,0.9395377443455808,-0.0032768497813367033,-0.15744,-29.365474
11.185,2.0,1.0,1.0,34.1,33.7,33.7,2.7,3.2,2.6625,0.2748480797033529,-0.034453239624853985,0.9424672361424085,-0.0037496344930939857,-0.160194,-29.204261
11.185,2.0,1.0,1.0,34.1,33.7,33.7,2.7,3.2,2.665,0.2637970740080141,-0.03505492640190098,0.9452878906410338,-0.004242386397218103,-0.163024,-29.041873
11.185,2.0,1.0,1.0,34.1,33.7,33.7,2.7,3.2,2.6675,0.25261918026163616,-0.0356663432418883,0.947996167114741,-0.004755934770043425,-0.165933,-28.878285
11.185,2.0,1.0,1.0,34.1,33.7,33.7,2.7,3.2,2.67,0.24131361981229563,-0.03628758101433153,0.9505884144918744,-0.005291147875398491,-0.168924,-28.713472
11.185,2.0,1.0,1.0,34.1,33.7,33.7,2.7,3.2,2.6725,0.22987964660441168,-0.036918724362349345,0.9530608676506542,-0.005848935106711623,-0.171999,-28.547407
11.185,2.0,1.0,1.0,34.1,33.7,33.7,2.7,3.2,2.675,0.21831655005399545,-0.03755985087900218,0.9554096435631627,-0.006430249267982908,-0.175163,-28.380063
11.185,2.0,1.0,1.0,34.1,33.7,33.7,2.7,3.2,2.6775,0.20662365810462208,-0.03821103020167099,0.9576307372795856,-0.007036089004171243,-0.178419,-28.211412
11.185,2.0,1.0,1.0,34.1,33.7,33.7,2.7,3.2,2.68,0.19480034047633718,-0.03887232301604218,0.9597200177430438,-0.007667501392462111,-0.18177,-28.041424
11.185,2.0,1.0,1.0,34.1,33.7,33.7,2.7,3.2,2.6825,0.1828460121207705,-0.039543779960313434,0.9616732234244721,-0.008325584706889457,-0.185221,-27.870069
11.185,2.0,1.0,1.0,34.1,33.7,33.7,2.7,3.2,2.685,0.1707601368968716,-0.04022544041915883,0.9634859577660831,-0.009011491369890833,-0.188774,-27.697317
11.185,2.0,1.0,1.0,34.1,33.7,33.7,2.7,3.2,2.6875,0.15854223148301724,-0.04091733119577911,0.9651536844208878,-0.00972643110558897,-0.192436,-27.523135
11.185,2.0,1.0,1.0,34.1,33.7,33.7,2.7,3.2,2.69,0.14619186954269886,-0.04161946504899501,0.9666717222746112,-0.010471674310925501,-0.19621,-27.347491
11.185,2.0,1.0,1.0,34.1,33.7,33.7,2.7,3.2,2.6925,0.133708686162599,-0.04233183908079626,0.9680352402350432,-0.01124855566224192,-0.200102,-27.170349
11.185,2.0,1.0,1.0,34.1,33.7,33.7,2.7,3.2,2.695,0.1210923825837758,-0.04305443295801101,0.9692392517724543,-0.012058477976512504,-0.204115,-26.991674
11.185,2.0,1.0,1.0,34.1,33.7,33.7,2.7,3.2,2.6975,0.10834273124864559,-0.04378720694977593,0.9702786091931269,-0.012902916348212836,-0.208257,-26.81143
11.185,2.0,1.0,1.0,34.1,33.7,33.7,2.7,3.2,2.7,0.09545958118889102,-0.04453009976024103,0.9711479976263139,-0.013783422584758549,-0.212531,-26.629578
11.185,2.0,1.0,1.0,34.1,33.7,33.7,2.7,3.2,2.7025,0.08244286378196299,-0.04528302613338778,0.9718419287029921,-0.01470162996560428,-0.216946,-26.446078
11.185,2.0,1.0,1.0,34.1,33.7,33.7,2.7,3.2,2.705,0.06929259890689808,-0.04604587420393189,0.9723547339026364,-0.015659258352462367,-0.221506,-26.26089
11.185,2.0,1.0,1.0,34.1,33.7,33.7,2.7,3.2,2.7075,0.05600890153351925,-0.04681850256497266,0.972680557541852,-0.01665811968071647,-0.226219,-26.073971
11.185,2.0,1.0,1.0,34.1,33.7,33.7,2.7,3.2,2.71,0.042591988782953845,-0.047600737019268764,0.9728133493760612,-0.01770012386498384,-0.231093,-25.885277
11.185,2.0,1.0,1.0,34.1,33.7,33.7,2.7,3.2,2.7125,0.02904218750177234,-0.048392366976707714,0.9727468567825042,-0.018787285154959685,-0.236134,-25.694762
11.185,2.0,1.0,1.0,34.1,33.7,33.7,2.7,3.2,2.715,0.015359942397071747,-0.04919314145559015,0.9724746164895678,-0.019921728981174856,-0.241351,-25.502378
11.185,2.0,1.0,1.0,34.1,33.7,33.7,2.7,3.2,2.7175,0.0015458247855293572,-0.05000276463969132,0.9719899458138326,-0.021105699334161513,-0.246754,-25.308075
11.185,2.0,1.0,1.0,34.1,33.7,33.7,2.7,3.2,2.72,-0.01239945798396437,-0.0508208909365599,0.9712859333622507,-0.022341566724772062,-0.25235,-25.111803
11.185,2.0,1.0,1.0,34.1,33.7,33.7,2.7,3.2,2.7225,-0.026475052367016874,-0.05164711947504395,0.9703554291524255,-0.023631836778089315,-0.258151,-24.913506
11.185,2.0,1.0,1.0,34.1,33.7,33.7,2.7,3.2,2.725,-0.04067994764396895,-0.05248098797142484,0.9691910340990774,-0.02497915951851803,-0.264168,-24.71313
11.185,2.0,1.0,1.0,34.1,33.7,33.7,2.7,3.2,2.7275,-0.05501296403798021,-0.053321965883622154,0.9677850888093471,-0.026386339409336754,-0.270411,-24.510616
11.185,2.0,1.0,1.0,34.1,33.7,33.7,2.7,3.2,2.73,-0.06947273983366904,-0.05416944676146369,0.9661296616236352,-0.02785634621621978,-0.276893,-24.305904
11.185,2.0,1.0,1.0,34.1,33.7,33.7,2.7,3.2,2.7325,-0.08405771738579383,-0.05502273968775128,0.96421653583207,-0.0293923267710968,-0.283627,-24.098929
11.185,2.0,1.0,1.0,34.1,33.7,33.7,2.7,3.2,2.735,-0.0987661278919804,-0.055881059689477756,0.9620371959894584,-0.030997617720218053,-0.290628,-23.889626
11.185,2.0,1.0,1.0,34.1,33.7,33.7,2.7,3.2,2.7375,-0.11359597478564476,-0.05674351698069814,0.9595828132436265,-0.03267575934850297,-0.297911,-23.677926
11.185,2.0,1.0,1.0,34.1,33.7,33.7,2.7,3.2,2.74,-0.12854501558440834,-0.05760910487779704,0.9568442295833598,-0.034430510581192654,-0.305493,-23.463757
11.185,2.0,1.0,1.0,34.1,33.7,33.7,2.7,3.2,2.7425,-0.14361074200509008,-0.058476686203699973,0.9538119409026778,-0.03626586527354894,-0.31339,-23.247042
11.185,2.0,1.0,1.0,34.1,33.7,33.7,2.7,3.2,2.745,-0.15879035812803105,-0.05934497796934791,0.9504760787679141,-0.03818606990985299,-0.321624,-23.027705
11.185,2.0,1.0,1.0,34.1,33.7,33.7,2.7,3.2,2.7475,-0.17408075636040765,-0.06021253408773207,0.9468263907629807,-0.040195642844260165,-0.330213,-22.80566
11.185,2.0,1.0,1.0,34.1,33.7,33.7,2.7,3.2,2.75,-0.189478490909433,-0.0610777258371203,0.942852219276372,-0.0422993952281388,-0.339182,-22.580824
11.185,2.0,1.0,1.0,34.1,33.7,33.7,2.7,3.2,2.7525,-0.2049797484308114,-0.06193871974471708,0.9385424785808784,-0.04450245378128301,-0.348554,-22.353104
11.185,2.0,1.0,1.0,34.1,33.7,33.7,2.7,3.2,2.755,-0.2205803154642834,-0.06279345250863833,0.9338856300438879,-0.046810285577717124,-0.358356,-22.122406
11.185,2.0,1.0,1.0,34.1,33.7,33.7,2.7,3.2,2.7575,-0.2362755422051094,-0.06363960251323013,0.9288696552926059,-0.04922872503050353,-0.368618,-21.888631
11.185,2.0,1.0,1.0,34.1,33.7,33.7,2.7,3.2,2.76,-0.25206030208581326,-0.06447455741858267,0.9234820271450469,-0.051764003273676425,-0.37937,-21.651674
11.185,2.0,1.0,1.0,34.1,33.7,33.7,2.7,3.2,2.7625,-0.26792894655462385,-0.06529537721739263,0.9177096781044808,-0.054422780152713304,-0.390647,-21.411426
11.185,2.0,1.0,1.0,34.1,33.7,33.7,2.7,3.2,2.765,-0.28387525433271615,-0.06609875204843756,0.9115389662030886,-0.05721217904709107,-0.402488,-21.167771
11.185,2.0,1.0,1.0,34.1,33.7,33.7,2.7,3.2,2.7675,-0.2998923743086726,-0.06688095393265626,0.904955637970689,-0.06013982475851923,-0.414934,-20.92059
11.185,2.0,1.0,1.0,34.1,33.7,33.7,2.7,3.2,2.77,-0.31597276108147343,-0.06763778145125361,0.897944788298034,-0.06321388470499631,-0.42803,-20.669754
11.185,2.0,1.0,1.0,34.1,33.7,33.7,2.7,3.2,2.7725,-0.33210810198811663,-0.06836449621069077,0.8904908169631636,-0.06644311366201631,-0.441826,-20.41513
11.185,2.0,1.0,1.0,34.1,33.7,33.7,2.7,3.2,2.775,-0.34828923424291963,-0.06905574973116,0.8825773815963873,-0.06983690228543706,-0.456377,-20.156577
11.185,2.0,1.0,1.0,34.1,33.7,33.7,2.7,3.2,2.7775,-0.36450605056576946,-0.06970549914625383,0.8741873468780953,-0.07340532963211949,-0.471745,-19.893948
11.185,2.0,1.0,1.0,34.1,33.7,33.7,2.7,3.2,2.78,-0.38074739137760444,-0.07030690980364207,0.8653027297988657,-0.07715921985955743,-0.487998,-19.627087
11.185,2.0,1.0,1.0,34.1,33.7,33.7,2.7,3.2,2.7825,-0.3970009212829988,-0.07085224249949858,0.8559046408698403,-0.08111020322763927,-0.50521,-19.35583
11.185,2.0,1.0,1.0,34.1,33.7,33.7,2.7,3.2,2.785,-0.4132529871297949,-0.0713327226508641,0.8459732212622418,-0.08527078143536089,-0.523464,-19.080004
11.185,2.0,1.0,1.0,34.1,33.7,33.7,2.7,3.2,2.7875,-0.4294884544189557,-0.07173838819525767,0.8354875759906567,-0.08965439719032904,-0.542854,-18.799427
11.185,2.0,1.0,1.0,34.1,33.7,33.7,2.7,3.2,2.79,-0.44569051821682143,-0.07205791238773805,0.8244257034520659,-0.09427550771253987,-0.563483,-18.513907
11.185,2.0,1.0,1.0,34.1,33.7,33.7,2.7,3.2,2.7925,-0.4618404839747614,-0.07227839692087132,0.8127644219145388,-0.09914966159333638,-0.585469,-18.223244
11.185,2.0,1.0,1.0,34.1,33.7,33.7,2.7,3.2,2.795,-0.47791751276276706,-0.07238512989714775,0.8004792939469353,-0.10429357803476856,-0.608941,-17.927223
11.185,2.0,1.0,1.0,34.1,33.7,33.7,2.7,3.2,2.7975,-0.49389832434320086,-0.07236130210623519,0.7875445503362724,-0.10972522694165403,-0.634048,-17.625622
11.185,2.0,1.0,1.0,34.1,33.7,33.7,2.7,3.2,2.8,-0.5097568502143258,-0.07218767376609718,0.7739330158096127,-0.11546390757146015,-0.660956,-17.318206
11.185,2.0,1.0,1.0,34.1,33.7,33.7,2.7,3.2,2.8025,-0.5254638271998541,-0.07184218233755132,0.7596160399407157,-0.12153032238783805,-0.689854,-17.004727
11.185,2.0,1.0,1.0,34.1,33.7,33.7,2.7,3.2,2.805,-0.5409863203070817,-0.0712994801722623,0.744563438084011,-0.12794664130660657,-0.720956,-16.684926
11.185,2.0,1.0,1.0,34.1,33.7,33.7,2.7,3.2,2.8075,-0.5562871613755874,-0.07053038855807886,0.7287434491840584,-0.1347365495243044,-0.754507,-16.35853
11.185,2.0,1.0,1.0,34.1,33.7,33.7,2.7,3.2,2.81,-0.5713242874465805,-0.06950125213843036,0.7121227200538622,-0.14192526938331787,-0.790787,-16.025257
11.185,2.0,1.0,1.0,34.1,33.7,33.7,2.7,3.2,2.8125,-0.58604995976466,-0.0681731746689249,0.694666329466963,-0.149539542987852,-0.830116,-15.684809
11.185,2.0,1.0,1.0,34.1,33.7,33.7,2.7,3.2,2.815,-0.6004098408670996,-0.06650111362196225,0.6763378705284036,-0.15760755718025504,-0.872866,-15.33688
11.185,2.0,1.0,1.0,34.1,33.7,33.7,2.7,3.2,2.8175,-0.614341903354926,-0.06443280729286392,0.6570996167691391,-0.16615878552783592,-0.919463,-14.98115
11.185,2.0,1.0,1.0,34.1,33.7,33.7,2.7,3.2,2.82,-0.6277751397948584,-0.06190750391749537,0.6369128069087607,-0.17522371249612018,-0.970406,-14.617294
11.185,2.0,1.0,1.0,34.1,33.7,33.7,2.7,3.2,2.8225,-0.6406280390406456,-0.058854458149261143,0.615738096139341,-0.18483339211043404,-1.026271,-14.244978
11.185,2.0,1.0,1.0,34.1,33.7,33.7,2.7,3.2,2.825,-0.6528067906084367,-0.05519115658256088,0.5935362392760201,-0.19501877595875095,-1.087738,-13.863866
11.185,2.0,1.0,1.0,34.1,33.7,33.7,2.7,3.2,2.8275,-0.6642031765341663,-0.05082123178740661,0.570269094738436,-0.20580972182670254,-1.1556,-13.473627
