1,w,sub_t,h,l1,l2,l3,g1,g2,Freq,S11_re,S21_re,S11_img,S21_img,S11_dB,S21_dB
11.185,2.0,1.0,1.0,33.2,33.6,33.6,1.6,2.4,2.5,0.87574853060107,-0.0111521107601587,0.467851985987568,0.0126989259040367,-0.062019,-35.441927
11.185,2.0,1.0,1.0,33.2,33.6,33.6,1.6,2.4,2.5025,0.8725917882599201,-0.011406604957405092,0.4735567333877571,0.012799423119572531,-0.062674,-35.317474
11.185,2.0,1.0,1.0,33.2,33.6,33.6,1.6,2.4,2.505,0.869382547294495,-0.011666447684361642,0.4792650139370045,0.012899841329421161,-0.063341,-35.192575
11.185,2.0,1.0,1.0,33.2,33.6,33.6,1.6,2.4,2.5075,0.8661202111034455,-0.011931766116576594,0.48497664821989495,0.013000144385850936,-0.064022,-35.067221
11.185,2.0,1.0,1.0,33.2,33.6,33.6,1.6,2.4,2.51,0.8628041714385974,-0.012202691142309773,0.4906914500605519,0.01310029423841511,-0.064716,-34.941403
11.185,2.0,1.0,1.0,33.2,33.6,33.6,1.6,2.4,2.5125,0.8594338081333625,-0.012479357490417394,0.49640922625541206,0.013200250836972077,-0.065423,-34.815111
11.185,2.0,1.0,1.0,33.2,33.6,33.6,1.6,2.4,2.515,0.8560084888235784,-0.012761903863245602,0.5021297762949801,0.013299972029460056,-0.066145,-34.688336
11.185,2.0,1.0,1.0,33.2,33.6,33.6,1.6,2.4,2.5175,0.8525275686605412,-0.013050473074749732,0.507852892074033,0.013399413454118563,-0.066882,-34.561068
11.185,2.0,1.0,1.0,33.2,33.6,33.6,1.6,2.4,2.52,0.8489903900159557,-0.01334521219406972,0.5135783575897471,0.013498528425828054,-0.067634,-34.433298
11.185,2.0,1.0,1.0,33.2,33.6,33.6,1.6,2.4,2.5225,0.845396282178543,-0.013646272694800007,0.5193059486271503,0.013597267816218409,-0.068401,-34.305015
11.185,2.0,1.0,1.0,33.2,33.6,33.6,1.6,2.4,2.525,0.8417445610420182,-0.013953810610206006,0.5250354324313172,0.013695579927173967,-0.069184,-34.17621
11.185,2.0,1.0,1.0,33.2,33.6,33.6,1.6,2.4,2.5275,0.8380345287841398,-0.01426798669465,0.5307665673656583,0.013793410357338729,-0.069983,-34.046872
11.185,2.0,1.0,1.0,33.2,33.6,33.6,1.6,2.4,2.53,0.8342654735365367,-0.014588966591502028,0.536499102555624,0.01389070186119848,-0.070799,-33.916991
11.185,2.0,1.0,1.0,33.2,33.6,33.6,1.6,2.4,2.5325,0.8304366690449894,-0.014916921007824305,0.5422327775171224,0.01398739420028937,-0.071632,-33.786557
11.185,2.0,1.0,1.0,33.2,33.6,33.6,1.6,2.4,2.535,0.8265473743198332,-0.015252025896132913,0.5479673217688924,0.014083423986051832,-0.072483,-33.655559
11.185,2.0,1.0,1.0,33.2,33.6,33.6,1.6,2.4,2.5375,0.8225968332761517,-0.01559446264355254,0.5537024544280333,0.014178724513816562,-0.073352,-33.523985
11.185,2.0,1.0,1.0,33.2,33.6,33.6,1.6,2.4,2.54,0.8185842743633925,-0.015944418268697837,0.5594378837878574,0.014273225587374696,-0.07424,-33.391825
11.185,2.0,1.0,1.0,33.2,33.6,33.6,1.6,2.4,2.5425,0.8145089101840434,-0.016302085626629045,0.5651733068771729,0.014366853333547144,-0.075147,-33.259067
11.185,2.0,1.0,1.0,33.2,33.6,33.6,1.6,2.4,2.545,0.8103699371009787,-0.01666766362224727,0.5709084090000547,0.014459530006127824,-0.076074,-33.1257
11.185,2.0,1.0,1.0,33.2,33.6,33.6,1.6,2.4,2.5475,0.8061665348330835,-0.017041357432511596,0.5766428632551012,0.014551173778532116,-0.077022,-32.991713
11.185,2.0,1.0,1.0,33.2,33.6,33.6,1.6,2.4,2.55,0.8018978660387263,-0.017423378737879636,0.5823763300331356,0.014641698524437268,-0.07799,-32.857093
11.185,2.0,1.0,1.0,33.2,33.6,33.6,1.6,2.4,2.5525,0.7975630758866642,-0.01781394596339058,0.5881084564922078,0.014731013585649001,-0.078981,-32.721828
11.185,2.0,1.0,1.0,33.2,33.6,33.6,1.6,2.4,2.555,0.7931612916139179,-0.018213284529832015,0.5938388760087308,0.014819023526377512,-0.079993,-32.585906
11.185,2.0,1.0,1.0,33.2,33.6,33.6,1.6,2.4,2.5575,0.7886916220701512,-0.018621627115451133,0.5995672076034818,0.014905627873046957,-0.081029,-32.449314
11.185,2.0,1.0,1.0,33.2,33.6,33.6,1.6,2.4,2.56,0.7841531572480736,-0.019039213928693757,0.6052930553411289,0.014990720838700112,-0.082089,-32.312041
11.185,2.0,1.0,1.0,33.2,33.6,33.6,1.6,2.4,2.5625,0.7795449677993572,-0.019466292992476857,0.6110160077018628,0.015074191030994544,-0.083173,-32.174071
11.185,2.0,1.0,1.0,33.2,33.6,33.6,1.6,2.4,2.565,0.7748661045355376,-0.01990312044052596,0.6167356369236308,0.015155921142711614,-0.084283,-32.035394
11.185,2.0,1.0,1.0,33.2,33.6,33.6,1.6,2.4,2.5675,0.7701155979133624,-0.02034996082633091,0.6224514983133507,0.015235787623623955,-0.085418,-31.895994
11.185,2.0,1.0,1.0,33.2,33.6,33.6,1.6,2.4,2.57,0.7652924575040129,-0.020807087445302613,0.6281631295254142,0.015313660332481903,-0.086581,-31.755858
11.185,2.0,1.0,1.0,33.2,33.6,33.6,1.6,2.4,2.5725,0.7603956714456094,-0.02127478267073824,0.6338700498056495,0.015389402167788217,-0.087771,-31.614972
11.185,2.0,1.0,1.0,33.2,33.6,33.6,1.6,2.4,2.575,0.7554242058783897,-0.021753338304232064,0.6395717591988126,0.015462868675931269,-0.08899,-31.473322
11.185,2.0,1.0,1.0,33.2,33.6,33.6,1.6,2.4,2.5775,0.7503770043619243,-0.022243055941197427,0.6452677377175379,0.015533907635143415,-0.090239,-31.330892
11.185,2.0,1.0,1.0,33.2,33.6,33.6,1.6,2.4,2.58,0.7452529872737134,-0.02274424735219544,0.6509574444705509,0.015602358613632097,-0.091518,-31.18767
11.185,2.0,1.0,1.0,33.2,33.6,33.6,1.6,2.4,2.5825,0.7400510511884708,-0.023257234880799612,0.6566403167477952,0.015668052500109848,-0.092829,-31.043638
11.185,2.0,1.0,1.0,33.2,33.6,33.6,1.6,2.4,2.585,0.7347700682373994,-0.023782351858754748,0.6623157690599625,0.015730811004813723,-0.094173,-30.898781
11.185,2.0,1.0,1.0,33.2,33.6,33.6,1.6,2.4,2.5875,0.7294088854467109,-0.02431994303922502,0.6679831921297589,0.015790446128956952,-0.095551,-30.753084
11.185,2.0,1.0,1.0,33.2,33.6,33.6,1.6,2.4,2.59,0.7239663240546413,-0.02487036504895828,0.6736419518320302,0.015846759600399465,-0.096964,-30.606531
11.185,2.0,1.0,1.0,33.2,33.6,33.6,1.6,2.4,2.5925,0.7184411788061655,-0.025433986860230143,0.6792913880797035,0.01589954227315065,-0.098412,-30.459104
11.185,2.0,1.0,1.0,33.2,33.6,33.6,1.6,2.4,2.595,0.7128322172246124,-0.026011190283466663,0.684930813652247,0.015948573488131258,-0.099899,-30.310788
11.185,2.0,1.0,1.0,33.2,33.6,33.6,1.6,2.4,2.5975,0.7071381788593294,-0.026602370481481827,0.6905595129631676,0.015993620392418893,-0.101424,-30.161564
11.185,2.0,1.0,1.0,33.2,33.6,33.6,1.6,2.4,2.6,0.7013577745085391,-0.02720793650630235,0.6961767407627658,0.016034437213981744,-0.102989,-30.011415
11.185,2.0,1.0,1.0,33.2,33.6,33.6,1.6,2.4,2.6025,0.6954896854165077,-0.027828311859589366,0.7017817207721257,0.016070764488665068,-0.104596,-29.860324
11.185,2.0,1.0,1.0,33.2,33.6,33.6,1.6,2.4,2.605,0.6895325624441004,-0.02846393507770505,0.7073736442440199,0.01610232823593517,-0.106247,-29.708271
11.185,2.0,1.0,1.0,33.2,33.6,33.6,1.6,2.4,2.6075,0.6834850252118001,-0.02911526034250764,0.7129516684460789,0.01612883907960173,-0.107942,-29.555238
11.185,2.0,1.0,1.0,33.2,33.6,33.6,1.6,2.4,2.61,0.677345661214232,-0.02978275811899502,0.7185149150612405,0.016149991309431018,-0.109683,-29.401206
11.185,2.0,1.0,1.0,33.2,33.6,33.6,1.6,2.4,2.6125,0.6711130249052223,-0.030466915820952872,0.7240624685001125,0.016165461879225105,-0.111472,-29.246154
11.185,2.0,1.0,1.0,33.2,33.6,33.6,1.6,2.4,2.615,0.6647856367523987,-0.03116823850579492,0.7295933741194855,0.016174909336577017,-0.113312,-29.090064
11.185,2.0,1.0,1.0,33.2,33.6,33.6,1.6,2.4,2.6175,0.6583619822603395,-0.031887249599814906,0.7351066363407692,0.016177972679108935,-0.115203,-28.932913
11.185,2.0,1.0,1.0,33.2,33.6,33.6,1.6,2.4,2.62,0.6518405109612617,-0.032624491655097204,0.7406012166616666,0.016174270131565794,-0.117148,-28.774681
11.185,2.0,1.0,1.0,33.2,33.6,33.6,1.6,2.4,2.6225,0.6452196353722357,-0.03338052713935615,0.7460760315538671,0.016163397837656985,-0.119149,-28.615347
11.185,2.0,1.0,1.0,33.2,33.6,33.6,1.6,2.4,2.625,0.638497729917936,-0.0341559392599926,0.751529950238955,0.0161449284600181,-0.121208,-28.454887
11.185,2.0,1.0,1.0,33.2,33.6,33.6,1.6,2.4,2.6275,0.6316731298179221,-0.03495133282366848,0.7569617923341426,0.01611840968109253,-0.123328,-28.29328
11.185,2.0,1.0,1.0,33.2,33.6,33.6,1.6,2.4,2.63,0.6247441299374995,-0.03576733513270295,0.7623703253587157,0.016083362597107576,-0.125511,-28.130502
11.185,2.0,1.0,1.0,33.2,33.6,33.6,1.6,2.4,2.6325,0.6177089836012163,-0.03660459691958759,0.7677542620913745,0.016039279996635385,-0.127759,-27.966529
11.185,2.0,1.0,1.0,33.2,33.6,33.6,1.6,2.4,2.635,0.6105659013681277,-0.03746379332090076,0.7731122577678191,0.015985624514476843,-0.130075,-27.801337
11.185,2.0,1.0,1.0,33.2,33.6,33.6,1.6,2.4,2.6375,0.6033130497680108,-0.03834562489186559,0.7784429071070523,0.01592182665078463,-0.132462,-27.634901
11.185,2.0,1.0,1.0,33.2,33.6,33.6,1.6,2.4,2.64,0.5959485499977889,-0.03925081866275041,0.7837447411539171,0.01584728264443709,-0.134923,-27.467194
11.185,2.0,1.0,1.0,33.2,33.6,33.6,1.6,2.4,2.6425,0.588470476577566,-0.040180129238233074,0.7890162239242942,0.015761352188681597,-0.137461,-27.298191
11.185,2.0,1.0,1.0,33.2,33.6,33.6,1.6,2.4,2.645,0.5808768559657805,-0.04113433994075883,0.7942557488382578,0.01566335597597551,-0.14008,-27.127864
11.185,2.0,1.0,1.0,33.2,33.6,33.6,1.6,2.4,2.6475,0.5731656651331697,-0.04211426399879104,0.7994616349251837,0.015552573057754003,-0.142782,-26.956185
11.185,2.0,1.0,1.0,33.2,33.6,33.6,1.6,2.4,2.65,0.5653348300954407,-0.04312074578069599,0.8046321227834348,0.015428238003531745,-0.145572,-26.783127
11.185,2.0,1.0,1.0,33.2,33.6,33.6,1.6,2.4,2.6525,0.5573822244048194,-0.044154662074791705,0.809765370275674,0.015289537842293584,-0.148454,-26.608659
11.185,2.0,1.0,1.0,33.2,33.6,33.6,1.6,2.4,2.655,0.5493056676009184,-0.04521692341584472,0.8148594479392062,0.015135608767526077,-0.151431,-26.432751
11.185,2.0,1.0,1.0,33.2,33.6,33.6,1.6,2.4,2.6575,0.5411029236217783,-0.04630847545797719,0.8199123340888633,0.014965532585474403,-0.154508,-26.255372
11.185,2.0,1.0,1.0,33.2,33.6,33.6,1.6,2.4,2.66,0.532771699176352,-0.047430300393567354,0.824921909587919,0.01477833288426194,-0.15769,-26.076491
11.185,2.0,1.0,1.0,33.2,33.6,33.6,1.6,2.4,2.6625,0.5243096420802631,-0.04858341841725698,0.8298859522602405,0.01457297089935422,-0.160981,-25.896075
11.185,2.0,1.0,1.0,33.2,33.6,33.6,1.6,2.4,2.665,0.5157143395572663,-0.04976888923361917,0.8348021309144437,0.014348341048474057,-0.164387,-25.714089
11.185,2.0,1.0,1.0,33.2,33.6,33.6,1.6,2.4,2.6675,0.5069833165096453,-0.050987813606355174,0.8396679989480201,0.01410326610644077,-0.167913,-25.5305
11.185,2.0,1.0,1.0,33.2,33.6,33.6,1.6,2.4,2.67,0.4981140337616335,-0.05224133494607982,0.8444809874964255,0.013836491987503126,-0.171565,-25.345271
11.185,2.0,1.0,1.0,33.2,33.6,33.6,1.6,2.4,2.6725,0.4891038862810244,-0.05353064093277888,0.8492383980887452,0.013546682099508586,-0.17535,-25.158366
11.185,2.0,1.0,1.0,33.2,33.6,33.6,1.6,2.4,2.675,0.47995020138541294,-0.054856965167856986,0.8539373947678603,0.01323241123069099,-0.179273,-24.969747
11.185,2.0,1.0,1.0,33.2,33.6,33.6,1.6,2.4,2.6775,0.4706502369409622,-0.056221588849314975,0.8585749956289442,0.01289215892589993,-0.183342,-24.779374
11.185,2.0,1.0,1.0,33.2,33.6,33.6,1.6,2.4,2.68,0.4612011795633673,-0.05762584246194725,0.8631480637255936,0.012524302304714146,-0.187564,-24.587209
11.185,2.0,1.0,1.0,33.2,33.6,33.6,1.6,2.4,2.6825,0.4516001428327601,-0.05907110747249671,0.8676532972878648,0.012127108269015393,-0.191948,-24.393209
11.185,2.0,1.0,1.0,33.2,33.6,33.6,1.6,2.4,2.685,0.4418441655367246,-0.06055881801739114,0.8720872191909287,0.011698725042199478,-0.196501,-24.197332
11.185,2.0,1.0,1.0,33.2,33.6,33.6,1.6,2.4,2.6875,0.4319302099584873,-0.062090462567938334,0.876446165606888,0.0112371729762021,-0.201233,-23.999533
11.185,2.0,1.0,1.0,33.2,33.6,33.6,1.6,2.4,2.69,0.4218551602307511,-0.06366758555460833,0.8807262737654323,0.010740334555855725,-0.206153,-23.799768
11.185,2.0,1.0,1.0,33.2,33.6,33.6,1.6,2.4,2.6925,0.4116158207796054,-0.06529178892818932,0.8849234687414328,0.010205943522681477,-0.211272,-23.59799
11.185,2.0,1.0,1.0,33.2,33.6,33.6,1.6,2.4,2.695,0.4012089148877332,-0.06696473363104871,0.8890334491790866,0.009631573031989431,-0.216601,-23.39415
11.185,2.0,1.0,1.0,33.2,33.6,33.6,1.6,2.4,2.6975,0.3906310834116156,-0.0686881409463568,0.8930516718528928,0.009014622747993733,-0.222152,-23.188199
11.185,2.0,1.0,1.0,33.2,33.6,33.6,1.6,2.4,2.7,0.37987888369408424,-0.07046379368676006,0.8969733349552623,0.008352304771464283,-0.227937,-22.980085
11.185,2.0,1.0,1.0,33.2,33.6,33.6,1.6,2.4,2.7025,0.36894878872123976,-0.07229353717646544,0.9007933599890123,0.007641628283097169,-0.23397,-22.769756
11.185,2.0,1.0,1.0,33.2,33.6,33.6,1.6,2.4,2.705,0.3578371865819581,-0.07417927997178773,0.904506372130094,0.006879382773177142,-0.240266,-22.557155
11.185,2.0,1.0,1.0,33.2,33.6,33.6,1.6,2.4,2.7075,0.34654038029894796,-0.07612299425467206,0.9081066789116016,0.006062119714079849,-0.24684,-22.342227
11.185,2.0,1.0,1.0,33.2,33.6,33.6,1.6,2.4,2.71,0.3350545881131204,-0.07812671582122098,0.9115882470642014,0.005186132516564268,-0.25371,-22.124914
11.185,2.0,1.0,1.0,33.2,33.6,33.6,1.6,2.4,2.7125,0.323375944318066,-0.08019254357247879,0.9149446773304553,0.004247434593475303,-0.260894,-21.905154
11.185,2.0,1.0,1.0,33.2,33.6,33.6,1.6,2.4,2.715,0.311500500759308,-0.08232263839720749,0.9181691770509242,0.0032417353352273645,-0.268411,-21.682885
11.185,2.0,1.0,1.0,33.2,33.6,33.6,1.6,2.4,2.7175,0.2994242291340908,-0.08451922131562606,0.9212545302981866,0.0021644137800827298,-0.276283,-21.458043
11.185,2.0,1.0,1.0,33.2,33.6,33.6,1.6,2.4,2.72,0.287143024252507,-0.0867845707284427,0.9241930653108489,0.0010104897385750705,-0.284533,-21.230561
11.185,2.0,1.0,1.0,33.2,33.6,33.6,1.6,2.4,2.7225,0.2746527084503914,-0.08912101858627501,0.9269766189529968,-0.0002254078947555649,-0.293186,-21.000369
11.185,2.0,1.0,1.0,33.2,33.6,33.6,1.6,2.4,2.725,0.2619490373796716,-0.09153094525978991,0.9295964978951674,-0.001549075938047163,-0.302269,-20.767397
11.185,2.0,1.0,1.0,33.2,33.6,33.6,1.6,2.4,2.7275,0.24902770744359992,-0.09401677284961076,0.9320434361805939,-0.002966775154783601,-0.311811,-20.531571
11.185,2.0,1.0,1.0,33.2,33.6,33.6,1.6,2.4,2.73,0.2358843651940642,-0.09658095662587445,0.934307548804989,-0.00448527228492557,-0.321844,-20.292813
11.185,2.0,1.0,1.0,33.2,33.6,33.6,1.6,2.4,2.7325,0.2225146190672297,-0.09922597422882157,0.9363782808993798,-0.006111886275160605,-0.332403,-20.051047
11.185,2.0,1.0,1.0,33.2,33.6,33.6,1.6,2.4,2.735,0.20891405390422266,-0.10195431219206944,0.9382443520633788,-0.007854539150407966,-0.343527,-19.806188
11.185,2.0,1.0,1.0,33.2,33.6,33.6,1.6,2.4,2.7375,0.19507824878740435,-0.10476844926707418,0.9398936953507742,-0.009721812013515513,-0.355255,-19.558154
11.185,2.0,1.0,1.0,33.2,33.6,33.6,1.6,2.4,2.74,0.18100279882289805,-0.10767083592806062,0.9413133903606377,-0.011723006708018744,-0.367635,-19.306858
11.185,2.0,1.0,1.0,33.2,33.6,33.6,1.6,2.4,2.7425,0.16668334161939996,-0.1106638693181999,0.9424895898355846,-0.01386821372956438,-0.380714,-19.052208
11.185,2.0,1.0,1.0,33.2,33.6,33.6,1.6,2.4,2.745,0.15211558935601643,-0.11374986275620504,0.9434074391150935,-0.016168387024446524,-0.394547,-18.794113
11.185,2.0,1.0,1.0,33.2,33.6,33.6,1.6,2.4,2.7475,0.1372953675023118,-0.11693100875318442,0.9440509877368787,-0.018635426367621537,-0.409193,-18.532477
11.185,2.0,1.0,1.0,33.2,33.6,33.6,1.6,2.4,2.75,0.12221866145769,-0.120209334287025,0.944403092424927,-0.0212822680659142,-0.424719,-18.267199
11.185,2.0,1.0,1.0,33.2,33.6,33.6,1.6,2.4,2.7525,0.10688167262114304,-0.123586646839134,0.9444453106512644,-0.024122984782488848,-0.441196,-17.998179
11.185,2.0,1.0,1.0,33.2,33.6,33.6,1.6,2.4,2.755,0.09128088569436252,-0.1270644694081521,0.9441577839133932,-0.027172895322566743,-0.458704,-17.725312
11.185,2.0,1.0,1.0,33.2,33.6,33.6,1.6,2.4,2.7575,0.07541314937053889,-0.1306439623678282,0.9435191098353998,-0.030448685252899767,-0.47733,-17.448489
11.185,2.0,1.0,1.0,33.2,33.6,33.6,1.6,2.4,2.76,0.05927577297935981,-0.13432582962038608,0.9425062021850552,-0.03396853924176536,-0.497172,-17.167601
11.185,2.0,1.0,1.0,33.2,33.6,33.6,1.6,2.4,2.7625,0.04286664215874167,-0.1381102059992318,0.9410941379110955,-0.037752285992749185,-0.518337,-16.882533
11.185,2.0,1.0,1.0,33.2,33.6,33.6,1.6,2.4,2.765,0.02618435722161578,-0.14199652228014834,0.939255990357538,-0.0418215565912395,-0.540947,-16.593169
11.185,2.0,1.0,1.0,33.2,33.6,33.6,1.6,2.4,2.7675,0.009228398599548944,-0.14598334345017336,0.9369626479229894,-0.04619995696963084,-0.565133,-16.299392
11.185,2.0,1.0,1.0,33.2,33.6,33.6,1.6,2.4,2.77,-0.008000675404859405,-0.15006817503735695,0.934182617626637,-0.05091325500162576,-0.591046,-16.00108
11.185,2.0,1.0,1.0,33.2,33.6,33.6,1.6,2.4,2.7725,-0.025500992314423376,-0.15424723129904072,0.9308818133514025,-0.05598958242526839,-0.618851,-15.698114
11.185,2.0,1.0,1.0,33.2,33.6,33.6,1.6,2.4,2.775,-0.043269083183426184,-0.15851515787525508,0.927023329002225,-0.061459651324926805,-0.648736,-15.390369
11.185,2.0,1.0,1.0,33.2,33.6,33.6,1.6,2.4,2.7775,-0.061299545462976536,-0.16286470010956988,0.9225671975018362,-0.0673569842161871,-0.680908,-15.077723
11.185,2.0,1.0,1.0,33.2,33.6,33.6,1.6,2.4,2.78,-0.07958464052169545,-0.1672863065942874,0.9174701375251176,-0.07371815579725745,-0.715605,-14.760056
11.185,2.0,1.0,1.0,33.2,33.6,33.6,1.6,2.4,2.7825,-0.0981138133957378,-0.17176765558455231,0.911685291248684,-0.08058304305371224,-0.753092,-14.437246
11.185,2.0,1.0,1.0,33.2,33.6,33.6,1.6,2.4,2.785,-0.1168731201325874,-0.17629308972799942,0.9051619582994029,-0.0879950784958172,-0.793667,-14.109178
11.185,2.0,1.0,1.0,33.2,33.6,33.6,1.6,2.4,2.7875,-0.13584454559060197,-0.18084294206799903,0.8978453337004714,-0.09600149869337461,-0.837672,-13.77574
11.185,2.0,1.0,1.0,33.2,33.6,33.6,1.6,2.4,2.79,-0.15500519178121286,-0.18539273351995902,0.8896762611646906,-0.10465357672430443,-0.885492,-13.436829
11.185,2.0,1.0,1.0,33.2,33.6,33.6,1.6,2.4,2.7925,-0.1743263138553329,-0.1899122190544455,0.8805910178651596,-0.11400682237743472,-0.937565,-13.092352
11.185,2.0,1.0,1.0,33.2,33.6,33.6,1.6,2.4,2.795,-0.1937721777715926,-0.19436425677996177,0.8705211531953723,-0.12412112757675868,-0.994391,-12.742229
11.185,2.0,1.0,1.0,33.2,33.6,33.6,1.6,2.4,2.7975,-0.21329871077959192,-0.19870347124084353,0.8593934124769658,-0.13506082606193978,-1.056544,-12.386398
11.185,2.0,1.0,1.0,33.2,33.6,33.6,1.6,2.4,2.8,-0.2328519135085563,-0.2028746799337189,0.847129787648189,-0.14689462530640846,-1.124677,-12.02482
11.185,2.0,1.0,1.0,33.2,33.6,33.6,1.6,2.4,2.8025,-0.25236600131378206,-0.20681105094267235,0.8336477513339419,-0.15969535431827972,-1.199544,-11.657484
11.185,2.0,1.0,1.0,33.2,33.6,33.6,1.6,2.4,2.805,-0.2717612435958437,-0.21043196069325082,0.8188607491035385,-0.1735394526101618,-1.282012,-11.284414
11.185,2.0,1.0,1.0,33.2,33.6,33.6,1.6,2.4,2.8075,-0.29094147456520564,-0.21364052562096153,0.8026790479313333,-0.18850610248025926,-1.373079,-10.905679
11.185,2.0,1.0,1.0,33.2,33.6,33.6,1.6,2.4,2.81,-0.3097912595601957,-0.21632079221947362,0.7850110675542273,-0.2046758781593796,-1.473901,-10.521405
11.185,2.0,1.0,1.0,33.2,33.6,33.6,1.6,2.4,2.8125,-0.3281727206394394,-0.21833458957004834,0.7657653559042356,-0.2221287510182383,-1.585818,-10.131782
11.185,2.0,1.0,1.0,33.2,33.6,33.6,1.6,2.4,2.815,-0.3459220580271855,-0.21951808131094697,0.744853409692236,-0.24094125029672103,-1.710382,-9.737084
11.185,2.0,1.0,1.0,33.2,33.6,33.6,1.6,2.4,2.8175,-0.3628458557396521,-0.21967810571297028,0.7221935847645589,-0.26118253548505727,-1.849401,-9.337681
11.185,2.0,1.0,1.0,33.2,33.6,33.6,1.6,2.4,2.82,-0.378717337463,-0.21858847015653646,0.697716383909995,-0.28290909369790057,-2.004975,-8.934064
11.185,2.0,1.0,1.0,33.2,33.6,33.6,1.6,2.4,2.8225,-0.3932728507515283,-0.2159864780785596,0.6713714444101948,-0.30615774108348676,-2.179553,-8.526863
11.185,2.0,1.0,1.0,33.2,33.6,33.6,1.6,2.4,2.825,-0.40620901228229167,-0.21157012073248152,0.6431365601053739,-0.33093659517754426,-2.375988,-8.116877
11.185,2.0,1.0,1.0,33.2,33.6,33.6,1.6,2.4,2.8275,-0.4171811505107866,-0.20499656908430486,0.6130290413532578,-0.35721371683353964,-2.597599,-7.705095
11.185,2.0,1.0,1.0,33.2,33.6,33.6,1.6,2.4,2.83,-0.4258039344090171,-0.1958828525631969,0.5811196090440964,-0.3849032277897851,-2.848251,-7.292732
