1,w,sub_t,h,l1,l2,l3,g1,g2,Freq,S11_re,S21_re,S11_img,S21_img,S11_dB,S21_dB
11.185,2.0,1.0,1.0,33.5,34.0,34.0,4.0,3.0,2.5,0.848814829112126,-0.00589031154840106,0.516965509623501,0.00422492958828769,-0.053574,-42.79462
11.185,2.0,1.0,1.0,33.5,34.0,34.0,4.0,3.0,2.5025,0.8453456761556155,-0.006005037384793102,0.5225142321752103,0.004237278859051806,-0.054055,-42.674856
11.185,2.0,1.0,1.0,33.5,34.0,34.0,4.0,3.0,2.505,0.8418254003858164,-0.006121725688025867,0.5280616099586215,0.004248949870814681,-0.054545,-42.554794
11.185,2.0,1.0,1.0,33.5,34.0,34.0,4.0,3.0,2.5075,0.8382535148854036,-0.006240415255151078,0.5336073987663452,0.004259916818579464,-0.055043,-42.434424
11.185,2.0,1.0,1.0,33.5,34.0,34.0,4.0,3.0,2.51,0.8346295252458392,-0.006361145894920718,0.5391513472650961,0.004270152976799459,-0.05555,-42.313739
11.185,2.0,1.0,1.0,33.5,34.0,34.0,4.0,3.0,2.5125,0.8309529294512386,-0.006483958461006452,0.5446931967704886,0.004279630661946838,-0.056065,-42.192727
11.185,2.0,1.0,1.0,33.5,34.0,34.0,4.0,3.0,2.515,0.8272232177606451,-0.006608894886557848,0.5502326810146005,0.004288321193329286,-0.05659,-42.071379
11.185,2.0,1.0,1.0,33.5,34.0,34.0,4.0,3.0,2.5175,0.8234398725887059,-0.006735998220164167,0.5557695259060247,0.004296194852059306,-0.057123,-41.949686
11.185,2.0,1.0,1.0,33.5,34.0,34.0,4.0,3.0,2.52,0.819602368384727,-0.006865312663288369,0.5613034492821637,0.004303220838075342,-0.057666,-41.827638
11.185,2.0,1.0,1.0,33.5,34.0,34.0,4.0,3.0,2.5225,0.8157101715101035,-0.006996883609245466,0.5668341606534613,0.004309367225108188,-0.058219,-41.705224
11.185,2.0,1.0,1.0,33.5,34.0,34.0,4.0,3.0,2.525,0.8117627401141043,-0.007130757683802228,0.5723613609393032,0.0043146009134782184,-0.058781,-41.582434
11.185,2.0,1.0,1.0,33.5,34.0,34.0,4.0,3.0,2.5275,0.8077595240079914,-0.007266982787479006,0.5778847421952731,0.004318887580602533,-0.059354,-41.459259
11.185,2.0,1.0,1.0,33.5,34.0,34.0,4.0,3.0,2.53,0.8036999645374729,-0.007405608139639354,0.5834039873314417,0.00432219162908305,-0.059937,-41.335687
11.185,2.0,1.0,1.0,33.5,34.0,34.0,4.0,3.0,2.5325,0.7995834944534593,-0.007546684324458441,0.5889187698213686,0.004324476132238559,-0.06053,-41.211708
11.185,2.0,1.0,1.0,33.5,34.0,34.0,4.0,3.0,2.535,0.7954095377811153,-0.007690263338866079,0.5944287534014683,0.00432570277693396,-0.061134,-41.08731
11.185,2.0,1.0,1.0,33.5,34.0,34.0,4.0,3.0,2.5375,0.7911775096871876,-0.007836398642566477,0.5999335917603715,0.0043258318035513145,-0.06175,-40.962484
11.185,2.0,1.0,1.0,33.5,34.0,34.0,4.0,3.0,2.54,0.7868868163455922,-0.007985145210242373,0.6054329282179176,0.004324821942936247,-0.062377,-40.837218
11.185,2.0,1.0,1.0,33.5,34.0,34.0,4.0,3.0,2.5425,0.7825368548012395,-0.008136559586058245,0.6109263953933766,0.0043226303501422425,-0.063015,-40.711499
11.185,2.0,1.0,1.0,33.5,34.0,34.0,4.0,3.0,2.545,0.7781270128320747,-0.00829069994058391,0.6164136148624897,0.004319212534783704,-0.063666,-40.585318
11.185,2.0,1.0,1.0,33.5,34.0,34.0,4.0,3.0,2.5475,0.7736566688093264,-0.008447626130267135,0.6218941968028957,0.004314522287795344,-0.064328,-40.458661
11.185,2.0,1.0,1.0,33.5,34.0,34.0,4.0,3.0,2.55,0.7691251915559137,-0.008607399759592575,0.6273677396274984,0.004308511604381946,-0.065004,-40.331518
11.185,2.0,1.0,1.0,33.5,34.0,34.0,4.0,3.0,2.5525,0.7645319402030202,-0.008770084246071577,0.6328338296052867,0.00430113060292687,-0.065692,-40.203874
11.185,2.0,1.0,1.0,33.5,34.0,34.0,4.0,3.0,2.555,0.759876264044777,-0.00893574488821786,0.638292040469125,0.0042923274396126825,-0.066393,-40.075719
11.185,2.0,1.0,1.0,33.5,34.0,34.0,4.0,3.0,2.5575,0.7551575023910431,-0.009104448936673084,0.6437419330099912,0.004282048218488616,-0.067108,-39.947039
11.185,2.0,1.0,1.0,33.5,34.0,34.0,4.0,3.0,2.56,0.7503749844182455,-0.009276265668656341,0.6491830546571029,0.0042702368967012655,-0.067837,-39.817822
11.185,2.0,1.0,1.0,33.5,34.0,34.0,4.0,3.0,2.5625,0.745528029018246,-0.00945126646592395,0.654614939043372,0.00425683518458478,-0.068581,-39.688054
11.185,2.0,1.0,1.0,33.5,34.0,34.0,4.0,3.0,2.565,0.7406159446451874,-0.00962952489643681,0.6600371055555768,0.004241782440284421,-0.069339,-39.557721
11.185,2.0,1.0,1.0,33.5,34.0,34.0,4.0,3.0,2.5675,0.7356380291602902,-0.009811116799945875,0.665449058868611,0.00422501555856335,-0.070112,-39.42681
11.185,2.0,1.0,1.0,33.5,34.0,34.0,4.0,3.0,2.57,0.7305935696745374,-0.009996120377720177,0.6708502884631473,0.004206468853417503,-0.070901,-39.295306
11.185,2.0,1.0,1.0,33.5,34.0,34.0,4.0,3.0,2.5725,0.7254818423892037,-0.010184616286656229,0.6762402681260078,0.004186073934094032,-0.071705,-39.163196
11.185,2.0,1.0,1.0,33.5,34.0,34.0,4.0,3.0,2.575,0.7203021124341649,-0.010376687738023947,0.6816184554324951,0.004163759574080339,-0.072526,-39.030464
11.185,2.0,1.0,1.0,33.5,34.0,34.0,4.0,3.0,2.5775,0.7150536337039253,-0.010572420601120897,0.6869842912098997,0.004139451572595566,-0.073364,-38.897096
11.185,2.0,1.0,1.0,33.5,34.0,34.0,4.0,3.0,2.58,0.709735648691293,-0.010771903512125161,0.6923371989813496,0.004113072608082707,-0.07422,-38.763075
11.185,2.0,1.0,1.0,33.5,34.0,34.0,4.0,3.0,2.5825,0.7043473883186113,-0.01097522798845684,0.6976765843891323,0.004084542083159231,-0.075093,-38.628387
11.185,2.0,1.0,1.0,33.5,34.0,34.0,4.0,3.0,2.585,0.6988880717664703,-0.011182488548979231,0.7030018345965494,0.004053775960442427,-0.075984,-38.493014
11.185,2.0,1.0,1.0,33.5,34.0,34.0,4.0,3.0,2.5875,0.6933569062997836,-0.011393782840393914,0.7083123176673307,0.004020686588619372,-0.076895,-38.356941
11.185,2.0,1.0,1.0,33.5,34.0,34.0,4.0,3.0,2.59,0.6877530870911319,-0.011609211770207701,0.7136073819215496,0.003985182518081589,-0.077825,-38.220151
11.185,2.0,1.0,1.0,33.5,34.0,34.0,4.0,3.0,2.5925,0.6820757970412342,-0.011828879646676912,0.7188863552669496,0.003947168305389548,-0.078775,-38.082625
11.185,2.0,1.0,1.0,33.5,34.0,34.0,4.0,3.0,2.595,0.6763242065964231,-0.012052894326161877,0.724148544504479,0.0039065443057726195,-0.079745,-37.944347
11.185,2.0,1.0,1.0,33.5,34.0,34.0,4.0,3.0,2.5975,0.6704974735629526,-0.012281367368356048,0.7293932346068053,0.003863206452804595,-0.080737,-37.805298
11.185,2.0,1.0,1.0,33.5,34.0,34.0,4.0,3.0,2.6,0.6645947429179749,-0.012514414199886826,0.7346196879684604,0.0038170460243246254,-0.081751,-37.66546
11.185,2.0,1.0,1.0,33.5,34.0,34.0,4.0,3.0,2.6025,0.6586151466169942,-0.012752154286820978,0.7398271436261927,0.003767949393594643,-0.082787,-37.524812
11.185,2.0,1.0,1.0,33.5,34.0,34.0,4.0,3.0,2.605,0.652557803397574,-0.012994711316646026,0.7450148164480123,0.0037157977645992674,-0.083847,-37.383335
11.185,2.0,1.0,1.0,33.5,34.0,34.0,4.0,3.0,2.6075,0.646421818579067,-0.013242213390340976,0.750181896289304,0.0036604668903013706,-0.08493,-37.24101
11.185,2.0,1.0,1.0,33.5,34.0,34.0,4.0,3.0,2.61,0.6402062838580986,-0.013494793225193926,0.7553275471142659,0.003601826772563542,-0.086039,-37.097815
11.185,2.0,1.0,1.0,33.5,34.0,34.0,4.0,3.0,2.6125,0.6339102770995074,-0.013752588369073953,0.760450906080814,0.003539741342333613,-0.087173,-36.953728
11.185,2.0,1.0,1.0,33.5,34.0,34.0,4.0,3.0,2.615,0.6275328621224068,-0.014015741426915921,0.7655510825869617,0.0034740681185681218,-0.088333,-36.808728
11.185,2.0,1.0,1.0,33.5,34.0,34.0,4.0,3.0,2.6175,0.621073088481017,-0.01428440030023452,0.7706271572765194,0.003404657844233653,-0.089521,-36.662792
11.185,2.0,1.0,1.0,33.5,34.0,34.0,4.0,3.0,2.62,0.6145299912398431,-0.014558718440545178,0.7756781810018097,0.003331354097574335,-0.090737,-36.515896
11.185,2.0,1.0,1.0,33.5,34.0,34.0,4.0,3.0,2.6225,0.6079025907427531,-0.014838855117636005,0.7807031737409214,0.0032539928766703056,-0.091982,-36.368017
11.185,2.0,1.0,1.0,33.5,34.0,34.0,4.0,3.0,2.625,0.601189892375466,-0.0151249757037066,0.785701123466806,0.0031724021551307,-0.093258,-36.219129
11.185,2.0,1.0,1.0,33.5,34.0,34.0,4.0,3.0,2.6275,0.5943908863208702,-0.01541725197446884,0.7906709849653416,0.0030864014065632105,-0.094564,-36.069207
11.185,2.0,1.0,1.0,33.5,34.0,34.0,4.0,3.0,2.63,0.5875045473065725,-0.015715862428387697,0.7956116785992231,0.0029958010952415206,-0.095903,-35.918225
11.185,2.0,1.0,1.0,33.5,34.0,34.0,4.0,3.0,2.6325,0.5805298343439833,-0.01602099262533327,0.800522089014291,0.0029004021301464447,-0.097275,-35.766156
11.185,2.0,1.0,1.0,33.5,34.0,34.0,4.0,3.0,2.635,0.5734656904581831,-0.016332835546013603,0.8054010637846277,0.0027999952792855712,-0.098682,-35.612971
11.185,2.0,1.0,1.0,33.5,34.0,34.0,4.0,3.0,2.6375,0.5663110424077342,-0.016651591973665978,0.810247411992424,0.0026943605408951254,-0.100125,-35.458642
11.185,2.0,1.0,1.0,33.5,34.0,34.0,4.0,3.0,2.64,0.5590648003934907,-0.01697747089960147,0.8150599027382786,0.0025832664677936943,-0.101605,-35.303138
11.185,2.0,1.0,1.0,33.5,34.0,34.0,4.0,3.0,2.6425,0.5517258577553958,-0.017310689954323572,0.8198372635771983,0.002466469440787172,-0.103124,-35.146428
11.185,2.0,1.0,1.0,33.5,34.0,34.0,4.0,3.0,2.645,0.5442930906561142,-0.017651475866079885,0.824578178875139,0.0023437128866105788,-0.104683,-34.988481
11.185,2.0,1.0,1.0,33.5,34.0,34.0,4.0,3.0,2.6475,0.5367653577502512,-0.018000064948854217,0.829281288080445,0.00221472643543406,-0.106283,-34.829264
11.185,2.0,1.0,1.0,33.5,34.0,34.0,4.0,3.0,2.65,0.5291414998377473,-0.018356703621969242,0.8339451839040314,0.0020792250124466657,-0.107926,-34.668742
11.185,2.0,1.0,1.0,33.5,34.0,34.0,4.0,3.0,2.6525,0.5214203394999434,-0.018721648963643263,0.8385684104015214,0.0019369078574609114,-0.109615,-34.50688
11.185,2.0,1.0,1.0,33.5,34.0,34.0,4.0,3.0,2.655,0.5136006807165876,-0.01909516930103738,0.843149460949939,0.0017874574658402215,-0.11135,-34.343641
11.185,2.0,1.0,1.0,33.5,34.0,34.0,4.0,3.0,2.6575,0.5056813084619327,-0.019477544839532988,0.8476867761107814,0.0016305384433368166,-0.113133,-34.178987
11.185,2.0,1.0,1.0,33.5,34.0,34.0,4.0,3.0,2.66,0.4976609882778523,-0.019869068334204838,0.8521787413704826,0.0014657962666255648,-0.114968,-34.012878
11.185,2.0,1.0,1.0,33.5,34.0,34.0,4.0,3.0,2.6625,0.48953846582171223,-0.020270045806694663,0.8566236847483518,0.0012928559404188265,-0.116854,-33.845274
11.185,2.0,1.0,1.0,33.5,34.0,34.0,4.0,3.0,2.665,0.4813124663864781,-0.020680797310954662,0.8610198742610375,0.0011113205410364488,-0.118796,-33.676132
11.185,2.0,1.0,1.0,33.5,34.0,34.0,4.0,3.0,2.6675,0.47298169439032617,-0.02110165775160981,0.8653655152313778,0.0009207696351678484,-0.120795,-33.505407
11.185,2.0,1.0,1.0,33.5,34.0,34.0,4.0,3.0,2.67,0.46454483283271597,-0.021532977758996364,0.8696587474282088,0.0007207575612797313,-0.122854,-33.333055
11.185,2.0,1.0,1.0,33.5,34.0,34.0,4.0,3.0,2.6725,0.45600054271360163,-0.0219751246252616,0.8738976420222,0.0005108115596772042,-0.124975,-33.159027
11.185,2.0,1.0,1.0,33.5,34.0,34.0,4.0,3.0,2.675,0.4473474624121443,-0.022428483306264294,0.8780801983411134,0.00029042973559016244,-0.127161,-32.983274
11.185,2.0,1.0,1.0,33.5,34.0,34.0,4.0,3.0,2.6775,0.4385842070209187,-0.022893457494396956,0.8822043404059907,5.9078837806124165e-05,-0.129415,-32.805743
11.185,2.0,1.0,1.0,33.5,34.0,34.0,4.0,3.0,2.68,0.4297093676312405,-0.02337047076785851,0.8862679132276244,-0.00018380816672770945,-0.131741,-32.626382
11.185,2.0,1.0,1.0,33.5,34.0,34.0,4.0,3.0,2.6825,0.4207215105648399,-0.023859967822340192,0.8902686788402225,-0.0004388347442930838,-0.134142,-32.445134
11.185,2.0,1.0,1.0,33.5,34.0,34.0,4.0,3.0,2.685,0.4116191765466524,-0.02436241579155291,0.8942043120464158,-0.0007066436964499683,-0.13662,-32.261941
11.185,2.0,1.0,1.0,33.5,34.0,34.0,4.0,3.0,2.6875,0.402400879813052,-0.0248783056635119,0.898072395844595,-0.000987920340503316,-0.139181,-32.076741
11.185,2.0,1.0,1.0,33.5,34.0,34.0,4.0,3.0,2.69,0.3930651071493579,-0.02540815380001028,0.9018704165059498,-0.0012833959996675103,-0.141828,-31.889471
11.185,2.0,1.0,1.0,33.5,34.0,34.0,4.0,3.0,2.6925,0.3836103168499067,-0.025952503567251723,0.905595758264497,-0.0015938518382374155,-0.144565,-31.700065
11.185,2.0,1.0,1.0,33.5,34.0,34.0,4.0,3.0,2.695,0.37403493759349143,-0.026511927086164087,0.909245697578629,-0.0019201230816859008,-0.147398,-31.508453
11.185,2.0,1.0,1.0,33.5,34.0,34.0,4.0,3.0,2.6975,0.36433736722635773,-0.02708702711148468,0.9128173969173455,-0.002263103666903692,-0.150331,-31.314563
11.185,2.0,1.0,1.0,33.5,34.0,34.0,4.0,3.0,2.7,0.35451597144445124,-0.02767843904926909,0.9163078980180827,-0.0026237513738787657,-0.153369,-31.118317
11.185,2.0,1.0,1.0,33.5,34.0,34.0,4.0,3.0,2.7025,0.34456908236601624,-0.02828683312302949,0.9197141145559178,-0.0030030934971245586,-0.156519,-30.919637
11.185,2.0,1.0,1.0,33.5,34.0,34.0,4.0,3.0,2.705,0.33449499698516594,-0.0289129166992226,0.9230328241556532,-0.003402233123250784,-0.159786,-30.718439
11.185,2.0,1.0,1.0,33.5,34.0,34.0,4.0,3.0,2.7075,0.3242919754965511,-0.029557436783265494,0.9262606596687326,-0.003822356090430003,-0.163178,-30.514636
11.185,2.0,1.0,1.0,33.5,34.0,34.0,4.0,3.0,2.71,0.3139582394809078,-0.03022118269761509,0.9293940996258696,-0.004264738716347139,-0.1667,-30.308135
11.185,2.0,1.0,1.0,33.5,34.0,34.0,4.0,3.0,2.7125,0.30349196994100297,-0.030904988953663507,0.9324294577634221,-0.004730756393814926,-0.170362,-30.098839
11.185,2.0,1.0,1.0,33.5,34.0,34.0,4.0,3.0,2.715,0.29289130517748113,-0.031609738329204745,0.9353628715065658,-0.005221893167887854,-0.174172,-29.886649
11.185,2.0,1.0,1.0,33.5,34.0,34.0,4.0,3.0,2.7175,0.28215433849434873,-0.03233636516294263,0.9381902892748794,-0.005739752425402638,-0.178138,-29.671455
11.185,2.0,1.0,1.0,33.5,34.0,34.0,4.0,3.0,2.72,0.2712791157244937,-0.033085858876813735,0.9409074564555363,-0.006286068847861493,-0.18227,-29.453147
11.185,2.0,1.0,1.0,33.5,34.0,34.0,4.0,3.0,2.7225,0.26026363256678586,-0.0338592677356568,0.9435098998653915,-0.006862721801998622,-0.18658,-29.231605
11.185,2.0,1.0,1.0,33.5,34.0,34.0,4.0,3.0,2.725,0.2491058317282807,-0.034657702851762916,0.9459929104951302,-0.007471750369893229,-0.191079,-29.006705
11.185,2.0,1.0,1.0,33.5,34.0,34.0,4.0,3.0,2.7275,0.23780359986788496,-0.035482342438851254,0.9483515242955858,-0.008115370252908581,-0.195779,-28.778314
11.185,2.0,1.0,1.0,33.5,34.0,34.0,4.0,3.0,2.73,0.22635476434215404,-0.03633443631567763,0.9505805007272197,-0.008795992822009607,-0.200695,-28.546293
11.185,2.0,1.0,1.0,33.5,34.0,34.0,4.0,3.0,2.7325,0.21475708975982766,-0.03721531065337383,0.9526742987475341,-0.009516246632326732,-0.205842,-28.310495
11.185,2.0,1.0,1.0,33.5,34.0,34.0,4.0,3.0,2.735,0.20300827436012764,-0.03812637295213477,0.9546270498562565,-0.010279001773617177,-0.211235,-28.070764
11.185,2.0,1.0,1.0,33.5,34.0,34.0,4.0,3.0,2.7375,0.1911059462412925,-0.03906911722126055,0.9564325277528023,-0.011087397492295691,-0.216895,-27.826934
11.185,2.0,1.0,1.0,33.5,34.0,34.0,4.0,3.0,2.74,0.17904765948149567,-0.040045129320788846,0.9580841140825204,-0.0119448735971103,-0.222841,-27.57883
11.185,2.0,1.0,1.0,33.5,34.0,34.0,4.0,3.0,2.7425,0.16683089021544142,-0.04105609240168049,0.9595747596548885,-0.012855206251993672,-0.229094,-27.326267
11.185,2.0,1.0,1.0,33.5,34.0,34.0,4.0,3.0,2.745,0.154453032758429,-0.04210379235293687,0.9608969404047726,-0.013822548869387108,-0.235681,-27.069045
11.185,2.0,1.0,1.0,33.5,34.0,34.0,4.0,3.0,2.7475,0.14191139590792276,-0.04319012312574565,0.9620426072330021,-0.014851478949479443,-0.242628,-26.806954
11.185,2.0,1.0,1.0,33.5,34.0,34.0,4.0,3.0,2.75,0.129203199603848,-0.0443170917535592,0.96300312869966,-0.0159470518703459,-0.249965,-26.539772
11.185,2.0,1.0,1.0,33.5,34.0,34.0,4.0,3.0,2.7525,0.11632557219739055,-0.04548682281861302,0.9637692253463095,-0.017114862827160682,-0.257727,-26.267257
11.185,2.0,1.0,1.0,33.5,34.0,34.0,4.0,3.0,2.755,0.10327554866976471,-0.04670156202399245,0.9643308941838915,-0.01836111835329348,-0.265951,-25.989155
11.185,2.0,1.0,1.0,33.5,34.0,34.0,4.0,3.0,2.7575,0.09005007026514347,-0.04796367840813825,0.9646773215913055,-0.019692719141901096,-0.274679,-25.705194
11.185,2.0,1.0,1.0,33.5,34.0,34.0,4.0,3.0,2.76,0.07664598616660215,-0.04927566457499991,0.9647967825132961,-0.02111735623576823,-0.28396,-25.415081
11.185,2.0,1.0,1.0,33.5,34.0,34.0,4.0,3.0,2.7625,0.06306005806490848,-0.050640134093433355,0.9646765234096274,-0.022643623080892628,-0.293847,-25.118504
11.185,2.0,1.0,1.0,33.5,34.0,34.0,4.0,3.0,2.765,0.04928896876766061,-0.052059814924027434,0.9643026258710967,-0.024281146464751213,-0.304401,-24.815126
11.185,2.0,1.0,1.0,33.5,34.0,34.0,4.0,3.0,2.7675,0.035329336398085553,-0.05353753733302787,0.9636598471572179,-0.026040740007310846,-0.315691,-24.504587
11.185,2.0,1.0,1.0,33.5,34.0,34.0,4.0,3.0,2.77,0.021177736277103922,-0.05507621421360423,0.9627314330946796,-0.027934584671661402,-0.327796,-24.1865
11.185,2.0,1.0,1.0,33.5,34.0,34.0,4.0,3.0,2.7725,0.006830733322370551,-0.05667881100180221,0.96149889776661,-0.02997644174913528,-0.340805,-23.860446
11.185,2.0,1.0,1.0,33.5,34.0,34.0,4.0,3.0,2.775,-0.007715071191703995,-0.05834830137462989,0.9599417631725041,-0.03218190499753417,-0.354822,-23.525975
11.185,2.0,1.0,1.0,33.5,34.0,34.0,4.0,3.0,2.7775,-0.022462973283519976,-0.06008760354743628,0.9580372504885333,-0.03456870012804562,-0.369965,-23.182601
11.185,2.0,1.0,1.0,33.5,34.0,34.0,4.0,3.0,2.78,-0.037416073185175,-0.06189949010078698,0.9557599126360182,-0.0371570417165576,-0.386373,-22.829795
11.185,2.0,1.0,1.0,33.5,34.0,34.0,4.0,3.0,2.7825,-0.05257714575287729,-0.06378646165527763,0.9530811954863662,-0.0399700599417488,-0.404205,-22.46699
11.185,2.0,1.0,1.0,33.5,34.0,34.0,4.0,3.0,2.785,-0.06794846090469676,-0.06575057107822564,0.9499689120945329,-0.04303431242177398,-0.42365,-22.093567
11.185,2.0,1.0,1.0,33.5,34.0,34.0,4.0,3.0,2.7875,-0.08353153547027173,-0.06779317981990335,0.946386610751914,-0.04638039993796871,-0.444926,-21.708856
11.185,2.0,1.0,1.0,33.5,34.0,34.0,4.0,3.0,2.79,-0.09932679058045198,-0.0699146208176673,0.9422928132782511,-0.050043709098471126,-0.468293,-21.31213
11.185,2.0,1.0,1.0,33.5,34.0,34.0,4.0,3.0,2.7925,-0.11533307844525201,-0.07211373226933901,0.937640094755669,-0.05406531007658594,-0.49406,-20.902596
11.185,2.0,1.0,1.0,33.5,34.0,34.0,4.0,3.0,2.795,-0.13154702772075305,-0.07438721213894987,0.9323739698573923,-0.05849304344119484,-0.522596,-20.479396
11.185,2.0,1.0,1.0,33.5,34.0,34.0,4.0,3.0,2.7975,-0.14796213567224373,-0.0767287225741504,0.9264315442466857,-0.0633828365663668,-0.554343,-20.041595
11.185,2.0,1.0,1.0,33.5,34.0,34.0,4.0,3.0,2.8,-0.1645675050889023,-0.0791276436218739,0.9197398828339228,-0.06880029654566329,-0.589838,-19.58818
11.185,2.0,1.0,1.0,33.5,34.0,34.0,4.0,3.0,2.8025,-0.18134608009980857,-0.08156733250847548,0.9122140414064848,-0.07482263152234074,-0.629734,-19.118052
11.185,2.0,1.0,1.0,33.5,34.0,34.0,4.0,3.0,2.805,-0.19827217136981728,-0.08402268210570799,0.9037547072719868,-0.08154095291536245,-0.674834,-18.630025
11.185,2.0,1.0,1.0,33.5,34.0,34.0,4.0,3.0,2.8075,-0.21530796841530403,-0.0864566810084194,0.8942454040228093,-0.08906300128547952,-0.72613,-18.122826
11.185,2.0,1.0,1.0,33.5,34.0,34.0,4.0,3.0,2.81,-0.23239860179213967,-0.08881554498654312,0.8835492468321662,-0.09751630718022732,-0.78486,-17.595099
11.185,2.0,1.0,1.0,33.5,34.0,34.0,4.0,3.0,2.8125,-0.249465122415828,-0.0910217975795813,0.871505309652114,-0.107051723670861,-0.85258,-17.04542
11.185,2.0,1.0,1.0,33.5,34.0,34.0,4.0,3.0,2.815,-0.26639448564168716,-0.09296440320550424,0.8579248251923182,-0.11784710911558138,-0.931259,-16.472326
11.185,2.0,1.0,1.0,33.5,34.0,34.0,4.0,3.0,2.8175,-0.28302523771348487,-0.09448467387048042,0.8425877582962331,-0.13011062238074467,-1.023413,-15.874365
11.185,2.0,1.0,1.0,33.5,34.0,34.0,4.0,3.0,2.82,-0.29912708471306076,-0.09535616420897372,0.8252409112601197,-0.14408248252406794,-1.132276,-15.250184
11.185,2.0,1.0,1.0,33.5,34.0,34.0,4.0,3.0,2.8225,-0.3143719067057164,-0.09525616729066903,0.8055998814355217,-0.16003289921921895,-1.262024,-14.598675
11.185,2.0,1.0,1.0,33.5,34.0,34.0,4.0,3.0,2.825,-0.32829322711821063,-0.0937258893283951,0.7833593170838882,-0.17825178654914536,-1.418068,-13.919209
11.185,2.0,1.0,1.0,33.5,34.0,34.0,4.0,3.0,2.8275,-0.3402311840513572,-0.09011643407988268,0.7582196704905148,-0.1990221807135463,-1.607393,-13.212013
