1,w,sub_t,h,l1,l2,l3,g1,g2,Freq,S11_re,S21_re,S11_img,S21_img,S11_dB,S21_dB
11.185,2.0,1.0,1.0,33.4,33.3,33.3,4.0,2.5,2.5,0.860260676196684,-0.00571758711200742,0.498593241162518,0.00460113822015232,-0.049602,-42.687234
11.185,2.0,1.0,1.0,33.4,33.3,33.3,4.0,2.5,2.5025,0.8569951067829938,-0.005828836189315356,0.50409030454758,0.004618429020041492,-0.050024,-42.572339
11.185,2.0,1.0,1.0,33.4,33.3,33.3,4.0,2.5,2.505,0.8536811222075427,-0.0059419132972976085,0.5095867985521401,0.0046351104658185465,-0.050452,-42.457237
11.185,2.0,1.0,1.0,33.4,33.3,33.3,4.0,2.5,2.5075,0.8503182768281098,-0.006056850559270236,0.5150825098917369,0.004651159270705913,-0.050887,-42.34192
11.185,2.0,1.0,1.0,33.4,33.3,33.3,4.0,2.5,2.51,0.8469061183357054,-0.006173680818304626,0.5205772191440148,0.00466655137903718,-0.051329,-42.226382
11.185,2.0,1.0,1.0,33.4,33.3,33.3,4.0,2.5,2.5125,0.8434441876589999,-0.006292437656661321,0.5260707005578249,0.004681261937567065,-0.051778,-42.110614
11.185,2.0,1.0,1.0,33.4,33.3,33.3,4.0,2.5,2.515,0.8399320188678976,-0.006413155415826702,0.5315627218564434,0.004695265265586937,-0.052234,-41.994611
11.185,2.0,1.0,1.0,33.4,33.3,33.3,4.0,2.5,2.5175,0.8363691390762878,-0.006535869217174104,0.5370530440346922,0.004708534823789697,-0.052697,-41.878364
11.185,2.0,1.0,1.0,33.4,33.3,33.3,4.0,2.5,2.52,0.8327550683439869,-0.006660614983272622,0.542541421149789,0.004721043181826192,-0.053168,-41.761865
11.185,2.0,1.0,1.0,33.4,33.3,33.3,4.0,2.5,2.5225,0.8290893195779165,-0.006787429459867004,0.5480276001056884,0.004732761984490426,-0.053647,-41.645109
11.185,2.0,1.0,1.0,33.4,33.3,33.3,4.0,2.5,2.525,0.8253713984325356,-0.006916350238553952,0.5535113204307291,0.004743661916469089,-0.054133,-41.528086
11.185,2.0,1.0,1.0,33.4,33.3,33.3,4.0,2.5,2.5275,0.821600803209564,-0.007047415780180643,0.5589923140483506,0.00475371266558664,-0.054628,-41.410789
11.185,2.0,1.0,1.0,33.4,33.3,33.3,4.0,2.5,2.53,0.8177770247570391,-0.00718066543899251,0.5644703050406499,0.004762882884473353,-0.05513,-41.29321
11.185,2.0,1.0,1.0,33.4,33.3,33.3,4.0,2.5,2.5325,0.81389954636774,-0.007316139487558764,0.5699450094045433,0.004771140150580387,-0.055642,-41.175342
11.185,2.0,1.0,1.0,33.4,33.3,33.3,4.0,2.5,2.535,0.809967843677022,-0.007453879142505214,0.5754161348002913,0.00477845092446122,-0.056161,-41.057177
11.185,2.0,1.0,1.0,33.4,33.3,33.3,4.0,2.5,2.5375,0.8059813845601143,-0.007593926591085092,0.5808833802921168,0.004784780506234364,-0.05669,-40.938706
11.185,2.0,1.0,1.0,33.4,33.3,33.3,4.0,2.5,2.54,0.8019396290289238,-0.007736325018620511,0.5863464360806676,0.004790092990137938,-0.057228,-40.819921
11.185,2.0,1.0,1.0,33.4,33.3,33.3,4.0,2.5,2.5425,0.7978420291283982,-0.007881118636848077,0.591804983227038,0.00479435121708119,-0.057774,-40.700815
11.185,2.0,1.0,1.0,33.4,33.3,33.3,4.0,2.5,2.545,0.7936880288325131,-0.008028352713204108,0.5972586933680714,0.0047975167250928945,-0.058331,-40.581378
11.185,2.0,1.0,1.0,33.4,33.3,33.3,4.0,2.5,2.5475,0.7894770639399372,-0.008178073601086164,0.6027072284226369,0.004799549697560805,-0.058897,-40.461603
11.185,2.0,1.0,1.0,33.4,33.3,33.3,4.0,2.5,2.55,0.7852085619694412,-0.008330328771129962,0.608150240288594,0.004800408909150478,-0.059473,-40.34148
11.185,2.0,1.0,1.0,33.4,33.3,33.3,4.0,2.5,2.5525,0.7808819420551305,-0.008485166843541527,0.6135873705300975,0.00480005166928498,-0.060059,-40.221002
11.185,2.0,1.0,1.0,33.4,33.3,33.3,4.0,2.5,2.555,0.7764966148415637,-0.008642637621527359,0.6190182500549398,0.004798433763060083,-0.060656,-40.100159
11.185,2.0,1.0,1.0,33.4,33.3,33.3,4.0,2.5,2.5575,0.7720519823788403,-0.008802792125866862,0.6244424987815738,0.0047955093894628785,-0.061263,-39.978942
11.185,2.0,1.0,1.0,33.4,33.3,33.3,4.0,2.5,2.56,0.7675474380177503,-0.008965682630673232,0.6298597252954591,0.0047912310967528175,-0.061881,-39.857342
11.185,2.0,1.0,1.0,33.4,33.3,33.3,4.0,2.5,2.5625,0.7629823663050666,-0.009131362700391691,0.6352695264943652,0.004785549714856898,-0.062511,-39.735351
11.185,2.0,1.0,1.0,33.4,33.3,33.3,4.0,2.5,2.565,0.758356142879077,-0.009299887228085989,0.6406714872222492,0.004778414284620921,-0.063152,-39.612958
11.185,2.0,1.0,1.0,33.4,33.3,33.3,4.0,2.5,2.5675,0.7536681343654673,-0.009471312475066421,0.6460651798912971,0.004769771983749747,-0.063804,-39.490155
11.185,2.0,1.0,1.0,33.4,33.3,33.3,4.0,2.5,2.57,0.7489176982736513,-0.009645696111915677,0.6514501640917248,0.0047595680492592924,-0.064469,-39.366931
11.185,2.0,1.0,1.0,33.4,33.3,33.3,4.0,2.5,2.5725,0.7441041828936686,-0.009823097260971149,0.6568259861889,0.004747745696251405,-0.065147,-39.243278
11.185,2.0,1.0,1.0,33.4,33.3,33.3,4.0,2.5,2.575,0.7392269271937717,-0.010003576540325392,0.6621921789073351,0.004734246032812215,-0.065836,-39.119184
11.185,2.0,1.0,1.0,33.4,33.3,33.3,4.0,2.5,2.5775,0.734285260718828,-0.010187196109409474,0.6675482609010829,0.004719007970821116,-0.066539,-38.99464
11.185,2.0,1.0,1.0,33.4,33.3,33.3,4.0,2.5,2.58,0.7292785034896802,-0.010374019716227038,0.6728937363100438,0.004701968132444539,-0.067256,-38.869636
11.185,2.0,1.0,1.0,33.4,33.3,33.3,4.0,2.5,2.5825,0.724205965903595,-0.010564112746310708,0.6782280943016811,0.004683060752074466,-0.067986,-38.744162
11.185,2.0,1.0,1.0,33.4,33.3,33.3,4.0,2.5,2.585,0.7190669486359695,-0.010757542273475428,0.6835508085976092,0.0046622175734559465,-0.06873,-38.618205
11.185,2.0,1.0,1.0,33.4,33.3,33.3,4.0,2.5,2.5875,0.713860742543438,-0.010954377112447844,0.6888613369845057,0.0046393677417317265,-0.069488,-38.491757
11.185,2.0,1.0,1.0,33.4,33.3,33.3,4.0,2.5,2.59,0.7085866285685639,-0.011154687873454033,0.6941591208087659,0.004614437690114184,-0.070261,-38.364805
11.185,2.0,1.0,1.0,33.4,33.3,33.3,4.0,2.5,2.5925,0.7032438776462829,-0.011358547018853119,0.6994435844543033,0.004587351020875759,-0.07105,-38.23734
11.185,2.0,1.0,1.0,33.4,33.3,33.3,4.0,2.5,2.595,0.697831750612297,-0.01156602892190748,0.7047141348028588,0.004558028380328674,-0.071854,-38.109348
11.185,2.0,1.0,1.0,33.4,33.3,33.3,4.0,2.5,2.5975,0.6923494981136065,-0.01177720992778648,0.7099701606761717,0.0045263873274430586,-0.072674,-37.980819
11.185,2.0,1.0,1.0,33.4,33.3,33.3,4.0,2.5,2.6,0.686796360521394,-0.011992168416904498,0.7152110322593203,0.004492342195728237,-0.07351,-37.85174
11.185,2.0,1.0,1.0,33.4,33.3,33.3,4.0,2.5,2.6025,0.6811715678464841,-0.012210984870699524,0.7204361005045076,0.004455803947977371,-0.074364,-37.722101
11.185,2.0,1.0,1.0,33.4,33.3,33.3,4.0,2.5,2.605,0.6754743396575997,-0.012433741939964856,0.7256446965145561,0.004416680023447458,-0.075234,-37.591888
11.185,2.0,1.0,1.0,33.4,33.3,33.3,4.0,2.5,2.6075,0.669703885002664,-0.012660524515851262,0.7308361309053056,0.004374874177017535,-0.076123,-37.461088
11.185,2.0,1.0,1.0,33.4,33.3,33.3,4.0,2.5,2.61,0.6638594023334078,-0.01289141980366399,0.7360096931461001,0.004330286309836165,-0.07703,-37.329689
11.185,2.0,1.0,1.0,33.4,33.3,33.3,4.0,2.5,2.6125,0.6579400794335388,-0.013126517399585239,0.7411646508774911,0.0042828122909342806,-0.077956,-37.197679
11.185,2.0,1.0,1.0,33.4,33.3,33.3,4.0,2.5,2.615,0.6519450933507598,-0.013365909370459774,0.7463002492052578,0.0042323437692429544,-0.078901,-37.065043
11.185,2.0,1.0,1.0,33.4,33.3,33.3,4.0,2.5,2.6175,0.6458736103329339,-0.01360969033678841,0.7514157099697752,0.004178767975414899,-0.079866,-36.931767
11.185,2.0,1.0,1.0,33.4,33.3,33.3,4.0,2.5,2.62,0.6397247857687023,-0.01385795755908207,0.7565102309897376,0.0041219675128053015,-0.080851,-36.797839
11.185,2.0,1.0,1.0,33.4,33.3,33.3,4.0,2.5,2.6225,0.6334977641328741,-0.014110811027737506,0.7615829852791786,0.004061820136920827,-0.081858,-36.663243
11.185,2.0,1.0,1.0,33.4,33.3,33.3,4.0,2.5,2.625,0.627191678936944,-0.0143683535566033,0.76663312023667,0.00399819852259365,-0.082886,-36.527965
11.185,2.0,1.0,1.0,33.4,33.3,33.3,4.0,2.5,2.6275,0.6208056526850739,-0.014630690880415338,0.7716597568055347,0.003930970018083196,-0.083937,-36.391991
11.185,2.0,1.0,1.0,33.4,33.3,33.3,4.0,2.5,2.63,0.614338796835924,-0.014897931756289213,0.7766619886038328,0.003859996385247861,-0.08501,-36.255304
11.185,2.0,1.0,1.0,33.4,33.3,33.3,4.0,2.5,2.6325,0.6077902117707198,-0.015170188069467582,0.7816388810228161,0.0037851335248635563,-0.086107,-36.117889
11.185,2.0,1.0,1.0,33.4,33.3,33.3,4.0,2.5,2.635,0.6011589867679605,-0.015447574943531009,0.7865894702924696,0.003706231186095744,-0.087229,-35.979731
11.185,2.0,1.0,1.0,33.4,33.3,33.3,4.0,2.5,2.6375,0.5944441999852073,-0.01573021085529147,0.7915127625126768,0.00362313265905479,-0.088376,-35.840812
11.185,2.0,1.0,1.0,33.4,33.3,33.3,4.0,2.5,2.64,0.5876449184483734,-0.01601821775460027,0.7964077326484691,0.003535674449279752,-0.089548,-35.701117
11.185,2.0,1.0,1.0,33.4,33.3,33.3,4.0,2.5,2.6425,0.5807601980490121,-0.016311721189312844,0.8012733234877093,0.00344368593290626,-0.090748,-35.560627
11.185,2.0,1.0,1.0,33.4,33.3,33.3,4.0,2.5,2.645,0.5737890835500654,-0.016610850435666947,0.8061084445594736,0.0033469889911733742,-0.091975,-35.419325
11.185,2.0,1.0,1.0,33.4,33.3,33.3,4.0,2.5,2.6475,0.5667306086006009,-0.01691573863434289,0.8109119710112714,0.0032453976228168204,-0.09323,-35.277193
11.185,2.0,1.0,1.0,33.4,33.3,33.3,4.0,2.5,2.65,0.5595837957600485,-0.017226522932489483,0.8156827424431498,0.003138717532777452,-0.094514,-35.134213
11.185,2.0,1.0,1.0,33.4,33.3,33.3,4.0,2.5,2.6525,0.5523476565325172,-0.017543344632011827,0.8204195616965572,0.00302674569552495,-0.095829,-34.990365
11.185,2.0,1.0,1.0,33.4,33.3,33.3,4.0,2.5,2.655,0.5450211914117503,-0.01786634934443413,0.8251211935957492,0.002909269891154719,-0.097175,-34.845629
11.185,2.0,1.0,1.0,33.4,33.3,33.3,4.0,2.5,2.6575,0.5376033899373356,-0.018195687152664078,0.8297863636393309,0.0027860682122623336,-0.098553,-34.699987
11.185,2.0,1.0,1.0,33.4,33.3,33.3,4.0,2.5,2.66,0.5300932307627969,-0.0185315127800023,0.8344137566393792,0.0026569085394298224,-0.099965,-34.553416
11.185,2.0,1.0,1.0,33.4,33.3,33.3,4.0,2.5,2.6625,0.5224896817362391,-0.01887398576675528,0.8390020153053992,0.002521547982972729,-0.101411,-34.405895
11.185,2.0,1.0,1.0,33.4,33.3,33.3,4.0,2.5,2.665,0.5147916999942155,-0.019223270654828015,0.8435497387701811,0.0023797322883927856,-0.102892,-34.257403
11.185,2.0,1.0,1.0,33.4,33.3,33.3,4.0,2.5,2.6675,0.5069982320695632,-0.019579537180686696,0.8480554810543875,0.0022311952027573674,-0.10441,-34.107918
11.185,2.0,1.0,1.0,33.4,33.3,33.3,4.0,2.5,2.67,0.49910821401394434,-0.019942960477100702,0.8525177494664797,0.002075657798981182,-0.105967,-33.957415
11.185,2.0,1.0,1.0,33.4,33.3,33.3,4.0,2.5,2.6725,0.4911205715358806,-0.02031372128408726,0.8569350029343209,0.0019128277547134657,-0.107562,-33.805871
11.185,2.0,1.0,1.0,33.4,33.3,33.3,4.0,2.5,2.675,0.4830342201551173,-0.020692006169498553,0.8613056502645001,0.0017423985822374462,-0.109199,-33.653262
11.185,2.0,1.0,1.0,33.4,33.3,33.3,4.0,2.5,2.6775,0.47484806537417684,-0.02107800775970586,0.8656280483251158,0.0015640488054578339,-0.110878,-33.499562
11.185,2.0,1.0,1.0,33.4,33.3,33.3,4.0,2.5,2.68,0.4665610028680033,-0.02147192498084908,0.8699005001473941,0.001377441079690198,-0.1126,-33.344744
11.185,2.0,1.0,1.0,33.4,33.3,33.3,4.0,2.5,2.6825,0.458171918692665,-0.021873963311131207,0.8741212529411369,0.0011822212495642382,-0.114368,-33.188783
11.185,2.0,1.0,1.0,33.4,33.3,33.3,4.0,2.5,2.685,0.4496796895141069,-0.022284335044648468,0.8782884960185684,0.000978017339908522,-0.116183,-33.031649
11.185,2.0,1.0,1.0,33.4,33.3,33.3,4.0,2.5,2.6875,0.44108318285801373,-0.02270325956725267,0.8824003586206673,0.0007644384739934881,-0.118047,-32.873315
11.185,2.0,1.0,1.0,33.4,33.3,33.3,4.0,2.5,2.69,0.43238125738191463,-0.02313096364494548,0.8864549076395523,0.0005410737129635081,-0.119961,-32.71375
11.185,2.0,1.0,1.0,33.4,33.3,33.3,4.0,2.5,2.6925,0.4235727631706895,-0.023567681725304178,0.8904501452299055,0.0003074908096844856,-0.121929,-32.552923
11.185,2.0,1.0,1.0,33.4,33.3,33.3,4.0,2.5,2.695,0.4146565420567733,-0.02401365625242829,0.8943840063017657,6.323486956148034e-05,-0.12395,-32.390804
11.185,2.0,1.0,1.0,33.4,33.3,33.3,4.0,2.5,2.6975,0.40563142796636414,-0.02446913799588451,0.8982543558863069,-0.00019217308986766156,-0.126029,-32.227359
11.185,2.0,1.0,1.0,33.4,33.3,33.3,4.0,2.5,2.7,0.3964962472931068,-0.024934386394100165,0.9020589863654083,-0.0004592376895876107,-0.128167,-32.062553
11.185,2.0,1.0,1.0,33.4,33.3,33.3,4.0,2.5,2.7025,0.3872498193007755,-0.02540966991262141,0.9057956145549306,-0.0007384908599649374,-0.130366,-31.896353
11.185,2.0,1.0,1.0,33.4,33.3,33.3,4.0,2.5,2.705,0.3778909565566466,-0.025895266417601395,0.9094618786305991,-0.001030493642800709,-0.13263,-31.72872
11.185,2.0,1.0,1.0,33.4,33.3,33.3,4.0,2.5,2.7075,0.3684184653973559,-0.026391463564816538,0.9130553348842863,-0.001335838136726206,-0.13496,-31.559618
11.185,2.0,1.0,1.0,33.4,33.3,33.3,4.0,2.5,2.71,0.3588311464292408,-0.026898559204419963,0.9165734542972104,-0.0016551495993850506,-0.13736,-31.389007
11.185,2.0,1.0,1.0,33.4,33.3,33.3,4.0,2.5,2.7125,0.3491277950653212,-0.027416861801527352,0.9200136189151727,-0.001989088721300063,-0.139832,-31.216846
11.185,2.0,1.0,1.0,33.4,33.3,33.3,4.0,2.5,2.715,0.3393072021013271,-0.02794669087258351,0.9233731180093501,-0.0023383540879513085,-0.14238,-31.043093
11.185,2.0,1.0,1.0,33.4,33.3,33.3,4.0,2.5,2.7175,0.3293681543334292,-0.02848837743727412,0.9266491440043876,-0.0027036848484231282,-0.145008,-30.867704
11.185,2.0,1.0,1.0,33.4,33.3,33.3,4.0,2.5,2.72,0.3193094352206605,-0.029042264485514727,0.9298387881535116,-0.0030858636110390023,-0.147718,-30.690634
11.185,2.0,1.0,1.0,33.4,33.3,33.3,4.0,2.5,2.7225,0.3091298255953468,-0.02960870745876351,0.9329390359381216,-0.003485719588723515,-0.150514,-30.511833
11.185,2.0,1.0,1.0,33.4,33.3,33.3,4.0,2.5,2.725,0.2988281044253663,-0.0301880747445443,0.9359467621667338,-0.0039041320194491305,-0.153401,-30.331255
11.185,2.0,1.0,1.0,33.4,33.3,33.3,4.0,2.5,2.7275,0.28840304963250485,-0.03078074818263021,0.9388587257452646,-0.0043420338900867946,-0.156383,-30.148846
11.185,2.0,1.0,1.0,33.4,33.3,33.3,4.0,2.5,2.73,0.2778534389718751,-0.03138712358079256,0.9416715640873208,-0.004800415995324764,-0.159465,-29.964552
11.185,2.0,1.0,1.0,33.4,33.3,33.3,4.0,2.5,2.7325,0.26717805097804426,-0.03200761123735905,0.9443817871294419,-0.005280331367118528,-0.16265,-29.778319
11.185,2.0,1.0,1.0,33.4,33.3,33.3,4.0,2.5,2.735,0.2563756659844703,-0.032642636467007775,0.9469857709119676,-0.0057829001144389545,-0.165945,-29.590088
11.185,2.0,1.0,1.0,33.4,33.3,33.3,4.0,2.5,2.7375,0.24544506722387838,-0.03329264012523036,0.9494797506813708,-0.006309314717985297,-0.169355,-29.399797
11.185,2.0,1.0,1.0,33.4,33.3,33.3,4.0,2.5,2.74,0.23438504201854235,-0.033958079125678504,0.9518598134643609,-0.00686084583010396,-0.172886,-29.207383
11.185,2.0,1.0,1.0,33.4,33.3,33.3,4.0,2.5,2.7425,0.2231943830709655,-0.03463942694312418,0.9541218900577438,-0.00743884863651425,-0.176544,-29.012779
11.185,2.0,1.0,1.0,33.4,33.3,33.3,4.0,2.5,2.745,0.2118718898673828,-0.035337174092947475,0.9562617463708171,-0.008044769843707125,-0.180337,-28.815917
11.185,2.0,1.0,1.0,33.4,33.3,33.3,4.0,2.5,2.7475,0.20041637020876374,-0.03605182857585293,0.9582749740487686,-0.008680155364196845,-0.184271,-28.616722
11.185,2.0,1.0,1.0,33.4,33.3,33.3,4.0,2.5,2.75,0.188826641886797,-0.03678391627381,0.960156980296066,-0.00934665878133673,-0.188354,-28.415119
11.185,2.0,1.0,1.0,33.4,33.3,33.3,4.0,2.5,2.7525,0.17710153452569583,-0.037533981279910915,0.9619029768078704,-0.010046050686353634,-0.192595,-28.211028
11.185,2.0,1.0,1.0,33.4,33.3,33.3,4.0,2.5,2.755,0.16523989161478705,-0.03830258614080034,0.9635079677049204,-0.010780228992846657,-0.197003,-28.004364
11.185,2.0,1.0,1.0,33.4,33.3,33.3,4.0,2.5,2.7575,0.15324057276181433,-0.03909031198539492,0.9649667363527918,-0.011551230348507514,-0.201588,-27.79504
11.185,2.0,1.0,1.0,33.4,33.3,33.3,4.0,2.5,2.76,0.14110245620305922,-0.03989775850755739,0.9662738309296324,-0.012361242780571784,-0.20636,-27.582963
11.185,2.0,1.0,1.0,33.4,33.3,33.3,4.0,2.5,2.7625,0.12882444161379691,-0.040725543762978426,0.9674235485870015,-0.013212619730893826,-0.211332,-27.368036
11.185,2.0,1.0,1.0,33.4,33.3,33.3,4.0,2.5,2.765,0.11640545327182474,-0.04157430373140927,0.9684099180258714,-0.01410789565899874,-0.216515,-27.150157
11.185,2.0,1.0,1.0,33.4,33.3,33.3,4.0,2.5,2.7675,0.10384444363803592,-0.04244469158419157,0.9692266802835715,-0.015049803417548085,-0.221923,-26.929217
11.185,2.0,1.0,1.0,33.4,33.3,33.3,4.0,2.5,2.77,0.09114039743187309,-0.043337376583237455,0.9698672674969063,-0.016041293635003822,-0.227571,-26.705103
11.185,2.0,1.0,1.0,33.4,33.3,33.3,4.0,2.5,2.7725,0.07829233629660459,-0.04425304252058636,0.9703247793709708,-0.017085556375647404,-0.233475,-26.477696
11.185,2.0,1.0,1.0,33.4,33.3,33.3,4.0,2.5,2.775,0.06529932417049683,-0.04519238558661421,0.9705919570415041,-0.018186045388430282,-0.239653,-26.246869
11.185,2.0,1.0,1.0,33.4,33.3,33.3,4.0,2.5,2.7775,0.05216047350614711,-0.04615611152887766,0.9706611539697467,-0.01934650530448236,-0.246124,-26.012488
11.185,2.0,1.0,1.0,33.4,33.3,33.3,4.0,2.5,2.78,0.03887495251277602,-0.04714493193116701,0.9705243034514645,-0.02057100219980173,-0.252909,-25.774412
11.185,2.0,1.0,1.0,33.4,33.3,33.3,4.0,2.5,2.7825,0.02544199363683431,-0.04815955940197692,0.9701728822543697,-0.021863958006247176,-0.260032,-25.532492
11.185,2.0,1.0,1.0,33.4,33.3,33.3,4.0,2.5,2.785,0.011860903546819939,-0.04920070141121835,0.9695978698188275,-0.02323018933235476,-0.267517,-25.286568
11.185,2.0,1.0,1.0,33.4,33.3,33.3,4.0,2.5,2.7875,-0.0018689250483292395,-0.05026905245089784,0.9687897023630355,-0.02467495134792472,-0.275394,-25.036474
11.185,2.0,1.0,1.0,33.4,33.3,33.3,4.0,2.5,2.79,-0.015747999338371472,-0.051365284116277686,0.9677382211231599,-0.026203987495517795,-0.283692,-24.782029
11.185,2.0,1.0,1.0,33.4,33.3,33.3,4.0,2.5,2.7925,-0.029776709599142265,-0.052490032604249975,0.9664326138278634,-0.027823585921170377,-0.292448,-24.523046
11.185,2.0,1.0,1.0,33.4,33.3,33.3,4.0,2.5,2.795,-0.04395530899217864,-0.05364388299959344,0.9648613483512236,-0.029540643669712756,-0.301698,-24.259322
11.185,2.0,1.0,1.0,33.4,33.3,33.3,4.0,2.5,2.7975,-0.05828388917965354,-0.05482734955994532,0.9630120973036046,-0.03136273987166527,-0.311486,-23.990641
11.185,2.0,1.0,1.0,33.4,33.3,33.3,4.0,2.5,2.8,-0.07276235075309773,-0.05604085100698727,0.9608716521007803,-0.03329821936438808,-0.32186,-23.716777
11.185,2.0,1.0,1.0,33.4,33.3,33.3,4.0,2.5,2.8025,-0.08739036721281425,-0.05728467957169392,0.9584258247909033,-0.03535628844650573,-0.332872,-23.437483
11.185,2.0,1.0,1.0,33.4,33.3,33.3,4.0,2.5,2.805,-0.10216734089957966,-0.05855896220868955,0.9556593356087661,-0.037547124769398275,-0.344583,-23.152499
11.185,2.0,1.0,1.0,33.4,33.3,33.3,4.0,2.5,2.8075,-0.11709234884854616,-0.059863611966498656,0.9525556838579473,-0.039882003731772725,-0.35706,-22.861546
11.185,2.0,1.0,1.0,33.4,33.3,33.3,4.0,2.5,2.81,-0.13216407597721544,-0.06119826694711431,0.9490969992832314,-0.04237344417336406,-0.370379,-22.564325
11.185,2.0,1.0,1.0,33.4,33.3,33.3,4.0,2.5,2.8125,-0.14738073229489984,-0.0625622135702779,0.9452638705761712,-0.04503537667327406,-0.384627,-22.260516
11.185,2.0,1.0,1.0,33.4,33.3,33.3,4.0,2.5,2.815,-0.1627399498766657,-0.06395428992210057,0.9410351470427897,-0.04788333835989349,-0.399902,-21.949775
11.185,2.0,1.0,1.0,33.4,33.3,33.3,4.0,2.5,2.8175,-0.17823865410776768,-0.0653727637426571,0.9363877087410675,-0.05093469884541838,-0.416316,-21.631734
11.185,2.0,1.0,1.0,33.4,33.3,33.3,4.0,2.5,2.82,-0.1938729020772688,-0.06681517799621113,0.9312961995550204,-0.05420892271995156,-0.433997,-21.305996
11.185,2.0,1.0,1.0,33.4,33.3,33.3,4.0,2.5,2.8225,-0.20963767884857126,-0.0682781548392996,0.925732716704142,-0.057727874985054516,-0.453094,-20.972134
11.185,2.0,1.0,1.0,33.4,33.3,33.3,4.0,2.5,2.825,-0.22552663947819068,-0.0697571459765723,0.919666449093243,-0.06151617687196141,-0.473777,-20.629689
11.185,2.0,1.0,1.0,33.4,33.3,33.3,4.0,2.5,2.8275,-0.24153178084301963,-0.07124611362622917,0.9130632557079785,-0.06560162065479971,-0.496244,-20.278165
