1,w,sub_t,h,l1,l2,l3,g1,g2,Freq,S11_re,S21_re,S11_img,S21_img,S11_dB,S21_dB
11.185,2.0,1.0,1.0,33.8,33.0,33.0,3.9,1.8,2.5,0.81186493227287,-0.00845600220553043,0.572786892688955,0.00603749333901294,-0.055907,-39.66756
11.185,2.0,1.0,1.0,33.8,33.0,33.0,3.9,1.8,2.5025,0.8078157417787915,-0.008613590634774612,0.5783818318480768,0.0060489926211957324,-0.056424,-39.55522
11.185,2.0,1.0,1.0,33.8,33.0,33.0,3.9,1.8,2.505,0.8037096546843941,-0.008773728435379831,0.5839718207033991,0.006059361088688616,-0.05695,-39.442618
11.185,2.0,1.0,1.0,33.8,33.0,33.0,3.9,1.8,2.5075,0.7995461275197157,-0.008936458635621787,0.5895565127327332,0.006068557405741719,-0.057485,-39.32975
11.185,2.0,1.0,1.0,33.8,33.0,33.0,3.9,1.8,2.51,0.795324609444086,-0.009101825108061864,0.5951355515061049,0.006076538870217504,-0.058027,-39.216609
11.185,2.0,1.0,1.0,33.8,33.0,33.0,3.9,1.8,2.5125,0.7910445421770352,-0.00926987258703812,0.6007085703920948,0.0060832613640971886,-0.058579,-39.103188
11.185,2.0,1.0,1.0,33.8,33.0,33.0,3.9,1.8,2.515,0.7867053599304268,-0.009440646686469583,0.6062751922555403,0.006088679302021041,-0.059139,-38.989481
11.185,2.0,1.0,1.0,33.8,33.0,33.0,3.9,1.8,2.5175,0.782306489341967,-0.009614193917975774,0.6118350291463199,0.006092745577777328,-0.059709,-38.875483
11.185,2.0,1.0,1.0,33.8,33.0,33.0,3.9,1.8,2.52,0.7778473494102127,-0.00979056170931211,0.6173876819789729,0.006095411508647472,-0.060288,-38.761185
11.185,2.0,1.0,1.0,33.8,33.0,33.0,3.9,1.8,2.5225,0.7733273514312471,-0.009969798423121975,0.6229327402028488,0.00609662677751446,-0.060877,-38.646582
11.185,2.0,1.0,1.0,33.8,33.0,33.0,3.9,1.8,2.525,0.7687458989371667,-0.01015195337600515,0.6284697814625292,0.0060963393726328535,-0.061475,-38.531668
11.185,2.0,1.0,1.0,33.8,33.0,33.0,3.9,1.8,2.5275,0.7641023876365524,-0.010337076857903724,0.6339983712482138,0.006094495524958064,-0.062084,-38.416434
11.185,2.0,1.0,1.0,33.8,33.0,33.0,3.9,1.8,2.53,0.7593962053571016,-0.010525220151802546,0.6395180625357643,0.006091039642921862,-0.062702,-38.300876
11.185,2.0,1.0,1.0,33.8,33.0,33.0,3.9,1.8,2.5325,0.7546267319906087,-0.010716435553744817,0.6450283954161043,0.006085914244541845,-0.063332,-38.184984
11.185,2.0,1.0,1.0,33.8,33.0,33.0,3.9,1.8,2.535,0.7497933394404804,-0.010910776393159693,0.6505288967136468,0.006079059886741374,-0.063972,-38.068754
11.185,2.0,1.0,1.0,33.8,33.0,33.0,3.9,1.8,2.5375,0.744895391572008,-0.011108297053498624,0.6560190795934142,0.006070415091751789,-0.064623,-37.952177
11.185,2.0,1.0,1.0,33.8,33.0,33.0,3.9,1.8,2.54,0.7399322441656028,-0.011309052993178628,0.661498443156516,0.006059916270465622,-0.065285,-37.835246
11.185,2.0,1.0,1.0,33.8,33.0,33.0,3.9,1.8,2.5425,0.7349032448732248,-0.011513100766826398,0.6669664720236279,0.006047497642596173,-0.065959,-37.717955
11.185,2.0,1.0,1.0,33.8,33.0,33.0,3.9,1.8,2.545,0.7298077331782518,-0.011720498046818642,0.6724226359061114,0.006033091153496366,-0.066645,-37.600295
11.185,2.0,1.0,1.0,33.8,33.0,33.0,3.9,1.8,2.5475,0.7246450403590433,-0.011931303645112655,0.6778663891643889,0.006016626387481205,-0.067343,-37.48226
11.185,2.0,1.0,1.0,33.8,33.0,33.0,3.9,1.8,2.55,0.719414489456456,-0.01214557753535911,0.6832971703532066,0.005998030477486836,-0.068054,-37.363842
11.185,2.0,1.0,1.0,33.8,33.0,33.0,3.9,1.8,2.5525,0.7141153952456128,-0.012363380875289024,0.6887144017533664,0.0059772280108950524,-0.068777,-37.245034
11.185,2.0,1.0,1.0,33.8,33.0,33.0,3.9,1.8,2.555,0.708747064212203,-0.012584776029364747,0.6941174888895277,0.005954140931338345,-0.069513,-37.125826
11.185,2.0,1.0,1.0,33.8,33.0,33.0,3.9,1.8,2.5575,0.7033087945336352,-0.012809826591683851,0.6995058200336589,0.005928688436293497,-0.070262,-37.006213
11.185,2.0,1.0,1.0,33.8,33.0,33.0,3.9,1.8,2.56,0.697799876065371,-0.013038597409123347,0.7048787656936863,0.005900786870260458,-0.071026,-36.886185
11.185,2.0,1.0,1.0,33.8,33.0,33.0,3.9,1.8,2.5625,0.6922195903327848,-0.013271154604709384,0.710235678086907,0.005870349613311543,-0.071803,-36.765735
11.185,2.0,1.0,1.0,33.8,33.0,33.0,3.9,1.8,2.565,0.6865672105289067,-0.013507565601196482,0.7155758905976878,0.005837286964783424,-0.072595,-36.644854
11.185,2.0,1.0,1.0,33.8,33.0,33.0,3.9,1.8,2.5675,0.6808420015184421,-0.013747899144838486,0.7208987172189776,0.005801506021875685,-0.073401,-36.523535
11.185,2.0,1.0,1.0,33.8,33.0,33.0,3.9,1.8,2.57,0.6750432198484574,-0.013992225329329804,0.726203451977131,0.005762910552898915,-0.074223,-36.401768
11.185,2.0,1.0,1.0,33.8,33.0,33.0,3.9,1.8,2.5725,0.6691701137661599,-0.014240615619895897,0.7314893683395429,0.005721400864909362,-0.07506,-36.279546
11.185,2.0,1.0,1.0,33.8,33.0,33.0,3.9,1.8,2.575,0.66322192324421,-0.01449314287750666,0.7367557186045552,0.005676873665445098,-0.075913,-36.156859
11.185,2.0,1.0,1.0,33.8,33.0,33.0,3.9,1.8,2.5775,0.6571978800140367,-0.014749881383185344,0.7420017332730972,0.0056292219180660965,-0.076782,-36.033698
11.185,2.0,1.0,1.0,33.8,33.0,33.0,3.9,1.8,2.58,0.651097207607642,-0.01501090686238208,0.7472266204014906,0.005578334691382201,-0.077668,-35.910055
11.185,2.0,1.0,1.0,33.8,33.0,33.0,3.9,1.8,2.5825,0.6449191214084029,-0.015276296509378326,0.7524295649348486,0.005524097001234251,-0.078571,-35.785921
11.185,2.0,1.0,1.0,33.8,33.0,33.0,3.9,1.8,2.585,0.6386628287114189,-0.015546129011683904,0.7576097280204511,0.005466389645673577,-0.079492,-35.661285
11.185,2.0,1.0,1.0,33.8,33.0,33.0,3.9,1.8,2.5875,0.6323275287939594,-0.015820484574385892,0.7627662463004949,0.005405089032364794,-0.080431,-35.53614
11.185,2.0,1.0,1.0,33.8,33.0,33.0,3.9,1.8,2.59,0.6259124129966133,-0.016099444944403695,0.7678982311835557,0.005340066998014215,-0.081389,-35.410474
11.185,2.0,1.0,1.0,33.8,33.0,33.0,3.9,1.8,2.5925,0.6194166648157565,-0.016383093434599864,0.7730047680941144,0.005271190619399451,-0.082365,-35.284278
11.185,2.0,1.0,1.0,33.8,33.0,33.0,3.9,1.8,2.595,0.6128394600080009,-0.016671514947691816,0.7780849156994453,0.005198322015555081,-0.083362,-35.157543
11.185,2.0,1.0,1.0,33.8,33.0,33.0,3.9,1.8,2.5975,0.6061799667072969,-0.016964795999904102,0.7831377051131607,0.005121318140635717,-0.084378,-35.030258
11.185,2.0,1.0,1.0,33.8,33.0,33.0,3.9,1.8,2.6,0.5994373455554161,-0.01726302474429485,0.7881621390746794,0.005040030566952249,-0.085415,-34.902413
11.185,2.0,1.0,1.0,33.8,33.0,33.0,3.9,1.8,2.6025,0.5926107498465741,-0.017566290993683287,0.7931571911038352,0.004954305257642946,-0.086473,-34.773997
11.185,2.0,1.0,1.0,33.8,33.0,33.0,3.9,1.8,2.605,0.5856993256869726,-0.017874686243098875,0.798121804629853,0.004863982328408896,-0.087553,-34.644999
11.185,2.0,1.0,1.0,33.8,33.0,33.0,3.9,1.8,2.6075,0.5787022121701001,-0.018188303691665332,0.8030548920938518,0.004768895797704511,-0.088655,-34.515409
11.185,2.0,1.0,1.0,33.8,33.0,33.0,3.9,1.8,2.61,0.5716185415686602,-0.018507238263821765,0.8079553340240315,0.004668873324734911,-0.08978,-34.385215
11.185,2.0,1.0,1.0,33.8,33.0,33.0,3.9,1.8,2.6125,0.5644474395440399,-0.018831586629778428,0.8128219780826385,0.004563735934572807,-0.090929,-34.254406
11.185,2.0,1.0,1.0,33.8,33.0,33.0,3.9,1.8,2.615,0.5571880253742721,-0.01916144722509016,0.8176536380838069,0.0044532977296547,-0.092102,-34.12297
11.185,2.0,1.0,1.0,33.8,33.0,33.0,3.9,1.8,2.6175,0.5498394122015041,-0.01949692026922306,0.8224490929812923,0.004337365586876894,-0.0933,-33.990895
11.185,2.0,1.0,1.0,33.8,33.0,33.0,3.9,1.8,2.62,0.5424007073000184,-0.019838107782975286,0.8272070858251049,0.004215738839449696,-0.094524,-33.85817
11.185,2.0,1.0,1.0,33.8,33.0,33.0,3.9,1.8,2.6225,0.534871012365914,-0.02018511360460166,0.8319263226859941,0.004088208942617866,-0.095775,-33.724782
11.185,2.0,1.0,1.0,33.8,33.0,33.0,3.9,1.8,2.625,0.527249423829609,-0.0205380434044756,0.836605471546692,0.00395455912229071,-0.097053,-33.590718
11.185,2.0,1.0,1.0,33.8,33.0,33.0,3.9,1.8,2.6275,0.5195350331923713,-0.02089700469810827,0.8412431611587762,0.003814564005559637,-0.098358,-33.455965
11.185,2.0,1.0,1.0,33.8,33.0,33.0,3.9,1.8,2.63,0.5117269273881607,-0.02126210685732422,0.8458379798639525,0.003667989232009351,-0.099693,-33.320511
11.185,2.0,1.0,1.0,33.8,33.0,33.0,3.9,1.8,2.6325,0.5038241891721121,-0.021633461119376456,0.8503884743785173,0.003514591044652156,-0.101057,-33.184341
11.185,2.0,1.0,1.0,33.8,33.0,33.0,3.9,1.8,2.635,0.4958258975370667,-0.02201118059376117,0.8548931485396762,0.003354115859229899,-0.102452,-33.047441
11.185,2.0,1.0,1.0,33.8,33.0,33.0,3.9,1.8,2.6375,0.48773112815962916,-0.022395380266468555,0.8593504620123436,0.003186299810537984,-0.103879,-32.909799
11.185,2.0,1.0,1.0,33.8,33.0,33.0,3.9,1.8,2.64,0.47953895387727213,-0.02278617700138245,0.8637588289549898,0.0030108682743277392,-0.105338,-32.771398
11.185,2.0,1.0,1.0,33.8,33.0,33.0,3.9,1.8,2.6425,0.47124844519814035,-0.023183689538510233,0.8681166166429818,0.002827535363236524,-0.10683,-32.632224
11.185,2.0,1.0,1.0,33.8,33.0,33.0,3.9,1.8,2.645,0.4628586708452323,-0.023588038488695128,0.8724221440478424,0.002636003395079496,-0.108357,-32.492263
11.185,2.0,1.0,1.0,33.8,33.0,33.0,3.9,1.8,2.6475,0.45436869833676496,-0.023999346324426848,0.8766736803706902,0.0024359623317111185,-0.10992,-32.351497
11.185,2.0,1.0,1.0,33.8,33.0,33.0,3.9,1.8,2.65,0.44577759460457683,-0.02441773736632896,0.880869443528103,0.0022270891865278667,-0.111519,-32.209913
11.185,2.0,1.0,1.0,33.8,33.0,33.0,3.9,1.8,2.6525,0.4370844266525816,-0.02484333776485686,0.8850075985884587,0.002009047398536042,-0.113157,-32.067492
11.185,2.0,1.0,1.0,33.8,33.0,33.0,3.9,1.8,2.655,0.42828826225730937,-0.025276275476694608,0.8890862561567574,0.0017814861707447617,-0.114833,-31.924218
11.185,2.0,1.0,1.0,33.8,33.0,33.0,3.9,1.8,2.6575,0.419388170712743,-0.02571668023528423,0.8931034707057651,0.0015440397704695543,-0.11655,-31.780074
11.185,2.0,1.0,1.0,33.8,33.0,33.0,3.9,1.8,2.66,0.4103832236217471,-0.02616468351486337,0.8970572388511712,0.0012963267889399659,-0.118309,-31.635043
11.185,2.0,1.0,1.0,33.8,33.0,33.0,3.9,1.8,2.6625,0.4012724957365125,-0.02662041848732067,0.9009454975683316,0.0010379493573926923,-0.120111,-31.489105
11.185,2.0,1.0,1.0,33.8,33.0,33.0,3.9,1.8,2.665,0.3920550658505577,-0.02708401997110588,0.9047661223479674,0.0007684923166041499,-0.121957,-31.342242
11.185,2.0,1.0,1.0,33.8,33.0,33.0,3.9,1.8,2.6675,0.38273001774500937,-0.027555624371348664,0.9085169252880072,0.00048752233656558687,-0.12385,-31.194436
11.185,2.0,1.0,1.0,33.8,33.0,33.0,3.9,1.8,2.67,0.3732964411919841,-0.0280353696102509,0.9121956531185678,0.0001945869827284493,-0.12579,-31.045665
11.185,2.0,1.0,1.0,33.8,33.0,33.0,3.9,1.8,2.6725,0.36375343301808316,-0.028523395046712415,0.915799985156835,-0.00011078627505266931,-0.12778,-30.89591
11.185,2.0,1.0,1.0,33.8,33.0,33.0,3.9,1.8,2.675,0.3541000982311991,-0.02901984138403682,0.9193275311883359,-0.0004290911150820209,-0.129821,-30.74515
11.185,2.0,1.0,1.0,33.8,33.0,33.0,3.9,1.8,2.6775,0.34433555121399045,-0.02952485056443602,0.9227758292708417,-0.000760843482452731,-0.131915,-30.593363
11.185,2.0,1.0,1.0,33.8,33.0,33.0,3.9,1.8,2.68,0.3344589169876043,-0.030038565648905422,0.9261423434568156,-0.0011065827787078433,-0.134063,-30.440526
11.185,2.0,1.0,1.0,33.8,33.0,33.0,3.9,1.8,2.6825,0.32446933254946325,-0.030561130680881725,0.929424461429969,-0.001466873127929944,-0.136268,-30.286618
11.185,2.0,1.0,1.0,33.8,33.0,33.0,3.9,1.8,2.685,0.314365948289138,-0.0310926905319098,0.9326194920511354,-0.001842304725140249,-0.138533,-30.131613
11.185,2.0,1.0,1.0,33.8,33.0,33.0,3.9,1.8,2.6875,0.304147929486629,-0.03163339072734078,0.9357246628082126,-0.0022334952734163814,-0.140858,-29.975489
11.185,2.0,1.0,1.0,33.8,33.0,33.0,3.9,1.8,2.69,0.29381445789765914,-0.03218337724984731,0.9387371171644856,-0.0026410915167227873,-0.143246,-29.818218
11.185,2.0,1.0,1.0,33.8,33.0,33.0,3.9,1.8,2.6925,0.2833647334308911,-0.03274279631828321,0.9416539117990763,-0.0030657708760938726,-0.145701,-29.659776
11.185,2.0,1.0,1.0,33.8,33.0,33.0,3.9,1.8,2.695,0.2727979759223614,-0.03331179413910836,0.9444720137327256,-0.0035082431975209855,-0.148224,-29.500136
11.185,2.0,1.0,1.0,33.8,33.0,33.0,3.9,1.8,2.6975,0.2621134270127731,-0.033890516627270516,0.9471882973314251,-0.003969252620684901,-0.150817,-29.339269
11.185,2.0,1.0,1.0,33.8,33.0,33.0,3.9,1.8,2.7,0.25131035213378916,-0.03447910909304313,0.94979954117968,-0.004449579578545939,-0.153485,-29.177146
11.185,2.0,1.0,1.0,33.8,33.0,33.0,3.9,1.8,2.7025,0.24038804260987956,-0.03507771589088712,0.9523024248143999,-0.004950042938772606,-0.156229,-29.013739
11.185,2.0,1.0,1.0,33.8,33.0,33.0,3.9,1.8,2.705,0.2293458178828837,-0.03568648002590191,0.9546935253094577,-0.005471502299064661,-0.159053,-28.849016
11.185,2.0,1.0,1.0,33.8,33.0,33.0,3.9,1.8,2.7075,0.21818302786701219,-0.03630554271287018,0.9569693136999524,-0.006014860449612878,-0.16196,-28.682944
11.185,2.0,1.0,1.0,33.8,33.0,33.0,3.9,1.8,2.71,0.20689905544272982,-0.03693504288224627,0.9591261512340469,-0.006581066017270878,-0.164954,-28.515492
11.185,2.0,1.0,1.0,33.8,33.0,33.0,3.9,1.8,2.7125,0.19549331909871095,-0.03757511662670303,0.961160285438963,-0.007171116307482649,-0.168038,-28.346624
11.185,2.0,1.0,1.0,33.8,33.0,33.0,3.9,1.8,2.715,0.18396527573195293,-0.03822589658100118,0.9630678459862573,-0.007786060361658071,-0.171217,-28.176305
11.185,2.0,1.0,1.0,33.8,33.0,33.0,3.9,1.8,2.7175,0.17231442361710905,-0.03888751122697355,0.9648448403398643,-0.00842700224951842,-0.174494,-28.004497
11.185,2.0,1.0,1.0,33.8,33.0,33.0,3.9,1.8,2.72,0.16054030555725976,-0.039560084114299295,0.9664871491685603,-0.009095104617983116,-0.177873,-27.831163
11.185,2.0,1.0,1.0,33.8,33.0,33.0,3.9,1.8,2.7225,0.14864251222959612,-0.04024373298645861,0.9679905215024112,-0.009791592520458671,-0.18136,-27.656262
11.185,2.0,1.0,1.0,33.8,33.0,33.0,3.9,1.8,2.725,0.136620685741025,-0.04093856879977684,0.9693505696104397,-0.010517757552949163,-0.184959,-27.479752
11.185,2.0,1.0,1.0,33.8,33.0,33.0,3.9,1.8,2.7275,0.12447452341033718,-0.04164469462175839,0.9705627635741008,-0.011274962326283734,-0.188676,-27.30159
11.185,2.0,1.0,1.0,33.8,33.0,33.0,3.9,1.8,2.73,0.11220378179560463,-0.042362204392936725,0.9716224255281793,-0.012064645306967905,-0.192515,-27.121732
11.185,2.0,1.0,1.0,33.8,33.0,33.0,3.9,1.8,2.7325,0.09980828098766296,-0.04309118153417521,0.9725247235373534,-0.012888326062792483,-0.196484,-26.940129
11.185,2.0,1.0,1.0,33.8,33.0,33.0,3.9,1.8,2.735,0.08728790919322786,-0.04383169737870487,0.9732646650728278,-0.013747610953390083,-0.200588,-26.756734
11.185,2.0,1.0,1.0,33.8,33.0,33.0,3.9,1.8,2.7375,0.07464262763413608,-0.0445838094050984,0.9738370900491712,-0.014644199310512944,-0.204834,-26.571494
11.185,2.0,1.0,1.0,33.8,33.0,33.0,3.9,1.8,2.74,0.0618724757928011,-0.04534755924379079,0.9742366633765535,-0.015579890157961023,-0.209229,-26.384357
11.185,2.0,1.0,1.0,33.8,33.0,33.0,3.9,1.8,2.7425,0.04897757703803512,-0.046122970425573395,0.9744578669780398,-0.016556589526911674,-0.213781,-26.195266
11.185,2.0,1.0,1.0,33.8,33.0,33.0,3.9,1.8,2.745,0.03595814467019401,-0.04691004583559531,0.9744949912153151,-0.017576318428975706,-0.218499,-26.004164
11.185,2.0,1.0,1.0,33.8,33.0,33.0,3.9,1.8,2.7475,0.022814488430217574,-0.04770876483068147,0.9743421256590196,-0.018641221556742804,-0.22339,-25.810988
11.185,2.0,1.0,1.0,33.8,33.0,33.0,3.9,1.8,2.75,0.00954702152374936,-0.0485190799710629,0.973993149131738,-0.0197535767899962,-0.228465,-25.615676
11.185,2.0,1.0,1.0,33.8,33.0,33.0,3.9,1.8,2.7525,-0.003843731780799115,-0.04934091330972163,0.9734417189424459,-0.020915805595324716,-0.233733,-25.418161
11.185,2.0,1.0,1.0,33.8,33.0,33.0,3.9,1.8,2.755,-0.01735712791211447,-0.050174152173258456,0.972681259220573,-0.022130484417683862,-0.239206,-25.218371
11.185,2.0,1.0,1.0,33.8,33.0,33.0,3.9,1.8,2.7575,-0.030992395035052116,-0.05101864435722474,0.9717049482459136,-0.02340035717477027,-0.244896,-25.016234
11.185,2.0,1.0,1.0,33.8,33.0,33.0,3.9,1.8,2.76,-0.0447486232771872,-0.05187419264588171,0.9705057046567517,-0.024728348979056982,-0.250815,-24.811673
11.185,2.0,1.0,1.0,33.8,33.0,33.0,3.9,1.8,2.7625,-0.058624754036137275,-0.05274054855097808,0.9690761724029587,-0.02611758122827052,-0.256977,-24.604605
11.185,2.0,1.0,1.0,33.8,33.0,33.0,3.9,1.8,2.765,-0.07261956824279671,-0.05361740514586132,0.9674087042928524,-0.027571388223233174,-0.263397,-24.394947
11.185,2.0,1.0,1.0,33.8,33.0,33.0,3.9,1.8,2.7675,-0.08673167343413406,-0.05450438884948271,0.9654953439621022,-0.02909333549269149,-0.270091,-24.182607
11.185,2.0,1.0,1.0,33.8,33.0,33.0,3.9,1.8,2.77,-0.1009594894635091,-0.05540104998888244,0.9633278060695085,-0.03068724002836841,-0.277077,-23.967492
11.185,2.0,1.0,1.0,33.8,33.0,33.0,3.9,1.8,2.7725,-0.11530123264559905,-0.056306851937660995,0.9608974544976413,-0.032357192660445344,-0.284374,-23.749501
11.185,2.0,1.0,1.0,33.8,33.0,33.0,3.9,1.8,2.775,-0.12975489809601073,-0.05722115859065399,0.9581952783055512,-0.03410758283449044,-0.292002,-23.52853
11.185,2.0,1.0,1.0,33.8,33.0,33.0,3.9,1.8,2.7775,-0.14431823998108617,-0.058143219890174846,0.9552118651456155,-0.03594312608606612,-0.299985,-23.304468
11.185,2.0,1.0,1.0,33.8,33.0,33.0,3.9,1.8,2.78,-0.15898874933950072,-0.05907215506510053,0.9519373718162155,-0.037868894549491446,-0.308348,-23.077196
11.185,2.0,1.0,1.0,33.8,33.0,33.0,3.9,1.8,2.7825,-0.17376362907208326,-0.06000693317864811,0.9483614915758806,-0.03989035088321483,-0.317117,-22.846593
11.185,2.0,1.0,1.0,33.8,33.0,33.0,3.9,1.8,2.785,-0.18863976561714477,-0.060946350501362025,0.9444734177917359,-0.042013386046773946,-0.326322,-22.612526
11.185,2.0,1.0,1.0,33.8,33.0,33.0,3.9,1.8,2.7875,-0.2036136967321066,-0.06188900412932366,0.9402618034348484,-0.04424436142420895,-0.335997,-22.374856
11.185,2.0,1.0,1.0,33.8,33.0,33.0,3.9,1.8,2.79,-0.21868157468467778,-0.0628332611498845,0.9357147158663665,-0.04659015585701972,-0.346178,-22.133436
11.185,2.0,1.0,1.0,33.8,33.0,33.0,3.9,1.8,2.7925,-0.23383912401250634,-0.0637772225131837,0.9308195862801646,-0.04905821822725003,-0.356905,-21.88811
11.185,2.0,1.0,1.0,33.8,33.0,33.0,3.9,1.8,2.795,-0.24908159283331383,-0.06471868059092281,0.9255631530791236,-0.05165662631903371,-0.368221,-21.638713
11.185,2.0,1.0,1.0,33.8,33.0,33.0,3.9,1.8,2.7975,-0.2644036964691878,-0.06565506918618938,0.9199313983622338,-0.054394152785787554,-0.380177,-21.385067
11.185,2.0,1.0,1.0,33.8,33.0,33.0,3.9,1.8,2.8,-0.2797995518791106,-0.06658340448923096,0.9139094765876916,-0.05728033916093307,-0.392827,-21.126986
11.185,2.0,1.0,1.0,33.8,33.0,33.0,3.9,1.8,2.8025,-0.2952626010592669,-0.06750021514082773,0.9074816343527479,-0.060325578972775656,-0.406233,-20.86427
11.185,2.0,1.0,1.0,33.8,33.0,33.0,3.9,1.8,2.805,-0.3107855211544536,-0.0684014591505129,0.9006311200946328,-0.06354121115862686,-0.420462,-20.596706
11.185,2.0,1.0,1.0,33.8,33.0,33.0,3.9,1.8,2.8075,-0.3263601185044743,-0.06928242489984028,0.8933400823699107,-0.06693962511782757,-0.435591,-20.324067
11.185,2.0,1.0,1.0,33.8,33.0,33.0,3.9,1.8,2.81,-0.34197720319861163,-0.07013761281356001,0.8855894552155059,-0.07053437889460594,-0.451706,-20.046113
11.185,2.0,1.0,1.0,33.8,33.0,33.0,3.9,1.8,2.8125,-0.3576264398933312,-0.07096059346832272,0.8773588289396291,-0.07434033213335269,-0.468905,-19.762583
11.185,2.0,1.0,1.0,33.8,33.0,33.0,3.9,1.8,2.815,-0.3732961696170875,-0.07174383688339402,0.86862630454576,-0.07837379559009108,-0.487297,-19.473203
11.185,2.0,1.0,1.0,33.8,33.0,33.0,3.9,1.8,2.8175,-0.38897319598100943,-0.07247850644122854,0.8593683298754307,-0.08265269909686025,-0.507007,-19.177676
11.185,2.0,1.0,1.0,33.8,33.0,33.0,3.9,1.8,2.82,-0.4046425275576635,-0.07315420924034947,0.849559515494135,-0.08719677993210345,-0.528178,-18.875687
11.185,2.0,1.0,1.0,33.8,33.0,33.0,3.9,1.8,2.8225,-0.42028706608068706,-0.07375869258838165,0.839172428383767,-0.09202779350558504,-0.550973,-18.566897
11.185,2.0,1.0,1.0,33.8,33.0,33.0,3.9,1.8,2.825,-0.43588722742384084,-0.07427747366881315,0.8281773617133218,-0.0971697480521553,-0.575577,-18.250944
11.185,2.0,1.0,1.0,33.8,33.0,33.0,3.9,1.8,2.8275,-0.4514204788685242,-0.07469338599161857,0.8165420794431267,-0.10264916453940084,-0.602205,-17.92744
