1,w,sub_t,h,l1,l2,l3,g1,g2,Freq,S11_re,S21_re,S11_img,S21_img,S11_dB,S21_dB
11.185,2.0,1.0,1.0,34.7,33.8,33.8,2.3,4.1,2.5,0.655099214009393,-0.0139730429025699,0.743521112697437,0.00478666843425,-0.07898,-36.612286
11.185,2.0,1.0,1.0,34.7,33.8,33.8,2.3,4.1,2.5025,0.6485208600201424,-0.014209056377522898,0.7491314420416684,0.004717926006204262,-0.07987,-36.494494
11.185,2.0,1.0,1.0,34.7,33.8,33.8,2.3,4.1,2.505,0.641855398662424,-0.014448403118069046,0.754714456438212,0.004645530202137859,-0.080777,-36.376357
11.185,2.0,1.0,1.0,34.7,33.8,33.8,2.3,4.1,2.5075,0.6351020070926461,-0.014691118330174318,0.7602691029124193,0.0045693648325650016,-0.0817,-36.25787
11.185,2.0,1.0,1.0,34.7,33.8,33.8,2.3,4.1,2.51,0.6282598576817771,-0.01493723689754261,0.7657942994557365,0.0044893101031484245,-0.08264,-36.139026
11.185,2.0,1.0,1.0,34.7,33.8,33.8,2.3,4.1,2.5125,0.6213281182893607,-0.015186793327882532,0.7712889342480413,0.004405242500451407,-0.083597,-36.019821
11.185,2.0,1.0,1.0,34.7,33.8,33.8,2.3,4.1,2.515,0.6143059525575137,-0.015439821695727869,0.7767518648614055,0.004317034674087482,-0.084571,-35.900248
11.185,2.0,1.0,1.0,34.7,33.8,33.8,2.3,4.1,2.5175,0.6071925202259205,-0.015696355581621028,0.7821819174449858,0.004224555315160313,-0.085563,-35.780303
11.185,2.0,1.0,1.0,34.7,33.8,33.8,2.3,4.1,2.52,0.5999869774688329,-0.015956428007460527,0.7875778858907738,0.004127669030884749,-0.086573,-35.659979
11.185,2.0,1.0,1.0,34.7,33.8,33.8,2.3,4.1,2.5225,0.5926884772551915,-0.016220071367800817,0.79293853097991,0.0040262362152774815,-0.087601,-35.539271
11.185,2.0,1.0,1.0,34.7,33.8,33.8,2.3,4.1,2.525,0.5852961697329565,-0.01648731735688427,0.7982625795093212,0.003920112915802078,-0.088649,-35.418172
11.185,2.0,1.0,1.0,34.7,33.8,33.8,2.3,4.1,2.5275,0.5778092026388484,-0.016758196891171213,0.8035487233984163,0.0038091506958520234,-0.089716,-35.296677
11.185,2.0,1.0,1.0,34.7,33.8,33.8,2.3,4.1,2.53,0.5702267217347087,-0.017032740027122985,0.8087956187756035,0.003693196492951727,-0.090803,-35.174781
11.185,2.0,1.0,1.0,34.7,33.8,33.8,2.3,4.1,2.5325,0.5625478712717707,-0.01731097587397946,0.8140018850444067,0.0035720924725532945,-0.091911,-35.052476
11.185,2.0,1.0,1.0,34.7,33.8,33.8,2.3,4.1,2.535,0.5547717944841423,-0.017592932501259283,0.8191661039289669,0.003445675877303829,-0.093039,-34.929758
11.185,2.0,1.0,1.0,34.7,33.8,33.8,2.3,4.1,2.5375,0.5468976341129161,-0.017878636840696144,0.8242868184987343,0.003313778871656328,-0.094189,-34.80662
11.185,2.0,1.0,1.0,34.7,33.8,33.8,2.3,4.1,2.54,0.5389245329623256,-0.018168114582310175,0.829362532172191,0.0031762283816933585,-0.09536,-34.683055
11.185,2.0,1.0,1.0,34.7,33.8,33.8,2.3,4.1,2.5425,0.5308516344894486,-0.01846139006429696,0.8343917076994306,0.0030328459300311746,-0.096554,-34.559058
11.185,2.0,1.0,1.0,34.7,33.8,33.8,2.3,4.1,2.545,0.5226780834290241,-0.018758486156400366,0.8393727661234922,0.002883447465668476,-0.097771,-34.434622
11.185,2.0,1.0,1.0,34.7,33.8,33.8,2.3,4.1,2.5475,0.5144030264550126,-0.019059424136417393,0.8443040857203191,0.0027278431886426195,-0.099011,-34.309742
11.185,2.0,1.0,1.0,34.7,33.8,33.8,2.3,4.1,2.55,0.5060256128805577,-0.019364223559465578,0.8491840009172958,0.0025658373693519376,-0.100275,-34.184409
11.185,2.0,1.0,1.0,34.7,33.8,33.8,2.3,4.1,2.5525,0.4975449953981507,-0.01967290211962234,0.8540108011902853,0.0023972281624019555,-0.101563,-34.058619
11.185,2.0,1.0,1.0,34.7,33.8,33.8,2.3,4.1,2.555,0.48896033086178,-0.019985475503527105,0.8587827299391886,0.00222180741482959,-0.102877,-33.932365
11.185,2.0,1.0,1.0,34.7,33.8,33.8,2.3,4.1,2.5575,0.48027078111298216,-0.02030195723551383,0.8634979833420288,0.0020393604685576016,-0.104217,-33.805639
11.185,2.0,1.0,1.0,34.7,33.8,33.8,2.3,4.1,2.56,0.47147551385276104,-0.02062235851381909,0.8681547091876287,0.0018496659569290754,-0.105583,-33.678435
11.185,2.0,1.0,1.0,34.7,33.8,33.8,2.3,4.1,2.5625,0.46257370356142147,-0.020946688037387126,0.8727510056869925,0.0016524955951693525,-0.106976,-33.550747
11.185,2.0,1.0,1.0,34.7,33.8,33.8,2.3,4.1,2.565,0.4535645324684285,-0.021274951822767625,0.8772849202635346,0.001447613964620163,-0.108397,-33.422567
11.185,2.0,1.0,1.0,34.7,33.8,33.8,2.3,4.1,2.5675,0.44444719157451834,-0.02160715301057461,0.881754448322358,0.001234778290589336,-0.109846,-33.293889
11.185,2.0,1.0,1.0,34.7,33.8,33.8,2.3,4.1,2.57,0.4352208817283237,-0.02194329166094766,0.8861575319988338,0.001013738213656568,-0.111324,-33.164705
11.185,2.0,1.0,1.0,34.7,33.8,33.8,2.3,4.1,2.5725,0.425884814759894,-0.02228336453742587,0.8904920588867915,0.0007842355542735971,-0.112832,-33.035009
11.185,2.0,1.0,1.0,34.7,33.8,33.8,2.3,4.1,2.575,0.4164382146735695,-0.022627364878613613,0.8947558607466852,0.0005460040704956702,-0.114371,-32.904792
11.185,2.0,1.0,1.0,34.7,33.8,33.8,2.3,4.1,2.5775,0.4068803189027495,-0.022975282156984085,0.8989467121941712,0.00029876920867852975,-0.115941,-32.774049
11.185,2.0,1.0,1.0,34.7,33.8,33.8,2.3,4.1,2.58,0.3972103796292044,-0.02332710182413088,0.903062329369596,4.2247846974215295e-05,-0.117543,-32.64277
11.185,2.0,1.0,1.0,34.7,33.8,33.8,2.3,4.1,2.5825,0.3874276651696434,-0.023682805041741264,0.9071003685889766,-0.0002238519685442414,-0.119178,-32.510949
11.185,2.0,1.0,1.0,34.7,33.8,33.8,2.3,4.1,2.585,0.37753146143238886,-0.02404236839752472,0.9110584249771172,-0.0004998312952995747,-0.120847,-32.378578
11.185,2.0,1.0,1.0,34.7,33.8,33.8,2.3,4.1,2.5875,0.3675210734470607,-0.02440576360528913,0.9149340310836154,-0.0007860005733414885,-0.122551,-32.24565
11.185,2.0,1.0,1.0,34.7,33.8,33.8,2.3,4.1,2.59,0.3573958269703164,-0.0247729571883123,0.9187246554825694,-0.0010826799123661317,-0.12429,-32.112156
11.185,2.0,1.0,1.0,34.7,33.8,33.8,2.3,4.1,2.5925,0.3471550701707543,-0.025143910145110523,0.9224277013569189,-0.001390199386800229,-0.126066,-31.978088
11.185,2.0,1.0,1.0,34.7,33.8,33.8,2.3,4.1,2.595,0.3367981753962419,-0.02551857759665458,0.9260405050684373,-0.001708899339126169,-0.127879,-31.843438
11.185,2.0,1.0,1.0,34.7,33.8,33.8,2.3,4.1,2.5975,0.3263245410269763,-0.0258969084140335,0.9295603347145048,-0.0020391306916282556,-0.129731,-31.708198
11.185,2.0,1.0,1.0,34.7,33.8,33.8,2.3,4.1,2.6,0.31573359341774154,-0.026278844825507977,0.9329843886729078,-0.002381255266739278,-0.131622,-31.57236
11.185,2.0,1.0,1.0,34.7,33.8,33.8,2.3,4.1,2.6025,0.3050247889329313,-0.02666432200183713,0.9363097941360153,-0.0027356461161693046,-0.133554,-31.435915
11.185,2.0,1.0,1.0,34.7,33.8,33.8,2.3,4.1,2.605,0.2941976160779837,-0.02705326761869946,0.9395336056358293,-0.003102687859000298,-0.135527,-31.298854
11.185,2.0,1.0,1.0,34.7,33.8,33.8,2.3,4.1,2.6075,0.2832515977310325,-0.02744560139496058,0.9426528035615211,-0.003482777028930773,-0.137543,-31.161168
11.185,2.0,1.0,1.0,34.7,33.8,33.8,2.3,4.1,2.61,0.2721862934786733,-0.027841234605469445,0.9456642926712111,-0.0038763224308564033,-0.139603,-31.022848
11.185,2.0,1.0,1.0,34.7,33.8,33.8,2.3,4.1,2.6125,0.2610013020598627,-0.028240069566988213,0.9485649005999048,-0.004283745506974966,-0.141708,-30.883886
11.185,2.0,1.0,1.0,34.7,33.8,33.8,2.3,4.1,2.615,0.24969626392208044,-0.02864199909577992,0.9513513763656298,-0.004705480712604671,-0.14386,-30.744272
11.185,2.0,1.0,1.0,34.7,33.8,33.8,2.3,4.1,2.6175,0.23827086389403745,-0.02904690593528978,0.9540203888760146,-0.0051419759019072754,-0.146059,-30.603996
11.185,2.0,1.0,1.0,34.7,33.8,33.8,2.3,4.1,2.62,0.2267248339792965,-0.029454662152264385,0.9565685254376742,-0.005593692723709339,-0.148307,-30.463048
11.185,2.0,1.0,1.0,34.7,33.8,33.8,2.3,4.1,2.6225,0.21505795627530763,-0.02986512849955299,0.9589922902709991,-0.006061107027617803,-0.150606,-30.321419
11.185,2.0,1.0,1.0,34.7,33.8,33.8,2.3,4.1,2.625,0.203270066022534,-0.030278153743727,0.961288103033072,-0.0065447092806275,-0.152956,-30.179098
11.185,2.0,1.0,1.0,34.7,33.8,33.8,2.3,4.1,2.6275,0.19136105478837395,-0.030693573955541884,0.9634522973516791,-0.007045004994423024,-0.15536,-30.036076
11.185,2.0,1.0,1.0,34.7,33.8,33.8,2.3,4.1,2.63,0.17933087379082124,-0.031111211761139988,0.9654811193735525,-0.007562515163578721,-0.157818,-29.892341
11.185,2.0,1.0,1.0,34.7,33.8,33.8,2.3,4.1,2.6325,0.16717953736685942,-0.03153087555176194,0.967370726330201,-0.008097776714866648,-0.160333,-29.747883
11.185,2.0,1.0,1.0,34.7,33.8,33.8,2.3,4.1,2.635,0.15490712659076816,-0.031952358649591416,0.9691171851249095,-0.008651342967884978,-0.162906,-29.602691
11.185,2.0,1.0,1.0,34.7,33.8,33.8,2.3,4.1,2.6375,0.1425137930476353,-0.03237543842720357,0.97071647094469,-0.009223784107225044,-0.165539,-29.456753
11.185,2.0,1.0,1.0,34.7,33.8,33.8,2.3,4.1,2.64,0.12999976276749137,-0.032799875377923185,0.9721644659012372,-0.009815687666403037,-0.168233,-29.310059
11.185,2.0,1.0,1.0,34.7,33.8,33.8,2.3,4.1,2.6425,0.11736534032567035,-0.03322541213421685,0.9734569577051388,-0.010427659023785422,-0.17099,-29.162595
11.185,2.0,1.0,1.0,34.7,33.8,33.8,2.3,4.1,2.645,0.10461091311509722,-0.03365177243105077,0.9745896383778758,-0.011060321910748414,-0.173813,-29.01435
11.185,2.0,1.0,1.0,34.7,33.8,33.8,2.3,4.1,2.6475,0.09173695579639524,-0.03407866001093419,0.9755581030063714,-0.011714318932318295,-0.176703,-28.865312
11.185,2.0,1.0,1.0,34.7,33.8,33.8,2.3,4.1,2.65,0.07874403493179866,-0.03450575746714021,0.9763578485451484,-0.01239031210055097,-0.179662,-28.715467
11.185,2.0,1.0,1.0,34.7,33.8,33.8,2.3,4.1,2.6525,0.06563281380912302,-0.034932725021345375,0.9769842726713647,-0.013088983380917369,-0.182693,-28.564803
11.185,2.0,1.0,1.0,34.7,33.8,33.8,2.3,4.1,2.655,0.05240405746207188,-0.03535919923166066,0.9774326726983339,-0.013811035251978028,-0.185797,-28.413307
11.185,2.0,1.0,1.0,34.7,33.8,33.8,2.3,4.1,2.6575,0.039058637893458016,-0.035784791626728485,0.9776982445533698,-0.01455719127863887,-0.188978,-28.260964
11.185,2.0,1.0,1.0,34.7,33.8,33.8,2.3,4.1,2.66,0.025597539508023587,-0.0362090872612393,0.9777760818260975,-0.015328196699300065,-0.192236,-28.10776
11.185,2.0,1.0,1.0,34.7,33.8,33.8,2.3,4.1,2.6625,0.012021864761789814,-0.03663164318786651,0.9776611748936508,-0.016124819027221276,-0.195576,-27.953681
11.185,2.0,1.0,1.0,34.7,33.8,33.8,2.3,4.1,2.665,-0.001667159964982516,-0.03705198684023346,0.9773484101294826,-0.016947848666450254,-0.198999,-27.798712
11.185,2.0,1.0,1.0,34.7,33.8,33.8,2.3,4.1,2.6675,-0.015468178263836098,-0.03746961432110001,0.9768325692027808,-0.017798099542674563,-0.202509,-27.642836
11.185,2.0,1.0,1.0,34.7,33.8,33.8,2.3,4.1,2.67,-0.029379697355600042,-0.03788398858949138,0.9761083284757928,-0.01867640974938211,-0.206107,-27.48604
11.185,2.0,1.0,1.0,34.7,33.8,33.8,2.3,4.1,2.6725,-0.04340008150146142,-0.038294537539979114,0.9751702585066573,-0.019583642209733958,-0.209797,-27.328305
11.185,2.0,1.0,1.0,34.7,33.8,33.8,2.3,4.1,2.675,-0.057527545159441064,-0.03870065196675833,0.9740128236656148,-0.02052068535457572,-0.213583,-27.169615
11.185,2.0,1.0,1.0,34.7,33.8,33.8,2.3,4.1,2.6775,-0.0717601458778134,-0.03910168340454351,0.9726303818727766,-0.02148845381703584,-0.217467,-27.009952
11.185,2.0,1.0,1.0,34.7,33.8,33.8,2.3,4.1,2.68,-0.08609577691660977,-0.03949694183761689,0.9710171844659045,-0.022487889144181813,-0.221453,-26.849299
11.185,2.0,1.0,1.0,34.7,33.8,33.8,2.3,4.1,2.6825,-0.10053215958793252,-0.039885693267601725,0.9691673762069525,-0.023519960526222117,-0.225544,-26.687637
11.185,2.0,1.0,1.0,34.7,33.8,33.8,2.3,4.1,2.685,-0.11506683530536,-0.040267157129691686,0.9670749954363624,-0.024585665543764786,-0.229744,-26.524946
11.185,2.0,1.0,1.0,34.7,33.8,33.8,2.3,4.1,2.6875,-0.129697157332179,-0.0406405035461323,0.964733974384426,-0.0256860309336529,-0.234057,-26.361206
11.185,2.0,1.0,1.0,34.7,33.8,33.8,2.3,4.1,2.69,-0.14442028221756678,-0.04100485040471327,0.9621381396492339,-0.026822113373908177,-0.238486,-26.196398
11.185,2.0,1.0,1.0,34.7,33.8,33.8,2.3,4.1,2.6925,-0.15923316090921852,-0.04135926024887988,0.9592812128510217,-0.027995000288316307,-0.243037,-26.030498
11.185,2.0,1.0,1.0,34.7,33.8,33.8,2.3,4.1,2.695,-0.17413252953002378,-0.0417027369647858,0.956156811472956,-0.02920581067117261,-0.247714,-25.863486
11.185,2.0,1.0,1.0,34.7,33.8,33.8,2.3,4.1,2.6975,-0.18911489980564336,-0.04203422224918496,0.9527584498986319,-0.030455695932691967,-0.252521,-25.695339
11.185,2.0,1.0,1.0,34.7,33.8,33.8,2.3,4.1,2.7,-0.20417654912864683,-0.04235259184046362,0.9490795406567996,-0.03174584076553543,-0.257463,-25.526031
11.185,2.0,1.0,1.0,34.7,33.8,33.8,2.3,4.1,2.7025,-0.21931351024382956,-0.042656651493336875,0.945113395884031,-0.033077464032849106,-0.262545,-25.355539
11.185,2.0,1.0,1.0,34.7,33.8,33.8,2.3,4.1,2.705,-0.23452156053784995,-0.04294513267574444,0.9408532290162972,-0.034451819678109626,-0.267774,-25.183836
11.185,2.0,1.0,1.0,34.7,33.8,33.8,2.3,4.1,2.7075,-0.2497962109148359,-0.04321668796425725,0.9362921567205887,-0.0358701976569413,-0.273154,-25.010897
11.185,2.0,1.0,1.0,34.7,33.8,33.8,2.3,4.1,2.71,-0.26513269423774694,-0.04346988611181371,0.9314232010779875,-0.03733392489088649,-0.278692,-24.836692
11.185,2.0,1.0,1.0,34.7,33.8,33.8,2.3,4.1,2.7125,-0.2805259533132322,-0.04370320675881265,0.9262392920297885,-0.03884436624287226,-0.284393,-24.661193
11.185,2.0,1.0,1.0,34.7,33.8,33.8,2.3,4.1,2.715,-0.29597062839529753,-0.043915034755454545,0.9207332700985362,-0.040402925513799794,-0.290266,-24.48437
11.185,2.0,1.0,1.0,34.7,33.8,33.8,2.3,4.1,2.7175,-0.311461044180348,-0.04410365405970181,0.9148978893961284,-0.04201104645927819,-0.296317,-24.30619
11.185,2.0,1.0,1.0,34.7,33.8,33.8,2.3,4.1,2.72,-0.32699119626295575,-0.04426724117127043,0.9087258209314649,-0.04367021382500219,-0.302553,-24.126622
11.185,2.0,1.0,1.0,34.7,33.8,33.8,2.3,4.1,2.7225,-0.34255473701808703,-0.04440385805760875,0.9022096562305085,-0.0453819543986196,-0.308983,-23.94563
11.185,2.0,1.0,1.0,34.7,33.8,33.8,2.3,4.1,2.725,-0.3581449608712308,-0.044511444522800564,0.8953419112821285,-0.047147838075095046,-0.315614,-23.763179
11.185,2.0,1.0,1.0,34.7,33.8,33.8,2.3,4.1,2.7275,-0.37375478891308367,-0.04458780996467094,0.8881150308236943,-0.04896947893155031,-0.322457,-23.579232
11.185,2.0,1.0,1.0,34.7,33.8,33.8,2.3,4.1,2.73,-0.38937675280977907,-0.0446306244589851,0.8805213929811818,-0.05084853630625362,-0.32952,-23.393748
11.185,2.0,1.0,1.0,34.7,33.8,33.8,2.3,4.1,2.7325,-0.40500297795329304,-0.044637409102418674,0.8725533142795078,-0.052786715874834175,-0.336814,-23.206688
11.185,2.0,1.0,1.0,34.7,33.8,33.8,2.3,4.1,2.735,-0.4206251657891885,-0.044605525537820635,0.8642030550401217,-0.054785770714802264,-0.34435,-23.018008
11.185,2.0,1.0,1.0,34.7,33.8,33.8,2.3,4.1,2.7375,-0.4362345752504272,-0.044532164576062946,0.8554628251844344,-0.05684750234701131,-0.352139,-22.827663
11.185,2.0,1.0,1.0,34.7,33.8,33.8,2.3,4.1,2.74,-0.45182200321615146,-0.044414333818319766,0.8463247904637597,-0.05897376173967424,-0.360193,-22.635607
11.185,2.0,1.0,1.0,34.7,33.8,33.8,2.3,4.1,2.7425,-0.46737776390318386,-0.04424884417077394,0.8367810791390314,-0.06116645025685245,-0.368525,-22.441789
11.185,2.0,1.0,1.0,34.7,33.8,33.8,2.3,4.1,2.745,-0.4828916670850379,-0.044032295130311205,0.8268237891368733,-0.06342752052878872,-0.37715,-22.246158
11.185,2.0,1.0,1.0,34.7,33.8,33.8,2.3,4.1,2.7475,-0.498352995018489,-0.04376105870450712,0.8164449957127803,-0.0657589772159019,-0.386083,-22.04866
11.185,2.0,1.0,1.0,34.7,33.8,33.8,2.3,4.1,2.75,-0.51375047794075,-0.0434312618118778,0.80563675965743,-0.068162877631468,-0.395339,-21.849237
11.185,2.0,1.0,1.0,34.7,33.8,33.8,2.3,4.1,2.7525,-0.5290722679808012,-0.04303876698865736,0.7943911360887825,-0.0706413321797046,-0.404937,-21.647831
11.185,2.0,1.0,1.0,34.7,33.8,33.8,2.3,4.1,2.755,-0.5443059113060462,-0.04257915120593591,0.7827001838808837,-0.07319650455583951,-0.414894,-21.444377
11.185,2.0,1.0,1.0,34.7,33.8,33.8,2.3,4.1,2.7575,-0.5594383182998337,-0.04204768257545367,0.770555975790672,-0.0758306116423695,-0.425231,-21.23881
11.185,2.0,1.0,1.0,34.7,33.8,33.8,2.3,4.1,2.76,-0.5744557315358686,-0.04143929469324807,0.757950609357008,-0.0785459230205998,-0.435969,-21.031059
11.185,2.0,1.0,1.0,34.7,33.8,33.8,2.3,4.1,2.7625,-0.5893436912818312,-0.040748558337172995,0.7448762186621836,-0.0813447599981231,-0.447133,-20.821053
11.185,2.0,1.0,1.0,34.7,33.8,33.8,2.3,4.1,2.765,-0.604086998225735,-0.03996965019646621,0.7313249870661795,-0.08422949403037602,-0.458746,-20.608713
11.185,2.0,1.0,1.0,34.7,33.8,33.8,2.3,4.1,2.7675,-0.6186696730741454,-0.039096318268356155,0.7172891610486973,-0.08720254438691483,-0.470837,-20.393958
11.185,2.0,1.0,1.0,34.7,33.8,33.8,2.3,4.1,2.77,-0.6330749126205037,-0.03812184350740203,0.70276106532466,-0.09026637487945433,-0.483435,-20.176703
11.185,2.0,1.0,1.0,34.7,33.8,33.8,2.3,4.1,2.7725,-0.6472850418234088,-0.03703899725698361,0.6877331194369475,-0.09342348942761543,-0.496572,-19.956857
11.185,2.0,1.0,1.0,34.7,33.8,33.8,2.3,4.1,2.775,-0.6612814613679565,-0.03583999392810616,0.6721978560771357,-0.09667642618804664,-0.510283,-19.734326
11.185,2.0,1.0,1.0,34.7,33.8,33.8,2.3,4.1,2.7775,-0.6750445901067318,-0.034516438317352585,0.6561479414432458,-0.10002774991097652,-0.524607,-19.509008
11.185,2.0,1.0,1.0,34.7,33.8,33.8,2.3,4.1,2.78,-0.6885538016896403,-0.033059266872156594,0.6395761980154804,-0.10348004211272062,-0.539586,-19.280799
11.185,2.0,1.0,1.0,34.7,33.8,33.8,2.3,4.1,2.7825,-0.7017873545918489,-0.03145868211622072,0.6224756302200943,-0.10703588855990769,-0.555265,-19.049587
11.185,2.0,1.0,1.0,34.7,33.8,33.8,2.3,4.1,2.785,-0.7147223146352929,-0.02970407933934623,0.6048394535616987,-0.11069786344720607,-0.571694,-18.815253
11.185,2.0,1.0,1.0,34.7,33.8,33.8,2.3,4.1,2.7875,-0.727334468969412,-0.027783964532603855,0.5866611279409761,-0.11446850950996633,-0.588929,-18.577674
11.185,2.0,1.0,1.0,34.7,33.8,33.8,2.3,4.1,2.79,-0.7395982303297136,-0.02568586240994624,0.5679343960438362,-0.11835031314022977,-0.607029,-18.336717
11.185,2.0,1.0,1.0,34.7,33.8,33.8,2.3,4.1,2.7925,-0.7514865302260474,-0.02339621319941104,0.5486533278980178,-0.12234567336095652,-0.626063,-18.092245
11.185,2.0,1.0,1.0,34.7,33.8,33.8,2.3,4.1,2.795,-0.7629706995249061,-0.0209002567093923,0.5288123729534372,-0.12645686324927674,-0.646102,-17.844111
11.185,2.0,1.0,1.0,34.7,33.8,33.8,2.3,4.1,2.7975,-0.7740203346796938,-0.018181901976843756,0.5084064213664157,-0.13068598207250065,-0.66723,-17.59216
11.185,2.0,1.0,1.0,34.7,33.8,33.8,2.3,4.1,2.8,-0.7846031476292712,-0.015223580583969214,0.48743087657039696,-0.13503489599497637,-0.689538,-17.336229
11.185,2.0,1.0,1.0,34.7,33.8,33.8,2.3,4.1,2.8025,-0.794684797127798,-0.012006081488293283,0.46588174171740243,-0.13950516470985688,-0.713125,-17.076146
11.185,2.0,1.0,1.0,34.7,33.8,33.8,2.3,4.1,2.805,-0.8042286989898206,-0.008508364949849034,0.44375572319982587,-0.14409795072264422,-0.738104,-16.811729
11.185,2.0,1.0,1.0,34.7,33.8,33.8,2.3,4.1,2.8075,-0.8131958124376611,-0.004707352863003006,0.42105035524308737,-0.14881390723174637,-0.764602,-16.542786
11.185,2.0,1.0,1.0,34.7,33.8,33.8,2.3,4.1,2.81,-0.8215443994313639,-0.0005776925174851926,0.39776415053580044,-0.15365303957574716,-0.79276,-16.269115
11.185,2.0,1.0,1.0,34.7,33.8,33.8,2.3,4.1,2.8125,-0.82922975355847,0.00390850946230808,0.373896783085671,-0.158614533998023,-0.822736,-15.990504
11.185,2.0,1.0,1.0,34.7,33.8,33.8,2.3,4.1,2.815,-0.8362038947841428,0.008781986495803909,0.34944931101926197,-0.163696545954305,-0.854708,-15.706728
11.185,2.0,1.0,1.0,34.7,33.8,33.8,2.3,4.1,2.8175,-0.8424152261468949,0.014076648417453375,0.3244244489614343,-0.16889593827939536,-0.888879,-15.417552
11.185,2.0,1.0,1.0,34.7,33.8,33.8,2.3,4.1,2.82,-0.847808148385529,0.019829958573306612,0.2988269020344921,-0.17420795713756745,-0.925477,-15.12273
11.185,2.0,1.0,1.0,34.7,33.8,33.8,2.3,4.1,2.8225,-0.8523226285808023,0.02608335522970758,0.27266377653127283,-0.1796258306854295,-0.964763,-14.822002
11.185,2.0,1.0,1.0,34.7,33.8,33.8,2.3,4.1,2.825,-0.8558937193126464,0.032882720408497004,0.24594508609250731,-0.18514027162604677,-1.007032,-14.515099
11.185,2.0,1.0,1.0,34.7,33.8,33.8,2.3,4.1,2.8275,-0.858451025750809,0.040278898283395856,0.21868437694236262,-0.19073886014590663,-1.052626,-14.201741
