1,w,sub_t,h,l1,l2,l3,g1,g2,Freq,S11_re,S21_re,S11_img,S21_img,S11_dB,S21_dB
11.185,2.0,1.0,1.0,33.8,34.3,34.3,2.4,4.4,2.5,0.807411187288099,-0.00844975061784881,0.577522346448417,0.00520188932532808,-0.063677,-40.067493
11.185,2.0,1.0,1.0,33.8,34.3,34.3,2.4,4.4,2.5025,0.8032076308904482,-0.008615075550475068,0.5832240276883623,0.005208267538853685,-0.064347,-39.941952
11.185,2.0,1.0,1.0,33.8,34.3,34.3,2.4,4.4,2.505,0.7989425786816559,-0.008783435328904441,0.5889215220768405,0.0052134297024465075,-0.06503,-39.815967
11.185,2.0,1.0,1.0,33.8,34.3,34.3,2.4,4.4,2.5075,0.7946153637039676,-0.008954895333373377,0.5946144585379584,0.005217326559087121,-0.065726,-39.689527
11.185,2.0,1.0,1.0,33.8,34.3,34.3,2.4,4.4,2.51,0.7902253079177548,-0.009129522725403273,0.600302454292248,0.005219906908614311,-0.066435,-39.562621
11.185,2.0,1.0,1.0,33.8,34.3,34.3,2.4,4.4,2.5125,0.785771722007306,-0.009307386506398473,0.6059851144604828,0.005221117521578362,-0.067158,-39.435239
11.185,2.0,1.0,1.0,33.8,34.3,34.3,2.4,4.4,2.515,0.7812539051832602,-0.009488557578513121,0.6116620316532039,0.005220903048753839,-0.067895,-39.30737
11.185,2.0,1.0,1.0,33.8,34.3,34.3,2.4,4.4,2.5175,0.7766711449816366,-0.009673108807886917,0.6173327855453535,0.005219205926063187,-0.068646,-39.179002
11.185,2.0,1.0,1.0,33.8,34.3,34.3,2.4,4.4,2.52,0.7720227170593986,-0.009861115090357534,0.6229969424354156,0.005215966274645541,-0.069412,-39.050124
11.185,2.0,1.0,1.0,33.8,34.3,34.3,2.4,4.4,2.5225,0.7673078849865191,-0.010052653419759413,0.6286540547883935,0.005211121795788633,-0.070193,-38.920726
11.185,2.0,1.0,1.0,33.8,34.3,34.3,2.4,4.4,2.525,0.762525900034471,-0.010247802958927682,0.6343036607619658,0.005204607660422248,-0.07099,-38.790794
11.185,2.0,1.0,1.0,33.8,34.3,34.3,2.4,4.4,2.5275,0.7576760009611014,-0.010446645113529423,0.6399452837150937,0.005196356392852147,-0.071802,-38.660318
11.185,2.0,1.0,1.0,33.8,34.3,34.3,2.4,4.4,2.53,0.7527574137918377,-0.010649263608851527,0.6455784316983386,0.005186297748391893,-0.072631,-38.529284
11.185,2.0,1.0,1.0,33.8,34.3,34.3,2.4,4.4,2.5325,0.7477693515971638,-0.01085574456968123,0.651202596925093,0.005174358584526387,-0.073476,-38.397681
11.185,2.0,1.0,1.0,33.8,34.3,34.3,2.4,4.4,2.535,0.7427110142663109,-0.011066176603422065,0.6568172552229058,0.005160462725216752,-0.074339,-38.265496
11.185,2.0,1.0,1.0,33.8,34.3,34.3,2.4,4.4,2.5375,0.7375815882771141,-0.011280650886594627,0.6624218654640217,0.005144530817928915,-0.075219,-38.132717
11.185,2.0,1.0,1.0,33.8,34.3,34.3,2.4,4.4,2.54,0.73238024646197,-0.011499261254880416,0.6680158689742168,0.005126480182939482,-0.076117,-37.999329
11.185,2.0,1.0,1.0,33.8,34.3,34.3,2.4,4.4,2.5425,0.7271061477698398,-0.011722104296874179,0.673598688918973,0.005106224654441665,-0.077034,-37.86532
11.185,2.0,1.0,1.0,33.8,34.3,34.3,2.4,4.4,2.545,0.7217584370242379,-0.011949279451718751,0.6791697296659581,0.005083674412940192,-0.077971,-37.730677
11.185,2.0,1.0,1.0,33.8,34.3,34.3,2.4,4.4,2.5475,0.716336244677158,-0.012180889110805308,0.6847283761227486,0.005058735808388383,-0.078927,-37.595384
11.185,2.0,1.0,1.0,33.8,34.3,34.3,2.4,4.4,2.55,0.7108386865588494,-0.012417038723732305,0.6902739930486513,0.005031311173480939,-0.079903,-37.459429
11.185,2.0,1.0,1.0,33.8,34.3,34.3,2.4,4.4,2.5525,0.7052648636234224,-0.012657836908724074,0.6958059243394298,0.0050012986264746295,-0.0809,-37.322797
11.185,2.0,1.0,1.0,33.8,34.3,34.3,2.4,4.4,2.555,0.6996138616901835,-0.012903395567722804,0.7013234922836689,0.004968591862862922,-0.081919,-37.185473
11.185,2.0,1.0,1.0,33.8,34.3,34.3,2.4,4.4,2.5575,0.6938847511806568,-0.013153830006376939,0.7068259967894467,0.004933079935181605,-0.08296,-37.047441
11.185,2.0,1.0,1.0,33.8,34.3,34.3,2.4,4.4,2.56,0.6880765868512284,-0.013409259059161231,0.7123127145798811,0.004894647020169004,-0.084024,-36.908687
11.185,2.0,1.0,1.0,33.8,34.3,34.3,2.4,4.4,2.5625,0.682188407521345,-0.01366980521987503,0.7177828983560679,0.00485317217244699,-0.085111,-36.769195
11.185,2.0,1.0,1.0,33.8,34.3,34.3,2.4,4.4,2.565,0.6762192357971969,-0.01393559477777886,0.7232357759258199,0.004808529063826021,-0.086222,-36.628948
11.185,2.0,1.0,1.0,33.8,34.3,34.3,2.4,4.4,2.5675,0.6701680777908348,-0.014206757959641492,0.72867054929651,0.004760585707269967,-0.087358,-36.48793
11.185,2.0,1.0,1.0,33.8,34.3,34.3,2.4,4.4,2.57,0.6640339228346354,-0.0144834290779842,0.7340863937302481,0.004709204164482958,-0.08852,-36.346125
11.185,2.0,1.0,1.0,33.8,34.3,34.3,2.4,4.4,2.5725,0.6578157431910628,-0.014765746685823165,0.739482456759492,0.00465424023600028,-0.089708,-36.203515
11.185,2.0,1.0,1.0,33.8,34.3,34.3,2.4,4.4,2.575,0.6515124937576449,-0.015053853738225693,0.744857857161064,0.004595543132579095,-0.090923,-36.060082
11.185,2.0,1.0,1.0,33.8,34.3,34.3,2.4,4.4,2.5775,0.6451231117671072,-0.015347897761011926,0.7502116838864478,0.004532955126589934,-0.092167,-35.915808
11.185,2.0,1.0,1.0,33.8,34.3,34.3,2.4,4.4,2.58,0.6386465164825916,-0.015648031026949463,0.755542994946066,0.004466311182007826,-0.093439,-35.770676
11.185,2.0,1.0,1.0,33.8,34.3,34.3,2.4,4.4,2.5825,0.6320816088878832,-0.015954410739806097,0.7608508162451264,0.00439543856148972,-0.094742,-35.624665
11.185,2.0,1.0,1.0,33.8,34.3,34.3,2.4,4.4,2.585,0.6254272713725897,-0.01626719922664213,0.7661341403684295,0.004320156408903646,-0.096075,-35.477756
11.185,2.0,1.0,1.0,33.8,34.3,34.3,2.4,4.4,2.5875,0.6186823674121881,-0.016586564138743026,0.7713919253113855,0.004240275305541745,-0.09744,-35.32993
11.185,2.0,1.0,1.0,33.8,34.3,34.3,2.4,4.4,2.59,0.6118457412428862,-0.016912678661610368,0.7766230931542742,0.004155596798105253,-0.098838,-35.181166
11.185,2.0,1.0,1.0,33.8,34.3,34.3,2.4,4.4,2.5925,0.604916217531219,-0.017245721734449417,0.781826528676616,0.004065912896390895,-0.100271,-35.031443
11.185,2.0,1.0,1.0,33.8,34.3,34.3,2.4,4.4,2.595,0.5978926010383293,-0.017585878279609564,0.7870010779082399,0.003971005538435392,-0.101738,-34.880739
11.185,2.0,1.0,1.0,33.8,34.3,34.3,2.4,4.4,2.5975,0.5907736762788536,-0.017933339442454975,0.7921455466134733,0.003870646020686135,-0.103241,-34.729032
11.185,2.0,1.0,1.0,33.8,34.3,34.3,2.4,4.4,2.6,0.5835582071743656,-0.018288302842161402,0.7972586987045456,0.0037645943905589433,-0.104783,-34.5763
11.185,2.0,1.0,1.0,33.8,34.3,34.3,2.4,4.4,2.6025,0.5762449367013278,-0.01865097283395535,0.8023392545800673,0.003652598798517402,-0.106363,-34.422519
11.185,2.0,1.0,1.0,33.8,34.3,34.3,2.4,4.4,2.605,0.5688325865334897,-0.019021560783331136,0.807385889384101,0.003534394806559973,-0.107983,-34.267666
11.185,2.0,1.0,1.0,33.8,34.3,34.3,2.4,4.4,2.6075,0.561319856678706,-0.019400285352800722,0.8123972311810382,0.0034097046497282182,-0.109645,-34.111715
11.185,2.0,1.0,1.0,33.8,34.3,34.3,2.4,4.4,2.61,0.5537054251101455,-0.01978737280174885,0.8173718590410943,0.0032782364469505264,-0.111351,-33.95464
11.185,2.0,1.0,1.0,33.8,34.3,34.3,2.4,4.4,2.6125,0.5459879473918723,-0.02018305729998347,0.8223083010308764,0.0031396833572064978,-0.113101,-33.796417
11.185,2.0,1.0,1.0,33.8,34.3,34.3,2.4,4.4,2.615,0.5381660562987927,-0.02058758125558681,0.8272050321029945,0.002993722676635348,-0.114897,-33.637018
11.185,2.0,1.0,1.0,33.8,34.3,34.3,2.4,4.4,2.6175,0.5302383614310053,-0.0210011956576853,0.8320604718782508,0.002840014871813126,-0.116741,-33.476416
11.185,2.0,1.0,1.0,33.8,34.3,34.3,2.4,4.4,2.62,0.522203448822589,-0.021424160434767192,0.8368729823133896,0.0026782025439844154,-0.118636,-33.314581
11.185,2.0,1.0,1.0,33.8,34.3,34.3,2.4,4.4,2.6225,0.5140598805448963,-0.02185674482918354,0.8416408652468338,0.002507909318549548,-0.120582,-33.151484
11.185,2.0,1.0,1.0,33.8,34.3,34.3,2.4,4.4,2.625,0.505806194304487,-0.022299227788469,0.846362359814177,0.00232873865357379,-0.122582,-32.987096
11.185,2.0,1.0,1.0,33.8,34.3,34.3,2.4,4.4,2.6275,0.4974409030358301,-0.0227518983741171,0.8510356397245513,0.0021402725604932208,-0.124637,-32.821385
11.185,2.0,1.0,1.0,33.8,34.3,34.3,2.4,4.4,2.63,0.4889624944890008,-0.02321505618843148,0.8556588103881756,0.0019420702295385797,-0.126751,-32.654318
11.185,2.0,1.0,1.0,33.8,34.3,34.3,2.4,4.4,2.6325,0.4803694308126408,-0.023689011820055703,0.8602299058845848,0.0017336665516735398,-0.128925,-32.485863
11.185,2.0,1.0,1.0,33.8,34.3,34.3,2.4,4.4,2.635,0.4716601481325286,-0.024174087308753242,0.8647468857601005,0.001514570528041555,-0.131161,-32.315984
11.185,2.0,1.0,1.0,33.8,34.3,34.3,2.4,4.4,2.6375,0.4628330561262213,-0.024670616629964115,0.8692076316420669,0.0012842635570244974,-0.133463,-32.144647
11.185,2.0,1.0,1.0,33.8,34.3,34.3,2.4,4.4,2.64,0.4538865375942969,-0.0251789461996059,0.8736099436562731,0.0010421975880263964,-0.135833,-31.971815
11.185,2.0,1.0,1.0,33.8,34.3,34.3,2.4,4.4,2.6425,0.4448189480289151,-0.02569943539950482,0.8779515366326885,0.0007877931299962304,-0.138274,-31.797449
11.185,2.0,1.0,1.0,33.8,34.3,34.3,2.4,4.4,2.645,0.4356286151805364,-0.026232457123740147,0.8822300360832861,0.0005204371014785773,-0.140788,-31.621512
11.185,2.0,1.0,1.0,33.8,34.3,34.3,2.4,4.4,2.6475,0.4263138386238519,-0.02677839834605165,0.8864429739341467,0.00023948050761662368,-0.14338,-31.443961
11.185,2.0,1.0,1.0,33.8,34.3,34.3,2.4,4.4,2.65,0.41687288932418853,-0.02733766070829514,0.8905877839923698,-5.576407199097693e-05,-0.146051,-31.264755
11.185,2.0,1.0,1.0,33.8,34.3,34.3,2.4,4.4,2.6525,0.4073040092059679,-0.027910661129718344,0.8946617971263473,-0.0003660252023760725,-0.148807,-31.083851
11.185,2.0,1.0,1.0,33.8,34.3,34.3,2.4,4.4,2.655,0.39760541072507927,-0.028497832436576852,0.8986622361358989,-0.0006920755389294702,-0.15165,-30.901203
11.185,2.0,1.0,1.0,33.8,34.3,34.3,2.4,4.4,2.6575,0.38777527644745347,-0.029099624011286518,0.9025862102863378,-0.001034735021597548,-0.154585,-30.716765
11.185,2.0,1.0,1.0,33.8,34.3,34.3,2.4,4.4,2.66,0.3778117586365888,-0.029716502459922134,0.9064307094779315,-0.001394874341757686,-0.157616,-30.530488
11.185,2.0,1.0,1.0,33.8,34.3,34.3,2.4,4.4,2.6625,0.3677129788533433,-0.030348952296393016,0.9101925980192291,-0.001773418708657415,-0.160746,-30.342322
11.185,2.0,1.0,1.0,33.8,34.3,34.3,2.4,4.4,2.665,0.3574770275719601,-0.030997476641049605,0.913868607969446,-0.002171351945309353,-0.163982,-30.152215
11.185,2.0,1.0,1.0,33.8,34.3,34.3,2.4,4.4,2.6675,0.34710196381713654,-0.03166259793076582,0.9174553320113354,-0.0025897209471111653,-0.167328,-29.960112
11.185,2.0,1.0,1.0,33.8,34.3,34.3,2.4,4.4,2.67,0.3365858148278604,-0.03234485863669311,0.9209492158118532,-0.0030296405402686546,-0.17079,-29.765958
11.185,2.0,1.0,1.0,33.8,34.3,34.3,2.4,4.4,2.6725,0.3259265757549008,-0.03304482198484579,0.9243465498231898,-0.0034922987813907347,-0.174372,-29.569694
11.185,2.0,1.0,1.0,33.8,34.3,34.3,2.4,4.4,2.675,0.31512220940023433,-0.0337630726734283,0.9276434604714814,-0.003978962744470459,-0.178082,-29.371259
11.185,2.0,1.0,1.0,33.8,34.3,34.3,2.4,4.4,2.6775,0.30417064600827615,-0.034500217579307595,0.9308359006745596,-0.0044909848469438934,-0.181926,-29.170589
11.185,2.0,1.0,1.0,33.8,34.3,34.3,2.4,4.4,2.68,0.29306978312078563,-0.03525688644421312,0.9339196396233627,-0.005029809772719597,-0.185911,-28.967619
11.185,2.0,1.0,1.0,33.8,34.3,34.3,2.4,4.4,2.6825,0.2818174855096619,-0.036033732529047055,0.9368902517540454,-0.005596982057097137,-0.190044,-28.76228
11.185,2.0,1.0,1.0,33.8,34.3,34.3,2.4,4.4,2.685,0.27041158520463676,-0.03683143322203973,0.9397431048292156,-0.006194154406470512,-0.194333,-28.554501
11.185,2.0,1.0,1.0,33.8,34.3,34.3,2.4,4.4,2.6875,0.258849881636273,-0.0376506905832826,0.942473347036981,-0.00682309683477512,-0.198787,-28.344206
11.185,2.0,1.0,1.0,33.8,34.3,34.3,2.4,4.4,2.69,0.2471301419187524,-0.038492231804309385,0.9450758930053943,-0.007485706708950943,-0.203416,-28.131319
11.185,2.0,1.0,1.0,33.8,34.3,34.3,2.4,4.4,2.6925,0.23525010130176346,-0.03935680955673252,0.9475454086173296,-0.008184019807450477,-0.208228,-27.915757
11.185,2.0,1.0,1.0,33.8,34.3,34.3,2.4,4.4,2.695,0.22320746382676554,-0.04024520219829947,0.9498762944964644,-0.008920222509227806,-0.213236,-27.697436
11.185,2.0,1.0,1.0,33.8,34.3,34.3,2.4,4.4,2.6975,0.2109999032298938,-0.04115821379791951,0.9520626680187044,-0.009696665245974973,-0.218449,-27.476267
11.185,2.0,1.0,1.0,33.8,34.3,34.3,2.4,4.4,2.7,0.19862506414242187,-0.04209667393294776,0.9540983436847444,-0.01051587736790027,-0.223882,-27.252157
11.185,2.0,1.0,1.0,33.8,34.3,34.3,2.4,4.4,2.7025,0.1860805636499543,-0.04306143720201004,0.9559768116681092,-0.011380583593435809,-0.229546,-27.02501
11.185,2.0,1.0,1.0,33.8,34.3,34.3,2.4,4.4,2.705,0.17336399328412033,-0.04405338238450225,0.957691214328597,-0.012293722236305238,-0.235457,-26.794723
11.185,2.0,1.0,1.0,33.8,34.3,34.3,2.4,4.4,2.7075,0.16047292153565731,-0.045073411163140474,0.95923432045305,-0.013258465429856233,-0.24163,-26.561191
11.185,2.0,1.0,1.0,33.8,34.3,34.3,2.4,4.4,2.71,0.14740489699627451,-0.046122446307972714,0.9605984969532145,-0.01427824159900919,-0.248083,-26.324301
11.185,2.0,1.0,1.0,33.8,34.3,34.3,2.4,4.4,2.7125,0.13415745225907716,-0.0472014291983705,0.961775677713506,-0.015356760465238468,-0.254834,-26.083937
11.185,2.0,1.0,1.0,33.8,34.3,34.3,2.4,4.4,2.715,0.1207281087347455,-0.04831131653277987,0.9627573292389591,-0.016498040910422423,-0.261903,-25.839975
11.185,2.0,1.0,1.0,33.8,34.3,34.3,2.4,4.4,2.7175,0.10711438257404683,-0.04945307604331265,0.9635344127046135,-0.01770644207205618,-0.269313,-25.592287
11.185,2.0,1.0,1.0,33.8,34.3,34.3,2.4,4.4,2.72,0.09331379192821736,-0.050627680992173886,0.9640973419510943,-0.0189866980962157,-0.277087,-25.340736
11.185,2.0,1.0,1.0,33.8,34.3,34.3,2.4,4.4,2.7225,0.07932386582887692,-0.051836103177708384,0.9644359369058318,-0.0203439570369901,-0.285252,-25.085181
11.185,2.0,1.0,1.0,33.8,34.3,34.3,2.4,4.4,2.725,0.06514215503093912,-0.05307930411726569,0.9645393718339935,-0.021783824463204184,-0.293837,-24.825471
11.185,2.0,1.0,1.0,33.8,34.3,34.3,2.4,4.4,2.7275,0.05076624523789975,-0.05435822399938164,0.964396117735992,-0.023312412416750916,-0.302873,-24.561448
11.185,2.0,1.0,1.0,33.8,34.3,34.3,2.4,4.4,2.73,0.036193773222926835,-0.05567376790539725,0.9639938781076102,-0.024936394463525878,-0.312397,-24.292946
11.185,2.0,1.0,1.0,33.8,34.3,34.3,2.4,4.4,2.7325,0.02142244647538619,-0.05702678868617997,0.9633195171621506,-0.026663067689925917,-0.322446,-24.019788
11.185,2.0,1.0,1.0,33.8,34.3,34.3,2.4,4.4,2.735,0.006450067146895342,-0.058418065737393075,0.9623589794791689,-0.028500422627470323,-0.333063,-23.74179
11.185,2.0,1.0,1.0,33.8,34.3,34.3,2.4,4.4,2.7375,-0.008725438749303933,-0.059848278739625484,0.9610971998885438,-0.03045722223800391,-0.344296,-23.458756
11.185,2.0,1.0,1.0,33.8,34.3,34.3,2.4,4.4,2.74,-0.02410598570747603,-0.06131797520845215,0.9595180022188665,-0.032543091265037585,-0.356197,-23.170479
11.185,2.0,1.0,1.0,33.8,34.3,34.3,2.4,4.4,2.7425,-0.03969328520808153,-0.06282753042242262,0.9576039853321806,-0.03476861745623221,-0.368826,-22.87674
11.185,2.0,1.0,1.0,33.8,34.3,34.3,2.4,4.4,2.745,-0.05548879249454897,-0.06437709794898763,0.9553363946295986,-0.037145466391052144,-0.382247,-22.577309
11.185,2.0,1.0,1.0,33.8,34.3,34.3,2.4,4.4,2.7475,-0.07149364139289391,-0.06596654855007188,0.9526949769410188,-0.03968651190935783,-0.396534,-22.27194
11.185,2.0,1.0,1.0,33.8,34.3,34.3,2.4,4.4,2.75,-0.0877085643586555,-0.0675953946953285,0.949657816404229,-0.0424059844338387,-0.411769,-21.960375
11.185,2.0,1.0,1.0,33.8,34.3,34.3,2.4,4.4,2.7525,-0.10413379422598673,-0.06926269720963003,0.9462011485924046,-0.04531963981333372,-0.428045,-21.642339
11.185,2.0,1.0,1.0,33.8,34.3,34.3,2.4,4.4,2.755,-0.12076894323239998,-0.07096694968997432,0.9422991497645091,-0.048444951684860314,-0.445466,-21.317541
11.185,2.0,1.0,1.0,33.8,34.3,34.3,2.4,4.4,2.7575,-0.13761285374442273,-0.07270593519097526,0.9379236976942571,-0.051801330755686825,-0.464151,-20.985672
11.185,2.0,1.0,1.0,33.8,34.3,34.3,2.4,4.4,2.76,-0.15466341364215058,-0.0744765482261171,0.9330441000896454,-0.055410374833220456,-0.484235,-20.646406
11.185,2.0,1.0,1.0,33.8,34.3,34.3,2.4,4.4,2.7625,-0.17191732744087002,-0.07627457327093345,0.9276267861658881,-0.059296153860553716,-0.50587,-20.299394
11.185,2.0,1.0,1.0,33.8,34.3,34.3,2.4,4.4,2.765,-0.18936983181267233,-0.07809440856263578,0.9216349565144045,-0.06348553461458957,-0.529233,-19.94427
11.185,2.0,1.0,1.0,33.8,34.3,34.3,2.4,4.4,2.7675,-0.20701434106053046,-0.07992872090975717,0.9150281860779146,-0.06800855003326621,-0.554524,-19.580643
11.185,2.0,1.0,1.0,33.8,34.3,34.3,2.4,4.4,2.77,-0.22484200408290808,-0.08176801324802435,0.9077619748928577,-0.07289881826262735,-0.581976,-19.208099
11.185,2.0,1.0,1.0,33.8,34.3,34.3,2.4,4.4,2.7725,-0.24284114917711158,-0.0836000815356135,0.8997872414496016,-0.07819401629957111,-0.611857,-18.826201
11.185,2.0,1.0,1.0,33.8,34.3,34.3,2.4,4.4,2.775,-0.2609965863131894,-0.08540933092360763,0.8910497542924313,-0.0839364123090619,-0.64448,-18.434486
11.185,2.0,1.0,1.0,33.8,34.3,34.3,2.4,4.4,2.7775,-0.279288727816242,-0.08717591251841088,0.8814894992172889,-0.09017345893512037,-0.680207,-18.032466
11.185,2.0,1.0,1.0,33.8,34.3,34.3,2.4,4.4,2.78,-0.29769247715247743,-0.0888746309051977,0.8710399827197277,-0.09695844661231419,-0.719467,-17.619629
11.185,2.0,1.0,1.0,33.8,34.3,34.3,2.4,4.4,2.7825,-0.31617582101434655,-0.09047355822169664,0.8596274781164002,-0.10435121010614028,-0.762761,-17.195437
11.185,2.0,1.0,1.0,33.8,34.3,34.3,2.4,4.4,2.785,-0.33469804129262304,-0.09193227211576267,0.8471702304224404,-0.11241887186327328,-0.810683,-16.759328
11.185,2.0,1.0,1.0,33.8,34.3,34.3,2.4,4.4,2.7875,-0.35320743984562786,-0.09319961143304062,0.8335776517766192,-0.12123659008711755,-0.863942,-16.310723
11.185,2.0,1.0,1.0,33.8,34.3,34.3,2.4,4.4,2.79,-0.37163843925674933,-0.0942108139982311,0.8187495642609548,-0.13088825449604324,-0.923383,-15.849029
11.185,2.0,1.0,1.0,33.8,34.3,34.3,2.4,4.4,2.7925,-0.3899078862809674,-0.09488386465106297,0.8025755863523866,-0.1414670335118139,-0.99002,-15.373644
11.185,2.0,1.0,1.0,33.8,34.3,34.3,2.4,4.4,2.795,-0.40791034147219307,-0.09511483882933786,0.7849348204639913,-0.15307561571852613,-1.065082,-14.883977
11.185,2.0,1.0,1.0,33.8,34.3,34.3,2.4,4.4,2.7975,-0.4255120904741561,-0.09477197936306968,0.7656960931905218,-0.1658258947903191,-1.150059,-14.379457
11.185,2.0,1.0,1.0,33.8,34.3,34.3,2.4,4.4,2.8,-0.4425435655104481,-0.09368819757958434,0.7447191431159872,-0.17983770466369658,-1.246774,-13.859566
11.185,2.0,1.0,1.0,33.8,34.3,34.3,2.4,4.4,2.8025,-0.4587898333698238,-0.09165165787600402,0.721857366132298,-0.19523599790988877,-1.357464,-13.323872
11.185,2.0,1.0,1.0,33.8,34.3,34.3,2.4,4.4,2.805,-0.4739788169443396,-0.08839411569939135,0.6969630456255629,-0.21214554476903316,-1.484889,-12.772078
11.185,2.0,1.0,1.0,33.8,34.3,34.3,2.4,4.4,2.8075,-0.4877670258552305,-0.08357678674037156,0.6698964516863527,-0.23068177629666653,-1.632469,-12.204096
11.185,2.0,1.0,1.0,33.8,34.3,34.3,2.4,4.4,2.81,-0.499722878143902,-0.07677382968335222,0.6405408260401915,-0.25093576641435794,-1.804459,-11.620142
11.185,2.0,1.0,1.0,33.8,34.3,34.3,2.4,4.4,2.8125,-0.509308373560117,-0.0674541990716307,0.608826091036264,-0.272950531041927,-2.006152,-11.020868
11.185,2.0,1.0,1.0,33.8,34.3,34.3,2.4,4.4,2.815,-0.5158612129773851,-0.054963950224194126,0.5747650680263162,-0.29668488119262726,-2.244131,-10.407537
11.185,2.0,1.0,1.0,33.8,34.3,34.3,2.4,4.4,2.8175,-0.5185818658452752,-0.038513469925362864,0.5385068069431493,-0.3219602550356798,-2.526529,-9.78225
11.185,2.0,1.0,1.0,33.8,34.3,34.3,2.4,4.4,2.82,-0.5165340819504203,-0.017178075149488374,0.5004116520810522,-0.34838592976894395,-2.863253,-9.148242
11.185,2.0,1.0,1.0,33.8,34.3,34.3,2.4,4.4,2.8225,-0.5086732964557031,0.01007366343366372,0.4611504945641215,-0.3752601727837751,-3.266028,-8.510222
11.185,2.0,1.0,1.0,33.8,34.3,34.3,2.4,4.4,2.825,-0.49392481860374826,0.044302122023155005,0.4218237908056847,-0.4014517156007301,-3.747935,-7.874764
11.185,2.0,1.0,1.0,33.8,34.3,34.3,2.4,4.4,2.8275,-0.4713398111920882,0.08644151700744768,0.3840808703744932,-0.4252808889822773,-4.321748,-7.250667
