1,w,sub_t,h,l1,l2,l3,g1,g2,Freq,S11_re,S21_re,S11_img,S21_img,S11_dB,S21_dB
11.185,2.0,1.0,1.0,34.6,34.3,34.3,2.1,3.7,2.5,0.675699911699675,-0.0155753045078156,0.724879027038787,0.00664953722914907,-0.078797,-35.424111
11.185,2.0,1.0,1.0,34.6,34.3,34.3,2.1,3.7,2.5025,0.6695023431894086,-0.015861781822979728,0.7304610448644913,0.006602572090236294,-0.07974,-35.298982
11.185,2.0,1.0,1.0,34.6,34.3,34.3,2.1,3.7,2.505,0.6632214416433868,-0.01615319468699642,0.7360207968884851,0.00655198157643288,-0.080702,-35.173348
11.185,2.0,1.0,1.0,34.6,34.3,34.3,2.1,3.7,2.5075,0.6568563282134164,-0.01644963275110676,0.7415573731431142,0.006497631026866832,-0.081683,-35.047199
11.185,2.0,1.0,1.0,34.6,34.3,34.3,2.1,3.7,2.51,0.6504061142646933,-0.01675118728687919,0.7470698365549349,0.006439380723121748,-0.082684,-34.920526
11.185,2.0,1.0,1.0,34.6,34.3,34.3,2.1,3.7,2.5125,0.6438699014212892,-0.017057951202349226,0.7525572221068575,0.006377085681109184,-0.083705,-34.793319
11.185,2.0,1.0,1.0,34.6,34.3,34.3,2.1,3.7,2.515,0.6372467816228385,-0.017370019057042232,0.7580185359734922,0.006310595433431223,-0.084746,-34.665569
11.185,2.0,1.0,1.0,34.6,34.3,34.3,2.1,3.7,2.5175,0.6305358371931618,-0.01768748707574127,0.7634527546287744,0.006239753801746808,-0.085809,-34.537267
11.185,2.0,1.0,1.0,34.6,34.3,34.3,2.1,3.7,2.52,0.6237361409215608,-0.01801045316084977,0.7688588239249342,0.0061643986586276105,-0.086894,-34.408403
11.185,2.0,1.0,1.0,34.6,34.3,34.3,2.1,3.7,2.5225,0.6168467561576344,-0.018339016903184974,0.7742356581418066,0.006084361678359457,-0.088002,-34.278966
11.185,2.0,1.0,1.0,34.6,34.3,34.3,2.1,3.7,2.525,0.6098667369204196,-0.01867327959102559,0.7795821390054737,0.005999468076113106,-0.089132,-34.148948
11.185,2.0,1.0,1.0,34.6,34.3,34.3,2.1,3.7,2.5275,0.6027951280227816,-0.0190133442172196,0.7848971146751752,0.005909536334875201,-0.090286,-34.018336
11.185,2.0,1.0,1.0,34.6,34.3,34.3,2.1,3.7,2.53,0.5956309652119935,-0.019359315484142957,0.7901793986973685,0.005814377919493186,-0.091465,-33.887122
11.185,2.0,1.0,1.0,34.6,34.3,34.3,2.1,3.7,2.5325,0.5883732753275117,-0.01971129980628046,0.7954277689258031,0.005713796977150608,-0.092668,-33.755294
11.185,2.0,1.0,1.0,34.6,34.3,34.3,2.1,3.7,2.535,0.5810210764769865,-0.020069405310181605,0.8006409664064142,0.005607590023547251,-0.093897,-33.622841
11.185,2.0,1.0,1.0,34.6,34.3,34.3,2.1,3.7,2.5375,0.5735733782316544,-0.020433741831521055,0.8058176942257773,0.005495545614015146,-0.095153,-33.489752
11.185,2.0,1.0,1.0,34.6,34.3,34.3,2.1,3.7,2.54,0.5660291818422624,-0.020804420908970993,0.8109566163218448,0.005377443998755185,-0.096435,-33.356017
11.185,2.0,1.0,1.0,34.6,34.3,34.3,2.1,3.7,2.5425,0.5583874804767847,-0.021181555774567505,0.8160563562556079,0.005253056761327809,-0.097746,-33.221624
11.185,2.0,1.0,1.0,34.6,34.3,34.3,2.1,3.7,2.545,0.550647259481247,-0.021565261340223487,0.821115495942284,0.0051221464394793055,-0.099085,-33.08656
11.185,2.0,1.0,1.0,34.6,34.3,34.3,2.1,3.7,2.5475,0.5428074966650548,-0.021955654180012062,0.8261325743405517,0.004984466127326996,-0.100454,-32.950814
11.185,2.0,1.0,1.0,34.6,34.3,34.3,2.1,3.7,2.55,0.53486716261228,-0.022352852507811424,0.8311060860983261,0.004839759057865489,-0.101854,-32.814375
11.185,2.0,1.0,1.0,34.6,34.3,34.3,2.1,3.7,2.5525,0.5268252210204863,-0.022756976149863856,0.8360344801534535,0.004687758164691469,-0.103284,-32.677228
11.185,2.0,1.0,1.0,34.6,34.3,34.3,2.1,3.7,2.555,0.5186806290687231,-0.023168146511765717,0.8409161582876798,0.004528185621773174,-0.104747,-32.539363
11.185,2.0,1.0,1.0,34.6,34.3,34.3,2.1,3.7,2.5575,0.5104323378164218,-0.023586486539359505,0.8457494736321446,0.00436075236001606,-0.106243,-32.400766
11.185,2.0,1.0,1.0,34.6,34.3,34.3,2.1,3.7,2.56,0.5020792926350602,-0.024012120672954093,0.8505327291225728,0.00418515755929546,-0.107774,-32.261423
11.185,2.0,1.0,1.0,34.6,34.3,34.3,2.1,3.7,2.5625,0.49362043367452374,-0.024445174794246387,0.8552641759022683,0.004001088114540175,-0.109339,-32.121321
11.185,2.0,1.0,1.0,34.6,34.3,34.3,2.1,3.7,2.565,0.48505469636623405,-0.024885776165263745,0.8599420116709142,0.003808218074358076,-0.110941,-31.980448
11.185,2.0,1.0,1.0,34.6,34.3,34.3,2.1,3.7,2.5675,0.47638101196524085,-0.025334053358583398,0.8645643789770725,0.0036062080505949957,-0.112581,-31.838787
11.185,2.0,1.0,1.0,34.6,34.3,34.3,2.1,3.7,2.57,0.46759830813358455,-0.02579013617801888,0.8691293634522149,0.003394704597110722,-0.114259,-31.696326
11.185,2.0,1.0,1.0,34.6,34.3,34.3,2.1,3.7,2.5725,0.4587055095673893,-0.026254155568890745,0.873634991983963,0.0031733395559400577,-0.115976,-31.553049
11.185,2.0,1.0,1.0,34.6,34.3,34.3,2.1,3.7,2.575,0.44970153867029283,-0.026726243516916597,0.8780792308261232,0.0029417293688839634,-0.117735,-31.408942
11.185,2.0,1.0,1.0,34.6,34.3,34.3,2.1,3.7,2.5775,0.44058531627598446,-0.027206532934668817,0.8824599836429862,0.0026994743524402,-0.119537,-31.263989
11.185,2.0,1.0,1.0,34.6,34.3,34.3,2.1,3.7,2.58,0.4313557624227858,-0.027695157534450718,0.8867750894851946,0.0024461579338405513,-0.121381,-31.118175
11.185,2.0,1.0,1.0,34.6,34.3,34.3,2.1,3.7,2.5825,0.4220117971833828,-0.028192251686334758,0.8910223206943746,0.0021813458458057496,-0.123272,-30.971482
11.185,2.0,1.0,1.0,34.6,34.3,34.3,2.1,3.7,2.585,0.4125523415530462,-0.02869795025999107,0.8951993807335589,0.0019045852774611976,-0.125208,-30.823896
11.185,2.0,1.0,1.0,34.6,34.3,34.3,2.1,3.7,2.5875,0.4029763183998477,-0.029212388448803864,0.8993039019402556,0.0016154039786772892,-0.127193,-30.675398
11.185,2.0,1.0,1.0,34.6,34.3,34.3,2.1,3.7,2.59,0.39328265348063773,-0.029735701574632446,0.9033334431988563,0.0013133093149021611,-0.129228,-30.525973
11.185,2.0,1.0,1.0,34.6,34.3,34.3,2.1,3.7,2.5925,0.3834702765267833,-0.030268024871417616,0.9072854875288808,0.0009977872693440447,-0.131314,-30.375601
11.185,2.0,1.0,1.0,34.6,34.3,34.3,2.1,3.7,2.595,0.3735381224039229,-0.03080949324566057,0.9111574395853355,0.0006683013891336246,-0.133453,-30.224266
11.185,2.0,1.0,1.0,34.6,34.3,34.3,2.1,3.7,2.5975,0.363485132350295,-0.03136024101161339,0.9149466230672686,0.00032429167184928924,-0.135647,-30.071948
11.185,2.0,1.0,1.0,34.6,34.3,34.3,2.1,3.7,2.6,0.3533102552984838,-0.03192040159880788,0.918650278030342,-3.482661147710503e-05,-0.137899,-29.918628
11.185,2.0,1.0,1.0,34.6,34.3,34.3,2.1,3.7,2.6025,0.3430124492857839,-0.032490107229318894,0.9222655580989835,-0.0004096641610450865,-0.140209,-29.764287
11.185,2.0,1.0,1.0,34.6,34.3,34.3,2.1,3.7,2.605,0.33259068295872496,-0.03306948856190093,0.9257895275734123,-0.0008008589651451148,-0.14258,-29.608904
11.185,2.0,1.0,1.0,34.6,34.3,34.3,2.1,3.7,2.6075,0.32204393717770335,-0.03365867429985277,0.9292191584265207,-0.001209077694014778,-0.145014,-29.452459
11.185,2.0,1.0,1.0,34.6,34.3,34.3,2.1,3.7,2.61,0.3113712067280988,-0.03425779075914757,0.9325513271852528,-0.0016350171758807656,-0.147514,-29.294932
11.185,2.0,1.0,1.0,34.6,34.3,34.3,2.1,3.7,2.6125,0.30057150214470263,-0.034866961393019535,0.9357828116907803,-0.002079405960774954,-0.150082,-29.136299
11.185,2.0,1.0,1.0,34.6,34.3,34.3,2.1,3.7,2.615,0.2896438516567946,-0.035486306268807506,0.9389102877313741,-0.0025430059781450633,-0.15272,-28.976538
11.185,2.0,1.0,1.0,34.6,34.3,34.3,2.1,3.7,2.6175,0.2785873032617959,-0.03611594149242358,0.9419303255414412,-0.003026614294749325,-0.155431,-28.815628
11.185,2.0,1.0,1.0,34.6,34.3,34.3,2.1,3.7,2.62,0.26740092693598,-0.0367559785753368,0.9448393861597469,-0.0035310649798366896,-0.158217,-28.653543
11.185,2.0,1.0,1.0,34.6,34.3,34.3,2.1,3.7,2.6225,0.2560838169914147,-0.03740652373842603,0.9476338176393208,-0.004057231085168417,-0.161083,-28.49026
11.185,2.0,1.0,1.0,34.6,34.3,34.3,2.1,3.7,2.625,0.24463509458907,-0.0380676771464586,0.950309851101003,-0.00460602674803986,-0.16403,-28.325753
11.185,2.0,1.0,1.0,34.6,34.3,34.3,2.1,3.7,2.6275,0.23305391041876655,-0.03873953206628892,0.9528635966219924,-0.005178409426120962,-0.167061,-28.159997
11.185,2.0,1.0,1.0,34.6,34.3,34.3,2.1,3.7,2.63,0.2213394475575909,-0.03942217394112552,0.955291038950079,-0.005775382273647128,-0.170181,-27.992964
11.185,2.0,1.0,1.0,34.6,34.3,34.3,2.1,3.7,2.6325,0.20949092451934564,-0.04011567937238582,0.9575880330335537,-0.006397996669273253,-0.173393,-27.824629
11.185,2.0,1.0,1.0,34.6,34.3,34.3,2.1,3.7,2.635,0.19750759850870875,-0.040820114999726834,0.9597502993559724,-0.007047354906752571,-0.1767,-27.654961
11.185,2.0,1.0,1.0,34.6,34.3,34.3,2.1,3.7,2.6375,0.18538876889496844,-0.04153553626879741,0.9617734190641156,-0.007724613060527988,-0.180106,-27.483933
11.185,2.0,1.0,1.0,34.6,34.3,34.3,2.1,3.7,2.64,0.1731337809215248,-0.04226198607509123,0.9636528288765205,-0.008430984039335301,-0.183616,-27.311514
11.185,2.0,1.0,1.0,34.6,34.3,34.3,2.1,3.7,2.6425,0.16074202966888076,-0.04299949327096223,0.9653838157589626,-0.00916774084201672,-0.187234,-27.137673
11.185,2.0,1.0,1.0,34.6,34.3,34.3,2.1,3.7,2.645,0.14821296429040912,-0.04374807102139206,0.9669615113520783,-0.00993622003094836,-0.190964,-26.962377
11.185,2.0,1.0,1.0,34.6,34.3,34.3,2.1,3.7,2.6475,0.13554609254215508,-0.04450771499243497,0.9683808861351457,-0.010737825439795503,-0.194811,-26.785595
11.185,2.0,1.0,1.0,34.6,34.3,34.3,2.1,3.7,2.65,0.12274098562985837,-0.045278401354394204,0.9696367433086248,-0.01157403213374456,-0.198781,-26.607291
11.185,2.0,1.0,1.0,34.6,34.3,34.3,2.1,3.7,2.6525,0.1097972833988227,-0.04606008457966939,0.9707237123765969,-0.012446390641920425,-0.202878,-26.42743
11.185,2.0,1.0,1.0,34.6,34.3,34.3,2.1,3.7,2.655,0.09671469989474606,-0.046852695012830445,0.9716362424085938,-0.013356531483411314,-0.207109,-26.245976
11.185,2.0,1.0,1.0,34.6,34.3,34.3,2.1,3.7,2.6575,0.08349302932662718,-0.04765613618777188,0.972368594958528,-0.014306170010181862,-0.211479,-26.06289
11.185,2.0,1.0,1.0,34.6,34.3,34.3,2.1,3.7,2.66,0.07013215246608079,-0.04847028186374463,0.9729148366164377,-0.015297111592193116,-0.215995,-25.878134
11.185,2.0,1.0,1.0,34.6,34.3,34.3,2.1,3.7,2.6625,0.05663204352117684,-0.049294972748598585,0.9732688311666458,-0.01633125717226739,-0.220664,-25.691667
11.185,2.0,1.0,1.0,34.6,34.3,34.3,2.1,3.7,2.665,0.04299277752699992,-0.05013001287363272,0.9734242313235222,-0.01741060922065943,-0.225493,-25.503446
11.185,2.0,1.0,1.0,34.6,34.3,34.3,2.1,3.7,2.6675,0.029214538299997508,-0.05097516557997547,0.9733744700134845,-0.018537278121931948,-0.230491,-25.313428
11.185,2.0,1.0,1.0,34.6,34.3,34.3,2.1,3.7,2.67,0.01529762700843876,-0.05183014907133126,0.97311275116903,-0.01971348902961641,-0.235664,-25.121569
11.185,2.0,1.0,1.0,34.6,34.3,34.3,2.1,3.7,2.6725,0.0012424714174886083,-0.05269463148212182,0.972632039997475,-0.020941589227264915,-0.241021,-24.92782
11.185,2.0,1.0,1.0,34.6,34.3,34.3,2.1,3.7,2.675,-0.012950364125673108,-0.053568225403431285,0.9719250526837329,-0.02222405603790635,-0.246573,-24.732133
11.185,2.0,1.0,1.0,34.6,34.3,34.3,2.1,3.7,2.6775,-0.02728016789334204,-0.05445048180159433,0.9709842454827355,-0.02356350532761232,-0.25233,-24.534458
11.185,2.0,1.0,1.0,34.6,34.3,34.3,2.1,3.7,2.68,-0.04174606908300848,-0.05534088325560664,0.9698018031531194,-0.024962700652883474,-0.2583,-24.334742
11.185,2.0,1.0,1.0,34.6,34.3,34.3,2.1,3.7,2.6825,-0.05634702513456154,-0.05623883642960823,0.9683696266794223,-0.02642456310588972,-0.264497,-24.13293
11.185,2.0,1.0,1.0,34.6,34.3,34.3,2.1,3.7,2.685,-0.07108180795441506,-0.05714366368530167,0.9666793202253366,-0.027952181916267287,-0.270933,-23.928965
11.185,2.0,1.0,1.0,34.6,34.3,34.3,2.1,3.7,2.6875,-0.0859489889284145,-0.0580545937260721,0.964722177255444,-0.0295488258731812,-0.277619,-23.72279
11.185,2.0,1.0,1.0,34.6,34.3,34.3,2.1,3.7,2.69,-0.10094692258970686,-0.058970751149508366,0.9624891657574315,-0.0312179556367205,-0.284571,-23.514341
11.185,2.0,1.0,1.0,34.6,34.3,34.3,2.1,3.7,2.6925,-0.11607372878987765,-0.059891144767657695,0.9599709124908943,-0.03296323701339716,-0.291804,-23.303555
11.185,2.0,1.0,1.0,34.6,34.3,34.3,2.1,3.7,2.695,-0.13132727320080373,-0.06081465453429337,0.957157686182666,-0.034788555276533635,-0.299333,-23.090365
11.185,2.0,1.0,1.0,34.6,34.3,34.3,2.1,3.7,2.6975,-0.1467051459508773,-0.061740016895305165,0.9540393795820367,-0.03669803061864093,-0.307176,-22.874702
11.185,2.0,1.0,1.0,34.6,34.3,34.3,2.1,3.7,2.7,-0.16220463817141142,-0.06266580835148228,0.9506054902824426,-0.03869603482940996,-0.315352,-22.656494
11.185,2.0,1.0,1.0,34.6,34.3,34.3,2.1,3.7,2.7025,-0.1778227161970754,-0.06359042699185342,0.9468451002091829,-0.04078720929961087,-0.323881,-22.435663
11.185,2.0,1.0,1.0,34.6,34.3,34.3,2.1,3.7,2.705,-0.193555993126889,-0.0645120717196186,0.942746853665665,-0.04297648445784847,-0.332786,-22.212133
11.185,2.0,1.0,1.0,34.6,34.3,34.3,2.1,3.7,2.7075,-0.20940069740905845,-0.0654287188506966,0.9382989338237582,-0.04526910075359064,-0.342089,-21.98582
11.185,2.0,1.0,1.0,34.6,34.3,34.3,2.1,3.7,2.71,-0.22535263806253344,-0.06633809571598058,0.9334890375372688,-0.04767063130588373,-0.351817,-21.756638
11.185,2.0,1.0,1.0,34.6,34.3,34.3,2.1,3.7,2.7125,-0.24140716608943283,-0.06723765084132757,0.9283043483517726,-0.05018700634234741,-0.361997,-21.524497
11.185,2.0,1.0,1.0,34.6,34.3,34.3,2.1,3.7,2.715,-0.2575591315638732,-0.06812452021264041,0.9227315075794714,-0.05282453955688099,-0.372661,-21.289304
11.185,2.0,1.0,1.0,34.6,34.3,34.3,2.1,3.7,2.7175,-0.2738028358025135,-0.068995489055431,0.916756583305097,-0.0555899565163714,-0.383841,-21.05096
11.185,2.0,1.0,1.0,34.6,34.3,34.3,2.1,3.7,2.72,-0.29013197792816897,-0.06984694846691131,0.9103650371890657,-0.058490425245645995,-0.395573,-20.809362
11.185,2.0,1.0,1.0,34.6,34.3,34.3,2.1,3.7,2.7225,-0.30653959502772804,-0.07067484613153067,0.9035416889381692,-0.06153358911480698,-0.407896,-20.564404
11.185,2.0,1.0,1.0,34.6,34.3,34.3,2.1,3.7,2.725,-0.32301799497615136,-0.07147463022505861,0.8962706783238854,-0.0647276021422894,-0.420855,-20.315971
11.185,2.0,1.0,1.0,34.6,34.3,34.3,2.1,3.7,2.7275,-0.3395586808463362,-0.07224118546437631,0.8885354246457384,-0.06808116680847774,-0.434497,-20.063948
11.185,2.0,1.0,1.0,34.6,34.3,34.3,2.1,3.7,2.73,-0.35615226564553815,-0.07296876008599605,0.8803185835650175,-0.07160357444566598,-0.448872,-19.808209
11.185,2.0,1.0,1.0,34.6,34.3,34.3,2.1,3.7,2.7325,-0.3727883759082069,-0.07365088233114891,0.8716020012761355,-0.07530474822698731,-0.46404,-19.548626
11.185,2.0,1.0,1.0,34.6,34.3,34.3,2.1,3.7,2.735,-0.38945554242634567,-0.07428026477332758,0.8623666660438817,-0.07919528871483084,-0.480062,-19.285064
11.185,2.0,1.0,1.0,34.6,34.3,34.3,2.1,3.7,2.7375,-0.40614107610515804,-0.0748486945386845,0.8525926572210276,-0.08328652184193795,-0.49701,-19.017381
11.185,2.0,1.0,1.0,34.6,34.3,34.3,2.1,3.7,2.74,-0.42283092658534216,-0.07534690713270335,0.8422590919808489,-0.08759054907751096,-0.514959,-18.745428
11.185,2.0,1.0,1.0,34.6,34.3,34.3,2.1,3.7,2.7425,-0.4395095208646326,-0.07576444118878194,0.8313440701638275,-0.09212029936538425,-0.533996,-18.46905
11.185,2.0,1.0,1.0,34.6,34.3,34.3,2.1,3.7,2.745,-0.45615957866866336,-0.0760894709849514,0.8198246178620076,-0.09688958219720249,-0.554216,-18.188084
11.185,2.0,1.0,1.0,34.6,34.3,34.3,2.1,3.7,2.7475,-0.47276190075234636,-0.0763086130214799,0.8076766306671562,-0.10191314088174032,-0.575726,-17.902359
11.185,2.0,1.0,1.0,34.6,34.3,34.3,2.1,3.7,2.75,-0.489295125643003,-0.0764067023004328,0.794874817915403,-0.107206704667054,-0.598643,-17.611698
11.185,2.0,1.0,1.0,34.6,34.3,34.3,2.1,3.7,2.7525,-0.5057354495492931,-0.07636653318266697,0.781392649804745,-0.1127870378322585,-0.623102,-17.315914
11.185,2.0,1.0,1.0,34.6,34.3,34.3,2.1,3.7,2.755,-0.5220563032379478,-0.0761685588012372,0.7672023099866294,-0.11867198314712955,-0.649251,-17.014812
11.185,2.0,1.0,1.0,34.6,34.3,34.3,2.1,3.7,2.7575,-0.5382279786052687,-0.0757905419652342,0.7522746571966952,-0.12488049614347527,-0.677259,-16.708189
11.185,2.0,1.0,1.0,34.6,34.3,34.3,2.1,3.7,2.76,-0.5542171964246623,-0.07520714927791168,0.7365792007690788,-0.13143266537715625,-0.707315,-16.395834
11.185,2.0,1.0,1.0,34.6,34.3,34.3,2.1,3.7,2.7625,-0.569986605320997,-0.07438947880402481,0.7200840965739758,-0.1383497121850113,-0.739634,-16.077527
11.185,2.0,1.0,1.0,34.6,34.3,34.3,2.1,3.7,2.765,-0.5854942003998478,-0.07330451004720043,0.7027561721619433,-0.1456539612266726,-0.77446,-15.753041
11.185,2.0,1.0,1.0,34.6,34.3,34.3,2.1,3.7,2.7675,-0.600692648151412,-0.07191446324613203,0.684560992863933,-0.15336877017680134,-0.81207,-15.422139
11.185,2.0,1.0,1.0,34.6,34.3,34.3,2.1,3.7,2.77,-0.615528502285594,-0.07017605309963366,0.6654629845116072,-0.16151840307540513,-0.852781,-15.08458
11.185,2.0,1.0,1.0,34.6,34.3,34.3,2.1,3.7,2.7725,-0.6299412931076034,-0.0680396200563483,0.6454256336032947,-0.1701278267617952,-0.896957,-14.740116
11.185,2.0,1.0,1.0,34.6,34.3,34.3,2.1,3.7,2.775,-0.6438624710494035,-0.06544812039144296,0.6244117925319999,-0.17922240313510965,-0.945015,-14.388494
11.185,2.0,1.0,1.0,34.6,34.3,34.3,2.1,3.7,2.7775,-0.6572141832729343,-0.062335954679241586,0.6023841264046144,-0.18882744121843653,-0.997437,-14.02946
11.185,2.0,1.0,1.0,34.6,34.3,34.3,2.1,3.7,2.78,-0.6699078612607475,-0.05862761335746838,0.5793057496402401,-0.19896756154351497,-1.054781,-13.662762
11.185,2.0,1.0,1.0,34.6,34.3,34.3,2.1,3.7,2.7825,-0.681842597663909,-0.05423611851250632,0.5551411157152488,-0.20966581046009142,-1.117694,-13.28815
11.185,2.0,1.0,1.0,34.6,34.3,34.3,2.1,3.7,2.785,-0.6929032934217408,-0.04906124381700763,0.5298572430590968,-0.22094244269305122,-1.186932,-12.905386
11.185,2.0,1.0,1.0,34.6,34.3,34.3,2.1,3.7,2.7875,-0.7029585629083701,-0.042987501302501174,0.5034253852793991,-0.232813265765786,-1.263378,-12.514248
11.185,2.0,1.0,1.0,34.6,34.3,34.3,2.1,3.7,2.79,-0.7118583980427482,-0.03588189675632298,0.47582328576237287,-0.24528740865474583,-1.348071,-12.114539
11.185,2.0,1.0,1.0,34.6,34.3,34.3,2.1,3.7,2.7925,-0.719431615582514,-0.02759147859413606,0.4470381963098412,-0.25836433821554244,-1.442235,-11.706099
11.185,2.0,1.0,1.0,34.6,34.3,34.3,2.1,3.7,2.795,-0.7254831505889542,-0.01794074336312317,0.41707088742488124,-0.2720298999677865,-1.54732,-11.288818
11.185,2.0,1.0,1.0,34.6,34.3,34.3,2.1,3.7,2.7975,-0.7297913210346608,-0.006729022170833641,0.3859409335689119,-0.2862511053377212,-1.66505,-10.862657
11.185,2.0,1.0,1.0,34.6,34.3,34.3,2.1,3.7,2.8,-0.7321052845316683,0.0062719330902310955,0.3536936171897131,-0.30096932841363905,-1.797477,-10.42767
11.185,2.0,1.0,1.0,34.6,34.3,34.3,2.1,3.7,2.8025,-0.7321430526847675,0.02131980263026029,0.3204088530110527,-0.31609151913687916,-1.947063,-9.984031
11.185,2.0,1.0,1.0,34.6,34.3,34.3,2.1,3.7,2.805,-0.7295906399323404,0.03870242187703044,0.28621257338707645,-0.3314790020085685,-2.116759,-9.532076
11.185,2.0,1.0,1.0,34.6,34.3,34.3,2.1,3.7,2.8075,-0.7241032227569324,0.05873651221651371,0.25129100747982885,-0.3469334383688437,-2.310123,-9.072345
11.185,2.0,1.0,1.0,34.6,34.3,34.3,2.1,3.7,2.81,-0.7153095907797876,0.08176315868749216,0.2159081816776578,-0.36217963520478236,-2.531447,-8.605639
11.185,2.0,1.0,1.0,34.6,34.3,34.3,2.1,3.7,2.8125,-0.7028216900776,0.10813826535992,0.180426685714369,-0.376845163157897,-2.785916,-8.133087
11.185,2.0,1.0,1.0,34.6,34.3,34.3,2.1,3.7,2.815,-0.6862516641517492,0.13821562686212646,0.1453311688531905,-0.3904373181918736,-3.079797,-7.656223
11.185,2.0,1.0,1.0,34.6,34.3,34.3,2.1,3.7,2.8175,-0.6652393914370353,0.17231967529230974,0.1112529933648639,-0.4023189819016343,-3.420643,-7.177073
11.185,2.0,1.0,1.0,34.6,34.3,34.3,2.1,3.7,2.82,-0.6394938733289418,0.21070461881475924,0.07899279993624184,-0.41168657906945033,-3.817507,-6.698252
11.185,2.0,1.0,1.0,34.6,34.3,34.3,2.1,3.7,2.8225,-0.6088515154384199,0.25349700228852484,0.04953530725977055,-0.41755571834819655,-4.28112,-6.22305
11.185,2.0,1.0,1.0,34.6,34.3,34.3,2.1,3.7,2.825,-0.5733526834882208,0.3006203622518733,0.024047567416399226,-0.4187631405338205,-4.82393,-5.75551
11.185,2.0,1.0,1.0,34.6,34.3,34.3,2.1,3.7,2.8275,-0.5333340136655418,0.3517044905285665,0.0038487172599890114,-0.4139967087262913,-5.459788,-5.300465
11.185,2.0,1.0,1.0,34.6,34.3,34.3,2.1,3.7,2.83,-0.4895270269619512,0.4059886315401272,-0.009662554915178478,-0.401866937772781,-6.202775,-4.863512
