1,w,sub_t,h,l1,l2,l3,g1,g2,Freq,S11_re,S21_re,S11_img,S21_img,S11_dB,S21_dB
11.185,2.0,1.0,1.0,33.4,33.5,33.5,2.0,1.9,2.5,0.856115687990913,-0.0121234030832423,0.50310682472006,0.0128162893879243,-0.061008,-35.069127
11.185,2.0,1.0,1.0,33.4,33.5,33.5,2.0,1.9,2.5025,0.8526853111343531,-0.012389795946527286,0.5087560770431167,0.012906657569303164,-0.061649,-34.947294
11.185,2.0,1.0,1.0,33.4,33.5,33.5,2.0,1.9,2.505,0.849201359145132,-0.012661613238406368,0.5144061129226368,0.012996645834703884,-0.062303,-34.825016
11.185,2.0,1.0,1.0,33.4,33.5,33.5,2.0,1.9,2.5075,0.845663249729803,-0.012938980655653722,0.5200567062838263,0.013086210529630885,-0.06297,-34.702282
11.185,2.0,1.0,1.0,33.4,33.5,33.5,2.0,1.9,2.51,0.8420703898338319,-0.013222027488420796,0.5257076233843733,0.013175305899182022,-0.063649,-34.579085
11.185,2.0,1.0,1.0,33.4,33.5,33.5,2.0,1.9,2.5125,0.8384221754088037,-0.013510886742073893,0.5313586225321597,0.013263883985798999,-0.064343,-34.455415
11.185,2.0,1.0,1.0,33.4,33.5,33.5,2.0,1.9,2.515,0.8347179911736112,-0.013805695263764817,0.5370094537919559,0.013351894521646422,-0.06505,-34.331263
11.185,2.0,1.0,1.0,33.4,33.5,33.5,2.0,1.9,2.5175,0.8309572103694447,-0.01410659387394231,0.542659858680593,0.01343928481530996,-0.065772,-34.206619
11.185,2.0,1.0,1.0,33.4,33.5,33.5,2.0,1.9,2.52,0.8271391945083683,-0.014413727503021343,0.5483095698501077,0.013525999632483424,-0.066508,-34.081475
11.185,2.0,1.0,1.0,33.4,33.5,33.5,2.0,1.9,2.5225,0.8232632931152956,-0.014727245333436832,0.5539583107582878,0.013611981070294207,-0.067259,-33.955819
11.185,2.0,1.0,1.0,33.4,33.5,33.5,2.0,1.9,2.525,0.8193288434631327,-0.01504730094732174,0.5596057953260632,0.013697168424892747,-0.068026,-33.829643
11.185,2.0,1.0,1.0,33.4,33.5,33.5,2.0,1.9,2.5275,0.8153351703008725,-0.015374052480058827,0.5652517275811223,0.01378149805190849,-0.068809,-33.702937
11.185,2.0,1.0,1.0,33.4,33.5,33.5,2.0,1.9,2.53,0.8112815855744069,-0.015707662779968358,0.5708958012871105,0.01386490321934795,-0.069608,-33.575689
11.185,2.0,1.0,1.0,33.4,33.5,33.5,2.0,1.9,2.5325,0.8071673881398171,-0.016048299574407912,0.5765376995577363,0.013947313952482773,-0.070425,-33.44789
11.185,2.0,1.0,1.0,33.4,33.5,33.5,2.0,1.9,2.535,0.8029918634688812,-0.016396135642571558,0.5821770944550709,0.014028656870246308,-0.071258,-33.31953
11.185,2.0,1.0,1.0,33.4,33.5,33.5,2.0,1.9,2.5375,0.7987542833465503,-0.016751348995292282,0.5878136465712795,0.014108855012623272,-0.072109,-33.190597
11.185,2.0,1.0,1.0,33.4,33.5,33.5,2.0,1.9,2.54,0.7944539055601073,-0.017114123062165348,0.5934470045929923,0.014187827658485383,-0.072979,-33.061081
11.185,2.0,1.0,1.0,33.4,33.5,33.5,2.0,1.9,2.5425,0.7900899735797303,-0.017484646886325127,0.5990768048474676,0.014265490133285678,-0.073868,-32.93097
11.185,2.0,1.0,1.0,33.4,33.5,33.5,2.0,1.9,2.545,0.7856617162301619,-0.017863115327226644,0.6047026708296626,0.014341753605986675,-0.074776,-32.800254
11.185,2.0,1.0,1.0,33.4,33.5,33.5,2.0,1.9,2.5475,0.7811683473531804,-0.018249729271797514,0.6103242127092472,0.014416524874552498,-0.075704,-32.66892
11.185,2.0,1.0,1.0,33.4,33.5,33.5,2.0,1.9,2.55,0.7766090654605382,-0.018644695854347113,0.6159410268165922,0.01448970613929205,-0.076652,-32.536957
11.185,2.0,1.0,1.0,33.4,33.5,33.5,2.0,1.9,2.5525,0.7719830533770502,-0.01904822868563605,0.6215526951066359,0.014561194763286623,-0.077622,-32.404353
11.185,2.0,1.0,1.0,33.4,33.5,33.5,2.0,1.9,2.555,0.7672894778734681,-0.01946054809153131,0.627158784599537,0.014630883019085201,-0.078614,-32.271096
11.185,2.0,1.0,1.0,33.4,33.5,33.5,2.0,1.9,2.5575,0.7625274892887776,-0.019881881361693124,0.6327588467969091,0.014698657820791461,-0.079628,-32.137174
11.185,2.0,1.0,1.0,33.4,33.5,33.5,2.0,1.9,2.56,0.757696221141545,-0.02031246300875936,0.6383524170723706,0.014764400440604265,-0.080666,-32.002573
11.185,2.0,1.0,1.0,33.4,33.5,33.5,2.0,1.9,2.5625,0.752794789729911,-0.020752535038520804,0.6439390140350725,0.014827986208807733,-0.081728,-31.867281
11.185,2.0,1.0,1.0,33.4,33.5,33.5,2.0,1.9,2.565,0.7478222937198168,-0.02120234723160054,0.6495181388647828,0.014889284196131723,-0.082814,-31.731284
11.185,2.0,1.0,1.0,33.4,33.5,33.5,2.0,1.9,2.5675,0.7427778137210369,-0.02166215743717913,0.6550892746169991,0.0149481568773301,-0.083926,-31.59457
11.185,2.0,1.0,1.0,33.4,33.5,33.5,2.0,1.9,2.57,0.737660411850563,-0.022132231879332463,0.6606518854964856,0.015004459774734283,-0.085064,-31.457125
11.185,2.0,1.0,1.0,33.4,33.5,33.5,2.0,1.9,2.5725,0.7324691312828727,-0.022612845476578804,0.6662054160975213,0.015058041080453359,-0.08623,-31.318934
11.185,2.0,1.0,1.0,33.4,33.5,33.5,2.0,1.9,2.575,0.7272029957865895,-0.023104282175257302,0.6717492906090254,0.015108741255789104,-0.087423,-31.179983
11.185,2.0,1.0,1.0,33.4,33.5,33.5,2.0,1.9,2.5775,0.7218610092470304,-0.023606835297396295,0.6772829119826073,0.015156392606331396,-0.088646,-31.040259
11.185,2.0,1.0,1.0,33.4,33.5,33.5,2.0,1.9,2.58,0.7164421551741046,-0.024120807903755107,0.6828056610614739,0.015200818831080177,-0.089898,-30.899745
11.185,2.0,1.0,1.0,33.4,33.5,33.5,2.0,1.9,2.5825,0.7109453961950077,-0.02464651317276183,0.6883168956679696,0.015241834543818125,-0.091182,-30.758427
11.185,2.0,1.0,1.0,33.4,33.5,33.5,2.0,1.9,2.585,0.7053696735311408,-0.025184274796101924,0.693815949647379,0.015279244764819759,-0.092497,-30.616289
11.185,2.0,1.0,1.0,33.4,33.5,33.5,2.0,1.9,2.5875,0.6997139064586403,-0.025734427391747014,0.699302131865467,0.015312844380837043,-0.093846,-30.473315
11.185,2.0,1.0,1.0,33.4,33.5,33.5,2.0,1.9,2.59,0.6939769917519092,-0.026297316935254188,0.7047747251570426,0.015342417571141095,-0.095229,-30.32949
11.185,2.0,1.0,1.0,33.4,33.5,33.5,2.0,1.9,2.5925,0.6881578031094779,-0.02687330121020097,0.7102329852226558,0.0153677371972257,-0.096647,-30.184796
11.185,2.0,1.0,1.0,33.4,33.5,33.5,2.0,1.9,2.595,0.6822551905615436,-0.027462750278664294,0.7156761394703094,0.015388564153589938,-0.098102,-30.039217
11.185,2.0,1.0,1.0,33.4,33.5,33.5,2.0,1.9,2.5975,0.676267979858456,-0.028066046972691893,0.7211033857988814,0.015404646676812279,-0.099594,-29.892735
11.185,2.0,1.0,1.0,33.4,33.5,33.5,2.0,1.9,2.6,0.6701949718394395,-0.028683587407754955,0.7265138913196744,0.015415719609903785,-0.101127,-29.745333
11.185,2.0,1.0,1.0,33.4,33.5,33.5,2.0,1.9,2.6025,0.6640349417807911,-0.029315781519219125,0.7319067910122623,0.01542150361868683,-0.1027,-29.596992
11.185,2.0,1.0,1.0,33.4,33.5,33.5,2.0,1.9,2.605,0.6577866387227629,-0.02996305362290954,0.737281186310527,0.015421704356679167,-0.104315,-29.447694
11.185,2.0,1.0,1.0,33.4,33.5,33.5,2.0,1.9,2.6075,0.6514487847743278,-0.030625843000895284,0.7426361436144578,0.015416011574674964,-0.105974,-29.29742
11.185,2.0,1.0,1.0,33.4,33.5,33.5,2.0,1.9,2.61,0.6450200743949921,-0.031304604513660295,0.74797069272295,0.015404098170898889,-0.107678,-29.14615
11.185,2.0,1.0,1.0,33.4,33.5,33.5,2.0,1.9,2.6125,0.6384991736527932,-0.031999809239876255,0.7532838251824837,0.015385619177265508,-0.10943,-28.993865
11.185,2.0,1.0,1.0,33.4,33.5,33.5,2.0,1.9,2.615,0.6318847194575932,-0.03271194514503619,0.7585744925461556,0.01536021067689929,-0.11123,-28.840544
11.185,2.0,1.0,1.0,33.4,33.5,33.5,2.0,1.9,2.6175,0.6251753187687766,-0.033441517780251784,0.7638416045371035,0.015327488647661177,-0.113081,-28.686165
11.185,2.0,1.0,1.0,33.4,33.5,33.5,2.0,1.9,2.62,0.6183695477764203,-0.03418905101256081,0.769084027109892,0.015287047725974256,-0.114985,-28.530708
11.185,2.0,1.0,1.0,33.4,33.5,33.5,2.0,1.9,2.6225,0.6114659510549931,-0.03495508778813264,0.774300580402916,0.015238459884753017,-0.116944,-28.37415
11.185,2.0,1.0,1.0,33.4,33.5,33.5,2.0,1.9,2.625,0.604463040688654,-0.0357401909297938,0.779490036574296,0.0151812730186968,-0.11896,-28.21647
11.185,2.0,1.0,1.0,33.4,33.5,33.5,2.0,1.9,2.6275,0.5973592953671707,-0.036544943970335184,0.7846511175131418,0.015115009429617696,-0.121035,-28.057642
11.185,2.0,1.0,1.0,33.4,33.5,33.5,2.0,1.9,2.63,0.5901531594515248,-0.037369952023083505,0.7897824924173639,0.015039164203824448,-0.123171,-27.897645
11.185,2.0,1.0,1.0,33.4,33.5,33.5,2.0,1.9,2.6325,0.5828430420082499,-0.038215842691247184,0.7948827752284934,0.01495320347286733,-0.125372,-27.736453
11.185,2.0,1.0,1.0,33.4,33.5,33.5,2.0,1.9,2.635,0.5754273158115844,-0.039083267017555184,0.7999505219131336,0.014856562548168464,-0.12764,-27.574041
11.185,2.0,1.0,1.0,33.4,33.5,33.5,2.0,1.9,2.6375,0.5679043163125571,-0.03997290047571036,0.8049842275797787,0.014748643919196672,-0.129978,-27.410384
11.185,2.0,1.0,1.0,33.4,33.5,33.5,2.0,1.9,2.64,0.5602723405741431,-0.040885444005169316,0.8099823234187784,0.014628815103896254,-0.132388,-27.245454
11.185,2.0,1.0,1.0,33.4,33.5,33.5,2.0,1.9,2.6425,0.5525296461717404,-0.041821625090728065,0.8149431734521108,0.01449640633903527,-0.134874,-27.079225
11.185,2.0,1.0,1.0,33.4,33.5,33.5,2.0,1.9,2.645,0.5446744500582644,-0.04278219888834865,0.819865071078458,0.014350708096981675,-0.137439,-26.911669
11.185,2.0,1.0,1.0,33.4,33.5,33.5,2.0,1.9,2.6475,0.5367049273932979,-0.04376794939858686,0.8247462353977761,0.014190968414145603,-0.140087,-26.742757
11.185,2.0,1.0,1.0,33.4,33.5,33.5,2.0,1.9,2.65,0.528619210335858,-0.04477969068888004,0.8295848072980972,0.014016390014917777,-0.14282,-26.572458
11.185,2.0,1.0,1.0,33.4,33.5,33.5,2.0,1.9,2.6525,0.5204153868005689,-0.04581826816581405,0.8343788452856988,0.013826127213381402,-0.145644,-26.400744
11.185,2.0,1.0,1.0,33.4,33.5,33.5,2.0,1.9,2.655,0.5120914991771944,-0.04688455989831145,0.8391263210380531,0.013619282573355084,-0.148563,-26.227581
11.185,2.0,1.0,1.0,33.4,33.5,33.5,2.0,1.9,2.6575,0.5036455430138325,-0.04797947799244604,0.8438251146569741,0.013394903305418888,-0.151579,-26.052938
11.185,2.0,1.0,1.0,33.4,33.5,33.5,2.0,1.9,2.66,0.4950754656643719,-0.04910397001829974,0.8484730095972723,0.013151977377470085,-0.154699,-25.876782
11.185,2.0,1.0,1.0,33.4,33.5,33.5,2.0,1.9,2.6625,0.4863791649012764,-0.05025902048890717,0.8530676872438053,0.012889429313011567,-0.157927,-25.699078
11.185,2.0,1.0,1.0,33.4,33.5,33.5,2.0,1.9,2.665,0.4775544874952283,-0.05144565239088201,0.8576067211071977,0.012606115648781224,-0.161268,-25.51979
11.185,2.0,1.0,1.0,33.4,33.5,33.5,2.0,1.9,2.6675,0.4685992277638381,-0.05266492876575441,0.8620875706055439,0.012300820020444898,-0.164728,-25.338883
11.185,2.0,1.0,1.0,33.4,33.5,33.5,2.0,1.9,2.67,0.4595111260923297,-0.05391795434037169,0.8665075743961618,0.011972247841868525,-0.168313,-25.156317
11.185,2.0,1.0,1.0,33.4,33.5,33.5,2.0,1.9,2.6725,0.45028786743003796,-0.05520587720387575,0.8708639432178302,0.011619020539913061,-0.172029,-24.972056
11.185,2.0,1.0,1.0,33.4,33.5,33.5,2.0,1.9,2.675,0.44092707976762896,-0.056529890527763235,0.8751537521999208,0.011239669302723404,-0.175882,-24.786058
11.185,2.0,1.0,1.0,33.4,33.5,33.5,2.0,1.9,2.6775,0.43142633260125157,-0.05789123432431526,0.8793739325903139,0.010832628295046484,-0.17988,-24.598281
11.185,2.0,1.0,1.0,33.4,33.5,33.5,2.0,1.9,2.68,0.42178313539136186,-0.05929119723721162,0.8835212628490118,0.010396227289172045,-0.18403,-24.408684
11.185,2.0,1.0,1.0,33.4,33.5,33.5,2.0,1.9,2.6825,0.4119949360258428,-0.06073111835637345,0.8875923590487403,0.009928683654568367,-0.18834,-24.217222
11.185,2.0,1.0,1.0,33.4,33.5,33.5,2.0,1.9,2.685,0.40205911929922183,-0.062212389046957306,0.8915836645175919,0.009428093643113481,-0.192819,-24.023848
11.185,2.0,1.0,1.0,33.4,33.5,33.5,2.0,1.9,2.6875,0.3919730054224407,-0.06373645477987186,0.8954914386517921,0.008892422899927175,-0.197476,-23.828517
11.185,2.0,1.0,1.0,33.4,33.5,33.5,2.0,1.9,2.69,0.3817338485807851,-0.06530481694813524,0.8993117448188546,0.00831949612208326,-0.202321,-23.631178
11.185,2.0,1.0,1.0,33.4,33.5,33.5,2.0,1.9,2.6925,0.37133883556131164,-0.06691903464974158,0.9030404372626215,0.007706985778835807,-0.207364,-23.431781
11.185,2.0,1.0,1.0,33.4,33.5,33.5,2.0,1.9,2.695,0.3607850844756193,-0.06858072641332205,0.9066731469119438,0.0070523997972990315,-0.212618,-23.230274
11.185,2.0,1.0,1.0,33.4,33.5,33.5,2.0,1.9,2.6975,0.350069643609108,-0.07029157183766893,0.9102052659836896,0.006353068106648475,-0.218093,-23.026602
11.185,2.0,1.0,1.0,33.4,33.5,33.5,2.0,1.9,2.7,0.33918949043427543,-0.07205331310992319,0.9136319312585328,0.005606127921711899,-0.223803,-22.820709
11.185,2.0,1.0,1.0,33.4,33.5,33.5,2.0,1.9,2.7025,0.3281415308331618,-0.07386775635975636,0.9169480058940596,0.004808507633116116,-0.229762,-22.612537
11.185,2.0,1.0,1.0,33.4,33.5,33.5,2.0,1.9,2.705,0.3169225985831703,-0.0757367727979239,0.9201480596242153,0.003956909155768791,-0.235985,-22.402026
11.185,2.0,1.0,1.0,33.4,33.5,33.5,2.0,1.9,2.7075,0.3055294551712655,-0.07766229957686598,0.9232263471766776,0.0030477885701541392,-0.242488,-22.189112
11.185,2.0,1.0,1.0,33.4,33.5,33.5,2.0,1.9,2.71,0.2939587900145754,-0.07964634029821854,0.9261767847200242,0.002077334871475201,-0.24929,-21.97373
11.185,2.0,1.0,1.0,33.4,33.5,33.5,2.0,1.9,2.7125,0.2822072211808347,-0.08169096507675143,0.9289929241305801,0.0010414466198100521,-0.256409,-21.755814
11.185,2.0,1.0,1.0,33.4,33.5,33.5,2.0,1.9,2.715,0.270271296720726,-0.08379831005186665,0.9316679248439138,-6.429374014427256e-05,-0.263865,-21.535292
11.185,2.0,1.0,1.0,33.4,33.5,33.5,2.0,1.9,2.7175,0.25814749674632065,-0.08597057621573322,0.9341945230280998,-0.0012446481488135911,-0.271682,-21.312093
11.185,2.0,1.0,1.0,33.4,33.5,33.5,2.0,1.9,2.72,0.24583223641655524,-0.08821002740067305,0.9365649977843885,-0.0025047540811308313,-0.279882,-21.086141
11.185,2.0,1.0,1.0,33.4,33.5,33.5,2.0,1.9,2.7225,0.23332187002255045,-0.09051898723662476,0.9387711340457608,-0.0038501589006406964,-0.288493,-20.857356
11.185,2.0,1.0,1.0,33.4,33.5,33.5,2.0,1.9,2.725,0.22061269640413222,-0.09289983485127323,0.9408041818041591,-0.00528685778259871,-0.297543,-20.625659
11.185,2.0,1.0,1.0,33.4,33.5,33.5,2.0,1.9,2.7275,0.20770096597509285,-0.0953549990394388,0.9426548112527742,-0.006821335614300664,-0.307063,-20.390963
11.185,2.0,1.0,1.0,33.4,33.5,33.5,2.0,1.9,2.73,0.1945828896904464,-0.09788695057286322,0.9443130633801109,-0.008460613330075693,-0.317087,-20.15318
11.185,2.0,1.0,1.0,33.4,33.5,33.5,2.0,1.9,2.7325,0.18125465035611826,-0.10049819225466838,0.9457682954968526,-0.010212299193352432,-0.327653,-19.91222
11.185,2.0,1.0,1.0,33.4,33.5,33.5,2.0,1.9,2.735,0.16771241676259296,-0.10319124624198338,0.9470091211147316,-0.012084645599437505,-0.3388,-19.667986
11.185,2.0,1.0,1.0,33.4,33.5,33.5,2.0,1.9,2.7375,0.1539523612221238,-0.10596863806259738,0.9480233435276992,-0.014086612040618344,-0.350574,-19.420379
11.185,2.0,1.0,1.0,33.4,33.5,33.5,2.0,1.9,2.74,0.13997068120774042,-0.10883287663326667,0.9487978823697452,-0.01622793495028665,-0.363022,-19.169297
11.185,2.0,1.0,1.0,33.4,33.5,33.5,2.0,1.9,2.7425,0.12576362593614646,-0.11178642944403074,0.9493186923401,-0.018519205225233062,-0.3762,-18.914632
11.185,2.0,1.0,1.0,33.4,33.5,33.5,2.0,1.9,2.745,0.11132752891111586,-0.11483169189902279,0.9495706731954655,-0.020971954315066176,-0.390166,-18.656271
11.185,2.0,1.0,1.0,33.4,33.5,33.5,2.0,1.9,2.7475,0.09665884765603636,-0.11797094959302239,0.9495375700106313,-0.0235987498644846,-0.404985,-18.394101
11.185,2.0,1.0,1.0,33.4,33.5,33.5,2.0,1.9,2.75,0.0817542121221228,-0.121206332046091,0.949201862604245,-0.0264133019969461,-0.42073,-18.127998
11.185,2.0,1.0,1.0,33.4,33.5,33.5,2.0,1.9,2.7525,0.06661048357286743,-0.12453975610580086,0.9485446429174214,-0.02943058143529655,-0.43748,-17.857839
11.185,2.0,1.0,1.0,33.4,33.5,33.5,2.0,1.9,2.755,0.051224826128087604,-0.12797285684533213,0.9475454790221823,-0.03266695076315942,-0.455325,-17.583494
11.185,2.0,1.0,1.0,33.4,33.5,33.5,2.0,1.9,2.7575,0.03559479361777111,-0.13150690332067128,0.9461822643292788,-0.03614031023556001,-0.474362,-17.304827
11.185,2.0,1.0,1.0,33.4,33.5,33.5,2.0,1.9,2.76,0.019718434966155385,-0.13514269598249312,0.9444310504677469,-0.03987025964103441,-0.494702,-17.021698
11.185,2.0,1.0,1.0,33.4,33.5,33.5,2.0,1.9,2.7625,0.003594422022573271,-0.1388804418451002,0.9422658622326464,-0.043878277789622035,-0.516468,-16.733963
11.185,2.0,1.0,1.0,33.4,33.5,33.5,2.0,1.9,2.765,-0.01277779539359699,-0.14271960266806205,0.9396584929582094,-0.04818792123578904,-0.539796,-16.441471
11.185,2.0,1.0,1.0,33.4,33.5,33.5,2.0,1.9,2.7675,-0.02939780142745109,-0.14665871037207592,0.9365782786939483,-0.05282504381982443,-0.564842,-16.144069
11.185,2.0,1.0,1.0,33.4,33.5,33.5,2.0,1.9,2.77,-0.04626398602740828,-0.15069514264836406,0.932991849673343,-0.05781803849319269,-0.591777,-15.841597
11.185,2.0,1.0,1.0,33.4,33.5,33.5,2.0,1.9,2.7725,-0.06337326806595638,-0.1548248501820059,0.9288628578142446,-0.06319810263692743,-0.620799,-15.533893
11.185,2.0,1.0,1.0,33.4,33.5,33.5,2.0,1.9,2.775,-0.0807207592363426,-0.15904202503689097,0.9241516794414145,-0.06899952762315138,-0.652127,-15.220789
11.185,2.0,1.0,1.0,33.4,33.5,33.5,2.0,1.9,2.7775,-0.09829935593258549,-0.16333869747734941,0.9188150931644137,-0.0752600126183875,-0.686012,-14.902116
11.185,2.0,1.0,1.0,33.4,33.5,33.5,2.0,1.9,2.78,-0.11609924355529883,-0.16770424575471582,0.9128059340033113,-0.08202100145872054,-0.722737,-14.577703
11.185,2.0,1.0,1.0,33.4,33.5,33.5,2.0,1.9,2.7825,-0.13410729436100285,-0.17212480008581862,0.9060727266032305,-0.0893280396684982,-0.762626,-14.247377
11.185,2.0,1.0,1.0,33.4,33.5,33.5,2.0,1.9,2.785,-0.15230633600576582,-0.17658251811395057,0.8985593029544204,-0.09723114610881706,-0.806049,-13.910967
11.185,2.0,1.0,1.0,33.4,33.5,33.5,2.0,1.9,2.7875,-0.17067426325197876,-0.1810547045001821,0.8902044137632494,-0.10578519000461506,-0.85343,-13.568306
11.185,2.0,1.0,1.0,33.4,33.5,33.5,2.0,1.9,2.79,-0.18918295986484482,-0.18551274190139325,0.880941347943901,-0.11505025876858518,-0.905254,-13.219231
11.185,2.0,1.0,1.0,33.4,33.5,33.5,2.0,1.9,2.7925,-0.20779699153694198,-0.18992079446836868,0.8706975822184535,-0.12509199452111935,-0.962082,-12.86359
11.185,2.0,1.0,1.0,33.4,33.5,33.5,2.0,1.9,2.795,-0.22647202387088855,-0.1942342382722904,0.8593944933218151,-0.13598186670443838,-1.024562,-12.501246
11.185,2.0,1.0,1.0,33.4,33.5,33.5,2.0,1.9,2.7975,-0.24515291234258535,-0.19839776606608608,0.8469471798587098,-0.14779733366099274,-1.093446,-12.13208
11.185,2.0,1.0,1.0,33.4,33.5,33.5,2.0,1.9,2.8,-0.26377140440853597,-0.20234310716067486,0.8332644608103752,-0.16062182614202963,-1.169606,-11.756001
11.185,2.0,1.0,1.0,33.4,33.5,33.5,2.0,1.9,2.8025,-0.2822433886861033,-0.20598629812529268,0.8182491447497973,-0.17454445873420402,-1.254063,-11.372956
11.185,2.0,1.0,1.0,33.4,33.5,33.5,2.0,1.9,2.805,-0.30046562443154917,-0.20922443851508796,0.8017987000676291,-0.18965933908765728,-1.348008,-10.982936
11.185,2.0,1.0,1.0,33.4,33.5,33.5,2.0,1.9,2.8075,-0.3183118896435262,-0.21193187116341367,0.7838065042944984,-0.20606429726712266,-1.452841,-10.585998
11.185,2.0,1.0,1.0,33.4,33.5,33.5,2.0,1.9,2.81,-0.3356285031904974,-0.213955743904405,0.7641639123259365,-0.22385879616867982,-1.570209,-10.182275
11.185,2.0,1.0,1.0,33.4,33.5,33.5,2.0,1.9,2.8125,-0.352229213264501,-0.21511094675668788,0.7427634608816559,-0.2431407069309882,-1.702056,-9.772001
11.185,2.0,1.0,1.0,33.4,33.5,33.5,2.0,1.9,2.815,-0.3678895127655349,-0.21517448712099813,0.7195036200683983,-0.26400154047732555,-1.850681,-9.355537
11.185,2.0,1.0,1.0,33.4,33.5,33.5,2.0,1.9,2.8175,-0.3823405582185371,-0.21387948163646597,0.6942956089555632,-0.28651962133805065,-2.018808,-8.933403
11.185,2.0,1.0,1.0,33.4,33.5,33.5,2.0,1.9,2.82,-0.3952630542206588,-0.21090912855785998,0.6670728999070146,-0.31075058350626916,-2.209672,-8.506313
11.185,2.0,1.0,1.0,33.4,33.5,33.5,2.0,1.9,2.8225,-0.406281746743162,-0.20589130515617954,0.637804122662738,-0.33671448370282325,-2.427111,-8.075221
11.185,2.0,1.0,1.0,33.4,33.5,33.5,2.0,1.9,2.825,-0.4149615737279758,-0.1983948382083961,0.6065100999242073,-0.36437880895366975,-2.67568,-7.641373
11.185,2.0,1.0,1.0,33.4,33.5,33.5,2.0,1.9,2.8275,-0.4208070701851578,-0.1879290414936168,0.5732856271959716,-0.393636776894296,-2.96077,-7.20636
11.185,2.0,1.0,1.0,33.4,33.5,33.5,2.0,1.9,2.83,-0.42326730993598005,-0.17394879426085036,0.5383262369247881,-0.42428070215349534,-3.288731,-6.772179
