1,w,sub_t,h,l1,l2,l3,g1,g2,Freq,S11_re,S21_re,S11_img,S21_img,S11_dB,S21_dB
11.185,2.0,1.0,1.0,34.0,34.5,34.5,3.5,2.4,2.5,0.783039407605369,-0.0106150233485284,0.610197116117277,0.00674601091106342,-0.063472,-38.008282
11.185,2.0,1.0,1.0,34.0,34.5,34.5,3.5,2.4,2.5025,0.7785174232257328,-0.010826707459857697,0.6158277063326978,0.006759103146305381,-0.064169,-37.880707
11.185,2.0,1.0,1.0,34.0,34.5,34.5,3.5,2.4,2.505,0.7739319841300163,-0.011042539693001134,0.621450877121526,0.00677080061552747,-0.06488,-37.752561
11.185,2.0,1.0,1.0,34.0,34.5,34.5,3.5,2.4,2.5075,0.7692824197186093,-0.01126262037154342,0.6270661886121924,0.006781042098408882,-0.065605,-37.62383
11.185,2.0,1.0,1.0,34.0,34.5,34.5,3.5,2.4,2.51,0.7645680486531162,-0.011487053022264935,0.6326731876765983,0.0067897637597993995,-0.066345,-37.4945
11.185,2.0,1.0,1.0,34.0,34.5,34.5,3.5,2.4,2.5125,0.7597881786624859,-0.011715944504958739,0.6382714074925004,0.006796899021365248,-0.0671,-37.364558
11.185,2.0,1.0,1.0,34.0,34.5,34.5,3.5,2.4,2.515,0.7549421063443184,-0.011949405148686764,0.6438603670897396,0.006802378425871448,-0.06787,-37.233989
11.185,2.0,1.0,1.0,34.0,34.5,34.5,3.5,2.4,2.5175,0.7500291169611248,-0.012187548894852745,0.649439570879551,0.006806129493609599,-0.068657,-37.102779
11.185,2.0,1.0,1.0,34.0,34.5,34.5,3.5,2.4,2.52,0.7450484842312856,-0.012430493447496293,0.6550085081662007,0.006808076570441799,-0.06946,-36.970912
11.185,2.0,1.0,1.0,34.0,34.5,34.5,3.5,2.4,2.5225,0.739999470114451,-0.012678360431237734,0.6605666526400851,0.006808140666890958,-0.070281,-36.838375
11.185,2.0,1.0,1.0,34.0,34.5,34.5,3.5,2.4,2.525,0.7348813245910822,-0.012931275557335,0.6661134618514324,0.006806239287662992,-0.071119,-36.705151
11.185,2.0,1.0,1.0,34.0,34.5,34.5,3.5,2.4,2.5275,0.7296932854358281,-0.013189368798344776,0.6716483766636643,0.006802286250938125,-0.071974,-36.571224
11.185,2.0,1.0,1.0,34.0,34.5,34.5,3.5,2.4,2.53,0.7244345779844009,-0.013452774571913136,0.6771708206854086,0.0067961914967158065,-0.072849,-36.436579
11.185,2.0,1.0,1.0,34.0,34.5,34.5,3.5,2.4,2.5325,0.7191044148935878,-0.013721631934259756,0.6826801996801096,0.006787860883440318,-0.073743,-36.301198
11.185,2.0,1.0,1.0,34.0,34.5,34.5,3.5,2.4,2.535,0.7137019958939953,-0.013996084783958702,0.6881759009521027,0.006777195972071202,-0.074657,-36.165064
11.185,2.0,1.0,1.0,34.0,34.5,34.5,3.5,2.4,2.5375,0.7082265075351144,-0.014276282076660707,0.6936572927079298,0.006764093796694851,-0.075591,-36.02816
11.185,2.0,1.0,1.0,34.0,34.5,34.5,3.5,2.4,2.54,0.7026771229222323,-0.014562378051449505,0.6991237233916233,0.006748446620698191,-0.076546,-35.890467
11.185,2.0,1.0,1.0,34.0,34.5,34.5,3.5,2.4,2.5425,0.69705300144469,-0.014854532469574524,0.7045745209925564,0.006730141677444265,-0.077523,-35.751968
11.185,2.0,1.0,1.0,34.0,34.5,34.5,3.5,2.4,2.545,0.6913532884949487,-0.015152910866355217,0.7100089923243986,0.006709060894299582,-0.078522,-35.612643
11.185,2.0,1.0,1.0,34.0,34.5,34.5,3.5,2.4,2.5475,0.6855771151778688,-0.015457684817111824,0.7154264222735658,0.006685080598765602,-0.079544,-35.472473
11.185,2.0,1.0,1.0,34.0,34.5,34.5,3.5,2.4,2.55,0.6797235980095574,-0.015769032218040435,0.7208260730154913,0.00665807120535925,-0.080591,-35.331438
11.185,2.0,1.0,1.0,34.0,34.5,34.5,3.5,2.4,2.5525,0.6737918386051002,-0.01608713758301677,0.7262071831968568,0.006627896881769392,-0.081662,-35.189517
11.185,2.0,1.0,1.0,34.0,34.5,34.5,3.5,2.4,2.555,0.6677809233544042,-0.016412192357390252,0.7315689670818402,0.006594415192687217,-0.082759,-35.046689
11.185,2.0,1.0,1.0,34.0,34.5,34.5,3.5,2.4,2.5575,0.6616899230853338,-0.0167443952499073,0.7369106136602465,0.006557476719565846,-0.083882,-34.902932
11.185,2.0,1.0,1.0,34.0,34.5,34.5,3.5,2.4,2.56,0.6555178927132475,-0.017083952583990196,0.7422312857152432,0.0065169246544086725,-0.085032,-34.758224
11.185,2.0,1.0,1.0,34.0,34.5,34.5,3.5,2.4,2.5625,0.649263870875953,-0.01743107866969352,0.747530118848223,0.006472594365513201,-0.086211,-34.612542
11.185,2.0,1.0,1.0,34.0,34.5,34.5,3.5,2.4,2.565,0.6429268795530159,-0.017785996197760338,0.7528062204581376,0.00642431293290747,-0.087419,-34.465861
11.185,2.0,1.0,1.0,34.0,34.5,34.5,3.5,2.4,2.5675,0.6365059236682716,-0.01814893665731229,0.7580586686723989,0.006371898651006925,-0.088658,-34.318159
11.185,2.0,1.0,1.0,34.0,34.5,34.5,3.5,2.4,2.57,0.6299999906742683,-0.018520140778828357,0.7632865112262331,0.006315160495787582,-0.089928,-34.169409
11.185,2.0,1.0,1.0,34.0,34.5,34.5,3.5,2.4,2.5725,0.6234080501172646,-0.01889985900419719,0.7684887642870766,0.006253897553516496,-0.09123,-34.019585
11.185,2.0,1.0,1.0,34.0,34.5,34.5,3.5,2.4,2.575,0.6167290531812828,-0.019288351985770075,0.7736644112203289,0.006187898407796527,-0.092566,-33.868661
11.185,2.0,1.0,1.0,34.0,34.5,34.5,3.5,2.4,2.5775,0.6099619322095716,-0.019685891116497975,0.7788124012924418,0.006116940481369012,-0.093938,-33.716609
11.185,2.0,1.0,1.0,34.0,34.5,34.5,3.5,2.4,2.58,0.6031056002016959,-0.020092759093401198,0.7839316483069636,0.006040789328770566,-0.095345,-33.5634
11.185,2.0,1.0,1.0,34.0,34.5,34.5,3.5,2.4,2.5825,0.5961589502842857,-0.020509250516807118,0.7890210291687613,0.0059591978755528,-0.096791,-33.409005
11.185,2.0,1.0,1.0,34.0,34.5,34.5,3.5,2.4,2.585,0.5891208551533176,-0.02093567252798722,0.7940793823712012,0.005871905599345753,-0.098275,-33.253394
11.185,2.0,1.0,1.0,34.0,34.5,34.5,3.5,2.4,2.5875,0.5819901664855855,-0.021372345488045758,0.7991055064005755,0.0057786376475661575,-0.0998,-33.096534
11.185,2.0,1.0,1.0,34.0,34.5,34.5,3.5,2.4,2.59,0.5747657143168146,-0.021819603701145353,0.8040981580515021,0.005679103886040726,-0.101368,-32.938395
11.185,2.0,1.0,1.0,34.0,34.5,34.5,3.5,2.4,2.5925,0.567446306383616,-0.022277796185415713,0.8090560506464446,0.005572997872219675,-0.10298,-32.77894
11.185,2.0,1.0,1.0,34.0,34.5,34.5,3.5,2.4,2.595,0.560030727426248,-0.022747287495171405,0.8139778521517814,0.005459995745992003,-0.104637,-32.618137
11.185,2.0,1.0,1.0,34.0,34.5,34.5,3.5,2.4,2.5975,0.5525177384488182,-0.023228458598372772,0.818862183182125,0.005339755030372722,-0.106342,-32.455949
11.185,2.0,1.0,1.0,34.0,34.5,34.5,3.5,2.4,2.6,0.5449060759332859,-0.02372170781359875,0.8237076148837318,0.0052119133334999675,-0.108097,-32.292338
11.185,2.0,1.0,1.0,34.0,34.5,34.5,3.5,2.4,2.6025,0.5371944510032652,-0.024227451811163148,0.8285126666868651,0.005076086942449911,-0.109904,-32.127265
11.185,2.0,1.0,1.0,34.0,34.5,34.5,3.5,2.4,2.605,0.5293815485332355,-0.024746126683409288,0.8332758039159721,0.004931869298329254,-0.111765,-31.960692
11.185,2.0,1.0,1.0,34.0,34.5,34.5,3.5,2.4,2.6075,0.5214660261983746,-0.02527818908964842,0.8379954352452433,0.004778829340930498,-0.113683,-31.792575
11.185,2.0,1.0,1.0,34.0,34.5,34.5,3.5,2.4,2.61,0.5134465134597598,-0.025824117481683433,0.8426699099858622,0.004616509709910113,-0.11566,-31.622871
11.185,2.0,1.0,1.0,34.0,34.5,34.5,3.5,2.4,2.6125,0.5053216104791831,-0.026384413416377515,0.8472975151896746,0.0044444247879573745,-0.117698,-31.451536
11.185,2.0,1.0,1.0,34.0,34.5,34.5,3.5,2.4,2.615,0.49708988695728373,-0.026959602962291013,0.8518764725523064,0.004262058569735036,-0.119801,-31.278523
11.185,2.0,1.0,1.0,34.0,34.5,34.5,3.5,2.4,2.6175,0.4887498808881027,-0.027550238208024106,0.8564049350968402,0.004068862338467536,-0.121971,-31.103783
11.185,2.0,1.0,1.0,34.0,34.5,34.5,3.5,2.4,2.62,0.48030009722251316,-0.028156898880574547,0.8608809836169194,0.0038642521298931742,-0.124212,-30.927266
11.185,2.0,1.0,1.0,34.0,34.5,34.5,3.5,2.4,2.6225,0.47173900643224725,-0.028780194082746798,0.865302622855709,0.003647605960847853,-0.126527,-30.748919
11.185,2.0,1.0,1.0,34.0,34.5,34.5,3.5,2.4,2.625,0.463065042965495,-0.0294207641594426,0.869667777394276,0.00341826079696566,-0.12892,-30.568688
11.185,2.0,1.0,1.0,34.0,34.5,34.5,3.5,2.4,2.6275,0.45427660358415317,-0.030079282703523547,0.8739742872197568,0.0031755092308152935,-0.131395,-30.386515
11.185,2.0,1.0,1.0,34.0,34.5,34.5,3.5,2.4,2.63,0.4453720455719226,-0.03075645871286729,0.8782199029400042,0.002918595838182348,-0.133955,-30.202341
11.185,2.0,1.0,1.0,34.0,34.5,34.5,3.5,2.4,2.6325,0.43634968480141795,-0.03145303891124817,0.8824022806072168,0.0026467131760861662,-0.136606,-30.016104
11.185,2.0,1.0,1.0,34.0,34.5,34.5,3.5,2.4,2.635,0.42720779364737915,-0.032169810246760515,0.8865189761082788,0.0023589973814054895,-0.139352,-29.82774
11.185,2.0,1.0,1.0,34.0,34.5,34.5,3.5,2.4,2.6375,0.41794459873191286,-0.032907602582668456,0.8905674390740324,0.002054523323585275,-0.142197,-29.63718
11.185,2.0,1.0,1.0,34.0,34.5,34.5,3.5,2.4,2.64,0.4085582784863954,-0.033667291596821816,0.894545006253437,0.0017322992586943173,-0.145149,-29.444354
11.185,2.0,1.0,1.0,34.0,34.5,34.5,3.5,2.4,2.6425,0.3990469605133789,-0.03444980190710214,0.8984488942912922,0.0013912609249694353,-0.148211,-29.249188
11.185,2.0,1.0,1.0,34.0,34.5,34.5,3.5,2.4,2.645,0.38940871873036886,-0.0352561104417747,0.902276191839881,0.0010302650117602961,-0.151391,-29.051605
11.185,2.0,1.0,1.0,34.0,34.5,34.5,3.5,2.4,2.6475,0.37964157027586776,-0.03608725007509365,0.9060238509252437,0.0006480819242939357,-0.154696,-28.851524
11.185,2.0,1.0,1.0,34.0,34.5,34.5,3.5,2.4,2.65,0.3697434721564817,-0.03694431355003862,0.9096886774776368,0.00024338775569141268,-0.158132,-28.648859
11.185,2.0,1.0,1.0,34.0,34.5,34.5,3.5,2.4,2.6525,0.35971231761234723,-0.0378284577116141,0.9132673209228043,-0.00018524463506956165,-0.161708,-28.443523
11.185,2.0,1.0,1.0,34.0,34.5,34.5,3.5,2.4,2.655,0.3495459321764371,-0.03874090807570511,0.9167562627156604,-0.0006393555553566577,-0.165431,-28.235421
11.185,2.0,1.0,1.0,34.0,34.5,34.5,3.5,2.4,2.6575,0.3392420694017931,-0.03968296375998633,0.9201518036804901,-0.001120609554600785,-0.169312,-28.024456
11.185,2.0,1.0,1.0,34.0,34.5,34.5,3.5,2.4,2.66,0.3287984062292317,-0.04065600280477585,0.9234500500013294,-0.0016308077970032802,-0.173361,-27.810524
11.185,2.0,1.0,1.0,34.0,34.5,34.5,3.5,2.4,2.6625,0.3182125379667896,-0.041661487912905464,0.9266468976823203,-0.0021719019082478857,-0.177588,-27.593517
11.185,2.0,1.0,1.0,34.0,34.5,34.5,3.5,2.4,2.665,0.3074819728511913,-0.04270097263853998,0.9297380152697794,-0.0027460095008414137,-0.182004,-27.373321
11.185,2.0,1.0,1.0,34.0,34.5,34.5,3.5,2.4,2.6675,0.29660412616116766,-0.0437761080552122,0.9327188245948096,-0.0033554316151559417,-0.186624,-27.149816
11.185,2.0,1.0,1.0,34.0,34.5,34.5,3.5,2.4,2.67,0.28557631385265875,-0.04488864993296393,0.9355844792564278,-0.004002672351489725,-0.191461,-26.922875
11.185,2.0,1.0,1.0,34.0,34.5,34.5,3.5,2.4,2.6725,0.2743957456871875,-0.04604046645303242,0.9383298405193556,-0.004690461013639758,-0.19653,-26.692363
11.185,2.0,1.0,1.0,34.0,34.5,34.5,3.5,2.4,2.675,0.26305951782741666,-0.047233546485614716,0.9409494502462806,-0.005421777137988869,-0.201849,-26.45814
11.185,2.0,1.0,1.0,34.0,34.5,34.5,3.5,2.4,2.6775,0.25156460487860355,-0.0484700084512914,0.9434375004198478,-0.00619987884565952,-0.207435,-26.220057
11.185,2.0,1.0,1.0,34.0,34.5,34.5,3.5,2.4,2.68,0.239907851362124,-0.0497521097789402,0.9457877987328783,-0.007028335030954835,-0.21331,-25.977954
11.185,2.0,1.0,1.0,34.0,34.5,34.5,3.5,2.4,2.6825,0.2280859626185584,-0.05108225696139946,0.9479937296335057,-0.007911061989659718,-0.219495,-25.731665
11.185,2.0,1.0,1.0,34.0,34.5,34.5,3.5,2.4,2.685,0.21609549515422508,-0.05246301619338657,0.9500482101020873,-0.00885236519896612,-0.226016,-25.481012
11.185,2.0,1.0,1.0,34.0,34.5,34.5,3.5,2.4,2.6875,0.20393284646850074,-0.05389712455237602,0.951943639304843,-0.00985698709068884,-0.2329,-25.225806
11.185,2.0,1.0,1.0,34.0,34.5,34.5,3.5,2.4,2.69,0.19159424443224357,-0.05538750164983394,0.9536718411102436,-0.010930161815881807,-0.240178,-24.965847
11.185,2.0,1.0,1.0,34.0,34.5,34.5,3.5,2.4,2.6925,0.17907573633338267,-0.05693726163403211,0.9552239982623165,-0.012077678187899071,-0.247884,-24.700922
11.185,2.0,1.0,1.0,34.0,34.5,34.5,3.5,2.4,2.695,0.16637317776900384,-0.05854972536208535,0.9565905767725578,-0.01330595221978913,-0.256055,-24.430804
11.185,2.0,1.0,1.0,34.0,34.5,34.5,3.5,2.4,2.6975,0.15348222165005693,-0.060228432471748174,0.9577612388096679,-0.014622110949916825,-0.264734,-24.155251
11.185,2.0,1.0,1.0,34.0,34.5,34.5,3.5,2.4,2.7,0.14039830770357684,-0.06197715296448811,0.9587247420222915,-0.016034089588395847,-0.273969,-23.874005
11.185,2.0,1.0,1.0,34.0,34.5,34.5,3.5,2.4,2.7025,0.12711665301968642,-0.06379989774902685,0.9594688228092763,-0.01755074443073572,-0.283814,-23.586791
11.185,2.0,1.0,1.0,34.0,34.5,34.5,3.5,2.4,2.705,0.11363224441207692,-0.06570092737326637,0.959980060536776,-0.01918198449211877,-0.294328,-23.293312
11.185,2.0,1.0,1.0,34.0,34.5,34.5,3.5,2.4,2.7075,0.0999398336631316,-0.06768475787078594,0.9602437190682644,-0.02093892543858716,-0.30558,-22.993253
11.185,2.0,1.0,1.0,34.0,34.5,34.5,3.5,2.4,2.71,0.08603393713819027,-0.0697561622361953,0.9602435611935044,-0.022834070158508763,-0.317648,-22.686275
11.185,2.0,1.0,1.0,34.0,34.5,34.5,3.5,2.4,2.7125,0.07190884181908475,-0.07192016548033518,0.9599616305796133,-0.02488152126454574,-0.330621,-22.372014
11.185,2.0,1.0,1.0,34.0,34.5,34.5,3.5,2.4,2.715,0.057558620583347465,-0.07418203044413924,0.959377994675977,-0.02709723198731095,-0.344601,-22.05008
11.185,2.0,1.0,1.0,34.0,34.5,34.5,3.5,2.4,2.7175,0.042977160623396626,-0.07654723048838351,0.9584704405289491,-0.029499303372099925,-0.359703,-21.720051
11.185,2.0,1.0,1.0,34.0,34.5,34.5,3.5,2.4,2.72,0.02815821037425212,-0.07902140371216242,0.957214113632316,-0.03210833748748067,-0.376062,-21.381474
11.185,2.0,1.0,1.0,34.0,34.5,34.5,3.5,2.4,2.7225,0.013095452361017296,-0.08161028132521873,0.9555810876707378,-0.034947858581911156,-0.393834,-21.033861
11.185,2.0,1.0,1.0,34.0,34.5,34.5,3.5,2.4,2.725,-0.0022173877805050537,-0.08431957997983577,0.9535398502043726,-0.038044816880774525,-0.4132,-20.676683
11.185,2.0,1.0,1.0,34.0,34.5,34.5,3.5,2.4,2.7275,-0.017786381884931025,-0.0871548439301781,0.9510546858758837,-0.04143019311569494,-0.434372,-20.309371
11.185,2.0,1.0,1.0,34.0,34.5,34.5,3.5,2.4,2.73,-0.03361716963796051,-0.09012121736093888,0.9480849344667448,-0.04513972604579842,-0.457598,-19.931307
11.185,2.0,1.0,1.0,34.0,34.5,34.5,3.5,2.4,2.7325,-0.04971463108531887,-0.0932231194340885,0.9445840959600199,-0.049214790289522956,-0.483174,-19.541825
11.185,2.0,1.0,1.0,34.0,34.5,34.5,3.5,2.4,2.735,-0.06608242243904984,-0.09646378355686973,0.94049874858409,-0.05370345782645435,-0.511448,-19.140204
11.185,2.0,1.0,1.0,34.0,34.5,34.5,3.5,2.4,2.7375,-0.08272232044511801,-0.09984460663958926,0.9357672386100143,-0.0586617835497326,-0.542837,-18.725664
11.185,2.0,1.0,1.0,34.0,34.5,34.5,3.5,2.4,2.74,-0.09963329779663484,-0.1033642315886174,0.9303180926583743,-0.06415536303777694,-0.577843,-18.297361
11.185,2.0,1.0,1.0,34.0,34.5,34.5,3.5,2.4,2.7425,-0.11681021930595523,-0.10701725389507663,0.9240680950815592,-0.07026121861894961,-0.617073,-17.854388
11.185,2.0,1.0,1.0,34.0,34.5,34.5,3.5,2.4,2.745,-0.13424200122405167,-0.11079239643905862,0.9169199661305648,-0.0770700763127734,-0.661266,-17.395767
11.185,2.0,1.0,1.0,34.0,34.5,34.5,3.5,2.4,2.7475,-0.15190900757300577,-0.11466992899272496,0.9087595742534671,-0.08468909818908396,-0.711331,-16.920456
11.185,2.0,1.0,1.0,34.0,34.5,34.5,3.5,2.4,2.75,-0.169779358060083,-0.118618010956229,0.899452624281057,-0.0932451258455734,-0.768389,-16.427345
11.185,2.0,1.0,1.0,34.0,34.5,34.5,3.5,2.4,2.7525,-0.18780367854403746,-0.12258749431647747,0.8888407944863449,-0.10288845909331508,-0.833839,-15.915272
11.185,2.0,1.0,1.0,34.0,34.5,34.5,3.5,2.4,2.755,-0.20590761874295188,-0.12650452066476892,0.8767373722220811,-0.11379711708783606,-0.909436,-15.383038
11.185,2.0,1.0,1.0,34.0,34.5,34.5,3.5,2.4,2.7575,-0.22398116974561988,-0.13025995872383936,0.8629226019791907,-0.1261813655301911,-0.997405,-14.829441
11.185,2.0,1.0,1.0,34.0,34.5,34.5,3.5,2.4,2.76,-0.24186341142773018,-0.13369433348901325,0.8471392876963392,-0.14028796761751267,-1.100583,-14.253335
11.185,2.0,1.0,1.0,34.0,34.5,34.5,3.5,2.4,2.7625,-0.259320794031609,-0.13657638269780356,0.8290898197259274,-0.15640299311518002,-1.222618,-13.653716
11.185,2.0,1.0,1.0,34.0,34.5,34.5,3.5,2.4,2.765,-0.2760164432975917,-0.13857277621079397,0.8084369640590713,-0.17485086452865514,-1.368227,-13.029866
11.185,2.0,1.0,1.0,34.0,34.5,34.5,3.5,2.4,2.7675,-0.29146744620563453,-0.13920602069447333,0.7848128528854389,-0.1959852424096044,-1.543536,-12.381583
11.185,2.0,1.0,1.0,34.0,34.5,34.5,3.5,2.4,2.77,-0.3049871394809383,-0.137797657523356,0.7578442540820224,-0.2201637615628662,-1.756495,-11.709519
11.185,2.0,1.0,1.0,34.0,34.5,34.5,3.5,2.4,2.7725,-0.31561137626297797,-0.13339582447950177,0.7272081267469335,-0.24769279015604162,-2.017347,-11.015701
11.185,2.0,1.0,1.0,34.0,34.5,34.5,3.5,2.4,2.775,-0.3220144468345901,-0.12469291580218453,0.6927401209627678,-0.27871988737478764,-2.33898,-10.304299
11.185,2.0,1.0,1.0,34.0,34.5,34.5,3.5,2.4,2.7775,-0.3224372827453615,-0.10995586335421662,0.6546284601661075,-0.31304208855251575,-2.736769,-9.582693
11.185,2.0,1.0,1.0,34.0,34.5,34.5,3.5,2.4,2.78,-0.3146860900158994,-0.08702662152633031,0.6137284403369702,-0.3497956089681774,-3.22676,-8.862886
11.185,2.0,1.0,1.0,34.0,34.5,34.5,3.5,2.4,2.7825,-0.29631919739457263,-0.05350910381442055,0.5720053013277999,-0.38702004431356046,-3.81957,-8.163096
11.185,2.0,1.0,1.0,34.0,34.5,34.5,3.5,2.4,2.785,-0.2652037757186328,-0.007321158568703576,0.533009776692425,-0.42119260313808177,-4.504665,-7.509073
11.185,2.0,1.0,1.0,34.0,34.5,34.5,3.5,2.4,2.7875,-0.22059779679943475,0.05223720278391544,0.5020687723406753,-0.44704655078556527,-5.218139,-6.934048
11.185,2.0,1.0,1.0,34.0,34.5,34.5,3.5,2.4,2.79,-0.16460326032955508,0.12305483727064816,0.48561870653169387,-0.4582373815149468,-5.801768,-6.475782
11.185,2.0,1.0,1.0,34.0,34.5,34.5,3.5,2.4,2.7925,-0.10315858088339312,0.19924307547551687,0.48922553653690626,-0.44930088273945756,-6.02089,-6.169586
11.185,2.0,1.0,1.0,34.0,34.5,34.5,3.5,2.4,2.795,-0.04525908006778378,0.27192068805588493,0.5148307722159251,-0.418363064860322,-5.733276,-6.038556
11.185,2.0,1.0,1.0,34.0,34.5,34.5,3.5,2.4,2.7975,8.746438073380687e-06,0.33214644578631974,0.5591130208513626,-0.3687372733728058,-5.050008,-6.08556
11.185,2.0,1.0,1.0,34.0,34.5,34.5,3.5,2.4,2.8,0.02691562371390533,0.3743105685372367,0.6146085100840666,-0.30779999842548655,-4.219708,-6.292108
11.185,2.0,1.0,1.0,34.0,34.5,34.5,3.5,2.4,2.8025,0.03455672194659099,0.3975624618034577,0.6728757212296304,-0.24386461073488983,-3.429863,-6.624891
11.185,2.0,1.0,1.0,34.0,34.5,34.5,3.5,2.4,2.805,0.02576763776746781,0.40472737513465096,0.7273210155615378,-0.18340349968928096,-2.76003,-7.045625
11.185,2.0,1.0,1.0,34.0,34.5,34.5,3.5,2.4,2.8075,0.004966313964267236,0.4001749309673964,0.774237288939559,-0.13003614201733277,-2.22234,-7.519056
11.185,2.0,1.0,1.0,34.0,34.5,34.5,3.5,2.4,2.81,-0.023552718368294808,0.3881408644518575,0.8123752316270005,-0.08496006860535216,-1.801218,-8.016961
11.185,2.0,1.0,1.0,34.0,34.5,34.5,3.5,2.4,2.8125,-0.0564060356091232,0.371955575769882,0.842008193950688,-0.0478759590959074,-1.474228,-8.518817
11.185,2.0,1.0,1.0,34.0,34.5,34.5,3.5,2.4,2.815,-0.09124228937230013,0.3539288186297576,0.8641208030726086,-0.017787571996388293,-1.220358,-9.010726
11.185,2.0,1.0,1.0,34.0,34.5,34.5,3.5,2.4,2.8175,-0.12656482207317624,0.33552686697720313,0.879898829271898,0.006496515437430587,-1.022407,-9.483826
11.185,2.0,1.0,1.0,34.0,34.5,34.5,3.5,2.4,2.82,-0.16148970680453745,0.31761213000805194,0.8904716255603223,0.02611031614090531,-0.867062,-9.932807
11.185,2.0,1.0,1.0,34.0,34.5,34.5,3.5,2.4,2.8225,-0.19553722266989057,0.30064911120406557,0.8968107330936993,0.04203157652948906,-0.744279,-10.354738
11.185,2.0,1.0,1.0,34.0,34.5,34.5,3.5,2.4,2.825,-0.2284798192981256,0.28485434014401245,0.8997090188635278,0.05506204190958858,-0.646543,-10.748229
11.185,2.0,1.0,1.0,34.0,34.5,34.5,3.5,2.4,2.8275,-0.26024030127695913,0.2702966552961039,0.8997949317101532,0.06584213083006207,-0.568242,-11.112845
11.185,2.0,1.0,1.0,34.0,34.5,34.5,3.5,2.4,2.83,-0.29082696593574986,0.2569610126692197,0.897558413473564,0.07487696170828725,-0.505166,-11.448716
