1,w,sub_t,h,l1,l2,l3,g1,g2,Freq,S11_re,S21_re,S11_img,S21_img,S11_dB,S21_dB
11.185,2.0,1.0,1.0,33.2,33.5,33.5,2.6,1.7,2.5,0.878652220062639,-0.00925026080172753,0.463923494947229,0.0103988566971556,-0.055708,-37.128624
11.185,2.0,1.0,1.0,33.2,33.5,33.5,2.6,1.7,2.5025,0.8756216729893105,-0.009455963320184366,0.4694867506346312,0.01047749606471399,-0.056252,-37.007256
11.185,2.0,1.0,1.0,33.2,33.5,33.5,2.6,1.7,2.505,0.8725427247028014,-0.009665796494601012,0.47505199358277783,0.010556035645164575,-0.056806,-36.885481
11.185,2.0,1.0,1.0,33.2,33.5,33.5,2.6,1.7,2.5075,0.8694148843555994,-0.009879855808506963,0.4806190517135464,0.010634449904304639,-0.05737,-36.763291
11.185,2.0,1.0,1.0,33.2,33.5,33.5,2.6,1.7,2.51,0.8662376522189279,-0.010098239532643053,0.4861877473775469,0.010712712043785596,-0.057945,-36.640677
11.185,2.0,1.0,1.0,33.2,33.5,33.5,2.6,1.7,2.5125,0.8630105194901236,-0.010321048823561007,0.4917578971535225,0.010790793939084577,-0.058532,-36.517628
11.185,2.0,1.0,1.0,33.2,33.5,33.5,2.6,1.7,2.515,0.8597329680947563,-0.010548387826337298,0.49732931164022004,0.01086866607418768,-0.059129,-36.394134
11.185,2.0,1.0,1.0,33.2,33.5,33.5,2.6,1.7,2.5175,0.8564044704833107,-0.010780363781598756,0.502901795240389,0.010946297472783903,-0.059739,-36.270187
11.185,2.0,1.0,1.0,33.2,33.5,33.5,2.6,1.7,2.52,0.8530244894222121,-0.011017087137072203,0.5084751459365816,0.01102365562576785,-0.06036,-36.145775
11.185,2.0,1.0,1.0,33.2,33.5,33.5,2.6,1.7,2.5225,0.8495924777790026,-0.011258671663877541,0.5140491550583629,0.011100706414828168,-0.060993,-36.020889
11.185,2.0,1.0,1.0,33.2,33.5,33.5,2.6,1.7,2.525,0.8461078783014332,-0.011505234577799893,0.5196236070405749,0.011177414031887252,-0.061639,-35.895518
11.185,2.0,1.0,1.0,33.2,33.5,33.5,2.6,1.7,2.5275,0.8425701233902375,-0.011756896665787367,0.525198279172235,0.011253740894141648,-0.062298,-35.769651
11.185,2.0,1.0,1.0,33.2,33.5,33.5,2.6,1.7,2.53,0.8389786348653534,-0.012013782417935808,0.5307729413356457,0.011329647554433704,-0.062971,-35.643278
11.185,2.0,1.0,1.0,33.2,33.5,33.5,2.6,1.7,2.5325,0.8353328237253227,-0.012276020165236453,0.5363473557352638,0.011405092606670119,-0.063657,-35.516388
11.185,2.0,1.0,1.0,33.2,33.5,33.5,2.6,1.7,2.535,0.8316320898996015,-0.012543742223378278,0.5419212766158655,0.011480032585979696,-0.064357,-35.388969
11.185,2.0,1.0,1.0,33.2,33.5,33.5,2.6,1.7,2.5375,0.8278758219935001,-0.012817085042913772,0.5474944499694879,0.011554421863283957,-0.065071,-35.261011
11.185,2.0,1.0,1.0,33.2,33.5,33.5,2.6,1.7,2.54,0.8240633970254435,-0.01309618936611458,0.5530666132306321,0.011628212533931698,-0.0658,-35.132501
11.185,2.0,1.0,1.0,33.2,33.5,33.5,2.6,1.7,2.5425,0.82019418015624,-0.013381200390862434,0.5586374949591626,0.011701354300020336,-0.066545,-35.003429
11.185,2.0,1.0,1.0,33.2,33.5,33.5,2.6,1.7,2.545,0.8162675244100212,-0.01367226794194175,0.5642068145103125,0.011773794346006703,-0.067305,-34.873781
11.185,2.0,1.0,1.0,33.2,33.5,33.5,2.6,1.7,2.5475,0.8122827703865054,-0.013969546650119761,0.5697742816911573,0.011845477207174687,-0.068081,-34.743546
11.185,2.0,1.0,1.0,33.2,33.5,33.5,2.6,1.7,2.55,0.8082392459642002,-0.014273196139427223,0.5753395964029125,0.011916344630501398,-0.068874,-34.612712
11.185,2.0,1.0,1.0,33.2,33.5,33.5,2.6,1.7,2.5525,0.8041362659941652,-0.014583381223071621,0.5809024482683226,0.011986335427427015,-0.069684,-34.481266
11.185,2.0,1.0,1.0,33.2,33.5,33.5,2.6,1.7,2.555,0.7999731319839082,-0.014900272108446525,0.5864625162434192,0.012055385318000832,-0.070511,-34.349195
11.185,2.0,1.0,1.0,33.2,33.5,33.5,2.6,1.7,2.5575,0.7957491317709738,-0.015224044611724953,0.5920194682128419,0.012123426765831181,-0.071357,-34.216485
11.185,2.0,1.0,1.0,33.2,33.5,33.5,2.6,1.7,2.56,0.7914635391857683,-0.015554880382555808,0.5975729605678781,0.012190388803233627,-0.072221,-34.083124
11.185,2.0,1.0,1.0,33.2,33.5,33.5,2.6,1.7,2.5625,0.787115613703118,-0.015892967139413985,0.6031226377663296,0.012256196845916835,-0.073105,-33.949097
11.185,2.0,1.0,1.0,33.2,33.5,33.5,2.6,1.7,2.565,0.7827046000820392,-0.016238498916190013,0.6086681318732505,0.012320772496503454,-0.074008,-33.814391
11.185,2.0,1.0,1.0,33.2,33.5,33.5,2.6,1.7,2.5675,0.7782297279931744,-0.016591676320637894,0.6142090620815405,0.012384033336125994,-0.074932,-33.678992
11.185,2.0,1.0,1.0,33.2,33.5,33.5,2.6,1.7,2.57,0.7736902116332962,-0.016952706805343692,0.6197450342113103,0.012445892703280495,-0.075877,-33.542884
11.185,2.0,1.0,1.0,33.2,33.5,33.5,2.6,1.7,2.5725,0.769085249326261,-0.01732180495191455,0.6252756401868713,0.012506259459058684,-0.076844,-33.406054
11.185,2.0,1.0,1.0,33.2,33.5,33.5,2.6,1.7,2.575,0.7644140231097475,-0.017699192769134245,0.6308004574901133,0.01256503773780832,-0.077833,-33.268485
11.185,2.0,1.0,1.0,33.2,33.5,33.5,2.6,1.7,2.5775,0.7596756983070796,-0.018085100005878835,0.6363190485889577,0.012622126682202318,-0.078845,-33.130163
11.185,2.0,1.0,1.0,33.2,33.5,33.5,2.6,1.7,2.58,0.7548694230833858,-0.018479764479636302,0.6418309603394804,0.012677420161608569,-0.079881,-32.991071
11.185,2.0,1.0,1.0,33.2,33.5,33.5,2.6,1.7,2.5825,0.7499943279852934,-0.018883432421528335,0.6473357233602048,0.012730806472572888,-0.080942,-32.851194
11.185,2.0,1.0,1.0,33.2,33.5,33.5,2.6,1.7,2.585,0.7450495254633186,-0.019296358838791886,0.6528328513769499,0.012782168020123582,-0.082028,-32.710514
11.185,2.0,1.0,1.0,33.2,33.5,33.5,2.6,1.7,2.5875,0.7400341093760455,-0.019718807895738856,0.6583218405365198,0.01283138097850865,-0.083141,-32.569014
11.185,2.0,1.0,1.0,33.2,33.5,33.5,2.6,1.7,2.59,0.7349471544751385,-0.020151053314280475,0.6638021686873751,0.012878314929858102,-0.084281,-32.426678
11.185,2.0,1.0,1.0,33.2,33.5,33.5,2.6,1.7,2.5925,0.7297877158701568,-0.020593378795173933,0.6692732946253137,0.012922832479139919,-0.085449,-32.283487
11.185,2.0,1.0,1.0,33.2,33.5,33.5,2.6,1.7,2.595,0.724554828472092,-0.021046078461226317,0.6747346573020124,0.012964788843646031,-0.086647,-32.139423
11.185,2.0,1.0,1.0,33.2,33.5,33.5,2.6,1.7,2.5975,0.7192475064144506,-0.021509457323772335,0.6801856749941597,0.013004031415089644,-0.087874,-31.994468
11.185,2.0,1.0,1.0,33.2,33.5,33.5,2.6,1.7,2.6,0.7138647424506441,-0.021983831773832414,0.6856257444306979,0.013040399292239666,-0.089133,-31.848602
11.185,2.0,1.0,1.0,33.2,33.5,33.5,2.6,1.7,2.6025,0.7084055073263654,-0.022469530099450605,0.6910542398755154,0.01307372278183597,-0.090424,-31.701805
11.185,2.0,1.0,1.0,33.2,33.5,33.5,2.6,1.7,2.605,0.702868749125517,-0.022966893030815304,0.696470512162741,0.013103822865331089,-0.091749,-31.554058
11.185,2.0,1.0,1.0,33.2,33.5,33.5,2.6,1.7,2.6075,0.6972533925881914,-0.02347627431487436,0.7018738876815254,0.013130510628802631,-0.093108,-31.40534
11.185,2.0,1.0,1.0,33.2,33.5,33.5,2.6,1.7,2.61,0.6915583383990715,-0.02399804132127323,0.7072636673069845,0.013153586653127615,-0.094503,-31.255629
11.185,2.0,1.0,1.0,33.2,33.5,33.5,2.6,1.7,2.6125,0.6857824624445205,-0.024532575681571384,0.7126391252736846,0.013172840361268227,-0.095936,-31.104905
11.185,2.0,1.0,1.0,33.2,33.5,33.5,2.6,1.7,2.615,0.6799246150364983,-0.02508027396382796,0.7179995079877564,0.013188049319226422,-0.097407,-30.953143
11.185,2.0,1.0,1.0,33.2,33.5,33.5,2.6,1.7,2.6175,0.6739836201013258,-0.025641548384790883,0.7233440327734063,0.013198978486913962,-0.098919,-30.800322
11.185,2.0,1.0,1.0,33.2,33.5,33.5,2.6,1.7,2.62,0.6679582743311587,-0.026216827562082354,0.7286718865492108,0.01320537941484385,-0.100472,-30.646418
11.185,2.0,1.0,1.0,33.2,33.5,33.5,2.6,1.7,2.6225,0.6618473462958906,-0.02680655730893964,0.7339822244292201,0.013206989382166091,-0.102069,-30.491407
11.185,2.0,1.0,1.0,33.2,33.5,33.5,2.6,1.7,2.625,0.655649575513049,-0.0274112014742494,0.739274168243419,0.0132035304711547,-0.10371,-30.335264
11.185,2.0,1.0,1.0,33.2,33.5,33.5,2.6,1.7,2.6275,0.6493636714730461,-0.02803124283080928,0.744546804971657,0.013194708572793134,-0.105399,-30.177962
11.185,2.0,1.0,1.0,33.2,33.5,33.5,2.6,1.7,2.63,0.6429883126169877,-0.028667184014955664,0.7497991850845998,0.013180212317587984,-0.107136,-30.019476
11.185,2.0,1.0,1.0,33.2,33.5,33.5,2.6,1.7,2.6325,0.6365221452640184,-0.02931954852091876,0.7550303207846742,0.013159711925184867,-0.108924,-29.859779
11.185,2.0,1.0,1.0,33.2,33.5,33.5,2.6,1.7,2.635,0.6299637824849668,-0.029988881753507664,0.7602391841393646,0.013132857965726488,-0.110765,-29.698842
11.185,2.0,1.0,1.0,33.2,33.5,33.5,2.6,1.7,2.6375,0.6233118029188346,-0.03067575214297976,0.7654247050984445,0.013099280025203308,-0.11266,-29.536637
11.185,2.0,1.0,1.0,33.2,33.5,33.5,2.6,1.7,2.64,0.6165647495283842,-0.03138075232622706,0.7705857693860054,0.01305858526627456,-0.114613,-29.373134
11.185,2.0,1.0,1.0,33.2,33.5,33.5,2.6,1.7,2.6425,0.6097211282908548,-0.03210450039870156,0.7757212162572091,0.013010356875179686,-0.116626,-29.208302
11.185,2.0,1.0,1.0,33.2,33.5,33.5,2.6,1.7,2.645,0.6027794068195094,-0.03284764124181953,0.7808298361087453,0.012954152384416199,-0.118701,-29.04211
11.185,2.0,1.0,1.0,33.2,33.5,33.5,2.6,1.7,2.6475,0.5957380129114225,-0.03361084793091602,0.7859103679308914,0.012889501859781573,-0.120841,-28.874525
11.185,2.0,1.0,1.0,33.2,33.5,33.5,2.6,1.7,2.65,0.5885953330165743,-0.03439482322918279,0.7909614965878533,0.01281590593921528,-0.123049,-28.705514
11.185,2.0,1.0,1.0,33.2,33.5,33.5,2.6,1.7,2.6525,0.5813497106229869,-0.03520030117339997,0.795981849911712,0.01273283370954081,-0.125328,-28.535041
11.185,2.0,1.0,1.0,33.2,33.5,33.5,2.6,1.7,2.655,0.5739994445522197,-0.03602804875768085,0.8009699955938373,0.01263972040573695,-0.127681,-28.363072
11.185,2.0,1.0,1.0,33.2,33.5,33.5,2.6,1.7,2.6575,0.5665427871591822,-0.03687886772187607,0.8059244378559076,0.012535964915723534,-0.130112,-28.189568
11.185,2.0,1.0,1.0,33.2,33.5,33.5,2.6,1.7,2.66,0.5589779424297604,-0.03775359645174158,0.8108436138808325,0.012420927071786431,-0.132624,-28.014492
11.185,2.0,1.0,1.0,33.2,33.5,33.5,2.6,1.7,2.6625,0.5513030639693455,-0.03865311199844968,0.8157258899817286,0.012293924707706015,-0.135222,-27.837803
11.185,2.0,1.0,1.0,33.2,33.5,33.5,2.6,1.7,2.665,0.5435162528748317,-0.03957833222553192,0.8205695574848041,0.012154230458313068,-0.137908,-27.659462
11.185,2.0,1.0,1.0,33.2,33.5,33.5,2.6,1.7,2.6675,0.5356155554822052,-0.04053021809186352,0.8253728282992931,0.012001068275592967,-0.140689,-27.479425
11.185,2.0,1.0,1.0,33.2,33.5,33.5,2.6,1.7,2.67,0.5275989609813072,-0.041509776079848744,0.8301338301446269,0.011833609632498012,-0.143567,-27.297648
11.185,2.0,1.0,1.0,33.2,33.5,33.5,2.6,1.7,2.6725,0.5194643988888205,-0.04251806077852932,0.8348506014016954,0.011650969382321718,-0.146549,-27.114086
11.185,2.0,1.0,1.0,33.2,33.5,33.5,2.6,1.7,2.675,0.5112097363700244,-0.04355617763191179,0.8395210855512015,0.011452201237729684,-0.14964,-26.928692
11.185,2.0,1.0,1.0,33.2,33.5,33.5,2.6,1.7,2.6775,0.5028327753992826,-0.0446252858633913,0.8441431251579058,0.01123629282931113,-0.152844,-26.741416
11.185,2.0,1.0,1.0,33.2,33.5,33.5,2.6,1.7,2.68,0.4943312497487072,-0.045726601587724285,0.8487144553546703,0.011002160298724839,-0.156169,-26.552208
11.185,2.0,1.0,1.0,33.2,33.5,33.5,2.6,1.7,2.6825,0.485702821793947,-0.04686140112255727,0.8532326967747365,0.010748642376072969,-0.15962,-26.361016
11.185,2.0,1.0,1.0,33.2,33.5,33.5,2.6,1.7,2.685,0.47694507912551365,-0.04803102451204831,0.8576953478744807,0.010474493884973434,-0.163205,-26.167783
11.185,2.0,1.0,1.0,33.2,33.5,33.5,2.6,1.7,2.6875,0.46805553095369,-0.0492368792755807,0.862099776581785,0.0101783786117987,-0.166931,-25.972453
11.185,2.0,1.0,1.0,33.2,33.5,33.5,2.6,1.7,2.69,0.45903160429468504,-0.05048044439495471,0.866443211197163,0.009858861467564031,-0.170806,-25.774968
11.185,2.0,1.0,1.0,33.2,33.5,33.5,2.6,1.7,2.6925,0.4498706399254855,-0.05176327455370649,0.8707227304655885,0.009514399861862026,-0.174838,-25.575264
11.185,2.0,1.0,1.0,33.2,33.5,33.5,2.6,1.7,2.695,0.4405698880948343,-0.05308700464229995,0.8749352527265362,0.009143334197856666,-0.179036,-25.373279
11.185,2.0,1.0,1.0,33.2,33.5,33.5,2.6,1.7,2.6975,0.4311265039778733,-0.054453354542808,0.8790775240377893,0.00874387738548208,-0.183411,-25.168946
11.185,2.0,1.0,1.0,33.2,33.5,33.5,2.6,1.7,2.7,0.4215375428625486,-0.05586413420626509,0.8831461051548871,0.008314103256399499,-0.187973,-24.962194
11.185,2.0,1.0,1.0,33.2,33.5,33.5,2.6,1.7,2.7025,0.4117999550566746,-0.05732124903504369,0.8871373572323906,0.007851933748676454,-0.192733,-24.752952
11.185,2.0,1.0,1.0,33.2,33.5,33.5,2.6,1.7,2.705,0.401910580506017,-0.05882670558124798,0.8910474260951269,0.007355124711246988,-0.197704,-24.541143
11.185,2.0,1.0,1.0,33.2,33.5,33.5,2.6,1.7,2.7075,0.3918661431157887,-0.06038261757008868,0.8948722249068409,0.0068212501576045935,-0.202899,-24.326689
11.185,2.0,1.0,1.0,33.2,33.5,33.5,2.6,1.7,2.71,0.3816632447709405,-0.061991212254283605,0.8986074150397914,0.00624768477443407,-0.208332,-24.109507
11.185,2.0,1.0,1.0,33.2,33.5,33.5,2.6,1.7,2.7125,0.37129835905469455,-0.06365483710149111,0.9022483849212501,0.005631584463485295,-0.21402,-23.889512
11.185,2.0,1.0,1.0,33.2,33.5,33.5,2.6,1.7,2.715,0.3607678246703214,-0.06537596681128394,0.9057902266010033,0.00496986466329565,-0.219979,-23.666612
11.185,2.0,1.0,1.0,33.2,33.5,33.5,2.6,1.7,2.7175,0.35006783857855106,-0.06715721065081955,0.9092277097470125,0.00425917616068409,-0.226228,-23.440714
11.185,2.0,1.0,1.0,33.2,33.5,33.5,2.6,1.7,2.72,0.3391944488727934,-0.06900132008863057,0.9125552527336193,0.0034958780593658356,-0.232787,-23.211719
11.185,2.0,1.0,1.0,33.2,33.5,33.5,2.6,1.7,2.7225,0.32814354742712276,-0.0709111966931921,0.9157668904369083,0.002676007523600868,-0.239679,-22.979523
11.185,2.0,1.0,1.0,33.2,33.5,33.5,2.6,1.7,2.725,0.3169108623687318,-0.07288990024627708,0.9188562382940058,0.0017952458572661684,-0.246926,-22.744019
11.185,2.0,1.0,1.0,33.2,33.5,33.5,2.6,1.7,2.7275,0.30549195044810945,-0.07494065699951924,0.9218164521156436,0.0008488804116834819,-0.254557,-22.505093
11.185,2.0,1.0,1.0,33.2,33.5,33.5,2.6,1.7,2.73,0.2938821894082677,-0.07706686797468357,0.9246401830626181,-0.00016823826267645779,-0.262598,-22.262625
11.185,2.0,1.0,1.0,33.2,33.5,33.5,2.6,1.7,2.7325,0.2820767704902841,-0.07927211717216008,0.9273195271048179,-0.0012617446969507178,-0.271084,-22.016491
11.185,2.0,1.0,1.0,33.2,33.5,33.5,2.6,1.7,2.735,0.2700706912588982,-0.08156017950587474,0.9298459681738203,-0.0024378130004171915,-0.280048,-21.766558
11.185,2.0,1.0,1.0,33.2,33.5,33.5,2.6,1.7,2.7375,0.25785874899144395,-0.08393502822328443,0.93221031409396,-0.003703218481510657,-0.289529,-21.51269
11.185,2.0,1.0,1.0,33.2,33.5,33.5,2.6,1.7,2.74,0.24543553495004203,-0.08640084149263955,0.9344026242287831,-0.005065407449060076,-0.299569,-21.254739
11.185,2.0,1.0,1.0,33.2,33.5,33.5,2.6,1.7,2.7425,0.23279542995528457,-0.08896200774148266,0.9364121276061008,-0.006532576422157481,-0.310217,-20.992554
11.185,2.0,1.0,1.0,33.2,33.5,33.5,2.6,1.7,2.745,0.21993260180606722,-0.0916231292041561,0.9382271300807132,-0.008113762179877028,-0.321524,-20.725972
11.185,2.0,1.0,1.0,33.2,33.5,33.5,2.6,1.7,2.7475,0.20684100525266297,-0.09438902297388681,0.9398349088539526,-0.00981894432047496,-0.333548,-20.454826
11.185,2.0,1.0,1.0,33.2,33.5,33.5,2.6,1.7,2.75,0.193514385439231,-0.0972647186463108,0.941221592387091,-0.0116591622798997,-0.346356,-20.178934
11.185,2.0,1.0,1.0,33.2,33.5,33.5,2.6,1.7,2.7525,0.17994628600126675,-0.10025545137245562,0.9423720234142298,-0.013646649088662612,-0.360018,-19.898109
11.185,2.0,1.0,1.0,33.2,33.5,33.5,2.6,1.7,2.755,0.16613006335104127,-0.10336664879240229,0.9432696023711363,-0.015794984532536468,-0.374617,-19.612151
11.185,2.0,1.0,1.0,33.2,33.5,33.5,2.6,1.7,2.7575,0.15205890913308492,-0.10660390987279082,0.9438961081004399,-0.01811927083531116,-0.390245,-19.320851
11.185,2.0,1.0,1.0,33.2,33.5,33.5,2.6,1.7,2.76,0.13772588341314473,-0.10997297309137427,0.9442314921606006,-0.02063633451085413,-0.407002,-19.023987
11.185,2.0,1.0,1.0,33.2,33.5,33.5,2.6,1.7,2.7625,0.12312396191794298,-0.11347967065979313,0.9442536424456133,-0.023364958647338372,-0.425007,-18.721324
11.185,2.0,1.0,1.0,33.2,33.5,33.5,2.6,1.7,2.765,0.10824610162299125,-0.1171298644985286,0.9439381111044124,-0.026326150598585344,-0.444391,-18.412615
11.185,2.0,1.0,1.0,33.2,33.5,33.5,2.6,1.7,2.7675,0.09308533026171464,-0.12092935840564217,0.9432578009250405,-0.029543450874258463,-0.465302,-18.097601
11.185,2.0,1.0,1.0,33.2,33.5,33.5,2.6,1.7,2.77,0.07763486699440862,-0.12488377920082055,0.9421826034144911,-0.033043289946043435,-0.487911,-17.776005
11.185,2.0,1.0,1.0,33.2,33.5,33.5,2.6,1.7,2.7725,0.061888283653046244,-0.1289984174558333,0.9406789807645899,-0.03685540071701302,-0.512413,-17.447537
11.185,2.0,1.0,1.0,33.2,33.5,33.5,2.6,1.7,2.775,0.04583971883086551,-0.13327801557953006,0.9387094827653774,-0.04101329551745925,-0.539032,-17.111894
11.185,2.0,1.0,1.0,33.2,33.5,33.5,2.6,1.7,2.7775,0.029484160829790232,-0.13772648729503262,0.9362321885531762,-0.045554817649437855,-0.568024,-16.768753
11.185,2.0,1.0,1.0,33.2,33.5,33.5,2.6,1.7,2.78,0.012817820399775678,-0.14234654764483817,0.9332000619445822,-0.05052277861981567,-0.599686,-16.417778
11.185,2.0,1.0,1.0,33.2,33.5,33.5,2.6,1.7,2.7825,-0.00416137932181827,-0.14713922621189976,0.929560208160702,-0.055965693126853684,-0.634362,-16.058617
11.185,2.0,1.0,1.0,33.2,33.5,33.5,2.6,1.7,2.785,-0.021453159742267896,-0.1521032277609466,0.9252530192454292,-0.061938624340624866,-0.672456,-15.690903
11.185,2.0,1.0,1.0,33.2,33.5,33.5,2.6,1.7,2.7875,-0.039054043480163086,-0.1572340933470043,0.920211195854975,-0.06850415161555064,-0.714434,-15.314256
11.185,2.0,1.0,1.0,33.2,33.5,33.5,2.6,1.7,2.79,-0.056956248911606715,-0.1625231002902749,0.9143586350376821,-0.07573347080040199,-0.76085,-14.928283
11.185,2.0,1.0,1.0,33.2,33.5,33.5,2.6,1.7,2.7925,-0.07514624147872502,-0.167955820252361,0.9076091782454573,-0.08370763265729479,-0.812352,-14.532584
11.185,2.0,1.0,1.0,33.2,33.5,33.5,2.6,1.7,2.795,-0.09360283558215188,-0.17351022972297578,0.8998652228798015,-0.09251891581208181,-0.869713,-14.126758
11.185,2.0,1.0,1.0,33.2,33.5,33.5,2.6,1.7,2.7975,-0.1122947085770118,-0.17915423511082898,0.8910162169297141,-0.10227231438903239,-0.933849,-13.710406
11.185,2.0,1.0,1.0,33.2,33.5,33.5,2.6,1.7,2.8,-0.13117714736436983,-0.18484243386071067,0.8809370839711029,-0.11308709278219216,-1.005858,-13.283143
11.185,2.0,1.0,1.0,33.2,33.5,33.5,2.6,1.7,2.8025,-0.1501877971493353,-0.1905118824457395,0.869486671500584,-0.1250983143772739,-1.08706,-12.844616
11.185,2.0,1.0,1.0,33.2,33.5,33.5,2.6,1.7,2.805,-0.16924112105489958,-0.19607658166837785,0.8565063891327501,-0.13845817764240298,-1.17905,-12.394517
11.185,2.0,1.0,1.0,33.2,33.5,33.5,2.6,1.7,2.8075,-0.18822121103878645,-0.20142032207495705,0.8418193192013136,-0.15333687732295861,-1.283763,-11.932616
11.185,2.0,1.0,1.0,33.2,33.5,33.5,2.6,1.7,2.81,-0.20697252321072346,-0.20638746571832073,0.8252302617890565,-0.1699225296016862,-1.403559,-11.458795
11.185,2.0,1.0,1.0,33.2,33.5,33.5,2.6,1.7,2.8125,-0.225288063508164,-0.210771194302996,0.806527448128677,-0.188419429240584,-1.541326,-10.973099
11.185,2.0,1.0,1.0,33.2,33.5,33.5,2.6,1.7,2.815,-0.24289456253555636,-0.2142987676170068,0.7854870577262197,-0.209043507116428,-1.700612,-10.475798
11.185,2.0,1.0,1.0,33.2,33.5,33.5,2.6,1.7,2.8175,-0.25943432680457557,-0.21661348547062315,0.7618822464882599,-0.23201328755425277,-1.885787,-9.967482
11.185,2.0,1.0,1.0,33.2,33.5,33.5,2.6,1.7,2.82,-0.274443872140947,-0.2172534651235906,0.7354991658697991,-0.25753387666256394,-2.10223,-9.44917
11.185,2.0,1.0,1.0,33.2,33.5,33.5,2.6,1.7,2.8225,-0.2873303567915205,-0.21562825650057757,0.706163408719219,-0.28577056388638183,-2.356553,-8.922463
11.185,2.0,1.0,1.0,33.2,33.5,33.5,2.6,1.7,2.825,-0.2973485741887734,-0.21099605490085308,0.6737813093351881,-0.31680763622799474,-2.656824,-8.389723
11.185,2.0,1.0,1.0,33.2,33.5,33.5,2.6,1.7,2.8275,-0.3035842762951364,-0.20244727020222453,0.6384011262539622,-0.3505874143550221,-3.012738,-7.854305
11.185,2.0,1.0,1.0,33.2,33.5,33.5,2.6,1.7,2.83,-0.304954276970473,-0.18890486743491117,0.600298400550042,-0.38682526493121294,-3.435613,-7.320804
