1,w,sub_t,h,l1,l2,l3,g1,g2,Freq,S11_re,S21_re,S11_img,S21_img,S11_dB,S21_dB
11.185,2.0,1.0,1.0,33.1,34.1,34.1,2.6,2.1,2.5,0.886958892772247,-0.00846622976994352,0.447544943468353,0.00949110400534792,-0.056861,-37.91134
11.185,2.0,1.0,1.0,33.1,34.1,34.1,2.6,2.1,2.5025,0.8840735904626236,-0.008660903608357208,0.45307442554268923,0.009570535230890055,-0.057433,-37.783083
11.185,2.0,1.0,1.0,33.1,34.1,34.1,2.6,2.1,2.505,0.8811411649668617,-0.008859748012294671,0.4586068179773776,0.009650130550535577,-0.058017,-37.654317
11.185,2.0,1.0,1.0,33.1,34.1,34.1,2.6,2.1,2.5075,0.8781611227330764,-0.009062870217478178,0.46414198169819315,0.009729873757676519,-0.058612,-37.525029
11.185,2.0,1.0,1.0,33.1,34.1,34.1,2.6,2.1,2.51,0.8751329603296177,-0.009270381036195593,0.4696797729097057,0.00980974764064508,-0.059219,-37.395205
11.185,2.0,1.0,1.0,33.1,34.1,34.1,2.6,2.1,2.5125,0.8720561641879255,-0.009482395004215325,0.47522004291261327,0.009889733924599114,-0.059839,-37.264833
11.185,2.0,1.0,1.0,33.1,34.1,34.1,2.6,2.1,2.515,0.8689302103362067,-0.009699030534886337,0.48076263791351204,0.009969813209802628,-0.060471,-37.1339
11.185,2.0,1.0,1.0,33.1,34.1,34.1,2.6,2.1,2.5175,0.8657545641234986,-0.00992041008083209,0.4863073988267029,0.010049964906053619,-0.061117,-37.002393
11.185,2.0,1.0,1.0,33.1,34.1,34.1,2.6,2.1,2.52,0.8625286799336386,-0.010146660303674072,0.4918541610676511,0.01013016716299162,-0.061776,-36.870297
11.185,2.0,1.0,1.0,33.1,34.1,34.1,2.6,2.1,2.5225,0.8592520008886476,-0.010377912252248447,0.49740275433763664,0.01021039679599743,-0.062449,-36.737599
11.185,2.0,1.0,1.0,33.1,34.1,34.1,2.6,2.1,2.525,0.8559239585409927,-0.010614301549811626,0.5029530023991623,0.010290629207374015,-0.063136,-36.604284
11.185,2.0,1.0,1.0,33.1,34.1,34.1,2.6,2.1,2.5275,0.852543972554159,-0.010855968590761019,0.5085047228416176,0.010370838302475321,-0.063838,-36.470339
11.185,2.0,1.0,1.0,33.1,34.1,34.1,2.6,2.1,2.53,0.849111450370942,-0.011103058747434984,0.5140577268366743,0.010450996400419613,-0.064555,-36.335747
11.185,2.0,1.0,1.0,33.1,34.1,34.1,2.6,2.1,2.5325,0.8456257868688078,-0.011355722587591615,0.5196118188828583,0.010531074138999124,-0.065288,-36.200495
11.185,2.0,1.0,1.0,33.1,34.1,34.1,2.6,2.1,2.535,0.8420863640016496,-0.011614116103209345,0.5251667965387101,0.010611040373363474,-0.066036,-36.064566
11.185,2.0,1.0,1.0,33.1,34.1,34.1,2.6,2.1,2.5375,0.8384925504272129,-0.011878400951293387,0.5307224501438841,0.010690862068021523,-0.066802,-35.927945
11.185,2.0,1.0,1.0,33.1,34.1,34.1,2.6,2.1,2.54,0.8348437011194165,-0.012148744707422197,0.5362785625275177,0.010770504181668167,-0.067584,-35.790616
11.185,2.0,1.0,1.0,33.1,34.1,34.1,2.6,2.1,2.5425,0.8311391569647408,-0.012425321132816984,0.5418349087031421,0.010849929544303213,-0.068384,-35.652562
11.185,2.0,1.0,1.0,33.1,34.1,34.1,2.6,2.1,2.545,0.8273782443418097,-0.012708310455773524,0.5473912555493519,0.010929098726063189,-0.069202,-35.513766
11.185,2.0,1.0,1.0,33.1,34.1,34.1,2.6,2.1,2.5475,0.8235602746832227,-0.012997899668353376,0.5529473614753951,0.011007969897140172,-0.070039,-35.374211
11.185,2.0,1.0,1.0,33.1,34.1,34.1,2.6,2.1,2.55,0.8196845440186297,-0.013294282839298139,0.5585029760708008,0.011086498678107312,-0.070895,-35.23388
11.185,2.0,1.0,1.0,33.1,34.1,34.1,2.6,2.1,2.5525,0.8157503324979803,-0.013597661444195587,0.5640578397380585,0.01116463797991368,-0.071771,-35.092755
11.185,2.0,1.0,1.0,33.1,34.1,34.1,2.6,2.1,2.555,0.8117569038937942,-0.013908244714004862,0.5696116833073354,0.011242337832746831,-0.072668,-34.950816
11.185,2.0,1.0,1.0,33.1,34.1,34.1,2.6,2.1,2.5575,0.8077035050812185,-0.01422625000312616,0.5751642276321092,0.011319545202891823,-0.073586,-34.808045
11.185,2.0,1.0,1.0,33.1,34.1,34.1,2.6,2.1,2.56,0.8035893654945584,-0.01455190317828866,0.5807151831645105,0.01139620379664017,-0.074527,-34.664423
11.185,2.0,1.0,1.0,33.1,34.1,34.1,2.6,2.1,2.5625,0.7994136965588653,-0.014885439029623658,0.5862642495090907,0.011472253850215506,-0.07549,-34.519929
11.185,2.0,1.0,1.0,33.1,34.1,34.1,2.6,2.1,2.565,0.7951756910950599,-0.01522710170539433,0.5918111149536132,0.011547631904595065,-0.076476,-34.374545
11.185,2.0,1.0,1.0,33.1,34.1,34.1,2.6,2.1,2.5675,0.79087452269697,-0.015577145171960434,0.5973554559753578,0.011622270563999743,-0.077488,-34.228247
11.185,2.0,1.0,1.0,33.1,34.1,34.1,2.6,2.1,2.57,0.7865093450785249,-0.015935833700681107,0.6028969367213112,0.011696098236718163,-0.078524,-34.081016
11.185,2.0,1.0,1.0,33.1,34.1,34.1,2.6,2.1,2.5725,0.7820792913892268,-0.016303442383585078,0.6084352084604769,0.011769038856805978,-0.079587,-33.932828
11.185,2.0,1.0,1.0,33.1,34.1,34.1,2.6,2.1,2.575,0.777583473495878,-0.01668025767978051,0.6139699090063877,0.011841011585065035,-0.080676,-33.783662
11.185,2.0,1.0,1.0,33.1,34.1,34.1,2.6,2.1,2.5775,0.7730209812283804,-0.01706657799473186,0.6195006621077462,0.011911930487559503,-0.081794,-33.633495
11.185,2.0,1.0,1.0,33.1,34.1,34.1,2.6,2.1,2.58,0.7683908815872651,-0.01746271429469405,0.6250270768049372,0.011981704189761416,-0.082941,-33.482302
11.185,2.0,1.0,1.0,33.1,34.1,34.1,2.6,2.1,2.5825,0.7636922179104161,-0.017868990758779988,0.6305487467499632,0.012050235504234692,-0.084118,-33.330059
11.185,2.0,1.0,1.0,33.1,34.1,34.1,2.6,2.1,2.585,0.758924008996265,-0.01828574547133196,0.6360652494871336,0.01211742102956532,-0.085326,-33.17674
11.185,2.0,1.0,1.0,33.1,34.1,34.1,2.6,2.1,2.5875,0.7540852481805023,-0.018713331157484196,0.6415761456916009,0.012183150718023523,-0.086567,-33.022321
11.185,2.0,1.0,1.0,33.1,34.1,34.1,2.6,2.1,2.59,0.749174902363133,-0.01915211596503747,0.6470809783625716,0.012247307409194061,-0.087842,-32.866774
11.185,2.0,1.0,1.0,33.1,34.1,34.1,2.6,2.1,2.5925,0.7441919109824258,-0.019602484296021502,0.6525792719677332,0.012309766326539892,-0.089152,-32.710072
11.185,2.0,1.0,1.0,33.1,34.1,34.1,2.6,2.1,2.595,0.7391351849320434,-0.020064837691600675,0.6580705315351012,0.0123703945335542,-0.090498,-32.552187
11.185,2.0,1.0,1.0,33.1,34.1,34.1,2.6,2.1,2.5975,0.7340036054173237,-0.020539595774283586,0.6635542416881539,0.012429050345821719,-0.091882,-32.39309
11.185,2.0,1.0,1.0,33.1,34.1,34.1,2.6,2.1,2.6,0.7287960227463369,-0.021027197251725964,0.6690298656197073,0.012485582694931253,-0.093306,-32.23275
11.185,2.0,1.0,1.0,33.1,34.1,34.1,2.6,2.1,2.6025,0.7235112550510125,-0.021528100986783892,0.6744968439995369,0.012539830439758416,-0.094771,-32.071137
11.185,2.0,1.0,1.0,33.1,34.1,34.1,2.6,2.1,2.605,0.7181480869331792,-0.022042787138868997,0.679954593810287,0.012591621620171203,-0.096279,-31.90822
11.185,2.0,1.0,1.0,33.1,34.1,34.1,2.6,2.1,2.6075,0.7127052680299644,-0.02257175838209364,0.6854025071056273,0.012640772647687065,-0.097831,-31.743964
11.185,2.0,1.0,1.0,33.1,34.1,34.1,2.6,2.1,2.61,0.7071815114924993,-0.023115541206168228,0.6908399496840314,0.012687087427021177,-0.09943,-31.578337
11.185,2.0,1.0,1.0,33.1,34.1,34.1,2.6,2.1,2.6125,0.7015754923713471,-0.023674687306539027,0.6962662596708464,0.012730356401812996,-0.101077,-31.411304
11.185,2.0,1.0,1.0,33.1,34.1,34.1,2.6,2.1,2.615,0.6958858459015027,-0.02424977507082193,0.701680746000596,0.012770355517081972,-0.102775,-31.242828
11.185,2.0,1.0,1.0,33.1,34.1,34.1,2.6,2.1,2.6175,0.6901111656791742,-0.024841411169220198,0.7070826867905462,0.01280684509013621,-0.104526,-31.072873
11.185,2.0,1.0,1.0,33.1,34.1,34.1,2.6,2.1,2.62,0.6842500017218608,-0.025450232257300125,0.7124713275956698,0.012839568580734786,-0.106332,-30.901398
11.185,2.0,1.0,1.0,33.1,34.1,34.1,2.6,2.1,2.6225,0.6783008584024686,-0.02607690680025906,0.7178458795340132,0.012868251250257933,-0.108196,-30.728366
11.185,2.0,1.0,1.0,33.1,34.1,34.1,2.6,2.1,2.625,0.672262192247388,-0.026722137028649,0.723205517270296,0.0128925986984657,-0.11012,-30.553734
11.185,2.0,1.0,1.0,33.1,34.1,34.1,2.6,2.1,2.6275,0.6661324095874999,-0.027386661036437648,0.7285493768441902,0.012912295265102399,-0.112108,-30.37746
11.185,2.0,1.0,1.0,33.1,34.1,34.1,2.6,2.1,2.63,0.6599098640500822,-0.028071255033293392,0.7338765533281965,0.01292700228210264,-0.114162,-30.199499
11.185,2.0,1.0,1.0,33.1,34.1,34.1,2.6,2.1,2.6325,0.6535928538784661,-0.028776735764089508,0.7391860982982912,0.012936356160466112,-0.116285,-30.019806
11.185,2.0,1.0,1.0,33.1,34.1,34.1,2.6,2.1,2.635,0.6471796190650444,-0.029503963109844294,0.74447701709856,0.012939966293947692,-0.118481,-29.838334
11.185,2.0,1.0,1.0,33.1,34.1,34.1,2.6,2.1,2.6375,0.6406683382818952,-0.030253842885655028,0.7497482658788012,0.01293741275953211,-0.120754,-29.655032
11.185,2.0,1.0,1.0,33.1,34.1,34.1,2.6,2.1,2.64,0.6340571255917585,-0.031027329852670784,0.7549987483815616,0.01292824379219494,-0.123107,-29.469851
11.185,2.0,1.0,1.0,33.1,34.1,34.1,2.6,2.1,2.6425,0.6273440269204803,-0.03182543096277385,0.7602273124521918,0.012911973008631979,-0.125545,-29.282737
11.185,2.0,1.0,1.0,33.1,34.1,34.1,2.6,2.1,2.645,0.6205270162701984,-0.032649208856446316,0.7654327462422406,0.01288807635143919,-0.128071,-29.093634
11.185,2.0,1.0,1.0,33.1,34.1,34.1,2.6,2.1,2.6475,0.6136039916505419,-0.03349978563627732,0.7706137740727786,0.012855988721563268,-0.130692,-28.902487
11.185,2.0,1.0,1.0,33.1,34.1,34.1,2.6,2.1,2.65,0.6065727707028927,-0.03437834694075807,0.7757690519199995,0.012815100262657825,-0.13341,-28.709235
11.185,2.0,1.0,1.0,33.1,34.1,34.1,2.6,2.1,2.6525,0.599431085990349,-0.035286146345415964,0.7808971624805382,0.012764752256192311,-0.136233,-28.513816
11.185,2.0,1.0,1.0,33.1,34.1,34.1,2.6,2.1,2.655,0.5921765799232773,-0.0362245101210029,0.7859966097684207,0.012704232580663192,-0.139166,-28.316167
11.185,2.0,1.0,1.0,33.1,34.1,34.1,2.6,2.1,2.6575,0.5848067992874478,-0.03719484238137187,0.7910658131890829,0.012632770681936273,-0.142215,-28.116219
11.185,2.0,1.0,1.0,33.1,34.1,34.1,2.6,2.1,2.66,0.5773191893384211,-0.038198630656898006,0.7961031010285816,0.012549531994485611,-0.145387,-27.913904
11.185,2.0,1.0,1.0,33.1,34.1,34.1,2.6,2.1,2.6625,0.5697110874223161,-0.03923745193283679,0.8011067032875686,0.012453611744900185,-0.148688,-27.709148
11.185,2.0,1.0,1.0,33.1,34.1,34.1,2.6,2.1,2.665,0.5619797160790995,-0.04031297919590113,0.8060747437798319,0.012344028059344014,-0.152128,-27.501876
11.185,2.0,1.0,1.0,33.1,34.1,34.1,2.6,2.1,2.6675,0.5541221755802644,-0.04142698853659011,0.8110052314038013,0.012219714285434578,-0.155713,-27.292008
11.185,2.0,1.0,1.0,33.1,34.1,34.1,2.6,2.1,2.67,0.5461354358479935,-0.04258136685946757,0.8158960504822916,0.012079510425992706,-0.159454,-27.079462
11.185,2.0,1.0,1.0,33.1,34.1,34.1,2.6,2.1,2.6725,0.53801632769776,-0.04377812025865773,0.8207449500504443,0.011922153566993254,-0.163359,-26.86415
11.185,2.0,1.0,1.0,33.1,34.1,34.1,2.6,2.1,2.675,0.5297615333407261,-0.04501938312134691,0.8255495319540179,0.011746267164430993,-0.16744,-26.645983
11.185,2.0,1.0,1.0,33.1,34.1,34.1,2.6,2.1,2.6775,0.5213675760761953,-0.0463074280280434,0.8303072375994249,0.011550349034263059,-0.171708,-26.424866
11.185,2.0,1.0,1.0,33.1,34.1,34.1,2.6,2.1,2.68,0.5128308090978622,-0.04764467652476331,0.8350153331726159,0.011332757865543991,-0.176175,-26.200699
11.185,2.0,1.0,1.0,33.1,34.1,34.1,2.6,2.1,2.6825,0.5041474033306345,-0.04903371084914725,0.8396708931154789,0.011091698048697876,-0.180855,-25.97338
11.185,2.0,1.0,1.0,33.1,34.1,34.1,2.6,2.1,2.685,0.49531333420739376,-0.050477286699743454,0.8442707816150014,0.01082520257776839,-0.185763,-25.742797
11.185,2.0,1.0,1.0,33.1,34.1,34.1,2.6,2.1,2.6875,0.486324367287395,-0.0519783471452134,0.848811631821143,0.0105311137465256,-0.190914,-25.508839
11.185,2.0,1.0,1.0,33.1,34.1,34.1,2.6,2.1,2.69,0.47717604261009855,-0.053540037777909506,0.853289822462954,0.010207061312319915,-0.196327,-25.271383
11.185,2.0,1.0,1.0,33.1,34.1,34.1,2.6,2.1,2.6925,0.46786365767033655,-0.05516572322393868,0.8577014514776745,0.009850437747194601,-0.202021,-25.030305
11.185,2.0,1.0,1.0,33.1,34.1,34.1,2.6,2.1,2.695,0.4583822488931877,-0.05685900512913377,0.8620423062024779,0.009458370131280144,-0.208017,-24.785471
11.185,2.0,1.0,1.0,33.1,34.1,34.1,2.6,2.1,2.6975,0.44872657148003997,-0.05862374174689909,0.8663078296013302,0.009027688166864181,-0.214339,-24.536743
11.185,2.0,1.0,1.0,33.1,34.1,34.1,2.6,2.1,2.7,0.43889107749196443,-0.060464069259018476,0.8704930819073609,0.008554887700232432,-0.221011,-24.283972
11.185,2.0,1.0,1.0,33.1,34.1,34.1,2.6,2.1,2.7025,0.428869892033237,-0.06238442496334672,0.8745926969513148,0.00803608902933101,-0.228062,-24.027003
11.185,2.0,1.0,1.0,33.1,34.1,34.1,2.6,2.1,2.705,0.4186567873982286,-0.0643895724615973,0.8786008323150392,0.007466989144744377,-0.235524,-23.765674
11.185,2.0,1.0,1.0,33.1,34.1,34.1,2.6,2.1,2.7075,0.40824515505032777,-0.06648462897446636,0.8825111122911244,0.006842806894776336,-0.243431,-23.499811
11.185,2.0,1.0,1.0,33.1,34.1,34.1,2.6,2.1,2.71,0.39762797531473765,-0.0686750948977137,0.8863165624398176,0.006158219876834843,-0.251821,-23.229233
11.185,2.0,1.0,1.0,33.1,34.1,34.1,2.6,2.1,2.7125,0.3867977846909657,-0.07096688568823248,0.8900095343051507,0.005407291629832992,-0.260738,-22.953745
11.185,2.0,1.0,1.0,33.1,34.1,34.1,2.6,2.1,2.715,0.3757466407303344,-0.07336636612905528,0.8935816185751045,0.004583387427191069,-0.27023,-22.673143
11.185,2.0,1.0,1.0,33.1,34.1,34.1,2.6,2.1,2.7175,0.3644660844850456,-0.07588038696035429,0.8970235446346645,0.0036790766364910733,-0.280349,-22.387212
11.185,2.0,1.0,1.0,33.1,34.1,34.1,2.6,2.1,2.72,0.35294710062698637,-0.07851632377117278,0.9003250640523471,0.002686019206521702,-0.291155,-22.095721
11.185,2.0,1.0,1.0,33.1,34.1,34.1,2.6,2.1,2.7225,0.3411800754684056,-0.08128211791192061,0.9034748150435877,0.0015948333488256363,-0.302717,-21.798428
11.185,2.0,1.0,1.0,33.1,34.1,34.1,2.6,2.1,2.725,0.32915475330954824,-0.08418631899408918,0.9064601643474376,0.00039494087836938134,-0.31511,-21.495074
11.185,2.0,1.0,1.0,33.1,34.1,34.1,2.6,2.1,2.7275,0.3168601918128382,-0.0872381282684179,0.9092670222109279,-0.0009256140587713142,-0.328421,-21.185384
11.185,2.0,1.0,1.0,33.1,34.1,34.1,2.6,2.1,2.73,0.30428471749137137,-0.09044744178421787,0.9118796252662974,-0.0023803780451989863,-0.342746,-20.869067
11.185,2.0,1.0,1.0,33.1,34.1,34.1,2.6,2.1,2.7325,0.29141588294489673,-0.09382489168688424,0.9142802809713689,-0.003984739520596892,-0.358198,-20.545812
11.185,2.0,1.0,1.0,33.1,34.1,34.1,2.6,2.1,2.735,0.278240428240919,-0.09738188324658298,0.9164490659146884,-0.005756225618118506,-0.374902,-20.215289
11.185,2.0,1.0,1.0,33.1,34.1,34.1,2.6,2.1,2.7375,0.2647442499074574,-0.10113062414332596,0.9183634686068829,-0.007714854015300775,-0.393005,-19.877145
11.185,2.0,1.0,1.0,33.1,34.1,34.1,2.6,2.1,2.74,0.25091238249764525,-0.1050841410424617,0.9199979653186297,-0.009883551150783702,-0.412674,-19.531007
11.185,2.0,1.0,1.0,33.1,34.1,34.1,2.6,2.1,2.7425,0.23672899977341846,-0.10925627641200766,0.9213235150022288,-0.012288650660885133,-0.434101,-19.176475
11.185,2.0,1.0,1.0,33.1,34.1,34.1,2.6,2.1,2.745,0.22217744547379759,-0.1136616556225077,0.9223069562558402,-0.014960488942069736,-0.457512,-18.813125
11.185,2.0,1.0,1.0,33.1,34.1,34.1,2.6,2.1,2.7475,0.20724030771859409,-0.11831561029694956,0.922910285557659,-0.017934118444221686,-0.483168,-18.440504
11.185,2.0,1.0,1.0,33.1,34.1,34.1,2.6,2.1,2.75,0.191899556826122,-0.123234038169646,0.92308979151619,-0.0212501637392128,-0.511372,-18.058133
11.185,2.0,1.0,1.0,33.1,34.1,34.1,2.6,2.1,2.7525,0.17613677436808803,-0.12843317169814247,0.9227950145815713,-0.024955850657967987,-0.542485,-17.665502
11.185,2.0,1.0,1.0,33.1,34.1,34.1,2.6,2.1,2.755,0.1599335126027829,-0.13392921639967897,0.9219674955376354,-0.029106244848438222,-0.576929,-17.262071
11.185,2.0,1.0,1.0,33.1,34.1,34.1,2.6,2.1,2.7575,0.14327183937620222,-0.13973780400432184,0.9205392692850429,-0.033765742833778485,-0.615206,-16.847272
11.185,2.0,1.0,1.0,33.1,34.1,34.1,2.6,2.1,2.76,0.12613514607988432,-0.1458731831222323,0.9184310533556811,-0.039009865618303025,-0.657917,-16.420508
11.185,2.0,1.0,1.0,33.1,34.1,34.1,2.6,2.1,2.7625,0.10850932800617093,-0.15234703852782808,0.9155500742220022,-0.044927411142037965,-0.705779,-15.981156
11.185,2.0,1.0,1.0,33.1,34.1,34.1,2.6,2.1,2.765,0.09038449121383763,-0.15916678562744765,0.9117874707003519,-0.051623025505013236,-0.75966,-15.528574
11.185,2.0,1.0,1.0,33.1,34.1,34.1,2.6,2.1,2.7675,0.07175740297623145,-0.16633312407104014,0.9070152162246055,-0.05922025024571274,-0.820611,-15.06211
11.185,2.0,1.0,1.0,33.1,34.1,34.1,2.6,2.1,2.77,0.052634990924206454,-0.17383654695441447,0.9010825171054123,-0.06786508746235231,-0.889915,-14.581112
11.185,2.0,1.0,1.0,33.1,34.1,34.1,2.6,2.1,2.7725,0.033039317883313844,-0.18165238095073774,0.8938116838516124,-0.07773008449141441,-0.969149,-14.084952
11.185,2.0,1.0,1.0,33.1,34.1,34.1,2.6,2.1,2.775,0.013014625308905537,-0.18973376795008778,0.8849935576669428,-0.08901885483694512,-1.060259,-13.573054
11.185,2.0,1.0,1.0,33.1,34.1,34.1,2.6,2.1,2.7775,-0.007362742342197889,-0.19800178100698454,0.8743827391906257,-0.10197078739957888,-1.165661,-13.044943
11.185,2.0,1.0,1.0,33.1,34.1,34.1,2.6,2.1,2.78,-0.027970443870729916,-0.20633159364498385,0.8616931693698168,-0.11686539415176338,-1.288373,-12.5003
11.185,2.0,1.0,1.0,33.1,34.1,34.1,2.6,2.1,2.7825,-0.048620873898793805,-0.21453330886535146,0.84659514631324,-0.13402521452800542,-1.432184,-11.939062
11.185,2.0,1.0,1.0,33.1,34.1,34.1,2.6,2.1,2.785,-0.06903482800715452,-0.22232576886434266,0.8287157699474117,-0.15381529104669955,-1.601854,-11.361546
11.185,2.0,1.0,1.0,33.1,34.1,34.1,2.6,2.1,2.7875,-0.08880631858244202,-0.229301582849723,0.8076462891692474,-0.17663575575026969,-1.803382,-10.768627
11.185,2.0,1.0,1.0,33.1,34.1,34.1,2.6,2.1,2.79,-0.10735726478277585,-0.23488211907427933,0.7829621208622385,-0.20290178642404996,-2.044291,-10.16199
11.185,2.0,1.0,1.0,33.1,34.1,34.1,2.6,2.1,2.7925,-0.1238826648377997,-0.23826309049030533,0.754264574498279,-0.23300195037756305,-2.333924,-9.544454
11.185,2.0,1.0,1.0,33.1,34.1,34.1,2.6,2.1,2.795,-0.13729152496096825,-0.2383560145145377,0.721257286505804,-0.2672220178115052,-2.683621,-8.920402
11.185,2.0,1.0,1.0,33.1,34.1,34.1,2.6,2.1,2.7975,-0.14615837002093066,-0.23374033410501238,0.6838735616932634,-0.30561817747223813,-3.106509,-8.296297
11.185,2.0,1.0,1.0,33.1,34.1,34.1,2.6,2.1,2.8,-0.1487167581679306,-0.22265748759016615,0.6424690617708637,-0.34782538023808135,-3.616274,-7.681257
11.185,2.0,1.0,1.0,33.1,34.1,34.1,2.6,2.1,2.8025,-0.1429493675166431,-0.2031011900953418,0.598078945186042,-0.39280185045734484,-4.223555,-7.087569
11.185,2.0,1.0,1.0,33.1,34.1,34.1,2.6,2.1,2.805,-0.12684920854396778,-0.17307794992855705,0.5526970438139831,-0.43855214766003087,-4.927316,-6.530919
11.185,2.0,1.0,1.0,33.1,34.1,34.1,2.6,2.1,2.8075,-0.0989151438090201,-0.13110032904717972,0.5094598739156084,-0.48194550187857077,-5.697095,-6.030012
11.185,2.0,1.0,1.0,33.1,34.1,34.1,2.6,2.1,2.81,-0.05885628567436455,-0.07688711112629953,0.47253506213953134,-0.5188286549001572,-6.444461,-5.605176
11.185,2.0,1.0,1.0,33.1,34.1,34.1,2.6,2.1,2.8125,-0.00829108605932492,-0.0120568280256133,0.446509945243633,-0.544635721809988,-7.00188,-5.27575
11.185,2.0,1.0,1.0,33.1,34.1,34.1,2.6,2.1,2.815,0.04897178105164291,0.05959596619689796,0.4352725788733906,-0.5555016647057226,-7.170145,-5.056592
11.185,2.0,1.0,1.0,33.1,34.1,34.1,2.6,2.1,2.8175,0.10745661513864338,0.1326243453266177,0.4407650287676056,-0.5495005805415647,-6.865109,-4.954746
11.185,2.0,1.0,1.0,33.1,34.1,34.1,2.6,2.1,2.82,0.16131743927928546,0.2012204411168181,0.4622672409745611,-0.5273542845722878,-6.20306,-4.967649
11.185,2.0,1.0,1.0,33.1,34.1,34.1,2.6,2.1,2.8225,0.20582375273050618,0.26069216804164846,0.4966610044196592,-0.49216578846270376,-5.390487,-5.083756
11.185,2.0,1.0,1.0,33.1,34.1,34.1,2.6,2.1,2.825,0.23830019135661765,0.30839474282934365,0.5395046655657127,-0.4483480462077945,-4.586052,-5.285274
11.185,2.0,1.0,1.0,33.1,34.1,34.1,2.6,2.1,2.8275,0.25820296387642233,0.3438033461210664,0.5862893274946128,-0.4003745441312774,-3.867885,-5.55174
11.185,2.0,1.0,1.0,33.1,34.1,34.1,2.6,2.1,2.83,0.266561989312052,0.3679560568416292,0.633318488429968,-0.3519060219926565,-3.259222,-5.863156
