1,w,sub_t,h,l1,l2,l3,g1,g2,Freq,S11_re,S21_re,S11_img,S21_img,S11_dB,S21_dB
11.185,2.0,1.0,1.0,34.2,34.9,34.9,3.0,2.9,2.5,0.748336894371399,-0.0136677246091522,0.650598820157203,0.00767885785025352,-0.073197,-36.094684
11.185,2.0,1.0,1.0,34.2,34.9,34.9,3.0,2.9,2.5025,0.7432207584736247,-0.01395489694831677,0.6562766227546666,0.0076873752068185724,-0.074129,-35.954487
11.185,2.0,1.0,1.0,34.2,34.9,34.9,3.0,2.9,2.505,0.7380322146260138,-0.01424848235993953,0.6619432398167348,0.007693836370423703,-0.075082,-35.813435
11.185,2.0,1.0,1.0,34.2,34.9,34.9,3.0,2.9,2.5075,0.7327704081520902,-0.014548667411196516,0.6675980863875406,0.0076981403695899195,-0.076057,-35.671508
11.185,2.0,1.0,1.0,34.2,34.9,34.9,3.0,2.9,2.51,0.7274344680785818,-0.014855645946979431,0.6732405585069655,0.007700181136609462,-0.077056,-35.528683
11.185,2.0,1.0,1.0,34.2,34.9,34.9,3.0,2.9,2.5125,0.7220235066941904,-0.015169619449216602,0.678870032496826,0.007699847205863285,-0.078078,-35.38494
11.185,2.0,1.0,1.0,34.2,34.9,34.9,3.0,2.9,2.515,0.7165366190883977,-0.015490797417688894,0.6844858642137805,0.007697021391125268,-0.079126,-35.240254
11.185,2.0,1.0,1.0,34.2,34.9,34.9,3.0,2.9,2.5175,0.7109728826689683,-0.015819397773845303,0.6900873882668515,0.0076915804401521985,-0.080199,-35.094604
11.185,2.0,1.0,1.0,34.2,34.9,34.9,3.0,2.9,2.52,0.7053313566566549,-0.01615564728924383,0.6956739171973366,0.007683394664700219,-0.081298,-34.947964
11.185,2.0,1.0,1.0,34.2,34.9,34.9,3.0,2.9,2.5225,0.6996110815555378,-0.01649978204037269,0.7012447406186418,0.0076723275439355134,-0.082425,-34.800311
11.185,2.0,1.0,1.0,34.2,34.9,34.9,3.0,2.9,2.525,0.6938110785972382,-0.01685204789175155,0.7067991243134087,0.007658235299014174,-0.083581,-34.651618
11.185,2.0,1.0,1.0,34.2,34.9,34.9,3.0,2.9,2.5275,0.6879303491571445,-0.017212701009365897,0.7123363092850649,0.007640966436393675,-0.084766,-34.50186
11.185,2.0,1.0,1.0,34.2,34.9,34.9,3.0,2.9,2.53,0.6819678741405986,-0.017582008406658113,0.7178555107606596,0.0076203612572032205,-0.085982,-34.35101
11.185,2.0,1.0,1.0,34.2,34.9,34.9,3.0,2.9,2.5325,0.6759226133368305,-0.0179602485254843,0.723355917141599,0.007596251329738235,-0.087229,-34.199039
11.185,2.0,1.0,1.0,34.2,34.9,34.9,3.0,2.9,2.535,0.6697935047382122,-0.01834771185464804,0.7288366888985706,0.0075684589218554844,-0.088509,-34.045919
11.185,2.0,1.0,1.0,34.2,34.9,34.9,3.0,2.9,2.5375,0.6635794638222164,-0.018744701588842907,0.7342969574066067,0.007536796389722114,-0.089824,-33.89162
11.185,2.0,1.0,1.0,34.2,34.9,34.9,3.0,2.9,2.54,0.657279382793204,-0.01915153433107929,0.7397358237158719,0.007501065519014266,-0.091174,-33.736111
11.185,2.0,1.0,1.0,34.2,34.9,34.9,3.0,2.9,2.5425,0.6508921297809203,-0.01956854084193473,0.7451523572533348,0.007461056814261317,-0.092561,-33.579362
11.185,2.0,1.0,1.0,34.2,34.9,34.9,3.0,2.9,2.545,0.6444165479922956,-0.019996066839258437,0.7505455944500148,0.007416548731586751,-0.093986,-33.421338
11.185,2.0,1.0,1.0,34.2,34.9,34.9,3.0,2.9,2.5475,0.6378514548128362,-0.02043447385227849,0.7559145372879847,0.0073673068496001495,-0.095451,-33.262007
11.185,2.0,1.0,1.0,34.2,34.9,34.9,3.0,2.9,2.55,0.631195640853533,-0.020884140134411155,0.7612581517607356,0.007313082972638321,-0.096958,-33.101333
11.185,2.0,1.0,1.0,34.2,34.9,34.9,3.0,2.9,2.5525,0.6244478689388714,-0.021345461639452855,0.7665753662398437,0.007253614159932984,-0.098508,-32.93928
11.185,2.0,1.0,1.0,34.2,34.9,34.9,3.0,2.9,2.555,0.6176068730310729,-0.02181885306626026,0.7718650697401946,0.007188621673584933,-0.100103,-32.775811
11.185,2.0,1.0,1.0,34.2,34.9,34.9,3.0,2.9,2.5575,0.6106713570852613,-0.022304748977484672,0.7771261100751787,0.0071178098374425226,-0.101746,-32.610887
11.185,2.0,1.0,1.0,34.2,34.9,34.9,3.0,2.9,2.56,0.6036399938297521,-0.022803604998437785,0.7823572918923825,0.0070408647981048044,-0.103437,-32.444467
11.185,2.0,1.0,1.0,34.2,34.9,34.9,3.0,2.9,2.5625,0.596511423465082,-0.0233158991027271,0.787557374579279,0.0069574531782795,-0.105179,-32.276509
11.185,2.0,1.0,1.0,34.2,34.9,34.9,3.0,2.9,2.565,0.5892842522747958,-0.023842132991916995,0.7927250700272852,0.006867220611613688,-0.106975,-32.106971
11.185,2.0,1.0,1.0,34.2,34.9,34.9,3.0,2.9,2.5675,0.5819570511403425,-0.024382833577151913,0.7978590402412351,0.006769790146856979,-0.108827,-31.935808
11.185,2.0,1.0,1.0,34.2,34.9,34.9,3.0,2.9,2.57,0.5745283539516546,-0.024938554571429832,0.8029578947799092,0.006664760507796802,-0.110737,-31.762972
11.185,2.0,1.0,1.0,34.2,34.9,34.9,3.0,2.9,2.5725,0.5669966559041812,-0.025509878202041914,0.8080201880115676,0.006551704193798283,-0.112708,-31.588416
11.185,2.0,1.0,1.0,34.2,34.9,34.9,3.0,2.9,2.575,0.5593604116722212,-0.026097417053607845,0.8130444161666073,0.006430165403958054,-0.114744,-31.412089
11.185,2.0,1.0,1.0,34.2,34.9,34.9,3.0,2.9,2.5775,0.5516180334473949,-0.026701816053146,0.8180290141673264,0.0062996577658135,-0.116846,-31.233939
11.185,2.0,1.0,1.0,34.2,34.9,34.9,3.0,2.9,2.58,0.5437678888299732,-0.027323754609731007,0.8229723522124001,0.0061596618471955605,-0.119019,-31.05391
11.185,2.0,1.0,1.0,34.2,34.9,34.9,3.0,2.9,2.5825,0.5358082985595393,-0.02796394892252442,0.8278727320909256,0.006009622427134036,-0.121266,-30.871947
11.185,2.0,1.0,1.0,34.2,34.9,34.9,3.0,2.9,2.585,0.5277375340700987,-0.02862315447232175,0.8327283831977903,0.0058489454986670915,-0.12359,-30.687989
11.185,2.0,1.0,1.0,34.2,34.9,34.9,3.0,2.9,2.5875,0.5195538148532223,-0.029302168713265405,0.8375374582185677,0.005676994972911738,-0.125996,-30.501977
11.185,2.0,1.0,1.0,34.2,34.9,34.9,3.0,2.9,2.59,0.511255305611153,-0.030001833983031127,0.8422980284480621,0.0054930890497523225,-0.128488,-30.313844
11.185,2.0,1.0,1.0,34.2,34.9,34.9,3.0,2.9,2.5925,0.502840113179915,-0.030723040651634333,0.8470080787019835,0.005296496215912984,-0.13107,-30.123525
11.185,2.0,1.0,1.0,34.2,34.9,34.9,3.0,2.9,2.595,0.4943062832004564,-0.03146673053102533,0.8516655017758622,0.005086430825907809,-0.133748,-29.930948
11.185,2.0,1.0,1.0,34.2,34.9,34.9,3.0,2.9,2.5975,0.4856517965135371,-0.03223390056988571,0.8562680923991722,0.004862048215287944,-0.136526,-29.736041
11.185,2.0,1.0,1.0,34.2,34.9,34.9,3.0,2.9,2.6,0.47687456525160105,-0.033025606860500975,0.8608135406255194,0.004622439288599575,-0.13941,-29.538727
11.185,2.0,1.0,1.0,34.2,34.9,34.9,3.0,2.9,2.6025,0.4679724285981037,-0.03384296898730712,0.8652994245915375,0.0043666245163675385,-0.142407,-29.338926
11.185,2.0,1.0,1.0,34.2,34.9,34.9,3.0,2.9,2.605,0.4589431481816886,-0.03468717474970009,0.8697232025676633,0.004093547266036136,-0.145523,-29.136554
11.185,2.0,1.0,1.0,34.2,34.9,34.9,3.0,2.9,2.6075,0.4497844030692918,-0.03555948529498259,0.8740822042129027,0.003802066380907215,-0.148765,-28.931523
11.185,2.0,1.0,1.0,34.2,34.9,34.9,3.0,2.9,2.61,0.44049378431855135,-0.03646124070092136,0.8783736209329029,0.003490947908443442,-0.15214,-28.723741
11.185,2.0,1.0,1.0,34.2,34.9,34.9,3.0,2.9,2.6125,0.43106878904587836,-0.03739386605131865,0.8825944952257038,0.003158855864528759,-0.155657,-28.513111
11.185,2.0,1.0,1.0,34.2,34.9,34.9,3.0,2.9,2.615,0.42150681396216244,-0.03835887805227639,0.8867417088820748,0.002804341903008565,-0.159325,-28.299532
11.185,2.0,1.0,1.0,34.2,34.9,34.9,3.0,2.9,2.6175,0.41180514832334575,-0.039357892241451434,0.8908119698868961,0.0024258337396025165,-0.163153,-28.082896
11.185,2.0,1.0,1.0,34.2,34.9,34.9,3.0,2.9,2.62,0.4019609662379557,-0.04039263084756995,0.8948017978440673,0.0020216221555258893,-0.167153,-27.863092
11.185,2.0,1.0,1.0,34.2,34.9,34.9,3.0,2.9,2.6225,0.39197131826823745,-0.04146493136275664,0.8987075077191505,0.0015898463781881113,-0.171335,-27.640001
11.185,2.0,1.0,1.0,34.2,34.9,34.9,3.0,2.9,2.625,0.381833122255766,-0.0425767558957919,0.902525191660648,0.00112847760332994,-0.175712,-27.413499
11.185,2.0,1.0,1.0,34.2,34.9,34.9,3.0,2.9,2.6275,0.3715431532963813,-0.04373020138017119,0.9062506986213807,0.0006353003838994628,-0.180299,-27.183454
11.185,2.0,1.0,1.0,34.2,34.9,34.9,3.0,2.9,2.63,0.36109803278323876,-0.04492751071664906,0.9098796114546552,0.00010789156462421671,-0.185109,-26.949728
11.185,2.0,1.0,1.0,34.2,34.9,34.9,3.0,2.9,2.6325,0.350494216430719,-0.04617108493562762,0.913407221104263,-0.0004564036139048274,-0.190159,-26.712174
11.185,2.0,1.0,1.0,34.2,34.9,34.9,3.0,2.9,2.635,0.33972798118633796,-0.04746349646998387,0.9168284974409993,-0.0010604986836105748,-0.195468,-26.470638
11.185,2.0,1.0,1.0,34.2,34.9,34.9,3.0,2.9,2.6375,0.32879541093298237,-0.04880750363328728,0.920138056218946,-0.0017075969104670356,-0.201056,-26.224955
11.185,2.0,1.0,1.0,34.2,34.9,34.9,3.0,2.9,2.64,0.3176923808803694,-0.050206066401225685,0.9233301215294873,-0.002401226664375234,-0.206944,-25.974953
11.185,2.0,1.0,1.0,34.2,34.9,34.9,3.0,2.9,2.6425,0.30641454054358236,-0.0516623635945262,0.9263984830163031,-0.0031452819262895023,-0.213156,-25.720447
11.185,2.0,1.0,1.0,34.2,34.9,34.9,3.0,2.9,2.645,0.2949572952089119,-0.05317981155849946,0.9293364469761038,-0.0039440687988405165,-0.21972,-25.461242
11.185,2.0,1.0,1.0,34.2,34.9,34.9,3.0,2.9,2.6475,0.2833157857949973,-0.054762084425768805,0.9321367803020851,-0.004802359053055067,-0.226666,-25.197129
11.185,2.0,1.0,1.0,34.2,34.9,34.9,3.0,2.9,2.65,0.271484867032609,-0.056413136032327525,0.9347916460232747,-0.005725451945933031,-0.234027,-24.927889
11.185,2.0,1.0,1.0,34.2,34.9,34.9,3.0,2.9,2.6525,0.2594590839131121,-0.05813722352931522,0.9372925289443437,-0.0067192457901011585,-0.24184,-24.653286
11.185,2.0,1.0,1.0,34.2,34.9,34.9,3.0,2.9,2.655,0.247232646398021,-0.0599389326890432,0.9396301495865225,-0.007790321058254095,-0.250148,-24.37307
11.185,2.0,1.0,1.0,34.2,34.9,34.9,3.0,2.9,2.6575,0.23479940244736563,-0.06182320483702512,0.9417943642570656,-0.00894603717509516,-0.258996,-24.086971
11.185,2.0,1.0,1.0,34.2,34.9,34.9,3.0,2.9,2.66,0.22215280952175487,-0.06379536524268122,0.943774048615284,-0.010194645605128992,-0.268438,-23.794705
11.185,2.0,1.0,1.0,34.2,34.9,34.9,3.0,2.9,2.6625,0.20928590485568518,-0.06586115265668234,0.9455569615353315,-0.011545422407613092,-0.278534,-23.495965
11.185,2.0,1.0,1.0,34.2,34.9,34.9,3.0,2.9,2.665,0.1961912750060741,-0.06802674947395469,0.9471295853621087,-0.013008824127835932,-0.289351,-23.190422
11.185,2.0,1.0,1.0,34.2,34.9,34.9,3.0,2.9,2.6675,0.18286102547686064,-0.07029881170181242,0.9484769377811155,-0.014596671761773535,-0.300966,-22.877725
11.185,2.0,1.0,1.0,34.2,34.9,34.9,3.0,2.9,2.67,0.1692867516447911,-0.07268449748527886,0.9495823494307051,-0.016322368613894748,-0.313468,-22.557496
11.185,2.0,1.0,1.0,34.2,34.9,34.9,3.0,2.9,2.6725,0.15545951281637055,-0.07519149233336386,0.9504272000182269,-0.01820115922255633,-0.326957,-22.229327
11.185,2.0,1.0,1.0,34.2,34.9,34.9,3.0,2.9,2.675,0.14136981210724314,-0.07782802832522694,0.9509906039861853,-0.020250438226867618,-0.341548,-21.892782
11.185,2.0,1.0,1.0,34.2,34.9,34.9,3.0,2.9,2.6775,0.1270075860614403,-0.08060289334526242,0.9512490346173005,-0.022490120185689324,-0.357377,-21.547387
11.185,2.0,1.0,1.0,34.2,34.9,34.9,3.0,2.9,2.68,0.1123622096760374,-0.08352542464474605,0.9511758727494024,-0.024943084050652868,-0.374598,-21.192633
11.185,2.0,1.0,1.0,34.2,34.9,34.9,3.0,2.9,2.6825,0.0974225249938842,-0.08660547852819088,0.9507408628435496,-0.027635709387704172,-0.393393,-20.82797
11.185,2.0,1.0,1.0,34.2,34.9,34.9,3.0,2.9,2.685,0.082176905004348,-0.08985336438493938,0.9499094548268638,-0.030598525717572798,-0.413974,-20.452802
11.185,2.0,1.0,1.0,34.2,34.9,34.9,3.0,2.9,2.6875,0.0666133697345829,-0.093279726147472,0.948642004691367,-0.0338670017248781,-0.436591,-20.066484
11.185,2.0,1.0,1.0,34.2,34.9,34.9,3.0,2.9,2.69,0.05071977883618571,-0.09689534684601175,0.9468928000097866,-0.037482507824927284,-0.461541,-19.668318
11.185,2.0,1.0,1.0,34.2,34.9,34.9,3.0,2.9,2.6925,0.03448413573195821,-0.10071084119142357,0.9446088680425141,-0.04149349395583671,-0.489176,-19.257548
11.185,2.0,1.0,1.0,34.2,34.9,34.9,3.0,2.9,2.695,0.01789505405874204,-0.10473618548963483,0.9417285136846534,-0.04595693474387976,-0.519918,-18.833355
11.185,2.0,1.0,1.0,34.2,34.9,34.9,3.0,2.9,2.6975,0.0009424600755436899,-0.10898001133348348,0.93817952197055,-0.050940106526823424,-0.554277,-18.394853
11.185,2.0,1.0,1.0,34.2,34.9,34.9,3.0,2.9,2.7,-0.016381361575435537,-0.11344855593135655,0.9338769453437403,-0.0565227749680679,-0.592871,-17.941085
11.185,2.0,1.0,1.0,34.2,34.9,34.9,3.0,2.9,2.7025,-0.03408022157859805,-0.11814411236699822,0.9287203802257717,-0.0627998873192031,-0.636456,-17.471019
11.185,2.0,1.0,1.0,34.2,34.9,34.9,3.0,2.9,2.705,-0.052151748169920166,-0.12306274968110831,0.9225906228411505,-0.06988487750059952,-0.685964,-16.983551
11.185,2.0,1.0,1.0,34.2,34.9,34.9,3.0,2.9,2.7075,-0.0705840373515775,-0.12819096372113783,0.915345585975548,-0.07791369984343688,-0.74255,-16.477506
11.185,2.0,1.0,1.0,34.2,34.9,34.9,3.0,2.9,2.71,-0.08935072785222757,-0.1335007580240466,0.9068153673329026,-0.08704969757937375,-0.807662,-15.951645
11.185,2.0,1.0,1.0,34.2,34.9,34.9,3.0,2.9,2.7125,-0.10840375681699536,-0.13894241493690104,0.8967964085382364,-0.09748936286155989,-0.883124,-15.404692
11.185,2.0,1.0,1.0,34.2,34.9,34.9,3.0,2.9,2.715,-0.12766269933812113,-0.1444338671206029,0.8850448149428977,-0.109468913011036,-0.971261,-14.835362
11.185,2.0,1.0,1.0,34.2,34.9,34.9,3.0,2.9,2.7175,-0.1469990878595201,-0.14984507709527653,0.8712692032646361,-0.12327131006554203,-1.075054,-14.242424
11.185,2.0,1.0,1.0,34.2,34.9,34.9,3.0,2.9,2.72,-0.16621340616883884,-0.1549751385638649,0.8551240624889361,-0.1392327325649425,-1.19836,-13.624798
11.185,2.0,1.0,1.0,34.2,34.9,34.9,3.0,2.9,2.7225,-0.1850015543887936,-0.1595189266004156,0.8362058377548296,-0.1577462871874185,-1.346201,-12.981715
11.185,2.0,1.0,1.0,34.2,34.9,34.9,3.0,2.9,2.725,-0.20290661897456513,-0.1630191789787329,0.814056275289607,-0.17925842894368876,-1.525145,-12.312965
11.185,2.0,1.0,1.0,34.2,34.9,34.9,3.0,2.9,2.7275,-0.2192512680404665,-0.16479940168583027,0.7881818092457836,-0.20424933930920403,-1.743781,-11.619281
11.185,2.0,1.0,1.0,34.2,34.9,34.9,3.0,2.9,2.73,-0.23304746987710476,-0.16387439728839445,0.7581050574776504,-0.2331812771925606,-2.013256,-10.902925
11.185,2.0,1.0,1.0,34.2,34.9,34.9,3.0,2.9,2.7325,-0.24288695812802785,-0.15884195569259169,0.7234757999483487,-0.2663877143248228,-2.347702,-10.168557
11.185,2.0,1.0,1.0,34.2,34.9,34.9,3.0,2.9,2.735,-0.246835064902363,-0.14777839694063763,0.6842829359224584,-0.30386212744923796,-2.764042,-9.424455
11.185,2.0,1.0,1.0,34.2,34.9,34.9,3.0,2.9,2.7375,-0.24239382049329933,-0.12820370390603003,0.6412165719772915,-0.34489792755684956,-3.279821,-8.684109
11.185,2.0,1.0,1.0,34.2,34.9,34.9,3.0,2.9,2.74,-0.22667718817865465,-0.09725833427871276,0.5962010044330327,-0.38755960328430344,-3.905783,-7.967994
11.185,2.0,1.0,1.0,34.2,34.9,34.9,3.0,2.9,2.7425,-0.1970292007727155,-0.05232052690198028,0.5529933781041231,-0.4280907935281819,-4.626568,-7.30489
11.185,2.0,1.0,1.0,34.2,34.9,34.9,3.0,2.9,2.745,-0.15229054734712313,0.007733551670536922,0.5174592140377938,-0.4606467065302486,-5.36172,-6.731417
11.185,2.0,1.0,1.0,34.2,34.9,34.9,3.0,2.9,2.7475,-0.09452272297780358,0.08082005354408874,0.49681047884039514,-0.4780598378142996,-5.921755,-6.287971
11.185,2.0,1.0,1.0,34.2,34.9,34.9,3.0,2.9,2.75,-0.0301386387623844,0.160535298122176,0.497271664229592,-0.474165028673858,-6.052202,-6.010119
11.185,2.0,1.0,1.0,34.2,34.9,34.9,3.0,2.9,2.7525,0.031125992147140458,0.23719344755949073,0.5209387262209653,-0.4469160936912654,-5.64879,-5.91769
11.185,2.0,1.0,1.0,34.2,34.9,34.9,3.0,2.9,2.755,0.07967950334930005,0.30128000096379265,0.564147493223195,-0.39999040451461043,-4.886365,-6.007383
11.185,2.0,1.0,1.0,34.2,34.9,34.9,3.0,2.9,2.7575,0.1097541719343984,0.34710158626094334,0.6190205099424398,-0.34123357973897617,-4.031475,-6.253985
11.185,2.0,1.0,1.0,34.2,34.9,34.9,3.0,2.9,2.76,0.12064334942946,0.3739984744801004,0.6769799653550566,-0.279161987948888,-3.252705,-6.619296
11.185,2.0,1.0,1.0,34.2,34.9,34.9,3.0,2.9,2.7625,0.11529562433359536,0.38493376560772585,0.7315445095050117,-0.22018973597519342,-2.608626,-7.062894
11.185,2.0,1.0,1.0,34.2,34.9,34.9,3.0,2.9,2.765,0.09805942381073031,0.38424768415478805,0.7791593628239137,-0.1678144574798726,-2.099226,-7.549614
11.185,2.0,1.0,1.0,34.2,34.9,34.9,3.0,2.9,2.7675,0.07305866448029735,0.3760457983692382,0.8186353608527005,-0.12318265686359212,-1.703737,-8.052515
11.185,2.0,1.0,1.0,34.2,34.9,34.9,3.0,2.9,2.77,0.04350648751670221,0.3635215003343964,0.8502027620482279,-0.0860334160064783,-1.398192,-8.552713
11.185,2.0,1.0,1.0,34.2,34.9,34.9,3.0,2.9,2.7725,0.011634906787801911,0.34888981696351107,0.8747432165584139,-0.05546202529546015,-1.16162,-9.037849
11.185,2.0,1.0,1.0,34.2,34.9,34.9,3.0,2.9,2.775,-0.02112148913684871,0.3335722848275642,0.8933229303249792,-0.030382988525725834,-0.977403,-9.500319
11.185,2.0,1.0,1.0,34.2,34.9,34.9,3.0,2.9,2.7775,-0.053896902877688536,0.3184253459182498,0.9069608877488432,-0.00975914686373523,-0.832919,-9.93577
11.185,2.0,1.0,1.0,34.2,34.9,34.9,3.0,2.9,2.78,-0.08620233349155029,0.30393163964206077,0.91653777936402,0.007308900584461302,-0.718745,-10.341971
11.185,2.0,1.0,1.0,34.2,34.9,34.9,3.0,2.9,2.7825,-0.11778673916590925,0.29033810730315174,0.9227764291071994,0.02156421369637902,-0.627881,-10.718027
11.185,2.0,1.0,1.0,34.2,34.9,34.9,3.0,2.9,2.785,-0.1485439640394973,0.27774845361342654,0.9262533445241731,0.03360567211342197,-0.555121,-11.06385
11.185,2.0,1.0,1.0,34.2,34.9,34.9,3.0,2.9,2.7875,-0.17845299886749566,0.2661824204493186,0.9274207771055858,0.04391045707277108,-0.496572,-11.379807
11.185,2.0,1.0,1.0,34.2,34.9,34.9,3.0,2.9,2.79,-0.20754068621609909,0.2556127415167163,0.926629891167378,0.05285756934621579,-0.449302,-11.666502
11.185,2.0,1.0,1.0,34.2,34.9,34.9,3.0,2.9,2.7925,-0.23585891282058896,0.24598770394063246,0.9241513449701252,0.06074875679362284,-0.411089,-11.924625
11.185,2.0,1.0,1.0,34.2,34.9,34.9,3.0,2.9,2.795,-0.26347092622265017,0.2372446502031525,0.9201922512083774,0.06782586189998285,-0.380236,-12.15487
11.185,2.0,1.0,1.0,34.2,34.9,34.9,3.0,2.9,2.7975,-0.29044330884878305,0.22931786276583788,0.9149096080284367,0.07428471025268345,-0.355438,-12.357872
11.185,2.0,1.0,1.0,34.2,34.9,34.9,3.0,2.9,2.8,-0.316841418385892,0.22214300247839908,0.9084206871200403,0.08028605092878434,-0.335689,-12.534175
11.185,2.0,1.0,1.0,34.2,34.9,34.9,3.0,2.9,2.8025,-0.3427269263888536,0.21565945163691158,0.9008109397737756,0.0859641337531523,-0.320207,-12.684207
11.185,2.0,1.0,1.0,34.2,34.9,34.9,3.0,2.9,2.805,-0.3681566061528345,0.20981139442045493,0.892139929396446,0.09143345904013854,-0.308391,-12.808271
11.185,2.0,1.0,1.0,34.2,34.9,34.9,3.0,2.9,2.8075,-0.3931818439445302,0.20454814338905314,0.8824457074951776,0.09679414972427126,-0.299776,-12.906533
11.185,2.0,1.0,1.0,34.2,34.9,34.9,3.0,2.9,2.81,-0.41784854679911054,0.1998240185120636,0.8717479561024528,0.1021363101670562,-0.294012,-12.979017
11.185,2.0,1.0,1.0,34.2,34.9,34.9,3.0,2.9,2.8125,-0.442197241359122,0.195597958299795,0.860050135968275,0.107543663713036,-0.290841,-13.025597
11.185,2.0,1.0,1.0,34.2,34.9,34.9,3.0,2.9,2.815,-0.46626323037083545,0.1918329615531869,0.8473408091965045,0.11309670561614224,-0.290083,-13.045993
11.185,2.0,1.0,1.0,34.2,34.9,34.9,3.0,2.9,2.8175,-0.49007671391066615,0.18849540429857906,0.8335942457374701,0.11887556881960193,-0.291631,-13.039765
11.185,2.0,1.0,1.0,34.2,34.9,34.9,3.0,2.9,2.82,-0.5136628013628536,0.1855542374216566,0.8187703721355643,0.12496277578424676,-0.295441,-13.0063
11.185,2.0,1.0,1.0,34.2,34.9,34.9,3.0,2.9,2.8225,-0.5370413429256485,0.1829800378315664,0.8028140745868472,0.13144603886088793,-0.301538,-12.944805
11.185,2.0,1.0,1.0,34.2,34.9,34.9,3.0,2.9,2.825,-0.5602264977448855,0.1807438528684587,0.7856538229670805,0.13842127406591082,-0.31001,-12.854289
11.185,2.0,1.0,1.0,34.2,34.9,34.9,3.0,2.9,2.8275,-0.5832259283178971,0.17881573746638507,0.7671995341496362,0.14599600899804074,-0.321023,-12.733551
11.185,2.0,1.0,1.0,34.2,34.9,34.9,3.0,2.9,2.83,-0.6060394628219454,0.17716282825422533,0.7473395373908158,0.15429339660173544,-0.334827,-12.581151
