1,w,sub_t,h,l1,l2,l3,g1,g2,Freq,S11_re,S21_re,S11_img,S21_img,S11_dB,S21_dB
11.185,2.0,1.0,1.0,34.7,33.1,33.1,1.6,4.0,2.5,0.648250479552253,-0.0167293602690397,0.74896325012706,0.00634514918011981,-0.082537,-34.946704
11.185,2.0,1.0,1.0,34.7,33.1,33.1,1.6,4.0,2.5025,0.6415343764699377,-0.017011711648721232,0.7545809136966585,0.006267169715199942,-0.083493,-34.832323
11.185,2.0,1.0,1.0,34.7,33.1,33.1,1.6,4.0,2.505,0.634729386236102,-0.017297911756955164,0.7601698152040997,0.006184791036855829,-0.084463,-34.717656
11.185,2.0,1.0,1.0,34.7,33.1,33.1,1.6,4.0,2.5075,0.627834666107219,-0.017587990468365344,0.7657288522957537,0.006097875134934944,-0.085449,-34.602698
11.185,2.0,1.0,1.0,34.7,33.1,33.1,1.6,4.0,2.51,0.6208493692988925,-0.017881976673168796,0.7712568918256205,0.006006279998496249,-0.086449,-34.487446
11.185,2.0,1.0,1.0,34.7,33.1,33.1,1.6,4.0,2.5125,0.6137726453305189,-0.01817989818806252,0.7767527690521426,0.005909859505305664,-0.087466,-34.371897
11.185,2.0,1.0,1.0,34.7,33.1,33.1,1.6,4.0,2.515,0.6066036403933117,-0.018481781662077746,0.7822152868174388,0.005808463308878958,-0.088498,-34.256047
11.185,2.0,1.0,1.0,34.7,33.1,33.1,1.6,4.0,2.5175,0.59934149774281,-0.018787652477153933,0.787643214708799,0.005701936723071145,-0.089547,-34.139892
11.185,2.0,1.0,1.0,34.7,33.1,33.1,1.6,4.0,2.52,0.5919853581170443,-0.0190975346431761,0.793035288202331,0.005590120604214925,-0.090613,-34.023429
11.185,2.0,1.0,1.0,34.7,33.1,33.1,1.6,4.0,2.5225,0.5845343601816,-0.0194114506872053,0.7983902077886219,0.0054728512308182395,-0.091697,-33.906655
11.185,2.0,1.0,1.0,34.7,33.1,33.1,1.6,4.0,2.525,0.5769876410028291,-0.01972942153662351,0.8037066380803519,0.005349960180835941,-0.092798,-33.789566
11.185,2.0,1.0,1.0,34.7,33.1,33.1,1.6,4.0,2.5275,0.5693443365505471,-0.020051466395899647,0.8089832069017989,0.005221274206537649,-0.093918,-33.672158
11.185,2.0,1.0,1.0,34.7,33.1,33.1,1.6,4.0,2.53,0.5616035822315957,-0.020377602616672482,0.8142185043601886,0.005086615107002131,-0.095056,-33.554429
11.185,2.0,1.0,1.0,34.7,33.1,33.1,1.6,4.0,2.5325,0.5537645134556947,-0.020707845560833184,0.8194110818988966,0.004945799598275651,-0.096213,-33.436375
11.185,2.0,1.0,1.0,34.7,33.1,33.1,1.6,4.0,2.535,0.5458262662350701,-0.02104220845627719,0.8245594513325393,0.004798639181241226,-0.09739,-33.317991
11.185,2.0,1.0,1.0,34.7,33.1,33.1,1.6,4.0,2.5375,0.537787977819419,-0.02138070224498095,0.829662083864008,0.004644940007255103,-0.098588,-33.199276
11.185,2.0,1.0,1.0,34.7,33.1,33.1,1.6,4.0,2.54,0.5296487873677915,-0.021723335423046088,0.8347174090835565,0.0044845027416172255,-0.099805,-33.080225
11.185,2.0,1.0,1.0,34.7,33.1,33.1,1.6,4.0,2.5425,0.5214078366590715,-0.022070113872338884,0.8397238139500994,0.004317122424953717,-0.101045,-32.960835
11.185,2.0,1.0,1.0,34.7,33.1,33.1,1.6,4.0,2.545,0.5130642708427791,-0.02242104068333774,0.8446796417548992,0.004142588332601571,-0.102305,-32.841102
11.185,2.0,1.0,1.0,34.7,33.1,33.1,1.6,4.0,2.5475,0.5046172392319848,-0.022776115968786686,0.8495831910678925,0.003960683832099054,-0.103588,-32.721023
11.185,2.0,1.0,1.0,34.7,33.1,33.1,1.6,4.0,2.55,0.49606589614017893,-0.023135336667738187,0.8544327146669607,0.003771186238898941,-0.104894,-32.600595
11.185,2.0,1.0,1.0,34.7,33.1,33.1,1.6,4.0,2.5525,0.4874094017640488,-0.023498696339550772,0.8592264184504728,0.0035738666704381275,-0.106223,-32.479813
11.185,2.0,1.0,1.0,34.7,33.1,33.1,1.6,4.0,2.555,0.47864692311411944,-0.02386618494739329,0.8639624603335412,0.0033684898987125845,-0.107576,-32.358676
11.185,2.0,1.0,1.0,34.7,33.1,33.1,1.6,4.0,2.5575,0.4697776349953318,-0.024237788630789507,0.8686389491284655,0.0031548142015241512,-0.108953,-32.237179
11.185,2.0,1.0,1.0,34.7,33.1,33.1,1.6,4.0,2.56,0.46080072103968694,-0.024613489466720262,0.8732539434098983,0.002932591212586005,-0.110356,-32.115319
11.185,2.0,1.0,1.0,34.7,33.1,33.1,1.6,4.0,2.5625,0.4517153747931597,-0.024993265218783926,0.8778054503653906,0.002701565770692717,-0.111784,-31.993092
11.185,2.0,1.0,1.0,34.7,33.1,33.1,1.6,4.0,2.565,0.44252080085913875,-0.02537708907389846,0.8822914246320032,0.0024614757681828115,-0.113239,-31.870496
11.185,2.0,1.0,1.0,34.7,33.1,33.1,1.6,4.0,2.5675,0.4332162161007601,-0.02576492936601021,0.8867097671197965,0.002212051998946145,-0.11472,-31.747526
11.185,2.0,1.0,1.0,34.7,33.1,33.1,1.6,4.0,2.57,0.4238008509045384,-0.026156749286258184,0.8910583238230809,0.0019530180062518295,-0.11623,-31.62418
11.185,2.0,1.0,1.0,34.7,33.1,33.1,1.6,4.0,2.5725,0.4142739505077831,-0.02655250657902415,0.8953348846204261,0.0016840899307004875,-0.117767,-31.500454
11.185,2.0,1.0,1.0,34.7,33.1,33.1,1.6,4.0,2.575,0.40463477639238954,-0.02695215322328092,0.8995371820645255,0.0014049763586324478,-0.119334,-31.376345
11.185,2.0,1.0,1.0,34.7,33.1,33.1,1.6,4.0,2.5775,0.39488260774761996,-0.027355635098634146,0.903662890163126,0.0011153781713540397,-0.12093,-31.25185
11.185,2.0,1.0,1.0,34.7,33.1,33.1,1.6,4.0,2.58,0.3850167430046234,-0.027762891635434273,0.9077096231523512,0.0008149883955768906,-0.122557,-31.126965
11.185,2.0,1.0,1.0,34.7,33.1,33.1,1.6,4.0,2.5825,0.37503650144544876,-0.028173855448319053,0.9116749342638938,0.0005034920554987825,-0.124215,-31.001688
11.185,2.0,1.0,1.0,34.7,33.1,33.1,1.6,4.0,2.585,0.3649412248894454,-0.02858845195252834,0.9155563144876583,0.0001805660269922155,-0.125905,-30.876014
11.185,2.0,1.0,1.0,34.7,33.1,33.1,1.6,4.0,2.5875,0.3547302794599691,-0.029006598962317054,0.9193511913316097,-0.0001541211055946072,-0.127628,-30.749941
11.185,2.0,1.0,1.0,34.7,33.1,33.1,1.6,4.0,2.59,0.344403057434416,-0.02942820627077449,0.9230569275807217,-0.000500909189478517,-0.129384,-30.623466
11.185,2.0,1.0,1.0,34.7,33.1,33.1,1.6,4.0,2.5925,0.33395897918064055,-0.029853175210343464,0.9266708200570799,-0.0008601466397338736,-0.131175,-30.496586
11.185,2.0,1.0,1.0,34.7,33.1,33.1,1.6,4.0,2.595,0.3233974951829338,-0.030281398193315483,0.9301900983833862,-0.001232190571200075,-0.133001,-30.369296
11.185,2.0,1.0,1.0,34.7,33.1,33.1,1.6,4.0,2.5975,0.3127180881607392,-0.030712758231565843,0.9336119237522742,-0.0016174069253190946,-0.134863,-30.241596
11.185,2.0,1.0,1.0,34.7,33.1,33.1,1.6,4.0,2.6,0.3019202752833834,-0.031147128434776787,0.9369333877040363,-0.002016170591165911,-0.136762,-30.113481
11.185,2.0,1.0,1.0,34.7,33.1,33.1,1.6,4.0,2.6025,0.2910036104841721,-0.03158437148638511,0.9401515109155989,-0.002428865519878251,-0.138699,-29.984948
11.185,2.0,1.0,1.0,34.7,33.1,33.1,1.6,4.0,2.605,0.2799676868772001,-0.03202433909647944,0.9432632420037594,-0.00285588483163728,-0.140675,-29.855994
11.185,2.0,1.0,1.0,34.7,33.1,33.1,1.6,4.0,2.6075,0.2688121392803184,-0.03246687143086174,0.9462654563459424,-0.0032976309142872303,-0.14269,-29.726618
11.185,2.0,1.0,1.0,34.7,33.1,33.1,1.6,4.0,2.61,0.2575366468477496,-0.03291179651547978,0.9491549549219767,-0.0037545155126187646,-0.144746,-29.596815
11.185,2.0,1.0,1.0,34.7,33.1,33.1,1.6,4.0,2.6125,0.24614093581581967,-0.033358929615430216,0.9519284631806378,-0.004226959807274487,-0.146844,-29.466582
11.185,2.0,1.0,1.0,34.7,33.1,33.1,1.6,4.0,2.615,0.23462478236538198,-0.03380807258772872,0.9545826299349655,-0.004715394482162856,-0.148985,-29.335918
11.185,2.0,1.0,1.0,34.7,33.1,33.1,1.6,4.0,2.6175,0.22298801560446535,-0.034259013207038995,0.9571140262906375,-0.00522025977919327,-0.151169,-29.204819
11.185,2.0,1.0,1.0,34.7,33.1,33.1,1.6,4.0,2.62,0.21123052067474385,-0.034711524463555646,0.9595191446119955,-0.005742005539067529,-0.153398,-29.073283
11.185,2.0,1.0,1.0,34.7,33.1,33.1,1.6,4.0,2.6225,0.19935224198536697,-0.035165363832236944,0.9617943975305788,-0.006281091226782357,-0.155673,-28.941306
11.185,2.0,1.0,1.0,34.7,33.1,33.1,1.6,4.0,2.625,0.187353186577756,-0.0356202725125903,0.963936117001381,-0.00683798594041086,-0.157995,-28.808887
11.185,2.0,1.0,1.0,34.7,33.1,33.1,1.6,4.0,2.6275,0.17523342762487418,-0.03607597463822379,0.9659405534123545,-0.0074131684016459105,-0.160366,-28.676023
11.185,2.0,1.0,1.0,34.7,33.1,33.1,1.6,4.0,2.63,0.16299310806850084,-0.03653217645538919,0.967803874753038,-0.008007126926493609,-0.162785,-28.542711
11.185,2.0,1.0,1.0,34.7,33.1,33.1,1.6,4.0,2.6325,0.15063244439795875,-0.03698856546975989,0.9695221658485392,-0.008620359374411175,-0.165256,-28.408948
11.185,2.0,1.0,1.0,34.7,33.1,33.1,1.6,4.0,2.635,0.13815173057369917,-0.03744480956070918,0.9710914276654846,-0.009253373074084506,-0.167778,-28.274733
11.185,2.0,1.0,1.0,34.7,33.1,33.1,1.6,4.0,2.6375,0.1255513420990591,-0.03790055606238007,0.9725075766969313,-0.009906684723937324,-0.170353,-28.140063
11.185,2.0,1.0,1.0,34.7,33.1,33.1,1.6,4.0,2.64,0.11283174024338324,-0.038355430810870804,0.9737664444336407,-0.010580820265360445,-0.172983,-28.004936
11.185,2.0,1.0,1.0,34.7,33.1,33.1,1.6,4.0,2.6425,0.09999347641962704,-0.03880903715689618,0.9748637769295306,-0.011276314726537565,-0.175668,-27.869349
11.185,2.0,1.0,1.0,34.7,33.1,33.1,1.6,4.0,2.645,0.08703719671937156,-0.039260954943328444,0.9757952344695552,-0.0119937120346347,-0.178411,-27.733301
11.185,2.0,1.0,1.0,34.7,33.1,33.1,1.6,4.0,2.6475,0.07396364660803664,-0.039710739447071076,0.9765563913486942,-0.012733564794003123,-0.181212,-27.596788
11.185,2.0,1.0,1.0,34.7,33.1,33.1,1.6,4.0,2.65,0.06077367578286438,-0.040157920284775425,0.9771427357712094,-0.01349643402793089,-0.184073,-27.45981
11.185,2.0,1.0,1.0,34.7,33.1,33.1,1.6,4.0,2.6525,0.047468243196071874,-0.040602000281971314,0.9775496698797675,-0.01428288888135362,-0.186995,-27.322363
11.185,2.0,1.0,1.0,34.7,33.1,33.1,1.6,4.0,2.655,0.03404842224524782,-0.041042454305257076,0.9777725099245504,-0.015093506281818138,-0.18998,-27.184447
11.185,2.0,1.0,1.0,34.7,33.1,33.1,1.6,4.0,2.6575,0.020515406132862155,-0.04147872805727031,0.9778064865829053,-0.01592887055586453,-0.19303,-27.046058
11.185,2.0,1.0,1.0,34.7,33.1,33.1,1.6,4.0,2.66,0.0068705133963818665,-0.04191023683424926,0.9776467454406463,-0.01678957299786916,-0.196146,-26.907196
11.185,2.0,1.0,1.0,34.7,33.1,33.1,1.6,4.0,2.6625,-0.0068848063897963725,-0.04233636424608996,0.9772883476466011,-0.017676211388264154,-0.19933,-26.767858
11.185,2.0,1.0,1.0,34.7,33.1,33.1,1.6,4.0,2.665,-0.02074896673986213,-0.0427564608989107,0.9767262707524923,-0.018589389457923964,-0.202583,-26.628043
11.185,2.0,1.0,1.0,34.7,33.1,33.1,1.6,4.0,2.6675,-0.03472023820915106,-0.04316984304024694,0.9759554097507998,-0.01952971629538055,-0.205907,-26.487749
11.185,2.0,1.0,1.0,34.7,33.1,33.1,1.6,4.0,2.67,-0.04879674217388662,-0.043575791167127155,0.9749705783237573,-0.020497805693407006,-0.209305,-26.346975
11.185,2.0,1.0,1.0,34.7,33.1,33.1,1.6,4.0,2.6725,-0.06297644443871524,-0.04397354859741204,0.9737665103171542,-0.021494275431384345,-0.212776,-26.205718
11.185,2.0,1.0,1.0,34.7,33.1,33.1,1.6,4.0,2.675,-0.07725714867320929,-0.0443623200049236,0.9723378614531363,-0.022519746489744037,-0.216325,-26.063977
11.185,2.0,1.0,1.0,34.7,33.1,33.1,1.6,4.0,2.6775,-0.09163648967912967,-0.04474126991904624,0.9706792112967491,-0.02357484219266294,-0.219952,-25.921751
11.185,2.0,1.0,1.0,34.7,33.1,33.1,1.6,4.0,2.68,-0.10611192649087858,-0.04510952118964542,0.9687850654914305,-0.024660187275073422,-0.223659,-25.779039
11.185,2.0,1.0,1.0,34.7,33.1,33.1,1.6,4.0,2.6825,-0.1206807353122879,-0.04546615341832444,0.9666498582791918,-0.02577640686994068,-0.227449,-25.635838
11.185,2.0,1.0,1.0,34.7,33.1,33.1,1.6,4.0,2.685,-0.135340002293653,-0.045810201357225105,0.964267955321724,-0.026924125411661136,-0.231323,-25.492148
11.185,2.0,1.0,1.0,34.7,33.1,33.1,1.6,4.0,2.6875,-0.15008661615372187,-0.04614065327677219,0.961633656839106,-0.028103965451337292,-0.235284,-25.347967
11.185,2.0,1.0,1.0,34.7,33.1,33.1,1.6,4.0,2.69,-0.16491726065222878,-0.046456449303964885,0.958741201083266,-0.029316546379598938,-0.239333,-25.203295
11.185,2.0,1.0,1.0,34.7,33.1,33.1,1.6,4.0,2.6925,-0.17982840691949917,-0.0467564797330321,0.9555847681637546,-0.030562483052566584,-0.243474,-25.058129
11.185,2.0,1.0,1.0,34.7,33.1,33.1,1.6,4.0,2.695,-0.19481630565059474,-0.04703958331048683,0.9521584842438054,-0.03184238431648056,-0.247708,-24.912468
11.185,2.0,1.0,1.0,34.7,33.1,33.1,1.6,4.0,2.6975,-0.20987697917258985,-0.04730454549684407,0.9484564261249786,-0.03315685142647556,-0.252038,-24.766312
11.185,2.0,1.0,1.0,34.7,33.1,33.1,1.6,4.0,2.7,-0.22500621339457483,-0.047550096707497595,0.9444726262390266,-0.03450647635492802,-0.256466,-24.619659
11.185,2.0,1.0,1.0,34.7,33.1,33.1,1.6,4.0,2.7025,-0.24019954965123871,-0.047774910535489046,0.9402010780658775,-0.03589183998478962,-0.260995,-24.472507
11.185,2.0,1.0,1.0,34.7,33.1,33.1,1.6,4.0,2.705,-0.25545227645200863,-0.04797760195914148,0.9356357419968658,-0.037313510183301146,-0.265627,-24.324857
11.185,2.0,1.0,1.0,34.7,33.1,33.1,1.6,4.0,2.7075,-0.27075942114909624,-0.04815672553776982,0.9307705516624353,-0.038772039751494985,-0.270364,-24.176705
11.185,2.0,1.0,1.0,34.7,33.1,33.1,1.6,4.0,2.71,-0.28611574153900887,-0.04831077359891715,0.9255994207437206,-0.04026796424491397,-0.275211,-24.028052
11.185,2.0,1.0,1.0,34.7,33.1,33.1,1.6,4.0,2.7125,-0.3015157174135893,-0.04843817442080057,0.9201162502873407,-0.04180179966102389,-0.280168,-23.878896
11.185,2.0,1.0,1.0,34.7,33.1,33.1,1.6,4.0,2.715,-0.3169535420779778,-0.04853729041387332,0.9143149365427237,-0.04337403998885648,-0.285241,-23.729235
11.185,2.0,1.0,1.0,34.7,33.1,33.1,1.6,4.0,2.7175,-0.33242311385439344,-0.04860641630562515,0.9081893793411152,-0.04498515461650692,-0.29043,-23.579068
11.185,2.0,1.0,1.0,34.7,33.1,33.1,1.6,4.0,2.72,-0.34791802759213597,-0.04864377733294016,0.9017334910351702,-0.04663558559221117,-0.29574,-23.428394
11.185,2.0,1.0,1.0,34.7,33.1,33.1,1.6,4.0,2.7225,-0.3634315662057698,-0.048647527446510554,0.8949412060176892,-0.048325744734859136,-0.301173,-23.277211
11.185,2.0,1.0,1.0,34.7,33.1,33.1,1.6,4.0,2.725,-0.37895669226492573,-0.048615747531958,0.8878064908376084,-0.050056010589935813,-0.306733,-23.125517
11.185,2.0,1.0,1.0,34.7,33.1,33.1,1.6,4.0,2.7275,-0.394486039660887,-0.048546443652438355,0.8803233549307329,-0.05182672522705774,-0.312423,-22.973311
11.185,2.0,1.0,1.0,34.7,33.1,33.1,1.6,4.0,2.73,-0.41001190537652,-0.04843754531759354,0.8724858619820898,-0.05363819087544066,-0.318247,-22.820591
11.185,2.0,1.0,1.0,34.7,33.1,33.1,1.6,4.0,2.7325,-0.4255262413878469,-0.048286903783758224,0.8642881419358702,-0.05549066639384299,-0.324209,-22.667354
11.185,2.0,1.0,1.0,34.7,33.1,33.1,1.6,4.0,2.735,-0.44102064672699715,-0.04809229039032697,0.8557244036680391,-0.05738436357172744,-0.330311,-22.513598
11.185,2.0,1.0,1.0,34.7,33.1,33.1,1.6,4.0,2.7375,-0.45648635973788904,-0.047851394937123766,0.8467889483355262,-0.05931944325860736,-0.336558,-22.359321
11.185,2.0,1.0,1.0,34.7,33.1,33.1,1.6,4.0,2.74,-0.4719142505573575,-0.047561824107490935,0.8374761834147713,-0.06129601131875889,-0.342954,-22.20452
11.185,2.0,1.0,1.0,34.7,33.1,33.1,1.6,4.0,2.7425,-0.48729481385597573,-0.04722109994161387,0.827780637440905,-0.06331411440870123,-0.349503,-22.049192
11.185,2.0,1.0,1.0,34.7,33.1,33.1,1.6,4.0,2.745,-0.5026181618740276,-0.046826658364313566,0.8176969754574113,-0.0653737355750493,-0.356209,-21.893333
11.185,2.0,1.0,1.0,34.7,33.1,33.1,1.6,4.0,2.7475,-0.5178740177893602,-0.046375847771165025,0.8072200151843988,-0.06747478967053361,-0.363077,-21.736941
11.185,2.0,1.0,1.0,34.7,33.1,33.1,1.6,4.0,2.75,-0.533051709454914,-0.0458659276763188,0.79634474391184,-0.0696171185861359,-0.370111,-21.58001
11.185,2.0,1.0,1.0,34.7,33.1,33.1,1.6,4.0,2.7525,-0.548140163544659,-0.04529406742481213,0.7850663361221165,-0.07180048629740558,-0.377317,-21.422538
11.185,2.0,1.0,1.0,34.7,33.1,33.1,1.6,4.0,2.755,-0.5631279001473855,-0.04465734497144076,0.7733801718442687,-0.07402457372307342,-0.384698,-21.264518
11.185,2.0,1.0,1.0,34.7,33.1,33.1,1.6,4.0,2.7575,-0.5780030278484015,-0.04395274572740914,0.7612818557400162,-0.07628897339406869,-0.392261,-21.105946
11.185,2.0,1.0,1.0,34.7,33.1,33.1,1.6,4.0,2.76,-0.5927532393394205,-0.04317716147498211,0.748767236919457,-0.07859318393092105,-0.40001,-20.946815
11.185,2.0,1.0,1.0,34.7,33.1,33.1,1.6,4.0,2.7625,-0.6073658075970009,-0.04232738934920361,0.7358324294819125,-0.08093660432730845,-0.407951,-20.78712
11.185,2.0,1.0,1.0,34.7,33.1,33.1,1.6,4.0,2.765,-0.6218275826696259,-0.04140013088442687,0.7224738337750037,-0.08331852803712922,-0.416091,-20.626854
11.185,2.0,1.0,1.0,34.7,33.1,33.1,1.6,4.0,2.7675,-0.6361249891128916,-0.04039199112189573,0.7086881583626,-0.08573813686193205,-0.424435,-20.466008
11.185,2.0,1.0,1.0,34.7,33.1,33.1,1.6,4.0,2.77,-0.6502440241113364,-0.039299477772925244,0.6944724426898404,-0.08819449463478278,-0.43299,-20.304575
11.185,2.0,1.0,1.0,34.7,33.1,33.1,1.6,4.0,2.7725,-0.6641702563240545,-0.038119000430338584,0.6798240804310326,-0.09068654069564361,-0.441762,-20.142545
11.185,2.0,1.0,1.0,34.7,33.1,33.1,1.6,4.0,2.775,-0.6778888254894284,-0.036846869818717314,0.664740843504004,-0.09321308315205157,-0.450759,-19.979908
11.185,2.0,1.0,1.0,34.7,33.1,33.1,1.6,4.0,2.7775,-0.6913844428220434,-0.03547929707171006,0.6492209067322887,-0.09577279191725611,-0.459987,-19.816654
11.185,2.0,1.0,1.0,34.7,33.1,33.1,1.6,4.0,2.78,-0.7046413922320767,-0.03401239302210803,0.6332628731346864,-0.0983641915159597,-0.469455,-19.65277
11.185,2.0,1.0,1.0,34.7,33.1,33.1,1.6,4.0,2.7825,-0.7176435323940862,-0.03244216748764443,0.6168657998201333,-0.10098565364532235,-0.479171,-19.488245
11.185,2.0,1.0,1.0,34.7,33.1,33.1,1.6,4.0,2.785,-0.7303742996883152,-0.030764528532484216,0.6000292244645548,-0.10363538947591529,-0.489143,-19.323062
11.185,2.0,1.0,1.0,34.7,33.1,33.1,1.6,4.0,2.7875,-0.7428167120330512,-0.028975281681178154,0.5827531923457132,-0.10631144167369179,-0.499381,-19.157209
11.185,2.0,1.0,1.0,34.7,33.1,33.1,1.6,4.0,2.79,-0.7549533736215577,-0.027070129058425187,0.5650382839119177,-0.10901167611978543,-0.509894,-18.990667
11.185,2.0,1.0,1.0,34.7,33.1,33.1,1.6,4.0,2.7925,-0.7667664805712953,-0.025044668424373022,0.5468856428609973,-0.11173377329986184,-0.520692,-18.823419
11.185,2.0,1.0,1.0,34.7,33.1,33.1,1.6,4.0,2.795,-0.7782378274868277,-0.022894392071361073,0.5282970047074762,-0.11447521932881775,-0.531785,-18.655446
11.185,2.0,1.0,1.0,34.7,33.1,33.1,1.6,4.0,2.7975,-0.7893488149306778,-0.020614685544044525,0.5092747258183603,-0.11723329656962733,-0.543186,-18.486727
11.185,2.0,1.0,1.0,34.7,33.1,33.1,1.6,4.0,2.8,-0.8000804577888085,-0.018200826140704184,0.4898218129015332,-0.12000507379704171,-0.554906,-18.317239
11.185,2.0,1.0,1.0,34.7,33.1,33.1,1.6,4.0,2.8025,-0.8104133945090207,-0.01564798114934285,0.46994195293601804,-0.12278739584740894,-0.566958,-18.146958
11.185,2.0,1.0,1.0,34.7,33.1,33.1,1.6,4.0,2.805,-0.8203278971816442,-0.012951205767903498,0.4496395435399041,-0.12557687268498294,-0.579356,-17.975857
11.185,2.0,1.0,1.0,34.7,33.1,33.1,1.6,4.0,2.8075,-0.8298038824224411,-0.010105440653696791,0.4289197237804788,-0.1283698678025168,-0.592114,-17.803908
11.185,2.0,1.0,1.0,34.7,33.1,33.1,1.6,4.0,2.81,-0.8388209230076837,-0.00710550904297123,0.4077884054417444,-0.13116248585946702,-0.605247,-17.63108
11.185,2.0,1.0,1.0,34.7,33.1,33.1,1.6,4.0,2.8125,-0.8473582602009532,-0.003946113377610658,0.386252304777896,-0.13395055944450748,-0.618773,-17.457342
11.185,2.0,1.0,1.0,34.7,33.1,33.1,1.6,4.0,2.815,-0.8553948167006288,-0.0006218313722884395,0.36431897479715875,-0.13672963483001602,-0.632709,-17.282657
11.185,2.0,1.0,1.0,34.7,33.1,33.1,1.6,4.0,2.8175,-0.8629092101262323,0.0028728885477606993,0.3419968381399761,-0.13949495656437885,-0.647073,-17.106988
11.185,2.0,1.0,1.0,34.7,33.1,33.1,1.6,4.0,2.82,-0.869879766951099,0.006543732510721071,0.3192952206382868,-0.14224145072303263,-0.661888,-16.930295
11.185,2.0,1.0,1.0,34.7,33.1,33.1,1.6,4.0,2.8225,-0.8762845367784383,0.010396527237946051,0.2962243856698448,-0.14496370661067096,-0.677173,-16.752534
11.185,2.0,1.0,1.0,34.7,33.1,33.1,1.6,4.0,2.825,-0.8821013068480917,0.01443724693398596,0.2727955694535267,-0.14765595667452955,-0.692954,-16.573658
11.185,2.0,1.0,1.0,34.7,33.1,33.1,1.6,4.0,2.8275,-0.8873076166524888,0.018672021100392427,0.24902101746867158,-0.15031205435154452,-0.709254,-16.393619
