1,w,sub_t,h,l1,l2,l3,g1,g2,Freq,S11_re,S21_re,S11_img,S21_img,S11_dB,S21_dB
11.185,2.0,1.0,1.0,33.4,34.0,34.0,1.6,2.9,2.5,0.853692120935304,-0.0116019337494174,0.506498924413313,0.0113411397860796,-0.064177,-35.796707
11.185,2.0,1.0,1.0,33.4,34.0,34.0,1.6,2.9,2.5025,0.8501569973636676,-0.011859810423247037,0.5122531483077108,0.01141942201945628,-0.064887,-35.669373
11.185,2.0,1.0,1.0,33.4,34.0,34.0,1.6,2.9,2.505,0.8465650423268839,-0.01212310797136118,0.5180091188915181,0.01149721465334527,-0.065612,-35.541535
11.185,2.0,1.0,1.0,33.4,34.0,34.0,1.6,2.9,2.5075,0.8429155878971654,-0.012391959001146473,0.5237666003443932,0.011574470045886166,-0.066351,-35.413183
11.185,2.0,1.0,1.0,33.4,34.0,34.0,1.6,2.9,2.51,0.8392079529522758,-0.01266650011211278,0.5295253481900554,0.011651138165042312,-0.067106,-35.284307
11.185,2.0,1.0,1.0,33.4,34.0,34.0,1.6,2.9,2.5125,0.8354414428608098,-0.012946872038108589,0.5352851089568008,0.0117271664669822,-0.067876,-35.154896
11.185,2.0,1.0,1.0,33.4,34.0,34.0,1.6,2.9,2.515,0.8316153491583649,-0.013233219795349973,0.5410456198237282,0.011802499767745844,-0.068661,-35.024938
11.185,2.0,1.0,1.0,33.4,34.0,34.0,1.6,2.9,2.5175,0.8277289492142914,-0.01352569283652792,0.546806608251971,0.011877080107786864,-0.069463,-34.894424
11.185,2.0,1.0,1.0,33.4,34.0,34.0,1.6,2.9,2.52,0.823781505888676,-0.013824445211274182,0.5525677916002213,0.011950846608954615,-0.070282,-34.763341
11.185,2.0,1.0,1.0,33.4,34.0,34.0,1.6,2.9,2.5225,0.8197722671792292,-0.014129635733277735,0.5583288767237482,0.012023735323449839,-0.071119,-34.631679
11.185,2.0,1.0,1.0,33.4,34.0,34.0,1.6,2.9,2.525,0.8157004658576977,-0.014441428154360373,0.5640895595561172,0.0120956790742565,-0.071973,-34.499426
11.185,2.0,1.0,1.0,33.4,34.0,34.0,1.6,2.9,2.5275,0.811565319095429,-0.014759991345834517,0.5698495246727281,0.012166607286518069,-0.072845,-34.36657
11.185,2.0,1.0,1.0,33.4,34.0,34.0,1.6,2.9,2.53,0.8073660280777004,-0.015085499487481766,0.5756084448352643,0.012236445809289802,-0.073736,-34.233099
11.185,2.0,1.0,1.0,33.4,34.0,34.0,1.6,2.9,2.5325,0.8031017776063979,-0.015418132264509317,0.5813659805160791,0.012305116727058838,-0.074647,-34.099
11.185,2.0,1.0,1.0,33.4,34.0,34.0,1.6,2.9,2.535,0.7987717356906123,-0.015758075072858604,0.5871217794014968,0.012372538160382227,-0.075577,-33.964263
11.185,2.0,1.0,1.0,33.4,34.0,34.0,1.6,2.9,2.5375,0.7943750531247193,-0.016105519233258182,0.5928754758729303,0.012438624054946145,-0.076528,-33.828873
11.185,2.0,1.0,1.0,33.4,34.0,34.0,1.6,2.9,2.54,0.7899108630534681,-0.016460662214434842,0.59862669046467,0.012503283958301172,-0.077501,-33.692818
11.185,2.0,1.0,1.0,33.4,34.0,34.0,1.6,2.9,2.5425,0.7853782805235968,-0.016823707865916082,0.6043750292971132,0.012566422783474859,-0.078495,-33.556086
11.185,2.0,1.0,1.0,33.4,34.0,34.0,1.6,2.9,2.545,0.7807764020214674,-0.017194866660879292,0.6101200834841355,0.012627940558605463,-0.079512,-33.418661
11.185,2.0,1.0,1.0,33.4,34.0,34.0,1.6,2.9,2.5475,0.7761043049962012,-0.01757435594952591,0.6158614285132125,0.012687732161679009,-0.080552,-33.280532
11.185,2.0,1.0,1.0,33.4,34.0,34.0,1.6,2.9,2.55,0.7713610473677486,-0.017962400223483575,0.6215986235968431,0.012745687039385119,-0.081616,-33.141684
11.185,2.0,1.0,1.0,33.4,34.0,34.0,1.6,2.9,2.5525,0.7665456670193393,-0.01835923139176235,0.6273312109936835,0.012801688909034303,-0.082705,-33.002103
11.185,2.0,1.0,1.0,33.4,34.0,34.0,1.6,2.9,2.555,0.7616571812736991,-0.018765089068820604,0.6330587152977558,0.012855615442402284,-0.083819,-32.861774
11.185,2.0,1.0,1.0,33.4,34.0,34.0,1.6,2.9,2.5575,0.756694586352412,-0.019180220875321077,0.6387806426939495,0.012907337930281542,-0.08496,-32.720683
11.185,2.0,1.0,1.0,33.4,34.0,34.0,1.6,2.9,2.56,0.7516568568177844,-0.01960488275218773,0.6444964801779269,0.012956720926430179,-0.086128,-32.578815
11.185,2.0,1.0,1.0,33.4,34.0,34.0,1.6,2.9,2.5625,0.7465429449965263,-0.020039339288604387,0.6502056947384324,0.013003621869507887,-0.087324,-32.436155
11.185,2.0,1.0,1.0,33.4,34.0,34.0,1.6,2.9,2.565,0.741351780384536,-0.02048386406462757,0.6559077324998541,0.013047890681483428,-0.088548,-32.292686
11.185,2.0,1.0,1.0,33.4,34.0,34.0,1.6,2.9,2.5675,0.7360822690320706,-0.02093874000911808,0.6616020178227577,0.013089369340880697,-0.089803,-32.148393
11.185,2.0,1.0,1.0,33.4,34.0,34.0,1.6,2.9,2.57,0.7307332929085122,-0.02140425977373175,0.6672879523599409,0.013127891429105372,-0.091089,-32.00326
11.185,2.0,1.0,1.0,33.4,34.0,34.0,1.6,2.9,2.5725,0.7253037092459387,-0.021880726123744504,0.6729649140654107,0.013163281647957359,-0.092407,-31.85727
11.185,2.0,1.0,1.0,33.4,34.0,34.0,1.6,2.9,2.575,0.7197923498606676,-0.022368452346523862,0.678632256153481,0.013195355306286538,-0.093758,-31.710405
11.185,2.0,1.0,1.0,33.4,34.0,34.0,1.6,2.9,2.5775,0.7141980204519016,-0.022867762678498164,0.6842893060050137,0.013223917773587444,-0.095143,-31.562649
11.185,2.0,1.0,1.0,33.4,34.0,34.0,1.6,2.9,2.58,0.7085194998765733,-0.023378992751513745,0.6899353640175984,0.013248763898154867,-0.096564,-31.413984
11.185,2.0,1.0,1.0,33.4,34.0,34.0,1.6,2.9,2.5825,0.7027555393994539,-0.023902490059512498,0.6955697023962553,0.013269677387230793,-0.098021,-31.264391
11.185,2.0,1.0,1.0,33.4,34.0,34.0,1.6,2.9,2.585,0.696904861917549,-0.024438614446502967,0.7011915638809801,0.01328643014636717,-0.099517,-31.113852
11.185,2.0,1.0,1.0,33.4,34.0,34.0,1.6,2.9,2.5875,0.6909661611577669,-0.024987738616843357,0.7068001604072034,0.013298781575002621,-0.101051,-30.962348
11.185,2.0,1.0,1.0,33.4,34.0,34.0,1.6,2.9,2.59,0.6849381008468185,-0.025550248668896155,0.7123946716949194,0.013306477815006452,-0.102627,-30.80986
11.185,2.0,1.0,1.0,33.4,34.0,34.0,1.6,2.9,2.5925,0.6788193138522524,-0.026126544653163324,0.7179742437619626,0.01330925094867481,-0.104244,-30.656367
11.185,2.0,1.0,1.0,33.4,34.0,34.0,1.6,2.9,2.595,0.6726084012935166,-0.026717041156050628,0.7235379873565206,0.013306818142371652,-0.105906,-30.501848
11.185,2.0,1.0,1.0,33.4,34.0,34.0,1.6,2.9,2.5975,0.6663039316218686,-0.02732216791046151,0.7290849763036534,0.013298880731688834,-0.107612,-30.346284
11.185,2.0,1.0,1.0,33.4,34.0,34.0,1.6,2.9,2.6,0.6599044396679528,-0.027942370434461263,0.734614245760148,0.013285123243650625,-0.109366,-30.189653
11.185,2.0,1.0,1.0,33.4,34.0,34.0,1.6,2.9,2.6025,0.6534084256558117,-0.02857811069929926,0.7401247903716052,0.013265212351107085,-0.111169,-30.031932
11.185,2.0,1.0,1.0,33.4,34.0,34.0,1.6,2.9,2.605,0.6468143541820679,-0.029229867828120253,0.7456155623251991,0.013238795754044078,-0.113022,-29.8731
11.185,2.0,1.0,1.0,33.4,34.0,34.0,1.6,2.9,2.6075,0.6401206531589855,-0.029898138826736673,0.7510854692910036,0.013205500982081989,-0.114928,-29.713133
11.185,2.0,1.0,1.0,33.4,34.0,34.0,1.6,2.9,2.61,0.6333257127201054,-0.03058343934787245,0.7565333722442152,0.013164934111934787,-0.116889,-29.552007
11.185,2.0,1.0,1.0,33.4,34.0,34.0,1.6,2.9,2.6125,0.626427884087105,-0.03128630449032435,0.7619580831600101,0.013116678393054549,-0.118907,-29.389699
11.185,2.0,1.0,1.0,33.4,34.0,34.0,1.6,2.9,2.615,0.6194254783965445,-0.03200728963451707,0.767358362572054,0.01306029277408451,-0.120984,-29.226183
11.185,2.0,1.0,1.0,33.4,34.0,34.0,1.6,2.9,2.6175,0.6123167654851381,-0.032746971315949565,0.7727329169849739,0.012995310322085722,-0.123123,-29.061435
11.185,2.0,1.0,1.0,33.4,34.0,34.0,1.6,2.9,2.62,0.6050999726322035,-0.03350594813804875,0.7780803961302792,0.012921236525777032,-0.125326,-28.895426
11.185,2.0,1.0,1.0,33.4,34.0,34.0,1.6,2.9,2.6225,0.5977732832579432,-0.03428484172594974,0.7833993900543376,0.012837547473232371,-0.127595,-28.728132
11.185,2.0,1.0,1.0,33.4,34.0,34.0,1.6,2.9,2.625,0.590334835576268,-0.0350842977227138,0.788688426026022,0.0127436878936033,-0.129934,-28.559524
11.185,2.0,1.0,1.0,33.4,34.0,34.0,1.6,2.9,2.6275,0.582782721200882,-0.03590498682947558,0.7939459652506076,0.012639069051470811,-0.132346,-28.389573
11.185,2.0,1.0,1.0,33.4,34.0,34.0,1.6,2.9,2.63,0.57511498370345,-0.03674760589096578,0.7991703993753002,0.012523066481367506,-0.134833,-28.218252
11.185,2.0,1.0,1.0,33.4,34.0,34.0,1.6,2.9,2.6325,0.5673296171227405,-0.03761287902779329,0.8043600467705039,0.012395017548840473,-0.137399,-28.045528
11.185,2.0,1.0,1.0,33.4,34.0,34.0,1.6,2.9,2.635,0.559424564423774,-0.03850155881677759,0.8095131485695111,0.012254218823133043,-0.140047,-27.871373
11.185,2.0,1.0,1.0,33.4,34.0,34.0,1.6,2.9,2.6375,0.5513977159061526,-0.0394144275204954,0.8146278644477494,0.012099923245136519,-0.142781,-27.695753
11.185,2.0,1.0,1.0,33.4,34.0,34.0,1.6,2.9,2.64,0.543246907560954,-0.040352298367043966,0.8197022681210033,0.011931337072685897,-0.145605,-27.518636
11.185,2.0,1.0,1.0,33.4,34.0,34.0,1.6,2.9,2.6425,0.5349699193758305,-0.04131601688080387,0.8247343425401182,0.01174761658353102,-0.148523,-27.33999
11.185,2.0,1.0,1.0,33.4,34.0,34.0,1.6,2.9,2.645,0.5265644735882604,-0.04230646226471777,0.8297219747576355,0.011547864514383568,-0.151539,-27.159778
11.185,2.0,1.0,1.0,33.4,34.0,34.0,1.6,2.9,2.6475,0.5180282328872898,-0.043324548834259194,0.8346629504394621,0.011331126212304294,-0.154657,-26.977966
11.185,2.0,1.0,1.0,33.4,34.0,34.0,1.6,2.9,2.65,0.5093587985645622,-0.04437122750284719,0.8395549479921733,0.011096385472325224,-0.157883,-26.794517
11.185,2.0,1.0,1.0,33.4,34.0,34.0,1.6,2.9,2.6525,0.500553708616037,-0.04544748731793876,0.8443955322736721,0.010842560032574305,-0.161222,-26.609393
11.185,2.0,1.0,1.0,33.4,34.0,34.0,1.6,2.9,2.655,0.49161043579644764,-0.04655435704640426,0.8491821478518518,0.010568496695252982,-0.164679,-26.422554
11.185,2.0,1.0,1.0,33.4,34.0,34.0,1.6,2.9,2.6575,0.48252638562942696,-0.04769290680701279,0.8539121117724142,0.010272966038577018,-0.16826,-26.233962
11.185,2.0,1.0,1.0,33.4,34.0,34.0,1.6,2.9,2.66,0.4732988943772032,-0.04886424974692418,0.858582605793164,0.009954656681187075,-0.171971,-26.043574
11.185,2.0,1.0,1.0,33.4,34.0,34.0,1.6,2.9,2.6625,0.4639252269750072,-0.05006954375795183,0.8631906680378261,0.0096121690565307,-0.175819,-25.851347
11.185,2.0,1.0,1.0,33.4,34.0,34.0,1.6,2.9,2.665,0.45440257493673786,-0.05130999322700497,0.8677331840177152,0.009244008650250652,-0.17981,-25.657238
11.185,2.0,1.0,1.0,33.4,34.0,34.0,1.6,2.9,2.6675,0.44472805424019696,-0.05258685081348215,0.8722068769642773,0.00884857864864679,-0.183953,-25.461202
11.185,2.0,1.0,1.0,33.4,34.0,34.0,1.6,2.9,2.67,0.4348987032022352,-0.05390141924443209,0.876608297409707,0.008424171940733381,-0.188254,-25.26319
11.185,2.0,1.0,1.0,33.4,34.0,34.0,1.6,2.9,2.6725,0.42491148035662274,-0.05525505311595451,0.8809338119462665,0.007968962410229678,-0.192723,-25.063154
11.185,2.0,1.0,1.0,33.4,34.0,34.0,1.6,2.9,2.675,0.4147632623503885,-0.05664916068650693,0.8851795910876872,0.007480995446918927,-0.197368,-24.861045
11.185,2.0,1.0,1.0,33.4,34.0,34.0,1.6,2.9,2.6775,0.40445084187783464,-0.05808520564443934,0.889341596147901,0.006958177599097493,-0.2022,-24.65681
11.185,2.0,1.0,1.0,33.4,34.0,34.0,1.6,2.9,2.68,0.39397092567560654,-0.05956470882807894,0.8934155650432978,0.006398265280217572,-0.207228,-24.450396
11.185,2.0,1.0,1.0,33.4,34.0,34.0,1.6,2.9,2.6825,0.38332013260712283,-0.061089249871917405,0.8973969969145735,0.005798852433187259,-0.212464,-24.241747
11.185,2.0,1.0,1.0,33.4,34.0,34.0,1.6,2.9,2.685,0.3724949918705341,-0.06266046874676826,0.9012811354529685,0.005157357045007887,-0.21792,-24.030806
11.185,2.0,1.0,1.0,33.4,34.0,34.0,1.6,2.9,2.6875,0.36149194137138474,-0.06428006715497321,0.9050629508030242,0.004471006392359804,-0.223608,-23.817513
11.185,2.0,1.0,1.0,33.4,34.0,34.0,1.6,2.9,2.69,0.3503073263094677,-0.0659498097336496,0.9087371198998914,0.0037368208852347354,-0.229543,-23.601808
11.185,2.0,1.0,1.0,33.4,34.0,34.0,1.6,2.9,2.6925,0.3389373980392434,-0.0676715250093221,0.9122980050834139,0.002951596360579216,-0.235738,-23.383627
11.185,2.0,1.0,1.0,33.4,34.0,34.0,1.6,2.9,2.695,0.32737831327505035,-0.06944710603576482,0.9157396308135286,0.0021118846609690864,-0.242211,-23.162903
11.185,2.0,1.0,1.0,33.4,34.0,34.0,1.6,2.9,2.6975,0.3156261337263149,-0.07127851063315142,0.9190556582917743,0.0012139723143489661,-0.248978,-22.939568
11.185,2.0,1.0,1.0,33.4,34.0,34.0,1.6,2.9,2.7,0.3036768262648078,-0.07316776113019485,0.9222393577715493,0.0002538571096207884,-0.256057,-22.713552
11.185,2.0,1.0,1.0,33.4,34.0,34.0,1.6,2.9,2.7025,0.2915262637459585,-0.07511694349137474,0.9252835783150197,-0.0007727776609340122,-0.26347,-22.484782
11.185,2.0,1.0,1.0,33.4,34.0,34.0,1.6,2.9,2.705,0.2791702266301498,-0.07712820568791345,0.9281807147269288,-0.0018705915480291915,-0.271238,-22.253182
11.185,2.0,1.0,1.0,33.4,34.0,34.0,1.6,2.9,2.7075,0.2666044055784443,-0.07920375514315098,0.9309226713646255,-0.003044618165942871,-0.279384,-22.018672
11.185,2.0,1.0,1.0,33.4,34.0,34.0,1.6,2.9,2.71,0.2538244052313908,-0.08134585504941423,0.9335008224891574,-0.004300299605904585,-0.287935,-21.781171
11.185,2.0,1.0,1.0,33.4,34.0,34.0,1.6,2.9,2.7125,0.24082574942037244,-0.08355681931329113,0.9359059687837991,-0.005643524397984685,-0.296917,-21.540595
11.185,2.0,1.0,1.0,33.4,34.0,34.0,1.6,2.9,2.715,0.22760388811002985,-0.085839005838022,0.9381282896236499,-0.007080669418403359,-0.306362,-21.296856
11.185,2.0,1.0,1.0,33.4,34.0,34.0,1.6,2.9,2.7175,0.2141542064290024,-0.08819480779387266,0.9401572906324238,-0.008618646184951747,-0.316302,-21.049862
11.185,2.0,1.0,1.0,33.4,34.0,34.0,1.6,2.9,2.72,0.2004720362168316,-0.09062664245786187,0.941981746010077,-0.01026495203386148,-0.326774,-20.79952
11.185,2.0,1.0,1.0,33.4,34.0,34.0,1.6,2.9,2.7225,0.1865526705996402,-0.09313693712065033,0.9435896350569956,-0.012027726727268553,-0.337816,-20.54573
11.185,2.0,1.0,1.0,33.4,34.0,34.0,1.6,2.9,2.725,0.17239138220929692,-0.09572811145780184,0.944968072257039,-0.013915815101569032,-0.349473,-20.288392
11.185,2.0,1.0,1.0,33.4,34.0,34.0,1.6,2.9,2.7275,0.15798344578361412,-0.09840255564145607,0.9461032302126149,-0.01593883643354922,-0.361791,-20.027399
11.185,2.0,1.0,1.0,33.4,34.0,34.0,1.6,2.9,2.73,0.14332416603330048,-0.10116260332228257,0.9469802546502941,-0.018107261272975572,-0.374823,-19.762643
11.185,2.0,1.0,1.0,33.4,34.0,34.0,1.6,2.9,2.7325,0.1284089118401876,-0.10401049843519779,0.9475831706358451,-0.02043249656689351,-0.388625,-19.49401
11.185,2.0,1.0,1.0,33.4,34.0,34.0,1.6,2.9,2.735,0.11323315806713719,-0.10694835456919752,0.9478947790537565,-0.022926979981181296,-0.403261,-19.221382
11.185,2.0,1.0,1.0,33.4,34.0,34.0,1.6,2.9,2.7375,0.0977925365210669,-0.1099781053840086,0.9478965423201802,-0.025604284407262767,-0.418801,-18.944638
11.185,2.0,1.0,1.0,33.4,34.0,34.0,1.6,2.9,2.74,0.08208289792626852,-0.113101444244528,0.9475684582122589,-0.02847923372359654,-0.435321,-18.663652
11.185,2.0,1.0,1.0,33.4,34.0,34.0,1.6,2.9,2.7425,0.06610038714728199,-0.11631975086668153,0.946888920615213,-0.03156803095854858,-0.452907,-18.378293
11.185,2.0,1.0,1.0,33.4,34.0,34.0,1.6,2.9,2.745,0.04984153436336681,-0.11963400231138233,0.9458345659172264,-0.03488840006745703,-0.471653,-18.088427
11.185,2.0,1.0,1.0,33.4,34.0,34.0,1.6,2.9,2.7475,0.033303365456950354,-0.12304466510984818,0.9443801037300414,-0.03845974258336886,-0.491666,-17.793914
11.185,2.0,1.0,1.0,33.4,34.0,34.0,1.6,2.9,2.75,0.0164835355570396,-0.126551564633344,0.942498130592508,-0.0423033104155595,-0.513062,-17.494612
11.185,2.0,1.0,1.0,33.4,34.0,34.0,1.6,2.9,2.7525,-0.0006195094999619098,-0.13015372700920308,0.9401589253430773,-0.04644239603491249,-0.535973,-17.190374
11.185,2.0,1.0,1.0,33.4,34.0,34.0,1.6,2.9,2.755,-0.018006338036188865,-0.13384918790395142,0.9373302249498963,-0.05090254117585731,-0.560545,-16.881048
11.185,2.0,1.0,1.0,33.4,34.0,34.0,1.6,2.9,2.7575,-0.0356762967694509,-0.1376347613097438,0.9339769797983483,-0.05571176496662593,-0.586944,-16.56648
11.185,2.0,1.0,1.0,33.4,34.0,34.0,1.6,2.9,2.76,-0.053627226020170365,-0.141505760042903,0.9300610878030096,-0.0609008120257515,-0.615356,-16.246512
11.185,2.0,1.0,1.0,33.4,34.0,34.0,1.6,2.9,2.7625,-0.07185511574975942,-0.14545565794876728,0.925541107299399,-0.06650342046818329,-0.645988,-15.920986
11.185,2.0,1.0,1.0,33.4,34.0,34.0,1.6,2.9,2.765,-0.09035369021387232,-0.14947568175620746,0.9203719495699271,-0.07255660886037216,-0.679078,-15.589738
11.185,2.0,1.0,1.0,33.4,34.0,34.0,1.6,2.9,2.7675,-0.10911390654200755,-0.1535543180864697,0.9145045531894144,-0.07910097982971907,-0.714892,-15.25261
11.185,2.0,1.0,1.0,33.4,34.0,34.0,1.6,2.9,2.77,-0.12812334963760383,-0.15767671824400964,0.9078855443029956,-0.08618103610683361,-0.753735,-14.909438
11.185,2.0,1.0,1.0,33.4,34.0,34.0,1.6,2.9,2.7725,-0.1473655023865722,-0.16182398005963244,0.9004568896940542,-0.09384550203987048,-0.795953,-14.560067
11.185,2.0,1.0,1.0,33.4,34.0,34.0,1.6,2.9,2.775,-0.1668188662442584,-0.16597228219693308,0.8921555533578258,-0.10214763977598758,-0.84194,-14.204343
11.185,2.0,1.0,1.0,33.4,34.0,34.0,1.6,2.9,2.7775,-0.18645590285840463,-0.17009184199049557,0.8829131726591027,-0.11114554396765745,-0.892148,-13.842123
11.185,2.0,1.0,1.0,33.4,34.0,34.0,1.6,2.9,2.78,-0.20624176256868818,-0.1741456631494461,0.87265577753424,-0.12090239152228258,-0.947095,-13.473273
11.185,2.0,1.0,1.0,33.4,34.0,34.0,1.6,2.9,2.7825,-0.2261327606138201,-0.17808803474533783,0.8613035862642145,-0.1314866129137502,-1.007378,-13.097678
11.185,2.0,1.0,1.0,33.4,34.0,34.0,1.6,2.9,2.785,-0.24607455708612455,-0.18186273821886706,0.8487709249432998,-0.14297193807718891,-1.073686,-12.715242
11.185,2.0,1.0,1.0,33.4,34.0,34.0,1.6,2.9,2.7875,-0.26599999282373166,-0.18540091540544842,0.8349663359479922,-0.15543725187516227,-1.146813,-12.3259
11.185,2.0,1.0,1.0,33.4,34.0,34.0,1.6,2.9,2.79,-0.2858265317251056,-0.18861854899032132,0.8197929647303324,-0.16896617031390523,-1.227685,-11.929623
11.185,2.0,1.0,1.0,33.4,34.0,34.0,1.6,2.9,2.7925,-0.30545326232737846,-0.1914135092637114,0.8031493455419046,-0.18364621769902267,-1.317374,-11.526429
11.185,2.0,1.0,1.0,33.4,34.0,34.0,1.6,2.9,2.795,-0.3247574208690614,-0.19366213049088138,0.784930746699912,-0.19956744531520826,-1.417133,-11.116397
11.185,2.0,1.0,1.0,33.4,34.0,34.0,1.6,2.9,2.7975,-0.34359041888572384,-0.19521530102719908,0.7650312859474955,-0.21682028280686214,-1.528426,-10.699681
11.185,2.0,1.0,1.0,33.4,34.0,34.0,1.6,2.9,2.8,-0.3617733970765189,-0.19589408984349632,0.7433470867494502,-0.23549235383703818,-1.652965,-10.27653
11.185,2.0,1.0,1.0,33.4,34.0,34.0,1.6,2.9,2.8025,-0.3790923926766524,-0.19548499723465285,0.7197808156332678,-0.25566391919193265,-1.792762,-9.847307
11.185,2.0,1.0,1.0,33.4,34.0,34.0,1.6,2.9,2.805,-0.395293311781005,-0.193735020934511,0.6942480141482817,-0.2774015380473345,-1.950179,-9.412519
11.185,2.0,1.0,1.0,33.4,34.0,34.0,1.6,2.9,2.8075,-0.4100770557923212,-0.19034688527729207,0.6666857059257909,-0.3007494722996304,-2.127996,-8.972845
11.185,2.0,1.0,1.0,33.4,34.0,34.0,1.6,2.9,2.81,-0.42309537891760884,-0.18497500671051603,0.6370637992904427,-0.32571831990968525,-2.329481,-8.52917
11.185,2.0,1.0,1.0,33.4,34.0,34.0,1.6,2.9,2.8125,-0.433948366128758,-0.177223078357566,0.605399784080759,-0.352270385606858,-2.558478,-8.082628
11.185,2.0,1.0,1.0,33.4,34.0,34.0,1.6,2.9,2.815,-0.4421848236959477,-0.1666445547219358,0.57177708334898,-0.3803014349341412,-2.819499,-7.634638
11.185,2.0,1.0,1.0,33.4,34.0,34.0,1.6,2.9,2.8175,-0.44730734986370463,-0.1527477875974719,0.5363670889202808,-0.4096188071431534,-3.117818,-7.186951
11.185,2.0,1.0,1.0,33.4,34.0,34.0,1.6,2.9,2.82,-0.44878433955465374,-0.1350080443294701,0.4994542867517917,-0.4399164803638883,-3.459564,-6.74169
11.185,2.0,1.0,1.0,33.4,34.0,34.0,1.6,2.9,2.8225,-0.44607153882330536,-0.11288899565571625,0.46146286341960346,-0.47074868769028805,-3.851789,-6.301383
11.185,2.0,1.0,1.0,33.4,34.0,34.0,1.6,2.9,2.825,-0.43864576431690533,-0.085876257012718,0.42298171987409716,-0.5015051333046294,-4.302474,-5.868979
11.185,2.0,1.0,1.0,33.4,34.0,34.0,1.6,2.9,2.8275,-0.42605269046933675,-0.05352485842435869,0.38478296600433703,-0.5313926904614917,-4.820407,-5.447848
11.185,2.0,1.0,1.0,33.4,34.0,34.0,1.6,2.9,2.83,-0.40796876820325034,-0.015520694291134705,0.34782703135269,-0.5594303788409536,-5.414798,-5.041738
