1,w,sub_t,h,l1,l2,l3,g1,g2,Freq,S11_re,S21_re,S11_img,S21_img,S11_dB,S21_dB
11.185,2.0,1.0,1.0,34.8,33.1,33.1,3.8,4.1,2.5,0.64858127425061,-0.00905322150499491,0.750781346481879,0.00199941429632036,-0.068591,-40.657113
11.185,2.0,1.0,1.0,34.8,33.1,33.1,3.8,4.1,2.5025,0.6421797547635073,-0.009184614411097773,0.7561611282173694,0.0019390293949179376,-0.069279,-40.549404
11.185,2.0,1.0,1.0,34.8,33.1,33.1,3.8,4.1,2.505,0.6356986172919892,-0.009317340226893902,0.7615139672793395,0.0018763425776686148,-0.069977,-40.441512
11.185,2.0,1.0,1.0,34.8,33.1,33.1,3.8,4.1,2.5075,0.6291371879457563,-0.009451399327019149,0.7668389332277609,0.001811295133641665,-0.070687,-40.333433
11.185,2.0,1.0,1.0,34.8,33.1,33.1,3.8,4.1,2.51,0.6224947903987754,-0.009586791392477199,0.7721350719158607,0.0017438269400429963,-0.071407,-40.225165
11.185,2.0,1.0,1.0,34.8,33.1,33.1,3.8,4.1,2.5125,0.6157707461641299,-0.009723515371787728,0.7774014049203514,0.0016738764317431225,-0.072139,-40.116702
11.185,2.0,1.0,1.0,34.8,33.1,33.1,3.8,4.1,2.515,0.6089643748856891,-0.00986156944042581,0.7826369289608874,0.0016013805704312087,-0.072883,-40.008043
11.185,2.0,1.0,1.0,34.8,33.1,33.1,3.8,4.1,2.5175,0.602074994647348,-0.010000950958485666,0.787840615308725,0.0015262748134118318,-0.073638,-39.899184
11.185,2.0,1.0,1.0,34.8,33.1,33.1,3.8,4.1,2.52,0.5951019223005742,-0.010141656426501142,0.7930114091846008,0.0014484930820626491,-0.074406,-39.790121
11.185,2.0,1.0,1.0,34.8,33.1,33.1,3.8,4.1,2.5225,0.58804447381108,-0.010283681439351426,0.7981482291458242,0.0013679677299737898,-0.075185,-39.680851
11.185,2.0,1.0,1.0,34.8,33.1,33.1,3.8,4.1,2.525,0.5809019646254078,-0.010427020638180037,0.8032499664626443,0.001284629510791418,-0.075978,-39.57137
11.185,2.0,1.0,1.0,34.8,33.1,33.1,3.8,4.1,2.5275,0.5736737100582816,-0.010571667660251605,0.8083154844839341,0.0011984075457904101,-0.076783,-39.461676
11.185,2.0,1.0,1.0,34.8,33.1,33.1,3.8,4.1,2.53,0.5663590257016043,-0.010717615086669104,0.813343617992269,0.0011092292912038434,-0.077601,-39.351765
11.185,2.0,1.0,1.0,34.8,33.1,33.1,3.8,4.1,2.5325,0.5589572278559932,-0.010864854387872009,0.8183331725485039,0.0010170205053390152,-0.078432,-39.241634
11.185,2.0,1.0,1.0,34.8,33.1,33.1,3.8,4.1,2.535,0.5514676339857846,-0.011013375866833382,0.823282923825975,0.0009217052155129279,-0.079277,-39.131279
11.185,2.0,1.0,1.0,34.8,33.1,33.1,3.8,4.1,2.5375,0.5438895631984851,-0.011163168599871301,0.8281916169344673,0.0008232056848429985,-0.080136,-39.020697
11.185,2.0,1.0,1.0,34.8,33.1,33.1,3.8,4.1,2.54,0.5362223367496464,-0.011314220374988096,0.8330579657341386,0.0007214423789316662,-0.081009,-38.909885
11.185,2.0,1.0,1.0,34.8,33.1,33.1,3.8,4.1,2.5425,0.5284652785741984,-0.011466517627648222,0.8378806521396022,0.0006163339324869039,-0.081896,-38.79884
11.185,2.0,1.0,1.0,34.8,33.1,33.1,3.8,4.1,2.545,0.520617715845296,-0.011620045373903137,0.8426583254144128,0.0005077971159242866,-0.082797,-38.687558
11.185,2.0,1.0,1.0,34.8,33.1,33.1,3.8,4.1,2.5475,0.5126789795617813,-0.011774787140769054,0.8473896014562277,0.00039574680199961563,-0.083713,-38.576036
11.185,2.0,1.0,1.0,34.8,33.1,33.1,3.8,4.1,2.55,0.5046484051653578,-0.01193072489376179,0.8520730620729605,0.00028009593252494475,-0.084645,-38.46427
11.185,2.0,1.0,1.0,34.8,33.1,33.1,3.8,4.1,2.5525,0.496525333188675,-0.012087838961489005,0.8567072542502722,0.00016075548522532428,-0.085592,-38.352259
11.185,2.0,1.0,1.0,34.8,33.1,33.1,3.8,4.1,2.555,0.4883091099354778,-0.012246107957199557,0.8612906894108002,3.7634440797050295e-05,-0.086554,-38.239997
11.185,2.0,1.0,1.0,34.8,33.1,33.1,3.8,4.1,2.5575,0.4799990881940604,-0.012405508697186166,0.8658218426655594,-8.936024976663211e-05,-0.087533,-38.127483
11.185,2.0,1.0,1.0,34.8,33.1,33.1,3.8,4.1,2.56,0.471594627985289,-0.012566016115935288,0.8702991520579976,-0.00022032369751216069,-0.088528,-38.014713
11.185,2.0,1.0,1.0,34.8,33.1,33.1,3.8,4.1,2.5625,0.4630950973464781,-0.012727603177916633,0.8747210178012402,-0.0003553531074492136,-0.089539,-37.901683
11.185,2.0,1.0,1.0,34.8,33.1,33.1,3.8,4.1,2.565,0.45449987315244356,-0.012890240785901615,0.8790858015091197,-0.000494547809981048,-0.090568,-37.788391
11.185,2.0,1.0,1.0,34.8,33.1,33.1,3.8,4.1,2.5675,0.44580834197511104,-0.013053897685698493,0.8833918254216181,-0.0006380092917555713,-0.091613,-37.674834
11.185,2.0,1.0,1.0,34.8,33.1,33.1,3.8,4.1,2.57,0.4370199009830503,-0.013218540367189441,0.8876373716254382,-0.0007858412258458554,-0.092677,-37.561008
11.185,2.0,1.0,1.0,34.8,33.1,33.1,3.8,4.1,2.5725,0.4281339588823803,-0.01338413296155343,0.8918206812704654,-0.0009381495011628524,-0.093758,-37.44691
11.185,2.0,1.0,1.0,34.8,33.1,33.1,3.8,4.1,2.575,0.41914993690049074,-0.01355063713455602,0.8959399537829521,-0.0010950422509967944,-0.094857,-37.332537
11.185,2.0,1.0,1.0,34.8,33.1,33.1,3.8,4.1,2.5775,0.4100672698140829,-0.01371801197578622,0.8999933460763242,-0.0012566298805774772,-0.095976,-37.217885
11.185,2.0,1.0,1.0,34.8,33.1,33.1,3.8,4.1,2.58,0.4008854070230504,-0.013886213883718319,0.9039789717605939,-0.0014230250935368415,-0.097113,-37.102953
11.185,2.0,1.0,1.0,34.8,33.1,33.1,3.8,4.1,2.5825,0.3916038136717377,-0.01405519644647553,0.9078949003514222,-0.0015943429171506739,-0.098269,-36.987736
11.185,2.0,1.0,1.0,34.8,33.1,33.1,3.8,4.1,2.585,0.38222197181917955,-0.014224910318170766,0.9117391564799796,-0.0017707007262285196,-0.099446,-36.872231
11.185,2.0,1.0,1.0,34.8,33.1,33.1,3.8,4.1,2.5875,0.3727393816599037,-0.014395303090698513,0.9155097191048228,-0.0019522182655141026,-0.100642,-36.756436
11.185,2.0,1.0,1.0,34.8,33.1,33.1,3.8,4.1,2.59,0.3631555627969558,-0.014566319160851264,0.9192045207270962,-0.002139017670450148,-0.101859,-36.640348
11.185,2.0,1.0,1.0,34.8,33.1,33.1,3.8,4.1,2.5925,0.3534700555687761,-0.014737899592632856,0.9228214466104828,-0.002331223486154275,-0.103097,-36.523962
11.185,2.0,1.0,1.0,34.8,33.1,33.1,3.8,4.1,2.595,0.34368242243163927,-0.014909981974640411,0.9263583340073908,-0.002528962684443368,-0.104357,-36.407277
11.185,2.0,1.0,1.0,34.8,33.1,33.1,3.8,4.1,2.5975,0.33379224939931534,-0.015082500272387141,0.9298129713930257,-0.0027323646787368876,-0.105638,-36.290289
11.185,2.0,1.0,1.0,34.8,33.1,33.1,3.8,4.1,2.6,0.32379914754169803,-0.01525538467543712,0.93318309770903,-0.0029415613366592366,-0.106941,-36.172995
11.185,2.0,1.0,1.0,34.8,33.1,33.1,3.8,4.1,2.6025,0.31370275454411006,-0.015428561439224449,0.936466401618571,-0.003156686990153397,-0.108267,-36.055392
11.185,2.0,1.0,1.0,34.8,33.1,33.1,3.8,4.1,2.605,0.30350273632902547,-0.01560195272142927,0.9396605207748112,-0.003377878442908723,-0.109616,-35.937478
11.185,2.0,1.0,1.0,34.8,33.1,33.1,3.8,4.1,2.6075,0.2931987887419499,-0.01577547641278449,0.9427630411048546,-0.003605274974896219,-0.110989,-35.819248
11.185,2.0,1.0,1.0,34.8,33.1,33.1,3.8,4.1,2.61,0.2827906393032115,-0.01594904596218772,0.9457714961113926,-0.0038390183437951256,-0.112385,-35.7007
11.185,2.0,1.0,1.0,34.8,33.1,33.1,3.8,4.1,2.6125,0.2722780490273918,-0.016122570195995924,0.9486833661943909,-0.004079252783085225,-0.113806,-35.58183
11.185,2.0,1.0,1.0,34.8,33.1,33.1,3.8,4.1,2.615,0.26166081431213184,-0.016295953131380592,0.9514960779953284,-0.004326124996569425,-0.115252,-35.462637
11.185,2.0,1.0,1.0,34.8,33.1,33.1,3.8,4.1,2.6175,0.2509387688980501,-0.016469093783625825,0.9542070037666107,-0.004579784149080826,-0.116724,-35.343117
11.185,2.0,1.0,1.0,34.8,33.1,33.1,3.8,4.1,2.62,0.24011178590145243,-0.0166418859672529,0.9568134607689762,-0.004840381853119124,-0.118221,-35.223266
11.185,2.0,1.0,1.0,34.8,33.1,33.1,3.8,4.1,2.6225,0.22917977992151983,-0.016814218090859683,0.9593127106998351,-0.005108072151151186,-0.119745,-35.103082
11.185,2.0,1.0,1.0,34.8,33.1,33.1,3.8,4.1,2.625,0.218142709223631,-0.0169859729455662,0.961701959155666,-0.0053830114932998,-0.121296,-34.982561
11.185,2.0,1.0,1.0,34.8,33.1,33.1,3.8,4.1,2.6275,0.20700057800039975,-0.017157027486963076,0.9639783551317489,-0.005665358710136192,-0.122875,-34.861702
11.185,2.0,1.0,1.0,34.8,33.1,33.1,3.8,4.1,2.63,0.1957534387119956,-0.017327252610463507,0.9661389905627273,-0.005955274980280928,-0.124482,-34.7405
11.185,2.0,1.0,1.0,34.8,33.1,33.1,3.8,4.1,2.6325,0.18440139450725115,-0.017496512919965696,0.9681808999076026,-0.006252923792508827,-0.126117,-34.618952
11.185,2.0,1.0,1.0,34.8,33.1,33.1,3.8,4.1,2.635,0.17294460172698067,-0.017664666489738065,0.9701010597830236,-0.0065584709020441,-0.127781,-34.497056
11.185,2.0,1.0,1.0,34.8,33.1,33.1,3.8,4.1,2.6375,0.161383272490881,-0.017831564619446325,0.9718963886488747,-0.006872084280722775,-0.129476,-34.374808
11.185,2.0,1.0,1.0,34.8,33.1,33.1,3.8,4.1,2.64,0.14971767736925495,-0.017997051582248718,0.9735637465503885,-0.007193934060691718,-0.1312,-34.252206
11.185,2.0,1.0,1.0,34.8,33.1,33.1,3.8,4.1,2.6425,0.13794814814077158,-0.01816096436589257,0.9750999349211861,-0.007524192471304293,-0.132956,-34.129246
11.185,2.0,1.0,1.0,34.8,33.1,33.1,3.8,4.1,2.645,0.12607508063728606,-0.018323132406753675,0.9765016964518783,-0.007863033768866502,-0.134744,-34.005924
11.185,2.0,1.0,1.0,34.8,33.1,33.1,3.8,4.1,2.6475,0.11409893767669027,-0.01848337731676897,0.9777657150290332,-0.0082106341588797,-0.136563,-33.882239
11.185,2.0,1.0,1.0,34.8,33.1,33.1,3.8,4.1,2.65,0.10202025208455621,-0.018641512603220514,0.9788886157495719,-0.008567171710421626,-0.138416,-33.758186
11.185,2.0,1.0,1.0,34.8,33.1,33.1,3.8,4.1,2.6525,0.0898396298052732,-0.01879734338133904,0.9798669650158168,-0.008932826262300275,-0.140302,-33.633762
11.185,2.0,1.0,1.0,34.8,33.1,33.1,3.8,4.1,2.655,0.07755775310311577,-0.018950666079704654,0.9806972707166717,-0.009307779320614093,-0.142223,-33.508965
11.185,2.0,1.0,1.0,34.8,33.1,33.1,3.8,4.1,2.6575,0.06517538385357226,-0.019101268138431358,0.9813759825006011,-0.009692213947347313,-0.144179,-33.38379
11.185,2.0,1.0,1.0,34.8,33.1,33.1,3.8,4.1,2.66,0.05269336692501511,-0.019248927700132673,0.98189949214632,-0.01008631463962939,-0.14617,-33.258235
11.185,2.0,1.0,1.0,34.8,33.1,33.1,3.8,4.1,2.6625,0.0401126336506297,-0.019393413293674788,0.9822641340372867,-0.01049026719928696,-0.148198,-33.132295
11.185,2.0,1.0,1.0,34.8,33.1,33.1,3.8,4.1,2.665,0.02743420539020185,-0.01953448351073367,0.9824661857463367,-0.010904258592320493,-0.150263,-33.005969
11.185,2.0,1.0,1.0,34.8,33.1,33.1,3.8,4.1,2.6675,0.01465919718121302,-0.01967188667518192,0.982501868736994,-0.011328476797939885,-0.152366,-32.879251
11.185,2.0,1.0,1.0,34.8,33.1,33.1,3.8,4.1,2.67,0.001788821478327384,-0.01980536050533969,0.9823673491882038,-0.011763110646801633,-0.154507,-32.752139
11.185,2.0,1.0,1.0,34.8,33.1,33.1,3.8,4.1,2.6725,-0.011175608019896022,-0.01993463176913282,0.9820587389494332,-0.012208349648097765,-0.156688,-32.624628
11.185,2.0,1.0,1.0,34.8,33.1,33.1,3.8,4.1,2.675,-0.024232672458535966,-0.020059415932207645,0.9815720966332833,-0.012664383805158146,-0.15891,-32.496715
11.185,2.0,1.0,1.0,34.8,33.1,33.1,3.8,4.1,2.6775,-0.03738084382994716,-0.020179416799058603,0.980903428852964,-0.013131403419241992,-0.161172,-32.368397
11.185,2.0,1.0,1.0,34.8,33.1,33.1,3.8,4.1,2.68,-0.05061848089565866,-0.02029432614722861,0.9800486916121157,-0.013609598881212097,-0.163477,-32.239669
11.185,2.0,1.0,1.0,34.8,33.1,33.1,3.8,4.1,2.6825,-0.06394382502911532,-0.020403823354645197,0.979003791854676,-0.014099160450804523,-0.165825,-32.110526
11.185,2.0,1.0,1.0,34.8,33.1,33.1,3.8,4.1,2.685,-0.07735499598224521,-0.02050757502015402,0.9777645891826227,-0.014600278023232228,-0.168216,-31.980966
11.185,2.0,1.0,1.0,34.8,33.1,33.1,3.8,4.1,2.6875,-0.0908499875792496,-0.0206052345773101,0.976326897749559,-0.0151131408828879,-0.170652,-31.850983
11.185,2.0,1.0,1.0,34.8,33.1,33.1,3.8,4.1,2.69,-0.1044266633414538,-0.02069644190147961,0.9746864883382294,-0.01563793744394317,-0.173134,-31.720573
11.185,2.0,1.0,1.0,34.8,33.1,33.1,3.8,4.1,2.6925,-0.11808275204759348,-0.020780822910294854,0.9728390906301599,-0.016174854977679565,-0.175662,-31.589732
11.185,2.0,1.0,1.0,34.8,33.1,33.1,3.8,4.1,2.695,-0.13181584323430637,-0.020857989157489543,0.970780395675688,-0.01672407932642471,-0.178238,-31.458455
11.185,2.0,1.0,1.0,34.8,33.1,33.1,3.8,4.1,2.6975,-0.14562338264224509,-0.020927537420121854,0.9685060585726957,-0.01728579460401703,-0.180862,-31.326737
11.185,2.0,1.0,1.0,34.8,33.1,33.1,3.8,4.1,2.7,-0.15950266761364285,-0.020989049279163487,0.9660117013623843,-0.01786018288276997,-0.183536,-31.194572
11.185,2.0,1.0,1.0,34.8,33.1,33.1,3.8,4.1,2.7025,-0.1734508424478328,-0.0210420906934005,0.9632929161504182,-0.018447423866966434,-0.186261,-31.061955
11.185,2.0,1.0,1.0,34.8,33.1,33.1,3.8,4.1,2.705,-0.1874648937217351,-0.021086211566546824,0.9603452684617239,-0.019047694552974555,-0.189038,-30.928881
11.185,2.0,1.0,1.0,34.8,33.1,33.1,3.8,4.1,2.7075,-0.20154164558297227,-0.02112094530741956,0.957164300837147,-0.01966116887614597,-0.191868,-30.795344
11.185,2.0,1.0,1.0,34.8,33.1,33.1,3.8,4.1,2.71,-0.21567775502383305,-0.02114580838296083,0.9537455366800306,-0.020288017344731093,-0.194751,-30.661338
11.185,2.0,1.0,1.0,34.8,33.1,33.1,3.8,4.1,2.7125,-0.22986970714504085,-0.021160299863814326,0.9500844843606483,-0.020928406661128326,-0.19769,-30.526857
11.185,2.0,1.0,1.0,34.8,33.1,33.1,3.8,4.1,2.715,-0.24411381041878777,-0.0211639009620749,0.9461766415861533,-0.021582499330870548,-0.200686,-30.391893
11.185,2.0,1.0,1.0,34.8,33.1,33.1,3.8,4.1,2.7175,-0.2584061919612792,-0.02115607456072144,0.9420175000434822,-0.022250453259847137,-0.203739,-30.256439
11.185,2.0,1.0,1.0,34.8,33.1,33.1,3.8,4.1,2.72,-0.2727427928255767,-0.021136264734120006,0.9376025503223026,-0.02293242134035972,-0.206851,-30.120489
11.185,2.0,1.0,1.0,34.8,33.1,33.1,3.8,4.1,2.7225,-0.28711936332629484,-0.021103896258837806,0.9329272871247072,-0.023628551026719305,-0.210024,-29.984035
11.185,2.0,1.0,1.0,34.8,33.1,33.1,3.8,4.1,2.725,-0.3015314584082396,-0.02105837411384167,0.9279872147679159,-0.024338983901203173,-0.213259,-29.847068
11.185,2.0,1.0,1.0,34.8,33.1,33.1,3.8,4.1,2.7275,-0.3159744330718333,-0.020999082968960695,0.9227778529857185,-0.025063855231314772,-0.216557,-29.70958
11.185,2.0,1.0,1.0,34.8,33.1,33.1,3.8,4.1,2.73,-0.330443437868702,-0.020925386660271002,0.91729474303382,-0.025803293519411873,-0.219919,-29.571561
11.185,2.0,1.0,1.0,34.8,33.1,33.1,3.8,4.1,2.7325,-0.3449334144814803,-0.020836627650806187,0.9115334541035609,-0.026557420045904882,-0.223348,-29.433003
11.185,2.0,1.0,1.0,34.8,33.1,33.1,3.8,4.1,2.735,-0.3594390914023992,-0.020732126474708554,0.9054895900477629,-0.02732634840736111,-0.226844,-29.293895
11.185,2.0,1.0,1.0,34.8,33.1,33.1,3.8,4.1,2.7375,-0.3739549797258025,-0.02061118116260516,0.8991587964216219,-0.02811018405099599,-0.23041,-29.154226
11.185,2.0,1.0,1.0,34.8,33.1,33.1,3.8,4.1,2.74,-0.38847536907019103,-0.02047306664562179,0.8925367678406574,-0.02890902380717575,-0.234047,-29.013985
11.185,2.0,1.0,1.0,34.8,33.1,33.1,3.8,4.1,2.7425,-0.4029943236458505,-0.020317034135022144,0.8856192556567353,-0.029722955421706602,-0.237757,-28.873159
11.185,2.0,1.0,1.0,34.8,33.1,33.1,3.8,4.1,2.745,-0.4175056784844185,-0.020142310473985143,0.8784020759520967,-0.03055205708983366,-0.241542,-28.731737
11.185,2.0,1.0,1.0,34.8,33.1,33.1,3.8,4.1,2.7475,-0.4320030358471065,-0.019948097457492715,0.87088111785015,-0.03139639699402383,-0.245404,-28.589705
11.185,2.0,1.0,1.0,34.8,33.1,33.1,3.8,4.1,2.75,-0.446479761828356,-0.019733571115695,0.863052352140514,-0.0322560328477541,-0.249344,-28.447048
11.185,2.0,1.0,1.0,34.8,33.1,33.1,3.8,4.1,2.7525,-0.4609289831718779,-0.0194978809554387,0.8549118402144442,-0.033131011447670056,-0.253365,-28.303751
11.185,2.0,1.0,1.0,34.8,33.1,33.1,3.8,4.1,2.755,-0.47534358431584245,-0.019240149153878894,0.8464557433053296,-0.03402136823661568,-0.257468,-28.159799
11.185,2.0,1.0,1.0,34.8,33.1,33.1,3.8,4.1,2.7575,-0.4897162046838673,-0.01895946969723535,0.837680332027376,-0.03492712688016468,-0.261657,-28.015173
11.185,2.0,1.0,1.0,34.8,33.1,33.1,3.8,4.1,2.76,-0.5040392362380277,-0.018654907456794115,0.8285819962040127,-0.03584829885939272,-0.265933,-27.869856
11.185,2.0,1.0,1.0,34.8,33.1,33.1,3.8,4.1,2.7625,-0.5183048213094749,-0.018325497193174948,0.8191572549757964,-0.036784883082730334,-0.2703,-27.723828
11.185,2.0,1.0,1.0,34.8,33.1,33.1,3.8,4.1,2.765,-0.5325048507215503,-0.017970242478680905,0.8094027671758306,-0.03773686551980615,-0.274758,-27.577069
11.185,2.0,1.0,1.0,34.8,33.1,33.1,3.8,4.1,2.7675,-0.5466309622192018,-0.01758811452619485,0.7993153419588472,-0.0387042188602364,-0.279313,-27.429557
11.185,2.0,1.0,1.0,34.8,33.1,33.1,3.8,4.1,2.77,-0.5606745392171788,-0.017178050911577054,0.7888919496681429,-0.03968690220032823,-0.283965,-27.281269
11.185,2.0,1.0,1.0,34.8,33.1,33.1,3.8,4.1,2.7725,-0.5746267098779368,-0.016738954174828485,0.7781297329226334,-0.04068486076063068,-0.288718,-27.132179
11.185,2.0,1.0,1.0,34.8,33.1,33.1,3.8,4.1,2.775,-0.5884783465281778,-0.016269690283392008,0.7670260179042386,-0.04169802563718462,-0.293576,-26.982262
11.185,2.0,1.0,1.0,34.8,33.1,33.1,3.8,4.1,2.7775,-0.602220065420681,-0.015769086938848056,0.7555783258237667,-0.04272631358917793,-0.298542,-26.83149
11.185,2.0,1.0,1.0,34.8,33.1,33.1,3.8,4.1,2.78,-0.6158422268453804,-0.015235931705889,0.7437843845414374,-0.043769626865493634,-0.303619,-26.679831
11.185,2.0,1.0,1.0,34.8,33.1,33.1,3.8,4.1,2.7825,-0.629334935590318,-0.01466896993980279,0.7316421403161498,-0.04482785307232836,-0.308812,-26.527256
11.185,2.0,1.0,1.0,34.8,33.1,33.1,3.8,4.1,2.785,-0.6426880417496116,-0.014066902485715923,0.7191497696555985,-0.045900865083651536,-0.314123,-26.373729
11.185,2.0,1.0,1.0,34.8,33.1,33.1,3.8,4.1,2.7875,-0.6558911418711616,-0.013428383119504715,0.7063056912374516,-0.046988520995730886,-0.319558,-26.219216
11.185,2.0,1.0,1.0,34.8,33.1,33.1,3.8,4.1,2.79,-0.6689335804319698,-0.012752015696529012,0.69310857786997,-0.048090664126271214,-0.325121,-26.063676
11.185,2.0,1.0,1.0,34.8,33.1,33.1,3.8,4.1,2.7925,-0.6818044516233983,-0.012036350970118848,0.6795573684588297,-0.04920712305784489,-0.330817,-25.90707
11.185,2.0,1.0,1.0,34.8,33.1,33.1,3.8,4.1,2.795,-0.6944926014223196,-0.011279883036985194,0.6656512799453828,-0.050337711724228594,-0.336651,-25.749354
11.185,2.0,1.0,1.0,34.8,33.1,33.1,3.8,4.1,2.7975,-0.7069866299168469,-0.01048104536136553,0.6513898191804963,-0.05148222953693376,-0.342628,-25.590481
11.185,2.0,1.0,1.0,34.8,33.1,33.1,3.8,4.1,2.8,-0.7192748938472415,-0.009638206323646575,0.6367727946970746,-0.052640461547612705,-0.348755,-25.430401
11.185,2.0,1.0,1.0,34.8,33.1,33.1,3.8,4.1,2.8025,-0.7313455093133002,-0.008749664232350242,0.6218003283439912,-0.053812178640050945,-0.355038,-25.269063
11.185,2.0,1.0,1.0,34.8,33.1,33.1,3.8,4.1,2.805,-0.7431863545890285,-0.007813641730590569,0.6064728667440933,-0.05499713774307157,-0.361483,-25.106409
11.185,2.0,1.0,1.0,34.8,33.1,33.1,3.8,4.1,2.8075,-0.7547850729736836,-0.006828279519272232,0.5907911925395128,-0.05619508205279244,-0.368099,-24.94238
11.185,2.0,1.0,1.0,34.8,33.1,33.1,3.8,4.1,2.81,-0.7661290755949194,-0.005791629309245768,0.5747564353887954,-0.05740574124918665,-0.374892,-24.776911
11.185,2.0,1.0,1.0,34.8,33.1,33.1,3.8,4.1,2.8125,-0.777205544064641,-0.00470164590316367,0.558370082682523,-0.0586288316876811,-0.381872,-24.609935
11.185,2.0,1.0,1.0,34.8,33.1,33.1,3.8,4.1,2.815,-0.7880014328712697,-0.0035561782946674537,0.5416339899472418,-0.05986405654144657,-0.389048,-24.441378
11.185,2.0,1.0,1.0,34.8,33.1,33.1,3.8,4.1,2.8175,-0.7985034713728335,-0.0023529596575139504,0.5245503909119215,-0.06111110586388883,-0.39643,-24.271164
11.185,2.0,1.0,1.0,34.8,33.1,33.1,3.8,4.1,2.82,-0.8086981652334366,-0.0010895960799980134,0.5071219072171115,-0.06236965653342866,-0.404028,-24.099208
11.185,2.0,1.0,1.0,34.8,33.1,33.1,3.8,4.1,2.8225,-0.8185717971210675,0.0002364461198243095,0.4893515577545966,-0.06363937203368071,-0.411855,-23.925422
11.185,2.0,1.0,1.0,34.8,33.1,33.1,3.8,4.1,2.825,-0.82811042645647,0.0016278546855119547,0.4712427676352993,-0.06491990201125726,-0.419923,-23.749713
