1,w,sub_t,h,l1,l2,l3,g1,g2,Freq,S11_re,S21_re,S11_img,S21_img,S11_dB,S21_dB
11.185,2.0,1.0,1.0,33.5,33.0,33.0,2.0,1.5,2.5,0.845626942127608,-0.0135323596186708,0.520484477085121,0.0143716772229827,-0.061279,-34.093032
11.185,2.0,1.0,1.0,33.5,33.0,33.0,2.0,1.5,2.5025,0.8420255342472215,-0.013824245737873053,0.526153861338253,0.01446480168635087,-0.061914,-33.975707
11.185,2.0,1.0,1.0,33.5,33.0,33.0,2.0,1.5,2.505,0.8383689841670542,-0.014121846722506189,0.5318228255750939,0.014557290366836608,-0.062561,-33.857977
11.185,2.0,1.0,1.0,33.5,33.0,33.0,2.0,1.5,2.5075,0.8346567044477959,-0.014425286734587272,0.5374911054822261,0.01464908835043697,-0.06322,-33.739835
11.185,2.0,1.0,1.0,33.5,33.0,33.0,2.0,1.5,2.51,0.8308880975777163,-0.01473469311588015,0.543158428149488,0.014740138296561327,-0.063892,-33.621273
11.185,2.0,1.0,1.0,33.5,33.0,33.0,2.0,1.5,2.5125,0.8270625557842168,-0.015050196482287156,0.5488245117692988,0.014830380330167606,-0.064576,-33.502285
11.185,2.0,1.0,1.0,33.5,33.0,33.0,2.0,1.5,2.515,0.823179460841839,-0.015371930821330442,0.5544890653249691,0.014919751928699798,-0.065274,-33.382864
11.185,2.0,1.0,1.0,33.5,33.0,33.0,2.0,1.5,2.5175,0.819238183876685,-0.015700033592828015,0.5601517882675288,0.015008187803554314,-0.065985,-33.263003
11.185,2.0,1.0,1.0,33.5,33.0,33.0,2.0,1.5,2.52,0.8152380851671854,-0.016034645832874367,0.5658123701806221,0.015095619775785607,-0.06671,-33.142694
11.185,2.0,1.0,1.0,33.5,33.0,33.0,2.0,1.5,2.5225,0.8111785139411793,-0.016375912261235855,0.5714704904329471,0.01518197664574533,-0.06745,-33.021929
11.185,2.0,1.0,1.0,33.5,33.0,33.0,2.0,1.5,2.525,0.8070588081692416,-0.01672398139227939,0.5771258178177469,0.015267184056331446,-0.068204,-32.900702
11.185,2.0,1.0,1.0,33.5,33.0,33.0,2.0,1.5,2.5275,0.8028782943542139,-0.017079005649550994,0.5827780101788016,0.01535116434950464,-0.068973,-32.779005
11.185,2.0,1.0,1.0,33.5,33.0,33.0,2.0,1.5,2.53,0.7986362873168907,-0.01744114148413027,0.588426714022347,0.015433836415710507,-0.069758,-32.656829
11.185,2.0,1.0,1.0,33.5,33.0,33.0,2.0,1.5,2.5325,0.7943320899778167,-0.017810549496884792,0.5940715641143309,0.015515115535822141,-0.070559,-32.534168
11.185,2.0,1.0,1.0,33.5,33.0,33.0,2.0,1.5,2.535,0.7899649931351421,-0.018187394564757372,0.5997121830623838,0.015594913215197683,-0.071376,-32.411012
11.185,2.0,1.0,1.0,33.5,33.0,33.0,2.0,1.5,2.5375,0.7855342752385042,-0.01857184597121921,0.6053481808818387,0.01567313700942143,-0.07221,-32.287355
11.185,2.0,1.0,1.0,33.5,33.0,33.0,2.0,1.5,2.54,0.7810392021588867,-0.018964077541027576,0.6109791545451227,0.015749690341271796,-0.073061,-32.163186
11.185,2.0,1.0,1.0,33.5,33.0,33.0,2.0,1.5,2.5425,0.7764790269544223,-0.019364267779430133,0.6166046875137952,0.015824472308432348,-0.07393,-32.038499
11.185,2.0,1.0,1.0,33.5,33.0,33.0,2.0,1.5,2.545,0.7718529896320998,-0.019772600015962365,0.6222243492524707,0.01589737748143181,-0.074817,-31.913284
11.185,2.0,1.0,1.0,33.5,33.0,33.0,2.0,1.5,2.5475,0.7671603169053569,-0.020189262552986274,0.6278376947238331,0.01596829569126859,-0.075724,-31.787533
11.185,2.0,1.0,1.0,33.5,33.0,33.0,2.0,1.5,2.55,0.7624002219475096,-0.02061444881912582,0.6334442638639077,0.016037111806141712,-0.076649,-31.661236
11.185,2.0,1.0,1.0,33.5,33.0,33.0,2.0,1.5,2.5525,0.7575719041410218,-0.02104835752775437,0.6390435810366959,0.01610370549667382,-0.077594,-31.534386
11.185,2.0,1.0,1.0,33.5,33.0,33.0,2.0,1.5,2.555,0.7526745488225751,-0.02149119284069595,0.6446351544672668,0.016167950988975225,-0.07856,-31.406971
11.185,2.0,1.0,1.0,33.5,33.0,33.0,2.0,1.5,2.5575,0.7477073270239363,-0.02194316453730443,0.6502184756523192,0.016229716804855496,-0.079547,-31.278984
11.185,2.0,1.0,1.0,33.5,33.0,33.0,2.0,1.5,2.56,0.7426693952086174,-0.022404488189087354,0.6557930187471909,0.016288865488448094,-0.080556,-31.150415
11.185,2.0,1.0,1.0,33.5,33.0,33.0,2.0,1.5,2.5625,0.7375598950043254,-0.02287538534004536,0.661358239928231,0.016345253318464148,-0.081587,-31.021253
11.185,2.0,1.0,1.0,33.5,33.0,33.0,2.0,1.5,2.565,0.732377952931207,-0.023356083692901326,0.6669135767294129,0.01639873000524496,-0.082641,-30.891489
11.185,2.0,1.0,1.0,33.5,33.0,33.0,2.0,1.5,2.5675,0.7271226801259159,-0.02384681730139237,0.672458447351965,0.016449138371727446,-0.083718,-30.761113
11.185,2.0,1.0,1.0,33.5,33.0,33.0,2.0,1.5,2.57,0.7217931720615179,-0.02434782676880617,0.6779922499457733,0.016496314017380893,-0.08482,-30.630115
11.185,2.0,1.0,1.0,33.5,33.0,33.0,2.0,1.5,2.5725,0.7163885082632744,-0.024859359452938365,0.6835143618612182,0.016540084964112654,-0.085948,-30.498484
11.185,2.0,1.0,1.0,33.5,33.0,33.0,2.0,1.5,2.575,0.710907752020352,-0.02538166967765278,0.6890241388700289,0.01658027128307485,-0.087101,-30.366209
11.185,2.0,1.0,1.0,33.5,33.0,33.0,2.0,1.5,2.5775,0.7053499500935225,-0.02591501895122677,0.6945209143536804,0.016616684701234823,-0.088281,-30.23328
11.185,2.0,1.0,1.0,33.5,33.0,33.0,2.0,1.5,2.58,0.6997141324189274,-0.02645967619166012,0.7000039984577496,0.016649128186496432,-0.089488,-30.099686
11.185,2.0,1.0,1.0,33.5,33.0,33.0,2.0,1.5,2.5825,0.6939993118079938,-0.02701591795913001,0.705472677210582,0.016677395510080406,-0.090724,-29.965415
11.185,2.0,1.0,1.0,33.5,33.0,33.0,2.0,1.5,2.585,0.6882044836436189,-0.027584028695770178,0.7109262116045042,0.016701270784784276,-0.091989,-29.830456
11.185,2.0,1.0,1.0,33.5,33.0,33.0,2.0,1.5,2.5875,0.682328625572744,-0.028164300972946865,0.7163638366377318,0.016720527977651303,-0.093284,-29.694797
11.185,2.0,1.0,1.0,33.5,33.0,33.0,2.0,1.5,2.59,0.6763706971954765,-0.02875703574620525,0.7217847603149954,0.01673493039547718,-0.094611,-29.558426
11.185,2.0,1.0,1.0,33.5,33.0,33.0,2.0,1.5,2.5925,0.6703296397509223,-0.029362542618049544,0.7271881626048192,0.016744230141479355,-0.09597,-29.421331
11.185,2.0,1.0,1.0,33.5,33.0,33.0,2.0,1.5,2.595,0.6642043757999477,-0.029981140108713895,0.7325731943512169,0.01674816754133377,-0.097362,-29.2835
11.185,2.0,1.0,1.0,33.5,33.0,33.0,2.0,1.5,2.5975,0.6579938089050809,-0.030613155935073858,0.7379389761374987,0.016746470536668803,-0.098789,-29.144919
11.185,2.0,1.0,1.0,33.5,33.0,33.0,2.0,1.5,2.6,0.6516968233078284,-0.031258927297832924,0.7432845970996771,0.016738854043964125,-0.100251,-29.005577
11.185,2.0,1.0,1.0,33.5,33.0,33.0,2.0,1.5,2.6025,0.6453122836037064,-0.031918801177107575,0.7486091136868461,0.016725019276667585,-0.10175,-28.86546
11.185,2.0,1.0,1.0,33.5,33.0,33.0,2.0,1.5,2.605,0.6388390344153156,-0.03259313463651621,0.753911548365744,0.016704653028184403,-0.103287,-28.724553
11.185,2.0,1.0,1.0,33.5,33.0,33.0,2.0,1.5,2.6075,0.6322759000638555,-0.033282295135856614,0.7591908882665068,0.0166774269132289,-0.104863,-28.582845
11.185,2.0,1.0,1.0,33.5,33.0,33.0,2.0,1.5,2.61,0.6256216842395058,-0.03398666085243354,0.7644460837664566,0.016642996564851503,-0.10648,-28.44032
11.185,2.0,1.0,1.0,33.5,33.0,33.0,2.0,1.5,2.6125,0.6188751696711624,-0.034706621011069895,0.7696760470085621,0.016601000784259374,-0.108138,-28.296964
11.185,2.0,1.0,1.0,33.5,33.0,33.0,2.0,1.5,2.615,0.6120351177960744,-0.03544257622280277,0.7748796503509845,0.0165510606403422,-0.10984,-28.152763
11.185,2.0,1.0,1.0,33.5,33.0,33.0,2.0,1.5,2.6175,0.605100268430009,-0.036194938832223994,0.7800557247438835,0.016492778515590393,-0.111588,-28.007701
11.185,2.0,1.0,1.0,33.5,33.0,33.0,2.0,1.5,2.62,0.5980693394386232,-0.03696413327338678,0.7852030580294262,0.016425737094850585,-0.113382,-27.861764
11.185,2.0,1.0,1.0,33.5,33.0,33.0,2.0,1.5,2.6225,0.5909410264108236,-0.03775059643414192,0.7903203931606493,0.016349498293100957,-0.115224,-27.714935
11.185,2.0,1.0,1.0,33.5,33.0,33.0,2.0,1.5,2.625,0.583714002334991,-0.0385547780287125,0.79540642633454,0.0162636021181472,-0.117116,-27.567199
11.185,2.0,1.0,1.0,33.5,33.0,33.0,2.0,1.5,2.6275,0.5763869172790234,-0.03937714097824618,0.8004598050343935,0.01616756546383204,-0.11906,-27.418539
11.185,2.0,1.0,1.0,33.5,33.0,33.0,2.0,1.5,2.63,0.568958398075301,-0.0402181617990052,0.805479125976153,0.016060880829020473,-0.121058,-27.268939
11.185,2.0,1.0,1.0,33.5,33.0,33.0,2.0,1.5,2.6325,0.5614270480117848,-0.04107833099776594,0.8104629329530771,0.015943014957265775,-0.123112,-27.118382
11.185,2.0,1.0,1.0,33.5,33.0,33.0,2.0,1.5,2.635,0.5537914465306032,-0.0419581534738949,0.8154097145726857,0.01581340739166828,-0.125223,-26.96685
11.185,2.0,1.0,1.0,33.5,33.0,33.0,2.0,1.5,2.6375,0.5460501489356648,-0.04285814892745179,0.820317901879488,0.01567146893902273,-0.127395,-26.814325
11.185,2.0,1.0,1.0,33.5,33.0,33.0,2.0,1.5,2.64,0.538201686110967,-0.04377885227253599,0.8251858658565756,0.015516580036888028,-0.129629,-26.66079
11.185,2.0,1.0,1.0,33.5,33.0,33.0,2.0,1.5,2.6425,0.5302445642515342,-0.04472081405493518,0.8300119147985963,0.015348089016720294,-0.131929,-26.506224
11.185,2.0,1.0,1.0,33.5,33.0,33.0,2.0,1.5,2.645,0.5221772646090856,-0.045684600872965615,0.8347942915481408,0.015165310255670833,-0.134295,-26.35061
11.185,2.0,1.0,1.0,33.5,33.0,33.0,2.0,1.5,2.6475,0.5139982432548227,-0.04667079580018669,0.8395311705869494,0.014967522209064246,-0.136732,-26.193927
11.185,2.0,1.0,1.0,33.5,33.0,33.0,2.0,1.5,2.65,0.5057059308619735,-0.04767999880845011,0.8442206549727251,0.014753965314937601,-0.139241,-26.036155
11.185,2.0,1.0,1.0,33.5,33.0,33.0,2.0,1.5,2.6525,0.49729873251110146,-0.04871282718947833,0.8488607731116042,0.014523839761329467,-0.141827,-25.877274
11.185,2.0,1.0,1.0,33.5,33.0,33.0,2.0,1.5,2.655,0.4887750275214631,-0.0497699159728755,0.8534494753556598,0.014276303106255061,-0.144491,-25.717263
11.185,2.0,1.0,1.0,33.5,33.0,33.0,2.0,1.5,2.6575,0.48013316931216843,-0.050851918338133587,0.8579846304138994,0.014010467739485511,-0.147238,-25.5561
11.185,2.0,1.0,1.0,33.5,33.0,33.0,2.0,1.5,2.66,0.47137148529730183,-0.05195950601781309,0.8624640215643915,0.013725398174355757,-0.15007,-25.393762
11.185,2.0,1.0,1.0,33.5,33.0,33.0,2.0,1.5,2.6625,0.46248827681968735,-0.053093369688639105,0.866885342654164,0.013420108156856321,-0.152992,-25.230228
11.185,2.0,1.0,1.0,33.5,33.0,33.0,2.0,1.5,2.665,0.45348181912852575,-0.054254219346756956,0.8712461938724528,0.01309355757820122,-0.156007,-25.065473
11.185,2.0,1.0,1.0,33.5,33.0,33.0,2.0,1.5,2.6675,0.444350361406801,-0.05544278466282051,0.87554407728174,0.012744649175912035,-0.159118,-24.899474
11.185,2.0,1.0,1.0,33.5,33.0,33.0,2.0,1.5,2.67,0.43509212685505033,-0.05665981531194175,0.8797763920897474,0.012372225007194275,-0.162332,-24.732206
11.185,2.0,1.0,1.0,33.5,33.0,33.0,2.0,1.5,2.6725,0.4257053128389047,-0.05790608127279276,0.8839404296442087,0.011975062677007157,-0.165651,-24.563644
11.185,2.0,1.0,1.0,33.5,33.0,33.0,2.0,1.5,2.675,0.41618809110875293,-0.059182373089307856,0.8880333681307195,0.011551871301723169,-0.169081,-24.393762
11.185,2.0,1.0,1.0,33.5,33.0,33.0,2.0,1.5,2.6775,0.4065386081009,-0.060489502087479545,0.8920522669523471,0.011101287187630881,-0.172627,-24.222534
11.185,2.0,1.0,1.0,33.5,33.0,33.0,2.0,1.5,2.68,0.3967549853307691,-0.06182830053864438,0.8959940607679011,0.010621869201738712,-0.176293,-24.049931
11.185,2.0,1.0,1.0,33.5,33.0,33.0,2.0,1.5,2.6825,0.3868353198900649,-0.06319962175941103,0.8998555531637952,0.010112093810373101,-0.180086,-23.875927
11.185,2.0,1.0,1.0,33.5,33.0,33.0,2.0,1.5,2.685,0.3767776850612816,-0.06460434013695453,0.9036334099323411,0.009570349758916226,-0.184012,-23.700492
11.185,2.0,1.0,1.0,33.5,33.0,33.0,2.0,1.5,2.6875,0.36658013106471277,-0.0660433510667775,0.9073241519269291,0.00899493236367639,-0.188076,-23.523596
11.185,2.0,1.0,1.0,33.5,33.0,33.0,2.0,1.5,2.69,0.35624068595506236,-0.06751757078817332,0.9109241474620368,0.008384037384313727,-0.192287,-23.345208
11.185,2.0,1.0,1.0,33.5,33.0,33.0,2.0,1.5,2.6925,0.3457573566869517,-0.06902793610050746,0.9144296042232217,0.00773575444242446,-0.196649,-23.165299
11.185,2.0,1.0,1.0,33.5,33.0,33.0,2.0,1.5,2.695,0.33512813037124595,-0.07057540394098576,0.9178365606491458,0.007048059948805555,-0.201172,-22.983834
11.185,2.0,1.0,1.0,33.5,33.0,33.0,2.0,1.5,2.6975,0.32435097574689975,-0.07216095080180718,0.9211408767444021,0.006318809498540514,-0.205864,-22.800782
11.185,2.0,1.0,1.0,33.5,33.0,33.0,2.0,1.5,2.7,0.31342384489646713,-0.07378557196138566,0.9243382242781766,0.005545729689353441,-0.210732,-22.616107
11.185,2.0,1.0,1.0,33.5,33.0,33.0,2.0,1.5,2.7025,0.30234467523707653,-0.07545028050067448,0.9274240763198289,0.004726409314625344,-0.215786,-22.429774
11.185,2.0,1.0,1.0,33.5,33.0,33.0,2.0,1.5,2.705,0.2911113918230934,-0.07715610607141475,0.9303936960580388,0.003858289878035401,-0.221035,-22.241747
11.185,2.0,1.0,1.0,33.5,33.0,33.0,2.0,1.5,2.7075,0.27972191000160074,-0.07890409337830075,0.9332421248453496,0.0029386553719340115,-0.22649,-22.05199
11.185,2.0,1.0,1.0,33.5,33.0,33.0,2.0,1.5,2.71,0.26817413846752103,-0.0806953003314968,0.9359641694047222,0.001964621256248692,-0.232163,-21.860462
11.185,2.0,1.0,1.0,33.5,33.0,33.0,2.0,1.5,2.7125,0.25646598277173616,-0.08253079581956066,0.9385543881288797,0.0009331225689127593,-0.238064,-21.667124
11.185,2.0,1.0,1.0,33.5,33.0,33.0,2.0,1.5,2.715,0.24459534934303662,-0.08441165704545915,0.9410070763970015,-0.00015909890753508375,-0.244206,-21.471936
11.185,2.0,1.0,1.0,33.5,33.0,33.0,2.0,1.5,2.7175,0.23256015009337574,-0.08633896635988877,0.9433162508263842,-0.0013155085054630397,-0.250603,-21.274855
11.185,2.0,1.0,1.0,33.5,33.0,33.0,2.0,1.5,2.72,0.22035830768583078,-0.08831380751632473,0.9454756323692232,-0.002539793647605626,-0.25727,-21.075837
11.185,2.0,1.0,1.0,33.5,33.0,33.0,2.0,1.5,2.7225,0.20798776155608317,-0.09033726126093407,0.947478628156486,-0.0038358800365352447,-0.264221,-20.874838
11.185,2.0,1.0,1.0,33.5,33.0,33.0,2.0,1.5,2.725,0.19544647479151725,-0.09241040015741743,0.9493183119819498,-0.005207949165150729,-0.271473,-20.671811
11.185,2.0,1.0,1.0,33.5,33.0,33.0,2.0,1.5,2.7275,0.18273244198721242,-0.09453428253175383,0.9509874033098308,-0.006660457264891682,-0.279045,-20.466708
11.185,2.0,1.0,1.0,33.5,33.0,33.0,2.0,1.5,2.73,0.16984369821584075,-0.0967099454043194,0.9524782446790117,-0.008198155818874587,-0.286955,-20.25948
11.185,2.0,1.0,1.0,33.5,33.0,33.0,2.0,1.5,2.7325,0.1567783292688566,-0.09893839625658574,0.9537827773655944,-0.009826113778457917,-0.295225,-20.050076
11.185,2.0,1.0,1.0,33.5,33.0,33.0,2.0,1.5,2.735,0.14353448335013747,-0.10122060345606848,0.9548925151534094,-0.011549741633886227,-0.303876,-19.838442
11.185,2.0,1.0,1.0,33.5,33.0,33.0,2.0,1.5,2.7375,0.13011038443067732,-0.1035574851358928,0.9557985160491894,-0.013374817502628564,-0.312932,-19.624525
11.185,2.0,1.0,1.0,33.5,33.0,33.0,2.0,1.5,2.74,0.11650434750493759,-0.10594989629356902,0.9564913517653963,-0.015307515412784805,-0.32242,-19.408267
11.185,2.0,1.0,1.0,33.5,33.0,33.0,2.0,1.5,2.7425,0.10271479602655659,-0.10839861383663556,0.9569610747792148,-0.017354435973416245,-0.332367,-19.189612
11.185,2.0,1.0,1.0,33.5,33.0,33.0,2.0,1.5,2.745,0.08874028184445054,-0.11090431925977867,0.9571971827611526,-0.01952263963873561,-0.342804,-18.968499
11.185,2.0,1.0,1.0,33.5,33.0,33.0,2.0,1.5,2.7475,0.0745795080106684,-0.11346757858788484,0.9571885801512015,-0.02181968278857189,-0.353765,-18.744865
11.185,2.0,1.0,1.0,33.5,33.0,33.0,2.0,1.5,2.75,0.0602313548901725,-0.116088819160948,0.956923536644869,-0.0242536568631389,-0.365283,-18.518648
11.185,2.0,1.0,1.0,33.5,33.0,33.0,2.0,1.5,2.7525,0.04569491007133708,-0.11876830276842398,0.9563896423359908,-0.02683323080544925,-0.3774,-18.28978
11.185,2.0,1.0,1.0,33.5,33.0,33.0,2.0,1.5,2.755,0.03096950265611636,-0.12150609456076646,0.9555737592487155,-0.029567697079172096,-0.390156,-18.058194
11.185,2.0,1.0,1.0,33.5,33.0,33.0,2.0,1.5,2.7575,0.01605474260250375,-0.12430202707252049,0.9544619689780772,-0.0324670215425502,-0.403599,-17.823818
11.185,2.0,1.0,1.0,33.5,33.0,33.0,2.0,1.5,2.76,0.0009505659016414644,-0.12715565858209055,0.95303951614831,-0.03554189746906339,-0.417778,-17.586581
11.185,2.0,1.0,1.0,33.5,33.0,33.0,2.0,1.5,2.7625,-0.014342713499843288,-0.1300662249054378,0.9512907473918993,-0.0388038040114651,-0.432747,-17.346406
11.185,2.0,1.0,1.0,33.5,33.0,33.0,2.0,1.5,2.765,-0.029824343971352613,-0.1330325835712109,0.9491990455522308,-0.04226506940564152,-0.448569,-17.103218
11.185,2.0,1.0,1.0,33.5,33.0,33.0,2.0,1.5,2.7675,-0.045493067426738205,-0.13605314914943942,0.9467467588210643,-0.04593893920193366,-0.465307,-16.856935
11.185,2.0,1.0,1.0,33.5,33.0,33.0,2.0,1.5,2.77,-0.06134704006662967,-0.1391258183005157,0.9439151245425109,-0.04983964979073466,-0.483035,-16.607477
11.185,2.0,1.0,1.0,33.5,33.0,33.0,2.0,1.5,2.7725,-0.07738374095011416,-0.14224788287067405,0.9406841874518057,-0.05398250745186565,-0.501832,-16.354758
11.185,2.0,1.0,1.0,33.5,33.0,33.0,2.0,1.5,2.775,-0.09359986642877068,-0.14541592907870346,0.9370327121761411,-0.05838397309765647,-0.521786,-16.098692
11.185,2.0,1.0,1.0,33.5,33.0,33.0,2.0,1.5,2.7775,-0.10999120814549888,-0.14862572050950074,0.9329380899134117,-0.0630617527901673,-0.542993,-15.839191
11.185,2.0,1.0,1.0,33.5,33.0,33.0,2.0,1.5,2.78,-0.12655251191463013,-0.15187206224574154,0.9283762393330844,-0.06803489398369489,-0.56556,-15.576163
11.185,2.0,1.0,1.0,33.5,33.0,33.0,2.0,1.5,2.7825,-0.14327731434979854,-0.15514864302096018,0.9233215019243224,-0.07332388726165306,-0.589604,-15.309517
11.185,2.0,1.0,1.0,33.5,33.0,33.0,2.0,1.5,2.785,-0.16015775358266943,-0.15844785175649936,0.9177465322666801,-0.07895077308544864,-0.615257,-15.039156
11.185,2.0,1.0,1.0,33.5,33.0,33.0,2.0,1.5,2.7875,-0.1771843498089493,-0.16176056424125843,0.9116221840399655,-0.08493925273026692,-0.642664,-14.764986
11.185,2.0,1.0,1.0,33.5,33.0,33.0,2.0,1.5,2.79,-0.19434575069798857,-0.1650758950169613,0.9049173930501017,-0.09131480212087999,-0.671987,-14.48691
11.185,2.0,1.0,1.0,33.5,33.0,33.0,2.0,1.5,2.7925,-0.21162843589898453,-0.1683809087332166,0.8975990591633382,-0.09810478666345296,-0.703407,-14.20483
11.185,2.0,1.0,1.0,33.5,33.0,33.0,2.0,1.5,2.795,-0.22901637396210112,-0.17166028432804414,0.8896319298581171,-0.10533857435065139,-0.737124,-13.918649
11.185,2.0,1.0,1.0,33.5,33.0,33.0,2.0,1.5,2.7975,-0.24649062396191931,-0.174895924366175,0.8809784891821032,-0.11304764333765367,-0.773364,-13.628271
11.185,2.0,1.0,1.0,33.5,33.0,33.0,2.0,1.5,2.8,-0.2640288729647037,-0.17806650073084715,0.8715988573166771,-0.12126567877056264,-0.812382,-13.3336
11.185,2.0,1.0,1.0,33.5,33.0,33.0,2.0,1.5,2.8025,-0.28160489923103943,-0.18114692662656673,0.8614507077990144,-0.13002865180021506,-0.85446,-13.034544
11.185,2.0,1.0,1.0,33.5,33.0,33.0,2.0,1.5,2.805,-0.2991879497189643,-0.18410774353821183,0.8504892118534485,-0.13937487131310436,-0.899921,-12.731016
11.185,2.0,1.0,1.0,33.5,33.0,33.0,2.0,1.5,2.8075,-0.31674201910181965,-0.18691441045861923,0.8386670223901664,-0.14934499580665753,-0.949126,-12.422934
11.185,2.0,1.0,1.0,33.5,33.0,33.0,2.0,1.5,2.81,-0.33422501622924455,-0.18952648143269946,0.8259343142266461,-0.15998198884306816,-1.002485,-12.110223
11.185,2.0,1.0,1.0,33.5,33.0,33.0,2.0,1.5,2.8125,-0.351587802884393,-0.191896656416984,0.812238902201943,-0.171330996409196,-1.060464,-11.792822
11.185,2.0,1.0,1.0,33.5,33.0,33.0,2.0,1.5,2.815,-0.3687730890511153,-0.19396968984585977,0.7975264653549026,-0.18343911802234752,-1.12359,-11.470679
11.185,2.0,1.0,1.0,33.5,33.0,33.0,2.0,1.5,2.8175,-0.3857141690430468,-0.19568114147145485,0.7817409135355105,-0.19635503524457015,-1.192468,-11.143764
11.185,2.0,1.0,1.0,33.5,33.0,33.0,2.0,1.5,2.82,-0.40233348426602444,-0.1969559555075055,0.7648249430562893,-0.21012845106200237,-1.267786,-10.812066
11.185,2.0,1.0,1.0,33.5,33.0,33.0,2.0,1.5,2.8225,-0.41854100181493276,-0.19770685758723866,0.7467208406187595,-0.22480928100420566,-1.350332,-10.475601
11.185,2.0,1.0,1.0,33.5,33.0,33.0,2.0,1.5,2.825,-0.43423240457965123,-0.1978325655739371,0.7273716100787324,-0.24044652161629324,-1.441011,-10.134421
11.185,2.0,1.0,1.0,33.5,33.0,33.0,2.0,1.5,2.8275,-0.44928709948824247,-0.19721582127402257,0.706722514826162,-0.2570867037784437,-1.540865,-9.788618
11.185,2.0,1.0,1.0,33.5,33.0,33.0,2.0,1.5,2.83,-0.46356606789901894,-0.19572126754123312,0.6847231495563881,-0.2747718174954677,-1.651095,-9.438334
