1,w,sub_t,h,l1,l2,l3,g1,g2,Freq,S11_re,S21_re,S11_img,S21_img,S11_dB,S21_dB
11.185,2.0,1.0,1.0,34.4,33.3,33.3,2.0,1.5,2.5,0.711834022335223,-0.0232853770390989,0.689541835027118,0.0152899406232444,-0.078109,-31.101433
11.185,2.0,1.0,1.0,34.4,33.3,33.3,2.0,1.5,2.5025,0.7061634196037485,-0.02373995882457923,0.6951932599477886,0.015298683706429644,-0.07906,-30.981956
11.185,2.0,1.0,1.0,34.4,33.3,33.3,2.0,1.5,2.505,0.7004153644559016,-0.02420284009144564,0.7008275723555296,0.0153033558785981,-0.080031,-30.862019
11.185,2.0,1.0,1.0,34.4,33.3,33.3,2.0,1.5,2.5075,0.6945890345784135,-0.024674179030140447,0.7064440242434307,0.015303784628911696,-0.081021,-30.741616
11.185,2.0,1.0,1.0,34.4,33.3,33.3,2.0,1.5,2.51,0.6886835972655859,-0.025154136905572853,0.7120418447971082,0.0152997908006449,-0.082032,-30.62074
11.185,2.0,1.0,1.0,34.4,33.3,33.3,2.0,1.5,2.5125,0.6826982094049764,-0.02564287809992246,0.717620239671697,0.015291188320770317,-0.083064,-30.499383
11.185,2.0,1.0,1.0,34.4,33.3,33.3,2.0,1.5,2.515,0.6766320174712462,-0.026140570154322286,0.7231783902453632,0.015277783917741846,-0.084116,-30.377538
11.185,2.0,1.0,1.0,34.4,33.3,33.3,2.0,1.5,2.5175,0.6704841575287802,-0.026647383809235037,0.7287154528485189,0.015259376826921843,-0.085191,-30.255198
11.185,2.0,1.0,1.0,34.4,33.3,33.3,2.0,1.5,2.52,0.6642537552436877,-0.027163493043324223,0.7342305579679204,0.015235758483068174,-0.086288,-30.132356
11.185,2.0,1.0,1.0,34.4,33.3,33.3,2.0,1.5,2.5225,0.6579399259058727,-0.027689075110598604,0.7397228094247591,0.015206712199272455,-0.087408,-30.009004
11.185,2.0,1.0,1.0,34.4,33.3,33.3,2.0,1.5,2.525,0.6515417744618573,-0.02822431057559574,0.7451912835258706,0.01517201283170389,-0.088551,-29.885134
11.185,2.0,1.0,1.0,34.4,33.3,33.3,2.0,1.5,2.5275,0.6450583955591119,-0.02876938334634632,0.7506350281871175,0.015131426429484547,-0.089719,-29.76074
11.185,2.0,1.0,1.0,34.4,33.3,33.3,2.0,1.5,2.53,0.6384888736026904,-0.02932448070483767,0.7560530620279825,0.01508470986898519,-0.090912,-29.635813
11.185,2.0,1.0,1.0,34.4,33.3,33.3,2.0,1.5,2.5325,0.6318322828250004,-0.02988979333467597,0.7614443734363675,0.015031610471793437,-0.092131,-29.510345
11.185,2.0,1.0,1.0,34.4,33.3,33.3,2.0,1.5,2.535,0.6250876873695982,-0.0304655153456164,0.7668079196025674,0.014971865605570822,-0.093375,-29.384328
11.185,2.0,1.0,1.0,34.4,33.3,33.3,2.0,1.5,2.5375,0.6182541413899562,-0.0310518442946035,0.7721426255213252,0.014905202266968955,-0.094647,-29.257754
11.185,2.0,1.0,1.0,34.4,33.3,33.3,2.0,1.5,2.54,0.6113306891641962,-0.03164898120293586,0.7774473829608634,0.01483133664573771,-0.095947,-29.130615
11.185,2.0,1.0,1.0,34.4,33.3,33.3,2.0,1.5,2.5425,0.6043163652268444,-0.03225713056913579,0.782721049397719,0.01474997366910734,-0.097275,-29.002903
11.185,2.0,1.0,1.0,34.4,33.3,33.3,2.0,1.5,2.545,0.5972101945187316,-0.03287650037706774,0.7879624469161874,0.01466080652548347,-0.098633,-28.874608
11.185,2.0,1.0,1.0,34.4,33.3,33.3,2.0,1.5,2.5475,0.5900111925562358,-0.03350730209881273,0.7931703610710998,0.014563516166438034,-0.100021,-28.745723
11.185,2.0,1.0,1.0,34.4,33.3,33.3,2.0,1.5,2.55,0.5827183656211055,-0.03414975069176799,0.7983435397126687,0.014457770785929212,-0.101441,-28.616238
11.185,2.0,1.0,1.0,34.4,33.3,33.3,2.0,1.5,2.5525,0.5753307109722311,-0.0348040645893876,0.803480691772007,0.014343225275624519,-0.102892,-28.486145
11.185,2.0,1.0,1.0,34.4,33.3,33.3,2.0,1.5,2.555,0.5678472170807547,-0.035470465684943706,0.8085804860059513,0.014219520655141076,-0.104377,-28.355434
11.185,2.0,1.0,1.0,34.4,33.3,33.3,2.0,1.5,2.5575,0.5602668638900321,-0.03614917930762575,0.8136415496997152,0.01408628347595459,-0.105896,-28.224097
11.185,2.0,1.0,1.0,34.4,33.3,33.3,2.0,1.5,2.56,0.5525886231020476,-0.03684043419024366,0.8186624673258499,0.013943125197659483,-0.107449,-28.092123
11.185,2.0,1.0,1.0,34.4,33.3,33.3,2.0,1.5,2.5625,0.544811458491966,-0.037544462427739046,0.8236417791579465,0.01378964153519359,-0.109039,-27.959504
11.185,2.0,1.0,1.0,34.4,33.3,33.3,2.0,1.5,2.565,0.5369343262526164,-0.038261499425642574,0.8285779798374318,0.01362541177556194,-0.110667,-27.826229
11.185,2.0,1.0,1.0,34.4,33.3,33.3,2.0,1.5,2.5675,0.5289561753708273,-0.0389917838375417,0.8334695168917474,0.01344999806251804,-0.112333,-27.692289
11.185,2.0,1.0,1.0,34.4,33.3,33.3,2.0,1.5,2.57,0.5208759480376246,-0.03973555749054884,0.8383147892021406,0.013262944647573506,-0.114038,-27.557674
11.185,2.0,1.0,1.0,34.4,33.3,33.3,2.0,1.5,2.5725,0.5126925800944467,-0.04049306529767343,0.84311214541922,0.013063777105618892,-0.115785,-27.422373
11.185,2.0,1.0,1.0,34.4,33.3,33.3,2.0,1.5,2.575,0.5044050015176648,-0.0412645551559083,0.8478598823243398,0.01285200151334232,-0.117574,-27.286377
11.185,2.0,1.0,1.0,34.4,33.3,33.3,2.0,1.5,2.5775,0.4960121369438303,-0.04205027782874793,0.8525562431348155,0.012627103588532536,-0.119406,-27.149674
11.185,2.0,1.0,1.0,34.4,33.3,33.3,2.0,1.5,2.58,0.4875129062382416,-0.042850486811738475,0.8571994157508753,0.012388547788247146,-0.121284,-27.012254
11.185,2.0,1.0,1.0,34.4,33.3,33.3,2.0,1.5,2.5825,0.4789062251095586,-0.04366543817955355,0.8617875309421713,0.012135776363710578,-0.123208,-26.874106
11.185,2.0,1.0,1.0,34.4,33.3,33.3,2.0,1.5,2.585,0.4701910057734027,-0.04449539041295255,0.8663186604715744,0.011868208369690818,-0.12518,-26.73522
11.185,2.0,1.0,1.0,34.4,33.3,33.3,2.0,1.5,2.5875,0.461366157668031,-0.045340604203848806,0.8707908151538882,0.011585238625971496,-0.127202,-26.595582
11.185,2.0,1.0,1.0,34.4,33.3,33.3,2.0,1.5,2.59,0.4524305882254118,-0.04620134223655721,0.8752019428470059,0.011286236628407028,-0.129276,-26.455183
11.185,2.0,1.0,1.0,34.4,33.3,33.3,2.0,1.5,2.5925,0.4433832037012075,-0.047077868943134454,0.8795499263729222,0.010970545406897828,-0.131402,-26.31401
11.185,2.0,1.0,1.0,34.4,33.3,33.3,2.0,1.5,2.595,0.4342229100674388,-0.047970450230540015,0.8838325813659156,0.010637480327478317,-0.133583,-26.172052
11.185,2.0,1.0,1.0,34.4,33.3,33.3,2.0,1.5,2.5975,0.42494861397181494,-0.04887935317715957,0.8880476540450711,0.010286327835543592,-0.135821,-26.029295
11.185,2.0,1.0,1.0,34.4,33.3,33.3,2.0,1.5,2.6,0.41555922376800347,-0.049804845696016314,0.8921928189082133,0.00991634413707127,-0.138118,-25.885728
11.185,2.0,1.0,1.0,34.4,33.3,33.3,2.0,1.5,2.6025,0.40605365062140986,-0.05074719616176764,0.8962656763441532,0.009526753814514432,-0.140476,-25.741338
11.185,2.0,1.0,1.0,34.4,33.3,33.3,2.0,1.5,2.605,0.39643080969531186,-0.051706672998334396,0.9002637501600417,0.009116748373846665,-0.142897,-25.596113
11.185,2.0,1.0,1.0,34.4,33.3,33.3,2.0,1.5,2.6075,0.3866896214225554,-0.052683544223735806,0.9041844850204531,0.008685484719036308,-0.145383,-25.450038
11.185,2.0,1.0,1.0,34.4,33.3,33.3,2.0,1.5,2.61,0.3768290128683738,-0.05367807694840238,0.9080252437946664,0.00823208355001023,-0.147937,-25.3031
11.185,2.0,1.0,1.0,34.4,33.3,33.3,2.0,1.5,2.6125,0.36684791919026316,-0.05469053682291679,0.9117833048084447,0.007755627679935801,-0.150561,-25.155287
11.185,2.0,1.0,1.0,34.4,33.3,33.3,2.0,1.5,2.615,0.35674528520127485,-0.05572118743077297,0.9154558589964529,0.007255160267403356,-0.153257,-25.006583
11.185,2.0,1.0,1.0,34.4,33.3,33.3,2.0,1.5,2.6175,0.3465200670435497,-0.05677028962135393,0.9190400069512211,0.006729682958834709,-0.156029,-24.856974
11.185,2.0,1.0,1.0,34.4,33.3,33.3,2.0,1.5,2.62,0.3361712339793854,-0.05783810077790076,0.922532755864425,0.006178153936163941,-0.158879,-24.706447
11.185,2.0,1.0,1.0,34.4,33.3,33.3,2.0,1.5,2.6225,0.3256977703076736,-0.058924874014782844,0.9259310163559789,0.005599485864543939,-0.161811,-24.554985
11.185,2.0,1.0,1.0,34.4,33.3,33.3,2.0,1.5,2.625,0.315098677414128,-0.0600308572978558,0.929231599186265,0.00499254373452427,-0.164826,-24.402574
11.185,2.0,1.0,1.0,34.4,33.3,33.3,2.0,1.5,2.6275,0.30437297596431295,-0.06115629248114604,0.932431211846561,0.004356142592811021,-0.167929,-24.249198
11.185,2.0,1.0,1.0,34.4,33.3,33.3,2.0,1.5,2.63,0.29351970824921153,-0.06230141425247085,0.9355264550224826,0.0036890451553741503,-0.171123,-24.094841
11.185,2.0,1.0,1.0,34.4,33.3,33.3,2.0,1.5,2.6325,0.28253794069376625,-0.06346644897993364,0.938513818924994,0.002989959296295367,-0.174412,-23.939488
11.185,2.0,1.0,1.0,34.4,33.3,33.3,2.0,1.5,2.635,0.27142676653966896,-0.06465161345048719,0.9413896794832564,0.0022575354053550284,-0.177799,-23.783121
11.185,2.0,1.0,1.0,34.4,33.3,33.3,2.0,1.5,2.6375,0.2601853087145326,-0.06585711349093795,0.9441502943932958,0.001490363606946076,-0.181288,-23.625723
11.185,2.0,1.0,1.0,34.4,33.3,33.3,2.0,1.5,2.64,0.24881272290052564,-0.06708314246086673,0.9467917990161507,0.0006869708324576582,-0.184883,-23.467277
11.185,2.0,1.0,1.0,34.4,33.3,33.3,2.0,1.5,2.6425,0.23730820081664777,-0.06832987960594629,0.949310202118834,-0.0001541822621893952,-0.188589,-23.307765
11.185,2.0,1.0,1.0,34.4,33.3,33.3,2.0,1.5,2.645,0.22567097372992076,-0.06959748825904487,0.9517013814510822,-0.0010347045426650338,-0.192411,-23.147169
11.185,2.0,1.0,1.0,34.4,33.3,33.3,2.0,1.5,2.6475,0.21390031621205755,-0.07088611387529639,0.9539610791505356,-0.0019562778153353086,-0.196352,-22.98547
11.185,2.0,1.0,1.0,34.4,33.3,33.3,2.0,1.5,2.65,0.2019955501595443,-0.07219588188599156,0.956084896968538,-0.002920660429222241,-0.200419,-22.82265
11.185,2.0,1.0,1.0,34.4,33.3,33.3,2.0,1.5,2.6525,0.18995604909660133,-0.07352689535466425,0.9580682913084277,-0.003929691071257136,-0.204616,-22.658688
11.185,2.0,1.0,1.0,34.4,33.3,33.3,2.0,1.5,2.655,0.17778124278213087,-0.07487923241713237,0.9599065680676776,-0.004985292765867592,-0.208949,-22.493564
11.185,2.0,1.0,1.0,34.4,33.3,33.3,2.0,1.5,2.6575,0.16547062214362893,-0.07625294348544481,0.9615948772748766,-0.006089477090565445,-0.213424,-22.327259
11.185,2.0,1.0,1.0,34.4,33.3,33.3,2.0,1.5,2.66,0.15302374456304005,-0.07764804819369504,0.9631282075120262,-0.007244348619852027,-0.218048,-22.15975
11.185,2.0,1.0,1.0,34.4,33.3,33.3,2.0,1.5,2.6625,0.14044023954179619,-0.07906453206145352,0.9645013801121961,-0.008452109610435557,-0.222826,-21.991017
11.185,2.0,1.0,1.0,34.4,33.3,33.3,2.0,1.5,2.665,0.12771981477471825,-0.08050234284812158,0.9657090431220545,-0.009715064941461387,-0.227767,-21.821036
11.185,2.0,1.0,1.0,34.4,33.3,33.3,2.0,1.5,2.6675,0.11486226266524703,-0.08196138656878357,0.9667456650183154,-0.011035627324164717,-0.232876,-21.649786
11.185,2.0,1.0,1.0,34.4,33.3,33.3,2.0,1.5,2.67,0.10186746731744227,-0.08344152313911443,0.9676055281666386,-0.012416322796104452,-0.238163,-21.477242
11.185,2.0,1.0,1.0,34.4,33.3,33.3,2.0,1.5,2.6725,0.08873541204359076,-0.084942561613539,0.9682827220109906,-0.0138597965158749,-0.243635,-21.303381
11.185,2.0,1.0,1.0,34.4,33.3,33.3,2.0,1.5,2.675,0.07546618742999017,-0.08646425497708583,0.9687711359810091,-0.015368818874941206,-0.249302,-21.128179
11.185,2.0,1.0,1.0,34.4,33.3,33.3,2.0,1.5,2.6775,0.06206000000762361,-0.08800629444721902,0.9690644521043901,-0.016946291943989646,-0.255172,-20.951609
11.185,2.0,1.0,1.0,34.4,33.3,33.3,2.0,1.5,2.68,0.048517181579031954,-0.08956830323727451,0.9691561373109207,-0.018595256271900583,-0.261255,-20.773646
11.185,2.0,1.0,1.0,34.4,33.3,33.3,2.0,1.5,2.6825,0.03483819925791256,-0.09114982972793657,0.9690394354143029,-0.020318898056142547,-0.267561,-20.594263
11.185,2.0,1.0,1.0,34.4,33.3,33.3,2.0,1.5,2.685,0.021023666283605698,-0.09275033998739574,0.9687073587576445,-0.02212055670401227,-0.274103,-20.413432
11.185,2.0,1.0,1.0,34.4,33.3,33.3,2.0,1.5,2.6875,0.00707435367913968,-0.09436920957434776,0.9681526795081723,-0.024003732804701194,-0.280891,-20.231126
11.185,2.0,1.0,1.0,34.4,33.3,33.3,2.0,1.5,2.69,-0.00700879717137766,-0.09600571455073974,0.9673679205866408,-0.025972096532600627,-0.287938,-20.047314
11.185,2.0,1.0,1.0,34.4,33.3,33.3,2.0,1.5,2.6925,-0.021224660942238523,-0.0976590216230529,0.9663453462168963,-0.028029496502557098,-0.295258,-19.861967
11.185,2.0,1.0,1.0,34.4,33.3,33.3,2.0,1.5,2.695,-0.03557191368962501,-0.09932817732181236,0.9650769520812937,-0.030179969097868124,-0.302865,-19.675054
11.185,2.0,1.0,1.0,34.4,33.3,33.3,2.0,1.5,2.6975,-0.05004901697634052,-0.10101209611880836,0.9635544550681762,-0.032427748291659404,-0.310773,-19.486544
11.185,2.0,1.0,1.0,34.4,33.3,33.3,2.0,1.5,2.7,-0.06465420068353875,-0.10270954737006112,0.961769282598401,-0.034777275981773936,-0.319,-19.296403
11.185,2.0,1.0,1.0,34.4,33.3,33.3,2.0,1.5,2.7025,-0.07938544438267152,-0.10441914095969963,0.9597125615191955,-0.037233212858407826,-0.327562,-19.104598
11.185,2.0,1.0,1.0,34.4,33.3,33.3,2.0,1.5,2.705,-0.0942404571264945,-0.10613931150546328,0.95737510655535,-0.03980044982227707,-0.336478,-18.911094
11.185,2.0,1.0,1.0,34.4,33.3,33.3,2.0,1.5,2.7075,-0.10921665550203045,-0.10786830097027707,0.9547474083102376,-0.04248411996900435,-0.345768,-18.715855
11.185,2.0,1.0,1.0,34.4,33.3,33.3,2.0,1.5,2.71,-0.12431113977025007,-0.10960413950605145,0.9518196208123746,-0.04528961115249084,-0.355453,-18.518845
11.185,2.0,1.0,1.0,34.4,33.3,33.3,2.0,1.5,2.7125,-0.1395206678969359,-0.11134462433525695,0.9485815486075293,-0.048222579136085526,-0.365555,-18.320024
11.185,2.0,1.0,1.0,34.4,33.3,33.3,2.0,1.5,2.715,-0.15484162725626588,-0.11308729645260647,0.9450226334019616,-0.05128896133513637,-0.3761,-18.119355
11.185,2.0,1.0,1.0,34.4,33.3,33.3,2.0,1.5,2.7175,-0.17027000376278173,-0.11482941490303393,0.9411319402694241,-0.0544949911477244,-0.387113,-17.916796
11.185,2.0,1.0,1.0,34.4,33.3,33.3,2.0,1.5,2.72,-0.18580134815828706,-0.11656792836265953,0.9368981434436922,-0.05784721286163339,-0.398622,-17.712306
11.185,2.0,1.0,1.0,34.4,33.3,33.3,2.0,1.5,2.7225,-0.20143073914731274,-0.11829944371619727,0.9323095117296973,-0.06135249711450207,-0.410658,-17.505842
11.185,2.0,1.0,1.0,34.4,33.3,33.3,2.0,1.5,2.725,-0.21715274303763332,-0.1200201912867625,0.9273538935807657,-0.06501805687002955,-0.423254,-17.29736
11.185,2.0,1.0,1.0,34.4,33.3,33.3,2.0,1.5,2.7275,-0.23296136950054774,-0.12172598633178032,0.9220187019073058,-0.06885146385546959,-0.436445,-17.086813
11.185,2.0,1.0,1.0,34.4,33.3,33.3,2.0,1.5,2.73,-0.24885002301823886,-0.12341218637103273,0.916290898704647,-0.07286066538353711,-0.450269,-16.874155
11.185,2.0,1.0,1.0,34.4,33.3,33.3,2.0,1.5,2.7325,-0.2648114495324163,-0.1250736438592043,0.9101569796154119,-0.07705400145436876,-0.464767,-16.659338
11.185,2.0,1.0,1.0,34.4,33.3,33.3,2.0,1.5,2.735,-0.2808376777482669,-0.12670465365482553,0.903602958576118,-0.08144022199901257,-0.479984,-16.44231
11.185,2.0,1.0,1.0,34.4,33.3,33.3,2.0,1.5,2.7375,-0.2969199544802731,-0.128298894669502,0.8966143527401292,-0.08602850408365191,-0.495968,-16.223021
11.185,2.0,1.0,1.0,34.4,33.3,33.3,2.0,1.5,2.74,-0.31304867335035974,-0.1298493650049145,0.8891761679213805,-0.09082846884150955,-0.512772,-16.001417
11.185,2.0,1.0,1.0,34.4,33.3,33.3,2.0,1.5,2.7425,-0.3292132960636074,-0.13134830979937942,0.8812728848677527,-0.09585019783496786,-0.530453,-15.777445
11.185,2.0,1.0,1.0,34.4,33.3,33.3,2.0,1.5,2.745,-0.345402265391191,-0.13278714090985666,0.8728884467523393,-0.10110424847108143,-0.549073,-15.551047
11.185,2.0,1.0,1.0,34.4,33.3,33.3,2.0,1.5,2.7475,-0.3616029088834894,-0.134156347448284,0.8640062483682681,-0.10660166799609598,-0.5687,-15.322167
11.185,2.0,1.0,1.0,34.4,33.3,33.3,2.0,1.5,2.75,-0.377801332217596,-0.135445396072127,0.854609127632524,-0.112354005474708,-0.589407,-15.090745
11.185,2.0,1.0,1.0,34.4,33.3,33.3,2.0,1.5,2.7525,-0.39398230095191633,-0.136642619797348,0.844679360151125,-0.11837332101268176,-0.611275,-14.856721
11.185,2.0,1.0,1.0,34.4,33.3,33.3,2.0,1.5,2.755,-0.41012910931559204,-0.1377350939570969,0.83419865777816,-0.1246721913009961,-0.634394,-14.620033
11.185,2.0,1.0,1.0,34.4,33.3,33.3,2.0,1.5,2.7575,-0.4262234345022834,-0.13870849777119706,0.8231481723219386,-0.1312637103386319,-0.658859,-14.380617
11.185,2.0,1.0,1.0,34.4,33.3,33.3,2.0,1.5,2.76,-0.44224517476618086,-0.13954695982038254,0.8115085058218913,-0.13816148392036243,-0.684776,-14.13841
11.185,2.0,1.0,1.0,34.4,33.3,33.3,2.0,1.5,2.7625,-0.4581722694350609,-0.1402328855365869,0.7992597291506133,-0.1453796161447019,-0.712264,-13.893346
11.185,2.0,1.0,1.0,34.4,33.3,33.3,2.0,1.5,2.765,-0.47398049876252507,-0.14074676462896712,0.7863814110999703,-0.15293268579223807,-0.74145,-13.645358
11.185,2.0,1.0,1.0,34.4,33.3,33.3,2.0,1.5,2.7675,-0.4896432613442563,-0.14106695616923454,0.7728526606043157,-0.16083570993001933,-0.772477,-13.39438
11.185,2.0,1.0,1.0,34.4,33.3,33.3,2.0,1.5,2.77,-0.5051313266276307,-0.14116944886622118,0.7586521853568221,-0.1691040914943545,-0.805501,-13.140344
11.185,2.0,1.0,1.0,34.4,33.3,33.3,2.0,1.5,2.7725,-0.5204125598611141,-0.14102759387906313,0.7437583708098064,-0.17775354686931544,-0.840698,-12.883184
11.185,2.0,1.0,1.0,34.4,33.3,33.3,2.0,1.5,2.775,-0.5354516166749511,-0.1406118073664798,0.7281493844439805,-0.18680000858418175,-0.878258,-12.622833
11.185,2.0,1.0,1.0,34.4,33.3,33.3,2.0,1.5,2.7775,-0.5502096043797311,-0.13988923986873325,0.7118033112771952,-0.19625949716786187,-0.918397,-12.359226
11.185,2.0,1.0,1.0,34.4,33.3,33.3,2.0,1.5,2.78,-0.5646437070462668,-0.1388234096005932,0.6946983278980576,-0.20614795488443244,-0.961353,-12.0923
11.185,2.0,1.0,1.0,34.4,33.3,33.3,2.0,1.5,2.7825,-0.5787067715325074,-0.13737379684212384,0.6768129238972654,-0.21648103248828826,-1.007393,-11.821994
11.185,2.0,1.0,1.0,34.4,33.3,33.3,2.0,1.5,2.785,-0.5923468519118199,-0.1354953969102207,0.6581261814782321,-0.22727381823158171,-1.056812,-11.548251
11.185,2.0,1.0,1.0,34.4,33.3,33.3,2.0,1.5,2.7875,-0.6055067103146172,-0.13313822976075673,0.6386181263122814,-0.23854049607752462,-1.109946,-11.271019
11.185,2.0,1.0,1.0,34.4,33.3,33.3,2.0,1.5,2.79,-0.6181232731345929,-0.13024680522147866,0.6182701654180249,-0.25029391736559864,-1.167166,-10.990254
11.185,2.0,1.0,1.0,34.4,33.3,33.3,2.0,1.5,2.7925,-0.6301270430224841,-0.1267595443405421,0.5970656310443606,-0.2625450669848462,-1.228894,-10.705918
11.185,2.0,1.0,1.0,34.4,33.3,33.3,2.0,1.5,2.795,-0.6414414692948934,-0.12260815955534954,0.5749904532677224,-0.2753024013942881,-1.295603,-10.417985
11.185,2.0,1.0,1.0,34.4,33.3,33.3,2.0,1.5,2.7975,-0.6519822825869327,-0.11771699960515966,0.5520339883038015,-0.2885710315597366,-1.367828,-10.126442
11.185,2.0,1.0,1.0,34.4,33.3,33.3,2.0,1.5,2.8,-0.6616568041189375,-0.11200236967153596,0.5281900343704165,-0.3023517190669733,-1.446175,-9.831292
11.185,2.0,1.0,1.0,34.4,33.3,33.3,2.0,1.5,2.8025,-0.670363246268531,-0.10537184357248772,0.5034580722464523,-0.31663964840023406,-1.531331,-9.532556
11.185,2.0,1.0,1.0,34.4,33.3,33.3,2.0,1.5,2.805,-0.6779900297943379,-0.09772359351190213,0.4778447732702173,-0.3314229328266614,-1.624077,-9.230282
11.185,2.0,1.0,1.0,34.4,33.3,33.3,2.0,1.5,2.8075,-0.6844151547290256,-0.08894577457572105,0.45136582306358985,-0.3466808058512565,-1.725304,-8.924545
11.185,2.0,1.0,1.0,34.4,33.3,33.3,2.0,1.5,2.81,-0.6895056774615473,-0.07891601668128877,0.4240481141622959,-0.36238144540116257,-1.83603,-8.615456
11.185,2.0,1.0,1.0,34.4,33.3,33.3,2.0,1.5,2.8125,-0.6931173667925197,-0.06750109695145518,0.39593236402121995,-0.378479374724613,-1.957419,-8.303166
11.185,2.0,1.0,1.0,34.4,33.3,33.3,2.0,1.5,2.815,-0.6950946377655868,-0.05455689148411133,0.3670762150751196,-0.3949123839258312,-2.090807,-7.98788
11.185,2.0,1.0,1.0,34.4,33.3,33.3,2.0,1.5,2.8175,-0.6952708947870562,-0.03992873814330778,0.33755786849148817,-0.4115979212864454,-2.237734,-7.669857
11.185,2.0,1.0,1.0,34.4,33.3,33.3,2.0,1.5,2.82,-0.6934694556017875,-0.023452381945833798,0.30748028984096676,-0.428428917163073,-2.399969,-7.34943
11.185,2.0,1.0,1.0,34.4,33.3,33.3,2.0,1.5,2.8225,-0.6895052750883512,-0.004955721822578952,0.27697599884768764,-0.44526902958389214,-2.579561,-7.027012
11.185,2.0,1.0,1.0,34.4,33.3,33.3,2.0,1.5,2.825,-0.6831877412918526,0.015738369319221585,0.246212411017177,-0.4619473453362642,-2.778878,-6.703112
11.185,2.0,1.0,1.0,34.4,33.3,33.3,2.0,1.5,2.8275,-0.6743248721649437,0.03880782373046137,0.21539762921638053,-0.4782526403772336,-3.000668,-6.37835
11.185,2.0,1.0,1.0,34.4,33.3,33.3,2.0,1.5,2.83,-0.6627292932156635,0.06442537862236021,0.18478648003817932,-0.4939274069233074,-3.24812,-6.053471
