1,w,sub_t,h,l1,l2,l3,g1,g2,Freq,S11_re,S21_re,S11_img,S21_img,S11_dB,S21_dB
11.185,2.0,1.0,1.0,33.9,33.4,33.4,2.4,1.9,2.5,0.794279336244946,-0.014083454459843,0.594859163460203,0.0111855324445051,-0.066797,-34.901797
11.185,2.0,1.0,1.0,33.9,33.4,33.4,2.4,1.9,2.5025,0.789862752410932,-0.014366823399672041,0.6005752508427222,0.011226576667365817,-0.067517,-34.782846
11.185,2.0,1.0,1.0,33.9,33.4,33.4,2.4,1.9,2.505,0.7853826336327129,-0.014655485951782253,0.6062850994516797,0.011265983777578308,-0.068251,-34.663478
11.185,2.0,1.0,1.0,33.9,33.4,33.4,2.4,1.9,2.5075,0.7808383105428274,-0.014949550830668587,0.6119882816583255,0.01130367632223529,-0.068998,-34.543686
11.185,2.0,1.0,1.0,33.9,33.4,33.4,2.4,1.9,2.51,0.7762291036143036,-0.015249129384658602,0.6176843566980048,0.011339573782556683,-0.06976,-34.423462
11.185,2.0,1.0,1.0,33.9,33.4,33.4,2.4,1.9,2.5125,0.7715543230262614,-0.015554335667310678,0.6233728702438229,0.011373592443808327,-0.070535,-34.302798
11.185,2.0,1.0,1.0,33.9,33.4,33.4,2.4,1.9,2.515,0.766813268529283,-0.015865286510816933,0.6290533539658512,0.011405645259171562,-0.071326,-34.181686
11.185,2.0,1.0,1.0,33.9,33.4,33.4,2.4,1.9,2.5175,0.762005229310677,-0.01618210160146057,0.6347253250753147,0.011435641707253351,-0.072132,-34.060117
11.185,2.0,1.0,1.0,33.9,33.4,33.4,2.4,1.9,2.52,0.7571294838597411,-0.016504903557179942,0.6403882858532176,0.011463487642908436,-0.072953,-33.938085
11.185,2.0,1.0,1.0,33.9,33.4,33.4,2.4,1.9,2.5225,0.7521852998331747,-0.01683381800729122,0.6460417231627825,0.011489085141026865,-0.073791,-33.815581
11.185,2.0,1.0,1.0,33.9,33.4,33.4,2.4,1.9,2.525,0.7471719339207692,-0.017168973674422106,0.6516851079451198,0.011512332332919912,-0.074644,-33.692595
11.185,2.0,1.0,1.0,33.9,33.4,33.4,2.4,1.9,2.5275,0.7420886317115266,-0.017510502458709103,0.6573178946974653,0.0115331232349159,-0.075515,-33.569121
11.185,2.0,1.0,1.0,33.9,33.4,33.4,2.4,1.9,2.53,0.7369346275603812,-0.017858539524310563,0.6629395209333148,0.011551347568755234,-0.076403,-33.445148
11.185,2.0,1.0,1.0,33.9,33.4,33.4,2.4,1.9,2.5325,0.7317091444556867,-0.018213223388288204,0.6685494066237567,0.011566890573349795,-0.077308,-33.320668
11.185,2.0,1.0,1.0,33.9,33.4,33.4,2.4,1.9,2.535,0.7264113938876584,-0.018574696011908733,0.6741469536192721,0.011579632807445617,-0.078232,-33.195673
11.185,2.0,1.0,1.0,33.9,33.4,33.4,2.4,1.9,2.5375,0.721040575717979,-0.018943102894417165,0.6797315450512218,0.011589449942701145,-0.079175,-33.070152
11.185,2.0,1.0,1.0,33.9,33.4,33.4,2.4,1.9,2.54,0.7155958780507702,-0.019318593169331665,0.6853025447122345,0.011596212546663313,-0.080137,-32.944098
11.185,2.0,1.0,1.0,33.9,33.4,33.4,2.4,1.9,2.5425,0.7100764771051695,-0.01970131970331062,0.6908592964146456,0.011599785855094162,-0.081118,-32.8175
11.185,2.0,1.0,1.0,33.9,33.4,33.4,2.4,1.9,2.545,0.7044815370897477,-0.020091439197638016,0.6964011233261128,0.01160002953306465,-0.08212,-32.690348
11.185,2.0,1.0,1.0,33.9,33.4,33.4,2.4,1.9,2.5475,0.6988102100790476,-0.020489112292374493,0.7019273272814833,0.011596797424200573,-0.083143,-32.562634
11.185,2.0,1.0,1.0,33.9,33.4,33.4,2.4,1.9,2.55,0.6930616358924973,-0.020894503673217445,0.7074371880699609,0.011589937287423796,-0.084187,-32.434347
11.185,2.0,1.0,1.0,33.9,33.4,33.4,2.4,1.9,2.5525,0.6872349419760332,-0.021307782181110593,0.7129299626965439,0.011579290520495113,-0.085254,-32.305477
11.185,2.0,1.0,1.0,33.9,33.4,33.4,2.4,1.9,2.555,0.681329243286724,-0.021729120924641628,0.7184048846166902,0.011564691869618855,-0.086343,-32.176013
11.185,2.0,1.0,1.0,33.9,33.4,33.4,2.4,1.9,2.5575,0.675343642180753,-0.022158697395261526,0.7238611629431004,0.01154596912432473,-0.087456,-32.045946
11.185,2.0,1.0,1.0,33.9,33.4,33.4,2.4,1.9,2.56,0.6692772283051283,-0.022596693585355033,0.7292979816234367,0.011522942796793244,-0.088592,-31.915265
11.185,2.0,1.0,1.0,33.9,33.4,33.4,2.4,1.9,2.5625,0.6631290784935078,-0.023043296109185984,0.7347144985877705,0.011495425784736304,-0.089754,-31.783959
11.185,2.0,1.0,1.0,33.9,33.4,33.4,2.4,1.9,2.565,0.6568982566665567,-0.023498696326736648,0.7401098448644639,0.011463223016889774,-0.09094,-31.652016
11.185,2.0,1.0,1.0,33.9,33.4,33.4,2.4,1.9,2.5675,0.650583813737299,-0.023963090470451115,0.7454831236631332,0.01142613108011305,-0.092154,-31.519426
11.185,2.0,1.0,1.0,33.9,33.4,33.4,2.4,1.9,2.57,0.6441847875219271,-0.024436679774885856,0.7508334094232765,0.011383937827025462,-0.093394,-31.386177
11.185,2.0,1.0,1.0,33.9,33.4,33.4,2.4,1.9,2.5725,0.6377002026565892,-0.02491967060926233,0.7561597468270648,0.011336421963040525,-0.094662,-31.252258
11.185,2.0,1.0,1.0,33.9,33.4,33.4,2.4,1.9,2.575,0.631129070520707,-0.025412274612903418,0.761461149774727,0.011283352611582233,-0.095959,-31.117656
11.185,2.0,1.0,1.0,33.9,33.4,33.4,2.4,1.9,2.5775,0.6244703891674006,-0.02591470883352601,0.7667366003208613,0.011224488856189645,-0.097285,-30.982359
11.185,2.0,1.0,1.0,33.9,33.4,33.4,2.4,1.9,2.58,0.6177231432616621,-0.026427195868346437,0.7719850475699259,0.011159579258127118,-0.098642,-30.846356
11.185,2.0,1.0,1.0,33.9,33.4,33.4,2.4,1.9,2.5825,0.6108863040269318,-0.02694996400794129,0.7772054065290659,0.011088361348026387,-0.100031,-30.709633
11.185,2.0,1.0,1.0,33.9,33.4,33.4,2.4,1.9,2.585,0.6039588292008148,-0.027483247382788026,0.7823965569163233,0.011010561089986373,-0.101452,-30.572177
11.185,2.0,1.0,1.0,33.9,33.4,33.4,2.4,1.9,2.5875,0.596939663000689,-0.028027286112389756,0.7875573419221754,0.010925892316448289,-0.102906,-30.433975
11.185,2.0,1.0,1.0,33.9,33.4,33.4,2.4,1.9,2.59,0.5898277361000474,-0.028582326456866074,0.7926865669222177,0.010834056132050204,-0.104395,-30.295015
11.185,2.0,1.0,1.0,33.9,33.4,33.4,2.4,1.9,2.5925,0.5826219656164405,-0.029148620970866967,0.7977829981387027,0.010734740284537867,-0.10592,-30.155282
11.185,2.0,1.0,1.0,33.9,33.4,33.4,2.4,1.9,2.595,0.5753212551119878,-0.02972642865963674,0.8028453612484823,0.010627618500677125,-0.107481,-30.014761
11.185,2.0,1.0,1.0,33.9,33.4,33.4,2.4,1.9,2.5975,0.5679244946074519,-0.03031601513702509,0.8078723399347844,0.010512349784966553,-0.109081,-29.87344
11.185,2.0,1.0,1.0,33.9,33.4,33.4,2.4,1.9,2.6,0.560430560610981,-0.03091765278520311,0.8128625743800866,0.0103885776787942,-0.11072,-29.731303
11.185,2.0,1.0,1.0,33.9,33.4,33.4,2.4,1.9,2.6025,0.5528383161626921,-0.03153162091580266,0.8178146596971696,0.010255929477513187,-0.1124,-29.588335
11.185,2.0,1.0,1.0,33.9,33.4,33.4,2.4,1.9,2.605,0.5451466108963451,-0.03215820593215098,0.8227271442952928,0.010114015402729493,-0.114122,-29.444521
11.185,2.0,1.0,1.0,33.9,33.4,33.4,2.4,1.9,2.6075,0.5373542811194701,-0.03279770149222118,0.8275985281781923,0.00996242772689789,-0.115887,-29.299846
11.185,2.0,1.0,1.0,33.9,33.4,33.4,2.4,1.9,2.61,0.5294601499134064,-0.033450408671858105,0.8324272611704333,0.009800739847111236,-0.117697,-29.154293
11.185,2.0,1.0,1.0,33.9,33.4,33.4,2.4,1.9,2.6125,0.5214630272548192,-0.034116636127776545,0.8372117410683982,0.009628505304734997,-0.119554,-29.007846
11.185,2.0,1.0,1.0,33.9,33.4,33.4,2.4,1.9,2.615,0.5133617101603862,-0.03479670025975281,0.8419503117119782,0.009445256747293952,-0.121459,-28.860489
11.185,2.0,1.0,1.0,33.9,33.4,33.4,2.4,1.9,2.6175,0.5051549828564885,-0.0354909253713475,0.8466412609727318,0.009250504828744921,-0.123413,-28.712204
11.185,2.0,1.0,1.0,33.9,33.4,33.4,2.4,1.9,2.62,0.49684161697587087,-0.036199643828402774,0.8512828186540427,0.009043737043978622,-0.12542,-28.562973
11.185,2.0,1.0,1.0,33.9,33.4,33.4,2.4,1.9,2.6225,0.48842037178340303,-0.03692319621445471,0.8558731542984611,0.00882441649307687,-0.12748,-28.412779
11.185,2.0,1.0,1.0,33.9,33.4,33.4,2.4,1.9,2.625,0.479889994433264,-0.0376619314820782,0.860410374897101,0.00859198057050531,-0.129595,-28.261604
11.185,2.0,1.0,1.0,33.9,33.4,33.4,2.4,1.9,2.6275,0.4712492202600283,-0.03841620709905229,0.8648925224956074,0.008345839574050237,-0.131768,-28.109428
11.185,2.0,1.0,1.0,33.9,33.4,33.4,2.4,1.9,2.63,0.4624967731063784,-0.03918638918808042,0.8693175716908204,0.008085375227900088,-0.134001,-27.956232
11.185,2.0,1.0,1.0,33.9,33.4,33.4,2.4,1.9,2.6325,0.4536313656903843,-0.039972852658632194,0.8736834270118164,0.007809939113831493,-0.136295,-27.801997
11.185,2.0,1.0,1.0,33.9,33.4,33.4,2.4,1.9,2.635,0.44465170001554905,-0.0407759813292801,0.8779879201785867,0.007518851003977899,-0.138654,-27.646701
11.185,2.0,1.0,1.0,33.9,33.4,33.4,2.4,1.9,2.6375,0.43555646782710716,-0.04159616803869138,0.8822288072310711,0.007211397088136982,-0.14108,-27.490325
11.185,2.0,1.0,1.0,33.9,33.4,33.4,2.4,1.9,2.64,0.4263443511183589,-0.0424338147431917,0.8864037655207628,0.006886828088000095,-0.143575,-27.332846
11.185,2.0,1.0,1.0,33.9,33.4,33.4,2.4,1.9,2.6425,0.4170140226911956,-0.04328933259854103,0.8905103905564664,0.006544357250068036,-0.146142,-27.174243
11.185,2.0,1.0,1.0,33.9,33.4,33.4,2.4,1.9,2.645,0.40756414677533387,-0.04416314202325536,0.894546192695178,0.006183158208336603,-0.148784,-27.014494
11.185,2.0,1.0,1.0,33.9,33.4,33.4,2.4,1.9,2.6475,0.397993379711218,-0.04505567274045654,0.8985085936683214,0.005802362707095618,-0.151504,-26.853574
11.185,2.0,1.0,1.0,33.9,33.4,33.4,2.4,1.9,2.65,0.38830037070199613,-0.04596736379483799,0.9023949229328345,0.005401058173374815,-0.154305,-26.691461
11.185,2.0,1.0,1.0,33.9,33.4,33.4,2.4,1.9,2.6525,0.378483762640566,-0.04689866354088489,0.9062024138357196,0.004978285127687996,-0.15719,-26.528129
11.185,2.0,1.0,1.0,33.9,33.4,33.4,2.4,1.9,2.655,0.3685421930181931,-0.047850029597985726,0.9099281995797858,0.004533034420753438,-0.160164,-26.363554
11.185,2.0,1.0,1.0,33.9,33.4,33.4,2.4,1.9,2.6575,0.3584742949219391,-0.04882192876749424,0.9135693089772673,0.004064244282815831,-0.163229,-26.197709
11.185,2.0,1.0,1.0,33.9,33.4,33.4,2.4,1.9,2.66,0.34827869812882495,-0.04981483690615358,0.9171226619769282,0.003570797171027615,-0.16639,-26.030568
11.185,2.0,1.0,1.0,33.9,33.4,33.4,2.4,1.9,2.6625,0.33795403030553106,-0.05082923874955669,0.9205850649490026,0.0030515163990808203,-0.16965,-25.862103
11.185,2.0,1.0,1.0,33.9,33.4,33.4,2.4,1.9,2.665,0.32749891832330197,-0.05186562767848265,0.9239532057110491,0.0025051625318811424,-0.173014,-25.692287
11.185,2.0,1.0,1.0,33.9,33.4,33.4,2.4,1.9,2.6675,0.31691198969885376,-0.052924505419992725,0.9272236482762654,0.0019304295265274744,-0.176487,-25.52109
11.185,2.0,1.0,1.0,33.9,33.4,33.4,2.4,1.9,2.67,0.30619187417319377,-0.05400638167409442,0.9303928273042418,0.001325940599174517,-0.180074,-25.348481
11.185,2.0,1.0,1.0,33.9,33.4,33.4,2.4,1.9,2.6725,0.29533720544161757,-0.055111773655547494,0.9334570422323663,0.0006902437955117604,-0.183779,-25.174431
11.185,2.0,1.0,1.0,33.9,33.4,33.4,2.4,1.9,2.675,0.2843466230496883,-0.05624120553898636,0.9364124510640993,2.180724055802354e-05,-0.187609,-24.998907
11.185,2.0,1.0,1.0,33.9,33.4,33.4,2.4,1.9,2.6775,0.27321877447165716,-0.05739520779392989,0.9392550637882332,-0.0006809859587670926,-0.191568,-24.821876
11.185,2.0,1.0,1.0,33.9,33.4,33.4,2.4,1.9,2.68,0.2619523173897547,-0.05857431639443047,0.941980735400868,-0.0014198431872905145,-0.195663,-24.643304
11.185,2.0,1.0,1.0,33.9,33.4,33.4,2.4,1.9,2.6825,0.25054592219497757,-0.059779071886021024,0.9445851584992215,-0.002196568203160878,-0.199901,-24.463157
11.185,2.0,1.0,1.0,33.9,33.4,33.4,2.4,1.9,2.685,0.2389982747324866,-0.061010018290238346,0.9470638554135098,-0.0030130674620471544,-0.204288,-24.281397
11.185,2.0,1.0,1.0,33.9,33.4,33.4,2.4,1.9,2.6875,0.22730807931759123,-0.06226770182426456,0.9494121698399692,-0.0038713569219488682,-0.208832,-24.097988
11.185,2.0,1.0,1.0,33.9,33.4,33.4,2.4,1.9,2.69,0.21547406205155992,-0.06355266941009435,0.9516252579345655,-0.004773569370235028,-0.213541,-23.912891
11.185,2.0,1.0,1.0,33.9,33.4,33.4,2.4,1.9,2.6925,0.20349497447017426,-0.06486546694404464,0.9536980788230768,-0.00572196231853965,-0.218422,-23.726065
11.185,2.0,1.0,1.0,33.9,33.4,33.4,2.4,1.9,2.695,0.1913695975622962,-0.06620663729328094,0.9556253844789029,-0.006718926515557093,-0.223485,-23.53747
11.185,2.0,1.0,1.0,33.9,33.4,33.4,2.4,1.9,2.6975,0.17909674620046334,-0.06757671798129275,0.9574017089153022,-0.007766995132665647,-0.22874,-23.347062
11.185,2.0,1.0,1.0,33.9,33.4,33.4,2.4,1.9,2.7,0.166675274031293,-0.06897623851875984,0.9590213566334245,-0.00886885368269048,-0.234196,-23.154798
11.185,2.0,1.0,1.0,33.9,33.4,33.4,2.4,1.9,2.7025,0.15410407887978383,-0.07040571732994512,0.9604783902617998,-0.010027350738068022,-0.239864,-22.96063
11.185,2.0,1.0,1.0,33.9,33.4,33.4,2.4,1.9,2.705,0.14138210872916973,-0.07186565821744738,0.9617666173164743,-0.011245509521237904,-0.245756,-22.764512
11.185,2.0,1.0,1.0,33.9,33.4,33.4,2.4,1.9,2.7075,0.12850836834644266,-0.07335654629971622,0.9628795760039862,-0.012526540447336773,-0.251884,-22.566394
11.185,2.0,1.0,1.0,33.9,33.4,33.4,2.4,1.9,2.71,0.11548192663367059,-0.07487884334596133,0.9638105199814908,-0.013873854707261315,-0.258261,-22.366226
11.185,2.0,1.0,1.0,33.9,33.4,33.4,2.4,1.9,2.7125,0.10230192479664824,-0.07643298242176676,0.9645524019797687,-0.015291078987991443,-0.264902,-22.163953
11.185,2.0,1.0,1.0,33.9,33.4,33.4,2.4,1.9,2.715,0.08896758543576702,-0.07801936174556913,0.9650978561853095,-0.016782071436772794,-0.271822,-21.95952
11.185,2.0,1.0,1.0,33.9,33.4,33.4,2.4,1.9,2.7175,0.07547822267942433,-0.07963833764087759,0.9654391792671811,-0.018350938986460348,-0.279038,-21.752871
11.185,2.0,1.0,1.0,33.9,33.4,33.4,2.4,1.9,2.72,0.06183325349826262,-0.08129021645130641,0.9655683099228722,-0.020002056171077334,-0.286566,-21.543947
11.185,2.0,1.0,1.0,33.9,33.4,33.4,2.4,1.9,2.7225,0.048032210359466886,-0.08297524526475149,0.965476806804581,-0.021740085573552077,-0.294427,-21.332684
11.185,2.0,1.0,1.0,33.9,33.4,33.4,2.4,1.9,2.725,0.03407475540480816,-0.08469360126879573,0.9651558246735573,-0.023570000061719647,-0.302641,-21.119019
11.185,2.0,1.0,1.0,33.9,33.4,33.4,2.4,1.9,2.7275,0.01996069636458145,-0.08644537953110484,0.9645960886149183,-0.025497106984112262,-0.311231,-20.902886
11.185,2.0,1.0,1.0,33.9,33.4,33.4,2.4,1.9,2.73,0.0056900044531155245,-0.08823057896537664,0.963787866128794,-0.027527074513845565,-0.32022,-20.684214
11.185,2.0,1.0,1.0,33.9,33.4,33.4,2.4,1.9,2.7325,-0.008737165469391798,-0.09004908620449366,0.9627209368957359,-0.02966596034710748,-0.329634,-20.462931
11.185,2.0,1.0,1.0,33.9,33.4,33.4,2.4,1.9,2.735,-0.023320452137930096,-0.09190065705679841,0.9613845599950247,-0.031920242982347795,-0.339502,-20.238962
11.185,2.0,1.0,1.0,33.9,33.4,33.4,2.4,1.9,2.7375,-0.038059262141732296,-0.09378489516762804,0.95976743833377,-0.03429685582723499,-0.349856,-20.012229
11.185,2.0,1.0,1.0,33.9,33.4,33.4,2.4,1.9,2.74,-0.05295274075275751,-0.09570122744487031,0.9578576800228208,-0.036803224402656126,-0.360728,-19.78265
11.185,2.0,1.0,1.0,33.9,33.4,33.4,2.4,1.9,2.7425,-0.06799973879984567,-0.0976488757325303,0.955642756412527,-0.03944730693629296,-0.372155,-19.550139
11.185,2.0,1.0,1.0,33.9,33.4,33.4,2.4,1.9,2.745,-0.08319877497598666,-0.09962682412793272,0.9531094564777759,-0.04223763866223893,-0.384177,-19.314608
11.185,2.0,1.0,1.0,33.9,33.4,33.4,2.4,1.9,2.7475,-0.09854799286110143,-0.10163378123363194,0.9502438372180145,-0.04518338016719912,-0.396838,-19.075965
11.185,2.0,1.0,1.0,33.9,33.4,33.4,2.4,1.9,2.75,-0.114045111818158,-0.103668136511175,0.947031169714865,-0.048294370147213,-0.410186,-18.834112
11.185,2.0,1.0,1.0,33.9,33.4,33.4,2.4,1.9,2.7525,-0.12968737077278947,-0.10572790975683762,0.943455880468847,-0.05158118296038886,-0.424273,-18.58895
11.185,2.0,1.0,1.0,33.9,33.4,33.4,2.4,1.9,2.755,-0.14547146371096867,-0.10781069254472747,0.9395014876190806,-0.05505519137916142,-0.439157,-18.340373
11.185,2.0,1.0,1.0,33.9,33.4,33.4,2.4,1.9,2.7575,-0.16139346552055245,-0.10991358027481839,0.9351505316381388,-0.058728634957770136,-0.454901,-18.088272
11.185,2.0,1.0,1.0,33.9,33.4,33.4,2.4,1.9,2.76,-0.17744874655376325,-0.11203309321594312,0.9303845000917252,-0.06261469443371567,-0.471575,-17.832533
11.185,2.0,1.0,1.0,33.9,33.4,33.4,2.4,1.9,2.7625,-0.19363187399125859,-0.11416508463871365,0.9251837460639102,-0.06672757257150026,-0.489257,-17.573037
11.185,2.0,1.0,1.0,33.9,33.4,33.4,2.4,1.9,2.765,-0.209936497734807,-0.11630463378130988,0.9195273998795938,-0.07108258182684682,-0.508033,-17.309659
11.185,2.0,1.0,1.0,33.9,33.4,33.4,2.4,1.9,2.7675,-0.2263552181333309,-0.11844592097086994,0.9133932738147691,-0.07569623915156587,-0.527997,-17.042272
11.185,2.0,1.0,1.0,33.9,33.4,33.4,2.4,1.9,2.77,-0.24287943234302123,-0.1205820817214563,0.9067577595835437,-0.08058636816207014,-0.549255,-16.77074
11.185,2.0,1.0,1.0,33.9,33.4,33.4,2.4,1.9,2.7725,-0.2594991555202942,-0.1227050360304488,0.899595718543915,-0.08577220874298998,-0.571925,-16.494923
11.185,2.0,1.0,1.0,33.9,33.4,33.4,2.4,1.9,2.775,-0.27620281232786303,-0.12480528838015562,0.8918803647925873,-0.09127453393095007,-0.596137,-16.214676
11.185,2.0,1.0,1.0,33.9,33.4,33.4,2.4,1.9,2.7775,-0.2929769933776258,-0.12687169309885737,0.8835831416505031,-0.09711577359467816,-0.62204,-15.929849
11.185,2.0,1.0,1.0,33.9,33.4,33.4,2.4,1.9,2.78,-0.309806170214369,-0.12889117872061795,0.8746735925125423,-0.10332014395909764,-0.649798,-15.640285
11.185,2.0,1.0,1.0,33.9,33.4,33.4,2.4,1.9,2.7825,-0.3266723612335456,-0.13084842377819053,0.8651192276972284,-0.1099137813629713,-0.679597,-15.345822
11.185,2.0,1.0,1.0,33.9,33.4,33.4,2.4,1.9,2.785,-0.3435547394940556,-0.13272547503784848,0.8548853898523612,-0.11692487772519569,-0.711645,-15.046294
11.185,2.0,1.0,1.0,33.9,33.4,33.4,2.4,1.9,2.7875,-0.36042917170146593,-0.134501297507348,0.8439351217406652,-0.12438381393428669,-0.746179,-14.74153
11.185,2.0,1.0,1.0,33.9,33.4,33.4,2.4,1.9,2.79,-0.37726767566755764,-0.13615124358811287,0.8322290419655917,-0.1323232856494142,-0.783468,-14.431355
11.185,2.0,1.0,1.0,33.9,33.4,33.4,2.4,1.9,2.7925,-0.3940377812742111,-0.13764642647554384,0.8197252365622443,-0.14077841364988888,-0.823815,-14.115591
11.185,2.0,1.0,1.0,33.9,33.4,33.4,2.4,1.9,2.795,-0.4107017773720179,-0.13895298032592207,0.8063791775844251,-0.1497868276814916,-0.867568,-13.794057
11.185,2.0,1.0,1.0,33.9,33.4,33.4,2.4,1.9,2.7975,-0.42721582414158,-0.14003118681953985,0.7921436841483172,-0.1593887084420574,-0.915123,-13.466573
11.185,2.0,1.0,1.0,33.9,33.4,33.4,2.4,1.9,2.8,-0.4435289072998001,-0.14083444461853856,0.776968947216076,-0.16962676655694353,-0.966937,-13.13296
11.185,2.0,1.0,1.0,33.9,33.4,33.4,2.4,1.9,2.8025,-0.45958160728415104,-0.1413080549833966,0.7608026472022756,-0.18054612963658825,-1.023532,-12.793044
11.185,2.0,1.0,1.0,33.9,33.4,33.4,2.4,1.9,2.805,-0.47530465346231177,-0.1413877937401409,0.7435902038853835,-0.19219409816345884,-1.085512,-12.446658
11.185,2.0,1.0,1.0,33.9,33.4,33.4,2.4,1.9,2.8075,-0.49061723096321463,-0.140998237349067,0.7252752118967313,-0.20461971723695566,-1.153579,-12.093649
11.185,2.0,1.0,1.0,33.9,33.4,33.4,2.4,1.9,2.81,-0.5054250066944903,-0.14005080979742202,0.705800133223302,-0.2178730931345787,-1.228543,-11.733881
11.185,2.0,1.0,1.0,33.9,33.4,33.4,2.4,1.9,2.8125,-0.5196178427697986,-0.13844151868600862,0.6851073418782367,-0.23200436005174452,-1.311354,-11.367243
11.185,2.0,1.0,1.0,33.9,33.4,33.4,2.4,1.9,2.815,-0.5330671719113804,-0.13604835518680974,0.6631406465078892,-0.24706217192415808,-1.403117,-10.99366
11.185,2.0,1.0,1.0,33.9,33.4,33.4,2.4,1.9,2.8175,-0.5456230234767525,-0.13272834655920898,0.6398474556097767,-0.2630915555297182,-1.505135,-10.613103
11.185,2.0,1.0,1.0,33.9,33.4,33.4,2.4,1.9,2.82,-0.5571107151704953,-0.12831427619007424,0.6151817984073347,-0.2801309129426032,-1.618936,-10.225605
11.185,2.0,1.0,1.0,33.9,33.4,33.4,2.4,1.9,2.8225,-0.5673272709516278,-0.12261113134413265,0.5891084726871786,-0.2982079034516116,-1.746329,-9.831277
11.185,2.0,1.0,1.0,33.9,33.4,33.4,2.4,1.9,2.825,-0.5760376996633324,-0.11539241245767719,0.5616086577297765,-0.3173338685769195,-1.889456,-9.430335
11.185,2.0,1.0,1.0,33.9,33.4,33.4,2.4,1.9,2.8275,-0.5829713845182896,-0.10639655283870364,0.5326874010621818,-0.33749639359729117,-2.050859,-9.023123
11.185,2.0,1.0,1.0,33.9,33.4,33.4,2.4,1.9,2.83,-0.5878190076174759,-0.09532387081159914,0.502383451034071,-0.3586495360832119,-2.233567,-8.610152
