1,w,sub_t,h,l1,l2,l3,g1,g2,Freq,S11_re,S21_re,S11_img,S21_img,S11_dB,S21_dB
11.185,2.0,1.0,1.0,33.6,34.1,34.1,2.7,3.6,2.5,0.835765335543736,-0.00785006914411526,0.536461154764855,0.00576647722244194,-0.059935,-40.228443
11.185,2.0,1.0,1.0,33.6,34.1,34.1,2.7,3.6,2.5025,0.8320245396733359,-0.008007372345191392,0.542120477390382,0.005786886750907072,-0.060529,-40.105232
11.185,2.0,1.0,1.0,33.6,34.1,34.1,2.7,3.6,2.505,0.8282278112636203,-0.008167573685663076,0.5477781339004045,0.00580642697448148,-0.061133,-39.981631
11.185,2.0,1.0,1.0,33.6,34.1,34.1,2.7,3.6,2.5075,0.8243745688341639,-0.008330734933178105,0.5534338378418162,0.00582505971592599,-0.061749,-39.857632
11.185,2.0,1.0,1.0,33.6,34.1,34.1,2.7,3.6,2.51,0.8204642212620737,-0.008496919527702079,0.5590872938176622,0.005842745297222293,-0.062376,-39.733225
11.185,2.0,1.0,1.0,33.6,34.1,34.1,2.7,3.6,2.5125,0.8164961676107825,-0.008666192636379511,0.5647381971872193,0.0058594424741006896,-0.063014,-39.608399
11.185,2.0,1.0,1.0,33.6,34.1,34.1,2.7,3.6,2.515,0.8124697969556803,-0.00883862121052017,0.570386233755559,0.005875108367351417,-0.063665,-39.483146
11.185,2.0,1.0,1.0,33.6,34.1,34.1,2.7,3.6,2.5175,0.8083844882065341,-0.009014274044806671,0.5760310794521595,0.005889698390741226,-0.064327,-39.357454
11.185,2.0,1.0,1.0,33.6,34.1,34.1,2.7,3.6,2.52,0.8042396099266177,-0.009193221838824359,0.5816723999981461,0.005903166175344885,-0.065002,-39.231314
11.185,2.0,1.0,1.0,33.6,34.1,34.1,2.7,3.6,2.5225,0.800034520148505,-0.00937553726101879,0.5873098505616826,0.005915463490088652,-0.06569,-39.104714
11.185,2.0,1.0,1.0,33.6,34.1,34.1,2.7,3.6,2.525,0.7957685661864429,-0.009561295015192848,0.5929430754010525,0.005926540158291265,-0.066391,-38.977645
11.185,2.0,1.0,1.0,33.6,34.1,34.1,2.7,3.6,2.5275,0.791441084445241,-0.00975057190966056,0.5985717074949204,0.005936343969972505,-0.067106,-38.850095
11.185,2.0,1.0,1.0,33.6,34.1,34.1,2.7,3.6,2.53,0.7870514002256106,-0.009943446929181053,0.604195368159241,0.005944820589686149,-0.067834,-38.722053
11.185,2.0,1.0,1.0,33.6,34.1,34.1,2.7,3.6,2.5325,0.7825988275258756,-0.010140001309802008,0.6098136666502725,0.005951913459616521,-0.068577,-38.593509
11.185,2.0,1.0,1.0,33.6,34.1,34.1,2.7,3.6,2.535,0.7780826688399797,-0.010340318616750624,0.6154261997531136,0.005957563697662539,-0.069334,-38.46445
11.185,2.0,1.0,1.0,33.6,34.1,34.1,2.7,3.6,2.5375,0.7735022149517137,-0.010544484825514594,0.6210325513551439,0.005961709990213188,-0.070106,-38.334866
11.185,2.0,1.0,1.0,33.6,34.1,34.1,2.7,3.6,2.54,0.768856744725085,-0.010752588406265825,0.6266322920037455,0.005964288479299691,-0.070893,-38.204744
11.185,2.0,1.0,1.0,33.6,34.1,34.1,2.7,3.6,2.5425,0.7641455248907376,-0.010964720411786415,0.6322249784476217,0.005965232643788069,-0.071696,-38.074072
11.185,2.0,1.0,1.0,33.6,34.1,34.1,2.7,3.6,2.545,0.7593678098283438,-0.011180974569065517,0.6378101531610143,0.0059644731742526935,-0.072516,-37.942838
11.185,2.0,1.0,1.0,33.6,34.1,34.1,2.7,3.6,2.5475,0.7545228413448796,-0.011401447374744422,0.643387343850063,0.005961937841147866,-0.073352,-37.811031
11.185,2.0,1.0,1.0,33.6,34.1,34.1,2.7,3.6,2.55,0.7496098484486776,-0.011626238194597224,0.6489560629405492,0.0059575513558664025,-0.074205,-37.678636
11.185,2.0,1.0,1.0,33.6,34.1,34.1,2.7,3.6,2.5525,0.7446280471191844,-0.011855449367244641,0.6545158070461676,0.005951235224247794,-0.075075,-37.545641
11.185,2.0,1.0,1.0,33.6,34.1,34.1,2.7,3.6,2.555,0.7395766400722977,-0.012089186312309253,0.6600660564164867,0.005942907592065741,-0.075964,-37.412034
11.185,2.0,1.0,1.0,33.6,34.1,34.1,2.7,3.6,2.5575,0.7344548165211934,-0.012327557643231957,0.6656062743636679,0.005932483081993558,-0.076871,-37.277799
11.185,2.0,1.0,1.0,33.6,34.1,34.1,2.7,3.6,2.56,0.7292617519325296,-0.012570675284981628,0.6711359066669763,0.005919872621508783,-0.077797,-37.142925
11.185,2.0,1.0,1.0,33.6,34.1,34.1,2.7,3.6,2.5625,0.723996607777916,-0.012818654596902335,0.6766543809540688,0.005904983261160903,-0.078743,-37.007396
11.185,2.0,1.0,1.0,33.6,34.1,34.1,2.7,3.6,2.565,0.7186585312805229,-0.013071614500957814,0.6821611060579823,0.00588771798258363,-0.079708,-36.871199
11.185,2.0,1.0,1.0,33.6,34.1,34.1,2.7,3.6,2.5675,0.7132466551567176,-0.013329677615644376,0.6876554713486742,0.005867975495588306,-0.080695,-36.734318
11.185,2.0,1.0,1.0,33.6,34.1,34.1,2.7,3.6,2.57,0.7077600973525874,-0.013592970395862127,0.6931368460379168,0.005845650023626949,-0.081703,-36.59674
11.185,2.0,1.0,1.0,33.6,34.1,34.1,2.7,3.6,2.5725,0.7021979607752157,-0.013861623279047467,0.6986045784562716,0.005820631076859018,-0.082733,-36.458448
11.185,2.0,1.0,1.0,33.6,34.1,34.1,2.7,3.6,2.575,0.6965593330185705,-0.01413577083789002,0.7040579953007825,0.0057928032120009125,-0.083786,-36.319427
11.185,2.0,1.0,1.0,33.6,34.1,34.1,2.7,3.6,2.5775,0.6908432860838518,-0.014415551939972213,0.7094964008519683,0.005762045778073448,-0.084861,-36.179662
11.185,2.0,1.0,1.0,33.6,34.1,34.1,2.7,3.6,2.58,0.6850488760941431,-0.014701109914691429,0.7149190761585708,0.005728232647096584,-0.085961,-36.039135
11.185,2.0,1.0,1.0,33.6,34.1,34.1,2.7,3.6,2.5825,0.6791751430031948,-0.01499259272784397,0.7203252781884713,0.00569123192870666,-0.087086,-35.897831
11.185,2.0,1.0,1.0,33.6,34.1,34.1,2.7,3.6,2.585,0.6732211102981712,-0.015290153164271632,0.7257142389440326,0.005650905667593071,-0.088236,-35.755733
11.185,2.0,1.0,1.0,33.6,34.1,34.1,2.7,3.6,2.5875,0.6671857846961649,-0.015593949018994599,0.7310851645400677,0.005607109522564654,-0.089413,-35.612822
11.185,2.0,1.0,1.0,33.6,34.1,34.1,2.7,3.6,2.59,0.661068155834298,-0.015904143297278822,0.7364372342424599,0.005559692425962651,-0.090617,-35.469081
11.185,2.0,1.0,1.0,33.6,34.1,34.1,2.7,3.6,2.5925,0.6548671959531869,-0.016220904424110394,0.7417695994653958,0.005508496222034226,-0.091848,-35.324492
11.185,2.0,1.0,1.0,33.6,34.1,34.1,2.7,3.6,2.595,0.6485818595735707,-0.01654440646357808,0.7470813827249759,0.005453355282771404,-0.093109,-35.179036
11.185,2.0,1.0,1.0,33.6,34.1,34.1,2.7,3.6,2.5975,0.6422110831658543,-0.016874829348691705,0.752371676546869,0.00539409609959659,-0.0944,-35.032694
11.185,2.0,1.0,1.0,33.6,34.1,34.1,2.7,3.6,2.6,0.6357537848123332,-0.017212359122195573,0.7576395423254749,0.0053305368491460975,-0.095721,-34.885446
11.185,2.0,1.0,1.0,33.6,34.1,34.1,2.7,3.6,2.6025,0.6292088638618427,-0.017557188188966292,0.7628840091319136,0.0052624869312573866,-0.097074,-34.737271
11.185,2.0,1.0,1.0,33.6,34.1,34.1,2.7,3.6,2.605,0.6225752005765507,-0.017909515580618738,0.7681040724679645,0.005189746477108393,-0.09846,-34.58815
11.185,2.0,1.0,1.0,33.6,34.1,34.1,2.7,3.6,2.6075,0.6158516557706089,-0.018269547232977926,0.7732986929628505,0.00511210582528612,-0.09988,-34.438061
11.185,2.0,1.0,1.0,33.6,34.1,34.1,2.7,3.6,2.61,0.6090370704403641,-0.018637496277111393,0.778466795009582,0.00502934496337112,-0.101336,-34.286982
11.185,2.0,1.0,1.0,33.6,34.1,34.1,2.7,3.6,2.6125,0.6021302653857938,-0.019013583344654923,0.7836072653372889,0.004941232932420116,-0.102827,-34.134891
11.185,2.0,1.0,1.0,33.6,34.1,34.1,2.7,3.6,2.615,0.5951300408228292,-0.019398036888205517,0.7887189515157385,0.004847527191500909,-0.104357,-33.981764
11.185,2.0,1.0,1.0,33.6,34.1,34.1,2.7,3.6,2.6175,0.5880351759862122,-0.01979109351759508,0.7938006603879201,0.004747972939186663,-0.105925,-33.827578
11.185,2.0,1.0,1.0,33.6,34.1,34.1,2.7,3.6,2.62,0.5808444287224966,-0.020192998352903963,0.7988511564262852,0.004642302388643467,-0.107534,-33.672309
11.185,2.0,1.0,1.0,33.6,34.1,34.1,2.7,3.6,2.6225,0.5735565350727915,-0.020604005395118034,0.8038691600078813,0.004530233992645044,-0.109185,-33.515931
11.185,2.0,1.0,1.0,33.6,34.1,34.1,2.7,3.6,2.625,0.566170208844841,-0.021024377915378,0.808853345603223,0.00441147161452029,-0.110878,-33.358419
11.185,2.0,1.0,1.0,33.6,34.1,34.1,2.7,3.6,2.6275,0.5586841411739755,-0.021454388863820097,0.8138023398733586,0.004285703640674879,-0.112617,-33.199746
11.185,2.0,1.0,1.0,33.6,34.1,34.1,2.7,3.6,2.63,0.5510970000724855,-0.021894321299054366,0.8187147196691278,0.0041526020299298885,-0.114403,-33.039886
11.185,2.0,1.0,1.0,33.6,34.1,34.1,2.7,3.6,2.6325,0.5434074299669283,-0.022344468839376685,0.8235890099260957,0.004011821294478231,-0.116237,-32.878809
11.185,2.0,1.0,1.0,33.6,34.1,34.1,2.7,3.6,2.635,0.5356140512228648,-0.022805136136861897,0.8284236814481198,0.003862997406774252,-0.118121,-32.716487
11.185,2.0,1.0,1.0,33.6,34.1,34.1,2.7,3.6,2.6375,0.5277154596565059,-0.02327663937553371,0.8332171485719012,0.0037057466261330024,-0.120057,-32.55289
11.185,2.0,1.0,1.0,33.6,34.1,34.1,2.7,3.6,2.64,0.5197102260327209,-0.02375930679485804,0.8379677667042112,0.003539664238221622,-0.122048,-32.387987
11.185,2.0,1.0,1.0,33.6,34.1,34.1,2.7,3.6,2.6425,0.5115968955488628,-0.02425347923985296,0.8426738297227433,0.0033643231999655986,-0.124094,-32.221746
11.185,2.0,1.0,1.0,33.6,34.1,34.1,2.7,3.6,2.645,0.5033739873038491,-0.02475951073915279,0.8473335672307473,0.003179272681664153,-0.1262,-32.054136
11.185,2.0,1.0,1.0,33.6,34.1,34.1,2.7,3.6,2.6475,0.49503999375193086,-0.025277769112406624,0.851945141654712,0.002984036497297948,-0.128366,-31.885121
11.185,2.0,1.0,1.0,33.6,34.1,34.1,2.7,3.6,2.65,0.48659338014056724,-0.025808636608426843,0.8565066451733785,0.002778111413113503,-0.130596,-31.714667
11.185,2.0,1.0,1.0,33.6,34.1,34.1,2.7,3.6,2.6525,0.4780325839318948,-0.026352510575528773,0.8610160964652425,0.002560965323568117,-0.132892,-31.542737
11.185,2.0,1.0,1.0,33.6,34.1,34.1,2.7,3.6,2.655,0.4693560142072168,-0.026909804165526047,0.8654714372605499,0.0023320352826073326,-0.135257,-31.369295
11.185,2.0,1.0,1.0,33.6,34.1,34.1,2.7,3.6,2.6575,0.4605620510540463,-0.027480947072847848,0.8698705286823929,0.002090725377006173,-0.137694,-31.194301
11.185,2.0,1.0,1.0,33.6,34.1,34.1,2.7,3.6,2.66,0.45164904493525126,-0.028066386310236585,0.8742111473600414,0.0018364044271211306,-0.140206,-31.017717
11.185,2.0,1.0,1.0,33.6,34.1,34.1,2.7,3.6,2.6625,0.442615316039952,-0.028666587022452325,0.8784909812959616,0.001568403498858226,-0.142796,-30.839499
11.185,2.0,1.0,1.0,33.6,34.1,34.1,2.7,3.6,2.665,0.43345915361589105,-0.029282033339356334,0.8827076254661382,0.001286013208931887,-0.145468,-30.659607
11.185,2.0,1.0,1.0,33.6,34.1,34.1,2.7,3.6,2.6675,0.4241788152831804,-0.029913229269655284,0.8868585771312043,0.000988480803559676,-0.148225,-30.477994
11.185,2.0,1.0,1.0,33.6,34.1,34.1,2.7,3.6,2.67,0.41477252632946127,-0.030560699636462137,0.8909412308335953,0.0006750069885695378,-0.151072,-30.294616
11.185,2.0,1.0,1.0,33.6,34.1,34.1,2.7,3.6,2.6725,0.4052384789867706,-0.031224991055651567,0.8949528730533286,0.00034474248646569324,-0.154012,-30.109424
11.185,2.0,1.0,1.0,33.6,34.1,34.1,2.7,3.6,2.675,0.39557483169070123,-0.03190667295775082,0.8988906764920825,-3.2157067288544426e-06,-0.15705,-29.92237
11.185,2.0,1.0,1.0,33.6,34.1,34.1,2.7,3.6,2.6775,0.38577970832279507,-0.032606338653794774,0.9027516939520136,-0.0003698283951096141,-0.160191,-29.733401
11.185,2.0,1.0,1.0,33.6,34.1,34.1,2.7,3.6,2.68,0.3758511974375796,-0.03332460644517221,0.9065328517720345,-0.0007561186207215749,-0.16344,-29.542464
11.185,2.0,1.0,1.0,33.6,34.1,34.1,2.7,3.6,2.6825,0.36578735147624475,-0.03406212077697365,0.9102309427801675,-0.0011631765031982185,-0.166801,-29.349505
11.185,2.0,1.0,1.0,33.6,34.1,34.1,2.7,3.6,2.685,0.35558618596964725,-0.03481955343370263,0.913842618715906,-0.0015921645232292675,-0.170282,-29.154465
11.185,2.0,1.0,1.0,33.6,34.1,34.1,2.7,3.6,2.6875,0.345245678734242,-0.0355976047753915,0.917364382071246,-0.00204432329685724,-0.173887,-28.957285
11.185,2.0,1.0,1.0,33.6,34.1,34.1,2.7,3.6,2.69,0.33476376906561967,-0.03639700501114208,0.9207925772931262,-0.0025209778932417906,-0.177624,-28.757902
11.185,2.0,1.0,1.0,33.6,34.1,34.1,2.7,3.6,2.6925,0.32413835693565596,-0.03721851550584112,0.9241233812832461,-0.003023544754926561,-0.181498,-28.556252
11.185,2.0,1.0,1.0,33.6,34.1,34.1,2.7,3.6,2.695,0.3133673022009913,-0.03806293011422253,0.9273527931235882,-0.003553539286898441,-0.185519,-28.352267
11.185,2.0,1.0,1.0,33.6,34.1,34.1,2.7,3.6,2.6975,0.3024484238324916,-0.03893107653450499,0.9304766229473543,-0.004112584188987083,-0.189693,-28.145876
11.185,2.0,1.0,1.0,33.6,34.1,34.1,2.7,3.6,2.7,0.2913794991779409,-0.03982381767142991,0.9334904798650742,-0.004702418615544459,-0.194029,-27.937007
11.185,2.0,1.0,1.0,33.6,34.1,34.1,2.7,3.6,2.7025,0.2801582632731682,-0.04074205299557094,0.9363897588445012,-0.0053249082570628915,-0.198537,-27.725582
11.185,2.0,1.0,1.0,33.6,34.1,34.1,2.7,3.6,2.705,0.26878240822060795,-0.04168671988215143,0.9391696264300493,-0.005982056450619567,-0.203226,-27.511523
11.185,2.0,1.0,1.0,33.6,34.1,34.1,2.7,3.6,2.7075,0.25724958265885045,-0.042658794908139896,0.9418250051729231,-0.006676016440030859,-0.208106,-27.294744
11.185,2.0,1.0,1.0,33.6,34.1,34.1,2.7,3.6,2.71,0.24555739135233182,-0.043659295080908336,0.9443505566263576,-0.007409104922613852,-0.213191,-27.07516
11.185,2.0,1.0,1.0,33.6,34.1,34.1,2.7,3.6,2.7125,0.23370339493720785,-0.0446892789650048,0.9467406627412004,-0.008183817037832457,-0.218491,-26.852679
11.185,2.0,1.0,1.0,33.6,34.1,34.1,2.7,3.6,2.715,0.22168510986785173,-0.04574984766531579,0.9489894054751272,-0.009002842974205047,-0.22402,-26.627205
11.185,2.0,1.0,1.0,33.6,34.1,34.1,2.7,3.6,2.7175,0.20950000861876353,-0.04684214561473194,0.9510905444034441,-0.009869086395123532,-0.229794,-26.398639
11.185,2.0,1.0,1.0,33.6,34.1,34.1,2.7,3.6,2.72,0.19714552020938864,-0.04796736110193284,0.9530374920904022,-0.010785684912193259,-0.235827,-26.166876
11.185,2.0,1.0,1.0,33.6,34.1,34.1,2.7,3.6,2.7225,0.18461903113486847,-0.049126726459533525,0.954823286946439,-0.011756032866956704,-0.242137,-25.931807
11.185,2.0,1.0,1.0,33.6,34.1,34.1,2.7,3.6,2.725,0.17191788680505699,-0.05032151781389421,0.956440563258044,-0.012783806719113168,-0.248742,-25.693315
11.185,2.0,1.0,1.0,33.6,34.1,34.1,2.7,3.6,2.7275,0.15903939361767364,-0.051553054274552666,0.9578815180322837,-0.013872993382445936,-0.255664,-25.451281
11.185,2.0,1.0,1.0,33.6,34.1,34.1,2.7,3.6,2.73,0.14598082182075128,-0.05282269641239694,0.9591378742462889,-0.015027921899568085,-0.262923,-25.205578
11.185,2.0,1.0,1.0,33.6,34.1,34.1,2.7,3.6,2.7325,0.13273940935556944,-0.054131843840052804,0.9602008400320424,-0.01625329890448243,-0.270545,-24.956071
11.185,2.0,1.0,1.0,33.6,34.1,34.1,2.7,3.6,2.735,0.11931236691600236,-0.055481931663794816,0.961061063257273,-0.017554248389134303,-0.278556,-24.702622
11.185,2.0,1.0,1.0,33.6,34.1,34.1,2.7,3.6,2.7375,0.10569688451559643,-0.05687442552149471,0.9617085808825128,-0.018936356368223075,-0.286985,-24.445082
11.185,2.0,1.0,1.0,33.6,34.1,34.1,2.7,3.6,2.74,0.09189013992267915,-0.05831081485299536,0.9621327623804501,-0.020405721127362286,-0.295865,-24.183297
11.185,2.0,1.0,1.0,33.6,34.1,34.1,2.7,3.6,2.7425,0.07788930940960208,-0.05979260396442607,0.9623222463945148,-0.021969009845394835,-0.305231,-23.917101
11.185,2.0,1.0,1.0,33.6,34.1,34.1,2.7,3.6,2.745,0.06369158136944361,-0.061321300342003164,0.9622648696864824,-0.02363352250477823,-0.315122,-23.646324
11.185,2.0,1.0,1.0,33.6,34.1,34.1,2.7,3.6,2.7475,0.04929417348761128,-0.06289839953825473,0.9619475872748947,-0.025407264147340233,-0.325582,-23.370781
11.185,2.0,1.0,1.0,33.6,34.1,34.1,2.7,3.6,2.75,0.0346943543240969,-0.0645253657872457,0.96135638249374,-0.0272990266996748,-0.336659,-23.090282
11.185,2.0,1.0,1.0,33.6,34.1,34.1,2.7,3.6,2.7525,0.019889470373733415,-0.06620360729616762,0.9604761655004611,-0.02931848178674329,-0.348406,-22.804623
11.185,2.0,1.0,1.0,33.6,34.1,34.1,2.7,3.6,2.755,0.004876979938717381,-0.0679344448968449,0.9592906585293987,-0.031476286178055694,-0.360883,-22.513589
11.185,2.0,1.0,1.0,33.6,34.1,34.1,2.7,3.6,2.7575,-0.010345504514946608,-0.0697190724071642,0.9577822659166867,-0.03378420177268397,-0.374157,-22.216952
11.185,2.0,1.0,1.0,33.6,34.1,34.1,2.7,3.6,2.76,-0.02578016341739054,-0.0715585066295135,0.9559319266103007,-0.03625523233211507,-0.388303,-21.914473
11.185,2.0,1.0,1.0,33.6,34.1,34.1,2.7,3.6,2.7625,-0.041428903927557964,-0.07345352437557344,0.9537189465195345,-0.038903779518380185,-0.403404,-21.605896
11.185,2.0,1.0,1.0,33.6,34.1,34.1,2.7,3.6,2.765,-0.057293277200799096,-0.07540458322103846,0.9511208076468887,-0.041745821193284086,-0.419556,-21.290951
11.185,2.0,1.0,1.0,33.6,34.1,34.1,2.7,3.6,2.7675,-0.07337437486589403,-0.07741172181675045,0.9481129504791698,-0.044799115385894345,-0.436865,-20.969352
11.185,2.0,1.0,1.0,33.6,34.1,34.1,2.7,3.6,2.77,-0.08967269934714665,-0.07947443445761582,0.9446685255927314,-0.04808343384008582,-0.455453,-20.640797
11.185,2.0,1.0,1.0,33.6,34.1,34.1,2.7,3.6,2.7725,-0.10618800120163951,-0.08159151316317716,0.9407581098543972,-0.051620829607376316,-0.475458,-20.304963
11.185,2.0,1.0,1.0,33.6,34.1,34.1,2.7,3.6,2.775,-0.12291907475082693,-0.08376084865615806,0.9363493819871652,-0.05543594373981521,-0.497037,-19.961509
11.185,2.0,1.0,1.0,33.6,34.1,34.1,2.7,3.6,2.7775,-0.1398635008387213,-0.08597917920918251,0.9314067516443927,-0.05955635673688145,-0.52037,-19.610073
11.185,2.0,1.0,1.0,33.6,34.1,34.1,2.7,3.6,2.78,-0.15701732237481147,-0.08824177319613476,0.9258909355462795,-0.06401299096054582,-0.545666,-19.250274
11.185,2.0,1.0,1.0,33.6,34.1,34.1,2.7,3.6,2.7825,-0.17437463419279364,-0.09054202711093039,0.9197584737623774,-0.06884057066973874,-0.573164,-18.881704
11.185,2.0,1.0,1.0,33.6,34.1,34.1,2.7,3.6,2.785,-0.1919270633803623,-0.0928709555110734,0.9129611790141826,-0.07407814649920472,-0.60314,-18.503934
11.185,2.0,1.0,1.0,33.6,34.1,34.1,2.7,3.6,2.7875,-0.20966310922312592,-0.0952165424249025,0.90544551215238,-0.0797696908896744,-0.635917,-18.116511
11.185,2.0,1.0,1.0,33.6,34.1,34.1,2.7,3.6,2.79,-0.22756730275499976,-0.09756291473498073,0.8971518781024793,-0.08596476980052432,-0.671873,-17.718958
11.185,2.0,1.0,1.0,33.6,34.1,34.1,2.7,3.6,2.7925,-0.2456191339720041,-0.09988928628025334,0.888013839155291,-0.09271929342250941,-0.711448,-17.310773
11.185,2.0,1.0,1.0,33.6,34.1,34.1,2.7,3.6,2.795,-0.26379167923166463,-0.1021686061053437,0.8779572474247286,-0.10009634364513337,-0.755166,-16.891432
11.185,2.0,1.0,1.0,33.6,34.1,34.1,2.7,3.6,2.7975,-0.2820498412265025,-0.10436582444485308,0.8668993070429679,-0.10816706729697415,-0.803642,-16.460388
11.185,2.0,1.0,1.0,33.6,34.1,34.1,2.7,3.6,2.8,-0.3003480880182705,-0.10643566451775976,0.8547475914455712,-0.1170116094574325,-0.857614,-16.017081
11.185,2.0,1.0,1.0,33.6,34.1,34.1,2.7,3.6,2.8025,-0.3186275446987156,-0.10831975579911374,0.8413990653679156,-0.12672003702259957,-0.917961,-15.560937
11.185,2.0,1.0,1.0,33.6,34.1,34.1,2.7,3.6,2.805,-0.33681225020966776,-0.10994294407306038,0.8267392002219907,-0.13739316396542825,-0.985743,-15.091383
11.185,2.0,1.0,1.0,33.6,34.1,34.1,2.7,3.6,2.8075,-0.3548043423189048,-0.11120854489523573,0.8106413333948786,-0.14914312841491514,-1.062241,-14.607857
11.185,2.0,1.0,1.0,33.6,34.1,34.1,2.7,3.6,2.81,-0.3724778771474205,-0.111992251567321,0.7929665187785703,-0.16209347587556364,-1.149014,-14.10983
11.185,2.0,1.0,1.0,33.6,34.1,34.1,2.7,3.6,2.8125,-0.38967093146083,-0.112134351828086,0.773564265268522,-0.176378355095992,-1.247968,-13.596832
11.185,2.0,1.0,1.0,33.6,34.1,34.1,2.7,3.6,2.815,-0.40617558986916674,-0.11142986280628285,0.7522747874125791,-0.19214020828414696,-1.361444,-13.068495
11.185,2.0,1.0,1.0,33.6,34.1,34.1,2.7,3.6,2.8175,-0.4217254145980296,-0.10961619058218491,0.7289337322749709,-0.20952500167028593,-1.492333,-12.524605
11.185,2.0,1.0,1.0,33.6,34.1,34.1,2.7,3.6,2.82,-0.4359800909901073,-0.1063580167671791,0.7033808415445042,-0.22867355393612485,-1.644215,-11.965182
11.185,2.0,1.0,1.0,33.6,34.1,34.1,2.7,3.6,2.8225,-0.44850724623195387,-0.10122941746881288,0.6754747011061831,-0.2497068365370531,-1.821539,-11.39058
11.185,2.0,1.0,1.0,33.6,34.1,34.1,2.7,3.6,2.825,-0.45876214355556477,-0.0936939190809681,0.6451166408542132,-0.27270222320450094,-2.029831,-10.801636
11.185,2.0,1.0,1.0,33.6,34.1,34.1,2.7,3.6,2.8275,-0.4660673739129342,-0.08308460088452095,0.6122879098363079,-0.2976566217940205,-2.275937,-10.199852
