1,w,sub_t,h,l1,l2,l3,g1,g2,Freq,S11_re,S21_re,S11_img,S21_img,S11_dB,S21_dB
11.185,2.0,1.0,1.0,34.4,33.5,33.5,2.2,3.9,2.5,0.71818787408161,-0.0124503170331468,0.683919553823547,0.00583171226952043,-0.072081,-37.234939
11.185,2.0,1.0,1.0,34.4,33.5,33.5,2.2,3.9,2.5025,0.7125797048709874,-0.012670303051452085,0.6896327759094103,0.005798319086539019,-0.07286,-37.118468
11.185,2.0,1.0,1.0,34.4,33.5,33.5,2.2,3.9,2.505,0.7068944947943673,-0.012893651307066909,0.6953299343125262,0.0057622261325873565,-0.073654,-37.001671
11.185,2.0,1.0,1.0,34.4,33.5,33.5,2.2,3.9,2.5075,0.7011314558382538,-0.013120408569720705,0.701010285837653,0.005723342384595081,-0.074462,-36.884543
11.185,2.0,1.0,1.0,34.4,33.5,33.5,2.2,3.9,2.51,0.6952897917103191,-0.013350621951673919,0.7066730656986591,0.005681573866075631,-0.075283,-36.767079
11.185,2.0,1.0,1.0,34.4,33.5,33.5,2.2,3.9,2.5125,0.6893686978990059,-0.013584338886005604,0.7123174868910332,0.005636823547567826,-0.07612,-36.649273
11.185,2.0,1.0,1.0,34.4,33.5,33.5,2.2,3.9,2.515,0.6833673617435446,-0.01382160710290599,0.7179427395468742,0.005588991243623192,-0.076972,-36.53112
11.185,2.0,1.0,1.0,34.4,33.5,33.5,2.2,3.9,2.5175,0.677284962515025,-0.014062474603846662,0.7235479902718976,0.005537973506219023,-0.077839,-36.412614
11.185,2.0,1.0,1.0,34.4,33.5,33.5,2.2,3.9,2.52,0.6711206715091582,-0.01430698963349447,0.7291323814640482,0.005483663514473077,-0.078722,-36.293749
11.185,2.0,1.0,1.0,34.4,33.5,33.5,2.2,3.9,2.5225,0.6648736521514398,-0.014555200649226885,0.7346950306132243,0.005425950960532242,-0.07962,-36.17452
11.185,2.0,1.0,1.0,34.4,33.5,33.5,2.2,3.9,2.525,0.6585430601154142,-0.014807156288098451,0.740235029581697,0.005364721931502829,-0.080536,-36.054921
11.185,2.0,1.0,1.0,34.4,33.5,33.5,2.2,3.9,2.5275,0.65212804345481,-0.015062905331099502,0.7457514438647417,0.005299858787285953,-0.081468,-35.934945
11.185,2.0,1.0,1.0,34.4,33.5,33.5,2.2,3.9,2.53,0.6456277427503412,-0.015322496664538174,0.7512433118310166,0.005231240034177495,-0.082417,-35.814588
11.185,2.0,1.0,1.0,34.4,33.5,33.5,2.2,3.9,2.5325,0.6390412912720057,-0.015585979238368049,0.7567096439422175,0.005158740194087323,-0.083384,-35.693843
11.185,2.0,1.0,1.0,34.4,33.5,33.5,2.2,3.9,2.535,0.6323678151577563,-0.015853402021272497,0.7621494219515397,0.005082229669227451,-0.084369,-35.572704
11.185,2.0,1.0,1.0,34.4,33.5,33.5,2.2,3.9,2.5375,0.6256064336094697,-0.016124813952306263,0.7675615980804507,0.00500157460211539,-0.085372,-35.451165
11.185,2.0,1.0,1.0,34.4,33.5,33.5,2.2,3.9,2.54,0.6187562591071682,-0.016400263888883097,0.7729450941733073,0.004916636730732836,-0.086395,-35.32922
11.185,2.0,1.0,1.0,34.4,33.5,33.5,2.2,3.9,2.5425,0.611816397642508,-0.016679800550886276,0.7782988008293262,0.004827273238675212,-0.087436,-35.206863
11.185,2.0,1.0,1.0,34.4,33.5,33.5,2.2,3.9,2.545,0.6047859489725912,-0.016963472460665353,0.7836215765114186,0.004733336600123387,-0.088498,-35.084088
11.185,2.0,1.0,1.0,34.4,33.5,33.5,2.2,3.9,2.5475,0.5976640068952225,-0.017251327878668826,0.7889122466314024,0.0046346744194629245,-0.08958,-34.960888
11.185,2.0,1.0,1.0,34.4,33.5,33.5,2.2,3.9,2.55,0.5904496595467469,-0.017543414734449148,0.7941696026111138,0.0045311292653710715,-0.090682,-34.837258
11.185,2.0,1.0,1.0,34.4,33.5,33.5,2.2,3.9,2.5525,0.583141989723728,-0.017839780552758335,0.7993924009189162,0.004422538499186943,-0.091806,-34.71319
11.185,2.0,1.0,1.0,34.4,33.5,33.5,2.2,3.9,2.555,0.5757400752297064,-0.018140472374439973,0.8045793620811386,0.004308734097374585,-0.092951,-34.588679
11.185,2.0,1.0,1.0,34.4,33.5,33.5,2.2,3.9,2.5575,0.5682429892483927,-0.018445536671802834,0.8097291696679597,0.0041895424678827595,-0.094119,-34.463717
11.185,2.0,1.0,1.0,34.4,33.5,33.5,2.2,3.9,2.56,0.5606498007447004,-0.018755019258145048,0.8148404692532561,0.004064784260200957,-0.09531,-34.338299
11.185,2.0,1.0,1.0,34.4,33.5,33.5,2.2,3.9,2.5625,0.5529595748950756,-0.019068965191078154,0.819911867347957,0.003934274168903711,-0.096524,-34.212417
11.185,2.0,1.0,1.0,34.4,33.5,33.5,2.2,3.9,2.565,0.5451713735486625,-0.019387418669279798,0.8249419303064386,0.0037978207304714007,-0.097762,-34.086065
11.185,2.0,1.0,1.0,34.4,33.5,33.5,2.2,3.9,2.5675,0.5372842557209175,-0.019710422922282377,0.829929183205509,0.0036552261131688165,-0.099024,-33.959237
11.185,2.0,1.0,1.0,34.4,33.5,33.5,2.2,3.9,2.57,0.529297278121347,-0.020038020092882292,0.8348721086955458,0.0035062858997569743,-0.100312,-33.831924
11.185,2.0,1.0,1.0,34.4,33.5,33.5,2.2,3.9,2.5725,0.5212094957171309,-0.020370251111730162,0.83976914582336,0.0033507888628087324,-0.101625,-33.704121
11.185,2.0,1.0,1.0,34.4,33.5,33.5,2.2,3.9,2.575,0.5130199623344717,-0.020707155563637444,0.8446186888263761,0.00318851673239154,-0.102965,-33.57582
11.185,2.0,1.0,1.0,34.4,33.5,33.5,2.2,3.9,2.5775,0.5047277312995984,-0.021048771545106426,0.8494190858977393,0.0030192439558758685,-0.104332,-33.447015
11.185,2.0,1.0,1.0,34.4,33.5,33.5,2.2,3.9,2.58,0.4963318561214368,-0.021395135512563678,0.854168637921969,0.002842737449621543,-0.105727,-33.317698
11.185,2.0,1.0,1.0,34.4,33.5,33.5,2.2,3.9,2.5825,0.487831391218047,-0.021746282120745638,0.8588655971808239,0.002658756342287712,-0.10715,-33.187861
11.185,2.0,1.0,1.0,34.4,33.5,33.5,2.2,3.9,2.585,0.4792253926890335,-0.02210224405065349,0.8635081660290388,0.0024670517095073475,-0.108603,-33.057498
11.185,2.0,1.0,1.0,34.4,33.5,33.5,2.2,3.9,2.5875,0.47051291913621995,-0.022463051826459666,0.8680944955396558,0.0022673662996603935,-0.110085,-32.926601
11.185,2.0,1.0,1.0,34.4,33.5,33.5,2.2,3.9,2.59,0.46169303253499766,-0.022828733620713793,0.8726226841186753,0.0020594342504743996,-0.111599,-32.795163
11.185,2.0,1.0,1.0,34.4,33.5,33.5,2.2,3.9,2.5925,0.45276479915884815,-0.023199315047156166,0.8770907760888071,0.0018429807961754087,-0.113143,-32.663175
11.185,2.0,1.0,1.0,34.4,33.5,33.5,2.2,3.9,2.595,0.44372729055967086,-0.023574818940406694,0.8814967602421262,0.0016177219649067193,-0.114721,-32.530631
11.185,2.0,1.0,1.0,34.4,33.5,33.5,2.2,3.9,2.5975,0.43457958460663487,-0.023955265121755956,0.8858385683615034,0.0013833642661265323,-0.116331,-32.397522
11.185,2.0,1.0,1.0,34.4,33.5,33.5,2.2,3.9,2.6,0.42532076658641904,-0.024340670150237578,0.8901140737106998,0.001139604367691676,-0.117975,-32.26384
11.185,2.0,1.0,1.0,34.4,33.5,33.5,2.2,3.9,2.6025,0.4159499303678249,-0.024731047058113097,0.8943210894930884,0.0008861287623281976,-0.119655,-32.129578
11.185,2.0,1.0,1.0,34.4,33.5,33.5,2.2,3.9,2.605,0.4064661796338506,-0.025126405069851386,0.8984573672790189,0.0006226134231847342,-0.12137,-31.994727
11.185,2.0,1.0,1.0,34.4,33.5,33.5,2.2,3.9,2.6075,0.3968686291844887,-0.02552674930362774,0.9025205954018874,0.00034872344816047526,-0.123122,-31.859279
11.185,2.0,1.0,1.0,34.4,33.5,33.5,2.2,3.9,2.61,0.3871564063136172,-0.02593208045431185,0.9065083973230696,6.411269269454009e-05,-0.124912,-31.723226
11.185,2.0,1.0,1.0,34.4,33.5,33.5,2.2,3.9,2.6125,0.37732865226350876,-0.026342394456852054,0.9104183299659184,-0.0002315766093008931,-0.126741,-31.586559
11.185,2.0,1.0,1.0,34.4,33.5,33.5,2.2,3.9,2.615,0.3673845237606276,-0.026757682128898966,0.9142478820191324,-0.0005387142366842398,-0.12861,-31.44927
11.185,2.0,1.0,1.0,34.4,33.5,33.5,2.2,3.9,2.6175,0.3573231946365498,-0.02717792879144108,0.917994472209872,-0.0008576823848303577,-0.13052,-31.31135
11.185,2.0,1.0,1.0,34.4,33.5,33.5,2.2,3.9,2.62,0.3471438575379882,-0.02760311386615358,0.9216554475470894,-0.0011888760822048874,-0.132472,-31.17279
11.185,2.0,1.0,1.0,34.4,33.5,33.5,2.2,3.9,2.6225,0.33684572573006655,-0.028033210448081686,0.925228081535664,-0.0015327036200988037,-0.134468,-31.03358
11.185,2.0,1.0,1.0,34.4,33.5,33.5,2.2,3.9,2.625,0.32642803499719,-0.0284681848521981,0.928709572362006,-0.00188958699585343,-0.136508,-30.893713
11.185,2.0,1.0,1.0,34.4,33.5,33.5,2.2,3.9,2.6275,0.3158900456459774,-0.02890799613228514,0.9320970410519395,-0.002259962369911094,-0.138594,-30.753178
11.185,2.0,1.0,1.0,34.4,33.5,33.5,2.2,3.9,2.63,0.30523104461496847,-0.0293525955704986,0.9353875296017833,-0.0026442805370237746,-0.140727,-30.611966
11.185,2.0,1.0,1.0,34.4,33.5,33.5,2.2,3.9,2.6325,0.2944503476959573,-0.029801926135869107,0.9385779990836834,-0.003043007411955091,-0.142908,-30.470068
11.185,2.0,1.0,1.0,34.4,33.5,33.5,2.2,3.9,2.635,0.28354730187202826,-0.03025592190989177,0.941665327726405,-0.003456624530008042,-0.145139,-30.327474
11.185,2.0,1.0,1.0,34.4,33.5,33.5,2.2,3.9,2.6375,0.27252128777757145,-0.03071450747723769,0.9446463089729226,-0.003885629562709578,-0.147422,-30.184174
11.185,2.0,1.0,1.0,34.4,33.5,33.5,2.2,3.9,2.64,0.26137172228572775,-0.031177597279504136,0.947517649516341,-0.004330536848981287,-0.149757,-30.040157
11.185,2.0,1.0,1.0,34.4,33.5,33.5,2.2,3.9,2.6425,0.25009806122898753,-0.031645094929784616,0.950275967315827,-0.004791877942120097,-0.152147,-29.895414
11.185,2.0,1.0,1.0,34.4,33.5,33.5,2.2,3.9,2.645,0.23869980225883913,-0.032116892485706386,0.9529177895944333,-0.005270202172908928,-0.154592,-29.749934
11.185,2.0,1.0,1.0,34.4,33.5,33.5,2.2,3.9,2.6475,0.22717648785061856,-0.03259286967842992,0.9554395508208942,-0.005766077229170074,-0.157095,-29.603707
11.185,2.0,1.0,1.0,34.4,33.5,33.5,2.2,3.9,2.65,0.21552770845993016,-0.03307289309495055,0.9578375906776728,-0.006280089752067555,-0.159657,-29.456721
11.185,2.0,1.0,1.0,34.4,33.5,33.5,2.2,3.9,2.6525,0.2037531058372957,-0.03355681531086759,0.9601081520177758,-0.006812845949452876,-0.162281,-29.308965
11.185,2.0,1.0,1.0,34.4,33.5,33.5,2.2,3.9,2.655,0.19185237650787143,-0.0340444739706071,0.9622473788130883,-0.007364972226540463,-0.164967,-29.160429
11.185,2.0,1.0,1.0,34.4,33.5,33.5,2.2,3.9,2.6575,0.1798252754234071,-0.03453569081188746,0.9642513140972228,-0.007937115834183493,-0.167718,-29.0111
11.185,2.0,1.0,1.0,34.4,33.5,33.5,2.2,3.9,2.66,0.16767161979383377,-0.03503027063100632,0.9661158979061603,-0.008529945535007296,-0.170536,-28.860968
11.185,2.0,1.0,1.0,34.4,33.5,33.5,2.2,3.9,2.6625,0.15539129310620253,-0.03552800018530141,0.9678369652202263,-0.009144152287638756,-0.173422,-28.710019
11.185,2.0,1.0,1.0,34.4,33.5,33.5,2.2,3.9,2.665,0.14298424933891457,-0.03602864702889582,0.9694102439112636,-0.009780449949252043,-0.17638,-28.558243
11.185,2.0,1.0,1.0,34.4,33.5,33.5,2.2,3.9,2.6675,0.1304505173795712,-0.03653195827757346,0.9708313526991503,-0.010439575996624732,-0.179411,-28.405625
11.185,2.0,1.0,1.0,34.4,33.5,33.5,2.2,3.9,2.67,0.11779020565499282,-0.03703765929835112,0.9720957991221943,-0.011122292265876908,-0.182517,-28.252154
11.185,2.0,1.0,1.0,34.4,33.5,33.5,2.2,3.9,2.6725,0.1050035069823509,-0.037545452319006,0.9731989775262111,-0.011829385711032628,-0.185701,-28.097817
11.185,2.0,1.0,1.0,34.4,33.5,33.5,2.2,3.9,2.675,0.09209070365065758,-0.03805501495248992,0.9741361670775458,-0.012561669181511342,-0.188966,-27.942599
11.185,2.0,1.0,1.0,34.4,33.5,33.5,2.2,3.9,2.6775,0.07905217274221679,-0.038565998630802296,0.9749025298056176,-0.013319982218618884,-0.192314,-27.786488
11.185,2.0,1.0,1.0,34.4,33.5,33.5,2.2,3.9,2.68,0.06588839170400522,-0.03907802694251086,0.9754931086810118,-0.014105191871065863,-0.195748,-27.62947
11.185,2.0,1.0,1.0,34.4,33.5,33.5,2.2,3.9,2.6825,0.052599944179340066,-0.03959069386768775,0.9759028257355723,-0.01491819352949109,-0.19927,-27.471529
11.185,2.0,1.0,1.0,34.4,33.5,33.5,2.2,3.9,2.685,0.039187526110595554,-0.04010356190357433,0.9761264802313634,-0.0157599117799165,-0.202884,-27.312652
11.185,2.0,1.0,1.0,34.4,33.5,33.5,2.2,3.9,2.6875,0.02565195212412284,-0.040616160073794476,0.9761587468858892,-0.016631301275996043,-0.206593,-27.152822
11.185,2.0,1.0,1.0,34.4,33.5,33.5,2.2,3.9,2.69,0.011994162209051449,-0.04112798181339607,0.9759941741614037,-0.0175333476298531,-0.2104,-26.992026
11.185,2.0,1.0,1.0,34.4,33.5,33.5,2.2,3.9,2.6925,-0.0017847712979889572,-0.0416384827214154,0.9756271826266967,-0.01846706832122326,-0.214308,-26.830246
11.185,2.0,1.0,1.0,34.4,33.5,33.5,2.2,3.9,2.695,-0.01568363640955228,-0.042147078172016655,0.9750520634002551,-0.019433513624528578,-0.21832,-26.667467
11.185,2.0,1.0,1.0,34.4,33.5,33.5,2.2,3.9,2.6975,-0.029701073852382874,-0.042653140774561144,0.9742629766842822,-0.02043376755341192,-0.222442,-26.503672
11.185,2.0,1.0,1.0,34.4,33.5,33.5,2.2,3.9,2.7,-0.04383556908696612,-0.043155997672191804,0.9732539503996207,-0.021468948822142477,-0.226675,-26.338843
11.185,2.0,1.0,1.0,34.4,33.5,33.5,2.2,3.9,2.7025,-0.0580854439673149,-0.0436549276676824,0.972018878932274,-0.022540211823176254,-0.231025,-26.172962
11.185,2.0,1.0,1.0,34.4,33.5,33.5,2.2,3.9,2.705,-0.07244884802595916,-0.04414915816437685,0.9705515220028287,-0.023648747620004802,-0.235496,-26.006012
11.185,2.0,1.0,1.0,34.4,33.5,33.5,2.2,3.9,2.7075,-0.08692374936838428,-0.044637861909033884,0.9688455036707811,-0.024795784954257133,-0.240091,-25.837974
11.185,2.0,1.0,1.0,34.4,33.5,33.5,2.2,3.9,2.71,-0.10150792516037291,-0.045120153522277516,0.9668943114864512,-0.025982591265823505,-0.244816,-25.668828
11.185,2.0,1.0,1.0,34.4,33.5,33.5,2.2,3.9,2.7125,-0.1161989516908542,-0.045595085801128775,0.9646912958039277,-0.027210473724549388,-0.249675,-25.498554
11.185,2.0,1.0,1.0,34.4,33.5,33.5,2.2,3.9,2.715,-0.130994193991833,-0.046061645776738845,0.9622296692692234,-0.028480780271786587,-0.254674,-25.327131
11.185,2.0,1.0,1.0,34.4,33.5,33.5,2.2,3.9,2.7175,-0.14589079499601607,-0.04651875050895112,0.959502506498679,-0.02979490066979467,-0.259817,-25.154539
11.185,2.0,1.0,1.0,34.4,33.5,33.5,2.2,3.9,2.72,-0.1608856642114493,-0.04696524259766521,0.9565027439634558,-0.031154267556640452,-0.265111,-24.980754
11.185,2.0,1.0,1.0,34.4,33.5,33.5,2.2,3.9,2.7225,-0.17597546589130966,-0.04739988538914779,0.9532231800969005,-0.032560357503847163,-0.270562,-24.805755
11.185,2.0,1.0,1.0,34.4,33.5,33.5,2.2,3.9,2.725,-0.19115660667538434,-0.04782135785340217,0.9496564756424944,-0.03401469207357746,-0.276174,-24.629518
11.185,2.0,1.0,1.0,34.4,33.5,33.5,2.2,3.9,2.7275,-0.2064252226782753,-0.048228249106461125,0.9457951542611287,-0.03551883887160319,-0.281956,-24.452018
11.185,2.0,1.0,1.0,34.4,33.5,33.5,2.2,3.9,2.73,-0.22177716599740024,-0.04861905254895863,0.9416316034175378,-0.03707441259167691,-0.287913,-24.27323
11.185,2.0,1.0,1.0,34.4,33.5,33.5,2.2,3.9,2.7325,-0.23720799061186115,-0.04899215958955537,0.9371580755668647,-0.03868307604619391,-0.294054,-24.093128
11.185,2.0,1.0,1.0,34.4,33.5,33.5,2.2,3.9,2.735,-0.25271293764091135,-0.04934585291868776,0.9323666896636651,-0.04034654117716573,-0.300385,-23.911685
11.185,2.0,1.0,1.0,34.4,33.5,33.5,2.2,3.9,2.7375,-0.2682869199280246,-0.04967829929465119,0.927249433016948,-0.042066570040521195,-0.306916,-23.728872
11.185,2.0,1.0,1.0,34.4,33.5,33.5,2.2,3.9,2.74,-0.28392450591366425,-0.04998754180016688,0.9217981635164518,-0.04384497575556059,-0.313653,-23.544661
11.185,2.0,1.0,1.0,34.4,33.5,33.5,2.2,3.9,2.7425,-0.29961990275638195,-0.05027149152326645,0.9160046122569867,-0.04568362340999657,-0.320607,-23.359021
11.185,2.0,1.0,1.0,34.4,33.5,33.5,2.2,3.9,2.745,-0.3153669386579869,-0.05052791861150056,0.9098603865895567,-0.04758443090936452,-0.327787,-23.171919
11.185,2.0,1.0,1.0,34.4,33.5,33.5,2.2,3.9,2.7475,-0.3311590443441844,-0.05075444264307605,0.9033569736301094,-0.04954936975764656,-0.335203,-22.983324
11.185,2.0,1.0,1.0,34.4,33.5,33.5,2.2,3.9,2.75,-0.346989233646979,-0.0509485222524697,0.896485744259112,-0.0515804657536565,-0.342866,-22.793202
11.185,2.0,1.0,1.0,34.4,33.5,33.5,2.2,3.9,2.7525,-0.36285008312945505,-0.05110744394127533,0.8892379576479322,-0.05367979958501762,-0.350787,-22.601515
11.185,2.0,1.0,1.0,34.4,33.5,33.5,2.2,3.9,2.755,-0.37873371068702305,-0.0512283099974198,0.8816047663511294,-0.05584950729834589,-0.358978,-22.408228
11.185,2.0,1.0,1.0,34.4,33.5,33.5,2.2,3.9,2.7575,-0.3946317530517666,-0.051308025437320694,0.8735772220073973,-0.05809178062044397,-0.367453,-22.213302
11.185,2.0,1.0,1.0,34.4,33.5,33.5,2.2,3.9,2.76,-0.410535342117992,-0.05134328387593228,0.8651462816962171,-0.060408867100772715,-0.376224,-22.016696
11.185,2.0,1.0,1.0,34.4,33.5,33.5,2.2,3.9,2.7625,-0.42643507999746444,-0.05133055221880308,0.8563028150022127,-0.06280307004009544,-0.385308,-21.818367
11.185,2.0,1.0,1.0,34.4,33.5,33.5,2.2,3.9,2.765,-0.442321012701664,-0.051266054058081156,0.8470376118451581,-0.06527674816378336,-0.394719,-21.618273
11.185,2.0,1.0,1.0,34.4,33.5,33.5,2.2,3.9,2.7675,-0.4581826023358014,-0.05114575164068452,0.8373413911405435,-0.06783231499065158,-0.404473,-21.416366
11.185,2.0,1.0,1.0,34.4,33.5,33.5,2.2,3.9,2.77,-0.4740086976749235,-0.05096532626139589,0.8272048103639151,-0.070472237839114,-0.41459,-21.212599
11.185,2.0,1.0,1.0,34.4,33.5,33.5,2.2,3.9,2.7725,-0.4897875029760375,-0.0507201569162212,0.8166184761021581,-0.07319903640160638,-0.425088,-21.006921
11.185,2.0,1.0,1.0,34.4,33.5,33.5,2.2,3.9,2.775,-0.5055065448613457,-0.05040529703171489,0.8055729556867213,-0.07601528080528923,-0.435988,-20.79928
11.185,2.0,1.0,1.0,34.4,33.5,33.5,2.2,3.9,2.7775,-0.5211526370864382,-0.05001544906383504,0.7940587900180401,-0.07892358906157403,-0.447311,-20.58962
11.185,2.0,1.0,1.0,34.4,33.5,33.5,2.2,3.9,2.78,-0.5367118429829234,-0.04954493673492894,0.7820665077075233,-0.08192662378851572,-0.459083,-20.377883
11.185,2.0,1.0,1.0,34.4,33.5,33.5,2.2,3.9,2.7825,-0.5521694353373012,-0.048987674649311926,0.7695866406841093,-0.08502708806793939,-0.471327,-20.164009
11.185,2.0,1.0,1.0,34.4,33.5,33.5,2.2,3.9,2.785,-0.5675098534364647,-0.048337134996184056,0.7566097414371773,-0.088227720272614,-0.484072,-19.947933
11.185,2.0,1.0,1.0,34.4,33.5,33.5,2.2,3.9,2.7875,-0.5827166569744854,-0.04758631101291108,0.7431264020977356,-0.09153128766687643,-0.497347,-19.729591
11.185,2.0,1.0,1.0,34.4,33.5,33.5,2.2,3.9,2.79,-0.5977724764748242,-0.046727676841481366,0.7291272755959809,-0.09494057854581103,-0.511185,-19.50891
11.185,2.0,1.0,1.0,34.4,33.5,33.5,2.2,3.9,2.7925,-0.6126589598362734,-0.04575314336574265,0.7146030991773754,-0.09845839263199167,-0.525621,-19.285818
11.185,2.0,1.0,1.0,34.4,33.5,33.5,2.2,3.9,2.795,-0.6273567145591893,-0.04465400956625505,0.6995447206124923,-0.10208752939332194,-0.540692,-19.060237
11.185,2.0,1.0,1.0,34.4,33.5,33.5,2.2,3.9,2.7975,-0.6418452451499795,-0.04342090887270809,0.6839431275005686,-0.10583077387859609,-0.556439,-18.832087
11.185,2.0,1.0,1.0,34.4,33.5,33.5,2.2,3.9,2.8,-0.6561028851363845,-0.04204374993023643,0.6677894801449118,-0.10969087958670093,-0.572908,-18.601283
11.185,2.0,1.0,1.0,34.4,33.5,33.5,2.2,3.9,2.8025,-0.6701067230523566,-0.040511651125076494,0.6510751485735481,-0.11367054778782125,-0.590147,-18.367734
11.185,2.0,1.0,1.0,34.4,33.5,33.5,2.2,3.9,2.805,-0.6838325216693026,-0.03881286813630244,0.6337917543942025,-0.11777240259700869,-0.608209,-18.131347
11.185,2.0,1.0,1.0,34.4,33.5,33.5,2.2,3.9,2.8075,-0.6972546296594156,-0.03693471369345089,0.615931218313429,-0.12199896095756196,-0.627152,-17.892022
11.185,2.0,1.0,1.0,34.4,33.5,33.5,2.2,3.9,2.81,-0.7103458847763611,-0.03486346862447216,0.5974858143211614,-0.1263525965183484,-0.647041,-17.649657
11.185,2.0,1.0,1.0,34.4,33.5,33.5,2.2,3.9,2.8125,-0.723077507528831,-0.0325842831747116,0.578448231750895,-0.130835496178772,-0.667945,-17.404142
11.185,2.0,1.0,1.0,34.4,33.5,33.5,2.2,3.9,2.815,-0.7354189842037696,-0.030081067466074543,0.5588116466804955,-0.1354496078193514,-0.689942,-17.155362
11.185,2.0,1.0,1.0,34.4,33.5,33.5,2.2,3.9,2.8175,-0.7473379379697961,-0.027336369847453752,0.5385698044496474,-0.14019657742463948,-0.713116,-16.903196
11.185,2.0,1.0,1.0,34.4,33.5,33.5,2.2,3.9,2.82,-0.7587999866591741,-0.02433124176520312,0.5177171154499516,-0.1450776734261198,-0.737561,-16.64752
11.185,2.0,1.0,1.0,34.4,33.5,33.5,2.2,3.9,2.8225,-0.7697685856932309,-0.021045087659771415,0.49624876680796276,-0.15009369563047278,-0.763382,-16.388198
11.185,2.0,1.0,1.0,34.4,33.5,33.5,2.2,3.9,2.825,-0.780204854486208,-0.017455498277594086,0.4741608531494861,-0.15524486553452474,-0.790693,-16.125094
11.185,2.0,1.0,1.0,34.4,33.5,33.5,2.2,3.9,2.8275,-0.7900673845462979,-0.013538065685072842,0.4514505303282032,-0.16053069413935817,-0.819623,-15.85806
