1,w,sub_t,h,l1,l2,l3,g1,g2,Freq,S11_re,S21_re,S11_img,S21_img,S11_dB,S21_dB
11.185,2.0,1.0,1.0,34.6,33.5,33.5,4.3,4.0,2.5,0.690059093873298,-0.00787152538772337,0.713150173258982,0.00204707756282569,-0.066675,-41.794607
11.185,2.0,1.0,1.0,34.6,33.5,33.5,4.3,4.0,2.5025,0.6841495496890825,-0.007990915657323497,0.7187171855177579,0.002000079361420412,-0.067336,-41.684178
11.185,2.0,1.0,1.0,34.6,33.5,33.5,4.3,4.0,2.505,0.6781634466562669,-0.008111645628411636,0.7242632535573792,0.00195114491286966,-0.068006,-41.573548
11.185,2.0,1.0,1.0,34.6,33.5,33.5,4.3,4.0,2.5075,0.6721000994123583,-0.008233721986853543,0.7297875716278432,0.0019002229641960683,-0.068688,-41.462712
11.185,2.0,1.0,1.0,34.6,33.5,33.5,4.3,4.0,2.51,0.6659588182223539,-0.008357151046020755,0.7352893128115273,0.0018472609348973265,-0.06938,-41.351666
11.185,2.0,1.0,1.0,34.6,33.5,33.5,4.3,4.0,2.5125,0.6597389091589524,-0.008481938720941799,0.7407676284871835,0.0017922048826047303,-0.070084,-41.240405
11.185,2.0,1.0,1.0,34.6,33.5,33.5,4.3,4.0,2.515,0.6534396742959278,-0.008608090501196096,0.7462216477823288,0.0017349994679242042,-0.070799,-41.128924
11.185,2.0,1.0,1.0,34.6,33.5,33.5,4.3,4.0,2.5175,0.6470604119153051,-0.008735611422495678,0.7516504770138797,0.0016755879184455534,-0.071525,-41.017219
11.185,2.0,1.0,1.0,34.6,33.5,33.5,4.3,4.0,2.52,0.640600416728954,-0.00886450603689794,0.7570531991169378,0.0016139119919060224,-0.072263,-40.905286
11.185,2.0,1.0,1.0,34.6,33.5,33.5,4.3,4.0,2.5225,0.6340589801152997,-0.00899477838158962,0.7624288730615818,0.00154991193849418,-0.073013,-40.793119
11.185,2.0,1.0,1.0,34.6,33.5,33.5,4.3,4.0,2.525,0.6274353903718177,-0.009126431946180756,0.7677765332575952,0.0014835264622804396,-0.073776,-40.680714
11.185,2.0,1.0,1.0,34.6,33.5,33.5,4.3,4.0,2.5275,0.6207289329840416,-0.009259469638444175,0.7730951889470219,0.0014146926817604386,-0.074551,-40.568067
11.185,2.0,1.0,1.0,34.6,33.5,33.5,4.3,4.0,2.53,0.6139388909118374,-0.009393893748433742,0.7783838235844702,0.001343346089498049,-0.075338,-40.455172
11.185,2.0,1.0,1.0,34.6,33.5,33.5,4.3,4.0,2.5325,0.6070645448937123,-0.009529705910912017,0.7836413942051039,0.0012694205108546275,-0.076139,-40.342024
11.185,2.0,1.0,1.0,34.6,33.5,33.5,4.3,4.0,2.535,0.6001051737699631,-0.009666907066015182,0.7888668307802702,0.0011928480617916138,-0.076952,-40.22862
11.185,2.0,1.0,1.0,34.6,33.5,33.5,4.3,4.0,2.5375,0.5930600548255074,-0.009805497418079893,0.7940590355607147,0.0011135591057338575,-0.07778,-40.114955
11.185,2.0,1.0,1.0,34.6,33.5,33.5,4.3,4.0,2.54,0.5859284641532523,-0.009945476392554584,0.7992168824073761,0.0010314822094810658,-0.078621,-40.001023
11.185,2.0,1.0,1.0,34.6,33.5,33.5,4.3,4.0,2.5425,0.5787096770389014,-0.01008684259091363,0.804339216109753,0.0009465440981554715,-0.079476,-39.886819
11.185,2.0,1.0,1.0,34.6,33.5,33.5,4.3,4.0,2.545,0.5714029683681305,-0.010229593743490533,0.8094248516918564,0.0008586696091738905,-0.080345,-39.77234
11.185,2.0,1.0,1.0,34.6,33.5,33.5,4.3,4.0,2.5475,0.5640076130570963,-0.010373726660142324,0.8144725737057869,0.0007677816452328154,-0.081229,-39.657579
11.185,2.0,1.0,1.0,34.6,33.5,33.5,4.3,4.0,2.55,0.5565228865072614,-0.010519237178654592,0.8194811355130052,0.0006738011262956931,-0.082128,-39.542533
11.185,2.0,1.0,1.0,34.6,33.5,33.5,4.3,4.0,2.5525,0.5489480650855885,-0.0106661201107922,0.8244492585533612,0.000576646940571722,-0.083042,-39.427195
11.185,2.0,1.0,1.0,34.6,33.5,33.5,4.3,4.0,2.555,0.5412824266311471,-0.010814369185898101,0.8293756316020122,0.00047623589447626105,-0.083971,-39.311562
11.185,2.0,1.0,1.0,34.6,33.5,33.5,4.3,4.0,2.5575,0.5335252509892437,-0.010963976991938183,0.8342589100143633,0.0003724826615630291,-0.084917,-39.195628
11.185,2.0,1.0,1.0,34.6,33.5,33.5,4.3,4.0,2.56,0.5256758205742188,-0.011114934913886213,0.839097714959188,0.0002652997304192961,-0.085878,-39.079388
11.185,2.0,1.0,1.0,34.6,33.5,33.5,4.3,4.0,2.5625,0.5177334209620769,-0.011267233069339275,0.8438906326401463,0.000154597351515149,-0.086856,-38.962837
11.185,2.0,1.0,1.0,34.6,33.5,33.5,4.3,4.0,2.565,0.5096973415141667,-0.011420860241249702,0.8486362135059283,4.028348299908252e-05,-0.087851,-38.84597
11.185,2.0,1.0,1.0,34.6,33.5,33.5,4.3,4.0,2.5675,0.5015668760331715,-0.011575803807654687,0.8533329714492907,-7.773626456785917e-05,-0.088863,-38.728781
11.185,2.0,1.0,1.0,34.6,33.5,33.5,4.3,4.0,2.57,0.49334132345268766,-0.011732049668281324,0.8579793829953108,-0.000199558684546309,-0.089892,-38.611266
11.185,2.0,1.0,1.0,34.6,33.5,33.5,4.3,4.0,2.5725,0.4850199885617304,-0.011889582167899166,0.8625738864792016,-0.00032528303162762337,-0.09094,-38.493419
11.185,2.0,1.0,1.0,34.6,33.5,33.5,4.3,4.0,2.575,0.47660218276553307,-0.012048384016287897,0.8671148812140906,-0.00045501108032378285,-0.092005,-38.375234
11.185,2.0,1.0,1.0,34.6,33.5,33.5,4.3,4.0,2.5775,0.46808722488405574,-0.01220843620468296,0.8716007266492108,-0.0005888471845435483,-0.093089,-38.256708
11.185,2.0,1.0,1.0,34.6,33.5,33.5,4.3,4.0,2.58,0.4594744419896545,-0.012369717918556216,0.8760297415189907,-0.0007268983382597506,-0.094193,-38.137833
11.185,2.0,1.0,1.0,34.6,33.5,33.5,4.3,4.0,2.5825,0.4507631702853946,-0.01253220644658406,0.8804002029836061,-0.0008692742372727009,-0.095315,-38.018604
11.185,2.0,1.0,1.0,34.6,33.5,33.5,4.3,4.0,2.585,0.44195275602555173,-0.012695877085648836,0.884710345761594,-0.001016087342073144,-0.096458,-37.899017
11.185,2.0,1.0,1.0,34.6,33.5,33.5,4.3,4.0,2.5875,0.43304255647986445,-0.012860703041714817,0.8889583612551908,-0.0011674529418095958,-0.09762,-37.779065
11.185,2.0,1.0,1.0,34.6,33.5,33.5,4.3,4.0,2.59,0.42403194094316393,-0.01302665532641244,0.8931423966691352,-0.00132348921936281,-0.098804,-37.658742
11.185,2.0,1.0,1.0,34.6,33.5,33.5,4.3,4.0,2.5925,0.4149202917920171,-0.013193702649159764,0.8972605541237254,-0.0014843173175316227,-0.100008,-37.538044
11.185,2.0,1.0,1.0,34.6,33.5,33.5,4.3,4.0,2.595,0.40570700559010237,-0.013361811304642065,0.9013108897630011,-0.0016500614063330182,-0.101234,-37.416963
11.185,2.0,1.0,1.0,34.6,33.5,33.5,4.3,4.0,2.5975,0.3963914942440246,-0.013530945055464847,0.905291412858997,-0.001820848751420913,-0.102483,-37.295495
11.185,2.0,1.0,1.0,34.6,33.5,33.5,4.3,4.0,2.6,0.3869731862113562,-0.01370106500978763,0.9092000849130816,-0.001996809783626899,-0.103753,-37.173633
11.185,2.0,1.0,1.0,34.6,33.5,33.5,4.3,4.0,2.6025,0.3774515277627157,-0.013872129493738505,0.913034818755493,-0.002178078169628039,-0.105047,-37.051371
11.185,2.0,1.0,1.0,34.6,33.5,33.5,4.3,4.0,2.605,0.3678259842997141,-0.014044093918401963,0.9167934776442668,-0.0023647908837467918,-0.106364,-36.928704
11.185,2.0,1.0,1.0,34.6,33.5,33.5,4.3,4.0,2.6075,0.3580960417306672,-0.014216910641163821,0.9204738743648229,-0.002557088280889498,-0.107705,-36.805624
11.185,2.0,1.0,1.0,34.6,33.5,33.5,4.3,4.0,2.61,0.3482612079059776,-0.014390528821188636,0.9240737703316126,-0.0027551141706312326,-0.109071,-36.682125
11.185,2.0,1.0,1.0,34.6,33.5,33.5,4.3,4.0,2.6125,0.3383210141151375,-0.014564894268795838,0.9275908746932864,-0.0029590158924562363,-0.110462,-36.558202
11.185,2.0,1.0,1.0,34.6,33.5,33.5,4.3,4.0,2.615,0.32827501664731745,-0.014739949288491637,0.9310228434429829,-0.003168944392166337,-0.111878,-36.433847
11.185,2.0,1.0,1.0,34.6,33.5,33.5,4.3,4.0,2.6175,0.3181227984175594,-0.014915632515402595,0.934367278535424,-0.003385054299470561,-0.113321,-36.309054
11.185,2.0,1.0,1.0,34.6,33.5,33.5,4.3,4.0,2.62,0.30786397066059534,-0.015091878744847203,0.9376217270126276,-0.003607504006774425,-0.114791,-36.183816
11.185,2.0,1.0,1.0,34.6,33.5,33.5,4.3,4.0,2.6225,0.2974981746943283,-0.015268618754769725,0.9407836801401708,-0.0038364557491896685,-0.116288,-36.058126
11.185,2.0,1.0,1.0,34.6,33.5,33.5,4.3,4.0,2.625,0.287025083755076,-0.0154457791207484,0.943850572556054,-0.00407207568579019,-0.117813,-35.931978
11.185,2.0,1.0,1.0,34.6,33.5,33.5,4.3,4.0,2.6275,0.2764444049066222,-0.01562328202327758,0.946819781434352,-0.004314533982145531,-0.119366,-35.805364
11.185,2.0,1.0,1.0,34.6,33.5,33.5,4.3,4.0,2.63,0.2657558810251972,-0.015801045047009354,0.949688625665968,-0.004564004894168963,-0.120949,-35.678276
11.185,2.0,1.0,1.0,34.6,33.5,33.5,4.3,4.0,2.6325,0.2549592928624803,-0.015978980971625117,0.9524543650589476,-0.004820666853324667,-0.122562,-35.550709
11.185,2.0,1.0,1.0,34.6,33.5,33.5,4.3,4.0,2.635,0.24405446118872415,-0.016156997553992324,0.9551141995609563,-0.005084702553246536,-0.124206,-35.422653
11.185,2.0,1.0,1.0,34.6,33.5,33.5,4.3,4.0,2.6375,0.23304124901812034,-0.016334997301243426,0.95766526850666,-0.005356299037830564,-0.12588,-35.294101
11.185,2.0,1.0,1.0,34.6,33.5,33.5,4.3,4.0,2.64,0.2219195639184605,-0.016512877234396737,0.9601046498929378,-0.005635647790874613,-0.127588,-35.165045
11.185,2.0,1.0,1.0,34.6,33.5,33.5,4.3,4.0,2.6425,0.21068936040721853,-0.01669052864211794,0.9624293596849501,-0.0059229448273500455,-0.129327,-35.035478
11.185,2.0,1.0,1.0,34.6,33.5,33.5,4.3,4.0,2.645,0.19935064243607803,-0.01686783682419934,0.9646363511563177,-0.0062183907864054614,-0.131101,-34.90539
11.185,2.0,1.0,1.0,34.6,33.5,33.5,4.3,4.0,2.6475,0.1879034659659484,-0.01704468082431054,0.9667225142667872,-0.006522191026217803,-0.132909,-34.774774
11.185,2.0,1.0,1.0,34.6,33.5,33.5,4.3,4.0,2.65,0.17634794163445755,-0.017220933151548375,0.9686846750809384,-0.006834555720825453,-0.134752,-34.64362
11.185,2.0,1.0,1.0,34.6,33.5,33.5,4.3,4.0,2.6525,0.16468423751789193,-0.017396459490284493,0.9705195952316733,-0.007155699959096057,-0.136631,-34.51192
11.185,2.0,1.0,1.0,34.6,33.5,33.5,4.3,4.0,2.655,0.15291258198946744,-0.017571118397779806,0.9722239714323859,-0.007485843846008586,-0.138548,-34.379665
11.185,2.0,1.0,1.0,34.6,33.5,33.5,4.3,4.0,2.6575,0.141033266675781,-0.017744760988999003,0.9737944350419028,-0.007825212606451148,-0.140502,-34.246845
11.185,2.0,1.0,1.0,34.6,33.5,33.5,4.3,4.0,2.66,0.12904664951322356,-0.017917230608022024,0.9752275516864555,-0.008174036691768943,-0.142495,-34.113451
11.185,2.0,1.0,1.0,34.6,33.5,33.5,4.3,4.0,2.6625,0.11695315790605647,-0.018088362485406982,0.9765198209431285,-0.008532551889325994,-0.144527,-33.979473
11.185,2.0,1.0,1.0,34.6,33.5,33.5,4.3,4.0,2.665,0.10475329198773847,-0.018257983380814014,0.9776676760894094,-0.00890099943538425,-0.146601,-33.8449
11.185,2.0,1.0,1.0,34.6,33.5,33.5,4.3,4.0,2.6675,0.09244762798705608,-0.018425911210147642,0.9786674839236417,-0.009279626131641329,-0.148716,-33.709722
11.185,2.0,1.0,1.0,34.6,33.5,33.5,4.3,4.0,2.67,0.08003682170043273,-0.018591954656420058,0.9795155446613658,-0.009668684465816403,-0.150874,-33.573928
11.185,2.0,1.0,1.0,34.6,33.5,33.5,4.3,4.0,2.6725,0.06752161207170897,-0.018755912763473877,0.9802080919127052,-0.010068432736722777,-0.153075,-33.437507
11.185,2.0,1.0,1.0,34.6,33.5,33.5,4.3,4.0,2.675,0.05490282488056566,-0.018917574511634314,0.9807412927461248,-0.01047913518432288,-0.155322,-33.300448
11.185,2.0,1.0,1.0,34.6,33.5,33.5,4.3,4.0,2.6775,0.04218137654060839,-0.01907671837428192,0.9811112478440467,-0.010901062125323845,-0.157615,-33.162738
11.185,2.0,1.0,1.0,34.6,33.5,33.5,4.3,4.0,2.68,0.029358278007960356,-0.01923311185425161,0.9813139917559915,-0.011334490094942222,-0.159955,-33.024366
11.185,2.0,1.0,1.0,34.6,33.5,33.5,4.3,4.0,2.6825,0.016434638801102852,-0.019386510998865337,0.9813454932550245,-0.011779701995542046,-0.162343,-32.885317
11.185,2.0,1.0,1.0,34.6,33.5,33.5,4.3,4.0,2.685,0.0034116711324728016,-0.019536659892299336,0.981201655803468,-0.012236987252938184,-0.164782,-32.745581
11.185,2.0,1.0,1.0,34.6,33.5,33.5,4.3,4.0,2.6875,-0.0097093058478073,-0.019683290123864,0.98087831813391,-0.0127066419812496,-0.167272,-32.605142
11.185,2.0,1.0,1.0,34.6,33.5,33.5,4.3,4.0,2.69,-0.022926861695914385,-0.019826120230639614,0.9803712549517312,-0.013188969157292441,-0.169814,-32.463986
11.185,2.0,1.0,1.0,34.6,33.5,33.5,4.3,4.0,2.6925,-0.03623945020605355,-0.019964855112759302,0.9796761777653616,-0.013684278805619846,-0.17241,-32.322099
11.185,2.0,1.0,1.0,34.6,33.5,33.5,4.3,4.0,2.695,-0.0496454048301517,-0.020099185419458054,0.9787887358506516,-0.014192888195440042,-0.175062,-32.179466
11.185,2.0,1.0,1.0,34.6,33.5,33.5,4.3,4.0,2.6975,-0.06314293398599352,-0.02022878690381737,0.9777045173557111,-0.014715122050788518,-0.177771,-32.03607
11.185,2.0,1.0,1.0,34.6,33.5,33.5,4.3,4.0,2.7,-0.07673011625442253,-0.020353319743917003,0.976419050552651,-0.015251312775482384,-0.180539,-31.891896
11.185,2.0,1.0,1.0,34.6,33.5,33.5,4.3,4.0,2.7025,-0.09040489546649963,-0.020472427827864292,0.9749278052425977,-0.015801800694557968,-0.183366,-31.746926
11.185,2.0,1.0,1.0,34.6,33.5,33.5,4.3,4.0,2.705,-0.10416507568169354,-0.020585737999898338,0.9732261943203689,-0.016366934314079474,-0.186256,-31.601142
11.185,2.0,1.0,1.0,34.6,33.5,33.5,4.3,4.0,2.7075,-0.11800831605838784,-0.020692859264458567,0.9713095755050586,-0.016947070601414645,-0.18921,-31.454525
11.185,2.0,1.0,1.0,34.6,33.5,33.5,4.3,4.0,2.71,-0.13193212561816517,-0.020793381944761474,0.9691732532426952,-0.01754257528830013,-0.192229,-31.307057
11.185,2.0,1.0,1.0,34.6,33.5,33.5,4.3,4.0,2.7125,-0.1459338579055772,-0.02088687679203854,0.9668124807869591,-0.018153823199270336,-0.195316,-31.158716
11.185,2.0,1.0,1.0,34.6,33.5,33.5,4.3,4.0,2.715,-0.16001070554513447,-0.02097289404114763,0.9642224624636989,-0.01878119860829766,-0.198473,-31.009483
11.185,2.0,1.0,1.0,34.6,33.5,33.5,4.3,4.0,2.7175,-0.17415969469753637,-0.02105096240777328,0.9613983561247261,-0.019425095626794495,-0.201702,-30.859334
11.185,2.0,1.0,1.0,34.6,33.5,33.5,4.3,4.0,2.72,-0.18837767941710803,-0.02112058802186859,0.9583352757960223,-0.020085918626457134,-0.205005,-30.708247
11.185,2.0,1.0,1.0,34.6,33.5,33.5,4.3,4.0,2.7225,-0.20266133591259033,-0.02118125329135752,0.9550282945250473,-0.020764082700798176,-0.208384,-30.556197
11.185,2.0,1.0,1.0,34.6,33.5,33.5,4.3,4.0,2.725,-0.2170071567132686,-0.0212324156893957,0.95147244743138,-0.021460014169607453,-0.211843,-30.403159
11.185,2.0,1.0,1.0,34.6,33.5,33.5,4.3,4.0,2.7275,-0.23141144474251985,-0.021273506457676807,0.9476627349643072,-0.022174151131024642,-0.215383,-30.249107
11.185,2.0,1.0,1.0,34.6,33.5,33.5,4.3,4.0,2.73,-0.24587030730050757,-0.021303929217348333,0.9435941263703252,-0.02290694406637878,-0.219007,-30.094012
11.185,2.0,1.0,1.0,34.6,33.5,33.5,4.3,4.0,2.7325,-0.26037964995765467,-0.021323058478055868,0.9392615633727462,-0.023658856503479486,-0.222719,-29.937846
11.185,2.0,1.0,1.0,34.6,33.5,33.5,4.3,4.0,2.735,-0.27493517035999776,-0.021330238034450274,0.9346599640646931,-0.024430365744614994,-0.226521,-29.780578
11.185,2.0,1.0,1.0,34.6,33.5,33.5,4.3,4.0,2.7375,-0.2895323519470812,-0.021324779238144524,0.9297842270158025,-0.02522196366614268,-0.230416,-29.622176
11.185,2.0,1.0,1.0,34.6,33.5,33.5,4.3,4.0,2.74,-0.30416645758229627,-0.021305959131576766,0.9246292355917946,-0.02603415759724313,-0.234407,-29.462605
11.185,2.0,1.0,1.0,34.6,33.5,33.5,4.3,4.0,2.7425,-0.3188325230946629,-0.02127301842849494,0.9191898624848044,-0.02686747128616236,-0.238499,-29.301831
11.185,2.0,1.0,1.0,34.6,33.5,33.5,4.3,4.0,2.745,-0.33352535072995876,-0.021225159323793055,0.9134609744509895,-0.027722445963086154,-0.242695,-29.139815
11.185,2.0,1.0,1.0,34.6,33.5,33.5,4.3,4.0,2.7475,-0.3482395025075442,-0.021161543113169017,0.9074374372502744,-0.028599641509689657,-0.246999,-28.976519
11.185,2.0,1.0,1.0,34.6,33.5,33.5,4.3,4.0,2.75,-0.362969293477644,-0.0210812876004899,0.90111412078143,-0.0294996377463836,-0.251415,-28.811901
11.185,2.0,1.0,1.0,34.6,33.5,33.5,4.3,4.0,2.7525,-0.3777087848715513,-0.02098346426779969,0.8944859044036882,-0.030423035849347406,-0.255947,-28.645916
11.185,2.0,1.0,1.0,34.6,33.5,33.5,4.3,4.0,2.755,-0.3924517771347111,-0.020867095179527034,0.8875476824340031,-0.03137045991060323,-0.260601,-28.478519
11.185,2.0,1.0,1.0,34.6,33.5,33.5,4.3,4.0,2.7575,-0.4071918028295639,-0.02073114958857827,0.8802943698067064,-0.032342558655653976,-0.265381,-28.309661
11.185,2.0,1.0,1.0,34.6,33.5,33.5,4.3,4.0,2.76,-0.4219221193911538,-0.0205745402075601,0.8727209078797705,-0.03334000733458314,-0.270292,-28.13929
11.185,2.0,1.0,1.0,34.6,33.5,33.5,4.3,4.0,2.7625,-0.43663570171428967,-0.02039611910326872,0.8648222703690956,-0.03436350980401196,-0.275341,-27.967352
11.185,2.0,1.0,1.0,34.6,33.5,33.5,4.3,4.0,2.765,-0.4513252345455501,-0.020194673166704896,0.8565934693892031,-0.03541380081892602,-0.280534,-27.793789
11.185,2.0,1.0,1.0,34.6,33.5,33.5,4.3,4.0,2.7675,-0.46598310464733944,-0.019968919104097142,0.8480295615754476,-0.03649164855513295,-0.285876,-27.61854
11.185,2.0,1.0,1.0,34.6,33.5,33.5,4.3,4.0,2.77,-0.4806013926937617,-0.01971749788658443,0.8391256542593004,-0.03759785738499531,-0.291375,-27.44154
11.185,2.0,1.0,1.0,34.6,33.5,33.5,4.3,4.0,2.7725,-0.495171864849312,-0.019438968587151457,0.8298769116644524,-0.03873327093110035,-0.297039,-27.262721
11.185,2.0,1.0,1.0,34.6,33.5,33.5,4.3,4.0,2.775,-0.5096859639711956,-0.019131801522904633,0.820278561087413,-0.039898775424681496,-0.302875,-27.08201
11.185,2.0,1.0,1.0,34.6,33.5,33.5,4.3,4.0,2.7775,-0.5241348003638534,-0.018794370608573554,0.8103258990219222,-0.04109530339788752,-0.308892,-26.899331
11.185,2.0,1.0,1.0,34.6,33.5,33.5,4.3,4.0,2.78,-0.5385091420001096,-0.018424944812917687,0.8000142971818911,-0.04232383774139304,-0.315101,-26.714602
11.185,2.0,1.0,1.0,34.6,33.5,33.5,4.3,4.0,2.7825,-0.5527994041063158,-0.01802167859314501,0.7893392083727953,-0.043585416161328834,-0.321509,-26.527736
11.185,2.0,1.0,1.0,34.6,33.5,33.5,4.3,4.0,2.785,-0.5669956379893217,-0.017582601163071185,0.778296172156336,-0.04488113607206403,-0.32813,-26.33864
11.185,2.0,1.0,1.0,34.6,33.5,33.5,4.3,4.0,2.7875,-0.5810875189593178,-0.017105604428038972,0.7668808202480984,-0.04621215996390934,-0.334974,-26.147217
11.185,2.0,1.0,1.0,34.6,33.5,33.5,4.3,4.0,2.79,-0.5950643331752511,-0.016588429392937913,0.7550888815826226,-0.04757972128728988,-0.342055,-25.953363
11.185,2.0,1.0,1.0,34.6,33.5,33.5,4.3,4.0,2.7925,-0.6089149632066184,-0.016028650818246788,0.7429161869751847,-0.04898513089720653,-0.349386,-25.756966
11.185,2.0,1.0,1.0,34.6,33.5,33.5,4.3,4.0,2.795,-0.6226278720667926,-0.015423659861921513,0.7303586733045465,-0.05042978410373559,-0.356983,-25.557908
11.185,2.0,1.0,1.0,34.6,33.5,33.5,4.3,4.0,2.7975,-0.6361910854270638,-0.014770644401038154,0.7174123871364798,-0.05191516837566079,-0.364862,-25.356063
11.185,2.0,1.0,1.0,34.6,33.5,33.5,4.3,4.0,2.8,-0.6495921716660724,-0.014066566674963895,0.7040734877040501,-0.05344287174479698,-0.373043,-25.151297
11.185,2.0,1.0,1.0,34.6,33.5,33.5,4.3,4.0,2.8025,-0.6628182193441845,-0.013308137829773144,0.6903382491580728,-0.05501459195771271,-0.381544,-24.943466
11.185,2.0,1.0,1.0,34.6,33.5,33.5,4.3,4.0,2.805,-0.6758558116148333,-0.012491788869538105,0.6762030620004191,-0.05663214641880302,-0.390388,-24.732415
11.185,2.0,1.0,1.0,34.6,33.5,33.5,4.3,4.0,2.8075,-0.6886909969919132,-0.011613637431412938,0.6616644336146219,-0.05829748296321538,-0.399599,-24.517982
11.185,2.0,1.0,1.0,34.6,33.5,33.5,4.3,4.0,2.81,-0.7013092557809287,-0.01066944969489323,0.6467189878137295,-0.06001269148887863,-0.409204,-24.299991
11.185,2.0,1.0,1.0,34.6,33.5,33.5,4.3,4.0,2.8125,-0.713695461347323,-0.00965459660728726,0.631363463336224,-0.061780016462341,-0.419232,-24.078253
11.185,2.0,1.0,1.0,34.6,33.5,33.5,4.3,4.0,2.815,-0.7258338352337176,-0.008564003452326576,0.6155947112387351,-0.06360187029124104,-0.429717,-23.852567
11.185,2.0,1.0,1.0,34.6,33.5,33.5,4.3,4.0,2.8175,-0.7377078949415996,-0.007392091600797036,0.5994096911625632,-0.06548084752421808,-0.440695,-23.622717
11.185,2.0,1.0,1.0,34.6,33.5,33.5,4.3,4.0,2.82,-0.7493003929549803,-0.006132711053340656,0.5828054664932095,-0.06741973979307495,-0.452206,-23.388472
11.185,2.0,1.0,1.0,34.6,33.5,33.5,4.3,4.0,2.8225,-0.760593245293485,-0.00477906210644904,0.5657791984936271,-0.06942155134678812,-0.464296,-23.149581
11.185,2.0,1.0,1.0,34.6,33.5,33.5,4.3,4.0,2.825,-0.7715674475274573,-0.003323604130901972,0.5483281395801749,-0.07148951493525357,-0.477016,-22.905776
