1,w,sub_t,h,l1,l2,l3,g1,g2,Freq,S11_re,S21_re,S11_img,S21_img,S11_dB,S21_dB
11.185,2.0,1.0,1.0,34.3,34.2,34.2,2.5,3.9,2.5,0.731769588073419,-0.0116646598098609,0.669548454528639,0.0056568107118504,-0.071012,-37.745258
11.185,2.0,1.0,1.0,34.3,34.2,34.2,2.5,3.9,2.5025,0.7263908045186562,-0.011881252031666777,0.6752466960007389,0.005635156052604276,-0.071807,-37.621569
11.185,2.0,1.0,1.0,34.3,34.2,34.2,2.5,3.9,2.505,0.7209378008382974,-0.012101585523123952,0.680930852990504,0.005611155641466521,-0.072618,-37.497424
11.185,2.0,1.0,1.0,34.3,34.2,34.2,2.5,3.9,2.5075,0.7154097963606204,-0.012325731119636876,0.6866002597770183,0.00558472294606682,-0.073444,-37.372813
11.185,2.0,1.0,1.0,34.3,34.2,34.2,2.5,3.9,2.51,0.709806000350399,-0.012553761185049566,0.692254230831264,0.005555768220152846,-0.074286,-37.247728
11.185,2.0,1.0,1.0,34.3,34.2,34.2,2.5,3.9,2.5125,0.7041256119562336,-0.01278574964523023,0.6978920602019917,0.005524198370842153,-0.075144,-37.122158
11.185,2.0,1.0,1.0,34.3,34.2,34.2,2.5,3.9,2.515,0.6983678201626293,-0.013021772022220192,0.7035130208818143,0.005489916819710436,-0.076019,-36.996095
11.185,2.0,1.0,1.0,34.3,34.2,34.2,2.5,3.9,2.5175,0.6925318037471955,-0.013261905468937248,0.7091163641528369,0.005452823357391708,-0.076912,-36.869528
11.185,2.0,1.0,1.0,34.3,34.2,34.2,2.5,3.9,2.52,0.6866167312433269,-0.013506228804421127,0.7147013189111017,0.005412813991346378,-0.077822,-36.742447
11.185,2.0,1.0,1.0,34.3,34.2,34.2,2.5,3.9,2.5225,0.6806217609087944,-0.013754822549605628,0.7202670909690954,0.005369780786432676,-0.07875,-36.614844
11.185,2.0,1.0,1.0,34.3,34.2,34.2,2.5,3.9,2.525,0.6745460407006484,-0.014007768963599699,0.7258128623355438,0.0053236116978944365,-0.079696,-36.486706
11.185,2.0,1.0,1.0,34.3,34.2,34.2,2.5,3.9,2.5275,0.6683887082568885,-0.014265152080455852,0.7313377904716856,0.005274190396354766,-0.080661,-36.358025
11.185,2.0,1.0,1.0,34.3,34.2,34.2,2.5,3.9,2.53,0.6621488908853802,-0.014527057746400378,0.7368410075231748,0.005221396084379697,-0.081646,-36.228789
11.185,2.0,1.0,1.0,34.3,34.2,34.2,2.5,3.9,2.5325,0.6558257055605093,-0.01479357365749607,0.7423216195267334,0.005165103304148916,-0.082651,-36.098988
11.185,2.0,1.0,1.0,34.3,34.2,34.2,2.5,3.9,2.535,0.649418258928099,-0.015064789397703724,0.7477787055906401,0.005105181735741274,-0.083677,-35.96861
11.185,2.0,1.0,1.0,34.3,34.2,34.2,2.5,3.9,2.5375,0.6429256473191599,-0.015340796477302448,0.7532113170480931,0.005041495985512281,-0.084724,-35.837645
11.185,2.0,1.0,1.0,34.3,34.2,34.2,2.5,3.9,2.54,0.6363469567730444,-0.015621688371624726,0.7586184765824483,0.004973905364007062,-0.085792,-35.706081
11.185,2.0,1.0,1.0,34.3,34.2,34.2,2.5,3.9,2.5425,0.6296812630706297,-0.01590756056005478,0.7639991773232976,0.004902263652816424,-0.086883,-35.573906
11.185,2.0,1.0,1.0,34.3,34.2,34.2,2.5,3.9,2.545,0.6229276317781861,-0.01619851056523214,0.7693523819122863,0.004826418859745709,-0.087997,-35.441109
11.185,2.0,1.0,1.0,34.3,34.2,34.2,2.5,3.9,2.5475,0.6160851183026239,-0.01649463799239447,0.7746770215375394,0.004746212961624852,-0.089134,-35.307678
11.185,2.0,1.0,1.0,34.3,34.2,34.2,2.5,3.9,2.55,0.6091527679588321,-0.01679604456878604,0.779971994935505,0.004661481634043426,-0.090295,-35.1736
11.185,2.0,1.0,1.0,34.3,34.2,34.2,2.5,3.9,2.5525,0.6021296160499022,-0.01710283418304677,0.7852361673589603,0.004572053967247964,-0.091481,-35.038863
11.185,2.0,1.0,1.0,34.3,34.2,34.2,2.5,3.9,2.555,0.5950146879610272,-0.01741511292448875,0.7904683695098847,0.00447775216738643,-0.092693,-34.903454
11.185,2.0,1.0,1.0,34.3,34.2,34.2,2.5,3.9,2.5575,0.5878069992679436,-0.017732989122153816,0.7956673964358308,0.004378391242230819,-0.093932,-34.767359
11.185,2.0,1.0,1.0,34.3,34.2,34.2,2.5,3.9,2.56,0.5805055558608241,-0.01805657338353324,0.8008320063883498,0.004273778670449281,-0.095197,-34.630566
11.185,2.0,1.0,1.0,34.3,34.2,34.2,2.5,3.9,2.5625,0.5731093540845725,-0.018385978632816484,0.8059609196419771,0.004163714053435451,-0.09649,-34.493061
11.185,2.0,1.0,1.0,34.3,34.2,34.2,2.5,3.9,2.565,0.5656173808965311,-0.018721320148520477,0.81105281727219,0.004047988748633686,-0.097812,-34.35483
11.185,2.0,1.0,1.0,34.3,34.2,34.2,2.5,3.9,2.5675,0.5580286140426801,-0.019062715600331872,0.8161063398906784,0.003926385483225448,-0.099163,-34.215859
11.185,2.0,1.0,1.0,34.3,34.2,34.2,2.5,3.9,2.57,0.550342022253445,-0.019410285084977122,0.8211200863361776,0.0037986779469614458,-0.100545,-34.076132
11.185,2.0,1.0,1.0,34.3,34.2,34.2,2.5,3.9,2.5725,0.5425565654603101,-0.01976415116091194,0.826092612319027,0.003664630362837737,-0.101958,-33.935636
11.185,2.0,1.0,1.0,34.3,34.2,34.2,2.5,3.9,2.575,0.5346711950345083,-0.02012443888159855,0.8310224290175124,0.0035239970342213836,-0.103404,-33.794355
11.185,2.0,1.0,1.0,34.3,34.2,34.2,2.5,3.9,2.5775,0.5266848540491139,-0.020491275827111608,0.8359080016239471,0.003376521866929155,-0.104883,-33.652273
11.185,2.0,1.0,1.0,34.3,34.2,34.2,2.5,3.9,2.58,0.5185964775659663,-0.020864792133784484,0.8407477478383275,0.0032219378646545912,-0.106396,-33.509375
11.185,2.0,1.0,1.0,34.3,34.2,34.2,2.5,3.9,2.5825,0.5104049929489087,-0.021245120521574207,0.8455400363072891,0.003059966596019602,-0.107944,-33.365643
11.185,2.0,1.0,1.0,34.3,34.2,34.2,2.5,3.9,2.585,0.5021093202049473,-0.021632396318786242,0.8502831850059438,0.0028903176313988723,-0.10953,-33.221062
11.185,2.0,1.0,1.0,34.3,34.2,34.2,2.5,3.9,2.5875,0.4937083723549934,-0.022026757483759634,0.8549754595600444,0.002712687947526504,-0.111152,-33.075614
11.185,2.0,1.0,1.0,34.3,34.2,34.2,2.5,3.9,2.59,0.485201055836003,-0.022428344623066632,0.8596150715057574,0.002526761297743284,-0.112814,-32.929281
11.185,2.0,1.0,1.0,34.3,34.2,34.2,2.5,3.9,2.5925,0.4765862709363817,-0.022837301005730396,0.8642001764841921,0.0023322075455788063,-0.114516,-32.782046
11.185,2.0,1.0,1.0,34.3,34.2,34.2,2.5,3.9,2.595,0.46786291226669663,-0.023253772572906627,0.8687288723675947,0.002128681959185719,-0.116259,-32.63389
11.185,2.0,1.0,1.0,34.3,34.2,34.2,2.5,3.9,2.5975,0.4590298692678143,-0.02367790794241224,0.8731991973139978,0.0019158244639483784,-0.118045,-32.484794
11.185,2.0,1.0,1.0,34.3,34.2,34.2,2.5,3.9,2.6,0.4500860267587558,-0.024109858407412275,0.8776091277468367,0.0016932588503788474,-0.119875,-32.334738
11.185,2.0,1.0,1.0,34.3,34.2,34.2,2.5,3.9,2.6025,0.44103026552669955,-0.024549777928496382,0.8819565762558602,0.0014605919341831588,-0.121751,-32.183703
11.185,2.0,1.0,1.0,34.3,34.2,34.2,2.5,3.9,2.605,0.43186146296170025,-0.02499782311828863,0.8862393894153928,0.0012174126651306543,-0.123674,-32.031668
11.185,2.0,1.0,1.0,34.3,34.2,34.2,2.5,3.9,2.6075,0.4225784937389031,-0.025454153217632836,0.8904553455157492,0.0009632911810871292,-0.125647,-31.878611
11.185,2.0,1.0,1.0,34.3,34.2,34.2,2.5,3.9,2.61,0.4131802305511915,-0.02591893006228461,0.8946021522032913,0.0006977778032745443,-0.127669,-31.724512
11.185,2.0,1.0,1.0,34.3,34.2,34.2,2.5,3.9,2.6125,0.40366554489541795,-0.026392318038916347,0.8986774440243153,0.00042040196849504375,-0.129745,-31.569347
11.185,2.0,1.0,1.0,34.3,34.2,34.2,2.5,3.9,2.615,0.394033307915586,-0.026874484029100157,0.9026787798675959,0.00013067109370157242,-0.131874,-31.413095
11.185,2.0,1.0,1.0,34.3,34.2,34.2,2.5,3.9,2.6175,0.3842823913066188,-0.027365597339774766,0.9066036403000313,-0.00017193063209069005,-0.13406,-31.25573
11.185,2.0,1.0,1.0,34.3,34.2,34.2,2.5,3.9,2.62,0.37441166828256617,-0.027865829618526166,0.9104494247894142,-0.00048794353398438683,-0.136304,-31.097229
11.185,2.0,1.0,1.0,34.3,34.2,34.2,2.5,3.9,2.6225,0.3644200146134398,-0.02837535475181019,0.9142134488079099,-0.0008179338213698216,-0.138608,-30.937567
11.185,2.0,1.0,1.0,34.3,34.2,34.2,2.5,3.9,2.625,0.354306309735171,-0.0288943487440195,0.917892940809286,-0.0011624950484937,-0.140975,-30.776718
11.185,2.0,1.0,1.0,34.3,34.2,34.2,2.5,3.9,2.6275,0.34406943793750144,-0.029422989575044564,0.9214850390724292,-0.001522249672398805,-0.143407,-30.614655
11.185,2.0,1.0,1.0,34.3,34.2,34.2,2.5,3.9,2.63,0.3337082896350673,-0.029961457033689052,0.9249867884030408,-0.0018978507158213215,-0.145907,-30.451351
11.185,2.0,1.0,1.0,34.3,34.2,34.2,2.5,3.9,2.6325,0.32322176272730535,-0.030509932523976775,0.9283951366847544,-0.002289983543312325,-0.148476,-30.286778
11.185,2.0,1.0,1.0,34.3,34.2,34.2,2.5,3.9,2.635,0.31260876405332017,-0.031068598841019892,0.9317069312701839,-0.002699367759594067,-0.151119,-30.120906
11.185,2.0,1.0,1.0,34.3,34.2,34.2,2.5,3.9,2.6375,0.3018682109483666,-0.03163763991270194,0.9349189152015833,-0.0031267592399839062,-0.153837,-29.953705
11.185,2.0,1.0,1.0,34.3,34.2,34.2,2.5,3.9,2.64,0.29099903290916085,-0.03221724050295984,0.9380277232499358,-0.0035729523036249983,-0.156633,-29.785144
11.185,2.0,1.0,1.0,34.3,34.2,34.2,2.5,3.9,2.6425,0.2800001733759423,-0.03280758587191252,0.9410298777602673,-0.004038782041258675,-0.159512,-29.615191
11.185,2.0,1.0,1.0,34.3,34.2,34.2,2.5,3.9,2.645,0.2688705916398603,-0.03340886138747773,0.943921784289908,-0.004525126810379067,-0.162476,-29.443813
11.185,2.0,1.0,1.0,34.3,34.2,34.2,2.5,3.9,2.6475,0.25760926488516384,-0.034021252082428385,0.9466997270252279,-0.005032910911825986,-0.165528,-29.270976
11.185,2.0,1.0,1.0,34.3,34.2,34.2,2.5,3.9,2.65,0.24621519037646938,-0.03464494215005388,0.9493598639609953,-0.005563107463222321,-0.168673,-29.096643
11.185,2.0,1.0,1.0,34.3,34.2,34.2,2.5,3.9,2.6525,0.2346873878025644,-0.03528011437069367,0.9518982218250646,-0.006116741486149235,-0.171915,-28.920778
11.185,2.0,1.0,1.0,34.3,34.2,34.2,2.5,3.9,2.655,0.22302490178920528,-0.035926949460391884,0.9543106907294291,-0.0066948932256099035,-0.175257,-28.743342
11.185,2.0,1.0,1.0,34.3,34.2,34.2,2.5,3.9,2.6575,0.21122680459479168,-0.03658562533174951,0.9565930185268521,-0.007298701722159833,-0.178704,-28.564297
11.185,2.0,1.0,1.0,34.3,34.2,34.2,2.5,3.9,2.66,0.19929219900423384,-0.03725631625571625,0.9587408048502496,-0.007929368659118141,-0.182261,-28.383601
11.185,2.0,1.0,1.0,34.3,34.2,34.2,2.5,3.9,2.6625,0.18722022143803424,-0.03793919191153128,0.96074949480974,-0.008588162509530027,-0.185932,-28.201212
11.185,2.0,1.0,1.0,34.3,34.2,34.2,2.5,3.9,2.665,0.17501004529548034,-0.03863441631026789,0.9626143723197635,-0.009276423010064526,-0.189724,-28.017086
11.185,2.0,1.0,1.0,34.3,34.2,34.2,2.5,3.9,2.6675,0.16266088455310368,-0.03934214657541558,0.9643305530258318,-0.009995565991820962,-0.193641,-27.831177
11.185,2.0,1.0,1.0,34.3,34.2,34.2,2.5,3.9,2.67,0.15017199764195835,-0.04006253156161578,0.965892976797373,-0.010747088601132543,-0.197689,-27.643437
11.185,2.0,1.0,1.0,34.3,34.2,34.2,2.5,3.9,2.6725,0.13754269163019964,-0.04079571028999287,0.9672963997496125,-0.011532574946920657,-0.201875,-27.453818
11.185,2.0,1.0,1.0,34.3,34.2,34.2,2.5,3.9,2.675,0.12477232674068595,-0.041541810175436684,0.9685353857535183,-0.012353702215021,-0.206206,-27.262267
11.185,2.0,1.0,1.0,34.3,34.2,34.2,2.5,3.9,2.6775,0.11186032123707054,-0.04230094501763271,0.9696042973884753,-0.013212247294221349,-0.210688,-27.068732
11.185,2.0,1.0,1.0,34.3,34.2,34.2,2.5,3.9,2.68,0.0988061567162049,-0.04307321272351284,0.9704972862874537,-0.01411009396357388,-0.21533,-26.873158
11.185,2.0,1.0,1.0,34.3,34.2,34.2,2.5,3.9,2.6825,0.08560938384966933,-0.043858692724022104,0.9712082828189456,-0.015049240695937816,-0.220138,-26.675485
11.185,2.0,1.0,1.0,34.3,34.2,34.2,2.5,3.9,2.685,0.07226962862298246,-0.04465744304255557,0.9717309850438215,-0.016031809138743268,-0.225123,-26.475654
11.185,2.0,1.0,1.0,34.3,34.2,34.2,2.5,3.9,2.6875,0.0587865991277976,-0.0454694969659719,0.972058846878357,-0.0170600533397219,-0.230294,-26.273603
11.185,2.0,1.0,1.0,34.3,34.2,34.2,2.5,3.9,2.69,0.04516009297009292,-0.0462948592615862,0.9721850653869373,-0.018136369792917457,-0.23566,-26.069266
11.185,2.0,1.0,1.0,34.3,34.2,34.2,2.5,3.9,2.6925,0.031390005366450764,-0.04713350187479192,0.972102567119323,-0.019263308388774932,-0.241232,-25.862574
11.185,2.0,1.0,1.0,34.3,34.2,34.2,2.5,3.9,2.695,0.017476338011053142,-0.04798535903172916,0.9718039933975722,-0.02044358436161458,-0.247022,-25.653457
11.185,2.0,1.0,1.0,34.3,34.2,34.2,2.5,3.9,2.6975,0.00341920880826823,-0.04885032165944729,0.9712816844468001,-0.02168009133847507,-0.253042,-25.44184
11.185,2.0,1.0,1.0,34.3,34.2,34.2,2.5,3.9,2.7,-0.010781137419783834,-0.04972823102196359,0.9705276622516779,-0.022975915605278098,-0.259306,-25.227644
11.185,2.0,1.0,1.0,34.3,34.2,34.2,2.5,3.9,2.7025,-0.025124317124518496,-0.05061887145412558,0.9695336120067457,-0.02433435171971077,-0.265827,-25.01079
11.185,2.0,1.0,1.0,34.3,34.2,34.2,2.5,3.9,2.705,-0.039609794974895175,-0.05152196205576246,0.9682908620131163,-0.02575891961529966,-0.272622,-24.791191
11.185,2.0,1.0,1.0,34.3,34.2,34.2,2.5,3.9,2.7075,-0.05423686938467454,-0.05243714718570781,0.9667903618567442,-0.027253383358073993,-0.279707,-24.568759
11.185,2.0,1.0,1.0,34.3,34.2,34.2,2.5,3.9,2.71,-0.06900465642580592,-0.053363985568207345,0.9650226586838359,-0.028821771736189893,-0.287101,-24.343399
11.185,2.0,1.0,1.0,34.3,34.2,34.2,2.5,3.9,2.7125,-0.08391207189814329,-0.05430193779217197,0.9629778713670966,-0.030468400884155086,-0.294822,-24.115015
11.185,2.0,1.0,1.0,34.3,34.2,34.2,2.5,3.9,2.715,-0.09895781128695373,-0.05525035194569974,0.9606456623318858,-0.032197899167096505,-0.302893,-23.883504
11.185,2.0,1.0,1.0,34.3,34.2,34.2,2.5,3.9,2.7175,-0.11414032729362347,-0.05620844708305879,0.9580152067838794,-0.034015234577121044,-0.311338,-23.648757
11.185,2.0,1.0,1.0,34.3,34.2,34.2,2.5,3.9,2.72,-0.1294578045701102,-0.05717529416741718,0.9550751590491415,-0.03592574492349156,-0.32018,-23.410663
11.185,2.0,1.0,1.0,34.3,34.2,34.2,2.5,3.9,2.7225,-0.14490813122229773,-0.05814979406822716,0.9518136157032957,-0.03793517113135369,-0.329449,-23.169101
11.185,2.0,1.0,1.0,34.3,34.2,34.2,2.5,3.9,2.725,-0.16048886656897127,-0.05913065211509848,0.9482180751286035,-0.04004969400031577,-0.339173,-22.923947
11.185,2.0,1.0,1.0,34.3,34.2,34.2,2.5,3.9,2.7275,-0.17619720454935456,-0.06011634861753832,0.9442753930958268,-0.042275974814538896,-0.349388,-22.675071
11.185,2.0,1.0,1.0,34.3,34.2,34.2,2.5,3.9,2.73,-0.1920299320591038,-0.06110510464873915,0.9399717339218268,-0.044621200240187404,-0.360128,-22.422332
11.185,2.0,1.0,1.0,34.3,34.2,34.2,2.5,3.9,2.7325,-0.2079833813587486,-0.06209484225757978,0.9352925167037581,-0.04709313199414385,-0.371435,-22.165586
11.185,2.0,1.0,1.0,34.3,34.2,34.2,2.5,3.9,2.735,-0.22405337553415938,-0.06308313811107714,0.9302223560768696,-0.04970016181949553,-0.383352,-21.90468
11.185,2.0,1.0,1.0,34.3,34.2,34.2,2.5,3.9,2.7375,-0.2402351657898024,-0.06406716937343487,0.9247449968856968,-0.052451372357898915,-0.395929,-21.639451
11.185,2.0,1.0,1.0,34.3,34.2,34.2,2.5,3.9,2.74,-0.2565233591140503,-0.06504365038978599,0.9188432420990559,-0.05535660456539454,-0.409218,-21.369729
11.185,2.0,1.0,1.0,34.3,34.2,34.2,2.5,3.9,2.7425,-0.27291183456224966,-0.06600875845307834,0.9124988732394023,-0.058426532374771606,-0.42328,-21.095334
11.185,2.0,1.0,1.0,34.3,34.2,34.2,2.5,3.9,2.745,-0.28939364604505374,-0.06695804657927164,0.9056925625397483,-0.06167274536124116,-0.438183,-20.816075
11.185,2.0,1.0,1.0,34.3,34.2,34.2,2.5,3.9,2.7475,-0.30596090907194207,-0.06788634078414564,0.8984037759908099,-0.06510784021454649,-0.453999,-20.531752
11.185,2.0,1.0,1.0,34.3,34.2,34.2,2.5,3.9,2.75,-0.32260466836368,-0.0687876188258822,0.890610666403982,-0.0687455218530528,-0.470811,-20.242152
11.185,2.0,1.0,1.0,34.3,34.2,34.2,2.5,3.9,2.7525,-0.33931474258926986,-0.0696548667278778,0.882289955602064,-0.07260071502399604,-0.488714,-19.947052
11.185,2.0,1.0,1.0,34.3,34.2,34.2,2.5,3.9,2.755,-0.3560795416732563,-0.07047990859687307,0.8734168048734833,-0.0766896872046104,-0.50781,-19.646213
11.185,2.0,1.0,1.0,34.3,34.2,34.2,2.5,3.9,2.7575,-0.3728858511213795,-0.07125320426616116,0.8639646729080794,-0.08103018353056053,-0.528218,-19.339385
11.185,2.0,1.0,1.0,34.3,34.2,34.2,2.5,3.9,2.76,-0.38971857658051395,-0.07196360807711272,0.8539051606032968,-0.08564157430104001,-0.55007,-19.026302
11.185,2.0,1.0,1.0,34.3,34.2,34.2,2.5,3.9,2.7625,-0.4065604403261128,-0.07259808060833702,0.8432078424317218,-0.09054501530124295,-0.573517,-18.706685
11.185,2.0,1.0,1.0,34.3,34.2,34.2,2.5,3.9,2.765,-0.4233916194860833,-0.07314134330090136,0.8318400845563442,-0.0957636206811883,-0.59873,-18.380236
11.185,2.0,1.0,1.0,34.3,34.2,34.2,2.5,3.9,2.7675,-0.4401893134778294,-0.0735754636246164,0.8197668506567648,-0.10132264734737118,-0.625903,-18.046643
11.185,2.0,1.0,1.0,34.3,34.2,34.2,2.5,3.9,2.77,-0.4569272252495908,-0.07387935558028555,0.806950497613761,-0.1072496886351302,-0.65526,-17.705574
11.185,2.0,1.0,1.0,34.3,34.2,34.2,2.5,3.9,2.7725,-0.4735749373511445,-0.07402817681097615,0.7933505649715045,-0.11357487325614343,-0.687057,-17.356681
11.185,2.0,1.0,1.0,34.3,34.2,34.2,2.5,3.9,2.775,-0.49009715946400306,-0.07399259925501223,0.7789235647125516,-0.12033106290214209,-0.721591,-16.999598
11.185,2.0,1.0,1.0,34.3,34.2,34.2,2.5,3.9,2.7775,-0.506452818628085,-0.07373792494809747,0.7636227817073865,-0.1275540380691431,-0.759202,-16.633939
11.185,2.0,1.0,1.0,34.3,34.2,34.2,2.5,3.9,2.78,-0.5225939568298787,-0.07322301209388926,0.7473981007591708,-0.13528265612820206,-0.800289,-16.259301
11.185,2.0,1.0,1.0,34.3,34.2,34.2,2.5,3.9,2.7825,-0.5384643926929509,-0.07239896870180185,0.7301958841993811,-0.14355895767150884,-0.845316,-15.875263
11.185,2.0,1.0,1.0,34.3,34.2,34.2,2.5,3.9,2.785,-0.5539980946107076,-0.07120756181671692,0.7119589355567151,-0.15242818565939378,-0.894826,-15.481389
11.185,2.0,1.0,1.0,34.3,34.2,34.2,2.5,3.9,2.7875,-0.569117201784026,-0.06957927964219084,0.6926266014156313,-0.16193866540192103,-0.94946,-15.077229
11.185,2.0,1.0,1.0,34.3,34.2,34.2,2.5,3.9,2.79,-0.5837296175413338,-0.06743097195751997,0.6721350873076065,-0.1721414698414402,-1.009975,-14.662327
11.185,2.0,1.0,1.0,34.3,34.2,34.2,2.5,3.9,2.7925,-0.5977260868116684,-0.06466298193598526,0.650418097278202,-0.1830897610464078,-1.077272,-14.236222
11.185,2.0,1.0,1.0,34.3,34.2,34.2,2.5,3.9,2.795,-0.6109766584315777,-0.061155671519832366,0.6274079546982778,-0.19483765126879174,-1.152425,-13.79846
11.185,2.0,1.0,1.0,34.3,34.2,34.2,2.5,3.9,2.7975,-0.6233264265236904,-0.056765236309238146,0.6030374294111566,-0.20743835993951856,-1.236725,-13.348604
11.185,2.0,1.0,1.0,34.3,34.2,34.2,2.5,3.9,2.8,-0.6345904498386797,-0.05131871078785455,0.5772425905843139,-0.2209413494991044,-1.331729,-12.886257
11.185,2.0,1.0,1.0,34.3,34.2,34.2,2.5,3.9,2.8025,-0.6445477749745431,-0.04460809182926307,0.5499671345266491,-0.23538799422257667,-1.439326,-12.411079
11.185,2.0,1.0,1.0,34.3,34.2,34.2,2.5,3.9,2.805,-0.6529345581386994,-0.036383577019451864,0.5211688121569436,-0.25080516240934947,-1.561816,-11.922824
11.185,2.0,1.0,1.0,34.3,34.2,34.2,2.5,3.9,2.8075,-0.6594364228526934,-0.026346056379727804,0.4908288105074199,-0.26719586487084274,-1.702015,-11.421386
11.185,2.0,1.0,1.0,34.3,34.2,34.2,2.5,3.9,2.81,-0.6636804596776463,-0.014139263092525509,0.45896522861218103,-0.2845258396905001,-1.863384,-10.906854
11.185,2.0,1.0,1.0,34.3,34.2,34.2,2.5,3.9,2.8125,-0.665227748878439,0.000657539701962178,0.425652113459773,-0.302704621669105,-2.050189,-10.379598
11.185,2.0,1.0,1.0,34.3,34.2,34.2,2.5,3.9,2.815,-0.6635680843471384,0.01853466780018712,0.3910458263969662,-0.3215593443909869,-2.2677,-9.840372
11.185,2.0,1.0,1.0,34.3,34.2,34.2,2.5,3.9,2.8175,-0.6581198493773663,0.04005199073476026,0.3554206471350007,-0.3407993897772068,-2.522422,-9.29045
11.185,2.0,1.0,1.0,34.3,34.2,34.2,2.5,3.9,2.82,-0.6482399027449928,0.06582895206307868,0.3192151835504785,-0.3599703397039643,-2.822352,-8.731802
11.185,2.0,1.0,1.0,34.3,34.2,34.2,2.5,3.9,2.8225,-0.6332509512012748,0.09651722257948199,0.2830897699446714,-0.3783970627022659,-3.177226,-8.167304
11.185,2.0,1.0,1.0,34.3,34.2,34.2,2.5,3.9,2.825,-0.6124969661106652,0.13274552563114794,0.2479916718910434,-0.3951191096384482,-3.598641,-7.60099
11.185,2.0,1.0,1.0,34.3,34.2,34.2,2.5,3.9,2.8275,-0.5854397185177509,0.17502369168342413,0.21521830970238584,-0.40882814506096404,-4.09985,-7.038314
