1,w,sub_t,h,l1,l2,l3,g1,g2,Freq,S11_re,S21_re,S11_img,S21_img,S11_dB,S21_dB
11.185,2.0,1.0,1.0,34.2,34.0,34.0,3.5,3.7,2.5,0.753937028100754,-0.00855752146166387,0.645646075053391,0.00391070986286374,-0.064404,-40.529349
11.185,2.0,1.0,1.0,34.2,34.0,34.0,3.5,3.7,2.5025,0.7489576543105425,-0.008707293440181221,0.6513019615650115,0.003889845535313448,-0.065057,-40.412075
11.185,2.0,1.0,1.0,34.2,34.0,34.0,3.5,3.7,2.505,0.743910436292593,-0.008859362161474442,0.6569463293322604,0.0038672987808895023,-0.065721,-40.294472
11.185,2.0,1.0,1.0,34.2,34.0,34.0,3.5,3.7,2.5075,0.738794709625025,-0.00901376422061766,0.662578620595594,0.003843014897688224,-0.066396,-40.176532
11.185,2.0,1.0,1.0,34.2,34.0,34.0,3.5,3.7,2.51,0.7336098021053912,-0.00917053683356533,0.668198261894069,0.0038169373885690817,-0.067083,-40.058247
11.185,2.0,1.0,1.0,34.2,34.0,34.0,3.5,3.7,2.5125,0.7283550337360637,-0.009329717845852993,0.6738046636119941,0.003789007895708645,-0.067782,-39.939611
11.185,2.0,1.0,1.0,34.2,34.0,34.0,3.5,3.7,2.515,0.7230297167144596,-0.0094913457412502,0.6793972195126188,0.003759166132466167,-0.068493,-39.820615
11.185,2.0,1.0,1.0,34.2,34.0,34.0,3.5,3.7,2.5175,0.7176331554284311,-0.009655459650346051,0.6849753062584649,0.003727349812435947,-0.069217,-39.701252
11.185,2.0,1.0,1.0,34.2,34.0,34.0,3.5,3.7,2.52,0.7121646464571254,-0.009822099359055614,0.6905382829179431,0.0036934945755524424,-0.069954,-39.581514
11.185,2.0,1.0,1.0,34.2,34.0,34.0,3.5,3.7,2.5225,0.7066234785776835,-0.009991305317025441,0.6960854904578387,0.003657533911108858,-0.070703,-39.461392
11.185,2.0,1.0,1.0,34.2,34.0,34.0,3.5,3.7,2.525,0.7010089327781115,-0.01016311864592053,0.7016162512212827,0.003619399077541141,-0.071466,-39.34088
11.185,2.0,1.0,1.0,34.2,34.0,34.0,3.5,3.7,2.5275,0.6953202822767124,-0.010337581147571502,0.7071298683907878,0.0035790190188213092,-0.072243,-39.219967
11.185,2.0,1.0,1.0,34.2,34.0,34.0,3.5,3.7,2.53,0.6895567925484717,-0.010514735311959325,0.7126256254359187,0.0035363202772956,-0.073034,-39.098647
11.185,2.0,1.0,1.0,34.2,34.0,34.0,3.5,3.7,2.5325,0.683717721358813,-0.010694624325012775,0.7181027855451638,0.003491226902793263,-0.07384,-38.97691
11.185,2.0,1.0,1.0,34.2,34.0,34.0,3.5,3.7,2.535,0.6778023188051464,-0.010877292076192332,0.7235605910415605,0.003443660357822448,-0.07466,-38.854748
11.185,2.0,1.0,1.0,34.2,34.0,34.0,3.5,3.7,2.5375,0.6718098273666793,-0.011062783165832004,0.7289982627815974,0.0033935394186583334,-0.075495,-38.732153
11.185,2.0,1.0,1.0,34.2,34.0,34.0,3.5,3.7,2.54,0.6657394819629545,-0.011251142912207635,0.7344149995369347,0.003340780072118331,-0.076345,-38.609115
11.185,2.0,1.0,1.0,34.2,34.0,34.0,3.5,3.7,2.5425,0.6595905100216168,-0.011442417358299902,0.7398099773584383,0.0032852954078061948,-0.077212,-38.485625
11.185,2.0,1.0,1.0,34.2,34.0,34.0,3.5,3.7,2.545,0.6533621315559326,-0.011636653278213088,0.7451823489220329,0.0032269955055952487,-0.078094,-38.361674
11.185,2.0,1.0,1.0,34.2,34.0,34.0,3.5,3.7,2.5475,0.6470535592526123,-0.011833898183214621,0.7505312428558393,0.0031657873181060096,-0.078994,-38.237253
11.185,2.0,1.0,1.0,34.2,34.0,34.0,3.5,3.7,2.55,0.6406639985704967,-0.012034200327348985,0.7558557630480857,0.0031015745479197844,-0.07991,-38.112353
11.185,2.0,1.0,1.0,34.2,34.0,34.0,3.5,3.7,2.5525,0.6341926478507282,-0.012237608712585363,0.7611549879352142,0.0030342575192537687,-0.080844,-37.986963
11.185,2.0,1.0,1.0,34.2,34.0,34.0,3.5,3.7,2.555,0.6276386984390162,-0.012444173093444826,0.7664279697696327,0.0029637330438067205,-0.081795,-37.861075
11.185,2.0,1.0,1.0,34.2,34.0,34.0,3.5,3.7,2.5575,0.6210013348206591,-0.012653943981059183,0.7716737338665282,0.0028898942804658464,-0.082765,-37.734677
11.185,2.0,1.0,1.0,34.2,34.0,34.0,3.5,3.7,2.56,0.6142797347690215,-0.01286697264660085,0.7768912778291278,0.0028126305885469677,-0.083754,-37.607759
11.185,2.0,1.0,1.0,34.2,34.0,34.0,3.5,3.7,2.5625,0.6074730695081737,-0.013083311124022338,0.7820795707517921,0.0027318273742192064,-0.084762,-37.480312
11.185,2.0,1.0,1.0,34.2,34.0,34.0,3.5,3.7,2.565,0.6005805038904525,-0.013303012212040463,0.7872375524003065,0.0026473659297429376,-0.08579,-37.352325
11.185,2.0,1.0,1.0,34.2,34.0,34.0,3.5,3.7,2.5675,0.5936011965897383,-0.013526129475290794,0.7923641323686925,0.002559123265126774,-0.086838,-37.223787
11.185,2.0,1.0,1.0,34.2,34.0,34.0,3.5,3.7,2.57,0.5865343003112643,-0.01375271724457411,0.7974581892118714,0.0024669719317838355,-0.087907,-37.094686
11.185,2.0,1.0,1.0,34.2,34.0,34.0,3.5,3.7,2.5725,0.5793789620188242,-0.013982830616111276,0.802518569553468,0.0023707798377390933,-0.088998,-36.965012
11.185,2.0,1.0,1.0,34.2,34.0,34.0,3.5,3.7,2.575,0.5721343231802825,-0.014216525449716032,0.8075440871680241,0.002270410053911515,-0.09011,-36.834754
11.185,2.0,1.0,1.0,34.2,34.0,34.0,3.5,3.7,2.5775,0.5647995200323298,-0.01445385836578026,0.8125335220368675,0.002165720610962919,-0.091245,-36.703899
11.185,2.0,1.0,1.0,34.2,34.0,34.0,3.5,3.7,2.58,0.5573736838654776,-0.01469488674097208,0.8174856193768526,0.0020565642861701664,-0.092403,-36.572435
11.185,2.0,1.0,1.0,34.2,34.0,34.0,3.5,3.7,2.5825,0.5498559413303118,-0.014939668702523492,0.8223990886411664,0.0019427883797417482,-0.093585,-36.440351
11.185,2.0,1.0,1.0,34.2,34.0,34.0,3.5,3.7,2.585,0.5422454147660991,-0.015188263120983774,0.8272726024913593,0.001824234479960155,-0.094791,-36.307634
11.185,2.0,1.0,1.0,34.2,34.0,34.0,3.5,3.7,2.5875,0.5345412225528637,-0.01544072960129895,0.8321047957397207,0.0017007382164876943,-0.096022,-36.174271
11.185,2.0,1.0,1.0,34.2,34.0,34.0,3.5,3.7,2.59,0.5267424794881251,-0.015697128472069312,0.8368942642611065,0.0015721290011282817,-0.097279,-36.04025
11.185,2.0,1.0,1.0,34.2,34.0,34.0,3.5,3.7,2.5925,0.5188482971895216,-0.01595752077282094,0.8416395638732594,0.0014382297552873468,-0.098563,-35.905556
11.185,2.0,1.0,1.0,34.2,34.0,34.0,3.5,3.7,2.595,0.5108577845246246,-0.01622196823911141,0.8463392091846522,0.0012988566233183023,-0.099873,-35.770176
11.185,2.0,1.0,1.0,34.2,34.0,34.0,3.5,3.7,2.5975,0.5027700480692772,-0.016490533285284773,0.8509916724088262,0.001153818670884678,-0.101212,-35.634097
11.185,2.0,1.0,1.0,34.2,34.0,34.0,3.5,3.7,2.6,0.4945841925958797,-0.016763278984652255,0.855595382144146,0.001002917567405693,-0.102579,-35.497303
11.185,2.0,1.0,1.0,34.2,34.0,34.0,3.5,3.7,2.6025,0.4862993215930987,-0.017040269046882675,0.8601487221178682,0.0008459472515823051,-0.103976,-35.359781
11.185,2.0,1.0,1.0,34.2,34.0,34.0,3.5,3.7,2.605,0.477914537818537,-0.017321567792341487,0.8646500298933357,0.0006826935789281584,-0.105404,-35.221515
11.185,2.0,1.0,1.0,34.2,34.0,34.0,3.5,3.7,2.6075,0.46942894388598805,-0.017607240123110122,0.8690975955390772,0.0005129339501480453,-0.106863,-35.08249
11.185,2.0,1.0,1.0,34.2,34.0,34.0,3.5,3.7,2.61,0.4608416428889622,-0.017897351490384475,0.8734896602585147,0.0003364369191197575,-0.108354,-34.94269
11.185,2.0,1.0,1.0,34.2,34.0,34.0,3.5,3.7,2.6125,0.45215173906225503,-0.018191967857923368,0.8778244149789272,0.00015296177913935117,-0.109879,-34.802099
11.185,2.0,1.0,1.0,34.2,34.0,34.0,3.5,3.7,2.615,0.4433583384834055,-0.01849115566119056,0.8820999988982203,-3.77418740140572e-05,-0.111437,-34.660701
11.185,2.0,1.0,1.0,34.2,34.0,34.0,3.5,3.7,2.6175,0.43446054981599164,-0.018794981761792513,0.8863144979880052,-0.00023593460374900897,-0.113031,-34.518478
11.185,2.0,1.0,1.0,34.2,34.0,34.0,3.5,3.7,2.62,0.4254574850967901,-0.019103513396783095,0.8904659434513683,-0.0004418876207484745,-0.114662,-34.375412
11.185,2.0,1.0,1.0,34.2,34.0,34.0,3.5,3.7,2.6225,0.41634826056892443,-0.019416818122356398,0.8945523101336362,-0.0006558832992847838,-0.116329,-34.231486
11.185,2.0,1.0,1.0,34.2,34.0,34.0,3.5,3.7,2.625,0.40713199756325,-0.0197349637514085,0.898571514884323,-0.000878215723722348,-0.118036,-34.086682
11.185,2.0,1.0,1.0,34.2,34.0,34.0,3.5,3.7,2.6275,0.3978078234302963,-0.02005801828438713,0.9025214148683376,-0.0011091912673275577,-0.119782,-33.940979
11.185,2.0,1.0,1.0,34.2,34.0,34.0,3.5,3.7,2.63,0.38837487252523756,-0.020386049832800776,0.9063998058243943,-0.0013491292056791479,-0.12157,-33.794359
11.185,2.0,1.0,1.0,34.2,34.0,34.0,3.5,3.7,2.6325,0.37883228724846907,-0.02071912653468057,0.9102044202684183,-0.0015983623671638957,-0.1234,-33.646802
11.185,2.0,1.0,1.0,34.2,34.0,34.0,3.5,3.7,2.635,0.3691792191444972,-0.02105731646122731,0.913932925639604,-0.0018572378232516462,-0.125274,-33.498286
11.185,2.0,1.0,1.0,34.2,34.0,34.0,3.5,3.7,2.6375,0.3594148300620128,-0.02140068751378045,0.9175829223865724,-0.0021261176214717034,-0.127193,-33.348791
11.185,2.0,1.0,1.0,34.2,34.0,34.0,3.5,3.7,2.64,0.34953829337812903,-0.02174930731016768,0.9211519419909118,-0.0024053795642659335,-0.129159,-33.198293
11.185,2.0,1.0,1.0,34.2,34.0,34.0,3.5,3.7,2.6425,0.33954879528996545,-0.022103243059381116,0.9246374449251656,-0.0026954180371681893,-0.131173,-33.046772
11.185,2.0,1.0,1.0,34.2,34.0,34.0,3.5,3.7,2.645,0.3294455361769236,-0.022462561423414084,0.9280368185420574,-0.0029966448900625633,-0.133238,-32.894202
11.185,2.0,1.0,1.0,34.2,34.0,34.0,3.5,3.7,2.6475,0.31922773203717625,-0.022827328364962894,0.9313473748915374,-0.003309490375607943,-0.135354,-32.74056
11.185,2.0,1.0,1.0,34.2,34.0,34.0,3.5,3.7,2.65,0.3088946160020987,-0.023197608979552684,0.9345663484618766,-0.0036344041492816876,-0.137524,-32.585821
11.185,2.0,1.0,1.0,34.2,34.0,34.0,3.5,3.7,2.6525,0.29844543993263306,-0.023573467310478692,0.9376908938407477,-0.003971856335898868,-0.139749,-32.429959
11.185,2.0,1.0,1.0,34.2,34.0,34.0,3.5,3.7,2.655,0.28787947610174575,-0.02395496614477549,0.9407180832918486,-0.004322338667911692,-0.142031,-32.272948
11.185,2.0,1.0,1.0,34.2,34.0,34.0,3.5,3.7,2.6575,0.2771960189674785,-0.02434216678820884,0.9436449042422,-0.00468636570128164,-0.144373,-32.114759
11.185,2.0,1.0,1.0,34.2,34.0,34.0,3.5,3.7,2.66,0.26639438704132623,-0.024735128817057857,0.946468256674829,-0.005064476115263643,-0.146777,-31.955365
11.185,2.0,1.0,1.0,34.2,34.0,34.0,3.5,3.7,2.6625,0.2554739248570583,-0.025133909804180905,0.9491849504209775,-0.005457234103040018,-0.149244,-31.794735
11.185,2.0,1.0,1.0,34.2,34.0,34.0,3.5,3.7,2.665,0.244434005045371,-0.025538565016557907,0.9517917023454682,-0.005865230860807541,-0.151778,-31.63284
11.185,2.0,1.0,1.0,34.2,34.0,34.0,3.5,3.7,2.6675,0.23327403052025228,-0.025949147081156757,0.95428513341816,-0.006289086183657382,-0.154381,-31.469648
11.185,2.0,1.0,1.0,34.2,34.0,34.0,3.5,3.7,2.67,0.22199343678329878,-0.02636570561558515,0.956661765663736,-0.006729450177404818,-0.157055,-31.305125
11.185,2.0,1.0,1.0,34.2,34.0,34.0,3.5,3.7,2.6725,0.21059169435274563,-0.02678828681953513,0.9589180189812573,-0.007187005096432475,-0.159804,-31.139238
11.185,2.0,1.0,1.0,34.2,34.0,34.0,3.5,3.7,2.675,0.1990683113245275,-0.027216933022532624,0.9610502078240009,-0.007662467318617664,-0.162629,-30.971952
11.185,2.0,1.0,1.0,34.2,34.0,34.0,3.5,3.7,2.6775,0.18742283607329518,-0.027651682182914587,0.9630545377290732,-0.008156589469536743,-0.165535,-30.80323
11.185,2.0,1.0,1.0,34.2,34.0,34.0,3.5,3.7,2.68,0.1756548601019974,-0.02809256733230515,0.9649271016851765,-0.00867016270938688,-0.168525,-30.633033
11.185,2.0,1.0,1.0,34.2,34.0,34.0,3.5,3.7,2.6825,0.1637640210494472,-0.02853961595910374,0.9666638763255901,-0.009204019197457523,-0.171602,-30.461323
11.185,2.0,1.0,1.0,34.2,34.0,34.0,3.5,3.7,2.685,0.15175000586615042,-0.02899284932362542,0.9682607179319922,-0.009759034750536,-0.174769,-30.288058
11.185,2.0,1.0,1.0,34.2,34.0,34.0,3.5,3.7,2.6875,0.13961255416973473,-0.02945228169655424,0.9697133582331091,-0.010336131713368692,-0.178031,-30.113195
11.185,2.0,1.0,1.0,34.2,34.0,34.0,3.5,3.7,2.69,0.12735146179242846,-0.029917919511212834,0.9710173999803567,-0.01093628206123574,-0.181392,-29.936691
11.185,2.0,1.0,1.0,34.2,34.0,34.0,3.5,3.7,2.6925,0.11496658453437358,-0.030389760418851112,0.9721683122805513,-0.011560510756874458,-0.184856,-29.758499
11.185,2.0,1.0,1.0,34.2,34.0,34.0,3.5,3.7,2.695,0.10245784213812177,-0.03086779223462896,0.9731614256634168,-0.012209899386415883,-0.188427,-29.578569
11.185,2.0,1.0,1.0,34.2,34.0,34.0,3.5,3.7,2.6975,0.08982522250132244,-0.031351991760230215,0.9739919268590002,-0.012885590101737053,-0.192111,-29.396853
11.185,2.0,1.0,1.0,34.2,34.0,34.0,3.5,3.7,2.7,0.077068786146707,-0.03184232346701114,0.9746548532570936,-0.013588789899696438,-0.195913,-29.213298
11.185,2.0,1.0,1.0,34.2,34.0,34.0,3.5,3.7,2.7025,0.06418867097075343,-0.032338738021251305,0.9751450870173802,-0.01432077527217549,-0.199838,-29.027848
11.185,2.0,1.0,1.0,34.2,34.0,34.0,3.5,3.7,2.705,0.05118509729512318,-0.0328411706303465,0.9754573487952117,-0.015082897264735514,-0.203893,-28.840448
11.185,2.0,1.0,1.0,34.2,34.0,34.0,3.5,3.7,2.7075,0.03805837324810531,-0.03334953918562668,0.9755861910435525,-0.015876586986082568,-0.208083,-28.651036
11.185,2.0,1.0,1.0,34.2,34.0,34.0,3.5,3.7,2.71,0.02480890050693548,-0.03386374217379235,0.9755259908467332,-0.016703361615478522,-0.212415,-28.45955
11.185,2.0,1.0,1.0,34.2,34.0,34.0,3.5,3.7,2.7125,0.011437180436104871,-0.03438365632467494,0.9752709422360589,-0.01756483096082887,-0.216897,-28.265925
11.185,2.0,1.0,1.0,34.2,34.0,34.0,3.5,3.7,2.715,-0.0020561793382317477,-0.034909133957986095,0.9748150479309589,-0.01846270462649793,-0.221536,-28.070093
11.185,2.0,1.0,1.0,34.2,34.0,34.0,3.5,3.7,2.7175,-0.015670457871843124,-0.035439999985858756,0.9741521104421741,-0.01939879985706875,-0.226341,-27.871981
11.185,2.0,1.0,1.0,34.2,34.0,34.0,3.5,3.7,2.72,-0.029404813311197625,-0.03597604852105348,0.9732757224652314,-0.020375050131382976,-0.23132,-27.671515
11.185,2.0,1.0,1.0,34.2,34.0,34.0,3.5,3.7,2.7225,-0.04325827470663992,-0.03651703903260021,0.9721792564831333,-0.021393514590420586,-0.236483,-27.468616
11.185,2.0,1.0,1.0,34.2,34.0,34.0,3.5,3.7,2.725,-0.05722973315960662,-0.03706269198106789,0.9708558534865294,-0.02245638839305444,-0.24184,-27.2632
11.185,2.0,1.0,1.0,34.2,34.0,34.0,3.5,3.7,2.7275,-0.07131793222231145,-0.03761268385434728,0.9692984107074359,-0.023566014105640822,-0.247403,-27.055181
11.185,2.0,1.0,1.0,34.2,34.0,34.0,3.5,3.7,2.73,-0.08552145745499772,-0.0381666415114694,0.9674995682487549,-0.024724894244984554,-0.253182,-26.844468
11.185,2.0,1.0,1.0,34.2,34.0,34.0,3.5,3.7,2.7325,-0.09983872503001774,-0.03872413572608926,0.9654516944758934,-0.025935705109699236,-0.259192,-26.630963
11.185,2.0,1.0,1.0,34.2,34.0,34.0,3.5,3.7,2.735,-0.11426796925320436,-0.039284673802419234,0.9631468700187574,-0.027201312052651336,-0.265447,-26.414566
11.185,2.0,1.0,1.0,34.2,34.0,34.0,3.5,3.7,2.7375,-0.12880722885041274,-0.03984769111387553,0.9605768702115212,-0.028524786367351753,-0.27196,-26.195171
11.185,2.0,1.0,1.0,34.2,34.0,34.0,3.5,3.7,2.74,-0.14345433184031467,-0.040412541387848964,0.9577331457739315,-0.02990942398422728,-0.27875,-25.972664
11.185,2.0,1.0,1.0,34.2,34.0,34.0,3.5,3.7,2.7425,-0.15820687878217607,-0.04097848552779332,0.9546068015106262,-0.03135876619907603,-0.285833,-25.746927
11.185,2.0,1.0,1.0,34.2,34.0,34.0,3.5,3.7,2.745,-0.1730622241485738,-0.04154467872515804,0.9511885727738192,-0.032876622686198745,-0.29323,-25.517835
11.185,2.0,1.0,1.0,34.2,34.0,34.0,3.5,3.7,2.7475,-0.1880174555261852,-0.04211015556711734,0.9474687993989789,-0.03446709708323941,-0.300962,-25.285255
11.185,2.0,1.0,1.0,34.2,34.0,34.0,3.5,3.7,2.75,-0.203069370291308,-0.0426738127897921,0.94343739678224,-0.0361346154743122,-0.309051,-25.049048
11.185,2.0,1.0,1.0,34.2,34.0,34.0,3.5,3.7,2.7525,-0.21821444933808243,-0.043234389258544205,0.9390838237213978,-0.037883958143234225,-0.317525,-24.809065
11.185,2.0,1.0,1.0,34.2,34.0,34.0,3.5,3.7,2.755,-0.23344882735410064,-0.04379044267415565,0.9343970465887415,-0.03972029502041319,-0.32641,-24.56515
11.185,2.0,1.0,1.0,34.2,34.0,34.0,3.5,3.7,2.7575,-0.2487682590365068,-0.04434032240291383,0.9293654993427019,-0.04164922530603832,-0.335739,-24.317135
11.185,2.0,1.0,1.0,34.2,34.0,34.0,3.5,3.7,2.76,-0.26416808051727336,-0.04488213770538622,0.9239770388153252,-0.04367682181956802,-0.345545,-24.064845
11.185,2.0,1.0,1.0,34.2,34.0,34.0,3.5,3.7,2.7625,-0.2796431651140277,-0.04541372048764451,0.9182188946330448,-0.04580968070211362,-0.355866,-23.808093
11.185,2.0,1.0,1.0,34.2,34.0,34.0,3.5,3.7,2.765,-0.2951878723350375,-0.045932581512895775,0.9120776130379619,-0.048054977185067536,-0.366744,-23.546679
11.185,2.0,1.0,1.0,34.2,34.0,34.0,3.5,3.7,2.7675,-0.310795988835439,-0.04643585878222264,0.9055389937750684,-0.05042052823609609,-0.378225,-23.28039
11.185,2.0,1.0,1.0,34.2,34.0,34.0,3.5,3.7,2.77,-0.32646065973479815,-0.046920256509258365,0.8985880190968066,-0.05291486300299947,-0.390362,-23.009003
11.185,2.0,1.0,1.0,34.2,34.0,34.0,3.5,3.7,2.7725,-0.34217430834939416,-0.04738197276087025,0.8912087738097977,-0.055547302097071156,-0.403213,-22.732276
11.185,2.0,1.0,1.0,34.2,34.0,34.0,3.5,3.7,2.775,-0.35792854194782164,-0.047816613396128776,0.8833843551501012,-0.05832804688986757,-0.416843,-22.449954
11.185,2.0,1.0,1.0,34.2,34.0,34.0,3.5,3.7,2.7775,-0.37371404058159413,-0.04821908938543208,0.8750967711247272,-0.06126828013874831,-0.431324,-22.161762
11.185,2.0,1.0,1.0,34.2,34.0,34.0,3.5,3.7,2.78,-0.3895204253429631,-0.04858349390044526,0.8663268258022395,-0.06438027940317098,-0.446739,-21.867409
11.185,2.0,1.0,1.0,34.2,34.0,34.0,3.5,3.7,2.7825,-0.405336101520218,-0.048902954694242086,0.8570539898814441,-0.06767754485817268,-0.463181,-21.566583
11.185,2.0,1.0,1.0,34.2,34.0,34.0,3.5,3.7,2.785,-0.42114807100494556,-0.04916945618883835,0.8472562547265112,-0.07117494324134363,-0.480756,-21.258948
11.185,2.0,1.0,1.0,34.2,34.0,34.0,3.5,3.7,2.7875,-0.436941706888704,-0.04937362428793976,0.8369099679498806,-0.07488886976452162,-0.499584,-20.944147
11.185,2.0,1.0,1.0,34.2,34.0,34.0,3.5,3.7,2.79,-0.45270048138101016,-0.04950446514982147,0.8259896485830688,-0.07883742984909889,-0.519801,-20.621797
11.185,2.0,1.0,1.0,34.2,34.0,34.0,3.5,3.7,2.7925,-0.4684056358717955,-0.04954904687592282,0.8144677799511559,-0.08304064245335024,-0.541566,-20.291486
11.185,2.0,1.0,1.0,34.2,34.0,34.0,3.5,3.7,2.795,-0.4840357790000982,-0.04949211014747188,0.8023145786382191,-0.08752066647273585,-0.565058,-19.952774
11.185,2.0,1.0,1.0,34.2,34.0,34.0,3.5,3.7,2.7975,-0.49956639478104925,-0.04931559008240101,0.7894977385208636,-0.0923020510879153,-0.590488,-19.605186
11.185,2.0,1.0,1.0,34.2,34.0,34.0,3.5,3.7,2.8,-0.5149692379299798,-0.04899802673649609,0.7759821499430613,-0.09741200982335034,-0.618098,-19.248216
11.185,2.0,1.0,1.0,34.2,34.0,34.0,3.5,3.7,2.8025,-0.530211587174188,-0.04851383540946312,0.7617295959967773,-0.10288071617510668,-0.648172,-18.881317
11.185,2.0,1.0,1.0,34.2,34.0,34.0,3.5,3.7,2.805,-0.5452553191319371,-0.047832399817305166,0.7466984310016463,-0.10874161553072709,-0.68104,-18.503906
11.185,2.0,1.0,1.0,34.2,34.0,34.0,3.5,3.7,2.8075,-0.5600557547197849,-0.04691694072109264,0.7308432513218921,-0.1150317430640468,-0.717095,-18.115355
11.185,2.0,1.0,1.0,34.2,34.0,34.0,3.5,3.7,2.81,-0.5745602163440189,-0.04572309909064789,0.71411457666068,-0.12179202931204097,-0.756798,-17.714995
11.185,2.0,1.0,1.0,34.2,34.0,34.0,3.5,3.7,2.8125,-0.588706216520462,-0.0441971555256217,0.696458572529428,-0.129067562646407,-0.800701,-17.302111
11.185,2.0,1.0,1.0,34.2,34.0,34.0,3.5,3.7,2.815,-0.6024191761216385,-0.04227378554675921,0.67781686415769,-0.13690775840888067,-0.849462,-16.87594
11.185,2.0,1.0,1.0,34.2,34.0,34.0,3.5,3.7,2.8175,-0.6156095422458697,-0.039873222604126825,0.6581265224608233,-0.14536635435356476,-0.903875,-16.435678
11.185,2.0,1.0,1.0,34.2,34.0,34.0,3.5,3.7,2.82,-0.6281691410961375,-0.03689766660918218,0.6373203496062445,-0.15450110550703836,-0.964902,-15.980478
11.185,2.0,1.0,1.0,34.2,34.0,34.0,3.5,3.7,2.8225,-0.639966560511633,-0.03322673577110073,0.6153276640648054,-0.1643729798691589,-1.033717,-15.509462
11.185,2.0,1.0,1.0,34.2,34.0,34.0,3.5,3.7,2.825,-0.6508413123792212,-0.028711715984175164,0.5920758962355105,-0.17504454626041177,-1.111758,-15.021729
11.185,2.0,1.0,1.0,34.2,34.0,34.0,3.5,3.7,2.8275,-0.6605964843383776,-0.02316832221896176,0.567493475915824,-0.18657707719910505,-1.200807,-14.516379
