1,w,sub_t,h,l1,l2,l3,g1,g2,Freq,S11_re,S21_re,S11_img,S21_img,S11_dB,S21_dB
11.185,2.0,1.0,1.0,34.8,34.1,34.1,2.9,1.8,2.5,0.640030502191436,-0.0210344829867613,0.756049885171007,0.00940496698984331,-0.082201,-32.749849
11.185,2.0,1.0,1.0,34.8,34.1,34.1,2.9,1.8,2.5025,0.633372777235601,-0.02142665635973837,0.7614839104807231,0.009344433912731681,-0.083227,-32.624734
11.185,2.0,1.0,1.0,34.8,34.1,34.1,2.9,1.8,2.505,0.6266286808868142,-0.02182579649204278,0.7668891318144673,0.009278963669643253,-0.084273,-32.499048
11.185,2.0,1.0,1.0,34.8,34.1,34.1,2.9,1.8,2.5075,0.6197973678359817,-0.02223203692767822,0.7722644846270331,0.009208366279561139,-0.085341,-32.372783
11.185,2.0,1.0,1.0,34.8,34.1,34.1,2.9,1.8,2.51,0.6128779858971908,-0.022645513903382892,0.7776088740936684,0.009132444410481041,-0.086432,-32.245928
11.185,2.0,1.0,1.0,34.8,34.1,34.1,2.9,1.8,2.5125,0.6058696761689889,-0.023066366396344105,0.7829211742183397,0.00905099306493726,-0.087546,-32.118474
11.185,2.0,1.0,1.0,34.8,34.1,34.1,2.9,1.8,2.515,0.598771573210335,-0.023494736171931357,0.7882002269143753,0.008963799250204772,-0.088683,-31.990409
11.185,2.0,1.0,1.0,34.8,34.1,34.1,2.9,1.8,2.5175,0.591582805232021,-0.02393076783135259,0.793444841056489,0.008870641632315948,-0.089845,-31.861723
11.185,2.0,1.0,1.0,34.8,34.1,34.1,2.9,1.8,2.52,0.584302494304348,-0.024374608859130877,0.7986537915031748,0.008771290172972172,-0.091032,-31.732405
11.185,2.0,1.0,1.0,34.8,34.1,34.1,2.9,1.8,2.5225,0.5769297565819458,-0.02482640967028369,0.8038258180883741,0.0086655057483721,-0.092245,-31.602445
11.185,2.0,1.0,1.0,34.8,34.1,34.1,2.9,1.8,2.525,0.5694637025465991,-0.02528632365707606,0.8089596245813059,0.00855303974891048,-0.093484,-31.47183
11.185,2.0,1.0,1.0,34.8,34.1,34.1,2.9,1.8,2.5275,0.5619034372690266,-0.02575450723520356,0.8140538776132659,0.008433633658634901,-0.09475,-31.34055
11.185,2.0,1.0,1.0,34.8,34.1,34.1,2.9,1.8,2.53,0.5542480606906071,-0.026231119889243606,0.8191072055701424,0.00830701861326903,-0.096045,-31.208593
11.185,2.0,1.0,1.0,34.8,34.1,34.1,2.9,1.8,2.5325,0.5464966679260719,-0.026716324217197645,0.8241181974493423,0.008172914935532618,-0.097369,-31.075945
11.185,2.0,1.0,1.0,34.8,34.1,34.1,2.9,1.8,2.535,0.5386483495882458,-0.027210285973925455,0.8290854016797442,0.008031031646398044,-0.098723,-30.942596
11.185,2.0,1.0,1.0,34.8,34.1,34.1,2.9,1.8,2.5375,0.5307021921359873,-0.02771317411325178,0.834007324903212,0.007881065950831946,-0.100107,-30.808533
11.185,2.0,1.0,1.0,34.8,34.1,34.1,2.9,1.8,2.54,0.5226572782465068,-0.0282251608285002,0.8388824307161354,0.007722702696464484,-0.101524,-30.673741
11.185,2.0,1.0,1.0,34.8,34.1,34.1,2.9,1.8,2.5425,0.5145126872133241,-0.02874642159118309,0.843709138369364,0.007555613803522139,-0.102973,-30.538209
11.185,2.0,1.0,1.0,34.8,34.1,34.1,2.9,1.8,2.545,0.5062674953711833,-0.029277135187546335,0.8484858214248108,0.007379457664237991,-0.104456,-30.401923
11.185,2.0,1.0,1.0,34.8,34.1,34.1,2.9,1.8,2.5475,0.4979207765493186,-0.029817483752633028,0.8532108063668881,0.007193878509826052,-0.105975,-30.264869
11.185,2.0,1.0,1.0,34.8,34.1,34.1,2.9,1.8,2.55,0.48947160255451316,-0.030367652801496305,0.8578823711668503,0.0069985057429646225,-0.107529,-30.127032
11.185,2.0,1.0,1.0,34.8,34.1,34.1,2.9,1.8,2.5525,0.48091904368552024,-0.03092783125714589,0.8624987437979533,0.006792953233584545,-0.10912,-29.988398
11.185,2.0,1.0,1.0,34.8,34.1,34.1,2.9,1.8,2.555,0.4722621692804341,-0.031498211474771866,0.8670581006992607,0.006576818575591457,-0.11075,-29.848953
11.185,2.0,1.0,1.0,34.8,34.1,34.1,2.9,1.8,2.5575,0.4635000482987397,-0.032078989261735885,0.8715585651857322,0.006349682301974887,-0.112419,-29.708679
11.185,2.0,1.0,1.0,34.8,34.1,34.1,2.9,1.8,2.56,0.4546317499398444,-0.03267036389276228,0.8759982058021086,0.006111107055561717,-0.11413,-29.567563
11.185,2.0,1.0,1.0,34.8,34.1,34.1,2.9,1.8,2.5625,0.44565634429999357,-0.03327253811970097,0.8803750346179133,0.005860636712463394,-0.115883,-29.425588
11.185,2.0,1.0,1.0,34.8,34.1,34.1,2.9,1.8,2.565,0.43657290306958657,-0.03388571817516086,0.8846870054607139,0.005597795455033758,-0.11768,-29.282736
11.185,2.0,1.0,1.0,34.8,34.1,34.1,2.9,1.8,2.5675,0.42738050027304025,-0.03451011376923534,0.8889320120845722,0.005322086790910485,-0.119522,-29.138992
11.185,2.0,1.0,1.0,34.8,34.1,34.1,2.9,1.8,2.57,0.418078213053449,-0.03514593807845132,0.8931078862704054,0.005032992514436278,-0.121412,-28.994337
11.185,2.0,1.0,1.0,34.8,34.1,34.1,2.9,1.8,2.5725,0.4086651225044531,-0.035793407725976854,0.8972123958547066,0.0047299716064640755,-0.12335,-28.848754
11.185,2.0,1.0,1.0,34.8,34.1,34.1,2.9,1.8,2.575,0.39914031455186694,-0.03645274275200919,0.9012432426828255,0.004412459068226598,-0.125338,-28.702224
11.185,2.0,1.0,1.0,34.8,34.1,34.1,2.9,1.8,2.5775,0.38950288088778834,-0.03712416657314278,0.9051980604827062,0.004079864684597108,-0.127378,-28.554728
11.185,2.0,1.0,1.0,34.8,34.1,34.1,2.9,1.8,2.58,0.37975191996008634,-0.03780790592937592,0.9090744126546493,0.003731571711685711,-0.129473,-28.406246
11.185,2.0,1.0,1.0,34.8,34.1,34.1,2.9,1.8,2.5825,0.36988653802036275,-0.03850419081726097,0.9128697899723086,0.0033669354832919014,-0.131623,-28.256759
11.185,2.0,1.0,1.0,34.8,34.1,34.1,2.9,1.8,2.585,0.35990585023369837,-0.03921325440752335,0.9165816081897442,0.0029852819302748205,-0.133832,-28.106245
11.185,2.0,1.0,1.0,34.8,34.1,34.1,2.9,1.8,2.5875,0.3498089818537267,-0.03993533294528052,0.9202072055489114,0.002585906006397236,-0.136101,-27.954682
11.185,2.0,1.0,1.0,34.8,34.1,34.1,2.9,1.8,2.59,0.3395950694668597,-0.04067066563076502,0.9237438401814875,0.0021680700136458447,-0.138432,-27.80205
11.185,2.0,1.0,1.0,34.8,34.1,34.1,2.9,1.8,2.5925,0.32926326230974273,-0.04141949447820936,0.9271886873984045,0.0017310018194235212,-0.140828,-27.648325
11.185,2.0,1.0,1.0,34.8,34.1,34.1,2.9,1.8,2.595,0.3188127236643876,-0.04218206415025993,0.9305388368598878,0.001273892957342144,-0.143292,-27.493484
11.185,2.0,1.0,1.0,34.8,34.1,34.1,2.9,1.8,2.5975,0.3082426323357316,-0.04295862176497283,0.9337912896181256,0.0007958966026106767,-0.145826,-27.337503
11.185,2.0,1.0,1.0,34.8,34.1,34.1,2.9,1.8,2.6,0.2975521842168095,-0.04374941667207736,0.9369429550240025,0.00029612541220824866,-0.148433,-27.180356
11.185,2.0,1.0,1.0,34.8,34.1,34.1,2.9,1.8,2.6025,0.28674059394716533,-0.04455470019478235,0.9399906474885313,-0.00022635078085561972,-0.151116,-27.022017
11.185,2.0,1.0,1.0,34.8,34.1,34.1,2.9,1.8,2.605,0.27580709667059633,-0.04537472533293615,0.9429310830887243,-0.0007725074308729622,-0.153878,-26.862461
11.185,2.0,1.0,1.0,34.8,34.1,34.1,2.9,1.8,2.6075,0.264750949898917,-0.046209746422820275,0.9457608760066932,-0.001343367913114833,-0.156722,-26.701659
11.185,2.0,1.0,1.0,34.8,34.1,34.1,2.9,1.8,2.61,0.25357143548904254,-0.047060018748255716,0.9484765347896622,-0.0019400063418029505,-0.159652,-26.539584
11.185,2.0,1.0,1.0,34.8,34.1,34.1,2.9,1.8,2.6125,0.24226786174138437,-0.04792579809701683,0.9510744584173945,-0.0025635505876390376,-0.162671,-26.376205
11.185,2.0,1.0,1.0,34.8,34.1,34.1,2.9,1.8,2.615,0.23083956562837185,-0.04880734025577099,0.9535509321621763,-0.0032151855116097296,-0.165784,-26.211492
11.185,2.0,1.0,1.0,34.8,34.1,34.1,2.9,1.8,2.6175,0.21928591516281176,-0.04970490043586771,0.9559021232250351,-0.0038961564333977387,-0.168993,-26.045413
11.185,2.0,1.0,1.0,34.8,34.1,34.1,2.9,1.8,2.62,0.20760631191681644,-0.05061873262129318,0.9581240761301907,-0.004607772854513279,-0.172305,-25.877936
11.185,2.0,1.0,1.0,34.8,34.1,34.1,2.9,1.8,2.6225,0.19580019370320828,-0.051549088828941145,0.9602127078579005,-0.005351412458240385,-0.175722,-25.709027
11.185,2.0,1.0,1.0,34.8,34.1,34.1,2.9,1.8,2.625,0.183867037432646,-0.0524962182700231,0.962163802693806,-0.00612852541068815,-0.17925,-25.53865
11.185,2.0,1.0,1.0,34.8,34.1,34.1,2.9,1.8,2.6275,0.17180636216121992,-0.05346036639992302,0.9639730067705694,-0.006940638989677408,-0.182895,-25.36677
11.185,2.0,1.0,1.0,34.8,34.1,34.1,2.9,1.8,2.63,0.15961773234502113,-0.05444177384204721,0.9656358222750484,-0.007789362570907813,-0.186661,-25.193348
11.185,2.0,1.0,1.0,34.8,34.1,34.1,2.9,1.8,2.6325,0.14730076132018202,-0.05544067516921634,0.9671476012913479,-0.008676393003868061,-0.190554,-25.018345
11.185,2.0,1.0,1.0,34.8,34.1,34.1,2.9,1.8,2.635,0.1348551150291819,-0.056457297523833,0.9685035392469169,-0.009603520413316372,-0.194581,-24.84172
11.185,2.0,1.0,1.0,34.8,34.1,34.1,2.9,1.8,2.6375,0.12228051601684573,-0.05749185905539102,0.9696986679252371,-0.01057263446590703,-0.198748,-24.66343
11.185,2.0,1.0,1.0,34.8,34.1,34.1,2.9,1.8,2.64,0.10957674772249967,-0.05854456715082085,0.9707278480046317,-0.011585731145724571,-0.203061,-24.483432
11.185,2.0,1.0,1.0,34.8,34.1,34.1,2.9,1.8,2.6425,0.09674365909829435,-0.05961561642960218,0.9715857610782103,-0.012644920087157537,-0.20753,-24.30168
11.185,2.0,1.0,1.0,34.8,34.1,34.1,2.9,1.8,2.645,0.08378116958774269,-0.060705186471461156,0.9722669011049063,-0.013752432518766641,-0.212161,-24.118125
11.185,2.0,1.0,1.0,34.8,34.1,34.1,2.9,1.8,2.6475,0.07068927450327808,-0.06181343923969229,0.9727655652358732,-0.014910629877645383,-0.216963,-23.932718
11.185,2.0,1.0,1.0,34.8,34.1,34.1,2.9,1.8,2.65,0.05746805084705685,-0.06294051615759706,0.9730758439541476,-0.016122013160309943,-0.221945,-23.745406
11.185,2.0,1.0,1.0,34.8,34.1,34.1,2.9,1.8,2.6525,0.04411766362572304,-0.06408653478907479,0.973191610458286,-0.017389233083479536,-0.227117,-23.556137
11.185,2.0,1.0,1.0,34.8,34.1,34.1,2.9,1.8,2.655,0.0306383727171578,-0.06525158506688608,0.9731065092126631,-0.018715101136328252,-0.232489,-23.364852
11.185,2.0,1.0,1.0,34.8,34.1,34.1,2.9,1.8,2.6575,0.01703054035604601,-0.06643572500332108,0.9728139435780278,-0.020102601614997433,-0.238073,-23.171494
11.185,2.0,1.0,1.0,34.8,34.1,34.1,2.9,1.8,2.66,0.0032946393151796435,-0.06763897580774164,0.9723070624257231,-0.021554904740505153,-0.243881,-22.976001
11.185,2.0,1.0,1.0,34.8,34.1,34.1,2.9,1.8,2.6625,-0.010568738128586644,-0.06886131632343602,0.9715787456275087,-0.02307538097280113,-0.249926,-22.778307
11.185,2.0,1.0,1.0,34.8,34.1,34.1,2.9,1.8,2.665,-0.02455887034088073,-0.07010267668210637,0.9706215882999779,-0.024667616646771192,-0.256222,-22.578347
11.185,2.0,1.0,1.0,34.8,34.1,34.1,2.9,1.8,2.6675,-0.038674895469465106,-0.07136293105770948,0.9694278836680391,-0.026335431070652022,-0.262783,-22.376048
11.185,2.0,1.0,1.0,34.8,34.1,34.1,2.9,1.8,2.67,-0.052915799438191566,-0.07264188938181394,0.967989604395512,-0.02808289524381202,-0.269627,-22.171339
11.185,2.0,1.0,1.0,34.8,34.1,34.1,2.9,1.8,2.6725,-0.06728040263351896,-0.0739392878595525,0.9662983822124656,-0.029914352369373436,-0.276772,-21.964141
11.185,2.0,1.0,1.0,34.8,34.1,34.1,2.9,1.8,2.675,-0.0817673450946067,-0.07525477809794164,0.9643454856481312,-0.031834440357976605,-0.284235,-21.754373
11.185,2.0,1.0,1.0,34.8,34.1,34.1,2.9,1.8,2.6775,-0.09637506998582318,-0.07658791462598286,0.9621217956548934,-0.0338481165423713,-0.292039,-21.54195
11.185,2.0,1.0,1.0,34.8,34.1,34.1,2.9,1.8,2.68,-0.11110180509214743,-0.0779381405475228,0.9596177788825723,-0.03596068484877412,-0.300207,-21.326784
11.185,2.0,1.0,1.0,34.8,34.1,34.1,2.9,1.8,2.6825,-0.12594554203227223,-0.07930477102210706,0.9568234583327547,-0.038177825700351734,-0.308762,-21.10878
11.185,2.0,1.0,1.0,34.8,34.1,34.1,2.9,1.8,2.685,-0.1409040128298013,-0.08068697421449898,0.9537283810898969,-0.04050562896114195,-0.317731,-20.887841
11.185,2.0,1.0,1.0,34.8,34.1,34.1,2.9,1.8,2.6875,-0.15597466341764288,-0.0820837492883081,0.9503215827889772,-0.04295063026551044,-0.327145,-20.663863
11.185,2.0,1.0,1.0,34.8,34.1,34.1,2.9,1.8,2.69,-0.17115462357262995,-0.0834939009410217,0.9465915484382892,-0.045519851119222694,-0.337036,-20.436736
11.185,2.0,1.0,1.0,34.8,34.1,34.1,2.9,1.8,2.6925,-0.18644067268344128,-0.08491600988388812,0.9425261691702371,-0.048220843203683125,-0.347439,-20.206347
11.185,2.0,1.0,1.0,34.8,34.1,34.1,2.9,1.8,2.695,-0.20182920064179305,-0.08634839855713031,0.9381126944424508,-0.05106173736506635,-0.358392,-19.972576
11.185,2.0,1.0,1.0,34.8,34.1,34.1,2.9,1.8,2.6975,-0.2173161630103462,-0.0877890912346874,0.933337679156037,-0.05405129782512169,-0.369939,-19.735294
11.185,2.0,1.0,1.0,34.8,34.1,34.1,2.9,1.8,2.7,-0.2328970294555356,-0.08923576750784024,0.9281869250974751,-0.05719898221021624,-0.382126,-19.494368
11.185,2.0,1.0,1.0,34.8,34.1,34.1,2.9,1.8,2.7025,-0.24856672423317144,-0.09068570793727013,0.9226454160457418,-0.06051500805941233,-0.395007,-19.249656
11.185,2.0,1.0,1.0,34.8,34.1,34.1,2.9,1.8,2.705,-0.26431955727103645,-0.09213573042026518,0.9166972458177184,-0.06401042654014856,-0.408638,-19.00101
11.185,2.0,1.0,1.0,34.8,34.1,34.1,2.9,1.8,2.7075,-0.28014914409584996,-0.09358211552400494,0.9103255384541251,-0.06769720416996027,-0.423084,-18.748271
11.185,2.0,1.0,1.0,34.8,34.1,34.1,2.9,1.8,2.71,-0.29604831248935376,-0.09502051867467222,0.9035123596777647,-0.0715883134120657,-0.438416,-18.491274
11.185,2.0,1.0,1.0,34.8,34.1,34.1,2.9,1.8,2.7125,-0.3120089933143291,-0.09644586665009,0.8962386186896425,-0.07569783307763281,-0.454713,-18.229842
11.185,2.0,1.0,1.0,34.8,34.1,34.1,2.9,1.8,2.715,-0.32802209240653685,-0.09785223528128308,0.8884839593127142,-0.08004105952196167,-0.472065,-17.963789
11.185,2.0,1.0,1.0,34.8,34.1,34.1,2.9,1.8,2.7175,-0.34407733975862537,-0.09923270460163097,0.8802266394567094,-0.08463462965656138,-0.49057,-17.692919
11.185,2.0,1.0,1.0,34.8,34.1,34.1,2.9,1.8,2.72,-0.3601631113962959,-0.10057918686079627,0.8714433978743885,-0.08949665680056679,-0.510342,-17.417022
11.185,2.0,1.0,1.0,34.8,34.1,34.1,2.9,1.8,2.7225,-0.3762662183275929,-0.1018822218065357,0.8621093072293642,-0.09464688034332244,-0.531506,-17.13588
11.185,2.0,1.0,1.0,34.8,34.1,34.1,2.9,1.8,2.725,-0.39237165568499516,-0.10313073238344868,0.8521976126275798,-0.10010683005635894,-0.554205,-16.849259
11.185,2.0,1.0,1.0,34.8,34.1,34.1,2.9,1.8,2.7275,-0.4084623036181428,-0.10431173244472856,0.8416795550199978,-0.10590000563576886,-0.5786,-16.556913
11.185,2.0,1.0,1.0,34.8,34.1,34.1,2.9,1.8,2.73,-0.42451856955805684,-0.10540997614767487,0.8305241793239612,-0.11205207161495037,-0.604875,-16.258581
11.185,2.0,1.0,1.0,34.8,34.1,34.1,2.9,1.8,2.7325,-0.440517959070875,-0.10640753631559043,0.8186981278211185,-0.11859106707657548,-0.633241,-15.953988
11.185,2.0,1.0,1.0,34.8,34.1,34.1,2.9,1.8,2.735,-0.45643455953814427,-0.1072832960867294,0.8061654204958301,-0.12554762848739212,-0.663937,-15.642844
11.185,2.0,1.0,1.0,34.8,34.1,34.1,2.9,1.8,2.7375,-0.4722384172067511,-0.10801233450108941,0.7928872256575711,-0.13295522230254456,-0.697239,-15.324843
11.185,2.0,1.0,1.0,34.8,34.1,34.1,2.9,1.8,2.74,-0.4878947835836074,-0.10856518213892985,0.7788216267000643,-0.14085038148292756,-0.733466,-14.999663
11.185,2.0,1.0,1.0,34.8,34.1,34.1,2.9,1.8,2.7425,-0.5033632015239425,-0.1089069173379241,0.7639233945545377,-0.1492729363755438,-0.772987,-14.666967
11.185,2.0,1.0,1.0,34.8,34.1,34.1,2.9,1.8,2.745,-0.5185963944746282,-0.1089960666784439,0.7481437808185261,-0.15826622500186205,-0.816229,-14.326402
11.185,2.0,1.0,1.0,34.8,34.1,34.1,2.9,1.8,2.7475,-0.5335389139826123,-0.10878326513853011,0.7314303544331022,-0.16787725993868796,-0.863694,-13.977601
11.185,2.0,1.0,1.0,34.8,34.1,34.1,2.9,1.8,2.75,-0.548125490598548,-0.108209621419479,0.713726916207418,-0.178156817599128,-0.915967,-13.620185
11.185,2.0,1.0,1.0,34.8,34.1,34.1,2.9,1.8,2.7525,-0.5622790216428751,-0.1072047223790059,0.6949735419663514,-0.18915939932044165,-0.973739,-13.253764
11.185,2.0,1.0,1.0,34.8,34.1,34.1,2.9,1.8,2.755,-0.5759081161504058,-0.10568419747889916,0.6751068287689485,-0.20094299011009323,-1.037829,-12.877946
11.185,2.0,1.0,1.0,34.8,34.1,34.1,2.9,1.8,2.7575,-0.5889041033581078,-0.10354675034724867,0.6540604525195527,-0.21356850720318718,-1.109208,-12.492338
11.185,2.0,1.0,1.0,34.8,34.1,34.1,2.9,1.8,2.76,-0.6011373979582634,-0.10067055157961058,0.631766193536963,-0.2270987826050336,-1.189038,-12.096556
11.185,2.0,1.0,1.0,34.8,34.1,34.1,2.9,1.8,2.7625,-0.6124531062708792,-0.09690887801458577,0.6081556549236935,-0.24159685590803712,-1.278716,-11.690242
11.185,2.0,1.0,1.0,34.8,34.1,34.1,2.9,1.8,2.765,-0.6226657586438393,-0.0920848850432975,0.5831629943608401,-0.25712325846631834,-1.379929,-11.273078
11.185,2.0,1.0,1.0,34.8,34.1,34.1,2.9,1.8,2.7675,-0.6315530758152551,-0.08598542104867109,0.5567291226241393,-0.2737318381825376,-1.494722,-10.844809
11.185,2.0,1.0,1.0,34.8,34.1,34.1,2.9,1.8,2.77,-0.6388487398296212,-0.07835385588264067,0.5288080024266394,-0.2914634950590037,-1.625595,-10.405279
11.185,2.0,1.0,1.0,34.8,34.1,34.1,2.9,1.8,2.7725,-0.6442342755720483,-0.06888203038544331,0.49937591921235047,-0.31033696134435823,-1.775612,-9.954475
11.185,2.0,1.0,1.0,34.8,34.1,34.1,2.9,1.8,2.775,-0.6473304093465526,-0.057201693290958394,0.46844489530923156,-0.33033546263968383,-1.948546,-9.492586
11.185,2.0,1.0,1.0,34.8,34.1,34.1,2.9,1.8,2.7775,-0.6476887375924713,-0.04287625633467133,0.4360817665933774,-0.3513877515957006,-2.149066,-9.020083
11.185,2.0,1.0,1.0,34.8,34.1,34.1,2.9,1.8,2.78,-0.6447853312946726,-0.025394486622385977,0.4024347809417813,-0.37334166930786744,-2.382962,-8.537824
11.185,2.0,1.0,1.0,34.8,34.1,34.1,2.9,1.8,2.7825,-0.6380191790037943,-0.004169025159933896,0.36776976860328603,-0.39592820229300657,-2.657419,-8.04719
11.185,2.0,1.0,1.0,34.8,34.1,34.1,2.9,1.8,2.785,-0.6267203079915634,0.021455455466439764,0.33251767420884776,-0.41871426546091156,-2.981331,-7.550257
11.185,2.0,1.0,1.0,34.8,34.1,34.1,2.9,1.8,2.7875,-0.6101751181941036,0.052176965444188456,0.2973339595746982,-0.4410437192979191,-3.365618,-7.050006
11.185,2.0,1.0,1.0,34.8,34.1,34.1,2.9,1.8,2.79,-0.5876797130774554,0.08868307255314786,0.2631671411827776,-0.4619693606960159,-3.823452,-6.550571
11.185,2.0,1.0,1.0,34.8,34.1,34.1,2.9,1.8,2.7925,-0.5586348450398086,0.13155642304342544,0.23132720581599867,-0.48018511156758287,-4.370114,-6.0575
11.185,2.0,1.0,1.0,34.8,34.1,34.1,2.9,1.8,2.795,-0.5226960386339862,0.1811254697044926,0.20353360990937758,-0.4939785968723398,-5.021901,-5.578005
11.185,2.0,1.0,1.0,34.8,34.1,34.1,2.9,1.8,2.7975,-0.47998481776518925,0.23725458617748027,0.18190724541382394,-0.501239513154317,-5.792595,-5.121114
11.185,2.0,1.0,1.0,34.8,34.1,34.1,2.9,1.8,2.8,-0.4313452503452551,0.29908934761985856,0.1688557493364805,-0.49957405506828145,-6.68429,-4.697636
11.185,2.0,1.0,1.0,34.8,34.1,34.1,2.9,1.8,2.8025,-0.3785898951172405,0.3648126282583664,0.1667994554510246,-0.48657765557852023,-7.666171,-4.31979
11.185,2.0,1.0,1.0,34.8,34.1,34.1,2.9,1.8,2.805,-0.3246282065257884,0.43151779924267797,0.1777167514727131,-0.4602869420528307,-8.63385,-4.000387
11.185,2.0,1.0,1.0,34.8,34.1,34.1,2.9,1.8,2.8075,-0.27333967750052435,0.49533573152391236,0.20256884337861739,-0.4197510560303722,-9.364838,-3.751525
11.185,2.0,1.0,1.0,34.8,34.1,34.1,2.9,1.8,2.81,-0.2290948756142507,0.5519115029589847,0.2407779145814294,-0.3655493366927123,-9.56801,-3.582953
11.185,2.0,1.0,1.0,34.8,34.1,34.1,2.9,1.8,2.8125,-0.195970605949271,0.597184471603325,0.290005995477766,-0.300009783302325,-9.118357,-3.500471
11.185,2.0,1.0,1.0,34.8,34.1,34.1,2.9,1.8,2.815,-0.1768966798394256,0.6282355366694584,0.34641863090855696,-0.22694582621104017,-8.201659,-3.504857
11.185,2.0,1.0,1.0,34.8,34.1,34.1,2.9,1.8,2.8175,-0.17306968815499013,0.6438684960252691,0.40540244096986683,-0.15094261371601503,-7.115177,-3.591706
11.185,2.0,1.0,1.0,34.8,34.1,34.1,2.9,1.8,2.82,-0.18386470584386985,0.6446965161511384,0.4624699450606059,-0.07645797881656782,-6.061009,-3.752236
11.185,2.0,1.0,1.0,34.8,34.1,34.1,2.9,1.8,2.8225,-0.2072265683886281,0.6327524180517677,0.5140077108068095,-0.00707968074424334,-5.12654,-3.97478
11.185,2.0,1.0,1.0,34.8,34.1,34.1,2.9,1.8,2.825,-0.24031329283560743,0.6108489554254138,0.5576514608432594,0.05484645756707144,-4.332967,-4.246452
11.185,2.0,1.0,1.0,34.8,34.1,34.1,2.9,1.8,2.8275,-0.28012366973895875,0.5819552745667755,0.5922814631304893,0.10821121091922536,-3.672729,-4.554587
11.185,2.0,1.0,1.0,34.8,34.1,34.1,2.9,1.8,2.83,-0.323941138810008,0.5487561718335189,0.6177738348765407,0.1528943338433203,-3.128436,-4.887719
