1,w,sub_t,h,l1,l2,l3,g1,g2,Freq,S11_re,S21_re,S11_img,S21_img,S11_dB,S21_dB
11.185,2.0,1.0,1.0,34.3,33.6,33.6,2.1,2.4,2.5,0.735503472661521,-0.0173809277587469,0.664774847739512,0.010955000619968,-0.074947,-33.745757
11.185,2.0,1.0,1.0,34.3,33.6,33.6,2.1,2.4,2.5025,0.7301498805264138,-0.0177181507162302,0.6705058950742382,0.01095703246972859,-0.075804,-33.625209
11.185,2.0,1.0,1.0,34.3,33.6,33.6,2.1,2.4,2.505,0.7247211646110764,-0.018061436880678627,0.6762236441403772,0.010956016659466826,-0.076678,-33.50422
11.185,2.0,1.0,1.0,34.3,33.6,33.6,2.1,2.4,2.5075,0.7192165169502053,-0.01841090167594369,0.6819274231561198,0.010951828027623452,-0.07757,-33.382783
11.185,2.0,1.0,1.0,34.3,33.6,33.6,2.1,2.4,2.51,0.7136351189615115,-0.01876666281979243,0.6876165398331763,0.010944336642416947,-0.07848,-33.260892
11.185,2.0,1.0,1.0,34.3,33.6,33.6,2.1,2.4,2.5125,0.7079761413961629,-0.019128840360016684,0.6932902807275068,0.010933407609067386,-0.079409,-33.138538
11.185,2.0,1.0,1.0,34.3,33.6,33.6,2.1,2.4,2.515,0.7022387442952536,-0.01949755671012883,0.6989479105690318,0.010918900868620029,-0.080356,-33.015714
11.185,2.0,1.0,1.0,34.3,33.6,33.6,2.1,2.4,2.5175,0.6964220769527818,-0.019872936684538902,0.7045886715695838,0.010900670987971255,-0.081323,-32.892412
11.185,2.0,1.0,1.0,34.3,33.6,33.6,2.1,2.4,2.52,0.6905252778856235,-0.020255107533100784,0.7102117827083851,0.010878566940678893,-0.08231,-32.768625
11.185,2.0,1.0,1.0,34.3,33.6,33.6,2.1,2.4,2.5225,0.6845474748110492,-0.020644198974901766,0.7158164389942556,0.010852431878117469,-0.083317,-32.644344
11.185,2.0,1.0,1.0,34.3,33.6,33.6,2.1,2.4,2.525,0.6784877846323277,-0.021040343231162214,0.7214018107037778,0.010822102890515835,-0.084345,-32.519563
11.185,2.0,1.0,1.0,34.3,33.6,33.6,2.1,2.4,2.5275,0.672345313433016,-0.021443675057096198,0.7269670425945863,0.010787410757390925,-0.085394,-32.394272
11.185,2.0,1.0,1.0,34.3,33.6,33.6,2.1,2.4,2.53,0.66611915648057,-0.021854331772574318,0.7325112530929216,0.010748179686865067,-0.086465,-32.268463
11.185,2.0,1.0,1.0,34.3,33.6,33.6,2.1,2.4,2.5325,0.6598083982399386,-0.022272453291412423,0.7380335334545682,0.010704227043328211,-0.087559,-32.142129
11.185,2.0,1.0,1.0,34.3,33.6,33.6,2.1,2.4,2.535,0.653412112397844,-0.02269818214909837,0.7435329468982617,0.010655363062877114,-0.088676,-32.01526
11.185,2.0,1.0,1.0,34.3,33.6,33.6,2.1,2.4,2.5375,0.6469293618985051,-0.02313166352874818,0.749008527710599,0.010601390555933333,-0.089816,-31.887848
11.185,2.0,1.0,1.0,34.3,33.6,33.6,2.1,2.4,2.54,0.6403591989915889,-0.023573045285068733,0.7544592803214782,0.01054210459641064,-0.090981,-31.759885
11.185,2.0,1.0,1.0,34.3,33.6,33.6,2.1,2.4,2.5425,0.6337006652932304,-0.02402247796608238,0.7598841783490359,0.010477292196767263,-0.092171,-31.631361
11.185,2.0,1.0,1.0,34.3,33.6,33.6,2.1,2.4,2.545,0.6269527918610106,-0.024480114832348864,0.7652821636130187,0.010406731968244036,-0.093386,-31.502268
11.185,2.0,1.0,1.0,34.3,33.6,33.6,2.1,2.4,2.5475,0.6201145992838395,-0.024946111873396633,0.7706521451154856,0.010330193765549762,-0.094628,-31.372597
11.185,2.0,1.0,1.0,34.3,33.6,33.6,2.1,2.4,2.55,0.6131850977877257,-0.025420627821052103,0.7759929979877044,0.010247438315216621,-0.095896,-31.242338
11.185,2.0,1.0,1.0,34.3,33.6,33.6,2.1,2.4,2.5525,0.606163287358512,-0.025903824159325916,0.7813035624020327,0.010158216826804367,-0.097192,-31.111482
11.185,2.0,1.0,1.0,34.3,33.6,33.6,2.1,2.4,2.555,0.5990481578826768,-0.026395865130491115,0.7865826424475746,0.01006227058608722,-0.098517,-30.98002
11.185,2.0,1.0,1.0,34.3,33.6,33.6,2.1,2.4,2.5575,0.5918386893073919,-0.026896917736951857,0.7918290049683161,0.009959330529309657,-0.099871,-30.847942
11.185,2.0,1.0,1.0,34.3,33.6,33.6,2.1,2.4,2.56,0.5845338518210993,-0.027407151738470244,0.7970413783624071,0.009849116797545448,-0.101255,-30.715237
11.185,2.0,1.0,1.0,34.3,33.6,33.6,2.1,2.4,2.5625,0.5771326060559323,-0.02792673964428173,0.8022184513412122,0.009731338270142047,-0.102671,-30.581897
11.185,2.0,1.0,1.0,34.3,33.6,33.6,2.1,2.4,2.565,0.5696339033133886,-0.028455856699588975,0.8073588716466935,0.009605692076171454,-0.104118,-30.44791
11.185,2.0,1.0,1.0,34.3,33.6,33.6,2.1,2.4,2.5675,0.5620366858147633,-0.028994680865880362,0.8124612447256175,0.009471863082752342,-0.105597,-30.313267
11.185,2.0,1.0,1.0,34.3,33.6,33.6,2.1,2.4,2.57,0.5543398869779118,-0.029543392794474467,0.8175241323590474,0.009329523359039513,-0.107111,-30.177957
11.185,2.0,1.0,1.0,34.3,33.6,33.6,2.1,2.4,2.5725,0.5465424317220308,-0.030102175792638713,0.8225460512454916,0.009178331614609217,-0.108659,-30.041969
11.185,2.0,1.0,1.0,34.3,33.6,33.6,2.1,2.4,2.575,0.5386432368022404,-0.03067121578157523,0.8275254715360317,0.009017932610896331,-0.110244,-29.905293
11.185,2.0,1.0,1.0,34.3,33.6,33.6,2.1,2.4,2.5775,0.530641211175853,-0.03125070124550933,0.832460815319673,0.00884795654426058,-0.111865,-29.767917
11.185,2.0,1.0,1.0,34.3,33.6,33.6,2.1,2.4,2.58,0.522535256402343,-0.0318408231710454,0.8373504550570897,0.00866801839917564,-0.113524,-29.629831
11.185,2.0,1.0,1.0,34.3,33.6,33.6,2.1,2.4,2.5825,0.5143242670791335,-0.03244177497589145,0.8421927119608749,0.008477717269948455,-0.115222,-29.491022
11.185,2.0,1.0,1.0,34.3,33.6,33.6,2.1,2.4,2.585,0.5060071313154724,-0.033053752425969016,0.8469858543202962,0.008276635649279777,-0.116961,-29.351479
11.185,2.0,1.0,1.0,34.3,33.6,33.6,2.1,2.4,2.5875,0.49758273124678015,-0.0336769535398457,0.8517280957685105,0.008064338681879104,-0.118741,-29.21119
11.185,2.0,1.0,1.0,34.3,33.6,33.6,2.1,2.4,2.59,0.4890499435920396,-0.034311578479333915,0.8564175934900594,0.007840373381238743,-0.120564,-29.070143
11.185,2.0,1.0,1.0,34.3,33.6,33.6,2.1,2.4,2.5925,0.48040764025690635,-0.03495782942500211,0.8610524463664155,0.007604267807559041,-0.122431,-28.928325
11.185,2.0,1.0,1.0,34.3,33.6,33.6,2.1,2.4,2.595,0.4716546889854468,-0.03561591043523172,0.8656306930572176,0.007355530204696211,-0.124344,-28.785725
11.185,2.0,1.0,1.0,34.3,33.6,33.6,2.1,2.4,2.5975,0.46278995406353773,-0.03628602728734122,0.870150310014741,0.007093648093872386,-0.126305,-28.642329
11.185,2.0,1.0,1.0,34.3,33.6,33.6,2.1,2.4,2.6,0.4538122970771903,-0.036968387299162964,0.8746092094290489,0.006818087321752723,-0.128314,-28.498124
11.185,2.0,1.0,1.0,34.3,33.6,33.6,2.1,2.4,2.6025,0.4447205777292679,-0.037663199129322616,0.8790052371011191,0.006528291060345342,-0.130373,-28.353096
11.185,2.0,1.0,1.0,34.3,33.6,33.6,2.1,2.4,2.605,0.43551365471827086,-0.03837067255431395,0.8833361702411594,0.006223678756022728,-0.132484,-28.207233
11.185,2.0,1.0,1.0,34.3,33.6,33.6,2.1,2.4,2.6075,0.42619038668311665,-0.03909101822029655,0.8875997151891605,0.0059036450247954425,-0.13465,-28.060519
11.185,2.0,1.0,1.0,34.3,33.6,33.6,2.1,2.4,2.61,0.41674963321811326,-0.039824447367356075,0.8917935050545995,0.005567558490790693,-0.13687,-27.912942
11.185,2.0,1.0,1.0,34.3,33.6,33.6,2.1,2.4,2.6125,0.4071902559625647,-0.04057117152377223,0.8959150972720794,0.005214760564694211,-0.139148,-27.764486
11.185,2.0,1.0,1.0,34.3,33.6,33.6,2.1,2.4,2.615,0.3975111197697816,-0.04133140216761302,0.8999619710694934,0.004844564158711224,-0.141486,-27.615136
11.185,2.0,1.0,1.0,34.3,33.6,33.6,2.1,2.4,2.6175,0.3877110939605738,-0.04210535035273641,0.9039315248451784,0.004456252334381196,-0.143885,-27.464878
11.185,2.0,1.0,1.0,34.3,33.6,33.6,2.1,2.4,2.62,0.37778905366665655,-0.042893226296017446,0.9078210734502898,0.0040490768793479456,-0.146348,-27.313696
11.185,2.0,1.0,1.0,34.3,33.6,33.6,2.1,2.4,2.6225,0.36774388126975227,-0.0436952389223273,0.9116278453725046,0.003622256808933847,-0.148876,-27.161575
11.185,2.0,1.0,1.0,34.3,33.6,33.6,2.1,2.4,2.625,0.357574467942628,-0.0445115953634731,0.915348979816866,0.00317497678810085,-0.151473,-27.008497
11.185,2.0,1.0,1.0,34.3,33.6,33.6,2.1,2.4,2.6275,0.3472797152986704,-0.04534250040696059,0.9189815236794653,0.0027063854690896265,-0.154141,-26.854446
11.185,2.0,1.0,1.0,34.3,33.6,33.6,2.1,2.4,2.63,0.33685853715714326,-0.04618815589005684,0.922522428409324,0.0022155937397237177,-0.156882,-26.699406
11.185,2.0,1.0,1.0,34.3,33.6,33.6,2.1,2.4,2.6325,0.3263098614317405,-0.04704876003420872,0.9259685467536721,0.0017016728770332214,-0.159699,-26.543359
11.185,2.0,1.0,1.0,34.3,33.6,33.6,2.1,2.4,2.635,0.3156326321506287,-0.047924506714408385,0.9293166293814842,0.0011636526004995334,-0.162595,-26.386287
11.185,2.0,1.0,1.0,34.3,33.6,33.6,2.1,2.4,2.6375,0.30482581161677574,-0.04881558465758759,0.9325633213798911,0.0006005190188452759,-0.165572,-26.228173
11.185,2.0,1.0,1.0,34.3,33.6,33.6,2.1,2.4,2.64,0.2938883827180006,-0.049722176563557485,0.9357051586177537,1.1212463884220582e-05,-0.168635,-26.068997
11.185,2.0,1.0,1.0,34.3,33.6,33.6,2.1,2.4,2.6425,0.28281935139693676,-0.05064445814139052,0.9387385639703645,-0.000605374795484302,-0.171786,-25.908741
11.185,2.0,1.0,1.0,34.3,33.6,33.6,2.1,2.4,2.645,0.2716177492918498,-0.05158259705345216,0.9416598433988793,-0.0012504009665222835,-0.175029,-25.747385
11.185,2.0,1.0,1.0,34.3,33.6,33.6,2.1,2.4,2.6475,0.26028263656013945,-0.05253675175853573,0.9444651818777086,-0.0019250772810234958,-0.178367,-25.584908
11.185,2.0,1.0,1.0,34.3,33.6,33.6,2.1,2.4,2.65,0.24881310489724162,-0.05350707024471246,0.9471506391626919,-0.002630670687227445,-0.181804,-25.421292
11.185,2.0,1.0,1.0,34.3,33.6,33.6,2.1,2.4,2.6525,0.23720828076477662,-0.05449368864157791,0.9497121453924091,-0.003368506694266585,-0.185343,-25.256513
11.185,2.0,1.0,1.0,34.3,33.6,33.6,2.1,2.4,2.655,0.2254673288427786,-0.05549672970055479,0.952145496514562,-0.004139972378755146,-0.188991,-25.090551
11.185,2.0,1.0,1.0,34.3,33.6,33.6,2.1,2.4,2.6575,0.2135894557222096,-0.056516301130762205,0.954446349528805,-0.004946519563780662,-0.192749,-24.923383
11.185,2.0,1.0,1.0,34.3,33.6,33.6,2.1,2.4,2.66,0.20157391385524528,-0.05755249377670427,0.9566102175368817,-0.005789668181265853,-0.196624,-24.754988
11.185,2.0,1.0,1.0,34.3,33.6,33.6,2.1,2.4,2.6625,0.1894200057823738,-0.05860537962261456,0.9586324645903358,-0.006671009829418643,-0.200621,-24.58534
11.185,2.0,1.0,1.0,34.3,33.6,33.6,2.1,2.4,2.665,0.1771270886569528,-0.05967500960674042,0.9605083003254474,-0.007592211537794805,-0.204743,-24.414416
11.185,2.0,1.0,1.0,34.3,33.6,33.6,2.1,2.4,2.6675,0.1646945790897907,-0.060761411227098716,0.9622327743743376,-0.008555019753351972,-0.208997,-24.242192
11.185,2.0,1.0,1.0,34.3,33.6,33.6,2.1,2.4,2.67,0.15212195833826062,-0.06186458591830268,0.9638007705405199,-0.009561264561794196,-0.213389,-24.068641
11.185,2.0,1.0,1.0,34.3,33.6,33.6,2.1,2.4,2.6725,0.13940877786675354,-0.0629845061768949,0.965207000726358,-0.010612864159479022,-0.217924,-23.893738
11.185,2.0,1.0,1.0,34.3,33.6,33.6,2.1,2.4,2.675,0.12655466530779966,-0.06412111241020162,0.9664459985990886,-0.011711829592195957,-0.222609,-23.717456
11.185,2.0,1.0,1.0,34.3,33.6,33.6,2.1,2.4,2.6775,0.11355933085591038,-0.0652743094810331,0.9675121129811977,-0.012860269778229525,-0.22745,-23.539766
11.185,2.0,1.0,1.0,34.3,33.6,33.6,2.1,2.4,2.68,0.10042257412935,-0.06644396291753021,0.9683995009499735,-0.014060396834284733,-0.232456,-23.360641
11.185,2.0,1.0,1.0,34.3,33.6,33.6,2.1,2.4,2.6825,0.08714429153844823,-0.06762989475407849,0.9691021206301247,-0.01531453172408536,-0.237633,-23.180051
11.185,2.0,1.0,1.0,34.3,33.6,33.6,2.1,2.4,2.685,0.0737244842029718,-0.06883187896542649,0.9696137236622441,-0.016625110250756355,-0.242989,-22.997965
11.185,2.0,1.0,1.0,34.3,33.6,33.6,2.1,2.4,2.6875,0.0601632664653331,-0.0700496364518896,0.969927847328851,-0.0179946894154602,-0.248534,-22.814352
11.185,2.0,1.0,1.0,34.3,33.6,33.6,2.1,2.4,2.69,0.046460875051305014,-0.07128282952874795,0.9700378063185653,-0.019425954166179874,-0.254275,-22.62918
11.185,2.0,1.0,1.0,34.3,33.6,33.6,2.1,2.4,2.6925,0.03261767893526202,-0.07253105586758125,0.9699366841077726,-0.02092172456202006,-0.260224,-22.442415
11.185,2.0,1.0,1.0,34.3,33.6,33.6,2.1,2.4,2.695,0.018634189973128792,-0.07379384183123669,0.9696173239379184,-0.022484963379911294,-0.266389,-22.254024
11.185,2.0,1.0,1.0,34.3,33.6,33.6,2.1,2.4,2.6975,0.0045110743729760185,-0.0750706351373222,0.9690723193652849,-0.024118784192166405,-0.272782,-22.063971
11.185,2.0,1.0,1.0,34.3,33.6,33.6,2.1,2.4,2.7,-0.009750834919009256,-0.07636079677743471,0.9682940043588648,-0.025826459944894672,-0.279415,-21.872218
11.185,2.0,1.0,1.0,34.3,33.6,33.6,2.1,2.4,2.7025,-0.024150524830827233,-0.07766359211066588,0.9672744429206552,-0.027611432068849393,-0.286299,-21.678729
11.185,2.0,1.0,1.0,34.3,33.6,33.6,2.1,2.4,2.705,-0.03868678767902996,-0.07897818104012437,0.9660054182015057,-0.02947732015579622,-0.293449,-21.483463
11.185,2.0,1.0,1.0,34.3,33.6,33.6,2.1,2.4,2.7075,-0.05335820547786307,-0.08030360717012609,0.964478421084496,-0.03142793223493207,-0.300878,-21.286382
11.185,2.0,1.0,1.0,34.3,33.6,33.6,2.1,2.4,2.71,-0.06816313292336841,-0.08163878582914168,0.962684638206876,-0.033467275685186385,-0.308601,-21.087442
11.185,2.0,1.0,1.0,34.3,33.6,33.6,2.1,2.4,2.7125,-0.0830996789183136,-0.08298249082935445,0.9606149393906908,-0.03559956882034138,-0.316634,-20.8866
11.185,2.0,1.0,1.0,34.3,33.6,33.6,2.1,2.4,2.715,-0.09816568648778634,-0.0843333398175114,0.9582598644518385,-0.037829253184714494,-0.324995,-20.683812
11.185,2.0,1.0,1.0,34.3,33.6,33.6,2.1,2.4,2.7175,-0.11335871091684,-0.08568977805339405,0.9556096093570583,-0.04016100659756111,-0.333703,-20.479032
11.185,2.0,1.0,1.0,34.3,33.6,33.6,2.1,2.4,2.72,-0.1286759959207354,-0.08705006043134852,0.9526540116988282,-0.04259975698422057,-0.342777,-20.27221
11.185,2.0,1.0,1.0,34.3,33.6,33.6,2.1,2.4,2.7225,-0.1441144476346369,-0.08841223153655468,0.9493825354592301,-0.04515069703117989,-0.352238,-20.063298
11.185,2.0,1.0,1.0,34.3,33.6,33.6,2.1,2.4,2.725,-0.15967060618242077,-0.08977410350062116,0.9457842550358967,-0.0478192997004246,-0.36211,-19.852244
11.185,2.0,1.0,1.0,34.3,33.6,33.6,2.1,2.4,2.7275,-0.17534061455348526,-0.0911332313902369,0.9418478385063438,-0.05061133463543446,-0.372417,-19.638994
11.185,2.0,1.0,1.0,34.3,33.6,33.6,2.1,2.4,2.73,-0.1911201844811013,-0.09248688582735959,0.9375615301118575,-0.05353288548655921,-0.383186,-19.423493
11.185,2.0,1.0,1.0,34.3,33.6,33.6,2.1,2.4,2.7325,-0.20700455897561867,-0.09383202249919692,0.9329131319488123,-0.0565903681768896,-0.394447,-19.205684
11.185,2.0,1.0,1.0,34.3,33.6,33.6,2.1,2.4,2.735,-0.22298847111966577,-0.09516524817025142,0.9278899848646636,-0.059790550120508226,-0.406229,-18.985508
11.185,2.0,1.0,1.0,34.3,33.6,33.6,2.1,2.4,2.7375,-0.239066098679876,-0.09648278275613427,0.9224789485684286,-0.06314057039251028,-0.418568,-18.762901
11.185,2.0,1.0,1.0,34.3,33.6,33.6,2.1,2.4,2.74,-0.25523101402913967,-0.09778041695870798,0.9166663809820921,-0.06664796083351486,-0.431499,-18.537801
11.185,2.0,1.0,1.0,34.3,33.6,33.6,2.1,2.4,2.7425,-0.27147612880443406,-0.099053464893312,0.910438116881303,-0.07032066804948182,-0.445062,-18.310141
11.185,2.0,1.0,1.0,34.3,33.6,33.6,2.1,2.4,2.745,-0.2877936326458883,-0.10029671106005457,0.9037794459020888,-0.07416707623910326,-0.459301,-18.079852
11.185,2.0,1.0,1.0,34.3,33.6,33.6,2.1,2.4,2.7475,-0.30417492527212714,-0.10150435092101988,0.8966750900270587,-0.07819603074416928,-0.474262,-17.846863
11.185,2.0,1.0,1.0,34.3,33.6,33.6,2.1,2.4,2.75,-0.320610541042971,-0.10266992424208,0.889109180711642,-0.0824168621709515,-0.489996,-17.611099
11.185,2.0,1.0,1.0,34.3,33.6,33.6,2.1,2.4,2.7525,-0.3370900650415168,-0.10378624024003652,0.8810652358711175,-0.08683941087012359,-0.50656,-17.372484
11.185,2.0,1.0,1.0,34.3,33.6,33.6,2.1,2.4,2.755,-0.3536020395715759,-0.10484529344097461,0.8725261370258713,-0.09147405148568388,-0.524015,-17.130938
11.185,2.0,1.0,1.0,34.3,33.6,33.6,2.1,2.4,2.7575,-0.37013385981082136,-0.1058381690018249,0.8634741069996259,-0.09633171718557708,-0.542427,-16.886379
11.185,2.0,1.0,1.0,34.3,33.6,33.6,2.1,2.4,2.76,-0.38667165718244595,-0.10675493607172472,0.8538906886887102,-0.10142392306290227,-0.561869,-16.63872
11.185,2.0,1.0,1.0,34.3,33.6,33.6,2.1,2.4,2.7625,-0.4032001688062112,-0.10758452757035115,0.843756725576338,-0.10676278804023653,-0.582423,-16.387875
11.185,2.0,1.0,1.0,34.3,33.6,33.6,2.1,2.4,2.765,-0.41970259116018016,-0.10831460453431242,0.8330523448625784,-0.11236105441234796,-0.604176,-16.133751
11.185,2.0,1.0,1.0,34.3,33.6,33.6,2.1,2.4,2.7675,-0.43616041582521176,-0.10893140292738844,0.8217569443288342,-0.11823210391414411,-0.627227,-15.876255
11.185,2.0,1.0,1.0,34.3,33.6,33.6,2.1,2.4,2.77,-0.45255324489228377,-0.10941956052359458,0.8098491843679224,-0.12438996888815124,-0.651683,-15.615288
11.185,2.0,1.0,1.0,34.3,33.6,33.6,2.1,2.4,2.7725,-0.46885858328653435,-0.10976192115199648,0.7973069870038932,-0.13084933673293897,-0.677664,-15.350751
11.185,2.0,1.0,1.0,34.3,33.6,33.6,2.1,2.4,2.775,-0.4850516049002805,-0.10993931323822934,0.784107544219635,-0.1376255453205436,-0.705301,-15.08254
11.185,2.0,1.0,1.0,34.3,33.6,33.6,2.1,2.4,2.7775,-0.5011048890311166,-0.10993029919082623,0.7702273385307401,-0.14473456645184846,-0.734743,-14.810551
11.185,2.0,1.0,1.0,34.3,33.6,33.6,2.1,2.4,2.78,-0.5169881231940883,-0.1097108917645108,0.7556421795226027,-0.15219297364272397,-0.766151,-14.534674
11.185,2.0,1.0,1.0,34.3,33.6,33.6,2.1,2.4,2.7825,-0.5326677679261267,-0.10925423309553292,0.740327261043804,-0.16001788956152285,-0.79971,-14.254801
11.185,2.0,1.0,1.0,34.3,33.6,33.6,2.1,2.4,2.785,-0.5481066787407387,-0.10853023166012778,0.7242572449710774,-0.16822690722222505,-0.835621,-13.97082
11.185,2.0,1.0,1.0,34.3,33.6,33.6,2.1,2.4,2.7875,-0.5632636799438233,-0.10750515197966562,0.7074063789898347,-0.17683797751774238,-0.874114,-13.682618
11.185,2.0,1.0,1.0,34.3,33.6,33.6,2.1,2.4,2.79,-0.5780930846241714,-0.1061411515217432,0.6897486577425228,-0.18586925378243327,-0.915446,-13.390082
11.185,2.0,1.0,1.0,34.3,33.6,33.6,2.1,2.4,2.7925,-0.5925441548395671,-0.10439575898114242,0.6712580390744007,-0.19533888171390404,-0.959903,-13.093101
11.185,2.0,1.0,1.0,34.3,33.6,33.6,2.1,2.4,2.795,-0.6065604959145252,-0.10222128805111977,0.6519087300590731,-0.20526472005699453,-1.007812,-12.791563
11.185,2.0,1.0,1.0,34.3,33.6,33.6,2.1,2.4,2.7975,-0.6200793789688747,-0.09956418103489433,0.6316755611405476,-0.21566397383391345,-1.059541,-12.485363
11.185,2.0,1.0,1.0,34.3,33.6,33.6,2.1,2.4,2.8,-0.6330309864820286,-0.09636427737354768,0.6105344712291632,-0.2265527174523668,-1.115506,-12.174399
11.185,2.0,1.0,1.0,34.3,33.6,33.6,2.1,2.4,2.8025,-0.6453375771143434,-0.09255400362738676,0.5884631320971063,-0.2379452795809246,-1.176181,-11.858577
11.185,2.0,1.0,1.0,34.3,33.6,33.6,2.1,2.4,2.805,-0.6569125685032748,-0.08805748399099976,0.5654417471050267,-0.24985345508343487,-1.242106,-11.537813
11.185,2.0,1.0,1.0,34.3,33.6,33.6,2.1,2.4,2.8075,-0.6676595408151887,-0.08278957453115526,0.5414540673170615,-0.2622855013961873,-1.313898,-11.212037
11.185,2.0,1.0,1.0,34.3,33.6,33.6,2.1,2.4,2.81,-0.6774711701321213,-0.07665483067517267,0.5164886775529945,-0.2752448673954289,-1.392263,-10.881199
11.185,2.0,1.0,1.0,34.3,33.6,33.6,2.1,2.4,2.8125,-0.68622811019441,-0.0695464269446155,0.490540615920908,-0.2887285920112,-1.478012,-10.54527
11.185,2.0,1.0,1.0,34.3,33.6,33.6,2.1,2.4,2.815,-0.6937978548169541,-0.061345061723738686,0.46361340273632046,-0.3027252977428185,-1.572081,-10.204251
11.185,2.0,1.0,1.0,34.3,33.6,33.6,2.1,2.4,2.8175,-0.7000336330345426,-0.051917899539755445,0.43572156802308176,-0.3172126912756918,-1.675547,-9.858183
11.185,2.0,1.0,1.0,34.3,33.6,33.6,2.1,2.4,2.82,-0.7047734167317907,-0.041117630903761006,0.40689378005133686,-0.3321544705560163,-1.789662,-9.507151
11.185,2.0,1.0,1.0,34.3,33.6,33.6,2.1,2.4,2.8225,-0.7078391586581486,-0.028781767656331825,0.3771766888208786,-0.34749652673578874,-1.915874,-9.151299
11.185,2.0,1.0,1.0,34.3,33.6,33.6,2.1,2.4,2.825,-0.709036430204491,-0.014732342805915524,0.3466396049994474,-0.3631623234002638,-2.055875,-8.790843
11.185,2.0,1.0,1.0,34.3,33.6,33.6,2.1,2.4,2.8275,-0.7081546961876252,0.0012237489790422787,0.3153801316524682,-0.3790473393387644,-2.211633,-8.426086
11.185,2.0,1.0,1.0,34.3,33.6,33.6,2.1,2.4,2.83,-0.704968550852962,0.019293448167814288,0.2835308455645853,-0.39501248235898717,-2.385455,-8.057435
