1,w,sub_t,h,l1,l2,l3,g1,g2,Freq,S11_re,S21_re,S11_img,S21_img,S11_dB,S21_dB
11.185,2.0,1.0,1.0,34.5,33.0,33.0,2.0,2.0,2.5,0.692016042853257,-0.021421034557557,0.709197430070875,0.0122502910873881,-0.079561,-32.154324
11.185,2.0,1.0,1.0,34.5,33.0,33.0,2.0,2.0,2.5025,0.6860002054560813,-0.021817999006001218,0.7148730322651596,0.012220497708759052,-0.080479,-32.03866
11.185,2.0,1.0,1.0,34.5,33.0,33.0,2.0,2.0,2.505,0.679903048935126,-0.022221477951443094,0.7205277291094376,0.01218627045959672,-0.081414,-31.922626
11.185,2.0,1.0,1.0,34.5,33.0,33.0,2.0,2.0,2.5075,0.6737237651022249,-0.022631570913545333,0.7261606506897134,0.012147445065561412,-0.082367,-31.806216
11.185,2.0,1.0,1.0,34.5,33.0,33.0,2.0,2.0,2.51,0.6674615384416555,-0.02304837837556975,0.7317709021371217,0.012103851618904427,-0.083338,-31.689427
11.185,2.0,1.0,1.0,34.5,33.0,33.0,2.0,2.0,2.5125,0.6611155462465931,-0.02347200174817584,0.7373575629125508,0.012055314381495826,-0.084329,-31.572251
11.185,2.0,1.0,1.0,34.5,33.0,33.0,2.0,2.0,2.515,0.6546849587699627,-0.023902543329269835,0.742919686071869,0.012001651580885756,-0.085338,-31.454685
11.185,2.0,1.0,1.0,34.5,33.0,33.0,2.0,2.0,2.5175,0.6481689393905177,-0.024340106259639498,0.7484562975112824,0.011942675199158521,-0.086367,-31.336723
11.185,2.0,1.0,1.0,34.5,33.0,33.0,2.0,2.0,2.52,0.6415666447949694,-0.02478479447409379,0.7539663951924017,0.011878190754330855,-0.087415,-31.21836
11.185,2.0,1.0,1.0,34.5,33.0,33.0,2.0,2.0,2.5225,0.634877225177089,-0.025236712647808756,0.7594489483465215,0.011807997074038689,-0.088485,-31.09959
11.185,2.0,1.0,1.0,34.5,33.0,33.0,2.0,2.0,2.525,0.6280998244546917,-0.025695966137564998,0.7649028966576875,0.011731886061248508,-0.089575,-30.980407
11.185,2.0,1.0,1.0,34.5,33.0,33.0,2.0,2.0,2.5275,0.6212335805054872,-0.026162660917541276,0.7703271494240687,0.011649642451722118,-0.090687,-30.860808
11.185,2.0,1.0,1.0,34.5,33.0,33.0,2.0,2.0,2.53,0.6142776254228359,-0.02663690350930942,0.7757205846971782,0.011561043562955342,-0.091821,-30.740785
11.185,2.0,1.0,1.0,34.5,33.0,33.0,2.0,2.0,2.5325,0.6072310857924745,-0.02711880090565506,0.7810820483984711,0.011465859034302335,-0.092977,-30.620334
11.185,2.0,1.0,1.0,34.5,33.0,33.0,2.0,2.0,2.535,0.6000930829913386,-0.027608460487824962,0.7864103534128676,0.011363850557990534,-0.094157,-30.499448
11.185,2.0,1.0,1.0,34.5,33.0,33.0,2.0,2.0,2.5375,0.592862733509677,-0.028105989935780146,0.7917042786587214,0.011254771600721502,-0.09536,-30.378123
11.185,2.0,1.0,1.0,34.5,33.0,33.0,2.0,2.0,2.54,0.5855391492976836,-0.02861149713100517,0.7969625681337826,0.011138367115545106,-0.096587,-30.256353
11.185,2.0,1.0,1.0,34.5,33.0,33.0,2.0,2.0,2.5425,0.5781214381379473,-0.029125090051402524,0.8021839299366975,0.011014373243686428,-0.09784,-30.134131
11.185,2.0,1.0,1.0,34.5,33.0,33.0,2.0,2.0,2.545,0.5706087040450781,-0.02964687665776765,0.8073670352635842,0.010882517005995365,-0.099117,-30.011452
11.185,2.0,1.0,1.0,34.5,33.0,33.0,2.0,2.0,2.5475,0.5630000476939445,-0.030176964771313777,0.8125105173792375,0.010742515983681344,-0.100421,-29.888311
11.185,2.0,1.0,1.0,34.5,33.0,33.0,2.0,2.0,2.55,0.5552945668779825,-0.03071546194168365,0.8176129705625337,0.010594077987985742,-0.101752,-29.764701
11.185,2.0,1.0,1.0,34.5,33.0,33.0,2.0,2.0,2.5525,0.5474913569991757,-0.03126247530484962,0.8226729490255805,0.010436900718438539,-0.10311,-29.640617
11.185,2.0,1.0,1.0,34.5,33.0,33.0,2.0,2.0,2.555,0.5395895115913064,-0.031818111430272196,0.8276889658062124,0.010270671409333422,-0.104497,-29.516052
11.185,2.0,1.0,1.0,34.5,33.0,33.0,2.0,2.0,2.5575,0.5315881228781976,-0.03238247615664648,0.8326594916334126,0.010095066464051866,-0.105912,-29.391001
11.185,2.0,1.0,1.0,34.5,33.0,33.0,2.0,2.0,2.56,0.5234862823687396,-0.03295567441552763,0.8375829537652639,0.009909751076853754,-0.107357,-29.265457
11.185,2.0,1.0,1.0,34.5,33.0,33.0,2.0,2.0,2.5625,0.5152830814905649,-0.033537810042084434,0.8424577347990562,0.00971437884174822,-0.108833,-29.139415
11.185,2.0,1.0,1.0,34.5,33.0,33.0,2.0,2.0,2.565,0.5069776122643243,-0.0341289855721869,0.8472821714531875,0.009508591348047088,-0.11034,-29.012867
11.185,2.0,1.0,1.0,34.5,33.0,33.0,2.0,2.0,2.5675,0.4985689680206247,-0.0347293020249847,0.8520545533205212,0.009292017762198278,-0.111879,-28.885809
11.185,2.0,1.0,1.0,34.5,33.0,33.0,2.0,2.0,2.57,0.4900562441617542,-0.035338858670085994,0.8567731215928822,0.00906427439548681,-0.113451,-28.758232
11.185,2.0,1.0,1.0,34.5,33.0,33.0,2.0,2.0,2.5725,0.48143853897043715,-0.03595775277839203,0.8614360677564097,0.008824964257186492,-0.115056,-28.630132
11.185,2.0,1.0,1.0,34.5,33.0,33.0,2.0,2.0,2.575,0.472714954467957,-0.03658607935558917,0.8660415322575059,0.008573676592736383,-0.116697,-28.501502
11.185,2.0,1.0,1.0,34.5,33.0,33.0,2.0,2.0,2.5775,0.4638845973240944,-0.03722393085723794,0.8705876031391532,0.008309986406511856,-0.118373,-28.372335
11.185,2.0,1.0,1.0,34.5,33.0,33.0,2.0,2.0,2.58,0.45494657982143244,-0.037871396884341005,0.87507231464742,0.008033453968753424,-0.120086,-28.242624
11.185,2.0,1.0,1.0,34.5,33.0,33.0,2.0,2.0,2.5825,0.4459000208766955,-0.03852856385820222,0.8794936458079964,0.0077436243062123005,-0.121837,-28.112363
11.185,2.0,1.0,1.0,34.5,33.0,33.0,2.0,2.0,2.585,0.4367440471219167,-0.03919551467332068,0.8838495189726682,0.007440026676066538,-0.123626,-27.981545
11.185,2.0,1.0,1.0,34.5,33.0,33.0,2.0,2.0,2.5875,0.4274777940483319,-0.03987232832699108,0.8881377983356731,0.00712217402265908,-0.125456,-27.850164
11.185,2.0,1.0,1.0,34.5,33.0,33.0,2.0,2.0,2.59,0.41810040721606107,-0.040559079524199945,0.8923562884199293,0.006789562416606643,-0.127326,-27.718212
11.185,2.0,1.0,1.0,34.5,33.0,33.0,2.0,2.0,2.5925,0.4086110435327263,-0.04125583825632961,0.8965027325332153,0.006441670475825099,-0.129239,-27.585683
11.185,2.0,1.0,1.0,34.5,33.0,33.0,2.0,2.0,2.595,0.3990088726043529,-0.041962669352088325,0.9005748111943935,0.006077958768020781,-0.131195,-27.452569
11.185,2.0,1.0,1.0,34.5,33.0,33.0,2.0,2.0,2.5975,0.38929307816197506,-0.04267963199899709,0.9045701405299028,0.005697869194192654,-0.133195,-27.318864
11.185,2.0,1.0,1.0,34.5,33.0,33.0,2.0,2.0,2.6,0.3794628595675831,-0.04340677923366247,0.9084862706407603,0.005300824352698209,-0.135241,-27.18456
11.185,2.0,1.0,1.0,34.5,33.0,33.0,2.0,2.0,2.6025,0.3695174334031704,-0.04414415739896149,0.9123206839404349,0.004886226883436048,-0.137335,-27.04965
11.185,2.0,1.0,1.0,34.5,33.0,33.0,2.0,2.0,2.605,0.35945603514679836,-0.04489180556615224,0.916070793464028,0.004453458791706146,-0.139478,-26.914126
11.185,2.0,1.0,1.0,34.5,33.0,33.0,2.0,2.0,2.6075,0.3492779209397884,-0.04564975491981152,0.9197339411492923,0.004001880751316704,-0.14167,-26.777982
11.185,2.0,1.0,1.0,34.5,33.0,33.0,2.0,2.0,2.61,0.3389823694493114,-0.04641802810336977,0.9233073960901209,0.00353083138651499,-0.143914,-26.64121
11.185,2.0,1.0,1.0,34.5,33.0,33.0,2.0,2.0,2.6125,0.32856868383082183,-0.047196638522888835,0.926788352763271,0.0030396265323334886,-0.146211,-26.503802
11.185,2.0,1.0,1.0,34.5,33.0,33.0,2.0,2.0,2.615,0.3180361937949832,-0.04798558960658255,0.9301739292291662,0.002527558472958271,-0.148563,-26.365751
11.185,2.0,1.0,1.0,34.5,33.0,33.0,2.0,2.0,2.6175,0.3073842577839253,-0.04878487401743727,0.9334611653078012,0.0019938951577422865,-0.150971,-26.227048
11.185,2.0,1.0,1.0,34.5,33.0,33.0,2.0,2.0,2.62,0.2966122652618806,-0.04959447281612697,0.9366470207308641,0.0014378793945112737,-0.153438,-26.087685
11.185,2.0,1.0,1.0,34.5,33.0,33.0,2.0,2.0,2.6225,0.2857196391254366,-0.050414354571256356,0.9397283732713735,0.0008587280198304473,-0.155964,-25.947656
11.185,2.0,1.0,1.0,34.5,33.0,33.0,2.0,2.0,2.625,0.274705838238913,-0.0512444744137816,0.942702016852271,0.000255631045934547,-0.158552,-25.806951
11.185,2.0,1.0,1.0,34.5,33.0,33.0,2.0,2.0,2.6275,0.263570360100527,-0.05208477303227848,0.945564659635595,-0.00037224921594942436,-0.161204,-25.665563
11.185,2.0,1.0,1.0,34.5,33.0,33.0,2.0,2.0,2.63,0.2523127436453077,-0.05293517560551839,0.9483129220940291,-0.0010257790561136219,-0.163921,-25.523482
11.185,2.0,1.0,1.0,34.5,33.0,33.0,2.0,2.0,2.6325,0.2409325721909511,-0.053795590668608326,0.9509433350668239,-0.0017058542909023369,-0.166707,-25.380702
11.185,2.0,1.0,1.0,34.5,33.0,33.0,2.0,2.0,2.635,0.229429476533035,-0.05466590890872,0.9534523378023103,-0.002413401211404775,-0.169562,-25.237212
11.185,2.0,1.0,1.0,34.5,33.0,33.0,2.0,2.0,2.6375,0.21780313819632963,-0.055546001886193554,0.9558362759894267,-0.003149377556387687,-0.17249,-25.093005
11.185,2.0,1.0,1.0,34.5,33.0,33.0,2.0,2.0,2.64,0.2060532928491576,-0.056435720676548125,0.9580913997809405,-0.0039147735094925175,-0.175492,-24.948071
11.185,2.0,1.0,1.0,34.5,33.0,33.0,2.0,2.0,2.6425,0.194179733888096,-0.057334894428654304,0.9602138618112976,-0.004710612720644015,-0.178571,-24.802402
11.185,2.0,1.0,1.0,34.5,33.0,33.0,2.0,2.0,2.645,0.1821823162005857,-0.05824332883403762,0.9621997152122898,-0.005537953351547834,-0.181729,-24.655989
11.185,2.0,1.0,1.0,34.5,33.0,33.0,2.0,2.0,2.6475,0.17006096011332364,-0.05916080450196934,0.9640449116300579,-0.006397889145061016,-0.18497,-24.508822
11.185,2.0,1.0,1.0,34.5,33.0,33.0,2.0,2.0,2.65,0.15781565553464239,-0.06008707523467294,0.9657452992472115,-0.007291550518129223,-0.188296,-24.360892
11.185,2.0,1.0,1.0,34.5,33.0,33.0,2.0,2.0,2.6525,0.1454464662994481,-0.0610218661966181,0.9672966208142222,-0.008220105677869639,-0.191709,-24.212189
11.185,2.0,1.0,1.0,34.5,33.0,33.0,2.0,2.0,2.655,0.13295353472557317,-0.061964871971503604,0.968694511694565,-0.009184761760267108,-0.195213,-24.062704
11.185,2.0,1.0,1.0,34.5,33.0,33.0,2.0,2.0,2.6575,0.12033708639085305,-0.06291575450012102,0.9699344979284797,-0.010186765990811962,-0.198812,-23.912427
11.185,2.0,1.0,1.0,34.5,33.0,33.0,2.0,2.0,2.66,0.10759743514055126,-0.063874140891866,0.9710119943206088,-0.011227406866263914,-0.202507,-23.761348
11.185,2.0,1.0,1.0,34.5,33.0,33.0,2.0,2.0,2.6625,0.09473498833522292,-0.06483962110219772,0.971922302557207,-0.01230801535656247,-0.206303,-23.609457
11.185,2.0,1.0,1.0,34.5,33.0,33.0,2.0,2.0,2.665,0.0817502523494733,-0.06581174546785874,0.9726606093590421,-0.01342996612572484,-0.210202,-23.456742
11.185,2.0,1.0,1.0,34.5,33.0,33.0,2.0,2.0,2.6675,0.06864383833258199,-0.0667900220911307,0.9732219846766248,-0.014594678770368155,-0.21421,-23.303195
11.185,2.0,1.0,1.0,34.5,33.0,33.0,2.0,2.0,2.67,0.05541646824236232,-0.06777391406383909,0.9736013799348892,-0.015803619074276045,-0.218329,-23.148803
11.185,2.0,1.0,1.0,34.5,33.0,33.0,2.0,2.0,2.6725,0.04206898116419039,-0.06876283652120527,0.9737936263349783,-0.017058300277181204,-0.222564,-22.993557
11.185,2.0,1.0,1.0,34.5,33.0,33.0,2.0,2.0,2.675,0.02860233992761647,-0.06975615351498697,0.9737934332214222,-0.018360284355661907,-0.226918,-22.837444
11.185,2.0,1.0,1.0,34.5,33.0,33.0,2.0,2.0,2.6775,0.01501763803356974,-0.07075317469464387,0.9735953865235223,-0.01971118331375249,-0.231397,-22.680454
11.185,2.0,1.0,1.0,34.5,33.0,33.0,2.0,2.0,2.68,0.0013161069056943915,-0.07175315178449977,0.9731939472805289,-0.02111266048053158,-0.236004,-22.522574
11.185,2.0,1.0,1.0,34.5,33.0,33.0,2.0,2.0,2.6825,-0.012500876519886423,-0.07275527484405166,0.9725834502607559,-0.02256643181157951,-0.240745,-22.363793
11.185,2.0,1.0,1.0,34.5,33.0,33.0,2.0,2.0,2.685,-0.026431781851592877,-0.07375866829769086,0.971758102685683,-0.02407426719078986,-0.245625,-22.204099
11.185,2.0,1.0,1.0,34.5,33.0,33.0,2.0,2.0,2.6875,-0.040474916930489,-0.0747623867191386,0.970711983070734,-0.0256379917285584,-0.250648,-22.043479
11.185,2.0,1.0,1.0,34.5,33.0,33.0,2.0,2.0,2.69,-0.05462841913313807,-0.07576541035486167,0.9694390401954136,-0.027259487051867516,-0.255821,-21.88192
11.185,2.0,1.0,1.0,34.5,33.0,33.0,2.0,2.0,2.6925,-0.06889024627195008,-0.07676664036961237,0.9679330922162862,-0.028940692581221086,-0.261149,-21.71941
11.185,2.0,1.0,1.0,34.5,33.0,33.0,2.0,2.0,2.695,-0.08325816707490707,-0.07776489379601217,0.9661878259373394,-0.03068360678874992,-0.266639,-21.555935
11.185,2.0,1.0,1.0,34.5,33.0,33.0,2.0,2.0,2.6975,-0.09772975122558544,-0.07875889816878154,0.9641967962532857,-0.0324902884311172,-0.272296,-21.391482
11.185,2.0,1.0,1.0,34.5,33.0,33.0,2.0,2.0,2.7,-0.1123023589432444,-0.07974728582277352,0.9619534257824951,-0.034362857750058,-0.278128,-21.226036
11.185,2.0,1.0,1.0,34.5,33.0,33.0,2.0,2.0,2.7025,-0.12697313008175667,-0.08072858783241023,0.959451004707495,-0.03630349763252294,-0.284141,-21.059583
11.185,2.0,1.0,1.0,34.5,33.0,33.0,2.0,2.0,2.705,-0.14173897272471742,-0.08170122756841237,0.9566826908422768,-0.03831445472140942,-0.290343,-20.892109
11.185,2.0,1.0,1.0,34.5,33.0,33.0,2.0,2.0,2.7075,-0.15659655125283603,-0.08266351384585799,0.953641509947094,-0.040398040466770466,-0.296742,-20.723598
11.185,2.0,1.0,1.0,34.5,33.0,33.0,2.0,2.0,2.71,-0.1715422738581009,-0.0836136336355743,0.9503203563130015,-0.04255663210615241,-0.303346,-20.554035
11.185,2.0,1.0,1.0,34.5,33.0,33.0,2.0,2.0,2.7125,-0.18657227947763372,-0.08454964430865927,0.9467119936400857,-0.044792673561334,-0.310164,-20.383404
11.185,2.0,1.0,1.0,34.5,33.0,33.0,2.0,2.0,2.715,-0.2016824241182404,-0.08546946538149967,0.9428090562352061,-0.04710867623716938,-0.317204,-20.211689
11.185,2.0,1.0,1.0,34.5,33.0,33.0,2.0,2.0,2.7175,-0.21686826654072355,-0.08637086972600864,0.9386040505571185,-0.04950721970648036,-0.324476,-20.038873
11.185,2.0,1.0,1.0,34.5,33.0,33.0,2.0,2.0,2.72,-0.23212505327073238,-0.08725147420689965,0.9340893571391254,-0.051990952262945436,-0.331991,-19.864938
11.185,2.0,1.0,1.0,34.5,33.0,33.0,2.0,2.0,2.7225,-0.2474477029005134,-0.08810872970463382,0.9292572329218534,-0.05456259132168674,-0.33976,-19.689866
11.185,2.0,1.0,1.0,34.5,33.0,33.0,2.0,2.0,2.725,-0.26283078964313367,-0.08893991047918509,0.9240998140316128,-0.05722492364468122,-0.347792,-19.51364
11.185,2.0,1.0,1.0,34.5,33.0,33.0,2.0,2.0,2.7275,-0.27826852609779595,-0.08974210282594168,0.9186091190428092,-0.05998080536523592,-0.356102,-19.33624
11.185,2.0,1.0,1.0,34.5,33.0,33.0,2.0,2.0,2.73,-0.2937547451814304,-0.09051219297084802,0.9127770527664005,-0.06283316178243721,-0.364701,-19.157647
11.185,2.0,1.0,1.0,34.5,33.0,33.0,2.0,2.0,2.7325,-0.3092828811780231,-0.09124685414727776,0.9065954106102347,-0.0657849868927291,-0.373603,-18.977841
11.185,2.0,1.0,1.0,34.5,33.0,33.0,2.0,2.0,2.735,-0.3248459498530625,-0.09194253279203937,0.9000558835615321,-0.06883934262145336,-0.382821,-18.7968
11.185,2.0,1.0,1.0,34.5,33.0,33.0,2.0,2.0,2.7375,-0.3404365275757118,-0.09259543379234005,0.8931500638466718,-0.0719993577122677,-0.392372,-18.614503
11.185,2.0,1.0,1.0,34.5,33.0,33.0,2.0,2.0,2.74,-0.35604672938635296,-0.09320150470938647,0.8858694513291143,-0.0752682262266995,-0.402271,-18.430928
11.185,2.0,1.0,1.0,34.5,33.0,33.0,2.0,2.0,2.7425,-0.37166818594131407,-0.09375641889755729,0.8782054607126578,-0.0786492055996214,-0.412536,-18.246052
11.185,2.0,1.0,1.0,34.5,33.0,33.0,2.0,2.0,2.745,-0.38729201926028367,-0.09425555743066209,0.8701494296245271,-0.08214561418898127,-0.423184,-18.059851
11.185,2.0,1.0,1.0,34.5,33.0,33.0,2.0,2.0,2.7475,-0.4029088171948956,-0.0946939897386524,0.8616926276611832,-0.0857608282495406,-0.434236,-17.8723
11.185,2.0,1.0,1.0,34.5,33.0,33.0,2.0,2.0,2.75,-0.418508606529106,-0.0950664528492051,0.852826266489307,-0.0894982782504938,-0.44571,-17.683375
11.185,2.0,1.0,1.0,34.5,33.0,33.0,2.0,2.0,2.7525,-0.43408082461334363,-0.09536732911878687,0.8435415111055015,-0.0933614444454247,-0.457631,-17.493047
11.185,2.0,1.0,1.0,34.5,33.0,33.0,2.0,2.0,2.755,-0.44961428942480774,-0.09559062232705394,0.8338294923709855,-0.09735385158985142,-0.47002,-17.30129
11.185,2.0,1.0,1.0,34.5,33.0,33.0,2.0,2.0,2.7575,-0.46509716793577077,-0.09572993199668631,0.8236813209523157,-0.10147906268635408,-0.482904,-17.108076
11.185,2.0,1.0,1.0,34.5,33.0,33.0,2.0,2.0,2.76,-0.4805169426599415,-0.09577842578791192,0.813088102816276,-0.1057406716195457,-0.496309,-16.913375
11.185,2.0,1.0,1.0,34.5,33.0,33.0,2.0,2.0,2.7625,-0.4958603762343014,-0.09572880980299331,0.8020409564469096,-0.11014229452262149,-0.510263,-16.717156
11.185,2.0,1.0,1.0,34.5,33.0,33.0,2.0,2.0,2.765,-0.5111134738796448,-0.09557329662076086,0.7905310319757527,-0.11468755969332839,-0.524799,-16.519388
11.185,2.0,1.0,1.0,34.5,33.0,33.0,2.0,2.0,2.7675,-0.5262614435678398,-0.09530357086484412,0.778549532443237,-0.11938009584943308,-0.539948,-16.320038
11.185,2.0,1.0,1.0,34.5,33.0,33.0,2.0,2.0,2.77,-0.5412886537072178,-0.0949107520915508,0.7660877374405365,-0.12422351848143541,-0.555747,-16.119071
11.185,2.0,1.0,1.0,34.5,33.0,33.0,2.0,2.0,2.7725,-0.556178588139547,-0.09438535476438241,0.7531370294178084,-0.12922141402257933,-0.572233,-15.916452
11.185,2.0,1.0,1.0,34.5,33.0,33.0,2.0,2.0,2.775,-0.5709137982229064,-0.09371724506201162,0.7396889229875381,-0.13437732151225926,-0.589448,-15.712145
11.185,2.0,1.0,1.0,34.5,33.0,33.0,2.0,2.0,2.7775,-0.5854758517544546,-0.09289559424528376,0.7257350976018175,-0.13969471137758574,-0.607437,-15.50611
11.185,2.0,1.0,1.0,34.5,33.0,33.0,2.0,2.0,2.78,-0.5998452784657404,-0.09190882828665203,0.711267434041047,-0.14517696089790966,-0.626247,-15.298309
11.185,2.0,1.0,1.0,34.5,33.0,33.0,2.0,2.0,2.7825,-0.6140015118011805,-0.09074457344271437,0.696278055220326,-0.15082732584695807,-0.64593,-15.088701
11.185,2.0,1.0,1.0,34.5,33.0,33.0,2.0,2.0,2.785,-0.6279228266681829,-0.08938959742764276,0.680759371900388,-0.15664890772522505,-0.666543,-14.877242
11.185,2.0,1.0,1.0,34.5,33.0,33.0,2.0,2.0,2.7875,-0.6415862728254826,-0.08782974582295834,0.6647041339846165,-0.16264461589918053,-0.688145,-14.663889
11.185,2.0,1.0,1.0,34.5,33.0,33.0,2.0,2.0,2.79,-0.6549676035556733,-0.08604987333820023,0.6481054881946499,-0.1688171238514315,-0.710804,-14.448596
11.185,2.0,1.0,1.0,34.5,33.0,33.0,2.0,2.0,2.7925,-0.6680411992501689,-0.08403376951886049,0.63095704304747,-0.1751688186141989,-0.734591,-14.231315
11.185,2.0,1.0,1.0,34.5,33.0,33.0,2.0,2.0,2.795,-0.6807799855209061,-0.08176407848418539,0.6132529422098631,-0.18170174230417035,-0.759583,-14.011998
11.185,2.0,1.0,1.0,34.5,33.0,33.0,2.0,2.0,2.7975,-0.693155345446185,-0.07922221227043211,0.5949879474857626,-0.1884175244959458,-0.785867,-13.790594
11.185,2.0,1.0,1.0,34.5,33.0,33.0,2.0,2.0,2.8,-0.7051370255605035,-0.0763882573579191,0.5761575329026758,-0.19531730395957425,-0.813534,-13.567051
11.185,2.0,1.0,1.0,34.5,33.0,33.0,2.0,2.0,2.8025,-0.716693035214557,-0.07324087397684512,0.5567579916105256,-0.202401638039751,-0.842687,-13.341316
11.185,2.0,1.0,1.0,34.5,33.0,33.0,2.0,2.0,2.805,-0.7277895389669593,-0.0697571878226592,0.5367865575957564,-0.209670397664238,-0.873436,-13.113334
11.185,2.0,1.0,1.0,34.5,33.0,33.0,2.0,2.0,2.8075,-0.7383907417306385,-0.06591267387376704,0.5162415445523525,-0.21712264563019418,-0.905904,-12.883047
11.185,2.0,1.0,1.0,34.5,33.0,33.0,2.0,2.0,2.81,-0.7484587664938133,-0.06168103210164174,0.49512250464721136,-0.2247564954216518,-0.940224,-12.6504
11.185,2.0,1.0,1.0,34.5,33.0,33.0,2.0,2.0,2.8125,-0.7579535245792621,-0.05703405500785467,0.4734304103789588,-0.23256894735083838,-0.976544,-12.415332
11.185,2.0,1.0,1.0,34.5,33.0,33.0,2.0,2.0,2.815,-0.766832578612518,-0.051941487129429,0.45116786326579195,-0.24055569828111759,-1.015026,-12.177786
11.185,2.0,1.0,1.0,34.5,33.0,33.0,2.0,2.0,2.8175,-0.7750509986587945,-0.04637087694308783,0.4283393337200537,-0.248710920569953,-1.05585,-11.937699
11.185,2.0,1.0,1.0,34.5,33.0,33.0,2.0,2.0,2.82,-0.7825612123862395,-0.04028742199583304,0.40495143718467,-0.25702700515629145,-1.099213,-11.695014
11.185,2.0,1.0,1.0,34.5,33.0,33.0,2.0,2.0,2.8225,-0.7893128506519781,-0.0336538086264792,0.38101325243003403,-0.26549426289810957,-1.145337,-11.44967
11.185,2.0,1.0,1.0,34.5,33.0,33.0,2.0,2.0,2.825,-0.795252590629566,-0.026430048361920574,0.3565366888478438,-0.274100577333853,-1.194464,-11.201608
11.185,2.0,1.0,1.0,34.5,33.0,33.0,2.0,2.0,2.8275,-0.8003239995553971,-0.018573314025940136,0.33153691063701907,-0.28283100099017183,-1.246868,-10.950771
11.185,2.0,1.0,1.0,34.5,33.0,33.0,2.0,2.0,2.83,-0.8044673834348054,-0.01003777985426665,0.3060328269571273,-0.29166728618670784,-1.30285,-10.697105
