1,w,sub_t,h,l1,l2,l3,g1,g2,Freq,S11_re,S21_re,S11_img,S21_img,S11_dB,S21_dB
11.185,2.0,1.0,1.0,33.1,33.5,33.5,2.4,2.1,2.5,0.889313418715304,-0.00837742730674076,0.443403322341056,0.00967123202211873,-0.054696,-37.859141
11.185,2.0,1.0,1.0,33.1,33.5,33.5,2.4,2.1,2.5025,0.8864595458115189,-0.008565045778918926,0.4489495862697379,0.009746465578321154,-0.055217,-37.737776
11.185,2.0,1.0,1.0,33.1,33.5,33.5,2.4,2.1,2.505,0.8835588813066663,-0.008756411860761225,0.45449882583959494,0.009821658420703268,-0.055748,-37.616033
11.185,2.0,1.0,1.0,33.1,33.5,33.5,2.4,2.1,2.5075,0.8806109534169175,-0.008951610938368068,0.46005089304704394,0.009896788682980422,-0.05629,-37.493903
11.185,2.0,1.0,1.0,33.1,33.5,33.5,2.4,2.1,2.51,0.8776152817798183,-0.00915073084462572,0.4656056349827169,0.009971833409991644,-0.056841,-37.371377
11.185,2.0,1.0,1.0,33.1,33.5,33.5,2.4,2.1,2.5125,0.8745713772681649,-0.009353861943726829,0.4711628936516441,0.010046768504724357,-0.057402,-37.248447
11.185,2.0,1.0,1.0,33.1,33.5,33.5,2.4,2.1,2.515,0.8714787417989094,-0.009561097219112594,0.4767225057866832,0.010121568672572953,-0.057975,-37.125102
11.185,2.0,1.0,1.0,33.1,33.5,33.5,2.4,2.1,2.5175,0.8683368681369353,-0.00977253236499699,0.4822843026548913,0.010196207362671907,-0.058558,-37.001332
11.185,2.0,1.0,1.0,33.1,33.5,33.5,2.4,2.1,2.52,0.8651452396935081,-0.009988265881640356,0.48784810985654914,0.010270656706135101,-0.059152,-36.877129
11.185,2.0,1.0,1.0,33.1,33.5,33.5,2.4,2.1,2.5225,0.8619033303192319,-0.010208399174550839,0.4934137471164957,0.01034488745101981,-0.059758,-36.752483
11.185,2.0,1.0,1.0,33.1,33.5,33.5,2.4,2.1,2.525,0.8586106040913001,-0.010433036657798286,0.49898102806745354,0.01041886889382284,-0.060375,-36.627383
11.185,2.0,1.0,1.0,33.1,33.5,33.5,2.4,2.1,2.5275,0.8552665150948437,-0.010662285861640313,0.5045497600249851,0.010492568807305879,-0.061005,-36.50182
11.185,2.0,1.0,1.0,33.1,33.5,33.5,2.4,2.1,2.53,0.8518705071981629,-0.010896257544664775,0.5101197437536976,0.010565953364429633,-0.061647,-36.375782
11.185,2.0,1.0,1.0,33.1,33.5,33.5,2.4,2.1,2.5325,0.8484220138216128,-0.011135065810669214,0.5156907732243103,0.010638987058165747,-0.062302,-36.249261
11.185,2.0,1.0,1.0,33.1,33.5,33.5,2.4,2.1,2.535,0.844920457699909,-0.011378828230507655,0.521262635361171,0.010711632616937979,-0.06297,-36.122245
11.185,2.0,1.0,1.0,33.1,33.5,33.5,2.4,2.1,2.5375,0.8413652506376135,-0.011627665969147436,0.526835109779774,0.010783850915427457,-0.063651,-35.994723
11.185,2.0,1.0,1.0,33.1,33.5,33.5,2.4,2.1,2.54,0.8377557932575309,-0.01188170391819332,0.5324079685138263,0.010855600880460078,-0.064346,-35.866684
11.185,2.0,1.0,1.0,33.1,33.5,33.5,2.4,2.1,2.5425,0.83409147474175,-0.012141070834150175,0.5379809757313756,0.010926839391673989,-0.065055,-35.738119
11.185,2.0,1.0,1.0,33.1,33.5,33.5,2.4,2.1,2.545,0.8303716725650465,-0.012405899482709993,0.5435538874394814,0.010997521176644324,-0.065779,-35.609014
11.185,2.0,1.0,1.0,33.1,33.5,33.5,2.4,2.1,2.5475,0.8265957522203444,-0.01267632678936595,0.5491264511768835,0.011067598700121133,-0.066518,-35.479359
11.185,2.0,1.0,1.0,33.1,33.5,33.5,2.4,2.1,2.55,0.8227630669359208,-0.012952493996673432,0.5546984056941094,0.011137022047011823,-0.067272,-35.349142
11.185,2.0,1.0,1.0,33.1,33.5,33.5,2.4,2.1,2.5525,0.8188729573840298,-0.013234546828495161,0.5602694806203868,0.011205738798713014,-0.068042,-35.218351
11.185,2.0,1.0,1.0,33.1,33.5,33.5,2.4,2.1,2.555,0.8149247513805917,-0.013522635661587703,0.5658393961167456,0.01127369390237016,-0.068829,-35.086974
11.185,2.0,1.0,1.0,33.1,33.5,33.5,2.4,2.1,2.5575,0.8109177635755798,-0.013816915704907798,0.5714078625146144,0.011340829532613344,-0.069632,-34.954998
11.185,2.0,1.0,1.0,33.1,33.5,33.5,2.4,2.1,2.56,0.806851295133726,-0.014117547187037045,0.576974579939193,0.01140708494528324,-0.070452,-34.822412
11.185,2.0,1.0,1.0,33.1,33.5,33.5,2.4,2.1,2.5625,0.8027246334051364,-0.014424695552149152,0.5825392379168377,0.011472396322630469,-0.07129,-34.689202
11.185,2.0,1.0,1.0,33.1,33.5,33.5,2.4,2.1,2.565,0.7985370515853835,-0.014738531664966241,0.5881015149656539,0.01153669660942794,-0.072147,-34.555355
11.185,2.0,1.0,1.0,33.1,33.5,33.5,2.4,2.1,2.5675,0.794287808364635,-0.015059232025179562,0.5936610781684263,0.011599915339401898,-0.073022,-34.420858
11.185,2.0,1.0,1.0,33.1,33.5,33.5,2.4,2.1,2.57,0.7899761475653313,-0.015386978991835729,0.5992175827269797,0.011661978451337708,-0.073917,-34.285697
11.185,2.0,1.0,1.0,33.1,33.5,33.5,2.4,2.1,2.5725,0.785601297767917,-0.015721961018221948,0.604770671497001,0.011722808094171509,-0.074832,-34.149859
11.185,2.0,1.0,1.0,33.1,33.5,33.5,2.4,2.1,2.575,0.7811624719240898,-0.01606437289781374,0.6103199745022875,0.011782322420328173,-0.075767,-34.013329
11.185,2.0,1.0,1.0,33.1,33.5,33.5,2.4,2.1,2.5775,0.7766588669570114,-0.016414416021883243,0.6158651084273205,0.011840435366506008,-0.076724,-33.876093
11.185,2.0,1.0,1.0,33.1,33.5,33.5,2.4,2.1,2.58,0.7720896633478841,-0.01677229864940307,0.6214056760869958,0.011897056421054306,-0.077702,-33.738137
11.185,2.0,1.0,1.0,33.1,33.5,33.5,2.4,2.1,2.5825,0.7674540247082647,-0.01713823618991856,0.6269412658722684,0.011952090377017525,-0.078704,-33.599445
11.185,2.0,1.0,1.0,33.1,33.5,33.5,2.4,2.1,2.585,0.7627510973374567,-0.017512451500102458,0.632471451170372,0.012005437069854246,-0.079728,-33.460002
11.185,2.0,1.0,1.0,33.1,33.5,33.5,2.4,2.1,2.5875,0.7579800097642679,-0.017895175194751662,0.6379957897582035,0.012056991098758364,-0.080777,-33.319793
11.185,2.0,1.0,1.0,33.1,33.5,33.5,2.4,2.1,2.59,0.7531398722724046,-0.018286645973030057,0.6435138231673483,0.01210664153042621,-0.081851,-33.1788
11.185,2.0,1.0,1.0,33.1,33.5,33.5,2.4,2.1,2.5925,0.7482297764086947,-0.018687110960813554,0.6490250760191336,0.01215427158402361,-0.08295,-33.037009
11.185,2.0,1.0,1.0,33.1,33.5,33.5,2.4,2.1,2.595,0.7432487944733215,-0.019096826070045942,0.6545290553279599,0.012199758296005399,-0.084076,-32.894402
11.185,2.0,1.0,1.0,33.1,33.5,33.5,2.4,2.1,2.5975,0.7381959789911662,-0.019516056376072465,0.6600252497710766,0.01224297216333231,-0.085229,-32.750962
11.185,2.0,1.0,1.0,33.1,33.5,33.5,2.4,2.1,2.6,0.7330703621633226,-0.01994507651397759,0.6655131289227932,0.012283776763512846,-0.086411,-32.606672
11.185,2.0,1.0,1.0,33.1,33.5,33.5,2.4,2.1,2.6025,0.7278709552977902,-0.02038417109501843,0.670992142451001,0.012322028349766758,-0.087621,-32.461514
11.185,2.0,1.0,1.0,33.1,33.5,33.5,2.4,2.1,2.605,0.7225967482182702,-0.02083363514431767,0.6764617192737133,0.012357575419469765,-0.088863,-32.315469
11.185,2.0,1.0,1.0,33.1,33.5,33.5,2.4,2.1,2.6075,0.7172467086499488,-0.021293774561049833,0.6819212666731678,0.012390258253881806,-0.090135,-32.168519
11.185,2.0,1.0,1.0,33.1,33.5,33.5,2.4,2.1,2.61,0.7118197815810631,-0.02176490660243821,0.6873701693648367,0.01241990842699621,-0.091441,-32.020644
11.185,2.0,1.0,1.0,33.1,33.5,33.5,2.4,2.1,2.6125,0.7063148885989731,-0.022247360392960946,0.6928077885185103,0.012446348281162927,-0.092779,-31.871824
11.185,2.0,1.0,1.0,33.1,33.5,33.5,2.4,2.1,2.615,0.7007309271993809,-0.022741477460259073,0.6982334607283813,0.012469390366937406,-0.094153,-31.722041
11.185,2.0,1.0,1.0,33.1,33.5,33.5,2.4,2.1,2.6175,0.695066770067262,-0.02324761229933265,0.7036464969288262,0.012488836844389402,-0.095563,-31.571272
11.185,2.0,1.0,1.0,33.1,33.5,33.5,2.4,2.1,2.62,0.6893212643279624,-0.02376613296671644,0.7090461812523172,0.012504478842859991,-0.09701,-31.419497
11.185,2.0,1.0,1.0,33.1,33.5,33.5,2.4,2.1,2.6225,0.6834932307668253,-0.024297421706436725,0.7144317698256192,0.012516095775897431,-0.098496,-31.266693
11.185,2.0,1.0,1.0,33.1,33.5,33.5,2.4,2.1,2.625,0.677581463015618,-0.0248418756096681,0.719802489500093,0.0125234546078058,-0.100022,-31.112839
11.185,2.0,1.0,1.0,33.1,33.5,33.5,2.4,2.1,2.6275,0.6715847267038797,-0.02539990731013497,0.7251575365116193,0.012526309067925283,-0.10159,-30.957911
11.185,2.0,1.0,1.0,33.1,33.5,33.5,2.4,2.1,2.63,0.6655017585732335,-0.025971945717438102,0.7304960750652463,0.012524398808410478,-0.103201,-30.801887
11.185,2.0,1.0,1.0,33.1,33.5,33.5,2.4,2.1,2.6325,0.6593312655525393,-0.02655843679062669,0.7358172358392763,0.012517448500885372,-0.104858,-30.644741
11.185,2.0,1.0,1.0,33.1,33.5,33.5,2.4,2.1,2.635,0.6530719237916485,-0.02715984435449258,0.7411201144030485,0.012505166866932458,-0.106561,-30.486448
11.185,2.0,1.0,1.0,33.1,33.5,33.5,2.4,2.1,2.6375,0.646722377651369,-0.02777665096122248,0.746403769542169,0.012487245636897867,-0.108313,-30.326984
11.185,2.0,1.0,1.0,33.1,33.5,33.5,2.4,2.1,2.64,0.6402812386470744,-0.028409358800220226,0.7516672214844177,0.012463358430980316,-0.110116,-30.166322
11.185,2.0,1.0,1.0,33.1,33.5,33.5,2.4,2.1,2.6425,0.6337470843432533,-0.029058490659091912,0.7569094500189237,0.012433159555998692,-0.111971,-30.004435
11.185,2.0,1.0,1.0,33.1,33.5,33.5,2.4,2.1,2.645,0.6271184571960899,-0.02972459093898581,0.7621293925005714,0.012396282710598354,-0.113881,-29.841295
11.185,2.0,1.0,1.0,33.1,33.5,33.5,2.4,2.1,2.6475,0.6203938633409941,-0.030408226727681096,0.7673259417308382,0.012352339590955778,-0.115848,-29.676873
11.185,2.0,1.0,1.0,33.1,33.5,33.5,2.4,2.1,2.65,0.6135717713217778,-0.03110998893404719,0.7724979437054814,0.01230091838826614,-0.117875,-29.51114
11.185,2.0,1.0,1.0,33.1,33.5,33.5,2.4,2.1,2.6525,0.6066506107580021,-0.031830493487717555,0.7776441952185588,0.012241582168435251,-0.119963,-29.344066
11.185,2.0,1.0,1.0,33.1,33.5,33.5,2.4,2.1,2.655,0.5996287709467358,-0.03257038260807677,0.7827634413113159,0.012173867123441462,-0.122117,-29.175619
11.185,2.0,1.0,1.0,33.1,33.5,33.5,2.4,2.1,2.6575,0.592504599394785,-0.03333032614691016,0.7878543725533335,0.012097280682770732,-0.124337,-29.005767
11.185,2.0,1.0,1.0,33.1,33.5,33.5,2.4,2.1,2.66,0.5852764002771674,-0.03411102300934127,0.7929156221421308,0.0120112994721461,-0.126629,-28.834476
11.185,2.0,1.0,1.0,33.1,33.5,33.5,2.4,2.1,2.6625,0.5779424328173712,-0.034913202657960336,0.7979457628060372,0.01191536710545474,-0.128994,-28.661713
11.185,2.0,1.0,1.0,33.1,33.5,33.5,2.4,2.1,2.665,0.5705009095846362,-0.03573762670534732,0.8029433034936609,0.011808891794308584,-0.131435,-28.487442
11.185,2.0,1.0,1.0,33.1,33.5,33.5,2.4,2.1,2.6675,0.5629499947032565,-0.03658509060049166,0.8079066858315536,0.011691243758036315,-0.133958,-28.311626
11.185,2.0,1.0,1.0,33.1,33.5,33.5,2.4,2.1,2.67,0.5552878019685766,-0.037456425414929585,0.812834280329831,0.01156175241507248,-0.136565,-28.134228
11.185,2.0,1.0,1.0,33.1,33.5,33.5,2.4,2.1,2.6725,0.5475123928640778,-0.038352499734737935,0.817724382313379,0.011419703334662487,-0.139259,-27.955208
11.185,2.0,1.0,1.0,33.1,33.5,33.5,2.4,2.1,2.675,0.5396217744736626,-0.039274221664845836,0.8225752075539253,0.01126433492550889,-0.142047,-27.774527
11.185,2.0,1.0,1.0,33.1,33.5,33.5,2.4,2.1,2.6775,0.5316138972829354,-0.04022254095244873,0.8273848875756368,0.011094834835410622,-0.144931,-27.592142
11.185,2.0,1.0,1.0,33.1,33.5,33.5,2.4,2.1,2.68,0.5234866528630003,-0.04119845123662568,0.8321514646039341,0.010910336033063201,-0.147917,-27.40801
11.185,2.0,1.0,1.0,33.1,33.5,33.5,2.4,2.1,2.6825,0.5152378714300249,-0.04220299243155981,0.8368728861239082,0.01070991253994184,-0.15101,-27.222087
11.185,2.0,1.0,1.0,33.1,33.5,33.5,2.4,2.1,2.685,0.5068653192735687,-0.04323725325104419,0.8415469990109985,0.010492574776537672,-0.154215,-27.034326
11.185,2.0,1.0,1.0,33.1,33.5,33.5,2.4,2.1,2.6875,0.498366696046463,-0.0443023738821955,0.846171543192388,0.0102572644831059,-0.157538,-26.84468
11.185,2.0,1.0,1.0,33.1,33.5,33.5,2.4,2.1,2.69,0.489739631908875,-0.04539954881649261,0.8507441447928523,0.010002849170445003,-0.160985,-26.653099
11.185,2.0,1.0,1.0,33.1,33.5,33.5,2.4,2.1,2.6925,0.4809816845190735,-0.04653002984638621,0.8552623087134635,0.009728116050980973,-0.164563,-26.459531
11.185,2.0,1.0,1.0,33.1,33.5,33.5,2.4,2.1,2.695,0.47209033586345933,-0.04769512923574867,0.8597234105855088,0.009431765394510244,-0.168278,-26.263923
11.185,2.0,1.0,1.0,33.1,33.5,33.5,2.4,2.1,2.6975,0.4630629889184837,-0.04889622307235542,0.8641246880351763,0.009112403246235343,-0.172139,-26.06622
11.185,2.0,1.0,1.0,33.1,33.5,33.5,2.4,2.1,2.7,0.45389696413742825,-0.050134754810327684,0.8684632311868112,0.00876853343712101,-0.176153,-25.866364
11.185,2.0,1.0,1.0,33.1,33.5,33.5,2.4,2.1,2.7025,0.444589495755455,-0.051412239010018713,0.8727359723237881,0.008398548807952938,-0.180329,-25.664295
11.185,2.0,1.0,1.0,33.1,33.5,33.5,2.4,2.1,2.705,0.43513772790713107,-0.05273026528209668,0.8769396746160513,0.008000721558655628,-0.184677,-25.459952
11.185,2.0,1.0,1.0,33.1,33.5,33.5,2.4,2.1,2.7075,0.42553871055169373,-0.05409050244152517,0.8810709198120474,0.007573192623239432,-0.189206,-25.25327
11.185,2.0,1.0,1.0,33.1,33.5,33.5,2.4,2.1,2.71,0.41578939520287045,-0.055494702875645674,0.8851260947798293,0.007113959957989928,-0.193927,-25.044181
11.185,2.0,1.0,1.0,33.1,33.5,33.5,2.4,2.1,2.7125,0.40588663046210605,-0.05694470712854225,0.8891013767673603,0.006620865615950808,-0.198851,-24.832617
11.185,2.0,1.0,1.0,33.1,33.5,33.5,2.4,2.1,2.715,0.3958271573568138,-0.05844244870115002,0.8929927172351769,0.006091581464107191,-0.203992,-24.618503
11.185,2.0,1.0,1.0,33.1,33.5,33.5,2.4,2.1,2.7175,0.38560760448885834,-0.05998995906299298,0.8967958240952689,0.0055235933806139685,-0.209363,-24.401765
11.185,2.0,1.0,1.0,33.1,33.5,33.5,2.4,2.1,2.72,0.3752244830031857,-0.06158937286678107,0.9005061421679097,0.004914183747569661,-0.214978,-24.182323
11.185,2.0,1.0,1.0,33.1,33.5,33.5,2.4,2.1,2.7225,0.36467418139251334,-0.06324293335108463,0.9041188316427998,0.004260412029754574,-0.220853,-23.960096
11.185,2.0,1.0,1.0,33.1,33.5,33.5,2.4,2.1,2.725,0.3539529601617958,-0.06495299790858058,0.9076287443016752,0.003559093200926258,-0.227005,-23.734996
11.185,2.0,1.0,1.0,33.1,33.5,33.5,2.4,2.1,2.7275,0.3430569463859821,-0.06672204378752813,0.9110303972260025,0.0028067737460779033,-0.233454,-23.506935
11.185,2.0,1.0,1.0,33.1,33.5,33.5,2.4,2.1,2.73,0.3319821282072003,-0.06855267388159565,0.914317943674643,0.0019997049298299922,-0.240219,-23.275818
11.185,2.0,1.0,1.0,33.1,33.5,33.5,2.4,2.1,2.7325,0.3207243493333353,-0.07044762254729223,0.917485140771761,0.0011338129769866813,-0.247322,-23.041548
11.185,2.0,1.0,1.0,33.1,33.5,33.5,2.4,2.1,2.735,0.3092793036201352,-0.07240976136816858,0.9205253135936482,0.00020466576031100944,-0.254788,-22.804023
11.185,2.0,1.0,1.0,33.1,33.5,33.5,2.4,2.1,2.7375,0.2976425298443214,-0.07444210475958482,0.923431315183502,-0.0007925644684127976,-0.262643,-22.563135
11.185,2.0,1.0,1.0,33.1,33.5,33.5,2.4,2.1,2.74,0.28580940680725897,-0.07654781527583666,0.9261954819541028,-0.0018631428362351848,-0.270916,-22.318772
11.185,2.0,1.0,1.0,33.1,33.5,33.5,2.4,2.1,2.7425,0.2737751489491039,-0.07873020844108011,0.9288095838582978,-0.0030128187071774243,-0.279638,-22.070817
11.185,2.0,1.0,1.0,33.1,33.5,33.5,2.4,2.1,2.745,0.2615348027042966,-0.08099275687461008,0.9312647686143132,-0.004247878343803926,-0.288845,-21.819146
11.185,2.0,1.0,1.0,33.1,33.5,33.5,2.4,2.1,2.7475,0.24908324389348788,-0.083339093416916,0.9335514991651345,-0.005575204181945819,-0.298574,-21.563632
11.185,2.0,1.0,1.0,33.1,33.5,33.5,2.4,2.1,2.75,0.23641517652799,-0.0857730128820246,0.935659483425981,-0.00700234165203117,-0.308867,-21.304138
11.185,2.0,1.0,1.0,33.1,33.5,33.5,2.4,2.1,2.7525,0.22352513350513548,-0.08829847195953601,0.9375775952284865,-0.008537574624183558,-0.319772,-21.040523
11.185,2.0,1.0,1.0,33.1,33.5,33.5,2.4,2.1,2.755,0.210407479802155,-0.09091958666075337,0.9392937852012506,-0.0101900107211553,-0.331339,-20.772638
11.185,2.0,1.0,1.0,33.1,33.5,33.5,2.4,2.1,2.7575,0.1970564189396265,-0.09364062654019029,0.9407949801303368,-0.01196967793687495,-0.343626,-20.500326
11.185,2.0,1.0,1.0,33.1,33.5,33.5,2.4,2.1,2.76,0.1834660036926553,-0.09646600471715365,0.9420669691157956,-0.013887634222996433,-0.356697,-20.223424
11.185,2.0,1.0,1.0,33.1,33.5,33.5,2.4,2.1,2.7625,0.1696301522904946,-0.09940026246018475,0.9430942745769251,-0.015956091965841163,-0.370621,-19.941759
11.185,2.0,1.0,1.0,33.1,33.5,33.5,2.4,2.1,2.765,0.15554267167897878,-0.10244804676448116,0.9438600058547215,-0.01818855957630336,-0.385479,-19.655149
11.185,2.0,1.0,1.0,33.1,33.5,33.5,2.4,2.1,2.7675,0.1411972898446291,-0.10561407892926171,0.9443456928097844,-0.020600002760633524,-0.401359,-19.363404
11.185,2.0,1.0,1.0,33.1,33.5,33.5,2.4,2.1,2.77,0.12658769974036793,-0.10890311160283894,0.9445310964128765,-0.023207028435275067,-0.41836,-19.066325
11.185,2.0,1.0,1.0,33.1,33.5,33.5,2.4,2.1,2.7725,0.11170761804373236,-0.11231987107483782,0.9443939928691796,-0.02602809469808902,-0.436593,-18.7637
11.185,2.0,1.0,1.0,33.1,33.5,33.5,2.4,2.1,2.775,0.09655086286225611,-0.11586898071481512,0.9439099273035204,-0.029083750773712468,-0.456185,-18.455308
11.185,2.0,1.0,1.0,33.1,33.5,33.5,2.4,2.1,2.7775,0.08111145563326125,-0.11955486032897644,0.943051932463047,-0.03239691141150113,-0.477279,-18.140919
11.185,2.0,1.0,1.0,33.1,33.5,33.5,2.4,2.1,2.78,0.06538375391900278,-0.12338159475984595,0.9417902072721763,-0.03599317082408446,-0.500035,-17.820287
11.185,2.0,1.0,1.0,33.1,33.5,33.5,2.4,2.1,2.7825,0.04936262366709581,-0.12735276319426844,0.9400917494174401,-0.03990116189726699,-0.524638,-17.493159
11.185,2.0,1.0,1.0,33.1,33.5,33.5,2.4,2.1,2.785,0.033043661912027664,-0.13147121825220992,0.9379199354772496,-0.04415296704726197,-0.551298,-17.159266
11.185,2.0,1.0,1.0,33.1,33.5,33.5,2.4,2.1,2.7875,0.01642348399435026,-0.13573880084598997,0.9352340414973611,-0.04878458769489114,-0.580255,-16.818332
11.185,2.0,1.0,1.0,33.1,33.5,33.5,2.4,2.1,2.79,-0.0004999066273198089,-0.1401559728255405,0.9319886964371514,-0.053836479777665466,-0.611786,-16.470063
11.185,2.0,1.0,1.0,33.1,33.5,33.5,2.4,2.1,2.7925,-0.017726642739009823,-0.14472134430166564,0.9281332607217301,-0.05935416288230313,-0.646209,-16.11416
11.185,2.0,1.0,1.0,33.1,33.5,33.5,2.4,2.1,2.795,-0.035254382029100154,-0.14943106593821626,0.9236111224637107,-0.06538891021867382,-0.683894,-15.75031
11.185,2.0,1.0,1.0,33.1,33.5,33.5,2.4,2.1,2.7975,-0.05307752160762349,-0.15427804801378697,0.9183589051312192,-0.07199852540668067,-0.725268,-15.378191
11.185,2.0,1.0,1.0,33.1,33.5,33.5,2.4,2.1,2.8,-0.0711861889812906,-0.15925095716772117,0.9123055830987271,-0.07924820934791005,-0.770831,-14.997478
11.185,2.0,1.0,1.0,33.1,33.5,33.5,2.4,2.1,2.8025,-0.08956494607350711,-0.16433292785890366,0.9053715064859574,-0.087211515445168,-0.821168,-14.607838
11.185,2.0,1.0,1.0,33.1,33.5,33.5,2.4,2.1,2.805,-0.10819112514294778,-0.16949990799173525,0.8974673452721557,-0.0959713828155611,-0.876966,-14.208944
11.185,2.0,1.0,1.0,33.1,33.5,33.5,2.4,2.1,2.8075,-0.1270326932586283,-0.1747185361874851,0.8884929768278357,-0.10562122296632198,-0.939037,-13.800472
11.185,2.0,1.0,1.0,33.1,33.5,33.5,2.4,2.1,2.81,-0.14604551470715346,-0.17994342119334886,0.878336363648171,-0.11626601276866652,-1.008341,-13.382117
11.185,2.0,1.0,1.0,33.1,33.5,33.5,2.4,2.1,2.8125,-0.165169848092831,-0.185113661703287,0.866872503486397,-0.128023311215607,-1.086025,-12.953602
11.185,2.0,1.0,1.0,33.1,33.5,33.5,2.4,2.1,2.815,-0.1843258776161629,-0.19014840811387076,0.8539625884777299,-0.1410240632233351,-1.173456,-12.514693
11.185,2.0,1.0,1.0,33.1,33.5,33.5,2.4,2.1,2.8175,-0.20340803866266755,-0.19494122906474576,0.8394535920171268,-0.15541297190090805,-1.272279,-12.06522
11.185,2.0,1.0,1.0,33.1,33.5,33.5,2.4,2.1,2.82,-0.22227786264633398,-0.19935301128187663,0.8231786242194604,-0.1713480992693833,-1.384474,-11.605107
11.185,2.0,1.0,1.0,33.1,33.5,33.5,2.4,2.1,2.8225,-0.24075504792142013,-0.20320310413989157,0.8049585746433908,-0.1889991786347667,-1.512437,-11.134405
11.185,2.0,1.0,1.0,33.1,33.5,33.5,2.4,2.1,2.825,-0.2586064869114432,-0.20625844483379827,0.7846058138434613,-0.20854387071750402,-1.659078,-10.653345
11.185,2.0,1.0,1.0,33.1,33.5,33.5,2.4,2.1,2.8275,-0.27553308784651515,-0.20822050935638306,0.7619310730316468,-0.23016085076426693,-1.827934,-10.162394
11.185,2.0,1.0,1.0,33.1,33.5,33.5,2.4,2.1,2.83,-0.29115449577352004,-0.2087102013210678,0.7367550760547431,-0.2540181632958784,-2.023316,-9.662339
