1,w,sub_t,h,l1,l2,l3,g1,g2,Freq,S11_re,S21_re,S11_img,S21_img,S11_dB,S21_dB
11.185,2.0,1.0,1.0,33.8,33.8,33.8,3.4,3.6,2.5,0.81228461291084,-0.00700372440245575,0.571761718155578,0.00423525613324644,-0.058071,-41.739929
11.185,2.0,1.0,1.0,33.8,33.8,33.8,3.4,3.6,2.5025,0.8082220247278852,-0.007132938611826757,0.5773828291365306,0.004235762025925164,-0.058616,-41.622822
11.185,2.0,1.0,1.0,33.8,33.8,33.8,3.4,3.6,2.505,0.8041017019861548,-0.007264236032093578,0.582999290288257,0.004235205771950312,-0.059171,-41.505432
11.185,2.0,1.0,1.0,33.8,33.8,33.8,3.4,3.6,2.5075,0.7999230798846027,-0.007397653211347218,0.5886107518687644,0.004233550558149152,-0.059736,-41.38775
11.185,2.0,1.0,1.0,33.8,33.8,33.8,3.4,3.6,2.51,0.7956855856084085,-0.007533227471936978,0.5942168539935269,0.004230758331063378,-0.060309,-41.26977
11.185,2.0,1.0,1.0,33.8,33.8,33.8,3.4,3.6,2.5125,0.7913886382385577,-0.007670996928924928,0.5998172263258286,0.004226789750410119,-0.060893,-41.151483
11.185,2.0,1.0,1.0,33.8,33.8,33.8,3.4,3.6,2.515,0.7870316486619543,-0.007811000509013482,0.605411487757606,0.00422160414058811,-0.061487,-41.032883
11.185,2.0,1.0,1.0,33.8,33.8,33.8,3.4,3.6,2.5175,0.7826140194821846,-0.007953277969958903,0.6109992460804605,0.004215159440135668,-0.062091,-40.91396
11.185,2.0,1.0,1.0,33.8,33.8,33.8,3.4,3.6,2.52,0.7781351449310344,-0.00809786992048359,0.6165800976465439,0.0042074121490425186,-0.062705,-40.794707
11.185,2.0,1.0,1.0,33.8,33.8,33.8,3.4,3.6,2.5225,0.7735944107809075,-0.008244817840700362,0.6221536270189657,0.004198317273812432,-0.06333,-40.675116
11.185,2.0,1.0,1.0,33.8,33.8,33.8,3.4,3.6,2.525,0.7689911942582491,-0.008394164103062303,0.6277194066113979,0.004187828270167087,-0.063966,-40.555178
11.185,2.0,1.0,1.0,33.8,33.8,33.8,3.4,3.6,2.5275,0.7643248639581293,-0.008545951993852363,0.6332769963165201,0.004175896983276824,-0.064614,-40.434886
11.185,2.0,1.0,1.0,33.8,33.8,33.8,3.4,3.6,2.53,0.7595947797601316,-0.008700225735226382,0.6388259431229355,0.004162473585396184,-0.065273,-40.314231
11.185,2.0,1.0,1.0,33.8,33.8,33.8,3.4,3.6,2.5325,0.7548002927456989,-0.008857030507824392,0.6443657807201794,0.004147506510776362,-0.065943,-40.193205
11.185,2.0,1.0,1.0,33.8,33.8,33.8,3.4,3.6,2.535,0.7499407451171,-0.00901641247396514,0.6498960290914395,0.004130942387719231,-0.066626,-40.071798
11.185,2.0,1.0,1.0,33.8,33.8,33.8,3.4,3.6,2.5375,0.7450154701181984,-0.009178418801438331,0.655416194093563,0.004112725967629214,-0.06732,-39.950003
11.185,2.0,1.0,1.0,33.8,33.8,33.8,3.4,3.6,2.54,0.7400237919572002,-0.009343097687910688,0.6609257670239468,0.004092800050912183,-0.068028,-39.827809
11.185,2.0,1.0,1.0,33.8,33.8,33.8,3.4,3.6,2.5425,0.734965025731578,-0.00951049838596106,0.6664242241738673,0.004071105409560891,-0.068748,-39.705209
11.185,2.0,1.0,1.0,33.8,33.8,33.8,3.4,3.6,2.545,0.7298384773553741,-0.009680671228760743,0.6719110263678005,0.004047580706257701,-0.069481,-39.582194
11.185,2.0,1.0,1.0,33.8,33.8,33.8,3.4,3.6,2.5475,0.7246434434891108,-0.009853667656414891,0.6773856184882593,0.004022162409815001,-0.070228,-39.458753
11.185,2.0,1.0,1.0,33.8,33.8,33.8,3.4,3.6,2.55,0.7193792114725165,-0.010029540242982068,0.682847428985673,0.003994784706763686,-0.070989,-39.334878
11.185,2.0,1.0,1.0,33.8,33.8,33.8,3.4,3.6,2.5525,0.7140450592603349,-0.010208342724187667,0.6882958693727892,0.003965379408888059,-0.071764,-39.210559
11.185,2.0,1.0,1.0,33.8,33.8,33.8,3.4,3.6,2.555,0.7086402553614529,-0.010390130025848938,0.6937303337030893,0.003933875856494179,-0.072553,-39.085786
11.185,2.0,1.0,1.0,33.8,33.8,33.8,3.4,3.6,2.5575,0.703164058781622,-0.010574958293028002,0.699150198032672,0.0039002008171849945,-0.073357,-38.96055
11.185,2.0,1.0,1.0,33.8,33.8,33.8,3.4,3.6,2.56,0.6976157189700646,-0.010762884919930108,0.7045548198650354,0.0038642783799026385,-0.074177,-38.834841
11.185,2.0,1.0,1.0,33.8,33.8,33.8,3.4,3.6,2.5625,0.691994475770256,-0.0109539685805643,0.709943537578177,0.0038260298439829,-0.075012,-38.708648
11.185,2.0,1.0,1.0,33.8,33.8,33.8,3.4,3.6,2.565,0.6862995593751979,-0.011148269260183693,0.7153156698334077,0.0037853736029511338,-0.075863,-38.581962
11.185,2.0,1.0,1.0,33.8,33.8,33.8,3.4,3.6,2.5675,0.6805301902875274,-0.011345848287522269,0.7206705149652378,0.0037422250227726944,-0.07673,-38.454771
11.185,2.0,1.0,1.0,33.8,33.8,33.8,3.4,3.6,2.57,0.6746855792847968,-0.011546768367845479,0.726007350351687,0.003696496314251682,-0.077615,-38.327065
11.185,2.0,1.0,1.0,33.8,33.8,33.8,3.4,3.6,2.5725,0.6687649273903046,-0.011751093616831174,0.731325431764332,0.0036480963992535096,-0.078516,-38.198833
11.185,2.0,1.0,1.0,33.8,33.8,33.8,3.4,3.6,2.575,0.6627674258498583,-0.011958889595297662,0.736623992697381,0.003596930770405294,-0.079435,-38.070064
11.185,2.0,1.0,1.0,33.8,33.8,33.8,3.4,3.6,2.5775,0.6566922561148887,-0.012170223344794825,0.7419022436750355,0.0035429013439060076,-0.080373,-37.940747
11.185,2.0,1.0,1.0,33.8,33.8,33.8,3.4,3.6,2.58,0.6505385898323388,-0.012385163424073661,0.7471593715363626,0.0034859063050545307,-0.081329,-37.81087
11.185,2.0,1.0,1.0,33.8,33.8,33.8,3.4,3.6,2.5825,0.644305588841782,-0.012603779946449806,0.7523945386968838,0.0034258399460773557,-0.082304,-37.680422
11.185,2.0,1.0,1.0,33.8,33.8,33.8,3.4,3.6,2.585,0.6379924051802531,-0.01282614461807441,0.7576068823860355,0.003362592495810731,-0.083299,-37.549391
11.185,2.0,1.0,1.0,33.8,33.8,33.8,3.4,3.6,2.5875,0.6315981810952843,-0.013052330777126094,0.76279551385963,0.003296049940761933,-0.084314,-37.417764
11.185,2.0,1.0,1.0,33.8,33.8,33.8,3.4,3.6,2.59,0.6251220490666893,-0.013282413433935308,0.7679595175864,0.003226093837042222,-0.08535,-37.285529
11.185,2.0,1.0,1.0,33.8,33.8,33.8,3.4,3.6,2.5925,0.6185631318376345,-0.013516469312051976,0.7730979504076826,0.00315260111262932,-0.086406,-37.152674
11.185,2.0,1.0,1.0,33.8,33.8,33.8,3.4,3.6,2.595,0.6119205424556048,-0.013754576890264622,0.7782098406692314,0.0030754438593811368,-0.087485,-37.019186
11.185,2.0,1.0,1.0,33.8,33.8,33.8,3.4,3.6,2.5975,0.6051933843238572,-0.013996816445577967,0.78329418732413,0.0029944891141803582,-0.088587,-36.88505
11.185,2.0,1.0,1.0,33.8,33.8,33.8,3.4,3.6,2.6,0.5983807512640227,-0.014243270097153152,0.7883499590057068,0.002909598628548302,-0.089711,-36.750255
11.185,2.0,1.0,1.0,33.8,33.8,33.8,3.4,3.6,2.6025,0.5914817275905417,-0.01449402185121166,0.7933760930693067,0.0028206286260187047,-0.090859,-36.614785
11.185,2.0,1.0,1.0,33.8,33.8,33.8,3.4,3.6,2.605,0.5844953881976338,-0.01474915764690136,0.7983714946017283,0.002727429546510665,-0.092032,-36.478628
11.185,2.0,1.0,1.0,33.8,33.8,33.8,3.4,3.6,2.6075,0.5774207986595714,-0.015008765403118983,0.8033350353970629,0.002629845776887959,-0.093229,-36.341768
11.185,2.0,1.0,1.0,33.8,33.8,33.8,3.4,3.6,2.61,0.5702570153450467,-0.015272935066278392,0.808265552897616,0.0025277153668297296,-0.094453,-36.204191
11.185,2.0,1.0,1.0,33.8,33.8,33.8,3.4,3.6,2.6125,0.5630030855464595,-0.015541758659010205,0.8131618490985228,0.002420869729076107,-0.095703,-36.065882
11.185,2.0,1.0,1.0,33.8,33.8,33.8,3.4,3.6,2.615,0.5556580476250069,-0.015815330329770942,0.8180226894146005,0.002309133323041333,-0.09698,-35.926826
11.185,2.0,1.0,1.0,33.8,33.8,33.8,3.4,3.6,2.6175,0.548220931172504,-0.016093746403334233,0.8228468015078919,0.0021923233207129067,-0.098286,-35.787006
11.185,2.0,1.0,1.0,33.8,33.8,33.8,3.4,3.6,2.62,0.5406907571909016,-0.016377105432128163,0.8276328740742824,0.0020702492536728043,-0.09962,-35.646406
11.185,2.0,1.0,1.0,33.8,33.8,33.8,3.4,3.6,2.6225,0.5330665382905173,-0.016665508248374566,0.8323795555874823,0.001942712639989248,-0.100985,-35.505011
11.185,2.0,1.0,1.0,33.8,33.8,33.8,3.4,3.6,2.625,0.525347278908078,-0.0169590580169745,0.83708545299855,0.00180950658963017,-0.10238,-35.362802
11.185,2.0,1.0,1.0,33.8,33.8,33.8,3.4,3.6,2.6275,0.5175319755456794,-0.017257860289074452,0.8417491303890609,0.0016704153869459024,-0.103807,-35.219763
11.185,2.0,1.0,1.0,33.8,33.8,33.8,3.4,3.6,2.63,0.5096196170318797,-0.017562023056232147,0.846369107575884,0.0015252140486539767,-0.105267,-35.075876
11.185,2.0,1.0,1.0,33.8,33.8,33.8,3.4,3.6,2.6325,0.5016091848061708,-0.01787165680508739,0.8509438586654198,0.0013736678556357101,-0.10676,-34.931121
11.185,2.0,1.0,1.0,33.8,33.8,33.8,3.4,3.6,2.635,0.4934996532281611,-0.018186874572423666,0.8554718105550149,0.0012155318567173916,-0.108289,-34.785482
11.185,2.0,1.0,1.0,33.8,33.8,33.8,3.4,3.6,2.6375,0.48528998991287126,-0.018507792000488188,0.8599513413791279,0.0010505503424643962,-0.109853,-34.638937
11.185,2.0,1.0,1.0,33.8,33.8,33.8,3.4,3.6,2.64,0.4769791560936044,-0.01883452739241376,0.8643807788976715,0.0008784562868521477,-0.111454,-34.491468
11.185,2.0,1.0,1.0,33.8,33.8,33.8,3.4,3.6,2.6425,0.46856610701396406,-0.019167201767559133,0.8687583988237615,0.0006989707545039513,-0.113094,-34.343054
11.185,2.0,1.0,1.0,33.8,33.8,33.8,3.4,3.6,2.645,0.46004979235065874,-0.019505938916555422,0.8730824230879524,0.0005118022709934176,-0.114773,-34.193674
11.185,2.0,1.0,1.0,33.8,33.8,33.8,3.4,3.6,2.6475,0.4514291566688371,-0.019850865455810995,0.8773510180358007,0.00031664615349780644,-0.116493,-34.043306
11.185,2.0,1.0,1.0,33.8,33.8,33.8,3.4,3.6,2.65,0.44270313991177757,-0.020202110881187937,0.8815622925554107,0.00011318379885775972,-0.118255,-33.891929
11.185,2.0,1.0,1.0,33.8,33.8,33.8,3.4,3.6,2.6525,0.43387067792691764,-0.02055980762051754,0.8857142961313373,-9.891807415186557e-05,-0.120061,-33.739519
11.185,2.0,1.0,1.0,33.8,33.8,33.8,3.4,3.6,2.655,0.4249307030302483,-0.020924091084571595,0.8898050168209926,-0.0003200082318161835,-0.121912,-33.586052
11.185,2.0,1.0,1.0,33.8,33.8,33.8,3.4,3.6,2.6575,0.41588214461129624,-0.021295099716046404,0.8938323791493816,-0.0005504517855167239,-0.12381,-33.431506
11.185,2.0,1.0,1.0,33.8,33.8,33.8,3.4,3.6,2.66,0.40672392978100513,-0.021672975036048904,0.8977942419176932,-0.0007906311089254181,-0.125756,-33.275854
11.185,2.0,1.0,1.0,33.8,33.8,33.8,3.4,3.6,2.6625,0.3974549840650117,-0.022057861687496527,0.901688395920898,-0.0010409468168374033,-0.127752,-33.119071
11.185,2.0,1.0,1.0,33.8,33.8,33.8,3.4,3.6,2.665,0.38807423214493514,-0.022449907474754366,0.9055125615691458,-0.0013018188105321181,-0.1298,-32.96113
11.185,2.0,1.0,1.0,33.8,33.8,33.8,3.4,3.6,2.6675,0.3785805986505213,-0.02284926339873013,0.9092643864072967,-0.0015736873949976824,-0.131902,-32.802004
11.185,2.0,1.0,1.0,33.8,33.8,33.8,3.4,3.6,2.67,0.3689730090056352,-0.023256083686531297,0.9129414425264649,-0.0018570144738482598,-0.13406,-32.641665
11.185,2.0,1.0,1.0,33.8,33.8,33.8,3.4,3.6,2.6725,0.3592503903313263,-0.023670525814655192,0.9165412238609347,-0.0021522848283095533,-0.136275,-32.480083
11.185,2.0,1.0,1.0,33.8,33.8,33.8,3.4,3.6,2.675,0.3494116724094397,-0.024092750524526724,0.920061143363211,-0.0024600074872495326,-0.138551,-32.317229
11.185,2.0,1.0,1.0,33.8,33.8,33.8,3.4,3.6,2.6775,0.33945578871047294,-0.02452292182902345,0.92349853004934,-0.0027807171958996336,-0.140889,-32.153071
11.185,2.0,1.0,1.0,33.8,33.8,33.8,3.4,3.6,2.68,0.329381677489693,-0.024961207008423,0.9268506259059235,-0.003114975991650196,-0.143291,-31.987576
11.185,2.0,1.0,1.0,33.8,33.8,33.8,3.4,3.6,2.6825,0.3191882829558427,-0.025407776593972732,0.9301145826494461,-0.003463374896123025,-0.145761,-31.820712
11.185,2.0,1.0,1.0,33.8,33.8,33.8,3.4,3.6,2.685,0.30887455651710805,-0.025862804337011925,0.9332874583276697,-0.0038265357336358433,-0.148301,-31.652443
11.185,2.0,1.0,1.0,33.8,33.8,33.8,3.4,3.6,2.6875,0.2984394581094357,-0.02632646716126581,0.9363662137518605,-0.004205113087181417,-0.150913,-31.482734
11.185,2.0,1.0,1.0,33.8,33.8,33.8,3.4,3.6,2.69,0.28788195761273977,-0.026798945095568138,0.9393477087475163,-0.0045997964041720255,-0.153601,-31.311549
11.185,2.0,1.0,1.0,33.8,33.8,33.8,3.4,3.6,2.6925,0.27720103636101573,-0.027280421183857664,0.9422286982100578,-0.0050113122654508084,-0.156368,-31.138847
11.185,2.0,1.0,1.0,33.8,33.8,33.8,3.4,3.6,2.695,0.26639568875300584,-0.027771081368807994,0.9450058279505585,-0.005440426832468544,-0.159218,-30.96459
11.185,2.0,1.0,1.0,33.8,33.8,33.8,3.4,3.6,2.6975,0.2554649239706405,-0.02827111434489879,0.9476756303150882,-0.005887948489085056,-0.162153,-30.788736
11.185,2.0,1.0,1.0,33.8,33.8,33.8,3.4,3.6,2.7,0.2444077678132884,-0.0287807113760868,0.95023451955951,-0.006354730696194226,-0.165177,-30.611242
11.185,2.0,1.0,1.0,33.8,33.8,33.8,3.4,3.6,2.7025,0.23322326465663415,-0.029300066072489372,0.9526787869596748,-0.006841675079323605,-0.168295,-30.432063
11.185,2.0,1.0,1.0,33.8,33.8,33.8,3.4,3.6,2.705,0.2219104795460098,-0.029829374119622235,0.9550045956347796,-0.0073497347715405495,-0.17151,-30.251154
11.185,2.0,1.0,1.0,33.8,33.8,33.8,3.4,3.6,2.7075,0.21046850043507984,-0.030368832952721837,0.9572079750592578,-0.007879918036447622,-0.174827,-30.068464
11.185,2.0,1.0,1.0,33.8,33.8,33.8,3.4,3.6,2.71,0.19889644058208453,-0.030918641367504406,0.9592848152358275,-0.008433292198797593,-0.178251,-29.883945
11.185,2.0,1.0,1.0,33.8,33.8,33.8,3.4,3.6,2.7125,0.18719344111728195,-0.031478999057340126,0.9612308604992589,-0.009010987913350716,-0.181786,-29.697545
11.185,2.0,1.0,1.0,33.8,33.8,33.8,3.4,3.6,2.715,0.17535867379696327,-0.032050106065216105,0.9630417029169558,-0.009614203806074431,-0.185438,-29.509207
11.185,2.0,1.0,1.0,33.8,33.8,33.8,3.4,3.6,2.7175,0.16339134396135332,-0.03263216213698506,0.9647127752485332,-0.010244211525708063,-0.189213,-29.318877
11.185,2.0,1.0,1.0,33.8,33.8,33.8,3.4,3.6,2.72,0.15129069371604634,-0.03322536596019879,0.9662393434221433,-0.01090236124813767,-0.193117,-29.126494
11.185,2.0,1.0,1.0,33.8,33.8,33.8,3.4,3.6,2.7225,0.1390560053592334,-0.033829914270248784,0.9676164984802994,-0.01159008768102802,-0.197156,-28.931997
11.185,2.0,1.0,1.0,33.8,33.8,33.8,3.4,3.6,2.725,0.1266866050801899,-0.03444600080250489,0.968839147942254,-0.01230891662181027,-0.201336,-28.735321
11.185,2.0,1.0,1.0,33.8,33.8,33.8,3.4,3.6,2.7275,0.11418186695804716,-0.035073815065581986,0.9699020065235545,-0.013060472128536005,-0.205666,-28.536399
11.185,2.0,1.0,1.0,33.8,33.8,33.8,3.4,3.6,2.73,0.10154121729427214,-0.035713540906660166,0.9707995861460584,-0.013846484370371679,-0.210154,-28.33516
11.185,2.0,1.0,1.0,33.8,33.8,33.8,3.4,3.6,2.7325,0.08876413931724324,-0.036365354834825094,0.9715261851633751,-0.014668798232763666,-0.214807,-28.13153
11.185,2.0,1.0,1.0,33.8,33.8,33.8,3.4,3.6,2.735,0.0758501783033496,-0.037029424062523957,0.9720758767171847,-0.015529382761692506,-0.219635,-27.925434
11.185,2.0,1.0,1.0,33.8,33.8,33.8,3.4,3.6,2.7375,0.06279894716604119,-0.03770590421827835,0.9724424961290792,-0.016430341542125332,-0.224647,-27.716789
11.185,2.0,1.0,1.0,33.8,33.8,33.8,3.4,3.6,2.74,0.049610132572656694,-0.03839493667553331,0.97261962722019,-0.017373924117966278,-0.229855,-27.505511
11.185,2.0,1.0,1.0,33.8,33.8,33.8,3.4,3.6,2.7425,0.03628350165875928,-0.039096645432693575,0.9726005874367514,-0.018362538574725144,-0.23527,-27.291511
11.185,2.0,1.0,1.0,33.8,33.8,33.8,3.4,3.6,2.745,0.02281890942156253,-0.039811133467680025,0.9723784116435511,-0.01939876542203738,-0.240903,-27.074696
11.185,2.0,1.0,1.0,33.8,33.8,33.8,3.4,3.6,2.7475,0.00921630688814536,-0.040538478476332435,0.971945834428713,-0.02048537293138482,-0.246768,-26.854968
11.185,2.0,1.0,1.0,33.8,33.8,33.8,3.4,3.6,2.75,-0.00452424982895234,-0.0412787278872201,0.971295270741965,-0.0216253341052437,-0.25288,-26.632225
11.185,2.0,1.0,1.0,33.8,33.8,33.8,3.4,3.6,2.7525,-0.018402589455877166,-0.042031893025290014,0.9704187946641482,-0.0228218454778425,-0.259255,-26.406357
11.185,2.0,1.0,1.0,33.8,33.8,33.8,3.4,3.6,2.755,-0.03241841430408622,-0.04279794227256971,0.9693081160776424,-0.024078347975227433,-0.265908,-26.177252
11.185,2.0,1.0,1.0,33.8,33.8,33.8,3.4,3.6,2.7575,-0.04657128765282657,-0.04357679304493965,0.9679545549750838,-0.02539855009398226,-0.272859,-25.944789
11.185,2.0,1.0,1.0,33.8,33.8,33.8,3.4,3.6,2.76,-0.06086061954523669,-0.04436830236867977,0.9663490131065549,-0.026786453694362184,-0.280128,-25.708842
11.185,2.0,1.0,1.0,33.8,33.8,33.8,3.4,3.6,2.7625,-0.07528565073284298,-0.04517225579770108,0.9644819426225409,-0.0282463827455643,-0.287736,-25.469278
11.185,2.0,1.0,1.0,33.8,33.8,33.8,3.4,3.6,2.765,-0.08984543445081315,-0.04598835436035719,0.9623433113205108,-0.029783015409211647,-0.295709,-25.225956
11.185,2.0,1.0,1.0,33.8,33.8,33.8,3.4,3.6,2.7675,-0.10453881564255095,-0.04681619916134008,0.9599225640459278,-0.031401419902902454,-0.304072,-24.978727
11.185,2.0,1.0,1.0,33.8,33.8,33.8,3.4,3.6,2.77,-0.11936440717424232,-0.047655273186693665,0.9572085797326597,-0.03310709465000743,-0.312854,-24.727434
11.185,2.0,1.0,1.0,33.8,33.8,33.8,3.4,3.6,2.7725,-0.1343205624843485,-0.04850491976501894,0.9541896234918087,-0.03490601329609408,-0.322088,-24.471911
11.185,2.0,1.0,1.0,33.8,33.8,33.8,3.4,3.6,2.775,-0.14940534399551766,-0.04936431702120533,0.950853293070384,-0.0368046752578944,-0.331809,-24.211981
11.185,2.0,1.0,1.0,33.8,33.8,33.8,3.4,3.6,2.7775,-0.16461648647142996,-0.05023244751506377,0.9471864589003174,-0.03881016256924164,-0.342055,-23.947459
11.185,2.0,1.0,1.0,33.8,33.8,33.8,3.4,3.6,2.78,-0.1799513543217543,-0.0511080620791529,0.9431751968422379,-0.040930203901667433,-0.35287,-23.678145
11.185,2.0,1.0,1.0,33.8,33.8,33.8,3.4,3.6,2.7825,-0.19540689163574665,-0.051989636649072926,0.9388047125952405,-0.043173246767249304,-0.364303,-23.403831
11.185,2.0,1.0,1.0,33.8,33.8,33.8,3.4,3.6,2.785,-0.2109795634478863,-0.052875320604304624,0.9340592565915559,-0.045548539059766115,-0.376406,-23.124292
11.185,2.0,1.0,1.0,33.8,33.8,33.8,3.4,3.6,2.7875,-0.2266652863924413,-0.05376287479383098,0.9289220280217931,-0.048066221258991425,-0.38924,-22.839292
11.185,2.0,1.0,1.0,33.8,33.8,33.8,3.4,3.6,2.79,-0.2424593464696255,-0.054649596989713965,0.9233750664406214,-0.05073743081349832,-0.402871,-22.548576
11.185,2.0,1.0,1.0,33.8,33.8,33.8,3.4,3.6,2.7925,-0.258356301099412,-0.05553223196946843,0.9173991291838162,-0.053574420430237614,-0.417376,-22.251877
11.185,2.0,1.0,1.0,33.8,33.8,33.8,3.4,3.6,2.795,-0.2743498619491052,-0.05640686274334535,0.910973552585971,-0.05659069223364259,-0.432839,-21.948908
11.185,2.0,1.0,1.0,33.8,33.8,33.8,3.4,3.6,2.7975,-0.29043275414617675,-0.05726877857501276,0.9040760947272142,-0.05980115000979541,-0.449356,-21.639361
11.185,2.0,1.0,1.0,33.8,33.8,33.8,3.4,3.6,2.8,-0.30659654637586736,-0.0581123143408352,0.8966827571638071,-0.06322227201506338,-0.467036,-21.322912
11.185,2.0,1.0,1.0,33.8,33.8,33.8,3.4,3.6,2.8025,-0.32283144494358074,-0.05893065436495696,0.8887675828254727,-0.06687230708969814,-0.486003,-20.99921
11.185,2.0,1.0,1.0,33.8,33.8,33.8,3.4,3.6,2.805,-0.33912604306421285,-0.05971559206428324,0.880302427015401,-0.0707714970511467,-0.506398,-20.667883
11.185,2.0,1.0,1.0,33.8,33.8,33.8,3.4,3.6,2.8075,-0.3554670143043724,-0.060457234420509175,0.8712566982674402,-0.07494232850891756,-0.528384,-20.328533
11.185,2.0,1.0,1.0,33.8,33.8,33.8,3.4,3.6,2.81,-0.3718387360915745,-0.06114363730958577,0.861597065764459,-0.07940981727724551,-0.552146,-19.980733
11.185,2.0,1.0,1.0,33.8,33.8,33.8,3.4,3.6,2.8125,-0.388222825309961,-0.0617603538574863,0.851287130207093,-0.0842018283587542,-0.577901,-19.624026
11.185,2.0,1.0,1.0,33.8,33.8,33.8,3.4,3.6,2.815,-0.40459756295361166,-0.06228987298590432,0.8402870556088551,-0.08934943386645705,-0.605898,-19.257927
11.185,2.0,1.0,1.0,33.8,33.8,33.8,3.4,3.6,2.8175,-0.4209371782505798,-0.06271091881086317,0.8285531607420321,-0.09488730998344513,-0.636429,-18.881912
11.185,2.0,1.0,1.0,33.8,33.8,33.8,3.4,3.6,2.82,-0.4372109541419449,-0.06299757310410736,0.8160374712749501,-0.10085417172509654,-0.669834,-18.495427
11.185,2.0,1.0,1.0,33.8,33.8,33.8,3.4,3.6,2.8225,-0.45338210490629416,-0.06311817203389578,0.8026872376569545,-0.1072932402387317,-0.706515,-18.097876
11.185,2.0,1.0,1.0,33.8,33.8,33.8,3.4,3.6,2.825,-0.46940636231029237,-0.06303391412589666,0.7884444305040668,-0.1142527306741839,-0.746946,-17.688629
11.185,2.0,1.0,1.0,33.8,33.8,33.8,3.4,3.6,2.8275,-0.4852301880178341,-0.06269709791487874,0.7732452361378781,-0.12178633777249936,-0.791692,-17.267015
