1,w,sub_t,h,l1,l2,l3,g1,g2,Freq,S11_re,S21_re,S11_img,S21_img,S11_dB,S21_dB
11.185,2.0,1.0,1.0,33.0,34.5,34.5,3.1,2.2,2.5,0.898895348141131,-0.00698884253292031,0.42371795011699,0.0078783896966013,-0.05441,-39.550178
11.185,2.0,1.0,1.0,33.0,34.5,34.5,3.1,2.2,2.5025,0.8962109001106013,-0.007153905044807146,0.4292238723566873,0.007948934317362632,-0.05495,-39.41711
11.185,2.0,1.0,1.0,33.0,34.5,34.5,3.1,2.2,2.505,0.8934812377374407,-0.007322621470245981,0.43473357614655506,0.008019764622004844,-0.0555,-39.283484
11.185,2.0,1.0,1.0,33.0,34.5,34.5,3.1,2.2,2.5075,0.8907058924702194,-0.007495091496428089,0.44024694616336396,0.008090873054768804,-0.056061,-39.149285
11.185,2.0,1.0,1.0,33.0,34.5,34.5,3.1,2.2,2.51,0.8878843861228317,-0.007671418427124445,0.44576386321454203,0.008162251453096795,-0.056634,-39.014497
11.185,2.0,1.0,1.0,33.0,34.5,34.5,3.1,2.2,2.5125,0.885016230602857,-0.00785170934668147,0.45128420408820885,0.008233891007334647,-0.057219,-38.879104
11.185,2.0,1.0,1.0,33.0,34.5,34.5,3.1,2.2,2.515,0.8821009276288919,-0.008036075292946818,0.45680784139693187,0.008305782217603346,-0.057817,-38.743089
11.185,2.0,1.0,1.0,33.0,34.5,34.5,3.1,2.2,2.5175,0.8791379684362455,-0.008224631439693611,0.46233464341484953,0.008377914847619366,-0.058427,-38.606436
11.185,2.0,1.0,1.0,33.0,34.5,34.5,3.1,2.2,2.52,0.8761268334703303,-0.00841749728915357,0.46786447390782604,0.00845027787522462,-0.059049,-38.469127
11.185,2.0,1.0,1.0,33.0,34.5,34.5,3.1,2.2,2.5225,0.873066992067056,-0.008614796875312641,0.47339719195622587,0.008522859439364983,-0.059686,-38.331146
11.185,2.0,1.0,1.0,33.0,34.5,34.5,3.1,2.2,2.525,0.8699579021194602,-0.008816658978673916,0.4789326517699191,0.008595646783234342,-0.060336,-38.192475
11.185,2.0,1.0,1.0,33.0,34.5,34.5,3.1,2.2,2.5275,0.866799009729773,-0.009023217353242883,0.4844707024950671,0.008668626193275145,-0.061,-38.053094
11.185,2.0,1.0,1.0,33.0,34.5,34.5,3.1,2.2,2.53,0.8635897488460486,-0.009234610966548191,0.49001118801221194,0.008741782933699678,-0.061679,-37.912986
11.185,2.0,1.0,1.0,33.0,34.5,34.5,3.1,2.2,2.5325,0.8603295408824304,-0.009450984253572547,0.4955539467251622,0.00881510117616363,-0.062373,-37.77213
11.185,2.0,1.0,1.0,33.0,34.5,34.5,3.1,2.2,2.535,0.8570177943220498,-0.009672487385536485,0.5010988113401325,0.008888563924193925,-0.063083,-37.630509
11.185,2.0,1.0,1.0,33.0,34.5,34.5,3.1,2.2,2.5375,0.8536539043014849,-0.009899276554548544,0.5066456086345313,0.008962152931931032,-0.063809,-37.4881
11.185,2.0,1.0,1.0,33.0,34.5,34.5,3.1,2.2,2.54,0.8502372521756228,-0.010131514275217666,0.5121941592147765,0.00903584861670944,-0.064552,-37.344885
11.185,2.0,1.0,1.0,33.0,34.5,34.5,3.1,2.2,2.5425,0.8467672050616772,-0.010369369704407315,0.5177442772624391,0.009109629964952704,-0.065312,-37.200841
11.185,2.0,1.0,1.0,33.0,34.5,34.5,3.1,2.2,2.545,0.8432431153610228,-0.010613018980406575,0.5232957702679797,0.009183474430810648,-0.06609,-37.055947
11.185,2.0,1.0,1.0,33.0,34.5,34.5,3.1,2.2,2.5475,0.8396643202574025,-0.010862645582894641,0.52884843875126,0.009257357826911328,-0.066886,-36.91018
11.185,2.0,1.0,1.0,33.0,34.5,34.5,3.1,2.2,2.55,0.836030141189937,-0.01111844071518809,0.5344020759679793,0.009331254206540381,-0.067702,-36.763519
11.185,2.0,1.0,1.0,33.0,34.5,34.5,3.1,2.2,2.5525,0.8323398832992679,-0.011380603710380697,0.5399564676010602,0.009405135736492253,-0.068537,-36.615939
11.185,2.0,1.0,1.0,33.0,34.5,34.5,3.1,2.2,2.555,0.8285928348449944,-0.011649342463119989,0.5455113914359813,0.009478972559764307,-0.069392,-36.467416
11.185,2.0,1.0,1.0,33.0,34.5,34.5,3.1,2.2,2.5575,0.8247882665924471,-0.011924873888909697,0.5510666170189293,0.009552732647182002,-0.070269,-36.317925
11.185,2.0,1.0,1.0,33.0,34.5,34.5,3.1,2.2,2.56,0.8209254311666606,-0.012207424412985914,0.5566219052965493,0.009626381636951864,-0.071168,-36.167441
11.185,2.0,1.0,1.0,33.0,34.5,34.5,3.1,2.2,2.5625,0.817003562371234,-0.01249723049099,0.56217700823597,0.00969988266103676,-0.072089,-36.015938
11.185,2.0,1.0,1.0,33.0,34.5,34.5,3.1,2.2,2.565,0.8130218744695735,-0.01279453916385159,0.5677316684236593,0.009773196157135337,-0.073034,-35.863389
11.185,2.0,1.0,1.0,33.0,34.5,34.5,3.1,2.2,2.5675,0.8089795614258047,-0.013099608649504194,0.5732856186415132,0.009846279664920899,-0.074004,-35.709765
11.185,2.0,1.0,1.0,33.0,34.5,34.5,3.1,2.2,2.57,0.8048757961023881,-0.01341270897428654,0.5788385814184552,0.00991908760505389,-0.074999,-35.555039
11.185,2.0,1.0,1.0,33.0,34.5,34.5,3.1,2.2,2.5725,0.8007097294112395,-0.013734122647134535,0.5843902685556424,0.009991571039326805,-0.07602,-35.39918
11.185,2.0,1.0,1.0,33.0,34.5,34.5,3.1,2.2,2.575,0.796480489414853,-0.014064145379946798,0.5899403806231869,0.010063677410121754,-0.077069,-35.242158
11.185,2.0,1.0,1.0,33.0,34.5,34.5,3.1,2.2,2.5775,0.7921871803736269,-0.014403086857811923,0.5954886064261042,0.010135350257167712,-0.078146,-35.083943
11.185,2.0,1.0,1.0,33.0,34.5,34.5,3.1,2.2,2.58,0.7878288817352407,-0.014751271563122205,0.6010346224369566,0.010206528909362432,-0.079252,-34.924501
11.185,2.0,1.0,1.0,33.0,34.5,34.5,3.1,2.2,2.5825,0.7834046470615609,-0.015109039657970589,0.6065780921924152,0.01027714814917792,-0.08039,-34.763799
11.185,2.0,1.0,1.0,33.0,34.5,34.5,3.1,2.2,2.585,0.77891350288813,-0.015476747929635281,0.6121186656506622,0.010347137846891152,-0.081559,-34.601802
11.185,2.0,1.0,1.0,33.0,34.5,34.5,3.1,2.2,2.5875,0.7743544475108379,-0.01585477080441142,0.6176559785062414,0.010416422561570434,-0.082762,-34.438476
11.185,2.0,1.0,1.0,33.0,34.5,34.5,3.1,2.2,2.59,0.7697264496938648,-0.016243501435547356,0.6231896514585897,0.01048492110539684,-0.084,-34.273782
11.185,2.0,1.0,1.0,33.0,34.5,34.5,3.1,2.2,2.5925,0.7650284472924154,-0.016643352871598457,0.6287192894300886,0.010552546067505095,-0.085274,-34.107684
11.185,2.0,1.0,1.0,33.0,34.5,34.5,3.1,2.2,2.595,0.7602593457831569,-0.017054759312124315,0.6342444807289879,0.010619203293081678,-0.086586,-33.940141
11.185,2.0,1.0,1.0,33.0,34.5,34.5,3.1,2.2,2.5975,0.7554180166945573,-0.017478177458336623,0.6397647961520734,0.010684791312954578,-0.087937,-33.771113
11.185,2.0,1.0,1.0,33.0,34.5,34.5,3.1,2.2,2.6,0.750503295928573,-0.017914087967060763,0.6452797880213258,0.010749200718336965,-0.08933,-33.600557
11.185,2.0,1.0,1.0,33.0,34.5,34.5,3.1,2.2,2.6025,0.7455139819642759,-0.018362997017213188,0.6507889891481694,0.010812313474741635,-0.090765,-33.42843
11.185,2.0,1.0,1.0,33.0,34.5,34.5,3.1,2.2,2.605,0.7404488339330505,-0.018825437998934783,0.6562919117181693,0.010874002168347111,-0.092246,-33.254686
11.185,2.0,1.0,1.0,33.0,34.5,34.5,3.1,2.2,2.6075,0.7353065695539516,-0.019301973336557816,0.6617880460881586,0.01093412917726295,-0.093774,-33.079278
11.185,2.0,1.0,1.0,33.0,34.5,34.5,3.1,2.2,2.61,0.7300858629166219,-0.01979319645774915,0.6672768594868248,0.010992545759190118,-0.095351,-32.902157
11.185,2.0,1.0,1.0,33.0,34.5,34.5,3.1,2.2,2.6125,0.7247853420978554,-0.0202997339224675,0.6727577946086741,0.011049091045888346,-0.096981,-32.723273
11.185,2.0,1.0,1.0,33.0,34.5,34.5,3.1,2.2,2.615,0.7194035865964225,-0.02082224772682256,0.6782302680900358,0.011103590933625248,-0.098664,-32.542573
11.185,2.0,1.0,1.0,33.0,34.5,34.5,3.1,2.2,2.6175,0.7139391245691338,-0.021361437798545217,0.6836936688543219,0.011155856857363361,-0.100405,-32.360002
11.185,2.0,1.0,1.0,33.0,34.5,34.5,3.1,2.2,2.62,0.7083904298492676,-0.021918044702596375,0.6891473563121214,0.0112056844348197,-0.102205,-32.175503
11.185,2.0,1.0,1.0,33.0,34.5,34.5,3.1,2.2,2.6225,0.7027559187264172,-0.022492852577479704,0.6945906583998112,0.011252851964666612,-0.104069,-31.989016
11.185,2.0,1.0,1.0,33.0,34.5,34.5,3.1,2.2,2.625,0.697033946464522,-0.0230866923251109,0.700022869438196,0.0112971187609998,-0.105999,-31.800481
11.185,2.0,1.0,1.0,33.0,34.5,34.5,3.1,2.2,2.6275,0.6912228035321906,-0.0237004450796727,0.705443247790203,0.011338223303729088,-0.107998,-31.609833
11.185,2.0,1.0,1.0,33.0,34.5,34.5,3.1,2.2,2.63,0.6853207115165346,-0.024335045983778416,0.7108510132937582,0.011375881181694874,-0.110071,-31.417004
11.185,2.0,1.0,1.0,33.0,34.5,34.5,3.1,2.2,2.6325,0.6793258186883978,-0.02499148830353256,0.71624534444266,0.011409782802015739,-0.112222,-31.221925
11.185,2.0,1.0,1.0,33.0,34.5,34.5,3.1,2.2,2.635,0.6732361951831447,-0.025670827917760968,0.7216253752844015,0.01143959083534927,-0.114454,-31.024523
11.185,2.0,1.0,1.0,33.0,34.5,34.5,3.1,2.2,2.6375,0.6670498277569613,-0.026374188220842584,0.7269901919994162,0.011464937362309703,-0.116773,-30.824721
11.185,2.0,1.0,1.0,33.0,34.5,34.5,3.1,2.2,2.64,0.6607646140738322,-0.027102765483283747,0.7323388291210405,0.011485420681118318,-0.119184,-30.622441
11.185,2.0,1.0,1.0,33.0,34.5,34.5,3.1,2.2,2.6425,0.6543783564730017,-0.027857834719503163,0.7376702653493945,0.011500601730539264,-0.121691,-30.417598
11.185,2.0,1.0,1.0,33.0,34.5,34.5,3.1,2.2,2.645,0.6478887551605673,-0.028640756118339085,0.7429834189053284,0.01151000007511003,-0.124302,-30.210106
11.185,2.0,1.0,1.0,33.0,34.5,34.5,3.1,2.2,2.6475,0.6412934007619452,-0.029452982098646132,0.7482771423622683,0.011513089391426503,-0.127021,-29.999872
11.185,2.0,1.0,1.0,33.0,34.5,34.5,3.1,2.2,2.65,0.6345897661640276,-0.030296065060144907,0.7535502168840903,0.011509292384555916,-0.129856,-29.786803
11.185,2.0,1.0,1.0,33.0,34.5,34.5,3.1,2.2,2.6525,0.6277751975669261,-0.031171665908541757,0.7588013457856652,0.011497975052248236,-0.132815,-29.570796
11.185,2.0,1.0,1.0,33.0,34.5,34.5,3.1,2.2,2.655,0.6208469046549238,-0.03208156344403689,0.764029147319256,0.011478440201163582,-0.135904,-29.351748
11.185,2.0,1.0,1.0,33.0,34.5,34.5,3.1,2.2,2.6575,0.6138019497846708,-0.03302766471382794,0.7692321465739534,0.011449920103416968,-0.139134,-29.129546
11.185,2.0,1.0,1.0,33.0,34.5,34.5,3.1,2.2,2.66,0.6066372360753514,-0.03401201644233835,0.7744087663564077,0.011411568162866051,-0.142513,-28.904076
11.185,2.0,1.0,1.0,33.0,34.5,34.5,3.1,2.2,2.6625,0.5993494942704126,-0.035036817667863464,0.7795573168986115,0.011362449438118014,-0.146052,-28.675213
11.185,2.0,1.0,1.0,33.0,34.5,34.5,3.1,2.2,2.665,0.5919352682231228,-0.03610443373142804,0.7846759842116552,0.01130152984245853,-0.149762,-28.442831
11.185,2.0,1.0,1.0,33.0,34.5,34.5,3.1,2.2,2.6675,0.5843908988384787,-0.03721741178317151,0.7897628168722687,0.011227663808889964,-0.153656,-28.206792
11.185,2.0,1.0,1.0,33.0,34.5,34.5,3.1,2.2,2.67,0.5767125062813495,-0.038378497993900994,0.794815710990508,0.011139580170056168,-0.157746,-27.966953
11.185,2.0,1.0,1.0,33.0,34.5,34.5,3.1,2.2,2.6725,0.5688959702349436,-0.03959065668494287,0.7998323930606387,0.011035865956626591,-0.162049,-27.723162
11.185,2.0,1.0,1.0,33.0,34.5,34.5,3.1,2.2,2.675,0.5609369079641824,-0.040857091618539475,0.8048104003414058,0.010914947761942583,-0.166579,-27.475261
11.185,2.0,1.0,1.0,33.0,34.5,34.5,3.1,2.2,2.6775,0.5528306499048926,-0.042181269724255316,0.80974705834427,0.010775070253208383,-0.171356,-27.223079
11.185,2.0,1.0,1.0,33.0,34.5,34.5,3.1,2.2,2.68,0.5445722124613662,-0.043566947574692906,0.8146394549260382,0.010614271327485032,-0.1764,-26.966437
11.185,2.0,1.0,1.0,33.0,34.5,34.5,3.1,2.2,2.6825,0.536156267651224,-0.04501820096681954,0.8194844103822037,0.010430353310763876,-0.181731,-26.705145
11.185,2.0,1.0,1.0,33.0,34.5,34.5,3.1,2.2,2.685,0.5275771091870434,-0.046539458013921176,0.824278442814865,0.010220849476102589,-0.187376,-26.439001
11.185,2.0,1.0,1.0,33.0,34.5,34.5,3.1,2.2,2.6875,0.518828614528425,-0.0481355362081249,0.829017727898766,0.00998298500667276,-0.193361,-26.167791
11.185,2.0,1.0,1.0,33.0,34.5,34.5,3.1,2.2,2.69,0.509904202375594,-0.049811683974962474,0.8336980519837914,0.00971363134458504,-0.199717,-25.891286
11.185,2.0,1.0,1.0,33.0,34.5,34.5,3.1,2.2,2.6925,0.500796785006006,-0.051573627309774314,0.838314757243172,0.009409252637552002,-0.206479,-25.609243
11.185,2.0,1.0,1.0,33.0,34.5,34.5,3.1,2.2,2.695,0.4914987147790685,-0.0534276221606438,0.8428626772921824,0.00906584271134935,-0.213683,-25.321404
11.185,2.0,1.0,1.0,33.0,34.5,34.5,3.1,2.2,2.6975,0.4820017240515522,-0.0553805133031744,0.8473360613474976,0.008678850641846382,-0.221374,-25.027491
11.185,2.0,1.0,1.0,33.0,34.5,34.5,3.1,2.2,2.7,0.4722968576596617,-0.05743980053683361,0.8517284845533898,0.008243092557011555,-0.2296,-24.727209
11.185,2.0,1.0,1.0,33.0,34.5,34.5,3.1,2.2,2.7025,0.4623743970362699,-0.059613713117234554,0.8560327415428484,0.007752646741962833,-0.238417,-24.420241
11.185,2.0,1.0,1.0,33.0,34.5,34.5,3.1,2.2,2.705,0.45222377494982724,-0.06191129341737735,0.8602407195970672,0.007200728416553094,-0.247886,-24.106248
11.185,2.0,1.0,1.0,33.0,34.5,34.5,3.1,2.2,2.7075,0.441833479784779,-0.06434249087330468,0.8643432468732675,0.006579539662920637,-0.25808,-23.784865
11.185,2.0,1.0,1.0,33.0,34.5,34.5,3.1,2.2,2.71,0.43119094824846604,-0.06691826729931533,0.8683299100329122,0.005880088844472388,-0.26908,-23.455703
11.185,2.0,1.0,1.0,33.0,34.5,34.5,3.1,2.2,2.7125,0.42028244541205945,-0.06965071462876306,0.8721888341467584,0.005091972404846287,-0.280979,-23.118339
11.185,2.0,1.0,1.0,33.0,34.5,34.5,3.1,2.2,2.715,0.40909293111375106,-0.07255318600769924,0.8759064158830214,0.0042031100689723525,-0.293886,-22.772319
11.185,2.0,1.0,1.0,33.0,34.5,34.5,3.1,2.2,2.7175,0.39760591203399565,-0.07564044087678429,0.8794669985717286,0.0031994220604296218,-0.307926,-22.417156
11.185,2.0,1.0,1.0,33.0,34.5,34.5,3.1,2.2,2.72,0.3858032792928755,-0.07892880412375011,0.882852474611466,0.0020644338298643787,-0.323244,-22.052319
11.185,2.0,1.0,1.0,33.0,34.5,34.5,3.1,2.2,2.7225,0.373665132369648,-0.08243633842237601,0.8860417966171175,0.000778789732223118,-0.340012,-21.677239
11.185,2.0,1.0,1.0,33.0,34.5,34.5,3.1,2.2,2.725,0.36116959173845975,-0.08618302725943845,0.8890103733968818,-0.0006803482045324349,-0.358427,-21.291294
11.185,2.0,1.0,1.0,33.0,34.5,34.5,3.1,2.2,2.7275,0.3482926052146956,-0.09019096352444514,0.8917293198932907,-0.0023400472082319205,-0.378728,-20.893817
11.185,2.0,1.0,1.0,33.0,34.5,34.5,3.1,2.2,2.73,0.3350077571780063,-0.0944845343324966,0.8941645210974298,-0.004232536271501632,-0.401193,-20.484079
11.185,2.0,1.0,1.0,33.0,34.5,34.5,3.1,2.2,2.7325,0.3212860964603819,-0.09909058608683889,0.8962754579576422,-0.006396376065099803,-0.426157,-20.061293
11.185,2.0,1.0,1.0,33.0,34.5,34.5,3.1,2.2,2.735,0.30709600913899604,-0.1040385432849114,0.8980137275677245,-0.008877933747669695,-0.454022,-19.624605
11.185,2.0,1.0,1.0,33.0,34.5,34.5,3.1,2.2,2.7375,0.2924031789199463,-0.10936043806242084,0.8993211693334278,-0.011733250649251764,-0.485274,-19.173089
11.185,2.0,1.0,1.0,33.0,34.5,34.5,3.1,2.2,2.74,0.2771707036596609,-0.11509078153505854,0.9001274820864931,-0.0150304173853926,-0.520504,-18.705743
11.185,2.0,1.0,1.0,33.0,34.5,34.5,3.1,2.2,2.7425,0.2613594772592987,-0.12126616722591284,0.9003471828940968,-0.01885260495593505,-0.560438,-18.22149
11.185,2.0,1.0,1.0,33.0,34.5,34.5,3.1,2.2,2.745,0.24492901027519245,-0.12792443267679796,0.8998757155912153,-0.023301942766788625,-0.605973,-17.71917
11.185,2.0,1.0,1.0,33.0,34.5,34.5,3.1,2.2,2.7475,0.22783896374778395,-0.13510310412428034,0.8985844661418596,-0.028504484929304998,-0.658225,-17.197551
11.185,2.0,1.0,1.0,33.0,34.5,34.5,3.1,2.2,2.75,0.210051830518693,-0.142836689371488,0.896314386578732,-0.0346165607888949,-0.718597,-16.655337
11.185,2.0,1.0,1.0,33.0,34.5,34.5,3.1,2.2,2.7525,0.19153745044073742,-0.15115213205118458,0.8928678813643801,-0.04183285240434929,-0.788862,-16.091187
11.185,2.0,1.0,1.0,33.0,34.5,34.5,3.1,2.2,2.755,0.17228044222121366,-0.1600613447356955,0.8879985992670685,-0.05039655076615867,-0.871288,-15.503759
11.185,2.0,1.0,1.0,33.0,34.5,34.5,3.1,2.2,2.7575,0.15229225169973515,-0.1695491226973564,0.8813988675431673,-0.06061184640608602,-0.968791,-14.891776
11.185,2.0,1.0,1.0,33.0,34.5,34.5,3.1,2.2,2.76,0.1316304584788664,-0.17955380102388654,0.8726848474281094,-0.07285866446001943,-1.085153,-14.254137
11.185,2.0,1.0,1.0,33.0,34.5,34.5,3.1,2.2,2.7625,0.11042936759702682,-0.1899366391131716,0.8613803762809312,-0.08760866361548408,-1.225303,-13.5901
11.185,2.0,1.0,1.0,33.0,34.5,34.5,3.1,2.2,2.765,0.0889477990525368,-0.200434042187072,0.8469024731124775,-0.1054395026193079,-1.395688,-12.899563
11.185,2.0,1.0,1.0,33.0,34.5,34.5,3.1,2.2,2.7675,0.06764214371110672,-0.21058459522885153,0.828555696486152,-0.12704016432834495,-1.604717,-12.183518
11.185,2.0,1.0,1.0,33.0,34.5,34.5,3.1,2.2,2.77,0.047274035827857455,-0.21962163965131482,0.8055507558937212,-0.15319192500812046,-1.863211,-11.444722
11.185,2.0,1.0,1.0,33.0,34.5,34.5,3.1,2.2,2.7725,0.02905890239788044,-0.22632526779221415,0.7770773910444652,-0.18469498387266478,-2.184646,-10.68871
11.185,2.0,1.0,1.0,33.0,34.5,34.5,3.1,2.2,2.775,0.014845610235589193,-0.22884370987391217,0.7424837656062451,-0.22218864550432205,-2.584525,-9.925201
11.185,2.0,1.0,1.0,33.0,34.5,34.5,3.1,2.2,2.7775,0.007271697432041094,-0.2245398237714578,0.7016376324149354,-0.26579017077460637,-3.077276,-9.169902
11.185,2.0,1.0,1.0,33.0,34.5,34.5,3.1,2.2,2.78,0.009742394310522528,-0.21001444430203345,0.6555361003305756,-0.3144862095598614,-3.667109,-8.446408
11.185,2.0,1.0,1.0,33.0,34.5,34.5,3.1,2.2,2.7825,0.025945084822587797,-0.18159412869501346,0.6071097343076811,-0.3653321078402259,-4.326732,-7.787319
11.185,2.0,1.0,1.0,33.0,34.5,34.5,3.1,2.2,2.785,0.05857266671723487,-0.13660763509929377,0.5618292951271777,-0.4128512088346144,-4.960965,-7.232906
11.185,2.0,1.0,1.0,33.0,34.5,34.5,3.1,2.2,2.7875,0.10733181765784879,-0.07537210279511906,0.5272649572211345,-0.44948218492999825,-5.383087,-6.825317
11.185,2.0,1.0,1.0,33.0,34.5,34.5,3.1,2.2,2.79,0.16734215934468868,-0.0027825819738786497,0.5108345249011192,-0.4678322011388609,-5.391693,-6.598044
11.185,2.0,1.0,1.0,33.0,34.5,34.5,3.1,2.2,2.7925,0.22974586166151356,0.07230830115499841,0.5164208061502932,-0.4640508580839281,-4.95565,-6.564502
11.185,2.0,1.0,1.0,33.0,34.5,34.5,3.1,2.2,2.795,0.28498826218624035,0.14037178356373284,0.5423373952127408,-0.43984938927388656,-4.255657,-6.712704
11.185,2.0,1.0,1.0,33.0,34.5,34.5,3.1,2.2,2.7975,0.3265229133713334,0.19489762855425866,0.5824645821870664,-0.40135444579175844,-3.507799,-7.009931
11.185,2.0,1.0,1.0,33.0,34.5,34.5,3.1,2.2,2.8,0.35227329537591706,0.23384311418469378,0.6294036960871727,-0.3559542925612929,-2.837917,-7.413961
11.185,2.0,1.0,1.0,33.0,34.5,34.5,3.1,2.2,2.8025,0.36362626416526034,0.2586196415184517,0.6771037456090273,-0.30967953289252526,-2.286378,-7.883842
11.185,2.0,1.0,1.0,33.0,34.5,34.5,3.1,2.2,2.805,0.3635661598456402,0.2722266223412264,0.7217978678359551,-0.26627399522844936,-1.849721,-8.386045
11.185,2.0,1.0,1.0,33.0,34.5,34.5,3.1,2.2,2.8075,0.35525229634156424,0.2778319048637961,0.7617126175037751,-0.22748958511706285,-1.50943,-8.896053
11.185,2.0,1.0,1.0,33.0,34.5,34.5,3.1,2.2,2.81,0.3413388727930242,0.2780948457862573,0.7963804883446983,-0.19377503415673536,-1.245139,-9.397348
11.185,2.0,1.0,1.0,33.0,34.5,34.5,3.1,2.2,2.8125,0.32380955765494485,0.275003143080151,0.826033257986001,-0.1648822943586527,-1.03924,-9.879524
11.185,2.0,1.0,1.0,33.0,34.5,34.5,3.1,2.2,2.815,0.30404944757306906,0.26994609402386666,0.8512032015407132,-0.14026454594020524,-0.877817,-10.336469
11.185,2.0,1.0,1.0,33.0,34.5,34.5,3.1,2.2,2.8175,0.282984565271267,0.26385474218979627,0.8725017920268633,-0.11929669398460306,-0.750286,-10.764916
11.185,2.0,1.0,1.0,33.0,34.5,34.5,3.1,2.2,2.82,0.2612146784532974,0.2573349814823835,0.8905130274768939,-0.10138137695896236,-0.648725,-11.163415
11.185,2.0,1.0,1.0,33.0,34.5,34.5,3.1,2.2,2.8225,0.23911726573533024,0.2507716329090582,0.9057507923001795,-0.08599109355774522,-0.567224,-11.531628
11.185,2.0,1.0,1.0,33.0,34.5,34.5,3.1,2.2,2.825,0.21692203688179262,0.2444030083195494,0.9186484320584791,-0.0726782339603252,-0.501369,-11.869867
11.185,2.0,1.0,1.0,33.0,34.5,34.5,3.1,2.2,2.8275,0.19476196323035883,0.2383719717091724,0.9295628391374526,-0.061070676297293354,-0.447842,-12.178799
11.185,2.0,1.0,1.0,33.0,34.5,34.5,3.1,2.2,2.83,0.17270735905231224,0.23276006491166204,0.9387839738631157,-0.05086198824427048,-0.404134,-12.459256
