1,w,sub_t,h,l1,l2,l3,g1,g2,Freq,S11_re,S21_re,S11_img,S21_img,S11_dB,S21_dB
11.185,2.0,1.0,1.0,33.0,34.0,34.0,3.8,2.0,2.5,0.898254718314454,-0.00550481576592538,0.426549981496121,0.00584417949674516,-0.048887,-41.90727
11.185,2.0,1.0,1.0,33.0,34.0,34.0,3.8,2.0,2.5025,0.8956292102898259,-0.00562661712683562,0.4319230914213539,0.005888175079290781,-0.049314,-41.782938
11.185,2.0,1.0,1.0,33.0,34.0,34.0,3.8,2.0,2.505,0.892961520871988,-0.005750798607736206,0.4372985616623551,0.005932103879460527,-0.049749,-41.658239
11.185,2.0,1.0,1.0,33.0,34.0,34.0,3.8,2.0,2.5075,0.890251263602972,-0.005877415694003176,0.442676272437364,0.005975954284871549,-0.050191,-41.533163
11.185,2.0,1.0,1.0,33.0,34.0,34.0,3.8,2.0,2.51,0.8874980451195403,-0.006006525613457417,0.4480561003436024,0.006019714144555978,-0.050642,-41.407698
11.185,2.0,1.0,1.0,33.0,34.0,34.0,3.8,2.0,2.5125,0.8847014650020508,-0.006138187405328749,0.45343791822965757,0.006063370742086472,-0.0511,-41.281831
11.185,2.0,1.0,1.0,33.0,34.0,34.0,3.8,2.0,2.515,0.8818611156188199,-0.006272461992520781,0.45882159506332976,0.006106910767193609,-0.051568,-41.155551
11.185,2.0,1.0,1.0,33.0,34.0,34.0,3.8,2.0,2.5175,0.8789765819657983,-0.006409412257362366,0.46420699579473634,0.006150320285778046,-0.052044,-41.028844
11.185,2.0,1.0,1.0,33.0,34.0,34.0,3.8,2.0,2.52,0.8760474415013418,-0.006549103121044191,0.4695939812144914,0.0061935847082139565,-0.052529,-40.9017
11.185,2.0,1.0,1.0,33.0,34.0,34.0,3.8,2.0,2.5225,0.8730732639758686,-0.006691601626951147,0.4749824078067211,0.006236688755831961,-0.053023,-40.774104
11.185,2.0,1.0,1.0,33.0,34.0,34.0,3.8,2.0,2.525,0.8700536112561607,-0.006836977028115842,0.4803721275967137,0.006279616425462251,-0.053527,-40.646044
11.185,2.0,1.0,1.0,33.0,34.0,34.0,3.8,2.0,2.5275,0.8669880371440657,-0.006985300879033207,0.4857629879929589,0.00632235095190884,-0.05404,-40.517507
11.185,2.0,1.0,1.0,33.0,34.0,34.0,3.8,2.0,2.53,0.8638760871893381,-0.007136647132091928,0.4911548316233214,0.0063648747682168594,-0.054563,-40.388478
11.185,2.0,1.0,1.0,33.0,34.0,34.0,3.8,2.0,2.5325,0.8607172984963398,-0.007291092238896126,0.4965474961650915,0.0064071694635837746,-0.055097,-40.258945
11.185,2.0,1.0,1.0,33.0,34.0,34.0,3.8,2.0,2.535,0.8575111995242973,-0.007448715256769282,0.5019408141686329,0.006449215738754624,-0.05564,-40.128893
11.185,2.0,1.0,1.0,33.0,34.0,34.0,3.8,2.0,2.5375,0.8542573098808113,-0.0076095979607518766,0.5073346128743259,0.006490993358727767,-0.056195,-39.998308
11.185,2.0,1.0,1.0,33.0,34.0,34.0,3.8,2.0,2.54,0.8509551401082677,-0.007773824961426439,0.5127287140224982,0.006532481102585798,-0.056761,-39.867175
11.185,2.0,1.0,1.0,33.0,34.0,34.0,3.8,2.0,2.5425,0.8476041914627993,-0.007941483828926638,0.518122933656011,0.006573656710249989,-0.057338,-39.735479
11.185,2.0,1.0,1.0,33.0,34.0,34.0,3.8,2.0,2.545,0.8442039556854115,-0.008112665223511898,0.523517081915147,0.006614496825941935,-0.057927,-39.603206
11.185,2.0,1.0,1.0,33.0,34.0,34.0,3.8,2.0,2.5475,0.8407539147648648,-0.008287463033116355,0.5289109628244201,0.006654976938117524,-0.058527,-39.470339
11.185,2.0,1.0,1.0,33.0,34.0,34.0,3.8,2.0,2.55,0.8372535406918693,-0.008465974518310364,0.5343043740709262,0.00669507131562063,-0.059141,-39.336864
11.185,2.0,1.0,1.0,33.0,34.0,34.0,3.8,2.0,2.5525,0.8337022952041337,-0.008648300465143453,0.5396971067737846,0.00673475293978191,-0.059767,-39.202762
11.185,2.0,1.0,1.0,33.0,34.0,34.0,3.8,2.0,2.555,0.8300996295217586,-0.008834545346372995,0.5450889452442457,0.006773993432166699,-0.060406,-39.068019
11.185,2.0,1.0,1.0,33.0,34.0,34.0,3.8,2.0,2.5575,0.8264449840724379,-0.00902481749161878,0.5504796667359705,0.006812762977650426,-0.061058,-38.932617
11.185,2.0,1.0,1.0,33.0,34.0,34.0,3.8,2.0,2.56,0.8227377882058973,-0.009219229267024115,0.5558690411849699,0.006851030242473357,-0.061725,-38.796538
11.185,2.0,1.0,1.0,33.0,34.0,34.0,3.8,2.0,2.5625,0.8189774598969504,-0.009417897265047213,0.5612568309386579,0.006888762286897132,-0.062406,-38.659765
11.185,2.0,1.0,1.0,33.0,34.0,34.0,3.8,2.0,2.565,0.8151634054365025,-0.009620942505053996,0.5666427904734359,0.0069259244720525715,-0.063101,-38.52228
11.185,2.0,1.0,1.0,33.0,34.0,34.0,3.8,2.0,2.5675,0.8112950191098018,-0.009828490645433351,0.5720266661001717,0.006962480360533375,-0.063812,-38.384063
11.185,2.0,1.0,1.0,33.0,34.0,34.0,3.8,2.0,2.57,0.8073716828611623,-0.010040672208012781,0.5774081956569097,0.006998391610251307,-0.064539,-38.245097
11.185,2.0,1.0,1.0,33.0,34.0,34.0,3.8,2.0,2.5725,0.8033927659443337,-0.010257622815610759,0.5827871081880893,0.007033617861025233,-0.065282,-38.105361
11.185,2.0,1.0,1.0,33.0,34.0,34.0,3.8,2.0,2.575,0.7993576245576347,-0.010479483443628883,0.5881631236094951,0.00706811661333031,-0.066041,-37.964834
11.185,2.0,1.0,1.0,33.0,34.0,34.0,3.8,2.0,2.5775,0.7952656014628878,-0.010706400686656788,0.5935359523581065,0.007101843098580913,-0.066818,-37.823498
11.185,2.0,1.0,1.0,33.0,34.0,34.0,3.8,2.0,2.58,0.7911160255871265,-0.010938527041140926,0.5989052950259481,0.007134750140264972,-0.067613,-37.681329
11.185,2.0,1.0,1.0,33.0,34.0,34.0,3.8,2.0,2.5825,0.7869082116059527,-0.011176021205252414,0.6042708419769811,0.007166788005184148,-0.068426,-37.538307
11.185,2.0,1.0,1.0,33.0,34.0,34.0,3.8,2.0,2.585,0.7826414595073471,-0.01141904839718092,0.6096322729459833,0.007197904243985227,-0.069258,-37.394409
11.185,2.0,1.0,1.0,33.0,34.0,34.0,3.8,2.0,2.5875,0.7783150541346183,-0.011667780693181962,0.6149892566183006,0.007228043520091867,-0.07011,-37.249612
11.185,2.0,1.0,1.0,33.0,34.0,34.0,3.8,2.0,2.59,0.7739282647070918,-0.01192239738681451,0.6203414501892396,0.007257147426061289,-0.070983,-37.103893
11.185,2.0,1.0,1.0,33.0,34.0,34.0,3.8,2.0,2.5925,0.7694803443169962,-0.01218308537092563,0.6256884989017942,0.007285154286297632,-0.071876,-36.957227
11.185,2.0,1.0,1.0,33.0,34.0,34.0,3.8,2.0,2.595,0.764970529400905,-0.012450039544069348,0.6310300355612544,0.007311998944949248,-0.072792,-36.809589
11.185,2.0,1.0,1.0,33.0,34.0,34.0,3.8,2.0,2.5975,0.7603980391839198,-0.012723463243191204,0.6363656800251617,0.00733761253770402,-0.073729,-36.660953
11.185,2.0,1.0,1.0,33.0,34.0,34.0,3.8,2.0,2.6,0.7557620750946498,-0.013003568704566128,0.6416950386669062,0.007361922246068028,-0.074691,-36.511294
11.185,2.0,1.0,1.0,33.0,34.0,34.0,3.8,2.0,2.6025,0.7510618201488659,-0.013290577555149794,0.6470177038111207,0.007384851032572916,-0.075677,-36.360582
11.185,2.0,1.0,1.0,33.0,34.0,34.0,3.8,2.0,2.605,0.7462964382995134,-0.013584721336692977,0.6523332531388703,0.007406317355199174,-0.076687,-36.208791
11.185,2.0,1.0,1.0,33.0,34.0,34.0,3.8,2.0,2.6075,0.7414650737505708,-0.013886242065175705,0.6576412490604344,0.007426234859127582,-0.077724,-36.055892
11.185,2.0,1.0,1.0,33.0,34.0,34.0,3.8,2.0,2.61,0.7365668502320171,-0.014195392828346308,0.6629412380532812,0.007444512043736558,-0.078789,-35.901853
11.185,2.0,1.0,1.0,33.0,34.0,34.0,3.8,2.0,2.6125,0.7316008702329116,-0.014512438424401797,0.6682327499626044,0.007461051902543991,-0.079881,-35.746644
11.185,2.0,1.0,1.0,33.0,34.0,34.0,3.8,2.0,2.615,0.7265662141893215,-0.014837656045123321,0.6735152972615429,0.007475751533550163,-0.081003,-35.590234
11.185,2.0,1.0,1.0,33.0,34.0,34.0,3.8,2.0,2.6175,0.7214619396235361,-0.015171336007084125,0.678788374267902,0.007488501717164716,-0.082155,-35.432589
11.185,2.0,1.0,1.0,33.0,34.0,34.0,3.8,2.0,2.62,0.7162870802306586,-0.015513782534885638,0.6840514563139003,0.0074991864585958355,-0.083338,-35.273675
11.185,2.0,1.0,1.0,33.0,34.0,34.0,3.8,2.0,2.6225,0.7110406449083027,-0.01586531460074866,0.6893039988650976,0.007507682491237799,-0.084555,-35.113457
11.185,2.0,1.0,1.0,33.0,34.0,34.0,3.8,2.0,2.625,0.705721616724722,-0.0162262668251969,0.694545436584257,0.00751385873720765,-0.085806,-34.951897
11.185,2.0,1.0,1.0,33.0,34.0,34.0,3.8,2.0,2.6275,0.7003289518202193,-0.01659699044402741,0.699775182335466,0.00751757572075003,-0.087093,-34.788959
11.185,2.0,1.0,1.0,33.0,34.0,34.0,3.8,2.0,2.63,0.6948615782362126,-0.016977854347264242,0.7049926261233207,0.007518684929741072,-0.088416,-34.624603
11.185,2.0,1.0,1.0,33.0,34.0,34.0,3.8,2.0,2.6325,0.6893183946657495,-0.017369246196352765,0.7101971339614259,0.007517028119973658,-0.089779,-34.458788
11.185,2.0,1.0,1.0,33.0,34.0,34.0,3.8,2.0,2.635,0.6836982691186567,-0.017771573626471505,0.7153880466638178,0.007512436556284636,-0.091182,-34.291472
11.185,2.0,1.0,1.0,33.0,34.0,34.0,3.8,2.0,2.6375,0.6780000374938174,-0.018185265541528814,0.7205646785522016,0.007504730183883087,-0.092628,-34.122611
11.185,2.0,1.0,1.0,33.0,34.0,34.0,3.8,2.0,2.64,0.6722225020502904,-0.018610773510179857,0.7257263160710912,0.007493716722442391,-0.094118,-33.952161
11.185,2.0,1.0,1.0,33.0,34.0,34.0,3.8,2.0,2.6425,0.6663644297681488,-0.01904857327205237,0.7308722163020016,0.007479190674616948,-0.095653,-33.780074
11.185,2.0,1.0,1.0,33.0,34.0,34.0,3.8,2.0,2.645,0.6604245505889355,-0.019499166364324246,0.7360016053668111,0.007460932239617581,-0.097238,-33.606301
11.185,2.0,1.0,1.0,33.0,34.0,34.0,3.8,2.0,2.6475,0.654401555524593,-0.019963081879858163,0.7411136767092182,0.007438706121311434,-0.098873,-33.430791
11.185,2.0,1.0,1.0,33.0,34.0,34.0,3.8,2.0,2.65,0.6482940946224938,-0.02044087836928852,0.7462075892418751,0.007412260218981535,-0.100561,-33.253491
11.185,2.0,1.0,1.0,33.0,34.0,34.0,3.8,2.0,2.6525,0.6421007747729104,-0.020933145900782008,0.7512824653452095,0.0073813241873582226,-0.102305,-33.074346
11.185,2.0,1.0,1.0,33.0,34.0,34.0,3.8,2.0,2.655,0.6358201573437143,-0.021440508292685536,0.7563373887022181,0.00734560785079466,-0.104107,-32.893299
11.185,2.0,1.0,1.0,33.0,34.0,34.0,3.8,2.0,2.6575,0.6294507556254543,-0.021963625535939894,0.7613714019514694,0.00730479945446328,-0.105971,-32.71029
11.185,2.0,1.0,1.0,33.0,34.0,34.0,3.8,2.0,2.66,0.6229910320680517,-0.022503196425012976,0.766383504138243,0.007258563733156929,-0.107899,-32.525256
11.185,2.0,1.0,1.0,33.0,34.0,34.0,3.8,2.0,2.6625,0.6164393952882524,-0.02305996141820829,0.7713726479410636,0.007206539775643373,-0.109895,-32.338133
11.185,2.0,1.0,1.0,33.0,34.0,34.0,3.8,2.0,2.665,0.609794196824551,-0.0236347057505729,0.7763377366478311,0.007148338659479756,-0.111962,-32.148852
11.185,2.0,1.0,1.0,33.0,34.0,34.0,3.8,2.0,2.6675,0.6030537276136672,-0.024228262825291922,0.7812776208521794,0.007083540827682217,-0.114105,-31.957343
11.185,2.0,1.0,1.0,33.0,34.0,34.0,3.8,2.0,2.67,0.5962162141595623,-0.024841517912462054,0.786191094836618,0.007011693174581392,-0.116327,-31.763531
11.185,2.0,1.0,1.0,33.0,34.0,34.0,3.8,2.0,2.6725,0.5892798143625964,-0.025475412187527312,0.7910768926042484,0.006932305803476437,-0.118633,-31.567339
11.185,2.0,1.0,1.0,33.0,34.0,34.0,3.8,2.0,2.675,0.5822426129725436,-0.026130947145487336,0.7959336835153166,0.006844848413219599,-0.121028,-31.368685
11.185,2.0,1.0,1.0,33.0,34.0,34.0,3.8,2.0,2.6775,0.5751026166247951,-0.02680918943132336,0.8007600674784333,0.006748746264473959,-0.123517,-31.167485
11.185,2.0,1.0,1.0,33.0,34.0,34.0,3.8,2.0,2.68,0.5678577484141202,-0.027511276131985875,0.8055545696387914,0.006643375668927496,-0.126106,-30.963649
11.185,2.0,1.0,1.0,33.0,34.0,34.0,3.8,2.0,2.6825,0.5605058419547372,-0.028238420580844515,0.8103156344969005,0.006528058936012725,-0.1288,-30.757083
11.185,2.0,1.0,1.0,33.0,34.0,34.0,3.8,2.0,2.685,0.5530446348690479,-0.028991918731799016,0.8150416193810656,0.006402058701434468,-0.131606,-30.54769
11.185,2.0,1.0,1.0,33.0,34.0,34.0,3.8,2.0,2.6875,0.545471761640153,-0.0297731561673967,0.819730787184707,0.00626457154975219,-0.134531,-30.335365
11.185,2.0,1.0,1.0,33.0,34.0,34.0,3.8,2.0,2.69,0.5377847457550323,-0.03058361581341971,0.8243812982653004,0.006114720829045321,-0.137583,-30.119999
11.185,2.0,1.0,1.0,33.0,34.0,34.0,3.8,2.0,2.6925,0.5299809910558898,-0.03142488644162781,0.8289912013848441,0.005951548538874793,-0.14077,-29.90148
11.185,2.0,1.0,1.0,33.0,34.0,34.0,3.8,2.0,2.695,0.5220577722065582,-0.03229867205282159,0.8335584235516748,0.005774006152817064,-0.144101,-29.679685
11.185,2.0,1.0,1.0,33.0,34.0,34.0,3.8,2.0,2.6975,0.5140122241686864,-0.033206802244310954,0.8380807585996557,0.005580944213134978,-0.147586,-29.454487
11.185,2.0,1.0,1.0,33.0,34.0,34.0,3.8,2.0,2.7,0.5058413305687233,-0.03415124367941118,0.8425558543123127,0.005371100506875405,-0.151237,-29.225753
11.185,2.0,1.0,1.0,33.0,34.0,34.0,3.8,2.0,2.7025,0.4975419108209858,-0.03513411279198164,0.8469811978655137,0.005143086598857607,-0.155064,-28.993341
11.185,2.0,1.0,1.0,33.0,34.0,34.0,3.8,2.0,2.705,0.4891106058543551,-0.036157689876485787,0.8513540993214991,0.004895372456433897,-0.159081,-28.7571
11.185,2.0,1.0,1.0,33.0,34.0,34.0,3.8,2.0,2.7075,0.48054386226990703,-0.03722443473385651,0.8556716728579689,0.004626268852052457,-0.163302,-28.516871
11.185,2.0,1.0,1.0,33.0,34.0,34.0,3.8,2.0,2.71,0.4718379147339586,-0.03833700406585327,0.8599308153566557,0.0043339071706575815,-0.167744,-28.272486
11.185,2.0,1.0,1.0,33.0,34.0,34.0,3.8,2.0,2.7125,0.4629887663851347,-0.03949827083587446,0.8641281819039724,0.004016216177479527,-0.172422,-28.023767
11.185,2.0,1.0,1.0,33.0,34.0,34.0,3.8,2.0,2.715,0.45399216700504114,-0.04071134584258428,0.8682601576689667,0.0036708952148432512,-0.177357,-27.770524
11.185,2.0,1.0,1.0,33.0,34.0,34.0,3.8,2.0,2.7175,0.44484358866957324,-0.04197960178444606,0.8723228255172091,0.003295383190554853,-0.182571,-27.512554
11.185,2.0,1.0,1.0,33.0,34.0,34.0,3.8,2.0,2.72,0.4355381985617859,-0.043306700128431595,0.8763119285886689,0.0028868225905048675,-0.188086,-27.249643
11.185,2.0,1.0,1.0,33.0,34.0,34.0,3.8,2.0,2.7225,0.4260708285874712,-0.044696621134771346,0.8802228269070731,0.002442017588390309,-0.193929,-26.981562
11.185,2.0,1.0,1.0,33.0,34.0,34.0,3.8,2.0,2.725,0.4164359413915856,-0.046153697431293474,0.8840504468900284,0.001957385128292284,-0.20013,-26.708066
11.185,2.0,1.0,1.0,33.0,34.0,34.0,3.8,2.0,2.7275,0.4066275923278659,-0.04768265157495689,0.8877892223835616,0.0014288976114914264,-0.206722,-26.428894
11.185,2.0,1.0,1.0,33.0,34.0,34.0,3.8,2.0,2.73,0.3966393868870607,-0.04928863808316429,0.891433025538956,0.0008520155148240966,-0.213742,-26.143766
11.185,2.0,1.0,1.0,33.0,34.0,34.0,3.8,2.0,2.7325,0.38646443304322325,-0.05097729046090013,0.894975085467637,0.0002216078878479588,-0.221232,-25.852383
11.185,2.0,1.0,1.0,33.0,34.0,34.0,3.8,2.0,2.735,0.37609528793677743,-0.052754773787560216,0.8984078921300949,-0.000468141800925872,-0.22924,-25.554423
11.185,2.0,1.0,1.0,33.0,34.0,34.0,3.8,2.0,2.7375,0.3655238982837666,-0.054627843452988135,0.9017230823098693,-0.0012238475999042135,-0.23782,-25.24954
11.185,2.0,1.0,1.0,33.0,34.0,34.0,3.8,2.0,2.74,0.35474153389317786,-0.05660391063538109,0.9049113037572628,-0.002053054685282775,-0.247033,-24.937362
11.185,2.0,1.0,1.0,33.0,34.0,34.0,3.8,2.0,2.7425,0.34373871370417747,-0.058691115078386494,0.9079620526121708,-0.002964399509035056,-0.25695,-24.617488
11.185,2.0,1.0,1.0,33.0,34.0,34.0,3.8,2.0,2.745,0.332505123847085,-0.06089840562620849,0.9108634779684,-0.003967802585113689,-0.26765,-24.289484
11.185,2.0,1.0,1.0,33.0,34.0,34.0,3.8,2.0,2.7475,0.32102952742339946,-0.06323562877607569,0.9136021458399237,-0.005074701606214254,-0.279227,-23.952884
11.185,2.0,1.0,1.0,33.0,34.0,34.0,3.8,2.0,2.75,0.309299666048855,-0.0657136251490798,0.916162752722036,-0.00629833463664753,-0.291789,-23.607178
11.185,2.0,1.0,1.0,33.0,34.0,34.0,3.8,2.0,2.7525,0.2973021537976374,-0.06834433317454107,0.9185277762597129,-0.007654085788228715,-0.30546,-23.251817
11.185,2.0,1.0,1.0,33.0,34.0,34.0,3.8,2.0,2.755,0.2850223651611328,-0.07114089829377247,0.920677047044486,-0.009159909250939681,-0.320385,-22.886204
11.185,2.0,1.0,1.0,33.0,34.0,34.0,3.8,2.0,2.7575,0.2724443201995603,-0.07411778440742454,0.9225872209958806,-0.010836852079583676,-0.336737,-22.509688
11.185,2.0,1.0,1.0,33.0,34.0,34.0,3.8,2.0,2.76,0.2595505725421859,-0.07729088179391463,0.924231125791368,-0.012709702080494377,-0.354718,-22.121559
11.185,2.0,1.0,1.0,33.0,34.0,34.0,3.8,2.0,2.7625,0.24632210978165775,-0.08067760181470515,0.9255769469200793,-0.014807794962770971,-0.374568,-21.721046
11.185,2.0,1.0,1.0,33.0,34.0,34.0,3.8,2.0,2.765,0.2327382818911814,-0.08429694261581876,0.9265872085291624,-0.017166025229528443,-0.396572,-21.307303
11.185,2.0,1.0,1.0,33.0,34.0,34.0,3.8,2.0,2.7675,0.21877678279410723,-0.0881695005120626,0.9272174904976211,-0.0198261188846758,-0.421076,-20.879409
11.185,2.0,1.0,1.0,33.0,34.0,34.0,3.8,2.0,2.77,0.20441372506648928,-0.09231738687404277,0.9274148050799514,-0.022838243933704056,-0.448497,-20.436353
11.185,2.0,1.0,1.0,33.0,34.0,34.0,3.8,2.0,2.7725,0.1896238710218892,-0.09676398707142324,0.9271155327561423,-0.026263058092964062,-0.479342,-19.977036
11.185,2.0,1.0,1.0,33.0,34.0,34.0,3.8,2.0,2.775,0.17438112001111317,-0.1015334614827155,0.9262427862076095,-0.03017432345334005,-0.514235,-19.500252
11.185,2.0,1.0,1.0,33.0,34.0,34.0,3.8,2.0,2.7775,0.15865940952266044,-0.1066498309459744,0.9247030323542939,-0.03466225627542608,-0.553947,-19.004693
11.185,2.0,1.0,1.0,33.0,34.0,34.0,3.8,2.0,2.78,0.1424342792325709,-0.11213539772775907,0.9223817547782324,-0.03983782690935423,-0.599441,-18.488938
11.185,2.0,1.0,1.0,33.0,34.0,34.0,3.8,2.0,2.7825,0.1256854928759255,-0.11800810791079418,0.9191378849526421,-0.045838277602741916,-0.65193,-17.951461
11.185,2.0,1.0,1.0,33.0,34.0,34.0,3.8,2.0,2.785,0.10840134532715336,-0.12427722965479145,0.9147966795282333,-0.0528341755183615,-0.71295,-17.390638
11.185,2.0,1.0,1.0,33.0,34.0,34.0,3.8,2.0,2.7875,0.0905856532773313,-0.13093635281577545,0.9091406969754264,-0.061038340004849256,-0.784474,-16.804774
11.185,2.0,1.0,1.0,33.0,34.0,34.0,3.8,2.0,2.79,0.0722690171401433,-0.13795212995738892,0.9018985886203393,-0.07071691846283494,-0.86905,-16.19216
11.185,2.0,1.0,1.0,33.0,34.0,34.0,3.8,2.0,2.7925,0.05352686574171795,-0.1452462618386458,0.8927316976374022,-0.08220260304094058,-0.969996,-15.551164
11.185,2.0,1.0,1.0,33.0,34.0,34.0,3.8,2.0,2.795,0.03450820402699908,-0.1526668344162443,0.8812192366910387,-0.09590919986509934,-1.091666,-14.8804
11.185,2.0,1.0,1.0,33.0,34.0,34.0,3.8,2.0,2.7975,0.015481009669924916,-0.15994311111185477,0.866844674071565,-0.11234490280598107,-1.239789,-14.179005
11.185,2.0,1.0,1.0,33.0,34.0,34.0,3.8,2.0,2.8,-0.003097223566458036,-0.16661537023029852,0.8489900507922822,-0.13211754075409246,-1.42189,-13.447105
11.185,2.0,1.0,1.0,33.0,34.0,34.0,3.8,2.0,2.8025,-0.020473161550299195,-0.17192930127780767,0.8269533764815161,-0.15591667941399748,-1.647718,-12.686555
11.185,2.0,1.0,1.0,33.0,34.0,34.0,3.8,2.0,2.805,-0.035446612994694544,-0.17468627692438543,0.8000202556004123,-0.18444155882714217,-1.929463,-11.902115
11.185,2.0,1.0,1.0,33.0,34.0,34.0,3.8,2.0,2.8075,-0.04618107178181482,-0.17305604162330118,0.7676474694513364,-0.2182175163613138,-2.281074,-11.103214
11.185,2.0,1.0,1.0,33.0,34.0,34.0,3.8,2.0,2.81,-0.050032038414218584,-0.1644082141329524,0.7298485497886985,-0.25721170838869983,-2.714984,-10.306404
11.185,2.0,1.0,1.0,33.0,34.0,34.0,3.8,2.0,2.8125,-0.0435669754306177,-0.145335950023068,0.687873252176673,-0.300157748889068,-3.232445,-9.53828
11.185,2.0,1.0,1.0,33.0,34.0,34.0,3.8,2.0,2.815,-0.023138947164027604,-0.11223140222229087,0.6451340177672144,-0.34363794382002877,-3.801418,-8.837812
11.185,2.0,1.0,1.0,33.0,34.0,34.0,3.8,2.0,2.8175,0.013542702967667263,-0.0628508787958612,0.6078803658485642,-0.3814217128646355,-4.321483,-8.255542
11.185,2.0,1.0,1.0,33.0,34.0,34.0,3.8,2.0,2.82,0.06495838198702425,0.0012499526548669785,0.5844523907582503,-0.4052214112725902,-4.611698,-7.846111
11.185,2.0,1.0,1.0,33.0,34.0,34.0,3.8,2.0,2.8225,0.12409530322309134,0.07306084613706743,0.5821150576485564,-0.4078485914808547,-4.506808,-7.652844
11.185,2.0,1.0,1.0,33.0,34.0,34.0,3.8,2.0,2.825,0.18008985760904078,0.14177318697206123,0.6028190641211935,-0.3874187066697989,-4.024988,-7.690586
11.185,2.0,1.0,1.0,33.0,34.0,34.0,3.8,2.0,2.8275,0.22312514493411092,0.19765662125970235,0.6417048787311984,-0.3488109485471771,-3.357624,-7.938836
11.185,2.0,1.0,1.0,33.0,34.0,34.0,3.8,2.0,2.83,0.24854717631823803,0.23613438178516807,0.6900581829790006,-0.3007076497262101,-2.692532,-8.350986
