1,w,sub_t,h,l1,l2,l3,g1,g2,Freq,S11_re,S21_re,S11_img,S21_img,S11_dB,S21_dB
11.185,2.0,1.0,1.0,33.4,34.2,34.2,4.0,2.8,2.5,0.861408333594195,-0.00597097353543936,0.495447122172747,0.00462720506320096,-0.054663,-42.436412
11.185,2.0,1.0,1.0,33.4,34.2,34.2,4.0,2.8,2.5025,0.8581019262523342,-0.006091799867909285,0.5010386651978737,0.004646406640523587,-0.055163,-42.313684
11.185,2.0,1.0,1.0,33.4,34.2,34.2,4.0,2.8,2.505,0.8547450453620966,-0.006214811799468241,0.5066301340606577,0.004665029404126498,-0.055671,-42.19061
11.185,2.0,1.0,1.0,33.4,34.2,34.2,4.0,2.8,2.5075,0.8513372030907034,-0.006340056018652747,0.5122213043464973,0.004683048764276524,-0.056187,-42.067178
11.185,2.0,1.0,1.0,33.4,34.2,34.2,4.0,2.8,2.51,0.8478779037898743,-0.006467580555755737,0.5178119449385483,0.004700439197563959,-0.056713,-41.943379
11.185,2.0,1.0,1.0,33.4,34.2,34.2,4.0,2.8,2.5125,0.8443666438593188,-0.006597434831831908,0.5234018178006353,0.004717174206137012,-0.057249,-41.819201
11.185,2.0,1.0,1.0,33.4,34.2,34.2,4.0,2.8,2.515,0.8408029116074797,-0.006729669709895666,0.5289906777529149,0.0047332262748765765,-0.057794,-41.694634
11.185,2.0,1.0,1.0,33.4,34.2,34.2,4.0,2.8,2.5175,0.8371861871094513,-0.006864337548428267,0.5345782722399964,0.0047485668263902905,-0.058348,-41.569666
11.185,2.0,1.0,1.0,33.4,34.2,34.2,4.0,2.8,2.52,0.8335159420619774,-0.007001492257318864,0.5401643410912554,0.004763166173697077,-0.058913,-41.444285
11.185,2.0,1.0,1.0,33.4,34.2,34.2,4.0,2.8,2.5225,0.8297916396354551,-0.007141189356370797,0.5457486162730036,0.004776993470464339,-0.059488,-41.31848
11.185,2.0,1.0,1.0,33.4,34.2,34.2,4.0,2.8,2.525,0.8260127343228276,-0.00728348603651377,0.5513308216322245,0.0047900166586505345,-0.060074,-41.19224
11.185,2.0,1.0,1.0,33.4,34.2,34.2,4.0,2.8,2.5275,0.8221786717852795,-0.007428441223870949,0.5569106726315315,0.004802202413395866,-0.06067,-41.065551
11.185,2.0,1.0,1.0,33.4,34.2,34.2,4.0,2.8,2.53,0.8182888886946175,-0.007576115646839226,0.5624878760749917,0.004813516084992617,-0.061278,-40.938403
11.185,2.0,1.0,1.0,33.4,34.2,34.2,4.0,2.8,2.5325,0.8143428125722285,-0.007726571906351552,0.5680621298244574,0.004823921637754837,-0.061897,-40.810782
11.185,2.0,1.0,1.0,33.4,34.2,34.2,4.0,2.8,2.535,0.8103398616244848,-0.007879874549501004,0.5736331225060178,0.00483338158559428,-0.062528,-40.682676
11.185,2.0,1.0,1.0,33.4,34.2,34.2,4.0,2.8,2.5375,0.8062794445744774,-0.008036090146717622,0.5792005332061602,0.004841856924095959,-0.06317,-40.554072
11.185,2.0,1.0,1.0,33.4,34.2,34.2,4.0,2.8,2.54,0.8021609604899295,-0.00819528737270198,0.5847640311572182,0.004849307058870937,-0.063825,-40.424956
11.185,2.0,1.0,1.0,33.4,34.2,34.2,4.0,2.8,2.5425,0.7979837986071459,-0.008357537091332835,0.5903232754116606,0.004855689729948885,-0.064493,-40.295316
11.185,2.0,1.0,1.0,33.4,34.2,34.2,4.0,2.8,2.545,0.793747338150843,-0.008522912444780545,0.5958779145047476,0.004860960931954354,-0.065173,-40.165136
11.185,2.0,1.0,1.0,33.4,34.2,34.2,4.0,2.8,2.5475,0.7894509481496915,-0.008691488947073504,0.6014275861050451,0.004865074829792315,-0.065867,-40.034405
11.185,2.0,1.0,1.0,33.4,34.2,34.2,4.0,2.8,2.55,0.7850939872473802,-0.008863344582381895,0.6069719166522962,0.004867983669548119,-0.066575,-39.903106
11.185,2.0,1.0,1.0,33.4,34.2,34.2,4.0,2.8,2.5525,0.7806758035090319,-0.00903855990830053,0.6125105209820658,0.004869637684283752,-0.067296,-39.771226
11.185,2.0,1.0,1.0,33.4,34.2,34.2,4.0,2.8,2.555,0.7761957342227365,-0.009217218164432401,0.6180430019365949,0.0048699849943892905,-0.068033,-39.638749
11.185,2.0,1.0,1.0,33.4,34.2,34.2,4.0,2.8,2.5575,0.7716531056959981,-0.009399405386595392,0.6235689499612396,0.004868971502121069,-0.068784,-39.50566
11.185,2.0,1.0,1.0,33.4,34.2,34.2,4.0,2.8,2.56,0.76704723304685,-0.0095852105269967,0.6290879426858308,0.004866540779930075,-0.06955,-39.371944
11.185,2.0,1.0,1.0,33.4,34.2,34.2,4.0,2.8,2.5625,0.7623774199893806,-0.009774725580744463,0.6345995444902703,0.004862633952152491,-0.070332,-39.237585
11.185,2.0,1.0,1.0,33.4,34.2,34.2,4.0,2.8,2.565,0.7576429586133934,-0.009968045719091633,0.6401033060536256,0.004857189569600775,-0.07113,-39.102565
11.185,2.0,1.0,1.0,33.4,34.2,34.2,4.0,2.8,2.5675,0.7528431291579069,-0.010165269429835774,0.6455987638859327,0.004850143476556472,-0.071945,-38.96687
11.185,2.0,1.0,1.0,33.4,34.2,34.2,4.0,2.8,2.57,0.7479771997781655,-0.010366498665329066,0.6510854398418905,0.0048414286696254845,-0.072777,-38.83048
11.185,2.0,1.0,1.0,33.4,34.2,34.2,4.0,2.8,2.5725,0.7430444263058168,-0.010571838998585718,0.6565628406155519,0.004830975147873169,-0.073626,-38.693379
11.185,2.0,1.0,1.0,33.4,34.2,34.2,4.0,2.8,2.575,0.7380440520018793,-0.010781399788009424,0.6620304572150839,0.0048187097536074195,-0.074494,-38.555549
11.185,2.0,1.0,1.0,33.4,34.2,34.2,4.0,2.8,2.5775,0.732975307302096,-0.01099529435130284,0.6674877644165832,0.0048045560031268015,-0.075381,-38.416971
11.185,2.0,1.0,1.0,33.4,34.2,34.2,4.0,2.8,2.58,0.727837409554229,-0.011213640149162122,0.6729342201958838,0.004788433906691941,-0.076287,-38.277626
11.185,2.0,1.0,1.0,33.4,34.2,34.2,4.0,2.8,2.5825,0.7226295627468216,-0.011436558979405447,0.6783692651372207,0.004770259776916392,-0.077212,-38.137494
11.185,2.0,1.0,1.0,33.4,34.2,34.2,4.0,2.8,2.585,0.7173509572289104,-0.011664177182233466,0.6837923218175218,0.004749946024703795,-0.078158,-37.996557
11.185,2.0,1.0,1.0,33.4,34.2,34.2,4.0,2.8,2.5875,0.7120007694201212,-0.011896625857372873,0.6892027941650272,0.004727400941782383,-0.079126,-37.854793
11.185,2.0,1.0,1.0,33.4,34.2,34.2,4.0,2.8,2.59,0.7065781615105485,-0.012134041093912145,0.6946000667908322,0.004702528468804993,-0.080115,-37.712181
11.185,2.0,1.0,1.0,33.4,34.2,34.2,4.0,2.8,2.5925,0.7010822811497427,-0.01237656421370161,0.6999835042918602,0.004675227947891512,-0.081127,-37.568699
11.185,2.0,1.0,1.0,33.4,34.2,34.2,4.0,2.8,2.595,0.6955122611241025,-0.01262434202925769,0.7053524505236358,0.004645393858389801,-0.082162,-37.424325
11.185,2.0,1.0,1.0,33.4,34.2,34.2,4.0,2.8,2.5975,0.6898672190218696,-0.012877527117186543,0.7107062278411422,0.00461291553452109,-0.083221,-37.279037
11.185,2.0,1.0,1.0,33.4,34.2,34.2,4.0,2.8,2.6,0.6841462568848815,-0.013136278108222032,0.7160441363058796,0.004577676863453358,-0.084305,-37.13281
11.185,2.0,1.0,1.0,33.4,34.2,34.2,4.0,2.8,2.6025,0.6783484608461549,-0.013400759995061524,0.7213654528571095,0.004539555962212469,-0.085414,-36.985621
11.185,2.0,1.0,1.0,33.4,34.2,34.2,4.0,2.8,2.605,0.6724729007522754,-0.013671144459279081,0.7266694304451143,0.004498424831691674,-0.086551,-36.837444
11.185,2.0,1.0,1.0,33.4,34.2,34.2,4.0,2.8,2.6075,0.6665186297694947,-0.013947610218699886,0.731955297124107,0.004454148985856231,-0.087714,-36.688253
11.185,2.0,1.0,1.0,33.4,34.2,34.2,4.0,2.8,2.61,0.660484683972324,-0.014230343396733444,0.7372222551022475,0.004406587054058506,-0.088906,-36.538022
11.185,2.0,1.0,1.0,33.4,34.2,34.2,4.0,2.8,2.6125,0.6543700819133026,-0.014519537915288861,0.7424694797459948,0.004355590354177251,-0.090128,-36.386724
11.185,2.0,1.0,1.0,33.4,34.2,34.2,4.0,2.8,2.615,0.6481738241724968,-0.014815395913030225,0.7476961185357976,0.004301002434071835,-0.09138,-36.234329
11.185,2.0,1.0,1.0,33.4,34.2,34.2,4.0,2.8,2.6175,0.6418948928851559,-0.015118128190879414,0.752901289969848,0.004242658578595041,-0.092664,-36.08081
11.185,2.0,1.0,1.0,33.4,34.2,34.2,4.0,2.8,2.62,0.6355322512457942,-0.015427954686836241,0.758084082412344,0.004180385279131591,-0.09398,-35.926135
11.185,2.0,1.0,1.0,33.4,34.2,34.2,4.0,2.8,2.6225,0.6290848429868044,-0.015745104982364484,0.7632435528823858,0.0041139996623243864,-0.095331,-35.770274
11.185,2.0,1.0,1.0,33.4,34.2,34.2,4.0,2.8,2.625,0.622551591829546,-0.0160698188427855,0.768378725779251,0.00404330887430861,-0.096716,-35.613194
11.185,2.0,1.0,1.0,33.4,34.2,34.2,4.0,2.8,2.6275,0.6159314009056116,-0.01640234679433762,0.7734885915394291,0.003968109416393317,-0.098139,-35.454861
11.185,2.0,1.0,1.0,33.4,34.2,34.2,4.0,2.8,2.63,0.6092231521458056,-0.01674295074079132,0.778572105220317,0.0038881864277052047,-0.099599,-35.295242
11.185,2.0,1.0,1.0,33.4,34.2,34.2,4.0,2.8,2.6325,0.6024257056340859,-0.017091904622768894,0.7836281850050122,0.003803312909833689,-0.101099,-35.134301
11.185,2.0,1.0,1.0,33.4,34.2,34.2,4.0,2.8,2.635,0.595537898923472,-0.01744949512319933,0.7886557106220613,0.003713248887984921,-0.102641,-34.972001
11.185,2.0,1.0,1.0,33.4,34.2,34.2,4.0,2.8,2.6375,0.588558546310632,-0.0178160224226488,0.7936535216734206,0.0036177405025552816,-0.104225,-34.808302
11.185,2.0,1.0,1.0,33.4,34.2,34.2,4.0,2.8,2.64,0.5814864380655039,-0.018191801008610137,0.7986204158631944,0.003516519024365608,-0.105853,-34.643167
11.185,2.0,1.0,1.0,33.4,34.2,34.2,4.0,2.8,2.6425,0.5743203396119919,-0.018577160543207127,0.8035551471189193,0.00340929978604461,-0.107528,-34.476552
11.185,2.0,1.0,1.0,33.4,34.2,34.2,4.0,2.8,2.645,0.5670589906553354,-0.018972446794185322,0.8084564235963151,0.00329578102120291,-0.109252,-34.308416
11.185,2.0,1.0,1.0,33.4,34.2,34.2,4.0,2.8,2.6475,0.5597011042513413,-0.019378022634513617,0.8133229055574167,0.0031756426020837533,-0.111025,-34.138715
11.185,2.0,1.0,1.0,33.4,34.2,34.2,4.0,2.8,2.65,0.5522453658121483,-0.01979426911642393,0.8181532031109259,0.003048544665298232,-0.112852,-33.967401
11.185,2.0,1.0,1.0,33.4,34.2,34.2,4.0,2.8,2.6525,0.5446904320426953,-0.020221586626266386,0.8229458738023163,0.002914126114034169,-0.114733,-33.794427
11.185,2.0,1.0,1.0,33.4,34.2,34.2,4.0,2.8,2.655,0.537034929801421,-0.020660396127168867,0.8276994200398834,0.002772002983746596,-0.116672,-33.619743
11.185,2.0,1.0,1.0,33.4,34.2,34.2,4.0,2.8,2.6575,0.5292774548780911,-0.02111114049715987,0.8324122863412586,0.0026217666567727167,-0.118671,-33.443297
11.185,2.0,1.0,1.0,33.4,34.2,34.2,4.0,2.8,2.66,0.5214165706809045,-0.021574285971155936,0.8370828563831433,0.0024629819095352288,-0.120733,-33.265035
11.185,2.0,1.0,1.0,33.4,34.2,34.2,4.0,2.8,2.6625,0.5134508068242281,-0.022050323696032357,0.8417094498349079,0.002295184773974207,-0.122861,-33.0849
11.185,2.0,1.0,1.0,33.4,34.2,34.2,4.0,2.8,2.665,0.505378657607382,-0.022539771408900264,0.8462903189543892,0.002117880192540491,-0.125058,-32.902835
11.185,2.0,1.0,1.0,33.4,34.2,34.2,4.0,2.8,2.6675,0.4971985803739506,-0.023043175249707948,0.8508236449214928,0.0019305394434503706,-0.127328,-32.718777
11.185,2.0,1.0,1.0,33.4,34.2,34.2,4.0,2.8,2.67,0.4889089937399409,-0.02356111172038687,0.8553075338821692,0.0017325973098872261,-0.129673,-32.532663
11.185,2.0,1.0,1.0,33.4,34.2,34.2,4.0,2.8,2.6725,0.48050827567791893,-0.024094189803975558,0.8597400126718059,0.0015234489633846157,-0.132099,-32.344425
11.185,2.0,1.0,1.0,33.4,34.2,34.2,4.0,2.8,2.675,0.4719947614429094,-0.02464305325849281,0.8641190241830404,0.0013024465276604616,-0.134608,-32.153995
11.185,2.0,1.0,1.0,33.4,34.2,34.2,4.0,2.8,2.6775,0.46336674132433275,-0.02520838310180881,0.8684424223383672,0.001068895284612882,-0.137206,-31.961299
11.185,2.0,1.0,1.0,33.4,34.2,34.2,4.0,2.8,2.68,0.45462245820662167,-0.025790900305386822,0.8727079666225784,0.0008220494789328729,-0.139897,-31.76626
11.185,2.0,1.0,1.0,33.4,34.2,34.2,4.0,2.8,2.6825,0.44576010491934653,-0.026391368716554033,0.8769133161238936,0.0005611076717195934,-0.142687,-31.568799
11.185,2.0,1.0,1.0,33.4,34.2,34.2,4.0,2.8,2.685,0.4367778213556671,-0.02701059823092403,0.8810560230255223,0.0002852075864593804,-0.14558,-31.368832
11.185,2.0,1.0,1.0,33.4,34.2,34.2,4.0,2.8,2.6875,0.427673691335744,-0.0276494482387401,0.885133525481123,-6.5796174166418e-06,-0.148583,-31.16627
11.185,2.0,1.0,1.0,33.4,34.2,34.2,4.0,2.8,2.69,0.41844573918934774,-0.02830883137125689,0.8891431397980057,-0.0003152557176517254,-0.151702,-30.961023
11.185,2.0,1.0,1.0,33.4,34.2,34.2,4.0,2.8,2.6925,0.40909192602924044,-0.02898971757583468,0.8930820518407638,-0.0006419025342467882,-0.154944,-30.752992
11.185,2.0,1.0,1.0,33.4,34.2,34.2,4.0,2.8,2.695,0.39961014568411873,-0.029693138551185425,0.8969473075549155,-0.0009876898646762567,-0.158316,-30.542075
11.185,2.0,1.0,1.0,33.4,34.2,34.2,4.0,2.8,2.6975,0.3899982202567412,-0.030420192577196623,0.9007358024948985,-0.0013538843624850297,-0.161827,-30.328167
11.185,2.0,1.0,1.0,33.4,34.2,34.2,4.0,2.8,2.7,0.3802538952696351,-0.03117204977693955,0.9044442702227872,-0.0017418594902049959,-0.165485,-30.111153
11.185,2.0,1.0,1.0,33.4,34.2,34.2,4.0,2.8,2.7025,0.3703748343572023,-0.03194995785184369,0.9080692694230429,-0.0021531066983430107,-0.1693,-29.890916
11.185,2.0,1.0,1.0,33.4,34.2,34.2,4.0,2.8,2.705,0.36035861345940157,-0.032755248334530425,0.9116071695537287,-0.0025892480067346447,-0.173282,-29.667329
11.185,2.0,1.0,1.0,33.4,34.2,34.2,4.0,2.8,2.7075,0.3502027144683545,-0.03358934340739801,0.9150541348252306,-0.0030520501935834923,-0.177441,-29.440261
11.185,2.0,1.0,1.0,33.4,34.2,34.2,4.0,2.8,2.71,0.3399045182754417,-0.03445376333862527,0.9184061062626668,-0.00354344083191873,-0.181792,-29.209571
11.185,2.0,1.0,1.0,33.4,34.2,34.2,4.0,2.8,2.7125,0.3294612971627283,-0.03535013459067495,0.921658781566742,-0.004065526454125909,-0.186346,-28.975112
11.185,2.0,1.0,1.0,33.4,34.2,34.2,4.0,2.8,2.715,0.31887020647924896,-0.03628019865940035,0.9248075924383856,-0.0046206131740053995,-0.19112,-28.736728
11.185,2.0,1.0,1.0,33.4,34.2,34.2,4.0,2.8,2.7175,0.3081282755399437,-0.037245821704185354,0.9278476789734426,-0.005211230154178258,-0.196128,-28.494252
11.185,2.0,1.0,1.0,33.4,34.2,34.2,4.0,2.8,2.72,0.29723239768345194,-0.03824900503072385,0.9307738606627907,-0.00584015637668206,-0.20139,-28.24751
11.185,2.0,1.0,1.0,33.4,34.2,34.2,4.0,2.8,2.7225,0.2861793194250106,-0.03929189648744723,0.9335806034479907,-0.006510451258866597,-0.206924,-27.996313
11.185,2.0,1.0,1.0,33.4,34.2,34.2,4.0,2.8,2.725,0.27496562864344204,-0.04037680283333345,0.9362619821795912,-0.007225489758433206,-0.212752,-27.740465
11.185,2.0,1.0,1.0,33.4,34.2,34.2,4.0,2.8,2.7275,0.2635877417476202,-0.04150620312766116,0.9388116377005258,-0.007989002734694097,-0.218899,-27.479753
11.185,2.0,1.0,1.0,33.4,34.2,34.2,4.0,2.8,2.73,0.25204188977991004,-0.042682763179444104,0.941222727625464,-0.008805123482887915,-0.225392,-27.213953
11.185,2.0,1.0,1.0,33.4,34.2,34.2,4.0,2.8,2.7325,0.24032410343396923,-0.04390935107339815,0.9434878697021758,-0.009678441541028484,-0.23226,-26.942826
11.185,2.0,1.0,1.0,33.4,34.2,34.2,4.0,2.8,2.735,0.22843019699563116,-0.04518905375695819,0.9455990764147892,-0.010614065092265508,-0.239537,-26.666114
11.185,2.0,1.0,1.0,33.4,34.2,34.2,4.0,2.8,2.7375,0.21635575126284035,-0.046525194624369534,0.9475476792110599,-0.011617693560229176,-0.247261,-26.383544
11.185,2.0,1.0,1.0,33.4,34.2,34.2,4.0,2.8,2.74,0.20409609557053876,-0.04792135196261099,0.9493242403933837,-0.012695702333148883,-0.255474,-26.094823
11.185,2.0,1.0,1.0,33.4,34.2,34.2,4.0,2.8,2.7425,0.19164628914814355,-0.04938137802061185,0.9509184502897556,-0.013855241971053802,-0.264223,-25.799636
11.185,2.0,1.0,1.0,33.4,34.2,34.2,4.0,2.8,2.745,0.17900110218394574,-0.050909418314868345,0.9523190067949651,-0.01510435476996722,-0.273562,-25.497647
11.185,2.0,1.0,1.0,33.4,34.2,34.2,4.0,2.8,2.7475,0.16615499718072582,-0.052509930572755215,0.9535134737169527,-0.016452112204476167,-0.283552,-25.188492
11.185,2.0,1.0,1.0,33.4,34.2,34.2,4.0,2.8,2.75,0.153102111486285,-0.0541877024135176,0.954488113543589,-0.0179087775797532,-0.294264,-24.871781
11.185,2.0,1.0,1.0,33.4,34.2,34.2,4.0,2.8,2.7525,0.1398362423086024,-0.05594786643902033,0.9552276892163177,-0.019485999240220427,-0.305775,-24.547092
11.185,2.0,1.0,1.0,33.4,34.2,34.2,4.0,2.8,2.755,0.12635083613115253,-0.05779591079881748,0.9557152282015028,-0.021197040961460904,-0.318178,-24.213972
11.185,2.0,1.0,1.0,33.4,34.2,34.2,4.0,2.8,2.7575,0.11263898530601804,-0.059737682430765236,0.9559317405135155,-0.02305705776792978,-0.331578,-23.87193
11.185,2.0,1.0,1.0,33.4,34.2,34.2,4.0,2.8,2.76,0.09869343583162367,-0.061779378949090115,0.9558558802701163,-0.02508342746556601,-0.346097,-23.520432
11.185,2.0,1.0,1.0,33.4,34.2,34.2,4.0,2.8,2.7625,0.08450661207885811,-0.06392752339646077,0.9554635377279798,-0.02729615077604511,-0.361877,-23.158903
11.185,2.0,1.0,1.0,33.4,34.2,34.2,4.0,2.8,2.765,0.07007066674983473,-0.06618891356102581,0.9547273453985586,-0.029718336261245593,-0.379082,-22.786716
11.185,2.0,1.0,1.0,33.4,34.2,34.2,4.0,2.8,2.7675,0.05537756798402954,-0.06857053393900416,0.9536160775857964,-0.03237679042487348,-0.397908,-22.40319
11.185,2.0,1.0,1.0,33.4,34.2,34.2,4.0,2.8,2.77,0.040419240781063875,-0.07107941318785138,0.952093917275921,-0.03530273870982422,-0.418584,-22.007583
11.185,2.0,1.0,1.0,33.4,34.2,34.2,4.0,2.8,2.7725,0.02518778755430085,-0.07372240230335705,0.9501195574574095,-0.03853270985620188,-0.441384,-21.599088
11.185,2.0,1.0,1.0,33.4,34.2,34.2,4.0,2.8,2.775,0.009675823815204128,-0.0765058376246961,0.9476450953330599,-0.04210962456020578,-0.466633,-21.176825
11.185,2.0,1.0,1.0,33.4,34.2,34.2,4.0,2.8,2.7775,-0.006123018547458988,-0.07943503640124881,0.9446146671863597,-0.04608413988572003,-0.494724,-20.739832
11.185,2.0,1.0,1.0,33.4,34.2,34.2,4.0,2.8,2.78,-0.02221334354848487,-0.08251354842855836,0.9409627586624087,-0.05051631363125034,-0.526132,-20.287064
11.185,2.0,1.0,1.0,33.4,34.2,34.2,4.0,2.8,2.7825,-0.03859688577918383,-0.08574205119071975,0.9366121100176025,-0.055477667726491674,-0.561436,-19.817377
11.185,2.0,1.0,1.0,33.4,34.2,34.2,4.0,2.8,2.785,-0.05527087988229132,-0.0891167219365681,0.931471119352112,-0.061053745831230286,-0.601348,-19.329533
11.185,2.0,1.0,1.0,33.4,34.2,34.2,4.0,2.8,2.7875,-0.07222565529461027,-0.09262683884509801,0.9254306315356531,-0.06734727503812082,-0.64675,-18.822189
11.185,2.0,1.0,1.0,33.4,34.2,34.2,4.0,2.8,2.79,-0.08944108289719074,-0.09625124070590342,0.9183599926048174,-0.07448204878727185,-0.698741,-18.293899
11.185,2.0,1.0,1.0,33.4,34.2,34.2,4.0,2.8,2.7925,-0.10688131286209372,-0.09995308898007679,0.9101022622398611,-0.08260763440492498,-0.758708,-17.743124
11.185,2.0,1.0,1.0,33.4,34.2,34.2,4.0,2.8,2.795,-0.12448696025773236,-0.1036720963037447,0.9004685384123854,-0.09190494628091081,-0.828409,-17.168249
11.185,2.0,1.0,1.0,33.4,34.2,34.2,4.0,2.8,2.7975,-0.14216347219588915,-0.10731296748184417,0.8892315148977038,-0.10259255842556667,-0.910096,-16.567627
11.185,2.0,1.0,1.0,33.4,34.2,34.2,4.0,2.8,2.8,-0.15976379098876597,-0.11072818741370222,0.8761187759907982,-0.11493324681625622,-1.006674,-15.939645
11.185,2.0,1.0,1.0,33.4,34.2,34.2,4.0,2.8,2.8025,-0.17706255820044553,-0.11369243308623053,0.8608071507820498,-0.12923943696447676,-1.121914,-15.282859
11.185,2.0,1.0,1.0,33.4,34.2,34.2,4.0,2.8,2.805,-0.19371798855725578,-0.11586478978677739,0.8429211123782395,-0.1458745787008984,-1.260736,-14.596199
11.185,2.0,1.0,1.0,33.4,34.2,34.2,4.0,2.8,2.8075,-0.2092164045096454,-0.11673384085850375,0.8220414573945615,-0.16524424444511546,-1.429549,-13.879323
11.185,2.0,1.0,1.0,33.4,34.2,34.2,4.0,2.8,2.81,-0.22279413085372884,-0.11554044293826841,0.7977365687413951,-0.18776473429350343,-1.636627,-13.133174
11.185,2.0,1.0,1.0,33.4,34.2,34.2,4.0,2.8,2.8125,-0.233334514304786,-0.11117608998841,0.769639129581932,-0.213786520289984,-1.892371,-12.360871
11.185,2.0,1.0,1.0,33.4,34.2,34.2,4.0,2.8,2.815,-0.23925040596102512,-0.1020673082113023,0.7376072716049762,-0.24343396133133297,-2.20905,-11.569054
11.185,2.0,1.0,1.0,33.4,34.2,34.2,4.0,2.8,2.8175,-0.23839714264116052,-0.08609098860072345,0.702026699366742,-0.2763055023573884,-2.598943,-10.769821
11.185,2.0,1.0,1.0,33.4,34.2,34.2,4.0,2.8,2.82,-0.22813640920831338,-0.06064019132635415,0.6643071321022495,-0.3109821252476743,-3.068447,-9.98322
11.185,2.0,1.0,1.0,33.4,34.2,34.2,4.0,2.8,2.8225,-0.20579019803096005,-0.023077236542942595,0.6275384474209628,-0.34437955628455125,-3.6036,-9.239795
11.185,2.0,1.0,1.0,33.4,34.2,34.2,4.0,2.8,2.825,-0.16979348923010149,0.028121754489921453,0.5969912305742652,-0.3712581449180245,-4.142818,-8.581633
11.185,2.0,1.0,1.0,33.4,34.2,34.2,4.0,2.8,2.8275,-0.12156236297113077,0.0915182375433896,0.5796763565977062,-0.3846685635187682,-4.549378,-8.059146
