1,w,sub_t,h,l1,l2,l3,g1,g2,Freq,S11_re,S21_re,S11_img,S21_img,S11_dB,S21_dB
11.185,2.0,1.0,1.0,33.4,33.8,33.8,3.6,3.5,2.5,0.860067613483901,-0.00542822433463862,0.498319750247007,0.0040361554587825,-0.05226,-43.395503
11.185,2.0,1.0,1.0,33.4,33.8,33.8,3.6,3.5,2.5025,0.8567791246802124,-0.0055341172956086685,0.5038486981468343,0.004048986749631528,-0.052721,-43.277105
11.185,2.0,1.0,1.0,33.4,33.8,33.8,3.6,3.5,2.505,0.8534413500917736,-0.005641776691317434,0.5093772896878455,0.004061200593038826,-0.053189,-43.158462
11.185,2.0,1.0,1.0,33.4,33.8,33.8,3.6,3.5,2.5075,0.850053824950982,-0.005751235552315506,0.5149053088518658,0.004072773781842364,-0.053666,-43.039566
11.185,2.0,1.0,1.0,33.4,33.8,33.8,3.6,3.5,2.51,0.8466160772773881,-0.005862527704397231,0.5204325332694921,0.0040836823080171,-0.05415,-42.920409
11.185,2.0,1.0,1.0,33.4,33.8,33.8,3.6,3.5,2.5125,0.843127627765146,-0.005975687792022032,0.5259587340176207,0.0040939013316356595,-0.054643,-42.800983
11.185,2.0,1.0,1.0,33.4,33.8,33.8,3.6,3.5,2.515,0.8395879896689942,-0.006090751302563229,0.5314836754105099,0.004103405148466873,-0.055144,-42.681278
11.185,2.0,1.0,1.0,33.4,33.8,33.8,3.6,3.5,2.5175,0.8359966686887672,-0.006207754591419042,0.5370071147841375,0.004112167156144479,-0.055653,-42.561287
11.185,2.0,1.0,1.0,33.4,33.8,33.8,3.6,3.5,2.52,0.8323531628524345,-0.0063267349080224355,0.5425288022736402,0.0041201598188335,-0.056172,-42.441001
11.185,2.0,1.0,1.0,33.4,33.8,33.8,3.6,3.5,2.5225,0.8286569623976737,-0.006447730422787874,0.5480484805835668,0.004127354630318319,-0.056699,-42.32041
11.185,2.0,1.0,1.0,33.4,33.8,33.8,3.6,3.5,2.525,0.8249075496519723,-0.006570780255035488,0.5535658847507181,0.004133722075431925,-0.057235,-42.199506
11.185,2.0,1.0,1.0,33.4,33.8,33.8,3.6,3.5,2.5275,0.8211043989112605,-0.006695924501934797,0.5590807418993002,0.0041392315897407815,-0.05778,-42.07828
11.185,2.0,1.0,1.0,33.4,33.8,33.8,3.6,3.5,2.53,0.8172469763170879,-0.0068232042685122726,0.5645927709881188,0.0041438515173955436,-0.058335,-41.956723
11.185,2.0,1.0,1.0,33.4,33.8,33.8,3.6,3.5,2.5325,0.8133347397323397,-0.006952661698769464,0.5701016825495332,0.004147549067051288,-0.0589,-41.834825
11.185,2.0,1.0,1.0,33.4,33.8,33.8,3.6,3.5,2.535,0.8093671386155016,-0.007084340007960743,0.5756071784198813,0.004150290265756746,-0.059475,-41.712577
11.185,2.0,1.0,1.0,33.4,33.8,33.8,3.6,3.5,2.5375,0.8053436138934894,-0.0072182835160819955,0.5811089514610567,0.004152039910704416,-0.06006,-41.58997
11.185,2.0,1.0,1.0,33.4,33.8,33.8,3.6,3.5,2.54,0.8012635978330408,-0.007354537682624658,0.5866066852729314,0.004152761518728409,-0.060655,-41.466994
11.185,2.0,1.0,1.0,33.4,33.8,33.8,3.6,3.5,2.5425,0.7971265139106919,-0.007493149142652032,0.5921000538962873,0.004152417273428623,-0.061261,-41.34364
11.185,2.0,1.0,1.0,33.4,33.8,33.8,3.6,3.5,2.545,0.7929317766813424,-0.007634165744257879,0.5975887215059106,0.004150967969793464,-0.061878,-41.219897
11.185,2.0,1.0,1.0,33.4,33.8,33.8,3.6,3.5,2.5475,0.788678791645436,-0.007777636587470406,0.6030723420934825,0.004148372956184764,-0.062506,-41.095755
11.185,2.0,1.0,1.0,33.4,33.8,33.8,3.6,3.5,2.55,0.7843669551147577,-0.00792361206466842,0.6085505591399112,0.004144590073540546,-0.063146,-40.971204
11.185,2.0,1.0,1.0,33.4,33.8,33.8,3.6,3.5,2.5525,0.7799956540768854,-0.008072143902579276,0.6140230052766804,0.004139575591641738,-0.063797,-40.846234
11.185,2.0,1.0,1.0,33.4,33.8,33.8,3.6,3.5,2.555,0.7755642660583003,-0.008223285205932906,0.619489301935836,0.0041332841422795025,-0.064461,-40.720835
11.185,2.0,1.0,1.0,33.4,33.8,33.8,3.6,3.5,2.5575,0.7710721589861861,-0.00837709050284965,0.6249490589881709,0.0041256686491497035,-0.065137,-40.594995
11.185,2.0,1.0,1.0,33.4,33.8,33.8,3.6,3.5,2.56,0.766518691048945,-0.008533615792043814,0.6304018743691616,0.004116680254289109,-0.065825,-40.468704
11.185,2.0,1.0,1.0,33.4,33.8,33.8,3.6,3.5,2.5625,0.7619032105554531,-0.008692918591929735,0.6358473336921933,0.004106268240856613,-0.066527,-40.341952
11.185,2.0,1.0,1.0,33.4,33.8,33.8,3.6,3.5,2.565,0.7572250557930833,-0.008855057991721768,0.6412850098485916,0.004094379952050026,-0.067242,-40.214726
11.185,2.0,1.0,1.0,33.4,33.8,33.8,3.6,3.5,2.5675,0.752483554884537,-0.009020094704624313,0.6467144625939449,0.004080960705934159,-0.06797,-40.087015
11.185,2.0,1.0,1.0,33.4,33.8,33.8,3.6,3.5,2.57,0.7476780256435086,-0.009188091123214115,0.6521352381201906,0.00406595370594233,-0.068713,-39.958808
11.185,2.0,1.0,1.0,33.4,33.8,33.8,3.6,3.5,2.5725,0.7428077754292237,-0.009359111377122146,0.657546868612909,0.004049299946796928,-0.06947,-39.830093
11.185,2.0,1.0,1.0,33.4,33.8,33.8,3.6,3.5,2.575,0.737872100999892,-0.009533221393128845,0.6629488717932422,0.004030938115577168,-0.070241,-39.700858
11.185,2.0,1.0,1.0,33.4,33.8,33.8,3.6,3.5,2.5775,0.7328702883651126,-0.009710488957792668,0.668340750443827,0.0040108044876442095,-0.071028,-39.57109
11.185,2.0,1.0,1.0,33.4,33.8,33.8,3.6,3.5,2.58,0.7278016126372826,-0.009890983782739044,0.6737219919180966,0.003988832817114076,-0.07183,-39.440778
11.185,2.0,1.0,1.0,33.4,33.8,33.8,3.6,3.5,2.5825,0.7226653378820486,-0.010074777572743977,0.6790920676322953,0.003964954221546437,-0.072648,-39.309909
11.185,2.0,1.0,1.0,33.4,33.8,33.8,3.6,3.5,2.585,0.7174607169678555,-0.010261944096754386,0.684450432539483,0.003939097060495386,-0.073483,-39.178469
11.185,2.0,1.0,1.0,33.4,33.8,33.8,3.6,3.5,2.5875,0.7121869914146427,-0.010452559261995533,0.6897965245848099,0.003911186807542448,-0.074334,-39.046445
11.185,2.0,1.0,1.0,33.4,33.8,33.8,3.6,3.5,2.59,0.7068433912417452,-0.010646701191324565,0.6951297641412659,0.0038811459154056965,-0.075203,-38.913824
11.185,2.0,1.0,1.0,33.4,33.8,33.8,3.6,3.5,2.5925,0.7014291348150499,-0.010844450303998965,0.7004495534251054,0.0038488936736896513,-0.076089,-38.780593
11.185,2.0,1.0,1.0,33.4,33.8,33.8,3.6,3.5,2.595,0.6959434286934819,-0.011045889400037841,0.7057552758900701,0.0038143460588084916,-0.076994,-38.646736
11.185,2.0,1.0,1.0,33.4,33.8,33.8,3.6,3.5,2.5975,0.6903854674748647,-0.011251103748365859,0.7110462955995235,0.0037774155755825652,-0.077917,-38.51224
11.185,2.0,1.0,1.0,33.4,33.8,33.8,3.6,3.5,2.6,0.6847544336412299,-0.0114601811789398,0.7163219565755307,0.0037380110899696887,-0.07886,-38.37709
11.185,2.0,1.0,1.0,33.4,33.8,33.8,3.6,3.5,2.6025,0.6790494974036483,-0.011673212179070209,0.7215815821238813,0.003696037652353802,-0.079822,-38.241272
11.185,2.0,1.0,1.0,33.4,33.8,33.8,3.6,3.5,2.605,0.6732698165466359,-0.011890289994163626,0.7268244741339991,0.0036513963107700307,-0.080805,-38.104769
11.185,2.0,1.0,1.0,33.4,33.8,33.8,3.6,3.5,2.6075,0.6674145362722225,-0.012111510733124319,0.7320499123526097,0.00360398391339812,-0.081808,-37.967566
11.185,2.0,1.0,1.0,33.4,33.8,33.8,3.6,3.5,2.61,0.6614827890437482,-0.012336973478668842,0.7372571536299894,0.0035536928996057235,-0.082834,-37.829647
11.185,2.0,1.0,1.0,33.4,33.8,33.8,3.6,3.5,2.6125,0.6554736944294659,-0.012566780402822747,0.7424454311375329,0.0035004110787667055,-0.083881,-37.690995
11.185,2.0,1.0,1.0,33.4,33.8,33.8,3.6,3.5,2.615,0.6493863589460166,-0.012801036887884965,0.747613953555324,0.003444021396020509,-0.084951,-37.551595
11.185,2.0,1.0,1.0,33.4,33.8,33.8,3.6,3.5,2.6175,0.6432198759018756,-0.013039851653162893,0.7527619042282926,0.0033844016840725373,-0.086045,-37.411427
11.185,2.0,1.0,1.0,33.4,33.8,33.8,3.6,3.5,2.62,0.6369733252408254,-0.01328333688780022,0.7578884402894648,0.0033214244000642043,-0.087164,-37.270476
11.185,2.0,1.0,1.0,33.4,33.8,33.8,3.6,3.5,2.6225,0.6306457733855485,-0.013531608390039716,0.7629926917487325,0.003254956346463915,-0.088307,-37.128722
11.185,2.0,1.0,1.0,33.4,33.8,33.8,3.6,3.5,2.625,0.624236273081417,-0.0137847857132835,0.768073760545438,0.00318485837484522,-0.089476,-36.986148
11.185,2.0,1.0,1.0,33.4,33.8,33.8,3.6,3.5,2.6275,0.6177438632405525,-0.014042992319337503,0.7731307195629991,0.003110985071326114,-0.090671,-36.842734
11.185,2.0,1.0,1.0,33.4,33.8,33.8,3.6,3.5,2.63,0.6111675687862377,-0.01430635573924959,0.7781626116036494,0.0030331844223423113,-0.091894,-36.69846
11.185,2.0,1.0,1.0,33.4,33.8,33.8,3.6,3.5,2.6325,0.6045064004977542,-0.01457500774217717,0.7831684483212662,0.0029512974593168435,-0.093146,-36.553307
11.185,2.0,1.0,1.0,33.4,33.8,33.8,3.6,3.5,2.635,0.5977593548557223,-0.014849084512747426,0.7881472091101023,0.0028651578806682303,-0.094426,-36.407254
11.185,2.0,1.0,1.0,33.4,33.8,33.8,3.6,3.5,2.6375,0.5909254138880192,-0.015128726837401671,0.7930978399470966,0.002774591649465905,-0.095737,-36.26028
11.185,2.0,1.0,1.0,33.4,33.8,33.8,3.6,3.5,2.64,0.5840035450163229,-0.015414080300247525,0.7980192521852849,0.002679416564898106,-0.097078,-36.112362
11.185,2.0,1.0,1.0,33.4,33.8,33.8,3.6,3.5,2.6425,0.576992700903373,-0.01570529548897371,0.8029103212956289,0.0025794418055571713,-0.098452,-35.96348
11.185,2.0,1.0,1.0,33.4,33.8,33.8,3.6,3.5,2.645,0.5698918193009841,-0.0160025282114182,0.8077698855544154,0.0024744674423735694,-0.099859,-35.813609
11.185,2.0,1.0,1.0,33.4,33.8,33.8,3.6,3.5,2.6475,0.5626998228988795,-0.016305939723416738,0.8125967446731436,0.0023642839188378817,-0.101301,-35.662725
11.185,2.0,1.0,1.0,33.4,33.8,33.8,3.6,3.5,2.65,0.555415619174369,-0.016615696968598163,0.8173896583676122,0.0022486714959384303,-0.102778,-35.510806
11.185,2.0,1.0,1.0,33.4,33.8,33.8,3.6,3.5,2.6525,0.5480381002429364,-0.016931972830832965,0.822147344862623,0.0021273996590111077,-0.104292,-35.357825
11.185,2.0,1.0,1.0,33.4,33.8,33.8,3.6,3.5,2.655,0.540566142709737,-0.017254946400086887,0.8268684793284948,0.002000226483441017,-0.105843,-35.203756
11.185,2.0,1.0,1.0,33.4,33.8,33.8,3.6,3.5,2.6575,0.5329986075220355,-0.017584803252475256,0.8315516922452241,0.0018668979558737638,-0.107435,-35.048574
11.185,2.0,1.0,1.0,33.4,33.8,33.8,3.6,3.5,2.66,0.5253343398225839,-0.01792173574536309,0.8361955676898295,0.001727147247282444,-0.109067,-34.89225
11.185,2.0,1.0,1.0,33.4,33.8,33.8,3.6,3.5,2.6625,0.5175721688039423,-0.01826594332840559,0.8407986415420236,0.0015806939338918655,-0.110741,-34.734756
11.185,2.0,1.0,1.0,33.4,33.8,33.8,3.6,3.5,2.665,0.5097109075637015,-0.018617632871477167,0.8453593996029711,0.0014272431615799258,-0.112459,-34.576062
11.185,2.0,1.0,1.0,33.4,33.8,33.8,3.6,3.5,2.6675,0.5017493529605986,-0.0189770190104908,0.8498762756214169,0.001266484748955267,-0.114223,-34.41614
11.185,2.0,1.0,1.0,33.4,33.8,33.8,3.6,3.5,2.67,0.49368628547145327,-0.019344324512167537,0.8543476492209927,0.0010980922238403457,-0.116034,-34.254957
11.185,2.0,1.0,1.0,33.4,33.8,33.8,3.6,3.5,2.6725,0.4855204690488685,-0.019719780658873663,0.8587718437219549,0.0009217217873713817,-0.117893,-34.092481
11.185,2.0,1.0,1.0,33.4,33.8,33.8,3.6,3.5,2.675,0.47725065097961605,-0.020103627654702978,0.8631471238499876,0.0007370111993482394,-0.119804,-33.928678
11.185,2.0,1.0,1.0,33.4,33.8,33.8,3.6,3.5,2.6775,0.46887556174360584,-0.02049611505404282,0.8674716933240428,0.0005435785778257898,-0.121767,-33.763515
11.185,2.0,1.0,1.0,33.4,33.8,33.8,3.6,3.5,2.68,0.4603939148733284,-0.020897502213923475,0.8717436923144315,0.00034102110522297877,-0.123786,-33.596956
11.185,2.0,1.0,1.0,33.4,33.8,33.8,3.6,3.5,2.6825,0.4518044068136525,-0.02130805877151022,0.8759611947615429,0.0001289136324283384,-0.125861,-33.428963
11.185,2.0,1.0,1.0,33.4,33.8,33.8,3.6,3.5,2.685,0.44310571678183547,-0.021728065148158008,0.8801222055446445,-9.319282850871724e-05,-0.127997,-33.259499
11.185,2.0,1.0,1.0,33.4,33.8,33.8,3.6,3.5,2.6875,0.43429650662761,-0.0221578130815028,0.884224657489173,-0.000325772733507532,-0.130194,-33.088523
11.185,2.0,1.0,1.0,33.4,33.8,33.8,3.6,3.5,2.69,0.4253754206932175,-0.02259760618711565,0.8882664081997591,-0.0005693277689253598,-0.132455,-32.915995
11.185,2.0,1.0,1.0,33.4,33.8,33.8,3.6,3.5,2.6925,0.4163410856732333,-0.023047760551290992,0.8922452367049529,-0.0008243887601334494,-0.134784,-32.741873
11.185,2.0,1.0,1.0,33.4,33.8,33.8,3.6,3.5,2.695,0.4071921104741017,-0.02350860535657287,0.8961588398981316,-0.0010915177403653352,-0.137183,-32.56611
11.185,2.0,1.0,1.0,33.4,33.8,33.8,3.6,3.5,2.6975,0.397927086073264,-0.023980483541648143,0.900004828757469,-0.0013713101955773778,-0.139656,-32.388663
11.185,2.0,1.0,1.0,33.4,33.8,33.8,3.6,3.5,2.7,0.38854458537787573,-0.02446375249723722,0.9037807243259889,-0.001664397502827071,-0.142204,-32.209482
11.185,2.0,1.0,1.0,33.4,33.8,33.8,3.6,3.5,2.7025,0.37904316308313474,-0.02495878479959738,0.9074839534306811,-0.001971449581670539,-0.144833,-32.028519
11.185,2.0,1.0,1.0,33.4,33.8,33.8,3.6,3.5,2.705,0.36942135553037136,-0.025465968983205738,0.9111118441173127,-0.0022931777803253815,-0.147546,-31.845722
11.185,2.0,1.0,1.0,33.4,33.8,33.8,3.6,3.5,2.7075,0.35967768056517513,-0.025985710354106024,0.9146616207749619,-0.002630338020886063,-0.150346,-31.661037
11.185,2.0,1.0,1.0,33.4,33.8,33.8,3.6,3.5,2.71,0.3498106373960321,-0.02651843184527147,0.9181303989213183,-0.002983734230750103,-0.153238,-31.474408
11.185,2.0,1.0,1.0,33.4,33.8,33.8,3.6,3.5,2.7125,0.3398187064541766,-0.027064574915147046,0.921515179616441,-0.0033542220906697447,-0.156226,-31.285777
11.185,2.0,1.0,1.0,33.4,33.8,33.8,3.6,3.5,2.715,0.329700349255694,-0.0276246004902683,0.9248128434688593,-0.0037427131335350584,-0.159315,-31.095083
11.185,2.0,1.0,1.0,33.4,33.8,33.8,3.6,3.5,2.7175,0.31945400826731424,-0.028198989952495174,0.928020144193559,-0.004150179232193403,-0.16251,-30.902263
11.185,2.0,1.0,1.0,33.4,33.8,33.8,3.6,3.5,2.72,0.3090781067778807,-0.028788246170923133,0.9311337016764851,-0.004577657519387099,-0.165816,-30.707251
11.185,2.0,1.0,1.0,33.4,33.8,33.8,3.6,3.5,2.7225,0.29857104877811713,-0.02939289457791216,0.9341499944945786,-0.0050262557883398624,-0.169239,-30.509979
11.185,2.0,1.0,1.0,33.4,33.8,33.8,3.6,3.5,2.725,0.2879312188522289,-0.030013484287866696,0.9370653518339478,-0.005497158428742226,-0.172785,-30.310373
11.185,2.0,1.0,1.0,33.4,33.8,33.8,3.6,3.5,2.7275,0.2771569820858808,-0.030650589256371367,0.9398759447414667,-0.0059916329600061356,-0.176461,-30.108358
11.185,2.0,1.0,1.0,33.4,33.8,33.8,3.6,3.5,2.73,0.26624668399653006,-0.03130480947596826,0.9425777766366837,-0.006511037231811569,-0.180274,-29.903857
11.185,2.0,1.0,1.0,33.4,33.8,33.8,3.6,3.5,2.7325,0.2551986504937328,-0.0319767722031991,0.9451666730013104,-0.007056827371332769,-0.184231,-29.696785
11.185,2.0,1.0,1.0,33.4,33.8,33.8,3.6,3.5,2.735,0.24401118787924653,-0.03266713320942835,0.9476382701524761,-0.00763056656729769,-0.188341,-29.487058
11.185,2.0,1.0,1.0,33.4,33.8,33.8,3.6,3.5,2.7375,0.23268258289938648,-0.03337657804531842,0.949988002993199,-0.008233934793438532,-0.192613,-29.274584
11.185,2.0,1.0,1.0,33.4,33.8,33.8,3.6,3.5,2.74,0.22121110286549536,-0.03410582330549801,0.9522110916188021,-0.008868739588208305,-0.197055,-29.059268
11.185,2.0,1.0,1.0,33.4,33.8,33.8,3.6,3.5,2.7425,0.20959499586255265,-0.0348556178757962,0.9543025266410083,-0.009536928024197186,-0.201679,-28.84101
11.185,2.0,1.0,1.0,33.4,33.8,33.8,3.6,3.5,2.745,0.19783249107123344,-0.035626744140185865,0.9562570530717385,-0.010240600019862324,-0.206496,-28.619707
11.185,2.0,1.0,1.0,33.4,33.8,33.8,3.6,3.5,2.7475,0.18592179923527935,-0.036420019118035656,0.9580691525857943,-0.010982023168456966,-0.211517,-28.395247
11.185,2.0,1.0,1.0,33.4,33.8,33.8,3.6,3.5,2.75,0.173861113314267,-0.0372362954940758,0.959733023955009,-0.0117636492849471,-0.216756,-28.167515
11.185,2.0,1.0,1.0,33.4,33.8,33.8,3.6,3.5,2.7525,0.161648609372145,-0.03807646249322026,0.9612425614154971,-0.012588132901892266,-0.222227,-27.936389
11.185,2.0,1.0,1.0,33.4,33.8,33.8,3.6,3.5,2.755,0.14928244776480545,-0.03894144653952825,0.9625913306934588,-0.013458351980526775,-0.227945,-27.70174
11.185,2.0,1.0,1.0,33.4,33.8,33.8,3.6,3.5,2.7575,0.1367607747060717,-0.03983221162246501,0.9637725423727111,-0.014377431144536846,-0.233928,-27.463433
11.185,2.0,1.0,1.0,33.4,33.8,33.8,3.6,3.5,2.76,0.12408172431183341,-0.04074975927336976,0.9647790222375074,-0.015348767792410052,-0.240194,-27.221325
11.185,2.0,1.0,1.0,33.4,33.8,33.8,3.6,3.5,2.7625,0.11124342124749746,-0.04169512802958849,0.9656031781659754,-0.016376061501087197,-0.246764,-26.975264
11.185,2.0,1.0,1.0,33.4,33.8,33.8,3.6,3.5,2.765,0.09824398413611395,-0.042669392231668844,0.9662369630809102,-0.017463347200584067,-0.253659,-26.725092
11.185,2.0,1.0,1.0,33.4,33.8,33.8,3.6,3.5,2.7675,0.08508152992505753,-0.04367365995857071,0.9666718333837849,-0.018615032678229497,-0.260905,-26.470638
11.185,2.0,1.0,1.0,33.4,33.8,33.8,3.6,3.5,2.77,0.07175417946043956,-0.044709069854716774,0.9668987022022442,-0.01983594106453605,-0.268529,-26.211725
11.185,2.0,1.0,1.0,33.4,33.8,33.8,3.6,3.5,2.7725,0.058260064583462404,-0.04577678653791106,0.966907886668121,-0.021131359063313624,-0.276559,-25.948162
11.185,2.0,1.0,1.0,33.4,33.8,33.8,3.6,3.5,2.775,0.04459733714554789,-0.04687799419485278,0.9666890483086978,-0.022507091819888143,-0.285031,-25.679748
11.185,2.0,1.0,1.0,33.4,33.8,33.8,3.6,3.5,2.7775,0.030764180444386804,-0.04801388786613832,0.9662311254742617,-0.023969525477328994,-0.293979,-25.406269
11.185,2.0,1.0,1.0,33.4,33.8,33.8,3.6,3.5,2.78,0.016758823717603157,-0.04918566178874172,0.9655222565348907,-0.02552569865640499,-0.303446,-25.127498
11.185,2.0,1.0,1.0,33.4,33.8,33.8,3.6,3.5,2.7825,0.002579560503277502,-0.05039449399238887,0.9645496923527092,-0.027183384316595505,-0.313477,-24.843193
11.185,2.0,1.0,1.0,33.4,33.8,33.8,3.6,3.5,2.785,-0.011775228101681585,-0.05164152612571189,0.9632996962651919,-0.02895118372009918,-0.324123,-24.553097
11.185,2.0,1.0,1.0,33.4,33.8,33.8,3.6,3.5,2.7875,-0.026307043967971382,-0.052927837203610405,0.9617574294916105,-0.03083863453703281,-0.335441,-24.256935
11.185,2.0,1.0,1.0,33.4,33.8,33.8,3.6,3.5,2.79,-0.04101723455719994,-0.05425440959904741,0.9599068194879238,-0.03285633550818739,-0.347496,-23.954414
11.185,2.0,1.0,1.0,33.4,33.8,33.8,3.6,3.5,2.7925,-0.05590694547218071,-0.05562208512408167,0.9577304083128623,-0.03501609053387805,-0.360361,-23.64522
11.185,2.0,1.0,1.0,33.4,33.8,33.8,3.6,3.5,2.795,-0.07097706013565669,-0.05703150842088649,0.9552091775152635,-0.03733107559767909,-0.374118,-23.329019
11.185,2.0,1.0,1.0,33.4,33.8,33.8,3.6,3.5,2.7975,-0.0862281229748927,-0.05848305406613667,0.9523223453933726,-0.03981603257813146,-0.38886,-23.005452
11.185,2.0,1.0,1.0,33.4,33.8,33.8,3.6,3.5,2.8,-0.10166024140569482,-0.059976732717107274,0.9490471316926473,-0.04248749476753479,-0.404696,-22.674136
11.185,2.0,1.0,1.0,33.4,33.8,33.8,3.6,3.5,2.8025,-0.1172729604768242,-0.061512070207695516,0.94535848388052,-0.045364049823034595,-0.421746,-22.334658
11.185,2.0,1.0,1.0,33.4,33.8,33.8,3.6,3.5,2.805,-0.13306510213439005,-0.06308795161826508,0.9412287580463707,-0.04846664693874577,-0.440152,-21.986577
11.185,2.0,1.0,1.0,33.4,33.8,33.8,3.6,3.5,2.8075,-0.14903455853062805,-0.06470241983167682,0.9366273462090031,-0.0518189562613118,-0.460075,-21.629417
11.185,2.0,1.0,1.0,33.4,33.8,33.8,3.6,3.5,2.81,-0.1651780254058013,-0.06635241472507286,0.9315202403693897,-0.05544778997666176,-0.481703,-21.262668
11.185,2.0,1.0,1.0,33.4,33.8,33.8,3.6,3.5,2.8125,-0.181490657003163,-0.0680334346239632,0.925869522043111,-0.0593835960517993,-0.505255,-20.885782
11.185,2.0,1.0,1.0,33.4,33.8,33.8,3.6,3.5,2.815,-0.19796561780245592,-0.06973909553459647,0.9196327643067924,-0.06366103725876236,-0.530985,-20.498168
11.185,2.0,1.0,1.0,33.4,33.8,33.8,3.6,3.5,2.8175,-0.21459349797721314,-0.07146055538013131,0.9127623317349142,-0.06831966969827893,-0.559195,-20.099193
11.185,2.0,1.0,1.0,33.4,33.8,33.8,3.6,3.5,2.82,-0.23136154806271442,-0.07318575917398724,0.9052045622615845,-0.0734047363033146,-0.590238,-19.688174
11.185,2.0,1.0,1.0,33.4,33.8,33.8,3.6,3.5,2.8225,-0.24825267271008394,-0.07489844563087975,0.8968988144846177,-0.07896809122980043,-0.624536,-19.264379
11.185,2.0,1.0,1.0,33.4,33.8,33.8,3.6,3.5,2.825,-0.26524410200195586,-0.07657683456914278,0.8877763651465506,-0.08506926972640802,-0.66259,-18.827024
11.185,2.0,1.0,1.0,33.4,33.8,33.8,3.6,3.5,2.8275,-0.2823056294275665,-0.07819188544050626,0.8777591460733006,-0.09177671343136949,-0.705006,-18.375271
