1,w,sub_t,h,l1,l2,l3,g1,g2,Freq,S11_re,S21_re,S11_img,S21_img,S11_dB,S21_dB
11.185,2.0,1.0,1.0,33.7,34.6,34.6,3.1,3.2,2.5,0.821536083043458,-0.00869482535666818,0.557959891687815,0.00613790480114194,-0.06017,-39.458703
11.185,2.0,1.0,1.0,33.7,34.6,34.6,3.1,3.2,2.5025,0.8176066487531664,-0.008874341262682037,0.5635725347527468,0.006161671849114984,-0.060814,-39.328542
11.185,2.0,1.0,1.0,33.7,34.6,34.6,3.1,3.2,2.505,0.813619841281776,-0.00905748235443214,0.569182150341996,0.006184574348690015,-0.061471,-39.197815
11.185,2.0,1.0,1.0,33.7,34.6,34.6,3.1,3.2,2.5075,0.8095750454724555,-0.009244340036974516,0.5747884292133253,0.006206570301890745,-0.062141,-39.066507
11.185,2.0,1.0,1.0,33.7,34.6,34.6,3.1,3.2,2.51,0.8054716350913489,-0.009435008784336505,0.5803910524375661,0.006227615834299082,-0.062824,-38.934603
11.185,2.0,1.0,1.0,33.7,34.6,34.6,3.1,3.2,2.5125,0.8013089725790388,-0.009629586269271686,0.5859896910605672,0.006247665099159043,-0.063522,-38.80209
11.185,2.0,1.0,1.0,33.7,34.6,34.6,3.1,3.2,2.515,0.7970864087940597,-0.00982817349965917,0.5915840057519646,0.006266670175796736,-0.064234,-38.668951
11.185,2.0,1.0,1.0,33.7,34.6,34.6,3.1,3.2,2.5175,0.7928032827480748,-0.010030874961946433,0.5971736464401175,0.006284580961967353,-0.064961,-38.535172
11.185,2.0,1.0,1.0,33.7,34.6,34.6,3.1,3.2,2.52,0.7884589213322947,-0.0102377987720631,0.6027582519325584,0.006301345059709877,-0.065704,-38.400736
11.185,2.0,1.0,1.0,33.7,34.6,34.6,3.1,3.2,2.5225,0.7840526390347016,-0.010449056834261828,0.6083374495212087,0.00631690765425661,-0.066462,-38.265628
11.185,2.0,1.0,1.0,33.7,34.6,34.6,3.1,3.2,2.525,0.7795837376475969,-0.010664765008375354,0.613910854571626,0.006331211385509406,-0.067237,-38.129831
11.185,2.0,1.0,1.0,33.7,34.6,34.6,3.1,3.2,2.5275,0.7750515059649629,-0.010885043286012306,0.6194780700954524,0.0063441962115547,-0.068028,-37.993328
11.185,2.0,1.0,1.0,33.7,34.6,34.6,3.1,3.2,2.53,0.7704552194691016,-0.011110015976252522,0.6250386863052037,0.006355799263647035,-0.068837,-37.856102
11.185,2.0,1.0,1.0,33.7,34.6,34.6,3.1,3.2,2.5325,0.7657941400059617,-0.011339811901441267,0.6305922801504724,0.006365954692043824,-0.069664,-37.718135
11.185,2.0,1.0,1.0,33.7,34.6,34.6,3.1,3.2,2.535,0.7610675154485295,-0.01157456460372663,0.6361384148345665,0.0063745935020238995,-0.070509,-37.579409
11.185,2.0,1.0,1.0,33.7,34.6,34.6,3.1,3.2,2.5375,0.7562745793476184,-0.011814412563030246,0.6416766393105177,0.006381643379365786,-0.071373,-37.439905
11.185,2.0,1.0,1.0,33.7,34.6,34.6,3.1,3.2,2.54,0.7514145505693302,-0.012059499427192122,0.6472064877553434,0.0063870285045016404,-0.072256,-37.299605
11.185,2.0,1.0,1.0,33.7,34.6,34.6,3.1,3.2,2.5425,0.7464866329184201,-0.012309974255086014,0.6527274790213523,0.006390669354495785,-0.07316,-37.158488
11.185,2.0,1.0,1.0,33.7,34.6,34.6,3.1,3.2,2.545,0.7414900147467323,-0.012565991773559425,0.6582391160632007,0.006392482491924047,-0.074084,-37.016536
11.185,2.0,1.0,1.0,33.7,34.6,34.6,3.1,3.2,2.5475,0.7364238685458152,-0.012827712649118746,0.6637408853393044,0.006392380339649866,-0.07503,-36.873726
11.185,2.0,1.0,1.0,33.7,34.6,34.6,3.1,3.2,2.55,0.7312873505227442,-0.01309530377534802,0.6692322561861365,0.00639027094040575,-0.075998,-36.730039
11.185,2.0,1.0,1.0,33.7,34.6,34.6,3.1,3.2,2.5525,0.7260796001581322,-0.013368938577125343,0.67471268016378,0.006386057699992019,-0.076989,-36.585452
11.185,2.0,1.0,1.0,33.7,34.6,34.6,3.1,3.2,2.555,0.7207997397451904,-0.0136487973327851,0.6801815903710347,0.006379639112798817,-0.078004,-36.439943
11.185,2.0,1.0,1.0,33.7,34.6,34.6,3.1,3.2,2.5575,0.7154468739086424,-0.013935067515460073,0.6856384007282091,0.006370908468241169,-0.079043,-36.293489
11.185,2.0,1.0,1.0,33.7,34.6,34.6,3.1,3.2,2.56,0.7100200891021929,-0.014227944154936403,0.6910825052255938,0.0063597535365679725,-0.080108,-36.146067
11.185,2.0,1.0,1.0,33.7,34.6,34.6,3.1,3.2,2.5625,0.7045184530831329,-0.014527630221460025,0.696513277135445,0.006346056232364612,-0.081199,-35.997652
11.185,2.0,1.0,1.0,33.7,34.6,34.6,3.1,3.2,2.565,0.698941014362565,-0.014834337033044848,0.7019300681851488,0.006329692253912844,-0.082317,-35.84822
11.185,2.0,1.0,1.0,33.7,34.6,34.6,3.1,3.2,2.5675,0.6932868016296068,-0.015148284687961349,0.7073322076890131,0.006310530696398855,-0.083463,-35.697744
11.185,2.0,1.0,1.0,33.7,34.6,34.6,3.1,3.2,2.57,0.68755482314778,-0.015469702524216847,0.71271900163595,0.006288433636769958,-0.084638,-35.546199
11.185,2.0,1.0,1.0,33.7,34.6,34.6,3.1,3.2,2.5725,0.6817440661216588,-0.015798829607988757,0.7180897317300609,0.006263255687829222,-0.085844,-35.393556
11.185,2.0,1.0,1.0,33.7,34.6,34.6,3.1,3.2,2.575,0.6758534960316812,-0.016135915253132814,0.7234436543808787,0.006234843518923852,-0.08708,-35.239789
11.185,2.0,1.0,1.0,33.7,34.6,34.6,3.1,3.2,2.5775,0.6698820559348532,-0.016481219574064256,0.7287799996397419,0.006203035340323529,-0.08835,-35.084867
11.185,2.0,1.0,1.0,33.7,34.6,34.6,3.1,3.2,2.58,0.663828665728874,-0.01683501407450262,0.7340979700784473,0.006167660348097482,-0.089653,-34.928761
11.185,2.0,1.0,1.0,33.7,34.6,34.6,3.1,3.2,2.5825,0.657692221377007,-0.017197582274781954,0.7393967396059977,0.006128538125978704,-0.090991,-34.771441
11.185,2.0,1.0,1.0,33.7,34.6,34.6,3.1,3.2,2.585,0.6514715940907758,-0.01756922038065655,0.7446754522188478,0.006085478000348347,-0.092365,-34.612874
11.185,2.0,1.0,1.0,33.7,34.6,34.6,3.1,3.2,2.5875,0.6451656294673156,-0.017950237996785932,0.7499332206796484,0.006038278344076349,-0.093777,-34.453027
11.185,2.0,1.0,1.0,33.7,34.6,34.6,3.1,3.2,2.59,0.6387731465779329,-0.018340958888356178,0.7551691251189815,0.005986725824512282,-0.095228,-34.291867
11.185,2.0,1.0,1.0,33.7,34.6,34.6,3.1,3.2,2.5925,0.6322929370041027,-0.01874172179459954,0.7603822115540751,0.005930594590426674,-0.09672,-34.129358
11.185,2.0,1.0,1.0,33.7,34.6,34.6,3.1,3.2,2.595,0.625723763816815,-0.01915288129830128,0.7655714903178638,0.00586964539215103,-0.098255,-33.965464
11.185,2.0,1.0,1.0,33.7,34.6,34.6,3.1,3.2,2.5975,0.619064360494786,-0.019574808755750697,0.7707359343911262,0.005803624628546318,-0.099834,-33.800148
11.185,2.0,1.0,1.0,33.7,34.6,34.6,3.1,3.2,2.6,0.6123134297766547,-0.02000789329198646,0.7758744776296754,0.005732263313738249,-0.101459,-33.63337
11.185,2.0,1.0,1.0,33.7,34.6,34.6,3.1,3.2,2.6025,0.6054696424418426,-0.0204525428666285,0.7809860128777387,0.005655275955778645,-0.103132,-33.46509
11.185,2.0,1.0,1.0,33.7,34.6,34.6,3.1,3.2,2.605,0.5985316360142267,-0.02090918541606642,0.7860693899577661,0.005572359338520515,-0.104856,-33.295266
11.185,2.0,1.0,1.0,33.7,34.6,34.6,3.1,3.2,2.6075,0.5914980133822683,-0.02137827007830487,0.7911234135258278,0.005483191197010049,-0.106632,-33.123856
11.185,2.0,1.0,1.0,33.7,34.6,34.6,3.1,3.2,2.61,0.5843673413286149,-0.021860268507346212,0.796146840780616,0.00538742877559209,-0.108462,-32.950814
11.185,2.0,1.0,1.0,33.7,34.6,34.6,3.1,3.2,2.6125,0.5771381489615328,-0.022355676284632288,0.8011383790127272,0.005284707256674869,-0.11035,-32.776093
11.185,2.0,1.0,1.0,33.7,34.6,34.6,3.1,3.2,2.615,0.5698089260397968,-0.022865014435769337,0.8060966829794287,0.005174638046688174,-0.112297,-32.599645
11.185,2.0,1.0,1.0,33.7,34.6,34.6,3.1,3.2,2.6175,0.5623781211818712,-0.02338883106153795,0.8110203520884167,0.0050568069041694065,-0.114307,-32.42142
11.185,2.0,1.0,1.0,33.7,34.6,34.6,3.1,3.2,2.62,0.5548441399493035,-0.023927703093041864,0.8159079273721724,0.004930771893100352,-0.116383,-32.241366
11.185,2.0,1.0,1.0,33.7,34.6,34.6,3.1,3.2,2.6225,0.5472053427932847,-0.024482238181794364,0.820757888232385,0.004796061142559759,-0.118527,-32.059428
11.185,2.0,1.0,1.0,33.7,34.6,34.6,3.1,3.2,2.625,0.539460042852257,-0.025053076736573,0.825568648931423,0.00465217039141811,-0.120743,-31.87555
11.185,2.0,1.0,1.0,33.7,34.6,34.6,3.1,3.2,2.6275,0.5316065035872231,-0.025640894120024803,0.8303385548050985,0.0044985602941346615,-0.123035,-31.689673
11.185,2.0,1.0,1.0,33.7,34.6,34.6,3.1,3.2,2.63,0.5236429362401251,-0.026246403019256723,0.8350658781677547,0.004334653460678755,-0.125407,-31.501736
11.185,2.0,1.0,1.0,33.7,34.6,34.6,3.1,3.2,2.6325,0.5155674970991867,-0.026870356006039927,0.8397488138771184,0.0041598312001218255,-0.127862,-31.311674
11.185,2.0,1.0,1.0,33.7,34.6,34.6,3.1,3.2,2.635,0.5073782845535096,-0.027513548303785298,0.8443854745221988,0.003973429933469083,-0.130405,-31.119422
11.185,2.0,1.0,1.0,33.7,34.6,34.6,3.1,3.2,2.6375,0.49907333591745356,-0.02817682078012994,0.8489738851927804,0.0037747372367391775,-0.13304,-30.924909
11.185,2.0,1.0,1.0,33.7,34.6,34.6,3.1,3.2,2.64,0.49065062400335213,-0.028861063185832425,0.8535119777836302,0.003562987470055843,-0.135773,-30.728063
11.185,2.0,1.0,1.0,33.7,34.6,34.6,3.1,3.2,2.6425,0.48210805341900687,-0.029567217662706407,0.8579975847802521,0.0033373569424837196,-0.138609,-30.528809
11.185,2.0,1.0,1.0,33.7,34.6,34.6,3.1,3.2,2.645,0.4734434565640038,-0.03029628254556205,0.8624284324658439,0.003096958555378183,-0.141554,-30.327067
11.185,2.0,1.0,1.0,33.7,34.6,34.6,3.1,3.2,2.6475,0.46465458929633013,-0.031049316485573745,0.8668021334807589,0.0028408358589747957,-0.144613,-30.122755
11.185,2.0,1.0,1.0,33.7,34.6,34.6,3.1,3.2,2.65,0.4557391262378953,-0.031827442925172346,0.8711161786561709,0.0025679564476273585,-0.147795,-29.915785
11.185,2.0,1.0,1.0,33.7,34.6,34.6,3.1,3.2,2.6525,0.446694655684514,-0.032631854957477606,0.8753679280324415,0.0022772046082915874,-0.151105,-29.706066
11.185,2.0,1.0,1.0,33.7,34.6,34.6,3.1,3.2,2.655,0.43751867408245104,-0.03346382060646506,0.879554600959736,0.001967373124275287,-0.154552,-29.493505
11.185,2.0,1.0,1.0,33.7,34.6,34.6,3.1,3.2,2.6575,0.42820858003002893,-0.034324688567485065,0.8836732651633035,0.0016371541216191343,-0.158144,-29.277999
11.185,2.0,1.0,1.0,33.7,34.6,34.6,3.1,3.2,2.66,0.41876166775880624,-0.03521589445144492,0.8877208246381928,0.0012851288283478785,-0.16189,-29.059446
11.185,2.0,1.0,1.0,33.7,34.6,34.6,3.1,3.2,2.6625,0.4091751200446217,-0.036138967579889485,0.8916940062175184,0.0009097560967823473,-0.165801,-28.837734
11.185,2.0,1.0,1.0,33.7,34.6,34.6,3.1,3.2,2.665,0.399446000494283,-0.03709553838237117,0.8955893446341872,0.0005093595155669596,-0.169887,-28.612748
11.185,2.0,1.0,1.0,33.7,34.6,34.6,3.1,3.2,2.6675,0.38957124514900626,-0.038087346451815475,0.899403165867485,8.211291037971045e-05,-0.174159,-28.384365
11.185,2.0,1.0,1.0,33.7,34.6,34.6,3.1,3.2,2.67,0.37954765334082335,-0.03911624931800233,0.9031315685323651,-0.00037397600037071316,-0.178631,-28.152459
11.185,2.0,1.0,1.0,33.7,34.6,34.6,3.1,3.2,2.6725,0.3693718777333099,-0.04018423200366751,0.9067704030295811,-0.000861084067178605,-0.183317,-27.916893
11.185,2.0,1.0,1.0,33.7,34.6,34.6,3.1,3.2,2.675,0.3590404134732591,-0.04129341743190267,0.9103152481277673,-0.0013815936065154743,-0.188232,-27.677525
11.185,2.0,1.0,1.0,33.7,34.6,34.6,3.1,3.2,2.6775,0.3485495863755502,-0.04244607775725046,0.9137613845926784,-0.001938116105897958,-0.193392,-27.434204
11.185,2.0,1.0,1.0,33.7,34.6,34.6,3.1,3.2,2.68,0.33789554005989,-0.04364464669576134,0.9171037654121856,-0.002533519174399217,-0.198817,-27.186771
11.185,2.0,1.0,1.0,33.7,34.6,34.6,3.1,3.2,2.6825,0.3270742219557724,-0.04489173293080054,0.9203369820860282,-0.0031709572536399067,-0.204527,-26.935058
11.185,2.0,1.0,1.0,33.7,34.6,34.6,3.1,3.2,2.685,0.31608136809167603,-0.046190134670813655,0.9234552263539044,-0.0038539066973094257,-0.210543,-26.678887
11.185,2.0,1.0,1.0,33.7,34.6,34.6,3.1,3.2,2.6875,0.304912486587194,-0.047542855431566,0.926452246620813,-0.00458620593911235,-0.216892,-26.418069
11.185,2.0,1.0,1.0,33.7,34.6,34.6,3.1,3.2,2.69,0.2935628397739263,-0.0489531211071314,0.9293212982002507,-0.005372101603916639,-0.2236,-26.152403
11.185,2.0,1.0,1.0,33.7,34.6,34.6,3.1,3.2,2.6925,0.28202742488442994,-0.05042439837915655,0.9320550863286545,-0.006216301580046686,-0.230698,-25.881679
11.185,2.0,1.0,1.0,33.7,34.6,34.6,3.1,3.2,2.695,0.27030095327122733,-0.0519604144899145,0.9346457007015502,-0.007124036268643042,-0.238219,-25.605668
11.185,2.0,1.0,1.0,33.7,34.6,34.6,3.1,3.2,2.6975,0.25837782815337135,-0.05356517836763061,0.9370845400349438,-0.008101129466997788,-0.246203,-25.324131
11.185,2.0,1.0,1.0,33.7,34.6,34.6,3.1,3.2,2.7,0.24625212094190857,-0.05524300303722055,0.9393622248539988,-0.009154080637006368,-0.254692,-25.036812
11.185,2.0,1.0,1.0,33.7,34.6,34.6,3.1,3.2,2.7025,0.2339175462748011,-0.056998529168698735,0.9414684963417668,-0.010290160670286097,-0.263733,-24.743438
11.185,2.0,1.0,1.0,33.7,34.6,34.6,3.1,3.2,2.705,0.22136743600692232,-0.05883674949891258,0.9433920986270377,-0.011517523704327888,-0.27338,-24.443716
11.185,2.0,1.0,1.0,33.7,34.6,34.6,3.1,3.2,2.7075,0.20859471256563064,-0.06076303369588605,0.9451206413311125,-0.01284533808984545,-0.283694,-24.137336
11.185,2.0,1.0,1.0,33.7,34.6,34.6,3.1,3.2,2.71,0.19559186231722114,-0.06278315299913771,0.9466404385019179,-0.014283940284209247,-0.294745,-23.823963
11.185,2.0,1.0,1.0,33.7,34.6,34.6,3.1,3.2,2.7125,0.1823509099220568,-0.06490330363628391,0.9479363192064899,-0.015845016282430863,-0.306609,-23.503241
11.185,2.0,1.0,1.0,33.7,34.6,34.6,3.1,3.2,2.715,0.1688633951258474,-0.06713012754707803,0.948991403986756,-0.017541816237221095,-0.319378,-23.174786
11.185,2.0,1.0,1.0,33.7,34.6,34.6,3.1,3.2,2.7175,0.15512035409695737,-0.0694707282858209,0.9497868400544919,-0.019389409215915726,-0.333152,-22.838187
11.185,2.0,1.0,1.0,33.7,34.6,34.6,3.1,3.2,2.72,0.14111230835391464,-0.07193267904371713,0.9503014864408844,-0.021404986661051846,-0.348051,-22.493001
11.185,2.0,1.0,1.0,33.7,34.6,34.6,3.1,3.2,2.7225,0.12682926564618624,-0.0745240184229865,0.950511538238172,-0.023608225146704524,-0.364209,-22.138751
11.185,2.0,1.0,1.0,33.7,34.6,34.6,3.1,3.2,2.725,0.11226073901676753,-0.07725322774485878,0.9503900764678525,-0.026021721558539986,-0.381786,-21.774925
11.185,2.0,1.0,1.0,33.7,34.6,34.6,3.1,3.2,2.7275,0.09739579291998429,-0.08012918105443442,0.9499065268492506,-0.028671517000294612,-0.400964,-21.40097
11.185,2.0,1.0,1.0,33.7,34.6,34.6,3.1,3.2,2.73,0.08222312903016953,-0.08316105526442064,0.9490260066634316,-0.031587729697841314,-0.42196,-21.016289
11.185,2.0,1.0,1.0,33.7,34.6,34.6,3.1,3.2,2.7325,0.06673122974748491,-0.08635818257367707,0.9477085338224472,-0.03480532211492567,-0.445025,-20.620237
11.185,2.0,1.0,1.0,33.7,34.6,34.6,3.1,3.2,2.735,0.050908585105348174,-0.0897298196987862,0.9459080659546554,-0.038365033610772786,-0.47046,-20.212118
11.185,2.0,1.0,1.0,33.7,34.6,34.6,3.1,3.2,2.7375,0.03474403986550924,-0.0932847975301525,0.9435713295973218,-0.04231451745333293,-0.498621,-19.79118
11.185,2.0,1.0,1.0,33.7,34.6,34.6,3.1,3.2,2.74,0.018227313610498404,-0.09703099903887465,0.9406363902963216,-0.04670972999010688,-0.529934,-19.356613
11.185,2.0,1.0,1.0,33.7,34.6,34.6,3.1,3.2,2.7425,0.0013497699151553016,-0.10097459035486381,0.9370309035623506,-0.05161663024168344,-0.564913,-18.907542
11.185,2.0,1.0,1.0,33.7,34.6,34.6,3.1,3.2,2.745,-0.015894455380682283,-0.10511889655920771,0.9326699746222664,-0.057113259705234586,-0.604179,-18.443025
11.185,2.0,1.0,1.0,33.7,34.6,34.6,3.1,3.2,2.7475,-0.03350680709925268,-0.10946276492264007,0.9274535429472496,-0.06329228350817057,-0.648492,-17.962056
11.185,2.0,1.0,1.0,33.7,34.6,34.6,3.1,3.2,2.75,-0.0514819122556374,-0.113998186758732,0.921263198487793,-0.070264082384577,-0.698785,-17.463561
11.185,2.0,1.0,1.0,33.7,34.6,34.6,3.1,3.2,2.7525,-0.06980409053194296,-0.11870684405259833,0.9139583364357297,-0.07816048425828055,-0.756212,-16.946405
11.185,2.0,1.0,1.0,33.7,34.6,34.6,3.1,3.2,2.755,-0.08844227707737826,-0.12355509323891224,0.9053715782761014,-0.08713920251385131,-0.822216,-16.409408
11.185,2.0,1.0,1.0,33.7,34.6,34.6,3.1,3.2,2.7575,-0.10734263233891969,-0.12848667470118574,0.8953034524041944,-0.09738898209594668,-0.89861,-15.851363
11.185,2.0,1.0,1.0,33.7,34.6,34.6,3.1,3.2,2.76,-0.12641778488970956,-0.13341211528026417,0.8835164823015511,-0.10913530041387348,-0.987691,-15.271075
11.185,2.0,1.0,1.0,33.7,34.6,34.6,3.1,3.2,2.7625,-0.14553119270365508,-0.13819334180980422,0.8697291572530202,-0.12264614594515,-1.092392,-14.667431
11.185,2.0,1.0,1.0,33.7,34.6,34.6,3.1,3.2,2.765,-0.16447449429022484,-0.14262142622945176,0.853610911079598,-0.1382367549467456,-1.216486,-14.0395
11.185,2.0,1.0,1.0,33.7,34.6,34.6,3.1,3.2,2.7675,-0.18293498139486145,-0.1463846664207166,0.8347804754970055,-0.1562709640035048,-1.364846,-13.386693
11.185,2.0,1.0,1.0,33.7,34.6,34.6,3.1,3.2,2.77,-0.20044963845240818,-0.14902355027133188,0.8128122557119987,-0.17715459400210992,-1.543788,-12.709019
11.185,2.0,1.0,1.0,33.7,34.6,34.6,3.1,3.2,2.7725,-0.21634212668803388,-0.14986911378014103,0.7872593863924825,-0.20131234727822642,-1.761469,-12.007462
11.185,2.0,1.0,1.0,33.7,34.6,34.6,3.1,3.2,2.775,-0.22964109388285583,-0.14796321682042418,0.7577087286065871,-0.22913323895188742,-2.028311,-11.284553
11.185,2.0,1.0,1.0,33.7,34.6,34.6,3.1,3.2,2.7775,-0.23898550518149175,-0.1419665043122543,0.7238927296196093,-0.2608601616434903,-2.357232,-10.54519
11.185,2.0,1.0,1.0,33.7,34.6,34.6,3.1,3.2,2.78,-0.24254151958288558,-0.13007836596614306,0.6858938423996181,-0.29638875295331746,-2.763172,-9.797768
11.185,2.0,1.0,1.0,33.7,34.6,34.6,3.1,3.2,2.7825,-0.23799482885523676,-0.11003185799534389,0.6444795130539694,-0.33493875630946085,-3.260623,-9.055604
11.185,2.0,1.0,1.0,33.7,34.6,34.6,3.1,3.2,2.785,-0.222747014869001,-0.0792897038756593,0.6015728991127447,-0.3745937512053309,-3.856236,-8.338443
11.185,2.0,1.0,1.0,33.7,34.6,34.6,3.1,3.2,2.7875,-0.19450779509782162,-0.03562872592132969,0.560747083813188,-0.4118207278827816,-4.531236,-7.673451
11.185,2.0,1.0,1.0,33.7,34.6,34.6,3.1,3.2,2.79,-0.15242740421659992,0.0217483850750484,0.5273927703949827,-0.44131383165280164,-5.208895,-7.094515
11.185,2.0,1.0,1.0,33.7,34.6,34.6,3.1,3.2,2.7925,-0.09855707666006468,0.09078621067294065,0.5079717090843574,-0.45673714298409873,-5.722725,-6.638387
11.185,2.0,1.0,1.0,33.7,34.6,34.6,3.1,3.2,2.795,-0.03873592320364473,0.16572177119524853,0.5079742207763838,-0.4527341738489978,-5.857986,-6.337042
11.185,2.0,1.0,1.0,33.7,34.6,34.6,3.1,3.2,2.7975,0.01834322842758123,0.23802005194645667,0.5292701331139374,-0.42751893156595394,-5.521239,-6.208287
11.185,2.0,1.0,1.0,33.7,34.6,34.6,3.1,3.2,2.8,0.0640643550827994,0.2992580944645037,0.568732410893803,-0.3842042305112158,-4.847081,-6.249434
11.185,2.0,1.0,1.0,33.7,34.6,34.6,3.1,3.2,2.8025,0.09302493113817703,0.34419219761352243,0.6194744464342244,-0.3295652335725136,-4.062685,-6.438182
11.185,2.0,1.0,1.0,33.7,34.6,34.6,3.1,3.2,2.805,0.10421815153852643,0.37189597532040564,0.6737834006544265,-0.27115390487811636,-3.326914,-6.740104
11.185,2.0,1.0,1.0,33.7,34.6,34.6,3.1,3.2,2.8075,0.09998365483713335,0.3847133326648477,0.7255920792642252,-0.21488227758145434,-2.70446,-7.117983
11.185,2.0,1.0,1.0,33.7,34.6,34.6,3.1,3.2,2.81,0.08410995075141423,0.38639113987944257,0.7713561201839333,-0.1641758012574056,-2.203568,-7.538664
11.185,2.0,1.0,1.0,33.7,34.6,34.6,3.1,3.2,2.8125,0.0603593949980171,0.380635334102587,0.809692077035971,-0.120338777060057,-1.809535,-7.976079
11.185,2.0,1.0,1.0,33.7,34.6,34.6,3.1,3.2,2.815,0.03177055038280827,0.37043249648459137,0.8405925902676583,-0.08332884508379132,-1.502089,-8.411434
11.185,2.0,1.0,1.0,33.7,34.6,34.6,3.1,3.2,2.8175,0.0005224535179109821,0.35792181577033405,0.8647358245933675,-0.05243488283910833,-1.262329,-8.832016
11.185,2.0,1.0,1.0,33.7,34.6,34.6,3.1,3.2,2.82,-0.03194094753411473,0.3445204395495402,0.8830381420511006,-0.026714404335221986,-1.074732,-9.229666
11.185,2.0,1.0,1.0,33.7,34.6,34.6,3.1,3.2,2.8225,-0.06471992824825536,0.3311124521569879,0.8964161242789667,-0.0052250889732814235,-0.927227,-9.599408
11.185,2.0,1.0,1.0,33.7,34.6,34.6,3.1,3.2,2.825,-0.09728677021246006,0.3182185922781971,0.9056825135363308,0.012874981499826535,-0.810655,-9.938386
11.185,2.0,1.0,1.0,33.7,34.6,34.6,3.1,3.2,2.8275,-0.1293556309364542,0.3061241675823987,0.9115145966902198,0.028297937703838774,-0.718133,-10.245095
11.185,2.0,1.0,1.0,33.7,34.6,34.6,3.1,3.2,2.83,-0.1607923929012494,0.29496750942098326,0.9144566640000523,0.041630001937034145,-0.644498,-10.51886
