1,w,sub_t,h,l1,l2,l3,g1,g2,Freq,S11_re,S21_re,S11_img,S21_img,S11_dB,S21_dB
11.185,2.0,1.0,1.0,34.2,33.1,33.1,2.9,3.4,2.5,0.754216488958391,-0.0096955854106526,0.645520292819368,0.0051199445970048,-0.063262,-39.200297
11.185,2.0,1.0,1.0,34.2,33.1,33.1,2.9,3.4,2.5025,0.7492346321606562,-0.009865011652165433,0.6511860567381729,0.005102947235562808,-0.063893,-39.088308
11.185,2.0,1.0,1.0,34.2,33.1,33.1,2.9,3.4,2.505,0.7441849930821192,-0.010036932316392288,0.6568403081844981,0.005084103312229619,-0.064533,-38.976071
11.185,2.0,1.0,1.0,34.2,33.1,33.1,2.9,3.4,2.5075,0.7390669119530846,-0.010211380579075576,0.6624824897514606,0.005063353604105654,-0.065184,-38.863579
11.185,2.0,1.0,1.0,34.2,33.1,33.1,2.9,3.4,2.51,0.733879721669456,-0.010388389921636806,0.6681120283303659,0.005040637088506026,-0.065844,-38.75083
11.185,2.0,1.0,1.0,34.2,33.1,33.1,2.9,3.4,2.5125,0.7286227478036305,-0.010567994122641812,0.6737283346679949,0.005015890884828862,-0.066515,-38.637817
11.185,2.0,1.0,1.0,34.2,33.1,33.1,2.9,3.4,2.515,0.7232953086214826,-0.010750227248332,0.6793308029118992,0.004989050194474946,-0.067197,-38.524535
11.185,2.0,1.0,1.0,34.2,33.1,33.1,2.9,3.4,2.5175,0.7178967151058273,-0.010935123642162255,0.6849188101434023,0.004960048238752231,-0.067889,-38.41098
11.185,2.0,1.0,1.0,34.2,33.1,33.1,2.9,3.4,2.52,0.7124262709867318,-0.011122717913283897,0.6904917158980222,0.004928816194697677,-0.068593,-38.297146
11.185,2.0,1.0,1.0,34.2,33.1,33.1,2.9,3.4,2.5225,0.7068832727791086,-0.011313044923905943,0.6960488616729941,0.004895283128745728,-0.069308,-38.183028
11.185,2.0,1.0,1.0,34.2,33.1,33.1,2.9,3.4,2.525,0.7012670098280004,-0.011506139775466342,0.7015895704216016,0.004859375928171215,-0.070034,-38.068621
11.185,2.0,1.0,1.0,34.2,33.1,33.1,2.9,3.4,2.5275,0.6955767643620109,-0.011702037793539196,0.7071131460340035,0.0048210192302314304,-0.070773,-37.953919
11.185,2.0,1.0,1.0,34.2,33.1,33.1,2.9,3.4,2.53,0.6898118115553589,-0.011900774511400827,0.712618872804232,0.00478013534893002,-0.071523,-37.838918
11.185,2.0,1.0,1.0,34.2,33.1,33.1,2.9,3.4,2.5325,0.6839714195990457,-0.012102385652172845,0.7181060148830501,0.004736644199323074,-0.072287,-37.723613
11.185,2.0,1.0,1.0,34.2,33.1,33.1,2.9,3.4,2.535,0.678054849781648,-0.0123069071094563,0.7235738157163547,0.004690463219284534,-0.073063,-37.607996
11.185,2.0,1.0,1.0,34.2,33.1,33.1,2.9,3.4,2.5375,0.6720613565802926,-0.012514374926365106,0.7290214974687778,0.004641507288646076,-0.073852,-37.492064
11.185,2.0,1.0,1.0,34.2,33.1,33.1,2.9,3.4,2.54,0.6659901877623654,-0.012724825272863626,0.7344482604321824,0.004589688645623561,-0.074654,-37.375811
11.185,2.0,1.0,1.0,34.2,33.1,33.1,2.9,3.4,2.5425,0.6598405844985585,-0.012938294421306208,0.7398532824187068,0.004534916800439215,-0.07547,-37.259232
11.185,2.0,1.0,1.0,34.2,33.1,33.1,2.9,3.4,2.545,0.6536117814878736,-0.013154818720071933,0.7452357181380358,0.00447709844604628,-0.0763,-37.14232
11.185,2.0,1.0,1.0,34.2,33.1,33.1,2.9,3.4,2.5475,0.6473030070952424,-0.013374434565181299,0.7505946985585519,0.004416137365859462,-0.077145,-37.02507
11.185,2.0,1.0,1.0,34.2,33.1,33.1,2.9,3.4,2.55,0.6409134835024245,-0.013597178369776254,0.7559293302520492,0.004351934338391647,-0.078004,-36.907477
11.185,2.0,1.0,1.0,34.2,33.1,33.1,2.9,3.4,2.5525,0.6344424268729298,-0.013823086531336667,0.7612386947216561,0.004284387038694409,-0.078878,-36.789534
11.185,2.0,1.0,1.0,34.2,33.1,33.1,2.9,3.4,2.555,0.6278890475316805,-0.014052195396501462,0.7665218477126443,0.0042133899364962405,-0.079768,-36.671237
11.185,2.0,1.0,1.0,34.2,33.1,33.1,2.9,3.4,2.5575,0.6212525501602056,-0.014284541223353837,0.7717778185057869,0.004138834190929599,-0.080673,-36.552579
11.185,2.0,1.0,1.0,34.2,33.1,33.1,2.9,3.4,2.56,0.6145321340081918,-0.014520160141022689,0.7770056091929285,0.004060607541734155,-0.081595,-36.433555
11.185,2.0,1.0,1.0,34.2,33.1,33.1,2.9,3.4,2.5625,0.6077269931222326,-0.014759088106444312,0.7822041939344405,0.003978594196820351,-0.082533,-36.314158
11.185,2.0,1.0,1.0,34.2,33.1,33.1,2.9,3.4,2.565,0.60083631659267,-0.015001360858120084,0.7873725181982296,0.003892674716073799,-0.083488,-36.194383
11.185,2.0,1.0,1.0,34.2,33.1,33.1,2.9,3.4,2.5675,0.5938592888194706,-0.015247013866695991,0.7925094979799784,0.003802725891277595,-0.08446,-36.074224
11.185,2.0,1.0,1.0,34.2,33.1,33.1,2.9,3.4,2.57,0.5867950897980972,-0.015496082282181281,0.797614019004294,0.0037086206220254543,-0.08545,-35.953673
11.185,2.0,1.0,1.0,34.2,33.1,33.1,2.9,3.4,2.5725,0.5796428954263999,-0.01574860087761263,0.8026849359064583,0.003610227787495211,-0.086459,-35.832727
11.185,2.0,1.0,1.0,34.2,33.1,33.1,2.9,3.4,2.575,0.5724018778335883,-0.01600460398896042,0.8077210713944667,0.0035074121139484515,-0.087486,-35.711377
11.185,2.0,1.0,1.0,34.2,33.1,33.1,2.9,3.4,2.5775,0.5650712057323938,-0.016264125451061637,0.8127212153910559,0.0034000340378173175,-0.088531,-35.589619
11.185,2.0,1.0,1.0,34.2,33.1,33.1,2.9,3.4,2.58,0.5576500447955822,-0.016527198529352395,0.817684124155436,0.003287949564236317,-0.089597,-35.467445
11.185,2.0,1.0,1.0,34.2,33.1,33.1,2.9,3.4,2.5825,0.5501375580580199,-0.01679385584716152,0.8226085193844435,0.00317101012087246,-0.090682,-35.344849
11.185,2.0,1.0,1.0,34.2,33.1,33.1,2.9,3.4,2.585,0.5425329063455608,-0.017064129308311755,0.8274930872928519,0.0030490624069022913,-0.091788,-35.221826
11.185,2.0,1.0,1.0,34.2,33.1,33.1,2.9,3.4,2.5875,0.5348352487320617,-0.017338050014762785,0.8323364776725859,0.0029219482369809867,-0.092915,-35.098367
11.185,2.0,1.0,1.0,34.2,33.1,33.1,2.9,3.4,2.59,0.527043743025905,-0.017615648179015172,0.8371373029306021,0.0027895043800435686,-0.094063,-34.974467
11.185,2.0,1.0,1.0,34.2,33.1,33.1,2.9,3.4,2.5925,0.519157546287449,-0.01789695303097835,0.8418941371052158,0.002651562392773491,-0.095234,-34.850119
11.185,2.0,1.0,1.0,34.2,33.1,33.1,2.9,3.4,2.595,0.5111758153789145,-0.018181992718989994,0.8466055148606716,0.00250794844757011,-0.096427,-34.725316
11.185,2.0,1.0,1.0,34.2,33.1,33.1,2.9,3.4,2.5975,0.5030977075482355,-0.018470794204657554,0.8512699304597796,0.0023584831548409116,-0.097643,-34.600052
11.185,2.0,1.0,1.0,34.2,33.1,33.1,2.9,3.4,2.6,0.4949223810485053,-0.018763383151172874,0.8558858367144669,0.0022029813794396487,-0.098882,-34.474319
11.185,2.0,1.0,1.0,34.2,33.1,33.1,2.9,3.4,2.6025,0.4866489957947124,-0.01905978380473318,0.8604516439141007,0.002041252051067063,-0.100146,-34.348111
11.185,2.0,1.0,1.0,34.2,33.1,33.1,2.9,3.4,2.605,0.47827671405949373,-0.019360018868681092,0.8649657187314954,0.0018730979684448749,-0.101435,-34.22142
11.185,2.0,1.0,1.0,34.2,33.1,33.1,2.9,3.4,2.6075,0.46980470120975554,-0.019664109369954292,0.8694263831065234,0.0016983155970694338,-0.10275,-34.09424
11.185,2.0,1.0,1.0,34.2,33.1,33.1,2.9,3.4,2.61,0.4612321264860502,-0.01997207451741384,0.8738319131072922,0.0015166948603453742,-0.10409,-33.966563
11.185,2.0,1.0,1.0,34.2,33.1,33.1,2.9,3.4,2.6125,0.45255816382668673,-0.020283931551595254,0.8781805377688938,0.0013280189238941518,-0.105458,-33.838381
11.185,2.0,1.0,1.0,34.2,33.1,33.1,2.9,3.4,2.615,0.44378199273862357,-0.020599695585402582,0.8824704379097591,0.0011320639728271457,-0.106852,-33.709688
11.185,2.0,1.0,1.0,34.2,33.1,33.1,2.9,3.4,2.6175,0.4349027992172909,-0.020919379435237383,0.8866997449257032,0.0009285989817668891,-0.108275,-33.580475
11.185,2.0,1.0,1.0,34.2,33.1,33.1,2.9,3.4,2.62,0.4259197767175551,-0.021242993442027683,0.8908665395617842,0.0007173854773940298,-0.109727,-33.450736
11.185,2.0,1.0,1.0,34.2,33.1,33.1,2.9,3.4,2.6225,0.416832127178125,-0.021570545281591576,0.894968850662163,0.0004981772932913657,-0.111209,-33.320462
11.185,2.0,1.0,1.0,34.2,33.1,33.1,2.9,3.4,2.625,0.407639062101814,-0.0219020397637381,0.899004653898191,0.000270720316850785,-0.112721,-33.189645
11.185,2.0,1.0,1.0,34.2,33.1,33.1,2.9,3.4,2.6275,0.39833980369411603,-0.022237478619475736,0.9029718704750218,3.4752228001168464e-05,-0.114264,-33.058279
11.185,2.0,1.0,1.0,34.2,33.1,33.1,2.9,3.4,2.63,0.38893358606270395,-0.022576860275662265,0.9068683658170873,-0.00020999777049052494,-0.115839,-32.926353
11.185,2.0,1.0,1.0,34.2,33.1,33.1,2.9,3.4,2.6325,0.37941965648049675,-0.022920179616393435,0.9106919482328871,-0.00046380923139954447,-0.117448,-32.793862
11.185,2.0,1.0,1.0,34.2,33.1,33.1,2.9,3.4,2.635,0.3697972767150972,-0.023267427730386127,0.914440367559553,-0.0007269707503680192,-0.119089,-32.660795
11.185,2.0,1.0,1.0,34.2,33.1,33.1,2.9,3.4,2.6375,0.36006572442746404,-0.023618591643572145,0.9181113137877729,-0.0009997802624426796,-0.120766,-32.527145
11.185,2.0,1.0,1.0,34.2,33.1,33.1,2.9,3.4,2.64,0.35022429464279053,-0.023973654036072115,0.9217024156677339,-0.001282545348104059,-0.122478,-32.392903
11.185,2.0,1.0,1.0,34.2,33.1,33.1,2.9,3.4,2.6425,0.34027230129669406,-0.024332592942671608,0.9252112392968048,-0.0015755835490723266,-0.124226,-32.258061
11.185,2.0,1.0,1.0,34.2,33.1,33.1,2.9,3.4,2.645,0.33020907885989975,-0.024695381435872337,0.9286352866898028,-0.001879222694184025,-0.126012,-32.122609
11.185,2.0,1.0,1.0,34.2,33.1,33.1,2.9,3.4,2.6475,0.3200339840447368,-0.02506198729053561,0.9319719943327707,-0.002193801235643013,-0.127837,-31.986539
11.185,2.0,1.0,1.0,34.2,33.1,33.1,2.9,3.4,2.65,0.3097463975968443,-0.025432372629080935,0.9352187317213068,-0.0025196685959586124,-0.1297,-31.849842
11.185,2.0,1.0,1.0,34.2,33.1,33.1,2.9,3.4,2.6525,0.2993457261756695,-0.02580649354613806,0.9383727998845814,-0.002857185525892851,-0.131605,-31.712508
11.185,2.0,1.0,1.0,34.2,33.1,33.1,2.9,3.4,2.655,0.28883140432736537,-0.02618429971149014,0.9414314298963208,-0.003206724473751017,-0.133551,-31.574528
11.185,2.0,1.0,1.0,34.2,33.1,33.1,2.9,3.4,2.6575,0.2782028965539029,-0.026565733950073108,0.944391781374134,-0.0035686699663596737,-0.13554,-31.435892
11.185,2.0,1.0,1.0,34.2,33.1,33.1,2.9,3.4,2.66,0.26745969948227705,-0.026950731797725475,0.9472509409687189,-0.003943419002088788,-0.137573,-31.29659
11.185,2.0,1.0,1.0,34.2,33.1,33.1,2.9,3.4,2.6625,0.2566013441378538,-0.027339221031301302,0.9500059208445935,-0.004331381456287488,-0.139652,-31.156613
11.185,2.0,1.0,1.0,34.2,33.1,33.1,2.9,3.4,2.665,0.24562739832599284,-0.027731121171677926,0.9526536571541651,-0.004732980499517218,-0.141777,-31.015951
11.185,2.0,1.0,1.0,34.2,33.1,33.1,2.9,3.4,2.6675,0.23453746912625134,-0.028126342958096764,0.9551910085071037,-0.005148653028979906,-0.14395,-30.874592
11.185,2.0,1.0,1.0,34.2,33.1,33.1,2.9,3.4,2.67,0.22333120550358176,-0.0285247877921817,0.9576147544371255,-0.005578850113555769,-0.146172,-30.732527
11.185,2.0,1.0,1.0,34.2,33.1,33.1,2.9,3.4,2.6725,0.21200830104106436,-0.028926347149874913,0.9599215938684992,-0.006024037452882862,-0.148444,-30.589745
11.185,2.0,1.0,1.0,34.2,33.1,33.1,2.9,3.4,2.675,0.20056849679889618,-0.029330901959418034,0.9621081435847103,-0.006484695850928275,-0.150769,-30.446235
11.185,2.0,1.0,1.0,34.2,33.1,33.1,2.9,3.4,2.6775,0.18901158430443504,-0.029738321943388553,0.9641709367019765,-0.006961321704522573,-0.153148,-30.301985
11.185,2.0,1.0,1.0,34.2,33.1,33.1,2.9,3.4,2.68,0.1773374086782935,-0.030148464922671918,0.9661064211504204,-0.007454427507350916,-0.155581,-30.156985
11.185,2.0,1.0,1.0,34.2,33.1,33.1,2.9,3.4,2.6825,0.16554587190159528,-0.03056117608011126,0.9679109581659737,-0.00796454236991861,-0.158072,-30.011222
11.185,2.0,1.0,1.0,34.2,33.1,33.1,2.9,3.4,2.685,0.15363693622965655,-0.03097628718142652,0.9695808207962513,-0.008492212556036023,-0.160621,-29.864684
11.185,2.0,1.0,1.0,34.2,33.1,33.1,2.9,3.4,2.6875,0.14161062775750527,-0.03139361575083505,0.9711121924238679,-0.00903800203639673,-0.16323,-29.71736
11.185,2.0,1.0,1.0,34.2,33.1,33.1,2.9,3.4,2.69,0.1294670401428244,-0.03181296419862749,0.9725011653109035,-0.009602493059854307,-0.165901,-29.569237
11.185,2.0,1.0,1.0,34.2,33.1,33.1,2.9,3.4,2.6925,0.11720633849201585,-0.0322341188977671,0.9737437391684245,-0.010186286743040254,-0.168637,-29.420302
11.185,2.0,1.0,1.0,34.2,33.1,33.1,2.9,3.4,2.695,0.10482876341531527,-0.032656849206370984,0.9748358197552387,-0.010790003679001089,-0.171438,-29.270542
11.185,2.0,1.0,1.0,34.2,33.1,33.1,2.9,3.4,2.6975,0.0923346352569581,-0.03308090643271219,0.975773217510289,-0.011414284565578624,-0.174307,-29.119943
11.185,2.0,1.0,1.0,34.2,33.1,33.1,2.9,3.4,2.7,0.07972435850668244,-0.03350602273913401,0.9765516462233379,-0.012059790854301044,-0.177247,-28.968492
11.185,2.0,1.0,1.0,34.2,33.1,33.1,2.9,3.4,2.7025,0.06699842639891573,-0.03393190998100695,0.9771667217488696,-0.012727205420606107,-0.180258,-28.816174
11.185,2.0,1.0,1.0,34.2,33.1,33.1,2.9,3.4,2.705,0.05415742570628757,-0.034358258476565096,0.9776139607683724,-0.013417233256271891,-0.183344,-28.662976
11.185,2.0,1.0,1.0,34.2,33.1,33.1,2.9,3.4,2.7075,0.04120204173421032,-0.03478473570314587,0.9778887796064534,-0.014130602184994812,-0.186508,-28.508882
11.185,2.0,1.0,1.0,34.2,33.1,33.1,2.9,3.4,2.71,0.028133063523552142,-0.03521098491500656,0.9779864931064884,-0.014868063602119706,-0.189751,-28.353876
11.185,2.0,1.0,1.0,34.2,33.1,33.1,2.9,3.4,2.7125,0.014951389268595499,-0.035636623677515133,0.9779023135717799,-0.01563039323960445,-0.193075,-28.197943
11.185,2.0,1.0,1.0,34.2,33.1,33.1,2.9,3.4,2.715,0.001658031957727826,-0.03606124231209084,0.977631349778487,-0.016418391957380287,-0.196485,-28.041068
11.185,2.0,1.0,1.0,34.2,33.1,33.1,2.9,3.4,2.7175,-0.011745874755441203,-0.03648440224581373,0.9771686060668285,-0.017232886562360536,-0.199982,-27.883232
11.185,2.0,1.0,1.0,34.2,33.1,33.1,2.9,3.4,2.72,-0.02525907044253913,-0.03690563425911478,0.9765089815173528,-0.018074730656445746,-0.20357,-27.724419
11.185,2.0,1.0,1.0,34.2,33.1,33.1,2.9,3.4,2.7225,-0.03888016154425135,-0.03732443662440006,0.9756472692193284,-0.018944805514982944,-0.207252,-27.564611
11.185,2.0,1.0,1.0,34.2,33.1,33.1,2.9,3.4,2.725,-0.052607614758838094,-0.037740273127843726,0.9745781556385544,-0.019844020997247788,-0.21103,-27.40379
11.185,2.0,1.0,1.0,34.2,33.1,33.1,2.9,3.4,2.7275,-0.06643975016643364,-0.03815257096590454,0.9732962200921557,-0.020773316490649858,-0.214909,-27.241937
11.185,2.0,1.0,1.0,34.2,33.1,33.1,2.9,3.4,2.73,-0.08037473407971521,-0.038560718507359266,0.9717959343381602,-0.021733661890491727,-0.218892,-27.079033
11.185,2.0,1.0,1.0,34.2,33.1,33.1,2.9,3.4,2.7325,-0.09441057161114935,-0.03896406291080964,0.9700716622878957,-0.022726058617264837,-0.222982,-26.915056
11.185,2.0,1.0,1.0,34.2,33.1,33.1,2.9,3.4,2.735,-0.10854509894642383,-0.03936190758668198,0.9681176598494406,-0.023751540673618517,-0.227183,-26.749987
11.185,2.0,1.0,1.0,34.2,33.1,33.1,2.9,3.4,2.7375,-0.1227759753131554,-0.039753509491701464,0.9659280749105781,-0.024811175743312503,-0.2315,-26.583803
11.185,2.0,1.0,1.0,34.2,33.1,33.1,2.9,3.4,2.74,-0.13710067463326306,-0.040138076242661455,0.9634969474698858,-0.02590606633463954,-0.235936,-26.416483
11.185,2.0,1.0,1.0,34.2,33.1,33.1,2.9,3.4,2.7425,-0.15151647684663283,-0.04051476303501601,0.9608182099247354,-0.02703735097100108,-0.240497,-26.248003
11.185,2.0,1.0,1.0,34.2,33.1,33.1,2.9,3.4,2.745,-0.16602045889284067,-0.040882669350376946,0.9578856875251222,-0.02820620543151631,-0.245187,-26.078339
11.185,2.0,1.0,1.0,34.2,33.1,33.1,2.9,3.4,2.7475,-0.180609485336684,-0.041240835435378646,0.9546930990023696,-0.029413844044759486,-0.25001,-25.907466
11.185,2.0,1.0,1.0,34.2,33.1,33.1,2.9,3.4,2.75,-0.195280198622105,-0.0415882385325605,0.951234057381798,-0.0306615210389364,-0.254972,-25.735358
11.185,2.0,1.0,1.0,34.2,33.1,33.1,2.9,3.4,2.7525,-0.21002900893778367,-0.041923788841882165,0.9475020709885416,-0.03195053195203524,-0.260079,-25.561989
11.185,2.0,1.0,1.0,34.2,33.1,33.1,2.9,3.4,2.755,-0.22485208367608733,-0.04224632518920114,0.9434905446556978,-0.03328221510571056,-0.265337,-25.38733
11.185,2.0,1.0,1.0,34.2,33.1,33.1,2.9,3.4,2.7575,-0.23974533646537394,-0.04255461037547266,0.939192781143994,-0.03465795314688392,-0.270751,-25.211351
11.185,2.0,1.0,1.0,34.2,33.1,33.1,2.9,3.4,2.76,-0.25470441575342767,-0.04284732617753482,0.9346019827821189,-0.03607917466125151,-0.276327,-25.034024
11.185,2.0,1.0,1.0,34.2,33.1,33.1,2.9,3.4,2.7625,-0.2697246929176129,-0.043123067968080665,0.9297112533368157,-0.037547355863090874,-0.282074,-24.855316
11.185,2.0,1.0,1.0,34.2,33.1,33.1,2.9,3.4,2.765,-0.2848012498743995,-0.04338033891873256,0.9245136001217339,-0.0390640223659226,-0.287997,-24.675193
11.185,2.0,1.0,1.0,34.2,33.1,33.1,2.9,3.4,2.7675,-0.2999288661578116,-0.043617543745972584,0.9190019363539834,-0.040630751038711374,-0.294105,-24.493623
11.185,2.0,1.0,1.0,34.2,33.1,33.1,2.9,3.4,2.77,-0.31510200543260697,-0.043832981954970235,0.913169083767164,-0.04224917195236583,-0.300406,-24.310568
11.185,2.0,1.0,1.0,34.2,33.1,33.1,2.9,3.4,2.7725,-0.33031480140372493,-0.04402484053101418,0.9070077754896541,-0.04392097042128536,-0.306908,-24.125991
11.185,2.0,1.0,1.0,34.2,33.1,33.1,2.9,3.4,2.775,-0.3455610430785158,-0.044191186022202227,0.9005106591967781,-0.045647889144595374,-0.313621,-23.939853
11.185,2.0,1.0,1.0,34.2,33.1,33.1,2.9,3.4,2.7775,-0.36083415933254936,-0.04432995595017371,0.8936703005455774,-0.047431730451465065,-0.320554,-23.752113
11.185,2.0,1.0,1.0,34.2,33.1,33.1,2.9,3.4,2.78,-0.37612720272312467,-0.044438949477858654,0.8864791869009054,-0.04927435865447762,-0.327718,-23.562728
11.185,2.0,1.0,1.0,34.2,33.1,33.1,2.9,3.4,2.7825,-0.39143283248679156,-0.04451581725433154,0.8789297313618781,-0.051177702514365105,-0.335123,-23.371652
11.185,2.0,1.0,1.0,34.2,33.1,33.1,2.9,3.4,2.785,-0.4067432966483678,-0.04455805034673097,0.8710142770980482,-0.053143757818481234,-0.342782,-23.178839
11.185,2.0,1.0,1.0,34.2,33.1,33.1,2.9,3.4,2.7875,-0.422050413158409,-0.044562968157659893,0.8627251020054302,-0.055174590074053696,-0.350707,-22.984239
11.185,2.0,1.0,1.0,34.2,33.1,33.1,2.9,3.4,2.79,-0.43734554996418434,-0.044527705213290414,0.8540544236934644,-0.057272337315474646,-0.358912,-22.787801
11.185,2.0,1.0,1.0,34.2,33.1,33.1,2.9,3.4,2.7925,-0.45261960390519446,-0.04444919669232268,0.8449944048155925,-0.05943921302248894,-0.367412,-22.589468
11.185,2.0,1.0,1.0,34.2,33.1,33.1,2.9,3.4,2.795,-0.46786297830823437,-0.04432416254868674,0.8355371587581746,-0.061677509143010845,-0.376221,-22.389185
11.185,2.0,1.0,1.0,34.2,33.1,33.1,2.9,3.4,2.7975,-0.483065559138126,-0.044149090061102396,0.8256747557054841,-0.06398959921020461,-0.385357,-22.186891
11.185,2.0,1.0,1.0,34.2,33.1,33.1,2.9,3.4,2.8,-0.49821668953883214,-0.04392021461992268,0.8153992291024236,-0.06637794153822064,-0.394837,-21.982523
11.185,2.0,1.0,1.0,34.2,33.1,33.1,2.9,3.4,2.8025,-0.51330514257428,-0.043633498535626855,0.8047025825419483,-0.06884508247423154,-0.404681,-21.776013
11.185,2.0,1.0,1.0,34.2,33.1,33.1,2.9,3.4,2.805,-0.5283190919492657,-0.04328460762335943,0.7935767971111722,-0.07139365967583396,-0.41491,-21.567291
11.185,2.0,1.0,1.0,34.2,33.1,33.1,2.9,3.4,2.8075,-0.5432460804569806,-0.04286888528341568,0.782013839239279,-0.0740264053719976,-0.425546,-21.356284
11.185,2.0,1.0,1.0,34.2,33.1,33.1,2.9,3.4,2.81,-0.5580729858604861,-0.04238132375780595,0.7700056691022439,-0.0767461495519723,-0.436614,-21.142913
11.185,2.0,1.0,1.0,34.2,33.1,33.1,2.9,3.4,2.8125,-0.5727859838700017,-0.041816532197158904,0.7575442496547354,-0.07955582300918666,-0.448141,-20.927095
11.185,2.0,1.0,1.0,34.2,33.1,33.1,2.9,3.4,2.815,-0.5873705078250319,-0.041168701119228664,0.7446215563792472,-0.08245846014530253,-0.460155,-20.708745
11.185,2.0,1.0,1.0,34.2,33.1,33.1,2.9,3.4,2.8175,-0.6018112046291136,-0.04043156277900597,0.7312295878677328,-0.08545720141206715,-0.472688,-20.487769
11.185,2.0,1.0,1.0,34.2,33.1,33.1,2.9,3.4,2.82,-0.6160918864135487,-0.039598346899534516,0.7173603773831984,-0.0885552952340303,-0.485774,-20.264072
11.185,2.0,1.0,1.0,34.2,33.1,33.1,2.9,3.4,2.8225,-0.6301954773238956,-0.0386617311304071,0.7030060055896025,-0.09175609921175992,-0.49945,-20.03755
11.185,2.0,1.0,1.0,34.2,33.1,33.1,2.9,3.4,2.825,-0.6441039547265369,-0.0376137855057366,0.6881586146904222,-0.0950630803506422,-0.513757,-19.808095
11.185,2.0,1.0,1.0,34.2,33.1,33.1,2.9,3.4,2.8275,-0.6577982840209576,-0.03644591006299457,0.672810424282129,-0.09847981399183074,-0.52874,-19.575592
