1,w,sub_t,h,l1,l2,l3,g1,g2,Freq,S11_re,S21_re,S11_img,S21_img,S11_dB,S21_dB
11.185,2.0,1.0,1.0,34.4,34.3,34.3,2.5,4.2,2.5,0.715999816721139,-0.0113145182146317,0.686371591280961,0.00486951427093535,-0.071101,-38.189271
11.185,2.0,1.0,1.0,34.4,34.3,34.3,2.5,4.2,2.5025,0.7104558435953984,-0.01151917266808998,0.6919773443221343,0.004838916393534887,-0.071902,-38.065792
11.185,2.0,1.0,1.0,34.4,34.3,34.3,2.5,4.2,2.505,0.704837024932447,-0.011727267196242315,0.6975671634927926,0.0048059091752716675,-0.072719,-37.941853
11.185,2.0,1.0,1.0,34.4,34.3,34.3,2.5,4.2,2.5075,0.6991425801142156,-0.011938865016313213,0.7031403510306183,0.004770406726090854,-0.073552,-37.817448
11.185,2.0,1.0,1.0,34.4,34.3,34.3,2.5,4.2,2.51,0.6933717187324683,-0.012154030642199115,0.7086961886068368,0.004732320013172122,-0.0744,-37.692566
11.185,2.0,1.0,1.0,34.4,34.3,34.3,2.5,4.2,2.5125,0.6875236405518658,-0.012372829910133398,0.7142339366927163,0.004691556732530065,-0.075265,-37.567197
11.185,2.0,1.0,1.0,34.4,34.3,34.3,2.5,4.2,2.515,0.6815975354785386,-0.012595330004618512,0.7197528339058054,0.004648021174684025,-0.076147,-37.441333
11.185,2.0,1.0,1.0,34.4,34.3,34.3,2.5,4.2,2.5175,0.6755925835345852,-0.012821599484601641,0.725252096335202,0.004601614084085205,-0.077046,-37.314963
11.185,2.0,1.0,1.0,34.4,34.3,34.3,2.5,4.2,2.52,0.66950795483889,-0.013051708309869296,0.730730916845133,0.004552232511970595,-0.077963,-37.188077
11.185,2.0,1.0,1.0,34.4,34.3,34.3,2.5,4.2,2.5225,0.663342809594729,-0.013285727867630642,0.736188464356069,0.004499769662292632,-0.078898,-37.060665
11.185,2.0,1.0,1.0,34.4,34.3,34.3,2.5,4.2,2.525,0.6570962980846032,-0.013523730999257416,0.7416238831025982,0.0044441147303525795,-0.079851,-36.932717
11.185,2.0,1.0,1.0,34.4,34.3,34.3,2.5,4.2,2.5275,0.6507675606728042,-0.013765792027143748,0.7470362918672409,0.004385152733742713,-0.080824,-36.804222
11.185,2.0,1.0,1.0,34.4,34.3,34.3,2.5,4.2,2.53,0.6443557278162266,-0.01401198678164345,0.7524247831893304,0.004322764335177817,-0.081817,-36.67517
11.185,2.0,1.0,1.0,34.4,34.3,34.3,2.5,4.2,2.5325,0.6378599200839704,-0.014262392628039001,0.7577884225480901,0.004256825656770151,-0.082829,-36.545549
11.185,2.0,1.0,1.0,34.4,34.3,34.3,2.5,4.2,2.535,0.631279248186311,-0.014517088493490595,0.7631262475189661,0.004187208085274349,-0.083863,-36.415349
11.185,2.0,1.0,1.0,34.4,34.3,34.3,2.5,4.2,2.5375,0.6246128130136459,-0.014776154893906032,0.7684372669022485,0.004113778067798716,-0.084917,-36.284557
11.185,2.0,1.0,1.0,34.4,34.3,34.3,2.5,4.2,2.54,0.6178597056860528,-0.015039673960668246,0.7737204598229722,0.004036396897446808,-0.085994,-36.153164
11.185,2.0,1.0,1.0,34.4,34.3,34.3,2.5,4.2,2.5425,0.6110190076141392,-0.015307729467147558,0.7789747748010499,0.00395492048831868,-0.087093,-36.021156
11.185,2.0,1.0,1.0,34.4,34.3,34.3,2.5,4.2,2.545,0.6040897905718899,-0.015580406854919019,0.7841991287905243,0.0038691991392643624,-0.088215,-35.888522
11.185,2.0,1.0,1.0,34.4,34.3,34.3,2.5,4.2,2.5475,0.5970711167822786,-0.01585779325959574,0.7893924061867968,0.003779077285742333,-0.08936,-35.75525
11.185,2.0,1.0,1.0,34.4,34.3,34.3,2.5,4.2,2.55,0.5899620390164068,-0.016139977536179625,0.7945534578006344,0.003684393239092543,-0.09053,-35.621328
11.185,2.0,1.0,1.0,34.4,34.3,34.3,2.5,4.2,2.5525,0.5827616007070463,-0.016427050283820098,0.7996810997976828,0.0035849789124878942,-0.091725,-35.486741
11.185,2.0,1.0,1.0,34.4,34.3,34.3,2.5,4.2,2.555,0.5754688360774312,-0.01671910386985868,0.8047741126021812,0.0034806595327785137,-0.092946,-35.351478
11.185,2.0,1.0,1.0,34.4,34.3,34.3,2.5,4.2,2.5575,0.5680827702862506,-0.017016232453026248,0.8098312397634994,0.003371253337389558,-0.094193,-35.215525
11.185,2.0,1.0,1.0,34.4,34.3,34.3,2.5,4.2,2.56,0.5606024195898185,-0.017318532005642148,0.8148511867840412,0.003256571255376548,-0.095468,-35.078869
11.185,2.0,1.0,1.0,34.4,34.3,34.3,2.5,4.2,2.5625,0.553026791522463,-0.0176261003346515,0.819832619907002,0.00313641657167973,-0.096771,-34.941496
11.185,2.0,1.0,1.0,34.4,34.3,34.3,2.5,4.2,2.565,0.5453548850962201,-0.017939037101317036,0.8247741648623936,0.003010584573552218,-0.098102,-34.803391
11.185,2.0,1.0,1.0,34.4,34.3,34.3,2.5,4.2,2.5675,0.5375856910210051,-0.01825744383936308,0.8296744055696473,0.0028788621780655157,-0.099463,-34.66454
11.185,2.0,1.0,1.0,34.4,34.3,34.3,2.5,4.2,2.57,0.5297181919464707,-0.018581423971347977,0.8345318827950502,0.002741027539517288,-0.100855,-34.524929
11.185,2.0,1.0,1.0,34.4,34.3,34.3,2.5,4.2,2.5725,0.5217513627268491,-0.018911082823016453,0.8393450927621479,0.00259684963548228,-0.102278,-34.384542
11.185,2.0,1.0,1.0,34.4,34.3,34.3,2.5,4.2,2.575,0.513684170710141,-0.019246527635357842,0.8441124857131743,0.002446087830157565,-0.103734,-34.243363
11.185,2.0,1.0,1.0,34.4,34.3,34.3,2.5,4.2,2.5775,0.5055155760531027,-0.019587867574065228,0.8488324644194327,0.0022884914135536966,-0.105223,-34.101378
11.185,2.0,1.0,1.0,34.4,34.3,34.3,2.5,4.2,2.58,0.4972445320635564,-0.019935213736059738,0.8535033826384708,0.002123799114977068,-0.106747,-33.958568
11.185,2.0,1.0,1.0,34.4,34.3,34.3,2.5,4.2,2.5825,0.48886998557163364,-0.020288679152706476,0.8581235435157387,0.0019517385891350324,-0.108307,-33.814919
11.185,2.0,1.0,1.0,34.4,34.3,34.3,2.5,4.2,2.585,0.4803908773316846,-0.02064837878930932,0.8626911979283105,0.0017720258730676672,-0.109903,-33.670413
11.185,2.0,1.0,1.0,34.4,34.3,34.3,2.5,4.2,2.5875,0.47180614245664165,-0.021014429540426757,0.8672045427680922,0.0015843648119767044,-0.111536,-33.525031
11.185,2.0,1.0,1.0,34.4,34.3,34.3,2.5,4.2,2.59,0.46311471088679285,-0.021386950220501296,0.871661719161784,0.0013884464518745276,-0.113209,-33.378757
11.185,2.0,1.0,1.0,34.4,34.3,34.3,2.5,4.2,2.5925,0.45431550789497627,-0.021766061549239806,0.8760608106247176,0.0011839483968140467,-0.114923,-33.231572
11.185,2.0,1.0,1.0,34.4,34.3,34.3,2.5,4.2,2.595,0.44540745463039655,-0.02215188613112067,0.880399841145467,0.000970534128290144,-0.116678,-33.083457
11.185,2.0,1.0,1.0,34.4,34.3,34.3,2.5,4.2,2.5975,0.4363894687033367,-0.02254454842833495,0.8846767731979979,0.0007478522842097038,-0.118475,-32.934393
11.185,2.0,1.0,1.0,34.4,34.3,34.3,2.5,4.2,2.6,0.427260464813232,-0.022944174726392586,0.8888895056778404,0.0005155358946250787,-0.120318,-32.784359
11.185,2.0,1.0,1.0,34.4,34.3,34.3,2.5,4.2,2.6025,0.41801935542271423,-0.023350893091538462,0.8930358717585868,0.00027320157119825643,-0.122206,-32.633336
11.185,2.0,1.0,1.0,34.4,34.3,34.3,2.5,4.2,2.605,0.4086650514803905,-0.023764833319029385,0.8971136366647496,2.0448647120025478e-05,-0.124142,-32.481301
11.185,2.0,1.0,1.0,34.4,34.3,34.3,2.5,4.2,2.6075,0.3991964631953291,-0.024186126871214825,0.9011204953567382,-0.00024314173605988467,-0.126126,-32.328235
11.185,2.0,1.0,1.0,34.4,34.3,34.3,2.5,4.2,2.61,0.3896125008664121,-0.024614906804245686,0.9050540701234132,-0.0005180075985273512,-0.128162,-32.174113
11.185,2.0,1.0,1.0,34.4,34.3,34.3,2.5,4.2,2.6125,0.37991207576992847,-0.025051307682102078,0.9089119080773764,-0.0008046071533775545,-0.13025,-32.018914
11.185,2.0,1.0,1.0,34.4,34.3,34.3,2.5,4.2,2.615,0.37009410110901747,-0.02549546547648101,0.9126914785477509,-0.0011034199033721826,-0.132393,-31.862614
11.185,2.0,1.0,1.0,34.4,34.3,34.3,2.5,4.2,2.6175,0.3601574930288471,-0.025947517450916155,0.9163901703648798,-0.0014149478081655622,-0.134592,-31.705189
11.185,2.0,1.0,1.0,34.4,34.3,34.3,2.5,4.2,2.62,0.3501011717016692,-0.02640760202731469,0.9200052890308824,-0.0017397165273041846,-0.136849,-31.546613
11.185,2.0,1.0,1.0,34.4,34.3,34.3,2.5,4.2,2.6225,0.33992406248620977,-0.02687585863288253,0.9235340537695984,-0.002078276744764551,-0.139167,-31.386861
11.185,2.0,1.0,1.0,34.4,34.3,34.3,2.5,4.2,2.625,0.329625097166215,-0.0273524275251707,0.926973594448892,-0.00243120558129479,-0.141548,-31.225906
11.185,2.0,1.0,1.0,34.4,34.3,34.3,2.5,4.2,2.6275,0.3192032152732938,-0.027837449592707737,0.9303209483677541,-0.0027991081013830073,-0.143994,-31.063721
11.185,2.0,1.0,1.0,34.4,34.3,34.3,2.5,4.2,2.63,0.30865736549966555,-0.028331066128378095,0.9335730569000142,-0.0031826189222802057,-0.146508,-30.900279
11.185,2.0,1.0,1.0,34.4,34.3,34.3,2.5,4.2,2.6325,0.2979865072068329,-0.0288334185723648,0.9367267619857911,-0.0035824039331766996,-0.149092,-30.735548
11.185,2.0,1.0,1.0,34.4,34.3,34.3,2.5,4.2,2.635,0.28718961203672205,-0.029344648221087802,0.9397788024610585,-0.003999162133367344,-0.151748,-30.569501
11.185,2.0,1.0,1.0,34.4,34.3,34.3,2.5,4.2,2.6375,0.27626566563239696,-0.02986489589813091,0.9427258102148784,-0.004433627599051994,-0.154481,-30.402104
11.185,2.0,1.0,1.0,34.4,34.3,34.3,2.5,4.2,2.64,0.2652136694760352,-0.030394301582655214,0.9455643061629438,-0.004886571589316095,-0.157292,-30.233327
11.185,2.0,1.0,1.0,34.4,34.3,34.3,2.5,4.2,2.6425,0.2540326428525972,-0.030933003990233545,0.9482906960250487,-0.005358804802820757,-0.160186,-30.063136
11.185,2.0,1.0,1.0,34.4,34.3,34.3,2.5,4.2,2.645,0.24272162494835048,-0.03148114010040337,0.9509012658930005,-0.00585117979782892,-0.163164,-29.891497
11.185,2.0,1.0,1.0,34.4,34.3,34.3,2.5,4.2,2.6475,0.2312796770943042,-0.03203884462450883,0.953392177574235,-0.006364593589398257,-0.166232,-29.718374
11.185,2.0,1.0,1.0,34.4,34.3,34.3,2.5,4.2,2.65,0.21970588516553718,-0.03260624940657859,0.9557594636950374,-0.006899990438912229,-0.169392,-29.54373
11.185,2.0,1.0,1.0,34.4,34.3,34.3,2.5,4.2,2.6525,0.20799936214857165,-0.03318348274904278,0.9579990225457291,-0.007458364852598641,-0.172649,-29.367527
11.185,2.0,1.0,1.0,34.4,34.3,34.3,2.5,4.2,2.655,0.19615925089007438,-0.03377066865402373,0.9601066126485063,-0.008040764807331142,-0.176007,-29.189726
11.185,2.0,1.0,1.0,34.4,34.3,34.3,2.5,4.2,2.6575,0.18418472704164524,-0.03436792596970437,0.9620778470267205,-0.008648295223829488,-0.17947,-29.010286
11.185,2.0,1.0,1.0,34.4,34.3,34.3,2.5,4.2,2.66,0.17207500221697095,-0.034975367429880305,0.9639081871522978,-0.009282121709399816,-0.183042,-28.829164
11.185,2.0,1.0,1.0,34.4,34.3,34.3,2.5,4.2,2.6625,0.1598293273794557,-0.03559309857319339,0.9655929365456672,-0.009943474594607598,-0.18673,-28.646315
11.185,2.0,1.0,1.0,34.4,34.3,34.3,2.5,4.2,2.665,0.14744699648040624,-0.03622121652670421,0.9671272339999608,-0.010633653290781066,-0.190537,-28.461696
11.185,2.0,1.0,1.0,34.4,34.3,34.3,2.5,4.2,2.6675,0.13492735037025497,-0.03685980863634477,0.9685060463983517,-0.011354030998029275,-0.19447,-28.275257
11.185,2.0,1.0,1.0,34.4,34.3,34.3,2.5,4.2,2.67,0.12226978100786788,-0.03750895092436111,0.969724161090153,-0.012106059796572715,-0.198535,-28.086949
11.185,2.0,1.0,1.0,34.4,34.3,34.3,2.5,4.2,2.6725,0.10947373599605746,-0.03816870635105235,0.970776177787678,-0.01289127615764884,-0.202737,-27.896721
11.185,2.0,1.0,1.0,34.4,34.3,34.3,2.5,4.2,2.675,0.09653872347489793,-0.03883912285487981,0.9716564999418251,-0.013711306914127943,-0.207084,-27.704519
11.185,2.0,1.0,1.0,34.4,34.3,34.3,2.5,4.2,2.6775,0.08346431740841005,-0.03952023114128471,0.9723593255498012,-0.014567875735303671,-0.211583,-27.510288
11.185,2.0,1.0,1.0,34.4,34.3,34.3,2.5,4.2,2.68,0.07025016330480852,-0.04021204218623192,0.9728786373433377,-0.015462810155158418,-0.216241,-27.31397
11.185,2.0,1.0,1.0,34.4,34.3,34.3,2.5,4.2,2.6825,0.05689598441580685,-0.040914544415485254,0.9732081923000554,-0.016398049208819678,-0.221067,-27.115505
11.185,2.0,1.0,1.0,34.4,34.3,34.3,2.5,4.2,2.685,0.04340158846661955,-0.04162770051480472,0.9733415104142552,-0.017375651737989387,-0.226069,-26.914828
11.185,2.0,1.0,1.0,34.4,34.3,34.3,2.5,4.2,2.6875,0.0297668749754214,-0.0423514438194922,0.97327186265626,-0.0183978054329212,-0.231256,-26.711875
11.185,2.0,1.0,1.0,34.4,34.3,34.3,2.5,4.2,2.69,0.01599184322932753,-0.04308567422383097,0.9729922580413745,-0.019466836686143015,-0.236639,-26.506578
11.185,2.0,1.0,1.0,34.4,34.3,34.3,2.5,4.2,2.6925,0.002076600993528655,-0.04383025354177096,0.97249542972052,-0.020585221341673607,-0.242229,-26.298863
11.185,2.0,1.0,1.0,34.4,34.3,34.3,2.5,4.2,2.695,-0.011978625958459785,-0.04458500023945643,0.971773819994432,-0.02175559643307613,-0.248036,-26.088658
11.185,2.0,1.0,1.0,34.4,34.3,34.3,2.5,4.2,2.6975,-0.026173483392444664,-0.04534968344760858,0.9708195641418995,-0.022980773014472888,-0.254074,-25.875882
11.185,2.0,1.0,1.0,34.4,34.3,34.3,2.5,4.2,2.7,-0.04050747712261754,-0.04612401614698924,0.9696244729397027,-0.024263750200748578,-0.260356,-25.660455
11.185,2.0,1.0,1.0,34.4,34.3,34.3,2.5,4.2,2.7025,-0.05497996034758764,-0.04690764740280709,0.9681800137374471,-0.025607730546769195,-0.266895,-25.442291
11.185,2.0,1.0,1.0,34.4,34.3,34.3,2.5,4.2,2.705,-0.06959011965760406,-0.04770015350345551,0.9664772899342896,-0.027016136910718094,-0.273709,-25.2213
11.185,2.0,1.0,1.0,34.4,34.3,34.3,2.5,4.2,2.7075,-0.08433695953220886,-0.04850102783481279,0.9645070186862771,-0.02849263096380884,-0.280813,-24.997389
11.185,2.0,1.0,1.0,34.4,34.3,34.3,2.5,4.2,2.71,-0.09921928511789202,-0.0493096692927552,0.962259506652536,-0.03004113352788528,-0.288226,-24.770457
11.185,2.0,1.0,1.0,34.4,34.3,34.3,2.5,4.2,2.7125,-0.11423568304031673,-0.05012536900265613,0.9597246235655029,-0.03166584694402502,-0.295968,-24.540403
11.185,2.0,1.0,1.0,34.4,34.3,34.3,2.5,4.2,2.715,-0.1293844999640228,-0.050947295074400045,0.9568917733845822,-0.03337127969944871,-0.30406,-24.307116
11.185,2.0,1.0,1.0,34.4,34.3,34.3,2.5,4.2,2.7175,-0.14466381856304622,-0.051774475073522716,0.9537498627636736,-0.03516227356710732,-0.312526,-24.070485
11.185,2.0,1.0,1.0,34.4,34.3,34.3,2.5,4.2,2.72,-0.16007143050680553,-0.05260577583191706,0.9502872665307134,-0.037044033542514704,-0.321392,-23.830387
11.185,2.0,1.0,1.0,34.4,34.3,34.3,2.5,4.2,2.7225,-0.1756048059951154,-0.05343988015316659,0.9464917898413303,-0.039022160896003445,-0.330684,-23.586697
11.185,2.0,1.0,1.0,34.4,34.3,34.3,2.5,4.2,2.725,-0.19126105929153467,-0.05427525988559256,0.9423506266287339,-0.04110268969582092,-0.340435,-23.339282
11.185,2.0,1.0,1.0,34.4,34.3,34.3,2.5,4.2,2.7275,-0.2070369096028307,-0.05511014473761164,0.9378503139277369,-0.04329212719856921,-0.350678,-23.088003
11.185,2.0,1.0,1.0,34.4,34.3,34.3,2.5,4.2,2.73,-0.2229286365299636,-0.055942486091356214,0.9329766816022815,-0.04559749854846407,-0.361448,-22.832712
11.185,2.0,1.0,1.0,34.4,34.3,34.3,2.5,4.2,2.7325,-0.238932029168526,-0.05676991492726556,0.9277147969529614,-0.0480263962757291,-0.372788,-22.573253
11.185,2.0,1.0,1.0,34.4,34.3,34.3,2.5,4.2,2.735,-0.25504232775794067,-0.05758969279896317,0.9220489036241177,-0.05058703513677469,-0.384741,-22.309462
11.185,2.0,1.0,1.0,34.4,34.3,34.3,2.5,4.2,2.7375,-0.2712541565621897,-0.0583986545873463,0.9159623541697448,-0.05328831289399134,-0.397358,-22.041167
11.185,2.0,1.0,1.0,34.4,34.3,34.3,2.5,4.2,2.74,-0.2875614464013961,-0.05919314150688259,0.9094375355748615,-0.05613987768971035,-0.410692,-21.768184
11.185,2.0,1.0,1.0,34.4,34.3,34.3,2.5,4.2,2.7425,-0.3039573449325009,-0.059968922525011965,0.9024557869662296,-0.059152202725109376,-0.424806,-21.49032
11.185,2.0,1.0,1.0,34.4,34.3,34.3,2.5,4.2,2.745,-0.32043411238476044,-0.06072110197402564,0.8949973086865292,-0.06233666900724715,-0.439766,-21.207371
11.185,2.0,1.0,1.0,34.4,34.3,34.3,2.5,4.2,2.7475,-0.3369829999749204,-0.06144401066723768,0.8870410618543291,-0.06570565697101238,-0.455648,-20.919119
11.185,2.0,1.0,1.0,34.4,34.3,34.3,2.5,4.2,2.75,-0.353594107636322,-0.0621310772569398,0.878564657495873,-0.0692726478100318,-0.472537,-20.625337
11.185,2.0,1.0,1.0,34.4,34.3,34.3,2.5,4.2,2.7525,-0.3702562169691228,-0.06277467586452362,0.8695442343249922,-0.07305233535041478,-0.490528,-20.325782
11.185,2.0,1.0,1.0,34.4,34.3,34.3,2.5,4.2,2.755,-0.38695659442180397,-0.06336594514068072,0.8599543242806218,-0.07706074925737853,-0.509728,-20.020197
11.185,2.0,1.0,1.0,34.4,34.3,34.3,2.5,4.2,2.7575,-0.4036807586052678,-0.06389457283493331,0.8497677050311642,-0.08131539025375835,-0.530257,-19.70831
11.185,2.0,1.0,1.0,34.4,34.3,34.3,2.5,4.2,2.76,-0.4204122042673793,-0.06434853861783367,0.8389552388557957,-0.08583537781706041,-0.552251,-19.389833
11.185,2.0,1.0,1.0,34.4,34.3,34.3,2.5,4.2,2.7625,-0.4371320737524912,-0.06471380624224425,0.8274856976641753,-0.09064161045907405,-0.575866,-19.06446
11.185,2.0,1.0,1.0,34.4,34.3,34.3,2.5,4.2,2.765,-0.45381876465536974,-0.06497395407292436,0.8153255744895499,-0.09575693810854964,-0.601278,-18.731868
11.185,2.0,1.0,1.0,34.4,34.3,34.3,2.5,4.2,2.7675,-0.4704474597514529,-0.06510973045832101,0.8024388826884594,-0.10120634521188329,-0.628689,-18.391714
11.185,2.0,1.0,1.0,34.4,34.3,34.3,2.5,4.2,2.77,-0.4869895620218284,-0.06509851724522385,0.7887869454507068,-0.10701714179388643,-0.658331,-18.043636
11.185,2.0,1.0,1.0,34.4,34.3,34.3,2.5,4.2,2.7725,-0.5034120135427438,-0.06491368080146227,0.7743281802778249,-0.11321915767218792,-0.69047,-17.687251
11.185,2.0,1.0,1.0,34.4,34.3,34.3,2.5,4.2,2.775,-0.5196764719997504,-0.06452378504388769,0.7590178861309311,-0.11984493199581177,-0.725415,-17.322154
11.185,2.0,1.0,1.0,34.4,34.3,34.3,2.5,4.2,2.7775,-0.5357383124150258,-0.06389163497497369,0.7428080454162728,-0.12692988585230855,-0.763523,-16.947919
11.185,2.0,1.0,1.0,34.4,34.3,34.3,2.5,4.2,2.78,-0.5515454141271694,-0.06297311190438519,0.7256471594953345,-0.13451245924386596,-0.805212,-16.5641
11.185,2.0,1.0,1.0,34.4,34.3,34.3,2.5,4.2,2.7825,-0.5670366839289952,-0.06171575267522894,0.7074801458744414,-0.14263418439041434,-0.850971,-16.170227
11.185,2.0,1.0,1.0,34.4,34.3,34.3,2.5,4.2,2.785,-0.582140255403522,-0.06005701469236265,0.6882483389317325,-0.15133965381759612,-0.901376,-15.765815
11.185,2.0,1.0,1.0,34.4,34.3,34.3,2.5,4.2,2.7875,-0.5967712919111822,-0.05792215638339249,0.6678896558115007,-0.16067632223411724,-0.957105,-15.350359
11.185,2.0,1.0,1.0,34.4,34.3,34.3,2.5,4.2,2.79,-0.6108293067211843,-0.05522164926886213,0.6463390175592479,-0.17069405325112635,-1.018968,-14.923345
11.185,2.0,1.0,1.0,34.4,34.3,34.3,2.5,4.2,2.7925,-0.6241948994586642,-0.05184802408929342,0.6235291563473135,-0.1814442819674212,-1.087928,-14.48425
11.185,2.0,1.0,1.0,34.4,34.3,34.3,2.5,4.2,2.795,-0.6367257956024832,-0.047672041661425864,0.5993919978327613,-0.19297860737643985,-1.165143,-14.03256
11.185,2.0,1.0,1.0,34.4,34.3,34.3,2.5,4.2,2.7975,-0.648252069674995,-0.04253807371944868,0.5738608902043244,-0.2053465477083035,-1.252011,-13.567774
11.185,2.0,1.0,1.0,34.4,34.3,34.3,2.5,4.2,2.8,-0.6585704413389629,-0.036258588139723165,0.5468740673838678,-0.21859207837184927,-1.350227,-13.089434
11.185,2.0,1.0,1.0,34.4,34.3,34.3,2.5,4.2,2.8025,-0.6674375717665434,-0.028607671307460322,0.5183798943824014,-0.23274841519865686,-1.461859,-12.597145
11.185,2.0,1.0,1.0,34.4,34.3,34.3,2.5,4.2,2.805,-0.6745623812103794,-0.01931361332395569,0.4883446603905261,-0.24783029320437558,-1.589442,-12.090616
11.185,2.0,1.0,1.0,34.4,34.3,34.3,2.5,4.2,2.8075,-0.6795976010971351,-0.008050771821374822,0.4567639701442358,-0.2638227132019847,-1.736101,-11.569714
11.185,2.0,1.0,1.0,34.4,34.3,34.3,2.5,4.2,2.81,-0.6821311355910136,0.005568713733912622,0.4236791365001755,-0.2806647856755409,-1.905703,-11.034532
11.185,2.0,1.0,1.0,34.4,34.3,34.3,2.5,4.2,2.8125,-0.68167844750251,0.0220021566225657,0.389200368745952,-0.298226921601305,-2.103048,-10.485489
11.185,2.0,1.0,1.0,34.4,34.3,34.3,2.5,4.2,2.815,-0.6776782592637416,0.041780250590521054,0.3535388893992548,-0.31627929486781514,-2.334105,-9.923453
11.185,2.0,1.0,1.0,34.4,34.3,34.3,2.5,4.2,2.8175,-0.6694955732006299,0.06550375726889984,0.3170501741605733,-0.334449449943311,-2.606293,-9.349913
11.185,2.0,1.0,1.0,34.4,34.3,34.3,2.5,4.2,2.82,-0.6564385622361298,0.09382653064537709,0.28028983386286244,-0.35216760415977666,-2.92878,-8.767187
11.185,2.0,1.0,1.0,34.4,34.3,34.3,2.5,4.2,2.8225,-0.6377992904473283,0.12741513257358086,0.24408139837758416,-0.3686004239045639,-3.312753,-8.178682
11.185,2.0,1.0,1.0,34.4,34.3,34.3,2.5,4.2,2.825,-0.6129319669336039,0.1668716578210044,0.20959007711541863,-0.38257914991056424,-3.771504,-7.589195
11.185,2.0,1.0,1.0,34.4,34.3,34.3,2.5,4.2,2.8275,-0.5813846998895081,0.212604226731584,0.17838676944895773,-0.39253755199488505,-4.319979,-7.005226
