1,w,sub_t,h,l1,l2,l3,g1,g2,Freq,S11_re,S21_re,S11_img,S21_img,S11_dB,S21_dB
11.185,2.0,1.0,1.0,34.5,34.0,34.0,3.0,2.1,2.5,0.700384790376402,-0.0160463598618994,0.701803673851845,0.00829609552319381,-0.074168,-34.863685
11.185,2.0,1.0,1.0,34.5,34.0,34.0,3.0,2.1,2.5025,0.6946116448327407,-0.016346275731550227,0.7073809846293322,0.008271973776884711,-0.075025,-34.74144
11.185,2.0,1.0,1.0,34.5,34.0,34.0,3.0,2.1,2.505,0.6887616136340832,-0.01665149249235001,0.712939554381562,0.008244691381266146,-0.075899,-34.618699
11.185,2.0,1.0,1.0,34.5,34.0,34.0,3.0,2.1,2.5075,0.6828339198370399,-0.016962113568759686,0.7184786110222766,0.008214127348965088,-0.076791,-34.495452
11.185,2.0,1.0,1.0,34.5,34.0,34.0,3.0,2.1,2.51,0.6768277778100121,-0.01727824468202382,0.7239973602195281,0.008180156092211573,-0.0777,-34.371688
11.185,2.0,1.0,1.0,34.5,34.0,34.0,3.0,2.1,2.5125,0.6707423932473175,-0.017599993904057233,0.7294949847277757,0.008142647229351188,-0.078627,-34.2474
11.185,2.0,1.0,1.0,34.5,34.0,34.0,3.0,2.1,2.515,0.6645769631906399,-0.017927471712489977,0.7349706436990705,0.008101465382156597,-0.079573,-34.122576
11.185,2.0,1.0,1.0,34.5,34.0,34.0,3.0,2.1,2.5175,0.6583306760582677,-0.018260791046875877,0.740423471972587,0.008056469963437372,-0.080539,-33.997208
11.185,2.0,1.0,1.0,34.5,34.0,34.0,3.0,2.1,2.52,0.652002711682562,-0.018600067366072184,0.7458525793417574,0.008007514954415667,-0.081524,-33.871284
11.185,2.0,1.0,1.0,34.5,34.0,34.0,3.0,2.1,2.5225,0.6455922413561723,-0.01894541870679193,0.7512570497981983,0.007954448671303198,-0.082529,-33.744796
11.185,2.0,1.0,1.0,34.5,34.0,34.0,3.0,2.1,2.525,0.6390984278874907,-0.019296965743330247,0.7566359407516268,0.007897113520478078,-0.083555,-33.617731
11.185,2.0,1.0,1.0,34.5,34.0,34.0,3.0,2.1,2.5275,0.6325204256658904,-0.01965483184846164,0.761988282224888,0.007835345741621457,-0.084602,-33.49008
11.185,2.0,1.0,1.0,34.5,34.0,34.0,3.0,2.1,2.53,0.6258573807373218,-0.02001914315550203,0.7673130760231979,0.007768975138133871,-0.085671,-33.361832
11.185,2.0,1.0,1.0,34.5,34.0,34.0,3.0,2.1,2.5325,0.6191084308908517,-0.020390028621523684,0.772609294876658,0.007697824794104405,-0.086763,-33.232975
11.185,2.0,1.0,1.0,34.5,34.0,34.0,3.0,2.1,2.535,0.6122727057567677,-0.02076762009170949,0.7778758815550592,0.007621710777061672,-0.087878,-33.103498
11.185,2.0,1.0,1.0,34.5,34.0,34.0,3.0,2.1,2.5375,0.6053493269169147,-0.021152052364825244,0.7831117479539302,0.007540441825680992,-0.089017,-32.97339
11.185,2.0,1.0,1.0,34.5,34.0,34.0,3.0,2.1,2.54,0.5983374080279366,-0.021543463259782597,0.7883157741507584,0.007453819021568228,-0.09018,-32.842638
11.185,2.0,1.0,1.0,34.5,34.0,34.0,3.0,2.1,2.5425,0.5912360549581506,-0.02194199368326177,0.7934868074302357,0.007361635444183004,-0.091369,-32.711231
11.185,2.0,1.0,1.0,34.5,34.0,34.0,3.0,2.1,2.545,0.5840443659388095,-0.022347787698350278,0.7986236612773431,0.007263675807897356,-0.092583,-32.579157
11.185,2.0,1.0,1.0,34.5,34.0,34.0,3.0,2.1,2.5475,0.576761431730558,-0.022760992594150785,0.8037251143370026,0.007159716080119341,-0.093824,-32.446403
11.185,2.0,1.0,1.0,34.5,34.0,34.0,3.0,2.1,2.55,0.5693863358058938,-0.023181758956297573,0.8087899093389955,0.0070495230793348514,-0.095093,-32.312955
11.185,2.0,1.0,1.0,34.5,34.0,34.0,3.0,2.1,2.5525,0.5619181545485455,-0.02361024073831212,0.8138167519867261,0.006932854051843636,-0.096391,-32.178802
11.185,2.0,1.0,1.0,34.5,34.0,34.0,3.0,2.1,2.555,0.554355957470663,-0.024046595333715465,0.8188043098083845,0.006809456225874619,-0.097717,-32.043928
11.185,2.0,1.0,1.0,34.5,34.0,34.0,3.0,2.1,2.5575,0.5466988074487976,-0.02449098364880187,0.8237512109689449,0.006679066341677073,-0.099074,-31.908322
11.185,2.0,1.0,1.0,34.5,34.0,34.0,3.0,2.1,2.56,0.5389457609797002,-0.024943570175960997,0.8286560430413625,0.006541410156078823,-0.100462,-31.771968
11.185,2.0,1.0,1.0,34.5,34.0,34.0,3.0,2.1,2.5625,0.531095868457004,-0.0254045230674214,0.833517351735228,0.00639620191989597,-0.101881,-31.634852
11.185,2.0,1.0,1.0,34.5,34.0,34.0,3.0,2.1,2.565,0.523148174469918,-0.02587401420926444,0.8383336395810546,0.006243143826458463,-0.103334,-31.49696
11.185,2.0,1.0,1.0,34.5,34.0,34.0,3.0,2.1,2.5675,0.5151017181251328,-0.02635221929553917,0.843103364568229,0.0060819254293886325,-0.104821,-31.358277
11.185,2.0,1.0,1.0,34.5,34.0,34.0,3.0,2.1,2.57,0.5069555333931828,-0.026839317902281563,0.8478249387345699,0.00591222302762943,-0.106343,-31.218786
11.185,2.0,1.0,1.0,34.5,34.0,34.0,3.0,2.1,2.5725,0.49870864948058724,-0.027335493561213963,0.8524967267052875,0.005733699015568811,-0.107901,-31.078472
11.185,2.0,1.0,1.0,34.5,34.0,34.0,3.0,2.1,2.575,0.4903600912291656,-0.0278409338328691,0.857117044179003,0.00554600119594192,-0.109497,-30.937319
11.185,2.0,1.0,1.0,34.5,34.0,34.0,3.0,2.1,2.5775,0.4819088795440038,-0.028355830378846807,0.8616841563583225,0.005348762053014779,-0.111131,-30.795311
11.185,2.0,1.0,1.0,34.5,34.0,34.0,3.0,2.1,2.58,0.47335403185162245,-0.028880379032870756,0.8661962763223041,0.005141597983358793,-0.112805,-30.652429
11.185,2.0,1.0,1.0,34.5,34.0,34.0,3.0,2.1,2.5825,0.4646945625899898,-0.029414779870269362,0.8706515633379747,0.004924108481314778,-0.114521,-30.508657
11.185,2.0,1.0,1.0,34.5,34.0,34.0,3.0,2.1,2.585,0.4559294837321302,-0.02995923727545003,0.8750481211078269,0.004695875276013335,-0.11628,-30.363977
11.185,2.0,1.0,1.0,34.5,34.0,34.0,3.0,2.1,2.5875,0.4470578053451582,-0.03051396000688171,0.8793839959500572,0.004456461416570632,-0.118082,-30.218369
11.185,2.0,1.0,1.0,34.5,34.0,34.0,3.0,2.1,2.59,0.43807853618671794,-0.031079161259031155,0.8836571749080061,0.004205410301800933,-0.11993,-30.071816
11.185,2.0,1.0,1.0,34.5,34.0,34.0,3.0,2.1,2.5925,0.428990684340881,-0.03165505872063008,0.8878655837850613,0.0039422446504926885,-0.121826,-29.924297
11.185,2.0,1.0,1.0,34.5,34.0,34.0,3.0,2.1,2.595,0.4197932578957484,-0.032241874628558244,0.8920070851009415,0.0036664654079647963,-0.123771,-29.775793
11.185,2.0,1.0,1.0,34.5,34.0,34.0,3.0,2.1,2.5975,0.4104852656650806,-0.0328398358165426,0.8960794759650191,0.0033775505842629197,-0.125766,-29.626282
11.185,2.0,1.0,1.0,34.5,34.0,34.0,3.0,2.1,2.6,0.4010657179564895,-0.03344917375775757,0.9000804858619407,0.003074954018967685,-0.127814,-29.475744
11.185,2.0,1.0,1.0,34.5,34.0,34.0,3.0,2.1,2.6025,0.39153362738887737,-0.03407012460029333,0.9040077743444761,0.002758104067154082,-0.129916,-29.324157
11.185,2.0,1.0,1.0,34.5,34.0,34.0,3.0,2.1,2.605,0.3818880097619943,-0.03470292919432109,0.9078589286280606,0.0024264022005729045,-0.132075,-29.171498
11.185,2.0,1.0,1.0,34.5,34.0,34.0,3.0,2.1,2.6075,0.3721278849812004,-0.035347833109628385,0.9116314610810797,0.0020792215176115045,-0.134293,-29.017743
11.185,2.0,1.0,1.0,34.5,34.0,34.0,3.0,2.1,2.61,0.3622522780407525,-0.03600508664201694,0.9153228066044043,0.0017159051550213185,-0.136572,-28.86287
11.185,2.0,1.0,1.0,34.5,34.0,34.0,3.0,2.1,2.6125,0.3522602200691847,-0.03667494480685834,0.9189303198931368,0.001335764593779034,-0.138913,-28.706853
11.185,2.0,1.0,1.0,34.5,34.0,34.0,3.0,2.1,2.615,0.3421507494406218,-0.0373576673178688,0.9224512725729241,0.0009380778507619716,-0.141321,-28.549667
11.185,2.0,1.0,1.0,34.5,34.0,34.0,3.0,2.1,2.6175,0.3319229129562191,-0.0380535185489066,0.9258828502024732,0.0005220875471651487,-0.143796,-28.391286
11.185,2.0,1.0,1.0,34.5,34.0,34.0,3.0,2.1,2.62,0.32157576710022084,-0.03876276747629423,0.9292221491331933,8.699884375209502e-05,-0.146343,-28.231683
11.185,2.0,1.0,1.0,34.5,34.0,34.0,3.0,2.1,2.6225,0.3111083793755611,-0.039485687598831296,0.9324661732160054,-0.00036802276788309264,-0.148963,-28.070829
11.185,2.0,1.0,1.0,34.5,34.0,34.0,3.0,2.1,2.625,0.300519829724369,-0.0402225568322726,0.935611830344454,-0.000843853829881138,-0.15166,-27.908695
11.185,2.0,1.0,1.0,34.5,34.0,34.0,3.0,2.1,2.6275,0.28980921203919496,-0.040973657374606016,0.9386559288222266,-0.0013414154514695246,-0.154437,-27.745253
11.185,2.0,1.0,1.0,34.5,34.0,34.0,3.0,2.1,2.63,0.27897563577139767,-0.041739275537954874,0.941595173542006,-0.0018616760253016785,-0.157298,-27.580471
11.185,2.0,1.0,1.0,34.5,34.0,34.0,3.0,2.1,2.6325,0.26801822764369776,-0.042519701542349984,0.944426161961348,-0.002405654142356154,-0.160245,-27.414316
11.185,2.0,1.0,1.0,34.5,34.0,34.0,3.0,2.1,2.635,0.25693613347467237,-0.043315229265951674,0.9471453798598041,-0.002974421722494233,-0.163284,-27.246757
11.185,2.0,1.0,1.0,34.5,34.0,34.0,3.0,2.1,2.6375,0.2457285201237498,-0.044126155945533964,0.9497491968599688,-0.0035691073794634925,-0.166417,-27.077758
11.185,2.0,1.0,1.0,34.5,34.0,34.0,3.0,2.1,2.64,0.2343945775661663,-0.044952781820171595,0.9522338616933342,-0.00419090004101586,-0.169648,-26.907284
11.185,2.0,1.0,1.0,34.5,34.0,34.0,3.0,2.1,2.6425,0.22293352110847006,-0.04579540971005413,0.9545954971898618,-0.004841052846892584,-0.172983,-26.735299
11.185,2.0,1.0,1.0,34.5,34.0,34.0,3.0,2.1,2.645,0.21134459375627776,-0.04665434452119199,0.9568300949679962,-0.005520887349759658,-0.176427,-26.561764
11.185,2.0,1.0,1.0,34.5,34.0,34.0,3.0,2.1,2.6475,0.1996270687474473,-0.047529892665434524,0.9589335097993503,-0.00623179804676289,-0.179983,-26.38664
11.185,2.0,1.0,1.0,34.5,34.0,34.0,3.0,2.1,2.65,0.1877802522653405,-0.04842236138367673,0.9609014536195483,-0.006975257272265239,-0.183657,-26.209885
11.185,2.0,1.0,1.0,34.5,34.0,34.0,3.0,2.1,2.6525,0.17580348634877177,-0.04933205795833221,0.962729489153617,-0.007752820485551168,-0.187456,-26.031457
11.185,2.0,1.0,1.0,34.5,34.0,34.0,3.0,2.1,2.655,0.163696152017231,-0.050259288799083424,0.9644130231208268,-0.008566131990894114,-0.191385,-25.851311
11.185,2.0,1.0,1.0,34.5,34.0,34.0,3.0,2.1,2.6575,0.15145767263250148,-0.0512043583835127,0.965947298980013,-0.009416931131412195,-0.19545,-25.669402
11.185,2.0,1.0,1.0,34.5,34.0,34.0,3.0,2.1,2.66,0.13908751752052773,-0.05216756803142702,0.9673273891720343,-0.010307059002659236,-0.199659,-25.485681
11.185,2.0,1.0,1.0,34.5,34.0,34.0,3.0,2.1,2.6625,0.1265852058807458,-0.05314921448844458,0.9685481868110513,-0.011238465736961323,-0.204018,-25.300099
11.185,2.0,1.0,1.0,34.5,34.0,34.0,3.0,2.1,2.665,0.11395031101376897,-0.05414958829063209,0.9696043967708505,-0.012213218415192349,-0.208536,-25.112603
11.185,2.0,1.0,1.0,34.5,34.0,34.0,3.0,2.1,2.6675,0.10118246490285787,-0.05516897187757492,0.9704905261061498,-0.01323350966907064,-0.213221,-24.923139
11.185,2.0,1.0,1.0,34.5,34.0,34.0,3.0,2.1,2.67,0.08828136318969323,-0.056207637416110005,0.971200873741787,-0.01430166704423226,-0.218082,-24.731652
11.185,2.0,1.0,1.0,34.5,34.0,34.0,3.0,2.1,2.6725,0.07524677059099898,-0.05726584429093676,0.9717295193547981,-0.015420163202420902,-0.223128,-24.538081
11.185,2.0,1.0,1.0,34.5,34.0,34.0,3.0,2.1,2.675,0.062078526809693904,-0.0583438362112478,0.9720703113653939,-0.016591627050233815,-0.22837,-24.342365
11.185,2.0,1.0,1.0,34.5,34.0,34.0,3.0,2.1,2.6775,0.04877655300244569,-0.0594418378742452,0.9722168539427554,-0.017818855892124657,-0.233819,-24.144441
11.185,2.0,1.0,1.0,34.5,34.0,34.0,3.0,2.1,2.68,0.03534085887532896,-0.06056005111665176,0.9721624929200976,-0.01910482871695036,-0.239487,-23.944241
11.185,2.0,1.0,1.0,34.5,34.0,34.0,3.0,2.1,2.6825,0.02177155049073959,-0.06169865047384083,0.9719003005005237,-0.020452720740418866,-0.245387,-23.741695
11.185,2.0,1.0,1.0,34.5,34.0,34.0,3.0,2.1,2.685,0.008068838882273412,-0.06285777805265545,0.9714230586205129,-0.021865919340588385,-0.251532,-23.536729
11.185,2.0,1.0,1.0,34.5,34.0,34.0,3.0,2.1,2.6875,-0.00576695040965878,-0.0640375376079418,0.970723240821279,-0.0233480415402775,-0.257938,-23.329267
11.185,2.0,1.0,1.0,34.5,34.0,34.0,3.0,2.1,2.69,-0.01973536674971343,-0.06523798769382186,0.9697929924594336,-0.024902953209168747,-0.264621,-23.119228
11.185,2.0,1.0,1.0,34.5,34.0,34.0,3.0,2.1,2.6925,-0.03383582261263891,-0.06645913373816742,0.9686241090669996,-0.026534790179806766,-0.271598,-22.906527
11.185,2.0,1.0,1.0,34.5,34.0,34.0,3.0,2.1,2.695,-0.048067580400157156,-0.06770091886187152,0.9672080126466719,-0.02824798149593936,-0.278889,-22.691077
11.185,2.0,1.0,1.0,34.5,34.0,34.0,3.0,2.1,2.6975,-0.06242973765646654,-0.06896321323250904,0.9655357256607592,-0.030047275039135048,-0.286514,-22.472785
11.185,2.0,1.0,1.0,34.5,34.0,34.0,3.0,2.1,2.7,-0.07692121043059016,-0.0702458017036968,0.9635978424411036,-0.031937765810704094,-0.294497,-22.251552
11.185,2.0,1.0,1.0,34.5,34.0,34.0,3.0,2.1,2.7025,-0.09154071448805862,-0.07154836944563915,0.9613844977120581,-0.03392492718119125,-0.30286,-22.027276
11.185,2.0,1.0,1.0,34.5,34.0,34.0,3.0,2.1,2.705,-0.10628674401907921,-0.0728704852173203,0.9588853318786489,-0.036014645459550285,-0.311632,-21.79985
11.185,2.0,1.0,1.0,34.5,34.0,34.0,3.0,2.1,2.7075,-0.12115754742398269,-0.07421158186460144,0.9560894526868494,-0.038213258179158174,-0.320842,-21.56916
11.185,2.0,1.0,1.0,34.5,34.0,34.0,3.0,2.1,2.71,-0.1361510996766395,-0.07557093354862629,0.9529853928119651,-0.04052759654865617,-0.330523,-21.335087
11.185,2.0,1.0,1.0,34.5,34.0,34.0,3.0,2.1,2.7125,-0.15126507066946493,-0.07694762911239134,0.9495610628735301,-0.04296503257285056,-0.340708,-21.097505
11.185,2.0,1.0,1.0,34.5,34.0,34.0,3.0,2.1,2.715,-0.16649678882624647,-0.07834054087630953,0.9458036993106497,-0.0455335314131589,-0.351439,-20.856281
11.185,2.0,1.0,1.0,34.5,34.0,34.0,3.0,2.1,2.7175,-0.18184319912601882,-0.07974828801138992,0.9416998064793932,-0.048241709628955645,-0.362757,-20.611276
11.185,2.0,1.0,1.0,34.5,34.0,34.0,3.0,2.1,2.72,-0.19730081450714396,-0.081169193465406,0.9372350922535013,-0.051098900021079335,-0.37471,-20.362341
11.185,2.0,1.0,1.0,34.5,34.0,34.0,3.0,2.1,2.7225,-0.21286565940802013,-0.08260123320581476,0.9323943963208372,-0.05411522388700742,-0.38735,-20.109321
11.185,2.0,1.0,1.0,34.5,34.0,34.0,3.0,2.1,2.725,-0.22853320394016546,-0.08404197628402305,0.9271616102709184,-0.057301671593643314,-0.400737,-19.852051
11.185,2.0,1.0,1.0,34.5,34.0,34.0,3.0,2.1,2.7275,-0.2442982868694241,-0.08548851390738,0.9215195884640872,-0.06067019247768026,-0.414935,-19.590356
11.185,2.0,1.0,1.0,34.5,34.0,34.0,3.0,2.1,2.73,-0.2601550251867993,-0.08693737531347867,0.9154500485620609,-0.06423379519347219,-0.430015,-19.324052
11.185,2.0,1.0,1.0,34.5,34.0,34.0,3.0,2.1,2.7325,-0.27609670756382326,-0.08838442775772393,0.9089334604856218,-0.06800665974138005,-0.44606,-19.052944
11.185,2.0,1.0,1.0,34.5,34.0,34.0,3.0,2.1,2.735,-0.29211566838493297,-0.08982475732655297,0.9019489224532272,-0.0720042625205978,-0.46316,-18.776825
11.185,2.0,1.0,1.0,34.5,34.0,34.0,3.0,2.1,2.7375,-0.3082031383017687,-0.09125252654598785,0.8944740226523129,-0.07624351585145438,-0.481416,-18.495476
11.185,2.0,1.0,1.0,34.5,34.0,34.0,3.0,2.1,2.74,-0.3243490663242652,-0.0926608038313632,0.8864846850159745,-0.08074292349042035,-0.500943,-18.208665
11.185,2.0,1.0,1.0,34.5,34.0,34.0,3.0,2.1,2.7425,-0.3405419073037728,-0.09404135867222954,0.8779549975408392,-0.08552275369719783,-0.521872,-17.916146
11.185,2.0,1.0,1.0,34.5,34.0,34.0,3.0,2.1,2.745,-0.35676836721428246,-0.09538441500721619,0.8688570216169373,-0.09060523137805503,-0.544348,-17.617658
11.185,2.0,1.0,1.0,34.5,34.0,34.0,3.0,2.1,2.7475,-0.373013096823476,-0.09667835344186466,0.859160580990954,-0.09601475067939047,-0.56854,-17.312925
11.185,2.0,1.0,1.0,34.5,34.0,34.0,3.0,2.1,2.75,-0.389258322070232,-0.0979093507032216,0.848833029315735,-0.101778109075656,-0.594638,-17.001654
11.185,2.0,1.0,1.0,34.5,34.0,34.0,3.0,2.1,2.7525,-0.40548339660890714,-0.0990609418888915,0.8378389958473199,-0.10792476339080562,-0.622861,-16.683536
11.185,2.0,1.0,1.0,34.5,34.0,34.0,3.0,2.1,2.755,-0.4216642583930979,-0.10011348750606955,0.8261401098774307,-0.1144871071720652,-0.653459,-16.358242
11.185,2.0,1.0,1.0,34.5,34.0,34.0,3.0,2.1,2.7575,-0.4377727676663545,-0.10104352282308392,0.8136947061414526,-0.1215007671932776,-0.686723,-16.025427
11.185,2.0,1.0,1.0,34.5,34.0,34.0,3.0,2.1,2.76,-0.4537758980776745,-0.10182296144690715,0.8004575160231641,-0.12900491430094385,-0.722988,-15.684725
11.185,2.0,1.0,1.0,34.5,34.0,34.0,3.0,2.1,2.7625,-0.4696347455750221,-0.10241811802656145,0.7863793533314625,-0.13704257988870422,-0.762643,-15.335752
11.185,2.0,1.0,1.0,34.5,34.0,34.0,3.0,2.1,2.765,-0.4853033109403677,-0.10278850625624898,0.7714068094000402,-0.14566096335131792,-0.806145,-14.978107
11.185,2.0,1.0,1.0,34.5,34.0,34.0,3.0,2.1,2.7675,-0.5007270009805643,-0.10288535758185363,0.7554819812043473,-0.1549117069877715,-0.854027,-14.611369
11.185,2.0,1.0,1.0,34.5,34.0,34.0,3.0,2.1,2.77,-0.5158407801639736,-0.10264979288664142,0.7385422694794442,-0.16485110162691377,-0.90692,-14.235105
11.185,2.0,1.0,1.0,34.5,34.0,34.0,3.0,2.1,2.7725,-0.5305668886844198,-0.10201056373964096,0.72052030345753,-0.17554016675217965,-0.965569,-13.848867
11.185,2.0,1.0,1.0,34.5,34.0,34.0,3.0,2.1,2.775,-0.54481202461669,-0.10088126160789261,0.7013440777142953,-0.1870445202362596,-1.030861,-13.452203
11.185,2.0,1.0,1.0,34.5,34.0,34.0,3.0,2.1,2.7775,-0.5584638676903766,-0.09915687344602117,0.6809374288600133,-0.1994339108506303,-1.103859,-13.044661
11.185,2.0,1.0,1.0,34.5,34.0,34.0,3.0,2.1,2.78,-0.5713868021562278,-0.09670954217483535,0.6592210413000028,-0.21278122566575447,-1.185838,-12.6258
11.185,2.0,1.0,1.0,34.5,34.0,34.0,3.0,2.1,2.7825,-0.5834166804369181,-0.09338337490138193,0.6361142601735975,-0.22716069621089388,-1.278342,-12.195211
11.185,2.0,1.0,1.0,34.5,34.0,34.0,3.0,2.1,2.785,-0.5943544660554813,-0.08898813856963601,0.6115381168626901,-0.24264490089636395,-1.383246,-11.752532
11.185,2.0,1.0,1.0,34.5,34.0,34.0,3.0,2.1,2.7875,-0.6039586192746678,-0.08329170750860206,0.5854201522628921,-0.25929998269671084,-1.502841,-11.297484
11.185,2.0,1.0,1.0,34.5,34.0,34.0,3.0,2.1,2.79,-0.611936169862936,-0.07601120776572443,0.5577018718696861,-0.27717825403505014,-1.639943,-10.829911
11.185,2.0,1.0,1.0,34.5,34.0,34.0,3.0,2.1,2.7925,-0.6179326066778845,-0.06680298708186803,0.5283500004054925,-0.29630702955829924,-1.798022,-10.349842
11.185,2.0,1.0,1.0,34.5,34.0,34.0,3.0,2.1,2.795,-0.6215210836301641,-0.0552519066037169,0.497373128380512,-0.31667210592237366,-1.981379,-9.857568
11.185,2.0,1.0,1.0,34.5,34.0,34.0,3.0,2.1,2.7975,-0.6221921234875122,-0.04086112744488053,0.4648458349464309,-0.3381938193498746,-2.195353,-9.353747
11.185,2.0,1.0,1.0,34.5,34.0,34.0,3.0,2.1,2.8,-0.619346183588374,-0.023044739314382626,0.43094283503793057,-0.3606931515346073,-2.446577,-8.83955
11.185,2.0,1.0,1.0,34.5,34.0,34.0,3.0,2.1,2.8025,-0.6122933792200485,-0.001127496176548273,0.3959858874159866,-0.3838451673718234,-2.743268,-8.316841
11.185,2.0,1.0,1.0,34.5,34.0,34.0,3.0,2.1,2.805,-0.6002675936355817,0.025641164122415645,0.3605055839296276,-0.40711768007987825,-3.09551,-7.788407
11.185,2.0,1.0,1.0,34.5,34.0,34.0,3.0,2.1,2.8075,-0.5824662033960287,0.058047668722575836,0.32531772508493717,-0.4296954373799822,-3.515439,-7.258244
11.185,2.0,1.0,1.0,34.5,34.0,34.0,3.0,2.1,2.81,-0.5581311224810134,0.09683383764374504,0.2916081706605965,-0.4503958970722699,-4.017068,-6.731866
11.185,2.0,1.0,1.0,34.5,34.0,34.0,3.0,2.1,2.8125,-0.526689668011408,0.142557022989761,0.261008816978159,-0.467593816467874,-4.615172,-6.21663
11.185,2.0,1.0,1.0,34.5,34.0,34.0,3.0,2.1,2.815,-0.4879699088495694,0.19537630700134218,0.23562946958915149,-0.4791896333851718,-5.321909,-5.721982
11.185,2.0,1.0,1.0,34.5,34.0,34.0,3.0,2.1,2.8175,-0.4424862844370628,0.25476894568643005,0.2179886721864665,-0.48267816592628493,-6.138344,-5.259507
11.185,2.0,1.0,1.0,34.5,34.0,34.0,3.0,2.1,2.82,-0.39174851977898467,0.31922369811779305,0.2107733689066206,-0.4753872432214489,-7.035711,-4.842628
11.185,2.0,1.0,1.0,34.5,34.0,34.0,3.0,2.1,2.8225,-0.3384818589123143,0.3860222135711425,0.21637821771435228,-0.4549350851551983,-7.921247,-4.485755
11.185,2.0,1.0,1.0,34.5,34.0,34.0,3.0,2.1,2.825,-0.2865900580264008,0.4512758145659026,0.23625938025218052,-0.4198718442888944,-8.602709,-4.202824
11.185,2.0,1.0,1.0,34.5,34.0,34.0,3.0,2.1,2.8275,-0.24071105504000914,0.5103666611774397,0.2702808671312811,-0.37032850615623775,-8.827501,-4.005347
11.185,2.0,1.0,1.0,34.5,34.0,34.0,3.0,2.1,2.83,-0.20536870261263743,0.5587899118421458,0.3163532860308886,-0.308375466550085,-8.469303,-3.900412
