1,w,sub_t,h,l1,l2,l3,g1,g2,Freq,S11_re,S21_re,S11_img,S21_img,S11_dB,S21_dB
11.185,2.0,1.0,1.0,34.8,33.6,33.6,2.8,4.3,2.5,0.642745008195305,-0.0117387516614193,0.754594338104464,0.00329300069560118,-0.076525,-38.27858
11.185,2.0,1.0,1.0,34.8,33.6,33.6,2.8,4.3,2.5025,0.6360668036627509,-0.011925164766853302,0.760109600481096,0.0032224950569919616,-0.077348,-38.164625
11.185,2.0,1.0,1.0,34.8,33.6,33.6,2.8,4.3,2.505,0.6293025821446853,-0.012113859801905333,0.7655955616597562,0.0031488436928502938,-0.078185,-38.050396
11.185,2.0,1.0,1.0,34.8,33.6,33.6,2.8,4.3,2.5075,0.6224515841114281,-0.012304850097199586,0.7710511559600841,0.0030719559852903106,-0.079036,-37.935891
11.185,2.0,1.0,1.0,34.8,33.6,33.6,2.8,4.3,2.51,0.6155130474127757,-0.012498148272515934,0.7764752895919108,0.002991738803985556,-0.079902,-37.821103
11.185,2.0,1.0,1.0,34.8,33.6,33.6,2.8,4.3,2.5125,0.6084862076122443,-0.012693766182833549,0.7818668399549341,0.0029080964382778847,-0.080782,-37.70603
11.185,2.0,1.0,1.0,34.8,33.6,33.6,2.8,4.3,2.515,0.6013702983422187,-0.012891714861568461,0.7872246549242383,0.0028209305276793843,-0.081677,-37.590666
11.185,2.0,1.0,1.0,34.8,33.6,33.6,2.8,4.3,2.5175,0.5941645516809589,-0.013092004460874532,0.7925475521215685,0.0027301399907477537,-0.082588,-37.475007
11.185,2.0,1.0,1.0,34.8,33.6,33.6,2.8,4.3,2.52,0.5868681985524344,-0.01329464418887313,0.7978343181723311,0.0026356209523152574,-0.083514,-37.359049
11.185,2.0,1.0,1.0,34.8,33.6,33.6,2.8,4.3,2.5225,0.5794804691500215,-0.013499642243669138,0.8030837079482642,0.002537266669054196,-0.084456,-37.242786
11.185,2.0,1.0,1.0,34.8,33.6,33.6,2.8,4.3,2.525,0.5720005933850939,-0.013707005744006873,0.8082944437957901,0.002434967453361461,-0.085415,-37.126214
11.185,2.0,1.0,1.0,34.8,33.6,33.6,2.8,4.3,2.5275,0.5644278013616146,-0.013916740656412076,0.8134652147500487,0.0023286105955479994,-0.08639,-37.009329
11.185,2.0,1.0,1.0,34.8,33.6,33.6,2.8,4.3,2.53,0.5567613238778604,-0.014128851718659664,0.8185946757346473,0.0022180802843193384,-0.087383,-36.892126
11.185,2.0,1.0,1.0,34.8,33.6,33.6,2.8,4.3,2.5325,0.5490003929564476,-0.0143433423594011,0.8236814467471927,0.002103257525535719,-0.088393,-36.774599
11.185,2.0,1.0,1.0,34.8,33.6,33.6,2.8,4.3,2.535,0.5411442424038734,-0.014560214613777439,0.8287241120306973,0.0019840200592425744,-0.08942,-36.656746
11.185,2.0,1.0,1.0,34.8,33.6,33.6,2.8,4.3,2.5375,0.5331921084008405,-0.014779469034837067,0.8337212192309693,0.001860242274964055,-0.090466,-36.53856
11.185,2.0,1.0,1.0,34.8,33.6,33.6,2.8,4.3,2.54,0.5251432301246575,-0.015001104600570242,0.8386712785401511,0.0017317951252543461,-0.09153,-36.420037
11.185,2.0,1.0,1.0,34.8,33.6,33.6,2.8,4.3,2.5425,0.5169968504050608,-0.01522511861636412,0.8435727618265921,0.0015985460375045773,-0.092613,-36.301173
11.185,2.0,1.0,1.0,34.8,33.6,33.6,2.8,4.3,2.545,0.5087522164148547,-0.015451506612674241,0.8484241017512751,0.0014603588240059424,-0.093716,-36.181962
11.185,2.0,1.0,1.0,34.8,33.6,33.6,2.8,4.3,2.5475,0.5004085803968078,-0.015680262237700155,0.8532236908710684,0.0013170935902721101,-0.094838,-36.0624
11.185,2.0,1.0,1.0,34.8,33.6,33.6,2.8,4.3,2.55,0.49196520042828,-0.015911377144844457,0.8579698807291142,0.0011686066416274998,-0.095981,-35.942481
11.185,2.0,1.0,1.0,34.8,33.6,33.6,2.8,4.3,2.5525,0.48342134122513536,-0.016144840874724713,0.8626609809327006,0.0010147503880719882,-0.097144,-35.822202
11.185,2.0,1.0,1.0,34.8,33.6,33.6,2.8,4.3,2.555,0.4747762749864985,-0.016380640731500005,0.8672952582190285,0.0008553732474350026,-0.098328,-35.701556
11.185,2.0,1.0,1.0,34.8,33.6,33.6,2.8,4.3,2.5575,0.4660292822819959,-0.01661876165326314,0.871870935509335,0.0006903195468373419,-0.099533,-35.58054
11.185,2.0,1.0,1.0,34.8,33.6,33.6,2.8,4.3,2.56,0.4571796529831633,-0.01685918607623974,0.876386190951869,0.0005194294224824135,-0.100761,-35.459147
11.185,2.0,1.0,1.0,34.8,33.6,33.6,2.8,4.3,2.5625,0.4482266872407528,-0.017101893792526055,0.8808391569543139,0.00034253871780312605,-0.102011,-35.337374
11.185,2.0,1.0,1.0,34.8,33.6,33.6,2.8,4.3,2.565,0.4391696965097046,-0.017346861801085994,0.8852279192062745,0.0001594788799956339,-0.103284,-35.215215
11.185,2.0,1.0,1.0,34.8,33.6,33.6,2.8,4.3,2.5675,0.43000800462364147,-0.017594064151716878,0.8895505156925422,-2.99231450233962e-05,-0.104581,-35.092664
11.185,2.0,1.0,1.0,34.8,33.6,33.6,2.8,4.3,2.57,0.4207409489207445,-0.017843471781682885,0.8938049356979033,-0.00022584501919509798,-0.105901,-34.969717
11.185,2.0,1.0,1.0,34.8,33.6,33.6,2.8,4.3,2.5725,0.41136788142295694,-0.01809505234470277,0.8979891188043547,-0.00042846912038476184,-0.107247,-34.846369
11.185,2.0,1.0,1.0,34.8,33.6,33.6,2.8,4.3,2.575,0.40188817007049477,-0.018348770031966475,0.9021009538816371,-0.0006379826518829882,-0.108617,-34.722614
11.185,2.0,1.0,1.0,34.8,33.6,33.6,2.8,4.3,2.5775,0.3923012000137032,-0.01860458538484291,0.9061382780721143,-0.0008545777532823858,-0.110013,-34.598447
11.185,2.0,1.0,1.0,34.8,33.6,33.6,2.8,4.3,2.58,0.38260637496434863,-0.018862455098927897,0.910098875771098,-0.0010784516126632184,-0.111435,-34.473862
11.185,2.0,1.0,1.0,34.8,33.6,33.6,2.8,4.3,2.5825,0.3728031186084642,-0.019122331819068368,0.9139804776038092,-0.001309806580015953,-0.112884,-34.348855
11.185,2.0,1.0,1.0,34.8,33.6,33.6,2.8,4.3,2.585,0.36289087608295245,-0.01938416392498434,0.9177807594002818,-0.0015488502818191742,-0.11436,-34.223419
11.185,2.0,1.0,1.0,34.8,33.6,33.6,2.8,4.3,2.5875,0.3528691155181574,-0.01964789530709673,0.9214973411696055,-0.0017957957366865592,-0.115864,-34.09755
11.185,2.0,1.0,1.0,34.8,33.6,33.6,2.8,4.3,2.59,0.3427373296487009,-0.01991346513215289,0.9251277860750157,-0.0020508614719856834,-0.117398,-33.971242
11.185,2.0,1.0,1.0,34.8,33.6,33.6,2.8,4.3,2.5925,0.33249503749488246,-0.020180807598227747,0.9286695994114704,-0.0023142716413261685,-0.11896,-33.844488
11.185,2.0,1.0,1.0,34.8,33.6,33.6,2.8,4.3,2.595,0.322141786117037,-0.020449851678661028,0.93212022758744,-0.0025862561428034057,-0.120553,-33.717284
11.185,2.0,1.0,1.0,34.8,33.6,33.6,2.8,4.3,2.5975,0.3116771524452234,-0.020720520854475642,0.9354770571128088,-0.002867050737878046,-0.122176,-33.589624
11.185,2.0,1.0,1.0,34.8,33.6,33.6,2.8,4.3,2.6,0.3011007451867062,-0.020992732834804146,0.9387374135948896,-0.003156897170760155,-0.123831,-33.461502
11.185,2.0,1.0,1.0,34.8,33.6,33.6,2.8,4.3,2.6025,0.2904122068137109,-0.021266399264832297,0.9418985607446934,-0.003456043288158499,-0.125518,-33.332911
11.185,2.0,1.0,1.0,34.8,33.6,33.6,2.8,4.3,2.605,0.27961121563394775,-0.021541425420750777,0.9449576993957584,-0.0037647431592464035,-0.127238,-33.203847
11.185,2.0,1.0,1.0,34.8,33.6,33.6,2.8,4.3,2.6075,0.2686974879464609,-0.02181770989118537,0.9479119665379817,-0.004083257195684736,-0.128991,-33.074303
11.185,2.0,1.0,1.0,34.8,33.6,33.6,2.8,4.3,2.61,0.25767078028536283,-0.02209514424455667,0.9507584343690658,-0.004411852271533679,-0.130779,-32.944272
11.185,2.0,1.0,1.0,34.8,33.6,33.6,2.8,4.3,2.6125,0.24653089175403706,-0.022373612681798213,0.953494109366339,-0.004750801842873956,-0.132603,-32.813749
11.185,2.0,1.0,1.0,34.8,33.6,33.6,2.8,4.3,2.615,0.2352776664524072,-0.02265299167384023,0.9561159313819139,-0.005100386066949294,-0.134462,-32.682727
11.185,2.0,1.0,1.0,34.8,33.6,33.6,2.8,4.3,2.6175,0.22391099599989747,-0.02293314958324215,0.9586207727642809,-0.005460891920630126,-0.136359,-32.5512
11.185,2.0,1.0,1.0,34.8,33.6,33.6,2.8,4.3,2.62,0.2124308221566961,-0.023213946269332566,0.9610054375096776,-0.005832613317989794,-0.138294,-32.419161
11.185,2.0,1.0,1.0,34.8,33.6,33.6,2.8,4.3,2.6225,0.2008371395459256,-0.023495232676189838,0.9632666604466962,-0.006215851226773887,-0.140268,-32.286604
11.185,2.0,1.0,1.0,34.8,33.6,33.6,2.8,4.3,2.625,0.189129998479366,-0.0237768504027677,0.965401106457861,-0.006610913783533,-0.142281,-32.153522
11.185,2.0,1.0,1.0,34.8,33.6,33.6,2.8,4.3,2.6275,0.17730950788927707,-0.02405863125444257,0.9674053697420564,-0.0070181164071809205,-0.144335,-32.019908
11.185,2.0,1.0,1.0,34.8,33.6,33.6,2.8,4.3,2.63,0.16537583836893005,-0.024340396775227337,0.9692759731219242,-0.007437781910729269,-0.146431,-31.885755
11.185,2.0,1.0,1.0,34.8,33.6,33.6,2.8,4.3,2.6325,0.15332922532437135,-0.02462195775986369,0.9710093674005706,-0.007870240610942702,-0.14857,-31.751056
11.185,2.0,1.0,1.0,34.8,33.6,33.6,2.8,4.3,2.635,0.14116997223992672,-0.024903113744969767,0.9726019307721138,-0.008315830435648777,-0.150753,-31.615803
11.185,2.0,1.0,1.0,34.8,33.6,33.6,2.8,4.3,2.6375,0.12889845405990516,-0.025183652478381682,0.974049968290867,-0.00877489702843013,-0.15298,-31.47999
11.185,2.0,1.0,1.0,34.8,33.6,33.6,2.8,4.3,2.64,0.11651512068887351,-0.025463349365788243,0.9753497114041606,-0.009247793850420679,-0.155254,-31.343608
11.185,2.0,1.0,1.0,34.8,33.6,33.6,2.8,4.3,2.6425,0.10402050061285913,-0.02574196689371222,0.9764973175540553,-0.009734882278919818,-0.157575,-31.206651
11.185,2.0,1.0,1.0,34.8,33.6,33.6,2.8,4.3,2.645,0.09141520464369877,-0.026019254027846224,0.9774888698534222,-0.010236531702536772,-0.159945,-31.069109
11.185,2.0,1.0,1.0,34.8,33.6,33.6,2.8,4.3,2.6475,0.07869992978871163,-0.026294945585698344,0.9783203768421285,-0.01075311961257202,-0.162364,-30.930975
11.185,2.0,1.0,1.0,34.8,33.6,33.6,2.8,4.3,2.65,0.06587546324771032,-0.026568761582448176,0.978987772329305,-0.011285031690343797,-0.164835,-30.792241
11.185,2.0,1.0,1.0,34.8,33.6,33.6,2.8,4.3,2.6525,0.05294268653933814,-0.026840406548851253,0.9794869153279004,-0.011832661890164622,-0.167358,-30.652899
11.185,2.0,1.0,1.0,34.8,33.6,33.6,2.8,4.3,2.655,0.039902579758482756,-0.027109568819965093,0.979813590088011,-0.012396412517679726,-0.169934,-30.512938
11.185,2.0,1.0,1.0,34.8,33.6,33.6,2.8,4.3,2.6575,0.02675622596647282,-0.02737591979339541,0.979963506235684,-0.012976694303280014,-0.172566,-30.372351
11.185,2.0,1.0,1.0,34.8,33.6,33.6,2.8,4.3,2.66,0.013504815715538118,-0.02763911315568159,0.9799322990241524,-0.013573926470312681,-0.175254,-30.231128
11.185,2.0,1.0,1.0,34.8,33.6,33.6,2.8,4.3,2.6625,0.0001496517089079237,-0.027898784075351225,0.9797155297047134,-0.014188536797820289,-0.178,-30.089261
11.185,2.0,1.0,1.0,34.8,33.6,33.6,2.8,4.3,2.665,-0.01330784640233404,-0.028154548361076514,0.9793086860246655,-0.014820961677555687,-0.180806,-29.946738
11.185,2.0,1.0,1.0,34.8,33.6,33.6,2.8,4.3,2.6675,-0.026866137084619445,-0.028406001583255774,0.9787071828599789,-0.015471646165033595,-0.183673,-29.803551
11.185,2.0,1.0,1.0,34.8,33.6,33.6,2.8,4.3,2.67,-0.04052355184876919,-0.02865271815722448,0.977906362990586,-0.016141044024403597,-0.186603,-29.659688
11.185,2.0,1.0,1.0,34.8,33.6,33.6,2.8,4.3,2.6725,-0.05427829003781571,-0.028894250386166054,0.976901498026379,-0.016829617766953152,-0.189598,-29.51514
11.185,2.0,1.0,1.0,34.8,33.6,33.6,2.8,4.3,2.675,-0.06812841347545298,-0.029130127461643823,0.9756877894922167,-0.017537838683077726,-0.192659,-29.369895
11.185,2.0,1.0,1.0,34.8,33.6,33.6,2.8,4.3,2.6775,-0.0820718409750485,-0.029359854419511208,0.9742603700804199,-0.018266186867591707,-0.195789,-29.223942
11.185,2.0,1.0,1.0,34.8,33.6,33.6,2.8,4.3,2.68,-0.09610634270940407,-0.029582911048771292,0.9726143050793935,-0.01901515123829181,-0.198989,-29.07727
11.185,2.0,1.0,1.0,34.8,33.6,33.6,2.8,4.3,2.6825,-0.11022953444167331,-0.029798750750751644,0.9707445939871859,-0.01978522954773031,-0.202261,-28.929866
11.185,2.0,1.0,1.0,34.8,33.6,33.6,2.8,4.3,2.685,-0.12443887161815528,-0.030006799345728825,0.968646172318891,-0.020576928388207696,-0.205607,-28.781717
11.185,2.0,1.0,1.0,34.8,33.6,33.6,2.8,4.3,2.6875,-0.138731643323916,-0.0302064538238799,0.96631391361692,-0.0213907631900502,-0.20903,-28.632811
11.185,2.0,1.0,1.0,34.8,33.6,33.6,2.8,4.3,2.69,-0.1531049661024299,-0.03039708103714713,0.963742631673242,-0.022227258213302074,-0.212531,-28.483135
11.185,2.0,1.0,1.0,34.8,33.6,33.6,2.8,4.3,2.6925,-0.16755577764077723,-0.030578016328280444,0.9609270829727191,-0.023086946533035106,-0.216114,-28.332674
11.185,2.0,1.0,1.0,34.8,33.6,33.6,2.8,4.3,2.695,-0.18208083032204586,-0.030748562092955144,0.9578619693666773,-0.02397037001855039,-0.21978,-28.181414
11.185,2.0,1.0,1.0,34.8,33.6,33.6,2.8,4.3,2.6975,-0.19667668464697566,-0.030907986270457453,0.9545419409858327,-0.02487807930683958,-0.223532,-28.029339
11.185,2.0,1.0,1.0,34.8,33.6,33.6,2.8,4.3,2.7,-0.2113397025269594,-0.03105552075796845,0.9509615994015888,-0.025810633770755837,-0.227373,-27.876435
11.185,2.0,1.0,1.0,34.8,33.6,33.6,2.8,4.3,2.7025,-0.22606604045079423,-0.031190359742963948,0.9471155010446332,-0.026768601482449517,-0.231305,-27.722684
11.185,2.0,1.0,1.0,34.8,33.6,33.6,2.8,4.3,2.705,-0.2408516425276775,-0.03131165794766732,0.9429981608895767,-0.027752559172725035,-0.235331,-27.56807
11.185,2.0,1.0,1.0,34.8,33.6,33.6,2.8,4.3,2.7075,-0.2556922334090677,-0.031418528778840875,0.9386040564141528,-0.028763092187086576,-0.239454,-27.412575
11.185,2.0,1.0,1.0,34.8,33.6,33.6,2.8,4.3,2.71,-0.27058331109206907,-0.03151004237546839,0.9339276318412346,-0.029800794439355332,-0.243678,-27.256181
11.185,2.0,1.0,1.0,34.8,33.6,33.6,2.8,4.3,2.7125,-0.2855201396069801,-0.03158522354605686,0.9289633026715711,-0.030866268363862578,-0.248005,-27.098868
11.185,2.0,1.0,1.0,34.8,33.6,33.6,2.8,4.3,2.715,-0.3004977415915528,-0.03164304958635636,0.9237054605147519,-0.03196012486734145,-0.25244,-26.940616
11.185,2.0,1.0,1.0,34.8,33.6,33.6,2.8,4.3,2.7175,-0.315510890754285,-0.03168244796725213,0.9181484782254542,-0.03308298328176646,-0.256985,-26.781404
11.185,2.0,1.0,1.0,34.8,33.6,33.6,2.8,4.3,2.72,-0.33055410422875425,-0.0317022938814045,0.912286715351472,-0.034235471319505086,-0.261644,-26.62121
11.185,2.0,1.0,1.0,34.8,33.6,33.6,2.8,4.3,2.7225,-0.3456216348205714,-0.031701407635886296,0.906114523899442,-0.035418225032267436,-0.266422,-26.460011
11.185,2.0,1.0,1.0,34.8,33.6,33.6,2.8,4.3,2.725,-0.3607074631478289,-0.03167855187657071,0.8996262544235029,-0.03663188877543607,-0.271322,-26.297783
11.185,2.0,1.0,1.0,34.8,33.6,33.6,2.8,4.3,2.7275,-0.3758052896752118,-0.03163242862833754,0.8928162624413624,-0.03787711517945906,-0.276349,-26.1345
11.185,2.0,1.0,1.0,34.8,33.6,33.6,2.8,4.3,2.73,-0.3909085266407877,-0.03156167613326245,0.8856789151814836,-0.039154565130048745,-0.281508,-25.970135
11.185,2.0,1.0,1.0,34.8,33.6,33.6,2.8,4.3,2.7325,-0.4060102898733016,-0.031464865466809905,0.8782085986641471,-0.04046490775897858,-0.286802,-25.804661
11.185,2.0,1.0,1.0,34.8,33.6,33.6,2.8,4.3,2.735,-0.42110339049611467,-0.03134049690962559,0.8703997251182716,-0.04180882044726571,-0.292238,-25.638049
11.185,2.0,1.0,1.0,34.8,33.6,33.6,2.8,4.3,2.7375,-0.43618032651206995,-0.031186996049790586,0.8622467407348526,-0.04318698884248505,-0.297821,-25.470267
11.185,2.0,1.0,1.0,34.8,33.6,33.6,2.8,4.3,2.74,-0.451233274261179,-0.031002709587307394,0.8537441337568193,-0.04460010689184513,-0.303556,-25.301283
11.185,2.0,1.0,1.0,34.8,33.6,33.6,2.8,4.3,2.7425,-0.4662540797402895,-0.030785900809093977,0.8448864429040704,-0.046048876892465736,-0.309449,-25.131063
11.185,2.0,1.0,1.0,34.8,33.6,33.6,2.8,4.3,2.745,-0.48123424977055873,-0.03053474469880867,0.8356682661313382,-0.047534009559999466,-0.315507,-24.959572
11.185,2.0,1.0,1.0,34.8,33.6,33.6,2.8,4.3,2.7475,-0.49616494299468133,-0.030247322641355295,0.8260842697154515,-0.049056224116316056,-0.321737,-24.78677
11.185,2.0,1.0,1.0,34.8,33.6,33.6,2.8,4.3,2.75,-0.511036960681244,-0.0299216166768504,0.816129197667534,-0.0506162483963861,-0.328146,-24.61262
11.185,2.0,1.0,1.0,34.8,33.6,33.6,2.8,4.3,2.7525,-0.5258407373082314,-0.02955550325308944,0.8057978814646815,-0.052214818973718026,-0.33474,-24.437077
11.185,2.0,1.0,1.0,34.8,33.6,33.6,2.8,4.3,2.755,-0.5405663308914495,-0.029146746419034312,0.795085250094824,-0.05385268130267932,-0.34153,-24.2601
11.185,2.0,1.0,1.0,34.8,33.6,33.6,2.8,4.3,2.7575,-0.5552034130164233,-0.028692990394444944,0.7839863404077595,-0.05553058987471525,-0.348522,-24.081639
11.185,2.0,1.0,1.0,34.8,33.6,33.6,2.8,4.3,2.76,-0.5697412585238552,-0.028191751442373132,0.7724963077649339,-0.05724930838378229,-0.355727,-23.901647
11.185,2.0,1.0,1.0,34.8,33.6,33.6,2.8,4.3,2.7625,-0.5841687347890268,-0.027640408961672386,0.7606104369803628,-0.059009609894184724,-0.363154,-23.720071
11.185,2.0,1.0,1.0,34.8,33.6,33.6,2.8,4.3,2.765,-0.5984742905242618,-0.027036195705792784,0.748324153545437,-0.06081227700131245,-0.370814,-23.536856
11.185,2.0,1.0,1.0,34.8,33.6,33.6,2.8,4.3,2.7675,-0.6126459440205452,-0.026376187021718966,0.7356330351311543,-0.06265810197242139,-0.378718,-23.351944
11.185,2.0,1.0,1.0,34.8,33.6,33.6,2.8,4.3,2.77,-0.6266712707294476,-0.025657288988750866,0.7225328233628884,-0.0645478868504244,-0.386878,-23.165273
11.185,2.0,1.0,1.0,34.8,33.6,33.6,2.8,4.3,2.7725,-0.6405373900691993,-0.02487622532065165,0.7090194358652547,-0.0664824434984743,-0.395308,-22.976779
11.185,2.0,1.0,1.0,34.8,33.6,33.6,2.8,4.3,2.775,-0.6542309513188962,-0.024029522876187977,0.6950889785781772,-0.06846259355671429,-0.404021,-22.786392
11.185,2.0,1.0,1.0,34.8,33.6,33.6,2.8,4.3,2.7775,-0.6677381184419044,-0.023113495601903532,0.6807377583502839,-0.07048916827465762,-0.413033,-22.594039
11.185,2.0,1.0,1.0,34.8,33.6,33.6,2.8,4.3,2.78,-0.6810445536532131,-0.022124226706676027,0.6659622958224409,-0.07256300817290483,-0.422359,-22.399644
11.185,2.0,1.0,1.0,34.8,33.6,33.6,2.8,4.3,2.7825,-0.6941353995150906,-0.02105754883972725,0.6507593386232692,-0.07468496247588473,-0.432019,-22.203123
11.185,2.0,1.0,1.0,34.8,33.6,33.6,2.8,4.3,2.785,-0.706995259310535,-0.019909022011694706,0.6351258749100658,-0.0768558882425224,-0.44203,-22.004391
11.185,2.0,1.0,1.0,34.8,33.6,33.6,2.8,4.3,2.7875,-0.7196081754037142,-0.018673908961486338,0.6190591473036797,-0.07907664910351121,-0.452414,-21.803356
11.185,2.0,1.0,1.0,34.8,33.6,33.6,2.8,4.3,2.79,-0.7319576052502628,-0.017347147629109754,0.6025566672851532,-0.08134811349145206,-0.463193,-21.599919
11.185,2.0,1.0,1.0,34.8,33.6,33.6,2.8,4.3,2.7925,-0.7440263946667846,-0.01592332034560531,0.5856162301464432,-0.08367115222247794,-0.474392,-21.393977
11.185,2.0,1.0,1.0,34.8,33.6,33.6,2.8,4.3,2.795,-0.755796747907263,-0.014396619294509335,0.5682359306185031,-0.08604663525392263,-0.486038,-21.18542
11.185,2.0,1.0,1.0,34.8,33.6,33.6,2.8,4.3,2.7975,-0.7672501940227564,-0.012760807733700079,0.5504141793391721,-0.08847542740050708,-0.49816,-20.97413
11.185,2.0,1.0,1.0,34.8,33.6,33.6,2.8,4.3,2.8,-0.7783675488984833,-0.011009176390522707,0.5321497203723436,-0.09095838273954004,-0.51079,-20.759985
11.185,2.0,1.0,1.0,34.8,33.6,33.6,2.8,4.3,2.8025,-0.7891288722671274,-0.009134494355059515,0.5134416500516387,-0.09349633737123865,-0.523964,-20.542851
11.185,2.0,1.0,1.0,34.8,33.6,33.6,2.8,4.3,2.805,-0.799513418887009,-0.007128953694278254,0.49428943749922677,-0.09609010012043795,-0.537719,-20.322588
11.185,2.0,1.0,1.0,34.8,33.6,33.6,2.8,4.3,2.8075,-0.8094995829461699,-0.004984106891220731,0.47469294726738975,-0.09874044066675289,-0.5521,-20.099047
11.185,2.0,1.0,1.0,34.8,33.6,33.6,2.8,4.3,2.81,-0.8190648346056343,-0.002690796075694368,0.45465246467224457,-0.1014480744667257,-0.567152,-19.87207
11.185,2.0,1.0,1.0,34.8,33.6,33.6,2.8,4.3,2.8125,-0.828185647423845,-0.000239072852994341,0.434168724541852,-0.104213643677326,-0.582929,-19.641486
11.185,2.0,1.0,1.0,34.8,33.6,33.6,2.8,4.3,2.815,-0.8368374152059901,0.0023818926485383142,0.41324294429297964,-0.1070376930973385,-0.599486,-19.407115
11.185,2.0,1.0,1.0,34.8,33.6,33.6,2.8,4.3,2.8175,-0.8449943565923241,0.005183915105783995,0.3918768624926289,-0.1099206399013386,-0.61689,-19.168767
11.185,2.0,1.0,1.0,34.8,33.6,33.6,2.8,4.3,2.82,-0.852629405434192,0.008179911549240441,0.37007278436528085,-0.11286273563689962,-0.635211,-18.926235
11.185,2.0,1.0,1.0,34.8,33.6,33.6,2.8,4.3,2.8225,-0.8597140847001854,0.011384035264411486,0.3478336360921026,-0.11586401857234914,-0.654528,-18.679304
11.185,2.0,1.0,1.0,34.8,33.6,33.6,2.8,4.3,2.825,-0.8662183613026312,0.014811828511468467,0.32516303023625936,-0.11892425399776052,-0.674931,-18.427739
11.185,2.0,1.0,1.0,34.8,33.6,33.6,2.8,4.3,2.8275,-0.8721104788312021,0.01848039690952966,0.30206534524791956,-0.12204285946743106,-0.696521,-18.171295
