1,w,sub_t,h,l1,l2,l3,g1,g2,Freq,S11_re,S21_re,S11_img,S21_img,S11_dB,S21_dB
11.185,2.0,1.0,1.0,34.9,34.4,34.4,1.6,3.1,2.5,0.599521431156881,-0.0259817515564917,0.786090911897073,0.00987865188832166,-0.099433,-31.120233
11.185,2.0,1.0,1.0,34.9,34.4,34.4,1.6,3.1,2.5025,0.5920090285307995,-0.026472987528634268,0.7915722294358783,0.009766370066779854,-0.100782,-30.989773
11.185,2.0,1.0,1.0,34.9,34.4,34.4,1.6,3.1,2.505,0.5843954197307117,-0.026972903496686775,0.7970151960798096,0.009646544658000156,-0.10216,-30.85872
11.185,2.0,1.0,1.0,34.9,34.4,34.4,1.6,3.1,2.5075,0.5766795610588565,-0.027481647498183708,0.8024183500580474,0.009518882188358302,-0.103569,-30.727066
11.185,2.0,1.0,1.0,34.9,34.4,34.4,1.6,3.1,2.51,0.5688604019826833,-0.02799936920506364,0.8077801855203145,0.00938307776262618,-0.105008,-30.594801
11.185,2.0,1.0,1.0,34.9,34.4,34.4,1.6,3.1,2.5125,0.5609368855151036,-0.028526219855914272,0.8130991511761528,0.009238814587974577,-0.106479,-30.461916
11.185,2.0,1.0,1.0,34.9,34.4,34.4,1.6,3.1,2.515,0.5529079486264966,-0.029062352179402413,0.8183736488913681,0.009085763476492922,-0.107983,-30.3284
11.185,2.0,1.0,1.0,34.9,34.4,34.4,1.6,3.1,2.5175,0.5447725226903682,-0.029607920308159664,0.8236020322402622,0.008923582325171753,-0.10952,-30.194243
11.185,2.0,1.0,1.0,34.9,34.4,34.4,1.6,3.1,2.52,0.5365295339646324,-0.030163079682338965,0.8287826050122434,0.008751915572236507,-0.111092,-30.059437
11.185,2.0,1.0,1.0,34.9,34.4,34.4,1.6,3.1,2.5225,0.5281779041106249,-0.030727986941994277,0.8339136196712944,0.008570393628662392,-0.112699,-29.923969
11.185,2.0,1.0,1.0,34.9,34.4,34.4,1.6,3.1,2.525,0.5197165507520685,-0.03130279980736995,0.8389932757668204,0.008378632283635862,-0.114344,-29.787831
11.185,2.0,1.0,1.0,34.9,34.4,34.4,1.6,3.1,2.5275,0.5111443880763231,-0.03188767694611453,0.8440197182942558,0.00817623208266128,-0.116025,-29.651011
11.185,2.0,1.0,1.0,34.9,34.4,34.4,1.6,3.1,2.53,0.5024603274804195,-0.0324827778263551,0.8489910360038064,0.007962777676942194,-0.117746,-29.513498
11.185,2.0,1.0,1.0,34.9,34.4,34.4,1.6,3.1,2.5325,0.49366327826450235,-0.03308826255448447,0.8539052596556421,0.00773783714258848,-0.119507,-29.375281
11.185,2.0,1.0,1.0,34.9,34.4,34.4,1.6,3.1,2.535,0.4847521483754388,-0.03370429169642214,0.8587603602197763,0.007500961268123478,-0.121309,-29.23635
11.185,2.0,1.0,1.0,34.9,34.4,34.4,1.6,3.1,2.5375,0.4757258452035736,-0.034331026081010595,0.8635542470188108,0.007251682808680409,-0.123154,-29.096692
11.185,2.0,1.0,1.0,34.9,34.4,34.4,1.6,3.1,2.54,0.46658327643571057,-0.03496862658410279,0.8682847658116941,0.00698951570518661,-0.125043,-28.956296
11.185,2.0,1.0,1.0,34.9,34.4,34.4,1.6,3.1,2.5425,0.4573233509676357,-0.03561725389177761,0.8729496968165082,0.006713954266740478,-0.126977,-28.815151
11.185,2.0,1.0,1.0,34.9,34.4,34.4,1.6,3.1,2.545,0.44794497987967946,-0.03627706824099733,0.877546752670305,0.006424472314285492,-0.128957,-28.673243
11.185,2.0,1.0,1.0,34.9,34.4,34.4,1.6,3.1,2.5475,0.4384470774790217,-0.0369482291358803,0.882073576323858,0.006120522283578421,-0.130986,-28.530561
11.185,2.0,1.0,1.0,34.9,34.4,34.4,1.6,3.1,2.55,0.4288285624126552,-0.03763089503761793,0.8865277388692022,0.005801534285335251,-0.133065,-28.387093
11.185,2.0,1.0,1.0,34.9,34.4,34.4,1.6,3.1,2.5525,0.41908835885521095,-0.038325223025897595,0.8909067372976828,0.005466915120319784,-0.135194,-28.242824
11.185,2.0,1.0,1.0,34.9,34.4,34.4,1.6,3.1,2.555,0.409225397776023,-0.03903136842952284,0.8952079921861837,0.005116047247010927,-0.137377,-28.097743
11.185,2.0,1.0,1.0,34.9,34.4,34.4,1.6,3.1,2.5575,0.39923861829016427,-0.039749484423728075,0.8994288453091204,0.004748287699349636,-0.139615,-27.951836
11.185,2.0,1.0,1.0,34.9,34.4,34.4,1.6,3.1,2.56,0.3891269690984222,-0.04047972159147594,0.9035665571736692,0.004362966951923815,-0.141909,-27.805089
11.185,2.0,1.0,1.0,34.9,34.4,34.4,1.6,3.1,2.5625,0.37888941002152865,-0.04122222744580105,0.9076183044756099,0.003959387729795939,-0.144262,-27.657488
11.185,2.0,1.0,1.0,34.9,34.4,34.4,1.6,3.1,2.565,0.368524913634261,-0.04197714591001579,0.9115811774730818,0.0035368237600167133,-0.146675,-27.50902
11.185,2.0,1.0,1.0,34.9,34.4,34.4,1.6,3.1,2.5675,0.35803246700544716,-0.04274461675232222,0.9154521772754002,0.003094518461697061,-0.14915,-27.359669
11.185,2.0,1.0,1.0,34.9,34.4,34.4,1.6,3.1,2.57,0.3474110735502126,-0.04352477497108311,0.9192282130439988,0.0026316835713266276,-0.15169,-27.209421
11.185,2.0,1.0,1.0,34.9,34.4,34.4,1.6,3.1,2.5725,0.3366597550013132,-0.04431775012668222,0.9229060991024314,0.002147497699834757,-0.154297,-27.05826
11.185,2.0,1.0,1.0,34.9,34.4,34.4,1.6,3.1,2.575,0.3257775535067703,-0.04512366561555249,0.9264825519522414,0.001641104817684613,-0.156973,-26.906172
11.185,2.0,1.0,1.0,34.9,34.4,34.4,1.6,3.1,2.5775,0.31476353386156486,-0.045942637881567605,0.9299541871913597,0.0011116126640709773,-0.159721,-26.75314
11.185,2.0,1.0,1.0,34.9,34.4,34.4,1.6,3.1,2.58,0.30361678588162827,-0.04677477555957162,0.9333175163315637,0.0005580910760638958,-0.162543,-26.599148
11.185,2.0,1.0,1.0,34.9,34.4,34.4,1.6,3.1,2.5825,0.2923364269289557,-0.04762017854536339,0.9365689435113883,-2.0429766708560027e-05,-0.165442,-26.444179
11.185,2.0,1.0,1.0,34.9,34.4,34.4,1.6,3.1,2.585,0.28092160459726045,-0.04847893698594534,0.9397047621006841,-0.0006249611865023821,-0.168421,-26.288217
11.185,2.0,1.0,1.0,34.9,34.4,34.4,1.6,3.1,2.5875,0.26937149956826456,-0.049351130183296725,0.9427211511928988,-0.0012565579459671349,-0.171482,-26.131243
11.185,2.0,1.0,1.0,34.9,34.4,34.4,1.6,3.1,2.59,0.25768532864941646,-0.050236825404322005,0.9456141719809299,-0.001916320285955827,-0.174629,-25.973241
11.185,2.0,1.0,1.0,34.9,34.4,34.4,1.6,3.1,2.5925,0.2458623480046123,-0.05113607658896185,0.9483797640122724,-0.0026053960681791735,-0.177865,-25.814193
11.185,2.0,1.0,1.0,34.9,34.4,34.4,1.6,3.1,2.595,0.23390185659035262,-0.05204892294771878,0.9510137413189086,-0.0033249830285736076,-0.181193,-25.654078
11.185,2.0,1.0,1.0,34.9,34.4,34.4,1.6,3.1,2.5975,0.22180319981065752,-0.052975387439048775,0.9535117884172557,-0.004076331147602002,-0.184616,-25.492879
11.185,2.0,1.0,1.0,34.9,34.4,34.4,1.6,3.1,2.6,0.2095657734050718,-0.05391547511617848,0.9558694561732215,-0.00486074514406811,-0.188139,-25.330575
11.185,2.0,1.0,1.0,34.9,34.4,34.4,1.6,3.1,2.6025,0.1971890275852097,-0.05486917133193554,0.9580821575272005,-0.0056795870994122725,-0.191766,-25.167147
11.185,2.0,1.0,1.0,34.9,34.4,34.4,1.6,3.1,2.605,0.18467247143642707,-0.055836439789100425,0.960145163073606,-0.00653427921986339,-0.1955,-25.002573
11.185,2.0,1.0,1.0,34.9,34.4,34.4,1.6,3.1,2.6075,0.17201567760256234,-0.056817220422600845,0.9620535964892659,-0.007426306744245607,-0.199346,-24.836833
11.185,2.0,1.0,1.0,34.9,34.4,34.4,1.6,3.1,2.61,0.15921828727308562,-0.05781142709855598,0.9638024298047709,-0.008357221005687336,-0.203307,-24.669904
11.185,2.0,1.0,1.0,34.9,34.4,34.4,1.6,3.1,2.6125,0.14628001549356273,-0.05881894511373105,0.9653864785125537,-0.009328642655948865,-0.20739,-24.501765
11.185,2.0,1.0,1.0,34.9,34.4,34.4,1.6,3.1,2.615,0.13320065682206755,-0.05983962847735284,0.9668003965052298,-0.010342265061571067,-0.211599,-24.332393
11.185,2.0,1.0,1.0,34.9,34.4,34.4,1.6,3.1,2.6175,0.11998009135605782,-0.060873296955463806,0.9680386708373914,-0.011399857881556567,-0.215939,-24.161763
11.185,2.0,1.0,1.0,34.9,34.4,34.4,1.6,3.1,2.62,0.10661829115632646,-0.061919732856021176,0.9690956163037965,-0.012503270836819071,-0.220416,-23.989852
11.185,2.0,1.0,1.0,34.9,34.4,34.4,1.6,3.1,2.6225,0.09311532709688909,-0.06297867753076446,0.9699653698265297,-0.013654437682180429,-0.225035,-23.816634
11.185,2.0,1.0,1.0,34.9,34.4,34.4,1.6,3.1,2.625,0.0794713761722864,-0.064049827567447,0.970641884643464,-0.0148553803922427,-0.229804,-23.642085
11.185,2.0,1.0,1.0,34.9,34.4,34.4,1.6,3.1,2.6275,0.06568672929646738,-0.06513283064333698,0.9711189242899823,-0.01610821357303437,-0.234727,-23.466176
11.185,2.0,1.0,1.0,34.9,34.4,34.4,1.6,3.1,2.63,0.051761799630627256,-0.06622728100789245,0.9713900563656719,-0.017415149111886474,-0.239813,-23.288883
11.185,2.0,1.0,1.0,34.9,34.4,34.4,1.6,3.1,2.6325,0.037697131480736897,-0.06733271455918047,0.9714486460773859,-0.0187785010785644,-0.245068,-23.110175
11.185,2.0,1.0,1.0,34.9,34.4,34.4,1.6,3.1,2.635,0.02349340980933811,-0.06844860347489348,0.9712878495498273,-0.020200690891227994,-0.250501,-22.930025
11.185,2.0,1.0,1.0,34.9,34.4,34.4,1.6,3.1,2.6375,0.009151470410451043,-0.06957435035467038,0.9709006068945665,-0.021684252761320275,-0.256119,-22.748403
11.185,2.0,1.0,1.0,34.9,34.4,34.4,1.6,3.1,2.64,-0.005327689198932193,-0.07070928182580585,0.9702796350282377,-0.023231839431977607,-0.261931,-22.565278
11.185,2.0,1.0,1.0,34.9,34.4,34.4,1.6,3.1,2.6425,-0.019942898111928536,-0.07185264155925788,0.9694174202305418,-0.024846228224984845,-0.267946,-22.380619
11.185,2.0,1.0,1.0,34.9,34.4,34.4,1.6,3.1,2.645,-0.03469279952481217,-0.07300358263709064,0.9683062104326727,-0.02653032741165888,-0.274174,-22.194392
11.185,2.0,1.0,1.0,34.9,34.4,34.4,1.6,3.1,2.6475,-0.0495758373188232,-0.07416115920601603,0.9669380072268516,-0.028287182923295216,-0.280626,-22.006565
11.185,2.0,1.0,1.0,34.9,34.4,34.4,1.6,3.1,2.65,-0.0645902416522531,-0.07532431734446003,0.9653045575879325,-0.030119985416930756,-0.287312,-21.817103
11.185,2.0,1.0,1.0,34.9,34.4,34.4,1.6,3.1,2.6525,-0.07973401347606841,-0.07649188506244944,0.9633973452984304,-0.032032077712098005,-0.294244,-21.62597
11.185,2.0,1.0,1.0,34.9,34.4,34.4,1.6,3.1,2.655,-0.0950049078772619,-0.07766256134451285,0.9612075820690508,-0.03402696261396362,-0.301435,-21.433129
11.185,2.0,1.0,1.0,34.9,34.4,34.4,1.6,3.1,2.6575,-0.11040041614371558,-0.07883490413554979,0.9587261983477147,-0.03610831113763551,-0.308898,-21.238542
11.185,2.0,1.0,1.0,34.9,34.4,34.4,1.6,3.1,2.66,-0.12591774643289175,-0.08000731715812667,0.955943833811512,-0.038279971147464245,-0.316647,-21.04217
11.185,2.0,1.0,1.0,34.9,34.4,34.4,1.6,3.1,2.6625,-0.14155380291361128,-0.08117803543672386,0.9528508275377753,-0.04054597642372235,-0.324697,-20.843971
11.185,2.0,1.0,1.0,34.9,34.4,34.4,1.6,3.1,2.665,-0.15730516323564145,-0.0823451093899054,0.949437207852956,-0.042910556167030316,-0.333065,-20.643903
11.185,2.0,1.0,1.0,34.9,34.4,34.4,1.6,3.1,2.6675,-0.17316805416527623,-0.0835063873349839,0.9456926818611361,-0.04537814494813779,-0.341768,-20.441924
11.185,2.0,1.0,1.0,34.9,34.4,34.4,1.6,3.1,2.67,-0.1891383252066514,-0.0846594962312805,0.941606624658071,-0.047953393107023526,-0.350824,-20.237987
11.185,2.0,1.0,1.0,34.9,34.4,34.4,1.6,3.1,2.6725,-0.20521142000758152,-0.08580182046724329,0.9371680682418819,-0.05064117760050191,-0.360254,-20.032047
11.185,2.0,1.0,1.0,34.9,34.4,34.4,1.6,3.1,2.675,-0.22138234532513557,-0.08693047847317499,0.9323656901380972,-0.053446613291370175,-0.370079,-19.824054
11.185,2.0,1.0,1.0,34.9,34.4,34.4,1.6,3.1,2.6775,-0.23764563729955937,-0.08804229691478425,0.9271878017650177,-0.056375064664287045,-0.380321,-19.61396
11.185,2.0,1.0,1.0,34.9,34.4,34.4,1.6,3.1,2.68,-0.25399532475511327,-0.08913378219280597,0.9216223365757843,-0.059432157943628786,-0.391007,-19.401711
11.185,2.0,1.0,1.0,34.9,34.4,34.4,1.6,3.1,2.6825,-0.27042488921237107,-0.09020108894008144,0.915656838026498,-0.0626237935760619,-0.402161,-19.187256
11.185,2.0,1.0,1.0,34.9,34.4,34.4,1.6,3.1,2.685,-0.28692722125820475,-0.091239985169246,0.9092784474358017,-0.0659561590249173,-0.413814,-18.970538
11.185,2.0,1.0,1.0,34.9,34.4,34.4,1.6,3.1,2.6875,-0.303494572876279,-0.0922458136809609,0.902473891821392,-0.069435741803918,-0.425996,-18.751499
11.185,2.0,1.0,1.0,34.9,34.4,34.4,1.6,3.1,2.69,-0.3201185052918471,-0.09321344929381617,0.8952294718236489,-0.07306934265354646,-0.43874,-18.530081
11.185,2.0,1.0,1.0,34.9,34.4,34.4,1.6,3.1,2.6925,-0.33678983182930716,-0.09413725140191373,0.8875310498570981,-0.07686408873326486,-0.452083,-18.306221
11.185,2.0,1.0,1.0,34.9,34.4,34.4,1.6,3.1,2.695,-0.35349855521841317,-0.09501101130392775,0.8793640386682112,-0.080827446665581,-0.466065,-18.079857
11.185,2.0,1.0,1.0,34.9,34.4,34.4,1.6,3.1,2.6975,-0.37023379871455586,-0.09582789367729329,0.8707133905244135,-0.08496723522204848,-0.480727,-17.850922
11.185,2.0,1.0,1.0,34.9,34.4,34.4,1.6,3.1,2.7,-0.3869837303190092,-0.09658037149215565,0.8615635873164419,-0.08929163738463464,-0.496117,-17.619347
11.185,2.0,1.0,1.0,34.9,34.4,34.4,1.6,3.1,2.7025,-0.40373547929565695,-0.09726015357085799,0.8518986319264575,-0.09380921144618845,-0.512284,-17.385062
11.185,2.0,1.0,1.0,34.9,34.4,34.4,1.6,3.1,2.705,-0.4204750440802976,-0.09785810389901854,0.8417020413008137,-0.09852890072792746,-0.529284,-17.147994
11.185,2.0,1.0,1.0,34.9,34.4,34.4,1.6,3.1,2.7075,-0.4371871905662292,-0.09836415168263561,0.8309568417725507,-0.10346004138641435,-0.547176,-16.908068
11.185,2.0,1.0,1.0,34.9,34.4,34.4,1.6,3.1,2.71,-0.45385533962435026,-0.09876719102115286,0.8196455673091536,-0.10861236765289214,-0.566027,-16.665204
11.185,2.0,1.0,1.0,34.9,34.4,34.4,1.6,3.1,2.7125,-0.47046144257664585,-0.09905496892815081,0.8077502615211667,-0.1139960136887114,-0.585907,-16.419323
11.185,2.0,1.0,1.0,34.9,34.4,34.4,1.6,3.1,2.715,-0.48698584318789795,-0.09921396027864259,0.7952524844638054,-0.11962151104520151,-0.606896,-16.17034
11.185,2.0,1.0,1.0,34.9,34.4,34.4,1.6,3.1,2.7175,-0.5034071245715788,-0.09922922809455238,0.7821333255048353,-0.12549978047658364,-0.629079,-15.918171
11.185,2.0,1.0,1.0,34.9,34.4,34.4,1.6,3.1,2.72,-0.5197019392222963,-0.09908426739817085,0.7683734238277016,-0.1316421165603744,-0.652553,-15.662727
11.185,2.0,1.0,1.0,34.9,34.4,34.4,1.6,3.1,2.7225,-0.5358448201902757,-0.09876083066843866,0.7539529985016433,-0.13806016321904327,-0.67742,-15.403918
11.185,2.0,1.0,1.0,34.9,34.4,34.4,1.6,3.1,2.725,-0.5518079712054779,-0.09823873272938562,0.7388518904951193,-0.14476587779448982,-0.703797,-15.141649
11.185,2.0,1.0,1.0,34.9,34.4,34.4,1.6,3.1,2.7275,-0.5675610333449914,-0.09749563268850803,0.7230496195535434,-0.15177148078523825,-0.731812,-14.875827
11.185,2.0,1.0,1.0,34.9,34.4,34.4,1.6,3.1,2.73,-0.5830708256242013,-0.096506790332647,0.7065254595293107,-0.1590893876930021,-0.761605,-14.606354
11.185,2.0,1.0,1.0,34.9,34.4,34.4,1.6,3.1,2.7325,-0.5983010566917609,-0.09524479419136289,0.6892585365678291,-0.16673211861411594,-0.793334,-14.333131
11.185,2.0,1.0,1.0,34.9,34.4,34.4,1.6,3.1,2.735,-0.6132120046370945,-0.09367925830975454,0.6712279555499948,-0.17471218022030172,-0.827172,-14.056058
11.185,2.0,1.0,1.0,34.9,34.4,34.4,1.6,3.1,2.7375,-0.6277601618019937,-0.09177648465868815,0.6524129614072748,-0.1830419135645525,-0.863316,-13.775035
11.185,2.0,1.0,1.0,34.9,34.4,34.4,1.6,3.1,2.74,-0.6418978414599673,-0.089499088085658,0.6327931434054773,-0.1917332996767011,-0.90198,-13.48996
11.185,2.0,1.0,1.0,34.9,34.4,34.4,1.6,3.1,2.7425,-0.6555727433383617,-0.08680558082356486,0.612348692289728,-0.20079771312745562,-0.943409,-13.200733
11.185,2.0,1.0,1.0,34.9,34.4,34.4,1.6,3.1,2.745,-0.6687274752784238,-0.08364991389690292,0.5910607223564224,-0.21024561157957494,-0.987874,-12.907256
11.185,2.0,1.0,1.0,34.9,34.4,34.4,1.6,3.1,2.7475,-0.6812990289538469,-0.0799809733909216,0.5689116731348172,-0.22008614674389926,-1.035681,-12.609432
11.185,2.0,1.0,1.0,34.9,34.4,34.4,1.6,3.1,2.75,-0.693218208630884,-0.0757420306105638,0.545885808493622,-0.23032667904459,-1.087175,-12.30717
11.185,2.0,1.0,1.0,34.9,34.4,34.4,1.6,3.1,2.7525,-0.7044090136322149,-0.0708701468306914,0.5219698347092891,-0.2409721745997961,-1.142744,-12.000383
11.185,2.0,1.0,1.0,34.9,34.4,34.4,1.6,3.1,2.755,-0.7147879777039741,-0.0652955358674065,0.4971536634087348,-0.25202445877548574,-1.202829,-11.688995
11.185,2.0,1.0,1.0,34.9,34.4,34.4,1.6,3.1,2.7575,-0.724263472202932,-0.05894089140238246,0.47143135037591977,-0.2634812955257082,-1.267927,-11.372938
11.185,2.0,1.0,1.0,34.9,34.4,34.4,1.6,3.1,2.76,-0.7327349853435786,-0.05172069129049415,0.44480224699400617,-0.27533525598735586,-1.338606,-11.052159
11.185,2.0,1.0,1.0,34.9,34.4,34.4,1.6,3.1,2.7625,-0.74009239722648,-0.04354049852552531,0.4172724075118666,-0.28757233342188987,-1.415512,-10.726624
11.185,2.0,1.0,1.0,34.9,34.4,34.4,1.6,3.1,2.765,-0.7462152807181928,-0.0342962888338722,0.38885630217863126,-0.30017025478634296,-1.499382,-10.396319
11.185,2.0,1.0,1.0,34.9,34.4,34.4,1.6,3.1,2.7675,-0.7509722723586256,-0.023873848895441568,0.35957889318140074,-0.31309643237000423,-1.591062,-10.06126
11.185,2.0,1.0,1.0,34.9,34.4,34.4,1.6,3.1,2.77,-0.7542205764180245,-0.012148308031656091,0.3294781365322744,-0.3263054927639402,-1.691519,-9.721497
11.185,2.0,1.0,1.0,34.9,34.4,34.4,1.6,3.1,2.7725,-0.7558056902818189,0.001016108885978702,0.29860797739052325,-0.3397363161214263,-1.80187,-9.377122
11.185,2.0,1.0,1.0,34.9,34.4,34.4,1.6,3.1,2.775,-0.7555614719041341,0.015765987179268866,0.2670419068922471,-0.35330851808808983,-1.923402,-9.028278
11.185,2.0,1.0,1.0,34.9,34.4,34.4,1.6,3.1,2.7775,-0.7533107115175012,0.03225812542729958,0.2348771425386629,-0.3669183127676557,-2.0576,-8.675173
11.185,2.0,1.0,1.0,34.9,34.4,34.4,1.6,3.1,2.78,-0.748866421183661,0.050658223425902676,0.20223947738906856,-0.38043371179176505,-2.206187,-8.318089
11.185,2.0,1.0,1.0,34.9,34.4,34.4,1.6,3.1,2.7825,-0.7420341173462048,0.0711385814070928,0.16928880983273809,-0.39368904782585473,-2.371165,-7.957395
11.185,2.0,1.0,1.0,34.9,34.4,34.4,1.6,3.1,2.785,-0.7326154418127256,0.09387446703295929,0.1362253076332305,-0.40647886855835835,-2.554858,-7.593572
11.185,2.0,1.0,1.0,34.9,34.4,34.4,1.6,3.1,2.7875,-0.7204135409869408,0.11903873272358913,0.10329606709343905,-0.41855133947833983,-2.759981,-7.227222
11.185,2.0,1.0,1.0,34.9,34.4,34.4,1.6,3.1,2.79,-0.7052406920726986,0.14679419737307473,0.07080198854448484,-0.42960143250508925,-2.989699,-6.859095
11.185,2.0,1.0,1.0,34.9,34.4,34.4,1.6,3.1,2.7925,-0.6869287110944798,0.17728326062554717,0.03910439032959202,-0.4392643752990407,-3.247716,-6.490109
11.185,2.0,1.0,1.0,34.9,34.4,34.4,1.6,3.1,2.795,-0.6653426729163364,0.21061422244877598,0.008630614953282581,-0.44711010287456127,-3.538362,-6.121373
11.185,2.0,1.0,1.0,34.9,34.4,34.4,1.6,3.1,2.7975,-0.6403983765224389,0.24684387695705826,-0.020122458727716747,-0.4526397907669682,-3.86671,-5.75421
11.185,2.0,1.0,1.0,34.9,34.4,34.4,1.6,3.1,2.8,-0.6120837438986648,0.28595619268522476,-0.046588478667221836,-0.4552859417681384,-4.238695,-5.390177
11.185,2.0,1.0,1.0,34.9,34.4,34.4,1.6,3.1,2.8025,-0.5804838819547833,0.32783734734536774,-0.07013714349980593,-0.45441789965331236,-4.661253,-5.031078
11.185,2.0,1.0,1.0,34.9,34.4,34.4,1.6,3.1,2.805,-0.5458088011328404,0.3722481160198045,-0.09008739160174782,-0.4493549804697754,-5.14246,-4.678975
11.185,2.0,1.0,1.0,34.9,34.4,34.4,1.6,3.1,2.8075,-0.5084217392784111,0.41879564993232526,-0.10573054093541705,-0.4393894926501602,-5.691648,-4.33618
11.185,2.0,1.0,1.0,34.9,34.4,34.4,1.6,3.1,2.81,-0.4688647277680731,0.4669079859169665,-0.11636529620497946,-0.4238215506693188,-6.319456,-4.005233
11.185,2.0,1.0,1.0,34.9,34.4,34.4,1.6,3.1,2.8125,-0.427876633814389,0.515816020582242,-0.121345480657212,-0.402006534778197,-7.037668,-3.688857
11.185,2.0,1.0,1.0,34.9,34.4,34.4,1.6,3.1,2.815,-0.38639777555749605,0.5645488130148941,-0.12013941247607106,-0.37341412466554197,-7.858539,-3.38989
11.185,2.0,1.0,1.0,34.9,34.4,34.4,1.6,3.1,2.8175,-0.3455548771385824,0.6119484070426096,-0.11239702829248034,-0.3376950358635353,-8.792903,-3.111187
11.185,2.0,1.0,1.0,34.9,34.4,34.4,1.6,3.1,2.82,-0.30662123780262746,0.6567092642520845,-0.09801750446196097,-0.2947482576756031,-9.845396,-2.855499
11.185,2.0,1.0,1.0,34.9,34.4,34.4,1.6,3.1,2.8225,-0.2709500087670315,0.697444398603843,-0.07720704095414693,-0.24477852568763533,-11.003172,-2.625329
11.185,2.0,1.0,1.0,34.9,34.4,34.4,1.6,3.1,2.825,-0.23988338298533582,0.732775423538835,-0.0505148376252943,-0.18833213757432757,-12.21156,-2.422785
11.185,2.0,1.0,1.0,34.9,34.4,34.4,1.6,3.1,2.8275,-0.2146464815260401,0.7614377820656134,-0.018836326149796037,-0.12630024797443135,-13.332208,-2.249438
11.185,2.0,1.0,1.0,34.9,34.4,34.4,1.6,3.1,2.83,-0.19624011516972206,0.7823870696888264,0.016622921853643627,-0.059883107732709176,-14.113194,-2.106199
