1,w,sub_t,h,l1,l2,l3,g1,g2,Freq,S11_re,S21_re,S11_img,S21_img,S11_dB,S21_dB
11.185,2.0,1.0,1.0,33.9,33.4,33.4,3.7,1.6,2.5,0.798667287752056,-0.0101939578829859,0.590387543458526,0.00729535984070504,-0.059351,-38.037159
11.185,2.0,1.0,1.0,33.9,33.4,33.4,3.7,1.6,2.5025,0.7943899372402159,-0.010389177672858884,0.5960198299486221,0.007311830560248304,-0.059932,-37.921022
11.185,2.0,1.0,1.0,33.9,33.4,33.4,3.7,1.6,2.505,0.7900525320570984,-0.010587774161453102,0.601645898865431,0.007326978959512841,-0.060523,-37.804532
11.185,2.0,1.0,1.0,33.9,33.4,33.4,3.7,1.6,2.5075,0.7856544828492883,-0.010789812121235507,0.6072653550895396,0.007340752424443759,-0.061124,-37.687683
11.185,2.0,1.0,1.0,33.9,33.4,33.4,3.7,1.6,2.51,0.7811951920646404,-0.0109953578356849,0.6128777921254548,0.0073530964299733876,-0.061737,-37.570465
11.185,2.0,1.0,1.0,33.9,33.4,33.4,3.7,1.6,2.5125,0.776674053865497,-0.01120447914054264,0.61848279175546,0.007363954463887048,-0.062361,-37.452872
11.185,2.0,1.0,1.0,33.9,33.4,33.4,3.7,1.6,2.515,0.7720904540426758,-0.011417245466364885,0.6240799236827427,0.007373267947292447,-0.062996,-37.334894
11.185,2.0,1.0,1.0,33.9,33.4,33.4,3.7,1.6,2.5175,0.7674437699303526,-0.011633727882423834,0.6296687451634205,0.007380976151521404,-0.063642,-37.216525
11.185,2.0,1.0,1.0,33.9,33.4,33.4,3.7,1.6,2.52,0.7627333703219453,-0.01185399914200901,0.6352488006271059,0.007387016111281666,-0.064301,-37.097754
11.185,2.0,1.0,1.0,33.9,33.4,33.4,3.7,1.6,2.5225,0.7579586153871504,-0.012078133729179113,0.640819621285604,0.007391322533866146,-0.064972,-36.978575
11.185,2.0,1.0,1.0,33.9,33.4,33.4,3.7,1.6,2.525,0.7531188565902373,-0.012306207907020436,0.6463807247293551,0.007393827704216397,-0.065655,-36.858979
11.185,2.0,1.0,1.0,33.9,33.4,33.4,3.7,1.6,2.5275,0.7482134366097662,-0.01253829976746774,0.6519316145112016,0.007394461385623716,-0.066351,-36.738956
11.185,2.0,1.0,1.0,33.9,33.4,33.4,3.7,1.6,2.53,0.7432416892598634,-0.012774489282746758,0.6574717797170331,0.007393150715839916,-0.067061,-36.618499
11.185,2.0,1.0,1.0,33.9,33.4,33.4,3.7,1.6,2.5325,0.7382029394132236,-0.013014858358500359,0.6630006945228695,0.007389820098354751,-0.067783,-36.497598
11.185,2.0,1.0,1.0,33.9,33.4,33.4,3.7,1.6,2.535,0.7330965029259882,-0.01325949088866288,0.6685178177379071,0.007384391088583031,-0.06852,-36.376244
11.185,2.0,1.0,1.0,33.9,33.4,33.4,3.7,1.6,2.5375,0.7279216865646946,-0.013508472812149841,0.6740225923330303,0.007376782274688888,-0.06927,-36.254427
11.185,2.0,1.0,1.0,33.9,33.4,33.4,3.7,1.6,2.54,0.7226777879354614,-0.013761892171433844,0.6795144449542903,0.00736690915275745,-0.070035,-36.132139
11.185,2.0,1.0,1.0,33.9,33.4,33.4,3.7,1.6,2.5425,0.7173640954156096,-0.014019839173079139,0.6849927854208105,0.007354683996005831,-0.070815,-36.00937
11.185,2.0,1.0,1.0,33.9,33.4,33.4,3.7,1.6,2.545,0.7119798880879218,-0.01428240625031332,0.6904570062065729,0.007340015717707911,-0.071611,-35.88611
11.185,2.0,1.0,1.0,33.9,33.4,33.4,3.7,1.6,2.5475,0.7065244356777526,-0.014549688127714318,0.69590648190549,0.0073228097274841,-0.072421,-35.76235
11.185,2.0,1.0,1.0,33.9,33.4,33.4,3.7,1.6,2.55,0.7009969984932055,-0.014821781888098295,0.7013405686791903,0.007302967780587702,-0.073248,-35.638078
11.185,2.0,1.0,1.0,33.9,33.4,33.4,3.7,1.6,2.5525,0.6953968273686238,-0.015098787041695316,0.7067586036868472,0.007280387819794188,-0.074092,-35.513286
11.185,2.0,1.0,1.0,33.9,33.4,33.4,3.7,1.6,2.555,0.6897231636116297,-0.015380805597703459,0.7121599044964335,0.00725496380947473,-0.074952,-35.387962
11.185,2.0,1.0,1.0,33.9,33.4,33.4,3.7,1.6,2.5575,0.6839752389539671,-0.015667942138319183,0.7175437684766874,0.007226585561408599,-0.075829,-35.262096
11.185,2.0,1.0,1.0,33.9,33.4,33.4,3.7,1.6,2.56,0.6781522755064305,-0.015960303895341983,0.7229094721690849,0.007195138551858729,-0.076725,-35.135677
11.185,2.0,1.0,1.0,33.9,33.4,33.4,3.7,1.6,2.5625,0.6722534857181518,-0.016258000829458656,0.7282562706390553,0.007160503729403741,-0.077638,-35.008693
11.185,2.0,1.0,1.0,33.9,33.4,33.4,3.7,1.6,2.565,0.6662780723405396,-0.01656114571231682,0.7335833968056711,0.007122557312986014,-0.078571,-34.881135
11.185,2.0,1.0,1.0,33.9,33.4,33.4,3.7,1.6,2.5675,0.6602252283961946,-0.016869854211501275,0.7388900607489596,0.007081170579598212,-0.079523,-34.752989
11.185,2.0,1.0,1.0,33.9,33.4,33.4,3.7,1.6,2.57,0.6540941371531103,-0.017184244978532583,0.7441754489939927,0.007036209640991733,-0.080494,-34.624245
11.185,2.0,1.0,1.0,33.9,33.4,33.4,3.7,1.6,2.5725,0.6478839721045061,-0.017504439740013443,0.7494387237708383,0.0069875352087484304,-0.081486,-34.494891
11.185,2.0,1.0,1.0,33.9,33.4,33.4,3.7,1.6,2.575,0.6415938969546483,-0.017830563392052065,0.754679022249418,0.006935002347010051,-0.082499,-34.364913
11.185,2.0,1.0,1.0,33.9,33.4,33.4,3.7,1.6,2.5775,0.6352230656110277,-0.018162744098099936,0.7598954557482602,0.006878460212112133,-0.083534,-34.234301
11.185,2.0,1.0,1.0,33.9,33.4,33.4,3.7,1.6,2.58,0.6287706221832907,-0.018501113390344336,0.7650871089161058,0.006817751778314032,-0.084591,-34.10304
11.185,2.0,1.0,1.0,33.9,33.4,33.4,3.7,1.6,2.5825,0.6222357009893162,-0.018845806274806497,0.7702530388852408,0.006752713548760358,-0.08567,-33.971118
11.185,2.0,1.0,1.0,33.9,33.4,33.4,3.7,1.6,2.585,0.6156174265688807,-0.019196961340298083,0.7753922743953864,0.006683175250746094,-0.086773,-33.838521
11.185,2.0,1.0,1.0,33.9,33.4,33.4,3.7,1.6,2.5875,0.6089149137053373,-0.019554720871399037,0.7805038148869129,0.006608959514290416,-0.087901,-33.705237
11.185,2.0,1.0,1.0,33.9,33.4,33.4,3.7,1.6,2.59,0.6021272674557929,-0.019919230965624427,0.7855866295620517,0.006529881532951057,-0.089053,-33.57125
11.185,2.0,1.0,1.0,33.9,33.4,33.4,3.7,1.6,2.5925,0.5952535831902451,-0.02029064165495667,0.7906396564127486,0.006445748705731462,-0.090231,-33.436547
11.185,2.0,1.0,1.0,33.9,33.4,33.4,3.7,1.6,2.595,0.5882929466402147,-0.020669107031924427,0.7956618012136563,0.006356360258847787,-0.091435,-33.301113
11.185,2.0,1.0,1.0,33.9,33.4,33.4,3.7,1.6,2.5975,0.5812444339573728,-0.021054785380420306,0.8006519364787472,0.0062615068460289,-0.092667,-33.164933
11.185,2.0,1.0,1.0,33.9,33.4,33.4,3.7,1.6,2.6,0.5741071117827331,-0.021447839311452797,0.8056089003798759,0.006160970125920925,-0.093927,-33.027991
11.185,2.0,1.0,1.0,33.9,33.4,33.4,3.7,1.6,2.6025,0.5668800373269882,-0.02184843590403857,0.8105314956255453,0.006054522315058356,-0.095216,-32.890273
11.185,2.0,1.0,1.0,33.9,33.4,33.4,3.7,1.6,2.605,0.5595622584625816,-0.02225674685144771,0.8154184882980133,0.0059419257147432835,-0.096535,-32.751761
11.185,2.0,1.0,1.0,33.9,33.4,33.4,3.7,1.6,2.6075,0.5521528138281526,-0.02267294861302071,0.8202686066467588,0.0058229322100437275,-0.097885,-32.612439
11.185,2.0,1.0,1.0,33.9,33.4,33.4,3.7,1.6,2.61,0.5446507329460187,-0.023097222571785272,0.8250805398361806,0.005697282738979851,-0.099266,-32.472291
11.185,2.0,1.0,1.0,33.9,33.4,33.4,3.7,1.6,2.6125,0.5370550363533724,-0.023529755198105524,0.8298529366452783,0.005564706729811571,-0.100681,-32.331298
11.185,2.0,1.0,1.0,33.9,33.4,33.4,3.7,1.6,2.615,0.5293647357479143,-0.023970738219606116,0.8345844041169,0.0054249215041710834,-0.10213,-32.189443
11.185,2.0,1.0,1.0,33.9,33.4,33.4,3.7,1.6,2.6175,0.5215788341486874,-0.024420368797615468,0.8392735061539602,0.0052776316435997695,-0.103613,-32.046708
11.185,2.0,1.0,1.0,33.9,33.4,33.4,3.7,1.6,2.62,0.5136963260728866,-0.02487884971038101,0.8439187620598647,0.005122528316844204,-0.105133,-31.903074
11.185,2.0,1.0,1.0,33.9,33.4,33.4,3.7,1.6,2.6225,0.5057161977294726,-0.02534638954331225,0.8485186450201638,0.004959288565047584,-0.106691,-31.75852
11.185,2.0,1.0,1.0,33.9,33.4,33.4,3.7,1.6,2.625,0.497637427230468,-0.0258232028865101,0.853071580522227,0.00478757454172662,-0.108288,-31.613028
11.185,2.0,1.0,1.0,33.9,33.4,33.4,3.7,1.6,2.6275,0.48945898482082223,-0.026309510539842963,0.8575759447095048,0.004607032704159604,-0.109924,-31.466577
11.185,2.0,1.0,1.0,33.9,33.4,33.4,3.7,1.6,2.63,0.48117983312781676,-0.02680553972583054,0.8620300626666579,0.004417292952519031,-0.111603,-31.319145
11.185,2.0,1.0,1.0,33.9,33.4,33.4,3.7,1.6,2.6325,0.4727989274310051,-0.027311524310590994,0.8664322066315469,0.004217967712760569,-0.113324,-31.170712
11.185,2.0,1.0,1.0,33.9,33.4,33.4,3.7,1.6,2.635,0.46431521595374464,-0.027827705033103955,0.8707805941297478,0.00400865095892688,-0.115091,-31.021253
11.185,2.0,1.0,1.0,33.9,33.4,33.4,3.7,1.6,2.6375,0.4557276401774467,-0.0283543297430313,0.8750733860268964,0.003788917170137787,-0.116903,-30.870748
11.185,2.0,1.0,1.0,33.9,33.4,33.4,3.7,1.6,2.64,0.44703513517969784,-0.028891653647324385,0.8793086844937882,0.003558320217107738,-0.118764,-30.71917
11.185,2.0,1.0,1.0,33.9,33.4,33.4,3.7,1.6,2.6425,0.4382366299975286,-0.02943993956582816,0.8834845308786908,0.003316392172561972,-0.120674,-30.566497
11.185,2.0,1.0,1.0,33.9,33.4,33.4,3.7,1.6,2.645,0.4293310480171385,-0.029999458196066066,0.8875989034808708,0.0030626420394002842,-0.122636,-30.412702
11.185,2.0,1.0,1.0,33.9,33.4,33.4,3.7,1.6,2.6475,0.4203173073914961,-0.030570488387359828,0.8916497152187917,0.002796554389881531,-0.124652,-30.25776
11.185,2.0,1.0,1.0,33.9,33.4,33.4,3.7,1.6,2.65,0.4111943214873075,-0.031153317424394072,0.8956348111858486,0.0025175879084647344,-0.126723,-30.101644
11.185,2.0,1.0,1.0,33.9,33.4,33.4,3.7,1.6,2.6525,0.4019609993629979,-0.03174824132028574,0.8995519660858357,0.002225173830239015,-0.128853,-29.944325
11.185,2.0,1.0,1.0,33.9,33.4,33.4,3.7,1.6,2.655,0.3926162462794057,-0.03235556511915108,0.9033988815396325,0.0019187142660888386,-0.131042,-29.785775
11.185,2.0,1.0,1.0,33.9,33.4,33.4,3.7,1.6,2.6575,0.3831589642450884,-0.0329756032080859,0.9071731832537564,0.0015975804048771948,-0.133295,-29.625963
11.185,2.0,1.0,1.0,33.9,33.4,33.4,3.7,1.6,2.66,0.37358805259825467,-0.03360867963837165,0.9108724180405472,0.0012611105819616988,-0.135612,-29.46486
11.185,2.0,1.0,1.0,33.9,33.4,33.4,3.7,1.6,2.6625,0.3639024086275443,-0.03425512845560421,0.9144940506787083,0.0009086082022882392,-0.137998,-29.302434
11.185,2.0,1.0,1.0,33.9,33.4,33.4,3.7,1.6,2.665,0.3541009282340461,-0.034915294038292306,0.9180354606018317,0.0005393395051092624,-0.140454,-29.13865
11.185,2.0,1.0,1.0,33.9,33.4,33.4,3.7,1.6,2.6675,0.34418250663723143,-0.035589531444297315,0.9214939384012402,0.00015253115604593523,-0.142985,-28.973475
11.185,2.0,1.0,1.0,33.9,33.4,33.4,3.7,1.6,2.67,0.334146039127702,-0.03627820676427106,0.9248666821280889,-0.0002526323492781274,-0.145592,-28.806873
11.185,2.0,1.0,1.0,33.9,33.4,33.4,3.7,1.6,2.6725,0.3239904218699969,-0.03698169748099064,0.9281507933780702,-0.0006770114874621825,-0.148279,-28.638808
11.185,2.0,1.0,1.0,33.9,33.4,33.4,3.7,1.6,2.675,0.3137145527590682,-0.03770039283317916,0.931343273140306,-0.0011215147347041674,-0.151051,-28.469241
11.185,2.0,1.0,1.0,33.9,33.4,33.4,3.7,1.6,2.6775,0.3033173323344681,-0.03843469418202833,0.934441017389973,-0.001587101840703753,-0.15391,-28.298132
11.185,2.0,1.0,1.0,33.9,33.4,33.4,3.7,1.6,2.68,0.29279766475677643,-0.039185015378192876,0.9374408124020132,-0.002074787372803472,-0.156862,-28.125441
11.185,2.0,1.0,1.0,33.9,33.4,33.4,3.7,1.6,2.6825,0.28215445885141904,-0.039951783126489775,0.9403393297607086,-0.0025856445567090723,-0.159909,-27.951124
11.185,2.0,1.0,1.0,33.9,33.4,33.4,3.7,1.6,2.685,0.2713866292257008,-0.040735437344896645,0.9431331210370555,-0.0031208094430811156,-0.163057,-27.775137
11.185,2.0,1.0,1.0,33.9,33.4,33.4,3.7,1.6,2.6875,0.2604930974657,-0.0415364315136716,0.945818612102665,-0.00368148543262008,-0.166311,-27.597433
11.185,2.0,1.0,1.0,33.9,33.4,33.4,3.7,1.6,2.69,0.2494727934206747,-0.042355233009504355,0.9483920970452352,-0.004268948196017438,-0.169675,-27.417963
11.185,2.0,1.0,1.0,33.9,33.4,33.4,3.7,1.6,2.6925,0.23832465658372137,-0.043192323418500746,0.950849731646553,-0.004884551029388616,-0.173155,-27.236679
11.185,2.0,1.0,1.0,33.9,33.4,33.4,3.7,1.6,2.695,0.22704763757887386,-0.04404819882049004,0.9531875263792606,-0.005529730690595517,-0.176758,-27.053527
11.185,2.0,1.0,1.0,33.9,33.4,33.4,3.7,1.6,2.6975,0.21564069976636155,-0.04492337003556878,0.9554013388733473,-0.0062060137673021825,-0.180489,-26.868451
11.185,2.0,1.0,1.0,33.9,33.4,33.4,3.7,1.6,2.7,0.20410282097976995,-0.04581836282189433,0.9574868657972532,-0.006915023633767433,-0.184355,-26.681397
11.185,2.0,1.0,1.0,33.9,33.4,33.4,3.7,1.6,2.7025,0.19243299541109185,-0.0467337180114872,0.959439634091586,-0.007658488060382515,-0.188363,-26.492302
11.185,2.0,1.0,1.0,33.9,33.4,33.4,3.7,1.6,2.705,0.18063023566243777,-0.04766999156806509,0.9612549914856713,-0.008438247547927423,-0.192522,-26.301106
11.185,2.0,1.0,1.0,33.9,33.4,33.4,3.7,1.6,2.7075,0.16869357498650364,-0.04862775454767143,0.9629280962180838,-0.009256264467601584,-0.196838,-26.107742
11.185,2.0,1.0,1.0,33.9,33.4,33.4,3.7,1.6,2.71,0.1566220697418057,-0.04960759293892191,0.9644539058721957,-0.010114633098247287,-0.201323,-25.912143
11.185,2.0,1.0,1.0,33.9,33.4,33.4,3.7,1.6,2.7125,0.1444148020935103,-0.050610107354959036,0.9658271652259393,-0.011015590664032853,-0.205984,-25.714236
11.185,2.0,1.0,1.0,33.9,33.4,33.4,3.7,1.6,2.715,0.13207088299637937,-0.051635912543492486,0.9670423930016055,-0.011961529489429306,-0.210832,-25.513948
11.185,2.0,1.0,1.0,33.9,33.4,33.4,3.7,1.6,2.7175,0.11958945550329843,-0.05268563667440694,0.9680938673859973,-0.012955010403873883,-0.215878,-25.311199
11.185,2.0,1.0,1.0,33.9,33.4,33.4,3.7,1.6,2.72,0.10696969845120109,-0.05375992035608055,0.9689756101735176,-0.013998777546384207,-0.221136,-25.105907
11.185,2.0,1.0,1.0,33.9,33.4,33.4,3.7,1.6,2.7225,0.09421083058630723,-0.054859415321458514,0.969681369364261,-0.015095774740955787,-0.226617,-24.897986
11.185,2.0,1.0,1.0,33.9,33.4,33.4,3.7,1.6,2.725,0.08131211520290527,-0.05598478271266123,0.9702046000255858,-0.0162491636372692,-0.232335,-24.687343
11.185,2.0,1.0,1.0,33.9,33.4,33.4,3.7,1.6,2.7275,0.0682728653847781,-0.05713669087801655,0.970538443198283,-0.017462343838597762,-0.238307,-24.473884
11.185,2.0,1.0,1.0,33.9,33.4,33.4,3.7,1.6,2.73,0.05509244995659671,-0.05831581257724153,0.9706757025968906,-0.018738975270430985,-0.244549,-24.257507
11.185,2.0,1.0,1.0,33.9,33.4,33.4,3.7,1.6,2.7325,0.04177030027475005,-0.05952282146835308,0.9706088188170366,-0.020083003079964155,-0.25108,-24.038106
11.185,2.0,1.0,1.0,33.9,33.4,33.4,3.7,1.6,2.735,0.028305918014252834,-0.06075838772277016,0.97032984072015,-0.02149868539908916,-0.257918,-23.81557
11.185,2.0,1.0,1.0,33.9,33.4,33.4,3.7,1.6,2.7375,0.014698884141673588,-0.062023172581844026,0.9698303936164067,-0.02299062435287936,-0.265087,-23.58978
11.185,2.0,1.0,1.0,33.9,33.4,33.4,3.7,1.6,2.74,0.0009488693049272982,-0.06331782162719002,0.96910164380922,-0.024563800752979478,-0.272609,-23.360611
11.185,2.0,1.0,1.0,33.9,33.4,33.4,3.7,1.6,2.7425,-0.01294435407871392,-0.06464295648686526,0.9681342589973797,-0.026223612982212093,-0.280512,-23.127931
11.185,2.0,1.0,1.0,33.9,33.4,33.4,3.7,1.6,2.745,-0.026980897692720097,-0.06599916463723458,0.966918363952614,-0.027975920654747306,-0.288824,-22.891601
11.185,2.0,1.0,1.0,33.9,33.4,33.4,3.7,1.6,2.7475,-0.04116074072850338,-0.06738698688331861,0.9654434907987085,-0.02982709372733264,-0.297576,-22.651473
11.185,2.0,1.0,1.0,33.9,33.4,33.4,3.7,1.6,2.75,-0.0554837103127026,-0.0688069020046907,0.963698523111163,-0.0317840678436438,-0.306804,-22.407389
11.185,2.0,1.0,1.0,33.9,33.4,33.4,3.7,1.6,2.7525,-0.06994945831774532,-0.0702593079346946,0.9616716329309151,-0.03385440681851119,-0.316547,-22.159185
11.185,2.0,1.0,1.0,33.9,33.4,33.4,3.7,1.6,2.755,-0.08455743376915821,-0.07174449869164273,0.9593502096386691,-0.036046373314767205,-0.326848,-21.906683
11.185,2.0,1.0,1.0,33.9,33.4,33.4,3.7,1.6,2.7575,-0.09930684987536664,-0.07326263609368953,0.9567207794642507,-0.03836900893642231,-0.337754,-21.649696
11.185,2.0,1.0,1.0,33.9,33.4,33.4,3.7,1.6,2.76,-0.1141966444692189,-0.07481371505381469,0.9537689142036778,-0.040832225162026635,-0.349319,-21.388025
11.185,2.0,1.0,1.0,33.9,33.4,33.4,3.7,1.6,2.7625,-0.12922543235216732,-0.07639752095441,0.9504791274806783,-0.043446906776237824,-0.361604,-21.121457
11.185,2.0,1.0,1.0,33.9,33.4,33.4,3.7,1.6,2.765,-0.14439144765373796,-0.07801357722472547,0.946834756613585,-0.046225029731112165,-0.374673,-20.849765
11.185,2.0,1.0,1.0,33.9,33.4,33.4,3.7,1.6,2.7675,-0.15969247383795418,-0.07966108076612236,0.9428178278270886,-0.04917979568730577,-0.388604,-20.572709
11.185,2.0,1.0,1.0,33.9,33.4,33.4,3.7,1.6,2.77,-0.17512575837446864,-0.0813388222596377,0.9384089021751082,-0.05232578585521868,-0.40348,-20.29003
11.185,2.0,1.0,1.0,33.9,33.4,33.4,3.7,1.6,2.7725,-0.1906879083054572,-0.08304508760841642,0.9335868991101577,-0.05567913718291799,-0.419398,-20.001454
11.185,2.0,1.0,1.0,33.9,33.4,33.4,3.7,1.6,2.775,-0.2063747619275812,-0.08477753576199235,0.9283288941412194,-0.059257744426151844,-0.436466,-19.706686
11.185,2.0,1.0,1.0,33.9,33.4,33.4,3.7,1.6,2.7775,-0.22218123050183874,-0.08653304687122211,0.9226098864639685,-0.0630814921880808,-0.454808,-19.40541
11.185,2.0,1.0,1.0,33.9,33.4,33.4,3.7,1.6,2.78,-0.23810110221056824,-0.0883075330401157,0.9164025318268125,-0.06717252162980464,-0.474566,-19.09729
11.185,2.0,1.0,1.0,33.9,33.4,33.4,3.7,1.6,2.7825,-0.2541267983767981,-0.09009570175145903,0.9096768352252299,-0.07155553721570358,-0.495902,-18.781963
11.185,2.0,1.0,1.0,33.9,33.4,33.4,3.7,1.6,2.785,-0.2702490690816944,-0.09189075918329156,0.9023997973219136,-0.07625815954318607,-0.519002,-18.459043
11.185,2.0,1.0,1.0,33.9,33.4,33.4,3.7,1.6,2.7875,-0.28645661153960045,-0.09368403688344205,0.8945350078243196,-0.08131133096192311,-0.544082,-18.128113
11.185,2.0,1.0,1.0,33.9,33.4,33.4,3.7,1.6,2.79,-0.30273558962043084,-0.09546452033482239,0.8860421785092938,-0.08674978121810517,-0.571393,-17.788728
11.185,2.0,1.0,1.0,33.9,33.4,33.4,3.7,1.6,2.7925,-0.31906902634646017,-0.09721825142917473,0.8768766083316618,-0.09261256060034821,-0.601227,-17.44041
11.185,2.0,1.0,1.0,33.9,33.4,33.4,3.7,1.6,2.795,-0.33543603249996234,-0.09892756824057915,0.8669885733673287,-0.0989436477394059,-0.633925,-17.082647
11.185,2.0,1.0,1.0,33.9,33.4,33.4,3.7,1.6,2.7975,-0.3518108229432313,-0.10057013404211344,0.8563226356810335,-0.105792637866772,-0.669891,-16.714892
11.185,2.0,1.0,1.0,33.9,33.4,33.4,3.7,1.6,2.8,-0.3681614569221878,-0.10211769229659934,0.8448168683256403,-0.1132155142204218,-0.709601,-16.33656
11.185,2.0,1.0,1.0,33.9,33.4,33.4,3.7,1.6,2.8025,-0.38444821824887093,-0.10353446413647818,0.8324019997943585,-0.12127549918598385,-0.753623,-15.947026
11.185,2.0,1.0,1.0,33.9,33.4,33.4,3.7,1.6,2.805,-0.40062152422610825,-0.10477507803310418,0.8190004923313876,-0.13004397071895102,-0.802634,-15.545631
11.185,2.0,1.0,1.0,33.9,33.4,33.4,3.7,1.6,2.8075,-0.41661921648132894,-0.10578188595339996,0.8045255877346045,-0.139601410454368,-0.857452,-15.131678
11.185,2.0,1.0,1.0,33.9,33.4,33.4,3.7,1.6,2.81,-0.4323630401539523,-0.10648147397588914,0.7888803867488695,-0.1500383176163183,-0.919065,-14.704439
11.185,2.0,1.0,1.0,33.9,33.4,33.4,3.7,1.6,2.8125,-0.447754057668678,-0.106780115655736,0.771957081989775,-0.161455969308165,-0.98868,-14.26316
11.185,2.0,1.0,1.0,33.9,33.4,33.4,3.7,1.6,2.815,-0.462666667773514,-0.10655784157130849,0.7536365524920413,-0.1739668201528182,-1.067774,-13.807081
11.185,2.0,1.0,1.0,33.9,33.4,33.4,3.7,1.6,2.8175,-0.47694081008444944,-0.10566070893907513,0.7337886708304071,-0.18769419232738987,-1.158175,-13.335448
11.185,2.0,1.0,1.0,33.9,33.4,33.4,3.7,1.6,2.82,-0.49037183653588395,-0.10389075742635549,0.7122739029871975,-0.20277067937201265,-1.262153,-12.847553
11.185,2.0,1.0,1.0,33.9,33.4,33.4,3.7,1.6,2.8225,-0.5026974440618416,-0.10099305142011998,0.6889471448040656,-0.21933432607487416,-1.382548,-12.342782
11.185,2.0,1.0,1.0,33.9,33.4,33.4,3.7,1.6,2.825,-0.5135810366644283,-0.09663918390034701,0.6636653069845408,-0.23752108281607612,-1.522934,-11.820686
11.185,2.0,1.0,1.0,33.9,33.4,33.4,3.7,1.6,2.8275,-0.5225910269798789,-0.09040675927617466,0.6363010278523282,-0.25745117222288283,-1.687829,-11.281091
