1,w,sub_t,h,l1,l2,l3,g1,g2,Freq,S11_re,S21_re,S11_img,S21_img,S11_dB,S21_dB
11.185,2.0,1.0,1.0,33.2,34.3,34.3,2.9,1.5,2.5,0.877162977173834,-0.00998517086558853,0.465999169653449,0.0110302004007378,-0.05872,-36.548833
11.185,2.0,1.0,1.0,33.2,34.3,34.3,2.9,1.5,2.5025,0.8741119115647197,-0.010219123843296245,0.47155606787298576,0.011127709729605589,-0.059308,-36.41577
11.185,2.0,1.0,1.0,33.2,34.3,34.3,2.9,1.5,2.505,0.8710112414745422,-0.010458456224100719,0.4771154481376883,0.011225616670331003,-0.059911,-36.28205
11.185,2.0,1.0,1.0,33.2,34.3,34.3,2.9,1.5,2.5075,0.867860424253118,-0.010703319699105814,0.4826771513935709,0.011323906689139842,-0.060531,-36.147658
11.185,2.0,1.0,1.0,33.2,34.3,34.3,2.9,1.5,2.51,0.8646589053865382,-0.010953871597134396,0.4882410133797629,0.011422564128209802,-0.061168,-36.012577
11.185,2.0,1.0,1.0,33.2,34.3,34.3,2.9,1.5,2.5125,0.8614061181320607,-0.01121027514687397,0.4938068644176911,0.011521572129519658,-0.061822,-35.876791
11.185,2.0,1.0,1.0,33.2,34.3,34.3,2.9,1.5,2.515,0.8581014831368413,-0.011472699753609959,0.4993745291906071,0.01162091255318764,-0.062495,-35.740284
11.185,2.0,1.0,1.0,33.2,34.3,34.3,2.9,1.5,2.5175,0.8547444080395542,-0.011741321291493129,0.504943826512869,0.01172056588985881,-0.063186,-35.603038
11.185,2.0,1.0,1.0,33.2,34.3,34.3,2.9,1.5,2.52,0.8513342870538491,-0.012016322412361455,0.5105145690883782,0.011820511166661395,-0.063896,-35.465036
11.185,2.0,1.0,1.0,33.2,34.3,34.3,2.9,1.5,2.5225,0.8478705005325569,-0.012297892872208565,0.5160865632574814,0.011920725846209597,-0.064625,-35.326259
11.185,2.0,1.0,1.0,33.2,34.3,34.3,2.9,1.5,2.525,0.8443524145114336,-0.012586229876478552,0.521659608731642,0.01202118571808279,-0.065374,-35.186691
11.185,2.0,1.0,1.0,33.2,34.3,34.3,2.9,1.5,2.5275,0.8407793802311686,-0.012881538445453318,0.5272334983151002,0.012121864782159967,-0.066144,-35.04631
11.185,2.0,1.0,1.0,33.2,34.3,34.3,2.9,1.5,2.53,0.8371507336362787,-0.013184031801098109,0.5328080176126757,0.012222735123128574,-0.066935,-34.905099
11.185,2.0,1.0,1.0,33.2,34.3,34.3,2.9,1.5,2.5325,0.8334657948494,-0.013493931776836074,0.5383829447228166,0.012323766775426492,-0.067748,-34.763037
11.185,2.0,1.0,1.0,33.2,34.3,34.3,2.9,1.5,2.535,0.8297238676193792,-0.01381146925183901,0.5439580499149151,0.012424927577804064,-0.068584,-34.620104
11.185,2.0,1.0,1.0,33.2,34.3,34.3,2.9,1.5,2.5375,0.8259242387414439,-0.014136884611545938,0.549533095289815,0.012526183016617419,-0.069442,-34.476278
11.185,2.0,1.0,1.0,33.2,34.3,34.3,2.9,1.5,2.54,0.822066177447584,-0.014470428236258714,0.5551078344223693,0.012627496056878282,-0.070325,-34.331538
11.185,2.0,1.0,1.0,33.2,34.3,34.3,2.9,1.5,2.5425,0.8181489347651418,-0.014812361019813411,0.5606820119847856,0.012728826959991913,-0.071232,-34.185862
11.185,2.0,1.0,1.0,33.2,34.3,34.3,2.9,1.5,2.545,0.8141717428414341,-0.015162954920486872,0.5662553633494002,0.012830133087010611,-0.072165,-34.039227
11.185,2.0,1.0,1.0,33.2,34.3,34.3,2.9,1.5,2.5475,0.8101338142320654,-0.015522493546477703,0.5718276141693808,0.012931368686113798,-0.073124,-33.891609
11.185,2.0,1.0,1.0,33.2,34.3,34.3,2.9,1.5,2.55,0.8060343411503825,-0.015891272778493754,0.5773984799357599,0.01303248466289882,-0.07411,-33.742985
11.185,2.0,1.0,1.0,33.2,34.3,34.3,2.9,1.5,2.5525,0.8018724946753303,-0.016269601432188845,0.5829676655089957,0.013133428331923474,-0.075124,-33.593329
11.185,2.0,1.0,1.0,33.2,34.3,34.3,2.9,1.5,2.555,0.7976474239147144,-0.016657801963426623,0.5885348646231535,0.013234143147782507,-0.076167,-33.442615
11.185,2.0,1.0,1.0,33.2,34.3,34.3,2.9,1.5,2.5575,0.7933582551206394,-0.017056211219600204,0.5940997593605726,0.013334568413825408,-0.077241,-33.290818
11.185,2.0,1.0,1.0,33.2,34.3,34.3,2.9,1.5,2.56,0.7890040907536119,-0.017465181240515992,0.5996620195946959,0.013434638966425706,-0.078346,-33.13791
11.185,2.0,1.0,1.0,33.2,34.3,34.3,2.9,1.5,2.5625,0.7845840084914842,-0.017885080112655802,0.6052213023985139,0.013534284832493158,-0.079483,-32.983863
11.185,2.0,1.0,1.0,33.2,34.3,34.3,2.9,1.5,2.565,0.7800970601790913,-0.018316292880965417,0.6107772514158266,0.013633430857676035,-0.080653,-32.828648
11.185,2.0,1.0,1.0,33.2,34.3,34.3,2.9,1.5,2.5675,0.7755422707140613,-0.018759222522686622,0.6163294961922278,0.013731996302427779,-0.081859,-32.672235
11.185,2.0,1.0,1.0,33.2,34.3,34.3,2.9,1.5,2.57,0.7709186368638746,-0.019214290988154335,0.6218776514624215,0.013829894402806287,-0.0831,-32.514593
11.185,2.0,1.0,1.0,33.2,34.3,34.3,2.9,1.5,2.5725,0.7662251260088028,-0.019681940313926855,0.6274213163901258,0.013927031892530702,-0.084379,-32.355691
11.185,2.0,1.0,1.0,33.2,34.3,34.3,2.9,1.5,2.575,0.7614606748048708,-0.020162633814106705,0.6329600737564143,0.014023308482438941,-0.085698,-32.195495
11.185,2.0,1.0,1.0,33.2,34.3,34.3,2.9,1.5,2.5775,0.7566241877604435,-0.02065685735625226,0.638493489091918,0.014118616293054312,-0.087056,-32.033972
11.185,2.0,1.0,1.0,33.2,34.3,34.3,2.9,1.5,2.58,0.7517145357194439,-0.021165120728876857,0.6440211097478105,0.01421283923548687,-0.088458,-31.871086
11.185,2.0,1.0,1.0,33.2,34.3,34.3,2.9,1.5,2.5825,0.7467305542435423,-0.02168795910819243,0.649542463899944,0.014305852335346784,-0.089903,-31.706802
11.185,2.0,1.0,1.0,33.2,34.3,34.3,2.9,1.5,2.585,0.7416710418849402,-0.02222593463248415,0.6550570594798805,0.014397520993732506,-0.091394,-31.541081
11.185,2.0,1.0,1.0,33.2,34.3,34.3,2.9,1.5,2.5875,0.7365347583405516,-0.022779638093310028,0.6605643830258601,0.014487700178658986,-0.092933,-31.373884
11.185,2.0,1.0,1.0,33.2,34.3,34.3,2.9,1.5,2.59,0.7313204224775052,-0.023349690753613844,0.6660638984459313,0.014576233539505996,-0.094522,-31.205172
11.185,2.0,1.0,1.0,33.2,34.3,34.3,2.9,1.5,2.5925,0.7260267102188802,-0.02393674630383185,0.6715550456846162,0.014662952436174884,-0.096163,-31.034903
11.185,2.0,1.0,1.0,33.2,34.3,34.3,2.9,1.5,2.595,0.720652252277514,-0.024541492968174036,0.6770372392833922,0.014747674873632507,-0.097859,-30.863033
11.185,2.0,1.0,1.0,33.2,34.3,34.3,2.9,1.5,2.5975,0.7151956317244602,-0.025164655774484766,0.6825098668241963,0.014830204331375248,-0.099612,-30.689518
11.185,2.0,1.0,1.0,33.2,34.3,34.3,2.9,1.5,2.6,0.7096553813773502,-0.025806999002447224,0.6879722872437857,0.014910328476039434,-0.101425,-30.51431
11.185,2.0,1.0,1.0,33.2,34.3,34.3,2.9,1.5,2.6025,0.704029980992378,-0.026469328826409226,0.6934238290053091,0.01498781774390157,-0.103301,-30.337362
11.185,2.0,1.0,1.0,33.2,34.3,34.3,2.9,1.5,2.605,0.6983178542419303,-0.027152496170797725,0.6988637881117651,0.01506242377831537,-0.105242,-30.158623
11.185,2.0,1.0,1.0,33.2,34.3,34.3,2.9,1.5,2.6075,0.6925173654580213,-0.027857399797968443,0.7042914259440435,0.01513387770519559,-0.107252,-29.978041
11.185,2.0,1.0,1.0,33.2,34.3,34.3,2.9,1.5,2.61,0.686626816119571,-0.028584989650439967,0.7097059669040446,0.01520188822744359,-0.109335,-29.795562
11.185,2.0,1.0,1.0,33.2,34.3,34.3,2.9,1.5,2.6125,0.6806444410592131,-0.02933627047180975,0.7151065958408229,0.015266139516665687,-0.111494,-29.61113
11.185,2.0,1.0,1.0,33.2,34.3,34.3,2.9,1.5,2.615,0.6745684043626893,-0.03011230573327623,0.720492455234764,0.015326288877617798,-0.113733,-29.424685
11.185,2.0,1.0,1.0,33.2,34.3,34.3,2.9,1.5,2.6175,0.6683967949309397,-0.030914221895632542,0.7258626421114663,0.01538196415744932,-0.116057,-29.236167
11.185,2.0,1.0,1.0,33.2,34.3,34.3,2.9,1.5,2.62,0.6621276216716876,-0.031743213039895773,0.731216204653091,0.015432760867947915,-0.118469,-29.045511
11.185,2.0,1.0,1.0,33.2,34.3,34.3,2.9,1.5,2.6225,0.6557588082835948,-0.03260054590343472,0.7365521384705175,0.0154782389845135,-0.120976,-28.852651
11.185,2.0,1.0,1.0,33.2,34.3,34.3,2.9,1.5,2.625,0.649288187591931,-0.0334875653626105,0.741869382494422,0.0155179193804155,-0.123582,-28.657518
11.185,2.0,1.0,1.0,33.2,34.3,34.3,2.9,1.5,2.6275,0.6427134953899619,-0.03440570040761749,0.7471668144374507,0.01555127984888571,-0.126292,-28.46004
11.185,2.0,1.0,1.0,33.2,34.3,34.3,2.9,1.5,2.63,0.636032363735029,-0.03535647066045883,0.7524432457726662,0.015577750658627475,-0.129114,-28.26014
11.185,2.0,1.0,1.0,33.2,34.3,34.3,2.9,1.5,2.6325,0.6292423136423381,-0.03634149349290447,0.7576974161653703,0.015596709580205315,-0.132053,-28.057739
11.185,2.0,1.0,1.0,33.2,34.3,34.3,2.9,1.5,2.635,0.6223407471127785,-0.037362491807935966,0.7629279872859345,0.015607476311307739,-0.135117,-27.852756
11.185,2.0,1.0,1.0,33.2,34.3,34.3,2.9,1.5,2.6375,0.6153249384235657,-0.03842130255569089,0.7681335359202583,0.015609306217799579,-0.138314,-27.645102
11.185,2.0,1.0,1.0,33.2,34.3,34.3,2.9,1.5,2.64,0.6081920246019489,-0.039519886063380597,0.7733125462815154,0.015601383294504103,-0.141651,-27.434688
11.185,2.0,1.0,1.0,33.2,34.3,34.3,2.9,1.5,2.6425,0.6009389949926643,-0.04066033626820705,0.7784634014116633,0.015582812234403099,-0.145138,-27.221417
11.185,2.0,1.0,1.0,33.2,34.3,34.3,2.9,1.5,2.645,0.5935626798189161,-0.04184489195307759,0.7835843735433016,0.01555260947699247,-0.148785,-27.005191
11.185,2.0,1.0,1.0,33.2,34.3,34.3,2.9,1.5,2.6475,0.5860597376244501,-0.043075949097081574,0.7886736132713603,0.015509693085335105,-0.152603,-26.785905
11.185,2.0,1.0,1.0,33.2,34.3,34.3,2.9,1.5,2.65,0.5784266414704059,-0.04435607446641275,0.7937291373591333,0.01545287127627394,-0.156603,-26.563448
11.185,2.0,1.0,1.0,33.2,34.3,34.3,2.9,1.5,2.6525,0.570659663745085,-0.04568802058689608,0.7987488149735158,0.015380829398511918,-0.160797,-26.337704
11.185,2.0,1.0,1.0,33.2,34.3,34.3,2.9,1.5,2.655,0.5627548594270703,-0.047074742256724304,0.8037303521091155,0.015292115117869556,-0.165201,-26.108552
11.185,2.0,1.0,1.0,33.2,34.3,34.3,2.9,1.5,2.6575,0.5547080476223669,-0.04851941477763454,0.8086712739188568,0.015185121526806185,-0.169829,-25.875862
11.185,2.0,1.0,1.0,33.2,34.3,34.3,2.9,1.5,2.66,0.546514791173866,-0.05002545410481401,0.8135689046184177,0.015058067844788223,-0.174697,-25.639501
11.185,2.0,1.0,1.0,33.2,34.3,34.3,2.9,1.5,2.6625,0.5381703741164169,-0.05159653914053811,0.818420344571594,0.014908977315501736,-0.179825,-25.399324
11.185,2.0,1.0,1.0,33.2,34.3,34.3,2.9,1.5,2.665,0.5296697767227337,-0.053236636424154715,0.8232224440911426,0.01473565183401139,-0.185233,-25.155181
11.185,2.0,1.0,1.0,33.2,34.3,34.3,2.9,1.5,2.6675,0.5210076478542289,-0.05495002750170914,0.8279717734020863,0.014535642749007266,-0.190943,-24.906912
11.185,2.0,1.0,1.0,33.2,34.3,34.3,2.9,1.5,2.67,0.5121782742962374,-0.05674133929241351,0.8326645881086223,0.014306217178795187,-0.19698,-24.654349
11.185,2.0,1.0,1.0,33.2,34.3,34.3,2.9,1.5,2.6725,0.5031755467191994,-0.05861557780629474,0.8372967893770324,0.014044319050381414,-0.203371,-24.397312
11.185,2.0,1.0,1.0,33.2,34.3,34.3,2.9,1.5,2.675,0.4939929218661228,-0.06057816560755062,0.8418638778903426,0.013746523913471368,-0.210148,-24.135611
11.185,2.0,1.0,1.0,33.2,34.3,34.3,2.9,1.5,2.6775,0.48462338052250675,-0.06263498346095495,0.8463609004388442,0.013408986388637984,-0.217343,-23.869046
11.185,2.0,1.0,1.0,33.2,34.3,34.3,2.9,1.5,2.68,0.47505938077873855,-0.06479241664314718,0.850782387775683,0.013027378872750893,-0.224995,-23.597403
11.185,2.0,1.0,1.0,33.2,34.3,34.3,2.9,1.5,2.6825,0.46529280604820195,-0.06705740644524452,0.855122282077471,0.012596819834093777,-0.233147,-23.320453
11.185,2.0,1.0,1.0,33.2,34.3,34.3,2.9,1.5,2.685,0.45531490725946133,-0.06943750743530089,0.8593738519926829,0.01211178967062287,-0.241846,-23.037954
11.185,2.0,1.0,1.0,33.2,34.3,34.3,2.9,1.5,2.6875,0.4451162386018195,-0.07194095108454687,0.8635295928178683,0.011566031659889281,-0.251146,-22.749649
11.185,2.0,1.0,1.0,33.2,34.3,34.3,2.9,1.5,2.69,0.43468658617652894,-0.07457671638368846,0.8675811087907737,0.010952434975703728,-0.261108,-22.455261
11.185,2.0,1.0,1.0,33.2,34.3,34.3,2.9,1.5,2.6925,0.4240148889001511,-0.07735460807505723,0.8715189738017995,0.01026289605570216,-0.2718,-22.154496
11.185,2.0,1.0,1.0,33.2,34.3,34.3,2.9,1.5,2.695,0.4130891510364776,-0.08028534308840361,0.8753325659631778,0.00948815373832591,-0.283301,-21.847038
11.185,2.0,1.0,1.0,33.2,34.3,34.3,2.9,1.5,2.6975,0.40189634581996625,-0.0833806456706871,0.8790098703913697,0.008617592499278187,-0.295699,-21.532551
11.185,2.0,1.0,1.0,33.2,34.3,34.3,2.9,1.5,2.7,0.39042230980892373,-0.08665335151060588,0.8825372431898707,0.007639006744136904,-0.309097,-21.210672
11.185,2.0,1.0,1.0,33.2,34.3,34.3,2.9,1.5,2.7025,0.3786516279176449,-0.09011752082830998,0.8858991278868075,0.006538317375040606,-0.323611,-20.881014
11.185,2.0,1.0,1.0,33.2,34.3,34.3,2.9,1.5,2.705,0.3665675095939252,-0.09378855985757378,0.8890777133799411,0.005299229641038182,-0.339377,-20.54316
11.185,2.0,1.0,1.0,33.2,34.3,34.3,2.9,1.5,2.7075,0.35415165743635296,-0.09768334928456616,0.8920525196357003,0.0039028184688884703,-0.35655,-20.196662
11.185,2.0,1.0,1.0,33.2,34.3,34.3,2.9,1.5,2.71,0.3413841308405356,-0.10182037686475971,0.8947998938038138,0.00232702387958052,-0.375312,-19.841038
11.185,2.0,1.0,1.0,33.2,34.3,34.3,2.9,1.5,2.7125,0.3282432092576772,-0.10621986937977237,0.8972923948193989,0.0005460345014999582,-0.395876,-19.47577
11.185,2.0,1.0,1.0,33.2,34.3,34.3,2.9,1.5,2.715,0.31470526269136917,-0.11090391596348151,0.8994980386816367,-0.0014704686918316583,-0.41849,-19.100299
11.185,2.0,1.0,1.0,33.2,34.3,34.3,2.9,1.5,2.7175,0.30074464167249376,-0.11589657008837631,0.9013793690579399,-0.003758243822988473,-0.443449,-18.714024
11.185,2.0,1.0,1.0,33.2,34.3,34.3,2.9,1.5,2.72,0.2863336059266588,-0.12122391035621037,0.9028923082139383,-0.0063596397572086745,-0.4711,-18.316298
11.185,2.0,1.0,1.0,33.2,34.3,34.3,2.9,1.5,2.7225,0.27144232147627945,-0.12691402946970765,0.9039847309732431,-0.00932502521992107,-0.50186,-17.906425
11.185,2.0,1.0,1.0,33.2,34.3,34.3,2.9,1.5,2.725,0.25603897180928764,-0.13299690453861485,0.9045946888617333,-0.012714568087620674,-0.536227,-17.483657
11.185,2.0,1.0,1.0,33.2,34.3,34.3,2.9,1.5,2.7275,0.2400900527491625,-0.13950407740677623,0.9046481921911399,-0.016600456744506255,-0.574802,-17.047197
11.185,2.0,1.0,1.0,33.2,34.3,34.3,2.9,1.5,2.73,0.2235609569657105,-0.14646803673968842,0.9040564341810967,-0.021069678674255514,-0.618319,-16.59619
11.185,2.0,1.0,1.0,33.2,34.3,34.3,2.9,1.5,2.7325,0.20641700905069138,-0.15392113774584198,0.9027123135003462,-0.026227498504788834,-0.667671,-16.129735
11.185,2.0,1.0,1.0,33.2,34.3,34.3,2.9,1.5,2.735,0.18862519542916573,-0.16189381087050445,0.9004860814630454,-0.03220180669868702,-0.723963,-15.646883
11.185,2.0,1.0,1.0,33.2,34.3,34.3,2.9,1.5,2.7375,0.17015695967450847,-0.17041168295413445,0.8972199123201636,-0.03914853585363187,-0.788564,-15.146655
11.185,2.0,1.0,1.0,33.2,34.3,34.3,2.9,1.5,2.74,0.15099262470328506,-0.17949104154022316,0.8927211808738579,-0.0472583523136276,-0.863186,-14.628059
11.185,2.0,1.0,1.0,33.2,34.3,34.3,2.9,1.5,2.7425,0.1311282901417686,-0.18913178416383702,0.8867542550871587,-0.056764801428187746,-0.949991,-14.090125
11.185,2.0,1.0,1.0,33.2,34.3,34.3,2.9,1.5,2.745,0.11058647884621964,-0.19930656729958426,0.8790307213722709,-0.06795396481741055,-1.051722,-13.53196
11.185,2.0,1.0,1.0,33.2,34.3,34.3,2.9,1.5,2.7475,0.08943242428216752,-0.20994425292064725,0.8691982525505552,-0.08117537919413804,-1.171888,-12.952831
11.185,2.0,1.0,1.0,33.2,34.3,34.3,2.9,1.5,2.75,0.0677987504667666,-0.220904898512782,0.85682898432472,-0.0968532839370741,-1.31501,-12.352298
11.185,2.0,1.0,1.0,33.2,34.3,34.3,2.9,1.5,2.7525,0.04592240107686144,-0.23194245599242053,0.8414096156563545,-0.11549587463828324,-1.486933,-11.730407
11.185,2.0,1.0,1.0,33.2,34.3,34.3,2.9,1.5,2.755,0.0241988575820244,-0.24265022271014203,0.8223380607746371,-0.13769757193058513,-1.695233,-11.087986
11.185,2.0,1.0,1.0,33.2,34.3,34.3,2.9,1.5,2.7575,0.0032593214105690995,-0.2523835872179791,0.7989362473208015,-0.1641244886019563,-1.949685,-10.427073
11.185,2.0,1.0,1.0,33.2,34.3,34.3,2.9,1.5,2.76,-0.015925081184657977,-0.26015649671724544,0.7704967159942211,-0.1954652034356975,-2.262729,-9.751531
11.185,2.0,1.0,1.0,33.2,34.3,34.3,2.9,1.5,2.7625,-0.0319157623994041,-0.2645162885796656,0.736392710909853,-0.23231709353661714,-2.64966,-9.067882
11.185,2.0,1.0,1.0,33.2,34.3,34.3,2.9,1.5,2.765,-0.04268076389776948,-0.2634234292249821,0.6962951794067602,-0.27496544593250166,-3.127845,-8.386383
11.185,2.0,1.0,1.0,33.2,34.3,34.3,2.9,1.5,2.7675,-0.04554055080176729,-0.2542081718677294,0.6505440977971274,-0.3230103380348633,-3.713234,-7.722226
11.185,2.0,1.0,1.0,33.2,34.3,34.3,2.9,1.5,2.77,-0.03732837499616537,-0.2337475338976109,0.6006850617500874,-0.3748359150002331,-4.410324,-7.09654
11.185,2.0,1.0,1.0,33.2,34.3,34.3,2.9,1.5,2.7725,-0.014974894380233628,-0.19906689566001087,0.5500527138325942,-0.42704894596446336,-5.188696,-6.536501
11.185,2.0,1.0,1.0,33.2,34.3,34.3,2.9,1.5,2.775,0.023333067669854206,-0.14849915207050224,0.5040341415342521,-0.47425791945204376,-5.941504,-6.073513
11.185,2.0,1.0,1.0,33.2,34.3,34.3,2.9,1.5,2.7775,0.0766421005802088,-0.0831545599941457,0.4694251200914501,-0.5097636136704117,-6.454422,-5.738571
11.185,2.0,1.0,1.0,33.2,34.3,34.3,2.9,1.5,2.78,0.14024271929814208,-0.00782602239416426,0.45253144072945495,-0.5274631826311238,-6.488751,-5.555201
11.185,2.0,1.0,1.0,33.2,34.3,34.3,2.9,1.5,2.7825,0.20632918371687303,0.06974530450208413,0.4566632995095115,-0.5242812999202969,-6.001306,-5.532527
11.185,2.0,1.0,1.0,33.2,34.3,34.3,2.9,1.5,2.785,0.2664596299560788,0.14131824341632346,0.48065541479571655,-0.5015316897112997,-5.199494,-5.662224
11.185,2.0,1.0,1.0,33.2,34.3,34.3,2.9,1.5,2.7875,0.31436122683957196,0.20085547687834024,0.519562632721245,-0.46415654859926225,-4.332464,-5.921262
11.185,2.0,1.0,1.0,33.2,34.3,34.3,2.9,1.5,2.79,0.34731763003602406,0.24580742961098295,0.5669082207624582,-0.4185123911185344,-3.545635,-6.278728
11.185,2.0,1.0,1.0,33.2,34.3,34.3,2.9,1.5,2.7925,0.3657503901718912,0.2766590301333303,0.6168518694319376,-0.3702842735510531,-2.888007,-6.702958
11.185,2.0,1.0,1.0,33.2,34.3,34.3,2.9,1.5,2.795,0.3718953681454335,0.2956321638602874,0.6652708410157959,-0.32346621694338556,-2.35905,-7.166337
11.185,2.0,1.0,1.0,33.2,34.3,34.3,2.9,1.5,2.7975,0.3685588406886627,0.30548404926520395,0.7098219281187168,-0.2803191447435366,-1.940353,-7.647258
11.185,2.0,1.0,1.0,33.2,34.3,34.3,2.9,1.5,2.8,0.3583629063624314,0.3087829823018698,0.7495092880160301,-0.241796381599496,-1.610325,-8.130086
11.185,2.0,1.0,1.0,33.2,34.3,34.3,2.9,1.5,2.8025,0.3434385169839552,0.3076153473535291,0.7841792392396266,-0.20803453475665998,-1.349629,-8.604182
11.185,2.0,1.0,1.0,33.2,34.3,34.3,2.9,1.5,2.805,0.32538483185267114,0.30354827445940924,0.8141258465715763,-0.17873565699932625,-1.142566,-9.062703
11.185,2.0,1.0,1.0,33.2,34.3,34.3,2.9,1.5,2.8075,0.3053437763183864,0.2977027505281804,0.839836574747144,-0.15341371450194569,-0.976923,-9.501516
11.185,2.0,1.0,1.0,33.2,34.3,34.3,2.9,1.5,2.81,0.28410397468563875,0.2908548182664022,0.8618479881408811,-0.13153461129684457,-0.84338,-9.918349
11.185,2.0,1.0,1.0,33.2,34.3,34.3,2.9,1.5,2.8125,0.2621965493866745,0.2835288239031826,0.8806729556093629,-0.11258698164609883,-0.734868,-10.312163
11.185,2.0,1.0,1.0,33.2,34.3,34.3,2.9,1.5,2.815,0.2399712895078967,0.276071634000134,0.8967694147848078,-0.09611266071115447,-0.646028,-10.682717
11.185,2.0,1.0,1.0,33.2,34.3,34.3,2.9,1.5,2.8175,0.21765298026522473,0.2687076044386857,0.9105313130508443,-0.08171557851472719,-0.572778,-11.030264
11.185,2.0,1.0,1.0,33.2,34.3,34.3,2.9,1.5,2.82,0.19538144095367868,0.2615777178662425,0.9222903660549536,-0.06906008943531176,-0.511992,-11.355352
11.185,2.0,1.0,1.0,33.2,34.3,34.3,2.9,1.5,2.8225,0.17323934443347214,0.25476682638120934,0.9323224164999315,-0.05786478198361698,-0.461259,-11.658689
11.185,2.0,1.0,1.0,33.2,34.3,34.3,2.9,1.5,2.825,0.1512712932103403,0.2483223672350668,0.9408551913433062,-0.04789489231093036,-0.418704,-11.941057
11.185,2.0,1.0,1.0,33.2,34.3,34.3,2.9,1.5,2.8275,0.1294967983272115,0.24226712210775356,0.9480759257979977,-0.03895482177700494,-0.38286,-12.203253
11.185,2.0,1.0,1.0,33.2,34.3,34.3,2.9,1.5,2.83,0.10791906668134492,0.2366078750739761,0.9541382064702267,-0.03088139697234314,-0.352567,-12.446058
