1,w,sub_t,h,l1,l2,l3,g1,g2,Freq,S11_re,S21_re,S11_img,S21_img,S11_dB,S21_dB
11.185,2.0,1.0,1.0,34.7,33.9,33.9,1.6,4.4,2.5,0.648592743840828,-0.0165306679743774,0.748086999019837,0.0058512247062448,-0.08638,-35.121551
11.185,2.0,1.0,1.0,34.7,33.9,33.9,1.6,4.4,2.5025,0.6417728131766829,-0.01682102405257393,0.7537911496096299,0.005771350464773888,-0.087414,-34.999621
11.185,2.0,1.0,1.0,34.7,33.9,33.9,1.6,4.4,2.505,0.6348591704766166,-0.01711574912068571,0.7594666855569441,0.005686884506558473,-0.088467,-34.877299
11.185,2.0,1.0,1.0,34.7,33.9,33.9,1.6,4.4,2.5075,0.6278508547655468,-0.017414893312488182,0.7651124284790215,0.0055976707572709256,-0.08954,-34.754579
11.185,2.0,1.0,1.0,34.7,33.9,33.9,1.6,4.4,2.51,0.6207468983124281,-0.01771850632045301,0.7707271652289068,0.005503548001404246,-0.090634,-34.631456
11.185,2.0,1.0,1.0,34.7,33.9,33.9,1.6,4.4,2.5125,0.6135463269389014,-0.018026637311503918,0.7763096468955606,0.005404349711162451,-0.091748,-34.507923
11.185,2.0,1.0,1.0,34.7,33.9,33.9,1.6,4.4,2.515,0.6062481603534104,-0.018339334836951875,0.7818585877777035,0.005299903869838782,-0.092884,-34.383976
11.185,2.0,1.0,1.0,34.7,33.9,33.9,1.6,4.4,2.5175,0.5988514125121869,-0.018656646736266103,0.7873726643308581,0.005190032789529019,-0.094042,-34.259607
11.185,2.0,1.0,1.0,34.7,33.9,33.9,1.6,4.4,2.52,0.5913550920085264,-0.018978620034319757,0.7928505140871273,0.005074552923025673,-0.095223,-34.134812
11.185,2.0,1.0,1.0,34.7,33.9,33.9,1.6,4.4,2.5225,0.5837582024919109,-0.01930530083172751,0.7982907345471747,0.0049532746697380815,-0.096426,-34.009584
11.185,2.0,1.0,1.0,34.7,33.9,33.9,1.6,4.4,2.525,0.5760597431185339,-0.019636734187872307,0.8036918820439627,0.0048260021754804785,-0.097653,-33.883918
11.185,2.0,1.0,1.0,34.7,33.9,33.9,1.6,4.4,2.5275,0.5682587090349174,-0.01997296399619568,0.809052470577764,0.004692533125970711,-0.098904,-33.757807
11.185,2.0,1.0,1.0,34.7,33.9,33.9,1.6,4.4,2.53,0.5603540918963585,-0.020314032851301855,0.8143709706219914,0.004552658533880706,-0.10018,-33.631245
11.185,2.0,1.0,1.0,34.7,33.9,33.9,1.6,4.4,2.5325,0.5523448804220263,-0.02065998190740184,0.8196458078994022,0.004406162519279521,-0.101481,-33.504226
11.185,2.0,1.0,1.0,34.7,33.9,33.9,1.6,4.4,2.535,0.5442300609886224,-0.0210108507275975,0.8248753621282676,0.004252822083310394,-0.102807,-33.376745
11.185,2.0,1.0,1.0,34.7,33.9,33.9,1.6,4.4,2.5375,0.5360086182646161,-0.021366677123477028,0.8300579657380878,0.004092406874943494,-0.104161,-33.248794
11.185,2.0,1.0,1.0,34.7,33.9,33.9,1.6,4.4,2.54,0.5276795358871257,-0.021727496984465276,0.8351919025544943,0.0039246789506465225,-0.105541,-33.120368
11.185,2.0,1.0,1.0,34.7,33.9,33.9,1.6,4.4,2.5425,0.5192417971836368,-0.022093344096341307,0.8402754064529715,0.0037493925268179303,-0.106949,-32.99146
11.185,2.0,1.0,1.0,34.7,33.9,33.9,1.6,4.4,2.545,0.510694385940861,-0.022464249948303358,0.8453066599810999,0.003566293724829253,-0.108386,-32.862063
11.185,2.0,1.0,1.0,34.7,33.9,33.9,1.6,4.4,2.5475,0.502036287223098,-0.022840243527926903,0.8502837929489976,0.003375120308525711,-0.109852,-32.732173
11.185,2.0,1.0,1.0,34.7,33.9,33.9,1.6,4.4,2.55,0.49326648824261204,-0.02322135110332722,0.8552048809877545,0.0031756014140380965,-0.111347,-32.601781
11.185,2.0,1.0,1.0,34.7,33.9,33.9,1.6,4.4,2.5525,0.48438397928463495,-0.02360759599179775,0.8600679440756229,0.0029674572717635042,-0.112874,-32.470881
11.185,2.0,1.0,1.0,34.7,33.9,33.9,1.6,4.4,2.555,0.47538775468970673,-0.023998998314158825,0.8648709450318006,0.002750398920377862,-0.114432,-32.339468
11.185,2.0,1.0,1.0,34.7,33.9,33.9,1.6,4.4,2.5575,0.46627681389619846,-0.024395574734007143,0.8696117879777265,0.002524127912748478,-0.116022,-32.207533
11.185,2.0,1.0,1.0,34.7,33.9,33.9,1.6,4.4,2.56,0.45705016254599606,-0.0247973381810137,0.8742883167657955,0.002288336013624144,-0.117645,-32.075071
11.185,2.0,1.0,1.0,34.7,33.9,33.9,1.6,4.4,2.5625,0.44770681365643294,-0.025204297557371073,0.878898313375525,0.00204270488898675,-0.119302,-31.942075
11.185,2.0,1.0,1.0,34.7,33.9,33.9,1.6,4.4,2.565,0.43824578886169746,-0.02561645742644308,0.8834394962772427,0.0017869057869595464,-0.120994,-31.808537
11.185,2.0,1.0,1.0,34.7,33.9,33.9,1.6,4.4,2.5675,0.42866611972709767,-0.026033817682617,0.8879095187634324,0.0015205992101780265,-0.122721,-31.674452
11.185,2.0,1.0,1.0,34.7,33.9,33.9,1.6,4.4,2.57,0.4189668491396857,-0.02645637320130632,0.8923059672479792,0.0012434345795413386,-0.124485,-31.539811
11.185,2.0,1.0,1.0,34.7,33.9,33.9,1.6,4.4,2.5725,0.4091470327788917,-0.02688411346799452,0.8966263595336089,0.0009550498892776089,-0.126287,-31.404608
11.185,2.0,1.0,1.0,34.7,33.9,33.9,1.6,4.4,2.575,0.3992057406710084,-0.027317022185150322,0.9008681430479669,0.0006550713532715548,-0.128127,-31.268836
11.185,2.0,1.0,1.0,34.7,33.9,33.9,1.6,4.4,2.5775,0.3891420588314563,-0.027755076855782143,0.9050286930487926,0.0003431130426210127,-0.130007,-31.132488
11.185,2.0,1.0,1.0,34.7,33.9,33.9,1.6,4.4,2.58,0.3789550909990077,-0.028198248342334063,0.9091053107988649,1.877651440983095e-05,-0.131927,-30.995555
11.185,2.0,1.0,1.0,34.7,33.9,33.9,1.6,4.4,2.5825,0.3686439604662291,-0.02864650039955504,0.9130952217114302,-0.00031834956829518814,-0.133889,-30.858032
11.185,2.0,1.0,1.0,34.7,33.9,33.9,1.6,4.4,2.585,0.35820781201064467,-0.029099789179900516,0.9169955734669907,-0.0006686898251881283,-0.135894,-30.71991
11.185,2.0,1.0,1.0,34.7,33.9,33.9,1.6,4.4,2.5875,0.34764581393125904,-0.029558062709948502,0.9208034341024708,-0.0010326825561492274,-0.137943,-30.581183
11.185,2.0,1.0,1.0,34.7,33.9,33.9,1.6,4.4,2.59,0.3369571601952823,-0.030021260336230447,0.924515790073919,-0.0014107801472591876,-0.140037,-30.441842
11.185,2.0,1.0,1.0,34.7,33.9,33.9,1.6,4.4,2.5925,0.3261410727000693,-0.030489312138793363,0.9281295442940631,-0.0018034494852794932,-0.142178,-30.301879
11.185,2.0,1.0,1.0,34.7,33.9,33.9,1.6,4.4,2.595,0.31519680365551944,-0.03096213831071786,0.9316415141462381,-0.0022111723804369146,-0.144366,-30.161288
11.185,2.0,1.0,1.0,34.7,33.9,33.9,1.6,4.4,2.5975,0.30412363809231563,-0.03143964850172439,0.9350484294763377,-0.0026344459973128296,-0.146603,-30.020059
11.185,2.0,1.0,1.0,34.7,33.9,33.9,1.6,4.4,2.6,0.29292089650164993,-0.03192174112389965,0.9383469305647207,-0.003073783293591871,-0.148891,-29.878186
11.185,2.0,1.0,1.0,34.7,33.9,33.9,1.6,4.4,2.6025,0.2815879376122607,-0.03240830261746903,0.9415335660801215,-0.0035297134663780545,-0.15123,-29.73566
11.185,2.0,1.0,1.0,34.7,33.9,33.9,1.6,4.4,2.605,0.27012416131080946,-0.03289920667443418,0.9446047910179396,-0.0040027824057334155,-0.153623,-29.592474
11.185,2.0,1.0,1.0,34.7,33.9,33.9,1.6,4.4,2.6075,0.2585290117118778,-0.03339431341777514,0.9475569646254594,-0.004493553155037456,-0.156071,-29.448617
11.185,2.0,1.0,1.0,34.7,33.9,33.9,1.6,4.4,2.61,0.24680198038405587,-0.03389346853379632,0.9503863483168399,-0.005002606377702484,-0.158575,-29.304084
11.185,2.0,1.0,1.0,34.7,33.9,33.9,1.6,4.4,2.6125,0.2349426097388357,-0.03439650235506651,0.9530891035810041,-0.005530540829713749,-0.161136,-29.158864
11.185,2.0,1.0,1.0,34.7,33.9,33.9,1.6,4.4,2.615,0.2229504965892501,-0.03490322889126745,0.9556612898858338,-0.006077973837388323,-0.163758,-29.01295
11.185,2.0,1.0,1.0,34.7,33.9,33.9,1.6,4.4,2.6175,0.2108252958854381,-0.035413444805121506,0.9580988625824137,-0.0066455417796661195,-0.166441,-28.866332
11.185,2.0,1.0,1.0,34.7,33.9,33.9,1.6,4.4,2.62,0.19856672463455696,-0.03592692833041971,0.9603976708133874,-0.00723390057416116,-0.169186,-28.719002
11.185,2.0,1.0,1.0,34.7,33.9,33.9,1.6,4.4,2.6225,0.18617456601268198,-0.03644343812901126,0.9625534554298654,-0.007843726166105501,-0.171997,-28.570951
11.185,2.0,1.0,1.0,34.7,33.9,33.9,1.6,4.4,2.625,0.173648673676641,-0.0369627120834466,0.964561846921698,-0.00847571501921527,-0.174875,-28.42217
11.185,2.0,1.0,1.0,34.7,33.9,33.9,1.6,4.4,2.6275,0.16098897628388756,-0.037484466021792055,0.9664183633663338,-0.009130584607400008,-0.177822,-28.272649
11.185,2.0,1.0,1.0,34.7,33.9,33.9,1.6,4.4,2.63,0.1481954822288705,-0.03800839237094186,0.9681184084019082,-0.009809073906113472,-0.18084,-28.12238
11.185,2.0,1.0,1.0,34.7,33.9,33.9,1.6,4.4,2.6325,0.13526828460452153,-0.03853415873455943,0.9696572692306802,-0.010511943882015963,-0.183931,-27.971352
11.185,2.0,1.0,1.0,34.7,33.9,33.9,1.6,4.4,2.635,0.12220756639781585,-0.039061406391566404,0.971030114659382,-0.011239977979477574,-0.187097,-27.819556
11.185,2.0,1.0,1.0,34.7,33.9,33.9,1.6,4.4,2.6375,0.10901360592857215,-0.03958974871087745,0.9722319931836106,-0.011993982602297636,-0.190341,-27.666983
11.185,2.0,1.0,1.0,34.7,33.9,33.9,1.6,4.4,2.64,0.09568678254092289,-0.04011876947784356,0.9732578311238569,-0.012774787588855759,-0.193664,-27.513621
11.185,2.0,1.0,1.0,34.7,33.9,33.9,1.6,4.4,2.6425,0.0822275825571744,-0.040648021127614384,0.9741024308214286,-0.013583246678726828,-0.197071,-27.359461
11.185,2.0,1.0,1.0,34.7,33.9,33.9,1.6,4.4,2.645,0.06863660550401819,-0.04117702288036655,0.9747604689030173,-0.014420237968604106,-0.200562,-27.204493
11.185,2.0,1.0,1.0,34.7,33.9,33.9,1.6,4.4,2.6475,0.05491457062133542,-0.04170525877306106,0.9752264946233857,-0.015286664355164719,-0.204141,-27.048706
11.185,2.0,1.0,1.0,34.7,33.9,33.9,1.6,4.4,2.65,0.041062323664057376,-0.04223217558209365,0.975494928296279,-0.016183453962290494,-0.207811,-26.892088
11.185,2.0,1.0,1.0,34.7,33.9,33.9,1.6,4.4,2.6525,0.027080844007913493,-0.04275718063087807,0.9755600598243411,-0.017111560549808412,-0.211574,-26.73463
11.185,2.0,1.0,1.0,34.7,33.9,33.9,1.6,4.4,2.655,0.012971252070033377,-0.04327963947606536,0.9754160473396102,-0.018071963900660327,-0.215434,-26.57632
11.185,2.0,1.0,1.0,34.7,33.9,33.9,1.6,4.4,2.6575,-0.001265182944244136,-0.043798873465730394,0.9750569159669099,-0.01906567018312116,-0.219393,-26.417146
11.185,2.0,1.0,1.0,34.7,33.9,33.9,1.6,4.4,2.66,-0.01562703495681421,-0.044314157162470544,0.9744765567232612,-0.02009371228438114,-0.223455,-26.257097
11.185,2.0,1.0,1.0,34.7,33.9,33.9,1.6,4.4,2.6625,-0.030112712582618488,-0.04482471562393741,0.9736687255673259,-0.021157150111472574,-0.227624,-26.09616
11.185,2.0,1.0,1.0,34.7,33.9,33.9,1.6,4.4,2.665,-0.044720450333727825,-0.04532972153287564,0.9726270426137829,-0.022257070855163735,-0.231902,-25.934324
11.185,2.0,1.0,1.0,34.7,33.9,33.9,1.6,4.4,2.6675,-0.059448299449266426,-0.04582829216825393,0.971344991528449,-0.02339458921204684,-0.236293,-25.771576
11.185,2.0,1.0,1.0,34.7,33.9,33.9,1.6,4.4,2.67,-0.074294118338486,-0.04631948620855475,0.9698159191210153,-0.024570847559626362,-0.240802,-25.607903
11.185,2.0,1.0,1.0,34.7,33.9,33.9,1.6,4.4,2.6725,-0.08925556262402178,-0.046802300357723085,0.9680330351532287,-0.025787016078750107,-0.245431,-25.443292
11.185,2.0,1.0,1.0,34.7,33.9,33.9,1.6,4.4,2.675,-0.10433007477198263,-0.047275665783666314,0.9659894123815083,-0.02704429281722164,-0.250187,-25.277729
11.185,2.0,1.0,1.0,34.7,33.9,33.9,1.6,4.4,2.6775,-0.11951487329531936,-0.04773844435853615,0.9636779868540744,-0.0283439036878869,-0.255072,-25.1112
11.185,2.0,1.0,1.0,34.7,33.9,33.9,1.6,4.4,2.68,-0.13480694151648256,-0.04818942468930924,0.9610915584838999,-0.029687102393888755,-0.260091,-24.943692
11.185,2.0,1.0,1.0,34.7,33.9,33.9,1.6,4.4,2.6825,-0.15020301587507853,-0.04862731792640264,0.9582227919200533,-0.03107517027312825,-0.265249,-24.77519
11.185,2.0,1.0,1.0,34.7,33.9,33.9,1.6,4.4,2.685,-0.16569957376585262,-0.04905075333721493,0.9550642177412771,-0.032509416053257544,-0.270551,-24.605678
11.185,2.0,1.0,1.0,34.7,33.9,33.9,1.6,4.4,2.6875,-0.181292820891894,-0.0494582736305583,0.951608233997106,-0.0339911755077419,-0.276003,-24.435141
11.185,2.0,1.0,1.0,34.7,33.9,33.9,1.6,4.4,2.69,-0.1969786781175195,-0.04984833001693769,0.9478471081232296,-0.03552181100266262,-0.281609,-24.263563
11.185,2.0,1.0,1.0,34.7,33.9,33.9,1.6,4.4,2.6925,-0.2127527678048103,-0.050219276988529196,0.9437729792593843,-0.03710271092298533,-0.287375,-24.090928
11.185,2.0,1.0,1.0,34.7,33.9,33.9,1.6,4.4,2.695,-0.22861039961717988,-0.05056936680149744,0.9393778609996518,-0.038735288965957765,-0.293308,-23.917218
11.185,2.0,1.0,1.0,34.7,33.9,33.9,1.6,4.4,2.6975,-0.24454655577281004,-0.0508967436419649,0.9346536446068102,-0.04042098328814799,-0.299413,-23.742417
11.185,2.0,1.0,1.0,34.7,33.9,33.9,1.6,4.4,2.7,-0.2605558757299926,-0.051199437455483325,0.9295921027241587,-0.0421612554913289,-0.305697,-23.566506
11.185,2.0,1.0,1.0,34.7,33.9,33.9,1.6,4.4,2.7025,-0.27663264028569967,-0.05147535741825156,0.924184893620224,-0.04395758943098862,-0.312167,-23.389466
11.185,2.0,1.0,1.0,34.7,33.9,33.9,1.6,4.4,2.705,-0.2927707550677435,-0.05172228502655102,0.918423566003826,-0.04581148982963342,-0.318831,-23.211278
11.185,2.0,1.0,1.0,34.7,33.9,33.9,1.6,4.4,2.7075,-0.3089637333998844,-0.051937866778915626,0.9122995644491801,-0.047724480675263255,-0.325695,-23.031922
11.185,2.0,1.0,1.0,34.7,33.9,33.9,1.6,4.4,2.71,-0.32520467851799967,-0.052119606423395214,0.905804235473159,-0.049698103383381584,-0.332768,-22.851378
11.185,2.0,1.0,1.0,34.7,33.9,33.9,1.6,4.4,2.7125,-0.34148626511409347,-0.0522648567398831,0.8989288343094194,-0.051733914698648985,-0.340058,-22.669623
11.185,2.0,1.0,1.0,34.7,33.9,33.9,1.6,4.4,2.715,-0.3578007201833009,-0.05237081082484053,0.891664532426894,-0.053833484309732706,-0.347574,-22.486635
11.185,2.0,1.0,1.0,34.7,33.9,33.9,1.6,4.4,2.7175,-0.3741398031472322,-0.05243449284282659,0.884002425843278,-0.05599839214803165,-0.355325,-22.302391
11.185,2.0,1.0,1.0,34.7,33.9,33.9,1.6,4.4,2.72,-0.3904947852248455,-0.05245274820600578,0.8759335442875389,-0.05823022533768835,-0.363322,-22.116867
11.185,2.0,1.0,1.0,34.7,33.9,33.9,1.6,4.4,2.7225,-0.4068564280196563,-0.05242223313921776,0.8674488612691853,-0.06053057476059964,-0.371575,-21.930037
11.185,2.0,1.0,1.0,34.7,33.9,33.9,1.6,4.4,2.725,-0.42321496128920866,-0.05233940358421975,0.8585393051162777,-0.06290103119591164,-0.380094,-21.741876
11.185,2.0,1.0,1.0,34.7,33.9,33.9,1.6,4.4,2.7275,-0.43956005985957686,-0.05220050339230363,0.8491957710487619,-0.06534318098868161,-0.388892,-21.552356
11.185,2.0,1.0,1.0,34.7,33.9,33.9,1.6,4.4,2.73,-0.45588081964388655,-0.05200155174960755,0.839409134359037,-0.06785860119687061,-0.397981,-21.361449
11.185,2.0,1.0,1.0,34.7,33.9,33.9,1.6,4.4,2.7325,-0.47216573271962203,-0.05173832977402995,0.8291702647775596,-0.07044885415953299,-0.407373,-21.169126
11.185,2.0,1.0,1.0,34.7,33.9,33.9,1.6,4.4,2.735,-0.48840266141462213,-0.05140636621666,0.8184700421080516,-0.07311548142181017,-0.417084,-20.975354
11.185,2.0,1.0,1.0,34.7,33.9,33.9,1.6,4.4,2.7375,-0.5045788113460825,-0.05100092219400563,0.8072993732246194,-0.07585999694400114,-0.427127,-20.780102
11.185,2.0,1.0,1.0,34.7,33.9,33.9,1.6,4.4,2.74,-0.5206807033505455,-0.050516974869964815,0.7956492105319488,-0.07868387951235851,-0.437518,-20.583337
11.185,2.0,1.0,1.0,34.7,33.9,33.9,1.6,4.4,2.7425,-0.536694144235701,-0.04994919999838205,0.7835105719998838,-0.08158856425815354,-0.448274,-20.385022
11.185,2.0,1.0,1.0,34.7,33.9,33.9,1.6,4.4,2.745,-0.5526041962766263,-0.0492919532280965,0.7708745628955909,-0.08457543317869103,-0.459414,-20.185121
11.185,2.0,1.0,1.0,34.7,33.9,33.9,1.6,4.4,2.7475,-0.5683951453698929,-0.04853925006254811,0.7577323993501295,-0.08764580453905868,-0.470955,-19.983595
11.185,2.0,1.0,1.0,34.7,33.9,33.9,1.6,4.4,2.75,-0.584050467748625,-0.0476847443551977,0.744075433912218,-0.0908009210160978,-0.482919,-19.780403
11.185,2.0,1.0,1.0,34.7,33.9,33.9,1.6,4.4,2.7525,-0.5995527951499446,-0.04672170521017386,0.7298951832605638,-0.09404193642597404,-0.495327,-19.575504
11.185,2.0,1.0,1.0,34.7,33.9,33.9,1.6,4.4,2.755,-0.6148838783132137,-0.045642992144622314,0.7151833582679359,-0.09736990085331901,-0.508202,-19.368851
11.185,2.0,1.0,1.0,34.7,33.9,33.9,1.6,4.4,2.7575,-0.630024548673136,-0.04444102835515899,0.6999318966355561,-0.1007857439726361,-0.521569,-19.1604
11.185,2.0,1.0,1.0,34.7,33.9,33.9,1.6,4.4,2.76,-0.6449546780956537,-0.04310777191559225,0.6841329983464108,-0.10429025632080693,-0.535455,-18.9501
11.185,2.0,1.0,1.0,34.7,33.9,33.9,1.6,4.4,2.7625,-0.6596531364871095,-0.04163468471667241,0.6677791642212701,-0.10788406824233836,-0.54989,-18.7379
11.185,2.0,1.0,1.0,34.7,33.9,33.9,1.6,4.4,2.765,-0.6740977470878321,-0.04001269894110411,0.6508632379026353,-0.11156762618544704,-0.564903,-18.523746
11.185,2.0,1.0,1.0,34.7,33.9,33.9,1.6,4.4,2.7675,-0.6882652392405214,-0.03823218084849639,0.6333784516407575,-0.11534116597610197,-0.580529,-18.307582
11.185,2.0,1.0,1.0,34.7,33.9,33.9,1.6,4.4,2.77,-0.702131198401474,-0.03628289162550772,0.615318476313487,-0.1192046826373849,-0.596803,-18.089347
11.185,2.0,1.0,1.0,34.7,33.9,33.9,1.6,4.4,2.7725,-0.7156700131389432,-0.03415394503644368,0.5966774761799117,-0.12315789625138573,-0.613764,-17.868979
11.185,2.0,1.0,1.0,34.7,33.9,33.9,1.6,4.4,2.775,-0.7288548188383064,-0.03183376158939132,0.5774501689482064,-0.12720021327848258,-0.631456,-17.646412
11.185,2.0,1.0,1.0,34.7,33.9,33.9,1.6,4.4,2.7775,-0.7416574378083746,-0.029310018913235803,0.5576318918333601,-0.13133068265201678,-0.649923,-17.421577
11.185,2.0,1.0,1.0,34.7,33.9,33.9,1.6,4.4,2.78,-0.7540483154582728,-0.02656959802244887,0.5372186743931225,-0.1355479458524576,-0.669215,-17.194401
11.185,2.0,1.0,1.0,34.7,33.9,33.9,1.6,4.4,2.7825,-0.7659964521904098,-0.02359852513056474,0.5162073190639596,-0.13985018003101413,-0.689387,-16.964808
11.185,2.0,1.0,1.0,34.7,33.9,33.9,1.6,4.4,2.785,-0.777469330634171,-0.020381908661364117,0.4945954904766293,-0.14423503309468055,-0.710497,-16.732717
11.185,2.0,1.0,1.0,34.7,33.9,33.9,1.6,4.4,2.7875,-0.7884328378286795,-0.016903871101229442,0.4723818148182043,-0.14869954947844796,-0.73261,-16.498044
11.185,2.0,1.0,1.0,34.7,33.9,33.9,1.6,4.4,2.79,-0.7988511819544026,-0.013147475339825238,0.44956599072885917,-0.15324008511087736,-0.755797,-16.260701
11.185,2.0,1.0,1.0,34.7,33.9,33.9,1.6,4.4,2.7925,-0.8086868032162547,-0.009094645163246243,0.4261489134842441,-0.15785220982024606,-0.780134,-16.020594
11.185,2.0,1.0,1.0,34.7,33.9,33.9,1.6,4.4,2.795,-0.8179002785002502,-0.004726079599290201,0.40213281452497096,-0.162530595123094,-0.805706,-15.777627
11.185,2.0,1.0,1.0,34.7,33.9,33.9,1.6,4.4,2.7975,-0.826450219468593,-2.116087567496916e-05,0.37752141876273465,-0.167268884976808,-0.832606,-15.531697
11.185,2.0,1.0,1.0,34.7,33.9,33.9,1.6,4.4,2.8,-0.8342931638335332,0.005042144151974457,0.3523201225275157,-0.1720595466534106,-0.860937,-15.282697
11.185,2.0,1.0,1.0,34.7,33.9,33.9,1.6,4.4,2.8025,-0.8413834596703735,0.010487389102320365,0.3265361955347253,-0.17689369839171865,-0.890812,-15.030515
11.185,2.0,1.0,1.0,34.7,33.9,33.9,1.6,4.4,2.805,-0.847673142810775,0.016339759494125437,0.30017901085787585,-0.1817609098969147,-0.922355,-14.775034
11.185,2.0,1.0,1.0,34.7,33.9,33.9,1.6,4.4,2.8075,-0.8531118076201143,0.02262618999810014,0.2732603076071615,-0.1866489710659403,-0.955707,-14.516132
11.185,2.0,1.0,1.0,34.7,33.9,33.9,1.6,4.4,2.81,-0.8576464718348594,0.02937548661387204,0.24579449185449723,-0.19154362350808354,-0.99102,-14.253683
11.185,2.0,1.0,1.0,34.7,33.9,33.9,1.6,4.4,2.8125,-0.861221436654203,0.0366184523191636,0.217798982329356,-0.196428248485481,-1.028466,-13.987554
11.185,2.0,1.0,1.0,34.7,33.9,33.9,1.6,4.4,2.815,-0.8637781439924374,0.04438801399016989,0.1892946085574241,-0.20128350380012697,-1.068237,-13.717609
11.185,2.0,1.0,1.0,34.7,33.9,33.9,1.6,4.4,2.8175,-0.8652550337670915,0.052719347386012014,0.1603060704450838,-0.20608690088483342,-1.110547,-13.443705
11.185,2.0,1.0,1.0,34.7,33.9,33.9,1.6,4.4,2.82,-0.8655874054041347,0.06164999564566837,0.1308624698453032,-0.21081231190023347,-1.155635,-13.165697
11.185,2.0,1.0,1.0,34.7,33.9,33.9,1.6,4.4,2.8225,-0.8647072894913117,0.07121997495881273,0.1009979263874015,-0.21542939498852456,-1.20377,-12.883437
11.185,2.0,1.0,1.0,34.7,33.9,33.9,1.6,4.4,2.825,-0.862543337840541,0.08147185870811019,0.07075229181826924,-0.21990292398753905,-1.255258,-12.596771
11.185,2.0,1.0,1.0,34.7,33.9,33.9,1.6,4.4,2.8275,-0.859020743306584,0.0924508282672358,0.04017197927240804,-0.22419200688402882,-1.31044,-12.305546
