1,w,sub_t,h,l1,l2,l3,g1,g2,Freq,S11_re,S21_re,S11_img,S21_img,S11_dB,S21_dB
11.185,2.0,1.0,1.0,34.2,33.1,33.1,2.9,3.1,2.5,0.753025925460484,-0.0103460871685658,0.646931041799535,0.00565951760088178,-0.063135,-38.567614
11.185,2.0,1.0,1.0,34.2,33.1,33.1,2.9,3.1,2.5025,0.7480435807488984,-0.010528322500886478,0.6525753973261782,0.005644800870543859,-0.063769,-38.455476
11.185,2.0,1.0,1.0,34.2,33.1,33.1,2.9,3.1,2.505,0.7429937218354745,-0.010713301412420446,0.6582081736294857,0.005628170111050225,-0.064414,-38.343073
11.185,2.0,1.0,1.0,34.2,33.1,33.1,2.9,3.1,2.5075,0.737875690279759,-0.010901062306774581,0.663828817255843,0.005609562366312361,-0.065068,-38.2304
11.185,2.0,1.0,1.0,34.2,33.1,33.1,2.9,3.1,2.51,0.7326888202127235,-0.011091644011203165,0.6694367591078305,0.005588912724392671,-0.065733,-38.117452
11.185,2.0,1.0,1.0,34.2,33.1,33.1,2.9,3.1,2.5125,0.7274324383430396,-0.01128508577065,0.6750314140008884,0.005566154252819855,-0.066408,-38.004224
11.185,2.0,1.0,1.0,34.2,33.1,33.1,2.9,3.1,2.515,0.7221058639692434,-0.01148142724089282,0.6806121802078479,0.005541217931665104,-0.067094,-37.890711
11.185,2.0,1.0,1.0,34.2,33.1,33.1,2.9,3.1,2.5175,0.716708408998174,-0.011680708480729272,0.6861784389910153,0.005514032584301259,-0.067791,-37.776907
11.185,2.0,1.0,1.0,34.2,33.1,33.1,2.9,3.1,2.52,0.7112393779700454,-0.011882969943141034,0.6917295541215116,0.005484524805761996,-0.068499,-37.662807
11.185,2.0,1.0,1.0,34.2,33.1,33.1,2.9,3.1,2.5225,0.7056980680905844,-0.012088252465367825,0.6972648713855298,0.00545261888861561,-0.069219,-37.548406
11.185,2.0,1.0,1.0,34.2,33.1,33.1,2.9,3.1,2.525,0.700083769270627,-0.01229659725782019,0.7027837180772116,0.00541823674626603,-0.069951,-37.433698
11.185,2.0,1.0,1.0,34.2,33.1,33.1,2.9,3.1,2.5275,0.6943957641736311,-0.012508045891755488,0.7082854024778068,0.005381297833588497,-0.070695,-37.318678
11.185,2.0,1.0,1.0,34.2,33.1,33.1,2.9,3.1,2.53,0.6886333282715712,-0.012722640285636296,0.7137692133207858,0.005341719064806352,-0.071451,-37.203341
11.185,2.0,1.0,1.0,34.2,33.1,33.1,2.9,3.1,2.5325,0.6827957299096912,-0.01294042269008696,0.7192344192425651,0.0052994147285101555,-0.07222,-37.087681
11.185,2.0,1.0,1.0,34.2,33.1,33.1,2.9,3.1,2.535,0.6768822303806349,-0.013161435671358666,0.7246802682185213,0.005254296399718157,-0.073002,-36.971692
11.185,2.0,1.0,1.0,34.2,33.1,33.1,2.9,3.1,2.5375,0.6708920840084859,-0.013385722093207578,0.7301059869839263,0.005206272848872513,-0.073798,-36.855369
11.185,2.0,1.0,1.0,34.2,33.1,33.1,2.9,3.1,2.54,0.6648245382432773,-0.013613325097086336,0.7355107804394789,0.005155249947662427,-0.074607,-36.738706
11.185,2.0,1.0,1.0,34.2,33.1,33.1,2.9,3.1,2.5425,0.6586788337665537,-0.013844288080542284,0.740893831041063,0.005101130571562063,-0.07543,-36.621698
11.185,2.0,1.0,1.0,34.2,33.1,33.1,2.9,3.1,2.545,0.6524542046086074,-0.014078654673710372,0.7462542981733908,0.0050438144989657105,-0.076268,-36.504339
11.185,2.0,1.0,1.0,34.2,33.1,33.1,2.9,3.1,2.5475,0.6461498782780342,-0.014316468713781732,0.7515913175071595,0.004983198306799697,-0.07712,-36.386622
11.185,2.0,1.0,1.0,34.2,33.1,33.1,2.9,3.1,2.55,0.6397650759042672,-0.014557774217322846,0.7569040003393773,0.004919175262485529,-0.077987,-36.268542
11.185,2.0,1.0,1.0,34.2,33.1,33.1,2.9,3.1,2.5525,0.6332990123938218,-0.014802615350311417,0.7621914329164737,0.004851635212125663,-0.07887,-36.150093
11.185,2.0,1.0,1.0,34.2,33.1,33.1,2.9,3.1,2.555,0.626750896600967,-0.01505103639574968,0.7674526757398501,0.004780464464776159,-0.079768,-36.03127
11.185,2.0,1.0,1.0,34.2,33.1,33.1,2.9,3.1,2.5575,0.620119931513605,-0.015303081718705884,0.7726867628534982,0.004705545672668231,-0.080683,-35.912065
11.185,2.0,1.0,1.0,34.2,33.1,33.1,2.9,3.1,2.56,0.6134053144551745,-0.015558795728626855,0.7778927011133093,0.004626757707235077,-0.081614,-35.792474
11.185,2.0,1.0,1.0,34.2,33.1,33.1,2.9,3.1,2.5625,0.6066062373034161,-0.015818222838755766,0.7830694694377239,0.004543975530794023,-0.082562,-35.672489
11.185,2.0,1.0,1.0,34.2,33.1,33.1,2.9,3.1,2.565,0.5997218867268865,-0.016081407422479342,0.7882160180393474,0.0044570700637306965,-0.083528,-35.552105
11.185,2.0,1.0,1.0,34.2,33.1,33.1,2.9,3.1,2.5675,0.592751444440157,-0.01634839376641871,0.7933312676371653,0.00436590804702499,-0.084511,-35.431314
11.185,2.0,1.0,1.0,34.2,33.1,33.1,2.9,3.1,2.57,0.5856940874786541,-0.016619226020067285,0.7984141086490023,0.004270351899954284,-0.085512,-35.310112
11.185,2.0,1.0,1.0,34.2,33.1,33.1,2.9,3.1,2.5725,0.5785489884941565,-0.016893948141768672,0.8034634003638637,0.004170259572801033,-0.086532,-35.188491
11.185,2.0,1.0,1.0,34.2,33.1,33.1,2.9,3.1,2.575,0.5713153160720121,-0.01717260384081408,0.8084779700938021,0.00406548439439059,-0.087572,-35.066445
11.185,2.0,1.0,1.0,34.2,33.1,33.1,2.9,3.1,2.5775,0.5639922350711752,-0.017455236515427613,0.8134566123049666,0.003955874914272335,-0.088631,-34.943967
11.185,2.0,1.0,1.0,34.2,33.1,33.1,2.9,3.1,2.58,0.5565789069882249,-0.017741889186393515,0.8183980877274777,0.003841274739356918,-0.089709,-34.82105
11.185,2.0,1.0,1.0,34.2,33.1,33.1,2.9,3.1,2.5825,0.5490744903465632,-0.018032604426065947,0.8233011224438095,0.0037215223648118137,-0.090809,-34.697689
11.185,2.0,1.0,1.0,34.2,33.1,33.1,2.9,3.1,2.585,0.541478141112062,-0.018327424282486297,0.8281644069553351,0.003596450999011921,-0.09193,-34.573875
11.185,2.0,1.0,1.0,34.2,33.1,33.1,2.9,3.1,2.5875,0.5337890131364648,-0.018626390198317987,0.8329865952267322,0.003465888382334101,-0.093072,-34.449602
11.185,2.0,1.0,1.0,34.2,33.1,33.1,2.9,3.1,2.59,0.5260062586299251,-0.01892954292429118,0.837766303707932,0.0033296565995784423,-0.094237,-34.324864
11.185,2.0,1.0,1.0,34.2,33.1,33.1,2.9,3.1,2.5925,0.5181290286641065,-0.01923692242683285,0.8425021103333259,0.0031875718857889727,-0.095424,-34.199653
11.185,2.0,1.0,1.0,34.2,33.1,33.1,2.9,3.1,2.595,0.5101564737073533,-0.019548567789538028,0.8471925534979412,0.0030394444252409385,-0.096634,-34.073961
11.185,2.0,1.0,1.0,34.2,33.1,33.1,2.9,3.1,2.5975,0.5020877441934714,-0.01986451710811924,0.8518361310103448,0.00288507814335221,-0.097869,-33.947782
11.185,2.0,1.0,1.0,34.2,33.1,33.1,2.9,3.1,2.6,0.49392199112575924,-0.02018480737844943,0.8564312990220073,0.002724270491267039,-0.099128,-33.821109
11.185,2.0,1.0,1.0,34.2,33.1,33.1,2.9,3.1,2.6025,0.4856583667179903,-0.02050947437729131,0.8609764709329235,0.002556812222853423,-0.100412,-33.693933
11.185,2.0,1.0,1.0,34.2,33.1,33.1,2.9,3.1,2.605,0.47729602507409424,-0.02083855253528265,0.8654700162732785,0.0023824871638439974,-0.101722,-33.566248
11.185,2.0,1.0,1.0,34.2,33.1,33.1,2.9,3.1,2.6075,0.4688341229084003,-0.021172074801722306,0.8699102595609912,0.0022010719728420888,-0.103058,-33.438045
11.185,2.0,1.0,1.0,34.2,33.1,33.1,2.9,3.1,2.61,0.4602718203083528,-0.02151007250067436,0.8742954791349787,0.0020123358939031404,-0.104422,-33.309318
11.185,2.0,1.0,1.0,34.2,33.1,33.1,2.9,3.1,2.6125,0.45160828154169985,-0.021852575177880553,0.8786239059640316,0.0018160405003931417,-0.105813,-33.180057
11.185,2.0,1.0,1.0,34.2,33.1,33.1,2.9,3.1,2.615,0.4428426759102327,-0.022199610437940803,0.8828937224312141,0.0016119394298114702,-0.107233,-33.050255
11.185,2.0,1.0,1.0,34.2,33.1,33.1,2.9,3.1,2.6175,0.43397417865225213,-0.022551203771189552,0.8871030610937346,0.0013997781092588508,-0.108683,-32.919905
11.185,2.0,1.0,1.0,34.2,33.1,33.1,2.9,3.1,2.62,0.4250019718960165,-0.022907378369662577,0.8912500034182748,0.0011792934712140136,-0.110162,-32.788997
11.185,2.0,1.0,1.0,34.2,33.1,33.1,2.9,3.1,2.6225,0.41592524566650657,-0.02326815493151325,0.8953325784918175,0.000950213659274339,-0.111672,-32.657524
11.185,2.0,1.0,1.0,34.2,33.1,33.1,2.9,3.1,2.625,0.406743198947978,-0.023633551453198,0.899348761708028,0.000712257723499849,-0.113215,-32.525477
11.185,2.0,1.0,1.0,34.2,33.1,33.1,2.9,3.1,2.6275,0.3974550408048053,-0.024003583008711932,0.9032964734293464,0.0004651353049885297,-0.114789,-32.392848
11.185,2.0,1.0,1.0,34.2,33.1,33.1,2.9,3.1,2.63,0.38805999156329035,-0.02437826151511148,0.9071735776249245,0.00020854630929387203,-0.116398,-32.259628
11.185,2.0,1.0,1.0,34.2,33.1,33.1,2.9,3.1,2.6325,0.37855728405716216,-0.02475759548351523,0.9109778804846768,-5.781943171591586e-05,-0.11804,-32.125807
11.185,2.0,1.0,1.0,34.2,33.1,33.1,2.9,3.1,2.635,0.36894616493962323,-0.02514158975472611,0.9147071290097265,-0.00033428250997785046,-0.119718,-31.991378
11.185,2.0,1.0,1.0,34.2,33.1,33.1,2.9,3.1,2.6375,0.35922589606492705,-0.02553024521856457,0.918359009579583,-0.0006211743037656016,-0.121432,-31.85633
11.185,2.0,1.0,1.0,34.2,33.1,33.1,2.9,3.1,2.64,0.3493957559425241,-0.025923558515949772,0.9219311464965171,-0.0009188373530878397,-0.123184,-31.720655
11.185,2.0,1.0,1.0,34.2,33.1,33.1,2.9,3.1,2.6425,0.33945504126701553,-0.026321521722703602,0.9254211005076023,-0.0012276257484230698,-0.124973,-31.584343
11.185,2.0,1.0,1.0,34.2,33.1,33.1,2.9,3.1,2.645,0.32940306852720885,-0.026724122013991304,0.928826367305008,-0.0015479055332817413,-0.126802,-31.447385
11.185,2.0,1.0,1.0,34.2,33.1,33.1,2.9,3.1,2.6475,0.3192391756977276,-0.027131341308244836,0.9321443760052178,-0.0018800551211086616,-0.128672,-31.309771
11.185,2.0,1.0,1.0,34.2,33.1,33.1,2.9,3.1,2.65,0.30896272401673497,-0.02754315588934328,0.935372487607911,-0.002224465727058019,-0.130583,-31.17149
11.185,2.0,1.0,1.0,34.2,33.1,33.1,2.9,3.1,2.6525,0.2985730998535093,-0.027959536005745984,0.9385079934353533,-0.0025815418151987853,-0.132537,-31.032534
11.185,2.0,1.0,1.0,34.2,33.1,33.1,2.9,3.1,2.655,0.28806971666967274,-0.028380445445194274,0.9415481135532527,-0.002951701561731971,-0.134535,-30.892891
11.185,2.0,1.0,1.0,34.2,33.1,33.1,2.9,3.1,2.6575,0.2774520170780954,-0.02880584108350781,0.9444899951741058,-0.0033353773348296207,-0.136579,-30.75255
11.185,2.0,1.0,1.0,34.2,33.1,33.1,2.9,3.1,2.66,0.2667194750035755,-0.029235672405906524,0.947330711044223,-0.0037330161917307294,-0.138669,-30.611502
11.185,2.0,1.0,1.0,34.2,33.1,33.1,2.9,3.1,2.6625,0.2558715979496048,-0.02966988099918799,0.9500672578156812,-0.004145080393761906,-0.140806,-30.469735
11.185,2.0,1.0,1.0,34.2,33.1,33.1,2.9,3.1,2.665,0.2449079293756274,-0.030108400012981863,0.9526965544046261,-0.004572047939983732,-0.142994,-30.327238
11.185,2.0,1.0,1.0,34.2,33.1,33.1,2.9,3.1,2.6675,0.2338280511894094,-0.030551153588182434,0.9552154403374294,-0.005014413120194253,-0.145232,-30.184
11.185,2.0,1.0,1.0,34.2,33.1,33.1,2.9,3.1,2.67,0.22263158635927235,-0.030998056250537392,0.9576206740863822,-0.005472687088064032,-0.147522,-30.040009
11.185,2.0,1.0,1.0,34.2,33.1,33.1,2.9,3.1,2.6725,0.2113182016511044,-0.031449012267232464,0.9599089313967164,-0.005947398455213919,-0.149867,-29.895254
11.185,2.0,1.0,1.0,34.2,33.1,33.1,2.9,3.1,2.675,0.1998876104952942,-0.03190391496416375,0.9620768036069015,-0.006439093907088981,-0.152267,-29.749721
11.185,2.0,1.0,1.0,34.2,33.1,33.1,2.9,3.1,2.6775,0.1883395759888347,-0.03236264600143281,0.96412079596433,-0.006948338841533045,-0.154724,-29.603399
11.185,2.0,1.0,1.0,34.2,33.1,33.1,2.9,3.1,2.68,0.17667391403810065,-0.03282507460442551,0.966037325938639,-0.0074757180310128435,-0.15724,-29.456276
11.185,2.0,1.0,1.0,34.2,33.1,33.1,2.9,3.1,2.6825,0.16489049664797503,-0.033291056747650045,0.9678227215351016,-0.008021836309500551,-0.159817,-29.308337
11.185,2.0,1.0,1.0,34.2,33.1,33.1,2.9,3.1,2.685,0.1529892553631836,-0.03376043428830818,0.9694732196106827,-0.008587319285078667,-0.162456,-29.15957
11.185,2.0,1.0,1.0,34.2,33.1,33.1,2.9,3.1,2.6875,0.1409701848679425,-0.03423303404635339,0.9709849641955248,-0.009172814079395741,-0.165161,-29.009961
11.185,2.0,1.0,1.0,34.2,33.1,33.1,2.9,3.1,2.69,0.128833346750248,-0.03470866682755187,0.9723540048228146,-0.009778990095171388,-0.167932,-28.859497
11.185,2.0,1.0,1.0,34.2,33.1,33.1,2.9,3.1,2.6925,0.11657887343730645,-0.03518712638580338,0.9735762948701754,-0.010406539813024087,-0.170772,-28.708162
11.185,2.0,1.0,1.0,34.2,33.1,33.1,2.9,3.1,2.695,0.10420697230896807,-0.035668188320693794,0.9746476899158886,-0.011056179618971753,-0.173683,-28.555943
11.185,2.0,1.0,1.0,34.2,33.1,33.1,2.9,3.1,2.6975,0.09171792999614087,-0.036151608905946896,0.9755639461134785,-0.011728650664053273,-0.176667,-28.402824
11.185,2.0,1.0,1.0,34.2,33.1,33.1,2.9,3.1,2.7,0.07911211687157413,-0.03663712384409987,0.9763207185883525,-0.012424719757601309,-0.179727,-28.24879
11.185,2.0,1.0,1.0,34.2,33.1,33.1,2.9,3.1,2.7025,0.06638999174057336,-0.03712444694236334,0.9769135598604176,-0.013145180295815281,-0.182866,-28.093825
11.185,2.0,1.0,1.0,34.2,33.1,33.1,2.9,3.1,2.705,0.05355210673961867,-0.037613268704217176,0.9773379182967594,-0.013890853227381702,-0.186085,-27.937913
11.185,2.0,1.0,1.0,34.2,33.1,33.1,2.9,3.1,2.7075,0.04059911245110687,-0.038103254830852556,0.9775891365986907,-0.014662588058025186,-0.189389,-27.781036
11.185,2.0,1.0,1.0,34.2,33.1,33.1,2.9,3.1,2.71,0.027531763242881143,-0.03859404462608016,0.9776624503276529,-0.015461263895996103,-0.192779,-27.623178
11.185,2.0,1.0,1.0,34.2,33.1,33.1,2.9,3.1,2.7125,0.014350922841499436,-0.03908524929778812,0.9775529864746718,-0.016287790540651693,-0.196258,-27.464321
11.185,2.0,1.0,1.0,34.2,33.1,33.1,2.9,3.1,2.715,0.0010575701487251369,-0.039576450148439815,0.9772557620782146,-0.01714310961644215,-0.19983,-27.304447
11.185,2.0,1.0,1.0,34.2,33.1,33.1,2.9,3.1,2.7175,-0.012347194688913326,-0.04006719664644753,0.9767656828955283,-0.01802819575478166,-0.203498,-27.143536
11.185,2.0,1.0,1.0,34.2,33.1,33.1,2.9,3.1,2.72,-0.02586214394705367,-0.04055700436953476,0.9760775421326652,-0.01894405782647154,-0.207266,-26.981569
11.185,2.0,1.0,1.0,34.2,33.1,33.1,2.9,3.1,2.7225,-0.039485915716019726,-0.041045352810400525,0.9751860192385998,-0.01989174022754147,-0.211136,-26.818527
11.185,2.0,1.0,1.0,34.2,33.1,33.1,2.9,3.1,2.725,-0.053217007007298374,-0.041531683034106676,0.9740856787689772,-0.020872324221584318,-0.215114,-26.654388
11.185,2.0,1.0,1.0,34.2,33.1,33.1,2.9,3.1,2.7275,-0.06705376656176555,-0.042015395175630334,0.9727709693251707,-0.021886929341901982,-0.219202,-26.489131
11.185,2.0,1.0,1.0,34.2,33.1,33.1,2.9,3.1,2.73,-0.08099438734658809,-0.04249584576492075,0.9712362225744516,-0.022936714857019768,-0.223405,-26.322734
11.185,2.0,1.0,1.0,34.2,33.1,33.1,2.9,3.1,2.7325,-0.09503689872696017,-0.04297234486558429,0.9694756523571912,-0.024022881303400887,-0.227727,-26.155173
11.185,2.0,1.0,1.0,34.2,33.1,33.1,2.9,3.1,2.735,-0.10917915829776965,-0.043444153011957726,0.9674833538870541,-0.025146672089475547,-0.232173,-25.986426
11.185,2.0,1.0,1.0,34.2,33.1,33.1,2.9,3.1,2.7375,-0.12341884335929808,-0.04391047792781317,0.9652533030502565,-0.026309375175409634,-0.236747,-25.816468
11.185,2.0,1.0,1.0,34.2,33.1,33.1,2.9,3.1,2.74,-0.13775344201973028,-0.04437047100823763,0.9627793558099469,-0.02751232483335662,-0.241455,-25.645272
11.185,2.0,1.0,1.0,34.2,33.1,33.1,2.9,3.1,2.7425,-0.15218024390591536,-0.04482322354433048,0.9600552477217833,-0.028756903493287647,-0.246303,-25.472814
11.185,2.0,1.0,1.0,34.2,33.1,33.1,2.9,3.1,2.745,-0.16669633046224155,-0.04526776266822986,0.9570745935667883,-0.03004454367984925,-0.251295,-25.299065
11.185,2.0,1.0,1.0,34.2,33.1,33.1,2.9,3.1,2.7475,-0.18129856481557094,-0.045703046993586696,0.953830887107438,-0.031376730046079715,-0.256438,-25.123996
11.185,2.0,1.0,1.0,34.2,33.1,33.1,2.9,3.1,2.75,-0.195983581182255,-0.0461279619239167,0.950317500972906,-0.0327550015102039,-0.261737,-24.947579
11.185,2.0,1.0,1.0,34.2,33.1,33.1,2.9,3.1,2.7525,-0.21074777379078424,-0.04654131459823262,0.9465276866792359,-0.03418095350212541,-0.2672,-24.769782
11.185,2.0,1.0,1.0,34.2,33.1,33.1,2.9,3.1,2.755,-0.2255872852909419,-0.046941828439951046,0.942454574790064,-0.0356562403266394,-0.272834,-24.590573
11.185,2.0,1.0,1.0,34.2,33.1,33.1,2.9,3.1,2.7575,-0.2404979946172878,-0.047328137271217284,0.9380911752233314,-0.037182577650788855,-0.278646,-24.40992
11.185,2.0,1.0,1.0,34.2,33.1,33.1,2.9,3.1,2.76,-0.25547550427112703,-0.047698778950445955,0.9334303777092123,-0.038761745123171085,-0.284644,-24.227787
11.185,2.0,1.0,1.0,34.2,33.1,33.1,2.9,3.1,2.7625,-0.27051512698114905,-0.048052188485955875,0.9284649524042765,-0.04039558913336618,-0.290836,-24.044138
11.185,2.0,1.0,1.0,34.2,33.1,33.1,2.9,3.1,2.765,-0.2856118716981292,-0.048386690573006,0.9231875506666627,-0.04208602571996681,-0.297232,-23.858935
11.185,2.0,1.0,1.0,34.2,33.1,33.1,2.9,3.1,2.7675,-0.30076042887370824,-0.048700491495223104,0.9175907059968433,-0.04383504363595056,-0.30384,-23.672139
11.185,2.0,1.0,1.0,34.2,33.1,33.1,2.9,3.1,2.77,-0.31595515496704535,-0.04899167032423488,0.9116668351483546,-0.04564470758028726,-0.310671,-23.483709
11.185,2.0,1.0,1.0,34.2,33.1,33.1,2.9,3.1,2.7725,-0.3311900561159351,-0.049258169343165396,0.9054082394127813,-0.04751716160470392,-0.317735,-23.293601
11.185,2.0,1.0,1.0,34.2,33.1,33.1,2.9,3.1,2.775,-0.3464587709007012,-0.04949778361036405,0.8988071060832367,-0.04945463270439725,-0.325045,-23.101771
11.185,2.0,1.0,1.0,34.2,33.1,33.1,2.9,3.1,2.7775,-0.3617545521196055,-0.04970814956915111,0.8918555101007238,-0.051459434601096664,-0.332612,-22.908171
11.185,2.0,1.0,1.0,34.2,33.1,33.1,2.9,3.1,2.78,-0.37707024748352597,-0.04988673259728219,0.8845454158881135,-0.05353397172622362,-0.340449,-22.712752
11.185,2.0,1.0,1.0,34.2,33.1,33.1,2.9,3.1,2.7825,-0.39239827912481995,-0.05003081337602816,0.8768686793771244,-0.055680743410816316,-0.348571,-22.515462
11.185,2.0,1.0,1.0,34.2,33.1,33.1,2.9,3.1,2.785,-0.4077306218006433,-0.05013747294296653,0.868817050234696,-0.05790234828733137,-0.356992,-22.316248
11.185,2.0,1.0,1.0,34.2,33.1,33.1,2.9,3.1,2.7875,-0.42305877965383154,-0.050203576274484824,0.8603821742967942,-0.06020148890620957,-0.365729,-22.115051
11.185,2.0,1.0,1.0,34.2,33.1,33.1,2.9,3.1,2.79,-0.4383737613748613,-0.05022575422323223,0.8515555962199206,-0.06258097656706846,-0.374799,-21.911812
11.185,2.0,1.0,1.0,34.2,33.1,33.1,2.9,3.1,2.7925,-0.45366605358537143,-0.050200383611912085,0.8423287623638561,-0.06504373636027905,-0.38422,-21.706469
11.185,2.0,1.0,1.0,34.2,33.1,33.1,2.9,3.1,2.795,-0.4689255922374526,-0.05012356525738458,0.8326930239235486,-0.06759281240928845,-0.394013,-21.498956
11.185,2.0,1.0,1.0,34.2,33.1,33.1,2.9,3.1,2.7975,-0.4841417317919851,-0.04999109966747509,0.8226396403340716,-0.0702313732969369,-0.4042,-21.289203
11.185,2.0,1.0,1.0,34.2,33.1,33.1,2.9,3.1,2.8,-0.49930321190389204,-0.049798460116483034,0.8121597829804672,-0.07296271764980602,-0.414805,-21.077136
11.185,2.0,1.0,1.0,34.2,33.1,33.1,2.9,3.1,2.8025,-0.5143981213006522,-0.049540762763369654,0.8012445392548032,-0.07579027984273301,-0.425851,-20.862681
11.185,2.0,1.0,1.0,34.2,33.1,33.1,2.9,3.1,2.805,-0.5294138584924967,-0.0492127334280536,0.78988491701653,-0.07871763577033287,-0.437368,-20.645754
11.185,2.0,1.0,1.0,34.2,33.1,33.1,2.9,3.1,2.8075,-0.5443370888967721,-0.048808670585069824,0.7780718495300003,-0.08174850861283971,-0.449386,-20.426272
11.185,2.0,1.0,1.0,34.2,33.1,33.1,2.9,3.1,2.81,-0.5591536978941414,-0.04832240406879226,0.7657962009761473,-0.08488677449864518,-0.461936,-20.204143
11.185,2.0,1.0,1.0,34.2,33.1,33.1,2.9,3.1,2.8125,-0.5738487392585688,-0.04774724890899719,0.7530487726650456,-0.08813646793420936,-0.475055,-19.979274
11.185,2.0,1.0,1.0,34.2,33.1,33.1,2.9,3.1,2.815,-0.5884063783151717,-0.04707595362801895,0.7398203101142408,-0.09150178683177021,-0.488781,-19.751564
11.185,2.0,1.0,1.0,34.2,33.1,33.1,2.9,3.1,2.8175,-0.6028098290774876,-0.04630064222909305,0.7261015112066327,-0.09498709691418936,-0.503158,-19.520908
11.185,2.0,1.0,1.0,34.2,33.1,33.1,2.9,3.1,2.82,-0.6170412844963311,-0.04541274898733888,0.7118830357042066,-0.09859693521154245,-0.518231,-19.287193
11.185,2.0,1.0,1.0,34.2,33.1,33.1,2.9,3.1,2.8225,-0.6310818388131547,-0.044402945017444816,0.69715551647369,-0.10233601228200279,-0.534052,-19.050302
11.185,2.0,1.0,1.0,34.2,33.1,33.1,2.9,3.1,2.825,-0.6449114008488119,-0.04326105543231314,0.6819095728819712,-0.10620921268558207,-0.550678,-18.81011
11.185,2.0,1.0,1.0,34.2,33.1,33.1,2.9,3.1,2.8275,-0.6585085968695218,-0.041975965721019,0.6661358269488069,-0.11022159310744477,-0.56817,-18.566485
