1,w,sub_t,h,l1,l2,l3,g1,g2,Freq,S11_re,S21_re,S11_img,S21_img,S11_dB,S21_dB
11.185,2.0,1.0,1.0,33.6,33.9,33.9,1.9,2.0,2.5,0.830225389949678,-0.014838417508525,0.543160276736483,0.0142307391515558,-0.068737,-33.739754
11.185,2.0,1.0,1.0,33.6,33.9,33.9,1.9,2.0,2.5025,0.8262976517813245,-0.015169105269922172,0.548952253780288,0.014325063159654466,-0.069535,-33.612022
11.185,2.0,1.0,1.0,33.6,33.9,33.9,1.9,2.0,2.505,0.8223086396549439,-0.015506864203537708,0.5547433660067708,0.014418631123905174,-0.07035,-33.483734
11.185,2.0,1.0,1.0,33.6,33.9,33.9,1.9,2.0,2.5075,0.8182576284672731,-0.01585187109905335,0.56053329518318,0.014511375689692156,-0.071183,-33.354879
11.185,2.0,1.0,1.0,33.6,33.9,33.9,1.9,2.0,2.51,0.8141438790895061,-0.016204308188469605,0.566321711871154,0.01460322608747349,-0.072033,-33.225447
11.185,2.0,1.0,1.0,33.6,33.9,33.9,1.9,2.0,2.5125,0.809966638039311,-0.01656436334465697,0.57210827499741,0.014694107955611798,-0.072902,-33.095426
11.185,2.0,1.0,1.0,33.6,33.9,33.9,1.9,2.0,2.515,0.8057251371433103,-0.016932230288257032,0.5778926314063242,0.014783943153186601,-0.073789,-32.964804
11.185,2.0,1.0,1.0,33.6,33.9,33.9,1.9,2.0,2.5175,0.8014185931896801,-0.01730810880332771,0.583674415393479,0.014872649562161017,-0.074696,-32.833571
11.185,2.0,1.0,1.0,33.6,33.9,33.9,1.9,2.0,2.52,0.7970462075704878,-0.017692204962150737,0.5894532482192516,0.014960140878229642,-0.075623,-32.701714
11.185,2.0,1.0,1.0,33.6,33.9,33.9,1.9,2.0,2.5225,0.7926071659133985,-0.018084731359637153,0.5952287376013998,0.015046326389629307,-0.076571,-32.56922
11.185,2.0,1.0,1.0,33.6,33.9,33.9,1.9,2.0,2.525,0.788100637702328,-0.018485907357792743,0.6010004771855999,0.015131110743142861,-0.07754,-32.436079
11.185,2.0,1.0,1.0,33.6,33.9,33.9,1.9,2.0,2.5275,0.7835257758866303,-0.018895959340728588,0.6067680459927879,0.01521439369647064,-0.078531,-32.302277
11.185,2.0,1.0,1.0,33.6,33.9,33.9,1.9,2.0,2.53,0.7788817164783746,-0.01931512098072551,0.6125310078420941,0.015296069856086194,-0.079544,-32.167801
11.185,2.0,1.0,1.0,33.6,33.9,33.9,1.9,2.0,2.5325,0.7741675781372463,-0.019743633515890764,0.6182889107480887,0.015376028399628892,-0.080581,-32.032638
11.185,2.0,1.0,1.0,33.6,33.9,33.9,1.9,2.0,2.535,0.7693824617425872,-0.020181746039971648,0.6240412862909831,0.015454152781816366,-0.081642,-31.896776
11.185,2.0,1.0,1.0,33.6,33.9,33.9,1.9,2.0,2.5375,0.7645254499520686,-0.02062971580492065,0.6297876489583215,0.01553032042278625,-0.082727,-31.7602
11.185,2.0,1.0,1.0,33.6,33.9,33.9,1.9,2.0,2.54,0.75959560674646,-0.021087808536839205,0.6355274954566271,0.015604402377695618,-0.083838,-31.622897
11.185,2.0,1.0,1.0,33.6,33.9,33.9,1.9,2.0,2.5425,0.7545919769599378,-0.02155629876595889,0.6412603039913609,0.01567626298631984,-0.084976,-31.484853
11.185,2.0,1.0,1.0,33.6,33.9,33.9,1.9,2.0,2.545,0.7495135857953469,-0.02203547017135467,0.6469855335134354,0.0157457595012978,-0.08614,-31.346053
11.185,2.0,1.0,1.0,33.6,33.9,33.9,1.9,2.0,2.5475,0.7443594383238074,-0.022525615941119747,0.6527026229304094,0.015812741693569277,-0.087333,-31.206482
11.185,2.0,1.0,1.0,33.6,33.9,33.9,1.9,2.0,2.55,0.7391285189680098,-0.02302703914877319,0.6584109902803872,0.01587705143343831,-0.088555,-31.066126
11.185,2.0,1.0,1.0,33.6,33.9,33.9,1.9,2.0,2.5525,0.733819790968546,-0.023540053146707658,0.6641100318664656,0.01593852224557816,-0.089807,-30.92497
11.185,2.0,1.0,1.0,33.6,33.9,33.9,1.9,2.0,2.555,0.7284321958325518,-0.024064981977531045,0.6697991213494782,0.015996978836162214,-0.091089,-30.782996
11.185,2.0,1.0,1.0,33.6,33.9,33.9,1.9,2.0,2.5575,0.7229646527639247,-0.024602160804198758,0.6754776087965888,0.016052236590163575,-0.092404,-30.640191
11.185,2.0,1.0,1.0,33.6,33.9,33.9,1.9,2.0,2.56,0.7174160580743502,-0.02515193635987878,0.681144819683134,0.01610410103671484,-0.093752,-30.496537
11.185,2.0,1.0,1.0,33.6,33.9,33.9,1.9,2.0,2.5625,0.7117852845743146,-0.025714667418544005,0.6868000538449194,0.01615236728024957,-0.095135,-30.352017
11.185,2.0,1.0,1.0,33.6,33.9,33.9,1.9,2.0,2.565,0.706071180943253,-0.026290725287334955,0.6924425843779936,0.0161968193949689,-0.096553,-30.206615
11.185,2.0,1.0,1.0,33.6,33.9,33.9,1.9,2.0,2.5675,0.7002725710779535,-0.026880494321790113,0.6980716564826775,0.016237229779976596,-0.098007,-30.060312
11.185,2.0,1.0,1.0,33.6,33.9,33.9,1.9,2.0,2.57,0.6943882534182674,-0.027484372465098685,0.7036864862484182,0.016273358472212302,-0.0995,-29.913092
11.185,2.0,1.0,1.0,33.6,33.9,33.9,1.9,2.0,2.5725,0.6884170002491614,-0.02810277181258687,0.7092862593757697,0.016304952414079213,-0.101032,-29.764935
11.185,2.0,1.0,1.0,33.6,33.9,33.9,1.9,2.0,2.575,0.6823575569780844,-0.028736119202711737,0.7148701298315245,0.016331744672403628,-0.102605,-29.615824
11.185,2.0,1.0,1.0,33.6,33.9,33.9,1.9,2.0,2.5775,0.6762086413865863,-0.02938485683589688,0.7204372184327202,0.016353453605089326,-0.104221,-29.465738
11.185,2.0,1.0,1.0,33.6,33.9,33.9,1.9,2.0,2.58,0.6699689428550744,-0.030049442922612017,0.7259866113549192,0.016369781971521738,-0.10588,-29.314658
11.185,2.0,1.0,1.0,33.6,33.9,33.9,1.9,2.0,2.5825,0.6636371215595407,-0.030730352362165217,0.7315173585598032,0.016380415982445592,-0.107585,-29.162564
11.185,2.0,1.0,1.0,33.6,33.9,33.9,1.9,2.0,2.585,0.6572118076390564,-0.03142807745374352,0.7370284721367246,0.01638502428467609,-0.109338,-29.009436
11.185,2.0,1.0,1.0,33.6,33.9,33.9,1.9,2.0,2.5875,0.6506916003327632,-0.03214312864131283,0.7425189245524538,0.01638325687560316,-0.111139,-28.855252
11.185,2.0,1.0,1.0,33.6,33.9,33.9,1.9,2.0,2.59,0.6440750670850651,-0.032876035294054536,0.7479876468028658,0.01637474394201573,-0.112992,-28.69999
11.185,2.0,1.0,1.0,33.6,33.9,33.9,1.9,2.0,2.5925,0.6373607426176454,-0.03362734652409543,0.753433526459839,0.016359094617290695,-0.114897,-28.543629
11.185,2.0,1.0,1.0,33.6,33.9,33.9,1.9,2.0,2.595,0.6305471279669231,-0.03439763204335387,0.7588554056060453,0.016335895650470028,-0.116858,-28.386145
11.185,2.0,1.0,1.0,33.6,33.9,33.9,1.9,2.0,2.5975,0.6236326894854757,-0.03518748306140579,0.764252078649746,0.016304709980171837,-0.118876,-28.227514
11.185,2.0,1.0,1.0,33.6,33.9,33.9,1.9,2.0,2.6,0.6166158578059434,-0.03599751322633969,0.7696222900110063,0.016265075205649203,-0.120954,-28.067714
11.185,2.0,1.0,1.0,33.6,33.9,33.9,1.9,2.0,2.6025,0.6094950267658857,-0.036828359610641855,0.7749647316700269,0.016216501946615017,-0.123094,-27.906719
11.185,2.0,1.0,1.0,33.6,33.9,33.9,1.9,2.0,2.605,0.6022685522920067,-0.03768068374422069,0.7802780405675032,0.016158472082686982,-0.125298,-27.744503
11.185,2.0,1.0,1.0,33.6,33.9,33.9,1.9,2.0,2.6075,0.594934751242165,-0.03855517269673679,0.7855607958460115,0.016090436862462334,-0.12757,-27.581042
11.185,2.0,1.0,1.0,33.6,33.9,33.9,1.9,2.0,2.61,0.5874919002035555,-0.03945254021146266,0.7908115159204862,0.01601181487130467,-0.129912,-27.416307
11.185,2.0,1.0,1.0,33.6,33.9,33.9,1.9,2.0,2.6125,0.5799382342454369,-0.040373527892939284,0.7960286553647662,0.015921989845900885,-0.132328,-27.250271
11.185,2.0,1.0,1.0,33.6,33.9,33.9,1.9,2.0,2.615,0.5722719456247928,-0.04131890645073097,0.8012106016000266,0.01582030832251472,-0.134819,-27.082906
11.185,2.0,1.0,1.0,33.6,33.9,33.9,1.9,2.0,2.6175,0.5644911824433488,-0.042289477001596104,0.8063556713696116,0.015706077104615107,-0.137391,-26.914184
11.185,2.0,1.0,1.0,33.6,33.9,33.9,1.9,2.0,2.62,0.5565940472543981,-0.04328607243239208,0.8114621069833574,0.015578560534174753,-0.140046,-26.744073
11.185,2.0,1.0,1.0,33.6,33.9,33.9,1.9,2.0,2.6225,0.548578595617971,-0.0443095588260062,0.8165280723129199,0.015436977549407154,-0.142788,-26.572542
11.185,2.0,1.0,1.0,33.6,33.9,33.9,1.9,2.0,2.625,0.540442834603006,-0.045360836952547,0.821551648517873,0.0152804985100149,-0.14562,-26.399561
11.185,2.0,1.0,1.0,33.6,33.9,33.9,1.9,2.0,2.6275,0.5321847212352919,-0.04644084382794356,0.8265308294804069,0.015108241769145356,-0.148549,-26.225096
11.185,2.0,1.0,1.0,33.6,33.9,33.9,1.9,2.0,2.63,0.5238021608901845,-0.04755055434195751,0.8314635169243342,0.014919269969166206,-0.151576,-26.049114
11.185,2.0,1.0,1.0,33.6,33.9,33.9,1.9,2.0,2.6325,0.515293005629334,-0.04869098295742388,0.8363475151917071,0.014712586036059521,-0.154709,-25.871579
11.185,2.0,1.0,1.0,33.6,33.9,33.9,1.9,2.0,2.635,0.5066550524809913,-0.04986318548227789,0.8411805256477443,0.014487128844658416,-0.15795,-25.692456
11.185,2.0,1.0,1.0,33.6,33.9,33.9,1.9,2.0,2.6375,0.49788604166388273,-0.05106826091558237,0.8459601406818089,0.014241768524092537,-0.161307,-25.511708
11.185,2.0,1.0,1.0,33.6,33.9,33.9,1.9,2.0,2.64,0.4889836547551284,-0.052307353368338305,0.8506838372689486,0.013975301369615336,-0.164784,-25.329296
11.185,2.0,1.0,1.0,33.6,33.9,33.9,1.9,2.0,2.6425,0.47994551280335535,-0.05358165405929827,0.8553489700528568,0.01368644432343923,-0.168387,-25.145182
11.185,2.0,1.0,1.0,33.6,33.9,33.9,1.9,2.0,2.645,0.4707691743889189,-0.05489240338530956,0.8599527639070791,0.013373828983235603,-0.172123,-24.959323
11.185,2.0,1.0,1.0,33.6,33.9,33.9,1.9,2.0,2.6475,0.4614521336341132,-0.05624089306484036,0.8644923059267856,0.013035995092534872,-0.175998,-24.771679
11.185,2.0,1.0,1.0,33.6,33.9,33.9,1.9,2.0,2.65,0.45199181816742456,-0.05762846835226934,0.8689645367983925,0.01267138346231027,-0.180021,-24.582206
11.185,2.0,1.0,1.0,33.6,33.9,33.9,1.9,2.0,2.6525,0.4423855870473521,-0.05905653031918697,0.873366241488658,0.012278328267501503,-0.184198,-24.390858
11.185,2.0,1.0,1.0,33.6,33.9,33.9,1.9,2.0,2.655,0.4326307286529953,-0.06052653819734378,0.8776940391886265,0.0118550486560288,-0.188539,-24.19759
11.185,2.0,1.0,1.0,33.6,33.9,33.9,1.9,2.0,2.6575,0.4227244585507782,-0.062040011775889914,0.8819443724407078,0.011399639600914075,-0.193051,-24.002354
11.185,2.0,1.0,1.0,33.6,33.9,33.9,1.9,2.0,2.66,0.41266391734919283,-0.0635985338431431,0.8861134953692792,0.01091006191833059,-0.197745,-23.805098
11.185,2.0,1.0,1.0,33.6,33.9,33.9,1.9,2.0,2.6625,0.40244616855654514,-0.06520375266018949,0.8901974609263381,0.010384131365663674,-0.20263,-23.605773
11.185,2.0,1.0,1.0,33.6,33.9,33.9,1.9,2.0,2.665,0.3920681964603745,-0.0668573844500743,0.8941921070537743,0.00981950672383987,-0.207718,-23.404325
11.185,2.0,1.0,1.0,33.6,33.9,33.9,1.9,2.0,2.6675,0.381526904051723,-0.0685612158820336,0.8980930416526319,0.009213676757142762,-0.21302,-23.200698
11.185,2.0,1.0,1.0,33.6,33.9,33.9,1.9,2.0,2.67,0.37081911102280185,-0.07031710652502775,0.9018956262371591,0.008563945931301654,-0.218549,-22.994835
11.185,2.0,1.0,1.0,33.6,33.9,33.9,1.9,2.0,2.6725,0.359941551873082,-0.07212699123855393,0.9055949581372866,0.007867418756651895,-0.224318,-22.786677
11.185,2.0,1.0,1.0,33.6,33.9,33.9,1.9,2.0,2.675,0.3488908741666859,-0.07399288246113257,0.909185851097212,0.007120982607394435,-0.230342,-22.576162
11.185,2.0,1.0,1.0,33.6,33.9,33.9,1.9,2.0,2.6775,0.3376636369933228,-0.07591687234771351,0.9126628140997988,0.006321288850211529,-0.236637,-22.363227
11.185,2.0,1.0,1.0,33.6,33.9,33.9,1.9,2.0,2.68,0.32625630969636465,-0.07790113469620172,0.9160200282262451,0.005464732095437636,-0.24322,-22.147805
11.185,2.0,1.0,1.0,33.6,33.9,33.9,1.9,2.0,2.6825,0.31466527094528984,-0.0799479265899726,0.9192513213376032,0.004547427361360013,-0.250109,-21.929828
11.185,2.0,1.0,1.0,33.6,33.9,33.9,1.9,2.0,2.685,0.30288680824616243,-0.08205958966715807,0.9223501403389177,0.0035651849166712453,-0.257324,-21.709223
11.185,2.0,1.0,1.0,33.6,33.9,33.9,1.9,2.0,2.6875,0.290917118003631,-0.0842385509080516,0.925309520757672,0.00251348253725023,-0.264886,-21.485918
11.185,2.0,1.0,1.0,33.6,33.9,33.9,1.9,2.0,2.69,0.27875230627187186,-0.08648732280850353,0.9281220533352914,0.001387434880871669,-0.27282,-21.259833
11.185,2.0,1.0,1.0,33.6,33.9,33.9,1.9,2.0,2.6925,0.2663883903607133,-0.08880850277880357,0.9307798472934136,0.00018175964665729936,-0.281149,-21.030891
11.185,2.0,1.0,1.0,33.6,33.9,33.9,1.9,2.0,2.695,0.2538213014981663,-0.09120477157320292,0.9332744898946944,-0.0011092598554312749,-0.289903,-20.799006
11.185,2.0,1.0,1.0,33.6,33.9,33.9,1.9,2.0,2.6975,0.24104688879266556,-0.09367889051367531,0.9355970018707697,-0.002491816146603101,-0.299111,-20.564094
11.185,2.0,1.0,1.0,33.6,33.9,33.9,1.9,2.0,2.7,0.22806092478955406,-0.09623369722112801,0.9377377882367028,-0.00397262350707848,-0.308806,-20.326062
11.185,2.0,1.0,1.0,33.6,33.9,33.9,1.9,2.0,2.7025,0.21485911297815832,-0.09887209950618374,0.9396865839514718,-0.005558968923508057,-0.319023,-20.084818
11.185,2.0,1.0,1.0,33.6,33.9,33.9,1.9,2.0,2.705,0.20143709768103277,-0.10159706699745509,0.9414323938167191,-0.007258768656478262,-0.329803,-19.840264
11.185,2.0,1.0,1.0,33.6,33.9,33.9,1.9,2.0,2.7075,0.18779047684820138,-0.1044116199950542,0.942963425930679,-0.009080631103443298,-0.341188,-19.592298
11.185,2.0,1.0,1.0,33.6,33.9,33.9,1.9,2.0,2.71,0.17391481839025785,-0.10731881492732843,0.9442670179300162,-0.011033926716036263,-0.353225,-19.340815
11.185,2.0,1.0,1.0,33.6,33.9,33.9,1.9,2.0,2.7125,0.15980568081938099,-0.11032172565511204,0.945329555158674,-0.0131288658237611,-0.365967,-19.085705
11.185,2.0,1.0,1.0,33.6,33.9,33.9,1.9,2.0,2.715,0.14545863913218324,-0.11342341970468506,0.9461363797992152,-0.015376585319038644,-0.37947,-18.826852
11.185,2.0,1.0,1.0,33.6,33.9,33.9,1.9,2.0,2.7175,0.13086931706947574,-0.11662692831147135,0.9466716898883947,-0.017789245271752043,-0.393799,-18.564139
11.185,2.0,1.0,1.0,33.6,33.9,33.9,1.9,2.0,2.72,0.11603342713403954,-0.11993520891299585,0.9469184270147758,-0.0203801366646339,-0.409022,-18.29744
11.185,2.0,1.0,1.0,33.6,33.9,33.9,1.9,2.0,2.7225,0.10094682004824147,-0.12335109843158855,0.9468581513632818,-0.023163801573277396,-0.425217,-18.026628
11.185,2.0,1.0,1.0,33.6,33.9,33.9,1.9,2.0,2.725,0.08560554570208864,-0.1268772553221145,0.9464709026310079,-0.02615616725443496,-0.442471,-17.751567
11.185,2.0,1.0,1.0,33.6,33.9,33.9,1.9,2.0,2.7275,0.07000592809403462,-0.1305160879121253,0.9457350451941506,-0.029374695750416607,-0.460879,-17.472119
11.185,2.0,1.0,1.0,33.6,33.9,33.9,1.9,2.0,2.73,0.05414465732162158,-0.13426966601199192,0.944627095762551,-0.032838550760415364,-0.480547,-17.18814
11.185,2.0,1.0,1.0,33.6,33.9,33.9,1.9,2.0,2.7325,0.038018902359972344,-0.13813961209721057,0.9431215316248805,-0.03656878366316137,-0.501595,-16.899479
11.185,2.0,1.0,1.0,33.6,33.9,33.9,1.9,2.0,2.735,0.021626449203100303,-0.14212696753503748,0.9411905774766086,-0.04058854068660842,-0.524156,-16.605982
11.185,2.0,1.0,1.0,33.6,33.9,33.9,1.9,2.0,2.7375,0.0049658699713035,-0.14623202830735024,0.9388039687539219,-0.04492329329048279,-0.54838,-16.307487
11.185,2.0,1.0,1.0,33.6,33.9,33.9,1.9,2.0,2.74,-0.011963270148396458,-0.15045414342771574,0.9359286893976188,-0.04960109382866784,-0.574435,-16.003831
11.185,2.0,1.0,1.0,33.6,33.9,33.9,1.9,2.0,2.7425,-0.02916015971008804,-0.1547914677105591,0.9325286820822224,-0.05465285845048609,-0.602512,-15.694842
11.185,2.0,1.0,1.0,33.6,33.9,33.9,1.9,2.0,2.745,-0.04662243124335242,-0.15924065866104214,0.9285645292252358,-0.06011267892549116,-0.632824,-15.380347
11.185,2.0,1.0,1.0,33.6,33.9,33.9,1.9,2.0,2.7475,-0.064345782262836,-0.16379650494121556,0.9239931036216874,-0.06601816455379672,-0.665615,-15.060167
11.185,2.0,1.0,1.0,33.6,33.9,33.9,1.9,2.0,2.75,-0.0823235115588601,-0.168451471044614,0.918767188446399,-0.0724108144380055,-0.701162,-14.734123
11.185,2.0,1.0,1.0,33.6,33.9,33.9,1.9,2.0,2.7525,-0.10054595182043974,-0.17319513937991923,0.912835067793642,-0.07933641898171029,-0.739781,-14.402032
11.185,2.0,1.0,1.0,33.6,33.9,33.9,1.9,2.0,2.755,-0.11899977547008363,-0.17801352681891358,0.9061400911086972,-0.08684548731756729,-0.781831,-14.063711
11.185,2.0,1.0,1.0,33.6,33.9,33.9,1.9,2.0,2.7575,-0.13766714559388793,-0.18288824779862553,0.8986202181239091,-0.094993694141834,-0.827726,-13.718982
11.185,2.0,1.0,1.0,33.6,33.9,33.9,1.9,2.0,2.76,-0.15652467793929592,-0.18779549019061728,0.8902075556786726,-0.10384233470988447,-0.877942,-13.367668
11.185,2.0,1.0,1.0,33.6,33.9,33.9,1.9,2.0,2.7625,-0.17554217307686584,-0.1927047633114306,0.8808279046737544,-0.11345876993735204,-0.933026,-13.009604
11.185,2.0,1.0,1.0,33.6,33.9,33.9,1.9,2.0,2.765,-0.19468107001988902,-0.1975773696840185,0.870400345193405,-0.12391683385198901,-0.993612,-12.644634
11.185,2.0,1.0,1.0,33.6,33.9,33.9,1.9,2.0,2.7675,-0.21389256407112678,-0.20236454367113,0.8588369016060974,-0.13529716197712133,-1.060437,-12.272623
11.185,2.0,1.0,1.0,33.6,33.9,33.9,1.9,2.0,2.77,-0.23311532291294304,-0.20700519137578274,0.8460423486541108,-0.14768738018011723,-1.134357,-11.893461
11.185,2.0,1.0,1.0,33.6,33.9,33.9,1.9,2.0,2.7725,-0.2522727269557389,-0.21142315821058383,0.8319142460065482,-0.161182067256856,-1.216375,-11.507071
11.185,2.0,1.0,1.0,33.6,33.9,33.9,1.9,2.0,2.775,-0.27126955447722273,-0.21552394502709193,0.8163433247848956,-0.17588236875343694,-1.307662,-11.113422
11.185,2.0,1.0,1.0,33.6,33.9,33.9,1.9,2.0,2.7775,-0.28998803212674257,-0.2191907936472415,0.7992143979242821,-0.1918950915136987,-1.409598,-10.712543
11.185,2.0,1.0,1.0,33.6,33.9,33.9,1.9,2.0,2.78,-0.3082831818292394,-0.22228007290515292,0.7804080299328358,-0.20933104517174442,-1.523809,-10.30454
11.185,2.0,1.0,1.0,33.6,33.9,33.9,1.9,2.0,2.7825,-0.32597742368652577,-0.22461592451350632,0.7598032834957211,-0.22830231544816332,-1.652219,-9.889616
11.185,2.0,1.0,1.0,33.6,33.9,33.9,1.9,2.0,2.785,-0.3428544527741057,-0.2259841857633456,0.7372819620870333,-0.24891805299867562,-1.797106,-9.468099
11.185,2.0,1.0,1.0,33.6,33.9,33.9,1.9,2.0,2.7875,-0.3586525126881939,-0.2261257100511432,0.7127348878190053,-0.271278242144137,-1.961179,-9.040475
11.185,2.0,1.0,1.0,33.6,33.9,33.9,1.9,2.0,2.79,-0.373057363687782,-0.22472937973007795,0.6860708841199973,-0.2954647840329019,-2.147663,-8.607422
11.185,2.0,1.0,1.0,33.6,33.9,33.9,1.9,2.0,2.7925,-0.38569551834782034,-0.22142537867771003,0.6572292532090909,-0.3215291087305256,-2.360397,-8.169861
11.185,2.0,1.0,1.0,33.6,33.9,33.9,1.9,2.0,2.795,-0.3961287270842906,-0.21577969838819946,0.6261966076605004,-0.3494754611061821,-2.603959,-7.729004
11.185,2.0,1.0,1.0,33.6,33.9,33.9,1.9,2.0,2.7975,-0.4038512701774931,-0.20729142170756015,0.5930288602741576,-0.37923905896391036,-2.883791,-7.286417
11.185,2.0,1.0,1.0,33.6,33.9,33.9,1.9,2.0,2.8,-0.4082923600853623,-0.19539507078385399,0.557878878777358,-0.4106586160107126,-3.206343,-6.84408
11.185,2.0,1.0,1.0,33.6,33.9,33.9,1.9,2.0,2.8025,-0.40882682855157965,-0.1794711717249766,0.5210296011345419,-0.44344342629427896,-3.579203,-6.404453
11.185,2.0,1.0,1.0,33.6,33.9,33.9,1.9,2.0,2.805,-0.40479810422638585,-0.1588690163529676,0.48293107284170333,-0.47713653010152113,-4.011177,-5.970535
11.185,2.0,1.0,1.0,33.6,33.9,33.9,1.9,2.0,2.8075,-0.3955579284546608,-0.1329460443807825,0.4442377156978585,-0.5110776171159709,-4.512259,-5.545904
11.185,2.0,1.0,1.0,33.6,33.9,33.9,1.9,2.0,2.81,-0.3805267117940365,-0.10112773386351175,0.40583912681163337,-0.544372313104055,-5.09331,-5.134731
11.185,2.0,1.0,1.0,33.6,33.9,33.9,1.9,2.0,2.8125,-0.359276079137907,-0.0629895564654402,0.368874185493252,-0.575877997087992,-5.765125,-4.74174
11.185,2.0,1.0,1.0,33.6,33.9,33.9,1.9,2.0,2.815,-0.3316301712924255,-0.018357614977169784,0.3347152529303015,-0.6042192770190372,-6.536218,-4.372101
11.185,2.0,1.0,1.0,33.6,33.9,33.9,1.9,2.0,2.8175,-0.2977744239037801,0.032583209900807625,0.3049086985586638,-0.6278468139375321,-7.407911,-4.031245
11.185,2.0,1.0,1.0,33.6,33.9,33.9,1.9,2.0,2.82,-0.2583510377490667,0.08919422445104429,0.2810623698750601,-0.6451488507349169,-8.364173,-3.724573
11.185,2.0,1.0,1.0,33.6,33.9,33.9,1.9,2.0,2.8225,-0.21451258860303418,0.15032935148786009,0.2646818263616928,-0.6546136915479391,-9.352721,-3.457098
11.185,2.0,1.0,1.0,33.6,33.9,33.9,1.9,2.0,2.825,-0.16790446397462583,0.21435216556411715,0.2569744295895956,-0.6550242299237546,-10.258211,-3.233031
11.185,2.0,1.0,1.0,33.6,33.9,33.9,1.9,2.0,2.8275,-0.1205578339091521,0.2792417669174516,0.2586585520485484,-0.6456475611763745,-10.891706,-3.055381
11.185,2.0,1.0,1.0,33.6,33.9,33.9,1.9,2.0,2.83,-0.07469795407796191,0.34278281838077845,0.26982527363305003,-0.6263726362110443,-11.057645,-2.925638
