1,w,sub_t,h,l1,l2,l3,g1,g2,Freq,S11_re,S21_re,S11_img,S21_img,S11_dB,S21_dB
11.185,2.0,1.0,1.0,33.2,33.2,33.2,2.8,4.0,2.5,0.880308897854775,-0.00509361283435474,0.461994693931662,0.00434303615101561,-0.050748,-43.486555
11.185,2.0,1.0,1.0,33.2,33.2,33.2,2.8,4.0,2.5025,0.8773277528488923,-0.0051955476570691855,0.4675273850516726,0.0043621310672229945,-0.051174,-43.370354
11.185,2.0,1.0,1.0,33.2,33.2,33.2,2.8,4.0,2.505,0.874299802239729,-0.005299158393040053,0.4730614702445638,0.004380712276731379,-0.051607,-43.253986
11.185,2.0,1.0,1.0,33.2,33.2,33.2,2.8,4.0,2.5075,0.8712246105367225,-0.005404474212221781,0.478596772744405,0.0043987592365101365,-0.052047,-43.137444
11.185,2.0,1.0,1.0,33.2,33.2,33.2,2.8,4.0,2.51,0.8681017354037108,-0.005511524905698378,0.48413311051041813,0.004416250714252042,-0.052494,-43.02072
11.185,2.0,1.0,1.0,33.2,33.2,33.2,2.8,4.0,2.5125,0.8649307275492121,-0.005620340900700131,0.48967029605498297,0.004433164763179523,-0.052949,-42.903809
11.185,2.0,1.0,1.0,33.2,33.2,33.2,2.8,4.0,2.515,0.8617111306152536,-0.005730953276008792,0.49520813626614685,0.004449478695844238,-0.05341,-42.786702
11.185,2.0,1.0,1.0,33.2,33.2,33.2,2.8,4.0,2.5175,0.8584424810647556,-0.005843393777760878,0.5007464322244323,0.004465169056875807,-0.053879,-42.669393
11.185,2.0,1.0,1.0,33.2,33.2,33.2,2.8,4.0,2.52,0.8551243080674683,-0.005957694835660174,0.5062849790137746,0.004480211594632681,-0.054356,-42.551876
11.185,2.0,1.0,1.0,33.2,33.2,33.2,2.8,4.0,2.5225,0.8517561333844802,-0.006073889579609238,0.5118235655263581,0.004494581231706952,-0.054841,-42.434141
11.185,2.0,1.0,1.0,33.2,33.2,33.2,2.8,4.0,2.525,0.8483374712512924,-0.006192011856771597,0.5173619742611691,0.004508252034231175,-0.055333,-42.316184
11.185,2.0,1.0,1.0,33.2,33.2,33.2,2.8,4.0,2.5275,0.8448678282594773,-0.006312096249075427,0.5228999811160406,0.004521197179934175,-0.055834,-42.197995
11.185,2.0,1.0,1.0,33.2,33.2,33.2,2.8,4.0,2.53,0.8413467032369321,-0.006434178091169836,0.5284373551729595,0.004533388924888727,-0.056343,-42.079568
11.185,2.0,1.0,1.0,33.2,33.2,33.2,2.8,4.0,2.5325,0.8377735871267441,-0.006558293488845649,0.5339738584764139,0.004544798568892255,-0.056861,-41.960897
11.185,2.0,1.0,1.0,33.2,33.2,33.2,2.8,4.0,2.535,0.8341479628646798,-0.006684479337932413,0.5395092458045374,0.004555396419418144,-0.057387,-41.841972
11.185,2.0,1.0,1.0,33.2,33.2,33.2,2.8,4.0,2.5375,0.8304693052553265,-0.006812773343683346,0.5450432644327964,0.004565151754072233,-0.057922,-41.722787
11.185,2.0,1.0,1.0,33.2,33.2,33.2,2.8,4.0,2.54,0.8267370808469032,-0.006943214040660837,0.5505756538899682,0.0045740327814859285,-0.058467,-41.603335
11.185,2.0,1.0,1.0,33.2,33.2,33.2,2.8,4.0,2.5425,0.8229507478047693,-0.007075840813134628,0.5561061457061393,0.004582006600573404,-0.05902,-41.483607
11.185,2.0,1.0,1.0,33.2,33.2,33.2,2.8,4.0,2.545,0.8191097557836612,-0.007210693916005476,0.5616344631524491,0.004589039158077255,-0.059584,-41.363596
11.185,2.0,1.0,1.0,33.2,33.2,33.2,2.8,4.0,2.5475,0.815213545798694,-0.007347814496266724,0.5671603209722784,0.004595095204322443,-0.060156,-41.243295
11.185,2.0,1.0,1.0,33.2,33.2,33.2,2.8,4.0,2.55,0.8112615500951534,-0.00748724461501747,0.5726834251036059,0.004600138247094777,-0.060739,-41.122696
11.185,2.0,1.0,1.0,33.2,33.2,33.2,2.8,4.0,2.5525,0.8072531920171401,-0.007629027270039465,0.5782034723921919,0.004604130503555153,-0.061332,-41.001791
11.185,2.0,1.0,1.0,33.2,33.2,33.2,2.8,4.0,2.555,0.8031878858750913,-0.007773206418951933,0.5837201502952937,0.004607032850097117,-0.061936,-40.880572
11.185,2.0,1.0,1.0,33.2,33.2,33.2,2.8,4.0,2.5575,0.7990650368122415,-0.007919827002957198,0.5892331365755652,0.0046088047700487906,-0.06255,-40.75903
11.185,2.0,1.0,1.0,33.2,33.2,33.2,2.8,4.0,2.56,0.7948840406700762,-0.008068934971190687,0.5947420989847899,0.0046094042991170784,-0.063175,-40.637159
11.185,2.0,1.0,1.0,33.2,33.2,33.2,2.8,4.0,2.5625,0.7906442838528388,-0.008220577305689009,0.6002466949370928,0.004608787968464749,-0.063811,-40.51495
11.185,2.0,1.0,1.0,33.2,33.2,33.2,2.8,4.0,2.565,0.7863451431911535,-0.008374802046989685,0.6057465711712572,0.004606910745305984,-0.064458,-40.392395
11.185,2.0,1.0,1.0,33.2,33.2,33.2,2.8,4.0,2.5675,0.7819859858048439,-0.008531658320376069,0.6112413634017451,0.004603725970900003,-0.065117,-40.269484
11.185,2.0,1.0,1.0,33.2,33.2,33.2,2.8,4.0,2.57,0.77756616896502,-0.008691196362781282,0.6167306959580294,0.004599185295815048,-0.065788,-40.146211
11.185,2.0,1.0,1.0,33.2,33.2,33.2,2.8,4.0,2.5725,0.7730850399555191,-0.008853467550364714,0.6222141814118123,0.004593238612328881,-0.066471,-40.022567
11.185,2.0,1.0,1.0,33.2,33.2,33.2,2.8,4.0,2.575,0.7685419359337943,-0.009018524426774387,0.6276914201916903,0.004585833983823914,-0.067167,-39.898542
11.185,2.0,1.0,1.0,33.2,33.2,33.2,2.8,4.0,2.5775,0.763936183791352,-0.009186420732108968,0.6331620001848147,0.004576917571027712,-0.067875,-39.774129
11.185,2.0,1.0,1.0,33.2,33.2,33.2,2.8,4.0,2.58,0.759267100013846,-0.009357211432591868,0.6386254963250696,0.0045664335549410635,-0.068597,-39.649318
11.185,2.0,1.0,1.0,33.2,33.2,33.2,2.8,4.0,2.5825,0.7545339905409433,-0.009530952750971055,0.6440814701672859,0.004554324056287005,-0.069332,-39.5241
11.185,2.0,1.0,1.0,33.2,33.2,33.2,2.8,4.0,2.585,0.7497361506260867,-0.009707702197656662,0.6495294694469667,0.004540529051304763,-0.070081,-39.398467
11.185,2.0,1.0,1.0,33.2,33.2,33.2,2.8,4.0,2.5875,0.7448728646962934,-0.009887518602608673,0.654969027625007,0.004524986283702957,-0.070843,-39.27241
11.185,2.0,1.0,1.0,33.2,33.2,33.2,2.8,4.0,2.59,0.7399434062121346,-0.010070462147986164,0.6603996634168406,0.004507631172575127,-0.071621,-39.145919
11.185,2.0,1.0,1.0,33.2,33.2,33.2,2.8,4.0,2.5925,0.7349470375280449,-0.01025659440156949,0.6658208803054523,0.004488396716069983,-0.072413,-39.018984
11.185,2.0,1.0,1.0,33.2,33.2,33.2,2.8,4.0,2.595,0.7298830097531482,-0.010445978350965085,0.6712321660376381,0.004467213390596554,-0.07322,-38.891597
11.185,2.0,1.0,1.0,33.2,33.2,33.2,2.8,4.0,2.5975,0.7247505626127598,-0.010638678438603113,0.67663299210291,0.0044440090453315125,-0.074043,-38.763747
11.185,2.0,1.0,1.0,33.2,33.2,33.2,2.8,4.0,2.6,0.7195489243107683,-0.010834760597535992,0.6820228131943817,0.004418708791782458,-0.074881,-38.635425
11.185,2.0,1.0,1.0,33.2,33.2,33.2,2.8,4.0,2.6025,0.7142773113931126,-0.01103429228804532,0.6874010666509591,0.004391234888146519,-0.075736,-38.506622
11.185,2.0,1.0,1.0,33.2,33.2,33.2,2.8,4.0,2.605,0.7089349286125588,-0.011237342535063416,0.6927671718801394,0.0043615066181879065,-0.076608,-38.377326
11.185,2.0,1.0,1.0,33.2,33.2,33.2,2.8,4.0,2.6075,0.7035209687950305,-0.011443981966414125,0.6981205297606726,0.004329440164341923,-0.077497,-38.247527
11.185,2.0,1.0,1.0,33.2,33.2,33.2,2.8,4.0,2.61,0.6980346127077417,-0.011654282851875726,0.7034605220243265,0.004294948474734927,-0.078403,-38.117216
11.185,2.0,1.0,1.0,33.2,33.2,33.2,2.8,4.0,2.6125,0.6924750289294048,-0.011868319143067253,0.70878651061595,0.004257941123791458,-0.079327,-37.986382
11.185,2.0,1.0,1.0,33.2,33.2,33.2,2.8,4.0,2.615,0.6868413737228011,-0.012086166514157169,0.7140978370310127,0.0042183241660790965,-0.080271,-37.855014
11.185,2.0,1.0,1.0,33.2,33.2,33.2,2.8,4.0,2.6175,0.6811327909100351,-0.012307902403390792,0.7193938216297351,0.004175999983020763,-0.081233,-37.723101
11.185,2.0,1.0,1.0,33.2,33.2,33.2,2.8,4.0,2.62,0.6753484117507967,-0.012533606055430196,0.7246737629269125,0.00413086712208112,-0.082214,-37.590632
11.185,2.0,1.0,1.0,33.2,33.2,33.2,2.8,4.0,2.6225,0.6694873548239855,-0.012763358564497737,0.7299369368564875,0.0040828201280085795,-0.083216,-37.457596
11.185,2.0,1.0,1.0,33.2,33.2,33.2,2.8,4.0,2.625,0.663548725913089,-0.0129972429183096,0.735182596009865,0.00403174936568984,-0.084238,-37.323981
11.185,2.0,1.0,1.0,33.2,33.2,33.2,2.8,4.0,2.6275,0.6575316178957009,-0.01323534404278361,0.7404099688469562,0.003977540834143658,-0.085282,-37.189776
11.185,2.0,1.0,1.0,33.2,33.2,33.2,2.8,4.0,2.63,0.6514351106376259,-0.013477748847499575,0.7456182588788564,0.003920075971152583,-0.086347,-37.054969
11.185,2.0,1.0,1.0,33.2,33.2,33.2,2.8,4.0,2.6325,0.6452582708920225,-0.013724546271886585,0.7508066438210316,0.003859231447997975,-0.087434,-36.919548
11.185,2.0,1.0,1.0,33.2,33.2,33.2,2.8,4.0,2.635,0.6390001522040807,-0.013975827332105721,0.7559742747158311,0.003794878953729176,-0.088545,-36.783501
11.185,2.0,1.0,1.0,33.2,33.2,33.2,2.8,4.0,2.6375,0.63265979482176,-0.014231685168590266,0.7611202750230868,0.0037268849683619325,-0.089679,-36.646815
11.185,2.0,1.0,1.0,33.2,33.2,33.2,2.8,4.0,2.64,0.626236225613135,-0.014492215094199935,0.7662437396775088,0.0036551105243595476,-0.090837,-36.509477
11.185,2.0,1.0,1.0,33.2,33.2,33.2,2.8,4.0,2.6425,0.6197284579909577,-0.014757514642935883,0.7713437341115146,0.00357941095570929,-0.09202,-36.371474
11.185,2.0,1.0,1.0,33.2,33.2,33.2,2.8,4.0,2.645,0.6131354918450639,-0.01502768361915684,0.7764192932420756,0.003499635633860141,-0.093229,-36.232794
11.185,2.0,1.0,1.0,33.2,33.2,33.2,2.8,4.0,2.6475,0.6064563134833054,-0.015302824147225468,0.781469420420085,0.0034156276897385966,-0.094464,-36.093423
11.185,2.0,1.0,1.0,33.2,33.2,33.2,2.8,4.0,2.65,0.5996898955817186,-0.015583040721505096,0.7864930863406957,0.0033272237210066947,-0.095726,-35.953346
11.185,2.0,1.0,1.0,33.2,33.2,33.2,2.8,4.0,2.6525,0.5928351971447194,-0.015868440256612822,0.7914892279129652,0.003234253483669397,-0.097017,-35.81255
11.185,2.0,1.0,1.0,33.2,33.2,33.2,2.8,4.0,2.655,0.5858911634761244,-0.016159132137824606,0.7964567470871126,0.0031365395670769425,-0.098336,-35.671021
11.185,2.0,1.0,1.0,33.2,33.2,33.2,2.8,4.0,2.6575,0.5788567261618859,-0.01645522827151051,0.801394509637555,0.00303389705130236,-0.099684,-35.528744
11.185,2.0,1.0,1.0,33.2,33.2,33.2,2.8,4.0,2.66,0.571730803065466,-0.01675684313546388,0.8063013438998359,0.0029261331458020467,-0.101063,-35.385704
11.185,2.0,1.0,1.0,33.2,33.2,33.2,2.8,4.0,2.6625,0.564512298336855,-0.01706409382896823,0.8111760394594324,0.00281304680819228,-0.102474,-35.241886
11.185,2.0,1.0,1.0,33.2,33.2,33.2,2.8,4.0,2.665,0.5572001024362818,-0.017377100122426936,0.8160173457903463,0.00269442834188954,-0.103917,-35.097274
11.185,2.0,1.0,1.0,33.2,33.2,33.2,2.8,4.0,2.6675,0.5497930921737636,-0.01769598450635598,0.8208239708412493,0.0025700589712754503,-0.105393,-34.951853
11.185,2.0,1.0,1.0,33.2,33.2,33.2,2.8,4.0,2.67,0.5422901307656959,-0.018020872239516598,0.8255945795668509,0.0024397103929482957,-0.106904,-34.805605
11.185,2.0,1.0,1.0,33.2,33.2,33.2,2.8,4.0,2.6725,0.534690067909769,-0.018351891395934915,0.8303277924020234,0.002303144301520037,-0.10845,-34.658515
11.185,2.0,1.0,1.0,33.2,33.2,33.2,2.8,4.0,2.675,0.526991739879602,-0.018689172910524347,0.8350221836760736,0.002160111888304558,-0.110033,-34.510565
11.185,2.0,1.0,1.0,33.2,33.2,33.2,2.8,4.0,2.6775,0.5191939696405565,-0.0190328506229916,0.8396762799644191,0.0020103533111197774,-0.111653,-34.361738
11.185,2.0,1.0,1.0,33.2,33.2,33.2,2.8,4.0,2.68,0.5112955669883043,-0.019383061319667407,0.8442885583747581,0.0018535971332944011,-0.113312,-34.212017
11.185,2.0,1.0,1.0,33.2,33.2,33.2,2.8,4.0,2.6825,0.5032953287118377,-0.019739944772858543,0.8488574447646576,0.0016895597298265913,-0.115012,-34.061382
11.185,2.0,1.0,1.0,33.2,33.2,33.2,2.8,4.0,2.685,0.4951920387827172,-0.020103643777269704,0.8533813118873065,0.0015179446584848574,-0.116753,-33.909815
11.185,2.0,1.0,1.0,33.2,33.2,33.2,2.8,4.0,2.6875,0.486984468572474,-0.0204743041829876,0.85785847746198,0.0013384419934743,-0.118537,-33.757297
11.185,2.0,1.0,1.0,33.2,33.2,33.2,2.8,4.0,2.69,0.4786713771002524,-0.020852074924458466,0.8622872021655552,0.0011507276191054158,-0.120365,-33.603808
11.185,2.0,1.0,1.0,33.2,33.2,33.2,2.8,4.0,2.6925,0.4702515113128678,-0.021237108044822164,0.8666656875411981,0.0009544624807049314,-0.122239,-33.449329
11.185,2.0,1.0,1.0,33.2,33.2,33.2,2.8,4.0,2.695,0.46172360639968574,-0.02162955871488705,0.870992073820078,0.000749291789789976,-0.12416,-33.293838
11.185,2.0,1.0,1.0,33.2,33.2,33.2,2.8,4.0,2.6975,0.45308638614482566,-0.02202958524594614,0.8752644376517392,0.0005348441802905593,-0.12613,-33.137314
11.185,2.0,1.0,1.0,33.2,33.2,33.2,2.8,4.0,2.7,0.44433856331944904,-0.02243734909553576,0.8794807897384318,0.00031073081234877923,-0.128151,-32.979736
11.185,2.0,1.0,1.0,33.2,33.2,33.2,2.8,4.0,2.7025,0.4354788401170369,-0.022853014865131267,0.8836390723684335,7.654441994135105e-05,-0.130224,-32.821081
11.185,2.0,1.0,1.0,33.2,33.2,33.2,2.8,4.0,2.705,0.42650590863482735,-0.02327675028865162,0.8877371568430371,-0.00016814170173260626,-0.132352,-32.661326
11.185,2.0,1.0,1.0,33.2,33.2,33.2,2.8,4.0,2.7075,0.4174184514047922,-0.023708726210508672,0.8917728407915289,-0.00042377477349182704,-0.134535,-32.500448
11.185,2.0,1.0,1.0,33.2,33.2,33.2,2.8,4.0,2.71,0.4082151419778164,-0.024149116551782323,0.8957438453680825,-0.0006908236787985308,-0.136777,-32.338423
11.185,2.0,1.0,1.0,33.2,33.2,33.2,2.8,4.0,2.7125,0.398894645565014,-0.024598098262931623,0.8996478123240741,-0.0009697801849257833,-0.139079,-32.175224
11.185,2.0,1.0,1.0,33.2,33.2,33.2,2.8,4.0,2.715,0.38945561974044235,-0.025055851261255653,0.9034823009488548,-0.00126116024426002,-0.141444,-32.010828
11.185,2.0,1.0,1.0,33.2,33.2,33.2,2.8,4.0,2.7175,0.3798967152098042,-0.025522558351100868,0.907244784871507,-0.001565505381808994,-0.143874,-31.845207
11.185,2.0,1.0,1.0,33.2,33.2,33.2,2.8,4.0,2.72,0.3702165766501306,-0.02599840512456276,0.9109326487155628,-0.001883384175509145,-0.14637,-31.678334
11.185,2.0,1.0,1.0,33.2,33.2,33.2,2.8,4.0,2.7225,0.3604138436258138,-0.026483579840154012,0.9145431845980665,-0.0022153938365013248,-0.148937,-31.510182
11.185,2.0,1.0,1.0,33.2,33.2,33.2,2.8,4.0,2.725,0.3504871515868691,-0.026978273276593124,0.9180735884636758,-0.002562161897171932,-0.151576,-31.340721
11.185,2.0,1.0,1.0,33.2,33.2,33.2,2.8,4.0,2.7275,0.3404351329557491,-0.027482678558516896,0.9215209562438157,-0.002924348015450772,-0.154291,-31.169922
11.185,2.0,1.0,1.0,33.2,33.2,33.2,2.8,4.0,2.73,0.3302564183096576,-0.027996990950513403,0.9248822798300602,-0.0033026459046150594,-0.157083,-30.997755
11.185,2.0,1.0,1.0,33.2,33.2,33.2,2.8,4.0,2.7325,0.31994963766587037,-0.028521407615420775,0.9281544428500899,-0.0036977853986872545,-0.159958,-30.824187
11.185,2.0,1.0,1.0,33.2,33.2,33.2,2.8,4.0,2.735,0.30951342187830855,-0.029056127332318785,0.9313342162335853,-0.004110534664434387,-0.162917,-30.649187
11.185,2.0,1.0,1.0,33.2,33.2,33.2,2.8,4.0,2.7375,0.2989464041543378,-0.029601350169056316,0.9344182535543899,-0.004541702571991833,-0.165964,-30.47272
11.185,2.0,1.0,1.0,33.2,33.2,33.2,2.8,4.0,2.74,0.28824722170164974,-0.030157277103492083,0.9374030861341025,-0.004992141237252654,-0.169103,-30.294751
11.185,2.0,1.0,1.0,33.2,33.2,33.2,2.8,4.0,2.7425,0.2774145175160135,-0.03072410958687108,0.9402851178910041,-0.005462748750399474,-0.172337,-30.115246
11.185,2.0,1.0,1.0,33.2,33.2,33.2,2.8,4.0,2.745,0.2664469423217668,-0.03130204904189827,0.9430606199167982,-0.0059544721063184165,-0.175672,-29.934167
11.185,2.0,1.0,1.0,33.2,33.2,33.2,2.8,4.0,2.7475,0.25534315667811425,-0.031891296287090545,0.9457257247621108,-0.006468310354142849,-0.17911,-29.751476
11.185,2.0,1.0,1.0,33.2,33.2,33.2,2.8,4.0,2.75,0.244101833265635,-0.0324920508778706,0.948276420409974,-0.0070053179848421,-0.182657,-29.567132
11.185,2.0,1.0,1.0,33.2,33.2,33.2,2.8,4.0,2.7525,0.2327216593689335,-0.03310451035358776,0.9507085439146135,-0.0075666085776161405,-0.186317,-29.381096
11.185,2.0,1.0,1.0,33.2,33.2,33.2,2.8,4.0,2.755,0.22120133957308125,-0.03372886937819024,0.9530177746807701,-0.008153358727902939,-0.190096,-29.193324
11.185,2.0,1.0,1.0,33.2,33.2,33.2,2.8,4.0,2.7575,0.20953959869339975,-0.03436531876060224,0.9551996273564569,-0.008766812282074047,-0.193999,-29.003773
11.185,2.0,1.0,1.0,33.2,33.2,33.2,2.8,4.0,2.76,0.19773518496039338,-0.03501404433893868,0.9572494443094495,-0.009408284906409483,-0.198031,-28.812397
11.185,2.0,1.0,1.0,33.2,33.2,33.2,2.8,4.0,2.7625,0.18578687348406395,-0.03567522571049227,0.9591623876549676,-0.010079169020739432,-0.202199,-28.619149
11.185,2.0,1.0,1.0,33.2,33.2,33.2,2.8,4.0,2.765,0.17369347002473423,-0.03634903478689486,0.9609334307987892,-0.01078093913024641,-0.206508,-28.423979
11.185,2.0,1.0,1.0,33.2,33.2,33.2,2.8,4.0,2.7675,0.16145381510071471,-0.03703563415094321,0.9625573494565037,-0.011515157592375246,-0.210967,-28.226837
11.185,2.0,1.0,1.0,33.2,33.2,33.2,2.8,4.0,2.77,0.14906678846685462,-0.03773517518822249,0.9640287121056594,-0.01228348085964412,-0.215582,-28.027671
11.185,2.0,1.0,1.0,33.2,33.2,33.2,2.8,4.0,2.7725,0.13653131400225632,-0.0384477959627841,0.9653418698231562,-0.013087666243430475,-0.220361,-27.826424
11.185,2.0,1.0,1.0,33.2,33.2,33.2,2.8,4.0,2.775,0.12384636505030555,-0.039173618801655,0.9664909454553281,-0.013929579248575786,-0.225313,-27.623041
11.185,2.0,1.0,1.0,33.2,33.2,33.2,2.8,4.0,2.7775,0.11101097025975686,-0.03991274754776773,0.967469822062693,-0.014811201533971575,-0.230445,-27.417462
11.185,2.0,1.0,1.0,33.2,33.2,33.2,2.8,4.0,2.78,0.09802421998205411,-0.0406652644348872,0.9682721305752353,-0.015734639560222703,-0.235768,-27.209625
11.185,2.0,1.0,1.0,33.2,33.2,33.2,2.8,4.0,2.7825,0.08488527328755908,-0.04143122653112134,0.968891236587264,-0.016702133992100056,-0.241292,-26.999466
11.185,2.0,1.0,1.0,33.2,33.2,33.2,2.8,4.0,2.785,0.07159336567190869,-0.04221066168948214,0.9693202262132761,-0.01771606993088867,-0.247027,-26.786918
11.185,2.0,1.0,1.0,33.2,33.2,33.2,2.8,4.0,2.7875,0.05814781753380543,-0.043003563934490015,0.9695518909177422,-0.018778988059983175,-0.252986,-26.571912
11.185,2.0,1.0,1.0,33.2,33.2,33.2,2.8,4.0,2.79,0.0445480435170979,-0.04380988820276961,0.9695787112222091,-0.01989359679629957,-0.25918,-26.354375
11.185,2.0,1.0,1.0,33.2,33.2,33.2,2.8,4.0,2.7925,0.03079356282361449,-0.04462954434266169,0.9693928391824952,-0.02106278555035464,-0.265624,-26.134231
11.185,2.0,1.0,1.0,33.2,33.2,33.2,2.8,4.0,2.795,0.016884010618932948,-0.04546239026275087,0.9689860795168681,-0.022289639209357386,-0.272331,-25.911401
11.185,2.0,1.0,1.0,33.2,33.2,33.2,2.8,4.0,2.7975,0.0028191506718623824,-0.046308224101451585,0.9683498692528251,-0.023577453970465078,-0.279317,-25.685803
11.185,2.0,1.0,1.0,33.2,33.2,33.2,2.8,4.0,2.8,-0.01140111061003429,-0.047166775268936104,0.9674752557452801,-0.024929754665662395,-0.2866,-25.45735
11.185,2.0,1.0,1.0,33.2,33.2,33.2,2.8,4.0,2.8025,-0.025776708561018644,-0.04803769418811425,0.9663528729024594,-0.02635031373564562,-0.294196,-25.225952
11.185,2.0,1.0,1.0,33.2,33.2,33.2,2.8,4.0,2.805,-0.04030740283606817,-0.048920540532387,0.9649729154373744,-0.0278431720278226,-0.302127,-24.991516
11.185,2.0,1.0,1.0,33.2,33.2,33.2,2.8,4.0,2.8075,-0.05499275793493835,-0.04981476972363098,0.9633251109422997,-0.029412661613234022,-0.310412,-24.753941
11.185,2.0,1.0,1.0,33.2,33.2,33.2,2.8,4.0,2.81,-0.06983212137648931,-0.050719717413284585,0.9613986895609585,-0.031063430839030168,-0.319076,-24.513126
11.185,2.0,1.0,1.0,33.2,33.2,33.2,2.8,4.0,2.8125,-0.0848245991788187,-0.0516345816212391,0.959182351007997,-0.0328004718572558,-0.328144,-24.268961
11.185,2.0,1.0,1.0,33.2,33.2,33.2,2.8,4.0,2.815,-0.09996902824199132,-0.052558402149963615,0.956664228657623,-0.03462915089725456,-0.337643,-24.021334
11.185,2.0,1.0,1.0,33.2,33.2,33.2,2.8,4.0,2.8175,-0.11526394516017523,-0.053490036823037844,0.9538318503928928,-0.03655524157808384,-0.347602,-23.770124
11.185,2.0,1.0,1.0,33.2,33.2,33.2,2.8,4.0,2.82,-0.13070755090654146,-0.05442813401576886,0.9506720958740017,-0.03858496158897833,-0.358055,-23.515208
11.185,2.0,1.0,1.0,33.2,33.2,33.2,2.8,4.0,2.8225,-0.14629767073455643,-0.0553711008480489,0.9471711498481196,-0.04072501310003621,-0.369037,-23.256455
11.185,2.0,1.0,1.0,33.2,33.2,33.2,2.8,4.0,2.825,-0.16203170851978768,-0.0563170662926753,0.9433144510849903,-0.04298262730170258,-0.380588,-22.993726
11.185,2.0,1.0,1.0,33.2,33.2,33.2,2.8,4.0,2.8275,-0.1779065946229276,-0.057263838311844784,0.9390866364821602,-0.0453656135098302,-0.392751,-22.726877
