1,w,sub_t,h,l1,l2,l3,g1,g2,Freq,S11_re,S21_re,S11_img,S21_img,S11_dB,S21_dB
11.185,2.0,1.0,1.0,34.7,34.9,34.9,3.6,2.7,2.5,0.659095921617494,-0.0160813678610724,0.739392518116989,0.00605834771103397,-0.082829,-35.29716
11.185,2.0,1.0,1.0,34.7,34.9,34.9,3.6,2.7,2.5025,0.6527036971810485,-0.016405403039701,0.7448729369503868,0.006011010179800262,-0.083939,-35.153166
11.185,2.0,1.0,1.0,34.7,34.9,34.9,3.6,2.7,2.505,0.6462266993065523,-0.016736616561554736,0.7503278932601629,0.00595984139817133,-0.085077,-35.008162
11.185,2.0,1.0,1.0,34.7,34.9,34.9,3.6,2.7,2.5075,0.6396640011474606,-0.01707522358536463,0.7557564036331124,0.005904670642906671,-0.086243,-34.862121
11.185,2.0,1.0,1.0,34.7,34.9,34.9,3.6,2.7,2.51,0.6330146617510111,-0.01742144824218022,0.7611574544302654,0.00584531848126816,-0.087437,-34.715016
11.185,2.0,1.0,1.0,34.7,34.9,34.9,3.6,2.7,2.5125,0.6262777257344992,-0.01777552412099256,0.7665300006932189,0.005781596227048483,-0.088661,-34.566819
11.185,2.0,1.0,1.0,34.7,34.9,34.9,3.6,2.7,2.515,0.6194522229426314,-0.018137694786504278,0.7718729649975008,0.005713305355563139,-0.089916,-34.417502
11.185,2.0,1.0,1.0,34.7,34.9,34.9,3.6,2.7,2.5175,0.6125371680841921,-0.018508214331534725,0.7771852362492297,0.005640236873958872,-0.091203,-34.267033
11.185,2.0,1.0,1.0,34.7,34.9,34.9,3.6,2.7,2.52,0.6055315603460161,-0.018887347966769743,0.7824656684209721,0.005562170642815129,-0.092524,-34.115382
11.185,2.0,1.0,1.0,34.7,34.9,34.9,3.6,2.7,2.5225,0.5984343829821239,-0.019275372650802817,0.787713079222304,0.005478874644599621,-0.093879,-33.962517
11.185,2.0,1.0,1.0,34.7,34.9,34.9,3.6,2.7,2.525,0.5912446028755834,-0.01967257776368045,0.7929262487001406,0.005390104194073163,-0.09527,-33.808403
11.185,2.0,1.0,1.0,34.7,34.9,34.9,3.6,2.7,2.5275,0.5839611700704659,-0.020079265827453154,0.7981039177634203,0.005295601085219441,-0.096698,-33.653008
11.185,2.0,1.0,1.0,34.7,34.9,34.9,3.6,2.7,2.53,0.5765830172709682,-0.020495753277552084,0.8032447866261326,0.005195092668689072,-0.098165,-33.496294
11.185,2.0,1.0,1.0,34.7,34.9,34.9,3.6,2.7,2.5325,0.5691090593044763,-0.02092237128916292,0.8083475131621131,0.005088290853095838,-0.099673,-33.338225
11.185,2.0,1.0,1.0,34.7,34.9,34.9,3.6,2.7,2.535,0.561538192544994,-0.02135946666315438,0.8134107111642808,0.004974891022768545,-0.101223,-33.178763
11.185,2.0,1.0,1.0,34.7,34.9,34.9,3.6,2.7,2.5375,0.5538692942930175,-0.021807402776544856,0.8184329485002395,0.004854570863732097,-0.102816,-33.017866
11.185,2.0,1.0,1.0,34.7,34.9,34.9,3.6,2.7,2.54,0.5461012221075038,-0.022266560602960617,0.8234127451552822,0.004726989088764183,-0.104456,-32.855494
11.185,2.0,1.0,1.0,34.7,34.9,34.9,3.6,2.7,2.5425,0.5382328130851164,-0.022737339809057275,0.8283485711528163,0.004591784051323402,-0.106143,-32.691603
11.185,2.0,1.0,1.0,34.7,34.9,34.9,3.6,2.7,2.545,0.5302628830814564,-0.023220159933448566,0.8332388443411354,0.00444857223695781,-0.10788,-32.526149
11.185,2.0,1.0,1.0,34.7,34.9,34.9,3.6,2.7,2.5475,0.5221902258684019,-0.023715461655318893,0.8380819280341643,0.004296946619461499,-0.109669,-32.359084
11.185,2.0,1.0,1.0,34.7,34.9,34.9,3.6,2.7,2.55,0.5140136122210471,-0.024223708160597313,0.8428761284923838,0.004136474867526663,-0.111512,-32.190361
11.185,2.0,1.0,1.0,34.7,34.9,34.9,3.6,2.7,2.5525,0.5057317889270871,-0.024745386614340503,0.8476196922284868,0.003966697385914573,-0.113413,-32.019927
11.185,2.0,1.0,1.0,34.7,34.9,34.9,3.6,2.7,2.555,0.49734347771066756,-0.025281009748833336,0.8523108031204695,0.0037871251732034916,-0.115373,-31.847732
11.185,2.0,1.0,1.0,34.7,34.9,34.9,3.6,2.7,2.5575,0.48884737406190726,-0.025831117577860375,0.8569475793127502,0.0035972374759405774,-0.117395,-31.673718
11.185,2.0,1.0,1.0,34.7,34.9,34.9,3.6,2.7,2.56,0.4802421459623517,-0.026396279248652482,0.8615280698834595,0.003396479216475226,-0.119483,-31.49783
11.185,2.0,1.0,1.0,34.7,34.9,34.9,3.6,2.7,2.5625,0.471526432495554,-0.0269770950441773,0.866050251253329,0.00318425816883831,-0.121639,-31.320006
11.185,2.0,1.0,1.0,34.7,34.9,34.9,3.6,2.7,2.565,0.46269884233081704,-0.027574198549730793,0.8705120233084062,0.002959941853695168,-0.123867,-31.140185
11.185,2.0,1.0,1.0,34.7,34.9,34.9,3.6,2.7,2.5675,0.45375795206686176,-0.028188258999215326,0.8749112052052141,0.002722854119578354,-0.126171,-30.9583
11.185,2.0,1.0,1.0,34.7,34.9,34.9,3.6,2.7,2.57,0.444702304420707,-0.028819983818074563,0.8792455308227978,0.0024722713732060596,-0.128555,-30.774284
11.185,2.0,1.0,1.0,34.7,34.9,34.9,3.6,2.7,2.5725,0.4355304062455016,-0.02947012138160816,0.883512643821301,0.0022074184166276673,-0.131023,-30.588063
11.185,2.0,1.0,1.0,34.7,34.9,34.9,3.6,2.7,2.575,0.42624072635925425,-0.030139464009333226,0.887710092261174,0.0019274638430988407,-0.13358,-30.399564
11.185,2.0,1.0,1.0,34.7,34.9,34.9,3.6,2.7,2.5775,0.4168316931644734,-0.03082885121820737,0.8918353227306997,0.0016315149368261877,-0.136229,-30.208707
11.185,2.0,1.0,1.0,34.7,34.9,34.9,3.6,2.7,2.58,0.40730169203656097,-0.0315391732599064,0.8958856739220986,0.0013186120138947305,-0.138978,-30.015409
11.185,2.0,1.0,1.0,34.7,34.9,34.9,3.6,2.7,2.5825,0.3976490624564154,-0.03227137496997421,0.8998583695878569,0.0009877221325943978,-0.14183,-29.819584
11.185,2.0,1.0,1.0,34.7,34.9,34.9,3.6,2.7,2.585,0.3878720948600953,-0.033026459959553243,0.9037505107988619,0.0006377320907713838,-0.144793,-29.62114
11.185,2.0,1.0,1.0,34.7,34.9,34.9,3.6,2.7,2.5875,0.3779690271754697,-0.033805495183586144,0.9075590674142182,0.00026744061548095556,-0.147873,-29.419982
11.185,2.0,1.0,1.0,34.7,34.9,34.9,3.6,2.7,2.59,0.36793804101267275,-0.034609615922864566,0.9112808686589173,-0.0001244503642379114,-0.151078,-29.216008
11.185,2.0,1.0,1.0,34.7,34.9,34.9,3.6,2.7,2.5925,0.3577772574716759,-0.035440031221109676,0.9149125926894479,-0.0005393454875863746,-0.154414,-29.009112
11.185,2.0,1.0,1.0,34.7,34.9,34.9,3.6,2.7,2.595,0.34748473252662454,-0.036298029822402426,0.91845075500855,-0.0009787669212693289,-0.15789,-28.799182
11.185,2.0,1.0,1.0,34.7,34.9,34.9,3.6,2.7,2.5975,0.33705845194249945,-0.03718498665874857,0.9218916955680494,-0.0014443666773193314,-0.161516,-28.5861
11.185,2.0,1.0,1.0,34.7,34.9,34.9,3.6,2.7,2.6,0.32649632567543563,-0.038102369942332,0.925231564372397,-0.0019379404867468364,-0.165301,-28.36974
11.185,2.0,1.0,1.0,34.7,34.9,34.9,3.6,2.7,2.6025,0.3157961817035275,-0.039051748922055686,0.9284663053643435,-0.002461443459165277,-0.169257,-28.149971
11.185,2.0,1.0,1.0,34.7,34.9,34.9,3.6,2.7,2.605,0.3049557592302797,-0.04003480236921309,0.9315916383371361,-0.003017007797633994,-0.173394,-27.926652
11.185,2.0,1.0,1.0,34.7,34.9,34.9,3.6,2.7,2.6075,0.2939727011982542,-0.041053327862454234,0.9346030385734512,-0.0036069628845388528,-0.177727,-27.699636
11.185,2.0,1.0,1.0,34.7,34.9,34.9,3.6,2.7,2.61,0.2828445460459436,-0.04210925194742967,0.9374957138584625,-0.00423385811005188,-0.18227,-27.468766
11.185,2.0,1.0,1.0,34.7,34.9,34.9,3.6,2.7,2.6125,0.2715687186368716,-0.04320464125133138,0.9402645784511364,-0.004900488881519664,-0.187038,-27.233875
11.185,2.0,1.0,1.0,34.7,34.9,34.9,3.6,2.7,2.615,0.26014252028673435,-0.04434171463658419,0.9429042235216426,-0.005609926332532267,-0.192049,-26.994787
11.185,2.0,1.0,1.0,34.7,34.9,34.9,3.6,2.7,2.6175,0.24856311781269214,-0.04552285648058063,0.9454088834708254,-0.006365551347491976,-0.197322,-26.751312
11.185,2.0,1.0,1.0,34.7,34.9,34.9,3.6,2.7,2.62,0.2368275315294649,-0.04675063116872883,0.9477723974362952,-0.007171093635077444,-0.202879,-26.503251
11.185,2.0,1.0,1.0,34.7,34.9,34.9,3.6,2.7,2.6225,0.22493262212097215,-0.0480277988849611,0.9499881651543399,-0.008030676726937339,-0.208742,-26.250389
11.185,2.0,1.0,1.0,34.7,34.9,34.9,3.6,2.7,2.625,0.212875076325592,-0.04935733277547,0.952049096181764,-0.0089488699523221,-0.214939,-25.992499
11.185,2.0,1.0,1.0,34.7,34.9,34.9,3.6,2.7,2.6275,0.20065139138998564,-0.050742437545319326,0.9539475512796272,-0.009930748652896528,-0.221498,-25.729337
11.185,2.0,1.0,1.0,34.7,34.9,34.9,3.6,2.7,2.63,0.1882578582745152,-0.052186569520164164,0.9556752745125113,-0.010981964164415619,-0.228453,-25.460641
11.185,2.0,1.0,1.0,34.7,34.9,34.9,3.6,2.7,2.6325,0.17569054363711445,-0.05369345816163268,0.9572233143105706,-0.012108825415776054,-0.235842,-25.186131
11.185,2.0,1.0,1.0,34.7,34.9,34.9,3.6,2.7,2.635,0.1629452706891434,-0.05526712895785917,0.9585819313622312,-0.01331839439709256,-0.243704,-24.905508
11.185,2.0,1.0,1.0,34.7,34.9,34.9,3.6,2.7,2.6375,0.15001759911580576,-0.05691192751015518,0.9597404907337037,-0.014618598247333954,-0.252088,-24.618448
11.185,2.0,1.0,1.0,34.7,34.9,34.9,3.6,2.7,2.64,0.1369028043989482,-0.05863254448852919,0.9606873350226162,-0.016018361335055898,-0.261047,-24.324604
11.185,2.0,1.0,1.0,34.7,34.9,34.9,3.6,2.7,2.6425,0.12359585709125218,-0.0604340409122199,0.9614096346149963,-0.017527761486917433,-0.270642,-24.023601
11.185,2.0,1.0,1.0,34.7,34.9,34.9,3.6,2.7,2.645,0.11009140289592363,-0.06232187289726935,0.9618932101858894,-0.01915821550217879,-0.280942,-23.715035
11.185,2.0,1.0,1.0,34.7,34.9,34.9,3.6,2.7,2.6475,0.09638374484562863,-0.06430191455913285,0.9621223214100664,-0.020922700334678943,-0.292027,-23.398467
11.185,2.0,1.0,1.0,34.7,34.9,34.9,3.6,2.7,2.65,0.0824668295070007,-0.06638047710326994,0.9620794143600554,-0.022836017901824275,-0.303989,-23.073424
11.185,2.0,1.0,1.0,34.7,34.9,34.9,3.6,2.7,2.6525,0.06833424004766137,-0.06856432119159865,0.961744818172263,-0.02491511349065776,-0.316933,-22.739391
11.185,2.0,1.0,1.0,34.7,34.9,34.9,3.6,2.7,2.655,0.053979200315407434,-0.07086065830749763,0.9610963791382142,-0.027179460301955637,-0.330983,-22.395808
11.185,2.0,1.0,1.0,34.7,34.9,34.9,3.6,2.7,2.6575,0.0393945959770383,-0.07327713486503984,0.9601090172706567,-0.02965152597113702,-0.346284,-22.042067
11.185,2.0,1.0,1.0,34.7,34.9,34.9,3.6,2.7,2.66,0.024573021517576933,-0.07582178993539111,0.9587541864003906,-0.03235734114643153,-0.363003,-21.677504
11.185,2.0,1.0,1.0,34.7,34.9,34.9,3.6,2.7,2.6625,0.009506865912959038,-0.07850297327100944,0.9569992137175318,-0.035327195670054407,-0.38134,-21.301392
11.185,2.0,1.0,1.0,34.7,34.9,34.9,3.6,2.7,2.665,-0.005811544333594996,-0.08132920415953378,0.9548064880475341,-0.038596494954067535,-0.401532,-20.912937
11.185,2.0,1.0,1.0,34.7,34.9,34.9,3.6,2.7,2.6675,-0.021389717442587764,-0.08430894256962912,0.9521324576335304,-0.04220681821452232,-0.423861,-20.511269
11.185,2.0,1.0,1.0,34.7,34.9,34.9,3.6,2.7,2.67,-0.03723464371051799,-0.08745023058953592,0.9489263872873657,-0.04620723186045655,-0.448668,-20.095434
11.185,2.0,1.0,1.0,34.7,34.9,34.9,3.6,2.7,2.6725,-0.053352258616464365,-0.09076014204512335,0.9451288109236786,-0.05065592612621061,-0.476363,-19.664385
11.185,2.0,1.0,1.0,34.7,34.9,34.9,3.6,2.7,2.675,-0.06974663353515803,-0.0942439479200775,0.9406695981934983,-0.055622261555078836,-0.507448,-19.21697
11.185,2.0,1.0,1.0,34.7,34.9,34.9,3.6,2.7,2.6775,-0.08641876230854434,-0.09790385934006776,0.9354655329408083,-0.06118933449355185,-0.542538,-18.751926
11.185,2.0,1.0,1.0,34.7,34.9,34.9,3.6,2.7,2.68,-0.10336474546198611,-0.10173713990237161,0.9294172770584395,-0.06745719683742406,-0.582398,-18.267869
11.185,2.0,1.0,1.0,34.7,34.9,34.9,3.6,2.7,2.6825,-0.12057307187430327,-0.10573327165720005,0.922405568472559,-0.07454689240254088,-0.627982,-17.763285
11.185,2.0,1.0,1.0,34.7,34.9,34.9,3.6,2.7,2.685,-0.13802054041586265,-0.10986969310164472,0.9142864831796081,-0.08260549352727582,-0.680494,-17.236527
11.185,2.0,1.0,1.0,34.7,34.9,34.9,3.6,2.7,2.6875,-0.155666120646803,-0.114105370458693,0.904885594449865,-0.0918123202716803,-0.741467,-16.685821
11.185,2.0,1.0,1.0,34.7,34.9,34.9,3.6,2.7,2.69,-0.1734416750373634,-0.11837106525871298,0.8939909227676308,-0.10238646402473553,-0.812874,-16.109279
11.185,2.0,1.0,1.0,34.7,34.9,34.9,3.6,2.7,2.6925,-0.19123788607530254,-0.12255454803189293,0.8813447629073361,-0.11459553875628817,-0.897276,-15.504945
11.185,2.0,1.0,1.0,34.7,34.9,34.9,3.6,2.7,2.695,-0.20888285626198183,-0.1264780793564903,0.8666349558106967,-0.1287650825734857,-0.998032,-14.870869
11.185,2.0,1.0,1.0,34.7,34.9,34.9,3.6,2.7,2.6975,-0.22610957461063722,-0.129864124334303,0.8494872600667964,-0.14528689536638448,-1.119587,-14.205254
11.185,2.0,1.0,1.0,34.7,34.9,34.9,3.6,2.7,2.7,-0.2425067345093128,-0.1322834420275836,0.829462799678687,-0.1646221614326974,-1.267852,-13.506713
11.185,2.0,1.0,1.0,34.7,34.9,34.9,3.6,2.7,2.7025,-0.25744553060549574,-0.1330776890593794,0.8060693149702439,-0.1872902063621494,-1.450712,-12.774706
11.185,2.0,1.0,1.0,34.7,34.9,34.9,3.6,2.7,2.705,-0.26997438565237564,-0.13124788160176631,0.7788042068430793,-0.21382396236275938,-1.678603,-12.010271
11.185,2.0,1.0,1.0,34.7,34.9,34.9,3.6,2.7,2.7075,-0.27867825307749516,-0.12530487136200563,0.7472641421178795,-0.24465546107335873,-1.964983,-11.217218
11.185,2.0,1.0,1.0,34.7,34.9,34.9,3.6,2.7,2.71,-0.2815201494351428,-0.11309994382963044,0.7113822657228285,-0.27986674638294806,-2.326079,-10.404006
11.185,2.0,1.0,1.0,34.7,34.9,34.9,3.6,2.7,2.7125,-0.2757432918623078,-0.09171751321019107,0.671881704160833,-0.31871189344430656,-2.77811,-9.586493
11.185,2.0,1.0,1.0,34.7,34.9,34.9,3.6,2.7,2.715,-0.2580462433114714,-0.057653524815528025,0.6310173922110531,-0.35883223558291505,-3.327612,-8.791481
11.185,2.0,1.0,1.0,34.7,34.9,34.9,3.6,2.7,2.7175,-0.22544149502895405,-0.007713893819013298,0.5934858411697731,-0.39528829319992953,-3.946418,-8.060067
11.185,2.0,1.0,1.0,34.7,34.9,34.9,3.6,2.7,2.72,-0.17723100963681293,0.05890341793722146,0.5668227532420366,-0.42012250869110046,-4.525959,-7.447938
11.185,2.0,1.0,1.0,34.7,34.9,34.9,3.6,2.7,2.7225,-0.11771373181861335,0.13773655478517913,0.5598731938463698,-0.42395009067244016,-4.850347,-7.017911
11.185,2.0,1.0,1.0,34.7,34.9,34.9,3.6,2.7,2.725,-0.057286876830454185,0.21785835115633817,0.5784651271859754,-0.4005162423963142,-4.712071,-6.821966
11.185,2.0,1.0,1.0,34.7,34.9,34.9,3.6,2.7,2.7275,-0.009001926154298016,0.28546969070811506,0.6207584143960237,-0.35163702993359985,-4.140635,-6.879464
11.185,2.0,1.0,1.0,34.7,34.9,34.9,3.6,2.7,2.73,0.018048708756641507,0.3308810330115657,0.6772834452586313,-0.2872191380025022,-3.381508,-7.167506
11.185,2.0,1.0,1.0,34.7,34.9,34.9,3.6,2.7,2.7325,0.02248912798757896,0.35252883021346176,0.7363373861601629,-0.21959800446496003,-2.654414,-7.632113
11.185,2.0,1.0,1.0,34.7,34.9,34.9,3.6,2.7,2.735,0.008826560949976697,0.35509018455516095,0.7893724632479667,-0.1578322811186653,-2.053818,-8.210229
11.185,2.0,1.0,1.0,34.7,34.9,34.9,3.6,2.7,2.7375,-0.01661695779859979,0.34520203104218955,0.8325356259498109,-0.1060401775855606,-1.590214,-8.846926
11.185,2.0,1.0,1.0,34.7,34.9,34.9,3.6,2.7,2.74,-0.0484292123270556,0.32857235383562644,0.8653919796928105,-0.06472169836851199,-1.242163,-9.502058
11.185,2.0,1.0,1.0,34.7,34.9,34.9,3.6,2.7,2.7425,-0.08291278296989427,0.3091135806757962,0.8891586836915957,-0.03261590251676426,-0.982815,-10.149554
11.185,2.0,1.0,1.0,34.7,34.9,34.9,3.6,2.7,2.745,-0.11786946336273396,0.28915911404346534,0.9055223994863838,-0.00795165036406177,-0.789048,-10.773979
11.185,2.0,1.0,1.0,34.7,34.9,34.9,3.6,2.7,2.7475,-0.152129870026293,0.26995481274922783,0.9160784892021567,0.010955792329377743,-0.643198,-11.367031
11.185,2.0,1.0,1.0,34.7,34.9,34.9,3.6,2.7,2.75,-0.185149116937375,0.25208423046986,0.922143386615479,0.0255028592260792,-0.53239,-11.924862
11.185,2.0,1.0,1.0,34.7,34.9,34.9,3.6,2.7,2.7525,-0.21673296390565738,0.23575766876533966,0.9247372912211608,0.03677689632021137,-0.447394,-12.446266
11.185,2.0,1.0,1.0,34.7,34.9,34.9,3.6,2.7,2.755,-0.2468714681213718,0.22098826127847312,0.9246271264723087,0.045600037152016,-0.38161,-12.931528
11.185,2.0,1.0,1.0,34.7,34.9,34.9,3.6,2.7,2.7575,-0.2756439148485718,0.20769288838373312,0.9223813404236997,0.05258626136066664,-0.330295,-13.381717
11.185,2.0,1.0,1.0,34.7,34.9,34.9,3.6,2.7,2.76,-0.3031667289705442,0.19574764360388489,0.9184189817708504,0.058192818739102974,-0.29001,-13.79827
11.185,2.0,1.0,1.0,34.7,34.9,34.9,3.6,2.7,2.7625,-0.32956604994593053,0.1850171565222192,0.9130486666632323,0.06276121787988734,-0.258239,-14.182742
11.185,2.0,1.0,1.0,34.7,34.9,34.9,3.6,2.7,2.765,-0.354964038782357,0.17536932172871567,0.9064979017861778,0.06654817090070314,-0.233117,-14.536664
11.185,2.0,1.0,1.0,34.7,34.9,34.9,3.6,2.7,2.7675,-0.37947265371801736,0.1666820657774295,0.8989345948495782,0.06974837237476572,-0.213252,-14.861468
11.185,2.0,1.0,1.0,34.7,34.9,34.9,3.6,2.7,2.77,-0.4031913858685376,0.15884587534373557,0.8904826541935397,0.07251109147140508,-0.19759,-15.158444
11.185,2.0,1.0,1.0,34.7,34.9,34.9,3.6,2.7,2.7725,-0.4262070179688678,0.15176414640016753,0.881233256903436,0.0749522312381491,-0.185327,-15.428724
11.185,2.0,1.0,1.0,34.7,34.9,34.9,3.6,2.7,2.775,-0.4485943510175562,0.1453524792809487,0.8712529877978265,0.07716311978901859,-0.175846,-15.673274
11.185,2.0,1.0,1.0,34.7,34.9,34.9,3.6,2.7,2.7775,-0.47041733342704306,0.13953752389593532,0.8605897278852679,0.07921696179746048,-0.168668,-15.892894
11.185,2.0,1.0,1.0,34.7,34.9,34.9,3.6,2.7,2.78,-0.4917302974554133,0.13425569131676562,0.8492769213610178,0.08117361896375395,-0.163422,-16.088223
11.185,2.0,1.0,1.0,34.7,34.9,34.9,3.6,2.7,2.7825,-0.5125791554972761,0.12945188966029914,0.8373366670425116,0.08308319769352332,-0.159815,-16.259741
11.185,2.0,1.0,1.0,34.7,34.9,34.9,3.6,2.7,2.785,-0.5330024886039441,0.12507835603507675,0.8247819486928618,0.08498878624863969,-0.157622,-16.407777
11.185,2.0,1.0,1.0,34.7,34.9,34.9,3.6,2.7,2.7875,-0.5530325016508955,0.12109361012971386,0.8116182251483569,0.08692858795789081,-0.156667,-16.532512
11.185,2.0,1.0,1.0,34.7,34.9,34.9,3.6,2.7,2.79,-0.5726958406991886,0.11746153083372354,0.7978445345401961,0.08893763042661458,-0.156814,-16.633979
11.185,2.0,1.0,1.0,34.7,34.9,34.9,3.6,2.7,2.7925,-0.5920142776375916,0.11415054501396843,0.7834542189847428,0.0910491847558164,-0.157962,-16.712067
11.185,2.0,1.0,1.0,34.7,34.9,34.9,3.6,2.7,2.795,-0.6110052702785662,0.11113291153264453,0.7684353409754817,0.09329599771732683,-0.160039,-16.766516
11.185,2.0,1.0,1.0,34.7,34.9,34.9,3.6,2.7,2.7975,-0.6296824054727272,0.10838408051665276,0.7527708360655859,0.09571141964641486,-0.162998,-16.79692
11.185,2.0,1.0,1.0,34.7,34.9,34.9,3.6,2.7,2.8,-0.6480557298858407,0.10588210581365799,0.736438425142389,0.09833049891340595,-0.166815,-16.802714
11.185,2.0,1.0,1.0,34.7,34.9,34.9,3.6,2.7,2.8025,-0.666131968386568,0.1036070861953654,0.7194102912535479,0.10119110868184733,-0.171488,-16.783173
11.185,2.0,1.0,1.0,34.7,34.9,34.9,3.6,2.7,2.805,-0.6839146234707969,0.10154060713823485,0.7016525085416818,0.10433517256024291,-0.177037,-16.737395
11.185,2.0,1.0,1.0,34.7,34.9,34.9,3.6,2.7,2.8075,-0.7014039402341558,0.09966514881086494,0.6831241925007714,0.10781006277225921,-0.183507,-16.664288
11.185,2.0,1.0,1.0,34.7,34.9,34.9,3.6,2.7,2.81,-0.7185967089458998,0.09796341575291731,0.6637763194683097,0.11167025845274481,-0.19097,-16.562552
11.185,2.0,1.0,1.0,34.7,34.9,34.9,3.6,2.7,2.8125,-0.735485859298229,0.0964175274325306,0.643550136564936,0.115979374400797,-0.199529,-16.430653
11.185,2.0,1.0,1.0,34.7,34.9,34.9,3.6,2.7,2.815,-0.75205977363133,0.09500798288812361,0.62237504793101,0.12081270510272396,-0.209323,-16.266792
11.185,2.0,1.0,1.0,34.7,34.9,34.9,3.6,2.7,2.8175,-0.7683012054289758,0.09371227116927214,0.6001658144916117,0.1262604798642112,-0.220544,-16.068866
11.185,2.0,1.0,1.0,34.7,34.9,34.9,3.6,2.7,2.82,-0.7841856249780681,0.09250293244015374,0.5768188358980869,0.13243209987959356,-0.233442,-15.834418
11.185,2.0,1.0,1.0,34.7,34.9,34.9,3.6,2.7,2.8225,-0.7996787105301819,0.09134476538483545,0.5522071847729958,0.13946173840848058,-0.248354,-15.560577
11.185,2.0,1.0,1.0,34.7,34.9,34.9,3.6,2.7,2.825,-0.8147325328890737,0.09019069491011612,0.5261739200180313,0.14751584832821948,-0.265728,-15.243973
11.185,2.0,1.0,1.0,34.7,34.9,34.9,3.6,2.7,2.8275,-0.829279694178605,0.08897550573859182,0.49852299560810454,0.15680336350926663,-0.286175,-14.880641
11.185,2.0,1.0,1.0,34.7,34.9,34.9,3.6,2.7,2.83,-0.8432241854115117,0.08760611150145091,0.46900677208570296,0.16758974059499276,-0.310529,-14.465885
