1,w,sub_t,h,l1,l2,l3,g1,g2,Freq,S11_re,S21_re,S11_img,S21_img,S11_dB,S21_dB
11.185,2.0,1.0,1.0,34.0,34.5,34.5,3.5,2.0,2.5,0.782789640921207,-0.0117851033371708,0.610202470525225,0.00792458472822756,-0.065167,-36.953206
11.185,2.0,1.0,1.0,34.0,34.5,34.5,3.5,2.0,2.5025,0.7782135050432386,-0.0120261734833951,0.6158938514608093,0.007946381063095042,-0.065896,-36.824092
11.185,2.0,1.0,1.0,34.0,34.5,34.5,3.5,2.0,2.505,0.7735722697143386,-0.01227212508139208,0.6215777166961951,0.007966719486595062,-0.066639,-36.694367
11.185,2.0,1.0,1.0,34.0,34.5,34.5,3.5,2.0,2.5075,0.7688652342473773,-0.012523080451976686,0.6272536068378405,0.007985531724830968,-0.067398,-36.564019
11.185,2.0,1.0,1.0,34.0,34.5,34.5,3.5,2.0,2.51,0.7640916864238394,-0.012779165969921876,0.6329210484599415,0.008002746465186174,-0.068173,-36.433031
11.185,2.0,1.0,1.0,34.0,34.5,34.5,3.5,2.0,2.5125,0.7592509022685596,-0.013040512234014387,0.6385795536324681,0.008018289201378497,-0.068964,-36.301389
11.185,2.0,1.0,1.0,34.0,34.5,34.5,3.5,2.0,2.515,0.75434214581782,-0.013307254245826022,0.6442286194311188,0.008032082069305635,-0.069773,-36.169078
11.185,2.0,1.0,1.0,34.0,34.5,34.5,3.5,2.0,2.5175,0.7493646688804646,-0.013579531597728714,0.6498677274282986,0.00804404367304625,-0.070599,-36.036083
11.185,2.0,1.0,1.0,34.0,34.5,34.5,3.5,2.0,2.52,0.7443177107916246,-0.01385748867071725,0.6554963431642045,0.008054088900329366,-0.071443,-35.902387
11.185,2.0,1.0,1.0,34.0,34.5,34.5,3.5,2.0,2.5225,0.7392004981586617,-0.014141274842645836,0.6611139155969978,0.008062128726730578,-0.072305,-35.767974
11.185,2.0,1.0,1.0,34.0,34.5,34.5,3.5,2.0,2.525,0.7340122445988543,-0.014431044707524907,0.6667198765310243,0.008068070007793492,-0.073187,-35.632828
11.185,2.0,1.0,1.0,34.0,34.5,34.5,3.5,2.0,2.5275,0.7287521504683504,-0.014726958306572415,0.6723136400219357,0.008071815258208983,-0.074088,-35.496931
11.185,2.0,1.0,1.0,34.0,34.5,34.5,3.5,2.0,2.53,0.7234194025818619,-0.01502918137176165,0.6778946017575017,0.008073262417113973,-0.075009,-35.360266
11.185,2.0,1.0,1.0,34.0,34.5,34.5,3.5,2.0,2.5325,0.7180131739225233,-0.01533788558266456,0.6834621384128161,0.008072304598492926,-0.075952,-35.222815
11.185,2.0,1.0,1.0,34.0,34.5,34.5,3.5,2.0,2.535,0.7125326233413007,-0.01565324883744425,0.689015606978517,0.008068829825579903,-0.076916,-35.084559
11.185,2.0,1.0,1.0,34.0,34.5,34.5,3.5,2.0,2.5375,0.7069768952452833,-0.015975455538915495,0.6945543440605139,0.008062720748065506,-0.077903,-34.94548
11.185,2.0,1.0,1.0,34.0,34.5,34.5,3.5,2.0,2.54,0.7013451192741305,-0.016304696896659886,0.7000776651496435,0.008053854340810093,-0.078913,-34.805557
11.185,2.0,1.0,1.0,34.0,34.5,34.5,3.5,2.0,2.5425,0.6956364099638864,-0.01664117124625463,0.7055848638595246,0.008042101582653255,-0.079947,-34.664771
11.185,2.0,1.0,1.0,34.0,34.5,34.5,3.5,2.0,2.545,0.6898498663973125,-0.016985084386755597,0.7110752111307715,0.008027327113784443,-0.081005,-34.523101
11.185,2.0,1.0,1.0,34.0,34.5,34.5,3.5,2.0,2.5475,0.6839845718398117,-0.01733664993766078,0.7165479543995636,0.00800938887000523,-0.082089,-34.380526
11.185,2.0,1.0,1.0,34.0,34.5,34.5,3.5,2.0,2.55,0.6780395933599276,-0.01769608971667451,0.7220023167284464,0.00798813769206399,-0.083199,-34.237025
11.185,2.0,1.0,1.0,34.0,34.5,34.5,3.5,2.0,2.5525,0.6720139814333465,-0.018063634139693356,0.7274374958970131,0.007963416908079283,-0.084337,-34.092575
11.185,2.0,1.0,1.0,34.0,34.5,34.5,3.5,2.0,2.555,0.6659067695291891,-0.018439522644548942,0.7328526634499926,0.007935061886887286,-0.085503,-33.947152
11.185,2.0,1.0,1.0,34.0,34.5,34.5,3.5,2.0,2.5575,0.6597169736773102,-0.018824004140157596,0.7382469637000112,0.007902899559949442,-0.086698,-33.800734
11.185,2.0,1.0,1.0,34.0,34.5,34.5,3.5,2.0,2.56,0.6534435920151979,-0.01921733748286254,0.7436195126820874,0.007866747909234651,-0.087923,-33.653295
11.185,2.0,1.0,1.0,34.0,34.5,34.5,3.5,2.0,2.5625,0.647085604312935,-0.0196197919818931,0.748969397056671,0.00782641541824791,-0.08918,-33.504811
11.185,2.0,1.0,1.0,34.0,34.5,34.5,3.5,2.0,2.565,0.640641971474548,-0.02003164793602125,0.7542956729577549,0.007781700483106842,-0.09047,-33.355256
11.185,2.0,1.0,1.0,34.0,34.5,34.5,3.5,2.0,2.5675,0.6341116350139322,-0.020453197203664213,0.7595973647822764,0.007732390780269028,-0.091793,-33.204602
11.185,2.0,1.0,1.0,34.0,34.5,34.5,3.5,2.0,2.57,0.6274935165033544,-0.02088474380886435,0.7648734639166966,0.007678262587181894,-0.093151,-33.052823
11.185,2.0,1.0,1.0,34.0,34.5,34.5,3.5,2.0,2.5725,0.6207865169923683,-0.02132660458577927,0.7701229273962652,0.0076190800517589845,-0.094546,-32.899889
11.185,2.0,1.0,1.0,34.0,34.5,34.5,3.5,2.0,2.575,0.6139895163947792,-0.021779109864529935,0.7753446764920588,0.00755459440617797,-0.095979,-32.745772
11.185,2.0,1.0,1.0,34.0,34.5,34.5,3.5,2.0,2.5775,0.6071013728410677,-0.022242604201496263,0.7805375952204193,0.0074845431200414,-0.097451,-32.590441
11.185,2.0,1.0,1.0,34.0,34.5,34.5,3.5,2.0,2.58,0.6001209219934576,-0.02271744715740526,0.7857005287689066,0.007408648987434326,-0.098964,-32.433863
11.185,2.0,1.0,1.0,34.0,34.5,34.5,3.5,2.0,2.5825,0.5930469763205284,-0.023204014126844252,0.7908322818323015,0.007326619141848457,-0.100519,-32.276008
11.185,2.0,1.0,1.0,34.0,34.5,34.5,3.5,2.0,2.585,0.5858783243280131,-0.02370269722313806,0.7959316168515616,0.007238143992312181,-0.102119,-32.116841
11.185,2.0,1.0,1.0,34.0,34.5,34.5,3.5,2.0,2.5875,0.5786137297420745,-0.024213906222869407,0.8009972521479126,0.0071428960733607464,-0.103765,-31.956328
11.185,2.0,1.0,1.0,34.0,34.5,34.5,3.5,2.0,2.59,0.571251930641036,-0.024738069574692434,0.8060278599434555,0.007040528800691252,-0.105459,-31.794431
11.185,2.0,1.0,1.0,34.0,34.5,34.5,3.5,2.0,2.5925,0.563791638531132,-0.02527563547749298,0.8110220642587931,0.0069306751234637885,-0.107203,-31.631115
11.185,2.0,1.0,1.0,34.0,34.5,34.5,3.5,2.0,2.595,0.5562315373614553,-0.02582707303339239,0.8159784386771433,0.006812946063216849,-0.108999,-31.466341
11.185,2.0,1.0,1.0,34.0,34.5,34.5,3.5,2.0,2.5975,0.5485702824727755,-0.026392873481579416,0.8208955039633196,0.006686929128248804,-0.11085,-31.300067
11.185,2.0,1.0,1.0,34.0,34.5,34.5,3.5,2.0,2.6,0.540806499474434,-0.026973551519482383,0.8257717255246627,0.006552186591063385,-0.112758,-31.132253
11.185,2.0,1.0,1.0,34.0,34.5,34.5,3.5,2.0,2.6025,0.5329387830429515,-0.027569646718376774,0.830605510699581,0.006408253615060705,-0.114726,-30.962855
11.185,2.0,1.0,1.0,34.0,34.5,34.5,3.5,2.0,2.605,0.5249656956353485,-0.028181725041161818,0.8353952058577687,0.006254636215058902,-0.116756,-30.791829
11.185,2.0,1.0,1.0,34.0,34.5,34.5,3.5,2.0,2.6075,0.5168857661095462,-0.028810380470733397,0.8401390932943229,0.006090809034426122,-0.118851,-30.619128
11.185,2.0,1.0,1.0,34.0,34.5,34.5,3.5,2.0,2.61,0.5086974882434423,-0.029456236758148183,0.8448353878979388,0.005916212919559205,-0.121015,-30.444703
11.185,2.0,1.0,1.0,34.0,34.5,34.5,3.5,2.0,2.6125,0.5003993191434614,-0.030119949300605447,0.8494822335710195,0.005730252270127093,-0.12325,-30.268504
11.185,2.0,1.0,1.0,34.0,34.5,34.5,3.5,2.0,2.615,0.491989677532472,-0.03080220716019208,0.8540776993768907,0.005532292140867542,-0.125561,-30.090478
11.185,2.0,1.0,1.0,34.0,34.5,34.5,3.5,2.0,2.6175,0.4834669419060144,-0.03150373523533067,0.8586197753862886,0.005321655067729471,-0.12795,-29.910571
11.185,2.0,1.0,1.0,34.0,34.5,34.5,3.5,2.0,2.62,0.4748294485446753,-0.03222529659796893,0.8631063681918557,0.005097617587745991,-0.130422,-29.728725
11.185,2.0,1.0,1.0,34.0,34.5,34.5,3.5,2.0,2.6225,0.4660754893692958,-0.032967695010736764,0.8675352960554699,0.004859406418126703,-0.132982,-29.544882
11.185,2.0,1.0,1.0,34.0,34.5,34.5,3.5,2.0,2.625,0.457203309624425,-0.0337317776396001,0.871904283648723,0.00460619425561045,-0.135633,-29.358979
11.185,2.0,1.0,1.0,34.0,34.5,34.5,3.5,2.0,2.6275,0.4482111053739968,-0.034518437978954215,0.876210956341766,0.004337095152018475,-0.138381,-29.170951
11.185,2.0,1.0,1.0,34.0,34.5,34.5,3.5,2.0,2.63,0.43909702079172996,-0.03532861900763798,0.8804528339898167,0.00405115941610013,-0.141231,-28.980732
11.185,2.0,1.0,1.0,34.0,34.5,34.5,3.5,2.0,2.6325,0.4298591452270694,-0.03616331659601045,0.8846273241598696,0.0037473679850356886,-0.144189,-28.78825
11.185,2.0,1.0,1.0,34.0,34.5,34.5,3.5,2.0,2.635,0.42049551002570834,-0.03702358318603354,0.8887317147323359,0.003424626201213258,-0.14726,-28.593431
11.185,2.0,1.0,1.0,34.0,34.5,34.5,3.5,2.0,2.6375,0.4110040850818195,-0.037910531768226646,0.8927631658033399,0.0030817569209557485,-0.150452,-28.396198
11.185,2.0,1.0,1.0,34.0,34.5,34.5,3.5,2.0,2.64,0.40138277509702,-0.038825340181431876,0.8967187008029864,0.0027174928715289347,-0.15377,-28.196471
11.185,2.0,1.0,1.0,34.0,34.5,34.5,3.5,2.0,2.6425,0.3916294155189569,-0.03976925576351135,0.9005951967328288,0.002330468160776659,-0.157224,-27.994163
11.185,2.0,1.0,1.0,34.0,34.5,34.5,3.5,2.0,2.645,0.38174176813003796,-0.040743600383404584,0.9043893734117527,0.0019192088298096738,-0.160821,-27.789186
11.185,2.0,1.0,1.0,34.0,34.5,34.5,3.5,2.0,2.6475,0.371717516254453,-0.04174977588736944,0.9080977816031722,0.0014821223229660745,-0.164569,-27.581447
11.185,2.0,1.0,1.0,34.0,34.5,34.5,3.5,2.0,2.65,0.3615542595491165,-0.0427892699946783,0.9117167898773807,0.0010174857303626818,-0.16848,-27.370847
11.185,2.0,1.0,1.0,34.0,34.5,34.5,3.5,2.0,2.6525,0.3512495083417514,-0.04386366268049056,0.9152425700406349,0.0005234326362520179,-0.172562,-27.157284
11.185,2.0,1.0,1.0,34.0,34.5,34.5,3.5,2.0,2.655,0.34080067747682424,-0.0449746330859933,0.9186710809364599,-2.0616195062919105e-06,-0.176828,-26.940647
11.185,2.0,1.0,1.0,34.0,34.5,34.5,3.5,2.0,2.6575,0.3302050796278908,-0.04612396699807937,0.9219980503939744,-0.0005611964899831924,-0.18129,-26.720824
11.185,2.0,1.0,1.0,34.0,34.5,34.5,3.5,2.0,2.66,0.3194599180329681,-0.04731356494265557,0.9252189550619443,-0.0011563648386946311,-0.185961,-26.497693
11.185,2.0,1.0,1.0,34.0,34.5,34.5,3.5,2.0,2.6625,0.30856227860824637,-0.04854545093692896,0.9283289978245872,-0.0017901739273831077,-0.190856,-26.271127
11.185,2.0,1.0,1.0,34.0,34.5,34.5,3.5,2.0,2.665,0.2975091213949382,-0.04982178194639053,0.9313230824446894,-0.0024654691254554525,-0.195992,-26.040993
11.185,2.0,1.0,1.0,34.0,34.5,34.5,3.5,2.0,2.6675,0.28629727129492394,-0.05114485809129441,0.9341957850196341,-0.0031853607519291022,-0.201386,-25.807147
11.185,2.0,1.0,1.0,34.0,34.5,34.5,3.5,2.0,2.67,0.2749234080534499,-0.052517133644646774,0.9369413217646144,-0.003953254531513977,-0.207058,-25.56944
11.185,2.0,1.0,1.0,34.0,34.5,34.5,3.5,2.0,2.6725,0.26338405545243054,-0.0539412288582891,0.9395535125521586,-0.004772886230910383,-0.213029,-25.327714
11.185,2.0,1.0,1.0,34.0,34.5,34.5,3.5,2.0,2.675,0.2516755696868639,-0.05541994264453567,0.9420257395351794,-0.005648361142485796,-0.219323,-25.081799
11.185,2.0,1.0,1.0,34.0,34.5,34.5,3.5,2.0,2.6775,0.2397941269108975,-0.05695626612658084,0.9443509000584581,-0.00658419920380881,-0.225966,-24.831517
11.185,2.0,1.0,1.0,34.0,34.5,34.5,3.5,2.0,2.68,0.22773570996120143,-0.05855339704956468,0.9465213529162034,-0.007585386687545858,-0.232988,-24.576678
11.185,2.0,1.0,1.0,34.0,34.5,34.5,3.5,2.0,2.6825,0.21549609429612487,-0.06021475501314875,0.9485288568355625,-0.00865743557252389,-0.24042,-24.317082
11.185,2.0,1.0,1.0,34.0,34.5,34.5,3.5,2.0,2.685,0.2030708332332068,-0.06194399744210301,0.9503644998506661,-0.009806451920231236,-0.2483,-24.052512
11.185,2.0,1.0,1.0,34.0,34.5,34.5,3.5,2.0,2.6875,0.190455242629982,-0.0637450361488199,0.952018617970291,-0.0110392148402903,-0.256667,-23.78274
11.185,2.0,1.0,1.0,34.0,34.5,34.5,3.5,2.0,2.69,0.17764438524034373,-0.06562205425416123,0.9534807012236695,-0.012363267944254089,-0.265567,-23.507524
11.185,2.0,1.0,1.0,34.0,34.5,34.5,3.5,2.0,2.6925,0.16463305510019255,-0.06757952311139721,0.9547392847797073,-0.013787025572957428,-0.27505,-23.226601
11.185,2.0,1.0,1.0,34.0,34.5,34.5,3.5,2.0,2.695,0.15141576246455554,-0.06962221870956295,0.9557818223577912,-0.015319896555501547,-0.285174,-22.939694
11.185,2.0,1.0,1.0,34.0,34.5,34.5,3.5,2.0,2.6975,0.13798672005108015,-0.07175523679992753,0.9565945385620368,-0.016972428839088664,-0.296004,-22.646505
11.185,2.0,1.0,1.0,34.0,34.5,34.5,3.5,2.0,2.7,0.12433983166634999,-0.07398400566822315,0.9571622560481085,-0.018756479045067043,-0.307612,-22.346714
11.185,2.0,1.0,1.0,34.0,34.5,34.5,3.5,2.0,2.7025,0.11046868473528632,-0.07631429503230565,0.9574681925386896,-0.020685411891427627,-0.320083,-22.039978
11.185,2.0,1.0,1.0,34.0,34.5,34.5,3.5,2.0,2.705,0.09636654886740258,-0.07875221893304937,0.9574937215974718,-0.02277433551788301,-0.333511,-21.725931
11.185,2.0,1.0,1.0,34.0,34.5,34.5,3.5,2.0,2.7075,0.08202638344278745,-0.08130422963975721,0.9572180896985243,-0.02504038010964496,-0.348007,-21.404175
11.185,2.0,1.0,1.0,34.0,34.5,34.5,3.5,2.0,2.71,0.06744085837886447,-0.0839770984174424,0.9566180804211123,-0.027503028906309825,-0.363697,-21.074285
11.185,2.0,1.0,1.0,34.0,34.5,34.5,3.5,2.0,2.7125,0.05260239387818029,-0.08677787737064034,0.9556676144764175,-0.030184512784881722,-0.380725,-20.735801
11.185,2.0,1.0,1.0,34.0,34.5,34.5,3.5,2.0,2.715,0.03750322724610984,-0.08971383429986889,0.954337271630502,-0.033110282221324026,-0.399261,-20.388228
11.185,2.0,1.0,1.0,34.0,34.5,34.5,3.5,2.0,2.7175,0.02213551807468829,-0.0927923493147543,0.9525937173050121,-0.03630957368364133,-0.419501,-20.03103
11.185,2.0,1.0,1.0,34.0,34.5,34.5,3.5,2.0,2.72,0.006491507602721272,-0.09602075745696774,0.9503990125712255,-0.03981609153156777,-0.441678,-19.663629
11.185,2.0,1.0,1.0,34.0,34.5,34.5,3.5,2.0,2.7225,-0.009436245556436292,-0.09940611523945805,0.9477097812469464,-0.043668831447841824,-0.466062,-19.285399
11.185,2.0,1.0,1.0,34.0,34.5,34.5,3.5,2.0,2.725,-0.02565452206400395,-0.1029548599965252,0.9444762017034488,-0.04791307745638755,-0.492977,-18.895663
11.185,2.0,1.0,1.0,34.0,34.5,34.5,3.5,2.0,2.7275,-0.04216894668969593,-0.10667231808061751,0.9406407836724183,-0.052601611808003455,-0.522805,-18.49369
11.185,2.0,1.0,1.0,34.0,34.5,34.5,3.5,2.0,2.73,-0.05898327858435588,-0.11056199950537013,0.9361368818052823,-0.05779618543499676,-0.556006,-18.078689
11.185,2.0,1.0,1.0,34.0,34.5,34.5,3.5,2.0,2.7325,-0.07609839751181255,-0.11462459007797977,0.930886888236734,-0.06356930603011716,-0.593135,-17.649805
11.185,2.0,1.0,1.0,34.0,34.5,34.5,3.5,2.0,2.735,-0.09351085787871857,-0.11885651364994089,0.9248000367494079,-0.07000641027930665,-0.634866,-17.206121
11.185,2.0,1.0,1.0,34.0,34.5,34.5,3.5,2.0,2.7375,-0.11121082623960801,-0.1232478813590233,0.9177697432309309,-0.0772084944680788,-0.68202,-16.746652
11.185,2.0,1.0,1.0,34.0,34.5,34.5,3.5,2.0,2.74,-0.12917913624051341,-0.12777956363730908,0.9096704049714937,-0.08529527958273282,-0.735611,-16.270346
11.185,2.0,1.0,1.0,34.0,34.5,34.5,3.5,2.0,2.7425,-0.14738307606751141,-0.1324190027997553,0.9003535929701603,-0.09440897516877625,-0.796897,-15.776097
11.185,2.0,1.0,1.0,34.0,34.5,34.5,3.5,2.0,2.745,-0.1657703510286013,-0.1371142130141591,0.8896436122341989,-0.10471866522993545,-0.86745,-15.262751
11.185,2.0,1.0,1.0,34.0,34.5,34.5,3.5,2.0,2.7475,-0.18426041594388506,-0.14178516865910487,0.8773325041931324,-0.11642524038878956,-0.949254,-14.729134
11.185,2.0,1.0,1.0,34.0,34.5,34.5,3.5,2.0,2.75,-0.202732021654647,-0.146311434958536,0.863174776838446,-0.129766589692671,-1.04483,-14.174094
11.185,2.0,1.0,1.0,34.0,34.5,34.5,3.5,2.0,2.7525,-0.22100534112231654,-0.15051442074283847,0.8468825705740127,-0.14502234498392252,-1.157409,-13.59657
11.185,2.0,1.0,1.0,34.0,34.5,34.5,3.5,2.0,2.755,-0.23881642734735803,-0.1541320268242136,0.8281227768475709,-0.1625166661616647,-1.29116,-12.995702
11.185,2.0,1.0,1.0,34.0,34.5,34.5,3.5,2.0,2.7575,-0.25578107438360637,-0.15678279179111684,0.8065191259406661,-0.1826160659311558,-1.451494,-12.371004
11.185,2.0,1.0,1.0,34.0,34.5,34.5,3.5,2.0,2.76,-0.2713446713842159,-0.1579161666505058,0.7816649445291457,-0.2057166075647928,-1.645453,-11.722636
11.185,2.0,1.0,1.0,34.0,34.5,34.5,3.5,2.0,2.7625,-0.284715112551212,-0.1567460315185104,0.7531568731175668,-0.2322102560034087,-1.882186,-11.051806
11.185,2.0,1.0,1.0,34.0,34.5,34.5,3.5,2.0,2.765,-0.29477907464622743,-0.15216781125926115,0.7206671174991761,-0.2624129429584968,-2.173441,-10.361386
11.185,2.0,1.0,1.0,34.0,34.5,34.5,3.5,2.0,2.7675,-0.3000118714698031,-0.14266939618132277,0.6840818203396836,-0.29642699787463456,-2.533852,-9.656783
11.185,2.0,1.0,1.0,34.0,34.5,34.5,3.5,2.0,2.77,-0.29841461740385183,-0.1262694422582223,0.6437425350473193,-0.3339013355977426,-2.980387,-8.947144
11.185,2.0,1.0,1.0,34.0,34.5,34.5,3.5,2.0,2.7725,-0.28755852543655397,-0.10056235539630558,0.600823584164107,-0.3736570830849702,-3.529312,-8.246842
11.185,2.0,1.0,1.0,34.0,34.5,34.5,3.5,2.0,2.775,-0.2648850810714036,-0.06301751937434208,0.5578277076877028,-0.41319650378488015,-4.186924,-7.577007
11.185,2.0,1.0,1.0,34.0,34.5,34.5,3.5,2.0,2.7775,-0.2284603362727666,-0.01172905431685397,0.5190329886136518,-0.44826148749386796,-4.926983,-6.966399
11.185,2.0,1.0,1.0,34.0,34.5,34.5,3.5,2.0,2.78,-0.17827334183655213,0.05329570937756549,0.49045907816634493,-0.4728705300605445,-5.649021,-6.450335
11.185,2.0,1.0,1.0,34.0,34.5,34.5,3.5,2.0,2.7825,-0.11770089756739088,0.12868562454977384,0.47873308629649786,-0.48044812024241945,-6.143243,-6.066172
11.185,2.0,1.0,1.0,34.0,34.5,34.5,3.5,2.0,2.785,-0.05402824830300324,0.2071954586047809,0.4886498352807566,-0.4662473495523513,-6.167275,-5.844982
11.185,2.0,1.0,1.0,34.0,34.5,34.5,3.5,2.0,2.7875,0.0031771251017636156,0.279326812698823,0.5205198961292734,-0.42997746589068303,-5.671092,-5.802027
11.185,2.0,1.0,1.0,34.0,34.5,34.5,3.5,2.0,2.79,0.045514799473517296,0.336753369028528,0.5694017451819701,-0.37655676077074884,-4.863963,-5.93123
11.185,2.0,1.0,1.0,34.0,34.5,34.5,3.5,2.0,2.7925,0.06873651491930508,0.3752780441146251,0.6271487967602956,-0.3140730552566064,-4.000729,-6.207389
11.185,2.0,1.0,1.0,34.0,34.5,34.5,3.5,2.0,2.795,0.07326651139025828,0.3953406541659803,0.6857050967797207,-0.2505114277754071,-3.227952,-6.594563
11.185,2.0,1.0,1.0,34.0,34.5,34.5,3.5,2.0,2.7975,0.06257129091033774,0.40039391712177713,0.7393648609630975,-0.191515984012822,-2.591831,-7.055477
11.185,2.0,1.0,1.0,34.0,34.5,34.5,3.5,2.0,2.8,0.041071872086965625,0.39483015845425784,0.7852302441993477,-0.13994107728286972,-2.088194,-7.557863
11.185,2.0,1.0,1.0,34.0,34.5,34.5,3.5,2.0,2.8025,0.012761580491399287,0.38261125281927755,0.822545456583573,-0.0965158746557699,-1.695757,-8.076927
11.185,2.0,1.0,1.0,34.0,34.5,34.5,3.5,2.0,2.805,-0.019323918203431465,0.3667450695166091,0.8517889246681658,-0.060746782848131724,-1.391126,-8.595167
11.185,2.0,1.0,1.0,34.0,34.5,34.5,3.5,2.0,2.8075,-0.053110912643299306,0.3492830955752092,0.8739731762916575,-0.031612290576717134,-1.154029,-9.101019
11.185,2.0,1.0,1.0,34.0,34.5,34.5,3.5,2.0,2.81,-0.08728773190111923,0.33151996757122787,0.8902304517129245,-0.0079736687490275,-0.968398,-9.587295
11.185,2.0,1.0,1.0,34.0,34.5,34.5,3.5,2.0,2.8125,-0.121079039677949,0.314218022290447,0.901612575607344,0.0112270611951351,-0.821977,-10.049837
11.185,2.0,1.0,1.0,34.0,34.5,34.5,3.5,2.0,2.815,-0.1540613057293112,0.29779063605374395,0.9090169181093242,0.026894198493996713,-0.705572,-10.4865
11.185,2.0,1.0,1.0,34.0,34.5,34.5,3.5,2.0,2.8175,-0.18603086290001533,0.28243320010469375,0.91317550352155,0.039767973538238535,-0.612317,-10.896424
11.185,2.0,1.0,1.0,34.0,34.5,34.5,3.5,2.0,2.82,-0.2169160265231652,0.26821029014571046,0.9146709049432765,0.050440632485463155,-0.537072,-11.279544
11.185,2.0,1.0,1.0,34.0,34.5,34.5,3.5,2.0,2.8225,-0.24672099711992396,0.25511126710213766,0.9139604997759713,0.059380743948913815,-0.475975,-11.636263
11.185,2.0,1.0,1.0,34.0,34.5,34.5,3.5,2.0,2.825,-0.2754910665780779,0.24308473277151663,0.9114007916973309,0.06695752596699142,-0.426098,-11.967239
11.185,2.0,1.0,1.0,34.0,34.5,34.5,3.5,2.0,2.8275,-0.3032915327622263,0.2320593867176569,0.9072686457829257,0.07346208658778328,-0.385209,-12.273246
11.185,2.0,1.0,1.0,34.0,34.5,34.5,3.5,2.0,2.83,-0.33019522038237376,0.221956349923036,0.9017786691032285,0.07912483284407025,-0.35159,-12.555086
