1,w,sub_t,h,l1,l2,l3,g1,g2,Freq,S11_re,S21_re,S11_img,S21_img,S11_dB,S21_dB
11.185,2.0,1.0,1.0,33.7,34.9,34.9,4.1,3.9,2.5,0.824196731241497,-0.00679666247210866,0.554233752167148,0.00385379644823381,-0.059138,-42.143402
11.185,2.0,1.0,1.0,33.7,34.9,34.9,4.1,3.9,2.5025,0.8203099307730867,-0.006940013225229934,0.5598371542755538,0.0038635979102432183,-0.059795,-42.000314
11.185,2.0,1.0,1.0,33.7,34.9,34.9,4.1,3.9,2.505,0.8163662765106239,-0.007086608469401525,0.56543746326495,0.0038726844495350376,-0.060467,-41.856345
11.185,2.0,1.0,1.0,33.7,34.9,34.9,4.1,3.9,2.5075,0.8123651510628137,-0.0072365532651955606,0.5710343736129658,0.003881023235904744,-0.061154,-41.711466
11.185,2.0,1.0,1.0,33.7,34.9,34.9,4.1,3.9,2.51,0.8083059245763132,-0.007389957580302101,0.5766275703446783,0.003888579751157532,-0.061857,-41.565646
11.185,2.0,1.0,1.0,33.7,34.9,34.9,4.1,3.9,2.5125,0.8041879543340328,-0.007546936587446522,0.5822167286882096,0.0038953176774027655,-0.062576,-41.418856
11.185,2.0,1.0,1.0,33.7,34.9,34.9,4.1,3.9,2.515,0.800010584330523,-0.007707610984419884,0.5878015137143693,0.0039011987761849677,-0.063312,-41.271062
11.185,2.0,1.0,1.0,33.7,34.9,34.9,4.1,3.9,2.5175,0.7957731448225476,-0.00787210733815671,0.5933815799592289,0.003906182757556521,-0.064066,-41.122233
11.185,2.0,1.0,1.0,33.7,34.9,34.9,4.1,3.9,2.52,0.7914749518527268,-0.008040558454990528,0.5989565710284532,0.003910227138096754,-0.064837,-40.972334
11.185,2.0,1.0,1.0,33.7,34.9,34.9,4.1,3.9,2.5225,0.7871153067439611,-0.00821310377943377,0.604526119182043,0.003913287086768127,-0.065627,-40.821329
11.185,2.0,1.0,1.0,33.7,34.9,34.9,4.1,3.9,2.525,0.7826934955620594,-0.008389889824072246,0.6100898448980712,0.003915315257372054,-0.066437,-40.669181
11.185,2.0,1.0,1.0,33.7,34.9,34.9,4.1,3.9,2.5275,0.7782087885437597,-0.00857107063343453,0.6156473564137915,0.003916261606221682,-0.067267,-40.515853
11.185,2.0,1.0,1.0,33.7,34.9,34.9,4.1,3.9,2.53,0.7736604394870233,-0.008756808284999869,0.6211982492423617,0.003916073193484419,-0.068117,-40.361304
11.185,2.0,1.0,1.0,33.7,34.9,34.9,4.1,3.9,2.5325,0.769047685100137,-0.008947273430847686,0.6267421056632161,0.003914693966460572,-0.06899,-40.205494
11.185,2.0,1.0,1.0,33.7,34.9,34.9,4.1,3.9,2.535,0.7643697443057891,-0.009142645883832843,0.6322784941839226,0.003912064522852319,-0.069885,-40.048379
11.185,2.0,1.0,1.0,33.7,34.9,34.9,4.1,3.9,2.5375,0.7596258174958685,-0.009343115252597857,0.6378069689710899,0.003908121851835983,-0.070803,-39.889914
11.185,2.0,1.0,1.0,33.7,34.9,34.9,4.1,3.9,2.54,0.7548150857322363,-0.009548881630215503,0.6433270692476369,0.0039027990504752357,-0.071746,-39.730054
11.185,2.0,1.0,1.0,33.7,34.9,34.9,4.1,3.9,2.5425,0.7499367098882047,-0.009760156341796706,0.6488383186534082,0.0038960250126985215,-0.072715,-39.568749
11.185,2.0,1.0,1.0,33.7,34.9,34.9,4.1,3.9,2.545,0.7449898297248349,-0.009977162757010936,0.6543402245657503,0.0038877240877041534,-0.07371,-39.40595
11.185,2.0,1.0,1.0,33.7,34.9,34.9,4.1,3.9,2.5475,0.7399735628954947,-0.010200137174157341,0.6598322773762618,0.003877815704243899,-0.074732,-39.241603
11.185,2.0,1.0,1.0,33.7,34.9,34.9,4.1,3.9,2.55,0.7348870038713134,-0.010429329783208716,0.6653139497194541,0.0038662139567618614,-0.075784,-39.075652
11.185,2.0,1.0,1.0,33.7,34.9,34.9,4.1,3.9,2.5525,0.7297292227793281,-0.010665005716136468,0.6707846956485003,0.0038528271488198185,-0.076865,-38.908042
11.185,2.0,1.0,1.0,33.7,34.9,34.9,4.1,3.9,2.555,0.7244992641440724,-0.01090744619383471,0.6762439497526431,0.0038375572886108033,-0.077978,-38.738711
11.185,2.0,1.0,1.0,33.7,34.9,34.9,4.1,3.9,2.5575,0.7191961455222479,-0.011156949780107644,0.6816911262100966,0.003820299530635109,-0.079124,-38.567596
11.185,2.0,1.0,1.0,33.7,34.9,34.9,4.1,3.9,2.56,0.7138188560188088,-0.011413833754492154,0.6871256177694416,0.003800941556770176,-0.080305,-38.394632
11.185,2.0,1.0,1.0,33.7,34.9,34.9,4.1,3.9,2.5625,0.708366354671308,-0.0116784356171812,0.692546794651536,0.00377936288898731,-0.081522,-38.219748
11.185,2.0,1.0,1.0,33.7,34.9,34.9,4.1,3.9,2.565,0.7028375686876462,-0.011951114741021597,0.697954003362861,0.003755434124829515,-0.082777,-38.042873
11.185,2.0,1.0,1.0,33.7,34.9,34.9,4.1,3.9,2.5675,0.6972313915204369,-0.01223225418751778,0.7033465654098676,0.003729016085436679,-0.084071,-37.86393
11.185,2.0,1.0,1.0,33.7,34.9,34.9,4.1,3.9,2.57,0.6915466807589428,-0.012522262706023125,0.7087237759023989,0.00369995886435139,-0.085408,-37.682839
11.185,2.0,1.0,1.0,33.7,34.9,34.9,4.1,3.9,2.5725,0.6857822558169776,-0.012821576937888544,0.7140849020324282,0.0036681007635181954,-0.086789,-37.499515
11.185,2.0,1.0,1.0,33.7,34.9,34.9,4.1,3.9,2.575,0.6799368953921964,-0.013130663850323906,0.7194291814122759,0.0036332671007498906,-0.088216,-37.31387
11.185,2.0,1.0,1.0,33.7,34.9,34.9,4.1,3.9,2.5775,0.6740093346687566,-0.013450023428178684,0.7247558202539581,0.00359526887041318,-0.089691,-37.12581
11.185,2.0,1.0,1.0,33.7,34.9,34.9,4.1,3.9,2.58,0.6679982622313759,-0.013780191655845582,0.7300639913684006,0.0035539012361070136,-0.091219,-36.935237
11.185,2.0,1.0,1.0,33.7,34.9,34.9,4.1,3.9,2.5825,0.6619023166541632,-0.01412174382613243,0.7353528319597806,0.003508941830576432,-0.092801,-36.742046
11.185,2.0,1.0,1.0,33.7,34.9,34.9,4.1,3.9,2.585,0.6557200827222643,-0.014475298218347915,0.74062144118612,0.0034601488339086454,-0.094441,-36.546128
11.185,2.0,1.0,1.0,33.7,34.9,34.9,4.1,3.9,2.5875,0.6494500872380606,-0.014841520194147721,0.7458688774523573,0.0034072587960553404,-0.096142,-36.347365
11.185,2.0,1.0,1.0,33.7,34.9,34.9,4.1,3.9,2.59,0.6430907943563557,-0.015221126767054597,0.751094155396217,0.0033499841637421148,-0.097907,-36.145634
11.185,2.0,1.0,1.0,33.7,34.9,34.9,4.1,3.9,2.5925,0.6366406003843718,-0.015614891710204262,0.7562962425201858,0.00328801046464659,-0.099742,-35.940804
11.185,2.0,1.0,1.0,33.7,34.9,34.9,4.1,3.9,2.595,0.6300978279722921,-0.016023651277020413,0.7614740554143734,0.0032209930930831134,-0.10165,-35.732738
11.185,2.0,1.0,1.0,33.7,34.9,34.9,4.1,3.9,2.5975,0.6234607196081533,-0.01644831062148936,0.7666264555048294,0.003148553630987725,-0.103636,-35.521286
11.185,2.0,1.0,1.0,33.7,34.9,34.9,4.1,3.9,2.6,0.6167274303168457,-0.01688985101884415,0.7717522442494266,0.0030702756253324238,-0.105705,-35.306292
11.185,2.0,1.0,1.0,33.7,34.9,34.9,4.1,3.9,2.6025,0.6098960194462842,-0.017349338004226555,0.7768501576883104,0.0029856997276806463,-0.107864,-35.087589
11.185,2.0,1.0,1.0,33.7,34.9,34.9,4.1,3.9,2.605,0.602964441403985,-0.017827930566814372,0.7819188602374333,0.0028943180827550414,-0.110118,-34.864998
11.185,2.0,1.0,1.0,33.7,34.9,34.9,4.1,3.9,2.6075,0.595930535183653,-0.01832689156064293,0.7869569375910042,0.002795567829768881,-0.112474,-34.638329
11.185,2.0,1.0,1.0,33.7,34.9,34.9,4.1,3.9,2.61,0.5887920124931239,-0.018847599521738666,0.7919628885707474,0.0026888235517809255,-0.11494,-34.407378
11.185,2.0,1.0,1.0,33.7,34.9,34.9,4.1,3.9,2.6125,0.5815464442610826,-0.019391562115229192,0.7969351157252647,0.0025733884730653974,-0.117525,-34.171926
11.185,2.0,1.0,1.0,33.7,34.9,34.9,4.1,3.9,2.615,0.5741912452592058,-0.019960431477055722,0.8018719144397782,0.0024484841606310075,-0.120237,-33.931739
11.185,2.0,1.0,1.0,33.7,34.9,34.9,4.1,3.9,2.6175,0.5667236565271165,-0.02055602176435048,0.8067714602627808,0.002313238431219234,-0.123088,-33.686566
11.185,2.0,1.0,1.0,33.7,34.9,34.9,4.1,3.9,2.62,0.5591407252278975,-0.021180329288403073,0.8116317940885822,0.002166671096285748,-0.126088,-33.436135
11.185,2.0,1.0,1.0,33.7,34.9,34.9,4.1,3.9,2.6225,0.5514392814894326,-0.021835555676857226,0.8164508047495204,0.0020076770905766345,-0.129252,-33.180154
11.185,2.0,1.0,1.0,33.7,34.9,34.9,4.1,3.9,2.625,0.543615911698514,-0.0225241346004001,0.821226208463349,0.00183500641960923,-0.132593,-32.918308
11.185,2.0,1.0,1.0,33.7,34.9,34.9,4.1,3.9,2.6275,0.5356669276065543,-0.02324876270756775,0.8259555244431411,0.0016472402205406544,-0.136128,-32.650256
11.185,2.0,1.0,1.0,33.7,34.9,34.9,4.1,3.9,2.63,0.527588330473182,-0.02401243554419675,0.8306360457994926,0.0014427620500303319,-0.139875,-32.375626
11.185,2.0,1.0,1.0,33.7,34.9,34.9,4.1,3.9,2.6325,0.5193757693107572,-0.024818489397579045,0.8352648046353377,0.0012197232789165125,-0.143856,-32.094016
11.185,2.0,1.0,1.0,33.7,34.9,34.9,4.1,3.9,2.635,0.5110244920913469,-0.02567065020715466,0.8398385299350065,0.0009760011693604298,-0.148095,-31.804989
11.185,2.0,1.0,1.0,33.7,34.9,34.9,4.1,3.9,2.6375,0.5025292885282565,-0.026573090933212765,0.8443535964578369,0.000709147811631678,-0.152618,-31.508067
11.185,2.0,1.0,1.0,33.7,34.9,34.9,4.1,3.9,2.64,0.4938844227346512,-0.027530499084615065,0.848805962330127,0.0004163275718683297,-0.157458,-31.202725
11.185,2.0,1.0,1.0,33.7,34.9,34.9,4.1,3.9,2.6425,0.48508355367704115,-0.02854815649101679,0.8531910923421715,9.42400029343479e-05,-0.16265,-30.888391
11.185,2.0,1.0,1.0,33.7,34.9,34.9,4.1,3.9,2.645,0.47611964086254194,-0.029632033882997285,0.8575038630360541,-0.0002609757667312781,-0.168237,-30.564434
11.185,2.0,1.0,1.0,33.7,34.9,34.9,4.1,3.9,2.6475,0.46698483210304426,-0.030788903437428582,0.8617384444243623,-0.0006538604182744291,-0.174267,-30.230157
11.185,2.0,1.0,1.0,33.7,34.9,34.9,4.1,3.9,2.65,0.45767032945939556,-0.03202647318190635,0.865888151480975,-0.0010897845813770395,-0.180798,-29.884792
11.185,2.0,1.0,1.0,33.7,34.9,34.9,4.1,3.9,2.6525,0.4481662285536524,-0.0333535480610013,0.8699452562053864,-0.0015751390852136392,-0.187897,-29.527484
11.185,2.0,1.0,1.0,33.7,34.9,34.9,4.1,3.9,2.655,0.4384613253150111,-0.0347802235789116,0.8739007478084896,-0.0021175779860760665,-0.195644,-29.157283
11.185,2.0,1.0,1.0,33.7,34.9,34.9,4.1,3.9,2.6575,0.42854288286846487,-0.03631811927196892,0.8777440239959813,-0.0027263316806652635,-0.204136,-28.773128
11.185,2.0,1.0,1.0,33.7,34.9,34.9,4.1,3.9,2.66,0.4183963496767195,-0.03798066083335667,0.8814624898313196,-0.0034126140089682185,-0.213486,-28.373829
11.185,2.0,1.0,1.0,33.7,34.9,34.9,4.1,3.9,2.6625,0.4080050182475565,-0.03978342146159193,0.8850410313287431,-0.0041901567229094844,-0.223835,-27.958046
11.185,2.0,1.0,1.0,33.7,34.9,34.9,4.1,3.9,2.665,0.3973496118740042,-0.0417445347672707,0.8884613173570782,-0.0050759184656610674,-0.235353,-27.524266
11.185,2.0,1.0,1.0,33.7,34.9,34.9,4.1,3.9,2.6675,0.38640778537401044,-0.04388519293638181,0.8917008634534521,-0.006091035671558126,-0.24825,-27.070773
11.185,2.0,1.0,1.0,33.7,34.9,34.9,4.1,3.9,2.67,0.375153525520789,-0.046230243893211266,0.8947317613391279,-0.007262113011116631,-0.262788,-26.595611
11.185,2.0,1.0,1.0,33.7,34.9,34.9,4.1,3.9,2.6725,0.36355643969130774,-0.04880889797674406,0.897518932870665,-0.008622996655444146,-0.279298,-26.096541
11.185,2.0,1.0,1.0,33.7,34.9,34.9,4.1,3.9,2.675,0.35158093115273387,-0.051655544075018406,0.900017698123997,-0.01021724353174523,-0.298201,-25.570991
11.185,2.0,1.0,1.0,33.7,34.9,34.9,4.1,3.9,2.6775,0.3391852845377701,-0.0548106488470588,0.9021703401386086,-0.012101608173275644,-0.320039,-25.01599
11.185,2.0,1.0,1.0,33.7,34.9,34.9,4.1,3.9,2.68,0.32632074243532494,-0.05832165318361132,0.9039011804371517,-0.014351039020588053,-0.345525,-24.428096
11.185,2.0,1.0,1.0,33.7,34.9,34.9,4.1,3.9,2.6825,0.31293077927915824,-0.06224365099972977,0.9051094121208307,-0.017065946000752244,-0.375602,-23.803309
11.185,2.0,1.0,1.0,33.7,34.9,34.9,4.1,3.9,2.685,0.2989510474858171,-0.06663935968021095,0.9056585106612941,-0.020382931588043416,-0.411548,-23.136973
11.185,2.0,1.0,1.0,33.7,34.9,34.9,4.1,3.9,2.6875,0.284311046070898,-0.0715773030742682,0.90536036371188,-0.0244908610703228,-0.455114,-22.423677
11.185,2.0,1.0,1.0,33.7,34.9,34.9,4.1,3.9,2.69,0.26893980065808104,-0.07712586412829905,0.9039512049051478,-0.029655208758125495,-0.508753,-21.657173
11.185,2.0,1.0,1.0,33.7,34.9,34.9,4.1,3.9,2.6925,0.2527805376572923,-0.08333812171586216,0.9010548982644642,-0.036255155021531704,-0.575961,-20.830368
11.185,2.0,1.0,1.0,33.7,34.9,34.9,4.1,3.9,2.695,0.23582524794195228,-0.09021637904361718,0.8961272943849018,-0.044839713026063995,-0.661799,-19.935513
11.185,2.0,1.0,1.0,33.7,34.9,34.9,4.1,3.9,2.6975,0.21819301947605285,-0.09763212658873033,0.8883748722279492,-0.056209576654376585,-0.773689,-18.964854
11.185,2.0,1.0,1.0,33.7,34.9,34.9,4.1,3.9,2.7,0.2003038332753262,-0.1051490512992994,0.8766487160593204,-0.07152322162842076,-0.922477,-17.912391
11.185,2.0,1.0,1.0,33.7,34.9,34.9,4.1,3.9,2.7025,0.18325364628231325,-0.11164216736715729,0.8593567638718947,-0.09238291417698431,-1.1234,-16.778101
11.185,2.0,1.0,1.0,33.7,34.9,34.9,4.1,3.9,2.705,0.1695694052659087,-0.11453356144476103,0.8345944380846817,-0.12069640860489989,-1.394813,-15.577467
11.185,2.0,1.0,1.0,33.7,34.9,34.9,4.1,3.9,2.7075,0.16444276113969958,-0.10854978226699696,0.8011539661795357,-0.15764430414692135,-1.746459,-14.361064
11.185,2.0,1.0,1.0,33.7,34.9,34.9,4.1,3.9,2.71,0.17647088010549913,-0.08499675294947392,0.7618431654189042,-0.20031043266522316,-2.135702,-13.246918
11.185,2.0,1.0,1.0,33.7,34.9,34.9,4.1,3.9,2.7125,0.21343861188081611,-0.036079270669870246,0.7292142656172335,-0.2359078829334502,-2.385913,-12.444739
11.185,2.0,1.0,1.0,33.7,34.9,34.9,4.1,3.9,2.715,0.26885559878163234,0.03146597023589814,0.7238890627184159,-0.24358058280639822,-2.245361,-12.195271
11.185,2.0,1.0,1.0,33.7,34.9,34.9,4.1,3.9,2.7175,0.31751151857706206,0.09202868449858354,0.7533219448538815,-0.21596378923339868,-1.750237,-12.587724
11.185,2.0,1.0,1.0,33.7,34.9,34.9,4.1,3.9,2.72,0.3403989020350325,0.12647373502424106,0.800661312954318,-0.17028296741298135,-1.209443,-13.468657
11.185,2.0,1.0,1.0,33.7,34.9,34.9,4.1,3.9,2.7225,0.33958409657424793,0.13704933919138454,0.8463564480196941,-0.12633687523951523,-0.800664,-14.591261
11.185,2.0,1.0,1.0,33.7,34.9,34.9,4.1,3.9,2.725,0.3253316610704245,0.13422371587690618,0.8825939945770714,-0.09196231144193924,-0.531486,-15.771956
11.185,2.0,1.0,1.0,33.7,34.9,34.9,4.1,3.9,2.7275,0.3054003186035392,0.12586425651902947,0.9093836563324362,-0.0670848270452079,-0.360951,-16.916024
11.185,2.0,1.0,1.0,33.7,34.9,34.9,4.1,3.9,2.73,0.28378475506503986,0.11600561506554932,0.9289311233862501,-0.049432894342736046,-0.252826,-17.985779
11.185,2.0,1.0,1.0,33.7,34.9,34.9,4.1,3.9,2.7325,0.26219842124775916,0.10637065058661058,0.9433543407850968,-0.03684151709993132,-0.183329,-18.971544
11.185,2.0,1.0,1.0,33.7,34.9,34.9,4.1,3.9,2.735,0.24126467799713747,0.09758164428645687,0.9542107278475287,-0.027722225406475506,-0.137987,-19.875551
11.185,2.0,1.0,1.0,33.7,34.9,34.9,4.1,3.9,2.7375,0.22113711402913372,0.0897886730477403,0.9625592652085634,-0.02099528162868267,-0.108075,-20.704376
11.185,2.0,1.0,1.0,33.7,34.9,34.9,4.1,3.9,2.74,0.2017824917070297,0.08295532414490082,0.9691055877048891,-0.015940366744952375,-0.088263,-21.465646
11.185,2.0,1.0,1.0,33.7,34.9,34.9,4.1,3.9,2.7425,0.1831029223299385,0.07698163484010317,0.974320901692937,-0.01207505517844508,-0.075225,-22.166697
11.185,2.0,1.0,1.0,33.7,34.9,34.9,4.1,3.9,2.745,0.16498654881965205,0.07175485231799102,0.9785233437817787,-0.009071920785157287,-0.066835,-22.814104
11.185,2.0,1.0,1.0,33.7,34.9,34.9,4.1,3.9,2.7475,0.14732724106417022,0.06716900708875022,0.9819306838164477,-0.006704931911776553,-0.061701,-23.413561
11.185,2.0,1.0,1.0,33.7,34.9,34.9,4.1,3.9,2.75,0.130031092746655,0.063131258176193,0.984694022293612,-0.0048152131435496,-0.058895,-23.969919
11.185,2.0,1.0,1.0,33.7,34.9,34.9,4.1,3.9,2.7525,0.11301746822460827,0.05956281129510654,0.9869194220213913,-0.0032890774059403396,-0.057784,-24.487274
11.185,2.0,1.0,1.0,33.7,34.9,34.9,4.1,3.9,2.755,0.09621796000854253,0.05639778219897874,0.9886819536586351,-0.002043760302202306,-0.057929,-24.96906
11.185,2.0,1.0,1.0,33.7,34.9,34.9,4.1,3.9,2.7575,0.07957469502257704,0.05358144188831886,0.9900349480649782,-0.001018013370989565,-0.059023,-25.418145
11.185,2.0,1.0,1.0,33.7,34.9,34.9,4.1,3.9,2.76,0.0630385824389445,0.05106843181074679,0.9910161844642952,-0.00016579795596589021,-0.060848,-25.836904
11.185,2.0,1.0,1.0,33.7,34.9,34.9,4.1,3.9,2.7625,0.046567725086458484,0.048821166556370775,0.9916520902711969,0.0005480137864312398,-0.063247,-26.22729
11.185,2.0,1.0,1.0,33.7,34.9,34.9,4.1,3.9,2.765,0.030126056628508306,0.046808482852817405,0.9919606292528191,0.001150618544931782,-0.066107,-26.590885
11.185,2.0,1.0,1.0,33.7,34.9,34.9,4.1,3.9,2.7675,0.013682201034936317,0.04500452922569237,0.9919533092658425,0.0016633809648792907,-0.069349,-26.928947
11.185,2.0,1.0,1.0,33.7,34.9,34.9,4.1,3.9,2.77,-0.002791473091236456,0.043387867853196996,0.991636588192656,0.0021033364789732013,-0.072915,-27.24244
11.185,2.0,1.0,1.0,33.7,34.9,34.9,4.1,3.9,2.7725,-0.019319636732928788,0.04194075517420662,0.9910128604510468,0.0024842849811161105,-0.076764,-27.532064
11.185,2.0,1.0,1.0,33.7,34.9,34.9,4.1,3.9,2.775,-0.035924655309795675,0.04064857002170776,0.9900811447768207,0.0028176005593799013,-0.08087,-27.798278
11.185,2.0,1.0,1.0,33.7,34.9,34.9,4.1,3.9,2.7775,-0.05262714245237681,0.0394993627084057,0.9888375537556412,0.003112842529362811,-0.085217,-28.041309
11.185,2.0,1.0,1.0,33.7,34.9,34.9,4.1,3.9,2.78,-0.06944643679750247,0.03848350357009991,0.9872755988136362,0.0033782268992523477,-0.089796,-28.26117
11.185,2.0,1.0,1.0,33.7,34.9,34.9,4.1,3.9,2.7825,-0.08640102214990934,0.03759341419702962,0.9853863661209014,0.0036210002053303253,-0.094607,-28.457658
11.185,2.0,1.0,1.0,33.7,34.9,34.9,4.1,3.9,2.785,-0.10350890833186986,0.036823368732076055,0.9831585860007427,0.003847746318621568,-0.099655,-28.630368
11.185,2.0,1.0,1.0,33.7,34.9,34.9,4.1,3.9,2.7875,-0.12078798780582023,0.036169356207145446,0.9805786089556251,0.004064649434291475,-0.104949,-28.778681
11.185,2.0,1.0,1.0,33.7,34.9,34.9,4.1,3.9,2.79,-0.13825638167889362,0.03562899804414484,0.9776302939664423,0.004277731837250594,-0.110507,-28.90177
11.185,2.0,1.0,1.0,33.7,34.9,34.9,4.1,3.9,2.7925,-0.1559327879423391,0.03520151772260246,0.9742948083330736,0.004493082487080339,-0.116349,-28.998589
11.185,2.0,1.0,1.0,33.7,34.9,34.9,4.1,3.9,2.795,-0.17383684474112193,0.034887762387950626,0.9705503322508594,0.004717091610370329,-0.122501,-29.067861
11.185,2.0,1.0,1.0,33.7,34.9,34.9,4.1,3.9,2.7975,-0.19198952212087753,0.03469027903507673,0.9663716548925423,0.004956707213791104,-0.128997,-29.108071
11.185,2.0,1.0,1.0,33.7,34.9,34.9,4.1,3.9,2.8,-0.21041355711690038,0.03461345106922567,0.9617296412982843,0.005219731858607692,-0.135876,-29.117446
11.185,2.0,1.0,1.0,33.7,34.9,34.9,4.1,3.9,2.8025,-0.2291339493413088,0.03466370478207507,0.9565905400464945,0.005515182553476888,-0.143186,-29.093929
11.185,2.0,1.0,1.0,33.7,34.9,34.9,4.1,3.9,2.805,-0.2481785375625209,0.03484979991317267,0.9509150894001446,0.005853743963010222,-0.150984,-29.035158
11.185,2.0,1.0,1.0,33.7,34.9,34.9,4.1,3.9,2.8075,-0.26757868240380095,0.035183224422201724,0.9446573628605713,0.006248356544895951,-0.159338,-28.938427
11.185,2.0,1.0,1.0,33.7,34.9,34.9,4.1,3.9,2.81,-0.2873700865515474,0.035678721436885524,0.9377632715379199,0.006714998778416854,-0.168333,-28.80064
11.185,2.0,1.0,1.0,33.7,34.9,34.9,4.1,3.9,2.8125,-0.307593792190322,0.036354986797997,0.930168606986298,0.00727374972051063,-0.178068,-28.61826
11.185,2.0,1.0,1.0,33.7,34.9,34.9,4.1,3.9,2.815,-0.32829740627821197,0.03723558961976105,0.9217964586980705,0.007950260355336655,-0.188667,-28.387231
11.185,2.0,1.0,1.0,33.7,34.9,34.9,4.1,3.9,2.8175,-0.3495366182405181,0.038350186873689684,0.9125537665488747,0.00877782911322101,-0.200284,-28.102888
11.185,2.0,1.0,1.0,33.7,34.9,34.9,4.1,3.9,2.82,-0.37137709191797547,0.039736127078353646,0.9023266557375574,0.009800384958196148,-0.213109,-27.759833
11.185,2.0,1.0,1.0,33.7,34.9,34.9,4.1,3.9,2.8225,-0.39389683341041576,0.041440567542921115,0.8909740259139424,0.01107685959852571,-0.227386,-27.351781
11.185,2.0,1.0,1.0,33.7,34.9,34.9,4.1,3.9,2.825,-0.41718915529890604,0.04352326038137528,0.8783185852424019,0.01268773121614651,-0.243429,-26.871348
11.185,2.0,1.0,1.0,33.7,34.9,34.9,4.1,3.9,2.8275,-0.4413663648192009,0.04606018004630692,0.8641340592953659,0.014745043459482798,-0.261649,-26.309779
