1,w,sub_t,h,l1,l2,l3,g1,g2,Freq,S11_re,S21_re,S11_img,S21_img,S11_dB,S21_dB
11.185,2.0,1.0,1.0,34.0,34.9,34.9,2.2,3.2,2.5,0.774936918434625,-0.0143928167319227,0.618438273930451,0.00948920220028355,-0.074495,-35.269539
11.185,2.0,1.0,1.0,34.0,34.9,34.9,2.2,3.2,2.5025,0.7701811824303637,-0.014707112817645751,0.6241773810088828,0.009524496575429444,-0.075453,-35.128401
11.185,2.0,1.0,1.0,34.0,34.9,34.9,2.2,3.2,2.505,0.7653550621317048,-0.015028632694957064,0.6299098175658256,0.00955813391404449,-0.076432,-34.986426
11.185,2.0,1.0,1.0,34.0,34.9,34.9,2.2,3.2,2.5075,0.7604576608606504,-0.015357587342732194,0.6356351023743477,0.009590018293517586,-0.077435,-34.843593
11.185,2.0,1.0,1.0,34.0,34.9,34.9,2.2,3.2,2.51,0.7554880627617191,-0.015694195722095128,0.6413527372736127,0.009620048707420212,-0.078463,-34.699885
11.185,2.0,1.0,1.0,34.0,34.9,34.9,2.2,3.2,2.5125,0.7504453322366235,-0.016038685149712816,0.6470622064805129,0.009648118763043103,-0.079515,-34.555281
11.185,2.0,1.0,1.0,34.0,34.9,34.9,2.2,3.2,2.515,0.7453285133548233,-0.01639129169188943,0.652762975867476,0.009674116358303822,-0.080592,-34.409761
11.185,2.0,1.0,1.0,34.0,34.9,34.9,2.2,3.2,2.5175,0.7401366292385744,-0.016752260580800378,0.6584544922043356,0.009697923336417537,-0.081696,-34.263303
11.185,2.0,1.0,1.0,34.0,34.9,34.9,2.2,3.2,2.52,0.7348686814209394,-0.017121846654305477,0.6641361823620008,0.009719415116584551,-0.082828,-34.115886
11.185,2.0,1.0,1.0,34.0,34.9,34.9,2.2,3.2,2.5225,0.7295236491751839,-0.01750031482088335,0.6698074524754484,0.009738460298789758,-0.083988,-33.967488
11.185,2.0,1.0,1.0,34.0,34.9,34.9,2.2,3.2,2.525,0.7241004888137973,-0.017887940551345967,0.6754676870634175,0.009754920240641916,-0.085178,-33.818087
11.185,2.0,1.0,1.0,34.0,34.9,34.9,2.2,3.2,2.5275,0.7185981329552958,-0.018285010399113285,0.6811162481019195,0.00976864860398985,-0.086398,-33.667658
11.185,2.0,1.0,1.0,34.0,34.9,34.9,2.2,3.2,2.53,0.7130154897568193,-0.0186918225509617,0.6867524740484783,0.009779490868847444,-0.08765,-33.516179
11.185,2.0,1.0,1.0,34.0,34.9,34.9,2.2,3.2,2.5325,0.7073514421103727,-0.019108687410304512,0.6923756788137411,0.009787283811931478,-0.088935,-33.363623
11.185,2.0,1.0,1.0,34.0,34.9,34.9,2.2,3.2,2.535,0.7016048468004125,-0.01953592821521873,0.6979851506768245,0.0097918549468639,-0.090254,-33.209967
11.185,2.0,1.0,1.0,34.0,34.9,34.9,2.2,3.2,2.5375,0.6957745336203075,-0.019973881693600305,0.7035801511404368,0.009793021922812948,-0.091609,-33.055183
11.185,2.0,1.0,1.0,34.0,34.9,34.9,2.2,3.2,2.54,0.6898593044450078,-0.020422898758015083,0.7091599137214999,0.009790591878040508,-0.093,-32.899246
11.185,2.0,1.0,1.0,34.0,34.9,34.9,2.2,3.2,2.5425,0.6838579322570494,-0.020883345243009773,0.7147236426725938,0.009784360744484279,-0.094429,-32.742126
11.185,2.0,1.0,1.0,34.0,34.9,34.9,2.2,3.2,2.545,0.6777691601228093,-0.02135560268786286,0.7202705116291456,0.009774112499124792,-0.095898,-32.583796
11.185,2.0,1.0,1.0,34.0,34.9,34.9,2.2,3.2,2.5475,0.671591700115682,-0.0218400691679888,0.7257996621768067,0.009759618357473727,-0.097408,-32.424227
11.185,2.0,1.0,1.0,34.0,34.9,34.9,2.2,3.2,2.55,0.6653242321825735,-0.022337160178463357,0.7313102023329959,0.009740635904053663,-0.098961,-32.263388
11.185,2.0,1.0,1.0,34.0,34.9,34.9,2.2,3.2,2.5525,0.6589654029498584,-0.022847309573410007,0.7368012049359627,0.00971690815422864,-0.100559,-32.101248
11.185,2.0,1.0,1.0,34.0,34.9,34.9,2.2,3.2,2.555,0.6525138244645927,-0.023370970565289702,0.7422717059341633,0.009688162541169613,-0.102203,-31.937774
11.185,2.0,1.0,1.0,34.0,34.9,34.9,2.2,3.2,2.5575,0.6459680728664742,-0.023908616788457432,0.7477207025680176,0.009654109821106248,-0.103896,-31.772934
11.185,2.0,1.0,1.0,34.0,34.9,34.9,2.2,3.2,2.56,0.6393266869856689,-0.02446074343170209,0.7531471514353429,0.009614442889302943,-0.105639,-31.606694
11.185,2.0,1.0,1.0,34.0,34.9,34.9,2.2,3.2,2.5625,0.6325881668612215,-0.02502786844486872,0.758549966430942,0.009568835498408935,-0.107434,-31.439017
11.185,2.0,1.0,1.0,34.0,34.9,34.9,2.2,3.2,2.565,0.6257509721743356,-0.025610533825077563,0.7639280165498293,0.009516940869944857,-0.109284,-31.269867
11.185,2.0,1.0,1.0,34.0,34.9,34.9,2.2,3.2,2.5675,0.6188135205903595,-0.026209306988504707,0.769280123542548,0.009458390188701666,-0.111192,-31.099207
11.185,2.0,1.0,1.0,34.0,34.9,34.9,2.2,3.2,2.57,0.6117741860027833,-0.02682478223418044,0.7746050594098414,0.009392790968717354,-0.113159,-30.926997
11.185,2.0,1.0,1.0,34.0,34.9,34.9,2.2,3.2,2.5725,0.6046312966720105,-0.027457582306792926,0.7799015437226114,0.009319725278257895,-0.115189,-30.753196
11.185,2.0,1.0,1.0,34.0,34.9,34.9,2.2,3.2,2.575,0.5973831332510713,-0.028108360066063206,0.7851682407516206,0.00923874780983229,-0.117284,-30.577764
11.185,2.0,1.0,1.0,34.0,34.9,34.9,2.2,3.2,2.5775,0.5900279266897874,-0.028777800270884005,0.7904037563897359,0.00914938377970592,-0.119447,-30.400656
11.185,2.0,1.0,1.0,34.0,34.9,34.9,2.2,3.2,2.58,0.5825638560081928,-0.029466621487096487,0.7956066348476271,0.009051126639612626,-0.121682,-30.221828
11.185,2.0,1.0,1.0,34.0,34.9,34.9,2.2,3.2,2.5825,0.574989045929242,-0.030175578128516595,0.8007753551017762,0.008943435581377765,-0.123992,-30.041234
11.185,2.0,1.0,1.0,34.0,34.9,34.9,2.2,3.2,2.585,0.5673015643600129,-0.0309054626416212,0.8059083270712397,0.008825732812922255,-0.12638,-29.858824
11.185,2.0,1.0,1.0,34.0,34.9,34.9,2.2,3.2,2.5875,0.5594994197096986,-0.03165710784517092,0.8110038874969856,0.008697400581582342,-0.12885,-29.674549
11.185,2.0,1.0,1.0,34.0,34.9,34.9,2.2,3.2,2.59,0.5515805580317237,-0.032431389436978826,0.8160602954945945,0.008557777917812199,-0.131407,-29.488357
11.185,2.0,1.0,1.0,34.0,34.9,34.9,2.2,3.2,2.5925,0.5435428599762371,-0.03322922868104634,0.821075727747718,0.008406157069083254,-0.134055,-29.300194
11.185,2.0,1.0,1.0,34.0,34.9,34.9,2.2,3.2,2.595,0.535384137538138,-0.03405159528936931,0.8260482733058306,0.00824177959010798,-0.136798,-29.110004
11.185,2.0,1.0,1.0,34.0,34.9,34.9,2.2,3.2,2.5975,0.5271021305845198,-0.03489951051388941,0.8309759279454404,0.008063832051318972,-0.139642,-28.917729
11.185,2.0,1.0,1.0,34.0,34.9,34.9,2.2,3.2,2.6,0.5186945031441421,-0.03577405046531168,0.835856588048945,0.007871441322760154,-0.142592,-28.723309
11.185,2.0,1.0,1.0,34.0,34.9,34.9,2.2,3.2,2.6025,0.5101588394401282,-0.036676349676843294,0.8406880439496675,0.007663669385103343,-0.145652,-28.52668
11.185,2.0,1.0,1.0,34.0,34.9,34.9,2.2,3.2,2.605,0.5014926396455717,-0.03760760493232734,0.8454679726851391,0.0074395076132843675,-0.148831,-28.327777
11.185,2.0,1.0,1.0,34.0,34.9,34.9,2.2,3.2,2.6075,0.4926933153401852,-0.038569079379738073,0.8501939300933393,0.007197870471142827,-0.152133,-28.126533
11.185,2.0,1.0,1.0,34.0,34.9,34.9,2.2,3.2,2.61,0.4837581846444362,-0.03956210695257375,0.8548633421781484,0.006937588547295864,-0.155567,-27.922874
11.185,2.0,1.0,1.0,34.0,34.9,34.9,2.2,3.2,2.6125,0.4746844670058894,-0.04058809712331281,0.8594734956606068,0.0066574008531259075,-0.159139,-27.716729
11.185,2.0,1.0,1.0,34.0,34.9,34.9,2.2,3.2,2.615,0.4654692776106744,-0.04164854001476922,0.8640215276214811,0.006355946293003898,-0.162858,-27.508019
11.185,2.0,1.0,1.0,34.0,34.9,34.9,2.2,3.2,2.6175,0.4561096213912013,-0.042745011896870765,0.8685044141278243,0.0060317542044827,-0.166733,-27.296664
11.185,2.0,1.0,1.0,34.0,34.9,34.9,2.2,3.2,2.62,0.4466023865993995,-0.04387918109805079,0.8729189577215275,0.0056832338518995095,-0.170773,-27.082579
11.185,2.0,1.0,1.0,34.0,34.9,34.9,2.2,3.2,2.6225,0.4369443379130223,-0.04505281436203653,0.8772617736308361,0.005308662740300476,-0.174988,-26.865677
11.185,2.0,1.0,1.0,34.0,34.9,34.9,2.2,3.2,2.625,0.427132109040934,-0.0462677836822602,0.881529274546119,0.00490617359746159,-0.179389,-26.645866
11.185,2.0,1.0,1.0,34.0,34.9,34.9,2.2,3.2,2.6275,0.417162194791858,-0.047526073647329165,0.8857176537783819,0.004473739849568014,-0.183988,-26.423048
11.185,2.0,1.0,1.0,34.0,34.9,34.9,2.2,3.2,2.63,0.407030942570047,-0.048829789331813936,0.8898228665925032,0.004009159390292642,-0.188798,-26.197125
11.185,2.0,1.0,1.0,34.0,34.9,34.9,2.2,3.2,2.6325,0.3967345432607751,-0.05018116476690154,0.8938406094763276,0.003510036412930853,-0.193834,-25.967989
11.185,2.0,1.0,1.0,34.0,34.9,34.9,2.2,3.2,2.635,0.386269021468778,-0.05158257202496125,0.8977662970707802,0.0029737610401331734,-0.199111,-25.73553
11.185,2.0,1.0,1.0,34.0,34.9,34.9,2.2,3.2,2.6375,0.37563022507404986,-0.05303653095048726,0.9015950364440922,0.002397486444704226,-0.204645,-25.499632
11.185,2.0,1.0,1.0,34.0,34.9,34.9,2.2,3.2,2.64,0.36481381407210034,-0.05454571956681667,0.9053215983440045,0.0017781031067949933,-0.210455,-25.260174
11.185,2.0,1.0,1.0,34.0,34.9,34.9,2.2,3.2,2.6425,0.3538152486705341,-0.0561129851829162,0.9089403850039725,0.001112209796273986,-0.216561,-25.017027
11.185,2.0,1.0,1.0,34.0,34.9,34.9,2.2,3.2,2.645,0.3426297766211838,-0.057741356216720024,0.9124453940114118,0.00039608080251550494,-0.222984,-24.770056
11.185,2.0,1.0,1.0,34.0,34.9,34.9,2.2,3.2,2.6475,0.3312524197780598,-0.059434054740020455,0.9158301776658463,-0.000374371144648543,-0.22975,-24.51912
11.185,2.0,1.0,1.0,34.0,34.9,34.9,2.2,3.2,2.65,0.31967795988718267,-0.061194509733583945,0.9190877971601311,-0.0012036369118337638,-0.236884,-24.264071
11.185,2.0,1.0,1.0,34.0,34.9,34.9,2.2,3.2,2.6525,0.3079009236367032,-0.0630263710183346,0.9222107708057892,-0.002096658715765511,-0.244415,-24.00475
11.185,2.0,1.0,1.0,34.0,34.9,34.9,2.2,3.2,2.655,0.2959155670264343,-0.06493352379705981,0.9251910153904981,-0.003058884483013723,-0.252376,-23.740994
11.185,2.0,1.0,1.0,34.0,34.9,34.9,2.2,3.2,2.6575,0.2837158591581713,-0.06692010369828405,0.9280197795976013,-0.004096329860221735,-0.260803,-23.472626
11.185,2.0,1.0,1.0,34.0,34.9,34.9,2.2,3.2,2.66,0.2712954656053497,-0.06899051215608457,0.9306875682291156,-0.005215649104100376,-0.269735,-23.199462
11.185,2.0,1.0,1.0,34.0,34.9,34.9,2.2,3.2,2.6625,0.25864773159781884,-0.07114943188174461,0.9331840557487795,-0.006424216301172665,-0.279217,-22.921308
11.185,2.0,1.0,1.0,34.0,34.9,34.9,2.2,3.2,2.665,0.24576566536118225,-0.07340184207877226,0.9354979873926875,-0.007730218631296729,-0.289296,-22.637958
11.185,2.0,1.0,1.0,34.0,34.9,34.9,2.2,3.2,2.6675,0.23264192208913897,-0.07575303291325305,0.9376170657727703,-0.009142763705386395,-0.300029,-22.349194
11.185,2.0,1.0,1.0,34.0,34.9,34.9,2.2,3.2,2.67,0.21926878921296694,-0.0782086185652173,0.9395278205115851,-0.010672003387488421,-0.311477,-22.054785
11.185,2.0,1.0,1.0,34.0,34.9,34.9,2.2,3.2,2.6725,0.20563817388052016,-0.08077454793816528,0.941215457982146,-0.01232927696770894,-0.323708,-21.754486
11.185,2.0,1.0,1.0,34.0,34.9,34.9,2.2,3.2,2.675,0.19174159388861187,-0.08345711177232999,0.9426636876673875,-0.014127277101445566,-0.3368,-21.448038
11.185,2.0,1.0,1.0,34.0,34.9,34.9,2.2,3.2,2.6775,0.1775701737556432,-0.08626294446468587,0.9438545209808448,-0.016080242591156355,-0.350842,-21.135166
11.185,2.0,1.0,1.0,34.0,34.9,34.9,2.2,3.2,2.68,0.16311464821388427,-0.08919901830731819,0.9447680375797967,-0.01820418288235224,-0.365933,-20.815577
11.185,2.0,1.0,1.0,34.0,34.9,34.9,2.2,3.2,2.6825,0.14836537619444629,-0.09227262706435924,0.945382113227008,-0.020517140102479056,-0.382185,-20.488962
11.185,2.0,1.0,1.0,34.0,34.9,34.9,2.2,3.2,2.685,0.1333123694428246,-0.09549135474669958,0.9456721020854719,-0.023039495620935563,-0.399728,-20.154989
11.185,2.0,1.0,1.0,34.0,34.9,34.9,2.2,3.2,2.6875,0.11794534133456436,-0.09886302401822158,0.9456104649262859,-0.02579432948553931,-0.41871,-19.813309
11.185,2.0,1.0,1.0,34.0,34.9,34.9,2.2,3.2,2.69,0.10225378338988174,-0.10239561674770951,0.9451663330541259,-0.02880784273291108,-0.4393,-19.463549
11.185,2.0,1.0,1.0,34.0,34.9,34.9,2.2,3.2,2.6925,0.08622707959228128,-0.10609715662904114,0.944304995768732,-0.03210985451498013,-0.461693,-19.105312
11.185,2.0,1.0,1.0,34.0,34.9,34.9,2.2,3.2,2.695,0.06985467214625635,-0.10997554028431673,0.9429872968507269,-0.03573438826274635,-0.486116,-18.738177
11.185,2.0,1.0,1.0,34.0,34.9,34.9,2.2,3.2,2.6975,0.05312629710261875,-0.1140382985036468,0.9411689228682663,-0.03972036373699093,-0.512833,-18.361698
11.185,2.0,1.0,1.0,34.0,34.9,34.9,2.2,3.2,2.7,0.036032314806363416,-0.11829226279705064,0.9387995630645425,-0.04411241477379389,-0.542149,-17.975399
11.185,2.0,1.0,1.0,34.0,34.9,34.9,2.2,3.2,2.7025,0.01856416902827019,-0.12274310359786945,0.9358219172897434,-0.04896185573245682,-0.574427,-17.578778
11.185,2.0,1.0,1.0,34.0,34.9,34.9,2.2,3.2,2.705,0.0007150208209311213,-0.12739469438041195,0.9321705250939881,-0.05432782288177163,-0.61009,-17.171306
11.185,2.0,1.0,1.0,34.0,34.9,34.9,2.2,3.2,2.7075,-0.01751938018001155,-0.13224823942430472,0.9277703861293932,-0.06027861978429604,-0.649642,-16.752422
11.185,2.0,1.0,1.0,34.0,34.9,34.9,2.2,3.2,2.71,-0.03613950142941875,-0.13730108031736754,0.9225353402310644,-0.06689329734307324,-0.69368,-16.321541
11.185,2.0,1.0,1.0,34.0,34.9,34.9,2.2,3.2,2.7125,-0.05514039323180907,-0.1425450652980904,0.9163661764199416,-0.0742634980986405,-0.742923,-15.878056
11.185,2.0,1.0,1.0,34.0,34.9,34.9,2.2,3.2,2.715,-0.07450945491600966,-0.1479643232219028,0.9091484461520891,-0.0824955880536104,-0.798231,-15.421338
11.185,2.0,1.0,1.0,34.0,34.9,34.9,2.2,3.2,2.7175,-0.09422338359437589,-0.15353222645002948,0.9007499718114144,-0.09171308339071367,-0.860651,-14.950749
11.185,2.0,1.0,1.0,34.0,34.9,34.9,2.2,3.2,2.72,-0.11424400932038746,-0.15920724958593088,0.8910180740986268,-0.10205934658203507,-0.931454,-14.465653
11.185,2.0,1.0,1.0,34.0,34.9,34.9,2.2,3.2,2.7225,-0.1345126165040032,-0.1649273284506741,0.8797766039059176,-0.11370046434201476,-1.012197,-13.965436
11.185,2.0,1.0,1.0,34.0,34.9,34.9,2.2,3.2,2.725,-0.1549422170121701,-0.17060219129991971,0.8668229756445499,-0.12682810864593777,-1.104803,-13.449531
11.185,2.0,1.0,1.0,34.0,34.9,34.9,2.2,3.2,2.7275,-0.17540707399340272,-0.17610297080177753,0.851925592277127,-0.14166198943741665,-1.211653,-12.917459
11.185,2.0,1.0,1.0,34.0,34.9,34.9,2.2,3.2,2.73,-0.19572858553343464,-0.1812482194154115,0.8348223785164831,-0.15845118318184281,-1.33572,-12.368889
11.185,2.0,1.0,1.0,34.0,34.9,34.9,2.2,3.2,2.7325,-0.21565645568392855,-0.18578527471803027,0.8152216750374012,-0.1774730887551409,-1.480729,-11.803714
11.185,2.0,1.0,1.0,34.0,34.9,34.9,2.2,3.2,2.735,-0.2348439894219571,-0.18936583722450565,0.7928076030959392,-0.19902791286784696,-1.651372,-11.222168
11.185,2.0,1.0,1.0,34.0,34.9,34.9,2.2,3.2,2.7375,-0.2528165297697297,-0.19151481287531508,0.7672533252105898,-0.22342528434673217,-1.85357,-10.624983
11.185,2.0,1.0,1.0,34.0,34.9,34.9,2.2,3.2,2.74,-0.2689328755918598,-0.1915922994941432,0.7382475374037549,-0.2509577102263968,-2.094796,-10.013598
11.185,2.0,1.0,1.0,34.0,34.9,34.9,2.2,3.2,2.7425,-0.28234165031680625,-0.18875072834917225,0.7055420422030996,-0.28185311189798157,-2.384432,-9.390454
11.185,2.0,1.0,1.0,34.0,34.9,34.9,2.2,3.2,2.745,-0.29193914092365003,-0.18189370178566985,0.669030956855995,-0.3161960344343748,-2.734106,-8.759353
11.185,2.0,1.0,1.0,34.0,34.9,34.9,2.2,3.2,2.7475,-0.2963435992677977,-0.1696514771253864,0.6288735452814924,-0.353805770049413,-3.157819,-8.125917
11.185,2.0,1.0,1.0,34.0,34.9,34.9,2.2,3.2,2.75,-0.293914650049678,-0.150401549815427,0.58566926135407,-0.394063123029347,-3.671437,-7.498085
11.185,2.0,1.0,1.0,34.0,34.9,34.9,2.2,3.2,2.7525,-0.2828640825127229,-0.12238013417140005,0.5406786076017127,-0.4356925497436366,-4.29054,-6.886597
11.185,2.0,1.0,1.0,34.0,34.9,34.9,2.2,3.2,2.755,-0.26151742357140717,-0.0839430176461092,0.4960477323143329,-0.47654189251734597,-5.024419,-6.30527
11.185,2.0,1.0,1.0,34.0,34.9,34.9,2.2,3.2,2.7575,-0.2287721355741367,-0.03402025384254943,0.45493425221927175,-0.5134616920827918,-5.861944,-5.770815
11.185,2.0,1.0,1.0,34.0,34.9,34.9,2.2,3.2,2.76,-0.18472338884099684,0.027265699904755473,0.4213668606818457,-0.542449653591894,-6.74335,-5.301853
11.185,2.0,1.0,1.0,34.0,34.9,34.9,2.2,3.2,2.7625,-0.13127433799428825,0.09800140120530836,0.39966923668322435,-0.5592262668079557,-7.521042,-4.916881
11.185,2.0,1.0,1.0,34.0,34.9,34.9,2.2,3.2,2.765,-0.07238026547203323,0.17425065729509,0.3934355348529977,-0.5602505186312677,-7.957974,-4.631337
11.185,2.0,1.0,1.0,34.0,34.9,34.9,2.2,3.2,2.7675,-0.013578235290194925,0.2505309727162814,0.4043679765383918,-0.5438646676103341,-7.859571,-4.454448
11.185,2.0,1.0,1.0,34.0,34.9,34.9,2.2,3.2,2.77,0.039217080307714335,0.3210109677474791,0.4315561137395048,-0.5109945994854114,-7.263538,-4.387036
11.185,2.0,1.0,1.0,34.0,34.9,34.9,2.2,3.2,2.7725,0.08116903422739997,0.3809467717077655,0.47165776517295915,-0.4649563885534351,-6.400707,-4.421262
11.185,2.0,1.0,1.0,34.0,34.9,34.9,2.2,3.2,2.775,0.10952566103514629,0.42766611475759553,0.5199119488035825,-0.4104457596428562,-5.492825,-4.542427
11.185,2.0,1.0,1.0,34.0,34.9,34.9,2.2,3.2,2.7775,0.12378785958294755,0.4607217407142854,0.5714250691857319,-0.352266542422727,-4.661644,-4.732005
11.185,2.0,1.0,1.0,34.0,34.9,34.9,2.2,3.2,2.78,0.1251827062423953,0.4813623476039029,0.6221427949094682,-0.2943764212821029,-3.949835,-4.970717
11.185,2.0,1.0,1.0,34.0,34.9,34.9,2.2,3.2,2.7825,0.11587410856717138,0.4917500323553294,0.669264594364485,-0.2394850508562891,-3.359771,-5.240802
11.185,2.0,1.0,1.0,34.0,34.9,34.9,2.2,3.2,2.785,0.09827640312843637,0.4942836997516456,0.7111998277692799,-0.18910317950963146,-2.878021,-5.527235
11.185,2.0,1.0,1.0,34.0,34.9,34.9,2.2,3.2,2.7875,0.07462083403526878,0.49117391712869074,0.7472932079304822,-0.14381669743009964,-2.48709,-5.818064
11.185,2.0,1.0,1.0,34.0,34.9,34.9,2.2,3.2,2.79,0.04675902690317647,0.48425173322132886,0.7775064898097093,-0.10360161195895573,-2.17024,-6.10421
11.185,2.0,1.0,1.0,34.0,34.9,34.9,2.2,3.2,2.7925,0.016123884774842865,0.47493215197367733,0.8021524231773771,-0.06808606255494705,-1.913108,-6.379017
11.185,2.0,1.0,1.0,34.0,34.9,34.9,2.2,3.2,2.795,-0.016228849144968888,0.4642563972441187,0.8217073136275401,-0.036734096651408116,-1.703963,-6.637737
11.185,2.0,1.0,1.0,34.0,34.9,34.9,2.2,3.2,2.7975,-0.049549852129501096,0.4529623040005353,0.8366937914738289,-0.008959909947806141,-1.533464,-6.87706
11.185,2.0,1.0,1.0,34.0,34.9,34.9,2.2,3.2,2.8,-0.08332382320871046,0.4415558693331529,0.8476148578742881,0.015808591488584343,-1.394262,-7.094724
11.185,2.0,1.0,1.0,34.0,34.9,34.9,2.2,3.2,2.8025,-0.11720705377095944,0.4303726303077594,0.8549212171976335,0.03809911519440802,-1.280608,-7.289205
11.185,2.0,1.0,1.0,34.0,34.9,34.9,2.2,3.2,2.805,-0.15097799582686178,0.41962596145663383,0.8589984051837092,0.058383908501897466,-1.188022,-7.459485
11.185,2.0,1.0,1.0,34.0,34.9,34.9,2.2,3.2,2.8075,-0.1844999677816842,0.4094431689128626,0.8601647443512119,0.07707949387351015,-1.113019,-7.604879
11.185,2.0,1.0,1.0,34.0,34.9,34.9,2.2,3.2,2.81,-0.21769379431198502,0.39989154171514824,0.8586746071725572,0.09455183530644735,-1.052893,-7.724905
11.185,2.0,1.0,1.0,34.0,34.9,34.9,2.2,3.2,2.8125,-0.250518019633315,0.390996640819462,0.854723785756288,0.111123851192227,-1.00556,-7.819193
11.185,2.0,1.0,1.0,34.0,34.9,34.9,2.2,3.2,2.815,-0.2829546327669696,0.38275477693570925,0.8484552112648472,0.12708361989158087,-0.969428,-7.88742
11.185,2.0,1.0,1.0,34.0,34.9,34.9,2.2,3.2,2.8175,-0.3149986525965098,0.3751411861297118,0.8399641184714137,0.14269247217287997,-0.943315,-7.929259
11.185,2.0,1.0,1.0,34.0,34.9,34.9,2.2,3.2,2.82,-0.34665029533708913,0.36811499392016217,0.8293022299699265,0.15819264599363095,-0.926378,-7.944342
11.185,2.0,1.0,1.0,34.0,34.9,34.9,2.2,3.2,2.8225,-0.37790873967733996,0.36162170523373094,0.8164807901962864,0.17381444030395213,-0.918068,-7.932234
11.185,2.0,1.0,1.0,34.0,34.9,34.9,2.2,3.2,2.825,-0.4087667079362405,0.3555936683072439,0.8014724071601906,0.18978293724329898,-0.918109,-7.892417
11.185,2.0,1.0,1.0,34.0,34.9,34.9,2.2,3.2,2.8275,-0.4392052010973418,0.3499487187272544,0.7842117191021747,0.20632441993790865,-0.926482,-7.824269
11.185,2.0,1.0,1.0,34.0,34.9,34.9,2.2,3.2,2.83,-0.46918776854585065,0.34458699339525234,0.7645949321028266,0.22367262432552523,-0.94343,-7.727057
