1,w,sub_t,h,l1,l2,l3,g1,g2,Freq,S11_re,S21_re,S11_img,S21_img,S11_dB,S21_dB
11.185,2.0,1.0,1.0,34.3,34.4,34.4,2.5,3.8,2.5,0.731752703118846,-0.0119034665637801,0.669499878332285,0.00582099749549489,-0.071408,-37.555335
11.185,2.0,1.0,1.0,34.3,34.4,34.4,2.5,3.8,2.5025,0.7264313315440626,-0.012126731423138868,0.6751339717188807,0.005802435578432012,-0.072219,-37.429797
11.185,2.0,1.0,1.0,34.3,34.4,34.4,2.5,3.8,2.505,0.7210370456317292,-0.01235400015409455,0.6807544592661646,0.005781579592067873,-0.073047,-37.30375
11.185,2.0,1.0,1.0,34.3,34.4,34.4,2.5,3.8,2.5075,0.7155690640536954,-0.012585355031870528,0.6863607042015598,0.00575834186759719,-0.07389,-37.177186
11.185,2.0,1.0,1.0,34.3,34.4,34.4,2.5,3.8,2.51,0.7100265945307731,-0.01282088036517955,0.6919520505464609,0.005732631327583644,-0.07475,-37.050093
11.185,2.0,1.0,1.0,34.3,34.4,34.4,2.5,3.8,2.5125,0.7044088337267698,-0.01306066255374872,0.6975278225004483,0.00570435333706582,-0.075628,-36.922461
11.185,2.0,1.0,1.0,34.3,34.4,34.4,2.5,3.8,2.515,0.6987149671445939,-0.013304790147623795,0.703087323804386,0.005673409547258368,-0.076522,-36.794279
11.185,2.0,1.0,1.0,34.3,34.4,34.4,2.5,3.8,2.5175,0.6929441690246916,-0.01355335390830667,0.7086298370815798,0.005639697731427597,-0.077435,-36.665535
11.185,2.0,1.0,1.0,34.3,34.4,34.4,2.5,3.8,2.52,0.6870956022460228,-0.013806446871783274,0.7141546231561335,0.005603111612493165,-0.078367,-36.536219
11.185,2.0,1.0,1.0,34.3,34.4,34.4,2.5,3.8,2.5225,0.6811684182298762,-0.014064164413497516,0.7196609203475981,0.005563540681878778,-0.079317,-36.406319
11.185,2.0,1.0,1.0,34.3,34.4,34.4,2.5,3.8,2.525,0.6751617568467646,-0.014326604315330753,0.7251479437409742,0.0055208700091030245,-0.080288,-36.275822
11.185,2.0,1.0,1.0,34.3,34.4,34.4,2.5,3.8,2.5275,0.6690747463267035,-0.014593866834644514,0.7306148844310688,0.005474980041567907,-0.081278,-36.144717
11.185,2.0,1.0,1.0,34.3,34.4,34.4,2.5,3.8,2.53,0.6629065031731858,-0.014866054775446585,0.7360609087401714,0.0054257463939664085,-0.082289,-36.012992
11.185,2.0,1.0,1.0,34.3,34.4,34.4,2.5,3.8,2.5325,0.6566561320811724,-0.015143273561740046,0.7414851574079496,0.005373039626691519,-0.083321,-35.880635
11.185,2.0,1.0,1.0,34.3,34.4,34.4,2.5,3.8,2.535,0.6503227258594393,-0.015425631313116032,0.7468867447524304,0.005316725012586945,-0.084375,-35.747631
11.185,2.0,1.0,1.0,34.3,34.4,34.4,2.5,3.8,2.5375,0.6439053653576606,-0.015713238922650048,0.7522647578008371,0.005256662291334919,-0.085451,-35.613969
11.185,2.0,1.0,1.0,34.3,34.4,34.4,2.5,3.8,2.54,0.6374031193986047,-0.016006210137162212,0.7576182553890386,0.005192705410727663,-0.086551,-35.479636
11.185,2.0,1.0,1.0,34.3,34.4,34.4,2.5,3.8,2.5425,0.6308150447158538,-0.016304661639901286,0.7629462672282572,0.005124702254016577,-0.087674,-35.344617
11.185,2.0,1.0,1.0,34.3,34.4,34.4,2.5,3.8,2.545,0.6241401858974849,-0.01660871313571052,0.7682477929376389,0.0050524943524769125,-0.088822,-35.208898
11.185,2.0,1.0,1.0,34.3,34.4,34.4,2.5,3.8,2.5475,0.6173775753361799,-0.01691848743873271,0.7735218010411895,0.004975916582264385,-0.089995,-35.072466
11.185,2.0,1.0,1.0,34.3,34.4,34.4,2.5,3.8,2.55,0.61052623318623,-0.017234110562710115,0.7787672279275342,0.004894796844574302,-0.091194,-34.935307
11.185,2.0,1.0,1.0,34.3,34.4,34.4,2.5,3.8,2.5525,0.6035851673279865,-0.01755571181393098,0.7839829767708207,0.004808955728042939,-0.09242,-34.797405
11.185,2.0,1.0,1.0,34.3,34.4,34.4,2.5,3.8,2.555,0.5965533733402774,-0.017883423886872862,0.7891679164110452,0.004718206152253057,-0.093673,-34.658745
11.185,2.0,1.0,1.0,34.3,34.4,34.4,2.5,3.8,2.5575,0.5894298344813775,-0.01821738296258784,0.794320880191945,0.004622352991122798,-0.094955,-34.519311
11.185,2.0,1.0,1.0,34.3,34.4,34.4,2.5,3.8,2.56,0.5822135216791676,-0.018557728809869434,0.7994406647545075,0.004521192674867063,-0.096265,-34.379089
11.185,2.0,1.0,1.0,34.3,34.4,34.4,2.5,3.8,2.5625,0.574903393531113,-0.0189046048892357,0.80452602878402,0.00441451276912164,-0.097606,-34.238061
11.185,2.0,1.0,1.0,34.3,34.4,34.4,2.5,3.8,2.565,0.5674983963147715,-0.019258158459755086,0.8095756917084899,0.004302091529715914,-0.098978,-34.096212
11.185,2.0,1.0,1.0,34.3,34.4,34.4,2.5,3.8,2.5675,0.5599974640095722,-0.01961854068873233,0.8145883323460772,0.004183697431463601,-0.100382,-33.953523
11.185,2.0,1.0,1.0,34.3,34.4,34.4,2.5,3.8,2.57,0.5523995183306414,-0.01998590676426231,0.8195625874990966,0.004059088669216902,-0.101819,-33.809978
11.185,2.0,1.0,1.0,34.3,34.4,34.4,2.5,3.8,2.5725,0.5447034687755165,-0.020360416010646035,0.8244970504919504,0.003928012629293612,-0.10329,-33.66556
11.185,2.0,1.0,1.0,34.3,34.4,34.4,2.5,3.8,2.575,0.5369082126846355,-0.020742232006649132,0.8293902696501985,0.003790205329239258,-0.104796,-33.520248
11.185,2.0,1.0,1.0,34.3,34.4,34.4,2.5,3.8,2.5775,0.5290126353165565,-0.021131522706565584,0.8342407467177951,0.0036453908237257253,-0.106338,-33.374026
11.185,2.0,1.0,1.0,34.3,34.4,34.4,2.5,3.8,2.58,0.5210156099389077,-0.021528460564029215,0.8390469352093078,0.0034932805742137326,-0.107919,-33.226873
11.185,2.0,1.0,1.0,34.3,34.4,34.4,2.5,3.8,2.5825,0.5129159979361548,-0.02193322265849264,0.8438072386937459,0.0033335727798154335,-0.109537,-33.07877
11.185,2.0,1.0,1.0,34.3,34.4,34.4,2.5,3.8,2.585,0.504712648935332,-0.022345990824265412,0.8485200090063696,0.0031659516665864655,-0.111196,-32.929696
11.185,2.0,1.0,1.0,34.3,34.4,34.4,2.5,3.8,2.5875,0.49640440095096816,-0.022766951781971766,0.8531835443846222,0.002990086732250108,-0.112897,-32.779631
11.185,2.0,1.0,1.0,34.3,34.4,34.4,2.5,3.8,2.59,0.4879900805505364,-0.02319629727225149,0.857796087524026,0.0028056319431088803,-0.11464,-32.628553
11.185,2.0,1.0,1.0,34.3,34.4,34.4,2.5,3.8,2.5925,0.47946850304181987,-0.02363422419148528,0.8623558235496219,0.002612224879628713,-0.116428,-32.47644
11.185,2.0,1.0,1.0,34.3,34.4,34.4,2.5,3.8,2.595,0.47083847268374157,-0.024080934729275968,0.866860877898166,0.0024094858268854675,-0.118262,-32.32327
11.185,2.0,1.0,1.0,34.3,34.4,34.4,2.5,3.8,2.5975,0.4620987829222567,-0.024536636507361508,0.8713093141059897,0.002197016805739229,-0.120143,-32.169019
11.185,2.0,1.0,1.0,34.3,34.4,34.4,2.5,3.8,2.6,0.45324821665308107,-0.02500154271956903,0.8756991314970008,0.0019744005402479096,-0.122073,-32.013663
11.185,2.0,1.0,1.0,34.3,34.4,34.4,2.5,3.8,2.6025,0.44428554651315094,-0.02547587227234351,0.8800282627649086,0.0017411993564432641,-0.124055,-31.857179
11.185,2.0,1.0,1.0,34.3,34.4,34.4,2.5,3.8,2.605,0.435209535202839,-0.025959849925298824,0.8842945714432822,0.001496954007164619,-0.12609,-31.699539
11.185,2.0,1.0,1.0,34.3,34.4,34.4,2.5,3.8,2.6075,0.42601893584115974,-0.0264537064311363,0.8884958492565554,0.0012411824171786995,-0.128179,-31.540719
11.185,2.0,1.0,1.0,34.3,34.4,34.4,2.5,3.8,2.61,0.41671249235634655,-0.026957678674161867,0.8926298133445203,0.0009733783422975367,-0.130325,-31.380692
11.185,2.0,1.0,1.0,34.3,34.4,34.4,2.5,3.8,2.6125,0.4072889399144075,-0.027472009806498082,0.8966941033522621,0.0006930099356408676,-0.132531,-31.219429
11.185,2.0,1.0,1.0,34.3,34.4,34.4,2.5,3.8,2.615,0.39774700538848634,-0.027996949380934468,0.9006862783768068,0.0003995182135647563,-0.134798,-31.056901
11.185,2.0,1.0,1.0,34.3,34.4,34.4,2.5,3.8,2.6175,0.38808540787212564,-0.02853275347918091,0.9046038137610198,9.231541309111194e-05,-0.137128,-30.893081
11.185,2.0,1.0,1.0,34.3,34.4,34.4,2.5,3.8,2.62,0.37830285923979845,-0.02907968483408504,0.9084440977244833,-0.00022921676808612638,-0.139525,-30.727936
11.185,2.0,1.0,1.0,34.3,34.4,34.4,2.5,3.8,2.6225,0.3683980647583992,-0.029638012944139733,0.9122044278201833,-0.0005657290587805949,-0.141991,-30.561436
11.185,2.0,1.0,1.0,34.3,34.4,34.4,2.5,3.8,2.625,0.35836972375377,-0.0302080141783318,0.915882007204863,-0.000917906639365108,-0.144529,-30.393548
11.185,2.0,1.0,1.0,34.3,34.4,34.4,2.5,3.8,2.6275,0.3482165303366972,-0.030789971869073098,0.919473940709786,-0.0012864713164086996,-0.147141,-30.224239
11.185,2.0,1.0,1.0,34.3,34.4,34.4,2.5,3.8,2.63,0.3379371741933216,-0.03138417639058941,0.9229772306974767,-0.0016721838597432408,-0.149831,-30.053474
11.185,2.0,1.0,1.0,34.3,34.4,34.4,2.5,3.8,2.6325,0.32753034144539267,-0.03199092521972602,0.9263887726886355,-0.002075846516063065,-0.152602,-29.881216
11.185,2.0,1.0,1.0,34.3,34.4,34.4,2.5,3.8,2.635,0.31699471558640346,-0.03261052297564433,0.929705350741985,-0.0024983057145538923,-0.155457,-29.70743
11.185,2.0,1.0,1.0,34.3,34.4,34.4,2.5,3.8,2.6375,0.30632897850031726,-0.03324328143432368,0.932923632568121,-0.0029404549815962716,-0.158401,-29.532076
11.185,2.0,1.0,1.0,34.3,34.4,34.4,2.5,3.8,2.64,0.29553181157032304,-0.033889519513137394,0.936040164356653,-0.003403238083310545,-0.161437,-29.355115
11.185,2.0,1.0,1.0,34.3,34.4,34.4,2.5,3.8,2.6425,0.2846018968859965,-0.03454956322001885,0.9390513652938632,-0.00388765241662486,-0.164568,-29.176505
11.185,2.0,1.0,1.0,34.3,34.4,34.4,2.5,3.8,2.645,0.2735379185581734,-0.03522374556086662,0.9419535217458685,-0.004394752671681566,-0.1678,-28.996205
11.185,2.0,1.0,1.0,34.3,34.4,34.4,2.5,3.8,2.6475,0.2623385641520341,-0.035912406397826564,0.9447427810797437,-0.004925654790775786,-0.171138,-28.814169
11.185,2.0,1.0,1.0,34.3,34.4,34.4,2.5,3.8,2.65,0.2510025262501714,-0.03661589224992072,0.9474151450922617,-0.005481540251676802,-0.174584,-28.630351
11.185,2.0,1.0,1.0,34.3,34.4,34.4,2.5,3.8,2.6525,0.2395285041589914,-0.03733455602612509,0.9499664630127554,-0.006063660706144983,-0.178146,-28.444705
11.185,2.0,1.0,1.0,34.3,34.4,34.4,2.5,3.8,2.655,0.22791520577345184,-0.03806875667942086,0.952392424043116,-0.006673343007781316,-0.181829,-28.257181
11.185,2.0,1.0,1.0,34.3,34.4,34.4,2.5,3.8,2.6575,0.21616134961724623,-0.038818858768489846,0.9546885493939897,-0.00731199466705528,-0.185638,-28.067727
11.185,2.0,1.0,1.0,34.3,34.4,34.4,2.5,3.8,2.66,0.20426566707782254,-0.0395852319115768,0.9568501837718529,-0.00798110977552495,-0.18958,-27.876289
11.185,2.0,1.0,1.0,34.3,34.4,34.4,2.5,3.8,2.6625,0.19222690485837135,-0.040368250114522164,0.958872486266699,-0.008682275445931413,-0.193661,-27.682813
11.185,2.0,1.0,1.0,34.3,34.4,34.4,2.5,3.8,2.665,0.18004382767202787,-0.04116829095203139,0.9607504205845162,-0.009417178820100267,-0.197888,-27.487241
11.185,2.0,1.0,1.0,34.3,34.4,34.4,2.5,3.8,2.6675,0.1677152212072651,-0.041985734577800415,0.9624787445625153,-0.010187614702477537,-0.202269,-27.289512
11.185,2.0,1.0,1.0,34.3,34.4,34.4,2.5,3.8,2.67,0.15523989539767225,-0.04282096253508364,0.964051998898037,-0.010995493883770668,-0.206813,-27.089564
11.185,2.0,1.0,1.0,34.3,34.4,34.4,2.5,3.8,2.6725,0.14261668803436092,-0.043674356334550066,0.9654644950141733,-0.011842852226644796,-0.211527,-26.887331
11.185,2.0,1.0,1.0,34.3,34.4,34.4,2.5,3.8,2.675,0.1298444687651147,-0.0445462957606999,0.9667103019762099,-0.012731860593858134,-0.216422,-26.682746
11.185,2.0,1.0,1.0,34.3,34.4,34.4,2.5,3.8,2.6775,0.11692214353125505,-0.045437156861554424,0.9677832323629494,-0.013664835708746962,-0.221506,-26.475738
11.185,2.0,1.0,1.0,34.3,34.4,34.4,2.5,3.8,2.68,0.10384865950132138,-0.046347309568591295,0.9686768269855967,-0.01464425204873071,-0.226792,-26.266232
11.185,2.0,1.0,1.0,34.3,34.4,34.4,2.5,3.8,2.6825,0.09062301057021278,-0.04727711488475388,0.9693843383340215,-0.015672754884676957,-0.23229,-26.054151
11.185,2.0,1.0,1.0,34.3,34.4,34.4,2.5,3.8,2.685,0.0772442435036833,-0.04822692156754481,0.9698987126156839,-0.016753174592746924,-0.238013,-25.839415
11.185,2.0,1.0,1.0,34.3,34.4,34.4,2.5,3.8,2.6875,0.0637114648214518,-0.0491970622213866,0.970212570235985,-0.0178885423809496,-0.243975,-25.621938
11.185,2.0,1.0,1.0,34.3,34.4,34.4,2.5,3.8,2.69,0.05002384852798829,-0.05018784869819914,0.9703181845501367,-0.019082107590329737,-0.250189,-25.401633
11.185,2.0,1.0,1.0,34.3,34.4,34.4,2.5,3.8,2.6925,0.03618064481880074,-0.05119956668702217,0.9702074586954226,-0.020337356750798573,-0.256672,-25.178408
11.185,2.0,1.0,1.0,34.3,34.4,34.4,2.5,3.8,2.695,0.022181189912468355,-0.052232469351900734,0.9698719002886409,-0.02165803459440547,-0.263441,-24.952164
11.185,2.0,1.0,1.0,34.3,34.4,34.4,2.5,3.8,2.6975,0.008024917185269424,-0.05328676985145149,0.969302593746179,-0.023048167254746427,-0.270515,-24.722802
11.185,2.0,1.0,1.0,34.3,34.4,34.4,2.5,3.8,2.7,-0.006288630182753927,-0.0543626325426327,0.9684901699530932,-0.024512087910610946,-0.277913,-24.490214
11.185,2.0,1.0,1.0,34.3,34.4,34.4,2.5,3.8,2.7025,-0.020759784803296627,-0.05546016263419976,0.9674247729722601,-0.0260544651653972,-0.285657,-24.254288
11.185,2.0,1.0,1.0,34.3,34.4,34.4,2.5,3.8,2.705,-0.03538873862387249,-0.05657939401079362,0.9660960234445518,-0.027680334491792278,-0.293771,-24.014909
11.185,2.0,1.0,1.0,34.3,34.4,34.4,2.5,3.8,2.7075,-0.050175524072257324,-0.05772027489497279,0.9644929782853995,-0.02939513311434308,-0.302281,-23.771952
11.185,2.0,1.0,1.0,34.3,34.4,34.4,2.5,3.8,2.71,-0.0651199923863179,-0.058882650949728776,0.9626040862314071,-0.03120473875148242,-0.311216,-23.525288
11.185,2.0,1.0,1.0,34.3,34.4,34.4,2.5,3.8,2.7125,-0.08022178863359815,-0.06006624534565512,0.9604171387319709,-0.033115512694064604,-0.320607,-23.274781
11.185,2.0,1.0,1.0,34.3,34.4,34.4,2.5,3.8,2.715,-0.09548032282715933,-0.06127063522186236,0.9579192156144856,-0.035134347760249866,-0.330488,-23.020289
11.185,2.0,1.0,1.0,34.3,34.4,34.4,2.5,3.8,2.7175,-0.11089473642524886,-0.062495223854128555,0.9550966248766303,-0.03726872173747872,-0.340897,-22.76166
11.185,2.0,1.0,1.0,34.3,34.4,34.4,2.5,3.8,2.72,-0.12646386335742482,-0.06373920770285299,0.951934835874759,-0.039526757002060056,-0.351876,-22.498735
11.185,2.0,1.0,1.0,34.3,34.4,34.4,2.5,3.8,2.7225,-0.14218618454272466,-0.06500153734117543,0.9484184050825907,-0.04191728709630615,-0.36347,-22.231348
11.185,2.0,1.0,1.0,34.3,34.4,34.4,2.5,3.8,2.725,-0.15805977464849444,-0.06628087105263558,0.9445308934886832,-0.04444993114271993,-0.375731,-21.959321
11.185,2.0,1.0,1.0,34.3,34.4,34.4,2.5,3.8,2.7275,-0.17408223957222868,-0.06757551962860894,0.9402547745841251,-0.04713517708479576,-0.388715,-21.682469
11.185,2.0,1.0,1.0,34.3,34.4,34.4,2.5,3.8,2.73,-0.19025064280066525,-0.06888338057660821,0.9355713317636621,-0.049984474864244684,-0.402486,-21.400595
11.185,2.0,1.0,1.0,34.3,34.4,34.4,2.5,3.8,2.7325,-0.20656141839554207,-0.0702018595565123,0.930460543824992,-0.053010340773923394,-0.417112,-21.11349
11.185,2.0,1.0,1.0,34.3,34.4,34.4,2.5,3.8,2.735,-0.22301026785411965,-0.07152777637400784,0.9249009571044673,-0.05622647436204365,-0.432673,-20.820935
11.185,2.0,1.0,1.0,34.3,34.4,34.4,2.5,3.8,2.7375,-0.23959203747058763,-0.07285725225517833,0.9188695426370995,-0.05964788940213243,-0.449256,-20.522698
11.185,2.0,1.0,1.0,34.3,34.4,34.4,2.5,3.8,2.74,-0.256300572050492,-0.07418557437300233,0.9123415365817901,-0.06329106057738766,-0.466961,-20.218534
11.185,2.0,1.0,1.0,34.3,34.4,34.4,2.5,3.8,2.7425,-0.27312853986510854,-0.07550703265718403,0.9052902620208073,-0.06717408764586535,-0.485898,-19.908182
11.185,2.0,1.0,1.0,34.3,34.4,34.4,2.5,3.8,2.745,-0.29006722252591344,-0.0768147227444938,0.8976869301441034,-0.0713168789359638,-0.506194,-19.591367
11.185,2.0,1.0,1.0,34.3,34.4,34.4,2.5,3.8,2.7475,-0.3071062619475162,-0.0781003074558146,0.8895004187924507,-0.07574135604187092,-0.527991,-19.2678
11.185,2.0,1.0,1.0,34.3,34.4,34.4,2.5,3.8,2.75,-0.324233354669748,-0.0793537273399031,0.880697026401587,-0.0804716815034805,-0.551451,-18.937171
11.185,2.0,1.0,1.0,34.3,34.4,34.4,2.5,3.8,2.7525,-0.3414338814237711,-0.08056284850319746,0.8712401996270922,-0.08553451100109168,-0.576761,-18.599156
11.185,2.0,1.0,1.0,34.3,34.4,34.4,2.5,3.8,2.755,-0.35869045682419837,-0.08171303302467171,0.8610902334328524,-0.09095927107724257,-0.604132,-18.253411
11.185,2.0,1.0,1.0,34.3,34.4,34.4,2.5,3.8,2.7575,-0.3759823802875041,-0.08278661357794628,0.8502039433372487,-0.09677846247604949,-0.63381,-17.899573
11.185,2.0,1.0,1.0,34.3,34.4,34.4,2.5,3.8,2.76,-0.39328496451555833,-0.08376224925504437,0.8385343110415631,-0.10302798765740305,-0.666075,-17.53726
11.185,2.0,1.0,1.0,34.3,34.4,34.4,2.5,3.8,2.7625,-0.4105687118963158,-0.08461413376947537,0.8260301071248991,-0.1097474985948021,-0.701254,-17.166068
11.185,2.0,1.0,1.0,34.3,34.4,34.4,2.5,3.8,2.765,-0.42779830166687427,-0.08531101992638113,0.8126354983359405,-0.11698075715396108,-0.739727,-16.785576
11.185,2.0,1.0,1.0,34.3,34.4,34.4,2.5,3.8,2.7675,-0.4449313413174768,-0.08581501515665933,0.7982896529141024,-0.12477599451872151,-0.781938,-16.395341
11.185,2.0,1.0,1.0,34.3,34.4,34.4,2.5,3.8,2.77,-0.4619168241188321,-0.08608009166554637,0.7829263663123732,-0.13318624732133733,-0.828408,-15.994904
11.185,2.0,1.0,1.0,34.3,34.4,34.4,2.5,3.8,2.7725,-0.47869322047271745,-0.08605024100483638,0.7664737431047085,-0.14226963494513697,-0.879751,-15.583788
11.185,2.0,1.0,1.0,34.3,34.4,34.4,2.5,3.8,2.775,-0.4951861137666757,-0.08565718640941682,0.7488539908275753,-0.152089522862382,-0.936695,-15.161507
11.185,2.0,1.0,1.0,34.3,34.4,34.4,2.5,3.8,2.7775,-0.5113052715965797,-0.08481754709901936,0.7299834110455662,-0.1627144879045971,-1.000106,-14.727566
11.185,2.0,1.0,1.0,34.3,34.4,34.4,2.5,3.8,2.78,-0.5269410212822633,-0.08342932761998104,0.7097727163739436,-0.17421795881631721,-1.071021,-14.281474
11.185,2.0,1.0,1.0,34.3,34.4,34.4,2.5,3.8,2.7825,-0.5419597764864353,-0.08136758412303324,0.6881278656680706,-0.18667734334410896,-1.150686,-13.822752
11.185,2.0,1.0,1.0,34.3,34.4,34.4,2.5,3.8,2.785,-0.5561985437907674,-0.07847910252023922,0.6649517016144965,-0.20017236317818202,-1.240609,-13.350954
11.185,2.0,1.0,1.0,34.3,34.4,34.4,2.5,3.8,2.7875,-0.5694582329454101,-0.07457591925297619,0.6401468069868945,-0.21478218916501451,-1.342622,-12.865686
11.185,2.0,1.0,1.0,34.3,34.4,34.4,2.5,3.8,2.79,-0.5814956184339503,-0.06942753986649618,0.6136201824859645,-0.2305807871687869,-1.458963,-12.366642
11.185,2.0,1.0,1.0,34.3,34.4,34.4,2.5,3.8,2.7925,-0.5920138821160451,-0.06275179224522091,0.5852906073073811,-0.2476296334113577,-1.592382,-11.853648
11.185,2.0,1.0,1.0,34.3,34.4,34.4,2.5,3.8,2.795,-0.6006518572779661,-0.054204439337296406,0.5550998890809318,-0.2659666220243602,-1.746268,-11.326718
11.185,2.0,1.0,1.0,34.3,34.4,34.4,2.5,3.8,2.7975,-0.6069724766668851,-0.043368051722100356,0.5230296475451696,-0.28558956254345796,-1.924815,-10.786143
11.185,2.0,1.0,1.0,34.3,34.4,34.4,2.5,3.8,2.8,-0.6104516320208553,-0.029741331122133962,0.48912577884735564,-0.3064321786511114,-2.133229,-10.232593
11.185,2.0,1.0,1.0,34.3,34.4,34.4,2.5,3.8,2.8025,-0.610469871710845,-0.012731268166211509,0.4535332108674339,-0.3283300740011352,-2.377974,-9.667262
11.185,2.0,1.0,1.0,34.3,34.4,34.4,2.5,3.8,2.805,-0.6063113426169331,0.008347549857488505,0.4165437229950487,-0.3509739829170512,-2.667047,-9.092046
11.185,2.0,1.0,1.0,34.3,34.4,34.4,2.5,3.8,2.8075,-0.5971773587401146,0.03425926524716951,0.37865891530418433,-0.3738483120938544,-3.010271,-8.509773
11.185,2.0,1.0,1.0,34.3,34.4,34.4,2.5,3.8,2.81,-0.5822259724986344,0.06580761199866438,0.3406678599129817,-0.3961554917684104,-3.419488,-7.924469
11.185,2.0,1.0,1.0,34.3,34.4,34.4,2.5,3.8,2.8125,-0.560653255339618,0.103756023874059,0.303732966191039,-0.416732534010583,-3.908478,-7.341653
11.185,2.0,1.0,1.0,34.3,34.4,34.4,2.5,3.8,2.815,-0.5318343933659438,0.14868942135152344,0.26946624415296977,-0.4339772800676534,-4.492094,-6.768618
11.185,2.0,1.0,1.0,34.3,34.4,34.4,2.5,3.8,2.8175,-0.49553816905410986,0.20080463313136834,0.23996055523882517,-0.4458189595646143,-5.18358,-6.214621
11.185,2.0,1.0,1.0,34.3,34.4,34.4,2.5,3.8,2.82,-0.45220888791408786,0.2596355597500257,0.21771993304036472,-0.4497875815037726,-5.987807,-5.690877
11.185,2.0,1.0,1.0,34.3,34.4,34.4,2.5,3.8,2.8225,-0.40326761366818087,0.3237604147336832,0.20542224397930212,-0.4432469884895048,-6.886211,-5.210172
11.185,2.0,1.0,1.0,34.3,34.4,34.4,2.5,3.8,2.825,-0.3513231523624783,0.3905981746046651,0.20547070878154855,-0.4238333750017899,-7.808186,-4.785982
11.185,2.0,1.0,1.0,34.3,34.4,34.4,2.5,3.8,2.8275,-0.3001336214662614,0.45644930170580045,0.21937314032137822,-0.3900604609935572,-8.59477,-4.43103
