1,w,sub_t,h,l1,l2,l3,g1,g2,Freq,S11_re,S21_re,S11_img,S21_img,S11_dB,S21_dB
11.185,2.0,1.0,1.0,34.3,33.4,33.4,4.2,3.5,2.5,0.739499344249551,-0.0076701644894225,0.662814213907033,0.00304216288378887,-0.060429,-41.66941
11.185,2.0,1.0,1.0,34.3,33.4,33.4,4.2,3.5,2.5025,0.7343226520815174,-0.007795653613973025,0.6684468369680361,0.0030135706567007933,-0.061007,-41.558098
11.185,2.0,1.0,1.0,34.3,33.4,33.4,4.2,3.5,2.505,0.7290769433486117,-0.007922780157824,0.6740657385143801,0.002983345936097712,-0.061593,-41.446578
11.185,2.0,1.0,1.0,34.3,33.4,33.4,4.2,3.5,2.5075,0.7237615766637071,-0.008051561428583771,0.6796703135341396,0.002951442054087813,-0.062189,-41.334843
11.185,2.0,1.0,1.0,34.3,33.4,33.4,4.2,3.5,2.51,0.7183759044654086,-0.008182014740380519,0.6852599406989067,0.002917811025922742,-0.062794,-41.22289
11.185,2.0,1.0,1.0,34.3,33.4,33.4,4.2,3.5,2.5125,0.7129192730734113,-0.008314157401376341,0.6908339819247558,0.002882403510815799,-0.06341,-41.110713
11.185,2.0,1.0,1.0,34.3,33.4,33.4,4.2,3.5,2.515,0.7073910227513867,-0.008448006700474712,0.6963917819222663,0.00284516877155184,-0.064035,-40.998307
11.185,2.0,1.0,1.0,34.3,33.4,33.4,4.2,3.5,2.5175,0.7017904877778086,-0.008583579893179361,0.7019326677353626,0.002806054632850966,-0.064671,-40.885665
11.185,2.0,1.0,1.0,34.3,33.4,33.4,4.2,3.5,2.52,0.696116996525132,-0.008720894186561412,0.7074559482687676,0.002765007438445761,-0.065317,-40.772784
11.185,2.0,1.0,1.0,34.3,33.4,33.4,4.2,3.5,2.5225,0.690369871547779,-0.00885996672328808,0.7129609138038199,0.00272197200683213,-0.065974,-40.659657
11.185,2.0,1.0,1.0,34.3,33.4,33.4,4.2,3.5,2.525,0.6845484296793803,-0.009000814564665723,0.7184468355024556,0.002676891585650337,-0.066641,-40.546279
11.185,2.0,1.0,1.0,34.3,33.4,33.4,4.2,3.5,2.5275,0.6786519821397515,-0.009143454672646226,0.7239129648991163,0.002629707804653451,-0.06732,-40.432644
11.185,2.0,1.0,1.0,34.3,33.4,33.4,4.2,3.5,2.53,0.67267983465212,-0.00928790389074405,0.7293585333803607,0.0025803606272174536,-0.06801,-40.318748
11.185,2.0,1.0,1.0,34.3,33.4,33.4,4.2,3.5,2.5325,0.6666312875711093,-0.009434178923808493,0.7347827516519609,0.0025287883003466114,-0.068712,-40.204584
11.185,2.0,1.0,1.0,34.3,33.4,33.4,4.2,3.5,2.535,0.6605056360220328,-0.009582296316593136,0.7401848091932632,0.0024749273031254974,-0.069426,-40.090148
11.185,2.0,1.0,1.0,34.3,33.4,33.4,4.2,3.5,2.5375,0.6543021700520724,-0.009732272431061248,0.7455638736985846,0.0024187122935680713,-0.070151,-39.975432
11.185,2.0,1.0,1.0,34.3,33.4,33.4,4.2,3.5,2.54,0.648020174793924,-0.009884123422363484,0.7509190905054414,0.002360076053811585,-0.070889,-39.860433
11.185,2.0,1.0,1.0,34.3,33.4,33.4,4.2,3.5,2.5425,0.6416589306425347,-0.01003786521342089,0.7562495820093887,0.0022989494336023357,-0.07164,-39.745143
11.185,2.0,1.0,1.0,34.3,33.4,33.4,4.2,3.5,2.545,0.635217713445572,-0.010193513468042795,0.7615544470652625,0.002235261292017356,-0.072403,-39.629557
11.185,2.0,1.0,1.0,34.3,33.4,33.4,4.2,3.5,2.5475,0.6286957947083084,-0.010351083562505919,0.7668327603746169,0.0021689384373649867,-0.07318,-39.51367
11.185,2.0,1.0,1.0,34.3,33.4,33.4,4.2,3.5,2.55,0.6220924418135961,-0.010510590555517832,0.7720835718591651,0.0020999055652046105,-0.07397,-39.397476
11.185,2.0,1.0,1.0,34.3,33.4,33.4,4.2,3.5,2.5525,0.6154069182576932,-0.01067204915648296,0.7773059060200126,0.0020280851944241883,-0.074773,-39.280968
11.185,2.0,1.0,1.0,34.3,33.4,33.4,4.2,3.5,2.555,0.6086384839026696,-0.01083547369198718,0.7824987612825118,0.001953397601311412,-0.075591,-39.164141
11.185,2.0,1.0,1.0,34.3,33.4,33.4,4.2,3.5,2.5575,0.6017863952461977,-0.011000878070411222,0.7876611093265533,0.0018757607515524515,-0.076423,-39.046988
11.185,2.0,1.0,1.0,34.3,33.4,33.4,4.2,3.5,2.56,0.5948499057095453,-0.011168275744579776,0.7927918944021135,0.001795090230089253,-0.077269,-38.929504
11.185,2.0,1.0,1.0,34.3,33.4,33.4,4.2,3.5,2.5625,0.5878282659446271,-0.011337679672348297,0.7978900326299078,0.0017112991687643472,-0.078131,-38.811683
11.185,2.0,1.0,1.0,34.3,33.4,33.4,4.2,3.5,2.565,0.580720724160993,-0.011509102275024663,0.8029544112869932,0.0016242981716785738,-0.079007,-38.693518
11.185,2.0,1.0,1.0,34.3,33.4,33.4,4.2,3.5,2.5675,0.5735265264736956,-0.011682555393518108,0.8079838880771786,0.0015339952381851429,-0.0799,-38.575003
11.185,2.0,1.0,1.0,34.3,33.4,33.4,4.2,3.5,2.57,0.5662449172729769,-0.01185805024210209,0.8129772903861137,0.0014402956834392766,-0.080808,-38.456131
11.185,2.0,1.0,1.0,34.3,33.4,33.4,4.2,3.5,2.5725,0.5588751396167814,-0.012035597359672972,0.8179334145209565,0.0013431020564207143,-0.081732,-38.336897
11.185,2.0,1.0,1.0,34.3,33.4,33.4,4.2,3.5,2.575,0.5514164356471289,-0.012215206558379424,0.8228510249345061,0.0012423140553415289,-0.082673,-38.217294
11.185,2.0,1.0,1.0,34.3,33.4,33.4,4.2,3.5,2.5775,0.5438680470314239,-0.012396886869492727,0.827728853433728,0.001137828440349475,-0.083631,-38.097315
11.185,2.0,1.0,1.0,34.3,33.4,33.4,4.2,3.5,2.58,0.5362292154298184,-0.012580646486380086,0.8325655983726121,0.0010295389434319731,-0.084606,-37.976953
11.185,2.0,1.0,1.0,34.3,33.4,33.4,4.2,3.5,2.5825,0.5284991829897794,-0.012766492704438031,0.8373599238293152,0.0009173361754226127,-0.085599,-37.856202
11.185,2.0,1.0,1.0,34.3,33.4,33.4,4.2,3.5,2.585,0.5206771928690752,-0.01295443185783414,0.8421104587675675,0.0008011075300073134,-0.08661,-37.735056
11.185,2.0,1.0,1.0,34.3,33.4,33.4,4.2,3.5,2.5875,0.5127624897884089,-0.013144469252899058,0.8468157961823596,0.0006807370846224994,-0.08764,-37.613506
11.185,2.0,1.0,1.0,34.3,33.4,33.4,4.2,3.5,2.59,0.5047543206150082,-0.013336609098002031,0.8514744922299168,0.0005561054981333635,-0.088689,-37.491547
11.185,2.0,1.0,1.0,34.3,33.4,33.4,4.2,3.5,2.5925,0.4966519349784949,-0.013530854429735369,0.8560850653420349,0.0004270899051739133,-0.089757,-37.369171
11.185,2.0,1.0,1.0,34.3,33.4,33.4,4.2,3.5,2.595,0.4884545859204328,-0.013727207035223463,0.8606459953248496,0.00029356380702602554,-0.090845,-37.246371
11.185,2.0,1.0,1.0,34.3,33.4,33.4,4.2,3.5,2.5975,0.48016153057897537,-0.013925667370364152,0.8651557224421618,0.00015539695890782134,-0.091953,-37.123139
11.185,2.0,1.0,1.0,34.3,33.4,33.4,4.2,3.5,2.6,0.4717720309101031,-0.014126234473798873,0.8696126464834729,1.245525353544992e-05,-0.093083,-36.999468
11.185,2.0,1.0,1.0,34.3,33.4,33.4,4.2,3.5,2.6025,0.46328535444699454,-0.014328905876398066,0.8740151258169027,-0.00013539939918436714,-0.094233,-36.875352
11.185,2.0,1.0,1.0,34.3,33.4,33.4,4.2,3.5,2.605,0.45470077509910084,-0.014533677506037877,0.8783614764272262,-0.00028830919648161065,-0.095405,-36.750781
11.185,2.0,1.0,1.0,34.3,33.4,33.4,4.2,3.5,2.6075,0.4460175739925815,-0.014740543587431503,0.8826499709392942,-0.00044642057122840626,-0.0966,-36.625749
11.185,2.0,1.0,1.0,34.3,33.4,33.4,4.2,3.5,2.61,0.43723504035378785,-0.014949496536766374,0.8868788376271339,-0.0006098843247895777,-0.097817,-36.500247
11.185,2.0,1.0,1.0,34.3,33.4,33.4,4.2,3.5,2.6125,0.42835247243755054,-0.015160526850886076,0.8910462594090984,-0.0007788557643950105,-0.099058,-36.374267
11.185,2.0,1.0,1.0,34.3,33.4,33.4,4.2,3.5,2.615,0.4193691785020625,-0.01537362299074023,0.8951503728294705,-0.0009534948452206339,-0.100322,-36.247802
11.185,2.0,1.0,1.0,34.3,33.4,33.4,4.2,3.5,2.6175,0.4102844778322441,-0.015588771258812402,0.8991892670269607,-0.0011339663173750047,-0.101611,-36.120842
11.185,2.0,1.0,1.0,34.3,33.4,33.4,4.2,3.5,2.62,0.4010977018134911,-0.015805955670218814,0.9031609826906288,-0.0013204398780016606,-0.102926,-35.99338
11.185,2.0,1.0,1.0,34.3,33.4,33.4,4.2,3.5,2.6225,0.3918081950577892,-0.016025157817154835,0.9070635110037965,-0.0015130903287192514,-0.104266,-35.865408
11.185,2.0,1.0,1.0,34.3,33.4,33.4,4.2,3.5,2.625,0.382415316584247,-0.0162463567263474,0.910894792576569,-0.00171209773863553,-0.105632,-35.736915
11.185,2.0,1.0,1.0,34.3,33.4,33.4,4.2,3.5,2.6275,0.3729184410561227,-0.016469528709152786,0.9146527163676818,-0.0019176476131872744,-0.107025,-35.607893
11.185,2.0,1.0,1.0,34.3,33.4,33.4,4.2,3.5,2.63,0.36331696007652053,-0.01669464720391874,0.9183351185964209,-0.0021299310690736043,-0.108446,-35.478334
11.185,2.0,1.0,1.0,34.3,33.4,33.4,4.2,3.5,2.6325,0.3536102835449611,-0.016921682610206927,0.921939781645467,-0.002349145015568728,-0.109895,-35.348227
11.185,2.0,1.0,1.0,34.3,33.4,33.4,4.2,3.5,2.635,0.3437978410771172,-0.017150602114449184,0.9254644329555614,-0.002575492342519792,-0.111373,-35.217564
11.185,2.0,1.0,1.0,34.3,33.4,33.4,4.2,3.5,2.6375,0.33387908349004963,-0.01738136950658516,0.9289067439129933,-0.0028091821153562626,-0.112881,-35.086334
11.185,2.0,1.0,1.0,34.3,33.4,33.4,4.2,3.5,2.64,0.32385348435533373,-0.017613944987202156,0.932264328730978,-0.0030504297774613435,-0.11442,-34.954528
11.185,2.0,1.0,1.0,34.3,33.4,33.4,4.2,3.5,2.6425,0.3137205416225551,-0.017848284964667283,0.93553474332608,-0.0032994573602803047,-0.11599,-34.822135
11.185,2.0,1.0,1.0,34.3,33.4,33.4,4.2,3.5,2.645,0.30347977931568354,-0.0180843418417125,0.938715484190932,-0.0035564937015693456,-0.117592,-34.689146
11.185,2.0,1.0,1.0,34.3,33.4,33.4,4.2,3.5,2.6475,0.29313074930491495,-0.018322063790897007,0.9418039872645867,-0.0038217746722183127,-0.119227,-34.555549
11.185,2.0,1.0,1.0,34.3,33.4,33.4,4.2,3.5,2.65,0.28267303315661185,-0.01856139451833591,0.9447976268019316,-0.00409554341211407,-0.120896,-34.421334
11.185,2.0,1.0,1.0,34.3,33.4,33.4,4.2,3.5,2.6525,0.27210624406406303,-0.018802273015042812,0.9476937142437131,-0.004378050575547156,-0.122599,-34.28649
11.185,2.0,1.0,1.0,34.3,33.4,33.4,4.2,3.5,2.655,0.2614300288618106,-0.019044633295192133,0.9504894970887777,-0.0046695545867052254,-0.124339,-34.151005
11.185,2.0,1.0,1.0,34.3,33.4,33.4,4.2,3.5,2.6575,0.2506440701263551,-0.019288404120558135,0.9531821577703095,-0.004970321905839329,-0.126114,-34.014867
11.185,2.0,1.0,1.0,34.3,33.4,33.4,4.2,3.5,2.66,0.2397480883661354,-0.019533508710337478,0.9557688125378649,-0.005280627306737411,-0.127928,-33.878066
11.185,2.0,1.0,1.0,34.3,33.4,33.4,4.2,3.5,2.6625,0.22874184430370545,-0.01977986443550585,0.958246510347195,-0.00560075416619199,-0.12978,-33.740587
11.185,2.0,1.0,1.0,34.3,33.4,33.4,4.2,3.5,2.665,0.2176251412530812,-0.020027382496797926,0.9606122317599088,-0.005930994766206508,-0.131671,-33.602419
11.185,2.0,1.0,1.0,34.3,33.4,33.4,4.2,3.5,2.6675,0.20639782759532876,-0.02027596758533336,0.9628628878551516,-0.006271650609748069,-0.133604,-33.463549
11.185,2.0,1.0,1.0,34.3,33.4,33.4,4.2,3.5,2.67,0.19505979935547726,-0.020525517524838416,0.9649953191555899,-0.006623032750924084,-0.135578,-33.323963
11.185,2.0,1.0,1.0,34.3,33.4,33.4,4.2,3.5,2.6725,0.18361100288388238,-0.020775922894332513,0.967006294570125,-0.006985462140536849,-0.137595,-33.183648
11.185,2.0,1.0,1.0,34.3,33.4,33.4,4.2,3.5,2.675,0.17205143764528807,-0.021027066630060806,0.9688925103558216,-0.0073592699880536344,-0.139657,-33.042589
11.185,2.0,1.0,1.0,34.3,33.4,33.4,4.2,3.5,2.6775,0.1603811591187964,-0.02127882360535706,0.9706505891017084,-0.0077447981411234235,-0.141764,-32.900772
11.185,2.0,1.0,1.0,34.3,33.4,33.4,4.2,3.5,2.68,0.1486002818120699,-0.021531060187013867,0.9722770787371697,-0.00814239948387233,-0.143918,-32.758182
11.185,2.0,1.0,1.0,34.3,33.4,33.4,4.2,3.5,2.6825,0.13670898239311874,-0.02178363376661976,0.9737684515677768,-0.008552438355322357,-0.14612,-32.614803
11.185,2.0,1.0,1.0,34.3,33.4,33.4,4.2,3.5,2.685,0.12470750294308187,-0.022036392265192047,0.9751211033414863,-0.008975290989401655,-0.148372,-32.47062
11.185,2.0,1.0,1.0,34.3,33.4,33.4,4.2,3.5,2.6875,0.112596154333441,-0.0222891736092896,0.976331352348274,-0.0094113459781507,-0.150675,-32.325616
11.185,2.0,1.0,1.0,34.3,33.4,33.4,4.2,3.5,2.69,0.10037531973122608,-0.022541805176630094,0.9773954385562716,-0.009861004759878096,-0.15303,-32.179774
11.185,2.0,1.0,1.0,34.3,33.4,33.4,4.2,3.5,2.6925,0.08804545823572575,-0.022794103209058423,0.9783095227876616,-0.010324682134186509,-0.15544,-32.033076
11.185,2.0,1.0,1.0,34.3,33.4,33.4,4.2,3.5,2.695,0.07560710865040407,-0.02304587219051451,0.9790696859375344,-0.010802806805969643,-0.157906,-31.885504
11.185,2.0,1.0,1.0,34.3,33.4,33.4,4.2,3.5,2.6975,0.06306089339366337,-0.023296904187430318,0.9796719282390555,-0.011295821960685107,-0.160429,-31.73704
11.185,2.0,1.0,1.0,34.3,33.4,33.4,4.2,3.5,2.7,0.05040752255228246,-0.023546978148738035,0.9801121685782678,-0.011804185873427242,-0.163012,-31.587663
11.185,2.0,1.0,1.0,34.3,33.4,33.4,4.2,3.5,2.7025,0.037647798081365966,-0.023795859162399645,0.980386243861868,-0.012328372554572187,-0.165656,-31.437354
11.185,2.0,1.0,1.0,34.3,33.4,33.4,4.2,3.5,2.705,0.024782618154767767,-0.024043297665060033,0.9804899084413293,-0.012868872435035598,-0.168364,-31.286092
11.185,2.0,1.0,1.0,34.3,33.4,33.4,4.2,3.5,2.7075,0.011812981670087024,-0.0242890286010834,0.980418833596633,-0.013426193094485549,-0.171137,-31.133855
11.185,2.0,1.0,1.0,34.3,33.4,33.4,4.2,3.5,2.71,-0.001260007087579129,-0.024532770526847422,0.9801686070828677,-0.01400086003618039,-0.173977,-30.980619
11.185,2.0,1.0,1.0,34.3,33.4,33.4,4.2,3.5,2.7125,-0.014435133618756067,-0.024774224655738804,0.9797347327428055,-0.014593417512472019,-0.176887,-30.826363
11.185,2.0,1.0,1.0,34.3,33.4,33.4,4.2,3.5,2.715,-0.02771106821502623,-0.025013073838807166,0.9791126301884376,-0.015204429405413512,-0.17987,-30.671061
11.185,2.0,1.0,1.0,34.3,33.4,33.4,4.2,3.5,2.7175,-0.04108636079201521,-0.025248981475488833,0.9782976345542301,-0.015834480167362983,-0.182927,-30.514688
11.185,2.0,1.0,1.0,34.3,33.4,33.4,4.2,3.5,2.72,-0.05455943554487913,-0.025481590348195464,0.9772849963246545,-0.016484175826966662,-0.186061,-30.357217
11.185,2.0,1.0,1.0,34.3,33.4,33.4,4.2,3.5,2.7225,-0.06812858542097634,-0.025710521373869102,0.9760698812381937,-0.017154145066455934,-0.189275,-30.198622
11.185,2.0,1.0,1.0,34.3,33.4,33.4,4.2,3.5,2.725,-0.08179196640393839,-0.02593537226481772,0.9746473702696565,-0.01784504037679586,-0.192572,-30.038873
11.185,2.0,1.0,1.0,34.3,33.4,33.4,4.2,3.5,2.7275,-0.09554759160303969,-0.02615571609026034,0.973012459692209,-0.01855753929790164,-0.195954,-29.877941
11.185,2.0,1.0,1.0,34.3,33.4,33.4,4.2,3.5,2.73,-0.1093933251410674,-0.026371099729000834,0.9711600612199095,-0.01929234575187819,-0.199426,-29.715794
11.185,2.0,1.0,1.0,34.3,33.4,33.4,4.2,3.5,2.7325,-0.12332687583339952,-0.02658104220251244,0.9690850022309844,-0.020050191478070748,-0.20299,-29.5524
11.185,2.0,1.0,1.0,34.3,33.4,33.4,4.2,3.5,2.735,-0.13734579065012606,-0.026785032876414153,0.9667820260712371,-0.020831837579627477,-0.20665,-29.387725
11.185,2.0,1.0,1.0,34.3,33.4,33.4,4.2,3.5,2.7375,-0.15144744795220472,-0.02698252951684924,0.9642457924361623,-0.021638076192294558,-0.21041,-29.221732
11.185,2.0,1.0,1.0,34.3,33.4,33.4,4.2,3.5,2.74,-0.16562905049151758,-0.027172956186594283,0.9614708778292969,-0.022469732287292633,-0.214273,-29.054386
11.185,2.0,1.0,1.0,34.3,33.4,33.4,4.2,3.5,2.7425,-0.1798876181634071,-0.027355700963813158,0.9584517760931249,-0.023327665621378738,-0.218243,-28.885646
11.185,2.0,1.0,1.0,34.3,33.4,33.4,4.2,3.5,2.745,-0.19421998049879474,-0.027530113464181202,0.955182899007583,-0.024212772848588675,-0.222326,-28.715473
11.185,2.0,1.0,1.0,34.3,33.4,33.4,4.2,3.5,2.7475,-0.208622768881086,-0.027695502144603163,0.9516585769495732,-0.025125989809704784,-0.226526,-28.543822
11.185,2.0,1.0,1.0,34.3,33.4,33.4,4.2,3.5,2.75,-0.223092408471014,-0.0278511313638809,0.947873059605201,-0.0260682940172128,-0.230847,-28.370649
11.185,2.0,1.0,1.0,34.3,33.4,33.4,4.2,3.5,2.7525,-0.23762510981994325,-0.02799621817239815,0.9438205167243819,-0.027040707355423577,-0.235295,-28.195908
11.185,2.0,1.0,1.0,34.3,33.4,33.4,4.2,3.5,2.755,-0.2522168601492052,-0.02812992879910878,0.9394950389052404,-0.028044299017561548,-0.239876,-28.019548
11.185,2.0,1.0,1.0,34.3,33.4,33.4,4.2,3.5,2.7575,-0.2668634142695324,-0.028251374799765357,0.9348906383931047,-0.029080188703988718,-0.244595,-27.841517
11.185,2.0,1.0,1.0,34.3,33.4,33.4,4.2,3.5,2.76,-0.28156028511032355,-0.028359608825307962,0.9300012498760113,-0.030149550108358375,-0.249459,-27.66176
11.185,2.0,1.0,1.0,34.3,33.4,33.4,4.2,3.5,2.7625,-0.2963027338236936,-0.02845361996354062,0.924820731255332,-0.03125361472142212,-0.254475,-27.48022
11.185,2.0,1.0,1.0,34.3,33.4,33.4,4.2,3.5,2.765,-0.3110857594222904,-0.02853232860052043,0.9193428643664682,-0.03239367598546327,-0.259649,-27.296836
11.185,2.0,1.0,1.0,34.3,33.4,33.4,4.2,3.5,2.7675,-0.3259040879030066,-0.028594580740315127,0.9135613556203933,-0.033571093835946614,-0.264991,-27.111544
11.185,2.0,1.0,1.0,34.3,33.4,33.4,4.2,3.5,2.77,-0.34075216080057974,-0.028639141712764847,0.9074698365321887,-0.03478729967099468,-0.270507,-26.924277
11.185,2.0,1.0,1.0,34.3,33.4,33.4,4.2,3.5,2.7725,-0.3556241231054102,-0.028664689188385835,0.9010618640975206,-0.036043801793760565,-0.276208,-26.734962
11.185,2.0,1.0,1.0,34.3,33.4,33.4,4.2,3.5,2.775,-0.37051381046853427,-0.02866980540731661,0.8943309209722156,-0.03734219137772277,-0.282102,-26.543524
11.185,2.0,1.0,1.0,34.3,33.4,33.4,4.2,3.5,2.7775,-0.38541473560328077,-0.02865296851490946,0.8872704154036261,-0.03868414901041272,-0.288201,-26.349885
11.185,2.0,1.0,1.0,34.3,33.4,33.4,4.2,3.5,2.78,-0.40032007377712303,-0.02861254287982877,0.8798736808552986,-0.040071451877161664,-0.294514,-26.153959
11.185,2.0,1.0,1.0,34.3,33.4,33.4,4.2,3.5,2.7825,-0.41522264726836805,-0.028546768250876365,0.8721339752585363,-0.041505981653153064,-0.301055,-25.955658
11.185,2.0,1.0,1.0,34.3,33.4,33.4,4.2,3.5,2.785,-0.43011490863995344,-0.028453747585657642,0.8640444798156041,-0.04298973317945641,-0.307837,-25.754887
11.185,2.0,1.0,1.0,34.3,33.4,33.4,4.2,3.5,2.7875,-0.44498892265590984,-0.028331433356969072,0.8555982972697418,-0.04452482400680885,-0.314874,-25.551545
11.185,2.0,1.0,1.0,34.3,33.4,33.4,4.2,3.5,2.79,-0.45983634663440826,-0.02817761211059605,0.8467884495464588,-0.04611350489976316,-0.32218,-25.345527
11.185,2.0,1.0,1.0,34.3,33.4,33.4,4.2,3.5,2.7925,-0.4746484089935716,-0.027989887010075862,0.8376078746591555,-0.0477581714034094,-0.329774,-25.13672
11.185,2.0,1.0,1.0,34.3,33.4,33.4,4.2,3.5,2.795,-0.4894158857010888,-0.027765658058679546,0.828049422759535,-0.04946137658522051,-0.337673,-24.925004
11.185,2.0,1.0,1.0,34.3,33.4,33.4,4.2,3.5,2.7975,-0.504129074284789,-0.027502099634911015,0.8181058511999953,-0.051225845075560696,-0.345898,-24.710251
11.185,2.0,1.0,1.0,34.3,33.4,33.4,4.2,3.5,2.8,-0.518777764996673,-0.027196134913381912,0.8077698184609634,-0.05305448854195166,-0.35447,-24.492327
11.185,2.0,1.0,1.0,34.3,33.4,33.4,4.2,3.5,2.8025,-0.5333512086452966,-0.026844406665739375,0.7970338767814659,-0.0549504227440423,-0.363413,-24.271085
11.185,2.0,1.0,1.0,34.3,33.4,33.4,4.2,3.5,2.805,-0.5478380805177578,-0.026443243843611353,0.7858904633162731,-0.056916986328039744,-0.372754,-24.046373
11.185,2.0,1.0,1.0,34.3,33.4,33.4,4.2,3.5,2.8075,-0.56222643969983,-0.025988623233835828,0.7743318896283102,-0.05895776153057049,-0.382523,-23.818027
11.185,2.0,1.0,1.0,34.3,33.4,33.4,4.2,3.5,2.81,-0.5765036829658473,-0.02547612534124656,0.762350329311528,-0.06107659697169636,-0.39275,-23.58587
11.185,2.0,1.0,1.0,34.3,33.4,33.4,4.2,3.5,2.8125,-0.590656492244334,-0.0249008834906429,0.74993780352828,-0.06327763272389,-0.403473,-23.349716
11.185,2.0,1.0,1.0,34.3,33.4,33.4,4.2,3.5,2.815,-0.6046707744630596,-0.024257524940537435,0.7370861642381826,-0.06556532784637083,-0.41473,-23.109364
11.185,2.0,1.0,1.0,34.3,33.4,33.4,4.2,3.5,2.8175,-0.6185315923308151,-0.023540102558428356,0.723787074895096,-0.06794449056971802,-0.426566,-22.864599
11.185,2.0,1.0,1.0,34.3,33.4,33.4,4.2,3.5,2.82,-0.6322230843108251,-0.022742015310037993,0.7100319883988959,-0.07042031130038565,-0.439029,-22.615192
11.185,2.0,1.0,1.0,34.3,33.4,33.4,4.2,3.5,2.8225,-0.6457283716695276,-0.021855915449768865,0.6958121221144373,-0.07299839858332924,-0.452175,-22.360895
11.185,2.0,1.0,1.0,34.3,33.4,33.4,4.2,3.5,2.825,-0.6590294500265892,-0.020873599849521775,0.6811184298190748,-0.07568481810581404,-0.466066,-22.101445
11.185,2.0,1.0,1.0,34.3,33.4,33.4,4.2,3.5,2.8275,-0.6721070622657391,-0.019785882346361458,0.6659415705231604,-0.07848613473580694,-0.48077,-21.836556
