1,w,sub_t,h,l1,l2,l3,g1,g2,Freq,S11_re,S21_re,S11_img,S21_img,S11_dB,S21_dB
11.185,2.0,1.0,1.0,34.8,33.1,33.1,2.5,3.8,2.5,0.643699735582602,-0.0130720980861857,0.75432885409989,0.00436265329650255,-0.072869,-37.214465
11.185,2.0,1.0,1.0,34.8,33.1,33.1,2.5,3.8,2.5025,0.6371623115554721,-0.013280270336834087,0.7597436387787797,0.004295023030244749,-0.073642,-37.103825
11.185,2.0,1.0,1.0,34.8,33.1,33.1,2.5,3.8,2.505,0.6305421288943397,-0.013491034923911514,0.7651305580845154,0.004224127119027803,-0.074429,-36.992931
11.185,2.0,1.0,1.0,34.8,33.1,33.1,2.5,3.8,2.5075,0.6238384541225698,-0.013704408765604751,0.7704886195369393,0.004149870628394139,-0.075229,-36.881778
11.185,2.0,1.0,1.0,34.8,33.1,33.1,2.5,3.8,2.51,0.6170505505950634,-0.01392040806113299,0.7758168044856777,0.00407215601581472,-0.076042,-36.770364
11.185,2.0,1.0,1.0,34.8,33.1,33.1,2.5,3.8,2.5125,0.6101776787876699,-0.014139048233564282,0.7811140674522419,0.003990883062597666,-0.076869,-36.658684
11.185,2.0,1.0,1.0,34.8,33.1,33.1,2.5,3.8,2.515,0.6032190966054675,-0.014360343869642096,0.7863793354584837,0.003905948804367015,-0.07771,-36.546735
11.185,2.0,1.0,1.0,34.8,33.1,33.1,2.5,3.8,2.5175,0.5961740597108026,-0.014584308656484751,0.7916115073413132,0.0038172474601101606,-0.078565,-36.434513
11.185,2.0,1.0,1.0,34.8,33.1,33.1,2.5,3.8,2.52,0.5890418218719725,-0.014810955315015698,0.7968094530536171,0.0037246703597936565,-0.079435,-36.322015
11.185,2.0,1.0,1.0,34.8,33.1,33.1,2.5,3.8,2.5225,0.5818216353335126,-0.01504029552997571,0.801972012951309,0.003628105870551288,-0.08032,-36.209237
11.185,2.0,1.0,1.0,34.8,33.1,33.1,2.5,3.8,2.525,0.5745127512090507,-0.01527233987636316,0.8070979970664885,0.0035274393214498093,-0.081221,-36.096175
11.185,2.0,1.0,1.0,34.8,33.1,33.1,2.5,3.8,2.5275,0.5671144198977384,-0.015507097742142109,0.8121861843666908,0.0034225529268424675,-0.082136,-35.982826
11.185,2.0,1.0,1.0,34.8,33.1,33.1,2.5,3.8,2.53,0.559625891525319,-0.015744577247050646,0.8172353220002221,0.003313325708322948,-0.083068,-35.869185
11.185,2.0,1.0,1.0,34.8,33.1,33.1,2.5,3.8,2.5325,0.5520464164109213,-0.01598478515733678,0.8222441245276276,0.0031996334152966472,-0.084015,-35.755251
11.185,2.0,1.0,1.0,34.8,33.1,33.1,2.5,3.8,2.535,0.5443752455606935,-0.016227726796241557,0.8272112731393348,0.00308134844419066,-0.08498,-35.641018
11.185,2.0,1.0,1.0,34.8,33.1,33.1,2.5,3.8,2.5375,0.536611631189476,-0.016473405950042094,0.8321354148595589,0.002958339756327611,-0.085961,-35.526483
11.185,2.0,1.0,1.0,34.8,33.1,33.1,2.5,3.8,2.54,0.5287548272716946,-0.01672182476946045,0.8370151617365846,0.00283047279449415,-0.086959,-35.411643
11.185,2.0,1.0,1.0,34.8,33.1,33.1,2.5,3.8,2.5425,0.5208040901227526,-0.016972983666236858,0.8418490900195761,0.0026976093982394914,-0.087975,-35.296494
11.185,2.0,1.0,1.0,34.8,33.1,33.1,2.5,3.8,2.545,0.5127586790122042,-0.017226881204658064,0.8466357393220824,0.0025596077179454355,-0.089009,-35.181032
11.185,2.0,1.0,1.0,34.8,33.1,33.1,2.5,3.8,2.5475,0.5046178568100765,-0.017483513987823728,0.8513736117724703,0.002416322127715373,-0.090061,-35.065254
11.185,2.0,1.0,1.0,34.8,33.1,33.1,2.5,3.8,2.55,0.4963808906676899,-0.01774287653842669,0.8560611711515367,0.0022676031371355342,-0.091132,-34.949156
11.185,2.0,1.0,1.0,34.8,33.1,33.1,2.5,3.8,2.5525,0.4880470527344657,-0.018004961173813446,0.8606968420176003,0.0021132973019703143,-0.092222,-34.832734
11.185,2.0,1.0,1.0,34.8,33.1,33.1,2.5,3.8,2.555,0.4796156209121602,-0.018269757875084305,0.8652790088194258,0.0019532471338586615,-0.093331,-34.715986
11.185,2.0,1.0,1.0,34.8,33.1,33.1,2.5,3.8,2.5575,0.47108587964807414,-0.01853725414998358,0.8698060149973804,0.0017872910090887715,-0.094461,-34.598906
11.185,2.0,1.0,1.0,34.8,33.1,33.1,2.5,3.8,2.56,0.4624571207688177,-0.01880743488932117,0.8742761620732635,0.0016152630765351942,-0.095611,-34.481492
11.185,2.0,1.0,1.0,34.8,33.1,33.1,2.5,3.8,2.5625,0.45372864435626387,-0.019080282216658962,0.8786877087293251,0.0014369931648524521,-0.096781,-34.36374
11.185,2.0,1.0,1.0,34.8,33.1,33.1,2.5,3.8,2.565,0.44489975966734974,-0.019355775330986192,0.8830388698770415,0.0012523066890282833,-0.097973,-34.245647
11.185,2.0,1.0,1.0,34.8,33.1,33.1,2.5,3.8,2.5675,0.435969786099482,-0.01963389034209829,0.8873278157162707,0.0010610245564108248,-0.099186,-34.127208
11.185,2.0,1.0,1.0,34.8,33.1,33.1,2.5,3.8,2.57,0.4269380542033037,-0.019914600098385762,0.8915526707855005,0.0008629630723339142,-0.100422,-34.008421
11.185,2.0,1.0,1.0,34.8,33.1,33.1,2.5,3.8,2.5725,0.4178039067446581,-0.02019787400672926,0.8957115130039515,0.0006579338454771833,-0.10168,-33.889281
11.185,2.0,1.0,1.0,34.8,33.1,33.1,2.5,3.8,2.575,0.4085666998176288,-0.02048367784418842,0.899802372706396,0.0004457436931095921,-0.102962,-33.769785
11.185,2.0,1.0,1.0,34.8,33.1,33.1,2.5,3.8,2.5775,0.399225804010585,-0.02077197356116192,0.9038232316716157,0.00022619454637841016,-0.104266,-33.64993
11.185,2.0,1.0,1.0,34.8,33.1,33.1,2.5,3.8,2.58,0.3897806056272168,-0.021062719075687197,0.9077720221455212,-9.166441807231206e-07,-0.105595,-33.529711
11.185,2.0,1.0,1.0,34.8,33.1,33.1,2.5,3.8,2.5825,0.38023050796457564,-0.021355868058539,0.9116466258600542,-0.00023579800272205563,-0.106949,-33.409126
11.185,2.0,1.0,1.0,34.8,33.1,33.1,2.5,3.8,2.585,0.3705749326502116,-0.02165136970877553,0.9154448730490684,-0.00047866282155016083,-0.108328,-33.28817
11.185,2.0,1.0,1.0,34.8,33.1,33.1,2.5,3.8,2.5875,0.36081332104051494,-0.02194916851937244,0.9191645414625115,-0.000729729653740381,-0.109732,-33.166841
11.185,2.0,1.0,1.0,34.8,33.1,33.1,2.5,3.8,2.59,0.3509451356824531,-0.022249204032574764,0.9228033553803322,-0.0009892224046787448,-0.111163,-33.045134
11.185,2.0,1.0,1.0,34.8,33.1,33.1,2.5,3.8,2.5925,0.3409698618408945,-0.022551410584588434,0.9263589846276474,-0.001257370422264161,-0.112621,-32.923046
11.185,2.0,1.0,1.0,34.8,33.1,33.1,2.5,3.8,2.595,0.3308870090938038,-0.022855717039222193,0.9298290435928207,-0.0015344085854940201,-0.114106,-32.800573
11.185,2.0,1.0,1.0,34.8,33.1,33.1,2.5,3.8,2.5975,0.32069611299758594,-0.023162046510083977,0.9332110902502657,-0.0018205773911369955,-0.115619,-32.677712
11.185,2.0,1.0,1.0,34.8,33.1,33.1,2.5,3.8,2.6,0.31039673682491936,-0.023470316070924983,0.9365026251898707,-0.002116123038173137,-0.117161,-32.55446
11.185,2.0,1.0,1.0,34.8,33.1,33.1,2.5,3.8,2.6025,0.29998847337747203,-0.023780436453716945,0.9397010906551205,-0.0024212975096599087,-0.118732,-32.430812
11.185,2.0,1.0,1.0,34.8,33.1,33.1,2.5,3.8,2.605,0.2894709468758766,-0.024092311734039917,0.9428038695921429,-0.002736358651659584,-0.120333,-32.306765
11.185,2.0,1.0,1.0,34.8,33.1,33.1,2.5,3.8,2.6075,0.2788438149294186,-0.024405839003349725,0.9458082847120248,-0.003061570248838822,-0.121965,-32.182316
11.185,2.0,1.0,1.0,34.8,33.1,33.1,2.5,3.8,2.61,0.2681067705878959,-0.024720908027686426,0.9487115975689596,-0.0033972020963246984,-0.123628,-32.057461
11.185,2.0,1.0,1.0,34.8,33.1,33.1,2.5,3.8,2.6125,0.25725954447812266,-0.025037400892378495,0.9515110076569204,-0.003743530067376175,-0.125323,-31.932196
11.185,2.0,1.0,1.0,34.8,33.1,33.1,2.5,3.8,2.615,0.24630190702756735,-0.025355191632291066,0.9542036515277464,-0.004100836176400951,-0.127051,-31.806518
11.185,2.0,1.0,1.0,34.8,33.1,33.1,2.5,3.8,2.6175,0.2352336707776458,-0.025674145847159314,0.9567866019337317,-0.004469408636818567,-0.128812,-31.680424
11.185,2.0,1.0,1.0,34.8,33.1,33.1,2.5,3.8,2.62,0.22405469278916146,-0.025994120301544178,0.9592568669979683,-0.0048495419132410815,-0.130607,-31.553909
11.185,2.0,1.0,1.0,34.8,33.1,33.1,2.5,3.8,2.6225,0.21276487714239298,-0.02631496250894232,0.9616113894159445,-0.00524153676741088,-0.132438,-31.426971
11.185,2.0,1.0,1.0,34.8,33.1,33.1,2.5,3.8,2.625,0.201364177534345,-0.0266365102995774,0.963847045692072,-0.00564570029730157,-0.134304,-31.299605
11.185,2.0,1.0,1.0,34.8,33.1,33.1,2.5,3.8,2.6275,0.18985259997559945,-0.026958591371398687,0.9659606454150652,-0.006062345968756713,-0.136207,-31.171809
11.185,2.0,1.0,1.0,34.8,33.1,33.1,2.5,3.8,2.63,0.17823020558923752,-0.027281022823808808,0.9679489305763076,-0.006491793639003436,-0.138147,-31.043578
11.185,2.0,1.0,1.0,34.8,33.1,33.1,2.5,3.8,2.6325,0.16649711351421975,-0.027603610673642188,0.9698085749355989,-0.006934369571344461,-0.140125,-30.91491
11.185,2.0,1.0,1.0,34.8,33.1,33.1,2.5,3.8,2.635,0.15465350391558996,-0.027926149352915496,0.9715361834388989,-0.007390406440293554,-0.142143,-30.785799
11.185,2.0,1.0,1.0,34.8,33.1,33.1,2.5,3.8,2.6375,0.1426996211038027,-0.02824842118787173,0.9731282916929668,-0.00786024332638225,-0.1442,-30.656244
11.185,2.0,1.0,1.0,34.8,33.1,33.1,2.5,3.8,2.64,0.13063577676536778,-0.028570195858842566,0.9745813655020328,-0.008344225699827554,-0.146299,-30.52624
11.185,2.0,1.0,1.0,34.8,33.1,33.1,2.5,3.8,2.6425,0.11846235330698325,-0.028891229840455647,0.9758918004719329,-0.008842705392208668,-0.148439,-30.395784
11.185,2.0,1.0,1.0,34.8,33.1,33.1,2.5,3.8,2.645,0.10617980731516356,-0.02921126582171883,0.9770559216874033,-0.009356040555262858,-0.150622,-30.264872
11.185,2.0,1.0,1.0,34.8,33.1,33.1,2.5,3.8,2.6475,0.0937886731333003,-0.029530032105518737,0.9780699834685169,-0.009884595605867371,-0.15285,-30.133501
11.185,2.0,1.0,1.0,34.8,33.1,33.1,2.5,3.8,2.65,0.08128956655791193,-0.029847241987078527,0.9789301692125566,-0.010428741156234846,-0.155122,-30.001666
11.185,2.0,1.0,1.0,34.8,33.1,33.1,2.5,3.8,2.6525,0.06868318865576434,-0.03016259311092713,0.9796325913278892,-0.010988853928304896,-0.15744,-29.869364
11.185,2.0,1.0,1.0,34.8,33.1,33.1,2.5,3.8,2.655,0.05597032970328042,-0.030475766805943633,0.9801732912667391,-0.011565316651275678,-0.159805,-29.736592
11.185,2.0,1.0,1.0,34.8,33.1,33.1,2.5,3.8,2.6575,0.04315187324954845,-0.030786427398050247,0.9805482396640565,-0.012158517941174033,-0.162218,-29.603346
11.185,2.0,1.0,1.0,34.8,33.1,33.1,2.5,3.8,2.66,0.030228800303981115,-0.0310942215001403,0.980753336589987,-0.0127688521613226,-0.16468,-29.469622
11.185,2.0,1.0,1.0,34.8,33.1,33.1,2.5,3.8,2.6625,0.017202193649487857,-0.03139877727884111,0.9807844119237819,-0.013396719262518555,-0.167193,-29.335416
11.185,2.0,1.0,1.0,34.8,33.1,33.1,2.5,3.8,2.665,0.004073242281710124,-0.031699703697727274,0.9806372258572933,-0.014042524601700194,-0.169758,-29.200725
11.185,2.0,1.0,1.0,34.8,33.1,33.1,2.5,3.8,2.6675,-0.009156754025338042,-0.03199658973661405,0.980307469536528,-0.014706678737832879,-0.172375,-29.065544
11.185,2.0,1.0,1.0,34.8,33.1,33.1,2.5,3.8,2.67,-0.022486380027236384,-0.032289003586579414,0.979790765850053,-0.015389597203710676,-0.175046,-28.92987
11.185,2.0,1.0,1.0,34.8,33.1,33.1,2.5,3.8,2.6725,-0.03591410019106745,-0.03257649182037925,0.979082670373367,-0.01609170025232925,-0.177773,-28.793699
11.185,2.0,1.0,1.0,34.8,33.1,33.1,2.5,3.8,2.675,-0.049438253751924066,-0.03285857853793848,0.9781786724786571,-0.01681341257644949,-0.180557,-28.657027
11.185,2.0,1.0,1.0,34.8,33.1,33.1,2.5,3.8,2.6775,-0.06305704964510224,-0.03313476448661929,0.9770741966196878,-0.017555162999937774,-0.183398,-28.519849
11.185,2.0,1.0,1.0,34.8,33.1,33.1,2.5,3.8,2.68,-0.07676856131545526,-0.03340452615598484,0.9757646038018509,-0.01831738413943582,-0.1863,-28.382162
11.185,2.0,1.0,1.0,34.8,33.1,33.1,2.5,3.8,2.6825,-0.09057072140581993,-0.033667314846794284,0.9742451932477174,-0.0191005120348838,-0.189262,-28.243961
11.185,2.0,1.0,1.0,34.8,33.1,33.1,2.5,3.8,2.685,-0.10446131632693219,-0.033922555713980576,0.9725112042686975,-0.019904985747394514,-0.192287,-28.105242
11.185,2.0,1.0,1.0,34.8,33.1,33.1,2.5,3.8,2.6875,-0.11843798071172516,-0.03416964678337658,0.9705578183536884,-0.02073124692295338,-0.195375,-27.966001
11.185,2.0,1.0,1.0,34.8,33.1,33.1,2.5,3.8,2.69,-0.13249819175743338,-0.034407957941966126,0.9683801614858406,-0.02157973932039884,-0.19853,-27.826233
11.185,2.0,1.0,1.0,34.8,33.1,33.1,2.5,3.8,2.6925,-0.1466392634595433,-0.034636829901445614,0.9659733066987988,-0.02245090830212648,-0.201752,-27.685933
11.185,2.0,1.0,1.0,34.8,33.1,33.1,2.5,3.8,2.695,-0.16085834074214655,-0.03485557313488333,0.9633322768839702,-0.02334520028594488,-0.205042,-27.545097
11.185,2.0,1.0,1.0,34.8,33.1,33.1,2.5,3.8,2.6975,-0.1751523934899737,-0.03506346678626445,0.9604520478605718,-0.024263062156512458,-0.208403,-27.40372
11.185,2.0,1.0,1.0,34.8,33.1,33.1,2.5,3.8,2.7,-0.189518210487963,-0.03525975755269821,0.9573275517203361,-0.02520494063478003,-0.211837,-27.261797
11.185,2.0,1.0,1.0,34.8,33.1,33.1,2.5,3.8,2.7025,-0.203952393274973,-0.03544365853904891,0.9539536804588722,-0.02617128160387389,-0.215345,-27.119322
11.185,2.0,1.0,1.0,34.8,33.1,33.1,2.5,3.8,2.705,-0.21845134991890056,-0.03561434808472398,0.9503252899057686,-0.027162529389863896,-0.218929,-26.976291
11.185,2.0,1.0,1.0,34.8,33.1,33.1,2.5,3.8,2.7075,-0.23301128872127075,-0.035770968562314646,0.9464372039655331,-0.02817912599588345,-0.222592,-26.832697
11.185,2.0,1.0,1.0,34.8,33.1,33.1,2.5,3.8,2.71,-0.24762821186006645,-0.03591262514773136,0.9422842191814778,-0.029221510288089877,-0.226334,-26.688536
11.185,2.0,1.0,1.0,34.8,33.1,33.1,2.5,3.8,2.7125,-0.262297908980408,-0.03603838456140825,0.9378611096345715,-0.030290117131990393,-0.230159,-26.5438
11.185,2.0,1.0,1.0,34.8,33.1,33.1,2.5,3.8,2.715,-0.2770159507434366,-0.03614727378006186,0.9331626321891676,-0.031385376477694404,-0.234069,-26.398484
11.185,2.0,1.0,1.0,34.8,33.1,33.1,2.5,3.8,2.7175,-0.29177768234462387,-0.0362382787183807,0.9281835320973503,-0.03250771239270145,-0.238065,-26.252582
11.185,2.0,1.0,1.0,34.8,33.1,33.1,2.5,3.8,2.72,-0.3065782170134907,-0.03631034287988662,0.9229185489733769,-0.0336575420408828,-0.24215,-26.106086
11.185,2.0,1.0,1.0,34.8,33.1,33.1,2.5,3.8,2.7225,-0.3214124295076134,-0.03636236597604543,0.9173624231493909,-0.03483527460637865,-0.246326,-25.95899
11.185,2.0,1.0,1.0,34.8,33.1,33.1,2.5,3.8,2.725,-0.3362749496145111,-0.03639320251250655,0.9115099024232015,-0.036041310161187015,-0.250597,-25.811287
11.185,2.0,1.0,1.0,34.8,33.1,33.1,2.5,3.8,2.7275,-0.35116015567594333,-0.03640166034111755,0.9053557492084385,-0.03727603847529826,-0.254964,-25.662967
11.185,2.0,1.0,1.0,34.8,33.1,33.1,2.5,3.8,2.73,-0.366062168149785,-0.03638649917608118,0.8988947480968806,-0.03853983776828975,-0.25943,-25.514024
11.185,2.0,1.0,1.0,34.8,33.1,33.1,2.5,3.8,2.7325,-0.38097484322552644,-0.03634642907229713,0.8921217138420834,-0.039833073401374174,-0.263998,-25.364449
11.185,2.0,1.0,1.0,34.8,33.1,33.1,2.5,3.8,2.735,-0.3958917665100583,-0.03628010886355,0.8850314997727495,-0.041156096508959475,-0.26867,-25.214233
11.185,2.0,1.0,1.0,34.8,33.1,33.1,2.5,3.8,2.7375,-0.41080624680111866,-0.03618614455776279,0.8776190066434503,-0.04250924256885074,-0.273451,-25.063367
11.185,2.0,1.0,1.0,34.8,33.1,33.1,2.5,3.8,2.74,-0.42571130996632994,-0.0360630876860249,0.869879191929416,-0.04389282991027954,-0.278342,-24.91184
11.185,2.0,1.0,1.0,34.8,33.1,33.1,2.5,3.8,2.7425,-0.4405996929462796,-0.03590943360151407,0.8618070795710995,-0.04530715815900042,-0.283348,-24.759642
11.185,2.0,1.0,1.0,34.8,33.1,33.1,2.5,3.8,2.745,-0.4554638379004824,-0.035723619723757774,0.8533977701731441,-0.046752506618724994,-0.288471,-24.606762
11.185,2.0,1.0,1.0,34.8,33.1,33.1,2.5,3.8,2.7475,-0.4702958865153634,-0.03550402372290721,0.844646451661185,-0.04822913258817933,-0.293715,-24.453189
11.185,2.0,1.0,1.0,34.8,33.1,33.1,2.5,3.8,2.75,-0.485087674493544,-0.0352489616378176,0.835548410398631,-0.0497372696130552,-0.299084,-24.29891
11.185,2.0,1.0,1.0,34.8,33.1,33.1,2.5,3.8,2.7525,-0.4998307262436776,-0.034956685920729244,0.8260990427642355,-0.051277125672076075,-0.304581,-24.143911
11.185,2.0,1.0,1.0,34.8,33.1,33.1,2.5,3.8,2.755,-0.51451624978991,-0.03462538340021102,0.8162938671897902,-0.05284888129630311,-0.310211,-23.98818
11.185,2.0,1.0,1.0,34.8,33.1,33.1,2.5,3.8,2.7575,-0.529135131919627,-0.03425317315274558,0.806128536655762,-0.05445268762066003,-0.315978,-23.831702
11.185,2.0,1.0,1.0,34.8,33.1,33.1,2.5,3.8,2.76,-0.5436779335874572,-0.03383810427189231,0.7955988516411427,-0.056088664366429945,-0.321885,-23.67446
11.185,2.0,1.0,1.0,34.8,33.1,33.1,2.5,3.8,2.7625,-0.558134885592638,-0.03337815352233361,0.784700773522109,-0.05775689775318437,-0.327939,-23.516439
11.185,2.0,1.0,1.0,34.8,33.1,33.1,2.5,3.8,2.765,-0.5724958845455704,-0.03287122286428268,0.7734304384124652,-0.059457438338194835,-0.334143,-23.35762
11.185,2.0,1.0,1.0,34.8,33.1,33.1,2.5,3.8,2.7675,-0.5867504891378419,-0.03231513683167657,0.7617841714371816,-0.061190298780858396,-0.340502,-23.197986
11.185,2.0,1.0,1.0,34.8,33.1,33.1,2.5,3.8,2.77,-0.6008879167280458,-0.03170763974527804,0.7497585014286413,-0.0629554515290038,-0.347023,-23.037517
11.185,2.0,1.0,1.0,34.8,33.1,33.1,2.5,3.8,2.7725,-0.6148970402533461,-0.031046392739236258,0.7373501760336731,-0.06475282642310327,-0.35371,-22.876191
11.185,2.0,1.0,1.0,34.8,33.1,33.1,2.5,3.8,2.775,-0.6287663854738896,-0.03032897057677918,0.7245561772178831,-0.06658230821338001,-0.36057,-22.713987
11.185,2.0,1.0,1.0,34.8,33.1,33.1,2.5,3.8,2.7775,-0.6424841285538001,-0.029552858227500593,0.7113737371524184,-0.06844373398352029,-0.367608,-22.55088
11.185,2.0,1.0,1.0,34.8,33.1,33.1,2.5,3.8,2.78,-0.6560380939785911,-0.02871544717512113,0.697800354467087,-0.07033689047314479,-0.374832,-22.386846
11.185,2.0,1.0,1.0,34.8,33.1,33.1,2.5,3.8,2.7825,-0.6694157528041916,-0.02781403142061682,0.6838338108527956,-0.07226151128929718,-0.382249,-22.221857
11.185,2.0,1.0,1.0,34.8,33.1,33.1,2.5,3.8,2.785,-0.682604221227644,-0.026845803141158357,0.669472187995551,-0.07421727399494511,-0.389866,-22.055886
11.185,2.0,1.0,1.0,34.8,33.1,33.1,2.5,3.8,2.7875,-0.6955902594633908,-0.02580784796036651,0.6547138848240492,-0.07620379705974556,-0.39769,-21.888901
11.185,2.0,1.0,1.0,34.8,33.1,33.1,2.5,3.8,2.79,-0.7083602709023462,-0.024697139779881704,0.6395576350530158,-0.07822063665508092,-0.40573,-21.720871
11.185,2.0,1.0,1.0,34.8,33.1,33.1,2.5,3.8,2.7925,-0.7209003015231175,-0.023510535116134868,0.6240025250053104,-0.08026728327147903,-0.413996,-21.551761
11.185,2.0,1.0,1.0,34.8,33.1,33.1,2.5,3.8,2.795,-0.7331960395160816,-0.02224476687940081,0.6080480116972269,-0.08234315813193654,-0.422497,-21.381536
11.185,2.0,1.0,1.0,34.8,33.1,33.1,2.5,3.8,2.7975,-0.7452328150711138,-0.020896437524665558,0.5916939411738956,-0.08444760936919195,-0.431242,-21.210154
11.185,2.0,1.0,1.0,34.8,33.1,33.1,2.5,3.8,2.8,-0.7569956002688818,-0.01946201149543032,0.5749405670849852,-0.08657990792855672,-0.440243,-21.037577
11.185,2.0,1.0,1.0,34.8,33.1,33.1,2.5,3.8,2.8025,-0.7684690090032411,-0.017937806872244593,0.5577885694956023,-0.08873924315028205,-0.449511,-20.863759
11.185,2.0,1.0,1.0,34.8,33.1,33.1,2.5,3.8,2.805,-0.779637296848645,-0.016319986127384133,0.5402390739333607,-0.09092471797645046,-0.459059,-20.688654
11.185,2.0,1.0,1.0,34.8,33.1,33.1,2.5,3.8,2.8075,-0.7904843607712028,-0.014604545875551628,0.5222936706804261,-0.09313534371678667,-0.4689,-20.512211
11.185,2.0,1.0,1.0,34.8,33.1,33.1,2.5,3.8,2.81,-0.8009937385651882,-0.012787305497655615,0.5039544343292145,-0.09537003429529146,-0.479048,-20.334379
11.185,2.0,1.0,1.0,34.8,33.1,33.1,2.5,3.8,2.8125,-0.811148607878039,-0.0108638945004667,0.485223943632763,-0.0976275998848803,-0.489519,-20.155099
11.185,2.0,1.0,1.0,34.8,33.1,33.1,2.5,3.8,2.815,-0.8209317846661761,-0.008829738459088386,0.46610530169593445,-0.09990673981986796,-0.50033,-19.974313
11.185,2.0,1.0,1.0,34.8,33.1,33.1,2.5,3.8,2.8175,-0.8303257209011088,-0.006680043371551551,0.4466021565722204,-0.10220603465567715,-0.511499,-19.791957
11.185,2.0,1.0,1.0,34.8,33.1,33.1,2.5,3.8,2.82,-0.8393125013200213,-0.004409778235230905,0.4267187223534378,-0.10452393722100713,-0.523044,-19.607962
11.185,2.0,1.0,1.0,34.8,33.1,33.1,2.5,3.8,2.8225,-0.8478738389871606,-0.002013655632984272,0.4064598008669924,-0.10685876247917923,-0.534988,-19.422255
11.185,2.0,1.0,1.0,34.8,33.1,33.1,2.5,3.8,2.825,-0.8559910694017318,0.0005138899073093068,0.3858308041282647,-0.10920867598164605,-0.547353,-19.234761
11.185,2.0,1.0,1.0,34.8,33.1,33.1,2.5,3.8,2.8275,-0.8636451428542585,0.003178726043040647,0.3648377777353021,-0.11157168065671215,-0.560163,-19.045397
