1,w,sub_t,h,l1,l2,l3,g1,g2,Freq,S11_re,S21_re,S11_img,S21_img,S11_dB,S21_dB
11.185,2.0,1.0,1.0,33.7,34.9,34.9,1.6,3.8,2.5,0.811562519973208,-0.0138870234846363,0.569220547479542,0.0105192659614645,-0.07603,-35.17835
11.185,2.0,1.0,1.0,33.7,34.9,34.9,1.6,3.8,2.5025,0.8072645223081368,-0.014212902374639373,0.5750984559026247,0.01058730674787991,-0.077053,-35.029353
11.185,2.0,1.0,1.0,33.7,34.9,34.9,1.6,3.8,2.505,0.8028975101083137,-0.0145469690378769,0.5809755376689039,0.010654498319710931,-0.078102,-34.879394
11.185,2.0,1.0,1.0,33.7,34.9,34.9,1.6,3.8,2.5075,0.7984605016666708,-0.014889487382247452,0.586851441980168,0.010720763769576834,-0.079178,-34.728451
11.185,2.0,1.0,1.0,33.7,34.9,34.9,1.6,3.8,2.51,0.7939524902421192,-0.015240732358391152,0.5927258037093525,0.010786021355628995,-0.080281,-34.5765
11.185,2.0,1.0,1.0,33.7,34.9,34.9,1.6,3.8,2.5125,0.7893724431597463,-0.01560099052948702,0.598598242722335,0.010850184174008624,-0.081412,-34.423516
11.185,2.0,1.0,1.0,33.7,34.9,34.9,1.6,3.8,2.515,0.7847193008662208,-0.015970560676064022,0.6044683631609095,0.010913159806320946,-0.082573,-34.269474
11.185,2.0,1.0,1.0,33.7,34.9,34.9,1.6,3.8,2.5175,0.7799919759375433,-0.01634975443832163,0.6103357526841381,0.010974849939970444,-0.083765,-34.11435
11.185,2.0,1.0,1.0,33.7,34.9,34.9,1.6,3.8,2.52,0.7751893520360346,-0.016738896998657833,0.6161999816650687,0.011035149958991483,-0.084988,-33.958115
11.185,2.0,1.0,1.0,33.7,34.9,34.9,1.6,3.8,2.5225,0.7703102828132457,-0.017138327807322416,0.6220606023395037,0.011093948502779614,-0.086245,-33.800744
11.185,2.0,1.0,1.0,33.7,34.9,34.9,1.6,3.8,2.525,0.7653535907551827,-0.017548401354354523,0.6279171479032448,0.011151126989868115,-0.087535,-33.642208
11.185,2.0,1.0,1.0,33.7,34.9,34.9,1.6,3.8,2.5275,0.7603180659659668,-0.017969487991225785,0.6337691315538915,0.011206559103613246,-0.088861,-33.482478
11.185,2.0,1.0,1.0,33.7,34.9,34.9,1.6,3.8,2.53,0.7552024648857429,-0.018401974805895345,0.6396160454729124,0.011260110236330272,-0.090224,-33.321524
11.185,2.0,1.0,1.0,33.7,34.9,34.9,1.6,3.8,2.5325,0.7500055089383073,-0.018846266555298623,0.6454573597433155,0.011311636888073523,-0.091625,-33.159316
11.185,2.0,1.0,1.0,33.7,34.9,34.9,1.6,3.8,2.535,0.7447258831035483,-0.019302786659633968,0.651292521197799,0.011360986015856866,-0.093067,-32.995822
11.185,2.0,1.0,1.0,33.7,34.9,34.9,1.6,3.8,2.5375,0.7393622344094012,-0.019771978263185244,0.6571209521917718,0.011407994328675676,-0.094549,-32.83101
11.185,2.0,1.0,1.0,33.7,34.9,34.9,1.6,3.8,2.54,0.7339131703375686,-0.020254305366831198,0.6629420492950828,0.01145248752320029,-0.096075,-32.664847
11.185,2.0,1.0,1.0,33.7,34.9,34.9,1.6,3.8,2.5425,0.7283772571367715,-0.020750254037843616,0.6687551818957055,0.01149427945446384,-0.097647,-32.497296
11.185,2.0,1.0,1.0,33.7,34.9,34.9,1.6,3.8,2.545,0.7227530180367677,-0.0212603337030688,0.6745596907079319,0.011533171235257138,-0.099265,-32.328324
11.185,2.0,1.0,1.0,33.7,34.9,34.9,1.6,3.8,2.5475,0.7170389313558108,-0.021785078532131106,0.6803548861768767,0.01156895025725436,-0.100932,-32.157892
11.185,2.0,1.0,1.0,33.7,34.9,34.9,1.6,3.8,2.55,0.711233428493536,-0.022325048917895246,0.6861400467702663,0.01160138912612759,-0.10265,-31.985963
11.185,2.0,1.0,1.0,33.7,34.9,34.9,1.6,3.8,2.5525,0.7053348918006334,-0.022880833062075334,0.6919144171475132,0.011630244502041073,-0.104421,-31.812496
11.185,2.0,1.0,1.0,33.7,34.9,34.9,1.6,3.8,2.555,0.6993416523158243,-0.023453048674605063,0.6976772061950518,0.011655255835946485,-0.106248,-31.637452
11.185,2.0,1.0,1.0,33.7,34.9,34.9,1.6,3.8,2.5575,0.6932519873598653,-0.024042344796173776,0.7034275849157045,0.011676143991004927,-0.108134,-31.460788
11.185,2.0,1.0,1.0,33.7,34.9,34.9,1.6,3.8,2.56,0.687064117975352,-0.024649403754208432,0.7091646841585136,0.01169260973722864,-0.11008,-31.28246
11.185,2.0,1.0,1.0,33.7,34.9,34.9,1.6,3.8,2.5625,0.680776206200079,-0.0252749432635457,0.714887592173993,0.0117043321060407,-0.11209,-31.102423
11.185,2.0,1.0,1.0,33.7,34.9,34.9,1.6,3.8,2.565,0.6743863521605772,-0.025919718684100784,0.7205953519780374,0.011710966589876784,-0.114167,-30.92063
11.185,2.0,1.0,1.0,33.7,34.9,34.9,1.6,3.8,2.5675,0.6678925909712233,-0.02658452544901161,0.7262869585058365,0.011712143170168625,-0.116314,-30.737032
11.185,2.0,1.0,1.0,33.7,34.9,34.9,1.6,3.8,2.57,0.6612928894229337,-0.02727020167803228,0.7319613555349813,0.01170746415502528,-0.118534,-30.551579
11.185,2.0,1.0,1.0,33.7,34.9,34.9,1.6,3.8,2.5725,0.6545851424439505,-0.027977630992380733,0.7376174323544991,0.011696501805630984,-0.120831,-30.364218
11.185,2.0,1.0,1.0,33.7,34.9,34.9,1.6,3.8,2.575,0.6477671693135602,-0.02870774554882143,0.7432540201537875,0.01167879572776362,-0.123208,-30.174896
11.185,2.0,1.0,1.0,33.7,34.9,34.9,1.6,3.8,2.5775,0.6408367096077375,-0.029461529312517346,0.7488698881022633,0.011653850001862712,-0.125671,-29.983554
11.185,2.0,1.0,1.0,33.7,34.9,34.9,1.6,3.8,2.58,0.6337914188536954,-0.03024002159011044,0.7544637390869664,0.011621130021672338,-0.128223,-29.790136
11.185,2.0,1.0,1.0,33.7,34.9,34.9,1.6,3.8,2.5825,0.6266288638680356,-0.031044320846632046,0.7600342050712606,0.011580059007606868,-0.130869,-29.594579
11.185,2.0,1.0,1.0,33.7,34.9,34.9,1.6,3.8,2.585,0.6193465177507396,-0.031875588832206696,0.7655798420331077,0.011530014156534492,-0.133614,-29.396821
11.185,2.0,1.0,1.0,33.7,34.9,34.9,1.6,3.8,2.5875,0.611941754504483,-0.03273505504712844,0.7710991244360583,0.011470322384575928,-0.136464,-29.196795
11.185,2.0,1.0,1.0,33.7,34.9,34.9,1.6,3.8,2.59,0.6044118432457098,-0.03362402157678429,0.7765904391799586,0.011400255613654715,-0.139424,-28.994431
11.185,2.0,1.0,1.0,33.7,34.9,34.9,1.6,3.8,2.5925,0.5967539419705477,-0.03454386833110186,0.7820520789713533,0.011319025545789126,-0.1425,-28.78966
11.185,2.0,1.0,1.0,33.7,34.9,34.9,1.6,3.8,2.595,0.58896509083495,-0.03549605872673427,0.7874822350454478,0.01122577786133713,-0.145699,-28.582404
11.185,2.0,1.0,1.0,33.7,34.9,34.9,1.6,3.8,2.5975,0.5810422049043024,-0.03648214585411485,0.792878989162184,0.011119585768417933,-0.149028,-28.372588
11.185,2.0,1.0,1.0,33.7,34.9,34.9,1.6,3.8,2.6,0.5729820663232542,-0.037503779175827805,0.7982403047881529,0.010999442820328699,-0.152495,-28.160128
11.185,2.0,1.0,1.0,33.7,34.9,34.9,1.6,3.8,2.6025,0.5647813158515201,-0.03856271180750757,0.8035640173635986,0.01086425490570621,-0.156108,-27.944939
11.185,2.0,1.0,1.0,33.7,34.9,34.9,1.6,3.8,2.605,0.5564364437058796,-0.03966080843772718,0.8088478235392508,0.010712831302154942,-0.159877,-27.726933
11.185,2.0,1.0,1.0,33.7,34.9,34.9,1.6,3.8,2.6075,0.5479437796426084,-0.040800053949097,0.8140892692508642,0.010543874667723647,-0.163811,-27.506016
11.185,2.0,1.0,1.0,33.7,34.9,34.9,1.6,3.8,2.61,0.5392994822078933,-0.041982562809114776,0.8192857364796762,0.010355969825540639,-0.16792,-27.282091
11.185,2.0,1.0,1.0,33.7,34.9,34.9,1.6,3.8,2.6125,0.5304995270765863,-0.043210589306208705,0.8244344285240118,0.010147571174604682,-0.172215,-27.055055
11.185,2.0,1.0,1.0,33.7,34.9,34.9,1.6,3.8,2.615,0.5215396943917571,-0.044486538713915905,0.8295323535804219,0.009916988533571218,-0.176711,-26.824801
11.185,2.0,1.0,1.0,33.7,34.9,34.9,1.6,3.8,2.6175,0.512415555008968,-0.045812979474251454,0.8345763064010839,0.009662371193630205,-0.181419,-26.591217
11.185,2.0,1.0,1.0,33.7,34.9,34.9,1.6,3.8,2.62,0.5031224555400426,-0.04719265650003045,0.8395628477571355,0.00938168992036109,-0.186354,-26.354184
11.185,2.0,1.0,1.0,33.7,34.9,34.9,1.6,3.8,2.6225,0.49365550208129755,-0.048628505705152224,0.8444882813937387,0.009072716601690768,-0.191533,-26.113579
11.185,2.0,1.0,1.0,33.7,34.9,34.9,1.6,3.8,2.625,0.484009542501006,-0.0501236698815618,0.849348628110893,0.0087330011884714,-0.196974,-25.869271
11.185,2.0,1.0,1.0,33.7,34.9,34.9,1.6,3.8,2.6275,0.4741791471501084,-0.051681516051592456,0.8541395965425405,0.008359845514128803,-0.202694,-25.621122
11.185,2.0,1.0,1.0,33.7,34.9,34.9,1.6,3.8,2.63,0.4641585878495883,-0.05330565443441162,0.8588565501335633,0.007950273508382812,-0.208717,-25.368988
11.185,2.0,1.0,1.0,33.7,34.9,34.9,1.6,3.8,2.6325,0.4539418149973568,-0.054999959174956946,0.8634944697271288,0.007500997234799894,-0.215064,-25.112716
11.185,2.0,1.0,1.0,33.7,34.9,34.9,1.6,3.8,2.635,0.44352243262795,-0.056768590992467234,0.8680479110708912,0.007008378079994806,-0.221761,-24.852145
11.185,2.0,1.0,1.0,33.7,34.9,34.9,1.6,3.8,2.6375,0.43289367125040795,-0.05861602191265387,0.8725109564258491,0.006468382300034424,-0.228838,-24.587106
11.185,2.0,1.0,1.0,33.7,34.9,34.9,1.6,3.8,2.64,0.42204835828456955,-0.060547062251522815,0.8768771593117901,0.005876529982557878,-0.236324,-24.317419
11.185,2.0,1.0,1.0,33.7,34.9,34.9,1.6,3.8,2.6425,0.41097888591561915,-0.06256689001811457,0.8811394812426251,0.005227836305807997,-0.244256,-24.042893
11.185,2.0,1.0,1.0,33.7,34.9,34.9,1.6,3.8,2.645,0.3996771761931347,-0.064681082895607,0.8852902190866135,0.004516743761311721,-0.25267,-23.763328
11.185,2.0,1.0,1.0,33.7,34.9,34.9,1.6,3.8,2.6475,0.3881346432177165,-0.06689565294190064,0.8893209214216795,0.0037370437468453666,-0.261611,-23.47851
11.185,2.0,1.0,1.0,33.7,34.9,34.9,1.6,3.8,2.65,0.376342152290172,-0.06921708411727978,0.8932222919342575,0.00288178561995894,-0.271127,-23.188212
11.185,2.0,1.0,1.0,33.7,34.9,34.9,1.6,3.8,2.6525,0.3642899759518639,-0.0716523726913482,0.8969840775175788,0.001943170916429798,-0.281271,-22.892196
11.185,2.0,1.0,1.0,33.7,34.9,34.9,1.6,3.8,2.655,0.35196774692936345,-0.07420907049497794,0.9005949382453154,0.0009124299659728975,-0.292104,-22.590204
11.185,2.0,1.0,1.0,33.7,34.9,34.9,1.6,3.8,2.6575,0.3393644081251529,-0.07689533085247685,0.9040422958079998,-0.00022032244149258198,-0.303695,-22.281965
11.185,2.0,1.0,1.0,33.7,34.9,34.9,1.6,3.8,2.66,0.32646815998676165,-0.07971995683653377,0.9073121562756471,-0.0014662563978726575,-0.316119,-21.96719
11.185,2.0,1.0,1.0,33.7,34.9,34.9,1.6,3.8,2.6625,0.31326640586504795,-0.0826924512083173,0.9103889021577074,-0.002838026164201686,-0.329466,-21.64557
11.185,2.0,1.0,1.0,33.7,34.9,34.9,1.6,3.8,2.665,0.2997456963740721,-0.08582306700178695,0.9132550476284351,-0.0043500054255416875,-0.343834,-21.316776
11.185,2.0,1.0,1.0,33.7,34.9,34.9,1.6,3.8,2.6675,0.28589167434076146,-0.08912285713458855,0.9158909494196837,-0.006018565880051841,-0.359336,-20.980457
11.185,2.0,1.0,1.0,33.7,34.9,34.9,1.6,3.8,2.67,0.27168902275349016,-0.09260372060705392,0.9182744641881245,-0.00786240819662968,-0.376103,-20.636237
11.185,2.0,1.0,1.0,33.7,34.9,34.9,1.6,3.8,2.6725,0.2571214192861057,-0.0962784416853273,0.9203805410579733,-0.009902956447342464,-0.394285,-20.283713
11.185,2.0,1.0,1.0,33.7,34.9,34.9,1.6,3.8,2.675,0.2421715026316247,-0.10016071681183812,0.9221807354224775,-0.01216482969589448,-0.414054,-19.922457
11.185,2.0,1.0,1.0,33.7,34.9,34.9,1.6,3.8,2.6775,0.2268208582329487,-0.10426516164257768,0.923642626834,-0.014676407622559983,-0.43561,-19.552008
11.185,2.0,1.0,1.0,33.7,34.9,34.9,1.6,3.8,2.68,0.2110500343408693,-0.10860728728437093,0.9247291197761449,-0.017470511033719657,-0.459187,-19.171873
11.185,2.0,1.0,1.0,33.7,34.9,34.9,1.6,3.8,2.6825,0.1948386040851251,-0.11320343007758772,0.9253976011206008,-0.02058522300736666,-0.485057,-18.781524
11.185,2.0,1.0,1.0,33.7,34.9,34.9,1.6,3.8,2.685,0.1781652960223167,-0.11807061253641704,0.9255989219384587,-0.024064882447255416,-0.513542,-18.380397
11.185,2.0,1.0,1.0,33.7,34.9,34.9,1.6,3.8,2.6875,0.161008225308071,-0.123226303446169,0.925276163874782,-0.0279612891368534,-0.545021,-17.967888
11.185,2.0,1.0,1.0,33.7,34.9,34.9,1.6,3.8,2.69,0.14334527151027643,-0.1286880313583509,0.9243631413646397,-0.0323351681330191,-0.579944,-17.54335
11.185,2.0,1.0,1.0,33.7,34.9,34.9,1.6,3.8,2.6925,0.12515466899583746,-0.13447278598031479,0.922782580558143,-0.037257951519289775,-0.61885,-17.106098
11.185,2.0,1.0,1.0,33.7,34.9,34.9,1.6,3.8,2.695,0.10641590448756609,-0.14059611355672944,0.9204439042183704,-0.04281394685148658,-0.662388,-16.655402
11.185,2.0,1.0,1.0,33.7,34.9,34.9,1.6,3.8,2.6975,0.08711105771788681,-0.1470707714167828,0.9172405399601673,-0.04910297316333808,-0.71134,-16.19049
11.185,2.0,1.0,1.0,33.7,34.9,34.9,1.6,3.8,2.7,0.06722678074922529,-0.15390474784125052,0.9130466591043946,-0.05624355505637353,-0.76666,-15.710556
11.185,2.0,1.0,1.0,33.7,34.9,34.9,1.6,3.8,2.7025,0.04675719754150313,-0.16109836834709446,0.9077132494763929,-0.06437676883867467,-0.829518,-15.21476
11.185,2.0,1.0,1.0,33.7,34.9,34.9,1.6,3.8,2.705,0.025708128992650188,-0.16864008729772445,0.9010634361707922,-0.0736708234469241,-0.901359,-14.702249
11.185,2.0,1.0,1.0,33.7,34.9,34.9,1.6,3.8,2.7075,0.004103225193063917,-0.17650038944564123,0.8928870056359969,-0.08432641708887607,-0.983978,-14.172172
11.185,2.0,1.0,1.0,33.7,34.9,34.9,1.6,3.8,2.71,-0.018007164645743555,-0.1846229806372349,0.8829341897671305,-0.09658280904393661,-1.079627,-13.623714
11.185,2.0,1.0,1.0,33.7,34.9,34.9,1.6,3.8,2.7125,-0.04053321171937913,-0.1929121094888198,0.8709089807568107,-0.1107243326219781,-1.191148,-13.056145
11.185,2.0,1.0,1.0,33.7,34.9,34.9,1.6,3.8,2.715,-0.063327291504856,-0.20121441689849673,0.8564626667053522,-0.12708665840047925,-1.322152,-12.468901
11.185,2.0,1.0,1.0,33.7,34.9,34.9,1.6,3.8,2.7175,-0.08615795469997567,-0.20929316840158232,0.8391890598431524,-0.14606134096346754,-1.477265,-11.861686
11.185,2.0,1.0,1.0,33.7,34.9,34.9,1.6,3.8,2.72,-0.10867344169191615,-0.2167921718143218,0.8186242899444603,-0.1680957945242065,-1.662439,-11.234644
11.185,2.0,1.0,1.0,33.7,34.9,34.9,1.6,3.8,2.7225,-0.13035168819317622,-0.22318638979634897,0.7942564419403381,-0.19368346199622444,-1.885357,-10.588592
11.185,2.0,1.0,1.0,33.7,34.9,34.9,1.6,3.8,2.725,-0.15043439622649402,-0.22771689677595686,0.7655542307407821,-0.22333507563618707,-2.15594,-9.925358
11.185,2.0,1.0,1.0,33.7,34.9,34.9,1.6,3.8,2.7275,-0.16784578384252027,-0.22931086487003344,0.7320297492236673,-0.2575161464391046,-2.486903,-9.248253
11.185,2.0,1.0,1.0,33.7,34.9,34.9,1.6,3.8,2.73,-0.18110490871345758,-0.22649548993446267,0.693357740735524,-0.2965285312904481,-2.894224,-8.562691
11.185,2.0,1.0,1.0,33.7,34.9,34.9,1.6,3.8,2.7325,-0.18825849478634865,-0.21733262980291418,0.6495798869504521,-0.34030804996659597,-3.397083,-7.876977
11.185,2.0,1.0,1.0,33.7,34.9,34.9,1.6,3.8,2.735,-0.18689374273265794,-0.19943308520923334,0.6014181128967391,-0.3881147321365557,-4.016111,-7.20318
11.185,2.0,1.0,1.0,33.7,34.9,34.9,1.6,3.8,2.7375,-0.1743357280059288,-0.17015388179268656,0.550686063093028,-0.43812696221387026,-4.767114,-6.557894
11.185,2.0,1.0,1.0,33.7,34.9,34.9,1.6,3.8,2.74,-0.14816545974323891,-0.12711253408964665,0.5006945337837236,-0.48704326108562723,-5.643977,-5.96247
11.185,2.0,1.0,1.0,33.7,34.9,34.9,1.6,3.8,2.7425,-0.10713925567378525,-0.06909665622373827,0.4563883189975789,-0.529951676760348,-6.580333,-5.442066
11.185,2.0,1.0,1.0,33.7,34.9,34.9,1.6,3.8,2.745,-0.052345909465181514,0.002794799282522532,0.42382021673331016,-0.5608556850424189,-7.390617,-5.02287
11.185,2.0,1.0,1.0,33.7,34.9,34.9,1.6,3.8,2.7475,0.011977748450556375,0.08435278827529287,0.40870707398154876,-0.5741057796038168,-7.768028,-4.727403
11.185,2.0,1.0,1.0,33.7,34.9,34.9,1.6,3.8,2.75,0.0787794967474281,0.168597429757339,0.414422769356521,-0.566381701246735,-7.496961,-4.569092
11.185,2.0,1.0,1.0,33.7,34.9,34.9,1.6,3.8,2.7525,0.13997584196028767,0.2475493754713625,0.4405196666094327,-0.5381446923392241,-6.702955,-4.548409
11.185,2.0,1.0,1.0,33.7,34.9,34.9,1.6,3.8,2.755,0.1888788699356656,0.3146283560782068,0.48283125491697104,-0.49352333127162773,-5.705687,-4.652681
11.185,2.0,1.0,1.0,33.7,34.9,34.9,1.6,3.8,2.7575,0.2218609316702057,0.36629036324593073,0.5351106764680204,-0.4386850028362868,-4.742224,-4.859663
11.185,2.0,1.0,1.0,33.7,34.9,34.9,1.6,3.8,2.76,0.2385117480084587,0.40217236550760466,0.5910908978485409,-0.37979829767209616,-3.911785,-5.142937
11.185,2.0,1.0,1.0,33.7,34.9,34.9,1.6,3.8,2.7625,0.24067232848856976,0.4241301383255756,0.6458776960667639,-0.3216606792399349,-3.232322,-5.476738
11.185,2.0,1.0,1.0,33.7,34.9,34.9,1.6,3.8,2.765,0.2311989998182794,0.4350142537724789,0.6963721114590857,-0.26728690119788723,-2.689054,-5.838928
11.185,2.0,1.0,1.0,33.7,34.9,34.9,1.6,3.8,2.7675,0.21303444170756866,0.43775291248814935,0.7410326838798879,-0.21814846971652982,-2.258386,-6.212091
11.185,2.0,1.0,1.0,33.7,34.9,34.9,1.6,3.8,2.77,0.18872026835999256,0.43487245194628676,0.7794005656735311,-0.17464522335998744,-1.917346,-6.58338
11.185,2.0,1.0,1.0,33.7,34.9,34.9,1.6,3.8,2.7725,0.16024208951932184,0.42834636355481037,0.8116526976986052,-0.1365474348378717,-1.646534,-6.943782
11.185,2.0,1.0,1.0,33.7,34.9,34.9,1.6,3.8,2.775,0.1290546019982535,0.41962163219938137,0.8382775099913112,-0.10331582223400963,-1.430511,-7.287243
11.185,2.0,1.0,1.0,33.7,34.9,34.9,1.6,3.8,2.7775,0.0961765528477899,0.4097134950894295,0.8598729420287985,-0.07430022222845914,-1.25732,-7.609868
11.185,2.0,1.0,1.0,33.7,34.9,34.9,1.6,3.8,2.78,0.06229642379089122,0.39931029890489805,0.8770348905106191,-0.048848742213363196,-1.117806,-7.909278
11.185,2.0,1.0,1.0,33.7,34.9,34.9,1.6,3.8,2.7825,0.027864281434366887,0.3888643355873567,0.8903031801081203,-0.02636003277085441,-1.00499,-8.184127
11.185,2.0,1.0,1.0,33.7,34.9,34.9,1.6,3.8,2.785,-0.006836618935305801,0.3786624269772979,0.9001406112651182,-0.006302866896731756,-0.913542,-8.433753
11.185,2.0,1.0,1.0,33.7,34.9,34.9,1.6,3.8,2.7875,-0.0416371564311578,0.3688776236408732,0.9069294038836544,0.011781492994281214,-0.839386,-8.657926
11.185,2.0,1.0,1.0,33.7,34.9,34.9,1.6,3.8,2.79,-0.07644485145154328,0.3596057413336704,0.9109758313083043,0.028285075006954024,-0.779388,-8.856682
11.185,2.0,1.0,1.0,33.7,34.9,34.9,1.6,3.8,2.7925,-0.1112176716594111,0.3508905711302652,0.9125179902432584,0.04354216594682789,-0.731132,-9.030201
11.185,2.0,1.0,1.0,33.7,34.9,34.9,1.6,3.8,2.795,-0.14594589111808867,0.34274094699456226,0.9117341067757218,0.05783893437568586,-0.692754,-9.17873
11.185,2.0,1.0,1.0,33.7,34.9,34.9,1.6,3.8,2.7975,-0.18063952869821018,0.33514207356814557,0.9087501504760467,0.0714225292455573,-0.662812,-9.302528
11.185,2.0,1.0,1.0,33.7,34.9,34.9,1.6,3.8,2.8,-0.2153195635639407,0.3280628352256764,0.9036462585154238,0.08450919435701104,-0.640199,-9.401829
11.185,2.0,1.0,1.0,33.7,34.9,34.9,1.6,3.8,2.8025,-0.25001164119215935,0.32146027768875546,0.8964618393539293,0.09729129992208206,-0.624071,-9.47682
11.185,2.0,1.0,1.0,33.7,34.9,34.9,1.6,3.8,2.805,-0.28474135352713925,0.3152820632255988,0.8871993965872389,0.10994335802892113,-0.6138,-9.527628
11.185,2.0,1.0,1.0,33.7,34.9,34.9,1.6,3.8,2.8075,-0.31953043027723105,0.309467419256452,0.8758271825304424,0.12262715077831333,-0.608938,-9.554308
11.185,2.0,1.0,1.0,33.7,34.9,34.9,1.6,3.8,2.81,-0.3543933436091205,0.3039468975889834,0.8622808107307495,0.13549610814399443,-0.609188,-9.556841
11.185,2.0,1.0,1.0,33.7,34.9,34.9,1.6,3.8,2.8125,-0.389333928394185,0.298641112508777,0.846463956042817,0.148699052762849,-0.614392,-9.535129
11.185,2.0,1.0,1.0,33.7,34.9,34.9,1.6,3.8,2.815,-0.4243416710810932,0.2934585115855137,0.8282482669131204,0.16238339247388503,-0.624515,-9.489005
11.185,2.0,1.0,1.0,33.7,34.9,34.9,1.6,3.8,2.8175,-0.45938733316650127,0.2882921395541681,0.8074726179141799,0.17669779171639877,-0.639647,-9.418228
11.185,2.0,1.0,1.0,33.7,34.9,34.9,1.6,3.8,2.82,-0.4944175571153696,0.2830152734287307,0.7839418502512937,0.1917942874810773,-0.66,-9.322498
11.185,2.0,1.0,1.0,33.7,34.9,34.9,1.6,3.8,2.8225,-0.5293480580589767,0.27747573022149086,0.7574251937036509,0.20782972739446637,-0.685918,-9.201462
11.185,2.0,1.0,1.0,33.7,34.9,34.9,1.6,3.8,2.825,-0.5640549377239501,0.2714885753453172,0.7276546481509307,0.22496628499542975,-0.717889,-9.054734
11.185,2.0,1.0,1.0,33.7,34.9,34.9,1.6,3.8,2.8275,-0.5983635738092149,0.264826893459073,0.6943237446622583,0.24337063303658676,-0.756564,-8.881914
11.185,2.0,1.0,1.0,33.7,34.9,34.9,1.6,3.8,2.83,-0.6320344502927269,0.25721023637193524,0.6570873307580322,0.26321110561932726,-0.802781,-8.682621
11.185,2.0,1.0,1.0,33.7,34.9,34.9,1.6,3.8,2.8325,-0.6647452261875171,0.248290361681249,0.6155633669005545,0.284651822369046,-0.857603,-8.456528
