1,w,sub_t,h,l1,l2,l3,g1,g2,Freq,S11_re,S21_re,S11_img,S21_img,S11_dB,S21_dB
11.185,2.0,1.0,1.0,33.9,34.5,34.5,3.2,3.5,2.5,0.796263569667466,-0.00892928658066638,0.592899447468579,0.00537881598541248,-0.063145,-39.63915
11.185,2.0,1.0,1.0,33.9,34.5,34.5,3.2,3.5,2.5025,0.7919317377650611,-0.009106419953447513,0.5985443373424437,0.005386063738071938,-0.063825,-39.51028
11.185,2.0,1.0,1.0,33.9,34.5,34.5,3.2,3.5,2.505,0.7875381773138884,-0.009286977980778781,0.6041833888804259,0.005392080005302644,-0.064518,-39.38086
11.185,2.0,1.0,1.0,33.9,34.5,34.5,3.2,3.5,2.5075,0.7830822326312192,-0.009471042797884095,0.6098162049257647,0.005396813145275153,-0.065225,-39.250876
11.185,2.0,1.0,1.0,33.9,34.5,34.5,3.2,3.5,2.51,0.7785632372131038,-0.00965869916743298,0.6154423761893573,0.005400209346495778,-0.065946,-39.120315
11.185,2.0,1.0,1.0,33.9,34.5,34.5,3.2,3.5,2.5125,0.7739805135311082,-0.00985003458619858,0.6210614808440885,0.0054022125220733845,-0.066682,-38.989163
11.185,2.0,1.0,1.0,33.9,34.5,34.5,3.2,3.5,2.515,0.7693333728239512,-0.010045139397009982,0.6266730841041542,0.00540276419795874,-0.067433,-38.857404
11.185,2.0,1.0,1.0,33.9,34.5,34.5,3.2,3.5,2.5175,0.7646211148838326,-0.010244106906306671,0.6322767377886767,0.005401803394757188,-0.068199,-38.725025
11.185,2.0,1.0,1.0,33.9,34.5,34.5,3.2,3.5,2.52,0.7598430278371949,-0.010447033507629783,0.6378719798689216,0.005399266502684032,-0.068981,-38.592011
11.185,2.0,1.0,1.0,33.9,34.5,34.5,3.2,3.5,2.5225,0.7549983879196852,-0.010654018811401126,0.6434583339983277,0.00539508714920019,-0.069779,-38.458345
11.185,2.0,1.0,1.0,33.9,34.5,34.5,3.2,3.5,2.525,0.7500864592450204,-0.010865165781370418,0.6490353090245629,0.00538919605882879,-0.070594,-38.324013
11.185,2.0,1.0,1.0,33.9,34.5,34.5,3.2,3.5,2.5275,0.745106493567473,-0.011080580878134095,0.6546023984827508,0.005381520904614812,-0.071426,-38.188998
11.185,2.0,1.0,1.0,33.9,34.5,34.5,3.2,3.5,2.53,0.7400577300376573,-0.011300374210158488,0.6601590800689484,0.005371986150647342,-0.072276,-38.053284
11.185,2.0,1.0,1.0,33.9,34.5,34.5,3.2,3.5,2.5325,0.734939394951274,-0.011524659692769015,0.665704815092922,0.005360512885018119,-0.073145,-37.916853
11.185,2.0,1.0,1.0,33.9,34.5,34.5,3.2,3.5,2.535,0.7297507014904413,-0.011753555215602382,0.6712390479091909,0.0053470186425386935,-0.074032,-37.779689
11.185,2.0,1.0,1.0,33.9,34.5,34.5,3.2,3.5,2.5375,0.7244908494572274,-0.011987182819050287,0.6767612053252443,0.005331417216484819,-0.074939,-37.641773
11.185,2.0,1.0,1.0,33.9,34.5,34.5,3.2,3.5,2.54,0.7191590249989471,-0.012225668880264374,0.6822706959857697,0.00531361845857566,-0.075866,-37.503089
11.185,2.0,1.0,1.0,33.9,34.5,34.5,3.2,3.5,2.5425,0.7137544003247627,-0.012469144309331614,0.6877669097316503,0.0052935280663300105,-0.076813,-37.363616
11.185,2.0,1.0,1.0,33.9,34.5,34.5,3.2,3.5,2.545,0.7082761334130961,-0.012717744756273044,0.6932492169324057,0.00527104735687085,-0.077782,-37.223336
11.185,2.0,1.0,1.0,33.9,34.5,34.5,3.2,3.5,2.5475,0.7027233677093152,-0.012971610829568858,0.6987169677906467,0.005246073026169535,-0.078772,-37.082229
11.185,2.0,1.0,1.0,33.9,34.5,34.5,3.2,3.5,2.55,0.6970952318130984,-0.013230888326962379,0.7041694916170449,0.005218496892636609,-0.079785,-36.940275
11.185,2.0,1.0,1.0,33.9,34.5,34.5,3.2,3.5,2.5525,0.6913908391548749,-0.013495728479352397,0.709606096074165,0.005188205623870767,-0.080822,-36.797453
11.185,2.0,1.0,1.0,33.9,34.5,34.5,3.2,3.5,2.555,0.6856092876606305,-0.013766288208645039,0.7150260663874322,0.0051550804452748684,-0.081883,-36.653743
11.185,2.0,1.0,1.0,33.9,34.5,34.5,3.2,3.5,2.5575,0.6797496594043558,-0.014042730400500301,0.7204286645213556,0.0051189968291338594,-0.082969,-36.509122
11.185,2.0,1.0,1.0,33.9,34.5,34.5,3.2,3.5,2.56,0.673811020247335,-0.014325224192981458,0.725813128318983,0.005079824162625024,-0.08408,-36.363567
11.185,2.0,1.0,1.0,33.9,34.5,34.5,3.2,3.5,2.5625,0.6677924194634027,-0.014613945282191086,0.7311786706024218,0.005037425393093466,-0.085219,-36.217056
11.185,2.0,1.0,1.0,33.9,34.5,34.5,3.2,3.5,2.565,0.6616928893492238,-0.014909076246064204,0.7365244782320909,0.004991656648774382,-0.086384,-36.069565
11.185,2.0,1.0,1.0,33.9,34.5,34.5,3.2,3.5,2.5675,0.6555114448185777,-0.015210806887575206,0.7418497111221608,0.004942366832977948,-0.087579,-35.921069
11.185,2.0,1.0,1.0,33.9,34.5,34.5,3.2,3.5,2.57,0.6492470829795292,-0.015519334598721367,0.7471535012094728,0.004889397189566457,-0.088802,-35.771543
11.185,2.0,1.0,1.0,33.9,34.5,34.5,3.2,3.5,2.5725,0.6428987826932718,-0.015834864746745586,0.7524349513729719,0.004832580837353464,-0.090057,-35.620961
11.185,2.0,1.0,1.0,33.9,34.5,34.5,3.2,3.5,2.575,0.6364655041133304,-0.016157611084184502,0.7576931343004583,0.004771742270826833,-0.091343,-35.469296
11.185,2.0,1.0,1.0,33.9,34.5,34.5,3.2,3.5,2.5775,0.6299461882036834,-0.016487796184449992,0.7629270912991838,0.004706696824351432,-0.092661,-35.316521
11.185,2.0,1.0,1.0,33.9,34.5,34.5,3.2,3.5,2.58,0.6233397562342529,-0.01682565190479609,0.7681358310465292,0.004637250096730101,-0.094014,-35.162606
11.185,2.0,1.0,1.0,33.9,34.5,34.5,3.2,3.5,2.5825,0.6166451092520387,-0.017171419878668236,0.7733183282766558,0.004563197332697425,-0.095402,-35.007523
11.185,2.0,1.0,1.0,33.9,34.5,34.5,3.2,3.5,2.585,0.609861127526064,-0.01752535203960166,0.7784735223986706,0.0044843227575801425,-0.096826,-34.851242
11.185,2.0,1.0,1.0,33.9,34.5,34.5,3.2,3.5,2.5875,0.6029866699640842,-0.01788771117901056,0.783600316041432,0.0044003988609825915,-0.098289,-34.69373
11.185,2.0,1.0,1.0,33.9,34.5,34.5,3.2,3.5,2.59,0.5960205734988696,-0.018258771540408524,0.7886975735196753,0.004311185624933951,-0.09979,-34.534955
11.185,2.0,1.0,1.0,33.9,34.5,34.5,3.2,3.5,2.5925,0.5889616524416292,-0.018638819452810443,0.7937641192156423,0.004216429691468548,-0.101333,-34.374884
11.185,2.0,1.0,1.0,33.9,34.5,34.5,3.2,3.5,2.595,0.5818086977999607,-0.019028154006301732,0.7987987358698322,0.004115863464087211,-0.102918,-34.213482
11.185,2.0,1.0,1.0,33.9,34.5,34.5,3.2,3.5,2.5975,0.5745604765574285,-0.01942708777301294,0.8038001627738935,0.004009204136965565,-0.104548,-34.050713
11.185,2.0,1.0,1.0,33.9,34.5,34.5,3.2,3.5,2.6,0.5672157309116302,-0.019835947577016087,0.8087670938579723,0.0038961526451238952,-0.106223,-33.88654
11.185,2.0,1.0,1.0,33.9,34.5,34.5,3.2,3.5,2.6025,0.5597731774673164,-0.020255075316960802,0.8136981756640562,0.0037763925280432315,-0.107947,-33.720924
11.185,2.0,1.0,1.0,33.9,34.5,34.5,3.2,3.5,2.605,0.5522315063807848,-0.02068482884560182,0.8185920051960173,0.003649588698394221,-0.10972,-33.553826
11.185,2.0,1.0,1.0,33.9,34.5,34.5,3.2,3.5,2.6075,0.544589380451441,-0.021125582910728313,0.8234471276360689,0.0035153861066272492,-0.111545,-33.385203
11.185,2.0,1.0,1.0,33.9,34.5,34.5,3.2,3.5,2.61,0.5368454341560163,-0.021577730162403923,0.8282620339162751,0.003373408291139636,-0.113425,-33.215014
11.185,2.0,1.0,1.0,33.9,34.5,34.5,3.2,3.5,2.6125,0.5289982726204996,-0.022041682231857217,0.8330351581325474,0.003223255802573216,-0.115361,-33.043212
11.185,2.0,1.0,1.0,33.9,34.5,34.5,3.2,3.5,2.615,0.5210464705243859,-0.022517870887835866,0.8377648747871815,0.0030645044894851356,-0.117357,-32.869753
11.185,2.0,1.0,1.0,33.9,34.5,34.5,3.2,3.5,2.6175,0.5129885709313189,-0.02300674927675361,0.84244949584445,0.0028967036311554942,-0.119414,-32.694588
11.185,2.0,1.0,1.0,33.9,34.5,34.5,3.2,3.5,2.62,0.5048230840396466,-0.023508793253525367,0.8470872675820262,0.0027193739016217605,-0.121536,-32.517667
11.185,2.0,1.0,1.0,33.9,34.5,34.5,3.2,3.5,2.6225,0.4965484858457772,-0.024024502810601235,0.8516763672190552,0.0025320051471357102,-0.123726,-32.338938
11.185,2.0,1.0,1.0,33.9,34.5,34.5,3.2,3.5,2.625,0.488163216712575,-0.0245544036133833,0.856214899299433,0.00233405395708981,-0.125986,-32.158347
11.185,2.0,1.0,1.0,33.9,34.5,34.5,3.2,3.5,2.6275,0.47966567983424474,-0.02509904865094715,0.860700891806367,0.0021249410060173377,-0.128321,-31.975837
11.185,2.0,1.0,1.0,33.9,34.5,34.5,3.2,3.5,2.63,0.47105423958838955,-0.02565902001178435,0.8651322919813763,0.0019040481414949145,-0.130734,-31.79135
11.185,2.0,1.0,1.0,33.9,34.5,34.5,3.2,3.5,2.6325,0.46232721976500607,-0.026234930795161204,0.8695069618176489,0.0016707151896068336,-0.133228,-31.604824
11.185,2.0,1.0,1.0,33.9,34.5,34.5,3.2,3.5,2.635,0.45348290166123134,-0.02682742716963006,0.8738226731939233,0.0014242364460171134,-0.135809,-31.416196
11.185,2.0,1.0,1.0,33.9,34.5,34.5,3.2,3.5,2.6375,0.4445195220295987,-0.027437190591260308,0.8780771026108094,0.0011638568165594641,-0.138479,-31.2254
11.185,2.0,1.0,1.0,33.9,34.5,34.5,3.2,3.5,2.64,0.43543527086639633,-0.028064940195267934,0.8822678254865852,0.0008887675665155461,-0.141245,-31.032364
11.185,2.0,1.0,1.0,33.9,34.5,34.5,3.2,3.5,2.6425,0.4262282890255201,-0.028711435375918318,0.8863923099638977,0.0005981016323149816,-0.14411,-30.837018
11.185,2.0,1.0,1.0,33.9,34.5,34.5,3.2,3.5,2.645,0.4168966656418395,-0.029377478570870356,0.89044791017238,0.00029092844312995247,-0.147081,-30.639284
11.185,2.0,1.0,1.0,33.9,34.5,34.5,3.2,3.5,2.6475,0.40743843534668767,-0.030063918267501277,0.894431858884777,-3.375180736840662e-05,-0.150164,-30.439083
11.185,2.0,1.0,1.0,33.9,34.5,34.5,3.2,3.5,2.65,0.3978515752565194,-0.030771652250220452,0.8983412594956529,-0.00037701450715432456,-0.153364,-30.236332
11.185,2.0,1.0,1.0,33.9,34.5,34.5,3.2,3.5,2.6525,0.38813400171421764,-0.03150163110931669,0.9021730772418349,-0.0007400176675841032,-0.156688,-30.030943
11.185,2.0,1.0,1.0,33.9,34.5,34.5,3.2,3.5,2.655,0.3782835667607424,-0.03225486203349799,0.9059241295723512,-0.0011240097495906966,-0.160144,-29.822826
11.185,2.0,1.0,1.0,33.9,34.5,34.5,3.2,3.5,2.6575,0.36829805431312523,-0.03303241290993031,0.9095910755622905,-0.0015303383761760831,-0.16374,-29.611883
11.185,2.0,1.0,1.0,33.9,34.5,34.5,3.2,3.5,2.66,0.358175176022958,-0.03383541675725622,0.9131704042495647,-0.0019604600481599494,-0.167483,-29.398014
11.185,2.0,1.0,1.0,33.9,34.5,34.5,3.2,3.5,2.6625,0.3479125667877726,-0.03466507651870681,0.9166584217555032,-0.0024159509977811516,-0.171384,-29.181113
11.185,2.0,1.0,1.0,33.9,34.5,34.5,3.2,3.5,2.665,0.33750777988594277,-0.03552267024396986,0.9200512370291171,-0.0028985193353905673,-0.175452,-28.961069
11.185,2.0,1.0,1.0,33.9,34.5,34.5,3.2,3.5,2.6675,0.32695828170422736,-0.036409556689825796,0.9233447460301344,-0.003410018668672998,-0.179699,-28.737763
11.185,2.0,1.0,1.0,33.9,34.5,34.5,3.2,3.5,2.67,0.3162614460257414,-0.037327181370617926,0.9265346141368599,-0.003952463402290254,-0.184135,-28.511074
11.185,2.0,1.0,1.0,33.9,34.5,34.5,3.2,3.5,2.6725,0.30541454784532346,-0.03827708309018027,0.929616256530685,-0.004528045959365383,-0.188774,-28.280869
11.185,2.0,1.0,1.0,33.9,34.5,34.5,3.2,3.5,2.675,0.29441475667911654,-0.03926090098669013,0.9325848162686524,-0.0051391562058421365,-0.193629,-28.047012
11.185,2.0,1.0,1.0,33.9,34.5,34.5,3.2,3.5,2.6775,0.28325912933598824,-0.040280382120719445,0.9354351397076125,-0.005788403405683677,-0.198718,-27.809358
11.185,2.0,1.0,1.0,33.9,34.5,34.5,3.2,3.5,2.68,0.2719446021206651,-0.041337389634091594,0.9381617488866858,-0.006478641090613799,-0.204055,-27.567752
11.185,2.0,1.0,1.0,33.9,34.5,34.5,3.2,3.5,2.6825,0.2604679824427242,-0.0424339115024243,0.940758810407059,-0.007212995294493249,-0.20966,-27.322033
11.185,2.0,1.0,1.0,33.9,34.5,34.5,3.2,3.5,2.685,0.24882593981256515,-0.04357206989667113,0.9432201002673631,-0.007994896681720575,-0.215554,-27.072028
11.185,2.0,1.0,1.0,33.9,34.5,34.5,3.2,3.5,2.6875,0.23701499621638,-0.0447541311574811,0.945538964016109,-0.00882811719402606,-0.221758,-26.817555
11.185,2.0,1.0,1.0,33.9,34.5,34.5,3.2,3.5,2.69,0.22503151587827389,-0.045982516369353764,0.9477082714664458,-0.009716811954130794,-0.228298,-26.55842
11.185,2.0,1.0,1.0,33.9,34.5,34.5,3.2,3.5,2.6925,0.21287169444100115,-0.04725981249740574,0.9497203650785299,-0.010665567302222902,-0.235202,-26.294417
11.185,2.0,1.0,1.0,33.9,34.5,34.5,3.2,3.5,2.695,0.2005315476300615,-0.04858878401545333,0.951567000945611,-0.011679456007346935,-0.2425,-26.025328
11.185,2.0,1.0,1.0,33.9,34.5,34.5,3.2,3.5,2.6975,0.18800689951245297,-0.049972384906466376,0.9532392811149507,-0.012764100897211141,-0.250226,-25.75092
11.185,2.0,1.0,1.0,33.9,34.5,34.5,3.2,3.5,2.7,0.17529337052643001,-0.05141377085036296,0.9547275757253901,-0.013925748394806097,-0.258419,-25.470944
11.185,2.0,1.0,1.0,33.9,34.5,34.5,3.2,3.5,2.7025,0.16238636554847694,-0.052916311322960444,0.9560214331393826,-0.015171353748931322,-0.267122,-25.185135
11.185,2.0,1.0,1.0,33.9,34.5,34.5,3.2,3.5,2.705,0.14928106238784247,-0.054483601204520914,0.9571094758753748,-0.016508680111164725,-0.276382,-24.893211
11.185,2.0,1.0,1.0,33.9,34.5,34.5,3.2,3.5,2.7075,0.13597240126966556,-0.05611947132423209,0.9579792796899617,-0.01794641406028079,-0.286254,-24.594867
11.185,2.0,1.0,1.0,33.9,34.5,34.5,3.2,3.5,2.71,0.12245507610254301,-0.05782799713085111,0.9586172325974144,-0.019494300727123336,-0.2968,-24.289781
11.185,2.0,1.0,1.0,33.9,34.5,34.5,3.2,3.5,2.7125,0.10872352864914851,-0.0596135043556854,0.9590083699205628,-0.021163302354331687,-0.308088,-23.977603
11.185,2.0,1.0,1.0,33.9,34.5,34.5,3.2,3.5,2.715,0.09477194716288062,-0.06148057008881789,0.9591361806083627,-0.02296578496872323,-0.320198,-23.657961
11.185,2.0,1.0,1.0,33.9,34.5,34.5,3.2,3.5,2.7175,0.08059427166607505,-0.06343401707646425,0.9589823789898441,-0.02491573889065735,-0.333221,-23.330453
11.185,2.0,1.0,1.0,33.9,34.5,34.5,3.2,3.5,2.72,0.06618420889201423,-0.06547889820125798,0.9585266348086342,-0.02702904010605802,-0.34726,-22.994646
11.185,2.0,1.0,1.0,33.9,34.5,34.5,3.2,3.5,2.7225,0.05153526108650954,-0.0676204669358278,0.9577462527307251,-0.029323761147705296,-0.362434,-22.650074
11.185,2.0,1.0,1.0,33.9,34.5,34.5,3.2,3.5,2.725,0.03664077449745805,-0.06986412793228375,0.9566157904581002,-0.03182054215341749,-0.378882,-22.296235
11.185,2.0,1.0,1.0,33.9,34.5,34.5,3.2,3.5,2.7275,0.021494015660618745,-0.07221535963925989,0.955106602010761,-0.034543035288812064,-0.396764,-21.932586
11.185,2.0,1.0,1.0,33.9,34.5,34.5,3.2,3.5,2.73,0.0060882867880935375,-0.0746795976555667,0.953186289536851,-0.03751843886074057,-0.416267,-21.558538
11.185,2.0,1.0,1.0,33.9,34.5,34.5,3.2,3.5,2.7325,-0.009582903926718437,-0.07726206304791425,0.9508180430309996,-0.04077814134379599,-0.437611,-21.173455
11.185,2.0,1.0,1.0,33.9,34.5,34.5,3.2,3.5,2.735,-0.025525594889057972,-0.0799675135171169,0.947959842424141,-0.0443585003510088,-0.461053,-20.776649
11.185,2.0,1.0,1.0,33.9,34.5,34.5,3.2,3.5,2.7375,-0.0417450152771464,-0.0827998862717642,0.9445634904922527,-0.04830178745496991,-0.486903,-20.367372
11.185,2.0,1.0,1.0,33.9,34.5,34.5,3.2,3.5,2.74,-0.05824507650337563,-0.08576178855626929,0.9405734377896562,-0.05265733682408403,-0.515524,-19.944815
11.185,2.0,1.0,1.0,33.9,34.5,34.5,3.2,3.5,2.7425,-0.07502764791710798,-0.08885377320729251,0.9359253523286939,-0.05748294388378277,-0.547356,-19.508098
11.185,2.0,1.0,1.0,33.9,34.5,34.5,3.2,3.5,2.745,-0.09209152658935293,-0.09207330975623808,0.9305443772501337,-0.06284656938036615,-0.58293,-19.056272
11.185,2.0,1.0,1.0,33.9,34.5,34.5,3.2,3.5,2.7475,-0.10943097159300284,-0.09541332257322066,0.9243430100690004,-0.06882841348664326,-0.62289,-18.588309
11.185,2.0,1.0,1.0,33.9,34.5,34.5,3.2,3.5,2.75,-0.127033615627619,-0.0988601106168426,0.917218529184499,-0.0755234319805868,-0.668027,-18.103101
11.185,2.0,1.0,1.0,33.9,34.5,34.5,3.2,3.5,2.7525,-0.14487748255213362,-0.10239038006306078,0.9090498913710923,-0.08304436788033306,-0.719314,-17.599463
11.185,2.0,1.0,1.0,33.9,34.5,34.5,3.2,3.5,2.755,-0.16292671588115681,-0.1059669991420777,0.899694036322201,-0.09152535884322724,-0.777966,-17.076133
11.185,2.0,1.0,1.0,33.9,34.5,34.5,3.2,3.5,2.7575,-0.1811254427694291,-0.10953290643993067,0.8889815774136521,-0.10112613679113563,-0.845502,-16.531787
11.185,2.0,1.0,1.0,33.9,34.5,34.5,3.2,3.5,2.76,-0.19938893618439604,-0.11300234595943053,0.8767119630849657,-0.11203673042245078,-0.923845,-15.965061
11.185,2.0,1.0,1.0,33.9,34.5,34.5,3.2,3.5,2.7625,-0.21759086458048513,-0.1162482348861449,0.8626484196658204,-0.12448235494759834,-1.015446,-15.374596
11.185,2.0,1.0,1.0,33.9,34.5,34.5,3.2,3.5,2.765,-0.23554490320321542,-0.11908396415159166,0.8465134434415692,-0.13872771830019626,-1.123453,-14.759108
11.185,2.0,1.0,1.0,33.9,34.5,34.5,3.2,3.5,2.7675,-0.25297831549213173,-0.12123728033004384,0.827986495511035,-0.1550790932888964,-1.251938,-14.117507
11.185,2.0,1.0,1.0,33.9,34.5,34.5,3.2,3.5,2.77,-0.26949437047581354,-0.12231317523463522,0.8067072155945165,-0.17388085729156436,-1.406192,-13.44909
11.185,2.0,1.0,1.0,33.9,34.5,34.5,3.2,3.5,2.7725,-0.28451995084328613,-0.12174222538255317,0.7822904875349102,-0.1955002170693067,-1.593106,-12.753842
11.185,2.0,1.0,1.0,33.9,34.5,34.5,3.2,3.5,2.775,-0.29723532052766566,-0.1187114664757283,0.7543649133005107,-0.2202886790168897,-1.821602,-12.032903
11.185,2.0,1.0,1.0,33.9,34.5,34.5,3.2,3.5,2.7775,-0.30648696775676193,-0.11207884585467533,0.7226546229916178,-0.2485005820857501,-2.103037,-11.289282
11.185,2.0,1.0,1.0,33.9,34.5,34.5,3.2,3.5,2.78,-0.3106965026171821,-0.10028429394844977,0.6871358297037832,-0.28013775043787814,-2.45126,-10.528894
11.185,2.0,1.0,1.0,33.9,34.5,34.5,3.2,3.5,2.7825,-0.3078074588748142,-0.08129905036996057,0.6483096482375811,-0.3146795340668962,-2.881499,-9.762014
11.185,2.0,1.0,1.0,33.9,34.5,34.5,3.2,3.5,2.785,-0.29536832280731135,-0.05271061632788045,0.6076240949316927,-0.35066639575049513,-3.406073,-9.005081
11.185,2.0,1.0,1.0,33.9,34.5,34.5,3.2,3.5,2.7875,-0.2709315042845476,-0.012120631642004361,0.5680076595034964,-0.3851754474549771,-4.022647,-8.28253
11.185,2.0,1.0,1.0,33.9,34.5,34.5,3.2,3.5,2.79,-0.23298990036513112,0.04192697020636303,0.5342784724402443,-0.41342261638922223,-4.688562,-7.627677
11.185,2.0,1.0,1.0,33.9,34.5,34.5,3.2,3.5,2.7925,-0.1824813865526688,0.1084614330502435,0.5128703194855687,-0.4290436886293214,-5.282164,-7.080933
11.185,2.0,1.0,1.0,33.9,34.5,34.5,3.2,3.5,2.795,-0.12423511256091005,0.18266763407858744,0.5101892240869815,-0.4257279208191163,-5.595201,-6.683466
11.185,2.0,1.0,1.0,33.9,34.5,34.5,3.2,3.5,2.7975,-0.0669149013312921,0.25596230952250687,0.5296797924103541,-0.40011596132374816,-5.450968,-6.466426
11.185,2.0,1.0,1.0,33.9,34.5,34.5,3.2,3.5,2.8,-0.020385048704703784,0.31861361986472536,0.569363184429089,-0.354213961590267,-4.886649,-6.440083
11.185,2.0,1.0,1.0,33.9,34.5,34.5,3.2,3.5,2.8025,0.008270670445762959,0.36367189714667464,0.6221814577250325,-0.29502574439130175,-4.120891,-6.589664
11.185,2.0,1.0,1.0,33.9,34.5,34.5,3.2,3.5,2.805,0.01709696843789227,0.3892673678558411,0.6791852617736055,-0.2313871017543835,-3.357484,-6.880998
11.185,2.0,1.0,1.0,33.9,34.5,34.5,3.2,3.5,2.8075,0.008574676906523592,0.3979023835696059,0.7329746783275052,-0.17057095832346406,-2.697626,-7.271823
11.185,2.0,1.0,1.0,33.9,34.5,34.5,3.2,3.5,2.81,-0.01273071262216981,0.3941176126991446,0.7792421037635585,-0.11677906628246226,-2.165393,-7.722006
11.185,2.0,1.0,1.0,33.9,34.5,34.5,3.2,3.5,2.8125,-0.0422189052716283,0.382468955822671,0.816463973825226,-0.0714604756070529,-1.749663,-8.199054
11.185,2.0,1.0,1.0,33.9,34.5,34.5,3.2,3.5,2.815,-0.0762489674077796,0.3665524566832778,0.8448650680022772,-0.03434137272563748,-1.429023,-8.679324
11.185,2.0,1.0,1.0,33.9,34.5,34.5,3.2,3.5,2.8175,-0.1123153407716845,0.3488368495269235,0.8654803481015683,-0.004352889034135203,-1.182326,-9.146877
11.185,2.0,1.0,1.0,33.9,34.5,34.5,3.2,3.5,2.82,-0.14885285568633214,0.3308602436886316,0.8795656144808395,0.019788315168199098,-0.992,-9.591601
11.185,2.0,1.0,1.0,33.9,34.5,34.5,3.2,3.5,2.8225,-0.1849617594311316,0.3135037761418863,0.8883061657212035,0.0392944987419351,-0.844426,-10.007447
11.185,2.0,1.0,1.0,33.9,34.5,34.5,3.2,3.5,2.825,-0.22017291174769144,0.29722432079845085,0.8927070872068077,0.05520053163274919,-0.729367,-10.391042
11.185,2.0,1.0,1.0,33.9,34.5,34.5,3.2,3.5,2.8275,-0.25427965414677145,0.28222068517877225,0.8935744517916694,0.06834703778011553,-0.639221,-10.740703
11.185,2.0,1.0,1.0,33.9,34.5,34.5,3.2,3.5,2.83,-0.2872275906648835,0.26854231043042953,0.8915343096599645,0.07940058419995073,-0.568355,-11.055763
