1,w,sub_t,h,l1,l2,l3,g1,g2,Freq,S11_re,S21_re,S11_img,S21_img,S11_dB,S21_dB
11.185,2.0,1.0,1.0,34.7,34.1,34.1,3.4,3.7,2.5,0.665273004489473,-0.0110313121982386,0.735662727863239,0.00349749226164235,-0.070986,-38.731471
11.185,2.0,1.0,1.0,34.7,34.1,34.1,3.4,3.7,2.5025,0.6590618135192328,-0.011213193628304183,0.7411145211296437,0.0034431373713782834,-0.071756,-38.614103
11.185,2.0,1.0,1.0,34.7,34.1,34.1,3.4,3.7,2.505,0.6527712653686584,-0.011397647614237384,0.7465421680533848,0.003386079398702889,-0.072541,-38.496369
11.185,2.0,1.0,1.0,34.7,34.1,34.1,3.4,3.7,2.5075,0.6464006280507713,-0.011584706731831342,0.7519447835759056,0.0033262347713387277,-0.07334,-38.378263
11.185,2.0,1.0,1.0,34.7,34.1,34.1,3.4,3.7,2.51,0.6399491643910658,-0.011774403747762193,0.7573214587279988,0.0032635172669464455,-0.074152,-38.259776
11.185,2.0,1.0,1.0,34.7,34.1,34.1,3.4,3.7,2.5125,0.6334161322035018,-0.011966771603578558,0.7626712599911855,0.0031978379210479777,-0.07498,-38.140903
11.185,2.0,1.0,1.0,34.7,34.1,34.1,3.4,3.7,2.515,0.6268007844803385,-0.01216184339836131,0.7679932286432664,0.003129104931406223,-0.075822,-38.021635
11.185,2.0,1.0,1.0,34.7,34.1,34.1,3.4,3.7,2.5175,0.6201023695965063,-0.01235965236997258,0.7732863800877088,0.0030572235587056984,-0.07668,-37.901966
11.185,2.0,1.0,1.0,34.7,34.1,34.1,3.4,3.7,2.52,0.6133201315292098,-0.012560231874808987,0.7785497031665666,0.002982096023370284,-0.077553,-37.781886
11.185,2.0,1.0,1.0,34.7,34.1,34.1,3.4,3.7,2.5225,0.6064533100935298,-0.012763615365967266,0.783782159456579,0.0029036213983461407,-0.078442,-37.66139
11.185,2.0,1.0,1.0,34.7,34.1,34.1,3.4,3.7,2.525,0.5995011411947686,-0.01296983636972716,0.7889826825481464,0.002821695497668302,-0.079348,-37.540468
11.185,2.0,1.0,1.0,34.7,34.1,34.1,3.4,3.7,2.5275,0.5924628570983632,-0.01317892846024903,0.7941501773068471,0.0027362107606199487,-0.080271,-37.419113
11.185,2.0,1.0,1.0,34.7,34.1,34.1,3.4,3.7,2.53,0.585337686718198,-0.013390925232378432,0.799283519117159,0.002647056131282861,-0.08121,-37.297317
11.185,2.0,1.0,1.0,34.7,34.1,34.1,3.4,3.7,2.5325,0.5781248559241944,-0.013605860272442878,0.8043815531080655,0.0025541169332670205,-0.082168,-37.175072
11.185,2.0,1.0,1.0,34.7,34.1,34.1,3.4,3.7,2.535,0.5708235878700798,-0.013823767126919682,0.8094430933602154,0.002457274739394784,-0.083143,-37.052368
11.185,2.0,1.0,1.0,34.7,34.1,34.1,3.4,3.7,2.5375,0.5634331033422965,-0.014044679268845504,0.8144669220943003,0.002356407236103407,-0.084137,-36.929199
11.185,2.0,1.0,1.0,34.7,34.1,34.1,3.4,3.7,2.54,0.5559526211310244,-0.01426863006183098,0.8194517888403292,0.002251388082315605,-0.08515,-36.805555
11.185,2.0,1.0,1.0,34.7,34.1,34.1,3.4,3.7,2.5425,0.548381358424349,-0.014495652721535478,0.8243964095874693,0.0021420867625141344,-0.086182,-36.681427
11.185,2.0,1.0,1.0,34.7,34.1,34.1,3.4,3.7,2.545,0.5407185312266408,-0.01472578027444716,0.8292994659141254,0.0020283684337405474,-0.087233,-36.556807
11.185,2.0,1.0,1.0,34.7,34.1,34.1,3.4,3.7,2.5475,0.5329633548022675,-0.014959045513804366,0.834159604097933,0.0019100937662226373,-0.088306,-36.431685
11.185,2.0,1.0,1.0,34.7,34.1,34.1,3.4,3.7,2.55,0.5251150441457697,-0.015195480952484896,0.8389754342053489,0.0017871187773166937,-0.089399,-36.306052
11.185,2.0,1.0,1.0,34.7,34.1,34.1,3.4,3.7,2.5525,0.5171728144797392,-0.01543511877267636,0.843745529160504,0.0016592946584331274,-0.090513,-36.179899
11.185,2.0,1.0,1.0,34.7,34.1,34.1,3.4,3.7,2.555,0.5091358817816167,-0.015677990772131545,0.8484684237930191,0.0015264675945926439,-0.09165,-36.053216
11.185,2.0,1.0,1.0,34.7,34.1,34.1,3.4,3.7,2.5575,0.5010034633407208,-0.015924128306798135,0.8531426138644582,0.0013884785762396017,-0.092808,-35.925993
11.185,2.0,1.0,1.0,34.7,34.1,34.1,3.4,3.7,2.56,0.4927747783468643,-0.01617356222959928,0.8577665550731124,0.0012451632029155816,-0.09399,-35.798221
11.185,2.0,1.0,1.0,34.7,34.1,34.1,3.4,3.7,2.5625,0.48444904851195497,-0.01642632282512601,0.8623386620368004,0.0010963514783715919,-0.095196,-35.669889
11.185,2.0,1.0,1.0,34.7,34.1,34.1,3.4,3.7,2.565,0.4760254987260352,-0.016682439739988612,0.8668573072533986,0.0009418675966699224,-0.096426,-35.540987
11.185,2.0,1.0,1.0,34.7,34.1,34.1,3.4,3.7,2.5675,0.46750335774928864,-0.016941941908553273,0.8713208200387836,0.0007815297187992687,-0.09768,-35.411504
11.185,2.0,1.0,1.0,34.7,34.1,34.1,3.4,3.7,2.57,0.45888185894157596,-0.017204857473776564,0.8757274854418986,0.0006151497392940007,-0.09896,-35.28143
11.185,2.0,1.0,1.0,34.7,34.1,34.1,3.4,3.7,2.5725,0.45016024103113644,-0.01747121370282667,0.8800755431366657,0.0004425330423165611,-0.100267,-35.150753
11.185,2.0,1.0,1.0,34.7,34.1,34.1,3.4,3.7,2.575,0.44133774892415484,-0.01774103689716083,0.8843631862904388,0.0002634782466250907,-0.1016,-35.019462
11.185,2.0,1.0,1.0,34.7,34.1,34.1,3.4,3.7,2.5775,0.43241363455695514,-0.018014352296704342,0.8885885604087285,7.777693880985246e-05,-0.102961,-34.887546
11.185,2.0,1.0,1.0,34.7,34.1,34.1,3.4,3.7,2.58,0.4233871577926559,-0.01829118397775228,0.8927497621559103,-0.00011478660586001116,-0.10435,-34.754993
11.185,2.0,1.0,1.0,34.7,34.1,34.1,3.4,3.7,2.5825,0.41425758736417223,-0.018571554744186723,0.8968448381516605,-0.0003144357156832803,-0.105769,-34.62179
11.185,2.0,1.0,1.0,34.7,34.1,34.1,3.4,3.7,2.585,0.4050242018655557,-0.01885548601157373,0.9008717837428187,-0.0005214016286200023,-0.107217,-34.487926
11.185,2.0,1.0,1.0,34.7,34.1,34.1,3.4,3.7,2.5875,0.39568629079369655,-0.01914299768367183,0.9048285417504397,-0.0007359238130374601,-0.108696,-34.353387
11.185,2.0,1.0,1.0,34.7,34.1,34.1,3.4,3.7,2.59,0.38624315564253464,-0.0194341080208488,0.9087130011917354,-0.0009582503039723813,-0.110207,-34.218162
11.185,2.0,1.0,1.0,34.7,34.1,34.1,3.4,3.7,2.5925,0.3766941110519649,-0.019728833499865716,0.9125229959766619,-0.0011886380558356535,-0.111751,-34.082236
11.185,2.0,1.0,1.0,34.7,34.1,34.1,3.4,3.7,2.595,0.36703848601374417,-0.020027188664445663,0.9162563035788563,-0.0014273533125528895,-0.113328,-33.945596
11.185,2.0,1.0,1.0,34.7,34.1,34.1,3.4,3.7,2.5975,0.3572756251367539,-0.020329185966000352,0.9199106436806727,-0.0016746719962088253,-0.114939,-33.808228
11.185,2.0,1.0,1.0,34.7,34.1,34.1,3.4,3.7,2.6,0.3474048899741011,-0.020634835593836047,0.9234836767920082,-0.0019308801153422434,-0.116586,-33.670118
11.185,2.0,1.0,1.0,34.7,34.1,34.1,3.4,3.7,2.6025,0.33742566041461813,-0.020944145294109952,0.926973002842645,-0.002196274194125673,-0.118269,-33.531251
11.185,2.0,1.0,1.0,34.7,34.1,34.1,3.4,3.7,2.605,0.3273373361414072,-0.02125712017674498,0.9303761597477898,-0.002471161723758413,-0.11999,-33.391613
11.185,2.0,1.0,1.0,34.7,34.1,34.1,3.4,3.7,2.6075,0.3171393381602058,-0.021573762509449642,0.9336906219464938,-0.00275586163750465,-0.121749,-33.251187
11.185,2.0,1.0,1.0,34.7,34.1,34.1,3.4,3.7,2.61,0.30683111040044403,-0.021894071497915585,0.9369137989126037,-0.0030507048109198803,-0.123548,-33.109957
11.185,2.0,1.0,1.0,34.7,34.1,34.1,3.4,3.7,2.6125,0.29641212139196993,-0.022218043051189577,0.9400430336378647,-0.0033560345889321742,-0.125388,-32.967908
11.185,2.0,1.0,1.0,34.7,34.1,34.1,3.4,3.7,2.615,0.28588186602054655,-0.02254566953112813,0.9430756010867761,-0.0036722073415777633,-0.127271,-32.825023
11.185,2.0,1.0,1.0,34.7,34.1,34.1,3.4,3.7,2.6175,0.2752398673653703,-0.022876939484750582,0.9460087066227306,-0.003999593050336171,-0.129197,-32.681284
11.185,2.0,1.0,1.0,34.7,34.1,34.1,3.4,3.7,2.62,0.26448567862194455,-0.023211837358198366,0.9488394844049556,-0.004338575927169696,-0.131168,-32.536674
11.185,2.0,1.0,1.0,34.7,34.1,34.1,3.4,3.7,2.6225,0.2536188851138406,-0.023550343190895884,0.9515649957556649,-0.004689555068546976,-0.133185,-32.391174
11.185,2.0,1.0,1.0,34.7,34.1,34.1,3.4,3.7,2.625,0.242639106396992,-0.0238924322883771,0.954182227496804,-0.00505294514691965,-0.13525,-32.244765
11.185,2.0,1.0,1.0,34.7,34.1,34.1,3.4,3.7,2.6275,0.23154599846033827,-0.024238074872101802,0.9566880902556454,-0.005429177142332394,-0.137364,-32.097428
11.185,2.0,1.0,1.0,34.7,34.1,34.1,3.4,3.7,2.63,0.2203392560268093,-0.024587235704426627,0.9590794167384245,-0.005818699117073753,-0.13953,-31.949143
11.185,2.0,1.0,1.0,34.7,34.1,34.1,3.4,3.7,2.6325,0.20901861495883325,-0.024939873686721955,0.961352959971042,-0.006221977036528272,-0.141748,-31.799889
11.185,2.0,1.0,1.0,34.7,34.1,34.1,3.4,3.7,2.635,0.19758385477273482,-0.025295941428430033,0.9635053915057717,-0.00663949563966549,-0.14402,-31.649645
11.185,2.0,1.0,1.0,34.7,34.1,34.1,3.4,3.7,2.6375,0.18603480126663807,-0.025655384784642337,0.9655332995927063,-0.007071759362904974,-0.146348,-31.498388
11.185,2.0,1.0,1.0,34.7,34.1,34.1,3.4,3.7,2.64,0.17437132926668059,-0.026018142359533383,0.9674331873144965,-0.007519293321430845,-0.148735,-31.346096
11.185,2.0,1.0,1.0,34.7,34.1,34.1,3.4,3.7,2.6425,0.16259336549664735,-0.026384144972717367,0.9692014706827518,-0.007982644352395566,-0.151182,-31.192746
11.185,2.0,1.0,1.0,34.7,34.1,34.1,3.4,3.7,2.645,0.1507008915764013,-0.02675331508529008,0.9708344766941643,-0.008462382124856923,-0.15369,-31.038312
11.185,2.0,1.0,1.0,34.7,34.1,34.1,3.4,3.7,2.6475,0.13869394715479358,-0.027125566181982773,0.9723284413441805,-0.008959100321738663,-0.156264,-30.882769
11.185,2.0,1.0,1.0,34.7,34.1,34.1,3.4,3.7,2.65,0.12657263318308185,-0.027500802105472944,0.973679507595673,-0.009473417899596428,-0.158903,-30.726092
11.185,2.0,1.0,1.0,34.7,34.1,34.1,3.4,3.7,2.6525,0.11433711533530312,-0.02787891633846997,0.9748837232997289,-0.010005980432511307,-0.161612,-30.568253
11.185,2.0,1.0,1.0,34.7,34.1,34.1,3.4,3.7,2.655,0.10198762758242412,-0.02825979122871734,0.9759370390651843,-0.010557461547036153,-0.164393,-30.409224
11.185,2.0,1.0,1.0,34.7,34.1,34.1,3.4,3.7,2.6575,0.08952447592761215,-0.02864329715151031,0.9768353060730793,-0.011128564455779545,-0.167248,-30.248976
11.185,2.0,1.0,1.0,34.7,34.1,34.1,3.4,3.7,2.66,0.07694804231048707,-0.02902929160371955,0.9775742738316326,-0.011720023597946015,-0.17018,-30.087479
11.185,2.0,1.0,1.0,34.7,34.1,34.1,3.4,3.7,2.6625,0.06425878868884834,-0.029417618222626646,0.9781495878666736,-0.012332606395963935,-0.173192,-29.924701
11.185,2.0,1.0,1.0,34.7,34.1,34.1,3.4,3.7,2.665,0.05145726130700567,-0.029808105722097297,0.9785567873417529,-0.012967115138231523,-0.176287,-29.760609
11.185,2.0,1.0,1.0,34.7,34.1,34.1,3.4,3.7,2.6675,0.03854409516067191,-0.030200566737739576,0.9787913026013215,-0.01362438899900878,-0.179468,-29.59517
11.185,2.0,1.0,1.0,34.7,34.1,34.1,3.4,3.7,2.67,0.025520018669243284,-0.030594796571697808,0.9788484526293924,-0.014305306207591873,-0.18274,-29.428349
11.185,2.0,1.0,1.0,34.7,34.1,34.1,3.4,3.7,2.6725,0.01238585856724263,-0.030990571826598326,0.9787234424150761,-0.015010786380136913,-0.186105,-29.260108
11.185,2.0,1.0,1.0,34.7,34.1,34.1,3.4,3.7,2.675,-0.0008574549720474639,-0.03138764891687598,0.978411360215101,-0.015741793028867374,-0.189567,-29.09041
11.185,2.0,1.0,1.0,34.7,34.1,34.1,3.4,3.7,2.6775,-0.01420888296652631,-0.031785762444242284,0.9779071747020983,-0.016499336264922455,-0.193131,-28.919214
11.185,2.0,1.0,1.0,34.7,34.1,34.1,3.4,3.7,2.68,-0.027667271992993764,-0.03218462342238311,0.9772057319858386,-0.017284475712799913,-0.1968,-28.746479
11.185,2.0,1.0,1.0,34.7,34.1,34.1,3.4,3.7,2.6825,-0.04123134827512421,-0.03258391733406093,0.9763017524928436,-0.018098323656234653,-0.20058,-28.572162
11.185,2.0,1.0,1.0,34.7,34.1,34.1,3.4,3.7,2.685,-0.05489971147221806,-0.03298330200160859,0.9751898276877995,-0.01894204843746455,-0.204474,-28.396217
11.185,2.0,1.0,1.0,34.7,34.1,34.1,3.4,3.7,2.6875,-0.0686708281469013,-0.0333824052492945,0.973864416617902,-0.0198168781341868,-0.20849,-28.218598
11.185,2.0,1.0,1.0,34.7,34.1,34.1,3.4,3.7,2.69,-0.08254302488733076,-0.03378082233315964,0.9723198422587461,-0.020724104541136656,-0.212631,-28.039254
11.185,2.0,1.0,1.0,34.7,34.1,34.1,3.4,3.7,2.6925,-0.09651448105640571,-0.034178113110616845,0.9705502876374171,-0.021665087486162755,-0.216903,-27.858135
11.185,2.0,1.0,1.0,34.7,34.1,34.1,3.4,3.7,2.695,-0.1105832211368151,-0.034573798918289905,0.9685497917051964,-0.022641259513957998,-0.221313,-27.675187
11.185,2.0,1.0,1.0,34.7,34.1,34.1,3.4,3.7,2.6975,-0.1247471066367833,-0.03496735912217117,0.9663122449285758,-0.02365413097429447,-0.225868,-27.490352
11.185,2.0,1.0,1.0,34.7,34.1,34.1,3.4,3.7,2.7,-0.13900382751638973,-0.035358227299089794,0.9638313845630956,-0.024705295555732133,-0.230575,-27.303573
11.185,2.0,1.0,1.0,34.7,34.1,34.1,3.4,3.7,2.7025,-0.15335089308881447,-0.03574578700259551,0.9611007895697437,-0.025796436310405516,-0.23544,-27.114786
11.185,2.0,1.0,1.0,34.7,34.1,34.1,3.4,3.7,2.705,-0.1677856223442988,-0.036129367059529086,0.9581138751283762,-0.02692933222068135,-0.240473,-26.923927
11.185,2.0,1.0,1.0,34.7,34.1,34.1,3.4,3.7,2.7075,-0.1823051336369155,-0.03650823633561084,0.9548638866965025,-0.028105865364314718,-0.245681,-26.730928
11.185,2.0,1.0,1.0,34.7,34.1,34.1,3.4,3.7,2.71,-0.1969063336652632,-0.03688159789912732,0.9513438935549985,-0.02932802874127788,-0.251075,-26.535716
11.185,2.0,1.0,1.0,34.7,34.1,34.1,3.4,3.7,2.7125,-0.21158590566770996,-0.03724858250100443,0.9475467817745676,-0.030597934832798854,-0.256663,-26.338217
11.185,2.0,1.0,1.0,34.7,34.1,34.1,3.4,3.7,2.715,-0.22634029674037456,-0.037608241276929334,0.943465246528095,-0.03191782497141746,-0.262458,-26.138352
11.185,2.0,1.0,1.0,34.7,34.1,34.1,3.4,3.7,2.7175,-0.24116570417147526,-0.037959537562394126,0.9390917836641672,-0.0332900796101706,-0.268471,-25.936036
11.185,2.0,1.0,1.0,34.7,34.1,34.1,3.4,3.7,2.72,-0.2560580606684978,-0.03830133769415568,0.9344186804460021,-0.03471722958947382,-0.274713,-25.731183
11.185,2.0,1.0,1.0,34.7,34.1,34.1,3.4,3.7,2.7225,-0.27101301833426805,-0.038632400651160345,0.9294380053474339,-0.03620196851202747,-0.2812,-25.523699
11.185,2.0,1.0,1.0,34.7,34.1,34.1,3.4,3.7,2.725,-0.2860259312239934,-0.03895136636385058,0.9241415967836243,-0.03774716634927941,-0.287944,-25.313488
11.185,2.0,1.0,1.0,34.7,34.1,34.1,3.4,3.7,2.7275,-0.30109183628674385,-0.039256742492240045,0.9185210506381752,-0.03935588441782023,-0.294964,-25.100447
11.185,2.0,1.0,1.0,34.7,34.1,34.1,3.4,3.7,2.73,-0.3162054324609301,-0.0395468894393195,0.9125677064305912,-0.041031391880718374,-0.302274,-24.884466
11.185,2.0,1.0,1.0,34.7,34.1,34.1,3.4,3.7,2.7325,-0.33136105765283425,-0.039820003326161466,0.906272631947925,-0.042777183947450656,-0.309896,-24.665432
11.185,2.0,1.0,1.0,34.7,34.1,34.1,3.4,3.7,2.735,-0.34655266327894135,-0.04007409660719833,0.899626606142071,-0.04459700196690909,-0.317848,-24.443221
11.185,2.0,1.0,1.0,34.7,34.1,34.1,3.4,3.7,2.7375,-0.36177378599500704,-0.04030697594694922,0.8926201000690758,-0.0464948556311957,-0.326154,-24.217708
11.185,2.0,1.0,1.0,34.7,34.1,34.1,3.4,3.7,2.74,-0.37701751616530677,-0.040516216910945174,0.8852432556189646,-0.048475047533695255,-0.334838,-23.988754
11.185,2.0,1.0,1.0,34.7,34.1,34.1,3.4,3.7,2.7425,-0.39227646254207904,-0.04069913494131607,0.8774858617536982,-0.0505422003534178,-0.343928,-23.756216
11.185,2.0,1.0,1.0,34.7,34.1,34.1,3.4,3.7,2.745,-0.40754271252434765,-0.04085275198838132,0.8693373279368629,-0.052701286968869596,-0.353452,-23.519941
11.185,2.0,1.0,1.0,34.7,34.1,34.1,3.4,3.7,2.7475,-0.4228077872435708,-0.04097375804986616,0.8607866544015943,-0.0549576638387362,-0.363443,-23.279767
11.185,2.0,1.0,1.0,34.7,34.1,34.1,3.4,3.7,2.75,-0.438062590575721,-0.0410584667243221,0.851822398863159,-0.0573171080232157,-0.373938,-23.03552
11.185,2.0,1.0,1.0,34.7,34.1,34.1,3.4,3.7,2.7525,-0.45329735099972795,-0.04110276370908895,0.8424326392400572,-0.0597858582584556,-0.384976,-22.787018
11.185,2.0,1.0,1.0,34.7,34.1,34.1,3.4,3.7,2.755,-0.46850155500302254,-0.04110204695831976,0.8326049319032524,-0.0623706605363325,-0.396602,-22.534065
11.185,2.0,1.0,1.0,34.7,34.1,34.1,3.4,3.7,2.7575,-0.4836638704666601,-0.04105115695395149,0.8223262649285892,-0.06507881868129854,-0.408864,-22.276453
11.185,2.0,1.0,1.0,34.7,34.1,34.1,3.4,3.7,2.76,-0.49877205813342335,-0.040944295220360055,0.8115830057851469,-0.06791825045279318,-0.421818,-22.01396
11.185,2.0,1.0,1.0,34.7,34.1,34.1,3.4,3.7,2.7625,-0.5138128688570929,-0.040774928817065584,0.8003608428554834,-0.07089754973215158,-0.435525,-21.746351
11.185,2.0,1.0,1.0,34.7,34.1,34.1,3.4,3.7,2.765,-0.5287719238307287,-0.04053567805455773,0.7886447201583706,-0.07402605537141592,-0.450052,-21.473372
11.185,2.0,1.0,1.0,34.7,34.1,34.1,3.4,3.7,2.7675,-0.5436335743719262,-0.04021818407236799,0.7764187646387815,-0.07731392727966005,-0.465479,-21.194753
11.185,2.0,1.0,1.0,34.7,34.1,34.1,3.4,3.7,2.77,-0.5583807370727816,-0.039812952165703686,0.7636662054159764,-0.08077223028803303,-0.48189,-20.910207
11.185,2.0,1.0,1.0,34.7,34.1,34.1,3.4,3.7,2.7725,-0.5729946991619361,-0.03930916580873027,0.7503692844569751,-0.08441302624952299,-0.499386,-20.619424
11.185,2.0,1.0,1.0,34.7,34.1,34.1,3.4,3.7,2.775,-0.5874548877253227,-0.038694465149665,0.736509158296037,-0.08824947466683895,-0.518077,-20.322073
11.185,2.0,1.0,1.0,34.7,34.1,34.1,3.4,3.7,2.7775,-0.6017385949263961,-0.03795468228220857,0.7220657906906017,-0.09229594186282213,-0.53809,-20.0178
11.185,2.0,1.0,1.0,34.7,34.1,34.1,3.4,3.7,2.78,-0.615820649472823,-0.037073523748878526,0.707017836547812,-0.09656811825552794,-0.559571,-19.706224
11.185,2.0,1.0,1.0,34.7,34.1,34.1,3.4,3.7,2.7825,-0.6296730221893816,-0.03603218840146657,0.6913425181576072,-0.1010831425912939,-0.582687,-19.386938
11.185,2.0,1.0,1.0,34.7,34.1,34.1,3.4,3.7,2.785,-0.6432643505408391,-0.03480890580078253,0.6750154958517262,-0.1058597309020087,-0.607629,-19.059504
11.185,2.0,1.0,1.0,34.7,34.1,34.1,3.4,3.7,2.7875,-0.6565593631331668,-0.033378376615463584,0.6580107368540775,-0.11091830630879158,-0.63462,-18.72345
11.185,2.0,1.0,1.0,34.7,34.1,34.1,3.4,3.7,2.79,-0.6695181803901253,-0.031711091768217105,0.6403003885627931,-0.11628112333121993,-0.663917,-18.378273
11.185,2.0,1.0,1.0,34.7,34.1,34.1,3.4,3.7,2.7925,-0.6820954614874314,-0.029772501117067477,0.6218546662007659,-0.1219723766927064,-0.695821,-18.023429
11.185,2.0,1.0,1.0,34.7,34.1,34.1,3.4,3.7,2.795,-0.6942393599011258,-0.02752199493228248,0.6026417702692208,-0.1280182791682773,-0.730686,-17.658336
11.185,2.0,1.0,1.0,34.7,34.1,34.1,3.4,3.7,2.7975,-0.705890240205487,-0.02491165196483248,0.5826278573979863,-0.1344470849560227,-0.768927,-17.282372
11.185,2.0,1.0,1.0,34.7,34.1,34.1,3.4,3.7,2.8,-0.7169790966122881,-0.021884696088847348,0.5617771002829053,-0.14128902311420896,-0.811038,-16.894866
11.185,2.0,1.0,1.0,34.7,34.1,34.1,3.4,3.7,2.8025,-0.7274255987569224,-0.01837358893853543,0.540051890335874,-0.14857608792774893,-0.857605,-16.495108
11.185,2.0,1.0,1.0,34.7,34.1,34.1,3.4,3.7,2.805,-0.7371356721105592,-0.014297668374549124,0.5174132632763864,-0.15634160687509785,-0.909334,-16.082338
11.185,2.0,1.0,1.0,34.7,34.1,34.1,3.4,3.7,2.8075,-0.7459984991995002,-0.00956022209813933,0.49382166737890154,-0.16461946803092942,-0.967072,-15.655753
11.185,2.0,1.0,1.0,34.7,34.1,34.1,3.4,3.7,2.81,-0.7538828044680627,-0.004044863226426829,0.46923825271211966,-0.17344283113739198,-1.031852,-15.214512
11.185,2.0,1.0,1.0,34.7,34.1,34.1,3.4,3.7,2.8125,-0.760632262857372,0.00238894712358627,0.443626946687766,-0.182842061185128,-1.104931,-14.757737
11.185,2.0,1.0,1.0,34.7,34.1,34.1,3.4,3.7,2.815,-0.7660598563167338,0.009911399942997496,0.41695771000988013,-0.1928414970377763,-1.187858,-14.284533
11.185,2.0,1.0,1.0,34.7,34.1,34.1,3.4,3.7,2.8175,-0.769941006773919,0.01872902545979538,0.3892115568183091,-0.20345448173353656,-1.28255,-13.794007
11.185,2.0,1.0,1.0,34.7,34.1,34.1,3.4,3.7,2.82,-0.7720053648288188,0.029092680236693487,0.36038819966366764,-0.21467581006956443,-1.3914,-13.285301
11.185,2.0,1.0,1.0,34.7,34.1,34.1,3.4,3.7,2.8225,-0.7719272806978453,0.04130680051309754,0.3305175772652586,-0.22647036054492078,-1.517409,-12.757645
11.185,2.0,1.0,1.0,34.7,34.1,34.1,3.4,3.7,2.825,-0.7693153203359393,0.0557395551359152,0.29967707677522437,-0.23875613797045106,-1.66437,-12.210432
11.185,2.0,1.0,1.0,34.7,34.1,34.1,3.4,3.7,2.8275,-0.7637018809496804,0.07283284967812557,0.26801699455803957,-0.25137923938081563,-1.837099,-11.643339
