1,w,sub_t,h,l1,l2,l3,g1,g2,Freq,S11_re,S21_re,S11_img,S21_img,S11_dB,S21_dB
11.185,2.0,1.0,1.0,34.5,34.0,34.0,4.0,2.5,2.5,0.70422556646477,-0.0109666053843877,0.699141263606516,0.00463414565681046,-0.066819,-38.485022
11.185,2.0,1.0,1.0,34.5,34.0,34.0,4.0,2.5,2.5025,0.698591464971578,-0.011156190007809711,0.7046580768241362,0.0046002769477658,-0.067521,-38.367697
11.185,2.0,1.0,1.0,34.5,34.0,34.0,4.0,2.5,2.505,0.6928842084514688,-0.011348705152580768,0.7101567292800997,0.004564098673889745,-0.068235,-38.249984
11.185,2.0,1.0,1.0,34.5,34.0,34.0,4.0,2.5,2.5075,0.6871031071117352,-0.011544198078225544,0.7156365063708464,0.004525534965019725,-0.068962,-38.131878
11.185,2.0,1.0,1.0,34.5,34.0,34.0,4.0,2.5,2.51,0.6812474646148577,-0.011742716852279497,0.7210966739844681,0.004484507400895212,-0.069702,-38.013369
11.185,2.0,1.0,1.0,34.5,34.0,34.0,4.0,2.5,2.5125,0.6753165781464087,-0.011944310361933328,0.7265364779600533,0.004440934915269422,-0.070456,-37.894449
11.185,2.0,1.0,1.0,34.5,34.0,34.0,4.0,2.5,2.515,0.6693097384914497,-0.012149028325657627,0.7319551435324122,0.0043947336959029104,-0.071224,-37.775109
11.185,2.0,1.0,1.0,34.5,34.0,34.0,4.0,2.5,2.5175,0.6632262301198907,-0.012356921304791858,0.737351874761777,0.0043458170802326045,-0.072005,-37.655343
11.185,2.0,1.0,1.0,34.5,34.0,34.0,4.0,2.5,2.52,0.6570653312812565,-0.012568040715081073,0.7427258539481038,0.0042940954464981,-0.072802,-37.53514
11.185,2.0,1.0,1.0,34.5,34.0,34.0,4.0,2.5,2.5225,0.6508263141093774,-0.01278243883814093,0.7480762410295448,0.004239476100094271,-0.073612,-37.414492
11.185,2.0,1.0,1.0,34.5,34.0,34.0,4.0,2.5,2.525,0.6445084447374906,-0.013000168832831784,0.7534021729646981,0.004181863154904879,-0.074438,-37.293389
11.185,2.0,1.0,1.0,34.5,34.0,34.0,4.0,2.5,2.5275,0.6381109834242953,-0.013221284746519821,0.7587027630981948,0.0041211574093574,-0.07528,-37.171824
11.185,2.0,1.0,1.0,34.5,34.0,34.0,4.0,2.5,2.53,0.6316331846915195,-0.013445841526201263,0.7639771005091843,0.004057256216923279,-0.076137,-37.049786
11.185,2.0,1.0,1.0,34.5,34.0,34.0,4.0,2.5,2.5325,0.6250742974735736,-0.013673895029464473,0.7692242493422672,0.003990053350770901,-0.077011,-36.927267
11.185,2.0,1.0,1.0,34.5,34.0,34.0,4.0,2.5,2.535,0.6184335652798931,-0.013905502035261997,0.7744432481204201,0.003919438862259919,-0.077902,-36.804256
11.185,2.0,1.0,1.0,34.5,34.0,34.0,4.0,2.5,2.5375,0.61171022637061,-0.014140720254462343,0.7796331090394156,0.003845298932946556,-0.078809,-36.680743
11.185,2.0,1.0,1.0,34.5,34.0,34.0,4.0,2.5,2.54,0.6049035139461977,-0.01437960834014873,0.7847928172432657,0.003767515719748365,-0.079734,-36.55672
11.185,2.0,1.0,1.0,34.5,34.0,34.0,4.0,2.5,2.5425,0.5980126563517804,-0.014622225897629772,0.7899213300801701,0.003685967192893344,-0.080677,-36.432175
11.185,2.0,1.0,1.0,34.5,34.0,34.0,4.0,2.5,2.545,0.5910368772968155,-0.01486863349412302,0.7950175763384564,0.0036005269662561052,-0.081639,-36.307098
11.185,2.0,1.0,1.0,34.5,34.0,34.0,4.0,2.5,2.5475,0.5839753960909033,-0.015118892668069572,0.8000804554619593,0.003511064119655308,-0.082619,-36.181479
11.185,2.0,1.0,1.0,34.5,34.0,34.0,4.0,2.5,2.55,0.5768274278964708,-0.015373065938034917,0.8051088367443073,0.0034174430126603286,-0.083619,-36.055307
11.185,2.0,1.0,1.0,34.5,34.0,34.0,4.0,2.5,2.5525,0.5695921839991747,-0.015631216811145376,0.8101015585015141,0.003319523089423692,-0.084639,-35.92857
11.185,2.0,1.0,1.0,34.5,34.0,34.0,4.0,2.5,2.555,0.5622688720968247,-0.015893409791007364,0.8150574272223047,0.003217158674023904,-0.08568,-35.801259
11.185,2.0,1.0,1.0,34.5,34.0,34.0,4.0,2.5,2.5575,0.5548566966077193,-0.01615971038505059,0.8199752166955541,0.0031101987557674627,-0.086741,-35.67336
11.185,2.0,1.0,1.0,34.5,34.0,34.0,4.0,2.5,2.56,0.5473548589993015,-0.016430185111230955,0.8248536671141937,0.0029984867638615338,-0.087824,-35.544862
11.185,2.0,1.0,1.0,34.5,34.0,34.0,4.0,2.5,2.5625,0.539762558138078,-0.0167049015040239,0.829691484154936,0.00288186033082706,-0.088929,-35.415754
11.185,2.0,1.0,1.0,34.5,34.0,34.0,4.0,2.5,2.565,0.5320789906617819,-0.01698392811963236,0.8344873380331274,0.0027601510439782344,-0.090057,-35.286023
11.185,2.0,1.0,1.0,34.5,34.0,34.0,4.0,2.5,2.5675,0.5243033513748132,-0.017267334540325627,0.8392398625320028,0.0026331841842460934,-0.091208,-35.155656
11.185,2.0,1.0,1.0,34.5,34.0,34.0,4.0,2.5,2.57,0.5164348336680148,-0.017555191377819263,0.8439476540056161,0.0025007784515717942,-0.092383,-35.024641
11.185,2.0,1.0,1.0,34.5,34.0,34.0,4.0,2.5,2.5725,0.5084726299638936,-0.01784757027559617,0.84860927035465,0.002362745676039499,-0.093584,-34.892964
11.185,2.0,1.0,1.0,34.5,34.0,34.0,4.0,2.5,2.575,0.5004159321884397,-0.018144543910060134,0.8532232299743034,0.002218890513856983,-0.094809,-34.760612
11.185,2.0,1.0,1.0,34.5,34.0,34.0,4.0,2.5,2.5775,0.4922639322707452,-0.018446185990402965,0.8577880106733936,0.002069010127226553,-0.096061,-34.627571
11.185,2.0,1.0,1.0,34.5,34.0,34.0,4.0,2.5,2.58,0.48401582267167415,-0.018752571257053523,0.8623020485637811,0.0019128938470768127,-0.097339,-34.493827
11.185,2.0,1.0,1.0,34.5,34.0,34.0,4.0,2.5,2.5825,0.4756707969428692,-0.01906377547856552,0.8667637369191742,0.0017503228175474433,-0.098645,-34.359365
11.185,2.0,1.0,1.0,34.5,34.0,34.0,4.0,2.5,2.585,0.4672280503174593,-0.019379875446785433,0.8711714250023176,0.0015810696210348653,-0.09998,-34.22417
11.185,2.0,1.0,1.0,34.5,34.0,34.0,4.0,2.5,2.5875,0.45868678033386,-0.019700948970126222,0.8755234168595133,0.0014048978825132812,-0.101344,-34.088228
11.185,2.0,1.0,1.0,34.5,34.0,34.0,4.0,2.5,2.59,0.4500461874941417,-0.020027074864754503,0.8798179700813595,0.0012215618517461165,-0.102738,-33.951522
11.185,2.0,1.0,1.0,34.5,34.0,34.0,4.0,2.5,2.5925,0.4413054759584686,-0.020358332943479572,0.8840532945285317,0.0010308059618921654,-0.104164,-33.814036
11.185,2.0,1.0,1.0,34.5,34.0,34.0,4.0,2.5,2.595,0.4324638542772168,-0.02069480400210818,0.8882275510213316,0.0008323643628917012,-0.105621,-33.675754
11.185,2.0,1.0,1.0,34.5,34.0,34.0,4.0,2.5,2.5975,0.4235205361623899,-0.02103656980300753,0.8923388499916823,0.0006259604278865088,-0.107112,-33.536658
11.185,2.0,1.0,1.0,34.5,34.0,34.0,4.0,2.5,2.6,0.4144747413000671,-0.021383713055586985,0.896385250096122,0.0004113062307855651,-0.108636,-33.396731
11.185,2.0,1.0,1.0,34.5,34.0,34.0,4.0,2.5,2.6025,0.40532569620567344,-0.021736317393380174,0.9003647567882528,0.0001881019929317116,-0.110196,-33.255955
11.185,2.0,1.0,1.0,34.5,34.0,34.0,4.0,2.5,2.605,0.396072635123919,-0.022094467347372956,0.904275320849005,-4.396450334706275e-05,-0.111792,-33.114312
11.185,2.0,1.0,1.0,34.5,34.0,34.0,4.0,2.5,2.6075,0.3867148009753673,-0.02245824831518245,0.9081148368729232,-0.00028521853670378944,-0.113426,-32.971782
11.185,2.0,1.0,1.0,34.5,34.0,34.0,4.0,2.5,2.61,0.3772514463516565,-0.022827746525648236,0.9118811417085544,-0.0005359991068659284,-0.115098,-32.828345
11.185,2.0,1.0,1.0,34.5,34.0,34.0,4.0,2.5,2.6125,0.3676818345614906,-0.0232030489983458,0.9155720128508544,-0.0007966596356886559,-0.11681,-32.683982
11.185,2.0,1.0,1.0,34.5,34.0,34.0,4.0,2.5,2.615,0.3580052407296085,-0.023584243497475562,0.9191851667833568,-0.0010675687122512444,-0.118563,-32.538671
11.185,2.0,1.0,1.0,34.5,34.0,34.0,4.0,2.5,2.6175,0.34822095295106426,-0.023971418479515425,0.9227182572676382,-0.0013491108853492771,-0.120359,-32.392391
11.185,2.0,1.0,1.0,34.5,34.0,34.0,4.0,2.5,2.62,0.3383282735032349,-0.024364663033953432,0.9261688735774117,-0.00164168750703734,-0.122199,-32.245119
11.185,2.0,1.0,1.0,34.5,34.0,34.0,4.0,2.5,2.6225,0.3283265201180981,-0.024764066816332406,0.9295345386743168,-0.0019457176312059651,-0.124085,-32.096833
11.185,2.0,1.0,1.0,34.5,34.0,34.0,4.0,2.5,2.625,0.318215027317476,-0.0251697199727452,0.932812707322201,-0.00226163897154069,-0.126017,-31.947508
11.185,2.0,1.0,1.0,34.5,34.0,34.0,4.0,2.5,2.6275,0.3079931478140332,-0.025581713054814218,0.9360007641363919,-0.0025899089236135417,-0.127999,-31.79712
11.185,2.0,1.0,1.0,34.5,34.0,34.0,4.0,2.5,2.63,0.29766025398101637,-0.026000136924064447,0.9390960215640888,-0.002931005656300708,-0.130031,-31.645644
11.185,2.0,1.0,1.0,34.5,34.0,34.0,4.0,2.5,2.6325,0.2872157393938603,-0.026425082644464148,0.9420957177916338,-0.0032854292782114763,-0.132116,-31.493054
11.185,2.0,1.0,1.0,34.5,34.0,34.0,4.0,2.5,2.635,0.27665902044698265,-0.026856641361747955,0.9449970145739732,-0.0036537030853564,-0.134255,-31.339321
11.185,2.0,1.0,1.0,34.5,34.0,34.0,4.0,2.5,2.6375,0.26598953804929804,-0.027294904167958295,0.9477969949811259,-0.0040363748968861414,-0.13645,-31.184418
11.185,2.0,1.0,1.0,34.5,34.0,34.0,4.0,2.5,2.64,0.2552067594021764,-0.027739961949436846,0.95049266105595,-0.004434018486399797,-0.138704,-31.028316
11.185,2.0,1.0,1.0,34.5,34.0,34.0,4.0,2.5,2.6425,0.2443101798638708,-0.02819190521626005,0.9530809313768304,-0.004847235117063465,-0.141019,-30.870985
11.185,2.0,1.0,1.0,34.5,34.0,34.0,4.0,2.5,2.645,0.2332993249046814,-0.028650823910847584,0.9555586385182658,-0.005276655189605756,-0.143397,-30.712392
11.185,2.0,1.0,1.0,34.5,34.0,34.0,4.0,2.5,2.6475,0.22217375215746565,-0.029116807193160316,0.9579225264015029,-0.0057229400131735934,-0.14584,-30.552507
11.185,2.0,1.0,1.0,34.5,34.0,34.0,4.0,2.5,2.65,0.210933053568429,-0.029589943199553975,0.9601692475265098,-0.006186783710057117,-0.148351,-30.391293
11.185,2.0,1.0,1.0,34.5,34.0,34.0,4.0,2.5,2.6525,0.19957685765360084,-0.030070318771942568,0.9622953600755566,-0.006668915266429562,-0.150933,-30.228718
11.185,2.0,1.0,1.0,34.5,34.0,34.0,4.0,2.5,2.655,0.18810483186677437,-0.03055801915346162,0.9642973248775709,-0.007170100742527389,-0.153589,-30.064743
11.185,2.0,1.0,1.0,34.5,34.0,34.0,4.0,2.5,2.6575,0.17651668508529642,-0.031053127646276442,0.9661715022211353,-0.007691145657117297,-0.156323,-29.899332
11.185,2.0,1.0,1.0,34.5,34.0,34.0,4.0,2.5,2.66,0.16481217022064198,-0.03155572522655753,0.9679141485025752,-0.00823289756269237,-0.159136,-29.732444
11.185,2.0,1.0,1.0,34.5,34.0,34.0,4.0,2.5,2.6625,0.15299108696144587,-0.032065890110922715,0.9695214126939475,-0.008796248829628879,-0.162033,-29.564038
11.185,2.0,1.0,1.0,34.5,34.0,34.0,4.0,2.5,2.665,0.14105328465741002,-0.032583697267810185,0.9709893326139049,-0.009382139659539965,-0.165017,-29.394072
11.185,2.0,1.0,1.0,34.5,34.0,34.0,4.0,2.5,2.6675,0.12899866535349896,-0.03310921786627383,0.9723138309823217,-0.009991561350317604,-0.168092,-29.222501
11.185,2.0,1.0,1.0,34.5,34.0,34.0,4.0,2.5,2.67,0.11682718698484017,-0.03364251865356933,0.973490711237202,-0.010625559837889771,-0.171263,-29.049278
11.185,2.0,1.0,1.0,34.5,34.0,34.0,4.0,2.5,2.6725,0.10453886674403036,-0.0341836612515859,0.9745156530897147,-0.011285239542578535,-0.174533,-28.874354
11.185,2.0,1.0,1.0,34.5,34.0,34.0,4.0,2.5,2.675,0.09213378463400064,-0.03473270136065286,0.9753842077901422,-0.011971767551165673,-0.177908,-28.69768
11.185,2.0,1.0,1.0,34.5,34.0,34.0,4.0,2.5,2.6775,0.07961208722126727,-0.035289687857466744,0.9760917930740787,-0.012686378169415797,-0.181392,-28.519201
11.185,2.0,1.0,1.0,34.5,34.0,34.0,4.0,2.5,2.68,0.06697399160639249,-0.035854661771802965,0.9766336877542638,-0.013430377883924078,-0.18499,-28.338862
11.185,2.0,1.0,1.0,34.5,34.0,34.0,4.0,2.5,2.6825,0.054219789630814114,-0.03642765512423242,0.977005025918954,-0.01420515077682108,-0.188709,-28.156606
11.185,2.0,1.0,1.0,34.5,34.0,34.0,4.0,2.5,2.685,0.041349852341917334,-0.03700868960420384,0.9772007906926213,-0.015012164442160988,-0.192555,-27.972371
11.185,2.0,1.0,1.0,34.5,34.0,34.0,4.0,2.5,2.6875,0.0283646347414616,-0.0375977750644847,0.977215807508915,-0.0158529764588294,-0.196533,-27.786094
11.185,2.0,1.0,1.0,34.5,34.0,34.0,4.0,2.5,2.69,0.015264680846296895,-0.03819490780399077,0.9770447368391711,-0.016729241481649313,-0.200651,-27.597707
11.185,2.0,1.0,1.0,34.5,34.0,34.0,4.0,2.5,2.6925,0.0020506290947557614,-0.03880006860635897,0.9766820663120965,-0.017642719020156714,-0.204917,-27.407142
11.185,2.0,1.0,1.0,34.5,34.0,34.0,4.0,2.5,2.695,-0.01127678186246749,-0.039413220496086324,0.9761221021515326,-0.018595281983408415,-0.209337,-27.214324
11.185,2.0,1.0,1.0,34.5,34.0,34.0,4.0,2.5,2.6975,-0.024716706941892923,-0.040034306167508506,0.9753589598491634,-0.019588926079354422,-0.213922,-27.019176
11.185,2.0,1.0,1.0,34.5,34.0,34.0,4.0,2.5,2.7,-0.03826818792457047,-0.04066324503410973,0.974386553977538,-0.02062578016893299,-0.218681,-26.821617
11.185,2.0,1.0,1.0,34.5,34.0,34.0,4.0,2.5,2.7025,-0.051930146209487674,-0.04129992983639829,0.9731985870355352,-0.02170811768839043,-0.223622,-26.621562
11.185,2.0,1.0,1.0,34.5,34.0,34.0,4.0,2.5,2.705,-0.06570137495056318,-0.041944222735538994,0.9717885372031719,-0.02283836926863491,-0.228758,-26.418921
11.185,2.0,1.0,1.0,34.5,34.0,34.0,4.0,2.5,2.7075,-0.0795805304918426,-0.04259595080672788,0.9701496448651213,-0.024019136698045382,-0.234101,-26.213598
11.185,2.0,1.0,1.0,34.5,34.0,34.0,4.0,2.5,2.71,-0.09356612299993441,-0.0432549008304699,0.9682748977420297,-0.025253208395433352,-0.239662,-26.005494
11.185,2.0,1.0,1.0,34.5,34.0,34.0,4.0,2.5,2.7125,-0.10765650617404025,-0.04392081326090184,0.9661570144453403,-0.026543576583251523,-0.245455,-25.794503
11.185,2.0,1.0,1.0,34.5,34.0,34.0,4.0,2.5,2.715,-0.12184986589131137,-0.0445933752273897,0.9637884262442361,-0.027893456378162484,-0.251497,-25.580514
11.185,2.0,1.0,1.0,34.5,34.0,34.0,4.0,2.5,2.7175,-0.13614420761793009,-0.045272212397951636,0.9611612568019564,-0.029306307047347768,-0.257803,-25.36341
11.185,2.0,1.0,1.0,34.5,34.0,34.0,4.0,2.5,2.72,-0.15053734238308447,-0.04595687949952319,0.9582672996023439,-0.03078585571515469,-0.264391,-25.143064
11.185,2.0,1.0,1.0,34.5,34.0,34.0,4.0,2.5,2.7225,-0.16502687107264663,-0.046646849249344036,0.9550979927452103,-0.03233612384670652,-0.271282,-24.919347
11.185,2.0,1.0,1.0,34.5,34.0,34.0,4.0,2.5,2.725,-0.17961016674996907,-0.04734149940209489,0.9516443907399887,-0.033961456883905373,-0.278495,-24.692116
11.185,2.0,1.0,1.0,34.5,34.0,34.0,4.0,2.5,2.7275,-0.1942843546509383,-0.04804009755673336,0.9478971328699131,-0.03566655746603496,-0.286057,-24.461225
11.185,2.0,1.0,1.0,34.5,34.0,34.0,4.0,2.5,2.73,-0.20904628942619394,-0.048741783292553256,0.9438464076323745,-0.03745652273324334,-0.293991,-24.226515
11.185,2.0,1.0,1.0,34.5,34.0,34.0,4.0,2.5,2.7325,-0.22389252911219915,-0.04944554711244069,0.9394819126833912,-0.039336886288188225,-0.302328,-23.98782
11.185,2.0,1.0,1.0,34.5,34.0,34.0,4.0,2.5,2.735,-0.2388193051999362,-0.050150205558265555,0.9347928096235641,-0.04131366548086938,-0.311099,-23.74496
11.185,2.0,1.0,1.0,34.5,34.0,34.0,4.0,2.5,2.7375,-0.2538224880301356,-0.05085437172332164,0.929767672857175,-0.04339341478632805,-0.320339,-23.497745
11.185,2.0,1.0,1.0,34.5,34.0,34.0,4.0,2.5,2.74,-0.2688975465697636,-0.05155642021261898,0.9243944316328445,-0.04558328616688794,-0.330088,-23.245974
11.185,2.0,1.0,1.0,34.5,34.0,34.0,4.0,2.5,2.7425,-0.28403950140709305,-0.05225444538454381,0.9186603042304873,-0.04789109745274098,-0.34039,-22.989431
11.185,2.0,1.0,1.0,34.5,34.0,34.0,4.0,2.5,2.745,-0.29924286952999957,-0.05294621143516657,0.9125517230921283,-0.05032540994001468,-0.351292,-22.727884
11.185,2.0,1.0,1.0,34.5,34.0,34.0,4.0,2.5,2.7475,-0.3145015991090451,-0.05362909254406015,0.906054249500036,-0.05289561659734287,-0.362851,-22.461087
11.185,2.0,1.0,1.0,34.5,34.0,34.0,4.0,2.5,2.75,-0.329808992073369,-0.0543000008680209,0.899152476181038,-0.0556120424938653,-0.375127,-22.188776
11.185,2.0,1.0,1.0,34.5,34.0,34.0,4.0,2.5,2.7525,-0.345157611717293,-0.054955299620594956,0.8918299159574652,-0.058486059316816295,-0.38819,-21.910667
11.185,2.0,1.0,1.0,34.5,34.0,34.0,4.0,2.5,2.755,-0.3605391718746214,-0.055590697776687195,0.8840688742699965,-0.06153021613818655,-0.402118,-21.626456
11.185,2.0,1.0,1.0,34.5,34.0,34.0,4.0,2.5,2.7575,-0.3759444033006339,-0.056201122047747756,0.8758503030643207,-0.0647583889187256,-0.417,-21.335818
11.185,2.0,1.0,1.0,34.5,34.0,34.0,4.0,2.5,2.76,-0.39136289174862393,-0.05678056062445961,0.8671536331631762,-0.06818595160244822,-0.432937,-21.038401
11.185,2.0,1.0,1.0,34.5,34.0,34.0,4.0,2.5,2.7625,-0.4067828807390153,-0.057321871701135195,0.8579565818438608,-0.07182997204974673,-0.450045,-20.733828
11.185,2.0,1.0,1.0,34.5,34.0,34.0,4.0,2.5,2.765,-0.4221910300876979,-0.057816547873168096,0.8482349319231584,-0.07570943646766885,-0.468457,-20.421691
11.185,2.0,1.0,1.0,34.5,34.0,34.0,4.0,2.5,2.7675,-0.4375721187435365,-0.058254424993733275,0.8379622782447949,-0.07984550639359883,-0.488325,-20.101551
11.185,2.0,1.0,1.0,34.5,34.0,34.0,4.0,2.5,2.77,-0.452908677190556,-0.058623320797242806,0.8271097371203295,-0.08426181262212185,-0.509826,-19.772935
11.185,2.0,1.0,1.0,34.5,34.0,34.0,4.0,2.5,2.7725,-0.4681805303384702,-0.05890858428677639,0.8156456140812968,-0.08898479064552307,-0.533165,-19.435329
11.185,2.0,1.0,1.0,34.5,34.0,34.0,4.0,2.5,2.775,-0.4833642261049894,-0.0590925311919066,0.803535025407914,-0.0940440620567717,-0.558582,-19.088181
11.185,2.0,1.0,1.0,34.5,34.0,34.0,4.0,2.5,2.7775,-0.49843231730944754,-0.05915373325982181,0.7907394695553354,-0.09947286569254046,-0.586358,-18.730892
11.185,2.0,1.0,1.0,34.5,34.0,34.0,4.0,2.5,2.78,-0.513352454406959,-0.05906611910784712,0.7772163462084989,-0.10530854066726486,-0.616825,-18.362813
11.185,2.0,1.0,1.0,34.5,34.0,34.0,4.0,2.5,2.7825,-0.5280862331287196,-0.058797830978542596,0.7629184239234533,-0.11159306020660202,-0.650374,-17.983245
11.185,2.0,1.0,1.0,34.5,34.0,34.0,4.0,2.5,2.785,-0.5425877230964892,-0.05830976384705607,0.7477932632327201,-0.11837360925672082,-0.687475,-17.591429
11.185,2.0,1.0,1.0,34.5,34.0,34.0,4.0,2.5,2.7875,-0.5568015794120534,-0.05755368941066265,0.7317826124516871,-0.1257031884834953,-0.72869,-17.186548
11.185,2.0,1.0,1.0,34.5,34.0,34.0,4.0,2.5,2.79,-0.5706606070993362,-0.056469835572413814,0.7148218110559595,-0.13364120965917292,-0.774698,-16.767723
11.185,2.0,1.0,1.0,34.5,34.0,34.0,4.0,2.5,2.7925,-0.5840826056258865,-0.054983749665797936,0.6968392650068902,-0.14225401798106835,-0.826324,-16.334011
11.185,2.0,1.0,1.0,34.5,34.0,34.0,4.0,2.5,2.795,-0.5969662646974955,-0.053002218031946914,0.6777561072537698,-0.1516152281397443,-0.884578,-15.884407
11.185,2.0,1.0,1.0,34.5,34.0,34.0,4.0,2.5,2.7975,-0.6091858103149137,-0.05040794290673419,0.657486236957416,-0.16180568088855357,-0.950706,-15.417847
11.185,2.0,1.0,1.0,34.5,34.0,34.0,4.0,2.5,2.8,-0.6205840102279025,-0.04705258847519882,0.6359370623736791,-0.17291269594746475,-1.026256,-14.933225
11.185,2.0,1.0,1.0,34.5,34.0,34.0,4.0,2.5,2.8025,-0.630963043253366,-0.042747704294204415,0.6130114863385474,-0.18502808393906875,-1.113166,-14.429411
11.185,2.0,1.0,1.0,34.5,34.0,34.0,4.0,2.5,2.805,-0.6400726313047375,-0.03725292997236147,0.5886120199491724,-0.1982440349518484,-1.21388,-13.905286
11.185,2.0,1.0,1.0,34.5,34.0,34.0,4.0,2.5,2.8075,-0.6475947656721325,-0.03026081925906108,0.5626484668441345,-0.2126454472340571,-1.331503,-13.359807
11.185,2.0,1.0,1.0,34.5,34.0,34.0,4.0,2.5,2.81,-0.6531244244151864,-0.021377688613776404,0.535051502138726,-0.22829638255187223,-1.470009,-12.792104
11.185,2.0,1.0,1.0,34.5,34.0,34.0,4.0,2.5,2.8125,-0.656146083940976,-0.0101003024236217,0.505795831384999,-0.245216981333193,-1.634499,-12.201627
11.185,2.0,1.0,1.0,34.5,34.0,34.0,4.0,2.5,2.815,-0.6560070080481526,0.0042106144498860075,0.47493862299157663,-0.2633451755804035,-1.831545,-11.588383
11.185,2.0,1.0,1.0,34.5,34.0,34.0,4.0,2.5,2.8175,-0.6518911009487292,0.022356251423906733,0.4426816174136508,-0.28247484774588266,-2.06958,-10.953286
11.185,2.0,1.0,1.0,34.5,34.0,34.0,4.0,2.5,2.82,-0.6428030745602882,0.045315249365631624,0.4094682917121231,-0.30215913681146434,-2.359285,-10.298689
11.185,2.0,1.0,1.0,34.5,34.0,34.0,4.0,2.5,2.8225,-0.6275842309855246,0.07422768130991558,0.3761288067859883,-0.3215662761990185,-2.713745,-9.629138
11.185,2.0,1.0,1.0,34.5,34.0,34.0,4.0,2.5,2.825,-0.6050010475686012,0.11030648628199419,0.34407978334228556,-0.3392810433031801,-3.147805,-8.952427
11.185,2.0,1.0,1.0,34.5,34.0,34.0,4.0,2.5,2.8275,-0.573975629547673,0.15460768594220772,0.3155610535936872,-0.35306973164112593,-3.675156,-8.280929
