1,w,sub_t,h,l1,l2,l3,g1,g2,Freq,S11_re,S21_re,S11_img,S21_img,S11_dB,S21_dB
11.185,2.0,1.0,1.0,34.0,33.9,33.9,2.4,3.9,2.5,0.783351257907281,-0.00999103567141046,0.609148431648945,0.00595069032131949,-0.066956,-38.689221
11.185,2.0,1.0,1.0,34.0,33.9,33.9,2.4,3.9,2.5025,0.7786862851723763,-0.01018083694098994,0.6149710201528987,0.005949121288877092,-0.067659,-38.568556
11.185,2.0,1.0,1.0,34.0,33.9,33.9,2.4,3.9,2.505,0.7739535231463335,-0.010373892680525517,0.6207861568909802,0.005945858133894751,-0.068374,-38.447524
11.185,2.0,1.0,1.0,34.0,33.9,33.9,2.4,3.9,2.5075,0.7691522541324435,-0.010570262807818797,0.6265933420273639,0.005940836733848617,-0.069103,-38.326118
11.185,2.0,1.0,1.0,34.0,33.9,33.9,2.4,3.9,2.51,0.7642817503627642,-0.010770008471416952,0.632392060566028,0.005933990650365473,-0.069845,-38.204329
11.185,2.0,1.0,1.0,34.0,33.9,33.9,2.4,3.9,2.5125,0.7593412739009052,-0.010973192075388442,0.6381817818743314,0.005925251038383793,-0.0706,-38.08215
11.185,2.0,1.0,1.0,34.0,33.9,33.9,2.4,3.9,2.515,0.7543300765469417,-0.011179877304403979,0.643961959191293,0.005914546551384821,-0.071369,-37.959573
11.185,2.0,1.0,1.0,34.0,33.9,33.9,2.4,3.9,2.5175,0.7492473997447038,-0.01139012914910702,0.6497320291200359,0.005901803242505112,-0.072153,-37.83659
11.185,2.0,1.0,1.0,34.0,33.9,33.9,2.4,3.9,2.52,0.7440924744916783,-0.011604013931756864,0.6554914111038762,0.005886944461331928,-0.072951,-37.713193
11.185,2.0,1.0,1.0,34.0,33.9,33.9,2.4,3.9,2.5225,0.7388645212518069,-0.011821599332123853,0.6612395068854721,0.005869890746171817,-0.073765,-37.589373
11.185,2.0,1.0,1.0,34.0,33.9,33.9,2.4,3.9,2.525,0.7335627498714492,-0.012042954413614913,0.6669756999484814,0.005850559711571705,-0.074593,-37.465122
11.185,2.0,1.0,1.0,34.0,33.9,33.9,2.4,3.9,2.5275,0.7281863594988123,-0.012268149649603693,0.6726993549411096,0.005828865930859739,-0.075438,-37.340432
11.185,2.0,1.0,1.0,34.0,33.9,33.9,2.4,3.9,2.53,0.7227345385071725,-0.01249725694993733,0.678409817080931,0.0058047208134602065,-0.076298,-37.215294
11.185,2.0,1.0,1.0,34.0,33.9,33.9,2.4,3.9,2.5325,0.7172064644222212,-0.012730349687587681,0.6841064115403347,0.005778032476723729,-0.077175,-37.0897
11.185,2.0,1.0,1.0,34.0,33.9,33.9,2.4,3.9,2.535,0.711601303853887,-0.012967502725412196,0.689788442811933,0.005748705611998802,-0.078069,-36.963639
11.185,2.0,1.0,1.0,34.0,33.9,33.9,2.4,3.9,2.5375,0.7059182124330269,-0.013208792442984493,0.6954551940532213,0.005716641344656627,-0.07898,-36.837105
11.185,2.0,1.0,1.0,34.0,33.9,33.9,2.4,3.9,2.54,0.7001563347533748,-0.013454296763451147,0.7011059264097839,0.005681737087763941,-0.079909,-36.710087
11.185,2.0,1.0,1.0,34.0,33.9,33.9,2.4,3.9,2.5425,0.6943148043191791,-0.013704095180366237,0.7067398783162867,0.005643886389081811,-0.080857,-36.582576
11.185,2.0,1.0,1.0,34.0,33.9,33.9,2.4,3.9,2.545,0.6883927434989765,-0.013958268784449872,0.7123562647744848,0.005602978771050045,-0.081823,-36.454563
11.185,2.0,1.0,1.0,34.0,33.9,33.9,2.4,3.9,2.5475,0.6823892634859887,-0.01421690029021085,0.7179542766074274,0.005558899563397343,-0.082808,-36.326038
11.185,2.0,1.0,1.0,34.0,33.9,33.9,2.4,3.9,2.55,0.6763034642656289,-0.01448007406236902,0.7235330796890376,0.005511529727996505,-0.083812,-36.196992
11.185,2.0,1.0,1.0,34.0,33.9,33.9,2.4,3.9,2.5525,0.6701344345906792,-0.014747876142003496,0.7290918141481731,0.005460745675562138,-0.084837,-36.067415
11.185,2.0,1.0,1.0,34.0,33.9,33.9,2.4,3.9,2.555,0.663881251964684,-0.015020394272348466,0.7346295935462802,0.0054064190737645006,-0.085883,-35.937297
11.185,2.0,1.0,1.0,34.0,33.9,33.9,2.4,3.9,2.5575,0.6575429826341669,-0.015297717924148243,0.7401455040276914,0.005348416646308393,-0.08695,-35.806627
11.185,2.0,1.0,1.0,34.0,33.9,33.9,2.4,3.9,2.56,0.651118681590313,-0.015579938320475195,0.7456386034415875,0.005286599962499192,-0.088039,-35.675396
11.185,2.0,1.0,1.0,34.0,33.9,33.9,2.4,3.9,2.5625,0.6446073925807823,-0.015867148460904822,0.7511079204346001,0.00522082521678964,-0.08915,-35.543593
11.185,2.0,1.0,1.0,34.0,33.9,33.9,2.4,3.9,2.565,0.6380081481323652,-0.016159443144931642,0.7565524535130078,0.0051509429977704005,-0.090284,-35.411208
11.185,2.0,1.0,1.0,34.0,33.9,33.9,2.4,3.9,2.5675,0.6313199695852458,-0.016456918994497898,0.7619711700734051,0.005076798046035607,-0.091441,-35.278229
11.185,2.0,1.0,1.0,34.0,33.9,33.9,2.4,3.9,2.57,0.6245418671396603,-0.016759674475495333,0.7673630054007062,0.0049982290003192705,-0.092623,-35.144646
11.185,2.0,1.0,1.0,34.0,33.9,33.9,2.4,3.9,2.5725,0.6176728399157976,-0.017067809918086343,0.7727268616322841,0.004915068131261837,-0.09383,-35.010446
11.185,2.0,1.0,1.0,34.0,33.9,33.9,2.4,3.9,2.575,0.6107118760278412,-0.017381427535676043,0.7780616066869958,0.004827141062126392,-0.095063,-34.87562
11.185,2.0,1.0,1.0,34.0,33.9,33.9,2.4,3.9,2.5775,0.6036579526730996,-0.017700631442350633,0.7833660731577949,0.004734266475742155,-0.096321,-34.740155
11.185,2.0,1.0,1.0,34.0,33.9,33.9,2.4,3.9,2.58,0.5965100362372299,-0.018025527668579743,0.7886390571665708,0.004636255806906928,-0.097607,-34.604039
11.185,2.0,1.0,1.0,34.0,33.9,33.9,2.4,3.9,2.5825,0.5892670824166086,-0.018356224174961588,0.7938793171798053,0.004532912919432341,-0.098921,-34.467261
11.185,2.0,1.0,1.0,34.0,33.9,33.9,2.4,3.9,2.585,0.581928036358992,-0.018692830863767725,0.7990855727835658,0.004424033766963619,-0.100263,-34.329807
11.185,2.0,1.0,1.0,34.0,33.9,33.9,2.4,3.9,2.5875,0.5744918328236388,-0.019035459588022104,0.8042565034162947,0.004309406036649397,-0.101635,-34.191666
11.185,2.0,1.0,1.0,34.0,33.9,33.9,2.4,3.9,2.59,0.5669573963621776,-0.019384224157822753,0.8093907470577758,0.004188808774679073,-0.103037,-34.052824
11.185,2.0,1.0,1.0,34.0,33.9,33.9,2.4,3.9,2.5925,0.5593236415215392,-0.019739240343588,0.8144868988726043,0.004062011992638556,-0.10447,-33.913269
11.185,2.0,1.0,1.0,34.0,33.9,33.9,2.4,3.9,2.595,0.5515894730703946,-0.020100625875876903,0.8195435098063804,0.003928776253569747,-0.105936,-33.772986
11.185,2.0,1.0,1.0,34.0,33.9,33.9,2.4,3.9,2.5975,0.5437537862505792,-0.02046850044140254,0.8245590851327952,0.0037888522365424433,-0.107434,-33.631964
11.185,2.0,1.0,1.0,34.0,33.9,33.9,2.4,3.9,2.6,0.5358154670551097,-0.02084298567481831,0.8295320829496723,0.003641980278469991,-0.108966,-33.490187
11.185,2.0,1.0,1.0,34.0,33.9,33.9,2.4,3.9,2.6025,0.5277733925344931,-0.021224205145818256,0.834460912621928,0.0034878898918139435,-0.110534,-33.347641
11.185,2.0,1.0,1.0,34.0,33.9,33.9,2.4,3.9,2.605,0.5196264311331008,-0.021612284341048373,0.8393439331693417,0.003326299256731396,-0.112138,-33.204312
11.185,2.0,1.0,1.0,34.0,33.9,33.9,2.4,3.9,2.6075,0.511373443057531,-0.022007350640277246,0.8441794515968912,0.003156914686120273,-0.113778,-33.060185
11.185,2.0,1.0,1.0,34.0,33.9,33.9,2.4,3.9,2.61,0.5030132806789731,-0.022409533286221053,0.8489657211653195,0.0029794300619110673,-0.115458,-32.915246
11.185,2.0,1.0,1.0,34.0,33.9,33.9,2.4,3.9,2.6125,0.49454478897172366,-0.02281896334736004,0.8537009395994649,0.002793526240839854,-0.117177,-32.769477
11.185,2.0,1.0,1.0,34.0,33.9,33.9,2.4,3.9,2.615,0.4859668059901256,-0.02323577367301904,0.8583832472317707,0.0025988704278124613,-0.118936,-32.622864
11.185,2.0,1.0,1.0,34.0,33.9,33.9,2.4,3.9,2.6175,0.4772781633863716,-0.02366009883991287,0.8630107250782392,0.0023951155148382473,-0.120738,-32.475391
11.185,2.0,1.0,1.0,34.0,33.9,33.9,2.4,3.9,2.62,0.46847768697173936,-0.024092075089280567,0.8675813928439617,0.0021818993833666906,-0.122583,-32.32704
11.185,2.0,1.0,1.0,34.0,33.9,33.9,2.4,3.9,2.6225,0.45956419732399656,-0.02453184025364591,0.8720932068551969,0.001958844167705393,-0.124473,-32.177795
11.185,2.0,1.0,1.0,34.0,33.9,33.9,2.4,3.9,2.625,0.45053651044392,-0.0249795336721452,0.876544057914786,0.00172555547703001,-0.12641,-32.027639
11.185,2.0,1.0,1.0,34.0,33.9,33.9,2.4,3.9,2.6275,0.4413934384640115,-0.0254352960932611,0.8809317690775407,0.0014816215733150086,-0.128394,-31.876553
11.185,2.0,1.0,1.0,34.0,33.9,33.9,2.4,3.9,2.63,0.4321337904127454,-0.025899269563682183,0.8852540933420201,0.0012266125023177223,-0.130428,-31.724519
11.185,2.0,1.0,1.0,34.0,33.9,33.9,2.4,3.9,2.6325,0.42275637303788005,-0.026371597301881898,0.8895087112549112,0.0009600791745355263,-0.132512,-31.571519
11.185,2.0,1.0,1.0,34.0,33.9,33.9,2.4,3.9,2.635,0.4132599916926067,-0.026852423554866982,0.8936932284240094,0.0006815523928255712,-0.13465,-31.417533
11.185,2.0,1.0,1.0,34.0,33.9,33.9,2.4,3.9,2.6375,0.40364345128858414,-0.027341893436388674,0.8978051729355349,0.00039054182312603283,-0.136842,-31.262542
11.185,2.0,1.0,1.0,34.0,33.9,33.9,2.4,3.9,2.64,0.39390555732014165,-0.027840152744736228,0.9018419926712778,8.653490444791773e-05,-0.139091,-31.106526
11.185,2.0,1.0,1.0,34.0,33.9,33.9,2.4,3.9,2.6425,0.3840451169642992,-0.028347347758036906,0.9058010525207595,-0.00023100430598914953,-0.141398,-30.949463
11.185,2.0,1.0,1.0,34.0,33.9,33.9,2.4,3.9,2.645,0.37406094026152065,-0.028863625004773474,0.9096796314833032,-0.0005626363569217025,-0.143766,-30.791333
11.185,2.0,1.0,1.0,34.0,33.9,33.9,2.4,3.9,2.6475,0.36395184138251996,-0.029389131006990084,0.9134749196545627,-0.0009089477013011927,-0.146196,-30.632113
11.185,2.0,1.0,1.0,34.0,33.9,33.9,2.4,3.9,2.65,0.3537166399867747,-0.029924011993392875,0.9171840150917038,-0.0012705520738169951,-0.148692,-30.471781
11.185,2.0,1.0,1.0,34.0,33.9,33.9,2.4,3.9,2.6525,0.34335416267889995,-0.03046841357925321,0.9208039205510237,-0.0016480919532638897,-0.151254,-30.310315
11.185,2.0,1.0,1.0,34.0,33.9,33.9,2.4,3.9,2.655,0.33286324456940725,-0.031022480409695373,0.9243315400913811,-0.0020422401157848343,-0.153887,-30.147689
11.185,2.0,1.0,1.0,34.0,33.9,33.9,2.4,3.9,2.6575,0.32224273094694905,-0.03158635576257935,0.9277636755363281,-0.0024537012855034763,-0.156591,-29.983881
11.185,2.0,1.0,1.0,34.0,33.9,33.9,2.4,3.9,2.66,0.31149147906966035,-0.03216018110678021,0.9310970227873346,-0.0028832138895958483,-0.159371,-29.818864
11.185,2.0,1.0,1.0,34.0,33.9,33.9,2.4,3.9,2.6625,0.3006083600838459,-0.03274409561120579,0.9343281679799235,-0.0033315519254276554,-0.162229,-29.652613
11.185,2.0,1.0,1.0,34.0,33.9,33.9,2.4,3.9,2.665,0.289592261078881,-0.0333382355993821,0.9374535834739588,-0.003799526948019566,-0.165167,-29.485101
11.185,2.0,1.0,1.0,34.0,33.9,33.9,2.4,3.9,2.6675,0.2784420872879943,-0.03394273394385821,0.9404696236686222,-0.004287990186790514,-0.16819,-29.3163
11.185,2.0,1.0,1.0,34.0,33.9,33.9,2.4,3.9,2.67,0.2671567644453449,-0.0345577193940401,0.9433725206319248,-0.004797834801288203,-0.1713,-29.146184
11.185,2.0,1.0,1.0,34.0,33.9,33.9,2.4,3.9,2.6725,0.25573524131073644,-0.03518331583033806,0.9461583795337859,-0.005329998286439345,-0.174501,-28.974721
11.185,2.0,1.0,1.0,34.0,33.9,33.9,2.4,3.9,2.675,0.24417649237430122,-0.03581964143669909,0.9488231738708395,-0.005885465038756738,-0.177796,-28.801883
11.185,2.0,1.0,1.0,34.0,33.9,33.9,2.4,3.9,2.6775,0.2324795207545712,-0.03646680778268203,0.9513627404701779,-0.006465269095930336,-0.18119,-28.627637
11.185,2.0,1.0,1.0,34.0,33.9,33.9,2.4,3.9,2.68,0.2206433613045812,-0.03712491880520378,0.9537727742581974,-0.00707049706331214,-0.184686,-28.451953
11.185,2.0,1.0,1.0,34.0,33.9,33.9,2.4,3.9,2.6825,0.20866708394201516,-0.03779406967892381,0.9560488227795404,-0.007702291241991875,-0.188289,-28.274797
11.185,2.0,1.0,1.0,34.0,33.9,33.9,2.4,3.9,2.685,0.19654979722091487,-0.03847434556292609,0.9581862804498892,-0.008361852974463312,-0.192003,-28.096134
11.185,2.0,1.0,1.0,34.0,33.9,33.9,2.4,3.9,2.6875,0.184290652164155,-0.0391658202098773,0.960180382524948,-0.00905044622530848,-0.195833,-27.91593
11.185,2.0,1.0,1.0,34.0,33.9,33.9,2.4,3.9,2.69,0.17188884637783705,-0.03986855442216675,0.9620261987664368,-0.009769401415892276,-0.199784,-27.734148
11.185,2.0,1.0,1.0,34.0,33.9,33.9,2.4,3.9,2.6925,0.15934362847079392,-0.04058259433763995,0.9637186267842281,-0.01052011953378352,-0.203861,-27.55075
11.185,2.0,1.0,1.0,34.0,33.9,33.9,2.4,3.9,2.695,0.146654302804909,-0.04130796952538602,0.9652523850318997,-0.011304076539501703,-0.20807,-27.365698
11.185,2.0,1.0,1.0,34.0,33.9,33.9,2.4,3.9,2.6975,0.13382023460452713,-0.042044690869603836,0.9666220054309317,-0.01212282809526991,-0.212417,-27.17895
11.185,2.0,1.0,1.0,34.0,33.9,33.9,2.4,3.9,2.7,0.12084085545638382,-0.04279274821679404,0.9678218255965371,-0.012978014642726217,-0.216909,-26.990464
11.185,2.0,1.0,1.0,34.0,33.9,33.9,2.4,3.9,2.7025,0.10771566923484173,-0.043552107758371476,0.9688459806356036,-0.013871366859057299,-0.221552,-26.800198
11.185,2.0,1.0,1.0,34.0,33.9,33.9,2.4,3.9,2.705,0.09444425849116858,-0.044322709117192015,0.969688394484523,-0.014804711523764367,-0.226353,-26.608106
11.185,2.0,1.0,1.0,34.0,33.9,33.9,2.4,3.9,2.7075,0.08102629134998263,-0.045104462102384155,0.970342770751637,-0.015779977831300328,-0.23132,-26.414142
11.185,2.0,1.0,1.0,34.0,33.9,33.9,2.4,3.9,2.71,0.0674615289610306,-0.04589724309218126,0.9708025830257289,-0.01679920418813693,-0.23646,-26.218256
11.185,2.0,1.0,1.0,34.0,33.9,33.9,2.4,3.9,2.7125,0.05374983356017327,-0.046700890999083464,0.9710610646083147,-0.01786454553647443,-0.241784,-26.0204
11.185,2.0,1.0,1.0,34.0,33.9,33.9,2.4,3.9,2.715,0.03989117720000276,-0.047515202765521014,0.971111197623455,-0.018978281250811864,-0.247299,-25.82052
11.185,2.0,1.0,1.0,34.0,33.9,33.9,2.4,3.9,2.7175,0.02588565121794647,-0.04833992833113162,0.9709457014543865,-0.02014282365799834,-0.253015,-25.618562
11.185,2.0,1.0,1.0,34.0,33.9,33.9,2.4,3.9,2.72,0.011733476518311137,-0.049174765004644475,0.9705570204513613,-0.021360727236206693,-0.258944,-25.41447
11.185,2.0,1.0,1.0,34.0,33.9,33.9,2.4,3.9,2.7225,-0.002564985245552857,-0.05001935116402462,0.9699373108497459,-0.02263469855356053,-0.265096,-25.208186
11.185,2.0,1.0,1.0,34.0,33.9,33.9,2.4,3.9,2.725,-0.01700921949141576,-0.05087325919775706,0.9690784268315417,-0.02396760701292211,-0.271484,-24.999647
11.185,2.0,1.0,1.0,34.0,33.9,33.9,2.4,3.9,2.7275,-0.03159854542025127,-0.051735987587723596,0.9679719056570162,-0.025362496475670675,-0.278119,-24.788791
11.185,2.0,1.0,1.0,34.0,33.9,33.9,2.4,3.9,2.73,-0.04633210149475218,-0.05260695201974315,0.9666089517861409,-0.02682259784417766,-0.285017,-24.575551
11.185,2.0,1.0,1.0,34.0,33.9,33.9,2.4,3.9,2.7325,-0.06120882954158801,-0.05348547539120515,0.9649804199017872,-0.02835134269017476,-0.292192,-24.359859
11.185,2.0,1.0,1.0,34.0,33.9,33.9,2.4,3.9,2.735,-0.07622745731463226,-0.05437077656591309,0.963076796738336,-0.02995237802431333,-0.299659,-24.141642
11.185,2.0,1.0,1.0,34.0,33.9,33.9,2.4,3.9,2.7375,-0.09138647933321754,-0.05526195770382727,0.9608881816102808,-0.03162958231096736,-0.307437,-23.920826
11.185,2.0,1.0,1.0,34.0,33.9,33.9,2.4,3.9,2.74,-0.10668413578246042,-0.05615798996729391,0.9584042655257019,-0.03338708284171925,-0.315543,-23.697331
11.185,2.0,1.0,1.0,34.0,33.9,33.9,2.4,3.9,2.7425,-0.12211838923136431,-0.057057697374932395,0.9556143087590492,-0.035229274590988506,-0.323998,-23.471078
11.185,2.0,1.0,1.0,34.0,33.9,33.9,2.4,3.9,2.745,-0.13768689888775854,-0.057959738538839845,0.9525071167466259,-0.03716084068784773,-0.332823,-23.241979
11.185,2.0,1.0,1.0,34.0,33.9,33.9,2.4,3.9,2.7475,-0.15338699206642561,-0.058862585979254055,0.9490710141565547,-0.03918677464914874,-0.342043,-23.009946
11.185,2.0,1.0,1.0,34.0,33.9,33.9,2.4,3.9,2.75,-0.169215632496747,-0.0597645026621857,0.945293816972971,-0.0413124045304918,-0.351681,-22.774886
11.185,2.0,1.0,1.0,34.0,33.9,33.9,2.4,3.9,2.7525,-0.18516938503759683,-0.06066351534848048,0.9411628024219535,-0.0435434191630927,-0.361767,-22.536701
11.185,2.0,1.0,1.0,34.0,33.9,33.9,2.4,3.9,2.755,-0.20124437629836336,-0.06155738427573399,0.9366646765546209,-0.04588589665590042,-0.37233,-22.295289
11.185,2.0,1.0,1.0,34.0,33.9,33.9,2.4,3.9,2.7575,-0.2174362505841295,-0.062443568615581105,0.9317855392912822,-0.04834633535292657,-0.383403,-22.050544
11.185,2.0,1.0,1.0,34.0,33.9,33.9,2.4,3.9,2.76,-0.23374012048759993,-0.06331918705585783,0.9265108467203268,-0.05093168744496691,-0.395022,-21.802353
11.185,2.0,1.0,1.0,34.0,33.9,33.9,2.4,3.9,2.7625,-0.2501505113379656,-0.0641809727473023,0.9208253704374616,-0.0536493954418327,-0.407226,-21.550599
11.185,2.0,1.0,1.0,34.0,33.9,33.9,2.4,3.9,2.765,-0.266661298583869,-0.06502522172456676,0.9147131537063288,-0.056507431714546856,-0.420058,-21.29516
11.185,2.0,1.0,1.0,34.0,33.9,33.9,2.4,3.9,2.7675,-0.2832656370303006,-0.06584773375747258,0.9081574642222072,-0.05951434131496765,-0.433565,-21.035906
11.185,2.0,1.0,1.0,34.0,33.9,33.9,2.4,3.9,2.77,-0.29995588066269596,-0.06664374440597441,0.901140743268717,-0.0626792882706035,-0.447799,-20.772703
11.185,2.0,1.0,1.0,34.0,33.9,33.9,2.4,3.9,2.7725,-0.316723491570063,-0.06740784683559432,0.8936445510765616,-0.0660121055317549,-0.462817,-20.505409
11.185,2.0,1.0,1.0,34.0,33.9,33.9,2.4,3.9,2.775,-0.33355893621578053,-0.06813390169240016,0.8856495082276188,-0.06952334871224682,-0.478682,-20.233876
11.185,2.0,1.0,1.0,34.0,33.9,33.9,2.4,3.9,2.7775,-0.35045156699160124,-0.06881493302986402,0.8771352330029932,-0.0732243537080744,-0.495463,-19.957947
11.185,2.0,1.0,1.0,34.0,33.9,33.9,2.4,3.9,2.78,-0.3673894866174942,-0.06944300791447361,0.8680802746579138,-0.07712729819246596,-0.513238,-19.677459
11.185,2.0,1.0,1.0,34.0,33.9,33.9,2.4,3.9,2.7825,-0.384359392505571,-0.07000909690126528,0.8584620427300875,-0.08124526686067668,-0.532093,-19.392241
11.185,2.0,1.0,1.0,34.0,33.9,33.9,2.4,3.9,2.785,-0.401346397676674,-0.07050291205081821,0.8482567326654716,-0.0855923201192694,-0.552122,-19.102112
11.185,2.0,1.0,1.0,34.0,33.9,33.9,2.4,3.9,2.7875,-0.41833382418666787,-0.07091271853953265,0.8374392482955376,-0.09018356566381511,-0.573434,-18.806884
11.185,2.0,1.0,1.0,34.0,33.9,33.9,2.4,3.9,2.79,-0.4353029642670994,-0.07122511517631835,0.825983122048133,-0.09503523204075641,-0.596146,-18.506358
11.185,2.0,1.0,1.0,34.0,33.9,33.9,2.4,3.9,2.7925,-0.45223280348934214,-0.07142477825926076,0.8138604342544665,-0.10016474280973492,-0.620394,-18.200326
11.185,2.0,1.0,1.0,34.0,33.9,33.9,2.4,3.9,2.795,-0.4690996991975391,-0.07149416216054978,0.8010417335729099,-0.10559078926684147,-0.646326,-17.888573
11.185,2.0,1.0,1.0,34.0,33.9,33.9,2.4,3.9,2.7975,-0.4858770061954378,-0.07141314878935036,0.7874959614478056,-0.11133339879625014,-0.674114,-17.57087
11.185,2.0,1.0,1.0,34.0,33.9,33.9,2.4,3.9,2.8,-0.5025346401860624,-0.07115863662090807,0.7731903847400088,-0.11741399470641223,-0.703949,-17.246979
11.185,2.0,1.0,1.0,34.0,33.9,33.9,2.4,3.9,2.8025,-0.5190385677208716,-0.07070405826651507,0.758090542315854,-0.12385544176844684,-0.736049,-16.916654
11.185,2.0,1.0,1.0,34.0,33.9,33.9,2.4,3.9,2.805,-0.5353502093904291,-0.07001881356689706,0.7421602136093649,-0.13068206946297528,-0.770662,-16.579637
11.185,2.0,1.0,1.0,34.0,33.9,33.9,2.4,3.9,2.8075,-0.5514257406648027,-0.06906760290444573,0.7253614201757675,-0.1379196619626589,-0.808071,-16.23566
11.185,2.0,1.0,1.0,34.0,33.9,33.9,2.4,3.9,2.81,-0.567215272171945,-0.06780964285044319,0.7076544752949157,-0.14559539987139897,-0.848599,-15.884448
11.185,2.0,1.0,1.0,34.0,33.9,33.9,2.4,3.9,2.8125,-0.582661888326052,-0.0661977434313191,0.688998102109726,-0.153737733362288,-0.892618,-15.525717
11.185,2.0,1.0,1.0,34.0,33.9,33.9,2.4,3.9,2.815,-0.5977005201896642,-0.06417722331568808,0.6693496480581381,-0.1623761591484059,-0.940559,-15.159176
11.185,2.0,1.0,1.0,34.0,33.9,33.9,2.4,3.9,2.8175,-0.6122566254842948,-0.06168463630022301,0.6486654330828705,-0.17154086408364042,-0.992916,-14.784532
11.185,2.0,1.0,1.0,34.0,33.9,33.9,2.4,3.9,2.82,-0.62624464614156,-0.058646279989214706,0.62690128206764,-0.18126218534564373,-1.050266,-14.401488
11.185,2.0,1.0,1.0,34.0,33.9,33.9,2.4,3.9,2.8225,-0.6395662123766871,-0.054976456178519297,0.6040133091579355,-0.1915698201021822,-1.113281,-14.009754
11.185,2.0,1.0,1.0,34.0,33.9,33.9,2.4,3.9,2.825,-0.6521080630750812,-0.05057545326283699,0.5799590443375815,-0.20249169505702472,-1.182745,-13.609045
11.185,2.0,1.0,1.0,34.0,33.9,33.9,2.4,3.9,2.8275,-0.66373965709665,-0.04532722575186034,0.5546990223698932,-0.214052376802808,-1.259583,-13.199096
