1,w,sub_t,h,l1,l2,l3,g1,g2,Freq,S11_re,S21_re,S11_img,S21_img,S11_dB,S21_dB
11.185,2.0,1.0,1.0,33.5,33.5,33.5,4.0,2.0,2.5,0.850661096806761,-0.00690583522814359,0.514160404028455,0.00564937895264992,-0.052496,-40.99054
11.185,2.0,1.0,1.0,33.5,33.5,33.5,4.0,2.0,2.5025,0.8472172275122655,-0.00704258400064678,0.5197131928710189,0.005672412302525304,-0.052963,-40.873834
11.185,2.0,1.0,1.0,33.5,33.5,33.5,4.0,2.0,2.505,0.8437224323203022,-0.0071816961880035194,0.5252647888539298,0.0056947623729585225,-0.053439,-40.756841
11.185,2.0,1.0,1.0,33.5,33.5,33.5,4.0,2.0,2.5075,0.8401762284390774,-0.007323217701616437,0.5308149501599642,0.005716400560216247,-0.053923,-40.639552
11.185,2.0,1.0,1.0,33.5,33.5,33.5,4.0,2.0,2.51,0.8365781257163154,-0.007467195596026273,0.5363634279104776,0.005737297229055111,-0.054415,-40.521959
11.185,2.0,1.0,1.0,33.5,33.5,33.5,4.0,2.0,2.5125,0.8329276265292849,-0.007613678103852939,0.5419099659429728,0.0057574216714218794,-0.054916,-40.404054
11.185,2.0,1.0,1.0,33.5,33.5,33.5,4.0,2.0,2.515,0.8292242256735487,-0.007762714672023743,0.5474543005816103,0.005776742063289135,-0.055425,-40.285827
11.185,2.0,1.0,1.0,33.5,33.5,33.5,4.0,2.0,2.5175,0.825467410250449,-0.007914355999347023,0.5529961604003956,0.005795225419531037,-0.055943,-40.167271
11.185,2.0,1.0,1.0,33.5,33.5,33.5,4.0,2.0,2.52,0.8216566595533245,-0.00806865407549045,0.5585352659788108,0.005812837546737606,-0.056471,-40.048377
11.185,2.0,1.0,1.0,33.5,33.5,33.5,4.0,2.0,2.5225,0.8177914449524777,-0.00822566222142541,0.5640713296495969,0.005829542993859223,-0.057008,-39.929136
11.185,2.0,1.0,1.0,33.5,33.5,33.5,4.0,2.0,2.525,0.8138712297788878,-0.008385435131408162,0.5696040552384358,0.005845305000567792,-0.057554,-39.809539
11.185,2.0,1.0,1.0,33.5,33.5,33.5,4.0,2.0,2.5275,0.809895469206684,-0.008548028916562258,0.5751331377952361,0.005860085443213294,-0.05811,-39.689577
11.185,2.0,1.0,1.0,33.5,33.5,33.5,4.0,2.0,2.53,0.8058636101343882,-0.008713501150140336,0.5806582633167168,0.0058738447782472674,-0.058676,-39.569241
11.185,2.0,1.0,1.0,33.5,33.5,33.5,4.0,2.0,2.5325,0.8017750910649377,-0.008881910914540755,0.5861791084599866,0.005886541982977596,-0.059253,-39.448522
11.185,2.0,1.0,1.0,33.5,33.5,33.5,4.0,2.0,2.535,0.797629341984496,-0.009053318850161272,0.5916953402467924,0.005898134493508908,-0.059839,-39.32741
11.185,2.0,1.0,1.0,33.5,33.5,33.5,4.0,2.0,2.5375,0.7934257842400719,-0.00922778720617562,0.5972066157580934,0.005908578139716014,-0.060437,-39.205895
11.185,2.0,1.0,1.0,33.5,33.5,33.5,4.0,2.0,2.54,0.7891638304159573,-0.009405379893325985,0.6027125818186154,0.005917827077087059,-0.061046,-39.083969
11.185,2.0,1.0,1.0,33.5,33.5,33.5,4.0,2.0,2.5425,0.7848428842089937,-0.009586162538824565,0.608212874671014,0.0059258337152620025,-0.061666,-38.96162
11.185,2.0,1.0,1.0,33.5,33.5,33.5,4.0,2.0,2.545,0.7804623403026926,-0.009770202543468422,0.6137071196392652,0.005932548643082839,-0.062297,-38.83884
11.185,2.0,1.0,1.0,33.5,33.5,33.5,4.0,2.0,2.5475,0.7760215842402265,-0.009957569141073468,0.6191949307808758,0.005937920549958861,-0.062941,-38.715617
11.185,2.0,1.0,1.0,33.5,33.5,33.5,4.0,2.0,2.55,0.7715199922962973,-0.010148333460340156,0.6246759105275107,0.0059418961433376685,-0.063596,-38.591941
11.185,2.0,1.0,1.0,33.5,33.5,33.5,4.0,2.0,2.5525,0.7669569313479214,-0.01034256858927318,0.6301496493135776,0.005944420062059351,-0.064264,-38.467803
11.185,2.0,1.0,1.0,33.5,33.5,33.5,4.0,2.0,2.555,0.762331758744136,-0.010540349642278976,0.6356157251923316,0.005945434785356386,-0.064945,-38.34319
11.185,2.0,1.0,1.0,33.5,33.5,33.5,4.0,2.0,2.5575,0.7576438221746529,-0.010741753830076793,0.6410737034390149,0.005944880537246023,-0.065639,-38.218093
11.185,2.0,1.0,1.0,33.5,33.5,33.5,4.0,2.0,2.56,0.7528924595374847,-0.010946860532564644,0.6465231361405253,0.005942695186045669,-0.066347,-38.0925
11.185,2.0,1.0,1.0,33.5,33.5,33.5,4.0,2.0,2.5625,0.7480769988055687,-0.011155751374789758,0.6519635617710965,0.005938814138721709,-0.067068,-37.966399
11.185,2.0,1.0,1.0,33.5,33.5,33.5,4.0,2.0,2.565,0.7431967578924005,-0.01136851030618382,0.6573945047534425,0.005933170229765182,-0.067803,-37.839779
11.185,2.0,1.0,1.0,33.5,33.5,33.5,4.0,2.0,2.5675,0.7382510445167171,-0.011585223683230247,0.6628154750047758,0.005925693604264668,-0.068553,-37.712629
11.185,2.0,1.0,1.0,33.5,33.5,33.5,4.0,2.0,2.57,0.7332391560662456,-0.011805980355742826,0.668225967467114,0.005916311594823983,-0.069318,-37.584936
11.185,2.0,1.0,1.0,33.5,33.5,33.5,4.0,2.0,2.5725,0.7281603794605396,-0.012030871756944199,0.6736254616212272,0.0059049485919496734,-0.070098,-37.456688
11.185,2.0,1.0,1.0,33.5,33.5,33.5,4.0,2.0,2.575,0.7230139910129362,-0.012259991997547468,0.6790134209835641,0.005891525907503352,-0.070894,-37.327872
11.185,2.0,1.0,1.0,33.5,33.5,33.5,4.0,2.0,2.5775,0.7177992562916494,-0.01249343796405131,0.6843892925854552,0.005875961630789286,-0.071707,-37.198477
11.185,2.0,1.0,1.0,33.5,33.5,33.5,4.0,2.0,2.58,0.7125154299800336,-0.012731309421476756,0.6897525064338506,0.005858170476812883,-0.072536,-37.068488
11.185,2.0,1.0,1.0,33.5,33.5,33.5,4.0,2.0,2.5825,0.707161755736027,-0.01297370912078634,0.6951024749528232,0.0058380636262153115,-0.073382,-36.937892
11.185,2.0,1.0,1.0,33.5,33.5,33.5,4.0,2.0,2.585,0.7017374660508097,-0.013220742911240141,0.7004385924050096,0.005815548556350165,-0.074245,-36.806677
11.185,2.0,1.0,1.0,33.5,33.5,33.5,4.0,2.0,2.5875,0.696241782106683,-0.013472519857961666,0.7057602342921352,0.005790528862932501,-0.075127,-36.674827
11.185,2.0,1.0,1.0,33.5,33.5,33.5,4.0,2.0,2.59,0.6906739136341999,-0.013729152365002066,0.7110667567336955,0.00576290407164368,-0.076027,-36.54233
11.185,2.0,1.0,1.0,33.5,33.5,33.5,4.0,2.0,2.5925,0.6850330587685475,-0.013990756304209874,0.7163574958228491,0.005732569439034138,-0.076947,-36.409169
11.185,2.0,1.0,1.0,33.5,33.5,33.5,4.0,2.0,2.595,0.6793184039052098,-0.014257451150233486,0.7216317669584811,0.00569941574201016,-0.077886,-36.275331
11.185,2.0,1.0,1.0,33.5,33.5,33.5,4.0,2.0,2.5975,0.6735291235548975,-0.014529360122006712,0.7268888641523752,0.005663329055142084,-0.078846,-36.1408
11.185,2.0,1.0,1.0,33.5,33.5,33.5,4.0,2.0,2.6,0.6676643801977618,-0.014806610331085709,0.732128059310345,0.005624190514969512,-0.079826,-36.005561
11.185,2.0,1.0,1.0,33.5,33.5,33.5,4.0,2.0,2.6025,0.6617233241368845,-0.01508933293723511,0.7373486014860997,0.005581876070411927,-0.080828,-35.869597
11.185,2.0,1.0,1.0,33.5,33.5,33.5,4.0,2.0,2.605,0.65570509335103,-0.015377663311684024,0.7425497161065754,0.005536256218329931,-0.081853,-35.732893
11.185,2.0,1.0,1.0,33.5,33.5,33.5,4.0,2.0,2.6075,0.649608813346643,-0.015671741208503027,0.7477306041673435,0.005487195723198034,-0.0829,-35.595431
11.185,2.0,1.0,1.0,33.5,33.5,33.5,4.0,2.0,2.61,0.6434335970090704,-0.01597171094457943,0.7528904413966455,0.005434553319772067,-0.08397,-35.457194
11.185,2.0,1.0,1.0,33.5,33.5,33.5,4.0,2.0,2.6125,0.6371785444529613,-0.016277721588706037,0.7580283773865033,0.0053781813975416455,-0.085066,-35.318166
11.185,2.0,1.0,1.0,33.5,33.5,33.5,4.0,2.0,2.615,0.6308427428717974,-0.016589927160327804,0.7631435346892419,0.005317925665657548,-0.086186,-35.178327
11.185,2.0,1.0,1.0,33.5,33.5,33.5,4.0,2.0,2.6175,0.6244252663864973,-0.016908486838532424,0.7682350078776573,0.005253624796916242,-0.087332,-35.037659
11.185,2.0,1.0,1.0,33.5,33.5,33.5,4.0,2.0,2.62,0.6179251758930132,-0.017233565181907044,0.7733018625669341,0.005185110049266172,-0.088505,-34.896143
11.185,2.0,1.0,1.0,33.5,33.5,33.5,4.0,2.0,2.6225,0.6113415189088165,-0.01756533235992957,0.7783431343962977,0.005112204863167541,-0.089705,-34.75376
11.185,2.0,1.0,1.0,33.5,33.5,33.5,4.0,2.0,2.625,0.604673329418182,-0.0179039643966073,0.783357827968208,0.00503472443299574,-0.090934,-34.610489
11.185,2.0,1.0,1.0,33.5,33.5,33.5,4.0,2.0,2.6275,0.5979196277161049,-0.018249643427125442,0.7883449157427886,0.004952475250523716,-0.092193,-34.46631
11.185,2.0,1.0,1.0,33.5,33.5,33.5,4.0,2.0,2.63,0.5910794202507147,-0.018602557968321217,0.7933033368849691,0.004865254618342772,-0.093482,-34.321202
11.185,2.0,1.0,1.0,33.5,33.5,33.5,4.0,2.0,2.6325,0.5841516994639866,-0.018962903203858995,0.7982319960616553,0.0047728501308964355,-0.094802,-34.175141
11.185,2.0,1.0,1.0,33.5,33.5,33.5,4.0,2.0,2.635,0.5771354436305345,-0.019330881285037887,0.8031297621860161,0.0046750391205904705,-0.096155,-34.028107
11.185,2.0,1.0,1.0,33.5,33.5,33.5,4.0,2.0,2.6375,0.5700296166942483,-0.019706701648236104,0.8079954671057565,0.00457158806621548,-0.097542,-33.880076
11.185,2.0,1.0,1.0,33.5,33.5,33.5,4.0,2.0,2.64,0.5628331681024596,-0.02009058135006224,0.8128279042319954,0.004462251960664154,-0.098964,-33.731023
11.185,2.0,1.0,1.0,33.5,33.5,33.5,4.0,2.0,2.6425,0.555545032637337,-0.020482745421362757,0.817625827105073,0.0043467736346482835,-0.100422,-33.580925
11.185,2.0,1.0,1.0,33.5,33.5,33.5,4.0,2.0,2.645,0.5481641302441133,-0.02088342724131595,0.8223879478933327,0.0042248830328101,-0.101917,-33.429756
11.185,2.0,1.0,1.0,33.5,33.5,33.5,4.0,2.0,2.6475,0.5406893658557348,-0.02129286893292959,0.8271129358205528,0.004096296438285712,-0.103452,-33.277489
11.185,2.0,1.0,1.0,33.5,33.5,33.5,4.0,2.0,2.65,0.533119629213429,-0.021711321781357807,0.8317994155173664,0.003960715641397171,-0.105027,-33.124097
11.185,2.0,1.0,1.0,33.5,33.5,33.5,4.0,2.0,2.6525,0.5254537946826806,-0.022139046676547956,0.8364459652915509,0.0038178270477347343,-0.106643,-32.969553
11.185,2.0,1.0,1.0,33.5,33.5,33.5,4.0,2.0,2.655,0.5176907210639696,-0.022576314581842557,0.8410511153116565,0.0036673007204272067,-0.108303,-32.813828
11.185,2.0,1.0,1.0,33.5,33.5,33.5,4.0,2.0,2.6575,0.5098292513976115,-0.023023407030274272,0.845613345697894,0.0035087893508806704,-0.110008,-32.656892
11.185,2.0,1.0,1.0,33.5,33.5,33.5,4.0,2.0,2.66,0.5018682127619212,-0.023480616650416307,0.850131084513669,0.0033419271516967348,-0.11176,-32.498714
11.185,2.0,1.0,1.0,33.5,33.5,33.5,4.0,2.0,2.6625,0.4938064160638594,-0.023948247723784837,0.8546027056504882,0.0031663286648415064,-0.113561,-32.339262
11.185,2.0,1.0,1.0,33.5,33.5,33.5,4.0,2.0,2.665,0.48564265582119387,-0.024426616775931,0.8590265265983037,0.0029815874774257495,-0.115412,-32.178504
11.185,2.0,1.0,1.0,33.5,33.5,33.5,4.0,2.0,2.6675,0.47737570993514544,-0.024916053203508717,0.8634008060925301,0.0027872748366651007,-0.117316,-32.016404
11.185,2.0,1.0,1.0,33.5,33.5,33.5,4.0,2.0,2.67,0.4690043394523378,-0.025416899939769196,0.8677237416281398,0.0025829381547005535,-0.119275,-31.852928
11.185,2.0,1.0,1.0,33.5,33.5,33.5,4.0,2.0,2.6725,0.46052728831476747,-0.025929514161096776,0.8719934668302346,0.002368099392968935,-0.121292,-31.688039
11.185,2.0,1.0,1.0,33.5,33.5,33.5,4.0,2.0,2.675,0.45194328309638926,-0.026454268037386295,0.876208048669405,0.0021422533147005614,-0.123367,-31.521698
11.185,2.0,1.0,1.0,33.5,33.5,33.5,4.0,2.0,2.6775,0.4432510327247552,-0.026991549529242646,0.8803654845089584,0.0019048655928754876,-0.125506,-31.353867
11.185,2.0,1.0,1.0,33.5,33.5,33.5,4.0,2.0,2.68,0.4344492281860135,-0.027541763235189646,0.8844636989697137,0.001655370759568311,-0.127709,-31.184505
11.185,2.0,1.0,1.0,33.5,33.5,33.5,4.0,2.0,2.6825,0.42553654221142073,-0.028105331292272443,0.8885005405964991,0.0013931699810339068,-0.129979,-31.013568
11.185,2.0,1.0,1.0,33.5,33.5,33.5,4.0,2.0,2.685,0.4165116289433468,-0.028682694333652746,0.8924737783087389,0.0011176286411150205,-0.132321,-30.841012
11.185,2.0,1.0,1.0,33.5,33.5,33.5,4.0,2.0,2.6875,0.407373123578606,-0.0292743125070172,0.896381097615536,0.000828073713542731,-0.134737,-30.666792
11.185,2.0,1.0,1.0,33.5,33.5,33.5,4.0,2.0,2.69,0.39811964198677513,-0.029880666557829675,0.9002200965733971,0.0005237909014457532,-0.137231,-30.49086
11.185,2.0,1.0,1.0,33.5,33.5,33.5,4.0,2.0,2.6925,0.38874978030097346,-0.030502258981687524,0.9039882814622447,0.0002040215198121856,-0.139806,-30.313166
11.185,2.0,1.0,1.0,33.5,33.5,33.5,4.0,2.0,2.695,0.3792621144784624,-0.031139615250244716,0.9076830621524371,-0.00013204090624548403,-0.142466,-30.133657
11.185,2.0,1.0,1.0,33.5,33.5,33.5,4.0,2.0,2.6975,0.3696551998282121,-0.03179328511537572,0.9113017471322858,-0.0004852543578776066,-0.145215,-29.95228
11.185,2.0,1.0,1.0,33.5,33.5,33.5,4.0,2.0,2.7,0.35992757050250956,-0.032463843996429514,0.9148415381618055,-0.0008565323877334619,-0.148058,-29.768979
11.185,2.0,1.0,1.0,33.5,33.5,33.5,4.0,2.0,2.7025,0.35007773894952593,-0.03315189445557515,0.9182995245142102,-0.0012468485725167966,-0.151,-29.583694
11.185,2.0,1.0,1.0,33.5,33.5,33.5,4.0,2.0,2.705,0.34010419532374164,-0.03385806776635563,0.9216726767618032,-0.0016572413962008309,-0.154046,-29.396364
11.185,2.0,1.0,1.0,33.5,33.5,33.5,4.0,2.0,2.7075,0.3300054068510848,-0.03458302558060151,0.9249578400573804,-0.0020888196128109136,-0.1572,-29.206925
11.185,2.0,1.0,1.0,33.5,33.5,33.5,4.0,2.0,2.71,0.3197798171457422,-0.0353274616988348,0.9281517268558884,-0.002542768144058534,-0.16047,-29.01531
11.185,2.0,1.0,1.0,33.5,33.5,33.5,4.0,2.0,2.7125,0.3094258454757577,-0.036092103949133904,0.9312509090138171,-0.00302035457442164,-0.163861,-28.821448
11.185,2.0,1.0,1.0,33.5,33.5,33.5,4.0,2.0,2.715,0.2989418859748812,-0.036877716179136835,0.9342518091953759,-0.0035229363146718506,-0.167379,-28.625266
11.185,2.0,1.0,1.0,33.5,33.5,33.5,4.0,2.0,2.7175,0.28832630679862004,-0.03768510036537348,0.937150691504863,-0.004051968514523045,-0.171033,-28.426686
11.185,2.0,1.0,1.0,33.5,33.5,33.5,4.0,2.0,2.72,0.2775774492232342,-0.03851509884336351,0.9399436512534514,-0.004609012816241196,-0.17483,-28.225628
11.185,2.0,1.0,1.0,33.5,33.5,33.5,4.0,2.0,2.7225,0.2666936266874592,-0.03936859666084223,0.942626603755712,-0.00519574705395985,-0.178779,-28.022008
11.185,2.0,1.0,1.0,33.5,33.5,33.5,4.0,2.0,2.725,0.2556731237782939,-0.04024652405496463,0.9451952720361996,-0.0058139760183900544,-0.182888,-27.815735
11.185,2.0,1.0,1.0,33.5,33.5,33.5,4.0,2.0,2.7275,0.24451419516416908,-0.04114985905229045,0.9476451733090588,-0.006465643423968926,-0.187167,-27.606716
11.185,2.0,1.0,1.0,33.5,33.5,33.5,4.0,2.0,2.73,0.23321506448161472,-0.04207963018755864,0.949971604073328,-0.007152845235669893,-0.191628,-27.394854
11.185,2.0,1.0,1.0,33.5,33.5,33.5,4.0,2.0,2.7325,0.22177392318512346,-0.04303691933360041,0.9521696236430178,-0.007877844536233228,-0.196281,-27.180043
11.185,2.0,1.0,1.0,33.5,33.5,33.5,4.0,2.0,2.735,0.2101889293747463,-0.04402286462985264,0.9542340359034049,-0.00864308814205396,-0.20114,-26.962176
11.185,2.0,1.0,1.0,33.5,33.5,33.5,4.0,2.0,2.7375,0.19845820662220448,-0.04503866349058051,0.9561593690526351,-0.009451225208170435,-0.206217,-26.741136
11.185,2.0,1.0,1.0,33.5,33.5,33.5,4.0,2.0,2.74,0.18657984282451748,-0.0460855756655964,0.9579398530496975,-0.010305128100572934,-0.211529,-26.516803
11.185,2.0,1.0,1.0,33.5,33.5,33.5,4.0,2.0,2.7425,0.17455188912478714,-0.047164926315467905,0.9595693944451108,-0.011207915858504544,-0.217091,-26.289049
11.185,2.0,1.0,1.0,33.5,33.5,33.5,4.0,2.0,2.745,0.16237235895362295,-0.048278109049195515,0.9610415482178414,-0.012162980621856768,-0.222921,-26.057736
11.185,2.0,1.0,1.0,33.5,33.5,33.5,4.0,2.0,2.7475,0.15003922726262017,-0.04942658885420472,0.9623494861795472,-0.01317401746073096,-0.229039,-25.822722
11.185,2.0,1.0,1.0,33.5,33.5,33.5,4.0,2.0,2.75,0.137550430044507,-0.0506119048250284,0.96348596143317,-0.0142450581176828,-0.235467,-25.583855
11.185,2.0,1.0,1.0,33.5,33.5,33.5,4.0,2.0,2.7525,0.12490386426466527,-0.05183567256669536,0.9644432682849147,-0.01538050926042043,-0.242228,-25.340973
11.185,2.0,1.0,1.0,33.5,33.5,33.5,4.0,2.0,2.755,0.11209738836767204,-0.05309958610955092,0.9652131969037512,-0.016585195946642067,-0.249349,-25.093906
11.185,2.0,1.0,1.0,33.5,33.5,33.5,4.0,2.0,2.7575,0.09912882357299799,-0.054405419121345354,0.9657869818973379,-0.017864411126777193,-0.256859,-24.842471
11.185,2.0,1.0,1.0,33.5,33.5,33.5,4.0,2.0,2.76,0.08599595623960438,-0.05575502513642375,0.9661552438232162,-0.01922397215889783,-0.26479,-24.586475
11.185,2.0,1.0,1.0,33.5,33.5,33.5,4.0,2.0,2.7625,0.07269654166439775,-0.05715033643611171,0.966307922474062,-0.02067028548828474,-0.273179,-24.325711
11.185,2.0,1.0,1.0,33.5,33.5,33.5,4.0,2.0,2.765,0.05922830979062988,-0.058593361102771656,0.9662342005590624,-0.022210420858465214,-0.282064,-24.059961
11.185,2.0,1.0,1.0,33.5,33.5,33.5,4.0,2.0,2.7675,0.04558897344740531,-0.06008617762438362,0.9659224161420613,-0.02385219667899609,-0.291492,-23.788989
11.185,2.0,1.0,1.0,33.5,33.5,33.5,4.0,2.0,2.77,0.03177623993143686,-0.06163092623595251,0.965359961881111,-0.02560427848756283,-0.301511,-23.512546
11.185,2.0,1.0,1.0,33.5,33.5,33.5,4.0,2.0,2.7725,0.017787826991732612,-0.06322979593402497,0.9645331687311582,-0.027476292822155624,-0.31218,-23.230364
11.185,2.0,1.0,1.0,33.5,33.5,33.5,4.0,2.0,2.775,0.0036214846066408906,-0.06488500577142908,0.9634271713068476,-0.02947895927792944,-0.323561,-22.942155
11.185,2.0,1.0,1.0,33.5,33.5,33.5,4.0,2.0,2.7775,-0.010724975622606724,-0.0665987786044469,0.9620257515373315,-0.03162424408095433,-0.335726,-22.647613
11.185,2.0,1.0,1.0,33.5,33.5,33.5,4.0,2.0,2.78,-0.025253641060818306,-0.06837330488785283,0.9603111565570526,-0.033925539189494015,-0.348758,-22.346406
11.185,2.0,1.0,1.0,33.5,33.5,33.5,4.0,2.0,2.7825,-0.03996644544032273,-0.0702106933451965,0.9582638859383983,-0.03639787175947439,-0.36275,-22.038181
11.185,2.0,1.0,1.0,33.5,33.5,33.5,4.0,2.0,2.785,-0.05486509887635236,-0.07211290431454079,0.9558624423510436,-0.03905814981651119,-0.377807,-21.722554
11.185,2.0,1.0,1.0,33.5,33.5,33.5,4.0,2.0,2.7875,-0.06995099491446362,-0.07408166018993625,0.9530830384899626,-0.04192545120004827,-0.394054,-21.399115
11.185,2.0,1.0,1.0,33.5,33.5,33.5,4.0,2.0,2.79,-0.08522508716017443,-0.07611832551631867,0.9498992516047166,-0.045021364329363975,-0.41163,-21.06742
11.185,2.0,1.0,1.0,33.5,33.5,33.5,4.0,2.0,2.7925,-0.10068772550543946,-0.07822374676897442,0.9462816151372069,-0.04837039113421625,-0.430699,-20.72699
11.185,2.0,1.0,1.0,33.5,33.5,33.5,4.0,2.0,2.795,-0.11633843850790858,-0.08039803840421489,0.9421971347826334,-0.052000424643620716,-0.45145,-20.377307
11.185,2.0,1.0,1.0,33.5,33.5,33.5,4.0,2.0,2.7975,-0.13217564373598537,-0.08264029704740786,0.9376087136841175,-0.05594331627660163,-0.474107,-20.017811
11.185,2.0,1.0,1.0,33.5,33.5,33.5,4.0,2.0,2.8,-0.1481962613551228,-0.08494821918136233,0.9324744684316076,-0.060235550848848775,-0.498929,-19.647896
11.185,2.0,1.0,1.0,33.5,33.5,33.5,4.0,2.0,2.8025,-0.16439519717149143,-0.08731758869198346,0.9267469140868739,-0.06491905066776192,-0.526223,-19.266907
11.185,2.0,1.0,1.0,33.5,33.5,33.5,4.0,2.0,2.805,-0.18076464873149875,-0.0897415880917683,0.9203719927284774,-0.07004213369957307,-0.556356,-18.874133
11.185,2.0,1.0,1.0,33.5,33.5,33.5,4.0,2.0,2.8075,-0.19729317041596478,-0.092209869706446,0.9132879163343013,-0.07566065431822977,-0.589761,-18.468807
11.185,2.0,1.0,1.0,33.5,33.5,33.5,4.0,2.0,2.81,-0.2139644086422548,-0.09470729847475634,0.905423791900044,-0.08183935787256501,-0.626963,-18.050099
11.185,2.0,1.0,1.0,33.5,33.5,33.5,4.0,2.0,2.8125,-0.230755383261169,-0.0972122432760505,0.896697995921947,-0.0886534808354095,-0.668594,-17.617115
11.185,2.0,1.0,1.0,33.5,33.5,33.5,4.0,2.0,2.815,-0.24763414169528675,-0.09969424460670627,0.8870162693819074,-0.09619062398794018,-0.715424,-17.168893
11.185,2.0,1.0,1.0,33.5,33.5,33.5,4.0,2.0,2.8175,-0.2645565422555765,-0.1021108170023737,0.8762695180128945,-0.10455291209512471,-0.768397,-16.704408
11.185,2.0,1.0,1.0,33.5,33.5,33.5,4.0,2.0,2.82,-0.28146182407816916,-0.1044030466634282,0.8643313346899956,-0.11385942106443415,-0.828678,-16.222574
11.185,2.0,1.0,1.0,33.5,33.5,33.5,4.0,2.0,2.8225,-0.29826648229105157,-0.1064895075330865,0.8510553270704413,-0.12424878692723346,-0.897716,-15.722255
11.185,2.0,1.0,1.0,33.5,33.5,33.5,4.0,2.0,2.825,-0.3148557750704359,-0.10825782962292627,0.836272462150139,-0.13588178223370148,-0.977328,-15.202287
11.185,2.0,1.0,1.0,33.5,33.5,33.5,4.0,2.0,2.8275,-0.33107193094961457,-0.10955299889560269,0.819788879598115,-0.1489434055547999,-1.069808,-14.661517
