1,w,sub_t,h,l1,l2,l3,g1,g2,Freq,S11_re,S21_re,S11_img,S21_img,S11_dB,S21_dB
11.185,2.0,1.0,1.0,34.8,34.9,34.9,2.4,1.5,2.5,0.616985427865819,-0.0337105376003506,0.771127248759895,0.0158435115928423,-0.108581,-28.577929
11.185,2.0,1.0,1.0,34.8,34.9,34.9,2.4,1.5,2.5025,0.6096162670285044,-0.03443823550516674,0.7767228018489831,0.01577838234924582,-0.110264,-28.431634
11.185,2.0,1.0,1.0,34.8,34.9,34.9,2.4,1.5,2.505,0.6021433111282553,-0.03518273849356499,0.7822820117605288,0.015704366886409818,-0.111996,-28.284338
11.185,2.0,1.0,1.0,34.8,34.9,34.9,2.4,1.5,2.5075,0.594565304661898,-0.0359445086861717,0.7878033981925108,0.015621018622861738,-0.113777,-28.13602
11.185,2.0,1.0,1.0,34.8,34.9,34.9,2.4,1.5,2.51,0.5868809720434949,-0.03672402391241274,0.7932854304171163,0.015527868123980864,-0.11561,-27.986661
11.185,2.0,1.0,1.0,34.8,34.9,34.9,2.4,1.5,2.5125,0.5790890172096481,-0.03752177836036966,0.7987265252146151,0.015424421756153354,-0.117496,-27.836238
11.185,2.0,1.0,1.0,34.8,34.9,34.9,2.4,1.5,2.515,0.5711881232118385,-0.03833828325748344,0.8041250446972423,0.015310160247950995,-0.119439,-27.684731
11.185,2.0,1.0,1.0,34.8,34.9,34.9,2.4,1.5,2.5175,0.5631769517951979,-0.03917406758360722,0.8094792940153217,0.01518453715087009,-0.121439,-27.532116
11.185,2.0,1.0,1.0,34.8,34.9,34.9,2.4,1.5,2.52,0.555054142963002,-0.04002967881796889,0.8147875189372075,0.015046977191495944,-0.123499,-27.378369
11.185,2.0,1.0,1.0,34.8,34.9,34.9,2.4,1.5,2.5225,0.546818314526269,-0.04090568372165325,0.8200479032938258,0.014896874506195952,-0.125622,-27.223468
11.185,2.0,1.0,1.0,34.8,34.9,34.9,2.4,1.5,2.525,0.5384680616377386,-0.041802669157259685,0.8252585662778114,0.014733590748615613,-0.12781,-27.067387
11.185,2.0,1.0,1.0,34.8,34.9,34.9,2.4,1.5,2.5275,0.5300019563095646,-0.042721242947435664,0.830417559586288,0.014556453059338635,-0.130065,-26.910101
11.185,2.0,1.0,1.0,34.8,34.9,34.9,2.4,1.5,2.53,0.5214185469140655,-0.043662034774016006,0.8355228643953394,0.014364751886052489,-0.132391,-26.751582
11.185,2.0,1.0,1.0,34.8,34.9,34.9,2.4,1.5,2.5325,0.5127163576668794,-0.04462569711952197,0.8405723881530852,0.014157738641435554,-0.134791,-26.591804
11.185,2.0,1.0,1.0,34.8,34.9,34.9,2.4,1.5,2.535,0.5038938880919084,-0.04561290625278787,0.8455639611770529,0.013934623184743552,-0.137267,-26.430738
11.185,2.0,1.0,1.0,34.8,34.9,34.9,2.4,1.5,2.5375,0.4949496124675251,-0.04662436326046779,0.8504953330401237,0.013694571111684015,-0.139823,-26.268355
11.185,2.0,1.0,1.0,34.8,34.9,34.9,2.4,1.5,2.54,0.48588197925355314,-0.0476607951261573,0.855364168727831,0.013436700835641682,-0.142462,-26.104625
11.185,2.0,1.0,1.0,34.8,34.9,34.9,2.4,1.5,2.5425,0.4766894104986784,-0.04872295585880334,0.8601680445480682,0.013160080441607491,-0.145188,-25.939516
11.185,2.0,1.0,1.0,34.8,34.9,34.9,2.4,1.5,2.545,0.46737030122806644,-0.049811627671993715,0.8649044437723682,0.012863724292269384,-0.148005,-25.772996
11.185,2.0,1.0,1.0,34.8,34.9,34.9,2.4,1.5,2.5475,0.4579230188111802,-0.050927622215590336,0.8695707519858126,0.012546589363619944,-0.150918,-25.605032
11.185,2.0,1.0,1.0,34.8,34.9,34.9,2.4,1.5,2.55,0.44834590230998705,-0.052071781860996896,0.8741642521202707,0.012207571285062708,-0.15393,-25.435588
11.185,2.0,1.0,1.0,34.8,34.9,34.9,2.4,1.5,2.5525,0.4386372618081171,-0.05324498104111517,0.8786821191430323,0.011845500056395323,-0.157046,-25.264628
11.185,2.0,1.0,1.0,34.8,34.9,34.9,2.4,1.5,2.555,0.4287953777218278,-0.0544481276457419,0.8831214143699742,0.011459135411089363,-0.160271,-25.092116
11.185,2.0,1.0,1.0,34.8,34.9,34.9,2.4,1.5,2.5575,0.41881850009418675,-0.055682164472760545,0.8874790793691121,0.011047161792019882,-0.163611,-24.918012
11.185,2.0,1.0,1.0,34.8,34.9,34.9,2.4,1.5,2.56,0.4087048478744161,-0.056948070734978734,0.8917519294166825,0.010608182902108082,-0.16707,-24.742277
11.185,2.0,1.0,1.0,34.8,34.9,34.9,2.4,1.5,2.5625,0.3984526081851052,-0.05824686362183429,0.8959366464638064,0.010140715788223396,-0.170656,-24.564868
11.185,2.0,1.0,1.0,34.8,34.9,34.9,2.4,1.5,2.565,0.38805993558083435,-0.05957959991440152,0.9000297715671312,0.009643184412057566,-0.174375,-24.385742
11.185,2.0,1.0,1.0,34.8,34.9,34.9,2.4,1.5,2.5675,0.3775249513029097,-0.06094737765114471,0.9040276967316273,0.009113912656494545,-0.178233,-24.204855
11.185,2.0,1.0,1.0,34.8,34.9,34.9,2.4,1.5,2.57,0.36684574253616864,-0.062351337840664794,0.9079266561078756,0.008551116710127118,-0.182237,-24.022159
11.185,2.0,1.0,1.0,34.8,34.9,34.9,2.4,1.5,2.5725,0.3560203616754644,-0.06379266621618218,0.9117227164795602,0.007952896766002568,-0.186396,-23.837606
11.185,2.0,1.0,1.0,34.8,34.9,34.9,2.4,1.5,2.575,0.34504682561140804,-0.06527259502468405,0.9154117669694268,0.007317227963238538,-0.190717,-23.651145
11.185,2.0,1.0,1.0,34.8,34.9,34.9,2.4,1.5,2.5775,0.3339231150473125,-0.06679240484141402,0.9189895078835686,0.006641950491749467,-0.19521,-23.462723
11.185,2.0,1.0,1.0,34.8,34.9,34.9,2.4,1.5,2.58,0.3226471738622128,-0.0683534263976607,0.9224514386043621,0.005924758770859776,-0.199885,-23.272287
11.185,2.0,1.0,1.0,34.8,34.9,34.9,2.4,1.5,2.5825,0.3112169085383045,-0.069957042406467,0.9257928444316414,0.0051631896018240735,-0.204751,-23.079779
11.185,2.0,1.0,1.0,34.8,34.9,34.9,2.4,1.5,2.585,0.2996301876754728,-0.0716046893668197,0.929008782259459,0.004354609182123362,-0.20982,-22.885138
11.185,2.0,1.0,1.0,34.8,34.9,34.9,2.4,1.5,2.5875,0.28788484162067524,-0.07329785932195228,0.9320940649619723,0.003496198855607561,-0.215104,-22.688305
11.185,2.0,1.0,1.0,34.8,34.9,34.9,2.4,1.5,2.59,0.27597866224629625,-0.07503810154137192,0.9350432443462314,0.0025849394568737204,-0.220615,-22.489213
11.185,2.0,1.0,1.0,34.8,34.9,34.9,2.4,1.5,2.5925,0.2639094029191005,-0.07682702408893008,0.9378505925118041,0.0016175940904653249,-0.226368,-22.287795
11.185,2.0,1.0,1.0,34.8,34.9,34.9,2.4,1.5,2.595,0.2516747787107188,-0.07866629523035754,0.9405100814367815,0.0005906891651819174,-0.232377,-22.083981
11.185,2.0,1.0,1.0,34.8,34.9,34.9,2.4,1.5,2.5975,0.239272466911717,-0.08055764462288424,0.9430153605865297,-0.0004995065193230093,-0.238659,-21.877698
11.185,2.0,1.0,1.0,34.8,34.9,34.9,2.4,1.5,2.6,0.22670010792494438,-0.08250286421640093,0.9453597323150935,-0.001657004862850082,-0.245232,-21.668868
11.185,2.0,1.0,1.0,34.8,34.9,34.9,2.4,1.5,2.6025,0.21395530663036727,-0.08450380877959875,0.9475361247989235,-0.0028861239911701113,-0.252113,-21.457411
11.185,2.0,1.0,1.0,34.8,34.9,34.9,2.4,1.5,2.605,0.2010356343336913,-0.08656239594500018,0.9495370622080762,-0.004191516512486426,-0.259325,-21.243244
11.185,2.0,1.0,1.0,34.8,34.9,34.9,2.4,1.5,2.6075,0.18793863143557732,-0.08868060564296858,0.95135463178054,-0.005578200836950837,-0.26689,-21.026277
11.185,2.0,1.0,1.0,34.8,34.9,34.9,2.4,1.5,2.61,0.174661810988159,-0.09086047876569826,0.9529804474200725,-0.007051595937443806,-0.274831,-20.80642
11.185,2.0,1.0,1.0,34.8,34.9,34.9,2.4,1.5,2.6125,0.16120266334199254,-0.09310411486662873,0.9544056093861967,-0.008617559981487884,-0.283177,-20.583575
11.185,2.0,1.0,1.0,34.8,34.9,34.9,2.4,1.5,2.615,0.14755866213123225,-0.09541366865718769,0.9556206595855824,-0.010282433323403981,-0.291956,-20.357641
11.185,2.0,1.0,1.0,34.8,34.9,34.9,2.4,1.5,2.6175,0.13372727189946196,-0.0977913450093925,0.9566155319060018,-0.012053086413729782,-0.301201,-20.128513
11.185,2.0,1.0,1.0,34.8,34.9,34.9,2.4,1.5,2.62,0.11970595773560652,-0.10023939210732051,0.9573794969560236,-0.013936973260839982,-0.310946,-19.896078
11.185,2.0,1.0,1.0,34.8,34.9,34.9,2.4,1.5,2.6225,0.10549219737175641,-0.10276009230985332,0.9579011004841689,-0.015942191169061905,-0.321231,-19.660221
11.185,2.0,1.0,1.0,34.8,34.9,34.9,2.4,1.5,2.625,0.0910834962961179,-0.10535575018782,0.958168094648768,-0.0180775475799951,-0.332098,-19.420818
11.185,2.0,1.0,1.0,34.8,34.9,34.9,2.4,1.5,2.6275,0.07647740655930835,-0.10802867707613573,0.9581673611924949,-0.020352634961083586,-0.343593,-19.17774
11.185,2.0,1.0,1.0,34.8,34.9,34.9,2.4,1.5,2.63,0.0616715501067777,-0.11078117132999528,0.9578848254414821,-0.022777914819691488,-0.355769,-18.930853
11.185,2.0,1.0,1.0,34.8,34.9,34.9,2.4,1.5,2.6325,0.04666364766138689,-0.11361549328647816,0.9573053598960466,-0.025364812074121744,-0.368683,-18.680013
11.185,2.0,1.0,1.0,34.8,34.9,34.9,2.4,1.5,2.635,0.03145155441751717,-0.11653383369985797,0.9564126760062215,-0.02812582118745432,-0.3824,-18.425071
11.185,2.0,1.0,1.0,34.8,34.9,34.9,2.4,1.5,2.6375,0.01603330410312172,-0.11953827412900533,0.9551892025284489,-0.031074625667789842,-0.396988,-18.165869
11.185,2.0,1.0,1.0,34.8,34.9,34.9,2.4,1.5,2.64,0.0004071633336409614,-0.12263073739387638,0.9536159486381409,-0.0342262327615682,-0.412529,-17.902241
11.185,2.0,1.0,1.0,34.8,34.9,34.9,2.4,1.5,2.6425,-0.01542830135933371,-0.12581292576656403,0.9516723497252195,-0.03759712541629111,-0.42911,-17.634014
11.185,2.0,1.0,1.0,34.8,34.9,34.9,2.4,1.5,2.645,-0.031474140867732876,-0.1290862439971983,0.9493360935259586,-0.04120543386575509,-0.446829,-17.361002
11.185,2.0,1.0,1.0,34.8,34.9,34.9,2.4,1.5,2.6475,-0.04773092153830184,-0.13245170356588315,0.946582923946363,-0.04507112949333944,-0.465798,-17.083013
11.185,2.0,1.0,1.0,34.8,34.9,34.9,2.4,1.5,2.65,-0.06419859931463452,-0.1359098036605146,0.9433864196144109,-0.049216243952809796,-0.486142,-16.799844
11.185,2.0,1.0,1.0,34.8,34.9,34.9,2.4,1.5,2.6525,-0.08087636427088508,-0.13946038325761026,0.9397177438703818,-0.053665116862747844,-0.508001,-16.511279
11.185,2.0,1.0,1.0,34.8,34.9,34.9,2.4,1.5,2.655,-0.09776244838314602,-0.1431024372666713,0.9355453625826107,-0.058444675724373764,-0.531536,-16.217095
11.185,2.0,1.0,1.0,34.8,34.9,34.9,2.4,1.5,2.6575,-0.11485388757193732,-0.1468338879081584,0.9308347258883024,-0.06358475201660972,-0.556927,-15.917056
11.185,2.0,1.0,1.0,34.8,34.9,34.9,2.4,1.5,2.66,-0.13214622675729243,-0.1506513002292386,0.9255479097496708,-0.06911843765407105,-0.584381,-15.610912
11.185,2.0,1.0,1.0,34.8,34.9,34.9,2.4,1.5,2.6625,-0.14963315376650624,-0.15454952779082476,0.919643213154312,-0.07508248608602157,-0.614134,-15.298405
11.185,2.0,1.0,1.0,34.8,34.9,34.9,2.4,1.5,2.665,-0.1673060442603731,-0.1585212709208691,0.913074706981735,-0.08151776216366875,-0.646456,-14.979262
11.185,2.0,1.0,1.0,34.8,34.9,34.9,2.4,1.5,2.6675,-0.185153395191189,-0.16255652531734158,0.9057917311674667,-0.0884697443517017,-0.681657,-14.653202
11.185,2.0,1.0,1.0,34.8,34.9,34.9,2.4,1.5,2.67,-0.20316011842132156,-0.1666418929454594,0.897738338065181,-0.09598908167003906,-0.720099,-14.319929
11.185,2.0,1.0,1.0,34.8,34.9,34.9,2.4,1.5,2.6725,-0.22130665870469957,-0.17075971979641275,0.8888526821993704,-0.10413220556750048,-0.762195,-13.97914
11.185,2.0,1.0,1.0,34.8,34.9,34.9,2.4,1.5,2.675,-0.23956789089761937,-0.17488701578824256,0.8790663604550706,-0.11296199322143656,-0.808432,-13.630522
11.185,2.0,1.0,1.0,34.8,34.9,34.9,2.4,1.5,2.6775,-0.2579117396002642,-0.17899410046818365,0.8683037129627829,-0.12254847274393883,-0.859374,-13.273756
11.185,2.0,1.0,1.0,34.8,34.9,34.9,2.4,1.5,2.68,-0.27629744999052397,-0.18304290376323396,0.856481104673806,-0.13296955130526486,-0.915685,-12.908521
11.185,2.0,1.0,1.0,34.8,34.9,34.9,2.4,1.5,2.6825,-0.29467342098662197,-0.1869848333931715,0.8435062225876265,-0.1443117325765774,-0.978147,-12.534498
11.185,2.0,1.0,1.0,34.8,34.9,34.9,2.4,1.5,2.685,-0.312974490817947,-0.19075809943029495,0.8292774462559129,-0.15667076770659263,-1.047686,-12.151376
11.185,2.0,1.0,1.0,34.8,34.9,34.9,2.4,1.5,2.6875,-0.33111854075701774,-0.1942843619764788,0.8136833830847872,-0.17015215077354892,-1.125402,-11.758861
11.185,2.0,1.0,1.0,34.8,34.9,34.9,2.4,1.5,2.69,-0.3490022561943357,-0.19746454097681934,0.7966027100920816,-0.18487132032336792,-1.212609,-11.35669
11.185,2.0,1.0,1.0,34.8,34.9,34.9,2.4,1.5,2.6925,-0.36649585810527735,-0.20017360036247628,0.777904537090509,-0.20095335630110428,-1.310884,-10.944647
11.185,2.0,1.0,1.0,34.8,34.9,34.9,2.4,1.5,2.695,-0.3834365979735085,-0.20225409753920348,0.7574496121128557,-0.21853185705540268,-1.422132,-10.522581
11.185,2.0,1.0,1.0,34.8,34.9,34.9,2.4,1.5,2.6975,-0.3996208064051718,-0.20350828444975275,0.7350928403045878,-0.23774653205643848,-1.548658,-10.090442
11.185,2.0,1.0,1.0,34.8,34.9,34.9,2.4,1.5,2.7,-0.4147943199328673,-0.20368857760102052,0.7106877967863806,-0.2587388380387587,-1.69327,-9.648312
11.185,2.0,1.0,1.0,34.8,34.9,34.9,2.4,1.5,2.7025,-0.42864121629819146,-0.20248631549410698,0.6840941966062241,-0.28164470459022245,-1.859402,-9.196461
11.185,2.0,1.0,1.0,34.8,34.9,34.9,2.4,1.5,2.705,-0.44077102261113,-0.19951894904478074,0.655189649742918,-0.30658303007296,-2.051269,-8.735408
11.185,2.0,1.0,1.0,34.8,34.9,34.9,2.4,1.5,2.7075,-0.45070501218025827,-0.1943162522891723,0.6238874665352917,-0.333638188379546,-2.274065,-8.266003
11.185,2.0,1.0,1.0,34.8,34.9,34.9,2.4,1.5,2.71,-0.45786300454150614,-0.18630692693178547,0.5901627347973631,-0.36283432305217633,-2.534198,-7.789537
11.185,2.0,1.0,1.0,34.8,34.9,34.9,2.4,1.5,2.7125,-0.461553399830429,-0.17480827688277004,0.5540892189152149,-0.39409885934041977,-2.839579,-7.307864
11.185,2.0,1.0,1.0,34.8,34.9,34.9,2.4,1.5,2.715,-0.46097119362535627,-0.1590236323547815,0.5158895220042005,-0.4272127433977612,-3.199942,-6.82356
11.185,2.0,1.0,1.0,34.8,34.9,34.9,2.4,1.5,2.7175,-0.45521152120084535,-0.13805500594194334,0.47599982853220857,-0.46174599257898696,-3.627171,-6.340096
11.185,2.0,1.0,1.0,34.8,34.9,34.9,2.4,1.5,2.72,-0.4433096336445378,-0.11094184499382778,0.43514748566860345,-0.49698013230058685,-4.135514,-5.862019
11.185,2.0,1.0,1.0,34.8,34.9,34.9,2.4,1.5,2.7225,-0.4243211133043774,-0.07673973087920902,0.39443349190864524,-0.5318252105022148,-4.741442,-5.395125
11.185,2.0,1.0,1.0,34.8,34.9,34.9,2.4,1.5,2.725,-0.39745622857923163,-0.034653126860267155,0.3554016747562967,-0.5647493245846277,-5.462509,-4.946565
11.185,2.0,1.0,1.0,34.8,34.9,34.9,2.4,1.5,2.7275,-0.36227547807289906,0.015770338376243438,0.32006255293825064,-0.5937524433517659,-6.313718,-4.524829
11.185,2.0,1.0,1.0,34.8,34.9,34.9,2.4,1.5,2.73,-0.3189345177260352,0.07439517929036579,0.2908270706366242,-0.6164293740524259,-7.297881,-4.139533
11.185,2.0,1.0,1.0,34.8,34.9,34.9,2.4,1.5,2.7325,-0.2684334977385409,0.14024718086006152,0.2703040976457684,-0.6301685194132489,-8.382702,-3.800914
11.185,2.0,1.0,1.0,34.8,34.9,34.9,2.4,1.5,2.735,-0.21278595702267702,0.21134080407949601,0.26094081801410995,-0.6325084448420452,-9.455096,-3.519017
11.185,2.0,1.0,1.0,34.8,34.9,34.9,2.4,1.5,2.7375,-0.15499958460829918,0.2846930482615475,0.2645459761284893,-0.6216137301474328,-10.268285,-3.302613
11.185,2.0,1.0,1.0,34.8,34.9,34.9,2.4,1.5,2.74,-0.09878907873074573,0.35660510000418083,0.281817294624272,-0.5967497443691965,-10.497312,-3.158035
11.185,2.0,1.0,1.0,34.8,34.9,34.9,2.4,1.5,2.7425,-0.04803585830623377,0.42319905056812357,0.3120476116238705,-0.5585814223717267,-10.013869,-3.088207
11.185,2.0,1.0,1.0,34.8,34.9,34.9,2.4,1.5,2.745,-0.0061349960889845205,0.48107061251465844,0.35315282363419376,-0.509151189439243,-9.039436,-3.092159
11.185,2.0,1.0,1.0,34.8,34.9,34.9,2.4,1.5,2.7475,0.024554956289359612,0.5278418723346351,0.4020403065273482,-0.4515152199428707,-7.898438,-3.16518
11.185,2.0,1.0,1.0,34.8,34.9,34.9,2.4,1.5,2.75,0.0429814536089448,0.56243472663124,0.455188206613483,-0.389166429086371,-6.797629,-3.299553
11.185,2.0,1.0,1.0,34.8,34.9,34.9,2.4,1.5,2.7525,0.04933941732480153,0.5850160210487751,0.5092306722903334,-0.32544929824045044,-5.821129,-3.485659
11.185,2.0,1.0,1.0,34.8,34.9,34.9,2.4,1.5,2.755,0.044771243471188896,0.5967001154348297,0.5613805482897128,-0.2631359684472097,-4.987317,-3.713132
11.185,2.0,1.0,1.0,34.8,34.9,34.9,2.4,1.5,2.7575,0.030972959474785216,0.5991564553424684,0.609624375990569,-0.20422966853749805,-4.287557,-3.971826
11.185,2.0,1.0,1.0,34.8,34.9,34.9,2.4,1.5,2.76,0.009833626970384165,0.5942495948372006,0.6527202395042048,-0.14996542250379943,-3.704473,-4.252487
11.185,2.0,1.0,1.0,34.8,34.9,34.9,2.4,1.5,2.7625,-0.01682526592225688,0.5837787484909974,0.690074827940031,-0.10093180055608504,-3.219495,-4.547116
11.185,2.0,1.0,1.0,34.8,34.9,34.9,2.4,1.5,2.765,-0.04739980917017578,0.5693276893012179,0.7215749129289994,-0.057238502515651886,-2.815672,-4.849077
11.185,2.0,1.0,1.0,34.8,34.9,34.9,2.4,1.5,2.7675,-0.08056445119287702,0.5522037202778732,0.74742423525939,-0.01867874389887734,-2.478489,-5.153047
11.185,2.0,1.0,1.0,34.8,34.9,34.9,2.4,1.5,2.77,-0.11527426763731087,0.5334350719139883,0.768010528095706,0.015138309909749108,-2.195903,-5.454872
11.185,2.0,1.0,1.0,34.8,34.9,34.9,2.4,1.5,2.7725,-0.15073575353567994,0.5137997397861184,0.7838087868480408,0.044691195177265414,-1.958077,-5.751388
11.185,2.0,1.0,1.0,34.8,34.9,34.9,2.4,1.5,2.775,-0.18636508631364462,0.49386685309891204,0.7953170476433351,0.07048217608283583,-1.757042,-6.040236
11.185,2.0,1.0,1.0,34.8,34.9,34.9,2.4,1.5,2.7775,-0.22174509945106002,0.4740393602873306,0.8030173784424208,0.09299838021166693,-1.586356,-6.319698
11.185,2.0,1.0,1.0,34.8,34.9,34.9,2.4,1.5,2.78,-0.25658657109953337,0.45459244096251133,0.8073546705041114,0.11269066115896471,-1.440823,-6.588555
11.185,2.0,1.0,1.0,34.8,34.9,34.9,2.4,1.5,2.7825,-0.29069592146365886,0.43570555403822686,0.8087271204092213,0.12996410494218075,-1.316238,-6.845965
11.185,2.0,1.0,1.0,34.8,34.9,34.9,2.4,1.5,2.785,-0.3239495015924092,0.41748793641118065,0.807483897626615,0.14517569628245502,-1.209193,-7.091373
11.185,2.0,1.0,1.0,34.8,34.9,34.9,2.4,1.5,2.7875,-0.3562737695828843,0.3999982496102753,0.8039269105799347,0.158636073243177,-1.116916,-7.324434
11.185,2.0,1.0,1.0,34.8,34.9,34.9,2.4,1.5,2.79,-0.38763034694153364,0.38325937366928176,0.7983146712465153,0.17061338101506582,-1.037144,-7.544955
11.185,2.0,1.0,1.0,34.8,34.9,34.9,2.4,1.5,2.7925,-0.41800494066107097,0.36726935456676085,0.7908670260617899,0.1813379997192257,-0.968021,-7.752851
11.185,2.0,1.0,1.0,34.8,34.9,34.9,2.4,1.5,2.795,-0.4473992375755493,0.35200939112548946,0.7817700337244495,0.19100743135035933,-0.908022,-7.948107
11.185,2.0,1.0,1.0,34.8,34.9,34.9,2.4,1.5,2.7975,-0.4758250373999436,0.33744958818006426,0.7711805985417253,0.1997909573611216,-0.855886,-8.130757
11.185,2.0,1.0,1.0,34.8,34.9,34.9,2.4,1.5,2.8,-0.5033000467911184,0.3235530476013109,0.759230669825498,0.20783387928268068,-0.810568,-8.300862
11.185,2.0,1.0,1.0,34.8,34.9,34.9,2.4,1.5,2.8025,-0.5298448915365015,0.3102787345236124,0.746030937106411,0.21526127354779903,-0.771201,-8.458491
11.185,2.0,1.0,1.0,34.8,34.9,34.9,2.4,1.5,2.805,-0.5554810132146142,0.29758344716615603,0.7316740178591117,0.2221812584625985,-0.737059,-8.603714
11.185,2.0,1.0,1.0,34.8,34.9,34.9,2.4,1.5,2.8075,-0.5802292018451873,0.28542313347954096,0.7162371691841294,0.22868780610870415,-0.70754,-8.736592
11.185,2.0,1.0,1.0,34.8,34.9,34.9,2.4,1.5,2.81,-0.6041085807907737,0.2737537328383376,0.6997845704685001,0.2348631477721841,-0.682139,-8.857167
11.185,2.0,1.0,1.0,34.8,34.9,34.9,2.4,1.5,2.8125,-0.6271359085153232,0.2625316720957297,0.6823692286175044,0.24077982641173698,-0.660436,-8.965459
11.185,2.0,1.0,1.0,34.8,34.9,34.9,2.4,1.5,2.815,-0.6493250974072877,0.25171410883492423,0.6640345560294,0.24650244868303492,-0.642082,-9.061462
11.185,2.0,1.0,1.0,34.8,34.9,34.9,2.4,1.5,2.8175,-0.6706868757678862,0.24125898751970068,0.6448156670792604,0.25208918511749795,-0.626787,-9.145137
11.185,2.0,1.0,1.0,34.8,34.9,34.9,2.4,1.5,2.82,-0.6912285376338967,0.23112495401491512,0.6247404332358999,0.2575930619509358,-0.614315,-9.216413
11.185,2.0,1.0,1.0,34.8,34.9,34.9,2.4,1.5,2.8225,-0.710953738157474,0.221271158715523,0.6038303310366964,0.26306308278117985,-0.604477,-9.275181
11.185,2.0,1.0,1.0,34.8,34.9,34.9,2.4,1.5,2.825,-0.729862301135001,0.21165696682822904,0.5821011115066205,0.26854521321055214,-0.597123,-9.32129
11.185,2.0,1.0,1.0,34.8,34.9,34.9,2.4,1.5,2.8275,-0.747950010912285,0.20224158506614545,0.5595633144797558,0.2740832571288511,-0.592145,-9.354548
11.185,2.0,1.0,1.0,34.8,34.9,34.9,2.4,1.5,2.83,-0.7652083639388821,0.19298360625805608,0.536222646766476,0.27971964938235483,-0.589467,-9.374716
11.185,2.0,1.0,1.0,34.8,34.9,34.9,2.4,1.5,2.8325,-0.7816242560974366,0.18384046641566001,0.5120802392385436,0.2854961862231241,-0.589049,-9.381504
