1,w,sub_t,h,l1,l2,l3,g1,g2,Freq,S11_re,S21_re,S11_img,S21_img,S11_dB,S21_dB
11.185,2.0,1.0,1.0,34.9,33.5,33.5,2.9,3.6,2.5,0.632739947023878,-0.0138772196794063,0.762561122948829,0.00408556610001654,-0.079507,-36.792949
11.185,2.0,1.0,1.0,34.9,33.5,33.5,2.9,3.6,2.5025,0.6258951473387774,-0.01409937331055458,0.7680605973345611,0.004003797502386879,-0.080381,-36.679198
11.185,2.0,1.0,1.0,34.9,33.5,33.5,2.9,3.6,2.505,0.6189620152391822,-0.014324300250245033,0.7735290163911406,0.0039182695902165955,-0.081269,-36.565158
11.185,2.0,1.0,1.0,34.9,33.5,33.5,2.9,3.6,2.5075,0.6119397714527658,-0.01455201669429607,0.7789652433320907,0.0038288716248667813,-0.082172,-36.450824
11.185,2.0,1.0,1.0,34.9,33.5,33.5,2.9,3.6,2.51,0.6048276349248255,-0.014782537908787037,0.7843681113113241,0.003735489775610503,-0.083089,-36.336194
11.185,2.0,1.0,1.0,34.9,33.5,33.5,2.9,3.6,2.5125,0.597624823212659,-0.015015878159962758,0.7897364226852075,0.003638007037274734,-0.084023,-36.221263
11.185,2.0,1.0,1.0,34.9,33.5,33.5,2.9,3.6,2.515,0.5903305529036224,-0.015252050640508176,0.7950689482605122,0.003536303146056103,-0.084971,-36.106027
11.185,2.0,1.0,1.0,34.9,33.5,33.5,2.9,3.6,2.5175,0.5829440400579311,-0.01549106739202705,0.8003644265282333,0.0034302544934982533,-0.085936,-35.990481
11.185,2.0,1.0,1.0,34.9,33.5,33.5,2.9,3.6,2.52,0.5754645006772682,-0.015732939223552497,0.8056215628833182,0.0033197340386203343,-0.086917,-35.874622
11.185,2.0,1.0,1.0,34.9,33.5,33.5,2.9,3.6,2.5225,0.5678911512003516,-0.01597767562590827,0.810839028830334,0.0032046112181897124,-0.087915,-35.758445
11.185,2.0,1.0,1.0,34.9,33.5,33.5,2.9,3.6,2.525,0.5602232090266006,-0.01622528468173505,0.8160154611751593,0.003084751855132459,-0.08893,-35.641945
11.185,2.0,1.0,1.0,34.9,33.5,33.5,2.9,3.6,2.5275,0.5524598930691125,-0.016475772970986177,0.8211494612028026,0.0029600180650807047,-0.089963,-35.52512
11.185,2.0,1.0,1.0,34.9,33.5,33.5,2.9,3.6,2.53,0.5446004243382077,-0.016729145471689844,0.8262395938414766,0.0028302681610569693,-0.091013,-35.407965
11.185,2.0,1.0,1.0,34.9,33.5,33.5,2.9,3.6,2.5325,0.5366440265568219,-0.016985405455768005,0.8312843868130957,0.0026953565563000575,-0.092082,-35.290474
11.185,2.0,1.0,1.0,34.9,33.5,33.5,2.9,3.6,2.535,0.5285899268090792,-0.017244554379692047,0.8362823297704123,0.0025551336652402173,-0.093169,-35.172645
11.185,2.0,1.0,1.0,34.9,33.5,33.5,2.9,3.6,2.5375,0.5204373562234349,-0.017506591769747733,0.8412318734210106,0.0024094458026358663,-0.094276,-35.054472
11.185,2.0,1.0,1.0,34.9,33.5,33.5,2.9,3.6,2.54,0.5121855506918038,-0.017771515101672714,0.8461314286384655,0.002258135080887392,-0.095402,-34.935952
11.185,2.0,1.0,1.0,34.9,33.5,33.5,2.9,3.6,2.5425,0.5038337516261423,-0.01803931967442094,0.8509793655609763,0.002101039305549069,-0.096548,-34.81708
11.185,2.0,1.0,1.0,34.9,33.5,33.5,2.9,3.6,2.545,0.4953812067540041,-0.01830999847779817,0.8557740126778611,0.0019379918690643626,-0.097714,-34.697851
11.185,2.0,1.0,1.0,34.9,33.5,33.5,2.9,3.6,2.5475,0.48682717095464256,-0.018583542053703515,0.8605136559043226,0.0017688216427553193,-0.098901,-34.578262
11.185,2.0,1.0,1.0,34.9,33.5,33.5,2.9,3.6,2.55,0.4781709071372458,-0.01885993835070232,0.8651965376449808,0.0015933528671023788,-0.10011,-34.458307
11.185,2.0,1.0,1.0,34.9,33.5,33.5,2.9,3.6,2.5525,0.4694116871630034,-0.01913917257164368,0.8698208558466873,0.001411405040356453,-0.10134,-34.337983
11.185,2.0,1.0,1.0,34.9,33.5,33.5,2.9,3.6,2.555,0.4605487928126784,-0.019421227014027258,0.8743847630412322,0.0012227928055322972,-0.102593,-34.217285
11.185,2.0,1.0,1.0,34.9,33.5,33.5,2.9,3.6,2.5575,0.4515815168014572,-0.019706080902811784,0.878886365378598,0.0010273258358373166,-0.103869,-34.096208
11.185,2.0,1.0,1.0,34.9,33.5,33.5,2.9,3.6,2.56,0.44250916384288824,-0.019993710215346364,0.8833237216514871,0.0008248087185991174,-0.105167,-33.974747
11.185,2.0,1.0,1.0,34.9,33.5,33.5,2.9,3.6,2.5625,0.4333310517637641,-0.020284087498094582,0.8876948423119182,0.0006150408377608669,-0.10649,-33.852899
11.185,2.0,1.0,1.0,34.9,33.5,33.5,2.9,3.6,2.565,0.42404651267183713,-0.020577181674809552,0.8919976884807853,0.00039781625502223727,-0.107837,-33.730659
11.185,2.0,1.0,1.0,34.9,33.5,33.5,2.9,3.6,2.5675,0.41465489417834994,-0.02087295784580478,0.8962301709513172,0.0001729235897123691,-0.109209,-33.608022
11.185,2.0,1.0,1.0,34.9,33.5,33.5,2.9,3.6,2.57,0.40515556067736064,-0.02117137707795418,0.9003901491874942,-5.985410251053086e-05,-0.110607,-33.484983
11.185,2.0,1.0,1.0,34.9,33.5,33.5,2.9,3.6,2.5725,0.3955478946839199,-0.02147239618504171,0.9044754303185528,-0.0003007394520285635,-0.11203,-33.361538
11.185,2.0,1.0,1.0,34.9,33.5,33.5,2.9,3.6,2.575,0.38583129823319356,-0.02177596749806626,0.9084837681308179,-0.0005499608985884098,-0.113481,-33.237682
11.185,2.0,1.0,1.0,34.9,33.5,33.5,2.9,3.6,2.5775,0.37600519434268403,-0.02208203862509634,0.9124128620581686,-0.0008077528154561309,-0.114958,-33.113409
11.185,2.0,1.0,1.0,34.9,33.5,33.5,2.9,3.6,2.58,0.3660690285397238,-0.022390552200252104,0.9162603561726116,-0.0010743556342673508,-0.116464,-32.988717
11.185,2.0,1.0,1.0,34.9,33.5,33.5,2.9,3.6,2.5825,0.35602227045647755,-0.022701445621380968,0.9200238381764773,-0.001350015970426678,-0.117998,-32.863598
11.185,2.0,1.0,1.0,34.9,33.5,33.5,2.9,3.6,2.585,0.3458644154947283,-0.023014650775975917,0.9237008383979267,-0.0016349867488980152,-0.119562,-32.738049
11.185,2.0,1.0,1.0,34.9,33.5,33.5,2.9,3.6,2.5875,0.33559498656274184,-0.023330093754871852,0.9272888287915562,-0.0019295273302158465,-0.121155,-32.612065
11.185,2.0,1.0,1.0,34.9,33.5,33.5,2.9,3.6,2.59,0.32521353588658003,-0.023647694553239125,0.9307852219460064,-0.002233903636534127,-0.122779,-32.48564
11.185,2.0,1.0,1.0,34.9,33.5,33.5,2.9,3.6,2.5925,0.31471964689821924,-0.02396736675837796,0.9341873701006521,-0.0025483882775171186,-0.124434,-32.35877
11.185,2.0,1.0,1.0,34.9,33.5,33.5,2.9,3.6,2.595,0.3041129362029125,-0.024289017223800655,0.9374925641735434,-0.002873260675862004,-0.126122,-32.231449
11.185,2.0,1.0,1.0,34.9,33.5,33.5,2.9,3.6,2.5975,0.29339305562821116,-0.024612545729071466,0.9406980328029644,-0.0032088071922299205,-0.127842,-32.103672
11.185,2.0,1.0,1.0,34.9,33.5,33.5,2.9,3.6,2.6,0.28255969435711664,-0.02493784462485804,0.943800941405101,-0.0035553212493474574,-0.129596,-31.975435
11.185,2.0,1.0,1.0,34.9,33.5,33.5,2.9,3.6,2.6025,0.2716125811478588,-0.025264798462627688,0.9467983912504706,-0.0039131034550248306,-0.131385,-31.846731
11.185,2.0,1.0,1.0,34.9,33.5,33.5,2.9,3.6,2.605,0.26055148664277955,-0.02559328360840658,0.949687418561949,-0.004282461723823758,-0.133208,-31.717555
11.185,2.0,1.0,1.0,34.9,33.5,33.5,2.9,3.6,2.6075,0.24937622576883423,-0.02592316783999787,0.952464993637403,-0.004663711397090732,-0.135068,-31.587902
11.185,2.0,1.0,1.0,34.9,33.5,33.5,2.9,3.6,2.61,0.23808666023223793,-0.02625430992703706,0.9551280200000897,-0.005057175361056605,-0.136965,-31.457767
11.185,2.0,1.0,1.0,34.9,33.5,33.5,2.9,3.6,2.6125,0.22668270110974215,-0.026586559193241155,0.9576733335802171,-0.005463184162687821,-0.138899,-31.327143
11.185,2.0,1.0,1.0,34.9,33.5,33.5,2.9,3.6,2.615,0.21516431153905213,-0.026919755060187536,0.9600977019312206,-0.005882076122957997,-0.140873,-31.196026
11.185,2.0,1.0,1.0,34.9,33.5,33.5,2.9,3.6,2.6175,0.20353150951087748,-0.027253726571935345,0.9623978234845204,-0.006314197447192718,-0.142886,-31.064409
11.185,2.0,1.0,1.0,34.9,33.5,33.5,2.9,3.6,2.62,0.1917843707650715,-0.027588291899779235,0.9645703268467258,-0.006759902332124743,-0.14494,-30.932287
11.185,2.0,1.0,1.0,34.9,33.5,33.5,2.9,3.6,2.6225,0.17992303179327057,-0.02792325782640147,0.9666117701434949,-0.007219553069280984,-0.147035,-30.799653
11.185,2.0,1.0,1.0,34.9,33.5,33.5,2.9,3.6,2.625,0.167947692950459,-0.0282584192086603,0.968518640414431,-0.00769352014430632,-0.149173,-30.666502
11.185,2.0,1.0,1.0,34.9,33.5,33.5,2.9,3.6,2.6275,0.15585862167775968,-0.028593558418228072,0.970287353063653,-0.008182182331815866,-0.151355,-30.532827
11.185,2.0,1.0,1.0,34.9,33.5,33.5,2.9,3.6,2.63,0.1436561558387439,-0.028928444759260877,0.9719142513709124,-0.008685926785350222,-0.153582,-30.398622
11.185,2.0,1.0,1.0,34.9,33.5,33.5,2.9,3.6,2.6325,0.13134070717146318,-0.029262833862252178,0.9733956060683319,-0.009205149121997621,-0.155855,-30.263881
11.185,2.0,1.0,1.0,34.9,33.5,33.5,2.9,3.6,2.635,0.11891276485832246,-0.02959646705318822,0.9747276149881142,-0.009740253501230211,-0.158175,-30.128598
11.185,2.0,1.0,1.0,34.9,33.5,33.5,2.9,3.6,2.6375,0.10637289921583494,-0.02992907069708807,0.9759064027867929,-0.010291652697492246,-0.160543,-29.992765
11.185,2.0,1.0,1.0,34.9,33.5,33.5,2.9,3.6,2.64,0.09372176550614518,-0.030260355514973226,0.9769280207518527,-0.010859768166067105,-0.162961,-29.856375
11.185,2.0,1.0,1.0,34.9,33.5,33.5,2.9,3.6,2.6425,0.08096010787216268,-0.030590015873266794,0.9777884466967827,-0.011445030101739116,-0.16543,-29.719423
11.185,2.0,1.0,1.0,34.9,33.5,33.5,2.9,3.6,2.645,0.06808876339793361,-0.030917729044580518,0.9784835849508986,-0.012047877489760522,-0.16795,-29.581901
11.185,2.0,1.0,1.0,34.9,33.5,33.5,2.9,3.6,2.6475,0.05510866629580009,-0.031243154438793958,0.9790092664504896,-0.012668758148626866,-0.170525,-29.443801
11.185,2.0,1.0,1.0,34.9,33.5,33.5,2.9,3.6,2.65,0.04202085222165575,-0.031565932803278664,0.9793612489381315,-0.013308128764163036,-0.173154,-29.305116
11.185,2.0,1.0,1.0,34.9,33.5,33.5,2.9,3.6,2.6525,0.028826462719543793,-0.03188568539105583,0.9795352172772116,-0.013966454914417505,-0.175839,-29.165838
11.185,2.0,1.0,1.0,34.9,33.5,33.5,2.9,3.6,2.655,0.015526749796505309,-0.03220201309561286,0.9795267838890069,-0.01464421108486932,-0.178583,-29.02596
11.185,2.0,1.0,1.0,34.9,33.5,33.5,2.9,3.6,2.6575,0.0021230806285128926,-0.032514495551026146,0.9793314893198553,-0.015341880673454268,-0.181385,-28.885474
11.185,2.0,1.0,1.0,34.9,33.5,33.5,2.9,3.6,2.66,-0.011383057602000929,-0.032822690195958196,0.9789448029462107,-0.016059955984927203,-0.184249,-28.74437
11.185,2.0,1.0,1.0,34.9,33.5,33.5,2.9,3.6,2.6625,-0.024990052736655978,-0.03312613130000112,0.9783621238256021,-0.01679893821408907,-0.187175,-28.602642
11.185,2.0,1.0,1.0,34.9,33.5,33.5,2.9,3.6,2.665,-0.03869616253967414,-0.03342432895073964,0.9775787817017259,-0.017559337417426834,-0.190165,-28.460279
11.185,2.0,1.0,1.0,34.9,33.5,33.5,2.9,3.6,2.6675,-0.05249950946461755,-0.033716767999787775,0.9765900381721125,-0.01834167247273368,-0.193222,-28.317273
11.185,2.0,1.0,1.0,34.9,33.5,33.5,2.9,3.6,2.67,-0.06639807528982732,-0.03400290696592571,0.9753910880269795,-0.019146471026305234,-0.196346,-28.173614
11.185,2.0,1.0,1.0,34.9,33.5,33.5,2.9,3.6,2.6725,-0.08038969562335371,-0.034282176893318715,0.9739770607680963,-0.019974269427341193,-0.19954,-28.029293
11.185,2.0,1.0,1.0,34.9,33.5,33.5,2.9,3.6,2.675,-0.09447205427842181,-0.034553980162633446,0.9723430223165851,-0.020825612649217867,-0.202805,-27.8843
11.185,2.0,1.0,1.0,34.9,33.5,33.5,2.9,3.6,2.6775,-0.10864267752086879,-0.03481768925268734,0.9704839769187729,-0.02170105419734365,-0.206145,-27.738624
11.185,2.0,1.0,1.0,34.9,33.5,33.5,2.9,3.6,2.68,-0.12289892819023969,-0.03507264545005509,0.9683948692592635,-0.02260115600336125,-0.20956,-27.592255
11.185,2.0,1.0,1.0,34.9,33.5,33.5,2.9,3.6,2.6825,-0.1372379996966014,-0.03531815750382599,0.9660705867905274,-0.023526488305516798,-0.213053,-27.445181
11.185,2.0,1.0,1.0,34.9,33.5,33.5,2.9,3.6,2.685,-0.151656909895439,-0.0355535002224402,0.9635059622883148,-0.02447762951508494,-0.216626,-27.297392
11.185,2.0,1.0,1.0,34.9,33.5,33.5,2.9,3.6,2.6875,-0.16615249484333183,-0.03577791300923594,0.9606957766422506,-0.025455166068810174,-0.220282,-27.148874
11.185,2.0,1.0,1.0,34.9,33.5,33.5,2.9,3.6,2.69,-0.1807214024373939,-0.03599059833300235,0.9576347618908991,-0.02645969226740557,-0.224023,-26.999617
11.185,2.0,1.0,1.0,34.9,33.5,33.5,2.9,3.6,2.6925,-0.19536008594185855,-0.03619072012945678,0.9543176045105802,-0.0274918101002423,-0.227852,-26.849605
11.185,2.0,1.0,1.0,34.9,33.5,33.5,2.9,3.6,2.695,-0.21006479740532769,-0.036377402129133256,0.9507389489670661,-0.028552129056454163,-0.231771,-26.698827
11.185,2.0,1.0,1.0,34.9,33.5,33.5,2.9,3.6,2.6975,-0.22483158097263212,-0.03654972610669107,0.9468934015391375,-0.029641265922792683,-0.235783,-26.547268
11.185,2.0,1.0,1.0,34.9,33.5,33.5,2.9,3.6,2.7,-0.23965626609534327,-0.036706730046101727,0.9427755344227892,-0.030759844568672593,-0.239891,-26.394914
11.185,2.0,1.0,1.0,34.9,33.5,33.5,2.9,3.6,2.7025,-0.2545344606452713,-0.03684740621556251,0.9383798901245982,-0.03190849571897099,-0.244098,-26.241749
11.185,2.0,1.0,1.0,34.9,33.5,33.5,2.9,3.6,2.705,-0.2694615439353205,-0.036970699145284634,0.933700986152423,-0.03308785671526225,-0.248408,-26.087757
11.185,2.0,1.0,1.0,34.9,33.5,33.5,2.9,3.6,2.7075,-0.2844326596522401,-0.03707550350052398,0.928733320011259,-0.03429857126630152,-0.252823,-25.932921
11.185,2.0,1.0,1.0,34.9,33.5,33.5,2.9,3.6,2.71,-0.2994427087057086,-0.03716066184133425,0.9234713745115862,-0.03554128918869678,-0.257346,-25.777224
11.185,2.0,1.0,1.0,34.9,33.5,33.5,2.9,3.6,2.7125,-0.3144863419981577,-0.03722496225952394,0.9179096233970473,-0.03681666613884222,-0.261982,-25.620649
11.185,2.0,1.0,1.0,34.9,33.5,33.5,2.9,3.6,2.715,-0.3295579531194762,-0.037267135882170586,0.9120425372976888,-0.03812536333731037,-0.266735,-25.463174
11.185,2.0,1.0,1.0,34.9,33.5,33.5,2.9,3.6,2.7175,-0.3446516709704199,-0.03728585422977367,0.9058645900143569,-0.03946804728702457,-0.271608,-25.304782
11.185,2.0,1.0,1.0,34.9,33.5,33.5,2.9,3.6,2.72,-0.3597613523179824,-0.03727972641568989,0.8993702651390988,-0.04084538948664057,-0.276605,-25.145449
11.185,2.0,1.0,1.0,34.9,33.5,33.5,2.9,3.6,2.7225,-0.3748805742854027,-0.03724729617187552,0.8925540630155919,-0.042258066140665594,-0.281732,-24.985155
11.185,2.0,1.0,1.0,34.9,33.5,33.5,2.9,3.6,2.725,-0.39000262677843794,-0.03718703868412989,0.8854105080428101,-0.043706757867906,-0.286992,-24.823876
11.185,2.0,1.0,1.0,34.9,33.5,33.5,2.9,3.6,2.7275,-0.405120504848523,-0.03709735721797157,0.8779341563241233,-0.04519214940988582,-0.29239,-24.661588
11.185,2.0,1.0,1.0,34.9,33.5,33.5,2.9,3.6,2.73,-0.42022690099189874,-0.03697657951394755,0.8701196036630932,-0.04671492934086466,-0.297932,-24.498265
11.185,2.0,1.0,1.0,34.9,33.5,33.5,2.9,3.6,2.7325,-0.43531419738210764,-0.03682295392854683,0.8619614939061122,-0.04827578978103862,-0.303623,-24.333879
11.185,2.0,1.0,1.0,34.9,33.5,33.5,2.9,3.6,2.735,-0.4503744580310581,-0.03663464529391978,0.8534545276309994,-0.04987542611437463,-0.309469,-24.168403
11.185,2.0,1.0,1.0,34.9,33.5,33.5,2.9,3.6,2.7375,-0.46539942087136477,-0.036409730466250366,0.8445934711794854,-0.0515145367123242,-0.315475,-24.001807
11.185,2.0,1.0,1.0,34.9,33.5,33.5,2.9,3.6,2.74,-0.48038048974956077,-0.03614619352884023,0.8353731660304069,-0.05319382266433656,-0.321649,-23.834058
11.185,2.0,1.0,1.0,34.9,33.5,33.5,2.9,3.6,2.7425,-0.4953087263162152,-0.03584192061167983,0.8257885385093252,-0.05491398751564191,-0.327997,-23.665124
11.185,2.0,1.0,1.0,34.9,33.5,33.5,2.9,3.6,2.745,-0.510174841794726,-0.035494694284439986,0.8158346098291377,-0.05667573701214933,-0.334526,-23.49497
11.185,2.0,1.0,1.0,34.9,33.5,33.5,2.9,3.6,2.7475,-0.5249691886055293,-0.03510218747433982,0.8055065064553149,-0.05847977885147997,-0.341244,-23.323558
11.185,2.0,1.0,1.0,34.9,33.5,33.5,2.9,3.6,2.75,-0.539681751816783,-0.0346619568541441,0.794799470788446,-0.0603268224380772,-0.348159,-23.150849
11.185,2.0,1.0,1.0,34.9,33.5,33.5,2.9,3.6,2.7525,-0.5543021403856817,-0.034171435638521645,0.7837088721560899,-0.062217578638953934,-0.35528,-22.976803
11.185,2.0,1.0,1.0,34.9,33.5,33.5,2.9,3.6,2.755,-0.5688195781468256,-0.03362792571903419,0.7722302181054674,-0.06415275953487304,-0.362616,-22.801374
11.185,2.0,1.0,1.0,34.9,33.5,33.5,2.9,3.6,2.7575,-0.5832228944950335,-0.03302858905899386,0.7603591659883142,-0.06613307815955544,-0.370178,-22.624518
11.185,2.0,1.0,1.0,34.9,33.5,33.5,2.9,3.6,2.76,-0.5975005146994224,-0.03237043825917703,0.7480915348295876,-0.06815924821672924,-0.377975,-22.446185
11.185,2.0,1.0,1.0,34.9,33.5,33.5,2.9,3.6,2.7625,-0.6116404497736537,-0.031650326193731024,0.7354233174724196,-0.07023198376140875,-0.386019,-22.266324
11.185,2.0,1.0,1.0,34.9,33.5,33.5,2.9,3.6,2.765,-0.6256302858133165,-0.03086493460236041,0.7223506929933172,-0.07235199882752502,-0.394323,-22.084879
11.185,2.0,1.0,1.0,34.9,33.5,33.5,2.9,3.6,2.7675,-0.6394571726954745,-0.030010761509795092,0.7088700393839162,-0.07452000697878418,-0.402899,-21.901793
11.185,2.0,1.0,1.0,34.9,33.5,33.5,2.9,3.6,2.77,-0.6531078120171376,-0.029084107326346535,0.6949779464991049,-0.07673672075317348,-0.411762,-21.717005
11.185,2.0,1.0,1.0,34.9,33.5,33.5,2.9,3.6,2.7725,-0.6665684441283304,-0.028081059463742963,0.6806712292761508,-0.07900285096360202,-0.420927,-21.530449
11.185,2.0,1.0,1.0,34.9,33.5,33.5,2.9,3.6,2.775,-0.6798248340913305,-0.026997475278024548,0.6659469412359796,-0.08131910580744604,-0.43041,-21.342057
11.185,2.0,1.0,1.0,34.9,33.5,33.5,2.9,3.6,2.7775,-0.6928622563699222,-0.025828963125652606,0.6508023882864076,-0.08368618972586332,-0.440229,-21.151756
11.185,2.0,1.0,1.0,34.9,33.5,33.5,2.9,3.6,2.78,-0.705665478020687,-0.02457086128964344,0.6352351428582613,-0.0861048019391715,-0.450403,-20.959467
11.185,2.0,1.0,1.0,34.9,33.5,33.5,2.9,3.6,2.7825,-0.718218740121888,-0.023218214498906535,0.6192430584197911,-0.08857563456673945,-0.460953,-20.76511
11.185,2.0,1.0,1.0,34.9,33.5,33.5,2.9,3.6,2.785,-0.7305057371334502,-0.02176574772535593,0.6028242844330625,-0.09109937021801778,-0.471902,-20.568596
11.185,2.0,1.0,1.0,34.9,33.5,33.5,2.9,3.6,2.7875,-0.7425095938334847,-0.020207836899017482,0.585977281839251,-0.09367667891456756,-0.483275,-20.369834
11.185,2.0,1.0,1.0,34.9,33.5,33.5,2.9,3.6,2.79,-0.754212839421237,-0.018538476130326303,0.5687008391889784,-0.09630821417016851,-0.495097,-20.168725
11.185,2.0,1.0,1.0,34.9,33.5,33.5,2.9,3.6,2.7925,-0.7655973783126624,-0.016751240970063717,0.5509940895705053,-0.09899460801582648,-0.507399,-19.965164
11.185,2.0,1.0,1.0,34.9,33.5,33.5,2.9,3.6,2.795,-0.7766444570814156,-0.014839247169658516,0.5328565285344504,-0.10173646470705733,-0.520212,-19.75904
11.185,2.0,1.0,1.0,34.9,33.5,33.5,2.9,3.6,2.7975,-0.7873346269135192,-0.012795104326472,0.5142880332711025,-0.10453435278993671,-0.533572,-19.550236
11.185,2.0,1.0,1.0,34.9,33.5,33.5,2.9,3.6,2.8,-0.7976477008464812,-0.010610863708497084,0.4952888833678499,-0.10738879512738168,-0.547516,-19.338626
11.185,2.0,1.0,1.0,34.9,33.5,33.5,2.9,3.6,2.8025,-0.8075627049513673,-0.008277959448766761,0.4758597835635823,-0.11030025639443072,-0.562088,-19.124077
11.185,2.0,1.0,1.0,34.9,33.5,33.5,2.9,3.6,2.805,-0.8170578224867022,-0.0057871421794584025,0.45600188902836514,-0.11326912743656918,-0.577333,-18.906447
11.185,2.0,1.0,1.0,34.9,33.5,33.5,2.9,3.6,2.8075,-0.826110329903678,-0.0031284040367244846,0.43571683383573445,-0.11629570574285701,-0.593304,-18.685585
11.185,2.0,1.0,1.0,34.9,33.5,33.5,2.9,3.6,2.81,-0.8346965234098778,-0.00029089380686770597,0.4150067634689741,-0.11938017110869793,-0.610058,-18.46133
11.185,2.0,1.0,1.0,34.9,33.5,33.5,2.9,3.6,2.8125,-0.842791634600216,0.00273717920049009,0.393874372420493,-0.122522555342598,-0.627657,-18.233512
11.185,2.0,1.0,1.0,34.9,33.5,33.5,2.9,3.6,2.815,-0.8503697334355078,0.005968654179527709,0.3723229482165158,-0.12572270459577234,-0.646172,-18.001948
11.185,2.0,1.0,1.0,34.9,33.5,33.5,2.9,3.6,2.8175,-0.8574036165869631,0.009417542627334324,0.3503564235424545,-0.12898023254832325,-0.665681,-17.766445
11.185,2.0,1.0,1.0,34.9,33.5,33.5,2.9,3.6,2.82,-0.8638646788650957,0.013099169066208873,0.3279794385765235,-0.13229446225216912,-0.686272,-17.526796
11.185,2.0,1.0,1.0,34.9,33.5,33.5,2.9,3.6,2.8225,-0.8697227651101026,0.01703033115817157,0.3051974161846465,-0.13566435388480375,-0.708043,-17.28278
11.185,2.0,1.0,1.0,34.9,33.5,33.5,2.9,3.6,2.825,-0.8749459995346138,0.021229482039313477,0.28201665331998443,-0.13908841497813237,-0.731105,-17.034165
11.185,2.0,1.0,1.0,34.9,33.5,33.5,2.9,3.6,2.8275,-0.8795005890772941,0.02571693810179407,0.25844443284619445,-0.1425645888128071,-0.75558,-16.780699
