1,w,sub_t,h,l1,l2,l3,g1,g2,Freq,S11_re,S21_re,S11_img,S21_img,S11_dB,S21_dB
11.185,2.0,1.0,1.0,34.7,34.9,34.9,3.9,3.7,2.5,0.661440351191157,-0.0118997923516009,0.738141263807163,0.00337767747881202,-0.077312,-38.152695
11.185,2.0,1.0,1.0,34.7,34.9,34.9,3.9,3.7,2.5025,0.6551267066405793,-0.012119525494358529,0.7436026263088631,0.0033219351227120283,-0.078284,-38.015679
11.185,2.0,1.0,1.0,34.7,34.9,34.9,3.9,3.7,2.505,0.6487307635339367,-0.012343542011282896,0.7490390264844373,0.003263121237889097,-0.079278,-37.877831
11.185,2.0,1.0,1.0,34.7,34.9,34.9,3.9,3.7,2.5075,0.6422516838573634,-0.01257195482033065,0.7544495236968286,0.0032011170475872313,-0.080295,-37.739128
11.185,2.0,1.0,1.0,34.7,34.9,34.9,3.9,3.7,2.51,0.6356886195237973,-0.012804881156200288,0.7598331499575198,0.0031357983730386906,-0.081334,-37.599547
11.185,2.0,1.0,1.0,34.7,34.9,34.9,3.9,3.7,2.5125,0.6290407122754749,-0.01304244279258243,0.7651889090424175,0.003067035326810987,-0.082397,-37.459065
11.185,2.0,1.0,1.0,34.7,34.9,34.9,3.9,3.7,2.515,0.6223070935827146,-0.013284766278703392,0.7705157755722206,0.002994691984753847,-0.083484,-37.317657
11.185,2.0,1.0,1.0,34.7,34.9,34.9,3.9,3.7,2.5175,0.6154868845384099,-0.013531983191244665,0.7758126940551922,0.0029186260347619283,-0.084596,-37.175298
11.185,2.0,1.0,1.0,34.7,34.9,34.9,3.9,3.7,2.52,0.6085791957475222,-0.01378423040281491,0.7810785778900884,0.0028386884003961392,-0.085735,-37.031963
11.185,2.0,1.0,1.0,34.7,34.9,34.9,3.9,3.7,2.5225,0.6015831272108434,-0.014041650368250697,0.7863123083267783,0.002754722837216189,-0.0869,-36.887624
11.185,2.0,1.0,1.0,34.7,34.9,34.9,3.9,3.7,2.525,0.5944977682021367,-0.01430439143013716,0.7915127333819056,0.0026665654994626527,-0.088094,-36.742254
11.185,2.0,1.0,1.0,34.7,34.9,34.9,3.9,3.7,2.5275,0.5873221971376917,-0.014572608145060246,0.796678666706673,0.0025740444744914294,-0.089316,-36.595824
11.185,2.0,1.0,1.0,34.7,34.9,34.9,3.9,3.7,2.53,0.580055481437218,-0.014846461632236942,0.8018088864035716,0.0024769792820997934,-0.090568,-36.448305
11.185,2.0,1.0,1.0,34.7,34.9,34.9,3.9,3.7,2.5325,0.5726966773748406,-0.015126119946320293,0.8069021337885834,0.0023751803355885584,-0.091851,-36.299665
11.185,2.0,1.0,1.0,34.7,34.9,34.9,3.9,3.7,2.535,0.5652448299188311,-0.01541175847633598,0.8119571120950435,0.00226844836107793,-0.093167,-36.149872
11.185,2.0,1.0,1.0,34.7,34.9,34.9,3.9,3.7,2.5375,0.5576989725585472,-0.015703560372887972,0.8169724851149767,0.002156573771227536,-0.094515,-35.998894
11.185,2.0,1.0,1.0,34.7,34.9,34.9,3.9,3.7,2.54,0.5500581271168522,-0.016001717005968714,0.8219468757733087,0.0020393359890999176,-0.095898,-35.846696
11.185,2.0,1.0,1.0,34.7,34.9,34.9,3.9,3.7,2.5425,0.5423213035460969,-0.016306428455925403,0.8268788646298834,0.0019165027174480132,-0.097317,-35.693243
11.185,2.0,1.0,1.0,34.7,34.9,34.9,3.9,3.7,2.545,0.5344874997055105,-0.016617904040375272,0.8317669883036883,0.0017878291481894957,-0.098774,-35.538497
11.185,2.0,1.0,1.0,34.7,34.9,34.9,3.9,3.7,2.5475,0.5265557011176072,-0.016936362880127055,0.8366097378131009,0.0016530571062509144,-0.100269,-35.38242
11.185,2.0,1.0,1.0,34.7,34.9,34.9,3.9,3.7,2.55,0.5185248807008969,-0.017262034507458706,0.8414055568253138,0.0015119141213115182,-0.101804,-35.224971
11.185,2.0,1.0,1.0,34.7,34.9,34.9,3.9,3.7,2.5525,0.5103939984759338,-0.017595159520425053,0.8461528398073171,0.0013641124202391807,-0.103381,-35.06611
11.185,2.0,1.0,1.0,34.7,34.9,34.9,3.9,3.7,2.555,0.5021620012413162,-0.01793599028722746,0.8508499300700132,0.0012093478321798987,-0.105002,-34.905794
11.185,2.0,1.0,1.0,34.7,34.9,34.9,3.9,3.7,2.5575,0.49382782221590654,-0.018284791705073203,0.8554951176960442,0.001047298597321853,-0.106669,-34.743975
11.185,2.0,1.0,1.0,34.7,34.9,34.9,3.9,3.7,2.56,0.4853903806430904,-0.018641842018391953,0.860086637340836,0.0008776240692897262,-0.108382,-34.580609
11.185,2.0,1.0,1.0,34.7,34.9,34.9,3.9,3.7,2.5625,0.476848581352401,-0.0190074337017634,0.864622665895141,0.000699963299917033,-0.110146,-34.415645
11.185,2.0,1.0,1.0,34.7,34.9,34.9,3.9,3.7,2.565,0.4682013142732845,-0.019381874413450243,0.8691013199959539,0.0005139334937706417,-0.111961,-34.249032
11.185,2.0,1.0,1.0,34.7,34.9,34.9,3.9,3.7,2.5675,0.45944745389520225,-0.019765488026029347,0.873520653371064,0.00031912831823984107,-0.11383,-34.080717
11.185,2.0,1.0,1.0,34.7,34.9,34.9,3.9,3.7,2.57,0.4505858586675475,-0.02015861574128096,0.8778786540007147,0.0001151160532184068,-0.115755,-33.910644
11.185,2.0,1.0,1.0,34.7,34.9,34.9,3.9,3.7,2.5725,0.4416153703321239,-0.020561617297234082,0.8821732410777404,-9.856243762612022e-05,-0.117739,-33.738755
11.185,2.0,1.0,1.0,34.7,34.9,34.9,3.9,3.7,2.575,0.4325348131800752,-0.020974872276088942,0.8864022617451659,-0.0003223959343335118,-0.119785,-33.564988
11.185,2.0,1.0,1.0,34.7,34.9,34.9,3.9,3.7,2.5775,0.4233429932242126,-0.021398781522651674,0.8905634875875296,-0.000556905309891634,-0.121896,-33.389279
11.185,2.0,1.0,1.0,34.7,34.9,34.9,3.9,3.7,2.58,0.4140386972766291,-0.021833768683931467,0.8946546108490421,-0.0008026462273163113,-0.124075,-33.211561
11.185,2.0,1.0,1.0,34.7,34.9,34.9,3.9,3.7,2.5825,0.4046206919202999,-0.022280281881684707,0.8986732403480611,-0.0010602121141863742,-0.126325,-33.031764
11.185,2.0,1.0,1.0,34.7,34.9,34.9,3.9,3.7,2.585,0.39508772236206424,-0.022738795530944288,0.902616897053205,-0.001330237448327214,-0.128651,-32.849813
11.185,2.0,1.0,1.0,34.7,34.9,34.9,3.9,3.7,2.5875,0.3854385111528921,-0.023209812318973903,0.9064830092815686,-0.0016134013930533804,-0.131055,-32.665632
11.185,2.0,1.0,1.0,34.7,34.9,34.9,3.9,3.7,2.59,0.3756717567597198,-0.02369386536064099,0.9102689074739025,-0.0019104318258452268,-0.133542,-32.479139
11.185,2.0,1.0,1.0,34.7,34.9,34.9,3.9,3.7,2.5925,0.36578613197127074,-0.024191520547929786,0.9139718184951203,-0.002222109810682649,-0.136117,-32.290248
11.185,2.0,1.0,1.0,34.7,34.9,34.9,3.9,3.7,2.595,0.3557802821182837,-0.024703379113230377,0.917588859400879,-0.002549274571646713,-0.138784,-32.098868
11.185,2.0,1.0,1.0,34.7,34.9,34.9,3.9,3.7,2.5975,0.34565282308623874,-0.02523008042816835,0.9211170306021492,-0.0028928290340261673,-0.141549,-31.904905
11.185,2.0,1.0,1.0,34.7,34.9,34.9,3.9,3.7,2.6,0.33540233909619127,-0.025772305062083653,0.9245532083493133,-0.003253746009250888,-0.144418,-31.708258
11.185,2.0,1.0,1.0,34.7,34.9,34.9,3.9,3.7,2.6025,0.3250273802265241,-0.02633077812686239,0.9278941364451538,-0.00363307511180955,-0.147396,-31.508822
11.185,2.0,1.0,1.0,34.7,34.9,34.9,3.9,3.7,2.605,0.3145264596453022,-0.02690627293767564,0.931136417081812,-0.004031950510224092,-0.15049,-31.306485
11.185,2.0,1.0,1.0,34.7,34.9,34.9,3.9,3.7,2.6075,0.3038980505195532,-0.027499615022298283,0.9342765006798915,-0.004451599630563038,-0.153707,-31.101128
11.185,2.0,1.0,1.0,34.7,34.9,34.9,3.9,3.7,2.61,0.29314058256405257,-0.02811168651507785,0.9373106745879296,-0.0048933529503822045,-0.157056,-30.892626
11.185,2.0,1.0,1.0,34.7,34.9,34.9,3.9,3.7,2.6125,0.2822524381881361,-0.02874343097529432,0.9402350504767756,-0.0053586550439983964,-0.160544,-30.680847
11.185,2.0,1.0,1.0,34.7,34.9,34.9,3.9,3.7,2.615,0.27123194819469065,-0.029395858673573517,0.9430455502352091,-0.00584907706738134,-0.164181,-30.46565
11.185,2.0,1.0,1.0,34.7,34.9,34.9,3.9,3.7,2.6175,0.2600773869808361,-0.030070052394154473,0.9457378901395248,-0.006366330903622567,-0.167977,-30.246885
11.185,2.0,1.0,1.0,34.7,34.9,34.9,3.9,3.7,2.62,0.24878696718490292,-0.030767173805087786,0.9483075630294858,-0.006912285229054886,-0.171943,-30.024395
11.185,2.0,1.0,1.0,34.7,34.9,34.9,3.9,3.7,2.6225,0.23735883371930672,-0.03148847045273802,0.9507498181746977,-0.007488983807077676,-0.176092,-29.798009
11.185,2.0,1.0,1.0,34.7,34.9,34.9,3.9,3.7,2.625,0.225791057124018,-0.0322352834410868,0.953059638457073,-0.00809866637336726,-0.180436,-29.567549
11.185,2.0,1.0,1.0,34.7,34.9,34.9,3.9,3.7,2.6275,0.21408162617061727,-0.033009055859998256,0.9552317144245248,-0.008743792544642156,-0.184992,-29.332822
11.185,2.0,1.0,1.0,34.7,34.9,34.9,3.9,3.7,2.63,0.20222843964314163,-0.0338113420293842,0.9572604146852816,-0.009427069266296852,-0.189774,-29.093623
11.185,2.0,1.0,1.0,34.7,34.9,34.9,3.9,3.7,2.6325,0.19022929721929435,-0.034643817627459716,0.9591397520078199,-0.010151482415536994,-0.194802,-28.849734
11.185,2.0,1.0,1.0,34.7,34.9,34.9,3.9,3.7,2.635,0.17808188937534386,-0.03550829077009553,0.9608633443635557,-0.010920333300597931,-0.200096,-28.600918
11.185,2.0,1.0,1.0,34.7,34.9,34.9,3.9,3.7,2.6375,0.1657837862412303,-0.03640671410332063,0.9624243699924585,-0.011737280948883022,-0.205678,-28.346926
11.185,2.0,1.0,1.0,34.7,34.9,34.9,3.9,3.7,2.64,0.153332425341024,-0.03734119796039605,0.9638155153780084,-0.012606391264658895,-0.211573,-28.087485
11.185,2.0,1.0,1.0,34.7,34.9,34.9,3.9,3.7,2.6425,0.14072509817073378,-0.0383140246157996,0.9650289147778637,-0.013532194369598004,-0.21781,-27.822306
11.185,2.0,1.0,1.0,34.7,34.9,34.9,3.9,3.7,2.645,0.12795893559426139,-0.0393276636369965,0.9660560796578547,-0.014519751728971903,-0.22442,-27.551076
11.185,2.0,1.0,1.0,34.7,34.9,34.9,3.9,3.7,2.6475,0.11503089208501155,-0.040384788285279395,0.966887816003286,-0.01557473502821582,-0.23144,-27.273455
11.185,2.0,1.0,1.0,34.7,34.9,34.9,3.9,3.7,2.65,0.10193772891325613,-0.04148829284105375,0.9675141270121576,-0.016703519219184424,-0.238909,-26.989079
11.185,2.0,1.0,1.0,34.7,34.9,34.9,3.9,3.7,2.6525,0.08867599649004354,-0.04264131061478278,0.9679240980822363,-0.0179132927292006,-0.246875,-26.697552
11.185,2.0,1.0,1.0,34.7,34.9,34.9,3.9,3.7,2.655,0.07524201624426237,-0.04384723223514235,0.9681057602518787,-0.019212188553883992,-0.255389,-26.398445
11.185,2.0,1.0,1.0,34.7,34.9,34.9,3.9,3.7,2.6575,0.06163186265624314,-0.04510972355554115,0.9680459272952339,-0.020609440882808947,-0.264513,-26.091291
11.185,2.0,1.0,1.0,34.7,34.9,34.9,3.9,3.7,2.66,0.04784134643589807,-0.04643274215212453,0.9677300004424972,-0.022115573096585125,-0.274315,-25.775582
11.185,2.0,1.0,1.0,34.7,34.9,34.9,3.9,3.7,2.6625,0.033866000371320815,-0.047820550846232455,0.9671417331103124,-0.023742624506685815,-0.284876,-25.450763
11.185,2.0,1.0,1.0,34.7,34.9,34.9,3.9,3.7,2.665,0.019701070166593258,-0.049277725891248396,0.9662629459725005,-0.02550442519485635,-0.296288,-25.116228
11.185,2.0,1.0,1.0,34.7,34.9,34.9,3.9,3.7,2.6675,0.005341513758129145,-0.05080915629711578,0.9650731800237656,-0.02741693089458528,-0.308662,-24.77131
11.185,2.0,1.0,1.0,34.7,34.9,34.9,3.9,3.7,2.67,-0.009217985668200803,-0.052420029043779987,0.9635492717818309,-0.02949863324185877,-0.322124,-24.41528
11.185,2.0,1.0,1.0,34.7,34.9,34.9,3.9,3.7,2.6725,-0.02398298516056299,-0.05411579238149322,0.9616648301563496,-0.03177106517519055,-0.336825,-24.047332
11.185,2.0,1.0,1.0,34.7,34.9,34.9,3.9,3.7,2.675,-0.038959214336027115,-0.055902085608759686,0.959389588406189,-0.03425942714953581,-0.352944,-23.666577
11.185,2.0,1.0,1.0,34.7,34.9,34.9,3.9,3.7,2.6775,-0.05415245712588273,-0.05778461800456019,0.9566885964969102,-0.03699336763605622,-0.370695,-23.272031
11.185,2.0,1.0,1.0,34.7,34.9,34.9,3.9,3.7,2.68,-0.06956835671559605,-0.059768970950869874,0.9535212083676353,-0.04000796176793538,-0.390336,-22.862603
11.185,2.0,1.0,1.0,34.7,34.9,34.9,3.9,3.7,2.6825,-0.08521210405997517,-0.061860284106634446,0.9498398042049184,-0.043344945832350566,-0.412179,-22.437079
11.185,2.0,1.0,1.0,34.7,34.9,34.9,3.9,3.7,2.685,-0.10108794969638658,-0.06406276622307627,0.9455881686129581,-0.04705428372403895,-0.436607,-21.994105
11.185,2.0,1.0,1.0,34.7,34.9,34.9,3.9,3.7,2.6875,-0.117198446432327,-0.0663789396947714,0.940699420091594,-0.0511961658491522,-0.46409,-21.53217
11.185,2.0,1.0,1.0,34.7,34.9,34.9,3.9,3.7,2.69,-0.13354327994427656,-0.0688084785003353,0.9350933538207127,-0.05584357283845212,-0.495215,-21.049582
11.185,2.0,1.0,1.0,34.7,34.9,34.9,3.9,3.7,2.6925,-0.15011746402001672,-0.07134642074323796,0.9286730169206693,-0.06108557710706328,-0.53072,-20.544448
11.185,2.0,1.0,1.0,34.7,34.9,34.9,3.9,3.7,2.695,-0.16690854819360465,-0.07398041119452364,0.9213202828856808,-0.06703160479257556,-0.571542,-20.014644
11.185,2.0,1.0,1.0,34.7,34.9,34.9,3.9,3.7,2.6975,-0.18389227617253476,-0.07668642534391437,0.9128901335096666,-0.07381693492943377,-0.618884,-19.457798
11.185,2.0,1.0,1.0,34.7,34.9,34.9,3.9,3.7,2.7,-0.20102579042535879,-0.07942209288714999,0.903203306568437,-0.08160975746657614,-0.674311,-18.871263
11.185,2.0,1.0,1.0,34.7,34.9,34.9,3.9,3.7,2.7025,-0.21823691208516477,-0.0821161888811112,0.8920369657866649,-0.09062010707498085,-0.739884,-18.252115
11.185,2.0,1.0,1.0,34.7,34.9,34.9,3.9,3.7,2.705,-0.23540708777817695,-0.08465195230209004,0.8791131973104875,-0.10111083581186499,-0.818351,-17.597165
11.185,2.0,1.0,1.0,34.7,34.9,34.9,3.9,3.7,2.7075,-0.2523440500079107,-0.08684039798697282,0.8640856771615666,-0.11341024594625937,-0.913426,-16.90303
11.185,2.0,1.0,1.0,34.7,34.9,34.9,3.9,3.7,2.71,-0.2687377429564481,-0.08837738296770624,0.8465263550570666,-0.12792451932587126,-1.030183,-16.166291
11.185,2.0,1.0,1.0,34.7,34.9,34.9,3.9,3.7,2.7125,-0.28408924674490954,-0.08877452326905111,0.8259177574210252,-0.1451443895153919,-1.175626,-15.383843
11.185,2.0,1.0,1.0,34.7,34.9,34.9,3.9,3.7,2.715,-0.297597348104504,-0.08724922044109933,0.8016653852892761,-0.1656318332508706,-1.359451,-14.553574
11.185,2.0,1.0,1.0,34.7,34.9,34.9,3.9,3.7,2.7175,-0.30798335308216096,-0.0825553460186944,0.7731645780163557,-0.18995320101965366,-1.594942,-13.67567
11.185,2.0,1.0,1.0,34.7,34.9,34.9,3.9,3.7,2.72,-0.31324211431124926,-0.07274375376944683,0.7399975579875085,-0.2184851591887601,-1.899578,-12.754995
11.185,2.0,1.0,1.0,34.7,34.9,34.9,3.9,3.7,2.7225,-0.31036034497050946,-0.05489414350175919,0.7024096447165356,-0.2509492899110187,-2.293668,-11.80529
11.185,2.0,1.0,1.0,34.7,34.9,34.9,3.9,3.7,2.725,-0.295229536397589,-0.025041436441139313,0.6622926532427053,-0.28545656560646865,-2.79186,-10.855906
11.185,2.0,1.0,1.0,34.7,34.9,34.9,3.9,3.7,2.7275,-0.26343021102665654,0.02104531997386957,0.6247861630742754,-0.3169617546667142,-3.374752,-9.960759
11.185,2.0,1.0,1.0,34.7,34.9,34.9,3.9,3.7,2.73,-0.21309807494978503,0.08506567342878513,0.59967707097012,-0.3359364806317928,-3.925199,-9.20495
11.185,2.0,1.0,1.0,34.7,34.9,34.9,3.9,3.7,2.7325,-0.15007750612241527,0.16120559702262893,0.599588435671246,-0.33018334434244595,-4.17903,-8.696396
11.185,2.0,1.0,1.0,34.7,34.9,34.9,3.9,3.7,2.735,-0.09053569979752842,0.2336885943760523,0.6318195659986549,-0.29278424227384287,-3.899868,-8.528403
11.185,2.0,1.0,1.0,34.7,34.9,34.9,3.9,3.7,2.7375,-0.053186497955942866,0.28441840133156177,0.6895226496211676,-0.23058100564599765,-3.203266,-8.726962
11.185,2.0,1.0,1.0,34.7,34.9,34.9,3.9,3.7,2.74,-0.04609133009201277,0.3057547551567717,0.7551176832275539,-0.16071950662273657,-2.423557,-9.232987
11.185,2.0,1.0,1.0,34.7,34.9,34.9,3.9,3.7,2.7425,-0.0640586128934454,0.3029012037412709,0.813154101752984,-0.09813626255214039,-1.769674,-9.940483
11.185,2.0,1.0,1.0,34.7,34.9,34.9,3.9,3.7,2.745,-0.09675979952090007,0.2859543353896762,0.8570234070385733,-0.04912750981545936,-1.285137,-10.747736
11.185,2.0,1.0,1.0,34.7,34.9,34.9,3.9,3.7,2.7475,-0.1356351741932142,0.26322135993961515,0.886818295849047,-0.013501135741493387,-0.942885,-11.582167
11.185,2.0,1.0,1.0,34.7,34.9,34.9,3.9,3.7,2.75,-0.175612993781929,0.239594137678476,0.905258575518739,0.0114490626299121,-0.70411,-12.400571
11.185,2.0,1.0,1.0,34.7,34.9,34.9,3.9,3.7,2.7525,-0.21427119783405854,0.21738864629503615,0.9153102274363264,0.028640312406641548,-0.536927,-13.180528
11.185,2.0,1.0,1.0,34.7,34.9,34.9,3.9,3.7,2.755,-0.25069825489901876,0.197459969007565,0.9193701627782929,0.04042144148219695,-0.418706,-13.912138
11.185,2.0,1.0,1.0,34.7,34.9,34.9,3.9,3.7,2.7575,-0.28472080769823777,0.17995335713090677,0.9191732643849583,0.04849098315687349,-0.334146,-14.592379
11.185,2.0,1.0,1.0,34.7,34.9,34.9,3.9,3.7,2.76,-0.3164824829926858,0.16471190188789023,0.915918869619177,0.05402463583641471,-0.273027,-15.221747
11.185,2.0,1.0,1.0,34.7,34.9,34.9,3.9,3.7,2.7625,-0.34623790697477486,0.1514749436172471,0.9104214709347752,0.057823936731437466,-0.228492,-15.802381
11.185,2.0,1.0,1.0,34.7,34.9,34.9,3.9,3.7,2.765,-0.3742596825170168,0.13996709647467184,0.9032316157976883,0.060434787507938535,-0.195886,-16.33705
11.185,2.0,1.0,1.0,34.7,34.9,34.9,3.9,3.7,2.7675,-0.4008003407485447,0.12993426216683573,0.8947217667903459,0.06223137125398392,-0.172007,-16.828635
11.185,2.0,1.0,1.0,34.7,34.9,34.9,3.9,3.7,2.77,-0.4260797128820503,0.121155256339207,0.8851444188049848,0.06347287026747382,-0.154616,-17.279865
11.185,2.0,1.0,1.0,34.7,34.9,34.9,3.9,3.7,2.7725,-0.450283415871581,0.1134428519374413,0.8746707319257921,0.06434116443864854,-0.142126,-17.693195
11.185,2.0,1.0,1.0,34.7,34.9,34.9,3.9,3.7,2.775,-0.4735657496717557,0.10664067818240418,0.8634161068381577,0.06496582961479466,-0.133394,-18.070761
11.185,2.0,1.0,1.0,34.7,34.9,34.9,3.9,3.7,2.7775,-0.496053968491856,0.10061887578517142,0.8514571590677069,0.06544080292384728,-0.127589,-18.414368
11.185,2.0,1.0,1.0,34.7,34.9,34.9,3.9,3.7,2.78,-0.5178526187916593,0.09526974450901164,0.8388430426983355,0.06583560236054176,-0.124102,-18.725501
11.185,2.0,1.0,1.0,34.7,34.9,34.9,3.9,3.7,2.7825,-0.5390474379232707,0.09050385186213522,0.8256030418644253,0.0662029784113933,-0.122477,-19.005341
11.185,2.0,1.0,1.0,34.7,34.9,34.9,3.9,3.7,2.785,-0.5597086672691755,0.0862467288649601,0.8117516704812648,0.06658421559090653,-0.122379,-19.254777
11.185,2.0,1.0,1.0,34.7,34.9,34.9,3.9,3.7,2.7875,-0.579893786317196,0.08243613452095286,0.7972920827576343,0.06701287779313973,-0.123554,-19.474429
11.185,2.0,1.0,1.0,34.7,34.9,34.9,3.9,3.7,2.79,-0.5996497307705383,0.07901981742663958,0.782218314708599,0.06751752045165539,-0.125817,-19.664658
11.185,2.0,1.0,1.0,34.7,34.9,34.9,3.9,3.7,2.7925,-0.6190146713205494,0.07595369006157837,0.7665166936072916,0.06812371945814541,-0.129029,-19.825574
11.185,2.0,1.0,1.0,34.7,34.9,34.9,3.9,3.7,2.795,-0.638019424866672,0.07320033483345338,0.7501666315422268,0.06885565628173243,-0.133094,-19.957048
11.185,2.0,1.0,1.0,34.7,34.9,34.9,3.9,3.7,2.7975,-0.656688558060128,0.07072776985376687,0.7331409376415681,0.06973742855687111,-0.137948,-20.058709
11.185,2.0,1.0,1.0,34.7,34.9,34.9,3.9,3.7,2.8,-0.6750412289124376,0.06850841164644263,0.7154057260954911,0.070794211788502,-0.143553,-20.129945
11.185,2.0,1.0,1.0,34.7,34.9,34.9,3.9,3.7,2.8025,-0.6930917975257508,0.0665181792495266,0.696919953994747,0.07205337235224725,-0.149898,-20.169894
11.185,2.0,1.0,1.0,34.7,34.9,34.9,3.9,3.7,2.805,-0.7108502218260018,0.06473568828531547,0.6776345873919073,0.07354561973043859,-0.156993,-20.177438
11.185,2.0,1.0,1.0,34.7,34.9,34.9,3.9,3.7,2.8075,-0.7283222375781475,0.06314148363786862,0.6574913607186074,0.07530628439447128,-0.164873,-20.15118
11.185,2.0,1.0,1.0,34.7,34.9,34.9,3.9,3.7,2.81,-0.7455093021416985,0.06171725420002825,0.6364210592506137,0.07737681619963588,-0.173598,-20.089427
11.185,2.0,1.0,1.0,34.7,34.9,34.9,3.9,3.7,2.8125,-0.762408255497217,0.0604449607699346,0.614341212026408,0.0798066174876459,-0.183257,-19.990157
11.185,2.0,1.0,1.0,34.7,34.9,34.9,3.9,3.7,2.815,-0.7790106154315669,0.05930578519387088,0.5911530278095365,0.08265535792199127,-0.19397,-19.850981
11.185,2.0,1.0,1.0,34.7,34.9,34.9,3.9,3.7,2.8175,-0.7953013688698244,0.058278769374682515,0.5667373316107566,0.08599596926519683,-0.205903,-19.669093
11.185,2.0,1.0,1.0,34.7,34.9,34.9,3.9,3.7,2.82,-0.8112570354685467,0.05733894650654623,0.5409491527179322,0.08991859586737969,-0.219273,-19.441208
11.185,2.0,1.0,1.0,34.7,34.9,34.9,3.9,3.7,2.8225,-0.8268426406808548,0.05645465567355054,0.5136104601817095,0.09453589336168208,-0.234371,-19.163482
11.185,2.0,1.0,1.0,34.7,34.9,34.9,3.9,3.7,2.825,-0.8420070042450459,0.055583542012798415,0.48450031226218276,0.09999024406592008,-0.251585,-18.831407
11.185,2.0,1.0,1.0,34.7,34.9,34.9,3.9,3.7,2.8275,-0.8566753543813692,0.05466641764856075,0.45334134229698825,0.1064637241775498,-0.271443,-18.439678
11.185,2.0,1.0,1.0,34.7,34.9,34.9,3.9,3.7,2.83,-0.8707375820677767,0.0536175794174948,0.41978098339019904,0.11419206282961522,-0.294672,-17.982023
