1,w,sub_t,h,l1,l2,l3,g1,g2,Freq,S11_re,S21_re,S11_img,S21_img,S11_dB,S21_dB
11.185,2.0,1.0,1.0,34.0,33.0,33.0,2.4,3.2,2.5,0.78225829323111,-0.0104568389953105,0.611141329388881,0.00671398768791462,-0.063779,-38.112877
11.185,2.0,1.0,1.0,34.0,33.0,33.0,2.4,3.2,2.5025,0.7776675681211983,-0.01064925235531771,0.6168564001265598,0.006715208183201224,-0.064409,-37.999691
11.185,2.0,1.0,1.0,34.0,33.0,33.0,2.4,3.2,2.505,0.7730122199303973,-0.010844741125204067,0.622563530731101,0.0067147287157609935,-0.06505,-37.886231
11.185,2.0,1.0,1.0,34.0,33.0,33.0,2.4,3.2,2.5075,0.7682916014517859,-0.011043353487652076,0.628262253009934,0.0067124883519145626,-0.065702,-37.772493
11.185,2.0,1.0,1.0,34.0,33.0,33.0,2.4,3.2,2.51,0.7635050570915141,-0.011245138346418921,0.633952085052129,0.006708424161596251,-0.066364,-37.658471
11.185,2.0,1.0,1.0,34.0,33.0,33.0,2.4,3.2,2.5125,0.7586519228217705,-0.01145014532976594,0.639632530819158,0.006702471148992024,-0.067038,-37.544159
11.185,2.0,1.0,1.0,34.0,33.0,33.0,2.4,3.2,2.515,0.7537315261373888,-0.011658424793282855,0.6453030797237013,0.006694562180641812,-0.067722,-37.429553
11.185,2.0,1.0,1.0,34.0,33.0,33.0,2.4,3.2,2.5175,0.7487431860163878,-0.011870027822054917,0.6509632061961402,0.0066846279109097585,-0.068419,-37.314646
11.185,2.0,1.0,1.0,34.0,33.0,33.0,2.4,3.2,2.52,0.7436862128847226,-0.012085006232115808,0.6566123692384104,0.006672596704722302,-0.069127,-37.199434
11.185,2.0,1.0,1.0,34.0,33.0,33.0,2.4,3.2,2.5225,0.7385599085855776,-0.012303412571127615,0.6622500119648259,0.0066583945574700135,-0.069847,-37.08391
11.185,2.0,1.0,1.0,34.0,33.0,33.0,2.4,3.2,2.525,0.7333635663535158,-0.012525300118222915,0.6678755611295312,0.006641945011966174,-0.070579,-36.96807
11.185,2.0,1.0,1.0,34.0,33.0,33.0,2.4,3.2,2.5275,0.7280964707938309,-0.01275072288294272,0.6734884266401931,0.006623169072348333,-0.071324,-36.851908
11.185,2.0,1.0,1.0,34.0,33.0,33.0,2.4,3.2,2.53,0.7227578978674749,-0.01297973560319582,0.6790880010575431,0.006601985114808092,-0.072082,-36.735418
11.185,2.0,1.0,1.0,34.0,33.0,33.0,2.4,3.2,2.5325,0.7173471148819416,-0.01321239374216518,0.6846736590803795,0.006578308795026631,-0.072853,-36.618594
11.185,2.0,1.0,1.0,34.0,33.0,33.0,2.4,3.2,2.535,0.7118633804885023,-0.013448753484076792,0.6902447570156266,0.006552052952191132,-0.073637,-36.501431
11.185,2.0,1.0,1.0,34.0,33.0,33.0,2.4,3.2,2.5375,0.7063059446862404,-0.013688871728745621,0.6958006322330269,0.006523127509461099,-0.074436,-36.383923
11.185,2.0,1.0,1.0,34.0,33.0,33.0,2.4,3.2,2.54,0.7006740488333124,-0.01393280608480437,0.7013406026040534,0.006491439370749017,-0.075248,-36.266064
11.185,2.0,1.0,1.0,34.0,33.0,33.0,2.4,3.2,2.5425,0.6949669256659212,-0.014180614861518,0.7068639659246039,0.00645689231367392,-0.076075,-36.147848
11.185,2.0,1.0,1.0,34.0,33.0,33.0,2.4,3.2,2.545,0.6891837993254948,-0.01443235705907625,0.7123699993210385,0.0064193868785423405,-0.076916,-36.029269
11.185,2.0,1.0,1.0,34.0,33.0,33.0,2.4,3.2,2.5475,0.6833238853946002,-0.014688092357254533,0.717857958639098,0.00637882025320361,-0.077773,-35.910322
11.185,2.0,1.0,1.0,34.0,33.0,33.0,2.4,3.2,2.55,0.6773863909421315,-0.014947881102323111,0.7233270778152636,0.00633508615362183,-0.078645,-35.791
11.185,2.0,1.0,1.0,34.0,33.0,33.0,2.4,3.2,2.5525,0.6713705145783715,-0.015211784292077122,0.7287765682300616,0.006288074700000871,-0.079532,-35.671297
11.185,2.0,1.0,1.0,34.0,33.0,33.0,2.4,3.2,2.555,0.6652754465205218,-0.015479863558854426,0.7342056180428501,0.006237672288290906,-0.080436,-35.551206
11.185,2.0,1.0,1.0,34.0,33.0,33.0,2.4,3.2,2.5575,0.6591003686693448,-0.015752181150396467,0.7396133915076011,0.0061837614569004344,-0.081357,-35.430723
11.185,2.0,1.0,1.0,34.0,33.0,33.0,2.4,3.2,2.56,0.6528444546976051,-0.016028799908400056,0.7449990282691669,0.006126220748429378,-0.082294,-35.30984
11.185,2.0,1.0,1.0,34.0,33.0,33.0,2.4,3.2,2.5625,0.6465068701510079,-0.016309783244598284,0.7503616426395333,0.0060649245662325905,-0.083249,-35.188551
11.185,2.0,1.0,1.0,34.0,33.0,33.0,2.4,3.2,2.565,0.6400867725623836,-0.016595195114198026,0.7557003228535496,0.005999743025614843,-0.084222,-35.06685
11.185,2.0,1.0,1.0,34.0,33.0,33.0,2.4,3.2,2.5675,0.6335833115799119,-0.016885099986490442,0.7610141303035945,0.005930541799452479,-0.085213,-34.94473
11.185,2.0,1.0,1.0,34.0,33.0,33.0,2.4,3.2,2.57,0.6269956291102,-0.017179562812439812,0.7663020987526629,0.0058571819580268995,-0.086222,-34.822185
11.185,2.0,1.0,1.0,34.0,33.0,33.0,2.4,3.2,2.5725,0.6203228594770858,-0.017478648989043385,0.771563233525329,0.005779519802848448,-0.087251,-34.699207
11.185,2.0,1.0,1.0,34.0,33.0,33.0,2.4,3.2,2.575,0.6135641295970763,-0.017782424320242594,0.776796510676035,0.005697406694239797,-0.088299,-34.575791
11.185,2.0,1.0,1.0,34.0,33.0,33.0,2.4,3.2,2.5775,0.606718559172378,-0.01809095497414973,0.7820008761341563,0.005610688872440315,-0.089367,-34.45193
11.185,2.0,1.0,1.0,34.0,33.0,33.0,2.4,3.2,2.58,0.5997852609025294,-0.01840430743634341,0.7871752448252773,0.005519207271981916,-0.090456,-34.327616
11.185,2.0,1.0,1.0,34.0,33.0,33.0,2.4,3.2,2.5825,0.592763340715678,-0.018722548458965847,0.7923184997681187,0.005422797329079753,-0.091565,-34.202844
11.185,2.0,1.0,1.0,34.0,33.0,33.0,2.4,3.2,2.585,0.5856518980206266,-0.01904574500534231,0.7974294911465323,0.005321288781769411,-0.092697,-34.077605
11.185,2.0,1.0,1.0,34.0,33.0,33.0,2.4,3.2,2.5875,0.5784500259807942,-0.019373964189822915,0.8025070353560093,0.005214505462512818,-0.09385,-33.951893
11.185,2.0,1.0,1.0,34.0,33.0,33.0,2.4,3.2,2.59,0.5711568118113307,-0.01970727321252872,0.8075499140240865,0.0051022650829853425,-0.095027,-33.825701
11.185,2.0,1.0,1.0,34.0,33.0,33.0,2.4,3.2,2.5925,0.5637713371006506,-0.02004573928866399,0.8125568730041034,0.004984379010744678,-0.096226,-33.699021
11.185,2.0,1.0,1.0,34.0,33.0,33.0,2.4,3.2,2.595,0.5562926781577472,-0.02038942957203604,0.817526621341693,0.004860652037471018,-0.097449,-33.571846
11.185,2.0,1.0,1.0,34.0,33.0,33.0,2.4,3.2,2.5975,0.5487199063866832,-0.020738411072399657,0.8224578302134414,0.0047308821384570154,-0.098697,-33.44417
11.185,2.0,1.0,1.0,34.0,33.0,33.0,2.4,3.2,2.6,0.541052088689746,-0.02109275056622118,0.827349131837118,0.004594860223013427,-0.09997,-33.315984
11.185,2.0,1.0,1.0,34.0,33.0,33.0,2.4,3.2,2.6025,0.5332882879008248,-0.02145251450042873,0.8321991183528806,0.004452369875444801,-0.101269,-33.18728
11.185,2.0,1.0,1.0,34.0,33.0,33.0,2.4,3.2,2.605,0.5254275632506258,-0.021817768888692,0.8370063406748973,0.0043031870862346965,-0.102594,-33.058052
11.185,2.0,1.0,1.0,34.0,33.0,33.0,2.4,3.2,2.6075,0.5174689708654464,-0.022188579199741775,0.8417693073127711,0.004147079973069243,-0.103946,-32.928291
11.185,2.0,1.0,1.0,34.0,33.0,33.0,2.4,3.2,2.61,0.5094115643012935,-0.022565010237209606,0.8464864831622183,0.0039838084913132515,-0.105326,-32.79799
11.185,2.0,1.0,1.0,34.0,33.0,33.0,2.4,3.2,2.6125,0.5012543951152252,-0.02294712601043917,0.8511562882644146,0.0038131241335364386,-0.106735,-32.66714
11.185,2.0,1.0,1.0,34.0,33.0,33.0,2.4,3.2,2.615,0.4929965134758762,-0.02333498959567886,0.85577709653346,0.0036347696176776676,-0.108172,-32.535734
11.185,2.0,1.0,1.0,34.0,33.0,33.0,2.4,3.2,2.6175,0.484636968815244,-0.023728662987033654,0.8603472344514072,0.00344847856341493,-0.10964,-32.403764
11.185,2.0,1.0,1.0,34.0,33.0,33.0,2.4,3.2,2.62,0.4761748105238856,-0.02412820693651225,0.8648649797303115,0.0032539751562966276,-0.111139,-32.27122
11.185,2.0,1.0,1.0,34.0,33.0,33.0,2.4,3.2,2.6225,0.46760908869178863,-0.024533680782463325,0.8693285599407973,0.0030509737991722147,-0.11267,-32.138096
11.185,2.0,1.0,1.0,34.0,33.0,33.0,2.4,3.2,2.625,0.458938854897305,-0.0249451422656499,0.873736151106616,0.0028391787504435,-0.114233,-32.004382
11.185,2.0,1.0,1.0,34.0,33.0,33.0,2.4,3.2,2.6275,0.45016316304660725,-0.025362647332163687,0.8780858762647277,0.0026182837486416408,-0.11583,-31.870069
11.185,2.0,1.0,1.0,34.0,33.0,33.0,2.4,3.2,2.63,0.44128107026629293,-0.02578624992232806,0.8823758039904356,0.002387971622816606,-0.117461,-31.73515
11.185,2.0,1.0,1.0,34.0,33.0,33.0,2.4,3.2,2.6325,0.432291637851845,-0.026216001744686426,0.8866039468871448,0.0021479138882077296,-0.119128,-31.599615
11.185,2.0,1.0,1.0,34.0,33.0,33.0,2.4,3.2,2.635,0.42319393227481256,-0.02665195203411299,0.8907682600403388,0.0018977703266451645,-0.120831,-31.463455
11.185,2.0,1.0,1.0,34.0,33.0,33.0,2.4,3.2,2.6375,0.41398702625170214,-0.027094147293019753,0.8948666394353869,0.0016371885511138062,-0.122571,-31.326662
11.185,2.0,1.0,1.0,34.0,33.0,33.0,2.4,3.2,2.64,0.40466999987768537,-0.027542631014571668,0.8988969203388784,0.0013658035538896666,-0.12435,-31.189225
11.185,2.0,1.0,1.0,34.0,33.0,33.0,2.4,3.2,2.6425,0.39524194182842254,-0.02799744338674586,0.9028568756431474,0.0010832372376390303,-0.126168,-31.051136
11.185,2.0,1.0,1.0,34.0,33.0,33.0,2.4,3.2,2.645,0.3857019506334074,-0.02845862097599879,0.9067442141737764,0.000789097928851092,-0.128027,-30.912385
11.185,2.0,1.0,1.0,34.0,33.0,33.0,2.4,3.2,2.6475,0.3760491360244286,-0.028926196389224012,0.9105565789598442,0.000482979872950342,-0.129927,-30.772963
11.185,2.0,1.0,1.0,34.0,33.0,33.0,2.4,3.2,2.65,0.36628262036288023,-0.029400197912597226,0.914291545466797,0.00016446271041496016,-0.131871,-30.632859
11.185,2.0,1.0,1.0,34.0,33.0,33.0,2.4,3.2,2.6525,0.3564015401498709,-0.029880649125810038,0.9179466197918368,-0.00016688906679478488,-0.133859,-30.492064
11.185,2.0,1.0,1.0,34.0,33.0,33.0,2.4,3.2,2.655,0.34640504762320606,-0.030367568490102564,0.9215192368218138,-0.0005115266792212948,-0.135892,-30.350568
11.185,2.0,1.0,1.0,34.0,33.0,33.0,2.4,3.2,2.6575,0.33629231244554775,-0.030860968908390494,0.9250067583536724,-0.0008699176450492935,-0.137972,-30.208359
11.185,2.0,1.0,1.0,34.0,33.0,33.0,2.4,3.2,2.66,0.32606252348823545,-0.03136085725567735,0.9284064711775671,-0.0012425463871714197,-0.140101,-30.065429
11.185,2.0,1.0,1.0,34.0,33.0,33.0,2.4,3.2,2.6625,0.3157148907154714,-0.03186723387781607,0.9317155851228591,-0.0016299148629729287,-0.142279,-29.921766
11.185,2.0,1.0,1.0,34.0,33.0,33.0,2.4,3.2,2.665,0.30524864717375016,-0.032380092056559145,0.9349312310673034,-0.0020325432176568252,-0.144509,-29.77736
11.185,2.0,1.0,1.0,34.0,33.0,33.0,2.4,3.2,2.6675,0.2946630510916991,-0.03289941743869269,0.938050458909799,-0.002450970461954612,-0.146791,-29.632199
11.185,2.0,1.0,1.0,34.0,33.0,33.0,2.4,3.2,2.67,0.28395738809566673,-0.03342518742690546,0.9410702355072252,-0.0028857551750969363,-0.149127,-29.486272
11.185,2.0,1.0,1.0,34.0,33.0,33.0,2.4,3.2,2.6725,0.27313097354666965,-0.03395737052988168,0.94398744257597,-0.003337476233945182,-0.15152,-29.339568
11.185,2.0,1.0,1.0,34.0,33.0,33.0,2.4,3.2,2.675,0.2621831550045764,-0.03449592566893388,0.9467988745588852,-0.0038067335692129754,-0.15397,-29.192076
11.185,2.0,1.0,1.0,34.0,33.0,33.0,2.4,3.2,2.6775,0.25111331482565274,-0.03504080143830862,0.9495012364585242,-0.004294148949734565,-0.15648,-29.043783
11.185,2.0,1.0,1.0,34.0,33.0,33.0,2.4,3.2,2.68,0.23992087289985997,-0.03559193531610022,0.9520911416377001,-0.004800366795768375,-0.159051,-28.894677
11.185,2.0,1.0,1.0,34.0,33.0,33.0,2.4,3.2,2.6825,0.22860528953464537,-0.03614925282249015,0.9545651095884835,-0.00532605502235,-0.161686,-28.744747
11.185,2.0,1.0,1.0,34.0,33.0,33.0,2.4,3.2,2.685,0.21716606849219341,-0.03671266662180391,0.9569195636709812,-0.005871905913742146,-0.164386,-28.59398
11.185,2.0,1.0,1.0,34.0,33.0,33.0,2.4,3.2,2.6875,0.20560276018749074,-0.03728207556462537,0.9591508288233814,-0.006438637030057413,-0.167153,-28.442362
11.185,2.0,1.0,1.0,34.0,33.0,33.0,2.4,3.2,2.69,0.1939149650548762,-0.03785736366594308,0.9612551292449191,-0.007026992147159905,-0.16999,-28.289881
11.185,2.0,1.0,1.0,34.0,33.0,33.0,2.4,3.2,2.6925,0.18210233709106732,-0.038438399015011754,0.9632285860536466,-0.007637742230983951,-0.172899,-28.136524
11.185,2.0,1.0,1.0,34.0,33.0,33.0,2.4,3.2,2.695,0.17016458758309133,-0.03902503261230103,0.965067214921075,-0.008271686447435913,-0.175882,-27.982278
11.185,2.0,1.0,1.0,34.0,33.0,33.0,2.4,3.2,2.6975,0.15810148902987875,-0.03961709712856539,0.9667669236859633,-0.00892965320907936,-0.178942,-27.827127
11.185,2.0,1.0,1.0,34.0,33.0,33.0,2.4,3.2,2.7,0.145912879266727,-0.04021440558070175,0.9683235099498074,-0.009612501259828364,-0.182081,-27.671058
11.185,2.0,1.0,1.0,34.0,33.0,33.0,2.4,3.2,2.7025,0.13359866580226498,-0.04081674991866704,0.9697326586567689,-0.010321120798910167,-0.185302,-27.514058
11.185,2.0,1.0,1.0,34.0,33.0,33.0,2.4,3.2,2.705,0.1211588303780152,-0.041423899517294284,0.9709899396611039,-0.011056434645379086,-0.188608,-27.35611
11.185,2.0,1.0,1.0,34.0,33.0,33.0,2.4,3.2,2.7075,0.1085934337611258,-0.04203559956638251,0.9720908052853896,-0.01181939944449727,-0.192001,-27.197199
11.185,2.0,1.0,1.0,34.0,33.0,33.0,2.4,3.2,2.71,0.09590262078138834,-0.04265156935192462,0.9730305878731534,-0.012611006917320094,-0.195485,-27.037311
11.185,2.0,1.0,1.0,34.0,33.0,33.0,2.4,3.2,2.7125,0.08308662562417782,-0.04327150042078686,0.9738044973398192,-0.013432285154848284,-0.199063,-26.87643
11.185,2.0,1.0,1.0,34.0,33.0,33.0,2.4,3.2,2.715,0.07014577739155628,-0.04389505462055105,0.9744076187262181,-0.014284299958130705,-0.202738,-26.714538
11.185,2.0,1.0,1.0,34.0,33.0,33.0,2.4,3.2,2.7175,0.05708050594440104,-0.044521862005574626,0.974834909759246,-0.015168156225717102,-0.206514,-26.55162
11.185,2.0,1.0,1.0,34.0,33.0,33.0,2.4,3.2,2.72,0.04389134803911296,-0.045151518599606345,0.9750811984246209,-0.016084999389874725,-0.210394,-26.387659
11.185,2.0,1.0,1.0,34.0,33.0,33.0,2.4,3.2,2.7225,0.030578953773121458,-0.04578358400451458,0.9751411805570736,-0.017036016902990125,-0.214381,-26.222636
11.185,2.0,1.0,1.0,34.0,33.0,33.0,2.4,3.2,2.725,0.01714409335425775,-0.04641757884382463,0.9750094174537298,-0.01802243977557695,-0.218481,-26.056534
11.185,2.0,1.0,1.0,34.0,33.0,33.0,2.4,3.2,2.7275,0.003587664209820904,-0.04705298202882828,0.9746803335168424,-0.019045544167306167,-0.222697,-25.889335
11.185,2.0,1.0,1.0,34.0,33.0,33.0,2.4,3.2,2.73,-0.01008930154784619,-0.047689227833994416,0.9741482139324995,-0.02010665303245442,-0.227033,-25.721019
11.185,2.0,1.0,1.0,34.0,33.0,33.0,2.4,3.2,2.7325,-0.023885629281577354,-0.04832570276728151,0.9734072023924281,-0.021207137821139376,-0.231495,-25.551567
11.185,2.0,1.0,1.0,34.0,33.0,33.0,2.4,3.2,2.735,-0.03779999359652863,-0.04896174221971012,0.9724512988664876,-0.022348420237664625,-0.236086,-25.380959
11.185,2.0,1.0,1.0,34.0,33.0,33.0,2.4,3.2,2.7375,-0.051830909694314836,-0.04959662687718528,0.9712743574340157,-0.023531974057236015,-0.240812,-25.209174
11.185,2.0,1.0,1.0,34.0,33.0,33.0,2.4,3.2,2.74,-0.06597672429284142,-0.0502295788760494,0.969870084182732,-0.024759327002222865,-0.245678,-25.036191
11.185,2.0,1.0,1.0,34.0,33.0,33.0,2.4,3.2,2.7425,-0.08023560608921494,-0.05085975768218463,0.9682320351845349,-0.026032062679031243,-0.250689,-24.861989
11.185,2.0,1.0,1.0,34.0,33.0,33.0,2.4,3.2,2.745,-0.09460553574152228,-0.05148625567164442,0.9663536145581606,-0.027351822576508242,-0.255853,-24.686544
11.185,2.0,1.0,1.0,34.0,33.0,33.0,2.4,3.2,2.7475,-0.10908429534360689,-0.052108093388758873,0.964228072629369,-0.02872030812661634,-0.261173,-24.509833
11.185,2.0,1.0,1.0,34.0,33.0,33.0,2.4,3.2,2.75,-0.123669457365069,-0.0527242144554084,0.96184850420006,-0.030139282827886,-0.266658,-24.331833
11.185,2.0,1.0,1.0,34.0,33.0,33.0,2.4,3.2,2.7525,-0.1383583730266732,-0.053333480102660695,0.9592078469385579,-0.03161057443186889,-0.272314,-24.152518
11.185,2.0,1.0,1.0,34.0,33.0,33.0,2.4,3.2,2.755,-0.1531481600789694,-0.05393466329319207,0.9562988799041284,-0.03313607719245742,-0.278148,-23.971863
11.185,2.0,1.0,1.0,34.0,33.0,33.0,2.4,3.2,2.7575,-0.16803568994945306,-0.054526442399834014,0.9531142222197777,-0.034717754177504424,-0.284168,-23.789842
11.185,2.0,1.0,1.0,34.0,33.0,33.0,2.4,3.2,2.76,-0.1830175742206012,-0.05510739440214998,0.9496463319084392,-0.03635763964163271,-0.290381,-23.606427
11.185,2.0,1.0,1.0,34.0,33.0,33.0,2.4,3.2,2.7625,-0.1980901503980164,-0.05567598755912891,0.9458875049087805,-0.03805784145847552,-0.296797,-23.42159
11.185,2.0,1.0,1.0,34.0,33.0,33.0,2.4,3.2,2.765,-0.2132494669241858,-0.056230573511813035,0.9418298742881706,-0.03982054360978613,-0.303424,-23.235302
11.185,2.0,1.0,1.0,34.0,33.0,33.0,2.4,3.2,2.7675,-0.22849126738938663,-0.0567693787649149,0.9374654096718011,-0.041648008727881235,-0.310272,-23.047531
11.185,2.0,1.0,1.0,34.0,33.0,33.0,2.4,3.2,2.77,-0.2438109738866967,-0.0572904954911553,0.9327859169085663,-0.0435425806867077,-0.31735,-22.858248
11.185,2.0,1.0,1.0,34.0,33.0,33.0,2.4,3.2,2.7725,-0.25920366945285794,-0.05779187159608804,0.9277830379961693,-0.045506687235385576,-0.32467,-22.667418
11.185,2.0,1.0,1.0,34.0,33.0,33.0,2.4,3.2,2.775,-0.27466407953105143,-0.058271299974502026,0.9224482512900734,-0.04754284266635169,-0.332244,-22.475009
11.185,2.0,1.0,1.0,34.0,33.0,33.0,2.4,3.2,2.7775,-0.2901865523849382,-0.05872640688199779,0.9167728720233104,-0.04965365050813267,-0.340082,-22.280984
11.185,2.0,1.0,1.0,34.0,33.0,33.0,2.4,3.2,2.78,-0.30576503838604835,-0.059154639336924664,0.91074805316706,-0.05184180623024612,-0.348198,-22.085308
11.185,2.0,1.0,1.0,34.0,33.0,33.0,2.4,3.2,2.7825,-0.3213930680880103,-0.059553251458411796,0.9043647866651844,-0.05411009994466625,-0.356606,-21.887943
11.185,2.0,1.0,1.0,34.0,33.0,33.0,2.4,3.2,2.785,-0.33706372899180154,-0.05991928963559549,0.8976139050798219,-0.05646141908460955,-0.36532,-21.688848
11.185,2.0,1.0,1.0,34.0,33.0,33.0,2.4,3.2,2.7875,-0.3527696408951373,-0.06024957641117269,0.8904860836897085,-0.05889875103693004,-0.374356,-21.487983
11.185,2.0,1.0,1.0,34.0,33.0,33.0,2.4,3.2,2.79,-0.36850292970702214,-0.06054069294892464,0.8829718430883441,-0.061425185699049735,-0.383731,-21.285305
11.185,2.0,1.0,1.0,34.0,33.0,33.0,2.4,3.2,2.7925,-0.38425519959439336,-0.06078895993964729,0.8750615523355705,-0.06404391792485468,-0.393462,-21.080769
11.185,2.0,1.0,1.0,34.0,33.0,33.0,2.4,3.2,2.795,-0.40001750331201547,-0.060990416782762125,0.8667454327238228,-0.06675824981617128,-0.403569,-20.874328
11.185,2.0,1.0,1.0,34.0,33.0,33.0,2.4,3.2,2.7975,-0.4157803105485691,-0.061140798861510255,0.8580135622295698,-0.06957159280697806,-0.414072,-20.665935
11.185,2.0,1.0,1.0,34.0,33.0,33.0,2.4,3.2,2.8,-0.4315334741015709,-0.0612355127077398,0.8488558807314944,-0.07248746947611817,-0.424993,-20.455538
11.185,2.0,1.0,1.0,34.0,33.0,33.0,2.4,3.2,2.8025,-0.44726619367009274,-0.06126960882756584,0.8392621960902727,-0.07550951501049782,-0.436356,-20.243085
11.185,2.0,1.0,1.0,34.0,33.0,33.0,2.4,3.2,2.805,-0.46296697702792844,-0.06123775193121078,0.8292221912009037,-0.07864147822411491,-0.448186,-20.02852
11.185,2.0,1.0,1.0,34.0,33.0,33.0,2.4,3.2,2.8075,-0.47862359830932305,-0.061134188278713836,0.818725432147861,-0.08188722201814994,-0.46051,-19.811786
11.185,2.0,1.0,1.0,34.0,33.0,33.0,2.4,3.2,2.81,-0.49422305310516607,-0.060952709817436744,0.8077613776168129,-0.08525072314302731,-0.473359,-19.592822
11.185,2.0,1.0,1.0,34.0,33.0,33.0,2.4,3.2,2.8125,-0.5097515100282425,-0.060686614746857034,0.7963193897450644,-0.08873607109389084,-0.486765,-19.371566
11.185,2.0,1.0,1.0,34.0,33.0,33.0,2.4,3.2,2.815,-0.5251942583616918,-0.06032866410043965,0.7843887466272633,-0.09234746593529604,-0.500761,-19.14795
11.185,2.0,1.0,1.0,34.0,33.0,33.0,2.4,3.2,2.8175,-0.5405356513543704,-0.05987103388274537,0.7719586567348217,-0.09608921480767617,-0.515386,-18.921906
11.185,2.0,1.0,1.0,34.0,33.0,33.0,2.4,3.2,2.82,-0.5557590446693961,-0.05930526224166069,0.7590182755582879,-0.0999657268157017,-0.530681,-18.693363
11.185,2.0,1.0,1.0,34.0,33.0,33.0,2.4,3.2,2.8225,-0.570846729427477,-0.058622191089946235,0.7455567248438756,-0.10398150593498667,-0.546689,-18.462243
11.185,2.0,1.0,1.0,34.0,33.0,33.0,2.4,3.2,2.825,-0.5857798592131663,-0.05781190151636877,0.7315631148707541,-0.10814114149620685,-0.563459,-18.228468
11.185,2.0,1.0,1.0,34.0,33.0,33.0,2.4,3.2,2.8275,-0.6005383703297608,-0.0568636422436731,0.7170265703076923,-0.11244929571158495,-0.581044,-17.991955
