1,w,sub_t,h,l1,l2,l3,g1,g2,Freq,S11_re,S21_re,S11_img,S21_img,S11_dB,S21_dB
11.185,2.0,1.0,1.0,33.3,34.7,34.7,1.7,2.2,2.5,0.860887702219251,-0.0148152553282188,0.492484500913431,0.0160989287622329,-0.071512,-33.199662
11.185,2.0,1.0,1.0,33.3,34.7,34.7,1.7,2.2,2.5025,0.8574098151557158,-0.015184798903483836,0.498302249490842,0.01625295460751435,-0.072447,-33.056259
11.185,2.0,1.0,1.0,33.3,34.7,34.7,1.7,2.2,2.505,0.8538725545976175,-0.015563718503040872,0.5041242933804453,0.016407794513307365,-0.073406,-32.91201
11.185,2.0,1.0,1.0,33.3,34.7,34.7,1.7,2.2,2.5075,0.8502750938304804,-0.015952309235256427,0.5099504510671978,0.016563418240506982,-0.074389,-32.766897
11.185,2.0,1.0,1.0,33.3,34.7,34.7,1.7,2.2,2.51,0.8466165845158147,-0.016350878005509693,0.5157805328614989,0.016719792591143444,-0.075396,-32.6209
11.185,2.0,1.0,1.0,33.3,34.7,34.7,1.7,2.2,2.5125,0.8428961559013536,-0.016759744089832513,0.5216143404859104,0.016876881184567417,-0.076429,-32.473999
11.185,2.0,1.0,1.0,33.3,34.7,34.7,1.7,2.2,2.515,0.8391129139926576,-0.017179239741415008,0.5274516666374525,0.017034644216146477,-0.077489,-32.326175
11.185,2.0,1.0,1.0,33.3,34.7,34.7,1.7,2.2,2.5175,0.8352659406837336,-0.017609710832139646,0.5332922945236857,0.017193038196986258,-0.078576,-32.177406
11.185,2.0,1.0,1.0,33.3,34.7,34.7,1.7,2.2,2.52,0.8313542928441325,-0.01805151753147376,0.5391359973706843,0.017352015673051665,-0.079692,-32.027673
11.185,2.0,1.0,1.0,33.3,34.7,34.7,1.7,2.2,2.5225,0.8273770013598225,-0.018505035025218147,0.5449825379007803,0.017511524921909622,-0.080837,-31.876952
11.185,2.0,1.0,1.0,33.3,34.7,34.7,1.7,2.2,2.525,0.823333070124918,-0.01897065427680406,0.550831667777835,0.0176715096251469,-0.082014,-31.725222
11.185,2.0,1.0,1.0,33.3,34.7,34.7,1.7,2.2,2.5275,0.8192214749811407,-0.01944878283403115,0.5566831270175527,0.0178319085143292,-0.083222,-31.572459
11.185,2.0,1.0,1.0,33.3,34.7,34.7,1.7,2.2,2.53,0.8150411626016639,-0.019939845684362172,0.5625366433601362,0.017992654988162018,-0.084463,-31.418642
11.185,2.0,1.0,1.0,33.3,34.7,34.7,1.7,2.2,2.5325,0.8107910493157204,-0.020444286162130135,0.5683919316023492,0.018153676698285475,-0.085739,-31.263744
11.185,2.0,1.0,1.0,33.3,34.7,34.7,1.7,2.2,2.535,0.8064700198700991,-0.020962566911275165,0.5742486928857755,0.01831489510088303,-0.08705,-31.107742
11.185,2.0,1.0,1.0,33.3,34.7,34.7,1.7,2.2,2.5375,0.8020769261233571,-0.021495170907509575,0.5801066139377531,0.01847622497100349,-0.088399,-30.95061
11.185,2.0,1.0,1.0,33.3,34.7,34.7,1.7,2.2,2.54,0.7976105856682411,-0.022042602544119598,0.5859653662611506,0.018637573876186194,-0.089787,-30.792322
11.185,2.0,1.0,1.0,33.3,34.7,34.7,1.7,2.2,2.5425,0.7930697803774792,-0.022605388785944758,0.5918246052687749,0.018798841605633727,-0.091215,-30.632852
11.185,2.0,1.0,1.0,33.3,34.7,34.7,1.7,2.2,2.545,0.7884532548677159,-0.02318408039643993,0.5976839693577977,0.018959919550793992,-0.092685,-30.472172
11.185,2.0,1.0,1.0,33.3,34.7,34.7,1.7,2.2,2.5475,0.7837597148759606,-0.0237792532431198,0.6035430789191258,0.0191206900327867,-0.094198,-30.310253
11.185,2.0,1.0,1.0,33.3,34.7,34.7,1.7,2.2,2.55,0.7789878255424558,-0.02439150968711803,0.6094015352761744,0.01928102557163618,-0.095758,-30.147066
11.185,2.0,1.0,1.0,33.3,34.7,34.7,1.7,2.2,2.5525,0.7741362095934109,-0.025021480063058363,0.6152589195468859,0.01944078809174142,-0.097365,-29.982582
11.185,2.0,1.0,1.0,33.3,34.7,34.7,1.7,2.2,2.555,0.7692034454164924,-0.025669824255948576,0.6211147914222945,0.019599828057426688,-0.099021,-29.816769
11.185,2.0,1.0,1.0,33.3,34.7,34.7,1.7,2.2,2.5575,0.7641880650213972,-0.026337233382364145,0.6269686878541811,0.019757983531755285,-0.100729,-29.649596
11.185,2.0,1.0,1.0,33.3,34.7,34.7,1.7,2.2,2.56,0.7590885518772077,-0.027024431583792956,0.6328201216436298,0.019915079151052773,-0.102492,-29.48103
11.185,2.0,1.0,1.0,33.3,34.7,34.7,1.7,2.2,2.5625,0.7539033386175402,-0.027732177940676624,0.638668579921423,0.020070925006761515,-0.10431,-29.311036
11.185,2.0,1.0,1.0,33.3,34.7,34.7,1.7,2.2,2.565,0.7486308046037451,-0.028461268516405354,0.6445135225102703,0.02022531542532455,-0.106188,-29.139581
11.185,2.0,1.0,1.0,33.3,34.7,34.7,1.7,2.2,2.5675,0.7432692733356188,-0.02921253854131069,0.6503543801577544,0.02037802763575931,-0.108128,-28.966628
11.185,2.0,1.0,1.0,33.3,34.7,34.7,1.7,2.2,2.57,0.737817009698177,-0.02998686474756196,0.6561905526277164,0.020528820313419203,-0.110132,-28.792141
11.185,2.0,1.0,1.0,33.3,34.7,34.7,1.7,2.2,2.5725,0.7322722170320871,-0.030785167866812627,0.6620214066364165,0.020677431987131387,-0.112204,-28.61608
11.185,2.0,1.0,1.0,33.3,34.7,34.7,1.7,2.2,2.575,0.7266330340142823,-0.03160841530346851,0.6678462736182958,0.020823579295426185,-0.114347,-28.438407
11.185,2.0,1.0,1.0,33.3,34.7,34.7,1.7,2.2,2.5775,0.7208975313341374,-0.032457623997572925,0.6736644473044623,0.02096695507591378,-0.116564,-28.25908
11.185,2.0,1.0,1.0,33.3,34.7,34.7,1.7,2.2,2.58,0.7150637081493145,-0.03333386349252839,0.6794751810950769,0.02110722626999011,-0.11886,-28.078058
11.185,2.0,1.0,1.0,33.3,34.7,34.7,1.7,2.2,2.5825,0.7091294883039989,-0.03423825922421724,0.6852776852046676,0.021244031622937812,-0.121237,-27.895297
11.185,2.0,1.0,1.0,33.3,34.7,34.7,1.7,2.2,2.585,0.7030927162907581,-0.03517199604954378,0.6910711235569149,0.021376979157093752,-0.123701,-27.710752
11.185,2.0,1.0,1.0,33.3,34.7,34.7,1.7,2.2,2.5875,0.6969511529355813,-0.03613632203402383,0.6968546104026989,0.021505643393042687,-0.126255,-27.524376
11.185,2.0,1.0,1.0,33.3,34.7,34.7,1.7,2.2,2.59,0.6907024707838917,-0.03713255251979133,0.702627206632027,0.02162956229072078,-0.128904,-27.33612
11.185,2.0,1.0,1.0,33.3,34.7,34.7,1.7,2.2,2.5925,0.6843442491633247,-0.03816207449730298,0.7083879157469164,0.021748233878819665,-0.131654,-27.145936
11.185,2.0,1.0,1.0,33.3,34.7,34.7,1.7,2.2,2.595,0.677873968896961,-0.03922635130609873,0.7141356794582165,0.02186111253690735,-0.134509,-26.95377
11.185,2.0,1.0,1.0,33.3,34.7,34.7,1.7,2.2,2.5975,0.6712890066383301,-0.040326927692252094,0.7198693728647825,0.02196760489015946,-0.137476,-26.75957
11.185,2.0,1.0,1.0,33.3,34.7,34.7,1.7,2.2,2.6,0.6645866287969837,-0.041465435252612065,0.7255877991681192,0.02206706527143069,-0.14056,-26.56328
11.185,2.0,1.0,1.0,33.3,34.7,34.7,1.7,2.2,2.6025,0.6577639850206658,-0.04264359829863059,0.7312896838696291,0.02215879069950375,-0.143768,-26.364842
11.185,2.0,1.0,1.0,33.3,34.7,34.7,1.7,2.2,2.605,0.6508181011970813,-0.043863240175495324,0.7369736683907501,0.02224201531560873,-0.147108,-26.164196
11.185,2.0,1.0,1.0,33.3,34.7,34.7,1.7,2.2,2.6075,0.6437458719350281,-0.0451262900754538,0.7426383030484078,0.022315904212580864,-0.150587,-25.96128
11.185,2.0,1.0,1.0,33.3,34.7,34.7,1.7,2.2,2.61,0.636544052481111,-0.0464347903876458,0.7482820393092157,0.022379546582161732,-0.154212,-25.756029
11.185,2.0,1.0,1.0,33.3,34.7,34.7,1.7,2.2,2.6125,0.6292092500244555,-0.04779090463046,0.7539032212355324,0.022431948095762422,-0.157994,-25.548377
11.185,2.0,1.0,1.0,33.3,34.7,34.7,1.7,2.2,2.615,0.6217379143377326,-0.04919692601640507,0.7595000760246028,0.022472022422283817,-0.161941,-25.338252
11.185,2.0,1.0,1.0,33.3,34.7,34.7,1.7,2.2,2.6175,0.614126327698449,-0.05065528670373545,0.7650707035283085,0.022498581773072793,-0.166063,-25.125584
11.185,2.0,1.0,1.0,33.3,34.7,34.7,1.7,2.2,2.62,0.6063705940297534,-0.05216856779359607,0.7706130646252795,0.022510326348485425,-0.170373,-24.910296
11.185,2.0,1.0,1.0,33.3,34.7,34.7,1.7,2.2,2.6225,0.5984666271951026,-0.05373951013622334,0.7761249682988487,0.022505832542476314,-0.17488,-24.692309
11.185,2.0,1.0,1.0,33.3,34.7,34.7,1.7,2.2,2.625,0.590410138375961,-0.0553710260147304,0.781604057253182,0.0224835397407154,-0.1796,-24.471542
11.185,2.0,1.0,1.0,33.3,34.7,34.7,1.7,2.2,2.6275,0.5821966224563276,-0.05706621178016669,0.7870477918754111,0.022441735523458572,-0.184545,-24.247909
11.185,2.0,1.0,1.0,33.3,34.7,34.7,1.7,2.2,2.63,0.5738213433324647,-0.05882836151677442,0.792453432323078,0.022378539056175997,-0.189731,-24.021321
11.185,2.0,1.0,1.0,33.3,34.7,34.7,1.7,2.2,2.6325,0.5652793180607352,-0.060660981821568545,0.7978180184830377,0.022291882418071132,-0.195174,-23.791685
11.185,2.0,1.0,1.0,33.3,34.7,34.7,1.7,2.2,2.635,0.5565652997512156,-0.0625678077873539,0.8031383475092735,0.022179489580276497,-0.200893,-23.558904
11.185,2.0,1.0,1.0,33.3,34.7,34.7,1.7,2.2,2.6375,0.5476737591099183,-0.06455282028282373,0.8084109486018737,0.022038852700692356,-0.206908,-23.322877
11.185,2.0,1.0,1.0,33.3,34.7,34.7,1.7,2.2,2.64,0.5385988645283499,-0.06662026462714703,0.8136320546365418,0.021867205349959618,-0.213239,-23.083498
11.185,2.0,1.0,1.0,33.3,34.7,34.7,1.7,2.2,2.6425,0.5293344606162793,-0.06877467075895402,0.8187975701919533,0.02166149222150959,-0.21991,-22.840655
11.185,2.0,1.0,1.0,33.3,34.7,34.7,1.7,2.2,2.645,0.5198740450724816,-0.07102087500030901,0.8239030354494464,0.021418334806316594,-0.226948,-22.594234
11.185,2.0,1.0,1.0,33.3,34.7,34.7,1.7,2.2,2.6475,0.5102107437897642,-0.07336404351424972,0.8289435853537748,0.021133992427859426,-0.23438,-22.344113
11.185,2.0,1.0,1.0,33.3,34.7,34.7,1.7,2.2,2.65,0.5003372840958328,-0.07580969754869657,0.8339139033226232,0.020804317932433744,-0.242237,-22.090165
11.185,2.0,1.0,1.0,33.3,34.7,34.7,1.7,2.2,2.6525,0.49024596604203685,-0.07836374054848784,0.8388081686732116,0.020424707211424312,-0.250555,-21.832256
11.185,2.0,1.0,1.0,33.3,34.7,34.7,1.7,2.2,2.655,0.47992863166957117,-0.0810324871990522,0.8436199967932082,0.019990041591913695,-0.25937,-21.570249
11.185,2.0,1.0,1.0,33.3,34.7,34.7,1.7,2.2,2.6575,0.46937663221013204,-0.08382269443710207,0.8483423709159159,0.019494621965850577,-0.268725,-21.303996
11.185,2.0,1.0,1.0,33.3,34.7,34.7,1.7,2.2,2.66,0.4585807932186157,-0.08674159442227666,0.8529675641613299,0.018932093330832934,-0.278666,-21.033345
11.185,2.0,1.0,1.0,33.3,34.7,34.7,1.7,2.2,2.6625,0.44753137769397006,-0.08979692940420374,0.857487050268893,0.018295358181274708,-0.289245,-20.758133
11.185,2.0,1.0,1.0,33.3,34.7,34.7,1.7,2.2,2.665,0.43621804732686975,-0.0929969883358063,0.8618914011673802,0.017576476909987565,-0.300518,-20.478194
11.185,2.0,1.0,1.0,33.3,34.7,34.7,1.7,2.2,2.6675,0.42462982212780087,-0.09635064496758804,0.8661701691933417,0.016766553048256565,-0.31255,-20.193348
11.185,2.0,1.0,1.0,33.3,34.7,34.7,1.7,2.2,2.67,0.41275503884725434,-0.09986739699815014,0.8703117513715307,0.01585560077684327,-0.325413,-19.903411
11.185,2.0,1.0,1.0,33.3,34.7,34.7,1.7,2.2,2.6725,0.4005813088157898,-0.10355740563862777,0.8743032326960848,0.014832391668581402,-0.339186,-19.608185
11.185,2.0,1.0,1.0,33.3,34.7,34.7,1.7,2.2,2.675,0.3880954761252761,-0.10743153465354258,0.8781302047852309,0.013684277060659224,-0.353959,-19.307466
11.185,2.0,1.0,1.0,33.3,34.7,34.7,1.7,2.2,2.6775,0.37528357746970264,-0.11150138754162375,0.8817765556075533,0.012396981784134994,-0.369834,-19.001038
11.185,2.0,1.0,1.0,33.3,34.7,34.7,1.7,2.2,2.68,0.3621308054996991,-0.11577934098240773,0.8852242251744668,0.01095436417989625,-0.386925,-18.688674
11.185,2.0,1.0,1.0,33.3,34.7,34.7,1.7,2.2,2.6825,0.34862147826621925,-0.1202785719510094,0.8884529211387159,0.009338136381697613,-0.405362,-18.370136
11.185,2.0,1.0,1.0,33.3,34.7,34.7,1.7,2.2,2.685,0.33473901829865044,-0.12501307493140598,0.8914397871075994,0.007527537723387091,-0.425291,-18.045173
11.185,2.0,1.0,1.0,33.3,34.7,34.7,1.7,2.2,2.6875,0.32046594616569873,-0.12999766435332916,0.8941590151456698,0.005498952802981269,-0.446881,-17.713525
11.185,2.0,1.0,1.0,33.3,34.7,34.7,1.7,2.2,2.69,0.3057838951174812,-0.13524795562576494,0.8965813923793595,0.0032254641856561813,-0.470323,-17.374916
11.185,2.0,1.0,1.0,33.3,34.7,34.7,1.7,2.2,2.6925,0.2906736557574157,-0.14078031578832728,0.898673769803958,0.0006763279303139907,-0.495837,-17.029061
11.185,2.0,1.0,1.0,33.3,34.7,34.7,1.7,2.2,2.695,0.27511526284875976,-0.14661177164488695,0.9003984393214102,-0.0021836419292393066,-0.523674,-16.67566
11.185,2.0,1.0,1.0,33.3,34.7,34.7,1.7,2.2,2.6975,0.2590881405991952,-0.15275985900606437,0.9017124027177545,-0.005394796114244041,-0.554128,-16.314402
11.185,2.0,1.0,1.0,33.3,34.7,34.7,1.7,2.2,2.7,0.24257132845872906,-0.15924239097881132,0.9025665137746999,-0.009003498693279079,-0.587534,-15.944965
11.185,2.0,1.0,1.0,33.3,34.7,34.7,1.7,2.2,2.7025,0.22554381710570973,-0.16607711560915517,0.9029044721256818,-0.013063122736122049,-0.624287,-15.567017
11.185,2.0,1.0,1.0,33.3,34.7,34.7,1.7,2.2,2.705,0.20798503454011677,-0.17328122295372514,0.9026616450580055,-0.01763521659175445,-0.664845,-15.180219
11.185,2.0,1.0,1.0,33.3,34.7,34.7,1.7,2.2,2.7075,0.18987553591580913,-0.1808706479668058,0.9017636916733407,-0.02279086608570114,-0.709744,-14.784224
11.185,2.0,1.0,1.0,33.3,34.7,34.7,1.7,2.2,2.71,0.171197969044426,-0.18885909732731654,0.9001249634145451,-0.02861227826571317,-0.759619,-14.378687
11.185,2.0,1.0,1.0,33.3,34.7,34.7,1.7,2.2,2.7125,0.15193841181525428,-0.19725670407972518,0.8976466572264642,-0.035194609978602576,-0.815215,-13.963267
11.185,2.0,1.0,1.0,33.3,34.7,34.7,1.7,2.2,2.715,0.13208820984435768,-0.20606818198895893,0.8942147046290742,-0.04264805744572051,-0.877422,-13.537634
11.185,2.0,1.0,1.0,33.3,34.7,34.7,1.7,2.2,2.7175,0.11164648452121766,-0.21529030979943664,0.8896973950859636,-0.05110020777716214,-0.947297,-13.101484
11.185,2.0,1.0,1.0,33.3,34.7,34.7,1.7,2.2,2.72,0.09062353538566877,-0.2249085220422912,0.8839427605119213,-0.06069862476620289,-1.026108,-12.654549
11.185,2.0,1.0,1.0,33.3,34.7,34.7,1.7,2.2,2.7225,0.06904542817509045,-0.23489231595242238,0.8767757977189022,-0.07161359120777194,-1.11538,-12.196618
11.185,2.0,1.0,1.0,33.3,34.7,34.7,1.7,2.2,2.725,0.04696014121789852,-0.24518910319743262,0.8679956893795339,-0.08404084608229144,-1.216955,-11.727564
11.185,2.0,1.0,1.0,33.3,34.7,34.7,1.7,2.2,2.7275,0.02444573484508519,-0.2557160438123412,0.8573733198815533,-0.09820401909796746,-1.333072,-11.247377
11.185,2.0,1.0,1.0,33.3,34.7,34.7,1.7,2.2,2.73,0.0016211003780566959,-0.26634930881930363,0.8446495961087135,-0.11435625152795963,-1.466452,-10.756209
11.185,2.0,1.0,1.0,33.3,34.7,34.7,1.7,2.2,2.7325,-0.02134008823571229,-0.2769101528317199,0.8295354094194749,-0.13278016646995075,-1.620428,-10.254432
11.185,2.0,1.0,1.0,33.3,34.7,34.7,1.7,2.2,2.735,-0.04419160736240172,-0.2871471899876286,0.8117145561322595,-0.15378487163957433,-1.79908,-9.742711
11.185,2.0,1.0,1.0,33.3,34.7,34.7,1.7,2.2,2.7375,-0.06659267115341869,-0.2967144514290988,0.790851611388931,-0.17769800229960744,-2.007416,-9.222106
11.185,2.0,1.0,1.0,33.3,34.7,34.7,1.7,2.2,2.74,-0.08808176302660796,-0.30514532434691216,0.7666076436885483,-0.20484992324529214,-2.251579,-8.694181
11.185,2.0,1.0,1.0,33.3,34.7,34.7,1.7,2.2,2.7425,-0.10804751557004008,-0.3118235892649976,0.7386677078235301,-0.23554616462569042,-2.539076,-8.161156
11.185,2.0,1.0,1.0,33.3,34.7,34.7,1.7,2.2,2.745,-0.12569991300065908,-0.31595484155582043,0.7067850301045289,-0.27002320003485036,-2.879015,-7.626071
11.185,2.0,1.0,1.0,33.3,34.7,34.7,1.7,2.2,2.7475,-0.14004851171034613,-0.31654499909614886,0.6708471288867547,-0.30838235998673813,-3.282262,-7.092968
11.185,2.0,1.0,1.0,33.3,34.7,34.7,1.7,2.2,2.75,-0.149899349676622,-0.312397557863224,0.630967672644168,-0.35049813121499,-3.76141,-6.567073
11.185,2.0,1.0,1.0,33.3,34.7,34.7,1.7,2.2,2.7525,-0.15388820859640434,-0.3021472189120749,0.587602872771767,-0.3959021112468932,-4.330222,-6.054933
11.185,2.0,1.0,1.0,33.3,34.7,34.7,1.7,2.2,2.755,-0.15057269528716347,-0.28435226060528795,0.541680506351348,-0.44365458818013354,-5.001894,-5.564466
11.185,2.0,1.0,1.0,33.3,34.7,34.7,1.7,2.2,2.7575,-0.1386043279858179,-0.2576666804136617,0.4947122329719582,-0.49223310777134793,-5.784761,-5.104837
11.185,2.0,1.0,1.0,33.3,34.7,34.7,1.7,2.2,2.76,-0.11698704431488466,-0.22109830319873328,0.4488388612532019,-0.53948829630683,-6.672742,-4.686078
11.185,2.0,1.0,1.0,33.3,34.7,34.7,1.7,2.2,2.7625,-0.08539413813256717,-0.1743246536975305,0.4067447458920325,-0.5827305107963787,-7.626236,-4.318406
11.185,2.0,1.0,1.0,33.3,34.7,34.7,1.7,2.2,2.765,-0.04446564417575656,-0.11798855822133392,0.3713906289363579,-0.6189975661659076,-8.541569,-4.011228
11.185,2.0,1.0,1.0,33.3,34.7,34.7,1.7,2.2,2.7675,0.004033437168466438,-0.0538541427873621,0.3455701300197783,-0.6454978289580333,-9.228684,-3.771979
11.185,2.0,1.0,1.0,33.3,34.7,34.7,1.7,2.2,2.77,0.0573070886539339,0.015289126283747125,0.33138469699292905,-0.6601335756797436,-9.465377,-3.605035
11.185,2.0,1.0,1.0,33.3,34.7,34.7,1.7,2.2,2.7725,0.11190695170669532,0.08600608721428231,0.32980671860904404,-0.6619351472248379,-9.161548,-3.510985
11.185,2.0,1.0,1.0,33.3,34.7,34.7,1.7,2.2,2.775,0.16430155000359442,0.15478450494126011,0.3404973555496832,-0.6512401480729082,-8.448661,-3.486522
11.185,2.0,1.0,1.0,33.3,34.7,34.7,1.7,2.2,2.7775,0.21144797089256778,0.2186047288567977,0.36194567770858677,-0.6295521095848494,-7.551914,-3.524959
11.185,2.0,1.0,1.0,33.3,34.7,34.7,1.7,2.2,2.78,0.25118414419033475,0.27532930295757907,0.3918569981796458,-0.5991513719051883,-6.642506,-3.617219
11.185,2.0,1.0,1.0,33.3,34.7,34.7,1.7,2.2,2.7825,0.2823577654201807,0.3238295162539966,0.42763062818141373,-0.5626179299811455,-5.807154,-3.753008
11.185,2.0,1.0,1.0,33.3,34.7,34.7,1.7,2.2,2.785,0.30472431301830416,0.36388195358570913,0.4667732804206528,-0.5224194593634561,-5.076109,-3.921889
11.185,2.0,1.0,1.0,33.3,34.7,34.7,1.7,2.2,2.7875,0.31871367835962994,0.39593466908669356,0.5071647850001637,-0.4806471787522355,-4.451542,-4.114079
11.185,2.0,1.0,1.0,33.3,34.7,34.7,1.7,2.2,2.79,0.3251675540034853,0.4208448696914912,0.5471695536302009,-0.4389056351753661,-3.924072,-4.320935
11.185,2.0,1.0,1.0,33.3,34.7,34.7,1.7,2.2,2.7925,0.32511451229387917,0.4396546732951885,0.5856331213735524,-0.39831689568320305,-3.480772,-4.535158
11.185,2.0,1.0,1.0,33.3,34.7,34.7,1.7,2.2,2.795,0.31960935481200553,0.4534312216028343,0.6218142680856743,-0.3595886711784859,-3.10866,-4.750798
11.185,2.0,1.0,1.0,33.3,34.7,34.7,1.7,2.2,2.7975,0.3096355387891798,0.4631697783899052,0.6552936718739634,-0.32310554299672495,-2.796059,-4.963136
11.185,2.0,1.0,1.0,33.3,34.7,34.7,1.7,2.2,2.8,0.29605677183299406,0.469745836057773,0.68588444854393,-0.28901806950428033,-2.53298,-5.168514
11.185,2.0,1.0,1.0,33.3,34.7,34.7,1.7,2.2,2.8025,0.27960153185400627,0.47389998379324183,0.713556568509949,-0.25731788095697744,-2.311104,-5.36415
11.185,2.0,1.0,1.0,33.3,34.7,34.7,1.7,2.2,2.805,0.26086690132609885,0.4762419513959085,0.7383784827590809,-0.2278954917304036,-2.123594,-5.547964
11.185,2.0,1.0,1.0,33.3,34.7,34.7,1.7,2.2,2.8075,0.24033207996660982,0.47726422377943895,0.7604747829810593,-0.20058203346640113,-1.964873,-5.71842
11.185,2.0,1.0,1.0,33.3,34.7,34.7,1.7,2.2,2.81,0.2183755157122687,0.4773591921235857,0.7799969600481794,-0.17517785172621425,-1.830411,-5.874402
11.185,2.0,1.0,1.0,33.3,34.7,34.7,1.7,2.2,2.8125,0.195292230264158,0.476836435538013,0.797104056689949,-0.151471163655213,-1.716534,-6.015105
11.185,2.0,1.0,1.0,33.3,34.7,34.7,1.7,2.2,2.815,0.1713096416343484,0.47593844443382727,0.8119504026741824,-0.1292495738842155,-1.620264,-6.139956
11.185,2.0,1.0,1.0,33.3,34.7,34.7,1.7,2.2,2.8175,0.14660121878732615,0.4748541214495777,0.8246782124291295,-0.10830664960499835,-1.53919,-6.248546
11.185,2.0,1.0,1.0,33.3,34.7,34.7,1.7,2.2,2.82,0.12129787017358669,0.47372995528567735,0.8354133984156098,-0.08844517914974875,-1.471367,-6.340581
11.185,2.0,1.0,1.0,33.3,34.7,34.7,1.7,2.2,2.8225,0.09549724722366078,0.47267903520316995,0.8442634279482748,-0.06947826114463068,-1.415227,-6.415841
11.185,2.0,1.0,1.0,33.3,34.7,34.7,1.7,2.2,2.825,0.06927125813144108,0.47178818099794945,0.8513164124105973,-0.05122900694276294,-1.36952,-6.474152
11.185,2.0,1.0,1.0,33.3,34.7,34.7,1.7,2.2,2.8275,0.042672113795482296,0.4711234815133353,0.8566408790652764,-0.03352937408699861,-1.333261,-6.515363
11.185,2.0,1.0,1.0,33.3,34.7,34.7,1.7,2.2,2.83,0.015737212537081532,0.4707345093001118,0.8602858579085201,-0.016218461881087467,-1.305691,-6.539327
11.185,2.0,1.0,1.0,33.3,34.7,34.7,1.7,2.2,2.8325,-0.01150686088999028,0.47065743482959604,0.8622810395957461,0.000859528599944006,-1.28625,-6.545887
