1,w,sub_t,h,l1,l2,l3,g1,g2,Freq,S11_re,S21_re,S11_img,S21_img,S11_dB,S21_dB
11.185,2.0,1.0,1.0,34.8,34.2,34.2,1.8,2.0,2.5,0.627442590529943,-0.0303973356992792,0.764467847308602,0.0147219997824649,-0.096188,-29.428151
11.185,2.0,1.0,1.0,34.8,34.2,34.2,1.8,2.0,2.5025,0.620394768778492,-0.031000572883628078,0.7699978486213205,0.014652272352035714,-0.09756,-29.296944
11.185,2.0,1.0,1.0,34.8,34.2,34.2,1.8,2.0,2.505,0.6132509246446167,-0.03161549626623875,0.7754960562170833,0.014574898954135615,-0.098962,-29.165091
11.185,2.0,1.0,1.0,34.8,34.2,34.2,1.8,2.0,2.5075,0.6060099977232899,-0.03224234206111744,0.7809611923774591,0.014489553277534251,-0.100394,-29.032583
11.185,2.0,1.0,1.0,34.8,34.2,34.2,1.8,2.0,2.51,0.5986709168301532,-0.032881351176510164,0.7863919393226123,0.014395895468649684,-0.101858,-28.899408
11.185,2.0,1.0,1.0,34.8,34.2,34.2,1.8,2.0,2.5125,0.591232600148159,-0.033532769268414,0.7917869378813418,0.014293571519469002,-0.103355,-28.765558
11.185,2.0,1.0,1.0,34.8,34.2,34.2,1.8,2.0,2.515,0.5836939553947634,-0.034196846790171445,0.7971447861128711,0.014182212624725268,-0.104886,-28.631021
11.185,2.0,1.0,1.0,34.8,34.2,34.2,1.8,2.0,2.5175,0.576053880011086,-0.034873839037584745,0.8024640378783645,0.014061434506611644,-0.106451,-28.495787
11.185,2.0,1.0,1.0,34.8,34.2,34.2,1.8,2.0,2.52,0.5683112613745258,-0.035564006188938777,0.8077432013600653,0.013930836705205422,-0.108053,-28.359844
11.185,2.0,1.0,1.0,34.8,34.2,34.2,1.8,2.0,2.5225,0.5604649770364672,-0.03626761333925069,0.8129807375258217,0.013790001832661632,-0.109693,-28.223181
11.185,2.0,1.0,1.0,34.8,34.2,34.2,1.8,2.0,2.525,0.5525138949867524,-0.0369849305280057,0.8181750585366796,0.013638494789112374,-0.11137,-28.085787
11.185,2.0,1.0,1.0,34.8,34.2,34.2,1.8,2.0,2.5275,0.5444568739467642,-0.037716232759558516,0.8233245260950763,0.013475861938077892,-0.113088,-27.94765
11.185,2.0,1.0,1.0,34.8,34.2,34.2,1.8,2.0,2.53,0.5362927636930678,-0.03846180001530213,0.8284274497310475,0.013301630239055806,-0.114848,-27.808758
11.185,2.0,1.0,1.0,34.8,34.2,34.2,1.8,2.0,2.5325,0.5280204054136918,-0.039221917256614836,0.8334820850237245,0.013115306334803995,-0.11665,-27.669099
11.185,2.0,1.0,1.0,34.8,34.2,34.2,1.8,2.0,2.535,0.5196386320992753,-0.03999687441749965,0.8384866317552504,0.012916375590673308,-0.118496,-27.52866
11.185,2.0,1.0,1.0,34.8,34.2,34.2,1.8,2.0,2.5375,0.5111462689714653,-0.0407869663857218,0.8434392319940758,0.012704301083173974,-0.120388,-27.387429
11.185,2.0,1.0,1.0,34.8,34.2,34.2,1.8,2.0,2.54,0.5025421339511148,-0.04159249297113206,0.8483379681044476,0.012478522534775143,-0.122328,-27.245391
11.185,2.0,1.0,1.0,34.8,34.2,34.2,1.8,2.0,2.5425,0.4938250381690031,-0.04241375885973464,0.8531808606787027,0.012238455191739774,-0.124317,-27.102535
11.185,2.0,1.0,1.0,34.8,34.2,34.2,1.8,2.0,2.545,0.48499378652201813,-0.04325107355191258,0.8579658663888042,0.011983488641585086,-0.126357,-26.958846
11.185,2.0,1.0,1.0,34.8,34.2,34.2,1.8,2.0,2.5475,0.47604717827792725,-0.044104751283068136,0.8626908757533395,0.01171298556653202,-0.12845,-26.81431
11.185,2.0,1.0,1.0,34.8,34.2,34.2,1.8,2.0,2.55,0.4669840077321028,-0.04497511092476181,0.8673537108159892,0.011426280429061842,-0.130597,-26.668913
11.185,2.0,1.0,1.0,34.8,34.2,34.2,1.8,2.0,2.5525,0.4578030649198397,-0.04586247586423921,0.8719521227312285,0.011122678085438037,-0.132801,-26.522641
11.185,2.0,1.0,1.0,34.8,34.2,34.2,1.8,2.0,2.555,0.4485031363881171,-0.04676717386002803,0.8764837892527868,0.010801452322768149,-0.135064,-26.375477
11.185,2.0,1.0,1.0,34.8,34.2,34.2,1.8,2.0,2.5575,0.4390830060310135,-0.047689536871051035,0.880946312120111,0.010461844314879464,-0.137388,-26.227407
11.185,2.0,1.0,1.0,34.8,34.2,34.2,1.8,2.0,2.56,0.42954145599326493,-0.04862990085644473,0.8853372143377722,0.010103060991955997,-0.139776,-26.078416
11.185,2.0,1.0,1.0,34.8,34.2,34.2,1.8,2.0,2.5625,0.41987726764681665,-0.049588605542987586,0.8896539373424779,0.009724273318536288,-0.142229,-25.928486
11.185,2.0,1.0,1.0,34.8,34.2,34.2,1.8,2.0,2.565,0.41008922264559305,-0.05056599415672976,0.893893838051984,0.00932461447409382,-0.14475,-25.777602
11.185,2.0,1.0,1.0,34.8,34.2,34.2,1.8,2.0,2.5675,0.4001761040641508,-0.051562413115065625,0.8980541857898491,0.00890317793001835,-0.147342,-25.625746
11.185,2.0,1.0,1.0,34.8,34.2,34.2,1.8,2.0,2.57,0.39013669762629316,-0.052578211675105985,0.9021321590795977,0.008459015416381308,-0.150008,-25.472902
11.185,2.0,1.0,1.0,34.8,34.2,34.2,1.8,2.0,2.5725,0.3799697930302554,-0.05361374153378245,0.9061248423014219,0.007991134771397975,-0.15275,-25.319051
11.185,2.0,1.0,1.0,34.8,34.2,34.2,1.8,2.0,2.575,0.36967418537760305,-0.05466935637463874,0.9100292222041059,0.007498497665996313,-0.155572,-25.164176
11.185,2.0,1.0,1.0,34.8,34.2,34.2,1.8,2.0,2.5775,0.35924867671358496,-0.055745411355745074,0.9138421842643881,0.006980017195357137,-0.158477,-25.008256
11.185,2.0,1.0,1.0,34.8,34.2,34.2,1.8,2.0,2.58,0.3486920776873519,-0.056842262532582476,0.917560508885418,0.006434555328705388,-0.161467,-24.851275
11.185,2.0,1.0,1.0,34.8,34.2,34.2,1.8,2.0,2.5825,0.33800320934114303,-0.05796026620910467,0.9211808674254374,0.00586092020799938,-0.164547,-24.693211
11.185,2.0,1.0,1.0,34.8,34.2,34.2,1.8,2.0,2.585,0.3271809050383891,-0.059099778209459435,0.9246998180471844,0.005257863285486553,-0.167721,-24.534044
11.185,2.0,1.0,1.0,34.8,34.2,34.2,1.8,2.0,2.5875,0.3162240125415135,-0.06026115306205481,0.9281138013778601,0.004624076289359351,-0.170991,-24.373755
11.185,2.0,1.0,1.0,34.8,34.2,34.2,1.8,2.0,2.59,0.3051313962512242,-0.06144474308676372,0.9314191359688039,0.003958188005954394,-0.174363,-24.21232
11.185,2.0,1.0,1.0,34.8,34.2,34.2,1.8,2.0,2.5925,0.293901939620125,-0.06265089737506892,0.9346120135432466,0.0032587608660865517,-0.17784,-24.04972
11.185,2.0,1.0,1.0,34.8,34.2,34.2,1.8,2.0,2.595,0.28253454775471154,-0.06387996065183989,0.9376884940196746,0.0025242873221911336,-0.181427,-23.885931
11.185,2.0,1.0,1.0,34.8,34.2,34.2,1.8,2.0,2.5975,0.2710281502210847,-0.0651322720062035,0.9406445002974723,0.0017531860019556283,-0.185129,-23.72093
11.185,2.0,1.0,1.0,34.8,34.2,34.2,1.8,2.0,2.6,0.25938170407121686,-0.06640816347758649,0.9434758127905218,0.0009437976230570247,-0.18895,-23.554693
11.185,2.0,1.0,1.0,34.8,34.2,34.2,1.8,2.0,2.6025,0.24759419710823077,-0.06770795848146259,0.9461780636934078,9.438065247197504e-05,-0.192897,-23.387197
11.185,2.0,1.0,1.0,34.8,34.2,34.2,1.8,2.0,2.605,0.23566465141093076,-0.0690319700576193,0.9487467309637526,-0.0007968933074143179,-0.196974,-23.218416
11.185,2.0,1.0,1.0,34.8,34.2,34.2,1.8,2.0,2.6075,0.22359212713989177,-0.0703804989218159,0.9511771320030046,-0.0017319444250026063,-0.201188,-23.048324
11.185,2.0,1.0,1.0,34.8,34.2,34.2,1.8,2.0,2.61,0.21137572664962778,-0.0717538312995449,0.9534644170166755,-0.0027127898585177484,-0.205545,-22.876895
11.185,2.0,1.0,1.0,34.8,34.2,34.2,1.8,2.0,2.6125,0.1990145989338944,-0.07315223651817297,0.9556035620336439,-0.0037415493099693512,-0.210051,-22.704101
11.185,2.0,1.0,1.0,34.8,34.2,34.2,1.8,2.0,2.615,0.18650794443398483,-0.07457596433101282,0.957589361562611,-0.004820450937771887,-0.214714,-22.529915
11.185,2.0,1.0,1.0,34.8,34.2,34.2,1.8,2.0,2.6175,0.17385502024305274,-0.07602524194380013,0.9594164208621712,-0.005951837653536018,-0.21954,-22.354307
11.185,2.0,1.0,1.0,34.8,34.2,34.2,1.8,2.0,2.62,0.16105514574300459,-0.07750027071060737,0.9610791477992157,-0.0071381738304481515,-0.224539,-22.177248
11.185,2.0,1.0,1.0,34.8,34.2,34.2,1.8,2.0,2.6225,0.1481077087144795,-0.07900122246233184,0.962571744268516,-0.008382052452693757,-0.229717,-21.998707
11.185,2.0,1.0,1.0,34.8,34.2,34.2,1.8,2.0,2.625,0.135012171964934,-0.0805282354265147,0.963888197144321,-0.00968620273755158,-0.235085,-21.818653
11.185,2.0,1.0,1.0,34.8,34.2,34.2,1.8,2.0,2.6275,0.12176808052479376,-0.08208140969230686,0.9650222687326766,-0.011053498264110135,-0.24065,-21.637052
11.185,2.0,1.0,1.0,34.8,34.2,34.2,1.8,2.0,2.63,0.10837506946738473,-0.08366080216880988,0.9659674866908826,-0.012486965645016314,-0.246425,-21.453871
11.185,2.0,1.0,1.0,34.8,34.2,34.2,1.8,2.0,2.6325,0.0948328724146747,-0.08526642097871356,0.9667171333781017,-0.013989793780278478,-0.252419,-21.269075
11.185,2.0,1.0,1.0,34.8,34.2,34.2,1.8,2.0,2.635,0.08114133079809473,-0.08689821922200516,0.9672642345985704,-0.01556534373489769,-0.258643,-21.08263
11.185,2.0,1.0,1.0,34.8,34.2,34.2,1.8,2.0,2.6375,0.06730040395189604,-0.08855608803643915,0.9676015476961863,-0.017217159284990062,-0.26511,-20.894497
11.185,2.0,1.0,1.0,34.8,34.2,34.2,1.8,2.0,2.64,0.053310180125658996,-0.090239848872289,0.9677215489564415,-0.018948978180084747,-0.271832,-20.704639
11.185,2.0,1.0,1.0,34.8,34.2,34.2,1.8,2.0,2.6425,0.03917088851313829,-0.09194924488848687,0.9676164202687673,-0.020764744172398052,-0.278824,-20.513016
11.185,2.0,1.0,1.0,34.8,34.2,34.2,1.8,2.0,2.645,0.024882912406432325,-0.09368393136544553,0.9672780349993664,-0.022668619867100313,-0.2861,-20.319588
11.185,2.0,1.0,1.0,34.8,34.2,34.2,1.8,2.0,2.6475,0.010446803598021215,-0.09544346501640555,0.9666979430216047,-0.024665000450836826,-0.293677,-20.124313
11.185,2.0,1.0,1.0,34.8,34.2,34.2,1.8,2.0,2.65,-0.004136701831494967,-0.09722729206386076,0.9658673548479939,-0.026758528359019002,-0.301571,-19.927147
11.185,2.0,1.0,1.0,34.8,34.2,34.2,1.8,2.0,2.6525,-0.018866666184537126,-0.09903473493017818,0.9647771248048951,-0.028954108945561576,-0.3098,-19.728046
11.185,2.0,1.0,1.0,34.8,34.2,34.2,1.8,2.0,2.655,-0.03374193110135576,-0.10086497737166522,0.9634177331882742,-0.031256927221761786,-0.318383,-19.526963
11.185,2.0,1.0,1.0,34.8,34.2,34.2,1.8,2.0,2.6575,-0.04876109660045607,-0.10271704786265128,0.9617792673363862,-0.033672465733723456,-0.327343,-19.323852
11.185,2.0,1.0,1.0,34.8,34.2,34.2,1.8,2.0,2.66,-0.06392249798069796,-0.1045898010102484,0.9598514015532122,-0.03620652365001173,-0.336701,-19.118661
11.185,2.0,1.0,1.0,34.8,34.2,34.2,1.8,2.0,2.6625,-0.07922418033142858,-0.10648189675083829,0.9576233758150768,-0.03886523713285063,-0.346482,-18.91134
11.185,2.0,1.0,1.0,34.8,34.2,34.2,1.8,2.0,2.665,-0.09466387036310511,-0.10839177704545089,0.9550839731923962,-0.041655101066906494,-0.356712,-18.701837
11.185,2.0,1.0,1.0,34.8,34.2,34.2,1.8,2.0,2.6675,-0.11023894523194139,-0.11031763975240098,0.9522214959192264,-0.04458299221917622,-0.36742,-18.490096
11.185,2.0,1.0,1.0,34.8,34.2,34.2,1.8,2.0,2.67,-0.12594639798770166,-0.11225740931110012,0.9490237400456685,-0.04765619390132885,-0.378635,-18.276061
11.185,2.0,1.0,1.0,34.8,34.2,34.2,1.8,2.0,2.6725,-0.14178279922263112,-0.11420870382000177,0.9454779686127942,-0.05088242220146032,-0.390391,-18.059674
11.185,2.0,1.0,1.0,34.8,34.2,34.2,1.8,2.0,2.675,-0.1577442544410009,-0.11616879803317974,0.941570883297193,-0.05426985384493825,-0.402724,-17.840874
11.185,2.0,1.0,1.0,34.8,34.2,34.2,1.8,2.0,2.6775,-0.1738263566015899,-0.11813458173296364,0.9372885944834323,-0.05782715573297911,-0.415673,-17.619599
11.185,2.0,1.0,1.0,34.8,34.2,34.2,1.8,2.0,2.68,-0.19002413320823322,-0.12010251285906058,0.9326165897387844,-0.06156351619169067,-0.42928,-17.395785
11.185,2.0,1.0,1.0,34.8,34.2,34.2,1.8,2.0,2.6825,-0.20633198723501042,-0.12206856468619064,0.9275397006867956,-0.06548867794215027,-0.44359,-17.169363
11.185,2.0,1.0,1.0,34.8,34.2,34.2,1.8,2.0,2.685,-0.2227436310709927,-0.12402816624079363,0.9220420683065077,-0.0696129727719273,-0.458654,-16.940266
11.185,2.0,1.0,1.0,34.8,34.2,34.2,1.8,2.0,2.6875,-0.2392520125526352,-0.12597613503088645,0.9161071067245155,-0.0739473578480635,-0.474527,-16.708423
11.185,2.0,1.0,1.0,34.8,34.2,34.2,1.8,2.0,2.69,-0.25584923201796955,-0.1279066010295402,0.9097174656204172,-0.07850345355812077,-0.491268,-16.473759
11.185,2.0,1.0,1.0,34.8,34.2,34.2,1.8,2.0,2.6925,-0.27252644916316376,-0.12981292069930025,0.9028549914359328,-0.08329358269600422,-0.508942,-16.236199
11.185,2.0,1.0,1.0,34.8,34.2,34.2,1.8,2.0,2.695,-0.2892737783059772,-0.13168757966950598,0.8955006876686867,-0.0883308107183805,-0.52762,-15.995665
11.185,2.0,1.0,1.0,34.8,34.2,34.2,1.8,2.0,2.6975,-0.306080170459592,-0.13352208247805536,0.8876346746485896,-0.09362898668019633,-0.547381,-15.752076
11.185,2.0,1.0,1.0,34.8,34.2,34.2,1.8,2.0,2.7,-0.3229332803906046,-0.13530682756052367,0.8792361493452336,-0.09920278430692334,-0.56831,-15.50535
11.185,2.0,1.0,1.0,34.8,34.2,34.2,1.8,2.0,2.7025,-0.33981931657383224,-0.13703096540957083,0.8702833459471708,-0.10506774246809007,-0.590503,-15.255402
11.185,2.0,1.0,1.0,34.8,34.2,34.2,1.8,2.0,2.705,-0.3567228716604267,-0.13868223753297831,0.860753498199611,-0.11124030407025567,-0.614063,-15.002144
11.185,2.0,1.0,1.0,34.8,34.2,34.2,1.8,2.0,2.7075,-0.37362673074171504,-0.14024679350654926,0.8506228047996185,-0.11773785207411702,-0.639107,-14.745488
11.185,2.0,1.0,1.0,34.8,34.2,34.2,1.8,2.0,2.71,-0.39051165431655843,-0.14170898304602125,0.8398663995446277,-0.1245787409425427,-0.66576,-14.485342
11.185,2.0,1.0,1.0,34.8,34.2,34.2,1.8,2.0,2.7125,-0.4073561324535545,-0.14305111960882277,0.8284583284326034,-0.13178232132243065,-0.694166,-14.221613
11.185,2.0,1.0,1.0,34.8,34.2,34.2,1.8,2.0,2.715,-0.42413610618111774,-0.14425321158238524,0.8163715365475276,-0.13936895512632666,-0.72448,-13.954209
11.185,2.0,1.0,1.0,34.8,34.2,34.2,1.8,2.0,2.7175,-0.4408246516418298,-0.14529265662428287,0.803577868365417,-0.14736001737623938,-0.756877,-13.683033
11.185,2.0,1.0,1.0,34.8,34.2,34.2,1.8,2.0,2.72,-0.45739162201977634,-0.14614389419859058,0.7900480861256934,-0.15577788016036126,-0.791553,-13.407992
11.185,2.0,1.0,1.0,34.8,34.2,34.2,1.8,2.0,2.7225,-0.47380324170534127,-0.14677801081721326,0.7757519121813917,-0.16464587278223597,-0.828725,-13.128989
11.185,2.0,1.0,1.0,34.8,34.2,34.2,1.8,2.0,2.725,-0.49002164662480135,-0.14716229196909872,0.760658102832852,-0.17398821058827627,-0.868636,-12.845931
11.185,2.0,1.0,1.0,34.8,34.2,34.2,1.8,2.0,2.7275,-0.5060043641706586,-0.14725971424317014,0.7447345631393248,-0.18382988296713412,-0.911559,-12.558726
11.185,2.0,1.0,1.0,34.8,34.2,34.2,1.8,2.0,2.73,-0.5217037257809641,-0.14702837078191688,0.7279485146842022,-0.19419648853101537,-0.957802,-12.267284
11.185,2.0,1.0,1.0,34.8,34.2,34.2,1.8,2.0,2.7325,-0.5370662050195414,-0.14642082303036116,0.7102667313515891,-0.20511400240572214,-1.007712,-11.971523
11.185,2.0,1.0,1.0,34.8,34.2,34.2,1.8,2.0,2.735,-0.5520316741311485,-0.14538337189860226,0.6916558619826575,-0.21660845674595186,-1.061679,-11.671365
11.185,2.0,1.0,1.0,34.8,34.2,34.2,1.8,2.0,2.7375,-0.5665325726694752,-0.14385524212051004,0.6720828634644829,-0.22870551091190927,-1.120146,-11.366739
11.185,2.0,1.0,1.0,34.8,34.2,34.2,1.8,2.0,2.74,-0.5804929831808965,-0.14176767502846166,0.6515155735192698,-0.2414298820372079,-1.183617,-11.057589
11.185,2.0,1.0,1.0,34.8,34.2,34.2,1.8,2.0,2.7425,-0.5938276114358554,-0.13904292754016911,0.6299234593686497,-0.25480459982953585,-1.252661,-10.743872
11.185,2.0,1.0,1.0,34.8,34.2,34.2,1.8,2.0,2.745,-0.6064406728331714,-0.13559317937286916,0.6072785866897634,-0.26885004123586165,-1.327933,-10.425562
11.185,2.0,1.0,1.0,34.8,34.2,34.2,1.8,2.0,2.7475,-0.618224693041454,-0.1313193570474773,0.5835568629514281,-0.28358269098723204,-1.410177,-10.102659
11.185,2.0,1.0,1.0,34.8,34.2,34.2,1.8,2.0,2.75,-0.629059240598075,-0.126109893036612,0.558739620306808,-0.299013563038744,-1.500247,-9.775188
11.185,2.0,1.0,1.0,34.8,34.2,34.2,1.8,2.0,2.7525,-0.6388096232579029,-0.11983945264674135,0.5328156155155099,-0.31514620576396374,-1.599126,-9.443212
11.185,2.0,1.0,1.0,34.8,34.2,34.2,1.8,2.0,2.755,-0.6473255999082337,-0.1123676814432002,0.505783537328716,-0.33197420101821934,-1.707944,-9.106836
11.185,2.0,1.0,1.0,34.8,34.2,34.2,1.8,2.0,2.7575,-0.6544401877529937,-0.10353805413134824,0.47765512431073265,-0.349478054971602,-1.828007,-8.76622
11.185,2.0,1.0,1.0,34.8,34.2,34.2,1.8,2.0,2.76,-0.6599686824869933,-0.09317694404903494,0.44845900626390184,-0.3676213689016519,-1.960828,-8.421583
11.185,2.0,1.0,1.0,34.8,34.2,34.2,1.8,2.0,2.7625,-0.6637080598435172,-0.08109308328058326,0.41824538709448134,-0.3863461741643766,-2.10816,-8.073226
11.185,2.0,1.0,1.0,34.8,34.2,34.2,1.8,2.0,2.765,-0.6654369926669732,-0.06707764926047764,0.38709168114033166,-0.4055673223682833,-2.272044,-7.721537
11.185,2.0,1.0,1.0,34.8,34.2,34.2,1.8,2.0,2.7675,-0.6649168003355445,-0.050905296270223756,0.3551091912746733,-0.4251658468408623,-2.454859,-7.367017
11.185,2.0,1.0,1.0,34.8,34.2,34.2,1.8,2.0,2.77,-0.6618937469716198,-0.032336549275452424,0.3224508649875121,-0.4449812653856366,-2.659383,-7.010291
11.185,2.0,1.0,1.0,34.8,34.2,34.2,1.8,2.0,2.7725,-0.6561032178748916,-0.011122089235068506,0.28932006998770254,-0.46480289123999063,-2.888869,-6.652138
11.185,2.0,1.0,1.0,34.8,34.2,34.2,1.8,2.0,2.775,-0.6472764200687275,0.012990427034132218,0.2559801759744414,-0.4843603766525114,-3.147128,-6.293505
11.185,2.0,1.0,1.0,34.8,34.2,34.2,1.8,2.0,2.7775,-0.6351503525984018,0.040246273888869435,0.22276449423445738,-0.5033139511381243,-3.438635,-5.93554
11.185,2.0,1.0,1.0,34.8,34.2,34.2,1.8,2.0,2.78,-0.6194818401195225,0.07086951107182461,0.19008579340379686,-0.5212451517388629,-3.768641,-5.57961
11.185,2.0,1.0,1.0,34.8,34.2,34.2,1.8,2.0,2.7825,-0.600066364643213,0.10504407382424992,0.15844416924981145,-0.5376492830214235,-4.143315,-5.227325
11.185,2.0,1.0,1.0,34.8,34.2,34.2,1.8,2.0,2.785,-0.5767621886550182,0.14288964216308322,0.12843151244150797,-0.5519313741742102,-4.569889,-4.880556
11.185,2.0,1.0,1.0,34.8,34.2,34.2,1.8,2.0,2.7875,-0.5495197449343151,0.18443236546951647,0.10073024662738443,-0.5634079608063575,-5.056804,-4.541441
11.185,2.0,1.0,1.0,34.8,34.2,34.2,1.8,2.0,2.79,-0.5184153825036896,0.22957141839911957,0.07610352026086506,-0.5713174859677604,-5.613845,-4.212385
11.185,2.0,1.0,1.0,34.8,34.2,34.2,1.8,2.0,2.7925,-0.483687253200044,0.2780436757909865,0.05537383355584331,-0.5748422818750611,-6.252157,-3.89604
11.185,2.0,1.0,1.0,34.8,34.2,34.2,1.8,2.0,2.795,-0.445769452726564,0.32939045469091477,0.03938745183508034,-0.5731446763864927,-6.984019,-3.595256
11.185,2.0,1.0,1.0,34.8,34.2,34.2,1.8,2.0,2.7975,-0.4053187304510751,0.38293203229405637,0.0289632162446085,-0.5654184558632633,-7.821947,-3.31302
11.185,2.0,1.0,1.0,34.8,34.2,34.2,1.8,2.0,2.8,-0.36322663557845236,0.43775701830608776,0.024826745163701834,-0.5509544930773205,-8.776204,-3.052351
11.185,2.0,1.0,1.0,34.8,34.2,34.2,1.8,2.0,2.8025,-0.32060958463487876,0.4927339292296405,0.027534484622585603,-0.5292158824144098,-9.848555,-2.816178
11.185,2.0,1.0,1.0,34.8,34.2,34.2,1.8,2.0,2.805,-0.278770790994431,0.5465507273375518,0.03739609753621802,-0.4999139609177227,-11.017597,-2.607191
11.185,2.0,1.0,1.0,34.8,34.2,34.2,1.8,2.0,2.8075,-0.23913178472277344,0.5977842013630784,0.05440719536691041,-0.46307323377502796,-12.208066,-2.427689
11.185,2.0,1.0,1.0,34.8,34.2,34.2,1.8,2.0,2.81,-0.20313714468506788,0.6449951658650522,0.07820594131488127,-0.41907192017055434,-13.24397,-2.279424
11.185,2.0,1.0,1.0,34.8,34.2,34.2,1.8,2.0,2.8125,-0.17214282856564556,0.6868388260017643,0.10806527166297625,-0.3686468463378612,-13.839316,-2.163479
11.185,2.0,1.0,1.0,34.8,34.2,34.2,1.8,2.0,2.815,-0.14730403046682838,0.7221743820198798,0.1429269706133907,-0.3128570615875617,-13.754436,-2.08018
11.185,2.0,1.0,1.0,34.8,34.2,34.2,1.8,2.0,2.8175,-0.12948061660250224,0.7501561636435552,0.18147562176598758,-0.2530087260533571,-13.036556,-2.029073
11.185,2.0,1.0,1.0,34.8,34.2,34.2,1.8,2.0,2.82,-0.11917563513916213,0.7702914156247286,0.22224191291036066,-0.19055212789955658,-11.965818,-2.008946
11.185,2.0,1.0,1.0,34.8,34.2,34.2,1.8,2.0,2.8225,-0.11651564620013373,0.7824567042698384,0.2637186908010962,-0.1269674024735449,-10.802765,-2.01792
11.185,2.0,1.0,1.0,34.8,34.2,34.2,1.8,2.0,2.825,-0.12127281586950112,0.7868735925042906,0.30447150758855895,-0.06365682322927951,-9.689553,-2.053571
11.185,2.0,1.0,1.0,34.8,34.2,34.2,1.8,2.0,2.8275,-0.1329207099498996,0.784051946081556,0.34322839671454586,-0.0018583192430055209,-8.681452,-2.113079
11.185,2.0,1.0,1.0,34.8,34.2,34.2,1.8,2.0,2.83,-0.15071077345890227,0.7747138426248925,0.3789397870205649,0.057411315490741265,-7.79084,-2.193388
