1,w,sub_t,h,l1,l2,l3,g1,g2,Freq,S11_re,S21_re,S11_img,S21_img,S11_dB,S21_dB
11.185,2.0,1.0,1.0,33.5,33.5,33.5,2.0,3.0,2.5,0.844467167624827,-0.010175607756676,0.522085598755208,0.00911967394056253,-0.06256,-37.288291
11.185,2.0,1.0,1.0,33.5,33.5,33.5,2.0,3.0,2.5025,0.8407693959156757,-0.010389706082035044,0.5278836016254495,0.009167578432412463,-0.063195,-37.167203
11.185,2.0,1.0,1.0,33.5,33.5,33.5,2.0,3.0,2.505,0.8370136350824191,-0.01060787150681424,0.5336815194358293,0.009214580790987978,-0.06384,-37.045749
11.185,2.0,1.0,1.0,33.5,33.5,33.5,2.0,3.0,2.5075,0.8331992552928027,-0.010830189197338982,0.5394790585459267,0.009260631558124973,-0.064497,-36.923921
11.185,2.0,1.0,1.0,33.5,33.5,33.5,2.0,3.0,2.51,0.8293256162346165,-0.011056746435307857,0.5452759156762309,0.00930567924384489,-0.065167,-36.801711
11.185,2.0,1.0,1.0,33.5,33.5,33.5,2.0,3.0,2.5125,0.825392066934134,-0.011287632676904158,0.5510717775763759,0.009349670239156064,-0.065849,-36.679112
11.185,2.0,1.0,1.0,33.5,33.5,33.5,2.0,3.0,2.515,0.8213979455718965,-0.01152293961366536,0.5568663206815657,0.00939254872480449,-0.066543,-36.556114
11.185,2.0,1.0,1.0,33.5,33.5,33.5,2.0,3.0,2.5175,0.8173425792958494,-0.011762761235163049,0.5626592107567095,0.009434256575767875,-0.06725,-36.432711
11.185,2.0,1.0,1.0,33.5,33.5,33.5,2.0,3.0,2.52,0.8132252840318329,-0.01200719389354574,0.5684501025278109,0.009474733261275054,-0.067971,-36.308894
11.185,2.0,1.0,1.0,33.5,33.5,33.5,2.0,3.0,2.5225,0.8090453642914504,-0.012256336369996994,0.5742386393000797,0.009513915740121425,-0.068706,-36.184655
11.185,2.0,1.0,1.0,33.5,33.5,33.5,2.0,3.0,2.525,0.8048021129773196,-0.012510289943164922,0.5800244525622709,0.009551738351036908,-0.069454,-36.059985
11.185,2.0,1.0,1.0,33.5,33.5,33.5,2.0,3.0,2.5275,0.8004948111857317,-0.012769158459617815,0.5858071615766927,0.009588132697850018,-0.070217,-35.934876
11.185,2.0,1.0,1.0,33.5,33.5,33.5,2.0,3.0,2.53,0.7961227280067519,-0.013033048406382176,0.591586372954309,0.00962302752917685,-0.070994,-35.809319
11.185,2.0,1.0,1.0,33.5,33.5,33.5,2.0,3.0,2.5325,0.791685120321786,-0.013302068985621345,0.5973616802143513,0.009656348612347692,-0.071787,-35.683306
11.185,2.0,1.0,1.0,33.5,33.5,33.5,2.0,3.0,2.535,0.7871812325986534,-0.013576332191512507,0.6031326633278082,0.009688018601267933,-0.072595,-35.556827
11.185,2.0,1.0,1.0,33.5,33.5,33.5,2.0,3.0,2.5375,0.78261029668422,-0.013855952889380619,0.608898888244145,0.009717956897892524,-0.073419,-35.429874
11.185,2.0,1.0,1.0,33.5,33.5,33.5,2.0,3.0,2.54,0.777971531594635,-0.014141048897148874,0.6146599064005749,0.00974607950697347,-0.074259,-35.302438
11.185,2.0,1.0,1.0,33.5,33.5,33.5,2.0,3.0,2.5425,0.7732641433032362,-0.014431741069166339,0.6204152542131669,0.009772298883721164,-0.075116,-35.174509
11.185,2.0,1.0,1.0,33.5,33.5,33.5,2.0,3.0,2.545,0.768487324526195,-0.014728153382472004,0.6261644525490516,0.009796523773998584,-0.075991,-35.046078
11.185,2.0,1.0,1.0,33.5,33.5,33.5,2.0,3.0,2.5475,0.7636402545059802,-0.01503041302555552,0.6319070061789346,0.009818659046644213,-0.076883,-34.917136
11.185,2.0,1.0,1.0,33.5,33.5,33.5,2.0,3.0,2.55,0.7587220987927226,-0.015338650489676793,0.6376424032091197,0.009838605517497052,-0.077793,-34.787673
11.185,2.0,1.0,1.0,33.5,33.5,33.5,2.0,3.0,2.5525,0.753732009023597,-0.015652999662801214,0.6433701144921693,0.009856259764669324,-0.078721,-34.657679
11.185,2.0,1.0,1.0,33.5,33.5,33.5,2.0,3.0,2.555,0.7486691227003129,-0.015973597926213196,0.6490895930153199,0.009871513934587161,-0.079669,-34.527145
11.185,2.0,1.0,1.0,33.5,33.5,33.5,2.0,3.0,2.5575,0.7435325629648502,-0.01630058625386491,0.6548002732657197,0.009884255538289227,-0.080636,-34.39606
11.185,2.0,1.0,1.0,33.5,33.5,33.5,2.0,3.0,2.56,0.7383214383735764,-0.016634109314518083,0.6605015705714914,0.009894367237442098,-0.081624,-34.264414
11.185,2.0,1.0,1.0,33.5,33.5,33.5,2.0,3.0,2.5625,0.7330348426698967,-0.016974315576734844,0.6661928804176045,0.00990172661949888,-0.082632,-34.132197
11.185,2.0,1.0,1.0,33.5,33.5,33.5,2.0,3.0,2.565,0.7276718545556011,-0.017321357416771856,0.6718735777354775,0.00990620596139148,-0.083662,-33.999398
11.185,2.0,1.0,1.0,33.5,33.5,33.5,2.0,3.0,2.5675,0.7222315374611044,-0.017675391229429523,0.6775430161651659,0.009907671981108767,-0.084714,-33.866007
11.185,2.0,1.0,1.0,33.5,33.5,33.5,2.0,3.0,2.57,0.7167129393147732,-0.018036577541903596,0.683200527288961,0.009905985576473505,-0.085788,-33.732013
11.185,2.0,1.0,1.0,33.5,33.5,33.5,2.0,3.0,2.5725,0.7111150923115682,-0.018405081130686292,0.6888454198351484,0.009901001550386966,-0.086885,-33.597404
11.185,2.0,1.0,1.0,33.5,33.5,33.5,2.0,3.0,2.575,0.7054370126812479,-0.01878107114155648,0.6944769788506129,0.009892568321763676,-0.088007,-33.46217
11.185,2.0,1.0,1.0,33.5,33.5,33.5,2.0,3.0,2.5775,0.6996777004563999,-0.019164721212694844,0.7000944648409162,0.009880527621330395,-0.089153,-33.326298
11.185,2.0,1.0,1.0,33.5,33.5,33.5,2.0,3.0,2.58,0.6938361392406022,-0.019556209600954052,0.7056971128763998,0.00986471417140943,-0.090324,-33.189778
11.185,2.0,1.0,1.0,33.5,33.5,33.5,2.0,3.0,2.5825,0.6879112959770244,-0.019955719311307837,0.711284131662791,0.009844955348750361,-0.091521,-33.052598
11.185,2.0,1.0,1.0,33.5,33.5,33.5,2.0,3.0,2.585,0.6819021207178316,-0.020363438229492947,0.7168547025747137,0.00982107082941383,-0.092745,-32.914745
11.185,2.0,1.0,1.0,33.5,33.5,33.5,2.0,3.0,2.5875,0.6758075463947636,-0.020779559257851153,0.7224079786504225,0.00979287221464497,-0.093996,-32.776208
11.185,2.0,1.0,1.0,33.5,33.5,33.5,2.0,3.0,2.59,0.6696264885913187,-0.02120428045436632,0.7279430835459766,0.009760162636606382,-0.095276,-32.636973
11.185,2.0,1.0,1.0,33.5,33.5,33.5,2.0,3.0,2.5925,0.6633578453169849,-0.021637805174880845,0.7334591104470016,0.009722736342763614,-0.096585,-32.497029
11.185,2.0,1.0,1.0,33.5,33.5,33.5,2.0,3.0,2.595,0.6570004967840313,-0.022080342218459822,0.7389551209360536,0.009680378257637786,-0.097925,-32.356361
11.185,2.0,1.0,1.0,33.5,33.5,33.5,2.0,3.0,2.5975,0.6505533051873801,-0.02253210597585972,0.7444301438135253,0.009632863520553253,-0.099295,-32.214958
11.185,2.0,1.0,1.0,33.5,33.5,33.5,2.0,3.0,2.6,0.6440151144881592,-0.022993316581035723,0.7498831738699,0.009579956997915718,-0.100698,-32.072805
11.185,2.0,1.0,1.0,33.5,33.5,33.5,2.0,3.0,2.6025,0.6373847502015774,-0.023464200065605456,0.755313170607041,0.009521412768457707,-0.102133,-31.929889
11.185,2.0,1.0,1.0,33.5,33.5,33.5,2.0,3.0,2.605,0.6306610191898053,-0.02394498851616235,0.7607190569060815,0.009456973579781057,-0.103603,-31.786196
11.185,2.0,1.0,1.0,33.5,33.5,33.5,2.0,3.0,2.6075,0.6238427094606295,-0.024435920234306453,0.7660997176393406,0.009386370274411757,-0.105108,-31.641711
11.185,2.0,1.0,1.0,33.5,33.5,33.5,2.0,3.0,2.61,0.6169285899727014,-0.02493723989923035,0.7714539982235343,0.009309321183459488,-0.106649,-31.496421
11.185,2.0,1.0,1.0,33.5,33.5,33.5,2.0,3.0,2.6125,0.6099174104482709,-0.025449198732667155,0.7767807031114118,0.009225531485840887,-0.108228,-31.35031
11.185,2.0,1.0,1.0,33.5,33.5,33.5,2.0,3.0,2.615,0.6028079011943794,-0.025972054665967675,0.7820785942187671,0.009134692530883443,-0.109846,-31.203364
11.185,2.0,1.0,1.0,33.5,33.5,33.5,2.0,3.0,2.6175,0.5955987729335787,-0.02650607250903397,0.7873463892835983,0.009036481121972393,-0.111503,-31.055566
11.185,2.0,1.0,1.0,33.5,33.5,33.5,2.0,3.0,2.62,0.5882887166453146,-0.027051524120787374,0.7925827601539988,0.008930558758737698,-0.113202,-30.906902
11.185,2.0,1.0,1.0,33.5,33.5,33.5,2.0,3.0,2.6225,0.5808764034192387,-0.027608688580798926,0.797786331001165,0.008816570835098833,-0.114944,-30.757354
11.185,2.0,1.0,1.0,33.5,33.5,33.5,2.0,3.0,2.625,0.573360484321812,-0.028177852361646,0.80295567645367,0.00869414579029332,-0.116729,-30.606907
11.185,2.0,1.0,1.0,33.5,33.5,33.5,2.0,3.0,2.6275,0.5657395902776757,-0.028759309501495918,0.8080893196489383,0.008562894209804363,-0.118561,-30.455544
11.185,2.0,1.0,1.0,33.5,33.5,33.5,2.0,3.0,2.63,0.5580123319674193,-0.02935336177633951,0.8131857301975887,0.00842240787288182,-0.120439,-30.303247
11.185,2.0,1.0,1.0,33.5,33.5,33.5,2.0,3.0,2.6325,0.5501772997434915,-0.029960318871211828,0.8182433220560523,0.008272258743103446,-0.122367,-30.15
11.185,2.0,1.0,1.0,33.5,33.5,33.5,2.0,3.0,2.635,0.5422330635661928,-0.030580498549644567,0.8232604513025751,0.008111997898165073,-0.124345,-29.995783
11.185,2.0,1.0,1.0,33.5,33.5,33.5,2.0,3.0,2.6375,0.5341781729618303,-0.03121422682048275,0.8282354138114032,0.007941154394801501,-0.126376,-29.84058
11.185,2.0,1.0,1.0,33.5,33.5,33.5,2.0,3.0,2.64,0.5260111570053152,-0.03186183810108331,0.8331664428196257,0.007759234064433357,-0.12846,-29.684371
11.185,2.0,1.0,1.0,33.5,33.5,33.5,2.0,3.0,2.6425,0.5177305243297068,-0.03252367537577183,0.8380517063807694,0.007565718234804117,-0.130602,-29.527136
11.185,2.0,1.0,1.0,33.5,33.5,33.5,2.0,3.0,2.645,0.5093347631654168,-0.03320009034828518,0.842889304698865,0.007360062372509306,-0.132801,-29.368857
11.185,2.0,1.0,1.0,33.5,33.5,33.5,2.0,3.0,2.6475,0.5008223414120535,-0.033891443586753514,0.8476772673362785,0.007141694640930544,-0.13506,-29.209513
11.185,2.0,1.0,1.0,33.5,33.5,33.5,2.0,3.0,2.65,0.4921917067461427,-0.03459810465958625,0.8524135502881574,0.006910014367664446,-0.137383,-29.049084
11.185,2.0,1.0,1.0,33.5,33.5,33.5,2.0,3.0,2.6525,0.48344128676831816,-0.03532045226040279,0.8570960329158379,0.006664390415076652,-0.13977,-28.887548
11.185,2.0,1.0,1.0,33.5,33.5,33.5,2.0,3.0,2.655,0.4745694891938364,-0.036058874319914475,0.8617225147310518,0.006404159447113924,-0.142225,-28.724884
11.185,2.0,1.0,1.0,33.5,33.5,33.5,2.0,3.0,2.6575,0.46557470209072016,-0.036813768102380344,0.8662907120221868,0.006128624084965453,-0.14475,-28.56107
11.185,2.0,1.0,1.0,33.5,33.5,33.5,2.0,3.0,2.66,0.4564552941701957,-0.037585540283958024,0.8707982543132464,0.0058370509435788955,-0.147348,-28.396083
11.185,2.0,1.0,1.0,33.5,33.5,33.5,2.0,3.0,2.6625,0.44720961513458046,-0.03837460700991645,0.8752426806454835,0.005528668540396168,-0.150021,-28.2299
11.185,2.0,1.0,1.0,33.5,33.5,33.5,2.0,3.0,2.665,0.43783599608825113,-0.03918139392729224,0.879621435670965,0.005202665066981992,-0.152773,-28.062496
11.185,2.0,1.0,1.0,33.5,33.5,33.5,2.0,3.0,2.6675,0.42833275001792787,-0.040006336189123845,0.883931865546537,0.004858186013461246,-0.155607,-27.893849
11.185,2.0,1.0,1.0,33.5,33.5,33.5,2.0,3.0,2.67,0.4186981723490941,-0.04084987842590263,0.8881712136158139,0.004494331634861088,-0.158526,-27.723931
11.185,2.0,1.0,1.0,33.5,33.5,33.5,2.0,3.0,2.6725,0.4089305415860901,-0.04171247467931857,0.8923366158658955,0.004110154247557089,-0.161533,-27.552718
11.185,2.0,1.0,1.0,33.5,33.5,33.5,2.0,3.0,2.675,0.3990281200441936,-0.04259458829274258,0.8964250961445123,0.0037046553430503787,-0.164633,-27.380182
11.185,2.0,1.0,1.0,33.5,33.5,33.5,2.0,3.0,2.6775,0.38898915468285744,-0.043496691752170955,0.9004335611222122,0.003276782505238378,-0.167829,-27.206298
11.185,2.0,1.0,1.0,33.5,33.5,33.5,2.0,3.0,2.68,0.3788118780502351,-0.04441926647055057,0.9043587949830275,0.0028254261161848146,-0.171125,-27.031036
11.185,2.0,1.0,1.0,33.5,33.5,33.5,2.0,3.0,2.6825,0.3684945093502237,-0.045362802507484534,0.9081974538257627,0.002349415834132678,-0.174525,-26.854369
11.185,2.0,1.0,1.0,33.5,33.5,33.5,2.0,3.0,2.685,0.3580352556444296,-0.04632779821528401,0.9119460597566625,0.0018475168261239334,-0.178035,-26.676265
11.185,2.0,1.0,1.0,33.5,33.5,33.5,2.0,3.0,2.6875,0.347432313202845,-0.047314759801159,0.91560099465268,0.00131842573608781,-0.181658,-26.496696
11.185,2.0,1.0,1.0,33.5,33.5,33.5,2.0,3.0,2.69,0.3366838690185252,-0.048324200794010126,0.9191584935729116,0.0007607663676183476,-0.1854,-26.31563
11.185,2.0,1.0,1.0,33.5,33.5,33.5,2.0,3.0,2.6925,0.3257881025032523,-0.04935664140277571,0.9226146377939661,0.0001730850588674153,-0.189267,-26.133035
11.185,2.0,1.0,1.0,33.5,33.5,33.5,2.0,3.0,2.695,0.3147431873831295,-0.050412607751577986,0.9259653474430455,-0.00044615427497566527,-0.193263,-25.948877
11.185,2.0,1.0,1.0,33.5,33.5,33.5,2.0,3.0,2.6975,0.3035472938151442,-0.051492630974967826,0.9292063737003848,-0.0010985754582871713,-0.197396,-25.763122
11.185,2.0,1.0,1.0,33.5,33.5,33.5,2.0,3.0,2.7,0.29219859074825105,-0.05259724615435642,0.9323332905403348,-0.0017858957596991242,-0.20167,-25.575736
11.185,2.0,1.0,1.0,33.5,33.5,33.5,2.0,3.0,2.7025,0.2806952485552132,-0.0537269910742088,0.9353414859778284,-0.002509932016434249,-0.206094,-25.386682
11.185,2.0,1.0,1.0,33.5,33.5,33.5,2.0,3.0,2.705,0.26903544196460033,-0.05488240477370883,0.9382261527841675,-0.0032726072126312896,-0.210674,-25.195923
11.185,2.0,1.0,1.0,33.5,33.5,33.5,2.0,3.0,2.7075,0.25721735332583473,-0.056064025866342966,0.9409822786330221,-0.004075957549053206,-0.215417,-25.00342
11.185,2.0,1.0,1.0,33.5,33.5,33.5,2.0,3.0,2.71,0.24523917624420058,-0.057272390596121665,0.9436046356342157,-0.004922140044897518,-0.220333,-24.809134
11.185,2.0,1.0,1.0,33.5,33.5,33.5,2.0,3.0,2.7125,0.23309911962724336,-0.05850803059490861,0.9460877692092361,-0.005813440716060793,-0.225429,-24.613024
11.185,2.0,1.0,1.0,33.5,33.5,33.5,2.0,3.0,2.715,0.22079541218916982,-0.059771470300462225,0.948425986258457,-0.006752283378173341,-0.230714,-24.415048
11.185,2.0,1.0,1.0,33.5,33.5,33.5,2.0,3.0,2.7175,0.20832630746571765,-0.061063223989231426,0.9506133425657499,-0.007741239127044112,-0.236199,-24.215162
11.185,2.0,1.0,1.0,33.5,33.5,33.5,2.0,3.0,2.72,0.19569008939868632,-0.062383792371573356,0.9526436293814625,-0.008783036553865945,-0.241894,-24.013321
11.185,2.0,1.0,1.0,33.5,33.5,33.5,2.0,3.0,2.7225,0.18288507855691294,-0.06373365868976089,0.9545103591196396,-0.00988057275766345,-0.24781,-23.809479
11.185,2.0,1.0,1.0,33.5,33.5,33.5,2.0,3.0,2.725,0.16990963906930556,-0.06511328425074882,0.9562067500997982,-0.011036925223038655,-0.253959,-23.603588
11.185,2.0,1.0,1.0,33.5,33.5,33.5,2.0,3.0,2.7275,0.15676218635545058,-0.0665231033160468,0.9577257102575552,-0.012255364637328299,-0.260354,-23.395598
11.185,2.0,1.0,1.0,33.5,33.5,33.5,2.0,3.0,2.73,0.14344119575086417,-0.06796351725995149,0.9590598197418604,-0.013539368727840983,-0.267007,-23.185458
11.185,2.0,1.0,1.0,33.5,33.5,33.5,2.0,3.0,2.7325,0.12994521213706497,-0.06943488789463724,0.9602013123095531,-0.014892637206936657,-0.273935,-22.973115
11.185,2.0,1.0,1.0,33.5,33.5,33.5,2.0,3.0,2.735,0.11627286070180688,-0.07093752984588747,0.9611420554203318,-0.01631910792034575,-0.281152,-22.758515
11.185,2.0,1.0,1.0,33.5,33.5,33.5,2.0,3.0,2.7375,0.10242285897219869,-0.07247170184628016,0.9618735289270867,-0.017822974302334506,-0.288675,-22.541599
11.185,2.0,1.0,1.0,33.5,33.5,33.5,2.0,3.0,2.74,0.0883940302835183,-0.07403759679301986,0.9623868022477925,-0.019408704250086357,-0.296523,-22.322311
11.185,2.0,1.0,1.0,33.5,33.5,33.5,2.0,3.0,2.7425,0.0741853188696609,-0.07563533039493824,0.9626725098958934,-0.02108106053899824,-0.304714,-22.100589
11.185,2.0,1.0,1.0,33.5,33.5,33.5,2.0,3.0,2.745,0.05979580678792258,-0.07726492820691554,0.9627208252363016,-0.022845122910422726,-0.313271,-21.87637
11.185,2.0,1.0,1.0,33.5,33.5,33.5,2.0,3.0,2.7475,0.045224732921754496,-0.0789263108195401,0.9625214323238754,-0.024706311973688427,-0.322215,-21.649589
11.185,2.0,1.0,1.0,33.5,33.5,33.5,2.0,3.0,2.75,0.0304715143409648,-0.0806192769365075,0.962063495670625,-0.0266704150748727,-0.331571,-21.420178
11.185,2.0,1.0,1.0,33.5,33.5,33.5,2.0,3.0,2.7525,0.015535770340407864,-0.08234348403123015,0.9613356277770745,-0.028743614295644447,-0.341365,-21.188069
11.185,2.0,1.0,1.0,33.5,33.5,33.5,2.0,3.0,2.755,0.00041734952647776077,-0.08409842622642585,0.9603258542524106,-0.030932516756305106,-0.351627,-20.953188
11.185,2.0,1.0,1.0,33.5,33.5,33.5,2.0,3.0,2.7575,-0.014883639623230636,-0.08588340898493663,0.9590215763375711,-0.033244187407624214,-0.362387,-20.71546
11.185,2.0,1.0,1.0,33.5,33.5,33.5,2.0,3.0,2.76,-0.030366794236359032,-0.08769752013532306,0.9574095306357325,-0.03568618450573562,-0.373678,-20.474808
11.185,2.0,1.0,1.0,33.5,33.5,33.5,2.0,3.0,2.7625,-0.046031377991640025,-0.08953959668035412,0.9554757458462955,-0.03826659797265284,-0.385539,-20.231151
11.185,2.0,1.0,1.0,33.5,33.5,33.5,2.0,3.0,2.765,-0.061876276878725385,-0.09140818674845343,0.9532054962923066,-0.04099409085104816,-0.398007,-19.984406
11.185,2.0,1.0,1.0,33.5,33.5,33.5,2.0,3.0,2.7675,-0.07789994901310507,-0.09330150594531833,0.9505832520282865,-0.04387794406474632,-0.411128,-19.734486
11.185,2.0,1.0,1.0,33.5,33.5,33.5,2.0,3.0,2.77,-0.09410036762637543,-0.09521738724272565,0.947592625317143,-0.04692810469447786,-0.424949,-19.481301
11.185,2.0,1.0,1.0,33.5,33.5,33.5,2.0,3.0,2.7725,-0.11047495621080632,-0.0971532234009471,0.944216313273119,-0.050155237969894705,-0.439521,-19.22476
11.185,2.0,1.0,1.0,33.5,33.5,33.5,2.0,3.0,2.775,-0.12702051463206848,-0.09910590075673548,0.9404360364849814,-0.053570783161194464,-0.454902,-18.964765
11.185,2.0,1.0,1.0,33.5,33.5,33.5,2.0,3.0,2.7775,-0.14373313483074332,-0.10107172301637596,0.936232473463248,-0.05718701352362235,-0.471154,-18.701217
11.185,2.0,1.0,1.0,33.5,33.5,33.5,2.0,3.0,2.78,-0.1606081045073434,-0.1030463234680758,0.9315851908013791,-0.06101710040133393,-0.488345,-18.434014
11.185,2.0,1.0,1.0,33.5,33.5,33.5,2.0,3.0,2.7825,-0.17763979692127072,-0.10502456376448535,0.9264725690091333,-0.06507518152796828,-0.506552,-18.163049
11.185,2.0,1.0,1.0,33.5,33.5,33.5,2.0,3.0,2.785,-0.1948215446253872,-0.10700041711808521,0.9208717240739729,-0.06937643346252692,-0.525858,-17.888213
11.185,2.0,1.0,1.0,33.5,33.5,33.5,2.0,3.0,2.7875,-0.2121454945971066,-0.1089668333923432,0.9147584249429891,-0.07393714796117665,-0.546355,-17.609391
11.185,2.0,1.0,1.0,33.5,33.5,33.5,2.0,3.0,2.79,-0.22960244180648837,-0.11091558315190908,0.9081070073055518,-0.07877481189610368,-0.568144,-17.326467
11.185,2.0,1.0,1.0,33.5,33.5,33.5,2.0,3.0,2.7925,-0.24718163777235963,-0.11283707724672085,0.9008902843118579,-0.08390819007539099,-0.59134,-17.03932
11.185,2.0,1.0,1.0,33.5,33.5,33.5,2.0,3.0,2.795,-0.26487057008980636,-0.11472015793819877,0.8930794552053002,-0.08935740997234412,-0.616067,-16.747828
11.185,2.0,1.0,1.0,33.5,33.5,33.5,2.0,3.0,2.7975,-0.28265470825592914,-0.11655185692067979,0.8846440133041128,-0.0951440469117175,-0.642466,-16.451864
11.185,2.0,1.0,1.0,33.5,33.5,33.5,2.0,3.0,2.8,-0.3005172103663307,-0.11831711483816783,0.8755516553744395,-0.10129120764923442,-0.670692,-16.151298
11.185,2.0,1.0,1.0,33.5,33.5,33.5,2.0,3.0,2.8025,-0.31843858439297595,-0.11999845603666943,0.8657681952377076,-0.10782360947469426,-0.70092,-15.845999
11.185,2.0,1.0,1.0,33.5,33.5,33.5,2.0,3.0,2.805,-0.33639629677930505,-0.12157561131998883,0.8552574855071874,-0.11476765091024942,-0.733346,-15.535833
11.185,2.0,1.0,1.0,33.5,33.5,33.5,2.0,3.0,2.8075,-0.3543643199995493,-0.12302508039108494,0.8439813527254976,-0.12215146869025438,-0.768189,-15.220666
11.185,2.0,1.0,1.0,33.5,33.5,33.5,2.0,3.0,2.81,-0.37231260953393003,-0.12431962447004703,0.8318995529705383,-0.13000497390313207,-0.805696,-14.900363
11.185,2.0,1.0,1.0,33.5,33.5,33.5,2.0,3.0,2.8125,-0.390206499431862,-0.125427678305971,0.818969757331101,-0.138359857829336,-0.846146,-14.574789
11.185,2.0,1.0,1.0,33.5,33.5,33.5,2.0,3.0,2.815,-0.4080060043162735,-0.12631266948878722,0.8051475796755384,-0.1472495549719182,-0.889855,-14.243813
11.185,2.0,1.0,1.0,33.5,33.5,33.5,2.0,3.0,2.8175,-0.42566501440267557,-0.1269322316984949,0.7903866630353265,-0.1567091468589856,-0.937179,-13.907307
11.185,2.0,1.0,1.0,33.5,33.5,33.5,2.0,3.0,2.82,-0.443130368998164,-0.12723729743577145,0.7746388459318341,-0.16677518516812226,-0.988525,-13.565148
11.185,2.0,1.0,1.0,33.5,33.5,33.5,2.0,3.0,2.8225,-0.46034079321627186,-0.12717105506936785,0.757854436370512,-0.1774854062997845,-1.044355,-13.217225
11.185,2.0,1.0,1.0,33.5,33.5,33.5,2.0,3.0,2.825,-0.47722568261383336,-0.12666775503461192,0.7399826293452575,-0.18887830137594253,-1.105198,-12.863437
11.185,2.0,1.0,1.0,33.5,33.5,33.5,2.0,3.0,2.8275,-0.4937037216071154,-0.12565135120788165,0.7209721139184117,-0.20099249538019742,-1.171658,-12.5037
11.185,2.0,1.0,1.0,33.5,33.5,33.5,2.0,3.0,2.83,-0.5096813245649716,-0.12403396657670918,0.7007719286818012,-0.21386587637323157,-1.244431,-12.137951
