1,w,sub_t,h,l1,l2,l3,g1,g2,Freq,S11_re,S21_re,S11_img,S21_img,S11_dB,S21_dB
11.185,2.0,1.0,1.0,33.9,34.7,34.7,2.6,2.2,2.5,0.792648417549157,-0.0144605937261495,0.596350759930964,0.0109277169024204,-0.070377,-34.834332
11.185,2.0,1.0,1.0,33.9,34.7,34.7,2.6,2.2,2.5025,0.7881976401411938,-0.014777555385290938,0.6020574384403565,0.010983648691536337,-0.071247,-34.697789
11.185,2.0,1.0,1.0,33.9,34.7,34.7,2.6,2.2,2.505,0.7836812503762887,-0.015101675892610869,0.6077588602633901,0.01103837038310831,-0.072137,-34.560483
11.185,2.0,1.0,1.0,33.9,34.7,34.7,2.6,2.2,2.5075,0.7790984564918978,-0.015433158522959503,0.6134546121305057,0.011091803620054526,-0.073047,-34.422396
11.185,2.0,1.0,1.0,33.9,34.7,34.7,2.6,2.2,2.51,0.7744484504070436,-0.015772214052057427,0.6191442667548224,0.011143865899639194,-0.073979,-34.283512
11.185,2.0,1.0,1.0,33.9,34.7,34.7,2.6,2.2,2.5125,0.7697304072596038,-0.01611906109932591,0.6248273822850338,0.011194470331128435,-0.074932,-34.14381
11.185,2.0,1.0,1.0,33.9,34.7,34.7,2.6,2.2,2.515,0.7649434849241579,-0.016473926489461495,0.6305035017326972,0.01124352537729842,-0.075909,-34.003275
11.185,2.0,1.0,1.0,33.9,34.7,34.7,2.6,2.2,2.5175,0.7600868235092616,-0.016837045633952122,0.6361721523723575,0.0112909345785658,-0.076909,-33.861885
11.185,2.0,1.0,1.0,33.9,34.7,34.7,2.6,2.2,2.52,0.7551595448329147,-0.017208662933810365,0.6418328451128735,0.011336596258408629,-0.077933,-33.719622
11.185,2.0,1.0,1.0,33.9,34.7,34.7,2.6,2.2,2.5225,0.7501607518749269,-0.01758903220490081,0.647485073838137,0.011380403208626997,-0.078982,-33.576467
11.185,2.0,1.0,1.0,33.9,34.7,34.7,2.6,2.2,2.525,0.745089528204756,-0.017978417127326358,0.6531283147152834,0.011422242352866024,-0.080057,-33.432397
11.185,2.0,1.0,1.0,33.9,34.7,34.7,2.6,2.2,2.5275,0.7399449373833134,-0.018377091720463777,0.6587620254683157,0.011461994386686202,-0.081159,-33.287394
11.185,2.0,1.0,1.0,33.9,34.7,34.7,2.6,2.2,2.53,0.7347260223371095,-0.018785340845341645,0.6643856446148916,0.011499533392309897,-0.082289,-33.141434
11.185,2.0,1.0,1.0,33.9,34.7,34.7,2.6,2.2,2.5325,0.7294318047029885,-0.019203460736191454,0.6699985906638619,0.01153472642600598,-0.083448,-32.994496
11.185,2.0,1.0,1.0,33.9,34.7,34.7,2.6,2.2,2.535,0.7240612841415655,-0.019631759563134468,0.6756002612709385,0.011567433075888459,-0.084636,-32.846557
11.185,2.0,1.0,1.0,33.9,34.7,34.7,2.6,2.2,2.5375,0.7186134376173429,-0.020070558028121757,0.68119003234964,0.011597504987699124,-0.085856,-32.697594
11.185,2.0,1.0,1.0,33.9,34.7,34.7,2.6,2.2,2.54,0.7130872186433168,-0.020520189996402427,0.6867672571344408,0.011624785355919199,-0.087107,-32.547582
11.185,2.0,1.0,1.0,33.9,34.7,34.7,2.6,2.2,2.5425,0.7074815564877158,-0.020981003165975672,0.6923312651927787,0.011649108377306932,-0.088392,-32.396497
11.185,2.0,1.0,1.0,33.9,34.7,34.7,2.6,2.2,2.545,0.7017953553403282,-0.021453359777671047,0.6978813613822743,0.011670298663678873,-0.089711,-32.244314
11.185,2.0,1.0,1.0,33.9,34.7,34.7,2.6,2.2,2.5475,0.6960274934356793,-0.021937637368707272,0.703416824749199,0.011688170610450757,-0.091066,-32.091006
11.185,2.0,1.0,1.0,33.9,34.7,34.7,2.6,2.2,2.55,0.6901768221300778,-0.02243422957281292,0.7089369073638866,0.011702527717117142,-0.092459,-31.936546
11.185,2.0,1.0,1.0,33.9,34.7,34.7,2.6,2.2,2.5525,0.6842421649293496,-0.022943546970226516,0.7144408330883569,0.011713161855468517,-0.09389,-31.780907
11.185,2.0,1.0,1.0,33.9,34.7,34.7,2.6,2.2,2.555,0.6782223164637698,-0.023466017991170336,0.7199277962710269,0.01171985248093839,-0.095361,-31.624059
11.185,2.0,1.0,1.0,33.9,34.7,34.7,2.6,2.2,2.5575,0.6721160414064524,-0.02400208987667928,0.7253969603628686,0.011722365782002827,-0.096875,-31.465974
11.185,2.0,1.0,1.0,33.9,34.7,34.7,2.6,2.2,2.56,0.6659220733311412,-0.024552229700977805,0.7308474564488515,0.01172045376205051,-0.098432,-31.306621
11.185,2.0,1.0,1.0,33.9,34.7,34.7,2.6,2.2,2.5625,0.659639113504997,-0.0251169254599493,0.736278381687922,0.0117138532475587,-0.100034,-31.145968
11.185,2.0,1.0,1.0,33.9,34.7,34.7,2.6,2.2,2.565,0.6532658296116107,-0.025696687230613774,0.7416887976540921,0.011702284815788727,-0.101683,-30.983983
11.185,2.0,1.0,1.0,33.9,34.7,34.7,2.6,2.2,2.5675,0.6468008543990866,-0.026292048406935196,0.7470777285704903,0.01168545163448978,-0.103382,-30.820633
11.185,2.0,1.0,1.0,33.9,34.7,34.7,2.6,2.2,2.57,0.6402427842475704,-0.02690356701773203,0.7524441594274033,0.011663038205318691,-0.105132,-30.655882
11.185,2.0,1.0,1.0,33.9,34.7,34.7,2.6,2.2,2.5725,0.6335901776501424,-0.0275318271329461,0.7577870339744235,0.011634709001786722,-0.106936,-30.489696
11.185,2.0,1.0,1.0,33.9,34.7,34.7,2.6,2.2,2.575,0.6268415536004581,-0.02817744036505496,0.7631052525757864,0.011600106991557156,-0.108796,-30.322038
11.185,2.0,1.0,1.0,33.9,34.7,34.7,2.6,2.2,2.5775,0.6199953898799564,-0.028841047472989666,0.7683976699168483,0.011558852031798803,-0.110714,-30.152868
11.185,2.0,1.0,1.0,33.9,34.7,34.7,2.6,2.2,2.58,0.6130501212368217,-0.0295233200765618,0.7736630925483623,0.011510539125056661,-0.112694,-29.982148
11.185,2.0,1.0,1.0,33.9,34.7,34.7,2.6,2.2,2.5825,0.6060041374482014,-0.030224962490072893,0.7789002762537811,0.011454736521686226,-0.114737,-29.809837
11.185,2.0,1.0,1.0,33.9,34.7,34.7,2.6,2.2,2.585,0.5988557812564483,-0.03094671368454766,0.7841079232231811,0.01139098365332292,-0.116848,-29.635893
11.185,2.0,1.0,1.0,33.9,34.7,34.7,2.6,2.2,2.5875,0.5916033461693178,-0.03168934938885001,0.7892846790155958,0.011318788880074116,-0.119029,-29.46027
11.185,2.0,1.0,1.0,33.9,34.7,34.7,2.6,2.2,2.59,0.5842450741131852,-0.032453684340829105,0.7944291292894826,0.011237627032105575,-0.121283,-29.282925
11.185,2.0,1.0,1.0,33.9,34.7,34.7,2.6,2.2,2.5925,0.5767791529273475,-0.033240574700622985,0.7995397962787375,0.01114693672402276,-0.123614,-29.10381
11.185,2.0,1.0,1.0,33.9,34.7,34.7,2.6,2.2,2.595,0.569203713686445,-0.03405092063931819,0.8046151349890303,0.011046117417871782,-0.126026,-28.922875
11.185,2.0,1.0,1.0,33.9,34.7,34.7,2.6,2.2,2.5975,0.561516827836835,-0.034885669117316456,0.8096535290863004,0.01093452620766925,-0.128523,-28.740071
11.185,2.0,1.0,1.0,33.9,34.7,34.7,2.6,2.2,2.6,0.5537165041315264,-0.03574581686802831,0.8146532864458585,0.010811474295053128,-0.13111,-28.555343
11.185,2.0,1.0,1.0,33.9,34.7,34.7,2.6,2.2,2.6025,0.545800685346889,-0.03663241360388681,0.8196126343267142,0.01067622312188767,-0.133791,-28.368638
11.185,2.0,1.0,1.0,33.9,34.7,34.7,2.6,2.2,2.605,0.5377672447628461,-0.03754656546317417,0.8245297141314331,0.010527980121361183,-0.13657,-28.179899
11.185,2.0,1.0,1.0,33.9,34.7,34.7,2.6,2.2,2.6075,0.529613982386649,-0.038489438717768575,0.829402575706826,0.010365894044228535,-0.139454,-27.989065
11.185,2.0,1.0,1.0,33.9,34.7,34.7,2.6,2.2,2.61,0.5213386208985608,-0.039462263763681865,0.8342291711351455,0.010189049811263864,-0.142448,-27.796076
11.185,2.0,1.0,1.0,33.9,34.7,34.7,2.6,2.2,2.6125,0.5129388012958643,-0.040466339418155105,0.8390073479589795,0.009996462836588832,-0.145558,-27.600867
11.185,2.0,1.0,1.0,33.9,34.7,34.7,2.6,2.2,2.615,0.5044120782095569,-0.04150303754911563,0.8437348417756256,0.009787072759224366,-0.14879,-27.403371
11.185,2.0,1.0,1.0,33.9,34.7,34.7,2.6,2.2,2.6175,0.49575591486589105,-0.042573808065005256,0.8484092681282166,0.009559736511788833,-0.152152,-27.203518
11.185,2.0,1.0,1.0,33.9,34.7,34.7,2.6,2.2,2.62,0.4869676776625535,-0.04368018429531411,0.8530281136110887,0.00931322064559158,-0.155652,-27.001236
11.185,2.0,1.0,1.0,33.9,34.7,34.7,2.6,2.2,2.6225,0.47804463032674877,-0.044823788794658016,0.8575887260956333,0.00904619282021483,-0.159297,-26.796448
11.185,2.0,1.0,1.0,33.9,34.7,34.7,2.6,2.2,2.625,0.468983927619842,-0.0460063396058368,0.862088303969845,0.00875721235279808,-0.163096,-26.589075
11.185,2.0,1.0,1.0,33.9,34.7,34.7,2.6,2.2,2.6275,0.45978260855040043,-0.04722965702006191,0.8665238842697823,0.008444719707342157,-0.167059,-26.379034
11.185,2.0,1.0,1.0,33.9,34.7,34.7,2.6,2.2,2.63,0.45043758905464615,-0.048495670875331576,0.8708923295637242,0.008107024787086078,-0.171196,-26.166238
11.185,2.0,1.0,1.0,33.9,34.7,34.7,2.6,2.2,2.6325,0.4409456541004283,-0.04980642843679785,0.875190313429601,0.007742293872959946,-0.175518,-25.950597
11.185,2.0,1.0,1.0,33.9,34.7,34.7,2.6,2.2,2.635,0.43130344916794106,-0.051164102905760164,0.8794143043427719,0.007348535027792339,-0.180038,-25.732015
11.185,2.0,1.0,1.0,33.9,34.7,34.7,2.6,2.2,2.6375,0.42150747105768943,-0.05257100260659254,0.8835605477638079,0.0069235817587433406,-0.184769,-25.510393
11.185,2.0,1.0,1.0,33.9,34.7,34.7,2.6,2.2,2.64,0.4115540579736857,-0.05402958090331244,0.887625046183955,0.006465074698664816,-0.189724,-25.285626
11.185,2.0,1.0,1.0,33.9,34.7,34.7,2.6,2.2,2.6425,0.40143937882787645,-0.05554244689940713,0.8916035368484528,0.005970441029863657,-0.194919,-25.057606
11.185,2.0,1.0,1.0,33.9,34.7,34.7,2.6,2.2,2.645,0.3911594217104379,-0.05711237697574698,0.895491466833962,0.005436871330097251,-0.200373,-24.826216
11.185,2.0,1.0,1.0,33.9,34.7,34.7,2.6,2.2,2.6475,0.380709981470353,-0.05874232722150746,0.8992839651046471,0.004861293469261218,-0.206102,-24.591335
11.185,2.0,1.0,1.0,33.9,34.7,34.7,2.6,2.2,2.65,0.3700866463519218,-0.06043544681159465,0.9029758111105955,0.00424034312472941,-0.212128,-24.352838
11.185,2.0,1.0,1.0,33.9,34.7,34.7,2.6,2.2,2.6525,0.35928478363637106,-0.06219509238039136,0.9065613994203061,0.003570330411802547,-0.218473,-24.11059
11.185,2.0,1.0,1.0,33.9,34.7,34.7,2.6,2.2,2.655,0.34829952424414407,-0.06402484343495156,0.9100346997938634,0.002847202041093328,-0.225161,-23.864449
11.185,2.0,1.0,1.0,33.9,34.7,34.7,2.6,2.2,2.6575,0.337125746264166,-0.06592851883982491,0.9133892120023894,0.002066498314237019,-0.232221,-23.614269
11.185,2.0,1.0,1.0,33.9,34.7,34.7,2.6,2.2,2.66,0.32575805739272906,-0.06791019438900567,0.9166179145792633,0.0012233041498655648,-0.239681,-23.359892
11.185,2.0,1.0,1.0,33.9,34.7,34.7,2.6,2.2,2.6625,0.3141907762888204,-0.06997422145599744,0.9197132065453761,0.0003121931893908735,-0.247575,-23.101152
11.185,2.0,1.0,1.0,33.9,34.7,34.7,2.6,2.2,2.665,0.30241791288735004,-0.07212524667788588,0.9226668409796664,-0.0006728361380027215,-0.255939,-22.837876
11.185,2.0,1.0,1.0,33.9,34.7,34.7,2.6,2.2,2.6675,0.2904331477606939,-0.07436823257993885,0.9254698491013126,-0.0017384339154786776,-0.264815,-22.569878
11.185,2.0,1.0,1.0,33.9,34.7,34.7,2.6,2.2,2.67,0.27822981068698255,-0.0767084789786411,0.9281124532841631,-0.002891982972618305,-0.274248,-22.296964
11.185,2.0,1.0,1.0,33.9,34.7,34.7,2.6,2.2,2.6725,0.26580085867750497,-0.07915164490652885,0.9305839671283421,-0.004141695916340156,-0.284289,-22.018926
11.185,2.0,1.0,1.0,33.9,34.7,34.7,2.6,2.2,2.675,0.25313885384431956,-0.08170377067278595,0.9328726803576856,-0.005496727175945808,-0.294994,-21.735546
11.185,2.0,1.0,1.0,33.9,34.7,34.7,2.6,2.2,2.6775,0.24023594166476875,-0.08437129949712573,0.9349657258815033,-0.006967302707447671,-0.306427,-21.44659
11.185,2.0,1.0,1.0,33.9,34.7,34.7,2.6,2.2,2.68,0.22708383043852218,-0.08716109791469433,0.9368489258388785,-0.0085648705198313,-0.31866,-21.151812
11.185,2.0,1.0,1.0,33.9,34.7,34.7,2.6,2.2,2.6825,0.21367377305727359,-0.09008047382430062,0.9385066128134677,-0.010302275812678719,-0.331775,-20.85095
11.185,2.0,1.0,1.0,33.9,34.7,34.7,2.6,2.2,2.685,0.199996552647396,-0.09313719061101323,0.9399214216425889,-0.012193965274577478,-0.345862,-20.543724
11.185,2.0,1.0,1.0,33.9,34.7,34.7,2.6,2.2,2.6875,0.186042474243229,-0.0963394751757893,0.941074046317013,-0.0142562260138402,-0.361026,-20.22984
11.185,2.0,1.0,1.0,33.9,34.7,34.7,2.6,2.2,2.69,0.17180136545959,-0.09969601689283912,0.9419429553424672,-0.01650746571195708,-0.377385,-19.90898
11.185,2.0,1.0,1.0,33.9,34.7,34.7,2.6,2.2,2.6925,0.1572625902343413,-0.10321595341230133,0.9425040575689945,-0.01896854194683905,-0.395076,-19.58081
11.185,2.0,1.0,1.0,33.9,34.7,34.7,2.6,2.2,2.695,0.14241508121239407,-0.10690883772465737,0.9427303088421555,-0.02166315027486231,-0.414254,-19.244971
11.185,2.0,1.0,1.0,33.9,34.7,34.7,2.6,2.2,2.6975,0.12724739838941768,-0.11078457885643947,0.9425912478362355,-0.024618282641422497,-0.435097,-18.901083
11.185,2.0,1.0,1.0,33.9,34.7,34.7,2.6,2.2,2.7,0.11174782443195858,-0.11485334576932481,0.9420524470366819,-0.027864770066219676,-0.457814,-18.54874
11.185,2.0,1.0,1.0,33.9,34.7,34.7,2.6,2.2,2.7025,0.09590451092599374,-0.11912542020206013,0.9410748619901458,-0.03143792637719916,-0.482645,-18.187509
11.185,2.0,1.0,1.0,33.9,34.7,34.7,2.6,2.2,2.705,0.07970569507599956,-0.12361097892997953,0.9396140585919894,-0.03537831308877868,-0.509871,-17.81693
11.185,2.0,1.0,1.0,33.9,34.7,34.7,2.6,2.2,2.7075,0.06314001363676405,-0.12831977866635744,0.9376192943210905,-0.039732649345498916,-0.53982,-17.436516
11.185,2.0,1.0,1.0,33.9,34.7,34.7,2.6,2.2,2.71,0.04619695088668522,-0.1332607068197566,0.935032425018583,-0.04455489512136575,-0.572878,-17.045747
11.185,2.0,1.0,1.0,33.9,34.7,34.7,2.6,2.2,2.7125,0.028867471328285117,-0.13844114747131597,0.9317866042339553,-0.049907540381913536,-0.609504,-16.644074
11.185,2.0,1.0,1.0,33.9,34.7,34.7,2.6,2.2,2.715,0.011144907040307418,-0.1438660927403664,0.9278047377712965,-0.05586313723470727,-0.650242,-16.230921
11.185,2.0,1.0,1.0,33.9,34.7,34.7,2.6,2.2,2.7175,-0.006973803699241103,-0.14953690307965434,0.9229976527487486,-0.06250611532265579,-0.69574,-15.80568
11.185,2.0,1.0,1.0,33.9,34.7,34.7,2.6,2.2,2.72,-0.02548639287045962,-0.15544958311842422,0.9172619399040508,-0.06993492118088895,-0.746781,-15.367722
11.185,2.0,1.0,1.0,33.9,34.7,34.7,2.6,2.2,2.7225,-0.04438286934651221,-0.16159238858201155,0.9104774330530363,-0.07826451696476716,-0.804309,-14.916395
11.185,2.0,1.0,1.0,33.9,34.7,34.7,2.6,2.2,2.725,-0.06364220020156866,-0.16794250946874434,0.9025043058434232,-0.08762925755688496,-0.869472,-14.451043
11.185,2.0,1.0,1.0,33.9,34.7,34.7,2.6,2.2,2.7275,-0.08322771480017352,-0.17446147866666956,0.8931798024109974,-0.09818612841482606,-0.943676,-13.971013
11.185,2.0,1.0,1.0,33.9,34.7,34.7,2.6,2.2,2.73,-0.10308075019210523,-0.18108882619962724,0.8823146908215,-0.11011825407052664,-1.028653,-13.475681
11.185,2.0,1.0,1.0,33.9,34.7,34.7,2.6,2.2,2.7325,-0.12311188658591109,-0.18773333043221985,0.8696896623261465,-0.12363845293532366,-1.126547,-12.964484
11.185,2.0,1.0,1.0,33.9,34.7,34.7,2.6,2.2,2.735,-0.14318890908061527,-0.1942610062939217,0.8550521382092235,-0.1389923753821056,-1.240033,-12.43697
11.185,2.0,1.0,1.0,33.9,34.7,34.7,2.6,2.2,2.7375,-0.16312038703710313,-0.20047872771166364,0.8381143576239372,-0.1564603509379461,-1.372463,-11.892867
11.185,2.0,1.0,1.0,33.9,34.7,34.7,2.6,2.2,2.74,-0.18263352881533243,-0.20611215049561948,0.81855430901798,-0.17635638254228816,-1.528062,-11.332178
11.185,2.0,1.0,1.0,33.9,34.7,34.7,2.6,2.2,2.7425,-0.2013448621528907,-0.21077649806950954,0.7960221846811931,-0.1990216118493712,-1.71217,-10.755329
11.185,2.0,1.0,1.0,33.9,34.7,34.7,2.6,2.2,2.745,-0.21872256907168136,-0.21393905532141597,0.770156771512351,-0.22480785189222136,-1.931548,-10.163354
11.185,2.0,1.0,1.0,33.9,34.7,34.7,2.6,2.2,2.7475,-0.23404049772069777,-0.21487341325916237,0.7406187104800452,-0.2540442749535558,-2.194731,-9.558168
11.185,2.0,1.0,1.0,33.9,34.7,34.7,2.6,2.2,2.75,-0.246326957139048,-0.212608591222017,0.707150819075713,-0.286977100312931,-2.51239,-8.942914
11.185,2.0,1.0,1.0,33.9,34.7,34.7,2.6,2.2,2.7525,-0.2543179530290598,-0.20588270575746215,0.6696789349125715,-0.32366889151859185,-2.897578,-8.32242
11.185,2.0,1.0,1.0,33.9,34.7,34.7,2.6,2.2,2.755,-0.2564365590260302,-0.193122858570241,0.6284675736404225,-0.36384327555496204,-3.365524,-7.703735
11.185,2.0,1.0,1.0,33.9,34.7,34.7,2.6,2.2,2.7575,-0.2508387901778873,-0.1724915116943361,0.5843374347443003,-0.40666818908706265,-3.932207,-7.096708
11.185,2.0,1.0,1.0,33.9,34.7,34.7,2.6,2.2,2.76,-0.2355880046510902,-0.14206113900814238,0.5389264304831995,-0.4504961035332162,-4.609949,-6.514457
11.185,2.0,1.0,1.0,33.9,34.7,34.7,2.6,2.2,2.7625,-0.20902839588966057,-0.10018729454227439,0.49492129530846185,-0.4926341615994909,-5.396435,-5.973502
11.185,2.0,1.0,1.0,33.9,34.7,34.7,2.6,2.2,2.765,-0.17038794410393837,-0.04610992772941436,0.4561058157848947,-0.5292978174681602,-6.251334,-5.493163
11.185,2.0,1.0,1.0,33.9,34.7,34.7,2.6,2.2,2.7675,-0.12050979172524219,0.019318412275695137,0.4270118365680767,-0.5559608969333839,-7.058387,-5.093875
11.185,2.0,1.0,1.0,33.9,34.7,34.7,2.6,2.2,2.77,-0.062400380668958054,0.09308863690078985,0.412029699651264,-0.5682440903424665,-7.602945,-4.794289
11.185,2.0,1.0,1.0,33.9,34.7,34.7,2.6,2.2,2.7725,-0.0011469117819761147,0.17012111747209133,0.414129428024853,-0.5631897206415316,-7.657245,-4.607685
11.185,2.0,1.0,1.0,33.9,34.7,34.7,2.6,2.2,2.775,0.05705311726297398,0.24423651087779197,0.43374477967318975,-0.5403715548757224,-7.180817,-4.538858
11.185,2.0,1.0,1.0,33.9,34.7,34.7,2.6,2.2,2.7775,0.10645852844306403,0.30971859180037103,0.4684861740354575,-0.5021764693858753,-6.367403,-4.582875
11.185,2.0,1.0,1.0,33.9,34.7,34.7,2.6,2.2,2.78,0.14318251005109695,0.36270599042019724,0.5139051619501397,-0.4530381512289509,-5.457655,-4.726289
11.185,2.0,1.0,1.0,33.9,34.7,34.7,2.6,2.2,2.7825,0.16576439477919266,0.40175836788987557,0.5648604106431424,-0.39807341852591854,-4.602402,-4.950235
11.185,2.0,1.0,1.0,33.9,34.7,34.7,2.6,2.2,2.785,0.17484538789086365,0.42752952645626363,0.6167602495681664,-0.3418441767195353,-3.861961,-5.234018
11.185,2.0,1.0,1.0,33.9,34.7,34.7,2.6,2.2,2.7875,0.17236603851530816,0.44196529126871664,0.6662363156839962,-0.28768796911306965,-3.246058,-5.558026
11.185,2.0,1.0,1.0,33.9,34.7,34.7,2.6,2.2,2.79,0.16075943675226753,0.44749876821687734,0.711244418585711,-0.23761963642060152,-2.743234,-5.905433
11.185,2.0,1.0,1.0,33.9,34.7,34.7,2.6,2.2,2.7925,0.14239228253250055,0.4464937168649327,0.7508273705137944,-0.19256930596794186,-2.335743,-6.262798
11.185,2.0,1.0,1.0,33.9,34.7,34.7,2.6,2.2,2.795,0.1192827574201169,0.4409642121226485,0.7847756604120825,-0.15272143505623464,-2.005897,-6.619954
11.185,2.0,1.0,1.0,33.9,34.7,34.7,2.6,2.2,2.7975,0.09301752585964582,0.43249275494198147,0.8133232635576864,-0.11781823619500432,-1.738299,-6.969528
11.185,2.0,1.0,1.0,33.9,34.7,34.7,2.6,2.2,2.8,0.06477741136392484,0.4222565048757883,0.8369258076791131,-0.08738065649703639,-1.520321,-7.306367
11.185,2.0,1.0,1.0,33.9,34.7,34.7,2.6,2.2,2.8025,0.03540675021769706,0.41109683130295854,0.8561188647370679,-0.06084931869040556,-1.341897,-7.626995
11.185,2.0,1.0,1.0,33.9,34.7,34.7,2.6,2.2,2.805,0.005490159086771599,0.39959607992235985,0.8714368043671892,-0.03766503162538659,-1.19511,-7.929161
11.185,2.0,1.0,1.0,33.9,34.7,34.7,2.6,2.2,2.8075,-0.024579412512182007,0.38814552998231233,0.8833716572488529,-0.017309404880380318,-1.07377,-8.21148
11.185,2.0,1.0,1.0,33.9,34.7,34.7,2.6,2.2,2.81,-0.0545462533879042,0.37699969224154495,0.8923560705170577,0.0006785512418578334,-0.97304,-8.473166
11.185,2.0,1.0,1.0,33.9,34.7,34.7,2.6,2.2,2.8125,-0.0842507849422363,0.3663172763567,0.898759642768476,0.0166991652833425,-0.889132,-8.713836
11.185,2.0,1.0,1.0,33.9,34.7,34.7,2.6,2.2,2.815,-0.11359957954479474,0.35619103706228955,0.9028920224336329,0.031095599703487253,-0.819073,-8.933367
11.185,2.0,1.0,1.0,33.9,34.7,34.7,2.6,2.2,2.8175,-0.14254397201143088,0.346669030875855,0.9050089366964225,0.04416029513149597,-0.760518,-9.131792
11.185,2.0,1.0,1.0,33.9,34.7,34.7,2.6,2.2,2.82,-0.17106502246953714,0.33776952067342536,0.9053190589201531,0.05614229413760864,-0.711609,-9.309234
11.185,2.0,1.0,1.0,33.9,34.7,34.7,2.6,2.2,2.8225,-0.1991630487269721,0.32949130277054556,0.9039906513462976,0.06725440153195414,-0.670876,-9.465847
11.185,2.0,1.0,1.0,33.9,34.7,34.7,2.6,2.2,2.825,-0.2268503891089705,0.32182078624039845,0.9011575001063992,0.0776797182017978,-0.637146,-9.601785
11.185,2.0,1.0,1.0,33.9,34.7,34.7,2.6,2.2,2.8275,-0.25414642086975214,0.31473678797499627,0.8969239713657471,0.08757739866754502,-0.609487,-9.717174
11.185,2.0,1.0,1.0,33.9,34.7,34.7,2.6,2.2,2.83,-0.2810741368655888,0.30821372674269604,0.8913691743811339,0.09708764243141484,-0.587164,-9.812092
