1,w,sub_t,h,l1,l2,l3,g1,g2,Freq,S11_re,S21_re,S11_img,S21_img,S11_dB,S21_dB
11.185,2.0,1.0,1.0,33.5,33.2,33.2,3.0,3.0,2.5,0.848544258699287,-0.00700251140853573,0.517337260150587,0.00564112116607424,-0.053902,-40.922802
11.185,2.0,1.0,1.0,33.5,33.2,33.2,3.0,3.0,2.5025,0.8450463342746695,-0.007139089514037712,0.522926725243198,0.005661668598805708,-0.054384,-40.808116
11.185,2.0,1.0,1.0,33.5,33.2,33.2,3.0,3.0,2.505,0.8414964545967802,-0.007277949072498578,0.5285149590630027,0.005681447273692285,-0.054874,-40.693189
11.185,2.0,1.0,1.0,33.5,33.2,33.2,3.0,3.0,2.5075,0.8378941218232726,-0.007419130911511931,0.5341017096657764,0.005700426269351752,-0.055371,-40.578016
11.185,2.0,1.0,1.0,33.5,33.2,33.2,3.0,3.0,2.51,0.8342388306236348,-0.00756267672818114,0.5396867176956911,0.005718573595917149,-0.055877,-40.462588
11.185,2.0,1.0,1.0,33.5,33.2,33.2,3.0,3.0,2.5125,0.8305300680744397,-0.00770862910971813,0.5452697161522571,0.005735856155276857,-0.056392,-40.346901
11.185,2.0,1.0,1.0,33.5,33.2,33.2,3.0,3.0,2.515,0.8267673135539282,-0.007857031554547724,0.5508504301499619,0.005752239699695253,-0.056915,-40.230945
11.185,2.0,1.0,1.0,33.5,33.2,33.2,3.0,3.0,2.5175,0.8229500386359789,-0.008007928493928538,0.5564285766703454,0.0057676887887418895,-0.057447,-40.114716
11.185,2.0,1.0,1.0,33.5,33.2,33.2,3.0,3.0,2.52,0.8190777069835108,-0.008161365314102314,0.5620038643062792,0.005782166744451819,-0.057987,-39.998205
11.185,2.0,1.0,1.0,33.5,33.2,33.2,3.0,3.0,2.5225,0.8151497742413868,-0.008317388378982469,0.5675759929981712,0.005795635604637847,-0.058538,-39.881407
11.185,2.0,1.0,1.0,33.5,33.2,33.2,3.0,3.0,2.525,0.8111656879288698,-0.008476045053394946,0.5731446537618422,0.005808056074269403,-0.059097,-39.764313
11.185,2.0,1.0,1.0,33.5,33.2,33.2,3.0,3.0,2.5275,0.8071248873317002,-0.00863738372688235,0.5787095284077934,0.005819387474830956,-0.059666,-39.646917
11.185,2.0,1.0,1.0,33.5,33.2,33.2,3.0,3.0,2.53,0.8030268033938724,-0.008801453838082566,0.584270289251571,0.005829587691565153,-0.060245,-39.529212
11.185,2.0,1.0,1.0,33.5,33.2,33.2,3.0,3.0,2.5325,0.7988708586091808,-0.008968305899695871,0.5898265988149326,0.0058386131185046534,-0.060834,-39.41119
11.185,2.0,1.0,1.0,33.5,33.2,33.2,3.0,3.0,2.535,0.7946564669126192,-0.009137991524049774,0.5953781095175148,0.005846418601188425,-0.061433,-39.292844
11.185,2.0,1.0,1.0,33.5,33.2,33.2,3.0,3.0,2.5375,0.7903830335717276,-0.009310563449275968,0.6009244633586645,0.005852957376955823,-0.062043,-39.174167
11.185,2.0,1.0,1.0,33.5,33.2,33.2,3.0,3.0,2.54,0.7860499550779773,-0.00948607556610932,0.6064652915891188,0.005858181012703105,-0.062664,-39.055152
11.185,2.0,1.0,1.0,33.5,33.2,33.2,3.0,3.0,2.5425,0.7816566190382941,-0.009664582945321961,0.6120002143721825,0.005862039339984048,-0.063296,-38.93579
11.185,2.0,1.0,1.0,33.5,33.2,33.2,3.0,3.0,2.545,0.777202404066834,-0.009846141865803553,0.6175288404340524,0.005864480387328042,-0.063939,-38.816075
11.185,2.0,1.0,1.0,33.5,33.2,33.2,3.0,3.0,2.5475,0.7726866796771289,-0.010030809843299088,0.6230507667029044,0.005865450309643171,-0.064593,-38.695998
11.185,2.0,1.0,1.0,33.5,33.2,33.2,3.0,3.0,2.55,0.7681088061747152,-0.01021864565981631,0.6285655779363897,0.005864893314564558,-0.065259,-38.575552
11.185,2.0,1.0,1.0,33.5,33.2,33.2,3.0,3.0,2.5525,0.7634681345503997,-0.010409709393712429,0.6340728463371077,0.005862751585600967,-0.065938,-38.454728
11.185,2.0,1.0,1.0,33.5,33.2,33.2,3.0,3.0,2.555,0.7587640063742841,-0.010604062450472103,0.6395721311556756,0.005858965201924075,-0.066628,-38.33352
11.185,2.0,1.0,1.0,33.5,33.2,33.2,3.0,3.0,2.5575,0.7539957536907087,-0.010801767594186655,0.6450629782809527,0.005853472054637806,-0.067332,-38.211919
11.185,2.0,1.0,1.0,33.5,33.2,33.2,3.0,3.0,2.56,0.7491626989142789,-0.011002888979743688,0.6505449198169795,0.0058462077593542565,-0.068048,-38.089916
11.185,2.0,1.0,1.0,33.5,33.2,33.2,3.0,3.0,2.5625,0.7442641547271437,-0.0112074921857376,0.6560174736461736,0.005837105564895639,-0.068778,-37.967503
11.185,2.0,1.0,1.0,33.5,33.2,33.2,3.0,3.0,2.565,0.7392994239777043,-0.011415644248108578,0.661480142978311,0.005826096257928909,-0.069521,-37.844673
11.185,2.0,1.0,1.0,33.5,33.2,33.2,3.0,3.0,2.5675,0.7342677995809582,-0.011627413694518725,0.6669324158847892,0.005813108063331806,-0.070278,-37.721416
11.185,2.0,1.0,1.0,33.5,33.2,33.2,3.0,3.0,2.57,0.7291685644206785,-0.011842870579472472,0.672373764817669,0.005798066540075882,-0.07105,-37.597725
11.185,2.0,1.0,1.0,33.5,33.2,33.2,3.0,3.0,2.5725,0.7240009912536469,-0.012062086520186902,0.6778036461129594,0.005780894472400628,-0.071836,-37.473589
11.185,2.0,1.0,1.0,33.5,33.2,33.2,3.0,3.0,2.575,0.7187643426161822,-0.012285134733218244,0.683221499477594,0.005761511756040559,-0.072637,-37.349001
11.185,2.0,1.0,1.0,33.5,33.2,33.2,3.0,3.0,2.5775,0.7134578707332024,-0.01251209007184692,0.6886267474595231,0.005739835279252399,-0.073454,-37.223951
11.185,2.0,1.0,1.0,33.5,33.2,33.2,3.0,3.0,2.58,0.7080808174300994,-0.012743029064224937,0.6940187949003264,0.005715778798375758,-0.074286,-37.098431
11.185,2.0,1.0,1.0,33.5,33.2,33.2,3.0,3.0,2.5825,0.702632414047688,-0.012978029952286436,0.6993970283697309,0.0056892528076463176,-0.075134,-36.972431
11.185,2.0,1.0,1.0,33.5,33.2,33.2,3.0,3.0,2.585,0.6971118813605427,-0.013217172731419785,0.704760815581384,0.005660164402961427,-0.075999,-36.845942
11.185,2.0,1.0,1.0,33.5,33.2,33.2,3.0,3.0,2.5875,0.6915184294990273,-0.013460539190899698,0.7101095047892205,0.0056284171392833515,-0.076881,-36.718953
11.185,2.0,1.0,1.0,33.5,33.2,33.2,3.0,3.0,2.59,0.6858512578753597,-0.01370821295507352,0.7154424241637192,0.005593910881345345,-0.07778,-36.591457
11.185,2.0,1.0,1.0,33.5,33.2,33.2,3.0,3.0,2.5925,0.6801095551140579,-0.01396027952529482,0.7207588811473388,0.005556541647306122,-0.078698,-36.463442
11.185,2.0,1.0,1.0,33.5,33.2,33.2,3.0,3.0,2.595,0.6742924989871583,-0.014216826322593855,0.7260581617883606,0.005516201444977227,-0.079633,-36.3349
11.185,2.0,1.0,1.0,33.5,33.2,33.2,3.0,3.0,2.5975,0.6683992563545889,-0.014477942731072167,0.7313395300523761,0.005472778100225318,-0.080588,-36.205818
11.185,2.0,1.0,1.0,33.5,33.2,33.2,3.0,3.0,2.6,0.6624289831101283,-0.014743720142004414,0.7366022271105932,0.005426155077127238,-0.081562,-36.076189
11.185,2.0,1.0,1.0,33.5,33.2,33.2,3.0,3.0,2.6025,0.6563808241334054,-0.015014251998626849,0.7418454706041079,0.005376211289429357,-0.082555,-35.946
11.185,2.0,1.0,1.0,33.5,33.2,33.2,3.0,3.0,2.605,0.6502539132483992,-0.015289633841588532,0.7470684538832691,0.005322820902836503,-0.083569,-35.815242
11.185,2.0,1.0,1.0,33.5,33.2,33.2,3.0,3.0,2.6075,0.6440473731889572,-0.015569963355035356,0.7522703452212047,0.005265853127624455,-0.084604,-35.683903
11.185,2.0,1.0,1.0,33.5,33.2,33.2,3.0,3.0,2.61,0.6377603155718583,-0.015855340413292583,0.7574502870005496,0.005205172001040792,-0.085661,-35.551972
11.185,2.0,1.0,1.0,33.5,33.2,33.2,3.0,3.0,2.6125,0.6313918408779874,-0.01614586712810566,0.7626073948723753,0.005140636158922461,-0.086739,-35.419439
11.185,2.0,1.0,1.0,33.5,33.2,33.2,3.0,3.0,2.615,0.6249410384422147,-0.016441647896392853,0.7677407568862782,0.005072098595925085,-0.08784,-35.286291
11.185,2.0,1.0,1.0,33.5,33.2,33.2,3.0,3.0,2.6175,0.6184069864526245,-0.016742789448454972,0.7728494325905245,0.004999406413717949,-0.088965,-35.152518
11.185,2.0,1.0,1.0,33.5,33.2,33.2,3.0,3.0,2.62,0.6117887519597557,-0.017049400896581645,0.7779324521011189,0.004922400556458518,-0.090114,-35.018107
11.185,2.0,1.0,1.0,33.5,33.2,33.2,3.0,3.0,2.6225,0.6050853908965649,-0.017361593783982613,0.7829888151386106,0.004840915532815391,-0.091287,-34.883046
11.185,2.0,1.0,1.0,33.5,33.2,33.2,3.0,3.0,2.625,0.598295948109878,-0.0176794821339643,0.788017490031369,0.00475477912376097,-0.092485,-34.747323
11.185,2.0,1.0,1.0,33.5,33.2,33.2,3.0,3.0,2.6275,0.5914194574041108,-0.01800318249926021,0.7930174126840555,0.004663812075303096,-0.09371,-34.610925
11.185,2.0,1.0,1.0,33.5,33.2,33.2,3.0,3.0,2.63,0.5844549415981163,-0.01833281401141291,0.7979874855099004,0.004567827775271069,-0.094962,-34.47384
11.185,2.0,1.0,1.0,33.5,33.2,33.2,3.0,3.0,2.6325,0.5774014125960478,-0.018668498430090552,0.802926576325376,0.004466631913210725,-0.096241,-34.336054
11.185,2.0,1.0,1.0,33.5,33.2,33.2,3.0,3.0,2.635,0.5702578714731928,-0.01901036019220692,0.8078335172057535,0.004360022122380553,-0.097548,-34.197554
11.185,2.0,1.0,1.0,33.5,33.2,33.2,3.0,3.0,2.6375,0.5630233085777824,-0.019358526460698425,0.8127071032999807,0.00424778760277147,-0.098885,-34.058327
11.185,2.0,1.0,1.0,33.5,33.2,33.2,3.0,3.0,2.64,0.5556967036498308,-0.019713127172792118,0.817546091603236,0.004129708723999665,-0.100252,-33.918358
11.185,2.0,1.0,1.0,33.5,33.2,33.2,3.0,3.0,2.6425,0.5482770259581545,-0.020074295087579144,0.8223491996854212,0.0040055566068407525,-0.10165,-33.777634
11.185,2.0,1.0,1.0,33.5,33.2,33.2,3.0,3.0,2.645,0.5407632344567526,-0.020442165832686068,0.8271151043737776,0.0038750926820895703,-0.103081,-33.636139
11.185,2.0,1.0,1.0,33.5,33.2,33.2,3.0,3.0,2.6475,0.5331542779618309,-0.02081687794981153,0.8318424403877123,0.0037380682253352155,-0.104544,-33.49386
11.185,2.0,1.0,1.0,33.5,33.2,33.2,3.0,3.0,2.65,0.5254490953508012,-0.021198572938868267,0.8365297989238294,0.0035942238661422336,-0.106041,-33.35078
11.185,2.0,1.0,1.0,33.5,33.2,33.2,3.0,3.0,2.6525,0.5176466157847147,-0.021587395300439526,0.841175726189028,0.003443289070019423,-0.107573,-33.206885
11.185,2.0,1.0,1.0,33.5,33.2,33.2,3.0,3.0,2.655,0.5097457589556166,-0.021983492576225824,0.845778721879451,0.003284981591441748,-0.109142,-33.062159
11.185,2.0,1.0,1.0,33.5,33.2,33.2,3.0,3.0,2.6575,0.5017454353604568,-0.022387015387119354,0.8503372376029127,0.0031190068960630125,-0.110747,-32.916584
11.185,2.0,1.0,1.0,33.5,33.2,33.2,3.0,3.0,2.66,0.4936445466032568,-0.022798117468502424,0.8548496752423177,0.0029450575501215304,-0.112391,-32.770146
11.185,2.0,1.0,1.0,33.5,33.2,33.2,3.0,3.0,2.6625,0.4854419857273714,-0.02321695570231764,0.8593143852574325,0.002762812574890599,-0.114075,-32.622826
11.185,2.0,1.0,1.0,33.5,33.2,33.2,3.0,3.0,2.665,0.4771366375797548,-0.023643690145408926,0.8637296649222288,0.002571936763866254,-0.1158,-32.474607
11.185,2.0,1.0,1.0,33.5,33.2,33.2,3.0,3.0,2.6675,0.4687273792093232,-0.02407848405356897,0.8680937564948313,0.002372079960208284,-0.117568,-32.325472
11.185,2.0,1.0,1.0,33.5,33.2,33.2,3.0,3.0,2.67,0.4602130803015855,-0.024521503900671204,0.8724048453169471,0.0021628762917634543,-0.119379,-32.175401
11.185,2.0,1.0,1.0,33.5,33.2,33.2,3.0,3.0,2.6725,0.45159260365188697,-0.024972919392184652,0.8766610578394463,0.001943943360789643,-0.121236,-32.024378
11.185,2.0,1.0,1.0,33.5,33.2,33.2,3.0,3.0,2.675,0.44286480567976133,-0.025432903472296264,0.8808604595705535,0.0017148813852810032,-0.123139,-31.872381
11.185,2.0,1.0,1.0,33.5,33.2,33.2,3.0,3.0,2.6775,0.4340285369870481,-0.02590163232376943,0.8850010529428902,0.001475272288545596,-0.125091,-31.719391
11.185,2.0,1.0,1.0,33.5,33.2,33.2,3.0,3.0,2.68,0.42508264296260856,-0.02637928535957165,0.8890807750953579,0.001224678733423587,-0.127093,-31.565389
11.185,2.0,1.0,1.0,33.5,33.2,33.2,3.0,3.0,2.6825,0.4160259644366876,-0.02686604520518802,0.8930974955655795,0.0009626430972453732,-0.129146,-31.410353
11.185,2.0,1.0,1.0,33.5,33.2,33.2,3.0,3.0,2.685,0.40685733838815413,-0.027362097670412974,0.8970490138883404,0.0006886863833127335,-0.131254,-31.254262
11.185,2.0,1.0,1.0,33.5,33.2,33.2,3.0,3.0,2.6875,0.397575598708099,-0.0278676317092721,0.900933057095135,0.000402307064341083,-0.133417,-31.097094
11.185,2.0,1.0,1.0,33.5,33.2,33.2,3.0,3.0,2.69,0.38817957702352623,-0.028382839366564636,0.9047472771095884,0.0001029798529275883,-0.135637,-30.938826
11.185,2.0,1.0,1.0,33.5,33.2,33.2,3.0,3.0,2.6925,0.3786681035851114,-0.028907915709342837,0.9084892480331522,-0.00020984560630537755,-0.137918,-30.779436
11.185,2.0,1.0,1.0,33.5,33.2,33.2,3.0,3.0,2.695,0.3690400082233561,-0.02944305874144102,0.912156463315044,-0.0005367461286857912,-0.14026,-30.618898
11.185,2.0,1.0,1.0,33.5,33.2,33.2,3.0,3.0,2.6975,0.3592941213777192,-0.029988469298946743,0.9157463327999682,-0.0008783264718795984,-0.142666,-30.45719
11.185,2.0,1.0,1.0,33.5,33.2,33.2,3.0,3.0,2.7,0.34942927520374,-0.030544350924248554,0.9192561796466427,-0.0012352209155171007,-0.145139,-30.294285
11.185,2.0,1.0,1.0,33.5,33.2,33.2,3.0,3.0,2.7025,0.33944430476348925,-0.03111090971601586,0.9226832371096306,-0.0016080949454791603,-0.147681,-30.130158
11.185,2.0,1.0,1.0,33.5,33.2,33.2,3.0,3.0,2.705,0.3293380493051751,-0.0316883541521383,0.9260246451763666,-0.0019976470509133035,-0.150295,-29.964781
11.185,2.0,1.0,1.0,33.5,33.2,33.2,3.0,3.0,2.7075,0.31910935363815723,-0.032276894882297166,0.9292774470506205,-0.0024046106427611396,-0.152984,-29.798128
11.185,2.0,1.0,1.0,33.5,33.2,33.2,3.0,3.0,2.71,0.3087570696101915,-0.0328767444864253,0.9324385854729167,-0.002829756103362818,-0.15575,-29.630168
11.185,2.0,1.0,1.0,33.5,33.2,33.2,3.0,3.0,2.7125,0.29828005769427235,-0.03348811719485187,0.9355048988676357,-0.0032738929775672546,-0.158597,-29.460874
11.185,2.0,1.0,1.0,33.5,33.2,33.2,3.0,3.0,2.715,0.28767718869311654,-0.03411122856540427,0.9384731173056442,-0.0037378723167249177,-0.161528,-29.290215
11.185,2.0,1.0,1.0,33.5,33.2,33.2,3.0,3.0,2.7175,0.27694734557003053,-0.03474629511214269,0.9413398582703344,-0.004222589187986406,-0.164546,-29.11816
11.185,2.0,1.0,1.0,33.5,33.2,33.2,3.0,3.0,2.72,0.2660894254157333,-0.03539353387972912,0.944101622213883,-0.004728985362484314,-0.167656,-28.944675
11.185,2.0,1.0,1.0,33.5,33.2,33.2,3.0,3.0,2.7225,0.25510234156155975,-0.03605316195666704,0.9467547878893587,-0.0052580521972506985,-0.17086,-28.769728
11.185,2.0,1.0,1.0,33.5,33.2,33.2,3.0,3.0,2.725,0.24398502585054258,-0.03672539591977405,0.9492956074429858,-0.005810833727126456,-0.174163,-28.593284
11.185,2.0,1.0,1.0,33.5,33.2,33.2,3.0,3.0,2.7275,0.23273643107891948,-0.03741045120125827,0.9517202012494349,-0.00638842998448074,-0.17757,-28.415308
11.185,2.0,1.0,1.0,33.5,33.2,33.2,3.0,3.0,2.73,0.22135553362196453,-0.03810854136863579,0.9540245524713777,-0.006992000566275209,-0.181084,-28.235762
11.185,2.0,1.0,1.0,33.5,33.2,33.2,3.0,3.0,2.7325,0.20984133625940798,-0.03881987730643602,0.956204501322763,-0.007622768469921319,-0.184711,-28.054608
11.185,2.0,1.0,1.0,33.5,33.2,33.2,3.0,3.0,2.735,0.19819287121738674,-0.039544666287159976,0.958255739013276,-0.008282024221488842,-0.188456,-27.871807
11.185,2.0,1.0,1.0,33.5,33.2,33.2,3.0,3.0,2.7375,0.1864092034456584,-0.040283110917270805,0.9601738013492169,-0.008971130322176005,-0.192323,-27.687317
11.185,2.0,1.0,1.0,33.5,33.2,33.2,3.0,3.0,2.74,0.17448943415094068,-0.04103540794205063,0.9619540619635698,-0.009691526041552925,-0.19632,-27.501097
11.185,2.0,1.0,1.0,33.5,33.2,33.2,3.0,3.0,2.7425,0.16243270460957301,-0.041801746890938754,0.9635917251452779,-0.010444732588991057,-0.200451,-27.313101
11.185,2.0,1.0,1.0,33.5,33.2,33.2,3.0,3.0,2.745,0.150238200285441,-0.042582308542404114,0.9650818182346629,-0.011232358697907747,-0.204724,-27.123284
11.185,2.0,1.0,1.0,33.5,33.2,33.2,3.0,3.0,2.7475,0.13790515528217703,-0.04337726318446391,0.9664191835484968,-0.012056106661045334,-0.209144,-26.931598
11.185,2.0,1.0,1.0,33.5,33.2,33.2,3.0,3.0,2.75,0.125432857162213,-0.0441867686435632,0.9675984697944,-0.012917778858997,-0.213721,-26.737995
11.185,2.0,1.0,1.0,33.5,33.2,33.2,3.0,3.0,2.7525,0.11282065216932434,-0.04501096805061859,0.9686141229299504,-0.013819284828642026,-0.218461,-26.542422
11.185,2.0,1.0,1.0,33.5,33.2,33.2,3.0,3.0,2.755,0.10006795089601349,-0.04584998730848954,0.9694603764170876,-0.014762648923123142,-0.223372,-26.344826
11.185,2.0,1.0,1.0,33.5,33.2,33.2,3.0,3.0,2.7575,0.08717423444243713,-0.04670393221990713,0.9701312408170357,-0.015750018620542008,-0.228464,-26.145152
11.185,2.0,1.0,1.0,33.5,33.2,33.2,3.0,3.0,2.76,0.07413906111989602,-0.047572885228791134,0.9706204926649383,-0.01678367354474039,-0.233746,-25.943342
11.185,2.0,1.0,1.0,33.5,33.2,33.2,3.0,3.0,2.7625,0.060962073759070916,-0.04845690172082888,0.970921662556667,-0.017866035268455198,-0.239229,-25.739336
11.185,2.0,1.0,1.0,33.5,33.2,33.2,3.0,3.0,2.765,0.047643007691624814,-0.049356005820952405,0.9710280223727037,-0.01899967797687069,-0.244922,-25.533071
11.185,2.0,1.0,1.0,33.5,33.2,33.2,3.0,3.0,2.7675,0.03418169948353872,-0.050270185615761485,0.9709325715555257,-0.020187340078245488,-0.250839,-25.324481
11.185,2.0,1.0,1.0,33.5,33.2,33.2,3.0,3.0,2.77,0.020578096509899422,-0.05119938771773886,0.9706280223474067,-0.021431936857970926,-0.256992,-25.113499
11.185,2.0,1.0,1.0,33.5,33.2,33.2,3.0,3.0,2.7725,0.00683226747417131,-0.05214351107499698,0.9701067838849013,-0.022736574283245783,-0.263394,-24.900052
11.185,2.0,1.0,1.0,33.5,33.2,33.2,3.0,3.0,2.775,-0.0070555860094988175,-0.053102399914932485,0.9693609450343045,-0.024104564077674254,-0.27006,-24.684068
11.185,2.0,1.0,1.0,33.5,33.2,33.2,3.0,3.0,2.7775,-0.021085116634154667,-0.054075835692131154,0.9683822558389819,-0.025539440198647425,-0.277005,-24.465467
11.185,2.0,1.0,1.0,33.5,33.2,33.2,3.0,3.0,2.78,-0.03525581725989505,-0.05506352788964249,0.9671621074344403,-0.027044976865528796,-0.284247,-24.24417
11.185,2.0,1.0,1.0,33.5,33.2,33.2,3.0,3.0,2.7825,-0.0495670052322581,-0.05606510349772358,0.9656915102701711,-0.02862520830360529,-0.291805,-24.02009
11.185,2.0,1.0,1.0,33.5,33.2,33.2,3.0,3.0,2.785,-0.06401780494596955,-0.057080094964615746,0.9639610704584767,-0.0302844503876815,-0.299698,-23.793139
11.185,2.0,1.0,1.0,33.5,33.2,33.2,3.0,3.0,2.7875,-0.07860712840556698,-0.05810792637893472,0.9619609640494684,-0.03202732439027749,-0.307948,-23.563223
11.185,2.0,1.0,1.0,33.5,33.2,33.2,3.0,3.0,2.79,-0.0933336534927537,-0.059147897601799275,0.9596809090079671,-0.03385878306286509,-0.316578,-23.330245
11.185,2.0,1.0,1.0,33.5,33.2,33.2,3.0,3.0,2.7925,-0.10819579960063336,-0.06019916601752231,0.9571101346419577,-0.03578413930462538,-0.325615,-23.094102
11.185,2.0,1.0,1.0,33.5,33.2,33.2,3.0,3.0,2.795,-0.12319170023600902,-0.0612607255130087,0.9542373482033395,-0.03780909770204899,-0.335086,-22.854687
11.185,2.0,1.0,1.0,33.5,33.2,33.2,3.0,3.0,2.7975,-0.138319172120296,-0.06233138222592863,0.9510506983498157,-0.03993978925446185,-0.345021,-22.611887
11.185,2.0,1.0,1.0,33.5,33.2,33.2,3.0,3.0,2.8,-0.15357568023542284,-0.06340972651795822,0.9475377351216998,-0.04218280963539048,-0.355455,-22.365583
11.185,2.0,1.0,1.0,33.5,33.2,33.2,3.0,3.0,2.8025,-0.16895829815990882,-0.06449410052890661,0.9436853660492506,-0.044545261377561464,-0.366424,-22.115651
11.185,2.0,1.0,1.0,33.5,33.2,33.2,3.0,3.0,2.805,-0.18446366291888316,-0.06558256054686537,0.939479807964916,-0.0470348004101536,-0.377969,-21.861959
11.185,2.0,1.0,1.0,33.5,33.2,33.2,3.0,3.0,2.8075,-0.20008792342556225,-0.06667283328417604,0.9349065340509127,-0.04965968742035679,-0.390132,-21.60437
11.185,2.0,1.0,1.0,33.5,33.2,33.2,3.0,3.0,2.81,-0.21582668141516315,-0.06776226497361387,0.9299502156065452,-0.052428844556659866,-0.402964,-21.342739
11.185,2.0,1.0,1.0,33.5,33.2,33.2,3.0,3.0,2.8125,-0.231674923558627,-0.0688477619870101,0.924594657972733,-0.0553519180374702,-0.416519,-21.076911
11.185,2.0,1.0,1.0,33.5,33.2,33.2,3.0,3.0,2.815,-0.24762694318464562,-0.06992572142133953,0.918822730005017,-0.05843934727386792,-0.430855,-20.806727
11.185,2.0,1.0,1.0,33.5,33.2,33.2,3.0,3.0,2.8175,-0.26367624972379666,-0.07099194978478444,0.9126162864438095,-0.06170244115672634,-0.44604,-20.532016
11.185,2.0,1.0,1.0,33.5,33.2,33.2,3.0,3.0,2.82,-0.27981546360542825,-0.07204156753479861,0.905956082495805,-0.06515346219194355,-0.462146,-20.252599
11.185,2.0,1.0,1.0,33.5,33.2,33.2,3.0,3.0,2.8225,-0.2960361938703512,-0.073068896755929,0.8988216799195066,-0.06880571918702444,-0.479258,-19.968286
11.185,2.0,1.0,1.0,33.5,33.2,33.2,3.0,3.0,2.825,-0.312328895190656,-0.07406732869758896,0.8911913439095622,-0.07267366918881697,-0.497465,-19.678879
11.185,2.0,1.0,1.0,33.5,33.2,33.2,3.0,3.0,2.8275,-0.32868270028764346,-0.07502916719682198,0.8830419301119173,-0.07677302933308289,-0.516871,-19.384166
