1,w,sub_t,h,l1,l2,l3,g1,g2,Freq,S11_re,S21_re,S11_img,S21_img,S11_dB,S21_dB
11.185,2.0,1.0,1.0,33.9,34.1,34.1,2.0,3.7,2.5,0.790851727456527,-0.0115499261988417,0.599113022094294,0.00769491842612345,-0.06836,-37.153154
11.185,2.0,1.0,1.0,33.9,34.1,34.1,2.0,3.7,2.5025,0.7862811863855064,-0.011782248806263973,0.6049556084984656,0.007710263026871855,-0.069125,-37.02744
11.185,2.0,1.0,1.0,33.9,34.1,34.1,2.0,3.7,2.505,0.7816426097739126,-0.012018973221860076,0.6107924814993091,0.007723912731641735,-0.069905,-36.90126
11.185,2.0,1.0,1.0,33.9,34.1,34.1,2.0,3.7,2.5075,0.7769352261228772,-0.01226019369479985,0.6166231708200024,0.007735792648208478,-0.0707,-36.774606
11.185,2.0,1.0,1.0,33.9,34.1,34.1,2.0,3.7,2.51,0.7721582514699232,-0.012506006864445331,0.6224471909588074,0.0077458248427733295,-0.071511,-36.647467
11.185,2.0,1.0,1.0,33.9,34.1,34.1,2.0,3.7,2.5125,0.7673108891949931,-0.012756511828503814,0.6282640406693912,0.007753928205905794,-0.072337,-36.519835
11.185,2.0,1.0,1.0,33.9,34.1,34.1,2.0,3.7,2.515,0.7623923298247769,-0.013011810213232023,0.6340732024223039,0.007760018311927421,-0.07318,-36.391698
11.185,2.0,1.0,1.0,33.9,34.1,34.1,2.0,3.7,2.5175,0.757401750835441,-0.013272006245748326,0.6398741418468231,0.007764007271378567,-0.074039,-36.263048
11.185,2.0,1.0,1.0,33.9,34.1,34.1,2.0,3.7,2.52,0.7523383164538389,-0.013537206828511348,0.6456663071523939,0.0077658035761881735,-0.074916,-36.133875
11.185,2.0,1.0,1.0,33.9,34.1,34.1,2.0,3.7,2.5225,0.7472011774573277,-0.013807521616022896,0.6514491285287934,0.007765311937143832,-0.07581,-36.004167
11.185,2.0,1.0,1.0,33.9,34.1,34.1,2.0,3.7,2.525,0.7419894709722938,-0.014083063093814697,0.6572220175241732,0.007762433113233237,-0.076722,-35.873916
11.185,2.0,1.0,1.0,33.9,34.1,34.1,2.0,3.7,2.5275,0.7367023202715163,-0.014363946659777785,0.662984366400046,0.007757063732403057,-0.077653,-35.743109
11.185,2.0,1.0,1.0,33.9,34.1,34.1,2.0,3.7,2.53,0.7313388345705185,-0.014650290707893964,0.6687355474622512,0.007749096103251741,-0.078603,-35.611737
11.185,2.0,1.0,1.0,33.9,34.1,34.1,2.0,3.7,2.5325,0.7258981088230536,-0.014942216714427801,0.6744749123668993,0.007738418017142621,-0.079573,-35.479789
11.185,2.0,1.0,1.0,33.9,34.1,34.1,2.0,3.7,2.535,0.7203792235158893,-0.015239849326639169,0.6802017914002303,0.007724912540192042,-0.080563,-35.347253
11.185,2.0,1.0,1.0,33.9,34.1,34.1,2.0,3.7,2.5375,0.714781244463087,-0.015543316454071912,0.6859154927312724,0.007708457794550677,-0.081574,-35.214119
11.185,2.0,1.0,1.0,33.9,34.1,34.1,2.0,3.7,2.54,0.7091032225999614,-0.015852749362477894,0.691615301636138,0.007688926728360942,-0.082606,-35.080374
11.185,2.0,1.0,1.0,33.9,34.1,34.1,2.0,3.7,2.5425,0.7033441937769463,-0.016168282770429865,0.6973004796927363,0.0076661868737318865,-0.08366,-34.946007
11.185,2.0,1.0,1.0,33.9,34.1,34.1,2.0,3.7,2.545,0.6975031785535966,-0.01649005494867753,0.7029702639446049,0.007640100092031029,-0.084736,-34.811006
11.185,2.0,1.0,1.0,33.9,34.1,34.1,2.0,3.7,2.5475,0.6915791819929923,-0.016818207822297475,0.7086238660325115,0.0076105223057465286,-0.085836,-34.675359
11.185,2.0,1.0,1.0,33.9,34.1,34.1,2.0,3.7,2.55,0.6855711934568082,-0.01715288707568498,0.7142604712924119,0.007577303216123473,-0.08696,-34.539054
11.185,2.0,1.0,1.0,33.9,34.1,34.1,2.0,3.7,2.5525,0.6794781864013705,-0.017494242260431777,0.7198792378182461,0.007540286005725981,-0.088108,-34.402077
11.185,2.0,1.0,1.0,33.9,34.1,34.1,2.0,3.7,2.555,0.673299118175013,-0.017842426906129614,0.7254792954880168,0.007499307025019012,-0.089282,-34.264417
11.185,2.0,1.0,1.0,33.9,34.1,34.1,2.0,3.7,2.5575,0.6670329298170896,-0.01819759863413544,0.731059744951481,0.007454195462003961,-0.090482,-34.12606
11.185,2.0,1.0,1.0,33.9,34.1,34.1,2.0,3.7,2.56,0.660678545859038,-0.01855991927432435,0.7366196565777037,0.007404772993875353,-0.091709,-33.986993
11.185,2.0,1.0,1.0,33.9,34.1,34.1,2.0,3.7,2.5625,0.654234874127904,-0.018929554984853905,0.7421580693606326,0.007350853419596803,-0.092963,-33.847202
11.185,2.0,1.0,1.0,33.9,34.1,34.1,2.0,3.7,2.565,0.6477008055527734,-0.019306676374950777,0.7476739897807494,0.007292242272216702,-0.094246,-33.706673
11.185,2.0,1.0,1.0,33.9,34.1,34.1,2.0,3.7,2.5675,0.6410752139746173,-0.01969145863072305,0.7531663906207375,0.00722873640966475,-0.095559,-33.565393
11.185,2.0,1.0,1.0,33.9,34.1,34.1,2.0,3.7,2.57,0.6343569559600625,-0.020084081643989622,0.7586342097330028,0.007160123582679864,-0.096902,-33.423345
11.185,2.0,1.0,1.0,33.9,34.1,34.1,2.0,3.7,2.5725,0.6275448706196702,-0.0204847301441047,0.7640763487567557,0.007086181978427405,-0.098276,-33.280517
11.185,2.0,1.0,1.0,33.9,34.1,34.1,2.0,3.7,2.575,0.6206377794313419,-0.020893593832740195,0.7694916717822293,0.00700667973825997,-0.099682,-33.136893
11.185,2.0,1.0,1.0,33.9,34.1,34.1,2.0,3.7,2.5775,0.613634486069525,-0.02131086752157165,0.7748790039594688,0.006921374447965963,-0.101122,-32.992457
11.185,2.0,1.0,1.0,33.9,34.1,34.1,2.0,3.7,2.58,0.6065337762409488,-0.021736751272792832,0.7802371300489767,0.006830012598731483,-0.102596,-32.847193
11.185,2.0,1.0,1.0,33.9,34.1,34.1,2.0,3.7,2.5825,0.5993344175276766,-0.022171450542362064,0.7855647929113444,0.006732329016911707,-0.104106,-32.701086
11.185,2.0,1.0,1.0,33.9,34.1,34.1,2.0,3.7,2.585,0.5920351592383322,-0.02261517632585654,0.7908606919328147,0.00662804626056929,-0.105652,-32.55412
11.185,2.0,1.0,1.0,33.9,34.1,34.1,2.0,3.7,2.5875,0.5846347322684228,-0.02306814530678162,0.796123481383547,0.0065168739805866556,-0.107236,-32.406276
11.185,2.0,1.0,1.0,33.9,34.1,34.1,2.0,3.7,2.59,0.5771318489707724,-0.023530580007147976,0.8013517687051485,0.006398508243996533,-0.108859,-32.257538
11.185,2.0,1.0,1.0,33.9,34.1,34.1,2.0,3.7,2.5925,0.5695252030371444,-0.024002708940091207,0.8065441127238308,0.006272630816998674,-0.110522,-32.107889
11.185,2.0,1.0,1.0,33.9,34.1,34.1,2.0,3.7,2.595,0.5618134693922532,-0.024484766764264195,0.8116990217853064,0.006138908404940147,-0.112228,-31.95731
11.185,2.0,1.0,1.0,33.9,34.1,34.1,2.0,3.7,2.5975,0.5539953041014305,-0.024976994439683795,0.8168149518073154,0.005996991846328942,-0.113976,-31.805784
11.185,2.0,1.0,1.0,33.9,34.1,34.1,2.0,3.7,2.6,0.5460693442933544,-0.02547963938465672,0.8218903042453839,0.0058465152577275034,-0.115769,-31.65329
11.185,2.0,1.0,1.0,33.9,34.1,34.1,2.0,3.7,2.6025,0.5380342080993644,-0.025992955633343875,0.8269234239671359,0.00568709512612788,-0.117608,-31.49981
11.185,2.0,1.0,1.0,33.9,34.1,34.1,2.0,3.7,2.605,0.5298884946109947,-0.02651720399345281,0.831912597030181,0.005518329345146969,-0.119495,-31.345324
11.185,2.0,1.0,1.0,33.9,34.1,34.1,2.0,3.7,2.6075,0.5216307838575447,-0.027052652203463385,0.8368560483582539,0.005339796191091931,-0.121431,-31.189811
11.185,2.0,1.0,1.0,33.9,34.1,34.1,2.0,3.7,2.61,0.5132596368056321,-0.027599575088698824,0.8417519393099163,0.005151053234634506,-0.123419,-31.033251
11.185,2.0,1.0,1.0,33.9,34.1,34.1,2.0,3.7,2.6125,0.5047735953828714,-0.028158254715449412,0.8465983651337581,0.004951636183491959,-0.125459,-30.875622
11.185,2.0,1.0,1.0,33.9,34.1,34.1,2.0,3.7,2.615,0.49617118252799974,-0.028728980542236097,0.8513933523036028,0.004741057651143141,-0.127555,-30.716902
11.185,2.0,1.0,1.0,33.9,34.1,34.1,2.0,3.7,2.6175,0.4874509022700081,-0.02931204956716398,0.8561348557267512,0.004518805846205222,-0.129708,-30.55707
11.185,2.0,1.0,1.0,33.9,34.1,34.1,2.0,3.7,2.62,0.4786112398390512,-0.029907766470164243,0.8608207558178214,0.004284343176655925,-0.13192,-30.396101
11.185,2.0,1.0,1.0,33.9,34.1,34.1,2.0,3.7,2.6225,0.46965066181218446,-0.0305164437487469,0.8654488554301949,0.004037104762608803,-0.134193,-30.233972
11.185,2.0,1.0,1.0,33.9,34.1,34.1,2.0,3.7,2.625,0.460567616297274,-0.0311384018456875,0.870016876636479,0.0037764968508244,-0.13653,-30.070658
11.185,2.0,1.0,1.0,33.9,34.1,34.1,2.0,3.7,2.6275,0.4513605331587241,-0.03177396926685079,0.8745224573487868,0.003501895123569399,-0.138933,-29.906135
11.185,2.0,1.0,1.0,33.9,34.1,34.1,2.0,3.7,2.63,0.4420278242890522,-0.03242348268709444,0.8789631477689132,0.0032126428938114037,-0.141404,-29.740377
11.185,2.0,1.0,1.0,33.9,34.1,34.1,2.0,3.7,2.6325,0.43256788393072293,-0.03308728704191051,0.8833364066577495,0.0029080491780542803,-0.143947,-29.573358
11.185,2.0,1.0,1.0,33.9,34.1,34.1,2.0,3.7,2.635,0.4229790890531021,-0.03376573560213239,0.8876395974124497,0.002587386637371102,-0.146565,-29.405049
11.185,2.0,1.0,1.0,33.9,34.1,34.1,2.0,3.7,2.6375,0.4132597997898943,-0.0344591900286612,0.8918699839389518,0.0022498893763742106,-0.149259,-29.235424
11.185,2.0,1.0,1.0,33.9,34.1,34.1,2.0,3.7,2.64,0.4034083599429541,-0.035168020403744824,0.8960247263065036,0.0018947505889635064,-0.152034,-29.064453
11.185,2.0,1.0,1.0,33.9,34.1,34.1,2.0,3.7,2.6425,0.39342309755901794,-0.035892605234856094,0.9001008761697392,0.0015211200387124978,-0.154892,-28.892107
11.185,2.0,1.0,1.0,33.9,34.1,34.1,2.0,3.7,2.645,0.38330232558656113,-0.03663333142667154,0.9040953719427017,0.001128101360671292,-0.157837,-28.718355
11.185,2.0,1.0,1.0,33.9,34.1,34.1,2.0,3.7,2.6475,0.3730443426207937,-0.03739059421602548,0.9080050337079079,0.0007147491701808845,-0.160873,-28.543166
11.185,2.0,1.0,1.0,33.9,34.1,34.1,2.0,3.7,2.65,0.3626474337456316,-0.0381647970640034,0.911826557842165,0.0002800659629909552,-0.164004,-28.366507
11.185,2.0,1.0,1.0,33.9,34.1,34.1,2.0,3.7,2.6525,0.3521098714825477,-0.038956351498524694,0.9155565113392717,-0.0001770012104561594,-0.167233,-28.188345
11.185,2.0,1.0,1.0,33.9,34.1,34.1,2.0,3.7,2.655,0.34142991685720847,-0.03976567689984169,0.9191913258080899,-0.0006575643152907674,-0.170565,-28.008645
11.185,2.0,1.0,1.0,33.9,34.1,34.1,2.0,3.7,2.6575,0.33060582059614063,-0.040593200220321625,0.922727291122562,-0.0011627981674762057,-0.174005,-27.827372
11.185,2.0,1.0,1.0,33.9,34.1,34.1,2.0,3.7,2.66,0.31963582446703065,-0.041439355628669516,0.9261605486982563,-0.0016939445564221633,-0.177557,-27.644489
11.185,2.0,1.0,1.0,33.9,34.1,34.1,2.0,3.7,2.6625,0.30851816277789385,-0.04230458406736774,0.9294870843677245,-0.0022523166794110863,-0.181227,-27.459959
11.185,2.0,1.0,1.0,33.9,34.1,34.1,2.0,3.7,2.665,0.2972510640521206,-0.043189332710524955,0.9327027208245292,-0.0028393039146225553,-0.185019,-27.273741
11.185,2.0,1.0,1.0,33.9,34.1,34.1,2.0,3.7,2.6675,0.2858327528985197,-0.04409405430750991,0.935803109603029,-0.003456376962097837,-0.18894,-27.085796
11.185,2.0,1.0,1.0,33.9,34.1,34.1,2.0,3.7,2.67,0.27426145209777325,-0.045019206395668664,0.9387837225580372,-0.004105093384818356,-0.192995,-26.896082
11.185,2.0,1.0,1.0,33.9,34.1,34.1,2.0,3.7,2.6725,0.26253538492939626,-0.045965250363030265,0.94163984280514,-0.004787103585194248,-0.197191,-26.704556
11.185,2.0,1.0,1.0,33.9,34.1,34.1,2.0,3.7,2.675,0.25065277776636047,-0.046932650339160095,0.9443665550788009,-0.005504157255711136,-0.201535,-26.511172
11.185,2.0,1.0,1.0,33.9,34.1,34.1,2.0,3.7,2.6775,0.23861186296798353,-0.047921871889161596,0.9469587354613426,-0.006258110346301743,-0.206035,-26.315886
11.185,2.0,1.0,1.0,33.9,34.1,34.1,2.0,3.7,2.68,0.22641088210567412,-0.04893338048218503,0.9494110404314455,-0.007050932595230026,-0.210697,-26.118648
11.185,2.0,1.0,1.0,33.9,34.1,34.1,2.0,3.7,2.6825,0.2140480895607006,-0.04996763970160442,0.9517178951758428,-0.00788471567494719,-0.215531,-25.91941
11.185,2.0,1.0,1.0,33.9,34.1,34.1,2.0,3.7,2.685,0.20152175653834767,-0.051025109159180106,0.9538734811024604,-0.008761682009549394,-0.220544,-25.718119
11.185,2.0,1.0,1.0,33.9,34.1,34.1,2.0,3.7,2.6875,0.18883017554887102,-0.052106242069921815,0.9558717224872203,-0.009684194326189102,-0.225748,-25.514724
11.185,2.0,1.0,1.0,33.9,34.1,34.1,2.0,3.7,2.69,0.17597166541259537,-0.053211482437886065,0.9577062721800284,-0.010654766009127063,-0.23115,-25.309168
11.185,2.0,1.0,1.0,33.9,34.1,34.1,2.0,3.7,2.6925,0.1629445768544411,-0.054341261795633526,0.9593704962881052,-0.011676072332127675,-0.236763,-25.101394
11.185,2.0,1.0,1.0,33.9,34.1,34.1,2.0,3.7,2.695,0.1497472987624945,-0.055495995431359746,0.9608574577466515,-0.012750962652658064,-0.242598,-24.891344
11.185,2.0,1.0,1.0,33.9,34.1,34.1,2.0,3.7,2.6975,0.1363782651958061,-0.0566760780275922,0.9621598986777901,-0.013882473659949306,-0.248667,-24.678955
11.185,2.0,1.0,1.0,33.9,34.1,34.1,2.0,3.7,2.7,0.12283596323910369,-0.05788187862357674,0.9632702214287433,-0.015073843778470382,-0.254984,-24.464164
11.185,2.0,1.0,1.0,33.9,34.1,34.1,2.0,3.7,2.7025,0.10911894181638797,-0.05911373479976472,0.9641804681691746,-0.01632852883887545,-0.261562,-24.246904
11.185,2.0,1.0,1.0,33.9,34.1,34.1,2.0,3.7,2.705,0.09522582159218276,-0.06037194596682186,0.9648822989154148,-0.017650219140075644,-0.268417,-24.027106
11.185,2.0,1.0,1.0,33.9,34.1,34.1,2.0,3.7,2.7075,0.08115530610862894,-0.06165676562290183,0.9653669678358533,-0.019042858038882837,-0.275567,-23.804698
11.185,2.0,1.0,1.0,33.9,34.1,34.1,2.0,3.7,2.71,0.0669061943293874,-0.06296839242107723,0.965625297676966,-0.0205106622177551,-0.283027,-23.579605
11.185,2.0,1.0,1.0,33.9,34.1,34.1,2.0,3.7,2.7125,0.05247739478784396,-0.06430695986323379,0.9656476521331615,-0.022058143796658335,-0.290819,-23.351751
11.185,2.0,1.0,1.0,33.9,34.1,34.1,2.0,3.7,2.715,0.03786794156821735,-0.06567252440670636,0.9654239059657637,-0.02369013447202451,-0.298962,-23.121053
11.185,2.0,1.0,1.0,33.9,34.1,34.1,2.0,3.7,2.7175,0.02307701238463758,-0.06706505173466525,0.9649434126569152,-0.02541181188433213,-0.30748,-22.887428
11.185,2.0,1.0,1.0,33.9,34.1,34.1,2.0,3.7,2.72,0.008103949066093458,-0.06848440089975923,0.9641949693629236,-0.027228728436006277,-0.316396,-22.650789
11.185,2.0,1.0,1.0,33.9,34.1,34.1,2.0,3.7,2.7225,-0.0070517191945086094,-0.06993030600161464,0.9631667789084857,-0.02914684280318094,-0.325737,-22.411043
11.185,2.0,1.0,1.0,33.9,34.1,34.1,2.0,3.7,2.725,-0.022390249409470306,-0.07140235500106695,0.9618464085383946,-0.031172554408337477,-0.335533,-22.168096
11.185,2.0,1.0,1.0,33.9,34.1,34.1,2.0,3.7,2.7275,-0.037911654695918263,-0.07289996520578071,0.9602207451167886,-0.033312741145874195,-0.345814,-21.921848
11.185,2.0,1.0,1.0,33.9,34.1,34.1,2.0,3.7,2.73,-0.053615669935237614,-0.07442235488114379,0.9582759464359302,-0.03557480067902311,-0.356614,-21.672195
11.185,2.0,1.0,1.0,33.9,34.1,34.1,2.0,3.7,2.7325,-0.06950171252359691,-0.07596851034457286,0.9559973882672471,-0.03796669565391056,-0.367972,-21.419031
11.185,2.0,1.0,1.0,33.9,34.1,34.1,2.0,3.7,2.735,-0.08556883742833514,-0.0775371477876776,0.9533696067574895,-0.04049700320434889,-0.379928,-21.162241
11.185,2.0,1.0,1.0,33.9,34.1,34.1,2.0,3.7,2.7375,-0.10181568562675437,-0.07912666893555394,0.9503762357431014,-0.043174969148334345,-0.392527,-20.901709
11.185,2.0,1.0,1.0,33.9,34.1,34.1,2.0,3.7,2.74,-0.11824042483925411,-0.08073510949151633,0.9469999385276678,-0.04601056730292319,-0.405819,-20.637311
11.185,2.0,1.0,1.0,33.9,34.1,34.1,2.0,3.7,2.7425,-0.13484068127275486,-0.08236007912368282,0.9432223336421247,-0.0490145643663904,-0.419857,-20.36892
11.185,2.0,1.0,1.0,33.9,34.1,34.1,2.0,3.7,2.745,-0.15161346085642774,-0.083998691520727,0.939023914088091,-0.05219859083276421,-0.434702,-20.096401
11.185,2.0,1.0,1.0,33.9,34.1,34.1,2.0,3.7,2.7475,-0.16855505817240624,-0.08564748277032945,0.9343839595545319,-0.05557521841042816,-0.450419,-19.819616
11.185,2.0,1.0,1.0,33.9,34.1,34.1,2.0,3.7,2.75,-0.18566095095009,-0.0873023159863085,0.929280441102064,-0.0591580444085269,-0.467081,-19.538418
11.185,2.0,1.0,1.0,33.9,34.1,34.1,2.0,3.7,2.7525,-0.20292567759282176,-0.08895826971822997,0.9236899178343049,-0.06296178352558868,-0.48477,-19.252655
11.185,2.0,1.0,1.0,33.9,34.1,34.1,2.0,3.7,2.755,-0.22034269472685236,-0.09060950720742349,0.917587425131132,-0.06700236741473548,-0.503575,-18.962168
11.185,2.0,1.0,1.0,33.9,34.1,34.1,2.0,3.7,2.7575,-0.23790421118881547,-0.09224912299020809,0.9109463541172682,-0.07129705229635093,-0.523596,-18.666792
11.185,2.0,1.0,1.0,33.9,34.1,34.1,2.0,3.7,2.76,-0.2556009941803168,-0.09386896267418447,0.9037383221988468,-0.07586453472469808,-0.544946,-18.366356
11.185,2.0,1.0,1.0,33.9,34.1,34.1,2.0,3.7,2.7625,-0.27342214249482294,-0.09545941090489966,0.8959330347439134,-0.08072507536621171,-0.567748,-18.060678
11.185,2.0,1.0,1.0,33.9,34.1,34.1,2.0,3.7,2.765,-0.29135482073637836,-0.09700914157243214,0.8874981383426598,-0.0859006302819951,-0.592144,-17.749573
11.185,2.0,1.0,1.0,33.9,34.1,34.1,2.0,3.7,2.7675,-0.309383947272029,-0.09850482315112015,0.8783990666027734,-0.0914149886822427,-0.61829,-17.432847
11.185,2.0,1.0,1.0,33.9,34.1,34.1,2.0,3.7,2.77,-0.3274918272562224,-0.09993077068752809,0.8685988801735858,-0.09729391537746035,-0.646364,-17.110298
11.185,2.0,1.0,1.0,33.9,34.1,34.1,2.0,3.7,2.7725,-0.34565772039839604,-0.10126853431539082,0.8580581037290225,-0.10356529511166356,-0.676567,-16.78172
11.185,2.0,1.0,1.0,33.9,34.1,34.1,2.0,3.7,2.775,-0.36385733117562297,-0.10249641224362262,0.8467345640806095,-0.11025927452016938,-0.709125,-16.446898
11.185,2.0,1.0,1.0,33.9,34.1,34.1,2.0,3.7,2.7775,-0.38206220688235476,-0.10358887389777748,0.8345832355817695,-0.11740839546661481,-0.744297,-16.105613
11.185,2.0,1.0,1.0,33.9,34.1,34.1,2.0,3.7,2.78,-0.4002390262279894,-0.10451587626676431,0.821556101716049,-0.12504771078946145,-0.782377,-15.757638
11.185,2.0,1.0,1.0,33.9,34.1,34.1,2.0,3.7,2.7825,-0.4183487581250098,-0.10524205350173432,0.8076020454924262,-0.13321486977237945,-0.823702,-15.402745
11.185,2.0,1.0,1.0,33.9,34.1,34.1,2.0,3.7,2.785,-0.43634566687329435,-0.10572575645156998,0.7926667863429586,-0.1419501556065325,-0.868656,-15.040703
11.185,2.0,1.0,1.0,33.9,34.1,34.1,2.0,3.7,2.7875,-0.4541761362143741,-0.10591791517569563,0.7766928880848538,-0.15129645028778127,-0.917682,-14.671282
11.185,2.0,1.0,1.0,33.9,34.1,34.1,2.0,3.7,2.79,-0.47177728087669313,-0.10576069372436005,0.7596198717640269,-0.16129909320154712,-0.971293,-14.294253
11.185,2.0,1.0,1.0,33.9,34.1,34.1,2.0,3.7,2.7925,-0.48907531059430825,-0.10518590295442318,0.7413844796095173,-0.1720055873327494,-1.03008,-13.909395
11.185,2.0,1.0,1.0,33.9,34.1,34.1,2.0,3.7,2.795,-0.5059836087519385,-0.10411313444785752,0.7219211528770857,-0.18346509063108338,-1.09473,-13.516499
11.185,2.0,1.0,1.0,33.9,34.1,34.1,2.0,3.7,2.7975,-0.5224004867901423,-0.10244757771683968,0.7011628082643605,-0.19572760836140105,-1.166046,-13.115374
11.185,2.0,1.0,1.0,33.9,34.1,34.1,2.0,3.7,2.8,-0.5382065779234759,-0.10007748542953894,0.6790420262988647,-0.20884277383673447,-1.244963,-12.705857
11.185,2.0,1.0,1.0,33.9,34.1,34.1,2.0,3.7,2.8025,-0.553261842152244,-0.09687125992444097,0.6554928022849312,-0.22285806814425999,-1.332582,-12.287819
11.185,2.0,1.0,1.0,33.9,34.1,34.1,2.0,3.7,2.805,-0.5674021729486536,-0.09267415272540244,0.6304530577188501,-0.2378162826911812,-1.430197,-11.861184
11.185,2.0,1.0,1.0,33.9,34.1,34.1,2.0,3.7,2.8075,-0.5804356303347613,-0.08730460302846957,0.6038681688598404,-0.25375197033701175,-1.539338,-11.425942
11.185,2.0,1.0,1.0,33.9,34.1,34.1,2.0,3.7,2.81,-0.5921383840808492,-0.0805502998482758,0.5756958395737233,-0.27068656137569236,-1.661815,-10.982172
11.185,2.0,1.0,1.0,33.9,34.1,34.1,2.0,3.7,2.8125,-0.602250546833872,-0.0721641479368517,0.545912725318288,-0.288621742027008,-1.799783,-10.530068
11.185,2.0,1.0,1.0,33.9,34.1,34.1,2.0,3.7,2.815,-0.6104722269723519,-0.06186046634638945,0.5145232969248277,-0.30753061264969034,-1.955807,-10.06997
11.185,2.0,1.0,1.0,33.9,34.1,34.1,2.0,3.7,2.8175,-0.6164603563320611,-0.049311971766688174,0.48157150041970737,-0.32734607670489835,-2.132951,-9.602405
11.185,2.0,1.0,1.0,33.9,34.1,34.1,2.0,3.7,2.82,-0.6198271732363536,-0.03414842074323739,0.44715579127234356,-0.34794589053636293,-2.334875,-9.128135
11.185,2.0,1.0,1.0,33.9,34.1,34.1,2.0,3.7,2.8225,-0.6201416890249403,-0.015958227706298515,0.41144804341171065,-0.369133882455305,-2.565959,-8.648213
11.185,2.0,1.0,1.0,33.9,34.1,34.1,2.0,3.7,2.825,-0.6169360447638365,0.005705052624949457,0.37471656677059617,-0.39061711476401656,-2.831434,-8.164048
11.185,2.0,1.0,1.0,33.9,34.1,34.1,2.0,3.7,2.8275,-0.6097193438929321,0.03130881951576415,0.33735288161016785,-0.4119793430107581,-3.137529,-7.677481
