1,w,sub_t,h,l1,l2,l3,g1,g2,Freq,S11_re,S21_re,S11_img,S21_img,S11_dB,S21_dB
11.185,2.0,1.0,1.0,33.0,33.5,33.5,1.5,2.5,2.5,0.893779352948557,-0.00964217938485576,0.433298929188267,0.0120529748464659,-0.058635,-36.229747
11.185,2.0,1.0,1.0,33.0,33.5,33.5,1.5,2.5,2.5025,0.8909726156863067,-0.0098667674296812,0.4388887452783868,0.012155371228655381,-0.059225,-36.106458
11.185,2.0,1.0,1.0,33.0,33.5,33.5,1.5,2.5,2.505,0.8881180879018544,-0.010096042842200507,0.44448318938438,0.012257962258717132,-0.059826,-35.982761
11.185,2.0,1.0,1.0,33.0,33.5,33.5,1.5,2.5,2.5075,0.885215246519297,-0.010330116425695198,0.45008213614840187,0.012360724364893638,-0.060438,-35.858646
11.185,2.0,1.0,1.0,33.0,33.5,33.5,1.5,2.5,2.51,0.8822635581359,-0.010569102203707388,0.45568545535392757,0.012463632610115764,-0.061063,-35.734106
11.185,2.0,1.0,1.0,33.0,33.5,33.5,1.5,2.5,2.5125,0.879262478775422,-0.010813117530461686,0.46129301172726994,0.012566660621080717,-0.061699,-35.60913
11.185,2.0,1.0,1.0,33.0,33.5,33.5,1.5,2.5,2.515,0.8762114536343252,-0.011062283205624145,0.4669046647308596,0.012669780513496053,-0.062348,-35.48371
11.185,2.0,1.0,1.0,33.0,33.5,33.5,1.5,2.5,2.5175,0.873109916820634,-0.011316723593588212,0.47252026834788485,0.012772962813263565,-0.063009,-35.357836
11.185,2.0,1.0,1.0,33.0,33.5,33.5,1.5,2.5,2.52,0.8699572910851772,-0.011576566747489423,0.4781396708579084,0.01287617637336675,-0.063684,-35.231498
11.185,2.0,1.0,1.0,33.0,33.5,33.5,1.5,2.5,2.5225,0.8667529875449519,-0.011841944538158101,0.4837627146030015,0.012979388286206178,-0.064372,-35.104688
11.185,2.0,1.0,1.0,33.0,33.5,33.5,1.5,2.5,2.525,0.863496405398326,-0.012112992788231022,0.48938923574397086,0.013082563791113142,-0.065074,-34.977394
11.185,2.0,1.0,1.0,33.0,33.5,33.5,1.5,2.5,2.5275,0.8601869316317861,-0.01238985141165383,0.495019064006189,0.013185666176754113,-0.06579,-34.849608
11.185,2.0,1.0,1.0,33.0,33.5,33.5,1.5,2.5,2.53,0.8568239407179344,-0.01267266455881587,0.5006520224145227,0.013288656678118776,-0.066521,-34.72132
11.185,2.0,1.0,1.0,33.0,33.5,33.5,1.5,2.5,2.5325,0.8534067943044146,-0.012961580767572941,0.5062879270168329,0.013391494367764673,-0.067267,-34.592518
11.185,2.0,1.0,1.0,33.0,33.5,33.5,1.5,2.5,2.535,0.8499348408934361,-0.013256753120424732,0.5119265865954877,0.013494136040971199,-0.068028,-34.463194
11.185,2.0,1.0,1.0,33.0,33.5,33.5,1.5,2.5,2.5375,0.8464074155115576,-0.013558339408127243,0.5175678023662833,0.01359653609442945,-0.068805,-34.333335
11.185,2.0,1.0,1.0,33.0,33.5,33.5,1.5,2.5,2.54,0.8428238393693731,-0.01386650230003479,0.5232113676641592,0.013698646398073718,-0.069598,-34.202932
11.185,2.0,1.0,1.0,33.0,33.5,33.5,1.5,2.5,2.5425,0.839183419510721,-0.014181409521480389,0.5288570676150401,0.013800416159629418,-0.070408,-34.071974
11.185,2.0,1.0,1.0,33.0,33.5,33.5,1.5,2.5,2.545,0.8354854484510315,-0.014503234038518904,0.5345046787931015,0.013901791781427707,-0.071236,-33.94045
11.185,2.0,1.0,1.0,33.0,33.5,33.5,1.5,2.5,2.5475,0.8317292038044131,-0.014832154250373058,0.5401539688627135,0.014002716709002048,-0.072081,-33.808348
11.185,2.0,1.0,1.0,33.0,33.5,33.5,1.5,2.5,2.55,0.8279139478990382,-0.015168354189940978,0.5458046962042932,0.01410313127095412,-0.072944,-33.675657
11.185,2.0,1.0,1.0,33.0,33.5,33.5,1.5,2.5,2.5525,0.8240389273804091,-0.015512023732739064,0.551456609523205,0.014202972509534274,-0.073826,-33.542366
11.185,2.0,1.0,1.0,33.0,33.5,33.5,1.5,2.5,2.555,0.8201033728020217,-0.015863358814676244,0.5571094474408527,0.014302174001351357,-0.074728,-33.408463
11.185,2.0,1.0,1.0,33.0,33.5,33.5,1.5,2.5,2.5575,0.8161064982029608,-0.016222561659072866,0.5627629380670159,0.014400665667578097,-0.075649,-33.273936
11.185,2.0,1.0,1.0,33.0,33.5,33.5,1.5,2.5,2.56,0.8120475006719171,-0.01658984101335907,0.568416798552436,0.01449837357297925,-0.076591,-33.138773
11.185,2.0,1.0,1.0,33.0,33.5,33.5,1.5,2.5,2.5625,0.8079255598971086,-0.01696541239591039,0.5740707346205993,0.01459521971303983,-0.077554,-33.002961
11.185,2.0,1.0,1.0,33.0,33.5,33.5,1.5,2.5,2.565,0.8037398377015496,-0.017349498353499828,0.5797244400776069,0.01469112178841963,-0.078539,-32.866488
11.185,2.0,1.0,1.0,33.0,33.5,33.5,1.5,2.5,2.5675,0.7994894775631092,-0.017742328729870714,0.5853775962989247,0.014785992965904712,-0.079547,-32.729341
11.185,2.0,1.0,1.0,33.0,33.5,33.5,1.5,2.5,2.57,0.7951736041187499,-0.01814414094596024,0.5910298716917646,0.014879741624967746,-0.080578,-32.591507
11.185,2.0,1.0,1.0,33.0,33.5,33.5,1.5,2.5,2.5725,0.790791322652332,-0.018555180292329568,0.5966809211317478,0.014972271088983675,-0.081632,-32.452973
11.185,2.0,1.0,1.0,33.0,33.5,33.5,1.5,2.5,2.575,0.7863417185653279,-0.018975700234385304,0.6023303853724178,0.015063479340077889,-0.082711,-32.313725
11.185,2.0,1.0,1.0,33.0,33.5,33.5,1.5,2.5,2.5775,0.7818238568297705,-0.019405962731005373,0.6079778904260815,0.015153258716509412,-0.083816,-32.17375
11.185,2.0,1.0,1.0,33.0,33.5,33.5,1.5,2.5,2.58,0.7772367814227273,-0.019846238567214132,0.6136230469143503,0.015241495591409348,-0.084947,-32.033033
11.185,2.0,1.0,1.0,33.0,33.5,33.5,1.5,2.5,2.5825,0.7725795147415528,-0.020296807701583628,0.6192654493866644,0.015328070031609128,-0.086105,-31.89156
11.185,2.0,1.0,1.0,33.0,33.5,33.5,1.5,2.5,2.585,0.7678510569991547,-0.020757959629071492,0.6249046756049383,0.015412855435195542,-0.087291,-31.749317
11.185,2.0,1.0,1.0,33.0,33.5,33.5,1.5,2.5,2.5875,0.7630503855984556,-0.021229993760041175,0.6305402857923763,0.015495718146328252,-0.088506,-31.606289
11.185,2.0,1.0,1.0,33.0,33.5,33.5,1.5,2.5,2.59,0.7581764544852206,-0.02171321981624772,0.6361718218443417,0.01557651704574525,-0.089751,-31.46246
11.185,2.0,1.0,1.0,33.0,33.5,33.5,1.5,2.5,2.5925,0.7532281934783537,-0.02220795824461097,0.6417988064990461,0.01565510311525855,-0.091027,-31.317814
11.185,2.0,1.0,1.0,33.0,33.5,33.5,1.5,2.5,2.595,0.7482045075767644,-0.022714540649636593,0.6474207424656458,0.015731318974413783,-0.092335,-31.172338
11.185,2.0,1.0,1.0,33.0,33.5,33.5,1.5,2.5,2.5975,0.7431042762418283,-0.02323331024539068,0.6530371115071917,0.015804998387345188,-0.093675,-31.026013
11.185,2.0,1.0,1.0,33.0,33.5,33.5,1.5,2.5,2.6,0.7379263526544524,-0.02376462232797382,0.6586473734756781,0.015875965737703404,-0.09505,-30.878824
11.185,2.0,1.0,1.0,33.0,33.5,33.5,1.5,2.5,2.6025,0.7326695629457053,-0.02430884476948767,0.6642509652962428,0.01594403546936635,-0.09646,-30.730754
11.185,2.0,1.0,1.0,33.0,33.5,33.5,1.5,2.5,2.605,0.7273327053999179,-0.024866358534533985,0.6698472998973782,0.016009011490463083,-0.097907,-30.581785
11.185,2.0,1.0,1.0,33.0,33.5,33.5,1.5,2.5,2.6075,0.7219145496291317,-0.025437558220334056,0.6754357650837587,0.016070686538041404,-0.099392,-30.4319
11.185,2.0,1.0,1.0,33.0,33.5,33.5,1.5,2.5,2.61,0.7164138357177202,-0.02602285262160607,0.681015722348064,0.016128841500497558,-0.100916,-30.281082
11.185,2.0,1.0,1.0,33.0,33.5,33.5,1.5,2.5,2.6125,0.7108292733359539,-0.026622665321391153,0.6865865056179011,0.016183244694651582,-0.10248,-30.129312
11.185,2.0,1.0,1.0,33.0,33.5,33.5,1.5,2.5,2.615,0.7051595408212368,-0.027237435309070048,0.692147419933641,0.016233651094098293,-0.104087,-29.976571
11.185,2.0,1.0,1.0,33.0,33.5,33.5,1.5,2.5,2.6175,0.6994032842257055,-0.02786761762686595,0.6976977400526672,0.016279801505186167,-0.105737,-29.82284
11.185,2.0,1.0,1.0,33.0,33.5,33.5,1.5,2.5,2.62,0.693559116328812,-0.028513684046184953,0.7032367089751962,0.016321421686674813,-0.107433,-29.668099
11.185,2.0,1.0,1.0,33.0,33.5,33.5,1.5,2.5,2.6225,0.6876256156134736,-0.02917612377520055,0.7087635363864644,0.016358221408793637,-0.109176,-29.512329
11.185,2.0,1.0,1.0,33.0,33.5,33.5,1.5,2.5,2.625,0.681601325204338,-0.0298554441991413,0.714277397009651,0.0163898934470605,-0.110967,-29.355509
11.185,2.0,1.0,1.0,33.0,33.5,33.5,1.5,2.5,2.6275,0.6754847517666323,-0.030552171654800807,0.7197774288635036,0.016416112505832418,-0.112809,-29.197618
11.185,2.0,1.0,1.0,33.0,33.5,33.5,1.5,2.5,2.63,0.6692743643640517,-0.03126685224083784,0.7252627314181179,0.016436534066124688,-0.114704,-29.038635
11.185,2.0,1.0,1.0,33.0,33.5,33.5,1.5,2.5,2.6325,0.6629685932740815,-0.0320000526654907,0.7307323636418307,0.016450793151769845,-0.116653,-28.878537
11.185,2.0,1.0,1.0,33.0,33.5,33.5,1.5,2.5,2.635,0.6565658287591132,-0.03275236113337816,0.7361853419316032,0.016458503007472102,-0.118659,-28.717302
11.185,2.0,1.0,1.0,33.0,33.5,33.5,1.5,2.5,2.6375,0.6500644197916814,-0.03352438827310529,0.741620637918653,0.016459253681748873,-0.120725,-28.554907
11.185,2.0,1.0,1.0,33.0,33.5,33.5,1.5,2.5,2.64,0.6434626727321062,-0.03431676810743742,0.7470371761404324,0.016452610507137026,-0.122851,-28.391328
11.185,2.0,1.0,1.0,33.0,33.5,33.5,1.5,2.5,2.6425,0.6367588499568214,-0.035130159067836245,0.7524338315692843,0.0164381124693624,-0.125042,-28.226541
11.185,2.0,1.0,1.0,33.0,33.5,33.5,1.5,2.5,2.645,0.6299511684356441,-0.035965245055184523,0.7578094269873293,0.016415270456431277,-0.1273,-28.060521
11.185,2.0,1.0,1.0,33.0,33.5,33.5,1.5,2.5,2.6475,0.6230377982562405,-0.036822736548539625,0.7631627301962253,0.0163835653777856,-0.129626,-27.893244
11.185,2.0,1.0,1.0,33.0,33.5,33.5,1.5,2.5,2.65,0.6160168610940459,-0.03770337176376519,0.7684924510494985,0.016342446142769713,-0.132026,-27.724681
11.185,2.0,1.0,1.0,33.0,33.5,33.5,1.5,2.5,2.6525,0.6088864286259562,-0.038607917863874,0.7737972382940528,0.016291327486670955,-0.1345,-27.554808
11.185,2.0,1.0,1.0,33.0,33.5,33.5,1.5,2.5,2.655,0.6016445208861103,-0.03953717222289382,0.7790756762063311,0.016229587631515368,-0.137053,-27.383595
11.185,2.0,1.0,1.0,33.0,33.5,33.5,1.5,2.5,2.6575,0.5942891045621939,-0.04049196374500756,0.7843262810072956,0.01615656576760313,-0.139689,-27.211016
11.185,2.0,1.0,1.0,33.0,33.5,33.5,1.5,2.5,2.66,0.5868180912307811,-0.04147315424064417,0.7895474970390061,0.01607155934045885,-0.14241,-27.03704
11.185,2.0,1.0,1.0,33.0,33.5,33.5,1.5,2.5,2.6625,0.5792293355303799,-0.042481639861078044,0.7947376926840152,0.01597382112641916,-0.14522,-26.861638
11.185,2.0,1.0,1.0,33.0,33.5,33.5,1.5,2.5,2.665,0.5715206332710049,-0.043518352592945335,0.7998951560071149,0.015862556078485662,-0.148125,-26.68478
11.185,2.0,1.0,1.0,33.0,33.5,33.5,1.5,2.5,2.6675,0.5636897194793732,-0.04458426181387351,0.8050180900970718,0.01573691792230179,-0.151127,-26.506434
11.185,2.0,1.0,1.0,33.0,33.5,33.5,1.5,2.5,2.67,0.555734266379075,-0.04568037591016551,0.8101046080839482,0.015596005480166705,-0.154232,-26.326567
11.185,2.0,1.0,1.0,33.0,33.5,33.5,1.5,2.5,2.6725,0.5476518813054468,-0.04680774395714454,0.8151527278053048,0.015438858698841281,-0.157444,-26.145147
11.185,2.0,1.0,1.0,33.0,33.5,33.5,1.5,2.5,2.675,0.5394401045553441,-0.047967457462347915,0.8201603660920819,0.015264454354516621,-0.160768,-25.962139
11.185,2.0,1.0,1.0,33.0,33.5,33.5,1.5,2.5,2.6775,0.5310964071725381,-0.04916065217124833,0.8251253326421613,0.015071701405676933,-0.16421,-25.777507
11.185,2.0,1.0,1.0,33.0,33.5,33.5,1.5,2.5,2.68,0.5226181886701449,-0.050388509934545564,0.830045323446557,0.014859435961661336,-0.167775,-25.591216
11.185,2.0,1.0,1.0,33.0,33.5,33.5,1.5,2.5,2.6825,0.5140027746923201,-0.05165226063529947,0.834917913729757,0.014626415831489072,-0.17147,-25.403229
11.185,2.0,1.0,1.0,33.0,33.5,33.5,1.5,2.5,2.685,0.505247414618422,-0.05295318417323905,0.8397405503620029,0.014371314613915165,-0.175301,-25.213506
11.185,2.0,1.0,1.0,33.0,33.5,33.5,1.5,2.5,2.6875,0.496349279114039,-0.0542926125024453,0.844510543697099,0.0140927152856901,-0.179276,-25.022009
11.185,2.0,1.0,1.0,33.0,33.5,33.5,1.5,2.5,2.69,0.48730545763471905,-0.05567193171723574,0.8492250587847239,0.013789103240567509,-0.1834,-24.828697
11.185,2.0,1.0,1.0,33.0,33.5,33.5,1.5,2.5,2.6925,0.4781129558899009,-0.057092584179437224,0.8538811059010971,0.013458858726672795,-0.187683,-24.633527
11.185,2.0,1.0,1.0,33.0,33.5,33.5,1.5,2.5,2.695,0.46876869327664644,-0.05855607067825021,0.8584755303361272,0.013100248624368675,-0.192132,-24.436456
11.185,2.0,1.0,1.0,33.0,33.5,33.5,1.5,2.5,2.6975,0.4592695002951369,-0.06006395261155495,0.863005001368876,0.012711417500661421,-0.196756,-24.237441
11.185,2.0,1.0,1.0,33.0,33.5,33.5,1.5,2.5,2.7,0.4496121159608652,-0.06161785417467302,0.8674660003560952,0.012290377869405084,-0.201566,-24.036434
11.185,2.0,1.0,1.0,33.0,33.5,33.5,1.5,2.5,2.7025,0.43979318523184485,-0.06321946453923177,0.8718548078508028,0.011834999579009997,-0.206571,-23.833388
11.185,2.0,1.0,1.0,33.0,33.5,33.5,1.5,2.5,2.705,0.42980925647332724,-0.06487054000074954,0.8761674896591305,0.011342998240946473,-0.211781,-23.628255
11.185,2.0,1.0,1.0,33.0,33.5,33.5,1.5,2.5,2.7075,0.41965677898735204,-0.06657290606876792,0.8803998817340014,0.0108119226029599,-0.21721,-23.420984
11.185,2.0,1.0,1.0,33.0,33.5,33.5,1.5,2.5,2.71,0.40933210064031206,-0.06832845946764227,0.8845475737933882,0.010239140760462,-0.222868,-23.211523
11.185,2.0,1.0,1.0,33.0,33.5,33.5,1.5,2.5,2.7125,0.39883146562858707,-0.07013917000930357,0.888605891538896,0.009621825087911104,-0.228771,-22.999818
11.185,2.0,1.0,1.0,33.0,33.5,33.5,1.5,2.5,2.715,0.3881510124305398,-0.07200708229120868,0.8925698773370101,0.00895693575900691,-0.234931,-22.785813
11.185,2.0,1.0,1.0,33.0,33.5,33.5,1.5,2.5,2.7175,0.3772867720028989,-0.07393431716306277,0.8964342692104339,0.008241202710039515,-0.241365,-22.569451
11.185,2.0,1.0,1.0,33.0,33.5,33.5,1.5,2.5,2.72,0.3662346662911993,-0.07592307289443066,0.9001934779703294,0.007471105884593269,-0.24809,-22.350673
11.185,2.0,1.0,1.0,33.0,33.5,33.5,1.5,2.5,2.7225,0.3549905071376794,-0.07797562596170836,0.903841562301756,0.006642853579809085,-0.255123,-22.129417
11.185,2.0,1.0,1.0,33.0,33.5,33.5,1.5,2.5,2.725,0.3435499956865376,-0.0800943313566681,0.9073722015939987,0.005752358694380042,-0.262485,-21.905621
11.185,2.0,1.0,1.0,33.0,33.5,33.5,1.5,2.5,2.7275,0.33190872240588537,-0.08228162229944766,0.9107786662845636,0.004795212656143656,-0.270195,-21.679218
11.185,2.0,1.0,1.0,33.0,33.5,33.5,1.5,2.5,2.73,0.32006216786907155,-0.08454000921577882,0.9140537854601227,0.003766656782343408,-0.278277,-21.450141
11.185,2.0,1.0,1.0,33.0,33.5,33.5,1.5,2.5,2.7325,0.3080057044656961,-0.08687207781077715,0.9171899114294171,0.00266155079809127,-0.286755,-21.218321
11.185,2.0,1.0,1.0,33.0,33.5,33.5,1.5,2.5,2.735,0.2957345992456969,-0.08928048603881533,0.920178880951743,0.0014743382080351075,-0.295657,-20.983685
11.185,2.0,1.0,1.0,33.0,33.5,33.5,1.5,2.5,2.7375,0.2832440181392415,-0.09176795972989074,0.9230119727699941,0.0001990081824657501,-0.30501,-20.746158
11.185,2.0,1.0,1.0,33.0,33.5,33.5,1.5,2.5,2.74,0.27052903184220967,-0.09433728658617102,0.9256798610589031,-0.0011709464181599311,-0.314848,-20.505663
11.185,2.0,1.0,1.0,33.0,33.5,33.5,1.5,2.5,2.7425,0.257584623713159,-0.09699130820659362,0.9281725643570802,-0.0026425752972603017,-0.325203,-20.262121
11.185,2.0,1.0,1.0,33.0,33.5,33.5,1.5,2.5,2.745,0.2444057000948147,-0.09973290973065022,0.930479389505301,-0.004223521716552793,-0.336114,-20.015449
11.185,2.0,1.0,1.0,33.0,33.5,33.5,1.5,2.5,2.7475,0.23098710355338978,-0.10256500661264774,0.9325888700632813,-0.00592207874148024,-0.347621,-19.765561
11.185,2.0,1.0,1.0,33.0,33.5,33.5,1.5,2.5,2.75,0.217323629625121,-0.105490527942149,0.934488698622829,-0.00774725130101855,-0.359768,-19.51237
11.185,2.0,1.0,1.0,33.0,33.5,33.5,1.5,2.5,2.7525,0.20341004777450436,-0.10851239561178831,0.9361656523769452,-0.009708824681736974,-0.372606,-19.255785
11.185,2.0,1.0,1.0,33.0,33.5,33.5,1.5,2.5,2.755,0.18924112740666507,-0.11163349849639954,0.9376055112426374,-0.011817440135772404,-0.386186,-18.995712
11.185,2.0,1.0,1.0,33.0,33.5,33.5,1.5,2.5,2.7575,0.1748116699416645,-0.11485666064279511,0.9387929677706667,-0.014084678344624757,-0.400569,-18.732055
11.185,2.0,1.0,1.0,33.0,33.5,33.5,1.5,2.5,2.76,0.16011654815709647,-0.11818460227201523,0.9397115280094457,-0.016523151544028895,-0.415818,-18.464713
11.185,2.0,1.0,1.0,33.0,33.5,33.5,1.5,2.5,2.7625,0.14515075424346519,-0.12161989215882546,0.9403434024249644,-0.019146605177571916,-0.432005,-18.193584
11.185,2.0,1.0,1.0,33.0,33.5,33.5,1.5,2.5,2.765,0.12990945830292042,-0.1251648896686356,0.9406693859168054,-0.02197003000510646,-0.449209,-17.918562
11.185,2.0,1.0,1.0,33.0,33.5,33.5,1.5,2.5,2.7675,0.1143880793653034,-0.12882167439033662,0.9406687259164909,-0.025009785641968967,-0.467516,-17.639539
11.185,2.0,1.0,1.0,33.0,33.5,33.5,1.5,2.5,2.77,0.09858237140774878,-0.13259196089341263,0.9403189775147137,-0.028283736540274298,-0.487022,-17.356404
11.185,2.0,1.0,1.0,33.0,33.5,33.5,1.5,2.5,2.7725,0.08248852735889001,-0.13647699564555765,0.9395958445471528,-0.031811401435319235,-0.507834,-17.069042
11.185,2.0,1.0,1.0,33.0,33.5,33.5,1.5,2.5,2.775,0.06610330466204263,-0.14047743253702188,0.9384730055866659,-0.0356141172562493,-0.530071,-16.777337
11.185,2.0,1.0,1.0,33.0,33.5,33.5,1.5,2.5,2.7775,0.049424176682474785,-0.14459318275135963,0.9369219238592427,-0.03971521842388704,-0.553863,-16.48117
11.185,2.0,1.0,1.0,33.0,33.5,33.5,1.5,2.5,2.78,0.03244951509376321,-0.14882323387762778,0.9349116402449875,-0.04414023230717068,-0.57936,-16.180422
11.185,2.0,1.0,1.0,33.0,33.5,33.5,1.5,2.5,2.7825,0.015178809392275195,-0.15316543215175812,0.9324085487743489,-0.048917091352025675,-0.606724,-15.874969
11.185,2.0,1.0,1.0,33.0,33.5,33.5,1.5,2.5,2.785,-0.0023870691053408956,-0.15761622051740184,0.9293761544255512,-0.05407636199098467,-0.636141,-15.564691
11.185,2.0,1.0,1.0,33.0,33.5,33.5,1.5,2.5,2.7875,-0.020245549998505037,-0.16217032377916474,0.9257748136276764,-0.059651489832283,-0.667816,-15.249464
11.185,2.0,1.0,1.0,33.0,33.5,33.5,1.5,2.5,2.79,-0.03839198280799547,-0.16682037045310813,0.9215614587499538,-0.0656790597387214,-0.701983,-14.929166
11.185,2.0,1.0,1.0,33.0,33.5,33.5,1.5,2.5,2.7925,-0.05681917981933293,-0.17155643897111736,0.916689309111127,-0.07219906813963071,-0.738903,-14.60368
11.185,2.0,1.0,1.0,33.0,33.5,33.5,1.5,2.5,2.795,-0.0755168680585777,-0.1763655136433097,0.911107572804849,-0.07925520314245338,-0.778873,-14.272889
11.185,2.0,1.0,1.0,33.0,33.5,33.5,1.5,2.5,2.7975,-0.09447103309752376,-0.18123083321412112,0.9047611460808395,-0.08689512555109863,-0.822228,-13.936683
11.185,2.0,1.0,1.0,33.0,33.5,33.5,1.5,2.5,2.8,-0.11366313447537531,-0.1861311119742948,0.8975903203721524,-0.09517074053194649,-0.869348,-13.594961
11.185,2.0,1.0,1.0,33.0,33.5,33.5,1.5,2.5,2.8025,-0.13306916934949647,-0.1910396102631082,0.8895305116069283,-0.10413844510553891,-0.920665,-13.24763
11.185,2.0,1.0,1.0,33.0,33.5,33.5,1.5,2.5,2.805,-0.15265855766175052,-0.19592302792801147,0.8805120325586113,-0.11385933051433461,-0.976674,-12.894614
11.185,2.0,1.0,1.0,33.0,33.5,33.5,1.5,2.5,2.8075,-0.17239281884309296,-0.20074019111923516,0.8704599371357102,-0.12439931036314768,-1.037937,-12.535852
11.185,2.0,1.0,1.0,33.0,33.5,33.5,1.5,2.5,2.81,-0.19222400724686337,-0.20544050005752956,0.8592939762596742,-0.1358291346843127,-1.105099,-12.171309
11.185,2.0,1.0,1.0,33.0,33.5,33.5,1.5,2.5,2.8125,-0.212092871702811,-0.209962103729702,0.846928719003481,-0.148224236074215,-1.178902,-11.800975
11.185,2.0,1.0,1.0,33.0,33.5,33.5,1.5,2.5,2.815,-0.2319267047619129,-0.2142297677847696,0.8332739107310245,-0.16166433602344324,-1.260198,-11.424881
11.185,2.0,1.0,1.0,33.0,33.5,33.5,1.5,2.5,2.8175,-0.2516368507841995,-0.21815240565355096,0.8182351628950817,-0.17623271672522198,-1.349968,-11.043099
11.185,2.0,1.0,1.0,33.0,33.5,33.5,1.5,2.5,2.82,-0.27111585110974573,-0.22162025219793907,0.8017150976522331,-0.19201503528043662,-1.449348,-10.655757
11.185,2.0,1.0,1.0,33.0,33.5,33.5,1.5,2.5,2.8225,-0.29023422215090683,-0.22450167701283036,0.7836151049799913,-0.20909752290206834,-1.559651,-10.263053
11.185,2.0,1.0,1.0,33.0,33.5,33.5,1.5,2.5,2.825,-0.3088368925121053,-0.22663966500187466,0.7638379103108178,-0.22756437171069135,-1.682399,-9.865262
11.185,2.0,1.0,1.0,33.0,33.5,33.5,1.5,2.5,2.8275,-0.3267393737259933,-0.22784804054672692,0.742291195319027,-0.24749406755294484,-1.819359,-9.462762
11.185,2.0,1.0,1.0,33.0,33.5,33.5,1.5,2.5,2.83,-0.3437238129143808,-0.2279075854659507,0.7188925596518885,-0.26895438276596084,-1.972587,-9.056046
