1,w,sub_t,h,l1,l2,l3,g1,g2,Freq,S11_re,S21_re,S11_img,S21_img,S11_dB,S21_dB
11.185,2.0,1.0,1.0,34.2,33.5,33.5,3.9,3.5,2.5,0.759038279811184,-0.0078857017135588,0.639778458857524,0.00354448856663669,-0.063629,-41.264022
11.185,2.0,1.0,1.0,34.2,33.5,33.5,3.9,3.5,2.5025,0.7540890097824992,-0.008019874620337712,0.6454984183828903,0.003521608114035346,-0.064234,-41.150908
11.185,2.0,1.0,1.0,34.2,33.5,33.5,3.9,3.5,2.505,0.7490716199087191,-0.008155918919612776,0.6512071878017108,0.0034971156481068137,-0.064848,-41.037559
11.185,2.0,1.0,1.0,34.2,33.5,33.5,3.9,3.5,2.5075,0.7439854566965225,-0.00829385807226798,0.6569042047807802,0.0034709626454106093,-0.065472,-40.92397
11.185,2.0,1.0,1.0,34.2,33.5,33.5,3.9,3.5,2.51,0.7388298596493944,-0.008433715722667224,0.6625888913721011,0.003443099142785489,-0.066107,-40.810135
11.185,2.0,1.0,1.0,34.2,33.5,33.5,3.9,3.5,2.5125,0.7336041612891052,-0.008575515691437992,0.6682606535783571,0.0034134736915608613,-0.066752,-40.696049
11.185,2.0,1.0,1.0,34.2,33.5,33.5,3.9,3.5,2.515,0.7283076871835081,-0.008719281967597579,0.673918880906951,0.003382033310216604,-0.067407,-40.581705
11.185,2.0,1.0,1.0,34.2,33.5,33.5,3.9,3.5,2.5175,0.722939755981025,-0.008865038699983266,0.679562945912316,0.0033487234354346407,-0.068074,-40.467098
11.185,2.0,1.0,1.0,34.2,33.5,33.5,3.9,3.5,2.52,0.7174996794521982,-0.00901281018794613,0.6851922037262572,0.003313487871483668,-0.068751,-40.352222
11.185,2.0,1.0,1.0,34.2,33.5,33.5,3.9,3.5,2.5225,0.7119867625387224,-0.00916262087126537,0.6908059915760169,0.0032762687378753985,-0.06944,-40.237071
11.185,2.0,1.0,1.0,34.2,33.5,33.5,3.9,3.5,2.525,0.7064003034103606,-0.00931449531923853,0.6964036282898125,0.0032370064152291494,-0.07014,-40.121638
11.185,2.0,1.0,1.0,34.2,33.5,33.5,3.9,3.5,2.5275,0.7007395935301926,-0.00946845821890036,0.7019844137895604,0.003195639489277634,-0.070852,-40.005919
11.185,2.0,1.0,1.0,34.2,33.5,33.5,3.9,3.5,2.53,0.6950039177286534,-0.009624534362319788,0.7075476285704895,0.003152104692945493,-0.071576,-39.889905
11.185,2.0,1.0,1.0,34.2,33.5,33.5,3.9,3.5,2.5325,0.6891925542868463,-0.00978274863292306,0.713092533167375,0.003106336846428247,-0.072312,-39.773593
11.185,2.0,1.0,1.0,34.2,33.5,33.5,3.9,3.5,2.535,0.6833047750296203,-0.009943125990787213,0.718618367607097,0.003058268795196357,-0.073061,-39.656974
11.185,2.0,1.0,1.0,34.2,33.5,33.5,3.9,3.5,2.5375,0.6773398454289565,-0.010105691456845554,0.7241243508472271,0.003007831345846896,-0.073823,-39.540044
11.185,2.0,1.0,1.0,34.2,33.5,33.5,3.9,3.5,2.54,0.671297024718195,-0.010270470095943698,0.7296096802003631,0.002954953199720449,-0.074597,-39.422795
11.185,2.0,1.0,1.0,34.2,33.5,33.5,3.9,3.5,2.5425,0.6651755660176846,-0.010437486998681331,0.7350735307439094,0.002899560884198528,-0.075386,-39.305221
11.185,2.0,1.0,1.0,34.2,33.5,33.5,3.9,3.5,2.545,0.6589747164724495,-0.010606767261971193,0.7405150547150122,0.0028415786815927497,-0.076187,-39.187316
11.185,2.0,1.0,1.0,34.2,33.5,33.5,3.9,3.5,2.5475,0.6526937174025107,-0.010778335968243371,0.7459333808903471,0.002780928555532823,-0.077003,-39.069073
11.185,2.0,1.0,1.0,34.2,33.5,33.5,3.9,3.5,2.55,0.6463318044664919,-0.010952218163219092,0.7513276139504789,0.002717530074756887,-0.077833,-38.950486
11.185,2.0,1.0,1.0,34.2,33.5,33.5,3.9,3.5,2.5525,0.6398882078392225,-0.011128438832173756,0.7566968338284752,0.002651300334202564,-0.078677,-38.831548
11.185,2.0,1.0,1.0,34.2,33.5,33.5,3.9,3.5,2.555,0.6333621524040263,-0.011307022874605027,0.7620400950424986,0.002582153873293653,-0.079537,-38.712251
11.185,2.0,1.0,1.0,34.2,33.5,33.5,3.9,3.5,2.5575,0.6267528579604438,-0.011487995077217214,0.7673564260120797,0.002510002591311281,-0.080411,-38.59259
11.185,2.0,1.0,1.0,34.2,33.5,33.5,3.9,3.5,2.56,0.620059539448173,-0.011671380085127686,0.7726448283577689,0.0024347556597343984,-0.081301,-38.472557
11.185,2.0,1.0,1.0,34.2,33.5,33.5,3.9,3.5,2.5625,0.6132814071880285,-0.011857202371196899,0.7779042761838911,0.0023563194314283795,-0.082207,-38.352146
11.185,2.0,1.0,1.0,34.2,33.5,33.5,3.9,3.5,2.565,0.6064176671407578,-0.01204548620337783,0.7831337153441128,0.002274597346554971,-0.083129,-38.231348
11.185,2.0,1.0,1.0,34.2,33.5,33.5,3.9,3.5,2.5675,0.599467521184612,-0.012236255609974064,0.7883320626895327,0.0021894898350710637,-0.084068,-38.110158
11.185,2.0,1.0,1.0,34.2,33.5,33.5,3.9,3.5,2.57,0.5924301674125647,-0.012429534342691414,0.7934982052990315,0.0021008942156768833,-0.085024,-37.988568
11.185,2.0,1.0,1.0,34.2,33.5,33.5,3.9,3.5,2.5725,0.5853048004501503,-0.012625345837359905,0.7986309996915977,0.0020087045910680023,-0.085997,-37.866569
11.185,2.0,1.0,1.0,34.2,33.5,33.5,3.9,3.5,2.575,0.5780906117949053,-0.012823713172197436,0.8037292710203742,0.0019128117393375705,-0.086988,-37.744156
11.185,2.0,1.0,1.0,34.2,33.5,33.5,3.9,3.5,2.5775,0.570786790178457,-0.01302465902347801,0.8087918122481604,0.0018131030013684869,-0.087997,-37.62132
11.185,2.0,1.0,1.0,34.2,33.5,33.5,3.9,3.5,2.58,0.563392521952337,-0.013228205618460928,0.8138173833041171,0.0017094621640464666,-0.089025,-37.498053
11.185,2.0,1.0,1.0,34.2,33.5,33.5,3.9,3.5,2.5825,0.5559069914986314,-0.0134343746854287,0.8188047102214503,0.0016017693391162373,-0.090072,-37.374348
11.185,2.0,1.0,1.0,34.2,33.5,33.5,3.9,3.5,2.585,0.548329381666657,-0.013643187400672769,0.8237524842558239,0.001489900837494234,-0.091138,-37.250197
11.185,2.0,1.0,1.0,34.2,33.5,33.5,3.9,3.5,2.5875,0.5406588742368535,-0.013854664332257302,0.8286593609843005,0.0013737290388413494,-0.092225,-37.125592
11.185,2.0,1.0,1.0,34.2,33.5,33.5,3.9,3.5,2.59,0.5328946504131822,-0.014068825380381372,0.8335239593845897,0.0012531222561883663,-0.093332,-37.000524
11.185,2.0,1.0,1.0,34.2,33.5,33.5,3.9,3.5,2.5925,0.5250358913453214,-0.014285689714149858,0.8383448608944329,0.001127944595395925,-0.094459,-36.874985
11.185,2.0,1.0,1.0,34.2,33.5,33.5,3.9,3.5,2.595,0.5170817786820526,-0.014505275704551748,0.8431206084509217,0.0009980558092190209,-0.095608,-36.748968
11.185,2.0,1.0,1.0,34.2,33.5,33.5,3.9,3.5,2.5975,0.5090314951572322,-0.014727600853434039,0.8478497055096201,0.000863311145732521,-0.096779,-36.622463
11.185,2.0,1.0,1.0,34.2,33.5,33.5,3.9,3.5,2.6,0.5008842252098364,-0.01495268171824578,0.8525306150433322,0.0007235611908612894,-0.097973,-36.495461
11.185,2.0,1.0,1.0,34.2,33.5,33.5,3.9,3.5,2.6025,0.4926391556396206,-0.015180533832314056,0.8571617585203989,0.0005786517047434649,-0.099189,-36.367953
11.185,2.0,1.0,1.0,34.2,33.5,33.5,3.9,3.5,2.605,0.4842954762999665,-0.0154111716203999,0.8617415148624311,0.00042842345163968977,-0.10043,-36.239932
11.185,2.0,1.0,1.0,34.2,33.5,33.5,3.9,3.5,2.6075,0.4758523808295854,-0.015644608309266336,0.8662682193813923,0.0002727120230839703,-0.101694,-36.111387
11.185,2.0,1.0,1.0,34.2,33.5,33.5,3.9,3.5,2.61,0.46730906742478595,-0.015880855832974935,0.8707401626959946,0.00011134765395440583,-0.102983,-35.982308
11.185,2.0,1.0,1.0,34.2,33.5,33.5,3.9,3.5,2.6125,0.45866473965408716,-0.016119924732610025,0.8751555896273701,-5.58449688784836e-05,-0.104298,-35.852688
11.185,2.0,1.0,1.0,34.2,33.5,33.5,3.9,3.5,2.615,0.4499186073170144,-0.01636182405011128,0.8795126980740303,-0.00022904690568855882,-0.105638,-35.722515
11.185,2.0,1.0,1.0,34.2,33.5,33.5,3.9,3.5,2.6175,0.4410698873490041,-0.016606561215874897,0.8838096378661482,-0.00040844517120118453,-0.107006,-35.591779
11.185,2.0,1.0,1.0,34.2,33.5,33.5,3.9,3.5,2.62,0.4321178047743918,-0.016854141929763172,0.888044509599221,-0.0005942329504812056,-0.1084,-35.460472
11.185,2.0,1.0,1.0,34.2,33.5,33.5,3.9,3.5,2.6225,0.42306159370953134,-0.017104570035138867,0.8922153634472265,-0.0007866098238375632,-0.109823,-35.328581
11.185,2.0,1.0,1.0,34.2,33.5,33.5,3.9,3.5,2.625,0.413900498418192,-0.0173578473855159,0.896320197955401,-0.000985782001209493,-0.111275,-35.196098
11.185,2.0,1.0,1.0,34.2,33.5,33.5,3.9,3.5,2.6275,0.4046337744214161,-0.017613973703392283,0.9003569588128068,-0.0011919625665303773,-0.112756,-35.06301
11.185,2.0,1.0,1.0,34.2,33.5,33.5,3.9,3.5,2.63,0.39526068966412753,-0.017872946430801624,0.9043235376049252,-0.0014053717325973939,-0.114267,-34.929308
11.185,2.0,1.0,1.0,34.2,33.5,33.5,3.9,3.5,2.6325,0.3857805257408521,-0.018134760571089585,0.9082177705464979,-0.0016262371070129452,-0.11581,-34.794979
11.185,2.0,1.0,1.0,34.2,33.5,33.5,3.9,3.5,2.635,0.37619257918298454,-0.018399408521387644,0.9120374371949432,-0.001854793969801353,-0.117385,-34.660012
11.185,2.0,1.0,1.0,34.2,33.5,33.5,3.9,3.5,2.6375,0.36649616281014075,-0.01866687989522076,0.9157802591446708,-0.0020912855633475574,-0.118992,-34.524396
11.185,2.0,1.0,1.0,34.2,33.5,33.5,3.9,3.5,2.64,0.35669060714818485,-0.01893716133464733,0.9194438987026908,-0.002335963395351105,-0.120634,-34.388118
11.185,2.0,1.0,1.0,34.2,33.5,33.5,3.9,3.5,2.6425,0.3467752619166498,-0.019210236311285784,0.9230259575459547,-0.002589087555537259,-0.12231,-34.251166
11.185,2.0,1.0,1.0,34.2,33.5,33.5,3.9,3.5,2.645,0.3367494975883311,-0.01948608491553799,0.9265239753609055,-0.0028509270469233134,-0.124021,-34.113527
11.185,2.0,1.0,1.0,34.2,33.5,33.5,3.9,3.5,2.6475,0.32661270702393713,-0.019764683633268675,0.9299354284657844,-0.003121760132495848,-0.12577,-33.975188
11.185,2.0,1.0,1.0,34.2,33.5,33.5,3.9,3.5,2.65,0.31636430718476266,-0.0200460051091463,0.9332577284162658,-0.003401874698220498,-0.127556,-33.836137
11.185,2.0,1.0,1.0,34.2,33.5,33.5,3.9,3.5,2.6525,0.30600374092648513,-0.020330017895790534,0.9364882205950708,-0.003691568633374628,-0.12938,-33.696359
11.185,2.0,1.0,1.0,34.2,33.5,33.5,3.9,3.5,2.655,0.29553047887723183,-0.020616686187808632,0.9396241827862287,-0.0039911502292718365,-0.131245,-33.55584
11.185,2.0,1.0,1.0,34.2,33.5,33.5,3.9,3.5,2.6575,0.2849440214032063,-0.020905969539730278,0.9426628237347495,-0.0043009385975289,-0.13315,-33.414567
11.185,2.0,1.0,1.0,34.2,33.5,33.5,3.9,3.5,2.66,0.2742439006652607,-0.021197822566774435,0.9456012816924693,-0.004621264109118837,-0.135098,-33.272523
11.185,2.0,1.0,1.0,34.2,33.5,33.5,3.9,3.5,2.6625,0.2634296827699132,-0.0214921946272962,0.9484366229509212,-0.004952468855552533,-0.137088,-33.129695
11.185,2.0,1.0,1.0,34.2,33.5,33.5,3.9,3.5,2.665,0.25250097001840227,-0.021789029485669128,0.9511658403621102,-0.005294907133641374,-0.139124,-32.986066
11.185,2.0,1.0,1.0,34.2,33.5,33.5,3.9,3.5,2.6675,0.2414574032575249,-0.022088264954255053,0.953785851848112,-0.0056489459554122734,-0.141205,-32.84162
11.185,2.0,1.0,1.0,34.2,33.5,33.5,3.9,3.5,2.67,0.23029866433610782,-0.02238983251300206,0.9562934989004549,-0.00601496558487816,-0.143334,-32.696341
11.185,2.0,1.0,1.0,34.2,33.5,33.5,3.9,3.5,2.6725,0.21902447867106914,-0.022693656905086006,0.9586855450702982,-0.006393360103510286,-0.145512,-32.550212
11.185,2.0,1.0,1.0,34.2,33.5,33.5,3.9,3.5,2.675,0.2076346179272135,-0.022999655706873973,0.9609586744504088,-0.0067845380064156845,-0.14774,-32.403215
11.185,2.0,1.0,1.0,34.2,33.5,33.5,3.9,3.5,2.6775,0.19612890281500628,-0.02330773887033689,0.9631094901499886,-0.007188922831397174,-0.15002,-32.255332
11.185,2.0,1.0,1.0,34.2,33.5,33.5,3.9,3.5,2.68,0.18450720601072093,-0.023617808235870084,0.9651345127634082,-0.007606953823261782,-0.152353,-32.106544
11.185,2.0,1.0,1.0,34.2,33.5,33.5,3.9,3.5,2.6825,0.17276945520355586,-0.023929757013294285,0.9670301788338819,-0.008039086635952793,-0.154742,-31.956832
11.185,2.0,1.0,1.0,34.2,33.5,33.5,3.9,3.5,2.685,0.16091563627442487,-0.024243469228603938,0.9687928393131326,-0.008485794075310396,-0.157187,-31.806176
11.185,2.0,1.0,1.0,34.2,33.5,33.5,3.9,3.5,2.6875,0.148945796611361,-0.0245588191337984,0.970418758018046,-0.00894756688551766,-0.159692,-31.654556
11.185,2.0,1.0,1.0,34.2,33.5,33.5,3.9,3.5,2.69,0.13686004856665696,-0.024875670576876712,0.971904110085258,-0.009424914582566297,-0.162257,-31.50195
11.185,2.0,1.0,1.0,34.2,33.5,33.5,3.9,3.5,2.6925,0.12465857306104562,-0.025193876328791456,0.9732449804245711,-0.009918366338385038,-0.164885,-31.348336
11.185,2.0,1.0,1.0,34.2,33.5,33.5,3.9,3.5,2.695,0.1123416233405311,-0.02551327736383753,0.9744373621719826,-0.010428471919607905,-0.167578,-31.193691
11.185,2.0,1.0,1.0,34.2,33.5,33.5,3.9,3.5,2.6975,0.09990952889165833,-0.02583370208959707,0.9754771551429668,-0.01095580268533568,-0.170337,-31.037992
11.185,2.0,1.0,1.0,34.2,33.5,33.5,3.9,3.5,2.7,0.08736269952135985,-0.026154965522161323,0.9763601642865422,-0.011500952648652628,-0.173166,-30.881214
11.185,2.0,1.0,1.0,34.2,33.5,33.5,3.9,3.5,2.7025,0.07470162960778837,-0.02647686840190457,0.9770820981404077,-0.012064539607116983,-0.176067,-30.723332
11.185,2.0,1.0,1.0,34.2,33.5,33.5,3.9,3.5,2.705,0.06192690252894295,-0.026799196244581377,0.9776385672872145,-0.012647206347944322,-0.179043,-30.564319
11.185,2.0,1.0,1.0,34.2,33.5,33.5,3.9,3.5,2.7075,0.04903919527624756,-0.027121718321955337,0.9780250828117529,-0.013249621934160452,-0.182095,-30.404148
11.185,2.0,1.0,1.0,34.2,33.5,33.5,3.9,3.5,2.71,0.036039283260745125,-0.02744418656553063,0.978237054758476,-0.013872483078613627,-0.185227,-30.242791
11.185,2.0,1.0,1.0,34.2,33.5,33.5,3.9,3.5,2.7125,0.02292804532002918,-0.02776633438624055,0.9782697905883599,-0.014516515613419162,-0.188442,-30.080219
11.185,2.0,1.0,1.0,34.2,33.5,33.5,3.9,3.5,2.715,0.009706468934644002,-0.02808787540213821,0.9781184936336561,-0.015182476063162868,-0.191743,-29.916399
11.185,2.0,1.0,1.0,34.2,33.5,33.5,3.9,3.5,2.7175,-0.0036243443366393087,-0.028408502065217993,0.977778261548443,-0.015871153331028207,-0.195133,-29.751301
11.185,2.0,1.0,1.0,34.2,33.5,33.5,3.9,3.5,2.72,-0.017063173192533726,-0.02872788417745912,0.9772440847523126,-0.016583370507939888,-0.198615,-29.584891
11.185,2.0,1.0,1.0,34.2,33.5,33.5,3.9,3.5,2.7225,-0.030608670684910917,-0.029045667285007425,0.9765108448636607,-0.0173199868158508,-0.202194,-29.417134
11.185,2.0,1.0,1.0,34.2,33.5,33.5,3.9,3.5,2.725,-0.04425935806237781,-0.029361470938073207,0.9755733131182339,-0.018081899697442266,-0.205872,-29.247995
11.185,2.0,1.0,1.0,34.2,33.5,33.5,3.9,3.5,2.7275,-0.05801361834859905,-0.029674886802604706,0.9744261487674893,-0.01887004706578597,-0.209655,-29.077435
11.185,2.0,1.0,1.0,34.2,33.5,33.5,3.9,3.5,2.73,-0.07186968964077141,-0.02998547660806408,0.9730638974501781,-0.019685409728930597,-0.213546,-28.905415
11.185,2.0,1.0,1.0,34.2,33.5,33.5,3.9,3.5,2.7325,-0.08582565811217417,-0.030292769913656006,0.9714809895291585,-0.020529014005958038,-0.217549,-28.731895
11.185,2.0,1.0,1.0,34.2,33.5,33.5,3.9,3.5,2.735,-0.09987945070086736,-0.030596261673101977,0.9696717383839357,-0.02140193455280984,-0.221671,-28.55683
11.185,2.0,1.0,1.0,34.2,33.5,33.5,3.9,3.5,2.7375,-0.11402882746449985,-0.03089540957546605,0.9676303386475696,-0.02230529741814659,-0.225915,-28.380176
11.185,2.0,1.0,1.0,34.2,33.5,33.5,3.9,3.5,2.74,-0.12827137357873053,-0.031189631136576017,0.9653508643746135,-0.02324028335168772,-0.230287,-28.201887
11.185,2.0,1.0,1.0,34.2,33.5,33.5,3.9,3.5,2.7425,-0.14260449095393482,-0.03147830051217818,0.962827267124388,-0.02420813138991867,-0.234793,-28.021912
11.185,2.0,1.0,1.0,34.2,33.5,33.5,3.9,3.5,2.745,-0.15702538944146807,-0.03176074500004941,0.9600533739412714,-0.02521014274677493,-0.239439,-27.840199
11.185,2.0,1.0,1.0,34.2,33.5,33.5,3.9,3.5,2.7475,-0.17153107759689598,-0.03203624119377716,0.9570228852106859,-0.02624768503995418,-0.244231,-27.656696
11.185,2.0,1.0,1.0,34.2,33.5,33.5,3.9,3.5,2.75,-0.186118352962988,-0.0323040107457099,0.953729372366045,-0.0273221968869055,-0.249177,-27.471345
11.185,2.0,1.0,1.0,34.2,33.5,33.5,3.9,3.5,2.7525,-0.2007837918299474,-0.03256321569055649,0.9501662754180986,-0.02843519290834427,-0.254284,-27.284085
11.185,2.0,1.0,1.0,34.2,33.5,33.5,3.9,3.5,2.755,-0.21552373842397962,-0.03281295327413392,0.9463269002737168,-0.029588269181386937,-0.25956,-27.094856
11.185,2.0,1.0,1.0,34.2,33.5,33.5,3.9,3.5,2.7575,-0.23033429346806444,-0.03305225022366161,0.9422044158062609,-0.030783109189154275,-0.265013,-26.90359
11.185,2.0,1.0,1.0,34.2,33.5,33.5,3.9,3.5,2.76,-0.24521130204990524,-0.03328005638657833,0.9377918506340814,-0.032021490318998286,-0.270652,-26.710218
11.185,2.0,1.0,1.0,34.2,33.5,33.5,3.9,3.5,2.7625,-0.260150340721999,-0.03349523765387684,0.9330820895574355,-0.03330529096745805,-0.276488,-26.514667
11.185,2.0,1.0,1.0,34.2,33.5,33.5,3.9,3.5,2.765,-0.2751467037465876,-0.033696568071126975,0.9280678695970255,-0.03463649831668681,-0.282531,-26.31686
11.185,2.0,1.0,1.0,34.2,33.5,33.5,3.9,3.5,2.7675,-0.29019538838403525,-0.03388272102535294,0.9227417755693803,-0.036017216854524206,-0.288793,-26.116716
11.185,2.0,1.0,1.0,34.2,33.5,33.5,3.9,3.5,2.77,-0.3052910791064202,-0.03405225937832767,0.9170962351253865,-0.03744967771868086,-0.295285,-25.91415
11.185,2.0,1.0,1.0,34.2,33.5,33.5,3.9,3.5,2.7725,-0.3204281305981284,-0.03420362439616009,0.9111235131682102,-0.03893624895475946,-0.30202,-25.70907
11.185,2.0,1.0,1.0,34.2,33.5,33.5,3.9,3.5,2.775,-0.33560054938161077,-0.03433512330067511,0.9048157055556127,-0.040479446788149645,-0.309014,-25.501382
11.185,2.0,1.0,1.0,34.2,33.5,33.5,3.9,3.5,2.7775,-0.3508019738784653,-0.034444915239301245,0.8981647319791097,-0.04208194802130908,-0.316282,-25.290984
11.185,2.0,1.0,1.0,34.2,33.5,33.5,3.9,3.5,2.78,-0.36602565268248843,-0.03453099543610317,0.8911623278984225,-0.043746603680670536,-0.323841,-25.077769
11.185,2.0,1.0,1.0,34.2,33.5,33.5,3.9,3.5,2.7825,-0.3812644207815339,-0.03459117724615261,0.8838000353941315,-0.04547645405148807,-0.33171,-24.861624
11.185,2.0,1.0,1.0,34.2,33.5,33.5,3.9,3.5,2.785,-0.39651067341746965,-0.03462307178730952,0.8760691927842528,-0.04727474525444523,-0.339907,-24.642429
11.185,2.0,1.0,1.0,34.2,33.5,33.5,3.9,3.5,2.7875,-0.4117563372163019,-0.034624064766074145,0.8679609228315643,-0.049144947534804695,-0.348456,-24.420056
11.185,2.0,1.0,1.0,34.2,33.5,33.5,3.9,3.5,2.79,-0.4269928381523001,-0.034591290045492766,0.859466119347846,-0.051090775453335756,-0.357381,-24.194371
11.185,2.0,1.0,1.0,34.2,33.5,33.5,3.9,3.5,2.7925,-0.4422110658274559,-0.03452159942071329,0.8505754319788756,-0.05311621018808117,-0.366707,-23.96523
11.185,2.0,1.0,1.0,34.2,33.5,33.5,3.9,3.5,2.795,-0.45740133344831535,-0.034411527968673514,0.841279248930084,-0.05522552417708746,-0.376464,-23.732479
11.185,2.0,1.0,1.0,34.2,33.5,33.5,3.9,3.5,2.7975,-0.4725533327621179,-0.03425725421881678,0.8315676773676859,-0.057423308354108436,-0.386684,-23.495957
11.185,2.0,1.0,1.0,34.2,33.5,33.5,3.9,3.5,2.8,-0.4876560830685336,-0.034054554247009344,0.8214305212042404,-0.059714502251458475,-0.397402,-23.255491
11.185,2.0,1.0,1.0,34.2,33.5,33.5,3.9,3.5,2.8025,-0.5026978732462297,-0.033798748619155244,0.8108572559520415,-0.06210442726561047,-0.408657,-23.010895
11.185,2.0,1.0,1.0,34.2,33.5,33.5,3.9,3.5,2.805,-0.5176661955175391,-0.03348464089708548,0.799837000303854,-0.06459882340035161,-0.420493,-22.761973
11.185,2.0,1.0,1.0,34.2,33.5,33.5,3.9,3.5,2.8075,-0.5325476694104899,-0.033106446157987114,0.7883584840804085,-0.067203889817071,-0.432957,-22.508514
11.185,2.0,1.0,1.0,34.2,33.5,33.5,3.9,3.5,2.81,-0.5473279540535421,-0.03265770765839574,0.7764100121711456,-0.0699263295287064,-0.446103,-22.250295
11.185,2.0,1.0,1.0,34.2,33.5,33.5,3.9,3.5,2.8125,-0.561991646539706,-0.0321311993800528,0.763979424093663,-0.0727733985681501,-0.459992,-21.987073
11.185,2.0,1.0,1.0,34.2,33.5,33.5,3.9,3.5,2.815,-0.5765221636047928,-0.0315188117092525,0.7510540488151713,-0.07575295993637662,-0.474691,-21.718593
11.185,2.0,1.0,1.0,34.2,33.5,33.5,3.9,3.5,2.8175,-0.590901603255251,-0.03081141690026206,0.73762065452633,-0.07887354257987074,-0.490275,-21.444579
11.185,2.0,1.0,1.0,34.2,33.5,33.5,3.9,3.5,2.82,-0.6051105822241079,-0.029998710227139895,0.7236653931488316,-0.08214440554619092,-0.50683,-21.164734
11.185,2.0,1.0,1.0,34.2,33.5,33.5,3.9,3.5,2.8225,-0.6191280441904663,-0.02906902179876801,0.709173739514512,-0.08557560729913671,-0.524453,-20.87874
11.185,2.0,1.0,1.0,34.2,33.5,33.5,3.9,3.5,2.825,-0.6329310325188887,-0.028009092850555188,0.6941304254065576,-0.08917807990990274,-0.543253,-20.586258
11.185,2.0,1.0,1.0,34.2,33.5,33.5,3.9,3.5,2.8275,-0.6464944197971492,-0.026803808870959327,0.6785193690474529,-0.09296370743287431,-0.563356,-20.286919
