1,w,sub_t,h,l1,l2,l3,g1,g2,Freq,S11_re,S21_re,S11_img,S21_img,S11_dB,S21_dB
11.185,2.0,1.0,1.0,34.5,33.7,33.7,2.7,4.4,2.5,0.699705203267435,-0.0104422015487603,0.702891957023524,0.00386463146355906,-0.071618,-39.066661
11.185,2.0,1.0,1.0,34.5,33.7,33.7,2.7,4.4,2.5025,0.6938307670687262,-0.010617331723009863,0.7085709374990287,0.0038196148497558918,-0.072372,-38.95113
11.185,2.0,1.0,1.0,34.5,33.7,33.7,2.7,4.4,2.505,0.6878776392984184,-0.010794884612115179,0.7142302194775442,0.0037721099058114042,-0.073138,-38.835306
11.185,2.0,1.0,1.0,34.5,33.7,33.7,2.7,4.4,2.5075,0.6818450662620967,-0.010974887190045,0.7198689871486067,0.003722040373100981,-0.073917,-38.719184
11.185,2.0,1.0,1.0,34.5,33.7,33.7,2.7,4.4,2.51,0.6757322879721448,-0.011157366381143894,0.7254864021944636,0.0036693276899509458,-0.074709,-38.602758
11.185,2.0,1.0,1.0,34.5,33.7,33.7,2.7,4.4,2.5125,0.6695385382811011,-0.011342349033758485,0.7310816031765434,0.0036138909190872146,-0.075516,-38.486023
11.185,2.0,1.0,1.0,34.5,33.7,33.7,2.7,4.4,2.515,0.6632630450276017,-0.01152986189209433,0.7366537049064689,0.0035556466727413886,-0.076336,-38.368973
11.185,2.0,1.0,1.0,34.5,33.7,33.7,2.7,4.4,2.5175,0.6569050301955841,-0.011719931566204775,0.7422017978013032,0.003494509035339111,-0.077171,-38.251602
11.185,2.0,1.0,1.0,34.5,33.7,33.7,2.7,4.4,2.52,0.6504637100874323,-0.011912584500009416,0.7477249472227379,0.0034303894836921695,-0.07802,-38.133904
11.185,2.0,1.0,1.0,34.5,33.7,33.7,2.7,4.4,2.5225,0.6439382955117916,-0.012107846937232502,0.7532221927998909,0.003363196804614294,-0.078884,-38.015875
11.185,2.0,1.0,1.0,34.5,33.7,33.7,2.7,4.4,2.525,0.6373279919867983,-0.012305744885147801,0.7586925477354374,0.0032928370098772456,-0.079764,-37.897507
11.185,2.0,1.0,1.0,34.5,33.7,33.7,2.7,4.4,2.5275,0.6306319999595078,-0.01250630407600897,0.7641349980947596,0.0032192132484219764,-0.080659,-37.778795
11.185,2.0,1.0,1.0,34.5,33.7,33.7,2.7,4.4,2.53,0.6238495150423456,-0.012709549926038795,0.769548502077813,0.00314222571573635,-0.08157,-37.659734
11.185,2.0,1.0,1.0,34.5,33.7,33.7,2.7,4.4,2.5325,0.6169797282674373,-0.012915507491843637,0.7749319892734204,0.0030617715603084702,-0.082497,-37.540316
11.185,2.0,1.0,1.0,34.5,33.7,33.7,2.7,4.4,2.535,0.610021826359701,-0.013124201424112981,0.7802843598957032,0.002977744787061982,-0.083441,-37.420537
11.185,2.0,1.0,1.0,34.5,33.7,33.7,2.7,4.4,2.5375,0.602974992029647,-0.013335655918455395,0.7856044840023536,0.0028900361576762327,-0.084402,-37.300389
11.185,2.0,1.0,1.0,34.5,33.7,33.7,2.7,4.4,2.54,0.5958384042868443,-0.013549894663215727,0.790891200694483,0.0027985330876918774,-0.085381,-37.179868
11.185,2.0,1.0,1.0,34.5,33.7,33.7,2.7,4.4,2.5425,0.5886112387750706,-0.013766940784109161,0.79614331729776,0.0027031195402988832,-0.086377,-37.058965
11.185,2.0,1.0,1.0,34.5,33.7,33.7,2.7,4.4,2.545,0.5812926681302016,-0.01398681678549954,0.8013596085245862,0.0026036759167007402,-0.087392,-36.937677
11.185,2.0,1.0,1.0,34.5,33.7,33.7,2.7,4.4,2.5475,0.5738818623619482,-0.014209544488139755,0.8065388156170449,0.0025000789429458314,-0.088425,-36.815995
11.185,2.0,1.0,1.0,34.5,33.7,33.7,2.7,4.4,2.55,0.5663779892605618,-0.014435144963183193,0.8116796454703851,0.0023922015531128702,-0.089477,-36.693914
11.185,2.0,1.0,1.0,34.5,33.7,33.7,2.7,4.4,2.5525,0.5587802148297478,-0.014663638462263796,0.8167807697368059,0.002279912768734124,-0.090549,-36.571427
11.185,2.0,1.0,1.0,34.5,33.7,33.7,2.7,4.4,2.555,0.5510877037469858,-0.014895044343432926,0.8218408239093223,0.0021630775743366974,-0.091641,-36.448527
11.185,2.0,1.0,1.0,34.5,33.7,33.7,2.7,4.4,2.5575,0.5432996198525757,-0.015129380992728921,0.82685840638552,0.00204155678897767,-0.092753,-36.325208
11.185,2.0,1.0,1.0,34.5,33.7,33.7,2.7,4.4,2.56,0.53541512666876,-0.01536666574114373,0.8318320775109914,0.0019152069336459108,-0.093886,-36.201464
11.185,2.0,1.0,1.0,34.5,33.7,33.7,2.7,4.4,2.5625,0.5274333879503175,-0.015606914776738222,0.8367603586023078,0.0017838800943984889,-0.09504,-36.077287
11.185,2.0,1.0,1.0,34.5,33.7,33.7,2.7,4.4,2.565,0.5193535682680891,-0.01585014305164492,0.8416417309493652,0.001647423781096133,-0.096217,-35.952671
11.185,2.0,1.0,1.0,34.5,33.7,33.7,2.7,4.4,2.5675,0.5111748336269675,-0.01609636418368195,0.846474634796982,0.0015056807815969776,-0.097415,-35.827609
11.185,2.0,1.0,1.0,34.5,33.7,33.7,2.7,4.4,2.57,0.502896352119914,-0.016345590352288452,0.8512574683056525,0.0013584890112643994,-0.098637,-35.702093
11.185,2.0,1.0,1.0,34.5,33.7,33.7,2.7,4.4,2.5725,0.49451729461965693,-0.016597832188474927,0.8559885864913743,0.0012056813576390277,-0.099882,-35.576116
11.185,2.0,1.0,1.0,34.5,33.7,33.7,2.7,4.4,2.575,0.48603683550976795,-0.016853098658466105,0.8606663001445064,0.0010470855201205262,-0.101151,-35.449673
11.185,2.0,1.0,1.0,34.5,33.7,33.7,2.7,4.4,2.5775,0.47745415345690334,-0.01711139694069625,0.8652888747276507,0.0008825238444998768,-0.102445,-35.322754
11.185,2.0,1.0,1.0,34.5,33.7,33.7,2.7,4.4,2.58,0.4687684322260422,-0.017372732295798162,0.8698545292525608,0.0007118131521770859,-0.103763,-35.195353
11.185,2.0,1.0,1.0,34.5,33.7,33.7,2.7,4.4,2.5825,0.45997886154063206,-0.017637107929208126,0.874361435136147,0.0005347645638939129,-0.105108,-35.067462
11.185,2.0,1.0,1.0,34.5,33.7,33.7,2.7,4.4,2.585,0.45108463798964293,-0.017904524845987566,0.8788077150356698,0.00035118331780536056,-0.106479,-34.939074
11.185,2.0,1.0,1.0,34.5,33.7,33.7,2.7,4.4,2.5875,0.4420849659835592,-0.018174981697441327,0.8831914416632586,0.00016086858170724397,-0.107878,-34.81018
11.185,2.0,1.0,1.0,34.5,33.7,33.7,2.7,4.4,2.59,0.4329790587614843,-0.018448474619087815,0.8875106365799329,-3.638674076858077e-05,-0.109304,-34.680774
11.185,2.0,1.0,1.0,34.5,33.7,33.7,2.7,4.4,2.5925,0.423766139451537,-0.01872499705951369,0.8917632689693737,-0.0002407962101877114,-0.110758,-34.550847
11.185,2.0,1.0,1.0,34.5,33.7,33.7,2.7,4.4,2.595,0.41444544218686774,-0.01900453959961704,0.8959472543917081,-0.00045258005777734905,-0.112242,-34.420391
11.185,2.0,1.0,1.0,34.5,33.7,33.7,2.7,4.4,2.5975,0.40501621327964643,-0.0192870897617184,0.9000604535176674,-0.0006719653985325922,-0.113755,-34.289398
11.185,2.0,1.0,1.0,34.5,33.7,33.7,2.7,4.4,2.6,0.39547771245550245,-0.0195726318079869,0.9041006708435096,-0.0008991864511823443,-0.115299,-34.157859
11.185,2.0,1.0,1.0,34.5,33.7,33.7,2.7,4.4,2.6025,0.3858292141509719,-0.019861146527599082,0.9080656533871658,-0.0011344847652423203,-0.116875,-34.025767
11.185,2.0,1.0,1.0,34.5,33.7,33.7,2.7,4.4,2.605,0.3760700088765747,-0.020152611012014543,0.9119530893661505,-0.0013781094553907568,-0.118483,-33.893112
11.185,2.0,1.0,1.0,34.5,33.7,33.7,2.7,4.4,2.6075,0.36619940464827533,-0.020446998417717025,0.9157606068578379,-0.0016303174434125645,-0.120124,-33.759886
11.185,2.0,1.0,1.0,34.5,33.7,33.7,2.7,4.4,2.61,0.3562167284901418,-0.020744277715731906,0.9194857724427727,-0.0018913737079674204,-0.121799,-33.62608
11.185,2.0,1.0,1.0,34.5,33.7,33.7,2.7,4.4,2.6125,0.34612132801113027,-0.021044413427191516,0.9231260898317979,-0.0021615515424486956,-0.123508,-33.491685
11.185,2.0,1.0,1.0,34.5,33.7,33.7,2.7,4.4,2.615,0.33591257305900385,-0.02134736534417662,0.9266789984778228,-0.0024411328212114794,-0.125254,-33.356692
11.185,2.0,1.0,1.0,34.5,33.7,33.7,2.7,4.4,2.6175,0.3255898574545241,-0.021653088235016812,0.93014187217318,-0.0027304082744606557,-0.127036,-33.221091
11.185,2.0,1.0,1.0,34.5,33.7,33.7,2.7,4.4,2.62,0.3151526008091201,-0.02196153153318412,0.93351201763361,-0.0030296777721034182,-0.128855,-33.084872
11.185,2.0,1.0,1.0,34.5,33.7,33.7,2.7,4.4,2.6225,0.30460025042936234,-0.02227263900886208,0.9367866730699866,-0.0033392506168853117,-0.130713,-32.948027
11.185,2.0,1.0,1.0,34.5,33.7,33.7,2.7,4.4,2.625,0.293932283311686,-0.0225863484222163,0.939963006749043,-0.00365944584714392,-0.132611,-32.810545
11.185,2.0,1.0,1.0,34.5,33.7,33.7,2.7,4.4,2.6275,0.2831482082308794,-0.022902591157333944,0.9430381155444314,-0.003990592549532299,-0.13455,-32.672417
11.185,2.0,1.0,1.0,34.5,33.7,33.7,2.7,4.4,2.63,0.27224756792600435,-0.0232212918357344,0.9460090234795955,-0.004333030182081314,-0.13653,-32.53363
11.185,2.0,1.0,1.0,34.5,33.7,33.7,2.7,4.4,2.6325,0.26122994138749417,-0.023542367908285622,0.9488726802640337,-0.004687108907990861,-0.138553,-32.394176
11.185,2.0,1.0,1.0,34.5,33.7,33.7,2.7,4.4,2.635,0.25009494624931333,-0.02386572922428589,0.9516259598246709,-0.005053189940560509,-0.140621,-32.254044
11.185,2.0,1.0,1.0,34.5,33.7,33.7,2.7,4.4,2.6375,0.2388422412901646,-0.0241912775763921,0.9542656588341936,-0.005431645899693863,-0.142734,-32.113222
11.185,2.0,1.0,1.0,34.5,33.7,33.7,2.7,4.4,2.64,0.22747152904783768,-0.024518906219989846,0.9567884952383219,-0.005822861180436634,-0.144893,-31.971699
11.185,2.0,1.0,1.0,34.5,33.7,33.7,2.7,4.4,2.6425,0.21598255855094503,-0.02484849936550765,0.95919110678416,-0.006227232334035043,-0.147101,-31.829463
11.185,2.0,1.0,1.0,34.5,33.7,33.7,2.7,4.4,2.645,0.20437512817237583,-0.02517993164207888,0.961470049551897,-0.006645168462031857,-0.149357,-31.686504
11.185,2.0,1.0,1.0,34.5,33.7,33.7,2.7,4.4,2.6475,0.1926490886089581,-0.02551306753084588,0.9636217964922915,-0.007077091623949462,-0.151665,-31.542808
11.185,2.0,1.0,1.0,34.5,33.7,33.7,2.7,4.4,2.65,0.18080434599189688,-0.025847760766086057,0.9656427359725369,-0.007523437259146655,-0.154024,-31.398364
11.185,2.0,1.0,1.0,34.5,33.7,33.7,2.7,4.4,2.6525,0.16884086513276583,-0.026183853702209856,0.9675291703332511,-0.007984654623471558,-0.156438,-31.253159
11.185,2.0,1.0,1.0,34.5,33.7,33.7,2.7,4.4,2.655,0.1567586729098699,-0.026521176644546764,0.9692773144595287,-0.008461207241379476,-0.158906,-31.10718
11.185,2.0,1.0,1.0,34.5,33.7,33.7,2.7,4.4,2.6575,0.14455786180000088,-0.026859547141683406,0.9708832943691343,-0.008953573374227993,-0.161432,-30.960413
11.185,2.0,1.0,1.0,34.5,33.7,33.7,2.7,4.4,2.66,0.1322385935607199,-0.027198769236956258,0.9723431458211271,-0.009462246505513795,-0.164016,-30.812846
11.185,2.0,1.0,1.0,34.5,33.7,33.7,2.7,4.4,2.6625,0.11980110306846513,-0.027538632676523817,0.973652812948342,-0.009987735843870419,-0.16666,-30.664463
11.185,2.0,1.0,1.0,34.5,33.7,33.7,2.7,4.4,2.665,0.10724570231788731,-0.027878912071250386,0.9748081469173806,-0.010530566844708295,-0.169366,-30.515251
11.185,2.0,1.0,1.0,34.5,33.7,33.7,2.7,4.4,2.6675,0.09457278458805614,-0.028219366009420484,0.975804904619902,-0.0110912817514422,-0.172137,-30.365195
11.185,2.0,1.0,1.0,34.5,33.7,33.7,2.7,4.4,2.67,0.08178282878125381,-0.028559736117073187,0.9766387473992286,-0.011670440157326515,-0.174974,-30.21428
11.185,2.0,1.0,1.0,34.5,33.7,33.7,2.7,4.4,2.6725,0.0688764039403069,-0.02889974606249057,0.9773052398164267,-0.012268619588996419,-0.177878,-30.062489
11.185,2.0,1.0,1.0,34.5,33.7,33.7,2.7,4.4,2.675,0.055854173950572614,-0.029239100501096602,0.9777998484602312,-0.012886416112899488,-0.180853,-29.909808
11.185,2.0,1.0,1.0,34.5,33.7,33.7,2.7,4.4,2.6775,0.04271690243288768,-0.02957748395671597,0.9781179408053486,-0.013524444965898295,-0.1839,-29.756218
11.185,2.0,1.0,1.0,34.5,33.7,33.7,2.7,4.4,2.68,0.029465457834003395,-0.02991455963480638,0.9782547841238481,-0.014183341211426274,-0.187022,-29.601704
11.185,2.0,1.0,1.0,34.5,33.7,33.7,2.7,4.4,2.6825,0.0161008187212622,-0.03024996816290502,0.9782055444545259,-0.014863760422692695,-0.190221,-29.446247
11.185,2.0,1.0,1.0,34.5,33.7,33.7,2.7,4.4,2.685,0.0026240792885035822,-0.030583326253121355,0.9779652856352813,-0.015566379394555532,-0.1935,-29.28983
11.185,2.0,1.0,1.0,34.5,33.7,33.7,2.7,4.4,2.6875,-0.0109635449195277,-0.0309142252810546,0.977528968403701,-0.0162918968858148,-0.196861,-29.132434
11.185,2.0,1.0,1.0,34.5,33.7,33.7,2.7,4.4,2.69,-0.024660711056689346,-0.031242229775012575,0.9768914495711932,-0.017041034393823797,-0.200307,-28.974038
11.185,2.0,1.0,1.0,34.5,33.7,33.7,2.7,4.4,2.6925,-0.03846594279100369,-0.0315668758088546,0.9760474812761258,-0.017814536963476412,-0.203841,-28.814624
11.185,2.0,1.0,1.0,34.5,33.7,33.7,2.7,4.4,2.695,-0.052377623877952854,-0.03188766929116249,0.9749917103215537,-0.018613174032796997,-0.207466,-28.654169
11.185,2.0,1.0,1.0,34.5,33.7,33.7,2.7,4.4,2.6975,-0.0663939914828754,-0.03220408414276165,0.9737186776031994,-0.01943774031755034,-0.211185,-28.492654
11.185,2.0,1.0,1.0,34.5,33.7,33.7,2.7,4.4,2.7,-0.08051312924327222,-0.03251556035384995,0.9722228176334342,-0.02028905673748699,-0.215001,-28.330056
11.185,2.0,1.0,1.0,34.5,33.7,33.7,2.7,4.4,2.7025,-0.09473296006137635,-0.03282150191114604,0.9704984581670414,-0.021167971387060096,-0.218918,-28.16635
11.185,2.0,1.0,1.0,34.5,33.7,33.7,2.7,4.4,2.705,-0.10905123861667608,-0.03312127458452111,0.96853981993457,-0.02207536055368332,-0.22294,-28.001515
11.185,2.0,1.0,1.0,34.5,33.7,33.7,2.7,4.4,2.7075,-0.12346554358744732,-0.0334142035615226,0.9663410164890873,-0.023012129786853658,-0.227069,-27.835525
11.185,2.0,1.0,1.0,34.5,33.7,33.7,2.7,4.4,2.71,-0.13797326956953282,-0.03369957091701744,0.9638960541720619,-0.0239792150217323,-0.231311,-27.668353
11.185,2.0,1.0,1.0,34.5,33.7,33.7,2.7,4.4,2.7125,-0.15257161867973437,-0.03397661290386068,0.9611988322040653,-0.024977583761068782,-0.235669,-27.499974
11.185,2.0,1.0,1.0,34.5,33.7,33.7,2.7,4.4,2.715,-0.1672575918301384,-0.03424451704901444,0.9582431429058158,-0.026008236319659664,-0.240148,-27.33036
11.185,2.0,1.0,1.0,34.5,33.7,33.7,2.7,4.4,2.7175,-0.18202797965851925,-0.03450241903787999,0.9550226720549511,-0.02707220713586242,-0.244751,-27.159482
11.185,2.0,1.0,1.0,34.5,33.7,33.7,2.7,4.4,2.72,-0.19687935309859517,-0.03474939936773985,0.9515309993836755,-0.028170566155027596,-0.249486,-26.987309
11.185,2.0,1.0,1.0,34.5,33.7,33.7,2.7,4.4,2.7225,-0.21180805357237262,-0.03498447974910745,0.9477615992221616,-0.02930442029007716,-0.254355,-26.81381
11.185,2.0,1.0,1.0,34.5,33.7,33.7,2.7,4.4,2.725,-0.22681018278493958,-0.03520661923141767,0.9437078412922838,-0.030474914964827304,-0.259365,-26.638954
11.185,2.0,1.0,1.0,34.5,33.7,33.7,2.7,4.4,2.7275,-0.24188159210007523,-0.035414710026828666,0.9393629916558324,-0.03168323574604811,-0.264521,-26.462705
11.185,2.0,1.0,1.0,34.5,33.7,33.7,2.7,4.4,2.73,-0.2570178714725336,-0.03560757300289699,0.9347202138209869,-0.032930610070639195,-0.26983,-26.285028
11.185,2.0,1.0,1.0,34.5,33.7,33.7,2.7,4.4,2.7325,-0.27221433791016253,-0.03578395281149167,0.9297725700102734,-0.03421830907470201,-0.275298,-26.105887
11.185,2.0,1.0,1.0,34.5,33.7,33.7,2.7,4.4,2.735,-0.2874660234357239,-0.03594251261746791,0.9245130225927121,-0.03554764953167124,-0.280931,-25.925242
11.185,2.0,1.0,1.0,34.5,33.7,33.7,2.7,4.4,2.7375,-0.3027676625146444,-0.03608182838626935,0.9189344356822634,-0.0369199959070439,-0.286737,-25.743053
11.185,2.0,1.0,1.0,34.5,33.7,33.7,2.7,4.4,2.74,-0.3181136789105508,-0.03620038268468994,0.9130295769040306,-0.03833676253757898,-0.292723,-25.559279
11.185,2.0,1.0,1.0,34.5,33.7,33.7,2.7,4.4,2.7425,-0.33349817192555403,-0.036296557943422424,0.9067911193289911,-0.0397994159431342,-0.298898,-25.373874
11.185,2.0,1.0,1.0,34.5,33.7,33.7,2.7,4.4,2.745,-0.3489149019764481,-0.03636862912365,0.900211643577355,-0.04130947727952228,-0.30527,-25.186792
11.185,2.0,1.0,1.0,34.5,33.7,33.7,2.7,4.4,2.7475,-0.36435727545138774,-0.03641475572268563,0.8932836400899431,-0.04286852494088711,-0.311847,-24.997985
11.185,2.0,1.0,1.0,34.5,33.7,33.7,2.7,4.4,2.75,-0.37981832878392,-0.0364329730454023,0.885999511566318,-0.0444781973200808,-0.318641,-24.807403
11.185,2.0,1.0,1.0,34.5,33.7,33.7,2.7,4.4,2.7525,-0.39529071167236973,-0.03642118265876908,0.8783515755678106,-0.04614019573531625,-0.325661,-24.614991
11.185,2.0,1.0,1.0,34.5,33.7,33.7,2.7,4.4,2.755,-0.41076666936230094,-0.03637714193603829,0.870332067283129,-0.04785628753092112,-0.332919,-24.420695
11.185,2.0,1.0,1.0,34.5,33.7,33.7,2.7,4.4,2.7575,-0.4262380238979129,-0.03629845258480906,0.861933142453913,-0.049628309359257584,-0.340425,-24.224454
11.185,2.0,1.0,1.0,34.5,33.7,33.7,2.7,4.4,2.76,-0.44169615423442654,-0.03618254803908142,0.8531468804576346,-0.05145817064968684,-0.348194,-24.026208
11.185,2.0,1.0,1.0,34.5,33.7,33.7,2.7,4.4,2.7625,-0.45713197508762854,-0.036026679579230565,0.8439652875455562,-0.053347857268759874,-0.356239,-23.825891
11.185,2.0,1.0,1.0,34.5,33.7,33.7,2.7,4.4,2.765,-0.47253591437824044,-0.03582790102524495,0.8343803002343667,-0.0552994353734259,-0.364574,-23.623436
11.185,2.0,1.0,1.0,34.5,33.7,33.7,2.7,4.4,2.7675,-0.4878978891073825,-0.03558305182719678,0.8243837888516868,-0.05731505545580738,-0.373215,-23.41877
11.185,2.0,1.0,1.0,34.5,33.7,33.7,2.7,4.4,2.77,-0.5032072794746191,-0.03528873835229901,0.8139675612380936,-0.0593969565737492,-0.38218,-23.211819
11.185,2.0,1.0,1.0,34.5,33.7,33.7,2.7,4.4,2.7725,-0.5184529010212195,-0.03494131313952079,0.8031233666120479,-0.061547470755616375,-0.391486,-23.002501
11.185,2.0,1.0,1.0,34.5,33.7,33.7,2.7,4.4,2.775,-0.5336229745478611,-0.03453685185995622,0.7918428996093305,-0.06376902756032485,-0.401153,-22.790735
11.185,2.0,1.0,1.0,34.5,33.7,33.7,2.7,4.4,2.7775,-0.5487050935171477,-0.03407112768324472,0.7801178045158782,-0.06606415876387395,-0.411204,-22.57643
11.185,2.0,1.0,1.0,34.5,33.7,33.7,2.7,4.4,2.78,-0.5636861886061223,-0.03353958270645651,0.7679396797227831,-0.06843550313112723,-0.421661,-22.359493
11.185,2.0,1.0,1.0,34.5,33.7,33.7,2.7,4.4,2.7825,-0.5785524890213761,-0.0329372960509791,0.7553000824454732,-0.07088581121550303,-0.432549,-22.139827
11.185,2.0,1.0,1.0,34.5,33.7,33.7,2.7,4.4,2.785,-0.5932894801281856,-0.03225894817386353,0.7421905337664811,-0.07341795010868571,-0.443896,-21.917326
11.185,2.0,1.0,1.0,34.5,33.7,33.7,2.7,4.4,2.7875,-0.6078818568736816,-0.03149878087141937,0.7286025240842685,-0.07603490803621904,-0.455732,-21.691881
11.185,2.0,1.0,1.0,34.5,33.7,33.7,2.7,4.4,2.79,-0.6223134724009167,-0.030650552372907886,0.7145275190803612,-0.07873979866144813,-0.46809,-21.463375
11.185,2.0,1.0,1.0,34.5,33.7,33.7,2.7,4.4,2.7925,-0.6365672811534715,-0.02970748682903387,0.6999569663559096,-0.08153586491777041,-0.481005,-21.231686
11.185,2.0,1.0,1.0,34.5,33.7,33.7,2.7,4.4,2.795,-0.6506252756568517,-0.02866221739125471,0.6848823029387969,-0.08442648213516625,-0.494516,-20.996682
11.185,2.0,1.0,1.0,34.5,33.7,33.7,2.7,4.4,2.7975,-0.6644684160301653,-0.02750672195102027,0.6692949639270566,-0.08741516015833628,-0.508667,-20.758226
11.185,2.0,1.0,1.0,34.5,33.7,33.7,2.7,4.4,2.8,-0.6780765511265193,-0.026232250459719053,0.6531863926172029,-0.09050554406659439,-0.523505,-20.516171
11.185,2.0,1.0,1.0,34.5,33.7,33.7,2.7,4.4,2.8025,-0.6914283300189717,-0.02482924257663044,0.6365480525727111,-0.0937014129947834,-0.539082,-20.270364
11.185,2.0,1.0,1.0,34.5,33.7,33.7,2.7,4.4,2.805,-0.7045011023363495,-0.023287234189206276,0.6193714422244876,-0.09700667641343011,-0.555456,-20.020639
11.185,2.0,1.0,1.0,34.5,33.7,33.7,2.7,4.4,2.8075,-0.7172708057046152,-0.021594751112484406,0.601648112770499,-0.10042536704671466,-0.57269,-19.766822
11.185,2.0,1.0,1.0,34.5,33.7,33.7,2.7,4.4,2.81,-0.7297118382583963,-0.019739187996573194,0.5833696903665623,-0.10396162937773538,-0.590855,-19.508729
11.185,2.0,1.0,1.0,34.5,33.7,33.7,2.7,4.4,2.8125,-0.741796913847134,-0.0177066701463311,0.564527903889004,-0.107619702397987,-0.61003,-19.246163
11.185,2.0,1.0,1.0,34.5,33.7,33.7,2.7,4.4,2.815,-0.7534968971631377,-0.015481895578179321,0.5451146199206125,-0.11140389488373749,-0.630303,-18.978917
11.185,2.0,1.0,1.0,34.5,33.7,33.7,2.7,4.4,2.8175,-0.7647806155561137,-0.013047954197326884,0.5251218870882248,-0.1153185510024059,-0.651773,-18.70677
11.185,2.0,1.0,1.0,34.5,33.7,33.7,2.7,4.4,2.82,-0.7756146437614306,-0.010386120465938373,0.5045419924944596,-0.11936800343628777,-0.674549,-18.429486
11.185,2.0,1.0,1.0,34.5,33.7,33.7,2.7,4.4,2.8225,-0.7859630571481987,-0.007475615340330292,0.48336753377826086,-0.12355651041877486,-0.698755,-18.146818
11.185,2.0,1.0,1.0,34.5,33.7,33.7,2.7,4.4,2.825,-0.7957871483797779,-0.004293332575361215,0.4615915113625005,-0.12788817205685338,-0.724531,-17.858501
11.185,2.0,1.0,1.0,34.5,33.7,33.7,2.7,4.4,2.8275,-0.805045101567303,-0.0008135237213036888,0.43920744677174955,-0.13236681999407618,-0.752036,-17.564253
