1,w,sub_t,h,l1,l2,l3,g1,g2,Freq,S11_re,S21_re,S11_img,S21_img,S11_dB,S21_dB
11.185,2.0,1.0,1.0,33.5,34.2,34.2,2.5,2.0,2.5,0.845959295416493,-0.0119534450686075,0.519171216819355,0.0113926624973498,-0.064818,-35.643505
11.185,2.0,1.0,1.0,33.5,34.2,34.2,2.5,2.0,2.5025,0.842322743119144,-0.012221989008599232,0.5248938798938259,0.011473150134133017,-0.065544,-35.512779
11.185,2.0,1.0,1.0,33.5,34.2,34.2,2.5,2.0,2.505,0.838629243047905,-0.012496396139593052,0.5306166820351578,0.011553257095905467,-0.066286,-35.38145
11.185,2.0,1.0,1.0,33.5,34.2,34.2,2.5,2.0,2.5075,0.8348781434988259,-0.012776821514402428,0.53633936232938,0.0116329391424699,-0.067043,-35.249503
11.185,2.0,1.0,1.0,33.5,34.2,34.2,2.5,2.0,2.51,0.831068779807435,-0.013063425426986288,0.5420616509698185,0.011712149657353494,-0.067816,-35.116925
11.185,2.0,1.0,1.0,33.5,34.2,34.2,2.5,2.0,2.5125,0.8272004740109329,-0.013356373629913905,0.5477832689182319,0.011790839515906957,-0.068605,-34.983703
11.185,2.0,1.0,1.0,33.5,34.2,34.2,2.5,2.0,2.515,0.8232725344981722,-0.013655837562562846,0.5535039275513326,0.011868956945280253,-0.069412,-34.849823
11.185,2.0,1.0,1.0,33.5,34.2,34.2,2.5,2.0,2.5175,0.819284255646824,-0.013961994590663152,0.5592233282919096,0.011946447375710325,-0.070237,-34.715269
11.185,2.0,1.0,1.0,33.5,34.2,34.2,2.5,2.0,2.52,0.8152349174470715,-0.014275028257844437,0.5649411622237399,0.01202325328251578,-0.07108,-34.580028
11.185,2.0,1.0,1.0,33.5,34.2,34.2,2.5,2.0,2.5225,0.8111237851111633,-0.01459512854988255,0.5706571096893817,0.012099314018142786,-0.071941,-34.444084
11.185,2.0,1.0,1.0,33.5,34.2,34.2,2.5,2.0,2.525,0.8069501086680734,-0.014922492172390542,0.5763708398699287,0.012174565633557571,-0.072822,-34.307422
11.185,2.0,1.0,1.0,33.5,34.2,34.2,2.5,2.0,2.5275,0.8027131225425039,-0.01525732284274793,0.5820820103457112,0.012248940688222307,-0.073723,-34.170026
11.185,2.0,1.0,1.0,33.5,34.2,34.2,2.5,2.0,2.53,0.7984120451173947,-0.015599831597114408,0.5877902666368605,0.012322368047831255,-0.074645,-34.03188
11.185,2.0,1.0,1.0,33.5,34.2,34.2,2.5,2.0,2.5325,0.7940460782790587,-0.015950237113432058,0.5934952417225899,0.0123947726689169,-0.075588,-33.892968
11.185,2.0,1.0,1.0,33.5,34.2,34.2,2.5,2.0,2.535,0.789614406943992,-0.016308766051382245,0.5991965555379615,0.012466075369362874,-0.076553,-33.753272
11.185,2.0,1.0,1.0,33.5,34.2,34.2,2.5,2.0,2.5375,0.7851161985663629,-0.016675653410327687,0.604893814446801,0.012536192583780685,-0.077541,-33.612776
11.185,2.0,1.0,1.0,33.5,34.2,34.2,2.5,2.0,2.54,0.7805506026250955,-0.01705114290634293,0.6105866106893533,0.012605036102621814,-0.078552,-33.471463
11.185,2.0,1.0,1.0,33.5,34.2,34.2,2.5,2.0,2.5425,0.7759167500894,-0.017435487369512292,0.6162745218031461,0.012672512793799554,-0.079588,-33.329313
11.185,2.0,1.0,1.0,33.5,34.2,34.2,2.5,2.0,2.545,0.7712137528615218,-0.017828949162757627,0.6219571100154268,0.012738524305494776,-0.080649,-33.186308
11.185,2.0,1.0,1.0,33.5,34.2,34.2,2.5,2.0,2.5475,0.7664407031954014,-0.01823180062354469,0.6276339216053932,0.012802966748701164,-0.081736,-33.04243
11.185,2.0,1.0,1.0,33.5,34.2,34.2,2.5,2.0,2.55,0.7615966730898188,-0.018644324529917215,0.6333044862343394,0.012865730357947611,-0.082849,-32.897659
11.185,2.0,1.0,1.0,33.5,34.2,34.2,2.5,2.0,2.5525,0.7566807136545447,-0.01906681459240543,0.6389683162416434,0.01292669912849266,-0.083991,-32.751976
11.185,2.0,1.0,1.0,33.5,34.2,34.2,2.5,2.0,2.555,0.7516918544478531,-0.019499575973472905,0.6446249059043992,0.012985750428141192,-0.085161,-32.605359
11.185,2.0,1.0,1.0,33.5,34.2,34.2,2.5,2.0,2.5575,0.7466291027836832,-0.019942925836281974,0.6502737306583048,0.013042754581666592,-0.086361,-32.457788
11.185,2.0,1.0,1.0,33.5,34.2,34.2,2.5,2.0,2.56,0.7414914430065852,-0.02039719392468936,0.655914246277211,0.013097574425641826,-0.087593,-32.309241
11.185,2.0,1.0,1.0,33.5,34.2,34.2,2.5,2.0,2.5625,0.7362778357324585,-0.02086272317652484,0.6615458880085461,0.013150064831285313,-0.088856,-32.159697
11.185,2.0,1.0,1.0,33.5,34.2,34.2,2.5,2.0,2.565,0.7309872170529323,-0.021339870372357052,0.6671680696615858,0.013200072192707234,-0.090153,-32.009132
11.185,2.0,1.0,1.0,33.5,34.2,34.2,2.5,2.0,2.5675,0.7256184977010997,-0.02182900682211327,0.6727801826452724,0.013247433877701685,-0.091484,-31.857524
11.185,2.0,1.0,1.0,33.5,34.2,34.2,2.5,2.0,2.57,0.7201705621761151,-0.022330519092101063,0.6783815949520238,0.013291977637965257,-0.092851,-31.704848
11.185,2.0,1.0,1.0,33.5,34.2,34.2,2.5,2.0,2.5725,0.7146422678240016,-0.022844809775168576,0.6839716500836613,0.013333520975328177,-0.094255,-31.551079
11.185,2.0,1.0,1.0,33.5,34.2,34.2,2.5,2.0,2.575,0.7090324438717935,-0.023372298306950607,0.6895496659152208,0.013371870460260263,-0.095698,-31.396193
11.185,2.0,1.0,1.0,33.5,34.2,34.2,2.5,2.0,2.5775,0.7033398904119311,-0.023913421831371975,0.695114933492064,0.013406820998556564,-0.097181,-31.240164
11.185,2.0,1.0,1.0,33.5,34.2,34.2,2.5,2.0,2.58,0.6975633773335803,-0.02446863611882421,0.7006667157552704,0.013438155041709029,-0.098706,-31.082963
11.185,2.0,1.0,1.0,33.5,34.2,34.2,2.5,2.0,2.5825,0.6917016431972829,-0.025038416540697547,0.7062042461898436,0.013465641736031897,-0.100274,-30.924565
11.185,2.0,1.0,1.0,33.5,34.2,34.2,2.5,2.0,2.585,0.6857533940490753,-0.025623259104235074,0.7117267273897464,0.01348903600512075,-0.101887,-30.764941
11.185,2.0,1.0,1.0,33.5,34.2,34.2,2.5,2.0,2.5875,0.6797173021698908,-0.02622368155198935,0.71723332953323,0.013508077559682244,-0.103548,-30.604061
11.185,2.0,1.0,1.0,33.5,34.2,34.2,2.5,2.0,2.59,0.6735920047557451,-0.02684022453049857,0.7227231887612714,0.01352248982816979,-0.105257,-30.441894
11.185,2.0,1.0,1.0,33.5,34.2,34.2,2.5,2.0,2.5925,0.6673761025238206,-0.027473452833165934,0.7281954054512728,0.013531978800990881,-0.107018,-30.278411
11.185,2.0,1.0,1.0,33.5,34.2,34.2,2.5,2.0,2.595,0.6610681582392042,-0.028123956722723067,0.7336490423773745,0.013536231780303425,-0.108831,-30.113579
11.185,2.0,1.0,1.0,33.5,34.2,34.2,2.5,2.0,2.5975,0.6546666951565643,-0.02879235333909156,0.7390831227478877,0.0135349160265864,-0.110701,-29.947364
11.185,2.0,1.0,1.0,33.5,34.2,34.2,2.5,2.0,2.6,0.648170195370625,-0.02947928819892348,0.744496628109411,0.013527677292239674,-0.112628,-29.779733
11.185,2.0,1.0,1.0,33.5,34.2,34.2,2.5,2.0,2.6025,0.6415770980687794,-0.030185436793610333,0.7498884961060721,0.01351413823142826,-0.114616,-29.61065
11.185,2.0,1.0,1.0,33.5,34.2,34.2,2.5,2.0,2.605,0.6348857976786171,-0.030911506293103224,0.7552576180812162,0.013493896674221953,-0.116667,-29.440079
11.185,2.0,1.0,1.0,33.5,34.2,34.2,2.5,2.0,2.6075,0.628094641902577,-0.031658237363484776,0.7606028365074626,0.013466523751778165,-0.118784,-29.267983
11.185,2.0,1.0,1.0,33.5,34.2,34.2,2.5,2.0,2.61,0.621201929631268,-0.03242640610688241,0.7659229422295801,0.013431561857850079,-0.120971,-29.094321
11.185,2.0,1.0,1.0,33.5,34.2,34.2,2.5,2.0,2.6125,0.6142059087262979,-0.033216826133018774,0.7712166715029616,0.013388522430261937,-0.12323,-28.919054
11.185,2.0,1.0,1.0,33.5,34.2,34.2,2.5,2.0,2.615,0.6071047736626936,-0.0340303507724593,0.7764827028085611,0.013336883534140826,-0.125565,-28.742139
11.185,2.0,1.0,1.0,33.5,34.2,34.2,2.5,2.0,2.6175,0.5998966630201735,-0.03486787544244134,0.7817196534230607,0.013276087226614119,-0.127979,-28.563535
11.185,2.0,1.0,1.0,33.5,34.2,34.2,2.5,2.0,2.62,0.5925796568116191,-0.035730340177068026,0.7869260757206228,0.01320553668033141,-0.130477,-28.383196
11.185,2.0,1.0,1.0,33.5,34.2,34.2,2.5,2.0,2.6225,0.5851517736361301,-0.03661873233461869,0.7921004531798992,0.013124593040518173,-0.133063,-28.201075
11.185,2.0,1.0,1.0,33.5,34.2,34.2,2.5,2.0,2.625,0.577610967643016,-0.0375340894957692,0.7972411960669,0.013032571987269,-0.135741,-28.017125
11.185,2.0,1.0,1.0,33.5,34.2,34.2,2.5,2.0,2.6275,0.5699551252918919,-0.03847750256764969,0.8023466367608968,0.012928739971389113,-0.138515,-27.831296
11.185,2.0,1.0,1.0,33.5,34.2,34.2,2.5,2.0,2.63,0.5621820618928829,-0.03945011910987433,0.8074150246866079,0.012812310088242993,-0.141391,-27.643536
11.185,2.0,1.0,1.0,33.5,34.2,34.2,2.5,2.0,2.6325,0.5542895179095851,-0.0404531468999846,0.812444520811471,0.012682437549690055,-0.144375,-27.453791
11.185,2.0,1.0,1.0,33.5,34.2,34.2,2.5,2.0,2.635,0.5462751550060364,-0.04148785775713815,0.8174331916617958,0.012538214709211168,-0.147471,-27.262006
11.185,2.0,1.0,1.0,33.5,34.2,34.2,2.5,2.0,2.6375,0.5381365518174545,-0.04255559164436316,0.82237900280578,0.01237866558965879,-0.150687,-27.068121
11.185,2.0,1.0,1.0,33.5,34.2,34.2,2.5,2.0,2.64,0.5298711994228595,-0.04365776107127808,0.8272798117449254,0.012202739856592515,-0.154028,-26.872078
11.185,2.0,1.0,1.0,33.5,34.2,34.2,2.5,2.0,2.6425,0.5214764964960622,-0.0447958558208363,0.8321333601477757,0.012009306172766878,-0.157502,-26.673814
11.185,2.0,1.0,1.0,33.5,34.2,34.2,2.5,2.0,2.645,0.5129497441096551,-0.045971448025406696,0.8369372653514754,0.011797144860874726,-0.161116,-26.473262
11.185,2.0,1.0,1.0,33.5,34.2,34.2,2.5,2.0,2.6475,0.5042881401648414,-0.04718619761930919,0.8416890110467289,0.011564939791943065,-0.164879,-26.270355
11.185,2.0,1.0,1.0,33.5,34.2,34.2,2.5,2.0,2.65,0.49548877341796954,-0.04844185819678934,0.8463859370505501,0.011311269405632497,-0.168799,-26.065023
11.185,2.0,1.0,1.0,33.5,34.2,34.2,2.5,2.0,2.6525,0.4865486170727681,-0.04974028330628771,0.8510252280581966,0.01103459675586856,-0.172886,-25.857191
11.185,2.0,1.0,1.0,33.5,34.2,34.2,2.5,2.0,2.655,0.47746452190526717,-0.05108343321372819,0.855603901250797,0.010733258460453437,-0.17715,-25.646781
11.185,2.0,1.0,1.0,33.5,34.2,34.2,2.5,2.0,2.6575,0.4682332088865899,-0.05247338216931858,0.8601187926179265,0.010405452416247183,-0.181603,-25.433715
11.185,2.0,1.0,1.0,33.5,34.2,34.2,2.5,2.0,2.66,0.4588512612670305,-0.05391232621399019,0.8645665418344978,0.010049224121772992,-0.186255,-25.217906
11.185,2.0,1.0,1.0,33.5,34.2,34.2,2.5,2.0,2.6625,0.4493151160833715,-0.05540259156296081,0.868943575508267,0.009662451426238191,-0.191121,-24.999269
11.185,2.0,1.0,1.0,33.5,34.2,34.2,2.5,2.0,2.665,0.43962105505026383,-0.056946643604882,0.873246088587467,0.009242827497422343,-0.196214,-24.77771
11.185,2.0,1.0,1.0,33.5,34.2,34.2,2.5,2.0,2.6675,0.42976519479597225,-0.05854709655540357,0.877470023686972,0.00878784177001701,-0.20155,-24.553134
11.185,2.0,1.0,1.0,33.5,34.2,34.2,2.5,2.0,2.67,0.41974347640300985,-0.06020672380354957,0.8816110480551252,0.008294758600034154,-0.207145,-24.32544
11.185,2.0,1.0,1.0,33.5,34.2,34.2,2.5,2.0,2.6725,0.4095516542155807,-0.06192846898769347,0.8856645278610279,0.007760593308917273,-0.213018,-24.094522
11.185,2.0,1.0,1.0,33.5,34.2,34.2,2.5,2.0,2.675,0.39918528387866936,-0.0637154578347326,0.8896254994325905,0.007182085251871735,-0.219189,-23.86027
11.185,2.0,1.0,1.0,33.5,34.2,34.2,2.5,2.0,2.6775,0.38863970957863836,-0.0655710107907379,0.8934886370175869,0.0065556674873802016,-0.225678,-23.622567
11.185,2.0,1.0,1.0,33.5,34.2,34.2,2.5,2.0,2.68,0.3779100504630236,-0.0674986564631338,0.8972482165719017,0.005877432557280276,-0.232511,-23.381293
11.185,2.0,1.0,1.0,33.5,34.2,34.2,2.5,2.0,2.6825,0.36699118622891674,-0.06950214588240075,0.9008980749989162,0.005143093807271997,-0.239712,-23.136319
11.185,2.0,1.0,1.0,33.5,34.2,34.2,2.5,2.0,2.685,0.35587774188596727,-0.07158546757410314,0.9044315641695855,0.004347941583993081,-0.247312,-22.887511
11.185,2.0,1.0,1.0,33.5,34.2,34.2,2.5,2.0,2.6875,0.34456407172350645,-0.07375286340805498,0.9078414989411109,0.0034867935341076567,-0.255341,-22.634726
11.185,2.0,1.0,1.0,33.5,34.2,34.2,2.5,2.0,2.69,0.33304424254359577,-0.07600884515846046,0.911120098260102,0.002553938099878537,-0.263835,-22.377817
11.185,2.0,1.0,1.0,33.5,34.2,34.2,2.5,2.0,2.6925,0.32131201626589284,-0.07835821166401687,0.9142589182795792,0.0015430701504369046,-0.272832,-22.116626
11.185,2.0,1.0,1.0,33.5,34.2,34.2,2.5,2.0,2.695,0.3093608320699297,-0.08080606641641772,0.9172487762332672,0.0004472175036113426,-0.282375,-21.850988
11.185,2.0,1.0,1.0,33.5,34.2,34.2,2.5,2.0,2.6975,0.2971837883205763,-0.0833578353244642,0.9200796635895062,-0.0007413431260978529,-0.292512,-21.580728
11.185,2.0,1.0,1.0,33.5,34.2,34.2,2.5,2.0,2.7,0.28477362462997263,-0.08601928429239707,0.9227406467436272,-0.0020311824789954903,-0.303296,-21.305663
11.185,2.0,1.0,1.0,33.5,34.2,34.2,2.5,2.0,2.7025,0.27212270455255116,-0.08879653610634929,0.9252197531933376,-0.003431829438267277,-0.314786,-21.025597
11.185,2.0,1.0,1.0,33.5,34.2,34.2,2.5,2.0,2.705,0.259222999600879,-0.09169608593027594,0.9275038407662369,-0.004953898463806505,-0.327048,-20.740327
11.185,2.0,1.0,1.0,33.5,34.2,34.2,2.5,2.0,2.7075,0.246066075524244,-0.09472481445684434,0.9295784470197805,-0.006609236625529476,-0.340158,-20.449633
11.185,2.0,1.0,1.0,33.5,34.2,34.2,2.5,2.0,2.71,0.23264308213005627,-0.09788999741878635,0.9314276153972739,-0.008411093621460239,-0.354197,-20.153288
11.185,2.0,1.0,1.0,33.5,34.2,34.2,2.5,2.0,2.7125,0.2189447483779255,-0.10119930971443979,0.9330336940814938,-0.01037431880134189,-0.369262,-19.851047
11.185,2.0,1.0,1.0,33.5,34.2,34.2,2.5,2.0,2.715,0.2049613850749376,-0.10466082180040685,0.9343771027202713,-0.012515589975733028,-0.385458,-19.542653
11.185,2.0,1.0,1.0,33.5,34.2,34.2,2.5,2.0,2.7175,0.19068289829838198,-0.10828298520445202,0.9354360612825035,-0.014853679696159566,-0.402907,-19.227834
11.185,2.0,1.0,1.0,33.5,34.2,34.2,2.5,2.0,2.72,0.17609881773634,-0.1120746029455257,0.9361862742130276,-0.017409765769232408,-0.421746,-18.906302
11.185,2.0,1.0,1.0,33.5,34.2,34.2,2.5,2.0,2.7225,0.16119834555868115,-0.11604477922404709,0.9366005617622888,-0.020207794043870585,-0.442134,-18.57775
11.185,2.0,1.0,1.0,33.5,34.2,34.2,2.5,2.0,2.725,0.14597043333485213,-0.12020284084090326,0.9366484288440916,-0.023274903012923048,-0.464251,-18.241855
11.185,2.0,1.0,1.0,33.5,34.2,34.2,2.5,2.0,2.7275,0.1304038970682535,-0.12455822025065379,0.9362955599972087,-0.02664192152195473,-0.488303,-17.898275
11.185,2.0,1.0,1.0,33.5,34.2,34.2,2.5,2.0,2.73,0.11448758384890902,-0.12912028672556086,0.9355032269797154,-0.030343952891551246,-0.514532,-17.546649
11.185,2.0,1.0,1.0,33.5,34.2,34.2,2.5,2.0,2.7325,0.09821060824700815,-0.13389810749291098,0.934227593216076,-0.0344210610259956,-0.543214,-17.186595
11.185,2.0,1.0,1.0,33.5,34.2,34.2,2.5,2.0,2.735,0.08156268280350676,-0.1389001144876547,0.9324188967949009,-0.0389190765490233,-0.574674,-16.81771
11.185,2.0,1.0,1.0,33.5,34.2,34.2,2.5,2.0,2.7375,0.06453457539511133,-0.14413364396401074,0.930020491104113,-0.04389054354938533,-0.609288,-16.439572
11.185,2.0,1.0,1.0,33.5,34.2,34.2,2.5,2.0,2.74,0.047118737639675994,-0.14960430485908957,0.9269677197443846,-0.04939582987657553,-0.647501,-16.051738
11.185,2.0,1.0,1.0,33.5,34.2,34.2,2.5,2.0,2.7425,0.029310163914403265,-0.15531511645636975,0.9231866005575438,-0.055504425619422204,-0.689835,-15.653748
11.185,2.0,1.0,1.0,33.5,34.2,34.2,2.5,2.0,2.745,0.011107561386829622,-0.16126533516628094,0.9185922932900557,-0.062296454575676216,-0.736909,-15.245125
11.185,2.0,1.0,1.0,33.5,34.2,34.2,2.5,2.0,2.7475,-0.007485060447606905,-0.1674488622980033,0.9130873280393592,-0.06986442071768661,-0.789462,-14.825381
11.185,2.0,1.0,1.0,33.5,34.2,34.2,2.5,2.0,2.75,-0.0264562344961496,-0.173852087197541,0.906559579653036,-0.0783152034226907,-0.848376,-14.394022
11.185,2.0,1.0,1.0,33.5,34.2,34.2,2.5,2.0,2.7525,-0.04578411854657084,-0.1804509701863624,0.8988799907236936,-0.08777229750993601,-0.914713,-13.950558
11.185,2.0,1.0,1.0,33.5,34.2,34.2,2.5,2.0,2.755,-0.06543255274589582,-0.1872071040468472,0.8899000793620606,-0.09837826030347314,-0.989759,-13.494518
11.185,2.0,1.0,1.0,33.5,34.2,34.2,2.5,2.0,2.7575,-0.0853457438379882,-0.19406240811258604,0.8794493281779586,-0.11029726740597369,-1.075075,-13.025465
11.185,2.0,1.0,1.0,33.5,34.2,34.2,2.5,2.0,2.76,-0.10544112104660357,-0.2009320033505009,0.8673326546959732,-0.12371757484876676,-1.172571,-12.54303
11.185,2.0,1.0,1.0,33.5,34.2,34.2,2.5,2.0,2.7625,-0.12559978208089703,-0.2076946921724783,0.853328336892193,-0.13885351179996064,-1.284594,-12.046944
11.185,2.0,1.0,1.0,33.5,34.2,34.2,2.5,2.0,2.765,-0.14565381316483797,-0.21418033467041342,0.8371870499831275,-0.15594634600665547,-1.414043,-11.537094
11.185,2.0,1.0,1.0,33.5,34.2,34.2,2.5,2.0,2.7675,-0.16536965603023882,-0.2201533055418996,0.8186331186432289,-0.1752629174873421,-1.564512,-11.013594
11.185,2.0,1.0,1.0,33.5,34.2,34.2,2.5,2.0,2.77,-0.184426679633915,-0.2252912055015712,0.7973697780272833,-0.19709024997171226,-1.740472,-10.476886
11.185,2.0,1.0,1.0,33.5,34.2,34.2,2.5,2.0,2.7725,-0.20239034186549124,-0.22915823424839124,0.7730912541159878,-0.22172333883188766,-1.947494,-9.927869
11.185,2.0,1.0,1.0,33.5,34.2,34.2,2.5,2.0,2.775,-0.21868007184423294,-0.23117338335035723,0.7455058840343868,-0.24944191590220924,-2.192508,-9.368078
11.185,2.0,1.0,1.0,33.5,34.2,34.2,2.5,2.0,2.7775,-0.23253373934793262,-0.23057534691430778,0.714376252884456,-0.28047025588067553,-2.484089,-8.799905
11.185,2.0,1.0,1.0,33.5,34.2,34.2,2.5,2.0,2.78,-0.24297402755167416,-0.22638949273673517,0.6795840621117868,-0.31491238233384583,-2.832699,-8.226886
11.185,2.0,1.0,1.0,33.5,34.2,34.2,2.5,2.0,2.7825,-0.24878808771597963,-0.21740827424009293,0.6412280999446816,-0.35265442028273647,-3.250755,-7.65403
11.185,2.0,1.0,1.0,33.5,34.2,34.2,2.5,2.0,2.785,-0.24854113702628247,-0.20220568199388766,0.5997609094155848,-0.39322866732195266,-3.75217,-7.088179
11.185,2.0,1.0,1.0,33.5,34.2,34.2,2.5,2.0,2.7875,-0.24065614255599993,-0.17921768854425468,0.5561594262460476,-0.43564430669840176,-4.350634,-6.53833
11.185,2.0,1.0,1.0,33.5,34.2,34.2,2.5,2.0,2.79,-0.22360012294055734,-0.14692882900253354,0.5121017721627533,-0.47821271659966513,-5.055042,-6.015817
11.185,2.0,1.0,1.0,33.5,34.2,34.2,2.5,2.0,2.7925,-0.1962101357450075,-0.10419737124150841,0.47008434982952624,-0.5184331294332128,-5.858999,-5.534162
11.185,2.0,1.0,1.0,33.5,34.2,34.2,2.5,2.0,2.795,-0.1581491799595964,-0.05070861316519349,0.4333710792442606,-0.5530461943535728,-6.719842,-5.108413
11.185,2.0,1.0,1.0,33.5,34.2,34.2,2.5,2.0,2.7975,-0.1103917781676875,0.012544241927121337,0.40565536507932715,-0.5783735653797885,-7.526587,-4.753789
11.185,2.0,1.0,1.0,33.5,34.2,34.2,2.5,2.0,2.8,-0.0555283142779324,0.08296179546751173,0.3903893356186518,-0.5909872988254408,-8.083053,-4.483687
11.185,2.0,1.0,1.0,33.5,34.2,34.2,2.5,2.0,2.8025,0.0023622786747154643,0.15647094307339976,0.38991597996094535,-0.5885724171775434,-8.18042,-4.307424
11.185,2.0,1.0,1.0,33.5,34.2,34.2,2.5,2.0,2.805,0.05838431973383582,0.2281981066790572,0.4047404621175243,-0.5706473326930118,-7.767025,-4.228384
11.185,2.0,1.0,1.0,33.5,34.2,34.2,2.5,2.0,2.8075,0.10785842047180978,0.293498404348274,0.43331094104155354,-0.5387749783787678,-7.002927,-4.243276
11.185,2.0,1.0,1.0,33.5,34.2,34.2,2.5,2.0,2.81,0.1472895717554776,0.3489158950478549,0.4724441408437938,-0.49613298786759746,-6.110153,-4.342817
11.185,2.0,1.0,1.0,33.5,34.2,34.2,2.5,2.0,2.8125,0.174878070620177,0.392686217505279,0.518179338404773,-0.446660738782834,-5.24195,-4.513548
11.185,2.0,1.0,1.0,33.5,34.2,34.2,2.5,2.0,2.815,0.1904656735298313,0.4246772484719776,0.5666596445172615,-0.3941829657848332,-4.468694,-4.740086
11.185,2.0,1.0,1.0,33.5,34.2,34.2,2.5,2.0,2.8175,0.1950954096559767,0.44594730741473,0.6147306152612932,-0.3418170768285848,-3.809527,-5.007145
11.185,2.0,1.0,1.0,33.5,34.2,34.2,2.5,2.0,2.82,0.19046046831182345,0.4581954024236759,0.6601721616675837,-0.29174595332889597,-3.259637,-5.300915
11.185,2.0,1.0,1.0,33.5,34.2,34.2,2.5,2.0,2.8225,0.17844232291506495,0.4633020407572358,0.7016518415849675,-0.24526731902238455,-2.805386,-5.609756
11.185,2.0,1.0,1.0,33.5,34.2,34.2,2.5,2.0,2.825,0.16081312446941043,0.46303433886092205,0.7385389330398143,-0.20298053459826831,-2.431353,-5.924359
11.185,2.0,1.0,1.0,33.5,34.2,34.2,2.5,2.0,2.8275,0.13908949612925886,0.45890192838853505,0.7706889679068343,-0.1650018018240103,-2.123218,-6.237579
11.185,2.0,1.0,1.0,33.5,34.2,34.2,2.5,2.0,2.83,0.11449088349105332,0.4521166862608811,0.7982573015980251,-0.1311498078990811,-1.86871,-6.544111
