1,w,sub_t,h,l1,l2,l3,g1,g2,Freq,S11_re,S21_re,S11_img,S21_img,S11_dB,S21_dB
11.185,2.0,1.0,1.0,33.7,34.8,34.8,1.6,3.8,2.5,0.81320196289326,-0.0133066662417446,0.567365920723814,0.0100855710352603,-0.073575,-35.547289
11.185,2.0,1.0,1.0,33.7,34.8,34.8,1.6,3.8,2.5025,0.8089506845721844,-0.013610448866577071,0.5732236166329504,0.010145202208711348,-0.074524,-35.403521
11.185,2.0,1.0,1.0,33.7,34.8,34.8,1.6,3.8,2.505,0.8046319477703707,-0.0139214740798596,0.5790802182488735,0.010203841392689305,-0.075497,-35.258919
11.185,2.0,1.0,1.0,33.7,34.8,34.8,1.6,3.8,2.5075,0.8002448374447508,-0.014239958821040892,0.5849353752678355,0.010261412828134161,-0.076492,-35.113463
11.185,2.0,1.0,1.0,33.7,34.8,34.8,1.6,3.8,2.51,0.795788416992334,-0.01456612836905814,0.5907887236398247,0.010317836399315428,-0.077512,-34.967135
11.185,2.0,1.0,1.0,33.7,34.8,34.8,1.6,3.8,2.5125,0.7912617275633415,-0.014900216734149065,0.5966398849573663,0.010373027363227524,-0.078557,-34.819915
11.185,2.0,1.0,1.0,33.7,34.8,34.8,1.6,3.8,2.515,0.7866637873446364,-0.015242467071427188,0.6024884658124231,0.01042689606012466,-0.079627,-34.671782
11.185,2.0,1.0,1.0,33.7,34.8,34.8,1.6,3.8,2.5175,0.7819935908117971,-0.015593132117612282,0.6083340571193341,0.0104793476037127,-0.080724,-34.522714
11.185,2.0,1.0,1.0,33.7,34.8,34.8,1.6,3.8,2.52,0.7772501079480459,-0.015952474652409634,0.614176233401594,0.0105302815493855,-0.081848,-34.372692
11.185,2.0,1.0,1.0,33.7,34.8,34.8,1.6,3.8,2.5225,0.7724322834281675,-0.0163207679861391,0.6200145520400752,0.010579591538749183,-0.083001,-34.221691
11.185,2.0,1.0,1.0,33.7,34.8,34.8,1.6,3.8,2.525,0.7675390357653741,-0.01669829647533261,0.6258485524801528,0.01062716491852105,-0.084184,-34.069691
11.185,2.0,1.0,1.0,33.7,34.8,34.8,1.6,3.8,2.5275,0.7625692564189634,-0.01708535606814563,0.6316777553949244,0.010672882331715653,-0.085397,-33.916668
11.185,2.0,1.0,1.0,33.7,34.8,34.8,1.6,3.8,2.53,0.7575218088604662,-0.017482254881563297,0.6375016618015503,0.010716617278840712,-0.086642,-33.762597
11.185,2.0,1.0,1.0,33.7,34.8,34.8,1.6,3.8,2.5325,0.7523955275957969,-0.01788931381253152,0.6433197521274369,0.010758235646614744,-0.087919,-33.607455
11.185,2.0,1.0,1.0,33.7,34.8,34.8,1.6,3.8,2.535,0.7471892171407651,-0.018306867185302694,0.649131485222771,0.010797595201486973,-0.089231,-33.451216
11.185,2.0,1.0,1.0,33.7,34.8,34.8,1.6,3.8,2.5375,0.7419016509471108,-0.018735263437457853,0.6549362973155574,0.010834545044984377,-0.090578,-33.293855
11.185,2.0,1.0,1.0,33.7,34.8,34.8,1.6,3.8,2.54,0.7365315702760131,-0.01917486584725653,0.6607336009050327,0.010868925027628047,-0.091962,-33.135344
11.185,2.0,1.0,1.0,33.7,34.8,34.8,1.6,3.8,2.5425,0.7310776830158101,-0.019626053305167108,0.6665227835889406,0.010900565117849138,-0.093383,-32.975658
11.185,2.0,1.0,1.0,33.7,34.8,34.8,1.6,3.8,2.545,0.7255386624404226,-0.02008922113265107,0.672303206819766,0.010929284721988678,-0.094845,-32.814767
11.185,2.0,1.0,1.0,33.7,34.8,34.8,1.6,3.8,2.5475,0.7199131459047279,-0.02056478195151296,0.6780742045845877,0.010954891951083017,-0.096347,-32.652642
11.185,2.0,1.0,1.0,33.7,34.8,34.8,1.6,3.8,2.55,0.7141997334728152,-0.021053166607387923,0.6838350820027386,0.01097718282971187,-0.097892,-32.489255
11.185,2.0,1.0,1.0,33.7,34.8,34.8,1.6,3.8,2.5525,0.7083969864748058,-0.021554825151216084,0.6895851138348955,0.010995940441714886,-0.099481,-32.324574
11.185,2.0,1.0,1.0,33.7,34.8,34.8,1.6,3.8,2.555,0.7025034259875339,-0.02207022788286166,0.695323542896688,0.011010934007059204,-0.101117,-32.158567
11.185,2.0,1.0,1.0,33.7,34.8,34.8,1.6,3.8,2.5575,0.6965175312340612,-0.022599866461362642,0.7010495783692118,0.01102191788355773,-0.102801,-31.991203
11.185,2.0,1.0,1.0,33.7,34.8,34.8,1.6,3.8,2.56,0.690437737896613,-0.023144255086655557,0.7067623939981387,0.011028630486489928,-0.104535,-31.822448
11.185,2.0,1.0,1.0,33.7,34.8,34.8,1.6,3.8,2.5625,0.684262436337086,-0.023703931758011,0.712461126172311,0.0110307931184539,-0.106321,-31.652267
11.185,2.0,1.0,1.0,33.7,34.8,34.8,1.6,3.8,2.565,0.6779899697188312,-0.024279459614837698,0.7181448718718081,0.011028108700972258,-0.108162,-31.480624
11.185,2.0,1.0,1.0,33.7,34.8,34.8,1.6,3.8,2.5675,0.6716186320229388,-0.02487142836597203,0.7238126864744938,0.011020260398473128,-0.110059,-31.307483
11.185,2.0,1.0,1.0,33.7,34.8,34.8,1.6,3.8,2.57,0.6651466659516871,-0.025480455814069856,0.7294635814089456,0.011006910124260355,-0.112016,-31.132805
11.185,2.0,1.0,1.0,33.7,34.8,34.8,1.6,3.8,2.5725,0.6585722607112611,-0.026107189482259357,0.7350965216404356,0.010987696916958533,-0.114034,-30.956552
11.185,2.0,1.0,1.0,33.7,34.8,34.8,1.6,3.8,2.575,0.6518935496652065,-0.02675230835080137,0.740710422975269,0.010962235174653723,-0.116118,-30.778682
11.185,2.0,1.0,1.0,33.7,34.8,34.8,1.6,3.8,2.5775,0.6451086078494106,-0.02741652471214381,0.7463041491672298,0.010930112732531576,-0.118269,-30.599154
11.185,2.0,1.0,1.0,33.7,34.8,34.8,1.6,3.8,2.58,0.6382154493386543,-0.028100586153449087,0.7518765088081873,0.010890888768218544,-0.120491,-30.417925
11.185,2.0,1.0,1.0,33.7,34.8,34.8,1.6,3.8,2.5825,0.6312120244539737,-0.028805277676427897,0.757426251982974,0.010844091517237604,-0.122787,-30.234949
11.185,2.0,1.0,1.0,33.7,34.8,34.8,1.6,3.8,2.585,0.62409621679922,-0.02953142396512594,0.7629520666664849,0.010789215778967083,-0.125161,-30.05018
11.185,2.0,1.0,1.0,33.7,34.8,34.8,1.6,3.8,2.5875,0.6168658401142378,-0.030279891813197166,0.7684525748385168,0.010725720191209619,-0.127616,-29.863569
11.185,2.0,1.0,1.0,33.7,34.8,34.8,1.6,3.8,2.59,0.6095186349310928,-0.031051592723151084,0.773926328289112,0.010653024248901254,-0.130157,-29.675068
11.185,2.0,1.0,1.0,33.7,34.8,34.8,1.6,3.8,2.5925,0.6020522650186523,-0.03184748569109895,0.7793718040841024,0.01057050503957471,-0.132787,-29.484624
11.185,2.0,1.0,1.0,33.7,34.8,34.8,1.6,3.8,2.595,0.594464313599665,-0.032668580191637424,0.7847873996570256,0.010477493664888633,-0.135512,-29.292184
11.185,2.0,1.0,1.0,33.7,34.8,34.8,1.6,3.8,2.5975,0.5867522793231692,-0.03351593937871576,0.790171427489675,0.010373271313787983,-0.138335,-29.097691
11.185,2.0,1.0,1.0,33.7,34.8,34.8,1.6,3.8,2.6,0.5789135719737185,-0.034390683519623905,0.795522109339033,0.010257064948603963,-0.141263,-28.901089
11.185,2.0,1.0,1.0,33.7,34.8,34.8,1.6,3.8,2.6025,0.5709455078974192,-0.03529399368062592,0.8008375699632804,0.010128042560560914,-0.1443,-28.702317
11.185,2.0,1.0,1.0,33.7,34.8,34.8,1.6,3.8,2.605,0.562845305123189,-0.03622711568425081,0.8061158302938001,0.009985307945637937,-0.147453,-28.501314
11.185,2.0,1.0,1.0,33.7,34.8,34.8,1.6,3.8,2.6075,0.5546100781559844,-0.037191364359826035,0.8113547999935254,0.009827894945437985,-0.150728,-28.298013
11.185,2.0,1.0,1.0,33.7,34.8,34.8,1.6,3.8,2.61,0.546236832416942,-0.03818812811051329,0.8165522693344794,0.009654761090518835,-0.154132,-28.092349
11.185,2.0,1.0,1.0,33.7,34.8,34.8,1.6,3.8,2.6125,0.5377224583035023,-0.03921887382186484,0.8217059003188131,0.009464780575400887,-0.157671,-27.884251
11.185,2.0,1.0,1.0,33.7,34.8,34.8,1.6,3.8,2.615,0.5290637248406166,-0.040285152138753,0.8268132169578509,0.009256736485017937,-0.161354,-27.673645
11.185,2.0,1.0,1.0,33.7,34.8,34.8,1.6,3.8,2.6175,0.5202572728921024,-0.04138860313941797,0.8318715946124196,0.009029312181525468,-0.16519,-27.460457
11.185,2.0,1.0,1.0,33.7,34.8,34.8,1.6,3.8,2.62,0.5112996078991141,-0.04253096243731175,0.8368782482848712,0.008781081747891842,-0.169186,-27.244606
11.185,2.0,1.0,1.0,33.7,34.8,34.8,1.6,3.8,2.6225,0.5021870921105895,-0.043714067743340496,0.8418302197383644,0.008510499370308523,-0.173354,-27.02601
11.185,2.0,1.0,1.0,33.7,34.8,34.8,1.6,3.8,2.625,0.49291593626849,-0.0449398659229811,0.846724363301898,0.0082158875248377,-0.177703,-26.804583
11.185,2.0,1.0,1.0,33.7,34.8,34.8,1.6,3.8,2.6275,0.48348219070864223,-0.04621042058450499,0.8515573301998602,0.007895423814495827,-0.182245,-26.580236
11.185,2.0,1.0,1.0,33.7,34.8,34.8,1.6,3.8,2.63,0.47388173583625687,-0.0475279202360712,0.8563255512220349,0.007547126280702917,-0.186992,-26.352873
11.185,2.0,1.0,1.0,33.7,34.8,34.8,1.6,3.8,2.6325,0.46411027193371895,-0.04889468705064586,0.8610252175235588,0.0071688369871721995,-0.191957,-26.122396
11.185,2.0,1.0,1.0,33.7,34.8,34.8,1.6,3.8,2.635,0.4541633082572906,-0.05031318627837619,0.8656522593135955,0.0067582036442474895,-0.197156,-25.888704
11.185,2.0,1.0,1.0,33.7,34.8,34.8,1.6,3.8,2.6375,0.4440361513791033,-0.0517860363459798,0.8702023221557724,0.006312659006657106,-0.202604,-25.651688
11.185,2.0,1.0,1.0,33.7,34.8,34.8,1.6,3.8,2.64,0.4337238927315298,-0.053316019681602496,0.8746707405617242,0.005829397736745209,-0.208318,-25.411236
11.185,2.0,1.0,1.0,33.7,34.8,34.8,1.6,3.8,2.6425,0.4232213953132025,-0.05490609430104301,0.8790525085104204,0.005305350377392708,-0.214316,-25.167229
11.185,2.0,1.0,1.0,33.7,34.8,34.8,1.6,3.8,2.645,0.41252327951993206,-0.05655940618673709,0.8833422464689454,0.0047371540227552555,-0.220621,-24.919544
11.185,2.0,1.0,1.0,33.7,34.8,34.8,1.6,3.8,2.6475,0.4016239080704268,-0.05827930248373607,0.8875341644235493,0.004121119209087105,-0.227252,-24.668051
11.185,2.0,1.0,1.0,33.7,34.8,34.8,1.6,3.8,2.65,0.39051737000675346,-0.06006934552621495,0.8916220203511998,0.003453192470424062,-0.234237,-24.412613
11.185,2.0,1.0,1.0,33.7,34.8,34.8,1.6,3.8,2.6525,0.37919746376426533,-0.061933327692600786,0.8955990734692975,0.002728913912544036,-0.241601,-24.153088
11.185,2.0,1.0,1.0,33.7,34.8,34.8,1.6,3.8,2.655,0.3676576793265285,-0.06387528706570329,0.899458031491999,0.0019433690507003358,-0.249374,-23.889325
11.185,2.0,1.0,1.0,33.7,34.8,34.8,1.6,3.8,2.6575,0.35589117950994736,-0.06589952384415769,0.9031909909924082,0.0010911340289104766,-0.25759,-23.621164
11.185,2.0,1.0,1.0,33.7,34.8,34.8,1.6,3.8,2.66,0.3438907804627011,-0.06801061741041278,0.9067893698168468,0.0001662131871421486,-0.266283,-23.34844
11.185,2.0,1.0,1.0,33.7,34.8,34.8,1.6,3.8,2.6625,0.3316489315169743,-0.07021344390482005,0.9102438303157557,-0.00083803223714369,-0.275496,-23.070976
11.185,2.0,1.0,1.0,33.7,34.8,34.8,1.6,3.8,2.665,0.31915769460679677,-0.0725131940804514,0.9135441919397304,-0.0019289657006871567,-0.285272,-22.788587
11.185,2.0,1.0,1.0,33.7,34.8,34.8,1.6,3.8,2.6675,0.3064087235624066,-0.0749153911128504,0.9166793314918407,-0.0031147689220610694,-0.29566,-22.501078
11.185,2.0,1.0,1.0,33.7,34.8,34.8,1.6,3.8,2.67,0.29339324372387227,-0.07742590790483105,0.9196370690203868,-0.004404549412446691,-0.306717,-22.208242
11.185,2.0,1.0,1.0,33.7,34.8,34.8,1.6,3.8,2.6725,0.28010203249277243,-0.08005098324772406,0.9224040369694373,-0.005808464320672623,-0.318504,-21.909861
11.185,2.0,1.0,1.0,33.7,34.8,34.8,1.6,3.8,2.675,0.266525401675371,-0.08279723596261312,0.9249655297658724,-0.007337863379000147,-0.331091,-21.605706
11.185,2.0,1.0,1.0,33.7,34.8,34.8,1.6,3.8,2.6775,0.2526531827831786,-0.0856716758287141,0.9273053304966448,-0.009005454257350031,-0.344555,-21.295531
11.185,2.0,1.0,1.0,33.7,34.8,34.8,1.6,3.8,2.68,0.23847471687296898,-0.0886817096851412,0.9294055107013817,-0.010825494257806231,-0.358985,-20.97908
11.185,2.0,1.0,1.0,33.7,34.8,34.8,1.6,3.8,2.6825,0.22397885106272727,-0.09183514053205737,0.9312461985530408,-0.012814013028419044,-0.374479,-20.65608
11.185,2.0,1.0,1.0,33.7,34.8,34.8,1.6,3.8,2.685,0.2091539445993192,-0.09514015671075086,0.9328053097994261,-0.014989071868902453,-0.39115,-20.326242
11.185,2.0,1.0,1.0,33.7,34.8,34.8,1.6,3.8,2.6875,0.19398788834079,-0.0986053072462715,0.934058234764251,-0.0173710662673089,-0.409128,-19.98926
11.185,2.0,1.0,1.0,33.7,34.8,34.8,1.6,3.8,2.69,0.1784681428362231,-0.1022394581053794,0.9349774734283038,-0.019983079575403826,-0.428556,-19.64481
11.185,2.0,1.0,1.0,33.7,34.8,34.8,1.6,3.8,2.6925,0.16258180195442082,-0.10605172234074793,0.9355322090980279,-0.022851297231843527,-0.449604,-19.292549
11.185,2.0,1.0,1.0,33.7,34.8,34.8,1.6,3.8,2.695,0.14631569138644923,-0.11005135470197797,0.9356878093905402,-0.02600549270540706,-0.472463,-18.932114
11.185,2.0,1.0,1.0,33.7,34.8,34.8,1.6,3.8,2.6975,0.1296565145398104,-0.11424759808052518,0.9354052411974535,-0.029479598377617648,-0.497356,-18.563121
11.185,2.0,1.0,1.0,33.7,34.8,34.8,1.6,3.8,2.7,0.1125910626456266,-0.11864946482650153,0.934640383927806,-0.0333123769204608,-0.524538,-18.185163
11.185,2.0,1.0,1.0,33.7,34.8,34.8,1.6,3.8,2.7025,0.09510651171230951,-0.12326543013155394,0.9333432226986965,-0.037548211322413275,-0.554311,-17.797811
11.185,2.0,1.0,1.0,33.7,34.8,34.8,1.6,3.8,2.705,0.07719083682291318,-0.12810300676950812,0.9314569003282543,-0.04223803448393044,-0.587021,-17.400615
11.185,2.0,1.0,1.0,33.7,34.8,34.8,1.6,3.8,2.7075,0.058833384927547014,-0.13316815978494084,0.928916604185715,-0.04744042204067883,-0.623079,-16.993099
11.185,2.0,1.0,1.0,33.7,34.8,34.8,1.6,3.8,2.71,0.0400256617293606,-0.138464505215901,0.9256482615525297,-0.0532228743873638,-0.662968,-16.574768
11.185,2.0,1.0,1.0,33.7,34.8,34.8,1.6,3.8,2.7125,0.020762407852143772,-0.14399221728065045,0.9215670158500452,-0.05966331505385573,-0.707258,-16.145105
11.185,2.0,1.0,1.0,33.7,34.8,34.8,1.6,3.8,2.715,0.0010430660060736076,-0.14974654185410904,0.9165754571274736,-0.06685183138023025,-0.75663,-15.703576
11.185,2.0,1.0,1.0,33.7,34.8,34.8,1.6,3.8,2.7175,-0.019126223317972892,-0.15571577816514312,0.9105615856872379,-0.07489267772009127,-0.811898,-15.249638
11.185,2.0,1.0,1.0,33.7,34.8,34.8,1.6,3.8,2.72,-0.039729912023044385,-0.16187854249795933,0.9033965011868725,-0.08390654761067311,-0.87404,-14.78274
11.185,2.0,1.0,1.0,33.7,34.8,34.8,1.6,3.8,2.7225,-0.060739370944719914,-0.168200063727643,0.8949318368292669,-0.09403309361358331,-0.944241,-14.302343
11.185,2.0,1.0,1.0,33.7,34.8,34.8,1.6,3.8,2.725,-0.08210791963323597,-0.17462717691798402,0.8849970088266508,-0.10543362230912909,-1.023941,-13.807929
11.185,2.0,1.0,1.0,33.7,34.8,34.8,1.6,3.8,2.7275,-0.10376411962082925,-0.18108157472155909,0.8733964404150555,-0.11829380193609637,-1.114901,-13.29903
11.185,2.0,1.0,1.0,33.7,34.8,34.8,1.6,3.8,2.73,-0.12560276113913138,-0.18745074645935828,0.859907071266093,-0.13282606736571143,-1.219287,-12.775261
11.185,2.0,1.0,1.0,33.7,34.8,34.8,1.6,3.8,2.7325,-0.1474728259893222,-0.19357588839433532,0.8442767140035782,-0.14927115458901516,-1.339778,-12.236366
11.185,2.0,1.0,1.0,33.7,34.8,34.8,1.6,3.8,2.735,-0.16916156815666014,-0.19923592935644044,0.8262242242061509,-0.16789779010863623,-1.479703,-11.682286
11.185,2.0,1.0,1.0,33.7,34.8,34.8,1.6,3.8,2.7375,-0.1903737759494171,-0.20412674126923983,0.8054430848621077,-0.18899892352580416,-1.643216,-11.113246
11.185,2.0,1.0,1.0,33.7,34.8,34.8,1.6,3.8,2.74,-0.2107053874597956,-0.20783471770748865,0.7816109660322822,-0.21288192926683777,-1.835516,-10.529881
11.185,2.0,1.0,1.0,33.7,34.8,34.8,1.6,3.8,2.7425,-0.2296111646543553,-0.20980444631065392,0.7544091982829528,-0.2398488239894438,-2.063112,-9.933399
11.185,2.0,1.0,1.0,33.7,34.8,34.8,1.6,3.8,2.745,-0.24636752174602605,-0.20930160551708624,0.7235579152958259,-0.2701607309941157,-2.334139,-9.325795
11.185,2.0,1.0,1.0,33.7,34.8,34.8,1.6,3.8,2.7475,-0.260034552602144,-0.20537518561886073,0.6888746558139511,-0.30397879757439045,-2.658675,-8.710128
11.185,2.0,1.0,1.0,33.7,34.8,34.8,1.6,3.8,2.75,-0.269426784189947,-0.196828641621762,0.650365652788664,-0.341272358479887,-3.048983,-8.09085
11.185,2.0,1.0,1.0,33.7,34.8,34.8,1.6,3.8,2.7525,-0.27311114386288965,-0.18221856835892494,0.6083578737648507,-0.3816863544704298,-3.519436,-7.474186
11.185,2.0,1.0,1.0,33.7,34.8,34.8,1.6,3.8,2.755,-0.2694629110036535,-0.15991176851553984,0.5636722178259295,-0.42436776405540855,-4.085607,-6.868506
11.185,2.0,1.0,1.0,33.7,34.8,34.8,1.6,3.8,2.7575,-0.2568222969902585,-0.12824338753159145,0.5178183484126075,-0.46777085922201717,-4.761319,-6.284594
11.185,2.0,1.0,1.0,33.7,34.8,34.8,1.6,3.8,2.76,-0.23379464949832135,-0.08581894306608655,0.4731546784050698,-0.5094981766065396,-5.551198,-5.735647
11.185,2.0,1.0,1.0,33.7,34.8,34.8,1.6,3.8,2.7625,-0.19970569852168896,-0.03197113604269587,0.43290820574538985,-0.5462828958424069,-6.434161,-5.236798
11.185,2.0,1.0,1.0,33.7,34.8,34.8,1.6,3.8,2.765,-0.15513939448949593,0.03270196547015776,0.4009178519861482,-0.5742490073336788,-7.332901,-4.803934
11.185,2.0,1.0,1.0,33.7,34.8,34.8,1.6,3.8,2.7675,-0.10236072392696496,0.10591608913676132,0.3810101578532128,-0.5895396355525627,-8.078608,-4.451776
11.185,2.0,1.0,1.0,33.7,34.8,34.8,1.6,3.8,2.77,-0.045340784625951196,0.1836804463420629,0.37608534898283064,-0.5892337425220313,-8.431603,-4.191492
11.185,2.0,1.0,1.0,33.7,34.8,34.8,1.6,3.8,2.7725,0.010812732605205738,0.26087370773185514,0.3872315044116686,-0.5722314340383473,-8.237201,-4.028492
11.185,2.0,1.0,1.0,33.7,34.8,34.8,1.6,3.8,2.775,0.06091845029942652,0.33231242496738267,0.41330120185787755,-0.5396726815127704,-7.581325,-3.961218
11.185,2.0,1.0,1.0,33.7,34.8,34.8,1.6,3.8,2.7775,0.10085175644721972,0.393883392328711,0.4512019395224779,-0.4946396418545031,-6.700852,-3.981436
11.185,2.0,1.0,1.0,33.7,34.8,34.8,1.6,3.8,2.78,0.12825667513822583,0.44325306872610387,0.4967566796424964,-0.4412892523353533,-5.796861,-4.075906
11.185,2.0,1.0,1.0,33.7,34.8,34.8,1.6,3.8,2.7825,0.14262360296755175,0.479940102266325,0.5457056503322951,-0.38384743338543503,-4.97387,-4.228745
11.185,2.0,1.0,1.0,33.7,34.8,34.8,1.6,3.8,2.785,0.1448712980733248,0.5048918681127619,0.5944519570080704,-0.3258628485256292,-4.267096,-4.423696
11.185,2.0,1.0,1.0,33.7,34.8,34.8,1.6,3.8,2.7875,0.13674039000376267,0.5198740508626328,0.640396952998447,-0.26987312496859633,-3.67739,-4.645786
11.185,2.0,1.0,1.0,33.7,34.8,34.8,1.6,3.8,2.79,0.12025291379980348,0.5269281957003673,0.6819346887421127,-0.21741264945050826,-3.192153,-4.882214
11.185,2.0,1.0,1.0,33.7,34.8,34.8,1.6,3.8,2.7925,0.09734988999348548,0.5280087662568778,0.7182616188771399,-0.169204669875766,-2.795291,-5.12263
11.185,2.0,1.0,1.0,33.7,34.8,34.8,1.6,3.8,2.795,0.06970588202594773,0.5247979123068677,0.7491360351689454,-0.12540280502331155,-2.471347,-5.359
11.185,2.0,1.0,1.0,33.7,34.8,34.8,1.6,3.8,2.7975,0.03867016952417033,0.5186470029095948,0.7746634160193625,-0.08580578246566607,-2.20693,-5.58529
11.185,2.0,1.0,1.0,33.7,34.8,34.8,1.6,3.8,2.8,0.005280146690754497,0.5105901892571605,0.7951348964118291,-0.050018386507005325,-1.990992,-5.797072
11.185,2.0,1.0,1.0,33.7,34.8,34.8,1.6,3.8,2.8025,-0.02969308981943571,0.5013897986533004,0.8109185099663552,-0.017559161393749457,-1.814637,-5.991167
11.185,2.0,1.0,1.0,33.7,34.8,34.8,1.6,3.8,2.805,-0.06569076458835892,0.49158969331986196,0.8223921575440706,0.01207393912264666,-1.670799,-6.165326
11.185,2.0,1.0,1.0,33.7,34.8,34.8,1.6,3.8,2.8075,-0.10231582420037118,0.4815647968790213,0.8299057421816274,0.039367307853949055,-1.553911,-6.317979
11.185,2.0,1.0,1.0,33.7,34.8,34.8,1.6,3.8,2.81,-0.1392902026983091,0.47156226510424487,0.8337620526064966,0.06477438334582507,-1.459607,-6.448039
11.185,2.0,1.0,1.0,33.7,34.8,34.8,1.6,3.8,2.8125,-0.176420655893084,0.461733537231015,0.834208891182627,0.088709768065756,-1.384484,-6.554755
11.185,2.0,1.0,1.0,33.7,34.8,34.8,1.6,3.8,2.815,-0.2135722004374627,0.4521581382887199,0.8314374759117915,0.11154978416933906,-1.325906,-6.637598
11.185,2.0,1.0,1.0,33.7,34.8,34.8,1.6,3.8,2.8175,-0.2506476462732091,0.44286060910723307,0.825584016647197,0.1336363511152278,-1.281859,-6.696183
11.185,2.0,1.0,1.0,33.7,34.8,34.8,1.6,3.8,2.82,-0.2875716852969257,0.4338219183383531,0.8167326332320913,0.15528231877089832,-1.250837,-6.730213
11.185,2.0,1.0,1.0,33.7,34.8,34.8,1.6,3.8,2.8225,-0.32427817284942356,0.4249864806367751,0.8049186007780028,0.17677717333896983,-1.23176,-6.739435
11.185,2.0,1.0,1.0,33.7,34.8,34.8,1.6,3.8,2.825,-0.3606994555472571,0.4162656217270833,0.7901314223590075,0.1983924938028139,-1.223915,-6.723619
11.185,2.0,1.0,1.0,33.7,34.8,34.8,1.6,3.8,2.8275,-0.39675679218383864,0.40753806020771666,0.7723175571763085,0.2203867799708842,-1.226918,-6.682537
11.185,2.0,1.0,1.0,33.7,34.8,34.8,1.6,3.8,2.83,-0.4323510620334682,0.3986477402305703,0.7513828557439713,0.24300936920001986,-1.240689,-6.615962
11.185,2.0,1.0,1.0,33.7,34.8,34.8,1.6,3.8,2.8325,-0.4673530566384783,0.38939915342752673,0.7271949320723184,0.26650314733490305,-1.265449,-6.523663
