1,w,sub_t,h,l1,l2,l3,g1,g2,Freq,S11_re,S21_re,S11_img,S21_img,S11_dB,S21_dB
11.185,2.0,1.0,1.0,34.9,34.6,34.6,2.9,1.7,2.5,0.615580947769326,-0.024244483047191,0.775009716330342,0.0100223488180936,-0.089601,-31.622586
11.185,2.0,1.0,1.0,34.9,34.6,34.6,2.9,1.7,2.5025,0.6085789013177931,-0.024713083036494724,0.780348222347601,0.009947484012433243,-0.090791,-31.48932
11.185,2.0,1.0,1.0,34.9,34.6,34.6,2.9,1.7,2.505,0.6014859094140804,-0.02519093248376634,0.7856535393585685,0.00986648427397282,-0.09201,-31.355301
11.185,2.0,1.0,1.0,34.9,34.6,34.6,2.9,1.7,2.5075,0.594301042334345,-0.025678239776473436,0.7909244643269697,0.00977909326984203,-0.093259,-31.220515
11.185,2.0,1.0,1.0,34.9,34.6,34.6,2.9,1.7,2.51,0.5870233608838386,-0.026175219012344167,0.7961597584939372,0.009685043650151728,-0.094539,-31.084948
11.185,2.0,1.0,1.0,34.9,34.6,34.6,2.9,1.7,2.5125,0.5796519164468731,-0.026682090191691935,0.8013581462079447,0.009584056500335536,-0.095851,-30.948584
11.185,2.0,1.0,1.0,34.9,34.6,34.6,2.9,1.7,2.515,0.5721857510454682,-0.027199079417356792,0.806518313709293,0.00947584076128423,-0.097196,-30.81141
11.185,2.0,1.0,1.0,34.9,34.6,34.6,2.9,1.7,2.5175,0.5646238974071033,-0.027726419102575922,0.811638907866778,0.00936009261504463,-0.098575,-30.673408
11.185,2.0,1.0,1.0,34.9,34.6,34.6,2.9,1.7,2.52,0.5569653790420115,-0.02826434818711658,0.8167185348640401,0.009236494833686944,-0.099989,-30.534563
11.185,2.0,1.0,1.0,34.9,34.6,34.6,2.9,1.7,2.5225,0.5492092103305011,-0.028813112362003974,0.8217557588328759,0.009104716088741182,-0.10144,-30.394858
11.185,2.0,1.0,1.0,34.9,34.6,34.6,2.9,1.7,2.525,0.5413543966207706,-0.029372964303192736,0.8267491004306328,0.008964410218404729,-0.102928,-30.254277
11.185,2.0,1.0,1.0,34.9,34.6,34.6,2.9,1.7,2.5275,0.5333999343377231,-0.02994416391453559,0.83169703535856,0.008815215449478584,-0.104454,-30.112801
11.185,2.0,1.0,1.0,34.9,34.6,34.6,2.9,1.7,2.53,0.5253448111033395,-0.030526978580407448,0.8365979928177679,0.008656753570751293,-0.106021,-29.970413
11.185,2.0,1.0,1.0,34.9,34.6,34.6,2.9,1.7,2.5325,0.5171880058691392,-0.031121683428352455,0.8414503538991833,0.008488629054266398,-0.107629,-29.827095
11.185,2.0,1.0,1.0,34.9,34.6,34.6,2.9,1.7,2.535,0.5089284890613375,-0.03172856160212025,0.8462524499036121,0.008310428120611314,-0.109279,-29.682827
11.185,2.0,1.0,1.0,34.9,34.6,34.6,2.9,1.7,2.5375,0.5005652227393285,-0.03234790454546317,0.8510025605876969,0.008121717744035877,-0.110974,-29.537588
11.185,2.0,1.0,1.0,34.9,34.6,34.6,2.9,1.7,2.54,0.49209716076813476,-0.03298001229705629,0.8556989123312254,0.007922044592842436,-0.112715,-29.39136
11.185,2.0,1.0,1.0,34.9,34.6,34.6,2.9,1.7,2.5425,0.48352324900554616,-0.03362519379690717,0.8603396762208726,0.007710933900100876,-0.114504,-29.244121
11.185,2.0,1.0,1.0,34.9,34.6,34.6,2.9,1.7,2.545,0.47484242550468014,-0.03428376720459965,0.8649229660450377,0.007487888259295572,-0.116341,-29.095849
11.185,2.0,1.0,1.0,34.9,34.6,34.6,2.9,1.7,2.5475,0.4660536207327874,-0.03495606022970962,0.8694468361939837,0.0072523863390406805,-0.11823,-28.946522
11.185,2.0,1.0,1.0,34.9,34.6,34.6,2.9,1.7,2.55,0.45715575780712897,-0.03564241047470424,0.8739092794590024,0.0070038815104646,-0.120171,-28.796117
11.185,2.0,1.0,1.0,34.9,34.6,34.6,2.9,1.7,2.5525,0.4481477527489004,-0.03634316579060613,0.8783082247237451,0.006741800380288521,-0.122168,-28.644611
11.185,2.0,1.0,1.0,34.9,34.6,34.6,2.9,1.7,2.555,0.4390285147561706,-0.03705868464566615,0.8826415345402837,0.006465541221980269,-0.124222,-28.491977
11.185,2.0,1.0,1.0,34.9,34.6,34.6,2.9,1.7,2.5575,0.42979694649694794,-0.03778933650723735,0.8869070025817671,0.006174472296656494,-0.126334,-28.338192
11.185,2.0,1.0,1.0,34.9,34.6,34.6,2.9,1.7,2.56,0.42045194442357825,-0.03853550223698034,0.8911023509627997,0.005867930054627236,-0.128509,-28.183229
11.185,2.0,1.0,1.0,34.9,34.6,34.6,2.9,1.7,2.5625,0.41099239910979196,-0.039297574499447104,0.8952252274178425,0.005545217207607996,-0.130747,-28.02706
11.185,2.0,1.0,1.0,34.9,34.6,34.6,2.9,1.7,2.565,0.4014171956118413,-0.040075958184000254,0.8992732023270236,0.0052056006606725136,-0.133053,-27.869658
11.185,2.0,1.0,1.0,34.9,34.6,34.6,2.9,1.7,2.5675,0.3917252138553831,-0.040871070839892026,0.903243765577712,0.004848309291952989,-0.135427,-27.710993
11.185,2.0,1.0,1.0,34.9,34.6,34.6,2.9,1.7,2.57,0.3819153290498759,-0.04168334312419817,0.9071343232490943,0.004472531566927933,-0.137874,-27.551035
11.185,2.0,1.0,1.0,34.9,34.6,34.6,2.9,1.7,2.5725,0.37198641213253797,-0.042513219262103365,0.9109421941057294,0.004077412972816812,-0.140396,-27.389754
11.185,2.0,1.0,1.0,34.9,34.6,34.6,2.9,1.7,2.575,0.3619373302441431,-0.04336115751884034,0.9146646058846433,0.0036620532571663283,-0.142997,-27.227116
11.185,2.0,1.0,1.0,34.9,34.6,34.6,2.9,1.7,2.5775,0.35176694723923235,-0.0442276306823074,0.9182986913589769,0.0032255034530804644,-0.145679,-27.063089
11.185,2.0,1.0,1.0,34.9,34.6,34.6,2.9,1.7,2.58,0.34147412423368184,-0.04511312655509228,0.9218414841594417,0.0027667626717620248,-0.148447,-26.897637
11.185,2.0,1.0,1.0,34.9,34.6,34.6,2.9,1.7,2.5825,0.3310577201929703,-0.04601814845424787,0.9252899143329066,0.0022847746410122253,-0.151305,-26.730725
11.185,2.0,1.0,1.0,34.9,34.6,34.6,2.9,1.7,2.585,0.320516592564978,-0.04694321571672085,0.9286408036152286,0.001778423966103187,-0.154256,-26.562315
11.185,2.0,1.0,1.0,34.9,34.6,34.6,2.9,1.7,2.5875,0.30984959796172346,-0.04788886420780322,0.9318908603930273,0.0012465320869270197,-0.157305,-26.392368
11.185,2.0,1.0,1.0,34.9,34.6,34.6,2.9,1.7,2.59,0.2990555928951337,-0.048855646829331606,0.9350366743263424,0.0006878529025228344,-0.160456,-26.220844
11.185,2.0,1.0,1.0,34.9,34.6,34.6,2.9,1.7,2.5925,0.2881334345727072,-0.049844134023606684,0.9380747106010494,0.00010106803093982286,-0.163714,-26.047701
11.185,2.0,1.0,1.0,34.9,34.6,34.6,2.9,1.7,2.595,0.2770819817599244,-0.050854914268089774,0.9410013037764443,-0.0005152183311283327,-0.167085,-25.872896
11.185,2.0,1.0,1.0,34.9,34.6,34.6,2.9,1.7,2.5975,0.2659000957173208,-0.051888594554855505,0.9438126511895347,-0.0011624849884696055,-0.170574,-25.696383
11.185,2.0,1.0,1.0,34.9,34.6,34.6,2.9,1.7,2.6,0.2545866412215045,-0.052945800847490336,0.9465048058731854,-0.001842299811215905,-0.174187,-25.518114
11.185,2.0,1.0,1.0,34.9,34.6,34.6,2.9,1.7,2.6025,0.24314048768095156,-0.054027178506583506,0.9490736689403191,-0.0025563263314382,-0.17793,-25.338042
11.185,2.0,1.0,1.0,34.9,34.6,34.6,2.9,1.7,2.605,0.23156051035926625,-0.05513339267313339,0.9515149813808258,-0.0033063309271273503,-0.181809,-25.156115
11.185,2.0,1.0,1.0,34.9,34.6,34.6,2.9,1.7,2.6075,0.2198455917208313,-0.05626512859699493,0.9538243152115019,-0.004094190654588351,-0.185833,-24.972279
11.185,2.0,1.0,1.0,34.9,34.6,34.6,2.9,1.7,2.61,0.20799462291638476,-0.05742309189489101,0.9559970639122145,-0.004921901797502241,-0.190009,-24.786479
11.185,2.0,1.0,1.0,34.9,34.6,34.6,2.9,1.7,2.6125,0.19600650542921086,-0.058608008719397295,0.9580284320734113,-0.005791589209065336,-0.194344,-24.598657
11.185,2.0,1.0,1.0,34.9,34.6,34.6,2.9,1.7,2.615,0.18388015290635612,-0.059820625816578626,0.9599134241709035,-0.006705516532886805,-0.198849,-24.408752
11.185,2.0,1.0,1.0,34.9,34.6,34.6,2.9,1.7,2.6175,0.17161449320379554,-0.06106171044550812,0.9616468323734424,-0.007666097398812415,-0.203532,-24.216701
11.185,2.0,1.0,1.0,34.9,34.6,34.6,2.9,1.7,2.62,0.15920847067976046,-0.06233205012757001,0.9632232232767312,-0.00867590770179479,-0.208404,-24.022439
11.185,2.0,1.0,1.0,34.9,34.6,34.6,2.9,1.7,2.6225,0.14666104877687844,-0.06363245218704976,0.9646369234440366,-0.009737699085507,-0.213476,-23.825895
11.185,2.0,1.0,1.0,34.9,34.6,34.6,2.9,1.7,2.625,0.133971212941459,-0.0649637430368523,0.965882003618129,-0.0108544137678673,-0.21876,-23.626998
11.185,2.0,1.0,1.0,34.9,34.6,34.6,2.9,1.7,2.6275,0.12113797393743199,-0.06632676715397247,0.9669522614517222,-0.01202920086331222,-0.224268,-23.425672
11.185,2.0,1.0,1.0,34.9,34.6,34.6,2.9,1.7,2.63,0.10816037162358812,-0.06772238567825109,0.9678412025834544,-0.013265434376807729,-0.230015,-23.221839
11.185,2.0,1.0,1.0,34.9,34.6,34.6,2.9,1.7,2.6325,0.09503747927609567,-0.06915147455458835,0.9685420198634521,-0.014566733067672265,-0.236015,-23.015414
11.185,2.0,1.0,1.0,34.9,34.6,34.6,2.9,1.7,2.635,0.08176840855441204,-0.07061492212265068,0.9690475705061316,-0.01593698240769534,-0.242286,-22.80631
11.185,2.0,1.0,1.0,34.9,34.6,34.6,2.9,1.7,2.6375,0.06835231522822101,-0.07211362603860044,0.9693503509176351,-0.01738035888833304,-0.248844,-22.594437
11.185,2.0,1.0,1.0,34.9,34.6,34.6,2.9,1.7,2.64,0.054788405806590904,-0.07364848938975234,0.9694424689105389,-0.018901356966540533,-0.25571,-22.379699
11.185,2.0,1.0,1.0,34.9,34.6,34.6,2.9,1.7,2.6425,0.04107594523930648,-0.07522041583436694,0.969315612978496,-0.020504818978760858,-0.262904,-22.161994
11.185,2.0,1.0,1.0,34.9,34.6,34.6,2.9,1.7,2.645,0.027214265895117554,-0.07683030356393089,0.9689610182574908,-0.022195968398565642,-0.270449,-21.941217
11.185,2.0,1.0,1.0,34.9,34.6,34.6,2.9,1.7,2.6475,0.013202778064197871,-0.07847903784274983,0.9683694287473672,-0.023980446866378707,-0.278371,-21.717255
11.185,2.0,1.0,1.0,34.9,34.6,34.6,2.9,1.7,2.65,-0.0009590177160512895,-0.08016748182779042,0.967531055306238,-0.025864355480719237,-0.286697,-21.489992
11.185,2.0,1.0,1.0,34.9,34.6,34.6,2.9,1.7,2.6525,-0.015271516149076013,-0.08189646530814976,0.9664355288598939,-0.02785430091071692,-0.295458,-21.259305
11.185,2.0,1.0,1.0,34.9,34.6,34.6,2.9,1.7,2.655,-0.02973499004050764,-0.08366677092559467,0.9650718481870554,-0.029957446970799974,-0.304686,-21.025061
11.185,2.0,1.0,1.0,34.9,34.6,34.6,2.9,1.7,2.6575,-0.04434956999614605,-0.08547911734171111,0.9634283215474606,-0.03218157239204427,-0.314419,-20.787125
11.185,2.0,1.0,1.0,34.9,34.6,34.6,2.9,1.7,2.66,-0.05911522030176052,-0.087334138699013,0.9614925013115425,-0.03453513563263321,-0.324696,-20.54535
11.185,2.0,1.0,1.0,34.9,34.6,34.6,2.9,1.7,2.6625,-0.0740317101836716,-0.08923235957719727,0.9592511106255969,-0.037027347694350336,-0.335563,-20.299583
11.185,2.0,1.0,1.0,34.9,34.6,34.6,2.9,1.7,2.665,-0.08909857946785668,-0.09117416446460655,0.9566899610025386,-0.0396682540553529,-0.347069,-20.049663
11.185,2.0,1.0,1.0,34.9,34.6,34.6,2.9,1.7,2.6675,-0.10431509743001258,-0.09315976053981787,0.9537938595630158,-0.0424688269942426,-0.35927,-19.795417
11.185,2.0,1.0,1.0,34.9,34.6,34.6,2.9,1.7,2.67,-0.11968021334827646,-0.09518913227765378,0.9505465044619641,-0.04544106976937917,-0.372226,-19.536663
11.185,2.0,1.0,1.0,34.9,34.6,34.6,2.9,1.7,2.6725,-0.13519249691924384,-0.09726198604314405,0.9469303668190413,-0.04859813433318012,-0.386007,-19.273211
11.185,2.0,1.0,1.0,34.9,34.6,34.6,2.9,1.7,2.675,-0.15085006625788516,-0.09937768239721786,0.9429265572250329,-0.05195445450637292,-0.400689,-19.004855
11.185,2.0,1.0,1.0,34.9,34.6,34.6,2.9,1.7,2.6775,-0.16665050064861905,-0.10153515328496834,0.9385146746184322,-0.05552589681375522,-0.416358,-18.731379
11.185,2.0,1.0,1.0,34.9,34.6,34.6,2.9,1.7,2.68,-0.1825907345169629,-0.10373280057999469,0.933672635015938,-0.05932993149180942,-0.433111,-18.452555
11.185,2.0,1.0,1.0,34.9,34.6,34.6,2.9,1.7,2.6825,-0.1986669282083863,-0.10596837157622982,0.9283764772389683,-0.06338582651818186,-0.451058,-18.168139
11.185,2.0,1.0,1.0,34.9,34.6,34.6,2.9,1.7,2.685,-0.2148743100411238,-0.10823880589954143,0.9226001424100126,-0.06771486787877885,-0.470323,-17.877873
11.185,2.0,1.0,1.0,34.9,34.6,34.6,2.9,1.7,2.6875,-0.2312069826745855,-0.11054004688736631,0.9163152236084615,-0.07234060966932779,-0.491046,-17.581482
11.185,2.0,1.0,1.0,34.9,34.6,34.6,2.9,1.7,2.69,-0.24765768501661647,-0.11286680866747557,0.9094906816951789,-0.07728915800473235,-0.513388,-17.278675
11.185,2.0,1.0,1.0,34.9,34.6,34.6,2.9,1.7,2.6925,-0.2642174985662417,-0.11521228784193227,0.9020925229728971,-0.08258949304675987,-0.537532,-16.969142
11.185,2.0,1.0,1.0,34.9,34.6,34.6,2.9,1.7,2.695,-0.2808754841041655,-0.11756780569991136,0.8940834341028046,-0.08827383370097484,-0.563689,-16.652556
11.185,2.0,1.0,1.0,34.9,34.6,34.6,2.9,1.7,2.6975,-0.29761823080710187,-0.11992236304924289,0.8854223696385524,-0.09437804958472211,-0.5921,-16.328568
11.185,2.0,1.0,1.0,34.9,34.6,34.6,2.9,1.7,2.7,-0.3144292949216885,-0.12226208481937291,0.8760640878138066,-0.10094212458216409,-0.623046,-15.996809
11.185,2.0,1.0,1.0,34.9,34.6,34.6,2.9,1.7,2.7025,-0.3312884987643392,-0.12456952522296932,0.8659586310572781,-0.10801067545001404,-0.656852,-15.656887
11.185,2.0,1.0,1.0,34.9,34.6,34.6,2.9,1.7,2.705,-0.34817105259779935,-0.12682279605323513,0.8550507494654636,-0.11563352716147572,-0.693897,-15.30839
11.185,2.0,1.0,1.0,34.9,34.6,34.6,2.9,1.7,2.7075,-0.3650464513460865,-0.12899447011230386,0.8432792686861967,-0.12386634342567915,-0.734627,-14.950883
11.185,2.0,1.0,1.0,34.9,34.6,34.6,2.9,1.7,2.71,-0.38187708449129837,-0.1310501981589696,0.8305764091972275,-0.13277130525047345,-0.779562,-14.583911
11.185,2.0,1.0,1.0,34.9,34.6,34.6,2.9,1.7,2.7125,-0.39861648005963224,-0.13294696034468087,0.8168670730901895,-0.14241782123593053,-0.829322,-14.206998
11.185,2.0,1.0,1.0,34.9,34.6,34.6,2.9,1.7,2.715,-0.41520708144747775,-0.13463085097775288,0.8020681291527736,-0.15288323852554364,-0.884641,-13.81965
11.185,2.0,1.0,1.0,34.9,34.6,34.6,2.9,1.7,2.7175,-0.4315774280289552,-0.1360342676921953,0.786087750257131,-0.16425350001437994,-0.946397,-13.421362
11.185,2.0,1.0,1.0,34.9,34.6,34.6,2.9,1.7,2.72,-0.44763857626422504,-0.13707234195507856,0.7688248933052858,-0.1766236570074139,-1.015644,-13.011625
11.185,2.0,1.0,1.0,34.9,34.6,34.6,2.9,1.7,2.7225,-0.46327955725359493,-0.13763840721189669,0.7501690679911471,-0.19009809027617042,-1.093658,-12.589933
11.185,2.0,1.0,1.0,34.9,34.6,34.6,2.9,1.7,2.725,-0.47836162073358857,-0.13759825526949285,0.7300006264069488,-0.20479020635391795,-1.181985,-12.155802
11.185,2.0,1.0,1.0,34.9,34.6,34.6,2.9,1.7,2.7275,-0.4927109690146938,-0.13678288546419626,0.7081919356273721,-0.2208212453251155,-1.28252,-11.708791
11.185,2.0,1.0,1.0,34.9,34.6,34.6,2.9,1.7,2.73,-0.5061096484084227,-0.13497941600463823,0.6846099905652675,-0.2383176405512809,-1.397592,-11.248534
11.185,2.0,1.0,1.0,34.9,34.6,34.6,2.9,1.7,2.7325,-0.5182842636319086,-0.1319198262282857,0.6591213128144908,-0.25740608152081823,-1.530079,-10.774783
11.185,2.0,1.0,1.0,34.9,34.6,34.6,2.9,1.7,2.735,-0.5288922581669755,-0.12726727847271785,0.6316003984538702,-0.27820501282629456,-1.683567,-10.287474
11.185,2.0,1.0,1.0,34.9,34.6,34.6,2.9,1.7,2.7375,-0.5375057451969677,-0.12060001417074262,0.6019435621515365,-0.30081071722444763,-1.862533,-9.786806
11.185,2.0,1.0,1.0,34.9,34.6,34.6,2.9,1.7,2.74,-0.5435934287482681,-0.11139338091368044,0.5700908012759757,-0.32527535483696624,-2.072601,-9.273364
11.185,2.0,1.0,1.0,34.9,34.6,34.6,2.9,1.7,2.7425,-0.5465022714274278,-0.09900167537648061,0.5360592423117423,-0.3515733957146163,-2.320844,-8.748273
11.185,2.0,1.0,1.0,34.9,34.6,34.6,2.9,1.7,2.745,-0.5454426250823767,-0.082643563711008,0.4999926566276333,-0.37955196978394695,-2.616156,-8.213405
11.185,2.0,1.0,1.0,34.9,34.6,34.6,2.9,1.7,2.7475,-0.5394840536779381,-0.06139837512637018,0.4622319412257593,-0.4088602775013607,-2.969655,-7.671652
11.185,2.0,1.0,1.0,34.9,34.6,34.6,2.9,1.7,2.75,-0.527574537169464,-0.0342260412958892,0.423410219318999,-0.438854503544061,-3.395034,-7.127253
11.185,2.0,1.0,1.0,34.9,34.6,34.6,2.9,1.7,2.7525,-0.5086031237021037,-3.082100596344725e-05,0.3845711662218804,-0.4684798309665728,-3.908624,-6.586182
11.185,2.0,1.0,1.0,34.9,34.6,34.6,2.9,1.7,2.755,-0.48153362833187663,0.04220361923659284,0.34729693686306107,-0.49614354086692886,-4.528534,-6.056542
11.185,2.0,1.0,1.0,34.9,34.6,34.6,2.9,1.7,2.7575,-0.44563897078610054,0.09317849154030737,0.31380904656545405,-0.5196163667572377,-5.271409,-5.548889
11.185,2.0,1.0,1.0,34.9,34.6,34.6,2.9,1.7,2.76,-0.4008502757735315,0.15293030628042234,0.2869718928699572,-0.5360329040867802,-6.143333,-5.076323
11.185,2.0,1.0,1.0,34.9,34.6,34.6,2.9,1.7,2.7625,-0.3481853206563346,0.22040449965902142,0.2700970499956715,-0.5420928064904248,-7.117834,-4.65412
11.185,2.0,1.0,1.0,34.9,34.6,34.6,2.9,1.7,2.765,-0.29012983834048806,0.2930807474907405,0.2664523461506346,-0.5345569872560045,-8.091862,-4.298688
11.185,2.0,1.0,1.0,34.9,34.6,34.6,2.9,1.7,2.7675,-0.23074512701738006,0.3668770627560778,0.2784740818233232,-0.5110364077032709,-8.834217,-4.025714
11.185,2.0,1.0,1.0,34.9,34.6,34.6,2.9,1.7,2.77,-0.175262605205539,0.4365684886185528,0.30687894093547097,-0.470872062299021,-9.034665,-3.847735
11.185,2.0,1.0,1.0,34.9,34.6,34.6,2.9,1.7,2.7725,-0.12910904783307522,0.49676844904615575,0.35007273517834075,-0.4157080551417973,-8.562982,-3.771727
11.185,2.0,1.0,1.0,34.9,34.6,34.6,2.9,1.7,2.775,-0.09665383452766953,0.5431736792814273,0.4042461655867082,-0.3493747617151108,-7.625645,-3.797594
11.185,2.0,1.0,1.0,34.9,34.6,34.6,2.9,1.7,2.7775,-0.0802238008234552,0.5735280420309328,0.4642228367953261,-0.27702924499588416,-6.53767,-3.918168
11.185,2.0,1.0,1.0,34.9,34.6,34.6,2.9,1.7,2.78,-0.07982168334200929,0.5878804076583328,0.5246875144887564,-0.2039323589395196,-5.502617,-4.120739
11.185,2.0,1.0,1.0,34.9,34.6,34.6,2.9,1.7,2.7825,-0.09356949617948862,0.5881277830332513,0.5812435513905508,-0.13440938192868654,-4.601723,-4.389461
11.185,2.0,1.0,1.0,34.9,34.6,34.6,2.9,1.7,2.785,-0.1185344732662093,0.5771901208703651,0.6309483249582796,-0.07133412037509602,-3.849487,-4.707789
11.185,2.0,1.0,1.0,34.9,34.6,34.6,2.9,1.7,2.7875,-0.1515323625165893,0.5582171015048794,0.6723208383847651,-0.016133716092565916,-3.233271,-5.060311
11.185,2.0,1.0,1.0,34.9,34.6,34.6,2.9,1.7,2.79,-0.18967427837503179,0.5340532072779945,0.7050307625044476,0.03089684905390632,-2.732364,-5.433798
11.185,2.0,1.0,1.0,34.9,34.6,34.6,2.9,1.7,2.7925,-0.23062419059399447,0.5069892439409441,0.7294965819608703,0.07019532361077026,-2.325823,-5.817559
11.185,2.0,1.0,1.0,34.9,34.6,34.6,2.9,1.7,2.795,-0.2726445836021577,0.4787215935463411,0.7465345169980209,0.10258583018214742,-1.995243,-6.203352
11.185,2.0,1.0,1.0,34.9,34.6,34.6,2.9,1.7,2.7975,-0.3145276728678193,0.4504226783368006,0.7571089805664202,0.12903391812934986,-1.725392,-6.585054
11.185,2.0,1.0,1.0,34.9,34.6,34.6,2.9,1.7,2.8,-0.355485152106603,0.4228510111385936,0.762180570422949,0.1504980340470773,-1.504031,-6.95827
11.185,2.0,1.0,1.0,34.9,34.6,34.6,2.9,1.7,2.8025,-0.39503770624097234,0.3964606648392556,0.7626269852990523,0.1678526956202406,-1.321469,-7.319943
11.185,2.0,1.0,1.0,34.9,34.6,34.6,2.9,1.7,2.805,-0.43292194723638266,0.3714931357217521,0.7592109241729766,0.18185768524631013,-1.170075,-7.668024
11.185,2.0,1.0,1.0,34.9,34.6,34.6,2.9,1.7,2.8075,-0.4690189787723127,0.34804769024533005,0.7525748972696099,0.19315350971285095,-1.043853,-8.001202
11.185,2.0,1.0,1.0,34.9,34.6,34.6,2.9,1.7,2.81,-0.5033026455994788,0.3261322366700188,0.7432496316100226,0.20227006837464517,-0.938085,-8.318697
11.185,2.0,1.0,1.0,34.9,34.6,34.6,2.9,1.7,2.8125,-0.5358035082249876,0.30569868205062667,0.7316681052147486,0.20964074264271426,-0.849044,-8.620103
11.185,2.0,1.0,1.0,34.9,34.6,34.6,2.9,1.7,2.815,-0.5665845138795124,0.2866667680414418,0.7181808538359585,0.2156176617044437,-0.773774,-8.905267
11.185,2.0,1.0,1.0,34.9,34.6,34.6,2.9,1.7,2.8175,-0.5957249897041808,0.26893971626730423,0.7030704028918434,0.22048606112813104,-0.709919,-9.174204
11.185,2.0,1.0,1.0,34.9,34.6,34.6,2.9,1.7,2.82,-0.6233103824198345,0.2524142198610877,0.6865639324591709,0.22447687664280733,-0.655592,-9.427037
11.185,2.0,1.0,1.0,34.9,34.6,34.6,2.9,1.7,2.8225,-0.6494258790038439,0.23698661507514576,0.6688439474811211,0.2277773624360955,-0.609272,-9.663946
11.185,2.0,1.0,1.0,34.9,34.6,34.6,2.9,1.7,2.825,-0.6741526009268175,0.22255651620382821,0.6500570466584271,0.2305398351939495,-0.569727,-9.885141
11.185,2.0,1.0,1.0,34.9,34.6,34.6,2.9,1.7,2.8275,-0.6975654753232824,0.209028792144608,0.6303210164392506,0.2328887732965856,-0.535958,-10.090833
11.185,2.0,1.0,1.0,34.9,34.6,34.6,2.9,1.7,2.83,-0.7197321774982198,0.1963144761705788,0.6097305119695466,0.23492653394485888,-0.507146,-10.281221
