1,w,sub_t,h,l1,l2,l3,g1,g2,Freq,S11_re,S21_re,S11_img,S21_img,S11_dB,S21_dB
11.185,2.0,1.0,1.0,33.0,34.0,34.0,3.5,3.5,2.5,0.899538276340494,-0.00445141140512182,0.423779378130592,0.0041460729609624,-0.0491,-44.317398
11.185,2.0,1.0,1.0,33.0,34.0,34.0,3.5,3.5,2.5025,0.896896638453986,-0.0045464041361991695,0.42923205377519397,0.00417095403642624,-0.049514,-44.194554
11.185,2.0,1.0,1.0,33.0,34.0,34.0,3.5,3.5,2.505,0.8942117047322183,-0.0046431014592104095,0.4346875334228692,0.0041955439063575545,-0.049935,-44.071465
11.185,2.0,1.0,1.0,33.0,34.0,34.0,3.5,3.5,2.5075,0.8914830771875016,-0.004741538402924261,0.44014568666657383,0.004219827993626838,-0.050364,-43.948121
11.185,2.0,1.0,1.0,33.0,34.0,34.0,3.5,3.5,2.51,0.8887103511367737,-0.004841750957497729,0.4456063791120751,0.004243791171993829,-0.050799,-43.824512
11.185,2.0,1.0,1.0,33.0,34.0,34.0,3.5,3.5,2.5125,0.8858931150734322,-0.004943776107497949,0.4510694722412351,0.004267417742815348,-0.051243,-43.700629
11.185,2.0,1.0,1.0,33.0,34.0,34.0,3.5,3.5,2.515,0.8830309505362697,-0.005047651866293894,0.4565348232706724,0.004290691410634664,-0.051693,-43.576461
11.185,2.0,1.0,1.0,33.0,34.0,34.0,3.5,3.5,2.5175,0.8801234319754397,-0.005153417311883027,0.4620022850056097,0.004313595257589505,-0.052152,-43.451998
11.185,2.0,1.0,1.0,33.0,34.0,34.0,3.5,3.5,2.52,0.8771701266153474,-0.005261112624225152,0.4674717056887433,0.004336111716575142,-0.052619,-43.327229
11.185,2.0,1.0,1.0,33.0,34.0,34.0,3.5,3.5,2.5225,0.8741705943143897,-0.005370779124157201,0.4729429288439189,0.004358222543091033,-0.053093,-43.202145
11.185,2.0,1.0,1.0,33.0,34.0,34.0,3.5,3.5,2.525,0.8711243874214343,-0.005482459313969035,0.4784157931144366,0.004379908785699208,-0.053576,-43.076735
11.185,2.0,1.0,1.0,33.0,34.0,34.0,3.5,3.5,2.5275,0.8680310506289386,-0.005596196919724353,0.4838901320957661,0.004401150755014185,-0.054068,-42.950987
11.185,2.0,1.0,1.0,33.0,34.0,34.0,3.5,3.5,2.53,0.8648901208226083,-0.005712036935414233,0.48936577416244986,0.004421927991142496,-0.054568,-42.824892
11.185,2.0,1.0,1.0,33.0,34.0,34.0,3.5,3.5,2.5325,0.8617011269274778,-0.005830025669038271,0.4948425422889739,0.004442219229481117,-0.055078,-42.698437
11.185,2.0,1.0,1.0,33.0,34.0,34.0,3.5,3.5,2.535,0.8584635897502962,-0.005950210790712224,0.500320253864363,0.004462002364780633,-0.055596,-42.571612
11.185,2.0,1.0,1.0,33.0,34.0,34.0,3.5,3.5,2.5375,0.8551770218181032,-0.006072641382908024,0.5057987205002455,0.00448125441337291,-0.056124,-42.444406
11.185,2.0,1.0,1.0,33.0,34.0,34.0,3.5,3.5,2.54,0.8518409272128598,-0.006197367992936369,0.511277747832133,0.004499951473453175,-0.056662,-42.316806
11.185,2.0,1.0,1.0,33.0,34.0,34.0,3.5,3.5,2.5425,0.8484548014020027,-0.006324442687792203,0.5167571353136353,0.004518068683304533,-0.057209,-42.188802
11.185,2.0,1.0,1.0,33.0,34.0,34.0,3.5,3.5,2.545,0.845018131064782,-0.006453919111487185,0.5222366760033236,0.00453558017733818,-0.057767,-42.060382
11.185,2.0,1.0,1.0,33.0,34.0,34.0,3.5,3.5,2.5475,0.8415303939142332,-0.006585852545003218,0.5277161563439324,0.004552459039822449,-0.058335,-41.931532
11.185,2.0,1.0,1.0,33.0,34.0,34.0,3.5,3.5,2.55,0.8379910585146257,-0.006720299969006905,0.5331953559336001,0.004568677256156726,-0.058913,-41.802242
11.185,2.0,1.0,1.0,33.0,34.0,34.0,3.5,3.5,2.5525,0.8343995840942305,-0.0068573201294779024,0.5386740472887861,0.0045842056615425005,-0.059503,-41.672499
11.185,2.0,1.0,1.0,33.0,34.0,34.0,3.5,3.5,2.555,0.8307554203532254,-0.006996973606407476,0.5441519955985402,0.004599013886890374,-0.060104,-41.542289
11.185,2.0,1.0,1.0,33.0,34.0,34.0,3.5,3.5,2.5575,0.8270580072665603,-0.007139322885739052,0.5496289584697452,0.004613070301791398,-0.060716,-41.411601
11.185,2.0,1.0,1.0,33.0,34.0,34.0,3.5,3.5,2.56,0.8233067748815928,-0.007284432434730492,0.5551046856629365,0.004626341954369874,-0.06134,-41.28042
11.185,2.0,1.0,1.0,33.0,34.0,34.0,3.5,3.5,2.5625,0.8195011431102845,-0.007432368780929141,0.5605789188183027,0.004638794507817887,-0.061976,-41.148734
11.185,2.0,1.0,1.0,33.0,34.0,34.0,3.5,3.5,2.565,0.815640521515748,-0.0075832005949655786,0.5660513911714319,0.0046503921734047755,-0.062625,-41.016529
11.185,2.0,1.0,1.0,33.0,34.0,34.0,3.5,3.5,2.5675,0.8117243090929185,-0.007736998777381533,0.5715218272583444,0.004661097639730837,-0.063286,-40.883791
11.185,2.0,1.0,1.0,33.0,34.0,34.0,3.5,3.5,2.57,0.8077518940431054,-0.00789383654972438,0.5769899426093408,0.0046708719979844235,-0.06396,-40.750507
11.185,2.0,1.0,1.0,33.0,34.0,34.0,3.5,3.5,2.5725,0.8037226535421724,-0.00805378955015587,0.5824554434311565,0.004679674662940795,-0.064648,-40.61666
11.185,2.0,1.0,1.0,33.0,34.0,34.0,3.5,3.5,2.575,0.7996359535020723,-0.0082169359338367,0.5879180262768918,0.00468746328942209,-0.06535,-40.482238
11.185,2.0,1.0,1.0,33.0,34.0,34.0,3.5,3.5,2.5775,0.7954911483254552,-0.008383356478369202,0.5933773777031487,0.0046941936839164,-0.066066,-40.347225
11.185,2.0,1.0,1.0,33.0,34.0,34.0,3.5,3.5,2.58,0.7912875806530425,-0.008553134694596388,0.5988331739137789,0.004699819711032389,-0.066797,-40.211605
11.185,2.0,1.0,1.0,33.0,34.0,34.0,3.5,3.5,2.5825,0.7870245811034382,-0.008726356943078818,0.604285080389616,0.004704293194437923,-0.067542,-40.075363
11.185,2.0,1.0,1.0,33.0,34.0,34.0,3.5,3.5,2.585,0.7827014680050435,-0.008903112556589692,0.6097327515035174,0.004707563811908893,-0.068303,-39.938483
11.185,2.0,1.0,1.0,33.0,34.0,34.0,3.5,3.5,2.5875,0.7783175471196924,-0.009083493968995243,0.6151758301200088,0.0047095789840800074,-0.06908,-39.800948
11.185,2.0,1.0,1.0,33.0,34.0,34.0,3.5,3.5,2.59,0.7738721113576348,-0.009267596850909094,0.6206139471787783,0.004710283756460667,-0.069874,-39.662743
11.185,2.0,1.0,1.0,33.0,34.0,34.0,3.5,3.5,2.5925,0.7693644404834279,-0.0094555202525407,0.6260467212612213,0.004709620674244363,-0.070684,-39.523849
11.185,2.0,1.0,1.0,33.0,34.0,34.0,3.5,3.5,2.595,0.7647938008123147,-0.009647366754184159,0.6314737581391803,0.004707529649399367,-0.071512,-39.384249
11.185,2.0,1.0,1.0,33.0,34.0,34.0,3.5,3.5,2.5975,0.7601594448965907,-0.009843242624827024,0.6368946503049876,0.004703947819489488,-0.072357,-39.243926
11.185,2.0,1.0,1.0,33.0,34.0,34.0,3.5,3.5,2.6,0.7554606112014569,-0.010043257989393496,0.642308976481838,0.004698809397629407,-0.073221,-39.102862
11.185,2.0,1.0,1.0,33.0,34.0,34.0,3.5,3.5,2.6025,0.7506965237698221,-0.010247527005171321,0.6477163011134668,0.004692045512927041,-0.074104,-38.961036
11.185,2.0,1.0,1.0,33.0,34.0,34.0,3.5,3.5,2.605,0.7458663918754538,-0.010456168048014454,0.6531161738320451,0.0046835840407134215,-0.075006,-38.818431
11.185,2.0,1.0,1.0,33.0,34.0,34.0,3.5,3.5,2.6075,0.7409694096638607,-0.010669303908955633,0.6585081289031162,0.004673349421803293,-0.075929,-38.675026
11.185,2.0,1.0,1.0,33.0,34.0,34.0,3.5,3.5,2.61,0.7360047557802354,-0.010887062001908232,0.6638916846463271,0.004661262469959706,-0.076873,-38.530801
11.185,2.0,1.0,1.0,33.0,34.0,34.0,3.5,3.5,2.6125,0.7309715929837254,-0.011109574583191461,0.6692663428306167,0.004647240166674394,-0.077838,-38.385736
11.185,2.0,1.0,1.0,33.0,34.0,34.0,3.5,3.5,2.615,0.7258690677472631,-0.01133697898366402,0.674631588042436,0.004631195442288744,-0.078825,-38.239809
11.185,2.0,1.0,1.0,33.0,34.0,34.0,3.5,3.5,2.6175,0.7206963098421182,-0.011569417854311967,0.6799868870254522,0.004613036942402117,-0.079835,-38.092999
11.185,2.0,1.0,1.0,33.0,34.0,34.0,3.5,3.5,2.62,0.7154524319062694,-0.011807039426203845,0.6853316879901,0.004592668778418551,-0.080868,-37.945282
11.185,2.0,1.0,1.0,33.0,34.0,34.0,3.5,3.5,2.6225,0.7101365289956297,-0.0120499977857915,0.6906654198912089,0.004569990260980602,-0.081926,-37.796637
11.185,2.0,1.0,1.0,33.0,34.0,34.0,3.5,3.5,2.625,0.704747678117082,-0.0122984531666137,0.695987491671789,0.00454489561492652,-0.083009,-37.647038
11.185,2.0,1.0,1.0,33.0,34.0,34.0,3.5,3.5,2.6275,0.699284937742191,-0.012552572258544614,0.7012972914709426,0.004517273674283376,-0.084119,-37.496463
11.185,2.0,1.0,1.0,33.0,34.0,34.0,3.5,3.5,2.63,0.6937473473003799,-0.012812528535812414,0.7065941857936758,0.004487007555670568,-0.085255,-37.344885
11.185,2.0,1.0,1.0,33.0,34.0,34.0,3.5,3.5,2.6325,0.6881339266502539,-0.013078502605118768,0.7118775186402281,0.004453974308339865,-0.086419,-37.192279
11.185,2.0,1.0,1.0,33.0,34.0,34.0,3.5,3.5,2.635,0.6824436755276454,-0.013350682575288889,0.7171466105923356,0.00441804453890711,-0.087612,-37.038619
11.185,2.0,1.0,1.0,33.0,34.0,34.0,3.5,3.5,2.6375,0.676675572968853,-0.013629264450004197,0.7224007578536342,0.00437908200865225,-0.088835,-36.883877
11.185,2.0,1.0,1.0,33.0,34.0,34.0,3.5,3.5,2.64,0.6708285767073844,-0.013914452545289635,0.7276392312411843,0.004336943201053559,-0.090089,-36.728024
11.185,2.0,1.0,1.0,33.0,34.0,34.0,3.5,3.5,2.6425,0.6649016225424181,-0.01420645993357008,0.7328612751248197,0.004291476857002295,-0.091375,-36.571033
11.185,2.0,1.0,1.0,33.0,34.0,34.0,3.5,3.5,2.645,0.6588936236770108,-0.014505508916256366,0.738066106310765,0.00424252347488872,-0.092695,-36.412872
11.185,2.0,1.0,1.0,33.0,34.0,34.0,3.5,3.5,2.6475,0.6528034700239298,-0.014811831526987607,0.7432529128656323,0.004189914772474441,-0.094049,-36.253511
11.185,2.0,1.0,1.0,33.0,34.0,34.0,3.5,3.5,2.65,0.646630027476788,-0.015125670067833046,0.7484208528765837,0.004133473107156655,-0.095439,-36.092918
11.185,2.0,1.0,1.0,33.0,34.0,34.0,3.5,3.5,2.6525,0.6403721371439899,-0.015447277680953725,0.7535690531430268,0.004073010850882946,-0.096866,-35.93106
11.185,2.0,1.0,1.0,33.0,34.0,34.0,3.5,3.5,2.655,0.6340286145427378,-0.015776918958435,0.7586966077948344,0.004008329715596193,-0.098331,-35.767904
11.185,2.0,1.0,1.0,33.0,34.0,34.0,3.5,3.5,2.6575,0.6275982487501359,-0.01611487059323753,0.7638025768315609,0.003939220024658887,-0.099837,-35.603413
11.185,2.0,1.0,1.0,33.0,34.0,34.0,3.5,3.5,2.66,0.6210798015081509,-0.016461422074466322,0.7688859845766356,0.003865459925226112,-0.101384,-35.437552
11.185,2.0,1.0,1.0,33.0,34.0,34.0,3.5,3.5,2.6625,0.6144720062789094,-0.016816876430438627,0.7739458180399064,0.0037868145360086605,-0.102975,-35.270282
11.185,2.0,1.0,1.0,33.0,34.0,34.0,3.5,3.5,2.665,0.6077735672464687,-0.017181551023337713,0.7789810251812769,0.003703035024263773,-0.104611,-35.101566
11.185,2.0,1.0,1.0,33.0,34.0,34.0,3.5,3.5,2.6675,0.6009831582608853,-0.017555778399575075,0.7839905130674293,0.0036138576051841552,-0.106294,-34.931362
11.185,2.0,1.0,1.0,33.0,34.0,34.0,3.5,3.5,2.67,0.5940994217199831,-0.017939907200349135,0.7889731459128312,0.003519002456103251,-0.108027,-34.759628
11.185,2.0,1.0,1.0,33.0,34.0,34.0,3.5,3.5,2.6725,0.5871209673838184,-0.018334303137297357,0.7939277429953034,0.0034181725370893384,-0.10981,-34.586322
11.185,2.0,1.0,1.0,33.0,34.0,34.0,3.5,3.5,2.675,0.5800463711163765,-0.018739350038575065,0.7988530764354013,0.0033110523085507055,-0.111647,-34.411399
11.185,2.0,1.0,1.0,33.0,34.0,34.0,3.5,3.5,2.6775,0.572874173548512,-0.019155450971184488,0.8037478688277195,0.003197306335399293,-0.113539,-34.234812
11.185,2.0,1.0,1.0,33.0,34.0,34.0,3.5,3.5,2.68,0.5656028786555835,-0.019583029445910782,0.8086107907109384,0.00307657776611623,-0.115489,-34.056512
11.185,2.0,1.0,1.0,33.0,34.0,34.0,3.5,3.5,2.6825,0.5582309522426206,-0.020022530711804435,0.8134404578619575,0.0029484866736887378,-0.117501,-33.87645
11.185,2.0,1.0,1.0,33.0,34.0,34.0,3.5,3.5,2.685,0.5507568203291686,-0.02047442314779879,0.8182354283978438,0.0028126282438464974,-0.119576,-33.694573
11.185,2.0,1.0,1.0,33.0,34.0,34.0,3.5,3.5,2.6875,0.543178867425206,-0.0209391997597511,0.82299419966744,0.00266857079426656,-0.121717,-33.510827
11.185,2.0,1.0,1.0,33.0,34.0,34.0,3.5,3.5,2.69,0.5354954346887177,-0.021417379791978115,0.8277152049123745,0.002515853606428944,-0.123928,-33.325156
11.185,2.0,1.0,1.0,33.0,34.0,34.0,3.5,3.5,2.6925,0.5277048179545621,-0.02190951046320541,0.8323968096748455,0.002353984549534353,-0.126212,-33.1375
11.185,2.0,1.0,1.0,33.0,34.0,34.0,3.5,3.5,2.695,0.5198052656233164,-0.02241616883778608,0.8370373079267969,0.002182437473323043,-0.128573,-32.947799
11.185,2.0,1.0,1.0,33.0,34.0,34.0,3.5,3.5,2.6975,0.5117949763976313,-0.022937963844073574,0.841634917892057,0.002000649343683145,-0.131014,-32.75599
11.185,2.0,1.0,1.0,33.0,34.0,34.0,3.5,3.5,2.7,0.5036720968524591,-0.02347553845295403,0.846187777529438,0.0018080170915789186,-0.133539,-32.562004
11.185,2.0,1.0,1.0,33.0,34.0,34.0,3.5,3.5,2.7025,0.49543471882415724,-0.02402957203077997,0.8506939396407988,0.001603894141972447,-0.136154,-32.365774
11.185,2.0,1.0,1.0,33.0,34.0,34.0,3.5,3.5,2.705,0.4870808766020328,-0.02460078288229469,0.8551513665634292,0.0013875865849994299,-0.138862,-32.167227
11.185,2.0,1.0,1.0,33.0,34.0,34.0,3.5,3.5,2.7075,0.4786085439042778,-0.025189931000610524,0.8595579244008386,0.001158348946581638,-0.141668,-31.966287
11.185,2.0,1.0,1.0,33.0,34.0,34.0,3.5,3.5,2.71,0.470015630618514,-0.02579782104290638,0.8639113767399279,0.000915379509811244,-0.144579,-31.762875
11.185,2.0,1.0,1.0,33.0,34.0,34.0,3.5,3.5,2.7125,0.4612999792852389,-0.02642530555226163,0.8682093777955248,0.0006578151317071667,-0.147599,-31.556909
11.185,2.0,1.0,1.0,33.0,34.0,34.0,3.5,3.5,2.715,0.45245936130040837,-0.0270732884479306,0.8724494649151602,0.00038472549214565505,-0.150734,-31.348303
11.185,2.0,1.0,1.0,33.0,34.0,34.0,3.5,3.5,2.7175,0.44349147281112483,-0.02774272880840746,0.8766290503676085,9.510670274831521e-05,-0.153993,-31.136965
11.185,2.0,1.0,1.0,33.0,34.0,34.0,3.5,3.5,2.72,0.4343939302759899,-0.02843464497381991,0.8807454123278581,-0.0002121258069673296,-0.15738,-30.922802
11.185,2.0,1.0,1.0,33.0,34.0,34.0,3.5,3.5,2.7225,0.42516426565904103,-0.029150118996534784,0.8847956849585928,-0.0005381452210456041,-0.160906,-30.705713
11.185,2.0,1.0,1.0,33.0,34.0,34.0,3.5,3.5,2.725,0.4157999212234617,-0.029890301471322524,0.8887768474735569,-0.0008842221952311635,-0.164577,-30.485595
11.185,2.0,1.0,1.0,33.0,34.0,34.0,3.5,3.5,2.7275,0.40629824388826696,-0.03065641677902118,0.8926857120510927,-0.0012517347674482096,-0.168403,-30.262338
11.185,2.0,1.0,1.0,33.0,34.0,34.0,3.5,3.5,2.73,0.3966564791081649,-0.03144976878028952,0.8965189104460701,-0.0016421794656996604,-0.172393,-30.035826
11.185,2.0,1.0,1.0,33.0,34.0,34.0,3.5,3.5,2.7325,0.386871764233623,-0.0322717469987253,0.900272879124963,-0.00205718378126959,-0.176559,-29.805939
11.185,2.0,1.0,1.0,33.0,34.0,34.0,3.5,3.5,2.735,0.3769411213050787,-0.03312383333523145,0.9039438427211971,-0.0024985202019236403,-0.180912,-29.572548
11.185,2.0,1.0,1.0,33.0,34.0,34.0,3.5,3.5,2.7375,0.36686144923218583,-0.03400760935794272,0.9075277955753639,-0.002968122031451697,-0.185465,-29.335521
11.185,2.0,1.0,1.0,33.0,34.0,34.0,3.5,3.5,2.74,0.35662951530629294,-0.03492476421409335,0.9110204810864324,-0.0034681012592967407,-0.190232,-29.094715
11.185,2.0,1.0,1.0,33.0,34.0,34.0,3.5,3.5,2.7425,0.3462419459920753,-0.03587710321167694,0.9144173685545471,-0.0040007687883718895,-0.195228,-28.84998
11.185,2.0,1.0,1.0,33.0,34.0,34.0,3.5,3.5,2.745,0.3356952169428721,-0.03686655711928221,0.9177136271418765,-0.004568657381892829,-0.200468,-28.60116
11.185,2.0,1.0,1.0,33.0,34.0,34.0,3.5,3.5,2.7475,0.3249856421841294,-0.03789519223162721,0.9209040965135138,-0.00517454775289689,-0.205973,-28.348087
11.185,2.0,1.0,1.0,33.0,34.0,34.0,3.5,3.5,2.75,0.314109362411124,-0.0389652212454102,0.92398325364342,-0.00582149829524387,-0.211762,-28.090584
11.185,2.0,1.0,1.0,33.0,34.0,34.0,3.5,3.5,2.7525,0.3030623323516504,-0.04007901498428329,0.9269451751781363,-0.0065128790449403675,-0.217856,-27.828465
11.185,2.0,1.0,1.0,33.0,34.0,34.0,3.5,3.5,2.755,0.2918403071528107,-0.041239115001824936,0.9297834946401101,-0.007252410568887838,-0.224281,-27.561532
11.185,2.0,1.0,1.0,33.0,34.0,34.0,3.5,3.5,2.7575,0.28043882776499046,-0.0424482470757044,0.9324913536188821,-0.008044208608678048,-0.231064,-27.289574
11.185,2.0,1.0,1.0,33.0,34.0,34.0,3.5,3.5,2.76,0.2688532053179083,-0.04370933558254789,0.9350613459368222,-0.008892835464906806,-0.238235,-27.012367
11.185,2.0,1.0,1.0,33.0,34.0,34.0,3.5,3.5,2.7625,0.2570785045161101,-0.04502551870824388,0.9374854535802526,-0.009803359298946933,-0.245827,-26.729675
11.185,2.0,1.0,1.0,33.0,34.0,34.0,3.5,3.5,2.765,0.24510952612887546,-0.046400164398359596,0.9397549729485243,-0.010781422762075502,-0.253879,-26.441245
11.185,2.0,1.0,1.0,33.0,34.0,34.0,3.5,3.5,2.7675,0.23294078871779242,-0.04783688688215784,0.9418604296829183,-0.011833322646151105,-0.262431,-26.146806
11.185,2.0,1.0,1.0,33.0,34.0,34.0,3.5,3.5,2.77,0.22056650984227508,-0.04933956350343389,0.9437914799814414,-0.012966102598059172,-0.271532,-25.846072
11.185,2.0,1.0,1.0,33.0,34.0,34.0,3.5,3.5,2.7725,0.20798058712008954,-0.05091235145097515,0.9455367958687342,-0.014187661367452914,-0.281233,-25.538735
11.185,2.0,1.0,1.0,33.0,34.0,34.0,3.5,3.5,2.775,0.19517657971172347,-0.05255970378560752,0.9470839313524176,-0.015506879583537022,-0.291597,-25.224467
11.185,2.0,1.0,1.0,33.0,34.0,34.0,3.5,3.5,2.7775,0.18214769106552656,-0.054286383888227395,0.9484191657328427,-0.016933768706502806,-0.302689,-24.902917
11.185,2.0,1.0,1.0,33.0,34.0,34.0,3.5,3.5,2.78,0.16888675413468246,-0.05609747707428597,0.949527319510469,-0.0184796466039564,-0.314587,-24.573707
11.185,2.0,1.0,1.0,33.0,34.0,34.0,3.5,3.5,2.7825,0.15538622079905692,-0.05799839759318429,0.9503915373136061,-0.020157345201618253,-0.327381,-24.236434
11.185,2.0,1.0,1.0,33.0,34.0,34.0,3.5,3.5,2.785,0.1416381579535302,-0.05999488849742125,0.9509930309981389,-0.021981456900276412,-0.34117,-23.890662
11.185,2.0,1.0,1.0,33.0,34.0,34.0,3.5,3.5,2.7875,0.12763425374318588,-0.06209301084309296,0.9513107744863829,-0.023968627999450823,-0.356071,-23.535926
11.185,2.0,1.0,1.0,33.0,34.0,34.0,3.5,3.5,2.79,0.11336583885301971,-0.06429911725261796,0.9513211399347774,-0.026137909299763225,-0.372218,-23.171723
11.185,2.0,1.0,1.0,33.0,34.0,34.0,3.5,3.5,2.7925,0.09882392976571319,-0.06661980286382892,0.9509974623516307,-0.02851117646565175,-0.389767,-22.797509
11.185,2.0,1.0,1.0,33.0,34.0,34.0,3.5,3.5,2.795,0.08399930372911694,-0.0690618238648338,0.9503095167074663,-0.031113635732835078,-0.408899,-22.412702
11.185,2.0,1.0,1.0,33.0,34.0,34.0,3.5,3.5,2.7975,0.06888261917842436,-0.07163196982187227,0.9492228877512263,-0.033974434275825756,-0.429826,-22.01667
11.185,2.0,1.0,1.0,33.0,34.0,34.0,3.5,3.5,2.8,0.053464601048249905,-0.0743368703407661,0.9476982080074045,-0.03712739916084998,-0.452799,-21.608732
11.185,2.0,1.0,1.0,33.0,34.0,34.0,3.5,3.5,2.8025,0.037736318534912244,-0.07718270852206242,0.9456902336191335,-0.04061193445198734,-0.478112,-21.188151
11.185,2.0,1.0,1.0,33.0,34.0,34.0,3.5,3.5,2.805,0.021689594524722956,-0.08017480209269359,0.9431467206839154,-0.04447411283694149,-0.506119,-20.754134
11.185,2.0,1.0,1.0,33.0,34.0,34.0,3.5,3.5,2.8075,0.005317602702681198,-0.08331699643091132,0.9400070564592283,-0.04876800611976775,-0.537239,-20.305822
11.185,2.0,1.0,1.0,33.0,34.0,34.0,3.5,3.5,2.81,-0.011384267322985524,-0.08661078959995845,0.9362005904806915,-0.053557307883923155,-0.57198,-19.84229
11.185,2.0,1.0,1.0,33.0,34.0,34.0,3.5,3.5,2.8125,-0.028417161187844,-0.0900540745082244,0.931644600913852,-0.0589173108563232,-0.610956,-19.362545
11.185,2.0,1.0,1.0,33.0,34.0,34.0,3.5,3.5,2.815,-0.04577695996401418,-0.09363933232344279,0.9262418230240128,-0.0649373093005248,-0.654917,-18.865521
11.185,2.0,1.0,1.0,33.0,34.0,34.0,3.5,3.5,2.8175,-0.06345168673143677,-0.09735103682839322,0.9198774631073963,-0.07172349949678347,-0.704786,-18.350085
11.185,2.0,1.0,1.0,33.0,34.0,34.0,3.5,3.5,2.82,-0.0814177667037945,-0.10116192074337044,0.9124156298902913,-0.07940244170773554,-0.761702,-17.815044
11.185,2.0,1.0,1.0,33.0,34.0,34.0,3.5,3.5,2.8225,-0.09963462759173002,-0.10502759697689762,0.9036951505272858,-0.08812511075903166,-0.827088,-17.259154
11.185,2.0,1.0,1.0,33.0,34.0,34.0,3.5,3.5,2.825,-0.11803689512924495,-0.10887879989293764,0.893524827057374,-0.09807147249348945,-0.902732,-16.681152
11.185,2.0,1.0,1.0,33.0,34.0,34.0,3.5,3.5,2.8275,-0.13652310991208316,-0.11261018907393597,0.8816783822180457,-0.1094553295886007,-0.990895,-16.079801
