1,w,sub_t,h,l1,l2,l3,g1,g2,Freq,S11_re,S21_re,S11_img,S21_img,S11_dB,S21_dB
11.185,2.0,1.0,1.0,33.1,33.1,33.1,2.5,2.8,2.5,0.88948270534904,-0.00651884432047437,0.443633202719125,0.00681752342218619,-0.052475,-40.507371
11.185,2.0,1.0,1.0,33.1,33.1,33.1,2.5,2.8,2.5025,0.8866576206187416,-0.00665664194976437,0.44913734875084077,0.0068617160306331994,-0.052931,-40.390822
11.185,2.0,1.0,1.0,33.1,33.1,33.1,2.5,2.8,2.505,0.8837870603888321,-0.006796925998688854,0.4546438357968673,0.006905582016731139,-0.053395,-40.274026
11.185,2.0,1.0,1.0,33.1,33.1,33.1,2.5,2.8,2.5075,0.8808705941995616,-0.006939745409894576,0.46015251223231945,0.0069490997599766634,-0.053867,-40.156975
11.185,2.0,1.0,1.0,33.1,33.1,33.1,2.5,2.8,2.51,0.8779077844367932,-0.0070851503103051775,0.46566322170840724,0.006992246791902736,-0.054346,-40.039664
11.185,2.0,1.0,1.0,33.1,33.1,33.1,2.5,2.8,2.5125,0.8748981862026242,-0.007233192044807145,0.4711758029905667,0.007034999761559783,-0.054834,-39.922083
11.185,2.0,1.0,1.0,33.1,33.1,33.1,2.5,2.8,2.515,0.871841347183608,-0.007383923211023385,0.47669008979110855,0.007077334399473768,-0.055329,-39.804227
11.185,2.0,1.0,1.0,33.1,33.1,33.1,2.5,2.8,2.5175,0.8687368075165514,-0.007537397695213905,0.48220591059616935,0.007119225480006594,-0.055833,-39.686088
11.185,2.0,1.0,1.0,33.1,33.1,33.1,2.5,2.8,2.52,0.8655840996518315,-0.0076936707093439366,0.4877230884867699,0.0071606467820416984,-0.056346,-39.567657
11.185,2.0,1.0,1.0,33.1,33.1,33.1,2.5,2.8,2.5225,0.8623827482142042,-0.007852798829362158,0.4932414409537403,0.007201571047912122,-0.056868,-39.448929
11.185,2.0,1.0,1.0,33.1,33.1,33.1,2.5,2.8,2.525,0.8591322698610563,-0.008014840034733076,0.49876077970630694,0.007241969940484949,-0.057398,-39.329895
11.185,2.0,1.0,1.0,33.1,33.1,33.1,2.5,2.8,2.5275,0.8558321731380572,-0.008179853749268615,0.5042809104740913,0.007281813998311121,-0.057938,-39.210547
11.185,2.0,1.0,1.0,33.1,33.1,33.1,2.5,2.8,2.53,0.852481958332177,-0.00834790088330748,0.5098016328022732,0.007321072588743864,-0.058487,-39.090878
11.185,2.0,1.0,1.0,33.1,33.1,33.1,2.5,2.8,2.5325,0.8490811173220237,-0.008519043877291108,0.5153227398396651,0.007359713858924811,-0.059046,-38.97088
11.185,2.0,1.0,1.0,33.1,33.1,33.1,2.5,2.8,2.535,0.8456291334254541,-0.008693346746787631,0.5208440181194304,0.007397704684530573,-0.059614,-38.850545
11.185,2.0,1.0,1.0,33.1,33.1,33.1,2.5,2.8,2.5375,0.8421254812444292,-0.008870875129017566,0.5263652473321561,0.007435010616166648,-0.060193,-38.729866
11.185,2.0,1.0,1.0,33.1,33.1,33.1,2.5,2.8,2.54,0.8385696265070591,-0.00905169633093612,0.5318862000909998,0.00747159582328948,-0.060782,-38.608833
11.185,2.0,1.0,1.0,33.1,33.1,33.1,2.5,2.8,2.5425,0.8349610259068022,-0.009235879378931791,0.5374066416886031,0.007507423035530576,-0.061381,-38.48744
11.185,2.0,1.0,1.0,33.1,33.1,33.1,2.5,2.8,2.545,0.831299126938776,-0.009423495070198275,0.5429263298454489,0.0075424534812894815,-0.061992,-38.365677
11.185,2.0,1.0,1.0,33.1,33.1,33.1,2.5,2.8,2.5475,0.8275833677331424,-0.009614616025845436,0.5484450144493359,0.0075766468234549885,-0.062613,-38.243536
11.185,2.0,1.0,1.0,33.1,33.1,33.1,2.5,2.8,2.55,0.8238131768855154,-0.009809316745812362,0.5539624372856309,0.007609961092105717,-0.063246,-38.12101
11.185,2.0,1.0,1.0,33.1,33.1,33.1,2.5,2.8,2.5525,0.8199879732843671,-0.010007673665650339,0.55947833175792,0.007642352614032661,-0.063891,-37.998089
11.185,2.0,1.0,1.0,33.1,33.1,33.1,2.5,2.8,2.555,0.8161071659353785,-0.010209765215247186,0.5649924225987024,0.00767377593891763,-0.064547,-37.874764
11.185,2.0,1.0,1.0,33.1,33.1,33.1,2.5,2.8,2.5575,0.8121701537826987,-0.0104156718795648,0.5705044255697221,0.007704183761990889,-0.065216,-37.751028
11.185,2.0,1.0,1.0,33.1,33.1,33.1,2.5,2.8,2.56,0.8081763255270805,-0.010625476261466656,0.5760140471515275,0.007733526842982378,-0.065897,-37.626871
11.185,2.0,1.0,1.0,33.1,33.1,33.1,2.5,2.8,2.5625,0.804125059440846,-0.010839263146714514,0.5815209842218306,0.0077617539211682915,-0.066591,-37.502284
11.185,2.0,1.0,1.0,33.1,33.1,33.1,2.5,2.8,2.565,0.8000157231796495,-0.011057119571216323,0.5870249237222206,0.007788811626304618,-0.067298,-37.377258
11.185,2.0,1.0,1.0,33.1,33.1,33.1,2.5,2.8,2.5675,0.7958476735910028,-0.011279134890610951,0.5925255423127506,0.007814644385225885,-0.068019,-37.251784
11.185,2.0,1.0,1.0,33.1,33.1,33.1,2.5,2.8,2.57,0.7916202565195258,-0.01150540085227874,0.5980225060139195,0.007839194323874076,-0.068754,-37.125852
11.185,2.0,1.0,1.0,33.1,33.1,33.1,2.5,2.8,2.5725,0.787332806608888,-0.01173601166987119,0.603515469835527,0.007862401164509385,-0.069502,-36.999454
11.185,2.0,1.0,1.0,33.1,33.1,33.1,2.5,2.8,2.575,0.7829846471004147,-0.011971064100454405,0.6090040773918686,0.00788420211783796,-0.070266,-36.872579
11.185,2.0,1.0,1.0,33.1,33.1,33.1,2.5,2.8,2.5775,0.7785750896283183,-0.01221065752436808,0.614487960502701,0.007904531769777482,-0.071044,-36.745217
11.185,2.0,1.0,1.0,33.1,33.1,33.1,2.5,2.8,2.58,0.7741034340115394,-0.012454894027902928,0.6199667387793909,0.007923321962561946,-0.071837,-36.61736
11.185,2.0,1.0,1.0,33.1,33.1,33.1,2.5,2.8,2.5825,0.7695689680421582,-0.012703878488905217,0.6254400191956324,0.007940501669871,-0.072647,-36.488996
11.185,2.0,1.0,1.0,33.1,33.1,33.1,2.5,2.8,2.585,0.7649709672703634,-0.012957718665420202,0.6309073956420767,0.007955996865648133,-0.073472,-36.360115
11.185,2.0,1.0,1.0,33.1,33.1,33.1,2.5,2.8,2.5875,0.7603086947859483,-0.013216525287492004,0.6363684484642056,0.00796973038625031,-0.074314,-36.230707
11.185,2.0,1.0,1.0,33.1,33.1,33.1,2.5,2.8,2.59,0.7555814009963238,-0.013480412152240303,0.6418227439827222,0.007981621785552175,-0.075173,-36.100762
11.185,2.0,1.0,1.0,33.1,33.1,33.1,2.5,2.8,2.5925,0.750788323401025,-0.013749496222340563,0.6472698339957244,0.007991587182599649,-0.07605,-35.970269
11.185,2.0,1.0,1.0,33.1,33.1,33.1,2.5,2.8,2.595,0.7459286863627123,-0.014023897728037674,0.6527092552618609,0.007999539101385905,-0.076944,-35.839217
11.185,2.0,1.0,1.0,33.1,33.1,33.1,2.5,2.8,2.5975,0.7410017008746432,-0.014303740272829487,0.6581405289636607,0.008005386302292677,-0.077857,-35.707595
11.185,2.0,1.0,1.0,33.1,33.1,33.1,2.5,2.8,2.6,0.736006564324621,-0.014589150942960588,0.6635631601501575,0.00800903360471148,-0.078789,-35.575391
11.185,2.0,1.0,1.0,33.1,33.1,33.1,2.5,2.8,2.6025,0.730942460255424,-0.014880260420872387,0.6689766371579007,0.008010381700326847,-0.07974,-35.442595
11.185,2.0,1.0,1.0,33.1,33.1,33.1,2.5,2.8,2.605,0.7258085581217104,-0.015177203102760675,0.6743804310093975,0.008009326956511034,-0.080712,-35.309194
11.185,2.0,1.0,1.0,33.1,33.1,33.1,2.5,2.8,2.6075,0.7206040130434193,-0.015480117220398193,0.6797739947879758,0.008005761209241211,-0.081704,-35.175177
11.185,2.0,1.0,1.0,33.1,33.1,33.1,2.5,2.8,2.61,0.7153279655556859,-0.01578914496738321,0.6851567629880043,0.007999571544913276,-0.082717,-35.040531
11.185,2.0,1.0,1.0,33.1,33.1,33.1,2.5,2.8,2.6125,0.7099795413552893,-0.01610443262998362,0.6905281508393545,0.007990640070382695,-0.083752,-34.905245
11.185,2.0,1.0,1.0,33.1,33.1,33.1,2.5,2.8,2.615,0.7045578510436649,-0.016426130722749257,0.6958875536049304,0.007978843670518302,-0.08481,-34.769306
11.185,2.0,1.0,1.0,33.1,33.1,33.1,2.5,2.8,2.6175,0.6990619898665292,-0.01675439412907251,0.7012343458500159,0.007964053752506438,-0.08589,-34.632701
11.185,2.0,1.0,1.0,33.1,33.1,33.1,2.5,2.8,2.62,0.6934910374501564,-0.01708938224688236,0.7065678806821352,0.007946135976090882,-0.086995,-34.495416
11.185,2.0,1.0,1.0,33.1,33.1,33.1,2.5,2.8,2.6225,0.687844057534365,-0.017431259139662782,0.711887488960047,0.007924949968876802,-0.088124,-34.35744
11.185,2.0,1.0,1.0,33.1,33.1,33.1,2.5,2.8,2.625,0.682120097702294,-0.0177801936929929,0.717192478470403,0.00790034902576766,-0.089278,-34.218758
11.185,2.0,1.0,1.0,33.1,33.1,33.1,2.5,2.8,2.6275,0.6763181891070311,-0.01813635977681113,0.7224821330705399,0.007872179791537898,-0.090458,-34.079357
11.185,2.0,1.0,1.0,33.1,33.1,33.1,2.5,2.8,2.63,0.6704373461951993,-0.01849993641361106,0.7277557117957679,0.007840281925474597,-0.091665,-33.939222
11.185,2.0,1.0,1.0,33.1,33.1,33.1,2.5,2.8,2.6325,0.6644765664276002,-0.018871107952783895,0.733012447929434,0.00780448774694465,-0.092899,-33.79834
11.185,2.0,1.0,1.0,33.1,33.1,33.1,2.5,2.8,2.635,0.6584348299970391,-0.01925006425132412,0.7382515480339344,0.007764621860663183,-0.094162,-33.656695
11.185,2.0,1.0,1.0,33.1,33.1,33.1,2.5,2.8,2.6375,0.6523110995434728,-0.019637000861122633,0.7434721909407379,0.007720500760349823,-0.095454,-33.514273
11.185,2.0,1.0,1.0,33.1,33.1,33.1,2.5,2.8,2.64,0.6461043198666224,-0.020032119223075344,0.7486735266973832,0.0076719324093639804,-0.096776,-33.371059
11.185,2.0,1.0,1.0,33.1,33.1,33.1,2.5,2.8,2.6425,0.6398134176362463,-0.02043562686823798,0.753854675469267,0.007618715796807618,-0.09813,-33.227037
11.185,2.0,1.0,1.0,33.1,33.1,33.1,2.5,2.8,2.645,0.6334373011002549,-0.020847737626260743,0.7590147263939224,0.007560640467471995,-0.099516,-33.08219
11.185,2.0,1.0,1.0,33.1,33.1,33.1,2.5,2.8,2.6475,0.6269748597909033,-0.02126867184134108,0.764152736385336,0.007497486023883598,-0.100935,-32.936504
11.185,2.0,1.0,1.0,33.1,33.1,33.1,2.5,2.8,2.65,0.6204249642292918,-0.021698656595931096,0.7692677288857127,0.0074290215985746,-0.102388,-32.78996
11.185,2.0,1.0,1.0,33.1,33.1,33.1,2.5,2.8,2.6525,0.6137864656284798,-0.022137925942437093,0.7743586925619,0.007355005294560545,-0.103877,-32.642543
11.185,2.0,1.0,1.0,33.1,33.1,33.1,2.5,2.8,2.655,0.6070581955954971,-0.0225867211431493,0.7794245799435563,0.007275183591854106,-0.105402,-32.494235
11.185,2.0,1.0,1.0,33.1,33.1,33.1,2.5,2.8,2.6575,0.6002389658326148,-0.023045290918633318,0.7844643059998995,0.007189290717677445,-0.106966,-32.345018
11.185,2.0,1.0,1.0,33.1,33.1,33.1,2.5,2.8,2.66,0.5933275678382555,-0.02351389170481238,0.7894767466517202,0.007097047977854471,-0.108568,-32.194874
11.185,2.0,1.0,1.0,33.1,33.1,33.1,2.5,2.8,2.6625,0.586322772607979,-0.023992787918960184,0.7944607372150675,0.006998163046666226,-0.110211,-32.043784
11.185,2.0,1.0,1.0,33.1,33.1,33.1,2.5,2.8,2.665,0.5792233303360121,-0.02448225223481587,0.7994150707728315,0.006892329212240527,-0.111896,-31.89173
11.185,2.0,1.0,1.0,33.1,33.1,33.1,2.5,2.8,2.6675,0.572027970117868,-0.024982565867016353,0.8043384964701291,0.006779224574312334,-0.113624,-31.738691
11.185,2.0,1.0,1.0,33.1,33.1,33.1,2.5,2.8,2.67,0.5647353996546375,-0.025494018865026016,0.8092297177291662,0.0066585111909390204,-0.115397,-31.584649
11.185,2.0,1.0,1.0,33.1,33.1,33.1,2.5,2.8,2.6725,0.5573443049596114,-0.02601691041672176,0.8140873903789165,0.006529834170477744,-0.117216,-31.429581
11.185,2.0,1.0,1.0,33.1,33.1,33.1,2.5,2.8,2.675,0.5498533500679779,-0.026551549161762493,0.8189101206946331,0.006392820704831444,-0.119084,-31.273468
11.185,2.0,1.0,1.0,33.1,33.1,33.1,2.5,2.8,2.6775,0.5422611767503978,-0.027098253514841682,0.8236964633418523,0.00624707903964149,-0.121001,-31.116288
11.185,2.0,1.0,1.0,33.1,33.1,33.1,2.5,2.8,2.68,0.534566404231374,-0.02765735199887952,0.8284449192191625,0.00609219737674616,-0.12297,-30.958018
11.185,2.0,1.0,1.0,33.1,33.1,33.1,2.5,2.8,2.6825,0.5267676289134297,-0.028229183588163384,0.8331539331935758,0.005927742703832621,-0.124993,-30.798637
11.185,2.0,1.0,1.0,33.1,33.1,33.1,2.5,2.8,2.685,0.5188634241082131,-0.02881409806138932,0.83782189172189,0.005753259545781005,-0.127071,-30.63812
11.185,2.0,1.0,1.0,33.1,33.1,33.1,2.5,2.8,2.6875,0.5108523397757928,-0.029412456364485407,0.8424471203509252,0.0055682686317323005,-0.129207,-30.476444
11.185,2.0,1.0,1.0,33.1,33.1,33.1,2.5,2.8,2.69,0.5027329022735533,-0.030024630983019152,0.8470278810889584,0.005372265471395632,-0.131403,-30.313584
11.185,2.0,1.0,1.0,33.1,33.1,33.1,2.5,2.8,2.6925,0.4945036141162364,-0.030651006323894982,0.8515623696401061,0.005164718833550823,-0.133661,-30.149516
11.185,2.0,1.0,1.0,33.1,33.1,33.1,2.5,2.8,2.695,0.4861629537489129,-0.03129197910593098,0.8560487124927187,0.004945069119084532,-0.135983,-29.984213
11.185,2.0,1.0,1.0,33.1,33.1,33.1,2.5,2.8,2.6975,0.47770937533480534,-0.03194795875877738,0.8604849638521752,0.004712726620220021,-0.138373,-29.817649
11.185,2.0,1.0,1.0,33.1,33.1,33.1,2.5,2.8,2.7,0.46914130856019154,-0.03261936782947676,0.8648691024076431,0.004467069656859926,-0.140833,-29.649796
11.185,2.0,1.0,1.0,33.1,33.1,33.1,2.5,2.8,2.7025,0.46045715845882085,-0.033306642395788656,0.8691990279215521,0.004207442580140983,-0.143366,-29.480626
11.185,2.0,1.0,1.0,33.1,33.1,33.1,2.5,2.8,2.705,0.45165530525862235,-0.0340102324851836,0.8734725576295532,0.003933153632403723,-0.145974,-29.31011
11.185,2.0,1.0,1.0,33.1,33.1,33.1,2.5,2.8,2.7075,0.4427341042537921,-0.03473060249816723,0.8776874224377341,0.0036434726517874374,-0.148661,-29.138219
11.185,2.0,1.0,1.0,33.1,33.1,33.1,2.5,2.8,2.71,0.4336918857057604,-0.03546823163429881,0.881841262902706,0.003337628608572034,-0.151431,-28.964921
11.185,2.0,1.0,1.0,33.1,33.1,33.1,2.5,2.8,2.7125,0.4245269547769522,-0.03622361431893669,0.8859316249789407,0.0030148069591847157,-0.154286,-28.790185
11.185,2.0,1.0,1.0,33.1,33.1,33.1,2.5,2.8,2.715,0.4152375915017846,-0.03699726062834161,0.889955955516362,0.0026741468024611506,-0.15723,-28.613979
11.185,2.0,1.0,1.0,33.1,33.1,33.1,2.5,2.8,2.7175,0.40582205079988465,-0.03778969671031588,0.8939115974896756,0.0023147378212850433,-0.160268,-28.436268
11.185,2.0,1.0,1.0,33.1,33.1,33.1,2.5,2.8,2.72,0.3962785625372056,-0.038601465197016294,0.8977957849392577,0.0019356169911084562,-0.163404,-28.257018
11.185,2.0,1.0,1.0,33.1,33.1,33.1,2.5,2.8,2.7225,0.38660533164140576,-0.03943312560596061,0.9016056376015741,0.001535765035059472,-0.166641,-28.076194
11.185,2.0,1.0,1.0,33.1,33.1,33.1,2.5,2.8,2.725,0.37680053827878884,-0.04028525472451932,0.9053381552050588,0.001114102603359036,-0.169984,-27.893757
11.185,2.0,1.0,1.0,33.1,33.1,33.1,2.5,2.8,2.7275,0.36686233810099245,-0.04115844697234305,0.9089902114051331,0.0006694861525641657,-0.173439,-27.709671
11.185,2.0,1.0,1.0,33.1,33.1,33.1,2.5,2.8,2.73,0.35678886257083114,-0.04205331473519284,0.9125585473295287,0.0002007034977130043,-0.17701,-27.523896
11.185,2.0,1.0,1.0,33.1,33.1,33.1,2.5,2.8,2.7325,0.3465782193779136,-0.04297048866249656,0.9160397647023255,-0.00029353099226687133,-0.180703,-27.336392
11.185,2.0,1.0,1.0,33.1,33.1,33.1,2.5,2.8,2.735,0.33622849295621277,-0.04391061791962132,0.9194303185120163,-0.0008145815885385552,-0.184524,-27.147115
11.185,2.0,1.0,1.0,33.1,33.1,33.1,2.5,2.8,2.7375,0.32573774511743864,-0.04487437038429903,0.9227265091855108,-0.0013638968217304104,-0.188479,-26.956023
11.185,2.0,1.0,1.0,33.1,33.1,33.1,2.5,2.8,2.74,0.3151040158160923,-0.04586243277482602,0.9259244742261681,-0.0019430155664398926,-0.192575,-26.76307
11.185,2.0,1.0,1.0,33.1,33.1,33.1,2.5,2.8,2.7425,0.30432532406434687,-0.04687551069554632,0.9290201792697381,-0.002553573634761139,-0.196819,-26.568211
11.185,2.0,1.0,1.0,33.1,33.1,33.1,2.5,2.8,2.745,0.29339966901759784,-0.04791432858265224,0.9320094085073538,-0.003197310927364008,-0.201217,-26.371396
11.185,2.0,1.0,1.0,33.1,33.1,33.1,2.5,2.8,2.7475,0.282325031254605,-0.048979629530450396,0.9348877544194812,-0.0038760791958216555,-0.20578,-26.172577
11.185,2.0,1.0,1.0,33.1,33.1,33.1,2.5,2.8,2.75,0.271099374279742,-0.0500721749748584,0.937650606758847,-0.00459185047566038,-0.210513,-25.971701
11.185,2.0,1.0,1.0,33.1,33.1,33.1,2.5,2.8,2.7525,0.25972064627907254,-0.05119274420694235,0.9402931407138315,-0.0053467262560544316,-0.215428,-25.768714
11.185,2.0,1.0,1.0,33.1,33.1,33.1,2.5,2.8,2.755,0.24818678216685072,-0.05234213368466111,0.9428103041764717,-0.006142947459302819,-0.220534,-25.563561
11.185,2.0,1.0,1.0,33.1,33.1,33.1,2.5,2.8,2.7575,0.23649570596471167,-0.053521156105549035,0.9451968040310467,-0.006982905311302049,-0.225841,-25.356185
11.185,2.0,1.0,1.0,33.1,33.1,33.1,2.5,2.8,2.76,0.22464533356255173,-0.054730639196662045,0.9474470913700292,-0.007869153193259202,-0.23136,-25.146525
11.185,2.0,1.0,1.0,33.1,33.1,33.1,2.5,2.8,2.7625,0.21263357591782636,-0.055971424170604696,0.9495553455339347,-0.008804419575023694,-0.237104,-24.934519
11.185,2.0,1.0,1.0,33.1,33.1,33.1,2.5,2.8,2.765,0.20045834275921798,-0.05724436378759307,0.951515456860075,-0.009791622141757104,-0.243085,-24.720103
11.185,2.0,1.0,1.0,33.1,33.1,33.1,2.5,2.8,2.7675,0.18811754687136087,-0.05855031995307825,0.9533210080123307,-0.010833883238392432,-0.249318,-24.503209
11.185,2.0,1.0,1.0,33.1,33.1,33.1,2.5,2.8,2.77,0.1756091090499744,-0.059890160768130536,0.9549652537495813,-0.01193454677060091,-0.255817,-24.283768
11.185,2.0,1.0,1.0,33.1,33.1,33.1,2.5,2.8,2.7725,0.16293096383171005,-0.06126475693522341,0.9564410989741889,-0.013097196717000485,-0.262599,-24.061706
11.185,2.0,1.0,1.0,33.1,33.1,33.1,2.5,2.8,2.775,0.15008106612065059,-0.06267497740481838,0.957741074883731,-0.014325677425301275,-0.269681,-23.836949
11.185,2.0,1.0,1.0,33.1,33.1,33.1,2.5,2.8,2.7775,0.13705739885426418,-0.06412168412771829,0.9588573130287199,-0.015624115885236023,-0.277082,-23.609417
11.185,2.0,1.0,1.0,33.1,33.1,33.1,2.5,2.8,2.78,0.12385798187634142,-0.06560572575389516,0.9597815170561439,-0.016996946193719876,-0.284823,-23.379029
11.185,2.0,1.0,1.0,33.1,33.1,33.1,2.5,2.8,2.7825,0.11048088221383573,-0.06712793008965556,0.9605049318929549,-0.018448936453010448,-0.292926,-23.145698
11.185,2.0,1.0,1.0,33.1,33.1,33.1,2.5,2.8,2.785,0.09692422598936644,-0.06868909509065425,0.9610183100948518,-0.019985218371006794,-0.301414,-22.909336
11.185,2.0,1.0,1.0,33.1,33.1,33.1,2.5,2.8,2.7875,0.08318621224282949,-0.07028997812728574,0.961311875053497,-0.021611319864538136,-0.310314,-22.66985
11.185,2.0,1.0,1.0,33.1,33.1,33.1,2.5,2.8,2.79,0.06926512898511726,-0.07193128321002926,0.9613752807193411,-0.02333320100192495,-0.319655,-22.427142
11.185,2.0,1.0,1.0,33.1,33.1,33.1,2.5,2.8,2.7925,0.055159371866388314,-0.07361364580371399,0.9611975674571185,-0.025157293660547968,-0.329468,-22.181113
11.185,2.0,1.0,1.0,33.1,33.1,33.1,2.5,2.8,2.795,0.04086746591234569,-0.07533761478942799,0.9607671136065202,-0.02709054531900979,-0.339787,-21.931654
11.185,2.0,1.0,1.0,33.1,33.1,33.1,2.5,2.8,2.7975,0.02638809086744369,-0.07710363104840323,0.9600715822711955,-0.029140467451971606,-0.350648,-21.678657
11.185,2.0,1.0,1.0,33.1,33.1,33.1,2.5,2.8,2.8,0.011720110786423057,-0.0789120020407102,0.9590978628048388,-0.03131518904917907,-0.362093,-21.422006
11.185,2.0,1.0,1.0,33.1,33.1,33.1,2.5,2.8,2.8025,-0.0031373913607109327,-0.080762871629241,0.9578320064035725,-0.03362351583862245,-0.374167,-21.161579
11.185,2.0,1.0,1.0,33.1,33.1,33.1,2.5,2.8,2.805,-0.01818507315602154,-0.08265618425174229,0.9562591551491675,-0.03607499585715063,-0.386918,-20.897252
11.185,2.0,1.0,1.0,33.1,33.1,33.1,2.5,2.8,2.8075,-0.03342328517866337,-0.08459164236500945,0.9543634637781956,-0.0386799920798215,-0.400401,-20.628891
11.185,2.0,1.0,1.0,33.1,33.1,33.1,2.5,2.8,2.81,-0.04885201511452409,-0.08656865586889369,0.9521280133787824,-0.04144976289097879,-0.414675,-20.356359
11.185,2.0,1.0,1.0,33.1,33.1,33.1,2.5,2.8,2.8125,-0.0644708219523036,-0.0885862819550842,0.94953471614064,-0.0443965512540654,-0.429808,-20.079512
11.185,2.0,1.0,1.0,33.1,33.1,33.1,2.5,2.8,2.815,-0.08027875836573901,-0.09064315350630914,0.9465642102078563,-0.04753368351111493,-0.445872,-19.798198
11.185,2.0,1.0,1.0,33.1,33.1,33.1,2.5,2.8,2.8175,-0.09627427898946322,-0.09273739378283744,0.9431957436112227,-0.050875678812950346,-0.462949,-19.512258
11.185,2.0,1.0,1.0,33.1,33.1,33.1,2.5,2.8,2.82,-0.1124551318178688,-0.09486651465917577,0.9394070461933364,-0.05443837024170126,-0.48113,-19.221529
11.185,2.0,1.0,1.0,33.1,33.1,33.1,2.5,2.8,2.8225,-0.12881822937267748,-0.09702729509522852,0.935174188393644,-0.058239038729931955,-0.500517,-18.925837
11.185,2.0,1.0,1.0,33.1,33.1,33.1,2.5,2.8,2.825,-0.1453594955715622,-0.09921563581902834,0.930471425744234,-0.0622965608932273,-0.521222,-18.625002
11.185,2.0,1.0,1.0,33.1,33.1,33.1,2.5,2.8,2.8275,-0.16207368335760416,-0.10142638533318168,0.9252710279581281,-0.06663157185785579,-0.543373,-18.318834
