1,w,sub_t,h,l1,l2,l3,g1,g2,Freq,S11_re,S21_re,S11_img,S21_img,S11_dB,S21_dB
11.185,2.0,1.0,1.0,34.0,33.2,33.2,3.5,4.4,2.5,0.78604993798134,-0.00638309923188912,0.607665140649924,0.00300764190366126,-0.05625,-43.02859
11.185,2.0,1.0,1.0,34.0,33.2,33.2,3.5,4.4,2.5025,0.7815796592156035,-0.006490936318460223,0.6133079929348813,0.0029923682313645473,-0.056769,-42.916937
11.185,2.0,1.0,1.0,34.0,33.2,33.2,3.5,4.4,2.505,0.7770476539300163,-0.00660023864460624,0.6189431112210648,0.002975888448667087,-0.057297,-42.805108
11.185,2.0,1.0,1.0,34.0,33.2,33.2,3.5,4.4,2.5075,0.772453334809437,-0.0067110240609594045,0.6245700578769598,0.0029581672499908,-0.057832,-42.693098
11.185,2.0,1.0,1.0,34.0,33.2,33.2,3.5,4.4,2.51,0.7677961074359902,-0.006823310555022077,0.6301883830969468,0.002939168317728864,-0.058376,-42.580902
11.185,2.0,1.0,1.0,34.0,33.2,33.2,3.5,4.4,2.5125,0.7630753702612906,-0.006937116245909805,0.63579762455455,0.002918854291301636,-0.058929,-42.468515
11.185,2.0,1.0,1.0,34.0,33.2,33.2,3.5,4.4,2.515,0.758290514582207,-0.0070524593786171225,0.6413973070461675,0.0028971867352192236,-0.059491,-42.355931
11.185,2.0,1.0,1.0,34.0,33.2,33.2,3.5,4.4,2.5175,0.7534409245204288,-0.007169358317777854,0.6469869421250272,0.002874126106117761,-0.060062,-42.243146
11.185,2.0,1.0,1.0,34.0,33.2,33.2,3.5,4.4,2.52,0.7485259770060692,-0.007287831540890723,0.6525660277251344,0.0028496317187349726,-0.060643,-42.130152
11.185,2.0,1.0,1.0,34.0,33.2,33.2,3.5,4.4,2.5225,0.7435450417655943,-0.007407897630978931,0.6581340477749328,0.002823661710790342,-0.061232,-42.016946
11.185,2.0,1.0,1.0,34.0,33.2,33.2,3.5,4.4,2.525,0.738497481314342,-0.007529575268651803,0.663690471800442,0.0027961730067330385,-0.061832,-41.903522
11.185,2.0,1.0,1.0,34.0,33.2,33.2,3.5,4.4,2.5275,0.7333826509539302,-0.007652883223533411,0.6692347545175962,0.0027671212803200315,-0.062441,-41.789873
11.185,2.0,1.0,1.0,34.0,33.2,33.2,3.5,4.4,2.53,0.7281998987748698,-0.0077778403450226834,0.6747663354135135,0.002736460915985801,-0.06306,-41.675996
11.185,2.0,1.0,1.0,34.0,33.2,33.2,3.5,4.4,2.5325,0.722948565664702,-0.00790446555234625,0.680284638316425,0.0027041449689630247,-0.06369,-41.561883
11.185,2.0,1.0,1.0,34.0,33.2,33.2,3.5,4.4,2.535,0.7176279853219982,-0.00803277782386481,0.6857890709539886,0.002670125124112902,-0.06433,-41.44753
11.185,2.0,1.0,1.0,34.0,33.2,33.2,3.5,4.4,2.5375,0.7122374842765912,-0.008162796185589878,0.6912790244996939,0.0026343516534220444,-0.064981,-41.33293
11.185,2.0,1.0,1.0,34.0,33.2,33.2,3.5,4.4,2.54,0.7067763819164009,-0.008294539698867237,0.6967538731070829,0.0025967733721215785,-0.065643,-41.21808
11.185,2.0,1.0,1.0,34.0,33.2,33.2,3.5,4.4,2.5425,0.7012439905212541,-0.008428027447179798,0.7022129734314873,0.002557337593382491,-0.066316,-41.102971
11.185,2.0,1.0,1.0,34.0,33.2,33.2,3.5,4.4,2.545,0.695639615304109,-0.008563278522021125,0.7076556641389926,0.0025159900815396215,-0.067,-40.9876
11.185,2.0,1.0,1.0,34.0,33.2,33.2,3.5,4.4,2.5475,0.6899625544601224,-0.008700312007787049,0.7130812654023182,0.002472675003795457,-0.067696,-40.87196
11.185,2.0,1.0,1.0,34.0,33.2,33.2,3.5,4.4,2.55,0.6842120992239987,-0.008839146965631681,0.718489078383332,0.0024273348803526967,-0.068404,-40.756045
11.185,2.0,1.0,1.0,34.0,33.2,33.2,3.5,4.4,2.5525,0.6783875339361164,-0.00897980241622938,0.7238783847018628,0.0023799105329233576,-0.069124,-40.63985
11.185,2.0,1.0,1.0,34.0,33.2,33.2,3.5,4.4,2.555,0.6724881361179108,-0.009122297321383015,0.7292484458905283,0.0023303410315600607,-0.069857,-40.523369
11.185,2.0,1.0,1.0,34.0,33.2,33.2,3.5,4.4,2.5575,0.6665131765570411,-0.00926665056441431,0.7345985028352526,0.0022785636397532217,-0.070602,-40.406596
11.185,2.0,1.0,1.0,34.0,33.2,33.2,3.5,4.4,2.56,0.6604619194028909,-0.009412880929269384,0.7399277752011589,0.0022245137577366204,-0.07136,-40.289525
11.185,2.0,1.0,1.0,34.0,33.2,33.2,3.5,4.4,2.5625,0.6543336222729678,-0.009561007078268773,0.7452354608435194,0.0021681248639407917,-0.072131,-40.172151
11.185,2.0,1.0,1.0,34.0,33.2,33.2,3.5,4.4,2.565,0.6481275363707991,-0.009711047528427913,0.7505207352034523,0.0021093284545326283,-0.072916,-40.054466
11.185,2.0,1.0,1.0,34.0,33.2,33.2,3.5,4.4,2.5675,0.6418429066159581,-0.009863020626269271,0.7557827506880278,0.002048053980976867,-0.073714,-39.936465
11.185,2.0,1.0,1.0,34.0,33.2,33.2,3.5,4.4,2.57,0.635478971786865,-0.01001694452104436,0.7610206360344768,0.001984228785553191,-0.074527,-39.818142
11.185,2.0,1.0,1.0,34.0,33.2,33.2,3.5,4.4,2.5725,0.6290349646770514,-0.010172837136278546,0.7662334956581756,0.0019177780347602307,-0.075354,-39.699491
11.185,2.0,1.0,1.0,34.0,33.2,33.2,3.5,4.4,2.575,0.6225101122656033,-0.010330716139547287,0.771420408984082,0.0018486246505355123,-0.076196,-39.580506
11.185,2.0,1.0,1.0,34.0,33.2,33.2,3.5,4.4,2.5775,0.6159036359025337,-0.01049059891038807,0.7765804297613049,0.00177668923921793,-0.077053,-39.461179
11.185,2.0,1.0,1.0,34.0,33.2,33.2,3.5,4.4,2.58,0.6092147515098666,-0.010652502506246168,0.7817125853604812,0.0017018900181767732,-0.077925,-39.341506
11.185,2.0,1.0,1.0,34.0,33.2,33.2,3.5,4.4,2.5825,0.6024426697992464,-0.010816443626348303,0.7868158760536547,0.0016241427400285808,-0.078813,-39.221479
11.185,2.0,1.0,1.0,34.0,33.2,33.2,3.5,4.4,2.585,0.5955865965069348,-0.010982438573391517,0.7918892742763275,0.001543360614360467,-0.079717,-39.101093
11.185,2.0,1.0,1.0,34.0,33.2,33.2,3.5,4.4,2.5875,0.5886457326470756,-0.011150503212929444,0.7969317238713864,0.0014594542268757669,-0.080637,-38.98034
11.185,2.0,1.0,1.0,34.0,33.2,33.2,3.5,4.4,2.59,0.581619274784177,-0.01132065293033087,0.8019421393145847,0.0013723314558745216,-0.081574,-38.859214
11.185,2.0,1.0,1.0,34.0,33.2,33.2,3.5,4.4,2.5925,0.5745064153257652,-0.011492902585180756,0.806919404921294,0.0012818973859788391,-0.082528,-38.737709
11.185,2.0,1.0,1.0,34.0,33.2,33.2,3.5,4.4,2.595,0.56730634283625,-0.011667266462983883,0.8118623740342098,0.0011880542190092725,-0.0835,-38.615818
11.185,2.0,1.0,1.0,34.0,33.2,33.2,3.5,4.4,2.5975,0.5600182423730359,-0.011843758224027778,0.8167698681917533,0.0010907011819154737,-0.08449,-38.493533
11.185,2.0,1.0,1.0,34.0,33.2,33.2,3.5,4.4,2.6,0.5526412958460039,-0.012022390849249956,0.8216406762768679,0.0009897344316606173,-0.085498,-38.370849
11.185,2.0,1.0,1.0,34.0,33.2,33.2,3.5,4.4,2.6025,0.545174682401519,-0.012203176582949345,0.8264735536459494,0.0008850469569555162,-0.086525,-38.247758
11.185,2.0,1.0,1.0,34.0,33.2,33.2,3.5,4.4,2.605,0.5376175788321532,-0.01238612687217137,0.8312672212376683,0.0007765284767345238,-0.087571,-38.124253
11.185,2.0,1.0,1.0,34.0,33.2,33.2,3.5,4.4,2.6075,0.5299691600133948,-0.01257125230258782,0.8360203646614198,0.0006640653352612749,-0.088637,-38.000328
11.185,2.0,1.0,1.0,34.0,33.2,33.2,3.5,4.4,2.61,0.5222285993686455,-0.01275856253068239,0.8407316332651945,0.0005475403937481346,-0.089723,-37.875974
11.185,2.0,1.0,1.0,34.0,33.2,33.2,3.5,4.4,2.6125,0.5143950693638727,-0.01294806621204378,0.8453996391826425,0.00042683291836887827,-0.09083,-37.751185
11.185,2.0,1.0,1.0,34.0,33.2,33.2,3.5,4.4,2.615,0.5064677420333277,-0.013139770925555603,0.8500229563591524,0.00030181846453909006,-0.091957,-37.625953
11.185,2.0,1.0,1.0,34.0,33.2,33.2,3.5,4.4,2.6175,0.49844578953782687,-0.013333683093263287,0.854600119556764,0.00017236875733492876,-0.093107,-37.500272
11.185,2.0,1.0,1.0,34.0,33.2,33.2,3.5,4.4,2.62,0.49032838475712187,-0.013529807895683765,0.859129623337766,3.835156791436569e-05,-0.094278,-37.374132
11.185,2.0,1.0,1.0,34.0,33.2,33.2,3.5,4.4,2.6225,0.4821147019179648,-0.013728149182313291,0.8636099210268592,-0.00010036941419907036,-0.095472,-37.247528
11.185,2.0,1.0,1.0,34.0,33.2,33.2,3.5,4.4,2.625,0.473803917259552,-0.0139287093770732,0.868039423651772,-0.000243934713116425,-0.096689,-37.120451
11.185,2.0,1.0,1.0,34.0,33.2,33.2,3.5,4.4,2.6275,0.46539520973805654,-0.014131489378421014,0.8724164988622815,-0.00039248920301973973,-0.097929,-36.992892
11.185,2.0,1.0,1.0,34.0,33.2,33.2,3.5,4.4,2.63,0.4568877617720801,-0.014336488453837733,0.8767394698275741,-0.0005461822491928943,-0.099194,-36.864845
11.185,2.0,1.0,1.0,34.0,33.2,33.2,3.5,4.4,2.6325,0.44828076003088013,-0.014543704128387371,0.8810066141119742,-0.0007051678538125967,-0.100484,-36.736302
11.185,2.0,1.0,1.0,34.0,33.2,33.2,3.5,4.4,2.635,0.43957339626733993,-0.014753132067026787,0.8852161625290423,-0.0008696048066715583,-0.101799,-36.607253
11.185,2.0,1.0,1.0,34.0,33.2,33.2,3.5,4.4,2.6375,0.4307648681977038,-0.01496476595032667,0.8893662979741371,-0.0010396568410139658,-0.103141,-36.47769
11.185,2.0,1.0,1.0,34.0,33.2,33.2,3.5,4.4,2.64,0.4218543804301631,-0.015178597343245089,0.8934551542355659,-0.0012154927946715307,-0.104509,-36.347606
11.185,2.0,1.0,1.0,34.0,33.2,33.2,3.5,4.4,2.6425,0.41284114544451156,-0.015394615556574872,0.897480814784462,-0.0013972867766964602,-0.105904,-36.216991
11.185,2.0,1.0,1.0,34.0,33.2,33.2,3.5,4.4,2.645,0.40372438462510574,-0.015612807500664485,0.9014413115436317,-0.0015852183396971244,-0.107327,-36.085838
11.185,2.0,1.0,1.0,34.0,33.2,33.2,3.5,4.4,2.6475,0.3945033293495071,-0.01583315753098895,0.9053346236356222,-0.0017794726580924417,-0.10878,-35.954136
11.185,2.0,1.0,1.0,34.0,33.2,33.2,3.5,4.4,2.65,0.38517722213521494,-0.016055647285123792,0.9091586761103578,-0.001980240712510734,-0.110261,-35.821877
11.185,2.0,1.0,1.0,34.0,33.2,33.2,3.5,4.4,2.6525,0.3757453178470618,-0.016280255510647507,0.9129113386527066,-0.002187719480570369,-0.111773,-35.689052
11.185,2.0,1.0,1.0,34.0,33.2,33.2,3.5,4.4,2.655,0.3662068849678458,-0.016506957883472003,0.9165904242704641,-0.0024021121342920754,-0.113316,-35.555651
11.185,2.0,1.0,1.0,34.0,33.2,33.2,3.5,4.4,2.6575,0.3565612069349444,-0.01673572681607006,0.92019368796326,-0.0026236282444047445,-0.114891,-35.421666
11.185,2.0,1.0,1.0,34.0,33.2,33.2,3.5,4.4,2.66,0.34680758354569885,-0.01696653125503703,0.923718825373008,-0.0028524839918218654,-0.116498,-35.287085
11.185,2.0,1.0,1.0,34.0,33.2,33.2,3.5,4.4,2.6625,0.3369453324345023,-0.01719933646739106,0.9271634714165558,-0.0030889023865792614,-0.118138,-35.1519
11.185,2.0,1.0,1.0,34.0,33.2,33.2,3.5,4.4,2.665,0.3269737906245565,-0.01743410381497966,0.9305251989013471,-0.003333113494542932,-0.119813,-35.0161
11.185,2.0,1.0,1.0,34.0,33.2,33.2,3.5,4.4,2.6675,0.3168923161574623,-0.017670790516321568,0.9338015171248932,-0.0035853546722113766,-0.121524,-34.879675
11.185,2.0,1.0,1.0,34.0,33.2,33.2,3.5,4.4,2.67,0.3067002898038036,-0.017909349395171942,0.9369898704590801,-0.00384587080995772,-0.12327,-34.742615
11.185,2.0,1.0,1.0,34.0,33.2,33.2,3.5,4.4,2.6725,0.2963971168580799,-0.018149728615054032,0.9400876369202971,-0.004114914584076765,-0.125053,-34.604909
11.185,2.0,1.0,1.0,34.0,33.2,33.2,3.5,4.4,2.675,0.28598222902140386,-0.01839187139895313,0.9430921267265974,-0.0043927467180240225,-0.126875,-34.466545
11.185,2.0,1.0,1.0,34.0,33.2,33.2,3.5,4.4,2.6775,0.27545508637550153,-0.018635715733316818,0.9460005808431403,-0.004679636253259642,-0.128735,-34.327514
11.185,2.0,1.0,1.0,34.0,33.2,33.2,3.5,4.4,2.68,0.2648151794516621,-0.01888119405545079,0.9488101695173173,-0.004975860830135402,-0.130636,-34.187803
11.185,2.0,1.0,1.0,34.0,33.2,33.2,3.5,4.4,2.6825,0.2540620313984162,-0.019128232923338855,0.9515179908050624,-0.005281706979292365,-0.132578,-34.0474
11.185,2.0,1.0,1.0,34.0,33.2,33.2,3.5,4.4,2.685,0.24319520025180438,-0.019376752666852973,0.9541210690900062,-0.00559747042406852,-0.134563,-33.906295
11.185,2.0,1.0,1.0,34.0,33.2,33.2,3.5,4.4,2.6875,0.23221428131223346,-0.019626667019248034,0.956616353597252,-0.005923456394450145,-0.13659,-33.764474
11.185,2.0,1.0,1.0,34.0,33.2,33.2,3.5,4.4,2.69,0.22111890963205932,-0.019877882727761264,0.9590007169036809,-0.006259979953137288,-0.138663,-33.621926
11.185,2.0,1.0,1.0,34.0,33.2,33.2,3.5,4.4,2.6925,0.2099087626180945,-0.02013029914205557,0.9612709534468713,-0.006607366334336843,-0.140782,-33.478637
11.185,2.0,1.0,1.0,34.0,33.2,33.2,3.5,4.4,2.695,0.19858356275344397,-0.02038380777915519,0.9634237780348397,-0.006965951295939308,-0.142948,-33.334595
11.185,2.0,1.0,1.0,34.0,33.2,33.2,3.5,4.4,2.6975,0.1871430804431041,-0.02063829186342863,0.9654558243589937,-0.007336081485786694,-0.145163,-33.189785
11.185,2.0,1.0,1.0,34.0,33.2,33.2,3.5,4.4,2.7,0.17558713698797582,-0.020893625840066318,0.9673636435128322,-0.007718114822791282,-0.147428,-33.044195
11.185,2.0,1.0,1.0,34.0,33.2,33.2,3.5,4.4,2.7025,0.1639156076919984,-0.021149674860388417,0.9691437025191079,-0.008112420893725637,-0.149744,-32.89781
11.185,2.0,1.0,1.0,34.0,33.2,33.2,3.5,4.4,2.705,0.15212842510729566,-0.021406294237191988,0.9707923828683258,-0.0085193813665675,-0.152113,-32.750615
11.185,2.0,1.0,1.0,34.0,33.2,33.2,3.5,4.4,2.7075,0.14022558242230088,-0.021663328868211124,0.9723059790716724,-0.008939390421356145,-0.154537,-32.602596
11.185,2.0,1.0,1.0,34.0,33.2,33.2,3.5,4.4,2.71,0.1282071369980384,-0.021920612625614632,0.9736806972315684,-0.009372855199592939,-0.157017,-32.453737
11.185,2.0,1.0,1.0,34.0,33.2,33.2,3.5,4.4,2.7125,0.11607321405779294,-0.022177967709301565,0.9749126536333181,-0.009820196273307021,-0.159556,-32.304023
11.185,2.0,1.0,1.0,34.0,33.2,33.2,3.5,4.4,2.715,0.10382401053560014,-0.022435203961576396,0.9759978733614478,-0.010281848134999029,-0.162153,-32.153436
11.185,2.0,1.0,1.0,34.0,33.2,33.2,3.5,4.4,2.7175,0.09145979908912796,-0.02269211814058673,0.9769322889445191,-0.010758259709781353,-0.164812,-32.001962
11.185,2.0,1.0,1.0,34.0,33.2,33.2,3.5,4.4,2.72,0.07898093228263207,-0.022948493149690562,0.9777117390324467,-0.011249894891145407,-0.167535,-31.849582
11.185,2.0,1.0,1.0,34.0,33.2,33.2,3.5,4.4,2.7225,0.0663878469458806,-0.02320409721967926,0.9783319671104352,-0.01175723310191458,-0.170323,-31.696278
11.185,2.0,1.0,1.0,34.0,33.2,33.2,3.5,4.4,2.725,0.053681068715080514,-0.02345868304051734,0.9787886202539359,-0.012280769882075283,-0.173178,-31.542032
11.185,2.0,1.0,1.0,34.0,33.2,33.2,3.5,4.4,2.7275,0.0408612167619761,-0.02371198683896889,0.9790772479291366,-0.012821017505334568,-0.176103,-31.386826
11.185,2.0,1.0,1.0,34.0,33.2,33.2,3.5,4.4,2.73,0.027929008717568267,-0.023963727398153417,0.9791933008436768,-0.01337850562641544,-0.1791,-31.230639
11.185,2.0,1.0,1.0,34.0,33.2,33.2,3.5,4.4,2.7325,0.01488526579700544,-0.024213605014716515,0.9791321298524605,-0.013953781961287652,-0.18217,-31.073452
11.185,2.0,1.0,1.0,34.0,33.2,33.2,3.5,4.4,2.735,0.0017309181324578725,-0.0244613003888987,0.9788889849235833,-0.014547413002731064,-0.185318,-30.915244
11.185,2.0,1.0,1.0,34.0,33.2,33.2,3.5,4.4,2.7375,-0.01153298967898225,-0.024706473442342832,0.9784590141695054,-0.015159984773852055,-0.188544,-30.755992
11.185,2.0,1.0,1.0,34.0,33.2,33.2,3.5,4.4,2.74,-0.024905292805075186,-0.02494876205798339,0.9778372629487387,-0.01579210362241656,-0.191852,-30.595676
11.185,2.0,1.0,1.0,34.0,33.2,33.2,3.5,4.4,2.7425,-0.03838470017830885,-0.025187780735808917,0.9770186730433953,-0.016444397059132823,-0.195244,-30.43427
11.185,2.0,1.0,1.0,34.0,33.2,33.2,3.5,4.4,2.745,-0.051969788257988966,-0.02542311915767144,0.9759980819180352,-0.017117514643310697,-0.198724,-30.271752
11.185,2.0,1.0,1.0,34.0,33.2,33.2,3.5,4.4,2.7475,-0.06565899454625147,-0.025654340653624867,0.9747702220652333,-0.01781212891964948,-0.202295,-30.108096
11.185,2.0,1.0,1.0,34.0,33.2,33.2,3.5,4.4,2.75,-0.0794506108493562,-0.0258809805615013,0.973329720443354,-0.0185289364102627,-0.205959,-29.943277
11.185,2.0,1.0,1.0,34.0,33.2,33.2,3.5,4.4,2.7525,-0.09334277627512542,-0.026102544470565668,0.9716710980119236,-0.019268658666439644,-0.20972,-29.777267
11.185,2.0,1.0,1.0,34.0,33.2,33.2,3.5,4.4,2.755,-0.10733346995681628,-0.026318506339112865,0.9697887693699093,-0.02003204338507204,-0.213582,-29.610039
11.185,2.0,1.0,1.0,34.0,33.2,33.2,3.5,4.4,2.7575,-0.1214205034932083,-0.0265283064747766,0.9676770425020866,-0.020819865595149433,-0.217547,-29.441563
11.185,2.0,1.0,1.0,34.0,33.2,33.2,3.5,4.4,2.76,-0.13560151309379764,-0.026731349365081324,0.965330118638424,-0.021632928920239047,-0.221621,-29.27181
11.185,2.0,1.0,1.0,34.0,33.2,33.2,3.5,4.4,2.7625,-0.14987395141731935,-0.026927001344376304,0.9627420922311485,-0.022472066923438252,-0.225807,-29.100747
11.185,2.0,1.0,1.0,34.0,33.2,33.2,3.5,4.4,2.765,-0.16423507909074495,-0.027114588081717027,0.9599069510538003,-0.02333814454190391,-0.23011,-28.928342
11.185,2.0,1.0,1.0,34.0,33.2,33.2,3.5,4.4,2.7675,-0.17868195589475805,-0.02729339187247877,0.9568185764260749,-0.024232059618744792,-0.234533,-28.75456
11.185,2.0,1.0,1.0,34.0,33.2,33.2,3.5,4.4,2.77,-0.193211431600447,-0.027462648714472154,0.9534707435677457,-0.02515474454080527,-0.239082,-28.579366
11.185,2.0,1.0,1.0,34.0,33.2,33.2,3.5,4.4,2.7725,-0.20782013644027614,-0.027621545147044988,0.9498571220842302,-0.026107167991676446,-0.243762,-28.402722
11.185,2.0,1.0,1.0,34.0,33.2,33.2,3.5,4.4,2.775,-0.22250447119468197,-0.027769214829059582,0.9459712765856086,-0.027090336830155735,-0.248579,-28.22459
11.185,2.0,1.0,1.0,34.0,33.2,33.2,3.5,4.4,2.7775,-0.23726059687332118,-0.02790473482868339,0.941806667439916,-0.02810529810533483,-0.253537,-28.044928
11.185,2.0,1.0,1.0,34.0,33.2,33.2,3.5,4.4,2.78,-0.2520844239676421,-0.02802712159457259,0.9373566516604951,-0.029153141220538113,-0.258643,-27.863693
11.185,2.0,1.0,1.0,34.0,33.2,33.2,3.5,4.4,2.7825,-0.2669716012482516,-0.02813532657419437,0.9326144839259076,-0.030235000259461225,-0.263902,-27.680842
11.185,2.0,1.0,1.0,34.0,33.2,33.2,3.5,4.4,2.785,-0.28191750407728056,-0.028228231440661986,0.9275733177295219,-0.031352056489081494,-0.269323,-27.496326
11.185,2.0,1.0,1.0,34.0,33.2,33.2,3.5,4.4,2.7875,-0.29691722220157424,-0.02830464288445088,0.9222262066542665,-0.03250554105521733,-0.274912,-27.310097
11.185,2.0,1.0,1.0,34.0,33.2,33.2,3.5,4.4,2.79,-0.31196554698793333,-0.028363286920637575,0.9165661057662873,-0.03369673788802475,-0.280677,-27.122103
11.185,2.0,1.0,1.0,34.0,33.2,33.2,3.5,4.4,2.7925,-0.3270569580557605,-0.02840280265572847,0.9105858731192511,-0.03492698683621113,-0.286625,-26.93229
11.185,2.0,1.0,1.0,34.0,33.2,33.2,3.5,4.4,2.795,-0.34218560925592467,-0.02842173545059982,0.904278271358848,-0.03619768705033959,-0.292766,-26.740602
11.185,2.0,1.0,1.0,34.0,33.2,33.2,3.5,4.4,2.7975,-0.35734531393674984,-0.02841852940738181,0.8976359694147231,-0.037510300637257084,-0.299108,-26.546977
11.185,2.0,1.0,1.0,34.0,33.2,33.2,3.5,4.4,2.8,-0.37252952942890627,-0.02839151909811284,0.89065154426444,-0.038866356609424585,-0.305662,-26.351354
11.185,2.0,1.0,1.0,34.0,33.2,33.2,3.5,4.4,2.8025,-0.3877313406702051,-0.02833892044143466,0.883317482751394,-0.040267455154705936,-0.312438,-26.153666
11.185,2.0,1.0,1.0,34.0,33.2,33.2,3.5,4.4,2.805,-0.4029434428786456,-0.028258820620242587,0.875626183435684,-0.041715272253974006,-0.319447,-25.953844
11.185,2.0,1.0,1.0,34.0,33.2,33.2,3.5,4.4,2.8075,-0.41815812316725737,-0.028149166917730294,0.8675699584539499,-0.04321156467567314,-0.326702,-25.751812
11.185,2.0,1.0,1.0,34.0,33.2,33.2,3.5,4.4,2.81,-0.4333672409769963,-0.028007754331319915,0.8591410353611204,-0.04475817537816732,-0.334216,-25.547495
11.185,2.0,1.0,1.0,34.0,33.2,33.2,3.5,4.4,2.8125,-0.448562207183405,-0.0278322118030982,0.850331558923983,-0.0463570393522293,-0.342003,-25.34081
11.185,2.0,1.0,1.0,34.0,33.2,33.2,3.5,4.4,2.815,-0.46373396170895653,-0.02761998688108289,0.8411335928335242,-0.04801018993728114,-0.350078,-25.13167
11.185,2.0,1.0,1.0,34.0,33.2,33.2,3.5,4.4,2.8175,-0.47887294944482806,-0.027368328597290784,0.8315391213003416,-0.049719765645817676,-0.358457,-24.919984
11.185,2.0,1.0,1.0,34.0,33.2,33.2,3.5,4.4,2.82,-0.49396909425277197,-0.02707426831543766,0.8215400504951909,-0.05148801753064851,-0.367159,-24.705655
11.185,2.0,1.0,1.0,34.0,33.2,33.2,3.5,4.4,2.8225,-0.5090117707788385,-0.026734598262283114,0.8111282097952011,-0.05331731712890404,-0.376203,-24.488581
11.185,2.0,1.0,1.0,34.0,33.2,33.2,3.5,4.4,2.825,-0.5239897737648371,-0.026345847411072234,0.8002953527958101,-0.05521016501482388,-0.385609,-24.268653
11.185,2.0,1.0,1.0,34.0,33.2,33.2,3.5,4.4,2.8275,-0.5388912844893113,-0.025904254331944803,0.7890331580494431,-0.05716919998971151,-0.395401,-24.045757
