1,w,sub_t,h,l1,l2,l3,g1,g2,Freq,S11_re,S21_re,S11_img,S21_img,S11_dB,S21_dB
11.185,2.0,1.0,1.0,33.2,33.6,33.6,3.0,4.0,2.5,0.882011859419232,-0.00502045741632498,0.45852566028443,0.00422352311336297,-0.051592,-43.660961
11.185,2.0,1.0,1.0,33.2,33.6,33.6,3.0,4.0,2.5025,0.8790435009565298,-0.005122429831288282,0.4640821440278901,0.004242581604856712,-0.052036,-43.541968
11.185,2.0,1.0,1.0,33.2,33.6,33.6,3.0,4.0,2.505,0.8760279247292968,-0.0052261351253395805,0.4696404510688536,0.004261148541663387,-0.052487,-43.422762
11.185,2.0,1.0,1.0,33.2,33.6,33.6,3.0,4.0,2.5075,0.8729646817265265,-0.005331605567712894,0.47520040678235637,0.00427920358390832,-0.052946,-43.303336
11.185,2.0,1.0,1.0,33.2,33.6,33.6,3.0,4.0,2.51,0.8698533156974432,-0.005438874188262992,0.4807618311909826,0.004296725678895468,-0.053412,-43.18368
11.185,2.0,1.0,1.0,33.2,33.6,33.6,3.0,4.0,2.5125,0.866693363028496,-0.005547974798846205,0.4863245387872164,0.004313693033525982,-0.053886,-43.063788
11.185,2.0,1.0,1.0,33.2,33.6,33.6,3.0,4.0,2.515,0.8634843526183611,-0.00565894201539744,0.4918883383499595,0.0043300830855319255,-0.054368,-42.943651
11.185,2.0,1.0,1.0,33.2,33.6,33.6,3.0,4.0,2.5175,0.8602258057509392,-0.005771811280728941,0.49745303275499675,0.004345872473468173,-0.054858,-42.823261
11.185,2.0,1.0,1.0,33.2,33.6,33.6,3.0,4.0,2.52,0.8569172359663122,-0.005886618888078445,0.5030184187792082,0.004361037005402309,-0.055356,-42.702609
11.185,2.0,1.0,1.0,33.2,33.6,33.6,3.0,4.0,2.5225,0.8535581489296568,-0.006003402005434943,0.5085842868982835,0.0043755516262388916,-0.055863,-42.581688
11.185,2.0,1.0,1.0,33.2,33.6,33.6,3.0,4.0,2.525,0.8501480422980774,-0.006122198700671797,0.5141504210777254,0.004389390383611593,-0.056378,-42.460489
11.185,2.0,1.0,1.0,33.2,33.6,33.6,3.0,4.0,2.5275,0.8466864055853476,-0.00624304796751804,0.519716598556894,0.004402526392272164,-0.056902,-42.339004
11.185,2.0,1.0,1.0,33.2,33.6,33.6,3.0,4.0,2.53,0.8431727200245389,-0.006365989752400337,0.5252825896258349,0.004414931796902037,-0.057436,-42.217225
11.185,2.0,1.0,1.0,33.2,33.6,33.6,3.0,4.0,2.5325,0.839606458428517,-0.0064910649821889365,0.5308481573946324,0.004426577733267809,-0.057978,-42.095142
11.185,2.0,1.0,1.0,33.2,33.6,33.6,3.0,4.0,2.535,0.8359870850482899,-0.006618315592883193,0.5364130575550266,0.004437434287637371,-0.05853,-41.972747
11.185,2.0,1.0,1.0,33.2,33.6,33.6,3.0,4.0,2.5375,0.8323140554291897,-0.006747784559272904,0.5419770381339878,0.004447470454369194,-0.059092,-41.850031
11.185,2.0,1.0,1.0,33.2,33.6,33.6,3.0,4.0,2.54,0.8285868162648736,-0.006879515925614125,0.5475398392389759,0.004456654091581686,-0.059663,-41.726986
11.185,2.0,1.0,1.0,33.2,33.6,33.6,3.0,4.0,2.5425,0.8248048052491274,-0.007013554837359499,0.5531011927945655,0.004464951874804666,-0.060245,-41.603602
11.185,2.0,1.0,1.0,33.2,33.6,33.6,3.0,4.0,2.545,0.8209674509254561,-0.007149947573984461,0.5586608222701223,0.004472329248509225,-0.060837,-41.47987
11.185,2.0,1.0,1.0,33.2,33.6,33.6,3.0,4.0,2.5475,0.8170741725344616,-0.007288741582953656,0.5642184423981894,0.004478750375406143,-0.061439,-41.355782
11.185,2.0,1.0,1.0,33.2,33.6,33.6,3.0,4.0,2.55,0.8131243798589721,-0.007429985514872658,0.569773758883253,0.00448417808339675,-0.062053,-41.231327
11.185,2.0,1.0,1.0,33.2,33.6,33.6,3.0,4.0,2.5525,0.8091174730669456,-0.007573729259872962,0.5753264681005013,0.004488573810052872,-0.062677,-41.106497
11.185,2.0,1.0,1.0,33.2,33.6,33.6,3.0,4.0,2.555,0.805052842552109,-0.007720023985280023,0.5808762567842225,0.004491897544496275,-0.063313,-40.981282
11.185,2.0,1.0,1.0,33.2,33.6,33.6,3.0,4.0,2.5575,0.8009298687723466,-0.007868922174616572,0.5864228017054381,0.004494107766538676,-0.063961,-40.855672
11.185,2.0,1.0,1.0,33.2,33.6,33.6,3.0,4.0,2.56,0.7967479220858268,-0.008020477667995591,0.59196576933836,0.004495161382936546,-0.064621,-40.729658
11.185,2.0,1.0,1.0,33.2,33.6,33.6,3.0,4.0,2.5625,0.7925063625848622,-0.008174745703959962,0.5975048155152429,0.004495013660605237,-0.065292,-40.60323
11.185,2.0,1.0,1.0,33.2,33.6,33.6,3.0,4.0,2.565,0.7882045399275059,-0.008331782962828672,0.6030395850691977,0.004493618156627904,-0.065977,-40.476377
11.185,2.0,1.0,1.0,33.2,33.6,33.6,3.0,4.0,2.5675,0.7838417931668874,-0.0084916476116114,0.6085697114644757,0.004490926644884167,-0.066674,-40.349089
11.185,2.0,1.0,1.0,33.2,33.6,33.6,3.0,4.0,2.57,0.7794174505782868,-0.008654399350557446,0.6140948164137587,0.0044868890391134226,-0.067384,-40.221356
11.185,2.0,1.0,1.0,33.2,33.6,33.6,3.0,4.0,2.5725,0.7749308294839575,-0.008820099461406739,0.6196145094819344,0.004481453312215306,-0.068108,-40.093168
11.185,2.0,1.0,1.0,33.2,33.6,33.6,3.0,4.0,2.575,0.770381236075706,-0.008988810857414724,0.6251283876758273,0.004474565411577961,-0.068845,-39.964513
11.185,2.0,1.0,1.0,33.2,33.6,33.6,3.0,4.0,2.5775,0.7657679652352402,-0.009160598135225826,0.6306360350193292,0.0044661691702116545,-0.069597,-39.835382
11.185,2.0,1.0,1.0,33.2,33.6,33.6,3.0,4.0,2.58,0.7610903003523043,-0.009335527628673724,0.6361370221133433,0.00445620621345061,-0.070363,-39.705762
11.185,2.0,1.0,1.0,33.2,33.6,33.6,3.0,4.0,2.5825,0.7563475131406134,-0.009513667464590708,0.6416309056799403,0.004444615860971363,-0.071145,-39.575644
11.185,2.0,1.0,1.0,33.2,33.6,33.6,3.0,4.0,2.585,0.7515388634516155,-0.009695087620711565,0.6471172280900799,0.004431335023859145,-0.071941,-39.445014
11.185,2.0,1.0,1.0,33.2,33.6,33.6,3.0,4.0,2.5875,0.7466635990860999,-0.009879859985762428,0.65259551687424,0.004416298096436779,-0.072753,-39.313863
11.185,2.0,1.0,1.0,33.2,33.6,33.6,3.0,4.0,2.59,0.7417209556036899,-0.01006805842182806,0.6580652842152425,0.004399436842551773,-0.073582,-39.182177
11.185,2.0,1.0,1.0,33.2,33.6,33.6,3.0,4.0,2.5925,0.7367101561302414,-0.010259758829096842,0.6635260264225552,0.004380680275996724,-0.074427,-39.049946
11.185,2.0,1.0,1.0,33.2,33.6,33.6,3.0,4.0,2.595,0.7316304111632019,-0.010455039213086109,0.668977223387283,0.004359954534717494,-0.075288,-38.917156
11.185,2.0,1.0,1.0,33.2,33.6,33.6,3.0,4.0,2.5975,0.7264809183749549,-0.010653979754456366,0.6744183380170641,0.004337182748439423,-0.076168,-38.783796
11.185,2.0,1.0,1.0,33.2,33.6,33.6,3.0,4.0,2.6,0.721260862414207,-0.010856662881527573,0.6798488156500049,0.004312284899317574,-0.077065,-38.649853
11.185,2.0,1.0,1.0,33.2,33.6,33.6,3.0,4.0,2.6025,0.7159694147054716,-0.011063173345615835,0.6852680834467737,0.004285177675189913,-0.077981,-38.515314
11.185,2.0,1.0,1.0,33.2,33.6,33.6,3.0,4.0,2.605,0.710605733246701,-0.011273598299315042,0.6906755497599161,0.004255774314983277,-0.078915,-38.380165
11.185,2.0,1.0,1.0,33.2,33.6,33.6,3.0,4.0,2.6075,0.7051689624051343,-0.011488027377853418,0.6960706034794103,0.004223984445791129,-0.079869,-38.244394
11.185,2.0,1.0,1.0,33.2,33.6,33.6,3.0,4.0,2.61,0.6996582327114355,-0.011706552783660909,0.7014526133534267,0.004189713911108326,-0.080843,-38.107987
11.185,2.0,1.0,1.0,33.2,33.6,33.6,3.0,4.0,2.6125,0.6940726606521922,-0.011929269374290357,0.7068209272832024,0.004152864589671903,-0.081837,-37.97093
11.185,2.0,1.0,1.0,33.2,33.6,33.6,3.0,4.0,2.615,0.6884113484608598,-0.01215627475384161,0.7121748715908957,0.004113334204318023,-0.082853,-37.833208
11.185,2.0,1.0,1.0,33.2,33.6,33.6,3.0,4.0,2.6175,0.6826733839072479,-0.01238766936804461,0.7175137502591924,0.0040710161202225734,-0.08389,-37.694808
11.185,2.0,1.0,1.0,33.2,33.6,33.6,3.0,4.0,2.62,0.6768578400856458,-0.012623556603164972,0.7228368441414128,0.004025799131847952,-0.08495,-37.555714
11.185,2.0,1.0,1.0,33.2,33.6,33.6,3.0,4.0,2.6225,0.6709637752016878,-0.012864042888903303,0.7281434101407618,0.003977567237868664,-0.086032,-37.415911
11.185,2.0,1.0,1.0,33.2,33.6,33.6,3.0,4.0,2.625,0.664990232358092,-0.0131092378054663,0.733432680357301,0.00392619940329535,-0.087139,-37.275384
11.185,2.0,1.0,1.0,33.2,33.6,33.6,3.0,4.0,2.6275,0.6589362393393788,-0.013359254194997387,0.7387038612011602,0.0038715693079589904,-0.088269,-37.134117
11.185,2.0,1.0,1.0,33.2,33.6,33.6,3.0,4.0,2.63,0.6528008083957222,-0.013614208277561362,0.7439561324703842,0.0038135450804546223,-0.089425,-36.992094
11.185,2.0,1.0,1.0,33.2,33.6,33.6,3.0,4.0,2.6325,0.6465829360260699,-0.013874219771887384,0.7491886463917486,0.003751989016575841,-0.090607,-36.849298
11.185,2.0,1.0,1.0,33.2,33.6,33.6,3.0,4.0,2.635,0.6402816027606969,-0.01413941202108258,0.7544005266227692,0.0036867572811979197,-0.091815,-36.705713
11.185,2.0,1.0,1.0,33.2,33.6,33.6,3.0,4.0,2.6375,0.6338957729433687,-0.014409912123538355,0.7595908672130078,0.003617699592487725,-0.093051,-36.561321
11.185,2.0,1.0,1.0,33.2,33.6,33.6,3.0,4.0,2.64,0.6274243945132822,-0.014685851069260574,0.764758731522702,0.0035446588872313925,-0.094315,-36.416105
11.185,2.0,1.0,1.0,33.2,33.6,33.6,3.0,4.0,2.6425,0.6208663987870013,-0.014967363881863826,0.7699031510965767,0.0034674709659769025,-0.095608,-36.270046
11.185,2.0,1.0,1.0,33.2,33.6,33.6,3.0,4.0,2.645,0.6142207002405907,-0.015254589766480312,0.7750231244905997,0.0033859641165857705,-0.096932,-36.123126
11.185,2.0,1.0,1.0,33.2,33.6,33.6,3.0,4.0,2.6475,0.607486196292182,-0.015547672263842665,0.780117616049278,0.003299958714676593,-0.098286,-35.975325
11.185,2.0,1.0,1.0,33.2,33.6,33.6,3.0,4.0,2.65,0.6006617670852128,-0.015846759410810696,0.7851855546309583,0.003209266799321449,-0.099673,-35.826626
11.185,2.0,1.0,1.0,33.2,33.6,33.6,3.0,4.0,2.6525,0.5937462752726222,-0.016152003907620026,0.7902258322783998,0.003113691622223702,-0.101092,-35.677006
11.185,2.0,1.0,1.0,33.2,33.6,33.6,3.0,4.0,2.655,0.5867385658022701,-0.016463563292141714,0.7952373028317418,0.003013027168460561,-0.102546,-35.526446
11.185,2.0,1.0,1.0,33.2,33.6,33.6,3.0,4.0,2.6575,0.5796374657039061,-0.0167816001214493,0.8002187804807669,0.002907057646716289,-0.104035,-35.374926
11.185,2.0,1.0,1.0,33.2,33.6,33.6,3.0,4.0,2.66,0.5724417838780093,-0.017106282160999298,0.8051690382531647,0.0027955569467589675,-0.105561,-35.222422
11.185,2.0,1.0,1.0,33.2,33.6,33.6,3.0,4.0,2.6625,0.5651503108868777,-0.01743778258173767,0.8100868064352594,0.002678288061725091,-0.107124,-35.068914
11.185,2.0,1.0,1.0,33.2,33.6,33.6,3.0,4.0,2.665,0.5577618187483332,-0.01777628016545354,0.8149707709214388,0.0025550024725691316,-0.108726,-34.914377
11.185,2.0,1.0,1.0,33.2,33.6,33.6,3.0,4.0,2.6675,0.550275060732489,-0.01812195951870451,0.8198195714882146,0.002425439491809323,-0.110369,-34.75879
11.185,2.0,1.0,1.0,33.2,33.6,33.6,3.0,4.0,2.67,0.5426887711620217,-0.01847501129564432,0.8246317999885903,0.0022893255634524184,-0.112054,-34.602127
11.185,2.0,1.0,1.0,33.2,33.6,33.6,3.0,4.0,2.6725,0.5350016652164434,-0.018835632430084737,0.829405998462068,0.002146373515707561,-0.113781,-34.444365
11.185,2.0,1.0,1.0,33.2,33.6,33.6,3.0,4.0,2.675,0.5272124387409253,-0.019204026377122704,0.8341406571552719,0.0019962817628007127,-0.115554,-34.285477
11.185,2.0,1.0,1.0,33.2,33.6,33.6,3.0,4.0,2.6775,0.5193197680602494,-0.01958040336466235,0.8388342124478032,0.0018387334518720371,-0.117373,-34.125437
11.185,2.0,1.0,1.0,33.2,33.6,33.6,3.0,4.0,2.68,0.5113223097985317,-0.019964980655153182,0.8434850446775067,0.001673395550576463,-0.11924,-33.964219
11.185,2.0,1.0,1.0,33.2,33.6,33.6,3.0,4.0,2.6825,0.5032187007054246,-0.0203579828178552,0.8480914758588772,0.00149991787061015,-0.121157,-33.801794
11.185,2.0,1.0,1.0,33.2,33.6,33.6,3.0,4.0,2.685,0.4950075574895571,-0.020759642011926174,0.852651767287828,0.0013179320219456232,-0.123125,-33.638134
11.185,2.0,1.0,1.0,33.2,33.6,33.6,3.0,4.0,2.6875,0.48668747666006,-0.0211701982806022,0.857164117025504,0.00112705029207435,-0.125147,-33.47321
11.185,2.0,1.0,1.0,33.2,33.6,33.6,3.0,4.0,2.69,0.47825703437711814,-0.021589899856713394,0.8616266572531951,0.0009268644440207683,-0.127225,-33.306991
11.185,2.0,1.0,1.0,33.2,33.6,33.6,3.0,4.0,2.6925,0.4697147863125503,-0.022019003479737263,0.8660374514897654,0.0007169444262998309,-0.129361,-33.139445
11.185,2.0,1.0,1.0,33.2,33.6,33.6,3.0,4.0,2.695,0.4610592675215915,-0.022457774724540355,0.8703944916622514,0.0004968369873370192,-0.131556,-32.970541
11.185,2.0,1.0,1.0,33.2,33.6,33.6,3.0,4.0,2.6975,0.45228899232710335,-0.02290648834189807,0.8746956950195025,0.0002660641861439433,-0.133815,-32.800244
11.185,2.0,1.0,1.0,33.2,33.6,33.6,3.0,4.0,2.7,0.4434024542176544,-0.02336542861080039,0.8789389008778143,2.412179024054174e-05,-0.136138,-32.62852
11.185,2.0,1.0,1.0,33.2,33.6,33.6,3.0,4.0,2.7025,0.4343981257610198,-0.023834889702456438,0.8831218671865398,-0.00022952244907728484,-0.138529,-32.455334
11.185,2.0,1.0,1.0,33.2,33.6,33.6,3.0,4.0,2.705,0.42527445853488116,-0.024315176055789,0.8872422669005552,-0.0004954306550156502,-0.14099,-32.280649
11.185,2.0,1.0,1.0,33.2,33.6,33.6,3.0,4.0,2.7075,0.4160298830767005,-0.02480660276406578,0.89129768414525,-0.0007741968290991947,-0.143524,-32.104426
11.185,2.0,1.0,1.0,33.2,33.6,33.6,3.0,4.0,2.71,0.4066628088550154,-0.025309495972135793,0.8952856101583615,-0.0010664490137445128,-0.146135,-31.926626
11.185,2.0,1.0,1.0,33.2,33.6,33.6,3.0,4.0,2.7125,0.39717162426467406,-0.02582419328352605,0.8992034389914856,-0.0013728516281764451,-0.148826,-31.747208
11.185,2.0,1.0,1.0,33.2,33.6,33.6,3.0,4.0,2.715,0.3875546966488953,-0.02635104417639418,0.9030484629524208,-0.0016941079937971934,-0.151599,-31.56613
11.185,2.0,1.0,1.0,33.2,33.6,33.6,3.0,4.0,2.7175,0.3778103723514097,-0.026890410427023365,0.9068178677676583,-0.0020309630668224315,-0.15446,-31.383348
11.185,2.0,1.0,1.0,33.2,33.6,33.6,3.0,4.0,2.72,0.3679369768024282,-0.027442666539170157,0.9105087274422509,-0.0023842063979024235,-0.157411,-31.198816
11.185,2.0,1.0,1.0,33.2,33.6,33.6,3.0,4.0,2.7225,0.35793281464268517,-0.028008200177132108,0.9141179987920033,-0.0027546753405805133,-0.160457,-31.012488
11.185,2.0,1.0,1.0,33.2,33.6,33.6,3.0,4.0,2.725,0.3477961698904893,-0.028587412599862125,0.9176425156203171,-0.0031432585328301003,-0.163602,-30.824314
11.185,2.0,1.0,1.0,33.2,33.6,33.6,3.0,4.0,2.7275,0.3375253061573879,-0.02918071909282062,0.9210789825091508,-0.003550899678596888,-0.166851,-30.634243
11.185,2.0,1.0,1.0,33.2,33.6,33.6,3.0,4.0,2.73,0.3271184669189896,-0.029788549393486418,0.9244239681903014,-0.0039786016592854734,-0.170208,-30.442223
11.185,2.0,1.0,1.0,33.2,33.6,33.6,3.0,4.0,2.7325,0.31657387584844754,-0.030411348105536102,0.9276738984595726,-0.004427431008523718,-0.17368,-30.2482
11.185,2.0,1.0,1.0,33.2,33.6,33.6,3.0,4.0,2.735,0.30588973722136725,-0.03104957509560629,0.930825048592295,-0.004898522787357406,-0.17727,-30.052116
11.185,2.0,1.0,1.0,33.2,33.6,33.6,3.0,4.0,2.7375,0.295064236402274,-0.03170370586524967,0.9338735352140567,-0.00539308590133853,-0.180987,-29.853911
11.185,2.0,1.0,1.0,33.2,33.6,33.6,3.0,4.0,2.74,0.2840955404244998,-0.03237423188913476,0.9368153075752916,-0.005912408905836053,-0.184835,-29.653525
11.185,2.0,1.0,1.0,33.2,33.6,33.6,3.0,4.0,2.7425,0.2729817986772973,-0.03306166090867758,0.9396461381725173,-0.006457866351402273,-0.188821,-29.450893
11.185,2.0,1.0,1.0,33.2,33.6,33.6,3.0,4.0,2.745,0.2617211437163829,-0.03376651716806373,0.942361612652352,-0.0070309257272581985,-0.192953,-29.245948
11.185,2.0,1.0,1.0,33.2,33.6,33.6,3.0,4.0,2.7475,0.2503116922168943,-0.034489341576954755,0.944957118926947,-0.007633155068025395,-0.197239,-29.038621
11.185,2.0,1.0,1.0,33.2,33.6,33.6,3.0,4.0,2.75,0.238751546091087,-0.0352306917809821,0.947427835420934,-0.00826623129685214,-0.201687,-28.828838
11.185,2.0,1.0,1.0,33.2,33.6,33.6,3.0,4.0,2.7525,0.22703879379707426,-0.035991142117307334,0.949768718360318,-0.008931949387196776,-0.206305,-28.616524
11.185,2.0,1.0,1.0,33.2,33.6,33.6,3.0,4.0,2.755,0.2151715118696691,-0.03677128342794173,0.95197448800274,-0.009632232435908102,-0.211103,-28.4016
11.185,2.0,1.0,1.0,33.2,33.6,33.6,3.0,4.0,2.7575,0.20314776671003099,-0.037571722698014044,0.9540396136960259,-0.010369142752071325,-0.216092,-28.183984
11.185,2.0,1.0,1.0,33.2,33.6,33.6,3.0,4.0,2.76,0.1909656166776761,-0.03839308247955188,0.9559582976376424,-0.01114489407958292,-0.221282,-27.963587
11.185,2.0,1.0,1.0,33.2,33.6,33.6,3.0,4.0,2.7625,0.1786231145365244,-0.03923600005337921,0.9577244571913954,-0.011961865086848295,-0.226686,-27.74032
11.185,2.0,1.0,1.0,33.2,33.6,33.6,3.0,4.0,2.765,0.16611831031650348,-0.040101126272124456,0.9593317055990662,-0.01282261427464543,-0.232317,-27.514089
11.185,2.0,1.0,1.0,33.2,33.6,33.6,3.0,4.0,2.7675,0.15344925466405918,-0.04098912401574017,0.9607733309033519,-0.013729896473425485,-0.238188,-27.284794
11.185,2.0,1.0,1.0,33.2,33.6,33.6,3.0,4.0,2.77,0.1406140027691741,-0.041900666176916825,0.9620422728740317,-0.014686681124527813,-0.244314,-27.052331
11.185,2.0,1.0,1.0,33.2,33.6,33.6,3.0,4.0,2.7725,0.1276106189737943,-0.042836433076788624,0.9631310977012116,-0.015696172566440496,-0.250713,-26.816591
11.185,2.0,1.0,1.0,33.2,33.6,33.6,3.0,4.0,2.775,0.11443718218747555,-0.043797109190725325,0.9640319701872611,-0.016761832577893463,-0.257401,-26.57746
11.185,2.0,1.0,1.0,33.2,33.6,33.6,3.0,4.0,2.7775,0.10109179226148733,-0.04478337903895101,0.9647366231319536,-0.017887405464865693,-0.264398,-26.334817
11.185,2.0,1.0,1.0,33.2,33.6,33.6,3.0,4.0,2.78,0.08757257750353563,-0.045795922066214606,0.9652363235625993,-0.01907694601926656,-0.271725,-26.088537
11.185,2.0,1.0,1.0,33.2,33.6,33.6,3.0,4.0,2.7825,0.07387770355304944,-0.04683540629748161,0.9655218354116931,-0.02033485072397589,-0.279406,-25.838487
11.185,2.0,1.0,1.0,33.2,33.6,33.6,3.0,4.0,2.785,0.06000538388304744,-0.04790248051104736,0.9655833781877616,-0.021665892633115417,-0.287465,-25.584528
11.185,2.0,1.0,1.0,33.2,33.6,33.6,3.0,4.0,2.7875,0.04595389225126182,-0.04899776461458585,0.9654105811194568,-0.023075260419014577,-0.29593,-25.326511
11.185,2.0,1.0,1.0,33.2,33.6,33.6,3.0,4.0,2.79,0.03172157749258818,-0.050121837840974494,0.9649924321771011,-0.024568602149698263,-0.304831,-25.064284
11.185,2.0,1.0,1.0,33.2,33.6,33.6,3.0,4.0,2.7925,0.017306881130624185,-0.05127522429611327,0.9643172212882386,-0.0261520744443725,-0.314203,-24.797681
11.185,2.0,1.0,1.0,33.2,33.6,33.6,3.0,4.0,2.795,0.002708358391685555,-0.0524583752864459,0.9633724769624586,-0.02783239775109966,-0.324081,-24.526532
11.185,2.0,1.0,1.0,33.2,33.6,33.6,3.0,4.0,2.7975,-0.012075296664309884,-0.05367164772444851,0.9621448954237027,-0.029616918602590695,-0.334506,-24.250655
11.185,2.0,1.0,1.0,33.2,33.6,33.6,3.0,4.0,2.8,-0.027045221019253055,-0.054915277749633354,0.9606202612131886,-0.031513679835046854,-0.345524,-23.969856
11.185,2.0,1.0,1.0,33.2,33.6,33.6,3.0,4.0,2.8025,-0.042202346499238194,-0.056189348502471384,0.9587833580703357,-0.03353149990364154,-0.357184,-23.683935
11.185,2.0,1.0,1.0,33.2,33.6,33.6,3.0,4.0,2.805,-0.0575473561718918,-0.05749375073871812,0.9566178687200051,-0.03568006259914937,-0.369542,-23.392675
11.185,2.0,1.0,1.0,33.2,33.6,33.6,3.0,4.0,2.8075,-0.07308063169002546,-0.0588281346586273,0.9541062619890384,-0.037970018666035325,-0.38266,-23.095849
11.185,2.0,1.0,1.0,33.2,33.6,33.6,3.0,4.0,2.81,-0.08880218953530145,-0.060191850932376514,0.9512296654408576,-0.040413101045510005,-0.396607,-22.793217
11.185,2.0,1.0,1.0,33.2,33.6,33.6,3.0,4.0,2.8125,-0.104711603614473,-0.0615838784076847,0.947967721451386,-0.043022255719686,-0.411461,-22.484524
11.185,2.0,1.0,1.0,33.2,33.6,33.6,3.0,4.0,2.815,-0.12080791102743578,-0.0630027353596319,0.9442984243513922,-0.045811790416130746,-0.427309,-22.169498
11.185,2.0,1.0,1.0,33.2,33.6,33.6,3.0,4.0,2.8175,-0.13708949702333748,-0.06444637034921177,0.940197935929897,-0.048797543745044046,-0.44425,-21.847853
11.185,2.0,1.0,1.0,33.2,33.6,33.6,3.0,4.0,2.82,-0.15355395413987263,-0.0659120277482969,0.9356403762339844,-0.05199707768015414,-0.462395,-21.519285
11.185,2.0,1.0,1.0,33.2,33.6,33.6,3.0,4.0,2.8225,-0.170197909218432,-0.06739608170216109,0.9305975862206961,-0.05542989665017702,-0.481871,-21.183469
11.185,2.0,1.0,1.0,33.2,33.6,33.6,3.0,4.0,2.825,-0.18701681032161385,-0.06889383065528905,0.9250388584335874,-0.05911769686292944,-0.502821,-20.840063
11.185,2.0,1.0,1.0,33.2,33.6,33.6,3.0,4.0,2.8275,-0.20400466344219353,-0.07039924245596092,0.9189306315199783,-0.06308464980829652,-0.525411,-20.488701
