1,w,sub_t,h,l1,l2,l3,g1,g2,Freq,S11_re,S21_re,S11_img,S21_img,S11_dB,S21_dB
11.185,2.0,1.0,1.0,34.7,33.9,33.9,3.0,3.4,2.5,0.661312743086666,-0.0130382363846598,0.738651223545423,0.00462504407398088,-0.074729,-37.180884
11.185,2.0,1.0,1.0,34.7,33.9,33.9,3.0,3.4,2.5025,0.6549688920060716,-0.013257576566105512,0.7441573523129514,0.004566457106157222,-0.07555,-37.063814
11.185,2.0,1.0,1.0,34.7,33.9,33.9,3.0,3.4,2.505,0.6485430574353123,-0.013480082969735522,0.749638108159639,0.004504680100130309,-0.076385,-36.946384
11.185,2.0,1.0,1.0,34.7,33.9,33.9,3.0,3.4,2.5075,0.6420344816134064,-0.013705794987028574,0.755092547090053,0.004439611540328335,-0.077236,-36.828585
11.185,2.0,1.0,1.0,34.7,33.9,33.9,3.0,3.4,2.51,0.6354424018860064,-0.013934752117009194,0.7605196995551197,0.004371146690120577,-0.078101,-36.710412
11.185,2.0,1.0,1.0,34.7,33.9,33.9,3.0,3.4,2.5125,0.6287660509170654,-0.014166993937737609,0.7659185697720696,0.004299177483322807,-0.078982,-36.591859
11.185,2.0,1.0,1.0,34.7,33.9,33.9,3.0,3.4,2.515,0.6220046569164023,-0.014402560075658176,0.771288135027866,0.004223592411800979,-0.07988,-36.472919
11.185,2.0,1.0,1.0,34.7,33.9,33.9,3.0,3.4,2.5175,0.6151574438839719,-0.014641490172678769,0.776627344965798,0.0041442764090219115,-0.080793,-36.353585
11.185,2.0,1.0,1.0,34.7,33.9,33.9,3.0,3.4,2.52,0.6082236318716325,-0.01488382385084835,0.7819351208549661,0.0040611107293914055,-0.081723,-36.23385
11.185,2.0,1.0,1.0,34.7,33.9,33.9,3.0,3.4,2.5225,0.6012024372632887,-0.01512960067448957,0.7872103548423264,0.003973972823214595,-0.08267,-36.113709
11.185,2.0,1.0,1.0,34.7,33.9,33.9,3.0,3.4,2.525,0.5940930730742706,-0.015378860109637986,0.7924519091870251,0.00388273620710468,-0.083635,-35.993153
11.185,2.0,1.0,1.0,34.7,33.9,33.9,3.0,3.4,2.5275,0.5868947492708827,-0.01563164148062873,0.797658615476723,0.0037872703296593837,-0.084617,-35.872176
11.185,2.0,1.0,1.0,34.7,33.9,33.9,3.0,3.4,2.53,0.5796066731110953,-0.0158879839236636,0.8028292738256125,0.003687440432215402,-0.085618,-35.750771
11.185,2.0,1.0,1.0,34.7,33.9,33.9,3.0,3.4,2.5325,0.572228049507364,-0.016147926337181175,0.8079626520538532,0.0035831074044835767,-0.086638,-35.628931
11.185,2.0,1.0,1.0,34.7,33.9,33.9,3.0,3.4,2.535,0.5647580814126301,-0.01641150732884299,0.8130574848481469,0.0034741276348565385,-0.087676,-35.506649
11.185,2.0,1.0,1.0,34.7,33.9,33.9,3.0,3.4,2.5375,0.5571959702305948,-0.016678765158937063,0.8181124729031701,0.003360352855173157,-0.088735,-35.383917
11.185,2.0,1.0,1.0,34.7,33.9,33.9,3.0,3.4,2.54,0.5495409162513891,-0.016949737679989245,0.8231262820436118,0.00324162997971167,-0.089813,-35.260727
11.185,2.0,1.0,1.0,34.7,33.9,33.9,3.0,3.4,2.5425,0.5417921191138214,-0.017224462272360734,0.8280975423265503,0.003117800938174104,-0.090912,-35.137073
11.185,2.0,1.0,1.0,34.7,33.9,33.9,3.0,3.4,2.545,0.5339487782954285,-0.01750297577559618,0.833024847123927,0.0029887025024123914,-0.092032,-35.012946
11.185,2.0,1.0,1.0,34.7,33.9,33.9,3.0,3.4,2.5475,0.5260100936316149,-0.017785314415273496,0.8379067521848742,0.0028541661066345697,-0.093174,-34.888339
11.185,2.0,1.0,1.0,34.7,33.9,33.9,3.0,3.4,2.55,0.5179752658651834,-0.018071513725092508,0.8427417746776759,0.002714017660816291,-0.094338,-34.763244
11.185,2.0,1.0,1.0,34.7,33.9,33.9,3.0,3.4,2.5525,0.5098434972276716,-0.018361608463922124,0.847528392211142,0.0025680773570299093,-0.095525,-34.637653
11.185,2.0,1.0,1.0,34.7,33.9,33.9,3.0,3.4,2.555,0.5016139920538999,-0.01865563252751062,0.8522650418351951,0.002416159468387687,-0.096734,-34.511557
11.185,2.0,1.0,1.0,34.7,33.9,33.9,3.0,3.4,2.5575,0.49328595743123005,-0.01895361885454564,0.8569501190204948,0.0022580721402813407,-0.097968,-34.384949
11.185,2.0,1.0,1.0,34.7,33.9,33.9,3.0,3.4,2.56,0.48485860388509644,-0.01925559932673035,0.8615819766169115,0.0020936171735827457,-0.099226,-34.257819
11.185,2.0,1.0,1.0,34.7,33.9,33.9,3.0,3.4,2.5625,0.47633114610240757,-0.01956160466252336,0.8661589237907084,0.0019225897994537258,-0.100509,-34.13016
11.185,2.0,1.0,1.0,34.7,33.9,33.9,3.0,3.4,2.565,0.46770280369449163,-0.019871664304168243,0.8706792249402988,0.0017447784453937442,-0.101818,-34.001963
11.185,2.0,1.0,1.0,34.7,33.9,33.9,3.0,3.4,2.5675,0.45897280200133733,-0.020185806297614278,0.8751410985904539,0.001559964492134446,-0.103153,-33.873218
11.185,2.0,1.0,1.0,34.7,33.9,33.9,3.0,3.4,2.57,0.4501403729389206,-0.020504057164906796,0.8795427162648752,0.0013679220209688026,-0.104515,-33.743917
11.185,2.0,1.0,1.0,34.7,33.9,33.9,3.0,3.4,2.5725,0.44120475589149544,-0.020826441768598932,0.8838822013370635,0.0011684175510798143,-0.105905,-33.614051
11.185,2.0,1.0,1.0,34.7,33.9,33.9,3.0,3.4,2.575,0.4321651986507965,-0.02115298316770725,0.8881576278594314,0.0009612097664088268,-0.107323,-33.483609
11.185,2.0,1.0,1.0,34.7,33.9,33.9,3.0,3.4,2.5775,0.4230209584041698,-0.021483702464705226,0.8923670193706422,0.000746049231578655,-0.108771,-33.352583
11.185,2.0,1.0,1.0,34.7,33.9,33.9,3.0,3.4,2.58,0.4137713027737321,-0.021818618643014504,0.8965083476811829,0.0005226780963573425,-0.110248,-33.220963
11.185,2.0,1.0,1.0,34.7,33.9,33.9,3.0,3.4,2.5825,0.40441551090872113,-0.022157748394420588,0.900579531637204,0.00029082978811942426,-0.111756,-33.088739
11.185,2.0,1.0,1.0,34.7,33.9,33.9,3.0,3.4,2.585,0.3949528746333036,-0.022501105935801125,0.9045784358626928,5.0228691728893635e-05,-0.113296,-32.955901
11.185,2.0,1.0,1.0,34.7,33.9,33.9,3.0,3.4,2.5875,0.3853826996521653,-0.022848702814515686,0.9085028694800809,-0.00019941018376630205,-0.114868,-32.822438
11.185,2.0,1.0,1.0,34.7,33.9,33.9,3.0,3.4,2.59,0.37570430681632583,-0.02320054770176216,0.9123505848094071,-0.0004583815522754643,-0.116474,-32.68834
11.185,2.0,1.0,1.0,34.7,33.9,33.9,3.0,3.4,2.5925,0.36591703345166626,-0.02355664617315892,0.9161192760462098,-0.0007269902123298934,-0.118114,-32.553596
11.185,2.0,1.0,1.0,34.7,33.9,33.9,3.0,3.4,2.595,0.3560202347528141,-0.023917000475761004,0.9198065779183348,-0.0010055514240005056,-0.119789,-32.418196
11.185,2.0,1.0,1.0,34.7,33.9,33.9,3.0,3.4,2.5975,0.34601328524504316,-0.0242816092806662,0.9234100643219117,-0.0012943913018463884,-0.1215,-32.282127
11.185,2.0,1.0,1.0,34.7,33.9,33.9,3.0,3.4,2.6,0.33589558031701744,-0.024650467420306094,0.9269272469367643,-0.0015938472247204805,-0.123248,-32.145378
11.185,2.0,1.0,1.0,34.7,33.9,33.9,3.0,3.4,2.6025,0.3256665378272856,-0.025023565609456157,0.9303555738215508,-0.0019042682633129413,-0.125035,-32.007938
11.185,2.0,1.0,1.0,34.7,33.9,33.9,3.0,3.4,2.605,0.3153255997875088,-0.025400890148929427,0.9336924279890195,-0.0022260156263725255,-0.126861,-31.869795
11.185,2.0,1.0,1.0,34.7,33.9,33.9,3.0,3.4,2.6075,0.30487223412556896,-0.025782422610844805,0.9369351259617326,-0.0025594631266072816,-0.128727,-31.730936
11.185,2.0,1.0,1.0,34.7,33.9,33.9,3.0,3.4,2.61,0.2943059365317773,-0.0261681395042799,0.9400809163087184,-0.0029049976673360643,-0.130635,-31.591348
11.185,2.0,1.0,1.0,34.7,33.9,33.9,3.0,3.4,2.6125,0.2836262323915411,-0.026558011920032217,0.9431269781634921,-0.003263019751035213,-0.132586,-31.45102
11.185,2.0,1.0,1.0,34.7,33.9,33.9,3.0,3.4,2.615,0.27283267880795925,-0.02695200515311682,0.946070419723975,-0.003633944011005735,-0.134581,-31.309936
11.185,2.0,1.0,1.0,34.7,33.9,33.9,3.0,3.4,2.6175,0.26192486671796184,-0.027350078301524784,0.9489082767348427,-0.004018199767472478,-0.136621,-31.168085
11.185,2.0,1.0,1.0,34.7,33.9,33.9,3.0,3.4,2.62,0.2509024231057328,-0.027752183839656046,0.9516375109528871,-0.004416231609521583,-0.138708,-31.025451
11.185,2.0,1.0,1.0,34.7,33.9,33.9,3.0,3.4,2.6225,0.23976501331728803,-0.028158267164714864,0.9542550085960013,-0.004828500004385758,-0.140843,-30.882021
11.185,2.0,1.0,1.0,34.7,33.9,33.9,3.0,3.4,2.625,0.228512343480273,-0.0285682661142235,0.956757578776433,-0.00525548193569613,-0.143028,-30.73778
11.185,2.0,1.0,1.0,34.7,33.9,33.9,3.0,3.4,2.6275,0.2171441630331297,-0.028982110452663086,0.9591419519189768,-0.005697671572443788,-0.145264,-30.592713
11.185,2.0,1.0,1.0,34.7,33.9,33.9,3.0,3.4,2.63,0.20566026736801535,-0.029399721325087818,0.9614047781647994,-0.0061555809705227445,-0.147553,-30.446804
11.185,2.0,1.0,1.0,34.7,33.9,33.9,3.0,3.4,2.6325,0.19406050059199917,-0.02982101067538453,0.9635426257616018,-0.006629740808872176,-0.149897,-30.300038
11.185,2.0,1.0,1.0,34.7,33.9,33.9,3.0,3.4,2.635,0.18234475841125203,-0.03024588062665444,0.9655519794408373,-0.007120701162390342,-0.152296,-30.152398
11.185,2.0,1.0,1.0,34.7,33.9,33.9,3.0,3.4,2.6375,0.17051299114316015,-0.03067422282098024,0.967429238782716,-0.007629032313964047,-0.154754,-30.003867
11.185,2.0,1.0,1.0,34.7,33.9,33.9,3.0,3.4,2.64,0.1585652068614647,-0.031105917715610002,0.9691707165696942,-0.008155325608144142,-0.157271,-29.854427
11.185,2.0,1.0,1.0,34.7,33.9,33.9,3.0,3.4,2.6425,0.14650147467982902,-0.03154083383232677,0.9707726371291532,-0.008700194349198513,-0.159851,-29.704062
11.185,2.0,1.0,1.0,34.7,33.9,33.9,3.0,3.4,2.645,0.13432192817941016,-0.03197882695649081,0.9722311346659267,-0.009264274746497915,-0.162494,-29.552752
11.185,2.0,1.0,1.0,34.7,33.9,33.9,3.0,3.4,2.6475,0.12202676898633823,-0.032419739281923175,0.9735422515852888,-0.009848226910430613,-0.165203,-29.400479
11.185,2.0,1.0,1.0,34.7,33.9,33.9,3.0,3.4,2.65,0.10961627050524095,-0.03286339849745392,0.9747019368069573,-0.010452735902307988,-0.16798,-29.247222
11.185,2.0,1.0,1.0,34.7,33.9,33.9,3.0,3.4,2.6525,0.09709078181534712,-0.033309616810565344,0.9757060440705895,-0.01107851284201003,-0.170828,-29.092962
11.185,2.0,1.0,1.0,34.7,33.9,33.9,3.0,3.4,2.655,0.08445073173596837,-0.03375818990313902,0.9765503302331048,-0.011726296077440081,-0.173749,-28.937678
11.185,2.0,1.0,1.0,34.7,33.9,33.9,3.0,3.4,2.6575,0.07169663306860302,-0.034208895813832116,0.9772304535580966,-0.012396852420201651,-0.176746,-28.781348
11.185,2.0,1.0,1.0,34.7,33.9,33.9,3.0,3.4,2.66,0.05882908702330502,-0.034661493741081295,0.9777419719973737,-0.013090978452291138,-0.179821,-28.62395
11.185,2.0,1.0,1.0,34.7,33.9,33.9,3.0,3.4,2.6625,0.04584878783745003,-0.03511572276014097,0.9780803414645163,-0.013809501909014749,-0.182977,-28.46546
11.185,2.0,1.0,1.0,34.7,33.9,33.9,3.0,3.4,2.665,0.03275652759552771,-0.03557130044690326,0.9782409141000771,-0.014553283143795772,-0.186217,-28.305856
11.185,2.0,1.0,1.0,34.7,33.9,33.9,3.0,3.4,2.6675,0.01955320125921388,-0.03602792140051096,0.9782189365278019,-0.015323216681033387,-0.189544,-28.145111
11.185,2.0,1.0,1.0,34.7,33.9,33.9,3.0,3.4,2.67,0.006239811917600063,-0.03648525565595171,0.9780095481008984,-0.01612023286372546,-0.192961,-27.983201
11.185,2.0,1.0,1.0,34.7,33.9,33.9,3.0,3.4,2.6725,-0.007182523731790669,-0.0369429469769002,0.9776077791370196,-0.01694529960316558,-0.196473,-27.820098
11.185,2.0,1.0,1.0,34.7,33.9,33.9,3.0,3.4,2.675,-0.02071256965972958,-0.0374006110180406,0.977008549140193,-0.017799424238682096,-0.200081,-27.655776
11.185,2.0,1.0,1.0,34.7,33.9,33.9,3.0,3.4,2.6775,-0.034348964527352914,-0.03785783334494181,0.9762066650074107,-0.018683655516110568,-0.203791,-27.490205
11.185,2.0,1.0,1.0,34.7,33.9,33.9,3.0,3.4,2.68,-0.048090215440125615,-0.03831416729825319,0.9751968192170289,-0.01959908569448137,-0.207606,-27.323357
11.185,2.0,1.0,1.0,34.7,33.9,33.9,3.0,3.4,2.6825,-0.061934691418994506,-0.038769131687519096,0.9739735879954511,-0.020546852791273156,-0.21153,-27.155199
11.185,2.0,1.0,1.0,34.7,33.9,33.9,3.0,3.4,2.685,-0.07588061657270656,-0.03922220829825576,0.9725314294578216,-0.021528142977536753,-0.215569,-26.985701
11.185,2.0,1.0,1.0,34.7,33.9,33.9,3.0,3.4,2.6875,-0.0899260629536813,-0.0396728391940641,0.97086468171759,-0.0225441931352391,-0.219725,-26.814828
11.185,2.0,1.0,1.0,34.7,33.9,33.9,3.0,3.4,2.69,-0.10406894307800142,-0.040120423793439115,0.968967560958841,-0.02359629359032221,-0.224005,-26.642546
11.185,2.0,1.0,1.0,34.7,33.9,33.9,3.0,3.4,2.6925,-0.11830700208813517,-0.04056431569854626,0.9668341594641806,-0.024685791036234132,-0.228414,-26.46882
11.185,2.0,1.0,1.0,34.7,33.9,33.9,3.0,3.4,2.695,-0.13263780953452672,-0.0410038192505223,0.9644584435897092,-0.02581409166406051,-0.232957,-26.29361
11.185,2.0,1.0,1.0,34.7,33.9,33.9,3.0,3.4,2.6975,-0.14705875074967312,-0.04143818578278299,0.9618342516772701,-0.026982664516904484,-0.23764,-26.116878
11.185,2.0,1.0,1.0,34.7,33.9,33.9,3.0,3.4,2.7,-0.1615670177850522,-0.041866609540320815,0.958955291892534,-0.02819304508780892,-0.24247,-25.938584
11.185,2.0,1.0,1.0,34.7,33.9,33.9,3.0,3.4,2.7025,-0.17615959987786234,-0.04228822322899346,0.9558151399757785,-0.02944683918233166,-0.247453,-25.758684
11.185,2.0,1.0,1.0,34.7,33.9,33.9,3.0,3.4,2.705,-0.19083327341036524,-0.04270209315426595,0.952407236890266,-0.03074572706885917,-0.252595,-25.577134
11.185,2.0,1.0,1.0,34.7,33.9,33.9,3.0,3.4,2.7075,-0.2055845913199639,-0.04310721390368398,0.9487248863509311,-0.03209146794190799,-0.257906,-25.393886
11.185,2.0,1.0,1.0,34.7,33.9,33.9,3.0,3.4,2.71,-0.22040987191266376,-0.043502502521430245,0.9447612522137082,-0.03348590472601767,-0.263392,-25.208894
11.185,2.0,1.0,1.0,34.7,33.9,33.9,3.0,3.4,2.7125,-0.23530518702638856,-0.04388679211652784,0.9405093557031604,-0.034930969250406584,-0.269062,-25.022105
11.185,2.0,1.0,1.0,34.7,33.9,33.9,3.0,3.4,2.715,-0.25026634948323356,-0.04425882483846828,0.9359620724531319,-0.03642868782734508,-0.274925,-24.833466
11.185,2.0,1.0,1.0,34.7,33.9,33.9,3.0,3.4,2.7175,-0.2652888997614663,-0.044617244145099315,0.9311121293319297,-0.037981187270221206,-0.280991,-24.642922
11.185,2.0,1.0,1.0,34.7,33.9,33.9,3.0,3.4,2.72,-0.28036809180818767,-0.04496058627731178,0.9259521010199853,-0.03959070139052985,-0.287271,-24.450413
11.185,2.0,1.0,1.0,34.7,33.9,33.9,3.0,3.4,2.7225,-0.29549887790243606,-0.0452872708432065,0.9204744063041467,-0.04125957801652493,-0.293776,-24.255879
11.185,2.0,1.0,1.0,34.7,33.9,33.9,3.0,3.4,2.725,-0.31067589246513994,-0.04559559040072039,0.9146713040485074,-0.042990286580017446,-0.300517,-24.059255
11.185,2.0,1.0,1.0,34.7,33.9,33.9,3.0,3.4,2.7275,-0.32589343469725024,-0.045883698911857944,0.9085348887972537,-0.0447854263217977,-0.307509,-23.860474
11.185,2.0,1.0,1.0,34.7,33.9,33.9,3.0,3.4,2.73,-0.3411454499093462,-0.046149598923315466,0.9020570859601347,-0.046647735170357536,-0.314763,-23.659465
11.185,2.0,1.0,1.0,34.7,33.9,33.9,3.0,3.4,2.7325,-0.35642550938531053,-0.04639112730699629,0.8952296465260888,-0.048580099352986544,-0.322297,-23.456152
11.185,2.0,1.0,1.0,34.7,33.9,33.9,3.0,3.4,2.735,-0.37172678859835206,-0.04660593936914602,0.8880441412452094,-0.05058556380283308,-0.330125,-23.250459
11.185,2.0,1.0,1.0,34.7,33.9,33.9,3.0,3.4,2.7375,-0.3870420435691146,-0.04679149110799843,0.8804919542136654,-0.052667343430097574,-0.338265,-23.042301
11.185,2.0,1.0,1.0,34.7,33.9,33.9,3.0,3.4,2.74,-0.4023635851223893,-0.04694501936615779,0.8725642757906618,-0.05482883533002412,-0.346737,-22.831593
11.185,2.0,1.0,1.0,34.7,33.9,33.9,3.0,3.4,2.7425,-0.4176832507597325,-0.04706351958459081,0.8642520947709319,-0.05707363200462794,-0.35556,-22.618242
11.185,2.0,1.0,1.0,34.7,33.9,33.9,3.0,3.4,2.745,-0.43299237381937744,-0.047143720818992985,0.8555461897311261,-0.05940553567888456,-0.364758,-22.402152
11.185,2.0,1.0,1.0,34.7,33.9,33.9,3.0,3.4,2.7475,-0.4482817495406329,-0.04718205762517542,0.8464371194638226,-0.0618285737951055,-0.374354,-22.183222
11.185,2.0,1.0,1.0,34.7,33.9,33.9,3.0,3.4,2.75,-0.463541597586215,-0.0471746383564716,0.83691521240939,-0.0643470157709822,-0.384375,-21.961344
11.185,2.0,1.0,1.0,34.7,33.9,33.9,3.0,3.4,2.7525,-0.4787615205004749,-0.04711720934115201,0.8269705549940016,-0.0669653911066933,-0.39485,-21.736404
11.185,2.0,1.0,1.0,34.7,33.9,33.9,3.0,3.4,2.755,-0.49393045749237563,-0.04700511431926369,0.816592978782655,-0.0696885089237315,-0.405811,-21.508283
11.185,2.0,1.0,1.0,34.7,33.9,33.9,3.0,3.4,2.7575,-0.5090366328262593,-0.04683324841350603,0.8057720463600385,-0.07252147901162982,-0.417291,-21.276853
11.185,2.0,1.0,1.0,34.7,33.9,33.9,3.0,3.4,2.76,-0.5240674979779358,-0.04659600578449765,0.7944970358611246,-0.07546973444705986,-0.42933,-21.041981
11.185,2.0,1.0,1.0,34.7,33.9,33.9,3.0,3.4,2.7625,-0.5390096665642834,-0.04628721997316674,0.7827569240891967,-0.07853905583091679,-0.441969,-20.803525
11.185,2.0,1.0,1.0,34.7,33.9,33.9,3.0,3.4,2.765,-0.5538488408764942,-0.04590009575727196,0.7705403681844464,-0.08173559716031813,-0.455254,-20.561333
11.185,2.0,1.0,1.0,34.7,33.9,33.9,3.0,3.4,2.7675,-0.5685697286347532,-0.04542713113947285,0.7578356858446815,-0.08506591331044178,-0.469237,-20.315248
11.185,2.0,1.0,1.0,34.7,33.9,33.9,3.0,3.4,2.77,-0.58315594832782,-0.044860027833919534,0.7446308341557886,-0.08853698904108406,-0.483974,-20.0651
11.185,2.0,1.0,1.0,34.7,33.9,33.9,3.0,3.4,2.7725,-0.597589921196792,-0.044189588318519685,0.7309133871698045,-0.09215626935840533,-0.499527,-19.810709
11.185,2.0,1.0,1.0,34.7,33.9,33.9,3.0,3.4,2.775,-0.61185274755688,-0.043405597160525104,0.7166705124810683,-0.09593169094509321,-0.515966,-19.551885
11.185,2.0,1.0,1.0,34.7,33.9,33.9,3.0,3.4,2.7775,-0.6259240647122515,-0.04249668389131925,0.7018889472075299,-0.0998717142107155,-0.53337,-19.288426
11.185,2.0,1.0,1.0,34.7,33.9,33.9,3.0,3.4,2.78,-0.6397818831909734,-0.041450164187074034,0.6865549740000576,-0.10398535529304878,-0.551826,-19.020118
11.185,2.0,1.0,1.0,34.7,33.9,33.9,3.0,3.4,2.7825,-0.6534023973910297,-0.040251855486910786,0.6706543979984557,-0.1082822170399891,-0.57143,-18.746733
11.185,2.0,1.0,1.0,34.7,33.9,33.9,3.0,3.4,2.785,-0.6667597659622593,-0.03888586242725623,0.6541725260565011,-0.11277251759243702,-0.592294,-18.468027
11.185,2.0,1.0,1.0,34.7,33.9,33.9,3.0,3.4,2.7875,-0.6798258563249537,-0.03733432656384746,0.6370941501081239,-0.11746711463345247,-0.614542,-18.183743
11.185,2.0,1.0,1.0,34.7,33.9,33.9,3.0,3.4,2.79,-0.6925699466129398,-0.03557713376010812,0.619403537293725,-0.12237752261685415,-0.638313,-17.893607
11.185,2.0,1.0,1.0,34.7,33.9,33.9,3.0,3.4,2.7925,-0.7049583769888699,-0.033591571306040444,0.601084430480439,-0.12751591926948594,-0.663767,-17.597328
11.185,2.0,1.0,1.0,34.7,33.9,33.9,3.0,3.4,2.795,-0.7169541406704228,-0.03135192525388865,0.5821200641878107,-0.1328951362806454,-0.691085,-17.294595
11.185,2.0,1.0,1.0,34.7,33.9,33.9,3.0,3.4,2.7975,-0.7285164030804463,-0.02882900657002248,0.5624932028023845,-0.13852862721969147,-0.720475,-16.985079
11.185,2.0,1.0,1.0,34.7,33.9,33.9,3.0,3.4,2.8,-0.7395999352427918,-0.025989592459250987,0.542186210509798,-0.14443040318092823,-0.752175,-16.66843
11.185,2.0,1.0,1.0,34.7,33.9,33.9,3.0,3.4,2.8025,-0.750154444841999,-0.022795766573960045,0.5211811658374578,-0.15061492319946151,-0.786457,-16.344277
11.185,2.0,1.0,1.0,34.7,33.9,33.9,3.0,3.4,2.805,-0.7601237852151292,-0.019204138744759205,0.49946003842267994,-0.15709692177799847,-0.82364,-16.012228
11.185,2.0,1.0,1.0,34.7,33.9,33.9,3.0,3.4,2.8075,-0.7694450189434633,-0.015164921360863372,0.47700495206498583,-0.1638911494522381,-0.86409,-15.671864
11.185,2.0,1.0,1.0,34.7,33.9,33.9,3.0,3.4,2.81,-0.7780473087167161,-0.01062083564738092,0.4537985669260147,-0.17101199356950347,-0.908235,-15.32275
11.185,2.0,1.0,1.0,34.7,33.9,33.9,3.0,3.4,2.8125,-0.785850603921608,-0.00550581700656909,0.429824625782403,-0.178472934495046,-0.956576,-14.964422
11.185,2.0,1.0,1.0,34.7,33.9,33.9,3.0,3.4,2.815,-0.7927640873304023,0.0002565153139508484,0.4050687257138543,-0.18628577610971617,-1.009703,-14.596398
11.185,2.0,1.0,1.0,34.7,33.9,33.9,3.0,3.4,2.8175,-0.7986843430527024,0.006754661967339735,0.37951939914654664,-0.19445956711615056,-1.068312,-14.218177
11.185,2.0,1.0,1.0,34.7,33.9,33.9,3.0,3.4,2.82,-0.8034932058769068,0.014091359199552844,0.35316961895545695,-0.2029990991748474,-1.133231,-13.829241
11.185,2.0,1.0,1.0,34.7,33.9,33.9,3.0,3.4,2.8225,-0.8070552555699085,0.022386041294006752,0.3260188842403496,-0.21190282640819214,-1.205448,-13.429064
11.185,2.0,1.0,1.0,34.7,33.9,33.9,3.0,3.4,2.825,-0.809214931563976,0.0317776724096243,0.29807610012784896,-0.22115999470511807,-1.28615,-13.017118
11.185,2.0,1.0,1.0,34.7,33.9,33.9,3.0,3.4,2.8275,-0.8097932703437333,0.042427943273510384,0.2693635410385292,-0.2307466940992888,-1.376767,-12.592887
