1,w,sub_t,h,l1,l2,l3,g1,g2,Freq,S11_re,S21_re,S11_img,S21_img,S11_dB,S21_dB
11.185,2.0,1.0,1.0,34.8,34.2,34.2,3.8,2.4,2.5,0.64591682533521,-0.0138486160324538,0.752270061853022,0.00481049277077167,-0.07394,-36.677131
11.185,2.0,1.0,1.0,34.8,34.2,34.2,3.8,2.4,2.5025,0.639460629218952,-0.014084841380085882,0.7576407708632734,0.004748883194910237,-0.074777,-36.557362
11.185,2.0,1.0,1.0,34.8,34.2,34.2,3.8,2.4,2.505,0.6329230514627423,-0.014324701171866662,0.7629842669049597,0.00468390056219143,-0.075629,-36.43714
11.185,2.0,1.0,1.0,34.8,34.2,34.2,3.8,2.4,2.5075,0.6263033527650876,-0.014568251725276286,0.7682995872312083,0.004615433181006331,-0.076497,-36.316458
11.185,2.0,1.0,1.0,34.8,34.2,34.2,3.8,2.4,2.51,0.6196007892108889,-0.01481555016355124,0.7735857432655552,0.004543365532175313,-0.077382,-36.195306
11.185,2.0,1.0,1.0,34.8,34.2,34.2,3.8,2.4,2.5125,0.612814612475011,-0.015066654418681994,0.7788417199099984,0.004467578121741261,-0.078283,-36.073675
11.185,2.0,1.0,1.0,34.8,34.2,34.2,3.8,2.4,2.515,0.6059440700405682,-0.015321623233757799,0.7840664748352643,0.0043879473272231025,-0.079202,-35.951556
11.185,2.0,1.0,1.0,34.8,34.2,34.2,3.8,2.4,2.5175,0.5989884054326419,-0.015580516164601117,0.7892589377528374,0.004304345236986442,-0.080138,-35.82894
11.185,2.0,1.0,1.0,34.8,34.2,34.2,3.8,2.4,2.52,0.5919468584681287,-0.015843393580632796,0.7944180096683273,0.004216639482365746,-0.081092,-35.705818
11.185,2.0,1.0,1.0,34.8,34.2,34.2,3.8,2.4,2.5225,0.5848186655224998,-0.016110316664901803,0.7995425621156881,0.004124693062151194,-0.082065,-35.582179
11.185,2.0,1.0,1.0,34.8,34.2,34.2,3.8,2.4,2.525,0.5776030598142325,-0.01638134741321103,0.8046314363718496,0.004028364159026555,-0.083057,-35.458013
11.185,2.0,1.0,1.0,34.8,34.2,34.2,3.8,2.4,2.5275,0.5702992717077324,-0.01665654863226403,0.8096834426512622,0.003927505947519057,-0.084069,-35.333312
11.185,2.0,1.0,1.0,34.8,34.2,34.2,3.8,2.4,2.53,0.5629065290356013,-0.01693598393675175,0.8146973592798562,0.003821966392993379,-0.085101,-35.208064
11.185,2.0,1.0,1.0,34.8,34.2,34.2,3.8,2.4,2.5325,0.5554240574411241,-0.017219717745293385,0.8196719318479111,0.003711588041191028,-0.086153,-35.082258
11.185,2.0,1.0,1.0,34.8,34.2,34.2,3.8,2.4,2.535,0.5478510807418852,-0.017507815275137426,0.8246058723413064,0.0035962077977827007,-0.087227,-34.955885
11.185,2.0,1.0,1.0,34.8,34.2,34.2,3.8,2.4,2.5375,0.5401868213154802,-0.017800342535522155,0.8294978582505991,0.0034756566973660826,-0.088322,-34.828934
11.185,2.0,1.0,1.0,34.8,34.2,34.2,3.8,2.4,2.54,0.532430500508297,-0.01809736631958786,0.8343465316573727,0.0033497596613032716,-0.08944,-34.701392
11.185,2.0,1.0,1.0,34.8,34.2,34.2,3.8,2.4,2.5425,0.5245813390683963,-0.018398954194722206,0.8391504982972715,0.0032183352437487257,-0.09058,-34.573249
11.185,2.0,1.0,1.0,34.8,34.2,34.2,3.8,2.4,2.545,0.5166385576035638,-0.01870517449121338,0.8439083265991101,0.0030811953651753553,-0.091744,-34.444493
11.185,2.0,1.0,1.0,34.8,34.2,34.2,3.8,2.4,2.5475,0.5086013770656439,-0.019016096289072314,0.8486185466994256,0.0029381450326575573,-0.092933,-34.315113
11.185,2.0,1.0,1.0,34.8,34.2,34.2,3.8,2.4,2.55,0.5004690192622899,-0.019331789402877508,0.853279649431829,0.002788982046115584,-0.094146,-34.185094
11.185,2.0,1.0,1.0,34.8,34.2,34.2,3.8,2.4,2.5525,0.4922407073973586,-0.019652324364478994,0.8578900852904494,0.002633496689671875,-0.095385,-34.054427
11.185,2.0,1.0,1.0,34.8,34.2,34.2,3.8,2.4,2.555,0.48391566664116153,-0.019977772403388976,0.8624482633667698,0.002471471407204547,-0.09665,-33.923096
11.185,2.0,1.0,1.0,34.8,34.2,34.2,3.8,2.4,2.5575,0.47549312473187794,-0.020308205424668397,0.8669525502591023,0.002302680461120022,-0.097942,-33.79109
11.185,2.0,1.0,1.0,34.8,34.2,34.2,3.8,2.4,2.56,0.4669723126094738,-0.020643695984103032,0.8714012689539047,0.00212688957329115,-0.099262,-33.658394
11.185,2.0,1.0,1.0,34.8,34.2,34.2,3.8,2.4,2.5625,0.4583524650835169,-0.02098431726044473,0.8757926976781152,0.0019438555470304866,-0.100611,-33.524995
11.185,2.0,1.0,1.0,34.8,34.2,34.2,3.8,2.4,2.565,0.4496328215363261,-0.02133014302447358,0.8801250687216268,0.0017533258688818799,-0.101989,-33.390879
11.185,2.0,1.0,1.0,34.8,34.2,34.2,3.8,2.4,2.5675,0.4408126266629822,-0.021681247604612323,0.8843965672289685,0.0015550382889204897,-0.103397,-33.256031
11.185,2.0,1.0,1.0,34.8,34.2,34.2,3.8,2.4,2.57,0.43189113124974293,-0.022037705848803272,0.8886053299592077,0.0013487203781502328,-0.104837,-33.120436
11.185,2.0,1.0,1.0,34.8,34.2,34.2,3.8,2.4,2.5725,0.4228675929924936,-0.022399593082326696,0.8927494440130362,0.0011340890614775798,-0.106309,-32.984079
11.185,2.0,1.0,1.0,34.8,34.2,34.2,3.8,2.4,2.575,0.41374127735692545,-0.02276698506121236,0.8968269455259046,0.0009108501246193265,-0.107814,-32.846944
11.185,2.0,1.0,1.0,34.8,34.2,34.2,3.8,2.4,2.5775,0.40451145848220105,-0.023139957920860012,0.9008358183260164,0.000678697693172636,-0.109354,-32.709014
11.185,2.0,1.0,1.0,34.8,34.2,34.2,3.8,2.4,2.58,0.39517742012993473,-0.023518588119448215,0.9047739925558971,0.00043731368193049904,-0.110929,-32.570274
11.185,2.0,1.0,1.0,34.8,34.2,34.2,3.8,2.4,2.5825,0.3857384566803874,-0.02390295237566874,0.9086393432561495,0.00018636721237051307,-0.11254,-32.430705
11.185,2.0,1.0,1.0,34.8,34.2,34.2,3.8,2.4,2.585,0.37619387417787,-0.024293127600276236,0.9124296889099182,-7.448600392657875e-05,-0.114189,-32.290291
11.185,2.0,1.0,1.0,34.8,34.2,34.2,3.8,2.4,2.5875,0.3665429914274101,-0.02468919082089277,0.9161427899464331,-0.00034560431835952603,-0.115876,-32.149012
11.185,2.0,1.0,1.0,34.8,34.2,34.2,3.8,2.4,2.59,0.35678514114485826,-0.025091219099444895,0.9197763472018962,-0.0006273608375262692,-0.117603,-32.006851
11.185,2.0,1.0,1.0,34.8,34.2,34.2,3.8,2.4,2.5925,0.3469196711626655,-0.025499289441549947,0.9233280003358094,-0.0009201441574417349,-0.119372,-31.863787
11.185,2.0,1.0,1.0,34.8,34.2,34.2,3.8,2.4,2.595,0.3369459456937088,-0.02591347869709014,0.9267953262006714,-0.0012243591428609197,-0.121184,-31.719801
11.185,2.0,1.0,1.0,34.8,34.2,34.2,3.8,2.4,2.5975,0.3268633466556166,-0.026333863451135166,0.9301758371627754,-0.0015404277550866358,-0.123039,-31.574873
11.185,2.0,1.0,1.0,34.8,34.2,34.2,3.8,2.4,2.6,0.31667127505817255,-0.026760519904277573,0.9334669793716549,-0.0018687899319379073,-0.12494,-31.428981
11.185,2.0,1.0,1.0,34.8,34.2,34.2,3.8,2.4,2.6025,0.30636915245653007,-0.027193523741343636,0.9366661309754366,-0.002209904523883542,-0.126889,-31.282103
11.185,2.0,1.0,1.0,34.8,34.2,34.2,3.8,2.4,2.605,0.29595642247306175,-0.02763294998732288,0.9397706002791417,-0.0025642502907064226,-0.128886,-31.134217
11.185,2.0,1.0,1.0,34.8,34.2,34.2,3.8,2.4,2.6075,0.2854325523908605,-0.028078872849228453,0.9427776238426349,-0.002932326963461122,-0.130933,-30.985299
11.185,2.0,1.0,1.0,34.8,34.2,34.2,3.8,2.4,2.61,0.27479703482206136,-0.028531365542448877,0.9456843645146085,-0.003314656376927515,-0.133033,-30.835325
11.185,2.0,1.0,1.0,34.8,34.2,34.2,3.8,2.4,2.6125,0.2640493894543233,-0.02899050009998288,0.9484879093985981,-0.003711783678246529,-0.135188,-30.68427
11.185,2.0,1.0,1.0,34.8,34.2,34.2,3.8,2.4,2.615,0.2531891648790202,-0.029456347162757694,0.9511852677466047,-0.004124278617961236,-0.137398,-30.532108
11.185,2.0,1.0,1.0,34.8,34.2,34.2,3.8,2.4,2.6175,0.24221594050493395,-0.029928975749010003,0.9537733687754053,-0.004552736930278327,-0.139667,-30.378813
11.185,2.0,1.0,1.0,34.8,34.2,34.2,3.8,2.4,2.62,0.23112932856145546,-0.030408453000464616,0.9562490594001167,-0.00499778181002171,-0.141996,-30.224356
11.185,2.0,1.0,1.0,34.8,34.2,34.2,3.8,2.4,2.6225,0.21992897619559237,-0.030894843902761163,0.9586091018789534,-0.0054600654944793265,-0.144387,-30.068709
11.185,2.0,1.0,1.0,34.8,34.2,34.2,3.8,2.4,2.625,0.208614567667424,-0.0313882109772586,0.960850171362442,-0.00594027095914932,-0.146844,-29.911842
11.185,2.0,1.0,1.0,34.8,34.2,34.2,3.8,2.4,2.6275,0.19718582664893716,-0.03188861394098286,0.9629688533395889,-0.006439113737292643,-0.149369,-29.753724
11.185,2.0,1.0,1.0,34.8,34.2,34.2,3.8,2.4,2.63,0.18564251863162445,-0.03239610933106092,0.9649616409726367,-0.006957343874195131,-0.151964,-29.594323
11.185,2.0,1.0,1.0,34.8,34.2,34.2,3.8,2.4,2.6325,0.1739844534486592,-0.032910750089510776,0.9668249323110534,-0.007495748028153757,-0.154632,-29.433605
11.185,2.0,1.0,1.0,34.8,34.2,34.2,3.8,2.4,2.635,0.1622114879179677,-0.0334325851037042,0.9685550273743214,-0.008055151731441352,-0.157377,-29.271536
11.185,2.0,1.0,1.0,34.8,34.2,34.2,3.8,2.4,2.6375,0.1503235286131395,-0.03396165869719356,0.9701481250918259,-0.008636421825884985,-0.1602,-29.10808
11.185,2.0,1.0,1.0,34.8,34.2,34.2,3.8,2.4,2.64,0.1383205347697247,-0.03449801006487291,0.9716003200867797,-0.00924046908923853,-0.163107,-28.943199
11.185,2.0,1.0,1.0,34.8,34.2,34.2,3.8,2.4,2.6425,0.1262025213353108,-0.03504167264560887,0.9729075992894946,-0.009868251070254984,-0.1661,-28.776854
11.185,2.0,1.0,1.0,34.8,34.2,34.2,3.8,2.4,2.645,0.11396956217261861,-0.035592673424527106,0.9740658383635682,-0.010520775152297736,-0.169182,-28.609005
11.185,2.0,1.0,1.0,34.8,34.2,34.2,3.8,2.4,2.6475,0.10162179342588636,-0.03615103215602952,0.9750707979264962,-0.011199101867498017,-0.172359,-28.439609
11.185,2.0,1.0,1.0,34.8,34.2,34.2,3.8,2.4,2.65,0.08915941706199565,-0.03671676049734994,0.9759181195439692,-0.011904348485896565,-0.175634,-28.268621
11.185,2.0,1.0,1.0,34.8,34.2,34.2,3.8,2.4,2.6525,0.07658270459920913,-0.03728986104097303,0.976603321474493,-0.01263769290673941,-0.179012,-28.095997
11.185,2.0,1.0,1.0,34.8,34.2,34.2,3.8,2.4,2.655,0.06389200103790295,-0.03787032623253774,0.9771217941380723,-0.013400377882175579,-0.182497,-27.921687
11.185,2.0,1.0,1.0,34.8,34.2,34.2,3.8,2.4,2.6575,0.05108772900964723,-0.03845813715885601,0.9774687952793334,-0.014193715607064391,-0.186095,-27.745641
11.185,2.0,1.0,1.0,34.8,34.2,34.2,3.8,2.4,2.66,0.038170393163054095,-0.03905326218836993,0.977639444791731,-0.015019092712508718,-0.18981,-27.567807
11.185,2.0,1.0,1.0,34.8,34.2,34.2,3.8,2.4,2.6625,0.025140584807459523,-0.03965565544367903,0.9776287191651591,-0.01587797570514148,-0.19365,-27.38813
11.185,2.0,1.0,1.0,34.8,34.2,34.2,3.8,2.4,2.665,0.01199898683836724,-0.0402652550826283,0.9774314455144397,-0.01677191689918372,-0.197619,-27.206553
11.185,2.0,1.0,1.0,34.8,34.2,34.2,3.8,2.4,2.6675,-0.0012536210277841002,-0.040881981360773784,0.977042295140593,-0.017702560893939633,-0.201726,-27.023014
11.185,2.0,1.0,1.0,34.8,34.2,34.2,3.8,2.4,2.67,-0.014616356678004476,-0.04150573444374134,0.9764557765705096,-0.018671651655802726,-0.205975,-26.837451
11.185,2.0,1.0,1.0,34.8,34.2,34.2,3.8,2.4,2.6725,-0.028088229649789617,-0.04213639193294032,0.9756662280133918,-0.019681040271120238,-0.210377,-26.649798
11.185,2.0,1.0,1.0,34.8,34.2,34.2,3.8,2.4,2.675,-0.04166813475868203,-0.04277380606215423,0.9746678091641797,-0.020732693444531308,-0.214937,-26.459986
11.185,2.0,1.0,1.0,34.8,34.2,34.2,3.8,2.4,2.6775,-0.05535484525738604,-0.04341780051552696,0.9734544922747196,-0.021828702826811056,-0.219666,-26.267941
11.185,2.0,1.0,1.0,34.8,34.2,34.2,3.8,2.4,2.68,-0.06914700546951212,-0.04406816680919206,0.9720200524027374,-0.0229712952669866,-0.224573,-26.073587
11.185,2.0,1.0,1.0,34.8,34.2,34.2,3.8,2.4,2.6825,-0.08304312283143776,-0.04472466016900152,0.9703580567363799,-0.02416284409574184,-0.229668,-25.876843
11.185,2.0,1.0,1.0,34.8,34.2,34.2,3.8,2.4,2.685,-0.09704155926445411,-0.0453869948251963,0.9684618528779777,-0.025405881561140316,-0.234962,-25.677624
11.185,2.0,1.0,1.0,34.8,34.2,34.2,3.8,2.4,2.6875,-0.11114052178582208,-0.04605483863104685,0.9663245559545298,-0.02670311255372528,-0.240467,-25.475842
11.185,2.0,1.0,1.0,34.8,34.2,34.2,3.8,2.4,2.69,-0.12533805225119068,-0.04672780689602812,0.9639390344038526,-0.028057429776436528,-0.246196,-25.271401
11.185,2.0,1.0,1.0,34.8,34.2,34.2,3.8,2.4,2.6925,-0.13963201610144393,-0.04740545530442263,0.9612978942639742,-0.02947193053587737,-0.252163,-25.064204
11.185,2.0,1.0,1.0,34.8,34.2,34.2,3.8,2.4,2.695,-0.15402008996371017,-0.0480872717666737,0.9583934617687699,-0.030949935355695988,-0.258384,-24.854145
11.185,2.0,1.0,1.0,34.8,34.2,34.2,3.8,2.4,2.6975,-0.16849974792832564,-0.0487726670225087,0.9552177640245574,-0.032495008640735464,-0.264874,-24.641114
11.185,2.0,1.0,1.0,34.8,34.2,34.2,3.8,2.4,2.7,-0.1830682462895944,-0.04946096378075654,0.9517625075097045,-0.03411098165270971,-0.271652,-24.424993
11.185,2.0,1.0,1.0,34.8,34.2,34.2,3.8,2.4,2.7025,-0.19772260649732068,-0.05015138413961489,0.9480190541016048,-0.035801978095189146,-0.278739,-24.205659
11.185,2.0,1.0,1.0,34.8,34.2,34.2,3.8,2.4,2.705,-0.21245959601636005,-0.05084303498125282,0.9439783942918866,-0.03757244264838579,-0.286155,-23.982982
11.185,2.0,1.0,1.0,34.8,34.2,34.2,3.8,2.4,2.7075,-0.2272757067309531,-0.05153489097405942,0.9396311172003817,-0.0394271728435532,-0.293924,-23.756821
11.185,2.0,1.0,1.0,34.8,34.2,34.2,3.8,2.4,2.71,-0.24216713045687757,-0.05222577474203442,0.9349673769402538,-0.04137135472377924,-0.302073,-23.527031
11.185,2.0,1.0,1.0,34.8,34.2,34.2,3.8,2.4,2.7125,-0.2571297310340786,-0.052914333670593866,0.9299768548193958,-0.043410602803784684,-0.310631,-23.293454
11.185,2.0,1.0,1.0,34.8,34.2,34.2,3.8,2.4,2.715,-0.272159012361585,-0.05359901270742321,0.9246487167854704,-0.0455510049173838,-0.319629,-23.055924
11.185,2.0,1.0,1.0,34.8,34.2,34.2,3.8,2.4,2.7175,-0.28725008159988363,-0.05427802238087378,0.9189715654320747,-0.04779917262907649,-0.329103,-22.814265
11.185,2.0,1.0,1.0,34.8,34.2,34.2,3.8,2.4,2.72,-0.30239760659718706,-0.054949301090323276,0.9129333857798468,-0.050162297987513996,-0.339091,-22.568289
11.185,2.0,1.0,1.0,34.8,34.2,34.2,3.8,2.4,2.7225,-0.31759576638659265,-0.0556104705146703,0.9065214839267388,-0.05264821751517654,-0.349638,-22.317794
11.185,2.0,1.0,1.0,34.8,34.2,34.2,3.8,2.4,2.725,-0.3328381933406461,-0.05625878272616479,0.8997224175244594,-0.055265484462432415,-0.360792,-22.062568
11.185,2.0,1.0,1.0,34.8,34.2,34.2,3.8,2.4,2.7275,-0.34811790524441344,-0.056891057273543884,0.8925219168808494,-0.05802345050717809,-0.372607,-21.802381
11.185,2.0,1.0,1.0,34.8,34.2,34.2,3.8,2.4,2.73,-0.3634272251400984,-0.05750360609343706,0.8849047953092022,-0.060932358255153515,-0.385144,-21.53699
11.185,2.0,1.0,1.0,34.8,34.2,34.2,3.8,2.4,2.7325,-0.3787576862827316,-0.05809214359956468,0.8768548471435695,-0.06400344609205175,-0.398472,-21.266132
11.185,2.0,1.0,1.0,34.8,34.2,34.2,3.8,2.4,2.735,-0.39409991889760027,-0.05865167865587106,0.868354731613933,-0.0672490671568217,-0.412667,-20.989529
11.185,2.0,1.0,1.0,34.8,34.2,34.2,3.8,2.4,2.7375,-0.4094435146068166,-0.05917638432389097,0.8593858405278051,-0.07068282444447842,-0.427817,-20.706881
11.185,2.0,1.0,1.0,34.8,34.2,34.2,3.8,2.4,2.74,-0.42477686334374043,-0.05965944023582863,0.8499281474403633,-0.07431972430141638,-0.444021,-20.417865
11.185,2.0,1.0,1.0,34.8,34.2,34.2,3.8,2.4,2.7425,-0.4400869562325612,-0.060092841116580135,0.8399600357230157,-0.07817635083668355,-0.461392,-20.122135
11.185,2.0,1.0,1.0,34.8,34.2,34.2,3.8,2.4,2.745,-0.45535914618719164,-0.06046716327249879,0.829458102678785,-0.08227106402039548,-0.480059,-19.81932
11.185,2.0,1.0,1.0,34.8,34.2,34.2,3.8,2.4,2.7475,-0.47057685576127667,-0.060771278665856014,0.8183969366335712,-0.08662422444355114,-0.50017,-19.50902
11.185,2.0,1.0,1.0,34.8,34.2,34.2,3.8,2.4,2.75,-0.485721218902715,-0.0609920033473367,0.80674886380829,-0.0912584478186359,-0.521896,-19.190804
11.185,2.0,1.0,1.0,34.8,34.2,34.2,3.8,2.4,2.7525,-0.5007706395237568,-0.06111366331908133,0.7944836618348958,-0.09619889222060535,-0.545435,-18.864207
11.185,2.0,1.0,1.0,34.8,34.2,34.2,3.8,2.4,2.755,-0.515700244913395,-0.061117556074052184,0.7815682371592843,-0.10147358066324948,-0.571016,-18.528729
11.185,2.0,1.0,1.0,34.8,34.2,34.2,3.8,2.4,2.7575,-0.5304812056226513,-0.06098127973919702,0.7679662644996026,-0.10711376065346707,-0.598909,-18.183829
11.185,2.0,1.0,1.0,34.8,34.2,34.2,3.8,2.4,2.76,-0.545079885052627,-0.06067789345516914,0.753637788354967,-0.11315430051173023,-0.629427,-17.828925
11.185,2.0,1.0,1.0,34.8,34.2,34.2,3.8,2.4,2.7625,-0.5594567709179153,-0.06017486171252593,0.7385387898491013,-0.11963411893138262,-0.662944,-17.463389
11.185,2.0,1.0,1.0,34.8,34.2,34.2,3.8,2.4,2.765,-0.5735651261869172,-0.0594327209914274,0.7226207278364228,-0.12659663858794956,-0.6999,-17.086543
11.185,2.0,1.0,1.0,34.8,34.2,34.2,3.8,2.4,2.7675,-0.5873492779077158,-0.05840338813070402,0.7058300726014292,-0.1340902452050566,-0.740821,-16.697659
11.185,2.0,1.0,1.0,34.8,34.2,34.2,3.8,2.4,2.77,-0.6007424371136209,-0.057028005012161986,0.6881078658739721,-0.14216871812617818,-0.786341,-16.295954
11.185,2.0,1.0,1.0,34.8,34.2,34.2,3.8,2.4,2.7725,-0.6136639100783559,-0.05523418173747838,0.6693893657916798,-0.150891573633952,-0.837222,-15.880592
11.185,2.0,1.0,1.0,34.8,34.2,34.2,3.8,2.4,2.775,-0.6260155186850551,-0.05293245867897436,0.6496038754591823,-0.16032422246304343,-0.894393,-15.450683
11.185,2.0,1.0,1.0,34.8,34.2,34.2,3.8,2.4,2.7775,-0.6376769938869197,-0.05001175497106683,0.6286749177405848,-0.17053777940315856,-0.958992,-15.005286
11.185,2.0,1.0,1.0,34.8,34.2,34.2,3.8,2.4,2.78,-0.648500040541618,-0.04633350663191561,0.6065210208730055,-0.18160826174914038,-1.032423,-14.543422
11.185,2.0,1.0,1.0,34.8,34.2,34.2,3.8,2.4,2.7825,-0.6583006967779853,-0.041724124137761824,0.5830575413834367,-0.19361475291645902,-1.116431,-14.064085
11.185,2.0,1.0,1.0,34.8,34.2,34.2,3.8,2.4,2.785,-0.6668495364601448,-0.0359653269435964,0.558200206732781,-0.20663585415205904,-1.213198,-13.566275
11.185,2.0,1.0,1.0,34.8,34.2,34.2,3.8,2.4,2.7875,-0.6738592156808451,-0.028781867556263066,0.531871461868784,-0.2207433499147844,-1.325481,-13.049036
11.185,2.0,1.0,1.0,34.8,34.2,34.2,3.8,2.4,2.79,-0.6789689044087809,-0.019826200880558517,0.5040113269192266,-0.23599139692038015,-1.456781,-12.511531
11.185,2.0,1.0,1.0,34.8,34.2,34.2,3.8,2.4,2.7925,-0.6817254024253153,-0.008659914684807226,0.4745954193569973,-0.25239861319142765,-1.61157,-11.953151
11.185,2.0,1.0,1.0,34.8,34.2,34.2,3.8,2.4,2.795,-0.6815614776997695,0.005267525141404753,0.44366417799489744,-0.26991907963097755,-1.795595,-11.373675
11.185,2.0,1.0,1.0,34.8,34.2,34.2,3.8,2.4,2.7975,-0.6777736918163635,0.022640444557683475,0.4113692145535964,-0.28839640973234393,-2.016244,-10.77352
11.185,2.0,1.0,1.0,34.8,34.2,34.2,3.8,2.4,2.8,-0.6695056048816527,0.04429317972509948,0.37804494138359923,-0.3074928658130195,-2.282981,-10.154108
11.185,2.0,1.0,1.0,34.8,34.2,34.2,3.8,2.4,2.8025,-0.655749269223885,0.07120803429762751,0.344315296208789,-0.32658388490295387,-2.607758,-9.518395
11.185,2.0,1.0,1.0,34.8,34.2,34.2,3.8,2.4,2.805,-0.635390286122404,0.10446995645974881,0.3112438550065075,-0.34460995396846966,-3.005147,-8.871605
11.185,2.0,1.0,1.0,34.8,34.2,34.2,3.8,2.4,2.8075,-0.607340597921248,0.14513430157062232,0.2805245930356893,-0.3598887717204692,-3.49152,-8.222215
11.185,2.0,1.0,1.0,34.8,34.2,34.2,3.8,2.4,2.81,-0.5708245651739421,0.19394309242475824,0.2546780047346945,-0.369922902736585,-4.081548,-7.583119
11.185,2.0,1.0,1.0,34.8,34.2,34.2,3.8,2.4,2.8125,-0.525887733995706,0.250821731774865,0.237147580188987,-0.37130702273679,-4.778207,-6.972786
11.185,2.0,1.0,1.0,34.8,34.2,34.2,3.8,2.4,2.815,-0.4741330142061876,0.31415255432004724,0.23208463533428297,-0.35994424247254925,-5.54917,-6.41586
11.185,2.0,1.0,1.0,34.8,34.2,34.2,3.8,2.4,2.8175,-0.4194812353682727,0.3800272087102467,0.24353428855745513,-0.3318542896548245,-6.284271,-5.942304
11.185,2.0,1.0,1.0,34.8,34.2,34.2,3.8,2.4,2.82,-0.3684065133133763,0.44202147890201887,0.2738894546066916,-0.2847024870975961,-6.762555,-5.584015
11.185,2.0,1.0,1.0,34.8,34.2,34.2,3.8,2.4,2.8225,-0.32891364915449606,0.49221445300401506,0.3220725953075507,-0.21959192006469383,-6.738384,-5.368603
11.185,2.0,1.0,1.0,34.8,34.2,34.2,3.8,2.4,2.825,-0.3080877508375068,0.5236143788618102,0.38266826261220704,-0.1419095464708077,-6.173472,-5.311945
11.185,2.0,1.0,1.0,34.8,34.2,34.2,3.8,2.4,2.8275,-0.309370772622385,0.5328452515150993,0.4471343925189769,-0.06011660790826257,-5.292376,-5.413046
