1,w,sub_t,h,l1,l2,l3,g1,g2,Freq,S11_re,S21_re,S11_img,S21_img,S11_dB,S21_dB
11.185,2.0,1.0,1.0,33.2,33.0,33.0,3.9,3.4,2.5,0.881522118319959,-0.00430344642908761,0.460557961939913,0.00339468671559154,-0.047181,-45.222488
11.185,2.0,1.0,1.0,33.2,33.0,33.0,3.9,3.4,2.5025,0.87861486843001,-0.004386103093562064,0.46598891498399253,0.0034062600497708055,-0.047555,-45.108785
11.185,2.0,1.0,1.0,33.2,33.0,33.0,3.9,3.4,2.505,0.8756630684700619,-0.004470022659135331,0.471420764922126,0.003417346920603569,-0.047935,-44.994978
11.185,2.0,1.0,1.0,33.2,33.0,33.0,3.9,3.4,2.5075,0.872666325325627,-0.004555225099436459,0.4768533467438641,0.0034279305826226242,-0.04832,-44.881062
11.185,2.0,1.0,1.0,33.2,33.0,33.0,3.9,3.4,2.51,0.8696242399377123,-0.004641730774601821,0.48228649072005536,0.003437993778027642,-0.048711,-44.767028
11.185,2.0,1.0,1.0,33.2,33.0,33.0,3.9,3.4,2.5125,0.8665364072153959,-0.004729560439704011,0.4877200222539722,0.003447518719345544,-0.049108,-44.652871
11.185,2.0,1.0,1.0,33.2,33.0,33.0,3.9,3.4,2.515,0.8634024159475303,-0.00481873525337229,0.4931537617279113,0.0034564870714445693,-0.049511,-44.538584
11.185,2.0,1.0,1.0,33.2,33.0,33.0,3.9,3.4,2.5175,0.8602218487135916,-0.004909276786608353,0.4985875243451044,0.0034648799328747992,-0.049921,-44.424159
11.185,2.0,1.0,1.0,33.2,33.0,33.0,3.9,3.4,2.52,0.8569942817936891,-0.005001207031801974,0.5040211199668124,0.0034726778165068456,-0.050337,-44.309591
11.185,2.0,1.0,1.0,33.2,33.0,33.0,3.9,3.4,2.5225,0.853719285077765,-0.0050945484119509265,0.5094543529444238,0.003479860629440182,-0.050759,-44.194872
11.185,2.0,1.0,1.0,33.2,33.0,33.0,3.9,3.4,2.525,0.8503964219740011,-0.005189323790089405,0.5148870219464207,0.003486407652150017,-0.051188,-44.079997
11.185,2.0,1.0,1.0,33.2,33.0,33.0,3.9,3.4,2.5275,0.8470252493164622,-0.005285556478928819,0.5203189197800423,0.0034922975168410284,-0.051624,-43.964957
11.185,2.0,1.0,1.0,33.2,33.0,33.0,3.9,3.4,2.53,0.8436053172720032,-0.005383270250717329,0.5257498332074665,0.0034975081849737116,-0.052067,-43.849746
11.185,2.0,1.0,1.0,33.2,33.0,33.0,3.9,3.4,2.5325,0.8401361692464744,-0.00548248934731957,0.5311795427563478,0.0035020169239295094,-0.052516,-43.734357
11.185,2.0,1.0,1.0,33.2,33.0,33.0,3.9,3.4,2.535,0.8366173417902572,-0.005583238490524517,0.5366078225245277,0.0035058002827766544,-0.052973,-43.618784
11.185,2.0,1.0,1.0,33.2,33.0,33.0,3.9,3.4,2.5375,0.8330483645031675,-0.005685542892583374,0.5420344399787207,0.003508834067098905,-0.053438,-43.503019
11.185,2.0,1.0,1.0,33.2,33.0,33.0,3.9,3.4,2.54,0.8294287599387729,-0.005789428266984001,0.5474591557469977,0.0035110933128465215,-0.05391,-43.387056
11.185,2.0,1.0,1.0,33.2,33.0,33.0,3.9,3.4,2.5425,0.8257580435081571,-0.005894920839465656,0.5528817234048571,0.0035125522591675897,-0.054389,-43.270887
11.185,2.0,1.0,1.0,33.2,33.0,33.0,3.9,3.4,2.545,0.8220357233831905,-0.006002047359278899,0.5583018892546836,0.0035131843201745994,-0.054876,-43.154505
11.185,2.0,1.0,1.0,33.2,33.0,33.0,3.9,3.4,2.5475,0.8182613003993552,-0.006110835110695578,0.5637193920983723,0.0035129620556001743,-0.055372,-43.037904
11.185,2.0,1.0,1.0,33.2,33.0,33.0,3.9,3.4,2.55,0.8144342679581725,-0.006221311924774107,0.5691339630029149,0.0035118571402934715,-0.055875,-42.921075
11.185,2.0,1.0,1.0,33.2,33.0,33.0,3.9,3.4,2.5525,0.8105541119293092,-0.0063335061913838975,0.5745453250586972,0.0035098403325047644,-0.056387,-42.804013
11.185,2.0,1.0,1.0,33.2,33.0,33.0,3.9,3.4,2.555,0.8066203105524102,-0.006447446871493997,0.5799531931302931,0.0035068814409063643,-0.056908,-42.686709
11.185,2.0,1.0,1.0,33.2,33.0,33.0,3.9,3.4,2.5575,0.802632334338737,-0.006563163509731833,0.5853572735995043,0.0035029492902913335,-0.057437,-42.569156
11.185,2.0,1.0,1.0,33.2,33.0,33.0,3.9,3.4,2.56,0.7985896459726833,-0.006680686247215072,0.5907572641003898,0.003498011685892233,-0.057975,-42.451347
11.185,2.0,1.0,1.0,33.2,33.0,33.0,3.9,3.4,2.5625,0.7944917002132482,-0.006800045834662428,0.5961528532460314,0.003492035376256901,-0.058522,-42.333274
11.185,2.0,1.0,1.0,33.2,33.0,33.0,3.9,3.4,2.565,0.7903379437955496,-0.006921273645788551,0.6015437203467676,0.003484986014615891,-0.059078,-42.214931
11.185,2.0,1.0,1.0,33.2,33.0,33.0,3.9,3.4,2.5675,0.7861278153324753,-0.007044401690985806,0.6069295351196093,0.003476828118672842,-0.059644,-42.096309
11.185,2.0,1.0,1.0,33.2,33.0,33.0,3.9,3.4,2.57,0.7818607452165627,-0.007169462631299363,0.6123099573885595,0.0034675250287454465,-0.060219,-41.9774
11.185,2.0,1.0,1.0,33.2,33.0,33.0,3.9,3.4,2.5725,0.7775361555222144,-0.007296489792699735,0.6176846367755376,0.0034570388641808466,-0.060805,-41.858198
11.185,2.0,1.0,1.0,33.2,33.0,33.0,3.9,3.4,2.575,0.7731534599083594,-0.007425517180655705,0.623053212381598,0.0034453304779652515,-0.0614,-41.738694
11.185,2.0,1.0,1.0,33.2,33.0,33.0,3.9,3.4,2.5775,0.7687120635216794,-0.007556579495014117,0.6284153124581292,0.0034323594094438823,-0.062006,-41.61888
11.185,2.0,1.0,1.0,33.2,33.0,33.0,3.9,3.4,2.58,0.76421136290053,-0.007689712145188489,0.6337705540677003,0.0034180838350620405,-0.062622,-41.498749
11.185,2.0,1.0,1.0,33.2,33.0,33.0,3.9,3.4,2.5825,0.7596507458796817,-0.007824951265661998,0.6391185427342235,0.003402460517034518,-0.06325,-41.378293
11.185,2.0,1.0,1.0,33.2,33.0,33.0,3.9,3.4,2.585,0.7550295914960342,-0.007962333731807209,0.6444588720820695,0.0033854447498439504,-0.063888,-41.257502
11.185,2.0,1.0,1.0,33.2,33.0,33.0,3.9,3.4,2.5875,0.7503472698954481,-0.0081018971760271,0.6497911234637865,0.003366990304465531,-0.064538,-41.13637
11.185,2.0,1.0,1.0,33.2,33.0,33.0,3.9,3.4,2.59,0.7456031422408619,-0.008243680004220022,0.6551148655760332,0.0033470493702077156,-0.065199,-41.014887
11.185,2.0,1.0,1.0,33.2,33.0,33.0,3.9,3.4,2.5925,0.7407965606218588,-0.008387721412571148,0.6604296540633482,0.0033255724940540947,-0.065872,-40.893046
11.185,2.0,1.0,1.0,33.2,33.0,33.0,3.9,3.4,2.595,0.7359268679658786,-0.00853406140467384,0.6657350311093408,0.0033025085173848607,-0.066557,-40.770838
11.185,2.0,1.0,1.0,33.2,33.0,33.0,3.9,3.4,2.5975,0.7309933979512512,-0.008682740808981996,0.6710305250149022,0.0032778045099488705,-0.067255,-40.648254
11.185,2.0,1.0,1.0,33.2,33.0,33.0,3.9,3.4,2.6,0.7259954749222687,-0.0088338012965959,0.6763156497629936,0.0032514057009515552,-0.067965,-40.525286
11.185,2.0,1.0,1.0,33.2,33.0,33.0,3.9,3.4,2.6025,0.7209324138065163,-0.008987285399382428,0.6815899045695691,0.003223255407114431,-0.068688,-40.401925
11.185,2.0,1.0,1.0,33.2,33.0,33.0,3.9,3.4,2.605,0.7158035200346798,-0.009143236528429915,0.6868527734201756,0.0031932949575560776,-0.069425,-40.278161
11.185,2.0,1.0,1.0,33.2,33.0,33.0,3.9,3.4,2.6075,0.7106080894630885,-0.00930169899283851,0.6921037245917449,0.003161463615333508,-0.070175,-40.153986
11.185,2.0,1.0,1.0,33.2,33.0,33.0,3.9,3.4,2.61,0.7053454082992456,-0.009462718018844109,0.6973422101590865,0.003127698495475923,-0.070939,-40.029391
11.185,2.0,1.0,1.0,33.2,33.0,33.0,3.9,3.4,2.6125,0.7000147530306242,-0.00962633976927549,0.7025676654855694,0.0030919344793307172,-0.071718,-39.904366
11.185,2.0,1.0,1.0,33.2,33.0,33.0,3.9,3.4,2.615,0.6946153903570131,-0.009792611363341424,0.7077795086974623,0.0030541041250337865,-0.072511,-39.778902
11.185,2.0,1.0,1.0,33.2,33.0,33.0,3.9,3.4,2.6175,0.6891465771267286,-0.009961580896745216,0.7129771401413783,0.0030141375739020366,-0.073319,-39.652989
11.185,2.0,1.0,1.0,33.2,33.0,33.0,3.9,3.4,2.62,0.6836075602770159,-0.010133297462121629,0.718159941824257,0.0029719624525376995,-0.074142,-39.526617
11.185,2.0,1.0,1.0,33.2,33.0,33.0,3.9,3.4,2.6225,0.6779975767789751,-0.010307811169790976,0.7233272768352994,0.0029275037704171018,-0.074981,-39.399777
11.185,2.0,1.0,1.0,33.2,33.0,33.0,3.9,3.4,2.625,0.672315853587396,-0.0104851731688228,0.728478488749227,0.00288068381272786,-0.075837,-39.272459
11.185,2.0,1.0,1.0,33.2,33.0,33.0,3.9,3.4,2.6275,0.666561607595862,-0.010665435668401993,0.7336129010102532,0.0028314220281993353,-0.076709,-39.144652
11.185,2.0,1.0,1.0,33.2,33.0,33.0,3.9,3.4,2.63,0.6607340455975518,-0.010848651959486184,0.7387298162960898,0.0027796349116588543,-0.077597,-39.016345
11.185,2.0,1.0,1.0,33.2,33.0,33.0,3.9,3.4,2.6325,0.6548323642521534,-0.011034876436742917,0.7438285158613192,0.0027252358810289003,-0.078504,-38.887529
11.185,2.0,1.0,1.0,33.2,33.0,33.0,3.9,3.4,2.635,0.6488557500593529,-0.011224164620753449,0.7489082588594168,0.002668135148461415,-0.079428,-38.758193
11.185,2.0,1.0,1.0,33.2,33.0,33.0,3.9,3.4,2.6375,0.642803379339382,-0.011416573180466183,0.7539682816426906,0.002608239585288587,-0.08037,-38.628325
11.185,2.0,1.0,1.0,33.2,33.0,33.0,3.9,3.4,2.64,0.6366744182211138,-0.011612159955881836,0.7590077970393799,0.002545452580447491,-0.081331,-38.497915
11.185,2.0,1.0,1.0,33.2,33.0,33.0,3.9,3.4,2.6425,0.6304680226382618,-0.011810983980949312,0.7640259936071172,0.0024796738920142606,-0.082311,-38.366951
11.185,2.0,1.0,1.0,33.2,33.0,33.0,3.9,3.4,2.645,0.6241833383342361,-0.012013105506648143,0.7690220348619303,0.002410799491461445,-0.083311,-38.235422
11.185,2.0,1.0,1.0,33.2,33.0,33.0,3.9,3.4,2.6475,0.6178195008762554,-0.012218586024229589,0.77399505848193,0.0023387214002252295,-0.084331,-38.103316
11.185,2.0,1.0,1.0,33.2,33.0,33.0,3.9,3.4,2.65,0.6113756356793394,-0.012427488288586468,0.7789441754848039,0.002263327518143279,-0.085373,-37.97062
11.185,2.0,1.0,1.0,33.2,33.0,33.0,3.9,3.4,2.6525,0.6048508580408601,-0.012639876341714406,0.7838684693781727,0.002184501443295303,-0.086435,-37.837324
11.185,2.0,1.0,1.0,33.2,33.0,33.0,3.9,3.4,2.655,0.5982442731863338,-0.012855815536227926,0.7887669952818681,0.002102122282745774,-0.08752,-37.703414
11.185,2.0,1.0,1.0,33.2,33.0,33.0,3.9,3.4,2.6575,0.591554976327206,-0.013075372558884772,0.7936387790211196,0.002016064453656046,-0.088627,-37.568878
11.185,2.0,1.0,1.0,33.2,33.0,33.0,3.9,3.4,2.66,0.5847820527314022,-0.013298615454068238,0.7984828161896116,0.0019261974741964928,-0.089757,-37.433703
11.185,2.0,1.0,1.0,33.2,33.0,33.0,3.9,3.4,2.6625,0.5779245778074746,-0.013525613647172984,0.8032980711813192,0.0018323857436499595,-0.090911,-37.297875
11.185,2.0,1.0,1.0,33.2,33.0,33.0,3.9,3.4,2.665,0.5709816172032002,-0.013756437967830215,0.8080834761900025,0.0017344883110563065,-0.092089,-37.161381
11.185,2.0,1.0,1.0,33.2,33.0,33.0,3.9,3.4,2.6675,0.5639522269195593,-0.013991160672901688,0.812837930175158,0.0016323586317020583,-0.093293,-37.024207
11.185,2.0,1.0,1.0,33.2,33.0,33.0,3.9,3.4,2.67,0.5568354534410505,-0.014229855469164901,0.8175602977932104,0.0015258443107102938,-0.094522,-36.88634
11.185,2.0,1.0,1.0,33.2,33.0,33.0,3.9,3.4,2.6725,0.5496303338833579,-0.014472597535601152,0.8222494082926494,0.0014147868329331464,-0.095778,-36.747765
11.185,2.0,1.0,1.0,33.2,33.0,33.0,3.9,3.4,2.675,0.5423358961594559,-0.014719463545187515,0.8269040543717578,0.0012990212782918653,-0.097062,-36.608467
11.185,2.0,1.0,1.0,33.2,33.0,33.0,3.9,3.4,2.6775,0.5349511591652691,-0.01497053168608414,0.8315229909975255,0.001178376021647585,-0.098374,-36.468431
11.185,2.0,1.0,1.0,33.2,33.0,33.0,3.9,3.4,2.68,0.5274751329860932,-0.015225881682094464,0.8361049341842717,0.0010526724162182044,-0.099714,-36.327641
11.185,2.0,1.0,1.0,33.2,33.0,33.0,3.9,3.4,2.6825,0.5199068191250303,-0.015485594812261914,0.8406485597304221,0.0009217244594854399,-0.101085,-36.186083
11.185,2.0,1.0,1.0,33.2,33.0,33.0,3.9,3.4,2.685,0.5122452107547714,-0.01574975392945059,0.845152501911818,0.0007853384404563484,-0.102486,-36.04374
11.185,2.0,1.0,1.0,33.2,33.0,33.0,3.9,3.4,2.6875,0.5044892929941194,-0.0160184434777419,0.8496153521298504,0.0006433125670568179,-0.103919,-35.900595
11.185,2.0,1.0,1.0,33.2,33.0,33.0,3.9,3.4,2.69,0.4966380432107519,-0.01629174950845629,0.8540356575126189,0.0004954365723455436,-0.105385,-35.756631
11.185,2.0,1.0,1.0,33.2,33.0,33.0,3.9,3.4,2.6925,0.48869043135175533,-0.016569759694591114,0.8584119194672332,0.000341491298130207,-0.106884,-35.611832
11.185,2.0,1.0,1.0,33.2,33.0,33.0,3.9,3.4,2.695,0.4806454203036143,-0.0168525633434378,0.8627425921812538,0.00018124825446405585,-0.108418,-35.466178
11.185,2.0,1.0,1.0,33.2,33.0,33.0,3.9,3.4,2.6975,0.47250196628336344,-0.017140251407117717,0.8670260810711845,1.4469153375561829e-05,-0.109988,-35.319653
11.185,2.0,1.0,1.0,33.2,33.0,33.0,3.9,3.4,2.7,0.464259019262767,-0.017432916490743317,0.8712607411757813,-0.0001590945849426443,-0.111595,-35.172237
11.185,2.0,1.0,1.0,33.2,33.0,33.0,3.9,3.4,2.7025,0.45591552342744945,-0.01773065285787816,0.8754448754918428,-0.000339702355402197,-0.113239,-35.023912
11.185,2.0,1.0,1.0,33.2,33.0,33.0,3.9,3.4,2.705,0.4474704176730441,-0.018033556432930888,0.8795767332499801,-0.0005276249228186627,-0.114923,-34.874656
11.185,2.0,1.0,1.0,33.2,33.0,33.0,3.9,3.4,2.7075,0.4389226361405228,-0.018341724800076505,0.8836545081277407,-0.0007231450104828336,-0.116648,-34.724451
11.185,2.0,1.0,1.0,33.2,33.0,33.0,3.9,3.4,2.71,0.4302711087930108,-0.018655257198248027,0.8876763363972658,-0.0009265579249314244,-0.118414,-34.573275
11.185,2.0,1.0,1.0,33.2,33.0,33.0,3.9,3.4,2.7125,0.42151476203651195,-0.01897425451169171,0.8916402950045135,-0.0011381722195464824,-0.120224,-34.421107
11.185,2.0,1.0,1.0,33.2,33.0,33.0,3.9,3.4,2.715,0.4126525193871252,-0.019298819255513276,0.8955443995768535,-0.0013583103998358237,-0.122078,-34.267924
11.185,2.0,1.0,1.0,33.2,33.0,33.0,3.9,3.4,2.7175,0.40368330218747706,-0.019629055555579603,0.8993866023556493,-0.0015873096734884907,-0.123979,-34.113705
11.185,2.0,1.0,1.0,33.2,33.0,33.0,3.9,3.4,2.72,0.3946060303752799,-0.019965069122058903,0.9031647900501892,-0.0018255227485684993,-0.125927,-33.958425
11.185,2.0,1.0,1.0,33.2,33.0,33.0,3.9,3.4,2.7225,0.38541962330706514,-0.02030696721580029,0.9068767816090879,-0.0020733186835002835,-0.127925,-33.802061
11.185,2.0,1.0,1.0,33.2,33.0,33.0,3.9,3.4,2.725,0.37612300064039345,-0.020654858606650256,0.9105203259049776,-0.002331083792824312,-0.129974,-33.644588
11.185,2.0,1.0,1.0,33.2,33.0,33.0,3.9,3.4,2.7275,0.36671508327797636,-0.021008853522700488,0.9140930993280176,-0.002599222613053857,-0.132076,-33.48598
11.185,2.0,1.0,1.0,33.2,33.0,33.0,3.9,3.4,2.73,0.35719479437744994,-0.02136906358932792,0.9175927032833852,-0.0028781589333533525,-0.134233,-33.326211
11.185,2.0,1.0,1.0,33.2,33.0,33.0,3.9,3.4,2.7325,0.34756106043070917,-0.021735601756752935,0.9210166615875501,-0.0031683368961920987,-0.136447,-33.165254
11.185,2.0,1.0,1.0,33.2,33.0,33.0,3.9,3.4,2.735,0.3378128124170429,-0.02210858221467896,0.9243624177577031,-0.0034702221735982424,-0.13872,-33.003081
11.185,2.0,1.0,1.0,33.2,33.0,33.0,3.9,3.4,2.7375,0.3279489870345491,-0.02248812029239155,0.9276273321882511,-0.0037843032251619452,-0.141053,-32.839662
11.185,2.0,1.0,1.0,33.2,33.0,33.0,3.9,3.4,2.74,0.31796852801466874,-0.02287433234249379,0.930808679207771,-0.004111092644519971,-0.143451,-32.674967
11.185,2.0,1.0,1.0,33.2,33.0,33.0,3.9,3.4,2.7425,0.30787038752499035,-0.023267335606211855,0.9339036440092492,-0.0044511286016879125,-0.145914,-32.508967
11.185,2.0,1.0,1.0,33.2,33.0,33.0,3.9,3.4,2.745,0.2976535276658898,-0.02366724805794435,0.9369093194457909,-0.004804976389324205,-0.148446,-32.341628
11.185,2.0,1.0,1.0,33.2,33.0,33.0,3.9,3.4,2.7475,0.2873169220669794,-0.02407418822641381,0.9398227026832817,-0.005173230081789663,-0.151048,-32.172918
11.185,2.0,1.0,1.0,33.2,33.0,33.0,3.9,3.4,2.75,0.276859557589811,-0.0244882749894379,0.942640691700688,-0.00555651431674643,-0.153725,-32.002802
11.185,2.0,1.0,1.0,33.2,33.0,33.0,3.9,3.4,2.7525,0.26628043614380675,-0.024909627338929766,0.9453600816278103,-0.005955486210006219,-0.156478,-31.831244
11.185,2.0,1.0,1.0,33.2,33.0,33.0,3.9,3.4,2.755,0.25557857662297456,-0.025338364112286457,0.947977560909309,-0.00637083741542234,-0.159311,-31.658208
11.185,2.0,1.0,1.0,33.2,33.0,33.0,3.9,3.4,2.7575,0.24475301697159266,-0.02577460368579349,0.9504897072827327,-0.00680329634281866,-0.162228,-31.483656
11.185,2.0,1.0,1.0,33.2,33.0,33.0,3.9,3.4,2.76,0.23380281638781775,-0.026218463625075576,0.9528929835570346,-0.007253630548293672,-0.165231,-31.307548
11.185,2.0,1.0,1.0,33.2,33.0,33.0,3.9,3.4,2.7625,0.22272705767495254,-0.026670060286928348,0.9551837331766816,-0.007722649312732435,-0.168325,-31.129842
11.185,2.0,1.0,1.0,33.2,33.0,33.0,3.9,3.4,2.765,0.2115248497510614,-0.027129508366068276,0.957358175554914,-0.008211206426031811,-0.171513,-30.950497
11.185,2.0,1.0,1.0,33.2,33.0,33.0,3.9,3.4,2.7675,0.20019533032866746,-0.027596920379420777,0.9594124011579515,-0.008720203196416313,-0.174799,-30.769468
11.185,2.0,1.0,1.0,33.2,33.0,33.0,3.9,3.4,2.77,0.1887376687774383,-0.028072406079503398,0.9613423663199884,-0.009250591706319578,-0.178188,-30.586708
11.185,2.0,1.0,1.0,33.2,33.0,33.0,3.9,3.4,2.7725,0.17715106918415624,-0.028556071787232462,0.9631438877665959,-0.009803378338651554,-0.181684,-30.402169
11.185,2.0,1.0,1.0,33.2,33.0,33.0,3.9,3.4,2.775,0.16543477362579298,-0.02904801963306464,0.9648126368216526,-0.010379627599916643,-0.185293,-30.215802
11.185,2.0,1.0,1.0,33.2,33.0,33.0,3.9,3.4,2.7775,0.15358806567330874,-0.029548346693727568,0.9663441332700984,-0.010980466269608682,-0.189019,-30.027554
11.185,2.0,1.0,1.0,33.2,33.0,33.0,3.9,3.4,2.78,0.1416102741458172,-0.03005714400988747,0.9677337388456126,-0.011607087908649043,-0.192868,-29.837372
11.185,2.0,1.0,1.0,33.2,33.0,33.0,3.9,3.4,2.7825,0.1295007771371616,-0.030574495467862613,0.9689766503087067,-0.01226075776339539,-0.196847,-29.645198
11.185,2.0,1.0,1.0,33.2,33.0,33.0,3.9,3.4,2.785,0.11725900633960286,-0.031100476525897702,0.9700678920766225,-0.012942818105993459,-0.200961,-29.450974
11.185,2.0,1.0,1.0,33.2,33.0,33.0,3.9,3.4,2.7875,0.10488445169256358,-0.031635152762475464,0.9710023083617717,-0.013654694056633852,-0.205216,-29.254638
11.185,2.0,1.0,1.0,33.2,33.0,33.0,3.9,3.4,2.79,0.09237666638798282,-0.03217857822058797,0.9717745547701958,-0.014397899938704778,-0.209621,-29.056126
11.185,2.0,1.0,1.0,33.2,33.0,33.0,3.9,3.4,2.7925,0.07973527226817802,-0.0327307935177275,0.9723790893054951,-0.015174046223965811,-0.214183,-28.85537
11.185,2.0,1.0,1.0,33.2,33.0,33.0,3.9,3.4,2.795,0.06695996565706337,-0.03329182368646612,0.9728101627168705,-0.015984847131837128,-0.218911,-28.652299
11.185,2.0,1.0,1.0,33.2,33.0,33.0,3.9,3.4,2.7975,0.05405052367154266,-0.03386167570473539,0.9730618081221172,-0.016832128954798836,-0.223812,-28.446841
11.185,2.0,1.0,1.0,33.2,33.0,33.0,3.9,3.4,2.8,0.04100681106669375,-0.03444033566813404,0.9731278298275476,-0.01771783919088518,-0.228897,-28.238918
11.185,2.0,1.0,1.0,33.2,33.0,33.0,3.9,3.4,2.8025,0.027828787676592158,-0.03502776554857474,0.9730017912566643,-0.018644056574491353,-0.234176,-28.028449
11.185,2.0,1.0,1.0,33.2,33.0,33.0,3.9,3.4,2.805,0.01451651652220722,-0.035623899474085056,0.9726770018878276,-0.019613002108358167,-0.23966,-27.815349
11.185,2.0,1.0,1.0,33.2,33.0,33.0,3.9,3.4,2.8075,0.0010701726692027532,-0.03622863945331439,0.9721465030878856,-0.020627051212912514,-0.24536,-27.599528
11.185,2.0,1.0,1.0,33.2,33.0,33.0,3.9,3.4,2.81,-0.012509947067987852,-0.03684185045490411,0.9714030527135588,-0.02168874712432447,-0.251291,-27.380895
11.185,2.0,1.0,1.0,33.2,33.0,33.0,3.9,3.4,2.8125,-0.0262234134632858,-0.0374633547359051,0.970439108334933,-0.0228008156900253,-0.257464,-27.159349
11.185,2.0,1.0,1.0,33.2,33.0,33.0,3.9,3.4,2.815,-0.0400696531255621,-0.038092925294347685,0.9692468089154463,-0.02396618173031413,-0.263896,-26.934787
11.185,2.0,1.0,1.0,33.2,33.0,33.0,3.9,3.4,2.8175,-0.0540479354998721,-0.03873027829821603,0.9678179547597912,-0.025187987157481634,-0.270603,-26.707101
11.185,2.0,1.0,1.0,33.2,33.0,33.0,3.9,3.4,2.82,-0.06815735844084721,-0.03937506431562907,0.9661439855147648,-0.026469611070017898,-0.277603,-26.476176
11.185,2.0,1.0,1.0,33.2,33.0,33.0,3.9,3.4,2.8225,-0.08239683214242328,-0.04002685813799646,0.9642159559777744,-0.027814692069481457,-0.284915,-26.241889
11.185,2.0,1.0,1.0,33.2,33.0,33.0,3.9,3.4,2.825,-0.09676506116786995,-0.0406851469480301,0.9620245094327787,-0.029227153082077656,-0.292559,-26.004115
11.185,2.0,1.0,1.0,33.2,33.0,33.0,3.9,3.4,2.8275,-0.1112605242753936,-0.041349316536216554,0.9595598481932655,-0.030711229006603984,-0.30056,-25.762717
