1,w,sub_t,h,l1,l2,l3,g1,g2,Freq,S11_re,S21_re,S11_img,S21_img,S11_dB,S21_dB
11.185,2.0,1.0,1.0,34.2,33.5,33.5,2.4,2.8,2.5,0.750171227375635,-0.0137525020918069,0.648761637429535,0.0082938512860207,-0.071601,-35.885162
11.185,2.0,1.0,1.0,34.2,33.5,33.5,2.4,2.8,2.5025,0.7450225669768877,-0.014011314359284084,0.6545314771285475,0.008289470354629859,-0.072388,-35.767013
11.185,2.0,1.0,1.0,34.2,33.5,33.5,2.4,2.8,2.505,0.739801654564042,-0.01427454647411267,0.6602894857033393,0.008282635559958727,-0.07319,-35.648491
11.185,2.0,1.0,1.0,34.2,33.5,33.5,2.4,2.8,2.5075,0.734507737404827,-0.014542274814626631,0.6660350431128947,0.008273253457587126,-0.074004,-35.529591
11.185,2.0,1.0,1.0,34.2,33.5,33.5,2.4,2.8,2.51,0.7291400536079465,-0.014814577093290466,0.6717675109175275,0.008261227312542429,-0.074832,-35.410306
11.185,2.0,1.0,1.0,34.2,33.5,33.5,2.4,2.8,2.5125,0.7236978321014024,-0.015091532372104945,0.6774862317266807,0.008246456974908419,-0.075675,-35.290629
11.185,2.0,1.0,1.0,34.2,33.5,33.5,2.4,2.8,2.515,0.7181802926168327,-0.015373221077432142,0.6831905286300801,0.008228838750348834,-0.076532,-35.170554
11.185,2.0,1.0,1.0,34.2,33.5,33.5,2.4,2.8,2.5175,0.7125866456803006,-0.015659725014163697,0.6888797046117175,0.008208265265321993,-0.077404,-35.050074
11.185,2.0,1.0,1.0,34.2,33.5,33.5,2.4,2.8,2.52,0.7069160926099547,-0.015951127379152455,0.6945530419461644,0.008184625326750971,-0.078291,-34.929182
11.185,2.0,1.0,1.0,34.2,33.5,33.5,2.4,2.8,2.5225,0.7011678255210533,-0.016247512773818584,0.70020980157666,0.008157803775903067,-0.079194,-34.807872
11.185,2.0,1.0,1.0,34.2,33.5,33.5,2.4,2.8,2.525,0.6953410273388219,-0.016548967215837502,0.7058492224744443,0.008127681336220596,-0.080114,-34.686137
11.185,2.0,1.0,1.0,34.2,33.5,33.5,2.4,2.8,2.5275,0.6894348718196701,-0.016855578149807187,0.7114705209787615,0.008094134454832175,-0.081049,-34.563969
11.185,2.0,1.0,1.0,34.2,33.5,33.5,2.4,2.8,2.53,0.6834485235813204,-0.017167434456785785,0.7170728901169517,0.008057035137460276,-0.082002,-34.441361
11.185,2.0,1.0,1.0,34.2,33.5,33.5,2.4,2.8,2.5325,0.6773811381424142,-0.01748462646258193,0.7226554989040332,0.00801625077642811,-0.082973,-34.318306
11.185,2.0,1.0,1.0,34.2,33.5,33.5,2.4,2.8,2.535,0.6712318619722061,-0.017807245944671205,0.7282174916211657,0.007971643971452282,-0.083961,-34.194797
11.185,2.0,1.0,1.0,34.2,33.5,33.5,2.4,2.8,2.5375,0.6649998325509889,-0.0181353861376016,0.7337579870723477,0.00792307234289439,-0.084968,-34.070827
11.185,2.0,1.0,1.0,34.2,33.5,33.5,2.4,2.8,2.54,0.6586841784419155,-0.018469141736742287,0.7392760778187074,0.007870388337126957,-0.085994,-33.946387
11.185,2.0,1.0,1.0,34.2,33.5,33.5,2.4,2.8,2.5425,0.6522840193749321,-0.018808608900216982,0.7447708293897175,0.007813439023652653,-0.087039,-33.82147
11.185,2.0,1.0,1.0,34.2,33.5,33.5,2.4,2.8,2.545,0.6457984663435615,-0.019153885248852295,0.7502412794706357,0.007752065883597276,-0.088104,-33.696069
11.185,2.0,1.0,1.0,34.2,33.5,33.5,2.4,2.8,2.5475,0.6392266217153411,-0.019505069863958183,0.7556864370654659,0.007686104589178406,-0.08919,-33.570175
11.185,2.0,1.0,1.0,34.2,33.5,33.5,2.4,2.8,2.55,0.6325675793567129,-0.019862263282744333,0.7611052816347176,0.007615384773731179,-0.090297,-33.44378
11.185,2.0,1.0,1.0,34.2,33.5,33.5,2.4,2.8,2.5525,0.6258204247732766,-0.02022556749116023,0.7664967622072,0.007539729791850856,-0.091426,-33.316876
11.185,2.0,1.0,1.0,34.2,33.5,33.5,2.4,2.8,2.555,0.6189842352662895,-0.020595085913932276,0.7718597964650884,0.007458956469190888,-0.092577,-33.189456
11.185,2.0,1.0,1.0,34.2,33.5,33.5,2.4,2.8,2.5575,0.6120580801063971,-0.020970923401553408,0.7771932698014742,0.0073728748414293895,-0.093751,-33.061509
11.185,2.0,1.0,1.0,34.2,33.5,33.5,2.4,2.8,2.56,0.6050410207256132,-0.021353186213961806,0.7824960343495686,0.00728128788189377,-0.094948,-32.933029
11.185,2.0,1.0,1.0,34.2,33.5,33.5,2.4,2.8,2.5625,0.5979321109286142,-0.021741982000626034,0.7877669079827349,0.0071839912173057045,-0.09617,-32.804007
11.185,2.0,1.0,1.0,34.2,33.5,33.5,2.4,2.8,2.565,0.5907303971244788,-0.022137419776733055,0.7930046732844818,0.007080772831080425,-0.097416,-32.674433
11.185,2.0,1.0,1.0,34.2,33.5,33.5,2.4,2.8,2.5675,0.583434918580066,-0.022539609895151,0.7982080764875307,0.006971412753585563,-0.098688,-32.544298
11.185,2.0,1.0,1.0,34.2,33.5,33.5,2.4,2.8,2.57,0.5760447076962755,-0.022948664013815866,0.8033758263810423,0.006855682738732228,-0.099987,-32.413594
11.185,2.0,1.0,1.0,34.2,33.5,33.5,2.4,2.8,2.5725,0.5685587903085083,-0.023364695058163246,0.8085065931850787,0.006733345926239134,-0.101312,-32.282311
11.185,2.0,1.0,1.0,34.2,33.5,33.5,2.4,2.8,2.575,0.5609761860127159,-0.023787817178198285,0.8135990073913192,0.0066041564888732205,-0.102665,-32.15044
11.185,2.0,1.0,1.0,34.2,33.5,33.5,2.4,2.8,2.5775,0.5532959085184972,-0.0242181456997657,0.818651658569053,0.006467859263935597,-0.104047,-32.017971
11.185,2.0,1.0,1.0,34.2,33.5,33.5,2.4,2.8,2.58,0.5455169660307825,-0.024655797069548548,0.8236630941354174,0.006324189368219776,-0.105459,-31.884895
11.185,2.0,1.0,1.0,34.2,33.5,33.5,2.4,2.8,2.5825,0.5376383616617135,-0.025100888793289422,0.8286318180888488,0.0061728717956282125,-0.106901,-31.751202
11.185,2.0,1.0,1.0,34.2,33.5,33.5,2.4,2.8,2.585,0.5296590938744363,-0.025553539366687004,0.833556289704652,0.006013620996588609,-0.108374,-31.616881
11.185,2.0,1.0,1.0,34.2,33.5,33.5,2.4,2.8,2.5875,0.5215781569605867,-0.026013868198381786,0.8384349221915913,0.005846140438363785,-0.109879,-31.481923
11.185,2.0,1.0,1.0,34.2,33.5,33.5,2.4,2.8,2.59,0.5133945415533728,-0.02648199552439705,0.8432660813083517,0.005670122145299433,-0.111417,-31.346316
11.185,2.0,1.0,1.0,34.2,33.5,33.5,2.4,2.8,2.5925,0.5051072351782283,-0.026958042313354816,0.8480480839387106,0.005485246217999499,-0.112989,-31.210051
11.185,2.0,1.0,1.0,34.2,33.5,33.5,2.4,2.8,2.595,0.4967152228431538,-0.02744213016173152,0.8527791966241898,0.005291180330363897,-0.114596,-31.073117
11.185,2.0,1.0,1.0,34.2,33.5,33.5,2.4,2.8,2.5975,0.48821748767093137,-0.027934381178363818,0.8574576340529656,0.005087579203361368,-0.116239,-30.935501
11.185,2.0,1.0,1.0,34.2,33.5,33.5,2.4,2.8,2.6,0.47961301157555447,-0.02843491785735137,0.8620815575037406,0.004874084054347412,-0.11792,-30.797195
11.185,2.0,1.0,1.0,34.2,33.5,33.5,2.4,2.8,2.6025,0.4709007759853238,-0.028943862938437412,0.8666490732432615,0.0046503220206684836,-0.119639,-30.658184
11.185,2.0,1.0,1.0,34.2,33.5,33.5,2.4,2.8,2.605,0.46207976261518824,-0.02946133925387647,0.8711582308761215,0.004415905556220614,-0.121397,-30.51846
11.185,2.0,1.0,1.0,34.2,33.5,33.5,2.4,2.8,2.6075,0.4531489542910557,-0.02998746956071999,0.8756070216454483,0.0041704317995541204,-0.123196,-30.378008
11.185,2.0,1.0,1.0,34.2,33.5,33.5,2.4,2.8,2.61,0.44410733582895845,-0.030522376357365186,0.8799933766830197,0.003913481912032891,-0.125037,-30.236818
11.185,2.0,1.0,1.0,34.2,33.5,33.5,2.4,2.8,2.6125,0.4349538949720918,-0.03106618168312254,0.8843151652073221,0.0036446203844691023,-0.126921,-30.094876
11.185,2.0,1.0,1.0,34.2,33.5,33.5,2.4,2.8,2.615,0.4256876233889184,-0.03161900689945597,0.8885701926680112,0.003363394310559767,-0.12885,-29.95217
11.185,2.0,1.0,1.0,34.2,33.5,33.5,2.4,2.8,2.6175,0.41630751773573166,-0.03218097245144216,0.8927561988351644,0.0030693326253527597,-0.130825,-29.808688
11.185,2.0,1.0,1.0,34.2,33.5,33.5,2.4,2.8,2.62,0.4068125807872246,-0.03275219760787801,0.8968708558316957,0.002761945306861056,-0.132848,-29.664416
11.185,2.0,1.0,1.0,34.2,33.5,33.5,2.4,2.8,2.6225,0.39720182263882453,-0.03333280017833798,0.9009117661072162,0.002440722538831509,-0.134919,-29.519341
11.185,2.0,1.0,1.0,34.2,33.5,33.5,2.4,2.8,2.625,0.387474261984785,-0.0339228962053416,0.904876460351566,0.00210513383255131,-0.137041,-29.373449
11.185,2.0,1.0,1.0,34.2,33.5,33.5,2.4,2.8,2.6275,0.37762892747621,-0.03452259962964416,0.908762395346202,0.0017546271054446748,-0.139216,-29.226726
11.185,2.0,1.0,1.0,34.2,33.5,33.5,2.4,2.8,2.63,0.36766485916347263,-0.035132021926494506,0.912566951751521,0.0013886277140724144,-0.141444,-29.079157
11.185,2.0,1.0,1.0,34.2,33.5,33.5,2.4,2.8,2.6325,0.35758111002771154,-0.03575127171052644,0.91628743182815,0.0010065374389986719,-0.143729,-28.930729
11.185,2.0,1.0,1.0,34.2,33.5,33.5,2.4,2.8,2.635,0.3473767476063864,-0.036380454306753345,0.9199210570901485,0.0006077334188268183,-0.146071,-28.781426
11.185,2.0,1.0,1.0,34.2,33.5,33.5,2.4,2.8,2.6375,0.3370508557181591,-0.0370196712849206,0.9234649658879767,0.0001915670305364054,-0.148472,-28.631233
11.185,2.0,1.0,1.0,34.2,33.5,33.5,2.4,2.8,2.64,0.326602536292667,-0.03766901995423803,0.9269162109189939,-0.0002426372869321642,-0.150935,-28.480133
11.185,2.0,1.0,1.0,34.2,33.5,33.5,2.4,2.8,2.6425,0.3160309113111259,-0.03832859281525596,0.9302717566631622,-0.0006955832690949467,-0.153462,-28.328112
11.185,2.0,1.0,1.0,34.2,33.5,33.5,2.4,2.8,2.645,0.3053351248640226,-0.03899847696536983,0.9335284767415069,-0.0011680041258065644,-0.156055,-28.175153
11.185,2.0,1.0,1.0,34.2,33.5,33.5,2.4,2.8,2.6475,0.2945143453325823,-0.039678753454130335,0.9366831511947792,-0.0016606639082963931,-0.158716,-28.021239
11.185,2.0,1.0,1.0,34.2,33.5,33.5,2.4,2.8,2.65,0.283567767701067,-0.04036949658419962,0.9397324636796505,-0.002174358947293576,-0.161448,-27.866352
11.185,2.0,1.0,1.0,34.2,33.5,33.5,2.4,2.8,2.6525,0.27249461600748864,-0.04107077315342238,0.942672998579595,-0.0027099193664361448,-0.164253,-27.710476
11.185,2.0,1.0,1.0,34.2,33.5,33.5,2.4,2.8,2.655,0.2612941459407084,-0.041782641633077724,0.9455012380275215,-0.0032682106754440394,-0.167133,-27.553592
11.185,2.0,1.0,1.0,34.2,33.5,33.5,2.4,2.8,2.6575,0.24996564759250894,-0.0425051512769277,0.9482135588370086,-0.003850135447837943,-0.170093,-27.395681
11.185,2.0,1.0,1.0,34.2,33.5,33.5,2.4,2.8,2.66,0.23850844837374435,-0.04323834115518855,0.9508062293388333,-0.004456635088311695,-0.173133,-27.236725
11.185,2.0,1.0,1.0,34.2,33.5,33.5,2.4,2.8,2.6625,0.22692191610430867,-0.04398223910700758,0.9532754061193219,-0.005088691695217466,-0.176258,-27.076703
11.185,2.0,1.0,1.0,34.2,33.5,33.5,2.4,2.8,2.665,0.21520546228733367,-0.04473686060443351,0.9556171306567763,-0.005747330024002589,-0.179471,-26.915597
11.185,2.0,1.0,1.0,34.2,33.5,33.5,2.4,2.8,2.6675,0.20335854557877217,-0.045502207520204965,0.9578273258520594,-0.006433619557838813,-0.182775,-26.753385
11.185,2.0,1.0,1.0,34.2,33.5,33.5,2.4,2.8,2.67,0.1913806754642944,-0.046278266790956535,0.9599017924491493,-0.007148676692128085,-0.186173,-26.590046
11.185,2.0,1.0,1.0,34.2,33.5,33.5,2.4,2.8,2.6725,0.1792714161563134,-0.04706500896663384,0.9618362053411779,-0.007893667040036535,-0.189669,-26.425559
11.185,2.0,1.0,1.0,34.2,33.5,33.5,2.4,2.8,2.675,0.16703039072492873,-0.047862386636015636,0.963626109757194,-0.008669807866717116,-0.193266,-26.259901
11.185,2.0,1.0,1.0,34.2,33.5,33.5,2.4,2.8,2.6775,0.15465728547759297,-0.04867033271725293,0.9652669173245452,-0.00947837066042734,-0.19697,-26.093049
11.185,2.0,1.0,1.0,34.2,33.5,33.5,2.4,2.8,2.68,0.14215185460347546,-0.04948875860123605,0.9667539020014074,-0.010320683849338286,-0.200784,-25.92498
11.185,2.0,1.0,1.0,34.2,33.5,33.5,2.4,2.8,2.6825,0.12951392509977336,-0.05031755213437896,0.968082195873606,-0.011198135673461456,-0.204712,-25.755669
11.185,2.0,1.0,1.0,34.2,33.5,33.5,2.4,2.8,2.685,0.11674340199860275,-0.05115657542605552,0.9692467848094097,-0.012112177221804767,-0.20876,-25.585091
11.185,2.0,1.0,1.0,34.2,33.5,33.5,2.4,2.8,2.6875,0.10384027391464842,-0.052005662464409054,0.9702425039655442,-0.013064325645599936,-0.212931,-25.41322
11.185,2.0,1.0,1.0,34.2,33.5,33.5,2.4,2.8,2.69,0.09080461893549856,-0.05286461652257154,0.9710640331371042,-0.014056167559230474,-0.217232,-25.240031
11.185,2.0,1.0,1.0,34.2,33.5,33.5,2.4,2.8,2.6925,0.07763661087842316,-0.05373320733545116,0.9717058919435007,-0.015089362641340512,-0.221668,-25.065494
11.185,2.0,1.0,1.0,34.2,33.5,33.5,2.4,2.8,2.695,0.06433652593954599,-0.05461116802514079,0.9721624348419589,-0.016165647449505334,-0.226244,-24.889583
11.185,2.0,1.0,1.0,34.2,33.5,33.5,2.4,2.8,2.6975,0.05090474976364471,-0.0554981917506559,0.9724278459593794,-0.017286839462828166,-0.230967,-24.712267
11.185,2.0,1.0,1.0,34.2,33.5,33.5,2.4,2.8,2.7,0.03734178496546907,-0.05639392805507042,0.9724961337326886,-0.018454841367860523,-0.235844,-24.533517
11.185,2.0,1.0,1.0,34.2,33.5,33.5,2.4,2.8,2.7025,0.023648259136390595,-0.05729797888017291,0.9723611253469422,-0.019671645604366527,-0.24088,-24.353301
11.185,2.0,1.0,1.0,34.2,33.5,33.5,2.4,2.8,2.705,0.009824933373498039,-0.058209894215445084,0.9720164609596249,-0.020939339188632833,-0.246084,-24.171588
11.185,2.0,1.0,1.0,34.2,33.5,33.5,2.4,2.8,2.7075,-0.004127288628135646,-0.059129167344441555,0.9714555876986756,-0.022260108833296644,-0.251463,-23.988344
11.185,2.0,1.0,1.0,34.2,33.5,33.5,2.4,2.8,2.71,-0.018207350875025233,-0.0600552296474518,0.9706717534206777,-0.023636246383999467,-0.257024,-23.803534
11.185,2.0,1.0,1.0,34.2,33.5,33.5,2.4,2.8,2.7125,-0.03241403471720326,-0.06098744491460055,0.9696580002147145,-0.025070154594598652,-0.262778,-23.617124
11.185,2.0,1.0,1.0,34.2,33.5,33.5,2.4,2.8,2.715,-0.04674594777763679,-0.06192510311820511,0.9684071576361196,-0.026564353264154367,-0.268733,-23.429075
11.185,2.0,1.0,1.0,34.2,33.5,33.5,2.4,2.8,2.7175,-0.06120151210843123,-0.06286741358718348,0.9669118356532495,-0.02812148576047398,-0.274898,-23.23935
11.185,2.0,1.0,1.0,34.2,33.5,33.5,2.4,2.8,2.72,-0.07577895150636152,-0.06381349751948578,0.9651644172890854,-0.02974432595661508,-0.281284,-23.047909
11.185,2.0,1.0,1.0,34.2,33.5,33.5,2.4,2.8,2.7225,-0.09047627791274991,-0.06476237976080132,0.9631570509381846,-0.031435785608424006,-0.287903,-22.854712
11.185,2.0,1.0,1.0,34.2,33.5,33.5,2.4,2.8,2.725,-0.10529127681400031,-0.06571297976902918,0.9608816423381615,-0.03319892220288056,-0.294766,-22.659715
11.185,2.0,1.0,1.0,34.2,33.5,33.5,2.4,2.8,2.7275,-0.12022149154943527,-0.06666410167405849,0.9583298461735135,-0.03503694730874168,-0.301885,-22.462875
11.185,2.0,1.0,1.0,34.2,33.5,33.5,2.4,2.8,2.73,-0.13526420642184556,-0.06761442333108682,0.9554930572883044,-0.03695323546264775,-0.309275,-22.264145
11.185,2.0,1.0,1.0,34.2,33.5,33.5,2.4,2.8,2.7325,-0.15041642849354697,-0.06856248425283233,0.9523624014829307,-0.038951333625480734,-0.316949,-22.063478
11.185,2.0,1.0,1.0,34.2,33.5,33.5,2.4,2.8,2.735,-0.165674867936205,-0.06950667229131031,0.9489287258690493,-0.04103497124523838,-0.324923,-21.860825
11.185,2.0,1.0,1.0,34.2,33.5,33.5,2.4,2.8,2.7375,-0.18103591678621808,-0.07044520892309032,0.9451825887558375,-0.04320807096397554,-0.333214,-21.656133
11.185,2.0,1.0,1.0,34.2,33.5,33.5,2.4,2.8,2.74,-0.19649562593840977,-0.071376132972796,0.9411142490400295,-0.04547476000732776,-0.34184,-21.44935
11.185,2.0,1.0,1.0,34.2,33.5,33.5,2.4,2.8,2.7425,-0.21204968018920267,-0.07229728258769694,0.9367136550720093,-0.04783938229567743,-0.350819,-21.240419
11.185,2.0,1.0,1.0,34.2,33.5,33.5,2.4,2.8,2.745,-0.2276933711154592,-0.07320627525113134,0.9319704329705213,-0.050306511315948405,-0.360172,-21.029283
11.185,2.0,1.0,1.0,34.2,33.5,33.5,2.4,2.8,2.7475,-0.24342156754664016,-0.07410048559369677,0.9268738743597366,-0.0528809637921349,-0.369921,-20.815881
11.185,2.0,1.0,1.0,34.2,33.5,33.5,2.4,2.8,2.75,-0.259228683355012,-0.0749770207280676,0.921412923504604,-0.0555678141906978,-0.380091,-20.60015
11.185,2.0,1.0,1.0,34.2,33.5,33.5,2.4,2.8,2.7525,-0.2751086422507748,-0.07583269279526333,0.9155761638240251,-0.05837241009354123,-0.390707,-20.382024
11.185,2.0,1.0,1.0,34.2,33.5,33.5,2.4,2.8,2.755,-0.29105483922533254,-0.07666398836641002,0.909351803766859,-0.06130038846598357,-0.401797,-20.161436
11.185,2.0,1.0,1.0,34.2,33.5,33.5,2.4,2.8,2.7575,-0.30706009823554425,-0.07746703429359202,0.9027276620436654,-0.0643576928393895,-0.413391,-19.938313
11.185,2.0,1.0,1.0,34.2,33.5,33.5,2.4,2.8,2.76,-0.323116625663626,-0.07823755954519271,0.8956911522181175,-0.06755059141718629,-0.425522,-19.712581
11.185,2.0,1.0,1.0,34.2,33.5,33.5,2.4,2.8,2.7625,-0.3392159590200476,-0.07897085249394142,0.888229266677074,-0.07088569609798591,-0.438226,-19.484162
11.185,2.0,1.0,1.0,34.2,33.5,33.5,2.4,2.8,2.765,-0.3553489102790236,-0.07966171304824303,0.8803285600186791,-0.07436998238924843,-0.451541,-19.252975
11.185,2.0,1.0,1.0,34.2,33.5,33.5,2.4,2.8,2.7675,-0.3715055031460132,-0.08030439892758749,0.8719751319248136,-0.07801081015791585,-0.465511,-19.018936
11.185,2.0,1.0,1.0,34.2,33.5,33.5,2.4,2.8,2.77,-0.3876749034522097,-0.08089256527895178,0.8631546096198776,-0.08181594512882695,-0.48018,-18.781955
11.185,2.0,1.0,1.0,34.2,33.5,33.5,2.4,2.8,2.7725,-0.40384534175012826,-0.08141919671084176,0.8538521300645264,-0.08579358099508021,-0.495599,-18.54194
11.185,2.0,1.0,1.0,34.2,33.5,33.5,2.4,2.8,2.775,-0.420004027043981,-0.08187653068236549,0.8440523220936413,-0.08995236194384038,-0.511824,-18.298793
11.185,2.0,1.0,1.0,34.2,33.5,33.5,2.4,2.8,2.7775,-0.4361370504260625,-0.08225597102346897,0.8337392887865352,-0.094301405322476,-0.528915,-18.052415
11.185,2.0,1.0,1.0,34.2,33.5,33.5,2.4,2.8,2.78,-0.452229277201842,-0.08254799017577691,0.8228965904589458,-0.09885032406847143,-0.546939,-17.802699
11.185,2.0,1.0,1.0,34.2,33.5,33.5,2.4,2.8,2.7825,-0.4682642258684217,-0.08274201852748156,0.8115072287973408,-0.10360924839595725,-0.565968,-17.549535
11.185,2.0,1.0,1.0,34.2,33.5,33.5,2.4,2.8,2.785,-0.4842239320583951,-0.08282631896607479,0.7995536328242216,-0.10858884606399899,-0.586084,-17.292807
11.185,2.0,1.0,1.0,34.2,33.5,33.5,2.4,2.8,2.7875,-0.5000887952697863,-0.08278784448463115,0.7870176475991834,-0.11380034033665244,-0.607376,-17.032395
11.185,2.0,1.0,1.0,34.2,33.5,33.5,2.4,2.8,2.79,-0.5158374058667115,-0.08261207634566853,0.7738805268372554,-0.11925552446929236,-0.629943,-16.768173
11.185,2.0,1.0,1.0,34.2,33.5,33.5,2.4,2.8,2.7925,-0.5314463494495936,-0.08228283992593866,0.7601229309807831,-0.12496677120305331,-0.653894,-16.50001
11.185,2.0,1.0,1.0,34.2,33.5,33.5,2.4,2.8,2.795,-0.5468899852523875,-0.08178209493047692,0.745724932714998,-0.13094703529816862,-0.679352,-16.227769
11.185,2.0,1.0,1.0,34.2,33.5,33.5,2.4,2.8,2.7975,-0.5621401947224711,-0.08108969616999444,0.7306660324984412,-0.13720984656018181,-0.706452,-15.951307
11.185,2.0,1.0,1.0,34.2,33.5,33.5,2.4,2.8,2.8,-0.5771660958726267,-0.08018312053856513,0.7149251874224282,-0.14376929007573308,-0.735347,-15.670477
11.185,2.0,1.0,1.0,34.2,33.5,33.5,2.4,2.8,2.8025,-0.591933718362521,-0.07903715520725267,0.6984808576642395,-0.1506399694322452,-0.766207,-15.385124
11.185,2.0,1.0,1.0,34.2,33.5,33.5,2.4,2.8,2.805,-0.6064056335717745,-0.07762354136666565,0.6813110760139207,-0.1578369474916589,-0.799223,-15.095089
11.185,2.0,1.0,1.0,34.2,33.5,33.5,2.4,2.8,2.8075,-0.620540533177788,-0.07591056711706472,0.6633935475080128,-0.16537565775003957,-0.83461,-14.800209
11.185,2.0,1.0,1.0,34.2,33.5,33.5,2.4,2.8,2.81,-0.6342927489690957,-0.07386260233900685,0.6447057881882428,-0.1732717773504887,-0.872611,-14.500312
11.185,2.0,1.0,1.0,34.2,33.5,33.5,2.4,2.8,2.8125,-0.6476117058465485,-0.07143956761782318,0.6252253145373415,-0.1815410503100781,-0.913501,-14.195225
11.185,2.0,1.0,1.0,34.2,33.5,33.5,2.4,2.8,2.815,-0.6604412992532553,-0.06859632860415793,0.6049298983760575,-0.19019904632620335,-0.957591,-13.884771
11.185,2.0,1.0,1.0,34.2,33.5,33.5,2.4,2.8,2.8175,-0.6727191877311192,-0.06528200667135316,0.5837979061207845,-0.19926083646101725,-1.005236,-13.568769
11.185,2.0,1.0,1.0,34.2,33.5,33.5,2.4,2.8,2.82,-0.6843759910867935,-0.06143919653639763,0.5618087465296037,-0.20874056183878073,-1.056842,-13.247039
11.185,2.0,1.0,1.0,34.2,33.5,33.5,2.4,2.8,2.8225,-0.6953343850060267,-0.057003081885698255,0.5389434576848575,-0.2186508649554063,-1.112871,-12.9194
11.185,2.0,1.0,1.0,34.2,33.5,33.5,2.4,2.8,2.825,-0.7055080842495703,-0.051900441352756364,0.5151854723057633,-0.2290021449653781,-1.173857,-12.585676
11.185,2.0,1.0,1.0,34.2,33.5,33.5,2.4,2.8,2.8275,-0.7148007093402119,-0.04604853996972702,0.49052161093785784,-0.23980158800260193,-1.240413,-12.245696
