1,w,sub_t,h,l1,l2,l3,g1,g2,Freq,S11_re,S21_re,S11_img,S21_img,S11_dB,S21_dB
11.185,2.0,1.0,1.0,33.7,34.4,34.4,2.6,4.1,2.5,0.821127904050974,-0.00800486989813705,0.558355977212569,0.00531666300257696,-0.061176,-40.345873
11.185,2.0,1.0,1.0,33.7,34.4,34.4,2.6,4.1,2.5025,0.8171772026830465,-0.008164580799404145,0.5639947862087905,0.005330244258416174,-0.061809,-40.219479
11.185,2.0,1.0,1.0,33.7,34.4,34.4,2.6,4.1,2.505,0.8131685902848526,-0.00832729666508208,0.5696306766986657,0.005342837513869865,-0.062454,-40.092626
11.185,2.0,1.0,1.0,33.7,34.4,34.4,2.6,4.1,2.5075,0.8091014485930481,-0.008493085229861962,0.5752633338523325,0.005354400592312939,-0.063112,-39.965304
11.185,2.0,1.0,1.0,33.7,34.4,34.4,2.6,4.1,2.51,0.8049751487029281,-0.008662016205586404,0.5808924329406816,0.005364889602280236,-0.063782,-39.837501
11.185,2.0,1.0,1.0,33.7,34.4,34.4,2.6,4.1,2.5125,0.8007890508618644,-0.008834161352399852,0.58651763899628,0.005374258858695014,-0.064465,-39.709205
11.185,2.0,1.0,1.0,33.7,34.4,34.4,2.6,4.1,2.515,0.7965425042580059,-0.009009594552965072,0.5921386064618346,0.005382460799961554,-0.065161,-39.580404
11.185,2.0,1.0,1.0,33.7,34.4,34.4,2.6,4.1,2.5175,0.7922348468040872,-0.009188391889900232,0.5977549788256249,0.005389445900673496,-0.065871,-39.451087
11.185,2.0,1.0,1.0,33.7,34.4,34.4,2.6,4.1,2.52,0.787865404916191,-0.009370631726600218,0.6033663882433746,0.0053951625796728,-0.066595,-39.321241
11.185,2.0,1.0,1.0,33.7,34.4,34.4,2.6,4.1,2.5225,0.7834334932873153,-0.009556394791614698,0.6089724551459467,0.005399557103175459,-0.067333,-39.190854
11.185,2.0,1.0,1.0,33.7,34.4,34.4,2.6,4.1,2.525,0.7789384146555559,-0.009745764266765957,0.6145727878322518,0.005402573482661352,-0.068086,-39.059913
11.185,2.0,1.0,1.0,33.7,34.4,34.4,2.6,4.1,2.5275,0.7743794595667403,-0.009938825879200443,0.6201669820467163,0.00540415336720349,-0.068855,-38.928405
11.185,2.0,1.0,1.0,33.7,34.4,34.4,2.6,4.1,2.53,0.7697559061313213,-0.010135667997578339,0.6257546205406066,0.005404235929889761,-0.069639,-38.796316
11.185,2.0,1.0,1.0,33.7,34.4,34.4,2.6,4.1,2.5325,0.7650670197753332,-0.010336381732618858,0.6313352726164888,0.005402757747965596,-0.070438,-38.663635
11.185,2.0,1.0,1.0,33.7,34.4,34.4,2.6,4.1,2.535,0.7603120529852013,-0.010541061042231112,0.6369084936550572,0.005399652676299071,-0.071255,-38.530345
11.185,2.0,1.0,1.0,33.7,34.4,34.4,2.6,4.1,2.5375,0.7554902450461931,-0.010749802841474193,0.642473824623506,0.005394851713741509,-0.072088,-38.396435
11.185,2.0,1.0,1.0,33.7,34.4,34.4,2.6,4.1,2.54,0.7506008217742755,-0.010962707117605122,0.6480307915645998,0.005388282861925825,-0.072939,-38.261889
11.185,2.0,1.0,1.0,33.7,34.4,34.4,2.6,4.1,2.5425,0.7456429952411345,-0.011179877050489081,0.6535789050655222,0.0053798709760106925,-0.073807,-38.126692
11.185,2.0,1.0,1.0,33.7,34.4,34.4,2.6,4.1,2.545,0.7406159634921061,-0.011401419138662243,0.6591176597055577,0.005369537606842962,-0.074694,-37.990831
11.185,2.0,1.0,1.0,33.7,34.4,34.4,2.6,4.1,2.5475,0.7355189102567476,-0.011627443331356336,0.6646465334815659,0.005357200833970915,-0.0756,-37.854289
11.185,2.0,1.0,1.0,33.7,34.4,34.4,2.6,4.1,2.55,0.7303510046517546,-0.011858063166812706,0.6701649872101997,0.005342775088898719,-0.076525,-37.717051
11.185,2.0,1.0,1.0,33.7,34.4,34.4,2.6,4.1,2.5525,0.7251114008759355,-0.012093395917233381,0.6756724639056908,0.005326170967925845,-0.077471,-37.579102
11.185,2.0,1.0,1.0,33.7,34.4,34.4,2.6,4.1,2.555,0.7197992378969131,-0.012333562740739495,0.6811683881320215,0.005307295033865377,-0.078437,-37.440425
11.185,2.0,1.0,1.0,33.7,34.4,34.4,2.6,4.1,2.5575,0.7144136391292094,-0.01257868884072959,0.6866521653281744,0.005286049605880487,-0.079425,-37.301003
11.185,2.0,1.0,1.0,33.7,34.4,34.4,2.6,4.1,2.56,0.7089537121033659,-0.012828903633055621,0.6921231811050961,0.005262332536619183,-0.080434,-37.160819
11.185,2.0,1.0,1.0,33.7,34.4,34.4,2.6,4.1,2.5625,0.7034185481257115,-0.01308434092146041,0.6975808005129255,0.005236036975763335,-0.081466,-37.019856
11.185,2.0,1.0,1.0,33.7,34.4,34.4,2.6,4.1,2.565,0.6978072219283618,-0.013345139081749302,0.7030243672769272,0.005207051119037507,-0.082521,-36.878097
11.185,2.0,1.0,1.0,33.7,34.4,34.4,2.6,4.1,2.5675,0.692118791309037,-0.013611441255198182,0.7084532030004832,0.005175257941647317,-0.083601,-36.735522
11.185,2.0,1.0,1.0,33.7,34.4,34.4,2.6,4.1,2.57,0.6863522967602242,-0.013883395551732776,0.7138666063333846,0.005140534915033786,-0.084705,-36.592114
11.185,2.0,1.0,1.0,33.7,34.4,34.4,2.6,4.1,2.5725,0.6805067610872007,-0.0141611552634488,0.7192638521035442,0.005102753705739334,-0.085834,-36.447853
11.185,2.0,1.0,1.0,33.7,34.4,34.4,2.6,4.1,2.575,0.6745811890143942,-0.014444879089078684,0.7246441904101164,0.005061779855082743,-0.08699,-36.302719
11.185,2.0,1.0,1.0,33.7,34.4,34.4,2.6,4.1,2.5775,0.6685745667795334,-0.01473473137005121,0.7300068456758952,0.005017472438231707,-0.088174,-36.156693
11.185,2.0,1.0,1.0,33.7,34.4,34.4,2.6,4.1,2.58,0.6624858617149895,-0.015030882338831118,0.7353510156566689,0.0049696837011440256,-0.089385,-36.009753
11.185,2.0,1.0,1.0,33.7,34.4,34.4,2.6,4.1,2.5825,0.6563140218156803,-0.01533350838027285,0.7406758704051027,0.0049182586737192046,-0.090626,-35.861879
11.185,2.0,1.0,1.0,33.7,34.4,34.4,2.6,4.1,2.585,0.6500579752928657,-0.01564279230676858,0.7459805511864891,0.004863034757360974,-0.091896,-35.713048
11.185,2.0,1.0,1.0,33.7,34.4,34.4,2.6,4.1,2.5875,0.6437166301131089,-0.015958923648024464,0.7512641693435526,0.004803841284995748,-0.093198,-35.563238
11.185,2.0,1.0,1.0,33.7,34.4,34.4,2.6,4.1,2.59,0.6372888735216443,-0.01628209895635247,0.7565258051072591,0.0047404990514232715,-0.094532,-35.412427
11.185,2.0,1.0,1.0,33.7,34.4,34.4,2.6,4.1,2.5925,0.6307735715493219,-0.016612522128425587,0.7617645063503763,0.004672819811687886,-0.095899,-35.260591
11.185,2.0,1.0,1.0,33.7,34.4,34.4,2.6,4.1,2.595,0.6241695685022599,-0.01695040474450566,0.7669792872802454,0.004600605744955063,-0.0973,-35.107705
11.185,2.0,1.0,1.0,33.7,34.4,34.4,2.6,4.1,2.5975,0.6174756864332558,-0.017295966426222307,0.7721691270670037,0.004523648881152404,-0.098737,-34.953744
11.185,2.0,1.0,1.0,33.7,34.4,34.4,2.6,4.1,2.6,0.6106907245939582,-0.017649435214052114,0.7773329684031458,0.004441730487385621,-0.100211,-34.798683
11.185,2.0,1.0,1.0,33.7,34.4,34.4,2.6,4.1,2.6025,0.6038134588667263,-0.01801104796572357,0.7824697159900209,0.004354620410868811,-0.101723,-34.642496
11.185,2.0,1.0,1.0,33.7,34.4,34.4,2.6,4.1,2.605,0.5968426411750181,-0.018381050776857075,0.7875782349464933,0.0042620763748051375,-0.103275,-34.485155
11.185,2.0,1.0,1.0,33.7,34.4,34.4,2.6,4.1,2.6075,0.5897769988710844,-0.018759699425234796,0.7926573491346022,0.004163843223323941,-0.104867,-34.326631
11.185,2.0,1.0,1.0,33.7,34.4,34.4,2.6,4.1,2.61,0.5826152340996494,-0.019147259840188554,0.7977058393966185,0.004059652111212118,-0.106503,-34.166897
11.185,2.0,1.0,1.0,33.7,34.4,34.4,2.6,4.1,2.6125,0.5753560231361644,-0.019544008598693922,0.8027224416974439,0.003949219633772437,-0.108182,-34.005923
11.185,2.0,1.0,1.0,33.7,34.4,34.4,2.6,4.1,2.615,0.5679980156981208,-0.019950233449862916,0.8077058451657488,0.003832246891692567,-0.109907,-33.843677
11.185,2.0,1.0,1.0,33.7,34.4,34.4,2.6,4.1,2.6175,0.5605398342278199,-0.020366233869638695,0.8126546900266882,0.003708418485311128,-0.11168,-33.680128
11.185,2.0,1.0,1.0,33.7,34.4,34.4,2.6,4.1,2.62,0.5529800731448609,-0.020792321647615887,0.8175675654183987,0.003577401432115271,-0.113502,-33.515244
11.185,2.0,1.0,1.0,33.7,34.4,34.4,2.6,4.1,2.6225,0.5453172980664945,-0.02122882150803339,0.8224430070837727,0.00343884400069218,-0.115376,-33.348991
11.185,2.0,1.0,1.0,33.7,34.4,34.4,2.6,4.1,2.625,0.53755004499389,-0.0216760717671184,0.827279494928225,0.00329237445367614,-0.117303,-33.181333
11.185,2.0,1.0,1.0,33.7,34.4,34.4,2.6,4.1,2.6275,0.5296768194621768,-0.022134425029100784,0.8320754504333316,0.003137599691475222,-0.119286,-33.012235
11.185,2.0,1.0,1.0,33.7,34.4,34.4,2.6,4.1,2.63,0.5216960956520301,-0.02260424892336015,0.8368292339152382,0.002974103787718723,-0.121327,-32.841659
11.185,2.0,1.0,1.0,33.7,34.4,34.4,2.6,4.1,2.6325,0.513606315460394,-0.02308592688532117,0.8415391416157001,0.0028014464064251847,-0.123429,-32.669568
11.185,2.0,1.0,1.0,33.7,34.4,34.4,2.6,4.1,2.635,0.5054058875277867,-0.023579858983869804,0.8462034026124224,0.002619161089841252,-0.125593,-32.495921
11.185,2.0,1.0,1.0,33.7,34.4,34.4,2.6,4.1,2.6375,0.49709318621947907,-0.024086462798225117,0.8508201755340693,0.0024267534047278136,-0.127823,-32.320677
11.185,2.0,1.0,1.0,33.7,34.4,34.4,2.6,4.1,2.64,0.4886665505576456,-0.02460617434737036,0.8553875450638586,0.0022236989335559076,-0.130121,-32.143793
11.185,2.0,1.0,1.0,33.7,34.4,34.4,2.6,4.1,2.6425,0.480124283101456,-0.02513944907531339,0.8599035182140007,0.002009441095604237,-0.132491,-31.965226
11.185,2.0,1.0,1.0,33.7,34.4,34.4,2.6,4.1,2.645,0.4714646487718637,-0.025686762895618925,0.8643660203514494,0.0017833887812981426,-0.134936,-31.784928
11.185,2.0,1.0,1.0,33.7,34.4,34.4,2.6,4.1,2.6475,0.46268587361770913,-0.026248613298820393,0.8687728909533702,0.0015449137812764049,-0.137459,-31.602854
11.185,2.0,1.0,1.0,33.7,34.4,34.4,2.6,4.1,2.65,0.4537861435195469,-0.02682552052648475,0.8731218790684654,0.0012933479895858764,-0.140064,-31.418953
11.185,2.0,1.0,1.0,33.7,34.4,34.4,2.6,4.1,2.6525,0.44476360282750793,-0.02741802881585003,0.8774106384576936,0.00102798035805632,-0.142754,-31.233175
11.185,2.0,1.0,1.0,33.7,34.4,34.4,2.6,4.1,2.655,0.4356163529292882,-0.028026707719097415,0.8816367223850847,0.000748053576257642,-0.145534,-31.045466
11.185,2.0,1.0,1.0,33.7,34.4,34.4,2.6,4.1,2.6575,0.42634245074428284,-0.028652153501427642,0.8857975780260526,0.00045276044845199144,-0.148407,-30.85577
11.185,2.0,1.0,1.0,33.7,34.4,34.4,2.6,4.1,2.66,0.4169399071397708,-0.02929499062219359,0.8898905404569838,0.0001412399355703102,-0.15138,-30.664032
11.185,2.0,1.0,1.0,33.7,34.4,34.4,2.6,4.1,2.6625,0.4074066852650009,-0.0299558733033749,0.8939128261857054,-0.00018742717358708475,-0.154455,-30.47019
11.185,2.0,1.0,1.0,33.7,34.4,34.4,2.6,4.1,2.665,0.39774069879901974,-0.030635487189658347,0.8978615261778,-0.0005342230020703593,-0.15764,-30.274184
11.185,2.0,1.0,1.0,33.7,34.4,34.4,2.6,4.1,2.6675,0.38793981010818795,-0.031334551104282286,0.9017335983283827,-0.0009001977804974114,-0.160938,-30.075948
11.185,2.0,1.0,1.0,33.7,34.4,34.4,2.6,4.1,2.67,0.37800182830946916,-0.03205381890460192,0.9055258593229906,-0.0012864755494582543,-0.164357,-29.875414
11.185,2.0,1.0,1.0,33.7,34.4,34.4,2.6,4.1,2.6725,0.3679245072358898,-0.03279408144099584,0.9092349758243556,-0.0016942604256880544,-0.167903,-29.672514
11.185,2.0,1.0,1.0,33.7,34.4,34.4,2.6,4.1,2.675,0.35770554330104226,-0.03355616862222873,0.9128574549140919,-0.002124843496384103,-0.171582,-29.467174
11.185,2.0,1.0,1.0,33.7,34.4,34.4,2.6,4.1,2.6775,0.34734257326014983,-0.03434095158966957,0.9163896337094108,-0.002579610414378284,-0.175402,-29.259317
11.185,2.0,1.0,1.0,33.7,34.4,34.4,2.6,4.1,2.68,0.3368331718661662,-0.03514934500177118,0.9198276680648921,-0.003060049776417257,-0.179371,-29.048863
11.185,2.0,1.0,1.0,33.7,34.4,34.4,2.6,4.1,2.6825,0.32617484942065433,-0.035982309428880935,0.9231675202577018,-0.003567762377741334,-0.183498,-28.835731
11.185,2.0,1.0,1.0,33.7,34.4,34.4,2.6,4.1,2.685,0.3153650492208877,-0.03684085385668034,0.9264049455413969,-0.004104471448716989,-0.18779,-28.619832
11.185,2.0,1.0,1.0,33.7,34.4,34.4,2.6,4.1,2.6875,0.304401144906867,-0.0377260382942273,0.929535477438173,-0.00467203399372976,-0.192259,-28.401075
11.185,2.0,1.0,1.0,33.7,34.4,34.4,2.6,4.1,2.69,0.2932804377148902,-0.03863897647955704,0.932554411621887,-0.005272453369197859,-0.196915,-28.179367
11.185,2.0,1.0,1.0,33.7,34.4,34.4,2.6,4.1,2.6925,0.28200015364807607,-0.03958083867190915,0.9354567882239496,-0.005907893256794813,-0.20177,-27.954606
11.185,2.0,1.0,1.0,33.7,34.4,34.4,2.6,4.1,2.695,0.270557440579189,-0.04055285451465369,0.9382373723708619,-0.006580693210198381,-0.206835,-27.726688
11.185,2.0,1.0,1.0,33.7,34.4,34.4,2.6,4.1,2.6975,0.25894936530729823,-0.04155631594661875,0.9408906327351672,-0.007293385979442977,-0.212126,-27.495505
11.185,2.0,1.0,1.0,33.7,34.4,34.4,2.6,4.1,2.7,0.24717291059789054,-0.04259258013139553,0.9434107178503156,-0.008048716846840671,-0.217655,-27.260941
11.185,2.0,1.0,1.0,33.7,34.4,34.4,2.6,4.1,2.7025,0.23522497224617084,-0.0436630723638817,0.9457914299036526,-0.008849665243191807,-0.22344,-27.022875
11.185,2.0,1.0,1.0,33.7,34.4,34.4,2.6,4.1,2.705,0.22310235621631166,-0.04476928890022437,0.9480261956794938,-0.009699468953484057,-0.229497,-26.781182
11.185,2.0,1.0,1.0,33.7,34.4,34.4,2.6,4.1,2.7075,0.21080177592581864,-0.0459127996407258,0.9501080342750816,-0.010601651268515342,-0.235846,-26.535727
11.185,2.0,1.0,1.0,33.7,34.4,34.4,2.6,4.1,2.71,0.1983198497651183,-0.04709525057423389,0.9520295211547787,-0.011560051494092395,-0.242508,-26.28637
11.185,2.0,1.0,1.0,33.7,34.4,34.4,2.6,4.1,2.7125,0.1856530989689687,-0.04831836586588541,0.9537827480406849,-0.012578859294122885,-0.249504,-26.032965
11.185,2.0,1.0,1.0,33.7,34.4,34.4,2.6,4.1,2.715,0.1727979459899552,-0.04958394943627455,0.9553592780591821,-0.013662653419779753,-0.256862,-25.775356
11.185,2.0,1.0,1.0,33.7,34.4,34.4,2.6,4.1,2.7175,0.1597507135671002,-0.050893885837252684,0.956750095470524,-0.014816445466069063,-0.264607,-25.513378
11.185,2.0,1.0,1.0,33.7,34.4,34.4,2.6,4.1,2.72,0.14650762473696752,-0.05225014017512696,0.9579455492000031,-0.01604572940207343,-0.27277,-25.246859
11.185,2.0,1.0,1.0,33.7,34.4,34.4,2.6,4.1,2.7225,0.1330648041037832,-0.053654756762812825,0.958935289261286,-0.01735653774487431,-0.281385,-24.975616
11.185,2.0,1.0,1.0,33.7,34.4,34.4,2.6,4.1,2.725,0.11941828077334325,-0.05510985609433723,0.9597081950116555,-0.01875550539323725,-0.290488,-24.699457
11.185,2.0,1.0,1.0,33.7,34.4,34.4,2.6,4.1,2.7275,0.1055639934679779,-0.0566176296226362,0.9602522940006479,-0.020249942309874574,-0.300121,-24.418177
11.185,2.0,1.0,1.0,33.7,34.4,34.4,2.6,4.1,2.73,0.09149779848397423,-0.05818033167780092,0.9605546699628288,-0.021847916445529057,-0.31033,-24.13156
11.185,2.0,1.0,1.0,33.7,34.4,34.4,2.6,4.1,2.7325,0.077215481337465,-0.059800267678717024,0.9606013582558912,-0.023558348540338035,-0.321165,-23.839377
11.185,2.0,1.0,1.0,33.7,34.4,34.4,2.6,4.1,2.735,0.06271277318221737,-0.06147977755441257,0.960377226749711,-0.025391120725042314,-0.332684,-23.541385
11.185,2.0,1.0,1.0,33.7,34.4,34.4,2.6,4.1,2.7375,0.04798537338852681,-0.06322121298672141,0.9598658398217123,-0.027357201185022068,-0.344949,-23.237328
11.185,2.0,1.0,1.0,33.7,34.4,34.4,2.6,4.1,2.74,0.033028980067619514,-0.06502690669235243,0.9590493026989714,-0.0294687875535992,-0.358033,-22.926932
11.185,2.0,1.0,1.0,33.7,34.4,34.4,2.6,4.1,2.7425,0.017839330837974315,-0.0668991314527841,0.9579080828963845,-0.031739472178742796,-0.372017,-22.609906
11.185,2.0,1.0,1.0,33.7,34.4,34.4,2.6,4.1,2.745,0.0024122567955068078,-0.06884004593821923,0.9564208049200528,-0.034184432971776355,-0.386992,-22.285943
11.185,2.0,1.0,1.0,33.7,34.4,34.4,2.6,4.1,2.7475,-0.013256246482647763,-0.07085162350876066,0.9545640137216659,-0.03682065421155095,-0.403061,-21.954712
11.185,2.0,1.0,1.0,33.7,34.4,34.4,2.6,4.1,2.75,-0.0291699259358052,-0.0729355590473043,0.952311901588639,-0.0396671824568246,-0.420343,-21.615866
11.185,2.0,1.0,1.0,33.7,34.4,34.4,2.6,4.1,2.7525,-0.04533214956378963,-0.07509314739766425,0.9496359922222831,-0.042745423626302216,-0.438971,-21.269032
11.185,2.0,1.0,1.0,33.7,34.4,34.4,2.6,4.1,2.755,-0.06174574809965777,-0.07732512503147503,0.9465047746821565,-0.046079488349459116,-0.459101,-20.913813
11.185,2.0,1.0,1.0,33.7,34.4,34.4,2.6,4.1,2.7575,-0.0784128087995864,-0.07963146399112338,0.9428832786564508,-0.04969659387346893,-0.480909,-20.549787
11.185,2.0,1.0,1.0,33.7,34.4,34.4,2.6,4.1,2.76,-0.09533440689865708,-0.08201110374059299,0.9387325811687749,-0.05362753211825711,-0.5046,-20.176504
11.185,2.0,1.0,1.0,33.7,34.4,34.4,2.6,4.1,2.7625,-0.11251025570516049,-0.08446160201363721,0.9340092333920138,-0.05790721486072405,-0.530411,-19.793484
11.185,2.0,1.0,1.0,33.7,34.4,34.4,2.6,4.1,2.765,-0.12993825019915087,-0.086978679688656,0.9286645948005288,-0.06257530840888226,-0.55862,-19.400218
11.185,2.0,1.0,1.0,33.7,34.4,34.4,2.6,4.1,2.7675,-0.14761387082934066,-0.08955562661313873,0.9226440606270394,-0.06767697132154069,-0.58955,-18.996163
11.185,2.0,1.0,1.0,33.7,34.4,34.4,2.6,4.1,2.77,-0.16552940324364582,-0.09218252443247614,0.9158861678154331,-0.07326370942314901,-0.62358,-18.580742
11.185,2.0,1.0,1.0,33.7,34.4,34.4,2.6,4.1,2.7725,-0.1836729149701403,-0.09484522788619974,0.908321564924082,-0.07939436200778305,-0.661162,-18.153346
11.185,2.0,1.0,1.0,33.7,34.4,34.4,2.6,4.1,2.775,-0.2020269102887452,-0.09752402643557191,0.8998718336683746,-0.0861362307903841,-0.702827,-17.713331
11.185,2.0,1.0,1.0,33.7,34.4,34.4,2.6,4.1,2.7775,-0.22056655799044003,-0.10019188179132216,0.8904481555551004,-0.09356635729329103,-0.749214,-17.260021
11.185,2.0,1.0,1.0,33.7,34.4,34.4,2.6,4.1,2.78,-0.2392573512124645,-0.102812101750042,0.8799498289320846,-0.10177294238610518,-0.801086,-16.79271
11.185,2.0,1.0,1.0,33.7,34.4,34.4,2.6,4.1,2.7825,-0.2580520113491075,-0.10533526404601531,0.8682626639754925,-0.11085687942807188,-0.859368,-16.31067
11.185,2.0,1.0,1.0,33.7,34.4,34.4,2.6,4.1,2.785,-0.2768863860492558,-0.10769514261614144,0.8552573225233305,-0.12093333307786343,-0.925181,-15.813157
11.185,2.0,1.0,1.0,33.7,34.4,34.4,2.6,4.1,2.7875,-0.29567401146137945,-0.10980330976627677,0.8407877372850293,-0.13213322836428476,-0.999897,-15.299431
11.185,2.0,1.0,1.0,33.7,34.4,34.4,2.6,4.1,2.79,-0.3142989093905313,-0.11154198951876892,0.8246898584156945,-0.1446044015856101,-1.085199,-14.768775
11.185,2.0,1.0,1.0,33.7,34.4,34.4,2.6,4.1,2.7925,-0.3326060731852284,-0.11275462229966125,0.8067811623584094,-0.15851197863883867,-1.183172,-14.220529
11.185,2.0,1.0,1.0,33.7,34.4,34.4,2.6,4.1,2.795,-0.35038897429749444,-0.11323348147936951,0.7868616605640756,-0.17403724552961525,-1.296408,-13.654141
11.185,2.0,1.0,1.0,33.7,34.4,34.4,2.6,4.1,2.7975,-0.3673733288693318,-0.11270359239175715,0.7647176266965675,-0.1913737982209012,-1.428146,-13.069238
11.185,2.0,1.0,1.0,33.7,34.4,34.4,2.6,4.1,2.8,-0.38319637962363934,-0.11080222324552046,0.740130006657078,-0.21071901922218744,-1.582453,-12.465729
11.185,2.0,1.0,1.0,33.7,34.4,34.4,2.6,4.1,2.8025,-0.397381238465562,-0.10705350955457911,0.7128905912819407,-0.23225782283937577,-1.764444,-11.843947
11.185,2.0,1.0,1.0,33.7,34.4,34.4,2.6,4.1,2.805,-0.4093067211540608,-0.10083865869444328,0.6828306073286383,-0.25613405134674294,-1.980549,-11.20485
11.185,2.0,1.0,1.0,33.7,34.4,34.4,2.6,4.1,2.8075,-0.4181751655196621,-0.09136423242939878,0.6498683905916286,-0.2824029203067743,-2.238806,-10.550298
11.185,2.0,1.0,1.0,33.7,34.4,34.4,2.6,4.1,2.81,-0.4229848968046463,-0.07763515131076065,0.614084842840282,-0.31095590604558393,-2.549124,-9.883416
11.185,2.0,1.0,1.0,33.7,34.4,34.4,2.6,4.1,2.8125,-0.422521555961174,-0.0584465583524047,0.575836125046104,-0.34140875272819,-2.923347,-9.209059
11.185,2.0,1.0,1.0,33.7,34.4,34.4,2.6,4.1,2.815,-0.41539448891199166,-0.03242054919873794,0.5359093536233986,-0.37294697824480855,-3.374769,-8.534362
11.185,2.0,1.0,1.0,33.7,34.4,34.4,2.6,4.1,2.8175,-0.4001597408917865,0.0018710584807315805,0.49571294597370696,-0.40413732197840424,-3.916247,-7.869328
11.185,2.0,1.0,1.0,33.7,34.4,34.4,2.6,4.1,2.82,-0.3755823898613987,0.04564577339277951,0.4574603505210579,-0.4327462615434009,-4.555201,-7.227281
11.185,2.0,1.0,1.0,33.7,34.4,34.4,2.6,4.1,2.8225,-0.34107775052512285,0.09947246605701547,0.42424977059106367,-0.4556623387510701,-5.282363,-6.624949
11.185,2.0,1.0,1.0,33.7,34.4,34.4,2.6,4.1,2.825,-0.2972998775080063,0.1626883207004074,0.3998805609314281,-0.4690801800128871,-6.050378,-6.081765
11.185,2.0,1.0,1.0,33.7,34.4,34.4,2.6,4.1,2.8275,-0.2466955383460284,0.23285167339236162,0.3882431125507829,-0.46910734251196223,-6.74502,-5.618033
11.185,2.0,1.0,1.0,33.7,34.4,34.4,2.6,4.1,2.83,-0.1936706180499992,0.3055809125278192,0.39227329729947713,-0.4528014592311591,-7.180884,-5.251883
