1,w,sub_t,h,l1,l2,l3,g1,g2,Freq,S11_re,S21_re,S11_img,S21_img,S11_dB,S21_dB
11.185,2.0,1.0,1.0,34.5,33.4,33.4,4.2,2.3,2.5,0.706719484190832,-0.0104549122951563,0.697165876430517,0.00441565696867063,-0.063466,-38.900733
11.185,2.0,1.0,1.0,34.5,33.4,33.4,4.2,2.3,2.5025,0.701110704606282,-0.010629505222741297,0.7027036269335731,0.004380169252659437,-0.064101,-38.788597
11.185,2.0,1.0,1.0,34.5,33.4,33.4,4.2,2.3,2.505,0.6954291684459465,-0.010806543729428263,0.7082234045075858,0.004342453453861206,-0.064747,-38.676177
11.185,2.0,1.0,1.0,34.5,33.4,33.4,4.2,2.3,2.5075,0.689674206531776,-0.010986058190389015,0.7137244999568906,0.004302441423935407,-0.065403,-38.563468
11.185,2.0,1.0,1.0,34.5,33.4,33.4,4.2,2.3,2.51,0.6838451440270654,-0.011168079162333588,0.7192061850928191,0.004260062958598674,-0.066071,-38.450464
11.185,2.0,1.0,1.0,34.5,33.4,33.4,4.2,2.3,2.5125,0.6779413005393101,-0.011352637370442308,0.7246677122285399,0.004215245731578651,-0.06675,-38.337159
11.185,2.0,1.0,1.0,34.5,33.4,33.4,4.2,2.3,2.515,0.6719619902329281,-0.011539763694253132,0.7301083136615332,0.0041679152262968444,-0.067441,-38.223548
11.185,2.0,1.0,1.0,34.5,33.4,33.4,4.2,2.3,2.5175,0.6659065219523733,-0.011729489152444155,0.7355272011434475,0.004117994665195392,-0.068144,-38.109625
11.185,2.0,1.0,1.0,34.5,33.4,33.4,4.2,2.3,2.52,0.6597741993561381,-0.011921844886449285,0.7409235653371143,0.004065404936618323,-0.068859,-37.995383
11.185,2.0,1.0,1.0,34.5,33.4,33.4,4.2,2.3,2.5225,0.6535643210622215,-0.012116862142840969,0.7462965752604586,0.004010064519156338,-0.069586,-37.880817
11.185,2.0,1.0,1.0,34.5,33.4,33.4,4.2,2.3,2.525,0.6472761808056061,-0.012314572254410766,0.7516453777170877,0.003951889403356225,-0.070326,-37.76592
11.185,2.0,1.0,1.0,34.5,33.4,33.4,4.2,2.3,2.5275,0.6409090676083468,-0.012515006619875141,0.7569690967133094,0.003890793010695756,-0.071079,-37.650687
11.185,2.0,1.0,1.0,34.5,33.4,33.4,4.2,2.3,2.53,0.6344622659628962,-0.012718196682129408,0.7622668328613411,0.0038266861097182186,-0.071845,-37.535111
11.185,2.0,1.0,1.0,34.5,33.4,33.4,4.2,2.3,2.5325,0.6279350560293018,-0.012924173904968696,0.7675376627684799,0.0037594767292157966,-0.072625,-37.419187
11.185,2.0,1.0,1.0,34.5,33.4,33.4,4.2,2.3,2.535,0.6213267138469447,-0.013132969748191439,0.772780638411999,0.0036890700683479,-0.073419,-37.302907
11.185,2.0,1.0,1.0,34.5,33.4,33.4,4.2,2.3,2.5375,0.6146365115615332,-0.01334461564099493,0.7779947864995383,0.003615368403573041,-0.074227,-37.186265
11.185,2.0,1.0,1.0,34.5,33.4,33.4,4.2,2.3,2.54,0.607863717668059,-0.013559142953569261,0.7831791078147661,0.003538270992269172,-0.075049,-37.069255
11.185,2.0,1.0,1.0,34.5,33.4,33.4,4.2,2.3,2.5425,0.6010075972704876,-0.013776582966789176,0.7883325765480899,0.0034576739729100386,-0.075886,-36.95187
11.185,2.0,1.0,1.0,34.5,33.4,33.4,4.2,2.3,2.545,0.5940674123589602,-0.013996966839899877,0.7934541396121996,0.0033734702616599935,-0.076738,-36.834104
11.185,2.0,1.0,1.0,34.5,33.4,33.4,4.2,2.3,2.5475,0.5870424221053425,-0.014220325576085718,0.7985427159422229,0.003285549445242103,-0.077606,-36.715949
11.185,2.0,1.0,1.0,34.5,33.4,33.4,4.2,2.3,2.55,0.5799318831779458,-0.014446689985805604,0.8035971957803079,0.003193797669928655,-0.07849,-36.5974
11.185,2.0,1.0,1.0,34.5,33.4,33.4,4.2,2.3,2.5525,0.5727350500763424,-0.014676090647772063,0.8086164399444038,0.003098097526494105,-0.079389,-36.478448
11.185,2.0,1.0,1.0,34.5,33.4,33.4,4.2,2.3,2.555,0.5654511754871648,-0.014908557867444973,0.813599279081081,0.0029983279309641624,-0.080306,-36.359087
11.185,2.0,1.0,1.0,34.5,33.4,33.4,4.2,2.3,2.5575,0.5580795106618602,-0.015144121632903235,0.818544512902187,0.002894364000984964,-0.081239,-36.239311
11.185,2.0,1.0,1.0,34.5,33.4,33.4,4.2,2.3,2.56,0.5506193058173972,-0.01538281156795072,0.8234509094051751,0.002786076927628704,-0.08219,-36.11911
11.185,2.0,1.0,1.0,34.5,33.4,33.4,4.2,2.3,2.5625,0.5430698105609528,-0.01562465688230435,0.8283172040769426,0.002673333842441059,-0.083158,-35.998479
11.185,2.0,1.0,1.0,34.5,33.4,33.4,4.2,2.3,2.565,0.5354302743396505,-0.015869686318704692,0.8331420990810267,0.0025559976795268436,-0.084145,-35.87741
11.185,2.0,1.0,1.0,34.5,33.4,33.4,4.2,2.3,2.5675,0.5276999469164735,-0.01611792809677932,0.8379242624280216,0.00243392703245889,-0.085151,-35.755895
11.185,2.0,1.0,1.0,34.5,33.4,33.4,4.2,2.3,2.57,0.5198780788734969,-0.016369409853481315,0.842662327129093,0.0023069760057837178,-0.086175,-35.633926
11.185,2.0,1.0,1.0,34.5,33.4,33.4,4.2,2.3,2.5725,0.5119639221436416,-0.01662415857991363,0.8473548903324841,0.002174994060884918,-0.087219,-35.511496
11.185,2.0,1.0,1.0,34.5,33.4,33.4,4.2,2.3,2.575,0.5039567305721983,-0.01688220055434068,0.8520005124429134,0.002037825855952008,-0.088283,-35.388596
11.185,2.0,1.0,1.0,34.5,33.4,33.4,4.2,2.3,2.5775,0.4958557605094015,-0.017143561271176992,0.8565977162237939,0.0018953110797895255,-0.089368,-35.265219
11.185,2.0,1.0,1.0,34.5,33.4,33.4,4.2,2.3,2.58,0.4876602714354033,-0.017408265365729474,0.8611449858822113,0.0017472842791831315,-0.090473,-35.141357
11.185,2.0,1.0,1.0,34.5,33.4,33.4,4.2,2.3,2.5825,0.4793695266190149,-0.01767633653445932,0.8656407661366301,0.0015935746795266719,-0.091601,-35.017
11.185,2.0,1.0,1.0,34.5,33.4,33.4,4.2,2.3,2.585,0.47098279381166575,-0.01794779745051378,0.8700834612673003,0.0014340059983935908,-0.09275,-34.89214
11.185,2.0,1.0,1.0,34.5,33.4,33.4,4.2,2.3,2.5875,0.46249934597805215,-0.018222669674263857,0.8744714341493857,0.0012683962517189343,-0.093922,-34.76677
11.185,2.0,1.0,1.0,34.5,33.4,33.4,4.2,2.3,2.59,0.45391846206502523,-0.01850097355857043,0.8788030052688194,0.0010965575522380762,-0.095117,-34.640878
11.185,2.0,1.0,1.0,34.5,33.4,33.4,4.2,2.3,2.5925,0.4452394278102936,-0.018782728148481028,0.8830764517209707,0.0009182958998050103,-0.096335,-34.514458
11.185,2.0,1.0,1.0,34.5,33.4,33.4,4.2,2.3,2.595,0.4364615365926117,-0.019067951075045546,0.8872900061921671,0.0007334109631915703,-0.097579,-34.387499
11.185,2.0,1.0,1.0,34.5,33.4,33.4,4.2,2.3,2.5975,0.42758409032512285,-0.0193566584429157,0.8914418559242155,0.0005416958529411649,-0.098847,-34.259992
11.185,2.0,1.0,1.0,34.5,33.4,33.4,4.2,2.3,2.6,0.4186064003936425,-0.019648864711378475,0.8955301416620316,0.00034293688482606275,-0.100141,-34.131928
11.185,2.0,1.0,1.0,34.5,33.4,33.4,4.2,2.3,2.6025,0.4095277886416923,-0.019944582568444426,0.8995529565845569,0.00013691333342523405,-0.101461,-34.003296
11.185,2.0,1.0,1.0,34.5,33.4,33.4,4.2,2.3,2.605,0.40034758840415724,-0.02024382279759511,0.903508345219161,-7.660282469098539e-05,-0.102808,-33.874087
11.185,2.0,1.0,1.0,34.5,33.4,33.4,4.2,2.3,2.6075,0.39106514559151184,-0.020546594136763942,0.9073943023397576,-0.0002978471787177114,-0.104183,-33.744291
11.185,2.0,1.0,1.0,34.5,33.4,33.4,4.2,2.3,2.61,0.38167981982662114,-0.02085290312909761,0.9112087718488968,-0.0005270631629001644,-0.105587,-33.613896
11.185,2.0,1.0,1.0,34.5,33.4,33.4,4.2,2.3,2.6125,0.37219098563618136,-0.0211627539650191,0.9149496456441343,-0.0007645023479731518,-0.10702,-33.482892
11.185,2.0,1.0,1.0,34.5,33.4,33.4,4.2,2.3,2.615,0.3625980336989227,-0.0214761483150768,0.9186147624690181,-0.0010104247454252476,-0.108482,-33.351269
11.185,2.0,1.0,1.0,34.5,33.4,33.4,4.2,2.3,2.6175,0.3529003721527943,-0.02179308515303233,0.922201906749051,-0.0012650991253081731,-0.109976,-33.219015
11.185,2.0,1.0,1.0,34.5,33.4,33.4,4.2,2.3,2.62,0.3430974279633864,-0.022113560568601916,0.9257088074130487,-0.0015288033483597339,-0.111501,-33.086119
11.185,2.0,1.0,1.0,34.5,33.4,33.4,4.2,2.3,2.6225,0.333188648355928,-0.02243756756922432,0.9291331367003279,-0.0018018247132706657,-0.113059,-32.952568
11.185,2.0,1.0,1.0,34.5,33.4,33.4,4.2,2.3,2.625,0.32317350231329,-0.0227650958701849,0.932472508954207,-0.00208446031998193,-0.114651,-32.818351
11.185,2.0,1.0,1.0,34.5,33.4,33.4,4.2,2.3,2.6275,0.3130514821424463,-0.023096131672378336,0.935724479402346,-0.002377017449970216,-0.116277,-32.683456
11.185,2.0,1.0,1.0,34.5,33.4,33.4,4.2,2.3,2.63,0.30282210511198654,-0.023430657426937035,0.9388865429244627,-0.0026798139645512024,-0.117938,-32.547869
11.185,2.0,1.0,1.0,34.5,33.4,33.4,4.2,2.3,2.6325,0.29248491516329206,-0.023768651585899147,0.9419561328080228,-0.0029931787223088655,-0.119636,-32.411578
11.185,2.0,1.0,1.0,34.5,33.4,33.4,4.2,2.3,2.635,0.28203948469810736,-0.024110088338023822,0.944930619492521,-0.00331745201684894,-0.121371,-32.274569
11.185,2.0,1.0,1.0,34.5,33.4,33.4,4.2,2.3,2.6375,0.2714854164453091,-0.024454937328795216,0.9478073093029986,-0.00365298603616716,-0.123145,-32.136829
11.185,2.0,1.0,1.0,34.5,33.4,33.4,4.2,2.3,2.64,0.2608223454097321,-0.024803163363582247,0.9505834431734796,-0.004000145345030031,-0.124959,-31.998343
11.185,2.0,1.0,1.0,34.5,33.4,33.4,4.2,2.3,2.6425,0.25004994090605787,-0.025154726092835148,0.9532561953610196,-0.004359307391877049,-0.126813,-31.859098
11.185,2.0,1.0,1.0,34.5,33.4,33.4,4.2,2.3,2.645,0.23916790868079849,-0.025509579678115152,0.955822672151087,-0.004730863041880898,-0.12871,-31.719077
11.185,2.0,1.0,1.0,34.5,33.4,33.4,4.2,2.3,2.6475,0.22817599312555942,-0.025867672437648703,0.958279910555005,-0.005115217137936583,-0.13065,-31.578266
11.185,2.0,1.0,1.0,34.5,33.4,33.4,4.2,2.3,2.65,0.21707397958479202,-0.026228946469991115,0.9606248770002005,-0.005512789091503806,-0.132635,-31.436648
11.185,2.0,1.0,1.0,34.5,33.4,33.4,4.2,2.3,2.6525,0.20586169676146562,-0.02659333725426129,0.9628544660139668,-0.00592401350538746,-0.134666,-31.294208
11.185,2.0,1.0,1.0,34.5,33.4,33.4,4.2,2.3,2.655,0.19453901922406333,-0.026960773225277273,0.9649654989014849,-0.006349340830726557,-0.136745,-31.150929
11.185,2.0,1.0,1.0,34.5,33.4,33.4,4.2,2.3,2.6575,0.18310587001852044,-0.027331175321770863,0.9669547224187836,-0.0067892380606575315,-0.138873,-31.006792
11.185,2.0,1.0,1.0,34.5,33.4,33.4,4.2,2.3,2.66,0.17156222338881152,-0.02770445650569833,0.9688188074413036,-0.007244189463338446,-0.141051,-30.861781
11.185,2.0,1.0,1.0,34.5,33.4,33.4,4.2,2.3,2.6625,0.15990810761003948,-0.02808052125047695,0.9705543476286465,-0.0077146973572601515,-0.143282,-30.715876
11.185,2.0,1.0,1.0,34.5,33.4,33.4,4.2,2.3,2.665,0.14814360793799677,-0.028459264995778125,0.9721578580860625,-0.008201282932037736,-0.145567,-30.569059
11.185,2.0,1.0,1.0,34.5,33.4,33.4,4.2,2.3,2.6675,0.1362688696793742,-0.028840573566275885,0.9736257740230951,-0.008704487118164258,-0.147908,-30.42131
11.185,2.0,1.0,1.0,34.5,33.4,33.4,4.2,2.3,2.67,0.12428410138692175,-0.02922432255150194,0.9749544494096994,-0.009224871509534875,-0.150306,-30.272607
11.185,2.0,1.0,1.0,34.5,33.4,33.4,4.2,2.3,2.6725,0.11218957818407105,-0.029610376643669202,0.9761401556300091,-0.009763019342903585,-0.152765,-30.122931
11.185,2.0,1.0,1.0,34.5,33.4,33.4,4.2,2.3,2.675,0.09998564522377285,-0.029998588930014617,0.9771790801337196,-0.010319536538826002,-0.155285,-29.972258
11.185,2.0,1.0,1.0,34.5,33.4,33.4,4.2,2.3,2.6775,0.0876727212864619,-0.03038880013585424,0.9780673250849047,-0.010895052809079138,-0.157868,-29.820567
11.185,2.0,1.0,1.0,34.5,33.4,33.4,4.2,2.3,2.68,0.07525130252242535,-0.030780837814143525,0.9788009060077256,-0.011490222836027393,-0.160518,-29.667833
11.185,2.0,1.0,1.0,34.5,33.4,33.4,4.2,2.3,2.6825,0.06272196634405995,-0.031174515476893996,0.979375750428285,-0.0121057275299335,-0.163237,-29.514032
11.185,2.0,1.0,1.0,34.5,33.4,33.4,4.2,2.3,2.685,0.05008537547390939,-0.031569631663284616,0.9797876965114455,-0.012742275370808083,-0.166027,-29.359139
11.185,2.0,1.0,1.0,34.5,33.4,33.4,4.2,2.3,2.6875,0.0373422821546917,-0.0319659689387465,0.980032491691066,-0.0134006038420361,-0.16889,-29.203126
11.185,2.0,1.0,1.0,34.5,33.4,33.4,4.2,2.3,2.69,0.024493532528051785,-0.03236329281865187,0.9801057912915567,-0.014081480963748647,-0.171829,-29.045967
11.185,2.0,1.0,1.0,34.5,33.4,33.4,4.2,2.3,2.6925,0.01154007118917546,-0.032761350609515044,0.9800031571381395,-0.014785706934709032,-0.174848,-28.887633
11.185,2.0,1.0,1.0,34.5,33.4,33.4,4.2,2.3,2.695,-0.001517054074921946,-0.03315987015979307,0.9797200561525047,-0.015514115892373859,-0.17795,-28.728094
11.185,2.0,1.0,1.0,34.5,33.4,33.4,4.2,2.3,2.6975,-0.014676687355027232,-0.033558558511439886,0.9792518589297843,-0.0162675778017868,-0.181136,-28.567319
11.185,2.0,1.0,1.0,34.5,33.4,33.4,4.2,2.3,2.7,-0.0279375594880639,-0.03395710044231162,0.9785938382919142,-0.01704700048505956,-0.184412,-28.405276
11.185,2.0,1.0,1.0,34.5,33.4,33.4,4.2,2.3,2.7025,-0.041298282714044184,-0.03435515688831829,0.9777411678114173,-0.017853331804432267,-0.187781,-28.241931
11.185,2.0,1.0,1.0,34.5,33.4,33.4,4.2,2.3,2.705,-0.0547573451104864,-0.0347523632328447,0.9766889202984848,-0.018687562013268117,-0.191245,-28.077249
11.185,2.0,1.0,1.0,34.5,33.4,33.4,4.2,2.3,2.7075,-0.06831310479199049,-0.03514832744940333,0.9754320662429152,-0.01955072629087112,-0.194811,-27.911192
11.185,2.0,1.0,1.0,34.5,33.4,33.4,4.2,2.3,2.71,-0.08196378386123192,-0.035542628081694186,0.9739654722009639,-0.020443907478716095,-0.19848,-27.743724
11.185,2.0,1.0,1.0,34.5,33.4,33.4,4.2,2.3,2.7125,-0.09570746209600972,-0.0359348120432006,0.9722838991153859,-0.021368239037590442,-0.202259,-27.574803
11.185,2.0,1.0,1.0,34.5,33.4,33.4,4.2,2.3,2.715,-0.10954207035510063,-0.0363243922161133,0.9703820005550292,-0.022324908247271753,-0.206152,-27.404389
11.185,2.0,1.0,1.0,34.5,33.4,33.4,4.2,2.3,2.7175,-0.12346538368345168,-0.036710844826677115,0.9682543208580762,-0.02331515967275301,-0.210164,-27.232435
11.185,2.0,1.0,1.0,34.5,33.4,33.4,4.2,2.3,2.72,-0.13747501409462234,-0.03709360657096609,0.9658952931604606,-0.02434029892369058,-0.214301,-27.058898
11.185,2.0,1.0,1.0,34.5,33.4,33.4,4.2,2.3,2.7225,-0.15156840300541674,-0.037472071461527555,0.9632992372881164,-0.025401696736747154,-0.218567,-26.883728
11.185,2.0,1.0,1.0,34.5,33.4,33.4,4.2,2.3,2.725,-0.16574281329399307,-0.03784558736122014,0.9604603574883824,-0.026500793413845345,-0.222971,-26.706875
11.185,2.0,1.0,1.0,34.5,33.4,33.4,4.2,2.3,2.7275,-0.17999532094871004,-0.03821345216581595,0.9573727399721873,-0.027639103653123775,-0.227517,-26.528285
11.185,2.0,1.0,1.0,34.5,33.4,33.4,4.2,2.3,2.73,-0.19432280626992554,-0.038574909591427634,0.9540303502343537,-0.028818221813604317,-0.232213,-26.347904
11.185,2.0,1.0,1.0,34.5,33.4,33.4,4.2,2.3,2.7325,-0.20872194458136273,-0.03892914451642692,0.9504270301145716,-0.030039827659338575,-0.237067,-26.165671
11.185,2.0,1.0,1.0,34.5,33.4,33.4,4.2,2.3,2.735,-0.2231891964007682,-0.039275277820088536,0.9465564945561051,-0.03130569263414246,-0.242087,-25.981527
11.185,2.0,1.0,1.0,34.5,33.4,33.4,4.2,2.3,2.7375,-0.2377207970117165,-0.03961236065152539,0.9424123280131337,-0.03261768672404722,-0.247281,-25.795405
11.185,2.0,1.0,1.0,34.5,33.4,33.4,4.2,2.3,2.74,-0.25231274536898995,-0.03993936805237842,0.9379879804505932,-0.03397778597136477,-0.252658,-25.607237
11.185,2.0,1.0,1.0,34.5,33.4,33.4,4.2,2.3,2.7425,-0.2669607922588542,-0.04025519184487878,0.933276762872438,-0.03538808071190433,-0.25823,-25.416951
11.185,2.0,1.0,1.0,34.5,33.4,33.4,4.2,2.3,2.745,-0.2816604276224636,-0.04055863268303589,0.9282718423052503,-0.036850784615473156,-0.264006,-25.224471
11.185,2.0,1.0,1.0,34.5,33.4,33.4,4.2,2.3,2.7475,-0.29640686693507423,-0.04084839114839625,0.9229662361539362,-0.03836824461949658,-0.269998,-25.029717
11.185,2.0,1.0,1.0,34.5,33.4,33.4,4.2,2.3,2.75,-0.311195036515285,-0.0411230577526096,0.917352805834702,-0.0399429518565254,-0.276219,-24.832604
11.185,2.0,1.0,1.0,34.5,33.4,33.4,4.2,2.3,2.7525,-0.3260195576167147,-0.04138110168636465,0.9114242495774945,-0.041577553688724705,-0.282683,-24.633042
11.185,2.0,1.0,1.0,34.5,33.4,33.4,4.2,2.3,2.755,-0.3408747291282573,-0.041620858127414194,0.9051730942753224,-0.04327486697633008,-0.289405,-24.430935
11.185,2.0,1.0,1.0,34.5,33.4,33.4,4.2,2.3,2.7575,-0.35575450867816716,-0.04184051388856004,0.8985916862412608,-0.04503789272270501,-0.2964,-24.226185
11.185,2.0,1.0,1.0,34.5,33.4,33.4,4.2,2.3,2.76,-0.3706524918998143,-0.04203809114856882,0.891672180715179,-0.04686983225622988,-0.303686,-24.018683
11.185,2.0,1.0,1.0,34.5,33.4,33.4,4.2,2.3,2.7625,-0.3855618895725328,-0.04221142896379171,0.8844065299411056,-0.04877410512903535,-0.311283,-23.808317
11.185,2.0,1.0,1.0,34.5,33.4,33.4,4.2,2.3,2.765,-0.4004755022973853,-0.04235816220418085,0.8767864696124396,-0.05075436893475179,-0.319211,-23.594967
11.185,2.0,1.0,1.0,34.5,33.4,33.4,4.2,2.3,2.7675,-0.41538569230331485,-0.0424756974925247,0.8688035034556343,-0.052814541272231084,-0.327494,-23.378505
11.185,2.0,1.0,1.0,34.5,33.4,33.4,4.2,2.3,2.77,-0.43028435190134867,-0.042561185647674186,0.8604488856933317,-0.054958824109784164,-0.336156,-23.158796
11.185,2.0,1.0,1.0,34.5,33.4,33.4,4.2,2.3,2.7725,-0.4451628680105983,-0.042611490038338654,0.8517136010950129,-0.057191730835029944,-0.345226,-22.935696
11.185,2.0,1.0,1.0,34.5,33.4,33.4,4.2,2.3,2.775,-0.4600120820655311,-0.04262315014001028,0.8425883422868868,-0.0595181163090558,-0.354734,-22.70905
11.185,2.0,1.0,1.0,34.5,33.4,33.4,4.2,2.3,2.7775,-0.4748222444752964,-0.042592339449105086,0.8330634839530388,-0.06194321028017413,-0.364714,-22.478694
11.185,2.0,1.0,1.0,34.5,33.4,33.4,4.2,2.3,2.78,-0.4895829626363829,-0.04251481673970769,0.8231290535169529,-0.06447265455187924,-0.375204,-22.244454
11.185,2.0,1.0,1.0,34.5,33.4,33.4,4.2,2.3,2.7825,-0.5042831412923525,-0.04238586944207485,0.8127746978469659,-0.06711254434103285,-0.386244,-22.006143
11.185,2.0,1.0,1.0,34.5,33.4,33.4,4.2,2.3,2.785,-0.5189109137797682,-0.04220024766908806,0.8019896454819637,-0.06986947430477188,-0.397881,-21.76356
11.185,2.0,1.0,1.0,34.5,33.4,33.4,4.2,2.3,2.7875,-0.5334535623852406,-0.0419520871054604,0.7907626638266231,-0.07275058975621711,-0.410167,-21.516492
11.185,2.0,1.0,1.0,34.5,33.4,33.4,4.2,2.3,2.79,-0.5478974256503952,-0.04163481858985463,0.7790820107213487,-0.07576364362681454,-0.423159,-21.264709
11.185,2.0,1.0,1.0,34.5,33.4,33.4,4.2,2.3,2.7925,-0.5622277899796839,-0.04124106174318777,0.7669353797556168,-0.07891705976232687,-0.436923,-21.007965
11.185,2.0,1.0,1.0,34.5,33.4,33.4,4.2,2.3,2.795,-0.5764287623060746,-0.04076249940299897,0.7543098386714143,-0.08222000315297451,-0.451531,-20.745997
11.185,2.0,1.0,1.0,34.5,33.4,33.4,4.2,2.3,2.7975,-0.5904831198196276,-0.04018972888266441,0.7411917602068055,-0.08568245768511233,-0.467065,-20.478521
11.185,2.0,1.0,1.0,34.5,33.4,33.4,4.2,2.3,2.8,-0.6043721318236553,-0.03951208514523633,0.7275667447740716,-0.0893153119459374,-0.483619,-20.205231
11.185,2.0,1.0,1.0,34.5,33.4,33.4,4.2,2.3,2.8025,-0.6180753475986794,-0.03871742981288031,0.7134195344766081,-0.09313045348978813,-0.501298,-19.9258
11.185,2.0,1.0,1.0,34.5,33.4,33.4,4.2,2.3,2.805,-0.631570342658664,-0.03779189845703302,0.6987339181793049,-0.09714087174869881,-0.520224,-19.639872
11.185,2.0,1.0,1.0,34.5,33.4,33.4,4.2,2.3,2.8075,-0.6448324138868132,-0.03671959674435686,0.683492627711629,-0.1013607693876907,-0.540536,-19.347066
11.185,2.0,1.0,1.0,34.5,33.4,33.4,4.2,2.3,2.81,-0.6578342116256105,-0.03548223363615531,0.6676772258799099,-0.10580568128766311,-0.562391,-19.04697
11.185,2.0,1.0,1.0,34.5,33.4,33.4,4.2,2.3,2.8125,-0.670545293716654,-0.0340586768073512,0.651267987912932,-0.110492599368209,-0.585974,-18.739138
11.185,2.0,1.0,1.0,34.5,33.4,33.4,4.2,2.3,2.815,-0.68293158254695,-0.03242441157522032,0.6342437794375674,-0.11544009996436654,-0.611498,-18.423088
11.185,2.0,1.0,1.0,34.5,33.4,33.4,4.2,2.3,2.8175,-0.6949547011081737,-0.030550879662561894,0.6165819363406397,-0.12066846818427288,-0.639211,-18.098298
11.185,2.0,1.0,1.0,34.5,33.4,33.4,4.2,2.3,2.82,-0.7065711575920041,-0.028404667750835017,0.5982581553113407,-0.126199810208303,-0.669403,-17.764206
11.185,2.0,1.0,1.0,34.5,33.4,33.4,4.2,2.3,2.8225,-0.7177313397207628,-0.025946507609047088,0.5792464090651127,-0.1320581392576748,-0.702416,-17.420198
11.185,2.0,1.0,1.0,34.5,33.4,33.4,4.2,2.3,2.825,-0.7283782693409827,-0.023130039122532243,0.5595189081156899,-0.13826941307651217,-0.738653,-17.065617
11.185,2.0,1.0,1.0,34.5,33.4,33.4,4.2,2.3,2.8275,-0.7384460541812624,-0.01990027420558017,0.5390461428367973,-0.14486148889593378,-0.778595,-16.699746
