1,w,sub_t,h,l1,l2,l3,g1,g2,Freq,S11_re,S21_re,S11_img,S21_img,S11_dB,S21_dB
11.185,2.0,1.0,1.0,33.9,33.9,33.9,1.5,3.0,2.5,0.789603590702365,-0.0154546564500824,0.599862462710436,0.011845708205708,-0.073101,-34.211692
11.185,2.0,1.0,1.0,33.9,33.9,33.9,1.5,3.0,2.5025,0.7849738031886145,-0.01577828545495569,0.6057485670448127,0.011888526034761366,-0.073956,-34.086111
11.185,2.0,1.0,1.0,33.9,33.9,33.9,1.5,3.0,2.505,0.7802737981592993,-0.01610832014896601,0.6116294001733046,0.011929348115154937,-0.074828,-33.960038
11.185,2.0,1.0,1.0,33.9,33.9,33.9,1.5,3.0,2.5075,0.7755027398438766,-0.01644490222344941,0.6175044759599797,0.011968073487902705,-0.075719,-33.833464
11.185,2.0,1.0,1.0,33.9,33.9,33.9,1.5,3.0,2.51,0.7706597781890777,-0.016788176994342433,0.6233732917380066,0.012004596847762842,-0.076627,-33.706381
11.185,2.0,1.0,1.0,33.9,33.9,33.9,1.5,3.0,2.5125,0.7657440486163947,-0.017138293501948225,0.6292353277151548,0.012038808345492771,-0.077554,-33.578779
11.185,2.0,1.0,1.0,33.9,33.9,33.9,1.5,3.0,2.515,0.7607546717769903,-0.01749540461332264,0.6350900463565128,0.012070593380326016,-0.0785,-33.450649
11.185,2.0,1.0,1.0,33.9,33.9,33.9,1.5,3.0,2.5175,0.7556907533041589,-0.017859667127319418,0.6409368917434352,0.012099832382141585,-0.079466,-33.321982
11.185,2.0,1.0,1.0,33.9,33.9,33.9,1.5,3.0,2.52,0.7505513835634394,-0.018231241882331748,0.6467752889077211,0.01212640058276406,-0.080453,-33.192768
11.185,2.0,1.0,1.0,33.9,33.9,33.9,1.5,3.0,2.5225,0.7453356374005504,-0.01861029386676239,0.65260464313993,0.012150167775800932,-0.08146,-33.062998
11.185,2.0,1.0,1.0,33.9,33.9,33.9,1.5,3.0,2.525,0.740042573887278,-0.018996992332251873,0.6584243392707408,0.01217099806438571,-0.082488,-32.932661
11.185,2.0,1.0,1.0,33.9,33.9,33.9,1.5,3.0,2.5275,0.7346712360655027,-0.01939151090968837,0.6642337409241668,0.012188749596159927,-0.083539,-32.801748
11.185,2.0,1.0,1.0,33.9,33.9,33.9,1.5,3.0,2.53,0.7292206506895634,-0.019794027728017513,0.6700321897413947,0.01220327428478419,-0.084612,-32.670248
11.185,2.0,1.0,1.0,33.9,33.9,33.9,1.5,3.0,2.5325,0.7236898279671689,-0.020204725535863857,0.6758190045739555,0.012214417517227173,-0.085709,-32.538152
11.185,2.0,1.0,1.0,33.9,33.9,33.9,1.5,3.0,2.535,0.7180777612990952,-0.02062379182596872,0.6815934806448747,0.01222201784603463,-0.086829,-32.405448
11.185,2.0,1.0,1.0,33.9,33.9,33.9,1.5,3.0,2.5375,0.7123834270179437,-0.02105141896243989,0.6873548886763607,0.012225906665731217,-0.087975,-32.272127
11.185,2.0,1.0,1.0,33.9,33.9,33.9,1.5,3.0,2.54,0.7066057841262432,-0.021487804310799927,0.6931024739825479,0.012225907872456098,-0.089145,-32.138177
11.185,2.0,1.0,1.0,33.9,33.9,33.9,1.5,3.0,2.5425,0.7007437740342162,-0.021933150370808452,0.6988354555257086,0.012221837505876859,-0.090342,-32.003587
11.185,2.0,1.0,1.0,33.9,33.9,33.9,1.5,3.0,2.545,0.6947963202975734,-0.02238766491202206,0.7045530249342831,0.012213503372366988,-0.091566,-31.868347
11.185,2.0,1.0,1.0,33.9,33.9,33.9,1.5,3.0,2.5475,0.688762328355724,-0.0228515611120402,0.7102543454809769,0.01220070464836765,-0.092817,-31.732444
11.185,2.0,1.0,1.0,33.9,33.9,33.9,1.5,3.0,2.55,0.6826406852708119,-0.023325057697372826,0.7159385510191053,0.012183231462787568,-0.094097,-31.595868
11.185,2.0,1.0,1.0,33.9,33.9,33.9,1.5,3.0,2.5525,0.676430259468081,-0.02380837908684349,0.7216047448752361,0.012160864457220368,-0.095407,-31.458607
11.185,2.0,1.0,1.0,33.9,33.9,33.9,1.5,3.0,2.555,0.6701299004780497,-0.024301755537426747,0.7272519986961148,0.012133374322682031,-0.096747,-31.320648
11.185,2.0,1.0,1.0,33.9,33.9,33.9,1.5,3.0,2.5575,0.6637384386810744,-0.02480542329239341,0.7328793512477277,0.012100521311487323,-0.098118,-31.18198
11.185,2.0,1.0,1.0,33.9,33.9,33.9,1.5,3.0,2.56,0.6572546850549182,-0.025319624731612863,0.7384858071642396,0.012062054722794263,-0.099521,-31.04259
11.185,2.0,1.0,1.0,33.9,33.9,33.9,1.5,3.0,2.5625,0.6506774309259922,-0.025844608523835237,0.7440703356444354,0.012017712360252137,-0.100958,-30.902466
11.185,2.0,1.0,1.0,33.9,33.9,33.9,1.5,3.0,2.565,0.6440054477250067,-0.026380629780744083,0.7496318690931602,0.0119672199600829,-0.102428,-30.761594
11.185,2.0,1.0,1.0,33.9,33.9,33.9,1.5,3.0,2.5675,0.6372374867478441,-0.02692795021253508,0.755169301705099,0.011910290587820399,-0.103935,-30.619962
11.185,2.0,1.0,1.0,33.9,33.9,33.9,1.5,3.0,2.57,0.6303722789225246,-0.027486838284738933,0.7606814879881202,0.011846624001810772,-0.105477,-30.477556
11.185,2.0,1.0,1.0,33.9,33.9,33.9,1.5,3.0,2.5725,0.6234085345832256,-0.028057569375962307,0.7661672412232235,0.011775905981454162,-0.107058,-30.334363
11.185,2.0,1.0,1.0,33.9,33.9,33.9,1.5,3.0,2.575,0.6163449432524075,-0.028640425936172418,0.7716253318579839,0.011697807618032015,-0.108677,-30.190369
11.185,2.0,1.0,1.0,33.9,33.9,33.9,1.5,3.0,2.5775,0.6091801734321842,-0.029235697645096793,0.7770544858301957,0.01161198456581795,-0.110336,-30.04556
11.185,2.0,1.0,1.0,33.9,33.9,33.9,1.5,3.0,2.58,0.6019128724061968,-0.029843681570250104,0.7824533828182376,0.011518076251019072,-0.112037,-29.899922
11.185,2.0,1.0,1.0,33.9,33.9,33.9,1.5,3.0,2.5825,0.5945416660533451,-0.030464682324032332,0.7878206544144863,0.011415705035922813,-0.113781,-29.753439
11.185,2.0,1.0,1.0,33.9,33.9,33.9,1.5,3.0,2.585,0.5870651586748699,-0.03109901221926766,0.7931548822178716,0.011304475335448885,-0.115569,-29.606098
11.185,2.0,1.0,1.0,33.9,33.9,33.9,1.5,3.0,2.5875,0.5794819328364095,-0.03174699142247067,0.7984545958414637,0.01118397268311268,-0.117403,-29.457882
11.185,2.0,1.0,1.0,33.9,33.9,33.9,1.5,3.0,2.59,0.5717905492268084,-0.032408948104032234,0.8037182708307147,0.01105376274319915,-0.119285,-29.308777
11.185,2.0,1.0,1.0,33.9,33.9,33.9,1.5,3.0,2.5925,0.5639895465356105,-0.03308521858441534,0.8089443264877405,0.010913390265725098,-0.121215,-29.158766
11.185,2.0,1.0,1.0,33.9,33.9,33.9,1.5,3.0,2.595,0.5560774413513623,-0.033776147475333196,0.8141311235967215,0.01076237798052807,-0.123196,-29.007833
11.185,2.0,1.0,1.0,33.9,33.9,33.9,1.5,3.0,2.5975,0.5480527280830232,-0.03448208781475662,0.8192769620452391,0.010600225426564257,-0.12523,-28.855962
11.185,2.0,1.0,1.0,33.9,33.9,33.9,1.5,3.0,2.6,0.5399138789070222,-0.03520340119445045,0.8243800783360195,0.010426407712219709,-0.127318,-28.703135
11.185,2.0,1.0,1.0,33.9,33.9,33.9,1.5,3.0,2.6025,0.5316593437427155,-0.03594045787858041,0.8294386429832188,0.010240374202144084,-0.129462,-28.549336
11.185,2.0,1.0,1.0,33.9,33.9,33.9,1.5,3.0,2.605,0.523287550259262,-0.03669363691175363,0.8344507577870446,0.01004154712579264,-0.131665,-28.394547
11.185,2.0,1.0,1.0,33.9,33.9,33.9,1.5,3.0,2.6075,0.5147969039172208,-0.03746332621465599,0.8394144529800803,0.009829320102520422,-0.133928,-28.238751
11.185,2.0,1.0,1.0,33.9,33.9,33.9,1.5,3.0,2.61,0.5061857880484834,-0.038249922665226935,0.844327684238298,0.009603056577699,-0.136255,-28.081927
11.185,2.0,1.0,1.0,33.9,33.9,33.9,1.5,3.0,2.6125,0.49745256397849397,-0.03905383216306607,0.8491883295492709,0.009362088163925279,-0.138646,-27.924059
11.185,2.0,1.0,1.0,33.9,33.9,33.9,1.5,3.0,2.615,0.48859557119508157,-0.039875469674488295,0.8539941859296382,0.009105712880962055,-0.141104,-27.765126
11.185,2.0,1.0,1.0,33.9,33.9,33.9,1.5,3.0,2.6175,0.47961312756865787,-0.040715259255334285,0.8587429659833382,0.008833193287582355,-0.143633,-27.605109
11.185,2.0,1.0,1.0,33.9,33.9,33.9,1.5,3.0,2.62,0.4705035296289757,-0.04157363404830012,0.8634322942915951,0.008543754497988982,-0.146234,-27.443988
11.185,2.0,1.0,1.0,33.9,33.9,33.9,1.5,3.0,2.6225,0.4612650529041516,-0.042451036251164254,0.868059703625038,0.008236582074938563,-0.148911,-27.281742
11.185,2.0,1.0,1.0,33.9,33.9,33.9,1.5,3.0,2.625,0.451895952328222,-0.0433479170518563,0.872622630967691,0.007910819791115,-0.151667,-27.118351
11.185,2.0,1.0,1.0,33.9,33.9,33.9,1.5,3.0,2.6275,0.44239446272409294,-0.04426473652583584,0.8771184133419115,0.007565567249667292,-0.154504,-26.953792
11.185,2.0,1.0,1.0,33.9,33.9,33.9,1.5,3.0,2.63,0.4327587993694512,-0.04520196349070633,0.8815442834225837,0.007199877354144874,-0.157426,-26.788044
11.185,2.0,1.0,1.0,33.9,33.9,33.9,1.5,3.0,2.6325,0.4229871586539253,-0.04616007531238844,0.8858973649281189,0.006812753617330851,-0.160436,-26.621084
11.185,2.0,1.0,1.0,33.9,33.9,33.9,1.5,3.0,2.635,0.413077718836662,-0.047139557656502566,0.8901746677749406,0.006403147297678402,-0.163538,-26.452889
11.185,2.0,1.0,1.0,33.9,33.9,33.9,1.5,3.0,2.6375,0.40302864091435453,-0.04814090417785232,0.8943730829812244,0.005969954351201547,-0.166736,-26.283436
11.185,2.0,1.0,1.0,33.9,33.9,33.9,1.5,3.0,2.64,0.39283806961081896,-0.04916461614005842,0.8984893773046893,0.005512012185744804,-0.170033,-26.112699
11.185,2.0,1.0,1.0,33.9,33.9,33.9,1.5,3.0,2.6425,0.3825041345003482,-0.05021120195643648,0.9025201875981649,0.005028096203560642,-0.173435,-25.940654
11.185,2.0,1.0,1.0,33.9,33.9,33.9,1.5,3.0,2.645,0.3720249512783314,-0.05128117664215166,0.9064620148655361,0.0045169161170443,-0.176944,-25.767276
11.185,2.0,1.0,1.0,33.9,33.9,33.9,1.5,3.0,2.6475,0.36139862319403293,-0.05237506116648391,0.9103112179994192,0.003977112021314438,-0.180567,-25.592539
11.185,2.0,1.0,1.0,33.9,33.9,33.9,1.5,3.0,2.65,0.35062324266201206,-0.053493381692697864,0.9140640071806544,0.0034072502060718784,-0.184307,-25.416415
11.185,2.0,1.0,1.0,33.9,33.9,33.9,1.5,3.0,2.6525,0.3396968930703882,-0.054636668691494215,0.9177164369182073,0.0028058186878166173,-0.18817,-25.238877
11.185,2.0,1.0,1.0,33.9,33.9,33.9,1.5,3.0,2.655,0.3286176508061376,-0.05580545591233109,0.9212643987066415,0.0021712224420416407,-0.192162,-25.059898
11.185,2.0,1.0,1.0,33.9,33.9,33.9,1.5,3.0,2.6575,0.3173835875197567,-0.05700027919498481,0.9247036132766039,0.0015017783134497734,-0.196288,-24.879447
11.185,2.0,1.0,1.0,33.9,33.9,33.9,1.5,3.0,2.66,0.30599277265409613,-0.058221675101572654,0.9280296224120659,0.0007957095805449234,-0.200555,-24.697495
11.185,2.0,1.0,1.0,33.9,33.9,33.9,1.5,3.0,2.6625,0.2944432762648882,-0.059470179346832304,0.9312377803061335,5.114014912396414e-05,-0.204969,-24.514012
11.185,2.0,1.0,1.0,33.9,33.9,33.9,1.5,3.0,2.665,0.282733172163538,-0.060746325001723764,0.9343232444252507,-0.0007339116527679242,-0.209536,-24.328966
11.185,2.0,1.0,1.0,33.9,33.9,33.9,1.5,3.0,2.6675,0.2708605414162108,-0.062050640442327575,0.9372809658494171,-0.0015615397079608282,-0.214264,-24.142325
11.185,2.0,1.0,1.0,33.9,33.9,33.9,1.5,3.0,2.67,0.2588234762370658,-0.06338364701253785,0.9401056790537278,-0.002433957203170608,-0.219162,-23.954056
11.185,2.0,1.0,1.0,33.9,33.9,33.9,1.5,3.0,2.6725,0.24662008431783267,-0.06474585636510809,0.9427918910940746,-0.0033535042161259776,-0.224236,-23.764125
11.185,2.0,1.0,1.0,33.9,33.9,33.9,1.5,3.0,2.675,0.23424849364080758,-0.06613776744115828,0.9453338701571584,-0.004322655833632759,-0.229496,-23.572497
11.185,2.0,1.0,1.0,33.9,33.9,33.9,1.5,3.0,2.6775,0.22170685782782232,-0.06755986304321669,0.9477256334321783,-0.0053440308401629015,-0.234951,-23.379136
11.185,2.0,1.0,1.0,33.9,33.9,33.9,1.5,3.0,2.68,0.2089933620838966,-0.06901260595116696,0.9499609342585248,-0.0064204010194984715,-0.240611,-23.184005
11.185,2.0,1.0,1.0,33.9,33.9,33.9,1.5,3.0,2.6825,0.19610622980132092,-0.07049643452400552,0.9520332485006595,-0.007554701115081301,-0.246486,-22.987066
11.185,2.0,1.0,1.0,33.9,33.9,33.9,1.5,3.0,2.685,0.1830437298977221,-0.07201175772298897,0.9539357600979778,-0.008750039498022989,-0.252588,-22.78828
11.185,2.0,1.0,1.0,33.9,33.9,33.9,1.5,3.0,2.6875,0.169804184970633,-0.0735589494834279,0.955661345733962,-0.0100097095951997,-0.258928,-22.587607
11.185,2.0,1.0,1.0,33.9,33.9,33.9,1.5,3.0,2.69,0.15638598036113513,-0.07513834235293436,0.957202558565214,-0.011337202133489842,-0.265519,-22.385005
11.185,2.0,1.0,1.0,33.9,33.9,33.9,1.5,3.0,2.6925,0.1427875742305465,-0.07675022030319717,0.9585516109471802,-0.012736218259992799,-0.272375,-22.180431
11.185,2.0,1.0,1.0,33.9,33.9,33.9,1.5,3.0,2.695,0.12900750876714015,-0.07839481061012935,0.9597003560894172,-0.014210683601950932,-0.27951,-21.973843
11.185,2.0,1.0,1.0,33.9,33.9,33.9,1.5,3.0,2.6975,0.11504442265444856,-0.08007227468334184,0.9606402685692776,-0.015764763334071508,-0.28694,-21.765194
11.185,2.0,1.0,1.0,33.9,33.9,33.9,1.5,3.0,2.7,0.10089706494953408,-0.08178269771004185,0.9613624236288795,-0.017402878324922755,-0.294681,-21.554439
11.185,2.0,1.0,1.0,33.9,33.9,33.9,1.5,3.0,2.7025,0.08656431053844048,-0.08352607696041148,0.9618574751762737,-0.01912972243801551,-0.302752,-21.34153
11.185,2.0,1.0,1.0,33.9,33.9,33.9,1.5,3.0,2.705,0.07204517735772444,-0.08530230858091592,0.9621156324079776,-0.020950281066951876,-0.31117,-21.126417
11.185,2.0,1.0,1.0,33.9,33.9,33.9,1.5,3.0,2.7075,0.057338845595435554,-0.08711117267849494,0.962126634966512,-0.02286985098751712,-0.319958,-20.909049
11.185,2.0,1.0,1.0,33.9,33.9,33.9,1.5,3.0,2.71,0.04244467911302856,-0.08895231647173815,0.9618797265436686,-0.024894061612619586,-0.329136,-20.689375
11.185,2.0,1.0,1.0,33.9,33.9,33.9,1.5,3.0,2.7125,0.027362249361472777,-0.09082523525448168,0.9613636268378251,-0.02702889773834385,-0.33873,-20.467341
11.185,2.0,1.0,1.0,33.9,33.9,33.9,1.5,3.0,2.715,0.012091362101366155,-0.09272925088219383,0.9605665017724003,-0.029280723870774225,-0.348763,-20.242891
11.185,2.0,1.0,1.0,33.9,33.9,33.9,1.5,3.0,2.7175,-0.003367912721626425,-0.09466348745142067,0.9594759318825331,-0.031656310223320924,-0.359265,-20.015969
11.185,2.0,1.0,1.0,33.9,33.9,33.9,1.5,3.0,2.72,-0.019015207547158144,-0.09662684379668306,0.9580788787789415,-0.0341628604725661,-0.370264,-19.786516
11.185,2.0,1.0,1.0,33.9,33.9,33.9,1.5,3.0,2.7225,-0.034849819763385505,-0.09861796237672447,0.9563616496021644,-0.03680804135657844,-0.381794,-19.554471
11.185,2.0,1.0,1.0,33.9,33.9,33.9,1.5,3.0,2.725,-0.050870669747739614,-0.10063519406191758,0.9543098593878959,-0.03960001419244299,-0.393889,-19.319774
11.185,2.0,1.0,1.0,33.9,33.9,33.9,1.5,3.0,2.7275,-0.06707625379943548,-0.10267655826588444,0.9519083912755587,-0.042547468378548156,-0.406586,-19.082359
11.185,2.0,1.0,1.0,33.9,33.9,33.9,1.5,3.0,2.73,-0.08346459129661843,-0.10473969778568695,0.9491413545092158,-0.04565965693071327,-0.419928,-18.842162
11.185,2.0,1.0,1.0,33.9,33.9,33.9,1.5,3.0,2.7325,-0.10003316531867432,-0.10682182762493896,0.9459920402034476,-0.04894643407812962,-0.433958,-18.599115
11.185,2.0,1.0,1.0,33.9,33.9,33.9,1.5,3.0,2.735,-0.1167788558683555,-0.10891967697126984,0.9424428748792297,-0.05241829491340583,-0.448725,-18.353149
11.185,2.0,1.0,1.0,33.9,33.9,33.9,1.5,3.0,2.7375,-0.13369786470783412,-0.11102942338201156,0.9384753718180622,-0.056086417048485375,-0.464282,-18.104193
11.185,2.0,1.0,1.0,33.9,33.9,33.9,1.5,3.0,2.74,-0.1507856306850985,-0.11314661809782214,0.9340700803399732,-0.05996270417189723,-0.480687,-17.852175
11.185,2.0,1.0,1.0,33.9,33.9,33.9,1.5,3.0,2.7425,-0.16803673427059193,-0.11526610125112044,0.9292065331858719,-0.06405983132910535,-0.498002,-17.59702
11.185,2.0,1.0,1.0,33.9,33.9,33.9,1.5,3.0,2.745,-0.18544478984592042,-0.11738190556240098,0.923863192281926,-0.06839129165207866,-0.516296,-17.338652
11.185,2.0,1.0,1.0,33.9,33.9,33.9,1.5,3.0,2.7475,-0.20300232408475236,-0.11948714692038119,0.9180173932887361,-0.07297144414096918,-0.535645,-17.076994
11.185,2.0,1.0,1.0,33.9,33.9,33.9,1.5,3.0,2.75,-0.22070063853807,-0.121573900019087,0.911645289498255,-0.0778155619429097,-0.556131,-16.811966
11.185,2.0,1.0,1.0,33.9,33.9,33.9,1.5,3.0,2.7525,-0.23852965427939501,-0.12363305697411542,0.9047217958456375,-0.08293988037165448,-0.577846,-16.543488
11.185,2.0,1.0,1.0,33.9,33.9,33.9,1.5,3.0,2.755,-0.25647773617843755,-0.12565416655937509,0.8972205340622644,-0.08836164365621009,-0.600888,-16.271478
11.185,2.0,1.0,1.0,33.9,33.9,33.9,1.5,3.0,2.7575,-0.2745314940523353,-0.1276252513931671,0.8891137803240384,-0.09409914908328212,-0.625368,-15.995854
11.185,2.0,1.0,1.0,33.9,33.9,33.9,1.5,3.0,2.76,-0.29267555759160885,-0.12953260005799525,0.8803724171622204,-0.10017178679057422,-0.651408,-15.716533
11.185,2.0,1.0,1.0,33.9,33.9,33.9,1.5,3.0,2.7625,-0.310892321574447,-0.13136053076311432,0.8709658919235427,-0.10660007295530782,-0.679142,-15.43343
11.185,2.0,1.0,1.0,33.9,33.9,33.9,1.5,3.0,2.765,-0.3291616574710678,-0.13309112275599774,0.8608621847177084,-0.11340567347947647,-0.708718,-15.146464
11.185,2.0,1.0,1.0,33.9,33.9,33.9,1.5,3.0,2.7675,-0.3474605871073597,-0.13470391126573747,0.8500277896042109,-0.12061141446964554,-0.740302,-14.855551
11.185,2.0,1.0,1.0,33.9,33.9,33.9,1.5,3.0,2.77,-0.36576291361560803,-0.13617554133020915,0.8384277137854079,-0.12824127480714936,-0.774076,-14.56061
11.185,2.0,1.0,1.0,33.9,33.9,33.9,1.5,3.0,2.7725,-0.3840388044702762,-0.13747937543945907,0.8260255008337154,-0.13632035485928273,-0.810245,-14.261562
11.185,2.0,1.0,1.0,33.9,33.9,33.9,1.5,3.0,2.775,-0.4022543210191036,-0.13858504955063336,0.8127832855424455,-0.14487481383981407,-0.849036,-13.958331
11.185,2.0,1.0,1.0,33.9,33.9,33.9,1.5,3.0,2.7775,-0.42037088861978883,-0.13945797174005467,0.7986618899164052,-0.153931766424444,-0.890703,-13.650845
11.185,2.0,1.0,1.0,33.9,33.9,33.9,1.5,3.0,2.78,-0.438344701346535,-0.14005875762129297,0.7836209721841312,-0.1635191268902285,-0.935529,-13.339038
11.185,2.0,1.0,1.0,33.9,33.9,33.9,1.5,3.0,2.7825,-0.45612605533299533,-0.140342596767624,0.7676192436028719,-0.17366538619415273,-0.983835,-13.022851
11.185,2.0,1.0,1.0,33.9,33.9,33.9,1.5,3.0,2.785,-0.4736586053009343,-0.1402585448638635,0.7506147713328455,-0.1843993039437406,-1.035978,-12.702234
11.185,2.0,1.0,1.0,33.9,33.9,33.9,1.5,3.0,2.7875,-0.4908785398696491,-0.13974873735691176,0.732565389875148,-0.19574949304637795,-1.09236,-12.377149
11.185,2.0,1.0,1.0,33.9,33.9,33.9,1.5,3.0,2.79,-0.5077136730992022,-0.1387475222227092,0.7134292485905168,-0.20774386986283197,-1.153437,-12.04757
11.185,2.0,1.0,1.0,33.9,33.9,33.9,1.5,3.0,2.7925,-0.5240824527251767,-0.1371805124507845,0.6931655287187911,-0.22040893686053167,-1.21972,-11.713492
11.185,2.0,1.0,1.0,33.9,33.9,33.9,1.5,3.0,2.795,-0.5398928901378928,-0.1349635634047267,0.6717353701346463,-0.23376885803060202,-1.291791,-11.374927
11.185,2.0,1.0,1.0,33.9,33.9,33.9,1.5,3.0,2.7975,-0.5550414239220427,-0.1320016869189048,0.6491030557617742,-0.2478442797418783,-1.370308,-11.031915
11.185,2.0,1.0,1.0,33.9,33.9,33.9,1.5,3.0,2.8,-0.569411738441297,-0.12818792356754122,0.6252375099504313,-0.26265084142793527,-1.456018,-10.684526
11.185,2.0,1.0,1.0,33.9,33.9,33.9,1.5,3.0,2.8025,-0.5828735724436147,-0.12340220789881907,0.6001141758176957,-0.27819731192045355,-1.549773,-10.332866
11.185,2.0,1.0,1.0,33.9,33.9,33.9,1.5,3.0,2.805,-0.5952815710808508,-0.11751027965502812,0.5737173448453962,-0.2944832790567811,-1.65254,-9.977083
11.185,2.0,1.0,1.0,33.9,33.9,33.9,1.5,3.0,2.8075,-0.6064742593464432,-0.11036271835082717,0.5460430187365453,-0.31149631357945634,-1.765427,-9.617381
11.185,2.0,1.0,1.0,33.9,33.9,33.9,1.5,3.0,2.81,-0.6162732470854513,-0.10179421038733773,0.5171023867698886,-0.3292085251673572,-1.889698,-9.254018
11.185,2.0,1.0,1.0,33.9,33.9,33.9,1.5,3.0,2.8125,-0.624482816677561,-0.091623198380152,0.486925998846344,-0.347572431478178,-2.0268,-8.887328
11.185,2.0,1.0,1.0,33.9,33.9,33.9,1.5,3.0,2.815,-0.6308900950754842,-0.0796521124025424,0.455568701043964,-0.36651607434062866,-2.178391,-8.517723
11.185,2.0,1.0,1.0,33.9,33.9,33.9,1.5,3.0,2.8175,-0.635266071976789,-0.06566844226862106,0.4231153712377427,-0.3859373462009927,-2.346373,-8.145712
11.185,2.0,1.0,1.0,33.9,33.9,33.9,1.5,3.0,2.82,-0.6373677935845093,-0.04944697689160641,0.38968743996279576,-0.40569754175210254,-2.532926,-7.771912
11.185,2.0,1.0,1.0,33.9,33.9,33.9,1.5,3.0,2.8225,-0.636942131699679,-0.030753606231402556,0.3554500973920512,-0.425614233062286,-2.740557,-7.397061
11.185,2.0,1.0,1.0,33.9,33.9,33.9,1.5,3.0,2.825,-0.6337315911462186,-0.009351143858854376,0.3206199613266883,-0.4454536910956475,-2.972138,-7.022035
11.185,2.0,1.0,1.0,33.9,33.9,33.9,1.5,3.0,2.8275,-0.6274826585247594,0.014992332336444647,0.2854728044192594,-0.4649232511996525,-3.230969,-6.647861
11.185,2.0,1.0,1.0,33.9,33.9,33.9,1.5,3.0,2.83,-0.617957187375467,0.04249213165036675,0.2503507062129075,-0.48366425010934455,-3.520827,-6.275728
