1,w,sub_t,h,l1,l2,l3,g1,g2,Freq,S11_re,S21_re,S11_img,S21_img,S11_dB,S21_dB
11.185,2.0,1.0,1.0,34.6,34.4,34.4,1.7,2.4,2.5,0.662310700146681,-0.027265629343362,0.734390858471442,0.0142152035879522,-0.096676,-30.243446
11.185,2.0,1.0,1.0,34.6,34.4,34.4,1.7,2.4,2.5025,0.65564371001169,-0.027823016526577482,0.7401437094366418,0.014173976024103935,-0.098027,-30.109857
11.185,2.0,1.0,1.0,34.6,34.4,34.4,1.7,2.4,2.505,0.6488817086329892,-0.02839158090139571,0.7458706882847462,0.014126312191002537,-0.099407,-29.975598
11.185,2.0,1.0,1.0,34.6,34.4,34.4,1.7,2.4,2.5075,0.642023580077774,-0.028971567906705565,0.7515706364364827,0.0140719243272595,-0.10082,-29.84066
11.185,2.0,1.0,1.0,34.6,34.4,34.4,1.7,2.4,2.51,0.6350681940859446,-0.029563228688231434,0.7572423574712066,0.014010512113762766,-0.102265,-29.70503
11.185,2.0,1.0,1.0,34.6,34.4,34.4,1.7,2.4,2.5125,0.6280144060539223,-0.030166820210877066,0.76288461580523,0.01394176207931873,-0.103744,-29.568698
11.185,2.0,1.0,1.0,34.6,34.4,34.4,1.7,2.4,2.515,0.6208610570319966,-0.030782605370380352,0.7684961353190449,0.013865346975144207,-0.105258,-29.43165
11.185,2.0,1.0,1.0,34.6,34.4,34.4,1.7,2.4,2.5175,0.6136069737363314,-0.031410853103897005,0.7740755979311361,0.013780925116391562,-0.106808,-29.293875
11.185,2.0,1.0,1.0,34.6,34.4,34.4,1.7,2.4,2.52,0.6062509685768288,-0.032051838499087736,0.7796216421159855,0.013688139688771526,-0.108394,-29.155361
11.185,2.0,1.0,1.0,34.6,34.4,34.4,1.7,2.4,2.5225,0.5987918397021275,-0.03270584290122784,0.785132861363683,0.013586618018213733,-0.110019,-29.016095
11.185,2.0,1.0,1.0,34.6,34.4,34.4,1.7,2.4,2.525,0.5912283710631423,-0.03337315401780771,0.7906078025784974,0.013475970801367795,-0.111684,-28.876064
11.185,2.0,1.0,1.0,34.6,34.4,34.4,1.7,2.4,2.5275,0.5835593324965875,-0.03405406602002555,0.79604496441353,0.013355791294604145,-0.113389,-28.735255
11.185,2.0,1.0,1.0,34.6,34.4,34.4,1.7,2.4,2.53,0.5757834798301186,-0.03474887964050628,0.8014427955384718,0.013225654459017048,-0.115137,-28.593655
11.185,2.0,1.0,1.0,34.6,34.4,34.4,1.7,2.4,2.5325,0.5678995550107939,-0.03545790226650452,0.806799692837292,0.013085116058765838,-0.116928,-28.451249
11.185,2.0,1.0,1.0,34.6,34.4,34.4,1.7,2.4,2.535,0.559906286258687,-0.03618144802776437,0.8121139995324979,0.012933711709910442,-0.118764,-28.308024
11.185,2.0,1.0,1.0,34.6,34.4,34.4,1.7,2.4,2.5375,0.551802388247669,-0.03691983787811382,0.8173840032324273,0.012770955876705077,-0.120646,-28.163966
11.185,2.0,1.0,1.0,34.6,34.4,34.4,1.7,2.4,2.54,0.5435865623154684,-0.0376733996697704,0.8226079338978104,0.012596340812105825,-0.122577,-28.01906
11.185,2.0,1.0,1.0,34.6,34.4,34.4,1.7,2.4,2.5425,0.5352574967053411,-0.038442468219216645,0.8277839617236308,0.012409335439025587,-0.124558,-27.873291
11.185,2.0,1.0,1.0,34.6,34.4,34.4,1.7,2.4,2.545,0.526813866841814,-0.03922738536337859,0.8329101949320603,0.012209384168630913,-0.12659,-27.726644
11.185,2.0,1.0,1.0,34.6,34.4,34.4,1.7,2.4,2.5475,0.518254335643222,-0.04002850000469671,0.8379846774719926,0.011995905651715398,-0.128676,-27.579104
11.185,2.0,1.0,1.0,34.6,34.4,34.4,1.7,2.4,2.55,0.5095775538738933,-0.04084616814352542,0.8430053866204352,0.011768291458908526,-0.130817,-27.430654
11.185,2.0,1.0,1.0,34.6,34.4,34.4,1.7,2.4,2.5525,0.5007821605391711,-0.04168075289611741,0.8479702304807014,0.011525904685180237,-0.133016,-27.281278
11.185,2.0,1.0,1.0,34.6,34.4,34.4,1.7,2.4,2.555,0.4918667833266181,-0.0425326244962625,0.8528770453720443,0.011268078473775178,-0.135274,-27.130961
11.185,2.0,1.0,1.0,34.6,34.4,34.4,1.7,2.4,2.5575,0.4828300390970898,-0.04340216027843044,0.8577235931050439,0.01099411445436998,-0.137593,-26.979684
11.185,2.0,1.0,1.0,34.6,34.4,34.4,1.7,2.4,2.56,0.4736705344296654,-0.04428974464003102,0.8625075581366471,0.01070328108986683,-0.139977,-26.82743
11.185,2.0,1.0,1.0,34.6,34.4,34.4,1.7,2.4,2.5625,0.4643868662247387,-0.04519576898013922,0.8672265445984232,0.010394811925834236,-0.142426,-26.674182
11.185,2.0,1.0,1.0,34.6,34.4,34.4,1.7,2.4,2.565,0.4549776223699387,-0.04612063161173844,0.8718780731911345,0.0100679037361724,-0.144945,-26.519922
11.185,2.0,1.0,1.0,34.6,34.4,34.4,1.7,2.4,2.5675,0.4454413824739916,-0.04706473764420433,0.8764595779382627,0.009721714558106189,-0.147535,-26.36463
11.185,2.0,1.0,1.0,34.6,34.4,34.4,1.7,2.4,2.57,0.43577671867403167,-0.04802849883238946,0.8809684027906701,0.009355361609103762,-0.150199,-26.208288
11.185,2.0,1.0,1.0,34.6,34.4,34.4,1.7,2.4,2.5725,0.4259821965223794,-0.04901233338825914,0.8854017980740027,0.008967919077767145,-0.15294,-26.050876
11.185,2.0,1.0,1.0,34.6,34.4,34.4,1.7,2.4,2.575,0.4160563759593541,-0.050016665750575166,0.8897569167698945,0.008558415780150631,-0.155761,-25.892374
11.185,2.0,1.0,1.0,34.6,34.4,34.4,1.7,2.4,2.5775,0.40599781237926097,-0.05104192630761787,0.8940308106214016,0.008125832672319354,-0.158665,-25.732761
11.185,2.0,1.0,1.0,34.6,34.4,34.4,1.7,2.4,2.58,0.3958050577973704,-0.052088551067370654,0.8982204260524201,0.007669100209267092,-0.161656,-25.572017
11.185,2.0,1.0,1.0,34.6,34.4,34.4,1.7,2.4,2.5825,0.3854766621264022,-0.053156981268960714,0.9023225998901304,0.007187095539564274,-0.164737,-25.41012
11.185,2.0,1.0,1.0,34.6,34.4,34.4,1.7,2.4,2.585,0.37501117457186334,-0.05424766292844196,0.9063340548787092,0.0066786395242929425,-0.167912,-25.247047
11.185,2.0,1.0,1.0,34.6,34.4,34.4,1.7,2.4,2.5875,0.36440714515645833,-0.05536104631121788,0.9102513949717199,0.006142493567948674,-0.171184,-25.082776
11.185,2.0,1.0,1.0,34.6,34.4,34.4,1.7,2.4,2.59,0.35366312638478564,-0.05649758532251658,0.9140711003896612,0.005577356248039257,-0.174558,-24.917284
11.185,2.0,1.0,1.0,34.6,34.4,34.4,1.7,2.4,2.5925,0.34277767506061424,-0.057657736806342,0.9177895224281692,0.004981859729080608,-0.178038,-24.750546
11.185,2.0,1.0,1.0,34.6,34.4,34.4,1.7,2.4,2.595,0.3317493542702998,-0.05884195974221181,0.9214028780013026,0.004354565945576833,-0.181629,-24.582538
11.185,2.0,1.0,1.0,34.6,34.4,34.4,1.7,2.4,2.5975,0.3205767355471887,-0.0600507143277527,0.9249072439031379,0.0036939625373642363,-0.185335,-24.413234
11.185,2.0,1.0,1.0,34.6,34.4,34.4,1.7,2.4,2.6,0.3092584012334406,-0.06128446093382034,0.928298550769709,0.002998458519396045,-0.189161,-24.242609
11.185,2.0,1.0,1.0,34.6,34.4,34.4,1.7,2.4,2.6025,0.297792947057354,-0.06254365891724249,0.931572576721882,0.002266379666628979,-0.193113,-24.070635
11.185,2.0,1.0,1.0,34.6,34.4,34.4,1.7,2.4,2.605,0.2861789849461831,-0.06382876527451933,0.9347249406683551,0.0014959635931438057,-0.197197,-23.897286
11.185,2.0,1.0,1.0,34.6,34.4,34.4,1.7,2.4,2.6075,0.2744151460965441,-0.06514023311782263,0.9377510952463081,0.0006853545029757634,-0.201418,-23.722533
11.185,2.0,1.0,1.0,34.6,34.4,34.4,1.7,2.4,2.61,0.2625000843269,-0.06647850995239897,0.9406463193755423,-0.0001674024116583561,-0.205783,-23.546347
11.185,2.0,1.0,1.0,34.6,34.4,34.4,1.7,2.4,2.6125,0.2504324797392412,-0.06784403573195626,0.9434057104000427,-0.0010643669509907614,-0.210298,-23.368698
11.185,2.0,1.0,1.0,34.6,34.4,34.4,1.7,2.4,2.615,0.23821104272010563,-0.06923724066576452,0.9460241757888899,-0.002007710295534847,-0.214971,-23.189555
11.185,2.0,1.0,1.0,34.6,34.4,34.4,1.7,2.4,2.6175,0.22583451831441984,-0.07065854274798113,0.9484964243662499,-0.002999721831726522,-0.219809,-23.008886
11.185,2.0,1.0,1.0,34.6,34.4,34.4,1.7,2.4,2.62,0.2133016910094476,-0.07210834497607732,0.9508169570378009,-0.004042816448421704,-0.224819,-22.826659
11.185,2.0,1.0,1.0,34.6,34.4,34.4,1.7,2.4,2.6225,0.20061138997037314,-0.07358703222112471,0.9529800569783758,-0.005139542339929038,-0.230012,-22.642841
11.185,2.0,1.0,1.0,34.6,34.4,34.4,1.7,2.4,2.625,0.18776249477392,-0.0750949677080372,0.954979779242922,-0.00629258935408634,-0.235395,-22.457395
11.185,2.0,1.0,1.0,34.6,34.4,34.4,1.7,2.4,2.6275,0.1747539416917898,-0.07663248905858602,0.9568099397598037,-0.007504797926937844,-0.240978,-22.270288
11.185,2.0,1.0,1.0,34.6,34.4,34.4,1.7,2.4,2.63,0.16158473058191772,-0.07819990384400372,0.9584641036623929,-0.008779168648834311,-0.246771,-22.081481
11.185,2.0,1.0,1.0,34.6,34.4,34.4,1.7,2.4,2.6325,0.14825393245250645,-0.07979748458718805,0.9599355729114155,-0.010118872510273156,-0.252786,-21.890937
11.185,2.0,1.0,1.0,34.6,34.4,34.4,1.7,2.4,2.635,0.13476069777172694,-0.08142546314677511,0.9612173731568968,-0.011527261879533885,-0.259033,-21.698617
11.185,2.0,1.0,1.0,34.6,34.4,34.4,1.7,2.4,2.6375,0.12110426560498369,-0.08308402440653959,0.9623022397846621,-0.013007882268130577,-0.265526,-21.504479
11.185,2.0,1.0,1.0,34.6,34.4,34.4,1.7,2.4,2.64,0.107283973671836,-0.08477329918355561,0.9631826030882192,-0.014564484944320139,-0.272278,-21.308483
11.185,2.0,1.0,1.0,34.6,34.4,34.4,1.7,2.4,2.6425,0.0932992694263524,-0.08649335625710163,0.9638505725025007,-0.016201040459335223,-0.279302,-21.110585
11.185,2.0,1.0,1.0,34.6,34.4,34.4,1.7,2.4,2.645,0.07914972227792669,-0.08824419340724836,0.9642979198313588,-0.017921753155669705,-0.286614,-20.910741
11.185,2.0,1.0,1.0,34.6,34.4,34.4,1.7,2.4,2.6475,0.06483503708472116,-0.0900257273371508,0.9645160613959715,-0.019731076731577632,-0.294231,-20.708905
11.185,2.0,1.0,1.0,34.6,34.4,34.4,1.7,2.4,2.65,0.05035506906918562,-0.0918377823360203,0.964496039026371,-0.021633730940934074,-0.302169,-20.505028
11.185,2.0,1.0,1.0,34.6,34.4,34.4,1.7,2.4,2.6525,0.03570984032490308,-0.09368007752022944,0.9642284998133381,-0.023634719512664062,-0.310448,-20.299063
11.185,2.0,1.0,1.0,34.6,34.4,34.4,1.7,2.4,2.655,0.020899558106591238,-0.09555221246766053,0.9637036745328487,-0.025739349379027807,-0.319088,-20.090958
11.185,2.0,1.0,1.0,34.6,34.4,34.4,1.7,2.4,2.6575,0.005924635121055008,-0.09745365103476572,0.9629113546503986,-0.027953251306992517,-0.328109,-19.880661
11.185,2.0,1.0,1.0,34.6,34.4,34.4,1.7,2.4,2.66,-0.009214287933404463,-0.09938370311640053,0.9618408678078237,-0.030282402031614974,-0.337537,-19.668118
11.185,2.0,1.0,1.0,34.6,34.4,34.4,1.7,2.4,2.6625,-0.024516317297473417,-0.10134150407470192,0.9604810516910391,-0.0327331479945659,-0.347395,-19.453272
11.185,2.0,1.0,1.0,34.6,34.4,34.4,1.7,2.4,2.665,-0.03998027823035336,-0.10332599152445568,0.9588202261736696,-0.03531223079440403,-0.357712,-19.236067
11.185,2.0,1.0,1.0,34.6,34.4,34.4,1.7,2.4,2.6675,-0.05560468387234617,-0.10533587911771308,0.956846163629082,-0.03802681445756527,-0.368516,-19.016441
11.185,2.0,1.0,1.0,34.6,34.4,34.4,1.7,2.4,2.67,-0.0713877004726579,-0.10736962691900141,0.9545460573024829,-0.040884514639859405,-0.379839,-18.794333
11.185,2.0,1.0,1.0,34.6,34.4,34.4,1.7,2.4,2.6725,-0.08732710850476048,-0.10942540790322818,0.9519064876359568,-0.04389342986692566,-0.391717,-18.569679
11.185,2.0,1.0,1.0,34.6,34.4,34.4,1.7,2.4,2.675,-0.10342025912279318,-0.11150107004010973,0.9489133864434287,-0.04706217491784766,-0.404185,-18.342413
11.185,2.0,1.0,1.0,34.6,34.4,34.4,1.7,2.4,2.6775,-0.11966402533304416,-0.11359409335023855,0.9455519988404729,-0.050399916447994554,-0.417286,-18.112467
11.185,2.0,1.0,1.0,34.6,34.4,34.4,1.7,2.4,2.68,-0.1360547471629899,-0.11570154122711603,0.941806842846948,-0.053916410933866475,-0.431063,-17.879769
11.185,2.0,1.0,1.0,34.6,34.4,34.4,1.7,2.4,2.6825,-0.15258817000462077,-0.11782000521474323,0.9376616666001684,-0.057622045002683836,-0.445564,-17.644248
11.185,2.0,1.0,1.0,34.6,34.4,34.4,1.7,2.4,2.685,-0.16925937518696757,-0.11994554230956006,0.9330994031447573,-0.06152787818064818,-0.460842,-17.405826
11.185,2.0,1.0,1.0,34.6,34.4,34.4,1.7,2.4,2.6875,-0.18606270169201922,-0.12207360371619302,0.9281021228051695,-0.06564568805358446,-0.476954,-17.164428
11.185,2.0,1.0,1.0,34.6,34.4,34.4,1.7,2.4,2.69,-0.2029916577661384,-0.12419895382586714,0.9226509832012266,-0.0699880177787683,-0.493964,-16.919972
11.185,2.0,1.0,1.0,34.6,34.4,34.4,1.7,2.4,2.6925,-0.22003882099225724,-0.12631557800136456,0.9167261770402645,-0.07456822581296459,-0.51194,-16.672375
11.185,2.0,1.0,1.0,34.6,34.4,34.4,1.7,2.4,2.695,-0.23719572517312687,-0.12841657753958627,0.9103068779168979,-0.07940053762366397,-0.530958,-16.421554
11.185,2.0,1.0,1.0,34.6,34.4,34.4,1.7,2.4,2.6975,-0.2544527321289104,-0.13049404993836122,0.9033711844796777,-0.08450009902155685,-0.5511,-16.16742
11.185,2.0,1.0,1.0,34.6,34.4,34.4,1.7,2.4,2.7,-0.2717988862291054,-0.13253895231400856,0.8958960634917662,-0.0898830305837472,-0.572459,-15.909883
11.185,2.0,1.0,1.0,34.6,34.4,34.4,1.7,2.4,2.7025,-0.28922174915501464,-0.13454094549608567,0.887857292530819,-0.09556648241839,-0.595135,-15.648851
11.185,2.0,1.0,1.0,34.6,34.4,34.4,1.7,2.4,2.705,-0.3067072120200735,-0.13648821596138985,0.879229403355551,-0.10156868823855446,-0.61924,-15.38423
11.185,2.0,1.0,1.0,34.6,34.4,34.4,1.7,2.4,2.7075,-0.324239281557329,-0.13836727235662222,0.8699856273299746,-0.10790901734900007,-0.644897,-15.115923
11.185,2.0,1.0,1.0,34.6,34.4,34.4,1.7,2.4,2.71,-0.3417998366124112,-0.140162712894772,0.8600978447631601,-0.11460802268239875,-0.672242,-14.843833
11.185,2.0,1.0,1.0,34.6,34.4,34.4,1.7,2.4,2.7125,-0.3593683506545877,-0.14185695939226947,0.8495365406199012,-0.12168748242408864,-0.701429,-14.56786
11.185,2.0,1.0,1.0,34.6,34.4,34.4,1.7,2.4,2.715,-0.37692157543765764,-0.14342995314262233,0.8382707698203232,-0.1291704320023613,-0.732627,-14.287903
11.185,2.0,1.0,1.0,34.6,34.4,34.4,1.7,2.4,2.7175,-0.39443318031070435,-0.1448588072018143,0.8262681363175765,-0.13708118225184537,-0.766023,-14.003863
11.185,2.0,1.0,1.0,34.6,34.4,34.4,1.7,2.4,2.72,-0.41187334100580264,-0.1461174090013567,0.8134947913755854,-0.14544531832741042,-0.80183,-13.715637
11.185,2.0,1.0,1.0,34.6,34.4,34.4,1.7,2.4,2.7225,-0.4292082710344693,-0.1471759665257604,0.7999154580302823,-0.15428967238937324,-0.840283,-13.423126
11.185,2.0,1.0,1.0,34.6,34.4,34.4,1.7,2.4,2.725,-0.4463996881391134,-0.14800049062490042,0.7854934906892583,-0.16364226111657387,-0.881647,-13.126232
11.185,2.0,1.0,1.0,34.6,34.4,34.4,1.7,2.4,2.7275,-0.46340420762179824,-0.14855220543037095,0.7701909813058506,-0.17353217663377768,-0.926222,-12.824862
11.185,2.0,1.0,1.0,34.6,34.4,34.4,1.7,2.4,2.73,-0.48017265388958424,-0.14878687838850524,0.7539689266743684,-0.1839894163452619,-0.974342,-12.518923
11.185,2.0,1.0,1.0,34.6,34.4,34.4,1.7,2.4,2.7325,-0.49664928133358616,-0.14865406123107952,0.7367874752747882,-0.19504463330772862,-1.026389,-12.208334
11.185,2.0,1.0,1.0,34.6,34.4,34.4,1.7,2.4,2.735,-0.5127708958725465,-0.14809623345328868,0.7186062769119881,-0.2067287839912454,-1.082792,-11.893019
11.185,2.0,1.0,1.0,34.6,34.4,34.4,1.7,2.4,2.7375,-0.5284658693946048,-0.14704784081002245,0.6993849643291282,-0.21907264438703627,-1.144039,-11.572916
11.185,2.0,1.0,1.0,34.6,34.4,34.4,1.7,2.4,2.74,-0.5436530412818954,-0.14543422333398226,0.6790838032217054,-0.23210615823545247,-1.210686,-11.247976
11.185,2.0,1.0,1.0,34.6,34.4,34.4,1.7,2.4,2.7425,-0.558240504704395,-0.14317043092316878,0.6576645558251877,-0.24585757248381543,-1.283365,-10.918168
11.185,2.0,1.0,1.0,34.6,34.4,34.4,1.7,2.4,2.745,-0.5721242811143711,-0.14015993032949123,0.6350916136455415,-0.2603523047985675,-1.362802,-10.583488
11.185,2.0,1.0,1.0,34.6,34.4,34.4,1.7,2.4,2.7475,-0.5851868952997727,-0.13629321633713715,0.6113334670041505,-0.27561147600029223,-1.449825,-10.243958
11.185,2.0,1.0,1.0,34.6,34.4,34.4,1.7,2.4,2.75,-0.597295876712453,-0.131446353287412,0.586364592751473,-0.29165002679797,-1.545387,-9.899636
11.185,2.0,1.0,1.0,34.6,34.4,34.4,1.7,2.4,2.7525,-0.6083022321975028,-0.12547949249272633,0.56016785631812,-0.3084743236282541,-1.650584,-9.550625
11.185,2.0,1.0,1.0,34.6,34.4,34.4,1.7,2.4,2.755,-0.6180389627574306,-0.11823543850764959,0.5327375392330711,-0.32607914374963154,-1.766683,-9.197083
11.185,2.0,1.0,1.0,34.6,34.4,34.4,1.7,2.4,2.7575,-0.6263197350594385,-0.10953837512624746,0.5040831165144332,-0.3444439168367183,-1.895146,-8.839229
11.185,2.0,1.0,1.0,34.6,34.4,34.4,1.7,2.4,2.76,-0.6329378698359116,-0.09919291310718793,0.4742339168155435,-0.3635280922770109,-2.03767,-8.477364
11.185,2.0,1.0,1.0,34.6,34.4,34.4,1.7,2.4,2.7625,-0.6376658769884899,-0.08698368878121966,0.44324479691566016,-0.38326550314528285,-2.196224,-8.111879
11.185,2.0,1.0,1.0,34.6,34.4,34.4,1.7,2.4,2.765,-0.6402558533835617,-0.07267582809255553,0.4112029435447828,-0.4035576169118235,-2.373099,-7.743276
11.185,2.0,1.0,1.0,34.6,34.4,34.4,1.7,2.4,2.7675,-0.6404411646521977,-0.05601669480865366,0.37823586876349674,-0.42426561010648917,-2.570964,-7.372187
11.185,2.0,1.0,1.0,34.6,34.4,34.4,1.7,2.4,2.77,-0.6379399538615409,-0.036739461595392923,0.34452057538464237,-0.4452012940608637,-2.792936,-6.999396
11.185,2.0,1.0,1.0,34.6,34.4,34.4,1.7,2.4,2.7725,-0.6324611483354505,-0.014569168963094233,0.3102937174542723,-0.4661170700224947,-3.042651,-6.625859
11.185,2.0,1.0,1.0,34.6,34.4,34.4,1.7,2.4,2.775,-0.6237137512589168,0.010767950153076857,0.2758623461566447,-0.4866953254865781,-3.32436,-6.252731
11.185,2.0,1.0,1.0,34.6,34.4,34.4,1.7,2.4,2.7775,-0.6114202714986404,0.03953103854461909,0.24161449336783763,-0.506538019378409,-3.643029,-5.881389
11.185,2.0,1.0,1.0,34.6,34.4,34.4,1.7,2.4,2.78,-0.5953351071967704,0.07194627467789341,0.20802839223473432,-0.5251576524448558,-4.004447,-5.51345
11.185,2.0,1.0,1.0,34.6,34.4,34.4,1.7,2.4,2.7825,-0.5752684769391749,0.10818304714854365,0.17567857817635724,-0.5419713688288754,-4.415353,-5.15079
11.185,2.0,1.0,1.0,34.6,34.4,34.4,1.7,2.4,2.785,-0.5511159890356889,0.14832456924017376,0.14523650907532176,-0.5563005306443165,-4.883539,-4.795552
11.185,2.0,1.0,1.0,34.6,34.4,34.4,1.7,2.4,2.7875,-0.5228930573731231,0.1923337368053796,0.1174628116375899,-0.5673786284536144,-5.417934,-4.450135
11.185,2.0,1.0,1.0,34.6,34.4,34.4,1.7,2.4,2.79,-0.4907720548907196,0.24001633955265902,0.09318801000555679,-0.5743706305163042,-6.028577,-4.117177
11.185,2.0,1.0,1.0,34.6,34.4,34.4,1.7,2.4,2.7925,-0.45511839291111006,0.2909854205430434,0.07327891494505422,-0.576406543618416,-6.726359,-3.799504
11.185,2.0,1.0,1.0,34.6,34.4,34.4,1.7,2.4,2.795,-0.41651986378498945,0.3446324041713276,0.05858907380152446,-0.572630736663859,-7.522194,-3.50006
11.185,2.0,1.0,1.0,34.6,34.4,34.4,1.7,2.4,2.7975,-0.3758020728344281,0.40011209554100263,0.049894042561495204,-0.5622662310035884,-8.42493,-3.221805
11.185,2.0,1.0,1.0,34.6,34.4,34.4,1.7,2.4,2.8,-0.3340223315724085,0.4563490837764319,0.04781570341425387,-0.5446897309681491,-9.436393,-2.96759
11.185,2.0,1.0,1.0,34.6,34.4,34.4,1.7,2.4,2.8025,-0.292435765345952,0.5120716922656183,0.052743894869543964,-0.5195091723358158,-10.540364,-2.740009
11.185,2.0,1.0,1.0,34.6,34.4,34.4,1.7,2.4,2.805,-0.2524310928700348,0.5658759334361997,0.06476716143418332,-0.4866320814037908,-11.680264,-2.541243
11.185,2.0,1.0,1.0,34.6,34.4,34.4,1.7,2.4,2.8075,-0.21543932777073865,0.6163161840285918,0.08362600777182679,-0.4463115036672069,-12.723985,-2.372917
11.185,2.0,1.0,1.0,34.6,34.4,34.4,1.7,2.4,2.81,-0.18282530159837543,0.6620127227307236,0.1087003688699136,-0.3991579477491814,-13.444691,-2.235982
11.185,2.0,1.0,1.0,34.6,34.4,34.4,1.7,2.4,2.8125,-0.155777363172893,0.701760894511935,0.139037694551353,-0.346111072323936,-13.605328,-2.130632
11.185,2.0,1.0,1.0,34.6,34.4,34.4,1.7,2.4,2.815,-0.13521274177721546,0.734624585627784,0.17342011928075204,-0.2883726989893877,-13.155404,-2.05629
11.185,2.0,1.0,1.0,34.6,34.4,34.4,1.7,2.4,2.8175,-0.12171369284568849,0.759999067337699,0.21046094414341995,-0.22731088665082938,-12.283535,-2.011638
11.185,2.0,1.0,1.0,34.6,34.4,34.4,1.7,2.4,2.82,-0.1155031653646407,0.7776346009641705,0.24871477202989195,-0.16435060963120324,-11.23782,-1.994708
11.185,2.0,1.0,1.0,34.6,34.4,34.4,1.7,2.4,2.8225,-0.11646039520384614,0.7876204546915783,0.2867839486576116,-0.10086822932476305,-10.18598,-2.003009
11.185,2.0,1.0,1.0,34.6,34.4,34.4,1.7,2.4,2.825,-0.12416922328083917,0.7903365070410192,0.32340666311492916,-0.03810425435251192,-9.207831,-2.033676
11.185,2.0,1.0,1.0,34.6,34.4,34.4,1.7,2.4,2.8275,-0.13798717525633888,0.7863843153434555,0.35751775988919626,0.022896771404043288,-8.330982,-2.083623
11.185,2.0,1.0,1.0,34.6,34.4,34.4,1.7,2.4,2.83,-0.15712219226478125,0.7765106497581843,0.38827984994372194,0.08131689113259238,-7.5585,-2.149684
