1,w,sub_t,h,l1,l2,l3,g1,g2,Freq,S11_re,S21_re,S11_img,S21_img,S11_dB,S21_dB
11.185,2.0,1.0,1.0,33.7,33.6,33.6,3.5,3.8,2.5,0.826676318561741,-0.00618597624035043,0.551203706716581,0.00387599964689161,-0.055864,-42.733569
11.185,2.0,1.0,1.0,33.7,33.6,33.6,3.5,3.8,2.5025,0.8228102376702641,-0.006300787950870058,0.5568552568782793,0.0038774839294468577,-0.056369,-42.617364
11.185,2.0,1.0,1.0,33.7,33.6,33.6,3.5,3.8,2.505,0.8188879639703741,-0.006417398213266662,0.5625035968971595,0.0038780275135218904,-0.056882,-42.50093
11.185,2.0,1.0,1.0,33.7,33.6,33.6,3.5,3.8,2.5075,0.8149089521604735,-0.006535836714714178,0.5681484067884492,0.003877598687233265,-0.057404,-42.38426
11.185,2.0,1.0,1.0,33.7,33.6,33.6,3.5,3.8,2.51,0.8108726492271445,-0.006656133718848812,0.573789357262491,0.0038761647124333845,-0.057934,-42.267347
11.185,2.0,1.0,1.0,33.7,33.6,33.6,3.5,3.8,2.5125,0.8067784943585087,-0.006778320077596622,0.5794261094415214,0.0038736917879381868,-0.058474,-42.150184
11.185,2.0,1.0,1.0,33.7,33.6,33.6,3.5,3.8,2.515,0.8026259188581419,-0.006902427243220503,0.5850583145679017,0.0038701450112950168,-0.059022,-42.032764
11.185,2.0,1.0,1.0,33.7,33.6,33.6,3.5,3.8,2.5175,0.7984143460596566,-0.0070284872805879035,0.5906856137035125,0.0038654883390262028,-0.05958,-41.915079
11.185,2.0,1.0,1.0,33.7,33.6,33.6,3.5,3.8,2.52,0.7941431912420563,-0.0071565328796615296,0.5963076374200585,0.003859684545279477,-0.060147,-41.797123
11.185,2.0,1.0,1.0,33.7,33.6,33.6,3.5,3.8,2.5225,0.7898118615460042,-0.007286597368213409,0.6019240054799728,0.0038526951788144777,-0.060723,-41.678888
11.185,2.0,1.0,1.0,33.7,33.6,33.6,3.5,3.8,2.525,0.7854197558911148,-0.0074187147247643595,0.6075343265076496,0.0038444805182494047,-0.061309,-41.560366
11.185,2.0,1.0,1.0,33.7,33.6,33.6,3.5,3.8,2.5275,0.7809662648944175,-0.007552919591749152,0.613138197650694,0.003834999525489053,-0.061906,-41.44155
11.185,2.0,1.0,1.0,33.7,33.6,33.6,3.5,3.8,2.53,0.7764507707901382,-0.007689247288907954,0.6187352042308734,0.003824209797251037,-0.062513,-41.322432
11.185,2.0,1.0,1.0,33.7,33.6,33.6,3.5,3.8,2.5325,0.7718726473509507,-0.007827733826904352,0.6243249193844488,0.0038120675146026185,-0.06313,-41.203006
11.185,2.0,1.0,1.0,33.7,33.6,33.6,3.5,3.8,2.535,0.7672312598108578,-0.007968415921169822,0.6299069036915589,0.0037985273904161464,-0.063758,-41.083262
11.185,2.0,1.0,1.0,33.7,33.6,33.6,3.5,3.8,2.5375,0.7625259647898843,-0.008111331005973752,0.6354807047943001,0.0037835426146461,-0.064396,-40.963193
11.185,2.0,1.0,1.0,33.7,33.6,33.6,3.5,3.8,2.54,0.757756110220759,-0.008256517248718427,0.641045857003161,0.0037670647973260933,-0.065046,-40.842792
11.185,2.0,1.0,1.0,33.7,33.6,33.6,3.5,3.8,2.5425,0.752921035277777,-0.008404013564457115,0.6466018808914333,0.003749043909177701,-0.065708,-40.722049
11.185,2.0,1.0,1.0,33.7,33.6,33.6,3.5,3.8,2.545,0.7480200703080518,-0.008553859630633499,0.6521482828772309,0.0037294282197185176,-0.066381,-40.600958
11.185,2.0,1.0,1.0,33.7,33.6,33.6,3.5,3.8,2.5475,0.7430525367653749,-0.008706095902039386,0.6576845547927099,0.0037081642327497764,-0.067066,-40.47951
11.185,2.0,1.0,1.0,33.7,33.6,33.6,3.5,3.8,2.55,0.7380177471468983,-0.008860763625988028,0.6632101734401082,0.003685196619097655,-0.067764,-40.357696
11.185,2.0,1.0,1.0,33.7,33.6,33.6,3.5,3.8,2.5525,0.732915004932905,-0.00901790485769835,0.6687246001341612,0.0036604681464757075,-0.068474,-40.235508
11.185,2.0,1.0,1.0,33.7,33.6,33.6,3.5,3.8,2.555,0.7277436045298965,-0.009177562475885847,0.6742272802304816,0.0036339196063282014,-0.069196,-40.112938
11.185,2.0,1.0,1.0,33.7,33.6,33.6,3.5,3.8,2.5575,0.722502831217281,-0.009339780198554441,0.679717642639454,0.00360548973750628,-0.069932,-39.989977
11.185,2.0,1.0,1.0,33.7,33.6,33.6,3.5,3.8,2.56,0.7171919610979429,-0.009504602598982392,0.6851950993251776,0.003575115146621316,-0.070682,-39.866616
11.185,2.0,1.0,1.0,33.7,33.6,33.6,3.5,3.8,2.5625,0.7118102610529933,-0.009672075121895189,0.6906590447889853,0.003542730224909814,-0.071445,-39.742847
11.185,2.0,1.0,1.0,33.7,33.6,33.6,3.5,3.8,2.565,0.7063569887010088,-0.009842244099816351,0.6961088555370518,0.003508267061435865,-0.072222,-39.61866
11.185,2.0,1.0,1.0,33.7,33.6,33.6,3.5,3.8,2.5675,0.7008313923621081,-0.010015156769586421,0.7015438895315742,0.0034716553524467677,-0.073014,-39.494047
11.185,2.0,1.0,1.0,33.7,33.6,33.6,3.5,3.8,2.57,0.6952327110271992,-0.010190861289038764,0.7069634856250049,0.0034328223066862535,-0.07382,-39.368997
11.185,2.0,1.0,1.0,33.7,33.6,33.6,3.5,3.8,2.5725,0.6895601743327754,-0.010369406753819735,0.7123669629767959,0.003391692546459605,-0.074642,-39.243502
11.185,2.0,1.0,1.0,33.7,33.6,33.6,3.5,3.8,2.575,0.6838130025416481,-0.010550843214338577,0.7177536204520895,0.003348188004231467,-0.075479,-39.117552
11.185,2.0,1.0,1.0,33.7,33.6,33.6,3.5,3.8,2.5775,0.6779904065300252,-0.010735221692831217,0.7231227360017733,0.003302227814525124,-0.076332,-38.991138
11.185,2.0,1.0,1.0,33.7,33.6,33.6,3.5,3.8,2.58,0.6720915877813698,-0.010922594200519907,0.7284735660233023,0.0032537282008778747,-0.077201,-38.864249
11.185,2.0,1.0,1.0,33.7,33.6,33.6,3.5,3.8,2.5825,0.6661157383874873,-0.01111301375484868,0.7338053447016633,0.003202602357592232,-0.078087,-38.736876
11.185,2.0,1.0,1.0,33.7,33.6,33.6,3.5,3.8,2.585,0.6600620410573278,-0.011306534396772244,0.7391172833298391,0.003148760326007322,-0.07899,-38.609008
11.185,2.0,1.0,1.0,33.7,33.6,33.6,3.5,3.8,2.5875,0.6539296691339974,-0.011503211208073561,0.7444085696081103,0.003092108864997135,-0.079911,-38.480635
11.185,2.0,1.0,1.0,33.7,33.6,33.6,3.5,3.8,2.59,0.6477177866205205,-0.011703100328682265,0.749678366921493,0.0030325513153853984,-0.080849,-38.351747
11.185,2.0,1.0,1.0,33.7,33.6,33.6,3.5,3.8,2.5925,0.6414255482148953,-0.0119062589739636,0.7549258135946134,0.0029699874579462685,-0.081806,-38.222332
11.185,2.0,1.0,1.0,33.7,33.6,33.6,3.5,3.8,2.595,0.6350520993550516,-0.012112745451943602,0.7601500221232601,0.0029043133646400477,-0.082782,-38.09238
11.185,2.0,1.0,1.0,33.7,33.6,33.6,3.5,3.8,2.5975,0.6285965762743021,-0.012322619180433298,0.7653500783818646,0.0028354212427107307,-0.083777,-37.96188
11.185,2.0,1.0,1.0,33.7,33.6,33.6,3.5,3.8,2.6,0.6220581060679555,-0.0125359407040103,0.7705250408061004,0.002763199271247991,-0.084793,-37.830821
11.185,2.0,1.0,1.0,33.7,33.6,33.6,3.5,3.8,2.6025,0.6154358067717693,-0.012752771710811765,0.7756739395497764,0.002687531429791153,-0.085828,-37.699191
11.185,2.0,1.0,1.0,33.7,33.6,33.6,3.5,3.8,2.605,0.6087287874529558,-0.01297317504908824,0.7807957756151732,0.0026082973185247685,-0.086885,-37.566978
11.185,2.0,1.0,1.0,33.7,33.6,33.6,3.5,3.8,2.6075,0.6019361483145004,-0.013197214743462601,0.7858895199559213,0.002525371969585765,-0.087963,-37.43417
11.185,2.0,1.0,1.0,33.7,33.6,33.6,3.5,3.8,2.61,0.5950569808135906,-0.013424956010831851,0.7909541125515046,0.002438625648970962,-0.089064,-37.300755
11.185,2.0,1.0,1.0,33.7,33.6,33.6,3.5,3.8,2.6125,0.588090367794982,-0.013656465275844425,0.7959884614524163,0.0023479236484986905,-0.090187,-37.166721
11.185,2.0,1.0,1.0,33.7,33.6,33.6,3.5,3.8,2.615,0.5810353836401803,-0.013891810185877528,0.8009914417949795,0.0022531260672419054,-0.091333,-37.032055
11.185,2.0,1.0,1.0,33.7,33.6,33.6,3.5,3.8,2.6175,0.5738910944333696,-0.014131059625431857,0.8059618947847761,0.0021540875818105523,-0.092503,-36.896744
11.185,2.0,1.0,1.0,33.7,33.6,33.6,3.5,3.8,2.62,0.566656558145051,-0.014374283729852463,0.8108986266476061,0.0020506572048176377,-0.093698,-36.760774
11.185,2.0,1.0,1.0,33.7,33.6,33.6,3.5,3.8,2.6225,0.5593308248344044,-0.014621553898275458,0.8158004075468451,0.0019426780308177908,-0.094919,-36.624133
11.185,2.0,1.0,1.0,33.7,33.6,33.6,3.5,3.8,2.625,0.551912936871467,-0.0148729428056891,0.820665970466011,0.00182998696895694,-0.096165,-36.486806
11.185,2.0,1.0,1.0,33.7,33.6,33.6,3.5,3.8,2.6275,0.5444019291802283,-0.015128524413987536,0.8254940100553204,0.001712414461517952,-0.097438,-36.348779
11.185,2.0,1.0,1.0,33.7,33.6,33.6,3.5,3.8,2.63,0.5367968295038447,-0.015388373981882099,0.8302831814409329,0.0015897841874884606,-0.098739,-36.210038
11.185,2.0,1.0,1.0,33.7,33.6,33.6,3.5,3.8,2.6325,0.5290966586932129,-0.015652568073521334,0.8350320989955425,0.0014619127502148604,-0.100068,-36.070568
11.185,2.0,1.0,1.0,33.7,33.6,33.6,3.5,3.8,2.635,0.521300431020211,-0.01592118456565558,0.8397393350689046,0.0013286093481374077,-0.101426,-35.930354
11.185,2.0,1.0,1.0,33.7,33.6,33.6,3.5,3.8,2.6375,0.5134071545169916,-0.016194302653164686,0.8444034186768101,0.001189675427527779,-0.102815,-35.78938
11.185,2.0,1.0,1.0,33.7,33.6,33.6,3.5,3.8,2.64,0.5054158313427611,-0.01647200285274908,0.8490228341469699,0.0010449043160701843,-0.104234,-35.647631
11.185,2.0,1.0,1.0,33.7,33.6,33.6,3.5,3.8,2.6425,0.4973254581795836,-0.016754367004562586,0.8535960197201652,0.000894080836040172,-0.105685,-35.50509
11.185,2.0,1.0,1.0,33.7,33.6,33.6,3.5,3.8,2.645,0.4891350266588022,-0.017041478271542638,0.8581213661049544,0.0007369808957408269,-0.107169,-35.36174
11.185,2.0,1.0,1.0,33.7,33.6,33.6,3.5,3.8,2.6475,0.48084352381977613,-0.017333421136167468,0.8625972149841267,0.0005733710577533074,-0.108687,-35.217565
11.185,2.0,1.0,1.0,33.7,33.6,33.6,3.5,3.8,2.65,0.47244993260268625,-0.017630281394341578,0.867021857471007,0.00040300808244659214,-0.11024,-35.072546
11.185,2.0,1.0,1.0,33.7,33.6,33.6,3.5,3.8,2.6525,0.46395323237731434,-0.01793214614607704,0.8713935325135855,0.0002256384450712032,-0.111828,-34.926667
11.185,2.0,1.0,1.0,33.7,33.6,33.6,3.5,3.8,2.655,0.4553523995097311,-0.018239103782604956,0.8757104252443564,4.099782462711494e-05,-0.113454,-34.779908
11.185,2.0,1.0,1.0,33.7,33.6,33.6,3.5,3.8,2.6575,0.44664640796898997,-0.01855124396950936,0.879970665273612,-0.00015118943744627756,-0.115118,-34.632251
11.185,2.0,1.0,1.0,33.7,33.6,33.6,3.5,3.8,2.66,0.4378342299760035,-0.01886865762543248,0.8841723249238007,-0.0003512109108688767,-0.116821,-34.483676
11.185,2.0,1.0,1.0,33.7,33.6,33.6,3.5,3.8,2.6625,0.42891483669692215,-0.019191436895849796,0.8883134174024061,-0.000559366684689316,-0.118565,-34.334162
11.185,2.0,1.0,1.0,33.7,33.6,33.6,3.5,3.8,2.665,0.41988719898343385,-0.019519675121359,0.8923918949106633,-0.0007759700124957888,-0.120351,-34.18369
11.185,2.0,1.0,1.0,33.7,33.6,33.6,3.5,3.8,2.6675,0.4107502881625779,-0.019853466799862413,0.8964056466852123,-0.0010013479973432409,-0.122181,-34.032239
11.185,2.0,1.0,1.0,33.7,33.6,33.6,3.5,3.8,2.67,0.4015030768787755,-0.020192907541954914,0.9003524969696323,-0.0012358423192980212,-0.124055,-33.879786
11.185,2.0,1.0,1.0,33.7,33.6,33.6,3.5,3.8,2.6725,0.39214453999095567,-0.020538094018749634,0.904230202912568,-0.0014798100087470957,-0.125976,-33.726309
11.185,2.0,1.0,1.0,33.7,33.6,33.6,3.5,3.8,2.675,0.3826736555278267,-0.02088912390128563,0.908036452388921,-0.0017336242688884638,-0.127945,-33.571785
11.185,2.0,1.0,1.0,33.7,33.6,33.6,3.5,3.8,2.6775,0.3730894057045135,-0.021246095790563364,0.9117688617403346,-0.001997675351117315,-0.129963,-33.416191
11.185,2.0,1.0,1.0,33.7,33.6,33.6,3.5,3.8,2.68,0.3633907780039779,-0.021609109137141848,0.91542497343091,-0.0022723714873470625,-0.132033,-33.259501
11.185,2.0,1.0,1.0,33.7,33.6,33.6,3.5,3.8,2.6825,0.3535767663268643,-0.02197826414910571,0.9190022536137705,-0.0025581398836631644,-0.134156,-33.101691
11.185,2.0,1.0,1.0,33.7,33.6,33.6,3.5,3.8,2.685,0.3436463722136217,-0.022353661687068788,0.9224980896037664,-0.0028554277801017477,-0.136334,-32.942734
11.185,2.0,1.0,1.0,33.7,33.6,33.6,3.5,3.8,2.6875,0.333598606143017,-0.0227354031447209,0.9259097872512,-0.00316470358177915,-0.138569,-32.782603
11.185,2.0,1.0,1.0,33.7,33.6,33.6,3.5,3.8,2.69,0.3234324889114335,-0.023123590313242764,0.9292345682110545,-0.0034864580670770895,-0.140863,-32.621272
11.185,2.0,1.0,1.0,33.7,33.6,33.6,3.5,3.8,2.6925,0.31314705309761054,-0.023518325227710014,0.9324695671017271,-0.0038212056791168997,-0.143218,-32.45871
11.185,2.0,1.0,1.0,33.7,33.6,33.6,3.5,3.8,2.695,0.3027413446178688,-0.02391970999337361,0.9356118285467349,-0.004169485907338826,-0.145637,-32.294888
11.185,2.0,1.0,1.0,33.7,33.6,33.6,3.5,3.8,2.6975,0.2922144243771456,-0.02432784658944217,0.9386583040923119,-0.00453186476664937,-0.148122,-32.129776
11.185,2.0,1.0,1.0,33.7,33.6,33.6,3.5,3.8,2.7,0.2815653700216393,-0.02474283664768991,0.9416058489931334,-0.00490893638231129,-0.150675,-31.963342
11.185,2.0,1.0,1.0,33.7,33.6,33.6,3.5,3.8,2.7025,0.2707932777992361,-0.025164781202875023,0.9444512188577148,-0.005301324689545052,-0.1533,-31.795553
11.185,2.0,1.0,1.0,33.7,33.6,33.6,3.5,3.8,2.705,0.25989726453442397,-0.02559378041156398,0.9471910661442112,-0.005709685257685239,-0.155998,-31.626375
11.185,2.0,1.0,1.0,33.7,33.6,33.6,3.5,3.8,2.7075,0.24887646972490593,-0.026029933235515133,0.9498219364964599,-0.006134707249711382,-0.158774,-31.455773
11.185,2.0,1.0,1.0,33.7,33.6,33.6,3.5,3.8,2.71,0.23773005776776235,-0.026473337085268573,0.9523402649090935,-0.006577115529054465,-0.161629,-31.28371
11.185,2.0,1.0,1.0,33.7,33.6,33.6,3.5,3.8,2.7125,0.22645722032365068,-0.026924087419012213,0.9547423717094549,-0.00703767292678483,-0.164568,-31.110148
11.185,2.0,1.0,1.0,33.7,33.6,33.6,3.5,3.8,2.715,0.21505717882833209,-0.027382277291130897,0.9570244583427573,-0.007517182683628617,-0.167593,-30.935049
11.185,2.0,1.0,1.0,33.7,33.6,33.6,3.5,3.8,2.7175,0.20352918716163518,-0.027847996844086523,0.9591826029455647,-0.008016491082754705,-0.170709,-30.75837
11.185,2.0,1.0,1.0,33.7,33.6,33.6,3.5,3.8,2.72,0.19187253448497468,-0.028321332736405247,0.9612127556910511,-0.008536490290943085,-0.173919,-30.580071
11.185,2.0,1.0,1.0,33.7,33.6,33.6,3.5,3.8,2.7225,0.1800865482595973,-0.028802367498546005,0.9631107338877607,-0.009078121427611037,-0.177227,-30.400106
11.185,2.0,1.0,1.0,33.7,33.6,33.6,3.5,3.8,2.725,0.1681705974590334,-0.029291178807267917,0.9648722168115642,-0.009642377883256534,-0.180638,-30.21843
11.185,2.0,1.0,1.0,33.7,33.6,33.6,3.5,3.8,2.7275,0.15612409599059293,-0.029787838667785674,0.9664927402482897,-0.010230308911217838,-0.184156,-30.034995
11.185,2.0,1.0,1.0,33.7,33.6,33.6,3.5,3.8,2.73,0.14394650634244938,-0.030292412491460058,0.9679676907219582,-0.010843023519261258,-0.187787,-29.849751
11.185,2.0,1.0,1.0,33.7,33.6,33.6,3.5,3.8,2.7325,0.13163734347465447,-0.03080495805499377,0.9692922993807156,-0.011481694690452734,-0.191534,-29.662648
11.185,2.0,1.0,1.0,33.7,33.6,33.6,3.5,3.8,2.735,0.11919617897464323,-0.031325524325038046,0.9704616355093256,-0.012147563966066161,-0.195405,-29.473631
11.185,2.0,1.0,1.0,33.7,33.6,33.6,3.5,3.8,2.7375,0.10662264550021752,-0.03185415012972275,0.9714705996334493,-0.012841946426998894,-0.199405,-29.282643
11.185,2.0,1.0,1.0,33.7,33.6,33.6,3.5,3.8,2.74,0.0939164415359112,-0.0323908626558375,0.9723139161768389,-0.013566236114345575,-0.203539,-29.089627
11.185,2.0,1.0,1.0,33.7,33.6,33.6,3.5,3.8,2.7425,0.08107733649192822,-0.032935675747150034,0.9729861256278889,-0.01432191193450065,-0.207816,-28.894521
11.185,2.0,1.0,1.0,33.7,33.6,33.6,3.5,3.8,2.745,0.06810517617873708,-0.03348858797556402,0.9734815761667313,-0.015110544099482709,-0.212241,-28.697261
11.185,2.0,1.0,1.0,33.7,33.6,33.6,3.5,3.8,2.7475,0.05499988869490332,-0.034049580452396,0.9737944146980682,-0.015933801159192542,-0.216823,-28.497779
11.185,2.0,1.0,1.0,33.7,33.6,33.6,3.5,3.8,2.75,0.041761490770989,-0.0346186143418725,0.973918577228127,-0.0167934576891269,-0.221569,-28.296008
11.185,2.0,1.0,1.0,33.7,33.6,33.6,3.5,3.8,2.7525,0.02839009461852657,-0.035195628032871074,0.9738477785164138,-0.017691402704783383,-0.226489,-28.091872
11.185,2.0,1.0,1.0,33.7,33.6,33.6,3.5,3.8,2.755,0.014885915340299899,-0.0357805339177839,0.9735755009241402,-0.018629648882740192,-0.231592,-27.885296
11.185,2.0,1.0,1.0,33.7,33.6,33.6,3.5,3.8,2.7575,0.0012492789666289994,-0.03637321471896858,0.9730949823711932,-0.01961034267833035,-0.236888,-27.676199
11.185,2.0,1.0,1.0,33.7,33.6,33.6,3.5,3.8,2.76,-0.012519368807540267,-0.03697351929331224,0.9723992033021314,-0.020635775441116565,-0.242388,-27.464497
11.185,2.0,1.0,1.0,33.7,33.6,33.6,3.5,3.8,2.7625,-0.026419453098172885,-0.03758125783368537,0.9714808725486583,-0.021708395642224883,-0.248104,-27.250101
11.185,2.0,1.0,1.0,33.7,33.6,33.6,3.5,3.8,2.765,-0.04045025941962862,-0.03819619637212547,0.9703324119612071,-0.02283082234222509,-0.254049,-27.032919
11.185,2.0,1.0,1.0,33.7,33.6,33.6,3.5,3.8,2.7675,-0.054610922266749885,-0.038818050473034396,0.9689459396652963,-0.024005860044930372,-0.260235,-26.812852
11.185,2.0,1.0,1.0,33.7,33.6,33.6,3.5,3.8,2.77,-0.06890041255436034,-0.03944647798495543,0.9673132517789331,-0.025236515101528682,-0.266679,-26.589799
11.185,2.0,1.0,1.0,33.7,33.6,33.6,3.5,3.8,2.7725,-0.08331752375322338,-0.04008107069595446,0.9654258024051728,-0.02652601385119834,-0.273396,-26.363652
11.185,2.0,1.0,1.0,33.7,33.6,33.6,3.5,3.8,2.775,-0.09786085653314167,-0.04072134470945905,0.9632746816885528,-0.02787782270920968,-0.280404,-26.134295
11.185,2.0,1.0,1.0,33.7,33.6,33.6,3.5,3.8,2.7775,-0.11252880168980428,-0.04136672932361195,0.9608505916950719,-0.029295670441927234,-0.287721,-25.901611
11.185,2.0,1.0,1.0,33.7,33.6,33.6,3.5,3.8,2.78,-0.12731952109101283,-0.04201655415654297,0.9581438198421005,-0.03078357290062897,-0.29537,-25.665471
11.185,2.0,1.0,1.0,33.7,33.6,33.6,3.5,3.8,2.7825,-0.1422309263284316,-0.04267003421093624,0.9551442095664936,-0.032345860523239095,-0.303371,-25.425744
11.185,2.0,1.0,1.0,33.7,33.6,33.6,3.5,3.8,2.785,-0.15726065470127631,-0.04332625251198417,0.9518411278755495,-0.03398720895561565,-0.311751,-25.182286
11.185,2.0,1.0,1.0,33.7,33.6,33.6,3.5,3.8,2.7875,-0.17240604208571556,-0.04398413988092135,0.9482234293754958,-0.0357126731926633,-0.320537,-24.93495
11.185,2.0,1.0,1.0,33.7,33.6,33.6,3.5,3.8,2.79,-0.18766409215557764,-0.04464245131889838,0.9442794163150985,-0.03752772569511899,-0.329758,-24.683578
11.185,2.0,1.0,1.0,33.7,33.6,33.6,3.5,3.8,2.7925,-0.20303144131221773,-0.04529973836930468,0.9399967941167976,-0.03943829900124389,-0.339448,-24.428002
11.185,2.0,1.0,1.0,33.7,33.6,33.6,3.5,3.8,2.795,-0.2185043185497004,-0.04595431669617792,0.9353626217934836,-0.0414508334248376,-0.349643,-24.168045
11.185,2.0,1.0,1.0,33.7,33.6,33.6,3.5,3.8,2.7975,-0.2340784993196053,-0.046604227956215466,0.9303632565647112,-0.04357233051289367,-0.360382,-23.90352
11.185,2.0,1.0,1.0,33.7,33.6,33.6,3.5,3.8,2.8,-0.24974925226072336,-0.047247194844790494,0.924984291890695,-0.045810413028818574,-0.371712,-23.634227
11.185,2.0,1.0,1.0,33.7,33.6,33.6,3.5,3.8,2.8025,-0.26551127741280633,-0.047880567952921886,0.9192104880351389,-0.04817339233116892,-0.383681,-23.359954
11.185,2.0,1.0,1.0,33.7,33.6,33.6,3.5,3.8,2.805,-0.2813586342286666,-0.04850126277048293,0.9130256941482351,-0.050670344133836615,-0.396346,-23.080476
11.185,2.0,1.0,1.0,33.7,33.6,33.6,3.5,3.8,2.8075,-0.2972846573198201,-0.04910568479588475,0.9064127607289943,-0.05331119376144744,-0.409766,-22.795553
11.185,2.0,1.0,1.0,33.7,33.6,33.6,3.5,3.8,2.81,-0.31328185739789116,-0.04968964024459685,0.899353441182512,-0.05610681215240416,-0.424013,-22.504929
11.185,2.0,1.0,1.0,33.7,33.6,33.6,3.5,3.8,2.8125,-0.32934180428183,-0.0502482292631935,0.891828281035245,-0.059069124008947,-0.439163,-22.208333
11.185,2.0,1.0,1.0,33.7,33.6,33.6,3.5,3.8,2.815,-0.34545498809727854,-0.050775717819958245,0.883816493214853,-0.06221122964383281,-0.455304,-21.905473
11.185,2.0,1.0,1.0,33.7,33.6,33.6,3.5,3.8,2.8175,-0.36161065385682595,-0.05126538351583101,0.875295817649465,-0.06554754221790902,-0.472535,-21.596041
11.185,2.0,1.0,1.0,33.7,33.6,33.6,3.5,3.8,2.82,-0.377796603424171,-0.05170932938676042,0.8662423633090539,-0.0690939421872979,-0.490969,-21.279704
11.185,2.0,1.0,1.0,33.7,33.6,33.6,3.5,3.8,2.8225,-0.3939989573604968,-0.05209825828036709,0.8566304307227207,-0.07286795085939868,-0.510734,-20.956109
11.185,2.0,1.0,1.0,33.7,33.6,33.6,3.5,3.8,2.825,-0.4102018672357514,-0.05242119849526772,0.8464323129977084,-0.0768889249560128,-0.531975,-20.624877
11.185,2.0,1.0,1.0,33.7,33.6,33.6,3.5,3.8,2.8275,-0.4263871665413625,-0.05266516895209889,0.8356180734975591,-0.08117827394132918,-0.55486,-20.285603
