1,w,sub_t,h,l1,l2,l3,g1,g2,Freq,S11_re,S21_re,S11_img,S21_img,S11_dB,S21_dB
11.185,2.0,1.0,1.0,34.9,33.4,33.4,4.1,2.0,2.5,0.625685081978146,-0.0136347730324239,0.769664971977156,0.00442829263145312,-0.070641,-36.871526
11.185,2.0,1.0,1.0,34.9,33.4,33.4,4.1,2.0,2.5025,0.6189784050401046,-0.013852435703723198,0.7749594518801234,0.004357391233481523,-0.071389,-36.759711
11.185,2.0,1.0,1.0,34.9,33.4,33.4,4.1,2.0,2.505,0.6121892675582566,-0.014072915673464855,0.780223210750516,0.004283097104207524,-0.072151,-36.64759
11.185,2.0,1.0,1.0,34.9,33.4,33.4,4.1,2.0,2.5075,0.6053169806109879,-0.014296237523913053,0.7854552209641348,0.004205310121190696,-0.072925,-36.535159
11.185,2.0,1.0,1.0,34.9,33.4,33.4,4.1,2.0,2.51,0.5983608535691987,-0.014522425436402198,0.790654428639271,0.004123927268973333,-0.073713,-36.422412
11.185,2.0,1.0,1.0,34.9,33.4,33.4,4.1,2.0,2.5125,0.5913201944228859,-0.01475150314741599,0.7958197530031533,0.004038842553332676,-0.074515,-36.309343
11.185,2.0,1.0,1.0,34.9,33.4,33.4,4.1,2.0,2.515,0.5841943101268834,-0.014983493902204263,0.800950085746169,0.0039499469129732805,-0.075331,-36.195949
11.185,2.0,1.0,1.0,34.9,33.4,33.4,4.1,2.0,2.5175,0.5769825069666107,-0.0152184204058173,0.8060442903638032,0.0038571281285820417,-0.076161,-36.082223
11.185,2.0,1.0,1.0,34.9,33.4,33.4,4.1,2.0,2.52,0.5696840909446542,-0.015456304771433296,0.8111012014862787,0.0037602707291662287,-0.077005,-35.96816
11.185,2.0,1.0,1.0,34.9,33.4,33.4,4.1,2.0,2.5225,0.5622983681891058,-0.015697168465846515,0.8161196241958625,0.0036592558955925005,-0.077865,-35.853755
11.185,2.0,1.0,1.0,34.9,33.4,33.4,4.1,2.0,2.525,0.5548246453845402,-0.01594103225198063,0.8210983333318622,0.003553961361241098,-0.07874,-35.739002
11.185,2.0,1.0,1.0,34.9,33.4,33.4,4.1,2.0,2.5275,0.5472622302265996,-0.01618791612828269,0.8260360727833244,0.0034442613096873783,-0.07963,-35.623896
11.185,2.0,1.0,1.0,34.9,33.4,33.4,4.1,2.0,2.53,0.5396104319011621,-0.016437839264848004,0.8309315547694699,0.0033300262693192967,-0.080537,-35.508432
11.185,2.0,1.0,1.0,34.9,33.4,33.4,4.1,2.0,2.5325,0.5318685615891131,-0.016690819936119174,0.8357834591079377,0.003211123004796095,-0.081459,-35.392603
11.185,2.0,1.0,1.0,34.9,33.4,33.4,4.1,2.0,2.535,0.5240359329977586,-0.016946875449994462,0.8405904324709196,0.0030874144052496764,-0.082398,-35.276404
11.185,2.0,1.0,1.0,34.9,33.4,33.4,4.1,2.0,2.5375,0.5161118629199807,-0.01720602207317396,0.8453510876292887,0.002958759369127364,-0.083355,-35.15983
11.185,2.0,1.0,1.0,34.9,33.4,33.4,4.1,2.0,2.54,0.5080956718222412,-0.01746827495256332,0.850064002684862,0.002825012685569604,-0.084328,-35.042874
11.185,2.0,1.0,1.0,34.9,33.4,33.4,4.1,2.0,2.5425,0.49998668446259553,-0.017733648032546834,0.8547277202909632,0.002686024912212525,-0.08532,-34.92553
11.185,2.0,1.0,1.0,34.9,33.4,33.4,4.1,2.0,2.545,0.49178423053990583,-0.018002153967932852,0.8593407468614699,0.0025416422493008506,-0.086329,-34.807793
11.185,2.0,1.0,1.0,34.9,33.4,33.4,4.1,2.0,2.5475,0.48348764537549627,-0.01827380403236464,0.8639015517685696,0.002391706409991834,-0.087357,-34.689656
11.185,2.0,1.0,1.0,34.9,33.4,33.4,4.1,2.0,2.55,0.47509627062849463,-0.018548608021981442,0.8684085665294913,0.0022360544867252538,-0.088404,-34.571114
11.185,2.0,1.0,1.0,34.9,33.4,33.4,4.1,2.0,2.5525,0.46660945504620055,-0.018826574154102015,0.8728601839824879,0.0020745188135298178,-0.089471,-34.452159
11.185,2.0,1.0,1.0,34.9,33.4,33.4,4.1,2.0,2.555,0.4580265552507974,-0.01910770896069523,0.8772547574524132,0.00190692682412989,-0.090558,-34.332787
11.185,2.0,1.0,1.0,34.9,33.4,33.4,4.1,2.0,2.5575,0.44934693656380365,-0.019392017176388204,0.8815905999062574,0.0017331009057098442,-0.091664,-34.21299
11.185,2.0,1.0,1.0,34.9,33.4,33.4,4.1,2.0,2.56,0.440569973869698,-0.01967950162075222,0.8858659830990484,0.0015528582481874665,-0.092792,-34.092761
11.185,2.0,1.0,1.0,34.9,33.4,33.4,4.1,2.0,2.5625,0.4316950525201754,-0.01997016307459331,0.8900791367105794,0.0013660106888395771,-0.093941,-33.972095
11.185,2.0,1.0,1.0,34.9,33.4,33.4,4.1,2.0,2.565,0.42272156928053445,-0.020264000149962158,0.8942282474734606,0.0011723645521151407,-0.095112,-33.850984
11.185,2.0,1.0,1.0,34.9,33.4,33.4,4.1,2.0,2.5675,0.41364893331976493,-0.020561009153582353,0.8983114582930445,0.0009717204844634913,-0.096305,-33.729422
11.185,2.0,1.0,1.0,34.9,33.4,33.4,4.1,2.0,2.57,0.4044765672459023,-0.020861183943383176,0.9023268673598267,0.0007638732839944697,-0.097522,-33.607402
11.185,2.0,1.0,1.0,34.9,33.4,33.4,4.1,2.0,2.5725,0.39520390818828544,-0.0211645157778064,0.906272527254985,0.000548611724778433,-0.098761,-33.484916
11.185,2.0,1.0,1.0,34.9,33.4,33.4,4.1,2.0,2.575,0.3858304089283913,-0.0214709931575397,0.9101464440497538,0.00032571837558241,-0.100025,-33.361958
11.185,2.0,1.0,1.0,34.9,33.4,33.4,4.1,2.0,2.5775,0.3763555390809526,-0.021780601659313056,0.9139465763994172,9.496941282700064e-05,-0.101313,-33.23852
11.185,2.0,1.0,1.0,34.9,33.4,33.4,4.1,2.0,2.58,0.3667787863271156,-0.022093323761374642,0.9176708346327478,-0.00014386557246423714,-0.102626,-33.114595
11.185,2.0,1.0,1.0,34.9,33.4,33.4,4.1,2.0,2.5825,0.3570996577014185,-0.02240913866024378,0.9213170798377937,-0.00039102377396582643,-0.103965,-32.990175
11.185,2.0,1.0,1.0,34.9,33.4,33.4,4.1,2.0,2.585,0.347317680934437,-0.022728022078316937,0.9248831229449626,-0.0006467493758597591,-0.105331,-32.865252
11.185,2.0,1.0,1.0,34.9,33.4,33.4,4.1,2.0,2.5875,0.33743240585294776,-0.023049946061880947,0.9283667238084627,-0.0009112937654280612,-0.106724,-32.739819
11.185,2.0,1.0,1.0,34.9,33.4,33.4,4.1,2.0,2.59,0.327443405839537,-0.023374878769062964,0.9317655902871813,-0.0011849157527218201,-0.108144,-32.613867
11.185,2.0,1.0,1.0,34.9,33.4,33.4,4.1,2.0,2.5925,0.317350279353586,-0.023702784247221904,0.9350773773261933,-0.0014678817976205424,-0.109593,-32.487389
11.185,2.0,1.0,1.0,34.9,33.4,33.4,4.1,2.0,2.595,0.3071526515156327,-0.024033622199257372,0.9382996860401587,-0.0017604662446167802,-0.111072,-32.360375
11.185,2.0,1.0,1.0,34.9,33.4,33.4,4.1,2.0,2.5975,0.29685017575710626,-0.0243673477382853,0.9414300627999436,-0.0020629515656861537,-0.11258,-32.232818
11.185,2.0,1.0,1.0,34.9,33.4,33.4,4.1,2.0,2.6,0.28644253553750354,-0.024703911130094965,0.9444659983238871,-0.002375628611628745,-0.114119,-32.104709
11.185,2.0,1.0,1.0,34.9,33.4,33.4,4.1,2.0,2.6025,0.2759294461310958,-0.025043257522770174,0.9474049267752133,-0.0026987968722970513,-0.11569,-31.976038
11.185,2.0,1.0,1.0,34.9,33.4,33.4,4.1,2.0,2.605,0.2653106564852662,-0.025385326662820614,0.9502442248671877,-0.0030327647461572335,-0.117293,-31.846797
11.185,2.0,1.0,1.0,34.9,33.4,33.4,4.1,2.0,2.6075,0.2545859511526434,-0.025730052597128836,0.9529812109776847,-0.0033778498196662316,-0.118929,-31.716976
11.185,2.0,1.0,1.0,34.9,33.4,33.4,4.1,2.0,2.61,0.2437551522992054,-0.02607736335997748,0.9556131442749418,-0.0037343791569840264,-0.120599,-31.586565
11.185,2.0,1.0,1.0,34.9,33.4,33.4,4.1,2.0,2.6125,0.23281812179055192,-0.026427180644373396,0.9581372238563522,-0.0041026896005844134,-0.122304,-31.455555
11.185,2.0,1.0,1.0,34.9,33.4,33.4,4.1,2.0,2.615,0.2217747633585713,-0.026779419456837046,0.9605505879022509,-0.004483128083372865,-0.124046,-31.323936
11.185,2.0,1.0,1.0,34.9,33.4,33.4,4.1,2.0,2.6175,0.21062502485077186,-0.027133987754769367,0.9628503128467215,-0.004876051952970436,-0.125824,-31.191697
11.185,2.0,1.0,1.0,34.9,33.4,33.4,4.1,2.0,2.62,0.19936890056453235,-0.02749078606544968,0.9650334125675694,-0.005281829308880677,-0.12764,-31.058828
11.185,2.0,1.0,1.0,34.9,33.4,33.4,4.1,2.0,2.6225,0.18800643366856787,-0.027849707085655415,0.9670968375976767,-0.005700839353316072,-0.129496,-30.925318
11.185,2.0,1.0,1.0,34.9,33.4,33.4,4.1,2.0,2.625,0.176537718713954,-0.0282106352608193,0.969037474360029,-0.00613347275652886,-0.131391,-30.791155
11.185,2.0,1.0,1.0,34.9,33.4,33.4,4.1,2.0,2.6275,0.16496290423697874,-0.02857344634256767,0.9708521444288555,-0.00658013203756735,-0.133328,-30.656329
11.185,2.0,1.0,1.0,34.9,33.4,33.4,4.1,2.0,2.63,0.1532821954562279,-0.028938006923395015,0.9725376038193079,-0.007041231961458365,-0.135307,-30.520827
11.185,2.0,1.0,1.0,34.9,33.4,33.4,4.1,2.0,2.6325,0.14149585706621617,-0.029304173947137614,0.9740905423082793,-0.007517199953909263,-0.137329,-30.384636
11.185,2.0,1.0,1.0,34.9,33.4,33.4,4.1,2.0,2.635,0.1296042161299523,-0.029671794193808016,0.9755075827889769,-0.008008476534721044,-0.139397,-30.247746
11.185,2.0,1.0,1.0,34.9,33.4,33.4,4.1,2.0,2.6375,0.11760766507283828,-0.03004070373723659,0.976785280661952,-0.00851551577121478,-0.141511,-30.110141
11.185,2.0,1.0,1.0,34.9,33.4,33.4,4.1,2.0,2.64,0.10550666478025271,-0.03041072737384517,0.977920123265351,-0.009038785753094917,-0.143672,-29.97181
11.185,2.0,1.0,1.0,34.9,33.4,33.4,4.1,2.0,2.6425,0.09330174780127896,-0.03078167802073632,0.9789085293472,-0.00957876909030466,-0.145883,-29.832739
11.185,2.0,1.0,1.0,34.9,33.4,33.4,4.1,2.0,2.645,0.08099352166096474,-0.031153356081131664,0.9797468485825777,-0.010135963435578045,-0.148144,-29.692913
11.185,2.0,1.0,1.0,34.9,33.4,33.4,4.1,2.0,2.6475,0.06858267228358204,-0.031525548775023296,0.9804313611385534,-0.010710882033552627,-0.150457,-29.552317
11.185,2.0,1.0,1.0,34.9,33.4,33.4,4.1,2.0,2.65,0.05606996752933182,-0.031898029432712915,0.9809582772897827,-0.011304054298488934,-0.152824,-29.410937
11.185,2.0,1.0,1.0,34.9,33.4,33.4,4.1,2.0,2.6525,0.04345626084701605,-0.03227055674870612,0.9813237370876471,-0.011916026422834992,-0.155246,-29.268756
11.185,2.0,1.0,1.0,34.9,33.4,33.4,4.1,2.0,2.655,0.03074249504517921,-0.032642873993195216,0.9815238100858061,-0.012547362019097204,-0.157725,-29.125758
11.185,2.0,1.0,1.0,34.9,33.4,33.4,4.1,2.0,2.6575,0.017929706184310536,-0.03301470817810603,0.9815544951249677,-0.013198642797713744,-0.160263,-28.981928
11.185,2.0,1.0,1.0,34.9,33.4,33.4,4.1,2.0,2.66,0.0050190275927500345,-0.03338576917439202,0.9814117201796155,-0.01387046928389465,-0.162862,-28.837246
11.185,2.0,1.0,1.0,34.9,33.4,33.4,4.1,2.0,2.6625,-0.00798830599100617,-0.033755748776937586,0.9810913422693418,-0.014563461576681933,-0.165523,-28.691695
11.185,2.0,1.0,1.0,34.9,33.4,33.4,4.1,2.0,2.665,-0.021090954146793177,-0.034124319713067765,0.9805891474372694,-0.015278260153808896,-0.16825,-28.545256
11.185,2.0,1.0,1.0,34.9,33.4,33.4,4.1,2.0,2.6675,-0.03428746636911056,-0.03449113459025617,0.9799008507978897,-0.01601552672628894,-0.171043,-28.39791
11.185,2.0,1.0,1.0,34.9,33.4,33.4,4.1,2.0,2.67,-0.0475762775282667,-0.03485582477816538,0.9790220966564258,-0.016775945147061752,-0.173906,-28.249637
11.185,2.0,1.0,1.0,34.9,33.4,33.4,4.1,2.0,2.6725,-0.06095570319305814,-0.035217999219642415,0.9779484587015522,-0.017560222378455934,-0.176841,-28.100414
11.185,2.0,1.0,1.0,34.9,33.4,33.4,4.1,2.0,2.675,-0.07442393481150776,-0.035577243164714535,0.9766754402729902,-0.018369089523706687,-0.17985,-27.950221
11.185,2.0,1.0,1.0,34.9,33.4,33.4,4.1,2.0,2.6775,-0.08797903474590936,-0.0359331168209794,0.9751984747051133,-0.019203302928298232,-0.182935,-27.799035
11.185,2.0,1.0,1.0,34.9,33.4,33.4,4.1,2.0,2.68,-0.10161893115808582,-0.03628515391305308,0.9735129257472382,-0.020063645357485147,-0.186101,-27.646831
11.185,2.0,1.0,1.0,34.9,33.4,33.4,4.1,2.0,2.6825,-0.11534141274038497,-0.03663286014290871,0.971614088060794,-0.020950927256993476,-0.189349,-27.493586
11.185,2.0,1.0,1.0,34.9,33.4,33.4,4.1,2.0,2.685,-0.12914412328738598,-0.0369757115420061,0.9694971877928658,-0.021865988104620294,-0.192683,-27.339272
11.185,2.0,1.0,1.0,34.9,33.4,33.4,4.1,2.0,2.6875,-0.143024556102792,-0.0373131527050505,0.967157383225023,-0.0228096978612399,-0.196105,-27.183864
11.185,2.0,1.0,1.0,34.9,33.4,33.4,4.1,2.0,2.69,-0.15698004823517123,-0.03764459489402042,0.9645897654954164,-0.023782958530600876,-0.19962,-27.027332
11.185,2.0,1.0,1.0,34.9,33.4,33.4,4.1,2.0,2.6925,-0.17100777453547641,-0.03796941399974253,0.9617893593912934,-0.024786705838270244,-0.203231,-26.869648
11.185,2.0,1.0,1.0,34.9,33.4,33.4,4.1,2.0,2.695,-0.1851047415281465,-0.03828694834674358,0.958751124207979,-0.02582191104114846,-0.206941,-26.710781
11.185,2.0,1.0,1.0,34.9,33.4,33.4,4.1,2.0,2.6975,-0.19926778108653145,-0.03859649632535061,0.9554699546691863,-0.026889582880173714,-0.210755,-26.550698
11.185,2.0,1.0,1.0,34.9,33.4,33.4,4.1,2.0,2.7,-0.21349354390183767,-0.03889731383300594,0.951940681902168,-0.02799076969014309,-0.214677,-26.389365
11.185,2.0,1.0,1.0,34.9,33.4,33.4,4.1,2.0,2.7025,-0.22777849273322626,-0.039188611504478464,0.9481580744596824,-0.029126561682041113,-0.218712,-26.226748
11.185,2.0,1.0,1.0,34.9,33.4,33.4,4.1,2.0,2.705,-0.24211889542462817,-0.03946955170804094,0.9441168393790219,-0.03029809341487665,-0.222864,-26.062809
11.185,2.0,1.0,1.0,34.9,33.4,33.4,4.1,2.0,2.7075,-0.25651081767157846,-0.03973924528169946,0.939811623266414,-0.03150654647582251,-0.227138,-25.89751
11.185,2.0,1.0,1.0,34.9,33.4,33.4,4.1,2.0,2.71,-0.2709501155185633,-0.039996747980141134,0.9352370133929181,-0.03275315238943263,-0.23154,-25.730808
11.185,2.0,1.0,1.0,34.9,33.4,33.4,4.1,2.0,2.7125,-0.2854324275642285,-0.04024105659914607,0.9303875387855073,-0.034039195778913435,-0.236075,-25.562663
11.185,2.0,1.0,1.0,34.9,33.4,33.4,4.1,2.0,2.715,-0.29995316684784495,-0.040471104739705006,0.9252576712942697,-0.035366017804862024,-0.24075,-25.393027
11.185,2.0,1.0,1.0,34.9,33.4,33.4,4.1,2.0,2.7175,-0.31450751238614283,-0.040685758168901645,0.9198418266136372,-0.036735019909587524,-0.245572,-25.221855
11.185,2.0,1.0,1.0,34.9,33.4,33.4,4.1,2.0,2.72,-0.32909040032421355,-0.040883809728648995,0.9141343652321247,-0.038147667898125584,-0.250546,-25.049096
11.185,2.0,1.0,1.0,34.9,33.4,33.4,4.1,2.0,2.7225,-0.3436965146581372,-0.04106397373647463,0.9081295932812726,-0.039605496390380815,-0.255681,-24.874697
11.185,2.0,1.0,1.0,34.9,33.4,33.4,4.1,2.0,2.725,-0.3583202774796173,-0.041224879814581394,0.901821763250267,-0.04111011368250138,-0.260985,-24.698602
11.185,2.0,1.0,1.0,34.9,33.4,33.4,4.1,2.0,2.7275,-0.37295583868455123,-0.04136506607417794,0.8952050745280241,-0.04266320705967289,-0.266467,-24.520755
11.185,2.0,1.0,1.0,34.9,33.4,33.4,4.1,2.0,2.73,-0.38759706507730846,-0.04148297157135876,0.8882736737293371,-0.044266548607013144,-0.272134,-24.341092
11.185,2.0,1.0,1.0,34.9,33.4,33.4,4.1,2.0,2.7325,-0.40223752879084124,-0.04157692793835887,0.8810216547559341,-0.045922001570238076,-0.277999,-24.159549
11.185,2.0,1.0,1.0,34.9,33.4,33.4,4.1,2.0,2.735,-0.4168704949288112,-0.0416451500794921,0.8734430585369297,-0.047631527323257775,-0.28407,-23.976056
11.185,2.0,1.0,1.0,34.9,33.4,33.4,4.1,2.0,2.7375,-0.4314889083197011,-0.04168572580414111,0.86553187238619,-0.04939719300592225,-0.29036,-23.790542
11.185,2.0,1.0,1.0,34.9,33.4,33.4,4.1,2.0,2.74,-0.446085379253586,-0.0416966042493438,0.8572820289064129,-0.051221179901787164,-0.296882,-23.602928
11.185,2.0,1.0,1.0,34.9,33.4,33.4,4.1,2.0,2.7425,-0.4606521680495591,-0.041675582921280846,0.848687404361307,-0.053105792633069096,-0.303648,-23.413134
11.185,2.0,1.0,1.0,34.9,33.4,33.4,4.1,2.0,2.745,-0.4751811682749916,-0.04162029315765589,0.8397418164280747,-0.05505346925791699,-0.310674,-23.221073
11.185,2.0,1.0,1.0,34.9,33.4,33.4,4.1,2.0,2.7475,-0.48966388840600605,-0.04152818378078994,0.8304390212324121,-0.05706679236377719,-0.317975,-23.026652
11.185,2.0,1.0,1.0,34.9,33.4,33.4,4.1,2.0,2.75,-0.504091431680911,-0.0413965026732687,0.820772709557454,-0.0591485012599627,-0.325569,-22.829776
11.185,2.0,1.0,1.0,34.9,33.4,33.4,4.1,2.0,2.7525,-0.5184544738535126,-0.041222275963016274,0.8107365021065861,-0.06130150538251688,-0.333474,-22.630341
11.185,2.0,1.0,1.0,34.9,33.4,33.4,4.1,2.0,2.755,-0.5327432385000139,-0.041002284451316165,0.8003239436878092,-0.06352889903501903,-0.341712,-22.428236
11.185,2.0,1.0,1.0,34.9,33.4,33.4,4.1,2.0,2.7575,-0.5469474694695642,-0.040733036853814006,0.7895284961745545,-0.06583397759997166,-0.350304,-22.223345
11.185,2.0,1.0,1.0,34.9,33.4,33.4,4.1,2.0,2.76,-0.5610563999925897,-0.04041073934879292,0.7783435300848204,-0.06822025536657642,-0.359276,-22.015544
11.185,2.0,1.0,1.0,34.9,33.4,33.4,4.1,2.0,2.7625,-0.5750587178698509,-0.04003126083640063,0.7667623146074273,-0.07069148513172055,-0.368655,-21.8047
11.185,2.0,1.0,1.0,34.9,33.4,33.4,4.1,2.0,2.765,-0.5889425260558282,-0.03959009320378337,0.7547780058918363,-0.07325167974124727,-0.378471,-21.590673
11.185,2.0,1.0,1.0,34.9,33.4,33.4,4.1,2.0,2.7675,-0.6026952978181147,-0.0390823057602618,0.7423836334070054,-0.07590513574728351,-0.388756,-21.373311
11.185,2.0,1.0,1.0,34.9,33.4,33.4,4.1,2.0,2.77,-0.6163038254952946,-0.038502492848792216,0.7295720841664509,-0.07865645936332753,-0.399548,-21.152454
11.185,2.0,1.0,1.0,34.9,33.4,33.4,4.1,2.0,2.7725,-0.6297541616828215,-0.037844713448823564,0.7163360846128075,-0.08151059490022222,-0.410886,-20.92793
11.185,2.0,1.0,1.0,34.9,33.4,33.4,4.1,2.0,2.775,-0.6430315514421354,-0.03710242135355895,0.7026681799581056,-0.08447285586061103,-0.422816,-20.699555
11.185,2.0,1.0,1.0,34.9,33.4,33.4,4.1,2.0,2.7775,-0.6561203538425909,-0.036268384221902074,0.6885607107893305,-0.08754895885347214,-0.435387,-20.467132
11.185,2.0,1.0,1.0,34.9,33.4,33.4,4.1,2.0,2.78,-0.6690039507968273,-0.035334589459867755,0.6740057867774819,-0.09074506045891872,-0.448656,-20.230451
11.185,2.0,1.0,1.0,34.9,33.4,33.4,4.1,2.0,2.7825,-0.6816646407221733,-0.03429213446267987,0.6589952573794645,-0.09406779711962084,-0.462686,-19.989286
11.185,2.0,1.0,1.0,34.9,33.4,33.4,4.1,2.0,2.785,-0.6940835140344845,-0.03313109822786045,0.6435206795053625,-0.09752432804912133,-0.477546,-19.743393
11.185,2.0,1.0,1.0,34.9,33.4,33.4,4.1,2.0,2.7875,-0.7062403068312363,-0.03184039070692565,0.6275732822534306,-0.10112238101498203,-0.493316,-19.492512
11.185,2.0,1.0,1.0,34.9,33.4,33.4,4.1,2.0,2.79,-0.7181132283173158,-0.03040757546787075,0.6111439290106835,-0.1048703006564877,-0.510086,-19.236363
11.185,2.0,1.0,1.0,34.9,33.4,33.4,4.1,2.0,2.7925,-0.7296787565290349,-0.0288186602531667,0.5942230775069676,-0.10877709870458269,-0.527957,-18.974643
11.185,2.0,1.0,1.0,34.9,33.4,33.4,4.1,2.0,2.795,-0.7409113956700961,-0.027057848788563914,0.576800738834008,-0.1128525050463068,-0.547044,-18.707029
11.185,2.0,1.0,1.0,34.9,33.4,33.4,4.1,2.0,2.7975,-0.7517833868225919,-0.025107245663182873,0.558866437055479,-0.11710701796078032,-0.567479,-18.433168
11.185,2.0,1.0,1.0,34.9,33.4,33.4,4.1,2.0,2.8,-0.7622643618560543,-0.022946504180690993,0.5404091719199209,-0.12155195096837118,-0.589415,-18.152683
11.185,2.0,1.0,1.0,34.9,33.4,33.4,4.1,2.0,2.8025,-0.7723209279246583,-0.020552404673038264,0.5214173884621219,-0.12619947246354177,-0.613023,-17.865166
11.185,2.0,1.0,1.0,34.9,33.4,33.4,4.1,2.0,2.805,-0.7819161668879512,-0.017898347744214865,0.5018789591069943,-0.1310626324789727,-0.638506,-17.570174
11.185,2.0,1.0,1.0,34.9,33.4,33.4,4.1,2.0,2.8075,-0.7910090301522488,-0.014953743112166969,0.48178118651500396,-0.13615536831373987,-0.666097,-17.267232
11.185,2.0,1.0,1.0,34.9,33.4,33.4,4.1,2.0,2.81,-0.7995536046098258,-0.011683269946299552,0.4611108391806606,-0.14149247700291673,-0.696067,-16.955823
11.185,2.0,1.0,1.0,34.9,33.4,33.4,4.1,2.0,2.8125,-0.807498219312966,-0.00804597862069955,0.439854237227631,-0.147089537201505,-0.728735,-16.635389
11.185,2.0,1.0,1.0,34.9,33.4,33.4,4.1,2.0,2.815,-0.8147843549851891,-0.0039941963482155824,0.41799741368535487,-0.15296275525725664,-0.764475,-16.305326
11.185,2.0,1.0,1.0,34.9,33.4,33.4,4.1,2.0,2.8175,-0.8213453091469217,0.0005278100625855742,0.39552638788670175,-0.15912869895909926,-0.803732,-15.964982
11.185,2.0,1.0,1.0,34.9,33.4,33.4,4.1,2.0,2.82,-0.8271045582464989,0.00558547234281152,0.3724276041232365,-0.16560386605310898,-0.847035,-15.613653
11.185,2.0,1.0,1.0,34.9,33.4,33.4,4.1,2.0,2.8225,-0.8319737445889493,0.011255931241171939,0.34868861274765484,-0.172404010721454,-0.895015,-15.25058
11.185,2.0,1.0,1.0,34.9,33.4,33.4,4.1,2.0,2.825,-0.8358502002197785,0.01763050622629596,0.3242991061012874,-0.17954311626993238,-0.948436,-14.874948
11.185,2.0,1.0,1.0,34.9,33.4,33.4,4.1,2.0,2.8275,-0.8386139031492055,0.024817727818241507,0.29925247327692356,-0.18703185100126302,-1.008225,-14.485886
