1,w,sub_t,h,l1,l2,l3,g1,g2,Freq,S11_re,S21_re,S11_img,S21_img,S11_dB,S21_dB
11.185,2.0,1.0,1.0,33.7,33.5,33.5,4.0,3.8,2.5,0.827626289768794,-0.0055582253995973,0.549903047534648,0.00319031825743936,-0.055251,-43.864541
11.185,2.0,1.0,1.0,33.7,33.5,33.5,4.0,3.8,2.5025,0.8237689756126488,-0.005658309734036414,0.5555645399832085,0.003186913351957714,-0.055741,-43.749667
11.185,2.0,1.0,1.0,33.7,33.5,33.5,4.0,3.8,2.505,0.8198555857888769,-0.005759876839698344,0.5612227697069919,0.003182599875107673,-0.056238,-43.634607
11.185,2.0,1.0,1.0,33.7,33.5,33.5,4.0,3.8,2.5075,0.815885584383589,-0.005862948997567578,0.5668774133627856,0.003177349281319909,-0.056744,-43.519356
11.185,2.0,1.0,1.0,33.7,33.5,33.5,4.0,3.8,2.51,0.8118584281997198,-0.005967548859476683,0.5725281383462857,0.0031711321527000697,-0.057257,-43.403907
11.185,2.0,1.0,1.0,33.7,33.5,33.5,4.0,3.8,2.5125,0.8077735666858685,-0.006073699453622945,0.5781746025164175,0.003163918169618905,-0.057779,-43.288253
11.185,2.0,1.0,1.0,33.7,33.5,33.5,4.0,3.8,2.515,0.8036304418662567,-0.006181424190095973,0.5838164539116172,0.003155676080206328,-0.058309,-43.172387
11.185,2.0,1.0,1.0,33.7,33.5,33.5,4.0,3.8,2.5175,0.7994284882719372,-0.006290746866409843,0.5894533304578182,0.003146373668703831,-0.058848,-43.056303
11.185,2.0,1.0,1.0,33.7,33.5,33.5,4.0,3.8,2.52,0.7951671328733811,-0.0064016916730345414,0.59508485966792,0.003135977722627412,-0.059396,-42.939994
11.185,2.0,1.0,1.0,33.7,33.5,33.5,4.0,3.8,2.5225,0.7908457950146024,-0.006514283198919495,0.6007106583324668,0.0031244539986912557,-0.059952,-42.823453
11.185,2.0,1.0,1.0,33.7,33.5,33.5,4.0,3.8,2.525,0.7864638863489558,-0.0066285464370027065,0.606330332201298,0.003111767187439434,-0.060518,-42.706673
11.185,2.0,1.0,1.0,33.7,33.5,33.5,4.0,3.8,2.5275,0.782020810776778,-0.006744506789697384,0.6119434756559015,0.0030978808765312225,-0.061093,-42.589648
11.185,2.0,1.0,1.0,33.7,33.5,33.5,4.0,3.8,2.53,0.7775159643850402,-0.006862190074348415,0.6175496713721913,0.003082757512621956,-0.061677,-42.472369
11.185,2.0,1.0,1.0,33.7,33.5,33.5,4.0,3.8,2.5325,0.7729487353891912,-0.006981622528649306,0.6231484899734391,0.0030663583617796275,-0.062271,-42.354831
11.185,2.0,1.0,1.0,33.7,33.5,33.5,4.0,3.8,2.535,0.7683185040773753,-0.007102830816010562,0.6287394896730708,0.0030486434683735875,-0.062876,-42.237026
11.185,2.0,1.0,1.0,33.7,33.5,33.5,4.0,3.8,2.5375,0.7636246427572352,-0.007225842030868933,0.6343222159070283,0.00302957161236911,-0.06349,-42.118946
11.185,2.0,1.0,1.0,33.7,33.5,33.5,4.0,3.8,2.54,0.7588665157054961,-0.007350683703926817,0.639896200955399,0.0030091002649582457,-0.064114,-42.000585
11.185,2.0,1.0,1.0,33.7,33.5,33.5,4.0,3.8,2.5425,0.7540434791205636,-0.007477383807309794,0.6454609635530018,0.002987185542453565,-0.06475,-41.881935
11.185,2.0,1.0,1.0,33.7,33.5,33.5,4.0,3.8,2.545,0.7491548810783588,-0.007605970759629999,0.6510160084886076,0.002963782158368257,-0.065396,-41.762989
11.185,2.0,1.0,1.0,33.7,33.5,33.5,4.0,3.8,2.5475,0.7442000614916506,-0.007736473430941093,0.656560826192461,0.0029388433736016535,-0.066053,-41.64374
11.185,2.0,1.0,1.0,33.7,33.5,33.5,4.0,3.8,2.55,0.739178352073122,-0.00786892114757106,0.6620948923117801,0.002912320944645464,-0.066721,-41.524179
11.185,2.0,1.0,1.0,33.7,33.5,33.5,4.0,3.8,2.5525,0.7340890763024687,-0.008003343696816332,0.6676176672738661,0.002884165069721484,-0.067401,-41.404299
11.185,2.0,1.0,1.0,33.7,33.5,33.5,4.0,3.8,2.555,0.7289315493977974,-0.008139771331481162,0.673128595836484,0.0028543243327570525,-0.068093,-41.284093
11.185,2.0,1.0,1.0,33.7,33.5,33.5,4.0,3.8,2.5575,0.7237050782916282,-0.008278234774243833,0.6786271066251445,0.0028227456450993743,-0.068797,-41.163552
11.185,2.0,1.0,1.0,33.7,33.5,33.5,4.0,3.8,2.56,0.71840896161183,-0.008418765221830509,0.6841126116569036,0.0027893741848650806,-0.069513,-41.042669
11.185,2.0,1.0,1.0,33.7,33.5,33.5,4.0,3.8,2.5625,0.7130424896678093,-0.008561394348976186,0.6895845058503013,0.002754153333815385,-0.070242,-40.921436
11.185,2.0,1.0,1.0,33.7,33.5,33.5,4.0,3.8,2.565,0.7076049444423079,-0.008706154312150334,0.6950421665210441,0.0027170246116417405,-0.070983,-40.799845
11.185,2.0,1.0,1.0,33.7,33.5,33.5,4.0,3.8,2.5675,0.7020955995891853,-0.008853077753023719,0.7004849528630147,0.002677927607540473,-0.071738,-40.677887
11.185,2.0,1.0,1.0,33.7,33.5,33.5,4.0,3.8,2.57,0.6965137204375622,-0.009002197801650845,0.7059122054142029,0.0026367999089484135,-0.072506,-40.555554
11.185,2.0,1.0,1.0,33.7,33.5,33.5,4.0,3.8,2.5725,0.6908585640027408,-0.009153548079340755,0.7113232455071201,0.002593577027304445,-0.073288,-40.432838
11.185,2.0,1.0,1.0,33.7,33.5,33.5,4.0,3.8,2.575,0.685129379004326,-0.00930716270118734,0.7167173747032669,0.0025481923206943148,-0.074085,-40.309731
11.185,2.0,1.0,1.0,33.7,33.5,33.5,4.0,3.8,2.5775,0.6793254058919983,-0.009463076278227166,0.7220938742111879,0.002500576913228523,-0.074895,-40.186223
11.185,2.0,1.0,1.0,33.7,33.5,33.5,4.0,3.8,2.58,0.6734458768794157,-0.00962132391919207,0.7274520042876637,0.0024506596109941025,-0.075721,-40.062305
11.185,2.0,1.0,1.0,33.7,33.5,33.5,4.0,3.8,2.5825,0.6674900159867291,-0.009781941231820296,0.732791003621556,0.002398366814412558,-0.076561,-39.93797
11.185,2.0,1.0,1.0,33.7,33.5,33.5,4.0,3.8,2.585,0.6614570390922457,-0.009944964323687615,0.7381100886998212,0.002343622426826364,-0.077417,-39.813208
11.185,2.0,1.0,1.0,33.7,33.5,33.5,4.0,3.8,2.5875,0.6553461539937726,-0.01011042980251749,0.7434084531551926,0.0022863477591261836,-0.078289,-39.688009
11.185,2.0,1.0,1.0,33.7,33.5,33.5,4.0,3.8,2.59,0.6491565604802281,-0.010278374775925901,0.7486852670950102,0.002226461430220333,-0.079178,-39.562366
11.185,2.0,1.0,1.0,33.7,33.5,33.5,4.0,3.8,2.5925,0.6428874504141071,-0.01044883685055359,0.7539396764106836,0.002163879263135808,-0.080082,-39.436267
11.185,2.0,1.0,1.0,33.7,33.5,33.5,4.0,3.8,2.595,0.636538007825451,-0.010621854130534895,0.7591708020672283,0.0020985141765284005,-0.081004,-39.309703
11.185,2.0,1.0,1.0,33.7,33.5,33.5,4.0,3.8,2.5975,0.630107409017963,-0.01079746521524877,0.7643777393723402,0.00203027607136525,-0.081944,-39.182666
11.185,2.0,1.0,1.0,33.7,33.5,33.5,4.0,3.8,2.6,0.6235948226879743,-0.010975709196293594,0.7695595572244248,0.001959071712529801,-0.082901,-39.055144
11.185,2.0,1.0,1.0,33.7,33.5,33.5,4.0,3.8,2.6025,0.6169994100569932,-0.011156625653622985,0.7747152973389982,0.001884804605083199,-0.083876,-38.927127
11.185,2.0,1.0,1.0,33.7,33.5,33.5,4.0,3.8,2.605,0.6103203250185857,-0.011340254650775473,0.7798439734528676,0.0018073748648999694,-0.084871,-38.798606
11.185,2.0,1.0,1.0,33.7,33.5,33.5,4.0,3.8,2.6075,0.6035567143003991,-0.011526636729125812,0.7849445705054664,0.001726679083378492,-0.085884,-38.669571
11.185,2.0,1.0,1.0,33.7,33.5,33.5,4.0,3.8,2.61,0.5967077176421632,-0.011715812901079868,0.7900160437967136,0.0016426101859076917,-0.086917,-38.540009
11.185,2.0,1.0,1.0,33.7,33.5,33.5,4.0,3.8,2.6125,0.5897724679905448,-0.011907824642130407,0.7950573181207511,0.0015550572837511462,-0.087971,-38.409911
11.185,2.0,1.0,1.0,33.7,33.5,33.5,4.0,3.8,2.615,0.5827500917117743,-0.012102713881683472,0.8000672868748944,0.0014639055189884765,-0.089045,-38.279265
11.185,2.0,1.0,1.0,33.7,33.5,33.5,4.0,3.8,2.6175,0.5756397088230122,-0.012300522992559184,0.8050448111431016,0.001369035902130127,-0.090141,-38.148061
11.185,2.0,1.0,1.0,33.7,33.5,33.5,4.0,3.8,2.62,0.5684404332434625,-0.012501294779062954,0.8099887187532682,0.0012703251419968233,-0.091258,-38.016286
11.185,2.0,1.0,1.0,33.7,33.5,33.5,4.0,3.8,2.6225,0.5611513730662829,-0.012705072463515585,0.8148978033076201,0.0011676454674278006,-0.092398,-37.883929
11.185,2.0,1.0,1.0,33.7,33.5,33.5,4.0,3.8,2.625,0.553771630852414,-0.0129118996711213,0.819770823185455,0.00106086444035317,-0.093561,-37.750978
11.185,2.0,1.0,1.0,33.7,33.5,33.5,4.0,3.8,2.6275,0.5463003039474659,-0.013121820413044332,0.8246065005174787,0.0009498447597342003,-0.094747,-37.617421
11.185,2.0,1.0,1.0,33.7,33.5,33.5,4.0,3.8,2.63,0.5387364848228889,-0.013334879067553564,0.8294035201309392,0.0008344440558410868,-0.095958,-37.483246
11.185,2.0,1.0,1.0,33.7,33.5,33.5,4.0,3.8,2.6325,0.5310792614426905,-0.013551120359084328,0.8341605284647488,0.0007145146743024693,-0.097193,-37.348439
11.185,2.0,1.0,1.0,33.7,33.5,33.5,4.0,3.8,2.635,0.5233277176570285,-0.01377058933505371,0.8388761324537621,0.0005899034493202383,-0.098454,-37.212987
11.185,2.0,1.0,1.0,33.7,33.5,33.5,4.0,3.8,2.6375,0.5154809336240772,-0.013993331340252388,0.8435488983813375,0.0004604514654015424,-0.099742,-37.076878
11.185,2.0,1.0,1.0,33.7,33.5,33.5,4.0,3.8,2.64,0.5075379862616033,-0.014219391988622985,0.8481773506993017,0.0003259938069132786,-0.101056,-36.940097
11.185,2.0,1.0,1.0,33.7,33.5,33.5,4.0,3.8,2.6425,0.49949794972979417,-0.014448817132216862,0.8527599708143898,0.00018635929471474022,-0.102398,-36.802632
11.185,2.0,1.0,1.0,33.7,33.5,33.5,4.0,3.8,2.645,0.4913598959469178,-0.014681652827105844,0.8572951958402064,4.1370209070253045e-05,-0.103769,-36.664467
11.185,2.0,1.0,1.0,33.7,33.5,33.5,4.0,3.8,2.6475,0.4831228951394911,-0.014917945296005156,0.8617814173137229,-0.00010915800201544684,-0.105168,-36.525587
11.185,2.0,1.0,1.0,33.7,33.5,33.5,4.0,3.8,2.65,0.47478601642868057,-0.015157740887344864,0.8662169798752924,-0.00026541702995960847,-0.106598,-36.385979
11.185,2.0,1.0,1.0,33.7,33.5,33.5,4.0,3.8,2.6525,0.466348328454795,-0.01540108603050092,0.8706001799110991,-0.00042760602925044096,-0.108059,-36.245626
11.185,2.0,1.0,1.0,33.7,33.5,33.5,4.0,3.8,2.655,0.4578089000417413,-0.01564802718687624,0.8749292641569583,-0.0005959319586480318,-0.109552,-36.104514
11.185,2.0,1.0,1.0,33.7,33.5,33.5,4.0,3.8,2.6575,0.4491668009034687,-0.015898610796490752,0.879202428262294,-0.0007706099410825533,-0.111078,-35.962625
11.185,2.0,1.0,1.0,33.7,33.5,33.5,4.0,3.8,2.66,0.44042110239447635,-0.016152883219711287,0.8834178153131008,-0.0009518636434845766,-0.112637,-35.819944
11.185,2.0,1.0,1.0,33.7,33.5,33.5,4.0,3.8,2.6625,0.43157087830659047,-0.016410890673717142,0.8875735143126149,-0.0011399256778787095,-0.114231,-35.676453
11.185,2.0,1.0,1.0,33.7,33.5,33.5,4.0,3.8,2.665,0.42261520571427696,-0.016672679163261588,0.8916675586183902,-0.0013350380251777815,-0.115861,-35.532135
11.185,2.0,1.0,1.0,33.7,33.5,33.5,4.0,3.8,2.6675,0.4135531658709196,-0.016938294405246832,0.8956979243343701,-0.0015374524832281417,-0.117528,-35.386972
11.185,2.0,1.0,1.0,33.7,33.5,33.5,4.0,3.8,2.67,0.40438384515855474,-0.017207781746585667,0.8996625286565022,-0.0017474311407845887,-0.119233,-35.240946
11.185,2.0,1.0,1.0,33.7,33.5,33.5,4.0,3.8,2.6725,0.39510633609369844,-0.01748118607477264,0.903559228170351,-0.0019652468792282878,-0.120978,-35.094038
11.185,2.0,1.0,1.0,33.7,33.5,33.5,4.0,3.8,2.675,0.38571973839203694,-0.017758551720530834,0.9073858170990627,-0.0021911839039922623,-0.122762,-34.946228
11.185,2.0,1.0,1.0,33.7,33.5,33.5,4.0,3.8,2.6775,0.3762231600948618,-0.018039922351838784,0.9111400254999548,-0.0024255383078234747,-0.124589,-34.797497
11.185,2.0,1.0,1.0,33.7,33.5,33.5,4.0,3.8,2.68,0.36661571876028753,-0.0183253408585731,0.9148195174078737,-0.00266861866818988,-0.126458,-34.647823
11.185,2.0,1.0,1.0,33.7,33.5,33.5,4.0,3.8,2.6825,0.35689654272244103,-0.018614849226924208,0.9184218889233539,-0.0029207466813382043,-0.128372,-34.497186
11.185,2.0,1.0,1.0,33.7,33.5,33.5,4.0,3.8,2.685,0.34706477242196154,-0.018908488402657575,0.921944666243461,-0.0031822578357255794,-0.130331,-34.345563
11.185,2.0,1.0,1.0,33.7,33.5,33.5,4.0,3.8,2.6875,0.337119561811325,-0.0192062981421961,0.925385303633059,-0.00345350212778527,-0.132338,-34.192933
11.185,2.0,1.0,1.0,33.7,33.5,33.5,4.0,3.8,2.69,0.3270600798387022,-0.019508316850391543,0.9287411813340508,-0.003734844823248667,-0.134394,-34.039271
11.185,2.0,1.0,1.0,33.7,33.5,33.5,4.0,3.8,2.6925,0.31688551201421633,-0.01981458140373316,0.9320096034099723,-0.004026667267534344,-0.136501,-33.884555
11.185,2.0,1.0,1.0,33.7,33.5,33.5,4.0,3.8,2.695,0.30659506206273734,-0.020125126957604166,0.9351877955230758,-0.00432936774903072,-0.13866,-33.728758
11.185,2.0,1.0,1.0,33.7,33.5,33.5,4.0,3.8,2.6975,0.2961879536674964,-0.020439986736048354,0.9382729026408156,-0.004643362419450623,-0.140873,-33.571855
11.185,2.0,1.0,1.0,33.7,33.5,33.5,4.0,3.8,2.7,0.2856634323091285,-0.02075919180233398,0.9412619866683625,-0.004969086275820202,-0.143141,-33.413821
11.185,2.0,1.0,1.0,33.7,33.5,33.5,4.0,3.8,2.7025,0.27502076720494445,-0.02108277080841287,0.9441520240034723,-0.00530699420909268,-0.145468,-33.254627
11.185,2.0,1.0,1.0,33.7,33.5,33.5,4.0,3.8,2.705,0.26425925335357536,-0.02141074972115288,0.9469399030096789,-0.005657562124847464,-0.147855,-33.094246
11.185,2.0,1.0,1.0,33.7,33.5,33.5,4.0,3.8,2.7075,0.25337821369040486,-0.02174315152297798,0.9496224214034021,-0.006021288142058753,-0.150304,-32.932647
11.185,2.0,1.0,1.0,33.7,33.5,33.5,4.0,3.8,2.71,0.2423770013595773,-0.022079995884271654,0.9521962835501075,-0.006398693876494389,-0.152817,-32.769801
11.185,2.0,1.0,1.0,33.7,33.5,33.5,4.0,3.8,2.7125,0.23125500210872293,-0.022421298804584842,0.9546580976641742,-0.00679032581594872,-0.155398,-32.605676
11.185,2.0,1.0,1.0,33.7,33.5,33.5,4.0,3.8,2.715,0.2200116368129739,-0.022767072219332992,0.9570043729065465,-0.007196756795223817,-0.158047,-32.440239
11.185,2.0,1.0,1.0,33.7,33.5,33.5,4.0,3.8,2.7175,0.20864636413529225,-0.023117323568260947,0.9592315163736349,-0.0076185875795658446,-0.160769,-32.273457
11.185,2.0,1.0,1.0,33.7,33.5,33.5,4.0,3.8,2.72,0.19715868333066366,-0.023472055321492914,0.9613358299701916,-0.008056448566143005,-0.163565,-32.105295
11.185,2.0,1.0,1.0,33.7,33.5,33.5,4.0,3.8,2.7225,0.18554813720223617,-0.02383126445846005,0.9633135071581013,-0.008511001614132797,-0.166439,-31.935715
11.185,2.0,1.0,1.0,33.7,33.5,33.5,4.0,3.8,2.725,0.17381431521819535,-0.024194941894395836,0.9651606295720931,-0.008982942015077813,-0.169394,-31.764681
11.185,2.0,1.0,1.0,33.7,33.5,33.5,4.0,3.8,2.7275,0.16195685679879349,-0.0245630718484072,0.966873163492356,-0.009473000616391976,-0.172433,-31.592152
11.185,2.0,1.0,1.0,33.7,33.5,33.5,4.0,3.8,2.73,0.14997545478385393,-0.02493563114634074,0.9684469561628648,-0.009981946112259138,-0.175559,-31.418088
11.185,2.0,1.0,1.0,33.7,33.5,33.5,4.0,3.8,2.7325,0.13786985909190647,-0.025312588450766,0.9698777319428878,-0.010510587517693659,-0.178777,-31.242447
11.185,2.0,1.0,1.0,33.7,33.5,33.5,4.0,3.8,2.735,0.12563988058321446,-0.025693903409363367,0.9711610882776505,-0.011059776843238103,-0.182089,-31.065182
11.185,2.0,1.0,1.0,33.7,33.5,33.5,4.0,3.8,2.7375,0.11328539514009933,-0.026079525711815106,0.9722924914724167,-0.011630411989689149,-0.185501,-30.88625
11.185,2.0,1.0,1.0,33.7,33.5,33.5,4.0,3.8,2.74,0.10080634797934741,-0.026469394043929066,0.9732672722523009,-0.012223439884390336,-0.189015,-30.7056
11.185,2.0,1.0,1.0,33.7,33.5,33.5,4.0,3.8,2.7425,0.08820275821302603,-0.026863434926144125,0.9740806210879353,-0.012839859883046811,-0.192638,-30.523183
11.185,2.0,1.0,1.0,33.7,33.5,33.5,4.0,3.8,2.745,0.07547472367583626,-0.027261561421738856,0.9747275832646015,-0.013480727463732866,-0.196374,-30.338945
11.185,2.0,1.0,1.0,33.7,33.5,33.5,4.0,3.8,2.7475,0.06262242603918769,-0.02766367169794942,0.9752030536695883,-0.014147158242824505,-0.200227,-30.152833
11.185,2.0,1.0,1.0,33.7,33.5,33.5,4.0,3.8,2.75,0.0496461362345723,-0.0280696474207469,0.975501771269305,-0.0148403323460413,-0.204205,-29.964789
11.185,2.0,1.0,1.0,33.7,33.5,33.5,4.0,3.8,2.7525,0.03654622021157942,-0.028479351961172832,0.9756183132439797,-0.015561499171679987,-0.208311,-29.774752
11.185,2.0,1.0,1.0,33.7,33.5,33.5,4.0,3.8,2.755,0.023323145059145588,-0.028892628387806003,0.9755470887435757,-0.016311982587528345,-0.212554,-29.58266
11.185,2.0,1.0,1.0,33.7,33.5,33.5,4.0,3.8,2.7575,0.009977485522332002,-0.02930929721606075,0.9752823322237592,-0.017093186607940708,-0.216938,-29.388447
11.185,2.0,1.0,1.0,33.7,33.5,33.5,4.0,3.8,2.76,-0.0034900690485983785,-0.02972915388048159,0.9748180963152879,-0.017906601603206996,-0.221473,-29.192044
11.185,2.0,1.0,1.0,33.7,33.5,33.5,4.0,3.8,2.7625,-0.017078707274957288,-0.03015196589089299,0.9741482441739313,-0.01875381109976964,-0.226164,-28.993378
11.185,2.0,1.0,1.0,33.7,33.5,33.5,4.0,3.8,2.765,-0.030787487804300538,-0.030577469627029827,0.9732664412509094,-0.01963649923713264,-0.231021,-28.792373
11.185,2.0,1.0,1.0,33.7,33.5,33.5,4.0,3.8,2.7675,-0.0446153307879235,-0.03100536671894462,0.97216614641566,-0.020556458955604897,-0.236053,-28.58895
11.185,2.0,1.0,1.0,33.7,33.5,33.5,4.0,3.8,2.77,-0.058561008717695144,-0.03143531995184607,0.9708406023534052,-0.021515600998473786,-0.241268,-28.383025
11.185,2.0,1.0,1.0,33.7,33.5,33.5,4.0,3.8,2.7725,-0.0726231365487551,-0.03186694862381228,0.969282825149279,-0.02251596382298017,-0.246678,-28.17451
11.185,2.0,1.0,1.0,33.7,33.5,33.5,4.0,3.8,2.775,-0.08680016102278539,-0.032299823272728456,0.9674855929585076,-0.023559724526779062,-0.252293,-27.96331
11.185,2.0,1.0,1.0,33.7,33.5,33.5,4.0,3.8,2.7775,-0.1010903490924832,-0.03273345967444492,0.965441433648055,-0.024649210910638753,-0.258125,-27.74933
11.185,2.0,1.0,1.0,33.7,33.5,33.5,4.0,3.8,2.78,-0.11549177533110751,-0.03316731199706665,0.9631426112789769,-0.02578691481423729,-0.264187,-27.532465
11.185,2.0,1.0,1.0,33.7,33.5,33.5,4.0,3.8,2.7825,-0.13000230819086725,-0.033600764975903495,0.9605811112801669,-0.026975506880360545,-0.270493,-27.312607
11.185,2.0,1.0,1.0,33.7,33.5,33.5,4.0,3.8,2.785,-0.14461959494997026,-0.03403312494923417,0.9577486241428057,-0.02821785292397044,-0.277058,-27.089641
11.185,2.0,1.0,1.0,33.7,33.5,33.5,4.0,3.8,2.7875,-0.15934104515917197,-0.03446360956579469,0.9546365274402906,-0.029517032106886342,-0.2839,-26.863446
11.185,2.0,1.0,1.0,33.7,33.5,33.5,4.0,3.8,2.79,-0.17416381236397976,-0.03489133593974467,0.9512358659501257,-0.030876357146722423,-0.291035,-26.633892
11.185,2.0,1.0,1.0,33.7,33.5,33.5,4.0,3.8,2.7925,-0.18908477383654654,-0.0353153069864517,0.9475373296217523,-0.03229939682077264,-0.298484,-26.400845
11.185,2.0,1.0,1.0,33.7,33.5,33.5,4.0,3.8,2.795,-0.20410050800048485,-0.0357343956211451,0.9435312290967827,-0.03379000106239617,-0.306269,-26.16416
11.185,2.0,1.0,1.0,33.7,33.5,33.5,4.0,3.8,2.7975,-0.21920726916986608,-0.03614732644025513,0.939207468445015,-0.03535232898982379,-0.314412,-25.923684
11.185,2.0,1.0,1.0,33.7,33.5,33.5,4.0,3.8,2.8,-0.2344009591484314,-0.03655265442952622,0.9345555147299173,-0.036990880256035606,-0.32294,-25.679256
11.185,2.0,1.0,1.0,33.7,33.5,33.5,4.0,3.8,2.8025,-0.2496770951428498,-0.03694874015053458,0.9295643639601935,-0.03871053016432311,-0.331881,-25.430703
11.185,2.0,1.0,1.0,33.7,33.5,33.5,4.0,3.8,2.805,-0.2650307733309448,-0.03733372074399926,0.9242225029184581,-0.040516569058392196,-0.341267,-25.177842
11.185,2.0,1.0,1.0,33.7,33.5,33.5,4.0,3.8,2.8075,-0.2804566272869025,-0.03770547594910169,0.9185178662828568,-0.042414746569446694,-0.351132,-24.920479
11.185,2.0,1.0,1.0,33.7,33.5,33.5,4.0,3.8,2.81,-0.2959487802940133,-0.038061588166398264,0.9124377883714936,-0.04441132138676839,-0.361516,-24.658406
11.185,2.0,1.0,1.0,33.7,33.5,33.5,4.0,3.8,2.8125,-0.311500790363114,-0.0383992953794918,0.905968948741638,-0.0465131173139785,-0.37246,-24.391402
11.185,2.0,1.0,1.0,33.7,33.5,33.5,4.0,3.8,2.815,-0.3271055865110077,-0.03871543548677776,0.8990973107647522,-0.04872758648146726,-0.384014,-24.119231
11.185,2.0,1.0,1.0,33.7,33.5,33.5,4.0,3.8,2.8175,-0.34275539452387527,-0.039006380265604906,0.8918080521736926,-0.051062880707100876,-0.39623,-23.84164
11.185,2.0,1.0,1.0,33.7,33.5,33.5,4.0,3.8,2.82,-0.3584416500184362,-0.039267956779460426,0.8840854864397324,-0.05352793213245393,-0.409168,-23.558361
11.185,2.0,1.0,1.0,33.7,33.5,33.5,4.0,3.8,2.8225,-0.37415489609545893,-0.03949535352145418,0.8759129736850703,-0.056132544409629975,-0.422896,-23.269104
11.185,2.0,1.0,1.0,33.7,33.5,33.5,4.0,3.8,2.825,-0.3898846622263746,-0.039683007934787004,0.8672728196736207,-0.058887495871737645,-0.437489,-22.97356
11.185,2.0,1.0,1.0,33.7,33.5,33.5,4.0,3.8,2.8275,-0.4056193201854324,-0.03982447112433433,0.8581461612542877,-0.06180465628307004,-0.453032,-22.671397
