1,w,sub_t,h,l1,l2,l3,g1,g2,Freq,S11_re,S21_re,S11_img,S21_img,S11_dB,S21_dB
11.185,2.0,1.0,1.0,34.7,34.7,34.7,1.9,1.8,2.5,0.635378639714463,-0.0339194571427169,0.756428252607009,0.0171467743502388,-0.105993,-28.4027
11.185,2.0,1.0,1.0,34.7,34.7,34.7,1.9,1.8,2.5025,0.6282760132655028,-0.03464489432290472,0.762095087386705,0.017094770414258026,-0.10764,-28.260857
11.185,2.0,1.0,1.0,34.7,34.7,34.7,1.9,1.8,2.505,0.6210718933807466,-0.03538627790139189,0.7677304087287236,0.01703430397801032,-0.109329,-28.118153
11.185,2.0,1.0,1.0,34.7,34.7,34.7,1.9,1.8,2.5075,0.6137650213690644,-0.03614401532152717,0.7733328548805308,0.016964961509212808,-0.111062,-27.974573
11.185,2.0,1.0,1.0,34.7,34.7,34.7,1.9,1.8,2.51,0.6063541193427915,-0.03691852610988351,0.7789010172038521,0.016886309232737033,-0.112841,-27.830099
11.185,2.0,1.0,1.0,34.7,34.7,34.7,1.9,1.8,2.5125,0.5988378899843753,-0.03771024226563052,0.7844334383321165,0.01679789202692874,-0.114666,-27.684714
11.185,2.0,1.0,1.0,34.7,34.7,34.7,1.9,1.8,2.515,0.5912150163162012,-0.03851960866146688,0.7899286102402002,0.0166992322515132,-0.11654,-27.538402
11.185,2.0,1.0,1.0,34.7,34.7,34.7,1.9,1.8,2.5175,0.583484161474338,-0.03934708345617121,0.7953849722212221,0.016589828502262635,-0.118465,-27.391144
11.185,2.0,1.0,1.0,34.7,34.7,34.7,1.9,1.8,2.52,0.5756439684869809,-0.04019313851878185,0.8008009087647623,0.016469154287218943,-0.120443,-27.242922
11.185,2.0,1.0,1.0,34.7,34.7,34.7,1.9,1.8,2.5225,0.5676930600585273,-0.041058259864349585,0.8061747473304377,0.01633665661884854,-0.122475,-27.093718
11.185,2.0,1.0,1.0,34.7,34.7,34.7,1.9,1.8,2.525,0.559630038360261,-0.04194294810114147,0.8115047560103336,0.016191754516050354,-0.124563,-26.943512
11.185,2.0,1.0,1.0,34.7,34.7,34.7,1.9,1.8,2.5275,0.5514534848287967,-0.04284771888908417,0.8167891410732786,0.016033837409443023,-0.12671,-26.792285
11.185,2.0,1.0,1.0,34.7,34.7,34.7,1.9,1.8,2.53,0.5431619599735639,-0.043773103409136975,0.822026044383404,0.015862263442815692,-0.128918,-26.640016
11.185,2.0,1.0,1.0,34.7,34.7,34.7,1.9,1.8,2.5325,0.5347540031947575,-0.04471964884316888,0.8272135406848469,0.015676357663038064,-0.13119,-26.486685
11.185,2.0,1.0,1.0,34.7,34.7,34.7,1.9,1.8,2.535,0.5262281326133685,-0.045687918863776746,0.8323496347438049,0.015475410090079862,-0.133528,-26.332271
11.185,2.0,1.0,1.0,34.7,34.7,34.7,1.9,1.8,2.5375,0.5175828449151247,-0.04667849413332304,0.837432258338444,0.015258673658085108,-0.135934,-26.176751
11.185,2.0,1.0,1.0,34.7,34.7,34.7,1.9,1.8,2.54,0.5088166152103842,-0.047691972811287994,0.8424592670863952,0.01502536201767735,-0.138412,-26.020104
11.185,2.0,1.0,1.0,34.7,34.7,34.7,1.9,1.8,2.5425,0.4999278969122932,-0.048728971068816046,0.8474284370987253,0.014774647188826737,-0.140964,-25.862305
11.185,2.0,1.0,1.0,34.7,34.7,34.7,1.9,1.8,2.545,0.4909151216358371,-0.0497901236090878,0.852337461448356,0.014505657052687328,-0.143594,-25.703332
11.185,2.0,1.0,1.0,34.7,34.7,34.7,1.9,1.8,2.5475,0.4817766991207344,-0.0508760841918591,0.8571839464398753,0.014217472669801614,-0.146305,-25.54316
11.185,2.0,1.0,1.0,34.7,34.7,34.7,1.9,1.8,2.55,0.4725110171815062,-0.051987526160180215,0.8619654076666031,0.013909125410954399,-0.1491,-25.381765
11.185,2.0,1.0,1.0,34.7,34.7,34.7,1.9,1.8,2.5525,0.4631164416885476,-0.053125142966911586,0.8666792658395263,0.013579593885746404,-0.151983,-25.219119
11.185,2.0,1.0,1.0,34.7,34.7,34.7,1.9,1.8,2.555,0.45359131658445584,-0.05428964869821677,0.8713228423714101,0.013227800652612441,-0.154958,-25.055197
11.185,2.0,1.0,1.0,34.7,34.7,34.7,1.9,1.8,2.5575,0.4439339639405166,-0.0554817785906883,0.8758933546979176,0.012852608692541364,-0.158029,-24.889972
11.185,2.0,1.0,1.0,34.7,34.7,34.7,1.9,1.8,2.56,0.434142684058886,-0.05670228953816493,0.8803879113159363,0.012452817627137527,-0.1612,-24.723415
11.185,2.0,1.0,1.0,34.7,34.7,34.7,1.9,1.8,2.5625,0.4242157556267556,-0.05795196058360956,0.8848035065175668,0.012027159659878953,-0.164476,-24.555497
11.185,2.0,1.0,1.0,34.7,34.7,34.7,1.9,1.8,2.565,0.41415143592967435,-0.059231593390614505,0.8891370147962488,0.011574295217469147,-0.167861,-24.386188
11.185,2.0,1.0,1.0,34.7,34.7,34.7,1.9,1.8,2.5675,0.4039479611321987,-0.060542012688174274,0.8933851848993507,0.011092808266016526,-0.171361,-24.215458
11.185,2.0,1.0,1.0,34.7,34.7,34.7,1.9,1.8,2.57,0.39360354663516367,-0.06188406668129956,0.8975446334991758,0.010581201274390427,-0.174981,-24.043275
11.185,2.0,1.0,1.0,34.7,34.7,34.7,1.9,1.8,2.5725,0.3831163875202176,-0.06325862741880349,0.9016118384517093,0.010037889794471351,-0.178726,-23.869606
11.185,2.0,1.0,1.0,34.7,34.7,34.7,1.9,1.8,2.575,0.37248465909375056,-0.06466659110815816,0.90558313160953,0.009461196625109402,-0.182604,-23.694417
11.185,2.0,1.0,1.0,34.7,34.7,34.7,1.9,1.8,2.5775,0.3617065175441098,-0.06610887836566155,0.9094546911521092,0.008849345523390836,-0.186619,-23.517674
11.185,2.0,1.0,1.0,34.7,34.7,34.7,1.9,1.8,2.58,0.35078010072799687,-0.0675864343882263,0.913222533393184,0.008200454423265797,-0.19078,-23.33934
11.185,2.0,1.0,1.0,34.7,34.7,34.7,1.9,1.8,2.5825,0.3397035291042608,-0.0691002290308796,0.9168825040209481,0.0075125281176595575,-0.195094,-23.159378
11.185,2.0,1.0,1.0,34.7,34.7,34.7,1.9,1.8,2.585,0.32847490683599273,-0.07065125677146893,0.9204302687224961,0.006783450355845332,-0.199568,-22.97775
11.185,2.0,1.0,1.0,34.7,34.7,34.7,1.9,1.8,2.5875,0.3170923230849149,-0.07224053654107554,0.9238613031391196,0.006010975303037795,-0.20421,-22.794416
11.185,2.0,1.0,1.0,34.7,34.7,34.7,1.9,1.8,2.59,0.3055538535256649,-0.07386911139514321,0.9271708820937321,0.005192718303836952,-0.20903,-22.609334
11.185,2.0,1.0,1.0,34.7,34.7,34.7,1.9,1.8,2.5925,0.2938575621117159,-0.07553804799628701,0.9303540680257952,0.004326145885229955,-0.214037,-22.422463
11.185,2.0,1.0,1.0,34.7,34.7,34.7,1.9,1.8,2.595,0.28200150312953515,-0.07724843587502372,0.9334056985625513,0.0034085649283100497,-0.219241,-22.233759
11.185,2.0,1.0,1.0,34.7,34.7,34.7,1.9,1.8,2.5975,0.2699837235831475,-0.0790013864291882,0.9363203731481005,0.0024371109305850926,-0.224652,-22.043175
11.185,2.0,1.0,1.0,34.7,34.7,34.7,1.9,1.8,2.6,0.25780226595783184,-0.08079803161639804,0.9390924386437696,0.0014087352726861774,-0.230283,-21.850664
11.185,2.0,1.0,1.0,34.7,34.7,34.7,1.9,1.8,2.6025,0.24545517141926776,-0.08263952228647091,0.9417159738042733,0.0003201913943197417,-0.236146,-21.656179
11.185,2.0,1.0,1.0,34.7,34.7,34.7,1.9,1.8,2.605,0.23294048351329055,-0.08452702609199408,0.9441847725241933,-0.0008319802256292086,-0.242254,-21.459667
11.185,2.0,1.0,1.0,34.7,34.7,34.7,1.9,1.8,2.6075,0.2202562524417575,-0.08646172490506054,0.9464923257382587,-0.0020514684009739228,-0.248622,-21.261078
11.185,2.0,1.0,1.0,34.7,34.7,34.7,1.9,1.8,2.61,0.20740054000212205,-0.08844481165627836,0.9486318018466517,-0.003342209010450946,-0.255264,-21.060356
11.185,2.0,1.0,1.0,34.7,34.7,34.7,1.9,1.8,2.6125,0.19437142529241666,-0.09047748649821066,0.950596025522935,-0.004708404352243178,-0.262198,-20.857444
11.185,2.0,1.0,1.0,34.7,34.7,34.7,1.9,1.8,2.615,0.18116701129992627,-0.09256095217903969,0.9523774547471183,-0.006154544237797624,-0.269441,-20.652285
11.185,2.0,1.0,1.0,34.7,34.7,34.7,1.9,1.8,2.6175,0.16778543251125771,-0.09469640849304096,0.9539681558896632,-0.007685428998605443,-0.277012,-20.444818
11.185,2.0,1.0,1.0,34.7,34.7,34.7,1.9,1.8,2.62,0.15422486370432012,-0.09688504565187767,0.9553597766537014,-0.009306194598051178,-0.284933,-20.234979
11.185,2.0,1.0,1.0,34.7,34.7,34.7,1.9,1.8,2.6225,0.1404835301095606,-0.09912803639415076,0.9565435166623127,-0.011022340060818179,-0.293226,-20.022704
11.185,2.0,1.0,1.0,34.7,34.7,34.7,1.9,1.8,2.625,0.126559719159457,-0.101426526619324,0.957510095455118,-0.0128397574547921,-0.301915,-19.807923
11.185,2.0,1.0,1.0,34.7,34.7,34.7,1.9,1.8,2.6275,0.11245179408244674,-0.10378162429520812,0.9582497176336433,-0.014764764685136158,-0.311026,-19.590567
11.185,2.0,1.0,1.0,34.7,34.7,34.7,1.9,1.8,2.63,0.09815820964161212,-0.10619438634453071,0.95875203486764,-0.016804141387303656,-0.320589,-19.370562
11.185,2.0,1.0,1.0,34.7,34.7,34.7,1.9,1.8,2.6325,0.0836775303703839,-0.10866580316449805,0.959006104444787,-0.01896516823538154,-0.330634,-19.147831
11.185,2.0,1.0,1.0,34.7,34.7,34.7,1.9,1.8,2.635,0.06900845171924481,-0.11119678037209825,0.9590003440138058,-0.021255670014355237,-0.341195,-18.922296
11.185,2.0,1.0,1.0,34.7,34.7,34.7,1.9,1.8,2.6375,0.05414982460045511,-0.11378811729537178,0.9587224821360055,-0.023684062839680546,-0.352309,-18.693874
11.185,2.0,1.0,1.0,34.7,34.7,34.7,1.9,1.8,2.64,0.03910068390458655,-0.1164404816447597,0.9581595042227309,-0.026259405944851,-0.364017,-18.462479
11.185,2.0,1.0,1.0,34.7,34.7,34.7,1.9,1.8,2.6425,0.023860281665816756,-0.11915437969622944,0.9572975933963489,-0.028991458497199352,-0.376363,-18.228021
11.185,2.0,1.0,1.0,34.7,34.7,34.7,1.9,1.8,2.645,0.008428125675730135,-0.1219301211959855,0.9561220657707024,-0.03189074194355409,-0.389396,-17.990408
11.185,2.0,1.0,1.0,34.7,34.7,34.7,1.9,1.8,2.6475,-0.007195975508351774,-0.12476777805127141,0.9546172996041649,-0.034968608429815584,-0.403167,-17.749544
11.185,2.0,1.0,1.0,34.7,34.7,34.7,1.9,1.8,2.65,-0.023011860039866338,-0.12766713569840585,0.9527666577356617,-0.03823731588089162,-0.417736,-17.505328
11.185,2.0,1.0,1.0,34.7,34.7,34.7,1.9,1.8,2.6525,-0.03901895141512843,-0.13062763583208203,0.9505524026730244,-0.04171011036798368,-0.433167,-17.257656
11.185,2.0,1.0,1.0,34.7,34.7,34.7,1.9,1.8,2.655,-0.05521618668261394,-0.13364830893236582,0.9479556036663245,-0.04540131642649703,-0.44953,-17.00642
11.185,2.0,1.0,1.0,34.7,34.7,34.7,1.9,1.8,2.6575,-0.07160193235252729,-0.1367276947294869,0.944956035069989,-0.0493264360162167,-0.466904,-16.751507
11.185,2.0,1.0,1.0,34.7,34.7,34.7,1.9,1.8,2.66,-0.08817388577250877,-0.1398637483916817,0.9415320652815041,-0.05350225683088412,-0.485375,-16.4928
11.185,2.0,1.0,1.0,34.7,34.7,34.7,1.9,1.8,2.6625,-0.10492895930728441,-0.14305372979619854,0.9376605355485295,-0.05794697065988463,-0.505039,-16.230178
11.185,2.0,1.0,1.0,34.7,34.7,34.7,1.9,1.8,2.665,-0.12186314414706226,-0.14629407273408543,0.9333166279698261,-0.06268030247076845,-0.526003,-15.963515
11.185,2.0,1.0,1.0,34.7,34.7,34.7,1.9,1.8,2.6675,-0.1389713499546661,-0.1495802302888028,0.9284737220920501,-0.06772365080443749,-0.548385,-15.692682
11.185,2.0,1.0,1.0,34.7,34.7,34.7,1.9,1.8,2.67,-0.156247215825008,-0.1529064918973473,0.9231032396423224,-0.07310023993694975,-0.572318,-15.417545
11.185,2.0,1.0,1.0,34.7,34.7,34.7,1.9,1.8,2.6725,-0.17368288714903815,-0.15626576672726447,0.9171744771604594,-0.0788352840382092,-0.59795,-15.137964
11.185,2.0,1.0,1.0,34.7,34.7,34.7,1.9,1.8,2.675,-0.19126875192098422,-0.15964932695693185,0.9106544266385292,-0.0849561632148455,-0.625447,-14.853798
11.185,2.0,1.0,1.0,34.7,34.7,34.7,1.9,1.8,2.6775,-0.20899312877164616,-0.16304650329933623,0.9035075847845979,-0.09149261081696573,-0.654995,-14.564899
11.185,2.0,1.0,1.0,34.7,34.7,34.7,1.9,1.8,2.68,-0.2268418975176192,-0.16644432362733708,0.8956957522635918,-0.09847691065502738,-0.686804,-14.27112
11.185,2.0,1.0,1.0,34.7,34.7,34.7,1.9,1.8,2.6825,-0.2447980612498671,-0.1698270838047587,0.8871778253138963,-0.1059441017315952,-0.721112,-13.972306
11.185,2.0,1.0,1.0,34.7,34.7,34.7,1.9,1.8,2.685,-0.2628412269078537,-0.17317583776575296,0.8779095836043421,-0.11393218663303575,-0.758186,-13.668305
11.185,2.0,1.0,1.0,34.7,34.7,34.7,1.9,1.8,2.6875,-0.28094698886351477,-0.1764677914811753,0.8678434802308206,-0.12248233770100174,-0.798331,-13.35896
11.185,2.0,1.0,1.0,34.7,34.7,34.7,1.9,1.8,2.69,-0.2990861972485121,-0.179675582681495,0.8569284425518137,-0.13163909231708354,-0.841893,-13.044118
11.185,2.0,1.0,1.0,34.7,34.7,34.7,1.9,1.8,2.6925,-0.31722408959520504,-0.18276642506792273,0.8451096963881796,-0.14145052482717124,-0.889268,-12.723626
11.185,2.0,1.0,1.0,34.7,34.7,34.7,1.9,1.8,2.695,-0.33531926086087327,-0.18570109227193302,0.8323286313077128,-0.1519683774641549,-0.940909,-12.397337
11.185,2.0,1.0,1.0,34.7,34.7,34.7,1.9,1.8,2.6975,-0.3533224431670873,-0.18843271311876406,0.8185227317254027,-0.1632481256548529,-0.997333,-12.065111
11.185,2.0,1.0,1.0,34.7,34.7,34.7,1.9,1.8,2.7,-0.3711750628199916,-0.19090534602123854,0.8036256079522968,-0.17534894374735324,-1.059139,-11.726818
11.185,2.0,1.0,1.0,34.7,34.7,34.7,1.9,1.8,2.7025,-0.38880753876546964,-0.1930522969573615,0.787567173848958,-0.18833352474315143,-1.127016,-11.382344
11.185,2.0,1.0,1.0,34.7,34.7,34.7,1.9,1.8,2.705,-0.40613728422727063,-0.19479414311803678,0.7702740342904159,-0.20226769116438578,-1.201764,-11.031599
11.185,2.0,1.0,1.0,34.7,34.7,34.7,1.9,1.8,2.7075,-0.42306637294001725,-0.19603642400880472,0.7516701673170455,-0.21721971264902448,-1.28431,-10.674517
11.185,2.0,1.0,1.0,34.7,34.7,34.7,1.9,1.8,2.71,-0.4394788348002874,-0.19666696522161542,0.7316780138758469,-0.2332592180098269,-1.375738,-10.311074
11.185,2.0,1.0,1.0,34.7,34.7,34.7,1.9,1.8,2.7125,-0.45523755549268063,-0.1965528098212507,0.7102201237578781,-0.2504555540187517,-1.477312,-9.941291
11.185,2.0,1.0,1.0,34.7,34.7,34.7,1.9,1.8,2.715,-0.47018077455437496,-0.19553675214633734,0.6872215508660103,-0.2688753989437254,-1.590516,-9.565253
11.185,2.0,1.0,1.0,34.7,34.7,34.7,1.9,1.8,2.7175,-0.48411821202723127,-0.19343350438185294,0.6626132448730314,-0.28857938531039923,-1.717096,-9.183122
11.185,2.0,1.0,1.0,34.7,34.7,34.7,1.9,1.8,2.72,-0.49682691322350575,-0.19002558538544753,0.6363367488520202,-0.30961742429686584,-1.859113,-8.79516
11.185,2.0,1.0,1.0,34.7,34.7,34.7,1.9,1.8,2.7225,-0.5080469949406796,-0.18505911461909522,0.6083505800569414,-0.33202235711294964,-2.019006,-8.401751
11.185,2.0,1.0,1.0,34.7,34.7,34.7,1.9,1.8,2.725,-0.5174776185148651,-0.1782398353728349,0.5786387352864103,-0.35580149505841174,-2.199666,-8.003431
11.185,2.0,1.0,1.0,34.7,34.7,34.7,1.9,1.8,2.7275,-0.5247737217395685,-0.16922989699029034,0.5472218065715295,-0.38092556623739804,-2.404537,-7.600926
11.185,2.0,1.0,1.0,34.7,34.7,34.7,1.9,1.8,2.73,-0.5295443294897298,-0.15764621196926867,0.5141711878889562,-0.4073145923986569,-2.637715,-7.195184
11.185,2.0,1.0,1.0,34.7,34.7,34.7,1.9,1.8,2.7325,-0.5313536431712523,-0.1430615817617609,0.4796267513208235,-0.43482032172564616,-2.904091,-6.787427
11.185,2.0,1.0,1.0,34.7,34.7,34.7,1.9,1.8,2.735,-0.529726576745921,-0.12501024961647628,0.44381809967763347,-0.46320511411096144,-3.209495,-6.379201
11.185,2.0,1.0,1.0,34.7,34.7,34.7,1.9,1.8,2.7375,-0.5241609212063617,-0.10300004907212397,0.407088964274777,-0.49211771171598745,-3.560875,-5.972421
11.185,2.0,1.0,1.0,34.7,34.7,34.7,1.9,1.8,2.74,-0.5141487741186606,-0.07653376717473388,0.3699233963280538,-0.521067243610626,-3.966474,-5.569429
11.185,2.0,1.0,1.0,34.7,34.7,34.7,1.9,1.8,2.7425,-0.49921005862479323,-0.045142525442127934,0.3329709974002759,-0.5493982089716477,-4.436006,-5.173033
11.185,2.0,1.0,1.0,34.7,34.7,34.7,1.9,1.8,2.745,-0.4789405368888578,-0.008433560532067832,0.29706653116881226,-0.5762710751982476,-4.98075,-4.786534
11.185,2.0,1.0,1.0,34.7,34.7,34.7,1.9,1.8,2.7475,-0.4530752307931239,0.033846702307648704,0.2632370414346834,-0.6006553293449828,-5.613455,-4.413725
11.185,2.0,1.0,1.0,34.7,34.7,34.7,1.9,1.8,2.75,-0.42156510890607,0.0817364316880895,0.232687616938196,-0.621343787918583,-6.347729,-4.05885
11.185,2.0,1.0,1.0,34.7,34.7,34.7,1.9,1.8,2.7525,-0.3846600352785714,0.1349760160047807,0.20675622735046653,-0.6369976707786682,-7.196232,-3.7265
11.185,2.0,1.0,1.0,34.7,34.7,34.7,1.9,1.8,2.755,-0.3429847415026937,0.19293271581492322,0.18683006745203198,-0.6462299274485008,-8.166048,-3.42145
11.185,2.0,1.0,1.0,34.7,34.7,34.7,1.9,1.8,2.7575,-0.29758859779280894,0.2545514626870542,0.17422200191857928,-0.6477281662405389,-9.247733,-3.148423
11.185,2.0,1.0,1.0,34.7,34.7,34.7,1.9,1.8,2.76,-0.2499471656882694,0.31835367298863526,0.17001636589598865,-0.6404079240599164,-10.391529,-2.911787
11.185,2.0,1.0,1.0,34.7,34.7,34.7,1.9,1.8,2.7625,-0.20189740780568677,0.3825020351358353,0.1749066188440971,-0.6235738562851014,-11.465763,-2.715227
11.185,2.0,1.0,1.0,34.7,34.7,34.7,1.9,1.8,2.765,-0.15550107422563025,0.4449366211881703,0.18905839277383715,-0.5970554820003627,-12.224017,-2.561424
11.185,2.0,1.0,1.0,34.7,34.7,34.7,1.9,1.8,2.7675,-0.1128503749223239,0.5035681858457887,0.21203401862966847,-0.5612816534365088,-12.388721,-2.451794
11.185,2.0,1.0,1.0,34.7,34.7,34.7,1.9,1.8,2.77,-0.07584994418781874,0.5564947668787691,0.2428043080715808,-0.5172682313474111,-11.890478,-2.386339
11.185,2.0,1.0,1.0,34.7,34.7,34.7,1.9,1.8,2.7725,-0.046020214840663126,0.6021967276888615,0.27985161023020383,-0.4665151165487752,-10.945561,-2.363645
11.185,2.0,1.0,1.0,34.7,34.7,34.7,1.9,1.8,2.775,-0.024363323841174914,0.6396694429492555,0.3213429272332509,-0.41083385931562033,-9.835732,-2.381011
11.185,2.0,1.0,1.0,34.7,34.7,34.7,1.9,1.8,2.7775,-0.011314495915498364,0.6684709566002403,0.36533384043522577,-0.35214492548874515,-8.742038,-2.434708
11.185,2.0,1.0,1.0,34.7,34.7,34.7,1.9,1.8,2.78,-0.0067775545504966325,0.6886861002951795,0.4099602851807136,-0.2922873011055083,-7.743977,-2.520289
11.185,2.0,1.0,1.0,34.7,34.7,34.7,1.9,1.8,2.7825,-0.010223032581215147,0.7008285708403428,0.4535854617695825,-0.2328728593707548,-6.864612,-2.632925
11.185,2.0,1.0,1.0,34.7,34.7,34.7,1.9,1.8,2.785,-0.020817890803163194,0.7057118020464648,0.4948868169704667,-0.17520034801107806,-6.102204,-2.767707
11.185,2.0,1.0,1.0,34.7,34.7,34.7,1.9,1.8,2.7875,-0.037557532109712105,0.7043177361608685,0.5328850219638243,-0.12022698360786369,-5.44581,-2.919889
11.185,2.0,1.0,1.0,34.7,34.7,34.7,1.9,1.8,2.79,-0.05937951618523312,0.6976839017864971,0.5669279290459698,-0.06858469058704335,-4.882059,-3.085059
11.185,2.0,1.0,1.0,34.7,34.7,34.7,1.9,1.8,2.7925,-0.08524893575743756,0.686818708546465,0.5966464454115559,-0.020624132312385714,-4.397892,-3.259243
11.185,2.0,1.0,1.0,34.7,34.7,34.7,1.9,1.8,2.795,-0.11421410406310396,0.6726462467079886,0.6218978666074932,0.02352890152333554,-3.981552,-3.438955
11.185,2.0,1.0,1.0,34.7,34.7,34.7,1.9,1.8,2.7975,-0.14543656164743787,0.6559765742895101,0.6427081464956119,0.06391613186067183,-3.622846,-3.621196
11.185,2.0,1.0,1.0,34.7,34.7,34.7,1.9,1.8,2.8,-0.17820165688910725,0.6374952597103907,0.6592200524597921,0.10069532958278965,-3.313095,-3.803435
11.185,2.0,1.0,1.0,34.7,34.7,34.7,1.9,1.8,2.8025,-0.21191605877831773,0.6177658570472581,0.6716504073670303,0.13409791535396745,-3.044985,-3.983561
11.185,2.0,1.0,1.0,34.7,34.7,34.7,1.9,1.8,2.805,-0.24609754680974816,0.5972400051780631,0.6802570599895632,0.16439624085149307,-2.812379,-4.159836
11.185,2.0,1.0,1.0,34.7,34.7,34.7,1.9,1.8,2.8075,-0.28036104639881154,0.5762712125257584,0.6853147627709011,0.19187972487413055,-2.610145,-4.330839
11.185,2.0,1.0,1.0,34.7,34.7,34.7,1.9,1.8,2.81,-0.3144035727661569,0.5551296863064423,0.6870984833377282,0.21683837434713366,-2.433989,-4.495419
11.185,2.0,1.0,1.0,34.7,34.7,34.7,1.9,1.8,2.8125,-0.347989697445131,0.53401660592782,0.685872533309421,0.239552081638376,-2.280321,-4.652647
11.185,2.0,1.0,1.0,34.7,34.7,34.7,1.9,1.8,2.815,-0.3809383949709094,0.5130769900222599,0.68188402788517,0.26028422070377893,-2.146133,-4.801774
11.185,2.0,1.0,1.0,34.7,34.7,34.7,1.9,1.8,2.8175,-0.41311162627640646,0.4924108023881186,0.6753594344055898,0.27927830874451076,-2.028907,-4.942197
11.185,2.0,1.0,1.0,34.7,34.7,34.7,1.9,1.8,2.82,-0.44440470971115587,0.47208224379703656,0.6665032355448905,0.2967567661378033,-1.92653,-5.073426
11.185,2.0,1.0,1.0,34.7,34.7,34.7,1.9,1.8,2.8225,-0.47473836160131855,0.4521273426727163,0.6554979768593006,0.3129210497950764,-1.837228,-5.195062
11.185,2.0,1.0,1.0,34.7,34.7,34.7,1.9,1.8,2.825,-0.5040522081399632,0.4325600354451035,0.642505171107049,0.3279526360776505,-1.759513,-5.306772
11.185,2.0,1.0,1.0,34.7,34.7,34.7,1.9,1.8,2.8275,-0.5322995442377486,0.41337695152165876,0.6276666904048517,0.34201448639270665,-1.692136,-5.408271
11.185,2.0,1.0,1.0,34.7,34.7,34.7,1.9,1.8,2.83,-0.5594431190525284,0.39456111176368514,0.6111063964424668,0.3552527461331598,-1.634052,-5.499311
