1,w,sub_t,h,l1,l2,l3,g1,g2,Freq,S11_re,S21_re,S11_img,S21_img,S11_dB,S21_dB
11.185,2.0,1.0,1.0,33.4,34.2,34.2,3.5,4.0,2.5,0.859386747321262,-0.00532547638464079,0.499347689114222,0.00373405455999141,-0.052898,-43.7362
11.185,2.0,1.0,1.0,33.4,34.2,34.2,3.5,4.0,2.5025,0.8560984358421743,-0.005430187786967021,0.5048559097363289,0.0037457053738504838,-0.05338,-43.613386
11.185,2.0,1.0,1.0,33.4,34.2,34.2,3.5,4.0,2.505,0.8527609399939523,-0.005536727694042234,0.510363828502875,0.0037567687667332005,-0.053871,-43.490259
11.185,2.0,1.0,1.0,33.4,34.2,34.2,3.5,4.0,2.5075,0.8493737871755612,-0.005645133918604335,0.5158712361310759,0.00376722206893011,-0.05437,-43.366808
11.185,2.0,1.0,1.0,33.4,34.2,34.2,3.5,4.0,2.51,0.8459364970567277,-0.0057554453212201664,0.5213779170870438,0.003777041778450396,-0.054877,-43.243023
11.185,2.0,1.0,1.0,33.4,34.2,34.2,3.5,4.0,2.5125,0.842448581439929,-0.005867701846964533,0.5268836493805625,0.003786203525859966,-0.055394,-43.118894
11.185,2.0,1.0,1.0,33.4,34.2,34.2,3.5,4.0,2.515,0.8389095441196147,-0.005981944563669401,0.5323882043529609,0.003794682037400886,-0.05592,-42.99441
11.185,2.0,1.0,1.0,33.4,34.2,34.2,3.5,4.0,2.5175,0.8353188807386002,-0.006098215701822811,0.5378913464578082,0.0038024510962950727,-0.056456,-42.86956
11.185,2.0,1.0,1.0,33.4,34.2,34.2,3.5,4.0,2.52,0.831676078641543,-0.006216558696202716,0.5433928330341746,0.003809483502128648,-0.057001,-42.744333
11.185,2.0,1.0,1.0,33.4,34.2,34.2,3.5,4.0,2.5225,0.8279806167254398,-0.006337018229334893,0.5488924140721474,0.003815751028206703,-0.057556,-42.618717
11.185,2.0,1.0,1.0,33.4,34.2,34.2,3.5,4.0,2.525,0.8242319652870426,-0.006459640276870472,0.5543898319703211,0.0038212243767608576,-0.05812,-42.492702
11.185,2.0,1.0,1.0,33.4,34.2,34.2,3.5,4.0,2.5275,0.8204295858671183,-0.0065844721549836805,0.5598848212849443,0.003825873131884358,-0.058696,-42.366276
11.185,2.0,1.0,1.0,33.4,34.2,34.2,3.5,4.0,2.53,0.8165729310914565,-0.006711562569896686,0.5653771084703829,0.0038296657100608963,-0.059282,-42.239427
11.185,2.0,1.0,1.0,33.4,34.2,34.2,3.5,4.0,2.5325,0.8126614445085311,-0.006840961669644963,0.5708664116105675,0.0038325693081443044,-0.059878,-42.112143
11.185,2.0,1.0,1.0,33.4,34.2,34.2,3.5,4.0,2.535,0.8086945604237096,-0.006972721098203854,0.57635244014106,0.003834549848636717,-0.060486,-41.984412
11.185,2.0,1.0,1.0,33.4,34.2,34.2,3.5,4.0,2.5375,0.8046717037299136,-0.007106894052103696,0.581834894561356,0.0038355719221021896,-0.061106,-41.856222
11.185,2.0,1.0,1.0,33.4,34.2,34.2,3.5,4.0,2.54,0.8005922897346084,-0.007243535339669882,0.5873134661370303,0.0038355987265414333,-0.061737,-41.72756
11.185,2.0,1.0,1.0,33.4,34.2,34.2,3.5,4.0,2.5425,0.7964557239830083,-0.007382701443032023,0.5927878365913098,0.0038345920035413542,-0.06238,-41.598413
11.185,2.0,1.0,1.0,33.4,34.2,34.2,3.5,4.0,2.545,0.7922614020773725,-0.0075244505830556795,0.5982576777856324,0.0038325119709997474,-0.063035,-41.468769
11.185,2.0,1.0,1.0,33.4,34.2,34.2,3.5,4.0,2.5475,0.7880087094922612,-0.007668842787360214,0.6037226513887256,0.0038293172522114454,-0.063704,-41.338615
11.185,2.0,1.0,1.0,33.4,34.2,34.2,3.5,4.0,2.55,0.7836970213856052,-0.007815939961596548,0.6091824085337384,0.0038249648010869144,-0.064385,-41.207936
11.185,2.0,1.0,1.0,33.4,34.2,34.2,3.5,4.0,2.5525,0.7793257024054528,-0.007965805964169669,0.6146365894628908,0.0038194098232576207,-0.065079,-41.076719
11.185,2.0,1.0,1.0,33.4,34.2,34.2,3.5,4.0,2.555,0.7748941064922271,-0.008118506684603587,0.6200848231591263,0.0038126056928047894,-0.065787,-40.944949
11.185,2.0,1.0,1.0,33.4,34.2,34.2,3.5,4.0,2.5575,0.7704015766763274,-0.008274110125758495,0.6255267269641926,0.003804503864328537,-0.06651,-40.812614
11.185,2.0,1.0,1.0,33.4,34.2,34.2,3.5,4.0,2.56,0.7658474448709021,-0.00843268649012429,0.6309619061825505,0.0037950537800537218,-0.067246,-40.679697
11.185,2.0,1.0,1.0,33.4,34.2,34.2,3.5,4.0,2.5625,0.761231031659603,-0.00859430827042961,0.636389953670486,0.00378420277164564,-0.067998,-40.546185
11.185,2.0,1.0,1.0,33.4,34.2,34.2,3.5,4.0,2.565,0.7565516460791133,-0.00875905034482141,0.6418104494097624,0.0037718959563845535,-0.068765,-40.412061
11.185,2.0,1.0,1.0,33.4,34.2,34.2,3.5,4.0,2.5675,0.7518085853962436,-0.008926990076887475,0.6472229600651002,0.0037580761273207914,-0.069547,-40.27731
11.185,2.0,1.0,1.0,33.4,34.2,34.2,3.5,4.0,2.57,0.7470011348793604,-0.009098207420812642,0.652627038524751,0.0037426836370033877,-0.070346,-40.141917
11.185,2.0,1.0,1.0,33.4,34.2,34.2,3.5,4.0,2.5725,0.7421285675638998,-0.009272785031980384,0.6580222234233735,0.0037256562743434433,-0.071161,-40.005864
11.185,2.0,1.0,1.0,33.4,34.2,34.2,3.5,4.0,2.575,0.7371901440117078,-0.009450808383351508,0.6634080386463787,0.0037069291341390595,-0.071993,-39.869136
11.185,2.0,1.0,1.0,33.4,34.2,34.2,3.5,4.0,2.5775,0.7321851120639237,-0.009632365887976307,0.6687839928148586,0.003686434478751342,-0.072843,-39.731716
11.185,2.0,1.0,1.0,33.4,34.2,34.2,3.5,4.0,2.58,0.7271127065871056,-0.009817549028020739,0.674149578750158,0.003664101591380036,-0.073711,-39.593585
11.185,2.0,1.0,1.0,33.4,34.2,34.2,3.5,4.0,2.5825,0.7219721492122668,-0.010006452490714659,0.679504272917098,0.003639856620342943,-0.074598,-39.454726
11.185,2.0,1.0,1.0,33.4,34.2,34.2,3.5,4.0,2.585,0.7167626480664859,-0.010199174311658841,0.6848475348447818,0.0036136224137150513,-0.075504,-39.31512
11.185,2.0,1.0,1.0,33.4,34.2,34.2,3.5,4.0,2.5875,0.7114833974967004,-0.010395816025959542,0.6901788065238649,0.0035853183436297506,-0.076429,-39.174749
11.185,2.0,1.0,1.0,33.4,34.2,34.2,3.5,4.0,2.59,0.7061335777852944,-0.010596482827692747,0.6954975117790722,0.0035548601194873514,-0.077375,-39.033594
11.185,2.0,1.0,1.0,33.4,34.2,34.2,3.5,4.0,2.5925,0.7007123548570308,-0.010801283738237605,0.700803055615698,0.0035221595892521683,-0.078342,-38.891635
11.185,2.0,1.0,1.0,33.4,34.2,34.2,3.5,4.0,2.595,0.6952188799768733,-0.011010331784057538,0.7060948235386969,0.0034871245279507585,-0.079331,-38.748851
11.185,2.0,1.0,1.0,33.4,34.2,34.2,3.5,4.0,2.5975,0.6896522894381744,-0.011223744184551307,0.7113721808429221,0.0034496584124074376,-0.080342,-38.605221
11.185,2.0,1.0,1.0,33.4,34.2,34.2,3.5,4.0,2.6,0.6840117042406915,-0.011441642550642443,0.7166344718729372,0.0034096601811703575,-0.081376,-38.460725
11.185,2.0,1.0,1.0,33.4,34.2,34.2,3.5,4.0,2.6025,0.6782962297578398,-0.011664153094825476,0.7218810192507165,0.0033670239784899902,-0.082434,-38.31534
11.185,2.0,1.0,1.0,33.4,34.2,34.2,3.5,4.0,2.605,0.67250495539253,-0.01189140685344296,0.7271111230694512,0.0033216388811114655,-0.083516,-38.169044
11.185,2.0,1.0,1.0,33.4,34.2,34.2,3.5,4.0,2.6075,0.6666369542209065,-0.012123539922025476,0.7323240600515167,0.0032733886065319695,-0.084623,-38.021813
11.185,2.0,1.0,1.0,33.4,34.2,34.2,3.5,4.0,2.61,0.6606912826232303,-0.012360693704591705,0.7375190826685325,0.00322215120125306,-0.085757,-37.873623
11.185,2.0,1.0,1.0,33.4,34.2,34.2,3.5,4.0,2.6125,0.6546669799010892,-0.012603015177875111,0.7426954182212787,0.0031677987074239353,-0.086918,-37.724451
11.185,2.0,1.0,1.0,33.4,34.2,34.2,3.5,4.0,2.615,0.6485630678800449,-0.012850657171519767,0.7478522678770699,0.00311019680612441,-0.088107,-37.57427
11.185,2.0,1.0,1.0,33.4,34.2,34.2,3.5,4.0,2.6175,0.6423785504967642,-0.01310377866536926,0.7529888056619805,0.003049204435373491,-0.089325,-37.423054
11.185,2.0,1.0,1.0,33.4,34.2,34.2,3.5,4.0,2.62,0.6361124133695853,-0.013362545105063236,0.7581041774051261,0.002984673380769904,-0.090572,-37.270777
11.185,2.0,1.0,1.0,33.4,34.2,34.2,3.5,4.0,2.6225,0.6297636233513728,-0.013627128737252574,0.7631974996319707,0.0029164478364719576,-0.091851,-37.117411
11.185,2.0,1.0,1.0,33.4,34.2,34.2,3.5,4.0,2.625,0.623331128063445,-0.0138977089658496,0.768267858403364,0.00284436393400406,-0.093162,-36.962928
11.185,2.0,1.0,1.0,33.4,34.2,34.2,3.5,4.0,2.6275,0.6168138554092064,-0.014174472730846377,0.7733143080967684,0.0027682492361335936,-0.094506,-36.807297
11.185,2.0,1.0,1.0,33.4,34.2,34.2,3.5,4.0,2.63,0.6102107130660316,-0.014457614911357688,0.778335870125794,0.0026879221927909175,-0.095884,-36.650488
11.185,2.0,1.0,1.0,33.4,34.2,34.2,3.5,4.0,2.6325,0.6035205879537977,-0.01474733875468344,0.7833315315938485,0.002603191555705031,-0.097298,-36.49247
11.185,2.0,1.0,1.0,33.4,34.2,34.2,3.5,4.0,2.635,0.5967423456783256,-0.015043856333333433,0.788300243877319,0.002513855748093201,-0.098749,-36.333211
11.185,2.0,1.0,1.0,33.4,34.2,34.2,3.5,4.0,2.6375,0.5898748299478322,-0.01534738903211966,0.7932409211332979,0.0024197021853711365,-0.100239,-36.172676
11.185,2.0,1.0,1.0,33.4,34.2,34.2,3.5,4.0,2.64,0.5829168619603077,-0.015658168067599666,0.7981524387264114,0.0023205065424351454,-0.101768,-36.010831
11.185,2.0,1.0,1.0,33.4,34.2,34.2,3.5,4.0,2.6425,0.5758672397595682,-0.01597643504234639,0.8030336315687793,0.0022160319626061318,-0.103339,-35.84764
11.185,2.0,1.0,1.0,33.4,34.2,34.2,3.5,4.0,2.645,0.5687247375575001,-0.01630244253673201,0.8078832923665911,0.002106028202807669,-0.104953,-35.683066
11.185,2.0,1.0,1.0,33.4,34.2,34.2,3.5,4.0,2.6475,0.5614881050197984,-0.016636454741143485,0.8127001697661353,0.0019902307089729675,-0.106612,-35.517071
11.185,2.0,1.0,1.0,33.4,34.2,34.2,3.5,4.0,2.65,0.5541560665122315,-0.016978748131799642,0.8174829663914278,0.0018683596150277804,-0.108318,-35.349614
11.185,2.0,1.0,1.0,33.4,34.2,34.2,3.5,4.0,2.6525,0.5467273203042236,-0.01732961219361385,0.8222303367647767,0.001740118658070568,-0.110072,-35.180653
11.185,2.0,1.0,1.0,33.4,34.2,34.2,3.5,4.0,2.655,0.5392005377261933,-0.017689350193847937,0.8269408851007671,0.0016051940015558669,-0.111877,-35.010147
11.185,2.0,1.0,1.0,33.4,34.2,34.2,3.5,4.0,2.6575,0.5315743622767947,-0.01805828001063103,0.8316131629631403,0.0014632529573696666,-0.113734,-34.838051
11.185,2.0,1.0,1.0,33.4,34.2,34.2,3.5,4.0,2.66,0.5238474086758187,-0.018436735020775172,0.8362456667729413,0.001313942596653804,-0.115646,-34.664317
11.185,2.0,1.0,1.0,33.4,34.2,34.2,3.5,4.0,2.6625,0.5160182618581269,-0.018825065051712744,0.8408368351550615,0.0011568882380716778,-0.117616,-34.488899
11.185,2.0,1.0,1.0,33.4,34.2,34.2,3.5,4.0,2.665,0.5080854759035245,-0.019223637402808344,0.845385046108904,0.0009916918008927975,-0.119645,-34.311746
11.185,2.0,1.0,1.0,33.4,34.2,34.2,3.5,4.0,2.6675,0.5000475728970304,-0.019632837941764524,0.8498886139873013,0.000817930008787271,-0.121737,-34.132807
11.185,2.0,1.0,1.0,33.4,34.2,34.2,3.5,4.0,2.67,0.49190304171344695,-0.020053072282353354,0.85434578626605,0.0006351524285359392,-0.123894,-33.952027
11.185,2.0,1.0,1.0,33.4,34.2,34.2,3.5,4.0,2.6725,0.48365033671954977,-0.020484767050259603,0.8587547400843821,0.0004428793259516052,-0.12612,-33.76935
11.185,2.0,1.0,1.0,33.4,34.2,34.2,3.5,4.0,2.675,0.47528787638661685,-0.020928371244429665,0.8631135785344047,0.00024059931913506,-0.128418,-33.584717
11.185,2.0,1.0,1.0,33.4,34.2,34.2,3.5,4.0,2.6775,0.4668140418052816,-0.021384357701979308,0.8674203266749436,2.7766806717897665e-05,-0.13079,-33.398068
11.185,2.0,1.0,1.0,33.4,34.2,34.2,3.5,4.0,2.68,0.45822717509396543,-0.021853224675431104,0.871672927242244,-0.0001962008540739717,-0.133242,-33.209339
11.185,2.0,1.0,1.0,33.4,34.2,34.2,3.5,4.0,2.6825,0.4495255776913152,-0.022335497531829774,0.8758692360266204,-0.00043192644791989287,-0.135776,-33.018464
11.185,2.0,1.0,1.0,33.4,34.2,34.2,3.5,4.0,2.685,0.4407075085221704,-0.022831730584126096,0.8800070168802786,-0.0006800763125337999,-0.138396,-32.825372
11.185,2.0,1.0,1.0,33.4,34.2,34.2,3.5,4.0,2.6875,0.431771182025614,-0.0233425090661284,0.884083936317127,-0.000941364096709318,-0.141108,-32.629992
11.185,2.0,1.0,1.0,33.4,34.2,34.2,3.5,4.0,2.69,0.4227147660326308,-0.023868451263296467,0.8880975576603272,-0.0012165549064128694,-0.143917,-32.432247
11.185,2.0,1.0,1.0,33.4,34.2,34.2,3.5,4.0,2.6925,0.41353637947972827,-0.024410210812700055,0.8920453346875387,-0.0015064698856325149,-0.146826,-32.23206
11.185,2.0,1.0,1.0,33.4,34.2,34.2,3.5,4.0,2.695,0.4042340899437213,-0.024968479186573175,0.8959246047171066,-0.0018119912851153048,-0.149842,-32.029346
11.185,2.0,1.0,1.0,33.4,34.2,34.2,3.5,4.0,2.6975,0.39480591098153434,-0.025543988375074236,0.89973258107076,-0.002134068079550434,-0.15297,-31.824019
11.185,2.0,1.0,1.0,33.4,34.2,34.2,3.5,4.0,2.7,0.3852497992575782,-0.026137513785086924,0.903466344839443,-0.0024737222023437956,-0.156217,-31.615987
11.185,2.0,1.0,1.0,33.4,34.2,34.2,3.5,4.0,2.7025,0.37556365143979326,-0.026749877373170555,0.9071228358686225,-0.0028320554770953333,-0.159591,-31.405156
11.185,2.0,1.0,1.0,33.4,34.2,34.2,3.5,4.0,2.705,0.36574530084403034,-0.027381951032054735,0.9106988428674053,-0.003210257336469016,-0.163097,-31.191424
11.185,2.0,1.0,1.0,33.4,34.2,34.2,3.5,4.0,2.7075,0.35579251380494376,-0.028034660251355033,0.9141909925318891,-0.0036096134326375393,-0.166744,-30.974687
11.185,2.0,1.0,1.0,33.4,34.2,34.2,3.5,4.0,2.71,0.3457029857501527,-0.02870898807440847,0.9175957375569108,-0.004031515259231676,-0.170541,-30.754834
11.185,2.0,1.0,1.0,33.4,34.2,34.2,3.5,4.0,2.7125,0.33547433695304507,-0.02940597937423663,0.9209093433913829,-0.00447747092315781,-0.174497,-30.531748
11.185,2.0,1.0,1.0,33.4,34.2,34.2,3.5,4.0,2.715,0.325104107938427,-0.030126745472549493,0.924127873570141,-0.004949117226266124,-0.178622,-30.305307
11.185,2.0,1.0,1.0,33.4,34.2,34.2,3.5,4.0,2.7175,0.31458975451429744,-0.030872469126289413,0.9272471734291146,-0.005448233242277383,-0.182928,-30.075381
11.185,2.0,1.0,1.0,33.4,34.2,34.2,3.5,4.0,2.72,0.3039286424025683,-0.03164440990631992,0.9302628519798403,-0.0059767556043465835,-0.187426,-29.841834
11.185,2.0,1.0,1.0,33.4,34.2,34.2,3.5,4.0,2.7225,0.29311804144168563,-0.03244390999227431,0.933170261683017,-0.0065367957540674385,-0.192129,-29.604522
11.185,2.0,1.0,1.0,33.4,34.2,34.2,3.5,4.0,2.725,0.28215511933526377,-0.03327240040599102,0.9359644758177755,-0.00713065944469625,-0.197052,-29.363293
11.185,2.0,1.0,1.0,33.4,34.2,34.2,3.5,4.0,2.7275,0.27103693492320385,-0.0341314077029929,0.9386402630922793,-0.007760868841256127,-0.202211,-29.117987
11.185,2.0,1.0,1.0,33.4,34.2,34.2,3.5,4.0,2.73,0.2597604309561091,-0.03502256113656265,0.9411920590804729,-0.008430187619609727,-0.207622,-28.868431
11.185,2.0,1.0,1.0,33.4,34.2,34.2,3.5,4.0,2.7325,0.24832242636059018,-0.035947600301421925,0.9436139339972256,-0.009141649537604516,-0.213305,-28.614448
11.185,2.0,1.0,1.0,33.4,34.2,34.2,3.5,4.0,2.735,0.2367196079934508,-0.03690838325284928,0.9458995562372036,-0.009898591036488108,-0.219281,-28.355844
11.185,2.0,1.0,1.0,33.4,34.2,34.2,3.5,4.0,2.7375,0.22494852189789316,-0.037906895080972544,0.9480421509984467,-0.010704688533066747,-0.225573,-28.092418
11.185,2.0,1.0,1.0,33.4,34.2,34.2,3.5,4.0,2.74,0.21300556409666085,-0.03894525689716148,0.9500344531858835,-0.011564001186365495,-0.232206,-27.823952
11.185,2.0,1.0,1.0,33.4,34.2,34.2,3.5,4.0,2.7425,0.20088697098772085,-0.04002573515754138,0.9518686536381069,-0.012481020071622077,-0.239209,-27.550218
11.185,2.0,1.0,1.0,33.4,34.2,34.2,3.5,4.0,2.745,0.18858880945101797,-0.04115075120438409,0.9535363375365703,-0.013460724875249342,-0.246614,-27.270971
11.185,2.0,1.0,1.0,33.4,34.2,34.2,3.5,4.0,2.7475,0.17610696683429836,-0.042322890845103565,0.9550284136324257,-0.014508649444382259,-0.254455,-26.985949
11.185,2.0,1.0,1.0,33.4,34.2,34.2,3.5,4.0,2.75,0.163437141068106,-0.0435449137047529,0.956335032653063,-0.0156309577931063,-0.262773,-26.694875
11.185,2.0,1.0,1.0,33.4,34.2,34.2,3.5,4.0,2.7525,0.15057483127295876,-0.044819761973047406,0.9574454929160964,-0.016834532496170382,-0.271612,-26.397451
11.185,2.0,1.0,1.0,33.4,34.2,34.2,3.5,4.0,2.755,0.13751532937676927,-0.046150568009693665,0.9583481307681466,-0.01812707780468228,-0.281021,-26.093358
11.185,2.0,1.0,1.0,33.4,34.2,34.2,3.5,4.0,2.7575,0.12425371347334783,-0.04754066005658017,0.9590301929603562,-0.01951724031560083,-0.291058,-25.782255
11.185,2.0,1.0,1.0,33.4,34.2,34.2,3.5,4.0,2.76,0.11078484394504338,-0.04899356501052848,0.9594776874483009,-0.02101475064129032,-0.301785,-25.463776
11.185,2.0,1.0,1.0,33.4,34.2,34.2,3.5,4.0,2.7625,0.09710336377423093,-0.05051300680574614,0.9596752083306074,-0.0226305902867516,-0.313277,-25.137527
11.185,2.0,1.0,1.0,33.4,34.2,34.2,3.5,4.0,2.765,0.08320370502173018,-0.05210289839875097,0.9596057296800544,-0.02437718888793147,-0.325615,-24.803086
11.185,2.0,1.0,1.0,33.4,34.2,34.2,3.5,4.0,2.7675,0.06908010421453992,-0.053767324581226454,0.9592503618250281,-0.026268658142137996,-0.338896,-24.459996
11.185,2.0,1.0,1.0,33.4,34.2,34.2,3.5,4.0,2.77,0.054726630444279174,-0.05551051178443736,0.9585880621474787,-0.02832107023057217,-0.353227,-24.107767
11.185,2.0,1.0,1.0,33.4,34.2,34.2,3.5,4.0,2.7725,0.04013723145070068,-0.05733677956372701,0.9575952906002568,-0.030552790367636633,-0.368737,-23.745868
11.185,2.0,1.0,1.0,33.4,34.2,34.2,3.5,4.0,2.775,0.02530580502179856,-0.059250466393540216,0.9562455978184847,-0.03298487540381076,-0.385571,-23.373725
11.185,2.0,1.0,1.0,33.4,34.2,34.2,3.5,4.0,2.7775,0.010226305928497327,-0.06125581951840192,0.954509130792536,-0.03564155326993528,-0.4039,-22.990718
11.185,2.0,1.0,1.0,33.4,34.2,34.2,3.5,4.0,2.78,-0.005107097317911936,-0.06335683454057975,0.9523520374496979,-0.03855080161232377,-0.423925,-22.596174
11.185,2.0,1.0,1.0,33.4,34.2,34.2,3.5,4.0,2.7825,-0.020699795827590965,-0.06555702466764089,0.9497357470055217,-0.04174504837814234,-0.445882,-22.189363
11.185,2.0,1.0,1.0,33.4,34.2,34.2,3.5,4.0,2.785,-0.03655641553089263,-0.06785909134216951,0.946616097437176,-0.0452620225205906,-0.47005,-21.769494
11.185,2.0,1.0,1.0,33.4,34.2,34.2,3.5,4.0,2.7875,-0.052680354141520176,-0.07026445622747288,0.9429422747682797,-0.04914578952771332,-0.496764,-21.335707
11.185,2.0,1.0,1.0,33.4,34.2,34.2,3.5,4.0,2.79,-0.06907312281312951,-0.07277259759564211,0.9386555209979529,-0.05344801416733964,-0.526421,-20.88707
11.185,2.0,1.0,1.0,33.4,34.2,34.2,3.5,4.0,2.7925,-0.08573341077282631,-0.07538010963735198,0.9336875586431925,-0.058229501484179574,-0.559505,-20.42257
11.185,2.0,1.0,1.0,33.4,34.2,34.2,3.5,4.0,2.795,-0.10265575529458784,-0.0780793674873643,0.9279586706725295,-0.06356207598857844,-0.596601,-19.941109
11.185,2.0,1.0,1.0,33.4,34.2,34.2,3.5,4.0,2.7975,-0.11982864678232959,-0.0808566284849324,0.921375366775174,-0.06953086643663071,-0.638425,-19.441503
11.185,2.0,1.0,1.0,33.4,34.2,34.2,3.5,4.0,2.8,-0.13723182146560015,-0.0836893234393072,0.9138275641021123,-0.07623706593106118,-0.685862,-18.922477
11.185,2.0,1.0,1.0,33.4,34.2,34.2,3.5,4.0,2.8025,-0.15483238052638867,-0.0865421788262472,0.9051852203371207,-0.08380122675586223,-0.740007,-18.382669
11.185,2.0,1.0,1.0,33.4,34.2,34.2,3.5,4.0,2.805,-0.17257920747775135,-0.08936164520502497,0.8952943940216463,-0.09236711159074752,-0.802236,-17.820639
11.185,2.0,1.0,1.0,33.4,34.2,34.2,3.5,4.0,2.8075,-0.19039491192901284,-0.0920678656612055,0.8839728000788523,-0.10210602899503077,-0.874282,-17.234892
11.185,2.0,1.0,1.0,33.4,34.2,34.2,3.5,4.0,2.81,-0.20816417763092265,-0.09454307138585895,0.8710051318145012,-0.11322137716580383,-0.958352,-16.623916
11.185,2.0,1.0,1.0,33.4,34.2,34.2,3.5,4.0,2.8125,-0.225716904372041,-0.0966148088450121,0.856138835995315,-0.125952704821956,-1.057272,-15.986252
11.185,2.0,1.0,1.0,33.4,34.2,34.2,3.5,4.0,2.815,-0.24280389258288823,-0.09803177117558647,0.839081841469235,-0.14057778632061205,-1.174686,-15.320614
11.185,2.0,1.0,1.0,33.4,34.2,34.2,3.5,4.0,2.8175,-0.25906208459816543,-0.09842928506347791,0.8195052863301784,-0.15740967028405253,-1.315307,-14.626075
11.185,2.0,1.0,1.0,33.4,34.2,34.2,3.5,4.0,2.82,-0.27396582105945977,-0.09728096817312373,0.7970571246276744,-0.176782841731735,-1.485231,-13.902375
11.185,2.0,1.0,1.0,33.4,34.2,34.2,3.5,4.0,2.8225,-0.2867610214099477,-0.09383354653624015,0.7713974729487868,-0.19901769556233664,-1.692279,-13.1504
11.185,2.0,1.0,1.0,33.4,34.2,34.2,3.5,4.0,2.825,-0.2963827530976133,-0.08702539610141766,0.7422746726784405,-0.22434447975008454,-1.946253,-12.372924
11.185,2.0,1.0,1.0,33.4,34.2,34.2,3.5,4.0,2.8275,-0.3013679845899816,-0.07540068560342619,0.7096724480731693,-0.2527566035359934,-2.258791,-11.575707
