1,w,sub_t,h,l1,l2,l3,g1,g2,Freq,S11_re,S21_re,S11_img,S21_img,S11_dB,S21_dB
11.185,2.0,1.0,1.0,34.4,33.9,33.9,2.6,3.7,2.5,0.718211520071586,-0.0119042810787812,0.684025096813127,0.0054566594704689,-0.071293,-37.657687
11.185,2.0,1.0,1.0,34.4,33.9,33.9,2.6,3.7,2.5025,0.712617928772068,-0.01211654296584598,0.6897233617851304,0.005425540170005203,-0.072068,-37.53878
11.185,2.0,1.0,1.0,34.4,33.9,33.9,2.6,3.7,2.505,0.7069480616415905,-0.012332172242238253,0.6954052333514067,0.005391880942701021,-0.072857,-37.4195
11.185,2.0,1.0,1.0,34.4,33.9,33.9,2.6,3.7,2.5075,0.701201149105208,-0.012551221899138973,0.7010699783546598,0.005355594534583068,-0.07366,-37.29984
11.185,2.0,1.0,1.0,34.4,33.9,33.9,2.6,3.7,2.51,0.6953764133505598,-0.012773745655921416,0.7067168425732938,0.005316590729863239,-0.074478,-37.179793
11.185,2.0,1.0,1.0,34.4,33.9,33.9,2.6,3.7,2.5125,0.6894730683701024,-0.012999797957854192,0.712345050108049,0.0052747762427206085,-0.075311,-37.059352
11.185,2.0,1.0,1.0,34.4,33.9,33.9,2.6,3.7,2.515,0.6834903200123855,-0.013229433972731212,0.7179538027510923,0.005230054604787845,-0.076159,-36.938509
11.185,2.0,1.0,1.0,34.4,33.9,33.9,2.6,3.7,2.5175,0.6774273660429281,-0.013462709586340429,0.7235422793370555,0.005182326048155563,-0.077022,-36.817257
11.185,2.0,1.0,1.0,34.4,33.9,33.9,2.6,3.7,2.52,0.6712833962152448,-0.013699681396681573,0.7291096350755546,0.005131487383697615,-0.077902,-36.69559
11.185,2.0,1.0,1.0,34.4,33.9,33.9,2.6,3.7,2.5225,0.665057592352647,-0.013940406706834718,0.7346550008646493,0.005077431874511924,-0.078799,-36.573499
11.185,2.0,1.0,1.0,34.4,33.9,33.9,2.6,3.7,2.525,0.6587491284414286,-0.014184943516374775,0.7401774825847555,0.005020049104262478,-0.079712,-36.450977
11.185,2.0,1.0,1.0,34.4,33.9,33.9,2.6,3.7,2.5275,0.6523571707360986,-0.014433350511221658,0.7456761603724615,0.004959224840194684,-0.080642,-36.328016
11.185,2.0,1.0,1.0,34.4,33.9,33.9,2.6,3.7,2.53,0.6458808778773625,-0.014685687051805488,0.7511500878737071,0.004894840890587364,-0.08159,-36.204609
11.185,2.0,1.0,1.0,34.4,33.9,33.9,2.6,3.7,2.5325,0.6393194010235752,-0.014942013159420895,0.7565982914757735,0.004826774956392874,-0.082556,-36.080747
11.185,2.0,1.0,1.0,34.4,33.9,33.9,2.6,3.7,2.535,0.6326718839964209,-0.015202389500633934,0.7620197695175152,0.004754900476802229,-0.083541,-35.956423
11.185,2.0,1.0,1.0,34.4,33.9,33.9,2.6,3.7,2.5375,0.6259374634416374,-0.015466877369596371,0.7674134914772447,0.004679086468461114,-0.084544,-35.831629
11.185,2.0,1.0,1.0,34.4,33.9,33.9,2.6,3.7,2.54,0.6191152690056125,-0.015735538668112562,0.7727783971376881,0.004599197358048215,-0.085568,-35.706357
11.185,2.0,1.0,1.0,34.4,33.9,33.9,2.6,3.7,2.5425,0.6122044235287354,-0.01600843588329227,0.7781133957273932,0.004515092807910861,-0.086611,-35.580598
11.185,2.0,1.0,1.0,34.4,33.9,33.9,2.6,3.7,2.545,0.6052040432564312,-0.01628563206261353,0.7834173650379771,0.004426627534440077,-0.087674,-35.454343
11.185,2.0,1.0,1.0,34.4,33.9,33.9,2.6,3.7,2.5475,0.5981132380688543,-0.016567190786204264,0.7886891505165701,0.004333651118847817,-0.088759,-35.327585
11.185,2.0,1.0,1.0,34.4,33.9,33.9,2.6,3.7,2.55,0.5909311117302383,-0.016853176136142425,0.7939275643328229,0.004236007809994062,-0.089864,-35.200314
11.185,2.0,1.0,1.0,34.4,33.9,33.9,2.6,3.7,2.5525,0.583656762158999,-0.01714365266255559,0.7991313844197931,0.004133536318890255,-0.090992,-35.072523
11.185,2.0,1.0,1.0,34.4,33.9,33.9,2.6,3.7,2.555,0.5762892817196843,-0.01743868534629024,0.8042993534880586,0.004026069604487971,-0.092143,-34.9442
11.185,2.0,1.0,1.0,34.4,33.9,33.9,2.6,3.7,2.5575,0.5688277575379526,-0.017738339557902005,0.8094301780123533,0.003913434650340263,-0.093317,-34.815339
11.185,2.0,1.0,1.0,34.4,33.9,33.9,2.6,3.7,2.56,0.5612712718398161,-0.018042681012702157,0.814522527190027,0.003795452231699989,-0.094514,-34.685929
11.185,2.0,1.0,1.0,34.4,33.9,33.9,2.6,3.7,2.5625,0.5536189023164324,-0.018351775721576556,0.8195750318706059,0.0036719366725953,-0.095736,-34.555961
11.185,2.0,1.0,1.0,34.4,33.9,33.9,2.6,3.7,2.565,0.5458697225157946,-0.01866568993727269,0.8245862834557333,0.003542695592401047,-0.096983,-34.425425
11.185,2.0,1.0,1.0,34.4,33.9,33.9,2.6,3.7,2.5675,0.538022802262748,-0.01898449009583087,0.8295548327687203,0.003407529641392752,-0.098256,-34.294312
11.185,2.0,1.0,1.0,34.4,33.9,33.9,2.6,3.7,2.57,0.5300772081088093,-0.019308242752809512,0.834479188892966,0.003266232224745456,-0.099555,-34.162612
11.185,2.0,1.0,1.0,34.4,33.9,33.9,2.6,3.7,2.5725,0.5220320038133499,-0.01963701451393349,0.8393578179784565,0.003118589214407478,-0.100881,-34.030315
11.185,2.0,1.0,1.0,34.4,33.9,33.9,2.6,3.7,2.575,0.513886250857776,-0.01997087195976361,0.8441891420155505,0.0029643786482477924,-0.102235,-33.89741
11.185,2.0,1.0,1.0,34.4,33.9,33.9,2.6,3.7,2.5775,0.5056390089944196,-0.020309881563958753,0.848971537575242,0.0028033704158411015,-0.103618,-33.763888
11.185,2.0,1.0,1.0,34.4,33.9,33.9,2.6,3.7,2.58,0.4972893368319357,-0.02065410960467282,0.8537033345150723,0.002635325930216809,-0.10503,-33.629736
11.185,2.0,1.0,1.0,34.4,33.9,33.9,2.6,3.7,2.5825,0.4888362924590803,-0.021003622068589935,0.85838281464985,0.002459997784861524,-0.106472,-33.494946
11.185,2.0,1.0,1.0,34.4,33.9,33.9,2.6,3.7,2.585,0.4802789341088515,-0.021358484547070386,0.8630082103863174,0.00227712939522123,-0.107945,-33.359505
11.185,2.0,1.0,1.0,34.4,33.9,33.9,2.6,3.7,2.5875,0.47161632086504823,-0.02171876212383908,0.867577703320884,0.0020864546239034464,-0.10945,-33.223402
11.185,2.0,1.0,1.0,34.4,33.9,33.9,2.6,3.7,2.59,0.4628475134134305,-0.022084519253604287,0.8720894227995307,0.0018876973887345721,-0.110988,-33.086626
11.185,2.0,1.0,1.0,34.4,33.9,33.9,2.6,3.7,2.5925,0.4539715748397347,-0.022455819630951262,0.876541444438971,0.0016805712527760146,-0.11256,-32.949165
11.185,2.0,1.0,1.0,34.4,33.9,33.9,2.6,3.7,2.595,0.44498757147695045,-0.022832726048804753,0.8809317886081253,0.001464778995345954,-0.114166,-32.811008
11.185,2.0,1.0,1.0,34.4,33.9,33.9,2.6,3.7,2.5975,0.4358945738043336,-0.02321530024570169,0.8852584188689623,0.001240012163036869,-0.115808,-32.672141
11.185,2.0,1.0,1.0,34.4,33.9,33.9,2.6,3.7,2.6,0.42669165740079174,-0.023603602741056794,0.8895192403757215,0.0010059505996564738,-0.117487,-32.532553
11.185,2.0,1.0,1.0,34.4,33.9,33.9,2.6,3.7,2.6025,0.4173779039553916,-0.023997692657541536,0.8937120982315094,0.0007622619539509575,-0.119204,-32.392231
11.185,2.0,1.0,1.0,34.4,33.9,33.9,2.6,3.7,2.605,0.4079524023378643,-0.02439762752962856,0.8978347758012564,0.0005086011638990394,-0.120959,-32.251161
11.185,2.0,1.0,1.0,34.4,33.9,33.9,2.6,3.7,2.6075,0.3984142497321417,-0.02480346309727939,0.9018849929799626,0.00024460991628523433,-0.122755,-32.109331
11.185,2.0,1.0,1.0,34.4,33.9,33.9,2.6,3.7,2.61,0.38876255283610617,-0.025215253083675556,0.9058604044151627,-3.0083919819806988e-05,-0.124591,-31.966727
11.185,2.0,1.0,1.0,34.4,33.9,33.9,2.6,3.7,2.6125,0.37899642913088033,-0.025633048955799275,0.9097585976824877,-0.0003158668871352673,-0.126471,-31.823335
11.185,2.0,1.0,1.0,34.4,33.9,33.9,2.6,3.7,2.615,0.36911500822316096,-0.026056899666585285,0.9135770914131842,-0.000613140563362411,-0.128394,-31.679141
11.185,2.0,1.0,1.0,34.4,33.9,33.9,2.6,3.7,2.6175,0.3591174332642886,-0.026486851377248113,0.9173133333723971,-0.0009223222151561143,-0.130362,-31.53413
11.185,2.0,1.0,1.0,34.4,33.9,33.9,2.6,3.7,2.62,0.3490028624499117,-0.0269229471582907,0.9209646984869984,-0.0012438454846509766,-0.132377,-31.388288
11.185,2.0,1.0,1.0,34.4,33.9,33.9,2.6,3.7,2.6225,0.33877047060430776,-0.02736522666756396,0.9245284868216962,-0.001578161110437377,-0.13444,-31.241599
11.185,2.0,1.0,1.0,34.4,33.9,33.9,2.6,3.7,2.625,0.328419450853663,-0.0278137258036201,0.928001921502099,-0.00192573768501474,-0.136552,-31.094047
11.185,2.0,1.0,1.0,34.4,33.9,33.9,2.6,3.7,2.6275,0.31794901639278067,-0.028268476332452126,0.9313821465833728,-0.002287062450886803,-0.138716,-30.945617
11.185,2.0,1.0,1.0,34.4,33.9,33.9,2.6,3.7,2.63,0.30735840234998413,-0.028729505485551327,0.9346662248630597,-0.0026626421376191468,-0.140932,-30.796292
11.185,2.0,1.0,1.0,34.4,33.9,33.9,2.6,3.7,2.6325,0.2966468677551967,-0.02919683552703524,0.9378511356365634,-0.0030530038423385868,-0.143202,-30.646056
11.185,2.0,1.0,1.0,34.4,33.9,33.9,2.6,3.7,2.635,0.285813697616469,-0.029670483287409167,0.9409337723937327,-0.0034586959563383474,-0.145529,-30.49489
11.185,2.0,1.0,1.0,34.4,33.9,33.9,2.6,3.7,2.6375,0.27485820511051934,-0.030150459661305223,0.943910940454888,-0.0038802891406348305,-0.147914,-30.342778
11.185,2.0,1.0,1.0,34.4,33.9,33.9,2.6,3.7,2.64,0.2637797338931308,-0.0306367690663154,0.946779354544563,-0.0043183773535419,-0.15036,-30.189701
11.185,2.0,1.0,1.0,34.4,33.9,33.9,2.6,3.7,2.6425,0.25257766053563446,-0.031129408859771147,0.949535636301097,-0.004773578933543973,-0.152867,-30.03564
11.185,2.0,1.0,1.0,34.4,33.9,33.9,2.6,3.7,2.645,0.24125139709401727,-0.03162836871004275,0.952176311720138,-0.005246537740998933,-0.155438,-29.880576
11.185,2.0,1.0,1.0,34.4,33.9,33.9,2.6,3.7,2.6475,0.22980039381762038,-0.03213362991861583,0.9546978085299518,-0.005737924362463824,-0.158076,-29.72449
11.185,2.0,1.0,1.0,34.4,33.9,33.9,2.6,3.7,2.65,0.21822414200475732,-0.03264516468885972,0.9570964534963244,-0.006248437381729782,-0.160782,-29.567361
11.185,2.0,1.0,1.0,34.4,33.9,33.9,2.6,3.7,2.6525,0.2065221770131227,-0.03316293533701655,0.9593684696546395,-0.0067788047219557454,-0.16356,-29.409168
11.185,2.0,1.0,1.0,34.4,33.9,33.9,2.6,3.7,2.655,0.19469408143323397,-0.03368689344052442,0.9615099734665742,-0.007329785063640475,-0.166411,-29.249889
11.185,2.0,1.0,1.0,34.4,33.9,33.9,2.6,3.7,2.6575,0.18273948843378954,-0.034216978918309215,0.9635169718986264,-0.007902169343535069,-0.169339,-29.089503
11.185,2.0,1.0,1.0,34.4,33.9,33.9,2.6,3.7,2.66,0.17065808528832851,-0.03475311903717617,0.9653853594194608,-0.008496782340002635,-0.172346,-28.927987
11.185,2.0,1.0,1.0,34.4,33.9,33.9,2.6,3.7,2.6625,0.1584496170932691,-0.03529522733784083,0.9671109149128077,-0.009114484350767428,-0.175434,-28.765316
11.185,2.0,1.0,1.0,34.4,33.9,33.9,2.6,3.7,2.665,0.14611389068803293,-0.035843202473509396,0.9686892985023648,-0.009756172969475289,-0.178608,-28.601467
11.185,2.0,1.0,1.0,34.4,33.9,33.9,2.6,3.7,2.6675,0.1336507787887911,-0.03639692695320445,0.9701160482848094,-0.010422784968003652,-0.18187,-28.436415
11.185,2.0,1.0,1.0,34.4,33.9,33.9,2.6,3.7,2.67,0.1210602243481462,-0.03695626578123433,0.9713865769666898,-0.011115298292023415,-0.185223,-28.270133
11.185,2.0,1.0,1.0,34.4,33.9,33.9,2.6,3.7,2.6725,0.10834224515401002,-0.03752106498332279,0.9724961684005355,-0.01183473417793533,-0.188672,-28.102596
11.185,2.0,1.0,1.0,34.4,33.9,33.9,2.6,3.7,2.675,0.09549693868196675,-0.03809115000893037,0.9734399740150814,-0.012582159399972254,-0.192219,-27.933774
11.185,2.0,1.0,1.0,34.4,33.9,33.9,2.6,3.7,2.6775,0.08252448721650965,-0.03866632399818243,0.9742130091339902,-0.013358688656995537,-0.19587,-27.763641
11.185,2.0,1.0,1.0,34.4,33.9,33.9,2.6,3.7,2.68,0.06942516325781393,-0.039246365900594736,0.9748101491768723,-0.014165487109306657,-0.199627,-27.592166
11.185,2.0,1.0,1.0,34.4,33.9,33.9,2.6,3.7,2.6825,0.056199335232101466,-0.03983102843138862,0.9752261257357852,-0.01500377307667998,-0.203495,-27.419319
11.185,2.0,1.0,1.0,34.4,33.9,33.9,2.6,3.7,2.685,0.04284747352518505,-0.04042003584963534,0.9754555225196536,-0.015874820909761136,-0.207479,-27.245068
11.185,2.0,1.0,1.0,34.4,33.9,33.9,2.6,3.7,2.6875,0.0293701568605422,-0.0410130815407166,0.975492771158279,-0.0167799640480297,-0.211584,-27.069381
11.185,2.0,1.0,1.0,34.4,33.9,33.9,2.6,3.7,2.69,0.01576807904521729,-0.041609825383617995,0.9753321468567003,-0.017720598278644528,-0.215814,-26.892223
11.185,2.0,1.0,1.0,34.4,33.9,33.9,2.6,3.7,2.6925,0.0020420561089907305,-0.04220989088134875,0.9749677638896875,-0.018698185211743323,-0.220176,-26.71356
11.185,2.0,1.0,1.0,34.4,33.9,33.9,2.6,3.7,2.695,-0.011806966135196866,-0.04281286203027644,0.9743935709250389,-0.019714255989106273,-0.224674,-26.533355
11.185,2.0,1.0,1.0,34.4,33.9,33.9,2.6,3.7,2.6975,-0.025777904078922113,-0.043418279901330514,0.973603346163141,-0.020770415244573542,-0.229315,-26.35157
11.185,2.0,1.0,1.0,34.4,33.9,33.9,2.6,3.7,2.7,-0.03986952782015689,-0.04402563890282494,0.9725906922788778,-0.021868345336206296,-0.234106,-26.168165
11.185,2.0,1.0,1.0,34.4,33.9,33.9,2.6,3.7,2.7025,-0.05408045214200885,-0.04463438269101379,0.9713490311504782,-0.023009810871936133,-0.239052,-25.983101
11.185,2.0,1.0,1.0,34.4,33.9,33.9,2.6,3.7,2.705,-0.06840912692687244,-0.04524389969037432,0.9698715983582284,-0.02419666355233976,-0.244162,-25.796334
11.185,2.0,1.0,1.0,34.4,33.9,33.9,2.6,3.7,2.7075,-0.0828538269600339,-0.045853518180923945,0.9681514374341218,-0.02543084735624963,-0.249443,-25.607821
11.185,2.0,1.0,1.0,34.4,33.9,33.9,2.6,3.7,2.71,-0.09741264107151823,-0.0464625009045496,0.9661813938415188,-0.026714404097154896,-0.254903,-25.417515
11.185,2.0,1.0,1.0,34.4,33.9,33.9,2.6,3.7,2.7125,-0.11208346055906654,-0.04707003913624635,0.9639541086616349,-0.028049479380770768,-0.26055,-25.22537
11.185,2.0,1.0,1.0,34.4,33.9,33.9,2.6,3.7,2.715,-0.1268639668283162,-0.047675246159230106,0.9614620119612515,-0.02943832899679055,-0.266395,-25.031334
11.185,2.0,1.0,1.0,34.4,33.9,33.9,2.6,3.7,2.7175,-0.14175161817852655,-0.04827715007496231,0.95869731581338,-0.030883325780659533,-0.272447,-24.835356
11.185,2.0,1.0,1.0,34.4,33.9,33.9,2.6,3.7,2.72,-0.1567436356532423,-0.04887468587003989,0.9556520069396903,-0.032386966984260454,-0.278716,-24.637383
11.185,2.0,1.0,1.0,34.4,33.9,33.9,2.6,3.7,2.7225,-0.1718369878651388,-0.04946668665151233,0.9523178389403865,-0.033951882197655915,-0.285213,-24.437357
11.185,2.0,1.0,1.0,34.4,33.9,33.9,2.6,3.7,2.725,-0.18702837469244343,-0.050051873950224104,0.9486863240738153,-0.035580841867506395,-0.291952,-24.23522
11.185,2.0,1.0,1.0,34.4,33.9,33.9,2.6,3.7,2.7275,-0.2023142097308781,-0.05062884697804612,0.9447487245444457,-0.03727676646145515,-0.298944,-24.03091
11.185,2.0,1.0,1.0,34.4,33.9,33.9,2.6,3.7,2.73,-0.21769060136935428,-0.05119607070902835,0.9404960432540168,-0.03904273633163306,-0.306204,-23.824364
11.185,2.0,1.0,1.0,34.4,33.9,33.9,2.6,3.7,2.7325,-0.23315333233964555,-0.05175186263624103,0.9359190139665696,-0.04088200233444691,-0.313747,-23.615513
11.185,2.0,1.0,1.0,34.4,33.9,33.9,2.6,3.7,2.735,-0.2486978375692987,-0.05229437803496471,0.9310080908338392,-0.042797997267930724,-0.321588,-23.404289
11.185,2.0,1.0,1.0,34.4,33.9,33.9,2.6,3.7,2.7375,-0.2643191801428317,-0.0528215935384654,0.9257534372231748,-0.0447943481920919,-0.329746,-23.190616
11.185,2.0,1.0,1.0,34.4,33.9,33.9,2.6,3.7,2.74,-0.28001202514806556,-0.053331288804265554,0.9201449137858126,-0.04687488970175773,-0.338238,-22.974418
11.185,2.0,1.0,1.0,34.4,33.9,33.9,2.6,3.7,2.7425,-0.2957706111517157,-0.05382102601593407,0.9141720656991116,-0.049043678225294776,-0.347085,-22.755615
11.185,2.0,1.0,1.0,34.4,33.9,33.9,2.6,3.7,2.745,-0.3115887190101583,-0.05428812692716758,0.9078241090125025,-0.05130500742602812,-0.356309,-22.534122
11.185,2.0,1.0,1.0,34.4,33.9,33.9,2.6,3.7,2.7475,-0.3274596376767869,-0.054729647110359596,0.9010899160235771,-0.05366342478595181,-0.365934,-22.309849
11.185,2.0,1.0,1.0,34.4,33.9,33.9,2.6,3.7,2.75,-0.343376126615321,-0.0551423470198467,0.89395799960837,-0.0561237494530653,-0.375984,-22.082705
11.185,2.0,1.0,1.0,34.4,33.9,33.9,2.6,3.7,2.7525,-0.35933037436751364,-0.05552265941921253,0.8864164964289015,-0.05869109143386298,-0.386489,-21.852591
11.185,2.0,1.0,1.0,34.4,33.9,33.9,2.6,3.7,2.755,-0.3753139527522835,-0.05586665265084346,0.878453148942111,-0.061370872210553505,-0.397479,-21.619405
11.185,2.0,1.0,1.0,34.4,33.9,33.9,2.6,3.7,2.7575,-0.3913177660895234,-0.056169989142442506,0.8700552861381926,-0.06416884685759716,-0.408986,-21.383038
11.185,2.0,1.0,1.0,34.4,33.9,33.9,2.6,3.7,2.76,-0.4073319947431989,-0.056427878447129036,0.8612098029442949,-0.06709112772301375,-0.421047,-21.143378
11.185,2.0,1.0,1.0,34.4,33.9,33.9,2.6,3.7,2.7625,-0.42334603216235694,-0.056635023998382536,0.8519031382428679,-0.07014420972513409,-0.433702,-20.900304
11.185,2.0,1.0,1.0,34.4,33.9,33.9,2.6,3.7,2.765,-0.43934841446179407,-0.05678556262515388,0.8421212514747412,-0.07333499729309066,-0.446995,-20.653692
11.185,2.0,1.0,1.0,34.4,33.9,33.9,2.6,3.7,2.7675,-0.4553267414225547,-0.05687299571205764,0.8318495978277841,-0.07667083294674144,-0.460972,-20.403408
11.185,2.0,1.0,1.0,34.4,33.9,33.9,2.6,3.7,2.77,-0.47126758760149884,-0.05689011070006798,0.8210731020561304,-0.08015952746553678,-0.475688,-20.149314
11.185,2.0,1.0,1.0,34.4,33.9,33.9,2.6,3.7,2.7725,-0.4871564020130442,-0.05682889139895891,0.8097761310370135,-0.08380939153152214,-0.4912,-19.891263
11.185,2.0,1.0,1.0,34.4,33.9,33.9,2.6,3.7,2.775,-0.5029773945784686,-0.05668041531726766,0.7979424652580467,-0.08762926864332274,-0.507572,-19.6291
11.185,2.0,1.0,1.0,34.4,33.9,33.9,2.6,3.7,2.7775,-0.5187134072206285,-0.05643473590092516,0.7855552695452097,-0.0916285689777455,-0.524875,-19.362662
11.185,2.0,1.0,1.0,34.4,33.9,33.9,2.6,3.7,2.78,-0.5343457671053211,-0.05608074719853802,0.7725970635011364,-0.09581730371326946,-0.543189,-19.091776
11.185,2.0,1.0,1.0,34.4,33.9,33.9,2.6,3.7,2.7825,-0.5498541190835099,-0.05560602802861394,0.7590496923382136,-0.10020611911145669,-0.562602,-18.816262
11.185,2.0,1.0,1.0,34.4,33.9,33.9,2.6,3.7,2.785,-0.565216233858431,-0.05499666219885354,0.7448942990794816,-0.10480632936026285,-0.583212,-18.535929
11.185,2.0,1.0,1.0,34.4,33.9,33.9,2.6,3.7,2.7875,-0.5804077877726406,-0.054237030704996816,0.7301112994865112,-0.10962994679332093,-0.605128,-18.250574
11.185,2.0,1.0,1.0,34.4,33.9,33.9,2.6,3.7,2.79,-0.5954021093654325,-0.05330957109939281,0.714680361588823,-0.11468970757986482,-0.628475,-17.959984
11.185,2.0,1.0,1.0,34.4,33.9,33.9,2.6,3.7,2.7925,-0.6101698869707701,-0.052194498348194084,0.6985803923765583,-0.11999909028883154,-0.65339,-17.663936
11.185,2.0,1.0,1.0,34.4,33.9,33.9,2.6,3.7,2.795,-0.6246788305889791,-0.05086948046968598,0.6817895351329131,-0.1255723238117988,-0.680031,-17.362193
11.185,2.0,1.0,1.0,34.4,33.9,33.9,2.6,3.7,2.7975,-0.6388932800492597,-0.049309261042870686,0.6642851821004042,-0.13142437990804576,-0.708574,-17.054507
11.185,2.0,1.0,1.0,34.4,33.9,33.9,2.6,3.7,2.8,-0.6527737500635702,-0.04748521927382153,0.6460440087948427,-0.13757094401175862,-0.739219,-16.740615
11.185,2.0,1.0,1.0,34.4,33.9,33.9,2.6,3.7,2.8025,-0.6662764011376356,-0.04536485669045503,0.627042038436143,-0.14402835578351633,-0.772196,-16.420244
11.185,2.0,1.0,1.0,34.4,33.9,33.9,2.6,3.7,2.805,-0.6793524234440654,-0.04291119769663728,0.6072547478329325,-0.1508135080189502,-0.807764,-16.093106
11.185,2.0,1.0,1.0,34.4,33.9,33.9,2.6,3.7,2.8075,-0.6919473186861559,-0.040082089164941,0.5866572298745247,-0.15794368871145253,-0.846224,-15.7589
11.185,2.0,1.0,1.0,34.4,33.9,33.9,2.6,3.7,2.81,-0.7040000627330525,-0.03682938202854704,0.5652244328629531,-0.16543634599009338,-0.887919,-15.417311
11.185,2.0,1.0,1.0,34.4,33.9,33.9,2.6,3.7,2.8125,-0.715442129489197,-0.0330979755488918,0.542931503675545,-0.173308748903918,-0.933245,-15.068014
11.185,2.0,1.0,1.0,34.4,33.9,33.9,2.6,3.7,2.815,-0.7261963542708724,-0.02882470278457079,0.5197542707327055,-0.18157750805333628,-0.982662,-14.710672
11.185,2.0,1.0,1.0,34.4,33.9,33.9,2.6,3.7,2.8175,-0.7361756132535763,-0.023937034122292363,0.49566991467327093,-0.1902579081640888,-1.036705,-14.344939
11.185,2.0,1.0,1.0,34.4,33.9,33.9,2.6,3.7,2.82,-0.7452812949286576,-0.018351575154941107,0.47065789043666356,-0.19936298893683,-1.095996,-13.970465
11.185,2.0,1.0,1.0,34.4,33.9,33.9,2.6,3.7,2.8225,-0.7534015409632225,-0.01197233670081369,0.44470118529198255,-0.20890228971558747,-1.161268,-13.586895
11.185,2.0,1.0,1.0,34.4,33.9,33.9,2.6,3.7,2.825,-0.7604092390051036,-0.004688759960757425,0.4177880246884503,-0.21888014625788282,-1.233382,-13.19388
11.185,2.0,1.0,1.0,34.4,33.9,33.9,2.6,3.7,2.8275,-0.7661597613731729,0.003626508740324346,0.3899141733385904,-0.2292933924568799,-1.313357,-12.791083
