1,w,sub_t,h,l1,l2,l3,g1,g2,Freq,S11_re,S21_re,S11_img,S21_img,S11_dB,S21_dB
11.185,2.0,1.0,1.0,33.8,34.5,34.5,2.3,1.9,2.5,0.804560022945186,-0.0160998694031882,0.579772822383469,0.0135865360586347,-0.072462,-33.528129
11.185,2.0,1.0,1.0,33.8,34.5,34.5,2.3,1.9,2.5025,0.8002393179452608,-0.016461652252151557,0.5855466917615235,0.013670356243449462,-0.07337,-33.392629
11.185,2.0,1.0,1.0,33.8,34.5,34.5,2.3,1.9,2.505,0.7958530632126312,-0.016831689109909908,0.5913168895965986,0.01375317939015342,-0.074298,-33.256389
11.185,2.0,1.0,1.0,33.8,34.5,34.5,2.3,1.9,2.5075,0.7914004487211982,-0.017210212381298134,0.5970830251756322,0.013834924450037586,-0.075248,-33.119394
11.185,2.0,1.0,1.0,33.8,34.5,34.5,2.3,1.9,2.51,0.7868806473601766,-0.01759746281840323,0.6028446941241223,0.013915505921914848,-0.07622,-32.981627
11.185,2.0,1.0,1.0,33.8,34.5,34.5,2.3,1.9,2.5125,0.7822928144428277,-0.01799368988803297,0.6086014778581778,0.013994833591580024,-0.077215,-32.843073
11.185,2.0,1.0,1.0,33.8,34.5,34.5,2.3,1.9,2.515,0.777636087195094,-0.01839915215838756,0.6143529430104324,0.014072812254161878,-0.078233,-32.703713
11.185,2.0,1.0,1.0,33.8,34.5,34.5,2.3,1.9,2.5175,0.7729095842230337,-0.018814117706093897,0.6200986408282321,0.014149341418096992,-0.079276,-32.563532
11.185,2.0,1.0,1.0,33.8,34.5,34.5,2.3,1.9,2.52,0.7681124049578512,-0.01923886454484167,0.6258381065424338,0.014224314989349902,-0.080345,-32.42251
11.185,2.0,1.0,1.0,33.8,34.5,34.5,2.3,1.9,2.5225,0.7632436290772744,-0.01967368107694532,0.6315708587049669,0.014297620934387169,-0.08144,-32.280631
11.185,2.0,1.0,1.0,33.8,34.5,34.5,2.3,1.9,2.525,0.758302315901908,-0.020118866569250365,0.6372963984932397,0.014369140920287337,-0.082561,-32.137875
11.185,2.0,1.0,1.0,33.8,34.5,34.5,2.3,1.9,2.5275,0.7532875037651138,-0.020574731654895716,0.6430142089792674,0.014438749930229195,-0.083711,-31.994224
11.185,2.0,1.0,1.0,33.8,34.5,34.5,2.3,1.9,2.53,0.7481982093548747,-0.021041598862555768,0.6487237543612573,0.014506315852448827,-0.08489,-31.849657
11.185,2.0,1.0,1.0,33.8,34.5,34.5,2.3,1.9,2.5325,0.7430334270259733,-0.021519803174895304,0.6544244791552057,0.014571699040589395,-0.0861,-31.704156
11.185,2.0,1.0,1.0,33.8,34.5,34.5,2.3,1.9,2.535,0.7377921280807059,-0.022009692618098344,0.6601158073438631,0.014634751843184553,-0.08734,-31.557698
11.185,2.0,1.0,1.0,33.8,34.5,34.5,2.3,1.9,2.5375,0.7324732600162348,-0.022511628884458998,0.6657971414802013,0.014695318099815348,-0.088613,-31.410264
11.185,2.0,1.0,1.0,33.8,34.5,34.5,2.3,1.9,2.54,0.7270757457365222,-0.02302598799017222,0.6714678617422939,0.014753232601259207,-0.089919,-31.261832
11.185,2.0,1.0,1.0,33.8,34.5,34.5,2.3,1.9,2.5425,0.7215984827266615,-0.023553160970611355,0.6771273249362563,0.014808320510707554,-0.09126,-31.112379
11.185,2.0,1.0,1.0,33.8,34.5,34.5,2.3,1.9,2.545,0.7160403421872484,-0.024093554615548823,0.6827748634436019,0.01486039674285951,-0.092638,-30.961882
11.185,2.0,1.0,1.0,33.8,34.5,34.5,2.3,1.9,2.5475,0.7104001681262732,-0.024647592246956004,0.6884097841090661,0.014909265297405239,-0.094052,-30.810318
11.185,2.0,1.0,1.0,33.8,34.5,34.5,2.3,1.9,2.55,0.7046767764058061,-0.025215714542212584,0.6940313670646167,0.014954718543086656,-0.095506,-30.657663
11.185,2.0,1.0,1.0,33.8,34.5,34.5,2.3,1.9,2.5525,0.698868953740579,-0.025798380405762055,0.699638864484955,0.014996536448163489,-0.097001,-30.503892
11.185,2.0,1.0,1.0,33.8,34.5,34.5,2.3,1.9,2.555,0.6929754566453119,-0.02639606789248527,0.7052314992694466,0.015034485752716176,-0.098537,-30.34898
11.185,2.0,1.0,1.0,33.8,34.5,34.5,2.3,1.9,2.5575,0.6869950103274152,-0.02700927518629731,0.7108084636449268,0.015068319077777146,-0.100117,-30.1929
11.185,2.0,1.0,1.0,33.8,34.5,34.5,2.3,1.9,2.56,0.6809263075214455,-0.027638521637747566,0.7163689176833122,0.015097773965795614,-0.101743,-30.035625
11.185,2.0,1.0,1.0,33.8,34.5,34.5,2.3,1.9,2.5625,0.6747680072614026,-0.02828434886468245,0.7219119877274257,0.015122571846401438,-0.103416,-29.877127
11.185,2.0,1.0,1.0,33.8,34.5,34.5,2.3,1.9,2.565,0.668518733586658,-0.028947321920342623,0.7274367647177797,0.015142416920835735,-0.105139,-29.717378
11.185,2.0,1.0,1.0,33.8,34.5,34.5,2.3,1.9,2.5675,0.6621770741769928,-0.02962803053359882,0.732942302412395,0.015156994957750204,-0.106913,-29.556348
11.185,2.0,1.0,1.0,33.8,34.5,34.5,2.3,1.9,2.57,0.6557415789118539,-0.03032709042639303,0.7384276154909685,0.015165971992338715,-0.108741,-29.394007
11.185,2.0,1.0,1.0,33.8,34.5,34.5,2.3,1.9,2.5725,0.6492107583485631,-0.03104514471384138,0.743891677533839,0.015168992919941613,-0.110625,-29.230323
11.185,2.0,1.0,1.0,33.8,34.5,34.5,2.3,1.9,2.575,0.642583082113808,-0.03178286539287662,0.7493334188652764,0.015165679974346178,-0.112567,-29.065263
11.185,2.0,1.0,1.0,33.8,34.5,34.5,2.3,1.9,2.5775,0.6358569772022891,-0.03254095492576545,0.7547517242495385,0.015155631079984586,-0.11457,-28.898795
11.185,2.0,1.0,1.0,33.8,34.5,34.5,2.3,1.9,2.58,0.6290308261759282,-0.03332014792532631,0.7601454304269897,0.015138418066087367,-0.116637,-28.730884
11.185,2.0,1.0,1.0,33.8,34.5,34.5,2.3,1.9,2.5825,0.6221029652564979,-0.034121212949207246,0.7655133234762649,0.01511358472957436,-0.11877,-28.561494
11.185,2.0,1.0,1.0,33.8,34.5,34.5,2.3,1.9,2.585,0.6150716823040084,-0.03494495441115478,0.7708541359869667,0.015080644732034338,-0.120973,-28.390588
11.185,2.0,1.0,1.0,33.8,34.5,34.5,2.3,1.9,2.5875,0.6079352146725344,-0.03579221461782669,0.7761665440257906,0.015039079314543555,-0.123249,-28.218128
11.185,2.0,1.0,1.0,33.8,34.5,34.5,2.3,1.9,2.59,0.6006917469345572,-0.03666387594036418,0.781449163877088,0.01498833481227347,-0.125602,-28.044075
11.185,2.0,1.0,1.0,33.8,34.5,34.5,2.3,1.9,2.5925,0.5933394084641511,-0.03756086313066109,0.7867005485368563,0.014927819948820087,-0.128034,-27.868388
11.185,2.0,1.0,1.0,33.8,34.5,34.5,2.3,1.9,2.595,0.5858762708686206,-0.03848414579303219,0.7919191839367801,0.014856902887913078,-0.13055,-27.691024
11.185,2.0,1.0,1.0,33.8,34.5,34.5,2.3,1.9,2.5975,0.5783003452573459,-0.03943474102282004,0.797103484872401,0.014774908017603719,-0.133155,-27.511941
11.185,2.0,1.0,1.0,33.8,34.5,34.5,2.3,1.9,2.6,0.5706095793357459,-0.04041371622435453,0.802251790606489,0.01468111243914413,-0.135851,-27.331092
11.185,2.0,1.0,1.0,33.8,34.5,34.5,2.3,1.9,2.6025,0.5628018543113366,-0.04142219212163522,0.8073623601154186,0.014574742129508853,-0.138645,-27.148432
11.185,2.0,1.0,1.0,33.8,34.5,34.5,2.3,1.9,2.605,0.5548749815978362,-0.04246134597610959,0.8124333669425879,0.014454967742822757,-0.141542,-26.96391
11.185,2.0,1.0,1.0,33.8,34.5,34.5,2.3,1.9,2.6075,0.5468266993022532,-0.043532415026992836,0.817462893618682,0.014320900011783716,-0.144545,-26.777478
11.185,2.0,1.0,1.0,33.8,34.5,34.5,2.3,1.9,2.61,0.538654668478751,-0.04463670017070467,0.8224489256037715,0.014171584705431235,-0.147662,-26.589081
11.185,2.0,1.0,1.0,33.8,34.5,34.5,2.3,1.9,2.6125,0.5303564691319083,-0.04577556989718903,0.8273893447007906,0.014005997094234798,-0.150898,-26.398667
11.185,2.0,1.0,1.0,33.8,34.5,34.5,2.3,1.9,2.615,0.521929595950774,-0.046950464502121335,0.8322819218837415,0.01382303586735631,-0.15426,-26.206179
11.185,2.0,1.0,1.0,33.8,34.5,34.5,2.3,1.9,2.6175,0.5133714537538504,-0.048162900595294225,0.8371243094769016,0.0136215164399739,-0.157755,-26.011557
11.185,2.0,1.0,1.0,33.8,34.5,34.5,2.3,1.9,2.62,0.5046793526238195,-0.04941447592678304,0.8419140326132865,0.013400163580602555,-0.16139,-25.814742
11.185,2.0,1.0,1.0,33.8,34.5,34.5,2.3,1.9,2.6225,0.49585050270952463,-0.05070687455382703,0.8466484798914058,0.013157603279263762,-0.165174,-25.615669
11.185,2.0,1.0,1.0,33.8,34.5,34.5,2.3,1.9,2.625,0.48688200867144,-0.0520418723726598,0.851324893138864,0.0128923537669618,-0.169115,-25.414272
11.185,2.0,1.0,1.0,33.8,34.5,34.5,2.3,1.9,2.6275,0.47777086374556504,-0.05342134304079561,0.8559403561793011,0.012602815585008021,-0.173223,-25.210483
11.185,2.0,1.0,1.0,33.8,34.5,34.5,2.3,1.9,2.63,0.4685139433995793,-0.054847264316434254,0.8604917824853668,0.0122872605890565,-0.177507,-25.00423
11.185,2.0,1.0,1.0,33.8,34.5,34.5,2.3,1.9,2.6325,0.45910799855408196,-0.05632172484264592,0.864975901584507,0.011943819756982369,-0.181979,-24.795438
11.185,2.0,1.0,1.0,33.8,34.5,34.5,2.3,1.9,2.635,0.449549648340993,-0.057846931404752215,0.8693892440661015,0.011570469651617019,-0.186651,-24.584029
11.185,2.0,1.0,1.0,33.8,34.5,34.5,2.3,1.9,2.6375,0.43983537237084497,-0.05942521668971009,0.8737281250173314,0.011165017368448181,-0.191534,-24.369922
11.185,2.0,1.0,1.0,33.8,34.5,34.5,2.3,1.9,2.64,0.4299615024807501,-0.061059047576199045,0.8779886256908663,0.01072508377422856,-0.196644,-24.153031
11.185,2.0,1.0,1.0,33.8,34.5,34.5,2.3,1.9,2.6425,0.4199242139357184,-0.06275103398330543,0.8821665731791608,0.010248084814466629,-0.201994,-23.933268
11.185,2.0,1.0,1.0,33.8,34.5,34.5,2.3,1.9,2.645,0.40971951605769197,-0.06450393830395401,0.8862575178375162,0.009731210635326646,-0.207602,-23.71054
11.185,2.0,1.0,1.0,33.8,34.5,34.5,2.3,1.9,2.6475,0.39934324225972867,-0.06632068544623489,0.890256708160019,0.009171402227775951,-0.213484,-23.484751
11.185,2.0,1.0,1.0,33.8,34.5,34.5,2.3,1.9,2.65,0.38879103946738325,-0.06820437350110121,0.8941590627683148,0.00856532525794812,-0.219661,-23.255797
11.185,2.0,1.0,1.0,33.8,34.5,34.5,2.3,1.9,2.6525,0.37805835691634315,-0.07015828504801803,0.8979591391215842,0.00790934069655141,-0.226154,-23.023573
11.185,2.0,1.0,1.0,33.8,34.5,34.5,2.3,1.9,2.655,0.3671404343250659,-0.07218589910036381,0.9016510984959984,0.007199471800419833,-0.232985,-22.787966
11.185,2.0,1.0,1.0,33.8,34.5,34.5,2.3,1.9,2.6575,0.3560322894548823,-0.07429090367878075,0.9052286667114747,0.006431366929428355,-0.24018,-22.548861
11.185,2.0,1.0,1.0,33.8,34.5,34.5,2.3,1.9,2.66,0.3447287050885573,-0.0764772089821162,0.9086850900011615,0.005600257600100805,-0.247767,-22.306133
11.185,2.0,1.0,1.0,33.8,34.5,34.5,2.3,1.9,2.6625,0.3332242154834539,-0.07874896110054223,0.9120130853222226,0.004700911081110038,-0.255775,-22.059655
11.185,2.0,1.0,1.0,33.8,34.5,34.5,2.3,1.9,2.665,0.3215130923889252,-0.08111055618197016,0.9152047842927543,0.0037275767228382856,-0.26424,-21.80929
11.185,2.0,1.0,1.0,33.8,34.5,34.5,2.3,1.9,2.6675,0.3095893307622083,-0.08356665491838132,0.9182516698056283,0.0026739250800642137,-0.273198,-21.554895
11.185,2.0,1.0,1.0,33.8,34.5,34.5,2.3,1.9,2.67,0.2974466343759369,-0.08612219715992295,0.921144504212091,0.001532978729865478,-0.282689,-21.296322
11.185,2.0,1.0,1.0,33.8,34.5,34.5,2.3,1.9,2.6725,0.2850784015880384,-0.08878241638717985,0.9238732477813202,0.0002970335014474146,-0.29276,-21.033412
11.185,2.0,1.0,1.0,33.8,34.5,34.5,2.3,1.9,2.675,0.27247771164673146,-0.09155285367031903,0.926426965921597,-0.0010424313845690818,-0.30346,-20.765999
11.185,2.0,1.0,1.0,33.8,34.5,34.5,2.3,1.9,2.6775,0.25963731203710505,-0.09443937061038114,0.9287937233876086,-0.002494856029276934,-0.314847,-20.493908
11.185,2.0,1.0,1.0,33.8,34.5,34.5,2.3,1.9,2.68,0.2465496075510127,-0.09744816058318076,0.930960463389289,-0.004070717490154491,-0.326982,-20.216955
11.185,2.0,1.0,1.0,33.8,34.5,34.5,2.3,1.9,2.6825,0.23320665199170587,-0.10058575737726778,0.9329128691510996,-0.005781664770475223,-0.339936,-19.934945
11.185,2.0,1.0,1.0,33.8,34.5,34.5,2.3,1.9,2.685,0.2196001437254227,-0.10385904001742247,0.9346352050365717,-0.007640674028072752,-0.353788,-19.647672
11.185,2.0,1.0,1.0,33.8,34.5,34.5,2.3,1.9,2.6875,0.2057214266866028,-0.10727523217193685,0.9361101338386424,-0.00966222737904827,-0.368625,-19.354921
11.185,2.0,1.0,1.0,33.8,34.5,34.5,2.3,1.9,2.69,0.19156149896086921,-0.11084189402605672,0.9373185062279413,-0.011862519276482113,-0.384547,-19.056461
11.185,2.0,1.0,1.0,33.8,34.5,34.5,2.3,1.9,2.6925,0.17711103174963735,-0.11456690382641993,0.938239117632965,-0.014259695157832441,-0.401666,-18.752052
11.185,2.0,1.0,1.0,33.8,34.5,34.5,2.3,1.9,2.695,0.16236040241448113,-0.11845842541008622,0.9388484269807372,-0.01687412789439929,-0.420111,-18.441439
11.185,2.0,1.0,1.0,33.8,34.5,34.5,2.3,1.9,2.6975,0.14729974647745966,-0.12252485685769816,0.9391202307367202,-0.019728738559512852,-0.440026,-18.124352
11.185,2.0,1.0,1.0,33.8,34.5,34.5,2.3,1.9,2.7,0.13191903500860913,-0.1267747538608675,0.9390252845316084,-0.022849369175271916,-0.461577,-17.800507
11.185,2.0,1.0,1.0,33.8,34.5,34.5,2.3,1.9,2.7025,0.11620818588768211,-0.1312167193454985,0.9385308633377143,-0.02626521641312051,-0.484951,-17.469605
11.185,2.0,1.0,1.0,33.8,34.5,34.5,2.3,1.9,2.705,0.1001572201504769,-0.13585924817977965,0.9376002496555048,-0.030009336714521672,-0.510368,-17.131329
11.185,2.0,1.0,1.0,33.8,34.5,34.5,2.3,1.9,2.7075,0.08375647824327943,-0.14071051219630762,0.9361921375053416,-0.03411923495021446,-0.538078,-16.785347
11.185,2.0,1.0,1.0,33.8,34.5,34.5,2.3,1.9,2.71,0.06699691581066065,-0.1457780659751986,0.9342599382364389,-0.03863755050410949,-0.568369,-16.431312
11.185,2.0,1.0,1.0,33.8,34.5,34.5,2.3,1.9,2.7125,0.04987050503069431,-0.1510684474722242,0.9317509723644188,-0.0436128564506288,-0.601579,-16.068855
11.185,2.0,1.0,1.0,33.8,34.5,34.5,2.3,1.9,2.715,0.032370776019355126,-0.1565866391039752,0.9286055300220162,-0.04910058910095512,-0.6381,-15.697597
11.185,2.0,1.0,1.0,33.8,34.5,34.5,2.3,1.9,2.7175,0.014493544156391784,-0.1623353436202023,0.9247557814956442,-0.05516412628353632,-0.678392,-15.317141
11.185,2.0,1.0,1.0,33.8,34.5,34.5,2.3,1.9,2.72,-0.003762115736692233,-0.16831401408196356,0.9201245193079542,-0.061876032714165446,-0.722995,-14.927076
11.185,2.0,1.0,1.0,33.8,34.5,34.5,2.3,1.9,2.7225,-0.022392567413493873,-0.17451755733300695,0.9146237153673311,-0.0693194887294901,-0.772548,-14.526984
11.185,2.0,1.0,1.0,33.8,34.5,34.5,2.3,1.9,2.725,-0.0413878759802001,-0.1809346039954788,0.9081528824328059,-0.07758991291622472,-0.82781,-14.11644
11.185,2.0,1.0,1.0,33.8,34.5,34.5,2.3,1.9,2.7275,-0.060729493213131994,-0.18754520340445519,0.9005972411047666,-0.086796777207374,-0.889685,-13.695021
11.185,2.0,1.0,1.0,33.8,34.5,34.5,2.3,1.9,2.73,-0.08038717798958084,-0.1943177569198522,0.8918257158341121,-0.09706559076503928,-0.959257,-13.262318
11.185,2.0,1.0,1.0,33.8,34.5,34.5,2.3,1.9,2.7325,-0.10031490664697933,-0.20120494560494018,0.8816888224646935,-0.10853999003159637,-1.037835,-12.817944
11.185,2.0,1.0,1.0,33.8,34.5,34.5,2.3,1.9,2.735,-0.12044545624879516,-0.20813833683347435,0.8700165755333973,-0.12138380680041023,-1.127001,-12.361559
11.185,2.0,1.0,1.0,33.8,34.5,34.5,2.3,1.9,2.7375,-0.1406832582670497,-0.21502126944950578,0.8566166510924612,-0.13578287895553748,-1.228684,-11.892895
11.185,2.0,1.0,1.0,33.8,34.5,34.5,2.3,1.9,2.74,-0.16089502625872315,-0.22171952383546592,0.8412732126976835,-0.15194619725336836,-1.345242,-11.41179
11.185,2.0,1.0,1.0,33.8,34.5,34.5,2.3,1.9,2.7425,-0.18089757384428604,-0.22804919675864357,0.8237470767073767,-0.1701057140450038,-1.479575,-10.91824
11.185,2.0,1.0,1.0,33.8,34.5,34.5,2.3,1.9,2.745,-0.20044219327321106,-0.23376115566745342,0.8037783019100333,-0.19051373265715457,-1.635261,-10.412462
11.185,2.0,1.0,1.0,33.8,34.5,34.5,2.3,1.9,2.7475,-0.21919503040620839,-0.23852151330748048,0.7810928912974817,-0.21343619604700215,-1.816734,-9.894985
11.185,2.0,1.0,1.0,33.8,34.5,34.5,2.3,1.9,2.75,-0.236713201072355,-0.241887872665609,0.75541614278824,-0.239139348495239,-2.029495,-9.366765
11.185,2.0,1.0,1.0,33.8,34.5,34.5,2.3,1.9,2.7525,-0.2524171768557671,-0.24328187377099442,0.7264962987533615,-0.2678661370894534,-2.28037,-8.829332
11.185,2.0,1.0,1.0,33.8,34.5,34.5,2.3,1.9,2.755,-0.2655615943433041,-0.24196019498286686,0.6941434267297587,-0.2997974453796684,-2.577793,-8.284981
11.185,2.0,1.0,1.0,33.8,34.5,34.5,2.3,1.9,2.7575,-0.27520963061673,-0.23698913915228276,0.6582895510521988,-0.3349921739017122,-2.932093,-7.737002
11.185,2.0,1.0,1.0,33.8,34.5,34.5,2.3,1.9,2.76,-0.2802210094247843,-0.22723283557396215,0.6190760421632958,-0.3733002036074534,-3.355659,-7.189944
11.185,2.0,1.0,1.0,33.8,34.5,34.5,2.3,1.9,2.7625,-0.2792707827151641,-0.21137213338918392,0.5769713548868931,-0.41424519363847095,-3.862764,-6.649891
11.185,2.0,1.0,1.0,33.8,34.5,34.5,2.3,1.9,2.765,-0.2709241856498656,-0.18797936476549673,0.5329134868997036,-0.45688286215050566,-4.468495,-6.12471
11.185,2.0,1.0,1.0,33.8,34.5,34.5,2.3,1.9,2.7675,-0.25379798140451226,-0.1556792191726273,0.4884536752362466,-0.4996581847907227,-5.185568,-5.62417
11.185,2.0,1.0,1.0,33.8,34.5,34.5,2.3,1.9,2.77,-0.22683185904030645,-0.11341909364646563,0.445850008205281,-0.5403126521518727,-6.016521,-5.159827
11.185,2.0,1.0,1.0,33.8,34.5,34.5,2.3,1.9,2.7725,-0.1896617750486371,-0.06084069062012822,0.40802964194009134,-0.5759225226633914,-6.936612,-4.74452
11.185,2.0,1.0,1.0,33.8,34.5,34.5,2.3,1.9,2.775,-0.1430228646189977,0.0013193641144552287,0.3783296338517482,-0.6031575165683981,-7.862463,-4.391364
11.185,2.0,1.0,1.0,33.8,34.5,34.5,2.3,1.9,2.7775,-0.08902959120235311,0.07095161250269495,0.3599745711049533,-0.6188012801328004,-8.616722,-4.112252
11.185,2.0,1.0,1.0,33.8,34.5,34.5,2.3,1.9,2.78,-0.03114250376591087,0.144608160194353,0.3553721338176401,-0.6204524621316005,-8.953108,-3.916101
11.185,2.0,1.0,1.0,33.8,34.5,34.5,2.3,1.9,2.7825,0.02629262504746543,0.2179625971309652,0.36545804810829013,-0.6071757828739285,-8.720828,-3.807291
11.185,2.0,1.0,1.0,33.8,34.5,34.5,2.3,1.9,2.785,0.07884860638128588,0.28661056148373193,0.38938126777039983,-0.5798138015665101,-8.01797,-3.784813
11.185,2.0,1.0,1.0,33.8,34.5,34.5,2.3,1.9,2.7875,0.1228754810218057,0.34692387020778304,0.4246958396745536,-0.5407943248524619,-7.089311,-3.842449
11.185,2.0,1.0,1.0,33.8,34.5,34.5,2.3,1.9,2.79,0.15608385206696396,0.3966298457007968,0.4679751656028302,-0.4935180203868611,-6.137456,-3.969907
11.185,2.0,1.0,1.0,33.8,34.5,34.5,2.3,1.9,2.7925,0.17768330873013022,0.43494765127533763,0.515571448238075,-0.4416024267381649,-5.266805,-4.154515
11.185,2.0,1.0,1.0,33.8,34.5,34.5,2.3,1.9,2.795,0.1881358118146257,0.4623417784363513,0.5642373453651223,-0.38826379574849634,-4.512927,-4.382921
11.185,2.0,1.0,1.0,33.8,34.5,34.5,2.3,1.9,2.7975,0.18871908783510727,0.4800870246425024,0.6114675836372853,-0.3359779077332596,-3.877381,-4.642443
11.185,2.0,1.0,1.0,33.8,34.5,34.5,2.3,1.9,2.8,0.18108990102361475,0.48983383276599407,0.6555733452682639,-0.2864067453757939,-3.348226,-4.9219
11.185,2.0,1.0,1.0,33.8,34.5,34.5,2.3,1.9,2.8025,0.1669543483786084,0.49328040684454183,0.6955840234907946,-0.24049671798990263,-2.909753,-5.211966
11.185,2.0,1.0,1.0,33.8,34.5,34.5,2.3,1.9,2.805,0.1478694853225557,0.49197560337436624,0.731076695644995,-0.1986485635717473,-2.546609,-5.505197
11.185,2.0,1.0,1.0,33.8,34.5,34.5,2.3,1.9,2.8075,0.12515321047082706,0.48722952615649945,0.7620019600964509,-0.1608906796249116,-2.245277,-5.795847
11.185,2.0,1.0,1.0,33.8,34.5,34.5,2.3,1.9,2.81,0.09986542213271743,0.4800949734619346,0.7885394078057004,-0.12702284719548257,-1.994427,-6.079612
11.185,2.0,1.0,1.0,33.8,34.5,34.5,2.3,1.9,2.8125,0.0728278926669105,0.471387338517594,0.8109915526659,-0.0967216221944764,-1.784791,-6.353344
11.185,2.0,1.0,1.0,33.8,34.5,34.5,2.3,1.9,2.815,0.044660438990159965,0.4617206636083302,0.8297126079982019,-0.069611021873839,-1.608882,-6.614804
11.185,2.0,1.0,1.0,33.8,34.5,34.5,2.3,1.9,2.8175,0.015820329592550607,0.45154686748269596,0.8450642065168801,-0.045306386259875556,-1.460684,-6.86244
11.185,2.0,1.0,1.0,33.8,34.5,34.5,2.3,1.9,2.82,-0.01336152519426588,0.441191737236474,0.8573900604666914,-0.023439383663933975,-1.335377,-7.095212
11.185,2.0,1.0,1.0,33.8,34.5,34.5,2.3,1.9,2.8225,-0.04265007272558774,0.4308852325107046,0.8670030575679247,-0.003670631822527688,-1.229091,-7.312453
11.185,2.0,1.0,1.0,33.8,34.5,34.5,2.3,1.9,2.825,-0.0718816742362677,0.4207857419280849,0.874180063903642,0.014305363599780881,-1.138717,-7.513763
11.185,2.0,1.0,1.0,33.8,34.5,34.5,2.3,1.9,2.8275,-0.10094512660335653,0.4109988819244842,0.8791612274446678,0.03075976797366676,-1.061748,-7.698929
11.185,2.0,1.0,1.0,33.8,34.5,34.5,2.3,1.9,2.83,-0.1297672298775181,0.40159175287681875,0.8821517153309247,0.04593142357902677,-0.996158,-7.867861
11.185,2.0,1.0,1.0,33.8,34.5,34.5,2.3,1.9,2.8325,-0.15830196097119267,0.3926035852508146,0.8833246076559784,0.060030038170821816,-0.940305,-8.020549
