1,w,sub_t,h,l1,l2,l3,g1,g2,Freq,S11_re,S21_re,S11_img,S21_img,S11_dB,S21_dB
11.185,2.0,1.0,1.0,33.8,34.4,34.4,1.8,2.7,2.5,0.803028981383664,-0.0157410162306547,0.581423563075065,0.0127809887793378,-0.074867,-33.860174
11.185,2.0,1.0,1.0,33.8,34.4,34.4,1.8,2.7,2.5025,0.7985848363950074,-0.016090581454149894,0.5873327231490186,0.012848952289318717,-0.075802,-33.726317
11.185,2.0,1.0,1.0,33.8,34.4,34.4,1.8,2.7,2.505,0.7940713234389796,-0.01644783129395044,0.5932387204969157,0.01291544976285546,-0.076756,-33.591808
11.185,2.0,1.0,1.0,33.8,34.4,34.4,1.8,2.7,2.5075,0.7894875652140975,-0.016812966601843678,0.5991411213130471,0.012980385400640533,-0.077732,-33.456634
11.185,2.0,1.0,1.0,33.8,34.4,34.4,1.8,2.7,2.51,0.7848326669895558,-0.017186194702267746,0.6050394760901863,0.01304365857841478,-0.07873,-33.320782
11.185,2.0,1.0,1.0,33.8,34.4,34.4,1.8,2.7,2.5125,0.7801057161810552,-0.017567729640311617,0.6109333190003507,0.013105163588790792,-0.07975,-33.184237
11.185,2.0,1.0,1.0,33.8,34.4,34.4,1.8,2.7,2.515,0.7753057819136507,-0.017957792440666188,0.616822167247979,0.013164789367748012,-0.080793,-33.046987
11.185,2.0,1.0,1.0,33.8,34.4,34.4,1.8,2.7,2.5175,0.7704319145711352,-0.01835661137806661,0.6227055203940478,0.013222419204780952,-0.08186,-32.909018
11.185,2.0,1.0,1.0,33.8,34.4,34.4,1.8,2.7,2.52,0.7654831453314062,-0.01876442225979709,0.6285828596495873,0.013277930435605954,-0.082952,-32.770315
11.185,2.0,1.0,1.0,33.8,34.4,34.4,1.8,2.7,2.5225,0.7604584856872859,-0.01918146872085644,0.6344536471369104,0.013331194116253482,-0.084069,-32.630863
11.185,2.0,1.0,1.0,33.8,34.4,34.4,1.8,2.7,2.525,0.7553569269521988,-0.019608002532417422,0.6403173251168216,0.013382074677279868,-0.085212,-32.490647
11.185,2.0,1.0,1.0,33.8,34.4,34.4,1.8,2.7,2.5275,0.7501774397500993,-0.020044283924245627,0.6461733151799013,0.0134304295567415,-0.086383,-32.349653
11.185,2.0,1.0,1.0,33.8,34.4,34.4,1.8,2.7,2.53,0.7449189734890245,-0.020490581921777492,0.6520210173998711,0.013476108810466507,-0.087581,-32.207864
11.185,2.0,1.0,1.0,33.8,34.4,34.4,1.8,2.7,2.5325,0.7395804558175932,-0.020947174698597068,0.657859809446888,0.013518954698048974,-0.088808,-32.065265
11.185,2.0,1.0,1.0,33.8,34.4,34.4,1.8,2.7,2.535,0.7341607920637574,-0.021414349945088708,0.6636890456585,0.013558801242868278,-0.090065,-31.92184
11.185,2.0,1.0,1.0,33.8,34.4,34.4,1.8,2.7,2.5375,0.7286588646550771,-0.02189240525408319,0.6695080560657948,0.013595473764301112,-0.091353,-31.777572
11.185,2.0,1.0,1.0,33.8,34.4,34.4,1.8,2.7,2.54,0.7230735325197465,-0.022381648524359567,0.6753161453721493,0.013628788380153377,-0.092673,-31.632443
11.185,2.0,1.0,1.0,33.8,34.4,34.4,1.8,2.7,2.5425,0.7174036304675708,-0.02288239838290985,0.6811125918817788,0.013658551477178416,-0.094026,-31.486437
11.185,2.0,1.0,1.0,33.8,34.4,34.4,1.8,2.7,2.545,0.7116479685500506,-0.023394984626920533,0.6868966463750869,0.013684559147380709,-0.095413,-31.339535
11.185,2.0,1.0,1.0,33.8,34.4,34.4,1.8,2.7,2.5475,0.7058053313987036,-0.023919748686473927,0.6926675309276084,0.013706596587614845,-0.096836,-31.19172
11.185,2.0,1.0,1.0,33.8,34.4,34.4,1.8,2.7,2.55,0.6998744775406781,-0.024457044109026705,0.6984244376691128,0.013724437459791551,-0.098295,-31.042973
11.185,2.0,1.0,1.0,33.8,34.4,34.4,1.8,2.7,2.5525,0.6938541386907292,-0.02500723706677313,0.7041665274791583,0.013737843208776912,-0.099792,-30.893275
11.185,2.0,1.0,1.0,33.8,34.4,34.4,1.8,2.7,2.555,0.6877430190185174,-0.025570706888059874,0.7098929286151389,0.013746562334834235,-0.101328,-30.742605
11.185,2.0,1.0,1.0,33.8,34.4,34.4,1.8,2.7,2.5575,0.68153979439019,-0.02614784661407749,0.7156027352685593,0.013750329617193798,-0.102905,-30.590945
11.185,2.0,1.0,1.0,33.8,34.4,34.4,1.8,2.7,2.56,0.6752431115831504,-0.026739063582109812,0.7212950060449405,0.013748865285045419,-0.104524,-30.438273
11.185,2.0,1.0,1.0,33.8,34.4,34.4,1.8,2.7,2.5625,0.6688515874728581,-0.027344780036691867,0.7269687623624139,0.01374187413194204,-0.106187,-30.284569
11.185,2.0,1.0,1.0,33.8,34.4,34.4,1.8,2.7,2.565,0.662363808190462,-0.027965433770084744,0.732622986763686,0.013729044569249522,-0.107895,-30.129811
11.185,2.0,1.0,1.0,33.8,34.4,34.4,1.8,2.7,2.5675,0.6557783282500338,-0.02860147879354507,0.738256621135612,0.013710047613911,-0.109651,-29.973977
11.185,2.0,1.0,1.0,33.8,34.4,34.4,1.8,2.7,2.57,0.6490936696440956,-0.029253386040932673,0.7438685648301895,0.013684535805374268,-0.111455,-29.817044
11.185,2.0,1.0,1.0,33.8,34.4,34.4,1.8,2.7,2.5725,0.6423083209060976,-0.029921644106268495,0.7494576726802651,0.013652142046084816,-0.11331,-29.658989
11.185,2.0,1.0,1.0,33.8,34.4,34.4,1.8,2.7,2.575,0.635420736138458,-0.03060676001692198,0.7550227529027043,0.013612478359446336,-0.115218,-29.499788
11.185,2.0,1.0,1.0,33.8,34.4,34.4,1.8,2.7,2.5775,0.6284293340047262,-0.03130926004417648,0.7605625648811829,0.013565134558609611,-0.117181,-29.339416
11.185,2.0,1.0,1.0,33.8,34.4,34.4,1.8,2.7,2.58,0.6213324966843853,-0.032029690552987426,0.7660758168200993,0.013509676818849702,-0.119201,-29.177848
11.185,2.0,1.0,1.0,33.8,34.4,34.4,1.8,2.7,2.5825,0.6141285687887633,-0.03276861889281342,0.7715611632603925,0.013445646145634652,-0.12128,-29.015059
11.185,2.0,1.0,1.0,33.8,34.4,34.4,1.8,2.7,2.585,0.6068158562365028,-0.033526634331462746,0.7770172024472674,0.013372556729762612,-0.123421,-28.851021
11.185,2.0,1.0,1.0,33.8,34.4,34.4,1.8,2.7,2.5875,0.5993926250869851,-0.03430434903395484,0.7824424735389625,0.013289894180147453,-0.125627,-28.685707
11.185,2.0,1.0,1.0,33.8,34.4,34.4,1.8,2.7,2.59,0.5918571003301107,-0.03510239908844703,0.7878354536447373,0.013197113623950783,-0.127899,-28.51909
11.185,2.0,1.0,1.0,33.8,34.4,34.4,1.8,2.7,2.5925,0.5842074646307941,-0.035921445581321126,0.7931945546792378,0.013093637662789152,-0.130242,-28.351139
11.185,2.0,1.0,1.0,33.8,34.4,34.4,1.8,2.7,2.595,0.5764418570265698,-0.036762175723553656,0.7985181200192143,0.01297885417266973,-0.132657,-28.181826
11.185,2.0,1.0,1.0,33.8,34.4,34.4,1.8,2.7,2.5975,0.568558371576681,-0.03762530403051489,0.8038044209473263,0.012852113934122413,-0.135148,-28.01112
11.185,2.0,1.0,1.0,33.8,34.4,34.4,1.8,2.7,2.6,0.5605550559610974,-0.03851157355733869,0.8090516528663658,0.012712728077686721,-0.137719,-27.838988
11.185,2.0,1.0,1.0,33.8,34.4,34.4,1.8,2.7,2.6025,0.5524299100279549,-0.039421757191983924,0.8142579312656606,0.012559965328453639,-0.140373,-27.6654
11.185,2.0,1.0,1.0,33.8,34.4,34.4,1.8,2.7,2.605,0.5441808842879944,-0.04035665900806027,0.8194212874197532,0.012393049031757239,-0.143113,-27.49032
11.185,2.0,1.0,1.0,33.8,34.4,34.4,1.8,2.7,2.6075,0.5358058783547214,-0.04131711567940543,0.8245396637975231,0.012211153940322399,-0.145944,-27.313714
11.185,2.0,1.0,1.0,33.8,34.4,34.4,1.8,2.7,2.61,0.5273027393291818,-0.042303997958275046,0.8296109091578494,0.012013402741191037,-0.148869,-27.135547
11.185,2.0,1.0,1.0,33.8,34.4,34.4,1.8,2.7,2.6125,0.5186692601284618,-0.04331821221883407,0.8346327733055778,0.011798862298547359,-0.151894,-26.955783
11.185,2.0,1.0,1.0,33.8,34.4,34.4,1.8,2.7,2.615,0.5099031777573281,-0.044360702067395584,0.8396029014789941,0.011566539586109623,-0.155023,-26.774382
11.185,2.0,1.0,1.0,33.8,34.4,34.4,1.8,2.7,2.6175,0.5010021715228031,-0.04543245002054311,0.8445188283371174,0.011315377280028023,-0.15826,-26.591307
11.185,2.0,1.0,1.0,33.8,34.4,34.4,1.8,2.7,2.62,0.49196386119191926,-0.04653447925186524,0.8493779715119721,0.011044248980187781,-0.161612,-26.406516
11.185,2.0,1.0,1.0,33.8,34.4,34.4,1.8,2.7,2.6225,0.4827858050934955,-0.04766785540752168,0.8541776246874375,0.010751954024422321,-0.165083,-26.219968
11.185,2.0,1.0,1.0,33.8,34.4,34.4,1.8,2.7,2.625,0.47346549816551,-0.0488336884902064,0.858914950162314,0.0104372118563609,-0.168681,-26.03162
11.185,2.0,1.0,1.0,33.8,34.4,34.4,1.8,2.7,2.6275,0.4640003699504919,-0.050033134810273876,0.8635869708508693,0.010098655903396965,-0.17241,-25.841427
11.185,2.0,1.0,1.0,33.8,34.4,34.4,1.8,2.7,2.63,0.4543877825424892,-0.051267399001788706,0.8681905616691767,0.009734826916537315,-0.176278,-25.649343
11.185,2.0,1.0,1.0,33.8,34.4,34.4,1.8,2.7,2.6325,0.44462502849046276,-0.05253773610003395,0.8727224402500727,0.009344165718595006,-0.180293,-25.455321
11.185,2.0,1.0,1.0,33.8,34.4,34.4,1.8,2.7,2.635,0.43470932866457335,-0.05384545367549934,0.8771791569234045,0.008925005301249962,-0.184462,-25.259312
11.185,2.0,1.0,1.0,33.8,34.4,34.4,1.8,2.7,2.6375,0.42463783009380374,-0.055191914017528126,0.8815570838913508,0.008475562204849232,-0.188793,-25.061263
11.185,2.0,1.0,1.0,33.8,34.4,34.4,1.8,2.7,2.64,0.4144076037856773,-0.0565785363585579,0.8858524035208657,0.007993927107343904,-0.193295,-24.861123
11.185,2.0,1.0,1.0,33.8,34.4,34.4,1.8,2.7,2.6425,0.4040156425417558,-0.05800679912715446,0.8900610956666373,0.007478054540368831,-0.197978,-24.658837
11.185,2.0,1.0,1.0,33.8,34.4,34.4,1.8,2.7,2.645,0.3934588587859996,-0.05947824221473033,0.8941789239281995,0.006925751641027247,-0.202851,-24.454349
11.185,2.0,1.0,1.0,33.8,34.4,34.4,1.8,2.7,2.6475,0.38273408242728796,-0.06099446923682358,0.8982014207339132,0.006334665837323437,-0.207927,-24.247598
11.185,2.0,1.0,1.0,33.8,34.4,34.4,1.8,2.7,2.65,0.37183805878236637,-0.0625571497649626,0.9021238711321977,0.00570227135321785,-0.213215,-24.038525
11.185,2.0,1.0,1.0,33.8,34.4,34.4,1.8,2.7,2.6525,0.36076744659162624,-0.06416802149926437,0.905941295156536,0.005025854405793639,-0.21873,-23.827066
11.185,2.0,1.0,1.0,33.8,34.4,34.4,1.8,2.7,2.655,0.3495188161673299,-0.06582889234483219,0.9096484286151502,0.004302496951807863,-0.224485,-23.613156
11.185,2.0,1.0,1.0,33.8,34.4,34.4,1.8,2.7,2.6575,0.3380886477227613,-0.06754164234644434,0.9132397021386128,0.0035290588237266215,-0.230494,-23.396727
11.185,2.0,1.0,1.0,33.8,34.4,34.4,1.8,2.7,2.66,0.32647332994134737,-0.06930822542568216,0.9167092182987792,0.002702158075943011,-0.236773,-23.177708
11.185,2.0,1.0,1.0,33.8,34.4,34.4,1.8,2.7,2.6625,0.3146691588575991,-0.07113067085214646,0.9200507265899485,0.0018181493399583022,-0.243339,-22.956025
11.185,2.0,1.0,1.0,33.8,34.4,34.4,1.8,2.7,2.665,0.30267233713709735,-0.07301108436532101,0.9232575960378105,0.0008730999625157027,-0.25021,-22.731603
11.185,2.0,1.0,1.0,33.8,34.4,34.4,1.8,2.7,2.6675,0.29047897386141414,-0.07495164884538132,0.9263227851730297,-0.00013723632735537368,-0.257408,-22.504362
11.185,2.0,1.0,1.0,33.8,34.4,34.4,1.8,2.7,2.67,0.2780850849462628,-0.07695462440920044,0.9292388090739221,-0.0012174485081376612,-0.264953,-22.274219
11.185,2.0,1.0,1.0,33.8,34.4,34.4,1.8,2.7,2.6725,0.26548659434834937,-0.07902234778109561,0.9319977031459992,-0.00237250043410286,-0.272868,-22.041089
11.185,2.0,1.0,1.0,33.8,34.4,34.4,1.8,2.7,2.675,0.2526793362492558,-0.08115723075553692,0.9345909832647357,-0.0036077664442767292,-0.281181,-21.804882
11.185,2.0,1.0,1.0,33.8,34.4,34.4,1.8,2.7,2.6775,0.23965905844441832,-0.08336175752986916,0.9370096018610691,-0.004929070820194708,-0.289917,-21.565505
11.185,2.0,1.0,1.0,33.8,34.4,34.4,1.8,2.7,2.68,0.22642142721346445,-0.08563848063757346,0.9392438994762564,-0.006342731552401791,-0.299109,-21.322863
11.185,2.0,1.0,1.0,33.8,34.4,34.4,1.8,2.7,2.6825,0.2129620340066929,-0.08799001515489495,0.9412835512530101,-0.007855608934177685,-0.308789,-21.076853
11.185,2.0,1.0,1.0,33.8,34.4,34.4,1.8,2.7,2.685,0.19927640435345506,-0.09041903078352524,0.9431175077626043,-0.009475159566956515,-0.318993,-20.827372
11.185,2.0,1.0,1.0,33.8,34.4,34.4,1.8,2.7,2.6875,0.18536000948464795,-0.09292824132666139,0.9447339294919701,-0.01120949643614335,-0.329762,-20.574309
11.185,2.0,1.0,1.0,33.8,34.4,34.4,1.8,2.7,2.69,0.1712082812667695,-0.09552039097175946,0.9461201142299582,-0.013067455799325799,-0.34114,-20.317551
11.185,2.0,1.0,1.0,33.8,34.4,34.4,1.8,2.7,2.6925,0.15681663117322517,-0.0981982366664175,0.9472624164970416,-0.015058671722047633,-0.353173,-20.056979
11.185,2.0,1.0,1.0,33.8,34.4,34.4,1.8,2.7,2.695,0.14218047417536833,-0.1009645257188187,0.948146158057142,-0.01719365920000517,-0.365917,-19.79247
11.185,2.0,1.0,1.0,33.8,34.4,34.4,1.8,2.7,2.6975,0.12729525862717342,-0.10382196756461769,0.9487555284333427,-0.019483906921310024,-0.379428,-19.523894
11.185,2.0,1.0,1.0,33.8,34.4,34.4,1.8,2.7,2.7,0.11215650345208508,-0.1067731984099817,0.949073474220948,-0.021941980848465752,-0.393773,-19.251117
11.185,2.0,1.0,1.0,33.8,34.4,34.4,1.8,2.7,2.7025,0.09675984422794365,-0.10982073717585665,0.9490815758518214,-0.024581639936643515,-0.409022,-18.973999
11.185,2.0,1.0,1.0,33.8,34.4,34.4,1.8,2.7,2.705,0.08110109011881272,-0.11296693081904878,0.9487599103144833,-0.027417965451488283,-0.425255,-18.692395
11.185,2.0,1.0,1.0,33.8,34.4,34.4,1.8,2.7,2.7075,0.0651762940360211,-0.1162138866762024,0.9480868981774007,-0.030467505503683382,-0.442561,-18.406152
11.185,2.0,1.0,1.0,33.8,34.4,34.4,1.8,2.7,2.71,0.04898183894413391,-0.1195633889482789,0.9470391331025219,-0.03374843657451628,-0.461039,-18.115113
11.185,2.0,1.0,1.0,33.8,34.4,34.4,1.8,2.7,2.7125,0.03251454388421603,-0.12301679579235417,0.9455911918795011,-0.037280743959784896,-0.4808,-17.819115
11.185,2.0,1.0,1.0,33.8,34.4,34.4,1.8,2.7,2.715,0.01577179409595028,-0.12657491268551319,0.9437154228690412,-0.04108642319758344,-0.501966,-17.517985
11.185,2.0,1.0,1.0,33.8,34.4,34.4,1.8,2.7,2.7175,-0.0012482993822267535,-0.13023783673674155,0.9413817106331644,-0.045189704652256024,-0.524677,-17.211549
11.185,2.0,1.0,1.0,33.8,34.4,34.4,1.8,2.7,2.72,-0.018546704025704856,-0.13400476540320702,0.9385572144756653,-0.04961730347742662,-0.549089,-16.899623
11.185,2.0,1.0,1.0,33.8,34.4,34.4,1.8,2.7,2.7225,-0.03612322592323947,-0.13787376156379413,0.9352060786539088,-0.054398697139383556,-0.575379,-16.582017
11.185,2.0,1.0,1.0,33.8,34.4,34.4,1.8,2.7,2.725,-0.05397621566933469,-0.14184146505035203,0.9312891122061009,-0.05956643249584727,-0.603745,-16.258538
11.185,2.0,1.0,1.0,33.8,34.4,34.4,1.8,2.7,2.7275,-0.07210220775712385,-0.1459027384582092,0.9267634367418071,-0.06515646401917197,-0.634414,-15.928986
11.185,2.0,1.0,1.0,33.8,34.4,34.4,1.8,2.7,2.73,-0.09049547835807552,-0.15005023226017675,0.921582101275682,-0.07120852402007172,-0.667644,-15.593156
11.185,2.0,1.0,1.0,33.8,34.4,34.4,1.8,2.7,2.7325,-0.10914750292399657,-0.15427385082644446,0.9156936643978721,-0.07776652451626541,-0.703726,-15.25084
11.185,2.0,1.0,1.0,33.8,34.4,34.4,1.8,2.7,2.735,-0.12804629084593222,-0.15856009678764135,0.9090417459847958,-0.08487898848593278,-0.742998,-14.901828
11.185,2.0,1.0,1.0,33.8,34.4,34.4,1.8,2.7,2.7375,-0.14717556932694134,-0.16289126614402472,0.9015645535628037,-0.09259950534883209,-0.785844,-14.54591
11.185,2.0,1.0,1.0,33.8,34.4,34.4,1.8,2.7,2.74,-0.16651378254829846,-0.16724446049885172,0.8931943927651412,-0.10098720121064206,-0.832708,-14.182878
11.185,2.0,1.0,1.0,33.8,34.4,34.4,1.8,2.7,2.7425,-0.1860328650362233,-0.1715903756843849,0.8838571776515234,-0.11010720811072043,-0.884101,-13.812528
11.185,2.0,1.0,1.0,33.8,34.4,34.4,1.8,2.7,2.745,-0.20569673984091644,-0.17589181782817498,0.8734719657886576,-0.12003110743678669,-0.940615,-13.434668
11.185,2.0,1.0,1.0,33.8,34.4,34.4,1.8,2.7,2.7475,-0.22545948283202075,-0.1801018886859332,0.8619505560044458,-0.13083730973444357,-1.00294,-13.049117
11.185,2.0,1.0,1.0,33.8,34.4,34.4,1.8,2.7,2.75,-0.245263084458218,-0.184161772208259,0.849197205084185,-0.142611314900413,-1.071878,-12.655719
11.185,2.0,1.0,1.0,33.8,34.4,34.4,1.8,2.7,2.7525,-0.26503473051811854,-0.18799804461241904,0.835108545289588,-0.15544577130460951,-1.148369,-12.254345
11.185,2.0,1.0,1.0,33.8,34.4,34.4,1.8,2.7,2.755,-0.28468351538434333,-0.19151942222853247,0.8195738199090805,-0.1694402172993698,-1.233516,-11.844908
11.185,2.0,1.0,1.0,33.8,34.4,34.4,1.8,2.7,2.7575,-0.3040964974398899,-0.19461285779229162,0.8024756021245799,-0.1847003408352873,-1.328616,-11.427376
11.185,2.0,1.0,1.0,33.8,34.4,34.4,1.8,2.7,2.76,-0.3231340118122869,-0.19713890122134797,0.7836912268286971,-0.2013365290205338,-1.435203,-11.001787
11.185,2.0,1.0,1.0,33.8,34.4,34.4,1.8,2.7,2.7625,-0.34162417723782373,-0.19892626260048546,0.7630952493060181,-0.2194613958107264,-1.555095,-10.568273
11.185,2.0,1.0,1.0,33.8,34.4,34.4,1.8,2.7,2.765,-0.3593565835941692,-0.19976556456913047,0.7405633518365011,-0.23918586970099942,-1.69045,-10.127085
11.185,2.0,1.0,1.0,33.8,34.4,34.4,1.8,2.7,2.7675,-0.37607524158803307,-0.19940236570935793,0.7159782497107208,-0.26061329391277377,-1.843841,-9.678626
11.185,2.0,1.0,1.0,33.8,34.4,34.4,1.8,2.7,2.77,-0.3914710409867022,-0.1975297003942764,0.6892382964378925,-0.2838308445429427,-2.018336,-9.22349
11.185,2.0,1.0,1.0,33.8,34.4,34.4,1.8,2.7,2.7725,-0.40517423182277523,-0.19378064679049986,0.660269637031559,-0.30889742443527013,-2.217603,-8.76251
11.185,2.0,1.0,1.0,33.8,34.4,34.4,1.8,2.7,2.775,-0.41674785463606345,-0.18772184341645992,0.6290428703155557,-0.335827079770817,-2.446026,-8.296816
11.185,2.0,1.0,1.0,33.8,34.4,34.4,1.8,2.7,2.7775,-0.4256836421793001,-0.1788494665666865,0.5955951843116454,-0.36456698396268633,-2.708837,-7.827893
11.185,2.0,1.0,1.0,33.8,34.4,34.4,1.8,2.7,2.78,-0.4314027205692346,-0.16658998012932535,0.5600587008448461,-0.3949692605928382,-3.012263,-7.357657
11.185,2.0,1.0,1.0,33.8,34.4,34.4,1.8,2.7,2.7825,-0.4332644246181119,-0.15030894780409904,0.5226951205389893,-0.42675655837927323,-3.363667,-6.888526
11.185,2.0,1.0,1.0,33.8,34.4,34.4,1.8,2.7,2.785,-0.43058756749016497,-0.12933221366286174,0.4839354506198156,-0.4594825911575558,-3.771654,-6.423489
11.185,2.0,1.0,1.0,33.8,34.4,34.4,1.8,2.7,2.7875,-0.4226892229530476,-0.10298446673678975,0.4444213662316607,-0.4924910712399127,-4.246083,-5.966165
11.185,2.0,1.0,1.0,33.8,34.4,34.4,1.8,2.7,2.79,-0.4089458484642174,-0.07064997279365359,0.40504146655918377,-0.5248797279933484,-4.797847,-5.520824
11.185,2.0,1.0,1.0,33.8,34.4,34.4,1.8,2.7,2.7925,-0.3888794448399386,-0.03185813530203867,0.3669515961623393,-0.5554801593602622,-5.438152,-5.092367
11.185,2.0,1.0,1.0,33.8,34.4,34.4,1.8,2.7,2.795,-0.36226634858050355,0.013608516858709948,0.3315645369577045,-0.5828680914651544,-6.176732,-4.686228
11.185,2.0,1.0,1.0,33.8,34.4,34.4,1.8,2.7,2.7975,-0.3292576213681259,0.06559488190254939,0.30049285279099497,-0.6054201209701027,-7.017878,-4.308179
11.185,2.0,1.0,1.0,33.8,34.4,34.4,1.8,2.7,2.8,-0.2904888395343055,0.12346441106062549,0.27543251281254255,-0.6214291864216226,-7.952105,-3.964035
11.185,2.0,1.0,1.0,33.8,34.4,34.4,1.8,2.7,2.8025,-0.2471470579092321,0.1860327715742245,0.2579868161304284,-0.6292792021173427,-8.940171,-3.659255
11.185,2.0,1.0,1.0,33.8,34.4,34.4,1.8,2.7,2.805,-0.2009601226902441,0.25157856252875455,0.2494499369261292,-0.6276596510664173,-9.888093,-3.398478
11.185,2.0,1.0,1.0,33.8,34.4,34.4,1.8,2.7,2.8075,-0.15408470888901024,0.31795446324477716,0.25059155892296736,-0.6157789826878378,-10.62792,-3.185066
11.185,2.0,1.0,1.0,33.8,34.4,34.4,1.8,2.7,2.81,-0.10889586529206605,0.3827959918478367,0.2614977554929611,-0.5935221209082712,-10.956124,-3.020724
11.185,2.0,1.0,1.0,33.8,34.4,34.4,1.8,2.7,2.8125,-0.0677145808978619,0.44379161350766,0.281517568265503,-0.561503082225567,-10.765622,-2.905293
11.185,2.0,1.0,1.0,33.8,34.4,34.4,1.8,2.7,2.815,-0.03253530501858723,0.498952767026417,0.30933699103804774,-0.520991238967573,-10.143584,-2.836746
11.185,2.0,1.0,1.0,33.8,34.4,34.4,1.8,2.7,2.8175,-0.004818118999774198,0.5468196752526038,0.3431626804083201,-0.47372881104008585,-9.289143,-2.811408
11.185,2.0,1.0,1.0,33.8,34.4,34.4,1.8,2.7,2.82,0.014612180734406222,0.5865610769064559,0.3809652474158654,-0.4216893344049244,-8.375908,-2.824328
11.185,2.0,1.0,1.0,33.8,34.4,34.4,1.8,2.7,2.8225,0.025553792206707733,0.6179616755393581,0.4207210700586478,-0.3668376448450259,-7.504123,-2.869747
11.185,2.0,1.0,1.0,33.8,34.4,34.4,1.8,2.7,2.825,0.028327985045226167,0.6413226845425593,0.46060380997319317,-0.31093975668011553,-6.717053,-2.941548
11.185,2.0,1.0,1.0,33.8,34.4,34.4,1.8,2.7,2.8275,0.023632843371002386,0.657316416460071,0.49910196987364713,-0.2554460732116179,-6.026488,-3.033662
11.185,2.0,1.0,1.0,33.8,34.4,34.4,1.8,2.7,2.83,0.012390357491706926,0.666834250187022,0.5350635123976576,-0.20144689804630836,-5.429565,-3.140356
