1,w,sub_t,h,l1,l2,l3,g1,g2,Freq,S11_re,S21_re,S11_img,S21_img,S11_dB,S21_dB
11.185,2.0,1.0,1.0,33.2,34.7,34.7,2.6,4.0,2.5,0.876408385536332,-0.00683909957243059,0.467328021482963,0.00592418112255843,-0.059086,-40.868794
11.185,2.0,1.0,1.0,33.2,34.7,34.7,2.6,4.0,2.5025,0.8733389885766373,-0.006994834755312876,0.47288798184263375,0.005968801858605234,-0.059716,-40.728643
11.185,2.0,1.0,1.0,33.2,34.7,34.7,2.6,4.0,2.505,0.8702201091975537,-0.007154102383110949,0.47845048264830176,0.006013333159221975,-0.060359,-40.587801
11.185,2.0,1.0,1.0,33.2,34.7,34.7,2.6,4.0,2.5075,0.8670511955276261,-0.007317006240000227,0.48401537338864425,0.0060577585188215065,-0.061017,-40.446249
11.185,2.0,1.0,1.0,33.2,34.7,34.7,2.6,4.0,2.51,0.8638316835847155,-0.007483654235689245,0.48958249837070444,0.006102060454541982,-0.061688,-40.303967
11.185,2.0,1.0,1.0,33.2,34.7,34.7,2.6,4.0,2.5125,0.8605609969004118,-0.007654158612120287,0.4951516965118297,0.006146220443638699,-0.062374,-40.160934
11.185,2.0,1.0,1.0,33.2,34.7,34.7,2.6,4.0,2.515,0.8572385461274578,-0.00782863616266705,0.5007228011220772,0.006190218856313236,-0.063076,-40.01713
11.185,2.0,1.0,1.0,33.2,34.7,34.7,2.6,4.0,2.5175,0.8538637286291417,-0.00800720846471458,0.5062956396765036,0.006234034883600252,-0.063793,-39.872531
11.185,2.0,1.0,1.0,33.2,34.7,34.7,2.6,4.0,2.52,0.8504359280495175,-0.008190002126579287,0.5118700335767369,0.006277646459896803,-0.064526,-39.727116
11.185,2.0,1.0,1.0,33.2,34.7,34.7,2.6,4.0,2.5225,0.8469545138632554,-0.008377149049804081,0.5174457979011521,0.006321030179679873,-0.065276,-39.580863
11.185,2.0,1.0,1.0,33.2,34.7,34.7,2.6,4.0,2.525,0.8434188409037991,-0.008568786707951161,0.5230227411429533,0.006364161207913873,-0.066043,-39.433747
11.185,2.0,1.0,1.0,33.2,34.7,34.7,2.6,4.0,2.5275,0.8398282488684173,-0.008765058443107489,0.5286006649353759,0.00640701318360209,-0.066828,-39.285744
11.185,2.0,1.0,1.0,33.2,34.7,34.7,2.6,4.0,2.53,0.8361820617986297,-0.008966113781421209,0.5341793637631769,0.006449558115882262,-0.067631,-39.136829
11.185,2.0,1.0,1.0,33.2,34.7,34.7,2.6,4.0,2.5325,0.8324795875343509,-0.009172108769099506,0.5397586246595033,0.006491766272007263,-0.068453,-38.986977
11.185,2.0,1.0,1.0,33.2,34.7,34.7,2.6,4.0,2.535,0.8287201171399641,-0.009383206330422446,0.545338226887159,0.006533606056486494,-0.069295,-38.836162
11.185,2.0,1.0,1.0,33.2,34.7,34.7,2.6,4.0,2.5375,0.8249029243004021,-0.009599576649461103,0.5509179416031847,0.006575043880589526,-0.070158,-38.684356
11.185,2.0,1.0,1.0,33.2,34.7,34.7,2.6,4.0,2.54,0.821027264685126,-0.009821397577338608,0.5564975315056055,0.006616044021333144,-0.071041,-38.531532
11.185,2.0,1.0,1.0,33.2,34.7,34.7,2.6,4.0,2.5425,0.8170923752777334,-0.010048855067035067,0.5620767504610565,0.006656568468981433,-0.071946,-38.377661
11.185,2.0,1.0,1.0,33.2,34.7,34.7,2.6,4.0,2.545,0.8130974736687283,-0.010282143637917155,0.5676553431119177,0.006696576761987968,-0.072874,-38.222713
11.185,2.0,1.0,1.0,33.2,34.7,34.7,2.6,4.0,2.5475,0.8090417573087691,-0.010521466872371292,0.5732330444614214,0.006736025808195555,-0.073826,-38.066658
11.185,2.0,1.0,1.0,33.2,34.7,34.7,2.6,4.0,2.55,0.8049244027194624,-0.010767037947137863,0.5788095794351046,0.0067748696909835215,-0.074801,-37.909464
11.185,2.0,1.0,1.0,33.2,34.7,34.7,2.6,4.0,2.5525,0.8007445646585422,-0.011019080202183729,0.5843846624167499,0.006813059458910487,-0.075802,-37.751099
11.185,2.0,1.0,1.0,33.2,34.7,34.7,2.6,4.0,2.555,0.7965013752359468,-0.01127782775021776,0.5899579967568581,0.006850542897242426,-0.07683,-37.59153
11.185,2.0,1.0,1.0,33.2,34.7,34.7,2.6,4.0,2.5575,0.7921939429770194,-0.011543526130247131,0.5955292742514362,0.00688726427957841,-0.077884,-37.430721
11.185,2.0,1.0,1.0,33.2,34.7,34.7,2.6,4.0,2.56,0.7878213518286962,-0.011816433008898388,0.6010981745886945,0.006923164097585879,-0.078967,-37.268637
11.185,2.0,1.0,1.0,33.2,34.7,34.7,2.6,4.0,2.5625,0.7833826601041591,-0.012096818933587626,0.6066643647609887,0.0069581787666340425,-0.080079,-37.105241
11.185,2.0,1.0,1.0,33.2,34.7,34.7,2.6,4.0,2.565,0.7788768993609986,-0.012384968142025412,0.6122274984390771,0.0069922403048593065,-0.081222,-36.940495
11.185,2.0,1.0,1.0,33.2,34.7,34.7,2.6,4.0,2.5675,0.7743030732074746,-0.012681179432985466,0.6177872153054229,0.007025275982912529,-0.082397,-36.774359
11.185,2.0,1.0,1.0,33.2,34.7,34.7,2.6,4.0,2.57,0.7696601560309044,-0.012985767103761236,0.6233431403429571,0.00705720794131493,-0.083605,-36.606791
11.185,2.0,1.0,1.0,33.2,34.7,34.7,2.6,4.0,2.5725,0.7649470916416496,-0.013299061960284964,0.6288948830753005,0.0070879527719845065,-0.084847,-36.43775
11.185,2.0,1.0,1.0,33.2,34.7,34.7,2.6,4.0,2.575,0.7601627918255099,-0.013621412406496222,0.6344420367539964,0.007117421060081904,-0.086126,-36.267191
11.185,2.0,1.0,1.0,33.2,34.7,34.7,2.6,4.0,2.5775,0.755306134796597,-0.013953185620232105,0.6399841774878118,0.007145516881855748,-0.087442,-36.095068
11.185,2.0,1.0,1.0,33.2,34.7,34.7,2.6,4.0,2.58,0.7503759635419744,-0.014294768823674866,0.645520863308587,0.007172137253634089,-0.088797,-35.921335
11.185,2.0,1.0,1.0,33.2,34.7,34.7,2.6,4.0,2.5825,0.7453710840484129,-0.014646570657248824,0.6510516331674732,0.007197171526502956,-0.090194,-35.745941
11.185,2.0,1.0,1.0,33.2,34.7,34.7,2.6,4.0,2.585,0.7402902634006269,-0.015009022666815156,0.6565760058546471,0.007220500720520468,-0.091633,-35.568835
11.185,2.0,1.0,1.0,33.2,34.7,34.7,2.6,4.0,2.5875,0.7351322277392065,-0.015382580915088198,0.6620934788347795,0.00724199679152634,-0.093117,-35.389965
11.185,2.0,1.0,1.0,33.2,34.7,34.7,2.6,4.0,2.59,0.7298956600651956,-0.015767727729401698,0.6676035269895491,0.007261521822702391,-0.094648,-35.209275
11.185,2.0,1.0,1.0,33.2,34.7,34.7,2.6,4.0,2.5925,0.7245791978768314,-0.01616497359931144,0.6731056012574281,0.007278927132004881,-0.096229,-35.026706
11.185,2.0,1.0,1.0,33.2,34.7,34.7,2.6,4.0,2.595,0.7191814306223755,-0.016574859239045506,0.6785991271596914,0.007294052285401449,-0.097861,-34.8422
11.185,2.0,1.0,1.0,33.2,34.7,34.7,2.6,4.0,2.5975,0.7137008969511274,-0.016997957831538204,0.6840835032002016,0.007306724004477681,-0.099547,-34.655693
11.185,2.0,1.0,1.0,33.2,34.7,34.7,2.6,4.0,2.6,0.7081360817426978,-0.017434877472725707,0.6895580991248308,0.0073167549554038844,-0.10129,-34.46712
11.185,2.0,1.0,1.0,33.2,34.7,34.7,2.6,4.0,2.6025,0.7024854128923118,-0.017886263836981726,0.6950222540245168,0.007323942404434193,-0.103092,-34.276413
11.185,2.0,1.0,1.0,33.2,34.7,34.7,2.6,4.0,2.605,0.6967472578272965,-0.018352803087062084,0.7004752742637453,0.0073280667230052705,-0.104957,-34.083501
11.185,2.0,1.0,1.0,33.2,34.7,34.7,2.6,4.0,2.6075,0.6909199197269664,-0.01883522505475115,0.7059164312137072,0.007328889723063625,-0.106889,-33.88831
11.185,2.0,1.0,1.0,33.2,34.7,34.7,2.6,4.0,2.61,0.6850016334147696,-0.019334306721612217,0.7113449587664528,0.007326152800416107,-0.10889,-33.690761
11.185,2.0,1.0,1.0,33.2,34.7,34.7,2.6,4.0,2.6125,0.6789905608877526,-0.0198508760328956,0.7167600506029375,0.0073195748605988055,-0.110964,-33.490775
11.185,2.0,1.0,1.0,33.2,34.7,34.7,2.6,4.0,2.615,0.6728847864440578,-0.020385816081817876,0.7221608571838798,0.007308849997909062,-0.113116,-33.288264
11.185,2.0,1.0,1.0,33.2,34.7,34.7,2.6,4.0,2.6175,0.6666823113642518,-0.020940069706174888,0.7275464824276873,0.007293644893741547,-0.115351,-33.083141
11.185,2.0,1.0,1.0,33.2,34.7,34.7,2.6,4.0,2.62,0.6603810480966127,-0.02151464454468018,0.7329159800342834,0.007273595895089425,-0.117671,-32.875312
11.185,2.0,1.0,1.0,33.2,34.7,34.7,2.6,4.0,2.6225,0.6539788138900672,-0.022110618606638235,0.7382683494072626,0.007248305727864541,-0.120084,-32.664678
11.185,2.0,1.0,1.0,33.2,34.7,34.7,2.6,4.0,2.625,0.64747332381107,-0.022729146415691,0.743602531119286,0.00721733979237777,-0.122594,-32.451136
11.185,2.0,1.0,1.0,33.2,34.7,34.7,2.6,4.0,2.6275,0.6408621830722133,-0.023371465796572708,0.7489174018567657,0.007180221979681626,-0.125207,-32.234579
11.185,2.0,1.0,1.0,33.2,34.7,34.7,2.6,4.0,2.63,0.634142878590596,-0.02403890538323476,0.7542117687693779,0.007136429937240748,-0.12793,-32.014891
11.185,2.0,1.0,1.0,33.2,34.7,34.7,2.6,4.0,2.6325,0.6273127696827431,-0.024732892937574753,0.7594843631374965,0.007085389700240511,-0.13077,-31.791953
11.185,2.0,1.0,1.0,33.2,34.7,34.7,2.6,4.0,2.635,0.6203690777898467,-0.025454964580557238,0.7647338332558052,0.007026469590357132,-0.133735,-31.565638
11.185,2.0,1.0,1.0,33.2,34.7,34.7,2.6,4.0,2.6375,0.6133088751121617,-0.02620677505203188,0.7699587364136536,0.0069589732665099055,-0.136833,-31.335813
11.185,2.0,1.0,1.0,33.2,34.7,34.7,2.6,4.0,2.64,0.6061290720139133,-0.026990109132382974,0.775157529831532,0.006882131791371041,-0.140073,-31.102336
11.185,2.0,1.0,1.0,33.2,34.7,34.7,2.6,4.0,2.6425,0.5988264030400408,-0.027806894378661816,0.780328560387572,0.0067950945524733655,-0.143465,-30.865058
11.185,2.0,1.0,1.0,33.2,34.7,34.7,2.6,4.0,2.645,0.5913974113625682,-0.02865921535055059,0.7854700529372878,0.006696918846671943,-0.147019,-30.623821
11.185,2.0,1.0,1.0,33.2,34.7,34.7,2.6,4.0,2.6475,0.5838384314472697,-0.029549329527918132,0.7905800969926596,0.006586557900307263,-0.150749,-30.378459
11.185,2.0,1.0,1.0,33.2,34.7,34.7,2.6,4.0,2.65,0.5761455696994532,-0.030479685152523087,0.7956566314815936,0.006462847053194199,-0.154667,-30.128794
11.185,2.0,1.0,1.0,33.2,34.7,34.7,2.6,4.0,2.6525,0.5683146828107504,-0.03145294126235381,0.800697427253882,0.006324487780653685,-0.158788,-29.874637
11.185,2.0,1.0,1.0,33.2,34.7,34.7,2.6,4.0,2.655,0.5603413534854579,-0.03247199022909712,0.8057000669326688,0.006170029161843145,-0.163128,-29.615788
11.185,2.0,1.0,1.0,33.2,34.7,34.7,2.6,4.0,2.6575,0.5522208631744641,-0.03353998315833815,0.8106619216279668,0.005997846321619325,-0.167705,-29.352035
11.185,2.0,1.0,1.0,33.2,34.7,34.7,2.6,4.0,2.66,0.5439481613855653,-0.03466035856957759,0.8155801239271576,0.005806115273246606,-0.172538,-29.08315
11.185,2.0,1.0,1.0,33.2,34.7,34.7,2.6,4.0,2.6625,0.5355178310697203,-0.035836874840438585,0.8204515364515753,0.005592783465509703,-0.177649,-28.808891
11.185,2.0,1.0,1.0,33.2,34.7,34.7,2.6,4.0,2.665,0.5269240495017106,-0.0370736469781925,0.8252727151118595,0.005355535183876208,-0.183064,-28.528999
11.185,2.0,1.0,1.0,33.2,34.7,34.7,2.6,4.0,2.6675,0.5181605439788357,-0.038375188373822956,0.8300398659993191,0.005091750763046659,-0.188809,-28.243198
11.185,2.0,1.0,1.0,33.2,34.7,34.7,2.6,4.0,2.67,0.5092205415505497,-0.03974645830137289,0.8347487946053798,0.004798458326857369,-0.194916,-27.95119
11.185,2.0,1.0,1.0,33.2,34.7,34.7,2.6,4.0,2.6725,0.5000967118629576,-0.04119291605049638,0.839394845751949,0.004472276467068388,-0.20142,-27.652657
11.185,2.0,1.0,1.0,33.2,34.7,34.7,2.6,4.0,2.675,0.49078110205250985,-0.04272058272524521,0.8439728322236774,0.004109345886695285,-0.208359,-27.347257
11.185,2.0,1.0,1.0,33.2,34.7,34.7,2.6,4.0,2.6775,0.4812650624507802,-0.04433611190924365,0.8484769495938794,0.003705247541907194,-0.215779,-27.034621
11.185,2.0,1.0,1.0,33.2,34.7,34.7,2.6,4.0,2.68,0.47153916166528953,-0.04604687058802979,0.852900674096496,0.0032549041867724086,-0.22373,-26.714352
11.185,2.0,1.0,1.0,33.2,34.7,34.7,2.6,4.0,2.6825,0.461593089379559,-0.04786103193365957,0.8572366395730018,0.002752461414028204,-0.23227,-26.386019
11.185,2.0,1.0,1.0,33.2,34.7,34.7,2.6,4.0,2.685,0.4514155449709732,-0.049787681792398744,0.861476488456499,0.0021911432343669377,-0.241466,-26.049158
11.185,2.0,1.0,1.0,33.2,34.7,34.7,2.6,4.0,2.6875,0.440994109784249,-0.0518369409666804,0.865610690365349,0.00156307586766162,-0.251395,-25.703266
11.185,2.0,1.0,1.0,33.2,34.7,34.7,2.6,4.0,2.69,0.4303151006356139,-0.054020105632932726,0.8696283200565925,0.0008590716247852398,-0.262145,-25.347793
11.185,2.0,1.0,1.0,33.2,34.7,34.7,2.6,4.0,2.6925,0.41936340188579607,-0.056349808459577544,0.8735167840857407,6.836239114672168e-05,-0.273819,-24.982145
11.185,2.0,1.0,1.0,33.2,34.7,34.7,2.6,4.0,2.695,0.4081222732587886,-0.05884020313435231,0.8772614823282733,-0.0008217309199126792,-0.286539,-24.60567
11.185,2.0,1.0,1.0,33.2,34.7,34.7,2.6,4.0,2.6975,0.39657313058528343,-0.06150717498986764,0.8808453862539176,-0.0018262107751914976,-0.300444,-24.217658
11.185,2.0,1.0,1.0,33.2,34.7,34.7,2.6,4.0,2.7,0.38469529696490357,-0.06436858008165249,0.8842485101090345,-0.002962920770232585,-0.315703,-23.817329
11.185,2.0,1.0,1.0,33.2,34.7,34.7,2.6,4.0,2.7025,0.37246572272375245,-0.06744451417137472,0.8874472433973682,-0.004253199842448147,-0.332515,-23.40383
11.185,2.0,1.0,1.0,33.2,34.7,34.7,2.6,4.0,2.705,0.35985867442184677,-0.07075761117432841,0.8904135024693758,-0.005722714487044641,-0.351116,-22.976221
11.185,2.0,1.0,1.0,33.2,34.7,34.7,2.6,4.0,2.7075,0.34684539675952014,-0.07433336703013409,0.8931136445270199,-0.0074025247870933225,-0.371792,-22.533466
11.185,2.0,1.0,1.0,33.2,34.7,34.7,2.6,4.0,2.71,0.33339375775777214,-0.0782004784458169,0.8955070673586556,-0.009330459738851004,-0.394891,-22.074422
11.185,2.0,1.0,1.0,33.2,34.7,34.7,2.6,4.0,2.7125,0.3194678990993889,-0.08239117450815192,0.897544390431373,-0.01155290458568314,-0.420837,-21.597825
11.185,2.0,1.0,1.0,33.2,34.7,34.7,2.6,4.0,2.715,0.3050279335080787,-0.08694149931415839,0.8991650745009699,-0.01412714069487736,-0.450151,-21.102278
11.185,2.0,1.0,1.0,33.2,34.7,34.7,2.6,4.0,2.7175,0.29002976548651577,-0.09189146962187104,0.9002942834092639,-0.017124431079635,-0.483483,-20.586233
11.185,2.0,1.0,1.0,33.2,34.7,34.7,2.6,4.0,2.72,0.2744251709213894,-0.09728497291680666,0.900838717574903,-0.02063411751090046,-0.521647,-20.047979
11.185,2.0,1.0,1.0,33.2,34.7,34.7,2.6,4.0,2.7225,0.25816237284247523,-0.10316917061005566,0.9006810468095147,-0.024769095147023315,-0.565677,-19.485624
11.185,2.0,1.0,1.0,33.2,34.7,34.7,2.6,4.0,2.725,0.24118752613914432,-0.10959299761399714,0.8996724329971852,-0.029673165013015895,-0.616895,-18.897093
11.185,2.0,1.0,1.0,33.2,34.7,34.7,2.6,4.0,2.7275,0.22344782786891662,-0.11660404948732564,0.8976224563227356,-0.03553093775007065,-0.677013,-18.280118
11.185,2.0,1.0,1.0,33.2,34.7,34.7,2.6,4.0,2.73,0.2048974975884491,-0.12424262748783509,0.8942855505130427,-0.04258116519821467,-0.748274,-17.632264
11.185,2.0,1.0,1.0,33.2,34.7,34.7,2.6,4.0,2.7325,0.18550879029067663,-0.13253080644760268,0.8893428604089558,-0.051134562189337034,-0.833649,-16.95097
11.185,2.0,1.0,1.0,33.2,34.7,34.7,2.6,4.0,2.735,0.16529179625574159,-0.14145282190943476,0.8823784106715961,-0.0615971989991143,-0.937118,-16.233662
11.185,2.0,1.0,1.0,33.2,34.7,34.7,2.6,4.0,2.7375,0.14432950520604768,-0.15092039193116827,0.8728490294951051,-0.07449998758254234,-1.064066,-15.477962
11.185,2.0,1.0,1.0,33.2,34.7,34.7,2.6,4.0,2.74,0.12283911943114753,-0.16071215605431333,0.8600496393823,-0.09053263113161882,-1.221826,-14.682076
11.185,2.0,1.0,1.0,33.2,34.7,34.7,2.6,4.0,2.7425,0.10127751114540327,-0.17036962840031944,0.8430817493247886,-0.11057424908997256,-1.420383,-13.8455
11.185,2.0,1.0,1.0,33.2,34.7,34.7,2.6,4.0,2.745,0.08051741071321265,-0.17902355755807942,0.8208486175714128,-0.13569745100807082,-1.673152,-12.970249
11.185,2.0,1.0,1.0,33.2,34.7,34.7,2.6,4.0,2.7475,0.0621252008446977,-0.18512049526921096,0.7921359189142473,-0.16708776999398828,-1.997375,-12.06294
11.185,2.0,1.0,1.0,33.2,34.7,34.7,2.6,4.0,2.75,0.0487470459708698,-0.186043432259693,0.755906005871274,-0.205752218469302,-2.41262,-11.138132
11.185,2.0,1.0,1.0,33.2,34.7,34.7,2.6,4.0,2.7525,0.04449063256203021,-0.17773844177534065,0.712033195100021,-0.25179329945052825,-2.933072,-10.223184
11.185,2.0,1.0,1.0,33.2,34.7,34.7,2.6,4.0,2.755,0.05485507875023742,-0.15478914571206998,0.6627237450739635,-0.303010090086615,-3.543696,-9.36386
11.185,2.0,1.0,1.0,33.2,34.7,34.7,2.6,4.0,2.7575,0.08521784455232152,-0.11191475544161827,0.6143882914976263,-0.3530590229792251,-4.148382,-8.627232
11.185,2.0,1.0,1.0,33.2,34.7,34.7,2.6,4.0,2.76,0.13696677264056167,-0.04778350097146159,0.5782220817480573,-0.390896951909544,-4.521015,-8.094339
11.185,2.0,1.0,1.0,33.2,34.7,34.7,2.6,4.0,2.7625,0.20301504663384182,0.030582772871308728,0.5663946146425657,-0.40455280666066734,-4.412699,-7.835747
11.185,2.0,1.0,1.0,33.2,34.7,34.7,2.6,4.0,2.765,0.2684421290658005,0.1084704773565034,0.5841709217310874,-0.38888822289891645,-3.837169,-7.878127
11.185,2.0,1.0,1.0,33.2,34.7,34.7,2.6,4.0,2.7675,0.3186574130062092,0.17153450394714467,0.6256719604318166,-0.3497434566682364,-3.071461,-8.188868
11.185,2.0,1.0,1.0,33.2,34.7,34.7,2.6,4.0,2.77,0.3471693348953907,0.21343489691056974,0.6786624335656581,-0.2991898580418153,-2.357422,-8.694442
11.185,2.0,1.0,1.0,33.2,34.7,34.7,2.6,4.0,2.7725,0.3556802867506899,0.23590066812737354,0.7322749913705039,-0.2479186686680924,-1.7866,-9.313957
11.185,2.0,1.0,1.0,33.2,34.7,34.7,2.6,4.0,2.775,0.34954336721261503,0.24424023832800662,0.7804173546463671,-0.20190137434212085,-1.359449,-9.981908
11.185,2.0,1.0,1.0,33.2,34.7,34.7,2.6,4.0,2.7775,0.33409671280996495,0.24373256683652242,0.8210320612648017,-0.1631330950542498,-1.047354,-10.654108
11.185,2.0,1.0,1.0,33.2,34.7,34.7,2.6,4.0,2.78,0.3132955892294194,0.23828649538000163,0.8542610037531643,-0.13144621475159776,-0.820137,-11.304247
11.185,2.0,1.0,1.0,33.2,34.7,34.7,2.6,4.0,2.7825,0.2896843886409209,0.23041843133866302,0.8810970433459013,-0.10583891997101012,-0.653758,-11.91826
11.185,2.0,1.0,1.0,33.2,34.7,34.7,2.6,4.0,2.785,0.26477202235467384,0.2216249742971911,0.9026936563441991,-0.0851538113468344,-0.530763,-12.489612
11.185,2.0,1.0,1.0,33.2,34.7,34.7,2.6,4.0,2.7875,0.2394017314402557,0.21274846088883934,0.9200896288117094,-0.06834756860756132,-0.438901,-13.016098
11.185,2.0,1.0,1.0,33.2,34.7,34.7,2.6,4.0,2.79,0.21401573344762817,0.2042381405746752,0.9341335391988171,-0.05456414129755198,-0.369642,-13.497851
11.185,2.0,1.0,1.0,33.2,34.7,34.7,2.6,4.0,2.7925,0.18882317094189513,0.1963157859604312,0.9454882272303595,-0.04312946630718594,-0.317029,-13.936182
11.185,2.0,1.0,1.0,33.2,34.7,34.7,2.6,4.0,2.795,0.16390095023973217,0.18907510408505734,0.9546603237439428,-0.033521708942856235,-0.276861,-14.332903
11.185,2.0,1.0,1.0,33.2,34.7,34.7,2.6,4.0,2.7975,0.13925262040677253,0.1825398159012512,0.9620328608197625,-0.025338579727974087,-0.246148,-14.689962
11.185,2.0,1.0,1.0,33.2,34.7,34.7,2.6,4.0,2.8,0.11484219958826869,0.17669709388148727,0.9678935610974311,-0.01826894363379913,-0.222733,-15.009233
11.185,2.0,1.0,1.0,33.2,34.7,34.7,2.6,4.0,2.8025,0.09061334968229105,0.1715166153819686,0.9724572349637658,-0.012070216729364702,-0.205045,-15.292421
11.185,2.0,1.0,1.0,33.2,34.7,34.7,2.6,4.0,2.805,0.06650005508081422,0.1669612991231088,0.9758827634936179,-0.006551039076414962,-0.191927,-15.541003
11.185,2.0,1.0,1.0,33.2,34.7,34.7,2.6,4.0,2.8075,0.042432388825260466,0.1629932559418683,0.9782856802579896,-0.0015581908315053627,-0.182523,-15.75621
11.185,2.0,1.0,1.0,33.2,34.7,34.7,2.6,4.0,2.81,0.018339439716675985,0.1595769977318733,0.9797473502477477,0.003033266705142438,-0.176197,-15.939025
11.185,2.0,1.0,1.0,33.2,34.7,34.7,2.6,4.0,2.8125,-0.00584940110119339,0.156681087138883,0.980321565887043,0.00732747172300531,-0.172474,-16.09018
11.185,2.0,1.0,1.0,33.2,34.7,34.7,2.6,4.0,2.815,-0.030204101096991495,0.15427891302285734,0.9800391819686148,0.011413523356413305,-0.171008,-16.210164
11.185,2.0,1.0,1.0,33.2,34.7,34.7,2.6,4.0,2.8175,-0.0547941942476953,0.15234898844202996,0.9789112388329079,0.015370024788259759,-0.171548,-16.299229
11.185,2.0,1.0,1.0,33.2,34.7,34.7,2.6,4.0,2.82,-0.0796893046469325,0.15087499971012713,0.9769308844318757,0.019268788536756096,-0.173922,-16.357389
11.185,2.0,1.0,1.0,33.2,34.7,34.7,2.6,4.0,2.8225,-0.10495985236213781,0.14984573558462147,0.9740742964868081,0.023177999028830016,-0.178024,-16.384428
11.185,2.0,1.0,1.0,33.2,34.7,34.7,2.6,4.0,2.825,-0.1306778633400944,0.1492549650851267,0.9703007177886963,0.027165071192908515,-0.183806,-16.379893
11.185,2.0,1.0,1.0,33.2,34.7,34.7,2.6,4.0,2.8275,-0.15691783406174653,0.14910129309694814,0.9655516426023752,0.031299411415771326,-0.191275,-16.34309
11.185,2.0,1.0,1.0,33.2,34.7,34.7,2.6,4.0,2.83,-0.18375761252197395,0.1493879935682348,0.9597491224209834,0.0356552755158288,-0.200488,-16.273076
