1,w,sub_t,h,l1,l2,l3,g1,g2,Freq,S11_re,S21_re,S11_img,S21_img,S11_dB,S21_dB
11.185,2.0,1.0,1.0,34.7,34.7,34.7,3.3,2.8,2.5,0.661082679007081,-0.0157101693819424,0.737953061421259,0.00605618213510387,-0.080632,-35.474672
11.185,2.0,1.0,1.0,34.7,34.7,34.7,3.3,2.8,2.5025,0.6547404233725084,-0.016010069684415422,0.7434307136901791,0.006006065951760595,-0.081653,-35.340298
11.185,2.0,1.0,1.0,34.7,34.7,34.7,3.3,2.8,2.505,0.6483148355018438,-0.01631584328229726,0.7488833855948406,0.005952235410045626,-0.082697,-35.20517
11.185,2.0,1.0,1.0,34.7,34.7,34.7,3.3,2.8,2.5075,0.6418050517939413,-0.016627633851684653,0.7543101231212777,0.005894541114996269,-0.083764,-35.069272
11.185,2.0,1.0,1.0,34.7,34.7,34.7,3.3,2.8,2.51,0.6352101982513612,-0.01694558975399043,0.7597099441356138,0.005832827094777806,-0.084854,-34.932584
11.185,2.0,1.0,1.0,34.7,34.7,34.7,3.3,2.8,2.5125,0.6285293904150964,-0.017269864233648003,0.7650818374742402,0.0057669304568782245,-0.08597,-34.79509
11.185,2.0,1.0,1.0,34.7,34.7,34.7,3.3,2.8,2.515,0.6217617333003539,-0.017600615626204692,0.7704247619990571,0.005696681022847376,-0.08711,-34.65677
11.185,2.0,1.0,1.0,34.7,34.7,34.7,3.3,2.8,2.5175,0.6149063213333188,-0.017938007577449108,0.7757376456159362,0.0056219009400017795,-0.088277,-34.517606
11.185,2.0,1.0,1.0,34.7,34.7,34.7,3.3,2.8,2.52,0.607962238288772,-0.018282209274265854,0.7810193842544817,0.005542404268379411,-0.089471,-34.377578
11.185,2.0,1.0,1.0,34.7,34.7,34.7,3.3,2.8,2.5225,0.6009285572284524,-0.018633395687956654,0.7862688408069576,0.005457996541081501,-0.090692,-34.236665
11.185,2.0,1.0,1.0,34.7,34.7,34.7,3.3,2.8,2.525,0.5938043404399737,-0.018991747830822497,0.7914848440241563,0.005368474295976635,-0.091943,-34.094847
11.185,2.0,1.0,1.0,34.7,34.7,34.7,3.3,2.8,2.5275,0.5865886393761156,-0.0193574530268557,0.7966661873657643,0.005273624576564543,-0.093223,-33.952103
11.185,2.0,1.0,1.0,34.7,34.7,34.7,3.3,2.8,2.53,0.5792804945942566,-0.019730705197452014,0.8018116278025984,0.0051732243995998945,-0.094535,-33.808409
11.185,2.0,1.0,1.0,34.7,34.7,34.7,3.3,2.8,2.5325,0.5718789356956778,-0.02011170516311894,0.8069198845678851,0.0050670401868621266,-0.095878,-33.663744
11.185,2.0,1.0,1.0,34.7,34.7,34.7,3.3,2.8,2.535,0.5643829812644182,-0.020500660962226153,0.8119896378545193,0.004954827158218979,-0.097254,-33.518085
11.185,2.0,1.0,1.0,34.7,34.7,34.7,3.3,2.8,2.5375,0.5567916388053367,-0.02089778818791931,0.8170195274549681,0.004836328682869608,-0.098664,-33.371406
11.185,2.0,1.0,1.0,34.7,34.7,34.7,3.3,2.8,2.54,0.5491039046809537,-0.02130331034440083,0.8220081513402296,0.004711275585363597,-0.10011,-33.223683
11.185,2.0,1.0,1.0,34.7,34.7,34.7,3.3,2.8,2.5425,0.5413187640466005,-0.021717459223868224,0.8269540641739223,0.004579385402672825,-0.101592,-33.07489
11.185,2.0,1.0,1.0,34.7,34.7,34.7,3.3,2.8,2.545,0.5334351907833459,-0.02214047530549456,0.8318557757572482,0.004440361588238656,-0.103112,-32.925001
11.185,2.0,1.0,1.0,34.7,34.7,34.7,3.3,2.8,2.5475,0.525452147428099,-0.02257260817793688,0.836711749400175,0.0042938926585270485,-0.104672,-32.773989
11.185,2.0,1.0,1.0,34.7,34.7,34.7,3.3,2.8,2.55,0.5173685851001805,-0.02301411698696843,0.8415204002137915,0.0041396512771857494,-0.106272,-32.621824
11.185,2.0,1.0,1.0,34.7,34.7,34.7,3.3,2.8,2.5525,0.5091834434236309,-0.023465270909944082,0.8462800933182721,0.003977293271421148,-0.107915,-32.468478
11.185,2.0,1.0,1.0,34.7,34.7,34.7,3.3,2.8,2.555,0.5008956504443595,-0.02392634965893795,0.8509891419604098,0.003806456574671306,-0.109602,-32.31392
11.185,2.0,1.0,1.0,34.7,34.7,34.7,3.3,2.8,2.5575,0.4925041225411891,-0.02439764401452285,0.8556458055340673,0.003626760089058593,-0.111335,-32.158119
11.185,2.0,1.0,1.0,34.7,34.7,34.7,3.3,2.8,2.56,0.4840077643297256,-0.02487945639230682,0.8602482874962517,0.0034378024604406025,-0.113115,-32.001043
11.185,2.0,1.0,1.0,34.7,34.7,34.7,3.3,2.8,2.5625,0.475405468557856,-0.0253721014444953,0.8647947331708,0.00323916075813739,-0.114944,-31.842658
11.185,2.0,1.0,1.0,34.7,34.7,34.7,3.3,2.8,2.565,0.4666961159915491,-0.025875906698912238,0.8692832274308545,0.003030389050585996,-0.116825,-31.682928
11.185,2.0,1.0,1.0,34.7,34.7,34.7,3.3,2.8,2.5675,0.4578785752895129,-0.026391213238087196,0.8737117922503876,0.0028110168672501705,-0.11876,-31.521819
11.185,2.0,1.0,1.0,34.7,34.7,34.7,3.3,2.8,2.57,0.4489517028650872,-0.026918376421203333,0.8780783841140416,0.0025805475360760294,-0.12075,-31.359292
11.185,2.0,1.0,1.0,34.7,34.7,34.7,3.3,2.8,2.5725,0.43991434273359215,-0.027457766651897482,0.8823808912734005,0.0023384563846281974,-0.122798,-31.195309
11.185,2.0,1.0,1.0,34.7,34.7,34.7,3.3,2.8,2.575,0.43076532634320286,-0.02800977019511257,0.8866171308365276,0.0020841887917348386,-0.124907,-31.02983
11.185,2.0,1.0,1.0,34.7,34.7,34.7,3.3,2.8,2.5775,0.4215034723872033,-0.02857479004642194,0.8907848456761859,0.0018171580750114852,-0.12708,-30.862811
11.185,2.0,1.0,1.0,34.7,34.7,34.7,3.3,2.8,2.58,0.41212758659531423,-0.02915324685747594,0.8948817011405052,0.001536743197983499,-0.129318,-30.694211
11.185,2.0,1.0,1.0,34.7,34.7,34.7,3.3,2.8,2.5825,0.4026364615015427,-0.029745579921461113,0.8989052815480728,0.0012422862786725792,-0.131625,-30.523983
11.185,2.0,1.0,1.0,34.7,34.7,34.7,3.3,2.8,2.585,0.39302887618583465,-0.030352248222708787,0.9028530864473221,0.0009330898794181319,-0.134005,-30.35208
11.185,2.0,1.0,1.0,34.7,34.7,34.7,3.3,2.8,2.5875,0.383303595986546,-0.03097373155484587,0.9067225266177947,0.0006084140553346083,-0.13646,-30.178454
11.185,2.0,1.0,1.0,34.7,34.7,34.7,3.3,2.8,2.59,0.37345937218056585,-0.031610531712135154,0.9105109197881643,0.0002674731361274964,-0.138995,-30.003053
11.185,2.0,1.0,1.0,34.7,34.7,34.7,3.3,2.8,2.5925,0.363494941627667,-0.03226317375891001,0.9142154860429494,-9.056778705335611e-05,-0.141612,-29.825824
11.185,2.0,1.0,1.0,34.7,34.7,34.7,3.3,2.8,2.595,0.3534090263754731,-0.03293220738225484,0.91783334288639,-0.0004665967014936948,-0.144316,-29.646711
11.185,2.0,1.0,1.0,34.7,34.7,34.7,3.3,2.8,2.5975,0.3432003332211888,-0.033618208333319244,0.9213614999280973,-0.0008615588752305764,-0.147112,-29.465657
11.185,2.0,1.0,1.0,34.7,34.7,34.7,3.3,2.8,2.6,0.3328675532260851,-0.03432177996286315,0.9247968531506502,-0.001276461461980238,-0.150004,-29.282601
11.185,2.0,1.0,1.0,34.7,34.7,34.7,3.3,2.8,2.6025,0.3224093611785778,-0.0350435548568019,0.9281361787142293,-0.0017123785539652084,-0.152997,-29.09748
11.185,2.0,1.0,1.0,34.7,34.7,34.7,3.3,2.8,2.605,0.3118244150016154,-0.03578419657764357,0.9313761262476029,-0.002170456733773689,-0.156095,-28.910227
11.185,2.0,1.0,1.0,34.7,34.7,34.7,3.3,2.8,2.6075,0.3011113551000918,-0.03654440151775203,0.9345132115681185,-0.0026519211830739325,-0.159306,-28.720773
11.185,2.0,1.0,1.0,34.7,34.7,34.7,3.3,2.8,2.61,0.2902688036440525,-0.037324900870311976,0.9375438087657327,-0.003158082413693072,-0.162635,-28.529047
11.185,2.0,1.0,1.0,34.7,34.7,34.7,3.3,2.8,2.6125,0.27929536378367303,-0.038126462723676334,0.9404641415773066,-0.0036903436954017826,-0.166089,-28.334971
11.185,2.0,1.0,1.0,34.7,34.7,34.7,3.3,2.8,2.615,0.26818961879234915,-0.03894989428439373,0.9432702739673097,-0.00425020926492487,-0.169674,-28.138468
11.185,2.0,1.0,1.0,34.7,34.7,34.7,3.3,2.8,2.6175,0.2569501311348981,-0.03979604423358925,0.9459580998193263,-0.0048392934124467345,-0.173398,-27.939452
11.185,2.0,1.0,1.0,34.7,34.7,34.7,3.3,2.8,2.62,0.24557544145874907,-0.04066580522042929,0.9485233316292804,-0.005459330555468659,-0.17727,-27.737838
11.185,2.0,1.0,1.0,34.7,34.7,34.7,3.3,2.8,2.6225,0.23406406750734032,-0.04156011649504419,0.950961488075558,-0.006112186425630282,-0.181299,-27.533532
11.185,2.0,1.0,1.0,34.7,34.7,34.7,3.3,2.8,2.625,0.222414502956843,-0.0424799666813841,0.953267880322983,-0.00679987051240214,-0.185493,-27.326438
11.185,2.0,1.0,1.0,34.7,34.7,34.7,3.3,2.8,2.6275,0.21062521617979038,-0.043426396687895504,0.9554375968963615,-0.0075245499288541726,-0.189864,-27.116455
11.185,2.0,1.0,1.0,34.7,34.7,34.7,3.3,2.8,2.63,0.19869464894267017,-0.04440050275041002,0.9574654869345143,-0.008288564889559768,-0.194423,-26.903475
11.185,2.0,1.0,1.0,34.7,34.7,34.7,3.3,2.8,2.6325,0.18662121504908305,-0.04540343959698903,0.9593461416067104,-0.009094446019745312,-0.199182,-26.687385
11.185,2.0,1.0,1.0,34.7,34.7,34.7,3.3,2.8,2.635,0.17440329894608708,-0.04643642371831799,0.9610738734394213,-0.00994493374885397,-0.204154,-26.468066
11.185,2.0,1.0,1.0,34.7,34.7,34.7,3.3,2.8,2.6375,0.16203925431930447,-0.04750073671917019,0.9626426932613604,-0.010843000081699009,-0.209355,-26.245393
11.185,2.0,1.0,1.0,34.7,34.7,34.7,3.3,2.8,2.64,0.14952740271271334,-0.04859772871590115,0.9640462844276875,-0.011791873087498747,-0.2148,-26.019232
11.185,2.0,1.0,1.0,34.7,34.7,34.7,3.3,2.8,2.6425,0.13686603222264104,-0.04972882173116071,0.9652779739286993,-0.012795064502703197,-0.220507,-25.789443
11.185,2.0,1.0,1.0,34.7,34.7,34.7,3.3,2.8,2.645,0.12405339633310708,-0.05089551301909959,0.9663306999225053,-0.013856400909347578,-0.226495,-25.555878
11.185,2.0,1.0,1.0,34.7,34.7,34.7,3.3,2.8,2.6475,0.11108771298260668,-0.0520993782310656,0.9671969751531466,-0.014980059028772842,-0.232785,-25.318377
11.185,2.0,1.0,1.0,34.7,34.7,34.7,3.3,2.8,2.65,0.09796716398227728,-0.053342074301553605,0.9678688456226667,-0.016170605763453378,-0.239401,-25.076776
11.185,2.0,1.0,1.0,34.7,34.7,34.7,3.3,2.8,2.6525,0.08468989494423142,-0.05462534189490059,0.9683378437748686,-0.017433043730469118,-0.246369,-24.830895
11.185,2.0,1.0,1.0,34.7,34.7,34.7,3.3,2.8,2.655,0.07125401592919593,-0.05595100720219152,0.9685949353159367,-0.018772863162657395,-0.253717,-24.580546
11.185,2.0,1.0,1.0,34.7,34.7,34.7,3.3,2.8,2.6575,0.05765760308838939,-0.05732098281143815,0.9686304586381923,-0.02019610121230808,-0.261477,-24.325528
11.185,2.0,1.0,1.0,34.7,34.7,34.7,3.3,2.8,2.66,0.04389870166018601,-0.0587372672875843,0.9684340556221931,-0.02170940988320542,-0.269684,-24.065627
11.185,2.0,1.0,1.0,34.7,34.7,34.7,3.3,2.8,2.6625,0.029975330794047624,-0.06020194298594165,0.9679945923620803,-0.023320134046914548,-0.278379,-23.800616
11.185,2.0,1.0,1.0,34.7,34.7,34.7,3.3,2.8,2.665,0.015885490820675183,-0.06171717147488143,0.9673000680808107,-0.025036401277232334,-0.287605,-23.53025
11.185,2.0,1.0,1.0,34.7,34.7,34.7,3.3,2.8,2.6675,0.0016271737797457857,-0.0632851857497176,0.9663375101647568,-0.026867225573455507,-0.297411,-23.25427
11.185,2.0,1.0,1.0,34.7,34.7,34.7,3.3,2.8,2.67,-0.012801621730278838,-0.06490827816461898,0.9650928528377993,-0.02882262745194432,-0.307854,-22.972397
11.185,2.0,1.0,1.0,34.7,34.7,34.7,3.3,2.8,2.6725,-0.0274028699813379,-0.06658878267262269,0.9635507964968487,-0.030913773382890627,-0.318997,-22.684332
11.185,2.0,1.0,1.0,34.7,34.7,34.7,3.3,2.8,2.675,-0.04217848998177345,-0.06832904951769173,0.9616946441232708,-0.03315313815561802,-0.33091,-22.389755
11.185,2.0,1.0,1.0,34.7,34.7,34.7,3.3,2.8,2.6775,-0.05713030734730389,-0.07013140992946389,0.9595061104427365,-0.03555469449623827,-0.343676,-22.088323
11.185,2.0,1.0,1.0,34.7,34.7,34.7,3.3,2.8,2.68,-0.0722600029573556,-0.07199812757908133,0.9569650985987558,-0.038134135166794134,-0.357386,-21.779665
11.185,2.0,1.0,1.0,34.7,34.7,34.7,3.3,2.8,2.6825,-0.08756904412010598,-0.0739313324919037,0.9540494379949739,-0.04090913388242479,-0.372147,-21.463383
11.185,2.0,1.0,1.0,34.7,34.7,34.7,3.3,2.8,2.685,-0.10305859254494072,-0.07593293168116136,0.9507345756031833,-0.04389965273742236,-0.388081,-21.139049
11.185,2.0,1.0,1.0,34.7,34.7,34.7,3.3,2.8,2.6875,-0.118729381491172,-0.0780044888280169,0.946993211374738,-0.0471283054849955,-0.405327,-20.806197
11.185,2.0,1.0,1.0,34.7,34.7,34.7,3.3,2.8,2.69,-0.1345815518348509,-0.08014706269530615,0.942794866371907,-0.050620788029308396,-0.42405,-20.464328
11.185,2.0,1.0,1.0,34.7,34.7,34.7,3.3,2.8,2.6925,-0.15061443320022153,-0.08236099035298314,0.9381053697864902,-0.0544063899270806,-0.444439,-20.1129
11.185,2.0,1.0,1.0,34.7,34.7,34.7,3.3,2.8,2.695,-0.16682625135540788,-0.08464559632868424,0.9328862480709462,-0.058518603623381515,-0.466716,-19.751326
11.185,2.0,1.0,1.0,34.7,34.7,34.7,3.3,2.8,2.6975,-0.1832137362275638,-0.08699880193006516,0.9270939959216469,-0.06299585161080914,-0.491142,-19.37897
11.185,2.0,1.0,1.0,34.7,34.7,34.7,3.3,2.8,2.7,-0.19977159536964573,-0.0894165994346787,0.9206792048161428,-0.06788235570885325,-0.518028,-18.995143
11.185,2.0,1.0,1.0,34.7,34.7,34.7,3.3,2.8,2.7025,-0.2164918043884414,-0.0918923424854656,0.9135855203009224,-0.0732291771222335,-0.547741,-18.599096
11.185,2.0,1.0,1.0,34.7,34.7,34.7,3.3,2.8,2.705,-0.23336264710452848,-0.0944157852479385,0.9057483945270393,-0.07909546057315273,-0.580722,-18.19002
11.185,2.0,1.0,1.0,34.7,34.7,34.7,3.3,2.8,2.7075,-0.250367411726546,-0.0969717763444077,0.8970935962773732,-0.08554991996419051,-0.617502,-17.767036
11.185,2.0,1.0,1.0,34.7,34.7,34.7,3.3,2.8,2.71,-0.26748261171537474,-0.09953847591263978,0.8875354382449616,-0.09267260537809927,-0.658723,-17.329194
11.185,2.0,1.0,1.0,34.7,34.7,34.7,3.3,2.8,2.7125,-0.2846755464435029,-0.10208491049814788,0.8769746831918126,-0.10055698915205484,-0.705173,-16.875468
11.185,2.0,1.0,1.0,34.7,34.7,34.7,3.3,2.8,2.715,-0.30190094031021153,-0.10456760397898776,0.8652961017248122,-0.10931239736212975,-0.75782,-16.40476
11.185,2.0,1.0,1.0,34.7,34.7,34.7,3.3,2.8,2.7175,-0.3190962899710028,-0.10692591367463924,0.8523656838111305,-0.11906678323032045,-0.817863,-15.915896
11.185,2.0,1.0,1.0,34.7,34.7,34.7,3.3,2.8,2.72,-0.33617539464455626,-0.10907554611323865,0.8380275703418286,-0.12996977412913033,-0.886804,-15.407641
11.185,2.0,1.0,1.0,34.7,34.7,34.7,3.3,2.8,2.7225,-0.3530193273580878,-0.11089950999388878,0.8221008999361945,-0.14219579400939172,-0.966536,-14.878716
11.185,2.0,1.0,1.0,34.7,34.7,34.7,3.3,2.8,2.725,-0.3694638069972345,-0.11223546636590329,0.8043770133532762,-0.15594681448306458,-1.059467,-14.327829
11.185,2.0,1.0,1.0,34.7,34.7,34.7,3.3,2.8,2.7275,-0.3852815391147405,-0.11285804525301042,0.7846179182708849,-0.17145382534780662,-1.168685,-13.75374
11.185,2.0,1.0,1.0,34.7,34.7,34.7,3.3,2.8,2.73,-0.4001576209115544,-0.11245422777696672,0.7625577558851817,-0.18897527378784215,-1.298183,-13.155352
11.185,2.0,1.0,1.0,34.7,34.7,34.7,3.3,2.8,2.7325,-0.41365564518087167,-0.11058943695067706,0.737910505875937,-0.208789222679265,-1.453158,-12.531871
11.185,2.0,1.0,1.0,34.7,34.7,34.7,3.3,2.8,2.735,-0.4251719853664154,-0.10666183676483257,0.7103897595311423,-0.2311733810706036,-1.640402,-11.883052
11.185,2.0,1.0,1.0,34.7,34.7,34.7,3.3,2.8,2.7375,-0.43387667046734074,-0.09984328248282966,0.6797507033942459,-0.2563628447514626,-1.868796,-11.209581
11.185,2.0,1.0,1.0,34.7,34.7,34.7,3.3,2.8,2.74,-0.43864305181580643,-0.089009187321349,0.6458711134454924,-0.2844687316331202,-2.149855,-10.513665
11.185,2.0,1.0,1.0,34.7,34.7,34.7,3.3,2.8,2.7425,-0.43797883884686034,-0.07266999134883008,0.6088969745672882,-0.31533210689615365,-2.498149,-9.7999
11.185,2.0,1.0,1.0,34.7,34.7,34.7,3.3,2.8,2.745,-0.42999464388992265,-0.04894053981524528,0.5694857693426456,-0.34828023722179996,-2.931036,-9.076503
11.185,2.0,1.0,1.0,34.7,34.7,34.7,3.3,2.8,2.7475,-0.41249130234734194,-0.01562884119506106,0.5291735360993444,-0.381759326937842,-3.466199,-8.356934
11.185,2.0,1.0,1.0,34.7,34.7,34.7,3.3,2.8,2.75,-0.383313659951478,0.0294079989387558,0.490838052094953,-0.412871940608046,-4.113347,-7.661715
11.185,2.0,1.0,1.0,34.7,34.7,34.7,3.3,2.8,2.7525,-0.3411633025606044,0.08744856941470493,0.45907639922576793,-0.437001782590289,-4.852617,-7.019818
11.185,2.0,1.0,1.0,34.7,34.7,34.7,3.3,2.8,2.755,-0.2869423797985647,0.15756201697311675,0.4400420553875987,-0.4479815704456907,-5.591335,-6.468279
11.185,2.0,1.0,1.0,34.7,34.7,34.7,3.3,2.8,2.7575,-0.22519565014459478,0.23516871163019618,0.4400962189783332,-0.4394486756614275,-6.119028,-6.048144
11.185,2.0,1.0,1.0,34.7,34.7,34.7,3.3,2.8,2.76,-0.16441898479796047,0.31174080240476554,0.46310086452996224,-0.4075569831463444,-6.1709,-5.795738
11.185,2.0,1.0,1.0,34.7,34.7,34.7,3.3,2.8,2.7625,-0.11493385043518929,0.37694044358197876,0.5076613367466899,-0.35373079181400857,-5.671432,-5.73148
11.185,2.0,1.0,1.0,34.7,34.7,34.7,3.3,2.8,2.765,-0.08486175200117363,0.42265255969004734,0.5667374062056467,-0.2850402081789985,-4.836064,-5.85222
11.185,2.0,1.0,1.0,34.7,34.7,34.7,3.3,2.8,2.7675,-0.07702408606684347,0.44607952698252895,0.6305041132645006,-0.2113252044146633,-3.941907,-6.13242
11.185,2.0,1.0,1.0,34.7,34.7,34.7,3.3,2.8,2.77,-0.08899215921251354,0.44967725589257806,0.6902882369938277,-0.14125342864375603,-3.147802,-6.533299
11.185,2.0,1.0,1.0,34.7,34.7,34.7,3.3,2.8,2.7725,-0.11550657602732217,0.43872421551180735,0.7408218847151523,-0.0800717022439587,-2.50141,-7.013861
11.185,2.0,1.0,1.0,34.7,34.7,34.7,3.3,2.8,2.775,-0.15101184023113667,0.41878301986501104,0.7802279244462794,-0.02962952344770008,-1.995853,-7.538533
11.185,2.0,1.0,1.0,34.7,34.7,34.7,3.3,2.8,2.7775,-0.1910470786593856,0.3943116618055251,0.8088637114561446,0.010458004939054494,-1.606731,-8.080154
11.185,2.0,1.0,1.0,34.7,34.7,34.7,3.3,2.8,2.78,-0.23256680768544938,0.3683464508402618,0.8281364964234194,0.04162267455548389,-1.308285,-8.619767
11.185,2.0,1.0,1.0,34.7,34.7,34.7,3.3,2.8,2.7825,-0.2737230999675394,0.34272293609091964,0.839725533252154,0.06556491760103689,-1.078702,-9.145033
11.185,2.0,1.0,1.0,34.7,34.7,34.7,3.3,2.8,2.785,-0.31351205326006654,0.31843134108993904,0.8451949577958717,0.0838674196160163,-0.900995,-9.648415
11.185,2.0,1.0,1.0,34.7,34.7,34.7,3.3,2.8,2.7875,-0.35146471030880594,0.2959265931084937,0.8458532996764743,0.0978555967097462,-0.762405,-10.125649
11.185,2.0,1.0,1.0,34.7,34.7,34.7,3.3,2.8,2.79,-0.38742652098194125,0.275349226523063,0.8427364377892896,0.10858140018000463,-0.653481,-10.574606
11.185,2.0,1.0,1.0,34.7,34.7,34.7,3.3,2.8,2.7925,-0.4214153182409908,0.2566674675940949,0.8366402228645147,0.1168565950886737,-0.567243,-10.994491
11.185,2.0,1.0,1.0,34.7,34.7,34.7,3.3,2.8,2.795,-0.4535353882783297,0.23976308512010958,0.8281662363637975,0.12329900820672346,-0.498525,-11.385314
11.185,2.0,1.0,1.0,34.7,34.7,34.7,3.3,2.8,2.7975,-0.483927801806632,0.22448092446876644,0.8177653237871322,0.12837643367296303,-0.443477,-11.747544
11.185,2.0,1.0,1.0,34.7,34.7,34.7,3.3,2.8,2.8,-0.5127429119273679,0.21065625763539092,0.8057738623150117,0.1324432024645757,-0.39921,-12.081883
11.185,2.0,1.0,1.0,34.7,34.7,34.7,3.3,2.8,2.8025,-0.5401259228305302,0.19812905897218874,0.7924421580801364,0.13576884661924202,-0.363535,-12.389122
11.185,2.0,1.0,1.0,34.7,34.7,34.7,3.3,2.8,2.805,-0.5662099517858782,0.1867507862101759,0.7779559765144293,0.1385598878419275,-0.334785,-12.670059
11.185,2.0,1.0,1.0,34.7,34.7,34.7,3.3,2.8,2.8075,-0.5911132659133042,0.1763869817854465,0.7624525878237008,0.14097615208841502,-0.311675,-12.925436
11.185,2.0,1.0,1.0,34.7,34.7,34.7,3.3,2.8,2.81,-0.6149387586932336,0.16691762327361576,0.7460326159735241,0.14314291405600574,-0.293211,-13.155911
11.185,2.0,1.0,1.0,34.7,34.7,34.7,3.3,2.8,2.8125,-0.637774556038274,0.158236325228822,0.728768745321474,0.145159939355761,-0.278619,-13.362035
11.185,2.0,1.0,1.0,34.7,34.7,34.7,3.3,2.8,2.815,-0.6596951253654333,0.15024900963609208,0.7107120963422298,0.14710824912526674,-0.267292,-13.544245
11.185,2.0,1.0,1.0,34.7,34.7,34.7,3.3,2.8,2.8175,-0.6807625410768945,0.14287238042127795,0.6918968750468517,0.14905522591974738,-0.258758,-13.702849
11.185,2.0,1.0,1.0,34.7,34.7,34.7,3.3,2.8,2.82,-0.7010277198050979,0.1360323750524328,0.6723437380523699,0.15105851908910817,-0.252646,-13.838031
11.185,2.0,1.0,1.0,34.7,34.7,34.7,3.3,2.8,2.8225,-0.7205315284139188,0.12966267318785288,0.6520621921861497,0.15316908786542485,-0.248667,-13.949841
11.185,2.0,1.0,1.0,34.7,34.7,34.7,3.3,2.8,2.825,-0.7393057162210785,0.12370328905709194,0.6310522559555801,0.1554336330993749,-0.246602,-14.038196
11.185,2.0,1.0,1.0,34.7,34.7,34.7,3.3,2.8,2.8275,-0.757373647115301,0.11809924339750129,0.6093055423103525,0.1578966063489853,-0.246288,-14.102875
11.185,2.0,1.0,1.0,34.7,34.7,34.7,3.3,2.8,2.83,-0.7747508168144912,0.1127992919570192,0.5868058712991313,0.16060194161004535,-0.247613,-14.143513
