1,w,sub_t,h,l1,l2,l3,g1,g2,Freq,S11_re,S21_re,S11_img,S21_img,S11_dB,S21_dB
11.185,2.0,1.0,1.0,33.9,34.2,34.2,1.8,1.7,2.5,0.784481111557322,-0.0222355503381403,0.605096558690446,0.018838950645731,-0.080865,-30.709257
11.185,2.0,1.0,1.0,33.9,34.2,34.2,1.8,1.7,2.5025,0.7796872586020669,-0.022742992577172064,0.6110578265521547,0.01894836792261998,-0.081965,-30.573549
11.185,2.0,1.0,1.0,33.9,34.2,34.2,1.8,1.7,2.505,0.7748186431342549,-0.02326211727222201,0.6170133406574221,0.01905585622986055,-0.083091,-30.437106
11.185,2.0,1.0,1.0,33.9,34.2,34.2,1.8,1.7,2.5075,0.7698742867602606,-0.02379324268745868,0.6229625676627383,0.01916126937701448,-0.084245,-30.299915
11.185,2.0,1.0,1.0,33.9,34.2,34.2,1.8,1.7,2.51,0.7648531907923845,-0.02433669769545855,0.6289049546435358,0.019264453382182727,-0.085427,-30.161961
11.185,2.0,1.0,1.0,33.9,34.2,34.2,1.8,1.7,2.5125,0.759754335711466,-0.024892822198953276,0.6348399282860534,0.019365246033292215,-0.086639,-30.02323
11.185,2.0,1.0,1.0,33.9,34.2,34.2,1.8,1.7,2.515,0.754576680610885,-0.025461967571783355,0.6407668940402105,0.019463476421911624,-0.08788,-29.883709
11.185,2.0,1.0,1.0,33.9,34.2,34.2,1.8,1.7,2.5175,0.7493191626211498,-0.02604449712002184,0.6466852352311884,0.019558964447674,-0.089153,-29.743383
11.185,2.0,1.0,1.0,33.9,34.2,34.2,1.8,1.7,2.52,0.7439806963141875,-0.02664078656428645,0.6525943121272882,0.019651520291237387,-0.090458,-29.602236
11.185,2.0,1.0,1.0,33.9,34.2,34.2,1.8,1.7,2.5225,0.738560173086454,-0.02725122454430741,0.6584934609614107,0.01974094385354826,-0.091797,-29.460254
11.185,2.0,1.0,1.0,33.9,34.2,34.2,1.8,1.7,2.525,0.7330564605198938,-0.027876213146880238,0.6643819929033717,0.01982702415899997,-0.09317,-29.317421
11.185,2.0,1.0,1.0,33.9,34.2,34.2,1.8,1.7,2.5275,0.7274684017197517,-0.02851616845838619,0.6702591929800177,0.01990953871988342,-0.09458,-29.17372
11.185,2.0,1.0,1.0,33.9,34.2,34.2,1.8,1.7,2.53,0.7217948146281955,-0.02917152114312874,0.6761243189399008,0.019988252859318215,-0.096026,-29.029136
11.185,2.0,1.0,1.0,33.9,34.2,34.2,1.8,1.7,2.5325,0.7160344913126354,-0.02984271704879802,0.6819766000590279,0.020062918989627383,-0.097511,-28.88365
11.185,2.0,1.0,1.0,33.9,34.2,34.2,1.8,1.7,2.535,0.7101861972275837,-0.030530217840441975,0.6878152358839412,0.02013327584286649,-0.099036,-28.737247
11.185,2.0,1.0,1.0,33.9,34.2,34.2,1.8,1.7,2.5375,0.7042486704488469,-0.03123450166439368,0.6936393949080885,0.020199047649950418,-0.100602,-28.589908
11.185,2.0,1.0,1.0,33.9,34.2,34.2,1.8,1.7,2.54,0.6982206208787668,-0.03195606384367854,0.6994482131771443,0.020259943264524162,-0.102211,-28.441615
11.185,2.0,1.0,1.0,33.9,34.2,34.2,1.8,1.7,2.5425,0.6921007294211771,-0.032695417606500125,0.7052407928186022,0.020315655227402318,-0.103865,-28.29235
11.185,2.0,1.0,1.0,33.9,34.2,34.2,1.8,1.7,2.545,0.6858876471246764,-0.03345309484948227,0.7110162004905799,0.020365858767046673,-0.105565,-28.142092
11.185,2.0,1.0,1.0,33.9,34.2,34.2,1.8,1.7,2.5475,0.6795799942927596,-0.03422964693742618,0.7167734657443801,0.0204102107311708,-0.107312,-27.990824
11.185,2.0,1.0,1.0,33.9,34.2,34.2,1.8,1.7,2.55,0.6731763595592593,-0.03502564554142642,0.7225115792949288,0.020448348444131657,-0.10911,-27.838524
11.185,2.0,1.0,1.0,33.9,34.2,34.2,1.8,1.7,2.5525,0.6666752989275253,-0.03584168351727187,0.7282294911926914,0.0204798884843126,-0.11096,-27.685171
11.185,2.0,1.0,1.0,33.9,34.2,34.2,1.8,1.7,2.555,0.6600753347716528,-0.03667837582614984,0.7339261088901885,0.02050442537519081,-0.112864,-27.530745
11.185,2.0,1.0,1.0,33.9,34.2,34.2,1.8,1.7,2.5575,0.6533749547980298,-0.037536360499754624,0.7396002951956271,0.02052153018322849,-0.114823,-27.375224
11.185,2.0,1.0,1.0,33.9,34.2,34.2,1.8,1.7,2.56,0.6465726109654097,-0.03841629965199474,0.7452508661055365,0.02053074901511713,-0.116841,-27.218586
11.185,2.0,1.0,1.0,33.9,34.2,34.2,1.8,1.7,2.5625,0.6396667183616316,-0.03931888053957848,0.7508765885076223,0.02053160140623371,-0.11892,-27.060806
11.185,2.0,1.0,1.0,33.9,34.2,34.2,1.8,1.7,2.565,0.6326556540350491,-0.040244816673847085,0.7564761777442806,0.02052357859142999,-0.121062,-26.901862
11.185,2.0,1.0,1.0,33.9,34.2,34.2,1.8,1.7,2.5675,0.6255377557786934,-0.041194848986304905,0.7620482950263783,0.02050614164846779,-0.12327,-26.74173
11.185,2.0,1.0,1.0,33.9,34.2,34.2,1.8,1.7,2.57,0.6183113208651013,-0.04216974705038144,0.767591544686001,0.020478719503518636,-0.125547,-26.580384
11.185,2.0,1.0,1.0,33.9,34.2,34.2,1.8,1.7,2.5725,0.6109746047297241,-0.04317031036202826,0.7731044712558649,0.02044070678716216,-0.127895,-26.417799
11.185,2.0,1.0,1.0,33.9,34.2,34.2,1.8,1.7,2.575,0.6035258196007804,-0.04419736968182367,0.778585556361962,0.02039146152823555,-0.130318,-26.253948
11.185,2.0,1.0,1.0,33.9,34.2,34.2,1.8,1.7,2.5775,0.595963133073396,-0.04525178844130833,0.784033215414795,0.02033030267168486,-0.132819,-26.088803
11.185,2.0,1.0,1.0,33.9,34.2,34.2,1.8,1.7,2.58,0.5882846666258696,-0.04633446421631571,0.7894457940832158,0.02025650740524988,-0.135402,-25.922338
11.185,2.0,1.0,1.0,33.9,34.2,34.2,1.8,1.7,2.5825,0.5804884940758982,-0.0474463302700823,0.7948215645333764,0.020169308278347918,-0.13807,-25.754523
11.185,2.0,1.0,1.0,33.9,34.2,34.2,1.8,1.7,2.585,0.5725726399746562,-0.048588357168915984,0.8001587214136635,0.020067890094906716,-0.140827,-25.585329
11.185,2.0,1.0,1.0,33.9,34.2,34.2,1.8,1.7,2.5875,0.5645350779366681,-0.04976155447317183,0.8054553775646713,0.01995138656010049,-0.143678,-25.414724
11.185,2.0,1.0,1.0,33.9,34.2,34.2,1.8,1.7,2.59,0.5563737289035463,-0.050966972506207214,0.8107095594312137,0.01981887665895752,-0.146626,-25.242678
11.185,2.0,1.0,1.0,33.9,34.2,34.2,1.8,1.7,2.5925,0.5480864593397898,-0.05220570420388085,0.8159192021511996,0.01966938074260309,-0.149676,-25.069157
11.185,2.0,1.0,1.0,33.9,34.2,34.2,1.8,1.7,2.595,0.5396710793590909,-0.05347888704697646,0.8210821442936437,0.0195018562954518,-0.152834,-24.894129
11.185,2.0,1.0,1.0,33.9,34.2,34.2,1.8,1.7,2.5975,0.5311253407798369,-0.05478770507870421,0.8261961222153886,0.019315193353941943,-0.156104,-24.717559
11.185,2.0,1.0,1.0,33.9,34.2,34.2,1.8,1.7,2.6,0.5224469351088878,-0.056133391009096145,0.8312587640030084,0.019108209544380347,-0.159491,-24.539411
11.185,2.0,1.0,1.0,33.9,34.2,34.2,1.8,1.7,2.6025,0.5136334914531924,-0.0575172284076941,0.8362675829629743,0.018879644704090183,-0.163003,-24.359648
11.185,2.0,1.0,1.0,33.9,34.2,34.2,1.8,1.7,2.605,0.5046825743593621,-0.05894055398537998,0.8412199706193513,0.018628155046305946,-0.166644,-24.178233
11.185,2.0,1.0,1.0,33.9,34.2,34.2,1.8,1.7,2.6075,0.4955916815821007,-0.06040475996549852,0.8461131891740912,0.018352306825063194,-0.170423,-23.995126
11.185,2.0,1.0,1.0,33.9,34.2,34.2,1.8,1.7,2.61,0.4863582417833162,-0.06191129654355009,0.8509443633802118,0.018050569451661964,-0.174345,-23.810287
11.185,2.0,1.0,1.0,33.9,34.2,34.2,1.8,1.7,2.6125,0.4769796121648511,-0.06346167443364378,0.8557104717729526,0.01772130800905297,-0.178419,-23.623673
11.185,2.0,1.0,1.0,33.9,34.2,34.2,1.8,1.7,2.615,0.46745307603920694,-0.06505746749854598,0.8604083371980256,0.017362775104656555,-0.182652,-23.435242
11.185,2.0,1.0,1.0,33.9,34.2,34.2,1.8,1.7,2.6175,0.4577758403443534,-0.06670031545850122,0.8650346165695423,0.016973101995586097,-0.187054,-23.244949
11.185,2.0,1.0,1.0,33.9,34.2,34.2,1.8,1.7,2.62,0.44794503311079875,-0.06839192667196344,0.8695857897827902,0.016550288912922765,-0.191633,-23.052748
11.185,2.0,1.0,1.0,33.9,34.2,34.2,1.8,1.7,2.6225,0.43795770089164926,-0.07013408097888783,0.8740581476987664,0.016092194503478634,-0.1964,-22.858591
11.185,2.0,1.0,1.0,33.9,34.2,34.2,1.8,1.7,2.625,0.427810806169522,-0.0719286325941958,0.878447779108078,0.0155965242982762,-0.201364,-22.662428
11.185,2.0,1.0,1.0,33.9,34.2,34.2,1.8,1.7,2.6275,0.41750122475786666,-0.07377751303534706,0.8827505565714386,0.015060818106627124,-0.206539,-22.464208
11.185,2.0,1.0,1.0,33.9,34.2,34.2,1.8,1.7,2.63,0.40702574321886037,-0.07568273406347166,0.8869621210222393,0.014482436223072355,-0.211935,-22.263878
11.185,2.0,1.0,1.0,33.9,34.2,34.2,1.8,1.7,2.6325,0.3963810563254841,-0.07764639061210386,0.8910778650035708,0.013858544321382634,-0.217566,-22.061383
11.185,2.0,1.0,1.0,33.9,34.2,34.2,1.8,1.7,2.635,0.38556376460205966,-0.07967066367099487,0.8950929143972264,0.013186096895112442,-0.223446,-21.856666
11.185,2.0,1.0,1.0,33.9,34.2,34.2,1.8,1.7,2.6375,0.3745703719855253,-0.08175782308455787,0.8990021084855858,0.012461819087650827,-0.229591,-21.649668
11.185,2.0,1.0,1.0,33.9,34.2,34.2,1.8,1.7,2.64,0.36339728365936796,-0.08391023021491348,0.9027999781685214,0.011682186736068722,-0.236017,-21.440328
11.185,2.0,1.0,1.0,33.9,34.2,34.2,1.8,1.7,2.6425,0.35204080412385796,-0.08613034040792572,0.9064807221363002,0.01084340443205235,-0.242742,-21.228582
11.185,2.0,1.0,1.0,33.9,34.2,34.2,1.8,1.7,2.645,0.3404971355802453,-0.08842070518663493,0.9100381807756698,0.009941381379530517,-0.249784,-21.014365
11.185,2.0,1.0,1.0,33.9,34.2,34.2,1.8,1.7,2.6475,0.32876237672362263,-0.09078397407959932,0.9134658075593953,0.008971704801895984,-0.257166,-20.797607
11.185,2.0,1.0,1.0,33.9,34.2,34.2,1.8,1.7,2.65,0.3168325220596183,-0.09322289597124918,0.9167566376392834,0.007929610621609389,-0.264909,-20.578239
11.185,2.0,1.0,1.0,33.9,34.2,34.2,1.8,1.7,2.6525,0.30470346188493963,-0.09574031983667855,0.9199032533285143,0.00680995110102148,-0.273038,-20.356185
11.185,2.0,1.0,1.0,33.9,34.2,34.2,1.8,1.7,2.655,0.2923709831016575,-0.09833919469348293,0.9228977461206115,0.005607159094968811,-0.28158,-20.131371
11.185,2.0,1.0,1.0,33.9,34.2,34.2,1.8,1.7,2.6575,0.27983077107138504,-0.10102256856714895,0.9257316748490229,0.004315208522577937,-0.290563,-19.903715
11.185,2.0,1.0,1.0,33.9,34.2,34.2,1.8,1.7,2.66,0.2670784127593331,-0.1037935862228168,0.9283960195423842,0.0029275706171602045,-0.30002,-19.673136
11.185,2.0,1.0,1.0,33.9,34.2,34.2,1.8,1.7,2.6625,0.2541094014713102,-0.10665548536329059,0.9308811304756371,0.0014371654584908768,-0.309984,-19.439548
11.185,2.0,1.0,1.0,33.9,34.2,34.2,1.8,1.7,2.665,0.24091914355108232,-0.1096115909289946,0.9331766718554764,-0.00016369176952960076,-0.320494,-19.202861
11.185,2.0,1.0,1.0,33.9,34.2,34.2,1.8,1.7,2.6675,0.22750296748363227,-0.1126653070576512,0.9352715595094849,-0.0018833504214944119,-0.33159,-18.962983
11.185,2.0,1.0,1.0,33.9,34.2,34.2,1.8,1.7,2.67,0.21385613594470465,-0.11582010616683264,0.9371538918710708,-0.0037308906357696016,-0.343319,-18.719817
11.185,2.0,1.0,1.0,33.9,34.2,34.2,1.8,1.7,2.6725,0.19997386145232587,-0.11907951450745842,0.9388108734663362,-0.005716196970200029,-0.355728,-18.473263
11.185,2.0,1.0,1.0,33.9,34.2,34.2,1.8,1.7,2.675,0.18585132641643515,-0.1224470933962343,0.9402287300136839,-0.007850040310609768,-0.368874,-18.223217
11.185,2.0,1.0,1.0,33.9,34.2,34.2,1.8,1.7,2.6775,0.17148370855369466,-0.1259264151643721,0.9413926141420196,-0.0101441690386184,-0.382815,-17.969571
11.185,2.0,1.0,1.0,33.9,34.2,34.2,1.8,1.7,2.68,0.15686621284319227,-0.1295210326517803,0.9422865006186885,-0.012611410559043808,-0.39762,-17.712213
11.185,2.0,1.0,1.0,33.9,34.2,34.2,1.8,1.7,2.6825,0.14199411145339988,-0.13323444082179728,0.942893069854279,-0.015265784410042888,-0.41336,-17.451026
11.185,2.0,1.0,1.0,33.9,34.2,34.2,1.8,1.7,2.685,0.1268627933818793,-0.1370700287610309,0.9431935783193266,-0.018122628309974957,-0.430117,-17.185888
11.185,2.0,1.0,1.0,33.9,34.2,34.2,1.8,1.7,2.6875,0.111467825929849,-0.141031019949108,0.943167714369954,-0.0211987386314243,-0.447981,-16.916675
11.185,2.0,1.0,1.0,33.9,34.2,34.2,1.8,1.7,2.69,0.09580503059958811,-0.14512039821834335,0.9427934378395301,-0.02451252693098777,-0.467053,-16.643256
11.185,2.0,1.0,1.0,33.9,34.2,34.2,1.8,1.7,2.6925,0.07987057657308402,-0.14934081625415455,0.9420468016177733,-0.028084194297056195,-0.487444,-16.365497
11.185,2.0,1.0,1.0,33.9,34.2,34.2,1.8,1.7,2.695,0.06366109562947797,-0.15369448278969644,0.9409017533168172,-0.03193592539726508,-0.509279,-16.083259
11.185,2.0,1.0,1.0,33.9,34.2,34.2,1.8,1.7,2.6975,0.04717382321542016,-0.15818302379374358,0.9393299150299264,-0.036092104198318396,-0.532697,-15.796397
11.185,2.0,1.0,1.0,33.9,34.2,34.2,1.8,1.7,2.7,0.030406771432112352,-0.16280731190399378,0.9373003391437895,-0.04057955337241818,-0.557856,-15.504765
11.185,2.0,1.0,1.0,33.9,34.2,34.2,1.8,1.7,2.7025,0.013358940988227319,-0.16756725707622813,0.9347792381996739,-0.04542779936636387,-0.584932,-15.208212
11.185,2.0,1.0,1.0,33.9,34.2,34.2,1.8,1.7,2.705,-0.00396941925968737,-0.17246154985200696,0.9317296869557009,-0.05066936494812528,-0.614123,-14.906581
11.185,2.0,1.0,1.0,33.9,34.2,34.2,1.8,1.7,2.7075,-0.021576494637523494,-0.17748734673350233,0.9281112951432813,-0.05634009070003855,-0.645652,-14.599715
11.185,2.0,1.0,1.0,33.9,34.2,34.2,1.8,1.7,2.71,-0.03945851597397522,-0.18263988482315896,0.9238798500217212,-0.06247948631132417,-0.679775,-14.287453
11.185,2.0,1.0,1.0,33.9,34.2,34.2,1.8,1.7,2.7125,-0.05760928419224596,-0.1879120100581249,0.9189869288369601,-0.06913111151469792,-0.71678,-13.969636
11.185,2.0,1.0,1.0,33.9,34.2,34.2,1.8,1.7,2.715,-0.0760195890283403,-0.19329359995675655,0.9133794828513472,-0.07634298494459117,-0.756995,-13.646101
11.185,2.0,1.0,1.0,33.9,34.2,34.2,1.8,1.7,2.7175,-0.09467649862521867,-0.19877085770594288,0.9069993969633733,-0.08416801683604162,-0.800795,-13.31669
11.185,2.0,1.0,1.0,33.9,34.2,34.2,1.8,1.7,2.72,-0.113562491880054,-0.20432544956857215,0.8997830323985014,-0.09266445801514851,-0.84861,-12.981248
11.185,2.0,1.0,1.0,33.9,34.2,34.2,1.8,1.7,2.7225,-0.13265439972126347,-0.20993345191891574,0.8916607649598118,-0.10189635261985237,-0.900932,-12.639629
11.185,2.0,1.0,1.0,33.9,34.2,34.2,1.8,1.7,2.725,-0.15192211495250088,-0.2155640677119011,0.8825565384688253,-0.1119339748462912,-0.95833,-12.291695
11.185,2.0,1.0,1.0,33.9,34.2,34.2,1.8,1.7,2.7275,-0.1713270230158468,-0.22117806495508388,0.8723874630906353,-0.12285421995545519,-1.02146,-11.937325
11.185,2.0,1.0,1.0,33.9,34.2,34.2,1.8,1.7,2.73,-0.19082009827023633,-0.2267258820569011,0.8610635022640846,-0.13474090575985812,-1.091082,-11.576421
11.185,2.0,1.0,1.0,33.9,34.2,34.2,1.8,1.7,2.7325,-0.210339602737717,-0.23214533735735093,0.8484873112963358,-0.14768492149656606,-1.16808,-11.20891
11.185,2.0,1.0,1.0,33.9,34.2,34.2,1.8,1.7,2.735,-0.22980831782323544,-0.23735887379442333,0.8345543170371599,-0.16178413468314573,-1.253485,-10.834758
11.185,2.0,1.0,1.0,33.9,34.2,34.2,1.8,1.7,2.7375,-0.2491302361398714,-0.24227026639872934,0.819153163498137,-0.17714293118148272,-1.348499,-10.453981
11.185,2.0,1.0,1.0,33.9,34.2,34.2,1.8,1.7,2.74,-0.2681866433587736,-0.2467607232275016,0.802166695210032,-0.19387121689178619,-1.454538,-10.066656
11.185,2.0,1.0,1.0,33.9,34.2,34.2,1.8,1.7,2.7425,-0.28683153384355914,-0.2506843243341154,0.7834737109862164,-0.21208264881816088,-1.573263,-9.672939
11.185,2.0,1.0,1.0,33.9,34.2,34.2,1.8,1.7,2.745,-0.3048863362018078,-0.25386277588641143,0.7629517976096407,-0.23189178668702742,-1.706633,-9.273086
11.185,2.0,1.0,1.0,33.9,34.2,34.2,1.8,1.7,2.7475,-0.3221339868162872,-0.2560795185939405,0.7404816463240312,-0.25340976335639187,-1.856969,-8.86748
11.185,2.0,1.0,1.0,33.9,34.2,34.2,1.8,1.7,2.75,-0.338312496475081,-0.257073336700587,0.715953362023541,-0.276737965829847,-2.027016,-8.456655
11.185,2.0,1.0,1.0,33.9,34.2,34.2,1.8,1.7,2.7525,-0.3531083281925861,-0.2565317866509151,0.689275386201128,-0.3019591083194749,-2.220036,-8.041339
11.185,2.0,1.0,1.0,33.9,34.2,34.2,1.8,1.7,2.755,-0.36615016876074624,-0.2540850285715068,0.6603867488279286,-0.3291249857131741,-2.439906,-7.622491
11.185,2.0,1.0,1.0,33.9,34.2,34.2,1.8,1.7,2.7575,-0.37700405970273465,-0.24930102593906694,0.6292734012043653,-0.35824016015706284,-2.691232,-7.201346
11.185,2.0,1.0,1.0,33.9,34.2,34.2,1.8,1.7,2.76,-0.3851713756163681,-0.2416835994693033,0.5959892931653006,-0.38924092342089195,-2.979486,-6.779473
11.185,2.0,1.0,1.0,33.9,34.2,34.2,1.8,1.7,2.7625,-0.39009179578931746,-0.23067547644507067,0.5606825387367556,-0.4219691980716494,-3.311144,-6.358822
11.185,2.0,1.0,1.0,33.9,34.2,34.2,1.8,1.7,2.765,-0.3911541501231493,-0.2156692078179626,0.5236263202012237,-0.4561417348877854,-3.693829,-5.941783
11.185,2.0,1.0,1.0,33.9,34.2,34.2,1.8,1.7,2.7675,-0.38771867399674304,-0.19602947358956813,0.48525294450374473,-0.4913161984810453,-4.136421,-5.531225
11.185,2.0,1.0,1.0,33.9,34.2,34.2,1.8,1.7,2.77,-0.3791544652818663,-0.17113054925087845,0.4461875529944129,-0.5268576414538233,-4.649067,-5.130532
11.185,2.0,1.0,1.0,33.9,34.2,34.2,1.8,1.7,2.7725,-0.3648952965081027,-0.1404120601485818,0.40727540912248,-0.5619114346720693,-5.242971,-4.743592
11.185,2.0,1.0,1.0,33.9,34.2,34.2,1.8,1.7,2.775,-0.3445147437549338,-0.10345395710882126,0.36959379814424953,-0.5953915971927763,-5.929662,-4.374765
11.185,2.0,1.0,1.0,33.9,34.2,34.2,1.8,1.7,2.7775,-0.31781725943854033,-0.0600673181204934,0.3344372680735734,-0.6259957550957665,-6.719139,-4.028768
11.185,2.0,1.0,1.0,33.9,34.2,34.2,1.8,1.7,2.78,-0.284935260812466,-0.010391044177874934,0.30326476793178436,-0.6522581124363411,-7.615584,-3.710508
11.185,2.0,1.0,1.0,33.9,34.2,34.2,1.8,1.7,2.7825,-0.24641460767894668,0.04502314731550436,0.2776011013386651,-0.6726479452170612,-8.608058,-3.42483
11.185,2.0,1.0,1.0,33.9,34.2,34.2,1.8,1.7,2.785,-0.2032647188111426,0.10516110818880323,0.2588943422612812,-0.6857119109426768,-9.651998,-3.176205
11.185,2.0,1.0,1.0,33.9,34.2,34.2,1.8,1.7,2.7875,-0.15694904051816966,0.1685561971306099,0.2483447353183612,-0.6902446310089202,-10.639484,-2.968386
11.185,2.0,1.0,1.0,33.9,34.2,34.2,1.8,1.7,2.79,-0.1093001791138105,0.23337433066047947,0.2467351514784707,-0.6854575220669696,-11.377209,-2.804072
11.185,2.0,1.0,1.0,33.9,34.2,34.2,1.8,1.7,2.7925,-0.062361977608205534,0.2975717724514729,0.2543016836625545,-0.6711074124528322,-11.639396,-2.684643
11.185,2.0,1.0,1.0,33.9,34.2,34.2,1.8,1.7,2.795,-0.01818302645756662,0.3591011544111758,0.27067914728399495,-0.6475503452907656,-11.33135,-2.610015
11.185,2.0,1.0,1.0,33.9,34.2,34.2,1.8,1.7,2.7975,0.02139675264097038,0.4161241710060908,0.2949387094957087,-0.6157035009845065,-10.582568,-2.578642
11.185,2.0,1.0,1.0,33.9,34.2,34.2,1.8,1.7,2.8,0.054921256038864906,0.46718590741900523,0.3257095240031485,-0.5769234498683206,-9.621632,-2.58767
11.185,2.0,1.0,1.0,33.9,34.2,34.2,1.8,1.7,2.8025,0.08142210340844393,0.5113179962336586,0.3613537872120373,-0.5328313084781464,-8.626265,-2.633205
11.185,2.0,1.0,1.0,33.9,34.2,34.2,1.8,1.7,2.805,0.10044046770363287,0.5480599005209602,0.4001542554313001,-0.4851256646419461,-7.690106,-2.710649
11.185,2.0,1.0,1.0,33.9,34.2,34.2,1.8,1.7,2.8075,0.11197802691165537,0.5774095733477713,0.44047744688017804,-0.43541991378487327,-6.849549,-2.815047
11.185,2.0,1.0,1.0,33.9,34.2,34.2,1.8,1.7,2.81,0.11640199651410349,0.5997284319899002,0.4808899140399782,-0.3851264978798743,-6.111805,-2.941392
11.185,2.0,1.0,1.0,33.9,34.2,34.2,1.8,1.7,2.8125,0.114332160169102,0.615628497877749,0.520221463689193,-0.335394088742951,-5.471373,-3.084874
11.185,2.0,1.0,1.0,33.9,34.2,34.2,1.8,1.7,2.815,0.10653254202749547,0.6258642664541761,0.5575818966579786,-0.2870911113678579,-4.918114,-3.24105
11.185,2.0,1.0,1.0,33.9,34.2,34.2,1.8,1.7,2.8175,0.09382152255405199,0.6312430408633867,0.5923442999655447,-0.24082258025069678,-4.440907,-3.405941
11.185,2.0,1.0,1.0,33.9,34.2,34.2,1.8,1.7,2.82,0.07700574750719529,0.6325590330238821,0.6241088781828972,-0.19696628842100658,-4.029175,-3.576081
11.185,2.0,1.0,1.0,33.9,34.2,34.2,1.8,1.7,2.8225,0.056837165076799284,0.6305505428314846,0.6526589252079656,-0.15571678073972883,-3.673462,-3.748505
11.185,2.0,1.0,1.0,33.9,34.2,34.2,1.8,1.7,2.825,0.033989290114720246,0.6258763066557516,0.6779169379024309,-0.11712913970193257,-3.365567,-3.92073
11.185,2.0,1.0,1.0,33.9,34.2,34.2,1.8,1.7,2.8275,0.009047737261541072,0.6191060591518873,0.6999054581715418,-0.08115801978169464,-3.098487,-4.090702
11.185,2.0,1.0,1.0,33.9,34.2,34.2,1.8,1.7,2.83,-0.017489664744435467,0.6107206275208328,0.7187146288003293,-0.04768996004896091,-2.866299,-4.256746
11.185,2.0,1.0,1.0,33.9,34.2,34.2,1.8,1.7,2.8325,-0.04520698685841997,0.6011177568416224,0.7344767622207472,-0.01656868458061347,-2.664017,-4.417511
