1,w,sub_t,h,l1,l2,l3,g1,g2,Freq,S11_re,S21_re,S11_img,S21_img,S11_dB,S21_dB
11.185,2.0,1.0,1.0,34.0,33.6,33.6,2.6,3.4,2.5,0.783727146688355,-0.0102011046808351,0.608699001831137,0.00627170599528232,-0.066772,-38.434604
11.185,2.0,1.0,1.0,34.0,33.6,33.6,2.6,3.4,2.5025,0.7790901375108774,-0.010393217194074747,0.6144971835864687,0.006271449585462662,-0.067454,-38.316497
11.185,2.0,1.0,1.0,34.0,33.6,33.6,2.6,3.4,2.505,0.774386198695851,-0.010588549144258842,0.6202878798072526,0.006269490854552558,-0.068147,-38.198056
11.185,2.0,1.0,1.0,34.0,33.6,33.6,2.6,3.4,2.5075,0.7696146352445361,-0.010787156910045179,0.6260705970324361,0.006265766451354808,-0.068853,-38.079274
11.185,2.0,1.0,1.0,34.0,33.6,33.6,2.6,3.4,2.51,0.7647747427948431,-0.010989097929563041,0.6318448270293509,0.006260210806189006,-0.069571,-37.960144
11.185,2.0,1.0,1.0,34.0,33.6,33.6,2.6,3.4,2.5125,0.7598658075497579,-0.011194430717356034,0.637610046339146,0.006252756047362856,-0.070302,-37.840659
11.185,2.0,1.0,1.0,34.0,33.6,33.6,2.6,3.4,2.515,0.7548871062088608,-0.011403214881279166,0.6433657158082122,0.006243331914227549,-0.071047,-37.720812
11.185,2.0,1.0,1.0,34.0,33.6,33.6,2.6,3.4,2.5175,0.7498379059032193,-0.01161551113931998,0.6491112801051382,0.006231865666664465,-0.071804,-37.600596
11.185,2.0,1.0,1.0,34.0,33.6,33.6,2.6,3.4,2.52,0.7447174641339271,-0.011831381336311265,0.6548461672227632,0.006218281990842451,-0.072576,-37.480003
11.185,2.0,1.0,1.0,34.0,33.6,33.6,2.6,3.4,2.5225,0.739525028714614,-0.012050888460498918,0.6605697879648295,0.006202502901077399,-0.073362,-37.359028
11.185,2.0,1.0,1.0,34.0,33.6,33.6,2.6,3.4,2.525,0.7342598377182272,-0.012274096659927061,0.6662815354167729,0.006184447637617415,-0.074162,-37.237661
11.185,2.0,1.0,1.0,34.0,33.6,33.6,2.6,3.4,2.5275,0.7289211194284331,-0.012501071258597504,0.6719807844001415,0.006164032560167617,-0.074977,-37.115896
11.185,2.0,1.0,1.0,34.0,33.6,33.6,2.6,3.4,2.53,0.7235080922959986,-0.012731878772357864,0.6776668909101211,0.0061411710369597625,-0.075806,-36.993725
11.185,2.0,1.0,1.0,34.0,33.6,33.6,2.6,3.4,2.5325,0.718019964900529,-0.01296658692446859,0.6833391915356398,0.006115773329161682,-0.076652,-36.871141
11.185,2.0,1.0,1.0,34.0,33.6,33.6,2.6,3.4,2.535,0.7124559359179589,-0.013205264660795147,0.6889970028615049,0.006087746470411147,-0.077513,-36.748135
11.185,2.0,1.0,1.0,34.0,33.6,33.6,2.6,3.4,2.5375,0.7068151940942274,-0.013447982164566255,0.6946396208519933,0.006056994141247773,-0.07839,-36.624701
11.185,2.0,1.0,1.0,34.0,33.6,33.6,2.6,3.4,2.54,0.7010969182255776,-0.013694810870635364,0.70026632021532,0.0060234165382051725,-0.079284,-36.500829
11.185,2.0,1.0,1.0,34.0,33.6,33.6,2.6,3.4,2.5425,0.69530027714595,-0.01394582347917653,0.7058763537483768,0.005986910237312268,-0.080195,-36.376512
11.185,2.0,1.0,1.0,34.0,33.6,33.6,2.6,3.4,2.545,0.6894244297219724,-0.01420109396874013,0.71146895166112,0.005947368051741229,-0.081123,-36.251742
11.185,2.0,1.0,1.0,34.0,33.6,33.6,2.6,3.4,2.5475,0.6834685248560718,-0.014460697608588199,0.7170433208799538,0.005904678883324195,-0.082069,-36.126511
11.185,2.0,1.0,1.0,34.0,33.6,33.6,2.6,3.4,2.55,0.6774317014982515,-0.014724710970222573,0.722598644329467,0.0058587275676469965,-0.083033,-36.00081
11.185,2.0,1.0,1.0,34.0,33.6,33.6,2.6,3.4,2.5525,0.6713130886671373,-0.014993211938011102,0.7281340801918048,0.005809394712412729,-0.084016,-35.874631
11.185,2.0,1.0,1.0,34.0,33.6,33.6,2.6,3.4,2.555,0.6651118054808935,-0.015266279718810831,0.733648761143005,0.005756556528751333,-0.085018,-35.747965
11.185,2.0,1.0,1.0,34.0,33.6,33.6,2.6,3.4,2.5575,0.6588269611986591,-0.015543994850478122,0.7391417935655417,0.005700084655133945,-0.08604,-35.620803
11.185,2.0,1.0,1.0,34.0,33.6,33.6,2.6,3.4,2.56,0.6524576552732058,-0.015826439209146392,0.7446122567363382,0.005639845973532612,-0.087082,-35.493137
11.185,2.0,1.0,1.0,34.0,33.6,33.6,2.6,3.4,2.5625,0.6460029774155271,-0.016113696015143487,0.750059201989463,0.005575702417446129,-0.088144,-35.364957
11.185,2.0,1.0,1.0,34.0,33.6,33.6,2.6,3.4,2.565,0.6394620076721236,-0.01640584983741003,0.7554816518527125,0.005507510771392138,-0.089228,-35.236255
11.185,2.0,1.0,1.0,34.0,33.6,33.6,2.6,3.4,2.5675,0.6328338165158007,-0.016702986596268232,0.7608785991572484,0.00543512246144371,-0.090333,-35.107022
11.185,2.0,1.0,1.0,34.0,33.6,33.6,2.6,3.4,2.57,0.6261174649508151,-0.0170051935643799,0.7662490061194356,0.00535838333636476,-0.091461,-34.977247
11.185,2.0,1.0,1.0,34.0,33.6,33.6,2.6,3.4,2.5725,0.61931200463327,-0.017312559365718443,0.771591803393995,0.005277133438874467,-0.092611,-34.846921
11.185,2.0,1.0,1.0,34.0,33.6,33.6,2.6,3.4,2.575,0.6124164780077024,-0.017625173972365956,0.77690588909757,0.00519120676654384,-0.093785,-34.716035
11.185,2.0,1.0,1.0,34.0,33.6,33.6,2.6,3.4,2.5775,0.6054299184608589,-0.01794312869893119,0.7821901278017436,0.0051004310217996045,-0.094983,-34.584579
11.185,2.0,1.0,1.0,34.0,33.6,33.6,2.6,3.4,2.58,0.5983513504937105,-0.018266516194367845,0.7874433494945543,0.005004627350481086,-0.096206,-34.452542
11.185,2.0,1.0,1.0,34.0,33.6,33.6,2.6,3.4,2.5825,0.5911797899128046,-0.018595430430955358,0.7926643485094924,0.004903610068363077,-0.097454,-34.319915
11.185,2.0,1.0,1.0,34.0,33.6,33.6,2.6,3.4,2.585,0.583914244042131,-0.018929966690184093,0.7978518824209431,0.004797186375024622,-0.098728,-34.186687
11.185,2.0,1.0,1.0,34.0,33.6,33.6,2.6,3.4,2.5875,0.5765537119567196,-0.01927022154526767,0.8030046709049974,0.004685156054406688,-0.100029,-34.052847
11.185,2.0,1.0,1.0,34.0,33.6,33.6,2.6,3.4,2.59,0.5690971847392777,-0.019616292839980856,0.8081213945645261,0.004567311161363984,-0.101358,-33.918386
11.185,2.0,1.0,1.0,34.0,33.6,33.6,2.6,3.4,2.5925,0.5615436457612186,-0.019968279663499056,0.8132006937173689,0.004443435693474185,-0.102714,-33.783291
11.185,2.0,1.0,1.0,34.0,33.6,33.6,2.6,3.4,2.595,0.5538920709895438,-0.02032628232088709,0.8182411671464366,0.0043133052473248315,-0.1041,-33.647552
11.185,2.0,1.0,1.0,34.0,33.6,33.6,2.6,3.4,2.5975,0.54614142932107,-0.020690402298858285,0.8232413708105171,0.004176686658450325,-0.105516,-33.511158
11.185,2.0,1.0,1.0,34.0,33.6,33.6,2.6,3.4,2.6,0.5382906829456237,-0.02106074222639262,0.8281998165144994,0.0040333376240423826,-0.106962,-33.374096
11.185,2.0,1.0,1.0,34.0,33.6,33.6,2.6,3.4,2.6025,0.5303387877398867,-0.02143740582976915,0.8331149705377001,0.0038830063075030543,-0.108441,-33.236356
11.185,2.0,1.0,1.0,34.0,33.6,33.6,2.6,3.4,2.605,0.5222846936936684,-0.02182049788153224,0.8379852522189257,0.0037254309238524542,-0.109951,-33.097924
11.185,2.0,1.0,1.0,34.0,33.6,33.6,2.6,3.4,2.6075,0.5141273453704868,-0.0222101241428704,0.8428090324968636,0.0035603393049422885,-0.111495,-32.95879
11.185,2.0,1.0,1.0,34.0,33.6,33.6,2.6,3.4,2.61,0.5058656824044478,-0.02260639129884384,0.8475846324043136,0.0033874484433602373,-0.113074,-32.81894
11.185,2.0,1.0,1.0,34.0,33.6,33.6,2.6,3.4,2.6125,0.4974986400355034,-0.023009406885850115,0.8523103215147623,0.0032064640138404544,-0.114688,-32.678361
11.185,2.0,1.0,1.0,34.0,33.6,33.6,2.6,3.4,2.615,0.4890251496852952,-0.023419279210666152,0.856984316339703,0.0030170798709198664,-0.116338,-32.537042
11.185,2.0,1.0,1.0,34.0,33.6,33.6,2.6,3.4,2.6175,0.48044413957592463,-0.02383611726034846,0.8616047786750551,0.0028189775214992707,-0.118026,-32.394968
11.185,2.0,1.0,1.0,34.0,33.6,33.6,2.6,3.4,2.62,0.47175453539409995,-0.02426003060221383,0.8661698138949845,0.0026118255708818053,-0.119753,-32.252125
11.185,2.0,1.0,1.0,34.0,33.6,33.6,2.6,3.4,2.6225,0.46295526100325063,-0.024691129273056504,0.8706774691913486,0.0023952791407675224,-0.12152,-32.108501
11.185,2.0,1.0,1.0,34.0,33.6,33.6,2.6,3.4,2.625,0.454045239206374,-0.0251295236566844,0.875125731756903,0.00216897925758426,-0.123328,-31.964081
11.185,2.0,1.0,1.0,34.0,33.6,33.6,2.6,3.4,2.6275,0.4450233925624869,-0.025575324348780255,0.8795125269103503,0.0019325522094256848,-0.125178,-31.81885
11.185,2.0,1.0,1.0,34.0,33.6,33.6,2.6,3.4,2.63,0.4358886442597618,-0.02602864200800566,0.8838357161612219,0.0016856088697534688,-0.127072,-31.672794
11.185,2.0,1.0,1.0,34.0,33.6,33.6,2.6,3.4,2.6325,0.42663991904858023,-0.02648958719217288,0.8880930952124851,0.0014277439858948505,-0.129011,-31.525898
11.185,2.0,1.0,1.0,34.0,33.6,33.6,2.6,3.4,2.635,0.41727614423792714,-0.02695827017820562,0.8922823918986885,0.0011585354302335788,-0.130997,-31.378146
11.185,2.0,1.0,1.0,34.0,33.6,33.6,2.6,3.4,2.6375,0.4077962507587687,-0.02743480076449688,0.8964012640573338,0.0008775434118477724,-0.13303,-31.229523
11.185,2.0,1.0,1.0,34.0,33.6,33.6,2.6,3.4,2.64,0.3981991742982178,-0.02791928805415002,0.9004472973310934,0.0005843096461913182,-0.135114,-31.080011
11.185,2.0,1.0,1.0,34.0,33.6,33.6,2.6,3.4,2.6425,0.38848385650858697,-0.028411840217450263,0.9044180028983252,0.000278356480249618,-0.137248,-30.929596
11.185,2.0,1.0,1.0,34.0,33.6,33.6,2.6,3.4,2.645,0.37864924629561664,-0.028912564231767888,0.9083108151292527,-4.081402958345693e-05,-0.139435,-30.778259
11.185,2.0,1.0,1.0,34.0,33.6,33.6,2.6,3.4,2.6475,0.36869430119045815,-0.029421565596928042,0.9121230891650134,-0.0003737210898545187,-0.141677,-30.625984
11.185,2.0,1.0,1.0,34.0,33.6,33.6,2.6,3.4,2.65,0.35861798881023976,-0.02993894802390455,0.9158520984166552,-0.000720906195786284,-0.143975,-30.472752
11.185,2.0,1.0,1.0,34.0,33.6,33.6,2.6,3.4,2.6525,0.34841928841240116,-0.030464813094492633,0.9194950319809728,-0.0010829342137877746,-0.146332,-30.318545
11.185,2.0,1.0,1.0,34.0,33.6,33.6,2.6,3.4,2.655,0.3380971925482235,-0.030999259889401897,0.9230489919699273,-0.0014603945243775124,-0.148749,-30.163345
11.185,2.0,1.0,1.0,34.0,33.6,33.6,2.6,3.4,2.6575,0.3276507088213994,-0.03154238458196501,0.9265109907501993,-0.0018539022294247543,-0.151229,-30.007133
11.185,2.0,1.0,1.0,34.0,33.6,33.6,2.6,3.4,2.66,0.317078861757825,-0.03209427999439478,0.9298779480892011,-0.002264099427906325,-0.153773,-29.849888
11.185,2.0,1.0,1.0,34.0,33.6,33.6,2.6,3.4,2.6625,0.306380694793212,-0.03265503511322525,0.9331466882036882,-0.0026916565646914054,-0.156384,-29.69159
11.185,2.0,1.0,1.0,34.0,33.6,33.6,2.6,3.4,2.665,0.29555527238555046,-0.03322473456024976,0.9363139367068131,-0.003137273857210261,-0.159064,-29.532218
11.185,2.0,1.0,1.0,34.0,33.6,33.6,2.6,3.4,2.6675,0.28460168225993426,-0.03380345801490547,0.9393763174492701,-0.0036016828052336867,-0.161816,-29.371752
11.185,2.0,1.0,1.0,34.0,33.6,33.6,2.6,3.4,2.67,0.27351903779377157,-0.03439127958365677,0.9423303492498054,-0.004085647789394917,-0.164643,-29.210169
11.185,2.0,1.0,1.0,34.0,33.6,33.6,2.6,3.4,2.6725,0.26230648055095485,-0.034988267111485644,0.9451724425101223,-0.004589967764524838,-0.167547,-29.047446
11.185,2.0,1.0,1.0,34.0,33.6,33.6,2.6,3.4,2.675,0.2509631829742012,-0.035594481430104054,0.9478988957088149,-0.005115478054348355,-0.17053,-28.883561
11.185,2.0,1.0,1.0,34.0,33.6,33.6,2.6,3.4,2.6775,0.2394883512454146,-0.0362099755369567,0.9505058917685842,-0.00566305225461015,-0.173597,-28.718488
11.185,2.0,1.0,1.0,34.0,33.6,33.6,2.6,3.4,2.68,0.22788122832465096,-0.036834793698472854,0.952989494290608,-0.00623360425226412,-0.17675,-28.552204
11.185,2.0,1.0,1.0,34.0,33.6,33.6,2.6,3.4,2.6825,0.21614109717911395,-0.03746897047034537,0.9553456436493933,-0.006828090368976537,-0.179993,-28.384683
11.185,2.0,1.0,1.0,34.0,33.6,33.6,2.6,3.4,2.685,0.20426728421440837,-0.03811252962685886,0.9575701529410203,-0.0074475116378658794,-0.183328,-28.215899
11.185,2.0,1.0,1.0,34.0,33.6,33.6,2.6,3.4,2.6875,0.192259162921321,-0.0387654829904407,0.959658703777049,-0.0080929162231347,-0.18676,-28.045825
11.185,2.0,1.0,1.0,34.0,33.6,33.6,2.6,3.4,2.69,0.18011615775243683,-0.03942782915166171,0.9616068419157748,-0.00876540199304705,-0.190293,-27.874433
11.185,2.0,1.0,1.0,34.0,33.6,33.6,2.6,3.4,2.6925,0.1678377482440472,-0.04009955206885534,0.9634099727218339,-0.009466119257580395,-0.19393,-27.701694
11.185,2.0,1.0,1.0,34.0,33.6,33.6,2.6,3.4,2.695,0.15542347340021528,-0.040780619535331505,0.9650633564443681,-0.01019627368302914,-0.197676,-27.527578
11.185,2.0,1.0,1.0,34.0,33.6,33.6,2.6,3.4,2.6975,0.14287293635715942,-0.04147098150083237,0.9665621033031901,-0.01095712939688257,-0.201536,-27.352055
11.185,2.0,1.0,1.0,34.0,33.6,33.6,2.6,3.4,2.7,0.13018580934790971,-0.04217056823237394,0.9679011683713816,-0.011750012297431335,-0.205513,-27.175094
11.185,2.0,1.0,1.0,34.0,33.6,33.6,2.6,3.4,2.7025,0.11736183898883701,-0.04287928829793414,0.9690753462418198,-0.012576313583804103,-0.209614,-26.996661
11.185,2.0,1.0,1.0,34.0,33.6,33.6,2.6,3.4,2.705,0.10440085191178643,-0.04359702635454533,0.9700792654639404,-0.013437493523489325,-0.213843,-26.816722
11.185,2.0,1.0,1.0,34.0,33.6,33.6,2.6,3.4,2.7075,0.0913027607677211,-0.04432364072020794,0.9709073827358324,-0.014335085475885512,-0.218207,-26.635243
11.185,2.0,1.0,1.0,34.0,33.6,33.6,2.6,3.4,2.71,0.07806757063036268,-0.04505896070661909,0.9715539768353864,-0.015270700192043673,-0.222711,-26.452187
11.185,2.0,1.0,1.0,34.0,33.6,33.6,2.6,3.4,2.7125,0.06469538583111965,-0.04580278368697333,0.9720131422726807,-0.016246030412542405,-0.227361,-26.267516
11.185,2.0,1.0,1.0,34.0,33.6,33.6,2.6,3.4,2.715,0.051186417259829024,-0.04655487186998993,0.9722787826441397,-0.017262855787374364,-0.232164,-26.081193
11.185,2.0,1.0,1.0,34.0,33.6,33.6,2.6,3.4,2.7175,0.0375409901694451,-0.04731494874780542,0.9723446036671142,-0.0183230481438441,-0.237127,-25.893175
11.185,2.0,1.0,1.0,34.0,33.6,33.6,2.6,3.4,2.72,0.02375955252686731,-0.04808269518137362,0.9722041058715566,-0.01942857713079206,-0.242258,-25.703421
11.185,2.0,1.0,1.0,34.0,33.6,33.6,2.6,3.4,2.7225,0.009842683956791009,-0.04885774508247655,0.9718505769231256,-0.02058151626999163,-0.247565,-25.511889
11.185,2.0,1.0,1.0,34.0,33.6,33.6,2.6,3.4,2.725,-0.004208894669311744,-0.04963968064627035,0.9712770835496808,-0.021784049448320547,-0.253056,-25.318532
11.185,2.0,1.0,1.0,34.0,33.6,33.6,2.6,3.4,2.7275,-0.018394310940995744,-0.050428027082397,0.9704764630403233,-0.02303847788732332,-0.25874,-25.123304
11.185,2.0,1.0,1.0,34.0,33.6,33.6,2.6,3.4,2.73,-0.03271252984848965,-0.05122224678594658,0.9694413142832254,-0.024347227630049564,-0.264627,-24.926156
11.185,2.0,1.0,1.0,34.0,33.6,33.6,2.6,3.4,2.7325,-0.04716234188144957,-0.05202173288185094,0.9681639883051352,-0.025712857588620654,-0.270728,-24.727038
11.185,2.0,1.0,1.0,34.0,33.6,33.6,2.6,3.4,2.735,-0.06174235020522015,-0.0528258020674556,0.9666365782719673,-0.02713806819983668,-0.277053,-24.525896
11.185,2.0,1.0,1.0,34.0,33.6,33.6,2.6,3.4,2.7375,-0.07645095682271894,-0.053633686667886774,0.9648509089058845,-0.028625710740323575,-0.283615,-24.322676
11.185,2.0,1.0,1.0,34.0,33.6,33.6,2.6,3.4,2.74,-0.09128634761833605,-0.05444452580718616,0.9627985252701082,-0.030178797357233247,-0.290425,-24.117321
11.185,2.0,1.0,1.0,34.0,33.6,33.6,2.6,3.4,2.7425,-0.1062464761668294,-0.05525735558479157,0.9604706808680656,-0.03180051187537222,-0.297497,-23.909771
11.185,2.0,1.0,1.0,34.0,33.6,33.6,2.6,3.4,2.745,-0.12132904617448678,-0.05607109813149459,0.9578583249985285,-0.03349422144683427,-0.304847,-23.699964
11.185,2.0,1.0,1.0,34.0,33.6,33.6,2.6,3.4,2.7475,-0.13653149240199702,-0.05688454940118085,0.9549520893030977,-0.03526348911475477,-0.312489,-23.487835
11.185,2.0,1.0,1.0,34.0,33.6,33.6,2.6,3.4,2.75,-0.151850959897683,-0.0576963655340438,0.951742273436754,-0.0371120873686657,-0.320441,-23.273317
11.185,2.0,1.0,1.0,34.0,33.6,33.6,2.6,3.4,2.7525,-0.16728428134563036,-0.058505047603087314,0.9482188297862094,-0.03904401277506889,-0.32872,-23.056339
11.185,2.0,1.0,1.0,34.0,33.6,33.6,2.6,3.4,2.755,-0.1828279523053872,-0.0593089245280379,0.9443713471546323,-0.0410635017732051,-0.337347,-22.836828
11.185,2.0,1.0,1.0,34.0,33.6,33.6,2.6,3.4,2.7575,-0.19847810408751113,-0.06010613390861019,0.9401890333249499,-0.04317504773248515,-0.346341,-22.614706
11.185,2.0,1.0,1.0,34.0,33.6,33.6,2.6,3.4,2.76,-0.21423047397130965,-0.06089460049161652,0.9356606964075471,-0.045383419374509106,-0.355727,-22.389893
11.185,2.0,1.0,1.0,34.0,33.6,33.6,2.6,3.4,2.7625,-0.23008037242725016,-0.061672011942758884,0.9307747248720084,-0.047693680668862454,-0.365529,-22.162304
11.185,2.0,1.0,1.0,34.0,33.6,33.6,2.6,3.4,2.765,-0.2460226469548891,-0.06243579154296767,0.9255190661567865,-0.050111212317631,-0.375773,-21.931852
11.185,2.0,1.0,1.0,34.0,33.6,33.6,2.6,3.4,2.7675,-0.2620516420870139,-0.06318306736953858,0.919881203745769,-0.052641734948460646,-0.386489,-21.698444
11.185,2.0,1.0,1.0,34.0,33.6,33.6,2.6,3.4,2.77,-0.2781611550400745,-0.06391063745248995,0.9138481325971554,-0.05529133413947473,-0.397709,-21.461983
11.185,2.0,1.0,1.0,34.0,33.6,33.6,2.6,3.4,2.7725,-0.2943443864081403,-0.06461493031463184,0.9074063328085701,-0.05806648740073012,-0.409467,-21.222368
11.185,2.0,1.0,1.0,34.0,33.6,33.6,2.6,3.4,2.775,-0.3105938852001176,-0.06529196020756156,0.9005417414038416,-0.060974093235211885,-0.421802,-20.979492
11.185,2.0,1.0,1.0,34.0,33.6,33.6,2.6,3.4,2.7775,-0.3269014874053187,-0.06593727624249386,0.8932397221327095,-0.06402150239635025,-0.434754,-20.733244
11.185,2.0,1.0,1.0,34.0,33.6,33.6,2.6,3.4,2.78,-0.34325824713711267,-0.06654590448128507,0.8854850331865151,-0.06721655144700224,-0.448368,-20.483506
11.185,2.0,1.0,1.0,34.0,33.6,33.6,2.6,3.4,2.7825,-0.35965435924470474,-0.06711228189538503,0.8772617927530841,-0.07056759870450316,-0.462695,-20.230156
11.185,2.0,1.0,1.0,34.0,33.6,33.6,2.6,3.4,2.785,-0.37607907209419644,-0.06763018091416603,0.8685534423653384,-0.07408356262480084,-0.47779,-19.973064
11.185,2.0,1.0,1.0,34.0,33.6,33.6,2.6,3.4,2.7875,-0.39252058899653497,-0.06809262306365221,0.859342708044983,-0.07777396263179724,-0.493712,-19.712094
11.185,2.0,1.0,1.0,34.0,33.6,33.6,2.6,3.4,2.79,-0.4089659564950412,-0.06849177993558549,0.8496115593099005,-0.08164896233065379,-0.510528,-19.447105
11.185,2.0,1.0,1.0,34.0,33.6,33.6,2.6,3.4,2.7925,-0.425400937411186,-0.06881885941723537,0.8393411662090647,-0.08571941494890202,-0.528313,-19.177945
11.185,2.0,1.0,1.0,34.0,33.6,33.6,2.6,3.4,2.795,-0.44180986617446943,-0.069063974745179,0.8285118546808092,-0.08999691071756831,-0.547147,-18.904459
11.185,2.0,1.0,1.0,34.0,33.6,33.6,2.6,3.4,2.7975,-0.4581754835199074,-0.06921599351054779,0.8171030607120643,-0.09449382572382636,-0.567122,-18.626479
11.185,2.0,1.0,1.0,34.0,33.6,33.6,2.6,3.4,2.8,-0.474478747111668,-0.06926236322618289,0.8050932840236381,-0.09922337152076095,-0.588339,-18.343832
11.185,2.0,1.0,1.0,34.0,33.6,33.6,2.6,3.4,2.8025,-0.49069861402849185,-0.06918890945288139,0.7924600423421165,-0.10419964444698573,-0.610912,-18.056336
11.185,2.0,1.0,1.0,34.0,33.6,33.6,2.6,3.4,2.805,-0.5068117903085881,-0.06897960175535199,0.7791798277711941,-0.10943767316049875,-0.634966,-17.763797
11.185,2.0,1.0,1.0,34.0,33.6,33.6,2.6,3.4,2.8075,-0.5227924418790135,-0.0686162818992986,0.7652280673830207,-0.11495346228917226,-0.660645,-17.466016
11.185,2.0,1.0,1.0,34.0,33.6,33.6,2.6,3.4,2.81,-0.5386118601653069,-0.0680783476879351,0.7505790909646723,-0.12076402929397825,-0.688109,-17.16278
11.185,2.0,1.0,1.0,34.0,33.6,33.6,2.6,3.4,2.8125,-0.554238074468741,-0.0673423846466583,0.735206109944618,-0.126887430563028,-0.717538,-16.853868
11.185,2.0,1.0,1.0,34.0,33.6,33.6,2.6,3.4,2.815,-0.5696354017880604,-0.06638173637625212,0.7190812129797832,-0.1333427713150673,-0.749137,-16.539048
11.185,2.0,1.0,1.0,34.0,33.6,33.6,2.6,3.4,2.8175,-0.5847639231306213,-0.0651660027884692,0.7021753856267313,-0.14015019197075665,-0.78314,-16.218078
11.185,2.0,1.0,1.0,34.0,33.6,33.6,2.6,3.4,2.82,-0.5995788734918687,-0.06366045360135424,0.6844585641114415,-0.14733082109012943,-0.81981,-15.890706
11.185,2.0,1.0,1.0,34.0,33.6,33.6,2.6,3.4,2.8225,-0.6140299305866532,-0.06182534240893047,0.6658997366648892,-0.1549066815641528,-0.859451,-15.55667
11.185,2.0,1.0,1.0,34.0,33.6,33.6,2.6,3.4,2.825,-0.6280603851226084,-0.059615104382881375,0.6464671104894553,-0.1629005322079059,-0.90241,-15.2157
11.185,2.0,1.0,1.0,34.0,33.6,33.6,2.6,3.4,2.8275,-0.6416061729974296,-0.05697741829346189,0.6261283685376544,-0.1713356208637804,-0.949086,-14.867515
