1,w,sub_t,h,l1,l2,l3,g1,g2,Freq,S11_re,S21_re,S11_img,S21_img,S11_dB,S21_dB
11.185,2.0,1.0,1.0,33.0,34.2,34.2,4.4,1.8,2.5,0.898584994341707,-0.0051195746322071,0.426183465220093,0.00524914591595095,-0.047654,-42.695118
11.185,2.0,1.0,1.0,33.0,34.2,34.2,4.4,1.8,2.5025,0.8959624974714843,-0.0052336967817006325,0.4315594845257289,0.005288584329944192,-0.048071,-42.567984
11.185,2.0,1.0,1.0,33.0,34.2,34.2,4.4,1.8,2.505,0.8932978400387854,-0.005350086140959108,0.4369378229187821,0.005327960699104066,-0.048495,-42.440445
11.185,2.0,1.0,1.0,33.0,34.2,34.2,4.4,1.8,2.5075,0.8905906362749471,-0.005468798130047944,0.44231835907200806,0.005367265062505013,-0.048928,-42.312488
11.185,2.0,1.0,1.0,33.0,34.2,34.2,4.4,1.8,2.51,0.8878404934682266,-0.005589890035629958,0.4477009680602365,0.00540648699097399,-0.049368,-42.1841
11.185,2.0,1.0,1.0,33.0,34.2,34.2,4.4,1.8,2.5125,0.8850470118039779,-0.0057134210913288375,0.4530855212349088,0.005445615562582945,-0.049817,-42.055265
11.185,2.0,1.0,1.0,33.0,34.2,34.2,4.4,1.8,2.515,0.8822097841995074,-0.005839452562305404,0.4584718860941292,0.005484639336657157,-0.050275,-41.925971
11.185,2.0,1.0,1.0,33.0,34.2,34.2,4.4,1.8,2.5175,0.8793283961333499,-0.005968047834306774,0.4638599261480164,0.0055235463261943075,-0.050741,-41.796201
11.185,2.0,1.0,1.0,33.0,34.2,34.2,4.4,1.8,2.52,0.8764024254686723,-0.006099272507467565,0.46924950077916894,0.005562323968581878,-0.051216,-41.665942
11.185,2.0,1.0,1.0,33.0,34.2,34.2,4.4,1.8,2.5225,0.873431442270509,-0.006233194495161639,0.4746404650979947,0.005600959094490844,-0.051701,-41.535178
11.185,2.0,1.0,1.0,33.0,34.2,34.2,4.4,1.8,2.525,0.8704150086164955,-0.0063698841282252925,0.480032669792701,0.005639437894813812,-0.052195,-41.403893
11.185,2.0,1.0,1.0,33.0,34.2,34.2,4.4,1.8,2.5275,0.8673526784007536,-0.006509414264895487,0.4854259609736803,0.005677745885505043,-0.052699,-41.272072
11.185,2.0,1.0,1.0,33.0,34.2,34.2,4.4,1.8,2.53,0.864243997130558,-0.0066518604068324366,0.4908201800120323,0.005715867870167435,-0.053212,-41.139698
11.185,2.0,1.0,1.0,33.0,34.2,34.2,4.4,1.8,2.5325,0.8610885017153816,-0.006797300821622958,0.49621516337194443,0.005753787900219023,-0.053737,-41.006755
11.185,2.0,1.0,1.0,33.0,34.2,34.2,4.4,1.8,2.535,0.8578857202478872,-0.0069458166721912485,0.5016107424366366,0.005791489232456922,-0.054272,-40.873225
11.185,2.0,1.0,1.0,33.0,34.2,34.2,4.4,1.8,2.5375,0.8546351717764145,-0.007097492153575052,0.5070067433275465,0.005828954283821117,-0.054818,-40.739092
11.185,2.0,1.0,1.0,33.0,34.2,34.2,4.4,1.8,2.54,0.851336366068456,-0.007252414637561333,0.5124029867164255,0.0058661645831434165,-0.055375,-40.604338
11.185,2.0,1.0,1.0,33.0,34.2,34.2,4.4,1.8,2.5425,0.8479888033645971,-0.007410674825712489,0.5177992876299835,0.0059031007196483146,-0.055944,-40.468944
11.185,2.0,1.0,1.0,33.0,34.2,34.2,4.4,1.8,2.545,0.844591974122344,-0.0075723669113562896,0.523195455246699,0.005939742287951484,-0.056524,-40.332892
11.185,2.0,1.0,1.0,33.0,34.2,34.2,4.4,1.8,2.5475,0.8411453587492264,-0.007737588751156773,0.5285912926853762,0.0059760678292786334,-0.057118,-40.196163
11.185,2.0,1.0,1.0,33.0,34.2,34.2,4.4,1.8,2.55,0.8376484273245013,-0.00790644204693345,0.5339865967850267,0.006012054768604119,-0.057724,-40.058737
11.185,2.0,1.0,1.0,33.0,34.2,34.2,4.4,1.8,2.5525,0.834100639308756,-0.008079032538447859,0.5393811578755767,0.006047679347378468,-0.058343,-39.920595
11.185,2.0,1.0,1.0,33.0,34.2,34.2,4.4,1.8,2.555,0.8305014432406179,-0.008255470207936294,0.5447747595389179,0.006082916551486688,-0.058975,-39.781715
11.185,2.0,1.0,1.0,33.0,34.2,34.2,4.4,1.8,2.5575,0.8268502764197466,-0.008435869497229685,0.550167178359746,0.006117740034043236,-0.059622,-39.642076
11.185,2.0,1.0,1.0,33.0,34.2,34.2,4.4,1.8,2.56,0.8231465645751954,-0.008620349538371288,0.5555581836655953,0.006152122032594247,-0.060283,-39.501657
11.185,2.0,1.0,1.0,33.0,34.2,34.2,4.4,1.8,2.5625,0.81938972151817,-0.00880903439871851,0.560947537255446,0.00618603328025592,-0.060959,-39.360436
11.185,2.0,1.0,1.0,33.0,34.2,34.2,4.4,1.8,2.565,0.8155791487781101,-0.009002053341598142,0.5663349931162173,0.006219442910273124,-0.061651,-39.21839
11.185,2.0,1.0,1.0,33.0,34.2,34.2,4.4,1.8,2.5675,0.811714235220957,-0.00919954110367427,0.5717202971264038,0.0062523183534320785,-0.062358,-39.075494
11.185,2.0,1.0,1.0,33.0,34.2,34.2,4.4,1.8,2.57,0.8077943566483446,-0.009401638190288183,0.5771031867460609,0.0062846252277058545,-0.063082,-38.931725
11.185,2.0,1.0,1.0,33.0,34.2,34.2,4.4,1.8,2.5725,0.8038188753763608,-0.009608491190137947,0.5824833906922716,0.00631632721944821,-0.063823,-38.787058
11.185,2.0,1.0,1.0,33.0,34.2,34.2,4.4,1.8,2.575,0.7997871397924019,-0.00982025311078512,0.5878606285991551,0.006347385955385862,-0.064581,-38.641467
11.185,2.0,1.0,1.0,33.0,34.2,34.2,4.4,1.8,2.5775,0.7956984838885138,-0.010037083736607418,0.593234610661387,0.006377760864579331,-0.065358,-38.494926
11.185,2.0,1.0,1.0,33.0,34.2,34.2,4.4,1.8,2.58,0.7915522267694651,-0.010259150010960182,0.5986050372601225,0.006407409029440835,-0.066154,-38.347407
11.185,2.0,1.0,1.0,33.0,34.2,34.2,4.4,1.8,2.5825,0.787347672133646,-0.010486626444469366,0.6039715985701091,0.006436285024800798,-0.066969,-38.198882
11.185,2.0,1.0,1.0,33.0,34.2,34.2,4.4,1.8,2.585,0.7830841077247073,-0.010719695551552853,0.6093339741466531,0.006464340743909894,-0.067805,-38.049322
11.185,2.0,1.0,1.0,33.0,34.2,34.2,4.4,1.8,2.5875,0.7787608047516597,-0.010958548317461432,0.6146918324909959,0.0064915252101457885,-0.068661,-37.898697
11.185,2.0,1.0,1.0,33.0,34.2,34.2,4.4,1.8,2.59,0.7743770172749499,-0.011203384698342696,0.6200448305925006,0.006517784373059802,-0.06954,-37.746976
11.185,2.0,1.0,1.0,33.0,34.2,34.2,4.4,1.8,2.5925,0.7699319815557754,-0.011454414157068564,0.6253926134459066,0.006543060887252865,-0.070441,-37.594127
11.185,2.0,1.0,1.0,33.0,34.2,34.2,4.4,1.8,2.595,0.7654249153656686,-0.011711856237826213,0.6307348135417246,0.006567293872401393,-0.071366,-37.440117
11.185,2.0,1.0,1.0,33.0,34.2,34.2,4.4,1.8,2.5975,0.7608550172530533,-0.011975941182763105,0.6360710503276635,0.006590418652569527,-0.072315,-37.284911
11.185,2.0,1.0,1.0,33.0,34.2,34.2,4.4,1.8,2.6,0.7562214657631878,-0.012246910594295907,0.6414009296387498,0.006612366472731223,-0.07329,-37.128475
11.185,2.0,1.0,1.0,33.0,34.2,34.2,4.4,1.8,2.6025,0.7515234186075401,-0.01252501814704904,0.6467240430935566,0.006633064190191676,-0.074291,-36.970771
11.185,2.0,1.0,1.0,33.0,34.2,34.2,4.4,1.8,2.605,0.7467600117782353,-0.012810530353784277,0.6520399674536972,0.0066524339383278895,-0.075319,-36.811761
11.185,2.0,1.0,1.0,33.0,34.2,34.2,4.4,1.8,2.6075,0.7419303586027862,-0.013103727390122437,0.6573482639434063,0.006670392759768425,-0.076377,-36.651407
11.185,2.0,1.0,1.0,33.0,34.2,34.2,4.4,1.8,2.61,0.7370335487338222,-0.013404903983347564,0.6626484775256941,0.006686852205789849,-0.077464,-36.489666
11.185,2.0,1.0,1.0,33.0,34.2,34.2,4.4,1.8,2.6125,0.7320686470679759,-0.013714370371131204,0.667940136131162,0.00670171789831996,-0.078582,-36.326497
11.185,2.0,1.0,1.0,33.0,34.2,34.2,4.4,1.8,2.615,0.7270346925874744,-0.014032453336623939,0.6732227498351172,0.006714889050500499,-0.079733,-36.161856
11.185,2.0,1.0,1.0,33.0,34.2,34.2,4.4,1.8,2.6175,0.7219306971173032,-0.014359497327043088,0.6784958099781041,0.006726257941260164,-0.080918,-35.995696
11.185,2.0,1.0,1.0,33.0,34.2,34.2,4.4,1.8,2.62,0.7167556439900262,-0.014695865663649568,0.6837587882244077,0.006735709338782675,-0.082138,-35.82797
11.185,2.0,1.0,1.0,33.0,34.2,34.2,4.4,1.8,2.6225,0.7115084866094921,-0.015041941851862773,0.6890111355524141,0.006743119867104523,-0.083395,-35.658629
11.185,2.0,1.0,1.0,33.0,34.2,34.2,4.4,1.8,2.625,0.706188146903686,-0.0153981310012217,0.694252281169953,0.00674835730933687,-0.084692,-35.487621
11.185,2.0,1.0,1.0,33.0,34.2,34.2,4.4,1.8,2.6275,0.7007935136558858,-0.015764861365982145,0.6994816313469064,0.006751279840157876,-0.086029,-35.314893
11.185,2.0,1.0,1.0,33.0,34.2,34.2,4.4,1.8,2.63,0.6953234407020621,-0.016142586018353,0.7046985681563611,0.006751735179250267,-0.087408,-35.140388
11.185,2.0,1.0,1.0,33.0,34.2,34.2,4.4,1.8,2.6325,0.689776744981074,-0.016531784667745353,0.7099024481144633,0.0067495596562406794,-0.088832,-34.964048
11.185,2.0,1.0,1.0,33.0,34.2,34.2,4.4,1.8,2.635,0.6841522044226418,-0.01693296564095317,0.7150926007078268,0.006744577176413569,-0.090303,-34.785812
11.185,2.0,1.0,1.0,33.0,34.2,34.2,4.4,1.8,2.6375,0.6784485556563206,-0.01734666803993112,0.7202683267958478,0.006736598074988638,-0.091823,-34.605617
11.185,2.0,1.0,1.0,33.0,34.2,34.2,4.4,1.8,2.64,0.6726644915226708,-0.017773464095814626,0.7254288968735585,0.006725417846039178,-0.093395,-34.423397
11.185,2.0,1.0,1.0,33.0,34.2,34.2,4.4,1.8,2.6425,0.6667986583655754,-0.01821396174006704,0.7305735491786272,0.006710815730145222,-0.095021,-34.239082
11.185,2.0,1.0,1.0,33.0,34.2,34.2,4.4,1.8,2.645,0.6608496530820519,-0.018668807416186917,0.7357014876238165,0.00669255314257363,-0.096705,-34.052599
11.185,2.0,1.0,1.0,33.0,34.2,34.2,4.4,1.8,2.6475,0.6548160199029739,-0.019138689158302392,0.740811879533485,0.006670371921101198,-0.098449,-33.863872
11.185,2.0,1.0,1.0,33.0,34.2,34.2,4.4,1.8,2.65,0.648696246874758,-0.019624339966279925,0.7459038531596041,0.006643992369478269,-0.100257,-33.672823
11.185,2.0,1.0,1.0,33.0,34.2,34.2,4.4,1.8,2.6525,0.6424887620082786,-0.020126541510734796,0.7509764949490473,0.006613111068886515,-0.102132,-33.479366
11.185,2.0,1.0,1.0,33.0,34.2,34.2,4.4,1.8,2.655,0.6361919290568555,-0.020646128205634287,0.7560288465296584,0.006577398425475801,-0.104079,-33.283415
11.185,2.0,1.0,1.0,33.0,34.2,34.2,4.4,1.8,2.6575,0.6298040428801942,-0.021183991691104336,0.7610599013775189,0.006536495917057605,-0.106101,-33.084877
11.185,2.0,1.0,1.0,33.0,34.2,34.2,4.4,1.8,2.66,0.6233233243453925,-0.021741085774697064,0.7660686011219189,0.006490012996135871,-0.108203,-32.883656
11.185,2.0,1.0,1.0,33.0,34.2,34.2,4.4,1.8,2.6625,0.6167479147095511,-0.022318431885856735,0.7710538314375273,0.006437523599500396,-0.11039,-32.67965
11.185,2.0,1.0,1.0,33.0,34.2,34.2,4.4,1.8,2.665,0.6100758694208975,-0.022917125105783268,0.776014417464973,0.006378562206375014,-0.112668,-32.472751
11.185,2.0,1.0,1.0,33.0,34.2,34.2,4.4,1.8,2.6675,0.6033051512666228,-0.023538340843484246,0.7809491186912093,0.006312619377349034,-0.115041,-32.262847
11.185,2.0,1.0,1.0,33.0,34.2,34.2,4.4,1.8,2.67,0.5964336227854794,-0.0241833422387338,0.7858566232093515,0.006239136694699496,-0.117516,-32.049819
11.185,2.0,1.0,1.0,33.0,34.2,34.2,4.4,1.8,2.6725,0.5894590378515114,-0.024853488384128753,0.7907355412637159,0.006157501010841502,-0.120101,-31.83354
11.185,2.0,1.0,1.0,33.0,34.2,34.2,4.4,1.8,2.675,0.5823790323217319,-0.025550243471727196,0.7955843979690719,0.006067037895046474,-0.122802,-31.613877
11.185,2.0,1.0,1.0,33.0,34.2,34.2,4.4,1.8,2.6775,0.5751911136248179,-0.026275186985177036,0.8004016250730627,0.005967004148626589,-0.125627,-31.39069
11.185,2.0,1.0,1.0,33.0,34.2,34.2,4.4,1.8,2.68,0.5678926491495998,-0.027030025076168855,0.8051855516065782,0.005856579234767312,-0.128587,-31.16383
11.185,2.0,1.0,1.0,33.0,34.2,34.2,4.4,1.8,2.6825,0.5604808532708304,-0.027816603284908637,0.8099343932376194,0.005734855440147816,-0.131689,-30.933138
11.185,2.0,1.0,1.0,33.0,34.2,34.2,4.4,1.8,2.685,0.5529527728248435,-0.028636920788631053,0.8146462401087492,0.005600826550260659,-0.134946,-30.698447
11.185,2.0,1.0,1.0,33.0,34.2,34.2,4.4,1.8,2.6875,0.545305270818709,-0.0294931463905627,0.819319042895033,0.00545337477744723,-0.138369,-30.459578
11.185,2.0,1.0,1.0,33.0,34.2,34.2,4.4,1.8,2.69,0.5375350081225647,-0.030387636494925055,0.8239505967665897,0.0052912556282398,-0.141971,-30.216342
11.185,2.0,1.0,1.0,33.0,34.2,34.2,4.4,1.8,2.6925,0.529638422855034,-0.031322955352389235,0.8285385228751143,0.005113080332278862,-0.145767,-29.968536
11.185,2.0,1.0,1.0,33.0,34.2,34.2,4.4,1.8,2.695,0.5216117071251554,-0.03230189790584115,0.833080246903922,0.004917295375838571,-0.149773,-29.715945
11.185,2.0,1.0,1.0,33.0,34.2,34.2,4.4,1.8,2.6975,0.5134507807396157,-0.033327515619560544,0.8375729741223523,0.004702158584967567,-0.154006,-29.458339
11.185,2.0,1.0,1.0,33.0,34.2,34.2,4.4,1.8,2.7,0.505151261420168,-0.03440314573727688,0.8420136602626616,0.0044657110814763645,-0.158487,-29.19547
11.185,2.0,1.0,1.0,33.0,34.2,34.2,4.4,1.8,2.7025,0.4967084310011031,-0.035532444487581506,0.846398977384421,0.004205744283007174,-0.163239,-28.927076
11.185,2.0,1.0,1.0,33.0,34.2,34.2,4.4,1.8,2.705,0.4881171969889262,-0.036719424840539035,0.850725273699359,0.00391976092786146,-0.168286,-28.652873
11.185,2.0,1.0,1.0,33.0,34.2,34.2,4.4,1.8,2.7075,0.4793720487638596,-0.037968499518928146,0.854988526087591,0.003604928865162597,-0.173657,-28.372557
11.185,2.0,1.0,1.0,33.0,34.2,34.2,4.4,1.8,2.71,0.4704670075835087,-0.03928453008327086,0.8591842837296527,0.0032580260469107286,-0.179383,-28.0858
11.185,2.0,1.0,1.0,33.0,34.2,34.2,4.4,1.8,2.7125,0.46139556941083026,-0.04067288304356315,0.8633076008885322,0.0028753747715289132,-0.185502,-27.79225
11.185,2.0,1.0,1.0,33.0,34.2,34.2,4.4,1.8,2.715,0.45215063942985817,-0.04213949410388849,0.8673529563763903,0.002452762733311043,-0.192055,-27.491525
11.185,2.0,1.0,1.0,33.0,34.2,34.2,4.4,1.8,2.7175,0.4427244569324101,-0.0436909418195456,0.8713141565977374,0.001985347794952962,-0.199087,-27.183214
11.185,2.0,1.0,1.0,33.0,34.2,34.2,4.4,1.8,2.72,0.43310850905805964,-0.04533453213890044,0.8751842182284636,0.0014675425755979455,-0.206655,-26.866869
11.185,2.0,1.0,1.0,33.0,34.2,34.2,4.4,1.8,2.7225,0.4232934316516421,-0.04707839550971132,0.8789552255060841,0.0008928738729876929,-0.214819,-26.542005
11.185,2.0,1.0,1.0,33.0,34.2,34.2,4.4,1.8,2.725,0.4132688952767832,-0.048931598442453345,0.8826181556859464,0.0002538105315373883,-0.223651,-26.208095
11.185,2.0,1.0,1.0,33.0,34.2,34.2,4.4,1.8,2.7275,0.40302347420875617,-0.05090427162202221,0.8861626643447471,-0.00045844848649158673,-0.233235,-25.864563
11.185,2.0,1.0,1.0,33.0,34.2,34.2,4.4,1.8,2.73,0.3925444960600222,-0.05300775680883029,0.8895768197258903,-0.0012542365305364686,-0.243669,-25.510781
11.185,2.0,1.0,1.0,33.0,34.2,34.2,4.4,1.8,2.7325,0.3818178696281254,-0.05525477480851569,0.8928467719983187,-0.0021457461831238455,-0.255066,-25.146059
11.185,2.0,1.0,1.0,33.0,34.2,34.2,4.4,1.8,2.735,0.37082788870463185,-0.05765961660886583,0.8959563388301099,-0.0031474390848834303,-0.267562,-24.769644
11.185,2.0,1.0,1.0,33.0,34.2,34.2,4.4,1.8,2.7375,0.3595570101268688,-0.06023835920028344,0.8988864826234508,-0.004276563059968999,-0.281315,-24.380703
11.185,2.0,1.0,1.0,33.0,34.2,34.2,4.4,1.8,2.74,0.34798560559961306,-0.06300910630286391,0.9016146465015068,-0.005553809095954063,-0.296518,-23.978323
11.185,2.0,1.0,1.0,33.0,34.2,34.2,4.4,1.8,2.7425,0.33609168928269595,-0.06599225169679442,0.9041139048061798,-0.007004151922660303,-0.313398,-23.561492
11.185,2.0,1.0,1.0,33.0,34.2,34.2,4.4,1.8,2.745,0.32385062771542356,-0.0692107582111013,0.9063518682172873,-0.008657933379342855,-0.332235,-23.129092
11.185,2.0,1.0,1.0,33.0,34.2,34.2,4.4,1.8,2.7475,0.3112348468284297,-0.07269043717315013,0.908289261875651,-0.010552269191633261,-0.353367,-22.679884
11.185,2.0,1.0,1.0,33.0,34.2,34.2,4.4,1.8,2.75,0.298213565136135,-0.0764601987088956,0.909878064593316,-0.0127328896443658,-0.377209,-22.212492
11.185,2.0,1.0,1.0,33.0,34.2,34.2,4.4,1.8,2.7525,0.28475260710200756,-0.08055221833976274,0.9110590548808154,-0.015256566346431402,-0.404279,-21.725388
11.185,2.0,1.0,1.0,33.0,34.2,34.2,4.4,1.8,2.755,0.27081439372585,-0.08500192229160292,0.9117585503579169,-0.018194335487307135,-0.435222,-21.216873
11.185,2.0,1.0,1.0,33.0,34.2,34.2,4.4,1.8,2.7575,0.2563582818695881,-0.0898476196595365,0.9118840449444443,-0.021635808712860933,-0.470855,-20.685064
11.185,2.0,1.0,1.0,33.0,34.2,34.2,4.4,1.8,2.76,0.2413415529882859,-0.09512948098468886,0.9113183357607437,-0.025694973039540096,-0.512219,-20.127875
11.185,2.0,1.0,1.0,33.0,34.2,34.2,4.4,1.8,2.7625,0.225721576877961,-0.10088733917980083,0.9099115824422694,-0.03051802716718808,-0.560658,-19.543014
11.185,2.0,1.0,1.0,33.0,34.2,34.2,4.4,1.8,2.765,0.20946006962825886,-0.10715639804588965,0.907470556174133,-0.03629398202266916,-0.617924,-18.927986
11.185,2.0,1.0,1.0,33.0,34.2,34.2,4.4,1.8,2.7675,0.19253105584094848,-0.11395924876285986,0.903744139044189,-0.04326894281859782,-0.686328,-18.28013
11.185,2.0,1.0,1.0,33.0,34.2,34.2,4.4,1.8,2.77,0.174935357456922,-0.12129139472077516,0.8984040200371249,-0.05176509395463335,-0.768948,-17.596698
11.185,2.0,1.0,1.0,33.0,34.2,34.2,4.4,1.8,2.7725,0.1567265416500521,-0.12909539956034366,0.8910197754833279,-0.06220515354972906,-0.869922,-16.875031
11.185,2.0,1.0,1.0,33.0,34.2,34.2,4.4,1.8,2.775,0.13805684758814837,-0.13721523451572332,0.8810288371650704,-0.075141736609345,-0.994846,-16.112897
11.185,2.0,1.0,1.0,33.0,34.2,34.2,4.4,1.8,2.7775,0.11925737491141376,-0.14531673129394282,0.8677060083042232,-0.09128691100164664,-1.151276,-15.30911
11.185,2.0,1.0,1.0,33.0,34.2,34.2,4.4,1.8,2.78,0.10097486331158599,-0.1527521694203534,0.8501482607086647,-0.11152621740949964,-1.349268,-14.46465
11.185,2.0,1.0,1.0,33.0,34.2,34.2,4.4,1.8,2.7825,0.08439432931461295,-0.1583403616132633,0.8273169925804338,-0.1368752127582053,-1.601602,-13.584615
11.185,2.0,1.0,1.0,33.0,34.2,34.2,4.4,1.8,2.785,0.07156653632733685,-0.1600441926860939,0.7982355796702947,-0.16828162179723244,-1.922609,-12.681466
11.185,2.0,1.0,1.0,33.0,34.2,34.2,4.4,1.8,2.7875,0.06578081609687399,-0.15460586042058963,0.7625321202423847,-0.20608569216295855,-2.322637,-11.780001
11.185,2.0,1.0,1.0,33.0,34.2,34.2,4.4,1.8,2.79,0.07166678790571164,-0.1374547254975454,0.7215800654434503,-0.24889114480807284,-2.791679,-10.923705
11.185,2.0,1.0,1.0,33.0,34.2,34.2,4.4,1.8,2.7925,0.0942001410784982,-0.10370345601786515,0.6802063014103323,-0.29188295085836813,-3.264683,-10.179547
11.185,2.0,1.0,1.0,33.0,34.2,34.2,4.4,1.8,2.795,0.135568947222979,-0.051255319211026974,0.6477025634402509,-0.3258501310824558,-3.586275,-9.633495
11.185,2.0,1.0,1.0,33.0,34.2,34.2,4.4,1.8,2.7975,0.19078425205987248,0.0148733085412617,0.6352142367608626,-0.33980129794926317,-3.566502,-9.367187
11.185,2.0,1.0,1.0,33.0,34.2,34.2,4.4,1.8,2.8,0.24710068219023792,0.08203230900868438,0.6486748515356233,-0.327957986275276,-3.170991,-9.42008
11.185,2.0,1.0,1.0,33.0,34.2,34.2,4.4,1.8,2.8025,0.29090834957146755,0.1367922671025351,0.6838057786233612,-0.2946496216455608,-2.578894,-9.766219
11.185,2.0,1.0,1.0,33.0,34.2,34.2,4.4,1.8,2.805,0.3156303670889893,0.1727298090369137,0.7297064110460211,-0.2507035381659405,-1.992183,-10.329772
11.185,2.0,1.0,1.0,33.0,34.2,34.2,4.4,1.8,2.8075,0.3225341398643174,0.1911748628669628,0.776292311129499,-0.2060813468097391,-1.507907,-11.022775
11.185,2.0,1.0,1.0,33.0,34.2,34.2,4.4,1.8,2.81,0.3165132325272481,0.1970114045240683,0.8179050450429857,-0.16633951381854278,-1.139894,-11.772938
11.185,2.0,1.0,1.0,33.0,34.2,34.2,4.4,1.8,2.8125,0.302481201778649,0.195114829891473,0.852709032758747,-0.133252744276975,-0.869242,-12.531628
11.185,2.0,1.0,1.0,33.0,34.2,34.2,4.4,1.8,2.815,0.2840316151330198,0.1890396478581277,0.8809190288361314,-0.10657724042389376,-0.671751,-13.27028
11.185,2.0,1.0,1.0,33.0,34.2,34.2,4.4,1.8,2.8175,0.26342962084383276,0.18102074866212825,0.9035061099819861,-0.0853307512271281,-0.527043,-13.973991
11.185,2.0,1.0,1.0,33.0,34.2,34.2,4.4,1.8,2.82,0.24198669275936366,0.17234886281011763,0.9215549998574788,-0.06842549552565928,-0.419997,-14.636161
11.185,2.0,1.0,1.0,33.0,34.2,34.2,4.4,1.8,2.8225,0.22041631230047862,0.16372419714733033,0.9360212396220171,-0.05490571105415237,-0.339902,-15.254887
11.185,2.0,1.0,1.0,33.0,34.2,34.2,4.4,1.8,2.825,0.19908123649974613,0.15550145879919647,0.9476734441556758,-0.04400292580338957,-0.279276,-15.830774
11.185,2.0,1.0,1.0,33.0,34.2,34.2,4.4,1.8,2.8275,0.1781463367306748,0.14784095377828035,0.9571056124137545,-0.035122633234238546,-0.232891,-16.365658
11.185,2.0,1.0,1.0,33.0,34.2,34.2,4.4,1.8,2.83,0.1576681145262101,0.1407969043705831,0.9647690130103037,-0.027812072472061453,-0.197064,-16.861901
