1,w,sub_t,h,l1,l2,l3,g1,g2,Freq,S11_re,S21_re,S11_img,S21_img,S11_dB,S21_dB
11.185,2.0,1.0,1.0,33.7,34.2,34.2,3.6,3.5,2.5,0.825299359829694,-0.00676293075263978,0.553053166355626,0.00424653969935785,-0.056886,-41.953813
11.185,2.0,1.0,1.0,33.7,34.2,34.2,3.6,3.5,2.5025,0.8214545944076054,-0.006891618374133974,0.5586368843448781,0.004252458429771808,-0.057432,-41.832431
11.185,2.0,1.0,1.0,33.7,34.2,34.2,3.6,3.5,2.505,0.8175545450663402,-0.007022533359603031,0.5642173252656089,0.004257475709916685,-0.057988,-41.710691
11.185,2.0,1.0,1.0,33.7,34.2,34.2,3.6,3.5,2.5075,0.8135986658492895,-0.007155720953723231,0.5697941849520223,0.004261557956744759,-0.058553,-41.588582
11.185,2.0,1.0,1.0,33.7,34.2,34.2,3.6,3.5,2.51,0.8095864024111831,-0.007291227607143854,0.5753671502718314,0.004264670358671395,-0.059128,-41.466096
11.185,2.0,1.0,1.0,33.7,34.2,34.2,3.6,3.5,2.5125,0.8055171918904983,-0.007429101016825952,0.5809358988419935,0.004266776824126565,-0.059714,-41.343221
11.185,2.0,1.0,1.0,33.7,34.2,34.2,3.6,3.5,2.515,0.8013904627802351,-0.0075693901680360135,0.5865000987351104,0.004267839927618408,-0.06031,-41.219948
11.185,2.0,1.0,1.0,33.7,34.2,34.2,3.6,3.5,2.5175,0.7972056347970571,-0.007712145378075329,0.5920594081761351,0.004267820853169333,-0.060917,-41.096266
11.185,2.0,1.0,1.0,33.7,34.2,34.2,3.6,3.5,2.52,0.7929621187487793,-0.007857418341831743,0.5976134752290466,0.004266679334976601,-0.061536,-40.972164
11.185,2.0,1.0,1.0,33.7,34.2,34.2,3.6,3.5,2.5225,0.7886593164002054,-0.008005262179244113,0.6031619374730866,0.004264373595139364,-0.062165,-40.847632
11.185,2.0,1.0,1.0,33.7,34.2,34.2,3.6,3.5,2.525,0.7842966203372926,-0.008155731484776373,0.6087044216681949,0.00426086027828401,-0.062807,-40.722659
11.185,2.0,1.0,1.0,33.7,34.2,34.2,3.6,3.5,2.5275,0.7798734138296396,-0.008308882379002834,0.6142405434092226,0.0042560943829085375,-0.06346,-40.597233
11.185,2.0,1.0,1.0,33.7,34.2,34.2,3.6,3.5,2.53,0.7753890706912836,-0.008464772562412643,0.6197699067684833,0.004250029189254693,-0.064126,-40.471343
11.185,2.0,1.0,1.0,33.7,34.2,34.2,3.6,3.5,2.5325,0.770842955139804,-0.008623461371547745,0.6252921039262127,0.0042426161835039024,-0.064804,-40.344978
11.185,2.0,1.0,1.0,33.7,34.2,34.2,3.6,3.5,2.535,0.7662344216537026,-0.008785009837595666,0.6308067147884548,0.0042338049780791705,-0.065495,-40.218126
11.185,2.0,1.0,1.0,33.7,34.2,34.2,3.6,3.5,2.5375,0.7615628148280705,-0.008949480747565105,0.6363133065918835,0.004223543227820236,-0.0662,-40.090775
11.185,2.0,1.0,1.0,33.7,34.2,34.2,3.6,3.5,2.54,0.7568274692285074,-0.009116938708180807,0.6418114334950464,0.004211776541783365,-0.066918,-39.962912
11.185,2.0,1.0,1.0,33.7,34.2,34.2,3.6,3.5,2.5425,0.752027709243289,-0.009287450212642271,0.6473006361554916,0.0041984483903998795,-0.06765,-39.834526
11.185,2.0,1.0,1.0,33.7,34.2,34.2,3.6,3.5,2.545,0.7471628489337608,-0.009461083710399313,0.652780441292208,0.004183500007708905,-0.068396,-39.705603
11.185,2.0,1.0,1.0,33.7,34.2,34.2,3.6,3.5,2.5475,0.7422321918829469,-0.009637909680107437,0.6582503612327777,0.004166870288359741,-0.069157,-39.576131
11.185,2.0,1.0,1.0,33.7,34.2,34.2,3.6,3.5,2.55,0.7372350310423357,-0.009818000705936046,0.6637098934446289,0.004148495679057711,-0.069933,-39.446096
11.185,2.0,1.0,1.0,33.7,34.2,34.2,3.6,3.5,2.5525,0.7321706485768461,-0.010001431557412836,0.6691585200497113,0.004128310064103578,-0.070724,-39.315485
11.185,2.0,1.0,1.0,33.7,34.2,34.2,3.6,3.5,2.555,0.727038315707924,-0.010188279273000115,0.6745957073219173,0.004106244644651875,-0.071532,-39.184285
11.185,2.0,1.0,1.0,33.7,34.2,34.2,3.6,3.5,2.5575,0.7218372925547465,-0.010378623247610696,0.6800209051665158,0.004082227811285292,-0.072356,-39.05248
11.185,2.0,1.0,1.0,33.7,34.2,34.2,3.6,3.5,2.56,0.7165668279735099,-0.01057254532428385,0.6854335465808225,0.004056185009473426,-0.073196,-38.920058
11.185,2.0,1.0,1.0,33.7,34.2,34.2,3.6,3.5,2.5625,0.7112261593947543,-0.010770129890257316,0.6908330470953045,0.004028038597451221,-0.074054,-38.787002
11.185,2.0,1.0,1.0,33.7,34.2,34.2,3.6,3.5,2.565,0.7058145126586833,-0.01097146397768506,0.6962188041942636,0.003997707696018367,-0.07493,-38.653299
11.185,2.0,1.0,1.0,33.7,34.2,34.2,3.6,3.5,2.5675,0.7003311018484372,-0.011176637369267934,0.7015901967151829,0.003965108029722197,-0.075824,-38.518933
11.185,2.0,1.0,1.0,33.7,34.2,34.2,3.6,3.5,2.57,0.6947751291212634,-0.01138574270908123,0.7069465842257953,0.003930151758846381,-0.076737,-38.383888
11.185,2.0,1.0,1.0,33.7,34.2,34.2,3.6,3.5,2.5725,0.6891457845375177,-0.011598875618902542,0.7122873063778558,0.0038927473015824823,-0.077669,-38.248148
11.185,2.0,1.0,1.0,33.7,34.2,34.2,3.6,3.5,2.575,0.683442245887436,-0.011816134820362546,0.7176116822365484,0.0038527991457128962,-0.078621,-38.111696
11.185,2.0,1.0,1.0,33.7,34.2,34.2,3.6,3.5,2.5775,0.6776636785155944,-0.01203762226326398,0.7229190095843859,0.0038102076490814547,-0.079593,-37.974517
11.185,2.0,1.0,1.0,33.7,34.2,34.2,3.6,3.5,2.58,0.6718092351429752,-0.012263443260436317,0.7282085641984053,0.0037648688280694123,-0.080587,-37.836592
11.185,2.0,1.0,1.0,33.7,34.2,34.2,3.6,3.5,2.5825,0.6658780556865336,-0.012493706629519638,0.7334795990993745,0.00371667413323286,-0.081602,-37.697903
11.185,2.0,1.0,1.0,33.7,34.2,34.2,3.6,3.5,2.585,0.6598692670761611,-0.012728524842096748,0.7387313437716481,0.0036655102111882356,-0.08264,-37.558434
11.185,2.0,1.0,1.0,33.7,34.2,34.2,3.6,3.5,2.5875,0.6537819830689158,-0.012968014180622751,0.7439630033522253,0.0036112586517586644,-0.0837,-37.418164
11.185,2.0,1.0,1.0,33.7,34.2,34.2,3.6,3.5,2.59,0.6476153040603861,-0.013212294903630812,0.7491737577874633,0.0035537957193115875,-0.084785,-37.277076
11.185,2.0,1.0,1.0,33.7,34.2,34.2,3.6,3.5,2.5925,0.6413683168930238,-0.013461491419727474,0.7543627609558005,0.003492992067129495,-0.085894,-37.135149
11.185,2.0,1.0,1.0,33.7,34.2,34.2,3.6,3.5,2.595,0.6350400946612796,-0.013715732470925413,0.7595291397547234,0.0034287124335572955,-0.087028,-36.992363
11.185,2.0,1.0,1.0,33.7,34.2,34.2,3.6,3.5,2.5975,0.6286296965133361,-0.013975151325901151,0.7646719931501066,0.003360815318563408,-0.088189,-36.848698
11.185,2.0,1.0,1.0,33.7,34.2,34.2,3.6,3.5,2.6,0.6221361674492185,-0.014239885983806185,0.7697903911859028,0.0032891526392337805,-0.089376,-36.704132
11.185,2.0,1.0,1.0,33.7,34.2,34.2,3.6,3.5,2.6025,0.615558538115048,-0.014510079389304086,0.7748833739520237,0.0032135693625901414,-0.090592,-36.558644
11.185,2.0,1.0,1.0,33.7,34.2,34.2,3.6,3.5,2.605,0.6088958245931436,-0.014785879659555249,0.7799499505081001,0.0031339031139814657,-0.091836,-36.41221
11.185,2.0,1.0,1.0,33.7,34.2,34.2,3.6,3.5,2.6075,0.6021470281876833,-0.015067440323921835,0.7849890977606292,0.0030499837591430683,-0.09311,-36.264809
11.185,2.0,1.0,1.0,33.7,34.2,34.2,3.6,3.5,2.61,0.5953111352055755,-0.015354920577221147,0.7899997592908277,0.002961632957846353,-0.094414,-36.116415
11.185,2.0,1.0,1.0,33.7,34.2,34.2,3.6,3.5,2.6125,0.5883871167321587,-0.01564848554741604,0.7949808441303091,0.0028686636868740538,-0.09575,-35.967004
11.185,2.0,1.0,1.0,33.7,34.2,34.2,3.6,3.5,2.615,0.5813739284013069,-0.015948306578695486,0.7999312254814782,0.0027708797298482924,-0.097119,-35.816552
11.185,2.0,1.0,1.0,33.7,34.2,34.2,3.6,3.5,2.6175,0.5742705101594743,-0.016254561530967174,0.8048497393792691,0.0026680751312096436,-0.098523,-35.665032
11.185,2.0,1.0,1.0,33.7,34.2,34.2,3.6,3.5,2.62,0.5670757860231541,-0.016567435096859713,0.8097351832906046,0.0025600336113925323,-0.099961,-35.512416
11.185,2.0,1.0,1.0,33.7,34.2,34.2,3.6,3.5,2.6225,0.5597886638291688,-0.0168871191374128,0.8145863146476352,0.002446527939962167,-0.101436,-35.358679
11.185,2.0,1.0,1.0,33.7,34.2,34.2,3.6,3.5,2.625,0.552408034977163,-0.0172138130377185,0.819401849310485,0.00232731926316946,-0.102948,-35.20379
11.185,2.0,1.0,1.0,33.7,34.2,34.2,3.6,3.5,2.6275,0.5449327741635739,-0.017547724083873232,0.8241804599548752,0.0022021563820358607,-0.1045,-35.04772
11.185,2.0,1.0,1.0,33.7,34.2,34.2,3.6,3.5,2.63,0.537361739106304,-0.017889067862697408,0.8289207743795802,0.0020707749767009394,-0.106092,-34.890439
11.185,2.0,1.0,1.0,33.7,34.2,34.2,3.6,3.5,2.6325,0.5296937702592239,-0.018238068685789716,0.8336213737282221,0.0019328967723417265,-0.107727,-34.731915
11.185,2.0,1.0,1.0,33.7,34.2,34.2,3.6,3.5,2.635,0.5219276905155534,-0.018594960039597715,0.8382807906194158,0.001788228641503907,-0.109405,-34.572115
11.185,2.0,1.0,1.0,33.7,34.2,34.2,3.6,3.5,2.6375,0.5140623048990681,-0.018959985063311424,0.842897507178719,0.001636461637161154,-0.111129,-34.411007
11.185,2.0,1.0,1.0,33.7,34.2,34.2,3.6,3.5,2.64,0.5060964002419541,-0.019333397056520304,0.8474699529652361,0.0014772699502368525,-0.1129,-34.248554
11.185,2.0,1.0,1.0,33.7,34.2,34.2,3.6,3.5,2.6425,0.4980287448480561,-0.01971546001871653,0.8519965027850231,0.0013103097846718047,-0.11472,-34.084721
11.185,2.0,1.0,1.0,33.7,34.2,34.2,3.6,3.5,2.645,0.4898580881400992,-0.020106449222880834,0.8564754743827021,0.001135218142395799,-0.116591,-33.91947
11.185,2.0,1.0,1.0,33.7,34.2,34.2,3.6,3.5,2.6475,0.481583160289357,-0.020506651825550407,0.8609051260018109,0.0009516115097483401,-0.118515,-33.752763
11.185,2.0,1.0,1.0,33.7,34.2,34.2,3.6,3.5,2.65,0.47320267182605835,-0.020916367515943432,0.8652836538035058,0.0007590844359842577,-0.120494,-33.584559
11.185,2.0,1.0,1.0,33.7,34.2,34.2,3.6,3.5,2.6525,0.46471531322872306,-0.021335909206898172,0.869609189132114,0.0005572079934809451,-0.122531,-33.414816
11.185,2.0,1.0,1.0,33.7,34.2,34.2,3.6,3.5,2.655,0.4561197544903731,-0.02176560377058352,0.8738797956148961,0.00034552810811755495,-0.124628,-33.243491
11.185,2.0,1.0,1.0,33.7,34.2,34.2,3.6,3.5,2.6575,0.44741464465944625,-0.022205792822143276,0.878093466081992,0.00012356374701037715,-0.126788,-33.07054
11.185,2.0,1.0,1.0,33.7,34.2,34.2,3.6,3.5,2.66,0.4385986113530126,-0.022656833554656412,0.8822481192910476,-0.00010919505066147922,-0.129013,-32.895915
11.185,2.0,1.0,1.0,33.7,34.2,34.2,3.6,3.5,2.6625,0.42967026023970084,-0.0231190996290223,0.8863415964392947,-0.0003532893156396239,-0.131307,-32.719568
11.185,2.0,1.0,1.0,33.7,34.2,34.2,3.6,3.5,2.665,0.4206281744895171,-0.023592982122619864,0.8903716574439765,-0.0006092934811244406,-0.133672,-32.541448
11.185,2.0,1.0,1.0,33.7,34.2,34.2,3.6,3.5,2.6675,0.4114709141875296,-0.02407889054083189,0.8943359769698066,-0.000877817925698311,-0.136112,-32.361502
11.185,2.0,1.0,1.0,33.7,34.2,34.2,3.6,3.5,2.67,0.4021970157081473,-0.024577253895777734,0.8982321401797391,-0.001159511748828108,-0.13863,-32.179677
11.185,2.0,1.0,1.0,33.7,34.2,34.2,3.6,3.5,2.6725,0.3928049910464803,-0.02508852185684874,0.9020576381825353,-0.0014550658038211051,-0.14123,-31.995915
11.185,2.0,1.0,1.0,33.7,34.2,34.2,3.6,3.5,2.675,0.3832933271030614,-0.025613165977888108,0.9058098631474647,-0.0017652160161519622,-0.143915,-31.810156
11.185,2.0,1.0,1.0,33.7,34.2,34.2,3.6,3.5,2.6775,0.37366048491794324,-0.0261516810060978,0.9094861030529076,-0.002090747018543554,-0.146691,-31.622338
11.185,2.0,1.0,1.0,33.7,34.2,34.2,3.6,3.5,2.68,0.36390489884999005,-0.02670458627797651,0.913083536031543,-0.0024324961381325004,-0.149562,-31.432397
11.185,2.0,1.0,1.0,33.7,34.2,34.2,3.6,3.5,2.6825,0.35402497569699126,-0.027272427207785742,0.916599224270157,-0.0027913577755577486,-0.152532,-31.240265
11.185,2.0,1.0,1.0,33.7,34.2,34.2,3.6,3.5,2.685,0.3440190937520497,-0.027855776874192845,0.9200301074167897,-0.0031682882209666235,-0.155607,-31.045872
11.185,2.0,1.0,1.0,33.7,34.2,34.2,3.6,3.5,2.6875,0.333885601791612,-0.0284552377108309,0.923372995441854,-0.00356431095783953,-0.158791,-30.849143
11.185,2.0,1.0,1.0,33.7,34.2,34.2,3.6,3.5,2.69,0.3236228179904864,-0.029071443306518695,0.9266245608928707,-0.003980522512313402,-0.162092,-30.650002
11.185,2.0,1.0,1.0,33.7,34.2,34.2,3.6,3.5,2.6925,0.31322902875924763,-0.02970506032077824,0.9297813304744476,-0.004418098913482181,-0.165515,-30.448367
11.185,2.0,1.0,1.0,33.7,34.2,34.2,3.6,3.5,2.695,0.3027024874997078,-0.030356790520018547,0.932839675875872,-0.004878302839132628,-0.169068,-30.244154
11.185,2.0,1.0,1.0,33.7,34.2,34.2,3.6,3.5,2.6975,0.2920414132744876,-0.031027372939289186,0.935795803758045,-0.0053624915317459195,-0.172757,-30.037273
11.185,2.0,1.0,1.0,33.7,34.2,34.2,3.6,3.5,2.7,0.28124398938747397,-0.03171758617376223,0.9386457447991238,-0.005872125581586141,-0.176591,-29.827633
11.185,2.0,1.0,1.0,33.7,34.2,34.2,3.6,3.5,2.7025,0.27030836187290797,-0.032428250803010185,0.9413853416839912,-0.006408778687600839,-0.180578,-29.615134
11.185,2.0,1.0,1.0,33.7,34.2,34.2,3.6,3.5,2.705,0.2592326378923688,-0.03316023194958865,0.9440102359060484,-0.006974148523002729,-0.184727,-29.399674
11.185,2.0,1.0,1.0,33.7,34.2,34.2,3.6,3.5,2.7075,0.24801488404092623,-0.03391444197127968,0.9465158532305628,-0.007570068851195949,-0.189049,-29.181145
11.185,2.0,1.0,1.0,33.7,34.2,34.2,3.6,3.5,2.71,0.23665312456657353,-0.03469184328341866,0.9488973876462805,-0.008198523059630265,-0.193555,-28.959434
11.185,2.0,1.0,1.0,33.7,34.2,34.2,3.6,3.5,2.7125,0.22514533951081397,-0.035493451303797274,0.9511497836057353,-0.008861659304796174,-0.198255,-28.734419
11.185,2.0,1.0,1.0,33.7,34.2,34.2,3.6,3.5,2.715,0.21348946278335745,-0.036320337507403065,0.9532677163238731,-0.00956180749160146,-0.203164,-28.505976
11.185,2.0,1.0,1.0,33.7,34.2,34.2,3.6,3.5,2.7175,0.20168338019056925,-0.03717363257135852,0.9552455698684611,-0.010301498345639027,-0.208295,-28.273971
11.185,2.0,1.0,1.0,33.7,34.2,34.2,3.6,3.5,2.72,0.1897249274461826,-0.03805452958135964,0.9570774127331896,-0.011083484878372367,-0.213664,-28.038263
11.185,2.0,1.0,1.0,33.7,34.2,34.2,3.6,3.5,2.7225,0.1776118882043376,-0.03896428725906862,0.9587569705341781,-0.011910766594262314,-0.219287,-27.798704
11.185,2.0,1.0,1.0,33.7,34.2,34.2,3.6,3.5,2.725,0.16534199217025589,-0.039904233154453995,0.9602775954112227,-0.012786616846812288,-0.225183,-27.555137
11.185,2.0,1.0,1.0,33.7,34.2,34.2,3.6,3.5,2.7275,0.1529129133635977,-0.04087576672695015,0.9616322316447471,-0.013714613819244895,-0.231372,-27.307395
11.185,2.0,1.0,1.0,33.7,34.2,34.2,3.6,3.5,2.73,0.14032226863546748,-0.04188036221311837,0.9628133769157516,-0.014698675687228898,-0.237877,-27.055303
11.185,2.0,1.0,1.0,33.7,34.2,34.2,3.6,3.5,2.7325,0.1275676165736677,-0.04291957114443921,0.9638130385363849,-0.015743100618468783,-0.244721,-26.798673
11.185,2.0,1.0,1.0,33.7,34.2,34.2,3.6,3.5,2.735,0.11464645697476396,-0.04399502433455338,0.964622683859672,-0.016852612380335724,-0.251933,-26.537306
11.185,2.0,1.0,1.0,33.7,34.2,34.2,3.6,3.5,2.7375,0.10155623111879465,-0.045108433097576964,0.9652331839342995,-0.018032412466127468,-0.259543,-26.270993
11.185,2.0,1.0,1.0,33.7,34.2,34.2,3.6,3.5,2.74,0.0882943231573109,-0.04626158938389001,0.9656347492990942,-0.0192882398179665,-0.267583,-25.999508
11.185,2.0,1.0,1.0,33.7,34.2,34.2,3.6,3.5,2.7425,0.07485806302328923,-0.04745636442156217,0.9658168566056476,-0.02062643942592978,-0.276093,-25.722614
11.185,2.0,1.0,1.0,33.7,34.2,34.2,3.6,3.5,2.745,0.0612447313997641,-0.048694705323009166,0.9657681645087022,-0.022054041326299456,-0.285112,-25.440054
11.185,2.0,1.0,1.0,33.7,34.2,34.2,3.6,3.5,2.7475,0.047451567452515574,-0.04997862894780995,0.9654764169628972,-0.02357885181617227,-0.294689,-25.151558
11.185,2.0,1.0,1.0,33.7,34.2,34.2,3.6,3.5,2.75,0.0334757802540898,-0.0513102120907333,0.964928331699492,-0.0252095590585705,-0.304875,-24.856834
11.185,2.0,1.0,1.0,33.7,34.2,34.2,3.6,3.5,2.7525,0.019314565119628993,-0.05269157677123635,0.9641094712131636,-0.02695585568584562,-0.31573,-24.555573
11.185,2.0,1.0,1.0,33.7,34.2,34.2,3.6,3.5,2.755,0.0049651264635711505,-0.054124869013042594,0.963004093049129,-0.028828581537021773,-0.327322,-24.247442
11.185,2.0,1.0,1.0,33.7,34.2,34.2,3.6,3.5,2.7575,-0.009575290696878944,-0.05561222898726894,0.961594975522559,-0.030839890308206372,-0.339726,-23.932083
11.185,2.0,1.0,1.0,33.7,34.2,34.2,3.6,3.5,2.76,-0.024309357775361227,-0.05715574970531202,0.9598632141988571,-0.03300344468040443,-0.353028,-23.609114
11.185,2.0,1.0,1.0,33.7,34.2,34.2,3.6,3.5,2.7625,-0.03923960444558621,-0.05875742052700083,0.9577879834822373,-0.03533464544763993,-0.367329,-23.278124
11.185,2.0,1.0,1.0,33.7,34.2,34.2,3.6,3.5,2.765,-0.054368340278392074,-0.06041905051055782,0.9553462564624128,-0.03785090133787816,-0.382741,-22.938669
11.185,2.0,1.0,1.0,33.7,34.2,34.2,3.6,3.5,2.7675,-0.06969754951279535,-0.06214216495592103,0.9525124747094226,-0.04057194764398263,-0.399396,-22.590272
11.185,2.0,1.0,1.0,33.7,34.2,34.2,3.6,3.5,2.77,-0.0852287499949546,-0.06392786621745512,0.949258157933012,-0.04352022351167152,-0.417444,-22.23242
11.185,2.0,1.0,1.0,33.7,34.2,34.2,3.6,3.5,2.7725,-0.10096280418702494,-0.06577664675507579,0.9455514412798094,-0.046721319819405076,-0.437062,-21.864558
11.185,2.0,1.0,1.0,33.7,34.2,34.2,3.6,3.5,2.775,-0.11689966584652126,-0.0676881381284778,0.9413565254749615,-0.050204512082151494,-0.458455,-21.486085
11.185,2.0,1.0,1.0,33.7,34.2,34.2,3.6,3.5,2.7775,-0.13303804003819916,-0.06966077375543796,0.9366330219848574,-0.054003395753221266,-0.481864,-21.096354
11.185,2.0,1.0,1.0,33.7,34.2,34.2,3.6,3.5,2.78,-0.14937492589801568,-0.07169133509400785,0.9313351718815417,-0.0581566446835603,-0.507574,-20.694665
11.185,2.0,1.0,1.0,33.7,34.2,34.2,3.6,3.5,2.7825,-0.1659050000687439,-0.07377433952902882,0.9254109132072571,-0.06270891724055958,-0.53592,-20.280259
11.185,2.0,1.0,1.0,33.7,34.2,34.2,3.6,3.5,2.785,-0.18261978260146244,-0.0759012122970485,0.9188007676135984,-0.06771193843770341,-0.567307,-19.852317
11.185,2.0,1.0,1.0,33.7,34.2,34.2,3.6,3.5,2.7875,-0.19950650440060844,-0.07805916233409722,0.9114365134429021,-0.07322578981684572,-0.602216,-19.409955
11.185,2.0,1.0,1.0,33.7,34.2,34.2,3.6,3.5,2.79,-0.21654656316185578,-0.08022965020086333,0.9032396103720579,-0.07932044060931405,-0.64123,-18.952218
11.185,2.0,1.0,1.0,33.7,34.2,34.2,3.6,3.5,2.7925,-0.2337134091785033,-0.08238629126387517,0.8941193424591408,-0.08607755167258517,-0.685058,-18.478081
11.185,2.0,1.0,1.0,33.7,34.2,34.2,3.6,3.5,2.795,-0.25096963766449026,-0.08449197348191417,0.8839706560545614,-0.09359257373618828,-0.73457,-17.986448
11.185,2.0,1.0,1.0,33.7,34.2,34.2,3.6,3.5,2.7975,-0.268262972425723,-0.08649487868368252,0.8726716941476054,-0.10197713604985376,-0.790835,-17.476155
11.185,2.0,1.0,1.0,33.7,34.2,34.2,3.6,3.5,2.8,-0.2855206961539517,-0.08832296870442644,0.8600810830579876,-0.11136166697037493,-0.855185,-16.945977
11.185,2.0,1.0,1.0,33.7,34.2,34.2,3.6,3.5,2.8025,-0.302641901940902,-0.0898763201389437,0.8460351355899937,-0.12189807993655373,-0.929287,-16.394654
11.185,2.0,1.0,1.0,33.7,34.2,34.2,3.6,3.5,2.805,-0.3194866943274765,-0.09101644976444621,0.8303453405874476,-0.13376215338366737,-1.015243,-15.820916
11.185,2.0,1.0,1.0,33.7,34.2,34.2,3.6,3.5,2.8075,-0.3358611467214412,-0.09155145794509158,0.8127968889531157,-0.147154855668962,-1.115725,-15.223547
11.185,2.0,1.0,1.0,33.7,34.2,34.2,3.6,3.5,2.81,-0.3514964374368172,-0.09121544239636309,0.7931496725331447,-0.16230118589076584,-1.234149,-14.601472
11.185,2.0,1.0,1.0,33.7,34.2,34.2,3.6,3.5,2.8125,-0.366020214426152,-0.0896402755877905,0.771144404450123,-0.179443902294287,-1.374903,-13.953907
11.185,2.0,1.0,1.0,33.7,34.2,34.2,3.6,3.5,2.815,-0.3789181138946258,-0.0863177300279455,0.7465185921333164,-0.19882745317218367,-1.543632,-13.280583
11.185,2.0,1.0,1.0,33.7,34.2,34.2,3.6,3.5,2.8175,-0.38948408077985436,-0.08055067262167262,0.71904052619156,-0.2206640423013509,-1.747576,-12.582102
11.185,2.0,1.0,1.0,33.7,34.2,34.2,3.6,3.5,2.82,-0.39676107875061806,-0.07139498704497575,0.6885747076606397,-0.2450685892562303,-1.995892,-11.860465
11.185,2.0,1.0,1.0,33.7,34.2,34.2,3.6,3.5,2.8225,-0.3994817410164966,-0.05760179171900091,0.6551990953577286,-0.2719425295882535,-2.299795,-11.119851
11.185,2.0,1.0,1.0,33.7,34.2,34.2,3.6,3.5,2.825,-0.39603645172112606,-0.037587270042909814,0.6194006415933543,-0.3007805139968044,-2.672027,-10.367709
11.185,2.0,1.0,1.0,33.7,34.2,34.2,3.6,3.5,2.8275,-0.3845306212336802,-0.009491233497410382,0.5823714299803316,-0.3303784002994343,-3.12453,-9.616184
