1,w,sub_t,h,l1,l2,l3,g1,g2,Freq,S11_re,S21_re,S11_img,S21_img,S11_dB,S21_dB
11.185,2.0,1.0,1.0,33.1,33.0,33.0,1.7,3.3,2.5,0.888638750695059,-0.00750110768986089,0.444851592000487,0.00809303029399456,-0.054313,-39.14482
11.185,2.0,1.0,1.0,33.1,33.0,33.0,1.7,3.3,2.5025,0.8857463108507699,-0.0076625100493806645,0.45045904214064725,0.008147173358821464,-0.054805,-39.027757
11.185,2.0,1.0,1.0,33.1,33.0,33.0,1.7,3.3,2.505,0.8828060267185308,-0.007826901663858412,0.4560696733509289,0.00820095024522696,-0.055306,-38.910429
11.185,2.0,1.0,1.0,33.1,33.0,33.0,1.7,3.3,2.5075,0.8798174177536866,-0.007994341848123901,0.4616833270343593,0.008254333820371506,-0.055816,-38.792829
11.185,2.0,1.0,1.0,33.1,33.0,33.0,1.7,3.3,2.51,0.8767799951109543,-0.008164891330993587,0.4672998392922845,0.008307295853520793,-0.056334,-38.67495
11.185,2.0,1.0,1.0,33.1,33.0,33.0,1.7,3.3,2.5125,0.8736932614876256,-0.008338612293644807,0.47291904073447905,0.00835980697047016,-0.056862,-38.556786
11.185,2.0,1.0,1.0,33.1,33.0,33.0,1.7,3.3,2.515,0.8705567109637703,-0.008515568409103383,0.47854075628253134,0.008411836605951795,-0.057399,-38.438329
11.185,2.0,1.0,1.0,33.1,33.0,33.0,1.7,3.3,2.5175,0.8673698288393914,-0.00869582488287652,0.48416480496622455,0.00846335295392856,-0.057946,-38.319573
11.185,2.0,1.0,1.0,33.1,33.0,33.0,1.7,3.3,2.52,0.8641320914684826,-0.008879448494765314,0.489790999712668,0.008514322915672617,-0.058503,-38.200511
11.185,2.0,1.0,1.0,33.1,33.0,33.0,1.7,3.3,2.5225,0.8608429660899475,-0.009066507641889805,0.49541914712787205,0.008564712045522452,-0.05907,-38.081136
11.185,2.0,1.0,1.0,33.1,33.0,33.0,1.7,3.3,2.525,0.8575019106553273,-0.00925707238296262,0.5010490472704965,0.008614484494206206,-0.059647,-37.961441
11.185,2.0,1.0,1.0,33.1,33.0,33.0,1.7,3.3,2.5275,0.8541083736532896,-0.009451214483846485,0.5066804934174594,0.008663602949612811,-0.060234,-37.841419
11.185,2.0,1.0,1.0,33.1,33.0,33.0,1.7,3.3,2.53,0.8506617939308414,-0.009649007464432226,0.5123132718210863,0.00871202857488691,-0.060833,-37.721061
11.185,2.0,1.0,1.0,33.1,33.0,33.0,1.7,3.3,2.5325,0.8471616005112123,-0.009850526646874554,0.5179471614574718,0.008759720943716404,-0.061442,-37.600362
11.185,2.0,1.0,1.0,33.1,33.0,33.0,1.7,3.3,2.535,0.8436072124083692,-0.010055849205224175,0.5235819337657118,0.008806637972674862,-0.062063,-37.479314
11.185,2.0,1.0,1.0,33.1,33.0,33.0,1.7,3.3,2.5375,0.8399980384381204,-0.010265054216494504,0.5292173523776358,0.008852735850473204,-0.062695,-37.357909
11.185,2.0,1.0,1.0,33.1,33.0,33.0,1.7,3.3,2.54,0.8363334770257647,-0.010478222713203164,0.5348531728376734,0.008897968963967934,-0.063339,-37.23614
11.185,2.0,1.0,1.0,33.1,33.0,33.0,1.7,3.3,2.5425,0.832612916010249,-0.010695437737428285,0.54048914231246,0.00894228982076428,-0.063994,-37.114
11.185,2.0,1.0,1.0,33.1,33.0,33.0,1.7,3.3,2.545,0.8288357324447928,-0.010916784396420841,0.5461249992897708,0.008985648968244378,-0.064663,-36.99148
11.185,2.0,1.0,1.0,33.1,33.0,33.0,1.7,3.3,2.5475,0.8250012923939524,-0.011142349919814215,0.5517604732663506,0.009027994908840774,-0.065343,-36.868572
11.185,2.0,1.0,1.0,33.1,33.0,33.0,1.7,3.3,2.55,0.8211089507270766,-0.01137222371847412,0.5573952844242119,0.009069274011366639,-0.066037,-36.74527
11.185,2.0,1.0,1.0,33.1,33.0,33.0,1.7,3.3,2.5525,0.8171580509081402,-0.011606497445030211,0.5630291432949046,0.00910943041820278,-0.066744,-36.621565
11.185,2.0,1.0,1.0,33.1,33.0,33.0,1.7,3.3,2.555,0.813147924781915,-0.01184526505613386,0.5686617504112987,0.009148405948130886,-0.067465,-36.497449
11.185,2.0,1.0,1.0,33.1,33.0,33.0,1.7,3.3,2.5575,0.8090778923564553,-0.01208862287648511,0.57429279594636,0.009186139994591317,-0.068199,-36.372914
11.185,2.0,1.0,1.0,33.1,33.0,33.0,1.7,3.3,2.56,0.80494726158188,-0.01233666966467253,0.5799219593383822,0.009222569419130175,-0.068948,-36.247952
11.185,2.0,1.0,1.0,33.1,33.0,33.0,1.7,3.3,2.5625,0.8007553281254352,-0.012589506680870015,0.5855489089021264,0.009257628439788742,-0.069711,-36.122555
11.185,2.0,1.0,1.0,33.1,33.0,33.0,1.7,3.3,2.565,0.7965013751428127,-0.012847237756435141,0.5911733014252893,0.009291248514173187,-0.070489,-35.996713
11.185,2.0,1.0,1.0,33.1,33.0,33.0,1.7,3.3,2.5675,0.7921846730457355,-0.013109969365451923,0.5967947817496809,0.009323358216928626,-0.071282,-35.870419
11.185,2.0,1.0,1.0,33.1,33.0,33.0,1.7,3.3,2.57,0.7878044792657877,-0.013377810698263203,0.6024129823364894,0.00935388311132529,-0.072092,-35.743664
11.185,2.0,1.0,1.0,33.1,33.0,33.0,1.7,3.3,2.5725,0.7833600380145024,-0.013650873737034776,0.6080275228149611,0.009382745614648604,-0.072917,-35.61644
11.185,2.0,1.0,1.0,33.1,33.0,33.0,1.7,3.3,2.575,0.7788505800397153,-0.013929273333394818,0.6136380095138025,0.009409864857066682,-0.073759,-35.488736
11.185,2.0,1.0,1.0,33.1,33.0,33.0,1.7,3.3,2.5775,0.7742753223781971,-0.014213127288190354,0.619244034974576,0.00943515653363036,-0.074617,-35.360545
11.185,2.0,1.0,1.0,33.1,33.0,33.0,1.7,3.3,2.58,0.7696334681045941,-0.014502556433401512,0.6248451774463235,0.009458532749041133,-0.075494,-35.231858
11.185,2.0,1.0,1.0,33.1,33.0,33.0,1.7,3.3,2.5825,0.7649242060767012,-0.014797684716253555,0.630441000360626,0.009479901854800713,-0.076388,-35.102664
11.185,2.0,1.0,1.0,33.1,33.0,33.0,1.7,3.3,2.585,0.7601467106771174,-0.015098639285564274,0.6360310517862595,0.009499168278333893,-0.0773,-34.972956
11.185,2.0,1.0,1.0,33.1,33.0,33.0,1.7,3.3,2.5875,0.7553001415513266,-0.01540555058036295,0.6416148638625745,0.009516232343652469,-0.078231,-34.842723
11.185,2.0,1.0,1.0,33.1,33.0,33.0,1.7,3.3,2.59,0.7503836433422765,-0.01571855242081465,0.6471919522106753,0.0095309900831018,-0.079181,-34.711955
11.185,2.0,1.0,1.0,33.1,33.0,33.0,1.7,3.3,2.5925,0.7453963454215161,-0.016037782101480443,0.6527618153214474,0.009543333039705894,-0.080151,-34.580644
11.185,2.0,1.0,1.0,33.1,33.0,33.0,1.7,3.3,2.595,0.7403373616169997,-0.01636338048694076,0.6583239339194118,0.009553148059596714,-0.081142,-34.448779
11.185,2.0,1.0,1.0,33.1,33.0,33.0,1.7,3.3,2.5975,0.7352057899376366,-0.016695492109806906,0.6638777703013606,0.00956031707398365,-0.082154,-34.31635
11.185,2.0,1.0,1.0,33.1,33.0,33.0,1.7,3.3,2.6,0.7300007122947192,-0.017034265271138542,0.6694227676486624,0.009564716870085956,-0.083186,-34.183347
11.185,2.0,1.0,1.0,33.1,33.0,33.0,1.7,3.3,2.6025,0.724721194220363,-0.017379852143282595,0.6749583493120636,0.009566218850416476,-0.084242,-34.04976
11.185,2.0,1.0,1.0,33.1,33.0,33.0,1.7,3.3,2.605,0.719366284583104,-0.01773240887514156,0.6804839180677785,0.009564688779767887,-0.085319,-33.915578
11.185,2.0,1.0,1.0,33.1,33.0,33.0,1.7,3.3,2.6075,0.7139350153008338,-0.018092095699873474,0.6859988553435798,0.009559986519212702,-0.08642,-33.780791
11.185,2.0,1.0,1.0,33.1,33.0,33.0,1.7,3.3,2.61,0.7084264010512674,-0.018459077045017428,0.6915025204135342,0.009551965746387137,-0.087546,-33.645388
11.185,2.0,1.0,1.0,33.1,33.0,33.0,1.7,3.3,2.6125,0.7028394389801601,-0.018833521645030857,0.6969942495599861,0.009540473661283015,-0.088695,-33.509358
11.185,2.0,1.0,1.0,33.1,33.0,33.0,1.7,3.3,2.615,0.6971731084075181,-0.019215602656215136,0.7024733552012902,0.009525350676724545,-0.089871,-33.372689
11.185,2.0,1.0,1.0,33.1,33.0,33.0,1.7,3.3,2.6175,0.691426370532085,-0.0196054977739938,0.7079391249837332,0.009506430092655537,-0.091072,-33.235371
11.185,2.0,1.0,1.0,33.1,33.0,33.0,1.7,3.3,2.62,0.6855981681343968,-0.020003389352497635,0.7133908208360045,0.009483537753308107,-0.0923,-33.097392
11.185,2.0,1.0,1.0,33.1,33.0,33.0,1.7,3.3,2.6225,0.6796874252787526,-0.020409464526394944,0.7188276779844899,0.009456491686265452,-0.093556,-32.95874
11.185,2.0,1.0,1.0,33.1,33.0,33.0,1.7,3.3,2.625,0.673693047014479,-0.020823915334891,0.724248903927562,0.00942510172236904,-0.094841,-32.819403
11.185,2.0,1.0,1.0,33.1,33.0,33.0,1.7,3.3,2.6275,0.6676139190768905,-0.02124693884780313,0.7296536773669695,0.009389169095354404,-0.096155,-32.67937
11.185,2.0,1.0,1.0,33.1,33.0,33.0,1.7,3.3,2.63,0.6614489075884173,-0.021678737293598076,0.7350411470942987,0.009348486020028116,-0.097499,-32.538628
11.185,2.0,1.0,1.0,33.1,33.0,33.0,1.7,3.3,2.6325,0.6551968587603991,-0.022119518189256667,0.7404104308303949,0.009302835247722628,-0.098874,-32.397164
11.185,2.0,1.0,1.0,33.1,33.0,33.0,1.7,3.3,2.635,0.6488565985961045,-0.022569494471806374,0.7457606140155104,0.00925198959768455,-0.100282,-32.254966
11.185,2.0,1.0,1.0,33.1,33.0,33.0,1.7,3.3,2.6375,0.6424269325955962,-0.023028884631334415,0.7510907485478163,0.0091957114629652,-0.101723,-32.112021
11.185,2.0,1.0,1.0,33.1,33.0,33.0,1.7,3.3,2.64,0.6359066454630999,-0.02349791284526559,0.7563998514678142,0.009133752289287773,-0.103197,-31.968316
11.185,2.0,1.0,1.0,33.1,33.0,33.0,1.7,3.3,2.6425,0.6292945008176353,-0.023976809113652228,0.7616869035860169,0.009065852025268025,-0.104708,-31.823837
11.185,2.0,1.0,1.0,33.1,33.0,33.0,1.7,3.3,2.645,0.622589240907716,-0.02446580939518778,0.766950848051146,0.008991738542256648,-0.106254,-31.678571
11.185,2.0,1.0,1.0,33.1,33.0,33.0,1.7,3.3,2.6475,0.6157895863310129,-0.024965155743612598,0.7721905888559295,0.008911127021958119,-0.107838,-31.532503
11.185,2.0,1.0,1.0,33.1,33.0,33.0,1.7,3.3,2.65,0.6088942357599524,-0.025475096444133927,0.7774049892774383,0.008823719309858227,-0.109461,-31.38562
11.185,2.0,1.0,1.0,33.1,33.0,33.0,1.7,3.3,2.6525,0.6019018656743416,-0.025995886149427782,0.7825928702486913,0.00872920323236114,-0.111123,-31.237908
11.185,2.0,1.0,1.0,33.1,33.0,33.0,1.7,3.3,2.655,0.594811130102179,-0.026527786014734944,0.7877530086581277,0.008627251875395568,-0.112827,-31.089351
11.185,2.0,1.0,1.0,33.1,33.0,33.0,1.7,3.3,2.6575,0.5876206603699452,-0.02707106383149544,0.7928841355733001,0.008517522822099364,-0.114574,-30.939934
11.185,2.0,1.0,1.0,33.1,33.0,33.0,1.7,3.3,2.66,0.5803290648637883,-0.027625994158895675,0.7979849343849712,0.008399657347029004,-0.116365,-30.789643
11.185,2.0,1.0,1.0,33.1,33.0,33.0,1.7,3.3,2.6625,0.5729349288031487,-0.028192858452619082,0.8030540388675489,0.008273279564167324,-0.118201,-30.638461
11.185,2.0,1.0,1.0,33.1,33.0,33.0,1.7,3.3,2.665,0.5654368140285053,-0.028771945190005328,0.8080900311515871,0.008137995525815048,-0.120085,-30.486373
11.185,2.0,1.0,1.0,33.1,33.0,33.0,1.7,3.3,2.6675,0.5578332588051096,-0.029363549990718836,0.8130914396037955,0.00799339226925234,-0.122017,-30.333363
11.185,2.0,1.0,1.0,33.1,33.0,33.0,1.7,3.3,2.67,0.5501227776447253,-0.029967975731919356,0.8180567366097674,0.007839036807840295,-0.123999,-30.179414
11.185,2.0,1.0,1.0,33.1,33.0,33.0,1.7,3.3,2.6725,0.5423038611475874,-0.03058553265680298,0.8229843362543255,0.007674475063001,-0.126034,-30.024509
11.185,2.0,1.0,1.0,33.1,33.0,33.0,1.7,3.3,2.675,0.5343749758670221,-0.03121653847524304,0.827872591894093,0.007499230733266406,-0.128122,-29.868632
11.185,2.0,1.0,1.0,33.1,33.0,33.0,1.7,3.3,2.6775,0.5263345641993742,-0.03186131845510809,0.8327197936165673,0.007312804096318256,-0.130267,-29.711764
11.185,2.0,1.0,1.0,33.1,33.0,33.0,1.7,3.3,2.68,0.5181810443021582,-0.032520205502664025,0.8375241655796304,0.0071146707396536404,-0.132469,-29.553888
11.185,2.0,1.0,1.0,33.1,33.0,33.0,1.7,3.3,2.6825,0.5099128100436209,-0.03319354023027523,0.8422838632250539,0.0069042802152020355,-0.134732,-29.394985
11.185,2.0,1.0,1.0,33.1,33.0,33.0,1.7,3.3,2.685,0.5015282309872039,-0.03388167100941064,0.846996970359169,0.006681054612885423,-0.137056,-29.235037
11.185,2.0,1.0,1.0,33.1,33.0,33.0,1.7,3.3,2.6875,0.4930256524147298,-0.03458495400672259,0.8516614960934394,0.006444387047756017,-0.139445,-29.074024
11.185,2.0,1.0,1.0,33.1,33.0,33.0,1.7,3.3,2.69,0.48440339539251437,-0.035303753200703954,0.8562753716372223,0.0061936400549596924,-0.141901,-28.911928
11.185,2.0,1.0,1.0,33.1,33.0,33.0,1.7,3.3,2.6925,0.47565975688497913,-0.03603844037613771,0.8608364469345312,0.0059281438863578945,-0.144426,-28.748728
11.185,2.0,1.0,1.0,33.1,33.0,33.0,1.7,3.3,2.695,0.4667930099208352,-0.03678939509322336,0.8653424871360685,0.005647194702193733,-0.147023,-28.584404
11.185,2.0,1.0,1.0,33.1,33.0,33.0,1.7,3.3,2.6975,0.4578014038173295,-0.03755700462790333,0.8697911688972774,0.005350052650706484,-0.149695,-28.418934
11.185,2.0,1.0,1.0,33.1,33.0,33.0,1.7,3.3,2.7,0.44868316446865864,-0.03834166387950384,0.8741800764925264,0.005035939828078973,-0.152444,-28.252299
11.185,2.0,1.0,1.0,33.1,33.0,33.0,1.7,3.3,2.7025,0.4394364947051812,-0.03914377524135205,0.8785066977349378,0.00470403811054418,-0.155274,-28.084475
11.185,2.0,1.0,1.0,33.1,33.0,33.0,1.7,3.3,2.705,0.4300595747307743,-0.039963748429523445,0.8827684196906631,0.004353486849874838,-0.158188,-27.915441
11.185,2.0,1.0,1.0,33.1,33.0,33.0,1.7,3.3,2.7075,0.4205505626463584,-0.0408020002643087,0.8869625241756952,0.003983380422830028,-0.161189,-27.745174
11.185,2.0,1.0,1.0,33.1,33.0,33.0,1.7,3.3,2.71,0.41090759506845537,-0.041658954398354646,0.8910861830225016,0.0035927656244350457,-0.16428,-27.573651
11.185,2.0,1.0,1.0,33.1,33.0,33.0,1.7,3.3,2.7125,0.4011287878525003,-0.04253504098472838,0.8951364531029493,0.0031806388942153055,-0.167466,-27.400847
11.185,2.0,1.0,1.0,33.1,33.0,33.0,1.7,3.3,2.715,0.3912122369316319,-0.04343069627736076,0.8991102710930573,0.002745943363695218,-0.17075,-27.226738
11.185,2.0,1.0,1.0,33.1,33.0,33.0,1.7,3.3,2.7175,0.3811560192827663,-0.04434636215543978,0.9030044479641735,0.0022875657125966476,-0.174136,-27.051299
11.185,2.0,1.0,1.0,33.1,33.0,33.0,1.7,3.3,2.72,0.3709581940329749,-0.04528248556233186,0.9068156631841157,0.001804332820231288,-0.177629,-26.874505
11.185,2.0,1.0,1.0,33.1,33.0,33.0,1.7,3.3,2.7225,0.3606168037205084,-0.04623951784849957,0.9105404586107213,0.0012950081975650447,-0.181232,-26.696329
11.185,2.0,1.0,1.0,33.1,33.0,33.0,1.7,3.3,2.725,0.3501298757263411,-0.04721791400663317,0.9141752320590347,0.0007582881843430213,-0.184952,-26.516744
11.185,2.0,1.0,1.0,33.1,33.0,33.0,1.7,3.3,2.7275,0.33949542389371035,-0.04821813178582189,0.9177162305221126,0.00019279789448601762,-0.188793,-26.335723
11.185,2.0,1.0,1.0,33.1,33.0,33.0,1.7,3.3,2.73,0.32871145035503235,-0.0492406306700156,0.9211595430240317,-0.0004029131082914297,-0.192759,-26.153237
11.185,2.0,1.0,1.0,33.1,33.0,33.0,1.7,3.3,2.7325,0.3177759475875807,-0.0502858707042697,0.9245010930822305,-0.0010303754240516176,-0.196858,-25.969257
11.185,2.0,1.0,1.0,33.1,33.0,33.0,1.7,3.3,2.735,0.30668690072164895,-0.05135431115028211,0.9277366307547523,-0.0016912047402596207,-0.201094,-25.783754
11.185,2.0,1.0,1.0,33.1,33.0,33.0,1.7,3.3,2.7375,0.29544229012744716,-0.05244640895050841,0.9308617242462571,-0.0023871070878982484,-0.205474,-25.596697
11.185,2.0,1.0,1.0,33.1,33.0,33.0,1.7,3.3,2.74,0.284040094309869,-0.05356261697763053,0.933871751044903,-0.00311988445418094,-0.210004,-25.408055
11.185,2.0,1.0,1.0,33.1,33.0,33.0,1.7,3.3,2.7425,0.2724782931434414,-0.054703382043338356,0.9367618885602582,-0.003891440777769673,-0.214692,-25.217794
11.185,2.0,1.0,1.0,33.1,33.0,33.0,1.7,3.3,2.745,0.26075487148337506,-0.05586914263720045,0.9395271042303842,-0.004703788354320765,-0.219545,-25.025884
11.185,2.0,1.0,1.0,33.1,33.0,33.0,1.7,3.3,2.7475,0.248867823192631,-0.05706032636281903,0.9421621450640449,-0.005559054682231898,-0.224571,-24.832288
11.185,2.0,1.0,1.0,33.1,33.0,33.0,1.7,3.3,2.75,0.236815155629419,-0.0582773470344202,0.944661526581693,-0.00645948978064131,-0.229779,-24.636974
11.185,2.0,1.0,1.0,33.1,33.0,33.0,1.7,3.3,2.7525,0.22459489464461313,-0.05952060139246543,0.9470195211164406,-0.00740747401404523,-0.235176,-24.439904
11.185,2.0,1.0,1.0,33.1,33.0,33.0,1.7,3.3,2.755,0.21220509014423802,-0.06079046539171182,0.94923014543364,-0.008405526460347982,-0.240772,-24.241043
11.185,2.0,1.0,1.0,33.1,33.0,33.0,1.7,3.3,2.7575,0.19964382227855035,-0.06208729000932248,0.9512871476249708,-0.009456313861746921,-0.246579,-24.040352
11.185,2.0,1.0,1.0,33.1,33.0,33.0,1.7,3.3,2.76,0.18690920832647184,-0.06341139651402505,0.9531839932300862,-0.010562660200561772,-0.252605,-23.837793
11.185,2.0,1.0,1.0,33.1,33.0,33.0,1.7,3.3,2.7625,0.17399941035218386,-0.0647630711298548,0.954913850535884,-0.011727556944957663,-0.258863,-23.633325
11.185,2.0,1.0,1.0,33.1,33.0,33.0,1.7,3.3,2.765,0.1609126437198797,-0.06614255901955353,0.9564695750003852,-0.012954174012446425,-0.265364,-23.426908
11.185,2.0,1.0,1.0,33.1,33.0,33.0,1.7,3.3,2.7675,0.14764718656296677,-0.06755005750310418,0.9578436927450235,-0.014245871502078868,-0.272122,-23.218501
11.185,2.0,1.0,1.0,33.1,33.0,33.0,1.7,3.3,2.77,0.1342013903156593,-0.0689857084160023,0.9590283830559034,-0.015606212249323258,-0.27915,-23.008058
11.185,2.0,1.0,1.0,33.1,33.0,33.0,1.7,3.3,2.7725,0.12057369142812759,-0.07044958949950597,0.9600154598313464,-0.01703897526071874,-0.286463,-22.795536
11.185,2.0,1.0,1.0,33.1,33.0,33.0,1.7,3.3,2.775,0.10676262440126782,-0.07194170470107818,0.9607963519097865,-0.018548170088452155,-0.294077,-22.58089
11.185,2.0,1.0,1.0,33.1,33.0,33.0,1.7,3.3,2.7775,0.09276683629409066,-0.0734619732472796,0.9613620822089894,-0.02013805220795215,-0.302009,-22.364071
11.185,2.0,1.0,1.0,33.1,33.0,33.0,1.7,3.3,2.78,0.07858510287588256,-0.07501021733323186,0.961703245604629,-0.021813139464334098,-0.310276,-22.145032
11.185,2.0,1.0,1.0,33.1,33.0,33.0,1.7,3.3,2.7825,0.06421634661710743,-0.07658614825211638,0.9618099854736616,-0.02357822965593667,-0.318898,-21.923722
11.185,2.0,1.0,1.0,33.1,33.0,33.0,1.7,3.3,2.785,0.04965965673764947,-0.07818935076467705,0.9616719688258146,-0.02543841932512567,-0.327895,-21.700091
11.185,2.0,1.0,1.0,33.1,33.0,33.0,1.7,3.3,2.7875,0.0349143115591723,-0.07981926548190062,0.961278359945056,-0.027399123827770013,-0.337291,-21.474086
11.185,2.0,1.0,1.0,33.1,33.0,33.0,1.7,3.3,2.79,0.01997980344021543,-0.08147516900353924,0.9606177924623943,-0.029466098753105213,-0.347109,-21.245652
11.185,2.0,1.0,1.0,33.1,33.0,33.0,1.7,3.3,2.7925,0.004855866609048693,-0.08315615152033297,0.9596783397820895,-0.03164546276472902,-0.357375,-21.014733
11.185,2.0,1.0,1.0,33.1,33.0,33.0,1.7,3.3,2.795,-0.010457491749431091,-0.08486109154811809,0.9584474837857346,-0.03394372193085206,-0.368117,-20.781273
11.185,2.0,1.0,1.0,33.1,33.0,33.0,1.7,3.3,2.7975,-0.025959956749306644,-0.08658862741673198,0.9569120817432225,-0.03636779560710361,-0.379364,-20.545212
11.185,2.0,1.0,1.0,33.1,33.0,33.0,1.7,3.3,2.8,-0.0416508669447928,-0.08833712508500609,0.9550583313669647,-0.038925043927574274,-0.39115,-20.30649
11.185,2.0,1.0,1.0,33.1,33.0,33.0,1.7,3.3,2.8025,-0.05752917083885646,-0.09010464179423745,0.9528717339566704,-0.04162329694851417,-0.40351,-20.065045
11.185,2.0,1.0,1.0,33.1,33.0,33.0,1.7,3.3,2.805,-0.07359337817168923,-0.09188888500536216,0.9503370555975877,-0.044470885473216766,-0.416481,-19.820812
11.185,2.0,1.0,1.0,33.1,33.0,33.0,1.7,3.3,2.8075,-0.08984150532226107,-0.09368716598849187,0.9474382863964955,-0.04747667356485992,-0.430105,-19.573725
11.185,2.0,1.0,1.0,33.1,33.0,33.0,1.7,3.3,2.81,-0.10627101406605964,-0.09549634734623777,0.9441585977686078,-0.05065009272485745,-0.444426,-19.323719
11.185,2.0,1.0,1.0,33.1,33.0,33.0,1.7,3.3,2.8125,-0.1228787428295821,-0.09731278365293893,0.9404802978267554,-0.05400117767566202,-0.459494,-19.070723
11.185,2.0,1.0,1.0,33.1,33.0,33.0,1.7,3.3,2.815,-0.13966082946573183,-0.09913225427901481,0.9363847849742181,-0.05754060363654692,-0.475361,-18.814666
11.185,2.0,1.0,1.0,33.1,33.0,33.0,1.7,3.3,2.8175,-0.15661262444209992,-0.10094988734147525,0.9318524998673987,-0.06127972491563325,-0.492086,-18.555477
11.185,2.0,1.0,1.0,33.1,33.0,33.0,1.7,3.3,2.82,-0.17372859318443998,-0.10276007357640657,0.9268628759978933,-0.06523061455761495,-0.50973,-18.293081
11.185,2.0,1.0,1.0,33.1,33.0,33.0,1.7,3.3,2.8225,-0.191002206148549,-0.10455636876513551,0.921394289250083,-0.06940610467961045,-0.528363,-18.027404
11.185,2.0,1.0,1.0,33.1,33.0,33.0,1.7,3.3,2.825,-0.2084258150032528,-0.10633138316092167,0.9154240069258889,-0.07381982699160257,-0.54806,-17.758366
11.185,2.0,1.0,1.0,33.1,33.0,33.0,1.7,3.3,2.8275,-0.2259905130934873,-0.10807665615566497,0.9089281368999372,-0.07848625282591584,-0.568905,-17.485892
11.185,2.0,1.0,1.0,33.1,33.0,33.0,1.7,3.3,2.83,-0.24368597811375514,-0.10978251419472139,0.9018815777848628,-0.08342073178334092,-0.590986,-17.2099
