1,w,sub_t,h,l1,l2,l3,g1,g2,Freq,S11_re,S21_re,S11_img,S21_img,S11_dB,S21_dB
11.185,2.0,1.0,1.0,34.5,33.5,33.5,2.5,1.5,2.5,0.696489906595227,-0.0208720305144337,0.705191181137431,0.0122839804620511,-0.077148,-32.31704
11.185,2.0,1.0,1.0,34.5,33.5,33.5,2.5,1.5,2.5025,0.6906452400314749,-0.021269098413031574,0.7107716450347913,0.012270565525388685,-0.078057,-32.197249
11.185,2.0,1.0,1.0,34.5,33.5,33.5,2.5,1.5,2.505,0.6847224669546949,-0.021673224392324487,0.7163326877802927,0.012253224968373805,-0.078985,-32.076993
11.185,2.0,1.0,1.0,34.5,33.5,33.5,2.5,1.5,2.5075,0.6787207940139451,-0.02208454113294954,0.7218735120937072,0.012231802136105233,-0.079932,-31.956261
11.185,2.0,1.0,1.0,34.5,33.5,33.5,2.5,1.5,2.51,0.6726394190356428,-0.022503183893355334,0.7273932974754544,0.012206134446305968,-0.080899,-31.835048
11.185,2.0,1.0,1.0,34.5,33.5,33.5,2.5,1.5,2.5125,0.6664775310567225,-0.022929290548214156,0.732891199503374,0.012176053149528012,-0.081885,-31.713345
11.185,2.0,1.0,1.0,34.5,33.5,33.5,2.5,1.5,2.515,0.6602343103669429,-0.02336300162624773,0.7383663491076686,0.012141383078773991,-0.082893,-31.591145
11.185,2.0,1.0,1.0,34.5,33.5,33.5,2.5,1.5,2.5175,0.653908928560937,-0.023804460347340798,0.743817851823276,0.012101942388019418,-0.083921,-31.468439
11.185,2.0,1.0,1.0,34.5,33.5,33.5,2.5,1.5,2.52,0.647500548600589,-0.024253812658811564,0.7492447870189435,0.012057542279090944,-0.084972,-31.345219
11.185,2.0,1.0,1.0,34.5,33.5,33.5,2.5,1.5,2.5225,0.6410083248884072,-0.02471120727069076,0.7546462071022054,0.012007986716328635,-0.086044,-31.221477
11.185,2.0,1.0,1.0,34.5,33.5,33.5,2.5,1.5,2.525,0.6344314033525384,-0.025176795689851678,0.7600211366994764,0.011953072128424473,-0.08714,-31.097204
11.185,2.0,1.0,1.0,34.5,33.5,33.5,2.5,1.5,2.5275,0.6277689215441492,-0.02565073225281601,0.765368571810423,0.011892587096799724,-0.088258,-30.972393
11.185,2.0,1.0,1.0,34.5,33.5,33.5,2.5,1.5,2.53,0.6210200087479226,-0.026133174157048994,0.7706874789357344,0.01182631202984578,-0.089401,-30.847034
11.185,2.0,1.0,1.0,34.5,33.5,33.5,2.5,1.5,2.5325,0.614183786106456,-0.026624281490536257,0.7759767941774028,0.011754018822316442,-0.090569,-30.721118
11.185,2.0,1.0,1.0,34.5,33.5,33.5,2.5,1.5,2.535,0.6072593667593874,-0.02712421725942109,0.7812354223105746,0.01167547049911773,-0.091762,-30.594637
11.185,2.0,1.0,1.0,34.5,33.5,33.5,2.5,1.5,2.5375,0.6002458559981444,-0.027633147413455916,0.7864622358259905,0.011590420842700424,-0.092981,-30.467582
11.185,2.0,1.0,1.0,34.5,33.5,33.5,2.5,1.5,2.54,0.5931423514372205,-0.02815124086900792,0.7916560739420143,0.011498614003213545,-0.094227,-30.339942
11.185,2.0,1.0,1.0,34.5,33.5,33.5,2.5,1.5,2.5425,0.5859479432029661,-0.028678669529326874,0.796815741585189,0.011399784090527759,-0.0955,-30.21171
11.185,2.0,1.0,1.0,34.5,33.5,33.5,2.5,1.5,2.545,0.5786617141409185,-0.029215608301766553,0.8019400083382241,0.011293654747188497,-0.096802,-30.082874
11.185,2.0,1.0,1.0,34.5,33.5,33.5,2.5,1.5,2.5475,0.5712827400427637,-0.02976223511161716,0.8070276073542687,0.011179938701300154,-0.098133,-29.953426
11.185,2.0,1.0,1.0,34.5,33.5,33.5,2.5,1.5,2.55,0.5638100898940565,-0.03031873091218167,0.8120772342362933,0.011058337298285741,-0.099493,-29.823356
11.185,2.0,1.0,1.0,34.5,33.5,33.5,2.5,1.5,2.5525,0.5562428261439364,-0.030885279690693043,0.8170875458803103,0.01092854001040347,-0.100885,-29.692653
11.185,2.0,1.0,1.0,34.5,33.5,33.5,2.5,1.5,2.555,0.5485800049980868,-0.03146206846963779,0.8220571592811668,0.010790223922834586,-0.102308,-29.561307
11.185,2.0,1.0,1.0,34.5,33.5,33.5,2.5,1.5,2.5575,0.5408206767362949,-0.03204928730300993,0.8269846502995378,0.010643053195083246,-0.103764,-29.429308
11.185,2.0,1.0,1.0,34.5,33.5,33.5,2.5,1.5,2.56,0.5329638860560407,-0.03264712926698109,0.8318685523887099,0.010486678496356296,-0.105254,-29.296645
11.185,2.0,1.0,1.0,34.5,33.5,33.5,2.5,1.5,2.5625,0.5250086724436068,-0.03325579044442571,0.8367073552796752,0.010320736413506254,-0.106778,-29.163307
11.185,2.0,1.0,1.0,34.5,33.5,33.5,2.5,1.5,2.565,0.5169540705742993,-0.033875469902691704,0.8414995036229929,0.010144848830033188,-0.108338,-29.029283
11.185,2.0,1.0,1.0,34.5,33.5,33.5,2.5,1.5,2.5675,0.508799110743465,-0.03450636966395305,0.8462433955857871,0.00995862227454942,-0.109934,-28.894562
11.185,2.0,1.0,1.0,34.5,33.5,33.5,2.5,1.5,2.57,0.500542819330069,-0.03514869466742394,0.8509373814021888,0.009761647237008945,-0.111569,-28.759132
11.185,2.0,1.0,1.0,34.5,33.5,33.5,2.5,1.5,2.5725,0.49218421929471434,-0.035802652722649236,0.855579761875441,0.009553497450896328,-0.113242,-28.622981
11.185,2.0,1.0,1.0,34.5,33.5,33.5,2.5,1.5,2.575,0.48372233071408804,-0.036468454453016344,0.8601687868297916,0.009333729139455302,-0.114956,-28.486097
11.185,2.0,1.0,1.0,34.5,33.5,33.5,2.5,1.5,2.5775,0.47515617135394494,-0.037146313228558,0.8647026535102034,0.009101880223911661,-0.116712,-28.348469
11.185,2.0,1.0,1.0,34.5,33.5,33.5,2.5,1.5,2.58,0.46648475728284916,-0.03783644508703473,0.8691795049278215,0.008857469491516256,-0.11851,-28.210083
11.185,2.0,1.0,1.0,34.5,33.5,33.5,2.5,1.5,2.5825,0.45770710352903743,-0.03853906864218928,0.873597428149015,0.008599995721086062,-0.120353,-28.070927
11.185,2.0,1.0,1.0,34.5,33.5,33.5,2.5,1.5,2.585,0.44882222478291744,-0.03925440497797425,0.877954452525691,0.008328936763572867,-0.122241,-27.930987
11.185,2.0,1.0,1.0,34.5,33.5,33.5,2.5,1.5,2.5875,0.4398291361478446,-0.039982677527436554,0.8822485478644787,0.008043748575021666,-0.124177,-27.790251
11.185,2.0,1.0,1.0,34.5,33.5,33.5,2.5,1.5,2.59,0.43072685394202004,-0.04072411193483012,0.8864776225321971,0.007743864199105319,-0.126161,-27.648705
11.185,2.0,1.0,1.0,34.5,33.5,33.5,2.5,1.5,2.5925,0.42151439655449197,-0.041478935899393055,0.8906395214949288,0.007428692696230011,-0.128196,-27.506334
11.185,2.0,1.0,1.0,34.5,33.5,33.5,2.5,1.5,2.595,0.4121907853584763,-0.0422473789990836,0.8947320242878186,0.007097618016002741,-0.130283,-27.363125
11.185,2.0,1.0,1.0,34.5,33.5,33.5,2.5,1.5,2.5975,0.4027550456853618,-0.04302967249241073,0.898752842912578,0.006749997809628036,-0.132425,-27.219063
11.185,2.0,1.0,1.0,34.5,33.5,33.5,2.5,1.5,2.6,0.3932062078630438,-0.04382604909632241,0.9026996196594679,0.006385162178564923,-0.134622,-27.074133
11.185,2.0,1.0,1.0,34.5,33.5,33.5,2.5,1.5,2.6025,0.38354330832244016,-0.04463674273792249,0.9065699248503488,0.006002412355517537,-0.136877,-26.928319
11.185,2.0,1.0,1.0,34.5,33.5,33.5,2.5,1.5,2.605,0.3737653907762921,-0.045461988277576026,0.9103612544991669,0.0056010193135526635,-0.139191,-26.781606
11.185,2.0,1.0,1.0,34.5,33.5,33.5,2.5,1.5,2.6075,0.36387150747466546,-0.04630202120073547,0.914071027886004,0.005180222298841008,-0.141568,-26.633978
11.185,2.0,1.0,1.0,34.5,33.5,33.5,2.5,1.5,2.61,0.3538607205418499,-0.047157077275555695,0.9176965850405729,0.004739227282190868,-0.144009,-26.485419
11.185,2.0,1.0,1.0,34.5,33.5,33.5,2.5,1.5,2.6125,0.3437321033996895,-0.0480273921730926,0.9212351841307639,0.004277205324194744,-0.146517,-26.335911
11.185,2.0,1.0,1.0,34.5,33.5,33.5,2.5,1.5,2.615,0.3334847422827362,-0.04891320104656157,0.9246839987515395,0.0037932908484284837,-0.149093,-26.185437
11.185,2.0,1.0,1.0,34.5,33.5,33.5,2.5,1.5,2.6175,0.32311773785102693,-0.04981473806578684,0.9280401151091557,0.0032865798167320682,-0.151742,-26.03398
11.185,2.0,1.0,1.0,34.5,33.5,33.5,2.5,1.5,2.62,0.3126302069066998,-0.05073223590259388,0.93130052909533,0.0027561278001562383,-0.154464,-25.881521
11.185,2.0,1.0,1.0,34.5,33.5,33.5,2.5,1.5,2.6225,0.3020212842211337,-0.0516659251624681,0.9344621432455807,0.0022009479386741956,-0.157264,-25.728042
11.185,2.0,1.0,1.0,34.5,33.5,33.5,2.5,1.5,2.625,0.291290124479839,-0.0526160337573361,0.937521763575555,0.00162000878223893,-0.160144,-25.573523
11.185,2.0,1.0,1.0,34.5,33.5,33.5,2.5,1.5,2.6275,0.28043590435284865,-0.05358278621379914,0.9404760962886853,0.001012232005193862,-0.163108,-25.417945
11.185,2.0,1.0,1.0,34.5,33.5,33.5,2.5,1.5,2.63,0.26945782469903645,-0.05456640291057247,0.9433217443480104,0.0003764899854305359,-0.166158,-25.261287
11.185,2.0,1.0,1.0,34.5,33.5,33.5,2.5,1.5,2.6325,0.2583551129134221,-0.05556709923823274,0.9460552039044614,-0.0002883967609827575,-0.169298,-25.103528
11.185,2.0,1.0,1.0,34.5,33.5,33.5,2.5,1.5,2.635,0.24712702542733664,-0.056585084673655854,0.9486728605732843,-0.0009836622997062966,-0.172531,-24.944648
11.185,2.0,1.0,1.0,34.5,33.5,33.5,2.5,1.5,2.6375,0.2357728503721237,-0.057620561760727426,0.9511709855496321,-0.001710598163362079,-0.175863,-24.784624
11.185,2.0,1.0,1.0,34.5,33.5,33.5,2.5,1.5,2.64,0.22429191041798371,-0.05867372498800658,0.9535457315536195,-0.002470556413754805,-0.179295,-24.623434
11.185,2.0,1.0,1.0,34.5,33.5,33.5,2.5,1.5,2.6425,0.21268356580063072,-0.059744759553024746,0.9557931285943537,-0.0032649528936685686,-0.182834,-24.461053
11.185,2.0,1.0,1.0,34.5,33.5,33.5,2.5,1.5,2.645,0.20094721754954115,-0.06083384000177378,0.957909079541584,-0.004095270681856777,-0.186483,-24.297458
11.185,2.0,1.0,1.0,34.5,33.5,33.5,2.5,1.5,2.6475,0.18908231093290315,-0.061941128730687633,0.959889355492634,-0.00496306376594448,-0.190247,-24.132625
11.185,2.0,1.0,1.0,34.5,33.5,33.5,2.5,1.5,2.65,0.17708833913570649,-0.06306677433701048,0.9617295909213066,-0.005869960949178435,-0.194131,-23.966527
11.185,2.0,1.0,1.0,34.5,33.5,33.5,2.5,1.5,2.6525,0.16496484718916551,-0.06421090980185185,0.9634252785942043,-0.0068176700082720875,-0.19814,-23.799138
11.185,2.0,1.0,1.0,34.5,33.5,33.5,2.5,1.5,2.655,0.1527114361712641,-0.06537365048846967,0.9649717642387554,-0.007807982121036306,-0.20228,-23.630431
11.185,2.0,1.0,1.0,34.5,33.5,33.5,2.5,1.5,2.6575,0.14032776770037064,-0.06655509193629984,0.9663642409457874,-0.008842776584044443,-0.206557,-23.460378
11.185,2.0,1.0,1.0,34.5,33.5,33.5,2.5,1.5,2.66,0.1278135687460243,-0.06775530742900968,0.9675977432880107,-0.009924025842293453,-0.210978,-23.288949
11.185,2.0,1.0,1.0,34.5,33.5,33.5,2.5,1.5,2.6625,0.11516863678357903,-0.06897434531229776,0.9686671411341111,-0.011053800854679463,-0.215548,-23.116116
11.185,2.0,1.0,1.0,34.5,33.5,33.5,2.5,1.5,2.665,0.10239284532219131,-0.07021222603429397,0.9695671331363301,-0.012234276821136182,-0.220274,-22.941847
11.185,2.0,1.0,1.0,34.5,33.5,33.5,2.5,1.5,2.6675,0.08948614983890957,-0.07146893887816001,0.9702922398674387,-0.01346773929949299,-0.225166,-22.766109
11.185,2.0,1.0,1.0,34.5,33.5,33.5,2.5,1.5,2.67,0.07644859415522638,-0.07274443835280293,0.9708367965807924,-0.014756590742519895,-0.230229,-22.58887
11.185,2.0,1.0,1.0,34.5,33.5,33.5,2.5,1.5,2.6725,0.06328031729658513,-0.07403864020345159,0.9711949455647999,-0.016103357488246463,-0.235473,-22.410096
11.185,2.0,1.0,1.0,34.5,33.5,33.5,2.5,1.5,2.675,0.04998156088000794,-0.0753514169990907,0.9713606280605253,-0.01751069723949691,-0.240907,-22.22975
11.185,2.0,1.0,1.0,34.5,33.5,33.5,2.5,1.5,2.6775,0.03655267708033491,-0.07668259324836797,0.971327575708246,-0.018981407071685916,-0.24654,-22.047796
11.185,2.0,1.0,1.0,34.5,33.5,33.5,2.5,1.5,2.68,0.022994137231588756,-0.07803193998945153,0.9710893014857224,-0.020518432011294184,-0.252382,-21.864197
11.185,2.0,1.0,1.0,34.5,33.5,33.5,2.5,1.5,2.6825,0.009306541126883108,-0.07939916879231916,0.9706390900974938,-0.02212487423109498,-0.258445,-21.678912
11.185,2.0,1.0,1.0,34.5,33.5,33.5,2.5,1.5,2.685,-0.004509372911870024,-0.08078392510398558,0.9699699877708603,-0.023804002912171447,-0.26474,-21.491901
11.185,2.0,1.0,1.0,34.5,33.5,33.5,2.5,1.5,2.6875,-0.0184527171141545,-0.0821857808580376,0.969074791410117,-0.0255592648270439,-0.27128,-21.30312
11.185,2.0,1.0,1.0,34.5,33.5,33.5,2.5,1.5,2.69,-0.03252244240043799,-0.0836042262594199,0.9679460370563738,-0.027394295702844837,-0.278077,-21.112526
11.185,2.0,1.0,1.0,34.5,33.5,33.5,2.5,1.5,2.6925,-0.04671732547877641,-0.08503866064342873,0.9665759875954688,-0.02931293242845105,-0.285146,-20.920074
11.185,2.0,1.0,1.0,34.5,33.5,33.5,2.5,1.5,2.695,-0.061035954782521176,-0.08648838229414071,0.9649566196515479,-0.0313192261747925,-0.292503,-20.725714
11.185,2.0,1.0,1.0,34.5,33.5,33.5,2.5,1.5,2.6975,-0.07547671511768864,-0.08795257709171796,0.963079609598411,-0.03341745650324038,-0.300164,-20.529398
11.185,2.0,1.0,1.0,34.5,33.5,33.5,2.5,1.5,2.7,-0.09003777087050731,-0.08943030583983608,0.9609363186150217,-0.035612146542977494,-0.308146,-20.331075
11.185,2.0,1.0,1.0,34.5,33.5,33.5,2.5,1.5,2.7025,-0.10471704760503397,-0.0909204901035553,0.9585177767054949,-0.03790807932459005,-0.316469,-20.13069
11.185,2.0,1.0,1.0,34.5,33.5,33.5,2.5,1.5,2.705,-0.11951221185676819,-0.09242189636375218,0.9558146655975556,-0.040310315363705815,-0.325153,-19.928188
11.185,2.0,1.0,1.0,34.5,33.5,33.5,2.5,1.5,2.7075,-0.13442064890054645,-0.09393311826628312,0.9528173004269204,-0.042824211595305264,-0.33422,-19.72351
11.185,2.0,1.0,1.0,34.5,33.5,33.5,2.5,1.5,2.71,-0.14943943823891453,-0.09545255671169221,0.9495156101083958,-0.04545544176620156,-0.343694,-19.516597
11.185,2.0,1.0,1.0,34.5,33.5,33.5,2.5,1.5,2.7125,-0.16456532652004738,-0.09697839749375704,0.9458991162879238,-0.04821001840001699,-0.353601,-19.307384
11.185,2.0,1.0,1.0,34.5,33.5,33.5,2.5,1.5,2.715,-0.17979469755098293,-0.09850858615162773,0.9419569107634473,-0.05109431645550795,-0.363968,-19.095807
11.185,2.0,1.0,1.0,34.5,33.5,33.5,2.5,1.5,2.7175,-0.19512353902178414,-0.1000407996496834,0.937677631256723,-0.054115098805063405,-0.374827,-18.881797
11.185,2.0,1.0,1.0,34.5,33.5,33.5,2.5,1.5,2.72,-0.2105474054975596,-0.10157241444031165,0.9330494354133714,-0.05727954366517259,-0.386209,-18.665281
11.185,2.0,1.0,1.0,34.5,33.5,33.5,2.5,1.5,2.7225,-0.22606137716711563,-0.10310047039613215,0.9280599729051509,-0.06059527411412916,-0.398152,-18.446186
11.185,2.0,1.0,1.0,34.5,33.5,33.5,2.5,1.5,2.725,-0.24166001375704693,-0.10462163001801715,0.9226963555073233,-0.06407038983343136,-0.410693,-18.224433
11.185,2.0,1.0,1.0,34.5,33.5,33.5,2.5,1.5,2.7275,-0.2573373029269877,-0.10613213223159054,0.9169451250260737,-0.06771350120735058,-0.423875,-17.999941
11.185,2.0,1.0,1.0,34.5,33.5,33.5,2.5,1.5,2.73,-0.2730866023523119,-0.10762773997530266,0.9107922189574583,-0.07153376590862118,-0.437745,-17.772625
11.185,2.0,1.0,1.0,34.5,33.5,33.5,2.5,1.5,2.7325,-0.2889005745727413,-0.10910368065480813,0.9042229337720172,-0.07554092808554616,-0.452354,-17.542395
11.185,2.0,1.0,1.0,34.5,33.5,33.5,2.5,1.5,2.735,-0.3047711135350307,-0.11055457838789912,0.8972218857402126,-0.07974536024472734,-0.467756,-17.30916
11.185,2.0,1.0,1.0,34.5,33.5,33.5,2.5,1.5,2.7375,-0.3206892615816748,-0.1119743767876781,0.8897729692460833,-0.08415810789126159,-0.484014,-17.072822
11.185,2.0,1.0,1.0,34.5,33.5,33.5,2.5,1.5,2.74,-0.3366451154303622,-0.11335625082428963,0.8818593125838351,-0.0887909369407348,-0.501195,-16.83328
11.185,2.0,1.0,1.0,34.5,33.5,33.5,2.5,1.5,2.7425,-0.3526277194455302,-0.11469250606196371,0.8734632312995112,-0.09365638384973446,-0.519372,-16.590428
11.185,2.0,1.0,1.0,34.5,33.5,33.5,2.5,1.5,2.745,-0.36862494421692743,-0.11597446328181782,0.8645661792338069,-0.098767808317294,-0.538627,-16.344155
11.185,2.0,1.0,1.0,34.5,33.5,33.5,2.5,1.5,2.7475,-0.3846233481236801,-0.11719232616444743,0.855148697551365,-0.10413944828016425,-0.559052,-16.094346
11.185,2.0,1.0,1.0,34.5,33.5,33.5,2.5,1.5,2.75,-0.400608019166541,-0.118335029311104,0.845190362217379,-0.109786476748824,-0.580746,-15.840881
11.185,2.0,1.0,1.0,34.5,33.5,33.5,2.5,1.5,2.7525,-0.4165623938866316,-0.11939006341830231,0.8346697306190427,-0.11572505979406013,-0.60382,-15.583633
11.185,2.0,1.0,1.0,34.5,33.5,33.5,2.5,1.5,2.755,-0.43246804964404306,-0.12034327387689261,0.8235642883463069,-0.1219724146765593,-0.628399,-15.322473
11.185,2.0,1.0,1.0,34.5,33.5,33.5,2.5,1.5,2.7575,-0.44830446589223644,-0.12117862843047568,0.8118503975687104,-0.1285468666891973,-0.654622,-15.057263
11.185,2.0,1.0,1.0,34.5,33.5,33.5,2.5,1.5,2.76,-0.46404874934038093,-0.12187794878618954,0.7995032490057985,-0.1354679027206848,-0.682642,-14.787862
11.185,2.0,1.0,1.0,34.5,33.5,33.5,2.5,1.5,2.7625,-0.47967531703183414,-0.12242060020941259,0.7864968202305388,-0.14275621880710226,-0.712634,-14.514123
11.185,2.0,1.0,1.0,34.5,33.5,33.5,2.5,1.5,2.765,-0.4951555303690444,-0.12278313213942518,0.7728038440247196,-0.15043375795838915,-0.744792,-14.235894
11.185,2.0,1.0,1.0,34.5,33.5,33.5,2.5,1.5,2.7675,-0.5104572719720957,-0.122938861724238,0.7583957917958848,-0.15852373325685304,-0.779336,-13.953017
11.185,2.0,1.0,1.0,34.5,33.5,33.5,2.5,1.5,2.77,-0.5255444559631254,-0.12285739088322736,0.7432428787626888,-0.1670506295286033,-0.816514,-13.66533
11.185,2.0,1.0,1.0,34.5,33.5,33.5,2.5,1.5,2.7725,-0.5403764608244066,-0.12250404606877319,0.727314099844571,-0.1760401746620858,-0.856608,-13.372669
11.185,2.0,1.0,1.0,34.5,33.5,33.5,2.5,1.5,2.775,-0.5549074724030731,-0.12183922833179808,0.7105773081139422,-0.18551926872925978,-0.899936,-13.074862
11.185,2.0,1.0,1.0,34.5,33.5,33.5,2.5,1.5,2.7775,-0.5690857229756048,-0.12081765964686014,0.6929993514940341,-0.19551585524587947,-0.946863,-12.77174
11.185,2.0,1.0,1.0,34.5,33.5,33.5,2.5,1.5,2.78,-0.582852610629169,-0.11938750980928811,0.6745462883815594,-0.20605871392014571,-0.997805,-12.46313
11.185,2.0,1.0,1.0,34.5,33.5,33.5,2.5,1.5,2.7825,-0.5961416817209867,-0.11748938673648784,0.6551837093827099,-0.21717714774277158,-1.053237,-12.148862
11.185,2.0,1.0,1.0,34.5,33.5,33.5,2.5,1.5,2.785,-0.6088774581024263,-0.11505517194915435,0.6348772008039206,-0.2289005288375905,-1.113708,-11.828768
11.185,2.0,1.0,1.0,34.5,33.5,33.5,2.5,1.5,2.7875,-0.6209740905607506,-0.11200668279533568,0.6135929964683879,-0.2412576565895942,-1.179851,-11.502689
11.185,2.0,1.0,1.0,34.5,33.5,33.5,2.5,1.5,2.79,-0.6323338211965452,-0.10825414426845059,0.5912988784781295,-0.2542758675570667,-1.252397,-11.170478
11.185,2.0,1.0,1.0,34.5,33.5,33.5,2.5,1.5,2.7925,-0.6428452412286679,-0.1036944570681998,0.5679654054572714,-0.2679798188126461,-1.332197,-10.832002
11.185,2.0,1.0,1.0,34.5,33.5,33.5,2.5,1.5,2.795,-0.6523813385248598,-0.09820925638202067,0.5435675694114528,-0.28238984383375243,-1.420243,-10.487155
11.185,2.0,1.0,1.0,34.5,33.5,33.5,2.5,1.5,2.7975,-0.6607973432555002,-0.09166276998039265,0.5180870104156756,-0.29751975208799947,-1.517694,-10.135863
11.185,2.0,1.0,1.0,34.5,33.5,33.5,2.5,1.5,2.8,-0.6679284037566166,-0.08389950790980082,0.49151495247807436,-0.3133739094626109,-1.625913,-9.778095
11.185,2.0,1.0,1.0,34.5,33.5,33.5,2.5,1.5,2.8025,-0.6735871626762844,-0.07474185402977788,0.4638560641206776,-0.32994339667795225,-1.746504,-9.41388
11.185,2.0,1.0,1.0,34.5,33.5,33.5,2.5,1.5,2.805,-0.677561362333655,-0.06398768842129055,0.43513349223591163,-0.3472009980483282,-1.881365,-9.043323
11.185,2.0,1.0,1.0,34.5,33.5,33.5,2.5,1.5,2.8075,-0.6796116968014747,-0.051408258119676135,0.40539536404051435,-0.365094726995648,-2.032748,-8.666624
11.185,2.0,1.0,1.0,34.5,33.5,33.5,2.5,1.5,2.81,-0.6794702579304289,-0.03674664304630953,0.3747230917277428,-0.38353955531420825,-2.203334,-8.284113
11.185,2.0,1.0,1.0,34.5,33.5,33.5,2.5,1.5,2.8125,-0.676840106977921,-0.0197173479695034,0.343241833048535,-0.4024069949797,-2.396322,-7.896275
11.185,2.0,1.0,1.0,34.5,33.5,33.5,2.5,1.5,2.815,-0.6713967568553166,-7.803890620614033e-06,0.31113343289393386,-0.42151220988641624,-2.615543,-7.503797
11.185,2.0,1.0,1.0,34.5,33.5,33.5,2.5,1.5,2.8175,-0.6627926826976631,0.022717106263580887,0.2786520540725215,-0.4405984521137735,-2.865589,-7.107611
11.185,2.0,1.0,1.0,34.5,33.5,33.5,2.5,1.5,2.82,-0.6506663881238952,0.04880597485295675,0.2461424357342303,-0.45931888711270585,-3.15197,-6.708954
11.185,2.0,1.0,1.0,34.5,33.5,33.5,2.5,1.5,2.8225,-0.6346580092925097,0.0786052745193787,0.21406020478596036,-0.47721638472042033,-3.481286,-6.309433
11.185,2.0,1.0,1.0,34.5,33.5,33.5,2.5,1.5,2.825,-0.6144338497408462,0.11243485799093832,0.1829927956008653,-0.4937027211898106,-3.86142,-5.911091
11.185,2.0,1.0,1.0,34.5,33.5,33.5,2.5,1.5,2.8275,-0.5897224210204302,0.15055199102348732,0.15367819145266065,-0.508039975585586,-4.301704,-5.516485
11.185,2.0,1.0,1.0,34.5,33.5,33.5,2.5,1.5,2.83,-0.5603641927759295,0.19310173089943966,0.12701682923579316,-0.5193287692341437,-4.813001,-5.128749
