1,w,sub_t,h,l1,l2,l3,g1,g2,Freq,S11_re,S21_re,S11_img,S21_img,S11_dB,S21_dB
11.185,2.0,1.0,1.0,34.5,33.0,33.0,3.0,4.0,2.5,0.70131653772462,-0.00967971573995408,0.702150876850986,0.00366117241701419,-0.066252,-39.702061
11.185,2.0,1.0,1.0,34.5,33.0,33.0,3.0,4.0,2.5025,0.6955906564170891,-0.009835910117283447,0.7077181636476292,0.0036198619968746686,-0.066911,-39.592058
11.185,2.0,1.0,1.0,34.5,33.0,33.0,3.0,4.0,2.505,0.6897901040423,-0.009994083010934136,0.7132665735571185,0.0035763538841609216,-0.06758,-39.48184
11.185,2.0,1.0,1.0,34.5,33.0,33.0,3.0,4.0,2.5075,0.6839141918886019,-0.010154251028667741,0.7187953591766748,0.003530585025836178,-0.06826,-39.371404
11.185,2.0,1.0,1.0,34.5,33.0,33.0,3.0,4.0,2.51,0.6779622257917342,-0.010316430500071356,0.7243037530487842,0.003482490636256406,-0.068951,-39.260747
11.185,2.0,1.0,1.0,34.5,33.0,33.0,3.0,4.0,2.5125,0.6719335062659628,-0.010480637447147802,0.729790967133282,0.003432004149993607,-0.069654,-39.149864
11.185,2.0,1.0,1.0,34.5,33.0,33.0,3.0,4.0,2.515,0.6658273286467089,-0.010646887553280934,0.735256192267045,0.003379057173494548,-0.070368,-39.038751
11.185,2.0,1.0,1.0,34.5,33.0,33.0,3.0,4.0,2.5175,0.6596429832452683,-0.010815196130498212,0.7406985976110894,0.003323579435556576,-0.071094,-38.927403
11.185,2.0,1.0,1.0,34.5,33.0,33.0,3.0,4.0,2.52,0.6533797555162004,-0.010985578084950012,0.7461173300848934,0.003265498736602669,-0.071832,-38.815818
11.185,2.0,1.0,1.0,34.5,33.0,33.0,3.0,4.0,2.5225,0.6470369262380448,-0.011158047880520551,0.7515115137877457,0.003204740896738708,-0.072582,-38.70399
11.185,2.0,1.0,1.0,34.5,33.0,33.0,3.0,4.0,2.525,0.6406137717079949,-0.011332619500482899,0.7568802494069538,0.0031412297025764538,-0.073344,-38.591917
11.185,2.0,1.0,1.0,34.5,33.0,33.0,3.0,4.0,2.5275,0.6341095639512225,-0.011509306407105738,0.7622226136127372,0.0030748868528067087,-0.074119,-38.479593
11.185,2.0,1.0,1.0,34.5,33.0,33.0,3.0,4.0,2.53,0.6275235709455667,-0.011688121499115934,0.7675376584396338,0.0030056319025080136,-0.074907,-38.367014
11.185,2.0,1.0,1.0,34.5,33.0,33.0,3.0,4.0,2.5325,0.6208550568623226,-0.011869077066916955,0.7728244106542703,0.002933382206177415,-0.075708,-38.254177
11.185,2.0,1.0,1.0,34.5,33.0,33.0,3.0,4.0,2.535,0.614103282323897,-0.01205218474545869,0.7780818711093483,0.002858052859470643,-0.076523,-38.141078
11.185,2.0,1.0,1.0,34.5,33.0,33.0,3.0,4.0,2.5375,0.6072675046791466,-0.01223745546464981,0.783309014083707,0.002779556639640984,-0.077352,-38.027711
11.185,2.0,1.0,1.0,34.5,33.0,33.0,3.0,4.0,2.54,0.6003469782972155,-0.01242489939719952,0.7885047866083403,0.002697803944667008,-0.078194,-37.914074
11.185,2.0,1.0,1.0,34.5,33.0,33.0,3.0,4.0,2.5425,0.5933409548807514,-0.012614525903770242,0.7936681077782599,0.002612702731060987,-0.079051,-37.800163
11.185,2.0,1.0,1.0,34.5,33.0,33.0,3.0,4.0,2.545,0.5862486837993935,-0.012806343475318501,0.7987978680501038,0.0025241584503521036,-0.079922,-37.685972
11.185,2.0,1.0,1.0,34.5,33.0,33.0,3.0,4.0,2.5475,0.5790694124444847,-0.013000359672495304,0.803892928525407,0.002432073984239769,-0.080808,-37.571498
11.185,2.0,1.0,1.0,34.5,33.0,33.0,3.0,4.0,2.55,0.5718023866059536,-0.013196581061973214,0.8089521202194822,0.0023363495784150044,-0.08171,-37.456736
11.185,2.0,1.0,1.0,34.5,33.0,33.0,3.0,4.0,2.5525,0.5644468508724172,-0.013395013149560384,0.8139742433158467,0.0022368827750499673,-0.082627,-37.341684
11.185,2.0,1.0,1.0,34.5,33.0,33.0,3.0,4.0,2.555,0.5570020490555163,-0.013595660309957416,0.8189580664061886,0.002133568343958099,-0.08356,-37.226336
11.185,2.0,1.0,1.0,34.5,33.0,33.0,3.0,4.0,2.5575,0.5494672246395941,-0.013798525713006667,0.8239023257158669,0.002026298212430384,-0.084509,-37.110688
11.185,2.0,1.0,1.0,34.5,33.0,33.0,3.0,4.0,2.56,0.5418416212578469,-0.014003611246277048,0.8288057243149575,0.0019149613937558976,-0.085474,-36.994736
11.185,2.0,1.0,1.0,34.5,33.0,33.0,3.0,4.0,2.5625,0.5341244831961153,-0.014210917433821791,0.8336669313149084,0.0017994439144380604,-0.086456,-36.878477
11.185,2.0,1.0,1.0,34.5,33.0,33.0,3.0,4.0,2.565,0.5263150559255284,-0.014420443350940311,0.8384845810508752,0.0016796287401218636,-0.087456,-36.761905
11.185,2.0,1.0,1.0,34.5,33.0,33.0,3.0,4.0,2.5675,0.5184125866652747,-0.014632186534767699,0.8432572722498437,0.0015553957002504323,-0.088473,-36.645017
11.185,2.0,1.0,1.0,34.5,33.0,33.0,3.0,4.0,2.57,0.5104163249767869,-0.014846142890509768,0.8479835671846833,0.001426621411473894,-0.089508,-36.527809
11.185,2.0,1.0,1.0,34.5,33.0,33.0,3.0,4.0,2.5725,0.502325523390701,-0.015062306593133745,0.8526619908143123,0.0012931791998374673,-0.090561,-36.410275
11.185,2.0,1.0,1.0,34.5,33.0,33.0,3.0,4.0,2.575,0.49413943806798505,-0.01528066998431781,0.8572910299101896,0.0011549390217806999,-0.091633,-36.292413
11.185,2.0,1.0,1.0,34.5,33.0,33.0,3.0,4.0,2.5775,0.4858573294966824,-0.015501223464454985,0.8618691321693868,0.0010117673839844573,-0.092724,-36.174218
11.185,2.0,1.0,1.0,34.5,33.0,33.0,3.0,4.0,2.58,0.47747846322576926,-0.015723955379499274,0.8663947053145483,0.0008635272621078911,-0.093835,-36.055685
11.185,2.0,1.0,1.0,34.5,33.0,33.0,3.0,4.0,2.5825,0.4690021106376588,-0.015948851902434745,0.8708661161810881,0.0007100780184632044,-0.094965,-35.936811
11.185,2.0,1.0,1.0,34.5,33.0,33.0,3.0,4.0,2.585,0.46042754976096045,-0.01617589690913886,0.8752816897920233,0.0005512753186821798,-0.096116,-35.817591
11.185,2.0,1.0,1.0,34.5,33.0,33.0,3.0,4.0,2.5875,0.4517540661251248,-0.01640507184840473,0.8796397084209043,0.0003869710474351728,-0.097288,-35.698021
11.185,2.0,1.0,1.0,34.5,33.0,33.0,3.0,4.0,2.59,0.4429809536586869,-0.016636355605876917,0.88393841064335,0.0002170132232699667,-0.09848,-35.578097
11.185,2.0,1.0,1.0,34.5,33.0,33.0,3.0,4.0,2.5925,0.4341075156328389,-0.016869724361648342,0.8881759903777714,4.124591264561943e-05,-0.099695,-35.457814
11.185,2.0,1.0,1.0,34.5,33.0,33.0,3.0,4.0,2.595,0.42513306565215936,-0.017105151441255302,0.8923505959159177,-0.000140490856755682,-0.100931,-35.337169
11.185,2.0,1.0,1.0,34.5,33.0,33.0,3.0,4.0,2.5975,0.4160569286943262,-0.01734260715980044,0.8964603289439707,-0.00032836118334763915,-0.10219,-35.216156
11.185,2.0,1.0,1.0,34.5,33.0,33.0,3.0,4.0,2.6,0.40687844220073593,-0.017582058658922855,0.9005032435549658,-0.0005225333794892242,-0.103473,-35.094771
11.185,2.0,1.0,1.0,34.5,33.0,33.0,3.0,4.0,2.6025,0.39759695721999583,-0.01782346973632569,0.904477345253414,-0.0007231800597544707,-0.104778,-34.973011
11.185,2.0,1.0,1.0,34.5,33.0,33.0,3.0,4.0,2.605,0.3882118396062865,-0.01806680066756223,0.9083805899530774,-0.0009304782295031722,-0.106108,-34.850871
11.185,2.0,1.0,1.0,34.5,33.0,33.0,3.0,4.0,2.6075,0.37872247127467346,-0.01831200801977169,0.9122108829689434,-0.0011446093736218453,-0.107463,-34.728346
11.185,2.0,1.0,1.0,34.5,33.0,33.0,3.0,4.0,2.61,0.3691282515154864,-0.01855904445704552,0.9159660780045332,-0.001365759545292903,-0.108843,-34.605432
11.185,2.0,1.0,1.0,34.5,33.0,33.0,3.0,4.0,2.6125,0.3594285983699305,-0.018807858537096066,0.9196439761357891,-0.0015941194546389508,-0.110248,-34.482125
11.185,2.0,1.0,1.0,34.5,33.0,33.0,3.0,4.0,2.615,0.34962295006914973,-0.019058394498888714,0.923242324792888,-0.001829884557075933,-0.11168,-34.35842
11.185,2.0,1.0,1.0,34.5,33.0,33.0,3.0,4.0,2.6175,0.33971076653901844,-0.019310592040888166,0.9267588167414375,-0.002073255141195644,-0.113138,-34.234314
11.185,2.0,1.0,1.0,34.5,33.0,33.0,3.0,4.0,2.62,0.3296915309729767,-0.019564386089559918,0.9301910890646369,-0.002324436415984784,-0.114625,-34.1098
11.185,2.0,1.0,1.0,34.5,33.0,33.0,3.0,4.0,2.6225,0.31956475147526126,-0.01981970655775725,0.9335367221481113,-0.002583638597172978,-0.116139,-33.984876
11.185,2.0,1.0,1.0,34.5,33.0,33.0,3.0,4.0,2.625,0.309329962776966,-0.020076478092613,0.936793238669247,-0.00285107699248641,-0.117682,-33.859536
11.185,2.0,1.0,1.0,34.5,33.0,33.0,3.0,4.0,2.6275,0.29898672802734466,-0.020334619812546337,0.9399581025930179,-0.003126972085568833,-0.119254,-33.733777
11.185,2.0,1.0,1.0,34.5,33.0,33.0,3.0,4.0,2.63,0.28853464066287354,-0.020594045032982358,0.9430287181764184,-0.003411549618314057,-0.120856,-33.607593
11.185,2.0,1.0,1.0,34.5,33.0,33.0,3.0,4.0,2.6325,0.27797332635657673,-0.020854660980373266,0.9460024289837832,-0.0037050406713369393,-0.12249,-33.480979
11.185,2.0,1.0,1.0,34.5,33.0,33.0,3.0,4.0,2.635,0.26730244505017575,-0.021116368494098404,0.9488765169154362,-0.004007681742291864,-0.124154,-33.353932
11.185,2.0,1.0,1.0,34.5,33.0,33.0,3.0,4.0,2.6375,0.256521693071651,-0.021379061715809822,0.9516482012522711,-0.004319714821728293,-0.125851,-33.226447
11.185,2.0,1.0,1.0,34.5,33.0,33.0,3.0,4.0,2.64,0.24563080534079493,-0.021642627765780312,0.9543146377190602,-0.004641387466154102,-0.12758,-33.098519
11.185,2.0,1.0,1.0,34.5,33.0,33.0,3.0,4.0,2.6425,0.23462955766540755,-0.021906946405799158,0.9568729175694541,-0.004972952867955978,-0.129343,-32.970144
11.185,2.0,1.0,1.0,34.5,33.0,33.0,3.0,4.0,2.645,0.22351776913074337,-0.022171889688151033,0.9593200666958426,-0.00531466992180598,-0.13114,-32.841316
11.185,2.0,1.0,1.0,34.5,33.0,33.0,3.0,4.0,2.6475,0.2122953045848682,-0.022437321590202897,0.961653044767444,-0.005666803287160496,-0.132973,-32.712032
11.185,2.0,1.0,1.0,34.5,33.0,33.0,3.0,4.0,2.65,0.20096207722252926,-0.022703097634113472,0.9638687444002059,-0.006029623446436995,-0.134841,-32.582285
11.185,2.0,1.0,1.0,34.5,33.0,33.0,3.0,4.0,2.6525,0.18951805127021587,-0.02296906449116861,0.9659639903623023,-0.006403406758427944,-0.136746,-32.452072
11.185,2.0,1.0,1.0,34.5,33.0,33.0,3.0,4.0,2.655,0.17796324477496736,-0.023235059570237374,0.9679355388192663,-0.006788435506490887,-0.138689,-32.321388
11.185,2.0,1.0,1.0,34.5,33.0,33.0,3.0,4.0,2.6575,0.16629773249954466,-0.023500910589831406,0.9697800766230129,-0.007184997941026557,-0.140671,-32.190227
11.185,2.0,1.0,1.0,34.5,33.0,33.0,3.0,4.0,2.66,0.15452164892649417,-0.023766435133241698,0.9714942206492574,-0.00759338831573328,-0.142692,-32.058586
11.185,2.0,1.0,1.0,34.5,33.0,33.0,3.0,4.0,2.6625,0.1426351913736144,-0.024031440186214878,0.9730745171880888,-0.008013906917100208,-0.144753,-31.926457
11.185,2.0,1.0,1.0,34.5,33.0,33.0,3.0,4.0,2.665,0.13063862322324538,-0.02429572165662309,0.974517441392719,-0.008446860086576689,-0.146855,-31.793838
11.185,2.0,1.0,1.0,34.5,33.0,33.0,3.0,4.0,2.6675,0.11853227726776787,-0.024559063875568627,0.9758193967916942,-0.008892560234827806,-0.149,-31.660722
11.185,2.0,1.0,1.0,34.5,33.0,33.0,3.0,4.0,2.67,0.10631655917358161,-0.02482123907935665,0.9769767148701356,-0.00935132584746143,-0.151188,-31.527105
11.185,2.0,1.0,1.0,34.5,33.0,33.0,3.0,4.0,2.6725,0.09399195106574221,-0.025082006871756556,0.9779856547258579,-0.009823481481584843,-0.15342,-31.39298
11.185,2.0,1.0,1.0,34.5,33.0,33.0,3.0,4.0,2.675,0.08155901523533358,-0.025341113665962825,0.9788424028065035,-0.010309357752522662,-0.155698,-31.258344
11.185,2.0,1.0,1.0,34.5,33.0,33.0,3.0,4.0,2.6775,0.0690183979715092,-0.025598292105653894,0.979543072734134,-0.010809291310002193,-0.158022,-31.123189
11.185,2.0,1.0,1.0,34.5,33.0,33.0,3.0,4.0,2.68,0.056370833519980575,-0.02585326046453665,0.9800837052240101,-0.011323624803086215,-0.160393,-30.987512
11.185,2.0,1.0,1.0,34.5,33.0,33.0,3.0,4.0,2.6825,0.04361714816959495,-0.026105722023749996,0.9804602681046184,-0.011852706833107613,-0.162814,-30.851306
11.185,2.0,1.0,1.0,34.5,33.0,33.0,3.0,4.0,2.685,0.03075826446841511,-0.02635536442648818,0.9806686564462895,-0.012396891893836392,-0.165284,-30.714566
11.185,2.0,1.0,1.0,34.5,33.0,33.0,3.0,4.0,2.6875,0.0177952055705397,-0.0266018590091895,0.980704692806097,-0.0129565402980854,-0.167805,-30.577286
11.185,2.0,1.0,1.0,34.5,33.0,33.0,3.0,4.0,2.69,0.004729099714682933,-0.0268448601086185,0.9805641275970107,-0.013532018089937712,-0.170379,-30.439459
11.185,2.0,1.0,1.0,34.5,33.0,33.0,3.0,4.0,2.6925,-0.00843881516477369,-0.027084004344153083,0.9802426395896258,-0.014123696941759366,-0.173006,-30.301081
11.185,2.0,1.0,1.0,34.5,33.0,33.0,3.0,4.0,2.695,-0.021707186693727145,-0.027318909874564895,0.9797358365550821,-0.014731954035138313,-0.175689,-30.162144
11.185,2.0,1.0,1.0,34.5,33.0,33.0,3.0,4.0,2.6975,-0.035074543181162425,-0.027549175628560473,0.9790392560581216,-0.015357171924876536,-0.178427,-30.022643
11.185,2.0,1.0,1.0,34.5,33.0,33.0,3.0,4.0,2.7,-0.04853928860892226,-0.027774380508321483,0.9781483664095207,-0.01599973838514188,-0.181224,-29.882571
11.185,2.0,1.0,1.0,34.5,33.0,33.0,3.0,4.0,2.7025,-0.06209969748895865,-0.027994082565253233,0.9770585677874696,-0.016660046236877977,-0.18408,-29.741922
11.185,2.0,1.0,1.0,34.5,33.0,33.0,3.0,4.0,2.705,-0.07575390958888939,-0.028207818147114067,0.9757651935377336,-0.017338493155555055,-0.186996,-29.600689
11.185,2.0,1.0,1.0,34.5,33.0,33.0,3.0,4.0,2.7075,-0.08949992452715205,-0.028415101015658053,0.974263511662749,-0.01803548145834153,-0.189975,-29.458864
11.185,2.0,1.0,1.0,34.5,33.0,33.0,3.0,4.0,2.71,-0.10333559623940304,-0.028615421433875014,0.9725487265100567,-0.01875141786976857,-0.193017,-29.316442
11.185,2.0,1.0,1.0,34.5,33.0,33.0,3.0,4.0,2.7125,-0.11725862731833026,-0.02880824522185751,0.9706159806707519,-0.019486713264962766,-0.196125,-29.173414
11.185,2.0,1.0,1.0,34.5,33.0,33.0,3.0,4.0,2.715,-0.131266563229471,-0.02899301278025999,0.968460357098866,-0.020241782389523198,-0.199301,-29.029772
11.185,2.0,1.0,1.0,34.5,33.0,33.0,3.0,4.0,2.7175,-0.1453567864061755,-0.0291691380802409,0.9660768814628057,-0.021017043555129875,-0.202545,-28.885511
11.185,2.0,1.0,1.0,34.5,33.0,33.0,3.0,4.0,2.72,-0.15952651022734055,-0.029336007618692456,0.9634605247401915,-0.021812918309981486,-0.20586,-28.74062
11.185,2.0,1.0,1.0,34.5,33.0,33.0,3.0,4.0,2.7225,-0.17377277288216264,-0.029492979337462845,0.9606062060675836,-0.022629831083181274,-0.209248,-28.595092
11.185,2.0,1.0,1.0,34.5,33.0,33.0,3.0,4.0,2.725,-0.18809243112663787,-0.02963938150515945,0.9575087958567373,-0.023468208802209765,-0.21271,-28.448919
11.185,2.0,1.0,1.0,34.5,33.0,33.0,3.0,4.0,2.7275,-0.20248215393726388,-0.02977451155998793,0.9541631191891148,-0.024328480482656883,-0.216249,-28.302091
11.185,2.0,1.0,1.0,34.5,33.0,33.0,3.0,4.0,2.73,-0.21693841606786973,-0.029897634911926967,0.950563959500461,-0.02521107678941619,-0.219866,-28.154599
11.185,2.0,1.0,1.0,34.5,33.0,33.0,3.0,4.0,2.7325,-0.23145749151628525,-0.03000798370235959,0.9467060625672472,-0.02611642956858915,-0.223564,-28.006434
11.185,2.0,1.0,1.0,34.5,33.0,33.0,3.0,4.0,2.735,-0.24603544690805784,-0.030104755519076522,0.9425841408067762,-0.02704497134939019,-0.227346,-27.857585
11.185,2.0,1.0,1.0,34.5,33.0,33.0,3.0,4.0,2.7375,-0.26066813480520973,-0.030187112064329592,0.9381928779026437,-0.0279971348153997,-0.231212,-27.708043
11.185,2.0,1.0,1.0,34.5,33.0,33.0,3.0,4.0,2.74,-0.2753511869485805,-0.030254177773341495,0.9335269337671243,-0.028973352244566476,-0.235167,-27.557797
11.185,2.0,1.0,1.0,34.5,33.0,33.0,3.0,4.0,2.7425,-0.29008000744301443,-0.030305038380366054,0.9285809498518367,-0.029974054917428272,-0.239211,-27.406835
11.185,2.0,1.0,1.0,34.5,33.0,33.0,3.0,4.0,2.745,-0.30484976589526747,-0.030338739429035606,0.923349554817783,-0.03099967249308376,-0.243349,-27.255145
11.185,2.0,1.0,1.0,34.5,33.0,33.0,3.0,4.0,2.7475,-0.3196553905151197,-0.030354284723323757,0.9178273705755174,-0.032050632352522625,-0.247582,-27.102716
11.185,2.0,1.0,1.0,34.5,33.0,33.0,3.0,4.0,2.75,-0.334491561190799,-0.0303506347149846,0.912009018705779,-0.0331273589089945,-0.251913,-26.949534
11.185,2.0,1.0,1.0,34.5,33.0,33.0,3.0,4.0,2.7525,-0.34935270255034734,-0.030326704822797656,0.9058891272704389,-0.034230272885171706,-0.256346,-26.795586
11.185,2.0,1.0,1.0,34.5,33.0,33.0,3.0,4.0,2.755,-0.36423297702105706,-0.030281363678341364,0.8994623380230312,-0.03535979055693458,-0.260883,-26.640858
11.185,2.0,1.0,1.0,34.5,33.0,33.0,3.0,4.0,2.7575,-0.3791262778995977,-0.030213431292328556,0.892723314027466,-0.036516322963682325,-0.265527,-26.485335
11.185,2.0,1.0,1.0,34.5,33.0,33.0,3.0,4.0,2.76,-0.3940262224457005,-0.030121677134753423,0.885666747692788,-0.03770027508513036,-0.270282,-26.329002
11.185,2.0,1.0,1.0,34.5,33.0,33.0,3.0,4.0,2.7625,-0.40892614501263613,-0.030004818121210648,0.878287369230978,-0.03891204498461544,-0.275151,-26.171842
11.185,2.0,1.0,1.0,34.5,33.0,33.0,3.0,4.0,2.765,-0.4238190902277753,-0.029861516496738637,0.870579955543869,-0.040152022918964816,-0.280139,-26.013839
11.185,2.0,1.0,1.0,34.5,33.0,33.0,3.0,4.0,2.7675,-0.43869780623653437,-0.029690377607396894,0.8625393395442248,-0.04142059041500563,-0.285247,-25.854973
11.185,2.0,1.0,1.0,34.5,33.0,33.0,3.0,4.0,2.77,-0.4535547380228634,-0.029489947548494273,0.8541604199148866,-0.04271811931278374,-0.290482,-25.695227
11.185,2.0,1.0,1.0,34.5,33.0,33.0,3.0,4.0,2.7725,-0.46838202081902236,-0.029258710676923424,0.8454381713086928,-0.04404497077551579,-0.295846,-25.534579
11.185,2.0,1.0,1.0,34.5,33.0,33.0,3.0,4.0,2.775,-0.4831714736168262,-0.028995086973403934,0.8363676549905945,-0.045401494266211415,-0.301344,-25.37301
11.185,2.0,1.0,1.0,34.5,33.0,33.0,3.0,4.0,2.7775,-0.4979145927916593,-0.02869742923857095,0.8269440299219936,-0.04678802649075722,-0.306981,-25.210496
11.185,2.0,1.0,1.0,34.5,33.0,33.0,3.0,4.0,2.78,-0.512602545849441,-0.028364020104738912,0.8171625642858963,-0.048204890307041975,-0.312761,-25.047015
11.185,2.0,1.0,1.0,34.5,33.0,33.0,3.0,4.0,2.7825,-0.527226165305164,-0.02799306884279439,0.8070186474500222,-0.0496523935993967,-0.318691,-24.88254
11.185,2.0,1.0,1.0,34.5,33.0,33.0,3.0,4.0,2.785,-0.5417759426998227,-0.02758270794098929,0.7965078023633995,-0.05113082811722648,-0.324774,-24.717047
11.185,2.0,1.0,1.0,34.5,33.0,33.0,3.0,4.0,2.7875,-0.5562420227601296,-0.027130989429384862,0.7856256983805225,-0.05264046827616608,-0.331016,-24.550507
11.185,2.0,1.0,1.0,34.5,33.0,33.0,3.0,4.0,2.79,-0.5706141977026564,-0.02663588092028634,0.7743681645055518,-0.05418156991941162,-0.337425,-24.38289
11.185,2.0,1.0,1.0,34.5,33.0,33.0,3.0,4.0,2.7925,-0.5848819016805616,-0.026095261331168157,0.7627312030475819,-0.0557543690359947,-0.344005,-24.214167
11.185,2.0,1.0,1.0,34.5,33.0,33.0,3.0,4.0,2.795,-0.5990342053671154,-0.025506916252255242,0.7507110036765784,-0.05735908043167322,-0.350765,-24.044303
11.185,2.0,1.0,1.0,34.5,33.0,33.0,3.0,4.0,2.7975,-0.6130598106653229,-0.024868532916045825,0.7383039578683601,-0.05899589634672573,-0.35771,-23.873263
11.185,2.0,1.0,1.0,34.5,33.0,33.0,3.0,4.0,2.8,-0.6269470455275137,-0.02417769472054924,0.7255066737258612,-0.060664985013252605,-0.364849,-23.701012
11.185,2.0,1.0,1.0,34.5,33.0,33.0,3.0,4.0,2.8025,-0.6406838588621604,-0.023431875251802042,0.7123159911631588,-0.06236648914249169,-0.372189,-23.527509
11.185,2.0,1.0,1.0,34.5,33.0,33.0,3.0,4.0,2.805,-0.6542578154976656,-0.0226284317442143,0.6987289974382658,-0.06410052433010642,-0.379739,-23.352713
11.185,2.0,1.0,1.0,34.5,33.0,33.0,3.0,4.0,2.8075,-0.6676560911642031,-0.02176459790938033,0.684743043020674,-0.06586717736430106,-0.387509,-23.176579
11.185,2.0,1.0,1.0,34.5,33.0,33.0,3.0,4.0,2.81,-0.6808654674446495,-0.020837476055045986,0.6703557577802005,-0.06766650441784718,-0.395508,-22.999061
11.185,2.0,1.0,1.0,34.5,33.0,33.0,3.0,4.0,2.8125,-0.693872326634199,-0.0198440284058159,0.655565067484989,-0.0694985291005389,-0.403747,-22.820109
11.185,2.0,1.0,1.0,34.5,33.0,33.0,3.0,4.0,2.815,-0.7066626464351301,-0.018781067525745893,0.6403692105986546,-0.07136324034308968,-0.412236,-22.63967
11.185,2.0,1.0,1.0,34.5,33.0,33.0,3.0,4.0,2.8175,-0.7192219943982078,-0.0176452457300176,0.6247667553698608,-0.0732605900768299,-0.420989,-22.457688
11.185,2.0,1.0,1.0,34.5,33.0,33.0,3.0,4.0,2.82,-0.7315355220051358,-0.016433043358220493,0.6087566172122334,-0.07519049066555938,-0.430018,-22.274103
11.185,2.0,1.0,1.0,34.5,33.0,33.0,3.0,4.0,2.8225,-0.7435879582670437,-0.015140755765121135,0.5923380763787781,-0.07715281203626333,-0.439337,-22.088851
11.185,2.0,1.0,1.0,34.5,33.0,33.0,3.0,4.0,2.825,-0.7553636026918484,-0.013764478865906628,0.5755107959432632,-0.07914737844379684,-0.448961,-21.901866
11.185,2.0,1.0,1.0,34.5,33.0,33.0,3.0,4.0,2.8275,-0.7668463174482822,-0.012300093051409965,0.5582748401116965,-0.08117396479067382,-0.458907,-21.713076
