1,w,sub_t,h,l1,l2,l3,g1,g2,Freq,S11_re,S21_re,S11_img,S21_img,S11_dB,S21_dB
11.185,2.0,1.0,1.0,34.5,34.0,34.0,4.0,2.5,2.5,0.70422556646477,-0.0109666053843877,0.699141263606516,0.00463414565681046,-0.066819,-38.485022
11.185,2.0,1.0,1.0,34.5,34.0,34.0,4.0,2.5,2.5025,0.698591464971578,-0.011156190007809706,0.7046580768241362,0.004600276947765804,-0.067521,-38.367697
11.185,2.0,1.0,1.0,34.5,34.0,34.0,4.0,2.5,2.505,0.6928842084514689,-0.011348705152580761,0.7101567292800997,0.004564098673889736,-0.068235,-38.249984
11.185,2.0,1.0,1.0,34.5,34.0,34.0,4.0,2.5,2.5075,0.6871031071117354,-0.011544198078225522,0.7156365063708465,0.004525534965019733,-0.068962,-38.131878
11.185,2.0,1.0,1.0,34.5,34.0,34.0,4.0,2.5,2.51,0.6812474646148579,-0.011742716852279485,0.7210966739844681,0.004484507400895213,-0.069702,-38.013369
11.185,2.0,1.0,1.0,34.5,34.0,34.0,4.0,2.5,2.5125,0.6753165781464089,-0.01194431036193332,0.7265364779600535,0.004440934915269428,-0.070456,-37.894449
11.185,2.0,1.0,1.0,34.5,34.0,34.0,4.0,2.5,2.515,0.6693097384914498,-0.012149028325657611,0.7319551435324124,0.004394733695902914,-0.071224,-37.775109
11.185,2.0,1.0,1.0,34.5,34.0,34.0,4.0,2.5,2.5175,0.6632262301198908,-0.012356921304791844,0.737351874761777,0.004345817080232604,-0.072005,-37.655343
11.185,2.0,1.0,1.0,34.5,34.0,34.0,4.0,2.5,2.52,0.6570653312812568,-0.012568040715081056,0.7427258539481039,0.00429409544649811,-0.072802,-37.53514
11.185,2.0,1.0,1.0,34.5,34.0,34.0,4.0,2.5,2.5225,0.6508263141093775,-0.012782438838140914,0.748076241029545,0.0042394761000942765,-0.073612,-37.414492
11.185,2.0,1.0,1.0,34.5,34.0,34.0,4.0,2.5,2.525,0.6445084447374907,-0.013000168832831754,0.7534021729646982,0.004181863154904907,-0.074438,-37.293389
11.185,2.0,1.0,1.0,34.5,34.0,34.0,4.0,2.5,2.5275,0.6381109834242956,-0.013221284746519808,0.7587027630981952,0.004121157409357396,-0.07528,-37.171824
11.185,2.0,1.0,1.0,34.5,34.0,34.0,4.0,2.5,2.53,0.6316331846915195,-0.013445841526201254,0.7639771005091842,0.004057256216923282,-0.076137,-37.049786
11.185,2.0,1.0,1.0,34.5,34.0,34.0,4.0,2.5,2.5325,0.6250742974735738,-0.013673895029464466,0.7692242493422673,0.003990053350770914,-0.077011,-36.927267
11.185,2.0,1.0,1.0,34.5,34.0,34.0,4.0,2.5,2.535,0.6184335652798935,-0.01390550203526199,0.7744432481204202,0.003919438862259917,-0.077902,-36.804256
11.185,2.0,1.0,1.0,34.5,34.0,34.0,4.0,2.5,2.5375,0.61171022637061,-0.014140720254462323,0.7796331090394156,0.0038452989329465785,-0.078809,-36.680743
11.185,2.0,1.0,1.0,34.5,34.0,34.0,4.0,2.5,2.54,0.6049035139461979,-0.014379608340148703,0.7847928172432658,0.003767515719748366,-0.079734,-36.55672
11.185,2.0,1.0,1.0,34.5,34.0,34.0,4.0,2.5,2.5425,0.5980126563517804,-0.01462222589762976,0.7899213300801702,0.003685967192893353,-0.080677,-36.432175
11.185,2.0,1.0,1.0,34.5,34.0,34.0,4.0,2.5,2.545,0.5910368772968159,-0.014868633494123006,0.7950175763384566,0.0036005269662561096,-0.081639,-36.307098
11.185,2.0,1.0,1.0,34.5,34.0,34.0,4.0,2.5,2.5475,0.5839753960909034,-0.015118892668069565,0.8000804554619595,0.0035110641196553134,-0.082619,-36.181479
11.185,2.0,1.0,1.0,34.5,34.0,34.0,4.0,2.5,2.55,0.576827427896471,-0.015373065938034917,0.8051088367443076,0.0034174430126603286,-0.083619,-36.055307
11.185,2.0,1.0,1.0,34.5,34.0,34.0,4.0,2.5,2.5525,0.5695921839991748,-0.01563121681114538,0.8101015585015141,0.0033195230894236863,-0.084639,-35.92857
11.185,2.0,1.0,1.0,34.5,34.0,34.0,4.0,2.5,2.555,0.5622688720968247,-0.015893409791007364,0.8150574272223049,0.0032171586740239173,-0.08568,-35.801259
11.185,2.0,1.0,1.0,34.5,34.0,34.0,4.0,2.5,2.5575,0.5548566966077193,-0.016159710385050607,0.8199752166955541,0.003110198755767464,-0.086741,-35.67336
11.185,2.0,1.0,1.0,34.5,34.0,34.0,4.0,2.5,2.56,0.5473548589993015,-0.016430185111230955,0.8248536671141937,0.0029984867638615338,-0.087824,-35.544862
11.185,2.0,1.0,1.0,34.5,34.0,34.0,4.0,2.5,2.5625,0.539762558138078,-0.0167049015040239,0.829691484154936,0.00288186033082706,-0.088929,-35.415754
11.185,2.0,1.0,1.0,34.5,34.0,34.0,4.0,2.5,2.565,0.5320789906617819,-0.01698392811963237,0.8344873380331274,0.002760151043978234,-0.090057,-35.286023
11.185,2.0,1.0,1.0,34.5,34.0,34.0,4.0,2.5,2.5675,0.5243033513748131,-0.01726733454032564,0.8392398625320027,0.002633184184246084,-0.091208,-35.155656
11.185,2.0,1.0,1.0,34.5,34.0,34.0,4.0,2.5,2.57,0.5164348336680148,-0.017555191377819277,0.8439476540056161,0.002500778451571789,-0.092383,-35.024641
11.185,2.0,1.0,1.0,34.5,34.0,34.0,4.0,2.5,2.5725,0.5084726299638936,-0.01784757027559617,0.84860927035465,0.002362745676039499,-0.093584,-34.892964
11.185,2.0,1.0,1.0,34.5,34.0,34.0,4.0,2.5,2.575,0.5004159321884396,-0.01814454391006014,0.8532232299743034,0.002218890513856992,-0.094809,-34.760612
11.185,2.0,1.0,1.0,34.5,34.0,34.0,4.0,2.5,2.5775,0.49226393227074516,-0.018446185990402982,0.8577880106733936,0.0020690101272265384,-0.096061,-34.627571
11.185,2.0,1.0,1.0,34.5,34.0,34.0,4.0,2.5,2.58,0.4840158226716742,-0.01875257125705353,0.8623020485637811,0.0019128938470767828,-0.097339,-34.493827
11.185,2.0,1.0,1.0,34.5,34.0,34.0,4.0,2.5,2.5825,0.4756707969428692,-0.019063775478565526,0.8667637369191743,0.001750322817547427,-0.098645,-34.359365
11.185,2.0,1.0,1.0,34.5,34.0,34.0,4.0,2.5,2.585,0.4672280503174593,-0.019379875446785436,0.8711714250023176,0.0015810696210348584,-0.09998,-34.22417
11.185,2.0,1.0,1.0,34.5,34.0,34.0,4.0,2.5,2.5875,0.45868678033385996,-0.01970094897012622,0.8755234168595132,0.0014048978825132712,-0.101344,-34.088228
11.185,2.0,1.0,1.0,34.5,34.0,34.0,4.0,2.5,2.59,0.4500461874941416,-0.02002707486475453,0.8798179700813595,0.0012215618517461158,-0.102738,-33.951522
11.185,2.0,1.0,1.0,34.5,34.0,34.0,4.0,2.5,2.5925,0.4413054759584687,-0.020358332943479572,0.8840532945285317,0.0010308059618921654,-0.104164,-33.814036
11.185,2.0,1.0,1.0,34.5,34.0,34.0,4.0,2.5,2.595,0.43246385427721656,-0.020694804002108193,0.8882275510213313,0.0008323643628916809,-0.105621,-33.675754
11.185,2.0,1.0,1.0,34.5,34.0,34.0,4.0,2.5,2.5975,0.4235205361623899,-0.02103656980300753,0.8923388499916822,0.0006259604278864839,-0.107112,-33.536658
11.185,2.0,1.0,1.0,34.5,34.0,34.0,4.0,2.5,2.6,0.41447474130006706,-0.021383713055587,0.8963852500961219,0.0004113062307855588,-0.108636,-33.396731
11.185,2.0,1.0,1.0,34.5,34.0,34.0,4.0,2.5,2.6025,0.4053256962056735,-0.021736317393380198,0.9003647567882528,0.00018810199293168022,-0.110196,-33.255955
11.185,2.0,1.0,1.0,34.5,34.0,34.0,4.0,2.5,2.605,0.3960726351239189,-0.022094467347372956,0.9042753208490049,-4.396450334707292e-05,-0.111792,-33.114312
11.185,2.0,1.0,1.0,34.5,34.0,34.0,4.0,2.5,2.6075,0.38671480097536715,-0.02245824831518246,0.9081148368729229,-0.0002852185367038313,-0.113426,-32.971782
11.185,2.0,1.0,1.0,34.5,34.0,34.0,4.0,2.5,2.61,0.3772514463516566,-0.02282774652564825,0.9118811417085544,-0.0005359991068659447,-0.115098,-32.828345
11.185,2.0,1.0,1.0,34.5,34.0,34.0,4.0,2.5,2.6125,0.3676818345614907,-0.023203048998345827,0.9155720128508544,-0.000796659635688668,-0.11681,-32.683982
11.185,2.0,1.0,1.0,34.5,34.0,34.0,4.0,2.5,2.615,0.3580052407296085,-0.023584243497475562,0.9191851667833567,-0.0010675687122512444,-0.118563,-32.538671
11.185,2.0,1.0,1.0,34.5,34.0,34.0,4.0,2.5,2.6175,0.34822095295106426,-0.023971418479515415,0.9227182572676382,-0.0013491108853492864,-0.120359,-32.392391
11.185,2.0,1.0,1.0,34.5,34.0,34.0,4.0,2.5,2.62,0.3383282735032349,-0.024364663033953432,0.9261688735774117,-0.00164168750703734,-0.122199,-32.245119
11.185,2.0,1.0,1.0,34.5,34.0,34.0,4.0,2.5,2.6225,0.3283265201180981,-0.024764066816332392,0.9295345386743168,-0.0019457176312059744,-0.124085,-32.096833
11.185,2.0,1.0,1.0,34.5,34.0,34.0,4.0,2.5,2.625,0.318215027317476,-0.0251697199727452,0.932812707322201,-0.00226163897154069,-0.126017,-31.947508
11.185,2.0,1.0,1.0,34.5,34.0,34.0,4.0,2.5,2.6275,0.30799314781403325,-0.025581713054814218,0.9360007641363919,-0.002589908923613531,-0.127999,-31.79712
11.185,2.0,1.0,1.0,34.5,34.0,34.0,4.0,2.5,2.63,0.29766025398101637,-0.026000136924064447,0.9390960215640888,-0.002931005656300708,-0.130031,-31.645644
11.185,2.0,1.0,1.0,34.5,34.0,34.0,4.0,2.5,2.6325,0.2872157393938603,-0.026425082644464137,0.9420957177916338,-0.0032854292782114373,-0.132116,-31.493054
11.185,2.0,1.0,1.0,34.5,34.0,34.0,4.0,2.5,2.635,0.2766590204469826,-0.026856641361747955,0.9449970145739732,-0.0036537030853564,-0.134255,-31.339321
11.185,2.0,1.0,1.0,34.5,34.0,34.0,4.0,2.5,2.6375,0.26598953804929804,-0.02729490416795831,0.9477969949811261,-0.004036374896886142,-0.13645,-31.184418
11.185,2.0,1.0,1.0,34.5,34.0,34.0,4.0,2.5,2.64,0.2552067594021765,-0.027739961949436846,0.9504926610559501,-0.004434018486399797,-0.138704,-31.028316
11.185,2.0,1.0,1.0,34.5,34.0,34.0,4.0,2.5,2.6425,0.2443101798638708,-0.02819190521626005,0.9530809313768304,-0.004847235117063465,-0.141019,-30.870985
11.185,2.0,1.0,1.0,34.5,34.0,34.0,4.0,2.5,2.645,0.23329932490468128,-0.028650823910847566,0.9555586385182658,-0.005276655189605742,-0.143397,-30.712392
11.185,2.0,1.0,1.0,34.5,34.0,34.0,4.0,2.5,2.6475,0.22217375215746565,-0.029116807193160316,0.9579225264015032,-0.0057229400131735934,-0.14584,-30.552507
11.185,2.0,1.0,1.0,34.5,34.0,34.0,4.0,2.5,2.65,0.21093305356842895,-0.029589943199553992,0.9601692475265099,-0.006186783710057119,-0.148351,-30.391293
11.185,2.0,1.0,1.0,34.5,34.0,34.0,4.0,2.5,2.6525,0.19957685765360078,-0.03007031877194256,0.9622953600755567,-0.006668915266429505,-0.150933,-30.228718
11.185,2.0,1.0,1.0,34.5,34.0,34.0,4.0,2.5,2.655,0.18810483186677432,-0.030558019153461628,0.964297324877571,-0.00717010074252738,-0.153589,-30.064743
11.185,2.0,1.0,1.0,34.5,34.0,34.0,4.0,2.5,2.6575,0.17651668508529647,-0.03105312764627645,0.9661715022211353,-0.007691145657117274,-0.156323,-29.899332
11.185,2.0,1.0,1.0,34.5,34.0,34.0,4.0,2.5,2.66,0.16481217022064204,-0.0315557252265575,0.9679141485025754,-0.008232897562692368,-0.159136,-29.732444
11.185,2.0,1.0,1.0,34.5,34.0,34.0,4.0,2.5,2.6625,0.1529910869614459,-0.03206589011092272,0.9695214126939476,-0.008796248829628872,-0.162033,-29.564038
11.185,2.0,1.0,1.0,34.5,34.0,34.0,4.0,2.5,2.665,0.14105328465740996,-0.032583697267810206,0.9709893326139051,-0.009382139659539965,-0.165017,-29.394072
11.185,2.0,1.0,1.0,34.5,34.0,34.0,4.0,2.5,2.6675,0.12899866535349902,-0.033109217866273834,0.9723138309823218,-0.00999156135031759,-0.168092,-29.222501
11.185,2.0,1.0,1.0,34.5,34.0,34.0,4.0,2.5,2.67,0.11682718698483995,-0.03364251865356933,0.973490711237202,-0.01062555983788975,-0.171263,-29.049278
11.185,2.0,1.0,1.0,34.5,34.0,34.0,4.0,2.5,2.6725,0.1045388667440304,-0.03418366125158591,0.9745156530897148,-0.0112852395425785,-0.174533,-28.874354
11.185,2.0,1.0,1.0,34.5,34.0,34.0,4.0,2.5,2.675,0.09213378463400053,-0.034732701360652866,0.9753842077901422,-0.011971767551165654,-0.177908,-28.69768
11.185,2.0,1.0,1.0,34.5,34.0,34.0,4.0,2.5,2.6775,0.07961208722126718,-0.035289687857466744,0.9760917930740789,-0.01268637816941575,-0.181392,-28.519201
11.185,2.0,1.0,1.0,34.5,34.0,34.0,4.0,2.5,2.68,0.06697399160639249,-0.035854661771802965,0.9766336877542638,-0.013430377883924078,-0.18499,-28.338862
11.185,2.0,1.0,1.0,34.5,34.0,34.0,4.0,2.5,2.6825,0.05421978963081415,-0.03642765512423241,0.9770050259189544,-0.014205150776821053,-0.188709,-28.156606
11.185,2.0,1.0,1.0,34.5,34.0,34.0,4.0,2.5,2.685,0.041349852341917334,-0.03700868960420386,0.9772007906926213,-0.015012164442160974,-0.192555,-27.972371
11.185,2.0,1.0,1.0,34.5,34.0,34.0,4.0,2.5,2.6875,0.0283646347414616,-0.0375977750644847,0.977215807508915,-0.0158529764588294,-0.196533,-27.786094
11.185,2.0,1.0,1.0,34.5,34.0,34.0,4.0,2.5,2.69,0.01526468084629689,-0.03819490780399077,0.9770447368391709,-0.016729241481649313,-0.200651,-27.597707
11.185,2.0,1.0,1.0,34.5,34.0,34.0,4.0,2.5,2.6925,0.002050629094755868,-0.03880006860635897,0.9766820663120965,-0.017642719020156714,-0.204917,-27.407142
11.185,2.0,1.0,1.0,34.5,34.0,34.0,4.0,2.5,2.695,-0.011276781862467484,-0.039413220496086324,0.9761221021515325,-0.018595281983408415,-0.209337,-27.214324
11.185,2.0,1.0,1.0,34.5,34.0,34.0,4.0,2.5,2.6975,-0.024716706941892912,-0.04003430616750852,0.9753589598491632,-0.01958892607935448,-0.213922,-27.019176
11.185,2.0,1.0,1.0,34.5,34.0,34.0,4.0,2.5,2.7,-0.03826818792457056,-0.04066324503410971,0.9743865539775379,-0.020625780168932982,-0.218681,-26.821617
11.185,2.0,1.0,1.0,34.5,34.0,34.0,4.0,2.5,2.7025,-0.05193014620948776,-0.04129992983639829,0.9731985870355351,-0.02170811768839043,-0.223622,-26.621562
11.185,2.0,1.0,1.0,34.5,34.0,34.0,4.0,2.5,2.705,-0.06570137495056304,-0.041944222735538994,0.9717885372031717,-0.022838369268634934,-0.228758,-26.418921
11.185,2.0,1.0,1.0,34.5,34.0,34.0,4.0,2.5,2.7075,-0.07958053049184242,-0.04259595080672788,0.9701496448651209,-0.024019136698045382,-0.234101,-26.213598
11.185,2.0,1.0,1.0,34.5,34.0,34.0,4.0,2.5,2.71,-0.09356612299993428,-0.04325490083046988,0.9682748977420295,-0.025253208395433362,-0.239662,-26.005494
11.185,2.0,1.0,1.0,34.5,34.0,34.0,4.0,2.5,2.7125,-0.10765650617403996,-0.04392081326090184,0.9661570144453401,-0.02654357658325156,-0.245455,-25.794503
11.185,2.0,1.0,1.0,34.5,34.0,34.0,4.0,2.5,2.715,-0.12184986589131118,-0.044593375227389695,0.9637884262442357,-0.027893456378162602,-0.251497,-25.580514
11.185,2.0,1.0,1.0,34.5,34.0,34.0,4.0,2.5,2.7175,-0.13614420761792992,-0.045272212397951664,0.9611612568019562,-0.02930630704734785,-0.257803,-25.36341
11.185,2.0,1.0,1.0,34.5,34.0,34.0,4.0,2.5,2.72,-0.15053734238308433,-0.04595687949952319,0.9582672996023432,-0.03078585571515472,-0.264391,-25.143064
11.185,2.0,1.0,1.0,34.5,34.0,34.0,4.0,2.5,2.7225,-0.16502687107264638,-0.04664684924934401,0.95509799274521,-0.03233612384670654,-0.271282,-24.919347
11.185,2.0,1.0,1.0,34.5,34.0,34.0,4.0,2.5,2.725,-0.1796101667499688,-0.0473414994020949,0.9516443907399883,-0.0339614568839055,-0.278495,-24.692116
11.185,2.0,1.0,1.0,34.5,34.0,34.0,4.0,2.5,2.7275,-0.194284354650938,-0.04804009755673332,0.9478971328699128,-0.035666557466034955,-0.286057,-24.461225
11.185,2.0,1.0,1.0,34.5,34.0,34.0,4.0,2.5,2.73,-0.20904628942619374,-0.04874178329255323,0.9438464076323743,-0.037456522733243375,-0.293991,-24.226515
11.185,2.0,1.0,1.0,34.5,34.0,34.0,4.0,2.5,2.7325,-0.22389252911219876,-0.049445547112440674,0.9394819126833909,-0.039336886288188266,-0.302328,-23.98782
11.185,2.0,1.0,1.0,34.5,34.0,34.0,4.0,2.5,2.735,-0.23881930519993608,-0.050150205558265507,0.9347928096235639,-0.04131366548086943,-0.311099,-23.74496
11.185,2.0,1.0,1.0,34.5,34.0,34.0,4.0,2.5,2.7375,-0.25382248803013535,-0.050854371723321606,0.9297676728571747,-0.04339341478632814,-0.320339,-23.497745
11.185,2.0,1.0,1.0,34.5,34.0,34.0,4.0,2.5,2.74,-0.2688975465697633,-0.05155642021261897,0.9243944316328444,-0.04558328616688797,-0.330088,-23.245974
11.185,2.0,1.0,1.0,34.5,34.0,34.0,4.0,2.5,2.7425,-0.28403950140709283,-0.05225444538454381,0.9186603042304873,-0.04789109745274109,-0.34039,-22.989431
11.185,2.0,1.0,1.0,34.5,34.0,34.0,4.0,2.5,2.745,-0.29924286952999946,-0.052946211435166486,0.9125517230921281,-0.050325409940014706,-0.351292,-22.727884
11.185,2.0,1.0,1.0,34.5,34.0,34.0,4.0,2.5,2.7475,-0.314501599109045,-0.05362909254406015,0.9060542495000359,-0.05289561659734287,-0.362851,-22.461087
11.185,2.0,1.0,1.0,34.5,34.0,34.0,4.0,2.5,2.75,-0.329808992073369,-0.0543000008680209,0.899152476181038,-0.0556120424938653,-0.375127,-22.188776
11.185,2.0,1.0,1.0,34.5,34.0,34.0,4.0,2.5,2.7525,-0.34515761171729287,-0.054955299620594956,0.8918299159574653,-0.058486059316816295,-0.38819,-21.910667
11.185,2.0,1.0,1.0,34.5,34.0,34.0,4.0,2.5,2.755,-0.3605391718746214,-0.055590697776687195,0.8840688742699964,-0.06153021613818655,-0.402118,-21.626456
11.185,2.0,1.0,1.0,34.5,34.0,34.0,4.0,2.5,2.7575,-0.37594440330063433,-0.056201122047747756,0.8758503030643209,-0.0647583889187256,-0.417,-21.335818
11.185,2.0,1.0,1.0,34.5,34.0,34.0,4.0,2.5,2.76,-0.39136289174862426,-0.05678056062445967,0.8671536331631763,-0.06818595160244818,-0.432937,-21.038401
11.185,2.0,1.0,1.0,34.5,34.0,34.0,4.0,2.5,2.7625,-0.40678288073901603,-0.057321871701135264,0.857956581843861,-0.0718299720497467,-0.450045,-20.733828
11.185,2.0,1.0,1.0,34.5,34.0,34.0,4.0,2.5,2.765,-0.422191030087699,-0.057816547873168235,0.8482349319231581,-0.07570943646766881,-0.468457,-20.421691
11.185,2.0,1.0,1.0,34.5,34.0,34.0,4.0,2.5,2.7675,-0.43757211874353785,-0.058254424993733386,0.837962278244795,-0.07984550639359879,-0.488325,-20.101551
11.185,2.0,1.0,1.0,34.5,34.0,34.0,4.0,2.5,2.77,-0.4529086771905573,-0.05862332079724289,0.8271097371203299,-0.08426181262212185,-0.509826,-19.772935
11.185,2.0,1.0,1.0,34.5,34.0,34.0,4.0,2.5,2.7725,-0.46818053033847173,-0.058908584286776575,0.815645614081297,-0.08898479064552307,-0.533165,-19.435329
11.185,2.0,1.0,1.0,34.5,34.0,34.0,4.0,2.5,2.775,-0.4833642261049916,-0.05909253119190678,0.8035350254079142,-0.0940440620567717,-0.558582,-19.088181
11.185,2.0,1.0,1.0,34.5,34.0,34.0,4.0,2.5,2.7775,-0.4984323173094498,-0.05915373325982213,0.7907394695553353,-0.09947286569254046,-0.586358,-18.730892
11.185,2.0,1.0,1.0,34.5,34.0,34.0,4.0,2.5,2.78,-0.5133524544069612,-0.059066119107847447,0.7772163462084988,-0.10530854066726483,-0.616825,-18.362813
11.185,2.0,1.0,1.0,34.5,34.0,34.0,4.0,2.5,2.7825,-0.5280862331287225,-0.058797830978543034,0.7629184239234532,-0.11159306020660208,-0.650374,-17.983245
11.185,2.0,1.0,1.0,34.5,34.0,34.0,4.0,2.5,2.785,-0.5425877230964921,-0.058309763847056495,0.7477932632327194,-0.11837360925672084,-0.687475,-17.591429
11.185,2.0,1.0,1.0,34.5,34.0,34.0,4.0,2.5,2.7875,-0.5568015794120571,-0.05755368941066321,0.7317826124516865,-0.1257031884834955,-0.72869,-17.186548
11.185,2.0,1.0,1.0,34.5,34.0,34.0,4.0,2.5,2.79,-0.5706606070993397,-0.05646983557241419,0.7148218110559584,-0.13364120965917314,-0.774698,-16.767723
11.185,2.0,1.0,1.0,34.5,34.0,34.0,4.0,2.5,2.7925,-0.5840826056258903,-0.05498374966579844,0.6968392650068888,-0.1422540179810685,-0.826324,-16.334011
11.185,2.0,1.0,1.0,34.5,34.0,34.0,4.0,2.5,2.795,-0.5969662646974992,-0.053002218031947386,0.6777561072537682,-0.1516152281397444,-0.884578,-15.884407
11.185,2.0,1.0,1.0,34.5,34.0,34.0,4.0,2.5,2.7975,-0.6091858103149179,-0.05040794290673472,0.657486236957414,-0.16180568088855396,-0.950706,-15.417847
11.185,2.0,1.0,1.0,34.5,34.0,34.0,4.0,2.5,2.8,-0.6205840102279065,-0.0470525884751993,0.6359370623736771,-0.17291269594746497,-1.026256,-14.933225
11.185,2.0,1.0,1.0,34.5,34.0,34.0,4.0,2.5,2.8025,-0.6309630432533695,-0.04274770429420482,0.6130114863385449,-0.18502808393906928,-1.113166,-14.429411
11.185,2.0,1.0,1.0,34.5,34.0,34.0,4.0,2.5,2.805,-0.6400726313047403,-0.037252929972361896,0.58861201994917,-0.19824403495184872,-1.21388,-13.905286
11.185,2.0,1.0,1.0,34.5,34.0,34.0,4.0,2.5,2.8075,-0.6475947656721346,-0.030260819259061336,0.5626484668441323,-0.21264544723405726,-1.331503,-13.359807
11.185,2.0,1.0,1.0,34.5,34.0,34.0,4.0,2.5,2.81,-0.6531244244151873,-0.02137768861377666,0.5350515021387244,-0.22829638255187243,-1.470009,-12.792104
11.185,2.0,1.0,1.0,34.5,34.0,34.0,4.0,2.5,2.8125,-0.656146083940976,-0.0101003024236217,0.505795831384999,-0.245216981333193,-1.634499,-12.201627
11.185,2.0,1.0,1.0,34.5,34.0,34.0,4.0,2.5,2.815,-0.6560070080481513,0.004210614449886201,0.47493862299157863,-0.26334517558040293,-1.831545,-11.588383
11.185,2.0,1.0,1.0,34.5,34.0,34.0,4.0,2.5,2.8175,-0.6518911009487273,0.022356251423907157,0.44268161741365575,-0.2824748477458817,-2.06958,-10.953286
11.185,2.0,1.0,1.0,34.5,34.0,34.0,4.0,2.5,2.82,-0.6428030745602852,0.045315249365632,0.4094682917121344,-0.3021591368114627,-2.359285,-10.298689
11.185,2.0,1.0,1.0,34.5,34.0,34.0,4.0,2.5,2.8225,-0.6275842309855245,0.07422768130991543,0.37612880678600513,-0.321566276199016,-2.713745,-9.629138
11.185,2.0,1.0,1.0,34.5,34.0,34.0,4.0,2.5,2.825,-0.6050010475686031,0.11030648628199367,0.34407978334231043,-0.33928104330317616,-3.147805,-8.952427
11.185,2.0,1.0,1.0,34.5,34.0,34.0,4.0,2.5,2.8275,-0.5739756295476836,0.15460768594220556,0.31556105359372283,-0.3530697316411208,-3.675156,-8.280929
