1,w,sub_t,h,l1,l2,l3,g1,g2,Freq,S11_re,S21_re,S11_img,S21_img,S11_dB,S21_dB
11.185,2.0,1.0,1.0,33.9,33.0,33.0,4.1,1.8,2.5,0.799469343871166,-0.00849693370243266,0.589847521599252,0.00567389900074131,-0.056515,-39.813369
11.185,2.0,1.0,1.0,33.9,33.0,33.0,4.1,1.8,2.5025,0.7952265416526493,-0.0086527800974934,0.5954551416662925,0.005678825428586413,-0.057039,-39.701308
11.185,2.0,1.0,1.0,33.9,33.0,33.0,4.1,1.8,2.505,0.7909248494008049,-0.008811089474485598,0.6010564682810897,0.005682501488472794,-0.057572,-39.588991
11.185,2.0,1.0,1.0,33.9,33.0,33.0,4.1,1.8,2.5075,0.7865637057806443,-0.008971901703009178,0.6066511155319176,0.00568488354687216,-0.058113,-39.476412
11.185,2.0,1.0,1.0,33.9,33.0,33.0,4.1,1.8,2.51,0.7821425422125745,-0.009135257381530091,0.6122386866081084,0.0056859265624060315,-0.058663,-39.363564
11.185,2.0,1.0,1.0,33.9,33.0,33.0,4.1,1.8,2.5125,0.7776607828197769,-0.009301197850416516,0.6178187734834891,0.005685584035966608,-0.059221,-39.250441
11.185,2.0,1.0,1.0,33.9,33.0,33.0,4.1,1.8,2.515,0.7731178443776741,-0.009469765205105415,0.6233909565907316,0.005683807958898998,-0.059789,-39.137038
11.185,2.0,1.0,1.0,33.9,33.0,33.0,4.1,1.8,2.5175,0.7685131362656739,-0.009641002309393229,0.6289548044863428,0.005680548759164957,-0.060365,-39.023348
11.185,2.0,1.0,1.0,33.9,33.0,33.0,4.1,1.8,2.52,0.763846060421355,-0.009814952808843902,0.6345098735060415,0.005675755245399632,-0.060951,-38.909364
11.185,2.0,1.0,1.0,33.9,33.0,33.0,4.1,1.8,2.5225,0.7591160112973075,-0.009991661144304784,0.6400557074102254,0.005669374548769301,-0.061546,-38.79508
11.185,2.0,1.0,1.0,33.9,33.0,33.0,4.1,1.8,2.525,0.7543223758208069,-0.01017117256552341,0.6455918370192603,0.005661352062536701,-0.062151,-38.68049
11.185,2.0,1.0,1.0,33.9,33.0,33.0,4.1,1.8,2.5275,0.7494645333565471,-0.010353533144854528,0.6511177798382962,0.0056516313792310015,-0.062766,-38.565587
11.185,2.0,1.0,1.0,33.9,33.0,33.0,4.1,1.8,2.53,0.7445418556726575,-0.010538789791047012,0.6566330396713049,0.005640154225319454,-0.063392,-38.450364
11.185,2.0,1.0,1.0,33.9,33.0,33.0,4.1,1.8,2.5325,0.7395537069102298,-0.01072699026309878,0.6621371062240351,0.005626860393268432,-0.064028,-38.334814
11.185,2.0,1.0,1.0,33.9,33.0,33.0,4.1,1.8,2.535,0.734499443556605,-0.010918183184166931,0.6676294546955718,0.005611687670878409,-0.064674,-38.218932
11.185,2.0,1.0,1.0,33.9,33.0,33.0,4.1,1.8,2.5375,0.7293784144226861,-0.011112418055519808,0.6731095453581615,0.005594571767771331,-0.065332,-38.102709
11.185,2.0,1.0,1.0,33.9,33.0,33.0,4.1,1.8,2.54,0.7241899606245407,-0.01130974527051473,0.6785768231249864,0.005575446238901484,-0.066001,-37.98614
11.185,2.0,1.0,1.0,33.9,33.0,33.0,4.1,1.8,2.5425,0.7189334155695827,-0.011510216128585627,0.6840307171055302,0.005554242404956012,-0.066682,-37.869216
11.185,2.0,1.0,1.0,33.9,33.0,33.0,4.1,1.8,2.545,0.7136081049476357,-0.011713882849222096,0.6894706401481944,0.005530889269502444,-0.067374,-37.751931
11.185,2.0,1.0,1.0,33.9,33.0,33.0,4.1,1.8,2.5475,0.7082133467271965,-0.011920798585920598,0.6948959883697841,0.005505313432736013,-0.068078,-37.634277
11.185,2.0,1.0,1.0,33.9,33.0,33.0,4.1,1.8,2.55,0.7027484511572191,-0.012131017440085838,0.7003061406715202,0.005477439001667356,-0.068795,-37.516247
11.185,2.0,1.0,1.0,33.9,33.0,33.0,4.1,1.8,2.5525,0.697212720774786,-0.012344594474860233,0.7057004582411599,0.005447187496589235,-0.069525,-37.397834
11.185,2.0,1.0,1.0,33.9,33.0,33.0,4.1,1.8,2.555,0.6916054504190189,-0.012561585728855016,0.7110782840408629,0.0054144777536450535,-0.070268,-37.27903
11.185,2.0,1.0,1.0,33.9,33.0,33.0,4.1,1.8,2.5575,0.6859259272516114,-0.012782048229757552,0.7164389422803848,0.0053792258233187895,-0.071024,-37.159827
11.185,2.0,1.0,1.0,33.9,33.0,33.0,4.1,1.8,2.56,0.6801734307843982,-0.013006040007783838,0.7217817378751835,0.005341344864651929,-0.071794,-37.040218
11.185,2.0,1.0,1.0,33.9,33.0,33.0,4.1,1.8,2.5625,0.6743472329143753,-0.01323362010894491,0.727105955889016,0.0053007450349851545,-0.072578,-36.920195
11.185,2.0,1.0,1.0,33.9,33.0,33.0,4.1,1.8,2.565,0.668446597966609,-0.013464848608093731,0.7324108609605886,0.005257333375009621,-0.073376,-36.799749
11.185,2.0,1.0,1.0,33.9,33.0,33.0,4.1,1.8,2.5675,0.6624707827455152,-0.013699786621713584,0.7376956967138066,0.005211013688902472,-0.074189,-36.678872
11.185,2.0,1.0,1.0,33.9,33.0,33.0,4.1,1.8,2.57,0.6564190365949776,-0.013938496320409435,0.7429596851511617,0.005161686419306928,-0.075017,-36.557558
11.185,2.0,1.0,1.0,33.9,33.0,33.0,4.1,1.8,2.5725,0.6502906014678265,-0.014181040941057694,0.7482020260297915,0.005109248516904705,-0.075861,-36.435795
11.185,2.0,1.0,1.0,33.9,33.0,33.0,4.1,1.8,2.575,0.644084712005209,-0.01442748479856861,0.7534218962197095,0.005053593304315954,-0.07672,-36.313578
11.185,2.0,1.0,1.0,33.9,33.0,33.0,4.1,1.8,2.5775,0.6378005956264118,-0.014677893297209015,0.7586184490437169,0.0049946103340420414,-0.077596,-36.190896
11.185,2.0,1.0,1.0,33.9,33.0,33.0,4.1,1.8,2.58,0.6314374726297289,-0.014932332941433445,0.7637908135984681,0.004932185240157406,-0.078488,-36.067741
11.185,2.0,1.0,1.0,33.9,33.0,33.0,4.1,1.8,2.5825,0.6249945563049812,-0.015190871346161598,0.7689380940561753,0.0048661995834301435,-0.079398,-35.944104
11.185,2.0,1.0,1.0,33.9,33.0,33.0,4.1,1.8,2.585,0.6184710530583382,-0.015453577246440964,0.7740593689463903,0.0047965306895426975,-0.080326,-35.819976
11.185,2.0,1.0,1.0,33.9,33.0,33.0,4.1,1.8,2.5875,0.6118661625501157,-0.01572052050642509,0.7791536904173204,0.004723051480056866,-0.081271,-35.695347
11.185,2.0,1.0,1.0,33.9,33.0,33.0,4.1,1.8,2.59,0.6051790778462571,-0.0159917721275932,0.7842200834760878,0.00464563029574691,-0.082235,-35.570209
11.185,2.0,1.0,1.0,33.9,33.0,33.0,4.1,1.8,2.5925,0.5984089855842306,-0.01626740425613162,0.7892575452073483,0.004564130711908488,-0.083218,-35.444551
11.185,2.0,1.0,1.0,33.9,33.0,33.0,4.1,1.8,2.595,0.5915550661541368,-0.016547490189390536,0.7942650439696478,0.004478411345216761,-0.08422,-35.318365
11.185,2.0,1.0,1.0,33.9,33.0,33.0,4.1,1.8,2.5975,0.5846164938958109,-0.016832104381323633,0.7992415185689034,0.004388325651691231,-0.085243,-35.191639
11.185,2.0,1.0,1.0,33.9,33.0,33.0,4.1,1.8,2.6,0.5775924373127848,-0.01712132244680871,0.8041858774083499,0.004293721715288852,-0.086286,-35.064364
11.185,2.0,1.0,1.0,33.9,33.0,33.0,4.1,1.8,2.6025,0.570482059303998,-0.017415221164742898,0.8090969976142759,0.004194442026623818,-0.08735,-34.936529
11.185,2.0,1.0,1.0,33.9,33.0,33.0,4.1,1.8,2.605,0.5632845174141733,-0.017713878479792743,0.8139737241368842,0.00409032325127513,-0.088437,-34.808125
11.185,2.0,1.0,1.0,33.9,33.0,33.0,4.1,1.8,2.6075,0.5559989641038413,-0.01801737350267508,0.8188148688255388,0.003981195987112875,-0.089545,-34.679139
11.185,2.0,1.0,1.0,33.9,33.0,33.0,4.1,1.8,2.61,0.5486245470400262,-0.018325786508829642,0.8236192094776782,0.0038668845100350217,-0.090676,-34.549562
11.185,2.0,1.0,1.0,33.9,33.0,33.0,4.1,1.8,2.6125,0.5411604094086545,-0.018639198935337584,0.8283854888606322,0.003747206507467849,-0.091831,-34.419382
11.185,2.0,1.0,1.0,33.9,33.0,33.0,4.1,1.8,2.615,0.5336056902497965,-0.018957693375923904,0.8331124137055589,0.0036219727989382977,-0.09301,-34.288588
11.185,2.0,1.0,1.0,33.9,33.0,33.0,4.1,1.8,2.6175,0.5259595248169129,-0.019281353573872485,0.8377986536726765,0.0034909870429865055,-0.094214,-34.157167
11.185,2.0,1.0,1.0,33.9,33.0,33.0,4.1,1.8,2.62,0.5182210449613128,-0.01961026441266497,0.8424428402869631,0.0033540454296283775,-0.095444,-34.025109
11.185,2.0,1.0,1.0,33.9,33.0,33.0,4.1,1.8,2.6225,0.5103893795430977,-0.01994451190414204,0.8470435658434379,0.003210936357533573,-0.0967,-33.892401
11.185,2.0,1.0,1.0,33.9,33.0,33.0,4.1,1.8,2.625,0.502463654869931,-0.0202841831739649,0.851599382281116,0.00306144009501958,-0.097983,-33.759031
11.185,2.0,1.0,1.0,33.9,33.0,33.0,4.1,1.8,2.6275,0.49444299516500767,-0.02062936644414158,0.8561088000246909,0.002905328423905326,-0.099294,-33.624986
11.185,2.0,1.0,1.0,33.9,33.0,33.0,4.1,1.8,2.63,0.48632652306569285,-0.020980151012356226,0.860570286792964,0.002742364265197482,-0.100633,-33.490252
11.185,2.0,1.0,1.0,33.9,33.0,33.0,4.1,1.8,2.6325,0.4781133601543434,-0.021336627227822848,0.8649822663729846,0.0025723012855103106,-0.102003,-33.354818
11.185,2.0,1.0,1.0,33.9,33.0,33.0,4.1,1.8,2.635,0.4698026275229051,-0.02169888646335722,0.8693431173588403,0.0023948834830424637,-0.103402,-33.218668
11.185,2.0,1.0,1.0,33.9,33.0,33.0,4.1,1.8,2.6375,0.4613934463729599,-0.02206702108333441,0.8736511718539485,0.002209844751846736,-0.104833,-33.08179
11.185,2.0,1.0,1.0,33.9,33.0,33.0,4.1,1.8,2.64,0.45288493865294327,-0.022441124407172743,0.8779047141357037,0.0020169084230369553,-0.106296,-32.944168
11.185,2.0,1.0,1.0,33.9,33.0,33.0,4.1,1.8,2.6425,0.44427622773437636,-0.022821290667948996,0.8821019792812145,0.0018157867814767577,-0.107793,-32.805789
11.185,2.0,1.0,1.0,33.9,33.0,33.0,4.1,1.8,2.645,0.43556643912900794,-0.023207614965716685,0.8862411517528385,0.0016061805563816283,-0.109324,-32.666637
11.185,2.0,1.0,1.0,33.9,33.0,33.0,4.1,1.8,2.6475,0.42675470124886616,-0.023600193215060322,0.8903203639421495,0.0013877783841536675,-0.11089,-32.526697
11.185,2.0,1.0,1.0,33.9,33.0,33.0,4.1,1.8,2.65,0.417840146211301,-0.023999122086374162,0.894337694670871,0.0011602562416313123,-0.112492,-32.385954
11.185,2.0,1.0,1.0,33.9,33.0,33.0,4.1,1.8,2.6525,0.40882191069123297,-0.02440449894030684,0.8982911676472388,0.0009232768478016573,-0.114132,-32.244391
11.185,2.0,1.0,1.0,33.9,33.0,33.0,4.1,1.8,2.655,0.39969913682286884,-0.024816421754762133,0.9021787498761722,0.0006764890318655051,-0.115811,-32.101991
11.185,2.0,1.0,1.0,33.9,33.0,33.0,4.1,1.8,2.6575,0.3904709731533127,-0.02523498904378559,0.9059983500215126,0.00041952706538080634,-0.11753,-31.958737
11.185,2.0,1.0,1.0,33.9,33.0,33.0,4.1,1.8,2.66,0.3811365756505852,-0.025660299767603555,0.9097478167184626,0.00015200995602438245,-0.11929,-31.814613
11.185,2.0,1.0,1.0,33.9,33.0,33.0,4.1,1.8,2.6625,0.37169510876871253,-0.026092453233009773,0.9134249368342615,-0.00012645929968523514,-0.121093,-31.6696
11.185,2.0,1.0,1.0,33.9,33.0,33.0,4.1,1.8,2.665,0.3621457465726344,-0.026531548983214207,0.9170274336749804,-0.00041629450758243094,-0.12294,-31.523679
11.185,2.0,1.0,1.0,33.9,33.0,33.0,4.1,1.8,2.6675,0.35248767392589997,-0.02697768667617931,0.9205529651361204,-0.0007179271140816556,-0.124833,-31.376831
11.185,2.0,1.0,1.0,33.9,33.0,33.0,4.1,1.8,2.67,0.3427200877441868,-0.027430965950373205,0.9239991217946065,-0.0010318070948166507,-0.126773,-31.229038
11.185,2.0,1.0,1.0,33.9,33.0,33.0,4.1,1.8,2.6725,0.3328421983178951,-0.02789148627675473,0.9273634249394864,-0.0013584038973579525,-0.128761,-31.080278
11.185,2.0,1.0,1.0,33.9,33.0,33.0,4.1,1.8,2.675,0.3228532307072307,-0.028359346795685227,0.9306433245384936,-0.0016982074419906053,-0.1308,-30.93053
11.185,2.0,1.0,1.0,33.9,33.0,33.0,4.1,1.8,2.6775,0.31275242621338284,-0.0288346461373218,0.9338361971373317,-0.0020517291848815965,-0.132891,-30.779774
11.185,2.0,1.0,1.0,33.9,33.0,33.0,4.1,1.8,2.68,0.30253904392958153,-0.029317482223894516,0.9369393436883321,-0.0024195032483470768,-0.135036,-30.627988
11.185,2.0,1.0,1.0,33.9,33.0,33.0,4.1,1.8,2.6825,0.292212362376089,-0.02980795205209183,0.93994998730476,-0.002802087623351509,-0.137237,-30.475148
11.185,2.0,1.0,1.0,33.9,33.0,33.0,4.1,1.8,2.685,0.2817716812233686,-0.03030615145358979,0.9428652709367737,-0.0032000654498309227,-0.139496,-30.32123
11.185,2.0,1.0,1.0,33.9,33.0,33.0,4.1,1.8,2.6875,0.2712163231079654,-0.03081217483153443,0.9456822549646111,-0.003614046380947602,-0.141815,-30.166212
11.185,2.0,1.0,1.0,33.9,33.0,33.0,4.1,1.8,2.69,0.2605456355459478,-0.03132611487054307,0.9483979147041537,-0.004044668037941406,-0.144197,-30.010066
11.185,2.0,1.0,1.0,33.9,33.0,33.0,4.1,1.8,2.6925,0.2497589929489846,-0.03184806221751054,0.9510091378195988,-0.00449259756287387,-0.146643,-29.852769
11.185,2.0,1.0,1.0,33.9,33.0,33.0,4.1,1.8,2.695,0.23885579874861876,-0.03237810513018762,0.9535127216373342,-0.004958533277242184,-0.149156,-29.694291
11.185,2.0,1.0,1.0,33.9,33.0,33.0,4.1,1.8,2.6975,0.22783548763454195,-0.032916329090144414,0.9559053703545969,-0.005443206455212636,-0.151739,-29.534607
11.185,2.0,1.0,1.0,33.9,33.0,33.0,4.1,1.8,2.7,0.21669752791323368,-0.033462816376324,0.9581836921357585,-0.005947383221061538,-0.154395,-29.373686
11.185,2.0,1.0,1.0,33.9,33.0,33.0,4.1,1.8,2.7025,0.20544142399370144,-0.034017645594932054,0.9603441960883565,-0.006471866581358538,-0.157126,-29.211499
11.185,2.0,1.0,1.0,33.9,33.0,33.0,4.1,1.8,2.705,0.19406671900768116,-0.03458089116088278,0.9623832891100936,-0.0070174986034659366,-0.159935,-29.048016
11.185,2.0,1.0,1.0,33.9,33.0,33.0,4.1,1.8,2.7075,0.1825729975722078,-0.035152622725428205,0.9642972725970825,-0.0075851627530901244,-0.162826,-28.883203
11.185,2.0,1.0,1.0,33.9,33.0,33.0,4.1,1.8,2.71,0.17095988870317266,-0.0357329045439135,0.966082339002523,-0.008175786404915994,-0.165801,-28.717029
11.185,2.0,1.0,1.0,33.9,33.0,33.0,4.1,1.8,2.7125,0.15922706888923444,-0.03632179477682742,0.9677345682337521,-0.008790343541792115,-0.168866,-28.549457
11.185,2.0,1.0,1.0,33.9,33.0,33.0,4.1,1.8,2.715,0.14737426533635678,-0.03691934471642509,0.9692499238742144,-0.009429857659542894,-0.172022,-28.380453
11.185,2.0,1.0,1.0,33.9,33.0,33.0,4.1,1.8,2.7175,0.1354012593941848,-0.03752559793018237,0.9706242492153636,-0.010095404896283357,-0.175275,-28.209978
11.185,2.0,1.0,1.0,33.9,33.0,33.0,4.1,1.8,2.72,0.1233078901766813,-0.03814058931116985,0.9718532630816836,-0.010788117407112165,-0.178629,-28.037995
11.185,2.0,1.0,1.0,33.9,33.0,33.0,4.1,1.8,2.7225,0.11109405839064124,-0.03876434402409099,0.972932555430055,-0.011509187007313333,-0.182087,-27.864462
11.185,2.0,1.0,1.0,33.9,33.0,33.0,4.1,1.8,2.725,0.09875973038732794,-0.03939687633417578,0.9738575827023737,-0.012259869109713809,-0.185656,-27.689337
11.185,2.0,1.0,1.0,33.9,33.0,33.0,4.1,1.8,2.7275,0.08630494245401535,-0.040038188304338654,0.9746236629078244,-0.013041486984669878,-0.189339,-27.512577
11.185,2.0,1.0,1.0,33.9,33.0,33.0,4.1,1.8,2.73,0.07372980536437061,-0.04068826834393786,0.975225970408226,-0.013855436374333466,-0.193142,-27.334136
11.185,2.0,1.0,1.0,33.9,33.0,33.0,4.1,1.8,2.7325,0.06103450920877571,-0.041347089590084825,0.9756595303765998,-0.014703190496421978,-0.197072,-27.153966
11.185,2.0,1.0,1.0,33.9,33.0,33.0,4.1,1.8,2.735,0.04821932852839332,-0.0420146080996767,0.9759192128953755,-0.015586305476735354,-0.201133,-26.972016
11.185,2.0,1.0,1.0,33.9,33.0,33.0,4.1,1.8,2.7375,0.03528462777985512,-0.042690760827101014,0.9759997266563444,-0.01650642625420424,-0.205334,-26.788236
11.185,2.0,1.0,1.0,33.9,33.0,33.0,4.1,1.8,2.74,0.022230867161056517,-0.0433754633588077,0.9758956122196667,-0.01746529300736835,-0.20968,-26.60257
11.185,2.0,1.0,1.0,33.9,33.0,33.0,4.1,1.8,2.7425,0.00905860883269422,-0.044068607371569805,0.9756012347837297,-0.01846474815697411,-0.214179,-26.414962
11.185,2.0,1.0,1.0,33.9,33.0,33.0,4.1,1.8,2.745,-0.004231476424833226,-0.04477005777613381,0.9751107764113625,-0.019506744005927345,-0.218839,-26.225351
11.185,2.0,1.0,1.0,33.9,33.0,33.0,4.1,1.8,2.7475,-0.017638602073843792,-0.04547964950197358,0.9744182276507993,-0.020593351085251593,-0.223669,-26.033675
11.185,2.0,1.0,1.0,33.9,33.0,33.0,4.1,1.8,2.75,-0.031161858148978,-0.0461971838718332,0.973517378481633,-0.0217267672831235,-0.228678,-25.839869
11.185,2.0,1.0,1.0,33.9,33.0,33.0,4.1,1.8,2.7525,-0.044800202993862656,-0.046922424506476976,0.972401808506692,-0.022909327843599343,-0.233876,-25.643863
11.185,2.0,1.0,1.0,33.9,33.0,33.0,4.1,1.8,2.755,-0.058552454335293325,-0.04765509269032648,0.9710648763002087,-0.02414351633252143,-0.239274,-25.445586
11.185,2.0,1.0,1.0,33.9,33.0,33.0,4.1,1.8,2.7575,-0.07241727961421879,-0.048394862117166655,0.9694997078104645,-0.025431976680447783,-0.244883,-25.244962
11.185,2.0,1.0,1.0,33.9,33.0,33.0,4.1,1.8,2.76,-0.08639318547950695,-0.049141352921479586,0.9676991837012797,-0.026777526426538543,-0.250715,-25.041909
11.185,2.0,1.0,1.0,33.9,33.0,33.0,4.1,1.8,2.7625,-0.10047850633478152,-0.0498941248848248,0.965655925500807,-0.02818317130340431,-0.256784,-24.836346
11.185,2.0,1.0,1.0,33.9,33.0,33.0,4.1,1.8,2.765,-0.11467139180974484,-0.05065266968746266,0.9633622804079176,-0.02965212132126299,-0.263105,-24.628182
11.185,2.0,1.0,1.0,33.9,33.0,33.0,4.1,1.8,2.7675,-0.12896979300498465,-0.05141640205252691,0.9608103045856219,-0.031187808530725544,-0.269693,-24.417325
11.185,2.0,1.0,1.0,33.9,33.0,33.0,4.1,1.8,2.77,-0.14337144733234516,-0.052184649602675645,0.9579917447470584,-0.03279390666751301,-0.276566,-24.203675
11.185,2.0,1.0,1.0,33.9,33.0,33.0,4.1,1.8,2.7725,-0.1578738617406017,-0.052956641216352816,0.9548980178121492,-0.03447435290985845,-0.283743,-23.98713
11.185,2.0,1.0,1.0,33.9,33.0,33.0,4.1,1.8,2.775,-0.17247429407734546,-0.053731493631384915,0.9515201883815644,-0.0362333720107885,-0.291243,-23.767579
11.185,2.0,1.0,1.0,33.9,33.0,33.0,4.1,1.8,2.7775,-0.1871697322909224,-0.05450819599615956,0.9478489437384345,-0.03807550310350016,-0.299089,-23.544905
11.185,2.0,1.0,1.0,33.9,33.0,33.0,4.1,1.8,2.78,-0.2019568711195325,-0.055285592011267676,0.9438745660468001,-0.04000562951932684,-0.307305,-23.318987
11.185,2.0,1.0,1.0,33.9,33.0,33.0,4.1,1.8,2.7825,-0.2168320858455353,-0.056062359234985336,0.9395869013681516,-0.042029012005072516,-0.315919,-23.089693
11.185,2.0,1.0,1.0,33.9,33.0,33.0,4.1,1.8,2.785,-0.23179140260911865,-0.056836985041498936,0.934975325062754,-0.044151325780658744,-0.32496,-22.856885
11.185,2.0,1.0,1.0,33.9,33.0,33.0,4.1,1.8,2.7875,-0.2468304646728567,-0.057607738617795536,0.9300287030798763,-0.046378701939974086,-0.334459,-22.620416
11.185,2.0,1.0,1.0,33.9,33.0,33.0,4.1,1.8,2.79,-0.2619444939033471,-0.058372638259219574,0.9247353485694645,-0.0487177737685937,-0.344454,-22.380131
11.185,2.0,1.0,1.0,33.9,33.0,33.0,4.1,1.8,2.7925,-0.27712824658176516,-0.059129413069194066,0.9190829731660553,-0.05117572863268076,-0.354983,-22.135863
11.185,2.0,1.0,1.0,33.9,33.0,33.0,4.1,1.8,2.795,-0.2923759624653699,-0.05987545797845253,0.9130586322028134,-0.05376036618498319,-0.36609,-21.887436
11.185,2.0,1.0,1.0,33.9,33.0,33.0,4.1,1.8,2.7975,-0.3076813057870135,-0.06060778076424897,0.9066486630083793,-0.05648016373738129,-0.377824,-21.634663
11.185,2.0,1.0,1.0,33.9,33.0,33.0,4.1,1.8,2.8,-0.3230372965884851,-0.06132293945894376,0.8998386153208758,-0.05934434976574278,-0.39024,-21.377341
11.185,2.0,1.0,1.0,33.9,33.0,33.0,4.1,1.8,2.8025,-0.3384362304208818,-0.0620169681753244,0.8926131727214968,-0.06236298664224604,-0.403399,-21.115258
11.185,2.0,1.0,1.0,33.9,33.0,33.0,4.1,1.8,2.805,-0.3538695839921734,-0.0626852889241225,0.8849560638449165,-0.06554706383250469,-0.417368,-20.848185
11.185,2.0,1.0,1.0,33.9,33.0,33.0,4.1,1.8,2.8075,-0.3693279037744218,-0.06332260643304405,0.8768499619667633,-0.06890860294811778,-0.432224,-20.575877
11.185,2.0,1.0,1.0,33.9,33.0,33.0,4.1,1.8,2.81,-0.3848006738684997,-0.06392278226472128,0.8682763714031697,-0.07246077620600938,-0.448053,-20.298072
11.185,2.0,1.0,1.0,33.9,33.0,33.0,4.1,1.8,2.8125,-0.40027615852206894,-0.06447868363244337,0.8592154989909018,-0.07621804000714238,-0.464953,-20.01449
11.185,2.0,1.0,1.0,33.9,33.0,33.0,4.1,1.8,2.815,-0.41574121355269905,-0.06498200117414876,0.8496461087603293,-0.08019628549685888,-0.483035,-19.72483
11.185,2.0,1.0,1.0,33.9,33.0,33.0,4.1,1.8,2.8175,-0.4311810594733324,-0.0654230284975731,0.8395453577878599,-0.08441300808717002,-0.502425,-19.42877
11.185,2.0,1.0,1.0,33.9,33.0,33.0,4.1,1.8,2.82,-0.4465790072592406,-0.06579039446190549,0.8288886111509067,-0.0888874979755884,-0.523266,-19.125962
11.185,2.0,1.0,1.0,33.9,33.0,33.0,4.1,1.8,2.8225,-0.4619161253154492,-0.0660707367949307,0.8176492339582991,-0.09364105363453103,-0.545724,-18.816033
11.185,2.0,1.0,1.0,33.9,33.0,33.0,4.1,1.8,2.825,-0.4771708331429539,-0.06624830260351358,0.8057983586715289,-0.09869721999012002,-0.569989,-18.498585
11.185,2.0,1.0,1.0,33.9,33.0,33.0,4.1,1.8,2.8275,-0.4923184032554497,-0.06630445741491295,0.793304626491349,-0.1040820524355197,-0.596282,-18.173185
