1,w,sub_t,h,l1,l2,l3,g1,g2,Freq,S11_re,S21_re,S11_img,S21_img,S11_dB,S21_dB
11.185,2.0,1.0,1.0,34.6,33.0,33.0,2.7,2.5,2.5,0.683002843955099,-0.0149381322003853,0.719182253175626,0.00703554616498627,-0.071303,-35.643997
11.185,2.0,1.0,1.0,34.6,33.0,33.0,2.7,2.5,2.5025,0.6770189850007684,-0.015193977372873129,0.7246971741038034,0.006992738446749035,-0.072077,-35.532216
11.185,2.0,1.0,1.0,34.6,33.0,33.0,2.7,2.5,2.505,0.6709578124995701,-0.015453554401291536,0.7301906484829386,0.006946704363435647,-0.072862,-35.420136
11.185,2.0,1.0,1.0,34.6,33.0,33.0,2.7,2.5,2.5075,0.6648185983067629,-0.015716908346295286,0.735661858048734,0.006897339443762192,-0.07366,-35.307754
11.185,2.0,1.0,1.0,34.6,33.0,33.0,2.7,2.5,2.51,0.6586006087350278,-0.015984084335643495,0.7411099620071698,0.006844536023464417,-0.07447,-35.195064
11.185,2.0,1.0,1.0,34.6,33.0,33.0,2.7,2.5,2.5125,0.6523031047161533,-0.01625512752885873,0.7465340964362245,0.006788183145357133,-0.075293,-35.082062
11.185,2.0,1.0,1.0,34.6,33.0,33.0,2.7,2.5,2.515,0.6459253419761224,-0.016530083079338745,0.751933373673185,0.0067281664563060735,-0.076129,-34.968744
11.185,2.0,1.0,1.0,34.6,33.0,33.0,2.7,2.5,2.5175,0.6394665712243057,-0.016808996093777492,0.7573068816872895,0.006664368101026545,-0.076978,-34.855105
11.185,2.0,1.0,1.0,34.6,33.0,33.0,2.7,2.5,2.52,0.6329260383574434,-0.01709191158874506,0.7626536834374764,0.00659666661262029,-0.077841,-34.741141
11.185,2.0,1.0,1.0,34.6,33.0,33.0,2.7,2.5,2.5225,0.626302984679194,-0.017378874444267594,0.7679728162149797,0.006524936799761879,-0.078719,-34.626846
11.185,2.0,1.0,1.0,34.6,33.0,33.0,2.7,2.5,2.525,0.61959664713599,-0.017669929354240763,0.7732632909705596,0.00644904963044267,-0.07961,-34.512217
11.185,2.0,1.0,1.0,34.6,33.0,33.0,2.7,2.5,2.5275,0.6128062585700287,-0.01796512077350191,0.778524091626135,0.006368872112180247,-0.080516,-34.397249
11.185,2.0,1.0,1.0,34.6,33.0,33.0,2.7,2.5,2.53,0.6059310479902325,-0.018264492861376224,0.7837541743705924,0.006284267168599718,-0.081438,-34.281937
11.185,2.0,1.0,1.0,34.6,33.0,33.0,2.7,2.5,2.5325,0.5989702408620592,-0.018568089421503398,0.7889524669395688,0.00619509351229047,-0.082374,-34.166276
11.185,2.0,1.0,1.0,34.6,33.0,33.0,2.7,2.5,2.535,0.5919230594170695,-0.018875953837741856,0.7941178678790077,0.0061012055138428105,-0.083327,-34.050262
11.185,2.0,1.0,1.0,34.6,33.0,33.0,2.7,2.5,2.5375,0.5847887229832179,-0.019188129005935767,0.799249245792288,0.006002453066966038,-0.084296,-33.933889
11.185,2.0,1.0,1.0,34.6,33.0,33.0,2.7,2.5,2.54,0.5775664483368447,-0.019504657261321143,0.8043454385707556,0.005898681449589152,-0.085282,-33.817154
11.185,2.0,1.0,1.0,34.6,33.0,33.0,2.7,2.5,2.5425,0.5702554500774104,-0.01982558030133458,0.8094052526074892,0.005789731180844077,-0.086285,-33.70005
11.185,2.0,1.0,1.0,34.6,33.0,33.0,2.7,2.5,2.545,0.5628549410260437,-0.020150939103576477,0.8144274619941493,0.005675437873831037,-0.087306,-33.582573
11.185,2.0,1.0,1.0,34.6,33.0,33.0,2.7,2.5,2.5475,0.5553641326490317,-0.020480773838668566,0.8194108077007665,0.005555632084064144,-0.088345,-33.464719
11.185,2.0,1.0,1.0,34.6,33.0,33.0,2.7,2.5,2.55,0.5477822355073968,-0.020815123777732536,0.8243539967383693,0.005430139153495041,-0.089402,-33.346481
11.185,2.0,1.0,1.0,34.6,33.0,33.0,2.7,2.5,2.5525,0.5401084597338004,-0.021154027194201366,0.8292557013043269,0.005298779050012349,-0.090478,-33.227856
11.185,2.0,1.0,1.0,34.6,33.0,33.0,2.7,2.5,2.555,0.5323420155380078,-0.021497521259663338,0.8341145579103548,0.0051613662023142015,-0.091574,-33.108838
11.185,2.0,1.0,1.0,34.6,33.0,33.0,2.7,2.5,2.5575,0.5244821137422294,-0.021845641933420878,0.8389291664931157,0.0050177093300502445,-0.092689,-32.989422
11.185,2.0,1.0,1.0,34.6,33.0,33.0,2.7,2.5,2.56,0.5165279663477095,-0.02219842384543252,0.8436980895073868,0.004867611269131835,-0.093825,-32.869602
11.185,2.0,1.0,1.0,34.6,33.0,33.0,2.7,2.5,2.5625,0.5084787871339639,-0.022555900172288826,0.8484198510017955,0.00471086879210704,-0.094982,-32.749374
11.185,2.0,1.0,1.0,34.6,33.0,33.0,2.7,2.5,2.565,0.5003337922921336,-0.02291810250585638,0.8530929356771527,0.004547272423499567,-0.096161,-32.628733
11.185,2.0,1.0,1.0,34.6,33.0,33.0,2.7,2.5,2.5675,0.49209220109399093,-0.023285060714205424,0.8577157879274426,0.004376606250011077,-0.097362,-32.507673
11.185,2.0,1.0,1.0,34.6,33.0,33.0,2.7,2.5,2.57,0.4837532365981623,-0.02365680279441805,0.8622868108635608,0.004198647725486916,-0.098585,-32.386188
11.185,2.0,1.0,1.0,34.6,33.0,33.0,2.7,2.5,2.5725,0.47531612639521553,-0.024033354716854697,0.8668043653199474,0.004013167470548687,-0.099831,-32.264274
11.185,2.0,1.0,1.0,34.6,33.0,33.0,2.7,2.5,2.575,0.4667801033933098,-0.024414740260434598,0.8712667688442768,0.0038199290667969943,-0.101101,-32.141924
11.185,2.0,1.0,1.0,34.6,33.0,33.0,2.7,2.5,2.5775,0.4581444066461719,-0.0248009808384654,0.8756722946704287,0.003618688845491058,-0.102396,-32.019134
11.185,2.0,1.0,1.0,34.6,33.0,33.0,2.7,2.5,2.58,0.4494082822252245,-0.025192095314533775,0.8800191706750047,0.00340919567061504,-0.103715,-31.895898
11.185,2.0,1.0,1.0,34.6,33.0,33.0,2.7,2.5,2.5825,0.4405709841377531,-0.02558809980794592,0.8843055783177073,0.003191190716242607,-0.105061,-31.772211
11.185,2.0,1.0,1.0,34.6,33.0,33.0,2.7,2.5,2.585,0.4316317752930729,-0.025989007488180834,0.8885296515659576,0.0029644072381167248,-0.106432,-31.648066
11.185,2.0,1.0,1.0,34.6,33.0,33.0,2.7,2.5,2.5875,0.42258992851871563,-0.026394828357794987,0.8926894758041712,0.002728570339363892,-0.107831,-31.523459
11.185,2.0,1.0,1.0,34.6,33.0,33.0,2.7,2.5,2.59,0.41344472762873785,-0.026805569023188175,0.8967830867281915,0.0024833967302686907,-0.109257,-31.398383
11.185,2.0,1.0,1.0,34.6,33.0,33.0,2.7,2.5,2.5925,0.4041954685463046,-0.027221232452612786,0.9008084692254388,0.0022285944820369017,-0.110712,-31.272832
11.185,2.0,1.0,1.0,34.6,33.0,33.0,2.7,2.5,2.595,0.3948414604827987,-0.02764181772077957,0.9047635562413999,0.001963862774485589,-0.112196,-31.146802
11.185,2.0,1.0,1.0,34.6,33.0,33.0,2.7,2.5,2.5975,0.3853820271757522,-0.02806731973938058,0.908646227633169,0.0016888916375993083,-0.113709,-31.020285
11.185,2.0,1.0,1.0,34.6,33.0,33.0,2.7,2.5,2.6,0.3758165081879838,-0.02849772897281947,0.9124543090108234,0.001403361686903995,-0.115254,-30.893276
11.185,2.0,1.0,1.0,34.6,33.0,33.0,2.7,2.5,2.6025,0.3661442602704173,-0.028933031138402548,0.9161855705675039,0.001106943852614295,-0.11683,-30.765769
11.185,2.0,1.0,1.0,34.6,33.0,33.0,2.7,2.5,2.605,0.3563646587910862,-0.029373206890211834,0.9198377258991725,0.0007992991025206442,-0.118438,-30.637758
11.185,2.0,1.0,1.0,34.6,33.0,33.0,2.7,2.5,2.6075,0.34647709923296255,-0.029818231485841912,0.9234084308150942,0.00048007815859000576,-0.120079,-30.509237
11.185,2.0,1.0,1.0,34.6,33.0,33.0,2.7,2.5,2.61,0.33648099876328313,-0.030268074435142983,0.9268952821402172,0.00014892120726617622,-0.121754,-30.380199
11.185,2.0,1.0,1.0,34.6,33.0,33.0,2.7,2.5,2.6125,0.3263757978771431,-0.03072269913007542,0.9302958165107165,-0.0001945423965351347,-0.123465,-30.250639
11.185,2.0,1.0,1.0,34.6,33.0,33.0,2.7,2.5,2.615,0.31616096211819217,-0.031182062454733712,0.9336075091640934,-0.000550694431728477,-0.125211,-30.120549
11.185,2.0,1.0,1.0,34.6,33.0,33.0,2.7,2.5,2.6175,0.3058359838793674,-0.03164611437455713,0.9368277727253371,-0.0009199281196377787,-0.126994,-29.989924
11.185,2.0,1.0,1.0,34.6,33.0,33.0,2.7,2.5,2.62,0.2954003842866568,-0.03211479750369508,0.9399539559907818,-0.0013026484388179282,-0.128815,-29.858757
11.185,2.0,1.0,1.0,34.6,33.0,33.0,2.7,2.5,2.6225,0.28485371516895963,-0.03258804664944832,0.9429833427114426,-0.0016992724460701653,-0.130675,-29.727041
11.185,2.0,1.0,1.0,34.6,33.0,33.0,2.7,2.5,2.625,0.274195561117224,-0.0330657883326533,0.945913150377734,-0.00211022960358603,-0.132574,-29.59477
11.185,2.0,1.0,1.0,34.6,33.0,33.0,2.7,2.5,2.6275,0.2634255416360606,-0.0335479402828267,0.9487405290076452,-0.0025359621121392477,-0.134515,-29.461937
11.185,2.0,1.0,1.0,34.6,33.0,33.0,2.7,2.5,2.63,0.25254331339116187,-0.0340344109068268,0.9514625599405964,-0.002976925250224815,-0.136497,-29.328535
11.185,2.0,1.0,1.0,34.6,33.0,33.0,2.7,2.5,2.6325,0.24154857255589485,-0.03452509872973253,0.9540762546393617,-0.003433587719027849,-0.138523,-29.194558
11.185,2.0,1.0,1.0,34.6,33.0,33.0,2.7,2.5,2.635,0.23044105726052533,-0.03501989180657636,0.9565785535026291,-0.003906431993082591,-0.140593,-29.059997
11.185,2.0,1.0,1.0,34.6,33.0,33.0,2.7,2.5,2.6375,0.21922055014760236,-0.03551866710350311,0.9589663246909378,-0.004395954676461396,-0.142709,-28.924847
11.185,2.0,1.0,1.0,34.6,33.0,33.0,2.7,2.5,2.64,0.20788688103707978,-0.03602128984685762,0.9612363629689323,-0.004902666864311542,-0.144872,-28.7891
11.185,2.0,1.0,1.0,34.6,33.0,33.0,2.7,2.5,2.6425,0.19643992970484464,-0.03652761283863066,0.963385388567083,-0.0054270945095325415,-0.147083,-28.652748
11.185,2.0,1.0,1.0,34.6,33.0,33.0,2.7,2.5,2.645,0.18487962877837621,-0.037037475736617746,0.9654100460661926,-0.005969778794362419,-0.149343,-28.515785
11.185,2.0,1.0,1.0,34.6,33.0,33.0,2.7,2.5,2.6475,0.1732059667533093,-0.03755070429756265,0.9673069033082803,-0.006531276506615088,-0.151654,-28.378202
11.185,2.0,1.0,1.0,34.6,33.0,33.0,2.7,2.5,2.65,0.16141899113474073,-0.038067109581474294,0.9690724503376029,-0.0071121604202841,-0.154018,-28.239992
11.185,2.0,1.0,1.0,34.6,33.0,33.0,2.7,2.5,2.6525,0.14951881170717904,-0.038586487115211995,0.9707030983758669,-0.00771301968019682,-0.156436,-28.101147
11.185,2.0,1.0,1.0,34.6,33.0,33.0,2.7,2.5,2.655,0.13750560393707179,-0.03910861601334208,0.9721951788358625,-0.008334460190377545,-0.158909,-27.961659
11.185,2.0,1.0,1.0,34.6,33.0,33.0,2.7,2.5,2.6575,0.1253796125118902,-0.03963325805416489,0.9735449423780714,-0.008977105005742968,-0.161439,-27.82152
11.185,2.0,1.0,1.0,34.6,33.0,33.0,2.7,2.5,2.66,0.11314115501979541,-0.040160156708701794,0.9747485580150026,-0.0096415947267231,-0.164027,-27.680723
11.185,2.0,1.0,1.0,34.6,33.0,33.0,2.7,2.5,2.6625,0.10079062577396579,-0.04068903612031916,0.9758021122683137,-0.010328587896367957,-0.166676,-27.539257
11.185,2.0,1.0,1.0,34.6,33.0,33.0,2.7,2.5,2.665,0.0883284997856276,-0.041219600032543165,0.9767016083840543,-0.011038761399464976,-0.169387,-27.397116
11.185,2.0,1.0,1.0,34.6,33.0,33.0,2.7,2.5,2.6675,0.07575533688994776,-0.041751530662483737,0.9774429656116186,-0.011772810863156732,-0.172162,-27.25429
11.185,2.0,1.0,1.0,34.6,33.0,33.0,2.7,2.5,2.67,0.06307178602889094,-0.04228448751715071,0.9780220185523332,-0.012531451058514146,-0.175003,-27.11077
11.185,2.0,1.0,1.0,34.6,33.0,33.0,2.7,2.5,2.6725,0.05027858969517686,-0.04281810614978945,0.9784345165838733,-0.013315416302481875,-0.177912,-26.966548
11.185,2.0,1.0,1.0,34.6,33.0,33.0,2.7,2.5,2.675,0.03737658854150133,-0.04335199685320297,0.9786761233670226,-0.014125460859573861,-0.18089,-26.821613
11.185,2.0,1.0,1.0,34.6,33.0,33.0,2.7,2.5,2.6775,0.024366726159157234,-0.04388574328685081,0.9787424164415981,-0.014962359342661926,-0.183941,-26.675957
11.185,2.0,1.0,1.0,34.6,33.0,33.0,2.7,2.5,2.68,0.01125005403020714,-0.0444189010343259,0.9786288869186792,-0.015826907112158787,-0.187065,-26.529571
11.185,2.0,1.0,1.0,34.6,33.0,33.0,2.7,2.5,2.6825,-0.0019722633426710106,-0.044950996087605014,0.9783309392766066,-0.016719920672856693,-0.190267,-26.382443
11.185,2.0,1.0,1.0,34.6,33.0,33.0,2.7,2.5,2.685,-0.015298943124536054,-0.04548152325424621,0.9778438912685465,-0.017642238067646764,-0.193547,-26.234563
11.185,2.0,1.0,1.0,34.6,33.0,33.0,2.7,2.5,2.6875,-0.028728578650638565,-0.04600994448346347,0.9771629739497146,-0.018594719267300698,-0.196908,-26.085923
11.185,2.0,1.0,1.0,34.6,33.0,33.0,2.7,2.5,2.69,-0.04225963373888354,-0.04653568710674456,0.9762833318327369,-0.01957824655545607,-0.200353,-25.93651
11.185,2.0,1.0,1.0,34.6,33.0,33.0,2.7,2.5,2.6925,-0.055890436808274144,-0.04705814198839102,0.9752000231798986,-0.02059372490791023,-0.203884,-25.786313
11.185,2.0,1.0,1.0,34.6,33.0,33.0,2.7,2.5,2.695,-0.06961917479923545,-0.047576661581041166,0.9739080204413901,-0.021642082365279723,-0.207505,-25.635323
11.185,2.0,1.0,1.0,34.6,33.0,33.0,2.7,2.5,2.6975,-0.08344388689187601,-0.048090557880891484,0.9724022108489887,-0.02272427039804959,-0.211218,-25.483526
11.185,2.0,1.0,1.0,34.6,33.0,33.0,2.7,2.5,2.7,-0.09736245801812424,-0.04859910027695125,0.9706773971749222,-0.023841264262987695,-0.215026,-25.330911
11.185,2.0,1.0,1.0,34.6,33.0,33.0,2.7,2.5,2.7025,-0.11137261216373928,-0.04910151328824456,0.9687282986659649,-0.024994063349864242,-0.218933,-25.177466
11.185,2.0,1.0,1.0,34.6,33.0,33.0,2.7,2.5,2.705,-0.12547190545623904,-0.04959697418241104,0.9665495521631712,-0.026183691517367873,-0.222941,-25.023178
11.185,2.0,1.0,1.0,34.6,33.0,33.0,2.7,2.5,2.7075,-0.13965771903464477,-0.05008461046864522,0.9641357134178844,-0.027411197417070633,-0.227054,-24.868035
11.185,2.0,1.0,1.0,34.6,33.0,33.0,2.7,2.5,2.71,-0.15392725169703303,-0.05056349725734699,0.9614812586150112,-0.028677654804244827,-0.231276,-24.712022
11.185,2.0,1.0,1.0,34.6,33.0,33.0,2.7,2.5,2.7125,-0.1682775123217167,-0.051032654478227024,0.9585805861147775,-0.029984162834288862,-0.23561,-24.555125
11.185,2.0,1.0,1.0,34.6,33.0,33.0,2.7,2.5,2.715,-0.18270531205781243,-0.05149104394791201,0.955428018424461,-0.03133184634346477,-0.240061,-24.397331
11.185,2.0,1.0,1.0,34.6,33.0,33.0,2.7,2.5,2.7175,-0.1972072562808293,-0.051937566277318645,0.9520178044118588,-0.032721856112594885,-0.244631,-24.238625
11.185,2.0,1.0,1.0,34.6,33.0,33.0,2.7,2.5,2.72,-0.2117797363086542,-0.052371057608196644,0.9483441217724344,-0.03415536911229772,-0.249327,-24.078991
11.185,2.0,1.0,1.0,34.6,33.0,33.0,2.7,2.5,2.7225,-0.22641892087311324,-0.05279028616727933,0.9444010797623269,-0.035633588728275364,-0.254151,-23.918414
11.185,2.0,1.0,1.0,34.6,33.0,33.0,2.7,2.5,2.725,-0.2411207473419042,-0.05319394862539708,0.9401827222095922,-0.03715774496507051,-0.259109,-23.756876
11.185,2.0,1.0,1.0,34.6,33.0,33.0,2.7,2.5,2.7275,-0.25588091268532187,-0.05358066624770655,0.9356830308161929,-0.03872909462662138,-0.264206,-23.59436
11.185,2.0,1.0,1.0,34.6,33.0,33.0,2.7,2.5,2.73,-0.2706948641816007,-0.05394898081983636,0.9308959287634365,-0.04034892147181101,-0.269447,-23.43085
11.185,2.0,1.0,1.0,34.6,33.0,33.0,2.7,2.5,2.7325,-0.28555778985411895,-0.05429735033323868,0.9258152846336591,-0.04201853634306929,-0.274837,-23.266326
11.185,2.0,1.0,1.0,34.6,33.0,33.0,2.7,2.5,2.735,-0.3004646086328297,-0.054624144411339386,0.9204349166610853,-0.04373927726590312,-0.280383,-23.100769
11.185,2.0,1.0,1.0,34.6,33.0,33.0,2.7,2.5,2.7375,-0.31540996023137186,-0.05492763945617672,0.9147485973248991,-0.045512509517014334,-0.286089,-22.934158
11.185,2.0,1.0,1.0,34.6,33.0,33.0,2.7,2.5,2.74,-0.33038819473008957,-0.055206013493080505,0.9087500582976478,-0.04733962565839289,-0.291963,-22.766474
11.185,2.0,1.0,1.0,34.6,33.0,33.0,2.7,2.5,2.7425,-0.34539336185379294,-0.05545734068854061,0.902432995762184,-0.049222045534446805,-0.298011,-22.597695
11.185,2.0,1.0,1.0,34.6,33.0,33.0,2.7,2.5,2.745,-0.3604191999314253,-0.05567958551370977,0.8957910761104856,-0.05116121622881801,-0.30424,-22.427797
11.185,2.0,1.0,1.0,34.6,33.0,33.0,2.7,2.5,2.7475,-0.3754591245227675,-0.055870596522945695,0.8888179420377803,-0.05315861197703065,-0.310658,-22.256757
11.185,2.0,1.0,1.0,34.6,33.0,33.0,2.7,2.5,2.75,-0.39050621669496,-0.0560280997133677,0.881507219045589,-0.0552157340305027,-0.317272,-22.084549
11.185,2.0,1.0,1.0,34.6,33.0,33.0,2.7,2.5,2.7525,-0.40555321092887847,-0.056149691427544675,0.8738525223675043,-0.05733411046668533,-0.324091,-21.911149
11.185,2.0,1.0,1.0,34.6,33.0,33.0,2.7,2.5,2.755,-0.42059248263206556,-0.05623283075707451,0.8658474643318507,-0.05951529593915827,-0.331125,-21.736529
11.185,2.0,1.0,1.0,34.6,33.0,33.0,2.7,2.5,2.7575,-0.4356160352311608,-0.056274831399905065,0.8574856621757432,-0.06176087136036869,-0.338381,-21.560661
11.185,2.0,1.0,1.0,34.6,33.0,33.0,2.7,2.5,2.76,-0.45061548681232466,-0.05627285291869951,0.8487607463257045,-0.06407244350828337,-0.34587,-21.383514
11.185,2.0,1.0,1.0,34.6,33.0,33.0,2.7,2.5,2.7625,-0.4655820562729236,-0.05622389134128953,0.8396663691607202,-0.0664516445465164,-0.353603,-21.205057
11.185,2.0,1.0,1.0,34.6,33.0,33.0,2.7,2.5,2.765,-0.48050654894179146,-0.05612476903717903,0.8301962142747192,-0.06890013144538933,-0.361592,-21.025259
11.185,2.0,1.0,1.0,34.6,33.0,33.0,2.7,2.5,2.7675,-0.4953793416183781,-0.05597212379606658,0.8203440062568246,-0.07141958528882394,-0.369847,-20.844083
11.185,2.0,1.0,1.0,34.6,33.0,33.0,2.7,2.5,2.77,-0.5101903669731065,-0.05576239702530118,0.8101035210095757,-0.07401171044885863,-0.378382,-20.661495
11.185,2.0,1.0,1.0,34.6,33.0,33.0,2.7,2.5,2.7725,-0.5249290972419015,-0.05549182097295178,0.7994685966276965,-0.07667823360578688,-0.38721,-20.477456
11.185,2.0,1.0,1.0,34.6,33.0,33.0,2.7,2.5,2.775,-0.5395845271372379,-0.05515640487157306,0.7884331448630664,-0.0794209025873203,-0.396347,-20.291926
11.185,2.0,1.0,1.0,34.6,33.0,33.0,2.7,2.5,2.7775,-0.5541451558856367,-0.05475191988462627,0.7769911632054729,-0.08224148499459524,-0.405807,-20.104864
11.185,2.0,1.0,1.0,34.6,33.0,33.0,2.7,2.5,2.78,-0.5685989682874937,-0.054273882722629466,0.7651367476136989,-0.08514176657607414,-0.415608,-19.916224
11.185,2.0,1.0,1.0,34.6,33.0,33.0,2.7,2.5,2.7825,-0.5829334146787744,-0.05371753777924717,0.7528641059378454,-0.08812354930217785,-0.425768,-19.72596
11.185,2.0,1.0,1.0,34.6,33.0,33.0,2.7,2.5,2.785,-0.5971353896555519,-0.0530778376184009,0.7401675720816128,-0.09118864908355463,-0.436305,-19.534024
11.185,2.0,1.0,1.0,34.6,33.0,33.0,2.7,2.5,2.7875,-0.6111912094009004,-0.05234942162177735,0.7270416209632592,-0.09433889306382853,-0.44724,-19.340362
11.185,2.0,1.0,1.0,34.6,33.0,33.0,2.7,2.5,2.79,-0.6250865874293603,-0.05152659258148217,0.7134808843461822,-0.09757611640309187,-0.458597,-19.144922
11.185,2.0,1.0,1.0,34.6,33.0,33.0,2.7,2.5,2.7925,-0.6388066085359881,-0.0506032909946259,0.6994801676254426,-0.10090215845071482,-0.470399,-18.947645
11.185,2.0,1.0,1.0,34.6,33.0,33.0,2.7,2.5,2.795,-0.6523357007053093,-0.049573066784880895,0.685034467675422,-0.10431885818463987,-0.482672,-18.74847
11.185,2.0,1.0,1.0,34.6,33.0,33.0,2.7,2.5,2.7975,-0.6656576046986995,-0.04842904813999976,0.6701389918873117,-0.10782804876834004,-0.495444,-18.547333
11.185,2.0,1.0,1.0,34.6,33.0,33.0,2.7,2.5,2.8,-0.6787553409972491,-0.04716390711333935,0.6547891785538961,-0.11143155104515019,-0.508747,-18.344167
11.185,2.0,1.0,1.0,34.6,33.0,33.0,2.7,2.5,2.8025,-0.6916111737296045,-0.045769821590961754,0.6389807187947109,-0.11513116575144296,-0.522613,-18.138899
11.185,2.0,1.0,1.0,34.6,33.0,33.0,2.7,2.5,2.805,-0.7042065711601005,-0.04423843317311907,0.6227095802584266,-0.1189286641836976,-0.537079,-17.931454
11.185,2.0,1.0,1.0,34.6,33.0,33.0,2.7,2.5,2.8075,-0.7165221622510839,-0.04256080045908476,0.6059720328930005,-0.1228257769980749,-0.552183,-17.721751
11.185,2.0,1.0,1.0,34.6,33.0,33.0,2.7,2.5,2.81,-0.7285376887433083,-0.04072734715645795,0.5887646771403231,-0.12682418075241914,-0.567969,-17.509708
11.185,2.0,1.0,1.0,34.6,33.0,33.0,2.7,2.5,2.8125,-0.7402319521190154,-0.038727804359284315,0.5710844749932176,-0.13092548171690982,-0.584484,-17.295232
11.185,2.0,1.0,1.0,34.6,33.0,33.0,2.7,2.5,2.815,-0.751582754722576,-0.036551146252544256,0.5529287844524593,-0.1351311963774967,-0.601779,-17.078231
11.185,2.0,1.0,1.0,34.6,33.0,33.0,2.7,2.5,2.8175,-0.7625668342122927,-0.03418551840270762,0.5342953980440794,-0.1394427279315177,-0.61991,-16.858604
11.185,2.0,1.0,1.0,34.6,33.0,33.0,2.7,2.5,2.82,-0.773159790402863,-0.03161815768403823,0.5151825862080789,-0.14386133792231529,-0.63894,-16.636245
11.185,2.0,1.0,1.0,34.6,33.0,33.0,2.7,2.5,2.8225,-0.7833360034304095,-0.02883530276714627,0.4955891465552446,-0.14838811197272386,-0.658937,-16.411042
11.185,2.0,1.0,1.0,34.6,33.0,33.0,2.7,2.5,2.825,-0.7930685420295507,-0.02582209395908052,0.4755144602173808,-0.15302391834788875,-0.679975,-16.182876
11.185,2.0,1.0,1.0,34.6,33.0,33.0,2.7,2.5,2.8275,-0.8023290605544997,-0.0225624610324868,0.45495855679814473,-0.15776935779593182,-0.702138,-15.951623
