1,w,sub_t,h,l1,l2,l3,g1,g2,Freq,S11_re,S21_re,S11_img,S21_img,S11_dB,S21_dB
11.185,2.0,1.0,1.0,34.3,33.7,33.7,4.2,3.0,2.5,0.739736677595007,-0.0083595055024239,0.662115628938368,0.00357758543771343,-0.06296,-40.825972
11.185,2.0,1.0,1.0,34.3,33.7,33.7,4.2,3.0,2.5025,0.7346166538948333,-0.008500363614916,0.6676872506411256,0.0035522824248483144,-0.063575,-40.712208
11.185,2.0,1.0,1.0,34.3,33.7,33.7,4.2,3.0,2.505,0.7294289034478693,-0.008643234330035056,0.6732455036842105,0.0035252933087625586,-0.0642,-40.598164
11.185,2.0,1.0,1.0,34.3,33.7,33.7,4.2,3.0,2.5075,0.7241727895732056,-0.008788145494650951,0.6787898076279733,0.003496566603905341,-0.064836,-40.483833
11.185,2.0,1.0,1.0,34.3,33.7,33.7,4.2,3.0,2.51,0.7188476689242992,-0.008935125293988174,0.6843195661983287,0.0034660492398472824,-0.065482,-40.36921
11.185,2.0,1.0,1.0,34.3,33.7,33.7,4.2,3.0,2.5125,0.7134528915166574,-0.009084202250466548,0.6898341668489398,0.003433686507751427,-0.066139,-40.254287
11.185,2.0,1.0,1.0,34.3,33.7,33.7,4.2,3.0,2.515,0.7079878007618555,-0.009235405222137234,0.6953329803118219,0.0033994220048401457,-0.066808,-40.139058
11.185,2.0,1.0,1.0,34.3,33.7,33.7,4.2,3.0,2.5175,0.7024517335082568,-0.009388763400684843,0.700815360136068,0.003363197576773644,-0.067487,-40.023516
11.185,2.0,1.0,1.0,34.3,33.7,33.7,4.2,3.0,2.52,0.6968440200887916,-0.009544306308967162,0.7062806422144337,0.003324953257850181,-0.068178,-39.907655
11.185,2.0,1.0,1.0,34.3,33.7,33.7,4.2,3.0,2.5225,0.691163984376213,-0.009702063798060266,0.7117281442974599,0.0032846272089355655,-0.068881,-39.791466
11.185,2.0,1.0,1.0,34.3,33.7,33.7,4.2,3.0,2.525,0.685410943846216,-0.009862066043776426,0.7171571654948669,0.003242155653022622,-0.069596,-39.674944
11.185,2.0,1.0,1.0,34.3,33.7,33.7,4.2,3.0,2.5275,0.67958420964886,-0.010024343542619807,0.7225669857639062,0.0031974728083179636,-0.070324,-39.558081
11.185,2.0,1.0,1.0,34.3,33.7,33.7,4.2,3.0,2.53,0.673683086688743,-0.010188927107142481,0.7279568653843639,0.0031505108187479636,-0.071064,-39.44087
11.185,2.0,1.0,1.0,34.3,33.7,33.7,4.2,3.0,2.5325,0.6677068737143961,-0.010355847860661198,0.7333260444199108,0.0031011996817688595,-0.071817,-39.323303
11.185,2.0,1.0,1.0,34.3,33.7,33.7,4.2,3.0,2.535,0.6616548634173782,-0.010525137231293877,0.7386737421654879,0.0030494671733623485,-0.072583,-39.205374
11.185,2.0,1.0,1.0,34.3,33.7,33.7,4.2,3.0,2.5375,0.6555263425416017,-0.010696826945271127,0.7439991565803971,0.002995238770089285,-0.073363,-39.087075
11.185,2.0,1.0,1.0,34.3,33.7,33.7,4.2,3.0,2.54,0.6493205920034025,-0.010870949019476009,0.749301463706788,0.0029384375680693046,-0.074156,-38.968398
11.185,2.0,1.0,1.0,34.3,33.7,33.7,4.2,3.0,2.5425,0.6430368870229262,-0.011047535753162554,0.7545798170732054,0.002878984198745898,-0.074963,-38.849336
11.185,2.0,1.0,1.0,34.3,33.7,33.7,4.2,3.0,2.545,0.6366744972674031,-0.011226619718800613,0.7598333470828719,0.00281679674128987,-0.075785,-38.729881
11.185,2.0,1.0,1.0,34.3,33.7,33.7,4.2,3.0,2.5475,0.6302326870069326,-0.011408233751990534,0.7650611603863594,0.0027517906314849516,-0.076622,-38.610025
11.185,2.0,1.0,1.0,34.3,33.7,33.7,4.2,3.0,2.55,0.6237107152833916,-0.011592410940389899,0.7702623392383295,0.002683878566931596,-0.077474,-38.48976
11.185,2.0,1.0,1.0,34.3,33.7,33.7,4.2,3.0,2.5525,0.617107836093155,-0.011779184611588011,0.7754359408379762,0.002612970408395776,-0.078341,-38.369078
11.185,2.0,1.0,1.0,34.3,33.7,33.7,4.2,3.0,2.555,0.610423298584294,-0.01196858831986269,0.7805809966528453,0.0025389730771198087,-0.079224,-38.247971
11.185,2.0,1.0,1.0,34.3,33.7,33.7,4.2,3.0,2.5575,0.6036563472689843,-0.01216065583174865,0.7856965117256696,0.002461790447901009,-0.080124,-38.12643
11.185,2.0,1.0,1.0,34.3,33.7,33.7,4.2,3.0,2.56,0.5968062222518769,-0.012355421110341847,0.790781463963868,0.002381323237734702,-0.081039,-38.004447
11.185,2.0,1.0,1.0,34.3,33.7,33.7,4.2,3.0,2.5625,0.5898721594752105,-0.012552918298261,0.7958348034113575,0.002297468889803955,-0.081972,-37.882012
11.185,2.0,1.0,1.0,34.3,33.7,33.7,4.2,3.0,2.565,0.5828533909814783,-0.012753181699181323,0.800855451502313,0.0022101214525878593,-0.082922,-37.759119
11.185,2.0,1.0,1.0,34.3,33.7,33.7,4.2,3.0,2.5675,0.5757491451945097,-0.01295624575785032,0.805842300296516,0.0021191714538452526,-0.08389,-37.635756
11.185,2.0,1.0,1.0,34.3,33.7,33.7,4.2,3.0,2.57,0.5685586472198453,-0.013162145038490787,0.8107942116959276,0.002024505769216297,-0.084877,-37.511916
11.185,2.0,1.0,1.0,34.3,33.7,33.7,4.2,3.0,2.5725,0.5612811191653287,-0.01337091420148876,0.8157100166421214,0.0019260074851699892,-0.085881,-37.387589
11.185,2.0,1.0,1.0,34.3,33.7,33.7,4.2,3.0,2.575,0.5539157804828772,-0.013582587978258625,0.820588514294208,0.001823555756006882,-0.086905,-37.262765
11.185,2.0,1.0,1.0,34.3,33.7,33.7,4.2,3.0,2.5775,0.5464618483324367,-0.013797201144170336,0.8254284711868722,0.0017170256546102474,-0.087949,-37.137436
11.185,2.0,1.0,1.0,34.3,33.7,33.7,4.2,3.0,2.58,0.5389185379691595,-0.014014788489415413,0.8302286203681644,0.0016062880166189126,-0.089012,-37.01159
11.185,2.0,1.0,1.0,34.3,33.7,33.7,4.2,3.0,2.5825,0.5312850631548871,-0.014235384787682053,0.8349876605166602,0.0014912092776740585,-0.090097,-36.885219
11.185,2.0,1.0,1.0,34.3,33.7,33.7,4.2,3.0,2.585,0.5235606365950757,-0.014459024762499145,0.8397042550376148,0.001371651303370214,-0.091202,-36.758311
11.185,2.0,1.0,1.0,34.3,33.7,33.7,4.2,3.0,2.5875,0.5157444704023261,-0.01468574305110092,0.8443770311377468,0.0012474712115172427,-0.092329,-36.630857
11.185,2.0,1.0,1.0,34.3,33.7,33.7,4.2,3.0,2.59,0.5078357765877535,-0.014915574165653029,0.8490045788782501,0.001118521186292867,-0.093478,-36.502846
11.185,2.0,1.0,1.0,34.3,33.7,33.7,4.2,3.0,2.5925,0.4998337675814567,-0.015148552451671037,0.8535854502056783,0.0009846482838395598,-0.09465,-36.374267
11.185,2.0,1.0,1.0,34.3,33.7,33.7,4.2,3.0,2.595,0.4917376567834213,-0.01538471204344899,0.8581181579602932,0.0008456942288277063,-0.095845,-36.245109
11.185,2.0,1.0,1.0,34.3,33.7,33.7,4.2,3.0,2.5975,0.483546659146214,-0.015624086816304684,0.8626011748615213,0.0007014952014756737,-0.097064,-36.115361
11.185,2.0,1.0,1.0,34.3,33.7,33.7,4.2,3.0,2.6,0.475259991790908,-0.0158667103354337,0.8670329324701096,0.0005518816144816102,-0.098307,-35.985011
11.185,2.0,1.0,1.0,34.3,33.7,33.7,4.2,3.0,2.6025,0.46687687465772465,-0.01611261580114877,0.8714118201266018,0.000396677879285507,-0.099576,-35.854048
11.185,2.0,1.0,1.0,34.3,33.7,33.7,4.2,3.0,2.605,0.45839653119292306,-0.01636183599026645,0.8757361838657447,0.00023570216103634644,-0.100871,-35.722458
11.185,2.0,1.0,1.0,34.3,33.7,33.7,4.2,3.0,2.6075,0.44981818907355037,-0.016614403193383916,0.8800043253064243,6.87661215985828e-05,-0.102192,-35.590231
11.185,2.0,1.0,1.0,34.3,33.7,33.7,4.2,3.0,2.61,0.44114108097171434,-0.016870349147770126,0.8842145005167327,-0.00010432535011943422,-0.103541,-35.457353
11.185,2.0,1.0,1.0,34.3,33.7,33.7,4.2,3.0,2.6125,0.4323644453601083,-0.017129704965575625,0.888364918853761,-0.00028377442128216197,-0.104918,-35.323811
11.185,2.0,1.0,1.0,34.3,33.7,33.7,4.2,3.0,2.615,0.42348752736057543,-0.01739250105704079,0.8924537417777079,-0.0004697906125129783,-0.106323,-35.189592
11.185,2.0,1.0,1.0,34.3,33.7,33.7,4.2,3.0,2.6175,0.41450957963759233,-0.017658767048359277,0.8964790816398834,-0.0006625911104363635,-0.107759,-35.054682
11.185,2.0,1.0,1.0,34.3,33.7,33.7,4.2,3.0,2.62,0.4054298633385991,-0.01792853169382498,0.9004390004441666,-0.0008624010963268241,-0.109224,-34.919068
11.185,2.0,1.0,1.0,34.3,33.7,33.7,4.2,3.0,2.6225,0.3962476490831845,-0.018201822781861797,0.9043315085814914,-0.001069454091891677,-0.110721,-34.782736
11.185,2.0,1.0,1.0,34.3,33.7,33.7,4.2,3.0,2.625,0.386962218003232,-0.0184786670345028,0.908154563536877,-0.00128399232328985,-0.112251,-34.645669
11.185,2.0,1.0,1.0,34.3,33.7,33.7,4.2,3.0,2.6275,0.3775728628361645,-0.01875908999984922,0.9119060685685655,-0.001506267104577544,-0.113813,-34.507854
11.185,2.0,1.0,1.0,34.3,33.7,33.7,4.2,3.0,2.63,0.36807888907357567,-0.01904311593700111,0.9155838713587158,-0.0017365392418650393,-0.11541,-34.369275
11.185,2.0,1.0,1.0,34.3,33.7,33.7,4.2,3.0,2.6325,0.358479616167556,-0.0193307676929075,0.9191857626351797,-0.001975079459569821,-0.117042,-34.229916
11.185,2.0,1.0,1.0,34.3,33.7,33.7,4.2,3.0,2.635,0.34877437879716705,-0.019622066570536428,0.9227094747637699,-0.002222168850265298,-0.118709,-34.08976
11.185,2.0,1.0,1.0,34.3,33.7,33.7,4.2,3.0,2.6375,0.33896252819757844,-0.019917032187712392,0.9261526803104444,-0.002478099349744202,-0.120415,-33.948791
11.185,2.0,1.0,1.0,34.3,33.7,33.7,4.2,3.0,2.64,0.329043433554489,-0.020215682325910964,0.9295129905727652,-0.002743174239052396,-0.122158,-33.806992
11.185,2.0,1.0,1.0,34.3,33.7,33.7,4.2,3.0,2.6425,0.3190164834665668,-0.02051803276823498,0.9327879540799542,-0.003017708675391529,-0.123941,-33.664344
11.185,2.0,1.0,1.0,34.3,33.7,33.7,4.2,3.0,2.645,0.3088810874787473,-0.020824097125725975,0.9359750550607826,-0.0033020302539530557,-0.125765,-33.520829
11.185,2.0,1.0,1.0,34.3,33.7,33.7,4.2,3.0,2.6475,0.2986366776893451,-0.021133886651084514,0.9390717118784944,-0.0035964796029200456,-0.127631,-33.376428
11.185,2.0,1.0,1.0,34.3,33.7,33.7,4.2,3.0,2.65,0.2882827104340349,-0.02144741003878531,0.9420752754318633,-0.0039014110140650968,-0.12954,-33.231122
11.185,2.0,1.0,1.0,34.3,33.7,33.7,4.2,3.0,2.6525,0.2778186680499533,-0.02176467321047437,0.9449830275213806,-0.004217193111588797,-0.131494,-33.084891
11.185,2.0,1.0,1.0,34.3,33.7,33.7,4.2,3.0,2.655,0.26724406072321516,-0.02208567908442582,0.9477921791794773,-0.004544209562071656,-0.133494,-32.937713
11.185,2.0,1.0,1.0,34.3,33.7,33.7,4.2,3.0,2.6575,0.2565584284233734,-0.022410427327714165,0.9504998689635654,-0.00488285982867201,-0.135542,-32.789568
11.185,2.0,1.0,1.0,34.3,33.7,33.7,4.2,3.0,2.66,0.24576134292845253,-0.0227389140896203,0.9531031612104851,-0.005233559972984401,-0.13764,-32.640433
11.185,2.0,1.0,1.0,34.3,33.7,33.7,4.2,3.0,2.6625,0.23485240994439696,-0.023071131714636966,0.9555990442508466,-0.00559674350828315,-0.139788,-32.490285
11.185,2.0,1.0,1.0,34.3,33.7,33.7,4.2,3.0,2.665,0.22383127132291655,-0.0234070684332672,0.9579844285814969,-0.005972862308221429,-0.141989,-32.339101
11.185,2.0,1.0,1.0,34.3,33.7,33.7,4.2,3.0,2.6675,0.21269760738196086,-0.023746708028617017,0.9602561449941547,-0.006362387575434003,-0.144244,-32.186855
11.185,2.0,1.0,1.0,34.3,33.7,33.7,4.2,3.0,2.67,0.20145113933323372,-0.024090029476565838,0.9624109426579793,-0.006765810874911971,-0.146555,-32.033523
11.185,2.0,1.0,1.0,34.3,33.7,33.7,4.2,3.0,2.6725,0.1900916318214123,-0.02443700655705547,0.9644454871535443,-0.007183645237482922,-0.148925,-31.879079
11.185,2.0,1.0,1.0,34.3,33.7,33.7,4.2,3.0,2.675,0.1786188955800244,-0.024787607433761568,0.9663563584553397,-0.007616426339241009,-0.151356,-31.723494
11.185,2.0,1.0,1.0,34.3,33.7,33.7,4.2,3.0,2.6775,0.16703279020917083,-0.02514179419910119,0.9681400488595744,-0.008064713763344118,-0.153849,-31.566741
11.185,2.0,1.0,1.0,34.3,33.7,33.7,4.2,3.0,2.68,0.15533322708067793,-0.025499522381179307,0.9697929608535208,-0.008529092351226345,-0.156407,-31.408791
11.185,2.0,1.0,1.0,34.3,33.7,33.7,4.2,3.0,2.6825,0.1435201723765716,-0.025860740408876537,0.971311404922235,-0.009010173650973759,-0.159032,-31.249612
11.185,2.0,1.0,1.0,34.3,33.7,33.7,4.2,3.0,2.685,0.1315936502672012,-0.026225389030831717,0.9726915972878084,-0.009508597471396082,-0.161727,-31.089174
11.185,2.0,1.0,1.0,34.3,33.7,33.7,4.2,3.0,2.6875,0.119553746235772,-0.0265934006835565,0.973929657575718,-0.0100250335511909,-0.164494,-30.927444
11.185,2.0,1.0,1.0,34.3,33.7,33.7,4.2,3.0,2.69,0.10740061055662296,-0.026964698803337746,0.9750216064020111,-0.010560183353566711,-0.167337,-30.764387
11.185,2.0,1.0,1.0,34.3,33.7,33.7,4.2,3.0,2.6925,0.09513446193506893,-0.027339197075916487,0.9759633628742612,-0.011114781997769803,-0.170258,-30.599968
11.185,2.0,1.0,1.0,34.3,33.7,33.7,4.2,3.0,2.695,0.08275559131742931,-0.027716798617174014,0.9767507419981803,-0.011689600340162828,-0.173261,-30.434149
11.185,2.0,1.0,1.0,34.3,33.7,33.7,4.2,3.0,2.6975,0.07026436588048396,-0.028097395077187583,0.9773794519806995,-0.012285447218849166,-0.176348,-30.266893
11.185,2.0,1.0,1.0,34.3,33.7,33.7,4.2,3.0,2.7,0.05766123321060796,-0.028480865659023896,0.9778450914189958,-0.012903171877342906,-0.179524,-30.098159
11.185,2.0,1.0,1.0,34.3,33.7,33.7,4.2,3.0,2.7025,0.04494672568372244,-0.028867076042500935,0.9781431463635295,-0.013543666584470891,-0.182791,-29.927905
11.185,2.0,1.0,1.0,34.3,33.7,33.7,4.2,3.0,2.705,0.032121465058453924,-0.02925587720183851,0.9782689872414415,-0.014207869469578622,-0.186155,-29.756088
11.185,2.0,1.0,1.0,34.3,33.7,33.7,4.2,3.0,2.7075,0.019186167296137535,-0.02964710410461452,0.9782178656248126,-0.014896767594242888,-0.189618,-29.582661
11.185,2.0,1.0,1.0,34.3,33.7,33.7,4.2,3.0,2.71,0.006141647622964478,-0.030040574277707302,0.9779849108260488,-0.015611400284068117,-0.193186,-29.407578
11.185,2.0,1.0,1.0,34.3,33.7,33.7,4.2,3.0,2.7125,-0.0070111741487808524,-0.03043608622390378,0.9775651263002884,-0.016352862746833955,-0.196863,-29.230788
11.185,2.0,1.0,1.0,34.3,33.7,33.7,4.2,3.0,2.715,-0.020271268021196064,-0.03083341767053633,0.9769533858318158,-0.017122310006279996,-0.200654,-29.052239
11.185,2.0,1.0,1.0,34.3,33.7,33.7,4.2,3.0,2.7175,-0.03363748791146591,-0.0312323236288285,0.9761444294783479,-0.017920961184222126,-0.204564,-28.871877
11.185,2.0,1.0,1.0,34.3,33.7,33.7,4.2,3.0,2.72,-0.047108565428331285,-0.03163253423951408,0.9751328592433448,-0.018750104167543337,-0.2086,-28.689643
11.185,2.0,1.0,1.0,34.3,33.7,33.7,4.2,3.0,2.7225,-0.060683103296653405,-0.03203375237667619,0.9739131344423481,-0.019611100700955578,-0.212767,-28.505479
11.185,2.0,1.0,1.0,34.3,33.7,33.7,4.2,3.0,2.725,-0.07435956839836162,-0.032435650977527423,0.9724795667246061,-0.020505391951348116,-0.217072,-28.319321
11.185,2.0,1.0,1.0,34.3,33.7,33.7,4.2,3.0,2.7275,-0.0881362843936423,-0.032837870060929475,0.9708263147057968,-0.021434504595126087,-0.221522,-28.131104
11.185,2.0,1.0,1.0,34.3,33.7,33.7,4.2,3.0,2.73,-0.10201142388064785,-0.03324001339168422,0.9689473781614394,-0.022400057486273207,-0.226124,-27.940757
11.185,2.0,1.0,1.0,34.3,33.7,33.7,4.2,3.0,2.7325,-0.1159830000457632,-0.03364164474086873,0.966836591723507,-0.02340376897006973,-0.230886,-27.748209
11.185,2.0,1.0,1.0,34.3,33.7,33.7,4.2,3.0,2.735,-0.13004885774885636,-0.034042283684547384,0.9644876180146396,-0.024447464915583608,-0.235817,-27.553381
11.185,2.0,1.0,1.0,34.3,33.7,33.7,4.2,3.0,2.7375,-0.14420666397902668,-0.03444140087383996,0.961893940145024,-0.025533087549377373,-0.240926,-27.356194
11.185,2.0,1.0,1.0,34.3,33.7,33.7,4.2,3.0,2.74,-0.15845389760580386,-0.03483841269828823,0.9590488534864269,-0.026662705183506,-0.246223,-27.156562
11.185,2.0,1.0,1.0,34.3,33.7,33.7,4.2,3.0,2.7425,-0.17278783833806344,-0.03523267525140177,0.9559454566255832,-0.027838522943020826,-0.251719,-26.954395
11.185,2.0,1.0,1.0,34.3,33.7,33.7,4.2,3.0,2.745,-0.18720555478804946,-0.03562347749177528,0.9525766413852405,-0.02906289461207089,-0.257425,-26.749599
11.185,2.0,1.0,1.0,34.3,33.7,33.7,4.2,3.0,2.7475,-0.20170389151980617,-0.03601003347475052,0.9489350817850204,-0.03033833573357037,-0.263355,-26.542074
11.185,2.0,1.0,1.0,34.3,33.7,33.7,4.2,3.0,2.75,-0.216279454939979,-0.0363914735076433,0.945013221795854,-0.0316675381155867,-0.269522,-26.331715
11.185,2.0,1.0,1.0,34.3,33.7,33.7,4.2,3.0,2.7525,-0.23092859786315406,-0.0367668340553074,0.9408032617205572,-0.033053385918456024,-0.27594,-26.118408
11.185,2.0,1.0,1.0,34.3,33.7,33.7,4.2,3.0,2.755,-0.24564740255290876,-0.037135046191356456,0.9362971430087234,-0.0344989735205565,-0.282627,-25.902036
11.185,2.0,1.0,1.0,34.3,33.7,33.7,4.2,3.0,2.7575,-0.2604316620024377,-0.037494922352553264,0.931486531286082,-0.03600762538814553,-0.2896,-25.682474
11.185,2.0,1.0,1.0,34.3,33.7,33.7,4.2,3.0,2.76,-0.2752768591734481,-0.03784514110829167,0.9263627973462514,-0.03758291820622299,-0.296878,-25.459589
11.185,2.0,1.0,1.0,34.3,33.7,33.7,4.2,3.0,2.7625,-0.2901781438573417,-0.03818422960198764,0.9209169958157009,-0.0392287055636585,-0.304483,-25.233239
11.185,2.0,1.0,1.0,34.3,33.7,33.7,4.2,3.0,2.765,-0.3051303067560516,-0.038510543254333895,0.9151398411600372,-0.04094914552749376,-0.312438,-25.003274
11.185,2.0,1.0,1.0,34.3,33.7,33.7,4.2,3.0,2.7675,-0.3201277502989147,-0.03882224223702986,0.9090216806506997,-0.04274873148921727,-0.320768,-24.769536
11.185,2.0,1.0,1.0,34.3,33.7,33.7,4.2,3.0,2.77,-0.33516445561268693,-0.039117264126274934,0.9025524638547553,-0.044632326720766634,-0.329502,-24.531854
11.185,2.0,1.0,1.0,34.3,33.7,33.7,4.2,3.0,2.7725,-0.3502339449399442,-0.03939329202364065,0.8957217081458009,-0.04660520314101157,-0.338671,-24.290047
11.185,2.0,1.0,1.0,34.3,33.7,33.7,4.2,3.0,2.775,-0.365329238651541,-0.03964771728235815,0.8885184596600337,-0.048673084865521986,-0.34831,-24.043924
11.185,2.0,1.0,1.0,34.3,33.7,33.7,4.2,3.0,2.7775,-0.3804428058132909,-0.03987759579250102,0.8809312490370522,-0.0508421971945784,-0.358457,-23.793277
11.185,2.0,1.0,1.0,34.3,33.7,33.7,4.2,3.0,2.78,-0.3955665070378615,-0.04007959654998945,0.8729480411890904,-0.05311932178761382,-0.369156,-23.537888
11.185,2.0,1.0,1.0,34.3,33.7,33.7,4.2,3.0,2.7825,-0.4106915280670924,-0.040249940950209825,0.8645561782341393,-0.05551185887740671,-0.380453,-23.277521
11.185,2.0,1.0,1.0,34.3,33.7,33.7,4.2,3.0,2.785,-0.42580830217341614,-0.04038433089244408,0.8557423146072898,-0.05802789749484565,-0.392403,-23.011924
11.185,2.0,1.0,1.0,34.3,33.7,33.7,4.2,3.0,2.7875,-0.4409064190217912,-0.0404778633369615,0.846492343230857,-0.06067629480468031,-0.405065,-22.740826
11.185,2.0,1.0,1.0,34.3,33.7,33.7,4.2,3.0,2.79,-0.45597451707059744,-0.0405249283975565,0.8367913114786537,-0.06346676579299781,-0.418508,-22.463939
11.185,2.0,1.0,1.0,34.3,33.7,33.7,4.2,3.0,2.7925,-0.4710001558782984,-0.040519087345934166,0.8266233255165492,-0.06640998469480859,-0.432808,-22.180952
11.185,2.0,1.0,1.0,34.3,33.7,33.7,4.2,3.0,2.795,-0.4859696637792303,-0.04045292600802038,0.8159714414464705,-0.06951769969859135,-0.448051,-21.891528
11.185,2.0,1.0,1.0,34.3,33.7,33.7,4.2,3.0,2.7975,-0.5008679552403155,-0.040317877890035735,0.8048175415359513,-0.07280286260233822,-0.464336,-21.595308
11.185,2.0,1.0,1.0,34.3,33.7,33.7,4.2,3.0,2.8,-0.5156783107359525,-0.0401040099101952,0.7931421936993026,-0.07627977520315134,-0.481776,-21.291903
11.185,2.0,1.0,1.0,34.3,33.7,33.7,4.2,3.0,2.8025,-0.530382110082502,-0.039799761732559794,0.7809244923415262,-0.07996425424784899,-0.5005,-20.980895
11.185,2.0,1.0,1.0,34.3,33.7,33.7,4.2,3.0,2.805,-0.5449585077254937,-0.03939162727331983,0.7681418787331943,-0.08387381670428733,-0.520657,-20.661829
11.185,2.0,1.0,1.0,34.3,33.7,33.7,4.2,3.0,2.8075,-0.5593840352980378,-0.03886376380433478,0.7547699393349275,-0.08802788685103205,-0.542419,-20.334218
11.185,2.0,1.0,1.0,34.3,33.7,33.7,4.2,3.0,2.81,-0.5736321126356309,-0.038197509984534854,0.740782181062069,-0.09244802609880284,-0.565985,-19.997531
11.185,2.0,1.0,1.0,34.3,33.7,33.7,4.2,3.0,2.8125,-0.587672443031635,-0.0373707888008631,0.726149783575052,-0.0971581853501038,-0.591587,-19.651194
11.185,2.0,1.0,1.0,34.3,33.7,33.7,4.2,3.0,2.815,-0.6014702614365673,-0.03635736438949737,0.710841330614461,-0.10218497775935202,-0.619499,-19.294587
11.185,2.0,1.0,1.0,34.3,33.7,33.7,4.2,3.0,2.8175,-0.6149853949971118,-0.035125912494962816,0.6948225256671869,-0.10755796648191915,-0.650042,-18.927037
11.185,2.0,1.0,1.0,34.3,33.7,33.7,4.2,3.0,2.82,-0.6281710830767526,-0.03363885219828783,0.6780559026286807,-0.11330995662400445,-0.683597,-18.547813
11.185,2.0,1.0,1.0,34.3,33.7,33.7,4.2,3.0,2.8225,-0.6409724877633712,-0.03185087058176636,0.6605005508391426,-0.11947727191073658,-0.720619,-18.156125
11.185,2.0,1.0,1.0,34.3,33.7,33.7,4.2,3.0,2.825,-0.6533248046606702,-0.029707051024398735,0.6421118878476918,-0.12609998266138037,-0.761651,-17.751119
11.185,2.0,1.0,1.0,34.3,33.7,33.7,4.2,3.0,2.8275,-0.6651508560274656,-0.02714048840929248,0.6228415355494858,-0.13322202946863962,-0.80735,-17.331872
