1,w,sub_t,h,l1,l2,l3,g1,g2,Freq,S11_re,S21_re,S11_img,S21_img,S11_dB,S21_dB
11.185,2.0,1.0,1.0,33.6,34.3,34.3,2.8,1.8,2.5,0.833072442205246,-0.012065111642804,0.539630502848628,0.0108566901963729,-0.064708,-35.793271
11.185,2.0,1.0,1.0,33.6,34.3,34.3,2.8,1.8,2.5025,0.8292693254830027,-0.012331990231920874,0.5453054745876575,0.010927678371330527,-0.065436,-35.662427
11.185,2.0,1.0,1.0,33.6,34.3,34.3,2.8,1.8,2.505,0.8254085408003263,-0.012604674290283594,0.5509789956638232,0.01099813575926444,-0.06618,-35.530952
11.185,2.0,1.0,1.0,33.6,34.3,34.3,2.8,1.8,2.5075,0.8214894370543817,-0.012883319207379387,0.5566507779411998,0.011068015324870412,-0.066939,-35.39883
11.185,2.0,1.0,1.0,33.6,34.3,34.3,2.8,1.8,2.51,0.8175113503348054,-0.013168085758976973,0.56232052378024,0.011137267567289288,-0.067714,-35.266047
11.185,2.0,1.0,1.0,33.6,34.3,34.3,2.8,1.8,2.5125,0.8134736035876903,-0.013459140338588202,0.5679879256828217,0.011205840382530849,-0.068506,-35.132589
11.185,2.0,1.0,1.0,33.6,34.3,34.3,2.8,1.8,2.515,0.809375506266849,-0.013756655200847553,0.573652665922041,0.011273678917253956,-0.069316,-34.99844
11.185,2.0,1.0,1.0,33.6,34.3,34.3,2.8,1.8,2.5175,0.8052163539716894,-0.01406080871752722,0.5793144161559045,0.011340725413285627,-0.070144,-34.863584
11.185,2.0,1.0,1.0,33.6,34.3,34.3,2.8,1.8,2.52,0.8009954280709601,-0.014371785646952625,0.5849728370240644,0.011406919042213609,-0.07099,-34.728007
11.185,2.0,1.0,1.0,33.6,34.3,34.3,2.8,1.8,2.5225,0.7967119953116062,-0.01468977741763696,0.5906275777266216,0.011472195729331504,-0.071855,-34.591691
11.185,2.0,1.0,1.0,33.6,34.3,34.3,2.8,1.8,2.525,0.7923653074118884,-0.015014982427010189,0.5962782755840117,0.01153648796615724,-0.07274,-34.454621
11.185,2.0,1.0,1.0,33.6,34.3,34.3,2.8,1.8,2.5275,0.7879546006378864,-0.015347606356179969,0.6019245555768871,0.011599724610681577,-0.073645,-34.316778
11.185,2.0,1.0,1.0,33.6,34.3,34.3,2.8,1.8,2.53,0.7834790953624324,-0.0156878625017272,0.6075660298648203,0.011661830674431342,-0.074571,-34.178146
11.185,2.0,1.0,1.0,33.6,34.3,34.3,2.8,1.8,2.5325,0.7789379956054587,-0.01603597212561107,0.6132022972826019,0.0117227270953572,-0.075519,-34.038707
11.185,2.0,1.0,1.0,33.6,34.3,34.3,2.8,1.8,2.535,0.7743304885546572,-0.016392164824336905,0.618832942812784,0.01178233049546992,-0.076489,-33.898443
11.185,2.0,1.0,1.0,33.6,34.3,34.3,2.8,1.8,2.5375,0.769655744065296,-0.016756678918620378,0.6244575370330305,0.011840552922057232,-0.077483,-33.757334
11.185,2.0,1.0,1.0,33.6,34.3,34.3,2.8,1.8,2.54,0.7649129141379177,-0.01712976186487618,0.6300756355367279,0.011897301571213,-0.0785,-33.615362
11.185,2.0,1.0,1.0,33.6,34.3,34.3,2.8,1.8,2.5425,0.7601011323725801,-0.017511670689953126,0.635686778325185,0.011952478492298378,-0.079542,-33.472506
11.185,2.0,1.0,1.0,33.6,34.3,34.3,2.8,1.8,2.545,0.7552195133981815,-0.01790267245064593,0.6412904891696237,0.012005980271833394,-0.08061,-33.328748
11.185,2.0,1.0,1.0,33.6,34.3,34.3,2.8,1.8,2.5475,0.7502671522753175,-0.018303044719626044,0.6468862749410036,0.012057697695183925,-0.081705,-33.184065
11.185,2.0,1.0,1.0,33.6,34.3,34.3,2.8,1.8,2.55,0.745243123870975,-0.01871307609956061,0.6524736249056008,0.012107515384261287,-0.082827,-33.038436
11.185,2.0,1.0,1.0,33.6,34.3,34.3,2.8,1.8,2.5525,0.7401464822032751,-0.019133066767319552,0.6580520099840345,0.012155311409289563,-0.083977,-32.891841
11.185,2.0,1.0,1.0,33.6,34.3,34.3,2.8,1.8,2.555,0.7349762597542974,-0.01956332905032006,0.6636208819713005,0.012200956872518362,-0.085157,-32.744255
11.185,2.0,1.0,1.0,33.6,34.3,34.3,2.8,1.8,2.5575,0.729731466748893,-0.020004188037213017,0.6691796727151321,0.012244315461560507,-0.086368,-32.595656
11.185,2.0,1.0,1.0,33.6,34.3,34.3,2.8,1.8,2.56,0.7244110903972207,-0.020455982225289375,0.6747277932497744,0.01228524296981799,-0.087611,-32.446021
11.185,2.0,1.0,1.0,33.6,34.3,34.3,2.8,1.8,2.5625,0.7190140940985578,-0.020919064207170383,0.6802646328820249,0.01232358678121879,-0.088886,-32.295324
11.185,2.0,1.0,1.0,33.6,34.3,34.3,2.8,1.8,2.565,0.7135394166037362,-0.021393801399548183,0.6857895582261089,0.012359185316221787,-0.090196,-32.14354
11.185,2.0,1.0,1.0,33.6,34.3,34.3,2.8,1.8,2.5675,0.7079859711333619,-0.0218805768169649,0.6913019121836351,0.012391867435754128,-0.091541,-31.990644
11.185,2.0,1.0,1.0,33.6,34.3,34.3,2.8,1.8,2.57,0.7023526444487105,-0.022379789893857145,0.6968010128645592,0.012421451799417544,-0.092923,-31.836609
11.185,2.0,1.0,1.0,33.6,34.3,34.3,2.8,1.8,2.5725,0.6966382958719656,-0.02289185735835567,0.7022861524446945,0.012447746173940817,-0.094344,-31.681408
11.185,2.0,1.0,1.0,33.6,34.3,34.3,2.8,1.8,2.575,0.6908417562521727,-0.023417214161614075,0.7077565959548917,0.012470546687453853,-0.095805,-31.525011
11.185,2.0,1.0,1.0,33.6,34.3,34.3,2.8,1.8,2.5775,0.6849618268729877,-0.023956314466750464,0.713211579996555,0.012489637024711375,-0.097307,-31.36739
11.185,2.0,1.0,1.0,33.6,34.3,34.3,2.8,1.8,2.58,0.6789972782979639,-0.024509632701826493,0.7186503113776331,0.012504787557899816,-0.098852,-31.208515
11.185,2.0,1.0,1.0,33.6,34.3,34.3,2.8,1.8,2.5825,0.6729468491487554,-0.025077664681656304,0.7240719656626787,0.012515754407106207,-0.100442,-31.048354
11.185,2.0,1.0,1.0,33.6,34.3,34.3,2.8,1.8,2.585,0.6668092448112347,-0.02566092880364243,0.7294756856299056,0.012522278423911123,-0.10208,-30.886875
11.185,2.0,1.0,1.0,33.6,34.3,34.3,2.8,1.8,2.5875,0.660583136064066,-0.02625996732327618,0.7348605796274844,0.012524084090879687,-0.103766,-30.724046
11.185,2.0,1.0,1.0,33.6,34.3,34.3,2.8,1.8,2.59,0.6542671576238293,-0.026875347715422437,0.7402257198205185,0.012520878328951523,-0.105503,-30.559831
11.185,2.0,1.0,1.0,33.6,34.3,34.3,2.8,1.8,2.5925,0.6478599066002453,-0.02750766412803593,0.7455701403192593,0.012512349203870699,-0.107294,-30.394196
11.185,2.0,1.0,1.0,33.6,34.3,34.3,2.8,1.8,2.595,0.6413599408545172,-0.028157538935531416,0.7508928351781249,0.012498164521827651,-0.10914,-30.227104
11.185,2.0,1.0,1.0,33.6,34.3,34.3,2.8,1.8,2.5975,0.6347657772531358,-0.028825624399662263,0.7561927562539924,0.012477970303401194,-0.111045,-30.058517
11.185,2.0,1.0,1.0,33.6,34.3,34.3,2.8,1.8,2.6,0.6280758898088613,-0.02951260444645281,0.7614688109109776,0.012451389123667054,-0.11301,-29.888396
11.185,2.0,1.0,1.0,33.6,34.3,34.3,2.8,1.8,2.6025,0.6212887076998224,-0.030219196568483576,0.7667198595575073,0.012418018304970599,-0.115039,-29.716699
11.185,2.0,1.0,1.0,33.6,34.3,34.3,2.8,1.8,2.605,0.6144026131568472,-0.03094615386266035,0.7719447129999455,0.012377427947310147,-0.117135,-29.543387
11.185,2.0,1.0,1.0,33.6,34.3,34.3,2.8,1.8,2.6075,0.6074159392082648,-0.031694267214502345,0.777142129595228,0.012329158779537077,-0.1193,-29.368413
11.185,2.0,1.0,1.0,33.6,34.3,34.3,2.8,1.8,2.61,0.6003269672704115,-0.03246436764098117,0.7823108121829743,0.012272719812604497,-0.121539,-29.191734
11.185,2.0,1.0,1.0,33.6,34.3,34.3,2.8,1.8,2.6125,0.5931339245709997,-0.033257328805029775,0.7874494047752766,0.012207585773865182,-0.123854,-29.013303
11.185,2.0,1.0,1.0,33.6,34.3,34.3,2.8,1.8,2.615,0.5858349813913174,-0.034074069716037415,0.792556488979803,0.012133194298893358,-0.12625,-28.833071
11.185,2.0,1.0,1.0,33.6,34.3,34.3,2.8,1.8,2.6175,0.5784282481119357,-0.0349155576319501,0.7976305801289415,0.012048942854432625,-0.12873,-28.650987
11.185,2.0,1.0,1.0,33.6,34.3,34.3,2.8,1.8,2.62,0.5709117720451627,-0.03578281118003192,0.802670123084399,0.0119541853628125,-0.1313,-28.466999
11.185,2.0,1.0,1.0,33.6,34.3,34.3,2.8,1.8,2.6225,0.563283534035921,-0.03667690371491035,0.8076734876829409,0.011848228494461543,-0.133963,-28.281052
11.185,2.0,1.0,1.0,33.6,34.3,34.3,2.8,1.8,2.625,0.555541444811025,-0.0375989669342389,0.812638963784626,0.0117303275909105,-0.136725,-28.09309
11.185,2.0,1.0,1.0,33.6,34.3,34.3,2.8,1.8,2.6275,0.5476833410549397,-0.03855019477419529,0.8175647558800511,0.011599682175842445,-0.13959,-27.903054
11.185,2.0,1.0,1.0,33.6,34.3,34.3,2.8,1.8,2.63,0.539706981188077,-0.039531847609070955,0.8224489772074908,0.011455431006212498,-0.142566,-27.710882
11.185,2.0,1.0,1.0,33.6,34.3,34.3,2.8,1.8,2.6325,0.5316100408214337,-0.04054525678144508,0.8272896433244343,0.011296646609116716,-0.145657,-27.51651
11.185,2.0,1.0,1.0,33.6,34.3,34.3,2.8,1.8,2.635,0.5233901078589505,-0.041591829491867224,0.8320846650706523,0.011122329242809962,-0.148871,-27.319871
11.185,2.0,1.0,1.0,33.6,34.3,34.3,2.8,1.8,2.6375,0.5150446772163267,-0.042673054079604734,0.8368318408514936,0.01093140021189409,-0.152214,-27.120897
11.185,2.0,1.0,1.0,33.6,34.3,34.3,2.8,1.8,2.64,0.5065711451221381,-0.043790505728875696,0.8415288481603581,0.010722694457049877,-0.155694,-26.919514
11.185,2.0,1.0,1.0,33.6,34.3,34.3,2.8,1.8,2.6425,0.49796680296403323,-0.044945852638062216,0.8461732342480756,0.010494952328542573,-0.159319,-26.715646
11.185,2.0,1.0,1.0,33.6,34.3,34.3,2.8,1.8,2.645,0.489228830639442,-0.04614086269271177,0.8507624058338944,0.010246810439844977,-0.163099,-26.509214
11.185,2.0,1.0,1.0,33.6,34.3,34.3,2.8,1.8,2.6475,0.4803542893666661,-0.04737741068666377,0.855293617737777,0.00997679148278705,-0.167042,-26.300136
11.185,2.0,1.0,1.0,33.6,34.3,34.3,2.8,1.8,2.65,0.4713401139084417,-0.048657486139386516,0.8597639602961807,0.009683292868295395,-0.17116,-26.088324
11.185,2.0,1.0,1.0,33.6,34.3,34.3,2.8,1.8,2.6525,0.462183104156135,-0.049983201761526305,0.8641703454031849,0.009364574036608016,-0.175462,-25.873688
11.185,2.0,1.0,1.0,33.6,34.3,34.3,2.8,1.8,2.655,0.45287991601854055,-0.05135680262474906,0.868509490995134,0.009018742257311701,-0.179962,-25.656133
11.185,2.0,1.0,1.0,33.6,34.3,34.3,2.8,1.8,2.6575,0.4434270515551321,-0.05278067609608564,0.8727779037692374,0.008643736712053767,-0.184673,-25.435559
11.185,2.0,1.0,1.0,33.6,34.3,34.3,2.8,1.8,2.66,0.433820848289373,-0.05425736260110414,0.8769718598941766,0.008237310620571843,-0.189609,-25.211862
11.185,2.0,1.0,1.0,33.6,34.3,34.3,2.8,1.8,2.6625,0.42405746763372754,-0.055789567284156176,0.8810873834326673,0.007797011132889121,-0.194786,-24.984931
11.185,2.0,1.0,1.0,33.6,34.3,34.3,2.8,1.8,2.665,0.4141328823543256,-0.057380172637492594,0.8851202221511997,0.007320156666055633,-0.200222,-24.754651
11.185,2.0,1.0,1.0,33.6,34.3,34.3,2.8,1.8,2.6675,0.4040428630003071,-0.059032252173884615,0.889065820339382,0.00680381131139376,-0.205934,-24.520901
11.185,2.0,1.0,1.0,33.6,34.3,34.3,2.8,1.8,2.67,0.39378296322094086,-0.06074908521916455,0.8929192881989493,0.006244755876249646,-0.211943,-24.283554
11.185,2.0,1.0,1.0,33.6,34.3,34.3,2.8,1.8,2.6725,0.3833485038933426,-0.06253417290119638,0.8966753672886333,0.005639455050859225,-0.218273,-24.042474
11.185,2.0,1.0,1.0,33.6,34.3,34.3,2.8,1.8,2.675,0.3727345559857704,-0.06439125540948537,0.9003283914233718,0.004984020103794188,-0.224948,-23.797521
11.185,2.0,1.0,1.0,33.6,34.3,34.3,2.8,1.8,2.6775,0.36193592208699776,-0.06632433059386064,0.9038722423219346,0.004274166405718358,-0.231996,-23.548544
11.185,2.0,1.0,1.0,33.6,34.3,34.3,2.8,1.8,2.68,0.35094711654269833,-0.0683376739600118,0.9073002991724786,0.0035051649574142658,-0.239447,-23.295386
11.185,2.0,1.0,1.0,33.6,34.3,34.3,2.8,1.8,2.6825,0.3397623441569661,-0.07043586010220389,0.9106053811365146,0.0026717869499920757,-0.247334,-23.037879
11.185,2.0,1.0,1.0,33.6,34.3,34.3,2.8,1.8,2.685,0.3283754774436335,-0.07262378558663285,0.9137796816331456,0.001768240207671895,-0.255695,-22.775849
11.185,2.0,1.0,1.0,33.6,34.3,34.3,2.8,1.8,2.6875,0.31678003245153213,-0.0749066932590753,0.9168146930306441,0.0007880961501586062,-0.264571,-22.509107
11.185,2.0,1.0,1.0,33.6,34.3,34.3,2.8,1.8,2.69,0.30496914324503577,-0.07729019789294675,0.9197011201136841,-0.00027579434546146363,-0.274009,-22.237456
11.185,2.0,1.0,1.0,33.6,34.3,34.3,2.8,1.8,2.6925,0.2929355352025523,-0.07978031301212221,0.9224287803820279,-0.0014313981138676496,-0.284059,-21.960687
11.185,2.0,1.0,1.0,33.6,34.3,34.3,2.8,1.8,2.695,0.28067149741016273,-0.08238347860801844,0.9249864888581181,-0.002687612208093567,-0.294781,-21.678578
11.185,2.0,1.0,1.0,33.6,34.3,34.3,2.8,1.8,2.6975,0.26816885458707246,-0.08510658931050386,0.9273619246220847,-0.004054394505888233,-0.306238,-21.390891
11.185,2.0,1.0,1.0,33.6,34.3,34.3,2.8,1.8,2.7,0.25541893920081615,-0.08795702235068126,0.9295414757347038,-0.005542915732360276,-0.318505,-21.097377
11.185,2.0,1.0,1.0,33.6,34.3,34.3,2.8,1.8,2.7025,0.2424125647353823,-0.09094266434806028,0.9315100585293749,-0.007165736890260137,-0.331664,-20.797767
11.185,2.0,1.0,1.0,33.6,34.3,34.3,2.8,1.8,2.705,0.22914000149589145,-0.0940719355341609,0.9332509064254604,-0.008937016912239111,-0.345808,-20.491778
11.185,2.0,1.0,1.0,33.6,34.3,34.3,2.8,1.8,2.7075,0.21559095691158708,-0.09735380944671923,0.9347453224033033,-0.010872756354224255,-0.361044,-20.179106
11.185,2.0,1.0,1.0,33.6,34.3,34.3,2.8,1.8,2.71,0.20175456309365364,-0.10079782533468837,0.9359723880448038,-0.01299108417654424,-0.377495,-19.85943
11.185,2.0,1.0,1.0,33.6,34.3,34.3,2.8,1.8,2.7125,0.18761937549726604,-0.10441408942286455,0.9369086205327193,-0.01531259615888607,-0.395298,-19.532405
11.185,2.0,1.0,1.0,33.6,34.3,34.3,2.8,1.8,2.715,0.17317338804183768,-0.10821325968320206,0.9375275671579275,-0.01786075532489278,-0.414615,-19.197663
11.185,2.0,1.0,1.0,33.6,34.3,34.3,2.8,1.8,2.7175,0.1584040721177241,-0.11220650669014832,0.9377993246383766,-0.020662366979847496,-0.435629,-18.854813
11.185,2.0,1.0,1.0,33.6,34.3,34.3,2.8,1.8,2.72,0.1432984497732612,-0.116405440279105,0.9376899678298687,-0.023748143665842335,-0.458555,-18.503437
11.185,2.0,1.0,1.0,33.6,34.3,34.3,2.8,1.8,2.7225,0.12784321534357657,-0.12082198777101899,0.9371608691270328,-0.02715337859193913,-0.483641,-18.143089
11.185,2.0,1.0,1.0,33.6,34.3,34.3,2.8,1.8,2.725,0.11202492528979449,-0.12546820403667577,0.9361678859390101,-0.030918749974365438,-0.511178,-17.773293
11.185,2.0,1.0,1.0,33.6,34.3,34.3,2.8,1.8,2.7275,0.09583028368077583,-0.13035598603759332,0.9346603890307829,-0.035091283269436606,-0.541507,-17.393544
11.185,2.0,1.0,1.0,33.6,34.3,34.3,2.8,1.8,2.73,0.07924656144123213,-0.13549665382952897,0.9325800992642987,-0.0397255034806339,-0.57503,-17.003302
11.185,2.0,1.0,1.0,33.6,34.3,34.3,2.8,1.8,2.7325,0.06226220244042268,-0.14090034512537275,0.9298596945039821,-0.044884815418103546,-0.612224,-16.601998
11.185,2.0,1.0,1.0,33.6,34.3,34.3,2.8,1.8,2.735,0.04486769044105405,-0.14657514966074997,0.9264211425770964,-0.050643155572516106,-0.653656,-16.189029
11.185,2.0,1.0,1.0,33.6,34.3,34.3,2.8,1.8,2.7375,0.027056780305852506,-0.15252588036526615,0.9221737110860457,-0.057086964248160545,-0.700008,-15.763763
11.185,2.0,1.0,1.0,33.6,34.3,34.3,2.8,1.8,2.74,0.00882823806581499,-0.1587523373415495,0.917011602299774,-0.06431752903864123,-0.752101,-15.32554
11.185,2.0,1.0,1.0,33.6,34.3,34.3,2.8,1.8,2.7425,-0.009811707847294336,-0.16524686326264387,0.9108111645617629,-0.07245374736921818,-0.810929,-14.87368
11.185,2.0,1.0,1.0,33.6,34.3,34.3,2.8,1.8,2.745,-0.02884592145825513,-0.17199090881263404,0.9034276465328077,-0.08163534079441702,-0.877707,-14.407495
11.185,2.0,1.0,1.0,33.6,34.3,34.3,2.8,1.8,2.7475,-0.04824152622531071,-0.17895021625051102,0.8946914975507092,-0.09202651664522529,-0.953926,-13.926301
11.185,2.0,1.0,1.0,33.6,34.3,34.3,2.8,1.8,2.75,-0.0679431386120465,-0.186068078626114,0.884404294506901,-0.103819995460456,-1.041427,-13.429449
11.185,2.0,1.0,1.0,33.6,34.3,34.3,2.8,1.8,2.7525,-0.08786342131605636,-0.19325593222940035,0.8723345237241676,-0.11724117472906498,-1.142502,-12.916356
11.185,2.0,1.0,1.0,33.6,34.3,34.3,2.8,1.8,2.755,-0.10786995294049198,-0.20038028568574184,0.8582137168480076,-0.1325519295836936,-1.260016,-12.386566
11.185,2.0,1.0,1.0,33.6,34.3,34.3,2.8,1.8,2.7575,-0.1277671103027725,-0.20724469146175603,0.8417339164267095,-0.15005307598928386,-1.397576,-11.839823
11.185,2.0,1.0,1.0,33.6,34.3,34.3,2.8,1.8,2.76,-0.14727136520262374,-0.21356517508931827,0.8225482602032833,-0.1700837119294261,-1.559738,-11.27619
11.185,2.0,1.0,1.0,33.6,34.3,34.3,2.8,1.8,2.7625,-0.16597825023043772,-0.21893739491872205,0.8002778131697595,-0.1930143185082621,-1.752279,-10.69621
11.185,2.0,1.0,1.0,33.6,34.3,34.3,2.8,1.8,2.765,-0.1833195756750173,-0.2227941373343437,0.7745298847475304,-0.21922840638244465,-1.982516,-10.101129
11.185,2.0,1.0,1.0,33.6,34.3,34.3,2.8,1.8,2.7675,-0.19851096199577298,-0.22435323651491149,0.7449361597880325,-0.2490844219783712,-2.259676,-9.493209
11.185,2.0,1.0,1.0,33.6,34.3,34.3,2.8,1.8,2.77,-0.21049365944140755,-0.22255990706406517,0.7112229686553109,-0.28284566388299,-2.595223,-8.876143
11.185,2.0,1.0,1.0,33.6,34.3,34.3,2.8,1.8,2.7725,-0.21788301346043257,-0.21603583361641318,0.6733298772375508,-0.32056214999319843,-3.002957,-8.255576
11.185,2.0,1.0,1.0,33.6,34.3,34.3,2.8,1.8,2.775,-0.218951338257123,-0.20306268669516175,0.6315930953920313,-0.36188810815607586,-3.498387,-7.639733
11.185,2.0,1.0,1.0,33.6,34.3,34.3,2.8,1.8,2.7775,-0.2116963818318137,-0.18165099882909216,0.5869991717160645,-0.40582981063234513,-4.096226,-7.040045
11.185,2.0,1.0,1.0,33.6,34.3,34.3,2.8,1.8,2.78,-0.19407162562814798,-0.14977015010967873,0.5414788262063428,-0.45045398398547704,-4.803516,-6.471619
11.185,2.0,1.0,1.0,33.6,34.3,34.3,2.8,1.8,2.7825,-0.16445706277199174,-0.10581736456189193,0.49813804050697924,-0.49265938469766296,-5.603711,-5.953192
11.185,2.0,1.0,1.0,33.6,34.3,34.3,2.8,1.8,2.785,-0.12238014206471311,-0.04933470503742299,0.4612258345239786,-0.5282110794289306,-6.426252,-5.506129
11.185,2.0,1.0,1.0,33.6,34.3,34.3,2.8,1.8,2.7875,-0.06931114005035442,0.018201531336593996,0.4355931467016124,-0.5522811247747985,-7.10979,-5.152081
11.185,2.0,1.0,1.0,33.6,34.3,34.3,2.8,1.8,2.79,-0.009108740107247874,0.09294124853464503,0.4255495787595442,-0.5605869876773608,-7.419007,-4.909375
11.185,2.0,1.0,1.0,33.6,34.3,34.3,2.8,1.8,2.7925,0.052378046035064255,0.16906091954366487,0.4334387105835644,-0.5508071294107423,-7.198485,-4.78901
11.185,2.0,1.0,1.0,33.6,34.3,34.3,2.8,1.8,2.795,0.10866469582606453,0.24011392243782492,0.45866557802840735,-0.5235438582021558,-6.532909,-4.791853
11.185,2.0,1.0,1.0,33.6,34.3,34.3,2.8,1.8,2.7975,0.15437220222600667,0.30076140839837817,0.49781997681119666,-0.48219527755498875,-5.659815,-4.908382
11.185,2.0,1.0,1.0,33.6,34.3,34.3,2.8,1.8,2.8,0.1864461793859439,0.3479808937855165,0.5458479203222217,-0.43178668604533044,-4.779314,-5.121119
11.185,2.0,1.0,1.0,33.6,34.3,34.3,2.8,1.8,2.8025,0.20434676190863413,0.3812504970391313,0.5975587148193521,-0.37747149698793797,-3.992078,-5.408539
11.185,2.0,1.0,1.0,33.6,34.3,34.3,2.8,1.8,2.805,0.20940963119697642,0.40191033152189376,0.6487273713950942,-0.32343702937665253,-3.328277,-5.748843
11.185,2.0,1.0,1.0,33.6,34.3,34.3,2.8,1.8,2.8075,0.20393196776172515,0.412252462422345,0.6965200039272614,-0.2724842113923981,-2.784133,-6.122548
11.185,2.0,1.0,1.0,33.6,34.3,34.3,2.8,1.8,2.81,0.19041691480670783,0.41476999473156734,0.7393979708662575,-0.22612503456496766,-2.343553,-6.513706
11.185,2.0,1.0,1.0,33.6,34.3,34.3,2.8,1.8,2.8125,0.171126334454796,0.411713339290711,0.776787342346886,-0.184912416846221,-1.98814,-6.91008
11.185,2.0,1.0,1.0,33.6,34.3,34.3,2.8,1.8,2.815,0.1478989830963078,0.4049104165889538,0.808725910571111,-0.14879163034019477,-1.7011,-7.302737
11.185,2.0,1.0,1.0,33.6,34.3,34.3,2.8,1.8,2.8175,0.12213201850732247,0.39574903577579434,0.835583912539537,-0.11737798173431148,-1.468394,-7.685434
11.185,2.0,1.0,1.0,33.6,34.3,34.3,2.8,1.8,2.82,0.09483865074259172,0.38523472171808953,0.8578764165442915,-0.09014314410448838,-1.27875,-8.05398
11.185,2.0,1.0,1.0,33.6,34.3,34.3,2.8,1.8,2.8225,0.06672833584681988,0.37407074686533215,0.8761513777822558,-0.06652618911654931,-1.123299,-8.405692
11.185,2.0,1.0,1.0,33.6,34.3,34.3,2.8,1.8,2.825,0.038283342383326806,0.3627344142855301,0.8909299984623344,-0.04599261888676544,-0.995117,-8.73896
11.185,2.0,1.0,1.0,33.6,34.3,34.3,2.8,1.8,2.8275,0.009822049491961811,0.3515400602480098,0.9026795152260293,-0.02806118437170447,-0.888814,-9.052919
11.185,2.0,1.0,1.0,33.6,34.3,34.3,2.8,1.8,2.83,-0.01845248000292631,0.340687365539398,0.9118044637973485,-0.012312362383348997,-0.800187,-9.347211
