1,w,sub_t,h,l1,l2,l3,g1,g2,Freq,S11_re,S21_re,S11_img,S21_img,S11_dB,S21_dB
11.185,2.0,1.0,1.0,34.3,34.1,34.1,2.6,4.3,2.5,0.73390616269172,-0.0100708801410073,0.667558192363394,0.00452911613821042,-0.068936,-39.138698
11.185,2.0,1.0,1.0,34.3,34.1,34.1,2.6,4.3,2.5025,0.7286217033521079,-0.01025097813690482,0.6731978303132614,0.004503976564408733,-0.069674,-39.018121
11.185,2.0,1.0,1.0,34.3,34.1,34.1,2.6,4.3,2.505,0.7232653954875126,-0.010433984909053722,0.6788238092594506,0.004476770490473821,-0.070426,-38.89715
11.185,2.0,1.0,1.0,34.3,34.1,34.1,2.6,4.3,2.5075,0.7178365028377232,-0.010619950237257487,0.6844355004767725,0.00444742698276343,-0.071191,-38.775778
11.185,2.0,1.0,1.0,34.3,34.1,34.1,2.6,4.3,2.51,0.7123342799774067,-0.010808924818007732,0.6900322568955725,0.004415872633770481,-0.071971,-38.653997
11.185,2.0,1.0,1.0,34.3,34.1,34.1,2.6,4.3,2.5125,0.7067579722836018,-0.011000960278216744,0.6956134125477785,0.0043820314664047375,-0.072765,-38.531797
11.185,2.0,1.0,1.0,34.3,34.1,34.1,2.6,4.3,2.515,0.7011068159084041,-0.011196109188829998,0.7011782819959593,0.004345824834141449,-0.073574,-38.409171
11.185,2.0,1.0,1.0,34.3,34.1,34.1,2.6,4.3,2.5175,0.6953800377572376,-0.011394425078285163,0.7067261597448451,0.004307171316835266,-0.074397,-38.28611
11.185,2.0,1.0,1.0,34.3,34.1,34.1,2.6,4.3,2.52,0.689576855473067,-0.011595962445782735,0.7122563196347593,0.004265986611987255,-0.075237,-38.162606
11.185,2.0,1.0,1.0,34.3,34.1,34.1,2.6,4.3,2.5225,0.6836964774269962,-0.011800776774328378,0.7177680142163616,0.004222183421240877,-0.076092,-38.038648
11.185,2.0,1.0,1.0,34.3,34.1,34.1,2.6,4.3,2.525,0.6777381027156502,-0.012008924543505297,0.723260474106121,0.004175671331870006,-0.076963,-37.914229
11.185,2.0,1.0,1.0,34.3,34.1,34.1,2.6,4.3,2.5275,0.6717009211658089,-0.012220463241930286,0.728732907321884,0.00412635669300885,-0.077851,-37.78934
11.185,2.0,1.0,1.0,34.3,34.1,34.1,2.6,4.3,2.53,0.6655841133467775,-0.01243545137934286,0.7341844985979034,0.004074142486359463,-0.078756,-37.663971
11.185,2.0,1.0,1.0,34.3,34.1,34.1,2.6,4.3,2.5325,0.6593868505909779,-0.01265394849827306,0.7396144086786515,0.004018928191097169,-0.079679,-37.538113
11.185,2.0,1.0,1.0,34.3,34.1,34.1,2.6,4.3,2.535,0.6531082950233058,-0.012876015185228485,0.745021773590742,0.003960609642678239,-0.08062,-37.411755
11.185,2.0,1.0,1.0,34.3,34.1,34.1,2.6,4.3,2.5375,0.646747599599809,-0.013101713081335597,0.7504057038922303,0.0038990788852369157,-0.081579,-37.28489
11.185,2.0,1.0,1.0,34.3,34.1,34.1,2.6,4.3,2.54,0.6403039081562685,-0.013331104892365081,0.7557652838985667,0.0038342240172404064,-0.082556,-37.157506
11.185,2.0,1.0,1.0,34.3,34.1,34.1,2.6,4.3,2.5425,0.6337763554673077,-0.01356425439806513,0.7610995708844345,0.003765929030050951,-0.083553,-37.029594
11.185,2.0,1.0,1.0,34.3,34.1,34.1,2.6,4.3,2.545,0.6271640673166752,-0.013801226460719193,0.7664075942606707,0.0036940736390232236,-0.08457,-36.901144
11.185,2.0,1.0,1.0,34.3,34.1,34.1,2.6,4.3,2.5475,0.6204661605793983,-0.014042087032837915,0.7716883547254532,0.0036185331067429263,-0.085607,-36.772144
11.185,2.0,1.0,1.0,34.3,34.1,34.1,2.6,4.3,2.55,0.6136817433165103,-0.014286903163887785,0.7769408233889074,0.0035391780579884197,-0.086665,-36.642586
11.185,2.0,1.0,1.0,34.3,34.1,34.1,2.6,4.3,2.5525,0.6068099148831391,-0.014535743005948999,0.7821639408702259,0.003455874285972044,-0.087745,-36.512457
11.185,2.0,1.0,1.0,34.3,34.1,34.1,2.6,4.3,2.555,0.599849766050729,-0.01478867581818746,0.7873566163664064,0.0033684825493901704,-0.088846,-36.381747
11.185,2.0,1.0,1.0,34.3,34.1,34.1,2.6,4.3,2.5575,0.592800379144261,-0.015045771970014816,0.7925177266916457,0.0032768583597818568,-0.089971,-36.250445
11.185,2.0,1.0,1.0,34.3,34.1,34.1,2.6,4.3,2.56,0.5856608281953419,-0.015307102942799685,0.7976461152863829,0.0031808517586648954,-0.091118,-36.11854
11.185,2.0,1.0,1.0,34.3,34.1,34.1,2.6,4.3,2.5625,0.5784301791121164,-0.015572741329981247,0.8027405911949942,0.0030803070838842646,-0.092289,-35.986019
11.185,2.0,1.0,1.0,34.3,34.1,34.1,2.6,4.3,2.565,0.5711074898669608,-0.015842760835424057,0.8077999280110368,0.0029750627245720687,-0.093484,-35.852872
11.185,2.0,1.0,1.0,34.3,34.1,34.1,2.6,4.3,2.5675,0.5636918107030195,-0.016117236269837434,0.8128228627889466,0.0028649508640795195,-0.094705,-35.719086
11.185,2.0,1.0,1.0,34.3,34.1,34.1,2.6,4.3,2.57,0.5561821843606581,-0.016396243545069012,0.8178080949210258,0.0027497972102003354,-0.095951,-35.584648
11.185,2.0,1.0,1.0,34.3,34.1,34.1,2.6,4.3,2.5725,0.5485776463249847,-0.016679859666063935,0.8227542849785134,0.0026294207119597233,-0.097224,-35.449547
11.185,2.0,1.0,1.0,34.3,34.1,34.1,2.6,4.3,2.575,0.5408772250956546,-0.01696816272026343,0.8276600535154747,0.0025036332621962845,-0.098524,-35.313769
11.185,2.0,1.0,1.0,34.3,34.1,34.1,2.6,4.3,2.5775,0.5330799424802267,-0.017261231864196223,0.8325239798342101,0.0023722393851120676,-0.099853,-35.177302
11.185,2.0,1.0,1.0,34.3,34.1,34.1,2.6,4.3,2.58,0.5251848139124224,-0.017559147306994205,0.8373446007107956,0.002235035907910725,-0.10121,-35.040132
11.185,2.0,1.0,1.0,34.3,34.1,34.1,2.6,4.3,2.5825,0.5171908487966873,-0.017861990290540173,0.8421204090793422,0.0020918116155847935,-0.102596,-34.902246
11.185,2.0,1.0,1.0,34.3,34.1,34.1,2.6,4.3,2.585,0.5090970508805633,-0.01816984306592862,0.8468498526734677,0.0019423468878479832,-0.104014,-34.763629
11.185,2.0,1.0,1.0,34.3,34.1,34.1,2.6,4.3,2.5875,0.5009024186564264,-0.018482788865892004,0.851531332623419,0.0017864133171397699,-0.105462,-34.624268
11.185,2.0,1.0,1.0,34.3,34.1,34.1,2.6,4.3,2.59,0.49260594579426253,-0.01880091187281343,0.8561632020072084,0.0016237733065553293,-0.106944,-34.484147
11.185,2.0,1.0,1.0,34.3,34.1,34.1,2.6,4.3,2.5925,0.48420662160721023,-0.01912429718191185,0.8607437643540481,0.0014541796464719156,-0.108458,-34.343252
11.185,2.0,1.0,1.0,34.3,34.1,34.1,2.6,4.3,2.595,0.4757034315517389,-0.01945303075914733,0.8652712720982776,0.0012773750685575991,-0.110007,-34.201569
11.185,2.0,1.0,1.0,34.3,34.1,34.1,2.6,4.3,2.5975,0.4670953577643811,-0.019787199393353605,0.8697439249818956,0.0010930917757524432,-0.111591,-34.05908
11.185,2.0,1.0,1.0,34.3,34.1,34.1,2.6,4.3,2.6,0.45838137963708536,-0.020126890642057055,0.8741598684037127,0.0009010509467114835,-0.113211,-33.915771
11.185,2.0,1.0,1.0,34.3,34.1,34.1,2.6,4.3,2.6025,0.4495604744333666,-0.020472192770391986,0.8785171917130217,0.0007009622130889105,-0.114869,-33.771624
11.185,2.0,1.0,1.0,34.3,34.1,34.1,2.6,4.3,2.605,0.44063161794752487,-0.02082319468246618,0.8828139264455924,0.0004925231079222424,-0.116566,-33.626624
11.185,2.0,1.0,1.0,34.3,34.1,34.1,2.6,4.3,2.6075,0.43159378520937275,-0.021179985844468056,0.8870480444996616,0.0002754184832474915,-0.118303,-33.480752
11.185,2.0,1.0,1.0,34.3,34.1,34.1,2.6,4.3,2.61,0.4224459512370295,-0.021542656198740046,0.8912174562494576,4.931989493532281e-05,-0.120081,-33.333992
11.185,2.0,1.0,1.0,34.3,34.1,34.1,2.6,4.3,2.6125,0.41318709184048313,-0.021911296067967177,0.8953200085936693,-0.00018611504741428115,-0.121901,-33.186325
11.185,2.0,1.0,1.0,34.3,34.1,34.1,2.6,4.3,2.615,0.4038161844788035,-0.02228599604854681,0.8993534829361093,-0.00043124336784622277,-0.123765,-33.037733
11.185,2.0,1.0,1.0,34.3,34.1,34.1,2.6,4.3,2.6175,0.3943322091740398,-0.022666846892113617,0.9033155930956513,-0.0006864374512004762,-0.125675,-32.888197
11.185,2.0,1.0,1.0,34.3,34.1,34.1,2.6,4.3,2.62,0.3847341494850379,-0.023053939374092367,0.9072039831423468,-0.0009520858127412625,-0.127631,-32.737696
11.185,2.0,1.0,1.0,34.3,34.1,34.1,2.6,4.3,2.6225,0.3750209935445787,-0.02344736414803835,0.9110162251564372,-0.001228593913181089,-0.129636,-32.586212
11.185,2.0,1.0,1.0,34.3,34.1,34.1,2.6,4.3,2.625,0.365191735163507,-0.023847211584399,0.914749816906744,-0.00151638502224644,-0.131691,-32.433723
11.185,2.0,1.0,1.0,34.3,34.1,34.1,2.6,4.3,2.6275,0.35524537500568104,-0.024253571592193254,0.9184021794447136,-0.0018159011341864937,-0.133797,-32.280209
11.185,2.0,1.0,1.0,34.3,34.1,34.1,2.6,4.3,2.63,0.34518092183787047,-0.02466653342194818,0.921970654610113,-0.002127603938899983,-0.135957,-32.125646
11.185,2.0,1.0,1.0,34.3,34.1,34.1,2.6,4.3,2.6325,0.3349973938589838,-0.02508618544806199,0.9254525024441224,-0.002451975852658096,-0.138172,-31.970014
11.185,2.0,1.0,1.0,34.3,34.1,34.1,2.6,4.3,2.635,0.3246938201132863,-0.025512614928569672,0.9288448985052369,-0.0027895211127292705,-0.140444,-31.813289
11.185,2.0,1.0,1.0,34.3,34.1,34.1,2.6,4.3,2.6375,0.31426924199261186,-0.02594590774007334,0.9321449310830862,-0.003140766940571763,-0.142775,-31.655446
11.185,2.0,1.0,1.0,34.3,34.1,34.1,2.6,4.3,2.64,0.3037227148328637,-0.026386148085361702,0.9353495983048946,-0.003506264778654275,-0.145168,-31.496462
11.185,2.0,1.0,1.0,34.3,34.1,34.1,2.6,4.3,2.6425,0.2930533096105496,-0.026833418170973847,0.9384558051289126,-0.003886591606394677,-0.147624,-31.336312
11.185,2.0,1.0,1.0,34.3,34.1,34.1,2.6,4.3,2.645,0.2822601147454277,-0.02728779785166501,0.9414603602187074,-0.0042823513411811625,-0.150146,-31.174968
11.185,2.0,1.0,1.0,34.3,34.1,34.1,2.6,4.3,2.6475,0.27134223801585733,-0.027749364238395805,0.9443599726917187,-0.0046941763309566575,-0.152736,-31.012405
11.185,2.0,1.0,1.0,34.3,34.1,34.1,2.6,4.3,2.65,0.26029880859387083,-0.028218191266092277,0.9471512487349394,-0.005122728945418908,-0.155398,-30.848595
11.185,2.0,1.0,1.0,34.3,34.1,34.1,2.6,4.3,2.6525,0.24912897920761562,-0.028694349216998545,0.9498306880800075,-0.005568703273510489,-0.158132,-30.683509
11.185,2.0,1.0,1.0,34.3,34.1,34.1,2.6,4.3,2.655,0.23783192843930887,-0.029177904194974003,0.9523946803293293,-0.006032826935563911,-0.160944,-30.517117
11.185,2.0,1.0,1.0,34.3,34.1,34.1,2.6,4.3,2.6575,0.22640686316759434,-0.029668917545548366,0.95483950112414,-0.006515863019220867,-0.163834,-30.349389
11.185,2.0,1.0,1.0,34.3,34.1,34.1,2.6,4.3,2.66,0.21485302116387978,-0.030167445215948687,0.9571613081446175,-0.0070186121490787776,-0.166807,-30.180294
11.185,2.0,1.0,1.0,34.3,34.1,34.1,2.6,4.3,2.6625,0.20316967385306456,-0.03067353704863129,0.9593561369312651,-0.0075419147009353855,-0.169865,-30.009799
11.185,2.0,1.0,1.0,34.3,34.1,34.1,2.6,4.3,2.665,0.1913561292499452,-0.031187236001085767,0.961419896515829,-0.008086653172515777,-0.173013,-29.837869
11.185,2.0,1.0,1.0,34.3,34.1,34.1,2.6,4.3,2.6675,0.17941173508364813,-0.031708577283807216,0.9633483648488969,-0.008653754723681675,-0.176253,-29.66447
11.185,2.0,1.0,1.0,34.3,34.1,34.1,2.6,4.3,2.67,0.1673358821235162,-0.03223758740735202,0.9651371840101611,-0.009244193900360789,-0.179591,-29.489567
11.185,2.0,1.0,1.0,34.3,34.1,34.1,2.6,4.3,2.6725,0.15512800772116556,-0.03277428312827531,0.9667818551859657,-0.009858995557797182,-0.183028,-29.31312
11.185,2.0,1.0,1.0,34.3,34.1,34.1,2.6,4.3,2.675,0.14278759958485515,-0.03331867028248063,0.9682777333972664,-0.010499238000234735,-0.186571,-29.135093
11.185,2.0,1.0,1.0,34.3,34.1,34.1,2.6,4.3,2.6775,0.1303141998039149,-0.03387074249307288,0.9696200219595228,-0.01116605635581891,-0.190224,-28.955443
11.185,2.0,1.0,1.0,34.3,34.1,34.1,2.6,4.3,2.68,0.11770740914275582,-0.03443047973816303,0.9708037666541427,-0.011860646207356173,-0.19399,-28.77413
11.185,2.0,1.0,1.0,34.3,34.1,34.1,2.6,4.3,2.6825,0.10496689162608597,-0.034997846762201384,0.9718238495890946,-0.012584267501624656,-0.197877,-28.591109
11.185,2.0,1.0,1.0,34.3,34.1,34.1,2.6,4.3,2.685,0.09209237943921038,-0.035572791312279965,0.9726749827240148,-0.013338248762213735,-0.201887,-28.406337
11.185,2.0,1.0,1.0,34.3,34.1,34.1,2.6,4.3,2.6875,0.0790836781699709,-0.0361552421783973,0.973351701032556,-0.0141239916334021,-0.206029,-28.219765
11.185,2.0,1.0,1.0,34.3,34.1,34.1,2.6,4.3,2.69,0.06594067242187013,-0.03674510701387895,0.9738483552719323,-0.014942975785400403,-0.210307,-28.031345
11.185,2.0,1.0,1.0,34.3,34.1,34.1,2.6,4.3,2.6925,0.05266333183131112,-0.03734226990893519,0.9741591043263989,-0.015796764214418644,-0.214728,-27.841027
11.185,2.0,1.0,1.0,34.3,34.1,34.1,2.6,4.3,2.695,0.03925171752586573,-0.03794658868664157,0.9742779070878872,-0.016687008974499096,-0.219299,-27.648758
11.185,2.0,1.0,1.0,34.3,34.1,34.1,2.6,4.3,2.6975,0.025705989064866753,-0.038557891886384324,0.9741985138330433,-0.017615457381942482,-0.224028,-27.454482
11.185,2.0,1.0,1.0,34.3,34.1,34.1,2.6,4.3,2.7,0.01202641190886091,-0.03917597539490917,0.9739144570514863,-0.018583958737471845,-0.228922,-27.258143
11.185,2.0,1.0,1.0,34.3,34.1,34.1,2.6,4.3,2.7025,-0.00178663452969878,-0.0398005986794629,0.9734190416751621,-0.019594471616103292,-0.233989,-27.059681
11.185,2.0,1.0,1.0,34.3,34.1,34.1,2.6,4.3,2.705,-0.015732648195254436,-0.04043148057097277,0.9727053346531259,-0.020649071780060795,-0.239238,-26.859033
11.185,2.0,1.0,1.0,34.3,34.1,34.1,2.6,4.3,2.7075,-0.02981099499035451,-0.04106829453763641,0.9717661538098642,-0.02174996077607039,-0.244679,-26.656135
11.185,2.0,1.0,1.0,34.3,34.1,34.1,2.6,4.3,2.71,-0.04402089859296084,-0.041710663380500064,0.9705940559183812,-0.022899475285052266,-0.250323,-26.450918
11.185,2.0,1.0,1.0,34.3,34.1,34.1,2.6,4.3,2.7125,-0.05836142940308003,-0.042358153272383785,0.969181323911452,-0.02410009729969415,-0.25618,-26.243313
11.185,2.0,1.0,1.0,34.3,34.1,34.1,2.6,4.3,2.715,-0.07283149251949027,-0.043010267049606296,0.9675199531458121,-0.02535446521371402,-0.262261,-26.033244
11.185,2.0,1.0,1.0,34.3,34.1,34.1,2.6,4.3,2.7175,-0.08742981463307795,-0.04366643665207189,0.9656016366243261,-0.026665385915909848,-0.268581,-25.820635
11.185,2.0,1.0,1.0,34.3,34.1,34.1,2.6,4.3,2.72,-0.10215492970650407,-0.04432601459104203,0.9634177490702923,-0.028035847992452727,-0.275151,-25.605403
11.185,2.0,1.0,1.0,34.3,34.1,34.1,2.6,4.3,2.7225,-0.11700516329034338,-0.04498826430489496,0.9609593297359699,-0.029469036152431443,-0.281987,-25.387464
11.185,2.0,1.0,1.0,34.3,34.1,34.1,2.6,4.3,2.725,-0.1319786153027964,-0.045652349240849606,0.9582170638138225,-0.030968347004506503,-0.289106,-25.16673
11.185,2.0,1.0,1.0,34.3,34.1,34.1,2.6,4.3,2.7275,-0.1470731410731783,-0.04631732047438231,0.9551812623039024,-0.03253740632684517,-0.296523,-24.943106
11.185,2.0,1.0,1.0,34.3,34.1,34.1,2.6,4.3,2.73,-0.16228633041745283,-0.04698210264712461,0.9518418401740325,-0.03418008798837789,-0.304258,-24.716495
11.185,2.0,1.0,1.0,34.3,34.1,34.1,2.6,4.3,2.7325,-0.1776154844766927,-0.047645477967503125,0.9481882926307418,-0.035900534697020856,-0.312331,-24.486793
11.185,2.0,1.0,1.0,34.3,34.1,34.1,2.6,4.3,2.735,-0.19305759000484582,-0.04830606797514991,0.9442096692983304,-0.0377031807699391,-0.320763,-24.253894
11.185,2.0,1.0,1.0,34.3,34.1,34.1,2.6,4.3,2.7375,-0.2086092907396969,-0.048962312718845276,0.9398945460805954,-0.03959277714232439,-0.329579,-24.017682
11.185,2.0,1.0,1.0,34.3,34.1,34.1,2.6,4.3,2.74,-0.2242668554283189,-0.049612446936816164,0.935230994454789,-0.041574418854587215,-0.338805,-23.778039
11.185,2.0,1.0,1.0,34.3,34.1,34.1,2.6,4.3,2.7425,-0.24002614200399527,-0.05025447275562659,0.9302065479200383,-0.04365357528336868,-0.348469,-23.534839
11.185,2.0,1.0,1.0,34.3,34.1,34.1,2.6,4.3,2.745,-0.2558825573227376,-0.05088612833722622,0.9248081652928758,-0.045836123409295826,-0.358601,-23.287949
11.185,2.0,1.0,1.0,34.3,34.1,34.1,2.6,4.3,2.7475,-0.27183101176131164,-0.05150485180000961,0.9190221905108599,-0.04812838444377921,-0.369237,-23.03723
11.185,2.0,1.0,1.0,34.3,34.1,34.1,2.6,4.3,2.75,-0.287865867851363,-0.0521077396153323,0.91283430857169,-0.0505371641680234,-0.380414,-22.782535
11.185,2.0,1.0,1.0,34.3,34.1,34.1,2.6,4.3,2.7525,-0.3039808819711049,-0.052691498531357135,0.9062294972005449,-0.053069797369182374,-0.392172,-22.523709
11.185,2.0,1.0,1.0,34.3,34.1,34.1,2.6,4.3,2.755,-0.32016913793167573,-0.053252389895845784,0.8991919738033167,-0.05573419679024201,-0.404557,-22.260587
11.185,2.0,1.0,1.0,34.3,34.1,34.1,2.6,4.3,2.7575,-0.33642297107260954,-0.05378616503176015,0.8917051372296633,-0.058538907040237675,-0.417619,-21.992997
11.185,2.0,1.0,1.0,34.3,34.1,34.1,2.6,4.3,2.76,-0.3527338812112748,-0.054287990055872634,0.8837515038395266,-0.06149316393747823,-0.431413,-21.720756
11.185,2.0,1.0,1.0,34.3,34.1,34.1,2.6,4.3,2.7625,-0.3690924324642192,-0.05475235821058335,0.8753126373433422,-0.06460695977721788,-0.446002,-21.44367
11.185,2.0,1.0,1.0,34.3,34.1,34.1,2.6,4.3,2.765,-0.3854881375606202,-0.05517298738987074,0.8663690718745525,-0.06789111502172197,-0.461454,-21.161534
11.185,2.0,1.0,1.0,34.3,34.1,34.1,2.6,4.3,2.7675,-0.4019093237834647,-0.05554270006571159,0.8569002277601429,-0.07135735689789538,-0.477845,-20.874132
11.185,2.0,1.0,1.0,34.3,34.1,34.1,2.6,4.3,2.77,-0.41834297708210916,-0.05585328224145992,0.8468843194910574,-0.07501840534547649,-0.495261,-20.581235
11.185,2.0,1.0,1.0,34.3,34.1,34.1,2.6,4.3,2.7725,-0.4347745601754338,-0.05609531734879822,0.8362982554737175,-0.07888806667290965,-0.513799,-20.282599
11.185,2.0,1.0,1.0,34.3,34.1,34.1,2.6,4.3,2.775,-0.45118779957651617,-0.05625799013421753,0.8251175292870048,-0.08298133512811819,-0.533565,-19.977966
11.185,2.0,1.0,1.0,34.3,34.1,34.1,2.6,4.3,2.7775,-0.46756443537889963,-0.056328854511416414,0.8133161024046714,-0.08731450234880518,-0.554682,-19.667065
11.185,2.0,1.0,1.0,34.3,34.1,34.1,2.6,4.3,2.78,-0.48388392630299026,-0.05629355804039379,0.8008662787123687,-0.09190527428113082,-0.577287,-19.349604
11.185,2.0,1.0,1.0,34.3,34.1,34.1,2.6,4.3,2.7825,-0.5001231008499606,-0.05613551407432024,0.7877385717084006,-0.09677289458948604,-0.601538,-19.025279
11.185,2.0,1.0,1.0,34.3,34.1,34.1,2.6,4.3,2.785,-0.5162557433775483,-0.05583551062056759,0.7739015661098851,-0.1019382727430326,-0.627612,-18.693763
11.185,2.0,1.0,1.0,34.3,34.1,34.1,2.6,4.3,2.7875,-0.5322521014096886,-0.05537124250668928,0.759321776805684,-0.10742411374279638,-0.655713,-18.354712
11.185,2.0,1.0,1.0,34.3,34.1,34.1,2.6,4.3,2.79,-0.5480782974161141,-0.05471675042332199,0.7439635098669105,-0.11325504468571011,-0.686075,-18.007763
11.185,2.0,1.0,1.0,34.3,34.1,34.1,2.6,4.3,2.7925,-0.5636956245269771,-0.05384174671470115,0.7277887328746977,-0.11945773082171927,-0.718966,-17.652529
11.185,2.0,1.0,1.0,34.3,34.1,34.1,2.6,4.3,2.795,-0.5790597010450744,-0.052710803269914286,0.710756965478099,-0.12606097012551015,-0.754697,-17.288604
11.185,2.0,1.0,1.0,34.3,34.1,34.1,2.6,4.3,2.7975,-0.594119453039833,-0.0512823713931229,0.6928252063127143,-0.13309575022058703,-0.79363,-16.91556
11.185,2.0,1.0,1.0,34.3,34.1,34.1,2.6,4.3,2.8,-0.6088158876186613,-0.04950759696751991,0.673947919843591,-0.1405952441169308,-0.836184,-16.532946
11.185,2.0,1.0,1.0,34.3,34.1,34.1,2.6,4.3,2.8025,-0.623080611581617,-0.04732888648865973,0.6540771172648561,-0.1485947107446614,-0.882852,-16.140291
11.185,2.0,1.0,1.0,34.3,34.1,34.1,2.6,4.3,2.805,-0.6368340410938291,-0.04467817064972708,0.633162580590886,-0.15713125140261017,-0.934212,-15.737105
11.185,2.0,1.0,1.0,34.3,34.1,34.1,2.6,4.3,2.8075,-0.6499832380034752,-0.041474802362175475,0.6111523003333819,-0.16624335219144776,-0.990949,-15.322882
11.185,2.0,1.0,1.0,34.3,34.1,34.1,2.6,4.3,2.81,-0.6624192981753153,-0.03762301607097532,0.5879932272189099,-0.17597011275397903,-1.053875,-14.897101
11.185,2.0,1.0,1.0,34.3,34.1,34.1,2.6,4.3,2.8125,-0.674014208183735,-0.0330088664463743,0.56363248077276,-0.186350019734782,-1.123958,-14.459239
11.185,2.0,1.0,1.0,34.3,34.1,34.1,2.6,4.3,2.815,-0.684617081812313,-0.027496559874544215,0.538019217038902,-0.197419064598038,-1.202361,-14.008776
11.185,2.0,1.0,1.0,34.3,34.1,34.1,2.6,4.3,2.8175,-0.694049692378641,-0.020924096914324255,0.5111074405061732,-0.20920792360647344,-1.290487,-13.54521
11.185,2.0,1.0,1.0,34.3,34.1,34.1,2.6,4.3,2.82,-0.7021012404146993,-0.013098167406095205,0.48286015938947763,-0.22173780505455054,-1.390035,-13.068078
11.185,2.0,1.0,1.0,34.3,34.1,34.1,2.6,4.3,2.8225,-0.7085223549900984,-0.003788298335146313,0.4532554379617264,-0.23501441621024144,-1.503077,-12.576982
11.185,2.0,1.0,1.0,34.3,34.1,34.1,2.6,4.3,2.825,-0.7130184482976122,0.0072796251220661285,0.4222951035521329,-0.24901930109530845,-1.63215,-12.07163
11.185,2.0,1.0,1.0,34.3,34.1,34.1,2.6,4.3,2.8275,-0.7152427715332306,0.020430118731699445,0.39001712358058044,-0.26369754587915145,-1.780376,-11.551888
