1,w,sub_t,h,l1,l2,l3,g1,g2,Freq,S11_re,S21_re,S11_img,S21_img,S11_dB,S21_dB
11.185,2.0,1.0,1.0,34.7,33.5,33.5,3.4,2.8,2.5,0.663086354057257,-0.0130966750690769,0.737342454418638,0.00492594071140043,-0.072886,-37.082144
11.185,2.0,1.0,1.0,34.7,33.5,33.5,3.4,2.8,2.5025,0.6567696558544063,-0.01331443003574879,0.7428561283528976,0.00486968469426117,-0.073663,-36.968301
11.185,2.0,1.0,1.0,34.7,33.5,33.5,3.4,2.8,2.505,0.6503716960744281,-0.013535212706929057,0.7483445142604844,0.004810277316703369,-0.074452,-36.85415
11.185,2.0,1.0,1.0,34.7,33.5,33.5,3.4,2.8,2.5075,0.6438917498259216,-0.013759054610898753,0.7538066715889323,0.0047476216041364774,-0.075255,-36.739685
11.185,2.0,1.0,1.0,34.7,33.5,33.5,3.4,2.8,2.51,0.6373290885434911,-0.01398598712520235,0.759241635117589,0.004681617718730452,-0.076072,-36.624901
11.185,2.0,1.0,1.0,34.7,33.5,33.5,3.4,2.8,2.5125,0.630682980229057,-0.014216041442083015,0.7646484143316038,0.004612162870530291,-0.076903,-36.509793
11.185,2.0,1.0,1.0,34.7,33.5,33.5,3.4,2.8,2.515,0.6239526897094847,-0.014449248531705818,0.770025992782177,0.004539151225711985,-0.077749,-36.394356
11.185,2.0,1.0,1.0,34.7,33.5,33.5,3.4,2.8,2.5175,0.6171374789113009,-0.014685639103047989,0.7753733274328884,0.004462473811887439,-0.078609,-36.278585
11.185,2.0,1.0,1.0,34.7,33.5,33.5,3.4,2.8,2.52,0.6102366071532701,-0.014925243562332593,0.7806893479919738,0.004382018420362622,-0.079484,-36.162475
11.185,2.0,1.0,1.0,34.7,33.5,33.5,3.4,2.8,2.5225,0.603249331457673,-0.015168091968871882,0.7859729562303724,0.004297669505250001,-0.080375,-36.04602
11.185,2.0,1.0,1.0,34.7,33.5,33.5,3.4,2.8,2.525,0.5961749068811137,-0.015414213988183635,0.7912230252854395,0.004209308079333419,-0.081281,-35.929215
11.185,2.0,1.0,1.0,34.7,33.5,33.5,3.4,2.8,2.5275,0.5890125868657506,-0.01566363884223286,0.796438398950183,0.004116811606579394,-0.082204,-35.812055
11.185,2.0,1.0,1.0,34.7,33.5,33.5,3.4,2.8,2.53,0.5817616236118685,-0.015916395256647314,0.8016178909479137,0.0040200538911863495,-0.083142,-35.694534
11.185,2.0,1.0,1.0,34.7,33.5,33.5,3.4,2.8,2.5325,0.5744212684727452,-0.016172511404744582,0.8067602841922129,0.003918904963058737,-0.084098,-35.576646
11.185,2.0,1.0,1.0,34.7,33.5,33.5,3.4,2.8,2.535,0.5669907723727929,-0.01643201484820247,0.8118643300321347,0.003813230959589213,-0.085071,-35.458386
11.185,2.0,1.0,1.0,34.7,33.5,33.5,3.4,2.8,2.5375,0.559469386250013,-0.016694932474193562,0.8169287474825663,0.003702894003628977,-0.086062,-35.339748
11.185,2.0,1.0,1.0,34.7,33.5,33.5,3.4,2.8,2.54,0.5518563615238189,-0.016961290428798334,0.8219522224397067,0.0035877520775209905,-0.087071,-35.220727
11.185,2.0,1.0,1.0,34.7,33.5,33.5,3.4,2.8,2.5425,0.5441509505893324,-0.017231114046498488,0.8269334068816223,0.003467658893067035,-0.088098,-35.101316
11.185,2.0,1.0,1.0,34.7,33.5,33.5,3.4,2.8,2.545,0.5363524073392931,-0.017504427775545717,0.8318709180538756,0.0033424637572954767,-0.089144,-34.981509
11.185,2.0,1.0,1.0,34.7,33.5,33.5,3.4,2.8,2.5475,0.5284599877147818,-0.017781255098985725,0.8367633376402257,0.003212011433890651,-0.090209,-34.8613
11.185,2.0,1.0,1.0,34.7,33.5,33.5,3.4,2.8,2.55,0.5204729502859545,-0.01806161845111232,0.8416092109184505,0.003076142000141185,-0.091294,-34.740684
11.185,2.0,1.0,1.0,34.7,33.5,33.5,3.4,2.8,2.5525,0.5123905568640994,-0.01834553912910749,0.8464070459013294,0.002934690699258362,-0.092399,-34.619654
11.185,2.0,1.0,1.0,34.7,33.5,33.5,3.4,2.8,2.555,0.5042120731462927,-0.018633037199617515,0.8511553124628888,0.0027874877879105,-0.093526,-34.498204
11.185,2.0,1.0,1.0,34.7,33.5,33.5,3.4,2.8,2.5575,0.4959367693940356,-0.018924131399997372,0.8558524414500229,0.0026343583788135806,-0.094673,-34.376327
11.185,2.0,1.0,1.0,34.7,33.5,33.5,3.4,2.8,2.56,0.48756392114728053,-0.0192188390339447,0.8604968237796272,0.0024751222782122707,-0.095842,-34.254016
11.185,2.0,1.0,1.0,34.7,33.5,33.5,3.4,2.8,2.5625,0.47909280997529474,-0.01951717586122769,0.8650868095214315,0.002309593818079037,-0.097033,-34.131266
11.185,2.0,1.0,1.0,34.7,33.5,33.5,3.4,2.8,2.565,0.4705227242658654,-0.0198191559811988,0.8696207069667505,0.002137581682852201,-0.098247,-34.008069
11.185,2.0,1.0,1.0,34.7,33.5,33.5,3.4,2.8,2.5675,0.46185296005441207,-0.020124791709766617,0.874096781683396,0.001958888730526854,-0.099484,-33.884419
11.185,2.0,1.0,1.0,34.7,33.5,33.5,3.4,2.8,2.57,0.45308282189459825,-0.02043409344948379,0.8785132555570463,0.0017733118079046094,-0.100745,-33.760308
11.185,2.0,1.0,1.0,34.7,33.5,33.5,3.4,2.8,2.5725,0.44421162377210416,-0.020747069552390016,0.8828683058194167,0.0015806415598006902,-0.102031,-33.63573
11.185,2.0,1.0,1.0,34.7,33.5,33.5,3.4,2.8,2.575,0.4352386900632651,-0.021063726175228177,0.8871600640636019,0.0013806622319972805,-0.103341,-33.510677
11.185,2.0,1.0,1.0,34.7,33.5,33.5,3.4,2.8,2.5775,0.426163356540349,-0.021384067126635025,0.8913866152470211,0.0011731514677242644,-0.104677,-33.385142
11.185,2.0,1.0,1.0,34.7,33.5,33.5,3.4,2.8,2.58,0.41698497142527985,-0.021708093705882434,0.8955459966824464,0.0009578800974376604,-0.10604,-33.259119
11.185,2.0,1.0,1.0,34.7,33.5,33.5,3.4,2.8,2.5825,0.40770289649367797,-0.02203580453272619,0.8996361970176515,0.0007346119216559764,-0.107429,-33.132598
11.185,2.0,1.0,1.0,34.7,33.5,33.5,3.4,2.8,2.585,0.3983165082311543,-0.02236719536789131,0.9036551552042559,0.0005031034866040542,-0.108846,-33.005573
11.185,2.0,1.0,1.0,34.7,33.5,33.5,3.4,2.8,2.5875,0.38882519904382684,-0.022702258923702263,0.9076007594564309,0.00026310385240079865,-0.110292,-32.878035
11.185,2.0,1.0,1.0,34.7,33.5,33.5,3.4,2.8,2.59,0.3792283785251193,-0.02304098466433374,0.9114708462001616,1.4354353516433648e-05,-0.111766,-32.749978
11.185,2.0,1.0,1.0,34.7,33.5,33.5,3.4,2.8,2.5925,0.36952547478091385,-0.023383358595133984,0.9152631990138558,-0.0002434116487916332,-0.11327,-32.621392
11.185,2.0,1.0,1.0,34.7,33.5,33.5,3.4,2.8,2.595,0.3597159358152503,-0.02372936304043786,0.9189755475611222,-0.0005104690223670479,-0.114805,-32.492269
11.185,2.0,1.0,1.0,34.7,33.5,33.5,3.4,2.8,2.5975,0.349799230978745,-0.024078976409258344,0.9226055665166627,-0.0007871011286884597,-0.11637,-32.362602
11.185,2.0,1.0,1.0,34.7,33.5,33.5,3.4,2.8,2.6,0.33977485248202666,-0.02443217294820589,0.9261508744862459,-0.0010736000963860422,-0.117968,-32.23238
11.185,2.0,1.0,1.0,34.7,33.5,33.5,3.4,2.8,2.6025,0.32964231697652413,-0.024788922480952526,0.9296090329218393,-0.0013702671040970154,-0.119599,-32.101597
11.185,2.0,1.0,1.0,34.7,33.5,33.5,3.4,2.8,2.605,0.3194011672049762,-0.025149190133513962,0.9329775450330496,-0.0016774126730373009,-0.121264,-31.970242
11.185,2.0,1.0,1.0,34.7,33.5,33.5,3.4,2.8,2.6075,0.30905097372412405,-0.02551293604458496,0.9362538546961173,-0.0019953569696873627,-0.122963,-31.838307
11.185,2.0,1.0,1.0,34.7,33.5,33.5,3.4,2.8,2.61,0.2985913367021075,-0.025880115060113437,0.9394353453617559,-0.002324430119015342,-0.124698,-31.705783
11.185,2.0,1.0,1.0,34.7,33.5,33.5,3.4,2.8,2.6125,0.28802188779310517,-0.026250676411254014,0.9425193389632893,-0.0026649725286858965,-0.126469,-31.572659
11.185,2.0,1.0,1.0,34.7,33.5,33.5,3.4,2.8,2.615,0.2773422920918648,-0.02662456337478864,0.9455030948265618,-0.003017335224732235,-0.128278,-31.438927
11.185,2.0,1.0,1.0,34.7,33.5,33.5,3.4,2.8,2.6175,0.26655225017080264,-0.02700171291504477,0.9483838085832373,-0.003381880199198425,-0.130125,-31.304576
11.185,2.0,1.0,1.0,34.7,33.5,33.5,3.4,2.8,2.62,0.255651500202418,-0.027382055306283053,0.9511586110891876,-0.0037589807702945546,-0.132012,-31.169596
11.185,2.0,1.0,1.0,34.7,33.5,33.5,3.4,2.8,2.6225,0.24463982016980942,-0.027765513734462823,0.9538245673497712,-0.004149021955642657,-0.13394,-31.033977
11.185,2.0,1.0,1.0,34.7,33.5,33.5,3.4,2.8,2.625,0.233517030168188,-0.0281520038772192,0.956378675453902,-0.00455240085923208,-0.135909,-30.897708
11.185,2.0,1.0,1.0,34.7,33.5,33.5,3.4,2.8,2.6275,0.2222829948002565,-0.02854143346081818,0.9588178655189347,-0.004969527072747506,-0.137921,-30.760778
11.185,2.0,1.0,1.0,34.7,33.5,33.5,3.4,2.8,2.63,0.21093762566847032,-0.028933701792765755,0.9611389986484653,-0.005400823091980139,-0.139978,-30.623177
11.185,2.0,1.0,1.0,34.7,33.5,33.5,3.4,2.8,2.6325,0.1994808839671886,-0.029328699268666516,0.9633388659052877,-0.005846724749086014,-0.142079,-30.484892
11.185,2.0,1.0,1.0,34.7,33.5,33.5,3.4,2.8,2.635,0.1879127831778169,-0.029726306851825767,0.9654141873018259,-0.006307681661513296,-0.144228,-30.345912
11.185,2.0,1.0,1.0,34.7,33.5,33.5,3.4,2.8,2.6375,0.17623339187009315,-0.030126395523988637,0.9673616108104955,-0.006784157698482809,-0.146424,-30.206226
11.185,2.0,1.0,1.0,34.7,33.5,33.5,3.4,2.8,2.64,0.16444283661270517,-0.03052882570549497,0.9691777113965325,-0.007276631465978281,-0.148669,-30.06582
11.185,2.0,1.0,1.0,34.7,33.5,33.5,3.4,2.8,2.6425,0.15254130499653076,-0.03093344664300526,0.9708589900759431,-0.007785596811275993,-0.150966,-29.924683
11.185,2.0,1.0,1.0,34.7,33.5,33.5,3.4,2.8,2.645,0.1405290487738059,-0.03134009576281818,0.9724018730013457,-0.00831156334813023,-0.153315,-29.782801
11.185,2.0,1.0,1.0,34.7,33.5,33.5,3.4,2.8,2.6475,0.1284063871166387,-0.0317485979876534,0.9738027105785296,-0.00885505700382147,-0.155717,-29.64016
11.185,2.0,1.0,1.0,34.7,33.5,33.5,3.4,2.8,2.65,0.1161737099982822,-0.03215876501461141,0.9750577766167244,-0.009416620589377877,-0.158176,-29.496748
11.185,2.0,1.0,1.0,34.7,33.5,33.5,3.4,2.8,2.6525,0.1038314817007473,-0.032570394551843226,0.9761632675155777,-0.00999681439438868,-0.160691,-29.35255
11.185,2.0,1.0,1.0,34.7,33.5,33.5,3.4,2.8,2.655,0.09138024445231156,-0.03298326951127295,0.9771153014919912,-0.010596216807954873,-0.163265,-29.207551
11.185,2.0,1.0,1.0,34.7,33.5,33.5,3.4,2.8,2.6575,0.07882062219861957,-0.03339715715449542,0.9779099178500027,-0.01121542496745449,-0.1659,-29.061737
11.185,2.0,1.0,1.0,34.7,33.5,33.5,3.4,2.8,2.66,0.06615332451113805,-0.033811808188740765,0.9785430762969707,-0.011855055436949816,-0.168598,-28.915092
11.185,2.0,1.0,1.0,34.7,33.5,33.5,3.4,2.8,2.6625,0.05337915063684952,-0.034226955809532604,0.9790106563093648,-0.012515744917225714,-0.17136,-28.767599
11.185,2.0,1.0,1.0,34.7,33.5,33.5,3.4,2.8,2.665,0.04049899369310514,-0.034642314686382514,0.9793084565515233,-0.013198150989630208,-0.174189,-28.619244
11.185,2.0,1.0,1.0,34.7,33.5,33.5,3.4,2.8,2.6675,0.027513845011794713,-0.03505757988753969,0.9794321943507178,-0.013902952896083372,-0.177087,-28.470008
11.185,2.0,1.0,1.0,34.7,33.5,33.5,3.4,2.8,2.67,0.014424798637015809,-0.03547242573946466,0.9793775052319049,-0.014630852357840264,-0.180055,-28.319875
11.185,2.0,1.0,1.0,34.7,33.5,33.5,3.4,2.8,2.6725,0.001233055980644606,-0.03588650461630058,0.9791399425154893,-0.015382574435832297,-0.183098,-28.168826
11.185,2.0,1.0,1.0,34.7,33.5,33.5,3.4,2.8,2.675,-0.01206006935960308,-0.036299445654180126,0.9787149769813972,-0.016158868435673882,-0.186216,-28.016842
11.185,2.0,1.0,1.0,34.7,33.5,33.5,3.4,2.8,2.6775,-0.02545314661485652,-0.03671085338471625,0.978097996602666,-0.016960508860712226,-0.189413,-27.863904
11.185,2.0,1.0,1.0,34.7,33.5,33.5,3.4,2.8,2.68,-0.038944622687469406,-0.03712030628148684,0.9772843063516343,-0.017788296416816344,-0.19269,-27.709993
11.185,2.0,1.0,1.0,34.7,33.5,33.5,3.4,2.8,2.6825,-0.05253281681577769,-0.03752735521271121,0.976269128081709,-0.018643059072950434,-0.196052,-27.555086
11.185,2.0,1.0,1.0,34.7,33.5,33.5,3.4,2.8,2.685,-0.0662159150555866,-0.03793152179264407,0.9750476004874433,-0.019525653181964656,-0.199501,-27.399163
11.185,2.0,1.0,1.0,34.7,33.5,33.5,3.4,2.8,2.6875,-0.07999196457231943,-0.03833229662344748,0.9736147791454478,-0.020436964666458057,-0.203039,-27.242202
11.185,2.0,1.0,1.0,34.7,33.5,33.5,3.4,2.8,2.69,-0.09385886773730522,-0.0387291374184543,0.9719656366383812,-0.02137791027503316,-0.206671,-27.084178
11.185,2.0,1.0,1.0,34.7,33.5,33.5,3.4,2.8,2.6925,-0.1078143760211752,-0.039121466996779056,0.9700950627638733,-0.022349438914777094,-0.2104,-26.925068
11.185,2.0,1.0,1.0,34.7,33.5,33.5,3.4,2.8,2.695,-0.12185608367661831,-0.03950867113815511,0.9679978648298713,-0.023352533066359316,-0.214229,-26.764847
11.185,2.0,1.0,1.0,34.7,33.5,33.5,3.4,2.8,2.6975,-0.13598142120212117,-0.03989009628567146,0.9656687680373839,-0.024388210288760474,-0.218162,-26.603489
11.185,2.0,1.0,1.0,34.7,33.5,33.5,3.4,2.8,2.7,-0.15018764857730596,-0.04026504708271432,0.9631024159510293,-0.025457524821315726,-0.222204,-26.440967
11.185,2.0,1.0,1.0,34.7,33.5,33.5,3.4,2.8,2.7025,-0.1644718482595927,-0.04063278372888395,0.9602933710571782,-0.026561569291503835,-0.226357,-26.277252
11.185,2.0,1.0,1.0,34.7,33.5,33.5,3.4,2.8,2.705,-0.17883091793059977,-0.040992519137913234,0.9572361154086902,-0.027701476537721894,-0.230627,-26.112314
11.185,2.0,1.0,1.0,34.7,33.5,33.5,3.4,2.8,2.7075,-0.19326156297938718,-0.04134341587865355,0.9539250513544315,-0.02887842155717896,-0.235019,-25.946124
11.185,2.0,1.0,1.0,34.7,33.5,33.5,3.4,2.8,2.71,-0.2077602887079491,-0.04168458287795672,0.9503545023507706,-0.030093623590012684,-0.239537,-25.778649
11.185,2.0,1.0,1.0,34.7,33.5,33.5,3.4,2.8,2.7125,-0.22232339224249473,-0.04201507186176169,0.9465187138511715,-0.03134834835180092,-0.244187,-25.609856
11.185,2.0,1.0,1.0,34.7,33.5,33.5,3.4,2.8,2.715,-0.23694695413180475,-0.0423338735078175,0.9424118542687863,-0.032643910427798704,-0.248974,-25.439709
11.185,2.0,1.0,1.0,34.7,33.5,33.5,3.4,2.8,2.7175,-0.251626829611373,-0.0426399132802117,0.9380280160055604,-0.033981675843501376,-0.253904,-25.268173
11.185,2.0,1.0,1.0,34.7,33.5,33.5,3.4,2.8,2.72,-0.26635863950895605,-0.0429320469121525,0.9333612165398657,-0.03536306482750904,-0.258983,-25.095208
11.185,2.0,1.0,1.0,34.7,33.5,33.5,3.4,2.8,2.7225,-0.2811377607637304,-0.043209055499217434,0.9284053995629618,-0.03678955478417303,-0.264219,-24.920775
11.185,2.0,1.0,1.0,34.7,33.5,33.5,3.4,2.8,2.725,-0.295959316526982,-0.043469640160434427,0.9231544361527307,-0.038262683495118646,-0.269618,-24.744832
11.185,2.0,1.0,1.0,34.7,33.5,33.5,3.4,2.8,2.7275,-0.31081816580764016,-0.04371241621903083,0.9176021259710607,-0.03978405257050778,-0.275187,-24.567335
11.185,2.0,1.0,1.0,34.7,33.5,33.5,3.4,2.8,2.73,-0.32570889262018204,-0.043935906848343594,0.9117421984690095,-0.0413553311727854,-0.280935,-24.388238
11.185,2.0,1.0,1.0,34.7,33.5,33.5,3.4,2.8,2.7325,-0.3406257945861005,-0.04413853612111972,0.9055683140814017,-0.04297826003769879,-0.286871,-24.207492
11.185,2.0,1.0,1.0,34.7,33.5,33.5,3.4,2.8,2.735,-0.3555628709324051,-0.04431862139208708,0.8990740653898595,-0.0446546558195429,-0.293003,-24.025046
11.185,2.0,1.0,1.0,34.7,33.5,33.5,3.4,2.8,2.7375,-0.3705138098218684,-0.04447436493407788,0.8922529782303669,-0.04638641578990481,-0.299341,-23.840848
11.185,2.0,1.0,1.0,34.7,33.5,33.5,3.4,2.8,2.74,-0.3854719749393509,-0.04460384473692891,0.8850985127183909,-0.048175522921614776,-0.305897,-23.65484
11.185,2.0,1.0,1.0,34.7,33.5,33.5,3.4,2.8,2.7425,-0.40043039124659857,-0.044705004365627306,0.8776040641612813,-0.05002405139217233,-0.31268,-23.466965
11.185,2.0,1.0,1.0,34.7,33.5,33.5,3.4,2.8,2.745,-0.415381729803762,-0.04477564175942391,0.8697629638242069,-0.051934172543556215,-0.319705,-23.277159
11.185,2.0,1.0,1.0,34.7,33.5,33.5,3.4,2.8,2.7475,-0.4303182915395966,-0.04481339683657526,0.8615684795122883,-0.05390816133802778,-0.326982,-23.085356
11.185,2.0,1.0,1.0,34.7,33.5,33.5,3.4,2.8,2.75,-0.44523198983308,-0.0448157377495814,0.853013815927852,-0.0559484033522332,-0.334528,-22.891489
11.185,2.0,1.0,1.0,34.7,33.5,33.5,3.4,2.8,2.7525,-0.460114331746828,-0.04477994561280071,0.8440921147580407,-0.058057402354528956,-0.342356,-22.695484
11.185,2.0,1.0,1.0,34.7,33.5,33.5,3.4,2.8,2.755,-0.4749563977263786,-0.044703097497574014,0.8347964544443285,-0.06023778851289011,-0.350484,-22.497263
11.185,2.0,1.0,1.0,34.7,33.5,33.5,3.4,2.8,2.7575,-0.4897488195487342,-0.04458204745879242,0.8251198495820581,-0.062492327282875335,-0.358929,-22.296746
11.185,2.0,1.0,1.0,34.7,33.5,33.5,3.4,2.8,2.76,-0.5044817562674276,-0.04441340532042153,0.8150552498951631,-0.06482392902669663,-0.36771,-22.093847
11.185,2.0,1.0,1.0,34.7,33.5,33.5,3.4,2.8,2.7625,-0.5191448678589042,-0.044193512904840936,0.804595538728794,-0.06723565941524773,-0.37685,-21.888474
11.185,2.0,1.0,1.0,34.7,33.5,33.5,3.4,2.8,2.765,-0.5337272862251644,-0.04391841734086172,0.7937335310013719,-0.06973075066458888,-0.386369,-21.680532
11.185,2.0,1.0,1.0,34.7,33.5,33.5,3.4,2.8,2.7675,-0.5482175831486902,-0.043583841026515587,0.7824619705577107,-0.07231261365642441,-0.396295,-21.469918
11.185,2.0,1.0,1.0,34.7,33.5,33.5,3.4,2.8,2.77,-0.5626037347262399,-0.043185147753520975,0.7707735268672197,-0.07498485098790167,-0.406653,-21.256524
11.185,2.0,1.0,1.0,34.7,33.5,33.5,3.4,2.8,2.7725,-0.5768730817260008,-0.042717304418681934,0.7586607910164962,-0.07775127098876429,-0.417474,-21.040237
11.185,2.0,1.0,1.0,34.7,33.5,33.5,3.4,2.8,2.775,-0.5910122852151162,-0.042174837650936395,0.7461162709550254,-0.08061590273241241,-0.42879,-20.820934
11.185,2.0,1.0,1.0,34.7,33.5,33.5,3.4,2.8,2.7775,-0.605007276689328,-0.041551784568366654,0.7331323859676777,-0.08358301205027646,-0.440637,-20.598487
11.185,2.0,1.0,1.0,34.7,33.5,33.5,3.4,2.8,2.78,-0.6188432017990518,-0.040841636743636806,0.7197014603702002,-0.08665711853415169,-0.453055,-20.372758
11.185,2.0,1.0,1.0,34.7,33.5,33.5,3.4,2.8,2.7825,-0.6325043566026876,-0.04003727629465703,0.7058157164566249,-0.08984301347616197,-0.466088,-20.143602
11.185,2.0,1.0,1.0,34.7,33.5,33.5,3.4,2.8,2.785,-0.6459741150829267,-0.039130902824486995,0.6914672667737283,-0.0931457786474112,-0.479783,-19.910864
11.185,2.0,1.0,1.0,34.7,33.5,33.5,3.4,2.8,2.7875,-0.659234846428331,-0.03811394970411147,0.6766481058623791,-0.09657080574949277,-0.494194,-19.674379
11.185,2.0,1.0,1.0,34.7,33.5,33.5,3.4,2.8,2.79,-0.6722678203031937,-0.03697698791588446,0.6613501016944762,-0.1001238162818188,-0.50938,-19.433971
11.185,2.0,1.0,1.0,34.7,33.5,33.5,3.4,2.8,2.7925,-0.6850530979931562,-0.035709615344518775,0.6455649871559759,-0.1038108814439562,-0.525408,-19.189454
11.185,2.0,1.0,1.0,34.7,33.5,33.5,3.4,2.8,2.795,-0.6975694069111311,-0.034300329004827004,0.6292843520918069,-0.10763844152494864,-0.542352,-18.940627
11.185,2.0,1.0,1.0,34.7,33.5,33.5,3.4,2.8,2.7975,-0.7097939954627578,-0.032736377216743745,0.6124996366525163,-0.11161332400618876,-0.560292,-18.687277
11.185,2.0,1.0,1.0,34.7,33.5,33.5,3.4,2.8,2.8,-0.7217024646858494,-0.03100358816121276,0.595202126984863,-0.11574275930112324,-0.579324,-18.429179
11.185,2.0,1.0,1.0,34.7,33.5,33.5,3.4,2.8,2.8025,-0.7332685723726102,-0.02908617055438954,0.5773829547164765,-0.12003439264713338,-0.59955,-18.166088
11.185,2.0,1.0,1.0,34.7,33.5,33.5,3.4,2.8,2.805,-0.7444640045314161,-0.026966481337182543,0.5590331022345943,-0.12449629011629369,-0.621088,-17.897747
11.185,2.0,1.0,1.0,34.7,33.5,33.5,3.4,2.8,2.8075,-0.7552581080164872,-0.024624754262385227,0.540143416500062,-0.1291369359732966,-0.644072,-17.623877
11.185,2.0,1.0,1.0,34.7,33.5,33.5,3.4,2.8,2.81,-0.7656175769126556,-0.022038782037259296,0.5207046351380517,-0.13396521761383082,-0.668654,-17.344184
11.185,2.0,1.0,1.0,34.7,33.5,33.5,3.4,2.8,2.8125,-0.7755060837675011,-0.019183543204478612,0.5007074298984138,-0.13899039297381727,-0.695005,-17.058351
11.185,2.0,1.0,1.0,34.7,33.5,33.5,3.4,2.8,2.815,-0.7848838449678271,-0.016030763172903327,0.4801424744075391,-0.14422203348404938,-0.723323,-16.766039
11.185,2.0,1.0,1.0,34.7,33.5,33.5,3.4,2.8,2.8175,-0.7937071074114055,-0.012548396692399644,0.45900054561419057,-0.149669933183895,-0.753835,-16.466888
11.185,2.0,1.0,1.0,34.7,33.5,33.5,3.4,2.8,2.82,-0.8019275410793004,-0.00870001655525539,0.43727267170344825,-0.15534397126473398,-0.786803,-16.160511
11.185,2.0,1.0,1.0,34.7,33.5,33.5,3.4,2.8,2.8225,-0.8094915191279639,-0.0044440903608895166,0.4149503438469964,-0.16125391076112006,-0.822528,-15.846498
11.185,2.0,1.0,1.0,34.7,33.5,33.5,3.4,2.8,2.825,-0.8163392636779435,0.0002668762151308584,0.39202581543302417,-0.1674091098918039,-0.861363,-15.524407
11.185,2.0,1.0,1.0,34.7,33.5,33.5,3.4,2.8,2.8275,-0.8224038316131906,0.005487355016325615,0.3684925210104134,-0.17381811404544173,-0.903719,-15.193773
