1,w,sub_t,h,l1,l2,l3,g1,g2,Freq,S11_re,S21_re,S11_img,S21_img,S11_dB,S21_dB
11.185,2.0,1.0,1.0,33.8,34.0,34.0,3.8,2.7,2.5,0.812048196339346,-0.00775186760839834,0.57234626814438,0.00509169706768127,-0.056817,-40.654166
11.185,2.0,1.0,1.0,33.8,34.0,34.0,3.8,2.7,2.5025,0.8079964221057614,-0.007899808968584065,0.5779440729182849,0.0050997339759924175,-0.057367,-40.534776
11.185,2.0,1.0,1.0,33.8,34.0,34.0,3.8,2.7,2.505,0.8038872876472182,-0.00805030222782976,0.5835371852251857,0.005106727736113756,-0.057927,-40.415028
11.185,2.0,1.0,1.0,33.8,34.0,34.0,3.8,2.7,2.5075,0.7997202292346491,-0.008203398033723481,0.5891252600925085,0.005112638887002897,-0.058496,-40.294913
11.185,2.0,1.0,1.0,33.8,34.0,34.0,3.8,2.7,2.51,0.7954946748881087,-0.008359148323538701,0.594707942520555,0.005117426532691746,-0.059076,-40.17442
11.185,2.0,1.0,1.0,33.8,34.0,34.0,3.8,2.7,2.5125,0.7912100442685223,-0.008517606364907258,0.6002848671718787,0.005121048283349798,-0.059666,-40.05354
11.185,2.0,1.0,1.0,33.8,34.0,34.0,3.8,2.7,2.515,0.7868657485688831,-0.008678826798059444,0.6058556580507554,0.005123460193572298,-0.060267,-39.932265
11.185,2.0,1.0,1.0,33.8,34.0,34.0,3.8,2.7,2.5175,0.7824611904049462,-0.008842865679703904,0.6114199281723789,0.005124616697742598,-0.060879,-39.810584
11.185,2.0,1.0,1.0,33.8,34.0,34.0,3.8,2.7,2.52,0.7779957637054566,-0.009009780528624686,0.6169772792214405,0.005124470542308392,-0.061502,-39.688488
11.185,2.0,1.0,1.0,33.8,34.0,34.0,3.8,2.7,2.5225,0.7734688536019774,-0.009179630373075273,0.6225273011996829,0.005122972714801514,-0.062137,-39.565966
11.185,2.0,1.0,1.0,33.8,34.0,34.0,3.8,2.7,2.525,0.768879836318354,-0.00935247580005632,0.6280695720620588,0.005120072369420265,-0.062783,-39.443009
11.185,2.0,1.0,1.0,33.8,34.0,34.0,3.8,2.7,2.5275,0.7642280790598744,-0.009528379006566777,0.633603657341071,0.005115716748981516,-0.063442,-39.319605
11.185,2.0,1.0,1.0,33.8,34.0,34.0,3.8,2.7,2.53,0.7595129399021914,-0.009707403852923365,0.6391291097588591,0.005109851103037393,-0.064113,-39.195746
11.185,2.0,1.0,1.0,33.8,34.0,34.0,3.8,2.7,2.5325,0.7547337676800526,-0.009889615918249606,0.6446454688265867,0.005102418601938,-0.064796,-39.071419
11.185,2.0,1.0,1.0,33.8,34.0,34.0,3.8,2.7,2.535,0.7498899018759145,-0.010075082558240769,0.6501522604306669,0.00509336024660765,-0.065493,-38.946615
11.185,2.0,1.0,1.0,33.8,34.0,34.0,3.8,2.7,2.5375,0.7449806725085023,-0.010263872965316436,0.6556489964053188,0.0050826147737859165,-0.066203,-38.821322
11.185,2.0,1.0,1.0,33.8,34.0,34.0,3.8,2.7,2.54,0.7400054000213846,-0.010456058231280608,0.6611351740909567,0.005070118556469053,-0.066927,-38.695528
11.185,2.0,1.0,1.0,33.8,34.0,34.0,3.8,2.7,2.5425,0.734963395171636,-0.010651711412614518,0.6666102758778689,0.005055805499268999,-0.067664,-38.569223
11.185,2.0,1.0,1.0,33.8,34.0,34.0,3.8,2.7,2.545,0.7298539589186618,-0.010850907598535606,0.6720737687346282,0.005039606928388091,-0.068417,-38.442395
11.185,2.0,1.0,1.0,33.8,34.0,34.0,3.8,2.7,2.5475,0.7246763823132729,-0.011053723981963363,0.6775251037206357,0.005021451475887275,-0.069183,-38.315031
11.185,2.0,1.0,1.0,33.8,34.0,34.0,3.8,2.7,2.55,0.7194299463870725,-0.011260239933541645,0.6829637154821985,0.005001264957902515,-0.069966,-38.187121
11.185,2.0,1.0,1.0,33.8,34.0,34.0,3.8,2.7,2.5525,0.7141139220422655,-0.01147053707887548,0.6883890217314758,0.004978970246441374,-0.070763,-38.05865
11.185,2.0,1.0,1.0,33.8,34.0,34.0,3.8,2.7,2.555,0.708727569941958,-0.011684699379149805,0.6938004227076239,0.004954487134364177,-0.071577,-37.929607
11.185,2.0,1.0,1.0,33.8,34.0,34.0,3.8,2.7,2.5575,0.7032701404010415,-0.011902813215308642,0.699197300619435,0.004927732193127703,-0.072408,-37.799979
11.185,2.0,1.0,1.0,33.8,34.0,34.0,3.8,2.7,2.56,0.6977408732777647,-0.01212496747598235,0.7045790190687017,0.00489861862283804,-0.073255,-37.669752
11.185,2.0,1.0,1.0,33.8,34.0,34.0,3.8,2.7,2.5625,0.6921389978660768,-0.012351253649363396,0.7099449224535359,0.004867056094126912,-0.074119,-37.538913
11.185,2.0,1.0,1.0,33.8,34.0,34.0,3.8,2.7,2.565,0.6864637327888459,-0.012581765919243365,0.7152943353508038,0.004832950581330421,-0.075002,-37.407449
11.185,2.0,1.0,1.0,33.8,34.0,34.0,3.8,2.7,2.5675,0.680714285892055,-0.012816601265435813,0.7206265618768039,0.004796204186410673,-0.075903,-37.275345
11.185,2.0,1.0,1.0,33.8,34.0,34.0,3.8,2.7,2.57,0.6748898541400749,-0.013055859568825042,0.7259408850252647,0.004756714953019016,-0.076823,-37.142586
11.185,2.0,1.0,1.0,33.8,34.0,34.0,3.8,2.7,2.5725,0.6689896235121182,-0.013299643721295088,0.7312365659816983,0.004714376670055127,-0.077762,-37.009159
11.185,2.0,1.0,1.0,33.8,34.0,34.0,3.8,2.7,2.575,0.6630127688999811,-0.013548059740809207,0.7365128434130652,0.004669078664026535,-0.078721,-36.875048
11.185,2.0,1.0,1.0,33.8,34.0,34.0,3.8,2.7,2.5775,0.6569584540071791,-0.01380121689192732,0.7417689327316807,0.004620705579460596,-0.079701,-36.740238
11.185,2.0,1.0,1.0,33.8,34.0,34.0,3.8,2.7,2.58,0.6508258312495896,-0.014059227812067305,0.7470040253321925,0.004569137146563142,-0.080702,-36.604712
11.185,2.0,1.0,1.0,33.8,34.0,34.0,3.8,2.7,2.5825,0.6446140416576962,-0.014322208643835372,0.7522172878004315,0.004514247935254961,-0.081725,-36.468456
11.185,2.0,1.0,1.0,33.8,34.0,34.0,3.8,2.7,2.585,0.6383222147805584,-0.014590279173771422,0.7574078610928221,0.004455907094649104,-0.08277,-36.331451
11.185,2.0,1.0,1.0,33.8,34.0,34.0,3.8,2.7,2.5875,0.6319494685915955,-0.014863562977878515,0.7625748596849933,0.004393978076957953,-0.083839,-36.193682
11.185,2.0,1.0,1.0,33.8,34.0,34.0,3.8,2.7,2.59,0.6254949093963063,-0.015142187574327967,0.7677173706881186,0.004328318344737084,-0.084931,-36.05513
11.185,2.0,1.0,1.0,33.8,34.0,34.0,3.8,2.7,2.5925,0.6189576317420107,-0.015426284583758847,0.7728344529314402,0.004258779060285184,-0.086048,-35.915778
11.185,2.0,1.0,1.0,33.8,34.0,34.0,3.8,2.7,2.595,0.6123367183297285,-0.015715989897616123,0.7779251360093065,0.004185204755922052,-0.087191,-35.775607
11.185,2.0,1.0,1.0,33.8,34.0,34.0,3.8,2.7,2.5975,0.6056312399282753,-0.016011443855003003,0.7829884192909772,0.0041074329837616315,-0.088359,-35.6346
11.185,2.0,1.0,1.0,33.8,34.0,34.0,3.8,2.7,2.6,0.5988402552906689,-0.016312791428552288,0.7880232708912891,0.0040252939434809515,-0.089555,-35.492735
11.185,2.0,1.0,1.0,33.8,34.0,34.0,3.8,2.7,2.6025,0.5919628110729367,-0.016620182419856223,0.7930286266001715,0.003938610086459686,-0.090779,-35.349994
11.185,2.0,1.0,1.0,33.8,34.0,34.0,3.8,2.7,2.605,0.584997941755388,-0.016933771665029643,0.7980033887688549,0.0038471956945266067,-0.092031,-35.206356
11.185,2.0,1.0,1.0,33.8,34.0,34.0,3.8,2.7,2.6075,0.5779446695664195,-0.0172537192510195,0.8029464251504445,0.003750856431396769,-0.093313,-35.0618
11.185,2.0,1.0,1.0,33.8,34.0,34.0,3.8,2.7,2.61,0.5708020044089158,-0.017580190743314354,0.8078565676923808,0.0036493888647171962,-0.094626,-34.916304
11.185,2.0,1.0,1.0,33.8,34.0,34.0,3.8,2.7,2.6125,0.5635689437892791,-0.01791335742575159,0.8127326112781063,0.0035425799564548868,-0.095971,-34.769846
11.185,2.0,1.0,1.0,33.8,34.0,34.0,3.8,2.7,2.615,0.5562444727491123,-0.018253396553166105,0.8175733124150656,0.003430206519159789,-0.097349,-34.622403
11.185,2.0,1.0,1.0,33.8,34.0,34.0,3.8,2.7,2.6175,0.5488275637995792,-0.018600491617674512,0.8223773878659228,0.003312034635414104,-0.09876,-34.473952
11.185,2.0,1.0,1.0,33.8,34.0,34.0,3.8,2.7,2.62,0.5413171768584261,-0.018954832629440855,0.8271435132196646,0.0031878190375337805,-0.100207,-34.324468
11.185,2.0,1.0,1.0,33.8,34.0,34.0,3.8,2.7,2.6225,0.5337122591896291,-0.01931661641282794,0.8318703213989512,0.0030573024443200183,-0.10169,-34.173927
11.185,2.0,1.0,1.0,33.8,34.0,34.0,3.8,2.7,2.625,0.526011745345636,-0.0196860469188963,0.8365564010998,0.00292021485135985,-0.103211,-34.022301
11.185,2.0,1.0,1.0,33.8,34.0,34.0,3.8,2.7,2.6275,0.5182145571121022,-0.020063335555278956,0.8412002951593526,0.002776272771047065,-0.104771,-33.869566
11.185,2.0,1.0,1.0,33.8,34.0,34.0,3.8,2.7,2.63,0.5103196034550243,-0.02044870153452656,0.8458004988471157,0.0026251784181304492,-0.106371,-33.715692
11.185,2.0,1.0,1.0,33.8,34.0,34.0,3.8,2.7,2.6325,0.502325780470131,-0.020842372242089877,0.850355458074644,0.002466618836194265,-0.108014,-33.560652
11.185,2.0,1.0,1.0,33.8,34.0,34.0,3.8,2.7,2.635,0.49423197133435665,-0.021244583625182653,0.8548635675182205,0.002300264960028451,-0.1097,-33.404417
11.185,2.0,1.0,1.0,33.8,34.0,34.0,3.8,2.7,2.6375,0.48603704625918914,-0.021655580603848278,0.8593231686485566,0.0021257706083519724,-0.111432,-33.246955
11.185,2.0,1.0,1.0,33.8,34.0,34.0,3.8,2.7,2.64,0.4777398624456244,-0.022075617505638755,0.863732547661025,0.0019427714008004265,-0.11321,-33.088237
11.185,2.0,1.0,1.0,33.8,34.0,34.0,3.8,2.7,2.6425,0.46933926404045084,-0.022504958525402425,0.8680899332992859,0.0017508835924783864,-0.115037,-32.928228
11.185,2.0,1.0,1.0,33.8,34.0,34.0,3.8,2.7,2.645,0.4608340820934963,-0.02294387821177058,0.872393494564534,0.001549702818693772,-0.116915,-32.766896
11.185,2.0,1.0,1.0,33.8,34.0,34.0,3.8,2.7,2.6475,0.45222313451546464,-0.02339266198202922,0.8766413383017845,0.001338802741731512,-0.118846,-32.604205
11.185,2.0,1.0,1.0,33.8,34.0,34.0,3.8,2.7,2.65,0.4435052260358826,-0.02385160666716322,0.8808315066538207,0.0011177335906748813,-0.120831,-32.44012
11.185,2.0,1.0,1.0,33.8,34.0,34.0,3.8,2.7,2.6525,0.43467914816069525,-0.024321021088960847,0.884961974372438,0.0008860205843343289,-0.122874,-32.274604
11.185,2.0,1.0,1.0,33.8,34.0,34.0,3.8,2.7,2.655,0.42574367912890915,-0.024801226671174712,0.8890306459755907,0.0006431622262807893,-0.124977,-32.107617
11.185,2.0,1.0,1.0,33.8,34.0,34.0,3.8,2.7,2.6575,0.4166975838676997,-0.025292558086837027,0.8930353527378414,0.00038862845979175504,-0.127141,-31.93912
11.185,2.0,1.0,1.0,33.8,34.0,34.0,3.8,2.7,2.66,0.4075396139452923,-0.025795363943934967,0.8969738495001995,0.00012185866918178781,-0.129371,-31.76907
11.185,2.0,1.0,1.0,33.8,34.0,34.0,3.8,2.7,2.6625,0.3982685075209182,-0.02631000751175194,0.9008438112839168,-0.00015774048750986257,-0.131668,-31.597424
11.185,2.0,1.0,1.0,33.8,34.0,34.0,3.8,2.7,2.665,0.3888829892910512,-0.02683686749027906,0.90464282969114,-0.00045079743119140773,-0.134035,-31.424138
11.185,2.0,1.0,1.0,33.8,34.0,34.0,3.8,2.7,2.6675,0.37938177043115284,-0.02737633882518699,0.9083684090734122,-0.0007579782183680984,-0.136477,-31.249165
11.185,2.0,1.0,1.0,33.8,34.0,34.0,3.8,2.7,2.67,0.36976354853207605,-0.027928833570926855,0.9120179624468696,-0.0010799893225337616,-0.138995,-31.072455
11.185,2.0,1.0,1.0,33.8,34.0,34.0,3.8,2.7,2.6725,0.3600270075302985,-0.028494781804583032,0.9155888071305603,-0.0014175806634947933,-0.141595,-30.893958
11.185,2.0,1.0,1.0,33.8,34.0,34.0,3.8,2.7,2.675,0.3501708176311823,-0.029074632593133722,0.9190781600815491,-0.0017715489105603333,-0.144279,-30.713622
11.185,2.0,1.0,1.0,33.8,34.0,34.0,3.8,2.7,2.6775,0.34019363522448465,-0.02966885501677356,0.9224831328973767,-0.0021427410886452293,-0.147052,-30.53139
11.185,2.0,1.0,1.0,33.8,34.0,34.0,3.8,2.7,2.68,0.33009410279145374,-0.03027793925090554,0.9258007264528881,-0.002532058519863404,-0.149918,-30.347207
11.185,2.0,1.0,1.0,33.8,34.0,34.0,3.8,2.7,2.6825,0.3198708488030089,-0.030902397709304433,0.92902782513441,-0.0029404611372054745,-0.152882,-30.161012
11.185,2.0,1.0,1.0,33.8,34.0,34.0,3.8,2.7,2.685,0.30952248760869433,-0.03154276625077378,0.9321611906296899,-0.003368972211469087,-0.155948,-29.972742
11.185,2.0,1.0,1.0,33.8,34.0,34.0,3.8,2.7,2.6875,0.299047619316457,-0.032199605451341,0.935197455226734,-0.00381868353782869,-0.159123,-29.782333
11.185,2.0,1.0,1.0,33.8,34.0,34.0,3.8,2.7,2.69,0.2884448296637229,-0.03287350194363224,0.9381331145687234,-0.004290761134394194,-0.162411,-29.589716
11.185,2.0,1.0,1.0,33.8,34.0,34.0,3.8,2.7,2.6925,0.277712689880834,-0.033565069824510366,0.9409645198052787,-0.004786451511937787,-0.165819,-29.394819
11.185,2.0,1.0,1.0,33.8,34.0,34.0,3.8,2.7,2.695,0.26684975654874105,-0.034274952131296166,0.9436878690725116,-0.005307088581794338,-0.169353,-29.197569
11.185,2.0,1.0,1.0,33.8,34.0,34.0,3.8,2.7,2.6975,0.2558545714538432,-0.03500382238588162,0.9462991982251785,-0.005854101277941875,-0.17302,-28.997887
11.185,2.0,1.0,1.0,33.8,34.0,34.0,3.8,2.7,2.7,0.24472566144427857,-0.035752386204703265,0.94879437073388,-0.006429021979620262,-0.176829,-28.795691
11.185,2.0,1.0,1.0,33.8,34.0,34.0,3.8,2.7,2.7025,0.23346153829368796,-0.03652138297080666,0.9511690666481621,-0.0070334958327932864,-0.180787,-28.590894
11.185,2.0,1.0,1.0,33.8,34.0,34.0,3.8,2.7,2.705,0.22206069858079155,-0.03731158756197507,0.9534187705124513,-0.0076692910825590516,-0.184902,-28.383408
11.185,2.0,1.0,1.0,33.8,34.0,34.0,3.8,2.7,2.7075,0.21052162359597673,-0.03812381212600006,0.9555387581056535,-0.008338310544595823,-0.189185,-28.173136
11.185,2.0,1.0,1.0,33.8,34.0,34.0,3.8,2.7,2.71,0.1988427792898652,-0.038958907890454926,0.957524081856478,-0.009042604362270409,-0.193646,-27.959981
11.185,2.0,1.0,1.0,33.8,34.0,34.0,3.8,2.7,2.7125,0.18702261628351752,-0.039817766989592586,0.9593695547648019,-0.00978438421759508,-0.198296,-27.743835
11.185,2.0,1.0,1.0,33.8,34.0,34.0,3.8,2.7,2.715,0.1750595699660047,-0.04070132428494757,0.9610697326339736,-0.010566039189332556,-0.203147,-27.52459
11.185,2.0,1.0,1.0,33.8,34.0,34.0,3.8,2.7,2.7175,0.16295206071270316,-0.04161055914854032,0.9626188943893158,-0.011390153480875659,-0.208212,-27.30213
11.185,2.0,1.0,1.0,33.8,34.0,34.0,3.8,2.7,2.72,0.15069849426746787,-0.04254649716781755,0.9640110202233398,-0.01225952627484084,-0.213506,-27.076331
11.185,2.0,1.0,1.0,33.8,34.0,34.0,3.8,2.7,2.7225,0.13829726234410458,-0.04351021171906689,0.9652397672675125,-0.013177194011561106,-0.219045,-26.847064
11.185,2.0,1.0,1.0,33.8,34.0,34.0,3.8,2.7,2.725,0.12574674351842907,-0.04450282534028754,0.9662984424424406,-0.01414645543595892,-0.224845,-26.614193
11.185,2.0,1.0,1.0,33.8,34.0,34.0,3.8,2.7,2.7275,0.11304530450200168,-0.04552551081448984,0.9671799720820008,-0.015170899813010744,-0.230926,-26.377573
11.185,2.0,1.0,1.0,33.8,34.0,34.0,3.8,2.7,2.73,0.1001913019142295,-0.04657949184892961,0.9678768678601993,-0.01625443877780457,-0.237308,-26.137051
11.185,2.0,1.0,1.0,33.8,34.0,34.0,3.8,2.7,2.7325,0.08718308470176052,-0.04766604320336945,0.9683811884707105,-0.01740134236406875,-0.244014,-25.892467
11.185,2.0,1.0,1.0,33.8,34.0,34.0,3.8,2.7,2.735,0.07401899739557259,-0.048786490079105585,0.9686844964153477,-0.018616279847421046,-0.251069,-25.643646
11.185,2.0,1.0,1.0,33.8,34.0,34.0,3.8,2.7,2.7375,0.060697384448880565,-0.04994220652767506,0.9687778091464395,-0.019904366149421558,-0.258502,-25.390409
11.185,2.0,1.0,1.0,33.8,34.0,34.0,3.8,2.7,2.74,0.04721659596679031,-0.05113461257051669,0.9686515436752791,-0.021271214679397472,-0.266342,-25.13256
11.185,2.0,1.0,1.0,33.8,34.0,34.0,3.8,2.7,2.7425,0.033574995225468016,-0.052365169634065185,0.9682954536003222,-0.022722997647342303,-0.274624,-24.869895
11.185,2.0,1.0,1.0,33.8,34.0,34.0,3.8,2.7,2.745,0.01977096849057411,-0.05363537379307631,0.9676985573188996,-0.024266515068314277,-0.283386,-24.602194
11.185,2.0,1.0,1.0,33.8,34.0,34.0,3.8,2.7,2.7475,0.0058029377891519116,-0.054946746170885186,0.9668490559584824,-0.025909273903218247,-0.29267,-24.329224
11.185,2.0,1.0,1.0,33.8,34.0,34.0,3.8,2.7,2.75,-0.00833062252374802,-0.0563008196588047,0.965734239289717,-0.0276595790506176,-0.302524,-24.050735
11.185,2.0,1.0,1.0,33.8,34.0,34.0,3.8,2.7,2.7525,-0.022631164319299006,-0.05769912087469959,0.9643403775536741,-0.0295266382290091,-0.313002,-23.766462
11.185,2.0,1.0,1.0,33.8,34.0,34.0,3.8,2.7,2.755,-0.03710003796870662,-0.05914314596520291,0.9626525967380798,-0.03152068318062142,-0.324163,-23.47612
11.185,2.0,1.0,1.0,33.8,34.0,34.0,3.8,2.7,2.7575,-0.051738456520580296,-0.06063432844328667,0.9606547343569909,-0.033653110100596816,-0.336074,-23.179404
11.185,2.0,1.0,1.0,33.8,34.0,34.0,3.8,2.7,2.76,-0.06654744942098882,-0.06217399671088349,0.9583291722079613,-0.03593664276659912,-0.348814,-22.875988
11.185,2.0,1.0,1.0,33.8,34.0,34.0,3.8,2.7,2.7625,-0.08152780269653301,-0.0637633182015664,0.9556566418791106,-0.038385522534066165,-0.362469,-22.565522
11.185,2.0,1.0,1.0,33.8,34.0,34.0,3.8,2.7,2.765,-0.09667998156847099,-0.06540322613177556,0.9526159979310498,-0.041015730195656165,-0.377139,-22.247631
11.185,2.0,1.0,1.0,33.8,34.0,34.0,3.8,2.7,2.7675,-0.11200403019842177,-0.06709432358988268,0.9491839526565599,-0.04384524570782061,-0.392938,-21.921908
11.185,2.0,1.0,1.0,33.8,34.0,34.0,3.8,2.7,2.77,-0.12749944157131415,-0.06883675800928835,0.9453347650925584,-0.046894352993876655,-0.409997,-21.58792
11.185,2.0,1.0,1.0,33.8,34.0,34.0,3.8,2.7,2.7725,-0.14316498824393395,-0.07063005681113012,0.9410398754904757,-0.05018599847396676,-0.428468,-21.245197
11.185,2.0,1.0,1.0,33.8,34.0,34.0,3.8,2.7,2.775,-0.15899850161219437,-0.07247291195074415,0.9362674747109577,-0.0537462136783093,-0.448525,-20.893234
11.185,2.0,1.0,1.0,33.8,34.0,34.0,3.8,2.7,2.7775,-0.17499658317663275,-0.07436289696222773,0.9309819959741451,-0.05760461429213212,-0.470375,-20.531484
11.185,2.0,1.0,1.0,33.8,34.0,34.0,3.8,2.7,2.78,-0.19115422559230144,-0.0762960944504829,0.925143514067796,-0.06179499025647447,-0.494256,-20.159358
11.185,2.0,1.0,1.0,33.8,34.0,34.0,3.8,2.7,2.7825,-0.20746431348352,-0.07826660424371645,0.9187070345403276,-0.06635600405821261,-0.52045,-19.776219
11.185,2.0,1.0,1.0,33.8,34.0,34.0,3.8,2.7,2.785,-0.22391696324959265,-0.08026589176451912,0.9116216527253649,-0.07133201694180485,-0.54929,-19.381379
11.185,2.0,1.0,1.0,33.8,34.0,34.0,3.8,2.7,2.7875,-0.2404986462012353,-0.08228192143516481,0.9038295599718555,-0.07677406514870612,-0.581173,-18.974095
11.185,2.0,1.0,1.0,33.8,34.0,34.0,3.8,2.7,2.79,-0.25719101867589067,-0.08429799944951871,0.8952648728141009,-0.0827410098119434,-0.616572,-18.553565
11.185,2.0,1.0,1.0,33.8,34.0,34.0,3.8,2.7,2.7925,-0.2739693539201975,-0.08629122168722722,0.8858522611893018,-0.08930088362402121,-0.656059,-18.118925
11.185,2.0,1.0,1.0,33.8,34.0,34.0,3.8,2.7,2.795,-0.2908004301832188,-0.0882303826442261,0.8755053563551465,-0.0965324527040754,-0.700324,-17.669248
11.185,2.0,1.0,1.0,33.8,34.0,34.0,3.8,2.7,2.7975,-0.3076396730357057,-0.090073145474018,0.8641249317519462,-0.10452699935874786,-0.750212,-17.203544
11.185,2.0,1.0,1.0,33.8,34.0,34.0,3.8,2.7,2.8,-0.32442727117893494,-0.09176219543492252,0.8515968775605278,-0.1133903038348031,-0.806759,-16.720761
11.185,2.0,1.0,1.0,33.8,34.0,34.0,3.8,2.7,2.8025,-0.34108287580398394,-0.09321999123333964,0.837790044196324,-0.12324474872030389,-0.871248,-16.219796
11.185,2.0,1.0,1.0,33.8,34.0,34.0,3.8,2.7,2.805,-0.35749834412747405,-0.09434158136220976,0.8225541324967127,-0.1342313674938699,-0.945277,-15.699509
11.185,2.0,1.0,1.0,33.8,34.0,34.0,3.8,2.7,2.8075,-0.3735277882757754,-0.09498475604369361,0.805717995307892,-0.1465114727770377,-1.030857,-15.158751
11.185,2.0,1.0,1.0,33.8,34.0,34.0,3.8,2.7,2.81,-0.38897393664080937,-0.0949565555605108,0.787089048826852,-0.16026716847442019,-1.130527,-14.596416
11.185,2.0,1.0,1.0,33.8,34.0,34.0,3.8,2.7,2.8125,-0.403569520416485,-0.0939948671744264,0.766455076993015,-0.175699469759813,-1.247525,-14.011511
11.185,2.0,1.0,1.0,33.8,34.0,34.0,3.8,2.7,2.815,-0.4169521285212994,-0.09174358087701812,0.7435907187397245,-0.19302175758212028,-1.385993,-13.403283
11.185,2.0,1.0,1.0,33.8,34.0,34.0,3.8,2.7,2.8175,-0.42863091751637133,-0.08771972616116944,0.7182726178843855,-0.21244462176563522,-1.551254,-12.771402
11.185,2.0,1.0,1.0,33.8,34.0,34.0,3.8,2.7,2.82,-0.4379441798754832,-0.08127163515278152,0.6903099474093781,-0.234145446221738,-1.750136,-12.116254
11.185,2.0,1.0,1.0,33.8,34.0,34.0,3.8,2.7,2.8225,-0.4440090846586672,-0.07152948344062923,0.6596011550195354,-0.25821200868498506,-1.991333,-11.439366
11.185,2.0,1.0,1.0,33.8,34.0,34.0,3.8,2.7,2.825,-0.44567096734007455,-0.057355585130273806,0.6262332690700224,-0.28454396100655077,-2.285663,-10.744047
11.185,2.0,1.0,1.0,33.8,34.0,34.0,3.8,2.7,2.8275,-0.4414729997245807,-0.03731515659002578,0.5906452709242376,-0.3126910062163788,-2.645925,-10.036281
