1,w,sub_t,h,l1,l2,l3,g1,g2,Freq,S11_re,S21_re,S11_img,S21_img,S11_dB,S21_dB
11.185,2.0,1.0,1.0,33.7,33.3,33.3,3.5,2.5,2.5,0.825607085581592,-0.00784503248007201,0.552717211497671,0.00571363757970522,-0.056286,-40.259943
11.185,2.0,1.0,1.0,33.7,33.3,33.3,3.5,2.5,2.5025,0.8217358986012643,-0.007994353139410148,0.5583501214939749,0.005727458846057896,-0.056808,-40.14513
11.185,2.0,1.0,1.0,33.7,33.3,33.3,3.5,2.5,2.505,0.8178088001421915,-0.008146152554476874,0.563979626239454,0.005740267766718853,-0.057338,-40.030049
11.185,2.0,1.0,1.0,33.7,33.3,33.3,3.5,2.5,2.5075,0.8138252480336012,-0.008300474157905415,0.5696054062567517,0.005752026107845721,-0.057876,-39.914693
11.185,2.0,1.0,1.0,33.7,33.3,33.3,3.5,2.5,2.51,0.8097846924434775,-0.008457362294958434,0.5752271327925662,0.0057626943462425455,-0.058424,-39.799056
11.185,2.0,1.0,1.0,33.7,33.3,33.3,3.5,2.5,2.5125,0.8056865757904144,-0.008616862245083267,0.5808444675358875,0.005772231621234042,-0.05898,-39.68313
11.185,2.0,1.0,1.0,33.7,33.3,33.3,3.5,2.5,2.515,0.8015303326558636,-0.008779020243985,0.5864570623276475,0.0057805956845534455,-0.059545,-39.566909
11.185,2.0,1.0,1.0,33.7,33.3,33.3,3.5,2.5,2.5175,0.7973153896968905,-0.008943883506228894,0.5920645588615006,0.005787742848153318,-0.06012,-39.450385
11.185,2.0,1.0,1.0,33.7,33.3,33.3,3.5,2.5,2.52,0.793041165559526,-0.009111500248383777,0.597666588375466,0.005793627929843819,-0.060704,-39.333552
11.185,2.0,1.0,1.0,33.7,33.3,33.3,3.5,2.5,2.5225,0.7887070707928492,-0.00928191971271786,0.6032627713341193,0.0057982041966576124,-0.061298,-39.216403
11.185,2.0,1.0,1.0,33.7,33.3,33.3,3.5,2.5,2.525,0.7843125077639004,-0.009455192191458918,0.6088527171010492,0.005801423305835999,-0.061902,-39.098931
11.185,2.0,1.0,1.0,33.7,33.3,33.3,3.5,2.5,2.5275,0.7798568705735593,-0.009631369051630792,0.6144360236012653,0.005803235243324642,-0.062516,-38.981127
11.185,2.0,1.0,1.0,33.7,33.3,33.3,3.5,2.5,2.53,0.7753395449735274,-0.009810502760477771,0.6200122769732234,0.00580358825966203,-0.06314,-38.862986
11.185,2.0,1.0,1.0,33.7,33.3,33.3,3.5,2.5,2.5325,0.7707599082845465,-0.009992646911489145,0.6255810512101436,0.005802428803137092,-0.063775,-38.744499
11.185,2.0,1.0,1.0,33.7,33.3,33.3,3.5,2.5,2.535,0.7661173293160098,-0.010177856251035886,0.6311419077902793,0.005799701450086213,-0.064422,-38.625658
11.185,2.0,1.0,1.0,33.7,33.3,33.3,3.5,2.5,2.5375,0.7614111682871294,-0.01036618670563111,0.6366943952957685,0.005795348832192534,-0.065079,-38.506457
11.185,2.0,1.0,1.0,33.7,33.3,33.3,3.5,2.5,2.54,0.756640776749818,-0.010557695409826673,0.6422380490197075,0.005789311560643423,-0.065748,-38.386887
11.185,2.0,1.0,1.0,33.7,33.3,33.3,3.5,2.5,2.5425,0.7518054975134735,-0.010752440734757677,0.6477723905610647,0.00578152814699393,-0.066429,-38.266941
11.185,2.0,1.0,1.0,33.7,33.3,33.3,3.5,2.5,2.545,0.7469046645718468,-0.010950482317346456,0.6532969274070376,0.005771934920575486,-0.067122,-38.14661
11.185,2.0,1.0,1.0,33.7,33.3,33.3,3.5,2.5,2.5475,0.7419376030322044,-0.011151881090177769,0.6588111525024383,0.005760465942280931,-0.067827,-38.025887
11.185,2.0,1.0,1.0,33.7,33.3,33.3,3.5,2.5,2.55,0.7369036290469778,-0.01135669931205702,0.6643145438056999,0.005747052914546687,-0.068545,-37.904763
11.185,2.0,1.0,1.0,33.7,33.3,33.3,3.5,2.5,2.5525,0.7318020497481462,-0.011565000599261837,0.6698065638310425,0.005731625087343665,-0.069276,-37.78323
11.185,2.0,1.0,1.0,33.7,33.3,33.3,3.5,2.5,2.555,0.7266321631845669,-0.01177684995749872,0.6752866591763671,0.005714109159977381,-0.070021,-37.66128
11.185,2.0,1.0,1.0,33.7,33.3,33.3,3.5,2.5,2.5575,0.7213932582625125,-0.01199231381457502,0.6807542600363966,0.005694429178486581,-0.070779,-37.538903
11.185,2.0,1.0,1.0,33.7,33.3,33.3,3.5,2.5,2.56,0.716084614689676,-0.012211460053796119,0.6862087797005753,0.005672506428417814,-0.071551,-37.416092
11.185,2.0,1.0,1.0,33.7,33.3,33.3,3.5,2.5,2.5625,0.7107055029229176,-0.012434358048097552,0.691649614035226,0.005648259322740238,-0.072338,-37.292837
11.185,2.0,1.0,1.0,33.7,33.3,33.3,3.5,2.5,2.565,0.7052551841200461,-0.012661078694921238,0.6970761409494465,0.005621603284651705,-0.07314,-37.169129
11.185,2.0,1.0,1.0,33.7,33.3,33.3,3.5,2.5,2.5675,0.6997329100959465,-0.012891694451843462,0.7024877198441895,0.005592450625012006,-0.073956,-37.04496
11.185,2.0,1.0,1.0,33.7,33.3,33.3,3.5,2.5,2.57,0.6941379232833714,-0.013126279372962707,0.7078836910439754,0.005560710414124561,-0.074788,-36.92032
11.185,2.0,1.0,1.0,33.7,33.3,33.3,3.5,2.5,2.5725,0.688469456698744,-0.013364909146053558,0.7132633752106546,0.005526288347570264,-0.075636,-36.7952
11.185,2.0,1.0,1.0,33.7,33.3,33.3,3.5,2.5,2.575,0.682726733913327,-0.013607661130492017,0.7186260727386086,0.005489086605780112,-0.076501,-36.66959
11.185,2.0,1.0,1.0,33.7,33.3,33.3,3.5,2.5,2.5775,0.6769089690301456,-0.01385461439595656,0.723971063130763,0.0054490037070143976,-0.077382,-36.54348
11.185,2.0,1.0,1.0,33.7,33.3,33.3,3.5,2.5,2.58,0.6710153666670589,-0.014105849761907638,0.7292976043547605,0.005405934353395747,-0.078281,-36.41686
11.185,2.0,1.0,1.0,33.7,33.3,33.3,3.5,2.5,2.5825,0.6650451219464002,-0.014361449837847061,0.7346049321786218,0.005359769269621722,-0.079197,-36.289721
11.185,2.0,1.0,1.0,33.7,33.3,33.3,3.5,2.5,2.585,0.658997420491637,-0.014621499064356358,0.739892259485178,0.005310395033960032,-0.080132,-36.162052
11.185,2.0,1.0,1.0,33.7,33.3,33.3,3.5,2.5,2.5875,0.6528714384315075,-0.014886083754912023,0.745158775564558,0.005257693901104276,-0.081085,-36.033843
11.185,2.0,1.0,1.0,33.7,33.3,33.3,3.5,2.5,2.59,0.6466663424121382,-0.01515529213847224,0.7504036453839552,0.005201543616441733,-0.082057,-35.905083
11.185,2.0,1.0,1.0,33.7,33.3,33.3,3.5,2.5,2.5925,0.6403812896176462,-0.01542921440282834,0.7556260088338926,0.0051418172212564705,-0.083049,-35.775761
11.185,2.0,1.0,1.0,33.7,33.3,33.3,3.5,2.5,2.595,0.6340154277997914,-0.0157079427387098,0.7608249799501501,0.005078382848360574,-0.084062,-35.645866
11.185,2.0,1.0,1.0,33.7,33.3,33.3,3.5,2.5,2.5975,0.6275678953172303,-0.01599157138463031,0.7659996461105051,0.005011103507613805,-0.085095,-35.515387
11.185,2.0,1.0,1.0,33.7,33.3,33.3,3.5,2.5,2.6,0.6210378211849882,-0.016280196672457083,0.7711490672053894,0.004939836860756494,-0.086149,-35.384313
11.185,2.0,1.0,1.0,33.7,33.3,33.3,3.5,2.5,2.6025,0.6144243251347901,-0.016573917073682134,0.7762722747815177,0.004864434984943472,-0.087226,-35.252631
11.185,2.0,1.0,1.0,33.7,33.3,33.3,3.5,2.5,2.605,0.6077265176869033,-0.0168728332463705,0.7813682711575302,0.004784744124326202,-0.088325,-35.12033
11.185,2.0,1.0,1.0,33.7,33.3,33.3,3.5,2.5,2.6075,0.6009435002342105,-0.01717704808275353,0.7864360285106153,0.004700604428985932,-0.089447,-34.987399
11.185,2.0,1.0,1.0,33.7,33.3,33.3,3.5,2.5,2.61,0.594074365139247,-0.017486666757431418,0.7914744879330595,0.004611849680476063,-0.090593,-34.853823
11.185,2.0,1.0,1.0,33.7,33.3,33.3,3.5,2.5,2.6125,0.5871181958449864,-0.017801796776141597,0.7964825584576064,0.004518307003178256,-0.091764,-34.719591
11.185,2.0,1.0,1.0,33.7,33.3,33.3,3.5,2.5,2.615,0.5800740670001826,-0.018122548025043077,0.801459116050466,0.0044197965606257335,-0.09296,-34.58469
11.185,2.0,1.0,1.0,33.7,33.3,33.3,3.5,2.5,2.6175,0.5729410446001494,-0.01844903282045834,0.8064030025707493,0.004316131235886447,-0.094182,-34.449106
11.185,2.0,1.0,1.0,33.7,33.3,33.3,3.5,2.5,2.62,0.565718186143872,-0.018781365959005793,0.8113130246950517,0.004207116295036519,-0.095431,-34.312827
11.185,2.0,1.0,1.0,33.7,33.3,33.3,3.5,2.5,2.6225,0.5584045408084076,-0.019119664768045653,0.8161879528058499,0.004092549032685708,-0.096707,-34.175837
11.185,2.0,1.0,1.0,33.7,33.3,33.3,3.5,2.5,2.625,0.550999149641593,-0.0194640491563506,0.821026519842289,0.00397221839844347,-0.098012,-34.038124
11.185,2.0,1.0,1.0,33.7,33.3,33.3,3.5,2.5,2.6275,0.543501045774101,-0.019814641664900455,0.8258274201118978,0.0038459046031333022,-0.099346,-33.899672
11.185,2.0,1.0,1.0,33.7,33.3,33.3,3.5,2.5,2.63,0.5359092546519726,-0.020171567517685934,0.830589308061658,0.0037133787034783427,-0.100711,-33.760468
11.185,2.0,1.0,1.0,33.7,33.3,33.3,3.5,2.5,2.6325,0.5282227942907946,-0.020534954672390134,0.8353107970067921,0.003574402163885866,-0.102106,-33.620495
11.185,2.0,1.0,1.0,33.7,33.3,33.3,3.5,2.5,2.635,0.5204406755527601,-0.02090493387080006,0.8399904578155409,0.0034287263938589416,-0.103533,-33.479738
11.185,2.0,1.0,1.0,33.7,33.3,33.3,3.5,2.5,2.6375,0.5125619024479217,-0.02128163868877856,0.84462681754809,0.003276092259452051,-0.104994,-33.338182
11.185,2.0,1.0,1.0,33.7,33.3,33.3,3.5,2.5,2.64,0.5045854724609941,-0.02166520558560808,0.849218358047729,0.003116229567069587,-0.106488,-33.195811
11.185,2.0,1.0,1.0,33.7,33.3,33.3,3.5,2.5,2.6425,0.49651037690517447,-0.022055773952488845,0.8537635144821818,0.0029488565177753644,-0.108018,-33.052607
11.185,2.0,1.0,1.0,33.7,33.3,33.3,3.5,2.5,2.645,0.48833560130449316,-0.022453486159949396,0.8582606738329479,0.0027736791301418715,-0.109584,-32.908553
11.185,2.0,1.0,1.0,33.7,33.3,33.3,3.5,2.5,2.6475,0.48006012580631796,-0.022858487603893998,0.862708173330349,0.002590390629514202,-0.111187,-32.763633
11.185,2.0,1.0,1.0,33.7,33.3,33.3,3.5,2.5,2.65,0.47168292562569525,-0.023270926749977692,0.8671042988318404,0.002398670801396483,-0.112829,-32.617828
11.185,2.0,1.0,1.0,33.7,33.3,33.3,3.5,2.5,2.6525,0.46320297152335704,-0.023690955175957748,0.871447283140972,0.002198185306488643,-0.114511,-32.471119
11.185,2.0,1.0,1.0,33.7,33.3,33.3,3.5,2.5,2.655,0.45461923031925966,-0.024118727611628938,0.8757353042642405,0.00198858495470131,-0.116235,-32.323489
11.185,2.0,1.0,1.0,33.7,33.3,33.3,3.5,2.5,2.6575,0.4459306654436873,-0.024554401975896558,0.879966483602863,0.0017695049352620606,-0.118001,-32.174917
11.185,2.0,1.0,1.0,33.7,33.3,33.3,3.5,2.5,2.66,0.4371362375280381,-0.024998139410487185,0.8841388840763084,0.0015405639997899622,-0.119811,-32.025383
11.185,2.0,1.0,1.0,33.7,33.3,33.3,3.5,2.5,2.6625,0.4282349050375563,-0.025450104309730548,0.8882505081742026,0.0013013635949565097,-0.121666,-31.874868
11.185,2.0,1.0,1.0,33.7,33.3,33.3,3.5,2.5,2.665,0.41922562494838533,-0.02591046434577743,0.8922992959329779,0.0010514869410697722,-0.123569,-31.72335
11.185,2.0,1.0,1.0,33.7,33.3,33.3,3.5,2.5,2.6675,0.41010735347150173,-0.026379390488533067,0.8962831228333598,0.000790498052609147,-0.125521,-31.570807
11.185,2.0,1.0,1.0,33.7,33.3,33.3,3.5,2.5,2.67,0.40087904682621395,-0.026857057019497154,0.9001997976145104,0.0005179406963987404,-0.127523,-31.417217
11.185,2.0,1.0,1.0,33.7,33.3,33.3,3.5,2.5,2.6725,0.3915396620660927,-0.02734364153859555,0.9040470600003049,0.00023333728273635564,-0.129577,-31.262557
11.185,2.0,1.0,1.0,33.7,33.3,33.3,3.5,2.5,2.675,0.3820881579604086,-0.02783932496297132,0.9078225783328714,-6.38123156129823e-05,-0.131686,-31.106803
11.185,2.0,1.0,1.0,33.7,33.3,33.3,3.5,2.5,2.6775,0.37252349593432765,-0.0283442915165698,0.9115239471081285,-0.0003740320220995868,-0.133851,-30.949932
11.185,2.0,1.0,1.0,33.7,33.3,33.3,3.5,2.5,2.68,0.3628446410713539,-0.028858728709200976,0.91514868440763,-0.0006978708987804856,-0.136075,-30.791917
11.185,2.0,1.0,1.0,33.7,33.3,33.3,3.5,2.5,2.6825,0.35305056318176387,-0.029382827303589397,0.9186942292205301,-0.0010359045789966692,-0.138359,-30.632734
11.185,2.0,1.0,1.0,33.7,33.3,33.3,3.5,2.5,2.685,0.3431402379410232,-0.029916781268728616,0.9221579386489733,-0.0013887367975111932,-0.140706,-30.472354
11.185,2.0,1.0,1.0,33.7,33.3,33.3,3.5,2.5,2.6875,0.33311264810249347,-0.03046078771763341,0.9255370849896125,-0.0017570010259451195,-0.143118,-30.310752
11.185,2.0,1.0,1.0,33.7,33.3,33.3,3.5,2.5,2.69,0.32296678478907165,-0.031015046827329428,0.9288288526833104,-0.0021413622220757393,-0.145598,-30.147898
11.185,2.0,1.0,1.0,33.7,33.3,33.3,3.5,2.5,2.6925,0.31270164886873353,-0.03157976173863408,0.9320303351243644,-0.0025425187023699084,-0.148148,-29.983763
11.185,2.0,1.0,1.0,33.7,33.3,33.3,3.5,2.5,2.695,0.30231625241942184,-0.03215513843294879,0.9351385313197788,-0.002961204148016075,-0.150772,-29.818316
11.185,2.0,1.0,1.0,33.7,33.3,33.3,3.5,2.5,2.6975,0.291809620289095,-0.032741385582912015,0.9381503423882287,-0.0033981897557077414,-0.153472,-29.651526
11.185,2.0,1.0,1.0,33.7,33.3,33.3,3.5,2.5,2.7,0.28118079175734156,-0.03333871437332561,0.941062567887353,-0.003854286545526253,-0.156251,-29.483361
11.185,2.0,1.0,1.0,33.7,33.3,33.3,3.5,2.5,2.7025,0.27042882230546117,-0.03394733828828018,0.9438719019569091,-0.004330347839487466,-0.159113,-29.313787
11.185,2.0,1.0,1.0,33.7,33.3,33.3,3.5,2.5,2.705,0.25955278550261396,-0.03456747285983447,0.9465749292640804,-0.004827271925667424,-0.162061,-29.142769
11.185,2.0,1.0,1.0,33.7,33.3,33.3,3.5,2.5,2.7075,0.24855177501632028,-0.035199335372959106,0.9491681207358444,-0.005346004924325692,-0.165099,-28.97027
11.185,2.0,1.0,1.0,33.7,33.3,33.3,3.5,2.5,2.71,0.2374249067564456,-0.03584314452070466,0.9516478290617515,-0.005887543874117726,-0.16823,-28.796254
11.185,2.0,1.0,1.0,33.7,33.3,33.3,3.5,2.5,2.7125,0.22617132116270636,-0.03649912000269873,0.9540102839487414,-0.006452940058354409,-0.17146,-28.620682
11.185,2.0,1.0,1.0,33.7,33.3,33.3,3.5,2.5,2.715,0.2147901856468167,-0.03716748205908425,0.9562515871076638,-0.007043302593345685,-0.174792,-28.443513
11.185,2.0,1.0,1.0,33.7,33.3,33.3,3.5,2.5,2.7175,0.20328069720158737,-0.03784845093086928,0.9583677069489919,-0.007659802303193871,-0.17823,-28.264706
11.185,2.0,1.0,1.0,33.7,33.3,33.3,3.5,2.5,2.72,0.19164208519069661,-0.03854224623633713,0.9603544729627629,-0.008303675907999294,-0.18178,-28.084216
11.185,2.0,1.0,1.0,33.7,33.3,33.3,3.5,2.5,2.7225,0.1798736143343944,-0.03924908625163882,0.9622075697550195,-0.008976230555356044,-0.185448,-27.902
11.185,2.0,1.0,1.0,33.7,33.3,33.3,3.5,2.5,2.725,0.1679745879083022,-0.03996918708191388,0.9639225307099115,-0.009678848728275524,-0.189238,-27.718009
11.185,2.0,1.0,1.0,33.7,33.3,33.3,3.5,2.5,2.7275,0.1559443511744953,-0.040702761707232624,0.9654947312431224,-0.010412993566342418,-0.193156,-27.532196
11.185,2.0,1.0,1.0,33.7,33.3,33.3,3.5,2.5,2.73,0.1437822950665742,-0.04145001888525664,0.9669193816083339,-0.011180214641018113,-0.197209,-27.344508
11.185,2.0,1.0,1.0,33.7,33.3,33.3,3.5,2.5,2.7325,0.13148786015318362,-0.04221116188973121,0.9681915192139686,-0.01198215423063915,-0.201404,-27.154894
11.185,2.0,1.0,1.0,33.7,33.3,33.3,3.5,2.5,2.735,0.11906054090779151,-0.04298638706067087,0.9693060004024259,-0.012820554145866499,-0.205748,-26.963297
11.185,2.0,1.0,1.0,33.7,33.3,33.3,3.5,2.5,2.7375,0.10649989031630397,-0.0437758821383045,0.9702574916382958,-0.013697263162221054,-0.210248,-26.769661
11.185,2.0,1.0,1.0,33.7,33.3,33.3,3.5,2.5,2.74,0.09380552485860966,-0.044579824348398495,0.971040460045588,-0.014614245122969806,-0.214912,-26.573924
11.185,2.0,1.0,1.0,33.7,33.3,33.3,3.5,2.5,2.7425,0.08097712990532645,-0.045398378201367814,0.9716491632266792,-0.015573587783124069,-0.219751,-26.376025
11.185,2.0,1.0,1.0,33.7,33.3,33.3,3.5,2.5,2.745,0.06801446557718492,-0.04623169296146006,0.9720776382873502,-0.016577512473787998,-0.224772,-26.175897
11.185,2.0,1.0,1.0,33.7,33.3,33.3,3.5,2.5,2.7475,0.054917373121673045,-0.04707989973509422,0.9723196899828541,-0.01762838467569865,-0.229986,-25.973472
11.185,2.0,1.0,1.0,33.7,33.3,33.3,3.5,2.5,2.75,0.0416857818700392,-0.0479431081189393,0.972368877889181,-0.0187287256016854,-0.235405,-25.768677
11.185,2.0,1.0,1.0,33.7,33.3,33.3,3.5,2.5,2.7525,0.02831971684779224,-0.04882140233828213,0.9722185024914883,-0.019881224900133616,-0.241039,-25.561439
11.185,2.0,1.0,1.0,33.7,33.3,33.3,3.5,2.5,2.755,0.014819307123687508,-0.04971483679434777,0.9718615900676879,-0.021088754605576226,-0.246902,-25.351677
11.185,2.0,1.0,1.0,33.7,33.3,33.3,3.5,2.5,2.7575,0.0011847949962223744,-0.05062343092514659,0.9712908762293299,-0.02235438447850847,-0.253007,-25.13931
11.185,2.0,1.0,1.0,33.7,33.3,33.3,3.5,2.5,2.76,-0.012583453866549752,-0.05154716326765456,0.9704987879637695,-0.023681398894691858,-0.25937,-24.924249
11.185,2.0,1.0,1.0,33.7,33.3,33.3,3.5,2.5,2.7625,-0.02648493919822007,-0.05248596458917584,0.9694774240009102,-0.02507331546493108,-0.266006,-24.706405
11.185,2.0,1.0,1.0,33.7,33.3,33.3,3.5,2.5,2.765,-0.0405190136567094,-0.053439709931885994,0.9682185333041586,-0.026533905589917056,-0.272933,-24.485682
11.185,2.0,1.0,1.0,33.7,33.3,33.3,3.5,2.5,2.7675,-0.05468486891041962,-0.05440820938601915,0.9667134914581857,-0.028067217181673793,-0.28017,-24.261979
11.185,2.0,1.0,1.0,33.7,33.3,33.3,3.5,2.5,2.77,-0.06898152006562941,-0.05539119737292253,0.9649532746951532,-0.029677599813907024,-0.287737,-24.03519
11.185,2.0,1.0,1.0,33.7,33.3,33.3,3.5,2.5,2.7725,-0.08340778817169073,-0.05638832017801734,0.9629284312656952,-0.03136973259867172,-0.295657,-23.805203
11.185,2.0,1.0,1.0,33.7,33.3,33.3,3.5,2.5,2.775,-0.09796228049091898,-0.057399121424053026,0.9606290498204504,-0.03314865512689079,-0.303955,-23.571901
11.185,2.0,1.0,1.0,33.7,33.3,33.3,3.5,2.5,2.7775,-0.11264336815995234,-0.05842302511501448,0.9580447244216613,-0.03501980185606274,-0.312658,-23.335161
11.185,2.0,1.0,1.0,33.7,33.3,33.3,3.5,2.5,2.78,-0.12744916079647312,-0.05945931580828898,0.955164515751426,-0.03698904038077679,-0.321795,-23.09485
11.185,2.0,1.0,1.0,33.7,33.3,33.3,3.5,2.5,2.7825,-0.1423774775164705,-0.060507115384271726,0.9519769080227477,-0.039062714081267116,-0.331399,-22.850832
11.185,2.0,1.0,1.0,33.7,33.3,33.3,3.5,2.5,2.785,-0.15742581371919118,-0.0615653557748295,0.9484697610306158,-0.04124768971313144,-0.341505,-22.60296
11.185,2.0,1.0,1.0,33.7,33.3,33.3,3.5,2.5,2.7875,-0.17259130286458593,-0.06263274688032207,0.944630256701898,-0.04355141057846347,-0.352153,-22.351079
11.185,2.0,1.0,1.0,33.7,33.3,33.3,3.5,2.5,2.79,-0.18787067230595286,-0.06370773874343832,0.9404448394138625,-0.045981956006043156,-0.363388,-22.095026
11.185,2.0,1.0,1.0,33.7,33.3,33.3,3.5,2.5,2.7925,-0.2032601920408836,-0.06478847684960874,0.9358991492505692,-0.04854810796679942,-0.375256,-21.834627
11.185,2.0,1.0,1.0,33.7,33.3,33.3,3.5,2.5,2.795,-0.21875561499751364,-0.06587274917899791,0.93097794725341,-0.05125942576134289,-0.387812,-21.569699
11.185,2.0,1.0,1.0,33.7,33.3,33.3,3.5,2.5,2.7975,-0.2343521071682845,-0.06695792333231834,0.9256650315961056,-0.05412632983939677,-0.401115,-21.300046
11.185,2.0,1.0,1.0,33.7,33.3,33.3,3.5,2.5,2.8,-0.25004416552527886,-0.0680408716770572,0.9199431434754969,-0.05716019594639874,-0.415233,-21.025462
11.185,2.0,1.0,1.0,33.7,33.3,33.3,3.5,2.5,2.8025,-0.26582552118005237,-0.06911788199312296,0.9137938613584544,-0.0603734609392964,-0.430241,-20.745726
11.185,2.0,1.0,1.0,33.7,33.3,33.3,3.5,2.5,2.805,-0.2816890246624083,-0.07018455051308373,0.9071974820646558,-0.06377974176904364,-0.446221,-20.460603
11.185,2.0,1.0,1.0,33.7,33.3,33.3,3.5,2.5,2.8075,-0.2976265094550693,-0.07123565352085855,0.9001328869997292,-0.06739396928646584,-0.463269,-20.169845
11.185,2.0,1.0,1.0,33.7,33.3,33.3,3.5,2.5,2.81,-0.3136286289940713,-0.07226499275381007,0.8925773916920542,-0.07123253868213324,-0.481492,-19.873187
11.185,2.0,1.0,1.0,33.7,33.3,33.3,3.5,2.5,2.8125,-0.3296846611755337,-0.07326520869498049,0.8845065766438999,-0.07531347850499782,-0.501009,-19.570344
11.185,2.0,1.0,1.0,33.7,33.3,33.3,3.5,2.5,2.815,-0.3457822729308613,-0.0742275543780412,0.8758940974067925,-0.07965664029533535,-0.521959,-19.261017
11.185,2.0,1.0,1.0,33.7,33.3,33.3,3.5,2.5,2.8175,-0.36190723555689747,-0.075141620471281,0.8667114717689406,-0.08428391087808448,-0.544499,-18.944884
11.185,2.0,1.0,1.0,33.7,33.3,33.3,3.5,2.5,2.82,-0.3780430791024958,-0.07599500004747156,0.856927842056031,-0.08921944923602902,-0.568806,-18.621603
11.185,2.0,1.0,1.0,33.7,33.3,33.3,3.5,2.5,2.8225,-0.394170671072805,-0.07677287844031673,0.8465097108831822,-0.09448994953112479,-0.595088,-18.290807
11.185,2.0,1.0,1.0,33.7,33.3,33.3,3.5,2.5,2.825,-0.41026770082986935,-0.07745752975091481,0.8354206493884935,-0.10012493113382277,-0.623581,-17.952109
11.185,2.0,1.0,1.0,33.7,33.3,33.3,3.5,2.5,2.8275,-0.4263080461029369,-0.07802769666303175,0.8236209782294484,-0.10615705525326512,-0.654561,-17.605093
