1,w,sub_t,h,l1,l2,l3,g1,g2,Freq,S11_re,S21_re,S11_img,S21_img,S11_dB,S21_dB
11.185,2.0,1.0,1.0,34.7,33.3,33.3,4.4,4.4,2.5,0.671447255111565,-0.00741783735431371,0.731312592673484,0.00151701360374337,-0.062731,-42.416511
11.185,2.0,1.0,1.0,34.7,33.3,33.3,4.4,4.4,2.5025,0.6653431156127696,-0.0075247105862467105,0.7367741595563531,0.0014667012221841213,-0.063356,-42.30826
11.185,2.0,1.0,1.0,34.7,33.3,33.3,4.4,4.4,2.505,0.659161731575366,-0.007632646193355491,0.7422124335934417,0.0014145236703095876,-0.063991,-42.199841
11.185,2.0,1.0,1.0,34.7,33.3,33.3,4.4,4.4,2.5075,0.6529024291116847,-0.007741644673288509,0.7476265684828554,0.0013604342823241345,-0.064637,-42.091251
11.185,2.0,1.0,1.0,34.7,33.3,33.3,4.4,4.4,2.51,0.646564530783104,-0.007851706004896248,0.7530156960264688,0.0013043852751146309,-0.065292,-41.982485
11.185,2.0,1.0,1.0,34.7,33.3,33.3,4.4,4.4,2.5125,0.6401473558168322,-0.007962829619429006,0.7583789255898841,0.0012463277233774196,-0.065959,-41.873541
11.185,2.0,1.0,1.0,34.7,33.3,33.3,4.4,4.4,2.515,0.6336502203371582,-0.008075014370466767,0.7637153435514433,0.0011862115343613112,-0.066635,-41.764413
11.185,2.0,1.0,1.0,34.7,33.3,33.3,4.4,4.4,2.5175,0.6270724376118385,-0.008188258502532953,0.7690240127402082,0.0011239854222328464,-0.067323,-41.655099
11.185,2.0,1.0,1.0,34.7,33.3,33.3,4.4,4.4,2.52,0.620413318314282,-0.008302559618338085,0.7743039718628649,0.0010595968820711929,-0.068022,-41.545594
11.185,2.0,1.0,1.0,34.7,33.3,33.3,4.4,4.4,2.5225,0.6136721708022607,-0.008417914644602885,0.7795542349194827,0.0009929921635015437,-0.068732,-41.435894
11.185,2.0,1.0,1.0,34.7,33.3,33.3,4.4,4.4,2.525,0.6068483014138564,-0.008534319796402042,0.7847737906081148,0.0009241162439772566,-0.069454,-41.325997
11.185,2.0,1.0,1.0,34.7,33.3,33.3,4.4,4.4,2.5275,0.599941014781408,-0.008651770539975664,0.7899616017182077,0.0008529128017206695,-0.070188,-41.215897
11.185,2.0,1.0,1.0,34.7,33.3,33.3,4.4,4.4,2.53,0.5929496141642474,-0.008770261553946139,0.7951166045128187,0.0007793241883371375,-0.070933,-41.105592
11.185,2.0,1.0,1.0,34.7,33.3,33.3,4.4,4.4,2.5325,0.5858734018010359,-0.008889786688881475,0.8002377080996562,0.0007032914011146131,-0.071691,-40.995076
11.185,2.0,1.0,1.0,34.7,33.3,33.3,4.4,4.4,2.535,0.5787116792825328,-0.009010338925141763,0.8053237937909745,0.0006247540550257607,-0.072461,-40.884348
11.185,2.0,1.0,1.0,34.7,33.3,33.3,4.4,4.4,2.5375,0.5714637479456894,-0.009131910328943962,0.8103737144523723,0.0005436503544492046,-0.073244,-40.773402
11.185,2.0,1.0,1.0,34.7,33.3,33.3,4.4,4.4,2.54,0.5641289092899461,-0.009254492006579296,0.8153862938405739,0.0004599170646296008,-0.07404,-40.662236
11.185,2.0,1.0,1.0,34.7,33.3,33.3,4.4,4.4,2.5425,0.5567064654166799,-0.009378074056711948,0.8203603259302878,0.0003734894828971935,-0.074849,-40.550844
11.185,2.0,1.0,1.0,34.7,33.3,33.3,4.4,4.4,2.545,0.5491957194927576,-0.00950264552069156,0.8252945742302655,0.00028430140967006706,-0.075671,-40.439224
11.185,2.0,1.0,1.0,34.7,33.3,33.3,4.4,4.4,2.5475,0.5415959762392031,-0.009628194330803272,0.8301877710887063,0.00019228511926467793,-0.076507,-40.327371
11.185,2.0,1.0,1.0,34.7,33.3,33.3,4.4,4.4,2.55,0.5339065424459842,-0.00975470725638258,0.8350386169882001,9.737133054071332e-05,-0.077357,-40.215282
11.185,2.0,1.0,1.0,34.7,33.3,33.3,4.4,4.4,2.5525,0.5261267275140111,-0.009882169847716232,0.839845779830393,-5.108225882479379e-07,-0.078221,-40.102954
11.185,2.0,1.0,1.0,34.7,33.3,33.3,4.4,4.4,2.555,0.518255844025417,-0.010010566377650132,0.8446078942106423,-0.00010143382074775976,-0.079099,-39.990381
11.185,2.0,1.0,1.0,34.7,33.3,33.3,4.4,4.4,2.5575,0.5102932083432539,-0.010139879780822354,0.8493235606829279,-0.00020547178876320152,-0.079992,-39.877561
11.185,2.0,1.0,1.0,34.7,33.3,33.3,4.4,4.4,2.56,0.5022381412417812,-0.010270091590437814,0.8539913450153322,-0.00031270052535186413,-0.080901,-39.764489
11.185,2.0,1.0,1.0,34.7,33.3,33.3,4.4,4.4,2.5625,0.494089968568533,-0.0104011818724971,0.85860977743645,-0.000423197532805206,-0.081824,-39.651163
11.185,2.0,1.0,1.0,34.7,33.3,33.3,4.4,4.4,2.565,0.48584802193939486,-0.010533129157392893,0.8631773518731266,-0.0005370420466187082,-0.082763,-39.537577
11.185,2.0,1.0,1.0,34.7,33.3,33.3,4.4,4.4,2.5675,0.4775116394679757,-0.010665910368781518,0.8676925251799604,-0.0006543150650226567,-0.083719,-39.423728
11.185,2.0,1.0,1.0,34.7,33.3,33.3,4.4,4.4,2.57,0.4690801665305627,-0.010799500749637226,0.8721537163610724,-0.0007750993783643304,-0.08469,-39.309613
11.185,2.0,1.0,1.0,34.7,33.3,33.3,4.4,4.4,2.5725,0.4605529565680048,-0.010933873785394245,0.876559305784679,-0.0008994795982886993,-0.085678,-39.195227
11.185,2.0,1.0,1.0,34.7,33.3,33.3,4.4,4.4,2.575,0.45192937192590094,-0.01106900112407991,0.8809076343910693,-0.001027542186661332,-0.086683,-39.080566
11.185,2.0,1.0,1.0,34.7,33.3,33.3,4.4,4.4,2.5775,0.4432087847345021,-0.011204852493336172,0.8851970028946416,-0.001159375484172719,-0.087705,-38.965628
11.185,2.0,1.0,1.0,34.7,33.3,33.3,4.4,4.4,2.58,0.43439057782977825,-0.011341395614232034,0.8894256709807135,-0.001295069738560905,-0.088744,-38.850407
11.185,2.0,1.0,1.0,34.7,33.3,33.3,4.4,4.4,2.5825,0.42547414571711867,-0.01147859611175848,0.8935918564978925,-0.0014347171323839084,-0.089802,-38.734901
11.185,2.0,1.0,1.0,34.7,33.3,33.3,4.4,4.4,2.585,0.41645889557919324,-0.011616417421902812,0.8976937346468522,-0.0015784118102698847,-0.090878,-38.619104
11.185,2.0,1.0,1.0,34.7,33.3,33.3,4.4,4.4,2.5875,0.40734424832950644,-0.011754820695193294,0.9017294371664387,-0.0017262499055697613,-0.091972,-38.503014
11.185,2.0,1.0,1.0,34.7,33.3,33.3,4.4,4.4,2.59,0.39812963971324283,-0.01189376469660228,0.9056970515181033,-0.0018783295663303025,-0.093085,-38.386627
11.185,2.0,1.0,1.0,34.7,33.3,33.3,4.4,4.4,2.5925,0.3888145214569923,-0.01203320570169777,0.909594620069745,-0.002034750980503892,-0.094218,-38.269938
11.185,2.0,1.0,1.0,34.7,33.3,33.3,4.4,4.4,2.595,0.37939836246902436,-0.012173097388927563,0.9134201392801141,-0.002195616400304737,-0.095371,-38.152943
11.185,2.0,1.0,1.0,34.7,33.3,33.3,4.4,4.4,2.5975,0.36988065009175064,-0.012313390727919689,0.9171715588850446,-0.0023610301656167318,-0.096543,-38.035639
11.185,2.0,1.0,1.0,34.7,33.3,33.3,4.4,4.4,2.6,0.36026089140809203,-0.012454033863683184,0.9208467810868499,-0.0025310987263553898,-0.097736,-37.918021
11.185,2.0,1.0,1.0,34.7,33.3,33.3,4.4,4.4,2.6025,0.35053861460347124,-0.012594971996586563,0.9244436597483254,-0.0027059306636777842,-0.098951,-37.800087
11.185,2.0,1.0,1.0,34.7,33.3,33.3,4.4,4.4,2.605,0.34071337038516064,-0.012736147257994827,0.9279599995929126,-0.0028856367099327858,-0.100186,-37.68183
11.185,2.0,1.0,1.0,34.7,33.3,33.3,4.4,4.4,2.6075,0.33078473346076576,-0.0128774985814417,0.931393555412668,-0.0030703297672372387,-0.101443,-37.563249
11.185,2.0,1.0,1.0,34.7,33.3,33.3,4.4,4.4,2.61,0.3207523040776195,-0.0130189615692119,0.9347420312858133,-0.0032601249245587122,-0.102723,-37.444338
11.185,2.0,1.0,1.0,34.7,33.3,33.3,4.4,4.4,2.6125,0.3106157096248832,-0.013160468354208692,0.9380030798057466,-0.0034551394731804925,-0.104025,-37.325093
11.185,2.0,1.0,1.0,34.7,33.3,33.3,4.4,4.4,2.615,0.30037460630015483,-0.01330194745697919,0.9411743013235266,-0.0036554929204200724,-0.105351,-37.205511
11.185,2.0,1.0,1.0,34.7,33.3,33.3,4.4,4.4,2.6175,0.2900286808424125,-0.013443323637769677,0.9442532432059665,-0.003861307001465897,-0.1067,-37.085587
11.185,2.0,1.0,1.0,34.7,33.3,33.3,4.4,4.4,2.62,0.2795776523330979,-0.013584517743481565,0.9472373991116048,-0.004072705689193668,-0.108073,-36.965317
11.185,2.0,1.0,1.0,34.7,33.3,33.3,4.4,4.4,2.6225,0.26902127406715187,-0.01372544654939652,0.950124208286975,-0.004289815201816964,-0.109471,-36.844696
11.185,2.0,1.0,1.0,34.7,33.3,33.3,4.4,4.4,2.625,0.258359335495828,-0.0138660225955435,0.952911054885716,-0.00451276400822456,-0.110894,-36.723721
11.185,2.0,1.0,1.0,34.7,33.3,33.3,4.4,4.4,2.6275,0.24759166424305068,-0.01400615401757005,0.9555952673132451,-0.004741682830848892,-0.112342,-36.602388
11.185,2.0,1.0,1.0,34.7,33.3,33.3,4.4,4.4,2.63,0.23671812819711652,-0.014145744371991044,0.9581741175998457,-0.004976704645909282,-0.113817,-36.480691
11.185,2.0,1.0,1.0,34.7,33.3,33.3,4.4,4.4,2.6325,0.22573863767947638,-0.014284692455676887,0.9606448208052039,-0.005217964680866749,-0.115318,-36.358627
11.185,2.0,1.0,1.0,34.7,33.3,33.3,4.4,4.4,2.635,0.2146531476923192,-0.014422892119451101,0.9630045344575797,-0.005465600408925011,-0.116847,-36.236191
11.185,2.0,1.0,1.0,34.7,33.3,33.3,4.4,4.4,2.6375,0.2034616602466467,-0.014560232075658701,0.965250358030981,-0.005719751540408105,-0.118403,-36.113378
11.185,2.0,1.0,1.0,34.7,33.3,33.3,4.4,4.4,2.64,0.19216422677244085,-0.014696595699574063,0.9673793324638866,-0.005980560010843351,-0.119988,-35.990184
11.185,2.0,1.0,1.0,34.7,33.3,33.3,4.4,4.4,2.6425,0.18076095061252637,-0.01483186082450877,0.9693884397232412,-0.006248169965574628,-0.121602,-35.866605
11.185,2.0,1.0,1.0,34.7,33.3,33.3,4.4,4.4,2.645,0.1692519896016144,-0.014965899530484356,0.971274602417635,-0.006522727740729884,-0.123245,-35.742635
11.185,2.0,1.0,1.0,34.7,33.3,33.3,4.4,4.4,2.6475,0.15763755873196647,-0.01509857792633229,0.9730346834637809,-0.006804381840367184,-0.124919,-35.61827
11.185,2.0,1.0,1.0,34.7,33.3,33.3,4.4,4.4,2.65,0.14591793290699964,-0.01522975592507932,0.9746654858105885,-0.007093282909621026,-0.126623,-35.493505
11.185,2.0,1.0,1.0,34.7,33.3,33.3,4.4,4.4,2.6525,0.1340934497841117,-0.01535928701248086,0.9761637522253394,-0.007389583703673973,-0.128359,-35.368335
11.185,2.0,1.0,1.0,34.7,33.3,33.3,4.4,4.4,2.655,0.12216451270781313,-0.015487018008555314,0.9775261651466743,-0.007693439052378852,-0.130127,-35.242755
11.185,2.0,1.0,1.0,34.7,33.3,33.3,4.4,4.4,2.6575,0.11013159373419935,-0.01561278882197792,0.9787493466093088,-0.008005005820361951,-0.131928,-35.116759
11.185,2.0,1.0,1.0,34.7,33.3,33.3,4.4,4.4,2.66,0.09799523674761475,-0.015736432197181332,0.9798298582456019,-0.008324442862439657,-0.133762,-34.990344
11.185,2.0,1.0,1.0,34.7,33.3,33.3,4.4,4.4,2.6625,0.0857560606702404,-0.015857773454012097,0.9807642013693144,-0.00865191097418904,-0.135631,-34.863503
11.185,2.0,1.0,1.0,34.7,33.3,33.3,4.4,4.4,2.665,0.07341476276512204,-0.01597663021978533,0.9815488171471112,-0.008987572837521034,-0.137534,-34.73623
11.185,2.0,1.0,1.0,34.7,33.3,33.3,4.4,4.4,2.6675,0.06097212203303616,-0.01609281215357057,0.9821800868635631,-0.009331592961111584,-0.139473,-34.608521
11.185,2.0,1.0,1.0,34.7,33.3,33.3,4.4,4.4,2.67,0.04842900270333155,-0.016206120662540267,0.9826543322856329,-0.009684137615561387,-0.141449,-34.480369
11.185,2.0,1.0,1.0,34.7,33.3,33.3,4.4,4.4,2.6725,0.035786357818692265,-0.016316348610197217,0.9829678161328209,-0.01004537476316686,-0.143462,-34.351768
11.185,2.0,1.0,1.0,34.7,33.3,33.3,4.4,4.4,2.675,0.023045232913546747,-0.016423280016287643,0.9831167426593698,-0.010415473982200687,-0.145512,-34.222713
11.185,2.0,1.0,1.0,34.7,33.3,33.3,4.4,4.4,2.6775,0.010206769785564066,-0.016526689748197126,0.9830972583551223,-0.010794606385621968,-0.147602,-34.093197
11.185,2.0,1.0,1.0,34.7,33.3,33.3,4.4,4.4,2.68,-0.0027277896405811563,-0.016626343203602446,0.9829054527718234,-0.011182944534155404,-0.149732,-33.963214
11.185,2.0,1.0,1.0,34.7,33.3,33.3,4.4,4.4,2.6825,-0.015757099358272464,-0.016721995984139745,0.9825373594818555,-0.01158066234370539,-0.151902,-33.832758
11.185,2.0,1.0,1.0,34.7,33.3,33.3,4.4,4.4,2.685,-0.02887970523428588,-0.016813393559824787,0.9819889571765678,-0.011987934987100627,-0.154113,-33.70182
11.185,2.0,1.0,1.0,34.7,33.3,33.3,4.4,4.4,2.6875,-0.0420940408761454,-0.0169002709239297,0.981256170911543,-0.0124049387901952,-0.156367,-33.570395
11.185,2.0,1.0,1.0,34.7,33.3,33.3,4.4,4.4,2.69,-0.05539842341359856,-0.016982352237996594,0.9803348735062922,-0.012831851122391205,-0.158665,-33.438475
11.185,2.0,1.0,1.0,34.7,33.3,33.3,4.4,4.4,2.6925,-0.0687910491967301,-0.01705935046662245,0.9792208871060188,-0.013268850281687264,-0.161006,-33.306052
11.185,2.0,1.0,1.0,34.7,33.3,33.3,4.4,4.4,2.695,-0.08226998941355061,-0.01713096700161333,0.9779099849132271,-0.013716115374403724,-0.163393,-33.173119
11.185,2.0,1.0,1.0,34.7,33.3,33.3,4.4,4.4,2.6975,-0.09583318563040799,-0.017196891275050114,0.9763978930970378,-0.014173826189787863,-0.165826,-33.039667
11.185,2.0,1.0,1.0,34.7,33.3,33.3,4.4,4.4,2.7,-0.10947844525891116,-0.017256800360751008,0.9746802928881854,-0.014642163069754818,-0.168307,-32.905688
11.185,2.0,1.0,1.0,34.7,33.3,33.3,4.4,4.4,2.7025,-0.1232034369535897,-0.01731035856354994,0.9727528228677094,-0.015121306774088855,-0.170836,-32.771174
11.185,2.0,1.0,1.0,34.7,33.3,33.3,4.4,4.4,2.705,-0.1370056859449282,-0.017357216995726628,0.9706110814574055,-0.015611438341490839,-0.173415,-32.636115
11.185,2.0,1.0,1.0,34.7,33.3,33.3,4.4,4.4,2.7075,-0.15088256931295058,-0.017397013139837124,0.9682506296200852,-0.016112738946938477,-0.176045,-32.500501
11.185,2.0,1.0,1.0,34.7,33.3,33.3,4.4,4.4,2.71,-0.16483131120699354,-0.01742937039709119,0.9656669937776821,-0.01662538975590749,-0.178726,-32.364324
11.185,2.0,1.0,1.0,34.7,33.3,33.3,4.4,4.4,2.7125,-0.1788489780178787,-0.01745389762029654,0.9628556689551534,-0.01714957177608809,-0.181461,-32.227571
11.185,2.0,1.0,1.0,34.7,33.3,33.3,4.4,4.4,2.715,-0.19293247350917803,-0.017470188630262912,0.9598121221580319,-0.017685465707334896,-0.18425,-32.090233
11.185,2.0,1.0,1.0,34.7,33.3,33.3,4.4,4.4,2.7175,-0.2070785339148466,-0.01747782171439595,0.9565317959913111,-0.018233251790689717,-0.187095,-31.952299
11.185,2.0,1.0,1.0,34.7,33.3,33.3,4.4,4.4,2.72,-0.22128372301100582,-0.017476359106036104,0.9530101125271634,-0.018793109657434526,-0.189997,-31.813756
11.185,2.0,1.0,1.0,34.7,33.3,33.3,4.4,4.4,2.7225,-0.23554442717026788,-0.01746534644289553,0.9492424774287013,-0.01936521817925527,-0.192957,-31.674592
11.185,2.0,1.0,1.0,34.7,33.3,33.3,4.4,4.4,2.725,-0.24985685040744932,-0.01744431220271624,0.9452242843367138,-0.0199497553207315,-0.195978,-31.534793
11.185,2.0,1.0,1.0,34.7,33.3,33.3,4.4,4.4,2.7275,-0.26421700942617216,-0.017412767114006737,0.9409509195258935,-0.020546897995510807,-0.19906,-31.394347
11.185,2.0,1.0,1.0,34.7,33.3,33.3,4.4,4.4,2.73,-0.2786207286762571,-0.017370203539426685,0.9364177668366607,-0.0211568219276817,-0.202205,-31.253239
11.185,2.0,1.0,1.0,34.7,33.3,33.3,4.4,4.4,2.7325,-0.2930636354324235,-0.017316094829043917,0.9316202128881448,-0.021779701520024827,-0.205415,-31.111454
11.185,2.0,1.0,1.0,34.7,33.3,33.3,4.4,4.4,2.735,-0.307541154905199,-0.017249894640311826,0.9265536525773178,-0.022415709730996533,-0.208692,-30.968976
11.185,2.0,1.0,1.0,34.7,33.3,33.3,4.4,4.4,2.7375,-0.32204850539544205,-0.017171036221183877,0.9212134948685837,-0.023065017962489873,-0.212036,-30.825788
11.185,2.0,1.0,1.0,34.7,33.3,33.3,4.4,4.4,2.74,-0.33658069350421843,-0.01707893165229339,0.9155951688773922,-0.02372779596061521,-0.215451,-30.681872
11.185,2.0,1.0,1.0,34.7,33.3,33.3,4.4,4.4,2.7425,-0.35113250941015706,-0.016972971043577357,0.9096941302505723,-0.02440421173195631,-0.218937,-30.53721
11.185,2.0,1.0,1.0,34.7,33.3,33.3,4.4,4.4,2.745,-0.3656985222266115,-0.016852521680097005,0.903505867845177,-0.025094431477978116,-0.222498,-30.391783
11.185,2.0,1.0,1.0,34.7,33.3,33.3,4.4,4.4,2.7475,-0.3802730754511657,-0.016716927111109198,0.8970259107065678,-0.02579861955049968,-0.226134,-30.24557
11.185,2.0,1.0,1.0,34.7,33.3,33.3,4.4,4.4,2.75,-0.394850282520078,-0.0165655061756455,0.890249835345343,-0.0265169384313913,-0.229849,-30.098548
11.185,2.0,1.0,1.0,34.7,33.3,33.3,4.4,4.4,2.7525,-0.4094240224801954,-0.016397551956957964,0.8831732733114709,-0.027249548739912154,-0.233644,-29.950695
11.185,2.0,1.0,1.0,34.7,33.3,33.3,4.4,4.4,2.755,-0.42398793579067706,-0.016212330657180685,0.8757919190626494,-0.027996609271371164,-0.237522,-29.801986
11.185,2.0,1.0,1.0,34.7,33.3,33.3,4.4,4.4,2.7575,-0.4385354202665405,-0.016009080382410567,0.8681015381224192,-0.028758277071076206,-0.241485,-29.652396
11.185,2.0,1.0,1.0,34.7,33.3,33.3,4.4,4.4,2.76,-0.45305962717542136,-0.015787009827117778,0.860097975522045,-0.029534707547816202,-0.245537,-29.501896
11.185,2.0,1.0,1.0,34.7,33.3,33.3,4.4,4.4,2.7625,-0.46755345749825294,-0.015545296845338142,0.8517771645184353,-0.03032605463141801,-0.249679,-29.350459
11.185,2.0,1.0,1.0,34.7,33.3,33.3,4.4,4.4,2.765,-0.48200955836347303,-0.01528308689444374,0.8431351355786199,-0.031132470979216616,-0.253916,-29.198053
11.185,2.0,1.0,1.0,34.7,33.3,33.3,4.4,4.4,2.7675,-0.4964203196630986,-0.01499949133542769,0.8341680256193706,-0.03195410823657399,-0.258249,-29.044646
11.185,2.0,1.0,1.0,34.7,33.3,33.3,4.4,4.4,2.77,-0.5107778708573556,-0.014693585571515125,0.8248720874885479,-0.032791117356884024,-0.262683,-28.890203
11.185,2.0,1.0,1.0,34.7,33.3,33.3,4.4,4.4,2.7725,-0.5250740779725209,-0.01436440700452241,0.8152436996726222,-0.03364364898679168,-0.26722,-28.734688
11.185,2.0,1.0,1.0,34.7,33.3,33.3,4.4,4.4,2.775,-0.5393005407941921,-0.014010952785666197,0.80527937621261,-0.03451185392263422,-0.271865,-28.578062
11.185,2.0,1.0,1.0,34.7,33.3,33.3,4.4,4.4,2.7775,-0.5534485902552505,-0.01363217733443685,0.7949757768083565,-0.03539588364437916,-0.276621,-28.420283
11.185,2.0,1.0,1.0,34.7,33.3,33.3,4.4,4.4,2.78,-0.567509286014311,-0.013226989595646325,0.7843297170886794,-0.0362958909335683,-0.281492,-28.261308
11.185,2.0,1.0,1.0,34.7,33.3,33.3,4.4,4.4,2.7825,-0.5814734142162518,-0.012794250000762042,0.773338179022499,-0.037212030581974996,-0.286484,-28.10109
11.185,2.0,1.0,1.0,34.7,33.3,33.3,4.4,4.4,2.785,-0.5953314854216635,-0.012332767095096378,0.7619983214434818,-0.03814446019783885,-0.2916,-27.939579
11.185,2.0,1.0,1.0,34.7,33.3,33.3,4.4,4.4,2.7875,-0.609073732686256,-0.011841293787215318,0.7503074906583093,-0.03909334111661107,-0.296847,-27.776723
11.185,2.0,1.0,1.0,34.7,33.3,33.3,4.4,4.4,2.79,-0.6226901097647283,-0.011318523170996297,0.7382632311060755,-0.04005883942314678,-0.302228,-27.612467
11.185,2.0,1.0,1.0,34.7,33.3,33.3,4.4,4.4,2.7925,-0.6361702894058328,-0.010763083863959372,0.7258632960339015,-0.04104112709215112,-0.307751,-27.446749
11.185,2.0,1.0,1.0,34.7,33.3,33.3,4.4,4.4,2.795,-0.6495036616964838,-0.010173534797682855,0.7131056581513971,-0.04204038325341749,-0.313421,-27.279507
11.185,2.0,1.0,1.0,34.7,33.3,33.3,4.4,4.4,2.7975,-0.6626793324023191,-0.00954835938714269,0.6999885202244223,-0.043056795587930075,-0.319245,-27.110673
11.185,2.0,1.0,1.0,34.7,33.3,33.3,4.4,4.4,2.8,-0.675686121240223,-0.008885958995456819,0.6865103255664551,-0.044090561860196505,-0.325231,-26.940174
11.185,2.0,1.0,1.0,34.7,33.3,33.3,4.4,4.4,2.8025,-0.688512560004372,-0.008184645598583225,0.6726697683841533,-0.04514189159115662,-0.331386,-26.767935
11.185,2.0,1.0,1.0,34.7,33.3,33.3,4.4,4.4,2.805,-0.7011468904513183,-0.007442633540682438,0.6584658039323076,-0.04621100787459458,-0.337718,-26.593873
11.185,2.0,1.0,1.0,34.7,33.3,33.3,4.4,4.4,2.8075,-0.7135770618310496,-0.006658030254828064,0.6438976584324794,-0.04729814933805963,-0.344237,-26.417901
11.185,2.0,1.0,1.0,34.7,33.3,33.3,4.4,4.4,2.81,-0.7257907279294185,-0.005828825805092691,0.6289648387094173,-0.048403572246732994,-0.350953,-26.239926
11.185,2.0,1.0,1.0,34.7,33.3,33.3,4.4,4.4,2.8125,-0.737775243462309,-0.00495288108431245,0.613667141500021,-0.0495275527452895,-0.357877,-26.059847
11.185,2.0,1.0,1.0,34.7,33.3,33.3,4.4,4.4,2.815,-0.7495176596329235,-0.0040279144764230525,0.5980046623913263,-0.05067038922837282,-0.36502,-25.877558
11.185,2.0,1.0,1.0,34.7,33.3,33.3,4.4,4.4,2.8175,-0.7610047186297446,-0.0030514867625102966,0.581977804347213,-0.05183240482453289,-0.372395,-25.692946
11.185,2.0,1.0,1.0,34.7,33.3,33.3,4.4,4.4,2.82,-0.7722228468033079,-0.002020984014748888,0.5655872857885026,-0.05301394997099902,-0.380016,-25.50589
11.185,2.0,1.0,1.0,34.7,33.3,33.3,4.4,4.4,2.8225,-0.7831581462138341,-0.0009335981812368436,0.548834148198432,-0.0542154050470131,-0.387899,-25.316258
11.185,2.0,1.0,1.0,34.7,33.3,33.3,4.4,4.4,2.825,-0.793796384187736,0.00021369498393172996,0.531719763235765,-0.055437183020970456,-0.39606,-25.123912
