1,w,sub_t,h,l1,l2,l3,g1,g2,Freq,S11_re,S21_re,S11_img,S21_img,S11_dB,S21_dB
11.185,2.0,1.0,1.0,34.7,33.2,33.2,3.2,1.5,2.5,0.659917127803002,-0.0181354675336634,0.739786663345462,0.00855749619305207,-0.075459,-33.956379
11.185,2.0,1.0,1.0,34.7,33.2,33.2,3.2,1.5,2.5025,0.6535879388110852,-0.01845404296345473,0.7452571022074883,0.0085052731794176,-0.076297,-33.841642
11.185,2.0,1.0,1.0,34.7,33.2,33.2,3.2,1.5,2.505,0.6471775667917835,-0.0187775253190817,0.7507020342741123,0.008449017797244005,-0.07715,-33.726532
11.185,2.0,1.0,1.0,34.7,33.2,33.2,3.2,1.5,2.5075,0.6406852690995672,-0.01910598362416693,0.7561205233578322,0.008388592703568122,-0.078019,-33.611045
11.185,2.0,1.0,1.0,34.7,33.2,33.2,3.2,1.5,2.51,0.6341102984397219,-0.019439487425423865,0.761511608056936,0.008323856051477174,-0.078904,-33.495174
11.185,2.0,1.0,1.0,34.7,33.2,33.2,3.2,1.5,2.5125,0.6274519030818984,-0.019778106762719273,0.7668743010867569,0.008254661335954261,-0.079805,-33.378913
11.185,2.0,1.0,1.0,34.7,33.2,33.2,3.2,1.5,2.515,0.6207093270894403,-0.020121912136391452,0.7722075885947238,0.008180857234169624,-0.080723,-33.262257
11.185,2.0,1.0,1.0,34.7,33.2,33.2,3.2,1.5,2.5175,0.6138818105652869,-0.02047097447165127,0.7775104294588903,0.008102287440007704,-0.081657,-33.145199
11.185,2.0,1.0,1.0,34.7,33.2,33.2,3.2,1.5,2.52,0.6069685899152247,-0.020825365079885753,0.7827817545696686,0.008018790492604354,-0.08261,-33.027734
11.185,2.0,1.0,1.0,34.7,33.2,33.2,3.2,1.5,2.5225,0.5999688981293647,-0.02118515561666993,0.7880204660944425,0.007930199598669722,-0.08358,-32.909855
11.185,2.0,1.0,1.0,34.7,33.2,33.2,3.2,1.5,2.525,0.5928819650826886,-0.02155041803628537,0.7932254367247937,0.00783634244835022,-0.084569,-32.791556
11.185,2.0,1.0,1.0,34.7,33.2,33.2,3.2,1.5,2.5275,0.5857070178555897,-0.02192122454252904,0.7983955089060373,0.007737041024383679,-0.085577,-32.672831
11.185,2.0,1.0,1.0,34.7,33.2,33.2,3.2,1.5,2.53,0.5784432810753593,-0.02229764753558477,0.8035294940487752,0.007632111404283114,-0.086604,-32.553674
11.185,2.0,1.0,1.0,34.7,33.2,33.2,3.2,1.5,2.5325,0.5710899772796062,-0.02267975955471612,0.8086261717221936,0.007521363555279118,-0.08765,-32.434077
11.185,2.0,1.0,1.0,34.7,33.2,33.2,3.2,1.5,2.535,0.563646327302635,-0.02306763321652596,0.8136842888288219,0.007404601121733705,-0.088717,-32.314035
11.185,2.0,1.0,1.0,34.7,33.2,33.2,3.2,1.5,2.5375,0.556111550685868,-0.023461341148511446,0.8187025587604705,0.0072816212047307725,-0.089805,-32.19354
11.185,2.0,1.0,1.0,34.7,33.2,33.2,3.2,1.5,2.54,0.548484866113419,-0.023860955917629576,0.8236796605350944,0.007152214133531243,-0.090914,-32.072586
11.185,2.0,1.0,1.0,34.7,33.2,33.2,3.2,1.5,2.5425,0.5407654918739828,-0.024266549953569735,0.8286142379143125,0.007016163228569472,-0.092045,-31.951167
11.185,2.0,1.0,1.0,34.7,33.2,33.2,3.2,1.5,2.545,0.5329526463502534,-0.024678195466412905,0.8335048985013331,0.006873244555652079,-0.093198,-31.829275
11.185,2.0,1.0,1.0,34.7,33.2,33.2,3.2,1.5,2.5475,0.5250455485371378,-0.025095964358337552,0.8383502128190365,0.006723226671004725,-0.094374,-31.706903
11.185,2.0,1.0,1.0,34.7,33.2,33.2,3.2,1.5,2.55,0.5170434185900541,-0.025519928129013263,0.8431487133679925,0.006565870356795951,-0.095574,-31.584044
11.185,2.0,1.0,1.0,34.7,33.2,33.2,3.2,1.5,2.5525,0.508945478404711,-0.02595015777429967,0.8478988936641697,0.006400928346750899,-0.096798,-31.460691
11.185,2.0,1.0,1.0,34.7,33.2,33.2,3.2,1.5,2.555,0.5007509522297554,-0.026386723677848247,0.8525992072561416,0.006228145041447941,-0.098046,-31.336837
11.185,2.0,1.0,1.0,34.7,33.2,33.2,3.2,1.5,2.5575,0.49245906731377465,-0.026829695495178402,0.8572480667215858,0.0060472562128734515,-0.09932,-31.212474
11.185,2.0,1.0,1.0,34.7,33.2,33.2,3.2,1.5,2.56,0.4840690545881935,-0.027279142029773804,0.8618438426428793,0.005857988697787272,-0.10062,-31.087594
11.185,2.0,1.0,1.0,34.7,33.2,33.2,3.2,1.5,2.5625,0.475580149387649,-0.0277351311007183,0.866384862561633,0.00566006007943346,-0.101947,-30.962191
11.185,2.0,1.0,1.0,34.7,33.2,33.2,3.2,1.5,2.565,0.46699159220949715,-0.02819772940136137,0.8708694099120049,0.005453178357103222,-0.103301,-30.836255
11.185,2.0,1.0,1.0,34.7,33.2,33.2,3.2,1.5,2.5675,0.45830262951418804,-0.028667002348470784,0.8752957229326446,0.005237041603036875,-0.104684,-30.709779
11.185,2.0,1.0,1.0,34.7,33.2,33.2,3.2,1.5,2.57,0.44951251456827923,-0.029143013921299154,0.8796619935571665,0.005011337606119426,-0.106095,-30.582756
11.185,2.0,1.0,1.0,34.7,33.2,33.2,3.2,1.5,2.5725,0.4406205083319533,-0.02962582648995359,0.883966366283032,0.0047757435018068025,-0.107536,-30.455176
11.185,2.0,1.0,1.0,34.7,33.2,33.2,3.2,1.5,2.575,0.4316258803929651,-0.030115500632421358,0.8882069370187773,0.00452992538767805,-0.109008,-30.327031
11.185,2.0,1.0,1.0,34.7,33.2,33.2,3.2,1.5,2.5775,0.42252790994902595,-0.03061209493956298,0.8923817519095129,0.004273537923986602,-0.110511,-30.198314
11.185,2.0,1.0,1.0,34.7,33.2,33.2,3.2,1.5,2.58,0.4133258868407053,-0.03111566580734164,0.8964888061406643,0.00400622391854552,-0.112046,-30.069014
11.185,2.0,1.0,1.0,34.7,33.2,33.2,3.2,1.5,2.5825,0.40401911263700047,-0.0316262672155117,0.900526042719949,0.0037276138952467737,-0.113614,-29.939124
11.185,2.0,1.0,1.0,34.7,33.2,33.2,3.2,1.5,2.585,0.39460690177583124,-0.03214395049193873,0.9044913512375824,0.003437325645476453,-0.115217,-29.808634
11.185,2.0,1.0,1.0,34.7,33.2,33.2,3.2,1.5,2.5875,0.3850885827617701,-0.03266876406167173,0.9083825666047767,0.0031349637616459535,-0.116854,-29.677536
11.185,2.0,1.0,1.0,34.7,33.2,33.2,3.2,1.5,2.59,0.3754634994234426,-0.033200753179829456,0.9121974677705685,0.002820119152016306,-0.118528,-29.545819
11.185,2.0,1.0,1.0,34.7,33.2,33.2,3.2,1.5,2.5925,0.365731012233087,-0.033739959647303946,0.9159337764170917,0.0024923685359417476,-0.120238,-29.413475
11.185,2.0,1.0,1.0,34.7,33.2,33.2,3.2,1.5,2.595,0.3558904996909032,-0.0342864215082156,0.9195891556333962,0.002151273918615208,-0.121987,-29.280493
11.185,2.0,1.0,1.0,34.7,33.2,33.2,3.2,1.5,2.5975,0.34594135977686064,-0.03484017272798674,0.9231612085679765,0.0017963820443346957,-0.123775,-29.146864
11.185,2.0,1.0,1.0,34.7,33.2,33.2,3.2,1.5,2.6,0.3358830114727975,-0.035401242850822176,0.9266474770601715,0.0014272238272567419,-0.125603,-29.012577
11.185,2.0,1.0,1.0,34.7,33.2,33.2,3.2,1.5,2.6025,0.3257148963577152,-0.03596965663530299,0.930045440250656,0.0010433137585396676,-0.127474,-28.877622
11.185,2.0,1.0,1.0,34.7,33.2,33.2,3.2,1.5,2.605,0.31543648027929233,-0.036545433666713444,0.9333525131712439,0.000644149288708588,-0.129386,-28.741989
11.185,2.0,1.0,1.0,34.7,33.2,33.2,3.2,1.5,2.6075,0.3050472551047558,-0.03712858794462232,0.9365660453142813,0.00022921018399914687,-0.131343,-28.605666
11.185,2.0,1.0,1.0,34.7,33.2,33.2,3.2,1.5,2.61,0.29454674055438723,-0.03771912744413824,0.9396833191819008,-0.00020204214463443866,-0.133346,-28.468643
11.185,2.0,1.0,1.0,34.7,33.2,33.2,3.2,1.5,2.6125,0.28393448612104083,-0.03831705364914565,0.9427015488154723,-0.0006501653412572865,-0.135395,-28.330908
11.185,2.0,1.0,1.0,34.7,33.2,33.2,3.2,1.5,2.615,0.2732100730791984,-0.03892236105570754,0.9456178783055754,-0.0011157368349346349,-0.137493,-28.192449
11.185,2.0,1.0,1.0,34.7,33.2,33.2,3.2,1.5,2.6175,0.26237311658723683,-0.03953503664368698,0.9484293802828665,-0.00159935460155511,-0.139641,-28.053256
11.185,2.0,1.0,1.0,34.7,33.2,33.2,3.2,1.5,2.62,0.25142326788672026,-0.04015505931449819,0.9511330543902099,-0.0021016379592033625,-0.14184,-27.913314
11.185,2.0,1.0,1.0,34.7,33.2,33.2,3.2,1.5,2.6225,0.24036021660266507,-0.04078239929274144,0.9537258257364916,-0.0026232283989103536,-0.144092,-27.772613
11.185,2.0,1.0,1.0,34.7,33.2,33.2,3.2,1.5,2.625,0.229183693148958,-0.041417017489304,0.956204543332495,-0.00316479045273141,-0.146399,-27.631139
11.185,2.0,1.0,1.0,34.7,33.2,33.2,3.2,1.5,2.6275,0.2178934712431841,-0.04205886482332789,0.9585659785092866,-0.0037270126012513786,-0.148762,-27.488879
11.185,2.0,1.0,1.0,34.7,33.2,33.2,3.2,1.5,2.63,0.20648937053540545,-0.042707881500238375,0.9608068233195037,-0.004310608222753442,-0.151184,-27.34582
11.185,2.0,1.0,1.0,34.7,33.2,33.2,3.2,1.5,2.6325,0.1949712593555658,-0.04336399624280885,0.9629236889219573,-0.004916316586468317,-0.153666,-27.201948
11.185,2.0,1.0,1.0,34.7,33.2,33.2,3.2,1.5,2.635,0.18333905758443644,-0.044027125471993264,0.9649131039499571,-0.005544903892485365,-0.15621,-27.057248
11.185,2.0,1.0,1.0,34.7,33.2,33.2,3.2,1.5,2.6375,0.17159273965326186,-0.04469717243399127,0.9667715128636976,-0.006197164361109058,-0.158819,-26.911706
11.185,2.0,1.0,1.0,34.7,33.2,33.2,3.2,1.5,2.64,0.15973233767746076,-0.04537402626972137,0.9684952742870655,-0.0068739213746581065,-0.161494,-26.765307
11.185,2.0,1.0,1.0,34.7,33.2,33.2,3.2,1.5,2.6425,0.14775794473006776,-0.04605756102255223,0.9700806593291297,-0.0075760286749298,-0.164238,-26.618035
11.185,2.0,1.0,1.0,34.7,33.2,33.2,3.2,1.5,2.645,0.1356697182608643,-0.04674763457979183,0.9715238498905183,-0.008304371619807377,-0.167054,-26.469875
11.185,2.0,1.0,1.0,34.7,33.2,33.2,3.2,1.5,2.6475,0.12346788366745175,-0.04744408754304201,0.9728209369548394,-0.009059868502765384,-0.169943,-26.32081
11.185,2.0,1.0,1.0,34.7,33.2,33.2,3.2,1.5,2.65,0.11115273802488315,-0.04814674202209729,0.9739679188651421,-0.009843471939327086,-0.172909,-26.170824
11.185,2.0,1.0,1.0,34.7,33.2,33.2,3.2,1.5,2.6525,0.09872465398087538,-0.04885540034658629,0.9749606995853375,-0.01065617032485068,-0.175954,-26.019898
11.185,2.0,1.0,1.0,34.7,33.2,33.2,3.2,1.5,2.655,0.0861840838239886,-0.049569843689032805,0.9757950869463106,-0.011498989368394271,-0.179081,-25.868015
11.185,2.0,1.0,1.0,34.7,33.2,33.2,3.2,1.5,2.6575,0.07353156373266818,-0.05028983059242244,0.9764667908763093,-0.012372993707783315,-0.182293,-25.715156
11.185,2.0,1.0,1.0,34.7,33.2,33.2,3.2,1.5,2.66,0.06076771821355244,-0.05101509539471609,0.9769714216149357,-0.013279288611449934,-0.185593,-25.561303
11.185,2.0,1.0,1.0,34.7,33.2,33.2,3.2,1.5,2.6625,0.047893264738010026,-0.05174534654202509,0.9773044879098791,-0.014219021773068902,-0.188985,-25.406435
11.185,2.0,1.0,1.0,34.7,33.2,33.2,3.2,1.5,2.665,0.03490901858652214,-0.052480264781363486,0.9774613951951545,-0.01519338520554167,-0.192472,-25.250532
11.185,2.0,1.0,1.0,34.7,33.2,33.2,3.2,1.5,2.6675,0.021815897911236504,-0.05321950122299069,0.9774374437493623,-0.016203617241429526,-0.196058,-25.093572
11.185,2.0,1.0,1.0,34.7,33.2,33.2,3.2,1.5,2.67,0.008614929027819422,-0.05396267526136075,0.9772278268320261,-0.01725100464756079,-0.199746,-24.935535
11.185,2.0,1.0,1.0,34.7,33.2,33.2,3.2,1.5,2.6725,-0.0046927480513634014,-0.054709372342573115,0.9768276287956477,-0.01833688486220615,-0.203541,-24.776397
11.185,2.0,1.0,1.0,34.7,33.2,33.2,3.2,1.5,2.675,-0.018105873829677127,-0.05545914156496415,0.9762318231706066,-0.019462648363956576,-0.207447,-24.616134
11.185,2.0,1.0,1.0,34.7,33.2,33.2,3.2,1.5,2.6775,-0.031623063270071465,-0.05621149309807559,0.975435270719446,-0.020629741182239657,-0.211469,-24.454723
11.185,2.0,1.0,1.0,34.7,33.2,33.2,3.2,1.5,2.68,-0.045242799454860164,-0.056965895403655195,0.9744327174564147,-0.021839667560302492,-0.215611,-24.292138
11.185,2.0,1.0,1.0,34.7,33.2,33.2,3.2,1.5,2.6825,-0.0589634269444312,-0.057721772240568986,0.9732187926274081,-0.023093992782447215,-0.219878,-24.128353
11.185,2.0,1.0,1.0,34.7,33.2,33.2,3.2,1.5,2.685,-0.07278314481626437,-0.058478499433507095,0.9717880066445841,-0.02439434617837329,-0.224276,-23.96334
11.185,2.0,1.0,1.0,34.7,33.2,33.2,3.2,1.5,2.6875,-0.08669999936367845,-0.05923540138310802,0.9701347489689836,-0.025742424318628193,-0.22881,-23.797072
11.185,2.0,1.0,1.0,34.7,33.2,33.2,3.2,1.5,2.69,-0.10071187643157176,-0.059991747292581506,0.9682532859334403,-0.027139994416440442,-0.233487,-23.629519
11.185,2.0,1.0,1.0,34.7,33.2,33.2,3.2,1.5,2.6925,-0.11481649336395822,-0.06074674708303157,0.9661377584968199,-0.02858889795259503,-0.238312,-23.46065
11.185,2.0,1.0,1.0,34.7,33.2,33.2,3.2,1.5,2.695,-0.12901139053520988,-0.061499546966417094,0.9637821799193521,-0.030091054541509746,-0.243293,-23.290434
11.185,2.0,1.0,1.0,34.7,33.2,33.2,3.2,1.5,2.6975,-0.1432939224337391,-0.06224922464139505,0.961180433347277,-0.03164846605833222,-0.248436,-23.118836
11.185,2.0,1.0,1.0,34.7,33.2,33.2,3.2,1.5,2.7,-0.15766124826305544,-0.06299478407308556,0.9583262692934265,-0.03326322104866416,-0.253749,-22.945824
11.185,2.0,1.0,1.0,34.7,33.2,33.2,3.2,1.5,2.7025,-0.17211032202091833,-0.0637351498130262,0.9552133029984796,-0.03493749944447807,-0.25924,-22.77136
11.185,2.0,1.0,1.0,34.7,33.2,33.2,3.2,1.5,2.705,-0.18663788201233908,-0.06446916081013844,0.9518350116556561,-0.03667357761190711,-0.264918,-22.595407
11.185,2.0,1.0,1.0,34.7,33.2,33.2,3.2,1.5,2.7075,-0.20124043974659,-0.06519556365732557,0.9481847314793598,-0.03847383375889904,-0.270792,-22.417925
11.185,2.0,1.0,1.0,34.7,33.2,33.2,3.2,1.5,2.71,-0.21591426816182585,-0.06591300521122848,0.9442556545958573,-0.04034075373320842,-0.276871,-22.238874
11.185,2.0,1.0,1.0,34.7,33.2,33.2,3.2,1.5,2.7125,-0.23065538911342195,-0.06662002451455575,0.9400408257313885,-0.04227693724388588,-0.283167,-22.058211
11.185,2.0,1.0,1.0,34.7,33.2,33.2,3.2,1.5,2.715,-0.2454595600535056,-0.06731504394110607,0.9355331386702378,-0.044285104542305574,-0.289689,-21.87589
11.185,2.0,1.0,1.0,34.7,33.2,33.2,3.2,1.5,2.7175,-0.2603222598190973,-0.06799635947293578,0.9307253324521192,-0.04636810360186058,-0.296451,-21.691865
11.185,2.0,1.0,1.0,34.7,33.2,33.2,3.2,1.5,2.72,-0.2752386734346971,-0.0686621300068568,0.9256099872748661,-0.04852891783873274,-0.303464,-21.506086
11.185,2.0,1.0,1.0,34.7,33.2,33.2,3.2,1.5,2.7225,-0.290203675821778,-0.06931036557333826,0.9201795200647868,-0.05077067441961554,-0.310743,-21.318502
11.185,2.0,1.0,1.0,34.7,33.2,33.2,3.2,1.5,2.725,-0.3052118142919727,-0.06993891433459871,0.9144261796732296,-0.05309665320588976,-0.318303,-21.129058
11.185,2.0,1.0,1.0,34.7,33.2,33.2,3.2,1.5,2.7275,-0.32025728968281447,-0.07054544820987792,0.9083420416538778,-0.05551029638753201,-0.326159,-20.937699
11.185,2.0,1.0,1.0,34.7,33.2,33.2,3.2,1.5,2.73,-0.3353339359736665,-0.07112744695411889,0.9019190025711306,-0.058015218863852955,-0.334328,-20.744363
11.185,2.0,1.0,1.0,34.7,33.2,33.2,3.2,1.5,2.7325,-0.35043519819521546,-0.07168218049108586,0.895148773785721,-0.060615219432008025,-0.342828,-20.548989
11.185,2.0,1.0,1.0,34.7,33.2,33.2,3.2,1.5,2.735,-0.36555410841718045,-0.0722066892726728,0.8880228746595296,-0.06331429284797041,-0.351681,-20.351511
11.185,2.0,1.0,1.0,34.7,33.2,33.2,3.2,1.5,2.7375,-0.3806832595657073,-0.07269776240213689,0.8805326251175583,-0.0661166428280891,-0.360907,-20.151859
11.185,2.0,1.0,1.0,34.7,33.2,33.2,3.2,1.5,2.74,-0.39581477678289595,-0.07315191321934666,0.8726691375014143,-0.06902669606238969,-0.370529,-19.94996
11.185,2.0,1.0,1.0,34.7,33.2,33.2,3.2,1.5,2.7425,-0.4109402859953868,-0.07356535199988752,0.8644233076457052,-0.07204911731301447,-0.380573,-19.745738
11.185,2.0,1.0,1.0,34.7,33.2,33.2,3.2,1.5,2.745,-0.4260508793054612,-0.07393395536579837,0.8557858051068462,-0.0751888256723245,-0.391067,-19.539113
11.185,2.0,1.0,1.0,34.7,33.2,33.2,3.2,1.5,2.7475,-0.4411370767553389,-0.07425323194240635,0.8467470624733879,-0.07845101205468163,-0.40204,-19.329997
11.185,2.0,1.0,1.0,34.7,33.2,33.2,3.2,1.5,2.75,-0.456188783941678,-0.074518283721454,0.837297263688819,-0.081841157993123,-0.413526,-19.118302
11.185,2.0,1.0,1.0,34.7,33.2,33.2,3.2,1.5,2.7525,-0.4711952448702974,-0.07472376250343928,0.827426331322733,-0.08536505580611072,-0.425559,-18.903933
11.185,2.0,1.0,1.0,34.7,33.2,33.2,3.2,1.5,2.755,-0.48614498933874806,-0.0748638206893374,0.8171239127354568,-0.08902883018916474,-0.438179,-18.68679
11.185,2.0,1.0,1.0,34.7,33.2,33.2,3.2,1.5,2.7575,-0.5010257740133239,-0.07493205557070852,0.8063793650962869,-0.0928389612698117,-0.451429,-18.466765
11.185,2.0,1.0,1.0,34.7,33.2,33.2,3.2,1.5,2.76,-0.5158245162239341,-0.07492144612405374,0.7951817392385029,-0.09680230913992019,-0.465356,-18.243748
11.185,2.0,1.0,1.0,34.7,33.2,33.2,3.2,1.5,2.7625,-0.530527219330572,-0.07482428114591472,0.7835197623679272,-0.10092613984434322,-0.480012,-18.017621
11.185,2.0,1.0,1.0,34.7,33.2,33.2,3.2,1.5,2.765,-0.5451188883139777,-0.07463207736447695,0.7713818196897857,-0.10521815275526009,-0.495453,-17.788256
11.185,2.0,1.0,1.0,34.7,33.2,33.2,3.2,1.5,2.7675,-0.5595834340039169,-0.07433548592518957,0.7587559350856261,-0.10968650919291424,-0.511744,-17.555523
11.185,2.0,1.0,1.0,34.7,33.2,33.2,3.2,1.5,2.77,-0.5739035640741389,-0.07392418536473033,0.7456297510645494,-0.11433986205923066,-0.528953,-17.31928
11.185,2.0,1.0,1.0,34.7,33.2,33.2,3.2,1.5,2.7725,-0.588060658594361,-0.07338675885065855,0.7319905083393495,-0.11918738612268863,-0.547159,-17.079379
11.185,2.0,1.0,1.0,34.7,33.2,33.2,3.2,1.5,2.775,-0.6020346275260041,-0.07271055306267508,0.7178250255495855,-0.12423880841965797,-0.566448,-16.835661
11.185,2.0,1.0,1.0,34.7,33.2,33.2,3.2,1.5,2.7775,-0.6158037470668655,-0.07188151561286517,0.7031196798849326,-0.12950443800439426,-0.586916,-16.58796
11.185,2.0,1.0,1.0,34.7,33.2,33.2,3.2,1.5,2.78,-0.6293444711754832,-0.0708840073316023,0.6878603896732036,-0.1349951939673023,-0.608671,-16.336098
11.185,2.0,1.0,1.0,34.7,33.2,33.2,3.2,1.5,2.7825,-0.6426312139205608,-0.0697005850651992,0.6720326004146642,-0.14072263022264447,-0.631834,-16.079888
11.185,2.0,1.0,1.0,34.7,33.2,33.2,3.2,1.5,2.785,-0.6556360974837729,-0.06831174982028596,0.6556212763028038,-0.14669895500739374,-0.656541,-15.819129
11.185,2.0,1.0,1.0,34.7,33.2,33.2,3.2,1.5,2.7875,-0.6683286596713717,-0.06669565412448247,0.638610900019096,-0.15293704228551938,-0.682945,-15.553612
11.185,2.0,1.0,1.0,34.7,33.2,33.2,3.2,1.5,2.79,-0.6806755136345448,-0.06482776132666318,0.620985484588621,-0.15945043125334468,-0.711219,-15.283112
11.185,2.0,1.0,1.0,34.7,33.2,33.2,3.2,1.5,2.7925,-0.692639951131013,-0.06268044820400537,0.6027286024201401,-0.16625330880717293,-0.74156,-15.007392
11.185,2.0,1.0,1.0,34.7,33.2,33.2,3.2,1.5,2.795,-0.7041814790508782,-0.06022254064750181,0.5838234384428431,-0.17336046804992372,-0.774191,-14.726201
11.185,2.0,1.0,1.0,34.7,33.2,33.2,3.2,1.5,2.7975,-0.7152552770505316,-0.05741877033545095,0.5642528766472903,-0.18078723352535248,-0.809369,-14.439275
11.185,2.0,1.0,1.0,34.7,33.2,33.2,3.2,1.5,2.8,-0.7258115619695977,-0.054229138156299386,0.5439996325481757,-0.18854934066933565,-0.847384,-14.146334
11.185,2.0,1.0,1.0,34.7,33.2,33.2,3.2,1.5,2.8025,-0.7357948422452616,-0.05060816770662695,0.5230464483931544,-0.1966627526779164,-0.888575,-13.847085
11.185,2.0,1.0,1.0,34.7,33.2,33.2,3.2,1.5,2.805,-0.7451430428180408,-0.04650402949979509,0.5013763737239368,-0.20514339223449884,-0.933329,-13.541217
11.185,2.0,1.0,1.0,34.7,33.2,33.2,3.2,1.5,2.8075,-0.7537864781371508,-0.04185751367041784,0.47897316166370496,-0.21400675780651632,-0.982098,-13.228409
11.185,2.0,1.0,1.0,34.7,33.2,33.2,3.2,1.5,2.81,-0.7616466480229827,-0.03660082615066121,0.455821821743063,-0.2232673838350048,-1.035404,-12.908323
11.185,2.0,1.0,1.0,34.7,33.2,33.2,3.2,1.5,2.8125,-0.768634828709737,-0.0306561809070913,0.43190938409795,-0.232938090192206,-1.093861,-12.580613
11.185,2.0,1.0,1.0,34.7,33.2,33.2,3.2,1.5,2.815,-0.7746504300504518,-0.0239341595376703,0.4072259486828872,-0.2430289475753735,-1.158187,-12.244921
11.185,2.0,1.0,1.0,34.7,33.2,33.2,3.2,1.5,2.8175,-0.7795790907798323,-0.016331810494486763,0.38176611831212137,-0.25354586048034516,-1.229231,-11.900887
11.185,2.0,1.0,1.0,34.7,33.2,33.2,3.2,1.5,2.82,-0.7832904888317184,-0.007730465346604747,0.35553094786968964,-0.26448863607220846,-1.307998,-11.548151
11.185,2.0,1.0,1.0,34.7,33.2,33.2,3.2,1.5,2.8225,-0.7856358561619552,0.0020067380198326525,0.3285305863743968,-0.2758483632060704,-1.395685,-11.186362
11.185,2.0,1.0,1.0,34.7,33.2,33.2,3.2,1.5,2.825,-0.7864452124234335,0.013037610483675683,0.30078784658530233,-0.2876038682382345,-1.493725,-10.81519
11.185,2.0,1.0,1.0,34.7,33.2,33.2,3.2,1.5,2.8275,-0.7855243772423633,0.025543884964707435,0.2723430113931853,-0.29971694023554735,-1.603842,-10.434343
