1,w,sub_t,h,l1,l2,l3,g1,g2,Freq,S11_re,S21_re,S11_img,S21_img,S11_dB,S21_dB
11.185,2.0,1.0,1.0,33.5,34.1,34.1,2.0,3.3,2.5,0.844198318449583,-0.0105108708966796,0.522028886809656,0.0090232074658004,-0.064822,-37.169325
11.185,2.0,1.0,1.0,33.5,34.1,34.1,2.0,3.3,2.5025,0.8404409335169304,-0.010738442372707912,0.5279051191103459,0.009072921254069928,-0.065528,-37.041426
11.185,2.0,1.0,1.0,33.5,34.1,34.1,2.0,3.3,2.505,0.8366229776797688,-0.010970635384671065,0.5337822126880851,0.009121742331160664,-0.066249,-36.913054
11.185,2.0,1.0,1.0,33.5,34.1,34.1,2.0,3.3,2.5075,0.8327437437676518,-0.011207558009811895,0.5396598695093762,0.009169617029057239,-0.066983,-36.784197
11.185,2.0,1.0,1.0,33.5,34.1,34.1,2.0,3.3,2.51,0.8288025116258427,-0.011449321431794576,0.5455377810144405,0.009216489256252909,-0.067732,-36.654847
11.185,2.0,1.0,1.0,33.5,34.1,34.1,2.0,3.3,2.5125,0.8247985478417249,-0.011696040046117412,0.5514156277280785,0.009262300381936992,-0.068496,-36.524991
11.185,2.0,1.0,1.0,33.5,34.1,34.1,2.0,3.3,2.515,0.8207311054646461,-0.011947831569627136,0.5572930788552029,0.009306989114085317,-0.069276,-36.39462
11.185,2.0,1.0,1.0,33.5,34.1,34.1,2.0,3.3,2.5175,0.8165994237190219,-0.012204817154312413,0.5631697918603381,0.00935049137109624,-0.070072,-36.263723
11.185,2.0,1.0,1.0,33.5,34.1,34.1,2.0,3.3,2.52,0.812402727710497,-0.012467121505564185,0.5690454120303806,0.009392740146591413,-0.070884,-36.132288
11.185,2.0,1.0,1.0,33.5,34.1,34.1,2.0,3.3,2.5225,0.8081402281249912,-0.01273487300509756,0.574919572019832,0.009433665366975463,-0.071713,-36.000304
11.185,2.0,1.0,1.0,33.5,34.1,34.1,2.0,3.3,2.525,0.8038111209204096,-0.013008203838740804,0.5807918913777215,0.009473193741321967,-0.072559,-35.867761
11.185,2.0,1.0,1.0,33.5,34.1,34.1,2.0,3.3,2.5275,0.7994145870108201,-0.013287250129305914,0.5866619760553595,0.009511248603124071,-0.073422,-35.734646
11.185,2.0,1.0,1.0,33.5,34.1,34.1,2.0,3.3,2.53,0.7949497919428866,-0.013572152074764747,0.5925294178940296,0.00954774974341781,-0.074305,-35.600947
11.185,2.0,1.0,1.0,33.5,34.1,34.1,2.0,3.3,2.5325,0.7904158855643342,-0.013863054091966845,0.5983937940916737,0.0095826132347517,-0.075205,-35.466652
11.185,2.0,1.0,1.0,33.5,34.1,34.1,2.0,3.3,2.535,0.7858120016842152,-0.014160104966144506,0.6042546666475838,0.009615751245442103,-0.076125,-35.33175
11.185,2.0,1.0,1.0,33.5,34.1,34.1,2.0,3.3,2.5375,0.7811372577247532,-0.014463458006463266,0.6101115817840336,0.009647071843514094,-0.077065,-35.196228
11.185,2.0,1.0,1.0,33.5,34.1,34.1,2.0,3.3,2.54,0.7763907543645113,-0.014773271207887913,0.6159640693437559,0.009676478789686546,-0.078026,-35.060072
11.185,2.0,1.0,1.0,33.5,34.1,34.1,2.0,3.3,2.5425,0.771571575172638,-0.015089707419646577,0.6218116421620826,0.009703871318716507,-0.079007,-34.923271
11.185,2.0,1.0,1.0,33.5,34.1,34.1,2.0,3.3,2.545,0.7666787862339334,-0.015412934520589044,0.6276537954125124,0.009729143908368971,-0.08001,-34.78581
11.185,2.0,1.0,1.0,33.5,34.1,34.1,2.0,3.3,2.5475,0.7617114357644741,-0.015743125601748544,0.6334900059243812,0.00975218603522656,-0.081035,-34.647678
11.185,2.0,1.0,1.0,33.5,34.1,34.1,2.0,3.3,2.55,0.7566685537175065,-0.016080459156431966,0.6393197314712679,0.009772881916499302,-0.082084,-34.508859
11.185,2.0,1.0,1.0,33.5,34.1,34.1,2.0,3.3,2.5525,0.7515491513793476,-0.016425119278176657,0.6451424100286333,0.00979111023693283,-0.083156,-34.36934
11.185,2.0,1.0,1.0,33.5,34.1,34.1,2.0,3.3,2.555,0.746352220954982,-0.016777295866929307,0.6509574589991566,0.00980674385984989,-0.084252,-34.229106
11.185,2.0,1.0,1.0,33.5,34.1,34.1,2.0,3.3,2.5575,0.7410767351430576,-0.017137184843817974,0.656764274404106,0.009819649521289518,-0.085373,-34.088145
11.185,2.0,1.0,1.0,33.5,34.1,34.1,2.0,3.3,2.56,0.7357216466999799,-0.017504988374904377,0.6625622300389822,0.009829687506132613,-0.086521,-33.946439
11.185,2.0,1.0,1.0,33.5,34.1,34.1,2.0,3.3,2.5625,0.730285887992772,-0.017880915104322524,0.668350676591576,0.009836711305021464,-0.087694,-33.803975
11.185,2.0,1.0,1.0,33.5,34.1,34.1,2.0,3.3,2.565,0.7247683705403748,-0.0182651803972269,0.6741289407204638,0.009840567250791596,-0.088896,-33.660737
11.185,2.0,1.0,1.0,33.5,34.1,34.1,2.0,3.3,2.5675,0.719167984543057,-0.01865800659299184,0.6798963240918208,0.009841094133039322,-0.090126,-33.516709
11.185,2.0,1.0,1.0,33.5,34.1,34.1,2.0,3.3,2.57,0.7134835983995751,-0.01905962326912412,0.6856521023723279,0.00983812278934454,-0.091385,-33.371875
11.185,2.0,1.0,1.0,33.5,34.1,34.1,2.0,3.3,2.5725,0.7077140582117322,-0.019470267516369377,0.6913955241757797,0.009831475671556279,-0.092675,-33.226219
11.185,2.0,1.0,1.0,33.5,34.1,34.1,2.0,3.3,2.575,0.7018581872759694,-0.019890184225513963,0.6971258099608569,0.009820966385426134,-0.093995,-33.079724
11.185,2.0,1.0,1.0,33.5,34.1,34.1,2.0,3.3,2.5775,0.6959147855616123,-0.020319626386404083,0.7028421508773557,0.009806399201743964,-0.095348,-32.932373
11.185,2.0,1.0,1.0,33.5,34.1,34.1,2.0,3.3,2.58,0.6898826291753954,-0.02075885539972548,0.7085437075579838,0.009787568536985992,-0.096735,-32.784148
11.185,2.0,1.0,1.0,33.5,34.1,34.1,2.0,3.3,2.5825,0.6837604698118632,-0.021208141402107937,0.7142296088526502,0.009764258401329563,-0.098156,-32.635031
11.185,2.0,1.0,1.0,33.5,34.1,34.1,2.0,3.3,2.585,0.6775470341892593,-0.02166776360514061,0.7198989505019461,0.00973624181172118,-0.099612,-32.485004
11.185,2.0,1.0,1.0,33.5,34.1,34.1,2.0,3.3,2.5875,0.6712410234704923,-0.022138010648905346,0.7255507937463131,0.009703280167498524,-0.101106,-32.334049
11.185,2.0,1.0,1.0,33.5,34.1,34.1,2.0,3.3,2.59,0.6648411126687738,-0.022619180970656298,0.7311841638671176,0.00966512258586847,-0.102637,-32.182145
11.185,2.0,1.0,1.0,33.5,34.1,34.1,2.0,3.3,2.5925,0.6583459500375081,-0.02311158318929566,0.7367980486556222,0.009621505194324443,-0.104208,-32.029274
11.185,2.0,1.0,1.0,33.5,34.1,34.1,2.0,3.3,2.595,0.6517541564440341,-0.023615536506313876,0.742391396805516,0.00957215037684875,-0.10582,-31.875415
11.185,2.0,1.0,1.0,33.5,34.1,34.1,2.0,3.3,2.5975,0.645064324726783,-0.024131371123884346,0.7479631162244006,0.00951676597048708,-0.107474,-31.720547
11.185,2.0,1.0,1.0,33.5,34.1,34.1,2.0,3.3,2.6,0.6382750190354545,-0.024659428680817875,0.7535120722592487,0.009455044408598984,-0.109172,-31.564649
11.185,2.0,1.0,1.0,33.5,34.1,34.1,2.0,3.3,2.6025,0.6313847741538055,-0.02520006270709928,0.7590370858305042,0.009386661806779904,-0.110916,-31.407701
11.185,2.0,1.0,1.0,33.5,34.1,34.1,2.0,3.3,2.605,0.6243920948046436,-0.025753639097742673,0.7645369314691091,0.009311276987112923,-0.112707,-31.249678
11.185,2.0,1.0,1.0,33.5,34.1,34.1,2.0,3.3,2.6075,0.6172954549366547,-0.02632053660671109,0.7700103352502696,0.009228530436039667,-0.114546,-31.090559
11.185,2.0,1.0,1.0,33.5,34.1,34.1,2.0,3.3,2.61,0.6100932969926973,-0.02690114736165414,0.7754559726173432,0.009138043190735601,-0.116436,-30.93032
11.185,2.0,1.0,1.0,33.5,34.1,34.1,2.0,3.3,2.6125,0.6027840311592235,-0.02749587740021896,0.7808724660886867,0.00903941564843422,-0.118379,-30.768937
11.185,2.0,1.0,1.0,33.5,34.1,34.1,2.0,3.3,2.615,0.5953660345965192,-0.028105147228686875,0.7862583828397602,0.008932226292658775,-0.120376,-30.606385
11.185,2.0,1.0,1.0,33.5,34.1,34.1,2.0,3.3,2.6175,0.587837650649513,-0.02872939240367662,0.7916122321521601,0.008816030329790031,-0.12243,-30.44264
11.185,2.0,1.0,1.0,33.5,34.1,34.1,2.0,3.3,2.62,0.5801971880389282,-0.029369064137637128,0.7969324627205856,0.008690358228815127,-0.124543,-30.277674
11.185,2.0,1.0,1.0,33.5,34.1,34.1,2.0,3.3,2.6225,0.5724429200326334,-0.030024629928824247,0.8022174598080304,0.008554714156462377,-0.126718,-30.111462
11.185,2.0,1.0,1.0,33.5,34.1,34.1,2.0,3.3,2.625,0.564573083597137,-0.0306965742164119,0.807465542238654,0.00840857429922265,-0.128956,-29.943975
11.185,2.0,1.0,1.0,33.5,34.1,34.1,2.0,3.3,2.6275,0.5565858785292295,-0.031385399061337735,0.8126749592169578,0.008251385062984052,-0.13126,-29.775186
11.185,2.0,1.0,1.0,33.5,34.1,34.1,2.0,3.3,2.63,0.5484794665679341,-0.03209162485340431,0.8178438869608878,0.008082561140153263,-0.133633,-29.605065
11.185,2.0,1.0,1.0,33.5,34.1,34.1,2.0,3.3,2.6325,0.5402519704870329,-0.032815791045068245,0.8229704251354567,0.007901483433198873,-0.136079,-29.433582
11.185,2.0,1.0,1.0,33.5,34.1,34.1,2.0,3.3,2.635,0.5319014731686212,-0.033558456912228425,0.8280525930723106,0.007707496822514306,-0.138599,-29.260708
11.185,2.0,1.0,1.0,33.5,34.1,34.1,2.0,3.3,2.6375,0.5234260166583383,-0.034320202342178224,0.8330883257593885,0.007499907765356564,-0.141197,-29.086409
11.185,2.0,1.0,1.0,33.5,34.1,34.1,2.0,3.3,2.64,0.5148236012031324,-0.03510162864870659,0.8380754695834312,0.007277981711353099,-0.143877,-28.910653
11.185,2.0,1.0,1.0,33.5,34.1,34.1,2.0,3.3,2.6425,0.5060921842727417,-0.035903359414106994,0.8430117778065361,0.00704094031867327,-0.146642,-28.733407
11.185,2.0,1.0,1.0,33.5,34.1,34.1,2.0,3.3,2.645,0.4972296795663661,-0.03672604135758605,0.847894905756265,0.0067879584534168815,-0.149495,-28.554636
11.185,2.0,1.0,1.0,33.5,34.1,34.1,2.0,3.3,2.6475,0.48823395600641895,-0.037570345229233956,0.8527224057069164,0.006518160953062744,-0.152442,-28.374304
11.185,2.0,1.0,1.0,33.5,34.1,34.1,2.0,3.3,2.65,0.4791028367216876,-0.038436966728326076,0.8574917214275166,0.006230619132922626,-0.155485,-28.192375
11.185,2.0,1.0,1.0,33.5,34.1,34.1,2.0,3.3,2.6525,0.46983409802282783,-0.0393266274442467,0.8622001823697549,0.0059243470124475195,-0.158629,-28.00881
11.185,2.0,1.0,1.0,33.5,34.1,34.1,2.0,3.3,2.655,0.4604254683736924,-0.0402400758177643,0.8668449974665757,0.005598297235895963,-0.16188,-27.823569
11.185,2.0,1.0,1.0,33.5,34.1,34.1,2.0,3.3,2.6575,0.4508746273628228,-0.041178088119702964,0.8714232485092961,0.005251356659283594,-0.165242,-27.636614
11.185,2.0,1.0,1.0,33.5,34.1,34.1,2.0,3.3,2.66,0.44117920468029076,-0.04214146944324877,0.8759318830680088,0.004882341572648979,-0.16872,-27.447901
11.185,2.0,1.0,1.0,33.5,34.1,34.1,2.0,3.3,2.6625,0.4313367791061602,-0.04313105470516379,0.8803677069165305,0.004489992523462362,-0.17232,-27.257387
11.185,2.0,1.0,1.0,33.5,34.1,34.1,2.0,3.3,2.665,0.4213448775180617,-0.04414770965003713,0.884727375919337,0.0040729687034281,-0.176048,-27.065028
11.185,2.0,1.0,1.0,33.5,34.1,34.1,2.0,3.3,2.6675,0.4112009739268791,-0.0451923318503361,0.8890073873335814,0.0036298418569484254,-0.179911,-26.870777
11.185,2.0,1.0,1.0,33.5,34.1,34.1,2.0,3.3,2.67,0.4009024885512547,-0.0462658516934079,0.8932040704745619,0.003159089665067953,-0.183914,-26.674588
11.185,2.0,1.0,1.0,33.5,34.1,34.1,2.0,3.3,2.6725,0.39044678694366747,-0.047369233344661914,0.8973135766876372,0.0026590885537530417,-0.188066,-26.476409
11.185,2.0,1.0,1.0,33.5,34.1,34.1,2.0,3.3,2.675,0.3798311791832768,-0.04850347567388586,0.9013318685636675,0.002128105869811375,-0.192375,-26.27619
11.185,2.0,1.0,1.0,33.5,34.1,34.1,2.0,3.3,2.6775,0.3690529191535428,-0.04966961312895166,0.9052547083284068,0.001564291361548477,-0.196847,-26.073879
11.185,2.0,1.0,1.0,33.5,34.1,34.1,2.0,3.3,2.68,0.35810920392600587,-0.050868716537966006,0.9090776453288698,0.0009656678943093664,-0.201493,-25.86942
11.185,2.0,1.0,1.0,33.5,34.1,34.1,2.0,3.3,2.6825,0.34699717327559876,-0.052101893817120895,0.9127960025313819,0.00033012132327024055,-0.206321,-25.662755
11.185,2.0,1.0,1.0,33.5,34.1,34.1,2.0,3.3,2.685,0.3357139093575217,-0.053370290556999656,0.9164048619367529,-0.0003446105628828309,-0.211342,-25.453828
11.185,2.0,1.0,1.0,33.5,34.1,34.1,2.0,3.3,2.6875,0.324256436581302,-0.0546750904547428,0.9198990488076,-0.00106095012354048,-0.216567,-25.242575
11.185,2.0,1.0,1.0,33.5,34.1,34.1,2.0,3.3,2.69,0.3126217217242263,-0.05601751555313141,0.9232731145911782,-0.0018214930801621846,-0.222007,-25.028934
11.185,2.0,1.0,1.0,33.5,34.1,34.1,2.0,3.3,2.6925,0.30080667433410657,-0.05739882624010467,0.9265213184080051,-0.0026290229821610985,-0.227675,-24.812838
11.185,2.0,1.0,1.0,33.5,34.1,34.1,2.0,3.3,2.695,0.2888081474806341,-0.05882032095325296,0.9296376069618607,-0.0034865270580345673,-0.233583,-24.59422
11.185,2.0,1.0,1.0,33.5,34.1,34.1,2.0,3.3,2.6975,0.2766229389254978,-0.06028333552316626,0.932615592710255,-0.004397213600695362,-0.239748,-24.373009
11.185,2.0,1.0,1.0,33.5,34.1,34.1,2.0,3.3,2.7,0.2642477927945565,-0.0617892420767977,0.9354485301159133,-0.005364531053492171,-0.246184,-24.14913
11.185,2.0,1.0,1.0,33.5,34.1,34.1,2.0,3.3,2.7025,0.2516794018508356,-0.06333944740686244,0.9381292897789834,-0.00639218898314497,-0.252907,-23.922506
11.185,2.0,1.0,1.0,33.5,34.1,34.1,2.0,3.3,2.705,0.23891441048566864,-0.0649353906952076,0.940650330226241,-0.007484181148017116,-0.259938,-23.693059
11.185,2.0,1.0,1.0,33.5,34.1,34.1,2.0,3.3,2.7075,0.22594941856736392,-0.0665785404565033,0.9430036671072328,-0.008644810895124363,-0.267294,-23.460705
11.185,2.0,1.0,1.0,33.5,34.1,34.1,2.0,3.3,2.71,0.2127809863131673,-0.06827039054277495,0.945180839517645,-0.009878719147371356,-0.274998,-23.225358
11.185,2.0,1.0,1.0,33.5,34.1,34.1,2.0,3.3,2.7125,0.19940564038183808,-0.07001245501838788,0.9471728731369368,-0.011190915274091412,-0.283072,-22.986928
11.185,2.0,1.0,1.0,33.5,34.1,34.1,2.0,3.3,2.715,0.18581988142196265,-0.07180626167802316,0.9489702398298476,-0.012586811173443839,-0.291542,-22.745321
11.185,2.0,1.0,1.0,33.5,34.1,34.1,2.0,3.3,2.7175,0.17202019335644966,-0.0736533439356968,0.9505628133194404,-0.014072258935043401,-0.300436,-22.50044
11.185,2.0,1.0,1.0,33.5,34.1,34.1,2.0,3.3,2.72,0.15800305473815277,-0.07555523075938886,0.9519398204923145,-0.0156535924958118,-0.309783,-22.252183
11.185,2.0,1.0,1.0,33.5,34.1,34.1,2.0,3.3,2.7225,0.1437649525770296,-0.07751343426148276,0.9530897878440087,-0.01733767375194426,-0.319616,-22.000445
11.185,2.0,1.0,1.0,33.5,34.1,34.1,2.0,3.3,2.725,0.129302399118276,-0.07952943447760528,0.9540004825138886,-0.019131943645530544,-0.329971,-21.745114
11.185,2.0,1.0,1.0,33.5,34.1,34.1,2.0,3.3,2.7275,0.11461195214605399,-0.08160466077280051,0.9546588472935071,-0.021044478806243248,-0.340887,-21.486077
11.185,2.0,1.0,1.0,33.5,34.1,34.1,2.0,3.3,2.73,0.09969023950266785,-0.08374046920071133,0.9550509289200473,-0.023084054396951287,-0.352406,-21.223212
11.185,2.0,1.0,1.0,33.5,34.1,34.1,2.0,3.3,2.7325,0.08453398865234665,-0.0859381150043463,0.9551617988867093,-0.02526021388743206,-0.364577,-20.956395
11.185,2.0,1.0,1.0,33.5,34.1,34.1,2.0,3.3,2.735,0.0691400622878233,-0.0881987192807561,0.9549754659146826,-0.027583346562558026,-0.377451,-20.685495
11.185,2.0,1.0,1.0,33.5,34.1,34.1,2.0,3.3,2.7375,0.05350550118302382,-0.09052322863008355,0.9544747791367608,-0.03006477366017217,-0.391085,-20.410376
11.185,2.0,1.0,1.0,33.5,34.1,34.1,2.0,3.3,2.74,0.037627575744694816,-0.09291236636396993,0.9536413209415204,-0.03271684412853123,-0.405543,-20.130895
11.185,2.0,1.0,1.0,33.5,34.1,34.1,2.0,3.3,2.7425,0.021503848019547838,-0.09536657354939955,0.9524552883206029,-0.03555304109216828,-0.420895,-19.846905
11.185,2.0,1.0,1.0,33.5,34.1,34.1,2.0,3.3,2.745,0.005132246283968193,-0.09788593779960465,0.9508953614526017,-0.038588100215656715,-0.437219,-19.55825
11.185,2.0,1.0,1.0,33.5,34.1,34.1,2.0,3.3,2.7475,-0.011488845204412946,-0.10047010727875808,0.94893855814944,-0.04183814125282562,-0.454602,-19.264769
11.185,2.0,1.0,1.0,33.5,34.1,34.1,2.0,3.3,2.75,-0.0283604781612295,-0.103118186843494,0.94656007269126,-0.0453208141579782,-0.473139,-18.966295
11.185,2.0,1.0,1.0,33.5,34.1,34.1,2.0,3.3,2.7525,-0.04548301012760019,-0.10582861257930162,0.9437330974933591,-0.04905546120586016,-0.49294,-18.662653
11.185,2.0,1.0,1.0,33.5,34.1,34.1,2.0,3.3,2.755,-0.06285594758374777,-0.1085990001759207,0.9404286259977536,-0.05306329660420344,-0.514125,-18.353659
11.185,2.0,1.0,1.0,33.5,34.1,34.1,2.0,3.3,2.7575,-0.08047775667364528,-0.11142596158933171,0.9366152351830954,-0.057367605065908565,-0.53683,-18.039126
11.185,2.0,1.0,1.0,33.5,34.1,34.1,2.0,3.3,2.76,-0.09834563464811347,-0.11430488321776666,0.9322588461697164,-0.06199396070751061,-0.561206,-17.718857
11.185,2.0,1.0,1.0,33.5,34.1,34.1,2.0,3.3,2.7625,-0.11645523361304866,-0.11722965732598202,0.9273224616036907,-0.06697046741420429,-0.587427,-17.392649
11.185,2.0,1.0,1.0,33.5,34.1,34.1,2.0,3.3,2.765,-0.13480032630928127,-0.1201923566266912,0.9217658788952632,-0.07232802139935007,-0.615686,-17.060291
11.185,2.0,1.0,1.0,33.5,34.1,34.1,2.0,3.3,2.7675,-0.15337240137959646,-0.12318283970097363,0.9155453790473443,-0.07810059600373027,-0.646205,-16.721567
11.185,2.0,1.0,1.0,33.5,34.1,34.1,2.0,3.3,2.77,-0.1721601728137594,-0.12618827223024798,0.9086133918579925,-0.08432554770863566,-0.679235,-16.376254
11.185,2.0,1.0,1.0,33.5,34.1,34.1,2.0,3.3,2.7725,-0.19114898491069388,-0.12919254573091846,0.9009181398829607,-0.09104394071215248,-0.715061,-16.024126
11.185,2.0,1.0,1.0,33.5,34.1,34.1,2.0,3.3,2.775,-0.21032009005832752,-0.13217557153290643,0.8924032659318502,-0.09830088501061861,-0.754012,-15.664951
11.185,2.0,1.0,1.0,33.5,34.1,34.1,2.0,3.3,2.7775,-0.22964977180663734,-0.1351124230305052,0.8830074523642154,-0.10614587942000217,-0.796464,-15.298496
11.185,2.0,1.0,1.0,33.5,34.1,34.1,2.0,3.3,2.78,-0.24910828001490334,-0.13797229368095332,0.8726640454917232,-0.11463314592858977,-0.84285,-14.924529
11.185,2.0,1.0,1.0,33.5,34.1,34.1,2.0,3.3,2.7825,-0.26865853824990515,-0.14071723179971576,0.8613007055834138,-0.12382193459605204,-0.893669,-14.542822
11.185,2.0,1.0,1.0,33.5,34.1,34.1,2.0,3.3,2.785,-0.2882545761481755,-0.14330060595992028,0.8488391131342233,-0.13377676809529868,-0.949501,-14.153151
11.185,2.0,1.0,1.0,33.5,34.1,34.1,2.0,3.3,2.7875,-0.3078396313507235,-0.14566524697407335,0.8351947762958124,-0.14456758084593602,-1.011018,-13.755307
11.185,2.0,1.0,1.0,33.5,34.1,34.1,2.0,3.3,2.79,-0.3273438573880087,-0.1477412045421408,0.820277004145184,-0.15626968807470976,-1.079007,-13.349101
11.185,2.0,1.0,1.0,33.5,34.1,34.1,2.0,3.3,2.7925,-0.3466815665484596,-0.14944304971004127,0.8039891376794559,-0.16896349319621365,-1.154388,-12.934368
11.185,2.0,1.0,1.0,33.5,34.1,34.1,2.0,3.3,2.795,-0.36574793213048823,-0.15066665012141212,0.7862291674687311,-0.18273380529287872,-1.238238,-12.510984
11.185,2.0,1.0,1.0,33.5,34.1,34.1,2.0,3.3,2.7975,-0.384415075667032,-0.1512853467627189,0.7668909166622018,-0.19766858936903245,-1.331832,-12.078877
11.185,2.0,1.0,1.0,33.5,34.1,34.1,2.0,3.3,2.8,-0.40252747682075285,-0.15114547355901004,0.7458660337582325,-0.2138569073222595,-1.436672,-11.638042
11.185,2.0,1.0,1.0,33.5,34.1,34.1,2.0,3.3,2.8025,-0.4198966747435649,-0.15006119276472704,0.7230471243466658,-0.2313857242118119,-1.554543,-11.188567
11.185,2.0,1.0,1.0,33.5,34.1,34.1,2.0,3.3,2.805,-0.43629529211989637,-0.14780868180779277,0.6983324569170751,-0.2503351505552229,-1.687563,-10.730657
11.185,2.0,1.0,1.0,33.5,34.1,34.1,2.0,3.3,2.8075,-0.45145052505643324,-0.14411981901495363,0.6716328036597916,-0.2707715683601251,-1.838262,-10.264669
11.185,2.0,1.0,1.0,33.5,34.1,34.1,2.0,3.3,2.81,-0.4650374289972567,-0.1386757015988586,0.6428811149890576,-0.29273795452830303,-2.009657,-9.79115
11.185,2.0,1.0,1.0,33.5,34.1,34.1,2.0,3.3,2.8125,-0.476672626508388,-0.131100622327677,0.612045855216528,-0.316240591279768,-2.205356,-9.310891
11.185,2.0,1.0,1.0,33.5,34.1,34.1,2.0,3.3,2.815,-0.4859095066554463,-0.12095757000620783,0.5791489024459497,-0.3412312830907181,-2.429674,-8.824983
11.185,2.0,1.0,1.0,33.5,34.1,34.1,2.0,3.3,2.8175,-0.49223661515623024,-0.10774693930976527,0.5442888577531285,-0.36758426319202325,-2.687762,-8.334882
11.185,2.0,1.0,1.0,33.5,34.1,34.1,2.0,3.3,2.82,-0.49508176451833424,-0.09091095106241233,0.5076702836460285,-0.39506730167531684,-2.985744,-7.842489
11.185,2.0,1.0,1.0,33.5,34.1,34.1,2.0,3.3,2.8225,-0.49382537632381135,-0.06984724573453038,0.4696386014157363,-0.42330731675880506,-3.330854,-7.350224
11.185,2.0,1.0,1.0,33.5,34.1,34.1,2.0,3.3,2.825,-0.4878275253253745,-0.04393604224049634,0.43071886684160576,-0.4517522899308188,-3.731523,-6.861106
11.185,2.0,1.0,1.0,33.5,34.1,34.1,2.0,3.3,2.8275,-0.47647368365186765,-0.01258575062159007,0.391654164384484,-0.47963373643146584,-4.197365,-6.378816
11.185,2.0,1.0,1.0,33.5,34.1,34.1,2.0,3.3,2.83,-0.4592435447317577,0.024698718558458597,0.3534358279928243,-0.5059374599275769,-4.738915,-5.907726
