1,w,sub_t,h,l1,l2,l3,g1,g2,Freq,S11_re,S21_re,S11_img,S21_img,S11_dB,S21_dB
11.185,2.0,1.0,1.0,33.3,33.5,33.5,2.4,2.0,2.5,0.869066814965094,-0.00972891313034865,0.481060358740564,0.0103551170804849,-0.058165,-36.949063
11.185,2.0,1.0,1.0,33.3,33.5,33.5,2.4,2.0,2.5025,0.8658592277504104,-0.00994171845483213,0.48667521965249183,0.010427789175323695,-0.058743,-36.828217
11.185,2.0,1.0,1.0,33.3,33.5,33.5,2.4,2.0,2.505,0.8626009940123082,-0.010158749162873555,0.4922914780080499,0.010500151166941248,-0.059331,-36.70697
11.185,2.0,1.0,1.0,33.3,33.5,33.5,2.4,2.0,2.5075,0.8592915900097698,-0.010380100255726906,0.4979089348453427,0.01057217044132662,-0.05993,-36.585313
11.185,2.0,1.0,1.0,33.3,33.5,33.5,2.4,2.0,2.51,0.8559304827090752,-0.010605869410089733,0.5035273847002906,0.010643812890741452,-0.06054,-36.463237
11.185,2.0,1.0,1.0,33.3,33.5,33.5,2.4,2.0,2.5125,0.8525171295922678,-0.010836157068787707,0.5091466153760923,0.010715042843203623,-0.061162,-36.340734
11.185,2.0,1.0,1.0,33.3,33.5,33.5,2.4,2.0,2.515,0.849050978460895,-0.01107106653502906,0.514766407704136,0.010785822988349314,-0.061795,-36.217793
11.185,2.0,1.0,1.0,33.3,33.5,33.5,2.4,2.0,2.5175,0.8455314672348846,-0.011310704070388406,0.5203865352959779,0.01085611429946735,-0.06244,-36.094407
11.185,2.0,1.0,1.0,33.3,33.5,33.5,2.4,2.0,2.52,0.8419580237463913,-0.011555178996690528,0.5260067642860304,0.01092587595148814,-0.063097,-35.970564
11.185,2.0,1.0,1.0,33.3,33.5,33.5,2.4,2.0,2.5225,0.8383300655284687,-0.01180460380197055,0.5316268530645308,0.010995065234693681,-0.063767,-35.846257
11.185,2.0,1.0,1.0,33.3,33.5,33.5,2.4,2.0,2.525,0.8346469995983827,-0.012059094250698957,0.537246552000388,0.011063637463902548,-0.06445,-35.721475
11.185,2.0,1.0,1.0,33.3,33.5,33.5,2.4,2.0,2.5275,0.8309082222354066,-0.012318769498466307,0.5428656031534645,0.011131545882865442,-0.065146,-35.596209
11.185,2.0,1.0,1.0,33.3,33.5,33.5,2.4,2.0,2.53,0.8271131187529046,-0.012583752211335671,0.5484837399758121,0.011198741563592093,-0.065856,-35.470448
11.185,2.0,1.0,1.0,33.3,33.5,33.5,2.4,2.0,2.5325,0.8232610632645252,-0.012854168690079817,0.5541006870013855,0.011265173300310025,-0.06658,-35.344182
11.185,2.0,1.0,1.0,33.3,33.5,33.5,2.4,2.0,2.535,0.819351418444294,-0.01313014899953197,0.559716159523713,0.011330787497737681,-0.067318,-35.217401
11.185,2.0,1.0,1.0,33.3,33.5,33.5,2.4,2.0,2.5375,0.8153835352804124,-0.01341182710329112,0.5653298632609728,0.011395528053332424,-0.068071,-35.090095
11.185,2.0,1.0,1.0,33.3,33.5,33.5,2.4,2.0,2.54,0.8113567528225338,-0.013699341004035926,0.5709414940079095,0.01145933623315127,-0.06884,-34.962252
11.185,2.0,1.0,1.0,33.3,33.5,33.5,2.4,2.0,2.5425,0.8072703979223006,-0.013992832889713702,0.5765507372739873,0.01152215054093903,-0.069624,-34.833862
11.185,2.0,1.0,1.0,33.3,33.5,33.5,2.4,2.0,2.545,0.8031237849668958,-0.014292449285886912,0.5821572679071333,0.011583906580031032,-0.070425,-34.704914
11.185,2.0,1.0,1.0,33.3,33.5,33.5,2.4,2.0,2.5475,0.798916215605375,-0.014598341214532379,0.587760749702399,0.011644536907630319,-0.071242,-34.575396
11.185,2.0,1.0,1.0,33.3,33.5,33.5,2.4,2.0,2.55,0.7946469784675013,-0.014910664359607303,0.5933608349948413,0.011703970880989423,-0.072076,-34.445297
11.185,2.0,1.0,1.0,33.3,33.5,33.5,2.4,2.0,2.5525,0.7903153488748312,-0.015229579239709912,0.598957164235846,0.011762134494993564,-0.072927,-34.314605
11.185,2.0,1.0,1.0,33.3,33.5,33.5,2.4,2.0,2.555,0.7859205885437528,-0.015555251388183297,0.6045493655521236,0.011818950210607615,-0.073797,-34.183308
11.185,2.0,1.0,1.0,33.3,33.5,33.5,2.4,2.0,2.5575,0.7814619452801779,-0.01588785154102831,0.6101370542865218,0.01187433677361137,-0.074686,-34.051395
11.185,2.0,1.0,1.0,33.3,33.5,33.5,2.4,2.0,2.56,0.7769386526655846,-0.016227555833012174,0.6157198325197676,0.011928209023007908,-0.075593,-33.918852
11.185,2.0,1.0,1.0,33.3,33.5,33.5,2.4,2.0,2.5625,0.7723499297340713,-0.016574546002379887,0.6212972885721934,0.011980477688443835,-0.076521,-33.785667
11.185,2.0,1.0,1.0,33.3,33.5,33.5,2.4,2.0,2.565,0.7676949806400769,-0.016929009604599723,0.6268689964844543,0.012031049175936621,-0.077469,-33.651828
11.185,2.0,1.0,1.0,33.3,33.5,33.5,2.4,2.0,2.5675,0.7629729943164154,-0.01729114023559625,0.6324345154761627,0.012079825341149144,-0.078438,-33.51732
11.185,2.0,1.0,1.0,33.3,33.5,33.5,2.4,2.0,2.57,0.7581831441222261,-0.017661137764950697,0.6379933893813251,0.012126703249399852,-0.079428,-33.382131
11.185,2.0,1.0,1.0,33.3,33.5,33.5,2.4,2.0,2.5725,0.7533245874804504,-0.018039208579575212,0.6435451460593831,0.012171574921535281,-0.080441,-33.246247
11.185,2.0,1.0,1.0,33.3,33.5,33.5,2.4,2.0,2.575,0.7483964655044059,-0.018425565838395806,0.6490892967805856,0.012214327064728747,-0.081477,-33.109654
11.185,2.0,1.0,1.0,33.3,33.5,33.5,2.4,2.0,2.5775,0.7433979026130162,-0.018820429738608868,0.6546253355843418,0.012254840787197853,-0.082536,-32.972338
11.185,2.0,1.0,1.0,33.3,33.5,33.5,2.4,2.0,2.58,0.7383280061342289,-0.01922402779410812,0.660152738609113,0.012292991295759581,-0.08362,-32.834284
11.185,2.0,1.0,1.0,33.3,33.5,33.5,2.4,2.0,2.5825,0.7331858658961224,-0.019636595126713775,0.6656709633923193,0.012328647575058515,-0.08473,-32.695477
11.185,2.0,1.0,1.0,33.3,33.5,33.5,2.4,2.0,2.585,0.7279705538051882,-0.020058374770869653,0.671179448138619,0.012361672047216084,-0.085865,-32.555902
11.185,2.0,1.0,1.0,33.3,33.5,33.5,2.4,2.0,2.5875,0.7226811234112338,-0.020489617992513698,0.6766776109548291,0.012391920210552135,-0.087028,-32.415543
11.185,2.0,1.0,1.0,33.3,33.5,33.5,2.4,2.0,2.59,0.7173166094583351,-0.02093058462286717,0.6821648490496176,0.012419240255925617,-0.088218,-32.274385
11.185,2.0,1.0,1.0,33.3,33.5,33.5,2.4,2.0,2.5925,0.7118760274212168,-0.021381543407930435,0.6876405378959934,0.012443472659127987,-0.089437,-32.132412
11.185,2.0,1.0,1.0,33.3,33.5,33.5,2.4,2.0,2.595,0.7063583730264348,-0.021842772374517892,0.6931040303544576,0.012464449747639009,-0.090686,-31.989606
11.185,2.0,1.0,1.0,33.3,33.5,33.5,2.4,2.0,2.5975,0.7007626217576582,-0.02231455921371442,0.6985546557545563,0.012481995239921525,-0.091965,-31.845951
11.185,2.0,1.0,1.0,33.3,33.5,33.5,2.4,2.0,2.6,0.6950877283443505,-0.02279720168268382,0.7039917189324035,0.012495923755284672,-0.093277,-31.701429
11.185,2.0,1.0,1.0,33.3,33.5,33.5,2.4,2.0,2.6025,0.6893326262330874,-0.023291008025816018,0.7094144992215543,0.012506040292185905,-0.094621,-31.556023
11.185,2.0,1.0,1.0,33.3,33.5,33.5,2.4,2.0,2.605,0.6834962270407043,-0.02379629741625408,0.7148222493944512,0.012512139672669911,-0.095999,-31.409714
11.185,2.0,1.0,1.0,33.3,33.5,33.5,2.4,2.0,2.6075,0.6775774199884346,-0.024313400418904934,0.7202141945514302,0.012514005950451821,-0.097412,-31.262483
11.185,2.0,1.0,1.0,33.3,33.5,33.5,2.4,2.0,2.61,0.6715750713161467,-0.024842659476097106,0.725589530954066,0.01251141177994647,-0.098862,-31.114312
11.185,2.0,1.0,1.0,33.3,33.5,33.5,2.4,2.0,2.6125,0.6654880236757301,-0.025384429417120227,0.7309474247993907,0.012504117743319103,-0.10035,-30.965181
11.185,2.0,1.0,1.0,33.3,33.5,33.5,2.4,2.0,2.615,0.6593150955026341,-0.025939077992948808,0.7362870109312605,0.012491871632387177,-0.101877,-30.81507
11.185,2.0,1.0,1.0,33.3,33.5,33.5,2.4,2.0,2.6175,0.6530550803645118,-0.026506986437527035,0.7416073914848342,0.01247440768193105,-0.103444,-30.663957
11.185,2.0,1.0,1.0,33.3,33.5,33.5,2.4,2.0,2.62,0.6467067462858549,-0.027088550057070303,0.7469076344598459,0.012451445750678124,-0.105054,-30.511823
11.185,2.0,1.0,1.0,33.3,33.5,33.5,2.4,2.0,2.6225,0.6402688350474374,-0.0276841788489225,0.7521867722179905,0.012422690445898221,-0.106707,-30.358644
11.185,2.0,1.0,1.0,33.3,33.5,33.5,2.4,2.0,2.625,0.633740061459349,-0.0282942981515912,0.757443799899352,0.012387830187195,-0.108406,-30.2044
11.185,2.0,1.0,1.0,33.3,33.5,33.5,2.4,2.0,2.6275,0.627119112606288,-0.02891934932767609,0.7626776737524353,0.01234653620468597,-0.110152,-30.049066
11.185,2.0,1.0,1.0,33.3,33.5,33.5,2.4,2.0,2.63,0.6204046470637528,-0.029559790481499402,0.7678873093718709,0.012298461466336756,-0.111946,-29.89262
11.185,2.0,1.0,1.0,33.3,33.5,33.5,2.4,2.0,2.6325,0.6135952940836743,-0.030216097213343403,0.7730715798373827,0.012243239528741874,-0.113791,-29.735037
11.185,2.0,1.0,1.0,33.3,33.5,33.5,2.4,2.0,2.635,0.6066896527479616,-0.03088876341230562,0.7782293137470734,0.01218048330512789,-0.115689,-29.576293
11.185,2.0,1.0,1.0,33.3,33.5,33.5,2.4,2.0,2.6375,0.5996862910883652,-0.03157830208988424,0.7833592931374792,0.012109783743781513,-0.117642,-29.416362
11.185,2.0,1.0,1.0,33.3,33.5,33.5,2.4,2.0,2.64,0.5925837451709511,-0.032285246256518074,0.788460251282195,0.012030708409475616,-0.119652,-29.255218
11.185,2.0,1.0,1.0,33.3,33.5,33.5,2.4,2.0,2.6425,0.5853805181434399,-0.03301014984341543,0.7935308703601456,0.011942799959772172,-0.121722,-29.092834
11.185,2.0,1.0,1.0,33.3,33.5,33.5,2.4,2.0,2.645,0.5780750792435498,-0.03375358867211902,0.7985697789837847,0.011845574507311732,-0.123853,-28.929182
11.185,2.0,1.0,1.0,33.3,33.5,33.5,2.4,2.0,2.6475,0.5706658627664143,-0.0345161614743713,0.8035755495766359,0.011738519858351377,-0.126049,-28.764233
11.185,2.0,1.0,1.0,33.3,33.5,33.5,2.4,2.0,2.65,0.5631512669890539,-0.03529849096495863,0.808546695588614,0.011621093616874002,-0.128313,-28.597959
11.185,2.0,1.0,1.0,33.3,33.5,33.5,2.4,2.0,2.6525,0.555529653049834,-0.03610122497032334,0.8134816685364884,0.011492721142550174,-0.130646,-28.430328
11.185,2.0,1.0,1.0,33.3,33.5,33.5,2.4,2.0,2.655,0.5477993437807176,-0.03692503761584927,0.8183788548556807,0.011352793349683022,-0.133052,-28.26131
11.185,2.0,1.0,1.0,33.3,33.5,33.5,2.4,2.0,2.6575,0.5399586224901045,-0.037770630574826686,0.8232365725482738,0.011200664332983792,-0.135535,-28.090872
11.185,2.0,1.0,1.0,33.3,33.5,33.5,2.4,2.0,2.66,0.5320057316939603,-0.03863873438220142,0.8280530676106433,0.011035648804606276,-0.138098,-27.918981
11.185,2.0,1.0,1.0,33.3,33.5,33.5,2.4,2.0,2.6625,0.5239388717929208,-0.03953010981629853,0.8328265102225092,0.01085701932528636,-0.140744,-27.745603
11.185,2.0,1.0,1.0,33.3,33.5,33.5,2.4,2.0,2.665,0.5157561996930011,-0.0404455493517824,0.8375549906774289,0.010664003310672574,-0.143478,-27.570703
11.185,2.0,1.0,1.0,33.3,33.5,33.5,2.4,2.0,2.6675,0.507455827367577,-0.04138587868715853,0.8422365150327195,0.010455779791972899,-0.146302,-27.394244
11.185,2.0,1.0,1.0,33.3,33.5,33.5,2.4,2.0,2.67,0.4990358203582994,-0.04235195835015081,0.846869000454592,0.01023147590785546,-0.149222,-27.216188
11.185,2.0,1.0,1.0,33.3,33.5,33.5,2.4,2.0,2.6725,0.49049419621268203,-0.04334468538426757,0.851450270231798,0.00999016310209633,-0.152243,-27.036497
11.185,2.0,1.0,1.0,33.3,33.5,33.5,2.4,2.0,2.675,0.48182892285622647,-0.04436499511981312,0.8559780484282877,0.009730852998739584,-0.155368,-26.855129
11.185,2.0,1.0,1.0,33.3,33.5,33.5,2.4,2.0,2.6775,0.4730379168971003,-0.04541386303248378,0.8604499541423011,0.009452492923473131,-0.158604,-26.672044
11.185,2.0,1.0,1.0,33.3,33.5,33.5,2.4,2.0,2.68,0.46411904186164105,-0.046492306692502296,0.8648634953358318,0.009153961036504767,-0.161955,-26.487199
11.185,2.0,1.0,1.0,33.3,33.5,33.5,2.4,2.0,2.6825,0.4550701063593046,-0.047601387806962374,0.8692160621944891,0.008834061038376894,-0.165427,-26.300549
11.185,2.0,1.0,1.0,33.3,33.5,33.5,2.4,2.0,2.685,0.44588886217609913,-0.04874221435767568,0.8735049199734474,0.008491516405847834,-0.169027,-26.112047
11.185,2.0,1.0,1.0,33.3,33.5,33.5,2.4,2.0,2.6875,0.4365730022961688,-0.04991594283628298,0.8777272012802283,0.008124964110115868,-0.172761,-25.921646
11.185,2.0,1.0,1.0,33.3,33.5,33.5,2.4,2.0,2.69,0.427120158851929,-0.05112378057770487,0.8818798977395584,0.007732947764205486,-0.176637,-25.729297
11.185,2.0,1.0,1.0,33.3,33.5,33.5,2.4,2.0,2.6925,0.4175279010041178,-0.05236698819210813,0.8859598509793151,0.007313910140182304,-0.180662,-25.534947
11.185,2.0,1.0,1.0,33.3,33.5,33.5,2.4,2.0,2.695,0.40779373275439207,-0.05364688209440859,0.8899637428695508,0.006866184989926082,-0.184844,-25.338545
11.185,2.0,1.0,1.0,33.3,33.5,33.5,2.4,2.0,2.6975,0.39791509069457254,-0.05496483712887627,0.8938880849386907,0.006387988095351257,-0.189191,-25.140034
11.185,2.0,1.0,1.0,33.3,33.5,33.5,2.4,2.0,2.7,0.3878893416986393,-0.05632228928455318,0.8977292068819944,0.005877407465100187,-0.193714,-24.939357
11.185,2.0,1.0,1.0,33.3,33.5,33.5,2.4,2.0,2.7025,0.3777137805659026,-0.05772073849489314,0.9014832440673066,0.005332392584700854,-0.198422,-24.736455
11.185,2.0,1.0,1.0,33.3,33.5,33.5,2.4,2.0,2.705,0.36738562762680776,-0.0591617515121432,0.9051461239315445,0.0047507426158010695,-0.203325,-24.531265
11.185,2.0,1.0,1.0,33.3,33.5,33.5,2.4,2.0,2.7075,0.3569020263264408,-0.06064696484340781,0.9087135511484447,0.0041300934271846,-0.208436,-24.323724
11.185,2.0,1.0,1.0,33.3,33.5,33.5,2.4,2.0,2.71,0.34626004080538403,-0.062178087730897155,0.912180991433194,0.0034679033256019335,-0.213767,-24.113764
11.185,2.0,1.0,1.0,33.3,33.5,33.5,2.4,2.0,2.7125,0.3354566535031229,-0.06375690515337787,0.9155436538327753,0.002761437337765134,-0.21933,-23.901316
11.185,2.0,1.0,1.0,33.3,33.5,33.5,2.4,2.0,2.715,0.324488762816073,-0.06538528081907372,0.9187964713317028,0.002007749875850539,-0.225142,-23.686307
11.185,2.0,1.0,1.0,33.3,33.5,33.5,2.4,2.0,2.7175,0.313353180850759,-0.0670651601119256,0.9219340795809224,0.0012036655971907621,-0.231217,-23.468662
11.185,2.0,1.0,1.0,33.3,33.5,33.5,2.4,2.0,2.72,0.30204663132304577,-0.0687985729428479,0.9249507935327476,0.0003457582441095253,-0.237573,-23.248302
11.185,2.0,1.0,1.0,33.3,33.5,33.5,2.4,2.0,2.7225,0.29056574766706655,-0.07058763644498611,0.927840581736179,-0.0005696727783968907,-0.244227,-23.025144
11.185,2.0,1.0,1.0,33.3,33.5,33.5,2.4,2.0,2.725,0.27890707143317567,-0.07243455743642724,0.9305970380144198,-0.001546628361732597,-0.2512,-22.799104
11.185,2.0,1.0,1.0,33.3,33.5,33.5,2.4,2.0,2.7275,0.2670670510735032,-0.07434163455470102,0.9332133502090108,-0.0025894385011138096,-0.258514,-22.570092
11.185,2.0,1.0,1.0,33.3,33.5,33.5,2.4,2.0,2.73,0.25504204123735397,-0.0763112599438603,0.9356822656324062,-0.0037027943052642394,-0.266192,-22.338014
11.185,2.0,1.0,1.0,33.3,33.5,33.5,2.4,2.0,2.7325,0.24282830272784106,-0.07834592034596788,0.9379960528216759,-0.0048917836109116245,-0.274259,-22.102774
11.185,2.0,1.0,1.0,33.3,33.5,33.5,2.4,2.0,2.735,0.23042200330700102,-0.08044819741311363,0.9401464591299368,-0.006161930660311932,-0.282745,-21.864269
11.185,2.0,1.0,1.0,33.3,33.5,33.5,2.4,2.0,2.7375,0.2178192195808025,-0.08262076701208403,0.9421246636275623,-0.007519240363970853,-0.291679,-21.622393
11.185,2.0,1.0,1.0,33.3,33.5,33.5,2.4,2.0,2.74,0.205015940250059,-0.08486639723948278,0.943921224711138,-0.008970247744125569,-0.301096,-21.377034
11.185,2.0,1.0,1.0,33.3,33.5,33.5,2.4,2.0,2.7425,0.19200807108053722,-0.08718794479800646,0.9455260217331521,-0.010522073238807444,-0.311032,-21.128075
11.185,2.0,1.0,1.0,33.3,33.5,33.5,2.4,2.0,2.745,0.17879144202890082,-0.08958834930154845,0.9469281898677935,-0.0121824846429975,-0.321529,-20.875396
11.185,2.0,1.0,1.0,33.3,33.5,33.5,2.4,2.0,2.7475,0.16536181706431932,-0.09207062497397313,0.9481160473162596,-0.013959966574283923,-0.332631,-20.618867
11.185,2.0,1.0,1.0,33.3,33.5,33.5,2.4,2.0,2.75,0.151714907353565,-0.0946378490788092,0.94907701382669,-0.0158637984774831,-0.344387,-20.358355
11.185,2.0,1.0,1.0,33.3,33.5,33.5,2.4,2.0,2.7525,0.13784638863646892,-0.09729314625858237,0.949797519357066,-0.017904142327994546,-0.356852,-20.09372
11.185,2.0,1.0,1.0,33.3,33.5,33.5,2.4,2.0,2.755,0.12375192381661211,-0.10003966776519112,0.9502629015418266,-0.02009214135946724,-0.370087,-19.824813
11.185,2.0,1.0,1.0,33.3,33.5,33.5,2.4,2.0,2.7575,0.10942719203883328,-0.10288056431675148,0.950457290432384,-0.022440031329921135,-0.38416,-19.551481
11.185,2.0,1.0,1.0,33.3,33.5,33.5,2.4,2.0,2.76,0.0948679258335395,-0.10581895100909883,0.9503634787657264,-0.02496126605392344,-0.399144,-19.273562
11.185,2.0,1.0,1.0,33.3,33.5,33.5,2.4,2.0,2.7625,0.08006995829339643,-0.10885786232577749,0.9499627757722791,-0.027670659168586173,-0.415123,-18.990887
11.185,2.0,1.0,1.0,33.3,33.5,33.5,2.4,2.0,2.765,0.06502928273152897,-0.11200019480856911,0.9492348422627976,-0.03058454436906039,-0.432192,-18.703276
11.185,2.0,1.0,1.0,33.3,33.5,33.5,2.4,2.0,2.7675,0.04974212787759795,-0.11524863434570264,0.9481575044344724,-0.03372095664460272,-0.450454,-18.410543
11.185,2.0,1.0,1.0,33.3,33.5,33.5,2.4,2.0,2.77,0.034205052431802524,-0.11860556427404358,0.9467065435111943,-0.03709983736669001,-0.470027,-18.112493
11.185,2.0,1.0,1.0,33.3,33.5,33.5,2.4,2.0,2.7725,0.018415063759464907,-0.12207294953300332,0.944855457987613,-0.04074326641998434,-0.491043,-17.80892
11.185,2.0,1.0,1.0,33.3,33.5,33.5,2.4,2.0,2.775,0.002369766723364774,-0.12565219089843893,0.9425751948931468,-0.04467572491354774,-0.513652,-17.499609
11.185,2.0,1.0,1.0,33.3,33.5,33.5,2.4,2.0,2.7775,-0.013932449813981037,-0.12934394179670755,0.9398338461501435,-0.048924392343281664,-0.538024,-17.184337
11.185,2.0,1.0,1.0,33.3,33.5,33.5,2.4,2.0,2.78,-0.030492179344118218,-0.13314787826627866,0.9365963058034286,-0.05351948236377048,-0.56435,-16.862869
11.185,2.0,1.0,1.0,33.3,33.5,33.5,2.4,2.0,2.7825,-0.04730870499001477,-0.13706241018792548,0.9328238836991063,-0.05849462151551662,-0.592851,-16.534959
11.185,2.0,1.0,1.0,33.3,33.5,33.5,2.4,2.0,2.785,-0.0643796326611058,-0.1410843188072436,0.9284738711708485,-0.06388727525971068,-0.623776,-16.200355
11.185,2.0,1.0,1.0,33.3,33.5,33.5,2.4,2.0,2.7875,-0.08170043109842873,-0.14520830165320198,0.9234990545776832,-0.06973922537133997,-0.657413,-15.858792
11.185,2.0,1.0,1.0,33.3,33.5,33.5,2.4,2.0,2.79,-0.09926385483794858,-0.14942640100098323,0.9178471733182663,-0.07609710194284981,-0.694092,-15.509998
11.185,2.0,1.0,1.0,33.3,33.5,33.5,2.4,2.0,2.7925,-0.11705921983115784,-0.1537272857772488,0.9114603205069315,-0.0830129716706722,-0.734195,-15.153695
11.185,2.0,1.0,1.0,33.3,33.5,33.5,2.4,2.0,2.795,-0.135071493556932,-0.15809534895280408,0.9042742872587932,-0.09054498131431028,-0.778164,-14.789596
11.185,2.0,1.0,1.0,33.3,33.5,33.5,2.4,2.0,2.7975,-0.15328015157880084,-0.16250957265785287,0.8962178561174171,-0.09875805061075556,-0.826514,-14.417414
11.185,2.0,1.0,1.0,33.3,33.5,33.5,2.4,2.0,2.8,-0.17165774026163214,-0.16694210110837995,0.8872120564822403,-0.10772460158574731,-0.879844,-14.036861
11.185,2.0,1.0,1.0,33.3,33.5,33.5,2.4,2.0,2.8025,-0.19016807039081574,-0.17135644658671112,0.8771694062823396,-0.11752529980375344,-0.938859,-13.647654
11.185,2.0,1.0,1.0,33.3,33.5,33.5,2.4,2.0,2.805,-0.20876394847656501,-0.1757052359259727,0.8659931815160509,-0.12824976573109878,-1.004385,-13.249522
11.185,2.0,1.0,1.0,33.3,33.5,33.5,2.4,2.0,2.8075,-0.22738433160823168,-0.17992738425188765,0.8535767813715301,-0.1399971883254413,-1.077401,-12.842216
11.185,2.0,1.0,1.0,33.3,33.5,33.5,2.4,2.0,2.81,-0.2459507685015843,-0.1839445598043912,0.8398032953206533,-0.15287673437228153,-1.159066,-12.425516
11.185,2.0,1.0,1.0,33.3,33.5,33.5,2.4,2.0,2.8125,-0.26436296570889234,-0.18765678036543407,0.8245454351706611,-0.16700759066692328,-1.25076,-11.999252
11.185,2.0,1.0,1.0,33.3,33.5,33.5,2.4,2.0,2.815,-0.28249329787312943,-0.19093696220900908,0.807666076729286,-0.18251839477729948,-1.354136,-11.56332
11.185,2.0,1.0,1.0,33.3,33.5,33.5,2.4,2.0,2.8175,-0.3001800722399329,-0.1936242344090332,0.7890197717076145,-0.1995456946840033,-1.471174,-11.117709
11.185,2.0,1.0,1.0,33.3,33.5,33.5,2.4,2.0,2.82,-0.3172193745993431,-0.19551584898184646,0.7684557517790263,-0.21823091717357454,-1.604262,-10.662537
11.185,2.0,1.0,1.0,33.3,33.5,33.5,2.4,2.0,2.8225,-0.3333553908705686,-0.19635758510062065,0.7458231647934386,-0.23871510817628808,-1.756281,-10.198093
11.185,2.0,1.0,1.0,33.3,33.5,33.5,2.4,2.0,2.825,-0.3482692558518774,-0.19583270353201065,0.7209795661044567,-0.26113042744423887,-1.930722,-9.724892
11.185,2.0,1.0,1.0,33.3,33.5,33.5,2.4,2.0,2.8275,-0.3615667909743136,-0.19354981793036724,0.6938040320098897,-0.2855870391604586,-2.131815,-9.243746
11.185,2.0,1.0,1.0,33.3,33.5,33.5,2.4,2.0,2.83,-0.3727660479736048,-0.1890306038177344,0.6642166348692866,-0.31215367214829104,-2.364685,-8.755855
