1,w,sub_t,h,l1,l2,l3,g1,g2,Freq,S11_re,S21_re,S11_img,S21_img,S11_dB,S21_dB
11.185,2.0,1.0,1.0,34.6,34.0,34.0,2.9,2.9,2.5,0.680914960500186,-0.0141926083624189,0.720730433177307,0.0062005270381333,-0.074034,-36.20012
11.185,2.0,1.0,1.0,34.6,34.0,34.0,2.9,2.9,2.5025,0.6748581117171694,-0.014445706618686978,0.7262751657786145,0.006157721756779984,-0.074866,-36.08014
11.185,2.0,1.0,1.0,34.6,34.0,34.0,2.9,2.9,2.505,0.6687217955305641,-0.01470288836232579,0.7317980058164865,0.006111745553567373,-0.075715,-35.959735
11.185,2.0,1.0,1.0,34.6,34.0,34.0,2.9,2.9,2.5075,0.6625052403570383,-0.014964220150761735,0.7372980985060916,0.006062488000317494,-0.076579,-35.838895
11.185,2.0,1.0,1.0,34.6,34.0,34.0,2.9,2.9,2.51,0.656207667689364,-0.015229769536721892,0.7427745651490061,0.006009834822407302,-0.077459,-35.717615
11.185,2.0,1.0,1.0,34.6,34.0,34.0,2.9,2.9,2.5125,0.6498282922090602,-0.015499605070399101,0.7482265024559083,0.005953667752943642,-0.078356,-35.595886
11.185,2.0,1.0,1.0,34.6,34.0,34.0,2.9,2.9,2.515,0.643366321910967,-0.015773796300531114,0.7536529818504704,0.005893864380819421,-0.07927,-35.473699
11.185,2.0,1.0,1.0,34.6,34.0,34.0,2.9,2.9,2.5175,0.6368209582404165,-0.01605241377429591,0.7590530487539204,0.005830297992362216,-0.080201,-35.351047
11.185,2.0,1.0,1.0,34.6,34.0,34.0,2.9,2.9,2.52,0.6301913962436552,-0.016335529035923696,0.7644257218497794,0.005762837406270726,-0.081151,-35.227922
11.185,2.0,1.0,1.0,34.6,34.0,34.0,2.9,2.9,2.5225,0.6234768247322576,-0.016623214623912242,0.7697699923282213,0.005691346801517954,-0.082118,-35.104314
11.185,2.0,1.0,1.0,34.6,34.0,34.0,2.9,2.9,2.525,0.6166764264622443,-0.016915544066731715,0.7750848231095255,0.005615685537882766,-0.083105,-34.980217
11.185,2.0,1.0,1.0,34.6,34.0,34.0,2.9,2.9,2.5275,0.6097893783286983,-0.017212591876889186,0.7803691480460624,0.005535707968751826,-0.084111,-34.85562
11.185,2.0,1.0,1.0,34.6,34.0,34.0,2.9,2.9,2.53,0.6028148515766901,-0.017514433543219184,0.7856218711022329,0.0054512632458150745,-0.085137,-34.730515
11.185,2.0,1.0,1.0,34.6,34.0,34.0,2.9,2.9,2.5325,0.5957520120293665,-0.01782114552125423,0.7908418655117802,0.0053621951152560444,-0.086183,-34.604894
11.185,2.0,1.0,1.0,34.6,34.0,34.0,2.9,2.9,2.535,0.5886000203340814,-0.018132805221519013,0.7960279729118719,0.005268341705015754,-0.08725,-34.478746
11.185,2.0,1.0,1.0,34.6,34.0,34.0,2.9,2.9,2.5375,0.581358032227524,-0.018449490995580315,0.801179002453329,0.005169535302685047,-0.088338,-34.352064
11.185,2.0,1.0,1.0,34.6,34.0,34.0,2.9,2.9,2.54,0.5740251988207987,-0.018771282119672782,0.8062937298863718,0.0050656021235541745,-0.089448,-34.224837
11.185,2.0,1.0,1.0,34.6,34.0,34.0,2.9,2.9,2.5425,0.5666006669054905,-0.01909825877570706,0.811370896621231,0.004956362068321829,-0.090581,-34.097055
11.185,2.0,1.0,1.0,34.6,34.0,34.0,2.9,2.9,2.545,0.5590835792817782,-0.019430502029452564,0.8164092087629545,0.004841628469935215,-0.091736,-33.96871
11.185,2.0,1.0,1.0,34.6,34.0,34.0,2.9,2.9,2.5475,0.5514730751097244,-0.01976809380567039,0.8214073361197144,0.004721207829002977,-0.092916,-33.839791
11.185,2.0,1.0,1.0,34.6,34.0,34.0,2.9,2.9,2.55,0.5437682902848913,-0.020111116859957937,0.8263639111839269,0.004594899537188133,-0.09412,-33.710289
11.185,2.0,1.0,1.0,34.6,34.0,34.0,2.9,2.9,2.5525,0.5359683578395359,-0.02045965474704503,0.83127752808543,0.00446249558795342,-0.095349,-33.580192
11.185,2.0,1.0,1.0,34.6,34.0,34.0,2.9,2.9,2.555,0.5280724083706395,-0.020813791785264813,0.8361467415159921,0.0043237802739922344,-0.096603,-33.44949
11.185,2.0,1.0,1.0,34.6,34.0,34.0,2.9,2.9,2.5575,0.5200795704961199,-0.021173613016900353,0.840970065624377,0.00417852987063827,-0.097884,-33.318173
11.185,2.0,1.0,1.0,34.6,34.0,34.0,2.9,2.9,2.56,0.5119889713406359,-0.021539204164083565,0.8457459728811577,0.004026512304502354,-0.099192,-33.18623
11.185,2.0,1.0,1.0,34.6,34.0,34.0,2.9,2.9,2.5625,0.5037997370524436,-0.021910651579901148,0.850472892912474,0.0038674868065383347,-0.100528,-33.053649
11.185,2.0,1.0,1.0,34.6,34.0,34.0,2.9,2.9,2.565,0.49551099335283516,-0.02228804219433308,0.8551492113018829,0.0037012035486891698,-0.101893,-32.920419
11.185,2.0,1.0,1.0,34.6,34.0,34.0,2.9,2.9,2.5675,0.4871218661197844,-0.022671463454619938,0.8597732683594183,0.0035274032632101136,-0.103287,-32.786529
11.185,2.0,1.0,1.0,34.6,34.0,34.0,2.9,2.9,2.57,0.47863148200746247,-0.023061003259625287,0.8643433578569666,0.003345816843707694,-0.104712,-32.651967
11.185,2.0,1.0,1.0,34.6,34.0,34.0,2.9,2.9,2.5725,0.4700389691033931,-0.023456749887723345,0.8688577257290133,0.0031561649268704835,-0.106168,-32.51672
11.185,2.0,1.0,1.0,34.6,34.0,34.0,2.9,2.9,2.575,0.46134345762508755,-0.023858791917705256,0.8733145687377962,0.0029581574537999944,-0.107655,-32.380777
11.185,2.0,1.0,1.0,34.6,34.0,34.0,2.9,2.9,2.5775,0.4525440806580914,-0.024267218142156745,0.877712033101839,0.0027514932097782562,-0.109176,-32.244124
11.185,2.0,1.0,1.0,34.6,34.0,34.0,2.9,2.9,2.58,0.44363997493746865,-0.024682117472714513,0.8820482130868293,0.002535859341229306,-0.110731,-32.106749
11.185,2.0,1.0,1.0,34.6,34.0,34.0,2.9,2.9,2.5825,0.43463028167482987,-0.025103578836561873,0.8863211495577429,0.0023109308485485076,-0.112321,-31.968639
11.185,2.0,1.0,1.0,34.6,34.0,34.0,2.9,2.9,2.585,0.42551414743313565,-0.025531691063469503,0.8905288284910645,0.0020763700533822345,-0.113947,-31.82978
11.185,2.0,1.0,1.0,34.6,34.0,34.0,2.9,2.9,2.5875,0.4162907250515888,-0.025966542762631443,0.8946691794459251,0.0018318260388420888,-0.11561,-31.690158
11.185,2.0,1.0,1.0,34.6,34.0,34.0,2.9,2.9,2.59,0.40695917462307274,-0.02640822218848127,0.8987400739928829,0.001576934061032649,-0.117312,-31.549758
11.185,2.0,1.0,1.0,34.6,34.0,34.0,2.9,2.9,2.5925,0.3975186645266692,-0.026856817094605683,0.9027393240990663,0.0013113149301557626,-0.119053,-31.408568
11.185,2.0,1.0,1.0,34.6,34.0,34.0,2.9,2.9,2.595,0.38796837251797844,-0.027312414574796894,0.9066646804682557,0.0010345743593319608,-0.120835,-31.266571
11.185,2.0,1.0,1.0,34.6,34.0,34.0,2.9,2.9,2.5975,0.37830748688001853,-0.027775100890202235,0.9105138308344974,0.0007463022791437142,-0.122658,-31.123753
11.185,2.0,1.0,1.0,34.6,34.0,34.0,2.9,2.9,2.6,0.3685352076376967,-0.028244961281438438,0.9142843982076767,0.0004460721157608768,-0.124525,-30.980097
11.185,2.0,1.0,1.0,34.6,34.0,34.0,2.9,2.9,2.6025,0.3586507478389636,-0.028722079764437105,0.917973939069433,0.00013344003035082488,-0.126437,-30.835589
11.185,2.0,1.0,1.0,34.6,34.0,34.0,2.9,2.9,2.605,0.3486533349059123,-0.0292065389086804,0.9215799415177034,-0.00019205588269607902,-0.128395,-30.69021
11.185,2.0,1.0,1.0,34.6,34.0,34.0,2.9,2.9,2.6075,0.338542212059283,-0.029698419596361977,0.9250998233580437,-0.0005308964413798186,-0.1304,-30.543946
11.185,2.0,1.0,1.0,34.6,34.0,34.0,2.9,2.9,2.61,0.32831663982001136,-0.030197800760877486,0.9285309301397751,-0.0008835822683992548,-0.132455,-30.396777
11.185,2.0,1.0,1.0,34.6,34.0,34.0,2.9,2.9,2.6125,0.31797589759163897,-0.030704759102898934,0.9318705331348689,-0.0012506347332324527,-0.134561,-30.248687
11.185,2.0,1.0,1.0,34.6,34.0,34.0,2.9,2.9,2.615,0.30751928532763695,-0.031219368782129178,0.9351158272573258,-0.0016325969473027534,-0.136719,-30.099657
11.185,2.0,1.0,1.0,34.6,34.0,34.0,2.9,2.9,2.6175,0.2969461252879169,-0.031741701082647074,0.9382639289206488,-0.0020300348158061353,-0.138931,-29.949669
11.185,2.0,1.0,1.0,34.6,34.0,34.0,2.9,2.9,2.62,0.286255763889054,-0.03227182404956045,0.9413118738308139,-0.0024435381500575422,-0.1412,-29.798702
11.185,2.0,1.0,1.0,34.6,34.0,34.0,2.9,2.9,2.6225,0.2754475736529886,-0.03280980209446171,0.9442566147119617,-0.002873721844524117,-0.143527,-29.646738
11.185,2.0,1.0,1.0,34.6,34.0,34.0,2.9,2.9,2.625,0.264520955259321,-0.0333556955669337,0.947095018961772,-0.00332122712304912,-0.145914,-29.493755
11.185,2.0,1.0,1.0,34.6,34.0,34.0,2.9,2.9,2.6275,0.25347533970654895,-0.033909560289087134,0.9498238662332686,-0.0037867228591405956,-0.148363,-29.339733
11.185,2.0,1.0,1.0,34.6,34.0,34.0,2.9,2.9,2.63,0.24231019058800826,-0.03447144704980422,0.9524398459395041,-0.00427090697559946,-0.150877,-29.18465
11.185,2.0,1.0,1.0,34.6,34.0,34.0,2.9,2.9,2.6325,0.2310250064886162,-0.035041401055029765,0.9549395546772421,-0.00477450792920347,-0.153457,-29.028483
11.185,2.0,1.0,1.0,34.6,34.0,34.0,2.9,2.9,2.635,0.21961932350893457,-0.035619461330073696,0.9573194935654535,-0.005298286286645086,-0.156108,-28.87121
11.185,2.0,1.0,1.0,34.6,34.0,34.0,2.9,2.9,2.6375,0.20809271792353165,-0.03620566006947366,0.9595760654940033,-0.005843036398448254,-0.15883,-28.712807
11.185,2.0,1.0,1.0,34.6,34.0,34.0,2.9,2.9,2.64,0.19644480898107836,-0.036800021929495795,0.961705572277519,-0.00640958817817032,-0.161626,-28.553248
11.185,2.0,1.0,1.0,34.6,34.0,34.0,2.9,2.9,2.6425,0.18467526185422337,-0.03740256325783053,0.9637042117089011,-0.006998808994826868,-0.1645,-28.392509
11.185,2.0,1.0,1.0,34.6,34.0,34.0,2.9,2.9,2.645,0.17278379074783481,-0.038013291254453976,0.9655680745064393,-0.0076116056871768315,-0.167455,-28.230564
11.185,2.0,1.0,1.0,34.6,34.0,34.0,2.9,2.9,2.6475,0.1607701621749095,-0.038632203056966435,0.9672931411478756,-0.00824892670926876,-0.170493,-28.067385
11.185,2.0,1.0,1.0,34.6,34.0,34.0,2.9,2.9,2.65,0.14863419841015565,-0.03925928474298538,0.968875278584079,-0.008911764417493192,-0.173618,-27.902944
11.185,2.0,1.0,1.0,34.6,34.0,34.0,2.9,2.9,2.6525,0.13637578113216145,-0.039894510241333725,0.9703102368242572,-0.009601157510307287,-0.176834,-27.737213
11.185,2.0,1.0,1.0,34.6,34.0,34.0,2.9,2.9,2.655,0.12399485526587968,-0.040537840142834965,0.9715936453837948,-0.010318193632823191,-0.180143,-27.570162
11.185,2.0,1.0,1.0,34.6,34.0,34.0,2.9,2.9,2.6575,0.11149143303831745,-0.041189220400469115,0.9727210095848461,-0.011064012159568112,-0.183551,-27.401758
11.185,2.0,1.0,1.0,34.6,34.0,34.0,2.9,2.9,2.66,0.09886559826138916,-0.0418485809074536,0.9736877066988133,-0.011839807169966049,-0.187061,-27.231972
11.185,2.0,1.0,1.0,34.6,34.0,34.0,2.9,2.9,2.6625,0.08611751085729828,-0.042515833940466076,0.9744889819186112,-0.012646830632452862,-0.190676,-27.060768
11.185,2.0,1.0,1.0,34.6,34.0,34.0,2.9,2.9,2.665,0.07324741164321553,-0.043190872453704544,0.9751199441473559,-0.013486395814646158,-0.194403,-26.888112
11.185,2.0,1.0,1.0,34.6,34.0,34.0,2.9,2.9,2.6675,0.06025562739376696,-0.04387356820774724,0.9755755615886498,-0.014359880938651445,-0.198246,-26.71397
11.185,2.0,1.0,1.0,34.6,34.0,34.0,2.9,2.9,2.67,0.0471425762017184,-0.04456376971521739,0.975850657121977,-0.015268733102428692,-0.202209,-26.538302
11.185,2.0,1.0,1.0,34.6,34.0,34.0,2.9,2.9,2.6725,0.033908773159394036,-0.045261299983021246,0.9759399034449365,-0.01621447249017448,-0.206299,-26.361072
11.185,2.0,1.0,1.0,34.6,34.0,34.0,2.9,2.9,2.675,0.020554836385864885,-0.045965954028390196,0.9758378179619681,-0.017198696896923854,-0.210521,-26.182238
11.185,2.0,1.0,1.0,34.6,34.0,34.0,2.9,2.9,2.6775,0.007081493427717158,-0.04667749614305663,0.9755387573969664,-0.01822308659506682,-0.214881,-26.001759
11.185,2.0,1.0,1.0,34.6,34.0,34.0,2.9,2.9,2.68,-0.006510411935575518,-0.04739565687658386,0.9750369121046282,-0.01928940957323114,-0.219385,-25.819591
11.185,2.0,1.0,1.0,34.6,34.0,34.0,2.9,2.9,2.6825,-0.020219912446977177,-0.04812012970608193,0.9743263000525293,-0.020399527181035732,-0.224041,-25.63569
11.185,2.0,1.0,1.0,34.6,34.0,34.0,2.9,2.9,2.685,-0.03404590964900903,-0.048850567355202386,0.9734007604427435,-0.02155540021660608,-0.228857,-25.450008
11.185,2.0,1.0,1.0,34.6,34.0,34.0,2.9,2.9,2.6875,-0.0479871656389487,-0.0495865777203243,0.972253946938286,-0.0227590954974924,-0.233839,-25.262496
11.185,2.0,1.0,1.0,34.6,34.0,34.0,2.9,2.9,2.69,-0.06204229425275565,-0.0503277193561198,0.9708793204556577,-0.02401279295979115,-0.238996,-25.073103
11.185,2.0,1.0,1.0,34.6,34.0,34.0,2.9,2.9,2.6925,-0.07620975162206219,-0.05107349646609832,0.9692701414803686,-0.025318793334885615,-0.244338,-24.881777
11.185,2.0,1.0,1.0,34.6,34.0,34.0,2.9,2.9,2.695,-0.09048782604105401,-0.051823353336124055,0.9674194618573899,-0.026679526458328672,-0.249873,-24.68846
11.185,2.0,1.0,1.0,34.6,34.0,34.0,2.9,2.9,2.6975,-0.10487462707154252,-0.052576668140129186,0.9653201160029161,-0.028097560271069032,-0.255613,-24.493096
11.185,2.0,1.0,1.0,34.6,34.0,34.0,2.9,2.9,2.7,-0.11936807380454932,-0.05333274603707526,0.9629647114777451,-0.029575610579496394,-0.261567,-24.295623
11.185,2.0,1.0,1.0,34.6,34.0,34.0,2.9,2.9,2.7025,-0.1339658821852071,-0.054090811466445586,0.9603456188557046,-0.031116551647748875,-0.267749,-24.095978
11.185,2.0,1.0,1.0,34.6,34.0,34.0,2.9,2.9,2.705,-0.14866555129425846,-0.05484999953586851,0.9574549608129569,-0.03272342770342353,-0.27417,-23.894095
11.185,2.0,1.0,1.0,34.6,34.0,34.0,2.9,2.9,2.7075,-0.1634643484638672,-0.055609346378558466,0.9542846003555762,-0.03439946544635579,-0.280845,-23.689905
11.185,2.0,1.0,1.0,34.6,34.0,34.0,2.9,2.9,2.71,-0.17835929308702322,-0.05636777833971314,0.9508261280934243,-0.036148087659535255,-0.287787,-23.483334
11.185,2.0,1.0,1.0,34.6,34.0,34.0,2.9,2.9,2.7125,-0.19334713895851913,-0.05712409982934088,0.9470708484579733,-0.03797292803160161,-0.295014,-23.274306
11.185,2.0,1.0,1.0,34.6,34.0,34.0,2.9,2.9,2.715,-0.20842435496028244,-0.05787697965364892,0.9430097647503054,-0.039877847311765,-0.302542,-23.062742
11.185,2.0,1.0,1.0,34.6,34.0,34.0,2.9,2.9,2.7175,-0.22358710387442618,-0.05862493560740051,0.9386335628929237,-0.041866950930506276,-0.31039,-22.848557
11.185,2.0,1.0,1.0,34.6,34.0,34.0,2.9,2.9,2.72,-0.23883121907260732,-0.05936631707474743,0.9339325937452058,-0.04394460823307375,-0.318579,-22.631664
11.185,2.0,1.0,1.0,34.6,34.0,34.0,2.9,2.9,2.7225,-0.2541521787895044,-0.06009928534495052,0.9288968538273049,-0.046115473487658154,-0.327129,-22.41197
11.185,2.0,1.0,1.0,34.6,34.0,34.0,2.9,2.9,2.725,-0.26954507763976177,-0.06082179130092964,0.9235159642809925,-0.04838450884616938,-0.336066,-22.189378
11.185,2.0,1.0,1.0,34.6,34.0,34.0,2.9,2.9,2.7275,-0.2850045949807173,-0.061531550081301234,0.9177791478783994,-0.050757009452767045,-0.345414,-21.963786
11.185,2.0,1.0,1.0,34.6,34.0,34.0,2.9,2.9,2.73,-0.30052495965530207,-0.06222601224869197,0.9116752038709955,-0.05323863091352995,-0.355202,-21.735087
11.185,2.0,1.0,1.0,34.6,34.0,34.0,2.9,2.9,2.7325,-0.316099910569008,-0.06290233091656919,0.9051924804515491,-0.05583541935974964,-0.365462,-21.503167
11.185,2.0,1.0,1.0,34.6,34.0,34.0,2.9,2.9,2.735,-0.33172265245877397,-0.06355732419099029,0.8983188445817414,-0.058553844356880574,-0.376228,-21.267907
11.185,2.0,1.0,1.0,34.6,34.0,34.0,2.9,2.9,2.7375,-0.34738580609717956,-0.06418743216942249,0.8910416489179124,-0.06140083493066527,-0.387536,-21.029181
11.185,2.0,1.0,1.0,34.6,34.0,34.0,2.9,2.9,2.74,-0.36308135203842723,-0.06478866760226247,0.8833476955481822,-0.06438381900050635,-0.399427,-20.786857
11.185,2.0,1.0,1.0,34.6,34.0,34.0,2.9,2.9,2.7425,-0.37880056684839053,-0.06535655915920932,0.8752231962368517,-0.06751076652657309,-0.411947,-20.540795
11.185,2.0,1.0,1.0,34.6,34.0,34.0,2.9,2.9,2.745,-0.394533950564063,-0.06588608604644945,0.866653728858603,-0.07079023668960967,-0.425145,-20.290846
11.185,2.0,1.0,1.0,34.6,34.0,34.0,2.9,2.9,2.7475,-0.4102711438905896,-0.06637160248465185,0.8576241896979326,-0.07423142942844453,-0.439076,-20.036856
11.185,2.0,1.0,1.0,34.6,34.0,34.0,2.9,2.9,2.75,-0.426000833358025,-0.0668067502733682,0.84811874129208,-0.0778442416562071,-0.453802,-19.778659
11.185,2.0,1.0,1.0,34.6,34.0,34.0,2.9,2.9,2.7525,-0.44171064231460244,-0.06718435732394133,0.8381207555135887,-0.08163932845722699,-0.469391,-19.51608
11.185,2.0,1.0,1.0,34.6,34.0,34.0,2.9,2.9,2.755,-0.45738700521495584,-0.0674963196273268,0.8276127516284111,-0.08562816952553297,-0.485917,-19.248935
11.185,2.0,1.0,1.0,34.6,34.0,34.0,2.9,2.9,2.7575,-0.47301502215445124,-0.06773346361921283,0.8165763291370521,-0.08982314103306473,-0.503465,-18.977029
11.185,2.0,1.0,1.0,34.6,34.0,34.0,2.9,2.9,2.76,-0.48857828998451647,-0.06788538529263742,0.8049920953232125,-0.09423759299759202,-0.52213,-18.700154
11.185,2.0,1.0,1.0,34.6,34.0,34.0,2.9,2.9,2.7625,-0.5040587055940309,-0.06794026166360927,0.7928395876154963,-0.0988859320382243,-0.542017,-18.418092
11.185,2.0,1.0,1.0,34.6,34.0,34.0,2.9,2.9,2.765,-0.5194362360283646,-0.06788462928819484,0.7800971911393132,-0.10378370913420065,-0.563247,-18.130611
11.185,2.0,1.0,1.0,34.6,34.0,34.0,2.9,2.9,2.7675,-0.5346886490037764,-0.06770312342368962,0.7667420522342145,-0.10894771160437157,-0.585953,-17.837465
11.185,2.0,1.0,1.0,34.6,34.0,34.0,2.9,2.9,2.77,-0.5497911960164237,-0.06737817007768251,0.752749989287049,-0.11439605795037891,-0.610288,-17.538394
11.185,2.0,1.0,1.0,34.6,34.0,34.0,2.9,2.9,2.7725,-0.5647162385877514,-0.06688962154375269,0.7380954030532733,-0.12014829338653074,-0.636425,-17.233123
11.185,2.0,1.0,1.0,34.6,34.0,34.0,2.9,2.9,2.775,-0.579432806168787,-0.06621432401803354,0.7227511898046415,-0.1262254827172931,-0.664562,-16.921359
11.185,2.0,1.0,1.0,34.6,34.0,34.0,2.9,2.9,2.7775,-0.5939060717696227,-0.0653256034530458,0.7066886622864521,-0.1326502955848943,-0.694925,-16.602796
11.185,2.0,1.0,1.0,34.6,34.0,34.0,2.9,2.9,2.78,-0.6080967284033038,-0.06419265285038299,0.6898774857795563,-0.13944707680786944,-0.727772,-16.277107
11.185,2.0,1.0,1.0,34.6,34.0,34.0,2.9,2.9,2.7825,-0.6219602458436574,-0.0627798006313864,0.6722856398037735,-0.146641891305948,-0.763403,-15.94395
11.185,2.0,1.0,1.0,34.6,34.0,34.0,2.9,2.9,2.785,-0.6354459829038768,-0.061045635464612016,0.6538794205353502,-0.15426252859444012,-0.802162,-15.602964
11.185,2.0,1.0,1.0,34.6,34.0,34.0,2.9,2.9,2.7875,-0.6484961253703585,-0.058941957895686604,0.6346235053516471,-0.1623384455258797,-0.844449,-15.25377
11.185,2.0,1.0,1.0,34.6,34.0,34.0,2.9,2.9,2.79,-0.6610444138432237,-0.0564125232874534,0.6144811097703133,-0.17090061715332522,-0.890733,-14.895972
11.185,2.0,1.0,1.0,34.6,34.0,34.0,2.9,2.9,2.7925,-0.6730146191030308,-0.05339153399891504,0.5934142794043986,-0.17998125330874562,-0.94156,-14.529159
11.185,2.0,1.0,1.0,34.6,34.0,34.0,2.9,2.9,2.795,-0.6843187154904996,-0.04980183165636327,0.5713843767729851,-0.18961332137596457,-0.997573,-14.152908
11.185,2.0,1.0,1.0,34.6,34.0,34.0,2.9,2.9,2.7975,-0.6948546957368592,-0.04555273338140761,0.5483528467654596,-0.19982979192723893,-1.059533,-13.766784
11.185,2.0,1.0,1.0,34.6,34.0,34.0,2.9,2.9,2.8,-0.7045039649003184,-0.04053745011387512,0.5242823778068123,-0.2106624908517525,-1.128342,-13.370348
11.185,2.0,1.0,1.0,34.6,34.0,34.0,2.9,2.9,2.8025,-0.7131282487586077,-0.03463002289980404,0.4991386217248099,-0.22214039594318116,-1.205077,-12.963167
11.185,2.0,1.0,1.0,34.6,34.0,34.0,2.9,2.9,2.805,-0.7205659571230728,-0.02768171812534094,0.4728926984229074,-0.2342871532163145,-1.291031,-12.544822
11.185,2.0,1.0,1.0,34.6,34.0,34.0,2.9,2.9,2.8075,-0.72662796188989,-0.019516841937134436,0.4455247972616344,-0.24711750298170834,-1.38776,-12.114925
11.185,2.0,1.0,1.0,34.6,34.0,34.0,2.9,2.9,2.81,-0.7310927947054158,-0.009927978901842154,0.41702930194608745,-0.2606321915668326,-1.497152,-11.673142
11.185,2.0,1.0,1.0,34.6,34.0,34.0,2.9,2.9,2.8125,-0.733701358776265,0.00132925091904011,0.387422015977705,-0.274810795308983,-1.621506,-11.219223
11.185,2.0,1.0,1.0,34.6,34.0,34.0,2.9,2.9,2.815,-0.7341514138940262,0.01454165877208075,0.35675025491678314,-0.28960169552781523,-1.763634,-10.753042
11.185,2.0,1.0,1.0,34.6,34.0,34.0,2.9,2.9,2.8175,-0.7320923802876275,0.030043635439277943,0.32510679492233974,-0.3049082214899922,-1.926993,-10.274656
11.185,2.0,1.0,1.0,34.6,34.0,34.0,2.9,2.9,2.82,-0.7271214856618464,0.0482209627427688,0.29264889919380144,-0.32056974785236847,-2.115848,-9.784377
11.185,2.0,1.0,1.0,34.6,34.0,34.0,2.9,2.9,2.8225,-0.7187830485451043,0.06951150638024324,0.2596238174605101,-0.3363363608689415,-2.335473,-9.282873
11.185,2.0,1.0,1.0,34.6,34.0,34.0,2.9,2.9,2.825,-0.7065738708012809,0.09439983612229859,0.22640211927189202,-0.3518357421008096,-2.592391,-8.7713
11.185,2.0,1.0,1.0,34.6,34.0,34.0,2.9,2.9,2.8275,-0.6899594161713624,0.12340112666327635,0.1935196861347472,-0.36653145098029716,-2.894647,-8.251464
