1,w,sub_t,h,l1,l2,l3,g1,g2,Freq,S11_re,S21_re,S11_img,S21_img,S11_dB,S21_dB
11.185,2.0,1.0,1.0,33.0,34.1,34.1,1.8,3.3,2.5,0.889128525141601,-0.00804500308679495,0.442669939616939,0.00894384760891185,-0.059002,-38.39488
11.185,2.0,1.0,1.0,33.0,34.1,34.1,1.8,3.3,2.5025,0.8861870269282076,-0.008232526855967625,0.44837646749287985,0.009017653266767726,-0.059606,-38.26544
11.185,2.0,1.0,1.0,33.0,34.1,34.1,1.8,3.3,2.505,0.8831949769664742,-0.00842403933273422,0.45408765586329625,0.00909146639500029,-0.060222,-38.135545
11.185,2.0,1.0,1.0,33.0,34.1,34.1,1.8,3.3,2.5075,0.8801518057487798,-0.008619639259073804,0.45980335762582314,0.009165264363431177,-0.060851,-38.005184
11.185,2.0,1.0,1.0,33.0,34.1,34.1,1.8,3.3,2.51,0.8770569323749959,-0.008819428450555415,0.4655234201086744,0.00923902328485712,-0.061491,-37.874346
11.185,2.0,1.0,1.0,33.0,34.1,34.1,1.8,3.3,2.5125,0.8739097642677335,-0.009023511911737381,0.47124768484610247,0.009312717947954983,-0.062144,-37.743019
11.185,2.0,1.0,1.0,33.0,34.1,34.1,1.8,3.3,2.515,0.8707096968786499,-0.009231997956631566,0.4769759873443774,0.009386321746345863,-0.06281,-37.611192
11.185,2.0,1.0,1.0,33.0,34.1,34.1,1.8,3.3,2.5175,0.8674561133854727,-0.009444998334486494,0.4827081568378027,0.00945980660357538,-0.06349,-37.478853
11.185,2.0,1.0,1.0,33.0,34.1,34.1,1.8,3.3,2.52,0.8641483843793543,-0.009662628361158594,0.48844401603429527,0.009533142893752605,-0.064183,-37.345991
11.185,2.0,1.0,1.0,33.0,34.1,34.1,1.8,3.3,2.5225,0.8607858675421898,-0.009885007056354669,0.49418338084999974,0.009606299357569511,-0.06489,-37.212593
11.185,2.0,1.0,1.0,33.0,34.1,34.1,1.8,3.3,2.525,0.8573679073134675,-0.010112257287046988,0.49992606013239943,0.009679243013405529,-0.065612,-37.078647
11.185,2.0,1.0,1.0,33.0,34.1,34.1,1.8,3.3,2.5275,0.8538938345462375,-0.010344505917377421,0.505671855371343,0.009751939063199423,-0.066349,-36.944141
11.185,2.0,1.0,1.0,33.0,34.1,34.1,1.8,3.3,2.53,0.8503629661517432,-0.010581883965386722,0.5114205603973706,0.009824350792748314,-0.067101,-36.809062
11.185,2.0,1.0,1.0,33.0,34.1,34.1,1.8,3.3,2.5325,0.8467746047322466,-0.010824526766924206,0.5171719610666925,0.009896439466069556,-0.067869,-36.673396
11.185,2.0,1.0,1.0,33.0,34.1,34.1,1.8,3.3,2.535,0.8431280382015428,-0.01107257414711346,0.5229258349321332,0.009968164213434242,-0.068653,-36.537132
11.185,2.0,1.0,1.0,33.0,34.1,34.1,1.8,3.3,2.5375,0.8394225393926533,-0.011326170599772091,0.5286819508993047,0.010039481912653215,-0.069454,-36.400255
11.185,2.0,1.0,1.0,33.0,34.1,34.1,1.8,3.3,2.54,0.8356573656521378,-0.011585465475206797,0.5344400688672345,0.010110347063164792,-0.070272,-36.262751
11.185,2.0,1.0,1.0,33.0,34.1,34.1,1.8,3.3,2.5425,0.831831758420452,-0.011850613176830154,0.5401999393526344,0.010180711652441178,-0.071108,-36.124608
11.185,2.0,1.0,1.0,33.0,34.1,34.1,1.8,3.3,2.545,0.8279449427977408,-0.012121773367071901,0.5459613030969186,0.010250525014193667,-0.071962,-35.985811
11.185,2.0,1.0,1.0,33.0,34.1,34.1,1.8,3.3,2.5475,0.8239961270944324,-0.01239911118308565,0.5517238906550481,0.010319733677817963,-0.072835,-35.846345
11.185,2.0,1.0,1.0,33.0,34.1,34.1,1.8,3.3,2.55,0.819984502365946,-0.012682797462783134,0.5574874219652209,0.010388281208479004,-0.073728,-35.706196
11.185,2.0,1.0,1.0,33.0,34.1,34.1,1.8,3.3,2.5525,0.8159092419308175,-0.01297300898175805,0.5632516058983273,0.010456108037188747,-0.07464,-35.565349
11.185,2.0,1.0,1.0,33.0,34.1,34.1,1.8,3.3,2.555,0.8117695008714856,-0.01326992870169881,0.5690161397860779,0.010523151280180682,-0.075573,-35.423789
11.185,2.0,1.0,1.0,33.0,34.1,34.1,1.8,3.3,2.5575,0.807564415516941,-0.013573746030923402,0.5747807089265845,0.010589344546831352,-0.076528,-35.281499
11.185,2.0,1.0,1.0,33.0,34.1,34.1,1.8,3.3,2.56,0.803293102906423,-0.01388465709770986,0.5805449860661314,0.01065461773532042,-0.077504,-35.138465
11.185,2.0,1.0,1.0,33.0,34.1,34.1,1.8,3.3,2.5625,0.798954660233267,-0.014202865037137207,0.5863086308557618,0.01071889681515798,-0.078503,-34.99467
11.185,2.0,1.0,1.0,33.0,34.1,34.1,1.8,3.3,2.565,0.7945481642679806,-0.014528580292195926,0.5920712892812393,0.010782103595638283,-0.079526,-34.850097
11.185,2.0,1.0,1.0,33.0,34.1,34.1,1.8,3.3,2.5675,0.790072670759568,-0.014862020929974273,0.597832593064813,0.010844155479204882,-0.080572,-34.704729
11.185,2.0,1.0,1.0,33.0,34.1,34.1,1.8,3.3,2.57,0.7855272138140654,-0.015203412973777504,0.603592159037135,0.010904965198629891,-0.081643,-34.55855
11.185,2.0,1.0,1.0,33.0,34.1,34.1,1.8,3.3,2.5725,0.7809108052491891,-0.015552990752090854,0.6093495884775518,0.010964440536822504,-0.082741,-34.411541
11.185,2.0,1.0,1.0,33.0,34.1,34.1,1.8,3.3,2.575,0.776222433923936,-0.01591099726535474,0.6151044664208511,0.011022484027983944,-0.083864,-34.263685
11.185,2.0,1.0,1.0,33.0,34.1,34.1,1.8,3.3,2.5775,0.7714610650419208,-0.01627768457158194,0.62085636092844,0.011078992638721835,-0.085016,-34.114963
11.185,2.0,1.0,1.0,33.0,34.1,34.1,1.8,3.3,2.58,0.7666256394271437,-0.016653314191912287,0.6266048223217464,0.01113385742762166,-0.086195,-33.965355
11.185,2.0,1.0,1.0,33.0,34.1,34.1,1.8,3.3,2.5825,0.7617150727708167,-0.017038157537271035,0.6323493823755091,0.01118696318164724,-0.087404,-33.814844
11.185,2.0,1.0,1.0,33.0,34.1,34.1,1.8,3.3,2.585,0.7567282548478025,-0.017432496357370708,0.6380895534684186,0.011238188027605867,-0.088644,-33.663409
11.185,2.0,1.0,1.0,33.0,34.1,34.1,1.8,3.3,2.5875,0.751664048701119,-0.017836623213378054,0.643824827688418,0.011287403016763582,-0.089915,-33.51103
11.185,2.0,1.0,1.0,33.0,34.1,34.1,1.8,3.3,2.59,0.7465212897928839,-0.01825084197565143,0.6495546758897106,0.011334471680532176,-0.091218,-33.357686
11.185,2.0,1.0,1.0,33.0,34.1,34.1,1.8,3.3,2.5925,0.7412987851199675,-0.018675468348046776,0.6552785466983742,0.011379249554970869,-0.092555,-33.203355
11.185,2.0,1.0,1.0,33.0,34.1,34.1,1.8,3.3,2.595,0.7359953122925305,-0.019110830420386304,0.6609958654631586,0.011421583671648116,-0.093927,-33.048017
11.185,2.0,1.0,1.0,33.0,34.1,34.1,1.8,3.3,2.5975,0.730609618573494,-0.019557269250790668,0.6667060331478517,0.011461312012195373,-0.095336,-32.891649
11.185,2.0,1.0,1.0,33.0,34.1,34.1,1.8,3.3,2.6,0.7251404198768872,-0.020015139479683763,0.6724084251612538,0.01149826292364668,-0.096781,-32.734229
11.185,2.0,1.0,1.0,33.0,34.1,34.1,1.8,3.3,2.6025,0.7195863997228933,-0.0204848099774005,0.6781023901205153,0.011532254491399767,-0.098266,-32.575731
11.185,2.0,1.0,1.0,33.0,34.1,34.1,1.8,3.3,2.605,0.7139462081472654,-0.020966664527453684,0.6837872485432429,0.011563093866349568,-0.099791,-32.416134
11.185,2.0,1.0,1.0,33.0,34.1,34.1,1.8,3.3,2.6075,0.708218460562661,-0.021461102547651635,0.6894622914634017,0.011590576542430692,-0.101358,-32.255411
11.185,2.0,1.0,1.0,33.0,34.1,34.1,1.8,3.3,2.61,0.702401736569285,-0.021968539851402874,0.6951267789656213,0.011614485580462174,-0.102969,-32.093539
11.185,2.0,1.0,1.0,33.0,34.1,34.1,1.8,3.3,2.6125,0.6964945787120665,-0.022489409451698167,0.7007799386320764,0.01163459077380619,-0.104624,-31.93049
11.185,2.0,1.0,1.0,33.0,34.1,34.1,1.8,3.3,2.615,0.6904954911814313,-0.023024162410424414,0.7064209638956177,0.01165064775093639,-0.106327,-31.766238
11.185,2.0,1.0,1.0,33.0,34.1,34.1,1.8,3.3,2.6175,0.6844029384545522,-0.023573268735839405,0.7120490122922623,0.011662397009546811,-0.108078,-31.600756
11.185,2.0,1.0,1.0,33.0,34.1,34.1,1.8,3.3,2.62,0.6782153438737657,-0.024137218331222766,0.7176632036055915,0.011669562876325052,-0.10988,-31.434016
11.185,2.0,1.0,1.0,33.0,34.1,34.1,1.8,3.3,2.6225,0.6719310881586301,-0.02471652199791622,0.7232626178949239,0.011671852385948069,-0.111735,-31.265988
11.185,2.0,1.0,1.0,33.0,34.1,34.1,1.8,3.3,2.625,0.665548507847919,-0.0253117124961756,0.728846293398413,0.0116689540722368,-0.113645,-31.096644
11.185,2.0,1.0,1.0,33.0,34.1,34.1,1.8,3.3,2.6275,0.659065893667567,-0.025923345667480936,0.734413224301439,0.011660536663715476,-0.115612,-30.925951
11.185,2.0,1.0,1.0,33.0,34.1,34.1,1.8,3.3,2.63,0.6524814888203959,-0.026552001622185187,0.7399623583597619,0.01164624767505629,-0.117638,-30.753879
11.185,2.0,1.0,1.0,33.0,34.1,34.1,1.8,3.3,2.6325,0.6457934871931637,-0.02719828599663262,0.7454925943659629,0.011625711885043208,-0.119727,-30.580396
11.185,2.0,1.0,1.0,33.0,34.1,34.1,1.8,3.3,2.635,0.6390000314762294,-0.027862831284139848,0.7510027794466069,0.011598529690746396,-0.12188,-30.405468
11.185,2.0,1.0,1.0,33.0,34.1,34.1,1.8,3.3,2.6375,0.6320992111908591,-0.028546298244507655,0.7564917061763893,0.011564275326552569,-0.124101,-30.229061
11.185,2.0,1.0,1.0,33.0,34.1,34.1,1.8,3.3,2.64,0.6250890606188777,-0.029249377397025503,0.7619581094942144,0.011522494935533813,-0.126392,-30.051139
11.185,2.0,1.0,1.0,33.0,34.1,34.1,1.8,3.3,2.6425,0.6179675566291158,-0.02997279060222724,0.7674006634047064,0.011472704479340658,-0.128757,-29.871665
11.185,2.0,1.0,1.0,33.0,34.1,34.1,1.8,3.3,2.645,0.6107326163947572,-0.030717292737976857,0.7728179774470179,0.011414387471362936,-0.131199,-29.690603
11.185,2.0,1.0,1.0,33.0,34.1,34.1,1.8,3.3,2.6475,0.603382094995397,-0.03148367347578498,0.778208592911043,0.011346992516288856,-0.133722,-29.507913
11.185,2.0,1.0,1.0,33.0,34.1,34.1,1.8,3.3,2.65,0.5959137828972676,-0.03227275916359494,0.7835709787791194,0.011269930637397339,-0.136329,-29.323556
11.185,2.0,1.0,1.0,33.0,34.1,34.1,1.8,3.3,2.6525,0.5883254033048179,-0.03308541482161399,0.7889035273690863,0.011182572370904007,-0.139024,-29.137489
11.185,2.0,1.0,1.0,33.0,34.1,34.1,1.8,3.3,2.655,0.5806146093764336,-0.033922546258115714,0.79420454965211,0.011084244604434378,-0.141811,-28.949671
11.185,2.0,1.0,1.0,33.0,34.1,34.1,1.8,3.3,2.6575,0.5727789812968241,-0.034785102312477736,0.7994722702158934,0.010974227134174204,-0.144695,-28.760057
11.185,2.0,1.0,1.0,33.0,34.1,34.1,1.8,3.3,2.66,0.5648160231982677,-0.035674077233058155,0.8047048218408279,0.010851748912421872,-0.14768,-28.568602
11.185,2.0,1.0,1.0,33.0,34.1,34.1,1.8,3.3,2.6625,0.5567231599226333,-0.036590513197833956,0.8099002396531603,0.010715983954092508,-0.150772,-28.375258
11.185,2.0,1.0,1.0,33.0,34.1,34.1,1.8,3.3,2.665,0.548497733615819,-0.03753550298602328,0.8150564548154065,0.010566046867155966,-0.153976,-28.179978
11.185,2.0,1.0,1.0,33.0,34.1,34.1,1.8,3.3,2.6675,0.5401370001460827,-0.038510192809172096,0.8201712877098662,0.010400987967978462,-0.157298,-27.98271
11.185,2.0,1.0,1.0,33.0,34.1,34.1,1.8,3.3,2.67,0.5316381253375501,-0.039515785310396026,0.8252424405662636,0.010219787938013668,-0.160743,-27.783403
11.185,2.0,1.0,1.0,33.0,34.1,34.1,1.8,3.3,2.6725,0.5229981810101454,-0.04055354274060478,0.8302674894790077,0.010021351973191667,-0.164318,-27.582003
11.185,2.0,1.0,1.0,33.0,34.1,34.1,1.8,3.3,2.675,0.5142141408172411,-0.04162479032057632,0.8352438757534344,0.009804503371595693,-0.16803,-27.378453
11.185,2.0,1.0,1.0,33.0,34.1,34.1,1.8,3.3,2.6775,0.5052828758725086,-0.04273091979766453,0.8401688965134257,0.009567976498509299,-0.171887,-27.172697
11.185,2.0,1.0,1.0,33.0,34.1,34.1,1.8,3.3,2.68,0.4962011501578175,-0.043873393205673114,0.8450396944949503,0.009310409060550705,-0.175896,-26.964674
11.185,2.0,1.0,1.0,33.0,34.1,34.1,1.8,3.3,2.6825,0.4869656157046676,-0.04505374683596651,0.849853246941213,0.009030333612268052,-0.180066,-26.754322
11.185,2.0,1.0,1.0,33.0,34.1,34.1,1.8,3.3,2.685,0.4775728075425132,-0.046273595427158594,0.854606353505075,0.008726168209101156,-0.184406,-26.541576
11.185,2.0,1.0,1.0,33.0,34.1,34.1,1.8,3.3,2.6875,0.46801913840864356,-0.047534636579640965,0.8592956230530353,0.008396206109867983,-0.188926,-26.32637
11.185,2.0,1.0,1.0,33.0,34.1,34.1,1.8,3.3,2.69,0.45830089321604145,-0.04883865539970308,0.8639174592522079,0.00803860441970809,-0.193636,-26.108634
11.185,2.0,1.0,1.0,33.0,34.1,34.1,1.8,3.3,2.6925,0.44841422327794844,-0.05018752937593991,0.8684680448070765,0.007651371550502902,-0.198547,-25.888297
11.185,2.0,1.0,1.0,33.0,34.1,34.1,1.8,3.3,2.695,0.4383551402910151,-0.05158323348789245,0.8729433241962057,0.0072323533599324644,-0.203673,-25.665283
11.185,2.0,1.0,1.0,33.0,34.1,34.1,1.8,3.3,2.6975,0.4281195100828321,-0.053027845543265575,0.8773389847401584,0.006779217812233945,-0.209025,-25.439514
11.185,2.0,1.0,1.0,33.0,34.1,34.1,1.8,3.3,2.7,0.41770304613486786,-0.054523551735377054,0.8816504358102956,0.0062894379830573475,-0.214619,-25.21091
11.185,2.0,1.0,1.0,33.0,34.1,34.1,1.8,3.3,2.7025,0.4071013028983461,-0.056072652406466555,0.8858727859635518,0.005760273207174798,-0.220469,-24.979386
11.185,2.0,1.0,1.0,33.0,34.1,34.1,1.8,3.3,2.705,0.39630966892900193,-0.057677567994781735,0.890000817760162,0.005188748140736768,-0.226593,-24.744855
11.185,2.0,1.0,1.0,33.0,34.1,34.1,1.8,3.3,2.7075,0.3853233598771606,-0.05934084513355712,0.8940289599892054,0.004571629478756261,-0.233008,-24.507225
11.185,2.0,1.0,1.0,33.0,34.1,34.1,1.8,3.3,2.71,0.37413741138292667,-0.06106516285758543,0.8979512569900331,0.0039054000329196118,-0.239733,-24.266402
11.185,2.0,1.0,1.0,33.0,34.1,34.1,1.8,3.3,2.7125,0.3627466719429437,-0.06285333885741407,0.9017613347155476,0.0031862298339699847,-0.246791,-24.022287
11.185,2.0,1.0,1.0,33.0,34.1,34.1,1.8,3.3,2.715,0.3511457958361661,-0.06470833570146439,0.9054523631349624,0.002409943875957211,-0.254205,-23.774776
11.185,2.0,1.0,1.0,33.0,34.1,34.1,1.8,3.3,2.7175,0.33932923622229944,-0.06663326692157767,0.9090170145182394,0.0015719860656455786,-0.261999,-23.523761
11.185,2.0,1.0,1.0,33.0,34.1,34.1,1.8,3.3,2.72,0.3272912385594196,-0.06863140282636279,0.9124474170807361,0.0006673788782242121,-0.270201,-23.269132
11.185,2.0,1.0,1.0,33.0,34.1,34.1,1.8,3.3,2.7225,0.31502583452824084,-0.07070617586769991,0.915735103393439,-0.0003093218511003254,-0.278842,-23.01077
11.185,2.0,1.0,1.0,33.0,34.1,34.1,1.8,3.3,2.725,0.3025268367018636,-0.07286118533683014,0.9188709528800836,-0.0013640776524759795,-0.287955,-22.748553
11.185,2.0,1.0,1.0,33.0,34.1,34.1,1.8,3.3,2.7275,0.2897878342637805,-0.07510020110518507,0.9218451276258447,-0.002503424411552736,-0.297576,-22.482355
11.185,2.0,1.0,1.0,33.0,34.1,34.1,1.8,3.3,2.73,0.27680219015710444,-0.07742716604829769,0.9246470006111902,-0.0037345364815906854,-0.307745,-22.212041
11.185,2.0,1.0,1.0,33.0,34.1,34.1,1.8,3.3,2.7325,0.26356304014801274,-0.07984619669488204,0.9272650753569672,-0.005065298900648618,-0.318506,-21.937473
11.185,2.0,1.0,1.0,33.0,34.1,34.1,1.8,3.3,2.735,0.25006329441174374,-0.08236158152243925,0.9296868958203625,-0.006504388841831687,-0.329908,-21.658504
11.185,2.0,1.0,1.0,33.0,34.1,34.1,1.8,3.3,2.7375,0.2362956424063169,-0.08497777616925976,0.9318989452136704,-0.008061367590989209,-0.342005,-21.374984
11.185,2.0,1.0,1.0,33.0,34.1,34.1,1.8,3.3,2.74,0.22225256199578602,-0.08769939464241354,0.9338865322259784,-0.009746784537039288,-0.354857,-21.086754
11.185,2.0,1.0,1.0,33.0,34.1,34.1,1.8,3.3,2.7425,0.20792633403150407,-0.09053119536213824,0.9356336629092513,-0.011572294878212134,-0.368529,-20.793646
11.185,2.0,1.0,1.0,33.0,34.1,34.1,1.8,3.3,2.745,0.1933090639097154,-0.09347806058201823,0.9371228962420701,-0.013550792995896403,-0.383095,-20.495489
11.185,2.0,1.0,1.0,33.0,34.1,34.1,1.8,3.3,2.7475,0.17839271201343543,-0.09654496734513507,0.9383351811040567,-0.01569656372916799,-0.398638,-20.1921
11.185,2.0,1.0,1.0,33.0,34.1,34.1,1.8,3.3,2.75,0.163169135437061,-0.0997369476580743,0.93924967208011,-0.0180254540995818,-0.415249,-19.883291
11.185,2.0,1.0,1.0,33.0,34.1,34.1,1.8,3.3,2.7525,0.14763014401050964,-0.1030590349607188,0.9398435211655526,-0.02055506838834412,-0.433032,-19.568864
11.185,2.0,1.0,1.0,33.0,34.1,34.1,1.8,3.3,2.755,0.13176757441992054,-0.10651619320627403,0.9400916420630575,-0.023304989855378967,-0.452101,-19.248612
11.185,2.0,1.0,1.0,33.0,34.1,34.1,1.8,3.3,2.7575,0.11557338720762805,-0.11011322389982606,0.9399664433553726,-0.026297032807447662,-0.472588,-18.92232
11.185,2.0,1.0,1.0,33.0,34.1,34.1,1.8,3.3,2.76,0.09903979268053187,-0.11385464521995864,0.9394375264157553,-0.029555529160195312,-0.494639,-18.589766
11.185,2.0,1.0,1.0,33.0,34.1,34.1,1.8,3.3,2.7625,0.08215941333301145,-0.11774453579680016,0.9384713435010925,-0.03310765407811074,-0.518421,-18.250715
11.185,2.0,1.0,1.0,33.0,34.1,34.1,1.8,3.3,2.765,0.06492549238708424,-0.12178633375275949,0.9370308110949538,-0.03698379568500332,-0.544122,-17.904927
11.185,2.0,1.0,1.0,33.0,34.1,34.1,1.8,3.3,2.7675,0.04733216058000212,-0.12598257911743305,0.9350748732838372,-0.041217974164120375,-0.571959,-17.552151
11.185,2.0,1.0,1.0,33.0,34.1,34.1,1.8,3.3,2.77,0.029374776527857756,-0.13033458456541208,0.9325580098446855,-0.04584831573022098,-0.602176,-17.192129
11.185,2.0,1.0,1.0,33.0,34.1,34.1,1.8,3.3,2.7725,0.011050360036448771,-0.13484201542037572,0.9294296839254351,-0.05091758683068196,-0.635055,-16.824596
11.185,2.0,1.0,1.0,33.0,34.1,34.1,1.8,3.3,2.775,-0.007641857170105373,-0.13950235480630158,0.9256337249091002,-0.056473793329406906,-0.670921,-16.44928
11.185,2.0,1.0,1.0,33.0,34.1,34.1,1.8,3.3,2.7775,-0.026699732421451225,-0.14431022344770697,0.921107643558164,-0.0625708480617991,-0.710145,-16.065906
11.185,2.0,1.0,1.0,33.0,34.1,34.1,1.8,3.3,2.78,-0.046117325871834376,-0.1492565156210933,0.9157818792719365,-0.06926930759996515,-0.753159,-15.674196
11.185,2.0,1.0,1.0,33.0,34.1,34.1,1.8,3.3,2.7825,-0.06588377820598086,-0.15432730279645976,0.9095789838878751,-0.07663717471515588,-0.800466,-15.273873
11.185,2.0,1.0,1.0,33.0,34.1,34.1,1.8,3.3,2.785,-0.08598189117262653,-0.1595024442226253,0.9024127538377149,-0.08475075596657666,-0.852647,-14.864665
11.185,2.0,1.0,1.0,33.0,34.1,34.1,1.8,3.3,2.7875,-0.10638633501653247,-0.1647538287804292,0.894187333953446,-0.0936955527784515,-0.910386,-14.446313
11.185,2.0,1.0,1.0,33.0,34.1,34.1,1.8,3.3,2.79,-0.12706138933686234,-0.17004315466896283,0.8847963336903016,-0.10356714742834552,-0.974482,-14.018573
11.185,2.0,1.0,1.0,33.0,34.1,34.1,1.8,3.3,2.7925,-0.14795810383910046,-0.17531913304357546,0.8741220226411148,-0.11447201993286824,-1.04588,-13.581231
11.185,2.0,1.0,1.0,33.0,34.1,34.1,1.8,3.3,2.795,-0.16901074376372324,-0.1805139793928219,0.8620347106136073,-0.1265281942420356,-1.125692,-13.134113
11.185,2.0,1.0,1.0,33.0,34.1,34.1,1.8,3.3,2.7975,-0.19013236363094552,-0.18553903425489854,0.8483924731551759,-0.13986555751343807,-1.215241,-12.677099
11.185,2.0,1.0,1.0,33.0,34.1,34.1,1.8,3.3,2.8,-0.2112093367192112,-0.19027933702472047,0.833041462643755,-0.15462561808904318,-1.316098,-12.210149
11.185,2.0,1.0,1.0,33.0,34.1,34.1,1.8,3.3,2.8025,-0.23209466449273014,-0.1945869709275234,0.8158171557959127,-0.17096035815495664,-1.430141,-11.733323
11.185,2.0,1.0,1.0,33.0,34.1,34.1,1.8,3.3,2.805,-0.25259991409002097,-0.198273017471791,0.796547039460145,-0.1890296869053066,-1.559618,-11.246816
11.185,2.0,1.0,1.0,33.0,34.1,34.1,1.8,3.3,2.8075,-0.272485706271851,-0.20109802771941135,0.7750554357953654,-0.20899680096648837,-1.707224,-10.751003
11.185,2.0,1.0,1.0,33.0,34.1,34.1,1.8,3.3,2.81,-0.2914508375912261,-0.20276107177623898,0.7511714183596518,-0.2310205070720068,-1.876201,-10.246485
11.185,2.0,1.0,1.0,33.0,34.1,34.1,1.8,3.3,2.8125,-0.309120423591938,-0.202887721301018,0.724741062002179,-0.255243266394379,-2.070448,-9.734155
11.185,2.0,1.0,1.0,33.0,34.1,34.1,1.8,3.3,2.815,-0.3250339698242065,-0.20101782794600984,0.6956455632106248,-0.2817734169551116,-2.294647,-9.215271
11.185,2.0,1.0,1.0,33.0,34.1,34.1,1.8,3.3,2.8175,-0.3386351061677997,-0.19659477645769124,0.663826972071669,-0.31065980872789734,-2.554411,-8.69155
11.185,2.0,1.0,1.0,33.0,34.1,34.1,1.8,3.3,2.82,-0.34926594434891506,-0.18895910497068638,0.6293232118083233,-0.3418571220023313,-2.856414,-8.165256
11.185,2.0,1.0,1.0,33.0,34.1,34.1,1.8,3.3,2.8225,-0.3561706647007054,-0.17735102986903026,0.5923134169883807,-0.37518073948032854,-3.208514,-7.639316
11.185,2.0,1.0,1.0,33.0,34.1,34.1,1.8,3.3,2.825,-0.3585148572377307,-0.1609283518923685,0.553172935488432,-0.4102516666519281,-3.61977,-7.11741
11.185,2.0,1.0,1.0,33.0,34.1,34.1,1.8,3.3,2.8275,-0.3554288226101729,-0.1388079609242553,0.5125340540204579,-0.4464352076476731,-4.100272,-6.604054
11.185,2.0,1.0,1.0,33.0,34.1,34.1,1.8,3.3,2.83,-0.3460833774491324,-0.11013961733750281,0.4713432030968947,-0.4827823460788478,-4.660525,-6.104627
