1,w,sub_t,h,l1,l2,l3,g1,g2,Freq,S11_re,S21_re,S11_img,S21_img,S11_dB,S21_dB
11.185,2.0,1.0,1.0,33.1,33.6,33.6,3.8,3.2,2.5,0.890397908648449,-0.00446390466245513,0.442700196912809,0.00392604954396989,-0.048951,-44.517296
11.185,2.0,1.0,1.0,33.1,33.6,33.6,3.8,3.2,2.5025,0.8876227983443447,-0.004555152851430534,0.4481364276735371,0.003945783889341418,-0.049353,-44.398706
11.185,2.0,1.0,1.0,33.1,33.6,33.6,3.8,3.2,2.505,0.8848038475969231,-0.004647940033178266,0.4535744442080204,0.00396513510022746,-0.04976,-44.279927
11.185,2.0,1.0,1.0,33.1,33.6,33.6,3.8,3.2,2.5075,0.8819406627066365,-0.004742294931267276,0.45901409870781007,0.003984087189883829,-0.050175,-44.160952
11.185,2.0,1.0,1.0,33.1,33.6,33.6,3.8,3.2,2.51,0.879032843689416,-0.0048382469715494885,0.464455239005927,0.0040026236200877,-0.050596,-44.041773
11.185,2.0,1.0,1.0,33.1,33.6,33.6,3.8,3.2,2.5125,0.8760799841705493,-0.00493582630333754,0.46989770843357015,0.004020727279787212,-0.051024,-43.922381
11.185,2.0,1.0,1.0,33.1,33.6,33.6,3.8,3.2,2.515,0.8730816712767684,-0.005035063821349435,0.475341345672233,0.004038380462822649,-0.051459,-43.802767
11.185,2.0,1.0,1.0,33.1,33.6,33.6,3.8,3.2,2.5175,0.8700374855265234,-0.005135991188451169,0.480785984601048,0.004055564844672379,-0.051901,-43.682924
11.185,2.0,1.0,1.0,33.1,33.6,33.6,3.8,3.2,2.52,0.8669470007184078,-0.005238640859233428,0.4862314541392132,0.004072261458175464,-0.052351,-43.562841
11.185,2.0,1.0,1.0,33.1,33.6,33.6,3.8,3.2,2.5225,0.863809783817719,-0.005343046104457755,0.49167757808330687,0.004088450668180047,-0.052808,-43.442512
11.185,2.0,1.0,1.0,33.1,33.6,33.6,3.8,3.2,2.525,0.8606253948411118,-0.00544924103641086,0.49712417493932604,0.004104112145062027,-0.053272,-43.321926
11.185,2.0,1.0,1.0,33.1,33.6,33.6,3.8,3.2,2.5275,0.8573933867393222,-0.00555726063520739,0.5025710577492603,0.004119224837058559,-0.053745,-43.201075
11.185,2.0,1.0,1.0,33.1,33.6,33.6,3.8,3.2,2.53,0.854113305277932,-0.005667140776083036,0.5080180339119966,0.004133766941354109,-0.054225,-43.079951
11.185,2.0,1.0,1.0,33.1,33.6,33.6,3.8,3.2,2.5325,0.8507846889161417,-0.005778918257722809,0.5134649049983637,0.004147715873856121,-0.054713,-42.958543
11.185,2.0,1.0,1.0,33.1,33.6,33.6,3.8,3.2,2.535,0.8474070686835213,-0.005892630831671199,0.5189114665601036,0.004161048237591529,-0.05521,-42.836842
11.185,2.0,1.0,1.0,33.1,33.6,33.6,3.8,3.2,2.5375,0.8439799680547118,-0.006008317232872994,0.5243575079325434,0.0041737397896527955,-0.055715,-42.714841
11.185,2.0,1.0,1.0,33.1,33.6,33.6,3.8,3.2,2.54,0.8405029028220401,-0.006126017211397518,0.5298028120307519,0.004185765406617082,-0.056229,-42.592528
11.185,2.0,1.0,1.0,33.1,33.6,33.6,3.8,3.2,2.5425,0.8369753809660186,-0.006245771565400122,0.5352471551389338,0.004197099048357728,-0.056752,-42.469895
11.185,2.0,1.0,1.0,33.1,33.6,33.6,3.8,3.2,2.545,0.8333969025236966,-0.0063676221753788355,0.5406903066928236,0.004207713720162454,-0.057284,-42.346931
11.185,2.0,1.0,1.0,33.1,33.6,33.6,3.8,3.2,2.5475,0.8297669594548311,-0.006491612039786513,0.5461320290548075,0.004217581433067409,-0.057826,-42.223628
11.185,2.0,1.0,1.0,33.1,33.6,33.6,3.8,3.2,2.55,0.826085035505839,-0.006617785312063168,0.5515720772815277,0.004226673162310872,-0.058377,-42.099975
11.185,2.0,1.0,1.0,33.1,33.6,33.6,3.8,3.2,2.5525,0.8223506060715038,-0.00674618733915496,0.5570101988836595,0.004234958803804052,-0.058937,-41.975963
11.185,2.0,1.0,1.0,33.1,33.6,33.6,3.8,3.2,2.555,0.8185631380543955,-0.006876864701591818,0.562446133577597,0.004242407128510069,-0.059508,-41.851581
11.185,2.0,1.0,1.0,33.1,33.6,33.6,3.8,3.2,2.5575,0.8147220897219677,-0.007009865255198508,0.5678796130287298,0.004248985734616107,-0.060089,-41.726818
11.185,2.0,1.0,1.0,33.1,33.6,33.6,3.8,3.2,2.56,0.8108269105612992,-0.007145238174518309,0.5733103605859912,0.004254660997375339,-0.06068,-41.601666
11.185,2.0,1.0,1.0,33.1,33.6,33.6,3.8,3.2,2.5625,0.8068770411314411,-0.007283033998033557,0.5787380910073515,0.00425939801648833,-0.061282,-41.476112
11.185,2.0,1.0,1.0,33.1,33.6,33.6,3.8,3.2,2.565,0.8028719129133236,-0.0074233046752712325,0.584162510175911,0.00426316056088472,-0.061895,-41.350146
11.185,2.0,1.0,1.0,33.1,33.6,33.6,3.8,3.2,2.5675,0.7988109481571989,-0.007566103615887346,0.589583314806221,0.004265911010757003,-0.06252,-41.223758
11.185,2.0,1.0,1.0,33.1,33.6,33.6,3.8,3.2,2.57,0.7946935597275597,-0.007711485740829032,0.5950001921404648,0.004267610296689349,-0.063156,-41.096935
11.185,2.0,1.0,1.0,33.1,33.6,33.6,3.8,3.2,2.5725,0.7905191509455058,-0.007859507535679254,0.6004128196340986,0.004268217835712272,-0.063804,-40.969668
11.185,2.0,1.0,1.0,33.1,33.6,33.6,3.8,3.2,2.575,0.7862871154285048,-0.008010227106294891,0.6058208646305375,0.004267691464105279,-0.064464,-40.841944
11.185,2.0,1.0,1.0,33.1,33.6,33.6,3.8,3.2,2.5775,0.7819968369275091,-0.00816370423685535,0.6112239840244527,0.004265987366755281,-0.065136,-40.713752
11.185,2.0,1.0,1.0,33.1,33.6,33.6,3.8,3.2,2.58,0.7776476891613789,-0.008320000450446063,0.6166218239132226,0.004263060002867346,-0.065821,-40.58508
11.185,2.0,1.0,1.0,33.1,33.6,33.6,3.8,3.2,2.5825,0.773239035648558,-0.008479179072308763,0.6220140192360719,0.004258862027809677,-0.066519,-40.455916
11.185,2.0,1.0,1.0,33.1,33.6,33.6,3.8,3.2,2.585,0.7687702295359592,-0.008641305295897987,0.627400193400384,0.0042533442108602685,-0.067231,-40.326248
11.185,2.0,1.0,1.0,33.1,33.6,33.6,3.8,3.2,2.5875,0.7642406134249962,-0.008806446251891555,0.6327799578946792,0.004246455348605964,-0.067957,-40.196063
11.185,2.0,1.0,1.0,33.1,33.6,33.6,3.8,3.2,2.59,0.759649519194713,-0.008974671080312132,0.638152911887694,0.0042381421737281546,-0.068696,-40.065348
11.185,2.0,1.0,1.0,33.1,33.6,33.6,3.8,3.2,2.5925,0.7549962678219452,-0.00914605100592714,0.6435186418129963,0.004228349258890156,-0.069451,-39.934091
11.185,2.0,1.0,1.0,33.1,33.6,33.6,3.8,3.2,2.595,0.7502801691984573,-0.009320659417102169,0.6488767209385183,0.004217018915420866,-0.07022,-39.802278
11.185,2.0,1.0,1.0,33.1,33.6,33.6,3.8,3.2,2.5975,0.745500521944984,-0.009498571948298085,0.6542267089203792,0.004204091086468522,-0.071004,-39.669896
11.185,2.0,1.0,1.0,33.1,33.6,33.6,3.8,3.2,2.6,0.7406566132221016,-0.009679866566409297,0.65956815134032,0.004189503234273701,-0.071804,-39.536931
11.185,2.0,1.0,1.0,33.1,33.6,33.6,3.8,3.2,2.6025,0.7357477185378702,-0.009864623661156388,0.6649005792260437,0.00417319022118547,-0.072621,-39.403369
11.185,2.0,1.0,1.0,33.1,33.6,33.6,3.8,3.2,2.605,0.7307731015521451,-0.010052926139758805,0.6702235085537173,0.004155084184018224,-0.073454,-39.269196
11.185,2.0,1.0,1.0,33.1,33.6,33.6,3.8,3.2,2.6075,0.7257320138774906,-0.010244859526126956,0.6755364397318496,0.0041351144013149835,-0.074304,-39.134397
11.185,2.0,1.0,1.0,33.1,33.6,33.6,3.8,3.2,2.61,0.7206236948765957,-0.010440512064829412,0.6808388570657138,0.004113207153051834,-0.075172,-38.998957
11.185,2.0,1.0,1.0,33.1,33.6,33.6,3.8,3.2,2.6125,0.7154473714560966,-0.010639974830107453,0.6861302282014382,0.004089285572283196,-0.076057,-38.862861
11.185,2.0,1.0,1.0,33.1,33.6,33.6,3.8,3.2,2.615,0.7102022578566978,-0.010843341840226011,0.6914100035488472,0.00406326948818856,-0.076962,-38.726094
11.185,2.0,1.0,1.0,33.1,33.6,33.6,3.8,3.2,2.6175,0.7048875554394831,-0.011050710177469898,0.6966776156820609,0.004035075259940873,-0.077885,-38.588638
11.185,2.0,1.0,1.0,33.1,33.6,33.6,3.8,3.2,2.62,0.6995024524682921,-0.01126218011411446,0.701932478716827,0.004004615600771714,-0.078828,-38.450479
11.185,2.0,1.0,1.0,33.1,33.6,33.6,3.8,3.2,2.6225,0.6940461238880241,-0.011477855244721332,0.7071739876634838,0.0039717993915590125,-0.079792,-38.311598
11.185,2.0,1.0,1.0,33.1,33.6,33.6,3.8,3.2,2.625,0.688517731098742,-0.0116978426251335,0.712401517754383,0.00393653148321046,-0.080776,-38.17198
11.185,2.0,1.0,1.0,33.1,33.6,33.6,3.8,3.2,2.6275,0.6829164217253999,-0.01192225291856905,0.7176144237445465,0.0038987124870571628,-0.081782,-38.031607
11.185,2.0,1.0,1.0,33.1,33.6,33.6,3.8,3.2,2.63,0.6772413293830433,-0.0121512005492415,0.7228120391842365,0.003858238552410346,-0.082809,-37.890459
11.185,2.0,1.0,1.0,33.1,33.6,33.6,3.8,3.2,2.6325,0.6714915734372855,-0.012384803863959983,0.7279936756620409,0.0038150011303627316,-0.08386,-37.748521
11.185,2.0,1.0,1.0,33.1,33.6,33.6,3.8,3.2,2.635,0.6656662587598708,-0.01262318530219922,0.7331586220169931,0.0037688867228435163,-0.084934,-37.605771
11.185,2.0,1.0,1.0,33.1,33.6,33.6,3.8,3.2,2.6375,0.6597644754791026,-0.01286647157515655,0.738306143518126,0.0037197766158516485,-0.086033,-37.462191
11.185,2.0,1.0,1.0,33.1,33.6,33.6,3.8,3.2,2.64,0.6537852987248921,-0.013114793854356923,0.7434354810097926,0.0036675465957038095,-0.087156,-37.317762
11.185,2.0,1.0,1.0,33.1,33.6,33.6,3.8,3.2,2.6425,0.6477277883681808,-0.013368287970397288,0.7485458500209196,0.003612066647033532,-0.088306,-37.172462
11.185,2.0,1.0,1.0,33.1,33.6,33.6,3.8,3.2,2.645,0.641590988754442,-0.013627094622471575,0.753636439836285,0.0035532006311719887,-0.089482,-37.02627
11.185,2.0,1.0,1.0,33.1,33.6,33.6,3.8,3.2,2.6475,0.6353739284309623,-0.013891359599356971,0.7587064125277364,0.00349080594342133,-0.090685,-36.879166
11.185,2.0,1.0,1.0,33.1,33.6,33.6,3.8,3.2,2.65,0.6290756198675452,-0.014161234012594193,0.76375490194315,0.003424733147601849,-0.091917,-36.731127
11.185,2.0,1.0,1.0,33.1,33.6,33.6,3.8,3.2,2.6525,0.6226950591702933,-0.014436874542644145,0.7687810126507357,0.003354825586113861,-0.093178,-36.58213
11.185,2.0,1.0,1.0,33.1,33.6,33.6,3.8,3.2,2.655,0.6162312257880355,-0.014718443698863144,0.7737838188361517,0.0032809189635954255,-0.09447,-36.432152
11.185,2.0,1.0,1.0,33.1,33.6,33.6,3.8,3.2,2.6575,0.6096830822109682,-0.01500611009419528,0.7787623631496733,0.0032028409020874826,-0.095793,-36.281169
11.185,2.0,1.0,1.0,33.1,33.6,33.6,3.8,3.2,2.66,0.6030495736610184,-0.015300048735550194,0.7837156555004661,0.0031204104654268617,-0.097149,-36.129156
11.185,2.0,1.0,1.0,33.1,33.6,33.6,3.8,3.2,2.6625,0.5963296277733984,-0.015600441330902942,0.7886426717947654,0.003033437650379179,-0.098538,-35.976088
11.185,2.0,1.0,1.0,33.1,33.6,33.6,3.8,3.2,2.665,0.5895221542687503,-0.015907476614228006,0.7935423526145368,0.002941722841791532,-0.099962,-35.821937
11.185,2.0,1.0,1.0,33.1,33.6,33.6,3.8,3.2,2.6675,0.5826260446152599,-0.01622135068946431,0.7984136018328789,0.00284505622879193,-0.101422,-35.666678
11.185,2.0,1.0,1.0,33.1,33.6,33.6,3.8,3.2,2.67,0.5756401716800175,-0.016542267394792816,0.8032552851621567,0.002743217178777661,-0.102919,-35.510282
11.185,2.0,1.0,1.0,33.1,33.6,33.6,3.8,3.2,2.6725,0.5685633893688532,-0.01687043868860734,0.8080662286304924,0.0026359735656256837,-0.104455,-35.35272
11.185,2.0,1.0,1.0,33.1,33.6,33.6,3.8,3.2,2.675,0.5613945322538126,-0.01720608505865905,0.8128452169818786,0.0025230810482088127,-0.106031,-35.193962
11.185,2.0,1.0,1.0,33.1,33.6,33.6,3.8,3.2,2.6775,0.5541324151873305,-0.017549435955965902,0.81759099199476,0.0024042822949207703,-0.107648,-35.033979
11.185,2.0,1.0,1.0,33.1,33.6,33.6,3.8,3.2,2.68,0.5467758329020893,-0.01790073025520017,0.8223022507134837,0.0022793061494845554,-0.109309,-34.872738
11.185,2.0,1.0,1.0,33.1,33.6,33.6,3.8,3.2,2.6825,0.5393235595954542,-0.01826021674339045,0.8269776435864991,0.0021478667328451613,-0.111014,-34.710205
11.185,2.0,1.0,1.0,33.1,33.6,33.6,3.8,3.2,2.685,0.531774348497255,-0.018628154638917885,0.831615772504641,0.0020096624754215443,-0.112767,-34.546349
11.185,2.0,1.0,1.0,33.1,33.6,33.6,3.8,3.2,2.6875,0.524126931419582,-0.0190048141429298,0.836215188732202,0.00186437507340196,-0.114567,-34.381132
11.185,2.0,1.0,1.0,33.1,33.6,33.6,3.8,3.2,2.69,0.5163800182871446,-0.01939047702545528,0.8407743907227985,0.0017116683621128496,-0.116418,-34.21452
11.185,2.0,1.0,1.0,33.1,33.6,33.6,3.8,3.2,2.6925,0.5085322966465758,-0.019785437248679438,0.8452918218112853,0.0015511870987580064,-0.118321,-34.046474
11.185,2.0,1.0,1.0,33.1,33.6,33.6,3.8,3.2,2.695,0.5005824311529641,-0.020190001630010616,0.8497658677720785,0.0013825556460035481,-0.120279,-33.876956
11.185,2.0,1.0,1.0,33.1,33.6,33.6,3.8,3.2,2.6975,0.49252906303168187,-0.02060449054777762,0.8541948542333293,0.0012053765469679063,-0.122293,-33.705925
11.185,2.0,1.0,1.0,33.1,33.6,33.6,3.8,3.2,2.7,0.4843708095134588,-0.021029238692596246,0.8585770439352599,0.0010192289811444559,-0.124367,-33.533339
11.185,2.0,1.0,1.0,33.1,33.6,33.6,3.8,3.2,2.7025,0.4761062632404193,-0.021464595867670775,0.8629106338198228,0.0008236670896280837,-0.126502,-33.359155
11.185,2.0,1.0,1.0,33.1,33.6,33.6,3.8,3.2,2.705,0.4677339916406382,-0.02191092784153014,0.8671937519374361,0.0006182181567190773,-0.128702,-33.183329
11.185,2.0,1.0,1.0,33.1,33.6,33.6,3.8,3.2,2.7075,0.45925253626853607,-0.022368617256948723,0.8714244541550692,0.00040238063350781514,-0.130969,-33.005812
11.185,2.0,1.0,1.0,33.1,33.6,33.6,3.8,3.2,2.71,0.45066041210822294,-0.02283806460006525,0.8756007206482075,0.0001756219873995791,-0.133306,-32.826557
11.185,2.0,1.0,1.0,33.1,33.6,33.6,3.8,3.2,2.7125,0.44195610683664965,-0.02331968923398817,0.8797204521573048,-6.262364033304567e-05,-0.135717,-32.645514
11.185,2.0,1.0,1.0,33.1,33.6,33.6,3.8,3.2,2.715,0.43313808004318893,-0.023813930501463906,0.883781465987146,-0.0003129579889857428,-0.138204,-32.462628
11.185,2.0,1.0,1.0,33.1,33.6,33.6,3.8,3.2,2.7175,0.42420476240199745,-0.02432124890147963,0.8877814917250704,-0.0005760214672552092,-0.140772,-32.277847
11.185,2.0,1.0,1.0,33.1,33.6,33.6,3.8,3.2,2.72,0.41515455479325875,-0.024842127344977365,0.8917181666511963,-0.0008524962015847699,-0.143425,-32.091113
11.185,2.0,1.0,1.0,33.1,33.6,33.6,3.8,3.2,2.7225,0.4059858273691101,-0.025377072495158998,0.8955890308106309,-0.0011431093722204834,-0.146166,-31.902366
11.185,2.0,1.0,1.0,33.1,33.6,33.6,3.8,3.2,2.725,0.39669691855983097,-0.02592661619816586,0.899391521714002,-0.0014486368686769135,-0.148999,-31.711546
11.185,2.0,1.0,1.0,33.1,33.6,33.6,3.8,3.2,2.7275,0.38728613401555145,-0.0264913170102086,0.9031229686285628,-0.001769907300310053,-0.15193,-31.518587
11.185,2.0,1.0,1.0,33.1,33.6,33.6,3.8,3.2,2.73,0.3777517454785682,-0.027071761827490822,0.9067805864173958,-0.002107806402253785,-0.154964,-31.323421
11.185,2.0,1.0,1.0,33.1,33.6,33.6,3.8,3.2,2.7325,0.3680919895810811,-0.02766856762550881,0.9103614688788882,-0.0024632818821960305,-0.158105,-31.12598
11.185,2.0,1.0,1.0,33.1,33.6,33.6,3.8,3.2,2.735,0.35830506656305483,-0.028282383314493408,0.9138625815324877,-0.0028373487594506625,-0.16136,-30.926189
11.185,2.0,1.0,1.0,33.1,33.6,33.6,3.8,3.2,2.7375,0.3483891389047824,-0.02891389171786789,0.9172807537896942,-0.0032310952546456204,-0.164734,-30.723971
11.185,2.0,1.0,1.0,33.1,33.6,33.6,3.8,3.2,2.74,0.338342329868772,-0.02956381168060255,0.9206126704411299,-0.0036456892962429986,-0.168235,-30.519246
11.185,2.0,1.0,1.0,33.1,33.6,33.6,3.8,3.2,2.7425,0.3281627219456948,-0.030232900314207358,0.9238548623811816,-0.004082385719206772,-0.171869,-30.31193
11.185,2.0,1.0,1.0,33.1,33.6,33.6,3.8,3.2,2.745,0.3178483551994941,-0.030921955384772232,0.9270036964809211,-0.004542534241637842,-0.175644,-30.101935
11.185,2.0,1.0,1.0,33.1,33.6,33.6,3.8,3.2,2.7475,0.307397225507333,-0.03163181784987682,0.9300553645075407,-0.00502758831734843,-0.179568,-29.889168
11.185,2.0,1.0,1.0,33.1,33.6,33.6,3.8,3.2,2.75,0.296807282690968,-0.0323633745492626,0.933005870974083,-0.00553911497643825,-0.183651,-29.673531
11.185,2.0,1.0,1.0,33.1,33.6,33.6,3.8,3.2,2.7525,0.2860764285375188,-0.03311756105278487,0.9358510197864562,-0.006078805782298303,-0.187901,-29.454924
11.185,2.0,1.0,1.0,33.1,33.6,33.6,3.8,3.2,2.755,0.2752025147095171,-0.033895364667204164,0.9385863995351917,-0.006648489052520862,-0.192329,-29.233238
11.185,2.0,1.0,1.0,33.1,33.6,33.6,3.8,3.2,2.7575,0.2641833405467921,-0.03469782760065715,0.9412073672566243,-0.007250143513421277,-0.196947,-29.008362
11.185,2.0,1.0,1.0,33.1,33.6,33.6,3.8,3.2,2.76,0.2530166507664567,-0.03552605027994114,0.943709030461524,-0.00788591358386333,-0.201767,-28.780176
11.185,2.0,1.0,1.0,33.1,33.6,33.6,3.8,3.2,2.7625,0.24170013307213548,-0.03638119481075615,0.9460862271980269,-0.008558126514536845,-0.206802,-28.548556
11.185,2.0,1.0,1.0,33.1,33.6,33.6,3.8,3.2,2.765,0.23023141569020902,-0.03726448856439697,0.9483335038790448,-0.009269311644604747,-0.212066,-28.313369
11.185,2.0,1.0,1.0,33.1,33.6,33.6,3.8,3.2,2.7675,0.21860806485956075,-0.0381772278655867,0.9504450905612214,-0.010022222079754818,-0.217577,-28.074477
11.185,2.0,1.0,1.0,33.1,33.6,33.6,3.8,3.2,2.77,0.2068275823128246,-0.03912078174454404,0.9524148733115949,-0.010819859145388864,-0.22335,-27.831733
11.185,2.0,1.0,1.0,33.1,33.6,33.6,3.8,3.2,2.7725,0.19488740280228256,-0.040096595701165354,0.9542363632379379,-0.011665500027479748,-0.229406,-27.584981
11.185,2.0,1.0,1.0,33.1,33.6,33.6,3.8,3.2,2.775,0.18278489174337811,-0.041106195409287116,0.9559026616873632,-0.012562729083350887,-0.235766,-27.334058
11.185,2.0,1.0,1.0,33.1,33.6,33.6,3.8,3.2,2.7775,0.1705173430747851,-0.04215119026297359,0.9574064210329453,-0.013515473387523147,-0.242451,-27.078789
11.185,2.0,1.0,1.0,33.1,33.6,33.6,3.8,3.2,2.78,0.15808197746787434,-0.04323327663280102,0.9587398003670021,-0.014528043176562025,-0.249489,-26.81899
11.185,2.0,1.0,1.0,33.1,33.6,33.6,3.8,3.2,2.7825,0.14547594106283063,-0.0443542406557481,0.9598944152988994,-0.015605177974883339,-0.256907,-26.554466
11.185,2.0,1.0,1.0,33.1,33.6,33.6,3.8,3.2,2.785,0.13269630496658694,-0.04551596032438063,0.9608612809105801,-0.016752099324846233,-0.264737,-26.285007
11.185,2.0,1.0,1.0,33.1,33.6,33.6,3.8,3.2,2.7875,0.1197400658237417,-0.04672040656527517,0.9616307467493465,-0.01797457121419432,-0.273014,-26.010395
11.185,2.0,1.0,1.0,33.1,33.6,33.6,3.8,3.2,2.79,0.10660414787102283,-0.047969642897486287,0.9621924225283675,-0.019278969498215195,-0.281776,-25.730392
11.185,2.0,1.0,1.0,33.1,33.6,33.6,3.8,3.2,2.7925,0.09328540701652344,-0.04926582313182663,0.962535092953201,-0.02067236186046304,-0.291067,-25.444748
11.185,2.0,1.0,1.0,33.1,33.6,33.6,3.8,3.2,2.795,0.07978063765668154,-0.050611186400816105,0.9626466197876181,-0.02216260015394026,-0.300935,-25.153197
11.185,2.0,1.0,1.0,33.1,33.6,33.6,3.8,3.2,2.7975,0.06608658317068108,-0.05200804858391993,0.9625138289024798,-0.02375842732578348,-0.311435,-24.855452
11.185,2.0,1.0,1.0,33.1,33.6,33.6,3.8,3.2,2.8,0.05219995133158126,-0.053458788895059,0.9621223796026465,-0.025469601566966038,-0.322629,-24.551209
11.185,2.0,1.0,1.0,33.1,33.6,33.6,3.8,3.2,2.8025,0.03811743627123656,-0.054965830004739716,0.9614566129811597,-0.02730704086171866,-0.334585,-24.24014
11.185,2.0,1.0,1.0,33.1,33.6,33.6,3.8,3.2,2.805,0.023835749165534936,-0.0565316095441531,0.9604993753853023,-0.029282991760548584,-0.347385,-23.921895
11.185,2.0,1.0,1.0,33.1,33.6,33.6,3.8,3.2,2.8075,0.009351660514008573,-0.05815854013749178,0.9592318122690943,-0.03141122699174544,-0.361116,-23.596099
11.185,2.0,1.0,1.0,33.1,33.6,33.6,3.8,3.2,2.81,-0.005337942162808781,-0.05984895416871674,0.9576331267194382,-0.03370727749007344,-0.375882,-23.262349
11.185,2.0,1.0,1.0,33.1,33.6,33.6,3.8,3.2,2.8125,-0.0202359761058684,-0.0616050282232678,0.955680295740612,-0.0361887055946491,-0.391801,-22.920211
11.185,2.0,1.0,1.0,33.1,33.6,33.6,3.8,3.2,2.815,-0.035345057746591885,-0.06342868043327587,0.953347735920452,-0.038875427593092746,-0.409008,-22.569219
11.185,2.0,1.0,1.0,33.1,33.6,33.6,3.8,3.2,2.8175,-0.05066736059551806,-0.06532143162853335,0.9506069083326217,-0.04179009551277488,-0.42766,-22.20887
11.185,2.0,1.0,1.0,33.1,33.6,33.6,3.8,3.2,2.82,-0.06620442418847337,-0.06728421801908664,0.9474258504023159,-0.04495855013068764,-0.447941,-21.838623
11.185,2.0,1.0,1.0,33.1,33.6,33.6,3.8,3.2,2.8225,-0.08195689727372846,-0.06931713877666343,0.9437686199320956,-0.04841035963394583,-0.470061,-21.457894
11.185,2.0,1.0,1.0,33.1,33.6,33.6,3.8,3.2,2.825,-0.09792419233258644,-0.0714191158712301,0.9395946335238115,-0.05217946123636825,-0.494272,-21.066052
11.185,2.0,1.0,1.0,33.1,33.6,33.6,3.8,3.2,2.8275,-0.1141040200795268,-0.07358743518806785,0.93485787826128,-0.056304926319890515,-0.520867,-20.662417
