1,w,sub_t,h,l1,l2,l3,g1,g2,Freq,S11_re,S21_re,S11_img,S21_img,S11_dB,S21_dB
11.185,2.0,1.0,1.0,33.6,33.0,33.0,3.8,3.2,2.5,0.838844867097974,-0.00580192888947694,0.533247104597151,0.00391172154448243,-0.052373,-43.101236
11.185,2.0,1.0,1.0,33.6,33.0,33.0,3.8,3.2,2.5025,0.8352226461542914,-0.0059080472593910464,0.5388085128187192,0.0039160691600391515,-0.05282,-42.98945
11.185,2.0,1.0,1.0,33.6,33.0,33.0,3.8,3.2,2.505,0.8315480757455275,-0.0060157551365279515,0.544367526019136,0.003919598076064009,-0.053274,-42.877498
11.185,2.0,1.0,1.0,33.6,33.0,33.0,3.8,3.2,2.5075,0.8278206691705393,-0.006125076604768538,0.5499238716300295,0.003922281456727978,-0.053735,-42.765373
11.185,2.0,1.0,1.0,33.6,33.0,33.0,3.8,3.2,2.51,0.8240399329143564,-0.0062360361521222926,0.5554772693573203,0.003924091646725874,-0.054203,-42.65307
11.185,2.0,1.0,1.0,33.6,33.0,33.0,3.8,3.2,2.5125,0.8202053665718475,-0.006348658676798019,0.561027430949483,0.00392500014405949,-0.054679,-42.540583
11.185,2.0,1.0,1.0,33.6,33.0,33.0,3.8,3.2,2.515,0.8163164627718393,-0.006462969493284787,0.566574059959008,0.003924977571837451,-0.055162,-42.427906
11.185,2.0,1.0,1.0,33.6,33.0,33.0,3.8,3.2,2.5175,0.8123727071017818,-0.006578994338435913,0.5721168514968438,0.003923993649053642,-0.055653,-42.315033
11.185,2.0,1.0,1.0,33.6,33.0,33.0,3.8,3.2,2.52,0.8083735780330532,-0.006696759377548784,0.577655491979636,0.003922017160303848,-0.056152,-42.201958
11.185,2.0,1.0,1.0,33.6,33.0,33.0,3.8,3.2,2.5225,0.8043185468470206,-0.006816291210433529,0.583189658869518,0.0039190159243977386,-0.056659,-42.088674
11.185,2.0,1.0,1.0,33.6,33.0,33.0,3.8,3.2,2.525,0.8002070775619508,-0.00693761687746125,0.588719020406259,0.003914956761823324,-0.057174,-41.975176
11.185,2.0,1.0,1.0,33.6,33.0,33.0,3.8,3.2,2.5275,0.7960386268608982,-0.007060763865584203,0.594243235331533,0.003909805461017129,-0.057698,-41.861458
11.185,2.0,1.0,1.0,33.6,33.0,33.0,3.8,3.2,2.53,0.7918126440206912,-0.007185760114317325,0.5997619526050704,0.003903526743392084,-0.058229,-41.747513
11.185,2.0,1.0,1.0,33.6,33.0,33.0,3.8,3.2,2.5325,0.7875285708421496,-0.0073126340216712,0.6052748111124596,0.0038960842270740572,-0.05877,-41.633336
11.185,2.0,1.0,1.0,33.6,33.0,33.0,3.8,3.2,2.535,0.783185841581665,-0.007441414450025263,0.610781439364351,0.0038874403892934025,-0.05932,-41.518919
11.185,2.0,1.0,1.0,33.6,33.0,33.0,3.8,3.2,2.5375,0.778783882884303,-0.007572130731929199,0.6162814551868024,0.003877556527378187,-0.059878,-41.404258
11.185,2.0,1.0,1.0,33.6,33.0,33.0,3.8,3.2,2.54,0.774322113718572,-0.007704812675819828,0.6217744654025137,0.0038663927182910345,-0.060446,-41.289344
11.185,2.0,1.0,1.0,33.6,33.0,33.0,3.8,3.2,2.5425,0.7697999453130275,-0.007839490571639804,0.6272600655026772,0.0038539077766505006,-0.061023,-41.174173
11.185,2.0,1.0,1.0,33.6,33.0,33.0,3.8,3.2,2.545,0.7652167810948839,-0.007976195196342793,0.6327378393091715,0.0038400592111744072,-0.06161,-41.058737
11.185,2.0,1.0,1.0,33.6,33.0,33.0,3.8,3.2,2.5475,0.7605720166308225,-0.008114957819269504,0.6382073586268052,0.003824803179480314,-0.062207,-40.943031
11.185,2.0,1.0,1.0,33.6,33.0,33.0,3.8,3.2,2.55,0.7558650395701775,-0.008255810207378192,0.6436681828853383,0.003808094441174071,-0.062814,-40.827047
11.185,2.0,1.0,1.0,33.6,33.0,33.0,3.8,3.2,2.5525,0.7510952295907225,-0.008398784630309679,0.6491198587709541,0.0037898863091563833,-0.063431,-40.710779
11.185,2.0,1.0,1.0,33.6,33.0,33.0,3.8,3.2,2.555,0.7462619583472582,-0.008543913865269157,0.654561919846899,0.003770130599071775,-0.064059,-40.59422
11.185,2.0,1.0,1.0,33.6,33.0,33.0,3.8,3.2,2.5575,0.741364589423233,-0.008691231201702575,0.6599938861629618,0.0037487775768222085,-0.064697,-40.477364
11.185,2.0,1.0,1.0,33.6,33.0,33.0,3.8,3.2,2.56,0.7364024782856459,-0.008840770445745376,0.6654152638534658,0.0037257759040634428,-0.065346,-40.360204
11.185,2.0,1.0,1.0,33.6,33.0,33.0,3.8,3.2,2.5625,0.7313749722434728,-0.008992565924419913,0.6708255447234429,0.0037010725815994072,-0.066007,-40.242733
11.185,2.0,1.0,1.0,33.6,33.0,33.0,3.8,3.2,2.565,0.726281410409892,-0.009146652489555181,0.6762242058226504,0.003674612890583207,-0.066679,-40.124945
11.185,2.0,1.0,1.0,33.6,33.0,33.0,3.8,3.2,2.5675,0.721121123668592,-0.009303065521401659,0.681610709007069,0.003646340331432667,-0.067363,-40.006831
11.185,2.0,1.0,1.0,33.6,33.0,33.0,3.8,3.2,2.57,0.7158934346444518,-0.009461840931911852,0.6869845004875257,0.0036161965603606905,-0.068058,-39.888386
11.185,2.0,1.0,1.0,33.6,33.0,33.0,3.8,3.2,2.5725,0.7105976576789139,-0.009623015167654412,0.6923450103650737,0.0035841213234178355,-0.068766,-39.769602
11.185,2.0,1.0,1.0,33.6,33.0,33.0,3.8,3.2,2.575,0.7052330988103774,-0.009786625212329073,0.6976916521527432,0.0035500523879390383,-0.069487,-39.650472
11.185,2.0,1.0,1.0,33.6,33.0,33.0,3.8,3.2,2.5775,0.6997990557599564,-0.00995270858884538,0.7030238222832714,0.0035139254712801744,-0.07022,-39.530989
11.185,2.0,1.0,1.0,33.6,33.0,33.0,3.8,3.2,2.58,0.6942948179229789,-0.010121303360926948,0.7083408996024128,0.003475674166726846,-0.070967,-39.411145
11.185,2.0,1.0,1.0,33.6,33.0,33.0,3.8,3.2,2.5825,0.688719666366599,-0.010292448134200405,0.7136422448474199,0.003435229866448832,-0.071726,-39.290933
11.185,2.0,1.0,1.0,33.6,33.0,33.0,3.8,3.2,2.585,0.6830728738339394,-0.010466182056724596,0.7189272001102679,0.003392521681370149,-0.0725,-39.170346
11.185,2.0,1.0,1.0,33.6,33.0,33.0,3.8,3.2,2.5875,0.6773537047551821,-0.010642544818912967,0.7241950882851957,0.003347476357816653,-0.073287,-39.049375
11.185,2.0,1.0,1.0,33.6,33.0,33.0,3.8,3.2,2.59,0.6715614152660637,-0.010821576652798617,0.7294452125001136,0.0033000181907962296,-0.074089,-38.928014
11.185,2.0,1.0,1.0,33.6,33.0,33.0,3.8,3.2,2.5925,0.6656952532342415,-0.011003318330589436,0.73467685553143,0.0032500689337597696,-0.074906,-38.806254
11.185,2.0,1.0,1.0,33.6,33.0,33.0,3.8,3.2,2.595,0.6597544582940369,-0.011187811162453463,0.7398892792018215,0.003197547704683356,-0.075737,-38.684088
11.185,2.0,1.0,1.0,33.6,33.0,33.0,3.8,3.2,2.5975,0.6537382618900648,-0.01137509699347592,0.7450817237604792,0.003142370888302387,-0.076584,-38.561508
11.185,2.0,1.0,1.0,33.6,33.0,33.0,3.8,3.2,2.6,0.6476458873303089,-0.01156521819972005,0.7502534072453395,0.0030844520343221477,-0.077446,-38.438504
11.185,2.0,1.0,1.0,33.6,33.0,33.0,3.8,3.2,2.6025,0.6414765498492196,-0.011758217683322853,0.7554035248267894,0.003023701751418041,-0.078325,-38.315071
11.185,2.0,1.0,1.0,33.6,33.0,33.0,3.8,3.2,2.605,0.6352294566814338,-0.011954138866550001,0.7605312481323481,0.0029600275968296457,-0.07922,-38.191198
11.185,2.0,1.0,1.0,33.6,33.0,33.0,3.8,3.2,2.6075,0.6289038071467626,-0.012153025684730664,0.7656357245517906,0.002893333961341547,-0.080132,-38.066878
11.185,2.0,1.0,1.0,33.6,33.0,33.0,3.8,3.2,2.61,0.6224987927471136,-0.012354922577985863,0.7707160765221771,0.0028235219494349532,-0.081061,-37.942101
11.185,2.0,1.0,1.0,33.6,33.0,33.0,3.8,3.2,2.6125,0.6160135972760514,-0.012559874481658833,0.7757714007922409,0.0027504892543794945,-0.082008,-37.816861
11.185,2.0,1.0,1.0,33.6,33.0,33.0,3.8,3.2,2.615,0.6094473969417319,-0.012767926815350406,0.7808007676655752,0.0026741300280239827,-0.082974,-37.691146
11.185,2.0,1.0,1.0,33.6,33.0,33.0,3.8,3.2,2.6175,0.6027993605039936,-0.012979125470453438,0.7858032202220354,0.0025943347450313663,-0.083957,-37.56495
11.185,2.0,1.0,1.0,33.6,33.0,33.0,3.8,3.2,2.62,0.5960686494264165,-0.01319351679607507,0.7907777735167799,0.002510990061288484,-0.08496,-37.438262
11.185,2.0,1.0,1.0,33.6,33.0,33.0,3.8,3.2,2.6225,0.5892544180441992,-0.01341114758322759,0.7957234137563415,0.0024239786662061972,-0.085982,-37.311073
11.185,2.0,1.0,1.0,33.6,33.0,33.0,3.8,3.2,2.625,0.582355813748767,-0.013632065047158,0.800639097451114,0.0023331791286101,-0.087025,-37.183374
11.185,2.0,1.0,1.0,33.6,33.0,33.0,3.8,3.2,2.6275,0.575371977190033,-0.013856316807681485,0.8055237505436368,0.0022384657359043277,-0.088087,-37.055156
11.185,2.0,1.0,1.0,33.6,33.0,33.0,3.8,3.2,2.63,0.5683020424973187,-0.014083950867369834,0.8103762675120245,0.00213970832617282,-0.089171,-36.926409
11.185,2.0,1.0,1.0,33.6,33.0,33.0,3.8,3.2,2.6325,0.5611451375199584,-0.014315015587439438,0.8151955104478971,0.002036772112862592,-0.090277,-36.797122
11.185,2.0,1.0,1.0,33.6,33.0,33.0,3.8,3.2,2.635,0.5539003840886835,-0.014549559661169392,0.8199803081081345,0.0019295175016748047,-0.091404,-36.667286
11.185,2.0,1.0,1.0,33.6,33.0,33.0,3.8,3.2,2.6375,0.5465668982989303,-0.01478763208466919,0.8247294549397762,0.0018177998992631506,-0.092554,-36.536892
11.185,2.0,1.0,1.0,33.6,33.0,33.0,3.8,3.2,2.64,0.5391437908172547,-0.01502928212480449,0.8294417100773744,0.0017014695133203916,-0.093728,-36.405927
11.185,2.0,1.0,1.0,33.6,33.0,33.0,3.8,3.2,2.6425,0.5316301672121262,-0.01527455928407159,0.8341157963120777,0.0015803711436041792,-0.094925,-36.274383
11.185,2.0,1.0,1.0,33.6,33.0,33.0,3.8,3.2,2.645,0.5240251283104079,-0.015523513262199817,0.8387503990317335,0.0014543439634284354,-0.096147,-36.142247
11.185,2.0,1.0,1.0,33.6,33.0,33.0,3.8,3.2,2.6475,0.5163277705809055,-0.015776193914242696,0.8433441651312531,0.001323221291117487,-0.097394,-36.00951
11.185,2.0,1.0,1.0,33.6,33.0,33.0,3.8,3.2,2.65,0.5085371865464261,-0.016032651204903197,0.8478957018925024,0.001186830350886763,-0.098667,-35.87616
11.185,2.0,1.0,1.0,33.6,33.0,33.0,3.8,3.2,2.6525,0.5006524652258807,-0.016292935158816784,0.8524035758329215,0.0010449920225839688,-0.099967,-35.742185
11.185,2.0,1.0,1.0,33.6,33.0,33.0,3.8,3.2,2.655,0.4926726926079998,-0.016557095806497866,0.8568663115221088,0.0008975205796847228,-0.101293,-35.607574
11.185,2.0,1.0,1.0,33.6,33.0,33.0,3.8,3.2,2.6575,0.48459695215834153,-0.016825183125633362,0.8612823903655513,0.0007442234149009775,-0.102648,-35.472315
11.185,2.0,1.0,1.0,33.6,33.0,33.0,3.8,3.2,2.66,0.47642432536133117,-0.017097246977380683,0.8656502493546832,0.0005849007527176717,-0.104031,-35.336397
11.185,2.0,1.0,1.0,33.6,33.0,33.0,3.8,3.2,2.6625,0.4681538922991767,-0.017373337037303937,0.8699682797824301,0.00041934534812908573,-0.105445,-35.199806
11.185,2.0,1.0,1.0,33.6,33.0,33.0,3.8,3.2,2.665,0.45978473226955263,-0.01765350272055404,0.8742348259233896,0.00024734217079607916,-0.106888,-35.06253
11.185,2.0,1.0,1.0,33.6,33.0,33.0,3.8,3.2,2.6675,0.4513159244440932,-0.01793779310086574,0.878448183677757,6.866807379818962e-05,-0.108363,-34.924556
11.185,2.0,1.0,1.0,33.6,33.0,33.0,3.8,3.2,2.67,0.44274654856977924,-0.018226256822914556,0.8826065991781091,-0.00011690855390757512,-0.10987,-34.785872
11.185,2.0,1.0,1.0,33.6,33.0,33.0,3.8,3.2,2.6725,0.4340756857154291,-0.018518942007537818,0.8867082673581245,-0.0003096281522640176,-0.11141,-34.646463
11.185,2.0,1.0,1.0,33.6,33.0,33.0,3.8,3.2,2.675,0.4253024190656192,-0.01881589614928709,0.8907513304822935,-0.0005097403731384643,-0.112983,-34.506316
11.185,2.0,1.0,1.0,33.6,33.0,33.0,3.8,3.2,2.6775,0.4164258347644442,-0.019117166005734997,0.8947338766356528,-0.0007175044826763338,-0.114592,-34.365416
11.185,2.0,1.0,1.0,33.6,33.0,33.0,3.8,3.2,2.68,0.4074450228116627,-0.019422797477914644,0.8986539381725549,-0.0009331897841391683,-0.116237,-34.223751
11.185,2.0,1.0,1.0,33.6,33.0,33.0,3.8,3.2,2.6825,0.39835907801389864,-0.01973283548121636,0.9025094901234403,-0.0011570760624680903,-0.117919,-34.081303
11.185,2.0,1.0,1.0,33.6,33.0,33.0,3.8,3.2,2.685,0.3891671009936776,-0.020047323806015347,0.9062984485585721,-0.001389454051900379,-0.11964,-33.93806
11.185,2.0,1.0,1.0,33.6,33.0,33.0,3.8,3.2,2.6875,0.37986819925923,-0.020366304967237833,0.9100186689076355,-0.001630625928065984,-0.121399,-33.794004
11.185,2.0,1.0,1.0,33.6,33.0,33.0,3.8,3.2,2.69,0.37046148833814085,-0.02068982004201289,0.9136679442340757,-0.0018809058260939016,-0.1232,-33.649121
11.185,2.0,1.0,1.0,33.6,33.0,33.0,3.8,3.2,2.6925,0.36094609297804015,-0.02101790849447848,0.917244003463024,-0.002140620386373665,-0.125042,-33.503393
11.185,2.0,1.0,1.0,33.6,33.0,33.0,3.8,3.2,2.695,0.35132114841774564,-0.021350607986735014,0.9207445095615723,-0.0024101093297413147,-0.126927,-33.356805
11.185,2.0,1.0,1.0,33.6,33.0,33.0,3.8,3.2,2.6975,0.3415858017323649,-0.021687954174850595,0.9241670576701634,-0.0026897260639941324,-0.128856,-33.209339
11.185,2.0,1.0,1.0,33.6,33.0,33.0,3.8,3.2,2.7,0.3317392132561123,-0.022029980488723434,0.9275091731837535,-0.002979838323783623,-0.130831,-33.060977
11.185,2.0,1.0,1.0,33.6,33.0,33.0,3.8,3.2,2.7025,0.3217805580867163,-0.022376717894505606,0.9307683097813754,-0.003280828846099563,-0.132854,-32.911702
11.185,2.0,1.0,1.0,33.6,33.0,33.0,3.8,3.2,2.705,0.3117090276755519,-0.022728194638170603,0.9339418474026421,-0.0035930960837294262,-0.134926,-32.761495
11.185,2.0,1.0,1.0,33.6,33.0,33.0,3.8,3.2,2.7075,0.30152383150779066,-0.023084435968680532,0.937027090169656,-0.003917054959269812,-0.137047,-32.610336
11.185,2.0,1.0,1.0,33.6,33.0,33.0,3.8,3.2,2.71,0.29122419887712664,-0.023445463839066014,0.9400212642526955,-0.004253137662472918,-0.139221,-32.458207
11.185,2.0,1.0,1.0,33.6,33.0,33.0,3.8,3.2,2.7125,0.2808093807598408,-0.023811296583573102,0.9429215156779501,-0.004601794493941454,-0.141449,-32.305087
11.185,2.0,1.0,1.0,33.6,33.0,33.0,3.8,3.2,2.715,0.270278651793252,-0.024181948568857383,0.9457249080754581,-0.004963494758429594,-0.143732,-32.150955
11.185,2.0,1.0,1.0,33.6,33.0,33.0,3.8,3.2,2.7175,0.2596313123638455,-0.02455742981701112,0.9484284203652639,-0.005338727711285084,-0.146073,-31.995789
11.185,2.0,1.0,1.0,33.6,33.0,33.0,3.8,3.2,2.72,0.24886669081070115,-0.024937745597994065,0.9510289443796771,-0.005728003561862504,-0.148473,-31.839569
11.185,2.0,1.0,1.0,33.6,33.0,33.0,3.8,3.2,2.7225,0.23798414575010302,-0.025322895988799148,0.9535232824193245,-0.006131854538066223,-0.150934,-31.68227
11.185,2.0,1.0,1.0,33.6,33.0,33.0,3.8,3.2,2.725,0.22698306852762629,-0.02571287539641654,0.955908144740514,-0.006550836016542468,-0.153459,-31.52387
11.185,2.0,1.0,1.0,33.6,33.0,33.0,3.8,3.2,2.7275,0.2158628858042816,-0.026107672041364185,0.9581801469712015,-0.006985527723432693,-0.15605,-31.364344
11.185,2.0,1.0,1.0,33.6,33.0,33.0,3.8,3.2,2.73,0.20462306228377844,-0.026507267398217373,0.9603358074526002,-0.007436535011036109,-0.15871,-31.203667
11.185,2.0,1.0,1.0,33.6,33.0,33.0,3.8,3.2,2.7325,0.1932631035883269,-0.026911635589202874,0.9623715445031983,-0.00790449021620796,-0.161439,-31.041814
11.185,2.0,1.0,1.0,33.6,33.0,33.0,3.8,3.2,2.735,0.18178255929094234,-0.027320742726503026,0.964283673601627,-0.00839005410684441,-0.164243,-30.878758
11.185,2.0,1.0,1.0,33.6,33.0,33.0,3.8,3.2,2.7375,0.17018102611267422,-0.027734546198451344,0.9660684044844522,-0.008893917423388228,-0.167122,-30.71447
11.185,2.0,1.0,1.0,33.6,33.0,33.0,3.8,3.2,2.74,0.15845815129380203,-0.028152993894277684,0.967721838154559,-0.00941680252292789,-0.17008,-30.548924
11.185,2.0,1.0,1.0,33.6,33.0,33.0,3.8,3.2,2.7425,0.1466136361486292,-0.02857602336147066,0.9692399637953196,-0.009959465134171987,-0.17312,-30.382088
11.185,2.0,1.0,1.0,33.6,33.0,33.0,3.8,3.2,2.745,0.13464723981422652,-0.029003560889163095,0.9706186555852031,-0.010522696232360811,-0.176245,-30.213933
11.185,2.0,1.0,1.0,33.6,33.0,33.0,3.8,3.2,2.7475,0.12255878320424318,-0.02943552051019845,0.9718536694068887,-0.011107324044045724,-0.179459,-30.044427
11.185,2.0,1.0,1.0,33.6,33.0,33.0,3.8,3.2,2.75,0.110348153179748,-0.0298718029136913,0.972940639444237,-0.011714216192619,-0.182764,-29.873536
11.185,2.0,1.0,1.0,33.6,33.0,33.0,3.8,3.2,2.7525,0.09801530695004042,-0.030312294258938978,0.9738750746597093,-0.012344281996545367,-0.186165,-29.701228
11.185,2.0,1.0,1.0,33.6,33.0,33.0,3.8,3.2,2.755,0.08556027671744165,-0.03075686488045956,0.9746523551439286,-0.012998474933418087,-0.189666,-29.527465
11.185,2.0,1.0,1.0,33.6,33.0,33.0,3.8,3.2,2.7575,0.07298317458125242,-0.03120536787270445,0.9752677283280672,-0.01367779528427364,-0.19327,-29.352213
11.185,2.0,1.0,1.0,33.6,33.0,33.0,3.8,3.2,2.76,0.060284197717483466,-0.03165763754159502,0.9757163050486094,-0.014383292974047638,-0.196982,-29.175431
11.185,2.0,1.0,1.0,33.6,33.0,33.0,3.8,3.2,2.7625,0.04746363385243488,-0.03211348770844627,0.9759930554527284,-0.015116070625671992,-0.200807,-28.997082
11.185,2.0,1.0,1.0,33.6,33.0,33.0,3.8,3.2,2.765,0.03452186704999676,-0.03257270985002831,0.9760928047310578,-0.01587728684710961,-0.204749,-28.817122
11.185,2.0,1.0,1.0,33.6,33.0,33.0,3.8,3.2,2.7675,0.02145938383451001,-0.033035071056448526,0.9760102286629552,-0.016668159772622176,-0.208814,-28.63551
11.185,2.0,1.0,1.0,33.6,33.0,33.0,3.8,3.2,2.77,0.008276779673262622,-0.0335003117861704,0.9757398489574653,-0.017489970881801115,-0.213007,-28.452201
11.185,2.0,1.0,1.0,33.6,33.0,33.0,3.8,3.2,2.7725,-0.005025234154667605,-0.03396814339477204,0.9752760283710518,-0.01834406912237562,-0.217334,-28.267147
11.185,2.0,1.0,1.0,33.6,33.0,33.0,3.8,3.2,2.775,-0.018445823273591913,-0.03443824541094241,0.974612965580711,-0.019231875365594217,-0.221801,-28.080301
11.185,2.0,1.0,1.0,33.6,33.0,33.0,3.8,3.2,2.7775,-0.03198402247733919,-0.03491026252962451,0.9737446897883373,-0.02015488722607422,-0.226415,-27.891611
11.185,2.0,1.0,1.0,33.6,33.0,33.0,3.8,3.2,2.78,-0.04563872750936763,-0.035383801288106836,0.97266505502907,-0.021114684281491866,-0.231183,-27.701024
11.185,2.0,1.0,1.0,33.6,33.0,33.0,3.8,3.2,2.7825,-0.05940868631529064,-0.03585842638609672,0.9713677341528139,-0.022112933731352532,-0.236112,-27.508485
11.185,2.0,1.0,1.0,33.6,33.0,33.0,3.8,3.2,2.785,-0.0732924897210982,-0.03633365660532252,0.9698462124440917,-0.023151396538443964,-0.24121,-27.313935
11.185,2.0,1.0,1.0,33.6,33.0,33.0,3.8,3.2,2.7875,-0.08728856148413285,-0.03680896027783837,0.968093780840857,-0.02423193410142318,-0.246487,-27.117315
11.185,2.0,1.0,1.0,33.6,33.0,33.0,3.8,3.2,2.79,-0.10139514765690652,-0.03728375024482109,0.9661035287077103,-0.025356515512453718,-0.25195,-26.91856
11.185,2.0,1.0,1.0,33.6,33.0,33.0,3.8,3.2,2.7925,-0.11561030519546765,-0.037757378239057525,0.9638683361131632,-0.02652722545991409,-0.257611,-26.717604
11.185,2.0,1.0,1.0,33.6,33.0,33.0,3.8,3.2,2.795,-0.12993188973447892,-0.03822912861431353,0.9613808655539468,-0.027746272843057654,-0.263479,-26.514378
11.185,2.0,1.0,1.0,33.6,33.0,33.0,3.8,3.2,2.7975,-0.14435754243973498,-0.038698211333094985,0.9586335530619272,-0.029016000173186358,-0.269565,-26.308807
11.185,2.0,1.0,1.0,33.6,33.0,33.0,3.8,3.2,2.8,-0.15888467583569368,-0.03916375411064334,0.9556185986207173,-0.03033889384452757,-0.275883,-26.100815
11.185,2.0,1.0,1.0,33.6,33.0,33.0,3.8,3.2,2.8025,-0.17351045848992722,-0.0396247935969888,0.9523279558095359,-0.031717595367673074,-0.282445,-25.890322
11.185,2.0,1.0,1.0,33.6,33.0,33.0,3.8,3.2,2.805,-0.18823179841800156,-0.040080265460060646,0.9487533205810983,-0.033154913669272805,-0.289265,-25.677242
11.185,2.0,1.0,1.0,33.6,33.0,33.0,3.8,3.2,2.8075,-0.20304532505061038,-0.04052899321068883,0.9448861190681698,-0.03465383857383439,-0.296358,-25.461486
11.185,2.0,1.0,1.0,33.6,33.0,33.0,3.8,3.2,2.81,-0.2179473695790687,-0.0409696755841758,0.9407174942997159,-0.036217555597065784,-0.303742,-25.24296
11.185,2.0,1.0,1.0,33.6,33.0,33.0,3.8,3.2,2.8125,-0.232933943464736,-0.0414008722621692,0.936238291692239,-0.0378494621954049,-0.311435,-25.021565
11.185,2.0,1.0,1.0,33.6,33.0,33.0,3.8,3.2,2.815,-0.24800071486173114,-0.04182098768187798,0.9314390431646008,-0.039553185633346,-0.319455,-24.797196
11.185,2.0,1.0,1.0,33.6,33.0,33.0,3.8,3.2,2.8175,-0.26314298265903896,-0.042228252636051226,0.9263099497053436,-0.041332602649052995,-0.327824,-24.569744
11.185,2.0,1.0,1.0,33.6,33.0,33.0,3.8,3.2,2.82,-0.27835564779648486,-0.04262070331516611,0.9208408622000039,-0.04319186111971855,-0.336565,-24.33909
11.185,2.0,1.0,1.0,33.6,33.0,33.0,3.8,3.2,2.8225,-0.2936331814472378,-0.042996157381168805,0.9150212603020013,-0.04513540395127612,-0.345705,-24.105113
11.185,2.0,1.0,1.0,33.6,33.0,33.0,3.8,3.2,2.825,-0.3089695895852539,-0.043352186587727985,0.9088402291043197,-0.0471679954425383,-0.355269,-23.867681
11.185,2.0,1.0,1.0,33.6,33.0,33.0,3.8,3.2,2.8275,-0.32435837336679846,-0.04368608537261786,0.9022864333402663,-0.049294750401592036,-0.36529,-23.626658
