1,w,sub_t,h,l1,l2,l3,g1,g2,Freq,S11_re,S21_re,S11_img,S21_img,S11_dB,S21_dB
11.185,2.0,1.0,1.0,34.0,33.0,33.0,4.0,3.0,2.5,0.786251302709683,-0.00712260478351711,0.607580564842585,0.00388172724937779,-0.05531,-41.817787
11.185,2.0,1.0,1.0,34.0,33.0,33.0,4.0,3.0,2.5025,0.7818320664929431,-0.007245637044843135,0.6131647850396716,0.0038719029534475583,-0.055806,-41.707549
11.185,2.0,1.0,1.0,34.0,33.0,33.0,4.0,3.0,2.505,0.7773525625265145,-0.0073704076176939835,0.6187413103159789,0.0038608401751940536,-0.05631,-41.59712
11.185,2.0,1.0,1.0,34.0,33.0,33.0,4.0,3.0,2.5075,0.772812225258679,-0.0074969395795040595,0.6243097223000122,0.003848501153598995,-0.056822,-41.486495
11.185,2.0,1.0,1.0,34.0,33.0,33.0,4.0,3.0,2.51,0.7682104822231756,-0.007625256265831268,0.6298695910544706,0.003834847016308479,-0.057343,-41.37567
11.185,2.0,1.0,1.0,34.0,33.0,33.0,4.0,3.0,2.5125,0.7635467540097951,-0.0077553812681818175,0.6354204747467936,0.0038198377446397973,-0.057872,-41.264638
11.185,2.0,1.0,1.0,34.0,33.0,33.0,4.0,3.0,2.515,0.7588204542382316,-0.007887338431441675,0.6409619193107043,0.003803432137423695,-0.05841,-41.153394
11.185,2.0,1.0,1.0,34.0,33.0,33.0,4.0,3.0,2.5175,0.75403098953542,-0.008021151850889054,0.6464934580984947,0.0037855877736419742,-0.058956,-41.041933
11.185,2.0,1.0,1.0,34.0,33.0,33.0,4.0,3.0,2.52,0.7491777595165892,-0.008156845868761494,0.6520146115238421,0.0037662609738170795,-0.059512,-40.93025
11.185,2.0,1.0,1.0,34.0,33.0,33.0,4.0,3.0,2.5225,0.74426015677029,-0.008294445070348277,0.6575248866948843,0.003745406760111338,-0.060076,-40.818339
11.185,2.0,1.0,1.0,34.0,33.0,33.0,4.0,3.0,2.525,0.7392775668476442,-0.008433974279579272,0.6630237770373317,0.003722978815088444,-0.06065,-40.706194
11.185,2.0,1.0,1.0,34.0,33.0,33.0,4.0,3.0,2.5275,0.7342293682560919,-0.00857545855407794,0.6685107619073583,0.0036989294390912457,-0.061233,-40.593811
11.185,2.0,1.0,1.0,34.0,33.0,33.0,4.0,3.0,2.53,0.7291149324579268,-0.008718923179645371,0.6739853061940043,0.003673209506186237,-0.061826,-40.481183
11.185,2.0,1.0,1.0,34.0,33.0,33.0,4.0,3.0,2.5325,0.7239336238739167,-0.008864393664140009,0.6794468599108452,0.0036457684186238515,-0.062429,-40.368305
11.185,2.0,1.0,1.0,34.0,33.0,33.0,4.0,3.0,2.535,0.7186847998923191,-0.009011895730716224,0.6848948577766558,0.003616554059761915,-0.063042,-40.255172
11.185,2.0,1.0,1.0,34.0,33.0,33.0,4.0,3.0,2.5375,0.7133678108836363,-0.009161455310382165,0.6903287187847938,0.0035855127453974676,-0.063666,-40.141777
11.185,2.0,1.0,1.0,34.0,33.0,33.0,4.0,3.0,2.54,0.7079820002214396,-0.009313098533835744,0.6957478457610397,0.0035525891734495686,-0.064299,-40.028116
11.185,2.0,1.0,1.0,34.0,33.0,33.0,4.0,3.0,2.5425,0.702526704309638,-0.009466851722535103,0.7011516249096064,0.0035177263719348324,-0.064944,-39.914182
11.185,2.0,1.0,1.0,34.0,33.0,33.0,4.0,3.0,2.545,0.697001252616563,-0.009622741378957606,0.7065394253470426,0.0034808656451734287,-0.065599,-39.79997
11.185,2.0,1.0,1.0,34.0,33.0,33.0,4.0,3.0,2.5475,0.6914049677162832,-0.009780794175998394,0.7119105986237347,0.0034419465181628837,-0.066266,-39.685474
11.185,2.0,1.0,1.0,34.0,33.0,33.0,4.0,3.0,2.55,0.685737165337543,-0.009941036945457895,0.7172644782327301,0.0034009066790522216,-0.066944,-39.570688
11.185,2.0,1.0,1.0,34.0,33.0,33.0,4.0,3.0,2.5525,0.679997154420793,-0.010103496665563549,0.7226003791055702,0.00335768191964939,-0.067634,-39.455606
11.185,2.0,1.0,1.0,34.0,33.0,33.0,4.0,3.0,2.555,0.6741842371837463,-0.010268200447469218,0.7279175970948523,0.0033122060738886784,-0.068335,-39.340222
11.185,2.0,1.0,1.0,34.0,33.0,33.0,4.0,3.0,2.5575,0.6682977091959511,-0.010435175520671946,0.7332154084432128,0.0032644109541857197,-0.069049,-39.224531
11.185,2.0,1.0,1.0,34.0,33.0,33.0,4.0,3.0,2.56,0.662336859462886,-0.01060444921728254,0.7384930692384243,0.0032142262856017776,-0.069775,-39.108526
11.185,2.0,1.0,1.0,34.0,33.0,33.0,4.0,3.0,2.5625,0.6563009705201013,-0.01077604895508293,0.7437498148543067,0.003161579637737744,-0.070514,-38.992201
11.185,2.0,1.0,1.0,34.0,33.0,33.0,4.0,3.0,2.565,0.6501893185379495,-0.010950002219300205,0.7489848593771415,0.0031063963542738737,-0.071265,-38.875551
11.185,2.0,1.0,1.0,34.0,33.0,33.0,4.0,3.0,2.5675,0.6440011734375023,-0.011126336543021885,0.7541973950172742,0.0030485994800697473,-0.07203,-38.758568
11.185,2.0,1.0,1.0,34.0,33.0,33.0,4.0,3.0,2.57,0.6377357990182354,-0.011305079486174624,0.7593865915055981,0.0029881096857332485,-0.072809,-38.641247
11.185,2.0,1.0,1.0,34.0,33.0,33.0,4.0,3.0,2.5725,0.631392453098124,-0.011486258612983183,0.7645515954746026,0.0029248451895648978,-0.073601,-38.523581
11.185,2.0,1.0,1.0,34.0,33.0,33.0,4.0,3.0,2.575,0.624970387666806,-0.011669901467821849,0.7696915298236758,0.002858721676780672,-0.074407,-38.405565
11.185,2.0,1.0,1.0,34.0,33.0,33.0,4.0,3.0,2.5775,0.6184688490525037,-0.011856035549366437,0.7748054930683376,0.0027896522159108154,-0.075228,-38.287191
11.185,2.0,1.0,1.0,34.0,33.0,33.0,4.0,3.0,2.58,0.6118870781034267,-0.012044688282949122,0.7798925586730948,0.002717547172269364,-0.076064,-38.168453
11.185,2.0,1.0,1.0,34.0,33.0,33.0,4.0,3.0,2.5825,0.6052243103844037,-0.012235886991013481,0.784951774367609,0.0026423141183840103,-0.076914,-38.049345
11.185,2.0,1.0,1.0,34.0,33.0,33.0,4.0,3.0,2.585,0.5984797763895388,-0.012429658861561197,0.7899821614458518,0.002563857741271491,-0.07778,-37.929859
11.185,2.0,1.0,1.0,34.0,33.0,33.0,4.0,3.0,2.5875,0.5916527017717041,-0.012626030914476075,0.7949827140479504,0.002482079746439251,-0.078662,-37.80999
11.185,2.0,1.0,1.0,34.0,33.0,33.0,4.0,3.0,2.59,0.5847423075897422,-0.012825029965604386,0.7999523984244085,0.0023968787584875357,-0.07956,-37.68973
11.185,2.0,1.0,1.0,34.0,33.0,33.0,4.0,3.0,2.5925,0.5777478105742555,-0.013026682588464272,0.8048901521824016,0.0023081502181832403,-0.080474,-37.569073
11.185,2.0,1.0,1.0,34.0,33.0,33.0,4.0,3.0,2.595,0.5706684234129452,-0.013231015073449108,0.8097948835138429,0.002215786275868661,-0.081406,-37.448012
11.185,2.0,1.0,1.0,34.0,33.0,33.0,4.0,3.0,2.5975,0.5635033550564478,-0.013438053384383478,0.8146654704049344,0.002119675681064481,-0.082354,-37.326539
11.185,2.0,1.0,1.0,34.0,33.0,33.0,4.0,3.0,2.6,0.5562518110457065,-0.013647823112281094,0.8195007598269091,0.0020197036681174458,-0.083321,-37.204647
11.185,2.0,1.0,1.0,34.0,33.0,33.0,4.0,3.0,2.6025,0.548912993861942,-0.013860349426146418,0.8242995669076841,0.0019157518377402654,-0.084305,-37.08233
11.185,2.0,1.0,1.0,34.0,33.0,33.0,4.0,3.0,2.605,0.5414861033003173,-0.014075657020652816,0.8290606740841577,0.0018076980342808335,-0.085308,-36.95958
11.185,2.0,1.0,1.0,34.0,33.0,33.0,4.0,3.0,2.6075,0.5339703368684655,-0.014293770060520366,0.8337828302348851,0.0016954162185520527,-0.08633,-36.83639
11.185,2.0,1.0,1.0,34.0,33.0,33.0,4.0,3.0,2.61,0.5263648902110832,-0.014514712121406497,0.8384647497928829,0.0015787763360462907,-0.087371,-36.712751
11.185,2.0,1.0,1.0,34.0,33.0,33.0,4.0,3.0,2.6125,0.518668957561842,-0.014738506127112425,0.8431051118383208,0.0014576441803493135,-0.088432,-36.588657
11.185,2.0,1.0,1.0,34.0,33.0,33.0,4.0,3.0,2.615,0.510881732223923,-0.014965174282896872,0.8477025591708853,0.0013318812515593418,-0.089513,-36.4641
11.185,2.0,1.0,1.0,34.0,33.0,33.0,4.0,3.0,2.6175,0.5030024070805497,-0.015194738004676368,0.852255697361596,0.0012013446095098833,-0.090615,-36.339072
11.185,2.0,1.0,1.0,34.0,33.0,33.0,4.0,3.0,2.62,0.4950301751369251,-0.0154272178438794,0.8567630937838827,0.0010658867215824301,-0.091739,-36.213566
11.185,2.0,1.0,1.0,34.0,33.0,33.0,4.0,3.0,2.6225,0.4869642300950512,-0.015662633407708345,0.8612232766237616,0.000925355304886471,-0.092884,-36.087572
11.185,2.0,1.0,1.0,34.0,33.0,33.0,4.0,3.0,2.625,0.478803766962983,-0.0159010032745474,0.865634733868938,0.00077959316257264,-0.094052,-35.961083
11.185,2.0,1.0,1.0,34.0,33.0,33.0,4.0,3.0,2.6275,0.4705479827000917,-0.016142344904242253,0.8699959122767205,0.0006284380140332098,-0.095243,-35.83409
11.185,2.0,1.0,1.0,34.0,33.0,33.0,4.0,3.0,2.63,0.4621960769000199,-0.01638667454295841,0.8743052163206336,0.0004717223187305767,-0.096457,-35.706586
11.185,2.0,1.0,1.0,34.0,33.0,33.0,4.0,3.0,2.6325,0.45374725251304737,-0.016634007122309717,0.8785610071156481,0.00030927309338329176,-0.097695,-35.578561
11.185,2.0,1.0,1.0,34.0,33.0,33.0,4.0,3.0,2.635,0.44520071660966726,-0.016884356152429968,0.8827616013219773,0.00014091172222176402,-0.098958,-35.450007
11.185,2.0,1.0,1.0,34.0,33.0,33.0,4.0,3.0,2.6375,0.43655568118725024,-0.017137733608640297,0.8869052700274184,-3.354623998703222e-05,-0.100246,-35.320916
11.185,2.0,1.0,1.0,34.0,33.0,33.0,4.0,3.0,2.64,0.4278113640217133,-0.017394149811345783,0.890990237608253,-0.00021429127246361439,-0.10156,-35.191277
11.185,2.0,1.0,1.0,34.0,33.0,33.0,4.0,3.0,2.6425,0.41896698956623246,-0.017653613298771003,0.8950146805687526,-0.0004015201008251429,-0.102901,-35.061082
11.185,2.0,1.0,1.0,34.0,33.0,33.0,4.0,3.0,2.645,0.41002178989907806,-0.017916130692121918,0.8989767263593766,-0.0005954359177328939,-0.104269,-34.930321
11.185,2.0,1.0,1.0,34.0,33.0,33.0,4.0,3.0,2.6475,0.4009750057227486,-0.01818170655273508,0.902874452173787,-0.0007962486121535395,-0.105665,-34.798986
11.185,2.0,1.0,1.0,34.0,33.0,33.0,4.0,3.0,2.65,0.3918258874166418,-0.018450343230749917,0.9067058837248594,-0.0010041750076295608,-0.10709,-34.667065
11.185,2.0,1.0,1.0,34.0,33.0,33.0,4.0,3.0,2.6525,0.3825736961456278,-0.018722040704807975,0.910468993999894,-0.0012194391099786908,-0.108545,-34.534551
11.185,2.0,1.0,1.0,34.0,33.0,33.0,4.0,3.0,2.655,0.37321770502691226,-0.018996796412255525,0.9141617019953093,-0.0014422723648664672,-0.110029,-34.401431
11.185,2.0,1.0,1.0,34.0,33.0,33.0,4.0,3.0,2.6575,0.36375720035772185,-0.01927460506928993,0.917781871431128,-0.0016729139257243967,-0.111545,-34.267697
11.185,2.0,1.0,1.0,34.0,33.0,33.0,4.0,3.0,2.66,0.3541914829063994,-0.019555458480455996,0.9213273094456348,-0.0019116109325138931,-0.113093,-34.133337
11.185,2.0,1.0,1.0,34.0,33.0,33.0,4.0,3.0,2.6625,0.3445198692696199,-0.019839345336859045,0.9247957652706393,-0.0021586188018676575,-0.114673,-33.998341
11.185,2.0,1.0,1.0,34.0,33.0,33.0,4.0,3.0,2.665,0.33474169329848646,-0.02012625100242186,0.928184928887844,-0.0024142015291769843,-0.116287,-33.862698
11.185,2.0,1.0,1.0,34.0,33.0,33.0,4.0,3.0,2.6675,0.32485630759642675,-0.02041615728746572,0.9314924296668715,-0.0026786320032258174,-0.117935,-33.726397
11.185,2.0,1.0,1.0,34.0,33.0,33.0,4.0,3.0,2.67,0.3148630850918543,-0.020709042208850274,0.9347158349855895,-0.002952192334016555,-0.119619,-33.589427
11.185,2.0,1.0,1.0,34.0,33.0,33.0,4.0,3.0,2.6725,0.30476142068868606,-0.02100487973585396,0.9378526488334308,-0.0032351741944738784,-0.12134,-33.451775
11.185,2.0,1.0,1.0,34.0,33.0,33.0,4.0,3.0,2.675,0.2945507329979241,-0.02130363952091986,0.9409003103984819,-0.003527879176758722,-0.123098,-33.31343
11.185,2.0,1.0,1.0,34.0,33.0,33.0,4.0,3.0,2.6775,0.28423046615359127,-0.021605286614333905,0.9438561926391986,-0.00383061916397997,-0.124895,-33.174379
11.185,2.0,1.0,1.0,34.0,33.0,33.0,4.0,3.0,2.68,0.2738000917164411,-0.02190978116183389,0.9467176008416791,-0.004143716718140689,-0.126731,-33.034611
11.185,2.0,1.0,1.0,34.0,33.0,33.0,4.0,3.0,2.6825,0.26325911066897373,-0.022217078084078055,0.9494817711635118,-0.004467505485221608,-0.128608,-32.894112
11.185,2.0,1.0,1.0,34.0,33.0,33.0,4.0,3.0,2.685,0.25260705550539136,-0.022527126736824808,0.9521458691653009,-0.004802330618367744,-0.130528,-32.752869
11.185,2.0,1.0,1.0,34.0,33.0,33.0,4.0,3.0,2.6875,0.241843492420266,-0.02283987055059,0.954706988331058,-0.00514854922021613,-0.13249,-32.610869
11.185,2.0,1.0,1.0,34.0,33.0,33.0,4.0,3.0,2.69,0.23096802359981225,-0.02315524664845709,0.9571621485787408,-0.005506530805479977,-0.134497,-32.468098
11.185,2.0,1.0,1.0,34.0,33.0,33.0,4.0,3.0,2.6925,0.21998028961976,-0.023473185440616003,0.9595082947623085,-0.00587665778499395,-0.136549,-32.324542
11.185,2.0,1.0,1.0,34.0,33.0,33.0,4.0,3.0,2.695,0.20887997195400348,-0.023793610194095406,0.9617422951667512,-0.006259325972510999,-0.138649,-32.180185
11.185,2.0,1.0,1.0,34.0,33.0,33.0,4.0,3.0,2.6975,0.19766679559827444,-0.024116436576036383,0.963860939997655,-0.006654945115652621,-0.140797,-32.035014
11.185,2.0,1.0,1.0,34.0,33.0,33.0,4.0,3.0,2.7,0.18634053181328933,-0.024441572168721597,0.9658609398669407,-0.0070639394525178305,-0.142996,-31.889013
11.185,2.0,1.0,1.0,34.0,33.0,33.0,4.0,3.0,2.7025,0.174901000991915,-0.024768915954433132,0.9677389242765135,-0.007486748295584456,-0.145246,-31.742166
11.185,2.0,1.0,1.0,34.0,33.0,33.0,4.0,3.0,2.705,0.16334807565508902,-0.02509835776805156,0.969491440101648,-0.007923826644665363,-0.147549,-31.594457
11.185,2.0,1.0,1.0,34.0,33.0,33.0,4.0,3.0,2.7075,0.15168168358135753,-0.02542977771513787,0.9711149500760144,-0.00837564583083448,-0.149907,-31.445868
11.185,2.0,1.0,1.0,34.0,33.0,33.0,4.0,3.0,2.71,0.1399018110750868,-0.025763045553046128,0.9726058312803348,-0.008842694193392982,-0.152321,-31.296384
11.185,2.0,1.0,1.0,34.0,33.0,33.0,4.0,3.0,2.7125,0.12800850637855604,-0.026098020032405713,0.9739603736367283,-0.009325477792129146,-0.154794,-31.145985
11.185,2.0,1.0,1.0,34.0,33.0,33.0,4.0,3.0,2.715,0.11600188323334205,-0.02643454819607629,0.9751747784108764,-0.009824521157313922,-0.157328,-30.994654
11.185,2.0,1.0,1.0,34.0,33.0,33.0,4.0,3.0,2.7175,0.10388212459659953,-0.02677246463242246,0.9762451567241874,-0.010340368080092928,-0.159923,-30.842372
11.185,2.0,1.0,1.0,34.0,33.0,33.0,4.0,3.0,2.72,0.0916494865180556,-0.027111590679466883,0.97716752807819,-0.010873582446167875,-0.162583,-30.689119
11.185,2.0,1.0,1.0,34.0,33.0,33.0,4.0,3.0,2.7225,0.07930430218374775,-0.027451733576164275,0.9779378188934117,-0.01142474911592084,-0.165309,-30.534875
11.185,2.0,1.0,1.0,34.0,33.0,33.0,4.0,3.0,2.725,0.06684698613282952,-0.02779268555668325,0.9785518610650124,-0.011994474854418204,-0.168104,-30.379619
11.185,2.0,1.0,1.0,34.0,33.0,33.0,4.0,3.0,2.7275,0.05427803865396753,-0.028134222883192152,0.9790053905374317,-0.012583389315048297,-0.170969,-30.22333
11.185,2.0,1.0,1.0,34.0,33.0,33.0,4.0,3.0,2.73,0.0415980503682312,-0.02847610481220239,0.979294045900285,-0.013192146080888237,-0.173909,-30.065985
11.185,2.0,1.0,1.0,34.0,33.0,33.0,4.0,3.0,2.7325,0.02880770700563375,-0.02881807248903679,0.9794133670076637,-0.013821423768282373,-0.176924,-29.907561
11.185,2.0,1.0,1.0,34.0,33.0,33.0,4.0,3.0,2.735,0.015907794382903337,-0.029159847764438463,0.9793587936229291,-0.01447192719753149,-0.180018,-29.748034
11.185,2.0,1.0,1.0,34.0,33.0,33.0,4.0,3.0,2.7375,0.00289920359043194,-0.029501131926724277,0.9791256640909345,-0.015144388636061571,-0.183193,-29.587379
11.185,2.0,1.0,1.0,34.0,33.0,33.0,4.0,3.0,2.74,-0.010217063603158898,-0.029841604342196612,0.9787092140394423,-0.015839569119948417,-0.186453,-29.425571
11.185,2.0,1.0,1.0,34.0,33.0,33.0,4.0,3.0,2.7425,-0.023439889119914233,-0.030180920995754583,0.9781045751112868,-0.016558259860249964,-0.189801,-29.262582
11.185,2.0,1.0,1.0,34.0,33.0,33.0,4.0,3.0,2.745,-0.03676803270536296,-0.030518712922773934,0.977306773728532,-0.017301283741216495,-0.193239,-29.098385
11.185,2.0,1.0,1.0,34.0,33.0,33.0,4.0,3.0,2.7475,-0.050200125815061315,-0.03085458452234484,0.9763107298895525,-0.018069496918150435,-0.196772,-28.932952
11.185,2.0,1.0,1.0,34.0,33.0,33.0,4.0,3.0,2.75,-0.0637346652439143,-0.0311881117408499,0.975111255999508,-0.0188637905234482,-0.200403,-28.766251
11.185,2.0,1.0,1.0,34.0,33.0,33.0,4.0,3.0,2.7525,-0.07737000648642497,-0.031518840113613514,0.9737030557342125,-0.01968509249021054,-0.204135,-28.598251
11.185,2.0,1.0,1.0,34.0,33.0,33.0,4.0,3.0,2.755,-0.09110435681502992,-0.03184628265093765,0.9720807229367693,-0.020534369503742485,-0.207973,-28.428921
11.185,2.0,1.0,1.0,34.0,33.0,33.0,4.0,3.0,2.7575,-0.10493576806253693,-0.032169917553236414,0.9702387405456413,-0.02141262909231045,-0.211921,-28.258226
11.185,2.0,1.0,1.0,34.0,33.0,33.0,4.0,3.0,2.76,-0.11886212909328435,-0.03248918573815719,0.9681714795520034,-0.022320921869668383,-0.215984,-28.086131
11.185,2.0,1.0,1.0,34.0,33.0,33.0,4.0,3.0,2.7625,-0.13288115794615157,-0.032803488160508355,0.9658731979832371,-0.02326034394314912,-0.220166,-27.912598
11.185,2.0,1.0,1.0,34.0,33.0,33.0,4.0,3.0,2.765,-0.14699039363069763,-0.0331121829034534,0.9633380399083198,-0.024232039502524224,-0.224472,-27.737589
11.185,2.0,1.0,1.0,34.0,33.0,33.0,4.0,3.0,2.7675,-0.1611871875556252,-0.03341458201674217,0.9605600344595585,-0.025237203606406616,-0.228908,-27.561064
11.185,2.0,1.0,1.0,34.0,33.0,33.0,4.0,3.0,2.77,-0.1754686945663492,-0.03370994807467988,0.9575330948636329,-0.026277085184704008,-0.23348,-27.382981
11.185,2.0,1.0,1.0,34.0,33.0,33.0,4.0,3.0,2.7725,-0.18983186356557546,-0.0339974904230176,0.9542510174732035,-0.02735299027755476,-0.238192,-27.203295
11.185,2.0,1.0,1.0,34.0,33.0,33.0,4.0,3.0,2.775,-0.20427342768750495,-0.034276361079922636,0.9507074807884099,-0.028466285533310768,-0.243052,-27.021961
11.185,2.0,1.0,1.0,34.0,33.0,33.0,4.0,3.0,2.7775,-0.21878989399240276,-0.034545650251563954,0.9468960444553595,-0.029618401990488465,-0.248067,-26.838929
11.185,2.0,1.0,1.0,34.0,33.0,33.0,4.0,3.0,2.78,-0.23337753264376762,-0.03480438141753258,0.9428101482262028,-0.030810839171228725,-0.253244,-26.65415
11.185,2.0,1.0,1.0,34.0,33.0,33.0,4.0,3.0,2.7825,-0.24803236552499622,-0.03505150593519574,0.9384431108625767,-0.032045169516692645,-0.25859,-26.46757
11.185,2.0,1.0,1.0,34.0,33.0,33.0,4.0,3.0,2.785,-0.2627501542463431,-0.03528589710502195,0.9337881289609601,-0.03332304319802882,-0.264113,-26.279133
11.185,2.0,1.0,1.0,34.0,33.0,33.0,4.0,3.0,2.7875,-0.27752638748559383,-0.0355063436307491,0.9288382756749374,-0.03464619334007526,-0.269824,-26.088779
11.185,2.0,1.0,1.0,34.0,33.0,33.0,4.0,3.0,2.79,-0.292356267597469,-0.03571154239881766,0.9235864993052936,-0.03601644169887162,-0.27573,-25.896449
11.185,2.0,1.0,1.0,34.0,33.0,33.0,4.0,3.0,2.7925,-0.307234696416673,-0.035900090490523694,0.9180256217243866,-0.03743570483835504,-0.281843,-25.702076
11.185,2.0,1.0,1.0,34.0,33.0,33.0,4.0,3.0,2.795,-0.32215626016782994,-0.03607047632760118,0.9121483365961892,-0.03890600085635402,-0.288173,-25.505592
11.185,2.0,1.0,1.0,34.0,33.0,33.0,4.0,3.0,2.7975,-0.33711521338160216,-0.03622106983709952,0.9059472073478493,-0.04042945671518748,-0.294732,-25.306925
11.185,2.0,1.0,1.0,34.0,33.0,33.0,4.0,3.0,2.8,-0.35210546170006496,-0.03635011150409806,0.8994146648423903,-0.04200831623787401,-0.301533,-25.106
11.185,2.0,1.0,1.0,34.0,33.0,33.0,4.0,3.0,2.8025,-0.3671205434350968,-0.036455700160543725,0.8925430046954124,-0.04364494883715994,-0.308589,-24.902735
11.185,2.0,1.0,1.0,34.0,33.0,33.0,4.0,3.0,2.805,-0.3821536097207873,-0.03653577933475831,0.8853243841711804,-0.045341859051308386,-0.315915,-24.697046
11.185,2.0,1.0,1.0,34.0,33.0,33.0,4.0,3.0,2.8075,-0.39719740307397333,-0.03658812195828183,0.8777508185853532,-0.047101696967871615,-0.323527,-24.488843
11.185,2.0,1.0,1.0,34.0,33.0,33.0,4.0,3.0,2.81,-0.41224423414508826,-0.03661031319390299,0.8698141771328415,-0.048927269624442375,-0.331443,-24.278033
11.185,2.0,1.0,1.0,34.0,33.0,33.0,4.0,3.0,2.8125,-0.427285956403613,-0.0365997311100126,0.861506178049885,-0.0508215534836362,-0.339681,-24.064514
11.185,2.0,1.0,1.0,34.0,33.0,33.0,4.0,3.0,2.815,-0.4423139384574267,-0.036553524880632716,0.8528183830094802,-0.052787708088179536,-0.348261,-23.84818
11.185,2.0,1.0,1.0,34.0,33.0,33.0,4.0,3.0,2.8175,-0.4573190336516814,-0.03646859013620587,0.843742190638972,-0.0548290910108258,-0.357208,-23.62892
11.185,2.0,1.0,1.0,34.0,33.0,33.0,4.0,3.0,2.82,-0.47229154652881794,-0.03634154102573865,0.8342688290380965,-0.05694927422265491,-0.366543,-23.406613
11.185,2.0,1.0,1.0,34.0,33.0,33.0,4.0,3.0,2.8225,-0.4872211956547788,-0.036168678474066775,0.8243893471654455,-0.05915206201177161,-0.376296,-23.181133
11.185,2.0,1.0,1.0,34.0,33.0,33.0,4.0,3.0,2.825,-0.5020970722247468,-0.03594595402624854,0.8140946049516529,-0.06144151059198433,-0.386494,-22.952345
11.185,2.0,1.0,1.0,34.0,33.0,33.0,4.0,3.0,2.8275,-0.5169075937515767,-0.03566892856120399,0.8033752619894213,-0.06382194954696654,-0.39717,-22.720106
