1,w,sub_t,h,l1,l2,l3,g1,g2,Freq,S11_re,S21_re,S11_img,S21_img,S11_dB,S21_dB
11.185,2.0,1.0,1.0,34.8,34.7,34.7,4.0,1.8,2.5,0.644988312348018,-0.0161859015769508,0.752378844706234,0.00610788563664831,-0.078514,-35.239083
11.185,2.0,1.0,1.0,34.8,34.7,34.7,4.0,1.8,2.5025,0.6384821576133035,-0.016485181523923864,0.7577644237240988,0.006050059846742764,-0.079476,-35.109357
11.185,2.0,1.0,1.0,34.8,34.7,34.7,4.0,1.8,2.505,0.6318927278135413,-0.016790017643219687,0.7631224511761797,0.0059883657318148585,-0.080459,-34.978936
11.185,2.0,1.0,1.0,34.8,34.7,34.7,4.0,1.8,2.5075,0.6252192141058563,-0.017100536473213655,0.7684519298615949,0.005922654786218944,-0.081462,-34.847805
11.185,2.0,1.0,1.0,34.8,34.7,34.7,4.0,1.8,2.51,0.6184607999561208,-0.017416868389975887,0.7737518344932927,0.005852772287632231,-0.082488,-34.715947
11.185,2.0,1.0,1.0,34.8,34.7,34.7,4.0,1.8,2.5125,0.6116166611838516,-0.01773914776183551,0.7790211108472028,0.005778556987063482,-0.083536,-34.583345
11.185,2.0,1.0,1.0,34.8,34.7,34.7,4.0,1.8,2.515,0.6046859660127161,-0.018067513111912913,0.7842586748814759,0.005699840780207197,-0.084608,-34.449985
11.185,2.0,1.0,1.0,34.8,34.7,34.7,4.0,1.8,2.5175,0.5976678751267767,-0.018402107289112856,0.7894634118243572,0.005616448358805846,-0.085704,-34.315846
11.185,2.0,1.0,1.0,34.8,34.7,34.7,4.0,1.8,2.52,0.590561541732557,-0.01874307764810747,0.7946341752291656,0.005528196840569849,-0.086825,-34.180914
11.185,2.0,1.0,1.0,34.8,34.7,34.7,4.0,1.8,2.5225,0.5833661116270491,-0.01909057623887233,0.7997697859947005,0.00543489537608115,-0.087971,-34.045168
11.185,2.0,1.0,1.0,34.8,34.7,34.7,4.0,1.8,2.525,0.5760807232717062,-0.019444760006382122,0.8048690313493111,0.005336344730974232,-0.089144,-33.90859
11.185,2.0,1.0,1.0,34.8,34.7,34.7,4.0,1.8,2.5275,0.5687045078724914,-0.01980579100111308,0.809930663796715,0.005232336841539106,-0.090344,-33.771162
11.185,2.0,1.0,1.0,34.8,34.7,34.7,4.0,1.8,2.53,0.561236589466011,-0.02017383660104567,0.8149534000214771,0.005122654341729763,-0.091572,-33.632862
11.185,2.0,1.0,1.0,34.8,34.7,34.7,4.0,1.8,2.5325,0.5536760850117444,-0.020549069745911617,0.8199359197519434,0.005007070059383994,-0.092829,-33.493671
11.185,2.0,1.0,1.0,34.8,34.7,34.7,4.0,1.8,2.535,0.5460221044903394,-0.02093166918448209,0.8248768645782026,0.004885346479263692,-0.094117,-33.353567
11.185,2.0,1.0,1.0,34.8,34.7,34.7,4.0,1.8,2.5375,0.538273751007942,-0.02132181973575078,0.8297748367224705,0.004757235170310078,-0.095435,-33.212529
11.185,2.0,1.0,1.0,34.8,34.7,34.7,4.0,1.8,2.54,0.5304301209064569,-0.021719712564928256,0.8346283977590595,0.004622476174270455,-0.096786,-33.070534
11.185,2.0,1.0,1.0,34.8,34.7,34.7,4.0,1.8,2.5425,0.5224903038796219,-0.02212554547522994,0.8394360672808648,0.004480797352590788,-0.09817,-32.927558
11.185,2.0,1.0,1.0,34.8,34.7,34.7,4.0,1.8,2.545,0.5144533830947207,-0.022539523216510808,0.8441963215090184,0.004331913688177848,-0.099589,-32.783579
11.185,2.0,1.0,1.0,34.8,34.7,34.7,4.0,1.8,2.5475,0.5063184353197342,-0.022961857811876717,0.8489075918420533,0.004175526538316122,-0.101043,-32.63857
11.185,2.0,1.0,1.0,34.8,34.7,34.7,4.0,1.8,2.55,0.49808453105562456,-0.023392768903485607,0.8535682633406254,0.004011322834667999,-0.102535,-32.492507
11.185,2.0,1.0,1.0,34.8,34.7,34.7,4.0,1.8,2.5525,0.4897507346734626,-0.02383248411883732,0.8581766731434173,0.0038389742258945593,-0.104065,-32.345363
11.185,2.0,1.0,1.0,34.8,34.7,34.7,4.0,1.8,2.555,0.48131610455596385,-0.024281239458948303,0.8627311088094841,0.0036581361579963267,-0.105635,-32.197111
11.185,2.0,1.0,1.0,34.8,34.7,34.7,4.0,1.8,2.5575,0.47277969324297814,-0.02473927970990729,0.8672298065818255,0.00346844688699019,-0.107246,-32.047722
11.185,2.0,1.0,1.0,34.8,34.7,34.7,4.0,1.8,2.56,0.4641405475803832,-0.025206858879415962,0.8716709495664485,0.0032695264180006563,-0.1089,-31.897167
11.185,2.0,1.0,1.0,34.8,34.7,34.7,4.0,1.8,2.5625,0.4553977088717415,-0.025684240660035728,0.8760526658206355,0.0030609753642421213,-0.110598,-31.745416
11.185,2.0,1.0,1.0,34.8,34.7,34.7,4.0,1.8,2.565,0.4465502130319787,-0.026171698920985025,0.8803730263434859,0.0028423737187016785,-0.112343,-31.592436
11.185,2.0,1.0,1.0,34.8,34.7,34.7,4.0,1.8,2.5675,0.43759709074226144,-0.02666951823046234,0.8846300429610829,0.0026132795305864533,-0.114136,-31.438196
11.185,2.0,1.0,1.0,34.8,34.7,34.7,4.0,1.8,2.57,0.4285373676051148,-0.027177994410611736,0.8888216660978482,0.0023732274777639637,-0.115979,-31.282662
11.185,2.0,1.0,1.0,34.8,34.7,34.7,4.0,1.8,2.5725,0.4193700642987039,-0.02769743512739532,0.8929457824247515,0.0021217273254941797,-0.117874,-31.125798
11.185,2.0,1.0,1.0,34.8,34.7,34.7,4.0,1.8,2.575,0.41009419672908476,-0.02822816051779388,0.8970002123740288,0.0018582622607038377,-0.119824,-30.967569
11.185,2.0,1.0,1.0,34.8,34.7,34.7,4.0,1.8,2.5775,0.40070877617908135,-0.028770503856922494,0.9009827075089373,0.0015822870898840782,-0.12183,-30.807935
11.185,2.0,1.0,1.0,34.8,34.7,34.7,4.0,1.8,2.58,0.3912128094522985,-0.029324812267820764,0.9048909477357975,0.0012932262873736613,-0.123895,-30.646857
11.185,2.0,1.0,1.0,34.8,34.7,34.7,4.0,1.8,2.5825,0.38160529901061396,-0.029891447476858474,0.9087225383441457,0.0009904718793099629,-0.126022,-30.484295
11.185,2.0,1.0,1.0,34.8,34.7,34.7,4.0,1.8,2.585,0.3718852431033503,-0.030470786617883234,0.9124750068591798,0.000673381146859704,-0.128214,-30.320206
11.185,2.0,1.0,1.0,34.8,34.7,34.7,4.0,1.8,2.5875,0.3620516358861208,-0.031063223088428946,0.9161457996888677,0.0003412741304584444,-0.130472,-30.154546
11.185,2.0,1.0,1.0,34.8,34.7,34.7,4.0,1.8,2.59,0.3521034675272108,-0.031669167461497685,0.9197322785459836,-6.569085337627991e-06,-0.132801,-29.987267
11.185,2.0,1.0,1.0,34.8,34.7,34.7,4.0,1.8,2.5925,0.3420397242991239,-0.032289048456621984,0.923231716623015,-0.00037091132919655313,-0.135203,-29.818322
11.185,2.0,1.0,1.0,34.8,34.7,34.7,4.0,1.8,2.595,0.3318593886528134,-0.03292331397410308,0.92664129449515,-0.0007525615680847237,-0.137682,-29.647661
11.185,2.0,1.0,1.0,34.8,34.7,34.7,4.0,1.8,2.5975,0.32156143927186176,-0.03357243219650368,0.9299580957235847,-0.0011523784287067137,-0.140242,-29.47523
11.185,2.0,1.0,1.0,34.8,34.7,34.7,4.0,1.8,2.6,0.3111448511037893,-0.034236892761635995,0.9331791021278404,-0.0015712740474663962,-0.142887,-29.300975
11.185,2.0,1.0,1.0,34.8,34.7,34.7,4.0,1.8,2.6025,0.30060859536550194,-0.034917208011425276,0.9363011886918772,-0.002010218285121225,-0.145621,-29.124839
11.185,2.0,1.0,1.0,34.8,34.7,34.7,4.0,1.8,2.605,0.2899516395197622,-0.03561391432113403,0.9393211180642376,-0.0024702433468802502,-0.148448,-28.946762
11.185,2.0,1.0,1.0,34.8,34.7,34.7,4.0,1.8,2.6075,0.2791729472195523,-0.036327573513481405,0.9422355346072603,-0.002952448853930273,-0.151374,-28.76668
11.185,2.0,1.0,1.0,34.8,34.7,34.7,4.0,1.8,2.61,0.2682714782171643,-0.037058774362173655,0.9450409579444911,-0.003458007418371479,-0.154403,-28.584529
11.185,2.0,1.0,1.0,34.8,34.7,34.7,4.0,1.8,2.6125,0.2572461882349652,-0.037808134189248464,0.9477337759485457,-0.00398817078041952,-0.157541,-28.400238
11.185,2.0,1.0,1.0,34.8,34.7,34.7,4.0,1.8,2.615,0.24609602879497589,-0.03857630056039444,0.9503102371038513,-0.004544276574637106,-0.160794,-28.213737
11.185,2.0,1.0,1.0,34.8,34.7,34.7,4.0,1.8,2.6175,0.2348199470048098,-0.0393639530819994,0.9527664421695846,-0.005127755801063882,-0.164169,-28.024949
11.185,2.0,1.0,1.0,34.8,34.7,34.7,4.0,1.8,2.62,0.22341688529805015,-0.040171805303056786,0.9550983350576873,-0.0057401410876200005,-0.167672,-27.833794
11.185,2.0,1.0,1.0,34.8,34.7,34.7,4.0,1.8,2.6225,0.21188578112802256,-0.04100060672415059,0.957301692828671,-0.006383075842310783,-0.171311,-27.64019
11.185,2.0,1.0,1.0,34.8,34.7,34.7,4.0,1.8,2.625,0.200225566615134,-0.0418511449144615,0.959372114693867,-0.00705832440783772,-0.175094,-27.444047
11.185,2.0,1.0,1.0,34.8,34.7,34.7,4.0,1.8,2.6275,0.1884351681495849,-0.042724247735990456,0.961305009896408,-0.007767783347577864,-0.179029,-27.245274
11.185,2.0,1.0,1.0,34.8,34.7,34.7,4.0,1.8,2.63,0.17651350595354628,-0.043620785671829976,0.9630955843241783,-0.008513494010921796,-0.183127,-27.043774
11.185,2.0,1.0,1.0,34.8,34.7,34.7,4.0,1.8,2.6325,0.16445949360993456,-0.04454167425216938,0.9647388256856936,-0.009297656548163792,-0.187397,-26.839442
11.185,2.0,1.0,1.0,34.8,34.7,34.7,4.0,1.8,2.635,0.15227203756892246,-0.04548787656755943,0.966229487053855,-0.010122645571096957,-0.191851,-26.632172
11.185,2.0,1.0,1.0,34.8,34.7,34.7,4.0,1.8,2.6375,0.13995003664865194,-0.04646040585350292,0.9675620685519685,-0.010991027685886454,-0.196501,-26.421848
11.185,2.0,1.0,1.0,34.8,34.7,34.7,4.0,1.8,2.64,0.12749238155353396,-0.04746032812330999,0.968730796920516,-0.01190558116054262,-0.20136,-26.208349
11.185,2.0,1.0,1.0,34.8,34.7,34.7,4.0,1.8,2.6425,0.11489795444266158,-0.04848876481687308,0.9697296026608586,-0.012869318031403329,-0.206442,-25.991548
11.185,2.0,1.0,1.0,34.8,34.7,34.7,4.0,1.8,2.645,0.10216562859261602,-0.04954689542096895,0.9705520944020644,-0.01388550900274452,-0.211764,-25.771309
11.185,2.0,1.0,1.0,34.8,34.7,34.7,4.0,1.8,2.6475,0.08929426821435997,-0.05063596000107014,0.9711915300778519,-0.014957711552473012,-0.217343,-25.547487
11.185,2.0,1.0,1.0,34.8,34.7,34.7,4.0,1.8,2.65,0.07628272850383129,-0.05175726156441302,0.9716407844303304,-0.016089801726691493,-0.223199,-25.319932
11.185,2.0,1.0,1.0,34.8,34.7,34.7,4.0,1.8,2.6525,0.06312985603178896,-0.05291216814784978,0.9718923122735329,-0.017286010189029095,-0.229352,-25.08848
11.185,2.0,1.0,1.0,34.8,34.7,34.7,4.0,1.8,2.655,0.0498344896119646,-0.05410211449005245,0.9719381068498216,-0.018550963189811177,-0.235825,-24.85296
11.185,2.0,1.0,1.0,34.8,34.7,34.7,4.0,1.8,2.6575,0.036395461830345074,-0.055328603103576596,0.9717696524926148,-0.019889729238806414,-0.242646,-24.613188
11.185,2.0,1.0,1.0,34.8,34.7,34.7,4.0,1.8,2.66,0.022811601475109293,-0.0565932045050847,0.9713778706653353,-0.021307872407689016,-0.249841,-24.368969
11.185,2.0,1.0,1.0,34.8,34.7,34.7,4.0,1.8,2.6625,0.009081737180696341,-0.05789755628759439,0.9707530582736891,-0.022811513359697336,-0.257445,-24.120095
11.185,2.0,1.0,1.0,34.8,34.7,34.7,4.0,1.8,2.665,-0.004795297303957763,-0.05924336062158321,0.9698848169397086,-0.02440739941072956,-0.265491,-23.866343
11.185,2.0,1.0,1.0,34.8,34.7,34.7,4.0,1.8,2.6675,-0.0188206556867329,-0.06063237964494409,0.9687619716736232,-0.02610298517629485,-0.27402,-23.607475
11.185,2.0,1.0,1.0,34.8,34.7,34.7,4.0,1.8,2.67,-0.032995468841161495,-0.06206642803555966,0.9673724770730655,-0.027906525662312182,-0.283076,-23.343238
11.185,2.0,1.0,1.0,34.8,34.7,34.7,4.0,1.8,2.6725,-0.0473208307328196,-0.0635473618416958,0.9657033088062451,-0.029827184027073385,-0.29271,-23.073356
11.185,2.0,1.0,1.0,34.8,34.7,34.7,4.0,1.8,2.675,-0.06179777935530794,-0.06507706235704658,0.9637403376806172,-0.03187515669218989,-0.302979,-22.797539
11.185,2.0,1.0,1.0,34.8,34.7,34.7,4.0,1.8,2.6775,-0.07642727108642393,-0.06665741344537883,0.9614681830420239,-0.03406181903118811,-0.313946,-22.51547
11.185,2.0,1.0,1.0,34.8,34.7,34.7,4.0,1.8,2.68,-0.09121014636736298,-0.06829027021192752,0.9588700415669564,-0.03639989553944514,-0.325685,-22.22681
11.185,2.0,1.0,1.0,34.8,34.7,34.7,4.0,1.8,2.6825,-0.10614708392946803,-0.06997741624054753,0.9559274866726245,-0.03890365921790149,-0.33828,-21.931194
11.185,2.0,1.0,1.0,34.8,34.7,34.7,4.0,1.8,2.685,-0.12123853988230647,-0.07172050570579519,0.9526202327388089,-0.04158916592196155,-0.351824,-21.628227
11.185,2.0,1.0,1.0,34.8,34.7,34.7,4.0,1.8,2.6875,-0.13648466674836146,-0.07352098544244655,0.9489258570665502,-0.044474530680861976,-0.366427,-21.317484
11.185,2.0,1.0,1.0,34.8,34.7,34.7,4.0,1.8,2.69,-0.15188520586390883,-0.07537999039258107,0.9448194709364932,-0.04758025453572453,-0.382217,-20.998502
11.185,2.0,1.0,1.0,34.8,34.7,34.7,4.0,1.8,2.6925,-0.16743934429500165,-0.07729820358529634,0.940273329208484,-0.050929612340891536,-0.399338,-20.670781
11.185,2.0,1.0,1.0,34.8,34.7,34.7,4.0,1.8,2.695,-0.18314552430442363,-0.07927566870036727,0.9352563655477133,-0.0545491142972119,-0.417961,-20.333779
11.185,2.0,1.0,1.0,34.8,34.7,34.7,4.0,1.8,2.6975,-0.1990011891132064,-0.08131153898922305,0.9297336374877363,-0.05846905681917317,-0.438286,-19.986905
11.185,2.0,1.0,1.0,34.8,34.7,34.7,4.0,1.8,2.7,-0.2150024427451564,-0.0834037403945002,0.9236656620631184,-0.06272418176080623,-0.460547,-19.629519
11.185,2.0,1.0,1.0,34.8,34.7,34.7,4.0,1.8,2.7025,-0.23114359343092752,-0.0855485184325965,0.9170076185975902,-0.06735446710099549,-0.48502,-19.260921
11.185,2.0,1.0,1.0,34.8,34.7,34.7,4.0,1.8,2.705,-0.24741653837271443,-0.08773982678296136,0.9097083904026614,-0.0724060769264195,-0.512036,-18.880349
11.185,2.0,1.0,1.0,34.8,34.7,34.7,4.0,1.8,2.7075,-0.26380993116954293,-0.08996849911070062,0.9017094117330667,-0.07793250383667845,-0.541989,-18.486974
11.185,2.0,1.0,1.0,34.8,34.7,34.7,4.0,1.8,2.71,-0.28030804973887113,-0.09222112231492326,0.8929432807171666,-0.08399594236423544,-0.575354,-18.079889
11.185,2.0,1.0,1.0,34.8,34.7,34.7,4.0,1.8,2.7125,-0.2968892490150344,-0.09447849604072327,0.8833320939876625,-0.09066893678581593,-0.612708,-17.658108
11.185,2.0,1.0,1.0,34.8,34.7,34.7,4.0,1.8,2.715,-0.31352383447442184,-0.09671351537433091,0.8727854561874178,-0.09803634898269664,-0.654755,-17.220556
11.185,2.0,1.0,1.0,34.8,34.7,34.7,4.0,1.8,2.7175,-0.3301711229384416,-0.09888824452814883,0.8611981210151745,-0.1061976881745664,-0.702362,-16.766069
11.185,2.0,1.0,1.0,34.8,34.7,34.7,4.0,1.8,2.72,-0.3467753564442664,-0.10094984942331997,0.8484472369429019,-0.11526982746256355,-0.756608,-16.293388
11.185,2.0,1.0,1.0,34.8,34.7,34.7,4.0,1.8,2.7225,-0.36325998946718163,-0.10282491276947087,0.8343892132947616,-0.1253900890684842,-0.818841,-15.801163
11.185,2.0,1.0,1.0,34.8,34.7,34.7,4.0,1.8,2.725,-0.37951966050370156,-0.10441144785849055,0.8188563155202762,-0.13671958651239755,-0.890765,-15.287964
11.185,2.0,1.0,1.0,34.8,34.7,34.7,4.0,1.8,2.7275,-0.3954088617842074,-0.10556763304054353,0.8016532875488043,-0.14944652256312074,-0.974553,-14.752303
11.185,2.0,1.0,1.0,34.8,34.7,34.7,4.0,1.8,2.73,-0.4107259094432058,-0.10609588213335226,0.782554667210935,-0.16378877388359955,-1.073003,-14.192677
11.185,2.0,1.0,1.0,34.8,34.7,34.7,4.0,1.8,2.7325,-0.42519027555635297,-0.10572033249707255,0.7613041584524762,-0.1799943971595524,-1.189746,-13.607649
11.185,2.0,1.0,1.0,34.8,34.7,34.7,4.0,1.8,2.735,-0.43841070708536783,-0.10405520752201287,0.7376187187356943,-0.1983374017580965,-1.329539,-12.995974
11.185,2.0,1.0,1.0,34.8,34.7,34.7,4.0,1.8,2.7375,-0.44984100827928125,-0.10056097862640233,0.7112023686467142,-0.219103797550482,-1.498651,-12.35682
11.185,2.0,1.0,1.0,34.8,34.7,34.7,4.0,1.8,2.74,-0.458720475755717,-0.09448538748239113,0.6817788595893141,-0.24255882512659774,-1.705374,-11.69012
11.185,2.0,1.0,1.0,34.8,34.7,34.7,4.0,1.8,2.7425,-0.46399824823665436,-0.08478868740864924,0.6491592225020306,-0.2688794463941866,-1.960637,-10.997133
11.185,2.0,1.0,1.0,34.8,34.7,34.7,4.0,1.8,2.745,-0.46424875409714483,-0.07006039468989282,0.6133706046923888,-0.2980259035332715,-2.278614,-10.281311
11.185,2.0,1.0,1.0,34.8,34.7,34.7,4.0,1.8,2.7475,-0.4576061577884522,-0.04845549985194293,0.5748851287430101,-0.32951403284577474,-2.676896,-9.54961
11.185,2.0,1.0,1.0,34.8,34.7,34.7,4.0,1.8,2.75,-0.441791010878772,-0.0177231280724818,0.534991831373531,-0.362046006289955,-3.174979,-8.81433
11.185,2.0,1.0,1.0,34.8,34.7,34.7,4.0,1.8,2.7525,-0.41438228602715593,0.024520134820161726,0.4963193425814715,-0.3929928533391688,-3.787764,-8.095433
11.185,2.0,1.0,1.0,34.8,34.7,34.7,4.0,1.8,2.755,-0.3735780662485917,0.08003147750020101,0.46337319792927295,-0.4178655353582505,-4.506591,-7.422815
11.185,2.0,1.0,1.0,34.8,34.7,34.7,4.0,1.8,2.7575,-0.3196459785359151,0.1485009963260849,0.44262644433834175,-0.43023412701223485,-5.256501,-6.837068
11.185,2.0,1.0,1.0,34.8,34.7,34.7,4.0,1.8,2.76,-0.2567704905797908,0.22572528659592703,0.44132765691221626,-0.42292320127080607,-5.83857,-6.386199
11.185,2.0,1.0,1.0,34.8,34.7,34.7,4.0,1.8,2.7625,-0.1939212596119996,0.3027653702526129,0.4644708871464219,-0.3910253211797007,-5.962985,-6.11601
11.185,2.0,1.0,1.0,34.8,34.7,34.7,4.0,1.8,2.765,-0.14279591552712118,0.36801243622410545,0.5111583705939804,-0.33549707310538696,-5.502539,-6.055633
11.185,2.0,1.0,1.0,34.8,34.7,34.7,4.0,1.8,2.7675,-0.11291557927450181,0.4120605590651537,0.573582192738167,-0.2641368131617358,-4.66296,-6.205818
11.185,2.0,1.0,1.0,34.8,34.7,34.7,4.0,1.8,2.77,-0.10746342039634865,0.43181227034427594,0.6403771478371078,-0.18823164093939287,-3.750672,-6.538564
11.185,2.0,1.0,1.0,34.8,34.7,34.7,4.0,1.8,2.7725,-0.12324056601427133,0.43048970958923377,0.701665350558744,-0.11755468657664894,-2.945447,-7.008404
11.185,2.0,1.0,1.0,34.8,34.7,34.7,4.0,1.8,2.775,-0.15383503653755587,0.4144751638891819,0.7518669966680321,-0.057598292462842364,-2.299074,-7.566959
11.185,2.0,1.0,1.0,34.8,34.7,34.7,4.0,1.8,2.7775,-0.19282551594813171,0.3901365580883986,0.7894686393639602,-0.009823149758310811,-1.80165,-8.172915
11.185,2.0,1.0,1.0,34.8,34.7,34.7,4.0,1.8,2.78,-0.23535548748919458,0.3622765133168097,0.815416677633674,0.026740086042424813,-1.424887,-8.7956
11.185,2.0,1.0,1.0,34.8,34.7,34.7,4.0,1.8,2.7825,-0.2783336417585987,0.33394202044360144,0.8316404310048074,0.05402573482453732,-1.140198,-9.414371
11.185,2.0,1.0,1.0,34.8,34.7,34.7,4.0,1.8,2.785,-0.32004178543786804,0.3068178396855322,0.8401798486697598,0.07407059999121918,-0.924119,-10.016376
11.185,2.0,1.0,1.0,34.8,34.7,34.7,4.0,1.8,2.7875,-0.35965972193284923,0.2816994519634515,0.8428105057010229,0.08864476198771205,-0.758838,-10.594214
11.185,2.0,1.0,1.0,34.8,34.7,34.7,4.0,1.8,2.79,-0.39689480900712365,0.2588607854759794,0.8409465876734816,0.09915732761745599,-0.631262,-11.144065
11.185,2.0,1.0,1.0,34.8,34.7,34.7,4.0,1.8,2.7925,-0.43173881423387983,0.23829514277703634,0.8356646685798772,0.10668124673853455,-0.531874,-11.664356
11.185,2.0,1.0,1.0,34.8,34.7,34.7,4.0,1.8,2.795,-0.4643225060861369,0.21985905517246151,0.8277655154575687,0.11201532892659329,-0.453759,-12.154866
11.185,2.0,1.0,1.0,34.8,34.7,34.7,4.0,1.8,2.7975,-0.49483392874736903,0.20335299444025856,0.8178382025921827,0.11574823518438945,-0.391869,-12.616151
11.185,2.0,1.0,1.0,34.8,34.7,34.7,4.0,1.8,2.8,-0.5234748885789084,0.18856424995122484,0.806314306281888,0.11831245155933896,-0.342487,-13.049185
11.185,2.0,1.0,1.0,34.8,34.7,34.7,4.0,1.8,2.8025,-0.5504392603569147,0.17528823025786106,0.7935099793125163,0.1200261444951819,-0.302853,-13.455131
11.185,2.0,1.0,1.0,34.8,34.7,34.7,4.0,1.8,2.805,-0.5759033063257363,0.16333790396100295,0.7796572965605172,0.1211243258045889,-0.270893,-13.835206
11.185,2.0,1.0,1.0,34.8,34.7,34.7,4.0,1.8,2.8075,-0.6000223768818408,0.15254695129221058,0.7649271344137322,0.12178159857796396,-0.245037,-14.190599
11.185,2.0,1.0,1.0,34.8,34.7,34.7,4.0,1.8,2.81,-0.62293084545065,0.14276973628977063,0.7494457151784999,0.1221286131664072,-0.224082,-14.522426
11.185,2.0,1.0,1.0,34.8,34.7,34.7,4.0,1.8,2.8125,-0.644743557125542,0.133879796638533,0.733306534285326,0.122263945975503,-0.207099,-14.831703
11.185,2.0,1.0,1.0,34.8,34.7,34.7,4.0,1.8,2.815,-0.6655578735341876,0.12576775411134816,0.7165789639769399,0.12226268975324023,-0.193365,-15.119333
11.185,2.0,1.0,1.0,34.8,34.7,34.7,4.0,1.8,2.8175,-0.6854558413734891,0.1183391088514959,0.6993144755195221,0.12218269361299702,-0.18231,-15.386102
11.185,2.0,1.0,1.0,34.8,34.7,34.7,4.0,1.8,2.82,-0.7045062551338307,0.11151214075220944,0.6815511543703603,0.12206912492605324,-0.173485,-15.632678
11.185,2.0,1.0,1.0,34.8,34.7,34.7,4.0,1.8,2.8225,-0.7227665149023345,0.10521601255372935,0.6633169873206866,0.12195783130711985,-0.16653,-15.85961
11.185,2.0,1.0,1.0,34.8,34.7,34.7,4.0,1.8,2.825,-0.7402842480983296,0.0993891021796493,0.644632260856041,0.12187784257814722,-0.16116,-16.067337
11.185,2.0,1.0,1.0,34.8,34.7,34.7,4.0,1.8,2.8275,-0.7570986977144483,0.09397755839770892,0.6255113109370413,0.12185325495793371,-0.157145,-16.256184
11.185,2.0,1.0,1.0,34.8,34.7,34.7,4.0,1.8,2.83,-0.7732418947978205,0.08893405858691426,0.6059637944055669,0.12190467116210886,-0.154299,-16.426367
