1,w,sub_t,h,l1,l2,l3,g1,g2,Freq,S11_re,S21_re,S11_img,S21_img,S11_dB,S21_dB
11.185,2.0,1.0,1.0,34.5,33.5,33.5,2.0,4.0,2.5,0.699744878250989,-0.0134714065596009,0.702339265631402,0.00603020929389617,-0.074804,-36.618579
11.185,2.0,1.0,1.0,34.5,33.5,33.5,2.0,4.0,2.5025,0.6938574518506082,-0.013708781661045243,0.7080251801746172,0.00598822328731487,-0.075623,-36.501603
11.185,2.0,1.0,1.0,34.5,33.5,33.5,2.0,4.0,2.505,0.687889706017889,-0.0139497528078004,0.7136923177215837,0.005943150236671261,-0.076458,-36.384296
11.185,2.0,1.0,1.0,34.5,33.5,33.5,2.0,4.0,2.5075,0.6818408192424963,-0.014194367348619369,0.7193398536702721,0.005894886415113326,-0.077308,-36.266654
11.185,2.0,1.0,1.0,34.5,33.5,33.5,2.0,4.0,2.51,0.6757099618820036,-0.014442672808369632,0.7249669393650657,0.005843324743953197,-0.078173,-36.148672
11.185,2.0,1.0,1.0,34.5,33.5,33.5,2.0,4.0,2.5125,0.6694962962648107,-0.014694716853682054,0.7305727013987512,0.00578835468139024,-0.079054,-36.030343
11.185,2.0,1.0,1.0,34.5,33.5,33.5,2.0,4.0,2.515,0.6631989768061866,-0.014950547255869194,0.7361562408953504,0.005729862107527582,-0.079952,-35.911664
11.185,2.0,1.0,1.0,34.5,33.5,33.5,2.0,4.0,2.5175,0.656817150138212,-0.015210211850946334,0.7417166327733259,0.005667729205565096,-0.080865,-35.792627
11.185,2.0,1.0,1.0,34.5,33.5,33.5,2.0,4.0,2.52,0.6503499552544022,-0.015473758496581218,0.7472529249887301,0.005601834339048585,-0.081796,-35.673229
11.185,2.0,1.0,1.0,34.5,33.5,33.5,2.0,4.0,2.5225,0.6437965236698745,-0.01574123502578612,0.7527641377578098,0.005532051925051909,-0.082744,-35.553462
11.185,2.0,1.0,1.0,34.5,33.5,33.5,2.0,4.0,2.525,0.6371559795979163,-0.016012689197158127,0.7582492627586368,0.005458252303166046,-0.08371,-35.433323
11.185,2.0,1.0,1.0,34.5,33.5,33.5,2.0,4.0,2.5275,0.6304274401438859,-0.016288168641460606,0.7637072623112869,0.005380301600165453,-0.084693,-35.312805
11.185,2.0,1.0,1.0,34.5,33.5,33.5,2.0,4.0,2.53,0.6236100155174191,-0.0165677208043278,0.7691370685361023,0.00529806159022003,-0.085696,-35.191902
11.185,2.0,1.0,1.0,34.5,33.5,33.5,2.0,4.0,2.5325,0.6167028092639484,-0.01685139288486275,0.7745375824895815,0.005211389550517357,-0.086716,-35.070609
11.185,2.0,1.0,1.0,34.5,33.5,33.5,2.0,4.0,2.535,0.6097049185165974,-0.017139231769885376,0.7799076732774293,0.0051201381121568175,-0.087757,-34.94892
11.185,2.0,1.0,1.0,34.5,33.5,33.5,2.0,4.0,2.5375,0.6026154342695748,-0.01743128396357363,0.7852461771442998,0.0050241551061753036,-0.088817,-34.826829
11.185,2.0,1.0,1.0,34.5,33.5,33.5,2.0,4.0,2.54,0.5954334416742273,-0.01772759551222735,0.7905518965397799,0.004923283404560081,-0.089897,-34.704332
11.185,2.0,1.0,1.0,34.5,33.5,33.5,2.0,4.0,2.5425,0.5881580203589767,-0.018028211923868456,0.7958235991601514,0.004817360756102838,-0.090997,-34.581421
11.185,2.0,1.0,1.0,34.5,33.5,33.5,2.0,4.0,2.545,0.580788244774421,-0.01833317808237546,0.8010600169654862,0.004706219616945309,-0.092119,-34.45809
11.185,2.0,1.0,1.0,34.5,33.5,33.5,2.0,4.0,2.5475,0.5733231845649549,-0.018642538155833242,0.8062598451716136,0.004589686975665183,-0.093263,-34.334335
11.185,2.0,1.0,1.0,34.5,33.5,33.5,2.0,4.0,2.55,0.5657619049682868,-0.018956335498762383,0.8114217412165498,0.004467584172747809,-0.094428,-34.210149
11.185,2.0,1.0,1.0,34.5,33.5,33.5,2.0,4.0,2.5525,0.558103467244362,-0.019274612547871606,0.8165443237009253,0.004339726714287606,-0.095616,-34.085526
11.185,2.0,1.0,1.0,34.5,33.5,33.5,2.0,4.0,2.555,0.5503469291351957,-0.019597410710959554,0.8216261713020242,0.004205924079760718,-0.096828,-33.960459
11.185,2.0,1.0,1.0,34.5,33.5,33.5,2.0,4.0,2.5575,0.542491345357244,-0.01992477024856991,0.826665821661018,0.004065979523707906,-0.098063,-33.834944
11.185,2.0,1.0,1.0,34.5,33.5,33.5,2.0,4.0,2.56,0.5345357681279997,-0.02025673014798201,0.8316617702430015,0.003919689871166525,-0.099322,-33.708973
11.185,2.0,1.0,1.0,34.5,33.5,33.5,2.0,4.0,2.5625,0.5264792477285684,-0.02059332798909697,0.8366124691694683,0.0037668453066874016,-0.100606,-33.58254
11.185,2.0,1.0,1.0,34.5,33.5,33.5,2.0,4.0,2.565,0.5183208331040629,-0.020934599801754213,0.8415163260228703,0.003607229156771825,-0.101916,-33.455639
11.185,2.0,1.0,1.0,34.5,33.5,33.5,2.0,4.0,2.5675,0.5100595725037615,-0.021280579913987716,0.8463717026229319,0.00344061766556395,-0.103252,-33.328265
11.185,2.0,1.0,1.0,34.5,33.5,33.5,2.0,4.0,2.57,0.5016945141630201,-0.021631300790704862,0.8511769137744157,0.0032667797636315174,-0.104614,-33.200409
11.185,2.0,1.0,1.0,34.5,33.5,33.5,2.0,4.0,2.5725,0.49322470702905313,-0.021986792862241936,0.8559302259860703,0.0030854768296694457,-0.106004,-33.072066
11.185,2.0,1.0,1.0,34.5,33.5,33.5,2.0,4.0,2.575,0.48464920153277746,-0.022347084342220176,0.8606298561605096,0.002896462444959881,-0.107422,-32.94323
11.185,2.0,1.0,1.0,34.5,33.5,33.5,2.0,4.0,2.5775,0.47596705040901216,-0.022712201034095176,0.8652739702548218,0.0026994821404245353,-0.108869,-32.813893
11.185,2.0,1.0,1.0,34.5,33.5,33.5,2.0,4.0,2.58,0.4671773095674367,-0.02308216612575822,0.869860681911733,0.0024942731361045716,-0.110345,-32.68405
11.185,2.0,1.0,1.0,34.5,33.5,33.5,2.0,4.0,2.5825,0.458279039016789,-0.02345699997151453,0.8743880510612079,0.0022805640729066795,-0.111851,-32.553692
11.185,2.0,1.0,1.0,34.5,33.5,33.5,2.0,4.0,2.585,0.44927130384493474,-0.023836719860724748,0.8788540824924013,0.002058074736456243,-0.113389,-32.422815
11.185,2.0,1.0,1.0,34.5,33.5,33.5,2.0,4.0,2.5875,0.44015317525750247,-0.024221339772358297,0.8832567243959415,0.0018265157729008454,-0.114958,-32.29141
11.185,2.0,1.0,1.0,34.5,33.5,33.5,2.0,4.0,2.59,0.4309237316779461,-0.024610870114665145,0.8875938668765679,0.0015855883965126937,-0.11656,-32.159471
11.185,2.0,1.0,1.0,34.5,33.5,33.5,2.0,4.0,2.5925,0.42158205991196923,-0.025005317449130423,0.8918633404362238,0.0013349840889419658,-0.118195,-32.026992
11.185,2.0,1.0,1.0,34.5,33.5,33.5,2.0,4.0,2.595,0.4121272563794141,-0.025404684197828886,0.8960629144277522,0.001074384289980375,-0.119864,-31.893964
11.185,2.0,1.0,1.0,34.5,33.5,33.5,2.0,4.0,2.5975,0.4025584284168073,-0.02580896833325039,0.9001902954794455,0.0008034600796989994,-0.121569,-31.76038
11.185,2.0,1.0,1.0,34.5,33.5,33.5,2.0,4.0,2.6,0.39287469565390903,-0.026218163049615096,0.904243125890747,0.0005218718518341179,-0.12331,-31.626234
11.185,2.0,1.0,1.0,34.5,33.5,33.5,2.0,4.0,2.6025,0.38307519146776203,-0.026632256414643965,0.9082189819995102,0.00022926897830269255,-0.125088,-31.491519
11.185,2.0,1.0,1.0,34.5,33.5,33.5,2.0,4.0,2.605,0.3731590645178369,-0.027051231000694717,0.9121153725213155,-7.47105352608706e-05,-0.126904,-31.356226
11.185,2.0,1.0,1.0,34.5,33.5,33.5,2.0,4.0,2.6075,0.36312548036606024,-0.027475063494112977,0.9159297368614284,-0.0003904404030422516,-0.128759,-31.220349
11.185,2.0,1.0,1.0,34.5,33.5,33.5,2.0,4.0,2.61,0.3529736231856412,-0.027903724281586016,0.9196594434001133,-0.0007183064217428307,-0.130654,-31.08388
11.185,2.0,1.0,1.0,34.5,33.5,33.5,2.0,4.0,2.6125,0.3427026975627651,-0.028337177012220573,0.9233017877521196,-0.0010587068425018,-0.13259,-30.94681
11.185,2.0,1.0,1.0,34.5,33.5,33.5,2.0,4.0,2.615,0.33231193039538315,-0.02877537813399718,0.9268539910012973,-0.0014120527520967599,-0.134569,-30.809134
11.185,2.0,1.0,1.0,34.5,33.5,33.5,2.0,4.0,2.6175,0.3218005728935087,-0.029218276403178173,0.9303131979114191,-0.0017787684634566726,-0.136591,-30.670842
11.185,2.0,1.0,1.0,34.5,33.5,33.5,2.0,4.0,2.62,0.3111679026855722,-0.029665812365170914,0.9336764751144471,-0.00215929191550051,-0.138657,-30.531927
11.185,2.0,1.0,1.0,34.5,33.5,33.5,2.0,4.0,2.6225,0.30041322603556697,-0.03011791780526548,0.9369408092776369,-0.002554075082292708,-0.14077,-30.392381
11.185,2.0,1.0,1.0,34.5,33.5,33.5,2.0,4.0,2.625,0.289535880175926,-0.0305745151675781,0.940103105251029,-0.00296358439148061,-0.14293,-30.252195
11.185,2.0,1.0,1.0,34.5,33.5,33.5,2.0,4.0,2.6275,0.27853523576118844,-0.03103551694044354,0.9431601841970751,-0.003388301151953444,-0.145138,-30.111362
11.185,2.0,1.0,1.0,34.5,33.5,33.5,2.0,4.0,2.63,0.26741069944776047,-0.03150082500640018,0.9461087817043282,-0.003828721990630265,-0.147396,-29.969873
11.185,2.0,1.0,1.0,34.5,33.5,33.5,2.0,4.0,2.6325,0.2561617166052328,-0.03197032995481175,0.9489455458873327,-0.004285359298252327,-0.149705,-29.82772
11.185,2.0,1.0,1.0,34.5,33.5,33.5,2.0,4.0,2.635,0.24478777416491235,-0.03244391035506148,0.9516670354750723,-0.004758741684018561,-0.152067,-29.684894
11.185,2.0,1.0,1.0,34.5,33.5,33.5,2.0,4.0,2.6375,0.23328840361144682,-0.032921431988140334,0.9542697178905702,-0.005249414438862703,-0.154483,-29.541386
11.185,2.0,1.0,1.0,34.5,33.5,33.5,2.0,4.0,2.64,0.2216631841235707,-0.033402747034331826,0.956749967324477,-0.005757940007128835,-0.156955,-29.397188
11.185,2.0,1.0,1.0,34.5,33.5,33.5,2.0,4.0,2.6425,0.20991174587027012,-0.03388769321456705,0.9591040628057609,-0.006284898466352266,-0.159484,-29.25229
11.185,2.0,1.0,1.0,34.5,33.5,33.5,2.0,4.0,2.645,0.19803377346882195,-0.03437609288288998,0.9613281862728771,-0.006830888014802899,-0.162072,-29.106684
11.185,2.0,1.0,1.0,34.5,33.5,33.5,2.0,4.0,2.6475,0.18602900961140578,-0.034867752067329234,0.9634184206491125,-0.007396525466391246,-0.164721,-28.96036
11.185,2.0,1.0,1.0,34.5,33.5,33.5,2.0,4.0,2.65,0.17389725886716,-0.03536245945632217,0.9653707479261098,-0.007982446752477607,-0.167433,-28.813309
11.185,2.0,1.0,1.0,34.5,33.5,33.5,2.0,4.0,2.6525,0.16163839166684713,-0.03585998532767425,0.9671810472599012,-0.008589307430054602,-0.170208,-28.665522
11.185,2.0,1.0,1.0,34.5,33.5,33.5,2.0,4.0,2.655,0.14925234847741473,-0.03636008041686853,0.9688450930841636,-0.009217783195707275,-0.17305,-28.516988
11.185,2.0,1.0,1.0,34.5,33.5,33.5,2.0,4.0,2.6575,0.13673914417404567,-0.03686247472135663,0.970358553245756,-0.009868570404671312,-0.175961,-28.367698
11.185,2.0,1.0,1.0,34.5,33.5,33.5,2.0,4.0,2.66,0.12409887261746304,-0.03736687623727036,0.9717169871680182,-0.010542386594228497,-0.178942,-28.217642
11.185,2.0,1.0,1.0,34.5,33.5,33.5,2.0,4.0,2.6625,0.11133171144451996,-0.03787296962478693,0.972915844047711,-0.011239971010585045,-0.181995,-28.066809
11.185,2.0,1.0,1.0,34.5,33.5,33.5,2.0,4.0,2.665,0.09843792708029088,-0.03838041479816329,0.9739504610919443,-0.011962085138281056,-0.185123,-27.915189
11.185,2.0,1.0,1.0,34.5,33.5,33.5,2.0,4.0,2.6675,0.08541787998016354,-0.03888884543621849,0.9748160618018795,-0.012709513231068557,-0.188328,-27.762772
11.185,2.0,1.0,1.0,34.5,33.5,33.5,2.0,4.0,2.67,0.07227203011061675,-0.039397867408796625,0.9755077543105071,-0.013483062843082365,-0.191613,-27.609547
11.185,2.0,1.0,1.0,34.5,33.5,33.5,2.0,4.0,2.6725,0.05900094267763048,-0.039907057114473427,0.976020529782297,-0.014283565359000279,-0.19498,-27.455502
11.185,2.0,1.0,1.0,34.5,33.5,33.5,2.0,4.0,2.675,0.04560529411190846,-0.0404159597244847,0.9763492608830763,-0.015111876521751486,-0.198431,-27.300626
11.185,2.0,1.0,1.0,34.5,33.5,33.5,2.0,4.0,2.6775,0.03208587832033018,-0.040924087327548174,0.9764887003290513,-0.01596887695618683,-0.201969,-27.144909
11.185,2.0,1.0,1.0,34.5,33.5,33.5,2.0,4.0,2.68,0.018443613213279027,-0.041430916969921704,0.9764334795244864,-0.016855472686961505,-0.205598,-26.988337
11.185,2.0,1.0,1.0,34.5,33.5,33.5,2.0,4.0,2.6825,0.004679547517769619,-0.04193588858468553,0.9761781072981837,-0.017772595648708946,-0.209319,-26.830899
11.185,2.0,1.0,1.0,34.5,33.5,33.5,2.0,4.0,2.685,-0.0092051321134989,-0.04243840280385787,0.9757169687495588,-0.018721204186395626,-0.213136,-26.672583
11.185,2.0,1.0,1.0,34.5,33.5,33.5,2.0,4.0,2.6875,-0.0232090936867495,-0.0429378186465401,0.975044324215793,-0.0197022835435424,-0.217053,-26.513377
11.185,2.0,1.0,1.0,34.5,33.5,33.5,2.0,4.0,2.69,-0.037330852134720434,-0.04343345107584494,0.9741543083722586,-0.020716846335774742,-0.221072,-26.353266
11.185,2.0,1.0,1.0,34.5,33.5,33.5,2.0,4.0,2.6925,-0.05156876125636252,-0.04392456841688311,0.9730409294791679,-0.02176593300692561,-0.225197,-26.192239
11.185,2.0,1.0,1.0,34.5,33.5,33.5,2.0,4.0,2.695,-0.06592100531738496,-0.044410389627560595,0.9716980687881718,-0.022850612264646825,-0.229431,-26.030281
11.185,2.0,1.0,1.0,34.5,33.5,33.5,2.0,4.0,2.6975,-0.08038559030022722,-0.044890081413378864,0.9701194801234485,-0.023971981492205155,-0.233779,-25.867379
11.185,2.0,1.0,1.0,34.5,33.5,33.5,2.0,4.0,2.7,-0.09496033479163583,-0.04536275517681416,0.9682987896526886,-0.025131167132818367,-0.238243,-25.703518
11.185,2.0,1.0,1.0,34.5,33.5,33.5,2.0,4.0,2.7025,-0.10964286049578896,-0.04582746379118672,0.9662294958642447,-0.026329325042551414,-0.242829,-25.538685
11.185,2.0,1.0,1.0,34.5,33.5,33.5,2.0,4.0,2.705,-0.12443058236051907,-0.04628319818820242,0.9639049697676717,-0.027567640807411534,-0.24754,-25.372862
11.185,2.0,1.0,1.0,34.5,33.5,33.5,2.0,4.0,2.7075,-0.13932069830387603,-0.046728883747554795,0.9613184553358188,-0.02884733001987369,-0.252381,-25.206037
11.185,2.0,1.0,1.0,34.5,33.5,33.5,2.0,4.0,2.71,-0.154310178527837,-0.04716337647610611,0.9584630702076699,-0.030169638509610453,-0.257357,-25.038191
11.185,2.0,1.0,1.0,34.5,33.5,33.5,2.0,4.0,2.7125,-0.16939575440559787,-0.04758545896321429,0.9553318066721604,-0.031535842522703014,-0.262471,-24.869309
11.185,2.0,1.0,1.0,34.5,33.5,33.5,2.0,4.0,2.715,-0.18457390692835013,-0.047993836097726075,0.9519175329543169,-0.03294724884305424,-0.26773,-24.699375
11.185,2.0,1.0,1.0,34.5,33.5,33.5,2.0,4.0,2.7175,-0.19984085469699225,-0.048387130531009785,0.9482129948262017,-0.03440519484911316,-0.273139,-24.52837
11.185,2.0,1.0,1.0,34.5,33.5,33.5,2.0,4.0,2.72,-0.21519254144355676,-0.048763877869135164,0.9442108175663747,-0.03591104849833477,-0.278704,-24.356276
11.185,2.0,1.0,1.0,34.5,33.5,33.5,2.0,4.0,2.7225,-0.23062462306657933,-0.04912252157591599,0.939903508292826,-0.03746620823104453,-0.284429,-24.183076
11.185,2.0,1.0,1.0,34.5,33.5,33.5,2.0,4.0,2.725,-0.2461324541637454,-0.04946140756699173,0.935283458695706,-0.03907210278451772,-0.290322,-24.008749
11.185,2.0,1.0,1.0,34.5,33.5,33.5,2.0,4.0,2.7275,-0.2617110740444528,-0.04977877847342639,0.9303429481975592,-0.04073019090714125,-0.296389,-23.833276
11.185,2.0,1.0,1.0,34.5,33.5,33.5,2.0,4.0,2.73,-0.2773551922037894,-0.050072767551421656,0.9250741475703061,-0.04244196096144243,-0.302636,-23.656636
11.185,2.0,1.0,1.0,34.5,33.5,33.5,2.0,4.0,2.7325,-0.2930591732384189,-0.05034139221265825,0.9194691230397869,-0.04420893040357047,-0.309071,-23.478808
11.185,2.0,1.0,1.0,34.5,33.5,33.5,2.0,4.0,2.735,-0.3088170211834818,-0.050582547147469986,0.9135198409104226,-0.046032645125440266,-0.315701,-23.299771
11.185,2.0,1.0,1.0,34.5,33.5,33.5,2.0,4.0,2.7375,-0.3246223632481875,-0.0507939970104906,0.9072181727443853,-0.04791467864420538,-0.322534,-23.1195
11.185,2.0,1.0,1.0,34.5,33.5,33.5,2.0,4.0,2.74,-0.3404684329259664,-0.050973368635564474,0.900555901131676,-0.04985663112195481,-0.329579,-22.937972
11.185,2.0,1.0,1.0,34.5,33.5,33.5,2.0,4.0,2.7425,-0.3563480524531402,-0.05111814274354449,0.8935247260897053,-0.0518601281965256,-0.336844,-22.755163
11.185,2.0,1.0,1.0,34.5,33.5,33.5,2.0,4.0,2.745,-0.3722536145876723,-0.051225645103073654,0.8861162721333593,-0.0539268196020155,-0.344339,-22.571046
11.185,2.0,1.0,1.0,34.5,33.5,33.5,2.0,4.0,2.7475,-0.3881770636769614,-0.05129303710052166,0.8783220960592135,-0.05605837755494703,-0.352073,-22.385595
11.185,2.0,1.0,1.0,34.5,33.5,33.5,2.0,4.0,2.75,-0.404109875980522,-0.0513173056708719,0.870133695490506,-0.0582564948790032,-0.360057,-22.198783
11.185,2.0,1.0,1.0,34.5,33.5,33.5,2.0,4.0,2.7525,-0.42004303920986763,-0.051295252536476474,0.8615425182328085,-0.060522882837764025,-0.368302,-22.010579
11.185,2.0,1.0,1.0,34.5,33.5,33.5,2.0,4.0,2.755,-0.4359670312438056,-0.05122348269515785,0.8525399724941138,-0.06285926864084036,-0.37682,-21.820955
11.185,2.0,1.0,1.0,34.5,33.5,33.5,2.0,4.0,2.7575,-0.45187179797270677,-0.05109839209306617,0.8431174380272914,-0.06526739258414761,-0.385622,-21.629877
11.185,2.0,1.0,1.0,34.5,33.5,33.5,2.0,4.0,2.76,-0.4677467302198131,-0.050916154410930295,0.8332662782578095,-0.06774900477964364,-0.394723,-21.437315
11.185,2.0,1.0,1.0,34.5,33.5,33.5,2.0,4.0,2.7625,-0.48358063968156273,-0.05067270688478403,0.8229778534652162,-0.0703058614235903,-0.404136,-21.243232
11.185,2.0,1.0,1.0,34.5,33.5,33.5,2.0,4.0,2.765,-0.49936173382173654,-0.05036373507381765,0.812243535093407,-0.07293972054508337,-0.413875,-21.047594
11.185,2.0,1.0,1.0,34.5,33.5,33.5,2.0,4.0,2.7675,-0.515077589646138,-0.04998465647859858,0.8010547212723068,-0.07565233716808305,-0.423958,-20.850362
11.185,2.0,1.0,1.0,34.5,33.5,33.5,2.0,4.0,2.77,-0.5307151262753014,-0.04953060290241342,0.7894028536424218,-0.07844545781023898,-0.4344,-20.651497
11.185,2.0,1.0,1.0,34.5,33.5,33.5,2.0,4.0,2.7725,-0.546260576222107,-0.048996401436790425,0.7772794355841104,-0.08132081423017196,-0.44522,-20.450958
11.185,2.0,1.0,1.0,34.5,33.5,33.5,2.0,4.0,2.775,-0.561699455269262,-0.04837655393923414,0.764676051965633,-0.08428011632126242,-0.456437,-20.248703
11.185,2.0,1.0,1.0,34.5,33.5,33.5,2.0,4.0,2.7775,-0.5770165308279651,-0.047665214856705614,0.7515843905384324,-0.08732504403402923,-0.468073,-20.044685
11.185,2.0,1.0,1.0,34.5,33.5,33.5,2.0,4.0,2.78,-0.5921957886437326,-0.04685616723226328,0.7379962651250807,-0.09045723819043011,-0.480148,-19.838858
11.185,2.0,1.0,1.0,34.5,33.5,33.5,2.0,4.0,2.7825,-0.6072203976979443,-0.045942796714387925,0.7239036407655431,-0.09367829003135873,-0.492686,-19.631172
11.185,2.0,1.0,1.0,34.5,33.5,33.5,2.0,4.0,2.785,-0.6220726731342221,-0.044918063368684195,0.7092986610112145,-0.09698972931266511,-0.505714,-19.421575
11.185,2.0,1.0,1.0,34.5,33.5,33.5,2.0,4.0,2.7875,-0.636734037016743,-0.04377447106972818,0.6941736775847129,-0.10039301073440121,-0.519259,-19.210012
11.185,2.0,1.0,1.0,34.5,33.5,33.5,2.0,4.0,2.79,-0.6511849767031731,-0.04250403422664688,0.6785212826570852,-0.10388949845188661,-0.533351,-18.996425
11.185,2.0,1.0,1.0,34.5,33.5,33.5,2.0,4.0,2.7925,-0.6654050005875569,-0.04109824156944058,0.6623343440344638,-0.10748044837448667,-0.54802,-18.780755
11.185,2.0,1.0,1.0,34.5,33.5,33.5,2.0,4.0,2.795,-0.679372590938368,-0.039548016693954254,0.6456060435940677,-0.11116698790751516,-0.563303,-18.562939
11.185,2.0,1.0,1.0,34.5,33.5,33.5,2.0,4.0,2.7975,-0.6930651535234814,-0.037843675031718,0.6283299193668686,-0.11495009273284061,-0.579236,-18.342908
11.185,2.0,1.0,1.0,34.5,33.5,33.5,2.0,4.0,2.8,-0.7064589636774714,-0.03597487687655857,0.6104999117324641,-0.11883056015289248,-0.595859,-18.120595
11.185,2.0,1.0,1.0,34.5,33.5,33.5,2.0,4.0,2.8025,-0.7195291084269297,-0.03393057606305039,0.5921104142735217,-0.12280897843858,-0.613218,-17.895924
11.185,2.0,1.0,1.0,34.5,33.5,33.5,2.0,4.0,2.805,-0.732249424246868,-0.031698963852722646,0.5731563299348338,-0.1268856915216437,-0.631358,-17.668819
11.185,2.0,1.0,1.0,34.5,33.5,33.5,2.0,4.0,2.8075,-0.7445924299759786,-0.029267407542884254,0.5536331332488629,-0.13106075825303035,-0.650334,-17.439199
11.185,2.0,1.0,1.0,34.5,33.5,33.5,2.0,4.0,2.81,-0.7565292543711766,-0.02662238327067308,0.5335369395295728,-0.13533390530729836,-0.670201,-17.206978
11.185,2.0,1.0,1.0,34.5,33.5,33.5,2.0,4.0,2.8125,-0.76802955773342,-0.0237494024425469,0.512864582103876,-0.139704472644342,-0.691021,-16.972066
11.185,2.0,1.0,1.0,34.5,33.5,33.5,2.0,4.0,2.815,-0.7790614469889002,-0.020632931178494993,0.4916136988506282,-0.14417135023854277,-0.712863,-16.734369
11.185,2.0,1.0,1.0,34.5,33.5,33.5,2.0,4.0,2.8175,-0.7895913835644455,-0.017256302123099188,0.46978282955760753,-0.14873290454531893,-0.735801,-16.493788
11.185,2.0,1.0,1.0,34.5,33.5,33.5,2.0,4.0,2.82,-0.7995840833567053,-0.013601617945481122,0.44737152589512236,-0.15338689288827495,-0.759917,-16.250219
11.185,2.0,1.0,1.0,34.5,33.5,33.5,2.0,4.0,2.8225,-0.8090024080658776,-0.009649645831754074,0.42438047615038843,-0.1581303636074872,-0.785301,-16.003552
11.185,2.0,1.0,1.0,34.5,33.5,33.5,2.0,4.0,2.825,-0.8178072471528054,-0.005379702273253265,0.4008116472810415,-0.1629595393998557,-0.812052,-15.753674
11.185,2.0,1.0,1.0,34.5,33.5,33.5,2.0,4.0,2.8275,-0.8259573896920024,-0.0007695274803224336,0.37666844734254684,-0.16786968079277492,-0.840281,-15.500463
