1,w,sub_t,h,l1,l2,l3,g1,g2,Freq,S11_re,S21_re,S11_img,S21_img,S11_dB,S21_dB
11.185,2.0,1.0,1.0,33.0,33.9,33.9,3.9,4.1,2.5,0.899721398787192,-0.00357434946881118,0.423862241414451,0.00292727076558131,-0.047344,-46.707061
11.185,2.0,1.0,1.0,33.0,33.9,33.9,3.9,4.1,2.5025,0.8971141998449369,-0.0036474571973046173,0.42925241791308044,0.0029405998575731604,-0.047723,-46.585443
11.185,2.0,1.0,1.0,33.0,33.9,33.9,3.9,4.1,2.505,0.8944650277189603,-0.0037217730557356373,0.4346449154336552,0.0029535853731188044,-0.048108,-46.463672
11.185,2.0,1.0,1.0,33.0,33.9,33.9,3.9,4.1,2.5075,0.8917735128046149,-0.0037973195019591977,0.44003960704524214,0.0029662144573461796,-0.048499,-46.34174
11.185,2.0,1.0,1.0,33.0,33.9,33.9,3.9,4.1,2.51,0.8890392795030987,-0.0038741195612126285,0.44543636208243653,0.0029784738260290812,-0.048896,-46.219637
11.185,2.0,1.0,1.0,33.0,33.9,33.9,3.9,4.1,2.5125,0.8862619461158137,-0.003952196844153457,0.4508350460205892,0.0029903497489688134,-0.0493,-46.097354
11.185,2.0,1.0,1.0,33.0,33.9,33.9,3.9,4.1,2.515,0.8834411247367205,-0.004031575565594804,0.45623552034700654,0.003001828032641291,-0.04971,-45.97488
11.185,2.0,1.0,1.0,33.0,33.9,33.9,3.9,4.1,2.5175,0.8805764211426454,-0.004112280563970482,0.46163764242796107,0.0030128940020721882,-0.050127,-45.852208
11.185,2.0,1.0,1.0,33.0,33.9,33.9,3.9,4.1,2.52,0.8776674346814913,-0.004194337321563916,0.4670412653713866,0.0030235324819011893,-0.050551,-45.729326
11.185,2.0,1.0,1.0,33.0,33.9,33.9,3.9,4.1,2.5225,0.8747137581583141,-0.004277771985536778,0.472446237885078,0.0030337277765924964,-0.050982,-45.606225
11.185,2.0,1.0,1.0,33.0,33.9,33.9,3.9,4.1,2.525,0.8717149777192079,-0.004362611389795352,0.47785240413025637,0.0030434636497481456,-0.05142,-45.482895
11.185,2.0,1.0,1.0,33.0,33.9,33.9,3.9,4.1,2.5275,0.868670672732955,-0.004448883077734405,0.48325960357032555,0.003052723302476808,-0.051865,-45.359327
11.185,2.0,1.0,1.0,33.0,33.9,33.9,3.9,4.1,2.53,0.8655804156703882,-0.004536615325900829,0.4886676708146413,0.0030614893507679435,-0.052318,-45.23551
11.185,2.0,1.0,1.0,33.0,33.9,33.9,3.9,4.1,2.5325,0.8624437719814131,-0.004625837168621552,0.49407643545711666,0.003069743801819133,-0.052779,-45.111435
11.185,2.0,1.0,1.0,33.0,33.9,33.9,3.9,4.1,2.535,0.8592602999696343,-0.004716578423642963,0.499485721909479,0.0030774680292599654,-0.053247,-44.98709
11.185,2.0,1.0,1.0,33.0,33.9,33.9,3.9,4.1,2.5375,0.8560295506645342,-0.00480886971883103,0.5048953492289698,0.0030846427472133436,-0.053723,-44.862465
11.185,2.0,1.0,1.0,33.0,33.9,33.9,3.9,4.1,2.54,0.8527510676911383,-0.004902742519985289,0.5103051309402952,0.0030912479831308294,-0.054208,-44.737551
11.185,2.0,1.0,1.0,33.0,33.9,33.9,3.9,4.1,2.5425,0.8494243871371151,-0.004998229159821838,0.5157148748516068,0.0030972630493349687,-0.054701,-44.612336
11.185,2.0,1.0,1.0,33.0,33.9,33.9,3.9,4.1,2.545,0.8460490374172382,-0.005095362868184077,0.5211243828642943,0.0031026665131973197,-0.055203,-44.48681
11.185,2.0,1.0,1.0,33.0,33.9,33.9,3.9,4.1,2.5475,0.842624539135158,-0.005194177803543686,0.5265334507763468,0.0031074361658760485,-0.055713,-44.360962
11.185,2.0,1.0,1.0,33.0,33.9,33.9,3.9,4.1,2.55,0.8391504049423989,-0.005294709085857295,0.531941868079061,0.003111548989532873,-0.056232,-44.23478
11.185,2.0,1.0,1.0,33.0,33.9,33.9,3.9,4.1,2.5525,0.8356261393945306,-0.005396992830848836,0.537349417746814,0.0031149811229427625,-0.056761,-44.108255
11.185,2.0,1.0,1.0,33.0,33.9,33.9,3.9,4.1,2.555,0.8320512388044231,-0.0055010661857912875,0.5427558760196626,0.003117707825405479,-0.057298,-43.981373
11.185,2.0,1.0,1.0,33.0,33.9,33.9,3.9,4.1,2.5575,0.8284251910925183,-0.0056069673668660966,0.5481610121784793,0.0031197034388610895,-0.057846,-43.854125
11.185,2.0,1.0,1.0,33.0,33.9,33.9,3.9,4.1,2.56,0.8247474756340364,-0.005714735698183484,0.5535645883123356,0.0031209413481057546,-0.058403,-43.726497
11.185,2.0,1.0,1.0,33.0,33.9,33.9,3.9,4.1,2.5625,0.8210175631030313,-0.005824411652551331,0.5589663590778303,0.0031213939389966782,-0.058971,-43.598479
11.185,2.0,1.0,1.0,33.0,33.9,33.9,3.9,4.1,2.565,0.8172349153132101,-0.005936036894086543,0.5643660714500565,0.0031210325545281982,-0.059549,-43.470059
11.185,2.0,1.0,1.0,33.0,33.9,33.9,3.9,4.1,2.5675,0.8133989850554253,-0.006049654322767645,0.5697634644648544,0.003119827448652624,-0.060137,-43.341223
11.185,2.0,1.0,1.0,33.0,33.9,33.9,3.9,4.1,2.57,0.809509215931741,-0.0061653081210343965,0.5751582689520243,0.0031177477377108036,-0.060737,-43.211961
11.185,2.0,1.0,1.0,33.0,33.9,33.9,3.9,4.1,2.5725,0.8055650421859749,-0.006283043802546159,0.5805502072591225,0.003114761349328414,-0.061347,-43.082258
11.185,2.0,1.0,1.0,33.0,33.9,33.9,3.9,4.1,2.575,0.8015658885306066,-0.006402908263218155,0.5859389929654644,0.0031108349686235874,-0.061969,-42.952103
11.185,2.0,1.0,1.0,33.0,33.9,33.9,3.9,4.1,2.5775,0.7975111699699458,-0.006524949834662318,0.5913243305859311,0.0031059339815611,-0.062603,-42.821482
11.185,2.0,1.0,1.0,33.0,33.9,33.9,3.9,4.1,2.58,0.7934002916194385,-0.006649218340167122,0.5967059152641586,0.0031000224152763047,-0.063249,-42.690382
11.185,2.0,1.0,1.0,33.0,33.9,33.9,3.9,4.1,2.5825,0.7892326485209868,-0.006775765153360312,0.6020834324546713,0.0030930628751795345,-0.063907,-42.55879
11.185,2.0,1.0,1.0,33.0,33.9,33.9,3.9,4.1,2.585,0.7850076254541565,-0.00690464325970668,0.6074565575934924,0.0030850164786387266,-0.064578,-42.426691
11.185,2.0,1.0,1.0,33.0,33.9,33.9,3.9,4.1,2.5875,0.7807245967431232,-0.0070359073210043074,0.6128249557567469,0.003075842785021717,-0.065262,-42.294072
11.185,2.0,1.0,1.0,33.0,33.9,33.9,3.9,4.1,2.59,0.776382926059223,-0.007169613743051893,0.6181882813067369,0.003065499721865878,-0.065959,-42.160918
11.185,2.0,1.0,1.0,33.0,33.9,33.9,3.9,4.1,2.5925,0.771981966218938,-0.007305820746673057,0.6235461775249577,0.0030539435069239077,-0.06667,-42.027215
11.185,2.0,1.0,1.0,33.0,33.9,33.9,3.9,4.1,2.595,0.7675210589771666,-0.007444588442294111,0.628898276231472,0.0030411285658166714,-0.067395,-41.892947
11.185,2.0,1.0,1.0,33.0,33.9,33.9,3.9,4.1,2.5975,0.7629995348155855,-0.0075859789082868495,0.634244197390055,0.0030270074450032824,-0.068134,-41.7581
11.185,2.0,1.0,1.0,33.0,33.9,33.9,3.9,4.1,2.6,0.7584167127259275,-0.007730056273300725,0.6395835486984691,0.0030115307197577245,-0.068888,-41.622658
11.185,2.0,1.0,1.0,33.0,33.9,33.9,3.9,4.1,2.6025,0.7537718999879739,-0.007876886802825224,0.6449159251631916,0.002994646896815834,-0.069658,-41.486606
11.185,2.0,1.0,1.0,33.0,33.9,33.9,3.9,4.1,2.605,0.7490643919420414,-0.008026538990239394,0.6502409086579053,0.0029763023113321707,-0.070443,-41.349926
11.185,2.0,1.0,1.0,33.0,33.9,33.9,3.9,4.1,2.6075,0.7442934717557438,-0.008179083652623405,0.6555580674649854,0.002956441017757437,-0.071245,-41.212602
11.185,2.0,1.0,1.0,33.0,33.9,33.9,3.9,4.1,2.61,0.7394584101847794,-0.008334594031626489,0.6608669557991974,0.0029350046742159536,-0.072063,-41.074618
11.185,2.0,1.0,1.0,33.0,33.9,33.9,3.9,4.1,2.6125,0.734558465327488,-0.008493145899706034,0.6661671133127696,0.002911932419930902,-0.072898,-40.935956
11.185,2.0,1.0,1.0,33.0,33.9,33.9,3.9,4.1,2.615,0.7295928823728881,-0.008654817672075628,0.6714580645809428,0.002887160745206873,-0.07375,-40.796598
11.185,2.0,1.0,1.0,33.0,33.9,33.9,3.9,4.1,2.6175,0.7245608933419052,-0.008819690524723367,0.6767393185670564,0.0028606233534409133,-0.074621,-40.656525
11.185,2.0,1.0,1.0,33.0,33.9,33.9,3.9,4.1,2.62,0.7194617168214641,-0.008987848518888236,0.6820103680661644,0.002832251014589806,-0.075511,-40.51572
11.185,2.0,1.0,1.0,33.0,33.9,33.9,3.9,4.1,2.6225,0.7142945576910901,-0.009159378732411039,0.6872706891261167,0.0028019714094733614,-0.076419,-40.374164
11.185,2.0,1.0,1.0,33.0,33.9,33.9,3.9,4.1,2.625,0.709058606841664,-0.00933437139840581,0.692519740444961,0.00276970896424278,-0.077348,-40.231835
11.185,2.0,1.0,1.0,33.0,33.9,33.9,3.9,4.1,2.6275,0.7037530408859063,-0.009512920051732045,0.6977569627434655,0.002735384674286185,-0.078296,-40.088715
11.185,2.0,1.0,1.0,33.0,33.9,33.9,3.9,4.1,2.63,0.6983770218601728,-0.00969512168378277,0.7029817781114621,0.0026989159167811858,-0.079266,-39.944783
11.185,2.0,1.0,1.0,33.0,33.9,33.9,3.9,4.1,2.6325,0.6929296969170816,-0.009881076906142932,0.7081935893266331,0.0026602162510374642,-0.080258,-39.800018
11.185,2.0,1.0,1.0,33.0,33.9,33.9,3.9,4.1,2.635,0.6874101980084727,-0.01007089012371414,0.7133917791442707,0.002619195205696901,-0.081271,-39.654397
11.185,2.0,1.0,1.0,33.0,33.9,33.9,3.9,4.1,2.6375,0.6818176415581487,-0.01026466971794739,0.7185757095564198,0.002575758051778002,-0.082308,-39.507898
11.185,2.0,1.0,1.0,33.0,33.9,33.9,3.9,4.1,2.64,0.6761511281237969,-0.010462528240875329,0.7237447210187348,0.002529805560460705,-0.083368,-39.360499
11.185,2.0,1.0,1.0,33.0,33.9,33.9,3.9,4.1,2.6425,0.6704097420474575,-0.010664582620688333,0.7288981316432148,0.002481233744409856,-0.084454,-39.212176
11.185,2.0,1.0,1.0,33.0,33.9,33.9,3.9,4.1,2.645,0.6645925510938395,-0.01087095437965739,0.7340352363548878,0.0024299335813259835,-0.085564,-39.062904
11.185,2.0,1.0,1.0,33.0,33.9,33.9,3.9,4.1,2.6475,0.6586986060757211,-0.011081769865270085,0.7391553060103377,0.0023757907182932895,-0.086701,-38.912659
11.185,2.0,1.0,1.0,33.0,33.9,33.9,3.9,4.1,2.65,0.6527269404656116,-0.011297160495514913,0.7442575864758403,0.0023186851553608375,-0.087864,-38.761414
11.185,2.0,1.0,1.0,33.0,33.9,33.9,3.9,4.1,2.6525,0.6466765699927963,-0.011517263019322653,0.7493412976626522,0.0022584909066497255,-0.089056,-38.609143
11.185,2.0,1.0,1.0,33.0,33.9,33.9,3.9,4.1,2.655,0.6405464922247669,-0.011742219793257135,0.7544056325168608,0.0021950756371143785,-0.090276,-38.455819
11.185,2.0,1.0,1.0,33.0,33.9,33.9,3.9,4.1,2.6575,0.6343356861320004,-0.011972179075634292,0.7594497559609451,0.002128300272910636,-0.091527,-38.301413
11.185,2.0,1.0,1.0,33.0,33.9,33.9,3.9,4.1,2.66,0.6280431116349191,-0.012207295339346301,0.7644728037839911,0.002058018583123457,-0.092808,-38.145896
11.185,2.0,1.0,1.0,33.0,33.9,33.9,3.9,4.1,2.6625,0.6216677091317868,-0.012447729604771904,0.7694738814772353,0.001984076730389202,-0.094122,-37.989238
11.185,2.0,1.0,1.0,33.0,33.9,33.9,3.9,4.1,2.665,0.6152083990061565,-0.01269364979426986,0.774452063011347,0.0019063127877030541,-0.095469,-37.831409
11.185,2.0,1.0,1.0,33.0,33.9,33.9,3.9,4.1,2.6675,0.6086640811123898,-0.012945231109876507,0.7794063895515138,0.001824556218432534,-0.09685,-37.672376
11.185,2.0,1.0,1.0,33.0,33.9,33.9,3.9,4.1,2.67,0.6020336342376036,-0.01320265643596622,0.7843358681060904,0.0017386273162570383,-0.098267,-37.512105
11.185,2.0,1.0,1.0,33.0,33.9,33.9,3.9,4.1,2.6725,0.5953159155382582,-0.013466116768782293,0.7892394701041593,0.0016483366014172435,-0.099721,-37.350564
11.185,2.0,1.0,1.0,33.0,33.9,33.9,3.9,4.1,2.675,0.5885097599494498,-0.013735811674909044,0.7941161298969373,0.001553484169286178,-0.101214,-37.187715
11.185,2.0,1.0,1.0,33.0,33.9,33.9,3.9,4.1,2.6775,0.5816139795647572,-0.014011949780934164,0.7989647431774903,0.0014538589868547923,-0.102746,-37.023523
11.185,2.0,1.0,1.0,33.0,33.9,33.9,3.9,4.1,2.68,0.5746273629843206,-0.014294749296746106,0.8037841653127032,0.0013492381322595707,-0.10432,-36.85795
11.185,2.0,1.0,1.0,33.0,33.9,33.9,3.9,4.1,2.6825,0.5675486746285927,-0.014584438575123216,0.8085732095808431,0.0012393859719568986,-0.105937,-36.690955
11.185,2.0,1.0,1.0,33.0,33.9,33.9,3.9,4.1,2.685,0.5603766540149632,-0.014881256710506703,0.813330645307436,0.001124053269563514,-0.107599,-36.5225
11.185,2.0,1.0,1.0,33.0,33.9,33.9,3.9,4.1,2.6875,0.553110014994183,-0.0151854541801032,0.818055195891421,0.00100297621972695,-0.109308,-36.35254
11.185,2.0,1.0,1.0,33.0,33.9,33.9,3.9,4.1,2.69,0.5457474449432456,-0.015497293530743906,0.8227455367127384,0.0008758753996491521,-0.111065,-36.181032
11.185,2.0,1.0,1.0,33.0,33.9,33.9,3.9,4.1,2.6925,0.5382876039110095,-0.015817050115233128,0.8274002929116112,0.0007424546300590384,-0.112873,-36.007932
11.185,2.0,1.0,1.0,33.0,33.9,33.9,3.9,4.1,2.695,0.5307291237125507,-0.01614501288225439,0.8320180370287146,0.0006023997364908334,-0.114734,-35.83319
11.185,2.0,1.0,1.0,33.0,33.9,33.9,3.9,4.1,2.6975,0.5230706069677749,-0.01648148522427054,0.8365972864943204,0.00045537720067050834,-0.11665,-35.656759
11.185,2.0,1.0,1.0,33.0,33.9,33.9,3.9,4.1,2.7,0.515310626079446,-0.01682678588825572,0.8411365009531604,0.0003010326906182903,-0.118623,-35.478587
11.185,2.0,1.0,1.0,33.0,33.9,33.9,3.9,4.1,2.7025,0.5074477221452623,-0.01718124995453887,0.8456340794103139,0.00013898945672298054,-0.120657,-35.298621
11.185,2.0,1.0,1.0,33.0,33.9,33.9,3.9,4.1,2.705,0.4994804037981255,-0.017545229889519873,0.8500883571817504,-3.1153420487653836e-05,-0.122753,-35.116805
11.185,2.0,1.0,1.0,33.0,33.9,33.9,3.9,4.1,2.7075,0.4914071459681388,-0.017919096678547537,0.8544976026312807,-0.00020982294689578408,-0.124914,-34.933082
11.185,2.0,1.0,1.0,33.0,33.9,33.9,3.9,4.1,2.71,0.48322638855926886,-0.01830324104582546,0.8588600136735433,-0.0003974743136562496,-0.127145,-34.747392
11.185,2.0,1.0,1.0,33.0,33.9,33.9,3.9,4.1,2.7125,0.47493653503288097,-0.018698074768842762,0.8631737140202291,-0.0005945931986225399,-0.129447,-34.559673
11.185,2.0,1.0,1.0,33.0,33.9,33.9,3.9,4.1,2.715,0.4665359508896172,-0.019104032095512914,0.8674367491439837,-0.0008016982931556663,-0.131825,-34.369858
11.185,2.0,1.0,1.0,33.0,33.9,33.9,3.9,4.1,2.7175,0.45802296204023507,-0.019521571272955274,0.8716470819312927,-0.001019344080080043,-0.134281,-34.177879
11.185,2.0,1.0,1.0,33.0,33.9,33.9,3.9,4.1,2.72,0.44939585305513324,-0.01995117619766676,0.8758025879920422,-0.0012481238919147036,-0.136821,-33.983666
11.185,2.0,1.0,1.0,33.0,33.9,33.9,3.9,4.1,2.7225,0.44065286528125414,-0.020393358197717804,0.8799010505893631,-0.0014886732823753553,-0.139449,-33.787144
11.185,2.0,1.0,1.0,33.0,33.9,33.9,3.9,4.1,2.725,0.43179219481402653,-0.020848657958560834,0.8839401551486008,-0.0017416737485828713,-0.142168,-33.588235
11.185,2.0,1.0,1.0,33.0,33.9,33.9,3.9,4.1,2.7275,0.42281199031075917,-0.02131764760507378,0.8879174832988769,-0.0020078568465310307,-0.144983,-33.386857
11.185,2.0,1.0,1.0,33.0,33.9,33.9,3.9,4.1,2.73,0.41371035063069816,-0.021800932953565444,0.8918305063944093,-0.0022880087482694336,-0.147901,-33.182925
11.185,2.0,1.0,1.0,33.0,33.9,33.9,3.9,4.1,2.7325,0.4044853222855217,-0.022299155948651804,0.895676578455575,-0.0025829752960841532,-0.150926,-32.976349
11.185,2.0,1.0,1.0,33.0,33.9,33.9,3.9,4.1,2.735,0.3951348966826265,-0.022812997301161615,0.8994529284613298,-0.002893667616871085,-0.154065,-32.767035
11.185,2.0,1.0,1.0,33.0,33.9,33.9,3.9,4.1,2.7375,0.385657007141972,-0.023343179344541307,0.9031566519149307,-0.003221068369082709,-0.157323,-32.554885
11.185,2.0,1.0,1.0,33.0,33.9,33.9,3.9,4.1,2.74,0.37604952566562544,-0.0238904691285847,0.9067847015936469,-0.0035662387053199698,-0.160709,-32.339796
11.185,2.0,1.0,1.0,33.0,33.9,33.9,3.9,4.1,2.7425,0.3663102594374381,-0.024455681770695053,0.9103338773800542,-0.003930326046114992,-0.164229,-32.121657
11.185,2.0,1.0,1.0,33.0,33.9,33.9,3.9,4.1,2.745,0.3564369470285569,-0.025039684086254493,0.913800815057198,-0.0043145727750286455,-0.167892,-31.900356
11.185,2.0,1.0,1.0,33.0,33.9,33.9,3.9,4.1,2.7475,0.34642725428275245,-0.025643398520985725,0.9171819739320123,-0.0047203259822768875,-0.171706,-31.675771
11.185,2.0,1.0,1.0,33.0,33.9,33.9,3.9,4.1,2.75,0.336278769853886,-0.0262678074093705,0.920473623130371,-0.00514904840417496,-0.175682,-31.447775
11.185,2.0,1.0,1.0,33.0,33.9,33.9,3.9,4.1,2.7525,0.32598900036636036,-0.026913957584141363,0.9236718263824334,-0.005602330729332539,-0.179829,-31.216234
11.185,2.0,1.0,1.0,33.0,33.9,33.9,3.9,4.1,2.755,0.31555536516820754,-0.02758296536245256,0.9267724250878003,-0.006081905470450563,-0.184159,-30.981008
11.185,2.0,1.0,1.0,33.0,33.9,33.9,3.9,4.1,2.7575,0.3049751906457062,-0.028276021934380776,0.9297710194155253,-0.006589662633626035,-0.188685,-30.741945
11.185,2.0,1.0,1.0,33.0,33.9,33.9,3.9,4.1,2.76,0.2942457040684488,-0.028994399178645224,0.9326629471531453,-0.00712766745630672,-0.193419,-30.49889
11.185,2.0,1.0,1.0,33.0,33.9,33.9,3.9,4.1,2.7625,0.2833640269347465,-0.029739455928535375,0.9354432599702891,-0.007698180531750293,-0.198378,-30.251673
11.185,2.0,1.0,1.0,33.0,33.9,33.9,3.9,4.1,2.765,0.2723271677898209,-0.0305126447075128,0.9381066967044229,-0.008303680693604121,-0.203577,-30.000119
11.185,2.0,1.0,1.0,33.0,33.9,33.9,3.9,4.1,2.7675,0.2611320144938526,-0.031315518948182706,0.9406476532069463,-0.008946891100988385,-0.209035,-29.744039
11.185,2.0,1.0,1.0,33.0,33.9,33.9,3.9,4.1,2.77,0.2497753259245586,-0.0321497406994431,0.9430601482046237,-0.009630809044642604,-0.21477,-29.483234
11.185,2.0,1.0,1.0,33.0,33.9,33.9,3.9,4.1,2.7725,0.2382537231107422,-0.03301708881343881,0.9453377845311582,-0.010358740091271633,-0.220806,-29.217493
11.185,2.0,1.0,1.0,33.0,33.9,33.9,3.9,4.1,2.775,0.2265636798106751,-0.033919467584884726,0.9474737049627721,-0.011134337299920877,-0.227166,-28.946589
11.185,2.0,1.0,1.0,33.0,33.9,33.9,3.9,4.1,2.7775,0.2147015125745112,-0.03485891578820165,0.9494605417451548,-0.011961646385656263,-0.233878,-28.670283
11.185,2.0,1.0,1.0,33.0,33.9,33.9,3.9,4.1,2.78,0.20266337036603502,-0.03583761601977295,0.951290358721083,-0.012845157877830105,-0.24097,-28.388319
11.185,2.0,1.0,1.0,33.0,33.9,33.9,3.9,4.1,2.7825,0.1904452238700684,-0.036857904199425834,0.952954584750917,-0.013789867530061149,-0.248478,-28.100424
11.185,2.0,1.0,1.0,33.0,33.9,33.9,3.9,4.1,2.785,0.17804285468318967,-0.037922279011431026,0.9544439368525713,-0.01480134649591999,-0.256438,-27.806306
11.185,2.0,1.0,1.0,33.0,33.9,33.9,3.9,4.1,2.7875,0.16545184468494656,-0.039033410963239916,0.9557483311614844,-0.015885823099764985,-0.264892,-27.505652
11.185,2.0,1.0,1.0,33.0,33.9,33.9,3.9,4.1,2.79,0.1526675660247867,-0.04019415059931886,0.9568567794095111,-0.017050278420868793,-0.273889,-27.198129
11.185,2.0,1.0,1.0,33.0,33.9,33.9,3.9,4.1,2.7925,0.1396851723514738,-0.04140753521314712,0.9577572681253069,-0.018302558389483952,-0.28348,-26.883377
11.185,2.0,1.0,1.0,33.0,33.9,33.9,3.9,4.1,2.795,0.1264995921770283,-0.042676793132379126,0.9584366171433618,-0.01965150568942525,-0.293729,-26.561012
11.185,2.0,1.0,1.0,33.0,33.9,33.9,3.9,4.1,2.7975,0.11310552563529336,-0.044005344281811645,0.9588803132433329,-0.021107115503088875,-0.304703,-26.230618
11.185,2.0,1.0,1.0,33.0,33.9,33.9,3.9,4.1,2.8,0.09949744640617715,-0.04539679521610696,0.9590723137863021,-0.022680720059785,-0.316481,-25.891749
11.185,2.0,1.0,1.0,33.0,33.9,33.9,3.9,4.1,2.8025,0.0856696112880543,-0.046854926102527304,0.9589948140198369,-0.024385208105320248,-0.329154,-25.543923
11.185,2.0,1.0,1.0,33.0,33.9,33.9,3.9,4.1,2.805,0.07161608089402853,-0.048383666142740124,0.9586279702255345,-0.026235286861466155,-0.342827,-25.186621
11.185,2.0,1.0,1.0,33.0,33.9,33.9,3.9,4.1,2.8075,0.05733075633939047,-0.04998705253692224,0.9579495690006626,-0.02824779586587463,-0.35762,-24.81928
11.185,2.0,1.0,1.0,33.0,33.9,33.9,3.9,4.1,2.81,0.042807438745674414,-0.05166916614733002,0.9569346305986016,-0.030442084373227363,-0.373672,-24.441292
11.185,2.0,1.0,1.0,33.0,33.9,33.9,3.9,4.1,2.8125,0.0280399211544012,-0.0534340342725549,0.955554931276353,-0.0328404668766729,-0.391149,-24.051996
11.185,2.0,1.0,1.0,33.0,33.9,33.9,3.9,4.1,2.815,0.013022126375436474,-0.055285487048836214,0.953778425860318,-0.0354687749192976,-0.410241,-23.650676
11.185,2.0,1.0,1.0,33.0,33.9,33.9,3.9,4.1,2.8175,-0.0022516900889369153,-0.057226948439548696,0.9515685470677447,-0.0383570278758724,-0.431174,-23.236553
11.185,2.0,1.0,1.0,33.0,33.9,33.9,3.9,4.1,2.82,-0.017786644835095438,-0.05926113480411357,0.948883352318555,-0.04154025097608231,-0.454218,-22.808781
11.185,2.0,1.0,1.0,33.0,33.9,33.9,3.9,4.1,2.8225,-0.03358680019569738,-0.06138962253437233,0.9456744816589426,-0.04505947567879364,-0.479692,-22.366437
11.185,2.0,1.0,1.0,33.0,33.9,33.9,3.9,4.1,2.825,-0.049654550903323914,-0.06361222954161791,0.9418858818840977,-0.04896296568394164,-0.507981,-21.90852
11.185,2.0,1.0,1.0,33.0,33.9,33.9,3.9,4.1,2.8275,-0.06598974316469909,-0.06592613097189652,0.9374522420847933,-0.053307721269416915,-0.53955,-21.433939
