1,w,sub_t,h,l1,l2,l3,g1,g2,Freq,S11_re,S21_re,S11_img,S21_img,S11_dB,S21_dB
11.185,2.0,1.0,1.0,33.5,33.3,33.3,3.7,3.3,2.5,0.850982559050931,-0.00564794578961514,0.513778964398923,0.004028733662063,-0.051815,-43.175843
11.185,2.0,1.0,1.0,33.5,33.3,33.3,3.7,3.3,2.5025,0.8475340152755572,-0.005754496369797677,0.5193500800988773,0.004037737207940636,-0.052262,-43.061188
11.185,2.0,1.0,1.0,33.5,33.3,33.3,3.7,3.3,2.505,0.8440344036635942,-0.0058627242016373385,0.5249199837932264,0.004046011774149699,-0.052716,-42.946346
11.185,2.0,1.0,1.0,33.5,33.3,33.3,3.7,3.3,2.5075,0.8404832466387244,-0.005972657035406754,0.5304884289582653,0.004053531902277518,-0.053178,-42.83131
11.185,2.0,1.0,1.0,33.5,33.3,33.3,3.7,3.3,2.51,0.8368800596610428,-0.006084323171793144,0.5360551619640294,0.004060271317266841,-0.053647,-42.716073
11.185,2.0,1.0,1.0,33.5,33.3,33.3,3.7,3.3,2.5125,0.833224351137161,-0.0061977514739010925,0.5416199218558452,0.004066202898572326,-0.054123,-42.600629
11.185,2.0,1.0,1.0,33.5,33.3,33.3,3.7,3.3,2.515,0.8295156223300629,-0.006312971379519489,0.5471824401292777,0.004071298650194428,-0.054608,-42.48497
11.185,2.0,1.0,1.0,33.5,33.3,33.3,3.7,3.3,2.5175,0.8257533672687771,-0.006430012913657956,0.5527424404982479,0.004075529669541904,-0.0551,-42.36909
11.185,2.0,1.0,1.0,33.5,33.3,33.3,3.7,3.3,2.52,0.8219370726579163,-0.006548906701357877,0.5582996386561242,0.0040788661150720175,-0.055601,-42.252982
11.185,2.0,1.0,1.0,33.5,33.3,33.3,3.7,3.3,2.5225,0.818066217787173,-0.006669683980783251,0.5638537420295481,0.004081277172654862,-0.05611,-42.136639
11.185,2.0,1.0,1.0,33.5,33.3,33.3,3.7,3.3,2.525,0.8141402744408233,-0.0067923766165965726,0.5694044495247774,0.0040827310206055685,-0.056627,-42.020053
11.185,2.0,1.0,1.0,33.5,33.3,33.3,3.7,3.3,2.5275,0.8101587068073263,-0.006917017113625056,0.5749514512663101,0.004083194793325506,-0.057153,-41.903218
11.185,2.0,1.0,1.0,33.5,33.3,33.3,3.7,3.3,2.53,0.8061209713891038,-0.007043638630822364,0.5804944283275372,0.004082634543490512,-0.057687,-41.786126
11.185,2.0,1.0,1.0,33.5,33.3,33.3,3.7,3.3,2.5325,0.8020265169125844,-0.007172274995531117,0.5860330524531779,0.004081015202721175,-0.058231,-41.66877
11.185,2.0,1.0,1.0,33.5,33.3,33.3,3.7,3.3,2.535,0.7978747842386048,-0.007302960718051183,0.5915669857732396,0.004078300540666876,-0.058784,-41.551144
11.185,2.0,1.0,1.0,33.5,33.3,33.3,3.7,3.3,2.5375,0.7936652062732739,-0.007435731006519253,0.5970958805082225,0.004074453122431797,-0.059346,-41.433239
11.185,2.0,1.0,1.0,33.5,33.3,33.3,3.7,3.3,2.54,0.7893972078794038,-0.007570621782104439,0.6026193786653038,0.004069434264267629,-0.059918,-41.315048
11.185,2.0,1.0,1.0,33.5,33.3,33.3,3.7,3.3,2.5425,0.7850702057886164,-0.007707669694525034,0.608137111725206,0.004063203987453284,-0.0605,-41.196564
11.185,2.0,1.0,1.0,33.5,33.3,33.3,3.7,3.3,2.545,0.7806836085142519,-0.007846912137891507,0.6136487003194593,0.004055720970278797,-0.061092,-41.077779
11.185,2.0,1.0,1.0,33.5,33.3,33.3,3.7,3.3,2.5475,0.776236816265206,-0.007988387266880401,0.6191537538977392,0.004046942498045178,-0.061694,-40.958686
11.185,2.0,1.0,1.0,33.5,33.3,33.3,3.7,3.3,2.55,0.7717292208608261,-0.008132134013243818,0.6246518703849852,0.004036824410987995,-0.062306,-40.839276
11.185,2.0,1.0,1.0,33.5,33.3,33.3,3.7,3.3,2.5525,0.7671602056470193,-0.008278192102659043,0.6301426358279426,0.0040253210500276505,-0.062929,-40.719542
11.185,2.0,1.0,1.0,33.5,33.3,33.3,3.7,3.3,2.555,0.7625291454137161,-0.00842660207192281,0.6356256240308178,0.004012385200243723,-0.063563,-40.599477
11.185,2.0,1.0,1.0,33.5,33.3,33.3,3.7,3.3,2.5575,0.7578354063138533,-0.008577405286494,0.6411003961796827,0.0039979680319655675,-0.064208,-40.479071
11.185,2.0,1.0,1.0,33.5,33.3,33.3,3.7,3.3,2.56,0.7530783457840522,-0.008730643958389286,0.6465665004552709,0.003982019039365727,-0.064865,-40.358318
11.185,2.0,1.0,1.0,33.5,33.3,33.3,3.7,3.3,2.5625,0.7482573124671685,-0.008886361164434501,0.652023471633786,0.003964485976435866,-0.065534,-40.237208
11.185,2.0,1.0,1.0,33.5,33.3,33.3,3.7,3.3,2.565,0.7433716461369017,-0.00904460086487597,0.6574708306753522,0.003945314790219299,-0.066214,-40.115734
11.185,2.0,1.0,1.0,33.5,33.3,33.3,3.7,3.3,2.5675,0.7384206776246799,-0.009205407922353763,0.6629080842996862,0.003924449551166429,-0.066907,-39.993888
11.185,2.0,1.0,1.0,33.5,33.3,33.3,3.7,3.3,2.57,0.7334037287490218,-0.00936882812124046,0.6683347245485942,0.003901832380472613,-0.067612,-39.87166
11.185,2.0,1.0,1.0,33.5,33.3,33.3,3.7,3.3,2.5725,0.7283201122476066,-0.009534908187346513,0.6737502283348626,0.0038774033742496957,-0.06833,-39.749042
11.185,2.0,1.0,1.0,33.5,33.3,33.3,3.7,3.3,2.575,0.7231691317122931,-0.009703695807994525,0.6791540569770987,0.0038511005243743227,-0.069061,-39.626026
11.185,2.0,1.0,1.0,33.5,33.3,33.3,3.7,3.3,2.5775,0.7179500815273401,-0.009875239652463228,0.684545655720067,0.00382285963584725,-0.069806,-39.502603
11.185,2.0,1.0,1.0,33.5,33.3,33.3,3.7,3.3,2.58,0.7126622468110985,-0.010049589392800923,0.6899244532400449,0.0037926142404883286,-0.070564,-39.378764
11.185,2.0,1.0,1.0,33.5,33.3,33.3,3.7,3.3,2.5825,0.7073049033614509,-0.010226795725009096,0.6952898611347169,0.003760295506781687,-0.071337,-39.254499
11.185,2.0,1.0,1.0,33.5,33.3,33.3,3.7,3.3,2.585,0.7018773176053037,-0.010406910390593995,0.7006412733970906,0.0037258321456751756,-0.072124,-39.129799
11.185,2.0,1.0,1.0,33.5,33.3,33.3,3.7,3.3,2.5875,0.6963787465524404,-0.010589986198484821,0.7059780658729213,0.0036891503121263412,-0.072926,-39.004656
11.185,2.0,1.0,1.0,33.5,33.3,33.3,3.7,3.3,2.59,0.6908084377540782,-0.010776077047314796,0.7112995957010956,0.0036501735021752233,-0.073743,-38.87906
11.185,2.0,1.0,1.0,33.5,33.3,33.3,3.7,3.3,2.5925,0.6851656292664599,-0.010965237948061654,0.7166052007364155,0.003608822445311012,-0.074575,-38.753001
11.185,2.0,1.0,1.0,33.5,33.3,33.3,3.7,3.3,2.595,0.6794495496198766,-0.011157525047041244,0.7218941989541983,0.003565014991885989,-0.075424,-38.626468
11.185,2.0,1.0,1.0,33.5,33.3,33.3,3.7,3.3,2.5975,0.6736594177934855,-0.011352995649248455,0.7271658878360926,0.0035186659953149665,-0.076289,-38.499454
11.185,2.0,1.0,1.0,33.5,33.3,33.3,3.7,3.3,2.6,0.6677944431963448,-0.011551708242035972,0.7324195437364895,0.0034696871887826245,-0.07717,-38.371946
11.185,2.0,1.0,1.0,33.5,33.3,33.3,3.7,3.3,2.6025,0.6618538256551058,-0.0117537225191221,0.7376544212288679,0.003417987056164401,-0.078069,-38.243936
11.185,2.0,1.0,1.0,33.5,33.3,33.3,3.7,3.3,2.605,0.6558367554087998,-0.011959099404914507,0.7428697524314194,0.0033634706968478745,-0.078985,-38.115412
11.185,2.0,1.0,1.0,33.5,33.3,33.3,3.7,3.3,2.6075,0.6497424131112176,-0.012167901079137016,0.7480647463112448,0.003306039684122501,-0.07992,-37.986364
11.185,2.0,1.0,1.0,33.5,33.3,33.3,3.7,3.3,2.61,0.6435699698413814,-0.01238019100174245,0.7532385879664003,0.0032455919167846963,-0.080873,-37.856782
11.185,2.0,1.0,1.0,33.5,33.3,33.3,3.7,3.3,2.6125,0.6373185871226371,-0.012596033938092959,0.7583904378850485,0.00318202146358239,-0.081845,-37.726653
11.185,2.0,1.0,1.0,33.5,33.3,33.3,3.7,3.3,2.615,0.6309874169509365,-0.012815495984386235,0.7635194311809321,0.0031152184000995246,-0.082836,-37.595967
11.185,2.0,1.0,1.0,33.5,33.3,33.3,3.7,3.3,2.6175,0.6245756018328963,-0.013038644593302732,0.7686246768043579,0.0030450686376554997,-0.083848,-37.464713
11.185,2.0,1.0,1.0,33.5,33.3,33.3,3.7,3.3,2.62,0.618082274834259,-0.0132655485998458,0.7737052567278525,0.002971453743765996,-0.08488,-37.332879
11.185,2.0,1.0,1.0,33.5,33.3,33.3,3.7,3.3,2.6225,0.6115065596394025,-0.013496278247342536,0.7787602251056179,0.002894250753682635,-0.085933,-37.200453
11.185,2.0,1.0,1.0,33.5,33.3,33.3,3.7,3.3,2.625,0.604847570622607,-0.0137309052135687,0.783788607405865,0.00281333197249668,-0.087007,-37.067422
11.185,2.0,1.0,1.0,33.5,33.3,33.3,3.7,3.3,2.6275,0.5981044129317808,-0.013969502636957414,0.7887893995150913,0.0027285647672573685,-0.088104,-36.933776
11.185,2.0,1.0,1.0,33.5,33.3,33.3,3.7,3.3,2.63,0.5912761825854279,-0.014212145142844442,0.7937615668133065,0.0026398113485187166,-0.089224,-36.7995
11.185,2.0,1.0,1.0,33.5,33.3,33.3,3.7,3.3,2.6325,0.5843619665836494,-0.014458908869698571,0.798704043219177,0.0025469285406884393,-0.090368,-36.664582
11.185,2.0,1.0,1.0,33.5,33.3,33.3,3.7,3.3,2.635,0.5773608430340347,-0.014709871495278146,0.8036157302040209,0.0024497675405097054,-0.091535,-36.52901
11.185,2.0,1.0,1.0,33.5,33.3,33.3,3.7,3.3,2.6375,0.5702718812933286,-0.014965112262648097,0.8084954957735249,0.002348173662960109,-0.092728,-36.392769
11.185,2.0,1.0,1.0,33.5,33.3,33.3,3.7,3.3,2.64,0.5630941421258031,-0.015224712005983645,0.8133421734160207,0.0022419860738015465,-0.093946,-36.255846
11.185,2.0,1.0,1.0,33.5,33.3,33.3,3.7,3.3,2.6425,0.5558266778793349,-0.015488753176078725,0.8181545610160919,0.002131037507961556,-0.09519,-36.118228
11.185,2.0,1.0,1.0,33.5,33.3,33.3,3.7,3.3,2.645,0.5484685326802139,-0.015757319865465615,0.8229314197322325,0.002015153972866835,-0.096461,-35.979899
11.185,2.0,1.0,1.0,33.5,33.3,33.3,3.7,3.3,2.6475,0.5410187426477843,-0.01603049783304341,0.8276714728372137,0.0018941544357874709,-0.09776,-35.840845
11.185,2.0,1.0,1.0,33.5,33.3,33.3,3.7,3.3,2.65,0.5334763361300496,-0.016308374528099707,0.8323734045197628,0.001767850494180858,-0.099088,-35.701051
11.185,2.0,1.0,1.0,33.5,33.3,33.3,3.7,3.3,2.6525,0.525840333961481,-0.016591039113595704,0.8370358586460611,0.001636046027951095,-0.100445,-35.560502
11.185,2.0,1.0,1.0,33.5,33.3,33.3,3.7,3.3,2.655,0.5181097497442703,-0.016878582488571336,0.8416574374795311,0.0014985368324576672,-0.101833,-35.419182
11.185,2.0,1.0,1.0,33.5,33.3,33.3,3.7,3.3,2.6575,0.5102835901543887,-0.0171710973095089,0.8462367003572723,0.0013551102310211949,-0.103251,-35.277075
11.185,2.0,1.0,1.0,33.5,33.3,33.3,3.7,3.3,2.66,0.5023608552738521,-0.01746867801047551,0.8507721623214334,0.0012055446655783392,-0.104702,-35.134164
11.185,2.0,1.0,1.0,33.5,33.3,33.3,3.7,3.3,2.6625,0.4943405389506924,-0.01777142082184325,0.8552622927037133,0.0010496092640352316,-0.106186,-34.990434
11.185,2.0,1.0,1.0,33.5,33.3,33.3,3.7,3.3,2.665,0.48622162918817846,-0.018079423787362943,0.859705513661086,0.000887063382756087,-0.107705,-34.845866
11.185,2.0,1.0,1.0,33.5,33.3,33.3,3.7,3.3,2.6675,0.4780031085649652,-0.01839278677934008,0.8641001986607275,0.0007176561225027209,-0.109258,-34.700442
11.185,2.0,1.0,1.0,33.5,33.3,33.3,3.7,3.3,2.67,0.46968395468789076,-0.018711611511633773,0.8684446709120177,0.0005411258160065187,-0.110849,-34.554146
11.185,2.0,1.0,1.0,33.5,33.3,33.3,3.7,3.3,2.6725,0.461263140679259,-0.019036001550165185,0.8727372017433559,0.0003571994852104009,-0.112476,-34.406956
11.185,2.0,1.0,1.0,33.5,33.3,33.3,3.7,3.3,2.675,0.4527396357005533,-0.019366062320584892,0.8769760089213905,0.00016559226606006853,-0.114142,-34.258856
11.185,2.0,1.0,1.0,33.5,33.3,33.3,3.7,3.3,2.6775,0.4441124055146162,-0.01970190111270854,0.8811592549101128,-3.3993201448920944e-05,-0.115849,-34.109824
11.185,2.0,1.0,1.0,33.5,33.3,33.3,3.7,3.3,2.68,0.43538041308845304,-0.020043627081282177,0.8852850450671087,-0.00024186742045029033,-0.117597,-33.959841
11.185,2.0,1.0,1.0,33.5,33.3,33.3,3.7,3.3,2.6825,0.4265426192389477,-0.02039135124258642,0.889351425774067,-0.00045835472430010395,-0.119387,-33.808886
11.185,2.0,1.0,1.0,33.5,33.3,33.3,3.7,3.3,2.685,0.41759798332389475,-0.020745186466331014,0.8933563824984668,-0.000683794006498141,-0.121221,-33.656937
11.185,2.0,1.0,1.0,33.5,33.3,33.3,3.7,3.3,2.6875,0.408545463980899,-0.021105247462223,0.897297837783135,-0.000918539496598676,-0.123101,-33.503973
11.185,2.0,1.0,1.0,33.5,33.3,33.3,3.7,3.3,2.69,0.3993840199168605,-0.02147165076051815,0.9011736491601359,-0.0011629615855427895,-0.125029,-33.34997
11.185,2.0,1.0,1.0,33.5,33.3,33.3,3.7,3.3,2.6925,0.39011261075088444,-0.0218445146857811,0.9049816069852024,-0.0014174477041430057,-0.127005,-33.194905
11.185,2.0,1.0,1.0,33.5,33.3,33.3,3.7,3.3,2.695,0.3807301979136934,-0.0222239593229829,0.9087194321886198,-0.0016824032587763806,-0.129031,-33.038754
11.185,2.0,1.0,1.0,33.5,33.3,33.3,3.7,3.3,2.6975,0.3712357456067331,-0.022610106474958012,0.9123847739381727,-0.001958252628703975,-0.13111,-32.881492
11.185,2.0,1.0,1.0,33.5,33.3,33.3,3.7,3.3,2.7,0.3616282218244474,-0.023003079610120908,0.9159752072094114,-0.0022454402298277753,-0.133243,-32.723094
11.185,2.0,1.0,1.0,33.5,33.3,33.3,3.7,3.3,2.7025,0.35190659944335034,-0.023403003799202727,0.9194882302581134,-0.002544431650134276,-0.135432,-32.563533
11.185,2.0,1.0,1.0,33.5,33.3,33.3,3.7,3.3,2.705,0.34206985738182744,-0.023810005639612962,0.9229212619893918,-0.002855714862553192,-0.137679,-32.402782
11.185,2.0,1.0,1.0,33.5,33.3,33.3,3.7,3.3,2.7075,0.33211698183481836,-0.0242242131658525,0.9262716392174388,-0.003179801521490975,-0.139987,-32.240812
11.185,2.0,1.0,1.0,33.5,33.3,33.3,3.7,3.3,2.71,0.3220469675878603,-0.024645755744201508,0.9295366138093588,-0.0035172283498844433,-0.142357,-32.077595
11.185,2.0,1.0,1.0,33.5,33.3,33.3,3.7,3.3,2.7125,0.3118588194152651,-0.025074763949675977,0.932713349705984,-0.0038685586242687034,-0.144792,-31.913101
11.185,2.0,1.0,1.0,33.5,33.3,33.3,3.7,3.3,2.715,0.3015515535675828,-0.025511369422983207,0.9357989198119088,-0.00423438376607062,-0.147294,-31.747297
11.185,2.0,1.0,1.0,33.5,33.3,33.3,3.7,3.3,2.7175,0.29112419935387324,-0.025955704704908027,0.9387903027462732,-0.004615325048134558,-0.149867,-31.580153
11.185,2.0,1.0,1.0,33.5,33.3,33.3,3.7,3.3,2.72,0.28057580082477307,-0.026407903045218013,0.9416843794450203,-0.0050120354263690275,-0.152512,-31.411634
11.185,2.0,1.0,1.0,33.5,33.3,33.3,3.7,3.3,2.7225,0.26990541856278627,-0.026868098182787147,0.9444779296044636,-0.00542520150738355,-0.155233,-31.241707
11.185,2.0,1.0,1.0,33.5,33.3,33.3,3.7,3.3,2.725,0.2591121315868313,-0.02733642409318564,0.9471676279550083,-0.00585554566407221,-0.158033,-31.070335
11.185,2.0,1.0,1.0,33.5,33.3,33.3,3.7,3.3,2.7275,0.24819503937860982,-0.027813014699474555,0.9497500403527567,-0.006303828312315155,-0.160915,-30.897481
11.185,2.0,1.0,1.0,33.5,33.3,33.3,3.7,3.3,2.73,0.2371532640391212,-0.028298003541351053,0.9522216196754697,-0.00677085036331672,-0.163883,-30.723107
11.185,2.0,1.0,1.0,33.5,33.3,33.3,3.7,3.3,2.7325,0.22598595258435078,-0.028791523397113293,0.954578701507976,-0.007257455867607831,-0.16694,-30.547173
11.185,2.0,1.0,1.0,33.5,33.3,33.3,3.7,3.3,2.735,0.21469227939008914,-0.0292937058521354,0.9568174996005377,-0.007764534868419759,-0.170089,-30.369638
11.185,2.0,1.0,1.0,33.5,33.3,33.3,3.7,3.3,2.7375,0.20327144879677647,-0.02980468080664092,0.95893410108192,-0.008293026484018572,-0.173336,-30.190457
11.185,2.0,1.0,1.0,33.5,33.3,33.3,3.7,3.3,2.74,0.19172269788643645,-0.030324575914528595,0.9609244614069303,-0.008843922240691506,-0.176684,-30.009587
11.185,2.0,1.0,1.0,33.5,33.3,33.3,3.7,3.3,2.7425,0.1800452994450178,-0.030853515943801573,0.9627843990159609,-0.009418269680436778,-0.180138,-29.826981
11.185,2.0,1.0,1.0,33.5,33.3,33.3,3.7,3.3,2.745,0.1682385651249455,-0.031391622047763384,0.9645095896815423,-0.01001717627005095,-0.183703,-29.642591
11.185,2.0,1.0,1.0,33.5,33.3,33.3,3.7,3.3,2.7475,0.15630184882438058,-0.03193901093453225,0.9660955605140784,-0.01064181364128019,-0.187384,-29.456365
11.185,2.0,1.0,1.0,33.5,33.3,33.3,3.7,3.3,2.75,0.144234550301611,-0.032495793920555,0.967537683595724,-0.0112934221950417,-0.191186,-29.268251
11.185,2.0,1.0,1.0,33.5,33.3,33.3,3.7,3.3,2.7525,0.13203611904526988,-0.033062075851624385,0.9688311692077243,-0.011973316106482765,-0.195115,-29.078195
11.185,2.0,1.0,1.0,33.5,33.3,33.3,3.7,3.3,2.755,0.11970605842366604,-0.033637953872366205,0.9699710586124394,-0.01268288877188426,-0.199178,-28.886139
11.185,2.0,1.0,1.0,33.5,33.3,33.3,3.7,3.3,2.7575,0.10724393013950602,-0.034223516022204324,0.9709522163465967,-0.01342361874320246,-0.203381,-28.692024
11.185,2.0,1.0,1.0,33.5,33.3,33.3,3.7,3.3,2.76,0.09464935901986526,-0.034818839632347554,0.9717693219770484,-0.014197076201447303,-0.207731,-28.495787
11.185,2.0,1.0,1.0,33.5,33.3,33.3,3.7,3.3,2.7625,0.08192203817529331,-0.03542398949428624,0.9724168612642803,-0.015004930026217748,-0.212236,-28.297362
11.185,2.0,1.0,1.0,33.5,33.3,33.3,3.7,3.3,2.765,0.06906173456679074,-0.03603901576552939,0.9728891166721155,-0.015848955525643176,-0.216904,-28.096683
11.185,2.0,1.0,1.0,33.5,33.3,33.3,3.7,3.3,2.7675,0.05606829502500514,-0.03666395157271195,0.9731801571542552,-0.01673104289884412,-0.221743,-27.893677
11.185,2.0,1.0,1.0,33.5,33.3,33.3,3.7,3.3,2.77,0.042941652772600265,-0.037298810265613686,0.9732838271394632,-0.017653206511954636,-0.226764,-27.688269
11.185,2.0,1.0,1.0,33.5,33.3,33.3,3.7,3.3,2.7725,0.02968183450857137,-0.03794358226784161,0.9731937346270867,-0.018617595078902517,-0.231976,-27.480382
11.185,2.0,1.0,1.0,33.5,33.3,33.3,3.7,3.3,2.775,0.016288968122487438,-0.03859823146072415,0.9729032382930664,-0.019626502849702257,-0.23739,-27.269934
11.185,2.0,1.0,1.0,33.5,33.3,33.3,3.7,3.3,2.7775,0.002763291117562817,-0.039262691026045564,0.9724054334934038,-0.020682381922193377,-0.243017,-27.056837
11.185,2.0,1.0,1.0,33.5,33.3,33.3,3.7,3.3,2.78,-0.010894840165585187,-0.03993685866028415,0.9716931370369715,-0.02178785580819246,-0.248871,-26.841003
11.185,2.0,1.0,1.0,33.5,33.3,33.3,3.7,3.3,2.7825,-0.024684940417161867,-0.040620591057569926,0.9707588705822566,-0.02294573440220273,-0.254965,-26.622335
11.185,2.0,1.0,1.0,33.5,33.3,33.3,3.7,3.3,2.785,-0.038606384192716496,-0.041313697540151566,0.969594842492836,-0.02415903052047567,-0.261314,-26.400734
11.185,2.0,1.0,1.0,33.5,33.3,33.3,3.7,3.3,2.7875,-0.05265839356615056,-0.042015932693108694,0.9681929279636411,-0.025430978200702198,-0.267934,-26.176095
11.185,2.0,1.0,1.0,33.5,33.3,33.3,3.7,3.3,2.79,-0.06684002442702518,-0.04272698783360222,0.9665446472039931,-0.026765052978386706,-0.274842,-25.948307
11.185,2.0,1.0,1.0,33.5,33.3,33.3,3.7,3.3,2.7925,-0.08115015121611524,-0.0434464811131613,0.9646411414333983,-0.028164994385502917,-0.282058,-25.717253
11.185,2.0,1.0,1.0,33.5,33.3,33.3,3.7,3.3,2.795,-0.09558744985485737,-0.04417394601317843,0.9624731464116355,-0.029634830950946735,-0.289601,-25.48281
11.185,2.0,1.0,1.0,33.5,33.3,33.3,3.7,3.3,2.7975,-0.11015037857786031,-0.04490881794745839,0.9600309631850449,-0.03117890802122435,-0.297496,-25.244848
11.185,2.0,1.0,1.0,33.5,33.3,33.3,3.7,3.3,2.8,-0.12483715632147745,-0.04565041862952595,0.9573044256853334,-0.03280191876453179,-0.305766,-25.00323
11.185,2.0,1.0,1.0,33.5,33.3,33.3,3.7,3.3,2.8025,-0.13964573825296342,-0.04639793779415449,0.9542828647647831,-0.034508938772720384,-0.314439,-24.757811
11.185,2.0,1.0,1.0,33.5,33.3,33.3,3.7,3.3,2.805,-0.1545737879412726,-0.04715041177939957,0.950955068191478,-0.03630546473458719,-0.323544,-24.508436
11.185,2.0,1.0,1.0,33.5,33.3,33.3,3.7,3.3,2.8075,-0.16961864556850584,-0.04790669837372767,0.9473092360589016,-0.03819745772155277,-0.333115,-24.254944
11.185,2.0,1.0,1.0,33.5,33.3,33.3,3.7,3.3,2.81,-0.18477729145569724,-0.04866544720811586,0.9433329309848115,-0.04019139170425843,-0.343188,-23.997162
11.185,2.0,1.0,1.0,33.5,33.3,33.3,3.7,3.3,2.8125,-0.200046304022409,-0.0494250648195819,0.939013022383305,-0.0422943080071915,-0.353803,-23.734907
11.185,2.0,1.0,1.0,33.5,33.3,33.3,3.7,3.3,2.815,-0.21542181110921005,-0.050183673323257884,0.9343356239901002,-0.04451387650944063,-0.365004,-23.467985
11.185,2.0,1.0,1.0,33.5,33.3,33.3,3.7,3.3,2.8175,-0.2308994333561406,-0.05093906139567668,0.9292860237029033,-0.04685846451433121,-0.376842,-23.196188
11.185,2.0,1.0,1.0,33.5,33.3,33.3,3.7,3.3,2.82,-0.24647421803699343,-0.05168862598065938,0.9238486046651015,-0.04933721434011432,-0.38937,-22.919298
11.185,2.0,1.0,1.0,33.5,33.3,33.3,3.7,3.3,2.8225,-0.2621405613834255,-0.052429302766076394,0.9180067563710503,-0.051960130828793284,-0.402652,-22.637081
11.185,2.0,1.0,1.0,33.5,33.3,33.3,3.7,3.3,2.825,-0.2778921169750457,-0.053157483025484446,0.9117427744047513,-0.05473818013059272,-0.416756,-22.349288
11.185,2.0,1.0,1.0,33.5,33.3,33.3,3.7,3.3,2.8275,-0.2937216871965334,-0.05386891384835138,0.9050377472417214,-0.05768340129630557,-0.431759,-22.055653
