1,w,sub_t,h,l1,l2,l3,g1,g2,Freq,S11_re,S21_re,S11_img,S21_img,S11_dB,S21_dB
11.185,2.0,1.0,1.0,34.0,33.0,33.0,2.0,2.0,2.5,0.779399995631201,-0.0155770151602097,0.614064015134345,0.0120941130390042,-0.067671,-34.101498
11.185,2.0,1.0,1.0,34.0,33.0,33.0,2.0,2.0,2.5025,0.774774634072428,-0.015882773744169677,0.6197591955628169,0.012129013387129831,-0.068385,-33.986186
11.185,2.0,1.0,1.0,34.0,33.0,33.0,2.0,2.0,2.505,0.7700837429323052,-0.016193979496287796,0.6254464866043431,0.012161875162048386,-0.069112,-33.870507
11.185,2.0,1.0,1.0,34.0,33.0,33.0,2.0,2.0,2.5075,0.7653266387132786,-0.01651073514866133,0.6311254174620785,0.012192608676696436,-0.069854,-33.754456
11.185,2.0,1.0,1.0,34.0,33.0,33.0,2.0,2.0,2.51,0.7605026280646724,-0.016833145523079567,0.6367955030131561,0.012221120866866598,-0.070611,-33.638025
11.185,2.0,1.0,1.0,34.0,33.0,33.0,2.0,2.0,2.5125,0.7556110076866513,-0.0171613175693092,0.6424562433515879,0.012247315158684569,-0.071382,-33.521209
11.185,2.0,1.0,1.0,34.0,33.0,33.0,2.0,2.0,2.515,0.7506510642364128,-0.01749536040354223,0.6481071233164155,0.01227109133055642,-0.072169,-33.404001
11.185,2.0,1.0,1.0,34.0,33.0,33.0,2.0,2.0,2.5175,0.7456220742368761,-0.01783538534695526,0.6537476120046002,0.012292345369340747,-0.072971,-33.286395
11.185,2.0,1.0,1.0,34.0,33.0,33.0,2.0,2.0,2.52,0.7405233039881167,-0.018181505964325648,0.6593771622681546,0.012310969320486486,-0.073789,-33.168384
11.185,2.0,1.0,1.0,34.0,33.0,33.0,2.0,2.0,2.5225,0.7353540094818588,-0.018533838102641562,0.6649952101949561,0.012326851131866413,-0.074623,-33.049963
11.185,2.0,1.0,1.0,34.0,33.0,33.0,2.0,2.0,2.525,0.7301134363193041,-0.018892499929640486,0.6706011745727166,0.012339874491022309,-0.075474,-32.931124
11.185,2.0,1.0,1.0,34.0,33.0,33.0,2.0,2.0,2.5275,0.7248008196326345,-0.019257611972200932,0.6761944563355236,0.012349918655524936,-0.076342,-32.811861
11.185,2.0,1.0,1.0,34.0,33.0,33.0,2.0,2.0,2.53,0.7194153840105302,-0.01962929715450759,0.681774437992361,0.01235685827613729,-0.077228,-32.692167
11.185,2.0,1.0,1.0,34.0,33.0,33.0,2.0,2.0,2.5325,0.7139563434280669,-0.0200076808359006,0.6873404830369995,0.012360563212454385,-0.078131,-32.572036
11.185,2.0,1.0,1.0,34.0,33.0,33.0,2.0,2.0,2.535,0.7084229011813791,-0.020392890848313378,0.6928919353386276,0.012360898340677101,-0.079052,-32.451459
11.185,2.0,1.0,1.0,34.0,33.0,33.0,2.0,2.0,2.5375,0.7028142498275075,-0.02078505753319219,0.6984281185125564,0.012357723353161765,-0.079992,-32.330432
11.185,2.0,1.0,1.0,34.0,33.0,33.0,2.0,2.0,2.54,0.6971295711298643,-0.021184313777784212,0.7039483352703293,0.012350892549367632,-0.080951,-32.208946
11.185,2.0,1.0,1.0,34.0,33.0,33.0,2.0,2.0,2.5425,0.6913680360097793,-0.02159079505066714,0.709451866748528,0.01234025461780869,-0.08193,-32.086994
11.185,2.0,1.0,1.0,34.0,33.0,33.0,2.0,2.0,2.545,0.6855288045046262,-0.02200463943638521,0.714937971815554,0.012325652408594491,-0.082929,-31.964569
11.185,2.0,1.0,1.0,34.0,33.0,33.0,2.0,2.0,2.5475,0.6796110257330567,-0.022425987669042715,0.7204058863556159,0.012306922696125492,-0.083948,-31.841665
11.185,2.0,1.0,1.0,34.0,33.0,33.0,2.0,2.0,2.55,0.673613837867881,-0.022854983164693927,0.7258548225291713,0.01228389593148722,-0.084989,-31.718273
11.185,2.0,1.0,1.0,34.0,33.0,33.0,2.0,2.0,2.5525,0.6675363681172182,-0.0232917720523537,0.7312839680089815,0.012256395984063414,-0.086051,-31.594386
11.185,2.0,1.0,1.0,34.0,33.0,33.0,2.0,2.0,2.555,0.6613777327145094,-0.023736503203439653,0.736692485190969,0.012224239871867095,-0.087135,-31.469996
11.185,2.0,1.0,1.0,34.0,33.0,33.0,2.0,2.0,2.5575,0.655137036918081,-0.024189328259438186,0.7420795103790074,0.012187237480060356,-0.088242,-31.345097
11.185,2.0,1.0,1.0,34.0,33.0,33.0,2.0,2.0,2.56,0.6488133750209588,-0.02465040165757123,0.7474441529427358,0.012145191267110332,-0.089372,-31.219679
11.185,2.0,1.0,1.0,34.0,33.0,33.0,2.0,2.0,2.5625,0.6424058303716832,-0.02511988065422006,0.752785494447486,0.01209789595799877,-0.090526,-31.093736
11.185,2.0,1.0,1.0,34.0,33.0,33.0,2.0,2.0,2.565,0.6359134754069143,-0.025597925345844,0.7581025877553533,0.012045138223874813,-0.091705,-30.967259
11.185,2.0,1.0,1.0,34.0,33.0,33.0,2.0,2.0,2.5675,0.6293353716966844,-0.026084698687107468,0.763394456096416,0.011986696347508928,-0.092909,-30.840241
11.185,2.0,1.0,1.0,34.0,33.0,33.0,2.0,2.0,2.57,0.6226705700031797,-0.026580366505907,0.7686600921090766,0.011922339873874326,-0.094139,-30.712673
11.185,2.0,1.0,1.0,34.0,33.0,33.0,2.0,2.0,2.5725,0.6159181103540081,-0.027085097514964098,0.7738984568484611,0.011851829245146779,-0.095395,-30.584546
11.185,2.0,1.0,1.0,34.0,33.0,33.0,2.0,2.0,2.575,0.609077022130954,-0.027599063319620514,0.7791084787617698,0.011774915419379303,-0.096679,-30.455853
11.185,2.0,1.0,1.0,34.0,33.0,33.0,2.0,2.0,2.5775,0.6021463241752986,-0.028122438421444927,0.7842890526294345,0.01169133947206883,-0.09799,-30.326585
11.185,2.0,1.0,1.0,34.0,33.0,33.0,2.0,2.0,2.58,0.5951250249108321,-0.028655400217225444,0.7894390384708987,0.011600832179792638,-0.099331,-30.196733
11.185,2.0,1.0,1.0,34.0,33.0,33.0,2.0,2.0,2.5825,0.5880121224857598,-0.029198128992889913,0.7945572604138011,0.011503113585050318,-0.100701,-30.066289
11.185,2.0,1.0,1.0,34.0,33.0,33.0,2.0,2.0,2.585,0.5808066049347856,-0.029750807911856744,0.7996425055252863,0.011397892541401245,-0.102102,-29.935243
11.185,2.0,1.0,1.0,34.0,33.0,33.0,2.0,2.0,2.5875,0.5735074503627132,-0.03031362299727857,0.8046935226041284,0.011284866237942805,-0.103533,-29.803587
11.185,2.0,1.0,1.0,34.0,33.0,33.0,2.0,2.0,2.59,0.5661136271510183,-0.030886763107597696,0.8097090209323128,0.011163719702123156,-0.104998,-29.671312
11.185,2.0,1.0,1.0,34.0,33.0,33.0,2.0,2.0,2.5925,0.5586240941888985,-0.031470419904785385,0.8146876689846566,0.01103412527983007,-0.106495,-29.538408
11.185,2.0,1.0,1.0,34.0,33.0,33.0,2.0,2.0,2.595,0.551037801130438,-0.03206478781458335,0.8196280930950104,0.010895742091645254,-0.108026,-29.404866
11.185,2.0,1.0,1.0,34.0,33.0,33.0,2.0,2.0,2.5975,0.543353688679581,-0.032670063978013766,0.8245288760775347,0.010748215464090195,-0.109593,-29.270677
11.185,2.0,1.0,1.0,34.0,33.0,33.0,2.0,2.0,2.6,0.5355706889047525,-0.033286448193362086,0.8293885558014734,0.010591176334634094,-0.111195,-29.13583
11.185,2.0,1.0,1.0,34.0,33.0,33.0,2.0,2.0,2.6025,0.527687725585056,-0.03391414284777163,0.8342056237178088,0.010424240629164328,-0.112835,-29.000316
11.185,2.0,1.0,1.0,34.0,33.0,33.0,2.0,2.0,2.605,0.5197037145900963,-0.034553352837521534,0.838978523336115,0.010247008610556366,-0.114513,-28.864125
11.185,2.0,1.0,1.0,34.0,33.0,33.0,2.0,2.0,2.6075,0.5116175642956138,-0.03520428547598076,0.8437056486498664,0.010059064196903604,-0.116231,-28.727246
11.185,2.0,1.0,1.0,34.0,33.0,33.0,2.0,2.0,2.61,0.5034281760372432,-0.03586715038814995,0.8483853425083933,0.009859974247894953,-0.11799,-28.58967
11.185,2.0,1.0,1.0,34.0,33.0,33.0,2.0,2.0,2.6125,0.49513444460485834,-0.036542159390614996,0.8530158949336204,0.009649287817745288,-0.11979,-28.451386
11.185,2.0,1.0,1.0,34.0,33.0,33.0,2.0,2.0,2.615,0.4867352587801062,-0.03722952635563812,0.8575955413796521,0.009426535373000318,-0.121634,-28.312382
11.185,2.0,1.0,1.0,34.0,33.0,33.0,2.0,2.0,2.6175,0.47822950191992036,-0.03792946705800901,0.8621224609331902,0.009191227973446684,-0.123522,-28.17265
11.185,2.0,1.0,1.0,34.0,33.0,33.0,2.0,2.0,2.62,0.4696160525889576,-0.03864219900316461,0.866594774452704,0.008942856414265406,-0.125457,-28.032177
11.185,2.0,1.0,1.0,34.0,33.0,33.0,2.0,2.0,2.6225,0.4608937852440881,-0.03936794123496506,0.8710105426442074,0.008680890327463602,-0.127439,-27.890951
11.185,2.0,1.0,1.0,34.0,33.0,33.0,2.0,2.0,2.625,0.452061570974294,-0.0401069141213774,0.875367764071396,0.00840477724051808,-0.12947,-27.748963
11.185,2.0,1.0,1.0,34.0,33.0,33.0,2.0,2.0,2.6275,0.4431182782995022,-0.04085933911617778,0.8796643730978335,0.008113941590048853,-0.131552,-27.6062
11.185,2.0,1.0,1.0,34.0,33.0,33.0,2.0,2.0,2.63,0.43406277403214044,-0.04162543849462349,0.883898237758796,0.007807783688225851,-0.133686,-27.462651
11.185,2.0,1.0,1.0,34.0,33.0,33.0,2.0,2.0,2.6325,0.4248939242054308,-0.042405435060876934,0.8880671575602705,0.007485678639486538,-0.135874,-27.318302
11.185,2.0,1.0,1.0,34.0,33.0,33.0,2.0,2.0,2.635,0.41561059507269593,-0.04319955182477949,0.8921688612025408,0.007146975205011292,-0.138118,-27.173143
11.185,2.0,1.0,1.0,34.0,33.0,33.0,2.0,2.0,2.6375,0.40621165418224586,-0.04400801164536964,0.8962010042256827,0.006790994612264835,-0.14042,-27.027161
11.185,2.0,1.0,1.0,34.0,33.0,33.0,2.0,2.0,2.64,0.39669597153267233,-0.04483103683832658,0.9001611665742018,0.006417029306765299,-0.142782,-26.880343
11.185,2.0,1.0,1.0,34.0,33.0,33.0,2.0,2.0,2.6425,0.3870624208137557,-0.04566884874427545,0.9040468500779335,0.006024341643089787,-0.145205,-26.732676
11.185,2.0,1.0,1.0,34.0,33.0,33.0,2.0,2.0,2.645,0.377309880738476,-0.046521667254639104,0.9078554758462343,0.005612162511959732,-0.147692,-26.584148
11.185,2.0,1.0,1.0,34.0,33.0,33.0,2.0,2.0,2.6475,0.3674372364720281,-0.0473897102914333,0.9115843815723677,0.00517968990008084,-0.150246,-26.434744
11.185,2.0,1.0,1.0,34.0,33.0,33.0,2.0,2.0,2.65,0.3574433811641003,-0.04827319323710207,0.9152308187448901,0.0047260873792273365,-0.152868,-26.284451
11.185,2.0,1.0,1.0,34.0,33.0,33.0,2.0,2.0,2.6525,0.3473272175911506,-0.0491723283101468,0.9187919497627102,0.004250482520873727,-0.15556,-26.133255
11.185,2.0,1.0,1.0,34.0,33.0,33.0,2.0,2.0,2.655,0.33708765991580925,-0.05008732388194803,0.9222648449503833,0.003751965232471137,-0.158326,-25.981142
11.185,2.0,1.0,1.0,34.0,33.0,33.0,2.0,2.0,2.6575,0.32672363557108514,-0.051018383729772604,0.9256464794700662,0.003229586011257173,-0.161168,-25.828098
11.185,2.0,1.0,1.0,34.0,33.0,33.0,2.0,2.0,2.66,0.31623408727754854,-0.051965706220529,0.9289337301264365,0.0026823541112621,-0.164089,-25.674107
11.185,2.0,1.0,1.0,34.0,33.0,33.0,2.0,2.0,2.6625,0.3056179752022573,-0.052929483419357555,0.9321233720607401,0.002109235618941261,-0.167092,-25.519156
11.185,2.0,1.0,1.0,34.0,33.0,33.0,2.0,2.0,2.665,0.2948742792687894,-0.05390990011662455,0.9352120753299863,0.0015091514326146017,-0.17018,-25.363227
11.185,2.0,1.0,1.0,34.0,33.0,33.0,2.0,2.0,2.6675,0.28400200162845346,-0.054907132766319575,0.9381964013671591,0.0008809751406373728,-0.173355,-25.206307
11.185,2.0,1.0,1.0,34.0,33.0,33.0,2.0,2.0,2.67,0.27300016930340976,-0.0559213483282386,0.9410727993182101,0.00022353079295058496,-0.176622,-25.048378
11.185,2.0,1.0,1.0,34.0,33.0,33.0,2.0,2.0,2.6725,0.2618678370132802,-0.05695270300565285,0.9438376022513624,-0.0004644094396231018,-0.179984,-24.889424
11.185,2.0,1.0,1.0,34.0,33.0,33.0,2.0,2.0,2.675,0.25060409019764784,-0.058001340869418716,0.9464870232341707,-0.001184127724271353,-0.183444,-24.72943
11.185,2.0,1.0,1.0,34.0,33.0,33.0,2.0,2.0,2.6775,0.2392080482477451,-0.05906739235866965,0.949017151273606,-0.001936963149518446,-0.187007,-24.568376
11.185,2.0,1.0,1.0,34.0,33.0,33.0,2.0,2.0,2.68,0.22767886796167996,-0.06015097264733347,0.95142394711423,-0.002724314439557204,-0.190676,-24.406247
11.185,2.0,1.0,1.0,34.0,33.0,33.0,2.0,2.0,2.6825,0.21601574723860237,-0.061252179864735114,0.9537032388894088,-0.00354764280649549,-0.194455,-24.243025
11.185,2.0,1.0,1.0,34.0,33.0,33.0,2.0,2.0,2.685,0.20421792902839567,-0.06237109315746728,0.9558507176203299,-0.0044084749477805,-0.19835,-24.07869
11.185,2.0,1.0,1.0,34.0,33.0,33.0,2.0,2.0,2.6875,0.19228470555478586,-0.06350777057851963,0.9578619325574115,-0.005308406196425289,-0.202364,-23.913225
11.185,2.0,1.0,1.0,34.0,33.0,33.0,2.0,2.0,2.69,0.18021542283118347,-0.06466224678835411,0.9597322863585183,-0.0062491038320377085,-0.206503,-23.746611
11.185,2.0,1.0,1.0,34.0,33.0,33.0,2.0,2.0,2.6925,0.16800948549003974,-0.06583453055117543,0.9614570300982861,-0.007232310561041026,-0.210772,-23.578827
11.185,2.0,1.0,1.0,34.0,33.0,33.0,2.0,2.0,2.695,0.15566636194829797,-0.06702460200805803,0.9630312581026212,-0.008259848174862285,-0.215176,-23.409854
11.185,2.0,1.0,1.0,34.0,33.0,33.0,2.0,2.0,2.6975,0.14318558993322086,-0.06823240970684862,0.9644499026023767,-0.009333621395272723,-0.219722,-23.239672
11.185,2.0,1.0,1.0,34.0,33.0,33.0,2.0,2.0,2.7,0.13056678239503008,-0.06945786736683308,0.9657077281999891,-0.010455621916460928,-0.224414,-23.068259
11.185,2.0,1.0,1.0,34.0,33.0,33.0,2.0,2.0,2.7025,0.1178096338348941,-0.07070085035402741,0.9667993261428053,-0.011627932653826781,-0.22926,-22.895594
11.185,2.0,1.0,1.0,34.0,33.0,33.0,2.0,2.0,2.705,0.10491392707930233,-0.07196119184060376,0.9677191083967003,-0.012852732209879,-0.234266,-22.721656
11.185,2.0,1.0,1.0,34.0,33.0,33.0,2.0,2.0,2.7075,0.09187954053451365,-0.07323867861936013,0.9684613015134972,-0.014132299568007255,-0.23944,-22.546421
11.185,2.0,1.0,1.0,34.0,33.0,33.0,2.0,2.0,2.71,0.07870645595769218,-0.07453304654126328,0.9690199402857294,-0.015469019025264492,-0.244789,-22.369866
11.185,2.0,1.0,1.0,34.0,33.0,33.0,2.0,2.0,2.7125,0.06539476678463294,-0.07584397554091125,0.9693888611822066,-0.01686538537564052,-0.25032,-22.191968
11.185,2.0,1.0,1.0,34.0,33.0,33.0,2.0,2.0,2.715,0.05194468705749774,-0.07717108421122373,0.969561695558018,-0.018324009355602494,-0.256043,-22.012703
11.185,2.0,1.0,1.0,34.0,33.0,33.0,2.0,2.0,2.7175,0.038356561000002384,-0.07851392388475463,0.9695318626326592,-0.01984762336393222,-0.261966,-21.832045
11.185,2.0,1.0,1.0,34.0,33.0,33.0,2.0,2.0,2.72,0.024630873291830294,-0.07987197217466696,0.9692925622302562,-0.021439087468063972,-0.268099,-21.649968
11.185,2.0,1.0,1.0,34.0,33.0,33.0,2.0,2.0,2.7225,0.010768260098872587,-0.08124462592358477,0.9688367672761974,-0.023101395709223628,-0.274451,-21.466448
11.185,2.0,1.0,1.0,34.0,33.0,33.0,2.0,2.0,2.725,-0.003230479078642558,-0.08263119350315237,0.9681572160449279,-0.02483768271863235,-0.281034,-21.281455
11.185,2.0,1.0,1.0,34.0,33.0,33.0,2.0,2.0,2.7275,-0.017364368672262525,-0.08403088640117154,0.9672464041543737,-0.026651230656883986,-0.287858,-21.094964
11.185,2.0,1.0,1.0,34.0,33.0,33.0,2.0,2.0,2.73,-0.03163224335102118,-0.08544281002651515,0.9660965763032485,-0.028545476488237867,-0.294936,-20.906945
11.185,2.0,1.0,1.0,34.0,33.0,33.0,2.0,2.0,2.7325,-0.04603273328485416,-0.08686595365461539,0.9646997177486414,-0.030524019601004447,-0.30228,-20.717368
11.185,2.0,1.0,1.0,34.0,33.0,33.0,2.0,2.0,2.735,-0.06056424827559895,-0.08829917942805003,0.9630475455226895,-0.03259062978433699,-0.309903,-20.526205
11.185,2.0,1.0,1.0,34.0,33.0,33.0,2.0,2.0,2.7375,-0.07522496065632439,-0.08974121031753386,0.9611314993888862,-0.034749255570547304,-0.317821,-20.333423
11.185,2.0,1.0,1.0,34.0,33.0,33.0,2.0,2.0,2.74,-0.09001278684957915,-0.0911906169383233,0.9589427325408418,-0.03700403295044066,-0.326049,-20.138992
11.185,2.0,1.0,1.0,34.0,33.0,33.0,2.0,2.0,2.7425,-0.1049253674638075,-0.09264580310554689,0.9564721020490602,-0.03935929446702888,-0.334602,-19.942877
11.185,2.0,1.0,1.0,34.0,33.0,33.0,2.0,2.0,2.745,-0.1199600457944717,-0.09410498999911875,0.9537101590647311,-0.041819578690213466,-0.343499,-19.745046
11.185,2.0,1.0,1.0,34.0,33.0,33.0,2.0,2.0,2.7475,-0.13511384458228404,-0.09556619879452116,0.9506471387937842,-0.04438964007149716,-0.352758,-19.545464
11.185,2.0,1.0,1.0,34.0,33.0,33.0,2.0,2.0,2.75,-0.15038344086509,-0.0970272315996699,0.947272950259633,-0.0470744591733199,-0.362399,-19.344095
11.185,2.0,1.0,1.0,34.0,33.0,33.0,2.0,2.0,2.7525,-0.16576513874221874,-0.09848565052007854,0.9435771658794221,-0.04987925326201537,-0.372444,-19.140902
11.185,2.0,1.0,1.0,34.0,33.0,33.0,2.0,2.0,2.755,-0.18125483985027005,-0.09993875465440004,0.9395490108863876,-0.05280948724641497,-0.382915,-18.935848
11.185,2.0,1.0,1.0,34.0,33.0,33.0,2.0,2.0,2.7575,-0.19684801132708868,-0.10138355479987762,0.9351773526404196,-0.05587088493550184,-0.393838,-18.728893
11.185,2.0,1.0,1.0,34.0,33.0,33.0,2.0,2.0,2.76,-0.2125396510157774,-0.10281674562198034,0.9304506898805467,-0.059069440577859636,-0.405238,-18.519998
11.185,2.0,1.0,1.0,34.0,33.0,33.0,2.0,2.0,2.7625,-0.22832424963270206,-0.10423467501422712,0.9253571419871077,-0.062411430632590505,-0.417144,-18.30912
11.185,2.0,1.0,1.0,34.0,33.0,33.0,2.0,2.0,2.765,-0.24419574959218301,-0.10563331034255483,0.919884438338528,-0.06590342570533807,-0.429586,-18.096219
11.185,2.0,1.0,1.0,34.0,33.0,33.0,2.0,2.0,2.7675,-0.2601475001456006,-0.10700820123315266,0.9140199078684642,-0.06955230256345628,-0.442598,-17.881248
11.185,2.0,1.0,1.0,34.0,33.0,33.0,2.0,2.0,2.77,-0.27617220845342494,-0.1083544385230774,0.9077504689542929,-0.07336525612046312,-0.456214,-17.664165
11.185,2.0,1.0,1.0,34.0,33.0,33.0,2.0,2.0,2.7725,-0.29226188616482657,-0.10966660894867307,0.9010626197986672,-0.07734981125078819,-0.470474,-17.444921
11.185,2.0,1.0,1.0,34.0,33.0,33.0,2.0,2.0,2.775,-0.3084077910304406,-0.11093874509739426,0.8939424295030516,-0.08151383426040588,-0.485418,-17.22347
11.185,2.0,1.0,1.0,34.0,33.0,33.0,2.0,2.0,2.7775,-0.32460036301918055,-0.11216427009352618,0.8863755300774143,-0.08586554379589949,-0.501091,-16.999762
11.185,2.0,1.0,1.0,34.0,33.0,33.0,2.0,2.0,2.78,-0.3408291543487337,-0.11333593642697733,0.878347109685075,-0.09041352092224873,-0.517543,-16.773747
11.185,2.0,1.0,1.0,34.0,33.0,33.0,2.0,2.0,2.7825,-0.35708275277139934,-0.11444575826626484,0.8698419074885123,-0.09516671803622939,-0.534824,-16.545373
11.185,2.0,1.0,1.0,34.0,33.0,33.0,2.0,2.0,2.785,-0.3733486973812507,-0.1154849365214871,0.8608442105429075,-0.10013446620547158,-0.552992,-16.314587
11.185,2.0,1.0,1.0,34.0,33.0,33.0,2.0,2.0,2.7875,-0.3896133861245916,-0.11644377584003011,0.8513378532830174,-0.10532648043005997,-0.572111,-16.081334
11.185,2.0,1.0,1.0,34.0,33.0,33.0,2.0,2.0,2.79,-0.4058619741029054,-0.11731159262663644,0.8413062202692021,-0.11075286221076434,-0.592246,-15.845558
11.185,2.0,1.0,1.0,34.0,33.0,33.0,2.0,2.0,2.7925,-0.42207826165483153,-0.1180766130800841,0.8307322530054075,-0.11642409867135792,-0.613471,-15.607201
11.185,2.0,1.0,1.0,34.0,33.0,33.0,2.0,2.0,2.795,-0.43824457109090503,-0.11872586013118556,0.8195984618217548,-0.12235105731717298,-0.635868,-15.366205
11.185,2.0,1.0,1.0,34.0,33.0,33.0,2.0,2.0,2.7975,-0.4543416108301173,-0.11924502805160173,0.8078869440354199,-0.12854497531195744,-0.659524,-15.122511
11.185,2.0,1.0,1.0,34.0,33.0,33.0,2.0,2.0,2.8,-0.47034832555021566,-0.1196183433811744,0.7955794098762057,-0.13501744191320342,-0.684536,-14.876057
11.185,2.0,1.0,1.0,34.0,33.0,33.0,2.0,2.0,2.8025,-0.48624173081058375,-0.11982841069500735,0.7826572180020172,-0.14178037241366262,-0.711008,-14.626781
11.185,2.0,1.0,1.0,34.0,33.0,33.0,2.0,2.0,2.805,-0.5019967304325567,-0.11985604160347077,0.7691014228539366,-0.14884597158350277,-0.739058,-14.374622
11.185,2.0,1.0,1.0,34.0,33.0,33.0,2.0,2.0,2.8075,-0.5175859147164058,-0.11968006525334715,0.754892836638836,-0.15622668418116012,-0.768812,-14.119514
11.185,2.0,1.0,1.0,34.0,33.0,33.0,2.0,2.0,2.81,-0.5329793373127393,-0.11927711848342318,0.7400121094213382,-0.16393512958677384,-0.800412,-13.861396
11.185,2.0,1.0,1.0,34.0,33.0,33.0,2.0,2.0,2.8125,-0.548144268198118,-0.118621413692866,0.724439831721494,-0.171984016992828,-0.834012,-13.600203
11.185,2.0,1.0,1.0,34.0,33.0,33.0,2.0,2.0,2.815,-0.5630449196151988,-0.11768448241974537,0.7081566652552439,-0.18038603684210247,-0.869784,-13.335872
11.185,2.0,1.0,1.0,34.0,33.0,33.0,2.0,2.0,2.8175,-0.577642140765764,-0.11643489261956023,0.6911435091986085,-0.18915372330958943,-0.907919,-13.068342
11.185,2.0,1.0,1.0,34.0,33.0,33.0,2.0,2.0,2.82,-0.5918930748700492,-0.1148379377063981,0.6733817119032983,-0.19829928155575505,-0.948626,-12.79755
11.185,2.0,1.0,1.0,34.0,33.0,33.0,2.0,2.0,2.8225,-0.6057507673901744,-0.11285529560891351,0.6548533418248428,-0.20783437220293696,-0.992141,-12.52344
11.185,2.0,1.0,1.0,34.0,33.0,33.0,2.0,2.0,2.825,-0.6191637027313259,-0.11044465644892826,0.6355415371448606,-0.21776984397122764,-1.038726,-12.245954
11.185,2.0,1.0,1.0,34.0,33.0,33.0,2.0,2.0,2.8275,-0.6320752173658812,-0.10755931803814711,0.6154309608066206,-0.2281154036192836,-1.088673,-11.965043
11.185,2.0,1.0,1.0,34.0,33.0,33.0,2.0,2.0,2.83,-0.6444226568219789,-0.10414774929599861,0.5945083877835479,-0.2388792102330646,-1.142314,-11.680661
