1,w,sub_t,h,l1,l2,l3,g1,g2,Freq,S11_re,S21_re,S11_img,S21_img,S11_dB,S21_dB
11.185,2.0,1.0,1.0,34.0,34.5,34.5,3.0,2.0,2.5,0.780280757904391,-0.0138048369221622,0.612702655256362,0.0096786560464498,-0.068978,-35.462997
11.185,2.0,1.0,1.0,34.0,34.5,34.5,3.0,2.0,2.5025,0.775639667563617,-0.014093813860506762,0.618418821014567,0.009712491860760834,-0.06979,-35.331797
11.185,2.0,1.0,1.0,34.0,34.5,34.5,3.0,2.0,2.505,0.7709317530115514,-0.01438886396230606,0.6241275257481882,0.009744735135525878,-0.070619,-35.199941
11.185,2.0,1.0,1.0,34.0,34.5,34.5,3.0,2.0,2.5075,0.7661562625410425,-0.014690144382978946,0.6298282960865697,0.009775303864533753,-0.071466,-35.067415
11.185,2.0,1.0,1.0,34.0,34.5,34.5,3.0,2.0,2.51,0.7613124312034941,-0.01499781755562638,0.6355206436570847,0.009804112198512575,-0.072331,-34.934204
11.185,2.0,1.0,1.0,34.0,34.5,34.5,3.0,2.0,2.5125,0.7563994805178872,-0.015312051411836277,0.6412040645550062,0.009831070242653452,-0.073215,-34.800292
11.185,2.0,1.0,1.0,34.0,34.5,34.5,3.0,2.0,2.515,0.751416618170276,-0.015633019613638627,0.6468780387916646,0.009856083841857616,-0.07412,-34.665664
11.185,2.0,1.0,1.0,34.0,34.5,34.5,3.0,2.0,2.5175,0.7463630377032587,-0.015960901797268633,0.6525420297197505,0.009879054352849491,-0.075044,-34.530305
11.185,2.0,1.0,1.0,34.0,34.5,34.5,3.0,2.0,2.52,0.7412379181948657,-0.016295883829444583,0.6581954834345771,0.009899878402230878,-0.07599,-34.394198
11.185,2.0,1.0,1.0,34.0,34.5,34.5,3.0,2.0,2.5225,0.7360404239263112,-0.016638158076911824,0.6638378281499909,0.009918447629476303,-0.076957,-34.257326
11.185,2.0,1.0,1.0,34.0,34.5,34.5,3.0,2.0,2.525,0.7307697040379625,-0.016987923690058342,0.6694684735475819,0.009934648413788862,-0.077946,-34.119673
11.185,2.0,1.0,1.0,34.0,34.5,34.5,3.0,2.0,2.5275,0.7254248921728655,-0.01734538690146068,0.6750868100977093,0.009948361583647787,-0.078958,-33.981221
11.185,2.0,1.0,1.0,34.0,34.5,34.5,3.0,2.0,2.53,0.7200051061071128,-0.017710761340281253,0.680692208350769,0.00995946210778155,-0.079994,-33.841951
11.185,2.0,1.0,1.0,34.0,34.5,34.5,3.0,2.0,2.5325,0.7145094473662762,-0.018084268363498922,0.6862840181970128,0.009967818766195726,-0.081055,-33.701847
11.185,2.0,1.0,1.0,34.0,34.5,34.5,3.0,2.0,2.535,0.7089370008270696,-0.018466137405029025,0.6918615680931124,0.009973293799768376,-0.082141,-33.560888
11.185,2.0,1.0,1.0,34.0,34.5,34.5,3.0,2.0,2.5375,0.7032868343033553,-0.018856606343858003,0.6974241642535081,0.009975742536800329,-0.083253,-33.419055
11.185,2.0,1.0,1.0,34.0,34.5,34.5,3.0,2.0,2.54,0.6975579981155243,-0.01925592189240467,0.7029710898044605,0.009975012994768174,-0.084392,-33.27633
11.185,2.0,1.0,1.0,34.0,34.5,34.5,3.0,2.0,2.5425,0.6917495246422077,-0.01966434000640102,0.7085016038985368,0.009970945455376605,-0.08556,-33.13269
11.185,2.0,1.0,1.0,34.0,34.5,34.5,3.0,2.0,2.545,0.6858604278532032,-0.02008212631768535,0.7140149407871058,0.009963372010839688,-0.086756,-32.988116
11.185,2.0,1.0,1.0,34.0,34.5,34.5,3.0,2.0,2.5475,0.6798897028224127,-0.020509556591397034,0.7195103088482109,0.009952116079137558,-0.087983,-32.842585
11.185,2.0,1.0,1.0,34.0,34.5,34.5,3.0,2.0,2.55,0.6738363252194667,-0.020946917209174982,0.7249868895669958,0.009936991885793408,-0.08924,-32.696077
11.185,2.0,1.0,1.0,34.0,34.5,34.5,3.0,2.0,2.5525,0.6676992507786549,-0.021394505680079428,0.7304438364655926,0.009917803909494318,-0.09053,-32.548567
11.185,2.0,1.0,1.0,34.0,34.5,34.5,3.0,2.0,2.555,0.6614774147436121,-0.02185263118108421,0.7358802739791742,0.009894346288634961,-0.091853,-32.400033
11.185,2.0,1.0,1.0,34.0,34.5,34.5,3.0,2.0,2.5575,0.6551697312861268,-0.022321615129126948,0.7412952962745553,0.009866402185593854,-0.093211,-32.25045
11.185,2.0,1.0,1.0,34.0,34.5,34.5,3.0,2.0,2.56,0.6487750928972905,-0.022801791786851988,0.7466879660074319,0.009833743105255102,-0.094605,-32.099794
11.185,2.0,1.0,1.0,34.0,34.5,34.5,3.0,2.0,2.5625,0.64229236974906,-0.0232935089043459,0.752057313014014,0.00979612816395942,-0.096036,-31.948039
11.185,2.0,1.0,1.0,34.0,34.5,34.5,3.0,2.0,2.565,0.6357204090241426,-0.02379712839933876,0.7574023329324265,0.009753303304705817,-0.097505,-31.795159
11.185,2.0,1.0,1.0,34.0,34.5,34.5,3.0,2.0,2.5675,0.6290580342119547,-0.02431302707853694,0.762721985748836,0.009705000454022552,-0.099015,-31.641127
11.185,2.0,1.0,1.0,34.0,34.5,34.5,3.0,2.0,2.57,0.6223040443681997,-0.02484159740295567,0.7680151942628158,0.009650936615480995,-0.100567,-31.485915
11.185,2.0,1.0,1.0,34.0,34.5,34.5,3.0,2.0,2.5725,0.6154572133354145,-0.0253832483003487,0.7732808424659415,0.00959081289433086,-0.102162,-31.329493
11.185,2.0,1.0,1.0,34.0,34.5,34.5,3.0,2.0,2.575,0.6085162889216134,-0.025938406028066775,0.7785177738270607,0.009524313447187136,-0.103802,-31.171833
11.185,2.0,1.0,1.0,34.0,34.5,34.5,3.0,2.0,2.5775,0.6014799920339089,-0.02650751508994655,0.7837247894770433,0.009451104350087565,-0.10549,-31.012903
11.185,2.0,1.0,1.0,34.0,34.5,34.5,3.0,2.0,2.58,0.5943470157637375,-0.02709103921110887,0.788900646285133,0.00937083237756065,-0.107226,-30.852672
11.185,2.0,1.0,1.0,34.0,34.5,34.5,3.0,2.0,2.5825,0.5871160244200065,-0.027689462374858434,0.7940440548182627,0.009283123684586263,-0.109013,-30.691107
11.185,2.0,1.0,1.0,34.0,34.5,34.5,3.0,2.0,2.585,0.5797856525061995,-0.028303289926207738,0.7991536771737976,0.009187582382486284,-0.110854,-30.528174
11.185,2.0,1.0,1.0,34.0,34.5,34.5,3.0,2.0,2.5875,0.5723545036371022,-0.02893304974691078,0.8042281246752755,0.009083788998838263,-0.11275,-30.363838
11.185,2.0,1.0,1.0,34.0,34.5,34.5,3.0,2.0,2.59,0.5648211493904767,-0.029579293507283565,0.8092659554195618,0.008971298810449793,-0.114703,-30.198062
11.185,2.0,1.0,1.0,34.0,34.5,34.5,3.0,2.0,2.5925,0.557184128088572,-0.030242598000512832,0.8142656716627195,0.00884964003724829,-0.116717,-30.03081
11.185,2.0,1.0,1.0,34.0,34.5,34.5,3.0,2.0,2.595,0.5494419435039665,-0.03092356656561314,0.8192257170304845,0.008718311883615722,-0.118795,-29.862042
11.185,2.0,1.0,1.0,34.0,34.5,34.5,3.0,2.0,2.5975,0.5415930634837146,-0.03162283060569064,0.8241444735377784,0.008576782412208701,-0.120938,-29.691718
11.185,2.0,1.0,1.0,34.0,34.5,34.5,3.0,2.0,2.6,0.5336359184852971,-0.03234105120870674,0.8290202583999753,0.008424486233630894,-0.12315,-29.519797
11.185,2.0,1.0,1.0,34.0,34.5,34.5,3.0,2.0,2.6025,0.5255689000173046,-0.033078920878516986,0.833851320616729,0.008260821993441353,-0.125435,-29.346234
11.185,2.0,1.0,1.0,34.0,34.5,34.5,3.0,2.0,2.605,0.5173903589771637,-0.03383716538458359,0.8386358373070545,0.008085149635857205,-0.127795,-29.170986
11.185,2.0,1.0,1.0,34.0,34.5,34.5,3.0,2.0,2.6075,0.5090986038775944,-0.03461654573943706,0.8433719097718986,0.007896787421112264,-0.130234,-28.994005
11.185,2.0,1.0,1.0,34.0,34.5,34.5,3.0,2.0,2.61,0.5006918989527707,-0.035417860313680494,0.8480575592577216,0.007695008670721799,-0.132757,-28.815243
11.185,2.0,1.0,1.0,34.0,34.5,34.5,3.0,2.0,2.6125,0.49216846213439613,-0.03624194709911437,0.8526907223915191,0.007479038211834088,-0.135367,-28.63465
11.185,2.0,1.0,1.0,34.0,34.5,34.5,3.0,2.0,2.615,0.48352646288710427,-0.03708968613138371,0.8572692462541947,0.007248048488368187,-0.138069,-28.452173
11.185,2.0,1.0,1.0,34.0,34.5,34.5,3.0,2.0,2.6175,0.47476401989173894,-0.037962002084436196,0.8617908830552093,0.007001155302685318,-0.140868,-28.267759
11.185,2.0,1.0,1.0,34.0,34.5,34.5,3.0,2.0,2.62,0.46587919856413107,-0.038859867050021736,0.866253284366912,0.006737413147042833,-0.143768,-28.08135
11.185,2.0,1.0,1.0,34.0,34.5,34.5,3.0,2.0,2.6225,0.45687000839601866,-0.039784303516451375,0.8706539948717973,0.006455810078957499,-0.146775,-27.892888
11.185,2.0,1.0,1.0,34.0,34.5,34.5,3.0,2.0,2.625,0.447734400103756,-0.0407363875618759,0.874990445570028,0.00615526208875722,-0.149894,-27.70231
11.185,2.0,1.0,1.0,34.0,34.5,34.5,3.0,2.0,2.6275,0.43847026256934535,-0.04171725227842596,0.8792599463878609,0.005834606900915638,-0.153133,-27.509554
11.185,2.0,1.0,1.0,34.0,34.5,34.5,3.0,2.0,2.63,0.42907541955726164,-0.04272809144466672,0.8834596781198961,0.005492597143111452,-0.156497,-27.314552
11.185,2.0,1.0,1.0,34.0,34.5,34.5,3.0,2.0,2.6325,0.41954762618940633,-0.04377016346494771,0.887586683629211,0.005127892808172554,-0.159994,-27.117234
11.185,2.0,1.0,1.0,34.0,34.5,34.5,3.0,2.0,2.635,0.40988456515939314,-0.04484479559535224,0.8916378582193395,0.004739052923976268,-0.163631,-26.917528
11.185,2.0,1.0,1.0,34.0,34.5,34.5,3.0,2.0,2.6375,0.4000838426663126,-0.04595338847703119,0.8956099390803108,0.004324526334760668,-0.167418,-26.715357
11.185,2.0,1.0,1.0,34.0,34.5,34.5,3.0,2.0,2.64,0.39014298404706405,-0.04709742099872062,0.8994994936975174,0.003882641483901316,-0.171361,-26.510642
11.185,2.0,1.0,1.0,34.0,34.5,34.5,3.0,2.0,2.6425,0.38005942908549706,-0.048278455511102256,0.903302907096593,0.0034115950727271207,-0.175473,-26.3033
11.185,2.0,1.0,1.0,34.0,34.5,34.5,3.0,2.0,2.645,0.3698305269758964,-0.04949814341633974,0.9070163677794348,0.0029094394520172316,-0.179762,-26.093243
11.185,2.0,1.0,1.0,34.0,34.5,34.5,3.0,2.0,2.6475,0.35945353091796395,-0.05075823115646753,0.9106358521855892,0.0023740685820222056,-0.18424,-25.88038
11.185,2.0,1.0,1.0,34.0,34.5,34.5,3.0,2.0,2.65,0.34892559232047815,-0.05206056662422496,0.9141571074888918,0.0018032023726709636,-0.188919,-25.664615
11.185,2.0,1.0,1.0,34.0,34.5,34.5,3.0,2.0,2.6525,0.33824375459151806,-0.05340710601921486,0.9175756325108949,0.0011943691874573372,-0.193814,-25.445848
11.185,2.0,1.0,1.0,34.0,34.5,34.5,3.0,2.0,2.655,0.32740494649452917,-0.05479992117072018,0.9208866564995635,0.0005448862616158683,-0.198938,-25.223972
11.185,2.0,1.0,1.0,34.0,34.5,34.5,3.0,2.0,2.6575,0.3164059750521993,-0.056241207345809084,0.9240851154829877,-0.00014816225327138197,-0.204307,-24.998877
11.185,2.0,1.0,1.0,34.0,34.5,34.5,3.0,2.0,2.66,0.3052435179841949,-0.05773329155711631,0.9271656258625026,-0.0008879499511925016,-0.209938,-24.770446
11.185,2.0,1.0,1.0,34.0,34.5,34.5,3.0,2.0,2.6625,0.29391411567100556,-0.05927864137838818,0.9301224548562809,-0.0016779359260924295,-0.215851,-24.538557
11.185,2.0,1.0,1.0,34.0,34.5,34.5,3.0,2.0,2.665,0.2824141626449851,-0.060879874266840404,0.9329494873416849,-0.002521896067070645,-0.222067,-24.303079
11.185,2.0,1.0,1.0,34.0,34.5,34.5,3.0,2.0,2.6675,0.27073989862221176,-0.06253976737870671,0.9356401885705541,-0.0034239584163669574,-0.228607,-24.063877
11.185,2.0,1.0,1.0,34.0,34.5,34.5,3.0,2.0,2.67,0.25888739910597686,-0.06426126784689651,0.9381875621439468,-0.004388643199220074,-0.235498,-23.820806
11.185,2.0,1.0,1.0,34.0,34.5,34.5,3.0,2.0,2.6725,0.24685256561625513,-0.06604750346588414,0.9405841025289466,-0.005420908237944647,-0.242766,-23.573714
11.185,2.0,1.0,1.0,34.0,34.5,34.5,3.0,2.0,2.675,0.23463111563138844,-0.06790179369680278,0.9428217412765966,-0.006526200585270611,-0.250443,-23.322441
11.185,2.0,1.0,1.0,34.0,34.5,34.5,3.0,2.0,2.6775,0.22221857237096068,-0.0698276608625579,0.9448917859529943,-0.007710515358109613,-0.258562,-23.066817
11.185,2.0,1.0,1.0,34.0,34.5,34.5,3.0,2.0,2.68,0.2096102546061996,-0.07182884134506656,0.9467848506199518,-0.008980462927311167,-0.26716,-22.806661
11.185,2.0,1.0,1.0,34.0,34.5,34.5,3.0,2.0,2.6825,0.19680126676065438,-0.07390929651982141,0.948490776491636,-0.010343345827575654,-0.27628,-22.541784
11.185,2.0,1.0,1.0,34.0,34.5,34.5,3.0,2.0,2.685,0.1837864896657079,-0.07607322306066382,0.9499985411417735,-0.011807247001736972,-0.285967,-22.271983
11.185,2.0,1.0,1.0,34.0,34.5,34.5,3.0,2.0,2.6875,0.170560572470895,-0.0783250621116649,0.951296154333563,-0.0133811312939495,-0.296274,-21.997044
11.185,2.0,1.0,1.0,34.0,34.5,34.5,3.0,2.0,2.69,0.15711792638905822,-0.08066950664234403,0.9523705381804082,-0.015074962467696608,-0.307259,-21.716738
11.185,2.0,1.0,1.0,34.0,34.5,34.5,3.0,2.0,2.6925,0.1434527211958425,-0.08311150606228615,0.9532073889067294,-0.016899838460136922,-0.318987,-21.430823
11.185,2.0,1.0,1.0,34.0,34.5,34.5,3.0,2.0,2.695,0.1295588857219868,-0.08565626685167886,0.9537910169482514,-0.018868148110102498,-0.331533,-21.139041
11.185,2.0,1.0,1.0,34.0,34.5,34.5,3.0,2.0,2.6975,0.1154301140018882,-0.08830924753852806,0.9541041614907577,-0.020993753232468784,-0.344978,-20.841117
11.185,2.0,1.0,1.0,34.0,34.5,34.5,3.0,2.0,2.7,0.10105987930985824,-0.0910761457849574,0.9541277747716398,-0.023292200679964056,-0.359418,-20.536759
11.185,2.0,1.0,1.0,34.0,34.5,34.5,3.0,2.0,2.7025,0.08644145907547009,-0.09396287458460703,0.9538407705314662,-0.025780969962698297,-0.37496,-20.225654
11.185,2.0,1.0,1.0,34.0,34.5,34.5,3.0,2.0,2.705,0.07156797468947323,-0.09697552355326505,0.9532197298699014,-0.028479763118653155,-0.391727,-19.907468
11.185,2.0,1.0,1.0,34.0,34.5,34.5,3.0,2.0,2.7075,0.05643245158427273,-0.10012029992299291,0.9522385563930474,-0.03141084488309965,-0.409859,-19.581845
11.185,2.0,1.0,1.0,34.0,34.5,34.5,3.0,2.0,2.71,0.04102790682585545,-0.1034034419990945,0.9508680708942467,-0.03459944283400001,-0.429517,-19.248403
11.185,2.0,1.0,1.0,34.0,34.5,34.5,3.0,2.0,2.7125,0.025347473962993933,-0.10683109533379734,0.9490755338414564,-0.03807421913918119,-0.450888,-18.906736
11.185,2.0,1.0,1.0,34.0,34.5,34.5,3.0,2.0,2.715,0.00938457828883938,-0.11040913846753246,0.946824081606492,-0.041867827843118814,-0.474187,-18.556409
11.185,2.0,1.0,1.0,34.0,34.5,34.5,3.0,2.0,2.7175,-0.006866819681518671,-0.11414294045059745,0.9440720596297101,-0.04601757433994771,-0.499667,-18.196955
11.185,2.0,1.0,1.0,34.0,34.5,34.5,3.0,2.0,2.72,-0.023411888353890926,-0.1180370260145881,0.9407722325593444,-0.050566196791657664,-0.527621,-17.827878
11.185,2.0,1.0,1.0,34.0,34.5,34.5,3.0,2.0,2.7225,-0.040254463923501065,-0.12209461555807369,0.9368708478842073,-0.05556279271716411,-0.558395,-17.448646
11.185,2.0,1.0,1.0,34.0,34.5,34.5,3.0,2.0,2.725,-0.057396419050624585,-0.12631699512808947,0.9323065258461426,-0.06106391764166711,-0.592396,-17.058693
11.185,2.0,1.0,1.0,34.0,34.5,34.5,3.0,2.0,2.7275,-0.07483679982222961,-0.13070265503906262,0.9270089448270302,-0.06713488620024557,-0.630109,-16.657418
11.185,2.0,1.0,1.0,34.0,34.5,34.5,3.0,2.0,2.73,-0.09257064650516397,-0.13524611289389318,0.9208972886614809,-0.07385130872339961,-0.672112,-16.244182
11.185,2.0,1.0,1.0,34.0,34.5,34.5,3.0,2.0,2.7325,-0.11058738177515529,-0.13993630509716112,0.913878421760737,-0.08130089676134376,-0.719098,-15.818313
11.185,2.0,1.0,1.0,34.0,34.5,34.5,3.0,2.0,2.735,-0.1288686060462797,-0.14475438711423788,0.9058447619531184,-0.08958556681774947,-0.771906,-15.379105
11.185,2.0,1.0,1.0,34.0,34.5,34.5,3.0,2.0,2.7375,-0.1473850786825263,-0.149670722225648,0.8966718338061017,-0.09882385850905973,-0.831552,-14.92583
11.185,2.0,1.0,1.0,34.0,34.5,34.5,3.0,2.0,2.74,-0.16609258035408722,-0.15464075551973486,0.8862155142843405,-0.10915365406300227,-0.899283,-14.45774
11.185,2.0,1.0,1.0,34.0,34.5,34.5,3.0,2.0,2.7425,-0.1849262384280545,-0.15959935726666225,0.8743090405778343,-0.12073512788783916,-0.976631,-13.974091
11.185,2.0,1.0,1.0,34.0,34.5,34.5,3.0,2.0,2.745,-0.20379274636199196,-0.1644530700539654,0.8607599582205034,-0.1337537465353739,-1.065494,-13.474164
11.185,2.0,1.0,1.0,34.0,34.5,34.5,3.0,2.0,2.7475,-0.22255971387861642,-0.16906950159289083,0.8453473819060027,-0.14842294519531352,-1.168242,-12.957305
11.185,2.0,1.0,1.0,34.0,34.5,34.5,3.0,2.0,2.75,-0.241041149825113,-0.173262872740289,0.827820280035624,-0.164985768840351,-1.287849,-12.422979
11.185,2.0,1.0,1.0,34.0,34.5,34.5,3.0,2.0,2.7525,-0.2589778293869411,-0.17677448361424264,0.8078980696071666,-0.18371419222655408,-1.42807,-11.870858
11.185,2.0,1.0,1.0,34.0,34.5,34.5,3.0,2.0,2.755,-0.2760111104608082,-0.1792466786516039,0.7852757607034916,-0.20490388399882636,-1.59367,-11.30094
11.185,2.0,1.0,1.0,34.0,34.5,34.5,3.0,2.0,2.7575,-0.29164883375705425,-0.18018896722180353,0.7596374140673595,-0.22886066337242794,-1.790711,-10.713724
11.185,2.0,1.0,1.0,34.0,34.5,34.5,3.0,2.0,2.76,-0.3052226884669984,-0.17893570978930357,0.7306839950666311,-0.2558725920484159,-2.026909,-10.110454
11.185,2.0,1.0,1.0,34.0,34.5,34.5,3.0,2.0,2.7625,-0.3158386848245303,-0.17459704194504075,0.6981849541719511,-0.2861584218431258,-2.312019,-9.493466
11.185,2.0,1.0,1.0,34.0,34.5,34.5,3.0,2.0,2.765,-0.3223276370602713,-0.1660099619708804,0.6620667118406577,-0.31977931065294063,-2.658185,-8.866647
11.185,2.0,1.0,1.0,34.0,34.5,34.5,3.0,2.0,2.7675,-0.32321308762565765,-0.15170699697090756,0.6225540206021136,-0.35649798121878423,-3.079994,-8.236025
11.185,2.0,1.0,1.0,34.0,34.5,34.5,3.0,2.0,2.77,-0.3167322758763772,-0.12993793725297664,0.5803772680228064,-0.3955724677223915,-3.593625,-7.610475
11.185,2.0,1.0,1.0,34.0,34.5,34.5,3.0,2.0,2.7725,-0.30097106277149677,-0.09880524149630446,0.5370403384991297,-0.43549005857412293,-4.213655,-7.002442
11.185,2.0,1.0,1.0,34.0,34.5,34.5,3.0,2.0,2.775,-0.27419500729411217,-0.056594697191761016,0.49509473349996463,-0.4736958192029008,-4.944408,-6.428455
11.185,2.0,1.0,1.0,34.0,34.5,34.5,3.0,2.0,2.7775,-0.23544210765399162,-0.0023659516579793774,0.45827699244508097,-0.506458249215019,-5.76016,-5.909032
11.185,2.0,1.0,1.0,34.0,34.5,34.5,3.0,2.0,2.78,-0.18532987301419235,0.06324519117125503,0.4312679721055368,-0.5291121840408332,-6.569082,-5.467434
11.185,2.0,1.0,1.0,34.0,34.5,34.5,3.0,2.0,2.7825,-0.1267885933728576,0.13730045271261263,0.41883817126127215,-0.5369124604720704,-7.178295,-5.126828
11.185,2.0,1.0,1.0,34.0,34.5,34.5,3.0,2.0,2.785,-0.0651853415573612,0.21444152911800113,0.42441769415749586,-0.526457738317997,-7.342873,-4.906054
11.185,2.0,1.0,1.0,34.0,34.5,34.5,3.0,2.0,2.7875,-0.0073817798586751525,0.28783377746522226,0.44865533444568434,-0.4971207787697379,-6.960568,-4.815159
11.185,2.0,1.0,1.0,34.0,34.5,34.5,3.0,2.0,2.79,0.04010460411362608,0.3509986617304081,0.4888594448317554,-0.45159739685066486,-6.187189,-4.85266
11.185,2.0,1.0,1.0,34.0,34.5,34.5,3.0,2.0,2.7925,0.07291360797797497,0.3996150969286254,0.5398003370442096,-0.3951003557182925,-5.276813,-5.005927
11.185,2.0,1.0,1.0,34.0,34.5,34.5,3.0,2.0,2.795,0.0896532182135934,0.4323195846742996,0.5954134968276934,-0.3336607461706325,-4.406262,-5.254491
11.185,2.0,1.0,1.0,34.0,34.5,34.5,3.0,2.0,2.7975,0.09149472799885959,0.45029660886009193,0.6504101311736267,-0.27252656693949445,-3.651152,-5.57461
11.185,2.0,1.0,1.0,34.0,34.5,34.5,3.0,2.0,2.8,0.08110203934970726,0.45620944421573295,0.7011218155139298,-0.21532635853199789,-3.026404,-5.94325
11.185,2.0,1.0,1.0,34.0,34.5,34.5,3.0,2.0,2.8025,0.06157647288832609,0.45314961017088384,0.7455602069233876,-0.1640140561619449,-2.520822,-6.340533
11.185,2.0,1.0,1.0,34.0,34.5,34.5,3.0,2.0,2.805,0.03577053064088586,0.44395535477771286,0.7830395216224919,-0.11924753410840315,-2.115273,-6.750669
11.185,2.0,1.0,1.0,34.0,34.5,34.5,3.0,2.0,2.8075,0.005987853211893358,0.43091494389926815,0.813700899451747,-0.08086321987188055,-1.790469,-7.161866
11.185,2.0,1.0,1.0,34.0,34.5,34.5,3.0,2.0,2.81,-0.026060700803572458,0.41572454758396093,0.8381190208708869,-0.04826777925606024,-1.529689,-7.565733
11.185,2.0,1.0,1.0,34.0,34.5,34.5,3.0,2.0,2.8125,-0.059178161098647,0.399567840087787,0.857037872712686,-0.0207007383436082,-1.319342,-7.956548
11.185,2.0,1.0,1.0,34.0,34.5,34.5,3.0,2.0,2.815,-0.09256616482260017,0.3832313591315932,0.8712177551202235,0.002613779481142976,-1.148713,-8.330577
11.185,2.0,1.0,1.0,34.0,34.5,34.5,3.0,2.0,2.8175,-0.12571562804136205,0.36721362279677894,0.8813588320888396,0.02239149176106072,-1.009471,-8.685506
11.185,2.0,1.0,1.0,34.0,34.5,34.5,3.0,2.0,2.82,-0.15831834665260774,0.35181322098343737,0.8880707294333958,0.03925815527364062,-0.895174,-9.020013
11.185,2.0,1.0,1.0,34.0,34.5,34.5,3.0,2.0,2.8225,-0.19020115983290584,0.3371943423194334,0.8918670226735124,0.05374445992340241,-0.800838,-9.333443
11.185,2.0,1.0,1.0,34.0,34.5,34.5,3.0,2.0,2.825,-0.2212792325449068,0.32343321653818563,0.8931716775677766,0.06629275725804855,-0.722601,-9.625585
11.185,2.0,1.0,1.0,34.0,34.5,34.5,3.0,2.0,2.8275,-0.2515239112850224,0.3105500259409401,0.8923301999157717,0.0772684352293639,-0.657453,-9.896503
11.185,2.0,1.0,1.0,34.0,34.5,34.5,3.0,2.0,2.83,-0.2809410707594764,0.29853036349035383,0.889621751826637,0.0869722338668338,-0.603037,-10.146429
