1,w,sub_t,h,l1,l2,l3,g1,g2,Freq,S11_re,S21_re,S11_img,S21_img,S11_dB,S21_dB
11.185,2.0,1.0,1.0,34.0,34.1,34.1,2.0,4.1,2.5,0.778477266197593,-0.0110734062235487,0.614842185800159,0.00668609965353147,-0.069794,-37.764411
11.185,2.0,1.0,1.0,34.0,34.1,34.1,2.0,4.1,2.5025,0.7737198886093702,-0.011290286807275063,0.6206772885748031,0.006688626380888778,-0.070566,-37.639459
11.185,2.0,1.0,1.0,34.0,34.1,34.1,2.0,4.1,2.505,0.7688926771106878,-0.011511135152232193,0.6265049734102413,0.006689308231670649,-0.071354,-37.514062
11.185,2.0,1.0,1.0,34.0,34.1,34.1,2.0,4.1,2.5075,0.7639948504046947,-0.011736032016491526,0.6323247259332451,0.0066880698130477555,-0.072156,-37.388211
11.185,2.0,1.0,1.0,34.0,34.1,34.1,2.0,4.1,2.51,0.7590256150837518,-0.0119650600760212,0.6381360154062833,0.006684832790244864,-0.072974,-37.261896
11.185,2.0,1.0,1.0,34.0,34.1,34.1,2.0,4.1,2.5125,0.7539841654663911,-0.012198303973729643,0.6439382941804468,0.006679515760951203,-0.073808,-37.135109
11.185,2.0,1.0,1.0,34.0,34.1,34.1,2.0,4.1,2.515,0.748869683434282,-0.012435850369695984,0.6497309971291372,0.0066720341237870625,-0.074658,-37.007839
11.185,2.0,1.0,1.0,34.0,34.1,34.1,2.0,4.1,2.5175,0.7436813382693704,-0.01267778799260139,0.6555135410617507,0.006662299940512867,-0.075526,-36.880078
11.185,2.0,1.0,1.0,34.0,34.1,34.1,2.0,4.1,2.52,0.7384182864913841,-0.012924207692375827,0.661285324116614,0.006650221791648784,-0.07641,-36.751815
11.185,2.0,1.0,1.0,34.0,34.1,34.1,2.0,4.1,2.5225,0.7330796716959084,-0.013175202494070979,0.6670457251323151,0.006635704625152588,-0.077312,-36.623041
11.185,2.0,1.0,1.0,34.0,34.1,34.1,2.0,4.1,2.525,0.727664624393243,-0.013430867652969856,0.6727941029966139,0.006618649597783099,-0.078232,-36.493746
11.185,2.0,1.0,1.0,34.0,34.1,34.1,2.0,4.1,2.5275,0.7221722618482681,-0.013691300710940248,0.6785297959720316,0.006598953908753623,-0.079171,-36.36392
11.185,2.0,1.0,1.0,34.0,34.1,34.1,2.0,4.1,2.53,0.716601687921592,-0.013956601554036597,0.6842521209971912,0.0065765106252568565,-0.080128,-36.233551
11.185,2.0,1.0,1.0,34.0,34.1,34.1,2.0,4.1,2.5325,0.710951992912227,-0.01422687247135231,0.6899603729629381,0.006551208499415604,-0.081106,-36.102631
11.185,2.0,1.0,1.0,34.0,34.1,34.1,2.0,4.1,2.535,0.7052222534020937,-0.014502218215121083,0.6956538239622345,0.00652293177618824,-0.082103,-35.971148
11.185,2.0,1.0,1.0,34.0,34.1,34.1,2.0,4.1,2.5375,0.6994115321026674,-0.014782746062060991,0.7013317225127499,0.006491559991727586,-0.083121,-35.839091
11.185,2.0,1.0,1.0,34.0,34.1,34.1,2.0,4.1,2.54,0.6935188777041008,-0.015068565875952317,0.7069932927510575,0.0064569677616611995,-0.08416,-35.706449
11.185,2.0,1.0,1.0,34.0,34.1,34.1,2.0,4.1,2.5425,0.6875433247271706,-0.015359790171433756,0.7126377335972562,0.006419024558727787,-0.085221,-35.573211
11.185,2.0,1.0,1.0,34.0,34.1,34.1,2.0,4.1,2.545,0.681483893378446,-0.01565653417899699,0.7182642178888092,0.006377594479169156,-0.086305,-35.439366
11.185,2.0,1.0,1.0,34.0,34.1,34.1,2.0,4.1,2.5475,0.6753395894090918,-0.015958915911152467,0.723871891482319,0.006332535997238472,-0.087411,-35.304902
11.185,2.0,1.0,1.0,34.0,34.1,34.1,2.0,4.1,2.55,0.669109403977732,-0.016267056229733578,0.7294598723219047,0.006283701707145932,-0.088541,-35.169807
11.185,2.0,1.0,1.0,34.0,34.1,34.1,2.0,4.1,2.5525,0.6627923135178737,-0.016581078914296873,0.7350272494727663,0.006230938051718095,-0.089695,-35.034069
11.185,2.0,1.0,1.0,34.0,34.1,34.1,2.0,4.1,2.555,0.6563872796103837,-0.016901110731568397,0.7405730821184812,0.006174085037001549,-0.090875,-34.897676
11.185,2.0,1.0,1.0,34.0,34.1,34.1,2.0,4.1,2.5575,0.6498932488615579,-0.017227281505876317,0.7460963985204758,0.00611297593199071,-0.09208,-34.760615
11.185,2.0,1.0,1.0,34.0,34.1,34.1,2.0,4.1,2.56,0.6433091527873894,-0.017559724190497877,0.7515961949380501,0.006047436952606307,-0.093311,-34.622874
11.185,2.0,1.0,1.0,34.0,34.1,34.1,2.0,4.1,2.5625,0.6366339077046431,-0.017898574939837555,0.7570714345072492,0.0059772869289931255,-0.09457,-34.484439
11.185,2.0,1.0,1.0,34.0,34.1,34.1,2.0,4.1,2.565,0.6298664146294165,-0.018243973182339068,0.7625210460768027,0.0059023369551440144,-0.095856,-34.345298
11.185,2.0,1.0,1.0,34.0,34.1,34.1,2.0,4.1,2.5675,0.6230055591839054,-0.01859606169401824,0.7679439229992214,0.005822390019790261,-0.097172,-34.205437
11.185,2.0,1.0,1.0,34.0,34.1,34.1,2.0,4.1,2.57,0.6160502115121531,-0.018954986672486795,0.7733389218750925,0.00573724061742764,-0.098517,-34.064842
11.185,2.0,1.0,1.0,34.0,34.1,34.1,2.0,4.1,2.5725,0.6089992262055922,-0.019320897811318318,0.7787048612484693,0.005646674338269535,-0.099893,-33.923498
11.185,2.0,1.0,1.0,34.0,34.1,34.1,2.0,4.1,2.575,0.6018514422392941,-0.019693948374585133,0.7840405202511702,0.00555046743583737,-0.1013,-33.781393
11.185,2.0,1.0,1.0,34.0,34.1,34.1,2.0,4.1,2.5775,0.5946056829198516,-0.020074295271372288,0.7893446371936496,0.005448386370807826,-0.10274,-33.63851
11.185,2.0,1.0,1.0,34.0,34.1,34.1,2.0,4.1,2.58,0.5872607558459425,-0.020462099130046988,0.7946159081000098,0.005340187329642404,-0.104213,-33.494835
11.185,2.0,1.0,1.0,34.0,34.1,34.1,2.0,4.1,2.5825,0.5798154528826407,-0.020857524372033153,0.799852985184573,0.005225615716419731,-0.105721,-33.350354
11.185,2.0,1.0,1.0,34.0,34.1,34.1,2.0,4.1,2.585,0.5722685501506889,-0.02126073928480666,0.8050544752672865,0.005104405616181374,-0.107264,-33.205049
11.185,2.0,1.0,1.0,34.0,34.1,34.1,2.0,4.1,2.5875,0.5646188080319554,-0.021671916093790992,0.810218938125078,0.004976279227980513,-0.108844,-33.058905
11.185,2.0,1.0,1.0,34.0,34.1,34.1,2.0,4.1,2.59,0.5568649711924722,-0.02209123103279009,0.8153448847761305,0.004840946265694017,-0.110462,-32.911907
11.185,2.0,1.0,1.0,34.0,34.1,34.1,2.0,4.1,2.5925,0.5490057686244805,-0.022518864412551635,0.8204307756938513,0.004698103324518174,-0.112119,-32.764036
11.185,2.0,1.0,1.0,34.0,34.1,34.1,2.0,4.1,2.595,0.541039913709087,-0.02295500068699942,0.8254750189471188,0.004547433210917207,-0.113817,-32.615277
11.185,2.0,1.0,1.0,34.0,34.1,34.1,2.0,4.1,2.5975,0.5329661043011832,-0.023399828516619873,0.8304759682632193,0.004388604233629594,-0.115556,-32.465611
11.185,2.0,1.0,1.0,34.0,34.1,34.1,2.0,4.1,2.6,0.5247830228384675,-0.02385354082842068,0.8354319210096242,0.004221269453161493,-0.117338,-32.315021
11.185,2.0,1.0,1.0,34.0,34.1,34.1,2.0,4.1,2.6025,0.516489336476529,-0.024316334871809397,0.8403411160905623,0.004045065887003744,-0.119164,-32.163489
11.185,2.0,1.0,1.0,34.0,34.1,34.1,2.0,4.1,2.605,0.5080836972520821,-0.024788412269660807,0.8452017317540712,0.0038596136676022764,-0.121037,-32.010995
11.185,2.0,1.0,1.0,34.0,34.1,34.1,2.0,4.1,2.6075,0.49956474227664216,-0.02526997906375094,0.85001188330495,0.003664515149886968,-0.122957,-31.857521
11.185,2.0,1.0,1.0,34.0,34.1,34.1,2.0,4.1,2.61,0.49093109396309337,-0.02576124575363712,0.854769620718742,0.0034593539649200532,-0.124926,-31.703046
11.185,2.0,1.0,1.0,34.0,34.1,34.1,2.0,4.1,2.6125,0.4821813602877885,-0.026262427327951865,0.8594729261515665,0.003243694015960584,-0.126946,-31.547552
11.185,2.0,1.0,1.0,34.0,34.1,34.1,2.0,4.1,2.615,0.4733141350910496,-0.026773743286953772,0.8641197113402823,0.003017078412954901,-0.129019,-31.391016
11.185,2.0,1.0,1.0,34.0,34.1,34.1,2.0,4.1,2.6175,0.46432799841916633,-0.0272954176550378,0.868707814887098,0.0027790283411505824,-0.131147,-31.233418
11.185,2.0,1.0,1.0,34.0,34.1,34.1,2.0,4.1,2.62,0.45522151691124085,-0.027827678981752445,0.8732349994223522,0.0025290418591927184,-0.13333,-31.074737
11.185,2.0,1.0,1.0,34.0,34.1,34.1,2.0,4.1,2.6225,0.44599324423449926,-0.02837076032969569,0.8776989486387706,0.002266592621692333,-0.135573,-30.914949
11.185,2.0,1.0,1.0,34.0,34.1,34.1,2.0,4.1,2.625,0.436641721572033,-0.0289248992474634,0.882097264190027,0.00199112852085589,-0.137876,-30.754032
11.185,2.0,1.0,1.0,34.0,34.1,34.1,2.0,4.1,2.6275,0.42716547816720485,-0.029490337725606636,0.8864274624459618,0.0017020702413270024,-0.140242,-30.591962
11.185,2.0,1.0,1.0,34.0,34.1,34.1,2.0,4.1,2.63,0.41756303192939803,-0.03006732213330327,0.8906869710962557,0.0013988097219160443,-0.142673,-30.428715
11.185,2.0,1.0,1.0,34.0,34.1,34.1,2.0,4.1,2.6325,0.40783289010612866,-0.030656103133173657,0.8948731255937707,0.0010807085173734708,-0.145171,-30.264267
11.185,2.0,1.0,1.0,34.0,34.1,34.1,2.0,4.1,2.635,0.3979735500270393,-0.0312569355713563,0.8989831654281432,0.0007470960527962696,-0.14774,-30.098592
11.185,2.0,1.0,1.0,34.0,34.1,34.1,2.0,4.1,2.6375,0.38798349992576625,-0.031870078339607796,0.9030142302195125,0.0003972677626384742,-0.150382,-29.931663
11.185,2.0,1.0,1.0,34.0,34.1,34.1,2.0,4.1,2.64,0.37786121984620447,-0.03249579420579632,0.906963355621522,3.0483105620336143e-05,-0.1531,-29.763453
11.185,2.0,1.0,1.0,34.0,34.1,34.1,2.0,4.1,2.6425,0.367605182640341,-0.03313434960871015,0.9108274690219071,-0.0003540365539071859,-0.155896,-29.593935
11.185,2.0,1.0,1.0,34.0,34.1,34.1,2.0,4.1,2.645,0.3572138550654689,-0.0337860144126011,0.9146033850280929,-0.0007571102083948938,-0.158774,-29.42308
11.185,2.0,1.0,1.0,34.0,34.1,34.1,2.0,4.1,2.6475,0.3466856989893539,-0.03445106161631373,0.9182878007242472,-0.0011795996244600962,-0.161738,-29.250859
11.185,2.0,1.0,1.0,34.0,34.1,34.1,2.0,4.1,2.65,0.33601917271274007,-0.03512976701121234,0.9218772906851775,-0.0016224119272900193,-0.16479,-29.077241
11.185,2.0,1.0,1.0,34.0,34.1,34.1,2.0,4.1,2.6525,0.32521273241956206,-0.03582240878138816,0.9253683017312869,-0.0020865023652477614,-0.167934,-28.902196
11.185,2.0,1.0,1.0,34.0,34.1,34.1,2.0,4.1,2.655,0.31426483376618064,-0.03652926703881532,0.9287571474075453,-0.0025728772690126367,-0.171175,-28.725689
11.185,2.0,1.0,1.0,34.0,34.1,34.1,2.0,4.1,2.6575,0.30317393362218686,-0.03725062328518982,0.9320400021680383,-0.003082597220860103,-0.174515,-28.54769
11.185,2.0,1.0,1.0,34.0,34.1,34.1,2.0,4.1,2.66,0.2919384919765813,-0.03798675979113615,0.9352128952461298,-0.003616780451090232,-0.177961,-28.368162
11.185,2.0,1.0,1.0,34.0,34.1,34.1,2.0,4.1,2.6625,0.28055697402459767,-0.03873795888226948,0.9382717041886042,-0.004176606480151347,-0.181515,-28.187072
11.185,2.0,1.0,1.0,34.0,34.1,34.1,2.0,4.1,2.665,0.26902785245204436,-0.03950450212024685,0.9412121480303364,-0.004763320026698789,-0.185183,-28.004382
11.185,2.0,1.0,1.0,34.0,34.1,34.1,2.0,4.1,2.6675,0.2573496099359159,-0.0402866693653946,0.9440297800840141,-0.005378235203686789,-0.18897,-27.820054
11.185,2.0,1.0,1.0,34.0,34.1,34.1,2.0,4.1,2.67,0.24552074188205847,-0.041084737705746915,0.9467199803172431,-0.00602274002663919,-0.192882,-27.63405
11.185,2.0,1.0,1.0,34.0,34.1,34.1,2.0,4.1,2.6725,0.23353975942299054,-0.041898980235327586,0.949277947286935,-0.006698301260495443,-0.196923,-27.44633
11.185,2.0,1.0,1.0,34.0,34.1,34.1,2.0,4.1,2.675,0.22140519270167017,-0.04272966466222525,0.9516986895982182,-0.007406469633907037,-0.2011,-27.256851
11.185,2.0,1.0,1.0,34.0,34.1,34.1,2.0,4.1,2.6775,0.2091155944699304,-0.04357705172440723,0.9539770168521785,-0.008148885452591143,-0.20542,-27.065571
11.185,2.0,1.0,1.0,34.0,34.1,34.1,2.0,4.1,2.68,0.19666954403370726,-0.04444139338823817,0.956107530043516,-0.00892728464635533,-0.209889,-26.872444
11.185,2.0,1.0,1.0,34.0,34.1,34.1,2.0,4.1,2.6825,0.18406565158104587,-0.04532293080125812,0.95808461136564,-0.009743505287722233,-0.214514,-26.677426
11.185,2.0,1.0,1.0,34.0,34.1,34.1,2.0,4.1,2.685,0.17130256293321144,-0.04622189196687019,0.9599024133768398,-0.01059949462373951,-0.219304,-26.480467
11.185,2.0,1.0,1.0,34.0,34.1,34.1,2.0,4.1,2.6875,0.158378964764246,-0.0471384891041025,0.961554847476829,-0.0114973166665869,-0.224265,-26.28152
11.185,2.0,1.0,1.0,34.0,34.1,34.1,2.0,4.1,2.69,0.14529359033999967,-0.048072915650458375,0.963035571638238,-0.012439160393033,-0.229408,-26.080531
11.185,2.0,1.0,1.0,34.0,34.1,34.1,2.0,4.1,2.6925,0.13204522583415435,-0.04902534285994824,0.9643379773323985,-0.013427348607695065,-0.234741,-25.877448
11.185,2.0,1.0,1.0,34.0,34.1,34.1,2.0,4.1,2.695,0.11863271728627389,-0.04999591594156685,0.9654551755829792,-0.014464347530444835,-0.240274,-25.672216
11.185,2.0,1.0,1.0,34.0,34.1,34.1,2.0,4.1,2.6975,0.1050549782753839,-0.050984749675617676,0.9663799820747263,-0.015552777174255999,-0.246018,-25.464778
11.185,2.0,1.0,1.0,34.0,34.1,34.1,2.0,4.1,2.7,0.0913109983925336,-0.051991923436190544,0.9671049012375363,-0.0166954225863313,-0.251984,-25.255073
11.185,2.0,1.0,1.0,34.0,34.1,34.1,2.0,4.1,2.7025,0.07739985260702553,-0.05301747553759479,0.9676221092184185,-0.01789524603255743,-0.258185,-25.043041
11.185,2.0,1.0,1.0,34.0,34.1,34.1,2.0,4.1,2.705,0.06332071163413927,-0.05406139681037291,0.9679234356454555,-0.01915540021325377,-0.264633,-24.828617
11.185,2.0,1.0,1.0,34.0,34.1,34.1,2.0,4.1,2.7075,0.04907285342722836,-0.055123623298408045,0.968000344078571,-0.02047924260688378,-0.271343,-24.611734
11.185,2.0,1.0,1.0,34.0,34.1,34.1,2.0,4.1,2.71,0.03465567593458687,-0.056204027952240374,0.9678439110317371,-0.02187035104793035,-0.278329,-24.392322
11.185,2.0,1.0,1.0,34.0,34.1,34.1,2.0,4.1,2.7125,0.02006871128170356,-0.05730241117463955,0.9674448034401193,-0.023332540655573702,-0.285608,-24.17031
11.185,2.0,1.0,1.0,34.0,34.1,34.1,2.0,4.1,2.715,0.005311641563094721,-0.05841849005226721,0.966793254433461,-0.02486988224119325,-0.293197,-23.945623
11.185,2.0,1.0,1.0,34.0,34.1,34.1,2.0,4.1,2.7175,-0.009615683544750231,-0.059551886081347774,0.9658790372637714,-0.02648672233510241,-0.301115,-23.718182
11.185,2.0,1.0,1.0,34.0,34.1,34.1,2.0,4.1,2.72,-0.024713227105819115,-0.06070211116498663,0.9646914372210019,-0.02818770498634096,-0.309382,-23.487905
11.185,2.0,1.0,1.0,34.0,34.1,34.1,2.0,4.1,2.7225,-0.03998074290176298,-0.06186855162434591,0.9632192213548607,-0.029977795503818096,-0.318021,-23.254708
11.185,2.0,1.0,1.0,34.0,34.1,34.1,2.0,4.1,2.725,-0.05541775073948182,-0.063050449924355,0.9614506058042676,-0.03186230632257851,-0.327056,-23.018502
11.185,2.0,1.0,1.0,34.0,34.1,34.1,2.0,4.1,2.7275,-0.07102350871388231,-0.06424688376589592,0.9593732205182043,-0.033846925195424114,-0.336511,-22.779195
11.185,2.0,1.0,1.0,34.0,34.1,34.1,2.0,4.1,2.73,-0.08679698199055369,-0.06545674213908761,0.9569740711330128,-0.03593774592738832,-0.346416,-22.536689
11.185,2.0,1.0,1.0,34.0,34.1,34.1,2.0,4.1,2.7325,-0.10273680760285929,-0.06667869786482238,0.9542394977517558,-0.03814130188845563,-0.356801,-22.290885
11.185,2.0,1.0,1.0,34.0,34.1,34.1,2.0,4.1,2.735,-0.11884125467495207,-0.06791117607212518,0.951155130351353,-0.04046460255805602,-0.367699,-22.041678
11.185,2.0,1.0,1.0,34.0,34.1,34.1,2.0,4.1,2.7375,-0.13510817938458042,-0.06915231796492473,0.947705840523474,-0.042915173372757576,-0.379146,-21.788957
11.185,2.0,1.0,1.0,34.0,34.1,34.1,2.0,4.1,2.74,-0.15153497386402975,-0.07039993912064786,0.9438756892361867,-0.045501099165449505,-0.391184,-21.532609
11.185,2.0,1.0,1.0,34.0,34.1,34.1,2.0,4.1,2.7425,-0.1681185081010261,-0.07165148143136053,0.9396478702863508,-0.04823107149910728,-0.403854,-21.272512
11.185,2.0,1.0,1.0,34.0,34.1,34.1,2.0,4.1,2.745,-0.18485506373953786,-0.07290395764195468,0.9350046490990874,-0.051114440209432024,-0.417204,-21.008543
11.185,2.0,1.0,1.0,34.0,34.1,34.1,2.0,4.1,2.7475,-0.20174025848842037,-0.07415388725432077,0.9299272965225094,-0.05416126947620287,-0.431289,-20.740569
11.185,2.0,1.0,1.0,34.0,34.1,34.1,2.0,4.1,2.75,-0.21876895961769,-0.0753972223457532,0.924396017266067,-0.0573823987401974,-0.446164,-20.468455
11.185,2.0,1.0,1.0,34.0,34.1,34.1,2.0,4.1,2.7525,-0.2359351847507835,-0.0766292615870663,0.9183898726433628,-0.06078950876711951,-0.461894,-20.192057
11.185,2.0,1.0,1.0,34.0,34.1,34.1,2.0,4.1,2.755,-0.25323198783795176,-0.07784455043271815,0.9118866973103799,-0.06439519312680698,-0.47855,-19.911225
11.185,2.0,1.0,1.0,34.0,34.1,34.1,2.0,4.1,2.7575,-0.27065132781073786,-0.07903676508168088,0.9048630097450558,-0.06821303529789827,-0.496209,-19.625803
11.185,2.0,1.0,1.0,34.0,34.1,34.1,2.0,4.1,2.76,-0.2881839169579025,-0.08019857736193532,0.8972939163039102,-0.0722576915153359,-0.514959,-19.335628
11.185,2.0,1.0,1.0,34.0,34.1,34.1,2.0,4.1,2.7625,-0.3058190455150367,-0.08132149715919153,0.889153008829098,-0.0765449793375318,-0.534896,-19.040528
11.185,2.0,1.0,1.0,34.0,34.1,34.1,2.0,4.1,2.765,-0.32354437830589167,-0.08239568837498505,0.8804122559828738,-0.08109197170397407,-0.556127,-18.740324
11.185,2.0,1.0,1.0,34.0,34.1,34.1,2.0,4.1,2.7675,-0.34134571849332257,-0.08340975364110104,0.871041888779962,-0.08591709595881575,-0.578774,-18.434831
11.185,2.0,1.0,1.0,34.0,34.1,34.1,2.0,4.1,2.77,-0.35920673256828406,-0.08435048211358205,0.8610102812040533,-0.0910402368996123,-0.60297,-18.123854
11.185,2.0,1.0,1.0,34.0,34.1,34.1,2.0,4.1,2.7725,-0.37710862959974784,-0.0852025535944318,0.8502838273762051,-0.09648284232998855,-0.628867,-17.807191
11.185,2.0,1.0,1.0,34.0,34.1,34.1,2.0,4.1,2.775,-0.3950297864571817,-0.08594819095356536,0.8388268175484043,-0.10226802879314757,-0.656637,-17.48463
11.185,2.0,1.0,1.0,34.0,34.1,34.1,2.0,4.1,2.7775,-0.41294530916788563,-0.08656675131632505,0.8266013163033972,-0.108420684062671,-0.686471,-17.155953
11.185,2.0,1.0,1.0,34.0,34.1,34.1,2.0,4.1,2.78,-0.4308265187513771,-0.08703424471107947,0.8135670478567048,-0.11496756146480396,-0.718588,-16.820933
11.185,2.0,1.0,1.0,34.0,34.1,34.1,2.0,4.1,2.7825,-0.4486403477512626,-0.08732276680764388,0.7996812954188616,-0.12193735906430468,-0.753237,-16.479336
11.185,2.0,1.0,1.0,34.0,34.1,34.1,2.0,4.1,2.785,-0.46634863123952774,-0.08739982999911476,0.784898824372172,-0.1293607739798775,-0.790698,-16.130921
11.185,2.0,1.0,1.0,34.0,34.1,34.1,2.0,4.1,2.7875,-0.4839072732933492,-0.08722757438318045,0.7691718427960085,-0.13727051836001025,-0.831296,-15.77544
11.185,2.0,1.0,1.0,34.0,34.1,34.1,2.0,4.1,2.79,-0.5012652668687668,-0.08676183721276472,0.7524500179676166,-0.14570127852110318,-0.875399,-15.412643
11.185,2.0,1.0,1.0,34.0,34.1,34.1,2.0,4.1,2.7925,-0.5183635417043352,-0.08595105619602413,0.734680574306938,-0.15468959199900648,-0.923434,-15.042274
11.185,2.0,1.0,1.0,34.0,34.1,34.1,2.0,4.1,2.795,-0.5351336115648211,-0.08473497881445477,0.7158085073928513,-0.16427360823317952,-0.975892,-14.66408
11.185,2.0,1.0,1.0,34.0,34.1,34.1,2.0,4.1,2.7975,-0.5514959891214695,-0.08304314693387323,0.6957769608906539,-0.17449268656614728,-1.033341,-14.277808
11.185,2.0,1.0,1.0,34.0,34.1,34.1,2.0,4.1,2.8,-0.567358334656203,-0.08079312399397444,0.6745278294329181,-0.18538676927964406,-1.096442,-13.883215
11.185,2.0,1.0,1.0,34.0,34.1,34.1,2.0,4.1,2.8025,-0.5826133045604824,-0.0778884319544122,0.6520026718535403,-0.1969954463583915,-1.165965,-13.48007
11.185,2.0,1.0,1.0,34.0,34.1,34.1,2.0,4.1,2.805,-0.5971360688702376,-0.07421616852174666,0.6281440470867589,-0.20935660119995994,-1.242812,-13.068165
11.185,2.0,1.0,1.0,34.0,34.1,34.1,2.0,4.1,2.8075,-0.6107814763440139,-0.06964428445439932,0.6028974210960099,-0.22250449101863817,-1.328041,-12.647319
11.185,2.0,1.0,1.0,34.0,34.1,34.1,2.0,4.1,2.81,-0.6233808647113829,-0.06401851974382787,0.5762138390142948,-0.23646707063473976,-1.4229,-12.217399
11.185,2.0,1.0,1.0,34.0,34.1,34.1,2.0,4.1,2.8125,-0.634738548502465,-0.0571590319198905,0.54805361356203,-0.251262312427759,-1.528867,-11.778325
11.185,2.0,1.0,1.0,34.0,34.1,34.1,2.0,4.1,2.815,-0.6446280758532713,-0.04885680802767967,0.5183913490290707,-0.2668932082154223,-1.647694,-11.330102
11.185,2.0,1.0,1.0,34.0,34.1,34.1,2.0,4.1,2.8175,-0.652788441040548,-0.03887004594825121,0.4872226975636033,-0.2833410627933074,-1.781468,-10.872837
11.185,2.0,1.0,1.0,34.0,34.1,34.1,2.0,4.1,2.82,-0.6589205879226719,-0.026920837094192733,0.45457332438434445,-0.30055661057208377,-1.932685,-10.406771
11.185,2.0,1.0,1.0,34.0,34.1,34.1,2.0,4.1,2.8225,-0.6626847625333907,-0.012692702308714889,0.42051062539797474,-0.3184484214005935,-2.104332,-9.932324
11.185,2.0,1.0,1.0,34.0,34.1,34.1,2.0,4.1,2.825,-0.6636995961582612,0.004170149067772792,0.3851587644529515,-0.33686803893142436,-2.299994,-9.450138
11.185,2.0,1.0,1.0,34.0,34.1,34.1,2.0,4.1,2.8275,-0.6615442479187643,0.02406052642727527,0.3487175245824821,-0.3555913674596198,-2.523981,-8.961138
11.185,2.0,1.0,1.0,34.0,34.1,34.1,2.0,4.1,2.83,-0.6557655206449514,0.047401045790793975,0.31148521018468445,-0.3742960775336095,-2.78147,-8.466596
