1,w,sub_t,h,l1,l2,l3,g1,g2,Freq,S11_re,S21_re,S11_img,S21_img,S11_dB,S21_dB
11.185,2.0,1.0,1.0,33.0,34.6,34.6,1.7,3.9,2.5,0.891487487028932,-0.00759476632442876,0.437892483008336,0.00791718873758184,-0.05903,-39.195093
11.185,2.0,1.0,1.0,33.0,34.6,34.6,1.7,3.9,2.5025,0.8886445644547593,-0.007773652165026009,0.44347010485074173,0.007986190164054933,-0.059668,-39.058473
11.185,2.0,1.0,1.0,33.0,34.6,34.6,1.7,3.9,2.505,0.8857531739335333,-0.007956575692201144,0.4490527367902728,0.00805535780172433,-0.060319,-38.921259
11.185,2.0,1.0,1.0,33.0,34.6,34.6,1.7,3.9,2.5075,0.8828127453079816,-0.00814364855458629,0.45464028054434996,0.008124676228608057,-0.060984,-38.783437
11.185,2.0,1.0,1.0,33.0,34.6,34.6,1.7,3.9,2.51,0.8798226954061458,-0.008334986384304804,0.4602326336828953,0.00819412895694692,-0.061662,-38.644992
11.185,2.0,1.0,1.0,33.0,34.6,34.6,1.7,3.9,2.5125,0.8767824276481132,-0.008530708970914479,0.4658296894376661,0.00826369836611451,-0.062355,-38.505909
11.185,2.0,1.0,1.0,33.0,34.6,34.6,1.7,3.9,2.515,0.873691331637079,-0.00873094044432501,0.47143133650229496,0.00833336563102964,-0.063063,-38.36617
11.185,2.0,1.0,1.0,33.0,34.6,34.6,1.7,3.9,2.5175,0.8705487827339448,-0.00893580946722355,0.4770374588224805,0.008403110645740166,-0.063787,-38.225762
11.185,2.0,1.0,1.0,33.0,34.6,34.6,1.7,3.9,2.52,0.8673541416146072,-0.009145449437578891,0.482647935375774,0.008472911941819507,-0.064526,-38.084666
11.185,2.0,1.0,1.0,33.0,34.6,34.6,1.7,3.9,2.5225,0.8641067538090587,-0.009359998701832543,0.4882626399403093,0.00854274660118834,-0.065281,-37.942867
11.185,2.0,1.0,1.0,33.0,34.6,34.6,1.7,3.9,2.525,0.8608059492213346,-0.009579600779427598,0.49388144085184343,0.008612590162941728,-0.066053,-37.800346
11.185,2.0,1.0,1.0,33.0,34.6,34.6,1.7,3.9,2.5275,0.8574510416293062,-0.009804404599370676,0.499504200748377,0.008682416523726828,-0.066843,-37.657088
11.185,2.0,1.0,1.0,33.0,34.6,34.6,1.7,3.9,2.53,0.8540413281632497,-0.010034564749569963,0.5051307763015956,0.008752197831178473,-0.06765,-37.513073
11.185,2.0,1.0,1.0,33.0,34.6,34.6,1.7,3.9,2.5325,0.8505760887620523,-0.010270241739744989,0.5107610179343167,0.008821904369878111,-0.068476,-37.368284
11.185,2.0,1.0,1.0,33.0,34.6,34.6,1.7,3.9,2.535,0.8470545856058304,-0.010511602278759745,0.5163947695230587,0.008891504439255873,-0.069321,-37.222702
11.185,2.0,1.0,1.0,33.0,34.6,34.6,1.7,3.9,2.5375,0.8434760625236917,-0.010758819567290197,0.5220318680847853,0.008960964222805923,-0.070185,-37.076308
11.185,2.0,1.0,1.0,33.0,34.6,34.6,1.7,3.9,2.54,0.8398397443752376,-0.011012073606803707,0.5276721434468061,0.009030247647930673,-0.07107,-36.929082
11.185,2.0,1.0,1.0,33.0,34.6,34.6,1.7,3.9,2.5425,0.8361448364043622,-0.011271551525897221,0.5333154178987487,0.009099316235669572,-0.071976,-36.781005
11.185,2.0,1.0,1.0,33.0,34.6,34.6,1.7,3.9,2.545,0.832390523563768,-0.011537447925117197,0.5389615058254041,0.009168128939502617,-0.072903,-36.632056
11.185,2.0,1.0,1.0,33.0,34.6,34.6,1.7,3.9,2.5475,0.8285759698085372,-0.011809965241466278,0.5446102133191845,0.009236641972346997,-0.073853,-36.482214
11.185,2.0,1.0,1.0,33.0,34.6,34.6,1.7,3.9,2.55,0.8247003173569695,-0.012089314133891128,0.5502613377708191,0.009304808620786198,-0.074826,-36.331458
11.185,2.0,1.0,1.0,33.0,34.6,34.6,1.7,3.9,2.5525,0.82076268591679,-0.012375713891140004,0.5559146674367904,0.00937257904548438,-0.075824,-36.179766
11.185,2.0,1.0,1.0,33.0,34.6,34.6,1.7,3.9,2.555,0.816762171874681,-0.012669392863484499,0.5615699809819235,0.009439900066643104,-0.076846,-36.027115
11.185,2.0,1.0,1.0,33.0,34.6,34.6,1.7,3.9,2.5575,0.8126978474469637,-0.01297058891991136,0.5672270469953798,0.009506714933252903,-0.077893,-35.873483
11.185,2.0,1.0,1.0,33.0,34.6,34.6,1.7,3.9,2.56,0.8085687597890996,-0.013279549932511504,0.5728856234781776,0.009572963074776465,-0.078967,-35.718845
11.185,2.0,1.0,1.0,33.0,34.6,34.6,1.7,3.9,2.5625,0.8043739300615135,-0.013596534289926791,0.5785454573001976,0.009638579833772424,-0.080069,-35.563178
11.185,2.0,1.0,1.0,33.0,34.6,34.6,1.7,3.9,2.565,0.8001123524490594,-0.013921811441857317,0.5842062836244701,0.009703496177828822,-0.0812,-35.406457
11.185,2.0,1.0,1.0,33.0,34.6,34.6,1.7,3.9,2.5675,0.7957829931312665,-0.014255662476787624,0.5898678252963232,0.009767638389019343,-0.08236,-35.248656
11.185,2.0,1.0,1.0,33.0,34.6,34.6,1.7,3.9,2.57,0.7913847892002811,-0.014598380735259375,0.595529792194801,0.00983092772892445,-0.083551,-35.089749
11.185,2.0,1.0,1.0,33.0,34.6,34.6,1.7,3.9,2.5725,0.7869166475232022,-0.014950272461201218,0.601191880543494,0.009893280077069284,-0.084773,-34.929708
11.185,2.0,1.0,1.0,33.0,34.6,34.6,1.7,3.9,2.575,0.7823774435452618,-0.015311657494025818,0.6068537721776961,0.009954605540420446,-0.086029,-34.768507
11.185,2.0,1.0,1.0,33.0,34.6,34.6,1.7,3.9,2.5775,0.7777660200300317,-0.01568287000442077,0.612515133764509,0.010014808031350552,-0.087319,-34.606117
11.185,2.0,1.0,1.0,33.0,34.6,34.6,1.7,3.9,2.58,0.7730811857325572,-0.0160642592769964,0.61817561597221,0.01007378481122154,-0.088645,-34.442509
11.185,2.0,1.0,1.0,33.0,34.6,34.6,1.7,3.9,2.5825,0.7683217140009959,-0.016456190543210358,0.6238348525848715,0.010131425996450893,-0.090008,-34.277652
11.185,2.0,1.0,1.0,33.0,34.6,34.6,1.7,3.9,2.585,0.7634863413020077,-0.016859045868268245,0.6294924595578145,0.010187614023605627,-0.091409,-34.111516
11.185,2.0,1.0,1.0,33.0,34.6,34.6,1.7,3.9,2.5875,0.7585737656647683,-0.017273225096005353,0.6351480340091057,0.010242223069715752,-0.092851,-33.944068
11.185,2.0,1.0,1.0,33.0,34.6,34.6,1.7,3.9,2.59,0.7535826450380839,-0.017699146856086596,0.6408011531417976,0.010295118423602449,-0.094334,-33.775277
11.185,2.0,1.0,1.0,33.0,34.6,34.6,1.7,3.9,2.5925,0.7485115955546354,-0.018137249638225477,0.6464513730911438,0.010346155803577802,-0.095861,-33.605108
11.185,2.0,1.0,1.0,33.0,34.6,34.6,1.7,3.9,2.595,0.7433591896959261,-0.01858799293851827,0.652098227690414,0.010395180616380239,-0.097433,-33.433526
11.185,2.0,1.0,1.0,33.0,34.6,34.6,1.7,3.9,2.5975,0.738123954350963,-0.019051858483423775,0.6577412271483344,0.01044202715166308,-0.099052,-33.260495
11.185,2.0,1.0,1.0,33.0,34.6,34.6,1.7,3.9,2.6,0.7328043687611615,-0.01952935153739086,0.6633798566304567,0.010486517705738517,-0.100721,-33.085979
11.185,2.0,1.0,1.0,33.0,34.6,34.6,1.7,3.9,2.6025,0.7273988623433418,-0.020021002300653824,0.6690135747359722,0.010528461627594061,-0.10244,-32.909939
11.185,2.0,1.0,1.0,33.0,34.6,34.6,1.7,3.9,2.605,0.7219058123820041,-0.020527367404281096,0.6746418118606224,0.010567654279427392,-0.104213,-32.732336
11.185,2.0,1.0,1.0,33.0,34.6,34.6,1.7,3.9,2.6075,0.7163235415813546,-0.021049031510182215,0.6802639684353785,0.010603875903083806,-0.106043,-32.553129
11.185,2.0,1.0,1.0,33.0,34.6,34.6,1.7,3.9,2.61,0.7106503154667551,-0.021586609024454213,0.6858794130294529,0.010636890382807965,-0.10793,-32.372276
11.185,2.0,1.0,1.0,33.0,34.6,34.6,1.7,3.9,2.6125,0.7048843396243752,-0.02214074593319265,0.6914874803049958,0.01066644389363271,-0.109879,-32.189734
11.185,2.0,1.0,1.0,33.0,34.6,34.6,1.7,3.9,2.615,0.6990237567669036,-0.022712121770703867,0.6970874688094545,0.010692263423497132,-0.111891,-32.005457
11.185,2.0,1.0,1.0,33.0,34.6,34.6,1.7,3.9,2.6175,0.6930666436121175,-0.023301451730945794,0.7026786385900055,0.010714055155801257,-0.113971,-31.8194
11.185,2.0,1.0,1.0,33.0,34.6,34.6,1.7,3.9,2.62,0.6870110075599709,-0.023909488934001265,0.7082602086127568,0.010731502697540711,-0.11612,-31.631515
11.185,2.0,1.0,1.0,33.0,34.6,34.6,1.7,3.9,2.6225,0.6808547831526159,-0.024537026860458024,0.7138313539674543,0.01074426513639558,-0.118343,-31.441751
11.185,2.0,1.0,1.0,33.0,34.6,34.6,1.7,3.9,2.625,0.674595828300428,-0.0251849019677411,0.719391202836193,0.0107519749081465,-0.120643,-31.250058
11.185,2.0,1.0,1.0,33.0,34.6,34.6,1.7,3.9,2.6275,0.6682319202555815,-0.025853996503732133,0.7249388332021794,0.01075423545352232,-0.123024,-31.056381
11.185,2.0,1.0,1.0,33.0,34.6,34.6,1.7,3.9,2.63,0.6617607513131263,-0.0265452415344172,0.730473269271734,0.010750618641008102,-0.125489,-30.860667
11.185,2.0,1.0,1.0,33.0,34.6,34.6,1.7,3.9,2.6325,0.6551799242177104,-0.027259620203852187,0.7359934775795417,0.010740661929215078,-0.128044,-30.662856
11.185,2.0,1.0,1.0,33.0,34.6,34.6,1.7,3.9,2.635,0.6484869472521481,-0.027998171246427152,0.7414983627435253,0.010723865239082567,-0.130693,-30.462892
11.185,2.0,1.0,1.0,33.0,34.6,34.6,1.7,3.9,2.6375,0.6416792289819133,-0.028761992773264838,0.7469867628315867,0.010699687502383055,-0.13344,-30.26071
11.185,2.0,1.0,1.0,33.0,34.6,34.6,1.7,3.9,2.64,0.6347540726272692,-0.029552246356621712,0.7524574442977836,0.010667542848666053,-0.136292,-30.056249
11.185,2.0,1.0,1.0,33.0,34.6,34.6,1.7,3.9,2.6425,0.6277086700322457,-0.030370161438375676,0.7579090964401312,0.010626796387817107,-0.139253,-29.849441
11.185,2.0,1.0,1.0,33.0,34.6,34.6,1.7,3.9,2.645,0.6205400951968525,-0.03121704009111326,0.7633403253261298,0.010576759539730647,-0.14233,-29.640217
11.185,2.0,1.0,1.0,33.0,34.6,34.6,1.7,3.9,2.6475,0.6132452973359184,-0.03209426216297333,0.7687496471251061,0.010516684856082602,-0.14553,-29.428505
11.185,2.0,1.0,1.0,33.0,34.6,34.6,1.7,3.9,2.65,0.6058210934246038,-0.033003290840287205,0.7741354807784734,0.010445760271704498,-0.148858,-29.214232
11.185,2.0,1.0,1.0,33.0,34.6,34.6,1.7,3.9,2.6525,0.59826416018712,-0.0339456786651829,0.7794961399297683,0.010363102714451332,-0.152323,-28.997318
11.185,2.0,1.0,1.0,33.0,34.6,34.6,1.7,3.9,2.655,0.5905710254812084,-0.034923074048718146,0.7848298240258127,0.01026775099252714,-0.155933,-28.777685
11.185,2.0,1.0,1.0,33.0,34.6,34.6,1.7,3.9,2.6575,0.5827380590268136,-0.0359372283237665,0.790134608488105,0.010158657866770764,-0.159697,-28.555246
11.185,2.0,1.0,1.0,33.0,34.6,34.6,1.7,3.9,2.66,0.5747614624228169,-0.03699000338582191,0.7954084338395278,0.010034681202144048,-0.163623,-28.329915
11.185,2.0,1.0,1.0,33.0,34.6,34.6,1.7,3.9,2.6625,0.5666372583908615,-0.03808337997409592,0.8006490936551722,0.00989457407730001,-0.167722,-28.101599
11.185,2.0,1.0,1.0,33.0,34.6,34.6,1.7,3.9,2.665,0.5583612791801352,-0.0392194666497581,0.8058542211872786,0.009736973713269037,-0.172005,-27.870204
11.185,2.0,1.0,1.0,33.0,34.6,34.6,1.7,3.9,2.6675,0.5499291540615235,-0.04040050953286809,0.8110212744924012,0.009560389061554427,-0.176484,-27.63563
11.185,2.0,1.0,1.0,33.0,34.6,34.6,1.7,3.9,2.67,0.541336295833828,-0.04162890286444698,0.8161475198635049,0.009363186867750358,-0.181172,-27.397772
11.185,2.0,1.0,1.0,33.0,34.6,34.6,1.7,3.9,2.6725,0.5325778862588354,-0.042907200465138726,0.8212300133400885,0.009143575998568201,-0.186082,-27.156521
11.185,2.0,1.0,1.0,33.0,34.6,34.6,1.7,3.9,2.675,0.5236488603360689,-0.044238128166921346,0.8262655800348152,0.008899589787137651,-0.19123,-26.911764
11.185,2.0,1.0,1.0,33.0,34.6,34.6,1.7,3.9,2.6775,0.5145438893221107,-0.04562459729918638,0.8312507909746903,0.00862906611274486,-0.196633,-26.663382
11.185,2.0,1.0,1.0,33.0,34.6,34.6,1.7,3.9,2.68,0.5052573623937707,-0.04706971931497505,0.836181937107376,0.008329624885716884,-0.202308,-26.41125
11.185,2.0,1.0,1.0,33.0,34.6,34.6,1.7,3.9,2.6825,0.4957833668493713,-0.04857682164693295,0.8410550000674774,0.0079986425546708,-0.208275,-26.155237
11.185,2.0,1.0,1.0,33.0,34.6,34.6,1.7,3.9,2.685,0.4861156667383895,-0.05014946488518239,0.8458656192320465,0.007633223190270291,-0.214556,-25.895206
11.185,2.0,1.0,1.0,33.0,34.6,34.6,1.7,3.9,2.6875,0.4762476798073693,-0.05179146137020599,0.8506090545170719,0.007230165625101226,-0.221175,-25.631013
11.185,2.0,1.0,1.0,33.0,34.6,34.6,1.7,3.9,2.69,0.46617245265007856,-0.05350689529217122,0.8552801442752218,0.006785926041032453,-0.228158,-25.362508
11.185,2.0,1.0,1.0,33.0,34.6,34.6,1.7,3.9,2.6925,0.45588263395348017,-0.05530014438279914,0.8598732575466103,0.006296575290725928,-0.235533,-25.089532
11.185,2.0,1.0,1.0,33.0,34.6,34.6,1.7,3.9,2.695,0.4453704457398209,-0.05717590327536684,0.86438223978558,0.005757750115485741,-0.243332,-24.811919
11.185,2.0,1.0,1.0,33.0,34.6,34.6,1.7,3.9,2.6975,0.4346276525208014,-0.05913920859073817,0.8688003510332601,0.005164597273351938,-0.25159,-24.529494
11.185,2.0,1.0,1.0,33.0,34.6,34.6,1.7,3.9,2.7,0.42364552830543745,-0.06119546577966821,0.8731201953229463,0.004511709414353423,-0.260347,-24.242073
11.185,2.0,1.0,1.0,33.0,34.6,34.6,1.7,3.9,2.7025,0.4124148214422386,-0.0633504777103846,0.8773336398871294,0.003793051328166306,-0.269644,-23.949461
11.185,2.0,1.0,1.0,33.0,34.6,34.6,1.7,3.9,2.705,0.4009257173339322,-0.06561047493061856,0.8814317224737437,0.0030018749358318208,-0.279531,-23.651455
11.185,2.0,1.0,1.0,33.0,34.6,34.6,1.7,3.9,2.7075,0.38916779914570615,-0.0679821474481991,0.8854045447660194,0.0021306210928299873,-0.29006,-23.347839
11.185,2.0,1.0,1.0,33.0,34.6,34.6,1.7,3.9,2.71,0.37713000674505287,-0.07047267775500159,0.8892411495241392,0.0011708059049550842,-0.301291,-23.038386
11.185,2.0,1.0,1.0,33.0,34.6,34.6,1.7,3.9,2.7125,0.36480059427480416,-0.07308977465333416,0.8929293786144454,0.00011288881805300172,-0.313292,-22.722857
11.185,2.0,1.0,1.0,33.0,34.6,34.6,1.7,3.9,2.715,0.35216708698767535,-0.07584170721529573,0.8964557085471132,-0.0010538807880182148,-0.326137,-22.400999
11.185,2.0,1.0,1.0,33.0,34.6,34.6,1.7,3.9,2.7175,0.3392162382828014,-0.07873733789202937,0.8998050594865042,-0.0023416424109021453,-0.339913,-22.072546
11.185,2.0,1.0,1.0,33.0,34.6,34.6,1.7,3.9,2.72,0.3259339883129973,-0.08178615336092232,0.9029605729065722,-0.0037641333246645767,-0.354713,-21.737215
11.185,2.0,1.0,1.0,33.0,34.6,34.6,1.7,3.9,2.7225,0.3123054261170629,-0.08499829111366848,0.9059033521089548,-0.005336933179602164,-0.370648,-21.394708
11.185,2.0,1.0,1.0,33.0,34.6,34.6,1.7,3.9,2.725,0.29831475803107665,-0.08838455899079402,0.9086121586711892,-0.007077751039100519,-0.387841,-21.044711
11.185,2.0,1.0,1.0,33.0,34.6,34.6,1.7,3.9,2.7275,0.28394528622307635,-0.09195644378252875,0.911063056509376,-0.009006762940188422,-0.406433,-20.686892
11.185,2.0,1.0,1.0,33.0,34.6,34.6,1.7,3.9,2.73,0.269179402682637,-0.09572610353739626,0.9132289935814923,-0.01114700968368089,-0.426587,-20.320898
11.185,2.0,1.0,1.0,33.0,34.6,34.6,1.7,3.9,2.7325,0.25399860602484886,-0.09970633620572426,0.915079309279546,-0.01352486649157153,-0.448486,-19.94636
11.185,2.0,1.0,1.0,33.0,34.6,34.6,1.7,3.9,2.735,0.23838355123578903,-0.10391051449924127,0.9165791532165892,-0.01617059845643895,-0.472346,-19.562887
11.185,2.0,1.0,1.0,33.0,34.6,34.6,1.7,3.9,2.7375,0.22231414626628415,-0.10835247310061832,0.9176887983719337,-0.019119018384950105,-0.498415,-19.170067
11.185,2.0,1.0,1.0,33.0,34.6,34.6,1.7,3.9,2.74,0.2057697145475902,-0.11304632923788753,0.9183628283991999,-0.02241026671881429,-0.526979,-18.767466
11.185,2.0,1.0,1.0,33.0,34.6,34.6,1.7,3.9,2.7425,0.18872924957142517,-0.1180062106394947,0.9185491753561564,-0.026090736671334703,-0.558376,-18.35463
11.185,2.0,1.0,1.0,33.0,34.6,34.6,1.7,3.9,2.745,0.17117179735443977,-0.12324585530883043,0.9181879802958433,-0.03021417143148189,-0.592998,-17.931084
11.185,2.0,1.0,1.0,33.0,34.6,34.6,1.7,3.9,2.7475,0.1530770158587261,-0.12877803444972155,0.9172102453312113,-0.03484296399429508,-0.631309,-17.496333
11.185,2.0,1.0,1.0,33.0,34.6,34.6,1.7,3.9,2.75,0.134425978576616,-0.134613731943319,0.915536242481908,-0.04004969334671,-0.673857,-17.049866
11.185,2.0,1.0,1.0,33.0,34.6,34.6,1.7,3.9,2.7525,0.11520231427154548,-0.1407609892849756,0.9130736428173294,-0.04591893239276192,-0.721294,-16.591158
11.185,2.0,1.0,1.0,33.0,34.6,34.6,1.7,3.9,2.755,0.09539380862620829,-0.14722329154202715,0.9097153308686966,-0.052549361410751685,-0.774396,-16.119675
11.185,2.0,1.0,1.0,33.0,34.6,34.6,1.7,3.9,2.7575,0.07499463928345658,-0.15399732473738248,0.9053368769939136,-0.060056213025709376,-0.834097,-15.634887
11.185,2.0,1.0,1.0,33.0,34.6,34.6,1.7,3.9,2.76,0.05400847716919486,-0.1610698744659534,0.8997936593841113,-0.06857405566133604,-0.901523,-15.136275
11.185,2.0,1.0,1.0,33.0,34.6,34.6,1.7,3.9,2.7625,0.03245276826365368,-0.1684135553854608,0.8929176660218057,-0.07825988397427465,-0.978039,-14.623353
11.185,2.0,1.0,1.0,33.0,34.6,34.6,1.7,3.9,2.765,0.010364615167502348,-0.1759809575530746,0.8845140786258889,-0.08929641353537181,-1.065309,-14.09569
11.185,2.0,1.0,1.0,33.0,34.6,34.6,1.7,3.9,2.7675,-0.012191190992284641,-0.1836966663837726,0.8743578668744956,-0.10189535184101384,-1.165371,-13.552943
11.185,2.0,1.0,1.0,33.0,34.6,34.6,1.7,3.9,2.77,-0.03511128420130206,-0.19144646199282545,0.8621908351495354,-0.1163002058716251,-1.280736,-12.994911
11.185,2.0,1.0,1.0,33.0,34.6,34.6,1.7,3.9,2.7725,-0.05823911993541204,-0.1990628480513879,0.8477199151948763,-0.13278783904341301,-1.414503,-12.421591
11.185,2.0,1.0,1.0,33.0,34.6,34.6,1.7,3.9,2.775,-0.0813456735222697,-0.20630594554529436,0.8306180562032249,-0.1516674387774378,-1.570518,-11.833269
11.185,2.0,1.0,1.0,33.0,34.6,34.6,1.7,3.9,2.7775,-0.1041044838804885,-0.21283881335502608,0.8105299179534794,-0.173274712502987,-1.753559,-11.230638
11.185,2.0,1.0,1.0,33.0,34.6,34.6,1.7,3.9,2.78,-0.12606045346592715,-0.21819662430450723,0.7870858140936048,-0.19795790520509363,-1.96956,-10.614948
11.185,2.0,1.0,1.0,33.0,34.6,34.6,1.7,3.9,2.7825,-0.14659289094031003,-0.22175019265741255,0.7599290193374342,-0.22605058957142454,-2.225865,-9.988202
11.185,2.0,1.0,1.0,33.0,34.6,34.6,1.7,3.9,2.785,-0.16487566458266437,-0.22266670622679452,0.7287634922335127,-0.25782427455739243,-2.531478,-9.353406
11.185,2.0,1.0,1.0,33.0,34.6,34.6,1.7,3.9,2.7875,-0.1798418611371459,-0.21987498931576535,0.6934306438580696,-0.293412335068053,-2.897225,-8.71485
11.185,2.0,1.0,1.0,33.0,34.6,34.6,1.7,3.9,2.79,-0.1901678706992564,-0.21205004833805746,0.6540234151455789,-0.33269715387978877,-3.335658,-8.078436
11.185,2.0,1.0,1.0,33.0,34.6,34.6,1.7,3.9,2.7925,-0.19430239030129368,-0.19764206431251533,0.6110404981141238,-0.3751577589706889,-3.860273,-7.451965
11.185,2.0,1.0,1.0,33.0,34.6,34.6,1.7,3.9,2.795,-0.19057680659932474,-0.17498576220564319,0.5655683554701831,-0.41969025459322534,-4.483218,-6.845336
11.185,2.0,1.0,1.0,33.0,34.6,34.6,1.7,3.9,2.7975,-0.17743650364968366,-0.14252902490375183,0.5194495293242498,-0.4644421210404664,-5.209843,-6.270493
11.185,2.0,1.0,1.0,33.0,34.6,34.6,1.7,3.9,2.8,-0.15381222084818005,-0.0991993334708743,0.4753552860650575,-0.5067412672274056,-6.027191,-5.740955
11.185,2.0,1.0,1.0,33.0,34.6,34.6,1.7,3.9,2.8025,-0.11958971006848698,-0.044866479271264845,0.43664931292118664,-0.5432313892820673,-6.883217,-5.270778
11.185,2.0,1.0,1.0,33.0,34.6,34.6,1.7,3.9,2.805,-0.07603789012339128,0.01923658623496745,0.40694986226216484,-0.5703044477454642,-7.660146,-4.872927
11.185,2.0,1.0,1.0,33.0,34.6,34.6,1.7,3.9,2.8075,-0.02597330494778361,0.09035369747496608,0.38941160034524624,-0.5848085698320682,-8.172545,-4.557274
11.185,2.0,1.0,1.0,33.0,34.6,34.6,1.7,3.9,2.81,0.026531763663680017,0.16449541202488757,0.3859329289906871,-0.5848279766036347,-8.249286,-4.328765
11.185,2.0,1.0,1.0,33.0,34.6,34.6,1.7,3.9,2.8125,0.0768958658927196,0.237176295320344,0.396623445844865,-0.570205178973083,-7.872183,-4.186346
11.185,2.0,1.0,1.0,33.0,34.6,34.6,1.7,3.9,2.815,0.12096707850035412,0.30434015837799244,0.4197935407942132,-0.5425480462810504,-7.192859,-4.1231
11.185,2.0,1.0,1.0,33.0,34.6,34.6,1.7,3.9,2.8175,0.1557718104033786,0.36309695156756044,0.4524627124072162,-0.5047260610687355,-6.401885,-4.127519
11.185,2.0,1.0,1.0,33.0,34.6,34.6,1.7,3.9,2.82,0.17981950650871462,0.41202151694271916,0.491124435191263,-0.4601145377306414,-5.629819,-4.185429
11.185,2.0,1.0,1.0,33.0,34.6,34.6,1.7,3.9,2.8225,0.19296564632251936,0.45101720691072267,0.5324429652836042,-0.4119064744941238,-4.938587,-4.28194
11.185,2.0,1.0,1.0,33.0,34.6,34.6,1.7,3.9,2.825,0.1960185179855212,0.48092737916596273,0.5736862670821666,-0.3626845132451253,-4.346963,-4.402954
11.185,2.0,1.0,1.0,33.0,34.6,34.6,1.7,3.9,2.8275,0.19029981300891116,0.5031016434662025,0.6128743985371607,-0.3142729566831328,-3.85283,-4.53607
11.185,2.0,1.0,1.0,33.0,34.6,34.6,1.7,3.9,2.83,0.1772910099769969,0.5190466692649857,0.6487284052787862,-0.26778579836729177,-3.44592,-4.670945
