1,w,sub_t,h,l1,l2,l3,g1,g2,Freq,S11_re,S21_re,S11_img,S21_img,S11_dB,S21_dB
11.185,2.0,1.0,1.0,33.1,34.1,34.1,3.0,1.7,2.5,0.886940910257558,-0.00820030461128679,0.448070992499844,0.00916048064062526,-0.054929,-38.205648
11.185,2.0,1.0,1.0,33.1,34.1,34.1,3.0,1.7,2.5025,0.8840901353207388,-0.008387364912206773,0.4535395401668699,0.00923771516432128,-0.055449,-38.077581
11.185,2.0,1.0,1.0,33.1,34.1,34.1,3.0,1.7,2.505,0.8811932693893325,-0.008578456310339516,0.4590107113319955,0.009315147770902633,-0.055982,-37.948988
11.185,2.0,1.0,1.0,33.1,34.1,34.1,3.0,1.7,2.5075,0.878249845032001,-0.008773683044104393,0.4644843651413801,0.009392764789778022,-0.056527,-37.819859
11.185,2.0,1.0,1.0,33.1,34.1,34.1,3.0,1.7,2.51,0.8752593855215713,-0.008973152907834604,0.46996035637569966,0.009470551703379505,-0.057085,-37.690179
11.185,2.0,1.0,1.0,33.1,34.1,34.1,3.0,1.7,2.5125,0.8722214045875682,-0.009176977403439767,0.47543853528254765,0.009548493096820432,-0.057656,-37.559936
11.185,2.0,1.0,1.0,33.1,34.1,34.1,3.0,1.7,2.515,0.869135406159521,-0.009385271899797609,0.4809187474019793,0.009626572604310404,-0.05824,-37.429115
11.185,2.0,1.0,1.0,33.1,34.1,34.1,3.0,1.7,2.5175,0.8660008841005882,-0.009598155800336992,0.48640083338484114,0.009704772852093497,-0.058838,-37.297703
11.185,2.0,1.0,1.0,33.1,34.1,34.1,3.0,1.7,2.52,0.8628173219309696,-0.009815752719302634,0.49188462880352624,0.009783075397659722,-0.059451,-37.165686
11.185,2.0,1.0,1.0,33.1,34.1,34.1,3.0,1.7,2.5225,0.8595841925405863,-0.010038190667227454,0.4973699639547406,0.009861460664958707,-0.060078,-37.033048
11.185,2.0,1.0,1.0,33.1,34.1,34.1,3.0,1.7,2.525,0.8563009578904343,-0.010265602246174529,0.502856663653877,0.009939907875322227,-0.060719,-36.899775
11.185,2.0,1.0,1.0,33.1,34.1,34.1,3.0,1.7,2.5275,0.8529670687020017,-0.01049812485534973,0.5083445470205386,0.010018394973778297,-0.061376,-36.765852
11.185,2.0,1.0,1.0,33.1,34.1,34.1,3.0,1.7,2.53,0.8495819641340917,-0.010735900907728869,0.513833427254726,0.010096898550413954,-0.062049,-36.631263
11.185,2.0,1.0,1.0,33.1,34.1,34.1,3.0,1.7,2.5325,0.8461450714463458,-0.01097907805838779,0.5193231114031784,0.010175393756413931,-0.062738,-36.495992
11.185,2.0,1.0,1.0,33.1,34.1,34.1,3.0,1.7,2.535,0.8426558056487127,-0.0112278094452753,0.5248134001153201,0.010253854214372022,-0.063443,-36.360023
11.185,2.0,1.0,1.0,33.1,34.1,34.1,3.0,1.7,2.5375,0.8391135691360635,-0.011482253943219776,0.5303040873882099,0.010332251922437748,-0.064165,-36.22334
11.185,2.0,1.0,1.0,33.1,34.1,34.1,3.0,1.7,2.54,0.8355177513070822,-0.011742576432019362,0.535794960299875,0.010410557151822335,-0.064905,-36.085924
11.185,2.0,1.0,1.0,33.1,34.1,34.1,3.0,1.7,2.5425,0.8318677281665137,-0.012008948079528767,0.5412857987303387,0.01048873833714846,-0.065663,-35.947758
11.185,2.0,1.0,1.0,33.1,34.1,34.1,3.0,1.7,2.545,0.8281628619097718,-0.012281546640720708,0.5467763750696178,0.010566761959081792,-0.06644,-35.808825
11.185,2.0,1.0,1.0,33.1,34.1,34.1,3.0,1.7,2.5475,0.8244025004888531,-0.012560556773775952,0.5522664539118954,0.010644592418633745,-0.067235,-35.669106
11.185,2.0,1.0,1.0,33.1,34.1,34.1,3.0,1.7,2.55,0.8205859771583949,-0.012846170374334519,0.5577557917350354,0.010722191902470146,-0.068051,-35.528583
11.185,2.0,1.0,1.0,33.1,34.1,34.1,3.0,1.7,2.5525,0.8167126100006773,-0.013138586929123782,0.5632441365645118,0.010799520238501456,-0.068886,-35.387235
11.185,2.0,1.0,1.0,33.1,34.1,34.1,3.0,1.7,2.555,0.8127817014282214,-0.013438013890279992,0.5687312276207771,0.010876534740963242,-0.069743,-35.245043
11.185,2.0,1.0,1.0,33.1,34.1,34.1,3.0,1.7,2.5575,0.8087925376625775,-0.013744667071770997,0.5742167949490097,0.010953190044125536,-0.070622,-35.101986
11.185,2.0,1.0,1.0,33.1,34.1,34.1,3.0,1.7,2.56,0.8047443881877695,-0.014058771069447588,0.5797005590300789,0.011029437923687827,-0.071522,-34.958044
11.185,2.0,1.0,1.0,33.1,34.1,34.1,3.0,1.7,2.5625,0.8006365051767443,-0.01438055970636635,0.5851822303714886,0.011105227104830027,-0.072446,-34.813195
11.185,2.0,1.0,1.0,33.1,34.1,34.1,3.0,1.7,2.565,0.7964681228890451,-0.014710276505157101,0.5906615090769567,0.011180503055792613,-0.073394,-34.667417
11.185,2.0,1.0,1.0,33.1,34.1,34.1,3.0,1.7,2.5675,0.7922384570377955,-0.015048175189352149,0.5961380843931486,0.011255207765751883,-0.074366,-34.520687
11.185,2.0,1.0,1.0,33.1,34.1,34.1,3.0,1.7,2.57,0.7879467041239073,-0.015394520215750714,0.6016116342319894,0.01132927950563788,-0.075364,-34.372982
11.185,2.0,1.0,1.0,33.1,34.1,34.1,3.0,1.7,2.5725,0.78359204073528,-0.01574958734005669,0.6070818246668194,0.011402652570411644,-0.076388,-34.224278
11.185,2.0,1.0,1.0,33.1,34.1,34.1,3.0,1.7,2.575,0.7791736228085555,-0.016113664218219106,0.6125483094005042,0.011475257001172868,-0.077439,-34.07455
11.185,2.0,1.0,1.0,33.1,34.1,34.1,3.0,1.7,2.5775,0.7746905848508102,-0.016487051046100154,0.618010729203453,0.011547018285308783,-0.078519,-33.923772
11.185,2.0,1.0,1.0,33.1,34.1,34.1,3.0,1.7,2.58,0.7701420391183301,-0.01687006124032052,0.6234687113192887,0.011617857032714438,-0.079628,-33.771919
11.185,2.0,1.0,1.0,33.1,34.1,34.1,3.0,1.7,2.5825,0.7655270747493821,-0.01726302216337427,0.6289218688357354,0.01168768862591757,-0.080768,-33.618963
11.185,2.0,1.0,1.0,33.1,34.1,34.1,3.0,1.7,2.585,0.7608447568476359,-0.017666275896364044,0.6343698000180259,0.011756422841719516,-0.081939,-33.464877
11.185,2.0,1.0,1.0,33.1,34.1,34.1,3.0,1.7,2.5875,0.756094125512586,-0.018080180063006143,0.6398120876018987,0.01182396344171565,-0.083142,-33.309631
11.185,2.0,1.0,1.0,33.1,34.1,34.1,3.0,1.7,2.59,0.7512741948130318,-0.018505108708865205,0.6452482980429524,0.011890207728785811,-0.08438,-33.153197
11.185,2.0,1.0,1.0,33.1,34.1,34.1,3.0,1.7,2.5925,0.7463839516992938,-0.018941453240133806,0.6506779807188213,0.011955046066337613,-0.085653,-32.995544
11.185,2.0,1.0,1.0,33.1,34.1,34.1,3.0,1.7,2.595,0.7414223548494983,-0.019389623426649398,0.6561006670802635,0.012018361356741935,-0.086963,-32.83664
11.185,2.0,1.0,1.0,33.1,34.1,34.1,3.0,1.7,2.5975,0.7363883334448007,-0.019850048474271166,0.6615158697468766,0.012080028475016404,-0.088311,-32.676452
11.185,2.0,1.0,1.0,33.1,34.1,34.1,3.0,1.7,2.6,0.7312807858679937,-0.020323178172198055,0.6669230815427046,0.012139913653382458,-0.089699,-32.514948
11.185,2.0,1.0,1.0,33.1,34.1,34.1,3.0,1.7,2.6025,0.726098578319408,-0.020809484121319544,0.6723217744664918,0.012197873811838894,-0.091128,-32.352093
11.185,2.0,1.0,1.0,33.1,34.1,34.1,3.0,1.7,2.605,0.7208405433434628,-0.021309461050263902,0.6777113985908121,0.012253755829352677,-0.0926,-32.18785
11.185,2.0,1.0,1.0,33.1,34.1,34.1,3.0,1.7,2.6075,0.7155054782585961,-0.021823628226418867,0.6830913808836513,0.012307395749657602,-0.094117,-32.022183
11.185,2.0,1.0,1.0,33.1,34.1,34.1,3.0,1.7,2.61,0.7100921434826273,-0.02235253096989737,0.6884611239453318,0.012358617914965129,-0.095681,-31.855053
11.185,2.0,1.0,1.0,33.1,34.1,34.1,3.0,1.7,2.6125,0.7045992607448276,-0.02289674227917597,0.6938200046528823,0.012407234020117258,-0.097294,-31.68642
11.185,2.0,1.0,1.0,33.1,34.1,34.1,3.0,1.7,2.615,0.6990255111751487,-0.023456864577975176,0.6991673727030625,0.012453042078835536,-0.098958,-31.516244
11.185,2.0,1.0,1.0,33.1,34.1,34.1,3.0,1.7,2.6175,0.6933695332601231,-0.024033531593882936,0.7045025490442386,0.012495825292732717,-0.100676,-31.344482
11.185,2.0,1.0,1.0,33.1,34.1,34.1,3.0,1.7,2.62,0.687629920653917,-0.024627410380252776,0.7098248241861856,0.012535350812631109,-0.10245,-31.171089
11.185,2.0,1.0,1.0,33.1,34.1,34.1,3.0,1.7,2.6225,0.6818052198318589,-0.025239203494056967,0.7151334563755969,0.012571368380463096,-0.104282,-30.996019
11.185,2.0,1.0,1.0,33.1,34.1,34.1,3.0,1.7,2.625,0.675893927572526,-0.0258696513436406,0.720427669623611,0.0126036088385829,-0.106175,-30.819226
11.185,2.0,1.0,1.0,33.1,34.1,34.1,3.0,1.7,2.6275,0.669894488253008,-0.026519534721739485,0.7257066515700336,0.012631782491678957,-0.108133,-30.640659
11.185,2.0,1.0,1.0,33.1,34.1,34.1,3.0,1.7,2.63,0.6638052909404366,-0.027189677540697406,0.7309695511670081,0.01265557730460166,-0.110159,-30.460267
11.185,2.0,1.0,1.0,33.1,34.1,34.1,3.0,1.7,2.6325,0.6576246662610848,-0.027880949788559903,0.7362154761627667,0.012674656917286812,-0.112255,-30.277998
11.185,2.0,1.0,1.0,33.1,34.1,34.1,3.0,1.7,2.635,0.6513508830264008,-0.02859427072668413,0.7414434903636051,0.012688658455510541,-0.114426,-30.093795
11.185,2.0,1.0,1.0,33.1,34.1,34.1,3.0,1.7,2.6375,0.6449821445931553,-0.029330612351662472,0.7466526106494273,0.01269719011341444,-0.116676,-29.907602
11.185,2.0,1.0,1.0,33.1,34.1,34.1,3.0,1.7,2.64,0.6385165849324366,-0.030091003146799113,0.7518418037149769,0.012699828480529939,-0.119008,-29.719357
11.185,2.0,1.0,1.0,33.1,34.1,34.1,3.0,1.7,2.6425,0.6319522643795209,-0.03087653215107657,0.7570099825051486,0.012696115582340118,-0.121426,-29.528998
11.185,2.0,1.0,1.0,33.1,34.1,34.1,3.0,1.7,2.645,0.6252871650335928,-0.031688353376586396,0.7621560023085283,0.012685555599170496,-0.123937,-29.336461
11.185,2.0,1.0,1.0,33.1,34.1,34.1,3.0,1.7,2.6475,0.6185191857728861,-0.032527690608780795,0.7672786564683722,0.012667611223296986,-0.126544,-29.141677
11.185,2.0,1.0,1.0,33.1,34.1,34.1,3.0,1.7,2.65,0.6116461368469907,-0.03339584262770024,0.7723766716645798,0.012641699608495918,-0.129254,-28.944575
11.185,2.0,1.0,1.0,33.1,34.1,34.1,3.0,1.7,2.6525,0.6046657340038336,-0.03429418889257392,0.7774487027135967,0.012607187859697734,-0.132072,-28.745081
11.185,2.0,1.0,1.0,33.1,34.1,34.1,3.0,1.7,2.655,0.5975755921039955,-0.035224195736955184,0.7824933268256054,0.012563388002791243,-0.135004,-28.543119
11.185,2.0,1.0,1.0,33.1,34.1,34.1,3.0,1.7,2.6575,0.5903732181697013,-0.03618742312688351,0.7875090372494528,0.012509551365769719,-0.138058,-28.338606
11.185,2.0,1.0,1.0,33.1,34.1,34.1,3.0,1.7,2.66,0.5830560038097627,-0.03718553204055753,0.7924942362254551,0.012444862292086984,-0.14124,-28.131458
11.185,2.0,1.0,1.0,33.1,34.1,34.1,3.0,1.7,2.6625,0.5756212169550087,-0.038220292534698004,0.7974472271541457,0.012368431095036199,-0.144559,-27.921587
11.185,2.0,1.0,1.0,33.1,34.1,34.1,3.0,1.7,2.665,0.5680659928311196,-0.039293592570323166,0.8023662058749326,0.012279286147849523,-0.148024,-27.708899
11.185,2.0,1.0,1.0,33.1,34.1,34.1,3.0,1.7,2.6675,0.5603873240873011,-0.040407447679079306,0.8072492509320499,0.012176364987655664,-0.151644,-27.493298
11.185,2.0,1.0,1.0,33.1,34.1,34.1,3.0,1.7,2.67,0.5525820499896501,-0.04156401156073704,0.8120943126857487,0.012058504291952458,-0.155429,-27.274681
11.185,2.0,1.0,1.0,33.1,34.1,34.1,3.0,1.7,2.6725,0.5446468445773696,-0.04276558771304142,0.8168992011037006,0.01192442856328584,-0.15939,-27.052941
11.185,2.0,1.0,1.0,33.1,34.1,34.1,3.0,1.7,2.675,0.536578203668027,-0.044014642206950366,0.8216615720404847,0.011772737330677366,-0.163539,-26.827965
11.185,2.0,1.0,1.0,33.1,34.1,34.1,3.0,1.7,2.6775,0.5283724305846293,-0.04531381773351274,0.8263789117808945,0.011601890644174192,-0.16789,-26.599634
11.185,2.0,1.0,1.0,33.1,34.1,34.1,3.0,1.7,2.68,0.5200256204623742,-0.04666594906335934,0.831048519584643,0.011410192600668768,-0.172458,-26.367824
11.185,2.0,1.0,1.0,33.1,34.1,34.1,3.0,1.7,2.6825,0.5115336429763331,-0.04807408007612943,0.835667487924573,0.01119577259359858,-0.177257,-26.132403
11.185,2.0,1.0,1.0,33.1,34.1,34.1,3.0,1.7,2.685,0.5028921233129179,-0.0495414825352325,0.8402326800561962,0.010956563924727445,-0.182306,-25.893232
11.185,2.0,1.0,1.0,33.1,34.1,34.1,3.0,1.7,2.6875,0.4940964211877392,-0.051071676803210495,0.8447407044913208,0.010690279351029864,-0.187623,-25.650164
11.185,2.0,1.0,1.0,33.1,34.1,34.1,3.0,1.7,2.69,0.48514160769030706,-0.05266845471465772,0.8491878858703787,0.01039438306137642,-0.19323,-25.403046
11.185,2.0,1.0,1.0,33.1,34.1,34.1,3.0,1.7,2.6925,0.47602243971197544,-0.05433590484707376,0.8535702316339095,0.010066058483325082,-0.19915,-25.151713
11.185,2.0,1.0,1.0,33.1,34.1,34.1,3.0,1.7,2.695,0.46673333168791176,-0.05607844045497748,0.8578833937797925,0.009702171206223246,-0.205409,-24.895993
11.185,2.0,1.0,1.0,33.1,34.1,34.1,3.0,1.7,2.6975,0.4572683243568175,-0.05790083035866316,0.8621226248548324,0.009299226168452633,-0.212035,-24.635701
11.185,2.0,1.0,1.0,33.1,34.1,34.1,3.0,1.7,2.7,0.44762105021463006,-0.059808233105399324,0.8662827271613757,0.008853318088334911,-0.219061,-24.370644
11.185,2.0,1.0,1.0,33.1,34.1,34.1,3.0,1.7,2.7025,0.4377846953113146,-0.061806234746479186,0.8703579939547542,0.008360073912786155,-0.226521,-24.100614
11.185,2.0,1.0,1.0,33.1,34.1,34.1,3.0,1.7,2.705,0.4277519570151602,-0.06390089059641821,0.8743421411564428,0.00781458580627065,-0.234456,-23.825392
11.185,2.0,1.0,1.0,33.1,34.1,34.1,3.0,1.7,2.7075,0.41751499734924424,-0.06609877135796673,0.8782282277995723,0.007211332893569193,-0.242909,-23.544745
11.185,2.0,1.0,1.0,33.1,34.1,34.1,3.0,1.7,2.71,0.4070653914942189,-0.06840701400412363,0.8820085630434141,0.006544089588903108,-0.25193,-23.258423
11.185,2.0,1.0,1.0,33.1,34.1,34.1,3.0,1.7,2.7125,0.39639407105628865,-0.07083337779972547,0.8856745971233477,0.005805817872709495,-0.261576,-22.966162
11.185,2.0,1.0,1.0,33.1,34.1,34.1,3.0,1.7,2.715,0.38549126172836345,-0.07338630581105124,0.8892167930192445,0.004988540292432503,-0.27191,-22.667678
11.185,2.0,1.0,1.0,33.1,34.1,34.1,3.0,1.7,2.7175,0.37434641503908245,-0.0760749921786257,0.8926244748982808,0.004083189735187502,-0.283004,-22.362668
11.185,2.0,1.0,1.0,33.1,34.1,34.1,3.0,1.7,2.72,0.3629481340082181,-0.07890945529601308,0.8958856484796027,0.003079431109765064,-0.294939,-22.05081
11.185,2.0,1.0,1.0,33.1,34.1,34.1,3.0,1.7,2.7225,0.3512840927362083,-0.08190061681683243,0.8989867873288573,0.0019654489340083263,-0.307809,-21.731756
11.185,2.0,1.0,1.0,33.1,34.1,34.1,3.0,1.7,2.725,0.3393409502918576,-0.08506038606098575,0.9019125776570697,0.00072769338799782,-0.32172,-21.405135
11.185,2.0,1.0,1.0,33.1,34.1,34.1,3.0,1.7,2.7275,0.3271042597859778,-0.08840174884731536,0.9046456123894395,-0.0006494244174461414,-0.336795,-21.070548
11.185,2.0,1.0,1.0,33.1,34.1,34.1,3.0,1.7,2.73,0.3145583743189805,-0.09193885895291684,0.9071660229807174,-0.002183899497780788,-0.353175,-20.727568
11.185,2.0,1.0,1.0,33.1,34.1,34.1,3.0,1.7,2.7325,0.3016863526971037,-0.09568712915643857,0.9094510345509318,-0.003896576821263683,-0.371025,-20.375734
11.185,2.0,1.0,1.0,33.1,34.1,34.1,3.0,1.7,2.735,0.2884698696170002,-0.09966331696861346,0.9114744262272257,-0.00581169003467089,-0.390536,-20.01455
11.185,2.0,1.0,1.0,33.1,34.1,34.1,3.0,1.7,2.7375,0.27488913770461004,-0.10388559740010314,0.9132058738878648,-0.007957517900598631,-0.41193,-19.643486
11.185,2.0,1.0,1.0,33.1,34.1,34.1,3.0,1.7,2.74,0.26092285278105093,-0.1083736110381836,0.9146101465424776,-0.010367187205236748,-0.43547,-19.261967
11.185,2.0,1.0,1.0,33.1,34.1,34.1,3.0,1.7,2.7425,0.2465481796392015,-0.11314846966653963,0.9156461200175634,-0.0130796584301628,-0.461467,-18.869377
11.185,2.0,1.0,1.0,33.1,34.1,34.1,3.0,1.7,2.745,0.23174080438076491,-0.11823269272191954,0.9162655620585537,-0.01614093998342764,-0.490287,-18.465053
11.185,2.0,1.0,1.0,33.1,34.1,34.1,3.0,1.7,2.7475,0.2164750923792588,-0.12365003462439647,0.9164116309796934,-0.019605588665395152,-0.522371,-18.048282
11.185,2.0,1.0,1.0,33.1,34.1,34.1,3.0,1.7,2.75,0.200724410294375,-0.129425143324133,0.916017015178564,-0.0235385686849172,-0.558247,-17.618301
11.185,2.0,1.0,1.0,33.1,34.1,34.1,3.0,1.7,2.7525,0.184461699420301,-0.13558296108999146,0.9150016229246551,-0.02801755914839001,-0.598552,-17.174295
11.185,2.0,1.0,1.0,33.1,34.1,34.1,3.0,1.7,2.755,0.1676604307517047,-0.1421477348342584,0.9132697110173966,-0.03313582024434142,-0.644063,-16.715396
11.185,2.0,1.0,1.0,33.1,34.1,34.1,3.0,1.7,2.7575,0.15029613662780775,-0.14914143794219553,0.9107063184132129,-0.039005749967465746,-0.695732,-16.240692
11.185,2.0,1.0,1.0,33.1,34.1,34.1,3.0,1.7,2.76,0.13234881031771378,-0.15658130796062178,0.9071728501759385,-0.04576328248763772,-0.754732,-15.749227
11.185,2.0,1.0,1.0,33.1,34.1,34.1,3.0,1.7,2.7625,0.11380660914886166,-0.16447605887997452,0.9025016460070187,-0.053573287858181155,-0.822524,-15.240025
11.185,2.0,1.0,1.0,33.1,34.1,34.1,3.0,1.7,2.765,0.0946715114037333,-0.17282011058341049,0.8964893828009701,-0.06263611334174107,-0.900933,-14.712109
11.185,2.0,1.0,1.0,33.1,34.1,34.1,3.0,1.7,2.7675,0.07496789351134704,-0.18158486045939815,0.8888892355024094,-0.0731953247280028,-0.992265,-14.164542
11.185,2.0,1.0,1.0,33.1,34.1,34.1,3.0,1.7,2.77,0.05475545181809624,-0.19070556453931517,0.8794019196172251,-0.08554649524403171,-1.099447,-13.596496
11.185,2.0,1.0,1.0,33.1,34.1,34.1,3.0,1.7,2.7725,0.03414853400808144,-0.20006175898524303,0.8676661835469331,-0.10004642590208242,-1.226225,-13.007348
11.185,2.0,1.0,1.0,33.1,34.1,34.1,3.0,1.7,2.775,0.013344787620192266,-0.20944832482870357,0.8532502306785276,-0.11712123985018791,-1.37741,-12.396832
11.185,2.0,1.0,1.0,33.1,34.1,34.1,3.0,1.7,2.7775,-0.007332996870893456,-0.2185333662341644,0.8356473151336948,-0.13726998653543163,-1.559205,-11.765265
11.185,2.0,1.0,1.0,33.1,34.1,34.1,3.0,1.7,2.78,-0.027377210041021668,-0.2267983968660231,0.8142819953753877,-0.1610570981631984,-1.779597,-11.113887
11.185,2.0,1.0,1.0,33.1,34.1,34.1,3.0,1.7,2.7825,-0.046013698588321626,-0.23345692794035403,0.7885391249645028,-0.18908140586292418,-2.048772,-10.445339
11.185,2.0,1.0,1.0,33.1,34.1,34.1,3.0,1.7,2.785,-0.06209771383256149,-0.23735181930074564,0.7578364569695802,-0.2219006776530497,-2.379428,-9.764356
11.185,2.0,1.0,1.0,33.1,34.1,34.1,3.0,1.7,2.7875,-0.07399948798063873,-0.23684450771987156,0.7217733196853754,-0.2598794058059611,-2.786572,-9.078669
11.185,2.0,1.0,1.0,33.1,34.1,34.1,3.0,1.7,2.79,-0.07951980641715485,-0.22973820339484174,0.680397000315314,-0.3029194423547893,-3.285832,-8.400125
11.185,2.0,1.0,1.0,33.1,34.1,34.1,3.0,1.7,2.7925,-0.07592834539356516,-0.21332938828801232,0.6346181082496324,-0.35004573017673385,-3.888024,-7.745836
11.185,2.0,1.0,1.0,33.1,34.1,34.1,3.0,1.7,2.795,-0.060285987480530955,-0.18474752814791362,0.5867393229781075,-0.3988895798430351,-4.585488,-7.138928
11.185,2.0,1.0,1.0,33.1,34.1,34.1,3.0,1.7,2.7975,-0.030235994451990027,-0.1417583130220637,0.5408938612808271,-0.445281124104224,-5.324209,-6.608056
11.185,2.0,1.0,1.0,33.1,34.1,34.1,3.0,1.7,2.8,0.014717414533078815,-0.08402754109611073,0.502947861278292,-0.48339498104178097,-5.965823,-6.184674
11.185,2.0,1.0,1.0,33.1,34.1,34.1,3.0,1.7,2.8025,0.07190699451206921,-0.0143611545206529,0.4793528197843033,-0.5069343320469378,-6.29025,-5.897482
11.185,2.0,1.0,1.0,33.1,34.1,34.1,3.0,1.7,2.805,0.1351844249295699,0.06106884346498275,0.47496409810191015,-0.5112864371937171,-6.128492,-5.765195
11.185,2.0,1.0,1.0,33.1,34.1,34.1,3.0,1.7,2.8075,0.19638855968141786,0.13424201076677392,0.4909110759206714,-0.4955473661079583,-5.535216,-5.790742
11.185,2.0,1.0,1.0,33.1,34.1,34.1,3.0,1.7,2.81,0.24806635594503937,0.19795551861754956,0.5240672783016764,-0.46293740532923955,-4.734237,-5.960264
11.185,2.0,1.0,1.0,33.1,34.1,34.1,3.0,1.7,2.8125,0.28571877592349654,0.24794906246513654,0.5685461640316546,-0.4192766227393224,-3.926737,-6.247542
11.185,2.0,1.0,1.0,33.1,34.1,34.1,3.0,1.7,2.815,0.30832417131920575,0.28334043389753716,0.618034258855634,-0.3707169889666221,-3.214542,-6.621159
11.185,2.0,1.0,1.0,33.1,34.1,34.1,3.0,1.7,2.8175,0.3173973759445031,0.3056757035948902,0.6674947171264651,-0.32212570882963065,-2.625765,-7.050873
11.185,2.0,1.0,1.0,33.1,34.1,34.1,3.0,1.7,2.82,0.31562677038870884,0.31760610837925984,0.713733031837738,-0.2765699827846035,-2.153577,-7.511331
11.185,2.0,1.0,1.0,33.1,34.1,34.1,3.0,1.7,2.8225,0.3058390378574446,0.32189635388397014,0.7551682316561732,-0.23555476463835967,-1.779519,-7.983208
11.185,2.0,1.0,1.0,33.1,34.1,34.1,3.0,1.7,2.825,0.2904687392440021,0.3209210466170829,0.7913253517609321,-0.19951820988103616,-1.483944,-8.452784
11.185,2.0,1.0,1.0,33.1,34.1,34.1,3.0,1.7,2.8275,0.2713993825141764,0.31651643456956297,0.8223641950806856,-0.16828717996846762,-1.249732,-8.91086
11.185,2.0,1.0,1.0,33.1,34.1,34.1,3.0,1.7,2.83,0.24999600731896965,0.3100143535810633,0.8487473189760077,-0.14139720182461926,-1.063103,-9.3516
