1,w,sub_t,h,l1,l2,l3,g1,g2,Freq,S11_re,S21_re,S11_img,S21_img,S11_dB,S21_dB
11.185,2.0,1.0,1.0,34.6,34.2,34.2,2.0,4.3,2.5,0.675007367119397,-0.0141129878724105,0.725562826174028,0.00549023005145006,-0.078547,-36.395599
11.185,2.0,1.0,1.0,34.6,34.2,34.2,2.0,4.3,2.5025,0.6687736913104169,-0.01436603049057486,0.7311692258762481,0.00543728938316039,-0.079475,-36.271856
11.185,2.0,1.0,1.0,34.6,34.2,34.2,2.0,4.3,2.505,0.6624560322375916,-0.014623202262560924,0.7367530184158829,0.005380890137542933,-0.08042,-36.147656
11.185,2.0,1.0,1.0,34.6,34.2,34.2,2.0,4.3,2.5075,0.6560535138458425,-0.014884570074018031,0.7423132787408836,0.005320910192408085,-0.081384,-36.022989
11.185,2.0,1.0,1.0,34.6,34.2,34.2,2.0,4.3,2.51,0.6495652509249249,-0.015150201702328144,0.747849054435817,0.005257223061467283,-0.082366,-35.897848
11.185,2.0,1.0,1.0,34.6,34.2,34.2,2.0,4.3,2.5125,0.6429903491936,-0.015420165807012396,0.7533593648938861,0.005189697724778703,-0.083368,-35.772223
11.185,2.0,1.0,1.0,34.6,34.2,34.2,2.0,4.3,2.515,0.6363279053968887,-0.015694531918084387,0.7588432004637311,0.005118198451990548,-0.084389,-35.646107
11.185,2.0,1.0,1.0,34.6,34.2,34.2,2.0,4.3,2.5175,0.6295770074172373,-0.015973370422181776,0.764299521570225,0.005042584618045028,-0.085431,-35.519491
11.185,2.0,1.0,1.0,34.6,34.2,34.2,2.0,4.3,2.52,0.6227367344004128,-0.016256752546296997,0.7697272578084754,0.004962710510987738,-0.086494,-35.392367
11.185,2.0,1.0,1.0,34.6,34.2,34.2,2.0,4.3,2.5225,0.6158061568970545,-0.016544750338912357,0.7751253070101941,0.004878425131509953,-0.087578,-35.264725
11.185,2.0,1.0,1.0,34.6,34.2,34.2,2.0,4.3,2.525,0.6087843370207967,-0.01683743664833331,0.7804925342816088,0.004789571983830159,-0.088683,-35.136556
11.185,2.0,1.0,1.0,34.6,34.2,34.2,2.0,4.3,2.5275,0.6016703286239594,-0.017134885097996187,0.7858277710120248,0.0046959888575012765,-0.089812,-35.007851
11.185,2.0,1.0,1.0,34.6,34.2,34.2,2.0,4.3,2.53,0.59446317749186,-0.017437170058511333,0.7911298138521454,0.004597507599707767,-0.090963,-34.878602
11.185,2.0,1.0,1.0,34.6,34.2,34.2,2.0,4.3,2.5325,0.5871619215568394,-0.017744366616184632,0.7963974236612206,0.004493953877593094,-0.092138,-34.748798
11.185,2.0,1.0,1.0,34.6,34.2,34.2,2.0,4.3,2.535,0.5797655911331518,-0.01805655053774186,0.8016293244220642,0.004385146930133585,-0.093337,-34.61843
11.185,2.0,1.0,1.0,34.6,34.2,34.2,2.0,4.3,2.5375,0.5722732091739638,-0.018373798230958437,0.8068242021229626,0.004270899309047911,-0.094561,-34.487488
11.185,2.0,1.0,1.0,34.6,34.2,34.2,2.0,4.3,2.54,0.5646837915517205,-0.018696186700877047,0.8119807036054466,0.00415101660820414,-0.09581,-34.355963
11.185,2.0,1.0,1.0,34.6,34.2,34.2,2.0,4.3,2.5425,0.5569963473632497,-0.019023793501270227,0.8170974353768883,0.004025297180955504,-0.097086,-34.223844
11.185,2.0,1.0,1.0,34.6,34.2,34.2,2.0,4.3,2.545,0.5492098792610272,-0.01935669668098029,0.8221729623868403,0.0038935318448059314,-0.098389,-34.091122
11.185,2.0,1.0,1.0,34.6,34.2,34.2,2.0,4.3,2.5475,0.5413233838121103,-0.01969497472474033,0.8272058067659952,0.0037555035727714924,-0.099719,-33.957784
11.185,2.0,1.0,1.0,34.6,34.2,34.2,2.0,4.3,2.55,0.5333358518863098,-0.020038706488052085,0.8321944465266304,0.0036109871707688678,-0.101078,-33.823822
11.185,2.0,1.0,1.0,34.6,34.2,34.2,2.0,4.3,2.5525,0.5252462690752975,-0.020387971125661333,0.8371373142233354,0.0034597489403242806,-0.102466,-33.689225
11.185,2.0,1.0,1.0,34.6,34.2,34.2,2.0,4.3,2.555,0.5170536161443781,-0.020742848013139876,0.8420327955728116,0.0033015463258552497,-0.103884,-33.55398
11.185,2.0,1.0,1.0,34.6,34.2,34.2,2.0,4.3,2.5575,0.5087568695187968,-0.021103416661043352,0.846879228031477,0.0031361275457349722,-0.105333,-33.418078
11.185,2.0,1.0,1.0,34.6,34.2,34.2,2.0,4.3,2.56,0.5003550018065368,-0.021469756621074136,0.8516748993295704,0.0029632312063032594,-0.106814,-33.281506
11.185,2.0,1.0,1.0,34.6,34.2,34.2,2.0,4.3,2.5625,0.4918469823596625,-0.021841947383634812,0.8564180459604104,0.0027825858979390276,-0.108327,-33.144253
11.185,2.0,1.0,1.0,34.6,34.2,34.2,2.0,4.3,2.565,0.483231777876376,-0.022220068266110195,0.8611068516234205,0.002593909772257279,-0.109874,-33.006308
11.185,2.0,1.0,1.0,34.6,34.2,34.2,2.0,4.3,2.5675,0.4745083530460958,-0.022604198291163415,0.8657394456194752,0.0023969100994379808,-0.111455,-32.867658
11.185,2.0,1.0,1.0,34.6,34.2,34.2,2.0,4.3,2.57,0.4656756712399524,-0.02299441605427712,0.8703139011970942,0.00219128280463487,-0.113072,-32.72829
11.185,2.0,1.0,1.0,34.6,34.2,34.2,2.0,4.3,2.5725,0.4567326952492627,-0.023390799579709215,0.8748282338479378,0.0019767119823488177,-0.114726,-32.588193
11.185,2.0,1.0,1.0,34.6,34.2,34.2,2.0,4.3,2.575,0.4476783880746627,-0.02379342616396739,0.8792803995500151,0.0017528693875826676,-0.116418,-32.447354
11.185,2.0,1.0,1.0,34.6,34.2,34.2,2.0,4.3,2.5775,0.4385117137687473,-0.024202372205835012,0.8836682929569684,0.0015194139025222742,-0.118148,-32.305758
11.185,2.0,1.0,1.0,34.6,34.2,34.2,2.0,4.3,2.58,0.4292316383352092,-0.024617713021903673,0.8879897455317138,0.0012759909774107993,-0.119918,-32.163394
11.185,2.0,1.0,1.0,34.6,34.2,34.2,2.0,4.3,2.5825,0.4198371306876338,-0.025039522646483774,0.8922425236226831,0.001022232044200471,-0.121729,-32.020247
11.185,2.0,1.0,1.0,34.6,34.2,34.2,2.0,4.3,2.585,0.41032716367129957,-0.02546787361467213,0.8964243264808304,0.0007577539014772713,-0.123583,-31.876303
11.185,2.0,1.0,1.0,34.6,34.2,34.2,2.0,4.3,2.5875,0.40070071515151295,-0.025902836727256892,0.9005327842155042,0.00048215806905893685,-0.125481,-31.731549
11.185,2.0,1.0,1.0,34.6,34.2,34.2,2.0,4.3,2.59,0.3909567691722015,-0.026344480796030176,0.9045654556871995,0.0001950301105650525,-0.127424,-31.585969
11.185,2.0,1.0,1.0,34.6,34.2,34.2,2.0,4.3,2.5925,0.38109431718872583,-0.026792872367962024,0.9085198263351603,-0.0001040610778521802,-0.129413,-31.439549
11.185,2.0,1.0,1.0,34.6,34.2,34.2,2.0,4.3,2.595,0.37111235937907644,-0.027248075426557956,0.9123933059376557,-0.0004155640145438333,-0.13145,-31.292273
11.185,2.0,1.0,1.0,34.6,34.2,34.2,2.0,4.3,2.5975,0.36100990603786814,-0.02771015106858395,0.9161832263027544,-0.0007399454172216887,-0.133537,-31.144126
11.185,2.0,1.0,1.0,34.6,34.2,34.2,2.0,4.3,2.6,0.35078597905781767,-0.028179157154186407,0.9198868388872388,-0.0010776910278260776,-0.135675,-30.995093
11.185,2.0,1.0,1.0,34.6,34.2,34.2,2.0,4.3,2.6025,0.3404396135036617,-0.028655147928266945,0.9235013123412569,-0.0014293064797386349,-0.137866,-30.845155
11.185,2.0,1.0,1.0,34.6,34.2,34.2,2.0,4.3,2.605,0.32996985928375355,-0.02913817361078814,0.9270237299761758,-0.0017953182098317604,-0.140111,-30.694298
11.185,2.0,1.0,1.0,34.6,34.2,34.2,2.0,4.3,2.6075,0.3193757829249283,-0.02962827995348323,0.9304510871530066,-0.0021762744180133234,-0.142413,-30.542503
11.185,2.0,1.0,1.0,34.6,34.2,34.2,2.0,4.3,2.61,0.3086564694565363,-0.03012550776022174,0.9337802885886092,-0.002572746077106633,-0.144772,-30.389753
11.185,2.0,1.0,1.0,34.6,34.2,34.2,2.0,4.3,2.6125,0.29781102440992685,-0.0306298923680408,0.9370081455767885,-0.002985327996101532,-0.147192,-30.23603
11.185,2.0,1.0,1.0,34.6,34.2,34.2,2.0,4.3,2.615,0.28683857594005446,-0.031141463085584277,0.9401313731212323,-0.0034146399400212224,-0.149674,-30.081316
11.185,2.0,1.0,1.0,34.6,34.2,34.2,2.0,4.3,2.6175,0.27573827707630744,-0.03166024258539882,0.9431465869770806,-0.003861327809875889,-0.15222,-29.925591
11.185,2.0,1.0,1.0,34.6,34.2,34.2,2.0,4.3,2.62,0.26450930811011225,-0.032186246246213544,0.9460503005977463,-0.004326064886419268,-0.154833,-29.768837
11.185,2.0,1.0,1.0,34.6,34.2,34.2,2.0,4.3,2.6225,0.25315087912735545,-0.03271948144097537,0.9488389219834376,-0.004809553141686302,-0.157515,-29.611033
11.185,2.0,1.0,1.0,34.6,34.2,34.2,2.0,4.3,2.625,0.241662232694234,-0.0332599467660184,0.951508750427618,-0.00531252462257453,-0.160268,-29.452158
11.185,2.0,1.0,1.0,34.6,34.2,34.2,2.0,4.3,2.6275,0.2300426467056486,-0.03380763120631737,0.9540559731574217,-0.005835742911039354,-0.163095,-29.292192
11.185,2.0,1.0,1.0,34.6,34.2,34.2,2.0,4.3,2.63,0.21829143740597948,-0.03436251323129445,0.9564766618638203,-0.006380004665803316,-0.165998,-29.131112
11.185,2.0,1.0,1.0,34.6,34.2,34.2,2.0,4.3,2.6325,0.20640796259267827,-0.03492455981512381,0.9587667691170632,-0.006946141250838411,-0.168981,-28.968897
11.185,2.0,1.0,1.0,34.6,34.2,34.2,2.0,4.3,2.635,0.19439162501391788,-0.03549372537489378,0.9609221246626466,-0.007535020456266521,-0.172046,-28.805524
11.185,2.0,1.0,1.0,34.6,34.2,34.2,2.0,4.3,2.6375,0.18224187597231575,-0.03606995061933952,0.962938431592748,-0.00814754831774096,-0.175196,-28.640968
11.185,2.0,1.0,1.0,34.6,34.2,34.2,2.0,4.3,2.64,0.16995821914761886,-0.036653161300144364,0.964811262387731,-0.00878467104082582,-0.178434,-28.475206
11.185,2.0,1.0,1.0,34.6,34.2,34.2,2.0,4.3,2.6425,0.15754021465227147,-0.03724326685700924,0.966536054821991,-0.009447377037375299,-0.181765,-28.308213
11.185,2.0,1.0,1.0,34.6,34.2,34.2,2.0,4.3,2.645,0.14498748333475464,-0.03784015894680785,0.9681081077279328,-0.010136699081447185,-0.185191,-28.139962
11.185,2.0,1.0,1.0,34.6,34.2,34.2,2.0,4.3,2.6475,0.13229971134683852,-0.03844370984615989,0.9695225766115416,-0.010853716592853231,-0.188715,-27.970428
11.185,2.0,1.0,1.0,34.6,34.2,34.2,2.0,4.3,2.65,0.11947665499209686,-0.039053770715660734,0.9707744691124447,-0.011599558057070788,-0.192343,-27.799582
11.185,2.0,1.0,1.0,34.6,34.2,34.2,2.0,4.3,2.6525,0.10651814587451684,-0.03967016971278127,0.9718586403008664,-0.012375403590903767,-0.196078,-27.627396
11.185,2.0,1.0,1.0,34.6,34.2,34.2,2.0,4.3,2.655,0.09342409636753206,-0.040292709939092494,0.9727697878033399,-0.013182487664009755,-0.199925,-27.453841
11.185,2.0,1.0,1.0,34.6,34.2,34.2,2.0,4.3,2.6575,0.08019450542556807,-0.0409211672059414,0.9735024467483444,-0.01402210198718617,-0.203887,-27.278888
11.185,2.0,1.0,1.0,34.6,34.2,34.2,2.0,4.3,2.66,0.0668294647621027,-0.041555287601002855,0.9740509845224217,-0.014895598579155893,-0.207971,-27.102504
11.185,2.0,1.0,1.0,34.6,34.2,34.2,2.0,4.3,2.6625,0.05332916542035952,-0.042194784836220384,0.9744095953265248,-0.015804393024502348,-0.21218,-26.924657
11.185,2.0,1.0,1.0,34.6,34.2,34.2,2.0,4.3,2.665,0.03969390476511037,-0.0428393373555095,0.9745722945215884,-0.01674996793639048,-0.21652,-26.745315
11.185,2.0,1.0,1.0,34.6,34.2,34.2,2.0,4.3,2.6675,0.025924093926712397,-0.04348858517818963,0.9745329127513359,-0.01773387663876688,-0.220998,-26.564442
11.185,2.0,1.0,1.0,34.6,34.2,34.2,2.0,4.3,2.67,0.012020265731449608,-0.04414212645141015,0.9742850898294887,-0.018757747083879,-0.225618,-26.382003
11.185,2.0,1.0,1.0,34.6,34.2,34.2,2.0,4.3,2.6725,-0.0020169168445022677,-0.04479951368179191,0.9738222683773436,-0.019823286022180753,-0.230387,-26.197962
11.185,2.0,1.0,1.0,34.6,34.2,34.2,2.0,4.3,2.675,-0.01618665165639461,-0.045460249613075945,0.9731376871966748,-0.020932283443010066,-0.235313,-26.012278
11.185,2.0,1.0,1.0,34.6,34.2,34.2,2.0,4.3,2.6775,-0.030487987762371126,-0.046123782712702496,0.9722243743615467,-0.022086617305841796,-0.240401,-25.824914
11.185,2.0,1.0,1.0,34.6,34.2,34.2,2.0,4.3,2.68,-0.04491981513521254,-0.0467895022258713,0.9710751400113862,-0.023288258583430234,-0.24566,-25.635828
11.185,2.0,1.0,1.0,34.6,34.2,34.2,2.0,4.3,2.6825,-0.05948085365925535,-0.0474567327506863,0.9696825688261247,-0.02453927663976801,-0.251098,-25.444977
11.185,2.0,1.0,1.0,34.6,34.2,34.2,2.0,4.3,2.685,-0.07416964135149413,-0.048124728282387626,0.9680390121627162,-0.025841844967503826,-0.256723,-25.252317
11.185,2.0,1.0,1.0,34.6,34.2,34.2,2.0,4.3,2.6875,-0.0889845217391151,-0.048792665668316,0.966136579830635,-0.0271982473112731,-0.262543,-25.057801
11.185,2.0,1.0,1.0,34.6,34.2,34.2,2.0,4.3,2.69,-0.10392363031814905,-0.04945963740803667,0.9639671314822256,-0.028610884205301893,-0.26857,-24.861383
11.185,2.0,1.0,1.0,34.6,34.2,34.2,2.0,4.3,2.6925,-0.11898488000934644,-0.05012464372484274,0.961522267591814,-0.030082279955644175,-0.274813,-24.663012
11.185,2.0,1.0,1.0,34.6,34.2,34.2,2.0,4.3,2.695,-0.13416594551748515,-0.050786583825504154,0.9587933199956538,-0.03161509009947196,-0.281283,-24.462637
11.185,2.0,1.0,1.0,34.6,34.2,34.2,2.0,4.3,2.6975,-0.1494642464893512,-0.051444246254472345,0.9557713419625937,-0.03321210937596932,-0.287991,-24.260203
11.185,2.0,1.0,1.0,34.6,34.2,34.2,2.0,4.3,2.7,-0.16487692935272238,-0.05209629823656966,0.9524470977633753,-0.03487628024551726,-0.294951,-24.055655
11.185,2.0,1.0,1.0,34.6,34.2,34.2,2.0,4.3,2.7025,-0.18040084770435158,-0.05274127388827472,0.9488110517042952,-0.03661070199599619,-0.302176,-23.848935
11.185,2.0,1.0,1.0,34.6,34.2,34.2,2.0,4.3,2.705,-0.1960325410982276,-0.0533775611617687,0.9448533565889323,-0.038418640477087686,-0.309679,-23.639982
11.185,2.0,1.0,1.0,34.6,34.2,34.2,2.0,4.3,2.7075,-0.2117682120664361,-0.05400338736762759,0.9405638415696651,-0.040303538505382305,-0.317477,-23.428733
11.185,2.0,1.0,1.0,34.6,34.2,34.2,2.0,4.3,2.71,-0.22760370118309806,-0.05461680310105196,0.9359319993488907,-0.04226902698477434,-0.325587,-23.21512
11.185,2.0,1.0,1.0,34.6,34.2,34.2,2.0,4.3,2.7125,-0.2435344599567824,-0.05521566437238735,0.9309469726885208,-0.044318936787942034,-0.334025,-22.999077
11.185,2.0,1.0,1.0,34.6,34.2,34.2,2.0,4.3,2.715,-0.2595555213079483,-0.05579761271489151,0.9255975401852111,-0.04645731144548417,-0.342811,-22.78053
11.185,2.0,1.0,1.0,34.6,34.2,34.2,2.0,4.3,2.7175,-0.2756614673546711,-0.056360053010655276,0.9198721012686335,-0.0486884206893092,-0.351966,-22.559404
11.185,2.0,1.0,1.0,34.6,34.2,34.2,2.0,4.3,2.72,-0.29184639419152336,-0.05690012873857445,0.9137586603807285,-0.05101677489585604,-0.361512,-22.335622
11.185,2.0,1.0,1.0,34.6,34.2,34.2,2.0,4.3,2.7225,-0.30810387330209915,-0.05741469430548374,0.9072448102959192,-0.053447140472314345,-0.371473,-22.1091
11.185,2.0,1.0,1.0,34.6,34.2,34.2,2.0,4.3,2.725,-0.32442690919423756,-0.05790028407202189,0.9003177145461344,-0.0559845562247044,-0.381876,-21.879753
11.185,2.0,1.0,1.0,34.6,34.2,34.2,2.0,4.3,2.7275,-0.34080789278750295,-0.05835307762737117,0.8929640889206933,-0.05863435073991265,-0.392749,-21.647491
11.185,2.0,1.0,1.0,34.6,34.2,34.2,2.0,4.3,2.73,-0.35723855001328386,-0.058768860800351846,0.8851701820205243,-0.06140216080370778,-0.404122,-21.41222
11.185,2.0,1.0,1.0,34.6,34.2,34.2,2.0,4.3,2.7325,-0.37370988500758207,-0.05914298181688825,0.876921754859931,-0.06429395086244782,-0.41603,-21.173841
11.185,2.0,1.0,1.0,34.6,34.2,34.2,2.0,4.3,2.735,-0.39021211718306703,-0.059470301923729756,0.8682040595280758,-0.06731603351626542,-0.428508,-20.932252
11.185,2.0,1.0,1.0,34.6,34.2,34.2,2.0,4.3,2.7375,-0.40673461135814903,-0.05974513969333555,0.8590018169488399,-0.07047509100438026,-0.441597,-20.687344
11.185,2.0,1.0,1.0,34.6,34.2,34.2,2.0,4.3,2.74,-0.42326579999385694,-0.05996120810244646,0.8492991938132403,-0.07377819760664107,-0.455341,-20.439003
11.185,2.0,1.0,1.0,34.6,34.2,34.2,2.0,4.3,2.7425,-0.4397930964413186,-0.060111543334064474,0.8390797788063507,-0.07723284283673285,-0.469787,-20.187111
11.185,2.0,1.0,1.0,34.6,34.2,34.2,2.0,4.3,2.745,-0.4563027979296229,-0.0601884240858205,0.8283265583141947,-0.0808469552381143,-0.484987,-19.931543
11.185,2.0,1.0,1.0,34.6,34.2,34.2,2.0,4.3,2.7475,-0.4727799768219357,-0.06018327997292065,0.8170218918796761,-0.08462892650913982,-0.501,-19.672168
11.185,2.0,1.0,1.0,34.6,34.2,34.2,2.0,4.3,2.75,-0.489208358431624,-0.0600865873862417,0.805147487786734,-0.0885876355730662,-0.517889,-19.408848
11.185,2.0,1.0,1.0,34.6,34.2,34.2,2.0,4.3,2.7525,-0.5055701834142905,-0.059887750900169956,0.7926843792958145,-0.09273247206415541,-0.535724,-19.14144
11.185,2.0,1.0,1.0,34.6,34.2,34.2,2.0,4.3,2.755,-0.5218460524293591,-0.059574968014099686,0.7796129022415907,-0.09707335851305203,-0.554583,-18.869792
11.185,2.0,1.0,1.0,34.6,34.2,34.2,2.0,4.3,2.7575,-0.5380147503886957,-0.05913507464891865,0.7659126749485046,-0.10162077027037343,-0.574552,-18.593745
11.185,2.0,1.0,1.0,34.6,34.2,34.2,2.0,4.3,2.76,-0.5540530471711819,-0.058553368397236565,0.7515625817376691,-0.10638575189052656,-0.595726,-18.313132
11.185,2.0,1.0,1.0,34.6,34.2,34.2,2.0,4.3,2.7625,-0.5699354711721139,-0.05781340603468688,0.736540761711823,-0.1113799282869773,-0.618213,-18.027779
11.185,2.0,1.0,1.0,34.6,34.2,34.2,2.0,4.3,2.765,-0.5856340514646337,-0.05689677122991556,0.7208246050411439,-0.11661550843785547,-0.64213,-17.737503
11.185,2.0,1.0,1.0,34.6,34.2,34.2,2.0,4.3,2.7675,-0.6011180236670973,-0.0557828077332525,0.7043907596682752,-0.122105278731151,-0.667612,-17.44211
11.185,2.0,1.0,1.0,34.6,34.2,34.2,2.0,4.3,2.77,-0.6163534938257977,-0.054448312569550586,0.6872151522534667,-0.1278625821453001,-0.694807,-17.141399
11.185,2.0,1.0,1.0,34.6,34.2,34.2,2.0,4.3,2.7725,-0.6313030537288108,-0.052867182902195074,0.6692730283513224,-0.1339012783032594,-0.723885,-16.835161
11.185,2.0,1.0,1.0,34.6,34.2,34.2,2.0,4.3,2.775,-0.6459253400604359,-0.051010009269763436,0.6505390183295701,-0.14023567793779299,-0.755033,-16.523175
11.185,2.0,1.0,1.0,34.6,34.2,34.2,2.0,4.3,2.7775,-0.6601745286900242,-0.04884360682860818,0.6309872375110102,-0.14688044336080897,-0.788468,-16.205211
11.185,2.0,1.0,1.0,34.6,34.2,34.2,2.0,4.3,2.78,-0.6739997541805407,-0.04633047508074618,0.6105914315769085,-0.1538504440082608,-0.824433,-15.881031
11.185,2.0,1.0,1.0,34.6,34.2,34.2,2.0,4.3,2.7825,-0.6873444433378032,-0.04342817536470704,0.5893251815874683,-0.161160552863821,-0.863204,-15.550387
11.185,2.0,1.0,1.0,34.6,34.2,34.2,2.0,4.3,2.785,-0.7001455503722692,-0.04008861420842134,0.5671621872766246,-0.16882536532977113,-0.905099,-15.213022
11.185,2.0,1.0,1.0,34.6,34.2,34.2,2.0,4.3,2.7875,-0.71233268013406,-0.03625721961090026,0.544076652851036,-0.1768588166311585,-0.95048,-14.868673
11.185,2.0,1.0,1.0,34.6,34.2,34.2,2.0,4.3,2.79,-0.7238270851137661,-0.03187199663652273,0.52004380673144,-0.18527366675267948,-0.999765,-14.51707
11.185,2.0,1.0,1.0,34.6,34.2,34.2,2.0,4.3,2.7925,-0.7345405218042996,-0.026862448697668198,0.49504059597568917,-0.19408081276938244,-1.053434,-14.157937
11.185,2.0,1.0,1.0,34.6,34.2,34.2,2.0,4.3,2.795,-0.7443739531080079,-0.02114835207778828,0.4690466080806968,-0.20328837669107486,-1.112044,-13.791
11.185,2.0,1.0,1.0,34.6,34.2,34.2,2.0,4.3,2.7975,-0.7532160865432438,-0.014638374392625544,0.4420452881534698,-0.2129005019346709,-1.176243,-13.415983
11.185,2.0,1.0,1.0,34.6,34.2,34.2,2.0,4.3,2.8,-0.7609417442633083,-0.0072285339933278485,0.4140255388498559,-0.22291577250771252,-1.246785,-13.03262
11.185,2.0,1.0,1.0,34.6,34.2,34.2,2.0,4.3,2.8025,-0.7674100721603574,0.0011994914331145095,0.3849838148443593,-0.2333251451138574,-1.324555,-12.640654
11.185,2.0,1.0,1.0,34.6,34.2,34.2,2.0,4.3,2.805,-0.7724626142700974,0.010780179973271818,0.35492685370141236,-0.2441092549184086,-1.41059,-12.239854
11.185,2.0,1.0,1.0,34.6,34.2,34.2,2.0,4.3,2.8075,-0.7759213092344326,0.02166604694178613,0.3238752213662222,-0.2552349201688006,-1.506119,-11.830016
11.185,2.0,1.0,1.0,34.6,34.2,34.2,2.0,4.3,2.81,-0.7775865133311627,0.034029488096261246,0.2918678928432571,-0.2666506295129538,-1.612594,-11.410987
11.185,2.0,1.0,1.0,34.6,34.2,34.2,2.0,4.3,2.8125,-0.777235227411049,0.0480644081372238,0.258968135197489,-0.278280750488792,-1.731745,-10.982673
11.185,2.0,1.0,1.0,34.6,34.2,34.2,2.0,4.3,2.815,-0.7746198136873765,0.06398735097239781,0.22527100606850728,-0.2900181529667926,-1.865639,-10.545072
11.185,2.0,1.0,1.0,34.6,34.2,34.2,2.0,4.3,2.8175,-0.7694676465829219,0.08203769243161628,0.19091281644566482,-0.30171490718629446,-2.016753,-10.098296
11.185,2.0,1.0,1.0,34.6,34.2,34.2,2.0,4.3,2.82,-0.7614823664885689,0.10247623522554468,0.15608291262221494,-0.3131707110691857,-2.188069,-9.642611
11.185,2.0,1.0,1.0,34.6,34.2,34.2,2.0,4.3,2.8225,-0.7503477138692112,0.1255812428609969,0.12103807578746345,-0.3241187584500542,-2.383188,-9.178482
11.185,2.0,1.0,1.0,34.6,34.2,34.2,2.0,4.3,2.825,-0.7357353264326771,0.15164055166087714,0.08611966361474564,-0.33420893282511555,-2.606468,-8.706631
11.185,2.0,1.0,1.0,34.6,34.2,34.2,2.0,4.3,2.8275,-0.7173183797712175,0.18093791256477013,0.05177324097140675,-0.34298858414218986,-2.863195,-8.228108
