1,w,sub_t,h,l1,l2,l3,g1,g2,Freq,S11_re,S21_re,S11_img,S21_img,S11_dB,S21_dB
11.185,2.0,1.0,1.0,34.3,33.1,33.1,2.4,3.5,2.5,0.735925511129792,-0.0113710677471224,0.666001028616003,0.00598522663188517,-0.065004,-37.821895
11.185,2.0,1.0,1.0,34.3,33.1,33.1,2.4,3.5,2.5025,0.7306680076584751,-0.011571268715222183,0.6716525314474409,0.00596389483136761,-0.065669,-37.709269
11.185,2.0,1.0,1.0,34.3,33.1,33.1,2.4,3.5,2.505,0.7253393668059164,-0.011774459793366698,0.6772903669536804,0.005940333380509046,-0.066346,-37.596368
11.185,2.0,1.0,1.0,34.3,33.1,33.1,2.4,3.5,2.5075,0.7199388875452452,-0.0119806817494915,0.6829139082454313,0.005914468552227864,-0.067034,-37.483188
11.185,2.0,1.0,1.0,34.3,33.1,33.1,2.4,3.5,2.51,0.7144658612215654,-0.012189975676543282,0.6885225106732348,0.005886224308471816,-0.067734,-37.369723
11.185,2.0,1.0,1.0,34.3,33.1,33.1,2.4,3.5,2.5125,0.708919571581304,-0.012402382977303774,0.6941155113203671,0.00585552222541273,-0.068446,-37.255968
11.185,2.0,1.0,1.0,34.3,33.1,33.1,2.4,3.5,2.515,0.7032992948092396,-0.012617945347786727,0.6996922284819104,0.005822281416170719,-0.06917,-37.141918
11.185,2.0,1.0,1.0,34.3,33.1,33.1,2.4,3.5,2.5175,0.6976042995736896,-0.012836704759119792,0.7052519611296358,0.005786418450988139,-0.069907,-37.02757
11.185,2.0,1.0,1.0,34.3,33.1,33.1,2.4,3.5,2.52,0.6918338470803236,-0.013058703437818684,0.7107939883623817,0.005747847274770348,-0.070657,-36.912916
11.185,2.0,1.0,1.0,34.3,33.1,33.1,2.4,3.5,2.5225,0.6859871911351345,-0.013283983844354901,0.7163175688415505,0.005706479121908436,-0.071421,-36.797953
11.185,2.0,1.0,1.0,34.3,33.1,33.1,2.4,3.5,2.525,0.6800635782170816,-0.01351258864991277,0.7218219402114032,0.0056622224282974224,-0.072197,-36.682675
11.185,2.0,1.0,1.0,34.3,33.1,33.1,2.4,3.5,2.5275,0.6740622475609745,-0.013744560711227616,0.7273063185037792,0.005614982740459463,-0.072988,-36.567077
11.185,2.0,1.0,1.0,34.3,33.1,33.1,2.4,3.5,2.53,0.6679824312511867,-0.01397994304338706,0.7327698975268926,0.005564662621680591,-0.073792,-36.451154
11.185,2.0,1.0,1.0,34.3,33.1,33.1,2.4,3.5,2.5325,0.6618233543268148,-0.014218778790475579,0.7382118482378338,0.00551116155506568,-0.074611,-36.334901
11.185,2.0,1.0,1.0,34.3,33.1,33.1,2.4,3.5,2.535,0.6555842348989205,-0.014461111193931928,0.7436313180984309,0.0054543758434152075,-0.075445,-36.218312
11.185,2.0,1.0,1.0,34.3,33.1,33.1,2.4,3.5,2.5375,0.6492642842805473,-0.014706983558483499,0.7490274304140812,0.005394198505823539,-0.076293,-36.101383
11.185,2.0,1.0,1.0,34.3,33.1,33.1,2.4,3.5,2.54,0.6428627071302097,-0.014956439215515094,0.7543992836552038,0.005330519170896328,-0.077157,-35.984108
11.185,2.0,1.0,1.0,34.3,33.1,33.1,2.4,3.5,2.5425,0.6363787016095982,-0.015209521483718676,0.7597459507609374,0.005263223966482347,-0.078037,-35.866481
11.185,2.0,1.0,1.0,34.3,33.1,33.1,2.4,3.5,2.545,0.6298114595562823,-0.015466273626866442,0.7650664784247099,0.005192195405811911,-0.078933,-35.748498
11.185,2.0,1.0,1.0,34.3,33.1,33.1,2.4,3.5,2.5475,0.6231601666722297,-0.01572673880853645,0.7703598863613116,0.005117312269931701,-0.079845,-35.630154
11.185,2.0,1.0,1.0,34.3,33.1,33.1,2.4,3.5,2.55,0.6164240027289782,-0.015990960043614777,0.7756251665551104,0.00503844948632325,-0.080774,-35.511441
11.185,2.0,1.0,1.0,34.3,33.1,33.1,2.4,3.5,2.5525,0.6096021417903793,-0.016258980146384203,0.780861282489023,0.004955478003588777,-0.08172,-35.392356
11.185,2.0,1.0,1.0,34.3,33.1,33.1,2.4,3.5,2.555,0.6026937524538262,-0.016530841675004314,0.7860671683538955,0.004868264662087145,-0.082684,-35.272893
11.185,2.0,1.0,1.0,34.3,33.1,33.1,2.4,3.5,2.5575,0.5956979981109485,-0.01680658687217127,0.79124172823792,0.004776672060398647,-0.083666,-35.153046
11.185,2.0,1.0,1.0,34.3,33.1,33.1,2.4,3.5,2.56,0.5886140372288063,-0.017086257601739055,0.7963838352957331,0.004680558417495067,-0.084666,-35.032809
11.185,2.0,1.0,1.0,34.3,33.1,33.1,2.4,3.5,2.5625,0.581441023652644,-0.0173698952810691,0.801492330896837,0.00457977743048921,-0.085685,-34.912177
11.185,2.0,1.0,1.0,34.3,33.1,33.1,2.4,3.5,2.565,0.574178106931322,-0.0176575408088632,0.8065660237530116,0.00447417812783497,-0.086723,-34.791144
11.185,2.0,1.0,1.0,34.3,33.1,33.1,2.4,3.5,2.5675,0.5668244326666052,-0.01794923448822187,0.8116036890243599,0.004363604717848017,-0.087781,-34.669705
11.185,2.0,1.0,1.0,34.3,33.1,33.1,2.4,3.5,2.57,0.5593791428875232,-0.01824501594465569,0.8166040674036734,0.004247896432412451,-0.08886,-34.547854
11.185,2.0,1.0,1.0,34.3,33.1,33.1,2.4,3.5,2.5725,0.5518413764510751,-0.018544924038762102,0.8215658641787938,0.004126887365738216,-0.089958,-34.425585
11.185,2.0,1.0,1.0,34.3,33.1,33.1,2.4,3.5,2.575,0.5442102694706248,-0.018848996773266066,0.8264877482726652,0.004000406308031816,-0.091078,-34.302892
11.185,2.0,1.0,1.0,34.3,33.1,33.1,2.4,3.5,2.5775,0.5364849557733703,-0.019157271194104136,0.8313683512607851,0.0038682765739394597,-0.09222,-34.179769
11.185,2.0,1.0,1.0,34.3,33.1,33.1,2.4,3.5,2.58,0.5286645673883529,-0.019469783285216608,0.8362062663657793,0.0037303158256212616,-0.093384,-34.05621
11.185,2.0,1.0,1.0,34.3,33.1,33.1,2.4,3.5,2.5825,0.5207482350665098,-0.019786567856692888,0.8410000474288466,0.0035863358903118732,-0.09457,-33.93221
11.185,2.0,1.0,1.0,34.3,33.1,33.1,2.4,3.5,2.585,0.5127350888343739,-0.020107658425896065,0.8457482078578303,0.003436142572223247,-0.09578,-33.807762
11.185,2.0,1.0,1.0,34.3,33.1,33.1,2.4,3.5,2.5875,0.5046242585830557,-0.020433087091173894,0.8504492195517128,0.003279535458640751,-0.097013,-33.68286
11.185,2.0,1.0,1.0,34.3,33.1,33.1,2.4,3.5,2.59,0.496414874694253,-0.02076288439773981,0.8551015118013326,0.0031163077200656803,-0.098271,-33.557498
11.185,2.0,1.0,1.0,34.3,33.1,33.1,2.4,3.5,2.5925,0.4881060687050658,-0.021097079195288065,0.8597034701661722,0.0029462459042539153,-0.099554,-33.43167
11.185,2.0,1.0,1.0,34.3,33.1,33.1,2.4,3.5,2.595,0.47969697401351735,-0.021435698486880088,0.8642534353270802,0.0027691297240010084,-0.100862,-33.305369
11.185,2.0,1.0,1.0,34.3,33.1,33.1,2.4,3.5,2.5975,0.47118672662671246,-0.021778767268619235,0.8687497019148384,0.0025847318385222215,-0.102197,-33.178589
11.185,2.0,1.0,1.0,34.3,33.1,33.1,2.4,3.5,2.6,0.4625744659536786,-0.022126308359599542,0.8731905173145095,0.0023928176282771193,-0.103559,-33.051325
11.185,2.0,1.0,1.0,34.3,33.1,33.1,2.4,3.5,2.6025,0.4538593356450246,-0.02247834222159075,0.877574080445547,0.002193144963087949,-0.104948,-32.923568
11.185,2.0,1.0,1.0,34.3,33.1,33.1,2.4,3.5,2.605,0.44504048448160016,-0.022834886767891666,0.8818985405176968,0.0019854639634000995,-0.106365,-32.795313
11.185,2.0,1.0,1.0,34.3,33.1,33.1,2.4,3.5,2.6075,0.43611706731447414,-0.02319595716075235,0.8861619957627632,0.0017695167545373346,-0.107811,-32.666554
11.185,2.0,1.0,1.0,34.3,33.1,33.1,2.4,3.5,2.61,0.42708824605862294,-0.023561565596735754,0.890362492142362,0.0015450372138015858,-0.109287,-32.537282
11.185,2.0,1.0,1.0,34.3,33.1,33.1,2.4,3.5,2.6125,0.41795319074280923,-0.023931721079354356,0.8944980220318479,0.0013117507102723598,-0.110793,-32.407493
11.185,2.0,1.0,1.0,34.3,33.1,33.1,2.4,3.5,2.615,0.4087110806182385,-0.024306429178281252,0.8985665228806656,0.001069373837161423,-0.112331,-32.277179
11.185,2.0,1.0,1.0,34.3,33.1,33.1,2.4,3.5,2.6175,0.39936110532869357,-0.024685691774400238,0.9025658758494263,0.0008176141365820386,-0.1139,-32.146332
11.185,2.0,1.0,1.0,34.3,33.1,33.1,2.4,3.5,2.62,0.3899024661449326,-0.02506950678991652,0.9064939044241003,0.0005561698165950907,-0.115502,-32.014947
11.185,2.0,1.0,1.0,34.3,33.1,33.1,2.4,3.5,2.6225,0.38033437726624675,-0.025457867902711807,0.9103483730077894,0.0002847294603995686,-0.117138,-31.883016
11.185,2.0,1.0,1.0,34.3,33.1,33.1,2.4,3.5,2.625,0.370656067192214,-0.0258507642440812,0.914126985490614,2.97172753934951e-06,-0.118809,-31.750532
11.185,2.0,1.0,1.0,34.3,33.1,33.1,2.4,3.5,2.6275,0.3608667801677449,-0.026248180078944118,0.9178273837983637,-0.00028943495299598744,-0.120515,-31.617488
11.185,2.0,1.0,1.0,34.3,33.1,33.1,2.4,3.5,2.63,0.3509657777046866,-0.026650094467573986,0.9214471464206324,-0.0005928326978923222,-0.122257,-31.483876
11.185,2.0,1.0,1.0,34.3,33.1,33.1,2.4,3.5,2.6325,0.34095234018333576,-0.02705648090783888,0.9249837869192771,-0.0009075744929606418,-0.124037,-31.34969
11.185,2.0,1.0,1.0,34.3,33.1,33.1,2.4,3.5,2.635,0.3308257685373486,-0.027467306956891608,0.928434752418149,-0.0012340245250160103,-0.125855,-31.214921
11.185,2.0,1.0,1.0,34.3,33.1,33.1,2.4,3.5,2.6375,0.320585386025669,-0.027882533831191943,0.931797422075153,-0.0015725585222742741,-0.127712,-31.079563
11.185,2.0,1.0,1.0,34.3,33.1,33.1,2.4,3.5,2.64,0.3102305400951851,-0.02830211598368339,0.9350691055378405,-0.0019235641033467617,-0.12961,-30.943607
11.185,2.0,1.0,1.0,34.3,33.1,33.1,2.4,3.5,2.6425,0.2997606043380099,-0.028726000656882376,0.9382470413838501,-0.0022874411348976637,-0.131549,-30.807046
11.185,2.0,1.0,1.0,34.3,33.1,33.1,2.4,3.5,2.645,0.2891749805473727,-0.029154127410573324,0.9413283955476772,-0.0026646020980202684,-0.133531,-30.669871
11.185,2.0,1.0,1.0,34.3,33.1,33.1,2.4,3.5,2.6475,0.27847310087626115,-0.02958642762273022,0.9443102597353876,-0.0030554724633688173,-0.135556,-30.532076
11.185,2.0,1.0,1.0,34.3,33.1,33.1,2.4,3.5,2.65,0.2676544301030703,-0.030022823962214326,0.9471896498290813,-0.003460491075069922,-0.137627,-30.393652
11.185,2.0,1.0,1.0,34.3,33.1,33.1,2.4,3.5,2.6525,0.2567184680087084,-0.03046322983171388,0.949963504283044,-0.0038801105434175054,-0.139744,-30.25459
11.185,2.0,1.0,1.0,34.3,33.1,33.1,2.4,3.5,2.655,0.2456647518696669,-0.030907548779314932,0.9526286825137633,-0.004314797646337285,-0.141908,-30.114883
11.185,2.0,1.0,1.0,34.3,33.1,33.1,2.4,3.5,2.6575,0.23449285907178077,-0.03135567387699885,0.9551819632861266,-0.004765033739585702,-0.144121,-29.974522
11.185,2.0,1.0,1.0,34.3,33.1,33.1,2.4,3.5,2.66,0.2232024098495048,-0.031807487064273846,0.9576200430983743,-0.005231315175622666,-0.146384,-29.833498
11.185,2.0,1.0,1.0,34.3,33.1,33.1,2.4,3.5,2.6625,0.21179307015570478,-0.032262858455044556,0.9599395345685596,-0.005714153731075427,-0.148699,-29.691803
11.185,2.0,1.0,1.0,34.3,33.1,33.1,2.4,3.5,2.665,0.20026455466707033,-0.03272164560572591,0.9621369648255342,-0.006214077042682437,-0.151068,-29.549428
11.185,2.0,1.0,1.0,34.3,33.1,33.1,2.4,3.5,2.6675,0.18861662993046494,-0.03318369274248843,0.9642087739076974,-0.0067316290515746285,-0.15349,-29.406364
11.185,2.0,1.0,1.0,34.3,33.1,33.1,2.4,3.5,2.67,0.17684911765560843,-0.033648829945414245,0.9661513131730194,-0.007267370455722971,-0.155969,-29.262602
11.185,2.0,1.0,1.0,34.3,33.1,33.1,2.4,3.5,2.6725,0.16496189815967963,-0.034116872287210005,0.9679608437241194,-0.00782187917034402,-0.158506,-29.118133
11.185,2.0,1.0,1.0,34.3,33.1,33.1,2.4,3.5,2.675,0.1529549139695726,-0.03458761892399605,0.9696335348524627,-0.008395750796019055,-0.161102,-28.972947
11.185,2.0,1.0,1.0,34.3,33.1,33.1,2.4,3.5,2.6775,0.14082817358766464,-0.03506085213554711,0.9711654625060435,-0.008989599094240545,-0.16376,-28.827034
11.185,2.0,1.0,1.0,34.3,33.1,33.1,2.4,3.5,2.68,0.12858175542712189,-0.035536336312211377,0.9725526077852409,-0.0096040564700613,-0.166481,-28.680386
11.185,2.0,1.0,1.0,34.3,33.1,33.1,2.4,3.5,2.6825,0.11621581192291817,-0.036013816885572585,0.9737908554718595,-0.010239774461466502,-0.169266,-28.532991
11.185,2.0,1.0,1.0,34.3,33.1,33.1,2.4,3.5,2.685,0.10373057382486683,-0.0364930191997514,0.9748759925967247,-0.010897424235050149,-0.172119,-28.38484
11.185,2.0,1.0,1.0,34.3,33.1,33.1,2.4,3.5,2.6875,0.0911263546791292,-0.036973647320056,0.975803707051554,-0.0115776970875129,-0.17504,-28.235922
11.185,2.0,1.0,1.0,34.3,33.1,33.1,2.4,3.5,2.69,0.07840355550481899,-0.03745538277549964,0.9765695862512147,-0.012281304952449619,-0.178033,-28.086227
11.185,2.0,1.0,1.0,34.3,33.1,33.1,2.4,3.5,2.6925,0.06556266967241164,-0.03793788323149101,0.9771691158528738,-0.013008980911827436,-0.181099,-27.935745
11.185,2.0,1.0,1.0,34.3,33.1,33.1,2.4,3.5,2.695,0.052604287990895386,-0.03842078108877621,0.977597678538954,-0.013761479711492039,-0.18424,-27.784463
11.185,2.0,1.0,1.0,34.3,33.1,33.1,2.4,3.5,2.6975,0.03952910401064098,-0.03890368200447527,0.9778505528712441,-0.014539578279969245,-0.187459,-27.632371
11.185,2.0,1.0,1.0,34.3,33.1,33.1,2.4,3.5,2.7,0.02633791954919478,-0.03938616333078685,0.9779229122239633,-0.015344076249750383,-0.190759,-27.479458
11.185,2.0,1.0,1.0,34.3,33.1,33.1,2.4,3.5,2.7025,0.013031650447275141,-0.03986777246666156,0.9778098238040277,-0.01617579648017281,-0.194141,-27.325711
11.185,2.0,1.0,1.0,34.3,33.1,33.1,2.4,3.5,2.705,-0.00038866743757110076,-0.04034802511743569,0.9775062477672679,-0.017035585580914562,-0.197608,-27.171119
11.185,2.0,1.0,1.0,34.3,33.1,33.1,2.4,3.5,2.7075,-0.0139218719920828,-0.04082640345709051,0.9770070364398251,-0.01792431443503312,-0.201164,-27.01567
11.185,2.0,1.0,1.0,34.3,33.1,33.1,2.4,3.5,2.71,-0.027566668355436284,-0.04130235418744688,0.9763069336544833,-0.018842878720373265,-0.204811,-26.85935
11.185,2.0,1.0,1.0,34.3,33.1,33.1,2.4,3.5,2.7125,-0.04132162216659049,-0.041775286488217614,0.9754005742122124,-0.019792199428063095,-0.208553,-26.702146
11.185,2.0,1.0,1.0,34.3,33.1,33.1,2.4,3.5,2.715,-0.05518515254280727,-0.04224456985142097,0.9742824834797501,-0.020773223376699852,-0.212391,-26.544047
11.185,2.0,1.0,1.0,34.3,33.1,33.1,2.4,3.5,2.7175,-0.06915552478119659,-0.042709531793200174,0.9729470771346125,-0.021786923720697234,-0.21633,-26.385037
11.185,2.0,1.0,1.0,34.3,33.1,33.1,2.4,3.5,2.72,-0.08323084277495696,-0.043169455435595694,0.9713886610694988,-0.0228343004511334,-0.220372,-26.225103
11.185,2.0,1.0,1.0,34.3,33.1,33.1,2.4,3.5,2.7225,-0.09740904113585495,-0.04362357695027132,0.9696014314686452,-0.023916380887287918,-0.224522,-26.064231
11.185,2.0,1.0,1.0,34.3,33.1,33.1,2.4,3.5,2.725,-0.11168787701423247,-0.04407108285559739,0.9675794750692972,-0.025034220156889515,-0.228783,-25.902405
11.185,2.0,1.0,1.0,34.3,33.1,33.1,2.4,3.5,2.7275,-0.12606492160771843,-0.044511107157839964,0.9653167696220877,-0.02618890166292727,-0.233159,-25.739612
11.185,2.0,1.0,1.0,34.3,33.1,33.1,2.4,3.5,2.73,-0.14053755134950743,-0.04494272832648497,0.9628071845647354,-0.02738153753467502,-0.237654,-25.575834
11.185,2.0,1.0,1.0,34.3,33.1,33.1,2.4,3.5,2.7325,-0.15510293876689266,-0.04536496609293617,0.9600444819241448,-0.028613269060370043,-0.242272,-25.411055
11.185,2.0,1.0,1.0,34.3,33.1,33.1,2.4,3.5,2.735,-0.1697580430003899,-0.04577677806095033,0.9570223174626327,-0.029885267098746556,-0.247017,-25.24526
11.185,2.0,1.0,1.0,34.3,33.1,33.1,2.4,3.5,2.7375,-0.18449959997350426,-0.04617705611621247,0.9537342420846981,-0.031198732466364128,-0.251895,-25.078431
11.185,2.0,1.0,1.0,34.3,33.1,33.1,2.4,3.5,2.74,-0.1993241122027672,-0.04656462262139008,0.950173703521441,-0.03255489629737653,-0.256909,-24.91055
11.185,2.0,1.0,1.0,34.3,33.1,33.1,2.4,3.5,2.7425,-0.21422783823726468,-0.046938226381823496,0.9463340483104318,-0.03395502037205712,-0.262066,-24.741599
11.185,2.0,1.0,1.0,34.3,33.1,33.1,2.4,3.5,2.745,-0.22920678171630676,-0.047296538365706006,0.9422085240895798,-0.03540039741003106,-0.26737,-24.571558
11.185,2.0,1.0,1.0,34.3,33.1,33.1,2.4,3.5,2.7475,-0.24425668003330808,-0.0476381471611556,0.9377902822242785,-0.03689235132374227,-0.272826,-24.400409
11.185,2.0,1.0,1.0,34.3,33.1,33.1,2.4,3.5,2.75,-0.259372992593209,-0.0479615541509682,0.933072380787875,-0.0384322374272122,-0.278442,-24.228131
11.185,2.0,1.0,1.0,34.3,33.1,33.1,2.4,3.5,2.7525,-0.2745508886499094,-0.048265168384045605,0.9280477879163178,-0.04002144259460557,-0.284223,-24.054702
11.185,2.0,1.0,1.0,34.3,33.1,33.1,2.4,3.5,2.755,-0.2897852347091741,-0.048547301120496836,0.9227093855586657,-0.041661385362501725,-0.290174,-23.880101
11.185,2.0,1.0,1.0,34.3,33.1,33.1,2.4,3.5,2.7575,-0.3050705814813375,-0.048806160025172546,0.9170499736459964,-0.043353515969056046,-0.296305,-23.704305
11.185,2.0,1.0,1.0,34.3,33.1,33.1,2.4,3.5,2.76,-0.3204011503666555,-0.049039842981910706,0.9110622747022113,-0.04509931632241827,-0.30262,-23.527291
11.185,2.0,1.0,1.0,34.3,33.1,33.1,2.4,3.5,2.7625,-0.33577081945460807,-0.04924633149797811,0.9047389389211956,-0.046900299889826115,-0.309129,-23.349034
11.185,2.0,1.0,1.0,34.3,33.1,33.1,2.4,3.5,2.765,-0.35117310901648413,-0.049423483665081695,0.8980725497358829,-0.04875801149768586,-0.315839,-23.169508
11.185,2.0,1.0,1.0,34.3,33.1,33.1,2.4,3.5,2.7675,-0.3666011664683543,-0.04956902663983223,0.891055629905955,-0.05067402703167374,-0.322758,-22.988687
11.185,2.0,1.0,1.0,34.3,33.1,33.1,2.4,3.5,2.77,-0.3820477507789295,-0.04968054860263133,0.8836806481521987,-0.05264995302438682,-0.329896,-22.806543
11.185,2.0,1.0,1.0,34.3,33.1,33.1,2.4,3.5,2.7725,-0.3975052162937291,-0.04975549014956424,0.8759400263670313,-0.054687426116321276,-0.337262,-22.623047
11.185,2.0,1.0,1.0,34.3,33.1,33.1,2.4,3.5,2.775,-0.4129654959434161,-0.049791135066959695,0.867826147432375,-0.0567881123738917,-0.344866,-22.438169
11.185,2.0,1.0,1.0,34.3,33.1,33.1,2.4,3.5,2.7775,-0.428420083800027,-0.049784600432739856,0.859331363677976,-0.05895370644578598,-0.352718,-22.251878
11.185,2.0,1.0,1.0,34.3,33.1,33.1,2.4,3.5,2.78,-0.44386001694002003,-0.04973282598247039,0.8504480060155173,-0.06118593053609695,-0.360831,-22.064141
11.185,2.0,1.0,1.0,34.3,33.1,33.1,2.4,3.5,2.7825,-0.4592758565674303,-0.049632562671024553,0.8411683937865009,-0.06348653316929781,-0.369215,-21.874923
11.185,2.0,1.0,1.0,34.3,33.1,33.1,2.4,3.5,2.785,-0.474657668344081,-0.04948036035290894,0.8314848453649561,-0.06585728771816315,-0.377884,-21.684189
11.185,2.0,1.0,1.0,34.3,33.1,33.1,2.4,3.5,2.7875,-0.4899950018662175,-0.04927255449544045,0.8213896895597552,-0.06829999066101272,-0.386852,-21.4919
11.185,2.0,1.0,1.0,34.3,33.1,33.1,2.4,3.5,2.79,-0.5052768692184472,-0.04900525182898938,0.8108752778656962,-0.07081645952908366,-0.396132,-21.298018
11.185,2.0,1.0,1.0,34.3,33.1,33.1,2.4,3.5,2.7925,-0.5204917225258735,-0.04867431482727098,0.799933997617843,-0.07340853049821365,-0.405741,-21.102502
11.185,2.0,1.0,1.0,34.3,33.1,33.1,2.4,3.5,2.795,-0.5356274304140347,-0.048275344898004224,0.7885582861099386,-0.07607805557115423,-0.415695,-20.905307
11.185,2.0,1.0,1.0,34.3,33.1,33.1,2.4,3.5,2.7975,-0.5506712532730614,-0.04780366414999358,0.7767406457454779,-0.07882689928747445,-0.426011,-20.706388
11.185,2.0,1.0,1.0,34.3,33.1,33.1,2.4,3.5,2.8,-0.5656098172076203,-0.04725429558660564,0.7644736602992404,-0.08165693488689811,-0.436709,-20.505698
11.185,2.0,1.0,1.0,34.3,33.1,33.1,2.4,3.5,2.8025,-0.5804290865369709,-0.046621941557492164,0.7517500123784118,-0.0845700398386426,-0.447809,-20.303187
11.185,2.0,1.0,1.0,34.3,33.1,33.1,2.4,3.5,2.805,-0.5951143346898985,-0.0459009602799853,0.7385625021860447,-0.08756809063351356,-0.459333,-20.098802
11.185,2.0,1.0,1.0,34.3,33.1,33.1,2.4,3.5,2.8075,-0.6096501133169226,-0.04508534021857713,0.724904067706143,-0.09065295671662328,-0.471305,-19.892487
11.185,2.0,1.0,1.0,34.3,33.1,33.1,2.4,3.5,2.81,-0.6240202194167136,-0.04416867208498063,0.7107678064497214,-0.09382649341603236,-0.483749,-19.684186
11.185,2.0,1.0,1.0,34.3,33.1,33.1,2.4,3.5,2.8125,-0.638207660244631,-0.0431441181920934,0.696146998925542,-0.0970905336956025,-0.496694,-19.473835
11.185,2.0,1.0,1.0,34.3,33.1,33.1,2.4,3.5,2.815,-0.6521946157384604,-0.04200437886237226,0.6810351340287312,-0.10044687852802503,-0.510168,-19.261372
11.185,2.0,1.0,1.0,34.3,33.1,33.1,2.4,3.5,2.8175,-0.6659623981591112,-0.040741655554258425,0.6654259365763391,-0.10389728564520867,-0.524204,-19.046727
11.185,2.0,1.0,1.0,34.3,33.1,33.1,2.4,3.5,2.82,-0.6794914086019362,-0.03934761032892807,0.6493133972623918,-0.1074434563766873,-0.538837,-18.82983
11.185,2.0,1.0,1.0,34.3,33.1,33.1,2.4,3.5,2.8225,-0.6927610899868026,-0.03781332123329884,0.6326918053578005,-0.11108702023080055,-0.554103,-18.610606
11.185,2.0,1.0,1.0,34.3,33.1,33.1,2.4,3.5,2.825,-0.7057498760816736,-0.036129233123450046,0.6155557845446127,-0.11482951680614556,-0.570045,-18.388975
11.185,2.0,1.0,1.0,34.3,33.1,33.1,2.4,3.5,2.8275,-0.7184351360546147,-0.03428510339489366,0.5979003323519639,-0.11867237453980356,-0.586705,-18.164853
