1,w,sub_t,h,l1,l2,l3,g1,g2,Freq,S11_re,S21_re,S11_img,S21_img,S11_dB,S21_dB
11.185,2.0,1.0,1.0,34.5,33.4,33.4,1.8,3.5,2.5,0.692003009129924,-0.0156550977439224,0.70987576096786,0.0076023111637007,-0.075385,-35.187334
11.185,2.0,1.0,1.0,34.5,33.4,33.4,1.8,3.5,2.5025,0.6860300042943475,-0.015934420411013298,0.7155119705873354,0.007563166461338389,-0.076257,-35.070899
11.185,2.0,1.0,1.0,34.5,33.4,33.4,1.8,3.5,2.505,0.6799770219477508,-0.016218121657621185,0.7211279523026325,0.007520577469540135,-0.077142,-34.954115
11.185,2.0,1.0,1.0,34.5,33.4,33.4,1.8,3.5,2.5075,0.6738432539083825,-0.01650626248260011,0.7267228681583908,0.007474424710774273,-0.078041,-34.836977
11.185,2.0,1.0,1.0,34.5,33.4,33.4,1.8,3.5,2.51,0.6676278844076607,-0.016798904294702568,0.7322958559384957,0.00742458478683291,-0.078955,-34.719481
11.185,2.0,1.0,1.0,34.5,33.4,33.4,1.8,3.5,2.5125,0.6613300902065933,-0.017096108880337375,0.7378460284752101,0.00737093024503606,-0.079884,-34.60162
11.185,2.0,1.0,1.0,34.5,33.4,33.4,1.8,3.5,2.515,0.6549490407254172,-0.01739793836837968,0.7433724729394521,0.0073133294397823324,-0.080828,-34.483389
11.185,2.0,1.0,1.0,34.5,33.4,33.4,1.8,3.5,2.5175,0.6484838981872371,-0.01770445519184245,0.7488742501117698,0.007251646389289165,-0.081787,-34.364784
11.185,2.0,1.0,1.0,34.5,33.4,33.4,1.8,3.5,2.52,0.6419338177764317,-0.018015722046208684,0.7543503936335788,0.007185740627361258,-0.082763,-34.245799
11.185,2.0,1.0,1.0,34.5,33.4,33.4,1.8,3.5,2.5225,0.6352979478126876,-0.018331801844209926,0.7597999092381884,0.007115467050020809,-0.083755,-34.126429
11.185,2.0,1.0,1.0,34.5,33.4,33.4,1.8,3.5,2.525,0.6285754299415097,-0.018652757666826048,0.765221773961183,0.0070406757568291225,-0.084765,-34.006667
11.185,2.0,1.0,1.0,34.5,33.4,33.4,1.8,3.5,2.5275,0.6217653993421327,-0.018978652710266712,0.7706149353296939,0.006961211886723521,-0.085792,-33.886509
11.185,2.0,1.0,1.0,34.5,33.4,33.4,1.8,3.5,2.53,0.6148669849538013,-0.019309550228680864,0.7759783105300967,0.006876915448189824,-0.086836,-33.765949
11.185,2.0,1.0,1.0,34.5,33.4,33.4,1.8,3.5,2.5325,0.6078793097214146,-0.019645513472326313,0.7813107855536817,0.006787621143584606,-0.0879,-33.644982
11.185,2.0,1.0,1.0,34.5,33.4,33.4,1.8,3.5,2.535,0.6008014908615916,-0.019986605620915518,0.7866112143198343,0.006693158187417803,-0.088982,-33.523601
11.185,2.0,1.0,1.0,34.5,33.4,33.4,1.8,3.5,2.5375,0.5936326401502744,-0.020332889711836416,0.79187841777626,0.0065933501184005676,-0.090084,-33.401801
11.185,2.0,1.0,1.0,34.5,33.4,33.4,1.8,3.5,2.54,0.5863718642330153,-0.02068442856293055,0.7971111829758026,0.006488014605058824,-0.091205,-33.279577
11.185,2.0,1.0,1.0,34.5,33.4,33.4,1.8,3.5,2.5425,0.579018264959163,-0.021041284689491572,0.8023082621293961,0.006376963244707956,-0.092347,-33.156922
11.185,2.0,1.0,1.0,34.5,33.4,33.4,1.8,3.5,2.545,0.5715709397412274,-0.021403520215127505,0.8074683716347008,0.00626000135557982,-0.093511,-33.03383
11.185,2.0,1.0,1.0,34.5,33.4,33.4,1.8,3.5,2.5475,0.5640289819407526,-0.021771196776109242,0.8125901910799657,0.00613692776188778,-0.094696,-32.910297
11.185,2.0,1.0,1.0,34.5,33.4,33.4,1.8,3.5,2.55,0.5563914812820787,-0.022144375418806882,0.8176723622226987,0.006007534571611613,-0.095903,-32.786315
11.185,2.0,1.0,1.0,34.5,33.4,33.4,1.8,3.5,2.5525,0.5486575242954813,-0.022523116489789916,0.8227134879426852,0.005871606946779101,-0.097133,-32.661878
11.185,2.0,1.0,1.0,34.5,33.4,33.4,1.8,3.5,2.555,0.540826194791189,-0.022907479518145667,0.8277121311689546,0.005728922866017248,-0.098387,-32.536981
11.185,2.0,1.0,1.0,34.5,33.4,33.4,1.8,3.5,2.5575,0.5328965743658868,-0.023297523089542305,0.832666813780274,0.00557925287914116,-0.099664,-32.411618
11.185,2.0,1.0,1.0,34.5,33.4,33.4,1.8,3.5,2.56,0.5248677429433884,-0.02369330471153569,0.8375760154787708,0.005422359853545311,-0.100967,-32.285781
11.185,2.0,1.0,1.0,34.5,33.4,33.4,1.8,3.5,2.5625,0.5167387793512215,-0.024094880669591187,0.8424381726363078,0.005257998712158136,-0.102295,-32.159466
11.185,2.0,1.0,1.0,34.5,33.4,33.4,1.8,3.5,2.565,0.5085087619349445,-0.02450230587326022,0.8472516771132432,0.005085916162716261,-0.103649,-32.032665
11.185,2.0,1.0,1.0,34.5,33.4,33.4,1.8,3.5,2.5675,0.5001767692121378,-0.02491563369191845,0.8520148750492317,0.004905850418113338,-0.10503,-31.905371
11.185,2.0,1.0,1.0,34.5,33.4,33.4,1.8,3.5,2.57,0.4917418805680462,-0.025334915779439804,0.8567260656257514,0.004717530907573898,-0.106438,-31.77758
11.185,2.0,1.0,1.0,34.5,33.4,33.4,1.8,3.5,2.5725,0.4832031769949743,-0.025760201887143085,0.8613834998000541,0.004520677978401153,-0.107875,-31.649283
11.185,2.0,1.0,1.0,34.5,33.4,33.4,1.8,3.5,2.575,0.47455974187762423,-0.026191539664309874,0.865985379010286,0.004315002588045407,-0.109341,-31.520475
11.185,2.0,1.0,1.0,34.5,33.4,33.4,1.8,3.5,2.5775,0.4658106618266547,-0.026628974445532652,0.8705298538515358,0.0041002059862381285,-0.110837,-31.391148
11.185,2.0,1.0,1.0,34.5,33.4,33.4,1.8,3.5,2.58,0.45695502756285744,-0.027072549024108643,0.8750150227226098,0.0038759793869365088,-0.112363,-31.261297
11.185,2.0,1.0,1.0,34.5,33.4,33.4,1.8,3.5,2.5825,0.44799193485443317,-0.027522303410650453,0.8794389304433948,0.0036420036298220933,-0.113922,-31.130913
11.185,2.0,1.0,1.0,34.5,33.4,33.4,1.8,3.5,2.585,0.4389204855099758,-0.027978274576036594,0.8837995668426741,0.003397948831098408,-0.115513,-30.999991
11.185,2.0,1.0,1.0,34.5,33.4,33.4,1.8,3.5,2.5875,0.42973978842987853,-0.02844049617777479,0.8880948653163466,0.0031434740233335333,-0.117137,-30.868523
11.185,2.0,1.0,1.0,34.5,33.4,33.4,1.8,3.5,2.59,0.42044896071900667,-0.028908998268797406,0.8923227013560295,0.0028782267840959386,-0.118795,-30.736502
11.185,2.0,1.0,1.0,34.5,33.4,33.4,1.8,3.5,2.5925,0.41104712886357075,-0.02938380698765301,0.8964808910480869,0.0026018428531344733,-0.120489,-30.603921
11.185,2.0,1.0,1.0,34.5,33.4,33.4,1.8,3.5,2.595,0.40153342997532904,-0.029864944228997454,0.9005671895432001,0.002313945737859721,-0.122219,-30.470772
11.185,2.0,1.0,1.0,34.5,33.4,33.4,1.8,3.5,2.5975,0.3919070131062872,-0.030352427293226604,0.9045792894966526,0.002014146306886115,-0.123986,-30.337049
11.185,2.0,1.0,1.0,34.5,33.4,33.4,1.8,3.5,2.6,0.3821670406372819,-0.030846268514025676,0.9085148194795788,0.0017020423714048149,-0.125792,-30.202745
11.185,2.0,1.0,1.0,34.5,33.4,33.4,1.8,3.5,2.6025,0.3723126897439426,-0.03134647486253968,0.9123713423615126,0.0013772182541637674,-0.127637,-30.067851
11.185,2.0,1.0,1.0,34.5,33.4,33.4,1.8,3.5,2.605,0.36234315394365885,-0.03185304752679717,0.9161463536646585,0.0010392443458409905,-0.129522,-29.93236
11.185,2.0,1.0,1.0,34.5,33.4,33.4,1.8,3.5,2.6075,0.3522576447273613,-0.03236598146493971,0.9198372798903979,0.0006876766486107587,-0.13145,-29.796264
11.185,2.0,1.0,1.0,34.5,33.4,33.4,1.8,3.5,2.61,0.3420553932800671,-0.032885264930727055,0.9234414768186497,0.00032205630671498255,-0.13342,-29.659557
11.185,2.0,1.0,1.0,34.5,33.4,33.4,1.8,3.5,2.6125,0.33173565229429947,-0.03341087896970228,0.926956227780818,-5.8090876131838575e-05,-0.135434,-29.522229
11.185,2.0,1.0,1.0,34.5,33.4,33.4,1.8,3.5,2.615,0.3212976978806593,-0.03394279688430701,0.9303787419071846,-0.00045325493265719333,-0.137494,-29.384273
11.185,2.0,1.0,1.0,34.5,33.4,33.4,1.8,3.5,2.6175,0.3107408315800147,-0.0344809836661404,0.9337061523497123,-0.0008639422413964927,-0.1396,-29.245681
11.185,2.0,1.0,1.0,34.5,33.4,33.4,1.8,3.5,2.62,0.3000643824819353,-0.035025395393452084,0.9369355144813932,-0.00129067604961912,-0.141754,-29.106446
11.185,2.0,1.0,1.0,34.5,33.4,33.4,1.8,3.5,2.6225,0.28926770945417585,-0.03557597859185175,0.9400638040734054,-0.001733997009895972,-0.143958,-28.966558
11.185,2.0,1.0,1.0,34.5,33.4,33.4,1.8,3.5,2.625,0.278350203488248,-0.0361326695560996,0.943087915451507,-0.00219446373035987,-0.146213,-28.826009
11.185,2.0,1.0,1.0,34.5,33.4,33.4,1.8,3.5,2.6275,0.26731129016624466,-0.03669539363072488,0.9460046596332787,-0.0026726533386769316,-0.14852,-28.684792
11.185,2.0,1.0,1.0,34.5,33.4,33.4,1.8,3.5,2.63,0.2561504322543434,-0.03726406444708666,0.9488107624479944,-0.0031691620597083946,-0.150881,-28.542897
11.185,2.0,1.0,1.0,34.5,33.4,33.4,1.8,3.5,2.6325,0.24486713242859487,-0.03783858311435773,0.9515028626411166,-0.003684605806800822,-0.153298,-28.400316
11.185,2.0,1.0,1.0,34.5,33.4,33.4,1.8,3.5,2.635,0.23346093613881028,-0.03841883736176685,0.9540775099656026,-0.00421962078659634,-0.155772,-28.25704
11.185,2.0,1.0,1.0,34.5,33.4,33.4,1.8,3.5,2.6375,0.22193143461661288,-0.03900470062928259,0.9565311632624558,-0.00477486411720091,-0.158304,-28.11306
11.185,2.0,1.0,1.0,34.5,33.4,33.4,1.8,3.5,2.64,0.210278268033887,-0.039596031103761774,0.9588601885331901,-0.005351014459494624,-0.160898,-27.968368
11.185,2.0,1.0,1.0,34.5,33.4,33.4,1.8,3.5,2.6425,0.19850112881814802,-0.04019267069741284,0.9610608570071211,-0.0059487726613007144,-0.163554,-27.822954
11.185,2.0,1.0,1.0,34.5,33.4,33.4,1.8,3.5,2.645,0.18659976513156368,-0.040794443965244606,0.9631293432066982,-0.0065688624140635594,-0.166274,-27.676808
11.185,2.0,1.0,1.0,34.5,33.4,33.4,1.8,3.5,2.6475,0.17457398452060058,-0.04140115695797953,0.9650617230143592,-0.007212030921606023,-0.169061,-27.529923
11.185,2.0,1.0,1.0,34.5,33.4,33.4,1.8,3.5,2.65,0.16242365774350773,-0.04201259600670752,0.9668539717447171,-0.007879049580455929,-0.171916,-27.382287
11.185,2.0,1.0,1.0,34.5,33.4,33.4,1.8,3.5,2.6525,0.15014872278316505,-0.042628526435338626,0.9685019622262195,-0.008570714671132242,-0.174842,-27.233892
11.185,2.0,1.0,1.0,34.5,33.4,33.4,1.8,3.5,2.655,0.1377491890529872,-0.043248691196688845,0.970001462896761,-0.009287848059687515,-0.177841,-27.084728
11.185,2.0,1.0,1.0,34.5,33.4,33.4,1.8,3.5,2.6575,0.12522514180393324,-0.043872809427786645,0.971348135918123,-0.010031297908683692,-0.180915,-26.934784
11.185,2.0,1.0,1.0,34.5,33.4,33.4,1.8,3.5,2.66,0.11257674674089237,-0.04450057491973273,0.9725375353144909,-0.010801939396661926,-0.184066,-26.784051
11.185,2.0,1.0,1.0,34.5,33.4,33.4,1.8,3.5,2.6625,0.09980425485702972,-0.04513165449717065,0.9735651051407475,-0.011600675445028371,-0.187297,-26.632518
11.185,2.0,1.0,1.0,34.5,33.4,33.4,1.8,3.5,2.665,0.086908007494928,-0.0457656863021364,0.974426177686659,-0.012428437451135364,-0.190611,-26.480175
11.185,2.0,1.0,1.0,34.5,33.4,33.4,1.8,3.5,2.6675,0.0738884416437106,-0.04640227797674339,0.9751159717235626,-0.013286186026172972,-0.19401,-26.327011
11.185,2.0,1.0,1.0,34.5,33.4,33.4,1.8,3.5,2.67,0.06074609548157664,-0.047041004738832,0.9756295908006685,-0.01417491173631394,-0.197497,-26.173016
11.185,2.0,1.0,1.0,34.5,33.4,33.4,1.8,3.5,2.6725,0.04748161417352722,-0.047681407344359994,0.9759620215986087,-0.015095635845362068,-0.201074,-26.018178
11.185,2.0,1.0,1.0,34.5,33.4,33.4,1.8,3.5,2.675,0.03409575593438091,-0.04832298992993606,0.9761081323484215,-0.016049411056944105,-0.204746,-25.862486
11.185,2.0,1.0,1.0,34.5,33.4,33.4,1.8,3.5,2.6775,0.02058939836747924,-0.04896521772849843,0.9760626713247882,-0.017037322254057526,-0.208514,-25.705929
11.185,2.0,1.0,1.0,34.5,33.4,33.4,1.8,3.5,2.68,0.006963545089853344,-0.049607514650714196,0.975820265422923,-0.01806048723353744,-0.212382,-25.548495
11.185,2.0,1.0,1.0,34.5,33.4,33.4,1.8,3.5,2.6825,-0.006780667345046866,-0.05024926072421613,0.975375418829199,-0.01912005743273019,-0.216354,-25.390173
11.185,2.0,1.0,1.0,34.5,33.4,33.4,1.8,3.5,2.685,-0.020641962215595357,-0.05088978938230619,0.9747225117963187,-0.020217218645366297,-0.220433,-25.23095
11.185,2.0,1.0,1.0,34.5,33.4,33.4,1.8,3.5,2.6875,-0.03461891507936327,-0.05152838459322921,0.973855799534527,-0.02135319172329708,-0.224622,-25.070814
11.185,2.0,1.0,1.0,34.5,33.4,33.4,1.8,3.5,2.69,-0.048709945887381326,-0.05216427782055689,0.9727694112311925,-0.02252923326040199,-0.228926,-24.909752
11.185,2.0,1.0,1.0,34.5,33.4,33.4,1.8,3.5,2.6925,-0.0629133107526779,-0.05279664480461879,0.9714573492118838,-0.02374663625458678,-0.233349,-24.747752
11.185,2.0,1.0,1.0,34.5,33.4,33.4,1.8,3.5,2.695,-0.07722709335999739,-0.053424602154263666,0.9699134882569517,-0.02500673074335876,-0.237894,-24.584801
11.185,2.0,1.0,1.0,34.5,33.4,33.4,1.8,3.5,2.6975,-0.09164919600323103,-0.05404720373753662,0.968131575088542,-0.02631088440800463,-0.242566,-24.420884
11.185,2.0,1.0,1.0,34.5,33.4,33.4,1.8,3.5,2.7,-0.10617733023654143,-0.05466343685909783,0.966105228043947,-0.027660503140874343,-0.247369,-24.255989
11.185,2.0,1.0,1.0,34.5,33.4,33.4,1.8,3.5,2.7025,-0.12080900712474765,-0.05527221821139516,0.9638279369522302,-0.029057031569716042,-0.252309,-24.090101
11.185,2.0,1.0,1.0,34.5,33.4,33.4,1.8,3.5,2.705,-0.13554152707792325,-0.05587238958571695,0.961293063232161,-0.030501953532381484,-0.25739,-23.923206
11.185,2.0,1.0,1.0,34.5,33.4,33.4,1.8,3.5,2.7075,-0.15037196925465968,-0.056462713328296624,0.958493840230621,-0.031996792494542,-0.262617,-23.755289
11.185,2.0,1.0,1.0,34.5,33.4,33.4,1.8,3.5,2.71,-0.16529718051779183,-0.05704186752560222,0.9554233738219357,-0.033543111902297126,-0.267996,-23.586335
11.185,2.0,1.0,1.0,34.5,33.4,33.4,1.8,3.5,2.7125,-0.18031376392574205,-0.05760844090181809,0.9520746432898115,-0.03514251546073084,-0.273533,-23.416328
11.185,2.0,1.0,1.0,34.5,33.4,33.4,1.8,3.5,2.715,-0.19541806674191756,-0.058160927410300045,0.9484405025150193,-0.036796647328546726,-0.279233,-23.245253
11.185,2.0,1.0,1.0,34.5,33.4,33.4,1.8,3.5,2.7175,-0.21060616794380685,-0.058697720499452495,0.9445136814933842,-0.038507192217896974,-0.285103,-23.073094
11.185,2.0,1.0,1.0,34.5,33.4,33.4,1.8,3.5,2.72,-0.225873865212547,-0.05921710703201953,0.9402867882102883,-0.04027587538738633,-0.291149,-22.899832
11.185,2.0,1.0,1.0,34.5,33.4,33.4,1.8,3.5,2.7225,-0.24121666138283462,-0.05971726083519712,0.9357523108995266,-0.042104462514981365,-0.297378,-22.725452
11.185,2.0,1.0,1.0,34.5,33.4,33.4,1.8,3.5,2.725,-0.2566297503319131,-0.060196235857232994,0.9309026207162414,-0.04399475943614581,-0.303798,-22.549935
11.185,2.0,1.0,1.0,34.5,33.4,33.4,1.8,3.5,2.7275,-0.2721080022853158,-0.06065195890428695,0.92572997485556,-0.045948611730971534,-0.310416,-22.373263
11.185,2.0,1.0,1.0,34.5,33.4,33.4,1.8,3.5,2.73,-0.2876459485156287,-0.06108222192923768,0.9202265201507487,-0.047967904142315186,-0.31724,-22.195417
11.185,2.0,1.0,1.0,34.5,33.4,33.4,1.8,3.5,2.7325,-0.30323776540918906,-0.061484673841842585,0.9143842971869712,-0.050054559805003195,-0.324278,-22.016378
11.185,2.0,1.0,1.0,34.5,33.4,33.4,1.8,3.5,2.735,-0.3188772578739181,-0.06185681180715075,0.9081952449692509,-0.05221053926395623,-0.33154,-21.836125
11.185,2.0,1.0,1.0,34.5,33.4,33.4,1.8,3.5,2.7375,-0.3345578420597345,-0.062195971996314166,0.9016512061860006,-0.05443783925661837,-0.339034,-21.654638
11.185,2.0,1.0,1.0,34.5,33.4,33.4,1.8,3.5,2.74,-0.3502725273608917,-0.06249931975091616,0.8947439331125159,-0.056738491232272543,-0.346771,-21.471894
11.185,2.0,1.0,1.0,34.5,33.4,33.4,1.8,3.5,2.7425,-0.36601389766730236,-0.06276383911860338,0.8874650942021448,-0.059114559577672886,-0.354762,-21.287873
11.185,2.0,1.0,1.0,34.5,33.4,33.4,1.8,3.5,2.745,-0.38177409182928945,-0.06298632171413963,0.8798062814165613,-0.06156813951484116,-0.363016,-21.102551
11.185,2.0,1.0,1.0,34.5,33.4,33.4,1.8,3.5,2.7475,-0.3975447832972987,-0.06316335485595961,0.8717590183507007,-0.06410135463281207,-0.371547,-20.915904
11.185,2.0,1.0,1.0,34.5,33.4,33.4,1.8,3.5,2.75,-0.413317158894765,-0.06329130892385,0.863314769212508,-0.0667163540104897,-0.380365,-20.727908
11.185,2.0,1.0,1.0,34.5,33.4,33.4,1.8,3.5,2.7525,-0.42908189667865143,-0.0633663238784802,0.8544649487228593,-0.06941530888250551,-0.389485,-20.538536
11.185,2.0,1.0,1.0,34.5,33.4,33.4,1.8,3.5,2.755,-0.444829142837924,-0.06338429487810247,0.8452009330068615,-0.07220040879394239,-0.39892,-20.347763
11.185,2.0,1.0,1.0,34.5,33.4,33.4,1.8,3.5,2.7575,-0.4605484875755875,-0.0633408569217888,0.835514071554345,-0.07507385718290623,-0.408686,-20.15556
11.185,2.0,1.0,1.0,34.5,33.4,33.4,1.8,3.5,2.76,-0.47622893991451104,-0.0632313684420191,0.8253957003349541,-0.07803786632200418,-0.418797,-19.9619
11.185,2.0,1.0,1.0,34.5,33.4,33.4,1.8,3.5,2.7625,-0.49185890136140537,-0.0630508937622255,0.8148371561618246,-0.08109465154072372,-0.42927,-19.766752
11.185,2.0,1.0,1.0,34.5,33.4,33.4,1.8,3.5,2.765,-0.5074261383565852,-0.06279418432697412,0.8038297924077439,-0.08424642464023717,-0.440124,-19.570085
11.185,2.0,1.0,1.0,34.5,33.4,33.4,1.8,3.5,2.7675,-0.522917753429707,-0.06245565860376479,0.792364996189028,-0.08749538640011241,-0.451377,-19.371868
11.185,2.0,1.0,1.0,34.5,33.4,33.4,1.8,3.5,2.77,-0.5383201549733618,-0.06202938054589682,0.7804342071454706,-0.09084371806249217,-0.46305,-19.172065
11.185,2.0,1.0,1.0,34.5,33.4,33.4,1.8,3.5,2.7725,-0.5536190255371339,-0.061509036495419694,0.7680289379598594,-0.09429357166320579,-0.475163,-18.970644
11.185,2.0,1.0,1.0,34.5,33.4,33.4,1.8,3.5,2.775,-0.5687992885344417,-0.060887910393810724,0.7551407967781292,-0.09784705906063705,-0.487741,-18.767566
11.185,2.0,1.0,1.0,34.5,33.4,33.4,1.8,3.5,2.7775,-0.5838450732432093,-0.060158857155647505,0.7417615117116285,-0.1015062394915506,-0.500808,-18.562795
11.185,2.0,1.0,1.0,34.5,33.4,33.4,1.8,3.5,2.78,-0.5987396779688351,-0.059314274047133644,0.7278829576267238,-0.10527310545797201,-0.51439,-18.35629
11.185,2.0,1.0,1.0,34.5,33.4,33.4,1.8,3.5,2.7825,-0.6134655312243399,-0.0583460698968801,0.7134971854547106,-0.10914956672000879,-0.528516,-18.14801
11.185,2.0,1.0,1.0,34.5,33.4,33.4,1.8,3.5,2.785,-0.6280041507677759,-0.057245631950836366,0.6985964542873467,-0.11313743213552904,-0.543216,-17.937912
11.185,2.0,1.0,1.0,34.5,33.4,33.4,1.8,3.5,2.7875,-0.6423361003207991,-0.056003790166767355,0.6831732665611769,-0.11723838904797779,-0.558524,-17.72595
11.185,2.0,1.0,1.0,34.5,33.4,33.4,1.8,3.5,2.79,-0.6564409437753694,-0.054610778726263874,0.6672204066782196,-0.12145397987741524,-0.574474,-17.512078
11.185,2.0,1.0,1.0,34.5,33.4,33.4,1.8,3.5,2.7925,-0.6702971966772775,-0.053056194524135986,0.650730983462549,-0.12578557551587552,-0.591106,-17.296247
11.185,2.0,1.0,1.0,34.5,33.4,33.4,1.8,3.5,2.795,-0.6838822747564356,-0.05132895237641752,0.6336984769133233,-0.13023434506508466,-0.608459,-17.078404
11.185,2.0,1.0,1.0,34.5,33.4,33.4,1.8,3.5,2.7975,-0.697172439254519,-0.0494172366695136,0.6161167897865368,-0.13480122138076434,-0.62658,-16.858497
11.185,2.0,1.0,1.0,34.5,33.4,33.4,1.8,3.5,2.8,-0.7101427387814826,-0.04730844915478125,0.5979803046219418,-0.13948686180140338,-0.645516,-16.636469
11.185,2.0,1.0,1.0,34.5,33.4,33.4,1.8,3.5,2.8025,-0.7227669474140677,-0.044989152575852495,0.579283946930634,-0.14429160333819063,-0.66532,-16.412261
11.185,2.0,1.0,1.0,34.5,33.4,33.4,1.8,3.5,2.805,-0.7350174987330504,-0.04244500980134834,0.5600232553753496,-0.14921541148424372,-0.686048,-16.185813
11.185,2.0,1.0,1.0,34.5,33.4,33.4,1.8,3.5,2.8075,-0.7468654154828349,-0.03966071812474498,0.5401944599124954,-0.15425782166226792,-0.707763,-15.957061
11.185,2.0,1.0,1.0,34.5,33.4,33.4,1.8,3.5,2.81,-0.7582802345290386,-0.036619938388010385,0.5197945690262212,-0.15941787216677583,-0.730532,-15.725938
11.185,2.0,1.0,1.0,34.5,33.4,33.4,1.8,3.5,2.8125,-0.7692299267895211,-0.03330521858884785,0.49882146737461897,-0.16469402726580062,-0.754429,-15.492374
11.185,2.0,1.0,1.0,34.5,33.4,33.4,1.8,3.5,2.815,-0.7796808118254971,-0.029697911646410665,0.4772740253911968,-0.17008408890285248,-0.779534,-15.256298
11.185,2.0,1.0,1.0,34.5,33.4,33.4,1.8,3.5,2.8175,-0.7895974668059965,-0.025778087031799575,0.4551522226471593,-0.1755850951769954,-0.805936,-15.017634
11.185,2.0,1.0,1.0,34.5,33.4,33.4,1.8,3.5,2.82,-0.7989426296076485,-0.02152443602350234,0.43245728708818354,-0.18119320347093815,-0.833731,-14.776304
11.185,2.0,1.0,1.0,34.5,33.4,33.4,1.8,3.5,2.8225,-0.8076770958898315,-0.01691417043208183,0.40919185262096763,-0.18690355573646392,-0.863025,-14.532226
11.185,2.0,1.0,1.0,34.5,33.4,33.4,1.8,3.5,2.825,-0.8157596101033721,-0.011922914763115957,0.38536013794853563,-0.19271012302495774,-0.893936,-14.285317
11.185,2.0,1.0,1.0,34.5,33.4,33.4,1.8,3.5,2.8275,-0.8231467505623733,-0.0065245919660264365,0.3609681500488221,-0.19860552585877073,-0.926593,-14.035489
