1,w,sub_t,h,l1,l2,l3,g1,g2,Freq,S11_re,S21_re,S11_img,S21_img,S11_dB,S21_dB
11.185,2.0,1.0,1.0,33.0,34.8,34.8,3.5,2.3,2.5,0.896406061990611,-0.00648247207910264,0.42923392927608,0.00684599842696582,-0.053373,-40.511464
11.185,2.0,1.0,1.0,33.0,34.8,34.8,3.5,2.3,2.5025,0.893721544842862,-0.0066367164157078475,0.4346532691545338,0.006909101240480564,-0.053918,-40.37244
11.185,2.0,1.0,1.0,33.0,34.8,34.8,3.5,2.3,2.505,0.8909929382281649,-0.006794541439862551,0.44007578859895574,0.0069725673422697245,-0.054475,-40.232719
11.185,2.0,1.0,1.0,33.0,34.8,34.8,3.5,2.3,2.5075,0.8882197827124144,-0.006956054926278947,0.4455013827516837,0.007036395419280567,-0.055043,-40.092281
11.185,2.0,1.0,1.0,33.0,34.8,34.8,3.5,2.3,2.51,0.8854016086518187,-0.00712136905333864,0.4509299434234078,0.0071005838241238765,-0.055624,-39.951106
11.185,2.0,1.0,1.0,33.0,34.8,34.8,3.5,2.3,2.5125,0.8825379358572494,-0.007290600630101352,0.45636135896328855,0.007165130544786121,-0.056217,-39.809172
11.185,2.0,1.0,1.0,33.0,34.8,34.8,3.5,2.3,2.515,0.879628273242058,-0.0074638713374109555,0.4617955141233031,0.007230033171654925,-0.056824,-39.666456
11.185,2.0,1.0,1.0,33.0,34.8,34.8,3.5,2.3,2.5175,0.8766721184522759,-0.007641307984123006,0.46723228991644594,0.007295288861602612,-0.057444,-39.522937
11.185,2.0,1.0,1.0,33.0,34.8,34.8,3.5,2.3,2.52,0.8736689574779914,-0.007823042779564087,0.47267156346841577,0.007360894298845321,-0.058079,-39.378591
11.185,2.0,1.0,1.0,33.0,34.8,34.8,3.5,2.3,2.5225,0.8706182642446327,-0.008009213623425167,0.47811320786234285,0.007426845652265582,-0.058728,-39.233394
11.185,2.0,1.0,1.0,33.0,34.8,34.8,3.5,2.3,2.525,0.8675195001827535,-0.008199964414394967,0.4835570919761207,0.00749313852885414,-0.059392,-39.087322
11.185,2.0,1.0,1.0,33.0,34.8,34.8,3.5,2.3,2.5275,0.8643721137748106,-0.008395445378950367,0.48900308031183115,0.007559767922888427,-0.060072,-38.94035
11.185,2.0,1.0,1.0,33.0,34.8,34.8,3.5,2.3,2.53,0.8611755400773053,-0.008595813421843812,0.49445103281672004,0.007626728160425865,-0.060768,-38.792452
11.185,2.0,1.0,1.0,33.0,34.8,34.8,3.5,2.3,2.5325,0.8579292002164995,-0.008801232499962912,0.4999008046951263,0.007694012838642637,-0.06148,-38.643601
11.185,2.0,1.0,1.0,33.0,34.8,34.8,3.5,2.3,2.535,0.8546325008557809,-0.009011874021385513,0.5053522462107221,0.007761614759497955,-0.062211,-38.49377
11.185,2.0,1.0,1.0,33.0,34.8,34.8,3.5,2.3,2.5375,0.8512848336325742,-0.009227917271616414,0.5108052024783314,0.007829525857145955,-0.062959,-38.34293
11.185,2.0,1.0,1.0,33.0,34.8,34.8,3.5,2.3,2.54,0.8478855745625103,-0.00944954986917144,0.5162595132445635,0.00789773711845326,-0.063725,-38.191053
11.185,2.0,1.0,1.0,33.0,34.8,34.8,3.5,2.3,2.5425,0.8444340834083607,-0.009676968252872904,0.5217150126563872,0.007966238495906266,-0.064511,-38.038109
11.185,2.0,1.0,1.0,33.0,34.8,34.8,3.5,2.3,2.545,0.8409297030110154,-0.009910378203437896,0.5271715290166976,0.008035018812112691,-0.065318,-37.884066
11.185,2.0,1.0,1.0,33.0,34.8,34.8,3.5,2.3,2.5475,0.8373717585795453,-0.010149995402182097,0.5326288845258297,0.00810406565500823,-0.066145,-37.728893
11.185,2.0,1.0,1.0,33.0,34.8,34.8,3.5,2.3,2.55,0.8337595569370841,-0.010396046029929244,0.5380868950078667,0.008173365262776849,-0.066994,-37.572557
11.185,2.0,1.0,1.0,33.0,34.8,34.8,3.5,2.3,2.5525,0.8300923857190108,-0.010648767409509022,0.5435453696204481,0.008242902397376028,-0.067865,-37.415023
11.185,2.0,1.0,1.0,33.0,34.8,34.8,3.5,2.3,2.555,0.8263695125195115,-0.010908408695554797,0.5490041105466746,0.008312660205426845,-0.06876,-37.256258
11.185,2.0,1.0,1.0,33.0,34.8,34.8,3.5,2.3,2.5575,0.8225901839822848,-0.01117523161567396,0.5544629126675262,0.008382620065079218,-0.069679,-37.096223
11.185,2.0,1.0,1.0,33.0,34.8,34.8,3.5,2.3,2.56,0.8187536248307014,-0.011449511267465106,0.5599215632130411,0.00845276141729437,-0.070624,-36.934882
11.185,2.0,1.0,1.0,33.0,34.8,34.8,3.5,2.3,2.5625,0.8148590368322801,-0.011731536976304212,0.5653798413903005,0.008523061579794381,-0.071596,-36.772195
11.185,2.0,1.0,1.0,33.0,34.8,34.8,3.5,2.3,2.565,0.8109055976918327,-0.012021613219318935,0.5708375179860543,0.008593495541712452,-0.072595,-36.608123
11.185,2.0,1.0,1.0,33.0,34.8,34.8,3.5,2.3,2.5675,0.8068924598670507,-0.01232006062152378,0.5762943549415304,0.008664035736728746,-0.073623,-36.442623
11.185,2.0,1.0,1.0,33.0,34.8,34.8,3.5,2.3,2.57,0.8028187492996739,-0.012627217030707724,0.5817501048967227,0.008734651792196865,-0.074681,-36.275653
11.185,2.0,1.0,1.0,33.0,34.8,34.8,3.5,2.3,2.5725,0.7986835640546677,-0.012943438678356027,0.5872045107010894,0.008805310251443385,-0.07577,-36.107168
11.185,2.0,1.0,1.0,33.0,34.8,34.8,3.5,2.3,2.575,0.794485972859042,-0.013269101434659362,0.5926573048872269,0.008875974266057718,-0.076893,-35.93712
11.185,2.0,1.0,1.0,33.0,34.8,34.8,3.5,2.3,2.5775,0.7902250135310523,-0.013604602166528939,0.5981082091036534,0.008946603254568579,-0.078049,-35.765462
11.185,2.0,1.0,1.0,33.0,34.8,34.8,3.5,2.3,2.58,0.7858996912895305,-0.01395036020850429,0.6035569335023392,0.009017152523424094,-0.079242,-35.592143
11.185,2.0,1.0,1.0,33.0,34.8,34.8,3.5,2.3,2.5825,0.7815089769319641,-0.01430681895753009,0.6090031760760615,0.009087572845639864,-0.080472,-35.417112
11.185,2.0,1.0,1.0,33.0,34.8,34.8,3.5,2.3,2.585,0.7770518048686931,-0.014674447603800565,0.6144466219400002,0.009157809991846379,-0.081742,-35.240313
11.185,2.0,1.0,1.0,33.0,34.8,34.8,3.5,2.3,2.5875,0.7725270709991714,-0.015053743011248568,0.619886942551265,0.00922780420773559,-0.083054,-35.061691
11.185,2.0,1.0,1.0,33.0,34.8,34.8,3.5,2.3,2.59,0.7679336304146477,-0.015445231762808728,0.6253237948591553,0.009297489631065302,-0.084408,-34.881186
11.185,2.0,1.0,1.0,33.0,34.8,34.8,3.5,2.3,2.5925,0.7632702949098097,-0.015849472387339247,0.6307568203779966,0.009366793640406271,-0.085809,-34.698738
11.185,2.0,1.0,1.0,33.0,34.8,34.8,3.5,2.3,2.595,0.7585358302839157,-0.016267057787068075,0.6361856441732057,0.009435636126688594,-0.087257,-34.514283
11.185,2.0,1.0,1.0,33.0,34.8,34.8,3.5,2.3,2.5975,0.7537289534096048,-0.01669861788667822,0.6416098737499556,0.009503928677298275,-0.088756,-34.327754
11.185,2.0,1.0,1.0,33.0,34.8,34.8,3.5,2.3,2.6,0.7488483290449861,-0.017144822527693303,0.6470290978322225,0.009571573660952596,-0.090308,-34.139081
11.185,2.0,1.0,1.0,33.0,34.8,34.8,3.5,2.3,2.6025,0.7438925663616214,-0.017606384634719266,0.6524428850182152,0.009638463199814045,-0.091916,-33.948192
11.185,2.0,1.0,1.0,33.0,34.8,34.8,3.5,2.3,2.605,0.7388602151576376,-0.01808406368339522,0.6578507822960984,0.009704478013235226,-0.093584,-33.755011
11.185,2.0,1.0,1.0,33.0,34.8,34.8,3.5,2.3,2.6075,0.7337497617213539,-0.018578669503660213,0.663252313401448,0.009769486115109768,-0.095313,-33.559458
11.185,2.0,1.0,1.0,33.0,34.8,34.8,3.5,2.3,2.61,0.7285596243064132,-0.01909106645623148,0.6686469769950134,0.009833341343970053,-0.097109,-33.361451
11.185,2.0,1.0,1.0,33.0,34.8,34.8,3.5,2.3,2.6125,0.7232881481743714,-0.01962217802509732,0.6740342446359864,0.009895881701643842,-0.098975,-33.160903
11.185,2.0,1.0,1.0,33.0,34.8,34.8,3.5,2.3,2.615,0.7179336001549338,-0.020172991874446624,0.6794135585220016,0.009956927472357843,-0.100915,-32.957722
11.185,2.0,1.0,1.0,33.0,34.8,34.8,3.5,2.3,2.6175,0.7124941626674317,-0.020744565424910807,0.6847843289623922,0.01001627908954736,-0.102933,-32.751813
11.185,2.0,1.0,1.0,33.0,34.8,34.8,3.5,2.3,2.62,0.7069679271395065,-0.02133803201141359,0.690145931545691,0.010073714712150104,-0.105034,-32.543075
11.185,2.0,1.0,1.0,33.0,34.8,34.8,3.5,2.3,2.6225,0.7013528867502222,-0.02195460769347522,0.6954977039557786,0.01012898746565696,-0.107225,-32.331403
11.185,2.0,1.0,1.0,33.0,34.8,34.8,3.5,2.3,2.625,0.695646928414721,-0.0225955987986834,0.700838942383226,0.0101818222954561,-0.109509,-32.116686
11.185,2.0,1.0,1.0,33.0,34.8,34.8,3.5,2.3,2.6275,0.6898478239158335,-0.023262410291460138,0.706168897469084,0.010231912370771932,-0.111894,-31.898806
11.185,2.0,1.0,1.0,33.0,34.8,34.8,3.5,2.3,2.63,0.6839532200745256,-0.02395655507247554,0.7114867697071425,0.010278914966453003,-0.114386,-31.677641
11.185,2.0,1.0,1.0,33.0,34.8,34.8,3.5,2.3,2.6325,0.677960627835333,-0.024679664329416918,0.7167917042173119,0.010322446736606816,-0.116993,-31.453062
11.185,2.0,1.0,1.0,33.0,34.8,34.8,3.5,2.3,2.635,0.6718674101246481,-0.025433499077680933,0.722082784786618,0.010362078278120381,-0.119723,-31.22493
11.185,2.0,1.0,1.0,33.0,34.8,34.8,3.5,2.3,2.6375,0.6656707683184139,-0.026219963050377052,0.727359027054819,0.010397327862837778,-0.122584,-30.993102
11.185,2.0,1.0,1.0,33.0,34.8,34.8,3.5,2.3,2.64,0.6593677271308683,-0.027041117121347165,0.7326193706980652,0.010427654193826043,-0.125586,-30.757424
11.185,2.0,1.0,1.0,33.0,34.8,34.8,3.5,2.3,2.6425,0.6529551177068791,-0.027899195473355436,0.737862670435305,0.010452448012789729,-0.128739,-30.517735
11.185,2.0,1.0,1.0,33.0,34.8,34.8,3.5,2.3,2.645,0.646429558666234,-0.028796623756964526,0.7430876856471776,0.010471022351094516,-0.132057,-30.273863
11.185,2.0,1.0,1.0,33.0,34.8,34.8,3.5,2.3,2.6475,0.6397874348081473,-0.02973603952480071,0.748293068354285,0.010482601174506926,-0.13555,-30.025625
11.185,2.0,1.0,1.0,33.0,34.8,34.8,3.5,2.3,2.65,0.6330248731370023,-0.03072031527202824,0.7534773492491308,0.010486306119719012,-0.139234,-29.772829
11.185,2.0,1.0,1.0,33.0,34.8,34.8,3.5,2.3,2.6525,0.6261377158147146,-0.03175258446821929,0.7586389214110748,0.010481140956549706,-0.143125,-29.515268
11.185,2.0,1.0,1.0,33.0,34.8,34.8,3.5,2.3,2.655,0.6191214895792997,-0.032836271030013256,0.7637760212533149,0.010465973330239572,-0.147239,-29.252723
11.185,2.0,1.0,1.0,33.0,34.8,34.8,3.5,2.3,2.6575,0.6119713710914969,-0.033975122759882806,0.7688867061509184,0.010439513239438668,-0.151597,-28.984961
11.185,2.0,1.0,1.0,33.0,34.8,34.8,3.5,2.3,2.66,0.6046821475791521,-0.03517324936623681,0.7739688280741082,0.010400287582082165,-0.15622,-28.711733
11.185,2.0,1.0,1.0,33.0,34.8,34.8,3.5,2.3,2.6625,0.5972481720398726,-0.03643516578666015,0.7790200023944077,0.01034660994656383,-0.161133,-28.432772
11.185,2.0,1.0,1.0,33.0,34.8,34.8,3.5,2.3,2.665,0.5896633121328323,-0.03776584166250018,0.7840375708338839,0.01027654463055707,-0.166364,-28.147792
11.185,2.0,1.0,1.0,33.0,34.8,34.8,3.5,2.3,2.6675,0.5819208917368675,-0.03917075796294773,0.7890185572777924,0.01018786362286311,-0.171943,-27.856488
11.185,2.0,1.0,1.0,33.0,34.8,34.8,3.5,2.3,2.67,0.574013623969513,-0.04065597193454854,0.793959614852853,0.010077994969388425,-0.177905,-27.558531
11.185,2.0,1.0,1.0,33.0,34.8,34.8,3.5,2.3,2.6725,0.565933534245532,-0.04222819176255244,0.7988569622664833,0.009943960542392593,-0.184291,-27.253567
11.185,2.0,1.0,1.0,33.0,34.8,34.8,3.5,2.3,2.675,0.55767187169806,-0.043894862579046186,0.8037063068789904,0.009782300715264019,-0.191145,-26.941217
11.185,2.0,1.0,1.0,33.0,34.8,34.8,3.5,2.3,2.6775,0.5492190069848881,-0.04566426574500829,0.8085027513039627,0.009588982776758171,-0.198519,-26.621069
11.185,2.0,1.0,1.0,33.0,34.8,34.8,3.5,2.3,2.68,0.5405643141509445,-0.04754563367462221,0.8132406794518554,0.009359289049536996,-0.206473,-26.29268
11.185,2.0,1.0,1.0,33.0,34.8,34.8,3.5,2.3,2.6825,0.5316960338111902,-0.049549282864465506,0.8179136167800691,0.009087679540974144,-0.215075,-25.955568
11.185,2.0,1.0,1.0,33.0,34.8,34.8,3.5,2.3,2.685,0.5226011144543211,-0.05168676823861288,0.822514057996761,0.00876762245793314,-0.224404,-25.609211
11.185,2.0,1.0,1.0,33.0,34.8,34.8,3.5,2.3,2.6875,0.5132650281515161,-0.05397106241803204,0.8270332534572726,0.008391383935581687,-0.234552,-25.253044
11.185,2.0,1.0,1.0,33.0,34.8,34.8,3.5,2.3,2.69,0.5036715564022367,-0.05641676405192565,0.8314609428144034,0.007949765688848764,-0.245625,-24.886448
11.185,2.0,1.0,1.0,33.0,34.8,34.8,3.5,2.3,2.6925,0.49380254129830653,-0.059040339871559204,0.8357850208900787,0.007431775750908833,-0.257751,-24.508749
11.185,2.0,1.0,1.0,33.0,34.8,34.8,3.5,2.3,2.695,0.48363759671364615,-0.06186040556749444,0.8399911158803974,0.006824212675643312,-0.271077,-24.119211
11.185,2.0,1.0,1.0,33.0,34.8,34.8,3.5,2.3,2.6975,0.47315377397123015,-0.06489805080722624,0.8440620534011939,0.0061111370705853145,-0.285779,-23.717027
11.185,2.0,1.0,1.0,33.0,34.8,34.8,3.5,2.3,2.7,0.46232517665708944,-0.06817721344620056,0.8479771708361363,0.005273195413788611,-0.302069,-23.301312
11.185,2.0,1.0,1.0,33.0,34.8,34.8,3.5,2.3,2.7025,0.4511225203968579,-0.07172510678889177,0.8517114339809881,0.0042867488256015124,-0.320199,-22.87109
11.185,2.0,1.0,1.0,33.0,34.8,34.8,3.5,2.3,2.705,0.4395126362793932,-0.07557270083631458,0.855234290682798,0.003122742435479383,-0.340475,-22.425292
11.185,2.0,1.0,1.0,33.0,34.8,34.8,3.5,2.3,2.7075,0.42745792259292387,-0.07975525243274571,0.8585081720477986,0.0017452272365659916,-0.363271,-21.962735
11.185,2.0,1.0,1.0,33.0,34.8,34.8,3.5,2.3,2.71,0.4149157610531519,-0.08431286769606133,0.8614865179831301,0.00010941305617150418,-0.389046,-21.482115
11.185,2.0,1.0,1.0,33.0,34.8,34.8,3.5,2.3,2.7125,0.4018379349773495,-0.08929105889428057,0.864111156316235,-0.0018409154621250071,-0.418368,-20.981995
11.185,2.0,1.0,1.0,33.0,34.8,34.8,3.5,2.3,2.715,0.38817012530216977,-0.0947412196829798,0.8663087979159203,-0.0041768536389247485,-0.451947,-20.460788
11.185,2.0,1.0,1.0,33.0,34.8,34.8,3.5,2.3,2.7175,0.37385162899495517,-0.10072087444943335,0.8679863166536469,-0.006989027980051271,-0.490682,-19.916749
11.185,2.0,1.0,1.0,33.0,34.8,34.8,3.5,2.3,2.72,0.3588155663241067,-0.107293436638942,0.8690243534357347,-0.010393896665584927,-0.535713,-19.347971
11.185,2.0,1.0,1.0,33.0,34.8,34.8,3.5,2.3,2.7225,0.3429900595395058,-0.11452699698016258,0.8692686083541014,-0.014542323744112372,-0.588514,-18.752379
11.185,2.0,1.0,1.0,33.0,34.8,34.8,3.5,2.3,2.725,0.3263012483992682,-0.12249128382871373,0.8685179598327731,-0.019631271527940357,-0.650998,-18.127754
11.185,2.0,1.0,1.0,33.0,34.8,34.8,3.5,2.3,2.7275,0.3086796860039776,-0.13125126791283925,0.8665082908977785,-0.02591970737073353,-0.725682,-17.471779
11.185,2.0,1.0,1.0,33.0,34.8,34.8,3.5,2.3,2.73,0.2900728548876739,-0.1408547026951759,0.8628906887167184,-0.03375002593422965,-0.815908,-16.782129
11.185,2.0,1.0,1.0,33.0,34.8,34.8,3.5,2.3,2.7325,0.2704686330261308,-0.15130883085671307,0.8572027567781016,-0.043576205202398625,-0.926156,-16.056666
11.185,2.0,1.0,1.0,33.0,34.8,34.8,3.5,2.3,2.735,0.249938101254237,-0.1625379791044524,0.8488327888012653,-0.055998900423401256,-1.062459,-15.293768
11.185,2.0,1.0,1.0,33.0,34.8,34.8,3.5,2.3,2.7375,0.2287118361028631,-0.17430810641810301,0.8369801017409767,-0.07180415046600458,-1.232945,-14.492929
11.185,2.0,1.0,1.0,33.0,34.8,34.8,3.5,2.3,2.74,0.2073120288546281,-0.18609633275989937,0.8206245805791506,-0.09199270396589951,-1.448426,-13.655781
11.185,2.0,1.0,1.0,33.0,34.8,34.8,3.5,2.3,2.7425,0.18677074682373504,-0.1968757249440172,0.7985419916762655,-0.1177637367465316,-1.722737,-12.787803
11.185,2.0,1.0,1.0,33.0,34.8,34.8,3.5,2.3,2.745,0.16895923439443541,-0.20479122062697036,0.7694512329845097,-0.1503677909335818,-2.071865,-11.901043
11.185,2.0,1.0,1.0,33.0,34.8,34.8,3.5,2.3,2.7475,0.15699292197876544,-0.20676247336117642,0.732463468377572,-0.1906613702737236,-2.509214,-11.018099
11.185,2.0,1.0,1.0,33.0,34.8,34.8,3.5,2.3,2.75,0.155471607290208,-0.198252428001269,0.688075171269587,-0.238125554997303,-3.031032,-10.176935
11.185,2.0,1.0,1.0,33.0,34.8,34.8,3.5,2.3,2.7525,0.16988756682076397,-0.1738609418638645,0.6397744702490347,-0.2892839009539255,-3.583542,-9.434275
11.185,2.0,1.0,1.0,33.0,34.8,34.8,3.5,2.3,2.755,0.20421882754939816,-0.12970919437478814,0.5954287244123883,-0.3363473418518252,-4.020409,-8.862103
11.185,2.0,1.0,1.0,33.0,34.8,34.8,3.5,2.3,2.7575,0.2568606903581794,-0.06744891813386185,0.5661213196526065,-0.36838883384280324,-4.128834,-8.530671
11.185,2.0,1.0,1.0,33.0,34.8,34.8,3.5,2.3,2.76,0.31837729498246875,0.0035545755334531683,0.5607572455634807,-0.3766844608827771,-3.811022,-8.480059
11.185,2.0,1.0,1.0,33.0,34.8,34.8,3.5,2.3,2.7625,0.3753505521811425,0.07006480566779691,0.5800995502066255,-0.36057271492447546,-3.211144,-8.69918
11.185,2.0,1.0,1.0,33.0,34.8,34.8,3.5,2.3,2.765,0.4178109753748804,0.12230768747583938,0.6168002679310944,-0.3273680544080265,-2.557003,-9.131812
11.185,2.0,1.0,1.0,33.0,34.8,34.8,3.5,2.3,2.7675,0.44285904529268705,0.15750090851697443,0.6610067360672606,-0.2868013117071754,-1.985592,-9.703666
11.185,2.0,1.0,1.0,33.0,34.8,34.8,3.5,2.3,2.77,0.45278520842696535,0.17796123344099102,0.7052105863911083,-0.24625209382754118,-1.534548,-10.347499
11.185,2.0,1.0,1.0,33.0,34.8,34.8,3.5,2.3,2.7725,0.451671719870596,0.18774455765963344,0.745450087555389,-0.20959049148537667,-1.193561,-11.014054
11.185,2.0,1.0,1.0,33.0,34.8,34.8,3.5,2.3,2.775,0.44329391766465065,0.1905848359018068,0.7803761337736324,-0.17811432944516406,-0.939364,-11.671891
11.185,2.0,1.0,1.0,33.0,34.8,34.8,3.5,2.3,2.7775,0.43045205983409773,0.18924534269014634,0.8100303782145288,-0.15175835305974406,-0.749778,-12.302949
11.185,2.0,1.0,1.0,33.0,34.8,34.8,3.5,2.3,2.78,0.41501294649836284,0.18556608571422809,0.8350198855664946,-0.12990696168861698,-0.607334,-12.89793
11.185,2.0,1.0,1.0,33.0,34.8,34.8,3.5,2.3,2.7825,0.3981502885058364,0.18070384071693968,0.8560901879155449,-0.11181289151559393,-0.499205,-13.452845
11.185,2.0,1.0,1.0,33.0,34.8,34.8,3.5,2.3,2.785,0.3805751610733908,0.1753605221645171,0.873942752166639,-0.0967752412268191,-0.416209,-13.966741
11.185,2.0,1.0,1.0,33.0,34.8,34.8,3.5,2.3,2.7875,0.3627053421146507,0.16995044018845537,0.8891745761989909,-0.08419768422553607,-0.351812,-14.440306
11.185,2.0,1.0,1.0,33.0,34.8,34.8,3.5,2.3,2.79,0.3447775080347444,0.16471089647030535,0.9022708986395086,-0.07359479999068157,-0.30135,-14.875041
11.185,2.0,1.0,1.0,33.0,34.8,34.8,3.5,2.3,2.7925,0.32691812769105044,0.15977197479736113,0.913617565737935,-0.06457934676510313,-0.261462,-15.27279
11.185,2.0,1.0,1.0,33.0,34.8,34.8,3.5,2.3,2.795,0.309187269572071,0.15519963462982816,0.9235184077728656,-0.05684479009640284,-0.229704,-15.63547
11.185,2.0,1.0,1.0,33.0,34.8,34.8,3.5,2.3,2.7975,0.2916053947625108,0.15102206946297858,0.9322118818955739,-0.05014866595232638,-0.204276,-15.964925
11.185,2.0,1.0,1.0,33.0,34.8,34.8,3.5,2.3,2.8,0.27416966320084873,0.14724577241795778,0.9398851489357316,-0.04429853325066437,-0.183838,-16.26285
11.185,2.0,1.0,1.0,33.0,34.8,34.8,3.5,2.3,2.8025,0.2568638203485518,0.14386531789065526,0.9466853389676338,-0.0391407257000287,-0.167382,-16.530757
11.185,2.0,1.0,1.0,33.0,34.8,34.8,3.5,2.3,2.805,0.2396641558857398,0.14086931345054637,0.9527283250099177,-0.034551567946031946,-0.154141,-16.769961
11.185,2.0,1.0,1.0,33.0,34.8,34.8,3.5,2.3,2.8075,0.22254305209737943,0.13824401705482967,0.9581054637500916,-0.03043058994542893,-0.143528,-16.98158
11.185,2.0,1.0,1.0,33.0,34.8,34.8,3.5,2.3,2.81,0.20547104620847512,0.1359755315199631,0.9628887402607311,-0.026695298354224472,-0.13509,-17.166539
11.185,2.0,1.0,1.0,33.0,34.8,34.8,3.5,2.3,2.8125,0.188417970721945,0.134051135253418,0.967134681723226,-0.0232771358573355,-0.128475,-17.325576
11.185,2.0,1.0,1.0,33.0,34.8,34.8,3.5,2.3,2.815,0.1713535166306129,0.13246009450148924,0.9708873273110233,-0.02011833593892312,-0.123408,-17.459253
11.185,2.0,1.0,1.0,33.0,34.8,34.8,3.5,2.3,2.8175,0.15424743013757897,0.13119417259766314,0.9741804728763689,-0.017169446833293953,-0.119676,-17.567957
11.185,2.0,1.0,1.0,33.0,34.8,34.8,3.5,2.3,2.82,0.13706947047602622,0.13024797278121586,0.9770393533998327,-0.014387350944983581,-0.117114,-17.65191
11.185,2.0,1.0,1.0,33.0,34.8,34.8,3.5,2.3,2.8225,0.11978920427795291,0.1296192033048211,0.9794818823353733,-0.011733645708126387,-0.115596,-17.711169
11.185,2.0,1.0,1.0,33.0,34.8,34.8,3.5,2.3,2.825,0.10237567843147158,0.12930892494107107,0.9815195326852768,-0.009173280664871952,-0.115029,-17.745628
11.185,2.0,1.0,1.0,33.0,34.8,34.8,3.5,2.3,2.8275,0.08479699097713403,0.12932182458383476,0.9831579173532026,-0.006673365452846498,-0.115347,-17.755014
11.185,2.0,1.0,1.0,33.0,34.8,34.8,3.5,2.3,2.83,0.0670197636243816,0.12966655026376714,0.9843971037144869,-0.004202075919233064,-0.11651,-17.738882
