1,w,sub_t,h,l1,l2,l3,g1,g2,Freq,S11_re,S21_re,S11_img,S21_img,S11_dB,S21_dB
11.185,2.0,1.0,1.0,33.0,34.0,34.0,1.8,3.9,2.5,0.895845900167821,-0.00684759536916346,0.429539226850017,0.00712926495479028,-0.056636,-40.100344
11.185,2.0,1.0,1.0,33.0,34.0,34.0,1.8,3.9,2.5025,0.8930490034943662,-0.007002514898317467,0.43517826650249225,0.00718343134723069,-0.057195,-39.972427
11.185,2.0,1.0,1.0,33.0,34.0,34.0,1.8,3.9,2.505,0.8902036935415775,-0.007160589397033205,0.4408225354231158,0.00723743136578441,-0.057765,-39.84412
11.185,2.0,1.0,1.0,33.0,34.0,34.0,1.8,3.9,2.5075,0.8873094336698529,-0.007321892875294237,0.4464719092774005,0.007291242821701402,-0.058346,-39.715413
11.185,2.0,1.0,1.0,33.0,34.0,34.0,1.8,3.9,2.51,0.8843656766973778,-0.007486501522015567,0.45212625880120455,0.007344842440459245,-0.058938,-39.586294
11.185,2.0,1.0,1.0,33.0,34.0,34.0,1.8,3.9,2.5125,0.8813718646491879,-0.00765449378209184,0.45778544960118245,0.007398205808144508,-0.05954,-39.456753
11.185,2.0,1.0,1.0,33.0,34.0,34.0,1.8,3.9,2.515,0.8783274284989637,-0.007825950436615867,0.463449341947051,0.007451307314962761,-0.060155,-39.326781
11.185,2.0,1.0,1.0,33.0,34.0,34.0,1.8,3.9,2.5175,0.875231787903312,-0.008000954686415358,0.4691177905552912,0.007504120095708019,-0.060781,-39.196366
11.185,2.0,1.0,1.0,33.0,34.0,34.0,1.8,3.9,2.52,0.8720843509282451,-0.008179592239064738,0.4747906443638892,0.007556615967010237,-0.061419,-39.065497
11.185,2.0,1.0,1.0,33.0,34.0,34.0,1.8,3.9,2.5225,0.8688845137675999,-0.008361951399536792,0.4804677462976884,0.007608765361169039,-0.06207,-38.934163
11.185,2.0,1.0,1.0,33.0,34.0,34.0,1.8,3.9,2.525,0.8656316604530875,-0.008548123164666927,0.4861489330239245,0.007660537256367326,-0.062733,-38.802354
11.185,2.0,1.0,1.0,33.0,34.0,34.0,1.8,3.9,2.5275,0.8623251625556705,-0.00873820132161369,0.4918340346974668,0.00771189910304668,-0.06341,-38.670057
11.185,2.0,1.0,1.0,33.0,34.0,34.0,1.8,3.9,2.53,0.8589643788779544,-0.008932282550506907,0.49752287469527673,0.007762816746210095,-0.0641,-38.537262
11.185,2.0,1.0,1.0,33.0,34.0,34.0,1.8,3.9,2.5325,0.8555486551372515,-0.009130466531486987,0.5032152693395614,0.007813254343402827,-0.064804,-38.403956
11.185,2.0,1.0,1.0,33.0,34.0,34.0,1.8,3.9,2.535,0.8520773236389757,-0.009332856056348364,0.508911027609088,0.007863174278104963,-0.065522,-38.270128
11.185,2.0,1.0,1.0,33.0,34.0,34.0,1.8,3.9,2.5375,0.8485497029399959,-0.00953955714501276,0.514609950838052,0.007912537068250864,-0.066255,-38.135766
11.185,2.0,1.0,1.0,33.0,34.0,34.0,1.8,3.9,2.54,0.8449650975015754,-0.009750679167069506,0.5203118324019187,0.007961301269571197,-0.067003,-38.000857
11.185,2.0,1.0,1.0,33.0,34.0,34.0,1.8,3.9,2.5425,0.8413227973314925,-0.009966334968633462,0.5260164573895711,0.008009423373432498,-0.067766,-37.865388
11.185,2.0,1.0,1.0,33.0,34.0,34.0,1.8,3.9,2.545,0.8376220776149246,-0.010186641004784745,0.531723602261089,0.008056857698826178,-0.068545,-37.729348
11.185,2.0,1.0,1.0,33.0,34.0,34.0,1.8,3.9,2.5475,0.8338621983336696,-0.010411717477868903,0.537433034490429,0.00810355627813403,-0.069341,-37.592724
11.185,2.0,1.0,1.0,33.0,34.0,34.0,1.8,3.9,2.55,0.8300424038732283,-0.010641688481951982,0.5431445121922469,0.008149468736272336,-0.070153,-37.455501
11.185,2.0,1.0,1.0,33.0,34.0,34.0,1.8,3.9,2.5525,0.8261619226172934,-0.010876682153740748,0.5488577837320425,0.008194542162786974,-0.070983,-37.317668
11.185,2.0,1.0,1.0,33.0,34.0,34.0,1.8,3.9,2.555,0.8222199665291275,-0.011116830830296262,0.5545725873187722,0.00823872097644133,-0.071831,-37.179209
11.185,2.0,1.0,1.0,33.0,34.0,34.0,1.8,3.9,2.5575,0.8182157307193033,-0.011362271213887007,0.5602886505790158,0.008281946781807457,-0.072696,-37.040112
11.185,2.0,1.0,1.0,33.0,34.0,34.0,1.8,3.9,2.56,0.8141483929992707,-0.01161314454434732,0.5660056901117312,0.008324158217332652,-0.073581,-36.900363
11.185,2.0,1.0,1.0,33.0,34.0,34.0,1.8,3.9,2.5625,0.8100171134201601,-0.011869596779327569,0.5717234110225636,0.008365290794317776,-0.074485,-36.759946
11.185,2.0,1.0,1.0,33.0,34.0,34.0,1.8,3.9,2.565,0.8058210337962213,-0.012131778782845005,0.577441506436631,0.00840527672619972,-0.075409,-36.618848
11.185,2.0,1.0,1.0,33.0,34.0,34.0,1.8,3.9,2.5675,0.8015592772122648,-0.012399846522565766,0.5831596569886125,0.008444044747487136,-0.076354,-36.477054
11.185,2.0,1.0,1.0,33.0,34.0,34.0,1.8,3.9,2.57,0.7972309475144357,-0.012673961276275845,0.5888775302889137,0.008481519921648578,-0.07732,-36.334548
11.185,2.0,1.0,1.0,33.0,34.0,34.0,1.8,3.9,2.5725,0.7928351287836252,-0.01295428984802221,0.5945947803646098,0.008517623437200467,-0.078308,-36.191314
11.185,2.0,1.0,1.0,33.0,34.0,34.0,1.8,3.9,2.575,0.7883708847907761,-0.01324100479443539,0.6003110470737453,0.008552272391184279,-0.079319,-36.047338
11.185,2.0,1.0,1.0,33.0,34.0,34.0,1.8,3.9,2.5775,0.7838372584333252,-0.013534284661772393,0.6060259554915368,0.008585379559161065,-0.080352,-35.902602
11.185,2.0,1.0,1.0,33.0,34.0,34.0,1.8,3.9,2.58,0.7792332711519582,-0.013834314234251133,0.6117391152668613,0.008616853150783949,-0.08141,-35.757091
11.185,2.0,1.0,1.0,33.0,34.0,34.0,1.8,3.9,2.5825,0.7745579223268328,-0.014141284794280763,0.6174501199473739,0.008646596549936252,-0.082493,-35.610788
11.185,2.0,1.0,1.0,33.0,34.0,34.0,1.8,3.9,2.585,0.769810188652375,-0.014455394395226343,0.6231585462714314,0.008674508038344395,-0.083601,-35.463675
11.185,2.0,1.0,1.0,33.0,34.0,34.0,1.8,3.9,2.5875,0.7649890234896999,-0.014776848147385096,0.6288639534249111,0.008700480501487739,-0.084735,-35.315735
11.185,2.0,1.0,1.0,33.0,34.0,34.0,1.8,3.9,2.59,0.7600933561956769,-0.015105858517889178,0.6345658822608603,0.008724401115535083,-0.085897,-35.16695
11.185,2.0,1.0,1.0,33.0,34.0,34.0,1.8,3.9,2.5925,0.7551220914275878,-0.015442645645293717,0.6402638544797954,0.008746151013934942,-0.087087,-35.017302
11.185,2.0,1.0,1.0,33.0,34.0,34.0,1.8,3.9,2.595,0.7500741084222926,-0.015787437669651443,0.6459573717682763,0.00876560493217717,-0.088306,-34.866771
11.185,2.0,1.0,1.0,33.0,34.0,34.0,1.8,3.9,2.5975,0.74494826024874,-0.016140471078923187,0.6516459148932743,0.008782630829121745,-0.089555,-34.71534
11.185,2.0,1.0,1.0,33.0,34.0,34.0,1.8,3.9,2.6,0.7397433730326122,-0.016501991072623942,0.6573289427496106,0.008797089483159682,-0.090835,-34.562988
11.185,2.0,1.0,1.0,33.0,34.0,34.0,1.8,3.9,2.6025,0.7344582451518291,-0.01687225194365428,0.663005891357586,0.008808834061328251,-0.092148,-34.409695
11.185,2.0,1.0,1.0,33.0,34.0,34.0,1.8,3.9,2.605,0.7290916464015648,-0.017251517479326847,0.6686761728077196,0.008817709659345486,-0.093493,-34.255441
11.185,2.0,1.0,1.0,33.0,34.0,34.0,1.8,3.9,2.6075,0.723642317127355,-0.017640061382652002,0.6743391741492474,0.008823552810358503,-0.094873,-34.100204
11.185,2.0,1.0,1.0,33.0,34.0,34.0,1.8,3.9,2.61,0.7181089673248157,-0.01803816771501251,0.6799942562188162,0.008826190960013615,-0.096289,-33.943964
11.185,2.0,1.0,1.0,33.0,34.0,34.0,1.8,3.9,2.6125,0.7124902757043926,-0.01844613136142111,0.6856407524055425,0.00882544190525211,-0.097741,-33.786698
11.185,2.0,1.0,1.0,33.0,34.0,34.0,1.8,3.9,2.615,0.7067848887194873,-0.018864258519625126,0.6912779673482915,0.008821113194011621,-0.099232,-33.628383
11.185,2.0,1.0,1.0,33.0,34.0,34.0,1.8,3.9,2.6175,0.7009914195562287,-0.019292867214394074,0.6969051755607252,0.008813001482769296,-0.100762,-33.468997
11.185,2.0,1.0,1.0,33.0,34.0,34.0,1.8,3.9,2.62,0.6951084470830494,-0.019732287838405277,0.702521619979336,0.008800891848594242,-0.102333,-33.308516
11.185,2.0,1.0,1.0,33.0,34.0,34.0,1.8,3.9,2.6225,0.689134514758132,-0.020182863721220853,0.7081265104292822,0.008784557052081796,-0.103947,-33.146915
11.185,2.0,1.0,1.0,33.0,34.0,34.0,1.8,3.9,2.625,0.683068129492716,-0.0206449517279358,0.713719022002445,0.00876375674722164,-0.105605,-32.984169
11.185,2.0,1.0,1.0,33.0,34.0,34.0,1.8,3.9,2.6275,0.6769077604680993,-0.02111892288916615,0.7192982933416859,0.00873823663389417,-0.107308,-32.820254
11.185,2.0,1.0,1.0,33.0,34.0,34.0,1.8,3.9,2.63,0.6706518379041109,-0.0216051630641368,0.7248634248247693,0.008707727548301987,-0.109059,-32.655141
11.185,2.0,1.0,1.0,33.0,34.0,34.0,1.8,3.9,2.6325,0.6642987517766822,-0.022104073638727975,0.7304134766409132,0.008671944486213435,-0.11086,-32.488806
11.185,2.0,1.0,1.0,33.0,34.0,34.0,1.8,3.9,2.635,0.6578468504820328,-0.022616072260436628,0.7359474667523087,0.008630585553422148,-0.112711,-32.321219
11.185,2.0,1.0,1.0,33.0,34.0,34.0,1.8,3.9,2.6375,0.6512944394448786,-0.023141593612315905,0.7414643687323378,0.0085833308373077,-0.114616,-32.152352
11.185,2.0,1.0,1.0,33.0,34.0,34.0,1.8,3.9,2.64,0.6446397796679063,-0.023681090228061016,0.7469631094714978,0.00852984119280676,-0.116577,-31.982176
11.185,2.0,1.0,1.0,33.0,34.0,34.0,1.8,3.9,2.6425,0.6378810862196682,-0.02423503335051964,0.7524425667412802,0.00846975693547123,-0.118594,-31.810661
11.185,2.0,1.0,1.0,33.0,34.0,34.0,1.8,3.9,2.645,0.6310165266578863,-0.024803913836017353,0.757901566605382,0.008402696433589514,-0.120672,-31.637775
11.185,2.0,1.0,1.0,33.0,34.0,34.0,1.8,3.9,2.6475,0.6240442193850387,-0.025388243107000802,0.7633388806667257,0.008328254590573497,-0.122813,-31.463488
11.185,2.0,1.0,1.0,33.0,34.0,34.0,1.8,3.9,2.65,0.6169622319329302,-0.02598855415561529,0.7687532231377083,0.008246001207955997,-0.125018,-31.287766
11.185,2.0,1.0,1.0,33.0,34.0,34.0,1.8,3.9,2.6525,0.6097685791728766,-0.02660540260094271,0.7741432477199838,0.008155479218396175,-0.127291,-31.110575
11.185,2.0,1.0,1.0,33.0,34.0,34.0,1.8,3.9,2.655,0.6024612214479105,-0.027239367802738234,0.779507544278832,0.0080562027770368,-0.129635,-30.931881
11.185,2.0,1.0,1.0,33.0,34.0,34.0,1.8,3.9,2.6575,0.5950380626233608,-0.02789105403460292,0.7848446352957843,0.00794765519839068,-0.132053,-30.751647
11.185,2.0,1.0,1.0,33.0,34.0,34.0,1.8,3.9,2.66,0.5874969480519866,-0.028561091719629606,0.7901529720816611,0.007829286724638361,-0.134547,-30.569837
11.185,2.0,1.0,1.0,33.0,34.0,34.0,1.8,3.9,2.6625,0.5798356624497644,-0.029250138731638023,0.7954309307304763,0.007700512109774946,-0.137122,-30.386413
11.185,2.0,1.0,1.0,33.0,34.0,34.0,1.8,3.9,2.665,0.5720519276782907,-0.02995888176519033,0.8006768077928254,0.007560708002443216,-0.139781,-30.201336
11.185,2.0,1.0,1.0,33.0,34.0,34.0,1.8,3.9,2.6675,0.5641434004297281,-0.030688037777618662,0.8058888156452629,0.007409210108502127,-0.142527,-30.014564
11.185,2.0,1.0,1.0,33.0,34.0,34.0,1.8,3.9,2.67,0.5561076698101262,-0.03143835550632459,0.8110650775299173,0.007245310112389468,-0.145366,-29.826057
11.185,2.0,1.0,1.0,33.0,34.0,34.0,1.8,3.9,2.6725,0.5479422548169544,-0.03221061706459291,0.8162036222360256,0.007068252334113905,-0.1483,-29.635771
11.185,2.0,1.0,1.0,33.0,34.0,34.0,1.8,3.9,2.675,0.5396446017066971,-0.033005639619106124,0.8213023783922149,0.006877230096231114,-0.151335,-29.443662
11.185,2.0,1.0,1.0,33.0,34.0,34.0,1.8,3.9,2.6775,0.5312120812484394,-0.03382427715223556,0.8263591683352253,0.006671381772381734,-0.154476,-29.249683
11.185,2.0,1.0,1.0,33.0,34.0,34.0,1.8,3.9,2.68,0.5226419858595122,-0.03466742231200374,0.8313717015172298,0.00644978648586266,-0.157727,-29.053787
11.185,2.0,1.0,1.0,33.0,34.0,34.0,1.8,3.9,2.6825,0.5139315266195056,-0.03553600835234594,0.8363375674099716,0.006211459423223117,-0.161095,-28.855925
11.185,2.0,1.0,1.0,33.0,34.0,34.0,1.8,3.9,2.685,0.5050778301592789,-0.03643101116592966,0.8412542278595599,0.005955346723973305,-0.164584,-28.656046
11.185,2.0,1.0,1.0,33.0,34.0,34.0,1.8,3.9,2.6875,0.4960779354220716,-0.03735345141128754,0.8461190088408479,0.005680319903111046,-0.168201,-28.454098
11.185,2.0,1.0,1.0,33.0,34.0,34.0,1.8,3.9,2.69,0.4869287902944519,-0.03830439673535736,0.850929091554799,0.00538516975824766,-0.171953,-28.250026
11.185,2.0,1.0,1.0,33.0,34.0,34.0,1.8,3.9,2.6925,0.4776272481056331,-0.039284964091667075,0.855681502806118,0.005068599707573434,-0.175846,-28.043773
11.185,2.0,1.0,1.0,33.0,34.0,34.0,1.8,3.9,2.695,0.46817006399480443,-0.04029632215330057,0.8603731045914561,0.004729218498666997,-0.179889,-27.835282
11.185,2.0,1.0,1.0,33.0,34.0,34.0,1.8,3.9,2.6975,0.4585538911474164,-0.041339693818393766,0.8650005828207724,0.00436553222111615,-0.184089,-27.624492
11.185,2.0,1.0,1.0,33.0,34.0,34.0,1.8,3.9,2.7,0.4487752769031523,-0.04241635880415347,0.8695604350856512,0.00397593554798788,-0.188455,-27.41134
11.185,2.0,1.0,1.0,33.0,34.0,34.0,1.8,3.9,2.7025,0.4388306587404248,-0.04352765632320965,0.8740489573785488,0.0035587021222166174,-0.192996,-27.195762
11.185,2.0,1.0,1.0,33.0,34.0,34.0,1.8,3.9,2.705,0.42871636014498016,-0.04467498783338512,0.878462229655842,0.0031119739938503944,-0.197722,-26.977689
11.185,2.0,1.0,1.0,33.0,34.0,34.0,1.8,3.9,2.7075,0.4184285863735211,-0.04585981984859872,0.8827961001250175,0.0026337500026198347,-0.202644,-26.757053
11.185,2.0,1.0,1.0,33.0,34.0,34.0,1.8,3.9,2.71,0.407963420127451,-0.04708368679445046,0.8870461681221945,0.0021218729873054214,-0.207772,-26.533779
11.185,2.0,1.0,1.0,33.0,34.0,34.0,1.8,3.9,2.7125,0.3973168171569466,-0.04834819388690836,0.8912077654301852,0.0015740156886392782,-0.21312,-26.307794
11.185,2.0,1.0,1.0,33.0,34.0,34.0,1.8,3.9,2.715,0.3864846018219328,-0.04965502000620555,0.8952759358691603,0.0009876651957580179,-0.2187,-26.079019
11.185,2.0,1.0,1.0,33.0,34.0,34.0,1.8,3.9,2.7175,0.3754624626442796,-0.051005920530310216,0.8992454129714892,0.00036010576722315696,-0.224527,-25.847372
11.185,2.0,1.0,1.0,33.0,34.0,34.0,1.8,3.9,2.72,0.36424594789514986,-0.052402730082827226,0.9031105955290195,-0.0003116001639710448,-0.230616,-25.612768
11.185,2.0,1.0,1.0,33.0,34.0,34.0,1.8,3.9,2.7225,0.35283046127309,-0.053847365138548806,0.9068655207746769,-0.0010306330165577747,-0.236984,-25.37512
11.185,2.0,1.0,1.0,33.0,34.0,34.0,1.8,3.9,2.725,0.34121125774291744,-0.05534182641559691,0.9105038349302018,-0.0018004393614592222,-0.243649,-25.134336
11.185,2.0,1.0,1.0,33.0,34.0,34.0,1.8,3.9,2.7275,0.32938343962299554,-0.056888200965640796,0.9140187608177638,-0.002624757771558626,-0.250631,-24.890321
11.185,2.0,1.0,1.0,33.0,34.0,34.0,1.8,3.9,2.73,0.3173419530301693,-0.05848866385225847,0.9174030621943408,-0.003507647532124315,-0.25795,-24.642974
11.185,2.0,1.0,1.0,33.0,34.0,34.0,1.8,3.9,2.7325,0.30508158481803543,-0.06014547928130692,0.920649004423595,-0.004453520564654319,-0.26563,-24.392194
11.185,2.0,1.0,1.0,33.0,34.0,34.0,1.8,3.9,2.735,0.29259696017673026,-0.06186100101502894,0.923748311049676,-0.005467176964157959,-0.273696,-24.137871
11.185,2.0,1.0,1.0,33.0,34.0,34.0,1.8,3.9,2.7375,0.27988254110217975,-0.06363767186223526,0.9266921157801168,-0.006553844603780653,-0.282175,-23.879894
11.185,2.0,1.0,1.0,33.0,34.0,34.0,1.8,3.9,2.74,0.2669326259916474,-0.06547802198854989,0.9294709093197848,-0.007719223322123369,-0.291098,-23.618146
11.185,2.0,1.0,1.0,33.0,34.0,34.0,1.8,3.9,2.7425,0.25374135068238185,-0.06738466573135017,0.9320744804236525,-0.008969534278649292,-0.300497,-23.352503
11.185,2.0,1.0,1.0,33.0,34.0,34.0,1.8,3.9,2.745,0.24030269132397203,-0.06936029653104321,0.9344918504517287,-0.010311575142326728,-0.310408,-23.08284
11.185,2.0,1.0,1.0,33.0,34.0,34.0,1.8,3.9,2.7475,0.22661046956576802,-0.07140767950053015,0.9367112006136165,-0.01175278186937803,-0.320871,-22.809021
11.185,2.0,1.0,1.0,33.0,34.0,34.0,1.8,3.9,2.75,0.212658360652566,-0.0735296410440779,0.938719790981365,-0.0133012979290057,-0.331928,-22.530909
11.185,2.0,1.0,1.0,33.0,34.0,34.0,1.8,3.9,2.7525,0.19843990515969243,-0.07572905480037824,0.9405038702261704,-0.014966051952628576,-0.343628,-22.248359
11.185,2.0,1.0,1.0,33.0,34.0,34.0,1.8,3.9,2.755,0.18394852526895572,-0.0780088230160696,0.94204857489557,-0.016756844913853694,-0.356024,-21.961219
11.185,2.0,1.0,1.0,33.0,34.0,34.0,1.8,3.9,2.7575,0.16917754669751128,-0.08037185224764967,0.9433378168916527,-0.018684448094431365,-0.369174,-21.66933
11.185,2.0,1.0,1.0,33.0,34.0,34.0,1.8,3.9,2.76,0.15412022765251365,-0.08282102203171214,0.9443541576363846,-0.020760713256812977,-0.383142,-21.372529
11.185,2.0,1.0,1.0,33.0,34.0,34.0,1.8,3.9,2.7625,0.1387697965076252,-0.08535914484359819,0.9450786672166291,-0.022998696627278725,-0.398001,-21.070641
11.185,2.0,1.0,1.0,33.0,34.0,34.0,1.8,3.9,2.765,0.1231195002988087,-0.08798891526746191,0.945490766588932,-0.025412798494697558,-0.41383,-20.763489
11.185,2.0,1.0,1.0,33.0,34.0,34.0,1.8,3.9,2.7675,0.10716266663560915,-0.09071284580716263,0.9455680506939725,-0.028018920447377842,-0.430718,-20.450882
11.185,2.0,1.0,1.0,33.0,34.0,34.0,1.8,3.9,2.77,0.09089278224479447,-0.0935331861531307,0.9452860900859725,-0.03083464250067079,-0.448766,-20.132626
11.185,2.0,1.0,1.0,33.0,34.0,34.0,1.8,3.9,2.7725,0.0743035921365106,-0.09645182195505045,0.9446182084297916,-0.033879422604482935,-0.468085,-19.808517
11.185,2.0,1.0,1.0,33.0,34.0,34.0,1.8,3.9,2.775,0.057389224347237734,-0.09947014819589464,0.943535232968699,-0.037174821251523306,-0.4888,-19.478342
11.185,2.0,1.0,1.0,33.0,34.0,34.0,1.8,3.9,2.7775,0.040144346416891796,-0.10258891107199512,0.942005214836709,-0.04074475411604887,-0.511054,-19.14188
11.185,2.0,1.0,1.0,33.0,34.0,34.0,1.8,3.9,2.78,0.022564361259187732,-0.10580801079721927,0.9399931159085387,-0.04461577581123948,-0.535005,-18.798901
11.185,2.0,1.0,1.0,33.0,34.0,34.0,1.8,3.9,2.7825,0.004645651959134135,-0.10912625589344933,0.9374604587899186,-0.048817397918708434,-0.560834,-18.449168
11.185,2.0,1.0,1.0,33.0,34.0,34.0,1.8,3.9,2.785,-0.013614112629360936,-0.11254105721386365,0.93436493661444,-0.05338244435275894,-0.588747,-18.092433
11.185,2.0,1.0,1.0,33.0,34.0,34.0,1.8,3.9,2.7875,-0.032215596697257154,-0.11604804705930548,0.9306599796239986,-0.0583474467811222,-0.618978,-17.728444
11.185,2.0,1.0,1.0,33.0,34.0,34.0,1.8,3.9,2.79,-0.051157322290644604,-0.11964060515806868,0.9262942762052571,-0.06375308209625409,-0.651794,-17.35694
11.185,2.0,1.0,1.0,33.0,34.0,34.0,1.8,3.9,2.7925,-0.07043507720582613,-0.12330926882810592,0.9212112473336889,-0.0696446526180557,-0.6875,-16.977653
11.185,2.0,1.0,1.0,33.0,34.0,34.0,1.8,3.9,2.795,-0.09004117750761721,-0.12704099914728265,0.9153484755267929,-0.07607260752388974,-0.726449,-16.590315
11.185,2.0,1.0,1.0,33.0,34.0,34.0,1.8,3.9,2.7975,-0.10996354940534807,-0.13081826822372714,0.9086370928406918,-0.08309310053500653,-0.769046,-16.194653
11.185,2.0,1.0,1.0,33.0,34.0,34.0,1.8,3.9,2.8,-0.13018458696050553,-0.13461792448467436,0.9010011377448652,-0.09076857355724627,-0.815759,-15.790394
11.185,2.0,1.0,1.0,33.0,34.0,34.0,1.8,3.9,2.8025,-0.15067973220884295,-0.13840978311817176,0.8923568987052641,-0.09916834795528705,-0.867133,-15.377274
11.185,2.0,1.0,1.0,33.0,34.0,34.0,1.8,3.9,2.805,-0.17141571267431518,-0.14215487732701107,0.8826122741538042,-0.10836919328273384,-0.923803,-14.955034
11.185,2.0,1.0,1.0,33.0,34.0,34.0,1.8,3.9,2.8075,-0.19234835804458697,-0.1458032930036703,0.8716661958243936,-0.11845582600211817,-0.986508,-14.523436
11.185,2.0,1.0,1.0,33.0,34.0,34.0,1.8,3.9,2.81,-0.21341990346011816,-0.149291495302597,0.8594081873780238,-0.12952126583703272,-1.056117,-14.082265
11.185,2.0,1.0,1.0,33.0,34.0,34.0,1.8,3.9,2.8125,-0.234555672616986,-0.152539041546594,0.845718165745016,-0.141666941999062,-1.133651,-13.631343
11.185,2.0,1.0,1.0,33.0,34.0,34.0,1.8,3.9,2.815,-0.25566002204904453,-0.1554445633012321,0.8304666424800913,-0.15500239185190698,-1.220318,-13.170543
11.185,2.0,1.0,1.0,33.0,34.0,34.0,1.8,3.9,2.8175,-0.2766114228333928,-0.15788089556277451,0.8135155513844725,-0.1696443259191682,-1.317545,-12.699806
11.185,2.0,1.0,1.0,33.0,34.0,34.0,1.8,3.9,2.82,-0.29725656495987096,-0.15968924019950503,0.794720022182431,-0.18571474006896438,-1.427029,-12.219167
11.185,2.0,1.0,1.0,33.0,34.0,34.0,1.8,3.9,2.8225,-0.3174034049187632,-0.1606722861953539,0.7739315437075637,-0.20333763270532296,-1.550788,-11.728778
11.185,2.0,1.0,1.0,33.0,34.0,34.0,1.8,3.9,2.825,-0.33681315796114003,-0.16058629002555488,0.7510031178163747,-0.2226337279468046,-1.691235,-11.228952
11.185,2.0,1.0,1.0,33.0,34.0,34.0,1.8,3.9,2.8275,-0.35519139206779976,-0.15913227456205287,0.7257971959681314,-0.2437124162315909,-1.851251,-10.720201
11.185,2.0,1.0,1.0,33.0,34.0,34.0,1.8,3.9,2.83,-0.3721786524518075,-0.15594677552153238,0.6981974012895394,-0.2666599143096208,-2.034281,-10.203292
