1,w,sub_t,h,l1,l2,l3,g1,g2,Freq,S11_re,S21_re,S11_img,S21_img,S11_dB,S21_dB
11.185,2.0,1.0,1.0,33.9,34.8,34.8,2.8,4.2,2.5,0.793601620578765,-0.0100102820992659,0.595189289941916,0.00575142720981765,-0.069811,-38.752198
11.185,2.0,1.0,1.0,33.9,34.8,34.8,2.8,4.2,2.5025,0.7891635158923239,-0.010230100480865537,0.6008965173907217,0.005768529305809947,-0.070686,-38.603385
11.185,2.0,1.0,1.0,33.9,34.8,34.8,2.8,4.2,2.505,0.7846598382889864,-0.010455310421882148,0.6065984512740863,0.005784540621716552,-0.071582,-38.453496
11.185,2.0,1.0,1.0,33.9,34.8,34.8,2.8,4.2,2.5075,0.7800897774855323,-0.010686098417936352,0.6122946821559432,0.00579940244389691,-0.0725,-38.302499
11.185,2.0,1.0,1.0,33.9,34.8,34.8,2.8,4.2,2.51,0.7754525043997209,-0.010922660067724766,0.6179847867472342,0.005813052699622477,-0.073441,-38.150359
11.185,2.0,1.0,1.0,33.9,34.8,34.8,2.8,4.2,2.5125,0.7707471704264649,-0.011165200648302597,0.6236683273397661,0.005825425718524979,-0.074406,-37.997042
11.185,2.0,1.0,1.0,33.9,34.8,34.8,2.8,4.2,2.515,0.7659729066674992,-0.011413935734923901,0.6293448512090586,0.0058364519733970395,-0.075395,-37.842512
11.185,2.0,1.0,1.0,33.9,34.8,34.8,2.8,4.2,2.5175,0.7611288231104574,-0.01166909186952,0.6350138899836874,0.0058460577982275145,-0.07641,-37.686729
11.185,2.0,1.0,1.0,33.9,34.8,34.8,2.8,4.2,2.52,0.7562140077528057,-0.011930907282329435,0.6406749589784186,0.005854165081104857,-0.077452,-37.529655
11.185,2.0,1.0,1.0,33.9,34.8,34.8,2.8,4.2,2.5225,0.7512275256656428,-0.012199632671674631,0.6463275564880953,0.005860690929335759,-0.078522,-37.371249
11.185,2.0,1.0,1.0,33.9,34.8,34.8,2.8,4.2,2.525,0.7461684179917796,-0.012475532047424458,0.6519711630389272,0.005865547303805255,-0.079621,-37.211469
11.185,2.0,1.0,1.0,33.9,34.8,34.8,2.8,4.2,2.5275,0.7410357008719402,-0.012758883644289726,0.6576052405934365,0.005868640619235231,-0.080749,-37.050269
11.185,2.0,1.0,1.0,33.9,34.8,34.8,2.8,4.2,2.53,0.735828364292219,-0.013049980911784005,0.6632292317048907,0.005869871306581103,-0.081909,-36.887604
11.185,2.0,1.0,1.0,33.9,34.8,34.8,2.8,4.2,2.5325,0.730545370845161,-0.013349133588454118,0.6688425586165513,0.0058691333333265195,-0.083102,-36.723426
11.185,2.0,1.0,1.0,33.9,34.8,34.8,2.8,4.2,2.535,0.7251856543959461,-0.013656668868855915,0.6744446223005266,0.005866313676889725,-0.084329,-36.557684
11.185,2.0,1.0,1.0,33.9,34.8,34.8,2.8,4.2,2.5375,0.7197481186441884,-0.013972932672734127,0.6800348014303365,0.005861291745726958,-0.085592,-36.390327
11.185,2.0,1.0,1.0,33.9,34.8,34.8,2.8,4.2,2.54,0.7142316355707224,-0.01429829102698029,0.6856124512806103,0.005853938741997936,-0.086892,-36.221299
11.185,2.0,1.0,1.0,33.9,34.8,34.8,2.8,4.2,2.5425,0.7086350437574871,-0.014633131572205043,0.6911769025464521,0.005844116958829106,-0.088231,-36.050543
11.185,2.0,1.0,1.0,33.9,34.8,34.8,2.8,4.2,2.545,0.7029571465671773,-0.014977865207195934,0.6967274600740672,0.00583167900425351,-0.08961,-35.878001
11.185,2.0,1.0,1.0,33.9,34.8,34.8,2.8,4.2,2.5475,0.6971967101676918,-0.01533292788616331,0.7022634014930882,0.005816466942801047,-0.091033,-35.703608
11.185,2.0,1.0,1.0,33.9,34.8,34.8,2.8,4.2,2.55,0.6913524613845207,-0.015698782585538307,0.7077839757398008,0.0057983113444321725,-0.0925,-35.5273
11.185,2.0,1.0,1.0,33.9,34.8,34.8,2.8,4.2,2.5525,0.6854230853621118,-0.016075921459208307,0.7132884014588906,0.005777030229022812,-0.094014,-35.349008
11.185,2.0,1.0,1.0,33.9,34.8,34.8,2.8,4.2,2.555,0.6794072230127705,-0.016464868203507392,0.718775865269666,0.005752427892877817,-0.095577,-35.16866
11.185,2.0,1.0,1.0,33.9,34.8,34.8,2.8,4.2,2.5575,0.6733034682288686,-0.016866180656062386,0.7242455198806249,0.0057242936017347585,-0.097193,-34.986181
11.185,2.0,1.0,1.0,33.9,34.8,34.8,2.8,4.2,2.56,0.6671103648309276,-0.01728045365579257,0.7296964820338977,0.0056924001323621146,-0.098863,-34.80149
11.185,2.0,1.0,1.0,33.9,34.8,34.8,2.8,4.2,2.5625,0.660826403220408,-0.0177083221950424,0.735127830258298,0.00565650214209236,-0.10059,-34.614505
11.185,2.0,1.0,1.0,33.9,34.8,34.8,2.8,4.2,2.565,0.654450016701789,-0.018150464899069373,0.7405386024064792,0.005616334342383075,-0.102378,-34.425137
11.185,2.0,1.0,1.0,33.9,34.8,34.8,2.8,4.2,2.5675,0.6479795774335811,-0.018607607873012317,0.7459277929478308,0.0055716094486739035,-0.10423,-34.233294
11.185,2.0,1.0,1.0,33.9,34.8,34.8,2.8,4.2,2.57,0.6414133919621795,-0.019080528962146577,0.7512943499842571,0.0055220158742853844,-0.10615,-34.038878
11.185,2.0,1.0,1.0,33.9,34.8,34.8,2.8,4.2,2.5725,0.6347496962858471,-0.019570062477823533,0.7566371719505856,0.00546721513074867,-0.108141,-33.841785
11.185,2.0,1.0,1.0,33.9,34.8,34.8,2.8,4.2,2.575,0.6279866503883703,-0.020077104449162924,0.7619551039550094,0.005406838890588278,-0.110209,-33.641906
11.185,2.0,1.0,1.0,33.9,34.8,34.8,2.8,4.2,2.5775,0.6211223321729407,-0.02060261846951106,0.7672469337073698,0.005340485660989172,-0.112356,-33.439127
11.185,2.0,1.0,1.0,33.9,34.8,34.8,2.8,4.2,2.58,0.6141547307162588,-0.021147642217135453,0.7725113869740255,0.005267717007700957,-0.114589,-33.233323
11.185,2.0,1.0,1.0,33.9,34.8,34.8,2.8,4.2,2.5825,0.6070817387505181,-0.02171329474188305,0.7777471224871813,0.005188053257639489,-0.116913,-33.024367
11.185,2.0,1.0,1.0,33.9,34.8,34.8,2.8,4.2,2.585,0.5999011442664103,-0.022300784623928815,0.7829527262234495,0.005100968595530032,-0.119334,-32.81212
11.185,2.0,1.0,1.0,33.9,34.8,34.8,2.8,4.2,2.5875,0.5926106211131921,-0.022911419127708395,0.788126704950636,0.005005885454089173,-0.121858,-32.596436
11.185,2.0,1.0,1.0,33.9,34.8,34.8,2.8,4.2,2.59,0.5852077184516574,-0.023546614494167544,0.793267478922543,0.0049021680780236936,-0.124493,-32.377159
11.185,2.0,1.0,1.0,33.9,34.8,34.8,2.8,4.2,2.5925,0.5776898488919047,-0.024207907538201925,0.7983733735782979,0.0047891151187292235,-0.127246,-32.154124
11.185,2.0,1.0,1.0,33.9,34.8,34.8,2.8,4.2,2.595,0.5700542751193882,-0.024896968746356343,0.8034426100741687,0.004665951087976011,-0.130126,-31.927152
11.185,2.0,1.0,1.0,33.9,34.8,34.8,2.8,4.2,2.5975,0.5622980947788148,-0.025615617103448608,0.8084732944409118,0.004531816463776939,-0.133141,-31.696056
11.185,2.0,1.0,1.0,33.9,34.8,34.8,2.8,4.2,2.6,0.5544182233449939,-0.026365836916915478,0.8134634051165441,0.00438575619838192,-0.136304,-31.460633
11.185,2.0,1.0,1.0,33.9,34.8,34.8,2.8,4.2,2.6025,0.5464113746612079,-0.027149796955775192,0.8184107785511205,0.004226706324795648,-0.139624,-31.220666
11.185,2.0,1.0,1.0,33.9,34.8,34.8,2.8,4.2,2.605,0.538274038767312,-0.02796987227891245,0.8233130925137283,0.004053478291618207,-0.143116,-30.975922
11.185,2.0,1.0,1.0,33.9,34.8,34.8,2.8,4.2,2.6075,0.530002456569423,-0.028828669197087396,0.8281678466489857,0.00386474057277162,-0.146793,-30.726151
11.185,2.0,1.0,1.0,33.9,34.8,34.8,2.8,4.2,2.61,0.5215925908179384,-0.029729053897359112,0.8329723397261592,0.0036589969941217193,-0.15067,-30.471084
11.185,2.0,1.0,1.0,33.9,34.8,34.8,2.8,4.2,2.6125,0.513040092757334,-0.03067418536086029,0.8377236428924808,0.0034345610869776612,-0.154767,-30.21043
11.185,2.0,1.0,1.0,33.9,34.8,34.8,2.8,4.2,2.615,0.504340263685473,-0.031667553329262216,0.8424185680751918,0.0031895256108114152,-0.159103,-29.943876
11.185,2.0,1.0,1.0,33.9,34.8,34.8,2.8,4.2,2.6175,0.4954880105067066,-0.032713022227081674,0.8470536304635152,0.0029217261734555172,-0.1637,-29.671081
11.185,2.0,1.0,1.0,33.9,34.8,34.8,2.8,4.2,2.62,0.4864777941751088,-0.0338148821327705,0.8516250037276147,0.00262869760198391,-0.168584,-29.391676
11.185,2.0,1.0,1.0,33.9,34.8,34.8,2.8,4.2,2.6225,0.4773035696935026,-0.03497790811950115,0.8561284662771664,0.0023076213618689954,-0.173785,-29.105262
11.185,2.0,1.0,1.0,33.9,34.8,34.8,2.8,4.2,2.625,0.467958716050032,-0.0362074295669623,0.86055933640073,0.0019552618591871,-0.179334,-28.8114
11.185,2.0,1.0,1.0,33.9,34.8,34.8,2.8,4.2,2.6275,0.45843595412381166,-0.03750941139106504,0.8649123935223887,0.001567888854109516,-0.185271,-28.509614
11.185,2.0,1.0,1.0,33.9,34.8,34.8,2.8,4.2,2.63,0.44872725015870507,-0.0388905495649699,0.869181782013581,0.0011411824132480616,-0.191638,-28.199381
11.185,2.0,1.0,1.0,33.9,34.8,34.8,2.8,4.2,2.6325,0.4388237018695574,-0.04035838383157074,0.8733608929357022,0.0006701157633727257,-0.198486,-27.880127
11.185,2.0,1.0,1.0,33.9,34.8,34.8,2.8,4.2,2.635,0.4287154035845013,-0.04192143115767134,0.8774422176641673,0.00014880998089489652,-0.205874,-27.551223
11.185,2.0,1.0,1.0,33.9,34.8,34.8,2.8,4.2,2.6375,0.4183912860121347,-0.04358934428063024,0.8814171654173806,-0.00042964747968242135,-0.21387,-27.211971
11.185,2.0,1.0,1.0,33.9,34.8,34.8,2.8,4.2,2.64,0.40783892522192944,-0.04537310067927228,0.8852758340840313,-0.001073431049856399,-0.222554,-26.861601
11.185,2.0,1.0,1.0,33.9,34.8,34.8,2.8,4.2,2.6425,0.3970443142080853,-0.047285228492488875,0.8890067201194225,-0.001792266363433376,-0.232021,-26.499255
11.185,2.0,1.0,1.0,33.9,34.8,34.8,2.8,4.2,2.645,0.3859915889445793,-0.04934007733463125,0.8925963482422027,-0.002597799930146959,-0.242385,-26.123981
11.185,2.0,1.0,1.0,33.9,34.8,34.8,2.8,4.2,2.6475,0.3746626991260334,-0.051554143618587414,0.896028794580351,-0.0035040755605205954,-0.253779,-25.734711
11.185,2.0,1.0,1.0,33.9,34.8,34.8,2.8,4.2,2.65,0.3630370118677466,-0.05394646184609187,0.8992850668528033,-0.0045281540039279955,-0.266368,-25.330249
11.185,2.0,1.0,1.0,33.9,34.8,34.8,2.8,4.2,2.6525,0.3510908346595495,-0.05653907519986262,0.9023422907140797,-0.005690926723558492,-0.28035,-24.909247
11.185,2.0,1.0,1.0,33.9,34.8,34.8,2.8,4.2,2.655,0.33879684220663925,-0.05935760028364742,0.9051726303656438,-0.0070181957513687976,-0.29597,-24.470181
11.185,2.0,1.0,1.0,33.9,34.8,34.8,2.8,4.2,2.6575,0.3261233912763984,-0.06243190115112525,0.9077418405916754,-0.008542122492596314,-0.313528,-24.011318
11.185,2.0,1.0,1.0,33.9,34.8,34.8,2.8,4.2,2.66,0.3130337100452758,-0.0657968850645705,0.9100073012470222,-0.010303194428597616,-0.333405,-23.530686
11.185,2.0,1.0,1.0,33.9,34.8,34.8,2.8,4.2,2.6625,0.2994849572744573,-0.06949342310232277,0.9119153155747975,-0.012352928204016095,-0.35608,-23.026023
11.185,2.0,1.0,1.0,33.9,34.8,34.8,2.8,4.2,2.665,0.2854271691876832,-0.07356937544994233,0.9133973472245138,-0.014757633855053829,-0.382167,-22.49473
11.185,2.0,1.0,1.0,33.9,34.8,34.8,2.8,4.2,2.6675,0.2708021629127307,-0.07808064908692644,0.9143647059974904,-0.017603729301965278,-0.412467,-21.933806
11.185,2.0,1.0,1.0,33.9,34.8,34.8,2.8,4.2,2.67,0.25554257492726495,-0.0830921042438718,0.9147009345040886,-0.02100535111378257,-0.448032,-21.339773
11.185,2.0,1.0,1.0,33.9,34.8,34.8,2.8,4.2,2.6725,0.23957144352002235,-0.0886778926980634,0.9142507416072172,-0.025115411945235137,-0.490275,-20.708595
11.185,2.0,1.0,1.0,33.9,34.8,34.8,2.8,4.2,2.675,0.22280322687063286,-0.09492032413254217,0.9128036874679608,-0.030141892233339143,-0.541122,-20.035583
11.185,2.0,1.0,1.0,33.9,34.8,34.8,2.8,4.2,2.6775,0.20514816248921672,-0.1019053361618532,0.9100698248553192,-0.036372145989216946,-0.603246,-19.31531
11.185,2.0,1.0,1.0,33.9,34.8,34.8,2.8,4.2,2.68,0.18652402463345077,-0.10971048337339934,0.905642999638282,-0.04420948588492116,-0.680438,-18.541553
11.185,2.0,1.0,1.0,33.9,34.8,34.8,2.8,4.2,2.6825,0.166883947100402,-0.11837673831768664,0.8989454904062454,-0.0542283013939576,-0.77818,-17.707339
11.185,2.0,1.0,1.0,33.9,34.8,34.8,2.8,4.2,2.685,0.1462789320399474,-0.12784543694776918,0.8891458220964383,-0.06725573588037667,-0.904558,-16.805235
11.185,2.0,1.0,1.0,33.9,34.8,34.8,2.8,4.2,2.6875,0.124995014300902,-0.137820379000219,0.875043525149048,-0.0844858583751621,-1.071683,-15.828221
11.185,2.0,1.0,1.0,33.9,34.8,34.8,2.8,4.2,2.69,0.10384894306801166,-0.14747137045201988,0.8549342609944018,-0.10761230826289797,-1.297734,-14.77188
11.185,2.0,1.0,1.0,33.9,34.8,34.8,2.8,4.2,2.6925,0.08480406603902921,-0.15481833600599687,0.8265532041956183,-0.13888039928151127,-1.609106,-13.639488
11.185,2.0,1.0,1.0,33.9,34.8,34.8,2.8,4.2,2.695,0.07213727253645379,-0.15556810114270517,0.7874788907294082,-0.18067500005850082,-2.03893,-12.453086
11.185,2.0,1.0,1.0,33.9,34.8,34.8,2.8,4.2,2.6975,0.07407857306155141,-0.14149048381209767,0.7371073900655797,-0.23353559108015579,-2.605741,-11.275032
11.185,2.0,1.0,1.0,33.9,34.8,34.8,2.8,4.2,2.7,0.10276373441533952,-0.100506012777148,0.6820703422035161,-0.29074242282831786,-3.225935,-10.239592
11.185,2.0,1.0,1.0,33.9,34.8,34.8,2.8,4.2,2.7025,0.16556505626168647,-0.02540004971072979,0.6430947772688388,-0.3315273070505566,-3.555785,-9.564196
11.185,2.0,1.0,1.0,33.9,34.8,34.8,2.8,4.2,2.705,0.24665078134720317,0.06781572753557213,0.6467148739161079,-0.32949440592536,-3.195949,-9.462858
11.185,2.0,1.0,1.0,33.9,34.8,34.8,2.8,4.2,2.7075,0.31031720195321627,0.14346352379228194,0.6948266316149921,-0.2830096611825625,-2.372608,-9.97073
11.185,2.0,1.0,1.0,33.9,34.8,34.8,2.8,4.2,2.71,0.33712815486841086,0.1823276482774027,0.7607926362303412,-0.21881779928170011,-1.596048,-10.908474
11.185,2.0,1.0,1.0,33.9,34.8,34.8,2.8,4.2,2.7125,0.33403624955416356,0.19152670727255572,0.8209204900245249,-0.16052685820969473,-1.04859,-12.044582
11.185,2.0,1.0,1.0,33.9,34.8,34.8,2.8,4.2,2.715,0.31497071133978427,0.1850310690463955,0.8674080777717043,-0.11582401595846079,-0.697627,-13.219216
11.185,2.0,1.0,1.0,33.9,34.8,34.8,2.8,4.2,2.7175,0.2894847497260457,0.17237740352215783,0.9012704790624987,-0.08362197571498804,-0.476484,-14.352558
11.185,2.0,1.0,1.0,33.9,34.8,34.8,2.8,4.2,2.72,0.2623385506699377,0.15830047756619012,0.9256424397565863,-0.06075033544551258,-0.3356,-15.413675
11.185,2.0,1.0,1.0,33.9,34.8,34.8,2.8,4.2,2.7225,0.23553516548024234,0.1447837906772526,0.9433232755143174,-0.044392893155926386,-0.24414,-16.395377
11.185,2.0,1.0,1.0,33.9,34.8,34.8,2.8,4.2,2.725,0.20977832375785282,0.1325185892738786,0.956338356607045,-0.03251528984164374,-0.183671,-17.300572
11.185,2.0,1.0,1.0,33.9,34.8,34.8,2.8,4.2,2.7275,0.1852149674624579,0.12164460789158277,0.9660618894694104,-0.023737156060156934,-0.14313,-18.135844
11.185,2.0,1.0,1.0,33.9,34.8,34.8,2.8,4.2,2.73,0.1617729934345281,0.1120860421887026,0.9734117180983793,-0.017135168842798063,-0.115744,-18.908639
11.185,2.0,1.0,1.0,33.9,34.8,34.8,2.8,4.2,2.7325,0.13930726512310163,0.1036963209472272,0.9790030197728701,-0.012088499261149395,-0.097262,-19.62611
11.185,2.0,1.0,1.0,33.9,34.8,34.8,2.8,4.2,2.735,0.11766009693933013,0.09631779964205005,0.9832526998253122,-0.008174093851828391,-0.084949,-20.294702
11.185,2.0,1.0,1.0,33.9,34.8,34.8,2.8,4.2,2.7375,0.09668449656496675,0.08980451234032642,0.9864470835002087,-0.005098871427608525,-0.077003,-20.920059
11.185,2.0,1.0,1.0,33.9,34.8,34.8,2.8,4.2,2.74,0.0762515032820326,0.08402920731782339,0.988785357180624,-0.002656249739946021,-0.072209,-21.507057
11.185,2.0,1.0,1.0,33.9,34.8,34.8,2.8,4.2,2.7425,0.05625097709322374,0.07888394877390076,0.9904075815667013,-0.0006981247255644293,-0.069734,-22.059887
11.185,2.0,1.0,1.0,33.9,34.8,34.8,2.8,4.2,2.745,0.03658991559197097,0.07427831743806505,0.9914129654423408,0.0008834082959868134,-0.068997,-22.582145
11.185,2.0,1.0,1.0,33.9,34.8,34.8,2.8,4.2,2.7475,0.017190046436197523,0.07013693132778043,0.9918719576348634,0.0021681575692636787,-0.069584,-23.076917
11.185,2.0,1.0,1.0,33.9,34.8,34.8,2.8,4.2,2.75,-0.00201458698223475,0.0663969881923843,0.991834369456569,0.00321597730561882,-0.071199,-23.546856
11.185,2.0,1.0,1.0,33.9,34.8,34.8,2.8,4.2,2.7525,-0.021079782542374935,0.06300608398546416,0.9913349109845085,0.004072333834835099,-0.073629,-23.994245
11.185,2.0,1.0,1.0,33.9,34.8,34.8,2.8,4.2,2.755,-0.04005301031091858,0.05992037009039464,0.9903970156291905,0.00477217023080962,-0.076716,-24.421051
11.185,2.0,1.0,1.0,33.9,34.8,34.8,2.8,4.2,2.7575,-0.05897492825735819,0.05710303464339489,0.9890355131094184,0.0053426297338614774,-0.080348,-24.828965
11.185,2.0,1.0,1.0,33.9,34.8,34.8,2.8,4.2,2.76,-0.07788062188242219,0.054523066461539656,0.9872585146723355,0.005805002189125976,-0.08444,-25.219442
11.185,2.0,1.0,1.0,33.9,34.8,34.8,2.8,4.2,2.7625,-0.09680061290675934,0.0521542549165068,0.985068750194708,0.006176133793353678,-0.088932,-25.593725
11.185,2.0,1.0,1.0,33.9,34.8,34.8,2.8,4.2,2.765,-0.11576167926410735,0.04997438254163992,0.9824645170571314,0.006469461021323001,-0.093782,-25.952872
11.185,2.0,1.0,1.0,33.9,34.8,34.8,2.8,4.2,2.7675,-0.1347875227352374,0.04796457341116461,0.9794403486990837,0.0066957779757902776,-0.098961,-26.297768
11.185,2.0,1.0,1.0,33.9,34.8,34.8,2.8,4.2,2.77,-0.15389931419549938,0.04610876690746452,0.9759874763369288,0.006863812372278504,-0.104449,-26.629142
11.185,2.0,1.0,1.0,33.9,34.8,34.8,2.8,4.2,2.7725,-0.17311614063051403,0.044393292435920634,0.9720941341462304,0.006980662631447893,-0.110238,-26.947574
11.185,2.0,1.0,1.0,33.9,34.8,34.8,2.8,4.2,2.775,-0.1924553731067246,0.04280652567518831,0.9677457423137367,0.007052133164382726,-0.116324,-27.253501
11.185,2.0,1.0,1.0,33.9,34.8,34.8,2.8,4.2,2.7775,-0.21193297077249812,0.04133861106884595,0.9629249912313876,0.007082994399926681,-0.122711,-27.547219
11.185,2.0,1.0,1.0,33.9,34.8,34.8,2.8,4.2,2.78,-0.2315637326019002,0.039981238584416705,0.9576118421026638,0.007077186812880165,-0.129408,-27.828884
11.185,2.0,1.0,1.0,33.9,34.8,34.8,2.8,4.2,2.7825,-0.25136150583269956,0.038727465427984456,0.9517834532845483,0.007037983124226904,-0.136429,-28.098505
11.185,2.0,1.0,1.0,33.9,34.8,34.8,2.8,4.2,2.785,-0.27133935774691187,0.03757157554191953,0.9454140370703166,0.006968119274579653,-0.143792,-28.355942
11.185,2.0,1.0,1.0,33.9,34.8,34.8,2.8,4.2,2.7875,-0.2915097154588785,0.0365089714478503,0.9384746478245056,0.006869902266388492,-0.151521,-28.600893
11.185,2.0,1.0,1.0,33.9,34.8,34.8,2.8,4.2,2.79,-0.31188447658510854,0.03553609442642199,0.9309328990450263,0.006745301228361375,-0.159644,-28.832883
11.185,2.0,1.0,1.0,33.9,34.8,34.8,2.8,4.2,2.7925,-0.33247509194731345,0.03465037023229206,0.9227526037659014,0.006596026878835338,-0.168195,-29.051253
11.185,2.0,1.0,1.0,33.9,34.8,34.8,2.8,4.2,2.795,-0.3532926196772374,0.03385017859629768,0.9138933294911582,0.006423603826813133,-0.177212,-29.255137
11.185,2.0,1.0,1.0,33.9,34.8,34.8,2.8,4.2,2.7975,-0.3743477481046164,0.03313484572579783,0.9043098553490985,0.006229439775634903,-0.186741,-29.44345
11.185,2.0,1.0,1.0,33.9,34.8,34.8,2.8,4.2,2.8,-0.3956507824449018,0.03250465993082039,0.8939515151565443,0.006014895651973386,-0.196835,-29.614864
11.185,2.0,1.0,1.0,33.9,34.8,34.8,2.8,4.2,2.8025,-0.41721158733809455,0.0319609114255416,0.8827614053431146,0.0057813609763587275,-0.207553,-29.767788
11.185,2.0,1.0,1.0,33.9,34.8,34.8,2.8,4.2,2.805,-0.439039473426156,0.031505958327163054,0.8706754309228754,0.005530339463265774,-0.218965,-29.900352
11.185,2.0,1.0,1.0,33.9,34.8,34.8,2.8,4.2,2.8075,-0.46114301098132254,0.031143321941507263,0.8576211555694577,0.005263550976218895,-0.231152,-30.010386
11.185,2.0,1.0,1.0,33.9,34.8,34.8,2.8,4.2,2.81,-0.4835297465282184,0.030877815628796684,0.8435164129196628,0.0049830577119347125,-0.244207,-30.095411
11.185,2.0,1.0,1.0,33.9,34.8,34.8,2.8,4.2,2.8125,-0.506205788602056,0.0307157129208468,0.828267624954471,0.00469142507361288,-0.258239,-30.152637
11.185,2.0,1.0,1.0,33.9,34.8,34.8,2.8,4.2,2.815,-0.5291752150369325,0.03066496213458473,0.8117677589949147,0.0043919314603704865,-0.273375,-30.178967
11.185,2.0,1.0,1.0,33.9,34.8,34.8,2.8,4.2,2.8175,-0.5524392346942351,0.03073545648503179,0.7938938366351688,0.0040888466637379415,-0.289764,-30.171018
11.185,2.0,1.0,1.0,33.9,34.8,34.8,2.8,4.2,2.82,-0.5759950086682843,0.03093937055987794,0.7745038847421416,0.0037878064990943283,-0.307582,-30.12516
11.185,2.0,1.0,1.0,33.9,34.8,34.8,2.8,4.2,2.8225,-0.5998339957691581,0.03129157574587009,0.7534331891937753,0.0034963228796597878,-0.327037,-30.037568
11.185,2.0,1.0,1.0,33.9,34.8,34.8,2.8,4.2,2.825,-0.6239396284699121,0.03181014826969065,0.7304896748605665,0.003224485533152875,-0.348379,-29.904289
11.185,2.0,1.0,1.0,33.9,34.8,34.8,2.8,4.2,2.8275,-0.6482840393446796,0.03251698283710671,0.7054481890348883,0.0029859366532188065,-0.371907,-29.721328
11.185,2.0,1.0,1.0,33.9,34.8,34.8,2.8,4.2,2.83,-0.6728234301960639,0.03343852022596875,0.6780434091618524,0.0027992370528706636,-0.397984,-29.48473
