1,w,sub_t,h,l1,l2,l3,g1,g2,Freq,S11_re,S21_re,S11_img,S21_img,S11_dB,S21_dB
11.185,2.0,1.0,1.0,33.2,33.7,33.7,1.6,1.9,2.5,0.873985227401263,-0.0132609546822558,0.470689998799047,0.0158355068168908,-0.063878,-33.699627
11.185,2.0,1.0,1.0,33.2,33.7,33.7,1.6,1.9,2.5025,0.870768960651889,-0.013573429930079383,0.4764415150979566,0.015970775573765868,-0.064601,-33.572352
11.185,2.0,1.0,1.0,33.2,33.7,33.7,1.6,1.9,2.505,0.8674985229318052,-0.013892814808143158,0.4821968861281876,0.01610628382628086,-0.06534,-33.444556
11.185,2.0,1.0,1.0,33.2,33.7,33.7,1.6,1.9,2.5075,0.8641732698649329,-0.01421928428463898,0.48795592783844,0.016241993599499977,-0.066094,-33.31623
11.185,2.0,1.0,1.0,33.2,33.7,33.7,1.6,1.9,2.51,0.8607925437184184,-0.014553018815627265,0.49371844895463046,0.016377864617690183,-0.066865,-33.187363
11.185,2.0,1.0,1.0,33.2,33.7,33.7,1.6,1.9,2.5125,0.8573556730564714,-0.014894204550609429,0.4994842506796766,0.016513854175265685,-0.067652,-33.057944
11.185,2.0,1.0,1.0,33.2,33.7,33.7,1.6,1.9,2.515,0.8538619723829273,-0.015243033546941745,0.5052531263798995,0.016649917000100285,-0.068456,-32.927963
11.185,2.0,1.0,1.0,33.2,33.7,33.7,1.6,1.9,2.5175,0.8503107417720788,-0.015599703993516668,0.5110248612573364,0.016786005108718166,-0.069278,-32.797408
11.185,2.0,1.0,1.0,33.2,33.7,33.7,1.6,1.9,2.52,0.8467012664872922,-0.015964420444164178,0.5167992320072439,0.016922067652840486,-0.070118,-32.666269
11.185,2.0,1.0,1.0,33.2,33.7,33.7,1.6,1.9,2.5225,0.8430328165869112,-0.01633739406124493,0.522576006459989,0.01705805075672617,-0.070976,-32.534533
11.185,2.0,1.0,1.0,33.2,33.7,33.7,1.6,1.9,2.525,0.8393046465169163,-0.016718842869938733,0.5283549432065184,0.017193897344708324,-0.071853,-32.40219
11.185,2.0,1.0,1.0,33.2,33.7,33.7,1.6,1.9,2.5275,0.8355159946897849,-0.01710899202375331,0.5341357912065176,0.0173295469582818,-0.072751,-32.269227
11.185,2.0,1.0,1.0,33.2,33.7,33.7,1.6,1.9,2.53,0.8316660830489765,-0.017508074081809724,0.5399182893783179,0.017464935562053276,-0.073669,-32.135633
11.185,2.0,1.0,1.0,33.2,33.7,33.7,1.6,1.9,2.5325,0.8277541166184242,-0.01791632929849073,0.5457021661695604,0.01759999533781458,-0.074607,-32.001395
11.185,2.0,1.0,1.0,33.2,33.7,33.7,1.6,1.9,2.535,0.8237792830363991,-0.018334005926069874,0.5514871391075621,0.017734654465945618,-0.075568,-31.866501
11.185,2.0,1.0,1.0,33.2,33.7,33.7,1.6,1.9,2.5375,0.8197407520730688,-0.01876136053097257,0.5572729143282393,0.017868836893295874,-0.076551,-31.730937
11.185,2.0,1.0,1.0,33.2,33.7,33.7,1.6,1.9,2.54,0.8156376751310462,-0.01919865832435751,0.563059186082402,0.0180024620866296,-0.077557,-31.594692
11.185,2.0,1.0,1.0,33.2,33.7,33.7,1.6,1.9,2.5425,0.81146918472818,-0.01964617350774324,0.5688456362181306,0.018135444770652914,-0.078586,-31.457751
11.185,2.0,1.0,1.0,33.2,33.7,33.7,1.6,1.9,2.545,0.8072343939618082,-0.020104189634445394,0.5746319336378687,0.01826769464956634,-0.07964,-31.320101
11.185,2.0,1.0,1.0,33.2,33.7,33.7,1.6,1.9,2.5475,0.8029323959536543,-0.020572999987631867,0.5804177337287657,0.018399116111007165,-0.08072,-31.181728
11.185,2.0,1.0,1.0,33.2,33.7,33.7,1.6,1.9,2.55,0.7985622632744932,-0.021052907975849883,0.5862026777647319,0.01852960791115991,-0.081826,-31.042619
11.185,2.0,1.0,1.0,33.2,33.7,33.7,1.6,1.9,2.5525,0.7941230473476896,-0.021544227546922267,0.5919863922785069,0.018659062839719326,-0.082959,-30.902759
11.185,2.0,1.0,1.0,33.2,33.7,33.7,1.6,1.9,2.555,0.7896137778306404,-0.02204728362116565,0.5977684884019946,0.01878736736328906,-0.08412,-30.762133
11.185,2.0,1.0,1.0,33.2,33.7,33.7,1.6,1.9,2.5575,0.7850334619731177,-0.02256241254493171,0.603548561172941,0.01891440124569035,-0.08531,-30.620726
11.185,2.0,1.0,1.0,33.2,33.7,33.7,1.6,1.9,2.56,0.7803810839514564,-0.023089962565530905,0.6093261888059193,0.019040037143532744,-0.086529,-30.478523
11.185,2.0,1.0,1.0,33.2,33.7,33.7,1.6,1.9,2.5625,0.775655604177466,-0.023630294328656844,0.6151009319254374,0.01916414017527422,-0.08778,-30.335508
11.185,2.0,1.0,1.0,33.2,33.7,33.7,1.6,1.9,2.565,0.7708559585808904,-0.02418378139949217,0.6208723327588282,0.019286567461851634,-0.089063,-30.191666
11.185,2.0,1.0,1.0,33.2,33.7,33.7,1.6,1.9,2.5675,0.7659810578641892,-0.024750810808741353,0.6266399142864034,0.019407167636814486,-0.090379,-30.04698
11.185,2.0,1.0,1.0,33.2,33.7,33.7,1.6,1.9,2.57,0.7610297867283262,-0.025331783624907914,0.6324031793461795,0.019525780323724533,-0.091729,-29.901433
11.185,2.0,1.0,1.0,33.2,33.7,33.7,1.6,1.9,2.5725,0.7560010030682022,-0.02592711555420552,0.6381616096902745,0.01964223557840543,-0.093115,-29.755009
11.185,2.0,1.0,1.0,33.2,33.7,33.7,1.6,1.9,2.575,0.7508935371362869,-0.02653723756956974,0.6439146649898654,0.01975635329342673,-0.094537,-29.60769
11.185,2.0,1.0,1.0,33.2,33.7,33.7,1.6,1.9,2.5775,0.7457061906729304,-0.02716259657031991,0.649661781785349,0.01986794256199324,-0.095998,-29.459458
11.185,2.0,1.0,1.0,33.2,33.7,33.7,1.6,1.9,2.58,0.7404377360017587,-0.027803656074105124,0.6554023723780983,0.0199768009981747,-0.097498,-29.310295
11.185,2.0,1.0,1.0,33.2,33.7,33.7,1.6,1.9,2.5825,0.7350869150884625,-0.028460896942860903,0.6611358236599358,0.020082714010155222,-0.09904,-29.160182
11.185,2.0,1.0,1.0,33.2,33.7,33.7,1.6,1.9,2.585,0.7296524385612162,-0.029134818144595575,0.6668614958761221,0.02018545402290143,-0.100623,-29.0091
11.185,2.0,1.0,1.0,33.2,33.7,33.7,1.6,1.9,2.5875,0.7241329846908572,-0.02982593755292685,0.6725787213173539,0.020284779646343887,-0.102252,-28.857031
11.185,2.0,1.0,1.0,33.2,33.7,33.7,1.6,1.9,2.59,0.7185271983288686,-0.03053479278639288,0.678286802935872,0.020380434784829194,-0.103925,-28.703953
11.185,2.0,1.0,1.0,33.2,33.7,33.7,1.6,1.9,2.5925,0.712833689801102,-0.03126194208967151,0.6839850128804198,0.020472147683237553,-0.105647,-28.549846
11.185,2.0,1.0,1.0,33.2,33.7,33.7,1.6,1.9,2.595,0.7070510337550814,-0.03200796525895381,0.6896725909443363,0.020559629904756804,-0.107418,-28.39469
11.185,2.0,1.0,1.0,33.2,33.7,33.7,1.6,1.9,2.5975,0.7011777679586026,-0.03277346461384092,0.6953487429206129,0.020642575234866904,-0.109241,-28.238462
11.185,2.0,1.0,1.0,33.2,33.7,33.7,1.6,1.9,2.6,0.6952123920472484,-0.033559066018252315,0.7010126388572434,0.02072065850560461,-0.111117,-28.081142
11.185,2.0,1.0,1.0,33.2,33.7,33.7,1.6,1.9,2.6025,0.6891533662183161,-0.03436541995296203,0.7066634112055801,0.02079353433365326,-0.113048,-27.922706
11.185,2.0,1.0,1.0,33.2,33.7,33.7,1.6,1.9,2.605,0.6829991098685276,-0.03519320264251567,0.712300152853871,0.020860835765216384,-0.115038,-27.76313
11.185,2.0,1.0,1.0,33.2,33.7,33.7,1.6,1.9,2.6075,0.6767480001727822,-0.036043117239410095,0.7179219150374183,0.020922172820002086,-0.117088,-27.602393
11.185,2.0,1.0,1.0,33.2,33.7,33.7,1.6,1.9,2.61,0.6703983706010793,-0.036915895068561425,0.7235277051160788,0.020977130925936765,-0.1192,-27.440468
11.185,2.0,1.0,1.0,33.2,33.7,33.7,1.6,1.9,2.6125,0.6639485093706132,-0.03781229693522611,0.7291164842090164,0.021025269235459478,-0.121379,-27.277332
11.185,2.0,1.0,1.0,33.2,33.7,33.7,1.6,1.9,2.615,0.6573966578299176,-0.03873311449968195,0.7346871646757229,0.021066118813392994,-0.123625,-27.112958
11.185,2.0,1.0,1.0,33.2,33.7,33.7,1.6,1.9,2.6175,0.6507410087718143,-0.039679171722117865,0.7402386074313271,0.021099180685451573,-0.125943,-26.94732
11.185,2.0,1.0,1.0,33.2,33.7,33.7,1.6,1.9,2.62,0.6439797046717997,-0.04065132638132303,0.7457696190831514,0.0211239237354084,-0.128335,-26.780392
11.185,2.0,1.0,1.0,33.2,33.7,33.7,1.6,1.9,2.6225,0.6371108358483721,-0.04165047167090147,0.751278948874261,0.021139782437803928,-0.130804,-26.612145
11.185,2.0,1.0,1.0,33.2,33.7,33.7,1.6,1.9,2.625,0.630132438541728,-0.042677537876868,0.756765285418441,0.0211461544118104,-0.133355,-26.442551
11.185,2.0,1.0,1.0,33.2,33.7,33.7,1.6,1.9,2.6275,0.6230424929071072,-0.043733494140605914,0.7622272532095968,0.021142397780473634,-0.13599,-26.27158
11.185,2.0,1.0,1.0,33.2,33.7,33.7,1.6,1.9,2.63,0.6158389209190388,-0.04481935031126888,0.7676634088869467,0.02112782831800291,-0.138714,-26.099203
11.185,2.0,1.0,1.0,33.2,33.7,33.7,1.6,1.9,2.6325,0.6085195841826301,-0.04593615889180539,0.7730722372356221,0.021101716366068987,-0.14153,-25.925389
11.185,2.0,1.0,1.0,33.2,33.7,33.7,1.6,1.9,2.635,0.6010822816480389,-0.04708501708284584,0.7784521469002973,0.021063283498168297,-0.144444,-25.750105
11.185,2.0,1.0,1.0,33.2,33.7,33.7,1.6,1.9,2.6375,0.5935247472242476,-0.04826706892872732,0.7838014657873241,0.02101169890900536,-0.147459,-25.573319
11.185,2.0,1.0,1.0,33.2,33.7,33.7,1.6,1.9,2.64,0.5858446472882859,-0.04948350756993352,0.7891184361284184,0.02094607550350206,-0.15058,-25.394997
11.185,2.0,1.0,1.0,33.2,33.7,33.7,1.6,1.9,2.6425,0.5780395780861713,-0.05073557760616586,0.7944012091762519,0.020865465657442153,-0.153813,-25.215105
11.185,2.0,1.0,1.0,33.2,33.7,33.7,1.6,1.9,2.645,0.5701070630219508,-0.05202457757415202,0.799647839499355,0.02076885661886338,-0.157164,-25.033606
11.185,2.0,1.0,1.0,33.2,33.7,33.7,1.6,1.9,2.6475,0.5620445498314993,-0.05335186254410663,0.8048562788403891,0.020655165516087596,-0.160637,-24.850464
11.185,2.0,1.0,1.0,33.2,33.7,33.7,1.6,1.9,2.65,0.5538494076380122,-0.0547188468384728,0.8100243694982193,0.02052323393468696,-0.164239,-24.665641
11.185,2.0,1.0,1.0,33.2,33.7,33.7,1.6,1.9,2.6525,0.5455189238866524,-0.056127006876165626,0.8151498371900199,0.020371822021682005,-0.167978,-24.479098
11.185,2.0,1.0,1.0,33.2,33.7,33.7,1.6,1.9,2.655,0.5370503011563327,-0.05757788414500494,0.8202302833451847,0.020199602070793167,-0.171859,-24.290794
11.185,2.0,1.0,1.0,33.2,33.7,33.7,1.6,1.9,2.6575,0.5284406538474443,-0.05907308830429631,0.8252631767776185,0.0200051515375785,-0.175891,-24.100687
11.185,2.0,1.0,1.0,33.2,33.7,33.7,1.6,1.9,2.66,0.5196870047453158,-0.06061430041859412,0.8302458446773154,0.01978694542770486,-0.180081,-23.908736
11.185,2.0,1.0,1.0,33.2,33.7,33.7,1.6,1.9,2.6625,0.5107862814604466,-0.06220327632249108,0.8351754628557595,0.019543347995354753,-0.184438,-23.714895
11.185,2.0,1.0,1.0,33.2,33.7,33.7,1.6,1.9,2.665,0.5017353127481194,-0.06384185011478258,0.840049045172546,0.01927260368177779,-0.188972,-23.519119
11.185,2.0,1.0,1.0,33.2,33.7,33.7,1.6,1.9,2.6675,0.4925308247119871,-0.06553193777847054,0.844863432062628,0.01897282721615536,-0.193691,-23.32136
11.185,2.0,1.0,1.0,33.2,33.7,33.7,1.6,1.9,2.67,0.48316943689861835,-0.06727554092073908,0.8496152780746442,0.01864199279216179,-0.198608,-23.12157
11.185,2.0,1.0,1.0,33.2,33.7,33.7,1.6,1.9,2.6725,0.47364765829298805,-0.06907475062414649,0.85430103832077,0.01827792222373449,-0.203732,-22.919699
11.185,2.0,1.0,1.0,33.2,33.7,33.7,1.6,1.9,2.675,0.46396188322858156,-0.07093175139670733,0.8589169537272361,0.017878271972493188,-0.209076,-22.715694
11.185,2.0,1.0,1.0,33.2,33.7,33.7,1.6,1.9,2.6775,0.454108387230251,-0.07284882520417839,0.8634590349620209,0.017440518926794386,-0.214653,-22.509502
11.185,2.0,1.0,1.0,33.2,33.7,33.7,1.6,1.9,2.68,0.44408332281343366,-0.07482835556250418,0.8679230449020452,0.0169619447984091,-0.220477,-22.301067
11.185,2.0,1.0,1.0,33.2,33.7,33.7,1.6,1.9,2.6825,0.43388271527005934,-0.07687283166184346,0.8723044794861311,0.01643961898706283,-0.226563,-22.090331
11.185,2.0,1.0,1.0,33.2,33.7,33.7,1.6,1.9,2.685,0.4235024584795496,-0.07898485248563461,0.8765985467821049,0.01587037974534704,-0.232928,-21.877235
11.185,2.0,1.0,1.0,33.2,33.7,33.7,1.6,1.9,2.6875,0.41293831079322035,-0.08116713087845784,0.880800144076101,0.015250813456548216,-0.239588,-21.661717
11.185,2.0,1.0,1.0,33.2,33.7,33.7,1.6,1.9,2.69,0.40218589105238256,-0.08342249750465806,0.8849038327693857,0.014577231815457786,-0.246563,-21.443713
11.185,2.0,1.0,1.0,33.2,33.7,33.7,1.6,1.9,2.6925,0.39124067481494823,-0.0857539046253735,0.8889038108423517,0.013845646676886978,-0.253873,-21.223158
11.185,2.0,1.0,1.0,33.2,33.7,33.7,1.6,1.9,2.695,0.3800979908830672,-0.0881644296042093,0.8927938826164118,0.013051742308079624,-0.261541,-20.999982
11.185,2.0,1.0,1.0,33.2,33.7,33.7,1.6,1.9,2.6975,0.3687530182456014,-0.09065727803069368,0.8965674255120323,0.012190844749051804,-0.26959,-20.774116
11.185,2.0,1.0,1.0,33.2,33.7,33.7,1.6,1.9,2.7,0.35720078357531293,-0.09323578632501613,0.9002173534644158,0.011257887948687807,-0.278047,-20.545486
11.185,2.0,1.0,1.0,33.2,33.7,33.7,1.6,1.9,2.7025,0.3454361594519748,-0.09590342365646536,0.9037360766172412,0.010247376303655456,-0.28694,-20.314015
11.185,2.0,1.0,1.0,33.2,33.7,33.7,1.6,1.9,2.705,0.3334538635208643,-0.09866379297022956,0.9071154568683859,0.009153343181368852,-0.296299,-20.079625
11.185,2.0,1.0,1.0,33.2,33.7,33.7,1.6,1.9,2.7075,0.3212484588423311,-0.10152063087141068,0.9103467587895696,0.007969304956723771,-0.306159,-19.842234
11.185,2.0,1.0,1.0,33.2,33.7,33.7,1.6,1.9,2.71,0.30881435574434424,-0.1044778060594493,0.9134205953834461,0.006688210034567496,-0.316555,-19.601758
11.185,2.0,1.0,1.0,33.2,33.7,33.7,1.6,1.9,2.7125,0.29614581555816094,-0.10753931593855291,0.9163268680763121,0.005302382265203152,-0.327529,-19.358109
11.185,2.0,1.0,1.0,33.2,33.7,33.7,1.6,1.9,2.715,0.2832369567001898,-0.11070928094751793,0.9190547002716583,0.003803458088037436,-0.339124,-19.111196
11.185,2.0,1.0,1.0,33.2,33.7,33.7,1.6,1.9,2.7175,0.2700817636639202,-0.11399193605237243,0.9215923637086442,0.002182316658172088,-0.351388,-18.860926
11.185,2.0,1.0,1.0,33.2,33.7,33.7,1.6,1.9,2.72,0.2566740996085264,-0.11739161872357814,0.9239271967797016,0.0004290021217879458,-0.364374,-18.6072
11.185,2.0,1.0,1.0,33.2,33.7,33.7,1.6,1.9,2.7225,0.2430077233800216,-0.12091275257136073,0.9260455138625129,-0.0014673628917819537,-0.37814,-18.349918
11.185,2.0,1.0,1.0,33.2,33.7,33.7,1.6,1.9,2.725,0.22907631198294673,-0.12455982563213305,0.9279325046134426,-0.00351867360043192,-0.39275,-18.088976
11.185,2.0,1.0,1.0,33.2,33.7,33.7,1.6,1.9,2.7275,0.21487348974227435,-0.12833736207880303,0.9295721220524631,-0.005737950377101745,-0.408274,-17.824265
11.185,2.0,1.0,1.0,33.2,33.7,33.7,1.6,1.9,2.73,0.20039286566600642,-0.13224988585906883,0.9309469581445831,-0.008139458313691835,-0.424791,-17.555674
11.185,2.0,1.0,1.0,33.2,33.7,33.7,1.6,1.9,2.7325,0.18562808084910443,-0.13630187443788222,0.9320381054517061,-0.010738840449415869,-0.442388,-17.283088
11.185,2.0,1.0,1.0,33.2,33.7,33.7,1.6,1.9,2.735,0.17057286816282508,-0.14049770041975473,0.9328250032948215,-0.01355326620437801,-0.461159,-17.006388
11.185,2.0,1.0,1.0,33.2,33.7,33.7,1.6,1.9,2.7375,0.15522112696603416,-0.1448415583374236,0.9332852667347198,-0.01660159668926698,-0.481212,-16.725452
11.185,2.0,1.0,1.0,33.2,33.7,33.7,1.6,1.9,2.74,0.13956701617681083,-0.14933737329582905,0.9333944965578443,-0.0199045686819227,-0.502665,-16.440154
11.185,2.0,1.0,1.0,33.2,33.7,33.7,1.6,1.9,2.7425,0.12360506977740822,-0.1539886874305646,0.9331260683542585,-0.023484999159447115,-0.525651,-16.150365
11.185,2.0,1.0,1.0,33.2,33.7,33.7,1.6,1.9,2.745,0.10733033972257122,-0.15879851924908348,0.9324508987142216,-0.027368012333344953,-0.550317,-15.855953
11.185,2.0,1.0,1.0,33.2,33.7,33.7,1.6,1.9,2.7475,0.0907385723150957,-0.163769189836441,0.9313371865732348,-0.03158129113031406,-0.576831,-15.556784
11.185,2.0,1.0,1.0,33.2,33.7,33.7,1.6,1.9,2.75,0.0738264254446963,-0.168902108584139,0.92975012783772,-0.0361553549577508,-0.605378,-15.25272
11.185,2.0,1.0,1.0,33.2,33.7,33.7,1.6,1.9,2.7525,0.05659173570531046,-0.17419750949247878,0.9276516016743903,-0.041123865341587414,-0.636169,-14.943625
11.185,2.0,1.0,1.0,33.2,33.7,33.7,1.6,1.9,2.755,0.03903384636808283,-0.17965412714807735,0.9249998273146794,-0.04652396055595725,-0.66944,-14.629358
11.185,2.0,1.0,1.0,33.2,33.7,33.7,1.6,1.9,2.7575,0.021154009555354257,-0.1852687991262307,0.9217489910074566,-0.05239661958407896,-0.70546,-14.309782
11.185,2.0,1.0,1.0,33.2,33.7,33.7,1.6,1.9,2.76,0.0029558788040506593,-0.19103597874455833,0.9178488439805182,-0.05878705452624232,-0.744532,-13.98476
11.185,2.0,1.0,1.0,33.2,33.7,33.7,1.6,1.9,2.7625,-0.01555388840562766,-0.19694713873053082,0.9132442741249336,-0.0657451287241352,-0.787001,-13.65416
11.185,2.0,1.0,1.0,33.2,33.7,33.7,1.6,1.9,2.765,-0.034364894583433996,-0.2029900423974467,0.9078748568421475,-0.0733257951564533,-0.833262,-13.317853
11.185,2.0,1.0,1.0,33.2,33.7,33.7,1.6,1.9,2.7675,-0.053462104400699866,-0.20914785430696925,0.9016743944232553,-0.0815895457491079,-0.883764,-12.975722
11.185,2.0,1.0,1.0,33.2,33.7,33.7,1.6,1.9,2.77,-0.07282475156824585,-0.21539805712829904,0.894570458906972,-0.090602856693577,-0.939022,-12.62766
11.185,2.0,1.0,1.0,33.2,33.7,33.7,1.6,1.9,2.7725,-0.09242501099556444,-0.2217111355585384,0.8864839611735749,-0.10043860709624503,-0.999628,-12.273575
11.185,2.0,1.0,1.0,33.2,33.7,33.7,1.6,1.9,2.775,-0.11222639053744699,-0.22804898195380813,0.8773287798413826,-0.1111764375305175,-1.066264,-11.913398
11.185,2.0,1.0,1.0,33.2,33.7,33.7,1.6,1.9,2.7775,-0.13218179041956044,-0.23436297216524168,0.8670114983182169,-0.12290300036048875,-1.139715,-11.547087
11.185,2.0,1.0,1.0,33.2,33.7,33.7,1.6,1.9,2.78,-0.15223117305828618,-0.24059165475958402,0.8554313183426261,-0.1357120338391463,-1.220892,-11.174635
11.185,2.0,1.0,1.0,33.2,33.7,33.7,1.6,1.9,2.7825,-0.17229878278453983,-0.24665799365672555,0.8424802449939292,-0.14970416550143162,-1.310854,-10.796079
11.185,2.0,1.0,1.0,33.2,33.7,33.7,1.6,1.9,2.785,-0.19228985610116434,-0.2524661053803087,0.8280436731177493,-0.16498631562562663,-1.41083,-10.411514
11.185,2.0,1.0,1.0,33.2,33.7,33.7,1.6,1.9,2.7875,-0.2120867719035418,-0.25789744092890826,0.8120015501091589,-0.1816705268379707,-1.522255,-10.021103
11.185,2.0,1.0,1.0,33.2,33.7,33.7,1.6,1.9,2.79,-0.23154461261793402,-0.26280638374881105,0.7942303464223591,-0.1998719898995352,-1.646806,-9.625097
11.185,2.0,1.0,1.0,33.2,33.7,33.7,1.6,1.9,2.7925,-0.25048614877939473,-0.26701527669638364,0.7746061334772729,-0.21970596791470978,-1.78645,-9.223855
11.185,2.0,1.0,1.0,33.2,33.7,33.7,1.6,1.9,2.795,-0.2686963313696239,-0.27030896233701435,0.753009147120501,-0.24128324333459955,-1.943493,-8.817864
11.185,2.0,1.0,1.0,33.2,33.7,33.7,1.6,1.9,2.7975,-0.2859164917211057,-0.2724290357947297,0.7293302977247841,-0.26470362993130675,-2.120645,-8.40777
11.185,2.0,1.0,1.0,33.2,33.7,33.7,1.6,1.9,2.8,-0.30183862444856996,-0.2730681839864664,0.7034801626135156,-0.29004701810262923,-2.321091,-7.994408
11.185,2.0,1.0,1.0,33.2,33.7,33.7,1.6,1.9,2.8025,-0.31610038249662625,-0.27186523708103894,0.6754010388248364,-0.3173613802570654,-2.54858,-7.578838
11.185,2.0,1.0,1.0,33.2,33.7,33.7,1.6,1.9,2.805,-0.32828175962762873,-0.2684019018610257,0.6450826039424571,-0.34664719372220437,-2.807512,-7.162379
11.185,2.0,1.0,1.0,33.2,33.7,33.7,1.6,1.9,2.8075,-0.3379048767833229,-0.262202584448667,0.6125815679372123,-0.3778379030702931,-3.103042,-6.746657
11.185,2.0,1.0,1.0,33.2,33.7,33.7,1.6,1.9,2.81,-0.34443879857263,-0.2527392154082411,0.5780453140196701,-0.4107764269619064,-3.441181,-6.333634
11.185,2.0,1.0,1.0,33.2,33.7,33.7,1.6,1.9,2.8125,-0.3473118058841898,-0.2394434850998349,0.5417388183483669,-0.4451884186975154,-3.82888,-5.925651
11.185,2.0,1.0,1.0,33.2,33.7,33.7,1.6,1.9,2.815,-0.34593387895600297,-0.2217292209456617,0.5040730110164876,-0.4806541096006967,-4.274074,-5.525439
11.185,2.0,1.0,1.0,33.2,33.7,33.7,1.6,1.9,2.8175,-0.3397320332804904,-0.19902752402922114,0.46563115901971147,-0.5165821342521438,-4.785609,-5.136134
11.185,2.0,1.0,1.0,33.2,33.7,33.7,1.6,1.9,2.82,-0.32820022682324446,-0.1708363616465915,0.42718793315116677,-0.5521906391679022,-5.372952,-4.761241
11.185,2.0,1.0,1.0,33.2,33.7,33.7,1.6,1.9,2.8225,-0.31096342194841303,-0.13678418990387076,0.38971395196520947,-0.586502826808619,-6.045422,-4.404579
11.185,2.0,1.0,1.0,33.2,33.7,33.7,1.6,1.9,2.825,-0.28785180208210115,-0.09670362286356854,0.35435752544830335,-0.6183651418558493,-6.810441,-4.070164
11.185,2.0,1.0,1.0,33.2,33.7,33.7,1.6,1.9,2.8275,-0.25897634779519957,-0.050706409073820576,0.32239611597592693,-0.6464955086575587,-7.669836,-3.762055
11.185,2.0,1.0,1.0,33.2,33.7,33.7,1.6,1.9,2.83,-0.22479201396552417,0.0007539392582242256,0.29515376443649527,-0.6695653192021243,-8.612326,-3.484135
