1,w,sub_t,h,l1,l2,l3,g1,g2,Freq,S11_re,S21_re,S11_img,S21_img,S11_dB,S21_dB
11.185,2.0,1.0,1.0,33.6,34.3,34.3,3.8,2.3,2.5,0.836575319435829,-0.00785416869887418,0.536017976525028,0.00597954737489217,-0.056065,-40.112496
11.185,2.0,1.0,1.0,33.6,34.3,34.3,3.8,2.3,2.5025,0.8328899804057641,-0.008013770109894557,0.5416106158046016,0.006004983615336802,-0.056618,-39.987842
11.185,2.0,1.0,1.0,33.6,34.3,34.3,3.8,2.3,2.505,0.8291505199867591,-0.008176426808137679,0.5472011480861306,0.006029703908054871,-0.057182,-39.862728
11.185,2.0,1.0,1.0,33.6,34.3,34.3,3.8,2.3,2.5075,0.8253563935798528,-0.00834221000331066,0.5527892963267647,0.006053674530957234,-0.057756,-39.737142
11.185,2.0,1.0,1.0,33.6,34.3,34.3,3.8,2.3,2.51,0.8215070475957037,-0.008511193114784352,0.5583747751741072,0.0060768603630138975,-0.058341,-39.611072
11.185,2.0,1.0,1.0,33.6,34.3,34.3,3.8,2.3,2.5125,0.8176019192829436,-0.008683451858673084,0.5639572906927031,0.006099224818207601,-0.058938,-39.484505
11.185,2.0,1.0,1.0,33.6,34.3,34.3,3.8,2.3,2.515,0.8136404365522021,-0.008859064339106947,0.5695365400808531,0.006120729775863314,-0.059546,-39.357429
11.185,2.0,1.0,1.0,33.6,34.3,34.3,3.8,2.3,2.5175,0.8096220177956215,-0.009038111143935693,0.5751122113773152,0.006141335507123557,-0.060166,-39.229831
11.185,2.0,1.0,1.0,33.6,34.3,34.3,3.8,2.3,2.52,0.805546071701663,-0.00922067544511884,0.580683983157493,0.006161000597321374,-0.060798,-39.101698
11.185,2.0,1.0,1.0,33.6,34.3,34.3,3.8,2.3,2.5225,0.8014119970650112,-0.009406843104073852,0.5862515242186209,0.0061796818639857,-0.061442,-38.973017
11.185,2.0,1.0,1.0,33.6,34.3,34.3,3.8,2.3,2.525,0.797219182591347,-0.00959670278227154,0.5918144932534902,0.006197334270193511,-0.062099,-38.843773
11.185,2.0,1.0,1.0,33.6,34.3,34.3,3.8,2.3,2.5275,0.7929670066967532,-0.009790346057388342,0.5973725385122002,0.006213910832961389,-0.06277,-38.713954
11.185,2.0,1.0,1.0,33.6,34.3,34.3,3.8,2.3,2.53,0.788654837301512,-0.00998786754534574,0.6029252974513882,0.006229362526347654,-0.063454,-38.583544
11.185,2.0,1.0,1.0,33.6,34.3,34.3,3.8,2.3,2.5325,0.7842820316180155,-0.010189365028588322,0.6084723963703799,0.006243638178907736,-0.064152,-38.45253
11.185,2.0,1.0,1.0,33.6,34.3,34.3,3.8,2.3,2.535,0.779847935932504,-0.010394939590979431,0.6140134500336542,0.006256684365122341,-0.064865,-38.320896
11.185,2.0,1.0,1.0,33.6,34.3,34.3,3.8,2.3,2.5375,0.7753518853803275,-0.01060469575971504,0.619548061278978,0.006268445290383799,-0.065592,-38.188628
11.185,2.0,1.0,1.0,33.6,34.3,34.3,3.8,2.3,2.54,0.7707932037143916,-0.010818741654689577,0.6250758206105402,0.006278862669097652,-0.066335,-38.055709
11.185,2.0,1.0,1.0,33.6,34.3,34.3,3.8,2.3,2.5425,0.7661712030664358,-0.011037189145773427,0.6305963057763649,0.006287875595417746,-0.067093,-37.922124
11.185,2.0,1.0,1.0,33.6,34.3,34.3,3.8,2.3,2.545,0.7614851837007571,-0.011260154018498513,0.6361090813292327,0.006295420406097786,-0.067867,-37.787856
11.185,2.0,1.0,1.0,33.6,34.3,34.3,3.8,2.3,2.5475,0.7567344337599737,-0.011487756148679926,0.6416136981702972,0.006301430534897509,-0.068658,-37.65289
11.185,2.0,1.0,1.0,33.6,34.3,34.3,3.8,2.3,2.55,0.7519182290023697,-0.011720119686544173,0.6471096930745407,0.006305836357938744,-0.069467,-37.517207
11.185,2.0,1.0,1.0,33.6,34.3,34.3,3.8,2.3,2.5525,0.747035832530363,-0.011957373250972056,0.6525965881971211,0.0063085650293546154,-0.070292,-37.38079
11.185,2.0,1.0,1.0,33.6,34.3,34.3,3.8,2.3,2.555,0.7420864945095585,-0.012199650134511754,0.658073890559645,0.006309540306521419,-0.071137,-37.243622
11.185,2.0,1.0,1.0,33.6,34.3,34.3,3.8,2.3,2.5575,0.7370694518778396,-0.012447088519865122,0.6635410915153048,0.006308682364103149,-0.072,-37.105683
11.185,2.0,1.0,1.0,33.6,34.3,34.3,3.8,2.3,2.56,0.7319839280438941,-0.012699831708602638,0.668997666191746,0.006305907596073446,-0.072882,-36.966955
11.185,2.0,1.0,1.0,33.6,34.3,34.3,3.8,2.3,2.5625,0.7268291325745195,-0.012958028362919967,0.6744430729104578,0.00630112840480712,-0.073784,-36.827419
11.185,2.0,1.0,1.0,33.6,34.3,34.3,3.8,2.3,2.565,0.7216042608700043,-0.013221832761310448,0.679876752581407,0.00629425297625636,-0.074707,-36.687054
11.185,2.0,1.0,1.0,33.6,34.3,34.3,3.8,2.3,2.5675,0.7163084938268214,-0.01349140506909519,0.6852981280714963,0.006285185040139792,-0.075652,-36.54584
11.185,2.0,1.0,1.0,33.6,34.3,34.3,3.8,2.3,2.57,0.7109409974868055,-0.013766911624824706,0.6907066035453745,0.0062738236139774604,-0.076618,-36.403756
11.185,2.0,1.0,1.0,33.6,34.3,34.3,3.8,2.3,2.5725,0.7055009226719141,-0.014048525243646245,0.6961015637769871,0.006260062729702083,-0.077607,-36.260781
11.185,2.0,1.0,1.0,33.6,34.3,34.3,3.8,2.3,2.575,0.6999874046036022,-0.014336425538815348,0.7014823734301275,0.006243791141460474,-0.07862,-36.116891
11.185,2.0,1.0,1.0,33.6,34.3,34.3,3.8,2.3,2.5775,0.6943995625057485,-0.014630799262625763,0.7068483763061245,0.00622489201309431,-0.079657,-35.972065
11.185,2.0,1.0,1.0,33.6,34.3,34.3,3.8,2.3,2.58,0.6887364991899919,-0.014931840668131536,0.7121988945566461,0.006203242583649938,-0.08072,-35.826278
11.185,2.0,1.0,1.0,33.6,34.3,34.3,3.8,2.3,2.5825,0.6829973006222159,-0.015239751893147952,0.7175332278594414,0.006178713809111834,-0.081808,-35.679507
11.185,2.0,1.0,1.0,33.6,34.3,34.3,3.8,2.3,2.585,0.6771810354688336,-0.01555474336813861,0.7228506525546491,0.006151169978386468,-0.082924,-35.531726
11.185,2.0,1.0,1.0,33.6,34.3,34.3,3.8,2.3,2.5875,0.6712867546213822,-0.015877034249726814,0.728150420739117,0.006120468301373732,-0.084067,-35.382909
11.185,2.0,1.0,1.0,33.6,34.3,34.3,3.8,2.3,2.59,0.665313490697824,-0.016206852881715157,0.7334317593159433,0.006086458466756066,-0.08524,-35.23303
11.185,2.0,1.0,1.0,33.6,34.3,34.3,3.8,2.3,2.5925,0.6592602575187827,-0.01654443728565361,0.7386938689962204,0.006048982166903633,-0.086442,-35.082062
11.185,2.0,1.0,1.0,33.6,34.3,34.3,3.8,2.3,2.595,0.6531260495568157,-0.016890035683168873,0.7439359232496796,0.006007872587039301,-0.087676,-34.929976
11.185,2.0,1.0,1.0,33.6,34.3,34.3,3.8,2.3,2.5975,0.6469098413566066,-0.017243907052456924,0.7491570672006432,0.005962953855520844,-0.088942,-34.776743
11.185,2.0,1.0,1.0,33.6,34.3,34.3,3.8,2.3,2.6,0.6406105869238005,-0.01760632172154451,0.7543564164653803,0.005914040451783217,-0.090241,-34.622332
11.185,2.0,1.0,1.0,33.6,34.3,34.3,3.8,2.3,2.6025,0.6342272190799916,-0.017977562001153947,0.7595330559265446,0.005860936568129753,-0.091576,-34.466713
11.185,2.0,1.0,1.0,33.6,34.3,34.3,3.8,2.3,2.605,0.6277586487811061,-0.018357922860251733,0.764686038440031,0.0058034354211690346,-0.092947,-34.309854
11.185,2.0,1.0,1.0,33.6,34.3,34.3,3.8,2.3,2.6075,0.6212037643962085,-0.018747712647632263,0.7698143834690742,0.005741318508255356,-0.094355,-34.15172
11.185,2.0,1.0,1.0,33.6,34.3,34.3,3.8,2.3,2.61,0.6145614309434461,-0.019147253863187882,0.7749170756399498,0.005674354803800693,-0.095802,-33.992278
11.185,2.0,1.0,1.0,33.6,34.3,34.3,3.8,2.3,2.6125,0.6078304892795389,-0.019556883982842627,0.7799930632130386,0.0056022998897761675,-0.097291,-33.831492
11.185,2.0,1.0,1.0,33.6,34.3,34.3,3.8,2.3,2.615,0.6010097552388783,-0.019976956341487426,0.7850412564624231,0.005524895014108244,-0.098821,-33.669324
11.185,2.0,1.0,1.0,33.6,34.3,34.3,3.8,2.3,2.6175,0.5940980187179233,-0.020407841078650207,0.7900605259564111,0.005441866069982654,-0.100396,-33.505737
11.185,2.0,1.0,1.0,33.6,34.3,34.3,3.8,2.3,2.62,0.5870940427001419,-0.020849926152069997,0.7950497007306759,0.005352922488295444,-0.102017,-33.340691
11.185,2.0,1.0,1.0,33.6,34.3,34.3,3.8,2.3,2.6225,0.5799965622162929,-0.02130361842482577,0.8000075663447183,0.005257756034617478,-0.103686,-33.174144
11.185,2.0,1.0,1.0,33.6,34.3,34.3,3.8,2.3,2.625,0.572804283234334,-0.0217693448321956,0.804932862811406,0.00515603950105558,-0.105405,-33.006054
11.185,2.0,1.0,1.0,33.6,34.3,34.3,3.8,2.3,2.6275,0.5655158814726435,-0.022247553635010152,0.8098242823882107,0.005047425282285987,-0.107177,-32.836376
11.185,2.0,1.0,1.0,33.6,34.3,34.3,3.8,2.3,2.63,0.5581300011296417,-0.022738715766904293,0.8146804672174509,0.004931543823779322,-0.109004,-32.665064
11.185,2.0,1.0,1.0,33.6,34.3,34.3,3.8,2.3,2.6325,0.550645253522181,-0.023243326283582368,0.8195000068014348,0.00480800192882149,-0.110887,-32.49207
11.185,2.0,1.0,1.0,33.6,34.3,34.3,3.8,2.3,2.635,0.5430602156243052,-0.023761905922997543,0.824281435296735,0.004676380909322814,-0.112831,-32.317344
11.185,2.0,1.0,1.0,33.6,34.3,34.3,3.8,2.3,2.6375,0.5353734284971192,-0.02429500278621125,0.8290232286099936,0.004536234563584787,-0.114838,-32.140835
11.185,2.0,1.0,1.0,33.6,34.3,34.3,3.8,2.3,2.64,0.5275833955995517,-0.024843194149660883,0.8337238012755194,0.004387086962115389,-0.11691,-31.962488
11.185,2.0,1.0,1.0,33.6,34.3,34.3,3.8,2.3,2.6425,0.5196885809687513,-0.025407088420617792,0.8383815030925438,0.0042284300202184676,-0.119051,-31.782247
11.185,2.0,1.0,1.0,33.6,34.3,34.3,3.8,2.3,2.645,0.5116874072576784,-0.025987327248796613,0.8429946154972637,0.004059720833384254,-0.121265,-31.600053
11.185,2.0,1.0,1.0,33.6,34.3,34.3,3.8,2.3,2.6475,0.5035782536161616,-0.026584587808368382,0.8475613476416511,0.0038803787484190787,-0.123555,-31.415845
11.185,2.0,1.0,1.0,33.6,34.3,34.3,3.8,2.3,2.65,0.49535945340023285,-0.027199585266068964,0.8520798321474525,0.003689782139721466,-0.125925,-31.22956
11.185,2.0,1.0,1.0,33.6,34.3,34.3,3.8,2.3,2.6525,0.48702929169300746,-0.02783307545267708,0.8565481204996277,0.003487264856054123,-0.128379,-31.04113
11.185,2.0,1.0,1.0,33.6,34.3,34.3,3.8,2.3,2.655,0.47858600261853956,-0.028485857756897253,0.8609641780388267,0.003272112298499149,-0.130922,-30.850485
11.185,2.0,1.0,1.0,33.6,34.3,34.3,3.8,2.3,2.6575,0.4700277664281882,-0.029158778262617938,0.8653258785069878,0.003043557084916964,-0.133559,-30.657553
11.185,2.0,1.0,1.0,33.6,34.3,34.3,3.8,2.3,2.66,0.46135270633682074,-0.029852733152662885,0.8696309980939082,0.0028007742500299384,-0.136294,-30.462258
11.185,2.0,1.0,1.0,33.6,34.3,34.3,3.8,2.3,2.6625,0.45255888508381303,-0.03056867240451831,0.873877208925342,0.002542875923085323,-0.139134,-30.264519
11.185,2.0,1.0,1.0,33.6,34.3,34.3,3.8,2.3,2.665,0.4436443011911265,-0.031307603806128084,0.8780620719247835,0.002268905416748572,-0.142084,-30.064254
11.185,2.0,1.0,1.0,33.6,34.3,34.3,3.8,2.3,2.6675,0.43460688488785687,-0.032070597322716776,0.8821830289713186,0.0019778306512279577,-0.145151,-29.861373
11.185,2.0,1.0,1.0,33.6,34.3,34.3,3.8,2.3,2.67,0.425444493667415,-0.03285878984875492,0.8862373942645393,0.0016685368264049804,-0.148342,-29.655785
11.185,2.0,1.0,1.0,33.6,34.3,34.3,3.8,2.3,2.6725,0.4161549074399751,-0.033673390382629044,0.8902223447942696,0.001339818241642138,-0.151664,-29.447393
11.185,2.0,1.0,1.0,33.6,34.3,34.3,3.8,2.3,2.675,0.4067358232389952,-0.0345156856653419,0.8941349097973104,0.0009903691476192472,-0.155126,-29.236096
11.185,2.0,1.0,1.0,33.6,34.3,34.3,3.8,2.3,2.6775,0.3971848494363983,-0.035387046328652784,0.8979719590652525,0.0006187734965896137,-0.158737,-29.021786
11.185,2.0,1.0,1.0,33.6,34.3,34.3,3.8,2.3,2.68,0.38749949941648887,-0.03628893360247383,0.9017301899459903,0.00022349343633665462,-0.162505,-28.804351
11.185,2.0,1.0,1.0,33.6,34.3,34.3,3.8,2.3,2.6825,0.3776771846537986,-0.03722290663604653,0.9054061128564667,-0.00019714363175169156,-0.166443,-28.583673
11.185,2.0,1.0,1.0,33.6,34.3,34.3,3.8,2.3,2.685,0.36771520713491185,-0.03819063049241385,0.908996035094326,-0.0006449596394539182,-0.17056,-28.359625
11.185,2.0,1.0,1.0,33.6,34.3,34.3,3.8,2.3,2.6875,0.35761075105887935,-0.03919388488089259,0.9124960427010597,-0.0011219423270871565,-0.17487,-28.132077
11.185,2.0,1.0,1.0,33.6,34.3,34.3,3.8,2.3,2.69,0.3473608737453421,-0.040234573697554565,0.9159019800872498,-0.0016302638925628887,-0.179387,-27.900888
11.185,2.0,1.0,1.0,33.6,34.3,34.3,3.8,2.3,2.6925,0.3369624956738484,-0.04131473544897053,0.919209427080815,-0.0021723021484374334,-0.184126,-27.665911
11.185,2.0,1.0,1.0,33.6,34.3,34.3,3.8,2.3,2.695,0.32641238957269914,-0.04243655463941323,0.9224136729995094,-0.0027506645800616934,-0.189102,-27.426989
11.185,2.0,1.0,1.0,33.6,34.3,34.3,3.8,2.3,2.6975,0.31570716847083047,-0.04360237420599658,0.9255096872777,-0.0033682157684024722,-0.194335,-27.183959
11.185,2.0,1.0,1.0,33.6,34.3,34.3,3.8,2.3,2.7,0.30484327262282573,-0.04481470908932496,0.9284920860916261,-0.004028108725767755,-0.199844,-26.936642
11.185,2.0,1.0,1.0,33.6,34.3,34.3,3.8,2.3,2.7025,0.29381695521532636,-0.04607626102839462,0.9313550943240816,-0.004733820794763611,-0.205651,-26.684855
11.185,2.0,1.0,1.0,33.6,34.3,34.3,3.8,2.3,2.705,0.28262426676443725,-0.04738993466665324,0.9340925020843249,-0.005489194884274011,-0.211782,-26.428397
11.185,2.0,1.0,1.0,33.6,34.3,34.3,3.8,2.3,2.7075,0.27126103811924557,-0.048758855049807065,0.9366976148474245,-0.006298486966085344,-0.218263,-26.167059
11.185,2.0,1.0,1.0,33.6,34.3,34.3,3.8,2.3,2.71,0.2597228619987696,-0.05018638658302133,0.939163196092419,-0.007166420938202563,-0.225126,-25.900616
11.185,2.0,1.0,1.0,33.6,34.3,34.3,3.8,2.3,2.7125,0.24800507301122995,-0.05167615349264343,0.9414814010929705,-0.008098252183782429,-0.232403,-25.628829
11.185,2.0,1.0,1.0,33.6,34.3,34.3,3.8,2.3,2.715,0.23610272613980435,-0.05323206180128901,0.9436437002374438,-0.00909984142785639,-0.240134,-25.35144
11.185,2.0,1.0,1.0,33.6,34.3,34.3,3.8,2.3,2.7175,0.22401057373380426,-0.05485832276919922,0.9456407899147703,-0.010177740830211163,-0.248361,-25.068178
11.185,2.0,1.0,1.0,33.6,34.3,34.3,3.8,2.3,2.72,0.21172304112685408,-0.056559477670940404,0.9474624885818719,-0.01133929466790301,-0.257132,-24.778749
11.185,2.0,1.0,1.0,33.6,34.3,34.3,3.8,2.3,2.7225,0.19923420112568938,-0.05834042365309759,0.9490976151072391,-0.012592757475290806,-0.266502,-24.482838
11.185,2.0,1.0,1.0,33.6,34.3,34.3,3.8,2.3,2.725,0.18653774779138624,-0.0602064402391331,0.9505338458369289,-0.013947433149200394,-0.276532,-24.18011
11.185,2.0,1.0,1.0,33.6,34.3,34.3,3.8,2.3,2.7275,0.1736269701924347,-0.062163215788669186,0.9517575460199201,-0.015413839325260097,-0.287294,-23.8702
11.185,2.0,1.0,1.0,33.6,34.3,34.3,3.8,2.3,2.73,0.16049472717968974,-0.06421687284679228,0.9527535702160924,-0.017003902331383464,-0.298866,-23.55272
11.185,2.0,1.0,1.0,33.6,34.3,34.3,3.8,2.3,2.7325,0.14713342476456528,-0.06637399078705317,0.9535050250358675,-0.018731189280892326,-0.311343,-23.227249
11.185,2.0,1.0,1.0,33.6,34.3,34.3,3.8,2.3,2.735,0.13353499844267172,-0.06864162339130975,0.9539929859541196,-0.020611185451598724,-0.324828,-22.893333
11.185,2.0,1.0,1.0,33.6,34.3,34.3,3.8,2.3,2.7375,0.11969090389456259,-0.07102730792193446,0.9541961579096305,-0.022661627099230024,-0.339446,-22.55048
11.185,2.0,1.0,1.0,33.6,34.3,34.3,3.8,2.3,2.74,0.10559212105725496,-0.0735390606842521,0.9540904668268487,-0.024902902390220825,-0.355337,-22.198161
11.185,2.0,1.0,1.0,33.6,34.3,34.3,3.8,2.3,2.7425,0.09122917880488125,-0.07618535184097426,0.9536485659278193,-0.027358536358326586,-0.372669,-21.835799
11.185,2.0,1.0,1.0,33.6,34.3,34.3,3.8,2.3,2.745,0.07659221071232977,-0.0789750490200554,0.9528392365485024,-0.030055779878527672,-0.391636,-21.46277
11.185,2.0,1.0,1.0,33.6,34.3,34.3,3.8,2.3,2.7475,0.06167105705735329,-0.08191731460161701,0.9516266578983599,-0.03302632784198465,-0.412467,-21.078394
11.185,2.0,1.0,1.0,33.6,34.3,34.3,3.8,2.3,2.75,0.0464554350204289,-0.0850214348084089,0.949969513518903,-0.0363071982868297,-0.435433,-20.681936
11.185,2.0,1.0,1.0,33.6,34.3,34.3,3.8,2.3,2.7525,0.03093520897797798,-0.08829654885714935,0.9478198937757246,-0.03994181251244298,-0.46086,-20.272591
11.185,2.0,1.0,1.0,33.6,34.3,34.3,3.8,2.3,2.755,0.015100807371962286,-0.09175123195199951,0.9451219432116478,-0.04398132651524921,-0.489135,-19.849487
11.185,2.0,1.0,1.0,33.6,34.3,34.3,3.8,2.3,2.7575,-0.0010561458288120855,-0.09539286454690364,0.9418101887022878,-0.048486276710558746,-0.520727,-19.411673
11.185,2.0,1.0,1.0,33.6,34.3,34.3,3.8,2.3,2.76,-0.01754188510135621,-0.09922668862852649,0.9378074690117453,-0.05352861790576695,-0.556207,-18.958118
11.185,2.0,1.0,1.0,33.6,34.3,34.3,3.8,2.3,2.7625,-0.03435909511742657,-0.10325440454068478,0.9330223690316756,-0.05919424835700267,-0.596273,-18.487702
11.185,2.0,1.0,1.0,33.6,34.3,34.3,3.8,2.3,2.765,-0.05150482113251121,-0.10747209111587995,0.927346044461234,-0.06558613369132436,-0.641787,-17.999217
11.185,2.0,1.0,1.0,33.6,34.3,34.3,3.8,2.3,2.7675,-0.0689673713501117,-0.11186712550795923,0.9206483094057778,-0.07282815403862603,-0.693821,-17.491363
11.185,2.0,1.0,1.0,33.6,34.3,34.3,3.8,2.3,2.77,-0.0867217225698999,-0.11641361894852269,0.9127728603002371,-0.0810697969452244,-0.753719,-16.962761
11.185,2.0,1.0,1.0,33.6,34.3,34.3,3.8,2.3,2.7725,-0.10472269665990644,-0.12106564385846431,0.903531545644784,-0.09049178168285862,-0.82318,-16.411964
11.185,2.0,1.0,1.0,33.6,34.3,34.3,3.8,2.3,2.775,-0.12289481114592837,-0.12574716827106527,0.8926977047806686,-0.10131258619653262,-0.904374,-15.837492
11.185,2.0,1.0,1.0,33.6,34.3,34.3,3.8,2.3,2.7775,-0.14111717153647554,-0.13033708545429004,0.8799988745095988,-0.11379557266703606,-1.000088,-15.23789
11.185,2.0,1.0,1.0,33.6,34.3,34.3,3.8,2.3,2.78,-0.15920101034064063,-0.1346469759239771,0.8651097629548005,-0.12825580989065297,-1.113938,-14.61183
11.185,2.0,1.0,1.0,33.6,34.3,34.3,3.8,2.3,2.7825,-0.1768564611434765,-0.13838824076423903,0.8476476242080865,-0.1450644652770211,-1.250634,-13.958279
11.185,2.0,1.0,1.0,33.6,34.3,34.3,3.8,2.3,2.785,-0.1936439896349651,-0.1411241052525892,0.8271745968964395,-0.16464623140916237,-1.416338,-13.276768
11.185,2.0,1.0,1.0,33.6,34.3,34.3,3.8,2.3,2.7875,-0.20890509524851222,-0.14220121772419891,0.8032161526284181,-0.18746071790906113,-1.619084,-12.567827
11.185,2.0,1.0,1.0,33.6,34.3,34.3,3.8,2.3,2.79,-0.22166801385205107,-0.14065671687861855,0.77531296033092,-0.21395068008570195,-1.869217,-11.833663
11.185,2.0,1.0,1.0,33.6,34.3,34.3,3.8,2.3,2.7925,-0.23053120043560585,-0.13510367922060768,0.7431366446490257,-0.24442697576515976,-2.179599,-11.07919
11.185,2.0,1.0,1.0,33.6,34.3,34.3,3.8,2.3,2.795,-0.23354909729256088,-0.12361942534844676,0.7067171566532389,-0.2788432230685837,-2.564947,-10.313522
11.185,2.0,1.0,1.0,33.6,34.3,34.3,3.8,2.3,2.7975,-0.2281961907709544,-0.1037121121541469,0.6668398375356127,-0.31640317616655955,-3.038631,-9.55197
11.185,2.0,1.0,1.0,33.6,34.3,34.3,3.8,2.3,2.8,-0.21158016222179038,-0.07253452537748584,0.6256358076154266,-0.354978401604005,-3.60328,-8.818315
11.185,2.0,1.0,1.0,33.6,34.3,34.3,3.8,2.3,2.8025,-0.18118280134282333,-0.027619662905361015,0.587227624480502,-0.39047419264362176,-4.22895,-8.146479
11.185,2.0,1.0,1.0,33.6,34.3,34.3,3.8,2.3,2.805,-0.13635443705885464,0.031641605097699255,0.5579258458650257,-0.4166432579175174,-4.816522,-7.579737
11.185,2.0,1.0,1.0,33.6,34.3,34.3,3.8,2.3,2.8075,-0.08022093207069605,0.1021224161043756,0.5450925181535589,-0.42621859635507436,-5.177537,-7.164924
11.185,2.0,1.0,1.0,33.6,34.3,34.3,3.8,2.3,2.81,-0.020549337844603405,0.17611999718688465,0.554198508557792,-0.4138250607001166,-5.120726,-6.940697
11.185,2.0,1.0,1.0,33.6,34.3,34.3,3.8,2.3,2.8125,0.0322088260770186,0.243305695037825,0.585468812628304,-0.379283269705638,-4.636801,-6.923896
11.185,2.0,1.0,1.0,33.6,34.3,34.3,3.8,2.3,2.815,0.06926324761924513,0.2950216334834001,0.6330790739978328,-0.32838159412188084,-3.919165,-7.1025
11.185,2.0,1.0,1.0,33.6,34.3,34.3,3.8,2.3,2.8175,0.08691666701692265,0.32765671079519204,0.6880177423519157,-0.2700322400616292,-3.179245,-7.440613
11.185,2.0,1.0,1.0,33.6,34.3,34.3,3.8,2.3,2.82,0.08660566128574794,0.3426678526183367,0.7420971931672949,-0.21230884021049498,-2.532033,-7.891565
11.185,2.0,1.0,1.0,33.6,34.3,34.3,3.8,2.3,2.8225,0.07255379637465616,0.34425142081606097,0.7901688702611285,-0.16026908878297758,-2.00914,-8.410491
11.185,2.0,1.0,1.0,33.6,34.3,34.3,3.8,2.3,2.825,0.049402078752757046,0.33700236622281504,0.8301132026439887,-0.11597544482875602,-1.601899,-8.961248
11.185,2.0,1.0,1.0,33.6,34.3,34.3,3.8,2.3,2.8275,0.020953147778820794,0.3246781412877999,0.8618082760746175,-0.07951965568648629,-1.28922,-9.517942
11.185,2.0,1.0,1.0,33.6,34.3,34.3,3.8,2.3,2.83,-0.01012544875381016,0.30991007204228205,0.886106216642119,-0.05003542018262855,-1.049717,-10.063531
