1,w,sub_t,h,l1,l2,l3,g1,g2,Freq,S11_re,S21_re,S11_img,S21_img,S11_dB,S21_dB
11.185,2.0,1.0,1.0,34.7,33.1,33.1,2.7,2.6,2.5,0.661631679083631,-0.0155382010020273,0.738317858609823,0.00664331920153137,-0.07504,-35.442884
11.185,2.0,1.0,1.0,34.7,33.1,33.1,2.7,2.6,2.5025,0.655334227285809,-0.01580033242066388,0.7437866489161683,0.00658755727882242,-0.075872,-35.330636
11.185,2.0,1.0,1.0,34.7,33.1,33.1,2.7,2.6,2.505,0.6489562549621869,-0.016066194565502442,0.7492304877194109,0.006528224595613705,-0.076716,-35.218083
11.185,2.0,1.0,1.0,34.7,33.1,33.1,2.7,2.6,2.5075,0.6424970207036129,-0.016335828428046192,0.7546484553450586,0.006465207790964917,-0.077573,-35.105222
11.185,2.0,1.0,1.0,34.7,33.1,33.1,2.7,2.6,2.51,0.6359557787652916,-0.01660927483380561,0.7600396072649412,0.0063983900959697125,-0.078443,-34.992047
11.185,2.0,1.0,1.0,34.7,33.1,33.1,2.7,2.6,2.5125,0.6293317792959184,-0.016886574396101327,0.7654029734552522,0.006327651229543023,-0.079327,-34.878554
11.185,2.0,1.0,1.0,34.7,33.1,33.1,2.7,2.6,2.515,0.6226242685832063,-0.01716776746684032,0.7707375577400141,0.006252867291116226,-0.080224,-34.764739
11.185,2.0,1.0,1.0,34.7,33.1,33.1,2.7,2.6,2.5175,0.6158324893166103,-0.01745289408410115,0.7760423371197526,0.006173910650160314,-0.081135,-34.650597
11.185,2.0,1.0,1.0,34.7,33.1,33.1,2.7,2.6,2.52,0.6089556808680541,-0.017741993916357893,0.7813162610852245,0.006090649832458226,-0.082061,-34.536124
11.185,2.0,1.0,1.0,34.7,33.1,33.1,2.7,2.6,2.5225,0.601993079591548,-0.01803510620316124,0.7865582509160001,0.006002949403045463,-0.083002,-34.421315
11.185,2.0,1.0,1.0,34.7,33.1,33.1,2.7,2.6,2.525,0.5949439191425655,-0.018332269692088968,0.7917671989637646,0.005910669845737259,-0.083958,-34.306166
11.185,2.0,1.0,1.0,34.7,33.1,33.1,2.7,2.6,2.5275,0.5878074308181205,-0.01863352257176688,0.7969419679201759,0.005813667439161278,-0.08493,-34.190672
11.185,2.0,1.0,1.0,34.7,33.1,33.1,2.7,2.6,2.53,0.5805828439185178,-0.01893890240075188,0.802081390069143,0.005711794129212385,-0.085918,-34.074828
11.185,2.0,1.0,1.0,34.7,33.1,33.1,2.7,2.6,2.5325,0.5732693861317795,-0.0192484460320588,0.8071842665234102,0.005604897397846743,-0.086923,-33.95863
11.185,2.0,1.0,1.0,34.7,33.1,33.1,2.7,2.6,2.535,0.5658662839417894,-0.01956218953310215,0.8122493664453386,0.005492820128132363,-0.087944,-33.842074
11.185,2.0,1.0,1.0,34.7,33.1,33.1,2.7,2.6,2.5375,0.5583727630612583,-0.01988016810081155,0.8172754262517933,0.005375400465472163,-0.088984,-33.725153
11.185,2.0,1.0,1.0,34.7,33.1,33.1,2.7,2.6,2.54,0.5507880488906283,-0.02020241597166939,0.822261148803077,0.005252471674916849,-0.09004,-33.607865
11.185,2.0,1.0,1.0,34.7,33.1,33.1,2.7,2.6,2.5425,0.5431113670040958,-0.020528966326405912,0.8272052025758565,0.005123861994483482,-0.091116,-33.490203
11.185,2.0,1.0,1.0,34.7,33.1,33.1,2.7,2.6,2.545,0.5353419436639727,-0.020859851189074474,0.8321062208200578,0.004989394484397551,-0.09221,-33.372163
11.185,2.0,1.0,1.0,34.7,33.1,33.1,2.7,2.6,2.5475,0.5274790063646608,-0.021195101320215785,0.8369628006997308,0.004848886872176779,-0.093323,-33.25374
11.185,2.0,1.0,1.0,34.7,33.1,33.1,2.7,2.6,2.55,0.5195217844075326,-0.021534746103807383,0.8417735024179197,0.0047021513934738385,-0.094456,-33.134929
11.185,2.0,1.0,1.0,34.7,33.1,33.1,2.7,2.6,2.5525,0.5114695095081145,-0.021878813427677248,0.846536848325574,0.004548994628599658,-0.095609,-33.015725
11.185,2.0,1.0,1.0,34.7,33.1,33.1,2.7,2.6,2.555,0.5033214164369568,-0.022227329557048186,0.851251322014613,0.004389217334646408,-0.096783,-32.896123
11.185,2.0,1.0,1.0,34.7,33.1,33.1,2.7,2.6,2.5575,0.4950767436956683,-0.022580319000861403,0.8559153673952518,0.004222614273134339,-0.097979,-32.776119
11.185,2.0,1.0,1.0,34.7,33.1,33.1,2.7,2.6,2.56,0.4867347342296411,-0.022937804370511704,0.860527387757751,0.004048974033106204,-0.099196,-32.655706
11.185,2.0,1.0,1.0,34.7,33.1,33.1,2.7,2.6,2.5625,0.4782946361790287,-0.023299806230609264,0.8650857448187868,0.0038680788495965013,-0.100436,-32.53488
11.185,2.0,1.0,1.0,34.7,33.1,33.1,2.7,2.6,2.565,0.4697557036696057,-0.02366634294136489,0.8695887577526881,0.0036797044174046705,-0.101699,-32.413636
11.185,2.0,1.0,1.0,34.7,33.1,33.1,2.7,2.6,2.5675,0.4611171976452093,-0.024037430492175618,0.8740347022078166,0.0034836197001052913,-0.102985,-32.291968
11.185,2.0,1.0,1.0,34.7,33.1,33.1,2.7,2.6,2.57,0.45237838674348885,-0.024413082325969275,0.8784218093084355,0.003279586734230312,-0.104296,-32.169872
11.185,2.0,1.0,1.0,34.7,33.1,33.1,2.7,2.6,2.5725,0.44353854821677424,-0.02479330915384399,0.8827482646424475,0.003067360428563702,-0.105631,-32.047341
11.185,2.0,1.0,1.0,34.7,33.1,33.1,2.7,2.6,2.575,0.43459696889992583,-0.02517811875951842,0.8870122072354472,0.002846688358491897,-0.106992,-31.92437
11.185,2.0,1.0,1.0,34.7,33.1,33.1,2.7,2.6,2.5775,0.4255529462270902,-0.025567515793085194,0.8912117285115916,0.0026173105553590117,-0.108379,-31.800955
11.185,2.0,1.0,1.0,34.7,33.1,33.1,2.7,2.6,2.58,0.41640578929935174,-0.02596150155353566,0.8953448712418499,0.002378959290780688,-0.109793,-31.677089
11.185,2.0,1.0,1.0,34.7,33.1,33.1,2.7,2.6,2.5825,0.40715482000531866,-0.026360073759501494,0.8994096284802737,0.0021313588558763566,-0.111234,-31.552767
11.185,2.0,1.0,1.0,34.7,33.1,33.1,2.7,2.6,2.585,0.3977993741967746,-0.026763226307630505,0.9034039424889855,0.001874225335385911,-0.112703,-31.427984
11.185,2.0,1.0,1.0,34.7,33.1,33.1,2.7,2.6,2.5875,0.3883388029215515,-0.02717094901798914,0.9073257036526781,0.001607266376644049,-0.114201,-31.302734
11.185,2.0,1.0,1.0,34.7,33.1,33.1,2.7,2.6,2.59,0.3787724737158952,-0.02758322736585456,0.9111727493834769,0.0013301809533925182,-0.115729,-31.17701
11.185,2.0,1.0,1.0,34.7,33.1,33.1,2.7,2.6,2.5925,0.3690997719586019,-0.02800004219923172,0.9149428630171275,0.0010426591244202155,-0.117287,-31.050808
11.185,2.0,1.0,1.0,34.7,33.1,33.1,2.7,2.6,2.595,0.359320102289338,-0.02842136944139772,0.9186337727015347,0.00074438178702809,-0.118876,-30.924122
11.185,2.0,1.0,1.0,34.7,33.1,33.1,2.7,2.6,2.5975,0.3494328900935457,-0.02884717977774747,0.9222431502788133,0.00043502042532765904,-0.120498,-30.796945
11.185,2.0,1.0,1.0,34.7,33.1,33.1,2.7,2.6,2.6,0.33943758305647065,-0.02927743832617824,0.925768610162073,0.00011423685338947364,-0.122152,-30.669272
11.185,2.0,1.0,1.0,34.7,33.1,33.1,2.7,2.6,2.6025,0.32933365278888194,-0.02971210429021722,0.9292077082082938,-0.0002183170467266244,-0.123839,-30.541097
11.185,2.0,1.0,1.0,34.7,33.1,33.1,2.7,2.6,2.605,0.31912059652711,-0.030151130594060955,0.9325579405887596,-0.0005629995920199618,-0.125562,-30.412414
11.185,2.0,1.0,1.0,34.7,33.1,33.1,2.7,2.6,2.6075,0.3087979389101288,-0.030594463498656133,0.935816742658628,-0.0009201795706206239,-0.12732,-30.283216
11.185,2.0,1.0,1.0,34.7,33.1,33.1,2.7,2.6,2.61,0.2983652338364372,-0.031042042197912165,0.9389814878273562,-0.0012902365188161007,-0.129114,-30.153498
11.185,2.0,1.0,1.0,34.7,33.1,33.1,2.7,2.6,2.6125,0.2878220664035893,-0.03149379839409602,0.9420494864318157,-0.0016735610029496551,-0.130945,-30.023253
11.185,2.0,1.0,1.0,34.7,33.1,33.1,2.7,2.6,2.615,0.27716805493324564,-0.03194965585141448,0.9450179846141018,-0.002070554906092763,-0.132815,-29.892474
11.185,2.0,1.0,1.0,34.7,33.1,33.1,2.7,2.6,2.6175,0.26640285308473644,-0.03240952992674567,0.947884163206145,-0.0024816317193739816,-0.134724,-29.761156
11.185,2.0,1.0,1.0,34.7,33.1,33.1,2.7,2.6,2.62,0.2555261520601282,-0.03287332707643332,0.9506451366234377,-0.002907216837833443,-0.136674,-29.629292
11.185,2.0,1.0,1.0,34.7,33.1,33.1,2.7,2.6,2.6225,0.2445376829038702,-0.03334094433800921,0.953297951770316,-0.003347747860649559,-0.138664,-29.496875
11.185,2.0,1.0,1.0,34.7,33.1,33.1,2.7,2.6,2.625,0.233437218900176,-0.0338122687856548,0.955839586959407,-0.00380367489556749,-0.140698,-29.363899
11.185,2.0,1.0,1.0,34.7,33.1,33.1,2.7,2.6,2.6275,0.22222457807127804,-0.034287176958162524,0.9582669508480632,-0.0042754608673362384,-0.142775,-29.230357
11.185,2.0,1.0,1.0,34.7,33.1,33.1,2.7,2.6,2.63,0.21089962577982568,-0.03476553425809659,0.9605768813947407,-0.004763581829941676,-0.144897,-29.096241
11.185,2.0,1.0,1.0,34.7,33.1,33.1,2.7,2.6,2.6325,0.19946227743867187,-0.03524719432079534,0.9627661448385127,-0.005268527282398011,-0.147066,-28.961545
11.185,2.0,1.0,1.0,34.7,33.1,33.1,2.7,2.6,2.635,0.18791250133137927,-0.03573199835179389,0.9648314347050965,-0.005790800487837492,-0.149281,-28.826263
11.185,2.0,1.0,1.0,34.7,33.1,33.1,2.7,2.6,2.6375,0.1762503215468143,-0.03621977443117785,0.9667693708429592,-0.006330918795612759,-0.151545,-28.690385
11.185,2.0,1.0,1.0,34.7,33.1,33.1,2.7,2.6,2.64,0.16447582103117245,-0.03671033678331244,0.9685764984933293,-0.006889413966101896,-0.15386,-28.553907
11.185,2.0,1.0,1.0,34.7,33.1,33.1,2.7,2.6,2.6425,0.1525891447608976,-0.03720348501031259,0.9702492873981245,-0.007466832497877077,-0.156225,-28.416819
11.185,2.0,1.0,1.0,34.7,33.1,33.1,2.7,2.6,2.645,0.14059050303990062,-0.037699003287546114,0.9717841309500568,-0.008063735956872526,-0.158644,-28.279114
11.185,2.0,1.0,1.0,34.7,33.1,33.1,2.7,2.6,2.6475,0.1284801749245488,-0.038196659519375356,0.973177345389419,-0.008680701307156332,-0.161116,-28.140786
11.185,2.0,1.0,1.0,34.7,33.1,33.1,2.7,2.6,2.65,0.11625851177987008,-0.0386962044532583,0.9744251690522858,-0.009318321242885492,-0.163645,-28.001825
11.185,2.0,1.0,1.0,34.7,33.1,33.1,2.7,2.6,2.6525,0.10392594097046823,-0.03919737075023263,0.9755237616751521,-0.009977204520986683,-0.166231,-27.862224
11.185,2.0,1.0,1.0,34.7,33.1,33.1,2.7,2.6,2.655,0.09148296968958364,-0.03969987200971085,0.9764692037612476,-0.01065797629408348,-0.168876,-27.721975
11.185,2.0,1.0,1.0,34.7,33.1,33.1,2.7,2.6,2.6575,0.07893018892977723,-0.04020340174640476,0.9772574960140673,-0.011361278443149927,-0.171581,-27.58107
11.185,2.0,1.0,1.0,34.7,33.1,33.1,2.7,2.6,2.66,0.06626827759865701,-0.040707632317085934,0.9778845588439325,-0.012087769909347058,-0.17435,-27.4395
11.185,2.0,1.0,1.0,34.7,33.1,33.1,2.7,2.6,2.6625,0.05349800678308434,-0.04121221379476485,0.9783462319536463,-0.012838127024459346,-0.177182,-27.297256
11.185,2.0,1.0,1.0,34.7,33.1,33.1,2.7,2.6,2.665,0.04062024416519829,-0.04171677278774303,0.9786382740096302,-0.013613043839323661,-0.18008,-27.15433
11.185,2.0,1.0,1.0,34.7,33.1,33.1,2.7,2.6,2.6675,0.02763595859365323,-0.04222091120084715,0.9787563624051865,-0.014413232449602352,-0.183047,-27.010713
11.185,2.0,1.0,1.0,34.7,33.1,33.1,2.7,2.6,2.67,0.014546224813302623,-0.04272420493600509,0.9786960931228511,-0.015239423318226104,-0.186084,-26.866395
11.185,2.0,1.0,1.0,34.7,33.1,33.1,2.7,2.6,2.6725,0.0013522283566063035,-0.04322620252915696,0.9784529807030631,-0.016092365593799254,-0.189192,-26.721368
11.185,2.0,1.0,1.0,34.7,33.1,33.1,2.7,2.6,2.675,-0.01194472940008533,-0.0437264237203139,0.9780224583267089,-0.016972827424224013,-0.192376,-26.575621
11.185,2.0,1.0,1.0,34.7,33.1,33.1,2.7,2.6,2.6775,-0.025343226012271246,-0.04422435795338415,0.9773998780193713,-0.01788159626477495,-0.195636,-26.429145
11.185,2.0,1.0,1.0,34.7,33.1,33.1,2.7,2.6,2.68,-0.03884171257201521,-0.04471946280217239,0.9765805109854125,-0.018819479179820464,-0.198974,-26.28193
11.185,2.0,1.0,1.0,34.7,33.1,33.1,2.7,2.6,2.6825,-0.052438508138703446,-0.04521116231872426,0.9755595480803247,-0.019787303137360053,-0.202394,-26.133964
11.185,2.0,1.0,1.0,34.7,33.1,33.1,2.7,2.6,2.685,-0.06613179399299178,-0.04569884529993658,0.9743321004300705,-0.02078591529551772,-0.205898,-25.985239
11.185,2.0,1.0,1.0,34.7,33.1,33.1,2.7,2.6,2.6875,-0.07991960771114842,-0.04618186346807079,0.9728932002063996,-0.021816183280102815,-0.209489,-25.835741
11.185,2.0,1.0,1.0,34.7,33.1,33.1,2.7,2.6,2.69,-0.09379983705707838,-0.04665952956050133,0.9712378015674289,-0.022878995452326318,-0.213169,-25.685461
11.185,2.0,1.0,1.0,34.7,33.1,33.1,2.7,2.6,2.6925,-0.10777021368948286,-0.04713111532369151,0.9693607817730419,-0.02397526116573191,-0.21694,-25.534387
11.185,2.0,1.0,1.0,34.7,33.1,33.1,2.7,2.6,2.695,-0.12182830668155326,-0.04759584940601324,0.9672569424849046,-0.025105911011380426,-0.220807,-25.382507
11.185,2.0,1.0,1.0,34.7,33.1,33.1,2.7,2.6,2.6975,-0.13597151585078893,-0.048052915143615794,0.9649210112611512,-0.026271897050301696,-0.224772,-25.229808
11.185,2.0,1.0,1.0,34.7,33.1,33.1,2.7,2.6,2.7,-0.15019706489648182,-0.048501448233084506,0.9623476432560187,-0.027474193032205694,-0.228839,-25.076277
11.185,2.0,1.0,1.0,34.7,33.1,33.1,2.7,2.6,2.7025,-0.16450199434258067,-0.048940534284125384,0.9595314231349557,-0.028713794599426044,-0.23301,-24.921903
11.185,2.0,1.0,1.0,34.7,33.1,33.1,2.7,2.6,2.705,-0.17888315428348148,-0.0493692062449396,0.9564668672158556,-0.029991719475042047,-0.237289,-24.76667
11.185,2.0,1.0,1.0,34.7,33.1,33.1,2.7,2.6,2.7075,-0.19333719693046014,-0.04978644169232392,0.9531484258473247,-0.031309007634108516,-0.24168,-24.610565
11.185,2.0,1.0,1.0,34.7,33.1,33.1,2.7,2.6,2.71,-0.2078605689562683,-0.05019115997782517,0.9495704860349802,-0.032666721456893574,-0.246187,-24.453574
11.185,2.0,1.0,1.0,34.7,33.1,33.1,2.7,2.6,2.7125,-0.2224495036354201,-0.050582219220493385,0.9457273743269474,-0.03406594586299949,-0.250814,-24.29568
11.185,2.0,1.0,1.0,34.7,33.1,33.1,2.7,2.6,2.715,-0.23710001277744402,-0.05095841313589678,0.9416133599697913,-0.035507788425205945,-0.255564,-24.13687
11.185,2.0,1.0,1.0,34.7,33.1,33.1,2.7,2.6,2.7175,-0.25180787845020575,-0.05131846769007962,0.9372226583462167,-0.03699337946183722,-0.260443,-23.977126
11.185,2.0,1.0,1.0,34.7,33.1,33.1,2.7,2.6,2.72,-0.2665686444900992,-0.05166103756604023,0.9325494347059237,-0.03852387210639746,-0.265455,-23.816431
11.185,2.0,1.0,1.0,34.7,33.1,33.1,2.7,2.6,2.7225,-0.2813776077954547,-0.0519847024290742,0.9275878082009807,-0.04010044235316267,-0.270605,-23.654769
11.185,2.0,1.0,1.0,34.7,33.1,33.1,2.7,2.6,2.725,-0.2962298093989872,-0.052287962975939024,0.9223318562371334,-0.04172428907731934,-0.275897,-23.492121
11.185,2.0,1.0,1.0,34.7,33.1,33.1,2.7,2.6,2.7275,-0.3111200253145083,-0.052569236751242705,0.9167756191523649,-0.043396634028144906,-0.281338,-23.328467
11.185,2.0,1.0,1.0,34.7,33.1,33.1,2.7,2.6,2.73,-0.32604275715218267,-0.052826853712709614,0.9109131052340224,-0.04511872179357217,-0.286933,-23.163789
11.185,2.0,1.0,1.0,34.7,33.1,33.1,2.7,2.6,2.7325,-0.34099222249570166,-0.05305905152501205,0.9047382960856926,-0.04689181973430772,-0.292687,-22.998065
11.185,2.0,1.0,1.0,34.7,33.1,33.1,2.7,2.6,2.735,-0.35596234503342533,-0.053263970559643686,0.8982451523549683,-0.04871721788543266,-0.298608,-22.831274
11.185,2.0,1.0,1.0,34.7,33.1,33.1,2.7,2.6,2.7375,-0.3709467444340941,-0.053439648575824124,0.8914276198330947,-0.050596228823129946,-0.304701,-22.663394
11.185,2.0,1.0,1.0,34.7,33.1,33.1,2.7,2.6,2.74,-0.38593872595591644,-0.053584015054617934,0.8842796359374433,-0.0525301874937958,-0.310974,-22.494401
11.185,2.0,1.0,1.0,34.7,33.1,33.1,2.7,2.6,2.7425,-0.4009312697756988,-0.05369488515529484,0.8767951365876425,-0.05452045100232701,-0.317433,-22.324271
11.185,2.0,1.0,1.0,34.7,33.1,33.1,2.7,2.6,2.745,-0.41591702002216824,-0.0537699532593953,0.8689680634861754,-0.056568398355781584,-0.324088,-22.152977
11.185,2.0,1.0,1.0,34.7,33.1,33.1,2.7,2.6,2.7475,-0.4308882734946643,-0.053806786063949674,0.8607923718142866,-0.05867543015786293,-0.330945,-21.980494
11.185,2.0,1.0,1.0,34.7,33.1,33.1,2.7,2.6,2.75,-0.445836968044885,-0.053802815180765,0.852262038354108,-0.060842968248761,-0.338014,-21.806792
11.185,2.0,1.0,1.0,34.7,33.1,33.1,2.7,2.6,2.7525,-0.46075467059535363,-0.05375532919357698,0.843371070048212,-0.06307245528373402,-0.345304,-21.631843
11.185,2.0,1.0,1.0,34.7,33.1,33.1,2.7,2.6,2.755,-0.4756325647633549,-0.053661465119083374,0.8341135130081284,-0.06536535424239745,-0.352824,-21.455614
11.185,2.0,1.0,1.0,34.7,33.1,33.1,2.7,2.6,2.7575,-0.49046143805379716,-0.05351819921134283,0.8244834619840338,-0.06772314785895397,-0.360586,-21.278074
11.185,2.0,1.0,1.0,34.7,33.1,33.1,2.7,2.6,2.76,-0.5052316685778303,-0.05332233704163886,0.8144750703087157,-0.07014733796144444,-0.3686,-21.099189
11.185,2.0,1.0,1.0,34.7,33.1,33.1,2.7,2.6,2.7625,-0.5199332112467546,-0.0530705027775536,0.8040825603301923,-0.07263944470548651,-0.376878,-20.918922
11.185,2.0,1.0,1.0,34.7,33.1,33.1,2.7,2.6,2.765,-0.5345555833821608,-0.052759127575545045,0.7933002343491248,-0.07520100568475808,-0.385433,-20.737236
11.185,2.0,1.0,1.0,34.7,33.1,33.1,2.7,2.6,2.7675,-0.549087849673322,-0.0523844369906187,0.7821224860794956,-0.07783357489656585,-0.394279,-20.55409
11.185,2.0,1.0,1.0,34.7,33.1,33.1,2.7,2.6,2.77,-0.5635186064015579,-0.051942437294561807,0.7705438126540985,-0.08053872153607972,-0.403429,-20.369444
11.185,2.0,1.0,1.0,34.7,33.1,33.1,2.7,2.6,2.7725,-0.5778359648381625,-0.05142890058047203,0.7585588272004038,-0.08331802858700176,-0.4129,-20.183252
11.185,2.0,1.0,1.0,34.7,33.1,33.1,2.7,2.6,2.775,-0.5920275337075251,-0.0508393485157365,0.7461622720174574,-0.08617309116939861,-0.422708,-19.995468
11.185,2.0,1.0,1.0,34.7,33.1,33.1,2.7,2.6,2.7775,-0.606080400589811,-0.050169034587950384,0.7333490323910302,-0.08910551459684944,-0.43287,-19.806043
11.185,2.0,1.0,1.0,34.7,33.1,33.1,2.7,2.6,2.78,-0.6199811121179523,-0.04941292466821523,0.720114151092472,-0.09211691208468274,-0.443406,-19.614926
11.185,2.0,1.0,1.0,34.7,33.1,33.1,2.7,2.6,2.7825,-0.6337156528009793,-0.04856567569349666,0.7064528436171085,-0.09520890203844896,-0.454337,-19.422061
11.185,2.0,1.0,1.0,34.7,33.1,33.1,2.7,2.6,2.785,-0.647269422280104,-0.04762161224386602,0.6923605142309174,-0.0983831048364984,-0.465686,-19.227392
11.185,2.0,1.0,1.0,34.7,33.1,33.1,2.7,2.6,2.7875,-0.6606272107942468,-0.04657470076108409,0.6778327729104491,-0.10164113900196434,-0.477475,-19.030857
11.185,2.0,1.0,1.0,34.7,33.1,33.1,2.7,2.6,2.79,-0.6737731725982368,-0.04541852112159905,0.6628654532808337,-0.10498461663695616,-0.489731,-18.832392
11.185,2.0,1.0,1.0,34.7,33.1,33.1,2.7,2.6,2.7925,-0.6866907970382019,-0.0441462352390928,0.647454631681627,-0.1084151379644372,-0.502482,-18.631928
11.185,2.0,1.0,1.0,34.7,33.1,33.1,2.7,2.6,2.795,-0.6993628769450607,-0.042750552328568225,0.6315966475206594,-0.11193428479010702,-0.515759,-18.429395
11.185,2.0,1.0,1.0,34.7,33.1,33.1,2.7,2.6,2.7975,-0.7117714739567943,-0.04122369041494542,0.615288125113895,-0.11554361265627579,-0.529595,-18.224716
11.185,2.0,1.0,1.0,34.7,33.1,33.1,2.7,2.6,2.8,-0.7238978803234158,-0.03955733361339707,0.5985259972555904,-0.1192446414107223,-0.544027,-18.017811
11.185,2.0,1.0,1.0,34.7,33.1,33.1,2.7,2.6,2.8025,-0.735722576683747,-0.0377425846453546,0.5813075308201779,-0.12303884385383114,-0.559093,-17.808594
11.185,2.0,1.0,1.0,34.7,33.1,33.1,2.7,2.6,2.805,-0.7472251852294891,-0.035769911982254085,0.5636303547675394,-0.12692763205457608,-0.574837,-17.596977
11.185,2.0,1.0,1.0,34.7,33.1,33.1,2.7,2.6,2.8075,-0.7583844175887251,-0.033629090927603744,0.5454924910095813,-0.13091234083717038,-0.591306,-17.382863
11.185,2.0,1.0,1.0,34.7,33.1,33.1,2.7,2.6,2.81,-0.7691780166663645,-0.03130913785570334,0.5268923887022455,-0.13499420783175353,-0.608551,-17.166151
11.185,2.0,1.0,1.0,34.7,33.1,33.1,2.7,2.6,2.8125,-0.7795826915724612,-0.028798236721130792,0.5078289626576813,-0.13917434934976994,-0.62663,-16.946736
11.185,2.0,1.0,1.0,34.7,33.1,33.1,2.7,2.6,2.815,-0.7895740446490971,-0.026083656835702778,0.4883016367320234,-0.14345373118206847,-0.645604,-16.724504
11.185,2.0,1.0,1.0,34.7,33.1,33.1,2.7,2.6,2.8175,-0.7991264894718617,-0.02315166077788906,0.4683103932424187,-0.1478331332180692,-0.665543,-16.499336
11.185,2.0,1.0,1.0,34.7,33.1,33.1,2.7,2.6,2.82,-0.8082131585516933,-0.01998740115259537,0.44785582971118304,-0.15231310653884989,-0.686523,-16.271105
11.185,2.0,1.0,1.0,34.7,33.1,33.1,2.7,2.6,2.8225,-0.81680579929663,-0.01657480475619557,0.4269392245366304,-0.1568939213345624,-0.708628,-16.039677
11.185,2.0,1.0,1.0,34.7,33.1,33.1,2.7,2.6,2.825,-0.8248746566102945,-0.012896442522616321,0.40556261356316287,-0.1615755036234271,-0.731951,-15.80491
11.185,2.0,1.0,1.0,34.7,33.1,33.1,2.7,2.6,2.8275,-0.8323883403067213,-0.008933383432079308,0.3837288799847326,-0.16635735828824574,-0.756596,-15.566654
