1,w,sub_t,h,l1,l2,l3,g1,g2,Freq,S11_re,S21_re,S11_img,S21_img,S11_dB,S21_dB
11.185,2.0,1.0,1.0,34.3,34.5,34.5,2.5,4.2,2.5,0.732473514914473,-0.011369485665576,0.668677187877427,0.00529961823407379,-0.071609,-38.031301
11.185,2.0,1.0,1.0,34.3,34.5,34.5,2.5,4.2,2.5025,0.7271404229886178,-0.011585207926103836,0.6743334290119066,0.005279351867416149,-0.072438,-37.902475
11.185,2.0,1.0,1.0,34.3,34.5,34.5,2.5,4.2,2.505,0.7217336686187302,-0.011804913798701076,0.6799762416175938,0.00525683647239237,-0.073285,-37.773087
11.185,2.0,1.0,1.0,34.3,34.5,34.5,2.5,4.2,2.5075,0.7162524476824118,-0.012028690324773616,0.6856049813153409,0.00523198455696896,-0.074148,-37.643124
11.185,2.0,1.0,1.0,34.3,34.5,34.5,2.5,4.2,2.51,0.7106959443607095,-0.012256626923933778,0.6912189840517998,0.005204705104056236,-0.075029,-37.512573
11.185,2.0,1.0,1.0,34.3,34.5,34.5,2.5,4.2,2.5125,0.7050633309989235,-0.01248881547302047,0.6968175654556337,0.00517490340942536,-0.075927,-37.381423
11.185,2.0,1.0,1.0,34.3,34.5,34.5,2.5,4.2,2.515,0.6993537679677679,-0.012725350388247228,0.7024000201707191,0.005142480911007901,-0.076845,-37.24966
11.185,2.0,1.0,1.0,34.3,34.5,34.5,2.5,4.2,2.5175,0.6935664035250196,-0.012966328710621026,0.7079656211653526,0.005107335009049195,-0.077781,-37.117272
11.185,2.0,1.0,1.0,34.3,34.5,34.5,2.5,4.2,2.52,0.6877003736777713,-0.013211850194784101,0.7135136190164607,0.0050693588765472345,-0.078737,-36.984245
11.185,2.0,1.0,1.0,34.3,34.5,34.5,2.5,4.2,2.5225,0.6817548020454661,-0.013462017401434096,0.7190432411677294,0.005028441259372275,-0.079713,-36.850565
11.185,2.0,1.0,1.0,34.3,34.5,34.5,2.5,4.2,2.525,0.6757287997238262,-0.01371693579349362,0.7245536911605313,0.0049844662654147795,-0.08071,-36.71622
11.185,2.0,1.0,1.0,34.3,34.5,34.5,2.5,4.2,2.5275,0.6696214651498552,-0.01397671383619803,0.7300441478364644,0.004937313142066619,-0.081728,-36.581194
11.185,2.0,1.0,1.0,34.3,34.5,34.5,2.5,4.2,2.53,0.6634318839680787,-0.014241463101290581,0.7355137645102334,0.004886856041282784,-0.082768,-36.445473
11.185,2.0,1.0,1.0,34.3,34.5,34.5,2.5,4.2,2.5325,0.6571591288981913,-0.014511298375514202,0.740961668111559,0.004832963771427094,-0.083831,-36.309042
11.185,2.0,1.0,1.0,34.3,34.5,34.5,2.5,4.2,2.535,0.6508022596042977,-0.014786337773603515,0.7463869582947077,0.0047754995350311495,-0.084917,-36.171887
11.185,2.0,1.0,1.0,34.3,34.5,34.5,2.5,4.2,2.5375,0.6443603225659504,-0.015066702855990323,0.7517887065141591,0.0047143206515456075,-0.086027,-36.033991
11.185,2.0,1.0,1.0,34.3,34.5,34.5,2.5,4.2,2.54,0.6378323509511733,-0.015352518751444047,0.7571659550648403,0.0046492782640810484,-0.087161,-35.895338
11.185,2.0,1.0,1.0,34.3,34.5,34.5,2.5,4.2,2.5425,0.6312173644916916,-0.015643914284883875,0.7625177160852608,0.004580217029067472,-0.088321,-35.755914
11.185,2.0,1.0,1.0,34.3,34.5,34.5,2.5,4.2,2.545,0.6245143693605982,-0.015941022110605784,0.7678429705217895,0.004506974787675109,-0.089508,-35.6157
11.185,2.0,1.0,1.0,34.3,34.5,34.5,2.5,4.2,2.5475,0.6177223580526908,-0.016243978851183918,0.77314066705219,0.00442938221774931,-0.090721,-35.47468
11.185,2.0,1.0,1.0,34.3,34.5,34.5,2.5,4.2,2.55,0.6108403092677155,-0.016552925242316288,0.7784097209664317,0.004347262464915742,-0.091962,-35.332836
11.185,2.0,1.0,1.0,34.3,34.5,34.5,2.5,4.2,2.5525,0.6038671877968084,-0.01686800628389525,0.783649013002649,0.004260430751406543,-0.093232,-35.19015
11.185,2.0,1.0,1.0,34.3,34.5,34.5,2.5,4.2,2.555,0.5968019444123768,-0.017189371397604885,0.7888573881360014,0.0041686939610368935,-0.094531,-35.046604
11.185,2.0,1.0,1.0,34.3,34.5,34.5,2.5,4.2,2.5575,0.589643515761727,-0.017517174591346326,0.7940336543180339,0.004071850198644309,-0.095861,-34.902179
11.185,2.0,1.0,1.0,34.3,34.5,34.5,2.5,4.2,2.56,0.5823908242647435,-0.01785157463082507,0.7991765811639594,0.003969688322154192,-0.097223,-34.756855
11.185,2.0,1.0,1.0,34.3,34.5,34.5,2.5,4.2,2.5625,0.5750427780159332,-0.018192735218628114,0.8042848985851389,0.003861987445292037,-0.098617,-34.610613
11.185,2.0,1.0,1.0,34.3,34.5,34.5,2.5,4.2,2.565,0.5675982706911712,-0.018540825181152694,0.8093572953638312,0.003748516408796726,-0.100045,-34.463432
11.185,2.0,1.0,1.0,34.3,34.5,34.5,2.5,4.2,2.5675,0.5600561814595139,-0.018896018663745406,0.8143924176670674,0.0036290332178044865,-0.101508,-34.315291
11.185,2.0,1.0,1.0,34.3,34.5,34.5,2.5,4.2,2.57,0.5524153749004431,-0.019258495334440136,0.8193888674963083,0.003503284442882901,-0.103007,-34.166168
11.185,2.0,1.0,1.0,34.3,34.5,34.5,2.5,4.2,2.5725,0.5446747009269428,-0.019628440596686825,0.8243452010692763,0.003371004581971467,-0.104543,-34.016042
11.185,2.0,1.0,1.0,34.3,34.5,34.5,2.5,4.2,2.575,0.5368329947148269,-0.020006045811479974,0.8292599271301,0.0032319153802521376,-0.106117,-33.864889
11.185,2.0,1.0,1.0,34.3,34.5,34.5,2.5,4.2,2.5775,0.5288890766387657,-0.02039150852931342,0.8341315051836093,0.003085725104712607,-0.107732,-33.712686
11.185,2.0,1.0,1.0,34.3,34.5,34.5,2.5,4.2,2.58,0.5208417522154833,-0.020785032732395556,0.8389583436493079,0.0029321277698756234,-0.109387,-33.559408
11.185,2.0,1.0,1.0,34.3,34.5,34.5,2.5,4.2,2.5825,0.5126898120546283,-0.021186829087569796,0.8437387979302137,0.002770802310858913,-0.111085,-33.40503
11.185,2.0,1.0,1.0,34.3,34.5,34.5,2.5,4.2,2.585,0.5044320318178537,-0.021597115210400916,0.8484711683913415,0.0026014116995761384,-0.112828,-33.249528
11.185,2.0,1.0,1.0,34.3,34.5,34.5,2.5,4.2,2.5875,0.49606717218668656,-0.022016115940886562,0.8531536982422352,0.002423601999520449,-0.114616,-33.092873
11.185,2.0,1.0,1.0,34.3,34.5,34.5,2.5,4.2,2.59,0.48759397883980127,-0.022444063631265054,0.8577845713174419,0.0022370013541336406,-0.116452,-32.93504
11.185,2.0,1.0,1.0,34.3,34.5,34.5,2.5,4.2,2.5925,0.4790111824403603,-0.022881198446391155,0.862361909748368,0.00204121890331608,-0.118337,-32.775999
11.185,2.0,1.0,1.0,34.3,34.5,34.5,2.5,4.2,2.595,0.4703174986341579,-0.023327768677141057,0.86688377151936,0.001835843622111018,-0.120273,-32.615722
11.185,2.0,1.0,1.0,34.3,34.5,34.5,2.5,4.2,2.5975,0.46151162805931983,-0.023784031067309894,0.8713481479002608,0.0016204430750312625,-0.122263,-32.454178
11.185,2.0,1.0,1.0,34.3,34.5,34.5,2.5,4.2,2.6,0.45259225636843725,-0.024250251154441523,0.8757529607470227,0.0013945620788657126,-0.124307,-32.291336
11.185,2.0,1.0,1.0,34.3,34.5,34.5,2.5,4.2,2.6025,0.44355805426405487,-0.024726703625011674,0.8800960596611739,0.0011577212661106006,-0.126409,-32.127165
11.185,2.0,1.0,1.0,34.3,34.5,34.5,2.5,4.2,2.605,0.43440767754853626,-0.02521367268434644,0.8843752189981603,0.0009094155403954585,-0.12857,-31.961632
11.185,2.0,1.0,1.0,34.3,34.5,34.5,2.5,4.2,2.6075,0.4251397671894447,-0.025711452441626058,0.8885881347136207,0.000649112414408337,-0.130793,-31.794701
11.185,2.0,1.0,1.0,34.3,34.5,34.5,2.5,4.2,2.61,0.415752949401693,-0.026220347310237972,0.8927324210356545,0.00037625021988909013,-0.133081,-31.626337
11.185,2.0,1.0,1.0,34.3,34.5,34.5,2.5,4.2,2.6125,0.4062458357478621,-0.02674067242370002,0.8968056069500232,9.023617816791649e-05,-0.135436,-31.456504
11.185,2.0,1.0,1.0,34.3,34.5,34.5,2.5,4.2,2.615,0.3966170232582501,-0.027272754067240414,0.9008051324839499,-0.0002095556814287533,-0.137861,-31.285164
11.185,2.0,1.0,1.0,34.3,34.5,34.5,2.5,4.2,2.6175,0.38686509457243046,-0.02781693012501917,0.9047283447727827,-0.0005237867693265976,-0.140358,-31.112276
11.185,2.0,1.0,1.0,34.3,34.5,34.5,2.5,4.2,2.62,0.37698861810430667,-0.02837355054280945,0.908572493892237,-0.0008531563650958919,-0.142932,-30.937801
11.185,2.0,1.0,1.0,34.3,34.5,34.5,2.5,4.2,2.6225,0.3669861482329216,-0.0289429778057653,0.912334728437191,-0.001198404245629937,-0.145585,-30.761696
11.185,2.0,1.0,1.0,34.3,34.5,34.5,2.5,4.2,2.625,0.356856225521631,-0.029525587430658,0.916012090826029,-0.00156031353110115,-0.148321,-30.583917
11.185,2.0,1.0,1.0,34.3,34.5,34.5,2.5,4.2,2.6275,0.34659737696857007,-0.030121768471678623,0.9196015123073922,-0.0019397137697679029,-0.151143,-30.404419
11.185,2.0,1.0,1.0,34.3,34.5,34.5,2.5,4.2,2.63,0.33620811629184677,-0.030731924038539065,0.9230998076437018,-0.0023374842850241526,-0.154056,-30.223153
11.185,2.0,1.0,1.0,34.3,34.5,34.5,2.5,4.2,2.6325,0.32568694425336747,-0.03135647182516586,0.9265036694431048,-0.002754557810713506,-0.157063,-30.04007
11.185,2.0,1.0,1.0,34.3,34.5,34.5,2.5,4.2,2.635,0.3150323490258676,-0.031995844646753424,0.9298096621083859,-0.0031919244436674843,-0.16017,-29.85512
11.185,2.0,1.0,1.0,34.3,34.5,34.5,2.5,4.2,2.6375,0.3042428066084371,-0.032650490982299205,0.9330142153679183,-0.0036506359457601925,-0.16338,-29.668249
11.185,2.0,1.0,1.0,34.3,34.5,34.5,2.5,4.2,2.64,0.29331678129669314,-0.033320875518956225,0.9361136173497963,-0.004131810431512743,-0.166699,-29.479402
11.185,2.0,1.0,1.0,34.3,34.5,34.5,2.5,4.2,2.6425,0.28225272621484604,-0.03400747969360795,0.9391040071558814,-0.004636637481536839,-0.170133,-29.288521
11.185,2.0,1.0,1.0,34.3,34.5,34.5,2.5,4.2,2.645,0.27104908391810567,-0.034710802225907555,0.9419813668874559,-0.005166383726881811,-0.173686,-29.095545
11.185,2.0,1.0,1.0,34.3,34.5,34.5,2.5,4.2,2.6475,0.2597042870754022,-0.03543135963567201,0.9447415130685407,-0.0057223989548206644,-0.177365,-28.900413
11.185,2.0,1.0,1.0,34.3,34.5,34.5,2.5,4.2,2.65,0.2482167592441273,-0.036169686735824005,0.9473800874064691,-0.0063061227927588065,-0.181177,-28.703058
11.185,2.0,1.0,1.0,34.3,34.5,34.5,2.5,4.2,2.6525,0.23658491575082033,-0.036926337090096906,0.9498925468220302,-0.006919092033997176,-0.185129,-28.503412
11.185,2.0,1.0,1.0,34.3,34.5,34.5,2.5,4.2,2.655,0.2248071646941831,-0.03770188342225009,0.9522741526731545,-0.007562948677058476,-0.189228,-28.301404
11.185,2.0,1.0,1.0,34.3,34.5,34.5,2.5,4.2,2.6575,0.21288190808994792,-0.03849691796063295,0.954519959086656,-0.008239448759415255,-0.193481,-28.09696
11.185,2.0,1.0,1.0,34.3,34.5,34.5,2.5,4.2,2.66,0.20080754318079902,-0.03931205269836334,0.9566248003017329,-0.008950472076883422,-0.197899,-27.890001
11.185,2.0,1.0,1.0,34.3,34.5,34.5,2.5,4.2,2.6625,0.18858246393899902,-0.04014791954508509,0.9585832769165556,-0.009698032891840264,-0.20249,-27.680446
11.185,2.0,1.0,1.0,34.3,34.5,34.5,2.5,4.2,2.665,0.17620506279472858,-0.041005170341062866,0.9603897409151225,-0.010484291747107239,-0.207264,-27.468209
11.185,2.0,1.0,1.0,34.3,34.5,34.5,2.5,4.2,2.6675,0.16367373262967616,-0.041884476698036556,0.9620382793353335,-0.01131156851799334,-0.212231,-27.253202
11.185,2.0,1.0,1.0,34.3,34.5,34.5,2.5,4.2,2.67,0.15098686908323813,-0.042786529623594124,0.9635226964205805,-0.012182356853022812,-0.217405,-27.035329
11.185,2.0,1.0,1.0,34.3,34.5,34.5,2.5,4.2,2.6725,0.13814287322822721,-0.043712038876469426,0.9648364940756771,-0.013099340174609064,-0.222796,-26.814494
11.185,2.0,1.0,1.0,34.3,34.5,34.5,2.5,4.2,2.675,0.12514015468459588,-0.04466173198880959,0.9659728504232412,-0.014065409434879134,-0.22842,-26.590592
11.185,2.0,1.0,1.0,34.3,34.5,34.5,2.5,4.2,2.6775,0.11197713525375393,-0.045636352877584774,0.9669245962280482,-0.01508368284948206,-0.23429,-26.363515
11.185,2.0,1.0,1.0,34.3,34.5,34.5,2.5,4.2,2.68,0.0986522531732742,-0.04663665995036703,0.9676841889238669,-0.016157527864219052,-0.240423,-26.133149
11.185,2.0,1.0,1.0,34.3,34.5,34.5,2.5,4.2,2.6825,0.08516396811282312,-0.047663423589950196,0.9682436839390061,-0.01729058564640438,-0.246837,-25.899374
11.185,2.0,1.0,1.0,34.3,34.5,34.5,2.5,4.2,2.685,0.07151076705791684,-0.048717422876850464,0.9685947029724008,-0.01848679843592116,-0.25355,-25.662063
11.185,2.0,1.0,1.0,34.3,34.5,34.5,2.5,4.2,2.6875,0.05769117125974856,-0.049799441377418846,0.968728398820443,-0.019750440140989502,-0.260584,-25.421084
11.185,2.0,1.0,1.0,34.3,34.5,34.5,2.5,4.2,2.69,0.04370374446833871,-0.05091026178678286,0.9686354162947112,-0.02108615062196829,-0.267961,-25.176295
11.185,2.0,1.0,1.0,34.3,34.5,34.5,2.5,4.2,2.6925,0.02954710271427999,-0.05205065916821073,0.9683058487006603,-0.02249897417450702,-0.275707,-24.927549
11.185,2.0,1.0,1.0,34.3,34.5,34.5,2.5,4.2,2.695,0.015219925963965543,-0.053221392471587824,0.967729189265596,-0.023994402802787095,-0.283849,-24.674688
11.185,2.0,1.0,1.0,34.3,34.5,34.5,2.5,4.2,2.6975,0.0007209720469032387,-0.05442319394053454,0.9668942768085947,-0.025578424966482508,-0.292418,-24.417548
11.185,2.0,1.0,1.0,34.3,34.5,34.5,2.5,4.2,2.7,-0.013950906654294616,-0.05565675592667226,0.9657892348331293,-0.027257580593824826,-0.301447,-24.155952
11.185,2.0,1.0,1.0,34.3,34.5,34.5,2.5,4.2,2.7025,-0.028796743146093744,-0.056922714515905845,0.9644014030919795,-0.02903902328065312,-0.310973,-23.889717
11.185,2.0,1.0,1.0,34.3,34.5,34.5,2.5,4.2,2.705,-0.043817431649671675,-0.05822162922933153,0.96271726052018,-0.030930590744828786,-0.321037,-23.618644
11.185,2.0,1.0,1.0,34.3,34.5,34.5,2.5,4.2,2.7075,-0.05901369838114398,-0.05955395788274473,0.9607223382512601,-0.032940884780918674,-0.331686,-23.342525
11.185,2.0,1.0,1.0,34.3,34.5,34.5,2.5,4.2,2.71,-0.07438606613046964,-0.060920025463646776,0.9584011212201466,-0.0350793621659591,-0.34297,-23.061139
11.185,2.0,1.0,1.0,34.3,34.5,34.5,2.5,4.2,2.7125,-0.08993481119626448,-0.06231998560018808,0.9557369366075422,-0.03735643820878346,-0.354946,-22.77425
11.185,2.0,1.0,1.0,34.3,34.5,34.5,2.5,4.2,2.715,-0.10565991086976824,-0.06375377283563508,0.9527118270891652,-0.039783604918574085,-0.367677,-22.481608
11.185,2.0,1.0,1.0,34.3,34.5,34.5,2.5,4.2,2.7175,-0.12156097919799601,-0.0652210434626942,0.9493064065121866,-0.04237356609962328,-0.381236,-22.182946
11.185,2.0,1.0,1.0,34.3,34.5,34.5,2.5,4.2,2.72,-0.13763718816417206,-0.06672110208525747,0.9454996952232027,-0.04514039206572335,-0.395703,-21.877981
11.185,2.0,1.0,1.0,34.3,34.5,34.5,2.5,4.2,2.7225,-0.15388717066459454,-0.06825281032277845,0.9412689318095114,-0.04809969711635492,-0.411169,-21.566409
11.185,2.0,1.0,1.0,34.3,34.5,34.5,2.5,4.2,2.725,-0.17030890068374333,-0.06981447310402657,0.9365893574813203,-0.051268843434509666,-0.427737,-21.247908
11.185,2.0,1.0,1.0,34.3,34.5,34.5,2.5,4.2,2.7275,-0.18689954480663895,-0.07140369674552184,0.9314339687112233,-0.054667175657415246,-0.445525,-20.922132
11.185,2.0,1.0,1.0,34.3,34.5,34.5,2.5,4.2,2.73,-0.20365527756856203,-0.07301721138650676,0.9257732330571818,-0.05831629103781957,-0.464667,-20.588712
11.185,2.0,1.0,1.0,34.3,34.5,34.5,2.5,4.2,2.7325,-0.22057105100755933,-0.07465064823791658,0.9195747623315755,-0.06224035084844167,-0.485317,-20.247254
11.185,2.0,1.0,1.0,34.3,34.5,34.5,2.5,4.2,2.735,-0.23764030599308883,-0.07629825933830522,0.9128029364598268,-0.06646643946678601,-0.507651,-19.897335
11.185,2.0,1.0,1.0,34.3,34.5,34.5,2.5,4.2,2.7375,-0.25485460923865205,-0.07795256388124668,0.905418470537879,-0.07102497837021143,-0.531875,-19.538503
11.185,2.0,1.0,1.0,34.3,34.5,34.5,2.5,4.2,2.74,-0.2722031950757853,-0.07960390039886367,0.8973779168256558,-0.07595020299333535,-0.558226,-19.170275
11.185,2.0,1.0,1.0,34.3,34.5,34.5,2.5,4.2,2.7425,-0.2896723846792156,-0.08123985776779506,0.8886330928423073,-0.08128071091155889,-0.586979,-18.792133
11.185,2.0,1.0,1.0,34.3,34.5,34.5,2.5,4.2,2.745,-0.30724484695992005,-0.08284454962618965,0.8791304265977379,-0.08706008987501872,-0.618458,-18.403523
11.185,2.0,1.0,1.0,34.3,34.5,34.5,2.5,4.2,2.7475,-0.3248986540744984,-0.08439768565413117,0.868810210706277,-0.09333763342327504,-0.653045,-18.003851
11.185,2.0,1.0,1.0,34.3,34.5,34.5,2.5,4.2,2.75,-0.342606069486812,-0.0858733783413054,0.857605759349762,-0.100169149495267,-0.691189,-17.592487
11.185,2.0,1.0,1.0,34.3,34.5,34.5,2.5,4.2,2.7525,-0.3603319865038711,-0.08723860410916351,0.8454424668834838,-0.10761786251960562,-0.733427,-17.168757
11.185,2.0,1.0,1.0,34.3,34.5,34.5,2.5,4.2,2.755,-0.37803190855255986,-0.08845121136093102,0.8322367760926559,-0.1157554001510165,-0.780399,-16.731947
11.185,2.0,1.0,1.0,34.3,34.5,34.5,2.5,4.2,2.7575,-0.3956493270826843,-0.08945733316116593,0.8178950806002121,-0.12466283923521503,-0.832878,-16.281301
11.185,2.0,1.0,1.0,34.3,34.5,34.5,2.5,4.2,2.76,-0.41311230634480806,-0.09018801632882849,0.8023126143661047,-0.13443175710186347,-0.891797,-15.81603
11.185,2.0,1.0,1.0,34.3,34.5,34.5,2.5,4.2,2.7625,-0.43032902358382336,-0.09055481903499638,0.7853724291084712,-0.14516518646055832,-0.958295,-15.335312
11.185,2.0,1.0,1.0,34.3,34.5,34.5,2.5,4.2,2.765,-0.4471819358560074,-0.09044405309016149,0.7669446398236163,-0.15697829311682254,-1.033769,-14.838308
11.185,2.0,1.0,1.0,34.3,34.5,34.5,2.5,4.2,2.7675,-0.46352014980372863,-0.08970925422228321,0.7468862484410068,-0.1699984665825547,-1.119947,-14.324181
11.185,2.0,1.0,1.0,34.3,34.5,34.5,2.5,4.2,2.77,-0.479149462151101,-0.08816135780711228,0.725042065903372,-0.1843643049106449,-1.218976,-13.792122
11.185,2.0,1.0,1.0,34.3,34.5,34.5,2.5,4.2,2.7725,-0.4938194316234405,-0.08555595409455925,0.7012475895308616,-0.20022264144952742,-1.333548,-13.241399
11.185,2.0,1.0,1.0,34.3,34.5,34.5,2.5,4.2,2.775,-0.5072067773907042,-0.08157693598078615,0.6753352236102725,-0.2177222355714591,-1.467056,-12.671419
11.185,2.0,1.0,1.0,34.3,34.5,34.5,2.5,4.2,2.7775,-0.5188944656559289,-0.07581592414124744,0.647146052014329,-0.2370019382953104,-1.623803,-12.081833
11.185,2.0,1.0,1.0,34.3,34.5,34.5,2.5,4.2,2.78,-0.5283462341228895,-0.06774724701005011,0.6165505999617618,-0.25816993225472373,-1.809272,-11.472675
11.185,2.0,1.0,1.0,34.3,34.5,34.5,2.5,4.2,2.7825,-0.5348773850525929,-0.05669933433089936,0.5834837621867595,-0.28126893331742203,-2.030463,-10.844576
11.185,2.0,1.0,1.0,34.3,34.5,34.5,2.5,4.2,2.785,-0.5376251311867724,-0.04182582416783585,0.5480013005119763,-0.30622005952400205,-2.296295,-10.199051
11.185,2.0,1.0,1.0,34.3,34.5,34.5,2.5,4.2,2.7875,-0.5355267378591828,-0.022084599823925372,0.5103675628473658,-0.33273588722891806,-2.618032,-9.538917
11.185,2.0,1.0,1.0,34.3,34.5,34.5,2.5,4.2,2.79,-0.5273227671232988,0.003758068966476585,0.47118477440562495,-0.3601925907243603,-3.009567,-8.868832
11.185,2.0,1.0,1.0,34.3,34.5,34.5,2.5,4.2,2.7925,-0.5116173492402547,0.03706670210556454,0.4315694796347752,-0.3874558825218973,-3.487176,-8.195988
11.185,2.0,1.0,1.0,34.3,34.5,34.5,2.5,4.2,2.795,-0.4870464962887164,0.0791688070379609,0.39336363816802,-0.41267345893856683,-4.067702,-7.530903
11.185,2.0,1.0,1.0,34.3,34.5,34.5,2.5,4.2,2.7975,-0.4526193881460192,0.13101637805662858,0.35932489422937913,-0.43308918812256203,-4.762812,-6.888153
11.185,2.0,1.0,1.0,34.3,34.5,34.5,2.5,4.2,2.8,-0.4082783557735532,0.19263246575356538,0.3331654554105298,-0.44500823825183117,-5.564391,-6.286742
11.185,2.0,1.0,1.0,34.3,34.5,34.5,2.5,4.2,2.8025,-0.355621680579203,0.2623994089336293,0.3192257093809597,-0.4441238249362814,-6.413575,-5.749561
11.185,2.0,1.0,1.0,34.3,34.5,34.5,2.5,4.2,2.805,-0.2985159856223447,0.3364596554803971,0.3215733631386918,-0.426410200282942,-7.155214,-5.301327
11.185,2.0,1.0,1.0,34.3,34.5,34.5,2.5,4.2,2.8075,-0.24308550358868153,0.4087346421009649,0.3425682727777156,-0.38953906262334265,-7.533941,-4.964753
11.185,2.0,1.0,1.0,34.3,34.5,34.5,2.5,4.2,2.81,-0.19661349132632377,0.4720167585937009,0.3814508239295999,-0.33426650209883413,-7.348009,-4.755598
11.185,2.0,1.0,1.0,34.3,34.5,34.5,2.5,4.2,2.8125,-0.165508937679678,0.519978237704591,0.433894697094228,-0.264863593601923,-6.662348,-4.678445
11.185,2.0,1.0,1.0,34.3,34.5,34.5,2.5,4.2,2.815,-0.15334104688512729,0.5491056814781434,0.49308323721214486,-0.18804426237288235,-5.740673,-4.725277
11.185,2.0,1.0,1.0,34.3,34.5,34.5,2.5,4.2,2.8175,-0.1600883253021085,0.5594316895457506,0.5517983057100596,-0.11089966739489063,-4.813418,-4.877659
11.185,2.0,1.0,1.0,34.3,34.5,34.5,2.5,4.2,2.82,-0.1828677659486444,0.5538067618876873,0.6043090776343915,-0.03903602693245688,-3.994299,-5.111311
11.185,2.0,1.0,1.0,34.3,34.5,34.5,2.5,4.2,2.8225,-0.21742241381891672,0.5364265580243831,0.6472176922096299,0.024255160505120776,-3.31462,-5.400924
11.185,2.0,1.0,1.0,34.3,34.5,34.5,2.5,4.2,2.825,-0.25946479132672684,0.5115049575155605,0.6792880192516784,0.07782350466949835,-2.767462,-5.723617
11.185,2.0,1.0,1.0,34.3,34.5,34.5,2.5,4.2,2.8275,-0.3054420107096007,0.4825198274994241,0.7007752818060197,0.12199514919037026,-2.33304,-6.060596
