1,w,sub_t,h,l1,l2,l3,g1,g2,Freq,S11_re,S21_re,S11_img,S21_img,S11_dB,S21_dB
11.185,2.0,1.0,1.0,34.0,34.0,34.0,2.5,2.1,2.5,0.779376533921425,-0.0148440463253847,0.613404498242272,0.0108540230215982,-0.071405,-34.708835
11.185,2.0,1.0,1.0,34.0,34.0,34.0,2.5,2.1,2.5025,0.7746984680312144,-0.01514904218481731,0.6191523575983047,0.010890347898883377,-0.072224,-34.583045
11.185,2.0,1.0,1.0,34.0,34.0,34.0,2.5,2.1,2.505,0.7699527892055361,-0.015460130339640306,0.6248926897277931,0.010924823624805605,-0.073059,-34.456715
11.185,2.0,1.0,1.0,34.0,34.0,34.0,2.5,2.1,2.5075,0.7651387465421999,-0.01577745025928761,0.630625003521348,0.010957359162493099,-0.073912,-34.329835
11.185,2.0,1.0,1.0,34.0,34.0,34.0,2.5,2.1,2.51,0.760255577012038,-0.016101145362261378,0.6363487924025046,0.01098785959146971,-0.074781,-34.202393
11.185,2.0,1.0,1.0,34.0,34.0,34.0,2.5,2.1,2.5125,0.7553025052557857,-0.016431363150672913,0.6420635338010625,0.011016225924857976,-0.075669,-34.074381
11.185,2.0,1.0,1.0,34.0,34.0,34.0,2.5,2.1,2.515,0.7502787433777229,-0.016768255350078323,0.6477686886067174,0.011042354916871869,-0.076575,-33.945786
11.185,2.0,1.0,1.0,34.0,34.0,34.0,2.5,2.1,2.5175,0.7451834907360465,-0.017111978054842474,0.653463700602104,0.011066138860016875,-0.0775,-33.816598
11.185,2.0,1.0,1.0,34.0,34.0,34.0,2.5,2.1,2.52,0.7400159337299044,-0.017462691879278465,0.6591479958743451,0.011087465371375383,-0.078444,-33.686806
11.185,2.0,1.0,1.0,34.0,34.0,34.0,2.5,2.1,2.5225,0.734775245583072,-0.017820562114819156,0.6648209822041238,0.011106217167313968,-0.079409,-33.556397
11.185,2.0,1.0,1.0,34.0,34.0,34.0,2.5,2.1,2.525,0.7294605861241997,-0.018185758893492197,0.6704820484312752,0.011122271825902448,-0.080394,-33.425361
11.185,2.0,1.0,1.0,34.0,34.0,34.0,2.5,2.1,2.5275,0.7240711015635913,-0.018558457357981884,0.6761305637958169,0.011135501536286268,-0.0814,-33.293685
11.185,2.0,1.0,1.0,34.0,34.0,34.0,2.5,2.1,2.53,0.7186059242664665,-0.01893883783857428,0.6817658772532742,0.011145772834200872,-0.082428,-33.161358
11.185,2.0,1.0,1.0,34.0,34.0,34.0,2.5,2.1,2.5325,0.7130641725226522,-0.01932708603729773,0.6873873167631012,0.011152946322758804,-0.083479,-33.028365
11.185,2.0,1.0,1.0,34.0,34.0,34.0,2.5,2.1,2.535,0.7074449503126492,-0.019723393219585477,0.6929941885489304,0.011156876377580791,-0.084553,-32.894696
11.185,2.0,1.0,1.0,34.0,34.0,34.0,2.5,2.1,2.5375,0.7017473470700294,-0.02012795641380118,0.6985857763292905,0.0111574108352725,-0.085651,-32.760336
11.185,2.0,1.0,1.0,34.0,34.0,34.0,2.5,2.1,2.54,0.6959704374400993,-0.02054097861898794,0.7041613405173726,0.011154390664180882,-0.086773,-32.625273
11.185,2.0,1.0,1.0,34.0,34.0,34.0,2.5,2.1,2.5425,0.6901132810347821,-0.02096266902121469,0.7097201173883334,0.01114764961628269,-0.087921,-32.489492
11.185,2.0,1.0,1.0,34.0,34.0,34.0,2.5,2.1,2.545,0.6841749221836556,-0.02139324321891543,0.7152613182125203,0.01113701385897735,-0.089095,-32.35298
11.185,2.0,1.0,1.0,34.0,34.0,34.0,2.5,2.1,2.5475,0.6781543896811012,-0.021832923457631142,0.7207841283529114,0.01112230158546265,-0.090296,-32.215722
11.185,2.0,1.0,1.0,34.0,34.0,34.0,2.5,2.1,2.55,0.672050696529485,-0.02228193887458895,0.7262877063249699,0.011103322602276356,-0.091526,-32.077704
11.185,2.0,1.0,1.0,34.0,34.0,34.0,2.5,2.1,2.5525,0.6658628396783403,-0.022740525753567553,0.7317711828169604,0.011079877892478385,-0.092784,-31.938911
11.185,2.0,1.0,1.0,34.0,34.0,34.0,2.5,2.1,2.555,0.6595897997594654,-0.023208927790523283,0.7372336596686938,0.011051759152834104,-0.094071,-31.799328
11.185,2.0,1.0,1.0,34.0,34.0,34.0,2.5,2.1,2.5575,0.6532305408178914,-0.02368739637047093,0.7426742088065036,0.01101874830323385,-0.09539,-31.658938
11.185,2.0,1.0,1.0,34.0,34.0,34.0,2.5,2.1,2.56,0.6467840100386586,-0.02417619085613558,0.7480918711321182,0.010980616966448012,-0.09674,-31.517726
11.185,2.0,1.0,1.0,34.0,34.0,34.0,2.5,2.1,2.5625,0.64024913746934,-0.024675578888914754,0.7534856553629394,0.01093712591616959,-0.098123,-31.375675
11.185,2.0,1.0,1.0,34.0,34.0,34.0,2.5,2.1,2.565,0.6336248357382473,-0.02518583670271588,0.7588545368210725,0.010888024491135996,-0.09954,-31.232769
11.185,2.0,1.0,1.0,34.0,34.0,34.0,2.5,2.1,2.5675,0.6269099997682755,-0.025707249451254344,0.7641974561682511,0.010833049972947125,-0.100993,-31.088989
11.185,2.0,1.0,1.0,34.0,34.0,34.0,2.5,2.1,2.57,0.6201035064863158,-0.02624011154942595,0.7695133180836244,0.010771926925007285,-0.102481,-30.944319
11.185,2.0,1.0,1.0,34.0,34.0,34.0,2.5,2.1,2.5725,0.6132042145281887,-0.026784727029390692,0.7748009898811421,0.010704366489811507,-0.104007,-30.79874
11.185,2.0,1.0,1.0,34.0,34.0,34.0,2.5,2.1,2.575,0.6062109639390499,-0.027341409912029605,0.7800593000630406,0.010630065641571382,-0.105572,-30.652234
11.185,2.0,1.0,1.0,34.0,34.0,34.0,2.5,2.1,2.5775,0.5991225758692188,-0.027910484594463124,0.7852870368056781,0.010548706390929854,-0.107177,-30.504781
11.185,2.0,1.0,1.0,34.0,34.0,34.0,2.5,2.1,2.58,0.5919378522654027,-0.028492286254342494,0.7904829463736947,0.010459954938245218,-0.108824,-30.356362
11.185,2.0,1.0,1.0,34.0,34.0,34.0,2.5,2.1,2.5825,0.5846555755572729,-0.0290871612716522,0.7956457314581568,0.010363460771632102,-0.110514,-30.206956
11.185,2.0,1.0,1.0,34.0,34.0,34.0,2.5,2.1,2.585,0.5772745083393863,-0.029695467668783695,0.8007740494340346,0.01025885570562527,-0.112249,-30.056543
11.185,2.0,1.0,1.0,34.0,34.0,34.0,2.5,2.1,2.5875,0.5697933930484392,-0.030317575569663614,0.8058665105319798,0.010145752855981828,-0.11403,-29.905101
11.185,2.0,1.0,1.0,34.0,34.0,34.0,2.5,2.1,2.59,0.5622109516358756,-0.030953867678739977,0.810921675918988,0.01002374554575251,-0.115859,-29.75261
11.185,2.0,1.0,1.0,34.0,34.0,34.0,2.5,2.1,2.5925,0.5545258852358688,-0.031604739780648816,0.8159380556821112,0.009892406137330412,-0.117739,-29.599045
11.185,2.0,1.0,1.0,34.0,34.0,34.0,2.5,2.1,2.595,0.546736873828756,-0.03227060126139785,0.820914106708871,0.009751284784724715,-0.11967,-29.444385
11.185,2.0,1.0,1.0,34.0,34.0,34.0,2.5,2.1,2.5975,0.5388425758999966,-0.03295187565191628,0.8258482304575752,0.009599908099797124,-0.121655,-29.288605
11.185,2.0,1.0,1.0,34.0,34.0,34.0,2.5,2.1,2.6,0.53084162809479,-0.033649001194825896,0.830738770610106,0.009437777725642088,-0.123696,-29.131681
11.185,2.0,1.0,1.0,34.0,34.0,34.0,2.5,2.1,2.6025,0.5227326448685391,-0.03436243143528732,0.8355840105991615,0.00926436880967746,-0.125795,-28.973587
11.185,2.0,1.0,1.0,34.0,34.0,34.0,2.5,2.1,2.605,0.5145142181333735,-0.03509263583677034,0.8403821710012529,0.009079128368336376,-0.127955,-28.814299
11.185,2.0,1.0,1.0,34.0,34.0,34.0,2.5,2.1,2.6075,0.5061849169010418,-0.03584010042257872,0.8451314067859769,0.00888147353450725,-0.130178,-28.653788
11.185,2.0,1.0,1.0,34.0,34.0,34.0,2.5,2.1,2.61,0.4977432869225555,-0.03660532844393099,0.8498298044112875,0.008670789678046586,-0.132466,-28.492028
11.185,2.0,1.0,1.0,34.0,34.0,34.0,2.5,2.1,2.6125,0.48918785032505585,-0.03738884107535911,0.8544753787535497,0.008446428388784082,-0.134822,-28.328991
11.185,2.0,1.0,1.0,34.0,34.0,34.0,2.5,2.1,2.615,0.4805171052464977,-0.03819117813812543,0.8590660698601725,0.00820770531043699,-0.13725,-28.164647
11.185,2.0,1.0,1.0,34.0,34.0,34.0,2.5,2.1,2.6175,0.4717295254688866,-0.03901289885228023,0.8635997395114849,0.007953897812743924,-0.139752,-27.998965
11.185,2.0,1.0,1.0,34.0,34.0,34.0,2.5,2.1,2.62,0.46282356005097297,-0.0398545826178779,0.8680741675772877,0.007684242487901665,-0.14233,-27.831916
11.185,2.0,1.0,1.0,34.0,34.0,34.0,2.5,2.1,2.6225,0.45379763296148296,-0.04071682982573931,0.8724870481521705,0.007397932456030232,-0.14499,-27.663467
11.185,2.0,1.0,1.0,34.0,34.0,34.0,2.5,2.1,2.625,0.44465014271425,-0.0416002626979752,0.876835985452122,0.00709411446288539,-0.147734,-27.493584
11.185,2.0,1.0,1.0,34.0,34.0,34.0,2.5,2.1,2.6275,0.43537946200682304,-0.04250552615828168,0.8811184894533564,0.0067718857513630265,-0.150566,-27.322235
11.185,2.0,1.0,1.0,34.0,34.0,34.0,2.5,2.1,2.63,0.42598393736452905,-0.04343328873175451,0.8853319712523209,0.00643029068648224,-0.153489,-27.149382
11.185,2.0,1.0,1.0,34.0,34.0,34.0,2.5,2.1,2.6325,0.4164618887923154,-0.044384243473651115,0.8894737381238595,0.0060683171114651446,-0.156509,-26.97499
11.185,2.0,1.0,1.0,34.0,34.0,34.0,2.5,2.1,2.635,0.4068116094371969,-0.04535910892613887,0.8935409882521431,0.005684892410226958,-0.15963,-26.799022
11.185,2.0,1.0,1.0,34.0,34.0,34.0,2.5,2.1,2.6375,0.3970313652646812,-0.04635863010158998,0.8975308051064209,0.005278879249023706,-0.162856,-26.621437
11.185,2.0,1.0,1.0,34.0,34.0,34.0,2.5,2.1,2.64,0.38711939475320295,-0.04738357949040977,0.9014401514307749,0.0048490709671365605,-0.166192,-26.442197
11.185,2.0,1.0,1.0,34.0,34.0,34.0,2.5,2.1,2.6425,0.3770739086114049,-0.04843475809068284,0.9052658628138571,0.004394186583272225,-0.169644,-26.261258
11.185,2.0,1.0,1.0,34.0,34.0,34.0,2.5,2.1,2.645,0.36689308952403493,-0.04951299645608108,0.9090046408009709,0.003912865380777181,-0.173218,-26.078577
11.185,2.0,1.0,1.0,34.0,34.0,34.0,2.5,2.1,2.6475,0.35657509193333153,-0.05061915575746368,0.9126530455068866,0.0034036610307543996,-0.17692,-25.894111
11.185,2.0,1.0,1.0,34.0,34.0,34.0,2.5,2.1,2.65,0.34611804186410144,-0.05175412885237876,0.9162074876832329,0.0028650352076778243,-0.180755,-25.707811
11.185,2.0,1.0,1.0,34.0,34.0,34.0,2.5,2.1,2.6525,0.3355200368022927,-0.05291884135521002,0.9196642201892798,0.002295350647059378,-0.184731,-25.51963
11.185,2.0,1.0,1.0,34.0,34.0,34.0,2.5,2.1,2.655,0.3247791456386816,-0.054114252698958795,0.9230193288092471,0.0016928635890580334,-0.188856,-25.329519
11.185,2.0,1.0,1.0,34.0,34.0,34.0,2.5,2.1,2.6575,0.3138934086915736,-0.05534135717754067,0.9262687223528892,0.0010557155455545508,-0.193137,-25.137424
11.185,2.0,1.0,1.0,34.0,34.0,34.0,2.5,2.1,2.66,0.302860837825043,-0.056601184954954524,0.9294081219689099,0.00038192432104422003,-0.197583,-24.943292
11.185,2.0,1.0,1.0,34.0,34.0,34.0,2.5,2.1,2.6625,0.29167941668241176,-0.0578948030246505,0.932433049592677,-0.00033062579037714657,-0.202203,-24.747067
11.185,2.0,1.0,1.0,34.0,34.0,34.0,2.5,2.1,2.665,0.280347101058405,-0.05922331609880539,0.9353388154405593,-0.0010841947187769443,-0.207006,-24.54869
11.185,2.0,1.0,1.0,34.0,34.0,34.0,2.5,2.1,2.6675,0.26886181943796694,-0.06058786740285716,0.9381205044528739,-0.0018811983400336236,-0.212003,-24.348102
11.185,2.0,1.0,1.0,34.0,34.0,34.0,2.5,2.1,2.67,0.2572214737350474,-0.061989639345447954,0.9407729615757757,-0.0027242213141472106,-0.217206,-24.145238
11.185,2.0,1.0,1.0,34.0,34.0,34.0,2.5,2.1,2.6725,0.24542394027109882,-0.0634298540276679,0.943290775759194,-0.0036160311621636627,-0.222625,-23.940034
11.185,2.0,1.0,1.0,34.0,34.0,34.0,2.5,2.1,2.675,0.23346707104074046,-0.06490977354798703,0.9456682625329381,-0.0045595937185915845,-0.228275,-23.732421
11.185,2.0,1.0,1.0,34.0,34.0,34.0,2.5,2.1,2.6775,0.22134869532122606,-0.06643070005025044,0.9478994450061081,-0.005558090113120479,-0.234168,-23.522328
11.185,2.0,1.0,1.0,34.0,34.0,34.0,2.5,2.1,2.68,0.20906662169339502,-0.06799397545126618,0.9499780331156783,-0.006614935454668155,-0.240322,-23.30968
11.185,2.0,1.0,1.0,34.0,34.0,34.0,2.5,2.1,2.6825,0.1966186405551116,-0.06960098077147259,0.9518974009281608,-0.007733799412619847,-0.24675,-23.0944
11.185,2.0,1.0,1.0,34.0,34.0,34.0,2.5,2.1,2.685,0.18400252722409782,-0.07125313497644759,0.953650561773365,-0.008918628914961025,-0.253473,-22.876407
11.185,2.0,1.0,1.0,34.0,34.0,34.0,2.5,2.1,2.6875,0.17121604574635732,-0.07295189321805705,0.9552301409608579,-0.010173673211262094,-0.260507,-22.655616
11.185,2.0,1.0,1.0,34.0,34.0,34.0,2.5,2.1,2.69,0.1582569535495863,-0.07469874434112682,0.9566283457974177,-0.011503511580666443,-0.267876,-22.431941
11.185,2.0,1.0,1.0,34.0,34.0,34.0,2.5,2.1,2.6925,0.1451230071089599,-0.07649520749381485,0.9578369325869486,-0.012913084001709839,-0.2756,-22.205287
11.185,2.0,1.0,1.0,34.0,34.0,34.0,2.5,2.1,2.695,0.1318119688267332,-0.07834282764627576,0.9588471702522745,-0.014407725142610602,-0.283706,-21.97556
11.185,2.0,1.0,1.0,34.0,34.0,34.0,2.5,2.1,2.6975,0.11832161536810734,-0.08024316978148292,0.9596498001703868,-0.01599320207835561,-0.29222,-21.742657
11.185,2.0,1.0,1.0,34.0,34.0,34.0,2.5,2.1,2.7,0.10464974774593033,-0.08219781147255074,0.9602349917580293,-0.017675756195272334,-0.30117,-21.506474
11.185,2.0,1.0,1.0,34.0,34.0,34.0,2.5,2.1,2.7025,0.09079420350747133,-0.0842083335006281,0.9605922932822555,-0.019462149805775097,-0.310591,-21.266899
11.185,2.0,1.0,1.0,34.0,34.0,34.0,2.5,2.1,2.705,0.07675287145076656,-0.08627630809390587,0.9607105772995557,-0.021359718066611456,-0.320517,-21.023818
11.185,2.0,1.0,1.0,34.0,34.0,34.0,2.5,2.1,2.7075,0.06252370938844104,-0.08840328427844554,0.960577980046327,-0.023376426874367258,-0.330987,-20.777107
11.185,2.0,1.0,1.0,34.0,34.0,34.0,2.5,2.1,2.71,0.048104765587806325,-0.09059076972154524,0.9601818340115179,-0.025520937503426662,-0.342043,-20.52664
11.185,2.0,1.0,1.0,34.0,34.0,34.0,2.5,2.1,2.7125,0.033494204651801814,-0.09284020831342658,0.9595085928179866,-0.027802678855347224,-0.353734,-20.272284
11.185,2.0,1.0,1.0,34.0,34.0,34.0,2.5,2.1,2.715,0.018690338772378193,-0.0951529525671734,0.9585437474210026,-0.030231928306005684,-0.36611,-20.013896
11.185,2.0,1.0,1.0,34.0,34.0,34.0,2.5,2.1,2.7175,0.003691665493420113,-0.09753022971255149,0.9572717324992841,-0.03281990226921495,-0.379231,-19.751331
11.185,2.0,1.0,1.0,34.0,34.0,34.0,2.5,2.1,2.72,-0.011503086625939359,-0.09997310010716187,0.9556758217646472,-0.035578857743910154,-0.393159,-19.484433
11.185,2.0,1.0,1.0,34.0,34.0,34.0,2.5,2.1,2.7225,-0.02689490274308823,-0.10248240627645705,0.95373801075004,-0.038522206277281645,-0.407966,-19.213038
11.185,2.0,1.0,1.0,34.0,34.0,34.0,2.5,2.1,2.725,-0.04248441476540238,-0.10505871050747122,0.9514388854523256,-0.04166464195852864,-0.423731,-18.936977
11.185,2.0,1.0,1.0,34.0,34.0,34.0,2.5,2.1,2.7275,-0.058271820109201004,-0.10770221844082882,0.9487574750062434,-0.045022285256422025,-0.440544,-18.656069
11.185,2.0,1.0,1.0,34.0,34.0,34.0,2.5,2.1,2.73,-0.07425678300693496,-0.1104126855077147,0.9456710863523439,-0.048612844726004814,-0.458502,-18.370126
11.185,2.0,1.0,1.0,34.0,34.0,34.0,2.5,2.1,2.7325,-0.09043831443601287,-0.11318930231284623,0.9421551186391705,-0.05245579883047598,-0.477718,-18.078947
11.185,2.0,1.0,1.0,34.0,34.0,34.0,2.5,2.1,2.735,-0.10681462580624686,-0.11603055413270096,0.9381828548778003,-0.05657260034444722,-0.498317,-17.782325
11.185,2.0,1.0,1.0,34.0,34.0,34.0,2.5,2.1,2.7375,-0.12338295037098962,-0.11893404853190559,0.9337252281599906,-0.0609869060092954,-0.52044,-17.48004
11.185,2.0,1.0,1.0,34.0,34.0,34.0,2.5,2.1,2.74,-0.14013932485779576,-0.12189630363841396,0.9287505595836619,-0.06572483427620211,-0.544248,-17.171862
11.185,2.0,1.0,1.0,34.0,34.0,34.0,2.5,2.1,2.7425,-0.15707832197047542,-0.12491248778251454,0.9232242649385267,-0.07081525406043127,-0.569922,-16.857549
11.185,2.0,1.0,1.0,34.0,34.0,34.0,2.5,2.1,2.745,-0.17419272209734685,-0.12797609889837464,0.9171085272470296,-0.07629010738459693,-0.597669,-16.536849
11.185,2.0,1.0,1.0,34.0,34.0,34.0,2.5,2.1,2.7475,-0.19147310964836306,-0.13107856918776897,0.9103619325170509,-0.08218476852366458,-0.627727,-16.209497
11.185,2.0,1.0,1.0,34.0,34.0,34.0,2.5,2.1,2.75,-0.208907375783708,-0.134208776902277,0.902939066670198,-0.0885384416527574,-0.660365,-15.875218
11.185,2.0,1.0,1.0,34.0,34.0,34.0,2.5,2.1,2.7525,-0.22648010470146918,-0.13735244252622508,0.8947900727518731,-0.09539459785189511,-0.695897,-15.533724
11.185,2.0,1.0,1.0,34.0,34.0,34.0,2.5,2.1,2.755,-0.24417181489528397,-0.14049138091285798,0.8858601694840308,-0.1028014503620069,-0.734682,-15.184719
11.185,2.0,1.0,1.0,34.0,34.0,34.0,2.5,2.1,2.7575,-0.2619580196072667,-0.14360257377528374,0.8760891353954727,-0.11081246380741645,-0.777136,-14.827896
11.185,2.0,1.0,1.0,34.0,34.0,34.0,2.5,2.1,2.76,-0.2798080617840129,-0.14665701806133943,0.8654107677507705,-0.11948688810859186,-0.823746,-14.462942
11.185,2.0,1.0,1.0,34.0,34.0,34.0,2.5,2.1,2.7625,-0.2976836678733821,-0.1496182948307973,0.8537523331583923,-0.12889030014498712,-0.875077,-14.089538
11.185,2.0,1.0,1.0,34.0,34.0,34.0,2.5,2.1,2.765,-0.3155371514809524,-0.152440790013689,0.8410340383151786,-0.1390951246486607,-0.931792,-13.707367
11.185,2.0,1.0,1.0,34.0,34.0,34.0,2.5,2.1,2.7675,-0.333309182053416,-0.15506748268357487,0.8271685666224012,-0.15018108853280066,-0.994675,-13.316114
11.185,2.0,1.0,1.0,34.0,34.0,34.0,2.5,2.1,2.77,-0.3509260154639957,-0.15742719833320087,0.8120607519275888,-0.16223553735030644,-1.064647,-12.915477
11.185,2.0,1.0,1.0,34.0,34.0,34.0,2.5,2.1,2.7725,-0.36829606331080633,-0.1594312047774443,0.7956074979766969,-0.1753535052735939,-1.142808,-12.505175
11.185,2.0,1.0,1.0,34.0,34.0,34.0,2.5,2.1,2.775,-0.3853056576722197,-0.1609690085231715,0.7776981062400421,-0.1896373759658123,-1.230466,-12.084963
11.185,2.0,1.0,1.0,34.0,34.0,34.0,2.5,2.1,2.7775,-0.4018138517572139,-0.16190319353589155,0.758215252261096,-0.2051958943451824,-1.329188,-11.654649
11.185,2.0,1.0,1.0,34.0,34.0,34.0,2.5,2.1,2.78,-0.4176460915814631,-0.16206313958511723,0.7370369602098398,-0.22214217993955176,-1.440863,-11.214115
11.185,2.0,1.0,1.0,34.0,34.0,34.0,2.5,2.1,2.7825,-0.43258661258024717,-0.16123747691609858,0.7140400774163147,-0.24059024086686526,-1.567769,-10.763354
11.185,2.0,1.0,1.0,34.0,34.0,34.0,2.5,2.1,2.785,-0.4463694805387052,-0.15916520054983463,0.6891059566469956,-0.2606492822958855,-1.712675,-10.302505
11.185,2.0,1.0,1.0,34.0,34.0,34.0,2.5,2.1,2.7875,-0.4586683458117429,-0.15552551855245192,0.6621293227605529,-0.2824148358429858,-1.878946,-9.831909
11.185,2.0,1.0,1.0,34.0,34.0,34.0,2.5,2.1,2.79,-0.46908527279772305,-0.14992680340549247,0.6330316314260894,-0.30595540796484477,-2.070693,-9.352173
11.185,2.0,1.0,1.0,34.0,34.0,34.0,2.5,2.1,2.7925,-0.4771395317003635,-0.1418955425977395,0.6017805952295296,-0.3312929824121784,-2.292937,-8.864263
11.185,2.0,1.0,1.0,34.0,34.0,34.0,2.5,2.1,2.795,-0.48225811881987246,-0.13086706503037843,0.5684178780026784,-0.3583753941826653,-2.551817,-8.369606
11.185,2.0,1.0,1.0,34.0,34.0,34.0,2.5,2.1,2.7975,-0.48377115014446775,-0.11618119703737004,0.5330970620297484,-0.38703850132469025,-2.8548,-7.870221
11.185,2.0,1.0,1.0,34.0,34.0,34.0,2.5,2.1,2.8,-0.4809172720507949,-0.09708799282768636,0.496133524776586,-0.41695656803443504,-3.210904,-7.368876
11.185,2.0,1.0,1.0,34.0,34.0,34.0,2.5,2.1,2.8025,-0.4728668252099271,-0.07277125399666601,0.45806622333687186,-0.4475809360697094,-3.630833,-6.869255
11.185,2.0,1.0,1.0,34.0,34.0,34.0,2.5,2.1,2.805,-0.4587732509828736,-0.04240025692104332,0.41972770210091626,-0.47807076924737574,-4.126885,-6.376128
11.185,2.0,1.0,1.0,34.0,34.0,34.0,2.5,2.1,2.8075,-0.4378648851218683,-0.005221672563665756,0.382311938360833,-0.5072263621269291,-4.712271,-5.895503
11.185,2.0,1.0,1.0,34.0,34.0,34.0,2.5,2.1,2.81,-0.40958727906141323,0.0392984766807001,0.3474194989428167,-0.5334455893455544,-5.399113,-5.434691
11.185,2.0,1.0,1.0,34.0,34.0,34.0,2.5,2.1,2.8125,-0.3737966024030507,0.09128271287603247,0.3170474523413971,-0.5547359157003329,-6.193493,-5.002243
11.185,2.0,1.0,1.0,34.0,34.0,34.0,2.5,2.1,2.815,-0.3309836570291038,0.15022080967541718,0.29348314733031444,-0.5688223465938936,-7.084479,-4.607668
11.185,2.0,1.0,1.0,34.0,34.0,34.0,2.5,2.1,2.8175,-0.28247595681526855,0.21477207352495847,0.2790670501142812,-0.5733850976823852,-8.022479,-4.260874
11.185,2.0,1.0,1.0,34.0,34.0,34.0,2.5,2.1,2.82,-0.230533206242413,0.28267527796425074,0.27582268881768723,-0.5664275330997777,-8.886578,-3.971314
11.185,2.0,1.0,1.0,34.0,34.0,34.0,2.5,2.1,2.8225,-0.1782439456464525,0.350856652640038,0.2850138508517853,-0.5467131687343895,-9.46907,-3.74692
11.185,2.0,1.0,1.0,34.0,34.0,34.0,2.5,2.1,2.825,-0.12917537863780762,0.4157811430427664,0.30675788987668473,-0.5141433501617229,-9.555124,-3.593026
11.185,2.0,1.0,1.0,34.0,34.0,34.0,2.5,2.1,2.8275,-0.08682639611487579,0.4739947114963258,0.33985108426771177,-0.4699224136266154,-9.099622,-3.511542
11.185,2.0,1.0,1.0,34.0,34.0,34.0,2.5,2.1,2.83,-0.054039464188882065,0.5227023249582734,0.3819058679516331,-0.416414678677019,-8.274778,-3.500629
