1,w,sub_t,h,l1,l2,l3,g1,g2,Freq,S11_re,S21_re,S11_img,S21_img,S11_dB,S21_dB
11.185,2.0,1.0,1.0,34.0,34.5,34.5,3.3,3.6,2.5,0.782130318751454,-0.00905504888441912,0.611096631784333,0.00499381598220379,-0.064902,-39.708919
11.185,2.0,1.0,1.0,34.0,34.5,34.5,3.3,3.6,2.5025,0.7775749675030995,-0.009230921540300042,0.6167538388288883,0.004992980172964518,-0.065602,-39.580559
11.185,2.0,1.0,1.0,34.0,34.5,34.5,3.3,3.6,2.505,0.7729554349226595,-0.009410121239646258,0.6224035123058177,0.004990738490371756,-0.066316,-39.451654
11.185,2.0,1.0,1.0,34.0,34.5,34.5,3.3,3.6,2.5075,0.7682710431246067,-0.00959272583988319,0.6280452028690019,0.004987034889940411,-0.067044,-39.322193
11.185,2.0,1.0,1.0,34.0,34.5,34.5,3.3,3.6,2.51,0.7635211035669449,-0.009778815636037998,0.6336784476070757,0.004981811025259793,-0.067786,-39.19216
11.185,2.0,1.0,1.0,34.0,34.5,34.5,3.3,3.6,2.5125,0.7587049168729699,-0.009968473457982834,0.639302769599206,0.004975006137663826,-0.068543,-39.061542
11.185,2.0,1.0,1.0,34.0,34.5,34.5,3.3,3.6,2.515,0.7538217726493752,-0.010161784772452307,0.644917677454849,0.004966556939694982,-0.069316,-38.930325
11.185,2.0,1.0,1.0,34.0,34.5,34.5,3.3,3.6,2.5175,0.7488709493005641,-0.010358837790113713,0.6505226648367611,0.0049563974919553605,-0.070104,-38.798494
11.185,2.0,1.0,1.0,34.0,34.5,34.5,3.3,3.6,2.52,0.7438517138389956,-0.010559723577987668,0.6561172099665447,0.004944459072905932,-0.070909,-38.666034
11.185,2.0,1.0,1.0,34.0,34.5,34.5,3.3,3.6,2.5225,0.7387633216914092,-0.010764536177535975,0.661700775111912,0.0049306700411418675,-0.07173,-38.53293
11.185,2.0,1.0,1.0,34.0,34.5,34.5,3.3,3.6,2.525,0.7336050165007233,-0.010973372728756826,0.6672728060548645,0.004914955689635795,-0.072568,-38.399167
11.185,2.0,1.0,1.0,34.0,34.5,34.5,3.3,3.6,2.5275,0.7283760299234133,-0.011186333600649138,0.6728327315398882,0.004897238091400724,-0.073424,-38.264728
11.185,2.0,1.0,1.0,34.0,34.5,34.5,3.3,3.6,2.53,0.7230755814221511,-0.011403522528433407,0.6783799627012331,0.004877435935982708,-0.074298,-38.129598
11.185,2.0,1.0,1.0,34.0,34.5,34.5,3.3,3.6,2.5325,0.7177028780534661,-0.011625046757944244,0.6839138924682838,0.004855464356143403,-0.075191,-37.993759
11.185,2.0,1.0,1.0,34.0,34.5,34.5,3.3,3.6,2.535,0.7122571142501629,-0.011851017197637283,0.689433894947971,0.004831234744046514,-0.076103,-37.857194
11.185,2.0,1.0,1.0,34.0,34.5,34.5,3.3,3.6,2.5375,0.7067374715982301,-0.012081548578686051,0.6949393247830902,0.0048046545562008955,-0.077035,-37.719886
11.185,2.0,1.0,1.0,34.0,34.5,34.5,3.3,3.6,2.54,0.7011431186079179,-0.012316759623677195,0.7004295164853405,0.004775627106357074,-0.077987,-37.581817
11.185,2.0,1.0,1.0,34.0,34.5,34.5,3.3,3.6,2.5425,0.6954732104786643,-0.012556773224449801,0.7059037837418126,0.004744051345484408,-0.07896,-37.442968
11.185,2.0,1.0,1.0,34.0,34.5,34.5,3.3,3.6,2.545,0.6897268888574999,-0.01280171662966316,0.711361418693557,0.004709821627885096,-0.079954,-37.303321
11.185,2.0,1.0,1.0,34.0,34.5,34.5,3.3,3.6,2.5475,0.6839032815905491,-0.013051721642720561,0.7168016911847817,0.004672827462421714,-0.080971,-37.162856
11.185,2.0,1.0,1.0,34.0,34.5,34.5,3.3,3.6,2.55,0.6780015024671802,-0.013306924830723089,0.7222238479811397,0.00463295324774707,-0.082012,-37.021553
11.185,2.0,1.0,1.0,34.0,34.5,34.5,3.3,3.6,2.5525,0.6720206509563609,-0.013567467745175699,0.7276271119554176,0.004590077990331394,-0.083075,-36.879391
11.185,2.0,1.0,1.0,34.0,34.5,34.5,3.3,3.6,2.555,0.665959811934689,-0.013833497155223726,0.7330106812388678,0.004544075003976063,-0.084164,-36.736349
11.185,2.0,1.0,1.0,34.0,34.5,34.5,3.3,3.6,2.5575,0.6598180554055447,-0.014105165294255482,0.7383737283362581,0.004494811589388888,-0.085278,-36.592407
11.185,2.0,1.0,1.0,34.0,34.5,34.5,3.3,3.6,2.56,0.6535944362087683,-0.014382630120769237,0.743715399202585,0.004442148692270325,-0.086418,-36.44754
11.185,2.0,1.0,1.0,34.0,34.5,34.5,3.3,3.6,2.5625,0.647287993720186,-0.0146660555944725,0.749034812279237,0.00438594053821886,-0.087585,-36.301727
11.185,2.0,1.0,1.0,34.0,34.5,34.5,3.3,3.6,2.565,0.6408977515402614,-0.014955611968655434,0.7543310574872337,0.004326034242615893,-0.08878,-36.154944
11.185,2.0,1.0,1.0,34.0,34.5,34.5,3.3,3.6,2.5675,0.6344227171710889,-0.01525147609996011,0.7596031951749569,0.004262269393476443,-0.090003,-36.007167
11.185,2.0,1.0,1.0,34.0,34.5,34.5,3.3,3.6,2.57,0.6278618816808459,-0.01555383177675567,0.7648502550176123,0.00419447760506998,-0.091257,-35.85837
11.185,2.0,1.0,1.0,34.0,34.5,34.5,3.3,3.6,2.5725,0.6212142193547685,-0.015862870067425205,0.7700712348654116,0.004122482039909474,-0.092542,-35.708528
11.185,2.0,1.0,1.0,34.0,34.5,34.5,3.3,3.6,2.575,0.6144786873316039,-0.016178789689970118,0.7752650995372321,0.004046096896480312,-0.093859,-35.557613
11.185,2.0,1.0,1.0,34.0,34.5,34.5,3.3,3.6,2.5775,0.6076542252244089,-0.0165017974044537,0.7804307795562211,0.0039651268598291135,-0.095209,-35.405599
11.185,2.0,1.0,1.0,34.0,34.5,34.5,3.3,3.6,2.58,0.6007397547244521,-0.01683210842992503,0.7855671698235256,0.003879366511855099,-0.096594,-35.252458
11.185,2.0,1.0,1.0,34.0,34.5,34.5,3.3,3.6,2.5825,0.59373417918685,-0.017169946887597584,0.7906731282259857,0.0037885996978384304,-0.098014,-35.098159
11.185,2.0,1.0,1.0,34.0,34.5,34.5,3.3,3.6,2.585,0.5866363831964566,-0.017515546272200932,0.795747474173259,0.0036925988453984505,-0.099471,-34.942673
11.185,2.0,1.0,1.0,34.0,34.5,34.5,3.3,3.6,2.5875,0.5794452321123608,-0.017869149953581298,0.8007889870594422,0.0035911242316914753,-0.100966,-34.785969
11.185,2.0,1.0,1.0,34.0,34.5,34.5,3.3,3.6,2.59,0.572159571589214,-0.018231011710796618,0.8057964046437845,0.003483923194239527,-0.102502,-34.628013
11.185,2.0,1.0,1.0,34.0,34.5,34.5,3.3,3.6,2.5925,0.5647782270734117,-0.018601396301139217,0.810768421344612,0.003370729280304136,-0.104079,-34.468773
11.185,2.0,1.0,1.0,34.0,34.5,34.5,3.3,3.6,2.595,0.5573000032719979,-0.01898058006671965,0.8157036864399789,0.00325126132919918,-0.105699,-34.308215
11.185,2.0,1.0,1.0,34.0,34.5,34.5,3.3,3.6,2.5975,0.5497236835919138,-0.019368851581469088,0.8206008021679843,0.0031252224813439187,-0.107363,-34.146302
11.185,2.0,1.0,1.0,34.0,34.5,34.5,3.3,3.6,2.6,0.542048029547017,-0.019766512341655763,0.8254583217189562,0.0029922991072050694,-0.109074,-33.982997
11.185,2.0,1.0,1.0,34.0,34.5,34.5,3.3,3.6,2.6025,0.5342717801300434,-0.02017387750327351,0.8302747471109393,0.002852159648538702,-0.110834,-33.818262
11.185,2.0,1.0,1.0,34.0,34.5,34.5,3.3,3.6,2.605,0.5263936511463867,-0.020591276669948692,0.8350485269390607,0.0027044533635196656,-0.112644,-33.652057
11.185,2.0,1.0,1.0,34.0,34.5,34.5,3.3,3.6,2.6075,0.5184123345063035,-0.021019054735319745,0.8397780539883517,0.0025488089664208536,-0.114506,-33.484341
11.185,2.0,1.0,1.0,34.0,34.5,34.5,3.3,3.6,2.61,0.5103264974718001,-0.02145757278418599,0.8444616626985171,0.0023848331514627888,-0.116423,-33.315071
11.185,2.0,1.0,1.0,34.0,34.5,34.5,3.3,3.6,2.6125,0.5021347818541044,-0.021907209057090857,0.8490976264679158,0.002212108989285876,-0.118398,-33.144202
11.185,2.0,1.0,1.0,34.0,34.5,34.5,3.3,3.6,2.615,0.49383580315722075,-0.022368359983408387,0.853684154782619,0.00203019418317554,-0.120432,-32.971688
11.185,2.0,1.0,1.0,34.0,34.5,34.5,3.3,3.6,2.6175,0.4854281496626575,-0.022841441288439526,0.8582193901548517,0.0018386191706790773,-0.122529,-32.797481
11.185,2.0,1.0,1.0,34.0,34.5,34.5,3.3,3.6,2.62,0.4769103814499142,-0.02332688918050244,0.8627014048533574,0.0016368850545726125,-0.12469,-32.621531
11.185,2.0,1.0,1.0,34.0,34.5,34.5,3.3,3.6,2.6225,0.4682810293468072,-0.02382516162452078,0.8671281974062373,0.0014244613452224953,-0.12692,-32.443786
11.185,2.0,1.0,1.0,34.0,34.5,34.5,3.3,3.6,2.625,0.459538593803173,-0.024336739709174,0.871497688854526,0.00120078349422528,-0.129222,-32.264192
11.185,2.0,1.0,1.0,34.0,34.5,34.5,3.3,3.6,2.6275,0.45068154368081903,-0.024862129115287943,0.8758077187322394,0.000965250196752545,-0.131598,-32.082692
11.185,2.0,1.0,1.0,34.0,34.5,34.5,3.3,3.6,2.63,0.4417083149519813,-0.025401861693802888,0.8800560407456665,0.0007172204372247721,-0.134052,-31.899228
11.185,2.0,1.0,1.0,34.0,34.5,34.5,3.3,3.6,2.6325,0.4326173092977743,-0.02595649716236853,0.8842403181213883,0.0004560102497565386,-0.136589,-31.713738
11.185,2.0,1.0,1.0,34.0,34.5,34.5,3.3,3.6,2.635,0.4234068925973629,-0.02652662493038802,0.888358118588695,0.00018088916116842924,-0.139212,-31.526158
11.185,2.0,1.0,1.0,34.0,34.5,34.5,3.3,3.6,2.6375,0.41407539329772636,-0.02711286606315352,0.8924069089577412,-0.00010892371979696417,-0.141926,-31.336421
11.185,2.0,1.0,1.0,34.0,34.5,34.5,3.3,3.6,2.64,0.40462110065295304,-0.027715875396601985,0.8963840492498346,-0.00041426400819391957,-0.144736,-31.144458
11.185,2.0,1.0,1.0,34.0,34.5,34.5,3.3,3.6,2.6425,0.3950422628210684,-0.028336343815154392,0.900286786330528,-0.0007360267901408094,-0.147646,-30.950195
11.185,2.0,1.0,1.0,34.0,34.5,34.5,3.3,3.6,2.645,0.38533708480532813,-0.028975000706093657,0.904112246989679,-0.0010751718645486178,-0.150662,-30.753555
11.185,2.0,1.0,1.0,34.0,34.5,34.5,3.3,3.6,2.6475,0.3755037262258328,-0.029632616604973735,0.9078574304050697,-0.0014327295394882037,-0.15379,-30.554459
11.185,2.0,1.0,1.0,34.0,34.5,34.5,3.3,3.6,2.65,0.36554029890616063,-0.030310006047626015,0.9115191999175211,-0.0018098070517552239,-0.157036,-30.352823
11.185,2.0,1.0,1.0,34.0,34.5,34.5,3.3,3.6,2.6525,0.35544486425858957,-0.031008030645422752,0.9150942740353335,-0.0022075956878930734,-0.160408,-30.148559
11.185,2.0,1.0,1.0,34.0,34.5,34.5,3.3,3.6,2.655,0.3452154304502197,-0.03172760240155658,0.9185792165742698,-0.002627378696187244,-0.163911,-29.941574
11.185,2.0,1.0,1.0,34.0,34.5,34.5,3.3,3.6,2.6575,0.33484994933120976,-0.032469687287151,0.9219704258257312,-0.0030705400922180818,-0.167554,-29.731772
11.185,2.0,1.0,1.0,34.0,34.5,34.5,3.3,3.6,2.66,0.3243463131051864,-0.0332353090970055,0.925264122630018,-0.0035385744757852697,-0.171346,-29.519051
11.185,2.0,1.0,1.0,34.0,34.5,34.5,3.3,3.6,2.6625,0.3137023507209383,-0.034025553605621255,0.9284563372131832,-0.004033097994796339,-0.175296,-29.303304
11.185,2.0,1.0,1.0,34.0,34.5,34.5,3.3,3.6,2.665,0.302915823963676,-0.03484157304477511,0.9315428946244636,-0.00455586061250883,-0.179414,-29.084417
11.185,2.0,1.0,1.0,34.0,34.5,34.5,3.3,3.6,2.6675,0.2919844232237376,-0.035684590924189796,0.9345193985860545,-0.005108759858915183,-0.18371,-28.862272
11.185,2.0,1.0,1.0,34.0,34.5,34.5,3.3,3.6,2.67,0.280905762920573,-0.036555907216637804,0.9373812135373515,-0.005693856275740403,-0.188197,-28.636745
11.185,2.0,1.0,1.0,34.0,34.5,34.5,3.3,3.6,2.6725,0.2696773765605455,-0.03745690392790123,0.9401234446208484,-0.0063133907983419805,-0.192887,-28.407702
11.185,2.0,1.0,1.0,34.0,34.5,34.5,3.3,3.6,2.675,0.25829671140874333,-0.038389051070112507,0.9427409153156047,-0.006969804357755503,-0.197795,-28.175005
11.185,2.0,1.0,1.0,34.0,34.5,34.5,3.3,3.6,2.6775,0.246761122757945,-0.03935391305375116,0.9452281423753163,-0.007665760033484724,-0.202936,-27.938505
11.185,2.0,1.0,1.0,34.0,34.5,34.5,3.3,3.6,2.68,0.23506786778268873,-0.04035315550845912,0.9475793076699454,-0.008404168143896088,-0.208326,-27.698048
11.185,2.0,1.0,1.0,34.0,34.5,34.5,3.3,3.6,2.6825,0.22321409897372613,-0.04138855253520588,0.9497882264606908,-0.009188214728106606,-0.213985,-27.453467
11.185,2.0,1.0,1.0,34.0,34.5,34.5,3.3,3.6,2.685,0.21119685715882328,-0.04246199438126879,0.9518483115554603,-0.010021393953352713,-0.219934,-27.204587
11.185,2.0,1.0,1.0,34.0,34.5,34.5,3.3,3.6,2.6875,0.199013064131231,-0.0435754955138147,0.953752532692997,-0.010907545077797,-0.226194,-26.951222
11.185,2.0,1.0,1.0,34.0,34.5,34.5,3.3,3.6,2.69,0.18665951492873054,-0.04473120304593934,0.9554933703848661,-0.011850894714083892,-0.23279,-26.693176
11.185,2.0,1.0,1.0,34.0,34.5,34.5,3.3,3.6,2.6925,0.1741328698361403,-0.045931405438691265,0.9570627633011345,-0.012856105277992663,-0.239751,-26.430237
11.185,2.0,1.0,1.0,34.0,34.5,34.5,3.3,3.6,2.695,0.16142964622565104,-0.04717854136093764,0.9584520481122409,-0.013928330674665373,-0.247107,-26.162182
11.185,2.0,1.0,1.0,34.0,34.5,34.5,3.3,3.6,2.6975,0.14854621040608726,-0.04847520853198346,0.9596518904893624,-0.015073280478789974,-0.254894,-25.888772
11.185,2.0,1.0,1.0,34.0,34.5,34.5,3.3,3.6,2.7,0.13547876972992037,-0.0498241722942494,0.9606522057098412,-0.016297294113200567,-0.263148,-25.609754
11.185,2.0,1.0,1.0,34.0,34.5,34.5,3.3,3.6,2.7025,0.12222336531266419,-0.05122837355778987,0.961442067002194,-0.01760742683311651,-0.271913,-25.324855
11.185,2.0,1.0,1.0,34.0,34.5,34.5,3.3,3.6,2.705,0.10877586586355459,-0.05269093561499123,0.9620095993831475,-0.019011549693891943,-0.281239,-25.033784
11.185,2.0,1.0,1.0,34.0,34.5,34.5,3.3,3.6,2.7075,0.0951319633228051,-0.05421516912882566,0.9623418562700193,-0.020518466135294736,-0.291178,-24.73623
11.185,2.0,1.0,1.0,34.0,34.5,34.5,3.3,3.6,2.71,0.08128717126853618,-0.05580457433269467,0.9624246755738372,-0.022138048375935828,-0.301794,-24.431859
11.185,2.0,1.0,1.0,34.0,34.5,34.5,3.3,3.6,2.7125,0.06723682742201013,-0.0574628391182298,0.9622425112647146,-0.02388139750394842,-0.313156,-24.120311
11.185,2.0,1.0,1.0,34.0,34.5,34.5,3.3,3.6,2.715,0.052976102080033255,-0.05919383119321097,0.961778235516566,-0.025761032007715418,-0.325345,-23.801202
11.185,2.0,1.0,1.0,34.0,34.5,34.5,3.3,3.6,2.7175,0.03850001498964951,-0.0610015818145563,0.9610129054399223,-0.027791110555420183,-0.338451,-23.474115
11.185,2.0,1.0,1.0,34.0,34.5,34.5,3.3,3.6,2.72,0.02380346412503033,-0.06289025767013061,0.9599254870446096,-0.029987696157276606,-0.35258,-23.138603
11.185,2.0,1.0,1.0,34.0,34.5,34.5,3.3,3.6,2.7225,0.008881271131845751,-0.06486411619771905,0.9584925273698319,-0.032369070495681974,-0.367853,-22.794182
11.185,2.0,1.0,1.0,34.0,34.5,34.5,3.3,3.6,2.725,-0.006271749983977958,-0.06692743784748897,0.9566877635926372,-0.03495610926829267,-0.384409,-22.440328
11.185,2.0,1.0,1.0,34.0,34.5,34.5,3.3,3.6,2.7275,-0.02166069182090334,-0.06908442631217533,0.954481655272093,-0.03777273195784756,-0.402412,-22.076477
11.185,2.0,1.0,1.0,34.0,34.5,34.5,3.3,3.6,2.73,-0.03729040755918331,-0.07133906427448843,0.951840822580088,-0.040846442641103986,-0.422053,-21.702015
11.185,2.0,1.0,1.0,34.0,34.5,34.5,3.3,3.6,2.7325,-0.05316530232661971,-0.07369490733079292,0.9487273692640401,-0.04420898241737478,-0.443555,-21.316275
11.185,2.0,1.0,1.0,34.0,34.5,34.5,3.3,3.6,2.735,-0.06928903726894553,-0.0761547918283257,0.9450980640219283,-0.0478971189268053,-0.467182,-20.918536
11.185,2.0,1.0,1.0,34.0,34.5,34.5,3.3,3.6,2.7375,-0.08566411158431868,-0.07872042249932187,0.9409033477907495,-0.05195360438483385,-0.493249,-20.508012
11.185,2.0,1.0,1.0,34.0,34.5,34.5,3.3,3.6,2.74,-0.10229127336937212,-0.0813917916641771,0.9360861270492327,-0.056428340677114545,-0.522131,-20.083849
11.185,2.0,1.0,1.0,34.0,34.5,34.5,3.3,3.6,2.7425,-0.11916868934944587,-0.08416636144852799,0.9305803046471729,-0.06137979829305881,-0.554281,-19.64512
11.185,2.0,1.0,1.0,34.0,34.5,34.5,3.3,3.6,2.745,-0.13629077344776058,-0.08703791101064914,0.9243089902514621,-0.0668767448604525,-0.590244,-19.190815
11.185,2.0,1.0,1.0,34.0,34.5,34.5,3.3,3.6,2.7475,-0.15364653025571318,-0.08999490788873006,0.9171823232727888,-0.07300034774373744,-0.630689,-18.719843
11.185,2.0,1.0,1.0,34.0,34.5,34.5,3.3,3.6,2.75,-0.171217205213553,-0.0930181998429267,0.909094834492416,-0.0798467212133863,-0.676436,-18.231022
11.185,2.0,1.0,1.0,34.0,34.5,34.5,3.3,3.6,2.7525,-0.1889729389601587,-0.09607773151760313,0.899922273575493,-0.08752998711082985,-0.7285,-17.723079
11.185,2.0,1.0,1.0,34.0,34.5,34.5,3.3,3.6,2.755,-0.2068679846367427,-0.09912785507233987,0.8895178483431402,-0.09618589876690231,-0.78815,-17.194658
11.185,2.0,1.0,1.0,34.0,34.5,34.5,3.3,3.6,2.7575,-0.22483384364349387,-0.10210060596201687,0.8777078778225182,-0.1059760217850395,-0.856984,-16.644328
11.185,2.0,1.0,1.0,34.0,34.5,34.5,3.3,3.6,2.76,-0.24276937985012836,-0.10489602760887325,0.8642869925580322,-0.1170923350558877,-0.937032,-16.070606
11.185,2.0,1.0,1.0,34.0,34.5,34.5,3.3,3.6,2.7625,-0.2605265505523289,-0.10736821910477597,0.8490132939823821,-0.12976184100853166,-1.030894,-15.472008
11.185,2.0,1.0,1.0,34.0,34.5,34.5,3.3,3.6,2.765,-0.27788981232338517,-0.10930521775250569,0.8316044429589214,-0.14425022550677807,-1.14193,-14.847123
11.185,2.0,1.0,1.0,34.0,34.5,34.5,3.3,3.6,2.7675,-0.2945465193758041,-0.11040011289421826,0.8117367286653207,-0.1608625481133922,-1.274509,-14.194748
11.185,2.0,1.0,1.0,34.0,34.5,34.5,3.3,3.6,2.77,-0.31004483961657336,-0.11021002776339009,0.7890512006536193,-0.17993695594091422,-1.434345,-13.514101
11.185,2.0,1.0,1.0,34.0,34.5,34.5,3.3,3.6,2.7725,-0.32373529074948193,-0.10809921794686327,0.7631746379602852,-0.20182381025125573,-1.628915,-12.805171
11.185,2.0,1.0,1.0,34.0,34.5,34.5,3.3,3.6,2.775,-0.33469314860113325,-0.1031636990195705,0.7337695107552215,-0.2268363961861508,-1.867946,-12.069259
11.185,2.0,1.0,1.0,34.0,34.5,34.5,3.3,3.6,2.7775,-0.34162465764816496,-0.094140422248813,0.7006372027214182,-0.25514955678238677,-2.163823,-11.309813
11.185,2.0,1.0,1.0,34.0,34.5,34.5,3.3,3.6,2.78,-0.3427765294089918,-0.07932025775859189,0.6639120688248344,-0.28660971874630137,-2.531518,-10.533668
11.185,2.0,1.0,1.0,34.0,34.5,34.5,3.3,3.6,2.7825,-0.3359068492653445,-0.05652180071892393,0.62439322126183,-0.3204109401711731,-2.986909,-9.752768
11.185,2.0,1.0,1.0,34.0,34.5,34.5,3.3,3.6,2.785,-0.31844833886329454,-0.023253937257720913,0.584040580567111,-0.35461194936174734,-3.540742,-8.986297
11.185,2.0,1.0,1.0,34.0,34.5,34.5,3.3,3.6,2.7875,-0.28808935440571587,0.022713479800785193,0.5465515339105611,-0.385577278080169,-4.182618,-8.262727
11.185,2.0,1.0,1.0,34.0,34.5,34.5,3.3,3.6,2.79,-0.2440054469411969,0.08214604679554512,0.5176572626580245,-0.4076961791895145,-4.847785,-7.620439
11.185,2.0,1.0,1.0,34.0,34.5,34.5,3.3,3.6,2.7925,-0.18861850018649745,0.152633148862316,0.5044005257930058,-0.4140987974209574,-5.376068,-7.104675
11.185,2.0,1.0,1.0,34.0,34.5,34.5,3.3,3.6,2.795,-0.12883619015416128,0.22739442732265702,0.5127253722162711,-0.3990160054562174,-5.536398,-6.758781
11.185,2.0,1.0,1.0,34.0,34.5,34.5,3.3,3.6,2.7975,-0.07497872511783846,0.2963494470785624,0.5440595241611575,-0.3611069562692371,-5.205362,-6.61103
11.185,2.0,1.0,1.0,34.0,34.5,34.5,3.3,3.6,2.8,-0.036874762897256386,0.34993890023529367,0.5935197759698678,-0.30518441039341426,-4.514565,-6.663618
11.185,2.0,1.0,1.0,34.0,34.5,34.5,3.3,3.6,2.8025,-0.01968767584522356,0.383184379121447,0.6518597632703806,-0.2402866011808241,-3.712957,-6.891625
11.185,2.0,1.0,1.0,34.0,34.5,34.5,3.3,3.6,2.805,-0.022771123861566198,0.3967771983478209,0.7097030050736848,-0.175539052629268,-2.973998,-7.25274
11.185,2.0,1.0,1.0,34.0,34.5,34.5,3.3,3.6,2.8075,-0.04170706422520607,0.39506915856660985,0.7606599302627376,-0.11712631499395358,-2.363152,-7.700669
11.185,2.0,1.0,1.0,34.0,34.5,34.5,3.3,3.6,2.81,-0.07110932189818271,0.3833330528427067,0.8018998687491491,-0.0677521729198075,-1.88358,-8.194882
11.185,2.0,1.0,1.0,34.0,34.5,34.5,3.3,3.6,2.8125,-0.106387359467771,0.366048242884069,0.833144856291611,-0.0276329578715373,-1.515346,-8.704554
11.185,2.0,1.0,1.0,34.0,34.5,34.5,3.3,3.6,2.815,-0.1442926811512321,0.3463757504426881,0.8554212950202174,0.004280950342953367,-1.234554,-9.208387
11.185,2.0,1.0,1.0,34.0,34.5,34.5,3.3,3.6,2.8175,-0.18278982655824863,0.32628993333131523,0.8701852989218615,0.029452790559076902,-1.020242,-9.692684
11.185,2.0,1.0,1.0,34.0,34.5,34.5,3.3,3.6,2.82,-0.22072375610538525,0.30690605550917316,0.8788662537109828,0.04931658667419729,-0.855908,-10.149174
11.185,2.0,1.0,1.0,34.0,34.5,34.5,3.3,3.6,2.8225,-0.2575083912712498,0.2887853670260284,0.8826862953992624,0.06510347603719116,-0.729143,-10.573202
11.185,2.0,1.0,1.0,34.0,34.5,34.5,3.3,3.6,2.825,-0.2928988523634255,0.2721575521536101,0.8826217105831923,0.07780604116280684,-0.630789,-10.9624
11.185,2.0,1.0,1.0,34.0,34.5,34.5,3.3,3.6,2.8275,-0.32684288610709844,0.2570654881394836,0.8794238627829634,0.08820028912994504,-0.554124,-11.315792
11.185,2.0,1.0,1.0,34.0,34.5,34.5,3.3,3.6,2.83,-0.3593899998898128,0.24345354681732076,0.8736582424112045,0.09688504191278538,-0.49421,-11.633193
