1,w,sub_t,h,l1,l2,l3,g1,g2,Freq,S11_re,S21_re,S11_img,S21_img,S11_dB,S21_dB
11.185,2.0,1.0,1.0,34.1,34.6,34.6,2.5,4.1,2.5,0.763020567519674,-0.0106720450210271,0.633971838058324,0.0056779546205741,-0.069516,-38.352555
11.185,2.0,1.0,1.0,34.1,34.6,34.6,2.5,4.1,2.5025,0.7581429259593206,-0.010880547883965093,0.6396555604084185,0.005673059077352634,-0.070314,-38.222618
11.185,2.0,1.0,1.0,34.1,34.6,34.6,2.5,4.1,2.505,0.7531963229554646,-0.011093060703876475,0.6453300487900003,0.005666356831634815,-0.071128,-38.092102
11.185,2.0,1.0,1.0,34.1,34.6,34.6,2.5,4.1,2.5075,0.7481799887889414,-0.011309676923549963,0.6509947809674329,0.005657773329731679,-0.071958,-37.960994
11.185,2.0,1.0,1.0,34.1,34.6,34.6,2.5,4.1,2.51,0.7430931411674275,-0.011530492771795953,0.6566492183457919,0.0056472308920615015,-0.072806,-37.829282
11.185,2.0,1.0,1.0,34.1,34.6,34.6,2.5,4.1,2.5125,0.7379349850069815,-0.011755607365978856,0.6622928054132,0.005634648563555823,-0.073671,-37.696953
11.185,2.0,1.0,1.0,34.1,34.6,34.6,2.5,4.1,2.515,0.7327047122094529,-0.011985122819074791,0.667924969162041,0.0056199419557967775,-0.074553,-37.563992
11.185,2.0,1.0,1.0,34.1,34.6,34.6,2.5,4.1,2.5175,0.7274015014356728,-0.012219144351487021,0.6735451184881032,0.005603023080360117,-0.075455,-37.430386
11.185,2.0,1.0,1.0,34.1,34.6,34.6,2.5,4.1,2.52,0.7220245178742827,-0.012457780407865876,0.6791526435666445,0.0055838001727992834,-0.076375,-37.296121
11.185,2.0,1.0,1.0,34.1,34.6,34.6,2.5,4.1,2.5225,0.7165729130061058,-0.012701142779192683,0.6847469152042994,0.005562177506665218,-0.077315,-37.161182
11.185,2.0,1.0,1.0,34.1,34.6,34.6,2.5,4.1,2.525,0.711045824363908,-0.01294934673040422,0.6903272841657155,0.005538055196911094,-0.078275,-37.025555
11.185,2.0,1.0,1.0,34.1,34.6,34.6,2.5,4.1,2.5275,0.7054423752874183,-0.013202511133849647,0.695893080473715,0.005511328991984275,-0.079256,-36.889224
11.185,2.0,1.0,1.0,34.1,34.6,34.6,2.5,4.1,2.53,0.699761674673468,-0.013460758608887903,0.701443612681717,0.005481890053852829,-0.080258,-36.752174
11.185,2.0,1.0,1.0,34.1,34.6,34.6,2.5,4.1,2.5325,0.694002816721085,-0.013724215667954278,0.7069781671170793,0.005449624725160505,-0.081283,-36.614389
11.185,2.0,1.0,1.0,34.1,34.6,34.6,2.5,4.1,2.535,0.6881648806713778,-0.013993012869442122,0.7124960070939398,0.005414414282638762,-0.08233,-36.475854
11.185,2.0,1.0,1.0,34.1,34.6,34.6,2.5,4.1,2.5375,0.682246930542041,-0.014267284977767242,0.7179963720940321,0.005376134675839945,-0.0834,-36.33655
11.185,2.0,1.0,1.0,34.1,34.6,34.6,2.5,4.1,2.54,0.6762480148562895,-0.01454717113100473,0.7234784769138864,0.005334656250181856,-0.084494,-36.196463
11.185,2.0,1.0,1.0,34.1,34.6,34.6,2.5,4.1,2.5425,0.6701671663660188,-0.014832815016510643,0.7289415107766943,0.0052898434532145724,-0.085614,-36.055573
11.185,2.0,1.0,1.0,34.1,34.6,34.6,2.5,4.1,2.545,0.6640034017689862,-0.015124365054966666,0.7343846364070253,0.005241554522934866,-0.086759,-35.913864
11.185,2.0,1.0,1.0,34.1,34.6,34.6,2.5,4.1,2.5475,0.6577557214197811,-0.01542197459331056,0.7398069890664424,0.005189641156878616,-0.08793,-35.771318
11.185,2.0,1.0,1.0,34.1,34.6,34.6,2.5,4.1,2.55,0.6514231090343375,-0.015725802107046185,0.7452076755479754,0.005133948160620336,-0.089129,-35.627914
11.185,2.0,1.0,1.0,34.1,34.6,34.6,2.5,4.1,2.5525,0.6450045313877427,-0.01603601141245279,0.7505857731272111,0.005074313074196417,-0.090355,-35.483635
11.185,2.0,1.0,1.0,34.1,34.6,34.6,2.5,4.1,2.555,0.6384989380050505,-0.016352771889248233,0.7559403284676716,0.0050105657748474065,-0.091611,-35.33846
11.185,2.0,1.0,1.0,34.1,34.6,34.6,2.5,4.1,2.5575,0.631905260844808,-0.01667625871429272,0.7612703564779433,0.004942528054340864,-0.092897,-35.19237
11.185,2.0,1.0,1.0,34.1,34.6,34.6,2.5,4.1,2.56,0.6252224139749766,-0.01700665310695469,0.7665748391178583,0.004870013168991325,-0.094214,-35.045344
11.185,2.0,1.0,1.0,34.1,34.6,34.6,2.5,4.1,2.5625,0.6184492932409158,-0.017344142586799546,0.7718527241508379,0.004792825360334577,-0.095563,-34.89736
11.185,2.0,1.0,1.0,34.1,34.6,34.6,2.5,4.1,2.565,0.6115847759250465,-0.017688921244301194,0.7771029238392955,0.004710759344237937,-0.096945,-34.748396
11.185,2.0,1.0,1.0,34.1,34.6,34.6,2.5,4.1,2.5675,0.6046277203978297,-0.018041190025317358,0.7823243135797584,0.00462359976603867,-0.098361,-34.59843
11.185,2.0,1.0,1.0,34.1,34.6,34.6,2.5,4.1,2.57,0.5975769657596215,-0.018401157030116813,0.7875157304741386,0.004531120619091827,-0.099813,-34.447439
11.185,2.0,1.0,1.0,34.1,34.6,34.6,2.5,4.1,2.5725,0.5904313314729682,-0.018769037827791477,0.7926759718332872,0.0044330846238781595,-0.101302,-34.295399
11.185,2.0,1.0,1.0,34.1,34.6,34.6,2.5,4.1,2.575,0.5831896169848608,-0.01914505578693682,0.7978037936086849,0.004329242564570575,-0.102828,-34.142286
11.185,2.0,1.0,1.0,34.1,34.6,34.6,2.5,4.1,2.5775,0.5758506013384428,-0.01952944242353684,0.8028979087477983,0.004219332579679093,-0.104394,-33.988074
11.185,2.0,1.0,1.0,34.1,34.6,34.6,2.5,4.1,2.58,0.5684130427736207,-0.019922437767043426,0.8079569854682465,0.0041030794030868034,-0.106001,-33.832738
11.185,2.0,1.0,1.0,34.1,34.6,34.6,2.5,4.1,2.5825,0.5608756783159925,-0.02032429074569905,0.8129796454455783,0.003980193551452575,-0.10765,-33.67625
11.185,2.0,1.0,1.0,34.1,34.6,34.6,2.5,4.1,2.585,0.5532372233534804,-0.020735259592210793,0.8179644619089884,0.0038503704535838533,-0.109342,-33.518583
11.185,2.0,1.0,1.0,34.1,34.6,34.6,2.5,4.1,2.5875,0.5454963711999933,-0.02115561227094688,0.8229099576388608,0.003713289516970735,-0.111081,-33.359709
11.185,2.0,1.0,1.0,34.1,34.6,34.6,2.5,4.1,2.59,0.5376517926454273,-0.021585626927891507,0.827814602859482,0.0035686131262187013,-0.112866,-33.199599
11.185,2.0,1.0,1.0,34.1,34.6,34.6,2.5,4.1,2.5925,0.5297021354912365,-0.022025592364662384,0.8326768130197237,0.0034159855676149046,-0.1147,-33.038222
11.185,2.0,1.0,1.0,34.1,34.6,34.6,2.5,4.1,2.595,0.5216460240708094,-0.02247580853796199,0.8374949464538463,0.003255031873505483,-0.116585,-32.875547
11.185,2.0,1.0,1.0,34.1,34.6,34.6,2.5,4.1,2.5975,0.5134820587537754,-0.022936587085907872,0.8422673019138808,0.003085356579545033,-0.118523,-32.711542
11.185,2.0,1.0,1.0,34.1,34.6,34.6,2.5,4.1,2.6,0.5052088154333748,-0.023408251882755186,0.8469921159642938,0.0029065423871939256,-0.120516,-32.546174
11.185,2.0,1.0,1.0,34.1,34.6,34.6,2.5,4.1,2.6025,0.4968248449959688,-0.023891139623599057,0.8516675602287732,0.002718148723079444,-0.122566,-32.379408
11.185,2.0,1.0,1.0,34.1,34.6,34.6,2.5,4.1,2.605,0.4883286727716883,-0.024385600440714337,0.8562917384780401,0.0025197101859904566,-0.124676,-32.211209
11.185,2.0,1.0,1.0,34.1,34.6,34.6,2.5,4.1,2.6075,0.4797187979652229,-0.02489199855325983,0.8608626835465449,0.0023107348713329793,-0.126848,-32.04154
11.185,2.0,1.0,1.0,34.1,34.6,34.6,2.5,4.1,2.61,0.4709936930656918,-0.025410712952139064,0.8653783540647466,0.00209070256182667,-0.129084,-31.870363
11.185,2.0,1.0,1.0,34.1,34.6,34.6,2.5,4.1,2.6125,0.4621518032345102,-0.025942138121871273,0.8698366309923894,0.0018590627720490886,-0.131387,-31.697639
11.185,2.0,1.0,1.0,34.1,34.6,34.6,2.5,4.1,2.615,0.4531915456701286,-0.026486684801378294,0.8742353139367369,0.0016152326331273768,-0.133761,-31.523327
11.185,2.0,1.0,1.0,34.1,34.6,34.6,2.5,4.1,2.6175,0.44411130894854667,-0.02704478078563429,0.8785721172381504,0.0013585946024150055,-0.136207,-31.347385
11.185,2.0,1.0,1.0,34.1,34.6,34.6,2.5,4.1,2.62,0.434909452338471,-0.02761687177015416,0.882844665803568,0.0010884939813508106,-0.138731,-31.169769
11.185,2.0,1.0,1.0,34.1,34.6,34.6,2.5,4.1,2.6225,0.42558430509001427,-0.02820342224030483,0.8870504906664922,0.0008042362228628052,-0.141334,-30.990434
11.185,2.0,1.0,1.0,34.1,34.6,34.6,2.5,4.1,2.625,0.416134165695915,-0.0288049164074057,0.891187024249801,0.000505084007616153,-0.14402,-30.809333
11.185,2.0,1.0,1.0,34.1,34.6,34.6,2.5,4.1,2.6275,0.40655730112428307,-0.029421859193541136,0.8952515953052217,0.000190254066086472,-0.146794,-30.626416
11.185,2.0,1.0,1.0,34.1,34.6,34.6,2.5,4.1,2.63,0.3968519460220445,-0.03005477726691568,0.8992414235004875,-0.00014108627916819815,-0.14966,-30.441634
11.185,2.0,1.0,1.0,34.1,34.6,34.6,2.5,4.1,2.6325,0.38701630188840463,-0.030704220129447863,0.9031536136219828,-0.0004898228796041552,-0.152621,-30.254933
11.185,2.0,1.0,1.0,34.1,34.6,34.6,2.5,4.1,2.635,0.37704853621789935,-0.03137076125809523,0.9069851493571823,-0.0008568988670433624,-0.155683,-30.06626
11.185,2.0,1.0,1.0,34.1,34.6,34.6,2.5,4.1,2.6375,0.36694678161291566,-0.032054999301120754,0.910732886617097,-0.0012433191359147672,-0.15885,-29.875556
11.185,2.0,1.0,1.0,34.1,34.6,34.6,2.5,4.1,2.64,0.3567091348659693,-0.03275755933013334,0.9143935463544365,-0.001650155241265649,-0.162128,-29.682762
11.185,2.0,1.0,1.0,34.1,34.6,34.6,2.5,4.1,2.6425,0.3463336560125901,-0.033479094148228396,0.9179637068280317,-0.0020785507572320065,-0.165522,-29.487818
11.185,2.0,1.0,1.0,34.1,34.6,34.6,2.5,4.1,2.645,0.33581836735634385,-0.03422028565389817,0.9214397952582555,-0.0025297271461173524,-0.169038,-29.290658
11.185,2.0,1.0,1.0,34.1,34.6,34.6,2.5,4.1,2.6475,0.3251612524684123,-0.03498184625953756,0.9248180788115336,-0.003004990194434392,-0.172683,-29.091216
11.185,2.0,1.0,1.0,34.1,34.6,34.6,2.5,4.1,2.65,0.31436025516525384,-0.03576452036228972,0.9280946548445828,-0.003505737079328315,-0.176464,-28.889422
11.185,2.0,1.0,1.0,34.1,34.6,34.6,2.5,4.1,2.6525,0.30341327846933425,-0.03656908586360407,0.9312654403303997,-0.00403346413685511,-0.180388,-28.685203
11.185,2.0,1.0,1.0,34.1,34.6,34.6,2.5,4.1,2.655,0.2923181835596081,-0.037396355732156945,0.9343261603783302,-0.004589775412786934,-0.184463,-28.478482
11.185,2.0,1.0,1.0,34.1,34.6,34.6,2.5,4.1,2.6575,0.28107278872072217,-0.03824717960260927,0.9372723357493904,-0.005176392087136748,-0.188697,-28.269182
11.185,2.0,1.0,1.0,34.1,34.6,34.6,2.5,4.1,2.66,0.2696748683026336,-0.039122445399966115,0.9400992692552856,-0.005795162875645386,-0.1931,-28.057217
11.185,2.0,1.0,1.0,34.1,34.6,34.6,2.5,4.1,2.6625,0.2581221517058155,-0.040023080975905116,0.9428020309149949,-0.006448075525304621,-0.197681,-27.842502
11.185,2.0,1.0,1.0,34.1,34.6,34.6,2.5,4.1,2.665,0.24641232241147415,-0.040950055739219685,0.9453754417260385,-0.007137269536885761,-0.202451,-27.624945
11.185,2.0,1.0,1.0,34.1,34.6,34.6,2.5,4.1,2.6675,0.23454301708158573,-0.04190438225725501,0.9478140558883017,-0.007865050265740659,-0.207422,-27.404452
11.185,2.0,1.0,1.0,34.1,34.6,34.6,2.5,4.1,2.67,0.22251182476013748,-0.04288711779867367,0.9501121412961339,-0.00863390457324839,-0.212606,-27.180923
11.185,2.0,1.0,1.0,34.1,34.6,34.6,2.5,4.1,2.6725,0.2103162862152177,-0.043899365779749254,0.9522636580888394,-0.00944651822565972,-0.218017,-26.954252
11.185,2.0,1.0,1.0,34.1,34.6,34.6,2.5,4.1,2.675,0.197953893471834,-0.04494227706626949,0.9542622350201565,-0.010305795265301315,-0.223668,-26.724331
11.185,2.0,1.0,1.0,34.1,34.6,34.6,2.5,4.1,2.6775,0.1854220895980345,-0.04601705107055112,0.9561011433730677,-0.011214879611805785,-0.229577,-26.491044
11.185,2.0,1.0,1.0,34.1,34.6,34.6,2.5,4.1,2.68,0.17271826882272465,-0.04712493656742235,0.9577732681066088,-0.012177179189002156,-0.235761,-26.25427
11.185,2.0,1.0,1.0,34.1,34.6,34.6,2.5,4.1,2.6825,0.1598397770832914,-0.04826723213353618,0.9592710758752261,-0.013196392917269182,-0.242238,-26.013881
11.185,2.0,1.0,1.0,34.1,34.6,34.6,2.5,4.1,2.685,0.14678391312564093,-0.04944528609009721,0.9605865795075442,-0.014276540962613124,-0.249028,-25.769745
11.185,2.0,1.0,1.0,34.1,34.6,34.6,2.5,4.1,2.6875,0.13354793030991444,-0.05066049579876978,0.9617112984688347,-0.015421998693782822,-0.256156,-25.521718
11.185,2.0,1.0,1.0,34.1,34.6,34.6,2.5,4.1,2.69,0.12012903931343998,-0.051914306122653665,0.9626362147583639,-0.01663753486893791,-0.263645,-25.269654
11.185,2.0,1.0,1.0,34.1,34.6,34.6,2.5,4.1,2.6925,0.10652441197034959,-0.05320820681679427,0.9633517236073245,-0.01792835465557788,-0.271522,-25.013395
11.185,2.0,1.0,1.0,34.1,34.6,34.6,2.5,4.1,2.695,0.09273118654749983,-0.054543728553208395,0.9638475782428357,-0.019300148183805,-0.279818,-24.752776
11.185,2.0,1.0,1.0,34.1,34.6,34.6,2.5,4.1,2.6975,0.07874647483181564,-0.05592243721066773,0.9641128278659893,-0.02075914544615956,-0.288566,-24.487622
11.185,2.0,1.0,1.0,34.1,34.6,34.6,2.5,4.1,2.7,0.06456737149945659,-0.05734592596532616,0.9641357478537969,-0.02231217849029484,-0.297802,-24.217748
11.185,2.0,1.0,1.0,34.1,34.6,34.6,2.5,4.1,2.7025,0.05019096635736798,-0.05881580459942605,0.9639037610324305,-0.023966752007342666,-0.307567,-23.94296
11.185,2.0,1.0,1.0,34.1,34.6,34.6,2.5,4.1,2.705,0.03561436020000367,-0.060333685294880014,0.9634033486779169,-0.025731123603263278,-0.317906,-23.663049
11.185,2.0,1.0,1.0,34.1,34.6,34.6,2.5,4.1,2.7075,0.02083468521716333,-0.0619011639876177,0.9626199496750381,-0.027614395257887978,-0.328869,-23.377798
11.185,2.0,1.0,1.0,34.1,34.6,34.6,2.5,4.1,2.71,0.005849131134825797,-0.06351979611562882,0.9615378459996118,-0.029626617732677787,-0.340512,-23.086974
11.185,2.0,1.0,1.0,34.1,34.6,34.6,2.5,4.1,2.7125,-0.00934502141522884,-0.06519106528352957,0.9601400323762971,-0.03177890999035177,-0.352897,-22.790329
11.185,2.0,1.0,1.0,34.1,34.6,34.6,2.5,4.1,2.715,-0.024750358399105145,-0.06691634296943268,0.9584080675954731,-0.0340835960453458,-0.366095,-22.487603
11.185,2.0,1.0,1.0,34.1,34.6,34.6,2.5,4.1,2.7175,-0.040369278343355706,-0.06869683688993009,0.9563219045392934,-0.03655436208241162,-0.380186,-22.178517
11.185,2.0,1.0,1.0,34.1,34.6,34.6,2.5,4.1,2.72,-0.056203923676062584,-0.07053352498177362,0.9538596954587234,-0.03920643717118636,-0.395258,-21.862774
11.185,2.0,1.0,1.0,34.1,34.6,34.6,2.5,4.1,2.7225,-0.0722560935048514,-0.07242707110900128,0.9509975684494996,-0.04205680147732125,-0.411413,-21.540061
11.185,2.0,1.0,1.0,34.1,34.6,34.6,2.5,4.1,2.725,-0.08852713277218853,-0.07437771750144193,0.9477093703853999,-0.04512442653535818,-0.428765,-21.21004
11.185,2.0,1.0,1.0,34.1,34.6,34.6,2.5,4.1,2.7275,-0.10501779127216827,-0.07638514749444827,0.943966370773319,-0.04843055291277609,-0.447447,-20.872356
11.185,2.0,1.0,1.0,34.1,34.6,34.6,2.5,4.1,2.73,-0.12172804410906952,-0.0784483102628496,0.9397369200923797,-0.05199901146169858,-0.467608,-20.526626
11.185,2.0,1.0,1.0,34.1,34.6,34.6,2.5,4.1,2.7325,-0.13865686268037306,-0.08056519678055452,0.9349860551732688,-0.055856595319103586,-0.489421,-20.172445
11.185,2.0,1.0,1.0,34.1,34.6,34.6,2.5,4.1,2.735,-0.15580192197839765,-0.08273255299743539,0.9296750430848715,-0.060033490856145656,-0.513084,-19.809379
11.185,2.0,1.0,1.0,34.1,34.6,34.6,2.5,4.1,2.7375,-0.17315922566053382,-0.08494551194672743,0.9237608538719811,-0.0645637768424403,-0.538828,-19.436967
11.185,2.0,1.0,1.0,34.1,34.6,34.6,2.5,4.1,2.74,-0.1907226245808487,-0.0871971208283734,0.9171955514273015,-0.0694860020840624,-0.566921,-19.054715
11.185,2.0,1.0,1.0,34.1,34.6,34.6,2.5,4.1,2.7425,-0.20848319682439673,-0.08947773158422377,0.9099255909596166,-0.07484385253741103,-0.597676,-18.6621
11.185,2.0,1.0,1.0,34.1,34.6,34.6,2.5,4.1,2.745,-0.22642844709261079,-0.0917742134550141,0.901891011246459,-0.08068691908712528,-0.63146,-18.258563
11.185,2.0,1.0,1.0,34.1,34.6,34.6,2.5,4.1,2.7475,-0.24454126968722734,-0.09406893263757397,0.8930245106567629,-0.08707157628414897,-0.668706,-17.843512
11.185,2.0,1.0,1.0,34.1,34.6,34.6,2.5,4.1,2.75,-0.262798601180446,-0.0963384263173829,0.883250398669339,-0.0940619795037898,-0.709929,-17.416322
11.185,2.0,1.0,1.0,34.1,34.6,34.6,2.5,4.1,2.7525,-0.2811696646327543,-0.09855167456267229,0.8724834207324281,-0.10173118177985954,-0.755741,-16.97633
11.185,2.0,1.0,1.0,34.1,34.6,34.6,2.5,4.1,2.755,-0.2996136749960268,-0.10066784194778391,0.8606274661523042,-0.11016235968033401,-0.806876,-16.522845
11.185,2.0,1.0,1.0,34.1,34.6,34.6,2.5,4.1,2.7575,-0.31807683273829507,-0.10263331900986743,0.8475741900640639,-0.11945011625837831,-0.86422,-16.055145
11.185,2.0,1.0,1.0,34.1,34.6,34.6,2.5,4.1,2.76,-0.3364883770136546,-0.10437783908613704,0.8332016175446652,-0.1297017923015536,-0.928847,-15.572493
11.185,2.0,1.0,1.0,34.1,34.6,34.6,2.5,4.1,2.7625,-0.35475539816995916,-0.10580937613336937,0.8173728603632735,-0.14103865516609812,-1.00207,-15.074138
11.185,2.0,1.0,1.0,34.1,34.6,34.6,2.5,4.1,2.765,-0.3727560203705207,-0.10680744226365782,0.7999351802393763,-0.1535967321530407,-1.085499,-14.559346
11.185,2.0,1.0,1.0,34.1,34.6,34.6,2.5,4.1,2.7675,-0.3903304602931613,-0.10721430176950211,0.7807198010633895,-0.1675268888017525,-1.181127,-14.027419
11.185,2.0,1.0,1.0,34.1,34.6,34.6,2.5,4.1,2.77,-0.40726935722440205,-0.10682351141492703,0.7595431435433632,-0.18299348511561553,-1.291432,-13.477742
11.185,2.0,1.0,1.0,34.1,34.6,34.6,2.5,4.1,2.7725,-0.4232986815436743,-0.10536511281039193,0.7362105844240833,-0.20017052046604325,-1.419516,-12.909842
11.185,2.0,1.0,1.0,34.1,34.6,34.6,2.5,4.1,2.775,-0.4380605280550543,-0.1024868066779115,0.7105245063534308,-0.21923352494411474,-1.569279,-12.323479
11.185,2.0,1.0,1.0,34.1,34.6,34.6,2.5,4.1,2.7775,-0.45108932571449867,-0.09773066694962591,0.6822994015448187,-0.2403444759951871,-1.745648,-11.718769
11.185,2.0,1.0,1.0,34.1,34.6,34.6,2.5,4.1,2.78,-0.4617837163447242,-0.09050567130580013,0.6513882180498534,-0.2636256224283705,-1.954852,-11.096363
11.185,2.0,1.0,1.0,34.1,34.6,34.6,2.5,4.1,2.7825,-0.46937606660517406,-0.08005802015937134,0.6177260074115368,-0.28911627152607366,-2.204762,-10.457695
11.185,2.0,1.0,1.0,34.1,34.6,34.6,2.5,4.1,2.785,-0.4729051081262525,-0.06544470007829255,0.5813989815693403,-0.31670460558837993,-2.505234,-9.805314
11.185,2.0,1.0,1.0,34.1,34.6,34.6,2.5,4.1,2.7875,-0.47120374917750585,-0.045522190389902906,0.5427483255742195,-0.3460254227064446,-2.868383,-9.143318
11.185,2.0,1.0,1.0,34.1,34.6,34.6,2.5,4.1,2.79,-0.46292491029132643,-0.018972814661329825,0.502516008118237,-0.37631683929797877,-3.308489,-8.477902
11.185,2.0,1.0,1.0,34.1,34.6,34.6,2.5,4.1,2.7925,-0.4466432075613118,0.015594133499096337,0.4620291998037144,-0.40623953750516983,-3.840908,-7.817961
11.185,2.0,1.0,1.0,34.1,34.6,34.6,2.5,4.1,2.795,-0.4210844075420865,0.05941570907857351,0.42339256346380094,-0.43368908467399153,-4.478511,-7.175672
11.185,2.0,1.0,1.0,34.1,34.6,34.6,2.5,4.1,2.7975,-0.3855315329629023,0.11317564087375759,0.3896062918358884,-0.4556822645455087,-5.222601,-6.566799
11.185,2.0,1.0,1.0,34.1,34.6,34.6,2.5,4.1,2.8,-0.3404043362457219,0.17643585926001695,0.36446028015436716,-0.4684642155671308,-6.04313,-6.010392
11.185,2.0,1.0,1.0,34.1,34.6,34.6,2.5,4.1,2.8025,-0.2878745761524156,0.2470353406425629,0.3520210785751964,-0.4680153756618096,-6.844692,-5.527414
11.185,2.0,1.0,1.0,34.1,34.6,34.6,2.5,4.1,2.805,-0.23218776893138435,0.32077973842568763,0.35563057754419747,-0.4510357091890604,-7.438013,-5.138064
11.185,2.0,1.0,1.0,34.1,34.6,34.6,2.5,4.1,2.8075,-0.17927341763707558,0.3918302877187792,0.3766482778110853,-0.4161764843339391,-7.594436,-4.858059
11.185,2.0,1.0,1.0,34.1,34.6,34.6,2.5,4.1,2.81,-0.13548046884207707,0.45394872652849977,0.4135483869134698,-0.3649195566408461,-7.226722,-4.694984
11.185,2.0,1.0,1.0,34.1,34.6,34.6,2.5,4.1,2.8125,-0.105868397608365,0.502173220587135,0.462017907113262,-0.301472962025302,-6.484575,-4.64625
11.185,2.0,1.0,1.0,34.1,34.6,34.6,2.5,4.1,2.815,-0.09292372152422314,0.5340724485728641,0.516146115787653,-0.2315980645101687,-5.606016,-4.699655
11.185,2.0,1.0,1.0,34.1,34.6,34.6,2.5,4.1,2.8175,-0.09633420273202076,0.5499606944933737,0.5700669376990548,-0.160996508876815,-4.7592,-4.836277
11.185,2.0,1.0,1.0,34.1,34.6,34.6,2.5,4.1,2.82,-0.11372875601317058,0.5521669897928179,0.6192181220557472,-0.09407616943295527,-4.019044,-5.034319
11.185,2.0,1.0,1.0,34.1,34.6,34.6,2.5,4.1,2.8225,-0.1417860869783715,0.543944781564574,0.66081518803611,-0.0334884190714179,-3.402929,-5.272474
11.185,2.0,1.0,1.0,34.1,34.6,34.6,2.5,4.1,2.825,-0.17716071465577737,0.5285624344888813,0.6936741663575745,0.019696215978072994,-2.90247,-5.532048
11.185,2.0,1.0,1.0,34.1,34.6,34.6,2.5,4.1,2.8275,-0.21700805293925016,0.5087878627661386,0.7177382328746755,0.06552291588853812,-2.500777,-5.797829
11.185,2.0,1.0,1.0,34.1,34.6,34.6,2.5,4.1,2.83,-0.2591577892734235,0.48671830245954023,0.7335932905390533,0.10467761291820883,-2.180136,-6.058074
