1,w,sub_t,h,l1,l2,l3,g1,g2,Freq,S11_re,S21_re,S11_img,S21_img,S11_dB,S21_dB
11.185,2.0,1.0,1.0,34.9,33.3,33.3,1.7,3.1,2.5,0.614848516327672,-0.0206815671937397,0.776537669139262,0.00811422258321754,-0.083091,-33.066532
11.185,2.0,1.0,1.0,34.9,33.3,33.3,1.7,3.1,2.5025,0.6078349160753378,-0.021034571548466344,0.7818919223330744,0.008023968058961542,-0.084115,-32.951315
11.185,2.0,1.0,1.0,34.9,33.3,33.3,1.7,3.1,2.505,0.6007322271447225,-0.021392661409935832,0.7872131858200282,0.007928370603844754,-0.085153,-32.835751
11.185,2.0,1.0,1.0,34.9,33.3,33.3,1.7,3.1,2.5075,0.5935396169910576,-0.021755887537836447,0.7925002856142487,0.007827255198600844,-0.086206,-32.719836
11.185,2.0,1.0,1.0,34.9,33.3,33.3,1.7,3.1,2.51,0.5862562501417873,-0.02212429991367052,0.7977520150942421,0.007720441432695685,-0.087275,-32.603566
11.185,2.0,1.0,1.0,34.9,33.3,33.3,1.7,3.1,2.5125,0.5788812885906988,-0.022497947640821674,0.8029671341593958,0.007607743340585699,-0.088361,-32.486936
11.185,2.0,1.0,1.0,34.9,33.3,33.3,1.7,3.1,2.515,0.5714138922176498,-0.022876878838367334,0.8081443683678626,0.007488969233475918,-0.089463,-32.369943
11.185,2.0,1.0,1.0,34.9,33.3,33.3,1.7,3.1,2.5175,0.5638532192351464,-0.023261140528300136,0.8132824080556591,0.007363921526500661,-0.090582,-32.252583
11.185,2.0,1.0,1.0,34.9,33.3,33.3,1.7,3.1,2.52,0.5561984266630445,-0.023650778515806683,0.8183799074368561,0.007232396561251493,-0.091719,-32.13485
11.185,2.0,1.0,1.0,34.9,33.3,33.3,1.7,3.1,2.5225,0.5484486708327293,-0.024045837262232857,0.8234354836847168,0.00709418442358282,-0.092874,-32.016742
11.185,2.0,1.0,1.0,34.9,33.3,33.3,1.7,3.1,2.525,0.5406031079221574,-0.024446359750348857,0.8284477159937081,0.006949068756628053,-0.094048,-31.898253
11.185,2.0,1.0,1.0,34.9,33.3,33.3,1.7,3.1,2.5275,0.5326608945232134,-0.024852387341507024,0.8334151446223216,0.006796826568963991,-0.095242,-31.779379
11.185,2.0,1.0,1.0,34.9,33.3,33.3,1.7,3.1,2.53,0.5246211882429003,-0.02526395962426587,0.8383362699166481,0.006637228037865287,-0.096456,-31.660116
11.185,2.0,1.0,1.0,34.9,33.3,33.3,1.7,3.1,2.5325,0.5164831483399295,-0.02568111425403334,0.8432095513147091,0.006470036307599478,-0.09769,-31.54046
11.185,2.0,1.0,1.0,34.9,33.3,33.3,1.7,3.1,2.535,0.508245936398337,-0.02610388678326129,0.8480334063315829,0.006295007282715506,-0.098945,-31.420406
11.185,2.0,1.0,1.0,34.9,33.3,33.3,1.7,3.1,2.5375,0.4999087170398424,-0.02653231048169971,0.8528062095253702,0.006111889416290247,-0.100222,-31.29995
11.185,2.0,1.0,1.0,34.9,33.3,33.3,1.7,3.1,2.54,0.49147065867668827,-0.02696641614619713,0.8575262914441205,0.005920423493101877,-0.101522,-31.179088
11.185,2.0,1.0,1.0,34.9,33.3,33.3,1.7,3.1,2.5425,0.4829309343068136,-0.02740623189950889,0.8621919375538696,0.005720342407711027,-0.102845,-31.057815
11.185,2.0,1.0,1.0,34.9,33.3,33.3,1.7,3.1,2.545,0.47428872235324904,-0.027851782977549394,0.8668013871479826,0.005511370937437961,-0.104192,-30.936127
11.185,2.0,1.0,1.0,34.9,33.3,33.3,1.7,3.1,2.5475,0.46554320754970935,-0.02830309150449839,0.8713528322380477,0.005293225510238747,-0.105563,-30.814019
11.185,2.0,1.0,1.0,34.9,33.3,33.3,1.7,3.1,2.55,0.4566935818744293,-0.02876017625514496,0.8758444164266466,0.005065613967490858,-0.106959,-30.691486
11.185,2.0,1.0,1.0,34.9,33.3,33.3,1.7,3.1,2.5525,0.4477390455343666,-0.02922305240382225,0.8802742337623353,0.00482823532171703,-0.108382,-30.568525
11.185,2.0,1.0,1.0,34.9,33.3,33.3,1.7,3.1,2.555,0.4386788080019666,-0.029691731259259238,0.8846403275773065,0.00458077950928688,-0.109831,-30.445131
11.185,2.0,1.0,1.0,34.9,33.3,33.3,1.7,3.1,2.5575,0.42951208910675737,-0.03016621998464345,0.8889406893081999,0.00432292713815501,-0.111307,-30.321299
11.185,2.0,1.0,1.0,34.9,33.3,33.3,1.7,3.1,2.56,0.42023812018414824,-0.030646521302157205,0.8931732573006597,0.0040543492307094685,-0.112812,-30.197025
11.185,2.0,1.0,1.0,34.9,33.3,33.3,1.7,3.1,2.5625,0.4108561452838526,-0.031132633181216972,0.8973359155982797,0.0037747069618259722,-0.114346,-30.072304
11.185,2.0,1.0,1.0,34.9,33.3,33.3,1.7,3.1,2.565,0.40136542244046525,-0.031624548509612604,0.9014264927166934,0.003483651392242473,-0.115909,-29.947131
11.185,2.0,1.0,1.0,34.9,33.3,33.3,1.7,3.1,2.5675,0.3917652250087986,-0.03212225474670526,0.905442760403633,0.0031808231973925612,-0.117503,-29.821503
11.185,2.0,1.0,1.0,34.9,33.3,33.3,1.7,3.1,2.57,0.3820548430666703,-0.03262573355780948,0.9093824323858867,0.002865852391860502,-0.119129,-29.695413
11.185,2.0,1.0,1.0,34.9,33.3,33.3,1.7,3.1,2.5725,0.3722335848879096,-0.03313496042884508,0.9132431631042137,0.0025383580496475076,-0.120787,-29.568858
11.185,2.0,1.0,1.0,34.9,33.3,33.3,1.7,3.1,2.575,0.36230077848845943,-0.033649904260306306,0.9170225464373472,0.0021979480204677945,-0.122479,-29.441834
11.185,2.0,1.0,1.0,34.9,33.3,33.3,1.7,3.1,2.5775,0.3522557732485255,-0.03417052693955566,0.9207181144163613,0.0018442186423255269,-0.124204,-29.314334
11.185,2.0,1.0,1.0,34.9,33.3,33.3,1.7,3.1,2.58,0.3420979416138127,-0.0346967828904077,0.9243273359308055,0.0014767544506557354,-0.125965,-29.186356
11.185,2.0,1.0,1.0,34.9,33.3,33.3,1.7,3.1,2.5825,0.33182668087897993,-0.035228618598927265,0.9278476154281403,0.0010951278843497872,-0.127762,-29.057893
11.185,2.0,1.0,1.0,34.9,33.3,33.3,1.7,3.1,2.585,0.32144141505654283,-0.03576597211431995,0.93127629160815,0.0006988989890269334,-0.129597,-28.928941
11.185,2.0,1.0,1.0,34.9,33.3,33.3,1.7,3.1,2.5875,0.31094159683451383,-0.03630877252375077,0.934610636114165,0.00028761511795295775,-0.131469,-28.799496
11.185,2.0,1.0,1.0,34.9,33.3,33.3,1.7,3.1,2.59,0.3003267096262096,-0.03685693939987789,0.9378478522230922,-0.00013918936894610624,-0.133381,-28.669553
11.185,2.0,1.0,1.0,34.9,33.3,33.3,1.7,3.1,2.5925,0.2895962697156815,-0.03741038221984312,0.9409850735364239,-0.0005819934074762385,-0.135333,-28.539106
11.185,2.0,1.0,1.0,34.9,33.3,33.3,1.7,3.1,2.595,0.27874982850237134,-0.03796899975441019,0.9440193626745708,-0.00104128953242635,-0.137327,-28.408152
11.185,2.0,1.0,1.0,34.9,33.3,33.3,1.7,3.1,2.5975,0.2677869748486199,-0.03853267942589469,0.946947709977064,-0.001517584181071589,-0.139363,-28.276685
11.185,2.0,1.0,1.0,34.9,33.3,33.3,1.7,3.1,2.6,0.2567073375337929,-0.03910129663347653,0.9497670322113902,-0.002011397996261792,-0.141444,-28.1447
11.185,2.0,1.0,1.0,34.9,33.3,33.3,1.7,3.1,2.6025,0.245510587818835,-0.03967471404443507,0.9524741712934053,-0.0025232661283665146,-0.143569,-28.012193
11.185,2.0,1.0,1.0,34.9,33.3,33.3,1.7,3.1,2.605,0.23419644212514876,-0.04025278084979479,0.9550658930225377,-0.0030537385352763834,-0.14574,-27.879159
11.185,2.0,1.0,1.0,34.9,33.3,33.3,1.7,3.1,2.6075,0.2227646648317729,-0.04083533198281521,0.9575388858352182,-0.003603380279589651,-0.14796,-27.745592
11.185,2.0,1.0,1.0,34.9,33.3,33.3,1.7,3.1,2.61,0.21121507119490507,-0.0414221872987038,0.9598897595802107,-0.004172771822031054,-0.150228,-27.611489
11.185,2.0,1.0,1.0,34.9,33.3,33.3,1.7,3.1,2.6125,0.19954753039386477,-0.0420131507138775,0.9621150443198225,-0.00476250931007146,-0.152547,-27.476844
11.185,2.0,1.0,1.0,34.9,33.3,33.3,1.7,3.1,2.615,0.18776196870765707,-0.04260800930304102,0.964211189161217,-0.00537320486062525,-0.154917,-27.341652
11.185,2.0,1.0,1.0,34.9,33.3,33.3,1.7,3.1,2.6175,0.17585837282637454,-0.043206532352293686,0.9661745611223678,-0.006005486835606225,-0.15734,-27.205908
11.185,2.0,1.0,1.0,34.9,33.3,33.3,1.7,3.1,2.62,0.16383679330167697,-0.043808470366421805,0.9680014440375022,-0.006660000109029083,-0.159819,-27.069608
11.185,2.0,1.0,1.0,34.9,33.3,33.3,1.7,3.1,2.6225,0.1516973481406463,-0.04441355402847472,0.9696880375071871,-0.007337406324230762,-0.162353,-26.932745
11.185,2.0,1.0,1.0,34.9,33.3,33.3,1.7,3.1,2.625,0.139440226547373,-0.0450214931096655,0.971230455898586,-0.00803838413967666,-0.164945,-26.795317
11.185,2.0,1.0,1.0,34.9,33.3,33.3,1.7,3.1,2.6275,0.1270656928165821,-0.04563197532758242,0.972624727401725,-0.008763629461697583,-0.167597,-26.657316
11.185,2.0,1.0,1.0,34.9,33.3,33.3,1.7,3.1,2.63,0.1145740903836728,-0.04624466515063678,0.9738667931480284,-0.009513855662377778,-0.170309,-26.518739
11.185,2.0,1.0,1.0,34.9,33.3,33.3,1.7,3.1,2.6325,0.101965846035519,-0.04685920254661879,0.9749525063977155,-0.01028979378067836,-0.173085,-26.379579
11.185,2.0,1.0,1.0,34.9,33.3,33.3,1.7,3.1,2.635,0.08924147428635501,-0.047475201673175024,0.9758776318031045,-0.011092192704743951,-0.175925,-26.239833
11.185,2.0,1.0,1.0,34.9,33.3,33.3,1.7,3.1,2.6375,0.0764015819230615,-0.04809224950796513,0.9766378447552619,-0.011921819333188635,-0.178832,-26.099495
11.185,2.0,1.0,1.0,34.9,33.3,33.3,1.7,3.1,2.64,0.06344687272408366,-0.04870990441620157,0.977228730821865,-0.012779458713004857,-0.181807,-25.95856
11.185,2.0,1.0,1.0,34.9,33.3,33.3,1.7,3.1,2.6425,0.05037815235618873,-0.049327694653219956,0.9776457852846222,-0.01366591415156992,-0.184853,-25.817022
11.185,2.0,1.0,1.0,34.9,33.3,33.3,1.7,3.1,2.645,0.03719633345316528,-0.049945116799675594,0.9778844127850527,-0.014582007300057896,-0.18797,-25.674877
11.185,2.0,1.0,1.0,34.9,33.3,33.3,1.7,3.1,2.6475,0.023902440880474017,-0.05056163412690817,0.9779399270878888,-0.01552857820537621,-0.191163,-25.53212
11.185,2.0,1.0,1.0,34.9,33.3,33.3,1.7,3.1,2.65,0.01049761718972396,-0.05117667488996765,0.9778075509719265,-0.016506485327563998,-0.194432,-25.388744
11.185,2.0,1.0,1.0,34.9,33.3,33.3,1.7,3.1,2.6525,-0.0030168717332554025,-0.05178963054574106,0.9774824162585848,-0.017516605519381858,-0.19778,-25.244745
11.185,2.0,1.0,1.0,34.9,33.3,33.3,1.7,3.1,2.655,-0.01663963082320046,-0.0523998538935759,0.9769595639890328,-0.018559833964618966,-0.201209,-25.100117
11.185,2.0,1.0,1.0,34.9,33.3,33.3,1.7,3.1,2.6575,-0.030369129789653962,-0.053006657135745386,0.97623394476127,-0.019637084071424102,-0.204721,-24.954855
11.185,2.0,1.0,1.0,34.9,33.3,33.3,1.7,3.1,2.66,-0.04420369686750857,-0.05360930985505724,0.9753004192390707,-0.020749287316735494,-0.20832,-24.808954
11.185,2.0,1.0,1.0,34.9,33.3,33.3,1.7,3.1,2.6625,-0.05814151236090581,-0.054207036906862266,0.974153758845348,-0.021897393037649,-0.212007,-24.662408
11.185,2.0,1.0,1.0,34.9,33.3,33.3,1.7,3.1,2.665,-0.07218060197788781,-0.05479901622267853,0.9727886466530015,-0.02308236816531633,-0.215785,-24.515212
11.185,2.0,1.0,1.0,34.9,33.3,33.3,1.7,3.1,2.6675,-0.0863188299534059,-0.055384376522600906,0.9711996784869699,-0.024305196896698477,-0.219658,-24.367359
11.185,2.0,1.0,1.0,34.9,33.3,33.3,1.7,3.1,2.67,-0.10055389195872512,-0.05596219493362949,0.9693813642517828,-0.025566880299237833,-0.223627,-24.218845
11.185,2.0,1.0,1.0,34.9,33.3,33.3,1.7,3.1,2.6725,-0.11488330779556687,-0.056531494511006905,0.9673281294995255,-0.026868435843225354,-0.227695,-24.069663
11.185,2.0,1.0,1.0,34.9,33.3,33.3,1.7,3.1,2.675,-0.12930441387374997,-0.05709124165961304,0.9650343172537763,-0.028210896856346857,-0.231867,-23.919808
11.185,2.0,1.0,1.0,34.9,33.3,33.3,1.7,3.1,2.6775,-0.14381435547154295,-0.057640343452428,0.9624941901056709,-0.029595311894588364,-0.236144,-23.769274
11.185,2.0,1.0,1.0,34.9,33.3,33.3,1.7,3.1,2.68,-0.1584100787783881,-0.05817764484302606,0.9597019325989012,-0.031022744023363608,-0.240531,-23.618055
11.185,2.0,1.0,1.0,34.9,33.3,33.3,1.7,3.1,2.6825,-0.1730883227201733,-0.058701925769021446,0.9566516539210932,-0.03249427000239476,-0.24503,-23.466144
11.185,2.0,1.0,1.0,34.9,33.3,33.3,1.7,3.1,2.685,-0.1878456105677735,-0.05921189814333572,0.9533373909196176,-0.034010979367538566,-0.249645,-23.313536
11.185,2.0,1.0,1.0,34.9,33.3,33.3,1.7,3.1,2.6875,-0.2026782413301612,-0.05970620273010152,0.9497531114605451,-0.03557397340238708,-0.254379,-23.160225
11.185,2.0,1.0,1.0,34.9,33.3,33.3,1.7,3.1,2.69,-0.2175822809339576,-0.060183405901956415,0.9458927181500851,-0.037184363992104556,-0.259237,-23.006203
11.185,2.0,1.0,1.0,34.9,33.3,33.3,1.7,3.1,2.6925,-0.23255355319201965,-0.060641996275409144,0.9417500524384198,-0.038843272351576676,-0.264222,-22.851464
11.185,2.0,1.0,1.0,34.9,33.3,33.3,1.7,3.1,2.695,-0.24758763056422375,-0.06108038122087804,0.9373188991265365,-0.04055182761953171,-0.269339,-22.696002
11.185,2.0,1.0,1.0,34.9,33.3,33.3,1.7,3.1,2.6975,-0.2626798247144212,-0.06149688324390655,0.9325929912971851,-0.042311165309887294,-0.274591,-22.53981
11.185,2.0,1.0,1.0,34.9,33.3,33.3,1.7,3.1,2.7,-0.2778251768681818,-0.06188973623394349,0.92756601569172,-0.044122425611116574,-0.279984,-22.38288
11.185,2.0,1.0,1.0,34.9,33.3,33.3,1.7,3.1,2.7025,-0.29301844797675614,-0.06225708157694472,0.9222316185551361,-0.04598675152396923,-0.285521,-22.225206
11.185,2.0,1.0,1.0,34.9,33.3,33.3,1.7,3.1,2.705,-0.30825410869340675,-0.06259696412788808,0.916583411972172,-0.047905286827388684,-0.291207,-22.066779
11.185,2.0,1.0,1.0,34.9,33.3,33.3,1.7,3.1,2.7075,-0.3235263291691069,-0.06290732803910619,0.9106149807178783,-0.04987917386194416,-0.297048,-21.907593
11.185,2.0,1.0,1.0,34.9,33.3,33.3,1.7,3.1,2.71,-0.33882896867531626,-0.063186012440113,0.9043198896465806,-0.05190955111954079,-0.303048,-21.747639
11.185,2.0,1.0,1.0,34.9,33.3,33.3,1.7,3.1,2.7125,-0.35415556506241963,-0.06343074696433273,0.8976916916436516,-0.05399755062758261,-0.309213,-21.586909
11.185,2.0,1.0,1.0,34.9,33.3,33.3,1.7,3.1,2.715,-0.369499324063134,-0.06363914711782258,0.8907239361649724,-0.05614429511511988,-0.315549,-21.425395
11.185,2.0,1.0,1.0,34.9,33.3,33.3,1.7,3.1,2.7175,-0.38485310845099485,-0.06380870948470704,0.8834101783894542,-0.058350894947830426,-0.322062,-21.263087
11.185,2.0,1.0,1.0,34.9,33.3,33.3,1.7,3.1,2.72,-0.40020942706472473,-0.06393680676360265,0.8757439890104102,-0.06061844481792962,-0.328757,-21.099978
11.185,2.0,1.0,1.0,34.9,33.3,33.3,1.7,3.1,2.7225,-0.41556042371005225,-0.06402068262880042,0.8677189646919932,-0.0629480201742969,-0.335641,-20.936056
11.185,2.0,1.0,1.0,34.9,33.3,33.3,1.7,3.1,2.725,-0.43089786595108714,-0.06405744640937178,0.8593287392173846,-0.06534067337718998,-0.342722,-20.771314
11.185,2.0,1.0,1.0,34.9,33.3,33.3,1.7,3.1,2.7275,-0.44621313380403543,-0.06404406757867208,0.8505669953557926,-0.06779742956094388,-0.350005,-20.605739
11.185,2.0,1.0,1.0,34.9,33.3,33.3,1.7,3.1,2.73,-0.46149720834640723,-0.06397737004590905,0.8414274774758148,-0.07031928218691977,-0.357499,-20.439322
11.185,2.0,1.0,1.0,34.9,33.3,33.3,1.7,3.1,2.7325,-0.47674066025532696,-0.06385402624051535,0.8319040049331502,-0.07290718826774793,-0.36521,-20.272052
11.185,2.0,1.0,1.0,34.9,33.3,33.3,1.7,3.1,2.735,-0.49193363828871584,-0.06367055097900089,0.8219904862612059,-0.07556206324249148,-0.373149,-20.103916
11.185,2.0,1.0,1.0,34.9,33.3,33.3,1.7,3.1,2.7375,-0.5070658577232596,-0.06342329510273574,0.8116809341936574,-0.0782847754807907,-0.381322,-19.934903
11.185,2.0,1.0,1.0,34.9,33.3,33.3,1.7,3.1,2.74,-0.5221265887629206,-0.0631084388737283,0.8009694815487854,-0.08107614039224018,-0.389738,-19.765
11.185,2.0,1.0,1.0,34.9,33.3,33.3,1.7,3.1,2.7425,-0.5371046449315067,-0.06272198511387486,0.7898503980061101,-0.08393691411520489,-0.398409,-19.594193
11.185,2.0,1.0,1.0,34.9,33.3,33.3,1.7,3.1,2.745,-0.5519883714622003,-0.06225975207137164,0.7783181078068834,-0.08686778675692833,-0.407342,-19.422469
11.185,2.0,1.0,1.0,34.9,33.3,33.3,1.7,3.1,2.7475,-0.566765633696195,-0.0617173659959542,0.7663672084111047,-0.08986937515409174,-0.41655,-19.249812
11.185,2.0,1.0,1.0,34.9,33.3,33.3,1.7,3.1,2.75,-0.581423805501453,-0.0610902534023621,0.753992490145211,-0.0929422151198802,-0.426043,-19.076207
11.185,2.0,1.0,1.0,34.9,33.3,33.3,1.7,3.1,2.7525,-0.5959497577211315,-0.06037363299888098,0.7411889568762794,-0.09608675314002593,-0.435832,-18.901637
11.185,2.0,1.0,1.0,34.9,33.3,33.3,1.7,3.1,2.755,-0.6103298466594242,-0.05956250725497991,0.7279518477508358,-0.09930333747616019,-0.44593,-18.726086
11.185,2.0,1.0,1.0,34.9,33.3,33.3,1.7,3.1,2.7575,-0.6245499026103569,-0.05865165357891043,0.7142766600389197,-0.10259220863003393,-0.456351,-18.549535
11.185,2.0,1.0,1.0,34.9,33.3,33.3,1.7,3.1,2.76,-0.6385952184323417,-0.0576356150726512,0.7001591731274224,-0.10595348911658979,-0.467107,-18.371965
11.185,2.0,1.0,1.0,34.9,33.3,33.3,1.7,3.1,2.7625,-0.6524505381682179,-0.05650869082774609,0.6855954737106239,-0.10938717248747966,-0.478215,-18.193356
11.185,2.0,1.0,1.0,34.9,33.3,33.3,1.7,3.1,2.765,-0.6661000457067798,-0.05526492572138248,0.6705819822307871,-0.11289311153913686,-0.489689,-18.013686
11.185,2.0,1.0,1.0,34.9,33.3,33.3,1.7,3.1,2.7675,-0.6795273534776152,-0.053898099667477266,0.6551154806275759,-0.11647100563088007,-0.501546,-17.832932
11.185,2.0,1.0,1.0,34.9,33.3,33.3,1.7,3.1,2.77,-0.6927154911663178,-0.05240171627257727,0.6391931414621808,-0.12012038702849295,-0.513804,-17.651071
11.185,2.0,1.0,1.0,34.9,33.3,33.3,1.7,3.1,2.7725,-0.7056468944317352,-0.0507689908410452,0.622812558490749,-0.12384060617707006,-0.526481,-17.468078
11.185,2.0,1.0,1.0,34.9,33.3,33.3,1.7,3.1,2.775,-0.718303393601016,-0.048992837668299476,0.6059717787720579,-0.12763081579341415,-0.539598,-17.283925
11.185,2.0,1.0,1.0,34.9,33.3,33.3,1.7,3.1,2.7775,-0.730666202311632,-0.04706585655484298,0.5886693364068257,-0.13148995365259228,-0.553177,-17.098584
11.185,2.0,1.0,1.0,34.9,33.3,33.3,1.7,3.1,2.78,-0.7427159060625265,-0.04498031846749878,0.5709042880209196,-0.1354167239250515,-0.567239,-16.912026
11.185,2.0,1.0,1.0,34.9,33.3,33.3,1.7,3.1,2.7825,-0.7544324506288562,-0.04272815026773908,0.5526762501224364,-0.13940957689960787,-0.581809,-16.724219
11.185,2.0,1.0,1.0,34.9,33.3,33.3,1.7,3.1,2.785,-0.7657951302868838,-0.04030091842035097,0.533985438483582,-0.14346668690314363,-0.596914,-16.53513
11.185,2.0,1.0,1.0,34.9,33.3,33.3,1.7,3.1,2.7875,-0.7767825757871237,-0.03768981158908814,0.514832709723255,-0.14758592819945046,-0.612582,-16.344722
11.185,2.0,1.0,1.0,34.9,33.3,33.3,1.7,3.1,2.79,-0.7873727420055237,-0.034885622019578365,0.49521960529556397,-0.15176484861677184,-0.628843,-16.152959
11.185,2.0,1.0,1.0,34.9,33.3,33.3,1.7,3.1,2.7925,-0.7975428951940171,-0.03187872560388796,0.475148398124246,-0.1560006406154443,-0.64573,-15.9598
11.185,2.0,1.0,1.0,34.9,33.3,33.3,1.7,3.1,2.795,-0.8072695997439797,-0.028659060516093644,0.45462214216368674,-0.16029010946285258,-0.663277,-15.765205
11.185,2.0,1.0,1.0,34.9,33.3,33.3,1.7,3.1,2.7975,-0.8165287043690203,-0.025216104304473342,0.43364472521523906,-0.16462963813168074,-0.681523,-15.569128
11.185,2.0,1.0,1.0,34.9,33.3,33.3,1.7,3.1,2.8,-0.8252953276080466,-0.021538849324020243,0.4122209253836196,-0.1690151484781617,-0.700508,-15.371523
11.185,2.0,1.0,1.0,34.9,33.3,33.3,1.7,3.1,2.8025,-0.833543842546107,-0.017615776393727547,0.3903564716239494,-0.17344205818829764,-0.720276,-15.172341
11.185,2.0,1.0,1.0,34.9,33.3,33.3,1.7,3.1,2.805,-0.8412478606502762,-0.013434826567394177,0.3680581089068902,-0.17790523290051374,-0.740876,-14.971529
11.185,2.0,1.0,1.0,34.9,33.3,33.3,1.7,3.1,2.8075,-0.848380214622019,-0.008983370915818746,0.345333668618901,-0.18239893282114134,-0.762358,-14.769032
11.185,2.0,1.0,1.0,34.9,33.3,33.3,1.7,3.1,2.81,-0.854912940177542,-0.004248178233743719,0.3221921449191915,-0.1869167530426323,-0.78478,-14.564793
11.185,2.0,1.0,1.0,34.9,33.3,33.3,1.7,3.1,2.8125,-0.8608172566857262,0.0007846193911976666,0.29864377789658003,-0.1914515566512238,-0.808202,-14.358749
11.185,2.0,1.0,1.0,34.9,33.3,33.3,1.7,3.1,2.815,-0.8660635466218704,0.006129563175485457,0.2747001445106324,-0.1959953995684229,-0.832691,-14.150837
11.185,2.0,1.0,1.0,34.9,33.3,33.3,1.7,3.1,2.8175,-0.8706213338379052,0.011801906381651446,0.25037425846551614,-0.20053944590625794,-0.858321,-13.940988
11.185,2.0,1.0,1.0,34.9,33.3,33.3,1.7,3.1,2.82,-0.8744592607101538,0.017817655116912218,0.2256806803547798,-0.2050738724265365,-0.88517,-13.729132
11.185,2.0,1.0,1.0,34.9,33.3,33.3,1.7,3.1,2.8225,-0.8775450643093697,0.024193611009581787,0.20063563963483516,-0.20958776047572555,-0.913327,-13.515194
11.185,2.0,1.0,1.0,34.9,33.3,33.3,1.7,3.1,2.825,-0.8798455518512935,0.03094741546362315,0.17525717023814594,-0.2140689735155156,-0.942887,-13.299094
11.185,2.0,1.0,1.0,34.9,33.3,33.3,1.7,3.1,2.8275,-0.8813265758379153,0.03809759503261197,0.14956526192850988,-0.2185040180802987,-0.973954,-13.080752
