1,w,sub_t,h,l1,l2,l3,g1,g2,Freq,S11_re,S21_re,S11_img,S21_img,S11_dB,S21_dB
11.185,2.0,1.0,1.0,34.1,34.1,34.1,3.1,3.4,2.5,0.770303274941937,-0.00965411530926175,0.62579520482603,0.00534091306930519,-0.065696,-39.14612
11.185,2.0,1.0,1.0,34.1,34.1,34.1,3.1,3.4,2.5025,0.7655232428400196,-0.009834285441580621,0.6315103177291574,0.00533322107710146,-0.066382,-39.025469
11.185,2.0,1.0,1.0,34.1,34.1,34.1,3.1,3.4,2.505,0.7606760934926088,-0.010017511742824434,0.6372162721607505,0.005323837201783736,-0.067081,-38.904424
11.185,2.0,1.0,1.0,34.1,34.1,34.1,3.1,3.4,2.5075,0.7557611378233745,-0.010203851457444863,0.6429125524500756,0.0053126996914979125,-0.067792,-38.782978
11.185,2.0,1.0,1.0,34.1,34.1,34.1,3.1,3.4,2.51,0.7507776775640744,-0.010393363095624221,0.6485986277707543,0.005299744573744418,-0.068516,-38.661122
11.185,2.0,1.0,1.0,34.1,34.1,34.1,3.1,3.4,2.5125,0.7457250051801687,-0.010586106464686395,0.654273951677768,0.005284905566588513,-0.069254,-38.538848
11.185,2.0,1.0,1.0,34.1,34.1,34.1,3.1,3.4,2.515,0.7406024037989104,-0.010782142701339127,0.6599379616299619,0.005268113985854924,-0.070005,-38.416145
11.185,2.0,1.0,1.0,34.1,34.1,34.1,3.1,3.4,2.5175,0.7354091471401407,-0.010981534304768937,0.6655900784975314,0.005249298648099709,-0.07077,-38.293006
11.185,2.0,1.0,1.0,34.1,34.1,34.1,3.1,3.4,2.52,0.7301444994500065,-0.011184345170610732,0.6712297060540129,0.00522838576914034,-0.071549,-38.169421
11.185,2.0,1.0,1.0,34.1,34.1,34.1,3.1,3.4,2.5225,0.7248077154378639,-0.0113906406258139,0.6768562304522259,0.005205298857911243,-0.072342,-38.045381
11.185,2.0,1.0,1.0,34.1,34.1,34.1,3.1,3.4,2.525,0.7193980402166068,-0.011600487464427588,0.6824690196836396,0.005179958605399045,-0.073151,-37.920876
11.185,2.0,1.0,1.0,34.1,34.1,34.1,3.1,3.4,2.5275,0.7139147092467,-0.01181395398432743,0.6880674230205943,0.005152282768396083,-0.073974,-37.795898
11.185,2.0,1.0,1.0,34.1,34.1,34.1,3.1,3.4,2.53,0.7083569482842055,-0.012031110024906885,0.6936507704407796,0.005122186047795504,-0.074814,-37.670435
11.185,2.0,1.0,1.0,34.1,34.1,34.1,3.1,3.4,2.5325,0.7027239733330972,-0.012252027005755796,0.6992183720333613,0.005089579961133904,-0.07567,-37.544479
11.185,2.0,1.0,1.0,34.1,34.1,34.1,3.1,3.4,2.535,0.6970149906021825,-0.012476777966349448,0.7047695173861277,0.005054372709069597,-0.076542,-37.418018
11.185,2.0,1.0,1.0,34.1,34.1,34.1,3.1,3.4,2.5375,0.6912291964669715,-0.012705437606770727,0.7103034749529767,0.005016469035464956,-0.077431,-37.291044
11.185,2.0,1.0,1.0,34.1,34.1,34.1,3.1,3.4,2.54,0.6853657774368351,-0.0129380823294889,0.7158194914010643,0.004975770080720584,-0.078338,-37.163545
11.185,2.0,1.0,1.0,34.1,34.1,34.1,3.1,3.4,2.5425,0.6794239101278305,-0.013174790282217028,0.721316790936898,0.004932173227986819,-0.079262,-37.035511
11.185,2.0,1.0,1.0,34.1,34.1,34.1,3.1,3.4,2.545,0.6734027612415767,-0.013415641401871068,0.7267945746106192,0.004885571941854109,-0.080205,-36.90693
11.185,2.0,1.0,1.0,34.1,34.1,34.1,3.1,3.4,2.5475,0.6673014875506013,-0.013660717459651943,0.7322520195976909,0.004835855599098165,-0.081166,-36.777793
11.185,2.0,1.0,1.0,34.1,34.1,34.1,3.1,3.4,2.55,0.6611192358905708,-0.01391010210727283,0.7376882784571963,0.004782909311028295,-0.082147,-36.648087
11.185,2.0,1.0,1.0,34.1,34.1,34.1,3.1,3.4,2.5525,0.654855143159885,-0.014163880924351268,0.7431024783658698,0.0047266137369579506,-0.083148,-36.517801
11.185,2.0,1.0,1.0,34.1,34.1,34.1,3.1,3.4,2.555,0.6485083363270875,-0.014422141466986454,0.7484937203269973,0.004666844888284508,-0.084169,-36.386923
11.185,2.0,1.0,1.0,34.1,34.1,34.1,3.1,3.4,2.5575,0.6420779324466069,-0.014684973317539884,0.7538610783532507,0.004603473922631202,-0.085211,-36.255442
11.185,2.0,1.0,1.0,34.1,34.1,34.1,3.1,3.4,2.56,0.6355630386833571,-0.014952468135636526,0.7592035986224821,0.004536366927467801,-0.086275,-36.123345
11.185,2.0,1.0,1.0,34.1,34.1,34.1,3.1,3.4,2.5625,0.6289627523467507,-0.015224719710401163,0.7645202986054722,0.00446538469258659,-0.087361,-35.99062
11.185,2.0,1.0,1.0,34.1,34.1,34.1,3.1,3.4,2.565,0.6222761609347014,-0.015501824013943954,0.7698101661645679,0.004390382470767769,-0.088469,-35.857254
11.185,2.0,1.0,1.0,34.1,34.1,34.1,3.1,3.4,2.5675,0.615502342188249,-0.015783879256104888,0.7750721586220947,0.004311209725922931,-0.089601,-35.723234
11.185,2.0,1.0,1.0,34.1,34.1,34.1,3.1,3.4,2.57,0.6086403641574316,-0.016070985940465504,0.7803052017973814,0.004227709867955132,-0.090757,-35.588548
11.185,2.0,1.0,1.0,34.1,34.1,34.1,3.1,3.4,2.5725,0.6016892852790979,-0.016363246921631863,0.7855081890111731,0.004139719973521042,-0.091937,-35.45318
11.185,2.0,1.0,1.0,34.1,34.1,34.1,3.1,3.4,2.575,0.5946481544673659,-0.01666076746378914,0.7906799800561434,0.0040470704918229815,-0.093144,-35.317118
11.185,2.0,1.0,1.0,34.1,34.1,34.1,3.1,3.4,2.5775,0.5875160112174858,-0.016963655300523472,0.7958194001321602,0.003949584934496145,-0.094376,-35.180348
11.185,2.0,1.0,1.0,34.1,34.1,34.1,3.1,3.4,2.58,0.5802918857238974,-0.017272020695900853,0.8009252387448755,0.0038470795485892042,-0.095635,-35.042854
11.185,2.0,1.0,1.0,34.1,34.1,34.1,3.1,3.4,2.5825,0.5729747990133035,-0.01758597650678775,0.8059962485661519,0.0037393629715630518,-0.096922,-34.904623
11.185,2.0,1.0,1.0,34.1,34.1,34.1,3.1,3.4,2.585,0.5655637630936498,-0.017905638246389598,0.8110311442547378,0.0036262358671541517,-0.098238,-34.765638
11.185,2.0,1.0,1.0,34.1,34.1,34.1,3.1,3.4,2.5875,0.5580577811199143,-0.01823112414897602,0.8160286012355323,0.0035074905408625182,-0.099583,-34.625885
11.185,2.0,1.0,1.0,34.1,34.1,34.1,3.1,3.4,2.59,0.5504558475776937,-0.01856255523575115,0.8209872544356773,0.0033829105337326794,-0.100958,-34.485347
11.185,2.0,1.0,1.0,34.1,34.1,34.1,3.1,3.4,2.5925,0.5427569484855879,-0.0189000553818179,0.8259056969756184,0.003252270192993962,-0.102364,-34.344008
11.185,2.0,1.0,1.0,34.1,34.1,34.1,3.1,3.4,2.595,0.5349600616174806,-0.019243751384170234,0.8307824788131551,0.00311533421801833,-0.103803,-34.201852
11.185,2.0,1.0,1.0,34.1,34.1,34.1,3.1,3.4,2.5975,0.5270641567458251,-0.019593773030635767,0.8356161053384096,0.0029718571799341553,-0.105275,-34.058862
11.185,2.0,1.0,1.0,34.1,34.1,34.1,3.1,3.4,2.6,0.5190681959071407,-0.019950253169672243,0.8404050359174843,0.002821583013105723,-0.106782,-33.915019
11.185,2.0,1.0,1.0,34.1,34.1,34.1,3.1,3.4,2.6025,0.5109711336909869,-0.020313327780903622,0.8451476823824552,0.002664244476547465,-0.108323,-33.770305
11.185,2.0,1.0,1.0,34.1,34.1,34.1,3.1,3.4,2.605,0.5027719175537246,-0.020683136046260073,0.8498424074652057,0.002499562583188285,-0.109902,-33.624703
11.185,2.0,1.0,1.0,34.1,34.1,34.1,3.1,3.4,2.6075,0.49446948815848313,-0.02105982042156078,0.8544875231724275,0.0023272459947349614,-0.111518,-33.478193
11.185,2.0,1.0,1.0,34.1,34.1,34.1,3.1,3.4,2.61,0.4860627797428128,-0.021443526708350587,0.8590812890989401,0.0021469903797011595,-0.113172,-33.330756
11.185,2.0,1.0,1.0,34.1,34.1,34.1,3.1,3.4,2.6125,0.4775507205155874,-0.021834404125769404,0.8636219106763001,0.001958477731969278,-0.114868,-33.182372
11.185,2.0,1.0,1.0,34.1,34.1,34.1,3.1,3.4,2.615,0.46893223308481136,-0.022232605382196572,0.8681075373534514,0.0017613756470357222,-0.116604,-33.033019
11.185,2.0,1.0,1.0,34.1,34.1,34.1,3.1,3.4,2.6175,0.4602062349181018,-0.0226382867463691,0.8725362607059286,0.0015553365528519674,-0.118384,-32.882677
11.185,2.0,1.0,1.0,34.1,34.1,34.1,3.1,3.4,2.62,0.4513716388377005,-0.02305160811762625,0.876906112469897,0.00133999689191392,-0.120208,-32.731325
11.185,2.0,1.0,1.0,34.1,34.1,34.1,3.1,3.4,2.6225,0.4424273535519844,-0.023472733094876883,0.8812150624970227,0.0011149762509667475,-0.122078,-32.578939
11.185,2.0,1.0,1.0,34.1,34.1,34.1,3.1,3.4,2.625,0.433372284225608,-0.0239018290438226,0.885461016625855,0.000879876434380856,-0.123995,-32.425496
11.185,2.0,1.0,1.0,34.1,34.1,34.1,3.1,3.4,2.6275,0.42420533309047254,-0.02433906716189974,0.8896418144651057,0.0006342804769103806,-0.125962,-32.270973
11.185,2.0,1.0,1.0,34.1,34.1,34.1,3.1,3.4,2.63,0.4149254000999405,-0.024784622540318386,0.8937552270838178,0.00037775159117069964,-0.12798,-32.115345
11.185,2.0,1.0,1.0,34.1,34.1,34.1,3.1,3.4,2.6325,0.40553138362882346,-0.02523867422248518,0.8977989546030104,0.00010983204475632281,-0.130051,-31.958587
11.185,2.0,1.0,1.0,34.1,34.1,34.1,3.1,3.4,2.635,0.3960221812218648,-0.025701405257986174,0.9017706236829979,-0.0001699580385337992,-0.132176,-31.800673
11.185,2.0,1.0,1.0,34.1,34.1,34.1,3.1,3.4,2.6375,0.3863966903936445,-0.026173002751184907,0.9056677849000195,-0.00046212195939847463,-0.134358,-31.641575
11.185,2.0,1.0,1.0,34.1,34.1,34.1,3.1,3.4,2.64,0.37665380948300614,-0.02665365790334852,0.9094879100053616,-0.000767187812251933,-0.136599,-31.481267
11.185,2.0,1.0,1.0,34.1,34.1,34.1,3.1,3.4,2.6425,0.36679243856539634,-0.027143566047052054,0.9132283890594912,-0.0010857099501533792,-0.138902,-31.319719
11.185,2.0,1.0,1.0,34.1,34.1,34.1,3.1,3.4,2.645,0.35681148042671806,-0.02764292667142618,0.9168865274331309,-0.001418270553319832,-0.141267,-31.156902
11.185,2.0,1.0,1.0,34.1,34.1,34.1,3.1,3.4,2.6475,0.3467098416026283,-0.028151943436598707,0.9204595426664176,-0.0017654813098367229,-0.143699,-30.992786
11.185,2.0,1.0,1.0,34.1,34.1,34.1,3.1,3.4,2.65,0.3364864334874812,-0.02867082417543715,0.9239445611765595,-0.00212798521800566,-0.146199,-30.827338
11.185,2.0,1.0,1.0,34.1,34.1,34.1,3.1,3.4,2.6525,0.3261401735175691,-0.029199780880413393,0.927338614803421,-0.002506458520679011,-0.148771,-30.660526
11.185,2.0,1.0,1.0,34.1,34.1,34.1,3.1,3.4,2.655,0.3156699864335953,-0.02973902967309241,0.9306386371815908,-0.002901612782945398,-0.151417,-30.492316
11.185,2.0,1.0,1.0,34.1,34.1,34.1,3.1,3.4,2.6575,0.3050748056278924,-0.030288790753367767,0.9338414599262688,-0.0033141971256494887,-0.15414,-30.322673
11.185,2.0,1.0,1.0,34.1,34.1,34.1,3.1,3.4,2.66,0.2943535745823142,-0.030849288325139605,0.9369438086191858,-0.003745000628479461,-0.156943,-30.151561
11.185,2.0,1.0,1.0,34.1,34.1,34.1,3.1,3.4,2.6625,0.2835052484033878,-0.03142075049463086,0.939942298579323,-0.0041948549177403685,-0.15983,-29.978943
11.185,2.0,1.0,1.0,34.1,34.1,34.1,3.1,3.4,2.665,0.27252879546190173,-0.032003409136965304,0.9428334304017402,-0.004664636955477638,-0.162805,-29.804779
11.185,2.0,1.0,1.0,34.1,34.1,34.1,3.1,3.4,2.6675,0.2614231991449215,-0.032597499725965325,0.9456135852460693,-0.005155272048334627,-0.16587,-29.629028
11.185,2.0,1.0,1.0,34.1,34.1,34.1,3.1,3.4,2.67,0.25018745972903383,-0.03320326112135993,0.9482790198543533,-0.005667737096449602,-0.169031,-29.45165
11.185,2.0,1.0,1.0,34.1,34.1,34.1,3.1,3.4,2.6725,0.23882059638461337,-0.033820935306703374,0.9508258612757645,-0.006203064104842401,-0.172291,-29.272599
11.185,2.0,1.0,1.0,34.1,34.1,34.1,3.1,3.4,2.675,0.2273216493220274,-0.034450767070270914,0.9532501012733837,-0.006762343982139186,-0.175655,-29.091832
11.185,2.0,1.0,1.0,34.1,34.1,34.1,3.1,3.4,2.6775,0.21568968209201342,-0.035093003619999875,0.9555475903854456,-0.007346730654169194,-0.179128,-28.909302
11.185,2.0,1.0,1.0,34.1,34.1,34.1,3.1,3.4,2.68,0.20392378405385672,-0.03574789412214964,0.9577140316106073,-0.00795744552297812,-0.182715,-28.724958
11.185,2.0,1.0,1.0,34.1,34.1,34.1,3.1,3.4,2.6825,0.19202307302685667,-0.036415689151729325,0.9597449736832168,-0.008595782305177614,-0.186421,-28.538751
11.185,2.0,1.0,1.0,34.1,34.1,34.1,3.1,3.4,2.685,0.17998669814240967,-0.0370966400408502,0.9616358039009172,-0.009263112287346121,-0.190252,-28.350627
11.185,2.0,1.0,1.0,34.1,34.1,34.1,3.1,3.4,2.6875,0.16781384291643087,-0.037790998108949043,0.9633817404625261,-0.009960890040461655,-0.194213,-28.160532
11.185,2.0,1.0,1.0,34.1,34.1,34.1,3.1,3.4,2.69,0.15550372856451022,-0.03849901375624374,0.9649778242693133,-0.010690659640151035,-0.198313,-27.968408
11.185,2.0,1.0,1.0,34.1,34.1,34.1,3.1,3.4,2.6925,0.14305561758525753,-0.03922093539875987,0.9664189101373482,-0.011454061444957359,-0.202557,-27.774195
11.185,2.0,1.0,1.0,34.1,34.1,34.1,3.1,3.4,2.695,0.13046881764105148,-0.03995700821971378,0.9676996573623543,-0.012252839490937592,-0.206954,-27.57783
11.185,2.0,1.0,1.0,34.1,34.1,34.1,3.1,3.4,2.6975,0.11774268576954262,-0.040707472707876655,0.9688145195715695,-0.013088849567812672,-0.21151,-27.379249
11.185,2.0,1.0,1.0,34.1,34.1,34.1,3.1,3.4,2.7,0.1048766329644113,-0.041472562948635196,0.9697577337891012,-0.013964068049703186,-0.216235,-27.178383
11.185,2.0,1.0,1.0,34.1,34.1,34.1,3.1,3.4,2.7025,0.0918701291696442,-0.04225250462769098,0.9705233086323376,-0.014880601562338669,-0.221139,-26.975162
11.185,2.0,1.0,1.0,34.1,34.1,34.1,3.1,3.4,2.705,0.07872270873865198,-0.04304751270051679,0.9711050115466923,-0.015840697578661897,-0.22623,-26.76951
11.185,2.0,1.0,1.0,34.1,34.1,34.1,3.1,3.4,2.7075,0.06543397641763837,-0.04385778867262346,0.9714963549743915,-0.016846756046147646,-0.231519,-26.561349
11.185,2.0,1.0,1.0,34.1,34.1,34.1,3.1,3.4,2.71,0.05200361392242995,-0.04468351742612953,0.9716905813397477,-0.017901342162104074,-0.237019,-26.350599
11.185,2.0,1.0,1.0,34.1,34.1,34.1,3.1,3.4,2.7125,0.03843138718940644,-0.045524863516782275,0.9716806467183284,-0.019007200427964,-0.242741,-26.137175
11.185,2.0,1.0,1.0,34.1,34.1,34.1,3.1,3.4,2.715,0.02471715439488754,-0.04638196685207723,0.9714592030402437,-0.020167270130355713,-0.248698,-25.920985
11.185,2.0,1.0,1.0,34.1,34.1,34.1,3.1,3.4,2.7175,0.010860874853588774,-0.047254937645037284,0.9710185786581865,-0.0213847024158842,-0.254906,-25.701937
11.185,2.0,1.0,1.0,34.1,34.1,34.1,3.1,3.4,2.72,-0.003137381073730441,-0.048143850518991886,0.9703507570884377,-0.022662879148393128,-0.26138,-25.479932
11.185,2.0,1.0,1.0,34.1,34.1,34.1,3.1,3.4,2.7225,-0.017277420910142754,-0.04904873761569619,0.9694473537074992,-0.02400543376243311,-0.268136,-25.254866
11.185,2.0,1.0,1.0,34.1,34.1,34.1,3.1,3.4,2.725,-0.03155891764858602,-0.04996958053152276,0.9682995901576864,-0.025416274355176908,-0.275194,-25.026631
11.185,2.0,1.0,1.0,34.1,34.1,34.1,3.1,3.4,2.7275,-0.04598139577929902,-0.05090630087327614,0.9668982661815172,-0.026899609291659937,-0.282574,-24.795112
11.185,2.0,1.0,1.0,34.1,34.1,34.1,3.1,3.4,2.73,-0.06054421550326597,-0.051858749185164275,0.9652337285663213,-0.02845997563555809,-0.290297,-24.560188
11.185,2.0,1.0,1.0,34.1,34.1,34.1,3.1,3.4,2.7325,-0.07524655482752321,-0.05282669195012461,0.9632958368365386,-0.03010227076047794,-0.298387,-24.321733
11.185,2.0,1.0,1.0,34.1,34.1,34.1,3.1,3.4,2.735,-0.09008738917881397,-0.053809796310134286,0.9610739252807381,-0.03183178754568161,-0.306872,-24.079613
11.185,2.0,1.0,1.0,34.1,34.1,34.1,3.1,3.4,2.7375,-0.10506546810021862,-0.054807612079012136,0.958556760842711,-0.03365425361621846,-0.315778,-23.833687
11.185,2.0,1.0,1.0,34.1,34.1,34.1,3.1,3.4,2.74,-0.1201792885076703,-0.05581955053460241,0.9557324963398804,-0.03557587515155296,-0.32514,-23.583806
11.185,2.0,1.0,1.0,34.1,34.1,34.1,3.1,3.4,2.7425,-0.1354270638762664,-0.05684485937147187,0.9525886183966864,-0.03760338586008126,-0.33499,-23.329813
11.185,2.0,1.0,1.0,34.1,34.1,34.1,3.1,3.4,2.745,-0.15080668859522392,-0.057882593065743115,0.9491118893943388,-0.03974410180057317,-0.345367,-23.071541
11.185,2.0,1.0,1.0,34.1,34.1,34.1,3.1,3.4,2.7475,-0.1663156965692169,-0.05893157774465994,0.945288282639901,-0.042005982826827507,-0.356315,-22.808815
11.185,2.0,1.0,1.0,34.1,34.1,34.1,3.1,3.4,2.75,-0.181951212945685,-0.0599903694576197,0.941102909846082,-0.0443977015399226,-0.36788,-22.541448
11.185,2.0,1.0,1.0,34.1,34.1,34.1,3.1,3.4,2.7525,-0.19770989760247165,-0.06105720450347241,0.936539939886689,-0.04692872075457003,-0.380115,-22.269243
11.185,2.0,1.0,1.0,34.1,34.1,34.1,3.1,3.4,2.755,-0.2135878787266817,-0.062129940169127394,0.9315825076508413,-0.04960938062318445,-0.393077,-21.991991
11.185,2.0,1.0,1.0,34.1,34.1,34.1,3.1,3.4,2.7575,-0.22958067443810873,-0.06320598386196441,0.9262126116607219,-0.052450996713894076,-0.406833,-21.70947
11.185,2.0,1.0,1.0,34.1,34.1,34.1,3.1,3.4,2.76,-0.24568309993995133,-0.06428220815409381,0.9204109989434145,-0.055465970506504106,-0.421454,-21.421445
11.185,2.0,1.0,1.0,34.1,34.1,34.1,3.1,3.4,2.7625,-0.26188915709088956,-0.06535484867567515,0.9141570354584729,-0.05866791395179241,-0.437023,-21.127665
11.185,2.0,1.0,1.0,34.1,34.1,34.1,3.1,3.4,2.765,-0.2781919025539138,-0.06641938106582067,0.907428560183213,-0.06207178993057136,-0.453633,-20.827865
11.185,2.0,1.0,1.0,34.1,34.1,34.1,3.1,3.4,2.7675,-0.29458328974755826,-0.06747037227261404,0.9002017207543794,-0.06569407064243822,-0.471386,-20.521762
11.185,2.0,1.0,1.0,34.1,34.1,34.1,3.1,3.4,2.77,-0.3110539786514739,-0.06850130033623178,0.8924507883704285,-0.06955291613738053,-0.490401,-20.209054
11.185,2.0,1.0,1.0,34.1,34.1,34.1,3.1,3.4,2.7725,-0.32759310603173747,-0.06950433532361468,0.8841479494940296,-0.07366837535546905,-0.510812,-19.889423
11.185,2.0,1.0,1.0,34.1,34.1,34.1,3.1,3.4,2.775,-0.3441880067637631,-0.0704700722223403,0.8752630717931299,-0.07806261212727383,-0.532772,-19.562526
11.185,2.0,1.0,1.0,34.1,34.1,34.1,3.1,3.4,2.7775,-0.36082387452703796,-0.07138720423243511,0.8657634417737533,-0.08276015855773829,-0.556456,-19.228001
11.185,2.0,1.0,1.0,34.1,34.1,34.1,3.1,3.4,2.78,-0.3774833470781239,-0.07224212187193771,0.8556134717707105,-0.08778819798751282,-0.582064,-18.885462
11.185,2.0,1.0,1.0,34.1,34.1,34.1,3.1,3.4,2.7825,-0.39414599738488354,-0.07301841944691974,0.8447743744996302,-0.09317687917294654,-0.609828,-18.534497
11.185,2.0,1.0,1.0,34.1,34.1,34.1,3.1,3.4,2.785,-0.410787706880226,-0.07369628548776833,0.8332038044278448,-0.09895966225797437,-0.640017,-18.174667
11.185,2.0,1.0,1.0,34.1,34.1,34.1,3.1,3.4,2.7875,-0.42737989065373044,-0.07425174741274308,0.8208554670860603,-0.10517369523737236,-0.672943,-17.80551
11.185,2.0,1.0,1.0,34.1,34.1,34.1,3.1,3.4,2.79,-0.44388853614923524,-0.07465573255893962,0.8076787005622346,-0.11186021649081956,-0.70897,-17.42653
11.185,2.0,1.0,1.0,34.1,34.1,34.1,3.1,3.4,2.7925,-0.4602730063860188,-0.07487289733949958,0.7936180384679548,-0.11906497393398871,-0.748526,-17.037206
11.185,2.0,1.0,1.0,34.1,34.1,34.1,3.1,3.4,2.795,-0.47648454528170847,-0.07486016306753421,0.7786127716652115,-0.1268386433786879,-0.792115,-16.636987
11.185,2.0,1.0,1.0,34.1,34.1,34.1,3.1,3.4,2.7975,-0.4924644056533121,-0.07456488027379732,0.7625965385280561,-0.13523721629724622,-0.840334,-16.225294
11.185,2.0,1.0,1.0,34.1,34.1,34.1,3.1,3.4,2.8,-0.5081414992093559,-0.07392252245525172,0.745496992811013,-0.14432230805434557,-0.893897,-15.801521
11.185,2.0,1.0,1.0,34.1,34.1,34.1,3.1,3.4,2.8025,-0.5234294417395361,-0.07285378456551965,0.7272356277955452,-0.1541613083571546,-0.953656,-15.365044
11.185,2.0,1.0,1.0,34.1,34.1,34.1,3.1,3.4,2.805,-0.5382228356155676,-0.07126093107295295,0.7077278805111289,-0.1648272510298849,-1.020637,-14.915222
11.185,2.0,1.0,1.0,34.1,34.1,34.1,3.1,3.4,2.8075,-0.5523925965750055,-0.06902320401997639,0.6868837082356838,-0.1763982125956475,-1.096087,-14.451411
11.185,2.0,1.0,1.0,34.1,34.1,34.1,3.1,3.4,2.81,-0.5657800958377862,-0.0659910664813109,0.664608932547338,-0.1889559473404888,-1.181521,-13.97298
11.185,2.0,1.0,1.0,34.1,34.1,34.1,3.1,3.4,2.8125,-0.578189859847907,-0.0619790290287077,0.640807800275476,-0.202583314447645,-1.278798,-13.479336
11.185,2.0,1.0,1.0,34.1,34.1,34.1,3.1,3.4,2.815,-0.5893805652426161,-0.05675680300729161,0.6153874385074956,-0.2173598280756175,-1.390208,-12.969957
11.185,2.0,1.0,1.0,34.1,34.1,34.1,3.1,3.4,2.8175,-0.5990541194742228,-0.0500385776866794,0.5882652121385368,-0.2333543346502677,-1.518591,-12.444445
11.185,2.0,1.0,1.0,34.1,34.1,34.1,3.1,3.4,2.82,-0.6068427907931786,-0.041470390839210544,0.5593804621404467,-0.25061335900519555,-1.667479,-11.902595
11.185,2.0,1.0,1.0,34.1,34.1,34.1,3.1,3.4,2.8225,-0.6122947584610582,-0.030615965923271572,0.5287127412243859,-0.26914303266819384,-1.841288,-11.344501
11.185,2.0,1.0,1.0,34.1,34.1,34.1,3.1,3.4,2.825,-0.61485928995148,-0.01694221589634233,0.4963094699732028,-0.28888172503321924,-2.045545,-10.770687
11.185,2.0,1.0,1.0,34.1,34.1,34.1,3.1,3.4,2.8275,-0.6138743306865476,0.00019282683070710515,0.46232681411011417,-0.3096596376275711,-2.287155,-10.182306
