1,w,sub_t,h,l1,l2,l3,g1,g2,Freq,S11_re,S21_re,S11_img,S21_img,S11_dB,S21_dB
11.185,2.0,1.0,1.0,34.6,33.4,33.4,3.1,1.7,2.5,0.682898481536258,-0.016930933958623,0.719059570363338,0.00851475251790071,-0.072711,-34.44715
11.185,2.0,1.0,1.0,34.6,33.4,33.4,3.1,1.7,2.5025,0.6769093832580306,-0.017233374390143507,0.724571304559242,0.008478223186211168,-0.073538,-34.331273
11.185,2.0,1.0,1.0,34.6,33.4,33.4,3.1,1.7,2.505,0.6708425346268382,-0.017540677205226413,0.7300616527733524,0.00843816832066344,-0.074378,-34.215006
11.185,2.0,1.0,1.0,34.6,33.4,33.4,3.1,1.7,2.5075,0.6646971897195998,-0.017852917977036184,0.735529786074518,0.00839446409960984,-0.075232,-34.098342
11.185,2.0,1.0,1.0,34.6,33.4,33.4,3.1,1.7,2.51,0.6584725963721099,-0.018170173276797503,0.7409748525744714,0.008346982521297655,-0.0761,-33.981275
11.185,2.0,1.0,1.0,34.6,33.4,33.4,3.1,1.7,2.5125,0.6521679963054314,-0.018492520668859123,0.7463959767944514,0.008295591251996113,-0.076984,-33.8638
11.185,2.0,1.0,1.0,34.6,33.4,33.4,3.1,1.7,2.515,0.6457826252643691,-0.018820038704154843,0.7517922590149865,0.00824015346813945,-0.077882,-33.745908
11.185,2.0,1.0,1.0,34.6,33.4,33.4,3.1,1.7,2.5175,0.6393157131686735,-0.019152806911932885,0.7571627746084114,0.008180527692229236,-0.078796,-33.627595
11.185,2.0,1.0,1.0,34.6,33.4,33.4,3.1,1.7,2.52,0.6327664842776236,-0.01949090578962618,0.7625065733537246,0.008116567622225535,-0.079727,-33.508852
11.185,2.0,1.0,1.0,34.6,33.4,33.4,3.1,1.7,2.5225,0.6261341573687136,-0.01983441679071927,0.7678226787333424,0.008048121954144297,-0.080674,-33.389673
11.185,2.0,1.0,1.0,34.6,33.4,33.4,3.1,1.7,2.525,0.6194179459311441,-0.020183422310464095,0.7731100872113428,0.007975034197564096,-0.081638,-33.270052
11.185,2.0,1.0,1.0,34.6,33.4,33.4,3.1,1.7,2.5275,0.6126170583748952,-0.020538005669282856,0.7783677674927545,0.007897142483731096,-0.082619,-33.149981
11.185,2.0,1.0,1.0,34.6,33.4,33.4,3.1,1.7,2.53,0.6057306982561783,-0.02089825109368853,0.7835946597634478,0.007814279365935732,-0.083619,-33.029452
11.185,2.0,1.0,1.0,34.6,33.4,33.4,3.1,1.7,2.5325,0.5987580645200931,-0.02126424369454041,0.7887896749101786,0.0077262716118175504,-0.084637,-32.90846
11.185,2.0,1.0,1.0,34.6,33.4,33.4,3.1,1.7,2.535,0.5916983517613617,-0.021636069442440675,0.7939516937203379,0.007632939987239186,-0.085674,-32.786996
11.185,2.0,1.0,1.0,34.6,33.4,33.4,3.1,1.7,2.5375,0.5845507505040559,-0.022013815140064865,0.7990795660609255,0.007534099031350044,-0.08673,-32.665052
11.185,2.0,1.0,1.0,34.6,33.4,33.4,3.1,1.7,2.54,0.5773144475012568,-0.022397568391205595,0.8041721100362965,0.007429556822443025,-0.087807,-32.542623
11.185,2.0,1.0,1.0,34.6,33.4,33.4,3.1,1.7,2.5425,0.5699886260556449,-0.02278741756629421,0.8092281111241916,0.007319114734185688,-0.088904,-32.419698
11.185,2.0,1.0,1.0,34.6,33.4,33.4,3.1,1.7,2.545,0.562572466362056,-0.02318345176414844,0.8142463212895727,0.007202567181786366,-0.090023,-32.296271
11.185,2.0,1.0,1.0,34.6,33.4,33.4,3.1,1.7,2.5475,0.5550651458730905,-0.023585760769678634,0.8192254580757612,0.007079701357632813,-0.091163,-32.172334
11.185,2.0,1.0,1.0,34.6,33.4,33.4,3.1,1.7,2.55,0.5474658396888903,-0.023994435007265134,0.824164203672404,0.0069502969559158976,-0.092326,-32.047879
11.185,2.0,1.0,1.0,34.6,33.4,33.4,3.1,1.7,2.5525,0.5397737209722943,-0.024409565489503172,0.8290612039597276,0.0068141258857260046,-0.093512,-31.922897
11.185,2.0,1.0,1.0,34.6,33.4,33.4,3.1,1.7,2.555,0.5319879613905739,-0.02483124376098635,0.8339150675285989,0.006670951972081314,-0.094722,-31.797379
11.185,2.0,1.0,1.0,34.6,33.4,33.4,3.1,1.7,2.5575,0.5241077315850511,-0.025259561836783333,0.8387243646758581,0.006520530644318397,-0.095957,-31.671318
11.185,2.0,1.0,1.0,34.6,33.4,33.4,3.1,1.7,2.56,0.5161322016699467,-0.025694612135232605,0.8434876263743935,0.006362608611244223,-0.097216,-31.544704
11.185,2.0,1.0,1.0,34.6,33.4,33.4,3.1,1.7,2.5625,0.5080605417618567,-0.026136487404659913,0.8482033432174275,0.006196923522415875,-0.098502,-31.417529
11.185,2.0,1.0,1.0,34.6,33.4,33.4,3.1,1.7,2.565,0.4998919225413168,-0.026585280643590795,0.8528699643364781,0.0060232036148785755,-0.099814,-31.289784
11.185,2.0,1.0,1.0,34.6,33.4,33.4,3.1,1.7,2.5675,0.4916255158480013,-0.027041085014007184,0.8574858962924273,0.005841167344654499,-0.101153,-31.161459
11.185,2.0,1.0,1.0,34.6,33.4,33.4,3.1,1.7,2.57,0.4832604953111376,-0.027503993747156674,0.8620495019391562,0.005650523002236666,-0.102521,-31.032544
11.185,2.0,1.0,1.0,34.6,33.4,33.4,3.1,1.7,2.5725,0.4747960370168107,-0.02797410004140026,0.8665590992591615,0.0054509683112958915,-0.103918,-30.903032
11.185,2.0,1.0,1.0,34.6,33.4,33.4,3.1,1.7,2.575,0.46623132021389607,-0.028451496951536537,0.8710129601705944,0.005242190009766883,-0.105345,-30.77291
11.185,2.0,1.0,1.0,34.6,33.4,33.4,3.1,1.7,2.5775,0.4575655280604404,-0.028936277269009426,0.8754093093051166,0.005023863412427056,-0.106803,-30.642171
11.185,2.0,1.0,1.0,34.6,33.4,33.4,3.1,1.7,2.58,0.4487978484123934,-0.029428533392359253,0.8797463227559826,0.0047956519540317865,-0.108292,-30.510802
11.185,2.0,1.0,1.0,34.6,33.4,33.4,3.1,1.7,2.5825,0.439927474656655,-0.029928357187232624,0.8840221267957447,0.004557206712011974,-0.109814,-30.378795
11.185,2.0,1.0,1.0,34.6,33.4,33.4,3.1,1.7,2.585,0.43095360659053006,-0.030435839835218307,0.8882347965629444,0.0043081659076805974,-0.11137,-30.246139
11.185,2.0,1.0,1.0,34.6,33.4,33.4,3.1,1.7,2.5875,0.42187545134972954,-0.03095107167072023,0.8923823547171662,0.0040481543848297176,-0.112961,-30.112822
11.185,2.0,1.0,1.0,34.6,33.4,33.4,3.1,1.7,2.59,0.4126922243871954,-0.03147414200502387,0.8964627700617928,0.0037767830645306076,-0.114587,-29.978833
11.185,2.0,1.0,1.0,34.6,33.4,33.4,3.1,1.7,2.5925,0.40340315050508707,-0.032005138936647415,0.9004739561337995,0.0034936483748756564,-0.11625,-29.844162
11.185,2.0,1.0,1.0,34.6,33.4,33.4,3.1,1.7,2.595,0.39400746494242134,-0.03254414914700329,0.9044137697598926,0.0031983316543191193,-0.117952,-29.708797
11.185,2.0,1.0,1.0,34.6,33.4,33.4,3.1,1.7,2.5975,0.38450441452091294,-0.03309125768032122,0.9082800095782787,0.0028903985271899954,-0.119692,-29.572726
11.185,2.0,1.0,1.0,34.6,33.4,33.4,3.1,1.7,2.6,0.37489325885172414,-0.03364654770670543,0.9120704145253512,0.0025693982498557286,-0.121473,-29.435937
11.185,2.0,1.0,1.0,34.6,33.4,33.4,3.1,1.7,2.6025,0.36517327160594815,-0.03421010026710983,0.9157826622864969,0.0022348630259173643,-0.123295,-29.298418
11.185,2.0,1.0,1.0,34.6,33.4,33.4,3.1,1.7,2.605,0.35534374185175005,-0.03478199399892605,0.9194143677102633,0.0018863072887076592,-0.125161,-29.160156
11.185,2.0,1.0,1.0,34.6,33.4,33.4,3.1,1.7,2.6075,0.34540397546127277,-0.035362304840771575,0.9229630811850386,0.0015232269492486954,-0.127071,-29.021138
11.185,2.0,1.0,1.0,34.6,33.4,33.4,3.1,1.7,2.61,0.33535329659053525,-0.03595110571495681,0.9264262869773737,0.0011450986077002684,-0.129027,-28.881351
11.185,2.0,1.0,1.0,34.6,33.4,33.4,3.1,1.7,2.6125,0.32519104923569375,-0.03654846618598897,0.9298014015310534,0.000751378726193754,-0.13103,-28.740782
11.185,2.0,1.0,1.0,34.6,33.4,33.4,3.1,1.7,2.615,0.3149165988692291,-0.0371544520933384,0.9330857717259241,0.0003415027608007253,-0.133082,-28.599416
11.185,2.0,1.0,1.0,34.6,33.4,33.4,3.1,1.7,2.6175,0.3045293341597807,-0.03776912515654553,0.9362766730954734,-8.511574977319857e-05,-0.135184,-28.457239
11.185,2.0,1.0,1.0,34.6,33.4,33.4,3.1,1.7,2.62,0.2940286687795386,-0.038392542550592226,0.9393713080020586,-0.0005290861413505129,-0.137339,-28.314238
11.185,2.0,1.0,1.0,34.6,33.4,33.4,3.1,1.7,2.6225,0.2834140433032845,-0.0390247564492868,0.9423668037686321,-0.0009910416300685423,-0.139548,-28.170396
11.185,2.0,1.0,1.0,34.6,33.4,33.4,3.1,1.7,2.625,0.272684927203439,-0.0396658135342197,0.945260210765688,-0.00147164036975841,-0.141812,-28.025699
11.185,2.0,1.0,1.0,34.6,33.4,33.4,3.1,1.7,2.6275,0.2618408209456199,-0.04031575446664335,0.9480485004520991,-0.0019715665641072562,-0.144134,-27.88013
11.185,2.0,1.0,1.0,34.6,33.4,33.4,3.1,1.7,2.63,0.25088125818952983,-0.04097461331939545,0.9507285633683806,-0.0024915316370294257,-0.146516,-27.733674
11.185,2.0,1.0,1.0,34.6,33.4,33.4,3.1,1.7,2.6325,0.23980580810022892,-0.04164241696573697,0.9532972070807805,-0.0030322754649337678,-0.148959,-27.586315
11.185,2.0,1.0,1.0,34.6,33.4,33.4,3.1,1.7,2.635,0.22861407777512685,-0.04231918442169571,0.9557511540744714,-0.003594567674854627,-0.151467,-27.438034
11.185,2.0,1.0,1.0,34.6,33.4,33.4,3.1,1.7,2.6375,0.21730571479235583,-0.043004926138201796,0.9580870395939654,-0.004179209012722096,-0.15404,-27.288814
11.185,2.0,1.0,1.0,34.6,33.4,33.4,3.1,1.7,2.64,0.20588040988650055,-0.04369964323896246,0.9603014094286516,-0.004787032786381134,-0.156683,-27.138638
11.185,2.0,1.0,1.0,34.6,33.4,33.4,3.1,1.7,2.6425,0.1943378997580494,-0.044403326699650955,0.9623907176412007,-0.005418906388334877,-0.159396,-26.987486
11.185,2.0,1.0,1.0,34.6,33.4,33.4,3.1,1.7,2.645,0.18267797002331657,-0.04511595646356734,0.9643513242362922,-0.0060757329035834706,-0.162183,-26.835339
11.185,2.0,1.0,1.0,34.6,33.4,33.4,3.1,1.7,2.6475,0.17090045831203612,-0.045837500488472446,0.9661794927669105,-0.006758452808366324,-0.165046,-26.682179
11.185,2.0,1.0,1.0,34.6,33.4,33.4,3.1,1.7,2.65,0.15900525752027317,-0.046567913718787296,0.9678713878751086,-0.007468045766091278,-0.167989,-26.527984
11.185,2.0,1.0,1.0,34.6,33.4,33.4,3.1,1.7,2.6525,0.14699231922690206,-0.047307136976780344,0.9694230727638407,-0.008205532527249518,-0.171014,-26.372733
11.185,2.0,1.0,1.0,34.6,33.4,33.4,3.1,1.7,2.655,0.13486165728239966,-0.048055095765737466,0.970830506596046,-0.008971976940688919,-0.174124,-26.216405
11.185,2.0,1.0,1.0,34.6,33.4,33.4,3.1,1.7,2.6575,0.12261335157940975,-0.04881169897740598,0.9720895418167872,-0.009768488084235473,-0.177323,-26.058978
11.185,2.0,1.0,1.0,34.6,33.4,33.4,3.1,1.7,2.66,0.11024755201522744,-0.04957683749521866,0.9731959213937208,-0.01059622252333669,-0.180615,-25.900428
11.185,2.0,1.0,1.0,34.6,33.4,33.4,3.1,1.7,2.6625,0.09776448265718167,-0.05035038268392778,0.9741452759706567,-0.011456386707146202,-0.184002,-25.740731
11.185,2.0,1.0,1.0,34.6,33.4,33.4,3.1,1.7,2.665,0.08516444612272508,-0.05113218475529688,0.9749331209283715,-0.01235023951228824,-0.187489,-25.579863
11.185,2.0,1.0,1.0,34.6,33.4,33.4,3.1,1.7,2.6675,0.07244782818714617,-0.05192207099840047,0.9755548533461053,-0.013279094945438571,-0.19108,-25.417799
11.185,2.0,1.0,1.0,34.6,33.4,33.4,3.1,1.7,2.67,0.05961510263280917,-0.05271984386184285,0.9760057488564929,-0.014244325016844247,-0.19478,-25.254512
11.185,2.0,1.0,1.0,34.6,33.4,33.4,3.1,1.7,2.6725,0.04666683635519575,-0.053525278873826125,0.976280958385721,-0.015247362797988615,-0.198592,-25.089974
11.185,2.0,1.0,1.0,34.6,33.4,33.4,3.1,1.7,2.675,0.03360369474240688,-0.054338122384429186,0.9763755047698145,-0.016289705677796102,-0.202521,-24.924158
11.185,2.0,1.0,1.0,34.6,33.4,33.4,3.1,1.7,2.6775,0.020426447346336047,-0.055158089112703174,0.97628427923686,-0.017372918833078895,-0.206573,-24.757035
11.185,2.0,1.0,1.0,34.6,33.4,33.4,3.1,1.7,2.68,0.007135973865617667,-0.05598485947920235,0.9760020377437472,-0.018498638930366063,-0.210753,-24.588572
11.185,2.0,1.0,1.0,34.6,33.4,33.4,3.1,1.7,2.6825,-0.006266729537545026,-0.05681807670231858,0.9755233971546825,-0.01966857807783455,-0.215067,-24.418741
11.185,2.0,1.0,1.0,34.6,33.4,33.4,3.1,1.7,2.685,-0.019780543562218207,-0.05765734363424959,0.9748428312472079,-0.020884528047800825,-0.21952,-24.247506
11.185,2.0,1.0,1.0,34.6,33.4,33.4,3.1,1.7,2.6875,-0.03340421870817425,-0.05850221930954435,0.9739546665298141,-0.022148364792143164,-0.224119,-24.074835
11.185,2.0,1.0,1.0,34.6,33.4,33.4,3.1,1.7,2.69,-0.0471363677997382,-0.05935221517589498,0.9728530778532838,-0.02346205327512805,-0.228871,-23.900692
11.185,2.0,1.0,1.0,34.6,33.4,33.4,3.1,1.7,2.6925,-0.06097545806055409,-0.060206790973123946,0.9715320837959098,-0.024827652650429768,-0.233783,-23.725041
11.185,2.0,1.0,1.0,34.6,33.4,33.4,3.1,1.7,2.695,-0.07491980270167073,-0.06106535022206787,0.9699855418003114,-0.02624732181167204,-0.238863,-23.547842
11.185,2.0,1.0,1.0,34.6,33.4,33.4,3.1,1.7,2.6975,-0.08896755198098877,-0.06192723528022789,0.9682071430370522,-0.02772332534862559,-0.244118,-23.369057
11.185,2.0,1.0,1.0,34.6,33.4,33.4,3.1,1.7,2.7,-0.10311668368676466,-0.06279172191552355,0.9661904069673409,-0.029258039944263854,-0.249558,-23.188643
11.185,2.0,1.0,1.0,34.6,33.4,33.4,3.1,1.7,2.7025,-0.11736499299205963,-0.06365801334316477,0.9639286755739273,-0.030853961251263145,-0.255191,-23.006558
11.185,2.0,1.0,1.0,34.6,33.4,33.4,3.1,1.7,2.705,-0.13171008162003045,-0.06452523366340147,0.9614151072257617,-0.032513711290235406,-0.261029,-22.822757
11.185,2.0,1.0,1.0,34.6,33.4,33.4,3.1,1.7,2.7075,-0.14614934625213916,-0.0653924206295932,0.9586426701380646,-0.03424004641605327,-0.26708,-22.637191
11.185,2.0,1.0,1.0,34.6,33.4,33.4,3.1,1.7,2.71,-0.16067996610216448,-0.0662585176664598,0.9556041353851467,-0.03603586590307144,-0.273356,-22.449813
11.185,2.0,1.0,1.0,34.6,33.4,33.4,3.1,1.7,2.7125,-0.17529888956837333,-0.0671223650473574,0.9522920694185372,-0.03790422120492367,-0.279871,-22.26057
11.185,2.0,1.0,1.0,34.6,33.4,33.4,3.1,1.7,2.715,-0.19000281986394119,-0.06798269012669642,0.9486988260377577,-0.03984832594987609,-0.286636,-22.069409
11.185,2.0,1.0,1.0,34.6,33.4,33.4,3.1,1.7,2.7175,-0.204788199511544,-0.06883809650891738,0.9448165377553421,-0.04187156673850041,-0.293666,-21.876274
11.185,2.0,1.0,1.0,34.6,33.4,33.4,3.1,1.7,2.72,-0.21965119357148674,-0.06968705201841592,0.9406371064914347,-0.043977514816692174,-0.300975,-21.681106
11.185,2.0,1.0,1.0,34.6,33.4,33.4,3.1,1.7,2.7225,-0.23458767145361997,-0.07052787531506641,0.9361521935264743,-0.04616993870383602,-0.30858,-21.483843
11.185,2.0,1.0,1.0,34.6,33.4,33.4,3.1,1.7,2.725,-0.2495931871408049,-0.07135872097705068,0.931353208633144,-0.048452817863183735,-0.316499,-21.284421
11.185,2.0,1.0,1.0,34.6,33.4,33.4,3.1,1.7,2.7275,-0.26466295762565073,-0.07217756284599887,0.926231298300793,-0.05083035750929608,-0.32475,-21.082772
11.185,2.0,1.0,1.0,34.6,33.4,33.4,3.1,1.7,2.73,-0.2797918393316028,-0.07298217539830706,0.9207773329571556,-0.05330700465561176,-0.333354,-20.878824
11.185,2.0,1.0,1.0,34.6,33.4,33.4,3.1,1.7,2.7325,-0.29497430225367743,-0.07377011287012278,0.9149818930832249,-0.05588746551384316,-0.342332,-20.672504
11.185,2.0,1.0,1.0,34.6,33.4,33.4,3.1,1.7,2.735,-0.3102044015121395,-0.07453868582090184,0.9088352541079381,-0.05857672436579209,-0.35171,-20.463733
11.185,2.0,1.0,1.0,34.6,33.4,33.4,3.1,1.7,2.7375,-0.3254757459629589,-0.07528493477051398,0.902327369959794,-0.061380064037206174,-0.361512,-20.252427
11.185,2.0,1.0,1.0,34.6,33.4,33.4,3.1,1.7,2.74,-0.34078146345078925,-0.07600560048619509,0.8954478551431446,-0.06430308811216524,-0.371768,-20.038502
11.185,2.0,1.0,1.0,34.6,33.4,33.4,3.1,1.7,2.7425,-0.356114162221541,-0.0766970904265841,0.8881859651978337,-0.0673517450348734,-0.382508,-19.821864
11.185,2.0,1.0,1.0,34.6,33.4,33.4,3.1,1.7,2.745,-0.3714658879305751,-0.07735544076861421,0.8805305753927147,-0.07053235425308238,-0.393766,-19.602419
11.185,2.0,1.0,1.0,34.6,33.4,33.4,3.1,1.7,2.7475,-0.3868280755865573,-0.077976273346755,0.8724701574970478,-0.07385163456299937,-0.405578,-19.380064
11.185,2.0,1.0,1.0,34.6,33.4,33.4,3.1,1.7,2.75,-0.40219149565721,-0.0785547467201189,0.863992754469784,-0.0773167348184313,-0.417987,-19.154693
11.185,2.0,1.0,1.0,34.6,33.4,33.4,3.1,1.7,2.7525,-0.4175461934279388,-0.07908550044769898,0.855085952906691,-0.0809352671657232,-0.431035,-18.926193
11.185,2.0,1.0,1.0,34.6,33.4,33.4,3.1,1.7,2.755,-0.43288142054344525,-0.07956259149128235,0.8457368530910312,-0.08471534295891378,-0.444772,-18.694445
11.185,2.0,1.0,1.0,34.6,33.4,33.4,3.1,1.7,2.7575,-0.44818555747058464,-0.07997942147417504,0.8359320365073886,-0.08866561149394438,-0.459251,-18.459323
11.185,2.0,1.0,1.0,34.6,33.4,33.4,3.1,1.7,2.76,-0.46344602539151913,-0.08032865329553542,0.8256575307039771,-0.09279530167325145,-0.474533,-18.220695
11.185,2.0,1.0,1.0,34.6,33.4,33.4,3.1,1.7,2.7625,-0.4786491857623496,-0.08060211532725602,0.8148987714306106,-0.09711426666810528,-0.490683,-17.97842
11.185,2.0,1.0,1.0,34.6,33.4,33.4,3.1,1.7,2.765,-0.49378022544385114,-0.08079069109371075,0.8036405620439839,-0.10163303157928143,-0.507774,-17.732349
11.185,2.0,1.0,1.0,34.6,33.4,33.4,3.1,1.7,2.7675,-0.5088230249172432,-0.08088419194316497,0.7918670302672715,-0.10636284399870521,-0.525887,-17.482327
11.185,2.0,1.0,1.0,34.6,33.4,33.4,3.1,1.7,2.77,-0.523760006624543,-0.08087120974966161,0.7795615825287785,-0.11131572723414548,-0.545113,-17.228186
11.185,2.0,1.0,1.0,34.6,33.4,33.4,3.1,1.7,2.7725,-0.5385719599041878,-0.08073894611944474,0.7667068562998642,-0.11650453576043027,-0.565554,-16.96975
11.185,2.0,1.0,1.0,34.6,33.4,33.4,3.1,1.7,2.775,-0.5532378383076694,-0.08047301389678271,0.7532846711265221,-0.12194301218320176,-0.587322,-16.706834
11.185,2.0,1.0,1.0,34.6,33.4,33.4,3.1,1.7,2.7775,-0.5677345242585383,-0.080057205946879,0.7392759794300289,-0.127645844616663,-0.610545,-16.439241
11.185,2.0,1.0,1.0,34.6,33.4,33.4,3.1,1.7,2.78,-0.5820365550225666,-0.07947322521042961,0.7246608186784552,-0.13362872284685076,-0.635366,-16.166761
11.185,2.0,1.0,1.0,34.6,33.4,33.4,3.1,1.7,2.7825,-0.5961158027637529,-0.07870036884246057,0.7094182672545793,-0.13990839092475282,-0.661948,-15.889175
11.185,2.0,1.0,1.0,34.6,33.4,33.4,3.1,1.7,2.785,-0.6099411000265766,-0.07771515782931152,0.6935264073376873,-0.14650269283853634,-0.690474,-15.606249
11.185,2.0,1.0,1.0,34.6,33.4,33.4,3.1,1.7,2.7875,-0.623477800266455,-0.07649090177915985,0.6769622994734956,-0.15343060655512428,-0.721153,-15.317737
11.185,2.0,1.0,1.0,34.6,33.4,33.4,3.1,1.7,2.79,-0.6366872609999809,-0.07499718655659526,0.6597019753593538,-0.16071225986757576,-0.754223,-15.023378
11.185,2.0,1.0,1.0,34.6,33.4,33.4,3.1,1.7,2.7925,-0.6495262347150498,-0.07319927003285975,0.6417204579007181,-0.1683689189575327,-0.789957,-14.722899
11.185,2.0,1.0,1.0,34.6,33.4,33.4,3.1,1.7,2.795,-0.6619461498236116,-0.07105736840754477,0.6229918210444793,-0.17642293713791649,-0.828667,-14.41601
11.185,2.0,1.0,1.0,34.6,33.4,33.4,3.1,1.7,2.7975,-0.6738922606262845,-0.06852581229699371,0.6034893066002545,-0.1848976465474269,-0.870715,-14.102411
11.185,2.0,1.0,1.0,34.6,33.4,33.4,3.1,1.7,2.8,-0.6853026414913562,-0.06555204808530095,0.5831855216783347,-0.19381716917211364,-0.916517,-13.781783
11.185,2.0,1.0,1.0,34.6,33.4,33.4,3.1,1.7,2.8025,-0.6961069962985029,-0.062075455966847354,0.5620527491251913,-0.20320611485325965,-0.966559,-13.453799
11.185,2.0,1.0,1.0,34.6,33.4,33.4,3.1,1.7,2.805,-0.7062252498449999,-0.058025951864566584,0.5400634152676347,-0.21308912206888345,-1.021407,-13.118118
11.185,2.0,1.0,1.0,34.6,33.4,33.4,3.1,1.7,2.8075,-0.7155658837512797,-0.05332233638172931,0.5171907755232458,-0.22349018112128635,-1.081723,-12.77439
11.185,2.0,1.0,1.0,34.6,33.4,33.4,3.1,1.7,2.81,-0.7240239761736459,-0.047870350882902514,0.4934099005185097,-0.2344316574208754,-1.148288,-12.422262
11.185,2.0,1.0,1.0,34.6,33.4,33.4,3.1,1.7,2.8125,-0.7314789036583085,-0.0415604000286276,0.4686990752802957,-0.24593290284810548,-1.222025,-12.06138
11.185,2.0,1.0,1.0,34.6,33.4,33.4,3.1,1.7,2.815,-0.7377916670274139,-0.03426490388422723,0.44304176441104715,-0.2580083031565459,-1.304031,-11.691396
11.185,2.0,1.0,1.0,34.6,33.4,33.4,3.1,1.7,2.8175,-0.7428018150854492,-0.025835254890688854,0.4164293501288366,-0.270664555897016,-1.395614,-11.311983
11.185,2.0,1.0,1.0,34.6,33.4,33.4,3.1,1.7,2.82,-0.7463239664239018,-0.01609838175375024,0.38886492139529577,-0.2838969027249232,-1.498346,-10.922845
11.185,2.0,1.0,1.0,34.6,33.4,33.4,3.1,1.7,2.8225,-0.7481439807392697,-0.0048529736822794526,0.3603684849498952,-0.29768394842218776,-1.614123,-10.523738
11.185,2.0,1.0,1.0,34.6,33.4,33.4,3.1,1.7,2.825,-0.7480149227244195,0.008134489855390201,0.3309840858691489,-0.3119805837123192,-1.74524,-10.114497
11.185,2.0,1.0,1.0,34.6,33.4,33.4,3.1,1.7,2.8275,-0.745653118169684,0.02313360236268048,0.3007894659061694,-0.3267083905228097,-1.894497,-9.695074
