1,w,sub_t,h,l1,l2,l3,g1,g2,Freq,S11_re,S21_re,S11_img,S21_img,S11_dB,S21_dB
11.185,2.0,1.0,1.0,34.8,33.6,33.6,3.3,3.4,2.5,0.643281134376229,-0.0123375940633883,0.754369771595798,0.0037507145699779,-0.074976,-37.791493
11.185,2.0,1.0,1.0,34.8,33.6,33.6,3.3,3.4,2.5025,0.6366694392829204,-0.012535376337148733,0.7598392977988422,0.003682558093955224,-0.075774,-37.677744
11.185,2.0,1.0,1.0,34.8,33.6,33.6,3.3,3.4,2.505,0.629973475440034,-0.012735686266995033,0.7652800083349308,0.003611212718726706,-0.076586,-37.563703
11.185,2.0,1.0,1.0,34.8,33.6,33.6,3.3,3.4,2.5075,0.6231925067389211,-0.012938543421114213,0.7706908725103152,0.003536584752798458,-0.077411,-37.449366
11.185,2.0,1.0,1.0,34.8,33.6,33.6,3.3,3.4,2.51,0.6163257944571632,-0.013143966849378245,0.7760708326203644,0.003458577829689732,-0.078251,-37.334729
11.185,2.0,1.0,1.0,34.8,33.6,33.6,3.3,3.4,2.5125,0.6093725975747487,-0.013351975035636158,0.7814188032801394,0.003377092831153108,-0.079105,-37.219785
11.185,2.0,1.0,1.0,34.8,33.6,33.6,3.3,3.4,2.515,0.6023321731098866,-0.013562585847390554,0.7867336707414431,0.00329202780829258,-0.079974,-37.10453
11.185,2.0,1.0,1.0,34.8,33.6,33.6,3.3,3.4,2.5175,0.5952037764753534,-0.013775816482731889,0.7920142921962522,0.003203277900531089,-0.080857,-36.988959
11.185,2.0,1.0,1.0,34.8,33.6,33.6,3.3,3.4,2.52,0.5879866618562671,-0.013991683414399676,0.7972594950664939,0.0031107352523772882,-0.081756,-36.873068
11.185,2.0,1.0,1.0,34.8,33.6,33.6,3.3,3.4,2.5225,0.5806800826102558,-0.014210202330831942,0.8024680762800908,0.003014288927941431,-0.082671,-36.75685
11.185,2.0,1.0,1.0,34.8,33.6,33.6,3.3,3.4,2.525,0.5732832916909807,-0.014431388074059904,0.8076388015332765,0.002913824823149304,-0.083601,-36.640302
11.185,2.0,1.0,1.0,34.8,33.6,33.6,3.3,3.4,2.5275,0.5657955420960363,-0.014655254574297318,0.8127704045391626,0.00280922557560246,-0.084548,-36.523417
11.185,2.0,1.0,1.0,34.8,33.6,33.6,3.3,3.4,2.53,0.5582160873402857,-0.014881814781067076,0.8178615862625659,0.0027003704720328834,-0.085512,-36.406191
11.185,2.0,1.0,1.0,34.8,33.6,33.6,3.3,3.4,2.5325,0.550544181955717,-0.015111080590701258,0.8229110141411397,0.0025871353532991,-0.086492,-36.288619
11.185,2.0,1.0,1.0,34.8,33.6,33.6,3.3,3.4,2.535,0.5427790820189445,-0.015343062770043138,0.8279173212928717,0.0024693925168705337,-0.08749,-36.170694
11.185,2.0,1.0,1.0,34.8,33.6,33.6,3.3,3.4,2.5375,0.5349200457075366,-0.01557777087617153,0.8328791057100237,0.0023470106167462006,-0.088506,-36.052413
11.185,2.0,1.0,1.0,34.8,33.6,33.6,3.3,3.4,2.54,0.5269663338863654,-0.01581521317196076,0.8377949294396413,0.0022198545607535506,-0.089539,-35.933768
11.185,2.0,1.0,1.0,34.8,33.6,33.6,3.3,3.4,2.5425,0.5189172107252353,-0.016055396537280456,0.842663317750775,0.0020877854051722343,-0.090592,-35.814756
11.185,2.0,1.0,1.0,34.8,33.6,33.6,3.3,3.4,2.545,0.5107719443490777,-0.01629832637563096,0.8474827582885884,0.0019506602466275666,-0.091663,-35.695371
11.185,2.0,1.0,1.0,34.8,33.6,33.6,3.3,3.4,2.5475,0.5025298075220574,-0.01654400651600062,0.8522517002155655,0.0018083321111979586,-0.092754,-35.575607
11.185,2.0,1.0,1.0,34.8,33.6,33.6,3.3,3.4,2.55,0.4941900783669481,-0.01679243910972275,0.8569685533400775,0.0016606498406793629,-0.093864,-35.455458
11.185,2.0,1.0,1.0,34.8,33.6,33.6,3.3,3.4,2.5525,0.4857520411212292,-0.017043624522098323,0.8616316872325798,0.001507457975950256,-0.094994,-35.334919
11.185,2.0,1.0,1.0,34.8,33.6,33.6,3.3,3.4,2.555,0.4772149869313462,-0.017297561218542187,0.8662394303297891,0.0013485966373793638,-0.096146,-35.213984
11.185,2.0,1.0,1.0,34.8,33.6,33.6,3.3,3.4,2.5575,0.46857821468665634,-0.017554245644998176,0.870790069027211,0.0011839014022179295,-0.097318,-35.092648
11.185,2.0,1.0,1.0,34.8,33.6,33.6,3.3,3.4,2.56,0.4598410318946276,-0.017813672102357618,0.8752818467604366,0.001013203178918176,-0.098512,-34.970904
11.185,2.0,1.0,1.0,34.8,33.6,33.6,3.3,3.4,2.5625,0.45100275559888886,-0.018075832614604156,0.8797129630756919,0.0008363280783183503,-0.099728,-34.848747
11.185,2.0,1.0,1.0,34.8,33.6,33.6,3.3,3.4,2.565,0.44206271334178215,-0.01834071679039524,0.8840815726901664,0.0006530972816341573,-0.100967,-34.72617
11.185,2.0,1.0,1.0,34.8,33.6,33.6,3.3,3.4,2.5675,0.4330202441731346,-0.018608311677777187,0.8883857845427036,0.00046332690519625624,-0.102229,-34.603169
11.185,2.0,1.0,1.0,34.8,33.6,33.6,3.3,3.4,2.57,0.42387469970698294,-0.018878601611718084,0.8926236608355055,0.000266827861871495,-0.103514,-34.479736
11.185,2.0,1.0,1.0,34.8,33.6,33.6,3.3,3.4,2.5725,0.4146254452280547,-0.019151568054127644,0.8967932160675574,6.340571910562961e-05,-0.104824,-34.355866
11.185,2.0,1.0,1.0,34.8,33.6,33.6,3.3,3.4,2.575,0.40527186084985095,-0.01942718942601883,0.9008924160605556,-0.0001471394464766246,-0.106159,-34.231551
11.185,2.0,1.0,1.0,34.8,33.6,33.6,3.3,3.4,2.5775,0.39581334272622665,-0.019705440931450015,0.9049191769781825,-0.00036501319797919117,-0.107518,-34.106787
11.185,2.0,1.0,1.0,34.8,33.6,33.6,3.3,3.4,2.58,0.38624930431841153,-0.019986294372870073,0.9088713643396538,-0.0005904268907161651,-0.108904,-33.981566
11.185,2.0,1.0,1.0,34.8,33.6,33.6,3.3,3.4,2.5825,0.3765791777194521,-0.02026971795747196,0.9127467920285477,-0.000823597828336189,-0.110317,-33.855882
11.185,2.0,1.0,1.0,34.8,33.6,33.6,3.3,3.4,2.585,0.3668024150381236,-0.020555676094141464,0.9165432212979916,-0.00106474942265951,-0.111756,-33.729728
11.185,2.0,1.0,1.0,34.8,33.6,33.6,3.3,3.4,2.5875,0.35691848984438085,-0.020844129180569392,0.9202583597733929,-0.001314111357300354,-0.113223,-33.603097
11.185,2.0,1.0,1.0,34.8,33.6,33.6,3.3,3.4,2.59,0.34692689867849186,-0.021135033380074733,0.9238898604539655,-0.0015719197551495954,-0.114719,-33.475984
11.185,2.0,1.0,1.0,34.8,33.6,33.6,3.3,3.4,2.5925,0.3368271626260108,-0.021428340387665834,0.9274353207144265,-0.0018384173497965088,-0.116244,-33.34838
11.185,2.0,1.0,1.0,34.8,33.6,33.6,3.3,3.4,2.595,0.32661882896082944,-0.021723997184842855,0.9308922813083101,-0.0021138536609704548,-0.117799,-33.220279
11.185,2.0,1.0,1.0,34.8,33.6,33.6,3.3,3.4,2.5975,0.31630147285854077,-0.02202194578262322,0.9342582253744799,-0.0023984851740889318,-0.119385,-33.091673
11.185,2.0,1.0,1.0,34.8,33.6,33.6,3.3,3.4,2.6,0.30587469918242755,-0.02232212295224439,0.9375305774485054,-0.002692575524002428,-0.121002,-32.962555
11.185,2.0,1.0,1.0,34.8,33.6,33.6,3.3,3.4,2.6025,0.29533814434442324,-0.022624459942973078,0.9407067024806919,-0.0029963956830312793,-0.122651,-32.832919
11.185,2.0,1.0,1.0,34.8,33.6,33.6,3.3,3.4,2.605,0.2846914782433972,-0.022928882186421532,0.9437839048626824,-0.0033102241533971765,-0.124333,-32.702755
11.185,2.0,1.0,1.0,34.8,33.6,33.6,3.3,3.4,2.6075,0.273934406283193,-0.023235308986741157,0.9467594274646488,-0.0036343471641582335,-0.126048,-32.572057
11.185,2.0,1.0,1.0,34.8,33.6,33.6,3.3,3.4,2.61,0.26306667147285734,-0.023543653196031886,0.9496304506852441,-0.003969058872764256,-0.127798,-32.440817
11.185,2.0,1.0,1.0,34.8,33.6,33.6,3.3,3.4,2.6125,0.25208805661152467,-0.023853820874271642,0.9523940915165983,-0.004314661571359268,-0.129584,-32.309026
11.185,2.0,1.0,1.0,34.8,33.6,33.6,3.3,3.4,2.615,0.24099838656045175,-0.02416571093303406,0.9550474026267954,-0.004671465897968021,-0.131406,-32.176677
11.185,2.0,1.0,1.0,34.8,33.6,33.6,3.3,3.4,2.6175,0.22979753060473465,-0.024479214762222527,0.9575873714623936,-0.005039791052714948,-0.133266,-32.043762
11.185,2.0,1.0,1.0,34.8,33.6,33.6,3.3,3.4,2.62,0.21848540490723392,-0.02479421583900806,0.9600109193737075,-0.005419965019238817,-0.135163,-31.91027
11.185,2.0,1.0,1.0,34.8,33.6,33.6,3.3,3.4,2.6225,0.20706197505725865,-0.02511058931811257,0.9623149007657205,-0.0058123247914806395,-0.1371,-31.776195
11.185,2.0,1.0,1.0,34.8,33.6,33.6,3.3,3.4,2.625,0.195527258716595,-0.0254282016025306,0.964496102277634,-0.00621721660604001,-0.139077,-31.641527
11.185,2.0,1.0,1.0,34.8,33.6,33.6,3.3,3.4,2.6275,0.18388132836541776,-0.025746909893731205,0.9665512419942445,-0.006634996180315713,-0.141095,-31.506257
11.185,2.0,1.0,1.0,34.8,33.6,33.6,3.3,3.4,2.63,0.17212431415068674,-0.026066561720323865,0.9684769686924661,-0.0070660289566676845,-0.143156,-31.370376
11.185,2.0,1.0,1.0,34.8,33.6,33.6,3.3,3.4,2.6325,0.16025640683957793,-0.02638699444411215,0.9702698611265067,-0.007510690352862832,-0.14526,-31.233873
11.185,2.0,1.0,1.0,34.8,33.6,33.6,3.3,3.4,2.635,0.14827786088052217,-0.026708034742391935,0.9719264273553508,-0.007969366019095928,-0.147409,-31.096741
11.185,2.0,1.0,1.0,34.8,33.6,33.6,3.3,3.4,2.6375,0.13618899757440453,-0.02702949806527824,0.9734431041163811,-0.008442452101907114,-0.149604,-30.958967
11.185,2.0,1.0,1.0,34.8,33.6,33.6,3.3,3.4,2.64,0.12399020835843537,-0.02735118806676792,0.9748162562491288,-0.008930355515355353,-0.151846,-30.820543
11.185,2.0,1.0,1.0,34.8,33.6,33.6,3.3,3.4,2.6425,0.11168195820522142,-0.02767289600815697,0.9760421761733175,-0.009433494219844622,-0.154136,-30.681457
11.185,2.0,1.0,1.0,34.8,33.6,33.6,3.3,3.4,2.645,0.09926478913950525,-0.027994400132339687,0.9771170834255252,-0.009952297509045416,-0.156477,-30.541698
11.185,2.0,1.0,1.0,34.8,33.6,33.6,3.3,3.4,2.6475,0.08673932387502004,-0.028315465007412353,0.9780371242589578,-0.010487206305403495,-0.158868,-30.401256
11.185,2.0,1.0,1.0,34.8,33.6,33.6,3.3,3.4,2.65,0.07410626957384864,-0.028635840837893074,0.978798371310991,-0.011038673464784073,-0.161312,-30.260119
11.185,2.0,1.0,1.0,34.8,33.6,33.6,3.3,3.4,2.6525,0.061366421730686654,-0.02895526274174283,0.9793968233432908,-0.01160716409085853,-0.163809,-30.118276
11.185,2.0,1.0,1.0,34.8,33.6,33.6,3.3,3.4,2.655,0.04852066818427318,-0.0292734499912391,0.9798284050594863,-0.012193155859913837,-0.166363,-29.975713
11.185,2.0,1.0,1.0,34.8,33.6,33.6,3.3,3.4,2.6575,0.03556999325828674,-0.029590105215600716,0.9800889670054982,-0.012797139356837132,-0.168973,-29.832419
11.185,2.0,1.0,1.0,34.8,33.6,33.6,3.3,3.4,2.66,0.0225154820338897,-0.02990491356309687,0.9801742855577871,-0.013419618423114696,-0.171643,-29.68838
11.185,2.0,1.0,1.0,34.8,33.6,33.6,3.3,3.4,2.6625,0.009358324756091442,-0.03021754182018918,0.980080063004896,-0.014061110517777337,-0.174373,-29.543584
11.185,2.0,1.0,1.0,34.8,33.6,33.6,3.3,3.4,2.665,-0.0039001786240066578,-0.03052763748505213,0.9798019277277832,-0.014722147092329845,-0.177165,-29.398016
11.185,2.0,1.0,1.0,34.8,33.6,33.6,3.3,3.4,2.6675,-0.017258613769013824,-0.030834827792589652,0.9793354344845534,-0.015403273980814144,-0.180022,-29.251662
11.185,2.0,1.0,1.0,34.8,33.6,33.6,3.3,3.4,2.67,-0.030715447135145152,-0.031138718687815786,0.9786760648052663,-0.016105051806285246,-0.182945,-29.104508
11.185,2.0,1.0,1.0,34.8,33.6,33.6,3.3,3.4,2.6725,-0.04426902101026927,-0.03143889374418707,0.9778192275025771,-0.01682805640511892,-0.185936,-28.956537
11.185,2.0,1.0,1.0,34.8,33.6,33.6,3.3,3.4,2.675,-0.05791754840820312,-0.03173491302316221,0.9767602593040122,-0.017572879270722,-0.188998,-28.807736
11.185,2.0,1.0,1.0,34.8,33.6,33.6,3.3,3.4,2.6775,-0.07165910781740098,-0.03202631187091863,0.9754944256116954,-0.01834012801838938,-0.192131,-28.658086
11.185,2.0,1.0,1.0,34.8,33.6,33.6,3.3,3.4,2.68,-0.08549163780218819,-0.032312599647766914,0.9740169213953318,-0.019130426873236427,-0.19534,-28.507571
11.185,2.0,1.0,1.0,34.8,33.6,33.6,3.3,3.4,2.6825,-0.09941293145466912,-0.03259325838537111,0.9723228722242326,-0.0199444171833414,-0.198626,-28.356173
11.185,2.0,1.0,1.0,34.8,33.6,33.6,3.3,3.4,2.685,-0.11342063069544261,-0.03286774136639862,0.9704073354440699,-0.02078275796045819,-0.201992,-28.203875
11.185,2.0,1.0,1.0,34.8,33.6,33.6,3.3,3.4,2.6875,-0.127512220421169,-0.0331354716206803,0.968265301503946,-0.0216461264509061,-0.20544,-28.050656
11.185,2.0,1.0,1.0,34.8,33.6,33.6,3.3,3.4,2.69,-0.1416850224969302,-0.03339584033135302,0.9658916954392105,-0.022535218739512742,-0.208973,-27.896498
11.185,2.0,1.0,1.0,34.8,33.6,33.6,3.3,3.4,2.6925,-0.15593618959121952,-0.03364820514377485,0.9632813785152409,-0.02345075038978388,-0.212595,-27.74138
11.185,2.0,1.0,1.0,34.8,33.6,33.6,3.3,3.4,2.695,-0.1702626988511225,-0.03389188836923546,0.9604291500371526,-0.024393457123792324,-0.216307,-27.58528
11.185,2.0,1.0,1.0,34.8,33.6,33.6,3.3,3.4,2.6975,-0.1846613454150679,-0.034126175074623996,0.9573297493300817,-0.02536409554563509,-0.220113,-27.428176
11.185,2.0,1.0,1.0,34.8,33.6,33.6,3.3,3.4,2.7,-0.19912873576008694,-0.03435031104824547,0.9539778578943154,-0.026363443912684425,-0.224017,-27.270045
11.185,2.0,1.0,1.0,34.8,33.6,33.6,3.3,3.4,2.7025,-0.21366128088015157,-0.034563500630886014,0.9503681017390802,-0.027392302959280097,-0.228021,-27.110862
11.185,2.0,1.0,1.0,34.8,33.6,33.6,3.3,3.4,2.705,-0.22825518929153055,-0.03476490439999578,0.9464950538982869,-0.02845149677795618,-0.23213,-26.950603
11.185,2.0,1.0,1.0,34.8,33.6,33.6,3.3,3.4,2.7075,-0.24290645986046835,-0.0349536366934699,0.9423532371309277,-0.029541873763789497,-0.236348,-26.78924
11.185,2.0,1.0,1.0,34.8,33.6,33.6,3.3,3.4,2.71,-0.2576108744475879,-0.03512876295793962,0.9379371268081182,-0.030664307627980236,-0.240678,-26.626746
11.185,2.0,1.0,1.0,34.8,33.6,33.6,3.3,3.4,2.7125,-0.27236399036242664,-0.03528929690471337,0.9332411539880108,-0.03181969848734989,-0.245125,-26.463092
11.185,2.0,1.0,1.0,34.8,33.6,33.6,3.3,3.4,2.715,-0.2871611326202329,-0.035434197454502,0.9282597086789103,-0.03300897403704965,-0.249693,-26.298248
11.185,2.0,1.0,1.0,34.8,33.6,33.6,3.3,3.4,2.7175,-0.30199738599167614,-0.03556236544979154,0.9229871432899422,-0.03423309081443498,-0.254387,-26.132182
11.185,2.0,1.0,1.0,34.8,33.6,33.6,3.3,3.4,2.72,-0.31686758683429744,-0.035672640111152835,0.9174177762675315,-0.03549303556275986,-0.259212,-25.964861
11.185,2.0,1.0,1.0,34.8,33.6,33.6,3.3,3.4,2.7225,-0.3317663146924647,-0.035763795210855605,0.9115458959147258,-0.03678982670409939,-0.264174,-25.79625
11.185,2.0,1.0,1.0,34.8,33.6,33.6,3.3,3.4,2.725,-0.346687883649977,-0.035834534933837446,0.905365764389084,-0.038124515931695975,-0.269278,-25.626312
11.185,2.0,1.0,1.0,34.8,33.6,33.6,3.3,3.4,2.7275,-0.3616263334166092,-0.03588348939230447,0.8988716218733765,-0.039498189932771564,-0.274529,-25.455009
11.185,2.0,1.0,1.0,34.8,33.6,33.6,3.3,3.4,2.73,-0.3765754201262587,-0.035909209755945436,0.892057690911782,-0.04091197225371793,-0.279935,-25.282301
11.185,2.0,1.0,1.0,34.8,33.6,33.6,3.3,3.4,2.7325,-0.39152860682035,-0.03591016295484622,0.8849181809025565,-0.04236702532049906,-0.285503,-25.108146
11.185,2.0,1.0,1.0,34.8,33.6,33.6,3.3,3.4,2.735,-0.4064790535852422,-0.03588472590660576,0.8774472927363283,-0.043864552628035916,-0.291238,-24.932498
11.185,2.0,1.0,1.0,34.8,33.6,33.6,3.3,3.4,2.7375,-0.42141960730679184,-0.0358311792127728,0.8696392235672228,-0.045405801113306825,-0.29715,-24.755312
11.185,2.0,1.0,1.0,34.8,33.6,33.6,3.3,3.4,2.74,-0.43634279099858375,-0.03574770026242325,0.8614881717020052,-0.04699206372785412,-0.303247,-24.576537
11.185,2.0,1.0,1.0,34.8,33.6,33.6,3.3,3.4,2.7425,-0.45124079265265976,-0.03563235567233595,0.8529883415902519,-0.04862468222633346,-0.309536,-24.396121
11.185,2.0,1.0,1.0,34.8,33.6,33.6,3.3,3.4,2.745,-0.4661054535525507,-0.035483092983632274,0.8441339488964046,-0.0503050501886321,-0.316028,-24.214011
11.185,2.0,1.0,1.0,34.8,33.6,33.6,3.3,3.4,2.7475,-0.4809282559779354,-0.035297731523728275,0.8349192256323112,-0.05203461629389681,-0.322732,-24.030148
11.185,2.0,1.0,1.0,34.8,33.6,33.6,3.3,3.4,2.75,-0.495700310218017,-0.0350739523297711,0.825338425326628,-0.0538148878654906,-0.32966,-23.844472
11.185,2.0,1.0,1.0,34.8,33.6,33.6,3.3,3.4,2.7525,-0.5104123407964477,-0.03480928701512895,0.8153858282053393,-0.05564743470637803,-0.336823,-23.656917
11.185,2.0,1.0,1.0,34.8,33.6,33.6,3.3,3.4,2.755,-0.5250546717939744,-0.034501105443648566,0.8050557463556252,-0.05753389324464401,-0.344234,-23.467416
11.185,2.0,1.0,1.0,34.8,33.6,33.6,3.3,3.4,2.7575,-0.5396172111356718,-0.03414660205691248,0.7943425288435831,-0.059475971008674564,-0.351905,-23.275898
11.185,2.0,1.0,1.0,34.8,33.6,33.6,3.3,3.4,2.76,-0.5540894336869117,-0.0337427806771719,0.7832405667549646,-0.061475451450813345,-0.359852,-23.082286
11.185,2.0,1.0,1.0,34.8,33.6,33.6,3.3,3.4,2.7625,-0.5684603629759125,-0.03328643758246397,0.7717442981273024,-0.06353419913690851,-0.368091,-22.8865
11.185,2.0,1.0,1.0,34.8,33.6,33.6,3.3,3.4,2.765,-0.5827185513298254,-0.032774142620019354,0.7598482127418378,-0.06565416531681528,-0.376637,-22.688454
11.185,2.0,1.0,1.0,34.8,33.6,33.6,3.3,3.4,2.7675,-0.5968520581752723,-0.03220221808867183,0.7475468567447823,-0.06783739388734267,-0.385511,-22.48806
11.185,2.0,1.0,1.0,34.8,33.6,33.6,3.3,3.4,2.77,-0.6108484262120746,-0.03156671507969857,0.7348348370700459,-0.07008602775394478,-0.394731,-22.285221
11.185,2.0,1.0,1.0,34.8,33.6,33.6,3.3,3.4,2.7725,-0.6246946551194413,-0.030863386917279412,0.7217068256401907,-0.07240231559014018,-0.40432,-22.079837
11.185,2.0,1.0,1.0,34.8,33.6,33.6,3.3,3.4,2.775,-0.638377172395857,-0.03008765928327956,0.708157563329568,-0.07478861898358484,-0.414301,-21.871799
11.185,2.0,1.0,1.0,34.8,33.6,33.6,3.3,3.4,2.7775,-0.6518818008657573,-0.029234596544792758,0.6941818636843121,-0.07724741994406881,-0.424701,-21.660994
11.185,2.0,1.0,1.0,34.8,33.6,33.6,3.3,3.4,2.78,-0.6651937223058073,-0.028298863724982422,0.6797746164091004,-0.07978132873040392,-0.435548,-21.447301
11.185,2.0,1.0,1.0,34.8,33.6,33.6,3.3,3.4,2.7825,-0.6782974365490073,-0.027274683466001513,0.6649307906518076,-0.08239309192879547,-0.446874,-21.230591
11.185,2.0,1.0,1.0,34.8,33.6,33.6,3.3,3.4,2.785,-0.6911767153132093,-0.026155787224464887,0.6496454381461092,-0.08508560068308497,-0.458712,-21.010728
11.185,2.0,1.0,1.0,34.8,33.6,33.6,3.3,3.4,2.7875,-0.7038145498684483,-0.024935359811869225,0.6339136963112796,-0.08786189893478935,-0.4711,-20.787566
11.185,2.0,1.0,1.0,34.8,33.6,33.6,3.3,3.4,2.79,-0.7161930915010469,-0.02360597624056983,0.61773079146074,-0.09072519147514178,-0.484081,-20.56095
11.185,2.0,1.0,1.0,34.8,33.6,33.6,3.3,3.4,2.7925,-0.7282935835465678,-0.02215952965572431,0.6010920423406506,-0.09367885153827475,-0.497699,-20.330715
11.185,2.0,1.0,1.0,34.8,33.6,33.6,3.3,3.4,2.795,-0.740096283542861,-0.020587148919255643,0.5839928643120773,-0.09672642756905778,-0.512008,-20.096686
11.185,2.0,1.0,1.0,34.8,33.6,33.6,3.3,3.4,2.7975,-0.7515803737912179,-0.01887910415648132,0.56642877461226,-0.09987164867390501,-0.527062,-19.858674
11.185,2.0,1.0,1.0,34.8,33.6,33.6,3.3,3.4,2.8,-0.7627238582998724,-0.017024698271211784,0.5483953992911934,-0.10311842809903152,-0.542926,-19.616481
11.185,2.0,1.0,1.0,34.8,33.6,33.6,3.3,3.4,2.8025,-0.7735034437090131,-0.01501214207078956,0.5298884826315932,-0.10647086386595707,-0.55967,-19.369892
11.185,2.0,1.0,1.0,34.8,33.6,33.6,3.3,3.4,2.805,-0.7838944013480375,-0.01282841020657476,0.5109039001394498,-0.10993323541251708,-0.577373,-19.11868
11.185,2.0,1.0,1.0,34.8,33.6,33.6,3.3,3.4,2.8075,-0.7938704070388416,-0.01045907461325801,0.49143767656031556,-0.11350999471780047,-0.596124,-18.862601
11.185,2.0,1.0,1.0,34.8,33.6,33.6,3.3,3.4,2.81,-0.8034033546159004,-0.007888111504814653,0.47148601086226066,-0.11720574990266183,-0.616024,-18.601395
11.185,2.0,1.0,1.0,34.8,33.6,33.6,3.3,3.4,2.8125,-0.812463138363633,-0.00509767723551988,0.451045310768764,-0.121025238655365,-0.637184,-18.334783
11.185,2.0,1.0,1.0,34.8,33.6,33.6,3.3,3.4,2.815,-0.8210173986498519,-0.0020678474374957595,0.43011224027574146,-0.12497328798287109,-0.659734,-18.062467
11.185,2.0,1.0,1.0,34.8,33.6,33.6,3.3,3.4,2.8175,-0.8290312239328229,0.0012236872252228493,0.4086837847171552,-0.12905475566246521,-0.683819,-17.784129
11.185,2.0,1.0,1.0,34.8,33.6,33.6,3.3,3.4,2.82,-0.836466801007882,0.00480197662194756,0.38675733944855106,-0.13327444727133433,-0.709604,-17.499428
11.185,2.0,1.0,1.0,34.8,33.6,33.6,3.3,3.4,2.8225,-0.843283003805045,0.008695227487067782,0.3643308302275769,-0.13763700067476622,-0.73728,-17.207997
11.185,2.0,1.0,1.0,34.8,33.6,33.6,3.3,3.4,2.825,-0.8494349092204738,0.012935291741615595,0.34140287606232417,-0.1421467271815215,-0.767064,-16.909447
11.185,2.0,1.0,1.0,34.8,33.6,33.6,3.3,3.4,2.8275,-0.8548732263380484,0.017558240091023483,0.31797300891500874,-0.14680739498779616,-0.79921,-16.603359
