1,w,sub_t,h,l1,l2,l3,g1,g2,Freq,S11_re,S21_re,S11_img,S21_img,S11_dB,S21_dB
11.185,2.0,1.0,1.0,34.0,33.0,33.0,3.4,3.3,2.5,0.786064047244998,-0.00771944084428577,0.607204619551606,0.00433916773466943,-0.058615,-41.055834
11.185,2.0,1.0,1.0,34.0,33.0,33.0,3.4,3.3,2.5025,0.7816148641155621,-0.007854520643065119,0.6128212324814816,0.004330589814283721,-0.059154,-40.944874
11.185,2.0,1.0,1.0,34.0,33.0,33.0,3.4,3.3,2.505,0.7771044423967839,-0.00799156198448386,0.6184301935785299,0.004320680263402633,-0.059702,-40.833706
11.185,2.0,1.0,1.0,34.0,33.0,33.0,3.4,3.3,2.5075,0.7725321987149515,-0.008130591886538044,0.6240310735432065,0.004309397053261736,-0.060259,-40.722323
11.185,2.0,1.0,1.0,34.0,33.0,33.0,3.4,3.3,2.51,0.7678975424699466,-0.008271637684559761,0.6296234310799141,0.004296696888257732,-0.060824,-40.610722
11.185,2.0,1.0,1.0,34.0,33.0,33.0,3.4,3.3,2.5125,0.763199875801778,-0.008414727029073,0.6352068125513136,0.004282535165373557,-0.061399,-40.498897
11.185,2.0,1.0,1.0,34.0,33.0,33.0,3.4,3.3,2.515,0.7584385935604478,-0.008559887883184413,0.6407807516230367,0.00426686593223836,-0.061984,-40.386842
11.185,2.0,1.0,1.0,34.0,33.0,33.0,3.4,3.3,2.5175,0.7536130832793986,-0.008707148519477782,0.6463447688985338,0.0042496418437728,-0.062578,-40.274552
11.185,2.0,1.0,1.0,34.0,33.0,33.0,3.4,3.3,2.52,0.748722725152767,-0.008856537516377693,0.6518983715438136,0.004230814117371923,-0.063182,-40.162022
11.185,2.0,1.0,1.0,34.0,33.0,33.0,3.4,3.3,2.5225,0.7437668920167325,-0.009008083753949804,0.6574410529017887,0.004210332486570752,-0.063795,-40.049246
11.185,2.0,1.0,1.0,34.0,33.0,33.0,3.4,3.3,2.525,0.7387449493352131,-0.009161816409098175,0.6629722920959771,0.004188145153143468,-0.064419,-39.936219
11.185,2.0,1.0,1.0,34.0,33.0,33.0,3.4,3.3,2.5275,0.7336562551901983,-0.009317764950122428,0.6684915536232791,0.004164198737576499,-0.065054,-39.822936
11.185,2.0,1.0,1.0,34.0,33.0,33.0,3.4,3.3,2.53,0.7285001602770331,-0.009475959130592418,0.6739982869355373,0.004138438227861256,-0.065699,-39.709391
11.185,2.0,1.0,1.0,34.0,33.0,33.0,3.4,3.3,2.5325,0.7232760079049594,-0.009636428982497258,0.679491926009612,0.004110806926545365,-0.066354,-39.595579
11.185,2.0,1.0,1.0,34.0,33.0,33.0,3.4,3.3,2.535,0.7179831340032465,-0.009799204808621925,0.6849718889056646,0.004081246395980995,-0.067021,-39.481494
11.185,2.0,1.0,1.0,34.0,33.0,33.0,3.4,3.3,2.5375,0.7126208671332732,-0.009964317174103395,0.6904375773133624,0.004049696401706897,-0.067699,-39.36713
11.185,2.0,1.0,1.0,34.0,33.0,33.0,3.4,3.3,2.54,0.7071885285069152,-0.0101317968971139,0.6958883760856972,0.004016094853896702,-0.068389,-39.252482
11.185,2.0,1.0,1.0,34.0,33.0,33.0,3.4,3.3,2.5425,0.7016854320116288,-0.010301675038617845,0.7013236527601134,0.003980377746805569,-0.06909,-39.137544
11.185,2.0,1.0,1.0,34.0,33.0,33.0,3.4,3.3,2.545,0.6961108842426342,-0.010473982891143485,0.7067427570666357,0.003942479096144206,-0.069803,-39.022311
11.185,2.0,1.0,1.0,34.0,33.0,33.0,3.4,3.3,2.5475,0.6904641845426284,-0.010648751966510227,0.7121450204226696,0.0039023308743050137,-0.070529,-38.906776
11.185,2.0,1.0,1.0,34.0,33.0,33.0,3.4,3.3,2.55,0.6847446250494564,-0.010826013982445511,0.7175297554141696,0.0038598629433648033,-0.071267,-38.790935
11.185,2.0,1.0,1.0,34.0,33.0,33.0,3.4,3.3,2.5525,0.6789514907522323,-0.011005800848024598,0.7228962552628286,0.003815002985784274,-0.072017,-38.674781
11.185,2.0,1.0,1.0,34.0,33.0,33.0,3.4,3.3,2.555,0.6730840595563764,-0.011188144647861234,0.728243793278975,0.003767676432721865,-0.072781,-38.558308
11.185,2.0,1.0,1.0,34.0,33.0,33.0,3.4,3.3,2.5575,0.6671416023580901,-0.011373077624973372,0.7335716222998337,0.00371780638987573,-0.073558,-38.441511
11.185,2.0,1.0,1.0,34.0,33.0,33.0,3.4,3.3,2.56,0.6611233831288109,-0.011560632162243558,0.7388789741128158,0.003665313560766959,-0.074349,-38.324383
11.185,2.0,1.0,1.0,34.0,33.0,33.0,3.4,3.3,2.5625,0.655028659010203,-0.011750840762390274,0.7441650588634892,0.0036101161673693666,-0.075153,-38.206919
11.185,2.0,1.0,1.0,34.0,33.0,33.0,3.4,3.3,2.565,0.6488566804202739,-0.011943736026360433,0.749429064447895,0.003552129867993102,-0.075972,-38.089112
11.185,2.0,1.0,1.0,34.0,33.0,33.0,3.4,3.3,2.5675,0.6426066911712437,-0.012139350630048196,0.7546701558888469,0.0034912676723206355,-0.076805,-37.970956
11.185,2.0,1.0,1.0,34.0,33.0,33.0,3.4,3.3,2.57,0.6362779285998038,-0.012337717299241498,0.7598874746958735,0.0034274398534950975,-0.077653,-37.852446
11.185,2.0,1.0,1.0,34.0,33.0,33.0,3.4,3.3,2.5725,0.6298696237104464,-0.012538868782690499,0.765080138208447,0.0033605538571506665,-0.078516,-37.733574
11.185,2.0,1.0,1.0,34.0,33.0,33.0,3.4,3.3,2.575,0.6233810013325743,-0.012742837823186462,0.7702472389221425,0.0032905142072781985,-0.079395,-37.614336
11.185,2.0,1.0,1.0,34.0,33.0,33.0,3.4,3.3,2.5775,0.6168112802921343,-0.012949657126534354,0.775387843797368,0.0032172224088084928,-0.08029,-37.494723
11.185,2.0,1.0,1.0,34.0,33.0,33.0,3.4,3.3,2.58,0.6101596735985505,-0.013159359328294292,0.780500993550314,0.0031405768467951704,-0.0812,-37.374731
11.185,2.0,1.0,1.0,34.0,33.0,33.0,3.4,3.3,2.5825,0.6034253886477664,-0.013371976958161474,0.7855857019257656,0.0030604726820729583,-0.082128,-37.254352
11.185,2.0,1.0,1.0,34.0,33.0,33.0,3.4,3.3,2.585,0.5966076274422539,-0.013587542401845648,0.7906409549514105,0.0029768017432626696,-0.083072,-37.13358
11.185,2.0,1.0,1.0,34.0,33.0,33.0,3.4,3.3,2.5875,0.5897055868288649,-0.013806087860304076,0.795665710173309,0.0028894524149904927,-0.084033,-37.012408
11.185,2.0,1.0,1.0,34.0,33.0,33.0,3.4,3.3,2.59,0.5827184587554707,-0.014027645306173196,0.8006588958721444,0.0027983095221812094,-0.085013,-36.89083
11.185,2.0,1.0,1.0,34.0,33.0,33.0,3.4,3.3,2.5925,0.5756454305473436,-0.014252246437236554,0.8056194102599333,0.0027032542102822217,-0.08601,-36.768839
11.185,2.0,1.0,1.0,34.0,33.0,33.0,3.4,3.3,2.595,0.5684856852043152,-0.014479922626754734,0.8105461206568251,0.002604163821268895,-0.087026,-36.646428
11.185,2.0,1.0,1.0,34.0,33.0,33.0,3.4,3.3,2.5975,0.561238401719753,-0.014710704870476867,0.815437862647666,0.0025009117652754665,-0.088061,-36.52359
11.185,2.0,1.0,1.0,34.0,33.0,33.0,3.4,3.3,2.6,0.5539027554224702,-0.014944623730139828,0.8202934392179869,0.0023933673876891464,-0.089115,-36.400318
11.185,2.0,1.0,1.0,34.0,33.0,33.0,3.4,3.3,2.6025,0.5464779183427371,-0.015181709273252063,0.8251116198690825,0.0022813958315396708,-0.090189,-36.276606
11.185,2.0,1.0,1.0,34.0,33.0,33.0,3.4,3.3,2.605,0.5389630596035803,-0.015421991008946543,0.8298911397118711,0.0021648578950106442,-0.091284,-36.152445
11.185,2.0,1.0,1.0,34.0,33.0,33.0,3.4,3.3,2.6075,0.5313573458386491,-0.015665497819675512,0.8346306985392155,0.002043609883888193,-0.092399,-36.02783
11.185,2.0,1.0,1.0,34.0,33.0,33.0,3.4,3.3,2.61,0.5236599416379589,-0.015912257888506025,0.8393289598764132,0.0019175034587600205,-0.093536,-35.902752
11.185,2.0,1.0,1.0,34.0,33.0,33.0,3.4,3.3,2.6125,0.5158700100228867,-0.016162298621763025,0.8439845500095586,0.001786385476766546,-0.094694,-35.777204
11.185,2.0,1.0,1.0,34.0,33.0,33.0,3.4,3.3,2.615,0.507986712951841,-0.01641564656675013,0.8485960569915254,0.0016500978276986413,-0.095875,-35.651178
11.185,2.0,1.0,1.0,34.0,33.0,33.0,3.4,3.3,2.6175,0.5000092118581201,-0.01667232732426346,0.8531620296252833,0.0015084772642303705,-0.097079,-35.524668
11.185,2.0,1.0,1.0,34.0,33.0,33.0,3.4,3.3,2.62,0.4919366682215021,-0.016932365455599403,0.8576809764243313,0.0013613552260604905,-0.098307,-35.397664
11.185,2.0,1.0,1.0,34.0,33.0,33.0,3.4,3.3,2.6225,0.4837682441751859,-0.01719578438373587,0.8621513645500292,0.0012085576577343942,-0.099558,-35.270161
11.185,2.0,1.0,1.0,34.0,33.0,33.0,3.4,3.3,2.625,0.4755031031498,-0.0174626062883517,0.866571618725603,0.00104990481990147,-0.100834,-35.142148
11.185,2.0,1.0,1.0,34.0,33.0,33.0,3.4,3.3,2.6275,0.4671404105562118,-0.017732851994327527,0.8709401201266851,0.0008852110937572188,-0.102135,-35.013619
11.185,2.0,1.0,1.0,34.0,33.0,33.0,3.4,3.3,2.63,0.4586793345089951,-0.018006540853351193,0.8752552052482164,0.0007142847784050442,-0.103463,-34.884566
11.185,2.0,1.0,1.0,34.0,33.0,33.0,3.4,3.3,2.6325,0.45011904659245877,-0.018283690618227245,0.8795151647475945,0.0005369278808639513,-0.104816,-34.754979
11.185,2.0,1.0,1.0,34.0,33.0,33.0,3.4,3.3,2.635,0.4414587226712278,-0.018564317309469145,0.8837182422639913,0.0003529358984335551,-0.106197,-34.624851
11.185,2.0,1.0,1.0,34.0,33.0,33.0,3.4,3.3,2.6375,0.4326975437474608,-0.01884843507372478,0.8878626332137648,0.0001620975931157025,-0.107606,-34.494173
11.185,2.0,1.0,1.0,34.0,33.0,33.0,3.4,3.3,2.64,0.4238346968668304,-0.01913605603356178,0.8919464835619682,-3.5805242221575093e-05,-0.109044,-34.362936
11.185,2.0,1.0,1.0,34.0,33.0,33.0,3.4,3.3,2.6425,0.4148693760755466,-0.019427190128108344,0.8959678885699556,-0.00024099802626625683,-0.11051,-34.231132
11.185,2.0,1.0,1.0,34.0,33.0,33.0,3.4,3.3,2.645,0.4058007834307194,-0.019721844944017818,0.8999248915191707,-0.00045371364061725847,-0.112007,-34.098751
11.185,2.0,1.0,1.0,34.0,33.0,33.0,3.4,3.3,2.6475,0.39662813006651226,-0.020020025536189916,0.903815482411205,-0.0006741926904319857,-0.113535,-33.965785
11.185,2.0,1.0,1.0,34.0,33.0,33.0,3.4,3.3,2.65,0.3873506373185747,-0.02032173423764956,0.9076375966443091,-0.0009026837747450652,-0.115095,-33.832224
11.185,2.0,1.0,1.0,34.0,33.0,33.0,3.4,3.3,2.6525,0.3779675379094107,-0.020626970457946463,0.9113891136665395,-0.0011394437668588503,-0.116687,-33.698059
11.185,2.0,1.0,1.0,34.0,33.0,33.0,3.4,3.3,2.655,0.3684780771973545,-0.020935730469399047,0.9150678556058474,-0.0013847381052196602,-0.118312,-33.56328
11.185,2.0,1.0,1.0,34.0,33.0,33.0,3.4,3.3,2.6575,0.358881514492012,-0.02124800718046553,0.9186715858773996,-0.0016388410952225723,-0.119972,-33.427877
11.185,2.0,1.0,1.0,34.0,33.0,33.0,3.4,3.3,2.66,0.34917712443907223,-0.021563789895478955,0.9221980077685593,-0.0019020362224048048,-0.121667,-33.29184
11.185,2.0,1.0,1.0,34.0,33.0,33.0,3.4,3.3,2.6625,0.33936419847754595,-0.021883064059934784,0.9256447630019684,-0.0021746164775151605,-0.123399,-33.15516
11.185,2.0,1.0,1.0,34.0,33.0,33.0,3.4,3.3,2.665,0.3294420463725608,-0.02220581099047053,0.9290094302772757,-0.0024568846939737724,-0.125167,-33.017826
11.185,2.0,1.0,1.0,34.0,33.0,33.0,3.4,3.3,2.6675,0.3194099978270064,-0.022532007588617283,0.9322895237921303,-0.0027491538982613696,-0.126974,-32.879827
11.185,2.0,1.0,1.0,34.0,33.0,33.0,3.4,3.3,2.67,0.3092674041753993,-0.022861626037348298,0.9354824917431244,-0.0030517476738110482,-0.128819,-32.741152
11.185,2.0,1.0,1.0,34.0,33.0,33.0,3.4,3.3,2.6725,0.29901364016348836,-0.023194633479383196,0.9385857148074728,-0.003365000539008003,-0.130706,-32.601791
11.185,2.0,1.0,1.0,34.0,33.0,33.0,3.4,3.3,2.675,0.2886481058172348,-0.02353099167613822,0.941596504606316,-0.0036892583399351355,-0.132633,-32.461733
11.185,2.0,1.0,1.0,34.0,33.0,33.0,3.4,3.3,2.6775,0.2781702284049422,-0.023870656646140773,0.9445121021505921,-0.004024878658542905,-0.134603,-32.320965
11.185,2.0,1.0,1.0,34.0,33.0,33.0,3.4,3.3,2.68,0.2675794644964287,-0.024213578281644103,0.947329676270578,-0.004372231236963329,-0.136618,-32.179477
11.185,2.0,1.0,1.0,34.0,33.0,33.0,3.4,3.3,2.6825,0.256875302123299,-0.02455969994209468,0.9500463220302516,-0.004731698418728764,-0.138677,-32.037256
11.185,2.0,1.0,1.0,34.0,33.0,33.0,3.4,3.3,2.685,0.24605726304448877,-0.024908958023010592,0.9526590591277732,-0.005103675607709586,-0.140782,-31.89429
11.185,2.0,1.0,1.0,34.0,33.0,33.0,3.4,3.3,2.6875,0.235124905121398,-0.0252612814987306,0.955164830283505,-0.00548857174563108,-0.142936,-31.750566
11.185,2.0,1.0,1.0,34.0,33.0,33.0,3.4,3.3,2.69,0.22407782480713198,-0.025616591437380987,0.9575604996170565,-0.005886809809091719,-0.145138,-31.606073
11.185,2.0,1.0,1.0,34.0,33.0,33.0,3.4,3.3,2.6925,0.21291565975443238,-0.025974800486295486,0.9598428510150392,-0.006298827327061173,-0.147391,-31.460795
11.185,2.0,1.0,1.0,34.0,33.0,33.0,3.4,3.3,2.695,0.2016380915471474,-0.026335812325990342,0.9620085864912827,-0.006725076919907246,-0.149696,-31.314721
11.185,2.0,1.0,1.0,34.0,33.0,33.0,3.4,3.3,2.6975,0.19024484856015014,-0.026699521090660178,0.964054324541433,-0.007166026861070554,-0.152055,-31.167837
11.185,2.0,1.0,1.0,34.0,33.0,33.0,3.4,3.3,2.7,0.17873570895288274,-0.027065810753009335,0.9659765984939727,-0.007622161662585251,-0.154469,-31.020127
11.185,2.0,1.0,1.0,34.0,33.0,33.0,3.4,3.3,2.7025,0.16711050380179482,-0.02743455447106684,0.967771854859849,-0.008093982685730725,-0.15694,-30.871579
11.185,2.0,1.0,1.0,34.0,33.0,33.0,3.4,3.3,2.705,0.15536912037720182,-0.02780561389445568,0.9694364516830389,-0.008582008778190358,-0.15947,-30.722176
11.185,2.0,1.0,1.0,34.0,33.0,33.0,3.4,3.3,2.7075,0.14351150557022507,-0.0281788384273878,0.970966656894518,-0.009086776939199619,-0.162061,-30.571904
11.185,2.0,1.0,1.0,34.0,33.0,33.0,3.4,3.3,2.71,0.13153766947572226,-0.02855406444544362,0.9723586466722455,-0.009608843014271576,-0.164714,-30.420747
11.185,2.0,1.0,1.0,34.0,33.0,33.0,3.4,3.3,2.7125,0.11944768913728322,-0.028931114462958332,0.973608503809941,-0.010148782421213438,-0.167431,-30.268688
11.185,2.0,1.0,1.0,34.0,33.0,33.0,3.4,3.3,2.715,0.10724171246062303,-0.02930979624757856,0.9747122160975475,-0.010707190909281416,-0.170215,-30.115712
11.185,2.0,1.0,1.0,34.0,33.0,33.0,3.4,3.3,2.7175,0.09491996230192544,-0.029689901878268598,0.9756656747164326,-0.011284685353460798,-0.173068,-29.961801
11.185,2.0,1.0,1.0,34.0,33.0,33.0,3.4,3.3,2.72,0.08248274073793656,-0.030071206742734256,0.9764646726525318,-0.01188190458602393,-0.175991,-29.806938
11.185,2.0,1.0,1.0,34.0,33.0,33.0,3.4,3.3,2.7225,0.06993043352486839,-0.03045346846988655,0.9771049031307399,-0.012499510267688299,-0.178988,-29.651104
11.185,2.0,1.0,1.0,34.0,33.0,33.0,3.4,3.3,2.725,0.05726351475348414,-0.030836425792586875,0.9775819580740349,-0.013138187800887347,-0.18206,-29.49428
11.185,2.0,1.0,1.0,34.0,33.0,33.0,3.4,3.3,2.7275,0.04448255170799255,-0.031219797335498393,0.9778913265908843,-0.01379864728787876,-0.185211,-29.336448
11.185,2.0,1.0,1.0,34.0,33.0,33.0,3.4,3.3,2.73,0.03158820993677915,-0.03160328032239803,0.978028393494643,-0.014481624536636728,-0.188443,-29.177588
11.185,2.0,1.0,1.0,34.0,33.0,33.0,3.4,3.3,2.7325,0.0185812585432793,-0.03198654919679356,0.977988437858727,-0.01518788211773193,-0.191758,-29.017679
11.185,2.0,1.0,1.0,34.0,33.0,33.0,3.4,3.3,2.735,0.005462575705793403,-0.0323692541491147,0.9777666316114175,-0.01591821047567151,-0.19516,-28.8567
11.185,2.0,1.0,1.0,34.0,33.0,33.0,3.4,3.3,2.7375,-0.007766845564626886,-0.032751019543112214,0.9773580381742475,-0.016673429098472522,-0.198652,-28.694628
11.185,2.0,1.0,1.0,34.0,33.0,33.0,3.4,3.3,2.74,-0.021105891418506856,-0.03313144223339153,0.9767576111479276,-0.017454387749572572,-0.202237,-28.531442
11.185,2.0,1.0,1.0,34.0,33.0,33.0,3.4,3.3,2.7425,-0.0345533209043317,-0.033510089765218375,0.9759601930498056,-0.018261967766539364,-0.205918,-28.367117
11.185,2.0,1.0,1.0,34.0,33.0,33.0,3.4,3.3,2.745,-0.048107759436150734,-0.03388649844685133,0.9749605141068238,-0.019097083431438226,-0.209698,-28.20163
11.185,2.0,1.0,1.0,34.0,33.0,33.0,3.4,3.3,2.7475,-0.06176769198094437,-0.03426017128367395,0.973753191107899,-0.01996068341814139,-0.213583,-28.034955
11.185,2.0,1.0,1.0,34.0,33.0,33.0,3.4,3.3,2.75,-0.0755314559535171,-0.0346305757622928,0.972332726319546,-0.020853752322345,-0.217574,-27.867065
11.185,2.0,1.0,1.0,34.0,33.0,33.0,3.4,3.3,2.7525,-0.0893972338058182,-0.03499714147153561,0.9706935064684389,-0.021777312280567607,-0.221677,-27.697935
11.185,2.0,1.0,1.0,34.0,33.0,33.0,3.4,3.3,2.755,-0.10336304529661276,-0.03535925754589153,0.9688298017944036,-0.02273242468497583,-0.225896,-27.527536
11.185,2.0,1.0,1.0,34.0,33.0,33.0,3.4,3.3,2.7575,-0.11742673942635645,-0.035716269915376284,0.9667357651771066,-0.023720192001494965,-0.230235,-27.355837
11.185,2.0,1.0,1.0,34.0,33.0,33.0,3.4,3.3,2.76,-0.1315859860207604,-0.03606747834404734,0.9644054313393509,-0.024741759699337812,-0.2347,-27.18281
11.185,2.0,1.0,1.0,34.0,33.0,33.0,3.4,3.3,2.7625,-0.14583826694520666,-0.03641213323741369,0.9618327161295668,-0.0257983183008265,-0.239294,-27.008422
11.185,2.0,1.0,1.0,34.0,33.0,33.0,3.4,3.3,2.765,-0.1601808669303953,-0.0367494321967412,0.9590114158855605,-0.026891105561167115,-0.244024,-26.832641
11.185,2.0,1.0,1.0,34.0,33.0,33.0,3.4,3.3,2.7675,-0.1746108639877091,-0.037078516295732625,0.9559352068810381,-0.028021408788725565,-0.248895,-26.655431
11.185,2.0,1.0,1.0,34.0,33.0,33.0,3.4,3.3,2.77,-0.18912511939065796,-0.03739846605218675,0.9525976448558234,-0.02919056731728623,-0.253913,-26.476757
11.185,2.0,1.0,1.0,34.0,33.0,33.0,3.4,3.3,2.7725,-0.20372026719604885,-0.03770829706399668,0.9489921646298328,-0.03039997514280288,-0.259085,-26.296583
11.185,2.0,1.0,1.0,34.0,33.0,33.0,3.4,3.3,2.775,-0.2183927032757247,-0.03800695527515369,0.9451120798000843,-0.031651083738260664,-0.264417,-26.114868
11.185,2.0,1.0,1.0,34.0,33.0,33.0,3.4,3.3,2.7775,-0.23313857382620884,-0.038293311833225534,0.9409505825189616,-0.032945405061458884,-0.269916,-25.931572
11.185,2.0,1.0,1.0,34.0,33.0,33.0,3.4,3.3,2.78,-0.24795376331972502,-0.03856615749499628,0.9365007433508629,-0.03428451477180711,-0.275589,-25.746653
11.185,2.0,1.0,1.0,34.0,33.0,33.0,3.4,3.3,2.7825,-0.2628338818553097,-0.03882419653150172,0.9317555112030499,-0.03567005567360013,-0.281446,-25.560066
11.185,2.0,1.0,1.0,34.0,33.0,33.0,3.4,3.3,2.785,-0.2777742518636785,-0.039066040077460056,0.9267077133251497,-0.03710374140469628,-0.287493,-25.371764
11.185,2.0,1.0,1.0,34.0,33.0,33.0,3.4,3.3,2.7875,-0.2927698941130362,-0.039290198862973254,0.9213500553701689,-0.03858736039106933,-0.293742,-25.1817
11.185,2.0,1.0,1.0,34.0,33.0,33.0,3.4,3.3,2.79,-0.3078155129560859,-0.03949507525720246,0.9156751215081772,-0.04012278008932523,-0.3002,-24.989821
11.185,2.0,1.0,1.0,34.0,33.0,33.0,3.4,3.3,2.7925,-0.32290548074993913,-0.03967895454434597,0.9096753745819879,-0.041711951540961904,-0.306879,-24.796074
11.185,2.0,1.0,1.0,34.0,33.0,33.0,3.4,3.3,2.795,-0.3380338213710685,-0.039839995341477856,0.9033431562921488,-0.04335691426388297,-0.31379,-24.600402
11.185,2.0,1.0,1.0,34.0,33.0,33.0,3.4,3.3,2.7975,-0.35319419273594455,-0.03997621905538995,0.896670687396516,-0.04505980150842178,-0.320944,-24.402748
11.185,2.0,1.0,1.0,34.0,33.0,33.0,3.4,3.3,2.8,-0.36837986822489,-0.04008549826128575,0.8896500679074464,-0.046822845906861504,-0.328355,-24.203049
11.185,2.0,1.0,1.0,34.0,33.0,33.0,3.4,3.3,2.8025,-0.3835837168912221,-0.04016554386964577,0.8822732772674995,-0.048648385547087517,-0.336036,-24.001239
11.185,2.0,1.0,1.0,34.0,33.0,33.0,3.4,3.3,2.805,-0.398798182319624,-0.040213890928465806,0.8745321744823106,-0.05053887050250007,-0.344002,-23.79725
11.185,2.0,1.0,1.0,34.0,33.0,33.0,3.4,3.3,2.8075,-0.41401525997677247,-0.04022788288592195,0.8664184981872888,-0.05249686985156302,-0.352269,-23.59101
11.185,2.0,1.0,1.0,34.0,33.0,33.0,3.4,3.3,2.81,-0.4292264728723237,-0.040204654112789846,0.8579238666229086,-0.05452507922122591,-0.360853,-23.382442
11.185,2.0,1.0,1.0,34.0,33.0,33.0,3.4,3.3,2.8125,-0.444422845319676,-0.0401411104540371,0.849039777492057,-0.0566263288887392,-0.369775,-23.171467
11.185,2.0,1.0,1.0,34.0,33.0,33.0,3.4,3.3,2.815,-0.4595948745517358,-0.04003390754416164,0.8397576076720364,-0.05880359247588802,-0.379053,-22.958
11.185,2.0,1.0,1.0,34.0,33.0,33.0,3.4,3.3,2.8175,-0.4747324999072573,-0.03987942658017184,0.8300686127540664,-0.06105999626804057,-0.38871,-22.741952
11.185,2.0,1.0,1.0,34.0,33.0,33.0,3.4,3.3,2.82,-0.4898250692563059,-0.03967374719855223,0.8199639263846039,-0.06339882918728065,-0.398769,-22.523227
11.185,2.0,1.0,1.0,34.0,33.0,33.0,3.4,3.3,2.8225,-0.504861302278298,-0.03941261704684113,0.8094345593861841,-0.06582355344370748,-0.409256,-22.301728
11.185,2.0,1.0,1.0,34.0,33.0,33.0,3.4,3.3,2.825,-0.5198292501409493,-0.039091417575074006,0.798471398641406,-0.06833781588105053,-0.420199,-22.077347
11.185,2.0,1.0,1.0,34.0,33.0,33.0,3.4,3.3,2.8275,-0.5347162510517517,-0.038705125495453546,0.7870652057330406,-0.07094546002115942,-0.431628,-21.849974
