1,w,sub_t,h,l1,l2,l3,g1,g2,Freq,S11_re,S21_re,S11_img,S21_img,S11_dB,S21_dB
11.185,2.0,1.0,1.0,34.3,33.3,33.3,3.0,2.6,2.5,0.738519348485106,-0.0120208279764963,0.663000986163122,0.00660806901576878,-0.065721,-37.254568
11.185,2.0,1.0,1.0,34.3,33.3,33.3,3.0,2.6,2.5025,0.7333028313728428,-0.012236101288608324,0.6686493638047015,0.006591791069600541,-0.066409,-37.140516
11.185,2.0,1.0,1.0,34.3,33.3,33.3,3.0,2.6,2.505,0.7280159261404527,-0.01245475238047266,0.6742842407674361,0.006573252381149078,-0.067109,-37.026149
11.185,2.0,1.0,1.0,34.3,33.3,33.3,3.0,2.6,2.5075,0.7226579422568781,-0.01267683225277986,0.6799049990594661,0.006552375469352565,-0.067819,-36.911461
11.185,2.0,1.0,1.0,34.3,33.3,33.3,3.0,2.6,2.51,0.7172281817455873,-0.012902392591539667,0.6855110032608962,0.006529080340828438,-0.068542,-36.796447
11.185,2.0,1.0,1.0,34.3,33.3,33.3,3.0,2.6,2.5125,0.7117259392089121,-0.013131485767074114,0.6911016000298933,0.006503284402376092,-0.069276,-36.681101
11.185,2.0,1.0,1.0,34.3,33.3,33.3,3.0,2.6,2.515,0.706150501859417,-0.01336416483212996,0.696676117595188,0.0064749023702191455,-0.070022,-36.565417
11.185,2.0,1.0,1.0,34.3,33.3,33.3,3.0,2.6,2.5175,0.700501149558735,-0.013600483519041596,0.7022338652346152,0.006443846175858089,-0.070781,-36.449389
11.185,2.0,1.0,1.0,34.3,33.3,33.3,3.0,2.6,2.52,0.6947771548642971,-0.013840496235872968,0.7077741327393626,0.006410024868398323,-0.071552,-36.333011
11.185,2.0,1.0,1.0,34.3,33.3,33.3,3.0,2.6,2.5225,0.6889777830844344,-0.01408425806146026,0.7132961898635368,0.006373344513212981,-0.072337,-36.216278
11.185,2.0,1.0,1.0,34.3,33.3,33.3,3.0,2.6,2.525,0.683102292342323,-0.014331824739274671,0.7187992857587009,0.006333708086793868,-0.073135,-36.099183
11.185,2.0,1.0,1.0,34.3,33.3,33.3,3.0,2.6,2.5275,0.6771499336492842,-0.014583252670017297,0.7242826483930046,0.006291015367637248,-0.073946,-35.98172
11.185,2.0,1.0,1.0,34.3,33.3,33.3,3.0,2.6,2.53,0.6711199509879774,-0.014838598902853887,0.7297454839545143,0.006245162823005162,-0.074772,-35.863883
11.185,2.0,1.0,1.0,34.3,33.3,33.3,3.0,2.6,2.5325,0.6650115814060399,-0.015097921125190436,0.7351869762383701,0.006196043491395237,-0.075612,-35.745666
11.185,2.0,1.0,1.0,34.3,33.3,33.3,3.0,2.6,2.535,0.6588240551207546,-0.0153612776508858,0.7406062860173651,0.0061435468605453,-0.076468,-35.627061
11.185,2.0,1.0,1.0,34.3,33.3,33.3,3.0,2.6,2.5375,0.6525565956353699,-0.015628727406788757,0.7460025503955499,0.006087558740791151,-0.077338,-35.508064
11.185,2.0,1.0,1.0,34.3,33.3,33.3,3.0,2.6,2.54,0.6462084198677045,-0.015900329917481693,0.7513748821444572,0.006027961133587791,-0.078224,-35.388666
11.185,2.0,1.0,1.0,34.3,33.3,33.3,3.0,2.6,2.5425,0.6397787382917102,-0.01617614528810539,0.756722369021533,0.005964632094996141,-0.079126,-35.268862
11.185,2.0,1.0,1.0,34.3,33.3,33.3,3.0,2.6,2.545,0.6332667550926975,-0.01645623418513012,0.762044073070357,0.005897445593928466,-0.080044,-35.148644
11.185,2.0,1.0,1.0,34.3,33.3,33.3,3.0,2.6,2.5475,0.6266716683369723,-0.016740657814931163,0.7673390299022231,0.0058262713649360484,-0.080979,-35.028006
11.185,2.0,1.0,1.0,34.3,33.3,33.3,3.0,2.6,2.55,0.6199926701566301,-0.017029477900017683,0.7726062479586664,0.005750974755313551,-0.081932,-34.906942
11.185,2.0,1.0,1.0,34.3,33.3,33.3,3.0,2.6,2.5525,0.613228946950348,-0.017322756652753107,0.7778447077544749,0.005671416566283768,-0.082902,-34.785443
11.185,2.0,1.0,1.0,34.3,33.3,33.3,3.0,2.6,2.555,0.6063796796009955,-0.01762055674639696,0.7830533611007818,0.005587452888015666,-0.08389,-34.663504
11.185,2.0,1.0,1.0,34.3,33.3,33.3,3.0,2.6,2.5575,0.5994440437109537,-0.017922941283285445,0.7882311303077684,0.0054989349282177765,-0.084897,-34.541116
11.185,2.0,1.0,1.0,34.3,33.3,33.3,3.0,2.6,2.56,0.5924212098560798,-0.018229973759957534,0.7933769073665415,0.0054057088340364575,-0.085924,-34.418273
11.185,2.0,1.0,1.0,34.3,33.3,33.3,3.0,2.6,2.5625,0.5853103438592739,-0.018541718029020656,0.7984895531097357,0.005307615506976448,-0.086969,-34.294967
11.185,2.0,1.0,1.0,34.3,33.3,33.3,3.0,2.6,2.565,0.5781106070846613,-0.018858238257537272,0.8035678963503842,0.005204490410547601,-0.088035,-34.17119
11.185,2.0,1.0,1.0,34.3,33.3,33.3,3.0,2.6,2.5675,0.5708211567534601,-0.019179598881699147,0.8086107329985969,0.00509616337032814,-0.089122,-34.046935
11.185,2.0,1.0,1.0,34.3,33.3,33.3,3.0,2.6,2.57,0.5634411462826302,-0.019505864557542045,0.8136168251555979,0.004982458366119525,-0.090229,-33.922195
11.185,2.0,1.0,1.0,34.3,33.3,33.3,3.0,2.6,2.5725,0.5559697256474663,-0.019837100107437132,0.8185849001846506,0.004863193315852958,-0.091359,-33.796961
11.185,2.0,1.0,1.0,34.3,33.3,33.3,3.0,2.6,2.575,0.5484060417693439,-0.020173370462078323,0.8235136497584167,0.004738179850891184,-0.092511,-33.671226
11.185,2.0,1.0,1.0,34.3,33.3,33.3,3.0,2.6,2.5775,0.5407492389298865,-0.020514740597668148,0.8284017288822816,0.0046072230823516,-0.093685,-33.544981
11.185,2.0,1.0,1.0,34.3,33.3,33.3,3.0,2.6,2.58,0.5329984592128764,-0.020861275467983147,0.8332477548931815,0.004470121358058834,-0.094884,-33.418218
11.185,2.0,1.0,1.0,34.3,33.3,33.3,3.0,2.6,2.5825,0.525152842975284,-0.021213039930981715,0.8380503064334823,0.004326666009715567,-0.096106,-33.290929
11.185,2.0,1.0,1.0,34.3,33.3,33.3,3.0,2.6,2.585,0.5172115293488696,-0.021570098669593536,0.8428079223994321,0.004176641089859608,-0.097353,-33.163106
11.185,2.0,1.0,1.0,34.3,33.3,33.3,3.0,2.6,2.5875,0.5091736567738535,-0.02193251610630821,0.8475191008637443,0.0040198230981540765,-0.098626,-33.034739
11.185,2.0,1.0,1.0,34.3,33.3,33.3,3.0,2.6,2.59,0.5010383635662431,-0.02230035631115293,0.8521822979718499,0.0038559806965344124,-0.099925,-32.905821
11.185,2.0,1.0,1.0,34.3,33.3,33.3,3.0,2.6,2.5925,0.4928047885204451,-0.022673682902626016,0.8567959268113672,0.0036848744127115814,-0.101251,-32.776341
11.185,2.0,1.0,1.0,34.3,33.3,33.3,3.0,2.6,2.595,0.4844720715489054,-0.023052558941120162,0.8613583562543364,0.003506256331505468,-0.102604,-32.646292
11.185,2.0,1.0,1.0,34.3,33.3,33.3,3.0,2.6,2.5975,0.47603935436054373,-0.023437046814343162,0.8658679097717904,0.0033198697734545353,-0.103986,-32.515664
11.185,2.0,1.0,1.0,34.3,33.3,33.3,3.0,2.6,2.6,0.467505781179869,-0.023827208114207302,0.8703228642202173,0.003125448960119175,-0.105397,-32.384448
11.185,2.0,1.0,1.0,34.3,33.3,33.3,3.0,2.6,2.6025,0.45887049950873837,-0.024223103504625372,0.8747214485994874,0.002922718665465529,-0.106838,-32.252634
11.185,2.0,1.0,1.0,34.3,33.3,33.3,3.0,2.6,2.605,0.45013266093278254,-0.024624792579613742,0.8790618427818263,0.0027113938526831406,-0.10831,-32.120212
11.185,2.0,1.0,1.0,34.3,33.3,33.3,3.0,2.6,2.6075,0.4412914219746426,-0.025032333711061422,0.8833421762114211,0.0024911792957552224,-0.109813,-31.987173
11.185,2.0,1.0,1.0,34.3,33.3,33.3,3.0,2.6,2.61,0.43234594499623935,-0.025445783885481035,0.8875605265742678,0.0022617691850631994,-0.11135,-31.853506
11.185,2.0,1.0,1.0,34.3,33.3,33.3,3.0,2.6,2.6125,0.4232953991523922,-0.02586519852901214,0.891714918437852,0.0020228467162673744,-0.112919,-31.719201
11.185,2.0,1.0,1.0,34.3,33.3,33.3,3.0,2.6,2.615,0.41413896139820866,-0.026290631319895345,0.8958033218603116,0.0017740836616626128,-0.114523,-31.584249
11.185,2.0,1.0,1.0,34.3,33.3,33.3,3.0,2.6,2.6175,0.40487581755278157,-0.026722133987583597,0.8998236509686879,0.0015151399231641697,-0.116163,-31.448638
11.185,2.0,1.0,1.0,34.3,33.3,33.3,3.0,2.6,2.62,0.39550516342182257,-0.0271597560975974,0.9037737625059419,0.0012456630660288267,-0.117839,-31.312357
11.185,2.0,1.0,1.0,34.3,33.3,33.3,3.0,2.6,2.6225,0.3860262059819857,-0.027603544821170292,0.9076514543463776,0.0009652878323657517,-0.119553,-31.175395
11.185,2.0,1.0,1.0,34.3,33.3,33.3,3.0,2.6,2.625,0.37643816462977,-0.0280535446886607,0.91145446397916,0.000673635633436273,-0.121305,-31.037742
11.185,2.0,1.0,1.0,34.3,33.3,33.3,3.0,2.6,2.6275,0.3667402724979714,-0.028509797325637683,0.9151804669596313,0.0003703140196815312,-0.123097,-30.899385
11.185,2.0,1.0,1.0,34.3,33.3,33.3,3.0,2.6,2.63,0.3569317778428442,-0.028972341170464835,0.9188270753281175,5.4916127354530886e-05,-0.124931,-30.760313
11.185,2.0,1.0,1.0,34.3,33.3,33.3,3.0,2.6,2.6325,0.34701194550521497,-0.029441211172126808,0.9223918359959755,-0.00027297989943606254,-0.126806,-30.620513
11.185,2.0,1.0,1.0,34.3,33.3,33.3,3.0,2.6,2.635,0.3369800584489782,-0.029916438466946898,0.9258722290986074,-0.0006138115125353663,-0.128725,-30.479974
11.185,2.0,1.0,1.0,34.3,33.3,33.3,3.0,2.6,2.6375,0.3268354193805324,-0.0303980500327478,0.9292656663152186,-0.0009680323907495416,-0.130689,-30.338683
11.185,2.0,1.0,1.0,34.3,33.3,33.3,3.0,2.6,2.64,0.3165773524528643,-0.030886068318899472,0.9325694891550866,-0.0013361130994798884,-0.132699,-30.196628
11.185,2.0,1.0,1.0,34.3,33.3,33.3,3.0,2.6,2.6425,0.30620520505818577,-0.03138051085058008,0.9357809672101512,-0.0017185417805035154,-0.134756,-30.053794
11.185,2.0,1.0,1.0,34.3,33.3,33.3,3.0,2.6,2.645,0.29571834971316957,-0.031881389805451216,0.9388972963737238,-0.0021158248735195593,-0.136863,-29.910169
11.185,2.0,1.0,1.0,34.3,33.3,33.3,3.0,2.6,2.6475,0.28511618604105116,-0.032388711560809406,0.9419155970251418,-0.002528487871184609,-0.139021,-29.765739
11.185,2.0,1.0,1.0,34.3,33.3,33.3,3.0,2.6,2.65,0.2743981428549913,-0.03290247620912774,0.9448329121802252,-0.0029570761094774877,-0.14123,-29.62049
11.185,2.0,1.0,1.0,34.3,33.3,33.3,3.0,2.6,2.6525,0.2635636803474124,-0.033422677039735955,0.9476462056073457,-0.0034021555953537316,-0.143494,-29.474407
11.185,2.0,1.0,1.0,34.3,33.3,33.3,3.0,2.6,2.655,0.25261229239010186,-0.0339492999842122,0.9503523599090012,-0.003864313873787698,-0.145814,-29.327476
11.185,2.0,1.0,1.0,34.3,33.3,33.3,3.0,2.6,2.6575,0.24154350895021603,-0.03448232302286316,0.9529481745687308,-0.004344160936441249,-0.14819,-29.179682
11.185,2.0,1.0,1.0,34.3,33.3,33.3,3.0,2.6,2.66,0.2303568986275033,-0.03502171554945906,0.9554303639632327,-0.004842330174356752,-0.150627,-29.031009
11.185,2.0,1.0,1.0,34.3,33.3,33.3,3.0,2.6,2.6625,0.21905207131835897,-0.035567437691155154,0.9577955553395363,-0.005359479377239421,-0.153124,-28.881441
11.185,2.0,1.0,1.0,34.3,33.3,33.3,3.0,2.6,2.665,0.20762868101255721,-0.03611943958028081,0.9600402867570674,-0.005896291782080656,-0.155685,-28.730961
11.185,2.0,1.0,1.0,34.3,33.3,33.3,3.0,2.6,2.6675,0.19608642872886597,-0.03667766057439373,0.9621610049944217,-0.006453477174069479,-0.158312,-28.579554
11.185,2.0,1.0,1.0,34.3,33.3,33.3,3.0,2.6,2.67,0.18442506559600694,-0.03724202842069483,0.9641540634206393,-0.007031773042959337,-0.161007,-28.427202
11.185,2.0,1.0,1.0,34.3,33.3,33.3,3.0,2.6,2.6725,0.1726443960858101,-0.0378124583605594,0.9660157198307193,-0.007631945798290221,-0.163771,-28.273887
11.185,2.0,1.0,1.0,34.3,33.3,33.3,3.0,2.6,2.675,0.1607442814057529,-0.038388852169571074,0.9677421342450871,-0.008254792047122022,-0.166608,-28.119591
11.185,2.0,1.0,1.0,34.3,33.3,33.3,3.0,2.6,2.6775,0.14872464305849942,-0.03897109712803546,0.9693293666726308,-0.008901139938213324,-0.169521,-27.964296
11.185,2.0,1.0,1.0,34.3,33.3,33.3,3.0,2.6,2.68,0.13658546657646845,-0.039559064916499916,0.9707733748368584,-0.009571850576882254,-0.172511,-27.807981
11.185,2.0,1.0,1.0,34.3,33.3,33.3,3.0,2.6,2.6825,0.12432680543992841,-0.04015261043030687,0.972070011864648,-0.010267819515114254,-0.175581,-27.650627
11.185,2.0,1.0,1.0,34.3,33.3,33.3,3.0,2.6,2.685,0.11194878518766693,-0.04075157050665683,0.973215023936872,-0.010989978321842115,-0.178735,-27.492215
11.185,2.0,1.0,1.0,34.3,33.3,33.3,3.0,2.6,2.6875,0.09945160772977764,-0.04135576255704626,0.9742040479001409,-0.011739296238713167,-0.181976,-27.332721
11.185,2.0,1.0,1.0,34.3,33.3,33.3,3.0,2.6,2.69,0.08683555587282377,-0.041964983097265735,0.9750326088386154,-0.01251678192708456,-0.185307,-27.172126
11.185,2.0,1.0,1.0,34.3,33.3,33.3,3.0,2.6,2.6925,0.07410099806819992,-0.04257900616639346,0.9756961176047401,-0.013323485312454557,-0.188731,-27.010406
11.185,2.0,1.0,1.0,34.3,33.3,33.3,3.0,2.6,2.695,0.061248393395386604,-0.0431975816253763,0.9761898683074403,-0.014160499533041458,-0.192251,-26.847539
11.185,2.0,1.0,1.0,34.3,33.3,33.3,3.0,2.6,2.6975,0.04827829679250209,-0.04382043332486212,0.9765090357560926,-0.01502896299978003,-0.195872,-26.6835
11.185,2.0,1.0,1.0,34.3,33.3,33.3,3.0,2.6,2.7,0.03519136454760795,-0.04444725713090011,0.976648672858215,-0.01593006157560439,-0.199598,-26.518265
11.185,2.0,1.0,1.0,34.3,33.3,33.3,3.0,2.6,2.7025,0.021988360065119877,-0.04507771879596656,0.9766037079685088,-0.01686503088255138,-0.203432,-26.351808
11.185,2.0,1.0,1.0,34.3,33.3,33.3,3.0,2.6,2.705,0.008670159922951903,-0.045711451661466826,0.9763689421863824,-0.017835158745933766,-0.207378,-26.184103
11.185,2.0,1.0,1.0,34.3,33.3,33.3,3.0,2.6,2.7075,-0.004762239762798303,-0.04634805417641083,0.9759390465986743,-0.018841787785623426,-0.211443,-26.015122
11.185,2.0,1.0,1.0,34.3,33.3,33.3,3.0,2.6,2.71,-0.018307716647292773,-0.04698708721531878,0.9753085594636837,-0.019886318165340054,-0.215629,-25.844838
11.185,2.0,1.0,1.0,34.3,33.3,33.3,3.0,2.6,2.7125,-0.03196501512063966,-0.04762807117657834,0.974471883332005,-0.020970210511780715,-0.219943,-25.67322
11.185,2.0,1.0,1.0,34.3,33.3,33.3,3.0,2.6,2.715,-0.04573273890402683,-0.04827048284040615,0.9734232820989304,-0.0220949890164463,-0.22439,-25.500239
11.185,2.0,1.0,1.0,34.3,33.3,33.3,3.0,2.6,2.7175,-0.059609343254540426,-0.04891375196323657,0.972156877982402,-0.023262244734138345,-0.228975,-25.325862
11.185,2.0,1.0,1.0,34.3,33.3,33.3,3.0,2.6,2.72,-0.07359312675244757,-0.04955725758273198,0.9706666484195432,-0.024473639093313408,-0.233705,-25.150057
11.185,2.0,1.0,1.0,34.3,33.3,33.3,3.0,2.6,2.7225,-0.08768222264216836,-0.050200324004641965,0.9689464228737804,-0.02573090763481095,-0.238586,-24.972791
11.185,2.0,1.0,1.0,34.3,33.3,33.3,3.0,2.6,2.725,-0.10187458969507085,-0.0508422164393747,0.9669898795434584,-0.027035863996906793,-0.243624,-24.794026
11.185,2.0,1.0,1.0,34.3,33.3,33.3,3.0,2.6,2.7275,-0.11616800255882476,-0.05148213625234193,0.9647905419614965,-0.028390404166218214,-0.248827,-24.613728
11.185,2.0,1.0,1.0,34.3,33.3,33.3,3.0,2.6,2.73,-0.1305600415540678,-0.05211921578781501,0.9623417754742544,-0.029796511015682245,-0.254203,-24.431857
11.185,2.0,1.0,1.0,34.3,33.3,33.3,3.0,2.6,2.7325,-0.14504808187475252,-0.052752512721121685,0.959636783586189,-0.03125625915267754,-0.25976,-24.248374
11.185,2.0,1.0,1.0,34.3,33.3,33.3,3.0,2.6,2.735,-0.15962928214325442,-0.05338100388842569,0.9566686041550856,-0.03277182010235022,-0.265506,-24.063237
11.185,2.0,1.0,1.0,34.3,33.3,33.3,3.0,2.6,2.7375,-0.1743005722655903,-0.0540035785369623,0.9534301054207724,-0.034345467853358784,-0.27145,-23.876403
11.185,2.0,1.0,1.0,34.3,33.3,33.3,3.0,2.6,2.74,-0.18905864052519708,-0.054619030931330345,0.9499139818480755,-0.035979584795562194,-0.277602,-23.687827
11.185,2.0,1.0,1.0,34.3,33.3,33.3,3.0,2.6,2.7425,-0.2038999198460501,-0.055226052243132345,0.9461127497624648,-0.03767666808165746,-0.283974,-23.497461
11.185,2.0,1.0,1.0,34.3,33.3,33.3,3.0,2.6,2.745,-0.2188205731468431,-0.05582322164173098,0.9420187427543341,-0.03943933644741024,-0.290575,-23.305257
11.185,2.0,1.0,1.0,34.3,33.3,33.3,3.0,2.6,2.7475,-0.2338164776977059,-0.05640899649297607,0.9376241068251765,-0.04127033752792558,-0.297419,-23.111163
11.185,2.0,1.0,1.0,34.3,33.3,33.3,3.0,2.6,2.75,-0.248883208378928,-0.0569817015602161,0.932920795245973,-0.0431725557103512,-0.304517,-22.915125
11.185,2.0,1.0,1.0,34.3,33.3,33.3,3.0,2.6,2.7525,-0.2640160197274035,-0.05753951708748022,0.9279005630950979,-0.045149020566478786,-0.311885,-22.717087
11.185,2.0,1.0,1.0,34.3,33.3,33.3,3.0,2.6,2.755,-0.2792098266404756,-0.05808046562809032,0.9225549614397957,-0.0472029159118702,-0.319535,-22.516991
11.185,2.0,1.0,1.0,34.3,33.3,33.3,3.0,2.6,2.7575,-0.29445918358836765,-0.05860239746277906,0.9168753311219614,-0.0493375895413527,-0.327486,-22.314774
11.185,2.0,1.0,1.0,34.3,33.3,33.3,3.0,2.6,2.76,-0.30975826216477625,-0.05910297442919708,0.9108527961056223,-0.05155656369389555,-0.335752,-22.110373
11.185,2.0,1.0,1.0,34.3,33.3,33.3,3.0,2.6,2.7625,-0.32510082678023355,-0.05957965195901146,0.9044782563401721,-0.05386354630295021,-0.344355,-21.903718
11.185,2.0,1.0,1.0,34.3,33.3,33.3,3.0,2.6,2.765,-0.3404802082735733,-0.06002965908899119,0.8977423800902933,-0.0562624430911242,-0.353312,-21.69474
11.185,2.0,1.0,1.0,34.3,33.3,33.3,3.0,2.6,2.7675,-0.3558892751828536,-0.06044997617785746,0.8906355956807198,-0.05875737057041445,-0.362646,-21.483364
11.185,2.0,1.0,1.0,34.3,33.3,33.3,3.0,2.6,2.77,-0.3713204023773356,-0.06083731002037982,0.8831480826017889,-0.06135267001089477,-0.37238,-21.269511
11.185,2.0,1.0,1.0,34.3,33.3,33.3,3.0,2.6,2.7725,-0.3867654367055718,-0.061188066003220014,0.8752697619204526,-0.06405292244138985,-0.382541,-21.053098
11.185,2.0,1.0,1.0,34.3,33.3,33.3,3.0,2.6,2.775,-0.40221565926021774,-0.06149831689216641,0.8669902859415031,-0.06686296474486178,-0.393154,-20.83404
11.185,2.0,1.0,1.0,34.3,33.3,33.3,3.0,2.6,2.7775,-0.4176617437962493,-0.06176376777622891,0.8582990270657044,-0.0697879069083854,-0.404251,-20.612244
11.185,2.0,1.0,1.0,34.3,33.3,33.3,3.0,2.6,2.78,-0.4330937107642334,-0.06197971661886514,0.8491850657962106,-0.07283315048194652,-0.415864,-20.387615
11.185,2.0,1.0,1.0,34.3,33.3,33.3,3.0,2.6,2.7825,-0.448500876331887,-0.062141009778355884,0.8396371778529574,-0.07600440829083105,-0.42803,-20.160052
11.185,2.0,1.0,1.0,34.3,33.3,33.3,3.0,2.6,2.785,-0.4638717956632241,-0.06224199175558374,0.8296438203680264,-0.0793077254318066,-0.440786,-19.929447
11.185,2.0,1.0,1.0,34.3,33.3,33.3,3.0,2.6,2.7875,-0.4791941996016547,-0.06227644830529632,0.8191931171550529,-0.08274950156182208,-0.454177,-19.695688
11.185,2.0,1.0,1.0,34.3,33.3,33.3,3.0,2.6,2.79,-0.4944549237584913,-0.06223754190284545,0.8082728430748246,-0.08633651445735221,-0.468249,-19.458657
11.185,2.0,1.0,1.0,34.3,33.3,33.3,3.0,2.6,2.7925,-0.5096398288366394,-0.062117738388208554,0.796870407560361,-0.09007594477971989,-0.483055,-19.218228
11.185,2.0,1.0,1.0,34.3,33.3,33.3,3.0,2.6,2.795,-0.5247337108159899,-0.061908723407826945,0.7849728374218821,-0.0939754019228528,-0.498651,-18.974268
11.185,2.0,1.0,1.0,34.3,33.3,33.3,3.0,2.6,2.7975,-0.5397201993861449,-0.06160130703642989,0.7725667591305276,-0.09804295073969536,-0.515101,-18.726638
11.185,2.0,1.0,1.0,34.3,33.3,33.3,3.0,2.6,2.8,-0.5545816427258713,-0.061185314678444166,0.7596383808861833,-0.1022871388351484,-0.532475,-18.47519
11.185,2.0,1.0,1.0,34.3,33.3,33.3,3.0,2.6,2.8025,-0.5692989763891602,-0.06064946201327496,0.7461734749185955,-0.10671702396781634,-0.550851,-18.219767
11.185,2.0,1.0,1.0,34.3,33.3,33.3,3.0,2.6,2.805,-0.5838515736536821,-0.059981211350625646,0.7321573606641042,-0.11134220090813612,-0.570316,-17.960203
11.185,2.0,1.0,1.0,34.3,33.3,33.3,3.0,2.6,2.8075,-0.5982170742075774,-0.05916660628915662,0.7175748897186026,-0.11617282684084597,-0.590965,-17.696325
11.185,2.0,1.0,1.0,34.3,33.3,33.3,3.0,2.6,2.81,-0.6123711874798476,-0.058190081010224035,0.7024104338120738,-0.1212196440542906,-0.612907,-17.427947
11.185,2.0,1.0,1.0,34.3,33.3,33.3,3.0,2.6,2.8125,-0.6262874662419265,-0.05703423987198352,0.686647877509234,-0.12649399819999205,-0.636264,-17.154872
11.185,2.0,1.0,1.0,34.3,33.3,33.3,3.0,2.6,2.815,-0.6399370453043152,-0.055679602179278545,0.6702706179516905,-0.13200784979634803,-0.66117,-16.876895
11.185,2.0,1.0,1.0,34.3,33.3,33.3,3.0,2.6,2.8175,-0.653288339180973,-0.05410430607079666,0.653261574769525,-0.13777377584102557,-0.68778,-16.593796
11.185,2.0,1.0,1.0,34.3,33.3,33.3,3.0,2.6,2.82,-0.6663066914726563,-0.05228376436457233,0.6356032143706924,-0.14380495732201082,-0.716267,-16.305344
11.185,2.0,1.0,1.0,34.3,33.3,33.3,3.0,2.6,2.8225,-0.6789539674048638,-0.05019026391318452,0.6172775942538249,-0.15011514698969508,-0.746827,-16.011295
11.185,2.0,1.0,1.0,34.3,33.3,33.3,3.0,2.6,2.825,-0.6911880794241927,-0.047792498519786925,0.5982664349029154,-0.156718609854539,-0.779685,-15.711391
11.185,2.0,1.0,1.0,34.3,33.3,33.3,3.0,2.6,2.8275,-0.7029624339928082,-0.04505502374004148,0.5785512293698494,-0.1636300263498491,-0.815095,-15.40536
