1,w,sub_t,h,l1,l2,l3,g1,g2,Freq,S11_re,S21_re,S11_img,S21_img,S11_dB,S21_dB
11.185,2.0,1.0,1.0,33.7,34.3,34.3,3.8,3.5,2.5,0.824981509919097,-0.00661197246341571,0.553517781107456,0.00412174504345031,-0.056932,-42.167615
11.185,2.0,1.0,1.0,33.7,34.3,34.3,3.8,3.5,2.5025,0.8211312761689996,-0.006739673987586373,0.5591012515843683,0.004127942158412463,-0.057485,-42.043764
11.185,2.0,1.0,1.0,33.7,34.3,34.3,3.8,3.5,2.505,0.81722567870961,-0.006869646952929987,0.5646813923075804,0.004133268182616611,-0.058048,-41.919515
11.185,2.0,1.0,1.0,33.7,34.3,34.3,3.8,3.5,2.5075,0.8132641687861216,-0.0070019401467641225,0.5702578980506373,0.004137690095760111,-0.058621,-41.794856
11.185,2.0,1.0,1.0,33.7,34.3,34.3,3.8,3.5,2.51,0.8092461890841942,-0.007136603768091404,0.575830454583425,0.004141173629643531,-0.059205,-41.669777
11.185,2.0,1.0,1.0,33.7,34.3,34.3,3.8,3.5,2.5125,0.8051711735912646,-0.007273689479864099,0.5813987383847738,0.004143683213300693,-0.059799,-41.544265
11.185,2.0,1.0,1.0,33.7,34.3,34.3,3.8,3.5,2.515,0.8010385474554826,-0.007413250463640254,0.5869624163454225,0.004145181915304122,-0.060404,-41.41831
11.185,2.0,1.0,1.0,33.7,34.3,34.3,3.8,3.5,2.5175,0.7968477268422258,-0.00755534147676264,0.5925211454609568,0.0041456313830754024,-0.061021,-41.291898
11.185,2.0,1.0,1.0,33.7,34.3,34.3,3.8,3.5,2.52,0.7925981187881083,-0.007700018912199588,0.5980745725143498,0.004144991779019296,-0.061649,-41.165018
11.185,2.0,1.0,1.0,33.7,34.3,34.3,3.8,3.5,2.5225,0.7882891210524379,-0.007847340861195847,0.6036223337476676,0.004143221713286551,-0.06229,-41.037657
11.185,2.0,1.0,1.0,33.7,34.3,34.3,3.8,3.5,2.525,0.7839201219660269,-0.007997367178890989,0.6091640545225333,0.00414027817295755,-0.062942,-40.909803
11.185,2.0,1.0,1.0,33.7,34.3,34.3,3.8,3.5,2.5275,0.7794905002772844,-0.008150159553073555,0.6146993489688883,0.004136116447423947,-0.063607,-40.781442
11.185,2.0,1.0,1.0,33.7,34.3,34.3,3.8,3.5,2.53,0.7749996249955121,-0.008305781576249144,0.6202278196215738,0.004130690049728907,-0.064284,-40.652562
11.185,2.0,1.0,1.0,33.7,34.3,34.3,3.8,3.5,2.5325,0.7704468552312974,-0.008464298821213783,0.6257490570442322,0.0041239506336096495,-0.064975,-40.523148
11.185,2.0,1.0,1.0,33.7,34.3,34.3,3.8,3.5,2.535,0.7658315400339184,-0.008625778920334889,0.6312626394400158,0.004115847905967422,-0.06568,-40.393187
11.185,2.0,1.0,1.0,33.7,34.3,34.3,3.8,3.5,2.5375,0.7611530182256497,-0.008790291648757142,0.6367681322485312,0.00410632953446894,-0.066398,-40.262665
11.185,2.0,1.0,1.0,33.7,34.3,34.3,3.8,3.5,2.54,0.7564106182328536,-0.00895790901176463,0.6422650877284489,0.0040953410499619735,-0.067131,-40.131568
11.185,2.0,1.0,1.0,33.7,34.3,34.3,3.8,3.5,2.5425,0.7516036579137356,-0.00912870533654587,0.6477530445251652,0.004082825743364207,-0.067878,-39.999882
11.185,2.0,1.0,1.0,33.7,34.3,34.3,3.8,3.5,2.545,0.7467314443826258,-0.009302757368625911,0.6532315272228612,0.004068724556656891,-0.06864,-39.86759
11.185,2.0,1.0,1.0,33.7,34.3,34.3,3.8,3.5,2.5475,0.741793273830655,-0.00948014437324777,0.6587000458802724,0.004052975967589183,-0.069418,-39.734678
11.185,2.0,1.0,1.0,33.7,34.3,34.3,3.8,3.5,2.55,0.7367884313426448,-0.009660948242004117,0.6641580955494614,0.004035515867665549,-0.070212,-39.601129
11.185,2.0,1.0,1.0,33.7,34.3,34.3,3.8,3.5,2.5525,0.7317161907100732,-0.009845253605042981,0.6696051557768007,0.004016277432958693,-0.071022,-39.466929
11.185,2.0,1.0,1.0,33.7,34.3,34.3,3.8,3.5,2.555,0.7265758142399009,-0.01003314794919262,0.6750406900853784,0.003995190987250179,-0.071849,-39.332061
11.185,2.0,1.0,1.0,33.7,34.3,34.3,3.8,3.5,2.5575,0.7213665525590754,-0.010224721742374487,0.6804641454379571,0.003972183856965811,-0.072693,-39.196507
11.185,2.0,1.0,1.0,33.7,34.3,34.3,3.8,3.5,2.56,0.71608764441449,-0.010420068564703223,0.685874951679569,0.003947180217326042,-0.073555,-39.060251
11.185,2.0,1.0,1.0,33.7,34.3,34.3,3.8,3.5,2.5625,0.7107383164681591,-0.010619285246696404,0.6912725209587833,0.003920100929087058,-0.074435,-38.923274
11.185,2.0,1.0,1.0,33.7,34.3,34.3,3.8,3.5,2.565,0.7053177830873466,-0.010822472015052247,0.6966562471266164,0.0038908633651961065,-0.075335,-38.78556
11.185,2.0,1.0,1.0,33.7,34.3,34.3,3.8,3.5,2.5675,0.6998252461293741,-0.011029732646482786,0.7020255051119773,0.003859381226628467,-0.076254,-38.647088
11.185,2.0,1.0,1.0,33.7,34.3,34.3,3.8,3.5,2.57,0.6942598947207892,-0.011241174630130303,0.7073796502724852,0.0038255643466124966,-0.077193,-38.507841
11.185,2.0,1.0,1.0,33.7,34.3,34.3,3.8,3.5,2.5725,0.6886209050305624,-0.011456909339130359,0.712718017719417,0.0037893184823818028,-0.078152,-38.367798
11.185,2.0,1.0,1.0,33.7,34.3,34.3,3.8,3.5,2.575,0.6829074400369396,-0.011677052211929731,0.718039921615436,0.003750545093520493,-0.079133,-38.22694
11.185,2.0,1.0,1.0,33.7,34.3,34.3,3.8,3.5,2.5775,0.677118649287552,-0.011901722944012056,0.72334465444369,0.003709141105886509,-0.080136,-38.085246
11.185,2.0,1.0,1.0,33.7,34.3,34.3,3.8,3.5,2.58,0.6712536686523378,-0.012131045690733986,0.7286314862467408,0.0036649986600093246,-0.081162,-37.942694
11.185,2.0,1.0,1.0,33.7,34.3,34.3,3.8,3.5,2.5825,0.6653116200687924,-0.012365149282030552,0.7338996638336985,0.0036180048427617317,-0.082211,-37.799262
11.185,2.0,1.0,1.0,33.7,34.3,34.3,3.8,3.5,2.585,0.6592916112790208,-0.012604167449803154,0.7391484099537954,0.0035680414009981874,-0.083284,-37.65493
11.185,2.0,1.0,1.0,33.7,34.3,34.3,3.8,3.5,2.5875,0.6531927355580057,-0.012848239068872048,0.7443769224345177,0.0035149844357343406,-0.084383,-37.509672
11.185,2.0,1.0,1.0,33.7,34.3,34.3,3.8,3.5,2.59,0.6470140714324656,-0.013097508412440992,0.7495843732822576,0.0034587040753129806,-0.085507,-37.363465
11.185,2.0,1.0,1.0,33.7,34.3,34.3,3.8,3.5,2.5925,0.6407546823895915,-0.013352125423098406,0.754769907743303,0.003399064125858936,-0.086657,-37.216285
11.185,2.0,1.0,1.0,33.7,34.3,34.3,3.8,3.5,2.595,0.6344136165749172,-0.013612246000460973,0.7599326433227898,0.003335921697167075,-0.087836,-37.068107
11.185,2.0,1.0,1.0,33.7,34.3,34.3,3.8,3.5,2.5975,0.6279899064784622,-0.013878032306655285,0.765071668759082,0.003269126801993234,-0.089042,-36.918905
11.185,2.0,1.0,1.0,33.7,34.3,34.3,3.8,3.5,2.6,0.6214825686082375,-0.014149653090929809,0.770186042950802,0.0031985219265258887,-0.090279,-36.768651
11.185,2.0,1.0,1.0,33.7,34.3,34.3,3.8,3.5,2.6025,0.6148906031501072,-0.014427284034794777,0.7752747938335238,0.0031239415696016066,-0.091546,-36.617317
11.185,2.0,1.0,1.0,33.7,34.3,34.3,3.8,3.5,2.605,0.6082129936128802,-0.014711108119204197,0.7803369172028853,0.003045211747990577,-0.092844,-36.464877
11.185,2.0,1.0,1.0,33.7,34.3,34.3,3.8,3.5,2.6075,0.6014487064574229,-0.01500131601541916,0.7853713754805848,0.002962149464817065,-0.094175,-36.311298
11.185,2.0,1.0,1.0,33.7,34.3,34.3,3.8,3.5,2.61,0.5945966907084472,-0.015298106501329059,0.7903770964194219,0.0028745621378858705,-0.095541,-36.156552
11.185,2.0,1.0,1.0,33.7,34.3,34.3,3.8,3.5,2.6125,0.5876558775475013,-0.01560168690515805,0.7953529717431992,0.002782246984361857,-0.096941,-36.000607
11.185,2.0,1.0,1.0,33.7,34.3,34.3,3.8,3.5,2.615,0.5806251798855268,-0.015912273578646646,0.8002978557169182,0.002684990357888116,-0.098378,-35.84343
11.185,2.0,1.0,1.0,33.7,34.3,34.3,3.8,3.5,2.6175,0.5735034919132207,-0.01623009240197957,0.8052105636422665,0.002582567033824501,-0.099853,-35.684986
11.185,2.0,1.0,1.0,33.7,34.3,34.3,3.8,3.5,2.62,0.5662896886272242,-0.016555379322924346,0.8100898702729322,0.0024747394378383104,-0.101367,-35.525242
11.185,2.0,1.0,1.0,33.7,34.3,34.3,3.8,3.5,2.6225,0.5589826253299716,-0.016888380932862396,0.8149345081437527,0.002361256812575295,-0.102923,-35.364161
11.185,2.0,1.0,1.0,33.7,34.3,34.3,3.8,3.5,2.625,0.551581137100847,-0.0172293550826258,0.819743165807096,0.00224185431657665,-0.10452,-35.201706
11.185,2.0,1.0,1.0,33.7,34.3,34.3,3.8,3.5,2.6275,0.5440840382360012,-0.01757857154131387,0.8245144859692445,0.0021162520489750266,-0.106162,-35.037837
11.185,2.0,1.0,1.0,33.7,34.3,34.3,3.8,3.5,2.63,0.5364901216539659,-0.017936312701541068,0.829247063518784,0.0019841539927962105,-0.10785,-34.872513
11.185,2.0,1.0,1.0,33.7,34.3,34.3,3.8,3.5,2.6325,0.5287981582638849,-0.01830287433487904,0.8339394434381897,0.001845246868895186,-0.109586,-34.705695
11.185,2.0,1.0,1.0,33.7,34.3,34.3,3.8,3.5,2.635,0.5210068962928622,-0.018678566401592357,0.8385901185888641,0.001699198891661343,-0.111372,-34.537336
11.185,2.0,1.0,1.0,33.7,34.3,34.3,3.8,3.5,2.6375,0.5131150605685916,-0.01906371391913855,0.8431975273588337,0.0015456584166171257,-0.113211,-34.367394
11.185,2.0,1.0,1.0,33.7,34.3,34.3,3.8,3.5,2.64,0.505121351752997,-0.01945865789430925,0.8477600511611452,0.0013842524688960614,-0.115103,-34.19582
11.185,2.0,1.0,1.0,33.7,34.3,34.3,3.8,3.5,2.6425,0.4970244455222357,-0.019863756324333945,0.8522760117696524,0.0012145851402993282,-0.117052,-34.022565
11.185,2.0,1.0,1.0,33.7,34.3,34.3,3.8,3.5,2.645,0.4888229916878964,-0.02027938527275749,0.856743668477396,0.0010362358411709735,-0.119061,-33.84758
11.185,2.0,1.0,1.0,33.7,34.3,34.3,3.8,3.5,2.6475,0.48051561325372916,-0.020705940026436515,0.8611612150610708,0.0008487573916828303,-0.121131,-33.67081
11.185,2.0,1.0,1.0,33.7,34.3,34.3,3.8,3.5,2.65,0.47210090540163063,-0.02114383634058768,0.8655267765331501,0.0006516739352413872,-0.123266,-33.492201
11.185,2.0,1.0,1.0,33.7,34.3,34.3,3.8,3.5,2.6525,0.4635774344000307,-0.02159351177946015,0.8698384056610229,0.0004444786545969034,-0.12547,-33.311695
11.185,2.0,1.0,1.0,33.7,34.3,34.3,3.8,3.5,2.655,0.45494373642705727,-0.022055427160913913,0.8740940792300348,0.00022663126880354247,-0.127744,-33.129232
11.185,2.0,1.0,1.0,33.7,34.3,34.3,3.8,3.5,2.6575,0.4461983163001415,-0.02253006811394673,0.8782916940244465,-2.4447135961498425e-06,-0.130093,-32.94475
11.185,2.0,1.0,1.0,33.7,34.3,34.3,3.8,3.5,2.66,0.43733964610285536,-0.023017946759058813,0.8824290624970897,-0.00024336501296036634,-0.13252,-32.758183
11.185,2.0,1.0,1.0,33.7,34.3,34.3,3.8,3.5,2.6625,0.4283661636988688,-0.02351960352225701,0.8865039080947648,-0.0004967878999445597,-0.135029,-32.569463
11.185,2.0,1.0,1.0,33.7,34.3,34.3,3.8,3.5,2.665,0.4192762711218739,-0.024035609094499494,0.8905138602021704,-0.000763417855507008,-0.137625,-32.378518
11.185,2.0,1.0,1.0,33.7,34.3,34.3,3.8,3.5,2.6675,0.4100683328292661,-0.024566566549462703,0.8944564486622357,-0.001044009609923796,-0.140312,-32.185274
11.185,2.0,1.0,1.0,33.7,34.3,34.3,3.8,3.5,2.67,0.4007406738061353,-0.025113113633687647,0.898329097825085,-0.0013393726067344681,-0.143094,-31.989653
11.185,2.0,1.0,1.0,33.7,34.3,34.3,3.8,3.5,2.6725,0.3912915775048412,-0.025675925244425028,0.9021291200713583,-0.0016503759439201785,-0.145978,-31.791572
11.185,2.0,1.0,1.0,33.7,34.3,34.3,3.8,3.5,2.675,0.3817192836040556,-0.026255716111857823,0.9058537087480609,-0.001977953851991678,-0.148968,-31.590945
11.185,2.0,1.0,1.0,33.7,34.3,34.3,3.8,3.5,2.6775,0.3720219855696382,-0.02685324370382487,0.9094999304464048,-0.0023231117772191715,-0.15207,-31.387682
11.185,2.0,1.0,1.0,33.7,34.3,34.3,3.8,3.5,2.68,0.36219782799812966,-0.027469311372705016,0.9130647165409649,-0.0026869331481707633,-0.155292,-31.181689
11.185,2.0,1.0,1.0,33.7,34.3,34.3,3.8,3.5,2.6825,0.3522449037219687,-0.02810477176571946,0.9165448538976773,-0.0030705869152999935,-0.15864,-30.972865
11.185,2.0,1.0,1.0,33.7,34.3,34.3,3.8,3.5,2.685,0.3421612506537782,-0.028760530521570637,0.9199369746444503,-0.0034753359668254547,-0.162121,-30.761107
11.185,2.0,1.0,1.0,33.7,34.3,34.3,3.8,3.5,2.6875,0.331944848345293,-0.0294375502780087,0.923237544882071,-0.00390254653994599,-0.165745,-30.546303
11.185,2.0,1.0,1.0,33.7,34.3,34.3,3.8,3.5,2.69,0.3215936142347299,-0.03013685501656619,0.9264428521942227,-0.004353698764965354,-0.169519,-30.328337
11.185,2.0,1.0,1.0,33.7,34.3,34.3,3.8,3.5,2.6925,0.31110539955465716,-0.030859534772261762,0.9295489917932714,-0.00483039850168445,-0.173454,-30.107088
11.185,2.0,1.0,1.0,33.7,34.3,34.3,3.8,3.5,2.695,0.3004779848709303,-0.03160675073743618,0.9325518511123461,-0.005334390653098192,-0.177559,-29.882425
11.185,2.0,1.0,1.0,33.7,34.3,34.3,3.8,3.5,2.6975,0.2897090752219367,-0.03237974078993749,0.9354470926233985,-0.0058675741717874675,-0.181847,-29.654213
11.185,2.0,1.0,1.0,33.7,34.3,34.3,3.8,3.5,2.7,0.27879629482667795,-0.0331798254763996,0.9382301346243489,-0.006432019010359219,-0.186331,-29.422306
11.185,2.0,1.0,1.0,33.7,34.3,34.3,3.8,3.5,2.7025,0.26773718133010804,-0.03400841448114369,0.9408961296950105,-0.007029985310037623,-0.191023,-29.186552
11.185,2.0,1.0,1.0,33.7,34.3,34.3,3.8,3.5,2.705,0.2565291795551963,-0.03486701360987597,0.9434399404697263,-0.007663945172447889,-0.195938,-28.94679
11.185,2.0,1.0,1.0,33.7,34.3,34.3,3.8,3.5,2.7075,0.24516963473372738,-0.03575723231442481,0.9458561123128246,-0.008336607420533356,-0.201095,-28.702848
11.185,2.0,1.0,1.0,33.7,34.3,34.3,3.8,3.5,2.71,0.23365578519261787,-0.03668079177955352,0.9481388424088625,-0.009050945827552599,-0.206509,-28.454543
11.185,2.0,1.0,1.0,33.7,34.3,34.3,3.8,3.5,2.7125,0.22198475448037186,-0.03763953358454091,0.9502819446905341,-0.009810231380912022,-0.212203,-28.201682
11.185,2.0,1.0,1.0,33.7,34.3,34.3,3.8,3.5,2.715,0.2101535429304659,-0.038635428939482956,0.9522788099195958,-0.010618069253523574,-0.218197,-27.94406
11.185,2.0,1.0,1.0,33.7,34.3,34.3,3.8,3.5,2.7175,0.19815901867656102,-0.039670588477483844,0.9541223601060885,-0.01147844128360529,-0.224518,-27.681457
11.185,2.0,1.0,1.0,33.7,34.3,34.3,3.8,3.5,2.72,0.1859979081608648,-0.040747272556767335,0.9558049962931867,-0.012395754919555845,-0.231191,-27.413639
11.185,2.0,1.0,1.0,33.7,34.3,34.3,3.8,3.5,2.7225,0.17366678621467901,-0.04186790198812495,0.957318538542564,-0.013374899776286205,-0.238248,-27.140358
11.185,2.0,1.0,1.0,33.7,34.3,34.3,3.8,3.5,2.725,0.1611620658437221,-0.04303506904868713,0.958654156719911,-0.014421313181386966,-0.245723,-26.861346
11.185,2.0,1.0,1.0,33.7,34.3,34.3,3.8,3.5,2.7275,0.14847998792581849,-0.04425154856685507,0.9598022903916277,-0.0155410563741779,-0.253655,-26.576318
11.185,2.0,1.0,1.0,33.7,34.3,34.3,3.8,3.5,2.73,0.135616611133609,-0.045520308757104576,0.9607525557883537,-0.01674090337117925,-0.262086,-26.284969
11.185,2.0,1.0,1.0,33.7,34.3,34.3,3.8,3.5,2.7325,0.12256780254106073,-0.04684452133591707,0.9614936373519758,-0.01802844494464042,-0.271065,-25.98697
11.185,2.0,1.0,1.0,33.7,34.3,34.3,3.8,3.5,2.735,0.10932922957602574,-0.04822757024538753,0.9620131608383155,-0.01941221069779557,-0.280648,-25.681969
11.185,2.0,1.0,1.0,33.7,34.3,34.3,3.8,3.5,2.7375,0.09589635426387785,-0.04967305802692808,0.9622975442703177,-0.020901812888763697,-0.290896,-25.369588
11.185,2.0,1.0,1.0,33.7,34.3,34.3,3.8,3.5,2.74,0.08226443110094782,-0.05118480849263753,0.9623318221907085,-0.02250811648935995,-0.301882,-25.049416
11.185,2.0,1.0,1.0,33.7,34.3,34.3,3.8,3.5,2.7425,0.06842851044521492,-0.052766863792217185,0.9620994376035196,-0.02424344101021896,-0.313687,-24.721013
11.185,2.0,1.0,1.0,33.7,34.3,34.3,3.8,3.5,2.745,0.05438345007871333,-0.05442347320596674,0.9615819946624136,-0.026121800936777316,-0.326404,-24.383903
11.185,2.0,1.0,1.0,33.7,34.3,34.3,3.8,3.5,2.7475,0.04012393867144928,-0.056159069919668535,0.9607589634860567,-0.028159193275009375,-0.340143,-24.037569
11.185,2.0,1.0,1.0,33.7,34.3,34.3,3.8,3.5,2.75,0.0256445363901422,-0.0579782305259665,0.959607326361978,-0.0303739427946668,-0.355028,-23.681453
11.185,2.0,1.0,1.0,33.7,34.3,34.3,3.8,3.5,2.7525,0.010939740034733813,-0.059885609862331296,0.9581011519202043,-0.0327871181992798,-0.371207,-23.314947
11.185,2.0,1.0,1.0,33.7,34.3,34.3,3.8,3.5,2.755,-0.003995916874679029,-0.061885840765641645,0.9562110804655876,-0.03542303579438455,-0.388849,-22.93739
11.185,2.0,1.0,1.0,33.7,34.3,34.3,3.8,3.5,2.7575,-0.01916771429614111,-0.06398338399855878,0.9539036993672543,-0.038309871450434234,-0.408156,-22.548065
11.185,2.0,1.0,1.0,33.7,34.3,34.3,3.8,3.5,2.76,-0.03458052514720469,-0.06618230739359199,0.9511407819927549,-0.04148040698181939,-0.429367,-22.146188
11.185,2.0,1.0,1.0,33.7,34.3,34.3,3.8,3.5,2.7625,-0.050238494050296116,-0.06848596429052992,0.9478783568911024,-0.04497294373360733,-0.452765,-21.730903
11.185,2.0,1.0,1.0,33.7,34.3,34.3,3.8,3.5,2.765,-0.06614457220414763,-0.07089652830001437,0.9440655655161002,-0.048832424430871796,-0.47869,-21.301277
11.185,2.0,1.0,1.0,33.7,34.3,34.3,3.8,3.5,2.7675,-0.08229984603055168,-0.07341432233540308,0.9396432565402377,-0.05311181438866181,-0.507551,-20.856289
11.185,2.0,1.0,1.0,33.7,34.3,34.3,3.8,3.5,2.77,-0.09870256892133615,-0.07603685172677846,0.9345422527408634,-0.057873804987638396,-0.539845,-20.394826
11.185,2.0,1.0,1.0,33.7,34.3,34.3,3.8,3.5,2.7725,-0.11534676338464953,-0.07875740951956056,0.9286812130421945,-0.06319291537456144,-0.57618,-19.91567
11.185,2.0,1.0,1.0,33.7,34.3,34.3,3.8,3.5,2.775,-0.13222019816534872,-0.08156305984055312,0.921963999170159,-0.06915808102621378,-0.617306,-19.417497
11.185,2.0,1.0,1.0,33.7,34.3,34.3,3.8,3.5,2.7775,-0.1493014508340326,-0.08443171194607904,0.9142764474383657,-0.07587582618572618,-0.664154,-18.898868
11.185,2.0,1.0,1.0,33.7,34.3,34.3,3.8,3.5,2.78,-0.16655562477010513,-0.08732785730797352,0.9054824500591295,-0.08347411261262713,-0.717889,-18.358232
11.185,2.0,1.0,1.0,33.7,34.3,34.3,3.8,3.5,2.7825,-0.18392807634723232,-0.09019633109533932,0.8954192850979824,-0.0921069215913856,-0.779988,-17.793935
11.185,2.0,1.0,1.0,33.7,34.3,34.3,3.8,3.5,2.785,-0.20133518868674694,-0.09295314339685248,0.8838922363529861,-0.1019595232876994,-0.852332,-17.204236
11.185,2.0,1.0,1.0,33.7,34.3,34.3,3.8,3.5,2.7875,-0.21865075543112383,-0.09547195815236306,0.8706687868189811,-0.11325414497810855,-0.937338,-16.587357
11.185,2.0,1.0,1.0,33.7,34.3,34.3,3.8,3.5,2.79,-0.2356858565347195,-0.09756412517124656,0.8554731943614035,-0.12625522606203285,-1.038144,-15.941563
11.185,2.0,1.0,1.0,33.7,34.3,34.3,3.8,3.5,2.7925,-0.2521591797452039,-0.09894925620432428,0.83798333897855,-0.1412723721985718,-1.158845,-15.2653
11.185,2.0,1.0,1.0,33.7,34.3,34.3,3.8,3.5,2.795,-0.2676536268988285,-0.09921224245024032,0.8178338767227579,-0.15865698920890103,-1.304804,-14.557445
11.185,2.0,1.0,1.0,33.7,34.3,34.3,3.8,3.5,2.7975,-0.281554134542553,-0.09774173022345951,0.7946338463301674,-0.17878449940285884,-1.483041,-13.817704
11.185,2.0,1.0,1.0,33.7,34.3,34.3,3.8,3.5,2.8,-0.29296224215234884,-0.09364570741729586,0.7680143812079261,-0.2020066080557051,-1.702635,-13.047269
11.185,2.0,1.0,1.0,33.7,34.3,34.3,3.8,3.5,2.8025,-0.30058861428515593,-0.08564553789387837,0.7377348049122899,-0.22854560623971706,-1.974957,-12.249851
11.185,2.0,1.0,1.0,33.7,34.3,34.3,3.8,3.5,2.805,-0.3026437762639124,-0.07196874943059987,0.7038932620250509,-0.2582850815856393,-2.313183,-11.433274
11.185,2.0,1.0,1.0,33.7,34.3,34.3,3.8,3.5,2.8075,-0.2967956528200503,-0.050308841692990235,0.667302707536796,-0.29039711397446616,-2.729628,-10.611729
11.185,2.0,1.0,1.0,33.7,34.3,34.3,3.8,3.5,2.81,-0.28035912563085247,-0.018016003601449088,0.6300694151188098,-0.3227699633893546,-3.227685,-9.808628
11.185,2.0,1.0,1.0,33.7,34.3,34.3,3.8,3.5,2.8125,-0.251011106552633,0.0271910183473468,0.596260740061412,-0.351349946216185,-3.782698,-9.059269
11.185,2.0,1.0,1.0,33.7,34.3,34.3,3.8,3.5,2.815,-0.20831639405176416,0.08571176645469629,0.5721586202880985,-0.3698978317746792,-4.309057,-8.411224
11.185,2.0,1.0,1.0,33.7,34.3,34.3,3.8,3.5,2.8175,-0.15578135181804967,0.15403496242535875,0.5651069764890873,-0.3711410972686228,-4.639295,-7.919015
11.185,2.0,1.0,1.0,33.7,34.3,34.3,3.8,3.5,2.82,-0.10183310308248666,0.22378437484887384,0.5802923257254117,-0.349968669430961,-4.595339,-7.630661
11.185,2.0,1.0,1.0,33.7,34.3,34.3,3.8,3.5,2.8225,-0.05754147815928648,0.2839947998877061,0.6169883610612373,-0.3071405211048199,-4.15685,-7.569909
11.185,2.0,1.0,1.0,33.7,34.3,34.3,3.8,3.5,2.825,-0.03154421828207503,0.3261437999457978,0.6678880693243543,-0.24992401249181678,-3.496249,-7.725458
11.185,2.0,1.0,1.0,33.7,34.3,34.3,3.8,3.5,2.8275,-0.02634219422598111,0.347804084341851,0.7228239897364216,-0.18838903028451054,-2.813585,-8.056019
