1,w,sub_t,h,l1,l2,l3,g1,g2,Freq,S11_re,S21_re,S11_img,S21_img,S11_dB,S21_dB
11.185,2.0,1.0,1.0,33.8,33.3,33.3,2.4,4.2,2.5,0.810839019121356,-0.00789128542574747,0.573468506422764,0.00503291362478536,-0.059795,-40.57483
11.185,2.0,1.0,1.0,33.8,33.3,33.3,2.4,4.2,2.5025,0.806676139049069,-0.008037831072523835,0.5791973915140443,0.0050348498982441025,-0.060368,-40.459677
11.185,2.0,1.0,1.0,33.8,33.3,33.3,2.4,4.2,2.505,0.8024527141125655,-0.008186704935703218,0.5849217507960742,0.00503554585489668,-0.06095,-40.344274
11.185,2.0,1.0,1.0,33.8,33.3,33.3,2.4,4.2,2.5075,0.7981681343919408,-0.008337944683659216,0.5906412029665955,0.005034957830951278,-0.061542,-40.228614
11.185,2.0,1.0,1.0,33.8,33.3,33.3,2.4,4.2,2.51,0.793821781390468,-0.008491588623672417,0.5963553554636479,0.005033040724774521,-0.062144,-40.112691
11.185,2.0,1.0,1.0,33.8,33.3,33.3,2.4,4.2,2.5125,0.7894130279456673,-0.00864767570975799,0.6020638041182117,0.0050297479461280095,-0.062756,-39.996498
11.185,2.0,1.0,1.0,33.8,33.3,33.3,2.4,4.2,2.515,0.784941238141721,-0.008806245550323106,0.6077661327961965,0.005025031363481052,-0.063379,-39.880031
11.185,2.0,1.0,1.0,33.8,33.3,33.3,2.4,4.2,2.5175,0.7804057672234179,-0.00896733841562896,0.6134619130294288,0.005018841249322292,-0.064012,-39.763282
11.185,2.0,1.0,1.0,33.8,33.3,33.3,2.4,4.2,2.52,0.7758059615117905,-0.009130995245031786,0.6191507036353147,0.005011126223387313,-0.064657,-39.646245
11.185,2.0,1.0,1.0,33.8,33.3,33.3,2.4,4.2,2.5225,0.771141158321664,-0.009297257653973382,0.6248320503247963,0.005001833193718143,-0.065312,-39.528913
11.185,2.0,1.0,1.0,33.8,33.3,33.3,2.4,4.2,2.525,0.7664106858812951,-0.009466167940691432,0.6305054852982613,0.004990907295464632,-0.065979,-39.411282
11.185,2.0,1.0,1.0,33.8,33.3,33.3,2.4,4.2,2.5275,0.7616138632543344,-0.009637769092616266,0.6361705268290225,0.004978291827334798,-0.066658,-39.293343
11.185,2.0,1.0,1.0,33.8,33.3,33.3,2.4,4.2,2.53,0.7567500002643381,-0.009812104792418765,0.6418266788339705,0.004963928185597699,-0.067349,-39.175091
11.185,2.0,1.0,1.0,33.8,33.3,33.3,2.4,4.2,2.5325,0.7518183974220719,-0.009989219423671813,0.6474734304310085,0.004947755795536281,-0.068051,-39.056519
11.185,2.0,1.0,1.0,33.8,33.3,33.3,2.4,4.2,2.535,0.7468183458558652,-0.010169158076084458,0.6531102554828637,0.004929712040245105,-0.068766,-38.93762
11.185,2.0,1.0,1.0,33.8,33.3,33.3,2.4,4.2,2.5375,0.7417491272452935,-0.010351966550264874,0.6587366121268319,0.004909732186661586,-0.069494,-38.818389
11.185,2.0,1.0,1.0,33.8,33.3,33.3,2.4,4.2,2.54,0.7366100137584761,-0.010537691361966224,0.6643519422900365,0.004887749308715643,-0.070235,-38.698817
11.185,2.0,1.0,1.0,33.8,33.3,33.3,2.4,4.2,2.5425,0.7314002679932933,-0.010726379745764316,0.6699556711897443,0.0048636942074760416,-0.070989,-38.578899
11.185,2.0,1.0,1.0,33.8,33.3,33.3,2.4,4.2,2.545,0.7261191429228518,-0.010918079658114166,0.6755472068182782,0.004837495328167936,-0.071757,-38.458627
11.185,2.0,1.0,1.0,33.8,33.3,33.3,2.4,4.2,2.5475,0.7207658818455466,-0.011112839779727208,0.6811259394120374,0.004809078673928715,-0.072539,-38.337995
11.185,2.0,1.0,1.0,33.8,33.3,33.3,2.4,4.2,2.55,0.715339718340065,-0.011310709517208245,0.6866912409041556,0.004778367716164522,-0.073335,-38.216996
11.185,2.0,1.0,1.0,33.8,33.3,33.3,2.4,4.2,2.5525,0.709839876225747,-0.011511739003885147,0.6922424643602653,0.004745283301362819,-0.074145,-38.095623
11.185,2.0,1.0,1.0,33.8,33.3,33.3,2.4,4.2,2.555,0.7042655695286776,-0.011715979099761619,0.6977789433968652,0.0047097435542099685,-0.074971,-37.973868
11.185,2.0,1.0,1.0,33.8,33.3,33.3,2.4,4.2,2.5575,0.6986160024539613,-0.011923481390516385,0.7032999915817515,0.0046716637768558795,-0.075812,-37.851724
11.185,2.0,1.0,1.0,33.8,33.3,33.3,2.4,4.2,2.56,0.692890369364625,-0.012134298185468259,0.7088049018159522,0.0046309563441602345,-0.076668,-37.729185
11.185,2.0,1.0,1.0,33.8,33.3,33.3,2.4,4.2,2.5625,0.6870878547676336,-0.012348482514420101,0.7142929456966046,0.00458753059474792,-0.07754,-37.606243
11.185,2.0,1.0,1.0,33.8,33.3,33.3,2.4,4.2,2.565,0.6812076333075168,-0.012566088123288636,0.7197633728601919,0.004541292717691752,-0.078429,-37.48289
11.185,2.0,1.0,1.0,33.8,33.3,33.3,2.4,4.2,2.5675,0.6752488697681573,-0.012787169468420782,0.7252154103055277,0.0044921456346341425,-0.079334,-37.359119
11.185,2.0,1.0,1.0,33.8,33.3,33.3,2.4,4.2,2.57,0.6692107190832925,-0.013011781709489944,0.7306482616958815,0.004439988877148544,-0.080257,-37.234923
11.185,2.0,1.0,1.0,33.8,33.3,33.3,2.4,4.2,2.5725,0.6630923263563341,-0.013239980700858493,0.7360611066396044,0.004384718459133642,-0.081197,-37.110294
11.185,2.0,1.0,1.0,33.8,33.3,33.3,2.4,4.2,2.575,0.6568928268901332,-0.01347182298128426,0.7414530999485999,0.0043262267440226446,-0.082155,-36.985224
11.185,2.0,1.0,1.0,33.8,33.3,33.3,2.4,4.2,2.5775,0.6506113462273598,-0.013707365761840713,0.7468233708739695,0.004264402306579924,-0.083132,-36.859705
11.185,2.0,1.0,1.0,33.8,33.3,33.3,2.4,4.2,2.58,0.6442470002022006,-0.013946666911911106,0.7521710223181388,0.004199129789046689,-0.084127,-36.733729
11.185,2.0,1.0,1.0,33.8,33.3,33.3,2.4,4.2,2.5825,0.6377988950041091,-0.014189784943107221,0.7574951300227613,0.004130289751385716,-0.085142,-36.607289
11.185,2.0,1.0,1.0,33.8,33.3,33.3,2.4,4.2,2.585,0.6312661272544015,-0.014436778990952463,0.7627947417316598,0.004057758515363173,-0.086176,-36.480376
11.185,2.0,1.0,1.0,33.8,33.3,33.3,2.4,4.2,2.5875,0.624647784096512,-0.014687708794158911,0.7680688763280729,0.003981408002192842,-0.087231,-36.352982
11.185,2.0,1.0,1.0,33.8,33.3,33.3,2.4,4.2,2.59,0.6179429433007934,-0.014942634671314091,0.7733165229454141,0.0039011055634556803,-0.088307,-36.225099
11.185,2.0,1.0,1.0,33.8,33.3,33.3,2.4,4.2,2.5925,0.6111506733847625,-0.015201617494782512,0.7785366400507808,0.0038167138049919782,-0.089404,-36.096718
11.185,2.0,1.0,1.0,33.8,33.3,33.3,2.4,4.2,2.595,0.6042700337497859,-0.015464718661611141,0.7837281545003767,0.0037280904034506504,-0.090523,-35.96783
11.185,2.0,1.0,1.0,33.8,33.3,33.3,2.4,4.2,2.5975,0.5973000748351988,-0.015732000061214835,0.7888899605660352,0.0036350879151628456,-0.091664,-35.838428
11.185,2.0,1.0,1.0,33.8,33.3,33.3,2.4,4.2,2.6,0.5902398382909556,-0.016003524039601313,0.7940209189319861,0.0035375535769922055,-0.092828,-35.708502
11.185,2.0,1.0,1.0,33.8,33.3,33.3,2.4,4.2,2.6025,0.5830883571699437,-0.016279353359877714,0.7991198556609808,0.003435329098795988,-0.094016,-35.578044
11.185,2.0,1.0,1.0,33.8,33.3,33.3,2.4,4.2,2.605,0.5758446561411535,-0.01655955115876354,0.8041855611288958,0.0033282504471134227,-0.095228,-35.447043
11.185,2.0,1.0,1.0,33.8,33.3,33.3,2.4,4.2,2.6075,0.5685077517249736,-0.016844180898814794,0.8092167889268828,0.0032161476196785276,-0.096465,-35.315492
11.185,2.0,1.0,1.0,33.8,33.3,33.3,2.4,4.2,2.61,0.5610766525519415,-0.01713330631604277,0.8142122547301255,0.0030988444103345,-0.097728,-35.183381
11.185,2.0,1.0,1.0,33.8,33.3,33.3,2.4,4.2,2.6125,0.553550359646357,-0.017426991362589395,0.8191706351322446,0.0029761581639052804,-0.099017,-35.0507
11.185,2.0,1.0,1.0,33.8,33.3,33.3,2.4,4.2,2.615,0.5459278667362264,-0.01772530014409623,0.8240905664443601,0.0028478995205573785,-0.100332,-34.91744
11.185,2.0,1.0,1.0,33.8,33.3,33.3,2.4,4.2,2.6175,0.5382081605911144,-0.01802829685137778,0.8289706434577949,0.0027138721491618365,-0.101675,-34.783591
11.185,2.0,1.0,1.0,33.8,33.3,33.3,2.4,4.2,2.62,0.5303902213895362,-0.01833604568598369,0.8338094181693931,0.002573872469140206,-0.103047,-34.649144
11.185,2.0,1.0,1.0,33.8,33.3,33.3,2.4,4.2,2.6225,0.5224730231176213,-0.018648610779202105,0.8386053984683924,0.0024276893602528235,-0.104447,-34.514087
11.185,2.0,1.0,1.0,33.8,33.3,33.3,2.4,4.2,2.625,0.514455534000891,-0.0189660561040261,0.843357046783763,0.00227510385975889,-0.105877,-34.378412
11.185,2.0,1.0,1.0,33.8,33.3,33.3,2.4,4.2,2.6275,0.5063367169710503,-0.019288445379569807,0.8480627786909174,0.002115888846349001,-0.107338,-34.242107
11.185,2.0,1.0,1.0,33.8,33.3,33.3,2.4,4.2,2.63,0.4981155301698443,-0.01961584196738293,0.852720961476653,0.0019498087102182576,-0.108831,-34.105162
11.185,2.0,1.0,1.0,33.8,33.3,33.3,2.4,4.2,2.6325,0.48979092749210157,-0.019948308759074218,0.8573299126611785,0.0017766190086168925,-0.110356,-33.967567
11.185,2.0,1.0,1.0,33.8,33.3,33.3,2.4,4.2,2.635,0.4813618591702269,-0.020285908054607827,0.8618878984760421,0.0015960661061775814,-0.111914,-33.82931
11.185,2.0,1.0,1.0,33.8,33.3,33.3,2.4,4.2,2.6375,0.47282727240251865,-0.02062870143059406,0.8663931322967612,0.0014078867992839295,-0.113507,-33.69038
11.185,2.0,1.0,1.0,33.8,33.3,33.3,2.4,4.2,2.64,0.4641861120277984,-0.02097674959784254,0.8708437730289322,0.00121180792370417,-0.115135,-33.550767
11.185,2.0,1.0,1.0,33.8,33.3,33.3,2.4,4.2,2.6425,0.45543732124901015,-0.021330112247393354,0.8752379234465603,0.0010075459446715718,-0.116798,-33.410458
11.185,2.0,1.0,1.0,33.8,33.3,33.3,2.4,4.2,2.645,0.44657984240855575,-0.02168884788418272,0.8795736284813439,0.0007948065285506777,-0.1185,-33.269442
11.185,2.0,1.0,1.0,33.8,33.3,33.3,2.4,4.2,2.6475,0.4376126178183034,-0.022053013647437152,0.8838488734616095,0.0005732840951799404,-0.120239,-33.127707
11.185,2.0,1.0,1.0,33.8,33.3,33.3,2.4,4.2,2.65,0.4285345906473448,-0.022422665116822137,0.8880615822995844,0.00034266134993248844,-0.122018,-32.985241
11.185,2.0,1.0,1.0,33.8,33.3,33.3,2.4,4.2,2.6525,0.4193447058707852,-0.02279785610329619,0.892209615625645,0.00010260879448345856,-0.123838,-32.842032
11.185,2.0,1.0,1.0,33.8,33.3,33.3,2.4,4.2,2.655,0.4100419112829654,-0.023178638423544645,0.8962907688681926,-0.0001472157847834241,-0.125699,-32.698066
11.185,2.0,1.0,1.0,33.8,33.3,33.3,2.4,4.2,2.6575,0.40062515857875913,-0.023565061656778123,0.9003027702777491,-0.00040716785185754956,-0.127604,-32.553332
11.185,2.0,1.0,1.0,33.8,33.3,33.3,2.4,4.2,2.66,0.3910934045067527,-0.02395717288259112,0.9042432788938649,-0.0006776166808611031,-0.129553,-32.407816
11.185,2.0,1.0,1.0,33.8,33.3,33.3,2.4,4.2,2.6625,0.3814456120983403,-0.024355016398470708,0.9081098824534003,-0.0009589459417451278,-0.131547,-32.261504
11.185,2.0,1.0,1.0,33.8,33.3,33.3,2.4,4.2,2.665,0.3716807519769689,-0.024758633415441805,0.9119000952387181,-0.0012515543132512648,-0.133589,-32.114383
11.185,2.0,1.0,1.0,33.8,33.3,33.3,2.4,4.2,2.6675,0.36179780375203136,-0.02516806173021142,0.9156113558643092,-0.0015558561245437076,-0.135679,-31.966439
11.185,2.0,1.0,1.0,33.8,33.3,33.3,2.4,4.2,2.67,0.3517957575021259,-0.02558333537204923,0.9192410250003383,-0.0018722820269997209,-0.137819,-31.817659
11.185,2.0,1.0,1.0,33.8,33.3,33.3,2.4,4.2,2.6725,0.34167361535266416,-0.02600448422250165,0.9227863830315965,-0.002201279697730136,-0.14001,-31.668026
11.185,2.0,1.0,1.0,33.8,33.3,33.3,2.4,4.2,2.675,0.33143039315311934,-0.02643153360588308,0.9262446276502996,-0.0025433145764954747,-0.142255,-31.517527
11.185,2.0,1.0,1.0,33.8,33.3,33.3,2.4,4.2,2.6775,0.3210651222594597,-0.02686450384832523,0.9296128713811646,-0.0028988706377808676,-0.144555,-31.366147
11.185,2.0,1.0,1.0,33.8,33.3,33.3,2.4,4.2,2.68,0.3105768514276508,-0.02730340980298491,0.9328881390371836,-0.003268451199896283,-0.146911,-31.213869
11.185,2.0,1.0,1.0,33.8,33.3,33.3,2.4,4.2,2.6825,0.29996464882444507,-0.02774826033881473,0.9360673651044648,-0.0036525797730821707,-0.149326,-31.060678
11.185,2.0,1.0,1.0,33.8,33.3,33.3,2.4,4.2,2.685,0.2892276041620131,-0.028199057790089015,0.9391473910545166,-0.004051800948717218,-0.151801,-30.906558
11.185,2.0,1.0,1.0,33.8,33.3,33.3,2.4,4.2,2.6875,0.278364830963364,-0.0286557973636448,0.942124962582317,-0.00446668133185381,-0.154338,-30.751493
11.185,2.0,1.0,1.0,33.8,33.3,33.3,2.4,4.2,2.69,0.2673754689659103,-0.0291184665005426,0.944996726768479,-0.004897810519439799,-0.15694,-30.595465
11.185,2.0,1.0,1.0,33.8,33.3,33.3,2.4,4.2,2.6925,0.25625868667092605,-0.029587044188577587,0.9477592291638219,-0.005345802126732981,-0.159608,-30.438456
11.185,2.0,1.0,1.0,33.8,33.3,33.3,2.4,4.2,2.695,0.2450136840471736,-0.030061500221764854,0.9504089107946059,-0.005811294864565066,-0.162345,-30.28045
11.185,2.0,1.0,1.0,33.8,33.3,33.3,2.4,4.2,2.6975,0.23363969539736784,-0.0305417944025956,0.9529421050866916,-0.006294953670281371,-0.165153,-30.121427
11.185,2.0,1.0,1.0,33.8,33.3,33.3,2.4,4.2,2.7,0.22213599239678017,-0.031027875682492996,0.9553550347068317,-0.006797470895353805,-0.168034,-29.961369
11.185,2.0,1.0,1.0,33.8,33.3,33.3,2.4,4.2,2.7025,0.2105018873137476,-0.03151968123550287,0.9576438083192969,-0.007319567552857813,-0.170992,-29.800258
11.185,2.0,1.0,1.0,33.8,33.3,33.3,2.4,4.2,2.705,0.19873673642253475,-0.03201713545981434,0.9598044172559904,-0.00786199462820093,-0.174028,-29.638072
11.185,2.0,1.0,1.0,33.8,33.3,33.3,2.4,4.2,2.7075,0.18683994361958933,-0.03252014890122819,0.9618327320981827,-0.008425534456708095,-0.177146,-29.474793
11.185,2.0,1.0,1.0,33.8,33.3,33.3,2.4,4.2,2.71,0.17481096425497164,-0.033028617092160956,0.9637244991679573,-0.009011002171898009,-0.180348,-29.310399
11.185,2.0,1.0,1.0,33.8,33.3,33.3,2.4,4.2,2.7125,0.1626493091914582,-0.033542419299195464,0.9654753369274195,-0.00961924722852949,-0.183637,-29.144869
11.185,2.0,1.0,1.0,33.8,33.3,33.3,2.4,4.2,2.715,0.1503545491046648,-0.034061417171546225,0.9670807322836772,-0.010251155004759522,-0.187018,-28.978181
11.185,2.0,1.0,1.0,33.8,33.3,33.3,2.4,4.2,2.7175,0.13792631903838612,-0.03458545328210607,0.9685360367975567,-0.010907648488034934,-0.190492,-28.810312
11.185,2.0,1.0,1.0,33.8,33.3,33.3,2.4,4.2,2.72,0.12536432323034252,-0.03511434955195983,0.9698364627939502,-0.011589690049636314,-0.194063,-28.64124
11.185,2.0,1.0,1.0,33.8,33.3,33.3,2.4,4.2,2.7225,0.1126683402245002,-0.035647905548394525,0.9709770793716545,-0.012298283313114704,-0.197736,-28.47094
11.185,2.0,1.0,1.0,33.8,33.3,33.3,2.4,4.2,2.725,0.09983822828734462,-0.03618589664548132,0.9719528083104675,-0.013034475122196786,-0.201513,-28.299389
11.185,2.0,1.0,1.0,33.8,33.3,33.3,2.4,4.2,2.7275,0.08687393114661922,-0.036728072035255584,0.9727584198732542,-0.01379935761410124,-0.205399,-28.12656
11.185,2.0,1.0,1.0,33.8,33.3,33.3,2.4,4.2,2.73,0.07377548407247705,-0.03727415257635148,0.9733885285006021,-0.014594070404587227,-0.209399,-27.952428
11.185,2.0,1.0,1.0,33.8,33.3,33.3,2.4,4.2,2.7325,0.060543020322380736,-0.03782382846565535,0.9738375883955965,-0.015419802891470788,-0.213516,-27.776966
11.185,2.0,1.0,1.0,33.8,33.3,33.3,2.4,4.2,2.735,0.04717677797276606,-0.038376756717102056,0.9740998889961435,-0.016277796683773008,-0.217755,-27.600147
11.185,2.0,1.0,1.0,33.8,33.3,33.3,2.4,4.2,2.7375,0.033677107162199786,-0.03893255843014008,0.9741695503321579,-0.017169348164125544,-0.222122,-27.421941
11.185,2.0,1.0,1.0,33.8,33.3,33.3,2.4,4.2,2.74,0.02004447777274824,-0.03949081582860958,0.9740405182648096,-0.018095811192541177,-0.226621,-27.24232
11.185,2.0,1.0,1.0,33.8,33.3,33.3,2.4,4.2,2.7425,0.006279487578396044,-0.04005106904879236,0.9737065596048955,-0.01905859996016842,-0.231257,-27.061254
11.185,2.0,1.0,1.0,33.8,33.3,33.3,2.4,4.2,2.745,-0.007617129108257318,-0.04061281265317731,0.9731612571072488,-0.020059192002180856,-0.236038,-26.87871
11.185,2.0,1.0,1.0,33.8,33.3,33.3,2.4,4.2,2.7475,-0.021644492257160263,-0.041175491844008275,0.9723980043379604,-0.02109913137951268,-0.240968,-26.694656
11.185,2.0,1.0,1.0,33.8,33.3,33.3,2.4,4.2,2.75,-0.0358015663730678,-0.0417384983479129,0.971410000411012,-0.0221800320397301,-0.246054,-26.509059
11.185,2.0,1.0,1.0,33.8,33.3,33.3,2.4,4.2,2.7525,-0.05008715013886792,-0.042301165939808545,0.9701902445907712,-0.023303581367927092,-0.251302,-26.321885
11.185,2.0,1.0,1.0,33.8,33.3,33.3,2.4,4.2,2.755,-0.06449986540631805,-0.04286276557080203,0.9687315307566144,-0.024471543939144608,-0.256721,-26.133097
11.185,2.0,1.0,1.0,33.8,33.3,33.3,2.4,4.2,2.7575,-0.07903814548655569,-0.04342250006089664,0.9670264417257912,-0.025685765484437236,-0.262317,-25.942658
11.185,2.0,1.0,1.0,33.8,33.3,33.3,2.4,4.2,2.76,-0.09370022268812409,-0.04397949831292796,0.9650673434304873,-0.026948177083325614,-0.268099,-25.75053
11.185,2.0,1.0,1.0,33.8,33.3,33.3,2.4,4.2,2.7625,-0.10848411504529845,-0.044532808999209424,0.9628463789449077,-0.028260799595985455,-0.274075,-25.556672
11.185,2.0,1.0,1.0,33.8,33.3,33.3,2.4,4.2,2.765,-0.1233876121737284,-0.0450813936668008,0.9603554623580955,-0.02962574834910575,-0.280254,-25.361045
11.185,2.0,1.0,1.0,33.8,33.3,33.3,2.4,4.2,2.7675,-0.13840826018404,-0.04562411920103039,0.9575862724881666,-0.03104523808988534,-0.286646,-25.163604
11.185,2.0,1.0,1.0,33.8,33.3,33.3,2.4,4.2,2.77,-0.1535433455768502,-0.046159749579804,0.9545302464336354,-0.03252158822310813,-0.293261,-24.964304
11.185,2.0,1.0,1.0,33.8,33.3,33.3,2.4,4.2,2.7725,-0.16878987803446596,-0.046686936843206676,0.9511785729576474,-0.03405722834660608,-0.30011,-24.763101
11.185,2.0,1.0,1.0,33.8,33.3,33.3,2.4,4.2,2.775,-0.18414457201534415,-0.04720421119381131,0.9475221857011781,-0.035654704100648485,-0.307204,-24.559946
11.185,2.0,1.0,1.0,33.8,33.3,33.3,2.4,4.2,2.7775,-0.19960382704696614,-0.047709970132799866,0.9435517562216945,-0.03731668334683859,-0.314556,-24.354788
11.185,2.0,1.0,1.0,33.8,33.3,33.3,2.4,4.2,2.78,-0.21516370660093737,-0.04820246652529835,0.9392576868544608,-0.039045962691890874,-0.322179,-24.147576
11.185,2.0,1.0,1.0,33.8,33.3,33.3,2.4,4.2,2.7825,-0.23081991542063127,-0.048679795475021825,0.934630103394663,-0.04084547437111533,-0.330087,-23.938256
11.185,2.0,1.0,1.0,33.8,33.3,33.3,2.4,4.2,2.785,-0.2465677751564727,-0.04913987987318572,0.9296588475999272,-0.0427182935054756,-0.338295,-23.726771
11.185,2.0,1.0,1.0,33.8,33.3,33.3,2.4,4.2,2.7875,-0.2624021981464003,-0.049580454469383965,0.9243334695147668,-0.044667645744551294,-0.34682,-23.513063
11.185,2.0,1.0,1.0,33.8,33.3,33.3,2.4,4.2,2.79,-0.2783176591592134,-0.04999904829244921,0.9186432196210893,-0.04669691530550936,-0.355678,-23.297071
11.185,2.0,1.0,1.0,33.8,33.3,33.3,2.4,4.2,2.7925,-0.2943081648956748,-0.05039296522682763,0.9125770408224315,-0.04880965341503822,-0.364888,-23.078731
11.185,2.0,1.0,1.0,33.8,33.3,33.3,2.4,4.2,2.795,-0.3103672210162648,-0.05075926252429108,0.9061235602741577,-0.05100958715691455,-0.374471,-22.857976
11.185,2.0,1.0,1.0,33.8,33.3,33.3,2.4,4.2,2.7975,-0.32648779643452064,-0.05109472700136969,0.8992710810779496,-0.0533006287221078,-0.384447,-22.634738
11.185,2.0,1.0,1.0,33.8,33.3,33.3,2.4,4.2,2.8,-0.34266228458077075,-0.05139584863916223,0.8920075738666847,-0.05568688505074772,-0.394841,-22.408943
11.185,2.0,1.0,1.0,33.8,33.3,33.3,2.4,4.2,2.8025,-0.3588824613016726,-0.051658791263478235,0.8843206683159378,-0.05817266784535487,-0.405676,-22.180516
11.185,2.0,1.0,1.0,33.8,33.3,33.3,2.4,4.2,2.805,-0.3751394390157576,-0.05187935993882487,0.8761976446313157,-0.060762503921895,-0.416981,-21.949377
11.185,2.0,1.0,1.0,33.8,33.3,33.3,2.4,4.2,2.8075,-0.39142361669320874,-0.05205296465867394,0.8676254250774119,-0.06346114584870503,-0.428784,-21.715445
11.185,2.0,1.0,1.0,33.8,33.3,33.3,2.4,4.2,2.81,-0.40772462516818103,-0.05217457985568282,0.8585905656353405,-0.0662735828021979,-0.441117,-21.478633
11.185,2.0,1.0,1.0,33.8,33.3,33.3,2.4,4.2,2.8125,-0.424031267222934,-0.0522386991878998,0.849079247902753,-0.0692050515413012,-0.454015,-21.238849
11.185,2.0,1.0,1.0,33.8,33.3,33.3,2.4,4.2,2.815,-0.4403314518034951,-0.05223928497906653,0.8390772713843642,-0.07226104736835255,-0.467515,-20.996
11.185,2.0,1.0,1.0,33.8,33.3,33.3,2.4,4.2,2.8175,-0.4566121216347565,-0.05216971160133486,0.8285700463643606,-0.07544733490075448,-0.481658,-20.749986
11.185,2.0,1.0,1.0,33.8,33.3,33.3,2.4,4.2,2.82,-0.4728591733969796,-0.05202270198520908,0.8175425876068437,-0.07876995842276588,-0.496489,-20.500702
11.185,2.0,1.0,1.0,33.8,33.3,33.3,2.4,4.2,2.8225,-0.489057369503496,-0.051790256322191225,0.805979509199764,-0.0822352515173813,-0.512057,-20.248041
11.185,2.0,1.0,1.0,33.8,33.3,33.3,2.4,4.2,2.825,-0.5051902403784017,-0.05146357188807956,0.7938650209453656,-0.08584984559059919,-0.528414,-19.991888
11.185,2.0,1.0,1.0,33.8,33.3,33.3,2.4,4.2,2.8275,-0.5212399759705644,-0.05103295275642131,0.7811829268107497,-0.08962067678977628,-0.54562,-19.732124
