1,w,sub_t,h,l1,l2,l3,g1,g2,Freq,S11_re,S21_re,S11_img,S21_img,S11_dB,S21_dB
11.185,2.0,1.0,1.0,33.7,34.7,34.7,3.0,3.9,2.5,0.821461774122544,-0.00835159877554752,0.557554991782736,0.00545387460015123,-0.062698,-40.022033
11.185,2.0,1.0,1.0,33.7,34.7,34.7,3.0,3.9,2.5025,0.8174981307214748,-0.00852737122621719,0.5632096167284637,0.005473422815555892,-0.063397,-39.885378
11.185,2.0,1.0,1.0,33.7,34.7,34.7,3.0,3.9,2.505,0.8134757187260241,-0.008706909969823297,0.5688615112747262,0.005492122905727193,-0.064112,-39.748019
11.185,2.0,1.0,1.0,33.7,34.7,34.7,3.0,3.9,2.5075,0.8093938805917216,-0.008890320682107893,0.5745103603714236,0.0055099328603969286,-0.064841,-39.609939
11.185,2.0,1.0,1.0,33.7,34.7,34.7,3.0,3.9,2.51,0.8052519459796137,-0.009077713090679597,0.5801558388163641,0.005526808646180975,-0.065587,-39.471119
11.185,2.0,1.0,1.0,33.7,34.7,34.7,3.0,3.9,2.5125,0.8010492314146448,-0.009269201173247388,0.5857976108837571,0.0055427040917096215,-0.066349,-39.331538
11.185,2.0,1.0,1.0,33.7,34.7,34.7,3.0,3.9,2.515,0.7967850399299133,-0.009464903367659573,0.5914353299368015,0.00555757076504341,-0.067128,-39.191175
11.185,2.0,1.0,1.0,33.7,34.7,34.7,3.0,3.9,2.5175,0.7924586606959464,-0.009664942794573729,0.5970686380234667,0.00557135784276984,-0.067924,-39.050011
11.185,2.0,1.0,1.0,33.7,34.7,34.7,3.0,3.9,2.52,0.7880693686340401,-0.009869447493652442,0.6026971654545289,0.005584011970121985,-0.068737,-38.908023
11.185,2.0,1.0,1.0,33.7,34.7,34.7,3.0,3.9,2.5225,0.7836164240126714,-0.010078550674249969,0.6083205303628137,0.0055954771114002785,-0.06957,-38.76519
11.185,2.0,1.0,1.0,33.7,34.7,34.7,3.0,3.9,2.525,0.7790990720258736,-0.010292390981635527,0.6139383382425679,0.005605694389912749,-0.070421,-38.621488
11.185,2.0,1.0,1.0,33.7,34.7,34.7,3.0,3.9,2.5275,0.7745165423523944,-0.010511112779885121,0.619550181467753,0.005614601916576282,-0.071292,-38.476895
11.185,2.0,1.0,1.0,33.7,34.7,34.7,3.0,3.9,2.53,0.7698680486943652,-0.010734866452667753,0.625155638787981,0.005622134606241013,-0.072184,-38.331386
11.185,2.0,1.0,1.0,33.7,34.7,34.7,3.0,3.9,2.5325,0.7651527882940854,-0.010963808723255874,0.6307542748007146,0.0056282239807111355,-0.073097,-38.184937
11.185,2.0,1.0,1.0,33.7,34.7,34.7,3.0,3.9,2.535,0.7603699414274186,-0.01119810299520382,0.6363456393982254,0.005632797957337143,-0.074031,-38.037522
11.185,2.0,1.0,1.0,33.7,34.7,34.7,3.0,3.9,2.5375,0.7555186708721762,-0.011437919715260338,0.6419292671876831,0.0056357806219452175,-0.074988,-37.889114
11.185,2.0,1.0,1.0,33.7,34.7,34.7,3.0,3.9,2.54,0.750598121349705,-0.011683436760219598,0.6475046768826241,0.005637091984749,-0.075968,-37.739688
11.185,2.0,1.0,1.0,33.7,34.7,34.7,3.0,3.9,2.5425,0.7456074189377603,-0.011934839849563382,0.653071370663886,0.005636647717754194,-0.076972,-37.589214
11.185,2.0,1.0,1.0,33.7,34.7,34.7,3.0,3.9,2.545,0.7405456704525545,-0.012192322985912036,0.6586288335079169,0.005634358872017761,-0.078001,-37.437665
11.185,2.0,1.0,1.0,33.7,34.7,34.7,3.0,3.9,2.5475,0.7354119627977177,-0.01245608892548185,0.664176532480208,0.005630131572956641,-0.079057,-37.28501
11.185,2.0,1.0,1.0,33.7,34.7,34.7,3.0,3.9,2.55,0.7302053622776522,-0.012726349680947447,0.6697139159913751,0.005623866691716433,-0.080139,-37.131219
11.185,2.0,1.0,1.0,33.7,34.7,34.7,3.0,3.9,2.5525,0.7249249138725901,-0.013003327059323742,0.6752404130131774,0.005615459490403368,-0.081249,-36.97626
11.185,2.0,1.0,1.0,33.7,34.7,34.7,3.0,3.9,2.555,0.719569640472367,-0.013287253237728159,0.6807554322515456,0.00560479923875246,-0.082387,-36.8201
11.185,2.0,1.0,1.0,33.7,34.7,34.7,3.0,3.9,2.5575,0.7141385420656723,-0.013578371380147614,0.6862583612733633,0.005591768799546353,-0.083556,-36.662706
11.185,2.0,1.0,1.0,33.7,34.7,34.7,3.0,3.9,2.56,0.7086305948812259,-0.0138769362986314,0.6917485655834614,0.005576244179810625,-0.084756,-36.504042
11.185,2.0,1.0,1.0,33.7,34.7,34.7,3.0,3.9,2.5625,0.703044750476993,-0.0141832151626578,0.697225387647929,0.00555809404448666,-0.085988,-36.344072
11.185,2.0,1.0,1.0,33.7,34.7,34.7,3.0,3.9,2.565,0.6973799347731631,-0.014497488260783854,0.7026881458594395,0.0055371791889196826,-0.087254,-36.182759
11.185,2.0,1.0,1.0,33.7,34.7,34.7,3.0,3.9,2.5675,0.6916350470242237,-0.014820049819088573,0.7081361334398637,0.005513351966089709,-0.088556,-36.020063
11.185,2.0,1.0,1.0,33.7,34.7,34.7,3.0,3.9,2.57,0.6858089587249754,-0.015151208881364885,0.7135686172749384,0.005486455664052663,-0.089893,-35.855944
11.185,2.0,1.0,1.0,33.7,34.7,34.7,3.0,3.9,2.5725,0.6799005124448346,-0.01549129025651088,0.7189848366752208,0.005456323828538496,-0.091269,-35.690361
11.185,2.0,1.0,1.0,33.7,34.7,34.7,3.0,3.9,2.575,0.673908520584195,-0.015840635539120004,0.7243840020569013,0.005422779525066738,-0.092684,-35.523269
11.185,2.0,1.0,1.0,33.7,34.7,34.7,3.0,3.9,2.5775,0.6678317640459844,-0.016199604209882125,0.7297652935353882,0.00538563453427508,-0.09414,-35.354624
11.185,2.0,1.0,1.0,33.7,34.7,34.7,3.0,3.9,2.58,0.6616689908148455,-0.01656857482309086,0.7351278594237338,0.0053446884734049994,-0.09564,-35.184379
11.185,2.0,1.0,1.0,33.7,34.7,34.7,3.0,3.9,2.5825,0.6554189144355672,-0.01694794628931327,0.7404708146271162,0.005299727836034192,-0.097184,-35.012485
11.185,2.0,1.0,1.0,33.7,34.7,34.7,3.0,3.9,2.585,0.6490802123815275,-0.017338139262129616,0.7457932389235397,0.005250524941175956,-0.098776,-34.838891
11.185,2.0,1.0,1.0,33.7,34.7,34.7,3.0,3.9,2.5875,0.6426515243028967,-0.017739597638802732,0.7510941751197714,0.005196836781760697,-0.100417,-34.663545
11.185,2.0,1.0,1.0,33.7,34.7,34.7,3.0,3.9,2.59,0.6361314501432658,-0.018152790185801945,0.7563726270702059,0.005138403761255699,-0.102109,-34.486391
11.185,2.0,1.0,1.0,33.7,34.7,34.7,3.0,3.9,2.5925,0.6295185481120916,-0.018578212301302896,0.7616275575448707,0.005074948305740144,-0.103855,-34.307372
11.185,2.0,1.0,1.0,33.7,34.7,34.7,3.0,3.9,2.595,0.622811332498997,-0.01901638792812506,0.766857885931022,0.005006173337105497,-0.105658,-34.126429
11.185,2.0,1.0,1.0,33.7,34.7,34.7,3.0,3.9,2.5975,0.6160082713143414,-0.019467871632078013,0.7720624857508747,0.004931760591163646,-0.107519,-33.943499
11.185,2.0,1.0,1.0,33.7,34.7,34.7,3.0,3.9,2.6,0.6091077837387595,-0.019933250862384493,0.7772401819757171,0.00485136876227555,-0.109443,-33.758518
11.185,2.0,1.0,1.0,33.7,34.7,34.7,3.0,3.9,2.6025,0.6021082373623559,-0.020413148412759943,0.7823897481140859,0.0047646314536167675,-0.111433,-33.571416
11.185,2.0,1.0,1.0,33.7,34.7,34.7,3.0,3.9,2.605,0.5950079451919869,-0.02090822510388654,0.7875099030487087,0.004671154909316225,-0.113491,-33.382123
11.185,2.0,1.0,1.0,33.7,34.7,34.7,3.0,3.9,2.6075,0.587805162402548,-0.02141918271045781,0.7925993075934686,0.00457051550137648,-0.115621,-33.190565
11.185,2.0,1.0,1.0,33.7,34.7,34.7,3.0,3.9,2.61,0.5804980828053015,-0.021946767158723127,0.7976565607376782,0.004462256940428874,-0.117827,-32.996664
11.185,2.0,1.0,1.0,33.7,34.7,34.7,3.0,3.9,2.6125,0.5730848350030318,-0.02249177202358835,0.8026801955403395,0.004345887174901928,-0.120114,-32.800339
11.185,2.0,1.0,1.0,33.7,34.7,34.7,3.0,3.9,2.615,0.5655634781981247,-0.0230550423578634,0.8076686746317139,0.004220874937975657,-0.122485,-32.601503
11.185,2.0,1.0,1.0,33.7,34.7,34.7,3.0,3.9,2.6175,0.5579319976155024,-0.02363747889026932,0.8126203852732844,0.004086645895624131,-0.124946,-32.400067
11.185,2.0,1.0,1.0,33.7,34.7,34.7,3.0,3.9,2.62,0.5501882994975655,-0.024240042633383575,0.817533633919908,0.003942578341951911,-0.127502,-32.195937
11.185,2.0,1.0,1.0,33.7,34.7,34.7,3.0,3.9,2.6225,0.5423302056228868,-0.024863759947900743,0.8224066402194452,0.0037879983797157496,-0.130158,-31.989014
11.185,2.0,1.0,1.0,33.7,34.7,34.7,3.0,3.9,2.625,0.534355447294251,-0.0255097281155066,0.827237530375119,0.00362217451415467,-0.13292,-31.779193
11.185,2.0,1.0,1.0,33.7,34.7,34.7,3.0,3.9,2.6275,0.5262616587345567,-0.02617912147942002,0.832024329784117,0.0034443115767457525,-0.135795,-31.566366
11.185,2.0,1.0,1.0,33.7,34.7,34.7,3.0,3.9,2.63,0.5180463698210959,-0.026873198219365704,0.8367649548520179,0.0032535438819154576,-0.13879,-31.350416
11.185,2.0,1.0,1.0,33.7,34.7,34.7,3.0,3.9,2.6325,0.5097069980795175,-0.027593307836555423,0.841457203866203,0.003048927503642681,-0.141913,-31.131222
11.185,2.0,1.0,1.0,33.7,34.7,34.7,3.0,3.9,2.635,0.5012408398482683,-0.02834089943433227,0.8460987467918816,0.0028294315397765957,-0.145172,-30.908655
11.185,2.0,1.0,1.0,33.7,34.7,34.7,3.0,3.9,2.6375,0.4926450605122835,-0.02911753089166894,0.8506871138311075,0.0025939282091214716,-0.148576,-30.682579
11.185,2.0,1.0,1.0,33.7,34.7,34.7,3.0,3.9,2.64,0.4839166836908658,-0.029924879039920485,0.8552196825574452,0.0023411815991324298,-0.152135,-30.452851
11.185,2.0,1.0,1.0,33.7,34.7,34.7,3.0,3.9,2.6425,0.4750525792489364,-0.03076475096835976,0.8596936634056366,0.002069834849451531,-0.15586,-30.219318
11.185,2.0,1.0,1.0,33.7,34.7,34.7,3.0,3.9,2.645,0.4660494499826706,-0.031639096601356234,0.8641060832556837,0.0017783955172885914,-0.159764,-29.981819
11.185,2.0,1.0,1.0,33.7,34.7,34.7,3.0,3.9,2.6475,0.4569038168097978,-0.03255002270990105,0.8684537668025225,0.0014652188233193334,-0.163859,-29.740183
11.185,2.0,1.0,1.0,33.7,34.7,34.7,3.0,3.9,2.65,0.44761200227101944,-0.03349980854288719,0.8727333153440934,0.001128488419455731,-0.168159,-29.494228
11.185,2.0,1.0,1.0,33.7,34.7,34.7,3.0,3.9,2.6525,0.43817011212184287,-0.034490923289488495,0.8769410825496766,0.0007661942501868155,-0.172682,-29.243761
11.185,2.0,1.0,1.0,33.7,34.7,34.7,3.0,3.9,2.655,0.4285740147629826,-0.03552604561356161,0.8810731466838906,0.00037610699421131903,-0.177443,-28.988576
11.185,2.0,1.0,1.0,33.7,34.7,34.7,3.0,3.9,2.6575,0.41881931822216617,-0.03660808553459678,0.885125278655814,-4.425153097476462e-05,-0.182464,-28.728453
11.185,2.0,1.0,1.0,33.7,34.7,34.7,3.0,3.9,2.66,0.4089013443600146,-0.03774020896777237,0.8890929051325294,-0.0004976427468172584,-0.187766,-28.463159
11.185,2.0,1.0,1.0,33.7,34.7,34.7,3.0,3.9,2.6625,0.3988150999274725,-0.03892586527840668,0.8929710657956473,-0.0009871513770098646,-0.193374,-28.192442
11.185,2.0,1.0,1.0,33.7,34.7,34.7,3.0,3.9,2.665,0.3885552440516321,-0.04016881825372445,0.8967543636201417,-0.0015162322954665052,-0.199313,-27.916035
11.185,2.0,1.0,1.0,33.7,34.7,34.7,3.0,3.9,2.6675,0.37811605167095236,-0.0414731809472179,0.9004369068066369,-0.002088765501979355,-0.205616,-27.633651
11.185,2.0,1.0,1.0,33.7,34.7,34.7,3.0,3.9,2.67,0.36749137238006435,-0.04284345490741139,0.904012240687866,-0.002709120873763837,-0.212317,-27.34498
11.185,2.0,1.0,1.0,33.7,34.7,34.7,3.0,3.9,2.6725,0.3566745840800268,-0.04428457436213166,0.9074732675396966,-0.0033822347247233,-0.219453,-27.049691
11.185,2.0,1.0,1.0,33.7,34.7,34.7,3.0,3.9,2.675,0.345658540764389,-0.0458019559888068,0.9108121517340694,-0.004113700688880802,-0.22707,-26.747427
11.185,2.0,1.0,1.0,33.7,34.7,34.7,3.0,3.9,2.6775,0.3344355137091983,-0.047401554956225035,0.9140202070451315,-0.004909878059704335,-0.235216,-26.437801
11.185,2.0,1.0,1.0,33.7,34.7,34.7,3.0,3.9,2.68,0.3229971252837311,-0.04908992796576196,0.9170877621207113,-0.005778021502291792,-0.243949,-26.120398
11.185,2.0,1.0,1.0,33.7,34.7,34.7,3.0,3.9,2.6825,0.3113342745706815,-0.050874304037596796,0.9200039991057589,-0.006726437062905607,-0.253334,-25.794766
11.185,2.0,1.0,1.0,33.7,34.7,34.7,3.0,3.9,2.685,0.29943705399985987,-0.05276266375943295,0.9227567590810254,-0.007764670700194825,-0.263446,-25.460416
11.185,2.0,1.0,1.0,33.7,34.7,34.7,3.0,3.9,2.6875,0.287294656290413,-0.0547638276091857,0.925332306262892,-0.00890373724885164,-0.274371,-25.116815
11.185,2.0,1.0,1.0,33.7,34.7,34.7,3.0,3.9,2.69,0.27489527121407753,-0.05688755372764487,0.9277150406687478,-0.010156399926913971,-0.286209,-24.763386
11.185,2.0,1.0,1.0,33.7,34.7,34.7,3.0,3.9,2.6925,0.26222597211669496,-0.059144645071283655,0.9298871460096108,-0.011537513385770061,-0.299077,-24.399494
11.185,2.0,1.0,1.0,33.7,34.7,34.7,3.0,3.9,2.695,0.24927259289480647,-0.06154706509148868,0.9318281556857743,-0.013064447113847926,-0.313114,-24.024451
11.185,2.0,1.0,1.0,33.7,34.7,34.7,3.0,3.9,2.6975,0.23601959742028894,-0.06410805976292953,0.9335144146001436,-0.014757611065621998,-0.328479,-23.637498
11.185,2.0,1.0,1.0,33.7,34.7,34.7,3.0,3.9,2.7,0.22244994555980016,-0.06684228160081046,0.9349184076103584,-0.01664111214342434,-0.345366,-23.237805
11.185,2.0,1.0,1.0,33.7,34.7,34.7,3.0,3.9,2.7025,0.20854496345896698,-0.06976590775507044,0.9360079161842373,-0.018743579225919307,-0.364002,-22.824457
11.185,2.0,1.0,1.0,33.7,34.7,34.7,3.0,3.9,2.705,0.19428423147619503,-0.07289673853267438,0.9367449523338359,-0.02109920666139886,-0.384662,-22.396446
11.185,2.0,1.0,1.0,33.7,34.7,34.7,3.0,3.9,2.7075,0.17964551238650653,-0.07625425345905786,0.9370844019862133,-0.023749082689211148,-0.407679,-21.952658
11.185,2.0,1.0,1.0,33.7,34.7,34.7,3.0,3.9,2.71,0.16460475739709587,-0.07985958710252221,0.9369722869750936,-0.026742891700026014,-0.433458,-21.491862
11.185,2.0,1.0,1.0,33.7,34.7,34.7,3.0,3.9,2.7125,0.14913625167889955,-0.08373536283435205,0.9363435236253648,-0.03014110970732556,-0.462496,-21.012695
11.185,2.0,1.0,1.0,33.7,34.7,34.7,3.0,3.9,2.715,0.13321300041212947,-0.08790528366510439,0.9351190136249227,-0.034017853603331975,-0.495411,-20.513644
11.185,2.0,1.0,1.0,33.7,34.7,34.7,3.0,3.9,2.7175,0.11680752060619337,-0.09239331557846531,0.9332018461057806,-0.03846459999371443,-0.532974,-19.993035
11.185,2.0,1.0,1.0,33.7,34.7,34.7,3.0,3.9,2.72,0.09989330974855022,-0.09722219405885862,0.9304723150080149,-0.04359506201364639,-0.576162,-19.449014
11.185,2.0,1.0,1.0,33.7,34.7,34.7,3.0,3.9,2.7225,0.08244743772827763,-0.1024108111603591,0.9267813606741032,-0.04955160442737293,-0.626219,-18.879538
11.185,2.0,1.0,1.0,33.7,34.7,34.7,3.0,3.9,2.725,0.06445500120718005,-0.10796975158229709,0.9219419325756594,-0.05651368475860486,-0.684753,-18.282366
11.185,2.0,1.0,1.0,33.7,34.7,34.7,3.0,3.9,2.7275,0.04591667078818903,-0.1138937622219682,0.9157176605213335,-0.06470891134835574,-0.753862,-17.655072
11.185,2.0,1.0,1.0,33.7,34.7,34.7,3.0,3.9,2.73,0.026861387413685225,-0.12014912695396955,0.9078081753170536,-0.07442734715224941,-0.836318,-16.995079
11.185,2.0,1.0,1.0,33.7,34.7,34.7,3.0,3.9,2.7325,0.007367648843175179,-0.1266525587370603,0.8978305975894199,-0.08603950044079668,-0.93582,-16.299745
11.185,2.0,1.0,1.0,33.7,34.7,34.7,3.0,3.9,2.735,-0.012400886830195303,-0.13323598062701872,0.8852975113162851,-0.10001763779897081,-1.057363,-15.566532
11.185,2.0,1.0,1.0,33.7,34.7,34.7,3.0,3.9,2.7375,-0.032136116321018246,-0.1395880124794361,0.869594085955067,-0.11695771285800967,-1.207741,-14.793341
11.185,2.0,1.0,1.0,33.7,34.7,34.7,3.0,3.9,2.74,-0.051287859969787235,-0.14515782356242843,0.8499629947965984,-0.13759327109948735,-1.396215,-13.979107
11.185,2.0,1.0,1.0,33.7,34.7,34.7,3.0,3.9,2.7425,-0.06890714671118262,-0.14900117038873667,0.8255197922153464,-0.16277885359519334,-1.635296,-13.124862
11.185,2.0,1.0,1.0,33.7,34.7,34.7,3.0,3.9,2.745,-0.08340848405433829,-0.1495475461034813,0.7953516173903826,-0.1933907108508798,-1.941315,-12.235572
11.185,2.0,1.0,1.0,33.7,34.7,34.7,3.0,3.9,2.7475,-0.0922530539072762,-0.1442913722558727,0.7588092314812322,-0.23003667434652364,-2.333626,-11.323153
11.185,2.0,1.0,1.0,33.7,34.7,34.7,3.0,3.9,2.75,-0.0916582596328164,-0.129512664997515,0.716182462040895,-0.272389265186256,-2.828968,-10.411045
11.185,2.0,1.0,1.0,33.7,34.7,34.7,3.0,3.9,2.7525,-0.07672148416381962,-0.10041043931212196,0.6699611627452717,-0.3179469117682421,-3.422424,-9.540026
11.185,2.0,1.0,1.0,33.7,34.7,34.7,3.0,3.9,2.755,-0.04281916907898269,-0.052493819445464836,0.62649175077169,-0.36041805103837304,-4.041453,-8.772706
11.185,2.0,1.0,1.0,33.7,34.7,34.7,3.0,3.9,2.7575,0.010845227407955923,0.014924122248255284,0.5965293640182644,-0.38921115749522334,-4.485928,-8.189914
11.185,2.0,1.0,1.0,33.7,34.7,34.7,3.0,3.9,2.76,0.07690093575825514,0.09449087536688251,0.5917646583687497,-0.3928902952541007,-4.48429,-7.870369
11.185,2.0,1.0,1.0,33.7,34.7,34.7,3.0,3.9,2.7625,0.14008390407401336,0.1711560104010674,0.6170824798912046,-0.3667845785720568,-3.974904,-7.85619
11.185,2.0,1.0,1.0,33.7,34.7,34.7,3.0,3.9,2.765,0.18534412715021964,0.2301873961183343,0.6658065004244713,-0.3175885935436031,-3.208895,-8.12906
11.185,2.0,1.0,1.0,33.7,34.7,34.7,3.0,3.9,2.7675,0.2063488686378756,0.26548840829612524,0.7244250092108748,-0.2586363143967252,-2.461325,-8.620865
11.185,2.0,1.0,1.0,33.7,34.7,34.7,3.0,3.9,2.77,0.2058194545365896,0.27984950451012947,0.7811410400475101,-0.2014906179718803,-1.853909,-9.247662
11.185,2.0,1.0,1.0,33.7,34.7,34.7,3.0,3.9,2.7725,0.1903436850578211,0.2798111040848564,0.8297642663173506,-0.15216465168002186,-1.398181,-9.937551
11.185,2.0,1.0,1.0,33.7,34.7,34.7,3.0,3.9,2.775,0.16613314619493297,0.2715011190215845,0.8687136801001605,-0.112141907224494,-1.066468,-10.640463
11.185,2.0,1.0,1.0,33.7,34.7,34.7,3.0,3.9,2.7775,0.13755415194157802,0.2592115176193122,0.8987581613752451,-0.08061146885230315,-0.826587,-11.325984
11.185,2.0,1.0,1.0,33.7,34.7,34.7,3.0,3.9,2.78,0.1072433104940226,0.24552676424651868,0.9214298663230713,-0.05602692017858476,-0.652319,-11.977573
11.185,2.0,1.0,1.0,33.7,34.7,34.7,3.0,3.9,2.7825,0.0766415209938876,0.23185594308833374,0.9382707642400958,-0.03684211834454589,-0.524555,-12.58734
11.185,2.0,1.0,1.0,33.7,34.7,34.7,3.0,3.9,2.785,0.04646595581352046,0.21889930221130796,0.950574110088978,-0.021760865031222498,-0.429915,-13.152404
11.185,2.0,1.0,1.0,33.7,34.7,34.7,3.0,3.9,2.7875,0.01702628392982873,0.20695960597055837,0.9593453468842537,-0.009772243420740866,-0.359133,-13.672616
11.185,2.0,1.0,1.0,33.7,34.7,34.7,3.0,3.9,2.79,-0.011586075920314628,0.19612793560358027,0.9653393365016638,-0.00011205797913745596,-0.305774,-14.149209
11.185,2.0,1.0,1.0,33.7,34.7,34.7,3.0,3.9,2.7925,-0.03939086728001899,0.18638855444247712,0.9691137513899067,0.00779088329810652,-0.265336,-14.584034
11.185,2.0,1.0,1.0,33.7,34.7,34.7,3.0,3.9,2.795,-0.06646037286193439,0.177676171027245,0.9710775868508134,0.014363275271710725,-0.234626,-14.979127
11.185,2.0,1.0,1.0,33.7,34.7,34.7,3.0,3.9,2.7975,-0.09288816135879155,0.1699063912368531,0.9715296033176917,0.01992571060051452,-0.211359,-15.336483
11.185,2.0,1.0,1.0,33.7,34.7,34.7,3.0,3.9,2.8,-0.11877294798175062,0.16299140776963433,0.9706870715416022,0.024721453111715874,-0.193875,-15.657929
11.185,2.0,1.0,1.0,33.7,34.7,34.7,3.0,3.9,2.8025,-0.14421068417419375,0.1568476794079881,0.9687066905824985,0.028937503635234115,-0.180956,-15.945072
11.185,2.0,1.0,1.0,33.7,34.7,34.7,3.0,3.9,2.805,-0.16929106917914724,0.15139932589222965,0.9656996104462836,0.0327199073898635,-0.171703,-16.199272
11.185,2.0,1.0,1.0,33.7,34.7,34.7,3.0,3.9,2.8075,-0.19409639384753324,0.14657927805657034,0.9617421426086806,0.03618489679777612,-0.165445,-16.421636
11.185,2.0,1.0,1.0,33.7,34.7,34.7,3.0,3.9,2.81,-0.21870157568971732,0.1423292931200584,0.9568833461559368,0.039427070430309435,-0.161681,-16.613021
11.185,2.0,1.0,1.0,33.7,34.7,34.7,3.0,3.9,2.8125,-0.243174766058249,0.138599433895415,0.951150343364132,0.0425254814898574,-0.160036,-16.774041
11.185,2.0,1.0,1.0,33.7,34.7,34.7,3.0,3.9,2.815,-0.2675781969328052,0.13534732959223972,0.9445519634693618,0.04554826341649441,-0.160237,-16.905073
11.185,2.0,1.0,1.0,33.7,34.7,34.7,3.0,3.9,2.8175,-0.29196909148549477,0.1325373809839343,0.9370811260647898,0.04855624459237449,-0.162082,-17.006264
11.185,2.0,1.0,1.0,33.7,34.7,34.7,3.0,3.9,2.82,-0.3164005471778915,0.13013998689576978,0.9287162392508519,0.05160588252197845,-0.165437,-17.077532
11.185,2.0,1.0,1.0,33.7,34.7,34.7,3.0,3.9,2.8225,-0.34092234410057076,0.12813082068999287,0.9194217871335311,0.05475176616412315,-0.170216,-17.118567
11.185,2.0,1.0,1.0,33.7,34.7,34.7,3.0,3.9,2.825,-0.3655816516448691,0.12649015693051757,0.9091482043416166,0.05804888274104154,-0.176381,-17.128831
11.185,2.0,1.0,1.0,33.7,34.7,34.7,3.0,3.9,2.8275,-0.39042361225724626,0.12520222934515132,0.8978310724751759,0.06155481520170756,-0.183937,-17.107547
11.185,2.0,1.0,1.0,33.7,34.7,34.7,3.0,3.9,2.83,-0.4154917759686713,0.12425458496259675,0.885389617267632,0.06533202424193359,-0.192931,-17.05369
