1,w,sub_t,h,l1,l2,l3,g1,g2,Freq,S11_re,S21_re,S11_img,S21_img,S11_dB,S21_dB
11.185,2.0,1.0,1.0,33.3,33.8,33.8,3.7,3.5,2.5,0.871061381788026,-0.00497933928712637,0.479246544543899,0.00385825539411133,-0.050562,-44.014288
11.185,2.0,1.0,1.0,33.3,33.8,33.8,3.7,3.5,2.5025,0.8679529183834962,-0.005077940895212499,0.48475143098522333,0.003872525025293266,-0.050997,-43.895322
11.185,2.0,1.0,1.0,33.3,33.8,33.8,3.7,3.5,2.505,0.8647970291937441,-0.0051781927057122585,0.49025680438763264,0.003886262253938064,-0.051439,-43.776128
11.185,2.0,1.0,1.0,33.3,33.8,33.8,3.7,3.5,2.5075,0.861593273137511,-0.005280125679850357,0.49576247424856607,0.003899446769049438,-0.051888,-43.656697
11.185,2.0,1.0,1.0,33.3,33.8,33.8,3.7,3.5,2.51,0.8583412021972021,-0.005383771537057388,0.5012682444489449,0.003912057559789728,-0.052345,-43.537023
11.185,2.0,1.0,1.0,33.3,33.8,33.8,3.7,3.5,2.5125,0.8550403613065106,-0.005489162777834154,0.5067739130723083,0.003924072888232947,-0.052809,-43.417094
11.185,2.0,1.0,1.0,33.3,33.8,33.8,3.7,3.5,2.515,0.8516902882363542,-0.00559633270744595,0.512279272218156,0.003935470260918207,-0.053282,-43.296904
11.185,2.0,1.0,1.0,33.3,33.8,33.8,3.7,3.5,2.5175,0.8482905134791151,-0.005705315460482585,0.5177841078092764,0.003946226399142914,-0.053762,-43.176444
11.185,2.0,1.0,1.0,33.3,33.8,33.8,3.7,3.5,2.52,0.8448405601311603,-0.005816146026322343,0.5232881993928756,0.0039563172079320145,-0.05425,-43.055703
11.185,2.0,1.0,1.0,33.3,33.8,33.8,3.7,3.5,2.5225,0.8413399437736355,-0.005928860275539209,0.5287913199352566,0.003965717743615741,-0.054747,-42.934674
11.185,2.0,1.0,1.0,33.3,33.8,33.8,3.7,3.5,2.525,0.8377881723515086,-0.00604349498729564,0.53429323560985,0.003974402179944809,-0.055252,-42.813347
11.185,2.0,1.0,1.0,33.3,33.8,33.8,3.7,3.5,2.5275,0.8341847460508476,-0.006160087877764683,0.5397937055783455,0.003982343772666762,-0.055766,-42.691714
11.185,2.0,1.0,1.0,33.3,33.8,33.8,3.7,3.5,2.53,0.830529157174327,-0.006278677629627677,0.5452924817646818,0.003989514822484203,-0.056289,-42.569764
11.185,2.0,1.0,1.0,33.3,33.8,33.8,3.7,3.5,2.5325,0.8268208900149366,-0.006399303922696412,0.550789308621635,0.003995886636309649,-0.056821,-42.447488
11.185,2.0,1.0,1.0,33.3,33.8,33.8,3.7,3.5,2.535,0.8230594207278842,-0.006522007465710982,0.5562839228897507,0.004001429486726969,-0.057363,-42.324878
11.185,2.0,1.0,1.0,33.3,33.8,33.8,3.7,3.5,2.5375,0.8192442172006802,-0.0066468300293672615,0.5617760533483267,0.004006112569564583,-0.057914,-42.201923
11.185,2.0,1.0,1.0,33.3,33.8,33.8,3.7,3.5,2.54,0.8153747389213846,-0.006773814480631088,0.5672654205581678,0.004009903959478868,-0.058474,-42.078613
11.185,2.0,1.0,1.0,33.3,33.8,33.8,3.7,3.5,2.5425,0.8114504368450083,-0.00690300481839903,0.5727517365958154,0.004012770563440715,-0.059045,-41.954939
11.185,2.0,1.0,1.0,33.3,33.8,33.8,3.7,3.5,2.545,0.8074707532580493,-0.007034446210569037,0.5782347047789265,0.004014678072010858,-0.059626,-41.830891
11.185,2.0,1.0,1.0,33.3,33.8,33.8,3.7,3.5,2.5475,0.8034351216411629,-0.0071681850325875296,0.5837140193824821,0.004015590908283575,-0.060218,-41.706457
11.185,2.0,1.0,1.0,33.3,33.8,33.8,3.7,3.5,2.55,0.799342966529937,-0.007304268907543592,0.5891893653454916,0.004015472174369572,-0.06082,-41.581629
11.185,2.0,1.0,1.0,33.3,33.8,33.8,3.7,3.5,2.5525,0.7951937033737779,-0.007442746747884083,0.5946604179678173,0.004014283595281518,-0.061433,-41.456396
11.185,2.0,1.0,1.0,33.3,33.8,33.8,3.7,3.5,2.555,0.7909867383928829,-0.007583668798828446,0.6001268425967675,0.004011985460076719,-0.062058,-41.330746
11.185,2.0,1.0,1.0,33.3,33.8,33.8,3.7,3.5,2.5575,0.7867214684332912,-0.007727086683565911,0.605588294303066,0.004008536560102092,-0.062694,-41.20467
11.185,2.0,1.0,1.0,33.3,33.8,33.8,3.7,3.5,2.56,0.7823972808200045,-0.007873053450322437,0.6110444175457846,0.004003894124176561,-0.063342,-41.078155
11.185,2.0,1.0,1.0,33.3,33.8,33.8,3.7,3.5,2.5625,0.778013553208167,-0.00802162362138994,0.616494845825822,0.00399801375053541,-0.064002,-40.951192
11.185,2.0,1.0,1.0,33.3,33.8,33.8,3.7,3.5,2.565,0.7735696534322855,-0.008172853244215685,0.6219392013274919,0.003990849335349202,-0.064675,-40.823768
11.185,2.0,1.0,1.0,33.3,33.8,33.8,3.7,3.5,2.5675,0.7690649393534932,-0.008326799944654885,0.6273770945477437,0.003982352997617821,-0.06536,-40.695873
11.185,2.0,1.0,1.0,33.3,33.8,33.8,3.7,3.5,2.57,0.7644987587048335,-0.008483522982496243,0.6328081239125434,0.003972475000226913,-0.066059,-40.567493
11.185,2.0,1.0,1.0,33.3,33.8,33.8,3.7,3.5,2.5725,0.7598704489345597,-0.00864308330937603,0.6382318753799041,0.003961163666938962,-0.066771,-40.438618
11.185,2.0,1.0,1.0,33.3,33.8,33.8,3.7,3.5,2.575,0.7551793370474374,-0.00880554362920333,0.6436479220290352,0.003948365295076887,-0.067497,-40.309235
11.185,2.0,1.0,1.0,33.3,33.8,33.8,3.7,3.5,2.5775,0.7504247394440401,-0.008970968461226336,0.6490558236350497,0.003934024063640286,-0.068237,-40.179332
11.185,2.0,1.0,1.0,33.3,33.8,33.8,3.7,3.5,2.58,0.7456059617580252,-0.009139424205877078,0.6544551262286488,0.003918081936577263,-0.068991,-40.048896
11.185,2.0,1.0,1.0,33.3,33.8,33.8,3.7,3.5,2.5825,0.7407222986913797,-0.009310979213540812,0.6598453616401739,0.003900478560915298,-0.06976,-39.917914
11.185,2.0,1.0,1.0,33.3,33.8,33.8,3.7,3.5,2.585,0.7357730338476189,-0.009485703856404296,0.6652260470273735,0.0038811511594333496,-0.070545,-39.786374
11.185,2.0,1.0,1.0,33.3,33.8,33.8,3.7,3.5,2.5875,0.7307574395629282,-0.009663670603547385,0.6705966843862227,0.0038600344175353535,-0.071345,-39.654261
11.185,2.0,1.0,1.0,33.3,33.8,33.8,3.7,3.5,2.59,0.725674776735232,-0.0098449540994517,0.6759567600440655,0.0038370603639608443,-0.072162,-39.521562
11.185,2.0,1.0,1.0,33.3,33.8,33.8,3.7,3.5,2.5925,0.7205242946511681,-0.010029631246111528,0.6813057441343544,0.0038121582449416767,-0.072995,-39.388264
11.185,2.0,1.0,1.0,33.3,33.8,33.8,3.7,3.5,2.595,0.7153052308109636,-0.010217781288942775,0.6866430900521755,0.003785254391386088,-0.073845,-39.254351
11.185,2.0,1.0,1.0,33.3,33.8,33.8,3.7,3.5,2.5975,0.7100168107511703,-0.010409485906698983,0.6919682338897506,0.0037562720786397776,-0.074713,-39.11981
11.185,2.0,1.0,1.0,33.3,33.8,33.8,3.7,3.5,2.6,0.7046582478652554,-0.010604829305615631,0.6972805938510315,0.003725131378340766,-0.075598,-38.984625
11.185,2.0,1.0,1.0,33.3,33.8,33.8,3.7,3.5,2.6025,0.6992287432220148,-0.010803898318018444,0.7025795696444589,0.0036917490018489193,-0.076503,-38.848782
11.185,2.0,1.0,1.0,33.3,33.8,33.8,3.7,3.5,2.605,0.6937274853817763,-0.011006782505646285,0.7078645418529249,0.003656038134690533,-0.077426,-38.712265
11.185,2.0,1.0,1.0,33.3,33.8,33.8,3.7,3.5,2.6075,0.6881536502103663,-0.011213574267955176,0.7131348712798955,0.003617908261417369,-0.078369,-38.575057
11.185,2.0,1.0,1.0,33.3,33.8,33.8,3.7,3.5,2.61,0.682506400690801,-0.011424368955687027,0.7183898982706094,0.003577264980232242,-0.079332,-38.437143
11.185,2.0,1.0,1.0,33.3,33.8,33.8,3.7,3.5,2.6125,0.6767848867326575,-0.01163926499000533,0.7236289420071984,0.0035340098066829907,-0.080315,-38.298506
11.185,2.0,1.0,1.0,33.3,33.8,33.8,3.7,3.5,2.615,0.6709882449790754,-0.011858363987519518,0.7288512997765101,0.0034880399656726604,-0.081321,-38.15913
11.185,2.0,1.0,1.0,33.3,33.8,33.8,3.7,3.5,2.6175,0.6651155986113416,-0.012081770891540488,0.73405624620933,0.003439248170973054,-0.082348,-38.018996
11.185,2.0,1.0,1.0,33.3,33.8,33.8,3.7,3.5,2.62,0.6591660571509883,-0.012309594109932844,0.739243032489629,0.0033875223913650966,-0.083398,-37.878086
11.185,2.0,1.0,1.0,33.3,33.8,33.8,3.7,3.5,2.6225,0.6531387162593342,-0.012541945659953315,0.7444108855323811,0.0033327456024574743,-0.084471,-37.736383
11.185,2.0,1.0,1.0,33.3,33.8,33.8,3.7,3.5,2.625,0.647032657534399,-0.0127789413204903,0.749559007128375,0.00327479552315917,-0.085568,-37.593868
11.185,2.0,1.0,1.0,33.3,33.8,33.8,3.7,3.5,2.6275,0.6408469483050833,-0.013020700792148218,0.7546865730543901,0.0032135443356954307,-0.086691,-37.450521
11.185,2.0,1.0,1.0,33.3,33.8,33.8,3.7,3.5,2.63,0.6345806414225269,-0.013267347865649004,0.7597927321469484,0.0031488583879663535,-0.087839,-37.306322
11.185,2.0,1.0,1.0,33.3,33.8,33.8,3.7,3.5,2.6325,0.6282327750485192,-0.013519010599055725,0.7648766053377654,0.003080597876944798,-0.089013,-37.161252
11.185,2.0,1.0,1.0,33.3,33.8,33.8,3.7,3.5,2.635,0.6218023724408325,-0.013775821504357246,0.7699372846488938,0.0030086165117014663,-0.090214,-37.015289
11.185,2.0,1.0,1.0,33.3,33.8,33.8,3.7,3.5,2.6375,0.6152884417353397,-0.014037917743989103,0.7749738321453856,0.0029327611545221497,-0.091444,-36.868413
11.185,2.0,1.0,1.0,33.3,33.8,33.8,3.7,3.5,2.64,0.6086899757247303,-0.014305441337906252,0.7799852788431973,0.0028528714384515614,-0.092703,-36.7206
11.185,2.0,1.0,1.0,33.3,33.8,33.8,3.7,3.5,2.6425,0.6020059516336569,-0.01457853938186391,0.7849706235698362,0.0027687793594506015,-0.093992,-36.571828
11.185,2.0,1.0,1.0,33.3,33.8,33.8,3.7,3.5,2.645,0.5952353308900886,-0.0148573642776093,0.7899288317751133,0.002680308841195196,-0.095312,-36.422074
11.185,2.0,1.0,1.0,33.3,33.8,33.8,3.7,3.5,2.6475,0.5883770588926464,-0.015142073975734398,0.7948588342891457,0.002587275270368057,-0.096664,-36.271314
11.185,2.0,1.0,1.0,33.3,33.8,33.8,3.7,3.5,2.65,0.581430064773637,-0.01543283223199301,0.799759526024543,0.0024894850001012454,-0.098049,-36.119524
11.185,2.0,1.0,1.0,33.3,33.8,33.8,3.7,3.5,2.6525,0.5743932611575208,-0.01572980887793921,0.8046297646194643,0.002386734819014394,-0.099469,-35.966677
11.185,2.0,1.0,1.0,33.3,33.8,33.8,3.7,3.5,2.655,0.5672655439144533,-0.016033180106805864,0.8094683690179932,0.0022788113830568696,-0.100924,-35.812748
11.185,2.0,1.0,1.0,33.3,33.8,33.8,3.7,3.5,2.6575,0.5600457919085505,-0.016343128775604045,0.8142741179839675,0.0021654906071035315,-0.102416,-35.65771
11.185,2.0,1.0,1.0,33.3,33.8,33.8,3.7,3.5,2.66,0.5527328667404623,-0.016659844724493167,0.8190457485441052,0.0020465370129659154,-0.103947,-35.501534
11.185,2.0,1.0,1.0,33.3,33.8,33.8,3.7,3.5,2.6625,0.5453256124838103,-0.016983525114543967,0.823781954355908,0.0019217030301627214,-0.105516,-35.344193
11.185,2.0,1.0,1.0,33.3,33.8,33.8,3.7,3.5,2.665,0.5378228554149637,-0.017314374785095288,0.8284813839954552,0.0017907282454420548,-0.107127,-35.185656
11.185,2.0,1.0,1.0,33.3,33.8,33.8,3.7,3.5,2.6675,0.5302234037356237,-0.017652606631987103,0.833142639159761,0.0016533385966579649,-0.10878,-35.025892
11.185,2.0,1.0,1.0,33.3,33.8,33.8,3.7,3.5,2.67,0.5225260472875785,-0.01799844200804229,0.8377642727779239,0.0015092455061703185,-0.110477,-34.864871
11.185,2.0,1.0,1.0,33.3,33.8,33.8,3.7,3.5,2.6725,0.5147295572589493,-0.018352111147263088,0.8423447870247625,0.0013581449484568217,-0.112221,-34.702559
11.185,2.0,1.0,1.0,33.3,33.8,33.8,3.7,3.5,2.675,0.5068326858811864,-0.01871385361430769,0.8468826312300678,0.0011997164460907006,-0.114011,-34.538923
11.185,2.0,1.0,1.0,33.3,33.8,33.8,3.7,3.5,2.6775,0.49883416611598014,-0.019083918780919466,0.8513761996759632,0.0010336219876420365,-0.115851,-34.373927
11.185,2.0,1.0,1.0,33.3,33.8,33.8,3.7,3.5,2.68,0.49073271133117935,-0.019462566331092737,0.855823829274163,0.000859504860397093,-0.117742,-34.207536
11.185,2.0,1.0,1.0,33.3,33.8,33.8,3.7,3.5,2.6825,0.48252701496473,-0.019850066796876818,0.8602237971141253,0.0006769883900482215,-0.119687,-34.039712
11.185,2.0,1.0,1.0,33.3,33.8,33.8,3.7,3.5,2.685,0.474215750175536,-0.020246702126845085,0.8645743178722222,0.0004856745786788769,-0.121687,-33.870416
11.185,2.0,1.0,1.0,33.3,33.8,33.8,3.7,3.5,2.6875,0.46579756948006357,-0.020652766289384616,0.8688735410710747,0.00028514263144156386,-0.123746,-33.699608
11.185,2.0,1.0,1.0,33.3,33.8,33.8,3.7,3.5,2.69,0.4572711043734052,-0.021068565913096898,0.8731195481770946,7.494736128868063e-05,-0.125864,-33.527246
11.185,2.0,1.0,1.0,33.3,33.8,33.8,3.7,3.5,2.6925,0.4486349649333797,-0.021494420966740625,0.8773103495230631,-0.00014538254005055018,-0.128046,-33.353286
11.185,2.0,1.0,1.0,33.3,33.8,33.8,3.7,3.5,2.695,0.4398877394061964,-0.021930665481288022,0.8814438810411854,-0.0003763463779598571,-0.130293,-33.177685
11.185,2.0,1.0,1.0,33.3,33.8,33.8,3.7,3.5,2.6975,0.431027993772011,-0.022377648316814294,0.8855180007905359,-0.0006184734922791231,-0.132608,-33.000395
11.185,2.0,1.0,1.0,33.3,33.8,33.8,3.7,3.5,2.7,0.4220542712886636,-0.022835733977081253,0.8895304852610493,-0.0008723254723447181,-0.134995,-32.821368
11.185,2.0,1.0,1.0,33.3,33.8,33.8,3.7,3.5,2.7025,0.4129650920117104,-0.023305303474821223,0.8934790254342785,-0.0011384985678415452,-0.137457,-32.640553
11.185,2.0,1.0,1.0,33.3,33.8,33.8,3.7,3.5,2.705,0.4037589522887902,-0.023786755250861755,0.8973612225789128,-0.0014176263156934056,-0.139997,-32.457898
11.185,2.0,1.0,1.0,33.3,33.8,33.8,3.7,3.5,2.7075,0.39443432422623464,-0.02428050615035886,0.9011745837565742,-0.0017103824056093158,-0.142619,-32.273348
11.185,2.0,1.0,1.0,33.3,33.8,33.8,3.7,3.5,2.71,0.38498965512575756,-0.024786992459515066,0.9049165170105699,-0.002017483809610364,-0.145327,-32.086847
11.185,2.0,1.0,1.0,33.3,33.8,33.8,3.7,3.5,2.7125,0.3754233668889713,-0.02530667100624556,0.9085843262070857,-0.0023396942039360445,-0.148124,-31.898335
11.185,2.0,1.0,1.0,33.3,33.8,33.8,3.7,3.5,2.715,0.36573385538744885,-0.02584002032830751,0.9121752054946772,-0.002677827715220652,-0.151016,-31.707751
11.185,2.0,1.0,1.0,33.3,33.8,33.8,3.7,3.5,2.7175,0.3559194897960355,-0.02638754191241591,0.9156862333437624,-0.0030327530268076516,-0.154007,-31.51503
11.185,2.0,1.0,1.0,33.3,33.8,33.8,3.7,3.5,2.72,0.3459786118871821,-0.026949761507815483,0.9191143661231232,-0.0034053978856018806,-0.157102,-31.320105
11.185,2.0,1.0,1.0,33.3,33.8,33.8,3.7,3.5,2.7225,0.3359095352841664,-0.0275272305176461,0.9224564311650488,-0.003796754055041281,-0.160306,-31.122906
11.185,2.0,1.0,1.0,33.3,33.8,33.8,3.7,3.5,2.725,0.32571054467134036,-0.028120527471198954,0.9257091192645786,-0.004207882765691171,-0.163626,-30.923359
11.185,2.0,1.0,1.0,33.3,33.8,33.8,3.7,3.5,2.7275,0.3153798949598225,-0.02873025957978963,0.9288689765512982,-0.0046399207217596855,-0.167066,-30.721388
11.185,2.0,1.0,1.0,33.3,33.8,33.8,3.7,3.5,2.73,0.3049158104076436,-0.029357064378421328,0.9319323956640218,-0.005094086729627447,-0.170635,-30.516912
11.185,2.0,1.0,1.0,33.3,33.8,33.8,3.7,3.5,2.7325,0.29431648369400576,-0.030001611454639306,0.9348956061494184,-0.005571689023459062,-0.174339,-30.309848
11.185,2.0,1.0,1.0,33.3,33.8,33.8,3.7,3.5,2.735,0.2835800749483842,-0.03066460426491197,0.93775466399493,-0.006074133373299769,-0.178186,-30.100107
11.185,2.0,1.0,1.0,33.3,33.8,33.8,3.7,3.5,2.7375,0.2727047107364967,-0.0313467820374436,0.9405054401939643,-0.006602932073003163,-0.182184,-29.887598
11.185,2.0,1.0,1.0,33.3,33.8,33.8,3.7,3.5,2.74,0.26168848300701886,-0.03204892175842187,0.9431436082270523,-0.007159713919146003,-0.186342,-29.672222
11.185,2.0,1.0,1.0,33.3,33.8,33.8,3.7,3.5,2.7425,0.2505294480052645,-0.032771840236205815,0.945664630326106,-0.007746235308104247,-0.190669,-29.453878
11.185,2.0,1.0,1.0,33.3,33.8,33.8,3.7,3.5,2.745,0.23922562516320126,-0.03351639623470144,0.9480637423696561,-0.008364392597064388,-0.195177,-29.23246
11.185,2.0,1.0,1.0,33.3,33.8,33.8,3.7,3.5,2.7475,0.2277749959792165,-0.03428349266294818,0.9503359372345807,-0.009016235896404422,-0.199876,-29.007855
11.185,2.0,1.0,1.0,33.3,33.8,33.8,3.7,3.5,2.75,0.216175502906307,-0.0350740788024885,0.952475946403722,-0.00970398448614014,-0.204779,-28.779945
11.185,2.0,1.0,1.0,33.3,33.8,33.8,3.7,3.5,2.7525,0.20442504827416574,-0.03588915254707552,0.9544782195982691,-0.010430044078670774,-0.209899,-28.548605
11.185,2.0,1.0,1.0,33.3,33.8,33.8,3.7,3.5,2.755,0.19252149327939747,-0.036729762620267704,0.9563369021680584,-0.011197026184661056,-0.215251,-28.313703
11.185,2.0,1.0,1.0,33.3,33.8,33.8,3.7,3.5,2.7575,0.1804626570893067,-0.03759701072491522,0.9580458099309693,-0.012007769879539276,-0.220851,-28.075101
11.185,2.0,1.0,1.0,33.3,33.8,33.8,3.7,3.5,2.76,0.1682463161192195,-0.03849205356375059,0.9595984011032308,-0.012865366315910015,-0.226716,-27.832653
11.185,2.0,1.0,1.0,33.3,33.8,33.8,3.7,3.5,2.7625,0.15587020356180037,-0.039416104651364366,0.9609877449042216,-0.013773186383602278,-0.232865,-27.586204
11.185,2.0,1.0,1.0,33.3,33.8,33.8,3.7,3.5,2.765,0.14333200927070078,-0.04037043581359028,0.962206486350515,-0.014734911985770812,-0.23932,-27.33559
11.185,2.0,1.0,1.0,33.3,33.8,33.8,3.7,3.5,2.7675,0.1306293801314884,-0.04135637823924257,0.9632468066723656,-0.015754571478516402,-0.246103,-27.080639
11.185,2.0,1.0,1.0,33.3,33.8,33.8,3.7,3.5,2.77,0.11775992109216767,-0.042375322909273434,0.9641003786889604,-0.01683657991537791,-0.25324,-26.821166
11.185,2.0,1.0,1.0,33.3,33.8,33.8,3.7,3.5,2.7725,0.10472119707632373,-0.04342872017718555,0.9647583163634598,-0.017985784849828865,-0.260758,-26.556977
11.185,2.0,1.0,1.0,33.3,33.8,33.8,3.7,3.5,2.775,0.09151073606729232,-0.04451807820860662,0.9652111176212478,-0.01920751858229138,-0.26869,-26.287865
11.185,2.0,1.0,1.0,33.3,33.8,33.8,3.7,3.5,2.7775,0.07812603373622184,-0.045644959902910585,0.9654485993502636,-0.02050765789769498,-0.27707,-26.013611
11.185,2.0,1.0,1.0,33.3,33.8,33.8,3.7,3.5,2.78,0.06456456009627748,-0.046810977809881055,0.9654598233050673,-0.021892692530788217,-0.285937,-25.73398
11.185,2.0,1.0,1.0,33.3,33.8,33.8,3.7,3.5,2.7825,0.05082376880724126,-0.04801778641199755,0.9652330113993748,-0.02336980382601975,-0.295333,-25.448725
11.185,2.0,1.0,1.0,33.3,33.8,33.8,3.7,3.5,2.785,0.03690110993950283,-0.04926707095785878,0.9647554485866993,-0.02494695533510466,-0.305306,-25.157579
11.185,2.0,1.0,1.0,33.3,33.8,33.8,3.7,3.5,2.7875,0.02279404724780827,-0.05056053179098191,0.9640133711849587,-0.02663299742843357,-0.315911,-24.860259
11.185,2.0,1.0,1.0,33.3,33.8,33.8,3.7,3.5,2.79,0.008500081321074878,-0.051899862802644914,0.9629918380857905,-0.02843778839854442,-0.32721,-24.556462
11.185,2.0,1.0,1.0,33.3,33.8,33.8,3.7,3.5,2.7925,-0.005983219609943238,-0.05328672222318447,0.9616745817873978,-0.030372335019770796,-0.339269,-24.245866
11.185,2.0,1.0,1.0,33.3,33.8,33.8,3.7,3.5,2.795,-0.020658178877394087,-0.05472269342032575,0.9600438355824363,-0.03244895611580494,-0.352168,-23.928123
11.185,2.0,1.0,1.0,33.3,33.8,33.8,3.7,3.5,2.7975,-0.03552695753773589,-0.05620923265098339,0.9580801324974998,-0.034681473397536244,-0.365996,-23.602862
11.185,2.0,1.0,1.0,33.3,33.8,33.8,3.7,3.5,2.8,-0.05059148346870668,-0.05774759975360985,0.9557620706919263,-0.037085434692212635,-0.380853,-23.269685
11.185,2.0,1.0,1.0,33.3,33.8,33.8,3.7,3.5,2.8025,-0.0658533580909535,-0.05933876648798142,0.9530660389506318,-0.03967837572041014,-0.396855,-22.928164
11.185,2.0,1.0,1.0,33.3,33.8,33.8,3.7,3.5,2.805,-0.08131373367275016,-0.060983295513232304,0.9499658946147747,-0.04248012782131668,-0.414136,-22.577838
11.185,2.0,1.0,1.0,33.3,33.8,33.8,3.7,3.5,2.8075,-0.09697315184295645,-0.0626811806836894,0.9464325847496116,-0.04551318051244529,-0.43285,-22.218212
11.185,2.0,1.0,1.0,33.3,33.8,33.8,3.7,3.5,2.81,-0.11283133077651002,-0.06443163621413892,0.9424336995176544,-0.04880310952723746,-0.453175,-21.848754
11.185,2.0,1.0,1.0,33.3,33.8,33.8,3.7,3.5,2.8125,-0.128886884213824,-0.0662328180122507,0.937932944583859,-0.0523790830222945,-0.47532,-21.468889
11.185,2.0,1.0,1.0,33.3,33.8,33.8,3.7,3.5,2.815,-0.14513694958928874,-0.06808145466224372,0.9328895169299236,-0.056274460978266064,-0.499529,-21.077997
11.185,2.0,1.0,1.0,33.3,33.8,33.8,3.7,3.5,2.8175,-0.16157669445276218,-0.0699723575600627,0.9272573657513059,-0.060527505374050126,-0.526088,-20.67541
11.185,2.0,1.0,1.0,33.3,33.8,33.8,3.7,3.5,2.82,-0.17819865919362263,-0.07189776868514133,0.9209843173094402,-0.06518222132935496,-0.555337,-20.260408
11.185,2.0,1.0,1.0,33.3,33.8,33.8,3.7,3.5,2.8225,-0.19499187857769956,-0.07384648923048437,0.914011040057832,-0.07028935173260199,-0.587679,-19.832216
11.185,2.0,1.0,1.0,33.3,33.8,33.8,3.7,3.5,2.825,-0.2119407030273701,-0.07580271108324577,0.9062698247406675,-0.0759075492050027,-0.623598,-19.389999
11.185,2.0,1.0,1.0,33.3,33.8,33.8,3.7,3.5,2.8275,-0.22902321043992663,-0.07774444353463111,0.897683154770628,-0.08210474829713173,-0.663676,-18.932861
