1,w,sub_t,h,l1,l2,l3,g1,g2,Freq,S11_re,S21_re,S11_img,S21_img,S11_dB,S21_dB
11.185,2.0,1.0,1.0,34.9,34.0,34.0,2.6,3.9,2.5,0.617161824189159,-0.0143988810274277,0.775108789507003,0.00408624094754248,-0.08029,-36.497032
11.185,2.0,1.0,1.0,34.9,34.0,34.0,2.6,3.9,2.5025,0.6101668400825248,-0.01463493303981673,0.780493970871108,0.00400183353534596,-0.08121,-36.379023
11.185,2.0,1.0,1.0,34.9,34.0,34.0,2.6,3.9,2.505,0.6030828452123949,-0.014874194619199822,0.7858459670404108,0.003913468604629402,-0.082147,-36.260644
11.185,2.0,1.0,1.0,34.9,34.0,34.0,2.6,3.9,2.5075,0.5959090451928964,-0.015116696127577677,0.7911636060489505,0.00382102320063456,-0.0831,-36.141887
11.185,2.0,1.0,1.0,34.9,34.0,34.0,2.6,3.9,2.51,0.5886446431603353,-0.015362467433187211,0.7964456845410557,0.0037243705876223495,-0.08407,-36.022749
11.185,2.0,1.0,1.0,34.9,34.0,34.0,2.6,3.9,2.5125,0.581288840147922,-0.015611537851100223,0.8016909669657455,0.0036233801287570604,-0.085058,-35.903221
11.185,2.0,1.0,1.0,34.9,34.0,34.0,2.6,3.9,2.515,0.5738408354840934,-0.015863936080196074,0.8068981847534435,0.003517917162092735,-0.086064,-35.783299
11.185,2.0,1.0,1.0,34.9,34.0,34.0,2.6,3.9,2.5175,0.5662998272155517,-0.016119690136309744,0.8120660354748054,0.0034078428725329317,-0.087089,-35.662977
11.185,2.0,1.0,1.0,34.9,34.0,34.0,2.6,3.9,2.52,0.5586650125561288,-0.016378827281352586,0.8171931819814972,0.0032930141596341435,-0.088132,-35.542247
11.185,2.0,1.0,1.0,34.9,34.0,34.0,2.6,3.9,2.5225,0.5509355883626983,-0.01664137394818388,0.8222782515287432,0.003173283501114153,-0.089195,-35.421105
11.185,2.0,1.0,1.0,34.9,34.0,34.0,2.6,3.9,2.525,0.543110751639333,-0.01690735566100764,0.8273198348795122,0.0030484988119256844,-0.090278,-35.299542
11.185,2.0,1.0,1.0,34.9,34.0,34.0,2.6,3.9,2.5275,0.5351897000710064,-0.01717679695105208,0.8323164853902082,0.0029185032987487512,-0.09138,-35.177554
11.185,2.0,1.0,1.0,34.9,34.0,34.0,2.6,3.9,2.53,0.5271716325881648,-0.017449721267278343,0.8372667180777503,0.0027831353097508673,-0.092504,-35.055134
11.185,2.0,1.0,1.0,34.9,34.0,34.0,2.6,3.9,2.5325,0.5190557499635527,-0.01772615088184916,0.8421690086679536,0.0026422281794586237,-0.093648,-34.932274
11.185,2.0,1.0,1.0,34.9,34.0,34.0,2.6,3.9,2.535,0.510841255442721,-0.018006106790079388,0.8470217926251534,0.0024956100685787044,-0.094815,-34.808969
11.185,2.0,1.0,1.0,34.9,34.0,34.0,2.6,3.9,2.5375,0.5025273554097197,-0.018289608604566306,0.8518234641630074,0.0023431037986015105,-0.096003,-34.685212
11.185,2.0,1.0,1.0,34.9,34.0,34.0,2.6,3.9,2.54,0.49411326008951095,-0.018576674443191565,0.856572375236479,0.002184526681012877,-0.097215,-34.560995
11.185,2.0,1.0,1.0,34.9,34.0,34.0,2.6,3.9,2.5425,0.4855981842887095,-0.018867320810661833,0.8612668345150074,0.0020196903409343595,-0.09845,-34.436312
11.185,2.0,1.0,1.0,34.9,34.0,34.0,2.6,3.9,2.545,0.47698134817631643,-0.019161562473242088,0.865905106336897,0.0018484005350051583,-0.099708,-34.311156
11.185,2.0,1.0,1.0,34.9,34.0,34.0,2.6,3.9,2.5475,0.4682619781061805,-0.019459412326314013,0.8704854096450098,0.001670456963313104,-0.100992,-34.18552
11.185,2.0,1.0,1.0,34.9,34.0,34.0,2.6,3.9,2.55,0.45943930748295103,-0.019760881254373353,0.8750059169038712,0.001485653075172111,-0.1023,-34.059395
11.185,2.0,1.0,1.0,34.9,34.0,34.0,2.6,3.9,2.5525,0.45051257767341635,-0.020065977983058574,0.8794647529983247,0.0012937758685395056,-0.103634,-33.932776
11.185,2.0,1.0,1.0,34.9,34.0,34.0,2.6,3.9,2.555,0.4414810389651114,-0.020374708922781225,0.8838599941139348,0.0010946056828546854,-0.104995,-33.805655
11.185,2.0,1.0,1.0,34.9,34.0,34.0,2.6,3.9,2.5575,0.4323439515742014,-0.02068707800350262,0.888189666599368,0.0008879159850747215,-0.106382,-33.678024
11.185,2.0,1.0,1.0,34.9,34.0,34.0,2.6,3.9,2.56,0.42310058670470413,-0.021003086500179086,0.892451745811018,0.0006734731486719312,-0.107797,-33.549874
11.185,2.0,1.0,1.0,34.9,34.0,34.0,2.6,3.9,2.5625,0.41375022766117653,-0.02132273284837068,0.8966441549402114,0.00045103622534986847,-0.109241,-33.4212
11.185,2.0,1.0,1.0,34.9,34.0,34.0,2.6,3.9,2.565,0.40429217101706605,-0.02164601244947595,0.9007647638233697,0.00022035670922213626,-0.110714,-33.291992
11.185,2.0,1.0,1.0,34.9,34.0,34.0,2.6,3.9,2.5675,0.3947257278410253,-0.021972917465033135,0.9048113877355534,-1.882170681016179e-05,-0.112217,-33.162242
11.185,2.0,1.0,1.0,34.9,34.0,34.0,2.6,3.9,2.57,0.3850502249835307,-0.022303436599486068,0.9087817861678843,-0.0002667633827599488,-0.113751,-33.031943
11.185,2.0,1.0,1.0,34.9,34.0,34.0,2.6,3.9,2.5725,0.37526500642624794,-0.022637554870789067,0.9126736615894032,-0.0005237409916238085,-0.115316,-32.901086
11.185,2.0,1.0,1.0,34.9,34.0,34.0,2.6,3.9,2.575,0.36536943469666305,-0.022975253368180824,0.9164846581939742,-0.0007900357881222731,-0.116913,-32.769662
11.185,2.0,1.0,1.0,34.9,34.0,34.0,2.6,3.9,2.5775,0.35536289235057955,-0.02331650899642252,0.9202123606329262,-0.0010659378864280166,-0.118543,-32.637662
11.185,2.0,1.0,1.0,34.9,34.0,34.0,2.6,3.9,2.58,0.345244783525171,-0.023661294205753056,0.9238542927341907,-0.0013517465472125745,-0.120208,-32.505079
11.185,2.0,1.0,1.0,34.9,34.0,34.0,2.6,3.9,2.5825,0.3350145355653444,-0.02400957670677135,0.9274079162087757,-0.0016477704743608531,-0.121907,-32.371903
11.185,2.0,1.0,1.0,34.9,34.0,34.0,2.6,3.9,2.585,0.3246716007262904,-0.024361319169405156,0.930870629345491,-0.0019543281217186633,-0.123642,-32.238124
11.185,2.0,1.0,1.0,34.9,34.0,34.0,2.6,3.9,2.5875,0.3142154579551512,-0.024716478905080094,0.9342397656949257,-0.0022717480102577847,-0.125414,-32.103733
11.185,2.0,1.0,1.0,34.9,34.0,34.0,2.6,3.9,2.59,0.3036456147548601,-0.02507500753114634,0.9375125927437669,-0.0026003690560612246,-0.127224,-31.968722
11.185,2.0,1.0,1.0,34.9,34.0,34.0,2.6,3.9,2.5925,0.29296160913326813,-0.025436850616558475,0.9406863105806423,-0.0029405409095595845,-0.129073,-31.83308
11.185,2.0,1.0,1.0,34.9,34.0,34.0,2.6,3.9,2.595,0.2821630116408018,-0.025801947307752426,0.9437580505547688,-0.0032926243064621235,-0.130961,-31.696797
11.185,2.0,1.0,1.0,34.9,34.0,34.0,2.6,3.9,2.5975,0.27124942749995773,-0.026170229933585257,0.9467248739287706,-0.0036569914308634435,-0.132891,-31.559862
11.185,2.0,1.0,1.0,34.9,34.0,34.0,2.6,3.9,2.6,0.2602204988300557,-0.026541623588139322,0.9495837705271722,-0.004034026291025127,-0.134862,-31.422267
11.185,2.0,1.0,1.0,34.9,34.0,34.0,2.6,3.9,2.6025,0.24907590697079393,-0.0269160456901112,0.9523316573821259,-0.004424125108367576,-0.136877,-31.284
11.185,2.0,1.0,1.0,34.9,34.0,34.0,2.6,3.9,2.605,0.237815374908194,-0.027293405517427087,0.9549653773781045,-0.0048276967202336325,-0.138936,-31.14505
11.185,2.0,1.0,1.0,34.9,34.0,34.0,2.6,3.9,2.6075,0.22643866980669147,-0.027673603715631347,0.9574816978973522,-0.005245162997028564,-0.141042,-31.005406
11.185,2.0,1.0,1.0,34.9,34.0,34.0,2.6,3.9,2.61,0.2149456056511999,-0.02805653177850154,0.9598773094680403,-0.005676959274370031,-0.143194,-30.865057
11.185,2.0,1.0,1.0,34.9,34.0,34.0,2.6,3.9,2.6125,0.20333604600308772,-0.028442071499237782,0.9621488244171782,-0.006123534800931592,-0.145394,-30.723991
11.185,2.0,1.0,1.0,34.9,34.0,34.0,2.6,3.9,2.615,0.19160990687412555,-0.028830094390460942,0.964292775530462,-0.006585353202702152,-0.147645,-30.582197
11.185,2.0,1.0,1.0,34.9,34.0,34.0,2.6,3.9,2.6175,0.1797671597225796,-0.029220461071128568,0.9663056147213686,-0.00706289296443599,-0.149947,-30.439662
11.185,2.0,1.0,1.0,34.9,34.0,34.0,2.6,3.9,2.62,0.1678078345757482,-0.029613020618350683,0.9681837117119282,-0.0075566479291196914,-0.152301,-30.296374
11.185,2.0,1.0,1.0,34.9,34.0,34.0,2.6,3.9,2.6225,0.1557320232833334,-0.03000760988193207,0.9699233527277474,-0.008067127816343325,-0.15471,-30.152319
11.185,2.0,1.0,1.0,34.9,34.0,34.0,2.6,3.9,2.625,0.143539882906229,-0.0304040527593192,0.971520739209973,-0.00859485876052162,-0.157175,-30.007485
11.185,2.0,1.0,1.0,34.9,34.0,34.0,2.6,3.9,2.6275,0.13123163924535677,-0.03080215942845247,0.9729719865470412,-0.009140383869986547,-0.159697,-29.861858
11.185,2.0,1.0,1.0,34.9,34.0,34.0,2.6,3.9,2.63,0.11880759051540118,-0.031201725535836434,0.9742731228291567,-0.009704263808041135,-0.162279,-29.715425
11.185,2.0,1.0,1.0,34.9,34.0,34.0,2.6,3.9,2.6325,0.1062681111683773,-0.03160253133693791,0.9754200876286202,-0.010287077397152927,-0.164922,-29.56817
11.185,2.0,1.0,1.0,34.9,34.0,34.0,2.6,3.9,2.635,0.09361365587216738,-0.032004340785793374,0.976408730809201,-0.010889422247550243,-0.167628,-29.42008
11.185,2.0,1.0,1.0,34.9,34.0,34.0,2.6,3.9,2.6375,0.0808447636493076,-0.032406900570460404,0.9772348113679261,-0.011511915411584823,-0.1704,-29.271139
11.185,2.0,1.0,1.0,34.9,34.0,34.0,2.6,3.9,2.64,0.06796206218145233,-0.03280993909068411,0.9778939963127428,-0.012155194065330494,-0.173238,-29.121331
11.185,2.0,1.0,1.0,34.9,34.0,34.0,2.6,3.9,2.6425,0.05496627228520133,-0.03321316537383943,0.9783818595796506,-0.012819916219004756,-0.176146,-28.970642
11.185,2.0,1.0,1.0,34.9,34.0,34.0,2.6,3.9,2.645,0.041858212565114884,-0.03361626792489504,0.9786938809929973,-0.013506761457924042,-0.179126,-28.819053
11.185,2.0,1.0,1.0,34.9,34.0,34.0,2.6,3.9,2.6475,0.02863880425000496,-0.034018913505775544,0.9788254452727282,-0.014216431715845305,-0.182179,-28.666548
11.185,2.0,1.0,1.0,34.9,34.0,34.0,2.6,3.9,2.65,0.015309076218790426,-0.034420745839107716,0.9787718410924958,-0.014949652082695823,-0.185308,-28.51311
11.185,2.0,1.0,1.0,34.9,34.0,34.0,2.6,3.9,2.6525,0.0018701702225621787,-0.034821384230887396,0.978528260192577,-0.01570717164885531,-0.188517,-28.358721
11.185,2.0,1.0,1.0,34.9,34.0,34.0,2.6,3.9,2.655,-0.011676653690322355,-0.03522042210612874,0.9780897965516371,-0.016489764388337172,-0.191807,-28.203361
11.185,2.0,1.0,1.0,34.9,34.0,34.0,2.6,3.9,2.6575,-0.02533001153885717,-0.03561742545100895,0.9774514456214266,-0.017298230083406255,-0.195181,-28.047011
11.185,2.0,1.0,1.0,34.9,34.0,34.0,2.6,3.9,2.66,-0.039088389556143785,-0.036011931154431485,0.9766081036284983,-0.018133395293383234,-0.198642,-27.889651
11.185,2.0,1.0,1.0,34.9,34.0,34.0,2.6,3.9,2.6625,-0.05295013811026804,-0.036403445241261205,0.9755545669470754,-0.018996114370615647,-0.202193,-27.731262
11.185,2.0,1.0,1.0,34.9,34.0,34.0,2.6,3.9,2.665,-0.06691346539084511,-0.0367914409887553,0.9742855315471545,-0.01988727052684395,-0.205838,-27.57182
11.185,2.0,1.0,1.0,34.9,34.0,34.0,2.6,3.9,2.6675,-0.0809764308521904,-0.03717535691688249,0.9727955925219001,-0.0208077769534608,-0.209579,-27.411304
11.185,2.0,1.0,1.0,34.9,34.0,34.0,2.6,3.9,2.67,-0.09513693840352559,-0.037554594642322074,0.9710792436982982,-0.02175857799945311,-0.213421,-27.249691
11.185,2.0,1.0,1.0,34.9,34.0,34.0,2.6,3.9,2.6725,-0.10939272933590968,-0.03792851658489698,0.9691308773349271,-0.022740650411135207,-0.217366,-27.086956
11.185,2.0,1.0,1.0,34.9,34.0,34.0,2.6,3.9,2.675,-0.12374137497480556,-0.03829644351407168,0.9669447839105695,-0.023755004638116764,-0.221419,-26.923076
11.185,2.0,1.0,1.0,34.9,34.0,34.0,2.6,3.9,2.6775,-0.13818026904627978,-0.03865765192185675,0.964515152007171,-0.0248026862103191,-0.225584,-26.758025
11.185,2.0,1.0,1.0,34.9,34.0,34.0,2.6,3.9,2.68,-0.152706619743858,-0.039011371207039965,0.9618360682904458,-0.025884777191250236,-0.229865,-26.591775
11.185,2.0,1.0,1.0,34.9,34.0,34.0,2.6,3.9,2.6825,-0.16731744148179598,-0.03935678065406339,0.9589015175911259,-0.027002397713161257,-0.234266,-26.424299
11.185,2.0,1.0,1.0,34.9,34.0,34.0,2.6,3.9,2.685,-0.18200954631925106,-0.03969300618806293,0.9557053830895047,-0.028156707600171013,-0.238793,-26.255569
11.185,2.0,1.0,1.0,34.9,34.0,34.0,2.6,3.9,2.6875,-0.19677953503825363,-0.04001911688557157,0.9522414466055635,-0.02934890808591385,-0.243449,-26.085553
11.185,2.0,1.0,1.0,34.9,34.0,34.0,2.6,3.9,2.69,-0.2116237878565645,-0.04033412121811174,0.9485033889964843,-0.03058024363278161,-0.248241,-25.914221
11.185,2.0,1.0,1.0,34.9,34.0,34.0,2.6,3.9,2.6925,-0.22653845475452686,-0.040636963003343476,0.9444847906628386,-0.03185200386036468,-0.253174,-25.74154
11.185,2.0,1.0,1.0,34.9,34.0,34.0,2.6,3.9,2.695,-0.24151944539256134,-0.04092651703554307,0.9401791321642008,-0.033165525591259265,-0.258254,-25.567477
11.185,2.0,1.0,1.0,34.9,34.0,34.0,2.6,3.9,2.6975,-0.25656241859331586,-0.04120158436393678,0.9355797949442127,-0.034522195022996895,-0.263486,-25.391995
11.185,2.0,1.0,1.0,34.9,34.0,34.0,2.6,3.9,2.7,-0.2716627713593063,-0.04146088718371229,0.9306800621645028,-0.0359234500354506,-0.268878,-25.215057
11.185,2.0,1.0,1.0,34.9,34.0,34.0,2.6,3.9,2.7025,-0.2868156273932728,-0.04170306330037374,0.9254731196460055,-0.03737078264369719,-0.274437,-25.036626
11.185,2.0,1.0,1.0,34.9,34.0,34.0,2.6,3.9,2.705,-0.3020158250843356,-0.0419266601233714,0.9199520569154546,-0.03886574160692365,-0.28017,-24.85666
11.185,2.0,1.0,1.0,34.9,34.0,34.0,2.6,3.9,2.7075,-0.3172579049182504,-0.04213012813957396,0.9141098683538901,-0.04040993520458965,-0.286084,-24.675118
11.185,2.0,1.0,1.0,34.9,34.0,34.0,2.6,3.9,2.71,-0.3325360962644601,-0.04231181381106037,0.9079394544431135,-0.04200503419163045,-0.292189,-24.491955
11.185,2.0,1.0,1.0,34.9,34.0,34.0,2.6,3.9,2.7125,-0.34784430348640244,-0.042469951834780244,0.9014336231050586,-0.04365277494503849,-0.298493,-24.307125
11.185,2.0,1.0,1.0,34.9,34.0,34.0,2.6,3.9,2.715,-0.36317609131402545,-0.042602656693734246,0.8945850911280706,-0.04535496281461949,-0.305005,-24.12058
11.185,2.0,1.0,1.0,34.9,34.0,34.0,2.6,3.9,2.7175,-0.3785246694091043,-0.042707913420340096,0.8873864856731726,-0.04711347569108827,-0.311736,-23.932269
11.185,2.0,1.0,1.0,34.9,34.0,34.0,2.6,3.9,2.72,-0.3938828760440505,-0.04278356748236032,0.879830345852511,-0.04893026780486756,-0.318697,-23.742139
11.185,2.0,1.0,1.0,34.9,34.0,34.0,2.6,3.9,2.7225,-0.40924316080368317,-0.042827313690044534,0.8719091243713837,-0.05080737376896283,-0.325899,-23.550134
11.185,2.0,1.0,1.0,34.9,34.0,34.0,2.6,3.9,2.725,-0.4245975662062483,-0.04283668400967136,0.8636151892247468,-0.05274691287898778,-0.333354,-23.356196
11.185,2.0,1.0,1.0,34.9,34.0,34.0,2.6,3.9,2.7275,-0.43993770812498645,-0.04280903415329149,0.8549408254387075,-0.05475109368276465,-0.341076,-23.160263
11.185,2.0,1.0,1.0,34.9,34.0,34.0,2.6,3.9,2.73,-0.4552547548739326,-0.04274152879676162,0.8458782368476727,-0.056822218830757505,-0.34908,-22.962271
11.185,2.0,1.0,1.0,34.9,34.0,34.0,2.6,3.9,2.7325,-0.4705394048014699,-0.042631125257846444,0.8364195478983683,-0.05896269021680225,-0.35738,-22.762151
11.185,2.0,1.0,1.0,34.9,34.0,34.0,2.6,3.9,2.735,-0.48578186221170755,-0.04247455544275478,0.8265568054733109,-0.061175014415959274,-0.365994,-22.559833
11.185,2.0,1.0,1.0,34.9,34.0,34.0,2.6,3.9,2.7375,-0.5009718114065993,-0.0422683058425135,0.8162819807285975,-0.06346180842260811,-0.374938,-22.355242
11.185,2.0,1.0,1.0,34.9,34.0,34.0,2.6,3.9,2.74,-0.5160983886101191,-0.04200859532944236,0.8055869709443783,-0.0658258056868188,-0.384233,-22.148298
11.185,2.0,1.0,1.0,34.9,34.0,34.0,2.6,3.9,2.7425,-0.5311501514994024,-0.04169135046801773,0.7944636013916049,-0.06826986244019362,-0.393899,-21.938918
11.185,2.0,1.0,1.0,34.9,34.0,34.0,2.6,3.9,2.745,-0.5461150460251063,-0.04131217801275527,0.7829036272258948,-0.07079696429327997,-0.403959,-21.727014
11.185,2.0,1.0,1.0,34.9,34.0,34.0,2.6,3.9,2.7475,-0.560980370153934,-0.040866334217470095,0.7708987354294741,-0.07341023307470303,-0.414438,-21.512495
11.185,2.0,1.0,1.0,34.9,34.0,34.0,2.6,3.9,2.75,-0.575732734108706,-0.0403486905242191,0.758440546835663,-0.0761129338665818,-0.425363,-21.295261
11.185,2.0,1.0,1.0,34.9,34.0,34.0,2.6,3.9,2.7525,-0.590358016614427,-0.03975369513510621,0.7455206182885836,-0.07890848217055506,-0.436761,-21.075211
11.185,2.0,1.0,1.0,34.9,34.0,34.0,2.6,3.9,2.755,-0.6048413165806125,-0.03907532989430388,0.7321304450146571,-0.0818004511126292,-0.448667,-20.852235
11.185,2.0,1.0,1.0,34.9,34.0,34.0,2.6,3.9,2.7575,-0.6191668995590727,-0.03830706181929784,0.7182614633138756,-0.08479257856144318,-0.461113,-20.626219
11.185,2.0,1.0,1.0,34.9,34.0,34.0,2.6,3.9,2.76,-0.633318138209782,-0.03744178851726974,0.7039050537197579,-0.08788877399136648,-0.474138,-20.397041
11.185,2.0,1.0,1.0,34.9,34.0,34.0,2.6,3.9,2.7625,-0.6472774458830481,-0.03647177660209549,0.6890525448300217,-0.09109312486652901,-0.487784,-20.164572
11.185,2.0,1.0,1.0,34.9,34.0,34.0,2.6,3.9,2.765,-0.6610262022804804,-0.03538859208664785,0.6736952180786988,-0.09440990225101238,-0.502096,-19.928677
11.185,2.0,1.0,1.0,34.9,34.0,34.0,2.6,3.9,2.7675,-0.6745446699867942,-0.03418302156026789,0.6578243138091225,-0.09784356525978932,-0.517126,-19.689212
11.185,2.0,1.0,1.0,34.9,34.0,34.0,2.6,3.9,2.77,-0.6878119004647759,-0.03284498276829914,0.6414310391214753,-0.1013987638489672,-0.532928,-19.446025
11.185,2.0,1.0,1.0,34.9,34.0,34.0,2.6,3.9,2.7725,-0.7008056278717056,-0.03136342298444645,0.6245065781157372,-0.10508033929543349,-0.549566,-19.198953
11.185,2.0,1.0,1.0,34.9,34.0,34.0,2.6,3.9,2.775,-0.7135021487814226,-0.029726203301793614,0.6070421053401835,-0.10889332152584057,-0.567106,-18.947828
11.185,2.0,1.0,1.0,34.9,34.0,34.0,2.6,3.9,2.7775,-0.7258761855751708,-0.027919966657910477,0.5890288034992287,-0.11284292221116962,-0.585625,-18.692466
11.185,2.0,1.0,1.0,34.9,34.0,34.0,2.6,3.9,2.78,-0.7379007308885711,-0.025929987046198786,0.5704578867881194,-0.11693452223036327,-0.605208,-18.432678
11.185,2.0,1.0,1.0,34.9,34.0,34.0,2.6,3.9,2.7825,-0.7495468700631674,-0.023739996940929643,0.5513206316261647,-0.1211736517046777,-0.62595,-18.168258
11.185,2.0,1.0,1.0,34.9,34.0,34.0,2.6,3.9,2.785,-0.7607835780390655,-0.021331989468150053,0.5316084170814105,-0.12556596028728287,-0.647956,-17.898992
11.185,2.0,1.0,1.0,34.9,34.0,34.0,2.6,3.9,2.7875,-0.7715774865305965,-0.018685991278942195,0.511312777952964,-0.13011717472601642,-0.671344,-17.624652
11.185,2.0,1.0,1.0,34.9,34.0,34.0,2.6,3.9,2.79,-0.7818926166391579,-0.015779801415553938,0.4904254743476817,-0.13483303985637557,-0.69625,-17.344994
11.185,2.0,1.0,1.0,34.9,34.0,34.0,2.6,3.9,2.7925,-0.7916900712677296,-0.012588690695936995,0.4689385827157385,-0.1397192380680756,-0.722825,-17.059762
11.185,2.0,1.0,1.0,34.9,34.0,34.0,2.6,3.9,2.795,-0.8009276808032458,-0.009085055271880438,0.4468446147727571,-0.14478128084481703,-0.751238,-16.768685
11.185,2.0,1.0,1.0,34.9,34.0,34.0,2.6,3.9,2.7975,-0.8095595945252947,-0.005238017039665382,0.4241366726379839,-0.15002436410188774,-0.781686,-16.471473
11.185,2.0,1.0,1.0,34.9,34.0,34.0,2.6,3.9,2.8,-0.8175358090920071,-0.0010129625091312721,0.4008086509937244,-0.15545317660666844,-0.81439,-16.167824
11.185,2.0,1.0,1.0,34.9,34.0,34.0,2.6,3.9,2.8025,-0.8248016242731416,0.00362898940599223,0.37685550029959314,-0.16107164758746342,-0.849603,-15.857414
11.185,2.0,1.0,1.0,34.9,34.0,34.0,2.6,3.9,2.805,-0.8312970149026614,0.00873160137132207,0.3522735693103026,-0.1668826154858068,-0.887617,-15.539905
11.185,2.0,1.0,1.0,34.9,34.0,34.0,2.6,3.9,2.8075,-0.8369559069126414,0.01434422515344818,0.3270610506552347,-0.17288739438389153,-0.928768,-15.21494
11.185,2.0,1.0,1.0,34.9,34.0,34.0,2.6,3.9,2.81,-0.8417053444668587,0.020522615249914996,0.3012185604437409,-0.17908520754668655,-0.973442,-14.882143
11.185,2.0,1.0,1.0,34.9,34.0,34.0,2.6,3.9,2.8125,-0.845464534936355,0.0273298614423834,0.274749892283806,-0.185472448244143,-1.022092,-14.541124
11.185,2.0,1.0,1.0,34.9,34.0,34.0,2.6,3.9,2.815,-0.8481437592393775,0.034837452292008506,0.24766299841340567,-0.19204171590248317,-1.075243,-14.191472
11.185,2.0,1.0,1.0,34.9,34.0,34.0,2.6,3.9,2.8175,-0.8496431376841718,0.0431264789920388,0.2199712666934533,-0.1987805598385109,-1.133509,-13.832766
11.185,2.0,1.0,1.0,34.9,34.0,34.0,2.6,3.9,2.82,-0.8498512471359816,0.05228898337021203,0.19169518304827743,-0.20566984232240187,-1.197616,-13.464573
11.185,2.0,1.0,1.0,34.9,34.0,34.0,2.6,3.9,2.8225,-0.8486435959973723,0.06242944330560899,0.16286449581486212,-0.21268160625944646,-1.268418,-13.086453
11.185,2.0,1.0,1.0,34.9,34.0,34.0,2.6,3.9,2.825,-0.8458809821051434,0.07366637047725431,0.13352103277044033,-0.2197762990030475,-1.346931,-12.697965
11.185,2.0,1.0,1.0,34.9,34.0,34.0,2.6,3.9,2.8275,-0.8414077897330984,0.08613396474138012,0.10372236471504308,-0.22689916135930868,-1.43437,-12.298678
