1,w,sub_t,h,l1,l2,l3,g1,g2,Freq,S11_re,S21_re,S11_img,S21_img,S11_dB,S21_dB
11.185,2.0,1.0,1.0,33.5,33.5,33.5,3.7,3.8,2.5,0.852506275591003,-0.00529076152033462,0.511021819075461,0.00357385728347988,-0.052825,-43.897167
11.185,2.0,1.0,1.0,33.5,33.5,33.5,3.7,3.8,2.5025,0.8490436331197255,-0.005390788007304081,0.516652827101122,0.003579424799391633,-0.053287,-43.780672
11.185,2.0,1.0,1.0,33.5,33.5,33.5,3.7,3.8,2.505,0.8455287633114821,-0.00549238250703134,0.522283110534633,0.003584252518148048,-0.053756,-43.663989
11.185,2.0,1.0,1.0,33.5,33.5,33.5,3.7,3.8,2.5075,0.8419611654921306,-0.005595570882487637,0.5279124156206014,0.0035883152406442605,-0.054233,-43.547112
11.185,2.0,1.0,1.0,33.5,33.5,33.5,3.7,3.8,2.51,0.8383403316416529,-0.005700379509243384,0.5335404811068462,0.003591586960715758,-0.054717,-43.430032
11.185,2.0,1.0,1.0,33.5,33.5,33.5,3.7,3.8,2.5125,0.834665746298495,-0.005806835286625485,0.5391670380117298,0.003594040836496008,-0.05521,-43.312744
11.185,2.0,1.0,1.0,33.5,33.5,33.5,3.7,3.8,2.515,0.8309368864636383,-0.005914965649119276,0.5447918093843774,0.0035956491606490607,-0.05571,-43.195239
11.185,2.0,1.0,1.0,33.5,33.5,33.5,3.7,3.8,2.5175,0.8271532215044783,-0.006024798578020115,0.5504145100575415,0.003596383329427567,-0.056219,-43.07751
11.185,2.0,1.0,1.0,33.5,33.5,33.5,3.7,3.8,2.52,0.8233142130585651,-0.006136362613339394,0.5560348463928995,0.0035962138105043976,-0.056736,-42.959551
11.185,2.0,1.0,1.0,33.5,33.5,33.5,3.7,3.8,2.5225,0.8194193149372975,-0.006249686865969402,0.5616525160185175,0.003595110109523445,-0.057262,-42.841353
11.185,2.0,1.0,1.0,33.5,33.5,33.5,3.7,3.8,2.525,0.8154679730296333,-0.0063648010301123655,0.5672672075582531,0.003593040735312173,-0.057796,-42.72291
11.185,2.0,1.0,1.0,33.5,33.5,33.5,3.7,3.8,2.5275,0.8114596252059086,-0.006481735395978267,0.5728786003528307,0.003589973163696099,-0.05834,-42.604213
11.185,2.0,1.0,1.0,33.5,33.5,33.5,3.7,3.8,2.53,0.8073937012218586,-0.006600520862756056,0.5784863641723218,0.0035858737998517983,-0.058892,-42.485256
11.185,2.0,1.0,1.0,33.5,33.5,33.5,3.7,3.8,2.5325,0.8032696226229279,-0.006721188951863477,0.5840901589197591,0.0035807079391321833,-0.059454,-42.366031
11.185,2.0,1.0,1.0,33.5,33.5,33.5,3.7,3.8,2.535,0.7990868026489785,-0.0068437718204799065,0.5896896343256018,0.0035744397262943116,-0.060026,-42.24653
11.185,2.0,1.0,1.0,33.5,33.5,33.5,3.7,3.8,2.5375,0.7948446461395041,-0.006968302275367159,0.5952844296327531,0.0035670321130560406,-0.060607,-42.126745
11.185,2.0,1.0,1.0,33.5,33.5,33.5,3.7,3.8,2.54,0.7905425494394667,-0.0070948137869827985,0.6008741732718309,0.0035584468139046696,-0.061199,-42.006669
11.185,2.0,1.0,1.0,33.5,33.5,33.5,3.7,3.8,2.5425,0.7861799003058743,-0.007223340503890606,0.6064584825263818,0.003548644260075944,-0.0618,-41.886293
11.185,2.0,1.0,1.0,33.5,33.5,33.5,3.7,3.8,2.545,0.781756077815236,-0.007353917267472973,0.61203696318771,0.003537583551617965,-0.062412,-41.76561
11.185,2.0,1.0,1.0,33.5,33.5,33.5,3.7,3.8,2.5475,0.7772704522720352,-0.0074865796269488975,0.6176092091989818,0.003525222407449961,-0.063035,-41.644612
11.185,2.0,1.0,1.0,33.5,33.5,33.5,3.7,3.8,2.55,0.7727223851183577,-0.007621363854703082,0.6231748022882792,0.0035115171133206506,-0.063669,-41.52329
11.185,2.0,1.0,1.0,33.5,33.5,33.5,3.7,3.8,2.5525,0.7681112288448484,-0.00775830696192882,0.6287333115902157,0.003496422467566476,-0.064313,-41.401637
11.185,2.0,1.0,1.0,33.5,33.5,33.5,3.7,3.8,2.555,0.7634363269031481,-0.007897446714589848,0.6342842932557728,0.00347989172456389,-0.064969,-41.279643
11.185,2.0,1.0,1.0,33.5,33.5,33.5,3.7,3.8,2.5575,0.7586970136199926,-0.00803882164970428,0.6398272900499604,0.0034618765357644697,-0.065637,-41.157302
11.185,2.0,1.0,1.0,33.5,33.5,33.5,3.7,3.8,2.56,0.7538926141131601,-0.008182471091954297,0.6453618309369082,0.003442326888195459,-0.066317,-41.034603
11.185,2.0,1.0,1.0,33.5,33.5,33.5,3.7,3.8,2.5625,0.7490224442094688,-0.008328435170624728,0.6508874306519797,0.0034211910403017893,-0.067009,-40.911539
11.185,2.0,1.0,1.0,33.5,33.5,33.5,3.7,3.8,2.565,0.744085810365021,-0.008476754836873834,0.656403589260492,0.003398415454998529,-0.067713,-40.7881
11.185,2.0,1.0,1.0,33.5,33.5,33.5,3.7,3.8,2.5675,0.7390820095879347,-0.008627471881338288,0.6619097917025926,0.003373944729795749,-0.06843,-40.664278
11.185,2.0,1.0,1.0,33.5,33.5,33.5,3.7,3.8,2.57,0.73401032936378,-0.008780628952075077,0.6674055073238523,0.003347721523849444,-0.069161,-40.540064
11.185,2.0,1.0,1.0,33.5,33.5,33.5,3.7,3.8,2.5725,0.728870047583974,-0.00893626957284172,0.6728901893911026,0.003319686481784183,-0.069904,-40.415449
11.185,2.0,1.0,1.0,33.5,33.5,33.5,3.7,3.8,2.575,0.7236604324773982,-0.009094438161716236,0.67836327459303,0.003289778154124126,-0.070662,-40.290424
11.185,2.0,1.0,1.0,33.5,33.5,33.5,3.7,3.8,2.5775,0.7183807425455108,-0.009255180050057583,0.6838241825250349,0.0032579329141592737,-0.071433,-40.164978
11.185,2.0,1.0,1.0,33.5,33.5,33.5,3.7,3.8,2.58,0.7130302265012521,-0.009418541501806071,0.6892723151578216,0.003224084871064533,-0.072219,-40.039104
11.185,2.0,1.0,1.0,33.5,33.5,33.5,3.7,3.8,2.5825,0.7076081232120442,-0.009584569733123998,0.6947070562892014,0.0031881657790770596,-0.07302,-39.91279
11.185,2.0,1.0,1.0,33.5,33.5,33.5,3.7,3.8,2.585,0.7021136616472167,-0.009753312932374011,0.7001277709785358,0.003150104942527224,-0.073835,-39.786028
11.185,2.0,1.0,1.0,33.5,33.5,33.5,3.7,3.8,2.5875,0.6965460608301973,-0.009924820280433691,0.7055338049632564,0.0031098291165052045,-0.074666,-39.658807
11.185,2.0,1.0,1.0,33.5,33.5,33.5,3.7,3.8,2.59,0.6909045297958376,-0.010099141971342354,0.7109244840568539,0.003067262402932466,-0.075513,-39.531118
11.185,2.0,1.0,1.0,33.5,33.5,33.5,3.7,3.8,2.5925,0.6851882675532452,-0.010276329233276135,0.7162991135277325,0.003022326141793384,-0.076377,-39.40295
11.185,2.0,1.0,1.0,33.5,33.5,33.5,3.7,3.8,2.595,0.6793964630545424,-0.010456434349845022,0.7216569774582654,0.0029749387972670366,-0.077256,-39.274293
11.185,2.0,1.0,1.0,33.5,33.5,33.5,3.7,3.8,2.5975,0.6735282951699613,-0.010639510681705397,0.7269973380834148,0.0029250158384831193,-0.078153,-39.145135
11.185,2.0,1.0,1.0,33.5,33.5,33.5,3.7,3.8,2.6,0.6675829326697291,-0.010825612688479138,0.7323194351082075,0.002872469614608659,-0.079068,-39.015467
11.185,2.0,1.0,1.0,33.5,33.5,33.5,3.7,3.8,2.6025,0.6615595342132271,-0.011014795950969006,0.7376224850033558,0.00281720922395388,-0.08,-38.885278
11.185,2.0,1.0,1.0,33.5,33.5,33.5,3.7,3.8,2.605,0.6554572483459027,-0.011207117193658127,0.7429056802782855,0.0027591403767655382,-0.080951,-38.754556
11.185,2.0,1.0,1.0,33.5,33.5,33.5,3.7,3.8,2.6075,0.6492752135044773,-0.01140263430747941,0.7481681887307988,0.002698165251354778,-0.08192,-38.623289
11.185,2.0,1.0,1.0,33.5,33.5,33.5,3.7,3.8,2.61,0.6430125580309946,-0.011601406372838092,0.7534091526725654,0.0026341823431838382,-0.082909,-38.491467
11.185,2.0,1.0,1.0,33.5,33.5,33.5,3.7,3.8,2.6125,0.6366684001962949,-0.011803493682868038,0.7586276881296203,0.0025670863065113893,-0.083918,-38.359078
11.185,2.0,1.0,1.0,33.5,33.5,33.5,3.7,3.8,2.615,0.6302418482335234,-0.012008957766900261,0.7638228840170009,0.002496767788169711,-0.084947,-38.226109
11.185,2.0,1.0,1.0,33.5,33.5,33.5,3.7,3.8,2.6175,0.6237320003823309,-0.012217861414117667,0.7689938012866173,0.00242311325301873,-0.085998,-38.092549
11.185,2.0,1.0,1.0,33.5,33.5,33.5,3.7,3.8,2.62,0.6171379449444364,-0.01243026869736741,0.7741394720474293,0.0023460048005914326,-0.087069,-37.958384
11.185,2.0,1.0,1.0,33.5,33.5,33.5,3.7,3.8,2.6225,0.6104587603512679,-0.012646244997098122,0.779258898656955,0.0022653199724120537,-0.088163,-37.823603
11.185,2.0,1.0,1.0,33.5,33.5,33.5,3.7,3.8,2.625,0.60369351524445,-0.0128658570253843,0.784351052783086,0.0021809315494333,-0.08928,-37.688192
11.185,2.0,1.0,1.0,33.5,33.5,33.5,3.7,3.8,2.6275,0.5968412685699103,-0.013089172849996047,0.7894148744351686,0.002092707339000403,-0.09042,-37.552137
11.185,2.0,1.0,1.0,33.5,33.5,33.5,3.7,3.8,2.63,0.5899010696864575,-0.013316261918466342,0.7944492709632318,0.0020005099507085645,-0.091583,-37.415426
11.185,2.0,1.0,1.0,33.5,33.5,33.5,3.7,3.8,2.6325,0.5828719584896986,-0.013547195082101858,0.7994531160242225,0.001904196560476117,-0.092772,-37.278045
11.185,2.0,1.0,1.0,33.5,33.5,33.5,3.7,3.8,2.635,0.5757529655522277,-0.013782044619877127,0.804425248514036,0.0018036186621071969,-0.093986,-37.139978
11.185,2.0,1.0,1.0,33.5,33.5,33.5,3.7,3.8,2.6375,0.5685431122810609,-0.01402088426214348,0.8093644714640851,0.0016986218055658855,-0.095226,-37.001213
11.185,2.0,1.0,1.0,33.5,33.5,33.5,3.7,3.8,2.64,0.5612414110933286,-0.01426378921407621,0.814269550901103,0.0015890453211277384,-0.096492,-36.861734
11.185,2.0,1.0,1.0,33.5,33.5,33.5,3.7,3.8,2.6425,0.5538468656113198,-0.014510836178774345,0.8191392146687838,0.0014747220285128352,-0.097787,-36.721525
11.185,2.0,1.0,1.0,33.5,33.5,33.5,3.7,3.8,2.645,0.5463584708780008,-0.014762103379916063,0.823972151209833,0.001355477930039432,-0.099109,-36.580572
11.185,2.0,1.0,1.0,33.5,33.5,33.5,3.7,3.8,2.6475,0.5387752135942113,-0.015017670583861184,0.8287670083068954,0.0012311318867649478,-0.100461,-36.438859
11.185,2.0,1.0,1.0,33.5,33.5,33.5,3.7,3.8,2.65,0.5310960723787772,-0.015277619121080215,0.8335223917807916,0.0011014952765032596,-0.101843,-36.296369
11.185,2.0,1.0,1.0,33.5,33.5,33.5,3.7,3.8,2.6525,0.5233200180528921,-0.015542031906772464,0.8382368641443576,0.0009663716325235559,-0.103256,-36.153086
11.185,2.0,1.0,1.0,33.5,33.5,33.5,3.7,3.8,2.655,0.515446013950125,-0.015810993460521793,0.8429089432101579,0.000825556261642857,-0.104701,-36.008993
11.185,2.0,1.0,1.0,33.5,33.5,33.5,3.7,3.8,2.6575,0.5074730162535498,-0.016084589924818184,0.8475371006501902,0.0006788358403259435,-0.106178,-35.864071
11.185,2.0,1.0,1.0,33.5,33.5,33.5,3.7,3.8,2.66,0.49939997436151595,-0.016362909082253674,0.8521197605056368,0.0005259879872966289,-0.10769,-35.718304
11.185,2.0,1.0,1.0,33.5,33.5,33.5,3.7,3.8,2.6625,0.49122583128371106,-0.01664604037117754,0.8566552976445803,0.0003667808110463412,-0.109236,-35.571673
11.185,2.0,1.0,1.0,33.5,33.5,33.5,3.7,3.8,2.665,0.4829495240692028,-0.016934074899570196,0.8611420361655076,0.00020097243049676795,-0.110819,-35.424159
11.185,2.0,1.0,1.0,33.5,33.5,33.5,3.7,3.8,2.6675,0.47456998426829133,-0.017227105456864948,0.8655782477442613,2.8310466932494414e-05,-0.112438,-35.275742
11.185,2.0,1.0,1.0,33.5,33.5,33.5,3.7,3.8,2.67,0.4660861384300614,-0.017525226523415,0.8699621499219944,-0.0001514684948345939,-0.114096,-35.126403
11.185,2.0,1.0,1.0,33.5,33.5,33.5,3.7,3.8,2.6725,0.4574969086376434,-0.017828534277265627,0.8742919043314991,-0.0003386394782755488,-0.115794,-34.976121
11.185,2.0,1.0,1.0,33.5,33.5,33.5,3.7,3.8,2.675,0.44880121308331566,-0.01813712659784922,0.8785656148591281,-0.0005334897223192412,-0.117532,-34.824874
11.185,2.0,1.0,1.0,33.5,33.5,33.5,3.7,3.8,2.6775,0.43999796668567726,-0.01845110306617538,0.8827813257393383,-0.0007363193264842576,-0.119313,-34.672643
11.185,2.0,1.0,1.0,33.5,33.5,33.5,3.7,3.8,2.68,0.431086081751261,-0.018770564961032923,0.8869370195786898,-0.0009474419367801666,-0.121137,-34.519403
11.185,2.0,1.0,1.0,33.5,33.5,33.5,3.7,3.8,2.6825,0.42206446868309544,-0.019095615250663202,0.8910306153059019,-0.0011671854754332722,-0.123007,-34.365132
11.185,2.0,1.0,1.0,33.5,33.5,33.5,3.7,3.8,2.685,0.41293203673885637,-0.019426358579295068,0.8950599660443473,-0.001395892917757971,-0.124923,-34.209806
11.185,2.0,1.0,1.0,33.5,33.5,33.5,3.7,3.8,2.6875,0.403687694841416,-0.0197629012478552,0.899022856903074,-0.00163392311978671,-0.126887,-34.053401
11.185,2.0,1.0,1.0,33.5,33.5,33.5,3.7,3.8,2.69,0.39433035244477593,-0.020105351188081003,0.9029170026821721,-0.0018816517005929214,-0.128901,-33.895892
11.185,2.0,1.0,1.0,33.5,33.5,33.5,3.7,3.8,2.6925,0.3848589204585203,-0.020453817929165688,0.9067400454879778,-0.0021394719835961585,-0.130967,-33.737253
11.185,2.0,1.0,1.0,33.5,33.5,33.5,3.7,3.8,2.695,0.37527231223417373,-0.020808412555951776,0.9104895522532349,-0.002407796001526777,-0.133086,-33.577457
11.185,2.0,1.0,1.0,33.5,33.5,33.5,3.7,3.8,2.6975,0.3655694446170042,-0.02116924765756399,0.9141630121569716,-0.0026870555701597213,-0.135261,-33.416477
11.185,2.0,1.0,1.0,33.5,33.5,33.5,3.7,3.8,2.7,0.3557492390671066,-0.021536437265227967,0.917757833938382,-0.002977703436399859,-0.137493,-33.254283
11.185,2.0,1.0,1.0,33.5,33.5,33.5,3.7,3.8,2.7025,0.345810622853799,-0.021910096777856252,0.9212713430985473,-0.0032802145068277725,-0.139785,-33.090847
11.185,2.0,1.0,1.0,33.5,33.5,33.5,3.7,3.8,2.705,0.33575253032769986,-0.022290342873796918,0.9247007789832776,-0.0035950871633941795,-0.142138,-32.926138
11.185,2.0,1.0,1.0,33.5,33.5,33.5,3.7,3.8,2.7075,0.32557390427511235,-0.02267729340692602,0.9280432917397751,-0.0039228446735951935,-0.144556,-32.760124
11.185,2.0,1.0,1.0,33.5,33.5,33.5,3.7,3.8,2.71,0.3152736973597232,-0.023071067285021243,0.931295939139144,-0.00426403670317224,-0.14704,-32.592773
11.185,2.0,1.0,1.0,33.5,33.5,33.5,3.7,3.8,2.7125,0.30485087365696645,-0.023471784328075954,0.9344556832560527,-0.004619240940172869,-0.149593,-32.424051
11.185,2.0,1.0,1.0,33.5,33.5,33.5,3.7,3.8,2.715,0.2943044102868385,-0.023879565103891897,0.937519386996012,-0.004989064840085546,-0.152218,-32.253922
11.185,2.0,1.0,1.0,33.5,33.5,33.5,3.7,3.8,2.7175,0.28363329915140784,-0.024294530737924952,0.9404838104598342,-0.0053741475027405455,-0.154917,-32.082352
11.185,2.0,1.0,1.0,33.5,33.5,33.5,3.7,3.8,2.72,0.27283654878378877,-0.024716802693935547,0.9433456071337963,-0.005775161692755318,-0.157695,-31.909302
11.185,2.0,1.0,1.0,33.5,33.5,33.5,3.7,3.8,2.7225,0.26191318631590443,-0.02514650252151498,0.9461013198928949,-0.006192816016516561,-0.160553,-31.734733
11.185,2.0,1.0,1.0,33.5,33.5,33.5,3.7,3.8,2.725,0.2508622595730648,-0.025583751566000925,0.9487473768032747,-0.006627857270042802,-0.163496,-31.558604
11.185,2.0,1.0,1.0,33.5,33.5,33.5,3.7,3.8,2.7275,0.2396828393040599,-0.026028670635656895,0.9512800867084931,-0.007081072973584409,-0.166527,-31.380874
11.185,2.0,1.0,1.0,33.5,33.5,33.5,3.7,3.8,2.73,0.2283740215563691,-0.026481379620249525,0.9536956345826305,-0.007553294110505883,-0.169649,-31.201499
11.185,2.0,1.0,1.0,33.5,33.5,33.5,3.7,3.8,2.7325,0.21693493020697405,-0.026941997054306742,0.9559900766314549,-0.008045398089890823,-0.172866,-31.020434
11.185,2.0,1.0,1.0,33.5,33.5,33.5,3.7,3.8,2.735,0.20536471966039588,-0.02741063961734717,0.9581593351207802,-0.008558311954428176,-0.176184,-30.837631
11.185,2.0,1.0,1.0,33.5,33.5,33.5,3.7,3.8,2.7375,0.19366257772676532,-0.027887421562231895,0.9601991929088386,-0.00909301585752315,-0.179606,-30.65304
11.185,2.0,1.0,1.0,33.5,33.5,33.5,3.7,3.8,2.74,0.18182772869419347,-0.028372454061455808,0.9621052876568863,-0.009650546836249187,-0.183137,-30.466612
11.185,2.0,1.0,1.0,33.5,33.5,33.5,3.7,3.8,2.7425,0.1698594366112936,-0.028865844459654344,0.9638731056892906,-0.010232002909770901,-0.186782,-30.278292
11.185,2.0,1.0,1.0,33.5,33.5,33.5,3.7,3.8,2.745,0.15775700879761875,-0.029367695418801725,0.9654979754710125,-0.010838547536257926,-0.190547,-30.088024
11.185,2.0,1.0,1.0,33.5,33.5,33.5,3.7,3.8,2.7475,0.14551979960193134,-0.02987810394047995,0.9669750606666163,-0.011471414465137074,-0.194436,-29.895752
11.185,2.0,1.0,1.0,33.5,33.5,33.5,3.7,3.8,2.75,0.133147214430738,-0.0303971602471484,0.968299352740641,-0.0121319130258515,-0.198458,-29.701413
11.185,2.0,1.0,1.0,33.5,33.5,33.5,3.7,3.8,2.7525,0.12063871407246193,-0.03092494650147678,0.9694656630543053,-0.012821433899182041,-0.202617,-29.504946
11.185,2.0,1.0,1.0,33.5,33.5,33.5,3.7,3.8,2.755,0.10799381934604632,-0.03146153533944525,0.9704686144079799,-0.013541455422720455,-0.206921,-29.306282
11.185,2.0,1.0,1.0,33.5,33.5,33.5,3.7,3.8,2.7575,0.09521211610673254,-0.03200698818896977,0.9713026319725694,-0.014293550488360493,-0.211377,-29.105355
11.185,2.0,1.0,1.0,33.5,33.5,33.5,3.7,3.8,2.76,0.08229326064651588,-0.03256135334116724,0.9719619335457793,-0.01507939409679407,-0.215993,-28.90209
11.185,2.0,1.0,1.0,33.5,33.5,33.5,3.7,3.8,2.7625,0.06923698553221154,-0.03312466373590537,0.9724405190610634,-0.015900771642102057,-0.220779,-28.696412
11.185,2.0,1.0,1.0,33.5,33.5,33.5,3.7,3.8,2.765,0.05604310593060037,-0.03369693441681725,0.9727321592677243,-0.01675958800874763,-0.225742,-28.488241
11.185,2.0,1.0,1.0,33.5,33.5,33.5,3.7,3.8,2.7675,0.04271152647777881,-0.03427815960331195,0.9728303834899724,-0.017657877573789164,-0.230894,-28.277495
11.185,2.0,1.0,1.0,33.5,33.5,33.5,3.7,3.8,2.77,0.02924224875889964,-0.034868309318040615,0.9727284663605483,-0.018597815219126526,-0.236244,-28.064086
11.185,2.0,1.0,1.0,33.5,33.5,33.5,3.7,3.8,2.7725,0.015635379475298524,-0.03546732549749418,0.9724194134105358,-0.019581728472300306,-0.241805,-27.847921
11.185,2.0,1.0,1.0,33.5,33.5,33.5,3.7,3.8,2.775,0.0018911393888337159,-0.03607511750056359,0.9718959453809735,-0.020612110910052033,-0.247588,-27.628905
11.185,2.0,1.0,1.0,33.5,33.5,33.5,3.7,3.8,2.7775,-0.011990126851416478,-0.03669155691455655,0.9711504811034629,-0.02169163697682263,-0.253607,-27.406935
11.185,2.0,1.0,1.0,33.5,33.5,33.5,3.7,3.8,2.78,-0.02600793987660714,-0.0373164715398109,0.9701751187758398,-0.022823178390984338,-0.259877,-27.181905
11.185,2.0,1.0,1.0,33.5,33.5,33.5,3.7,3.8,2.7825,-0.040161673614210455,-0.0379496384120222,0.9689616154346372,-0.024009822335270267,-0.266414,-26.953702
11.185,2.0,1.0,1.0,33.5,33.5,33.5,3.7,3.8,2.785,-0.05445054198078934,-0.038590775694920504,0.9675013643980699,-0.02525489165508829,-0.273234,-26.722208
11.185,2.0,1.0,1.0,33.5,33.5,33.5,3.7,3.8,2.7875,-0.0688735840475033,-0.03923953324399271,0.9657853704209801,-0.026561967319716908,-0.280357,-26.487297
11.185,2.0,1.0,1.0,33.5,33.5,33.5,3.7,3.8,2.79,-0.08342964743583531,-0.039895481603335635,0.9638042222659524,-0.027934913437458665,-0.287803,-26.248837
11.185,2.0,1.0,1.0,33.5,33.5,33.5,3.7,3.8,2.7925,-0.09811736965407934,-0.04055809915091004,0.9615480623518391,-0.02937790515739463,-0.295593,-26.006689
11.185,2.0,1.0,1.0,33.5,33.5,33.5,3.7,3.8,2.795,-0.11293515702820892,-0.04122675705055111,0.9590065530912868,-0.03089545983833307,-0.303754,-25.760705
11.185,2.0,1.0,1.0,33.5,33.5,33.5,3.7,3.8,2.7975,-0.12788116081106832,-0.04190070159968889,0.9561688394715847,-0.03249247192084165,-0.312311,-25.510728
11.185,2.0,1.0,1.0,33.5,33.5,33.5,3.7,3.8,2.8,-0.14295324996881126,-0.042579033476856196,0.9530235073669008,-0.03417425200205779,-0.321295,-25.256594
11.185,2.0,1.0,1.0,33.5,33.5,33.5,3.7,3.8,2.8025,-0.1581489800389382,-0.04326068328893485,0.9495585369935631,-0.03594657068653283,-0.330737,-24.998126
11.185,2.0,1.0,1.0,33.5,33.5,33.5,3.7,3.8,2.805,-0.1734655573255926,-0.04394438268994672,0.9457612508318441,-0.03781570787113,-0.340674,-24.735138
11.185,2.0,1.0,1.0,33.5,33.5,33.5,3.7,3.8,2.8075,-0.188899797538808,-0.044628630184978015,0.9416182552360806,-0.03978850821951899,-0.351146,-24.467434
11.185,2.0,1.0,1.0,33.5,33.5,33.5,3.7,3.8,2.81,-0.20444807778730062,-0.04531165053682415,0.9371153748381197,-0.0418724436937648,-0.362196,-24.194802
11.185,2.0,1.0,1.0,33.5,33.5,33.5,3.7,3.8,2.8125,-0.220106280589223,-0.0459913464492953,0.932237578715158,-0.0440756841386002,-0.373875,-23.917019
11.185,2.0,1.0,1.0,33.5,33.5,33.5,3.7,3.8,2.815,-0.23586972825937558,-0.04666524089719919,0.926968897140163,-0.046407177059865815,-0.386236,-23.633847
11.185,2.0,1.0,1.0,33.5,33.5,33.5,3.7,3.8,2.8175,-0.2517331056480531,-0.047330408092525394,0.9212923275596655,-0.04887673790365212,-0.399342,-23.345032
11.185,2.0,1.0,1.0,33.5,33.5,33.5,3.7,3.8,2.82,-0.2676903687248672,-0.04798339059827477,0.9151897282487216,-0.05149515232768061,-0.413261,-23.050303
11.185,2.0,1.0,1.0,33.5,33.5,33.5,3.7,3.8,2.8225,-0.28373463589286907,-0.0486200994984482,0.9086416978762244,-0.05427429216109803,-0.428071,-22.749371
11.185,2.0,1.0,1.0,33.5,33.5,33.5,3.7,3.8,2.825,-0.2998580581481802,-0.04923569376944393,0.9016274389773751,-0.057227246970843755,-0.443859,-22.441929
11.185,2.0,1.0,1.0,33.5,33.5,33.5,3.7,3.8,2.8275,-0.3160516632212538,-0.049824434028236726,0.894124603078981,-0.06036847338661996,-0.460725,-22.127644
