1,w,sub_t,h,l1,l2,l3,g1,g2,Freq,S11_re,S21_re,S11_img,S21_img,S11_dB,S21_dB
11.185,2.0,1.0,1.0,33.0,34.5,34.5,4.0,3.5,2.5,0.897812523320177,-0.00451779317375378,0.427141587496972,0.00386281456657563,-0.050157,-44.518343
11.185,2.0,1.0,1.0,33.0,34.5,34.5,4.0,3.5,2.5025,0.8951695880564,-0.00461689221972132,0.4325324859399935,0.0038892226790909917,-0.050616,-44.384008
11.185,2.0,1.0,1.0,33.0,34.5,34.5,4.0,3.5,2.505,0.892483935609519,-0.004718018344729916,0.437925875232962,0.003915492363427653,-0.051083,-44.249187
11.185,2.0,1.0,1.0,33.0,34.5,34.5,4.0,3.5,2.5075,0.8897551631196747,-0.004821225447707102,0.4433216354129741,0.003941613837313936,-0.051559,-44.113862
11.185,2.0,1.0,1.0,33.0,34.5,34.5,4.0,3.5,2.51,0.8869828601046396,-0.004926569450006677,0.4487196428923938,0.003967576864787091,-0.052044,-43.978016
11.185,2.0,1.0,1.0,33.0,34.5,34.5,4.0,3.5,2.5125,0.8841666082650221,-0.00503410839292873,0.45411977032923095,0.003993370730785814,-0.052539,-43.841629
11.185,2.0,1.0,1.0,33.0,34.5,34.5,4.0,3.5,2.515,0.8813059812819297,-0.0051439025409643,0.45952188649263087,0.0040189842140393025,-0.053043,-43.704684
11.185,2.0,1.0,1.0,33.0,34.5,34.5,4.0,3.5,2.5175,0.8784005446066566,-0.005256014491160284,0.4649258561232206,0.004044405558118652,-0.053558,-43.567161
11.185,2.0,1.0,1.0,33.0,34.5,34.5,4.0,3.5,2.52,0.8754498552419232,-0.005370509289031391,0.47033153978808134,0.00406962244050448,-0.054083,-43.42904
11.185,2.0,1.0,1.0,33.0,34.5,34.5,4.0,3.5,2.5225,0.8724534615141735,-0.005487454551480025,0.47573879373005074,0.004094621939511015,-0.054618,-43.290301
11.185,2.0,1.0,1.0,33.0,34.5,34.5,4.0,3.5,2.525,0.8694109028363796,-0.005606920597222753,0.48114746971109257,0.004119390498892507,-0.055165,-43.150924
11.185,2.0,1.0,1.0,33.0,34.5,34.5,4.0,3.5,2.5275,0.8663217094607671,-0.005728980585262353,0.4865574148494115,0.0041439138899413835,-0.055722,-43.010887
11.185,2.0,1.0,1.0,33.0,34.5,34.5,4.0,3.5,2.53,0.8631854022208418,-0.005853710661988892,0.4919684714499877,0.004168177170869696,-0.056292,-42.870169
11.185,2.0,1.0,1.0,33.0,34.5,34.5,4.0,3.5,2.5325,0.8600014922620223,-0.005981190117542099,0.49738047682817305,0.004192164643245618,-0.056873,-42.728747
11.185,2.0,1.0,1.0,33.0,34.5,34.5,4.0,3.5,2.535,0.8567694807601522,-0.00611150155212064,0.5027932631259802,0.004215859805234909,-0.057467,-42.586599
11.185,2.0,1.0,1.0,33.0,34.5,34.5,4.0,3.5,2.5375,0.8534888586270911,-0.006244731052981347,0.5082066571206363,0.004239245301372701,-0.058073,-42.4437
11.185,2.0,1.0,1.0,33.0,34.5,34.5,4.0,3.5,2.54,0.8501591062025233,-0.00638096838293663,0.513620480024982,0.004262302868564289,-0.058692,-42.300028
11.185,2.0,1.0,1.0,33.0,34.5,34.5,4.0,3.5,2.5425,0.8467796929310463,-0.006520307181227144,0.5190345472792249,0.004285013277983634,-0.059325,-42.155557
11.185,2.0,1.0,1.0,33.0,34.5,34.5,4.0,3.5,2.545,0.8433500770235269,-0.006662845177724388,0.5244486683335444,0.004307356272504904,-0.059972,-42.010262
11.185,2.0,1.0,1.0,33.0,34.5,34.5,4.0,3.5,2.5475,0.8398697051016256,-0.00680868442150233,0.5298626464209786,0.004329310499265479,-0.060634,-41.864116
11.185,2.0,1.0,1.0,33.0,34.5,34.5,4.0,3.5,2.55,0.8363380118242821,-0.0069579315249100855,0.5352762783200135,0.0043508534369176895,-0.06131,-41.717092
11.185,2.0,1.0,1.0,33.0,34.5,34.5,4.0,3.5,2.5525,0.8327544194948724,-0.0071106979243802165,0.5406893541061897,0.00437196131708048,-0.062002,-41.569163
11.185,2.0,1.0,1.0,33.0,34.5,34.5,4.0,3.5,2.555,0.8291183376476065,-0.007267100159320162,0.5461016568920439,0.00439260903945094,-0.06271,-41.4203
11.185,2.0,1.0,1.0,33.0,34.5,34.5,4.0,3.5,2.5575,0.8254291626116214,-0.007427260170558862,0.551512962554597,0.004412770079978388,-0.063434,-41.270474
11.185,2.0,1.0,1.0,33.0,34.5,34.5,4.0,3.5,2.56,0.8216862770510843,-0.007591305619958483,0.5569230394495415,0.004432416391439216,-0.064176,-41.119653
11.185,2.0,1.0,1.0,33.0,34.5,34.5,4.0,3.5,2.5625,0.817889049479456,-0.00775937023295293,0.562331648111212,0.00445151829567904,-0.064935,-40.967806
11.185,2.0,1.0,1.0,33.0,34.5,34.5,4.0,3.5,2.565,0.814036833745891,-0.007931594165944151,0.5677385409373263,0.004470044366707912,-0.065713,-40.814901
11.185,2.0,1.0,1.0,33.0,34.5,34.5,4.0,3.5,2.5675,0.8101289684915767,-0.008108124400672668,0.5731434618573821,0.004487961303743599,-0.066509,-40.660904
11.185,2.0,1.0,1.0,33.0,34.5,34.5,4.0,3.5,2.57,0.8061647765735717,-0.00828911516788761,0.5785461459834973,0.004505233793195844,-0.067325,-40.50578
11.185,2.0,1.0,1.0,33.0,34.5,34.5,4.0,3.5,2.5725,0.8021435644534938,-0.008474728402870028,0.5839463192423547,0.004521824358469851,-0.068162,-40.349493
11.185,2.0,1.0,1.0,33.0,34.5,34.5,4.0,3.5,2.575,0.7980646215481321,-0.008665134235620212,0.5893436979867693,0.004537693196337253,-0.06902,-40.192006
11.185,2.0,1.0,1.0,33.0,34.5,34.5,4.0,3.5,2.5775,0.7939272195387652,-0.008860511518804265,0.5947379885852442,0.00455279799847654,-0.0699,-40.03328
11.185,2.0,1.0,1.0,33.0,34.5,34.5,4.0,3.5,2.58,0.789730611635655,-0.009061048396872232,0.600128886987711,0.004567093756619102,-0.070803,-39.873275
11.185,2.0,1.0,1.0,33.0,34.5,34.5,4.0,3.5,2.5825,0.785474031793801,-0.009266942920115744,0.6055160782654538,0.004580532549549245,-0.07173,-39.71195
11.185,2.0,1.0,1.0,33.0,34.5,34.5,4.0,3.5,2.585,0.7811566938756562,-0.009478403707827784,0.6108992361229824,0.0045930633099933995,-0.072682,-39.549261
11.185,2.0,1.0,1.0,33.0,34.5,34.5,4.0,3.5,2.5875,0.7767777907560348,-0.009695650665171472,0.61627802237939,0.004604631569191584,-0.073659,-39.385163
11.185,2.0,1.0,1.0,33.0,34.5,34.5,4.0,3.5,2.59,0.7723364933639479,-0.009918915758860725,0.6216520864164178,0.004615179176668179,-0.074664,-39.219611
11.185,2.0,1.0,1.0,33.0,34.5,34.5,4.0,3.5,2.5925,0.7678319496555198,-0.010148443857313328,0.6270210645901533,0.004624643992404889,-0.075696,-39.052556
11.185,2.0,1.0,1.0,33.0,34.5,34.5,4.0,3.5,2.595,0.7632632835115153,-0.010384493641562485,0.6323845796028903,0.004632959548259013,-0.076758,-38.883947
11.185,2.0,1.0,1.0,33.0,34.5,34.5,4.0,3.5,2.5975,0.7586295935522624,-0.010627338593918071,0.6377422398312839,0.00464005467505972,-0.07785,-38.713732
11.185,2.0,1.0,1.0,33.0,34.5,34.5,4.0,3.5,2.6,0.7539299518619734,-0.010877268072162185,0.6430936386064346,0.0046458530913429975,-0.078974,-38.541857
11.185,2.0,1.0,1.0,33.0,34.5,34.5,4.0,3.5,2.6025,0.7491634026135308,-0.011134588477959494,0.6484383534409782,0.0046502729491453045,-0.080132,-38.368264
11.185,2.0,1.0,1.0,33.0,34.5,34.5,4.0,3.5,2.605,0.7443289605837786,-0.011399624529175785,0.6537759451976478,0.0046532263316528665,-0.081324,-38.192895
11.185,2.0,1.0,1.0,33.0,34.5,34.5,4.0,3.5,2.6075,0.7394256095481929,-0.01167272064694441,0.659105957193013,0.0046546186967858,-0.082553,-38.015687
11.185,2.0,1.0,1.0,33.0,34.5,34.5,4.0,3.5,2.61,0.7344523005424745,-0.011954242469619576,0.6644279142292827,0.004654348259966644,-0.083821,-37.836576
11.185,2.0,1.0,1.0,33.0,34.5,34.5,4.0,3.5,2.6125,0.7294079499771029,-0.012244578507232888,0.669741321546072,0.004652305308363142,-0.085128,-37.655494
11.185,2.0,1.0,1.0,33.0,34.5,34.5,4.0,3.5,2.615,0.7242914375891767,-0.012544141951747861,0.6750456636829171,0.00464837143778149,-0.086478,-37.472371
11.185,2.0,1.0,1.0,33.0,34.5,34.5,4.0,3.5,2.6175,0.719101604213925,-0.012853372660321865,0.6803404032419992,0.00464241870209143,-0.087871,-37.287133
11.185,2.0,1.0,1.0,33.0,34.5,34.5,4.0,3.5,2.62,0.7138372493560327,-0.01317273933096992,0.6856249795390283,0.004634308663556822,-0.089312,-37.099701
11.185,2.0,1.0,1.0,33.0,34.5,34.5,4.0,3.5,2.6225,0.7084971285383876,-0.013502741892523994,0.6908988071284629,0.004623891330683584,-0.090801,-36.909996
11.185,2.0,1.0,1.0,33.0,34.5,34.5,4.0,3.5,2.625,0.70307995040295,-0.0138439141336448,0.696161274187147,0.0046110039681355,-0.092342,-36.717931
11.185,2.0,1.0,1.0,33.0,34.5,34.5,4.0,3.5,2.6275,0.6975843735350739,-0.014196826598931246,0.7014117407380429,0.004595469760848835,-0.093937,-36.523417
11.185,2.0,1.0,1.0,33.0,34.5,34.5,4.0,3.5,2.63,0.6920090029787888,-0.014562089783953321,0.7066495366928445,0.0045770963116314265,-0.09559,-36.326361
11.185,2.0,1.0,1.0,33.0,34.5,34.5,4.0,3.5,2.6325,0.6863523864061065,-0.014940357665392921,0.711873959688913,0.004555673948174396,-0.097304,-36.126663
11.185,2.0,1.0,1.0,33.0,34.5,34.5,4.0,3.5,2.635,0.6806130098982919,-0.015332331607509552,0.7170842726919657,0.004530973811436213,-0.099081,-35.92422
11.185,2.0,1.0,1.0,33.0,34.5,34.5,4.0,3.5,2.6375,0.6747892932911371,-0.015738764691972683,0.7222797013312514,0.0045027456926508,-0.100927,-35.718921
11.185,2.0,1.0,1.0,33.0,34.5,34.5,4.0,3.5,2.64,0.6688795850293794,-0.01616046652485775,0.7274594309283223,0.004470715580613303,-0.102846,-35.51065
11.185,2.0,1.0,1.0,33.0,34.5,34.5,4.0,3.5,2.6425,0.6628821564674598,-0.01659830858245233,0.7326226031738137,0.004434582874219412,-0.10484,-35.299287
11.185,2.0,1.0,1.0,33.0,34.5,34.5,4.0,3.5,2.645,0.656795195544504,-0.017053230166664456,0.737768312398659,0.004394017207244769,-0.106917,-35.084702
11.185,2.0,1.0,1.0,33.0,34.5,34.5,4.0,3.5,2.6475,0.6506167997505721,-0.017526245051500015,0.7428956013765463,0.004348654822761281,-0.10908,-34.866758
11.185,2.0,1.0,1.0,33.0,34.5,34.5,4.0,3.5,2.65,0.6443449682885234,-0.01801844891456913,0.7480034565828907,0.004298094423040013,-0.111337,-34.64531
11.185,2.0,1.0,1.0,33.0,34.5,34.5,4.0,3.5,2.6525,0.6379775933209936,-0.01853102766222923,0.7530908028216,0.004241892406838049,-0.113692,-34.420207
11.185,2.0,1.0,1.0,33.0,34.5,34.5,4.0,3.5,2.655,0.6315124501744375,-0.019065266774201676,0.758156497114028,0.004179557389048976,-0.116153,-34.191285
11.185,2.0,1.0,1.0,33.0,34.5,34.5,4.0,3.5,2.6575,0.6249471863516303,-0.019622561813792204,0.7631993217238892,0.0041105438771093065,-0.118728,-33.958371
11.185,2.0,1.0,1.0,33.0,34.5,34.5,4.0,3.5,2.66,0.618279309179635,-0.0202044302738275,0.7682179761667732,0.004034244953404199,-0.121425,-33.721283
11.185,2.0,1.0,1.0,33.0,34.5,34.5,4.0,3.5,2.6625,0.6115061718914309,-0.020812524956814463,0.7732110680220454,0.003949983782074898,-0.124253,-33.479824
11.185,2.0,1.0,1.0,33.0,34.5,34.5,4.0,3.5,2.665,0.6046249579051439,-0.02144864912153972,0.7781771023269731,0.003857003720653817,-0.127222,-33.233786
11.185,2.0,1.0,1.0,33.0,34.5,34.5,4.0,3.5,2.6675,0.597632663024113,-0.022114773668439183,0.7831144692859345,0.0037544567699943875,-0.130344,-32.982946
11.185,2.0,1.0,1.0,33.0,34.5,34.5,4.0,3.5,2.67,0.5905260752323943,-0.022813056683921237,0.7880214299692773,0.003641390037637225,-0.133631,-32.727066
11.185,2.0,1.0,1.0,33.0,34.5,34.5,4.0,3.5,2.6725,0.5833017517021977,-0.023545865721041098,0.7928960996036323,0.0035167298169839862,-0.137098,-32.465892
11.185,2.0,1.0,1.0,33.0,34.5,34.5,4.0,3.5,2.675,0.5759559925600957,-0.024315803262491185,0.7977364279642533,0.0033792627934206374,-0.140759,-32.199149
11.185,2.0,1.0,1.0,33.0,34.5,34.5,4.0,3.5,2.6775,0.5684848108751351,-0.02512573589422003,0.8025401762650416,0.0032276137735952853,-0.144632,-31.926544
11.185,2.0,1.0,1.0,33.0,34.5,34.5,4.0,3.5,2.68,0.5608838982312491,-0.025978827817084965,0.8073048897963504,0.0030602191885024,-0.148737,-31.64776
11.185,2.0,1.0,1.0,33.0,34.5,34.5,4.0,3.5,2.6825,0.5531485851248958,-0.026878579443387177,0.8120278653752994,0.0028752954357053467,-0.153095,-31.362458
11.185,2.0,1.0,1.0,33.0,34.5,34.5,4.0,3.5,2.685,0.5452737952821158,-0.027828871969317586,0.8167061124360062,0.0026708008887530443,-0.157732,-31.07027
11.185,2.0,1.0,1.0,33.0,34.5,34.5,4.0,3.5,2.6875,0.53725399281187,-0.0288340189885219,0.821336306281409,0.00244439009626664,-0.162677,-30.770796
11.185,2.0,1.0,1.0,33.0,34.5,34.5,4.0,3.5,2.69,0.5290831208980367,-0.029898826422472092,0.8259147316221419,0.0021933582972187195,-0.16796,-30.463608
11.185,2.0,1.0,1.0,33.0,34.5,34.5,4.0,3.5,2.6925,0.5207545304732015,-0.031028662297497723,0.8304372140111976,0.0019145738625952736,-0.173619,-30.148235
11.185,2.0,1.0,1.0,33.0,34.5,34.5,4.0,3.5,2.695,0.512260897004641,-0.03222953820462547,0.8348990361045656,0.001604395595839177,-0.179697,-29.82417
11.185,2.0,1.0,1.0,33.0,34.5,34.5,4.0,3.5,2.6975,0.5035941231467861,-0.03350820464610718,0.8392948347810094,0.0012585709285336635,-0.186241,-29.490854
11.185,2.0,1.0,1.0,33.0,34.5,34.5,4.0,3.5,2.7,0.4947452245651478,-0.034872262911091294,0.8436184739593962,0.0008721098548955408,-0.193309,-29.147682
11.185,2.0,1.0,1.0,33.0,34.5,34.5,4.0,3.5,2.7025,0.4857041957049832,-0.036330296640458844,0.8478628863488534,0.0004391278483476312,-0.200967,-28.793987
11.185,2.0,1.0,1.0,33.0,34.5,34.5,4.0,3.5,2.705,0.47645985165912236,-0.03789202684121116,0.8520198751987255,-4.7351160353366966e-05,-0.20929,-28.429036
11.185,2.0,1.0,1.0,33.0,34.5,34.5,4.0,3.5,2.7075,0.4669996415877325,-0.039568494787863534,0.856079864158529,-0.0005956436137018643,-0.218371,-28.052025
11.185,2.0,1.0,1.0,33.0,34.5,34.5,4.0,3.5,2.71,0.4573094283829389,-0.04137227797539689,0.8600315792916094,-0.001215722892478157,-0.228316,-27.662063
11.185,2.0,1.0,1.0,33.0,34.5,34.5,4.0,3.5,2.7125,0.4473732285166193,-0.04331774499878927,0.8638616416440259,-0.0019196251658844675,-0.239254,-27.258163
11.185,2.0,1.0,1.0,33.0,34.5,34.5,4.0,3.5,2.715,0.4371729053985078,-0.04542135578559809,0.8675540408702986,-0.0027219739501159576,-0.251338,-26.839229
11.185,2.0,1.0,1.0,33.0,34.5,34.5,4.0,3.5,2.7175,0.42668780938109746,-0.04770201371715384,0.8710894492534329,-0.003640663919917226,-0.264753,-26.404042
11.185,2.0,1.0,1.0,33.0,34.5,34.5,4.0,3.5,2.72,0.415894358313383,-0.0501814752964745,0.8744443195298475,-0.004697760375883538,-0.279727,-25.951236
11.185,2.0,1.0,1.0,33.0,34.5,34.5,4.0,3.5,2.7225,0.4047655552812604,-0.05288482013080721,0.8775896869946584,-0.00592069359540806,-0.296537,-25.479284
11.185,2.0,1.0,1.0,33.0,34.5,34.5,4.0,3.5,2.725,0.39327044678209755,-0.05584097717344893,0.8804895630321321,-0.007343860447341444,-0.315528,-24.986467
11.185,2.0,1.0,1.0,33.0,34.5,34.5,4.0,3.5,2.7275,0.38137353863052165,-0.05908328882438082,0.8830987583652182,-0.009010794209136109,-0.337131,-24.47085
11.185,2.0,1.0,1.0,33.0,34.5,34.5,4.0,3.5,2.73,0.369034215083221,-0.06265006589202265,0.8853599021982693,-0.010977135160915997,-0.361893,-23.930248
11.185,2.0,1.0,1.0,33.0,34.5,34.5,4.0,3.5,2.7325,0.3562062616731866,-0.0665850308646342,0.8871993164198329,-0.013314740726409851,-0.390512,-23.362191
11.185,2.0,1.0,1.0,33.0,34.5,34.5,4.0,3.5,2.735,0.342837698223321,-0.07093744023753276,0.8885212450977975,-0.016117431487029467,-0.42389,-22.76389
11.185,2.0,1.0,1.0,33.0,34.5,34.5,4.0,3.5,2.7375,0.32887133199558644,-0.07576147227330313,0.8891997048862608,-0.01950910163890351,-0.463212,-22.132198
11.185,2.0,1.0,1.0,33.0,34.5,34.5,4.0,3.5,2.74,0.31424683236748663,-0.08111407423805123,0.8890668824091287,-0.023655257897145773,-0.510049,-21.463587
11.185,2.0,1.0,1.0,33.0,34.5,34.5,4.0,3.5,2.7425,0.2989058848691356,-0.08704970632128221,0.8878965363384488,-0.028779511972153834,-0.566514,-20.754152
11.185,2.0,1.0,1.0,33.0,34.5,34.5,4.0,3.5,2.745,0.2828034509644425,-0.09360895253190696,0.8853802887593972,-0.03518711215318197,-0.635486,-19.999666
11.185,2.0,1.0,1.0,33.0,34.5,34.5,4.0,3.5,2.7475,0.2659310135812467,-0.10079512302031521,0.8810942214719208,-0.04329804628541577,-0.720928,-19.195764
11.185,2.0,1.0,1.0,33.0,34.5,34.5,4.0,3.5,2.75,0.24836318249712,-0.108527502713433,0.874453630392956,-0.0536917734176602,-0.828342,-18.338357
11.185,2.0,1.0,1.0,33.0,34.5,34.5,4.0,3.5,2.7525,0.23034927115044987,-0.11654973133989747,0.8646576805680316,-0.06716169416977699,-0.965336,-17.424526
11.185,2.0,1.0,1.0,33.0,34.5,34.5,4.0,3.5,2.755,0.21248888425955692,-0.12425454448350648,0.8506403441504349,-0.0847627627244133,-1.142202,-16.454322
11.185,2.0,1.0,1.0,33.0,34.5,34.5,4.0,3.5,2.7575,0.19605302606044162,-0.1303640378420963,0.8310882068635782,-0.10779145207639074,-1.371865,-15.434248
11.185,2.0,1.0,1.0,33.0,34.5,34.5,4.0,3.5,2.76,0.18351038508646506,-0.13240727122110338,0.8046989045909334,-0.13752456211686184,-1.667149,-14.383657
11.185,2.0,1.0,1.0,33.0,34.5,34.5,4.0,3.5,2.7625,0.1791639012821703,-0.12609255014884405,0.771074331221457,-0.1743249419685567,-2.029713,-13.345267
11.185,2.0,1.0,1.0,33.0,34.5,34.5,4.0,3.5,2.765,0.18916301521287202,-0.1053099971028126,0.7327909941626178,-0.21557910711430278,-2.420233,-12.398449
11.185,2.0,1.0,1.0,33.0,34.5,34.5,4.0,3.5,2.7675,0.21890412123612027,-0.06474097488616112,0.698202645207974,-0.25292408644785785,-2.713168,-11.664578
11.185,2.0,1.0,1.0,33.0,34.5,34.5,4.0,3.5,2.77,0.2664647532205013,-0.006394445638711524,0.680900391171381,-0.27283210783979195,-2.719476,-11.279705
11.185,2.0,1.0,1.0,33.0,34.5,34.5,4.0,3.5,2.7725,0.31829387073466414,0.056164850064177076,0.6906570385178055,-0.26566174585512675,-2.378332,-11.323519
11.185,2.0,1.0,1.0,33.0,34.5,34.5,4.0,3.5,2.775,0.35750630194759675,0.10614858642495954,0.7236244086123441,-0.23536306414534777,-1.861236,-11.761132
11.185,2.0,1.0,1.0,33.0,34.5,34.5,4.0,3.5,2.7775,0.376608745919148,0.13619071784390457,0.7665971347809252,-0.19513944121192336,-1.369715,-12.46974
11.185,2.0,1.0,1.0,33.0,34.5,34.5,4.0,3.5,2.78,0.3783463835964102,0.1491095715613886,0.8083710230132739,-0.15612749881517543,-0.987544,-13.315259
11.185,2.0,1.0,1.0,33.0,34.5,34.5,4.0,3.5,2.7825,0.3688855145511001,0.1510871326073504,0.8439404468899497,-0.12326484802324987,-0.714444,-14.199702
11.185,2.0,1.0,1.0,33.0,34.5,34.5,4.0,3.5,2.785,0.3533644516832949,0.14725137009444128,0.8725392532952987,-0.09727331524901214,-0.524726,-15.066108
11.185,2.0,1.0,1.0,33.0,34.5,34.5,4.0,3.5,2.7875,0.3349982722968626,0.14080267449897213,0.8951010241366999,-0.07719512166501069,-0.393249,-15.886416
11.185,2.0,1.0,1.0,33.0,34.5,34.5,4.0,3.5,2.79,0.31554469102181193,0.13348762501272382,0.9129037641697751,-0.06173953644629629,-0.301362,-16.649291
11.185,2.0,1.0,1.0,33.0,34.5,34.5,4.0,3.5,2.7925,0.29588718367475997,0.1261833611536248,0.9270808062348119,-0.04976586184302141,-0.236372,-17.352086
11.185,2.0,1.0,1.0,33.0,34.5,34.5,4.0,3.5,2.795,0.27643351968402713,0.1192953533433544,0.9385147420239844,-0.040386207468806556,-0.189858,-17.996304
11.185,2.0,1.0,1.0,33.0,34.5,34.5,4.0,3.5,2.7975,0.25734514607138026,0.1129857771442025,0.9478595621206867,-0.03294176110420178,-0.156238,-18.585206
11.185,2.0,1.0,1.0,33.0,34.5,34.5,4.0,3.5,2.8,0.23866048062681244,0.10729601566337596,0.9555912570140697,-0.02695146218331264,-0.131775,-19.122606
11.185,2.0,1.0,1.0,33.0,34.5,34.5,4.0,3.5,2.8025,0.220359182581371,0.10221040275817325,0.9620550446265335,-0.022064450388356947,-0.113929,-19.612286
11.185,2.0,1.0,1.0,33.0,34.5,34.5,4.0,3.5,2.805,0.2023950680712161,0.09768881853099068,0.9675020719380373,-0.018023214796008026,-0.100948,-20.057734
11.185,2.0,1.0,1.0,33.0,34.5,34.5,4.0,3.5,2.8075,0.1847126576340409,0.093683063821893,0.9721160933245682,-0.014636834258152431,-0.091603,-20.462039
11.185,2.0,1.0,1.0,33.0,34.5,34.5,4.0,3.5,2.81,0.16725523380249022,0.09014484705900586,0.9760323614921521,-0.011762023628226849,-0.085021,-20.827866
11.185,2.0,1.0,1.0,33.0,34.5,34.5,4.0,3.5,2.8125,0.149968513057369,0.0870294587854974,0.979350893440325,-0.00928980007727232,-0.080572,-21.15747
11.185,2.0,1.0,1.0,33.0,34.5,34.5,4.0,3.5,2.815,0.1328020694230891,0.08429725393915295,0.9821457887797074,-0.007136080385982778,-0.077794,-21.45272
11.185,2.0,1.0,1.0,33.0,34.5,34.5,4.0,3.5,2.8175,0.11570962433173414,0.08191404741676511,0.984471802726289,-0.005234999752420698,-0.07635,-21.715131
11.185,2.0,1.0,1.0,33.0,34.5,34.5,4.0,3.5,2.82,0.09864878335952108,0.07985100005756898,0.9863690077159619,-0.003534112379393517,-0.075988,-21.945894
11.185,2.0,1.0,1.0,33.0,34.5,34.5,4.0,3.5,2.8225,0.08158051965330111,0.07808429551816036,0.9878661144447943,-0.001990896879621261,-0.07652,-22.145904
11.185,2.0,1.0,1.0,33.0,34.5,34.5,4.0,3.5,2.825,0.0644685551702673,0.07659476315992075,0.9889828413619092,-0.0005701699050899859,-0.077809,-22.315778
11.185,2.0,1.0,1.0,33.0,34.5,34.5,4.0,3.5,2.8275,0.04727871157985922,0.07536752587191545,0.9897315974835293,0.0007578666889772711,-0.079752,-22.455876
11.185,2.0,1.0,1.0,33.0,34.5,34.5,4.0,3.5,2.83,0.029978260086956036,0.07439171236502111,0.99011865846729,0.00201913805613881,-0.082276,-22.566311
