1,w,sub_t,h,l1,l2,l3,g1,g2,Freq,S11_re,S21_re,S11_img,S21_img,S11_dB,S21_dB
11.185,2.0,1.0,1.0,33.8,34.0,34.0,4.3,2.1,2.5,0.812905945701487,-0.00778360073580803,0.571243642578013,0.00516546711498202,-0.056233,-40.591525
11.185,2.0,1.0,1.0,33.8,34.0,34.0,4.3,2.1,2.5025,0.808884160161139,-0.00793281543947374,0.5768179476257879,0.005175459227902176,-0.056773,-40.471352
11.185,2.0,1.0,1.0,33.8,34.0,34.0,4.3,2.1,2.505,0.8048057175120745,-0.008084655530231452,0.5823875485345323,0.005184459358157737,-0.057324,-40.350794
11.185,2.0,1.0,1.0,33.8,34.0,34.0,4.3,2.1,2.5075,0.8006700654626003,-0.008239175458220177,0.5879521073970819,0.005192429162782895,-0.057884,-40.22984
11.185,2.0,1.0,1.0,33.8,34.0,34.0,4.3,2.1,2.51,0.7964766435902007,-0.008396431161303234,0.5935112765548913,0.005199328870638768,-0.058454,-40.108481
11.185,2.0,1.0,1.0,33.8,34.0,34.0,4.3,2.1,2.5125,0.792224883229274,-0.008556480116762738,0.5990646982960324,0.0052051172215683275,-0.059034,-39.986705
11.185,2.0,1.0,1.0,33.8,34.0,34.0,4.3,2.1,2.515,0.787914207357792,-0.00871938139522457,0.6046120045434682,0.0052097514025373345,-0.059626,-39.864503
11.185,2.0,1.0,1.0,33.8,34.0,34.0,4.3,2.1,2.5175,0.7835440304829033,-0.008885195716929365,0.6101528165332298,0.005213186980588967,-0.060228,-39.741863
11.185,2.0,1.0,1.0,33.8,34.0,34.0,4.3,2.1,2.52,0.7791137585254587,-0.009053985510473893,0.6156867444821399,0.005215377832425082,-0.060841,-39.618775
11.185,2.0,1.0,1.0,33.8,34.0,34.0,4.3,2.1,2.5225,0.7746227887034901,-0.009225814974152865,0.6212133872446777,0.005216276070417398,-0.061466,-39.495228
11.185,2.0,1.0,1.0,33.8,34.0,34.0,4.3,2.1,2.525,0.7700705094146142,-0.009400750140040612,0.6267323319585922,0.005215831964835413,-0.062103,-39.37121
11.185,2.0,1.0,1.0,33.8,34.0,34.0,4.3,2.1,2.5275,0.7654563001173752,-0.00957885894096078,0.6322431536788355,0.0052139938620667445,-0.062752,-39.246711
11.185,2.0,1.0,1.0,33.8,34.0,34.0,4.3,2.1,2.53,0.760779531211521,-0.009760211280499918,0.6377454149993622,0.005210708098585657,-0.063413,-39.121717
11.185,2.0,1.0,1.0,33.8,34.0,34.0,4.3,2.1,2.5325,0.7560395639172083,-0.009944879106232964,0.6432386656623363,0.005205918910413942,-0.064087,-38.996218
11.185,2.0,1.0,1.0,33.8,34.0,34.0,4.3,2.1,2.535,0.7512357501531253,-0.010132936486337518,0.6487224421542548,0.005199568337794284,-0.064774,-38.870201
11.185,2.0,1.0,1.0,33.8,34.0,34.0,4.3,2.1,2.5375,0.7463674324135314,-0.010324459689785888,0.6541962672884652,0.005191596124782047,-0.065474,-38.743654
11.185,2.0,1.0,1.0,33.8,34.0,34.0,4.3,2.1,2.54,0.7414339436441933,-0.010519527270316681,0.6596596497735457,0.005181939613436109,-0.066188,-38.616564
11.185,2.0,1.0,1.0,33.8,34.0,34.0,4.3,2.1,2.5425,0.7364346071172079,-0.010718220154398998,0.6651120837669783,0.00517053363226784,-0.066916,-38.488918
11.185,2.0,1.0,1.0,33.8,34.0,34.0,4.3,2.1,2.545,0.731368736304686,-0.010920621733419015,0.6705530484135145,0.005157310378583164,-0.067659,-38.360703
11.185,2.0,1.0,1.0,33.8,34.0,34.0,4.3,2.1,2.5475,0.7262356347512823,-0.011126817960331313,0.6759820073676003,0.005142199294324158,-0.068417,-38.231905
11.185,2.0,1.0,1.0,33.8,34.0,34.0,4.3,2.1,2.55,0.7210345959455287,-0.011336897451035503,0.681398408299212,0.005125126934988544,-0.06919,-38.10251
11.185,2.0,1.0,1.0,33.8,34.0,34.0,4.3,2.1,2.5525,0.7157649031899538,-0.011550951590754302,0.6868016823823839,0.005106016831172379,-0.069979,-37.972505
11.185,2.0,1.0,1.0,33.8,34.0,34.0,4.3,2.1,2.555,0.7104258294699278,-0.011769074645710262,0.692191243765699,0.005084789342248991,-0.070784,-37.841875
11.185,2.0,1.0,1.0,33.8,34.0,34.0,4.3,2.1,2.5575,0.7050166373211947,-0.011991363880416456,0.6975664890239686,0.005061361501656845,-0.071605,-37.710605
11.185,2.0,1.0,1.0,33.8,34.0,34.0,4.3,2.1,2.56,0.6995365786960295,-0.012217919680919296,0.7029267965902591,0.005035646853231082,-0.072444,-37.57868
11.185,2.0,1.0,1.0,33.8,34.0,34.0,4.3,2.1,2.5625,0.693984894827956,-0.0124488456843548,0.708271526167402,0.00500755527796718,-0.0733,-37.446084
11.185,2.0,1.0,1.0,33.8,34.0,34.0,4.3,2.1,2.565,0.6883608160949369,-0.012684248915204996,0.7136000181180586,0.004976992810558152,-0.074175,-37.312802
11.185,2.0,1.0,1.0,33.8,34.0,34.0,4.3,2.1,2.5675,0.6826635618809587,-0.012924239928668136,0.7189115928323493,0.004943861444993615,-0.075068,-37.178817
11.185,2.0,1.0,1.0,33.8,34.0,34.0,4.3,2.1,2.57,0.6768923404358903,-0.013168932961585816,0.7242055500720059,0.004908058928451711,-0.075981,-37.044113
11.185,2.0,1.0,1.0,33.8,34.0,34.0,4.3,2.1,2.5725,0.6710463487335078,-0.01341844609140203,0.7294811682899357,0.004869478542652702,-0.076913,-36.908672
11.185,2.0,1.0,1.0,33.8,34.0,34.0,4.3,2.1,2.575,0.6651247723275345,-0.01367290140366314,0.7347377039240105,0.004828008871774133,-0.077866,-36.772477
11.185,2.0,1.0,1.0,33.8,34.0,34.0,4.3,2.1,2.5775,0.6591267852055475,-0.013932425168604398,0.7399743906638152,0.00478353355595325,-0.07884,-36.635509
11.185,2.0,1.0,1.0,33.8,34.0,34.0,4.3,2.1,2.58,0.6530515496405686,-0.014197148027409122,0.7451904386890071,0.004735931029320362,-0.079836,-36.497751
11.185,2.0,1.0,1.0,33.8,34.0,34.0,4.3,2.1,2.5825,0.6468982160401291,-0.014467205188769901,0.7503850338778513,0.004685074241417582,-0.080854,-36.359184
11.185,2.0,1.0,1.0,33.8,34.0,34.0,4.3,2.1,2.585,0.6406659227925849,-0.0147427366364266,0.7555573369843768,0.004630830360757418,-0.081895,-36.219786
11.185,2.0,1.0,1.0,33.8,34.0,34.0,4.3,2.1,2.5875,0.6343537961104128,-0.015023887348408595,0.7607064827825125,0.00457306045917169,-0.08296,-36.07954
11.185,2.0,1.0,1.0,33.8,34.0,34.0,4.3,2.1,2.59,0.6279609498701979,-0.015310807528761156,0.7658315791754166,0.004511619175479027,-0.084049,-35.938423
11.185,2.0,1.0,1.0,33.8,34.0,34.0,4.3,2.1,2.5925,0.6214864854489718,-0.015603652852596801,0.7709317062681009,0.004446354356870283,-0.085165,-35.796414
11.185,2.0,1.0,1.0,33.8,34.0,34.0,4.3,2.1,2.595,0.6149294915565398,-0.01590258472537604,0.7760059154012889,0.004377106676270993,-0.086306,-35.653493
11.185,2.0,1.0,1.0,33.8,34.0,34.0,4.3,2.1,2.5975,0.6082890440633582,-0.016207770557391137,0.781053228144304,0.004303709223776244,-0.087475,-35.509635
11.185,2.0,1.0,1.0,33.8,34.0,34.0,4.3,2.1,2.6,0.6015642058235001,-0.01651938405450353,0.7860726352445966,0.004225987070086084,-0.088671,-35.364817
11.185,2.0,1.0,1.0,33.8,34.0,34.0,4.3,2.1,2.6025,0.5947540264921821,-0.01683760552626537,0.7910630955313264,0.004143756799673123,-0.089897,-35.219017
11.185,2.0,1.0,1.0,33.8,34.0,34.0,4.3,2.1,2.605,0.58785754233725,-0.01716262221264711,0.7960235347702167,0.004056826011204407,-0.091153,-35.072208
11.185,2.0,1.0,1.0,33.8,34.0,34.0,4.3,2.1,2.6075,0.5808737760439656,-0.017494628630687774,0.8009528444666465,0.003964992782503487,-0.09244,-34.924366
11.185,2.0,1.0,1.0,33.8,34.0,34.0,4.3,2.1,2.61,0.5738017365123588,-0.01783382694249066,0.8058498806136923,0.0038680450970811687,-0.093759,-34.775464
11.185,2.0,1.0,1.0,33.8,34.0,34.0,4.3,2.1,2.6125,0.5666404186463119,-0.018180427346101535,0.8107134623815576,0.003765760228973593,-0.095112,-34.625475
11.185,2.0,1.0,1.0,33.8,34.0,34.0,4.3,2.1,2.615,0.5593888031334533,-0.018534648490930027,0.81554237074449,0.003657904082308509,-0.0965,-34.474371
11.185,2.0,1.0,1.0,33.8,34.0,34.0,4.3,2.1,2.6175,0.5520458562148439,-0.018896717919510232,0.8203353470409476,0.003544230481664993,-0.097923,-34.322122
11.185,2.0,1.0,1.0,33.8,34.0,34.0,4.3,2.1,2.62,0.5446105294433082,-0.019266872537544708,0.825091091462379,0.0034244804088992198,-0.099384,-34.168699
11.185,2.0,1.0,1.0,33.8,34.0,34.0,4.3,2.1,2.6225,0.5370817594291318,-0.019645359114333658,0.8298082614655509,0.003298381181666215,-0.100883,-34.01407
11.185,2.0,1.0,1.0,33.8,34.0,34.0,4.3,2.1,2.625,0.529458467571734,-0.020032434815868,0.83448547010286,0.00316564556838271,-0.102423,-33.858204
11.185,2.0,1.0,1.0,33.8,34.0,34.0,4.3,2.1,2.6275,0.5217395597757224,-0.020428367773053173,0.8391212842645425,0.0030259708338241076,-0.104004,-33.701067
11.185,2.0,1.0,1.0,33.8,34.0,34.0,4.3,2.1,2.63,0.5139239261496026,-0.020833437687737356,0.843714222826071,0.0028790377089433763,-0.105629,-33.542625
11.185,2.0,1.0,1.0,33.8,34.0,34.0,4.3,2.1,2.6325,0.5060104406852082,-0.021247936479444143,0.8482627546933671,0.0027245092778111126,-0.107299,-33.382841
11.185,2.0,1.0,1.0,33.8,34.0,34.0,4.3,2.1,2.635,0.49799796091570436,-0.021672168975951242,0.8527652967376835,0.0025620297738117473,-0.109016,-33.221678
11.185,2.0,1.0,1.0,33.8,34.0,34.0,4.3,2.1,2.6375,0.48988532754980507,-0.022106453651128857,0.8572202116111691,0.00239122327637354,-0.110782,-33.059099
11.185,2.0,1.0,1.0,33.8,34.0,34.0,4.3,2.1,2.64,0.48167136407955513,-0.022551123413737738,0.8616258054331787,0.00221169229853908,-0.112599,-32.895063
11.185,2.0,1.0,1.0,33.8,34.0,34.0,4.3,2.1,2.6425,0.4733548763587898,-0.02300652645120391,0.8659803253362868,0.0020230162545983956,-0.114469,-32.729528
11.185,2.0,1.0,1.0,33.8,34.0,34.0,4.3,2.1,2.645,0.4649346521490457,-0.02347302713273394,0.8702819568597802,0.0018247497957845002,-0.116395,-32.562452
11.185,2.0,1.0,1.0,33.8,34.0,34.0,4.3,2.1,2.6475,0.45640946062937865,-0.02395100697650382,0.8745288211770106,0.0016164210006415795,-0.11838,-32.393788
11.185,2.0,1.0,1.0,33.8,34.0,34.0,4.3,2.1,2.65,0.44777805186614705,-0.024440865686066904,0.878718972141455,0.0013975294051201041,-0.120424,-32.223492
11.185,2.0,1.0,1.0,33.8,34.0,34.0,4.3,2.1,2.6525,0.43903915623846806,-0.024943022261560466,0.8828503931345484,0.0011675438556792784,-0.122532,-32.051513
11.185,2.0,1.0,1.0,33.8,34.0,34.0,4.3,2.1,2.655,0.4301914838145377,-0.025457916191776175,0.8869209936963947,0.000925900166673532,-0.124707,-31.877802
11.185,2.0,1.0,1.0,33.8,34.0,34.0,4.3,2.1,2.6575,0.42123372367358874,-0.025986008733670508,0.8909286059181686,0.0006719985610191257,-0.126951,-31.702305
11.185,2.0,1.0,1.0,33.8,34.0,34.0,4.3,2.1,2.66,0.41216454316769163,-0.026527784286454414,0.8948709805724513,0.0004052008705473934,-0.129267,-31.524967
11.185,2.0,1.0,1.0,33.8,34.0,34.0,4.3,2.1,2.6625,0.40298258711706464,-0.027083751868000442,0.8987457829548038,0.00012482746949397426,-0.131661,-31.345731
11.185,2.0,1.0,1.0,33.8,34.0,34.0,4.3,2.1,2.665,0.39368647693190617,-0.027654446701956166,0.9025505884065218,-0.0001698460887951349,-0.134134,-31.164537
11.185,2.0,1.0,1.0,33.8,34.0,34.0,4.3,2.1,2.6675,0.3842748096531428,-0.028240431924638435,0.906282877484663,-0.0004795927657204425,-0.136691,-30.981321
11.185,2.0,1.0,1.0,33.8,34.0,34.0,4.3,2.1,2.67,0.3747461569037324,-0.028842300421525767,0.9099400307410385,-0.0008052381000442352,-0.139338,-30.796018
11.185,2.0,1.0,1.0,33.8,34.0,34.0,4.3,2.1,2.6725,0.36509906374142087,-0.029460676803942442,0.9135193230667916,-0.0011476646825330373,-0.142077,-30.60856
11.185,2.0,1.0,1.0,33.8,34.0,34.0,4.3,2.1,2.675,0.3553320474030579,-0.030096219537345325,0.9170179175533514,-0.0015078170917325738,-0.144915,-30.418874
11.185,2.0,1.0,1.0,33.8,34.0,34.0,4.3,2.1,2.6775,0.34544359592971735,-0.03074962323347857,0.9204328588138363,-0.0018867073466994184,-0.147856,-30.226885
11.185,2.0,1.0,1.0,33.8,34.0,34.0,4.3,2.1,2.68,0.33543216666100445,-0.03142162111953205,0.9237610657012058,-0.002285420940283955,-0.150907,-30.032514
11.185,2.0,1.0,1.0,33.8,34.0,34.0,4.3,2.1,2.6825,0.32529618458606363,-0.03211298769831905,0.9269993233504625,-0.002705123525539794,-0.154073,-29.835677
11.185,2.0,1.0,1.0,33.8,34.0,34.0,4.3,2.1,2.685,0.3150340405378972,-0.03282454161435463,0.9301442744617726,-0.0031470683382587893,-0.157361,-29.636288
11.185,2.0,1.0,1.0,33.8,34.0,34.0,4.3,2.1,2.6875,0.304644089216783,-0.033557148741532,0.933192409729222,-0.00361260445074285,-0.160779,-29.434255
11.185,2.0,1.0,1.0,33.8,34.0,34.0,4.3,2.1,2.69,0.29412464702782437,-0.03431172550882086,0.9361400573057751,-0.004103185966032653,-0.164335,-29.229482
11.185,2.0,1.0,1.0,33.8,34.0,34.0,4.3,2.1,2.6925,0.2834739897169959,-0.03508924248099477,0.9389833711784735,-0.004620382278290906,-0.168036,-29.021866
11.185,2.0,1.0,1.0,33.8,34.0,34.0,4.3,2.1,2.695,0.2726903497896992,-0.03589072821173617,0.9417183183085295,-0.005165889544321357,-0.171892,-28.811301
11.185,2.0,1.0,1.0,33.8,34.0,34.0,4.3,2.1,2.6975,0.26177191369566744,-0.036717273386488544,0.9443406643682597,-0.005741543533832625,-0.175913,-28.597675
11.185,2.0,1.0,1.0,33.8,34.0,34.0,4.3,2.1,2.7,0.25071681876449436,-0.037570035271942956,0.9468459578800249,-0.00634933405267321,-0.180111,-28.380867
11.185,2.0,1.0,1.0,33.8,34.0,34.0,4.3,2.1,2.7025,0.2395231498770201,-0.03845024248790349,0.9492295125307963,-0.006991421164651497,-0.184496,-28.160753
11.185,2.0,1.0,1.0,33.8,34.0,34.0,4.3,2.1,2.705,0.22818893585977412,-0.0393592001151763,0.951486387398599,-0.0076701534746764,-0.189081,-27.937199
11.185,2.0,1.0,1.0,33.8,34.0,34.0,4.3,2.1,2.7075,0.2167121455928304,-0.04029829514975041,0.9536113647828168,-0.008388088779961483,-0.193882,-27.710065
11.185,2.0,1.0,1.0,33.8,34.0,34.0,4.3,2.1,2.71,0.20509068382634518,-0.04126900230839419,0.9555989252776147,-0.00914801744836628,-0.198914,-27.4792
11.185,2.0,1.0,1.0,33.8,34.0,34.0,4.3,2.1,2.7125,0.19332238670825852,-0.04227289018327244,0.9574432196649131,-0.009952988945348098,-0.204193,-27.244447
11.185,2.0,1.0,1.0,33.8,34.0,34.0,4.3,2.1,2.715,0.18140501703605497,-0.04331162773245003,0.9591380371281287,-0.010806342005616107,-0.209738,-27.005637
11.185,2.0,1.0,1.0,33.8,34.0,34.0,4.3,2.1,2.7175,0.16933625926012236,-0.04438699107807497,0.9606767691976821,-0.011711739035094532,-0.215571,-26.762592
11.185,2.0,1.0,1.0,33.8,34.0,34.0,4.3,2.1,2.72,0.1571137142867059,-0.045500870563125205,0.9620523687306711,-0.012673205436487124,-0.221715,-26.515122
11.185,2.0,1.0,1.0,33.8,34.0,34.0,4.3,2.1,2.7225,0.144734894156604,-0.04665527798883996,0.9632573030960102,-0.013695174681724959,-0.228195,-26.263024
11.185,2.0,1.0,1.0,33.8,34.0,34.0,4.3,2.1,2.725,0.13219721671451923,-0.04785235391560846,0.9642835005775355,-0.014782540111938332,-0.235039,-26.006082
11.185,2.0,1.0,1.0,33.8,34.0,34.0,4.3,2.1,2.7275,0.11949800043672723,-0.04909437485649342,0.9651222888146563,-0.015940714636760348,-0.242279,-25.744064
11.185,2.0,1.0,1.0,33.8,34.0,34.0,4.3,2.1,2.73,0.1066344596568159,-0.05038376011968778,0.9657643238649427,-0.01717569973770709,-0.24995,-25.476725
11.185,2.0,1.0,1.0,33.8,34.0,34.0,4.3,2.1,2.7325,0.09360370052710991,-0.05172307795727682,0.9661995081854031,-0.018494165465202272,-0.258094,-25.203799
11.185,2.0,1.0,1.0,33.8,34.0,34.0,4.3,2.1,2.735,0.08040271818665226,-0.05311505054334401,0.966416895476265,-0.019903543468184643,-0.266753,-24.925004
11.185,2.0,1.0,1.0,33.8,34.0,34.0,4.3,2.1,2.7375,0.0670283957878259,-0.0545625571219646,0.9664045798965629,-0.02141213552523503,-0.275978,-24.640034
11.185,2.0,1.0,1.0,33.8,34.0,34.0,4.3,2.1,2.74,0.05347750628070247,-0.056068634417294615,0.9661495666241503,-0.02302924057707671,-0.285827,-24.348564
11.185,2.0,1.0,1.0,33.8,34.0,34.0,4.3,2.1,2.7425,0.03974671819136354,-0.05763647305933143,0.965637620067806,-0.02476530391793213,-0.296365,-24.05024
11.185,2.0,1.0,1.0,33.8,34.0,34.0,4.3,2.1,2.745,0.02583260709207882,-0.059269408315871894,0.9648530852126468,-0.026632093020237287,-0.307664,-23.744683
11.185,2.0,1.0,1.0,33.8,34.0,34.0,4.3,2.1,2.7475,0.011731675095135449,-0.06097090278593346,0.9637786765500287,-0.028642905485150534,-0.31981,-23.431482
11.185,2.0,1.0,1.0,33.8,34.0,34.0,4.3,2.1,2.75,-0.00255961842404484,-0.0627445178350708,0.962395227756008,-0.0308128158827132,-0.3329,-23.110195
11.185,2.0,1.0,1.0,33.8,34.0,34.0,4.3,2.1,2.7525,-0.017044810459266823,-0.06459386934311345,0.9606813936707654,-0.03315896983688032,-0.347045,-22.780341
11.185,2.0,1.0,1.0,33.8,34.0,34.0,4.3,2.1,2.755,-0.03172736626403415,-0.06652256165366267,0.9586132941101301,-0.035700935705300856,-0.362376,-22.441398
11.185,2.0,1.0,1.0,33.8,34.0,34.0,4.3,2.1,2.7575,-0.04661058105165995,-0.06853409126667954,0.9561640865039353,-0.03846112670539059,-0.379043,-22.092801
11.185,2.0,1.0,1.0,33.8,34.0,34.0,4.3,2.1,2.76,-0.06169743975234139,-0.07063170851812964,0.9533034511747686,-0.041465309473517904,-0.397224,-21.733933
11.185,2.0,1.0,1.0,33.8,34.0,34.0,4.3,2.1,2.7625,-0.07699041840420166,-0.07281822083309361,0.9499969690904854,-0.04474321896368994,-0.417125,-21.364125
11.185,2.0,1.0,1.0,33.8,34.0,34.0,4.3,2.1,2.765,-0.09249120411328567,-0.07509571451937842,0.9462053669688114,-0.04832930446659594,-0.438992,-20.982645
11.185,2.0,1.0,1.0,33.8,34.0,34.0,4.3,2.1,2.7675,-0.10820030101159124,-0.07746516260117339,0.9418835984992205,-0.05226363753553331,-0.463118,-20.588694
11.185,2.0,1.0,1.0,33.8,34.0,34.0,4.3,2.1,2.77,-0.12411647594844641,-0.07992587256240385,0.9369797230210424,-0.05659301988833702,-0.489852,-20.1814
11.185,2.0,1.0,1.0,33.8,34.0,34.0,4.3,2.1,2.7725,-0.1402359777937027,-0.0824747081174965,0.9314335342093836,-0.06137233794941998,-0.519616,-19.759808
11.185,2.0,1.0,1.0,33.8,34.0,34.0,4.3,2.1,2.775,-0.15655143525022888,-0.08510499031722078,0.9251748813950078,-0.06666622036405093,-0.552919,-19.322879
11.185,2.0,1.0,1.0,33.8,34.0,34.0,4.3,2.1,2.7775,-0.17305029551358106,-0.0878049410153596,0.9181216159036267,-0.0725510647145477,-0.590386,-18.869474
11.185,2.0,1.0,1.0,33.8,34.0,34.0,4.3,2.1,2.78,-0.1897126032702451,-0.09055546932634417,0.9101770863128603,-0.07911750770184331,-0.632786,-18.398355
11.185,2.0,1.0,1.0,33.8,34.0,34.0,4.3,2.1,2.7825,-0.20650782631510814,-0.09332700922592636,0.9012271043619636,-0.08647341463034541,-0.681071,-17.90818
11.185,2.0,1.0,1.0,33.8,34.0,34.0,4.3,2.1,2.785,-0.22339029548314615,-0.09607497905403538,0.8911363169046379,-0.09474744963890312,-0.736436,-17.397501
11.185,2.0,1.0,1.0,33.8,34.0,34.0,4.3,2.1,2.7875,-0.24029262068435642,-0.09873322971842004,0.8797439678353556,-0.10409323870792324,-0.800385,-16.864775
11.185,2.0,1.0,1.0,33.8,34.0,34.0,4.3,2.1,2.79,-0.2571161407131124,-0.10120454745457605,0.8668591548460407,-0.11469401565217992,-0.874838,-16.308384
11.185,2.0,1.0,1.0,33.8,34.0,34.0,4.3,2.1,2.7925,-0.2737170219751234,-0.10334683964046601,0.8522559518534946,-0.12676737474583685,-0.962259,-15.726675
11.185,2.0,1.0,1.0,33.8,34.0,34.0,4.3,2.1,2.795,-0.28988599718457103,-0.10495301643625415,0.8356693178356347,-0.1405692043120085,-1.065839,-15.118042
11.185,2.0,1.0,1.0,33.8,34.0,34.0,4.3,2.1,2.7975,-0.30531891015600154,-0.10572176939369525,0.8167938071494147,-0.15639478499003526,-1.18974,-14.481059
11.185,2.0,1.0,1.0,33.8,34.0,34.0,4.3,2.1,2.8,-0.3195742939855834,-0.10521552979843311,0.7952892096560409,-0.17457293432224635,-1.339416,-13.814706
11.185,2.0,1.0,1.0,33.8,34.0,34.0,4.3,2.1,2.8025,-0.3320135715431044,-0.10280128041456069,0.770801199153433,-0.19544515686463113,-1.522007,-13.118747
11.185,2.0,1.0,1.0,33.8,34.0,34.0,4.3,2.1,2.805,-0.3417204122791535,-0.09757087490678008,0.7430121136236706,-0.21931477624054807,-1.746779,-12.394339
11.185,2.0,1.0,1.0,33.8,34.0,34.0,4.3,2.1,2.8075,-0.3474016491700337,-0.08824341272958297,0.7117485546622687,-0.24633959025783178,-2.025428,-11.644991
11.185,2.0,1.0,1.0,33.8,34.0,34.0,4.3,2.1,2.81,-0.3472905241174905,-0.07307053178723721,0.6771883855968485,-0.27632593773875946,-2.371753,-10.878028
11.185,2.0,1.0,1.0,33.8,34.0,34.0,4.3,2.1,2.8125,-0.339117995719646,-0.0498101606673738,0.640221859117308,-0.30837028674571,-2.799358,-10.106691
11.185,2.0,1.0,1.0,33.8,34.0,34.0,4.3,2.1,2.815,-0.3203058377033223,-0.015921418635802535,0.6029982785347489,-0.34031813155868595,-3.314252,-9.352803
11.185,2.0,1.0,1.0,33.8,34.0,34.0,4.3,2.1,2.8175,-0.288651268670659,0.03075240479973389,0.5695523835387768,-0.3681468080134676,-3.896492,-8.64938
11.185,2.0,1.0,1.0,33.8,34.0,34.0,4.3,2.1,2.82,-0.24377020127681617,0.09055064756662971,0.5460515700130675,-0.38572907091297043,-4.466071,-8.041381
11.185,2.0,1.0,1.0,33.8,34.0,34.0,4.3,2.1,2.8225,-0.18906831511562808,0.16004639794813608,0.5397466832598653,-0.385885931089889,-4.853549,-7.581478
11.185,2.0,1.0,1.0,33.8,34.0,34.0,4.3,2.1,2.825,-0.1327986652969545,0.23101586141186858,0.5559409704740499,-0.3633998720888983,-4.858431,-7.318252
11.185,2.0,1.0,1.0,33.8,34.0,34.0,4.3,2.1,2.8275,-0.0860767236613532,0.2924302667226598,0.5942457283542055,-0.3187170853917112,-4.430499,-7.279354
