1,w,sub_t,h,l1,l2,l3,g1,g2,Freq,S11_re,S21_re,S11_img,S21_img,S11_dB,S21_dB
11.185,2.0,1.0,1.0,33.6,34.0,34.0,2.9,2.7,2.5,0.83487012249884,-0.00891706243262975,0.537837484735856,0.00713912566593011,-0.06001,-38.844523
11.185,2.0,1.0,1.0,33.6,34.0,34.0,2.9,2.7,2.5025,0.8311276079176504,-0.009099134333680382,0.5434775633685347,0.00717111166484617,-0.06061,-38.721857
11.185,2.0,1.0,1.0,33.6,34.0,34.0,2.9,2.7,2.505,0.8273294987637062,-0.009284652808288898,0.5491156946313649,0.007202270991585335,-0.061221,-38.598771
11.185,2.0,1.0,1.0,33.6,34.0,34.0,2.9,2.7,2.5075,0.823475221671231,-0.009473694057863405,0.5547515912284103,0.007232563223592177,-0.061844,-38.475256
11.185,2.0,1.0,1.0,33.6,34.0,34.0,2.9,2.7,2.51,0.8195641937619258,-0.009666336426106668,0.5603849570008949,0.007261946279293626,-0.062479,-38.351301
11.185,2.0,1.0,1.0,33.6,34.0,34.0,2.9,2.7,2.5125,0.815595822472018,-0.009862660472563733,0.5660154866306076,0.0072903763434554285,-0.063125,-38.226896
11.185,2.0,1.0,1.0,33.6,34.0,34.0,2.9,2.7,2.515,0.811569505375802,-0.010062749049175083,0.5716428653328187,0.007317807788755145,-0.063784,-38.102032
11.185,2.0,1.0,1.0,33.6,34.0,34.0,2.9,2.7,2.5175,0.8074846300055926,-0.010266687379978583,0.5772667685382609,0.007344193093354004,-0.064455,-37.976696
11.185,2.0,1.0,1.0,33.6,34.0,34.0,2.9,2.7,2.52,0.8033405736679813,-0.010474563144112565,0.5828868615637516,0.007369482754235848,-0.065139,-37.85088
11.185,2.0,1.0,1.0,33.6,34.0,34.0,2.9,2.7,2.5225,0.7991367032563125,-0.01068646656227796,0.588502799270957,0.007393625196066303,-0.065836,-37.724571
11.185,2.0,1.0,1.0,33.6,34.0,34.0,2.9,2.7,2.525,0.7948723750592621,-0.010902490486829642,0.594114225712831,0.007416566675308703,-0.066547,-37.597759
11.185,2.0,1.0,1.0,33.6,34.0,34.0,2.9,2.7,2.5275,0.790546934565413,-0.011122730495673874,0.5997207737671996,0.00743825117931649,-0.067272,-37.470433
11.185,2.0,1.0,1.0,33.6,34.0,34.0,2.9,2.7,2.53,0.7861597162637183,-0.011347284990159434,0.6053220647569433,0.007458620320101802,-0.068011,-37.342582
11.185,2.0,1.0,1.0,33.6,34.0,34.0,2.9,2.7,2.5325,0.7817100434397278,-0.011576255297161345,0.6109177080562115,0.00747761322246109,-0.068765,-37.214193
11.185,2.0,1.0,1.0,33.6,34.0,34.0,2.9,2.7,2.535,0.7771972279674536,-0.011809745775566352,0.6165073006820682,0.007495166406115676,-0.069534,-37.085254
11.185,2.0,1.0,1.0,33.6,34.0,34.0,2.9,2.7,2.5375,0.7726205700967437,-0.012047863927381384,0.6220904268709223,0.007511213661502497,-0.070318,-36.955755
11.185,2.0,1.0,1.0,33.6,34.0,34.0,2.9,2.7,2.54,0.7679793582360281,-0.012290720513699475,0.6276666576390912,0.007525685918824532,-0.071118,-36.825682
11.185,2.0,1.0,1.0,33.6,34.0,34.0,2.9,2.7,2.5425,0.7632728687302841,-0.012538429675770391,0.6332355503267827,0.00753851110994362,-0.071935,-36.695023
11.185,2.0,1.0,1.0,33.6,34.0,34.0,2.9,2.7,2.545,0.758500365634074,-0.012791109061438002,0.6387966481247599,0.007549614022668447,-0.072769,-36.563765
11.185,2.0,1.0,1.0,33.6,34.0,34.0,2.9,2.7,2.5475,0.7536611004794967,-0.013048879957221815,0.6443494795828959,0.007558916146959867,-0.07362,-36.431895
11.185,2.0,1.0,1.0,33.6,34.0,34.0,2.9,2.7,2.55,0.7487543120388659,-0.013311867426335233,0.6498935580998075,0.007566335512539974,-0.074488,-36.2994
11.185,2.0,1.0,1.0,33.6,34.0,34.0,2.9,2.7,2.5525,0.74377922608196,-0.01358020045295213,0.6554283813926713,0.0075717865173561116,-0.075375,-36.166267
11.185,2.0,1.0,1.0,33.6,34.0,34.0,2.9,2.7,2.555,0.7387350551276306,-0.013854012093050233,0.6609534309463185,0.007575179746309875,-0.076281,-36.032481
11.185,2.0,1.0,1.0,33.6,34.0,34.0,2.9,2.7,2.5575,0.7336209981895758,-0.014133439632180094,0.6664681714406209,0.007576421779618659,-0.077207,-35.898029
11.185,2.0,1.0,1.0,33.6,34.0,34.0,2.9,2.7,2.56,0.7284362405160683,-0.014418624750529409,0.671972050155128,0.007575414990129945,-0.078152,-35.762895
11.185,2.0,1.0,1.0,33.6,34.0,34.0,2.9,2.7,2.5625,0.723179953323406,-0.0147097136956741,0.677464496349866,0.0075720573288592,-0.079118,-35.627066
11.185,2.0,1.0,1.0,33.6,34.0,34.0,2.9,2.7,2.565,0.7178512935228426,-0.01500685746343208,0.6829449206211294,0.0075662420979653805,-0.080105,-35.490526
11.185,2.0,1.0,1.0,33.6,34.0,34.0,2.9,2.7,2.5675,0.7124494034407489,-0.015310211987260137,0.6884127142310251,0.007557857710321044,-0.081114,-35.35326
11.185,2.0,1.0,1.0,33.6,34.0,34.0,2.9,2.7,2.57,0.7069734105317268,-0.015619938336661945,0.6938672484094621,0.007546787434767199,-0.082145,-35.215252
11.185,2.0,1.0,1.0,33.6,34.0,34.0,2.9,2.7,2.5725,0.7014224270843855,-0.01593620292510359,0.6993078736271883,0.007532909126074823,-0.0832,-35.076486
11.185,2.0,1.0,1.0,33.6,34.0,34.0,2.9,2.7,2.575,0.6957955499194736,-0.016259177727964223,0.7047339188383874,0.007516094938557736,-0.084278,-34.936945
11.185,2.0,1.0,1.0,33.6,34.0,34.0,2.9,2.7,2.5775,0.6900918600800356,-0.01658904051108094,0.7101446906912535,0.0074962110221991835,-0.085381,-34.796613
11.185,2.0,1.0,1.0,33.6,34.0,34.0,2.9,2.7,2.58,0.6843104225132467,-0.01692597507048349,0.7155394727048524,0.00747311720006409,-0.08651,-34.655473
11.185,2.0,1.0,1.0,33.6,34.0,34.0,2.9,2.7,2.5825,0.6784502857435406,-0.01727017148395053,0.7209175244104803,0.0074466666256714584,-0.087664,-34.513506
11.185,2.0,1.0,1.0,33.6,34.0,34.0,2.9,2.7,2.585,0.6725104815366394,-0.017621826375059185,0.7262780804555825,0.007416705418893729,-0.088846,-34.370695
11.185,2.0,1.0,1.0,33.6,34.0,34.0,2.9,2.7,2.5875,0.6664900245540479,-0.017981143190442736,0.7316203496681938,0.00738307227883355,-0.090056,-34.227021
11.185,2.0,1.0,1.0,33.6,34.0,34.0,2.9,2.7,2.59,0.6603879119975654,-0.018348332491015012,0.7369435140796841,0.007345598072001839,-0.091295,-34.082465
11.185,2.0,1.0,1.0,33.6,34.0,34.0,2.9,2.7,2.5925,0.6542031232433088,-0.01872361225797008,0.7422467279034736,0.007304105393980332,-0.092564,-33.937008
11.185,2.0,1.0,1.0,33.6,34.0,34.0,2.9,2.7,2.595,0.6479346194647424,-0.019107208214416145,0.7475291164671722,0.007258408102602232,-0.093863,-33.790629
11.185,2.0,1.0,1.0,33.6,34.0,34.0,2.9,2.7,2.5975,0.6415813432441304,-0.019499354163558278,0.7527897750954535,0.007208310820515502,-0.095195,-33.643308
11.185,2.0,1.0,1.0,33.6,34.0,34.0,2.9,2.7,2.6,0.6351422181718226,-0.019900292344402753,0.7580277679407439,0.007153608404813973,-0.096559,-33.495023
11.185,2.0,1.0,1.0,33.6,34.0,34.0,2.9,2.7,2.6025,0.6286161484327284,-0.020310273806018152,0.7632421267585935,0.00709408538121958,-0.097958,-33.345754
11.185,2.0,1.0,1.0,33.6,34.0,34.0,2.9,2.7,2.605,0.6220020183792753,-0.020729558801456386,0.768431849624371,0.007029515340082172,-0.099392,-33.195478
11.185,2.0,1.0,1.0,33.6,34.0,34.0,2.9,2.7,2.6075,0.6152986920901216,-0.021158417202505456,0.7735958995876432,0.006959660291221416,-0.100863,-33.044172
11.185,2.0,1.0,1.0,33.6,34.0,34.0,2.9,2.7,2.61,0.6085050129138219,-0.02159712893652377,0.778733203260326,0.00688426997437252,-0.102371,-32.891813
11.185,2.0,1.0,1.0,33.6,34.0,34.0,2.9,2.7,2.6125,0.6016198029965915,-0.022045984446685037,0.7838426493343746,0.006803081121706485,-0.103919,-32.738375
11.185,2.0,1.0,1.0,33.6,34.0,34.0,2.9,2.7,2.615,0.5946418627932516,-0.022505285177048535,0.7889230870244476,0.006715816668576526,-0.105508,-32.583836
11.185,2.0,1.0,1.0,33.6,34.0,34.0,2.9,2.7,2.6175,0.5875699705603795,-0.02297534408396112,0.793973324430579,0.006622184908289966,-0.107139,-32.428168
11.185,2.0,1.0,1.0,33.6,34.0,34.0,2.9,2.7,2.62,0.5804028818306074,-0.023456486175392994,0.798992126815509,0.006521878586316594,-0.108814,-32.271346
11.185,2.0,1.0,1.0,33.6,34.0,34.0,2.9,2.7,2.6225,0.5731393288669369,-0.023949049079913513,0.8039782147908421,0.006414573928916209,-0.110534,-32.113342
11.185,2.0,1.0,1.0,33.6,34.0,34.0,2.9,2.7,2.625,0.565778020095876,-0.0244533836471185,0.808930262405707,0.00629992960069442,-0.112302,-31.954128
11.185,2.0,1.0,1.0,33.6,34.0,34.0,2.9,2.7,2.6275,0.5583176395180823,-0.024969854581439983,0.8138468951310507,0.006177585585071741,-0.114119,-31.793676
11.185,2.0,1.0,1.0,33.6,34.0,34.0,2.9,2.7,2.63,0.5507568460951463,-0.02549884111138552,0.8187266877320681,0.006047161981072051,-0.115987,-31.631956
11.185,2.0,1.0,1.0,33.6,34.0,34.0,2.9,2.7,2.6325,0.5430942731110213,-0.02604073769638486,0.8235681620206056,0.005908257709192276,-0.117908,-31.468937
11.185,2.0,1.0,1.0,33.6,34.0,34.0,2.9,2.7,2.635,0.5353285275065242,-0.0265959547735542,0.828369784478623,0.005760449118404401,-0.119884,-31.304588
11.185,2.0,1.0,1.0,33.6,34.0,34.0,2.9,2.7,2.6375,0.5274581891852228,-0.027164919546827388,0.8331299637429704,0.005603288485546913,-0.121918,-31.138875
11.185,2.0,1.0,1.0,33.6,34.0,34.0,2.9,2.7,2.64,0.5194818102888955,-0.027748076821052,0.8378470479408225,0.005436302397483929,-0.124012,-30.971766
11.185,2.0,1.0,1.0,33.6,34.0,34.0,2.9,2.7,2.6425,0.5113979144406666,-0.02834588988379535,0.842519321864077,0.005258990005429396,-0.126168,-30.803224
11.185,2.0,1.0,1.0,33.6,34.0,34.0,2.9,2.7,2.645,0.503204995953777,-0.02895884143776508,0.8471450039699044,0.005070821139742747,-0.12839,-30.633216
11.185,2.0,1.0,1.0,33.6,34.0,34.0,2.9,2.7,2.6475,0.49490151900384255,-0.0295874345869064,0.8517222431933542,0.004871234272283267,-0.130679,-30.461702
11.185,2.0,1.0,1.0,33.6,34.0,34.0,2.9,2.7,2.65,0.48648591676231046,-0.030232193879401476,0.8562491155565323,0.004659634312050057,-0.133039,-30.288644
11.185,2.0,1.0,1.0,33.6,34.0,34.0,2.9,2.7,2.6525,0.47795659048875183,-0.030893666410956283,0.8607236205572575,0.004435390218314074,-0.135473,-30.114003
11.185,2.0,1.0,1.0,33.6,34.0,34.0,2.9,2.7,2.655,0.4693119085794402,-0.031572422991925246,0.8651436773183792,0.00419783241374356,-0.137985,-29.937738
11.185,2.0,1.0,1.0,33.6,34.0,34.0,2.9,2.7,2.6575,0.4605502055696204,-0.03226905938197525,0.8695071204769391,0.0039462499781161234,-0.140577,-29.759805
11.185,2.0,1.0,1.0,33.6,34.0,34.0,2.9,2.7,2.66,0.4516697810867261,-0.03298419759613931,0.8738116957901634,0.0036798876010665778,-0.143255,-29.580159
11.185,2.0,1.0,1.0,33.6,34.0,34.0,2.9,2.7,2.6625,0.44266889875175847,-0.03371848728624288,0.8780550554327772,0.0033979422699118625,-0.146021,-29.398757
11.185,2.0,1.0,1.0,33.6,34.0,34.0,2.9,2.7,2.665,0.43354578502592217,-0.034472607201796436,0.8822347529573659,0.0030995596658827253,-0.14888,-29.215548
11.185,2.0,1.0,1.0,33.6,34.0,34.0,2.9,2.7,2.6675,0.42429862799964996,-0.03524726673453184,0.8863482378863345,0.0027838302390394976,-0.151836,-29.030485
11.185,2.0,1.0,1.0,33.6,34.0,34.0,2.9,2.7,2.67,0.4149255761210953,-0.036043207550803966,0.8903928499005083,0.002449784928701165,-0.154895,-28.843515
11.185,2.0,1.0,1.0,33.6,34.0,34.0,2.9,2.7,2.6725,0.40542473686126024,-0.036861205316070886,0.8943658125854016,0.0020963904923245627,-0.158061,-28.654585
11.185,2.0,1.0,1.0,33.6,34.0,34.0,2.9,2.7,2.675,0.3957941753130669,-0.03770207151559002,0.8982642266916646,0.0017225444013655466,-0.16134,-28.46364
11.185,2.0,1.0,1.0,33.6,34.0,34.0,2.9,2.7,2.6775,0.38603191272188,-0.038566655375303,0.902085062861109,0.0013270692576592166,-0.164738,-28.270621
11.185,2.0,1.0,1.0,33.6,34.0,34.0,2.9,2.7,2.68,0.37613592494533105,-0.039455845886605376,0.9058251537639045,0.0009087066781958405,-0.168261,-28.07547
11.185,2.0,1.0,1.0,33.6,34.0,34.0,2.9,2.7,2.6825,0.3661041408407961,-0.040370573938273605,0.9094811855859467,0.00046611058972828275,-0.171915,-27.878123
11.185,2.0,1.0,1.0,33.6,34.0,34.0,2.9,2.7,2.685,0.3559344405795135,-0.041311814558216586,0.9130496887979087,-2.1601326781516155e-06,-0.175709,-27.678515
11.185,2.0,1.0,1.0,33.6,34.0,34.0,2.9,2.7,2.6875,0.34562465388726,-0.0422805892668817,0.916527028128941,-0.000497649757393853,-0.179649,-27.476578
11.185,2.0,1.0,1.0,33.6,34.0,34.0,2.9,2.7,2.69,0.33517255821270114,-0.043277968543010796,0.9199093916582369,-0.0010220146020452462,-0.183744,-27.272241
11.185,2.0,1.0,1.0,33.6,34.0,34.0,2.9,2.7,2.6925,0.32457587682606887,-0.04430507440094943,0.9231927789265589,-0.0015770328480844487,-0.188003,-27.065432
11.185,2.0,1.0,1.0,33.6,34.0,34.0,2.9,2.7,2.695,0.31383227685291604,-0.04536308307674147,0.9263729879570425,-0.0021646153712681494,-0.192435,-26.856071
11.185,2.0,1.0,1.0,33.6,34.0,34.0,2.9,2.7,2.6975,0.30293936725024184,-0.04645322781771102,0.9294456010600035,-0.0027868177095304657,-0.197051,-26.64408
11.185,2.0,1.0,1.0,33.6,34.0,34.0,2.9,2.7,2.7,0.29189469673570856,-0.047576801766960046,0.932405969279653,-0.0034458533061869907,-0.201861,-26.429373
11.185,2.0,1.0,1.0,33.6,34.0,34.0,2.9,2.7,2.7025,0.28069575168487415,-0.04873516093003839,0.9352491953213264,-0.004144108185348758,-0.206879,-26.211863
11.185,2.0,1.0,1.0,33.6,34.0,34.0,2.9,2.7,2.705,0.26933995401682215,-0.04992972720572865,0.9379701147755392,-0.004884157238256291,-0.212116,-25.991457
11.185,2.0,1.0,1.0,33.6,34.0,34.0,2.9,2.7,2.7075,0.2578246590953934,-0.051161991456150656,0.9405632754295015,-0.005668782324455588,-0.217588,-25.768058
11.185,2.0,1.0,1.0,33.6,34.0,34.0,2.9,2.7,2.71,0.24614715368188664,-0.0524335165828649,0.9430229144269678,-0.006500992420899493,-0.22331,-25.541567
11.185,2.0,1.0,1.0,33.6,34.0,34.0,2.9,2.7,2.7125,0.23430465398599282,-0.053745940564892396,0.9453429330028857,-0.007384046085849266,-0.229297,-25.311876
11.185,2.0,1.0,1.0,33.6,34.0,34.0,2.9,2.7,2.715,0.22229430387546933,-0.055100979400988834,0.9475168684793247,-0.008321476543663147,-0.235569,-25.078874
11.185,2.0,1.0,1.0,33.6,34.0,34.0,2.9,2.7,2.7175,0.21011317332236631,-0.056500429881404544,0.9495378631627367,-0.009317119742153797,-0.242146,-24.842444
11.185,2.0,1.0,1.0,33.6,34.0,34.0,2.9,2.7,2.72,0.1977582571854073,-0.057946172092799994,0.9513986297285024,-0.01037514578728204,-0.249049,-24.602463
11.185,2.0,1.0,1.0,33.6,34.0,34.0,2.9,2.7,2.7225,0.1852264744555429,-0.05944017153282467,0.9530914126156745,-0.011500094221884406,-0.256301,-24.358803
11.185,2.0,1.0,1.0,33.6,34.0,34.0,2.9,2.7,2.725,0.17251466812633634,-0.06098448067661223,0.9546079448811273,-0.01269691368746514,-0.26393,-24.111326
11.185,2.0,1.0,1.0,33.6,34.0,34.0,2.9,2.7,2.7275,0.15961960589438756,-0.06258123979424622,0.9559393998761708,-0.013971006592736658,-0.271963,-23.859891
11.185,2.0,1.0,1.0,33.6,34.0,34.0,2.9,2.7,2.73,0.1465379819501791,-0.06423267676366844,0.9570763370076919,-0.015328279511759456,-0.280433,-23.604345
11.185,2.0,1.0,1.0,33.6,34.0,34.0,2.9,2.7,2.7325,0.13326642018930782,-0.06594110555450053,0.9580086407274214,-0.01677520015090667,-0.289374,-23.344531
11.185,2.0,1.0,1.0,33.6,34.0,34.0,2.9,2.7,2.735,0.11980147926237218,-0.0677089229708396,0.9587254517537794,-0.018318861860573243,-0.298825,-23.080279
11.185,2.0,1.0,1.0,33.6,34.0,34.0,2.9,2.7,2.7375,0.10613965999367092,-0.06953860313019894,0.9592150893670995,-0.019967056828304023,-0.308828,-22.811413
11.185,2.0,1.0,1.0,33.6,34.0,34.0,2.9,2.7,2.74,0.09227741584123346,-0.07143268901479688,0.959464963426456,-0.021728359279209096,-0.319431,-22.537746
11.185,2.0,1.0,1.0,33.6,34.0,34.0,2.9,2.7,2.7425,0.07821116725199113,-0.07339378025181648,0.959461474529527,-0.02361222023232189,-0.330687,-22.259078
11.185,2.0,1.0,1.0,33.6,34.0,34.0,2.9,2.7,2.745,0.06393732099746738,-0.07542451604995513,0.9591899004698137,-0.02562907562394536,-0.342654,-21.9752
11.185,2.0,1.0,1.0,33.6,34.0,34.0,2.9,2.7,2.7475,0.049452295871789,-0.07752755192608514,0.9586342668310119,-0.02779046991797633,-0.355399,-21.68589
11.185,2.0,1.0,1.0,33.6,34.0,34.0,2.9,2.7,2.75,0.0347525565142891,-0.0797055284791662,0.957777199188285,-0.0301091976866217,-0.368996,-21.390912
11.185,2.0,1.0,1.0,33.6,34.0,34.0,2.9,2.7,2.7525,0.019834657608697587,-0.0819610299838242,0.9565997539515712,-0.03259946607170901,-0.383528,-21.090017
11.185,2.0,1.0,1.0,33.6,34.0,34.0,2.9,2.7,2.755,0.00469530134301757,-0.08429652995042695,0.9550812243769256,-0.035277081536602604,-0.399089,-20.782939
11.185,2.0,1.0,1.0,33.6,34.0,34.0,2.9,2.7,2.7575,-0.010668588167498952,-0.08671431998874923,0.9531989176780095,-0.03815966490161858,-0.415785,-20.469397
11.185,2.0,1.0,1.0,33.6,34.0,34.0,2.9,2.7,2.76,-0.026259768729161533,-0.0892164172609969,0.9509278984811865,-0.04126689933138115,-0.433738,-20.149093
11.185,2.0,1.0,1.0,33.6,34.0,34.0,2.9,2.7,2.7625,-0.04208055604119886,-0.0918044444408261,0.9482406930762641,-0.044620816718552295,-0.453084,-19.821709
11.185,2.0,1.0,1.0,33.6,34.0,34.0,2.9,2.7,2.765,-0.058132663831827074,-0.0944794743063718,0.9451069480169667,-0.04824612878808578,-0.473981,-19.486908
11.185,2.0,1.0,1.0,33.6,34.0,34.0,2.9,2.7,2.7675,-0.07441699783084395,-0.09724182875157877,0.941493035625763,-0.05217061022430148,-0.496609,-19.144331
11.185,2.0,1.0,1.0,33.6,34.0,34.0,2.9,2.7,2.77,-0.09093339013473288,-0.10009081891982437,0.9373615978773664,-0.05642554217861593,-0.521177,-18.793598
11.185,2.0,1.0,1.0,33.6,34.0,34.0,2.9,2.7,2.7725,-0.10768025641273263,-0.1030244091040652,0.9326710190221226,-0.06104622560053456,-0.547923,-18.434305
11.185,2.0,1.0,1.0,33.6,34.0,34.0,2.9,2.7,2.775,-0.12465415297382992,-0.10603878169336928,0.9273748162584655,-0.06607257485476006,-0.577127,-18.066024
11.185,2.0,1.0,1.0,33.6,34.0,34.0,2.9,2.7,2.7775,-0.14184920352441957,-0.10912777334205984,0.921420936942594,-0.07154980287388794,-0.609114,-17.688301
11.185,2.0,1.0,1.0,33.6,34.0,34.0,2.9,2.7,2.78,-0.15925635590738738,-0.11228214311565847,0.9147509505270984,-0.07752920935733232,-0.644263,-17.300656
11.185,2.0,1.0,1.0,33.6,34.0,34.0,2.9,2.7,2.7825,-0.17686241644750353,-0.11548862086040207,0.9072991241424798,-0.08406908277264331,-0.683022,-16.902585
11.185,2.0,1.0,1.0,33.6,34.0,34.0,2.9,2.7,2.785,-0.19464879271533234,-0.11872866744507504,0.8989913732916381,-0.091235724336901,-0.725918,-16.493556
11.185,2.0,1.0,1.0,33.6,34.0,34.0,2.9,2.7,2.7875,-0.21258985324605897,-0.12197685653919481,0.8897440848465019,-0.09910459643682917,-0.773581,-16.073017
11.185,2.0,1.0,1.0,33.6,34.0,34.0,2.9,2.7,2.79,-0.23065078335887418,-0.12519875859457252,0.8794628205623816,-0.10776158696375582,-0.826759,-15.640396
11.185,2.0,1.0,1.0,33.6,34.0,34.0,2.9,2.7,2.7925,-0.24878477773539132,-0.12834816974094504,0.8680409290924495,-0.11730436139681939,-0.886352,-15.195106
11.185,2.0,1.0,1.0,33.6,34.0,34.0,2.9,2.7,2.795,-0.26692936065143175,-0.131363479252443,0.8553581284444628,-0.1278437407728277,-0.953446,-14.736557
11.185,2.0,1.0,1.0,33.6,34.0,34.0,2.9,2.7,2.7975,-0.2850015617365304,-0.13416290716046897,0.8412791775608524,-0.13950498744720222,-1.029359,-14.264168
11.185,2.0,1.0,1.0,33.6,34.0,34.0,2.9,2.7,2.8,-0.30289159805372273,-0.13663826772217172,0.8256528485917183,-0.1524287885687963,-1.1157,-13.777388
11.185,2.0,1.0,1.0,33.6,34.0,34.0,2.9,2.7,2.8025,-0.32045462461464436,-0.13864682729716665,0.8083115609657037,-0.1667715792230581,-1.214445,-13.275724
11.185,2.0,1.0,1.0,33.6,34.0,34.0,2.9,2.7,2.805,-0.3375000251771367,-0.14000073670897425,0.7890722752363736,-0.18270461295787407,-1.328029,-12.758784
11.185,2.0,1.0,1.0,33.6,34.0,34.0,2.9,2.7,2.8075,-0.35377764911785897,-0.14045345398564485,0.7677396131508961,-0.200410823252274,-1.459475,-12.226336
11.185,2.0,1.0,1.0,33.6,34.0,34.0,2.9,2.7,2.81,-0.36896041522163586,-0.13968258985043305,0.7441127303040981,-0.2200779664668627,-1.612544,-11.678391
11.185,2.0,1.0,1.0,33.6,34.0,34.0,2.9,2.7,2.8125,-0.382622914202577,-0.137268819083485,0.717998290523933,-0.241885724712452,-1.791933,-11.115316
11.185,2.0,1.0,1.0,33.6,34.0,34.0,2.9,2.7,2.815,-0.39421626509874313,-0.13267111984802368,0.6892330383451731,-0.26598331570430295,-2.003503,-10.537996
11.185,2.0,1.0,1.0,33.6,34.0,34.0,2.9,2.7,2.8175,-0.40304089667872356,-0.12520000588309071,0.6577209259160294,-0.2924527186304664,-2.254547,-9.948039
11.185,2.0,1.0,1.0,33.6,34.0,34.0,2.9,2.7,2.82,-0.40822174283174223,-0.11399320411824981,0.6234912866945626,-0.3212511159436375,-2.554048,-9.348061
11.185,2.0,1.0,1.0,33.6,34.0,34.0,2.9,2.7,2.8225,-0.4086953961005059,-0.09800322580436437,0.5867853859028038,-0.3521253380935099,-2.912826,-8.742037
11.185,2.0,1.0,1.0,33.6,34.0,34.0,2.9,2.7,2.825,-0.4032268485219568,-0.07601426011873717,0.5481769676905464,-0.3844928103338424,-3.343347,-8.135723
11.185,2.0,1.0,1.0,33.6,34.0,34.0,2.9,2.7,2.8275,-0.39048434594900777,-0.04671656000099289,0.5087245778265937,-0.41729127672217475,-3.858638,-7.537121
11.185,2.0,1.0,1.0,33.6,34.0,34.0,2.9,2.7,2.83,-0.36921106197977394,-0.008876489568304304,0.4701340721669093,-0.4488187362292561,-4.469149,-6.956882
