1,w,sub_t,h,l1,l2,l3,g1,g2,Freq,S11_re,S21_re,S11_img,S21_img,S11_dB,S21_dB
11.185,2.0,1.0,1.0,34.1,34.2,34.2,3.5,3.0,2.5,0.770689160136138,-0.0094527974898157,0.625695275649299,0.00524720493384766,-0.063626,-39.322281
11.185,2.0,1.0,1.0,34.1,34.2,34.2,3.5,3.0,2.5025,0.7659553056977275,-0.009629456341123457,0.6313637017701841,0.005241270179518641,-0.064281,-39.201051
11.185,2.0,1.0,1.0,34.1,34.2,34.2,3.5,3.0,2.505,0.7611557980988007,-0.009809158581405882,0.637022862617442,0.005233744120969459,-0.064949,-39.079405
11.185,2.0,1.0,1.0,34.1,34.2,34.2,3.5,3.0,2.5075,0.7562899755771572,-0.009991964006126324,0.642672259839114,0.0052245682158547045,-0.065628,-38.957333
11.185,2.0,1.0,1.0,34.1,34.2,34.2,3.5,3.0,2.51,0.751357167520334,-0.010177933871849062,0.6483113806719376,0.005213681776031168,-0.06632,-38.834825
11.185,2.0,1.0,1.0,34.1,34.2,34.2,3.5,3.0,2.5125,0.7463566943864824,-0.01036713093969822,0.653939697503751,0.005201021878686253,-0.067025,-38.711872
11.185,2.0,1.0,1.0,34.1,34.2,34.2,3.5,3.0,2.515,0.7412878676268936,-0.010559619520380351,0.6595566674221045,0.005186523273232873,-0.067743,-38.588464
11.185,2.0,1.0,1.0,34.1,34.2,34.2,3.5,3.0,2.5175,0.7361499896103404,-0.010755465520838711,0.6651617317485867,0.005170118283736664,-0.068474,-38.46459
11.185,2.0,1.0,1.0,34.1,34.2,34.2,3.5,3.0,2.52,0.7309423535493891,-0.010954736492609916,0.670754315558386,0.0051517367066284655,-0.069219,-38.340241
11.185,2.0,1.0,1.0,34.1,34.2,34.2,3.5,3.0,2.5225,0.7256642434288701,-0.011157501681958002,0.6763338271845379,0.005131305703437032,-0.069978,-38.215407
11.185,2.0,1.0,1.0,34.1,34.2,34.2,3.5,3.0,2.525,0.7203149339366678,-0.011363832081864107,0.6818996577063366,0.005108749688261561,-0.070752,-38.090075
11.185,2.0,1.0,1.0,34.1,34.2,34.2,3.5,3.0,2.5275,0.7148936903970317,-0.011573800485955068,0.6874511804213387,0.005083990209684185,-0.071541,-37.964237
11.185,2.0,1.0,1.0,34.1,34.2,34.2,3.5,3.0,2.53,0.7093997687066074,-0.011787481544456661,0.6929877503003602,0.0050569458268037255,-0.072344,-37.837881
11.185,2.0,1.0,1.0,34.1,34.2,34.2,3.5,3.0,2.5325,0.7038324152733892,-0.012004951822263648,0.6985087034248544,0.005027531979050105,-0.073164,-37.710996
11.185,2.0,1.0,1.0,34.1,34.2,34.2,3.5,3.0,2.535,0.6981908669588139,-0.01222628985922256,0.7040133564060261,0.004995660849416689,-0.074,-37.583569
11.185,2.0,1.0,1.0,34.1,34.2,34.2,3.5,3.0,2.5375,0.6924743510232255,-0.01245157623272784,0.7095010057850014,0.004961241220723137,-0.074852,-37.455591
11.185,2.0,1.0,1.0,34.1,34.2,34.2,3.5,3.0,2.54,0.6866820850749475,-0.012680893622738266,0.7149709274133494,0.004924178324494751,-0.075721,-37.327048
11.185,2.0,1.0,1.0,34.1,34.2,34.2,3.5,3.0,2.5425,0.680813277023207,-0.012914326879325075,0.7204223758132198,0.004884373682016233,-0.076608,-37.197929
11.185,2.0,1.0,1.0,34.1,34.2,34.2,3.5,3.0,2.545,0.6748671250351733,-0.01315196309287028,0.7258545835163165,0.00484172493708711,-0.077512,-37.068222
11.185,2.0,1.0,1.0,34.1,34.2,34.2,3.5,3.0,2.5475,0.6688428174973882,-0.013393891667038303,0.7312667603808893,0.0047961256799728385,-0.078435,-36.937913
11.185,2.0,1.0,1.0,34.1,34.2,34.2,3.5,3.0,2.55,0.6627395329818504,-0.013640204394652704,0.7366580928859111,0.004747465262010001,-0.079377,-36.80699
11.185,2.0,1.0,1.0,34.1,34.2,34.2,3.5,3.0,2.5525,0.6565564402170795,-0.013890995536614275,0.7420277434015115,0.0046956286002857416,-0.080338,-36.67544
11.185,2.0,1.0,1.0,34.1,34.2,34.2,3.5,3.0,2.555,0.650292698064439,-0.014146361904006304,0.7473748494347588,0.004640495971769416,-0.081319,-36.543249
11.185,2.0,1.0,1.0,34.1,34.2,34.2,3.5,3.0,2.5575,0.6439474555000486,-0.014406402943539223,0.752698522849782,0.004581942796230045,-0.082321,-36.410404
11.185,2.0,1.0,1.0,34.1,34.2,34.2,3.5,3.0,2.56,0.6375198516026261,-0.01467122082649487,0.7579978490611853,0.004519839407223527,-0.083344,-36.276889
11.185,2.0,1.0,1.0,34.1,34.2,34.2,3.5,3.0,2.5625,0.6310090155475993,-0.014940920541340037,0.7632718861996691,0.004454050810381666,-0.084389,-36.142692
11.185,2.0,1.0,1.0,34.1,34.2,34.2,3.5,3.0,2.565,0.6244140666078453,-0.015215609990187043,0.7685196642486884,0.0043844364281769,-0.085456,-36.007797
11.185,2.0,1.0,1.0,34.1,34.2,34.2,3.5,3.0,2.5675,0.6177341141614464,-0.015495400089288583,0.7737401841509215,0.004310849830275345,-0.086546,-35.872189
11.185,2.0,1.0,1.0,34.1,34.2,34.2,3.5,3.0,2.57,0.6109682577068435,-0.01578040487376481,0.7789324168832588,0.004233138448522292,-0.08766,-35.735853
11.185,2.0,1.0,1.0,34.1,34.2,34.2,3.5,3.0,2.5725,0.6041155868857949,-0.01607074160676954,0.7840953024989352,0.0041511432755320914,-0.088798,-35.598773
11.185,2.0,1.0,1.0,34.1,34.2,34.2,3.5,3.0,2.575,0.5971751815145662,-0.016366530893314645,0.7892277491353572,0.00406469854577377,-0.089962,-35.460931
11.185,2.0,1.0,1.0,34.1,34.2,34.2,3.5,3.0,2.5775,0.5901461116237892,-0.016667896798982174,0.7943286319860793,0.0039736313979575515,-0.091151,-35.322313
11.185,2.0,1.0,1.0,34.1,34.2,34.2,3.5,3.0,2.58,0.5830274375074491,-0.016974966973765524,0.7993967922352871,0.0038777615174328726,-0.092367,-35.182901
11.185,2.0,1.0,1.0,34.1,34.2,34.2,3.5,3.0,2.5825,0.5758182097814655,-0.017287872781294025,0.8044310359530641,0.0037769007572056347,-0.093611,-35.042677
11.185,2.0,1.0,1.0,34.1,34.2,34.2,3.5,3.0,2.585,0.5685174694523702,-0.01760674943370694,0.8094301329495615,0.003670852736070168,-0.094883,-34.901623
11.185,2.0,1.0,1.0,34.1,34.2,34.2,3.5,3.0,2.5875,0.5611242479965791,-0.01793173613245711,0.814392815586121,0.003559412412228774,-0.096185,-34.75972
11.185,2.0,1.0,1.0,34.1,34.2,34.2,3.5,3.0,2.59,0.553637567450801,-0.01826297621533706,0.8193177775412226,0.0034423656306386326,-0.097517,-34.61695
11.185,2.0,1.0,1.0,34.1,34.2,34.2,3.5,3.0,2.5925,0.5460564405141193,-0.018600617310035716,0.824203672529015,0.003319488642178233,-0.09888,-34.473294
11.185,2.0,1.0,1.0,34.1,34.2,34.2,3.5,3.0,2.595,0.538379870662335,-0.01894481149454603,0.8290491129680034,0.0031905475925672502,-0.100275,-34.32873
11.185,2.0,1.0,1.0,34.1,34.2,34.2,3.5,3.0,2.5975,0.5306068522751414,-0.019295715464760832,0.8338526685973257,0.0030552979787964677,-0.101704,-34.183239
11.185,2.0,1.0,1.0,34.1,34.2,34.2,3.5,3.0,2.6,0.5227363707767595,-0.01965349070960725,0.8386128650378271,0.0029134840706340755,-0.103167,-34.0368
11.185,2.0,1.0,1.0,34.1,34.2,34.2,3.5,3.0,2.6025,0.5147674027906708,-0.02001830369408457,0.8433281822949635,0.002764838294562518,-0.104666,-33.889389
11.185,2.0,1.0,1.0,34.1,34.2,34.2,3.5,3.0,2.605,0.5066989163091021,-0.020390326050586386,0.847997053200322,0.002609080577269293,-0.106201,-33.740986
11.185,2.0,1.0,1.0,34.1,34.2,34.2,3.5,3.0,2.6075,0.4985298708779608,-0.02076973477890037,0.8526178617882968,0.002445917645560561,-0.107775,-33.591566
11.185,2.0,1.0,1.0,34.1,34.2,34.2,3.5,3.0,2.61,0.49025921779793546,-0.021156712455293453,0.8571889416041959,0.0022750422792862054,-0.109388,-33.441106
11.185,2.0,1.0,1.0,34.1,34.2,34.2,3.5,3.0,2.6125,0.4818859003425058,-0.02155144745110298,0.8617085739397446,0.0020961325135572632,-0.111042,-33.289581
11.185,2.0,1.0,1.0,34.1,34.2,34.2,3.5,3.0,2.615,0.4734088539936413,-0.0219541341612654,0.8661749859916266,0.0019088507861965184,-0.112738,-33.136965
11.185,2.0,1.0,1.0,34.1,34.2,34.2,3.5,3.0,2.6175,0.4648270066960103,-0.02236497324322347,0.870586348938319,0.0017128430259881879,-0.114478,-32.983234
11.185,2.0,1.0,1.0,34.1,34.2,34.2,3.5,3.0,2.62,0.4561392791305426,-0.02278417186666149,0.8749407759301115,0.0015077376768791804,-0.116264,-32.828358
11.185,2.0,1.0,1.0,34.1,34.2,34.2,3.5,3.0,2.6225,0.4473445850082433,-0.023211943974521542,0.8792363199867017,0.0012931446528259244,-0.118096,-32.672312
11.185,2.0,1.0,1.0,34.1,34.2,34.2,3.5,3.0,2.625,0.438441831385212,-0.0236485105557544,0.883470971796303,0.00106865421747492,-0.119978,-32.515065
11.185,2.0,1.0,1.0,34.1,34.2,34.2,3.5,3.0,2.6275,0.42942991899983424,-0.02409409993025626,0.8876426574096538,0.0008338357823035552,-0.12191,-32.356588
11.185,2.0,1.0,1.0,34.1,34.2,34.2,3.5,3.0,2.63,0.4203077426332274,-0.024548948046431162,0.8917492358216575,0.0005882366162255603,-0.123895,-32.196849
11.185,2.0,1.0,1.0,34.1,34.2,34.2,3.5,3.0,2.6325,0.4110741914940341,-0.025013298791802883,0.8957884964327869,0.0003313804589744195,-0.125934,-32.035818
11.185,2.0,1.0,1.0,34.1,34.2,34.2,3.5,3.0,2.635,0.40172814962878195,-0.02548740431707331,0.8997581563815432,6.276602981023271e-05,-0.12803,-31.873461
11.185,2.0,1.0,1.0,34.1,34.2,34.2,3.5,3.0,2.6375,0.3922684963590821,-0.025971525373989026,0.9036558577384933,-0.0002181345777595,-0.130186,-31.709744
11.185,2.0,1.0,1.0,34.1,34.2,34.2,3.5,3.0,2.64,0.3826941067470431,-0.026465931667325693,0.9074791645514452,-0.0005118776255068787,-0.132403,-31.544632
11.185,2.0,1.0,1.0,34.1,34.2,34.2,3.5,3.0,2.6425,0.37300385209042164,-0.026970902221234543,0.9112255597302531,-0.0008190495955810609,-0.134684,-31.378087
11.185,2.0,1.0,1.0,34.1,34.2,34.2,3.5,3.0,2.645,0.36319660044914087,-0.02748672576010828,0.9148924417586142,-0.0011402692036866426,-0.137031,-31.210072
11.185,2.0,1.0,1.0,34.1,34.2,34.2,3.5,3.0,2.6475,0.3532712172049826,-0.028013701104012592,0.918477121218888,-0.0014761895741769431,-0.139449,-31.040547
11.185,2.0,1.0,1.0,34.1,34.2,34.2,3.5,3.0,2.65,0.3432265656564364,-0.02855213757859246,0.9219768171144965,-0.001827500592383262,-0.141939,-30.869472
11.185,2.0,1.0,1.0,34.1,34.2,34.2,3.5,3.0,2.6525,0.33306150765095865,-0.029102355439182326,0.9253886529728259,-0.002194931451161382,-0.144504,-30.696803
11.185,2.0,1.0,1.0,34.1,34.2,34.2,3.5,3.0,2.655,0.3227749042570887,-0.029664686308637472,0.9287096527097024,-0.0025792534105079355,-0.147149,-30.522497
11.185,2.0,1.0,1.0,34.1,34.2,34.2,3.5,3.0,2.6575,0.31236561647926303,-0.030239473628129957,0.9319367362344047,-0.002981282791193733,-0.149876,-30.346507
11.185,2.0,1.0,1.0,34.1,34.2,34.2,3.5,3.0,2.66,0.30183250601848755,-0.030827073119823863,0.9350667147718662,-0.003401884225725482,-0.15269,-30.168785
11.185,2.0,1.0,1.0,34.1,34.2,34.2,3.5,3.0,2.6625,0.29117443608254095,-0.03142785325993512,0.9380962858760128,-0.003841974192605984,-0.155595,-29.989283
11.185,2.0,1.0,1.0,34.1,34.2,34.2,3.5,3.0,2.665,0.2803902722498537,-0.03204219576018696,0.9410220281052536,-0.004302524862867695,-0.158594,-29.807948
11.185,2.0,1.0,1.0,34.1,34.2,34.2,3.5,3.0,2.6675,0.2694788833919357,-0.032670496055060505,0.9438403953276715,-0.004784568291245289,-0.161692,-29.624725
11.185,2.0,1.0,1.0,34.1,34.2,34.2,3.5,3.0,2.67,0.2584391426599366,-0.03331316379150325,0.9465477106197007,-0.005289200988195007,-0.164895,-29.43956
11.185,2.0,1.0,1.0,34.1,34.2,34.2,3.5,3.0,2.6725,0.24726992854190813,-0.03397062331685516,0.949140159717631,-0.005817588913319123,-0.168207,-29.252393
11.185,2.0,1.0,1.0,34.1,34.2,34.2,3.5,3.0,2.675,0.23597012599844294,-0.034643314159658246,0.9516137839764005,-0.006370972935693787,-0.171633,-29.063162
11.185,2.0,1.0,1.0,34.1,34.2,34.2,3.5,3.0,2.6775,0.22453862768574293,-0.03533169149668452,0.9539644727844312,-0.006950674812214732,-0.175181,-28.871805
11.185,2.0,1.0,1.0,34.1,34.2,34.2,3.5,3.0,2.68,0.2129743352767821,-0.03603622659790223,0.9561879553768659,-0.007558103741468207,-0.178856,-28.678253
11.185,2.0,1.0,1.0,34.1,34.2,34.2,3.5,3.0,2.6825,0.20127616089326747,-0.036757407239136446,0.9582797919822054,-0.00819476355792626,-0.182664,-28.482438
11.185,2.0,1.0,1.0,34.1,34.2,34.2,3.5,3.0,2.685,0.18944302866342183,-0.03749573806979957,0.9602353642289627,-0.00886226063959417,-0.186614,-28.284286
11.185,2.0,1.0,1.0,34.1,34.2,34.2,3.5,3.0,2.6875,0.1774738764236003,-0.038251740920168885,0.9620498647293011,-0.00956231261176665,-0.190713,-28.08372
11.185,2.0,1.0,1.0,34.1,34.2,34.2,3.5,3.0,2.69,0.16536765758523378,-0.03902595502916757,0.9637182857456293,-0.01029675794046874,-0.19497,-27.88066
11.185,2.0,1.0,1.0,34.1,34.2,34.2,3.5,3.0,2.6925,0.15312334319286502,-0.03981893716932532,0.965235406833411,-0.011067566521696893,-0.199393,-27.675023
11.185,2.0,1.0,1.0,34.1,34.2,34.2,3.5,3.0,2.695,0.140739924204306,-0.040631261640371084,0.966595781338888,-0.011876851386987807,-0.203992,-27.466719
11.185,2.0,1.0,1.0,34.1,34.2,34.2,3.5,3.0,2.6975,0.12821641403020384,-0.041463520096556794,0.9677937216135805,-0.01272688166245602,-0.208779,-27.255657
11.185,2.0,1.0,1.0,34.1,34.2,34.2,3.5,3.0,2.7,0.11555185137816543,-0.04231632116503983,0.9688232827879725,-0.013620096937601918,-0.213764,-27.041739
11.185,2.0,1.0,1.0,34.1,34.2,34.2,3.5,3.0,2.7025,0.10274530345591355,-0.04319028980316216,0.9696782449243914,-0.01455912322235353,-0.21896,-26.824863
11.185,2.0,1.0,1.0,34.1,34.2,34.2,3.5,3.0,2.705,0.08979586959967575,-0.04408606633083864,0.9703520933429506,-0.015546790696464708,-0.22438,-26.604921
11.185,2.0,1.0,1.0,34.1,34.2,34.2,3.5,3.0,2.7075,0.07670268540811037,-0.04500430506001018,0.9708379968842704,-0.016586153485170136,-0.23004,-26.3818
11.185,2.0,1.0,1.0,34.1,34.2,34.2,3.5,3.0,2.71,0.06346492747962865,-0.04594567242559747,0.9711287838374766,-0.017680511729606305,-0.235955,-26.155381
11.185,2.0,1.0,1.0,34.1,34.2,34.2,3.5,3.0,2.7125,0.050081818872449356,-0.04691084450081947,0.9712169152210319,-0.018833436260814643,-0.242142,-25.925537
11.185,2.0,1.0,1.0,34.1,34.2,34.2,3.5,3.0,2.715,0.036552635433333334,-0.04790050375312278,0.9710944550561178,-0.020048796233160332,-0.248622,-25.692137
11.185,2.0,1.0,1.0,34.1,34.2,34.2,3.5,3.0,2.7175,0.02287671317378774,-0.04891533486404862,0.9707530372164107,-0.021330790127956075,-0.255414,-25.455038
11.185,2.0,1.0,1.0,34.1,34.2,34.2,3.5,3.0,2.72,0.009053456913388745,-0.04995601939555474,0.9701838283725784,-0.02268398060241281,-0.262541,-25.214094
11.185,2.0,1.0,1.0,34.1,34.2,34.2,3.5,3.0,2.7225,-0.004917649539514348,-0.05102322903459043,0.969377486473039,-0.024113333734497443,-0.27003,-24.969147
11.185,2.0,1.0,1.0,34.1,34.2,34.2,3.5,3.0,2.725,-0.0190370313360409,-0.052117617084511146,0.9683241141122242,-0.025624263302902725,-0.277907,-24.720031
11.185,2.0,1.0,1.0,34.1,34.2,34.2,3.5,3.0,2.7275,-0.03330500825139816,-0.053239807792935474,0.9670132060313885,-0.027222680845623657,-0.286203,-24.46657
11.185,2.0,1.0,1.0,34.1,34.2,34.2,3.5,3.0,2.73,-0.04772177755388299,-0.05439038300663383,0.9654335898717201,-0.028915052363486727,-0.294953,-24.208576
11.185,2.0,1.0,1.0,34.1,34.2,34.2,3.5,3.0,2.7325,-0.06228739344172695,-0.05556986551956913,0.9635733591518388,-0.030708462679927395,-0.304195,-23.945851
11.185,2.0,1.0,1.0,34.1,34.2,34.2,3.5,3.0,2.735,-0.07700174225354986,-0.056778698323201225,0.9614197972671074,-0.03261068863947112,-0.313969,-23.678184
11.185,2.0,1.0,1.0,34.1,34.2,34.2,3.5,3.0,2.7375,-0.09186451245891394,-0.05801721876947216,0.9589592911018433,-0.034630282529675656,-0.324324,-23.40535
11.185,2.0,1.0,1.0,34.1,34.2,34.2,3.5,3.0,2.74,-0.10687515818199622,-0.05928562640454632,0.9561772326013637,-0.03677666735047451,-0.335311,-23.127111
11.185,2.0,1.0,1.0,34.1,34.2,34.2,3.5,3.0,2.7425,-0.12203285468831158,-0.06058394290974853,0.9530579063620193,-0.039060245837662905,-0.346988,-22.843211
11.185,2.0,1.0,1.0,34.1,34.2,34.2,3.5,3.0,2.745,-0.13733644385073543,-0.06191196217464707,0.9495843609559805,-0.04149252548138885,-0.359424,-22.553378
11.185,2.0,1.0,1.0,34.1,34.2,34.2,3.5,3.0,2.7475,-0.1527843670796322,-0.0632691879987253,0.9457382613045638,-0.04408626217470554,-0.37269,-22.257321
11.185,2.0,1.0,1.0,34.1,34.2,34.2,3.5,3.0,2.75,-0.168374582516095,-0.0646547562365686,0.94149971893925,-0.0468556255910888,-0.386873,-21.95473
11.185,2.0,1.0,1.0,34.1,34.2,34.2,3.5,3.0,2.7525,-0.1841044623990929,-0.0660673373190534,0.9368470964329444,-0.04981638993340282,-0.402067,-21.645272
11.185,2.0,1.0,1.0,34.1,34.2,34.2,3.5,3.0,2.755,-0.19997066536170294,-0.06750501393559014,0.9317567816349108,-0.05298615432986984,-0.418381,-21.328591
11.185,2.0,1.0,1.0,34.1,34.2,34.2,3.5,3.0,2.7575,-0.21596897690192088,-0.0689651271640645,0.9262029265927034,-0.05638459788313615,-0.435941,-21.004305
11.185,2.0,1.0,1.0,34.1,34.2,34.2,3.5,3.0,2.76,-0.23209410929252017,-0.07044408236982395,0.9201571451890413,-0.06003377520995973,-0.454889,-20.672005
11.185,2.0,1.0,1.0,34.1,34.2,34.2,3.5,3.0,2.7625,-0.24833944958369802,-0.07193710360611147,0.9135881625653972,-0.0639584592358182,-0.475389,-20.33125
11.185,2.0,1.0,1.0,34.1,34.2,34.2,3.5,3.0,2.765,-0.2646967408962926,-0.07343792182290312,0.9064614083686217,-0.06818653900826582,-0.497634,-19.981568
11.185,2.0,1.0,1.0,34.1,34.2,34.2,3.5,3.0,2.7675,-0.2811556776091642,-0.07493837763943065,0.8987385447932376,-0.07274948131270784,-0.521844,-19.62245
11.185,2.0,1.0,1.0,34.1,34.2,34.2,3.5,3.0,2.77,-0.2977033889114977,-0.07642791336238736,0.8903769194028184,-0.07768286581026004,-0.548278,-19.253352
11.185,2.0,1.0,1.0,34.1,34.2,34.2,3.5,3.0,2.7725,-0.3143237769718564,-0.07789292079680211,0.8813289319892093,-0.08302700407791704,-0.577239,-18.873685
11.185,2.0,1.0,1.0,34.1,34.2,34.2,3.5,3.0,2.775,-0.33099666492318225,-0.07931590046210579,0.8715413046052195,-0.08882765297839214,-0.609087,-18.48282
11.185,2.0,1.0,1.0,34.1,34.2,34.2,3.5,3.0,2.7775,-0.3476966949563707,-0.0806743730868055,0.8609542449659816,-0.0951368316392402,-0.644246,-18.08008
11.185,2.0,1.0,1.0,34.1,34.2,34.2,3.5,3.0,2.78,-0.36439189667134037,-0.08193946434929586,0.8495004966429379,-0.10201374799382075,-0.683222,-17.664739
11.185,2.0,1.0,1.0,34.1,34.2,34.2,3.5,3.0,2.7825,-0.38104181859620867,-0.08307405693300093,0.837104276528502,-0.10952583368050306,-0.726623,-17.236024
11.185,2.0,1.0,1.0,34.1,34.2,34.2,3.5,3.0,2.785,-0.3975950790029897,-0.08403036766581545,0.8236801136895483,-0.11774987236531614,-0.775181,-16.79311
11.185,2.0,1.0,1.0,34.1,34.2,34.2,3.5,3.0,2.7875,-0.4139861426905532,-0.08474675874814305,0.8091316285339754,-0.1267731816979285,-0.829787,-16.335126
11.185,2.0,1.0,1.0,34.1,34.2,34.2,3.5,3.0,2.79,-0.43013106448973265,-0.08514352714655199,0.79335033475119,-0.13669476562627564,-0.891529,-15.861158
11.185,2.0,1.0,1.0,34.1,34.2,34.2,3.5,3.0,2.7925,-0.44592185380055677,-0.08511733119218125,0.7762146211958871,-0.1476262793525213,-0.961748,-15.370261
11.185,2.0,1.0,1.0,34.1,34.2,34.2,3.5,3.0,2.795,-0.46121900429942414,-0.08453380523703584,0.7575891970977436,-0.15969252368503198,-1.042105,-14.861479
11.185,2.0,1.0,1.0,34.1,34.2,34.2,3.5,3.0,2.7975,-0.47584159966930684,-0.08321778269681351,0.7373254946084806,-0.17303097638748116,-1.134675,-14.333867
11.185,2.0,1.0,1.0,34.1,34.2,34.2,3.5,3.0,2.8,-0.48955426096747134,-0.08094040629930674,0.7152638701516901,-0.18778952359205242,-1.242064,-13.786549
11.185,2.0,1.0,1.0,34.1,34.2,34.2,3.5,3.0,2.8025,-0.5020500802640515,-0.07740228815907337,0.6912390114963369,-0.20412099438561518,-1.367571,-13.218779
11.185,2.0,1.0,1.0,34.1,34.2,34.2,3.5,3.0,2.805,-0.512928679572023,-0.07221188221294021,0.665090860574964,-0.22217220855471606,-1.515389,-12.630059
11.185,2.0,1.0,1.0,34.1,34.2,34.2,3.5,3.0,2.8075,-0.5216688483763708,-0.06485855073982025,0.6366847628984618,-0.2420638641448512,-1.690869,-12.020297
11.185,2.0,1.0,1.0,34.1,34.2,34.2,3.5,3.0,2.81,-0.5275962728549036,-0.05468086688621651,0.6059466228796466,-0.26385555251803,-1.900842,-11.390051
11.185,2.0,1.0,1.0,34.1,34.2,34.2,3.5,3.0,2.8125,-0.529849499839684,-0.0408333118109021,0.572921632189784,-0.287487447685392,-2.153972,-10.74088
11.185,2.0,1.0,1.0,34.1,34.2,34.2,3.5,3.0,2.815,-0.5273529365522507,-0.022260136676855474,0.537868206052504,-0.3126872165707938,-2.461081,-10.075843
11.185,2.0,1.0,1.0,34.1,34.2,34.2,3.5,3.0,2.8175,-0.5188165784417651,0.0023040645723741986,0.501400280864631,-0.3388292580129901,-2.835185,-9.400181
11.185,2.0,1.0,1.0,34.1,34.2,34.2,3.5,3.0,2.82,-0.5028005586043934,0.03426936396995714,0.4646860935711369,-0.36473845692011564,-3.290665,-8.722199
11.185,2.0,1.0,1.0,34.1,34.2,34.2,3.5,3.0,2.8225,-0.477907628400256,0.07499877677498305,0.42968930712114284,-0.38845277698673575,-3.840199,-8.054291
11.185,2.0,1.0,1.0,34.1,34.2,34.2,3.5,3.0,2.825,-0.44318534004368193,0.12540934934410006,0.39938224570762854,-0.4070145665317941,-4.486483,-7.413906
11.185,2.0,1.0,1.0,34.1,34.2,34.2,3.5,3.0,2.8275,-0.39879173476274227,0.18531376280467204,0.37776068133510615,-0.4164594651468751,-5.2037,-6.823969
