1,w,sub_t,h,l1,l2,l3,g1,g2,Freq,S11_re,S21_re,S11_img,S21_img,S11_dB,S21_dB
11.185,2.0,1.0,1.0,34.5,34.0,34.0,2.0,2.7,2.5,0.691040002770166,-0.0195149245418569,0.70964665023667,0.0104296749734054,-0.082714,-33.101494
11.185,2.0,1.0,1.0,34.5,34.0,34.0,2.0,2.7,2.5025,0.6849652384927168,-0.019891623980059513,0.715353260996044,0.010401576609250918,-0.083719,-32.976819
11.185,2.0,1.0,1.0,34.5,34.0,34.0,2.0,2.7,2.505,0.6788066603195824,-0.020275140564976875,0.7210392479621109,0.01036932848277534,-0.084744,-32.851639
11.185,2.0,1.0,1.0,34.5,34.0,34.0,2.0,2.7,2.5075,0.6725633713343484,-0.020665604362473316,0.726703714487743,0.010332764634988683,-0.085791,-32.725944
11.185,2.0,1.0,1.0,34.5,34.0,34.0,2.0,2.7,2.51,0.6662344642675058,-0.02106314795389269,0.7323457368098356,0.010291712678412696,-0.086859,-32.599726
11.185,2.0,1.0,1.0,34.5,34.0,34.0,2.0,2.7,2.5125,0.6598190215277376,-0.02146790646847022,0.7379643631978324,0.010245993529074359,-0.08795,-32.472976
11.185,2.0,1.0,1.0,34.5,34.0,34.0,2.0,2.7,2.515,0.653316115244261,-0.021880017614533395,0.7435586130745535,0.0101954211262876,-0.089063,-32.345686
11.185,2.0,1.0,1.0,34.5,34.0,34.0,2.0,2.7,2.5175,0.6467248073209929,-0.022299621709313683,0.749127476108349,0.010139802139612616,-0.0902,-32.217845
11.185,2.0,1.0,1.0,34.5,34.0,34.0,2.0,2.7,2.52,0.6400441495032835,-0.022726861707164134,0.7546699112755916,0.010078935662347644,-0.091361,-32.089446
11.185,2.0,1.0,1.0,34.5,34.0,34.0,2.0,2.7,2.5225,0.6332731834580961,-0.02316188322597663,0.7601848458924448,0.010012612890866635,-0.092546,-31.960479
11.185,2.0,1.0,1.0,34.5,34.0,34.0,2.0,2.7,2.525,0.626410940868476,-0.023604834571556692,0.7656711746148579,0.009940616789084419,-0.093757,-31.830935
11.185,2.0,1.0,1.0,34.5,34.0,34.0,2.0,2.7,2.5275,0.6194564435432506,-0.02405586675970879,0.771127758405638,0.009862721737286638,-0.094994,-31.700803
11.185,2.0,1.0,1.0,34.5,34.0,34.0,2.0,2.7,2.53,0.6124087035429505,-0.024515133535746414,0.7765534234674473,0.009778693164517887,-0.096258,-31.570074
11.185,2.0,1.0,1.0,34.5,34.0,34.0,2.0,2.7,2.5325,0.6052667233229886,-0.024982791391131194,0.7819469601405052,0.009688287163677735,-0.097549,-31.438739
11.185,2.0,1.0,1.0,34.5,34.0,34.0,2.0,2.7,2.535,0.5980294958951913,-0.02545899957690622,0.7873071217637363,0.009591250088424087,-0.098869,-31.306787
11.185,2.0,1.0,1.0,34.5,34.0,34.0,2.0,2.7,2.5375,0.5906960050088694,-0.025943920113571148,0.7926326234980409,0.009487318130930159,-0.100218,-31.174207
11.185,2.0,1.0,1.0,34.5,34.0,34.0,2.0,2.7,2.54,0.5832652253526424,-0.026437717797002425,0.7979221411103286,0.009376216879487791,-0.101596,-31.04099
11.185,2.0,1.0,1.0,34.5,34.0,34.0,2.0,2.7,2.5425,0.5757361227783374,-0.02694056020000186,0.8031743097168873,0.00925766085488923,-0.103006,-30.907125
11.185,2.0,1.0,1.0,34.5,34.0,34.0,2.0,2.7,2.545,0.5681076545483388,-0.027452617669005006,0.8083877224845949,0.009131353024457382,-0.104447,-30.772601
11.185,2.0,1.0,1.0,34.5,34.0,34.0,2.0,2.7,2.5475,0.5603787696078746,-0.027974063315450166,0.8135609292884314,0.008996984292526993,-0.105921,-30.637407
11.185,2.0,1.0,1.0,34.5,34.0,34.0,2.0,2.7,2.55,0.5525484088837632,-0.028505073001264716,0.8186924353236796,0.008854232966106611,-0.107429,-30.501532
11.185,2.0,1.0,1.0,34.5,34.0,34.0,2.0,2.7,2.5525,0.5446155056113058,-0.029045825317864843,0.823780699671108,0.008702764194377793,-0.108971,-30.364964
11.185,2.0,1.0,1.0,34.5,34.0,34.0,2.0,2.7,2.555,0.5365789856910431,-0.029596501558028218,0.828824133813406,0.00854222938060384,-0.110549,-30.227692
11.185,2.0,1.0,1.0,34.5,34.0,34.0,2.0,2.7,2.5575,0.528437768077235,-0.030157285679936568,0.8338211001010096,0.008372265564932499,-0.112163,-30.089704
11.185,2.0,1.0,1.0,34.5,34.0,34.0,2.0,2.7,2.56,0.5201907652000411,-0.030728364262612405,0.8387699101654066,0.008192494776489282,-0.113816,-29.950988
11.185,2.0,1.0,1.0,34.5,34.0,34.0,2.0,2.7,2.5625,0.5118368834234711,-0.031309926451920086,0.843668823277907,0.008002523353052772,-0.115507,-29.811531
11.185,2.0,1.0,1.0,34.5,34.0,34.0,2.0,2.7,2.565,0.5033750235413227,-0.03190216389622512,0.8485160446517871,0.007801941226499917,-0.117239,-29.671322
11.185,2.0,1.0,1.0,34.5,34.0,34.0,2.0,2.7,2.5675,0.49480408131346604,-0.03250527067071162,0.8533097236855883,0.007590321172097912,-0.119012,-29.530347
11.185,2.0,1.0,1.0,34.5,34.0,34.0,2.0,2.7,2.57,0.4861229480449579,-0.03311944318928169,0.858047952145285,0.007367218019593293,-0.120828,-29.388592
11.185,2.0,1.0,1.0,34.5,34.0,34.0,2.0,2.7,2.5725,0.47733051121064474,-0.03374488010286711,0.8627287622828906,0.0071321678239234165,-0.122688,-29.246046
11.185,2.0,1.0,1.0,34.5,34.0,34.0,2.0,2.7,2.575,0.4684256551280727,-0.03438178218285679,0.867350124888978,0.0068846869932336525,-0.124594,-29.102694
11.185,2.0,1.0,1.0,34.5,34.0,34.0,2.0,2.7,2.5775,0.45940726168171037,-0.03503035218825502,0.8719099472764418,0.006624271371734914,-0.126547,-28.958522
11.185,2.0,1.0,1.0,34.5,34.0,34.0,2.0,2.7,2.58,0.45027421110167265,-0.03569079471503224,0.8764060711927136,0.006350395274780116,-0.128548,-28.813516
11.185,2.0,1.0,1.0,34.5,34.0,34.0,2.0,2.7,2.5825,0.44102538280034675,-0.03636331602601347,0.8808362706574944,0.006062510473358765,-0.1306,-28.667662
11.185,2.0,1.0,1.0,34.5,34.0,34.0,2.0,2.7,2.585,0.4316596562705476,-0.03704812385947856,0.885198249722905,0.005760045125037061,-0.132704,-28.520945
11.185,2.0,1.0,1.0,34.5,34.0,34.0,2.0,2.7,2.5875,0.4221759120490603,-0.03774542721449138,0.8894896401528068,0.005442402648160791,-0.134861,-28.373349
11.185,2.0,1.0,1.0,34.5,34.0,34.0,2.0,2.7,2.59,0.41257303274969903,-0.03845543611079065,0.8937079990178578,0.0051089605359405255,-0.137074,-28.22486
11.185,2.0,1.0,1.0,34.5,34.0,34.0,2.0,2.7,2.5925,0.4028499041702723,-0.039178361320867966,0.8978508062026873,0.004759069106797388,-0.139344,-28.075461
11.185,2.0,1.0,1.0,34.5,34.0,34.0,2.0,2.7,2.595,0.39300541647817494,-0.03991441407163946,0.9019154618213727,0.004392050187116991,-0.141674,-27.925136
11.185,2.0,1.0,1.0,34.5,34.0,34.0,2.0,2.7,2.5975,0.38303846547961456,-0.04066380571287904,0.905899283537186,0.004007195722286509,-0.144065,-27.773869
11.185,2.0,1.0,1.0,34.5,34.0,34.0,2.0,2.7,2.6,0.3729479539778561,-0.04142674734929529,0.9097995037823421,0.0036037663116155754,-0.14652,-27.621642
11.185,2.0,1.0,1.0,34.5,34.0,34.0,2.0,2.7,2.6025,0.3627327932262631,-0.042203449432864616,0.9136132668732326,0.0031809896624321217,-0.149041,-27.468438
11.185,2.0,1.0,1.0,34.5,34.0,34.0,2.0,2.7,2.605,0.35239190448228774,-0.042994121311679054,0.9173376260163806,0.002738058958322921,-0.15163,-27.31424
11.185,2.0,1.0,1.0,34.5,34.0,34.0,2.0,2.7,2.6075,0.34192422066904526,-0.04379897073122757,0.9209695402000215,0.002274131136134683,-0.15429,-27.15903
11.185,2.0,1.0,1.0,34.5,34.0,34.0,2.0,2.7,2.61,0.33132868815160316,-0.04461820328361754,0.9245058709659612,0.0017883250659753774,-0.157024,-27.002787
11.185,2.0,1.0,1.0,34.5,34.0,34.0,2.0,2.7,2.6125,0.32060426863560976,-0.04545202179981864,0.9279433790559692,0.0012797196280442853,-0.159833,-26.845494
11.185,2.0,1.0,1.0,34.5,34.0,34.0,2.0,2.7,2.615,0.3097499411965061,-0.0463006256795123,0.9312787209266673,0.0007473516796858763,-0.162722,-26.687131
11.185,2.0,1.0,1.0,34.5,34.0,34.0,2.0,2.7,2.6175,0.2987647044481947,-0.04716421015259853,0.9345084451264206,0.0001902139055839427,-0.165693,-26.527678
11.185,2.0,1.0,1.0,34.5,34.0,34.0,2.0,2.7,2.62,0.2876475788607189,-0.04804296546581204,0.9376289885273675,-0.00039274745649112164,-0.168749,-26.367114
11.185,2.0,1.0,1.0,34.5,34.0,34.0,2.0,2.7,2.6225,0.2763976092372779,-0.04893707598725272,0.9406366724052516,-0.0010026350225269562,-0.171894,-26.205417
11.185,2.0,1.0,1.0,34.5,34.0,34.0,2.0,2.7,2.625,0.26501386736176,-0.0498467192208782,0.943527698359222,-0.00164060281043419,-0.175131,-26.042566
11.185,2.0,1.0,1.0,34.5,34.0,34.0,2.0,2.7,2.6275,0.25349545482884495,-0.05077206472221923,0.9462981440632482,-0.0023078589389081815,-0.178463,-25.878539
11.185,2.0,1.0,1.0,34.5,34.0,34.0,2.0,2.7,2.63,0.24184150606979346,-0.051713272905653994,0.9489439588402241,-0.003005668487048395,-0.181896,-25.713313
11.185,2.0,1.0,1.0,34.5,34.0,34.0,2.0,2.7,2.6325,0.2300511915881171,-0.0526704937325804,0.9514609590491955,-0.0037353565255416094,-0.185432,-25.546864
11.185,2.0,1.0,1.0,34.5,34.0,34.0,2.0,2.7,2.635,0.21812372142057698,-0.05364386526870783,0.9538448232754981,-0.004498311331019409,-0.189075,-25.379167
11.185,2.0,1.0,1.0,34.5,34.0,34.0,2.0,2.7,2.6375,0.20605834884031335,-0.05463351209742253,0.9560910873128404,-0.0052959877960615485,-0.192831,-25.210199
11.185,2.0,1.0,1.0,34.5,34.0,34.0,2.0,2.7,2.64,0.19385437432038646,-0.05563954357481325,0.9581951389256037,-0.0061299110482579315,-0.196705,-25.039932
11.185,2.0,1.0,1.0,34.5,34.0,34.0,2.0,2.7,2.6425,0.18151114977773375,-0.05666205191036151,0.9601522123787479,-0.0070016802927382864,-0.2007,-24.868341
11.185,2.0,1.0,1.0,34.5,34.0,34.0,2.0,2.7,2.645,0.16902808311935272,-0.05770111005557415,0.9619573827218248,-0.007912972893675617,-0.204824,-24.695399
11.185,2.0,1.0,1.0,34.5,34.0,34.0,2.0,2.7,2.6475,0.15640464311460872,-0.05875676938087975,0.963605559812565,-0.008865548711419612,-0.20908,-24.521077
11.185,2.0,1.0,1.0,34.5,34.0,34.0,2.0,2.7,2.65,0.1436403646198319,-0.05982905711893808,0.9650914820644558,-0.009861254713200554,-0.213475,-24.345347
11.185,2.0,1.0,1.0,34.5,34.0,34.0,2.0,2.7,2.6525,0.13073485418399622,-0.060917973550042026,0.9664097099015521,-0.010902029876667914,-0.218015,-24.168178
11.185,2.0,1.0,1.0,34.5,34.0,34.0,2.0,2.7,2.655,0.11768779606704037,-0.062023488902568584,0.9675546189024918,-0.011989910407005894,-0.222707,-23.989541
11.185,2.0,1.0,1.0,34.5,34.0,34.0,2.0,2.7,2.6575,0.10449895870566923,-0.06314553993832668,0.9685203926143687,-0.013127035289914685,-0.227559,-23.809403
11.185,2.0,1.0,1.0,34.5,34.0,34.0,2.0,2.7,2.66,0.09116820166503087,-0.0642840261891869,0.9693010150156034,-0.014315652204429378,-0.232576,-23.627731
11.185,2.0,1.0,1.0,34.5,34.0,34.0,2.0,2.7,2.6625,0.07769548311869083,-0.06543880580744812,0.9698902626054542,-0.015558123821328464,-0.237767,-23.444493
11.185,2.0,1.0,1.0,34.5,34.0,34.0,2.0,2.7,2.665,0.06408086790383954,-0.06660969098800948,0.970281696096065,-0.016856934514813574,-0.243142,-23.259653
11.185,2.0,1.0,1.0,34.5,34.0,34.0,2.0,2.7,2.6675,0.050324536203794505,-0.06779644291540558,0.9704686516812058,-0.018214697517155754,-0.248707,-23.073176
11.185,2.0,1.0,1.0,34.5,34.0,34.0,2.0,2.7,2.67,0.036426792915553986,-0.06899876618315184,0.9704442318539238,-0.019634162548194622,-0.254474,-22.885024
11.185,2.0,1.0,1.0,34.5,34.0,34.0,2.0,2.7,2.6725,0.022388077766642638,-0.07021630262648297,0.9702012957433015,-0.02111822395384523,-0.260451,-22.695158
11.185,2.0,1.0,1.0,34.5,34.0,34.0,2.0,2.7,2.675,0.008208976252845052,-0.07144862450234575,0.9697324489383857,-0.02266992939019428,-0.26665,-22.50354
11.185,2.0,1.0,1.0,34.5,34.0,34.0,2.0,2.7,2.6775,-0.006109768523349407,-0.07269522694233406,0.9690300327650893,-0.024292489092286342,-0.273083,-22.310128
11.185,2.0,1.0,1.0,34.5,34.0,34.0,2.0,2.7,2.68,-0.02056724302435368,-0.07395551959499479,0.9680861129795375,-0.02598928576934181,-0.27976,-22.114879
11.185,2.0,1.0,1.0,34.5,34.0,34.0,2.0,2.7,2.6825,-0.035162349359239994,-0.07522881736335728,0.9668924678389117,-0.02776388517085307,-0.286697,-21.91775
11.185,2.0,1.0,1.0,34.5,34.0,34.0,2.0,2.7,2.685,-0.049893790163680375,-0.07651433013157932,0.9654405755083788,-0.029620047370790163,-0.293905,-21.718694
11.185,2.0,1.0,1.0,34.5,34.0,34.0,2.0,2.7,2.6875,-0.064760052152306,-0.0778111513609249,0.963721600760214,-0.0315617388199211,-0.301401,-21.517666
11.185,2.0,1.0,1.0,34.5,34.0,34.0,2.0,2.7,2.69,-0.07975938820201565,-0.07911824541971013,0.9617263809187964,-0.03359314521902244,-0.309201,-21.314616
11.185,2.0,1.0,1.0,34.5,34.0,34.0,2.0,2.7,2.6925,-0.09488979780692681,-0.0804344334941038,0.9594454110028472,-0.03571868526838794,-0.317321,-21.109493
11.185,2.0,1.0,1.0,34.5,34.0,34.0,2.0,2.7,2.695,-0.11014900572512852,-0.08175837790632333,0.9568688280141593,-0.03794302535149737,-0.32578,-20.902244
11.185,2.0,1.0,1.0,34.5,34.0,34.0,2.0,2.7,2.6975,-0.12553443861412414,-0.08308856464356884,0.9539863943202892,-0.04027109521282649,-0.334599,-20.692816
11.185,2.0,1.0,1.0,34.5,34.0,34.0,2.0,2.7,2.7,-0.1410431994249858,-0.08442328387439256,0.9507874800774251,-0.04270810469139967,-0.343797,-20.481152
11.185,2.0,1.0,1.0,34.5,34.0,34.0,2.0,2.7,2.7025,-0.15667203929466345,-0.08576060819873742,0.9472610446390362,-0.04525956157263239,-0.353399,-20.267193
11.185,2.0,1.0,1.0,34.5,34.0,34.0,2.0,2.7,2.705,-0.17241732664061415,-0.08709836834285094,0.9433956168963329,-0.04793129062096213,-0.363429,-20.050877
11.185,2.0,1.0,1.0,34.5,34.0,34.0,2.0,2.7,2.7075,-0.18827501312155492,-0.08843412597010465,0.9391792744982894,-0.0507294538544097,-0.373915,-19.832143
11.185,2.0,1.0,1.0,34.5,34.0,34.0,2.0,2.7,2.71,-0.204240596081632,-0.08976514323251363,0.9345996219024818,-0.053660572119100435,-0.384884,-19.610923
11.185,2.0,1.0,1.0,34.5,34.0,34.0,2.0,2.7,2.7125,-0.22030907704183672,-0.09108834863461321,0.9296437672138342,-0.05673154801631554,-0.396369,-19.387151
11.185,2.0,1.0,1.0,34.5,34.0,34.0,2.0,2.7,2.715,-0.23647491574089255,-0.09240029872006263,0.924298297777295,-0.05994969022612309,-0.408404,-19.160755
11.185,2.0,1.0,1.0,34.5,34.0,34.0,2.0,2.7,2.7175,-0.2527319791568745,-0.09369713502084764,0.9185492545033986,-0.06332273925915803,-0.421026,-18.93166
11.185,2.0,1.0,1.0,34.5,34.0,34.0,2.0,2.7,2.72,-0.2690734848589155,-0.09497453562756455,0.9123821049237538,-0.06685889465044409,-0.434274,-18.699792
11.185,2.0,1.0,1.0,34.5,34.0,34.0,2.0,2.7,2.7225,-0.28549193794399286,-0.09622766064541671,0.9057817149983256,-0.07056684358485071,-0.448194,-18.46507
11.185,2.0,1.0,1.0,34.5,34.0,34.0,2.0,2.7,2.725,-0.30197906070465214,-0.09745109069230153,0.8987323197297796,-0.0744557909109089,-0.462832,-18.227412
11.185,2.0,1.0,1.0,34.5,34.0,34.0,2.0,2.7,2.7275,-0.3185257140478437,-0.09863875747034892,0.8912174926845462,-0.07853549045589527,-0.478242,-17.986731
11.185,2.0,1.0,1.0,34.5,34.0,34.0,2.0,2.7,2.73,-0.33512180953968573,-0.09978386529809341,0.8832201145788556,-0.08281627749723738,-0.49448,-17.742939
11.185,2.0,1.0,1.0,34.5,34.0,34.0,2.0,2.7,2.7325,-0.35175621078351105,-0.10087880232408065,0.8747223411644639,-0.08730910216957823,-0.51161,-17.495943
11.185,2.0,1.0,1.0,34.5,34.0,34.0,2.0,2.7,2.735,-0.36841662264527486,-0.10191503995096135,0.8657055707483527,-0.09202556348825353,-0.529699,-17.245647
11.185,2.0,1.0,1.0,34.5,34.0,34.0,2.0,2.7,2.7375,-0.38508946661796245,-0.10288301877829599,0.8561504118094598,-0.09697794354232957,-0.548824,-16.991951
11.185,2.0,1.0,1.0,34.5,34.0,34.0,2.0,2.7,2.74,-0.401759740360724,-0.1037720191184272,0.8460366513415117,-0.10217924124570463,-0.569069,-16.734751
11.185,2.0,1.0,1.0,34.5,34.0,34.0,2.0,2.7,2.7425,-0.4184108591549753,-0.10457001384857557,0.835343224764531,-0.10764320482309638,-0.590524,-16.473941
11.185,2.0,1.0,1.0,34.5,34.0,34.0,2.0,2.7,2.745,-0.4350244766838849,-0.10526350102924029,0.8240481885212612,-0.11338436193621675,-0.613293,-16.209408
11.185,2.0,1.0,1.0,34.5,34.0,34.0,2.0,2.7,2.7475,-0.45158028215915247,-0.10583731333962362,0.8121286968251215,-0.11941804600789346,-0.637488,-15.94104
11.185,2.0,1.0,1.0,34.5,34.0,34.0,2.0,2.7,2.75,-0.468055770385486,-0.106274400950929,0.799560984473886,-0.125760416857829,-0.663235,-15.668716
11.185,2.0,1.0,1.0,34.5,34.0,34.0,2.0,2.7,2.7525,-0.48442598086540745,-0.10655558397476046,0.7863203582144417,-0.13242847319704387,-0.690671,-15.392315
11.185,2.0,1.0,1.0,34.5,34.0,34.0,2.0,2.7,2.755,-0.5006632015033275,-0.10665927008488037,0.7723811998717677,-0.13944005380600602,-0.719954,-15.111712
11.185,2.0,1.0,1.0,34.5,34.0,34.0,2.0,2.7,2.7575,-0.5167366318696073,-0.10656113231753815,0.7577169853816037,-0.14681382330245046,-0.751256,-14.826777
11.185,2.0,1.0,1.0,34.5,34.0,34.0,2.0,2.7,2.76,-0.5326120003384933,-0.10623374141456786,0.7423003250439979,-0.15456923723658836,-0.784772,-14.53738
11.185,2.0,1.0,1.0,34.5,34.0,34.0,2.0,2.7,2.7625,-0.548251128732253,-0.10564614639795789,0.7261030318100336,-0.16272647976822793,-0.82072,-14.243387
11.185,2.0,1.0,1.0,34.5,34.0,34.0,2.0,2.7,2.765,-0.5636114374124241,-0.10476339637948816,0.7090962263095926,-0.17130636530006182,-0.859345,-13.944661
11.185,2.0,1.0,1.0,34.5,34.0,34.0,2.0,2.7,2.7675,-0.5786453831002386,-0.10354599595637737,0.6912504897266019,-0.1803301930622278,-0.900923,-13.641068
11.185,2.0,1.0,1.0,34.5,34.0,34.0,2.0,2.7,2.77,-0.5932998211497159,-0.10194928599056348,0.6725360786566166,-0.1898195406394427,-0.945768,-13.33247
11.185,2.0,1.0,1.0,34.5,34.0,34.0,2.0,2.7,2.7725,-0.6075152836432283,-0.099922741219358,0.6529232198941534,-0.19979597865071697,-0.994234,-13.018735
11.185,2.0,1.0,1.0,34.5,34.0,34.0,2.0,2.7,2.775,-0.6212251646887131,-0.09740917615518346,0.632382507878886,-0.2102806840491097,-1.046723,-12.69973
11.185,2.0,1.0,1.0,34.5,34.0,34.0,2.0,2.7,2.7775,-0.6343548049042597,-0.0943438513342429,0.6108854334981481,-0.22129392358987632,-1.103695,-12.375333
11.185,2.0,1.0,1.0,34.5,34.0,34.0,2.0,2.7,2.78,-0.6468204686212553,-0.09065347350690639,0.58840508034479,-0.23285437167474693,-1.165673,-12.045426
11.185,2.0,1.0,1.0,34.5,34.0,34.0,2.0,2.7,2.7825,-0.6585282103134027,-0.0862550863139303,0.5649170336315377,-0.24497821775319148,-1.233258,-11.709906
11.185,2.0,1.0,1.0,34.5,34.0,34.0,2.0,2.7,2.785,-0.6693726318645301,-0.08105485305478057,0.5404005580294228,-0.2576780074863484,-1.30714,-11.368685
11.185,2.0,1.0,1.0,34.5,34.0,34.0,2.0,2.7,2.7875,-0.6792355405022956,-0.07494674129829071,0.5148401139466728,-0.2709611487396574,-1.388115,-11.021698
11.185,2.0,1.0,1.0,34.5,34.0,34.0,2.0,2.7,2.79,-0.6879845299003674,-0.06781113165207922,0.48822729728660585,-0.2848279980752072,-1.4771,-10.668908
11.185,2.0,1.0,1.0,34.5,34.0,34.0,2.0,2.7,2.7925,-0.6954715259232154,-0.05951339181491683,0.46056330534935364,-0.2992694259319097,-1.575161,-10.310315
11.185,2.0,1.0,1.0,34.5,34.0,34.0,2.0,2.7,2.795,-0.7015313661911664,-0.0499024844998147,0.43186205062069427,-0.3142637397558157,-1.683534,-9.945966
11.185,2.0,1.0,1.0,34.5,34.0,34.0,2.0,2.7,2.7975,-0.7059805222180955,-0.03880971704770752,0.402154063242139,-0.3297728254402885,-1.803663,-9.575965
11.185,2.0,1.0,1.0,34.5,34.0,34.0,2.0,2.7,2.8,-0.7086161282036333,-0.02604779540200952,0.3714913391425157,-0.34573735136670736,-1.937232,-9.200493
11.185,2.0,1.0,1.0,34.5,34.0,34.0,2.0,2.7,2.8025,-0.7092155561556109,-0.011410420054885677,0.33995329917280886,-0.3620708710153362,-2.086217,-8.819817
11.185,2.0,1.0,1.0,34.5,34.0,34.0,2.0,2.7,2.805,-0.7075368775730455,0.005327238735808352,0.3076540169748786,-0.3786526676167767,-2.252937,-8.43432
11.185,2.0,1.0,1.0,34.5,34.0,34.0,2.0,2.7,2.8075,-0.7033206812808418,0.0244067209082185,0.27475083702953157,-0.3953192202235294,-2.440124,-8.044519
11.185,2.0,1.0,1.0,34.5,34.0,34.0,2.0,2.7,2.81,-0.6962938761161097,0.04608248843039021,0.24145442055977331,-0.41185425354015137,-2.650999,-7.651095
11.185,2.0,1.0,1.0,34.5,34.0,34.0,2.0,2.7,2.8125,-0.686176290413457,0.0706153639886278,0.208040099429637,-0.427977489906772,-2.889367,-7.254929
11.185,2.0,1.0,1.0,34.5,34.0,34.0,2.0,2.7,2.815,-0.6726910695501003,0.09826220374184501,0.17486015285192585,-0.4433324847099835,-3.159725,-6.857131
11.185,2.0,1.0,1.0,34.5,34.0,34.0,2.0,2.7,2.8175,-0.6555800289758563,0.12926065636734285,0.14235620937750268,-0.45747433508058427,-3.467388,-6.459087
11.185,2.0,1.0,1.0,34.5,34.0,34.0,2.0,2.7,2.82,-0.6346251716726874,0.1638078092523,0.11107038116014527,-0.4698586418555657,-3.818622,-6.062491
11.185,2.0,1.0,1.0,34.5,34.0,34.0,2.0,2.7,2.8225,-0.6096774108813842,0.2020316888564555,0.08165294406650818,-0.479833891155988,-4.22079,-5.669388
11.185,2.0,1.0,1.0,34.5,34.0,34.0,2.0,2.7,2.825,-0.580692987925063,0.2439551277835525,0.05486342498936891,-0.4866403658376315,-4.682474,-5.282201
11.185,2.0,1.0,1.0,34.5,34.0,34.0,2.0,2.7,2.8275,-0.5477769439155521,0.2894526313470514,0.03156098869449421,-0.489419657937004,-5.213532,-4.903749
11.185,2.0,1.0,1.0,34.5,34.0,34.0,2.0,2.7,2.83,-0.5112311155517596,0.3382027474200846,0.012679332837878733,-0.487239531785202,-5.824984,-4.537246
