1,w,sub_t,h,l1,l2,l3,g1,g2,Freq,S11_re,S21_re,S11_img,S21_img,S11_dB,S21_dB
11.185,2.0,1.0,1.0,34.2,34.9,34.9,3.1,3.9,2.5,0.748660952445902,-0.0110821549986635,0.650456050510394,0.00529703388120806,-0.071875,-38.213893
11.185,2.0,1.0,1.0,34.2,34.9,34.9,3.1,3.9,2.5025,0.7435703289356355,-0.011309163288537668,0.6561152587042658,0.005289425710762323,-0.072768,-38.07223
11.185,2.0,1.0,1.0,34.2,34.9,34.9,3.1,3.9,2.505,0.7384082140459187,-0.01154119270498957,0.6617631996860653,0.005279926963829845,-0.073682,-37.929671
11.185,2.0,1.0,1.0,34.2,34.9,34.9,3.1,3.9,2.5075,0.7331737795235748,-0.011778393903146774,0.6673992969138296,0.005268452116663709,-0.074617,-37.786193
11.185,2.0,1.0,1.0,34.2,34.9,34.9,3.1,3.9,2.51,0.7278661815086677,-0.012020923819118946,0.6730229554518412,0.005254911370398183,-0.075574,-37.64177
11.185,2.0,1.0,1.0,34.2,34.9,34.9,3.1,3.9,2.5125,0.7224845601004384,-0.012268946008536886,0.6786335612891847,0.005239210390966746,-0.076553,-37.496377
11.185,2.0,1.0,1.0,34.2,34.9,34.9,3.1,3.9,2.515,0.7170280389017183,-0.012522631007426887,0.6842304806264907,0.005221250029953243,-0.077556,-37.349987
11.185,2.0,1.0,1.0,34.2,34.9,34.9,3.1,3.9,2.5175,0.7114957245401952,-0.012782156717155142,0.6898130591287926,0.005200926024729064,-0.078583,-37.202574
11.185,2.0,1.0,1.0,34.2,34.9,34.9,3.1,3.9,2.52,0.7058867061647272,-0.013047708815332163,0.6953806211422847,0.005178128676065379,-0.079636,-37.054109
11.185,2.0,1.0,1.0,34.2,34.9,34.9,3.1,3.9,2.5225,0.7002000549147734,-0.013319481194736126,0.7009324688725185,0.005152742501227114,-0.080714,-36.904564
11.185,2.0,1.0,1.0,34.2,34.9,34.9,3.1,3.9,2.525,0.6944348233607776,-0.013597676432503142,0.7064678815214113,0.005124645860352137,-0.08182,-36.753908
11.185,2.0,1.0,1.0,34.2,34.9,34.9,3.1,3.9,2.5275,0.6885900449131699,-0.013882506292037487,0.7119861143801552,0.005093710553692533,-0.082954,-36.602111
11.185,2.0,1.0,1.0,34.2,34.9,34.9,3.1,3.9,2.53,0.6826647331974195,-0.014174192260323163,0.7174863978748593,0.0050598013870418405,-0.084116,-36.449139
11.185,2.0,1.0,1.0,34.2,34.9,34.9,3.1,3.9,2.5325,0.6766578813923125,-0.014472966123569997,0.7229679365614646,0.00502277570238911,-0.085309,-36.294961
11.185,2.0,1.0,1.0,34.2,34.9,34.9,3.1,3.9,2.535,0.670568461528353,-0.01477907058440635,0.7284299080661171,0.004982482870523803,-0.086533,-36.139542
11.185,2.0,1.0,1.0,34.2,34.9,34.9,3.1,3.9,2.5375,0.6643954237428891,-0.015092759924136983,0.7338714619668169,0.004938763741960409,-0.08779,-35.982846
11.185,2.0,1.0,1.0,34.2,34.9,34.9,3.1,3.9,2.54,0.6581376954882107,-0.015414300713927824,0.7392917186117435,0.004891450052152801,-0.08908,-35.824836
11.185,2.0,1.0,1.0,34.2,34.9,34.9,3.1,3.9,2.5425,0.6517941806884886,-0.01574397257915718,0.7446897678691834,0.004840363776519894,-0.090406,-35.665473
11.185,2.0,1.0,1.0,34.2,34.9,34.9,3.1,3.9,2.545,0.6453637588410062,-0.01608206902159219,0.7500646678034518,0.00478531643029954,-0.091768,-35.504719
11.185,2.0,1.0,1.0,34.2,34.9,34.9,3.1,3.9,2.5475,0.6388452840566691,-0.01642889830451867,0.7554154432706031,0.004726108307678206,-0.093168,-35.342532
11.185,2.0,1.0,1.0,34.2,34.9,34.9,3.1,3.9,2.55,0.6322375840342292,-0.016784784406470535,0.760741084427077,0.004662527654001073,-0.094608,-35.178869
11.185,2.0,1.0,1.0,34.2,34.9,34.9,3.1,3.9,2.5525,0.6255394589621169,-0.017150068049783807,0.7660405451436268,0.0045943497641404586,-0.096089,-35.013685
11.185,2.0,1.0,1.0,34.2,34.9,34.9,3.1,3.9,2.555,0.6187496803410746,-0.017525107810848713,0.7713127413160683,0.004521335999276368,-0.097613,-34.846934
11.185,2.0,1.0,1.0,34.2,34.9,34.9,3.1,3.9,2.5575,0.6118669897200814,-0.017910281319650088,0.7765565490633847,0.0044432327134088035,-0.099182,-34.678567
11.185,2.0,1.0,1.0,34.2,34.9,34.9,3.1,3.9,2.56,0.6048900973372449,-0.018305986556995946,0.7817708028026418,0.004359770079859026,-0.100798,-34.508535
11.185,2.0,1.0,1.0,34.2,34.9,34.9,3.1,3.9,2.5625,0.5978176806563956,-0.01871264325873346,0.7869542931889092,0.004270660806807738,-0.102464,-34.336785
11.185,2.0,1.0,1.0,34.2,34.9,34.9,3.1,3.9,2.565,0.5906483827891092,-0.019130694437263177,0.7921057649069763,0.004175598729538733,-0.10418,-34.163263
11.185,2.0,1.0,1.0,34.2,34.9,34.9,3.1,3.9,2.5675,0.5833808107907243,-0.019560608031794838,0.797223914299999,0.004074257265480802,-0.105951,-33.98791
11.185,2.0,1.0,1.0,34.2,34.9,34.9,3.1,3.9,2.57,0.5760135338176174,-0.020002878700061726,0.8023073868184086,0.003966287716336518,-0.107777,-33.810669
11.185,2.0,1.0,1.0,34.2,34.9,34.9,3.1,3.9,2.5725,0.5685450811315389,-0.02045802976564109,0.8073547742702429,0.003851317399517524,-0.109663,-33.631475
11.185,2.0,1.0,1.0,34.2,34.9,34.9,3.1,3.9,2.575,0.5609739399351608,-0.02092661533664091,0.8123646118516445,0.0037289475887285106,-0.111611,-33.450266
11.185,2.0,1.0,1.0,34.2,34.9,34.9,3.1,3.9,2.5775,0.5532985530211394,-0.0214092226133271,0.8173353749334856,0.0035987512408044496,-0.113624,-33.266972
11.185,2.0,1.0,1.0,34.2,34.9,34.9,3.1,3.9,2.58,0.5455173162148853,-0.02190647440431884,0.8222654755768078,0.003460270482746813,-0.115705,-33.081522
11.185,2.0,1.0,1.0,34.2,34.9,34.9,3.1,3.9,2.5825,0.5376285755888462,-0.022419031873293065,0.827153258746077,0.003313013829252127,-0.117859,-32.893842
11.185,2.0,1.0,1.0,34.2,34.9,34.9,3.1,3.9,2.585,0.529630624423446,-0.022947597540762973,0.8319969981849155,0.0031564530967938377,-0.120088,-32.703854
11.185,2.0,1.0,1.0,34.2,34.9,34.9,3.1,3.9,2.5875,0.5215216998867392,-0.02349291856846292,0.836794891913957,0.0029900199754023943,-0.122397,-32.511475
11.185,2.0,1.0,1.0,34.2,34.9,34.9,3.1,3.9,2.59,0.5132999794014035,-0.02405579035723977,0.8415450573046538,0.002813102213566262,-0.12479,-32.316619
11.185,2.0,1.0,1.0,34.2,34.9,34.9,3.1,3.9,2.5925,0.504963576663736,-0.024637060493175808,0.8462455256760717,0.0026250393649981814,-0.127272,-32.119196
11.185,2.0,1.0,1.0,34.2,34.9,34.9,3.1,3.9,2.595,0.4965105372748664,-0.025237633081013355,0.8508942363537353,0.002425118038199909,-0.129849,-31.919111
11.185,2.0,1.0,1.0,34.2,34.9,34.9,3.1,3.9,2.5975,0.4879388339392629,-0.02585847350890006,0.8554890301203194,0.0022125665805963813,-0.132525,-31.716262
11.185,2.0,1.0,1.0,34.2,34.9,34.9,3.1,3.9,2.6,0.47924636117982644,-0.02650061369410885,0.8600276419769949,0.0019865491182383837,-0.135308,-31.510545
11.185,2.0,1.0,1.0,34.2,34.9,34.9,3.1,3.9,2.6025,0.4704309295122258,-0.02716515786581291,0.8645076931213708,0.0017461588593715304,-0.138202,-31.301848
11.185,2.0,1.0,1.0,34.2,34.9,34.9,3.1,3.9,2.605,0.4614902590135163,-0.027853288948332718,0.8689266820327287,0.0014904105551519415,-0.141216,-31.090053
11.185,2.0,1.0,1.0,34.2,34.9,34.9,3.1,3.9,2.6075,0.4524219722114613,-0.028566275616649615,0.8732819745371677,0.0012182319929833975,-0.144356,-30.875036
11.185,2.0,1.0,1.0,34.2,34.9,34.9,3.1,3.9,2.61,0.44322358621103314,-0.029305480105556947,0.8775707927038343,0.0009284543767740734,-0.147633,-30.656666
11.185,2.0,1.0,1.0,34.2,34.9,34.9,3.1,3.9,2.6125,0.43389250396322593,-0.030072366864769603,0.8817902023977789,0.0006198014231488476,-0.151053,-30.434803
11.185,2.0,1.0,1.0,34.2,34.9,34.9,3.1,3.9,2.615,0.4244260045683237,-0.030868512164835483,0.885937099284366,0.00029087697242135126,-0.154628,-30.2093
11.185,2.0,1.0,1.0,34.2,34.9,34.9,3.1,3.9,2.6175,0.4148212324909043,-0.031695614773009285,0.8900081930433766,-5.9849123167767e-05,-0.158368,-29.980001
11.185,2.0,1.0,1.0,34.2,34.9,34.9,3.1,3.9,2.62,0.4050751855468248,-0.03255550783461892,0.8939999895066691,-0.00043405711517124587,-0.162286,-29.746739
11.185,2.0,1.0,1.0,34.2,34.9,34.9,3.1,3.9,2.6225,0.3951847015029616,-0.03345017211413995,0.8979087703797128,-0.0008335958127088825,-0.166394,-29.509337
11.185,2.0,1.0,1.0,34.2,34.9,34.9,3.1,3.9,2.625,0.385146443108292,-0.0343817507714965,0.901730570142364,-0.00126050377254092,-0.170707,-29.267607
11.185,2.0,1.0,1.0,34.2,34.9,34.9,3.1,3.9,2.6275,0.37495688134951716,-0.035352565873339604,0.9054611496451603,-0.0017170337018266207,-0.175241,-29.021349
11.185,2.0,1.0,1.0,34.2,34.9,34.9,3.1,3.9,2.63,0.3646122766957041,-0.03636513686650419,0.9090959658206901,-0.002205680645493147,-0.180014,-28.770348
11.185,2.0,1.0,1.0,34.2,34.9,34.9,3.1,3.9,2.6325,0.3541086580638669,-0.037422201271813914,0.9126301368108767,-0.0027292146474383753,-0.185045,-28.514375
11.185,2.0,1.0,1.0,34.2,34.9,34.9,3.1,3.9,2.635,0.34344179920085377,-0.03852673789106522,0.9160584016646639,-0.0032907187193993255,-0.190358,-28.253186
11.185,2.0,1.0,1.0,34.2,34.9,34.9,3.1,3.9,2.6375,0.33260719213620504,-0.03968199285846257,0.9193750735793462,-0.0038936331303745914,-0.195975,-27.986518
11.185,2.0,1.0,1.0,34.2,34.9,34.9,3.1,3.9,2.64,0.3216000173158473,-0.040891508909792845,0.9225739854333953,-0.004541807252199998,-0.201925,-27.714088
11.185,2.0,1.0,1.0,34.2,34.9,34.9,3.1,3.9,2.6425,0.3104151099782328,-0.04215915828760212,0.925648426076935,-0.00523956047517066,-0.208239,-27.435595
11.185,2.0,1.0,1.0,34.2,34.9,34.9,3.1,3.9,2.645,0.29904692228381324,-0.04348917974727559,0.9285910654922949,-0.005991754057044939,-0.214952,-27.15071
11.185,2.0,1.0,1.0,34.2,34.9,34.9,3.1,3.9,2.6475,0.28748948065794017,-0.0448862201748094,0.9313938664906333,-0.006803876209734097,-0.222102,-26.859082
11.185,2.0,1.0,1.0,34.2,34.9,34.9,3.1,3.9,2.65,0.2757363377602678,-0.046355381368050154,0.9340479800442819,-0.0076821432873396284,-0.229736,-26.560331
11.185,2.0,1.0,1.0,34.2,34.9,34.9,3.1,3.9,2.6525,0.2637805184571993,-0.04790227256238787,0.9365436206320475,-0.00863362065252806,-0.237903,-26.254043
11.185,2.0,1.0,1.0,34.2,34.9,34.9,3.1,3.9,2.655,0.25161445915851355,-0.049533069288207277,0.9388699170482171,-0.00966636771296589,-0.246663,-25.939773
11.185,2.0,1.0,1.0,34.2,34.9,34.9,3.1,3.9,2.6575,0.23922993990262711,-0.05125457911304698,0.9410147329308189,-0.010789612799213049,-0.256082,-25.617033
11.185,2.0,1.0,1.0,34.2,34.9,34.9,3.1,3.9,2.66,0.22661800866438725,-0.053074314718327124,0.9429644497139053,-0.012013965085789273,-0.266238,-25.285296
11.185,2.0,1.0,1.0,34.2,34.9,34.9,3.1,3.9,2.6625,0.2137688975586555,-0.05500057454442603,0.9447037026841302,-0.013351672754243718,-0.277221,-24.943983
11.185,2.0,1.0,1.0,34.2,34.9,34.9,3.1,3.9,2.665,0.20067193099103547,-0.057042530839259385,0.9462150581627702,-0.014816939219403143,-0.289134,-24.592462
11.185,2.0,1.0,1.0,34.2,34.9,34.9,3.1,3.9,2.6675,0.18731542647281227,-0.05921032425481441,0.9474786163195582,-0.01642631270475195,-0.302102,-24.230041
11.185,2.0,1.0,1.0,34.2,34.9,34.9,3.1,3.9,2.67,0.173686589942462,-0.06151516298047244,0.9484715194497175,-0.01819916905949829,-0.316267,-23.855959
11.185,2.0,1.0,1.0,34.2,34.9,34.9,3.1,3.9,2.6725,0.15977140929452965,-0.0639694225073326,0.9491673392881168,-0.020158313872757756,-0.331801,-23.469376
11.185,2.0,1.0,1.0,34.2,34.9,34.9,3.1,3.9,2.675,0.14555455284503963,-0.06658673904715108,0.9495353085076003,-0.022330738235340694,-0.348908,-23.069368
11.185,2.0,1.0,1.0,34.2,34.9,34.9,3.1,3.9,2.6775,0.13101928436326704,-0.06938208468139488,0.9495393501337899,-0.024748573728757016,-0.367833,-22.65491
11.185,2.0,1.0,1.0,34.2,34.9,34.9,3.1,3.9,2.68,0.1161474142110892,-0.07237180435509455,0.9491368430652657,-0.02745030750069426,-0.388871,-22.224864
11.185,2.0,1.0,1.0,34.2,34.9,34.9,3.1,3.9,2.6825,0.10091931891396837,-0.07557358200372369,0.948277040630899,-0.03048233916498017,-0.412383,-21.777966
11.185,2.0,1.0,1.0,34.2,34.9,34.9,3.1,3.9,2.685,0.0853140822119441,-0.07900628235599995,0.9468990299627893,-0.033900989869406754,-0.438814,-21.312809
11.185,2.0,1.0,1.0,34.2,34.9,34.9,3.1,3.9,2.6875,0.0693098444212281,-0.0826895812095636,0.944929079965341,-0.0377751130720484,-0.468713,-20.82782
11.185,2.0,1.0,1.0,34.2,34.9,34.9,3.1,3.9,2.69,0.05288450239056037,-0.08664324168498175,0.9422771709812934,-0.04218951006669217,-0.502768,-20.321243
11.185,2.0,1.0,1.0,34.2,34.9,34.9,3.1,3.9,2.6925,0.03601699411157446,-0.09088580261075851,0.93883242527233,-0.04724942553060834,-0.541851,-19.791112
11.185,2.0,1.0,1.0,34.2,34.9,34.9,3.1,3.9,2.695,0.01868955529523762,-0.09543229288360233,0.9344570595451402,-0.053086493644512886,-0.587076,-19.235235
11.185,2.0,1.0,1.0,34.2,34.9,34.9,3.1,3.9,2.6975,0.0008915935005653799,-0.10029032934982195,0.9289783570813249,-0.05986662511126763,-0.639884,-18.651168
11.185,2.0,1.0,1.0,34.2,34.9,34.9,3.1,3.9,2.7,-0.017373735555065172,-0.10545352071173131,0.9221780159028977,-0.06780046074489086,-0.702163,-18.036207
11.185,2.0,1.0,1.0,34.2,34.9,34.9,3.1,3.9,2.7025,-0.03607841339583643,-0.11089035645369541,0.913778108678154,-0.07715712960129824,-0.77642,-17.387397
11.185,2.0,1.0,1.0,34.2,34.9,34.9,3.1,3.9,2.705,-0.05515077964045337,-0.11652548537490952,0.9034229050066798,-0.0882820229195718,-0.866023,-16.701568
11.185,2.0,1.0,1.0,34.2,34.9,34.9,3.1,3.9,2.7075,-0.07444375723849143,-0.12220811441668426,0.8906562659384507,-0.10161882107896135,-0.975563,-15.975459
11.185,2.0,1.0,1.0,34.2,34.9,34.9,3.1,3.9,2.71,-0.09368105644516984,-0.12765862410490583,0.8748960005425647,-0.11773431698047934,-1.111361,-15.205961
11.185,2.0,1.0,1.0,34.2,34.9,34.9,3.1,3.9,2.7125,-0.11236645328163937,-0.13237873347403203,0.8554113466455795,-0.13733981038156748,-1.2822,-14.390615
11.185,2.0,1.0,1.0,34.2,34.9,34.9,3.1,3.9,2.715,-0.1296330533330381,-0.13550257361212117,0.8313219030385263,-0.16129075412119334,-1.500276,-13.528552
11.185,2.0,1.0,1.0,34.2,34.9,34.9,3.1,3.9,2.7175,-0.1440023173174884,-0.13555924477033335,0.8016649963414265,-0.19051795793467813,-1.782223,-12.622239
11.185,2.0,1.0,1.0,34.2,34.9,34.9,3.1,3.9,2.72,-0.15303302496126764,-0.13012826784800777,0.7656394926003977,-0.22578346169468352,-2.149387,-11.680564
11.185,2.0,1.0,1.0,34.2,34.9,34.9,3.1,3.9,2.7225,-0.15292329634507398,-0.11545225856375704,0.7232403538826754,-0.2670499449930036,-2.624399,-10.723992
11.185,2.0,1.0,1.0,34.2,34.9,34.9,3.1,3.9,2.725,-0.1384170113762221,-0.08635675343310427,0.6765915743084133,-0.3121629748989716,-3.215404,-9.792112
11.185,2.0,1.0,1.0,34.2,34.9,34.9,3.1,3.9,2.7275,-0.10400187223203633,-0.037452861243124094,0.6320121074966834,-0.35482095019212956,-3.869454,-8.951695
11.185,2.0,1.0,1.0,34.2,34.9,34.9,3.1,3.9,2.73,-0.047851152981101805,0.03295604451955672,0.6013545398160347,-0.3832887362850958,-4.389976,-8.29749
11.185,2.0,1.0,1.0,34.2,34.9,34.9,3.1,3.9,2.7325,0.022266167502994223,0.11706617844048306,0.5986205655910481,-0.3837959173968267,-4.450963,-7.931639
11.185,2.0,1.0,1.0,34.2,34.9,34.9,3.1,3.9,2.735,0.08815169884002372,0.19684130229059116,0.6299945950676937,-0.3503915997384615,-3.929055,-7.917716
11.185,2.0,1.0,1.0,34.2,34.9,34.9,3.1,3.9,2.7375,0.13164454021804092,0.2544202559682148,0.6867274466324184,-0.2918792932035592,-3.107579,-8.241312
11.185,2.0,1.0,1.0,34.2,34.9,34.9,3.1,3.9,2.74,0.14639135910320886,0.2836868110498676,0.7516298516154832,-0.22529203845856596,-2.318224,-8.819513
11.185,2.0,1.0,1.0,34.2,34.9,34.9,3.1,3.9,2.7425,0.13754498475889967,0.2898616724323345,0.8109675715219012,-0.16414162593685022,-1.696763,-9.548247
11.185,2.0,1.0,1.0,34.2,34.9,34.9,3.1,3.9,2.745,0.1140152772930663,0.2818048487532141,0.8588421371234454,-0.11416193685415402,-1.245861,-10.341076
11.185,2.0,1.0,1.0,34.2,34.9,34.9,3.1,3.9,2.7475,0.08314774975934507,0.2667794142634466,0.894851672488673,-0.07566981669863346,-0.927644,-11.140896
11.185,2.0,1.0,1.0,34.2,34.9,34.9,3.1,3.9,2.75,0.0495262495024542,0.249298784329149,0.920844788470323,-0.0467836417172632,-0.703727,-11.915284
11.185,2.0,1.0,1.0,34.2,34.9,34.9,3.1,3.9,2.7525,0.015591978668767242,0.231755773414622,0.9390602851770637,-0.025255573655928017,-0.544933,-12.648118
11.185,2.0,1.0,1.0,34.2,34.9,34.9,3.1,3.9,2.755,-0.017513498971196195,0.21526209704154592,0.9514282728932049,-0.009154121242520848,-0.431008,-13.332802
11.185,2.0,1.0,1.0,34.2,34.9,34.9,3.1,3.9,2.7575,-0.049348297369181046,0.20024251468425222,0.9594272424755363,0.003000349861196928,-0.348285,-13.967899
11.185,2.0,1.0,1.0,34.2,34.9,34.9,3.1,3.9,2.76,-0.07981909789110916,0.186781275498265,0.9641350326032645,0.012289366179625031,-0.287578,-14.554573
11.185,2.0,1.0,1.0,34.2,34.9,34.9,3.1,3.9,2.7625,-0.10899310350349595,0.17480705760308157,0.96632159436729,0.019489876865827985,-0.242664,-15.095167
11.185,2.0,1.0,1.0,34.2,34.9,34.9,3.1,3.9,2.765,-0.13700230350995393,0.16418678233024914,0.9665332606448762,0.025158540547981355,-0.209271,-15.592443
11.185,2.0,1.0,1.0,34.2,34.9,34.9,3.1,3.9,2.7675,-0.16399673277135754,0.15477120584885473,0.9651574313267008,0.02969622208620025,-0.184424,-16.049185
11.185,2.0,1.0,1.0,34.2,34.9,34.9,3.1,3.9,2.77,-0.19012287713492926,0.14641583768865013,0.9624690933121628,0.03339432877476189,-0.166022,-16.467999
11.185,2.0,1.0,1.0,34.2,34.9,34.9,3.1,3.9,2.7725,-0.21551468459270784,0.1389895367771354,0.9586633823935821,0.0364672648265229,-0.152558,-16.85123
11.185,2.0,1.0,1.0,34.2,34.9,34.9,3.1,3.9,2.775,-0.2402907300390256,0.13237712224804798,0.9538781519689663,0.03907498737210139,-0.142937,-17.200923
11.185,2.0,1.0,1.0,34.2,34.9,34.9,3.1,3.9,2.7775,-0.26455425630025664,0.12647920796194662,0.9482095912808965,0.04133870729901778,-0.136357,-17.518825
11.185,2.0,1.0,1.0,34.2,34.9,34.9,3.1,3.9,2.78,-0.2883944474625756,0.12121086389084149,0.9417230556047451,0.04335189459281152,-0.132221,-17.806392
11.185,2.0,1.0,1.0,34.2,34.9,34.9,3.1,3.9,2.7825,-0.31188812574049346,0.11649988826978168,0.9344605950684881,0.04518807412931142,-0.130086,-18.064807
11.185,2.0,1.0,1.0,34.2,34.9,34.9,3.1,3.9,2.785,-0.33510148807342743,0.11228505851381779,0.9264461898510985,0.04690642292437313,-0.129617,-18.294993
11.185,2.0,1.0,1.0,34.2,34.9,34.9,3.1,3.9,2.7875,-0.35809171290437253,0.10851451950043903,0.9176893712136979,0.04855585632357391,-0.130566,-18.497634
11.185,2.0,1.0,1.0,34.2,34.9,34.9,3.1,3.9,2.79,-0.38090837358243723,0.10514436407733412,0.908187685460462,0.050178073557508744,-0.132748,-18.673185
11.185,2.0,1.0,1.0,34.2,34.9,34.9,3.1,3.9,2.7925,-0.40359464514602844,0.1021374107782914,0.897928307249094,0.05180988840153404,-0.136028,-18.821882
11.185,2.0,1.0,1.0,34.2,34.9,34.9,3.1,3.9,2.795,-0.4261883129585954,0.09946216098967446,0.8868890055458382,0.053485074595866045,-0.140311,-18.943749
11.185,2.0,1.0,1.0,34.2,34.9,34.9,3.1,3.9,2.7975,-0.44872259868132963,0.0970919083275304,0.8750385935220433,0.055235892284691224,-0.145535,-19.038605
11.185,2.0,1.0,1.0,34.2,34.9,34.9,3.1,3.9,2.8,-0.47122681840526787,0.09500396947322058,0.8623369417305161,0.05709442060091618,-0.151669,-19.106062
11.185,2.0,1.0,1.0,34.2,34.9,34.9,3.1,3.9,2.8025,-0.49372688280413063,0.09317900423790941,0.8487345944162805,0.059093795971254685,-0.158704,-19.145523
11.185,2.0,1.0,1.0,34.2,34.9,34.9,3.1,3.9,2.805,-0.5162456412587499,0.09160039088470551,0.8341719964776891,0.061269441593448465,-0.166658,-19.156176
11.185,2.0,1.0,1.0,34.2,34.9,34.9,3.1,3.9,2.8075,-0.5388030611479946,0.09025361911500629,0.8185783094068746,0.0636603684546831,-0.175573,-19.136986
11.185,2.0,1.0,1.0,34.2,34.9,34.9,3.1,3.9,2.81,-0.5614162190600013,0.08912565608637905,0.8018697652064649,0.06631063112745589,-0.185514,-19.086679
11.185,2.0,1.0,1.0,34.2,34.9,34.9,3.1,3.9,2.8125,-0.584099060749731,0.088204228435218,0.783947474713362,0.0692710323612206,-0.196578,-19.003725
11.185,2.0,1.0,1.0,34.2,34.9,34.9,3.1,3.9,2.815,-0.6068618581895174,0.08747694265729138,0.7646945676650049,0.07260119012445064,-0.208893,-18.886317
11.185,2.0,1.0,1.0,34.2,34.9,34.9,3.1,3.9,2.8175,-0.6297102500496942,0.08693013279792995,0.7439724923233844,0.07637211119981066,-0.222626,-18.732341
11.185,2.0,1.0,1.0,34.2,34.9,34.9,3.1,3.9,2.82,-0.6526436883366638,0.0865472707757638,0.7216162376269925,0.08066945980179589,-0.237997,-18.539343
11.185,2.0,1.0,1.0,34.2,34.9,34.9,3.1,3.9,2.8225,-0.6756530154802137,0.08630668842450322,0.6974281543718938,0.08559777237637829,-0.255284,-18.304483
11.185,2.0,1.0,1.0,34.2,34.9,34.9,3.1,3.9,2.825,-0.6987167409012079,0.08617822057688165,0.671169935870548,0.09128595644475843,-0.274851,-18.02449
11.185,2.0,1.0,1.0,34.2,34.9,34.9,3.1,3.9,2.8275,-0.7217953368275548,0.0861181494174868,0.6425521635514153,0.09789452838862929,-0.297174,-17.695594
11.185,2.0,1.0,1.0,34.2,34.9,34.9,3.1,3.9,2.83,-0.7448224660282406,0.08606144964941191,0.6112206201888485,0.10562519687628077,-0.322877,-17.313459
