1,w,sub_t,h,l1,l2,l3,g1,g2,Freq,S11_re,S21_re,S11_img,S21_img,S11_dB,S21_dB
11.185,2.0,1.0,1.0,33.3,34.5,34.5,3.0,3.6,2.5,0.867716590261361,-0.00653010811352061,0.484072371095898,0.0054188915015471,-0.055693,-41.426271
11.185,2.0,1.0,1.0,33.3,34.5,34.5,3.0,3.6,2.5025,0.864530797696997,-0.006670020132248565,0.4896111649566465,0.005451155653592641,-0.056245,-41.295711
11.185,2.0,1.0,1.0,33.3,34.5,34.5,3.0,3.6,2.505,0.8612956150485388,-0.00681276937540341,0.49515098256471907,0.005483053245627242,-0.056808,-41.164652
11.185,2.0,1.0,1.0,33.3,34.5,34.5,3.0,3.6,2.5075,0.8580105337241017,-0.006958427428314008,0.500691639496669,0.005514561972525338,-0.057382,-41.033079
11.185,2.0,1.0,1.0,33.3,34.5,34.5,3.0,3.6,2.51,0.8546750355539047,-0.007107068301748996,0.5062329454524385,0.005545658501639734,-0.057967,-40.900978
11.185,2.0,1.0,1.0,33.3,34.5,34.5,3.0,3.6,2.5125,0.8512885925600029,-0.007258768535250663,0.5117747040436561,0.0055763184194595646,-0.058564,-40.768335
11.185,2.0,1.0,1.0,33.3,34.5,34.5,3.0,3.6,2.515,0.847850666718288,-0.007413607305782587,0.5173167125736864,0.005606516175084693,-0.059173,-40.635134
11.185,2.0,1.0,1.0,33.3,34.5,34.5,3.0,3.6,2.5175,0.844360709712394,-0.007571666542009562,0.5228587618090264,0.005636225020298042,-0.059794,-40.501361
11.185,2.0,1.0,1.0,33.3,34.5,34.5,3.0,3.6,2.52,0.8408181626790975,-0.007733031044552568,0.5284006357416469,0.005665416946000448,-0.060427,-40.367
11.185,2.0,1.0,1.0,33.3,34.5,34.5,3.0,3.6,2.5225,0.8372224559448103,-0.00789778861258543,0.5339421113418145,0.005694062614754239,-0.061074,-40.232035
11.185,2.0,1.0,1.0,33.3,34.5,34.5,3.0,3.6,2.525,0.8335730087526971,-0.008066030177163997,0.539482958300946,0.005722131289161853,-0.061734,-40.09645
11.185,2.0,1.0,1.0,33.3,34.5,34.5,3.0,3.6,2.5275,0.8298692289799505,-0.008237849941707079,0.5450229387639871,0.00574959075578326,-0.062407,-39.960229
11.185,2.0,1.0,1.0,33.3,34.5,34.5,3.0,3.6,2.53,0.8261105128447102,-0.00841334553007929,0.5505618070507808,0.005776407244272675,-0.063095,-39.823355
11.185,2.0,1.0,1.0,33.3,34.5,34.5,3.0,3.6,2.5325,0.8222962446020837,-0.008592618142756293,0.5560993093658663,0.005802545341388726,-0.063797,-39.68581
11.185,2.0,1.0,1.0,33.3,34.5,34.5,3.0,3.6,2.535,0.8184257962286797,-0.008775772721589222,0.5616351834961046,0.005827967899504031,-0.064514,-39.547576
11.185,2.0,1.0,1.0,33.3,34.5,34.5,3.0,3.6,2.5375,0.8144985270950452,-0.008962918123721832,0.5671691584954861,0.005852635939208519,-0.065247,-39.408637
11.185,2.0,1.0,1.0,33.3,34.5,34.5,3.0,3.6,2.54,0.8105137836253299,-0.009154167305256785,0.5727009543564346,0.005876508545568196,-0.065995,-39.268973
11.185,2.0,1.0,1.0,33.3,34.5,34.5,3.0,3.6,2.5425,0.8064708989434708,-0.009349637515306845,0.5782302816668784,0.005899542757562094,-0.06676,-39.128566
11.185,2.0,1.0,1.0,33.3,34.5,34.5,3.0,3.6,2.545,0.8023691925051357,-0.0095494505011216,0.5837568412523045,0.005921693450181389,-0.067541,-38.987395
11.185,2.0,1.0,1.0,33.3,34.5,34.5,3.0,3.6,2.5475,0.7982079697146071,-0.009753732725026092,0.5892803238019463,0.005942913208628885,-0.06834,-38.845442
11.185,2.0,1.0,1.0,33.3,34.5,34.5,3.0,3.6,2.55,0.7939865215257262,-0.009962615593966344,0.5948004094782261,0.0059631521940089255,-0.069157,-38.702686
11.185,2.0,1.0,1.0,33.3,34.5,34.5,3.0,3.6,2.5525,0.7897041240259671,-0.010176235702519461,0.6003167675084603,0.005982357999843785,-0.069992,-38.559105
11.185,2.0,1.0,1.0,33.3,34.5,34.5,3.0,3.6,2.555,0.785360038002616,-0.010394735090289198,0.6058290557578165,0.006000475498694277,-0.070847,-38.41468
11.185,2.0,1.0,1.0,33.3,34.5,34.5,3.0,3.6,2.5575,0.7809535084899749,-0.010618261514682611,0.611336920282394,0.006017446678097262,-0.071721,-38.269387
11.185,2.0,1.0,1.0,33.3,34.5,34.5,3.0,3.6,2.56,0.7764837642964231,-0.010846968740139728,0.6168399948612315,0.00603321046496145,-0.072616,-38.123204
11.185,2.0,1.0,1.0,33.3,34.5,34.5,3.0,3.6,2.5625,0.7719500175100689,-0.011081016844976973,0.6223379005059485,0.006047702537485323,-0.073531,-37.976108
11.185,2.0,1.0,1.0,33.3,34.5,34.5,3.0,3.6,2.565,0.7673514629816398,-0.011320572547093184,0.6278302449466349,0.006060855123573254,-0.074469,-37.828075
11.185,2.0,1.0,1.0,33.3,34.5,34.5,3.0,3.6,2.5675,0.7626872777831456,-0.011565809549893427,0.6333166220924695,0.006072596784632004,-0.075429,-37.67908
11.185,2.0,1.0,1.0,33.3,34.5,34.5,3.0,3.6,2.57,0.7579566206407299,-0.011816908909892915,0.6387966114654499,0.006082852183523385,-0.076412,-37.529099
11.185,2.0,1.0,1.0,33.3,34.5,34.5,3.0,3.6,2.5725,0.7531586313400087,-0.012074059427586404,0.644269777605474,0.006091541835332798,-0.077419,-37.378105
11.185,2.0,1.0,1.0,33.3,34.5,34.5,3.0,3.6,2.575,0.748292430102041,-0.012337458063298898,0.6497356694448551,0.006098581839484919,-0.078452,-37.226072
11.185,2.0,1.0,1.0,33.3,34.5,34.5,3.0,3.6,2.5775,0.7433571169279448,-0.012607310379878835,0.6551938196502062,0.006103883591594328,-0.07951,-37.072973
11.185,2.0,1.0,1.0,33.3,34.5,34.5,3.0,3.6,2.58,0.7383517709099886,-0.01288383101425204,0.6606437439294365,0.006107353473280872,-0.080595,-36.918779
11.185,2.0,1.0,1.0,33.3,34.5,34.5,3.0,3.6,2.5825,0.7332754495068119,-0.013167244180028107,0.6660849403014164,0.0061088925180043325,-0.081707,-36.76346
11.185,2.0,1.0,1.0,33.3,34.5,34.5,3.0,3.6,2.585,0.7281271877802423,-0.01345778420354013,0.6715168883256417,0.00610839605077647,-0.082849,-36.606987
11.185,2.0,1.0,1.0,33.3,34.5,34.5,3.0,3.6,2.5875,0.7229059975909342,-0.013755696095906843,0.6769390482889855,0.006105753299392388,-0.08402,-36.449329
11.185,2.0,1.0,1.0,33.3,34.5,34.5,3.0,3.6,2.59,0.7176108667498468,-0.014061236163933498,0.6823508603463629,0.0061008469745804685,-0.085223,-36.290454
11.185,2.0,1.0,1.0,33.3,34.5,34.5,3.0,3.6,2.5925,0.7122407581222847,-0.014374672662919152,0.6877517436118341,0.0060935528162001365,-0.086457,-36.130329
11.185,2.0,1.0,1.0,33.3,34.5,34.5,3.0,3.6,2.595,0.7067946086809694,-0.014696286494713082,0.6931410951963306,0.006083739102315694,-0.087725,-35.96892
11.185,2.0,1.0,1.0,33.3,34.5,34.5,3.0,3.6,2.5975,0.7012713285042599,-0.015026371954666983,0.6985182891878464,0.006071266117637446,-0.089028,-35.806191
11.185,2.0,1.0,1.0,33.3,34.5,34.5,3.0,3.6,2.6,0.695669799715318,-0.01536523753146154,0.7038826755694999,0.006055985577443883,-0.090367,-35.642106
11.185,2.0,1.0,1.0,33.3,34.5,34.5,3.0,3.6,2.6025,0.6899888753576237,-0.015713206764156246,0.7092335790704206,0.006037740002677122,-0.091743,-35.476627
11.185,2.0,1.0,1.0,33.3,34.5,34.5,3.0,3.6,2.605,0.6842273782018099,-0.01607061916121585,0.714570297943924,0.00601636204142868,-0.093159,-35.309716
11.185,2.0,1.0,1.0,33.3,34.5,34.5,3.0,3.6,2.6075,0.6783840994783382,-0.016437831186714977,0.7198921026668345,0.005991673731501034,-0.094615,-35.141332
11.185,2.0,1.0,1.0,33.3,34.5,34.5,3.0,3.6,2.61,0.6724577975300069,-0.016815217319418495,0.725198234553194,0.005963485698130426,-0.096114,-34.971433
11.185,2.0,1.0,1.0,33.3,34.5,34.5,3.0,3.6,2.6125,0.6664471963777222,-0.017203171190981824,0.7304879042748744,0.005931596280281776,-0.097658,-34.799976
11.185,2.0,1.0,1.0,33.3,34.5,34.5,3.0,3.6,2.615,0.6603509841923191,-0.017602106810124012,0.7357602902807955,0.005895790578165669,-0.099247,-34.626916
11.185,2.0,1.0,1.0,33.3,34.5,34.5,3.0,3.6,2.6175,0.6541678116645422,-0.01801245988029557,0.7410145371055361,0.005855839413765498,-0.100885,-34.452207
11.185,2.0,1.0,1.0,33.3,34.5,34.5,3.0,3.6,2.62,0.6478962902644975,-0.018434689219109006,0.7462497535571093,0.005811498195191279,-0.102574,-34.2758
11.185,2.0,1.0,1.0,33.3,34.5,34.5,3.0,3.6,2.6225,0.6415349903810421,-0.018869278288630206,0.7514650107725022,0.005762505674572615,-0.104315,-34.097645
11.185,2.0,1.0,1.0,33.3,34.5,34.5,3.0,3.6,2.625,0.635082439330633,-0.0193167368465408,0.756659340128263,0.00570858258795233,-0.106111,-33.91769
11.185,2.0,1.0,1.0,33.3,34.5,34.5,3.0,3.6,2.6275,0.6285371192240663,-0.01977760272921229,0.7618317309919431,0.005649430164218781,-0.107965,-33.735881
11.185,2.0,1.0,1.0,33.3,34.5,34.5,3.0,3.6,2.63,0.6218974646783971,-0.020252443778859437,0.7669811282984907,0.005584728488496153,-0.10988,-33.552162
11.185,2.0,1.0,1.0,33.3,34.5,34.5,3.0,3.6,2.6325,0.6151618603599894,-0.020741859928217234,0.772106429933784,0.0055141347035644675,-0.111859,-33.366474
11.185,2.0,1.0,1.0,33.3,34.5,34.5,3.0,3.6,2.635,0.6083286383432023,-0.021246485457587855,0.7772064839052847,0.005437281030770629,-0.113904,-33.178755
11.185,2.0,1.0,1.0,33.3,34.5,34.5,3.0,3.6,2.6375,0.6013960752675868,-0.021766991440685078,0.7822800852772971,0.00535377258947868,-0.116019,-32.988944
11.185,2.0,1.0,1.0,33.3,34.5,34.5,3.0,3.6,2.64,0.5943623892746268,-0.022304088397460384,0.7873259728454557,0.005263184991338401,-0.118207,-32.796972
11.185,2.0,1.0,1.0,33.3,34.5,34.5,3.0,3.6,2.6425,0.5872257367030724,-0.022858529174056872,0.7923428255217669,0.00516506168247354,-0.120473,-32.602772
11.185,2.0,1.0,1.0,33.3,34.5,34.5,3.0,3.6,2.645,0.5799842085195969,-0.023431112072239878,0.7973292583977747,0.0050589110030335935,-0.122821,-32.406271
11.185,2.0,1.0,1.0,33.3,34.5,34.5,3.0,3.6,2.6475,0.5726358264590145,-0.024022684253103457,0.8022838184490731,0.0049442029293366935,-0.125254,-32.207395
11.185,2.0,1.0,1.0,33.3,34.5,34.5,3.0,3.6,2.65,0.5651785388454078,-0.024634145442612162,0.8072049798393935,0.004820365458960964,-0.127778,-32.006063
11.185,2.0,1.0,1.0,33.3,34.5,34.5,3.0,3.6,2.6525,0.5576102160624057,-0.025266451969614537,0.8120911387766984,0.0046867805935051415,-0.130397,-31.802196
11.185,2.0,1.0,1.0,33.3,34.5,34.5,3.0,3.6,2.655,0.5499286456372102,-0.02592062117042255,0.8169406078670425,0.0045427798672010794,-0.133118,-31.595705
11.185,2.0,1.0,1.0,33.3,34.5,34.5,3.0,3.6,2.6575,0.5421315268990518,-0.026597736197924274,0.8217516099041718,0.004387639361960579,-0.135945,-31.386502
11.185,2.0,1.0,1.0,33.3,34.5,34.5,3.0,3.6,2.66,0.5342164651682373,-0.02729895127754126,0.8265222710238113,0.004220574140587765,-0.138886,-31.174493
11.185,2.0,1.0,1.0,33.3,34.5,34.5,3.0,3.6,2.6625,0.5261809654269798,-0.028025497457209968,0.8312506131410413,0.004040732019550985,-0.141946,-30.959578
11.185,2.0,1.0,1.0,33.3,34.5,34.5,3.0,3.6,2.665,0.5180224254175368,-0.028778688904033442,0.8359345455768655,0.003847186590613005,-0.145134,-30.741653
11.185,2.0,1.0,1.0,33.3,34.5,34.5,3.0,3.6,2.6675,0.5097381281069537,-0.02955992980636322,0.840571855765627,0.0036389293864301855,-0.148458,-30.520611
11.185,2.0,1.0,1.0,33.3,34.5,34.5,3.0,3.6,2.67,0.5013252334506094,-0.030370721946933823,0.8451601989180044,0.0034148610685454943,-0.151925,-30.296336
11.185,2.0,1.0,1.0,33.3,34.5,34.5,3.0,3.6,2.6725,0.4927807693789113,-0.031212673020339424,0.8496970864943572,0.0031737814965308573,-0.155546,-30.068708
11.185,2.0,1.0,1.0,33.3,34.5,34.5,3.0,3.6,2.675,0.48410162192268713,-0.03208750577671236,0.8541798733196184,0.0029143785137846854,-0.15933,-29.837601
11.185,2.0,1.0,1.0,33.3,34.5,34.5,3.0,3.6,2.6775,0.47528452438300395,-0.03299706808302218,0.8586057431430666,0.002635215257938751,-0.16329,-29.602882
11.185,2.0,1.0,1.0,33.3,34.5,34.5,3.0,3.6,2.68,0.46632604544023226,-0.03394334400403299,0.8629716924131666,0.0023347157710839044,-0.167436,-29.364409
11.185,2.0,1.0,1.0,33.3,34.5,34.5,3.0,3.6,2.6825,0.45722257608511335,-0.03492846601672851,0.8672745119982516,0.002011148646004755,-0.171783,-29.122035
11.185,2.0,1.0,1.0,33.3,34.5,34.5,3.0,3.6,2.685,0.4479703152412448,-0.03595472848498637,0.8715107665367319,0.0016626083979757599,-0.176345,-28.875603
11.185,2.0,1.0,1.0,33.3,34.5,34.5,3.0,3.6,2.6875,0.438565253933816,-0.0370246025354828,0.875676771044109,0.00128699419576426,-0.181138,-28.624948
11.185,2.0,1.0,1.0,33.3,34.5,34.5,3.0,3.6,2.69,0.4290031578436038,-0.038140752491227226,0.8797685643363091,0.0008819855182640897,-0.18618,-28.369893
11.185,2.0,1.0,1.0,33.3,34.5,34.5,3.0,3.6,2.6925,0.419279548068179,-0.03930605403564738,0.883781878747161,0.000445014222093159,-0.19149,-28.110254
11.185,2.0,1.0,1.0,33.3,34.5,34.5,3.0,3.6,2.695,0.4093896798943907,-0.04052361429756284,0.8877121055190506,-2.676759263300687e-05,-0.19709,-27.845835
11.185,2.0,1.0,1.0,33.3,34.5,34.5,3.0,3.6,2.6975,0.3993285193676091,-0.04179679406529437,0.8915542551259246,-0.0005365246502844114,-0.203004,-27.576425
11.185,2.0,1.0,1.0,33.3,34.5,34.5,3.0,3.6,2.7,0.38909071742486906,-0.04312923235588322,0.8953029116418401,-0.0010877813785328014,-0.209258,-27.301804
11.185,2.0,1.0,1.0,33.3,34.5,34.5,3.0,3.6,2.7025,0.3786705813417326,-0.04452487358190242,0.8989521800899309,-0.001684471652531657,-0.215883,-27.021735
11.185,2.0,1.0,1.0,33.3,34.5,34.5,3.0,3.6,2.705,0.3680620432282514,-0.04598799757195993,0.902495625487929,-0.002330996676707857,-0.22291,-26.735967
11.185,2.0,1.0,1.0,33.3,34.5,34.5,3.0,3.6,2.7075,0.35725862530010083,-0.04752325270929539,0.9059262020371992,-0.00303229254451872,-0.230378,-26.444231
11.185,2.0,1.0,1.0,33.3,34.5,34.5,3.0,3.6,2.71,0.3462534016506063,-0.04913569245214509,0.9092361705696234,-0.0037939093479038744,-0.238327,-26.146243
11.185,2.0,1.0,1.0,33.3,34.5,34.5,3.0,3.6,2.7125,0.3350389562632784,-0.05083081548435698,0.9124170019541985,-0.004622104119301193,-0.246804,-25.841697
11.185,2.0,1.0,1.0,33.3,34.5,34.5,3.0,3.6,2.715,0.3236073370407119,-0.05261460970708319,0.9154592636516329,-0.005523950401155331,-0.255862,-25.530264
11.185,2.0,1.0,1.0,33.3,34.5,34.5,3.0,3.6,2.7175,0.3119500056958795,-0.05449360021050707,0.9183524859633218,-0.006507467878074108,-0.265562,-25.211595
11.185,2.0,1.0,1.0,33.3,34.5,34.5,3.0,3.6,2.72,0.3000577834731957,-0.05647490124130689,0.9210850037156157,-0.007581776310384451,-0.275971,-24.885314
11.185,2.0,1.0,1.0,33.3,34.5,34.5,3.0,3.6,2.7225,0.2879207928641885,-0.058566271981810095,0.9236437681056434,-0.00875727902040551,-0.287166,-24.551016
11.185,2.0,1.0,1.0,33.3,34.5,34.5,3.0,3.6,2.725,0.2755283957931402,-0.06077617564367259,0.9260141221518399,-0.010045882463503778,-0.299238,-24.208268
11.185,2.0,1.0,1.0,33.3,34.5,34.5,3.0,3.6,2.7275,0.26286912922530675,-0.06311384089847122,0.9281795315637291,-0.011461260041990476,-0.312288,-23.8566
11.185,2.0,1.0,1.0,33.3,34.5,34.5,3.0,3.6,2.73,0.24993063987406902,-0.06558932394018295,0.9301212607709365,-0.013019170391487025,-0.326435,-23.495508
11.185,2.0,1.0,1.0,33.3,34.5,34.5,3.0,3.6,2.7325,0.23669962077061918,-0.06821356838269885,0.9318179812002175,-0.01473784301722059,-0.341817,-23.124447
11.185,2.0,1.0,1.0,33.3,34.5,34.5,3.0,3.6,2.735,0.22316175408495476,-0.07099845856491756,0.9332452954914571,-0.016638447551643235,-0.358592,-22.742828
11.185,2.0,1.0,1.0,33.3,34.5,34.5,3.0,3.6,2.7375,0.20930166700924435,-0.07395685940685473,0.9343751569792446,-0.01874566726465389,-0.37695,-22.350011
11.185,2.0,1.0,1.0,33.3,34.5,34.5,3.0,3.6,2.74,0.19510291112289926,-0.07710263234354185,0.935175158153227,-0.02108840306577765,-0.397111,-21.945306
11.185,2.0,1.0,1.0,33.3,34.5,34.5,3.0,3.6,2.7425,0.18054798103787778,-0.08045061147362452,0.9356076545903329,-0.023700641451446847,-0.419336,-21.527963
11.185,2.0,1.0,1.0,33.3,34.5,34.5,3.0,3.6,2.745,0.1656183961588563,-0.08401651600991399,0.9356286815822593,-0.026622529112346267,-0.443938,-21.097168
11.185,2.0,1.0,1.0,33.3,34.5,34.5,3.0,3.6,2.7475,0.15029488143393505,-0.08781676306056943,0.9351866088361267,-0.029901708751288017,-0.471289,-20.652039
11.185,2.0,1.0,1.0,33.3,34.5,34.5,3.0,3.6,2.75,0.134557701080035,-0.0918681266382083,0.934220463625134,-0.0335949856499158,-0.501839,-20.191618
11.185,2.0,1.0,1.0,33.3,34.5,34.5,3.0,3.6,2.7525,0.11838722661251892,-0.09618716141869564,0.932657834070893,-0.03777041319950393,-0.536135,-19.714867
11.185,2.0,1.0,1.0,33.3,34.5,34.5,3.0,3.6,2.755,0.1017648619787909,-0.10078926826109612,0.9304122415851168,-0.04250990823904821,-0.574845,-19.220666
11.185,2.0,1.0,1.0,33.3,34.5,34.5,3.0,3.6,2.7575,0.08467451174219805,-0.10568721530022737,0.9273798454119417,-0.047912533091515566,-0.618792,-18.707808
11.185,2.0,1.0,1.0,33.3,34.5,34.5,3.0,3.6,2.76,0.0671048747408436,-0.11088883187386935,0.9234353151050142,-0.05409860823669121,-0.668997,-18.175
11.185,2.0,1.0,1.0,33.3,34.5,34.5,3.0,3.6,2.7625,0.049052993344199866,-0.11639344475431565,0.9184266851883744,-0.061214841050142514,-0.726739,-17.620872
11.185,2.0,1.0,1.0,33.3,34.5,34.5,3.0,3.6,2.765,0.03052971444509877,-0.12218640001786184,0.9121690053817776,-0.06944065675445311,-0.793632,-17.043995
11.185,2.0,1.0,1.0,33.3,34.5,34.5,3.0,3.6,2.7675,0.01156806261776668,-0.12823066944291156,0.9044366524239946,-0.07899586482753594,-0.871727,-16.442909
11.185,2.0,1.0,1.0,33.3,34.5,34.5,3.0,3.6,2.77,-0.007763955656922841,-0.13445402169019718,0.894954343573344,-0.09014961965687625,-0.963656,-15.816185
11.185,2.0,1.0,1.0,33.3,34.5,34.5,3.0,3.6,2.7725,-0.027343835383116438,-0.14072947596390303,0.8833873234915858,-0.10323020192365823,-1.072818,-15.162521
11.185,2.0,1.0,1.0,33.3,34.5,34.5,3.0,3.6,2.775,-0.04696499326725261,-0.14684568638419898,0.8693321509186264,-0.11863419138945433,-1.203628,-14.4809
11.185,2.0,1.0,1.0,33.3,34.5,34.5,3.0,3.6,2.7775,-0.06629241503380735,-0.15246254681282156,0.8523114884261146,-0.1368316231052679,-1.361839,-13.770846
11.185,2.0,1.0,1.0,33.3,34.5,34.5,3.0,3.6,2.78,-0.08479748268876873,-0.15704596999072687,0.8317801836199383,-0.1583598312991523,-1.554925,-13.032831
11.185,2.0,1.0,1.0,33.3,34.5,34.5,3.0,3.6,2.7825,-0.10166575956193227,-0.15977562381554616,0.8071571355342876,-0.18379147621286449,-1.792479,-12.2689
11.185,2.0,1.0,1.0,33.3,34.5,34.5,3.0,3.6,2.785,-0.11567566209980594,-0.15942356765996868,0.7779097027408158,-0.21364998281976297,-2.086432,-11.483614
11.185,2.0,1.0,1.0,33.3,34.5,34.5,3.0,3.6,2.7875,-0.12506178476461166,-0.15421758662350088,0.743735151065563,-0.2482278795159494,-2.450538,-10.685414
11.185,2.0,1.0,1.0,33.3,34.5,34.5,3.0,3.6,2.79,-0.12741803223402573,-0.14174443837248477,0.7049000935274237,-0.2872470859511625,-2.897815,-9.888426
11.185,2.0,1.0,1.0,33.3,34.5,34.5,3.0,3.6,2.7925,-0.1197792184128191,-0.11903176414228113,0.6627856286073628,-0.3293134996388604,-3.432965,-9.114531
11.185,2.0,1.0,1.0,33.3,34.5,34.5,3.0,3.6,2.795,-0.09913474226269692,-0.08306235477438328,0.6205729496713369,-0.37123128288990026,-4.034705,-8.394954
11.185,2.0,1.0,1.0,33.3,34.5,34.5,3.0,3.6,2.7975,-0.06365252792512878,-0.03199887734951255,0.5837012125568717,-0.40754539200104206,-4.624847,-7.769789
11.185,2.0,1.0,1.0,33.3,34.5,34.5,3.0,3.6,2.8,-0.0145185304890538,0.03297612744828577,0.559316192316329,-0.43109412263047164,-5.043927,-7.28322
11.185,2.0,1.0,1.0,33.3,34.5,34.5,3.0,3.6,2.8025,0.0426657219244854,0.10626339264531598,0.5540075228910366,-0.43527359388909037,-5.104005,-6.973336
11.185,2.0,1.0,1.0,33.3,34.5,34.5,3.0,3.6,2.805,0.09868876910210277,0.1786548532324399,0.5705121050329414,-0.41733527368973616,-4.746655,-6.859509
11.185,2.0,1.0,1.0,33.3,34.5,34.5,3.0,3.6,2.8075,0.1441811965037789,0.24078830375985133,0.6058703643228096,-0.3802284856900856,-4.11317,-6.934619
11.185,2.0,1.0,1.0,33.3,34.5,34.5,3.0,3.6,2.81,0.17336986299259255,0.2869026027357098,0.652889840403728,-0.33113389673579546,-3.407284,-7.16783
11.185,2.0,1.0,1.0,33.3,34.5,34.5,3.0,3.6,2.8125,0.185324241665577,0.316082750053522,0.703623370302831,-0.277982865521706,-2.761907,-7.515785
11.185,2.0,1.0,1.0,33.3,34.5,34.5,3.0,3.6,2.815,0.18256435376249194,0.33086580616997596,0.7520715897933161,-0.22675424470513145,-2.226157,-7.934718
11.185,2.0,1.0,1.0,33.3,34.5,34.5,3.0,3.6,2.8175,0.16890554707993113,0.3350843954030881,0.7949295867317775,-0.18072829363163143,-1.801652,-8.38799
11.185,2.0,1.0,1.0,33.3,34.5,34.5,3.0,3.6,2.82,0.14796350360426366,0.3323714620832163,0.8310324658449035,-0.14104186243295733,-1.472102,-8.848437
11.185,2.0,1.0,1.0,33.3,34.5,34.5,3.0,3.6,2.8225,0.12254886545967156,0.32555524101217803,0.8604822532589891,-0.10756184098212315,-1.217955,-9.297561
11.185,2.0,1.0,1.0,33.3,34.5,34.5,3.0,3.6,2.825,0.09461564404212183,0.3166081842325984,0.8839610764412474,-0.07957187651451036,-1.021864,-9.723551
11.185,2.0,1.0,1.0,33.3,34.5,34.5,3.0,3.6,2.8275,0.0654267114386497,0.306812942963123,0.9023217943830604,-0.056181308625436,-0.869997,-10.119295
11.185,2.0,1.0,1.0,33.3,34.5,34.5,3.0,3.6,2.83,0.03575287806774458,0.2969618643779626,0.9163865533534828,-0.036525956410932245,-0.75182,-10.480775
