1,w,sub_t,h,l1,l2,l3,g1,g2,Freq,S11_re,S21_re,S11_img,S21_img,S11_dB,S21_dB
11.185,2.0,1.0,1.0,34.5,33.8,33.8,3.8,3.8,2.5,0.704020735075235,-0.00876204051794153,0.699436123096309,0.00295410003224158,-0.066272,-40.680336
11.185,2.0,1.0,1.0,34.5,33.8,33.8,3.8,3.8,2.5025,0.6983620765994464,-0.008903990048002379,0.70497759775872,0.002913661455885,-0.066947,-40.566516
11.185,2.0,1.0,1.0,34.5,33.8,33.8,3.8,3.8,2.505,0.6926298357611487,-0.009047820509342826,0.7105007320242944,0.002871205833196489,-0.067634,-40.452421
11.185,2.0,1.0,1.0,34.5,33.8,33.8,3.8,3.8,2.5075,0.6868233297567637,-0.009193552592718857,0.7160048014274497,0.0028266743503431706,-0.068332,-40.338043
11.185,2.0,1.0,1.0,34.5,33.8,33.8,3.8,3.8,2.51,0.680941869945491,-0.009341207007084832,0.7214890619722301,0.0027800064623530567,-0.069042,-40.223377
11.185,2.0,1.0,1.0,34.5,33.8,33.8,3.8,3.8,2.5125,0.6749847619537512,-0.009490804464493624,0.7269527496092878,0.0027311398384340674,-0.069763,-40.108418
11.185,2.0,1.0,1.0,34.5,33.8,33.8,3.8,3.8,2.515,0.6689513057898037,-0.009642365663979724,0.7323950796999343,0.002680010305437925,-0.070497,-39.993158
11.185,2.0,1.0,1.0,34.5,33.8,33.8,3.8,3.8,2.5175,0.6628407959690793,-0.00979591127436965,0.7378152464669857,0.002626551789399855,-0.071244,-39.877592
11.185,2.0,1.0,1.0,34.5,33.8,33.8,3.8,3.8,2.52,0.6566525216507503,-0.00995146191596225,0.7432124224321696,0.0025706962550822434,-0.072004,-39.761713
11.185,2.0,1.0,1.0,34.5,33.8,33.8,3.8,3.8,2.5225,0.6503857667861372,-0.010109038141016994,0.7485857578398097,0.002512373643447507,-0.072776,-39.645516
11.185,2.0,1.0,1.0,34.5,33.8,33.8,3.8,3.8,2.525,0.6440398102795194,-0.010268660412986592,0.7539343800665547,0.0024515118069816594,-0.073562,-39.528993
11.185,2.0,1.0,1.0,34.5,33.8,33.8,3.8,3.8,2.5275,0.637613926161978,-0.010430349084426142,0.7592573930168872,0.0023880364427870293,-0.074362,-39.412139
11.185,2.0,1.0,1.0,34.5,33.8,33.8,3.8,3.8,2.53,0.631107383778924,-0.010594124373507152,0.764553876504156,0.0023218710233589342,-0.075175,-39.294946
11.185,2.0,1.0,1.0,34.5,33.8,33.8,3.8,3.8,2.5325,0.6245194479919752,-0.010760006339062204,0.7698228856168836,0.00225293672495719,-0.076003,-39.177409
11.185,2.0,1.0,1.0,34.5,33.8,33.8,3.8,3.8,2.535,0.617849379395882,-0.01092801485408071,0.7750634500700994,0.00218115235347934,-0.076846,-39.059521
11.185,2.0,1.0,1.0,34.5,33.8,33.8,3.8,3.8,2.5375,0.6110964345512467,-0.011098169577572804,0.7802745735414452,0.0021064342677381423,-0.077703,-38.941274
11.185,2.0,1.0,1.0,34.5,33.8,33.8,3.8,3.8,2.54,0.6042598662337806,-0.011270489924714088,0.785455232991818,0.0020286963000417466,-0.078576,-38.822663
11.185,2.0,1.0,1.0,34.5,33.8,33.8,3.8,3.8,2.5425,0.5973389237008998,-0.01144499503517886,0.7906043779703028,0.0019478496739695592,-0.079464,-38.70368
11.185,2.0,1.0,1.0,34.5,33.8,33.8,3.8,3.8,2.545,0.5903328529764844,-0.011621703739564814,0.7957209299031694,0.0018638029192323356,-0.080368,-38.584318
11.185,2.0,1.0,1.0,34.5,33.8,33.8,3.8,3.8,2.5475,0.5832408971546647,-0.01180063452380678,0.80080378136669,0.001776461783499635,-0.081289,-38.464571
11.185,2.0,1.0,1.0,34.5,33.8,33.8,3.8,3.8,2.55,0.5760622967235107,-0.011981805491472071,0.8058517953435743,0.0016857291410713635,-0.082226,-38.344431
11.185,2.0,1.0,1.0,34.5,33.8,33.8,3.8,3.8,2.5525,0.5687962899095846,-0.012165234323823262,0.8108638044627873,0.0015915048982655903,-0.08318,-38.22389
11.185,2.0,1.0,1.0,34.5,33.8,33.8,3.8,3.8,2.555,0.5614421130442974,-0.012350938237529285,0.8158386102225539,0.0014936858953865757,-0.084152,-38.102942
11.185,2.0,1.0,1.0,34.5,33.8,33.8,3.8,3.8,2.5575,0.553999000953083,-0.012538933939898068,0.8207749821963518,0.0013921658051318248,-0.085141,-37.981579
11.185,2.0,1.0,1.0,34.5,33.8,33.8,3.8,3.8,2.56,0.5464661873684451,-0.012729237581497813,0.8256716572217012,0.0012868350272885196,-0.086149,-37.859794
11.185,2.0,1.0,1.0,34.5,33.8,33.8,3.8,3.8,2.5625,0.5388429053679541,-0.012921864706026078,0.8305273385715711,0.0011775805795627068,-0.087175,-37.737578
11.185,2.0,1.0,1.0,34.5,33.8,33.8,3.8,3.8,2.565,0.5311283878383222,-0.013116830197278807,0.835340695108248,0.0010642859843760465,-0.08822,-37.614924
11.185,2.0,1.0,1.0,34.5,33.8,33.8,3.8,3.8,2.5675,0.5233218679667412,-0.013314148223062301,0.8401103604195036,0.0009468311514561266,-0.089285,-37.491824
11.185,2.0,1.0,1.0,34.5,33.8,33.8,3.8,3.8,2.57,0.5154225797606902,-0.01351383217588296,0.8448349319369337,0.000825092256037315,-0.09037,-37.36827
11.185,2.0,1.0,1.0,34.5,33.8,33.8,3.8,3.8,2.5725,0.507429758597481,-0.013715894610240469,0.8495129700363397,0.0006989416124784884,-0.091476,-37.244254
11.185,2.0,1.0,1.0,34.5,33.8,33.8,3.8,3.8,2.575,0.49934264180485605,-0.013920347176339314,0.8541429971200586,0.0005682475430937692,-0.092602,-37.119768
11.185,2.0,1.0,1.0,34.5,33.8,33.8,3.8,3.8,2.5775,0.49116046927399765,-0.014127200550023972,0.8587234966811459,0.00043287424198074445,-0.09375,-36.994802
11.185,2.0,1.0,1.0,34.5,33.8,33.8,3.8,3.8,2.58,0.4828824841063688,-0.01433646435873117,0.8632529123493519,0.00029268163361839954,-0.09492,-36.869349
11.185,2.0,1.0,1.0,34.5,33.8,33.8,3.8,3.8,2.5825,0.47450793329583785,-0.01454814710324104,0.8677296469188464,0.00014752522599334534,-0.096112,-36.7434
11.185,2.0,1.0,1.0,34.5,33.8,33.8,3.8,3.8,2.585,0.46603606844761714,-0.014762256074995848,0.8721520613576703,-2.744042000702238e-06,-0.097327,-36.616945
11.185,2.0,1.0,1.0,34.5,33.8,33.8,3.8,3.8,2.5875,0.4574661465355812,-0.014978797268741765,0.8765184737989193,-0.00015827995916062825,-0.098566,-36.489976
11.185,2.0,1.0,1.0,34.5,33.8,33.8,3.8,3.8,2.59,0.4487974306995998,-0.015197775290233917,0.8808271585136872,-0.0003192412068560466,-0.099829,-36.362484
11.185,2.0,1.0,1.0,34.5,33.8,33.8,3.8,3.8,2.5925,0.44002919108456745,-0.015419193258730195,0.8850763448658275,-0.00048579153050025046,-0.101117,-36.234458
11.185,2.0,1.0,1.0,34.5,33.8,33.8,3.8,3.8,2.595,0.43116070572289017,-0.015643052703981326,0.8892642162486182,-0.0006580999179336501,-0.102431,-36.10589
11.185,2.0,1.0,1.0,34.5,33.8,33.8,3.8,3.8,2.5975,0.4221912614622216,-0.01586935345740812,0.8933889090034515,-0.0008363407850640086,-0.10377,-35.97677
11.185,2.0,1.0,1.0,34.5,33.8,33.8,3.8,3.8,2.6,0.4131201549403246,-0.016098093537136687,0.8974485113206996,-0.001020694169129615,-0.105137,-35.847087
11.185,2.0,1.0,1.0,34.5,33.8,33.8,3.8,3.8,2.6025,0.4039466936090108,-0.016329269026541592,0.901441062122931,-0.0012113459299757702,-0.10653,-35.716831
11.185,2.0,1.0,1.0,34.5,33.8,33.8,3.8,3.8,2.605,0.3946701968091255,-0.016562873945925472,0.9053645499307169,-0.0014084879597607847,-0.107952,-35.585993
11.185,2.0,1.0,1.0,34.5,33.8,33.8,3.8,3.8,2.6075,0.3852899968986763,-0.016798900116938832,0.909216911711276,-0.0016123184015353843,-0.109403,-35.45456
11.185,2.0,1.0,1.0,34.5,33.8,33.8,3.8,3.8,2.61,0.3758054404362335,-0.01703733701931801,0.9129960317102511,-0.001823041877170274,-0.110883,-35.322523
11.185,2.0,1.0,1.0,34.5,33.8,33.8,3.8,3.8,2.6125,0.3662158894218006,-0.017278171639491947,0.9166997402669732,-0.0020408697251387063,-0.112393,-35.189871
11.185,2.0,1.0,1.0,34.5,33.8,33.8,3.8,3.8,2.615,0.3565207225974389,-0.01752138831057767,0.920325812613587,-0.0022660202486975752,-0.113935,-35.056591
11.185,2.0,1.0,1.0,34.5,33.8,33.8,3.8,3.8,2.6175,0.34671933681000827,-0.017766968543251636,0.9238719676584596,-0.0024987189750479743,-0.115509,-34.922672
11.185,2.0,1.0,1.0,34.5,33.8,33.8,3.8,3.8,2.62,0.3368111484384383,-0.018014890846949367,0.9273358667543588,-0.0027391989260991153,-0.117115,-34.788102
11.185,2.0,1.0,1.0,34.5,33.8,33.8,3.8,3.8,2.6225,0.3267955948880386,-0.018265130540806602,0.930715112451905,-0.0029877009015049608,-0.118756,-34.65287
11.185,2.0,1.0,1.0,34.5,33.8,33.8,3.8,3.8,2.625,0.316672136154447,-0.0185176595537142,0.934007247238867,-0.00324447377469174,-0.120431,-34.516962
11.185,2.0,1.0,1.0,34.5,33.8,33.8,3.8,3.8,2.6275,0.3064402564598495,-0.018772446212813185,0.9372097522659262,-0.0035097748026502932,-0.122141,-34.380365
11.185,2.0,1.0,1.0,34.5,33.8,33.8,3.8,3.8,2.63,0.29609946596424963,-0.01902945501970732,0.9403200460595501,-0.003783869950324028,-0.123888,-34.243067
11.185,2.0,1.0,1.0,34.5,33.8,33.8,3.8,3.8,2.6325,0.2856493025545997,-0.019288646413616137,0.9433354832227074,-0.0040670342304890365,-0.125673,-34.105054
11.185,2.0,1.0,1.0,34.5,33.8,33.8,3.8,3.8,2.635,0.27508933371471894,-0.01954997652063321,0.9462533531241675,-0.004359552060092252,-0.127497,-33.966312
11.185,2.0,1.0,1.0,34.5,33.8,33.8,3.8,3.8,2.6375,0.264419158479016,-0.019813396888189554,0.9490708785771904,-0.004661717634089471,-0.12936,-33.826826
11.185,2.0,1.0,1.0,34.5,33.8,33.8,3.8,3.8,2.64,0.25363840947308763,-0.02007885420375178,0.9517852145084783,-0.004973835317910139,-0.131264,-33.686583
11.185,2.0,1.0,1.0,34.5,33.8,33.8,3.8,3.8,2.6425,0.2427467550444276,-0.02034628999670758,0.9543934466182473,-0.005296220059764889,-0.13321,-33.545566
11.185,2.0,1.0,1.0,34.5,33.8,33.8,3.8,3.8,2.645,0.23174390148650068,-0.020615640322305295,0.9568925900323948,-0.005629197824113409,-0.1352,-33.403761
11.185,2.0,1.0,1.0,34.5,33.8,33.8,3.8,3.8,2.6475,0.2206295953596156,-0.02088683542642257,0.9592795879476997,-0.005973106047718211,-0.137234,-33.261152
11.185,2.0,1.0,1.0,34.5,33.8,33.8,3.8,3.8,2.65,0.20940362591204784,-0.021159799389834928,0.9615513102710934,-0.006328294119830809,-0.139314,-33.117721
11.185,2.0,1.0,1.0,34.5,33.8,33.8,3.8,3.8,2.6525,0.19806582760509012,-0.02143444975054199,0.9637045522540013,-0.00669512388818567,-0.141441,-32.973452
11.185,2.0,1.0,1.0,34.5,33.8,33.8,3.8,3.8,2.655,0.18661608274569025,-0.021710697102584775,0.9657360331228476,-0.007073970192623936,-0.143618,-32.828328
11.185,2.0,1.0,1.0,34.5,33.8,33.8,3.8,3.8,2.6575,0.17505432423058423,-0.021988444669648444,0.9676423947067453,-0.007465221428323929,-0.145844,-32.68233
11.185,2.0,1.0,1.0,34.5,33.8,33.8,3.8,3.8,2.66,0.16338053840586514,-0.022267587851591192,0.9694202000634752,-0.007869280140790722,-0.148122,-32.53544
11.185,2.0,1.0,1.0,34.5,33.8,33.8,3.8,3.8,2.6625,0.15159476804613942,-0.022548013741871237,0.9710659321047914,-0.008286563654945022,-0.150453,-32.387639
11.185,2.0,1.0,1.0,34.5,33.8,33.8,3.8,3.8,2.665,0.13969711545750227,-0.022829600613654542,0.9725759922221022,-0.008717504740863767,-0.15284,-32.238907
11.185,2.0,1.0,1.0,34.5,33.8,33.8,3.8,3.8,2.6675,0.12768774570881233,-0.023112217372175833,0.973946698913499,-0.009162552318951,-0.155283,-32.089223
11.185,2.0,1.0,1.0,34.5,33.8,33.8,3.8,3.8,2.67,0.11556688999580532,-0.023395722970692884,0.9751742864131113,-0.009622172207574444,-0.157786,-31.938566
11.185,2.0,1.0,1.0,34.5,33.8,33.8,3.8,3.8,2.6725,0.10333484914289587,-0.02367996578711315,0.976254903323593,-0.010096847916479575,-0.160348,-31.786915
11.185,2.0,1.0,1.0,34.5,33.8,33.8,3.8,3.8,2.675,0.09099199724761937,-0.02396478295808089,0.9771846112525563,-0.010587081489600726,-0.162974,-31.634245
11.185,2.0,1.0,1.0,34.5,33.8,33.8,3.8,3.8,2.6775,0.07853878547298138,-0.024249999666989402,0.9779593834535207,-0.011093394401228087,-0.165664,-31.480535
11.185,2.0,1.0,1.0,34.5,33.8,33.8,3.8,3.8,2.68,0.06597574599318143,-0.02453542838201757,0.978575103471857,-0.01161632850986266,-0.168421,-31.325759
11.185,2.0,1.0,1.0,34.5,33.8,33.8,3.8,3.8,2.6825,0.05330349609847433,-0.024820868039883814,0.9790275637959999,-0.012156447074503546,-0.171247,-31.169892
11.185,2.0,1.0,1.0,34.5,33.8,33.8,3.8,3.8,2.685,0.040522742465279295,-0.025106103170552015,0.979312464513896,-0.012714335838568883,-0.174145,-31.012909
11.185,2.0,1.0,1.0,34.5,33.8,33.8,3.8,3.8,2.6875,0.0276342855979756,-0.0253909029576114,0.979425411974433,-0.0132906041871542,-0.177117,-30.85478
11.185,2.0,1.0,1.0,34.5,33.8,33.8,3.8,3.8,2.69,0.014639024449257293,-0.02567502022847103,0.9793619174532099,-0.013885886383889847,-0.180166,-30.695479
11.185,2.0,1.0,1.0,34.5,33.8,33.8,3.8,3.8,2.6925,0.0015379612263586692,-0.02595819036786064,0.9791173958215894,-0.014500842894276587,-0.183294,-30.534976
11.185,2.0,1.0,1.0,34.5,33.8,33.8,3.8,3.8,2.695,-0.011667793608956745,-0.02624013014739082,0.9786871642175261,-0.015136161803059406,-0.186505,-30.37324
11.185,2.0,1.0,1.0,34.5,33.8,33.8,3.8,3.8,2.6975,-0.02497701613820942,-0.026520536463096215,0.9780664407160502,-0.015792560333959534,-0.189802,-30.210239
11.185,2.0,1.0,1.0,34.5,33.8,33.8,3.8,3.8,2.7,-0.03838836357261792,-0.02679908497194189,0.9772503429966988,-0.016470786480920353,-0.193187,-30.04594
11.185,2.0,1.0,1.0,34.5,33.8,33.8,3.8,3.8,2.7025,-0.05190036861815702,-0.027075428617209192,0.9762338870043545,-0.01717162076095768,-0.196665,-29.880308
11.185,2.0,1.0,1.0,34.5,33.8,33.8,3.8,3.8,2.705,-0.06551143360833929,-0.027349196031464334,0.9750119855991614,-0.01789587809973522,-0.200239,-29.713308
11.185,2.0,1.0,1.0,34.5,33.8,33.8,3.8,3.8,2.7075,-0.07921982439272436,-0.02761998980443928,0.9735794471900986,-0.01864440986213793,-0.203912,-29.544901
11.185,2.0,1.0,1.0,34.5,33.8,33.8,3.8,3.8,2.71,-0.09302366396797049,-0.027887384601587985,0.9719309743457482,-0.019418106041389407,-0.207689,-29.375049
11.185,2.0,1.0,1.0,34.5,33.8,33.8,3.8,3.8,2.7125,-0.10692092583668684,-0.02815092511729675,0.9700611623743673,-0.020217897621682746,-0.211575,-29.203709
11.185,2.0,1.0,1.0,34.5,33.8,33.8,3.8,3.8,2.715,-0.12090942707779477,-0.02841012384468986,0.9679644978639741,-0.021044759130872635,-0.215573,-29.030841
11.185,2.0,1.0,1.0,34.5,33.8,33.8,3.8,3.8,2.7175,-0.13498682111006477,-0.028664458641643027,0.9656353571713903,-0.021899711401537892,-0.219688,-28.856397
11.185,2.0,1.0,1.0,34.5,33.8,33.8,3.8,3.8,2.72,-0.1491505901282296,-0.028913370069948954,0.9630680048472596,-0.022783824560684146,-0.223926,-28.680333
11.185,2.0,1.0,1.0,34.5,33.8,33.8,3.8,3.8,2.7225,-0.1633980371885107,-0.029156258481521362,0.9602565919818583,-0.023698221270545702,-0.228292,-28.502597
11.185,2.0,1.0,1.0,34.5,33.8,33.8,3.8,3.8,2.725,-0.17772627791716475,-0.02939248082200748,0.9571951544540157,-0.02464408024538108,-0.232791,-28.323139
11.185,2.0,1.0,1.0,34.5,33.8,33.8,3.8,3.8,2.7275,-0.19213223181221378,-0.02962134711813618,0.9538776110626056,-0.025622640071884997,-0.23743,-28.141905
11.185,2.0,1.0,1.0,34.5,33.8,33.8,3.8,3.8,2.73,-0.20661261310412002,-0.0298421166104652,0.9502977615168853,-0.026635203363874142,-0.242215,-27.958838
11.185,2.0,1.0,1.0,34.5,33.8,33.8,3.8,3.8,2.7325,-0.22116392113645073,-0.030053993487807566,0.9464492842583389,-0.0276831412853058,-0.247154,-27.773879
11.185,2.0,1.0,1.0,34.5,33.8,33.8,3.8,3.8,2.735,-0.23578243022155018,-0.03025612217338817,0.9423257340825396,-0.028767898479478124,-0.252253,-27.586964
11.185,2.0,1.0,1.0,34.5,33.8,33.8,3.8,3.8,2.7375,-0.2504641789197169,-0.030447582105562657,0.9379205395250052,-0.029890998446507167,-0.257522,-27.398029
11.185,2.0,1.0,1.0,34.5,33.8,33.8,3.8,3.8,2.74,-0.26520495868218125,-0.030627381947546932,0.9332269999697235,-0.031054049415913228,-0.262967,-27.207003
11.185,2.0,1.0,1.0,34.5,33.8,33.8,3.8,3.8,2.7425,-0.2800003017890389,-0.030794453150852066,0.9282382824332409,-0.03225875076645318,-0.268599,-27.013815
11.185,2.0,1.0,1.0,34.5,33.8,33.8,3.8,3.8,2.745,-0.2948454685021711,-0.030947642785747336,0.9229474179705653,-0.03350690005125763,-0.274427,-26.818388
11.185,2.0,1.0,1.0,34.5,33.8,33.8,3.8,3.8,2.7475,-0.30973543334023507,-0.03108570553878784,0.9173472976417302,-0.03480040069295405,-0.280463,-26.62064
11.185,2.0,1.0,1.0,34.5,33.8,33.8,3.8,3.8,2.75,-0.324664870367559,-0.0312072947618899,0.911430667969562,-0.0361412704208501,-0.286717,-26.420486
11.185,2.0,1.0,1.0,34.5,33.8,33.8,3.8,3.8,2.7525,-0.3396281373706887,-0.03131095243918516,0.9051901258098677,-0.03753165053050371,-0.293201,-26.217838
11.185,2.0,1.0,1.0,34.5,33.8,33.8,3.8,3.8,2.755,-0.3546192587749052,-0.03139509791642234,0.898618112544829,-0.0389738160552012,-0.29993,-26.012598
11.185,2.0,1.0,1.0,34.5,33.8,33.8,3.8,3.8,2.7575,-0.3696319071277604,-0.031458015212385414,0.891706907498721,-0.04047018694910507,-0.306918,-25.804667
11.185,2.0,1.0,1.0,34.5,33.8,33.8,3.8,3.8,2.76,-0.38465938294648083,-0.03149783870190494,0.8844486204621415,-0.042023340393192485,-0.31418,-25.593939
11.185,2.0,1.0,1.0,34.5,33.8,33.8,3.8,3.8,2.7625,-0.39969459269035745,-0.031512536924632205,0.8768351831964811,-0.04363602434769791,-0.321733,-25.380301
11.185,2.0,1.0,1.0,34.5,33.8,33.8,3.8,3.8,2.765,-0.41473002457645725,-0.03149989423170063,0.8688583397744231,-0.04531117248865528,-0.329597,-25.163634
11.185,2.0,1.0,1.0,34.5,33.8,33.8,3.8,3.8,2.7675,-0.429757721906005,-0.03145748993234357,0.8605096355947047,-0.04705192068137863,-0.337791,-24.943811
11.185,2.0,1.0,1.0,34.5,33.8,33.8,3.8,3.8,2.77,-0.4447692535077131,-0.0313826745427822,0.8517804048900826,-0.04886162516035156,-0.346339,-24.720698
11.185,2.0,1.0,1.0,34.5,33.8,33.8,3.8,3.8,2.7725,-0.4597556808309791,-0.03127254266817013,0.8426617565265596,-0.050743882602969886,-0.355263,-24.494154
11.185,2.0,1.0,1.0,34.5,33.8,33.8,3.8,3.8,2.775,-0.47470752113368564,-0.03112390196251956,0.8331445578694022,-0.05270255230380262,-0.364591,-24.264025
11.185,2.0,1.0,1.0,34.5,33.8,33.8,3.8,3.8,2.7775,-0.4896147061029424,-0.030933237508169564,0.8232194164676077,-0.054741780676243974,-0.374352,-24.030152
11.185,2.0,1.0,1.0,34.5,33.8,33.8,3.8,3.8,2.78,-0.5044665351184979,-0.030696670831550435,0.8128766592836311,-0.05686602832919835,-0.384579,-23.792363
11.185,2.0,1.0,1.0,34.5,33.8,33.8,3.8,3.8,2.7825,-0.5192516222124316,-0.030409912620849595,0.8021063091700685,-0.05908009998704646,-0.395308,-23.550476
11.185,2.0,1.0,1.0,34.5,33.8,33.8,3.8,3.8,2.785,-0.5339578355891229,-0.030068208027563003,0.7908980582706137,-0.06138917754049422,-0.406577,-23.304295
11.185,2.0,1.0,1.0,34.5,33.8,33.8,3.8,3.8,2.7875,-0.5485722283379617,-0.02966627321015152,0.7792412380007989,-0.0637988565322648,-0.418432,-23.053613
11.185,2.0,1.0,1.0,34.5,33.8,33.8,3.8,3.8,2.79,-0.5630809586882474,-0.02919822150445332,0.7671247852471275,-0.06631518639248016,-0.430921,-22.798208
11.185,2.0,1.0,1.0,34.5,33.8,33.8,3.8,3.8,2.7925,-0.5774691978081494,-0.028657477269973038,0.7545372044150982,-0.0689447147402059,-0.444099,-22.537844
11.185,2.0,1.0,1.0,34.5,33.8,33.8,3.8,3.8,2.795,-0.5917210227220209,-0.028036675048284578,0.7414665249626313,-0.0716945360546105,-0.458027,-22.272265
11.185,2.0,1.0,1.0,34.5,33.8,33.8,3.8,3.8,2.7975,-0.6058192913919855,-0.02732754116005022,0.7279002540837591,-0.07457234498355474,-0.472774,-22.001201
11.185,2.0,1.0,1.0,34.5,33.8,33.8,3.8,3.8,2.8,-0.6197454963552891,-0.026520754235772506,0.7138253242693238,-0.07758649448782265,-0.488417,-21.724359
11.185,2.0,1.0,1.0,34.5,33.8,33.8,3.8,3.8,2.8025,-0.6334795924954189,-0.025605780390796914,0.6992280355840138,-0.08074605889907975,-0.505045,-21.441429
11.185,2.0,1.0,1.0,34.5,33.8,33.8,3.8,3.8,2.805,-0.6469997935106292,-0.024570677776957227,0.6840939926862125,-0.08406090177527226,-0.522755,-21.152073
11.185,2.0,1.0,1.0,34.5,33.8,33.8,3.8,3.8,2.8075,-0.6602823303748527,-0.023401864020128237,0.6684080369138996,-0.08754174813427616,-0.541662,-20.855931
11.185,2.0,1.0,1.0,34.5,33.8,33.8,3.8,3.8,2.81,-0.6733011634947635,-0.022083838518981762,0.6521541742167347,-0.09120026018565822,-0.561893,-20.552616
11.185,2.0,1.0,1.0,34.5,33.8,33.8,3.8,3.8,2.8125,-0.686027638265151,-0.0205988496513297,0.635315500404757,-0.095049114989811,-0.583595,-20.24171
11.185,2.0,1.0,1.0,34.5,33.8,33.8,3.8,3.8,2.815,-0.6984300712017413,-0.018926494503288035,0.6178741262139148,-0.09910208144962417,-0.60694,-19.922763
11.185,2.0,1.0,1.0,34.5,33.8,33.8,3.8,3.8,2.8175,-0.710473250643904,-0.017043235666836857,0.5998111062129488,-0.1033740925311083,-0.632121,-19.595292
11.185,2.0,1.0,1.0,34.5,33.8,33.8,3.8,3.8,2.82,-0.7221178319900741,-0.01492181577121774,0.5811063778210679,-0.10788130639544491,-0.659367,-19.258773
11.185,2.0,1.0,1.0,34.5,33.8,33.8,3.8,3.8,2.8225,-0.733319602332554,-0.012530545508493036,0.5617387200030928,-0.1126411468826127,-0.688942,-18.912645
11.185,2.0,1.0,1.0,34.5,33.8,33.8,3.8,3.8,2.825,-0.7440285829205542,-0.009832434720719253,0.5416857460465572,-0.11767230904075075,-0.721156,-18.556298
11.185,2.0,1.0,1.0,34.5,33.8,33.8,3.8,3.8,2.8275,-0.754187929773314,-0.006784128323221695,0.5209239519250921,-0.12299470844409634,-0.756374,-18.189079
