1,w,sub_t,h,l1,l2,l3,g1,g2,Freq,S11_re,S21_re,S11_img,S21_img,S11_dB,S21_dB
11.185,2.0,1.0,1.0,33.4,33.0,33.0,2.4,1.8,2.5,0.8579368115183,-0.0101578722917943,0.500924954867744,0.0104605757612616,-0.05691,-36.724245
11.185,2.0,1.0,1.0,33.4,33.0,33.0,2.4,1.8,2.5025,0.8545797576315575,-0.01037163586460107,0.5065103091607106,0.010525337104059649,-0.057448,-36.608397
11.185,2.0,1.0,1.0,33.4,33.0,33.0,2.4,1.8,2.505,0.8511714581401358,-0.010589398310941014,0.5120957387730996,0.010589541055211326,-0.057995,-36.492216
11.185,2.0,1.0,1.0,33.4,33.0,33.0,2.4,1.8,2.5075,0.8477114003457055,-0.010811241886850773,0.5176810211959411,0.010653149543859946,-0.058553,-36.375693
11.185,2.0,1.0,1.0,33.4,33.0,33.0,2.4,1.8,2.51,0.8441990630037526,-0.011037250901584706,0.5232659269481305,0.010716122929597881,-0.05912,-36.258821
11.185,2.0,1.0,1.0,33.4,33.0,33.0,2.4,1.8,2.5125,0.8406339161733044,-0.011267511777008101,0.5288502193396055,0.010778419935502681,-0.059699,-36.141594
11.185,2.0,1.0,1.0,33.4,33.0,33.0,2.4,1.8,2.515,0.8370154210641065,-0.011502113108899092,0.5344336542263534,0.010839997578094653,-0.060288,-36.024003
11.185,2.0,1.0,1.0,33.4,33.0,33.0,2.4,1.8,2.5175,0.8333430298812213,-0.011741145730225673,0.5400159797569076,0.010900811094061281,-0.060888,-35.906043
11.185,2.0,1.0,1.0,33.4,33.0,33.0,2.4,1.8,2.52,0.8296161856670109,-0.011984702776466915,0.5455969361100402,0.010960813863585262,-0.061499,-35.787704
11.185,2.0,1.0,1.0,33.4,33.0,33.0,2.4,1.8,2.5225,0.8258343221404906,-0.012232879753050143,0.5511762552232782,0.011019957330103395,-0.062122,-35.66898
11.185,2.0,1.0,1.0,33.4,33.0,33.0,2.4,1.8,2.525,0.8219968635340116,-0.012485774604977806,0.5567536605119158,0.011078190916314578,-0.062757,-35.549863
11.185,2.0,1.0,1.0,33.4,33.0,33.0,2.4,1.8,2.5275,0.8181032244272479,-0.012743487788721801,0.562328866578143,0.011135461936244345,-0.063404,-35.430346
11.185,2.0,1.0,1.0,33.4,33.0,33.0,2.4,1.8,2.53,0.8141528095784735,-0.01300612234646334,0.5679015789099026,0.011191715503162962,-0.064064,-35.31042
11.185,2.0,1.0,1.0,33.4,33.0,33.0,2.4,1.8,2.5325,0.810145013753088,-0.013273783982762802,0.5734714935690757,0.011246894433141827,-0.064736,-35.190077
11.185,2.0,1.0,1.0,33.4,33.0,33.0,2.4,1.8,2.535,0.8060792215493819,-0.013546581143743124,0.57903829686858,0.011300939144021723,-0.065421,-35.06931
11.185,2.0,1.0,1.0,33.4,33.0,33.0,2.4,1.8,2.5375,0.8019548072215147,-0.013824625098876645,0.5846016650379282,0.01135378754955209,-0.06612,-34.94811
11.185,2.0,1.0,1.0,33.4,33.0,33.0,2.4,1.8,2.54,0.7977711344996852,-0.014108030025465932,0.590161263876802,0.011405374948447844,-0.066832,-34.826469
11.185,2.0,1.0,1.0,33.4,33.0,33.0,2.4,1.8,2.5425,0.7935275564074779,-0.014396913095914367,0.5957167483961492,0.011455633908094447,-0.067559,-34.704379
11.185,2.0,1.0,1.0,33.4,33.0,33.0,2.4,1.8,2.545,0.7892234150763691,-0.014691394567884222,0.601267762446313,0.01150449414261687,-0.068299,-34.581831
11.185,2.0,1.0,1.0,33.4,33.0,33.0,2.4,1.8,2.5475,0.7848580415573835,-0.014991597877443382,0.6068139383316501,0.01155188238501097,-0.069055,-34.458817
11.185,2.0,1.0,1.0,33.4,33.0,33.0,2.4,1.8,2.55,0.7804307556298807,-0.015297649735306992,0.6123548964111148,0.011597722253018174,-0.069825,-34.335328
11.185,2.0,1.0,1.0,33.4,33.0,33.0,2.4,1.8,2.5525,0.7759408656074788,-0.015609680226281205,0.6178902446841963,0.011641934108405024,-0.070611,-34.211354
11.185,2.0,1.0,1.0,33.4,33.0,33.0,2.4,1.8,2.555,0.7713876681410955,-0.015927822912022785,0.6234195783616412,0.01168443490928932,-0.071413,-34.086887
11.185,2.0,1.0,1.0,33.4,33.0,33.0,2.4,1.8,2.5575,0.7667704480191133,-0.016252214937229687,0.6289424794203072,0.011725138055132579,-0.072232,-33.961919
11.185,2.0,1.0,1.0,33.4,33.0,33.0,2.4,1.8,2.56,0.7620884779646703,-0.01658299713938327,0.6344585161414932,0.011763953223995486,-0.073067,-33.836438
11.185,2.0,1.0,1.0,33.4,33.0,33.0,2.4,1.8,2.5625,0.757341018430081,-0.016920314162165523,0.6399672426320462,0.011800786201628723,-0.073919,-33.710437
11.185,2.0,1.0,1.0,33.4,33.0,33.0,2.4,1.8,2.565,0.7525273173883972,-0.017264314572679393,0.6454681983275248,0.01183553870194494,-0.074789,-33.583905
11.185,2.0,1.0,1.0,33.4,33.0,33.0,2.4,1.8,2.5675,0.7476466101221295,-0.017615150982604143,0.6509609074766439,0.011868108178389545,-0.075677,-33.456833
11.185,2.0,1.0,1.0,33.4,33.0,33.0,2.4,1.8,2.57,0.7426981190091417,-0.01797298017342145,0.6564448786062012,0.011898387625698413,-0.076584,-33.329211
11.185,2.0,1.0,1.0,33.4,33.0,33.0,2.4,1.8,2.5725,0.7376810533057515,-0.018337963225852537,0.6619196039656515,0.011926265371497897,-0.07751,-33.201029
11.185,2.0,1.0,1.0,33.4,33.0,33.0,2.4,1.8,2.575,0.7325946089270639,-0.018710265653650426,0.6673845589504276,0.01195162485716889,-0.078456,-33.072276
11.185,2.0,1.0,1.0,33.4,33.0,33.0,2.4,1.8,2.5775,0.7274379682245805,-0.019090057541895702,0.6728392015030881,0.01197434440735936,-0.079422,-32.942943
11.185,2.0,1.0,1.0,33.4,33.0,33.0,2.4,1.8,2.58,0.7222102997611313,-0.019477513689947677,0.6782829714913043,0.01199429698749105,-0.080409,-32.813018
11.185,2.0,1.0,1.0,33.4,33.0,33.0,2.4,1.8,2.5825,0.7169107580831765,-0.019872813759208324,0.6837152900616643,0.012011349948563614,-0.081417,-32.682491
11.185,2.0,1.0,1.0,33.4,33.0,33.0,2.4,1.8,2.585,0.7115384834905523,-0.020276142425858137,0.6891355589682029,0.012025364758514536,-0.082447,-32.551351
11.185,2.0,1.0,1.0,33.4,33.0,33.0,2.4,1.8,2.5875,0.7060926018037182,-0.020687689538729622,0.6945431598745191,0.012036196719344727,-0.0835,-32.419587
11.185,2.0,1.0,1.0,33.4,33.0,33.0,2.4,1.8,2.59,0.7005722241286038,-0.021107650282485024,0.6999374536282746,0.012043694669168159,-0.084577,-32.287187
11.185,2.0,1.0,1.0,33.4,33.0,33.0,2.4,1.8,2.5925,0.6949764466191323,-0.021536225346270785,0.7053177795068096,0.012047700668288018,-0.085677,-32.15414
11.185,2.0,1.0,1.0,33.4,33.0,33.0,2.4,1.8,2.595,0.6893043502375464,-0.021973621098022596,0.710683454432527,0.01204804966834237,-0.086802,-32.020435
11.185,2.0,1.0,1.0,33.4,33.0,33.0,2.4,1.8,2.5975,0.683555000512633,-0.022420049764599843,0.7160337721566475,0.012044569163498187,-0.087953,-31.886058
11.185,2.0,1.0,1.0,33.4,33.0,33.0,2.4,1.8,2.6,0.6777274472959948,-0.022875729617928935,0.721368002409835,0.012037078822603733,-0.08913,-31.750999
11.185,2.0,1.0,1.0,33.4,33.0,33.0,2.4,1.8,2.6025,0.6718207245165164,-0.023340885167337913,0.7266853900181139,0.0120253901011354,-0.090334,-31.615244
11.185,2.0,1.0,1.0,33.4,33.0,33.0,2.4,1.8,2.605,0.6658338499331832,-0.02381574735826794,0.7319851539824263,0.012009305831695107,-0.091565,-31.478781
11.185,2.0,1.0,1.0,33.4,33.0,33.0,2.4,1.8,2.6075,0.6597658248864454,-0.024300553777544386,0.7372664865200528,0.011988619791729424,-0.092826,-31.341596
11.185,2.0,1.0,1.0,33.4,33.0,33.0,2.4,1.8,2.61,0.6536156340483334,-0.024795548865395072,0.742528552066042,0.01196311624704844,-0.094116,-31.203678
11.185,2.0,1.0,1.0,33.4,33.0,33.0,2.4,1.8,2.6125,0.6473822451715447,-0.025300984134398817,0.7477704862326645,0.011932569469623755,-0.095437,-31.065012
11.185,2.0,1.0,1.0,33.4,33.0,33.0,2.4,1.8,2.615,0.6410646088377607,-0.02581711839554854,0.7529913947248216,0.011896743228037387,-0.09679,-30.925585
11.185,2.0,1.0,1.0,33.4,33.0,33.0,2.4,1.8,2.6175,0.6346616582054722,-0.026344217991607903,0.7581903522091578,0.01185539024883838,-0.098175,-30.785382
11.185,2.0,1.0,1.0,33.4,33.0,33.0,2.4,1.8,2.62,0.6281723087576231,-0.026882557037937842,0.7633664011345472,0.011808251646938384,-0.099593,-30.64439
11.185,2.0,1.0,1.0,33.4,33.0,33.0,2.4,1.8,2.6225,0.6215954580494076,-0.02743241767096319,0.768518550501451,0.011755056323044171,-0.101047,-30.502593
11.185,2.0,1.0,1.0,33.4,33.0,33.0,2.4,1.8,2.625,0.61492998545661,-0.0279940903044403,0.773645774577479,0.0116955203259783,-0.102536,-30.359978
11.185,2.0,1.0,1.0,33.4,33.0,33.0,2.4,1.8,2.6275,0.6081747519248893,-0.028567873893678965,0.7787470115563432,0.011629346177582997,-0.104063,-30.216528
11.185,2.0,1.0,1.0,33.4,33.0,33.0,2.4,1.8,2.63,0.6013285997204771,-0.029154076207857503,0.7838211621571952,0.011556222157732065,-0.105628,-30.072228
11.185,2.0,1.0,1.0,33.4,33.0,33.0,2.4,1.8,2.6325,0.5943903521827919,-0.029753014110554792,0.788867088161147,0.011475821546791446,-0.107232,-29.927062
11.185,2.0,1.0,1.0,33.4,33.0,33.0,2.4,1.8,2.635,0.587358813479527,-0.030365013848605345,0.7938836108815712,0.011387801822670202,-0.108878,-29.781015
11.185,2.0,1.0,1.0,33.4,33.0,33.0,2.4,1.8,2.6375,0.5802327683648411,-0.030990411349358756,0.7988695095645327,0.011291803809388027,-0.110566,-29.634069
11.185,2.0,1.0,1.0,33.4,33.0,33.0,2.4,1.8,2.64,0.5730109819413072,-0.03162955252640105,0.8038235197154951,0.011187450773850763,-0.112298,-29.486207
11.185,2.0,1.0,1.0,33.4,33.0,33.0,2.4,1.8,2.6425,0.5656921994263989,-0.032282793593759594,0.8087443313481362,0.011074347467272594,-0.114076,-29.337412
11.185,2.0,1.0,1.0,33.4,33.0,33.0,2.4,1.8,2.645,0.5582751459243257,-0.03295050138857865,0.8136305871508569,0.010952079107407147,-0.115901,-29.187667
11.185,2.0,1.0,1.0,33.4,33.0,33.0,2.4,1.8,2.6475,0.550758526204144,-0.03363305370220548,0.8184808805662437,0.010820210297451194,-0.117774,-29.036952
11.185,2.0,1.0,1.0,33.4,33.0,33.0,2.4,1.8,2.65,0.5431410244851417,-0.03433083961957812,0.8232937537784103,0.010678283877158532,-0.119698,-28.88525
11.185,2.0,1.0,1.0,33.4,33.0,33.0,2.4,1.8,2.6525,0.5354213042306454,-0.03504425986673968,0.8280676956027886,0.010525819701349165,-0.121675,-28.732541
11.185,2.0,1.0,1.0,33.4,33.0,33.0,2.4,1.8,2.655,0.5275980079514574,-0.035773727166239715,0.8328011392725363,0.010362313340612243,-0.123706,-28.578806
11.185,2.0,1.0,1.0,33.4,33.0,33.0,2.4,1.8,2.6575,0.5196697570203183,-0.036519666600095535,0.8374924601153139,0.0101872346985832,-0.125794,-28.424025
11.185,2.0,1.0,1.0,33.4,33.0,33.0,2.4,1.8,2.66,0.511635151498903,-0.037282515979893564,0.8421399731137007,0.010000026539717728,-0.127941,-28.268177
11.185,2.0,1.0,1.0,33.4,33.0,33.0,2.4,1.8,2.6625,0.5034927699790549,-0.038062726223498974,0.8467419303420356,0.009800102920987378,-0.130148,-28.11124
11.185,2.0,1.0,1.0,33.4,33.0,33.0,2.4,1.8,2.665,0.49524116944010516,-0.03886076173771633,0.8512965182719083,0.009586847520377076,-0.132419,-27.953195
11.185,2.0,1.0,1.0,33.4,33.0,33.0,2.4,1.8,2.6675,0.4868788851243889,-0.03967710080609246,0.8558018549379172,0.009359611854471414,-0.134755,-27.794017
11.185,2.0,1.0,1.0,33.4,33.0,33.0,2.4,1.8,2.67,0.47840443043325015,-0.0405122359808866,0.86025598695468,0.009117713376767322,-0.13716,-27.633685
11.185,2.0,1.0,1.0,33.4,33.0,33.0,2.4,1.8,2.6725,0.4698162968461232,-0.04136667447803528,0.8646568863753461,0.008860433447640308,-0.139637,-27.472176
11.185,2.0,1.0,1.0,33.4,33.0,33.0,2.4,1.8,2.675,0.4611129538655584,-0.04224093857371154,0.8690024473811062,0.008587015166115455,-0.142187,-27.309464
11.185,2.0,1.0,1.0,33.4,33.0,33.0,2.4,1.8,2.6775,0.45229284899140476,-0.04313556600082164,0.8732904827903023,0.008296661052742918,-0.144814,-27.145526
11.185,2.0,1.0,1.0,33.4,33.0,33.0,2.4,1.8,2.68,0.44335440772771245,-0.04405111034347923,0.877518720374864,0.007988530571945296,-0.147522,-26.980336
11.185,2.0,1.0,1.0,33.4,33.0,33.0,2.4,1.8,2.6825,0.4342960336263767,-0.044988141427154946,0.8816847989707157,0.007661737481182031,-0.150314,-26.813868
11.185,2.0,1.0,1.0,33.4,33.0,33.0,2.4,1.8,2.685,0.42511610837198716,-0.045947245701801524,0.8857862643677255,0.007315346993152915,-0.153192,-26.646096
11.185,2.0,1.0,1.0,33.4,33.0,33.0,2.4,1.8,2.6875,0.4158129919129043,-0.046929026614799474,0.8898205649635202,0.006948372736030513,-0.156162,-26.476991
11.185,2.0,1.0,1.0,33.4,33.0,33.0,2.4,1.8,2.69,0.40638502264421494,-0.0479341049700404,0.8937850471641253,0.006559773495356577,-0.159227,-26.306526
11.185,2.0,1.0,1.0,33.4,33.0,33.0,2.4,1.8,2.6925,0.3968305176488686,-0.04896311926886624,0.8976769505129366,0.006148449719746437,-0.162392,-26.134671
11.185,2.0,1.0,1.0,33.4,33.0,33.0,2.4,1.8,2.695,0.38714777300414954,-0.05001672602788005,0.901493402527866,0.005713239770906093,-0.16566,-25.961396
11.185,2.0,1.0,1.0,33.4,33.0,33.0,2.4,1.8,2.6975,0.37733506416147755,-0.0510956000678504,0.9052314132247384,0.005252915896658377,-0.169036,-25.78667
11.185,2.0,1.0,1.0,33.4,33.0,33.0,2.4,1.8,2.7,0.36739064640861036,-0.05220043476700176,0.9088878693029993,0.0047661799036846616,-0.172526,-25.610462
11.185,2.0,1.0,1.0,33.4,33.0,33.0,2.4,1.8,2.7025,0.35731275542445295,-0.053331942270926753,0.9124595279676444,0.0042516585044898615,-0.176135,-25.432738
11.185,2.0,1.0,1.0,33.4,33.0,33.0,2.4,1.8,2.705,0.34709960793804995,-0.05449085365012244,0.915943010358844,0.0037078983106747718,-0.179868,-25.253465
11.185,2.0,1.0,1.0,33.4,33.0,33.0,2.4,1.8,2.7075,0.3367494025048265,-0.05567791899474583,0.9193347945580987,0.0031333604419203015,-0.183732,-25.072608
11.185,2.0,1.0,1.0,33.4,33.0,33.0,2.4,1.8,2.71,0.3262603204149593,-0.05689390743454431,0.9226312081367841,0.0025264147171279007,-0.187732,-24.890129
11.185,2.0,1.0,1.0,33.4,33.0,33.0,2.4,1.8,2.7125,0.3156305267507054,-0.05813960707003318,0.9258284202097289,0.001885333390885026,-0.191875,-24.705994
11.185,2.0,1.0,1.0,33.4,33.0,33.0,2.4,1.8,2.715,0.3048581716118788,-0.05941582479881096,0.9289224329528314,0.0012082843948011894,-0.196169,-24.520162
11.185,2.0,1.0,1.0,33.4,33.0,33.0,2.4,1.8,2.7175,0.29394139153129833,-0.060723386018377665,0.931909072539752,0.0004933240392450744,-0.200621,-24.332594
11.185,2.0,1.0,1.0,33.4,33.0,33.0,2.4,1.8,2.72,0.28287831110511913,-0.06206313418389875,0.9347839794482785,-0.0002616108734320112,-0.205239,-24.143249
11.185,2.0,1.0,1.0,33.4,33.0,33.0,2.4,1.8,2.7225,0.27166704486645465,-0.06343593019597303,0.9375425980820673,-0.001058711578034241,-0.210032,-23.952084
11.185,2.0,1.0,1.0,33.4,33.0,33.0,2.4,1.8,2.725,0.26030569943485005,-0.06484265158952568,0.940180165647998,-0.0019003065773338804,-0.215009,-23.759056
11.185,2.0,1.0,1.0,33.4,33.0,33.0,2.4,1.8,2.7275,0.2487923759787996,-0.06628419149039323,0.9426917002233709,-0.002788871639944575,-0.22018,-23.564119
11.185,2.0,1.0,1.0,33.4,33.0,33.0,2.4,1.8,2.73,0.23712517303406777,-0.06776145730085356,0.9450719879404235,-0.003727040637373603,-0.225556,-23.367227
11.185,2.0,1.0,1.0,33.4,33.0,33.0,2.4,1.8,2.7325,0.225302189726855,-0.06927536906918608,0.9473155692081987,-0.004717617299855882,-0.231148,-23.168329
11.185,2.0,1.0,1.0,33.4,33.0,33.0,2.4,1.8,2.735,0.21332152945826033,-0.07082685749115254,0.9494167238835236,-0.005763587978879324,-0.236967,-22.967376
11.185,2.0,1.0,1.0,33.4,33.0,33.0,2.4,1.8,2.7375,0.2011813041150651,-0.07241686148290319,0.9513694552936031,-0.006868135513543447,-0.243028,-22.764316
11.185,2.0,1.0,1.0,33.4,33.0,33.0,2.4,1.8,2.74,0.18887963888186182,-0.07404632525501581,0.9531674730025357,-0.008034654308145131,-0.249343,-22.559094
11.185,2.0,1.0,1.0,33.4,33.0,33.0,2.4,1.8,2.7425,0.1764146777412174,-0.07571619480592907,0.9548041742026291,-0.009266766739777646,-0.255928,-22.351654
11.185,2.0,1.0,1.0,33.4,33.0,33.0,2.4,1.8,2.745,0.16378458976219168,-0.07742741373962354,0.9562726235987807,-0.010568341027374901,-0.262799,-22.141938
11.185,2.0,1.0,1.0,33.4,33.0,33.0,2.4,1.8,2.7475,0.1509875762935038,-0.07918091829669648,0.957565531640093,-0.011943510707672978,-0.269974,-21.929885
11.185,2.0,1.0,1.0,33.4,33.0,33.0,2.4,1.8,2.75,0.138021879196314,-0.0809776314695401,0.958675230937328,-0.0133966958791328,-0.277471,-21.715432
11.185,2.0,1.0,1.0,33.4,33.0,33.0,2.4,1.8,2.7525,0.12488579027356563,-0.08281845605066247,0.9595936506874844,-0.01493262639212222,-0.28531,-21.498514
11.185,2.0,1.0,1.0,33.4,33.0,33.0,2.4,1.8,2.755,0.11157766207863004,-0.08470426643769374,0.9603122889076331,-0.016556367182752166,-0.293513,-21.279063
11.185,2.0,1.0,1.0,33.4,33.0,33.0,2.4,1.8,2.7575,0.09809592031638185,-0.08663589898857267,0.960822182258933,-0.01827334596886345,-0.302105,-21.057009
11.185,2.0,1.0,1.0,33.4,33.0,33.0,2.4,1.8,2.76,0.08443907808569943,-0.08861414068494256,0.9611138732183927,-0.020089383549913204,-0.31111,-20.832277
11.185,2.0,1.0,1.0,33.4,33.0,33.0,2.4,1.8,2.7625,0.07060575225466313,-0.09063971581987929,0.9611773743302308,-0.022010726978086974,-0.320558,-20.604792
11.185,2.0,1.0,1.0,33.4,33.0,33.0,2.4,1.8,2.765,0.0565946823098659,-0.09271327037646833,0.9610021292404283,-0.02404408589596537,-0.330477,-20.374475
11.185,2.0,1.0,1.0,33.4,33.0,33.0,2.4,1.8,2.7675,0.042404752080542944,-0.094835353704953,0.9605769701873413,-0.026196672366617824,-0.340901,-20.141242
11.185,2.0,1.0,1.0,33.4,33.0,33.0,2.4,1.8,2.77,0.02803501480864842,-0.09700639703639011,0.959890071587772,-0.028476244555106542,-0.351867,-19.905008
11.185,2.0,1.0,1.0,33.4,33.0,33.0,2.4,1.8,2.7725,0.013484722119662255,-0.09922668828778068,0.9589288993219585,-0.03089115465600098,-0.363413,-19.665682
11.185,2.0,1.0,1.0,33.4,33.0,33.0,2.4,1.8,2.775,-0.001246642451420262,-0.1014963425148771,0.9576801552824699,-0.033450401499452276,-0.375583,-19.423173
11.185,2.0,1.0,1.0,33.4,33.0,33.0,2.4,1.8,2.7775,-0.016159324605804912,-0.1038152672511209,0.9561297167116156,-0.03616368830827104,-0.388423,-19.177382
11.185,2.0,1.0,1.0,33.4,33.0,33.0,2.4,1.8,2.78,-0.031253254183443116,-0.10618312183058427,0.9542625698101127,-0.03904148611964258,-0.401986,-18.928208
11.185,2.0,1.0,1.0,33.4,33.0,33.0,2.4,1.8,2.7825,-0.04652799273801364,-0.10859926962473264,0.9520627370575028,-0.0420951034265629,-0.416329,-18.675546
11.185,2.0,1.0,1.0,33.4,33.0,33.0,2.4,1.8,2.785,-0.06198267249723649,-0.11106272192166428,0.9495131976438081,-0.04533676263423603,-0.431513,-18.419286
11.185,2.0,1.0,1.0,33.4,33.0,33.0,2.4,1.8,2.7875,-0.07761592517814898,-0.11357207193537967,0.9465958003742843,-0.048779683963190226,-0.447608,-18.159314
11.185,2.0,1.0,1.0,33.4,33.0,33.0,2.4,1.8,2.79,-0.09342579883535246,-0.11612541714338658,0.9432911683783285,-0.052438177460471844,-0.464691,-17.895511
11.185,2.0,1.0,1.0,33.4,33.0,33.0,2.4,1.8,2.7925,-0.10940966056981626,-0.1187202678035436,0.939578594934352,-0.056327743798171806,-0.482845,-17.627751
11.185,2.0,1.0,1.0,33.4,33.0,33.0,2.4,1.8,2.795,-0.12556408250455803,-0.12135343908353045,0.9354359297211601,-0.06046518453814921,-0.502165,-17.355908
11.185,2.0,1.0,1.0,33.4,33.0,33.0,2.4,1.8,2.7975,-0.14188470792694477,-0.12402092373418755,0.9308394548327847,-0.06486872251380538,-0.522755,-17.079846
11.185,2.0,1.0,1.0,33.4,33.0,33.0,2.4,1.8,2.8,-0.15836609388759015,-0.12671774163392752,0.9257637499600456,-0.06955813291140685,-0.544731,-16.799427
11.185,2.0,1.0,1.0,33.4,33.0,33.0,2.4,1.8,2.8025,-0.17500152581240386,-0.12943776180476071,0.9201815462667013,-0.07455488550701139,-0.568224,-16.514505
11.185,2.0,1.0,1.0,33.4,33.0,33.0,2.4,1.8,2.805,-0.19178279880185767,-0.13217349162674225,0.9140635686946369,-0.07988229830635885,-0.593377,-16.224932
11.185,2.0,1.0,1.0,33.4,33.0,33.0,2.4,1.8,2.8075,-0.20869995923154755,-0.13491582692811863,0.9073783667547871,-0.08556570251102884,-0.620354,-15.930552
11.185,2.0,1.0,1.0,33.4,33.0,33.0,2.4,1.8,2.81,-0.2257409989961969,-0.1376537553698837,0.900092134343455,-0.09163261824957568,-0.649339,-15.631206
11.185,2.0,1.0,1.0,33.4,33.0,33.0,2.4,1.8,2.8125,-0.24289149321762837,-0.14037400403811479,0.8921685198294003,-0.09811293980583277,-0.680537,-15.32673
11.185,2.0,1.0,1.0,33.4,33.0,33.0,2.4,1.8,2.815,-0.26013417042300463,-0.14306062036374734,0.8835684286689593,-0.10503912806487291,-0.714183,-15.016955
11.185,2.0,1.0,1.0,33.4,33.0,33.0,2.4,1.8,2.8175,-0.27744840204849874,-0.1456944733634164,0.8742498222384127,-0.11244640646744854,-0.750541,-14.70171
11.185,2.0,1.0,1.0,33.4,33.0,33.0,2.4,1.8,2.82,-0.2948095955907245,-0.14825265969373078,0.8641675185775081,-0.12037295476408395,-0.789911,-14.380821
11.185,2.0,1.0,1.0,33.4,33.0,33.0,2.4,1.8,2.8225,-0.3121884727774218,-0.15070779609894264,0.8532730035220296,-0.1288600920858217,-0.832637,-14.054112
11.185,2.0,1.0,1.0,33.4,33.0,33.0,2.4,1.8,2.825,-0.3295502107391228,-0.1530271764900054,0.8415142645421481,-0.1379524370261383,-0.879111,-13.721408
11.185,2.0,1.0,1.0,33.4,33.0,33.0,2.4,1.8,2.8275,-0.34685342035053013,-0.155171768137937,0.8288356648651256,-0.14769802719318123,-0.92978,-13.382537
11.185,2.0,1.0,1.0,33.4,33.0,33.0,2.4,1.8,2.83,-0.3640489317510009,-0.15709501737569853,0.8151778826319043,-0.15814837356126193,-0.985163,-13.037332
