1,w,sub_t,h,l1,l2,l3,g1,g2,Freq,S11_re,S21_re,S11_img,S21_img,S11_dB,S21_dB
11.185,2.0,1.0,1.0,34.2,34.6,34.6,4.2,2.4,2.5,0.753418964707887,-0.0102747483899036,0.645973689774908,0.00527149584489173,-0.065981,-38.749773
11.185,2.0,1.0,1.0,34.2,34.6,34.6,4.2,2.4,2.5025,0.7484514433880287,-0.010472607388273691,0.6515957277927674,0.005263432626810879,-0.066711,-38.620789
11.185,2.0,1.0,1.0,34.2,34.6,34.6,4.2,2.4,2.505,0.7434160288592978,-0.010674269647466135,0.6572063883393705,0.005253641527669141,-0.067456,-38.491184
11.185,2.0,1.0,1.0,34.2,34.6,34.6,4.2,2.4,2.5075,0.7383120220876606,-0.010879828228901347,0.6628051197613736,0.005242053783710219,-0.068217,-38.360942
11.185,2.0,1.0,1.0,34.2,34.6,34.6,4.2,2.4,2.51,0.7331387139749638,-0.011089379313897637,0.6683913543254948,0.005228597730269747,-0.068993,-38.230047
11.185,2.0,1.0,1.0,34.2,34.6,34.6,4.2,2.4,2.5125,0.7278953852099076,-0.011303022340562132,0.6739645077077816,0.005213198655802027,-0.069785,-38.098483
11.185,2.0,1.0,1.0,34.2,34.6,34.6,4.2,2.4,2.515,0.7225813061156648,-0.011520860148151506,0.6795239784644289,0.00519577864709001,-0.070594,-37.966235
11.185,2.0,1.0,1.0,34.2,34.6,34.6,4.2,2.4,2.5175,0.7171957364939283,-0.011742999129386134,0.6850691474832713,0.005176256425008725,-0.07142,-37.833284
11.185,2.0,1.0,1.0,34.2,34.6,34.6,4.2,2.4,2.52,0.7117379254651133,-0.011969549391238152,0.690599377415049,0.005154547170160516,-0.072264,-37.699614
11.185,2.0,1.0,1.0,34.2,34.6,34.6,4.2,2.4,2.5225,0.706207111304452,-0.01220062492475166,0.6961140120834453,0.005130562337643114,-0.073125,-37.565206
11.185,2.0,1.0,1.0,34.2,34.6,34.6,4.2,2.4,2.525,0.7006025212736485,-0.012436343784497057,0.7016123758728706,0.005104209460149022,-0.074006,-37.430044
11.185,2.0,1.0,1.0,34.2,34.6,34.6,4.2,2.4,2.5275,0.6949233714477551,-0.012676828278306183,0.7070937730928678,0.00507539193852706,-0.074906,-37.294106
11.185,2.0,1.0,1.0,34.2,34.6,34.6,4.2,2.4,2.53,0.6891688665368888,-0.01292220516798481,0.7125574873179361,0.005044008818861265,-0.075826,-37.157376
11.185,2.0,1.0,1.0,34.2,34.6,34.6,4.2,2.4,2.5325,0.6833381997023675,-0.013172605881753514,0.7180027807015007,0.00500995455504042,-0.076767,-37.019832
11.185,2.0,1.0,1.0,34.2,34.6,34.6,4.2,2.4,2.535,0.6774305523667873,-0.013428166739226168,0.7234288932626516,0.004973118755701305,-0.077729,-36.881454
11.185,2.0,1.0,1.0,34.2,34.6,34.6,4.2,2.4,2.5375,0.6714450940175422,-0.0136890291897989,0.7288350421441596,0.004933385914328774,-0.078713,-36.742221
11.185,2.0,1.0,1.0,34.2,34.6,34.6,4.2,2.4,2.54,0.6653809820032045,-0.013955340065392473,0.7342204208401972,0.004890635121186957,-0.079719,-36.602111
11.185,2.0,1.0,1.0,34.2,34.6,34.6,4.2,2.4,2.5425,0.6592373613221383,-0.014227251848565799,0.7395841983920337,0.0048447397556350665,-0.080749,-36.461103
11.185,2.0,1.0,1.0,34.2,34.6,34.6,4.2,2.4,2.545,0.6530133644026527,-0.014504922957101209,0.7449255185498626,0.004795567157248288,-0.081803,-36.319173
11.185,2.0,1.0,1.0,34.2,34.6,34.6,4.2,2.4,2.5475,0.646708110873934,-0.014788518046250945,0.75024349889875,0.004742978274017426,-0.082882,-36.176297
11.185,2.0,1.0,1.0,34.2,34.6,34.6,4.2,2.4,2.55,0.6403207073268888,-0.015078208329933802,0.7555372299465548,0.004686827285738857,-0.083987,-36.032451
11.185,2.0,1.0,1.0,34.2,34.6,34.6,4.2,2.4,2.5525,0.6338502470639901,-0.015374171922275368,0.7608057741714487,0.00462696120052674,-0.085118,-35.88761
11.185,2.0,1.0,1.0,34.2,34.6,34.6,4.2,2.4,2.555,0.6272958098370656,-0.015676594201004288,0.7660481650265077,0.00456321942218035,-0.086278,-35.741748
11.185,2.0,1.0,1.0,34.2,34.6,34.6,4.2,2.4,2.5575,0.6206564615718972,-0.015985668194343286,0.7712634058985972,0.004495433285919372,-0.087466,-35.594837
11.185,2.0,1.0,1.0,34.2,34.6,34.6,4.2,2.4,2.56,0.6139312540783722,-0.01630159499317301,0.7764504690185241,0.004423425559754726,-0.088684,-35.44685
11.185,2.0,1.0,1.0,34.2,34.6,34.6,4.2,2.4,2.5625,0.6071192247447821,-0.016624584190400287,0.781608294319172,0.0043470099084909845,-0.089932,-35.297758
11.185,2.0,1.0,1.0,34.2,34.6,34.6,4.2,2.4,2.565,0.600219396214732,-0.016954854349629254,0.7867357882380277,0.004265990317053055,-0.091213,-35.147532
11.185,2.0,1.0,1.0,34.2,34.6,34.6,4.2,2.4,2.5675,0.5932307760449606,-0.01729263350541664,0.791831822460145,0.004180160469493781,-0.092526,-34.996141
11.185,2.0,1.0,1.0,34.2,34.6,34.6,4.2,2.4,2.57,0.5861523563421824,-0.0176381596975945,0.7968952325972579,0.0040893030796617285,-0.093874,-34.843552
11.185,2.0,1.0,1.0,34.2,34.6,34.6,4.2,2.4,2.5725,0.5789831133768741,-0.01799168154236362,0.8019248167982936,0.003993189169089424,-0.095258,-34.689733
11.185,2.0,1.0,1.0,34.2,34.6,34.6,4.2,2.4,2.575,0.5717220071717006,-0.01835345884310348,0.8069193342860959,0.003891577287192327,-0.096679,-34.53465
11.185,2.0,1.0,1.0,34.2,34.6,34.6,4.2,2.4,2.5775,0.5643679810620442,-0.018723763244110805,0.8118775038146173,0.0037842126683432834,-0.098138,-34.378266
11.185,2.0,1.0,1.0,34.2,34.6,34.6,4.2,2.4,2.58,0.5569199612258219,-0.019102878930771616,0.8167980020402731,0.003670826319797564,-0.099637,-34.220547
11.185,2.0,1.0,1.0,34.2,34.6,34.6,4.2,2.4,2.5825,0.5493768561794713,-0.01949110337999446,0.8216794618004785,0.0035511340337818897,-0.101179,-34.061452
11.185,2.0,1.0,1.0,34.2,34.6,34.6,4.2,2.4,2.585,0.5417375562366766,-0.01988874816508639,0.8265204702916367,0.003424835316317117,-0.102763,-33.900943
11.185,2.0,1.0,1.0,34.2,34.6,34.6,4.2,2.4,2.5875,0.5340009329260126,-0.020296139819645502,0.8313195671380341,0.00329161222450634,-0.104393,-33.738979
11.185,2.0,1.0,1.0,34.2,34.6,34.6,4.2,2.4,2.59,0.5261658383633032,-0.020713620765473305,0.8360752423421234,0.003151128103076544,-0.10607,-33.575516
11.185,2.0,1.0,1.0,34.2,34.6,34.6,4.2,2.4,2.5925,0.5182311045740158,-0.021141550309987468,0.8407859341056471,0.0030030262098944215,-0.107796,-33.41051
11.185,2.0,1.0,1.0,34.2,34.6,34.6,4.2,2.4,2.595,0.5101955427605424,-0.021580305719137743,0.8454500265098055,0.0028469282189727686,-0.109574,-33.243916
11.185,2.0,1.0,1.0,34.2,34.6,34.6,4.2,2.4,2.5975,0.5020579425086273,-0.022030283372409847,0.8500658470413519,0.0026824325881164702,-0.111406,-33.075683
11.185,2.0,1.0,1.0,34.2,34.6,34.6,4.2,2.4,2.6,0.4938170709266112,-0.022491900007139864,0.8546316639499233,0.002509112776808231,-0.113293,-32.905764
11.185,2.0,1.0,1.0,34.2,34.6,34.6,4.2,2.4,2.6025,0.4854716717104792,-0.022965594060069074,0.8591456834201526,0.002326515298173274,-0.11524,-32.734104
11.185,2.0,1.0,1.0,34.2,34.6,34.6,4.2,2.4,2.605,0.4770204641269138,-0.023451827114851886,0.8636060465401222,0.002134157586857549,-0.117248,-32.560649
11.185,2.0,1.0,1.0,34.2,34.6,34.6,4.2,2.4,2.6075,0.4684621419057438,-0.023951085465092076,0.868010826045417,0.0019315256623680852,-0.11932,-32.385343
11.185,2.0,1.0,1.0,34.2,34.6,34.6,4.2,2.4,2.61,0.4597953720322285,-0.024463881803438257,0.8723580228154284,0.0017180715648135365,-0.12146,-32.208125
11.185,2.0,1.0,1.0,34.2,34.6,34.6,4.2,2.4,2.6125,0.45101879342857804,-0.024990757048326713,0.8766455620955672,0.001493210536994293,-0.123671,-32.028935
11.185,2.0,1.0,1.0,34.2,34.6,34.6,4.2,2.4,2.615,0.4421310155129572,-0.02553228232112704,0.880871289415624,0.001256317923365439,-0.125956,-31.847705
11.185,2.0,1.0,1.0,34.2,34.6,34.6,4.2,2.4,2.6175,0.4331306166229626,-0.02608906108773639,0.8850329661705545,0.0010067257524607616,-0.12832,-31.664369
11.185,2.0,1.0,1.0,34.2,34.6,34.6,4.2,2.4,2.62,0.424016142289123,-0.026661731480095225,0.8891282648254502,0.0007437189648336034,-0.130766,-31.478855
11.185,2.0,1.0,1.0,34.2,34.6,34.6,4.2,2.4,2.6225,0.4147861033424192,-0.027250968814671782,0.8931547637011984,0.0004665312433474471,-0.133299,-31.291088
11.185,2.0,1.0,1.0,34.2,34.6,34.6,4.2,2.4,2.625,0.405438973838098,-0.0278574883266967,0.897109941291303,0.000174340396606996,-0.135924,-31.100991
11.185,2.0,1.0,1.0,34.2,34.6,34.6,4.2,2.4,2.6275,0.3959731887761169,-0.028482048140844082,0.9009911700532898,-0.00013373676067384872,-0.138646,-30.90848
11.185,2.0,1.0,1.0,34.2,34.6,34.6,4.2,2.4,2.63,0.38638714159646953,-0.029125452501153972,0.9047957096100246,-0.0004586500946930809,-0.141469,-30.71347
11.185,2.0,1.0,1.0,34.2,34.6,34.6,4.2,2.4,2.6325,0.3766791814253243,-0.029788555285297266,0.9085206992867267,-0.0008014224807444943,-0.144401,-30.515869
11.185,2.0,1.0,1.0,34.2,34.6,34.6,4.2,2.4,2.635,0.36684761004535255,-0.03047226383080234,0.9121631498984664,-0.0011631568573599617,-0.147448,-30.315582
11.185,2.0,1.0,1.0,34.2,34.6,34.6,4.2,2.4,2.6375,0.3568906785608826,-0.03117754310360498,0.9157199346899407,-0.001545044104086259,-0.150616,-30.11251
11.185,2.0,1.0,1.0,34.2,34.6,34.6,4.2,2.4,2.64,0.34680658372545825,-0.03190542024225552,0.9191877793142178,-0.0019483718556721256,-0.153912,-29.906545
11.185,2.0,1.0,1.0,34.2,34.6,34.6,4.2,2.4,2.6425,0.33659346389618733,-0.032656989514309426,0.9225632507192797,-0.002374534383178017,-0.157346,-29.697577
11.185,2.0,1.0,1.0,34.2,34.6,34.6,4.2,2.4,2.645,0.32624939457575414,-0.033433417724837176,0.9258427447902228,-0.002825043693417516,-0.160926,-29.485487
11.185,2.0,1.0,1.0,34.2,34.6,34.6,4.2,2.4,2.6475,0.3157723834993187,-0.03423595012057595,0.9290224725701707,-0.0033015420228201145,-0.164662,-29.270151
11.185,2.0,1.0,1.0,34.2,34.6,34.6,4.2,2.4,2.65,0.3051603652196849,-0.03506591683696704,0.9320984448535704,-0.003805815931040692,-0.168564,-29.051437
11.185,2.0,1.0,1.0,34.2,34.6,34.6,4.2,2.4,2.6525,0.2944111951402726,-0.03592473993908189,0.9350664549106348,-0.004339812234363186,-0.172643,-28.829207
11.185,2.0,1.0,1.0,34.2,34.6,34.6,4.2,2.4,2.655,0.28352264294153867,-0.03681394111112552,0.9379220590601062,-0.004905656060320178,-0.176913,-28.603313
11.185,2.0,1.0,1.0,34.2,34.6,34.6,4.2,2.4,2.6575,0.2724923853429666,-0.037735150052600454,0.9406605547578024,-0.005505671354381565,-0.181387,-28.373597
11.185,2.0,1.0,1.0,34.2,34.6,34.6,4.2,2.4,2.66,0.2613179981396537,-0.038690113642053,0.9432769558088042,-0.006142404228825264,-0.18608,-28.139895
11.185,2.0,1.0,1.0,34.2,34.6,34.6,4.2,2.4,2.6625,0.24999694745042944,-0.039680705931183315,0.9457659642394853,-0.006818649615160727,-0.191009,-27.902029
11.185,2.0,1.0,1.0,34.2,34.6,34.6,4.2,2.4,2.665,0.23852658011379976,-0.04070893903240298,0.948121938279076,-0.007537481767451423,-0.196193,-27.659812
11.185,2.0,1.0,1.0,34.2,34.6,34.6,4.2,2.4,2.6675,0.22690411316977227,-0.041776974960826364,0.95033885579576,-0.008302289267964032,-0.201652,-27.413044
11.185,2.0,1.0,1.0,34.2,34.6,34.6,4.2,2.4,2.67,0.2151266223708278,-0.042887138486023366,0.9524102724050382,-0.009116815313016368,-0.207409,-27.161511
11.185,2.0,1.0,1.0,34.2,34.6,34.6,4.2,2.4,2.6725,0.20319102967566574,-0.04404193103797336,0.954329273313011,-0.00998520421105492,-0.213489,-26.904984
11.185,2.0,1.0,1.0,34.2,34.6,34.6,4.2,2.4,2.675,0.19109408969721559,-0.045244045693218216,0.9560884177673313,-0.010912055213636581,-0.219921,-26.643222
11.185,2.0,1.0,1.0,34.2,34.6,34.6,4.2,2.4,2.6775,0.1788323751049644,-0.046496383237945256,0.9576796747553664,-0.011902485031701035,-0.226737,-26.375962
11.185,2.0,1.0,1.0,34.2,34.6,34.6,4.2,2.4,2.68,0.16640226102548408,-0.04780206926002086,0.9590943483015363,-0.012962200675231022,-0.233971,-26.102925
11.185,2.0,1.0,1.0,34.2,34.6,34.6,4.2,2.4,2.6825,0.15379990855082754,-0.04916447215534076,0.9603229903596567,-0.014097584608076924,-0.241664,-25.82381
11.185,2.0,1.0,1.0,34.2,34.6,34.6,4.2,2.4,2.685,0.1410212475609908,-0.05058722183608262,0.9613552988536377,-0.015315794649301457,-0.249861,-25.538295
11.185,2.0,1.0,1.0,34.2,34.6,34.6,4.2,2.4,2.6875,0.12806195920742974,-0.05207422878650082,0.962179997867396,-0.016624881600948226,-0.258614,-25.246031
11.185,2.0,1.0,1.0,34.2,34.6,34.6,4.2,2.4,2.69,0.1149174586076697,-0.05362970290726649,0.9627846962927382,-0.01803392826948779,-0.26798,-24.946645
11.185,2.0,1.0,1.0,34.2,34.6,34.6,4.2,2.4,2.6925,0.10158287859324831,-0.05525817129555172,0.9631557203728347,-0.019553214413004123,-0.278027,-24.639729
11.185,2.0,1.0,1.0,34.2,34.6,34.6,4.2,2.4,2.695,0.0880530557724071,-0.05696449368705755,0.9632779144784013,-0.021194413238693234,-0.28883,-24.324847
11.185,2.0,1.0,1.0,34.2,34.6,34.6,4.2,2.4,2.6975,0.07432252076992094,-0.05875387368318521,0.9631344030575519,-0.02297082646096704,-0.300477,-24.001522
11.185,2.0,1.0,1.0,34.2,34.6,34.6,4.2,2.4,2.7,0.06038549536917036,-0.06063186302193935,0.962706304922321,-0.024897666694808893,-0.31307,-23.669239
11.185,2.0,1.0,1.0,34.2,34.6,34.6,4.2,2.4,2.7025,0.04623590052197666,-0.0626043549088284,0.961972388762409,-0.02699239821363958,-0.326727,-23.327437
11.185,2.0,1.0,1.0,34.2,34.6,34.6,4.2,2.4,2.705,0.03186738098114545,-0.06467756063331936,0.9609086558627836,-0.029275149991316834,-0.341584,-22.975504
11.185,2.0,1.0,1.0,34.2,34.6,34.6,4.2,2.4,2.7075,0.017273354901904195,-0.06685796110495056,0.9594878322550375,-0.03176921866322264,-0.357803,-22.612773
11.185,2.0,1.0,1.0,34.2,34.6,34.6,4.2,2.4,2.71,0.002447100528501984,-0.0691522211749837,0.9576787477060004,-0.03450168382587987,-0.375575,-22.238514
11.185,2.0,1.0,1.0,34.2,34.6,34.6,4.2,2.4,2.7125,-0.012618102402733495,-0.07156704910021858,0.9554455727253444,-0.03750416425962785,-0.395124,-21.851929
11.185,2.0,1.0,1.0,34.2,34.6,34.6,4.2,2.4,2.715,-0.027928750796511283,-0.07410897540196368,0.9527468767627695,-0.04081375159325119,-0.416719,-21.452142
11.185,2.0,1.0,1.0,34.2,34.6,34.6,4.2,2.4,2.7175,-0.04349077809803744,-0.07678401337486472,0.9495344604893597,-0.04447416810030836,-0.440684,-21.038191
11.185,2.0,1.0,1.0,34.2,34.6,34.6,4.2,2.4,2.72,-0.059309040255744946,-0.07959714561081634,0.9457519019831185,-0.04853720824709503,-0.46741,-20.60902
11.185,2.0,1.0,1.0,34.2,34.6,34.6,4.2,2.4,2.7225,-0.07538654509822508,-0.08255155403471197,0.9413327402498637,-0.0530645398010226,-0.497372,-20.163465
11.185,2.0,1.0,1.0,34.2,34.6,34.6,4.2,2.4,2.725,-0.09172330168689798,-0.08564747029395268,0.9361981995131332,-0.05812996002796543,-0.531155,-19.700248
11.185,2.0,1.0,1.0,34.2,34.6,34.6,4.2,2.4,2.7275,-0.10831460400817315,-0.088880461377475,0.9302543344909967,-0.0638222253357355,-0.569483,-19.217966
11.185,2.0,1.0,1.0,34.2,34.6,34.6,4.2,2.4,2.73,-0.1251484678740216,-0.09223887024328699,0.9233884525367595,-0.07024859652250902,-0.61326,-18.715079
11.185,2.0,1.0,1.0,34.2,34.6,34.6,4.2,2.4,2.7325,-0.14220179242339326,-0.09569998444157099,0.9154646490060184,-0.07753926055612971,-0.663625,-18.189908
11.185,2.0,1.0,1.0,34.2,34.6,34.6,4.2,2.4,2.735,-0.15943458895210175,-0.0992242782372659,0.9063182918372986,-0.08585278916411548,-0.722026,-17.640637
11.185,2.0,1.0,1.0,34.2,34.6,34.6,4.2,2.4,2.7375,-0.17678126498428035,-0.10274672097206652,0.8957493420643942,-0.09538274242865953,-0.790327,-17.065323
11.185,2.0,1.0,1.0,34.2,34.6,34.6,4.2,2.4,2.74,-0.19413740361362963,-0.10616360009848093,0.8835145674481486,-0.10636535342592847,-0.870942,-16.461934
11.185,2.0,1.0,1.0,34.2,34.6,34.6,4.2,2.4,2.7425,-0.2113396445965911,-0.10931248004113706,0.8693191403346222,-0.11908779423075551,-0.967037,-15.82842
11.185,2.0,1.0,1.0,34.2,34.6,34.6,4.2,2.4,2.745,-0.2281350475775374,-0.11194170293077671,0.8528091029877138,-0.13389553038420482,-1.082792,-15.16285
11.185,2.0,1.0,1.0,34.2,34.6,34.6,4.2,2.4,2.7475,-0.24413464295389856,-0.11366418152942934,0.8335683240059122,-0.15119513263201195,-1.223765,-14.463656
11.185,2.0,1.0,1.0,34.2,34.6,34.6,4.2,2.4,2.75,-0.258743972738243,-0.113888364130116,0.811127993592833,-0.171444502255088,-1.397356,-13.730053
11.185,2.0,1.0,1.0,34.2,34.6,34.6,4.2,2.4,2.7525,-0.27106245124911515,-0.1117183312822584,0.7850054412488505,-0.1951137677589212,-1.613345,-12.962757
11.185,2.0,1.0,1.0,34.2,34.6,34.6,4.2,2.4,2.755,-0.27974714639124676,-0.10581882899751971,0.7548051595049755,-0.2225841104725002,-1.884322,-12.165158
11.185,2.0,1.0,1.0,34.2,34.6,34.6,4.2,2.4,2.7575,-0.2828553757355047,-0.09425990116877704,0.7204408878904561,-0.25392604560210935,-2.225426,-11.345208
11.185,2.0,1.0,1.0,34.2,34.6,34.6,4.2,2.4,2.76,-0.27773717231764017,-0.07441235302528848,0.6825671548264898,-0.28846964671729036,-2.651715,-10.518222
11.185,2.0,1.0,1.0,34.2,34.6,34.6,4.2,2.4,2.7625,-0.26117864686314146,-0.043094538180887494,0.6433002609069396,-0.3240884461428543,-3.169084,-9.710611
11.185,2.0,1.0,1.0,34.2,34.6,34.6,4.2,2.4,2.765,-0.23020149414666935,0.0026271270406016557,0.6071342001405435,-0.35629377122667166,-3.750946,-8.963599
11.185,2.0,1.0,1.0,34.2,34.6,34.6,4.2,2.4,2.7675,-0.1839838469798222,0.06352601699481557,0.5814093595911984,-0.3777813541564196,-4.295891,-8.334091
11.185,2.0,1.0,1.0,34.2,34.6,34.6,4.2,2.4,2.77,-0.12660518382214878,0.13549779645563725,0.5749045833770777,-0.379848584062539,-4.602414,-7.887604
11.185,2.0,1.0,1.0,34.2,34.6,34.6,4.2,2.4,2.7725,-0.06831157263322682,0.20833379924581993,0.5935388265646573,-0.3566713389410486,-4.473868,-7.679766
11.185,2.0,1.0,1.0,34.2,34.6,34.6,4.2,2.4,2.775,-0.02216477879094542,0.269079904495365,0.6355471762071695,-0.31006793373885216,-3.931765,-7.732812
11.185,2.0,1.0,1.0,34.2,34.6,34.6,4.2,2.4,2.7775,0.002732013567287086,0.3087558902065278,0.6913823508294168,-0.24955062122477834,-3.205566,-8.02428
11.185,2.0,1.0,1.0,34.2,34.6,34.6,4.2,2.4,2.78,0.0051535217618098915,0.3262043583691363,0.7492463873541766,-0.18681668693398013,-2.507301,-8.498278
11.185,2.0,1.0,1.0,34.2,34.6,34.6,4.2,2.4,2.7825,-0.010171640940930052,0.3261504113817261,0.8006519849942677,-0.13024990915875234,-1.930423,-9.088991
11.185,2.0,1.0,1.0,34.2,34.6,34.6,4.2,2.4,2.785,-0.03679209639921133,0.3150021168874737,0.8419368196705964,-0.08344432419510152,-1.486124,-9.739193
11.185,2.0,1.0,1.0,34.2,34.6,34.6,4.2,2.4,2.7875,-0.0692976359128406,0.29812027468611046,0.8728674314378428,-0.046600966111392424,-1.153747,-10.407327
11.185,2.0,1.0,1.0,34.2,34.6,34.6,4.2,2.4,2.79,-0.10407210685108148,0.27908124803100415,0.8948018352210184,-0.018351005212122722,-0.907108,-11.06665
11.185,2.0,1.0,1.0,34.2,34.6,34.6,4.2,2.4,2.7925,-0.1390199675727846,0.25995278635815744,0.9094992321961585,0.003066497246862813,-0.723651,-11.701506
11.185,2.0,1.0,1.0,34.2,34.6,34.6,4.2,2.4,2.795,-0.1730640209478118,0.2417936571572644,0.9185786359769442,0.019270270097189755,-0.586188,-12.303604
11.185,2.0,1.0,1.0,34.2,34.6,34.6,4.2,2.4,2.7975,-0.20573081064578888,0.22506502362033745,0.9233524523896949,0.031573472968687274,-0.482231,-12.8692
11.185,2.0,1.0,1.0,34.2,34.6,34.6,4.2,2.4,2.8,-0.23687723056592744,0.20990137267492337,0.9248240672805845,0.04098227700888197,-0.40286,-13.397216
11.185,2.0,1.0,1.0,34.2,34.6,34.6,4.2,2.4,2.8025,-0.26652822566124923,0.19627121013800936,0.9237394185620632,0.04824755765106752,-0.341721,-13.888057
11.185,2.0,1.0,1.0,34.2,34.6,34.6,4.2,2.4,2.805,-0.29478609811797807,0.18406678309272412,0.9206461512545351,0.05392387987032988,-0.294262,-14.342895
11.185,2.0,1.0,1.0,34.2,34.6,34.6,4.2,2.4,2.8075,-0.3217820264320492,0.17315199458690797,0.9159445883830921,0.0584202528791995,-0.257195,-14.763245
11.185,2.0,1.0,1.0,34.2,34.6,34.6,4.2,2.4,2.81,-0.34765131213371603,0.1633868348298661,0.909927307848837,0.062039532604143036,-0.22812,-15.150718
11.185,2.0,1.0,1.0,34.2,34.6,34.6,4.2,2.4,2.8125,-0.372521564843173,0.154639017015361,0.902808462655579,0.0650076334569079,-0.205265,-15.50688
11.185,2.0,1.0,1.0,34.2,34.6,34.6,4.2,2.4,2.815,-0.39650776304150237,0.14678882003600624,0.8947450309796511,0.0674947369725165,-0.18731,-15.833179
11.185,2.0,1.0,1.0,34.2,34.6,34.6,4.2,2.4,2.8175,-0.41971085733002894,0.13973043611860367,0.885852074115083,0.06963057030187815,-0.173258,-16.130908
11.185,2.0,1.0,1.0,34.2,34.6,34.6,4.2,2.4,2.82,-0.4422181118707122,0.13337160728762404,0.8762136627637279,0.0715154102965759,-0.162352,-16.401183
11.185,2.0,1.0,1.0,34.2,34.6,34.6,4.2,2.4,2.8225,-0.46410422263975165,0.1276325001237773,0.8658907066590211,0.07322804595135904,-0.154009,-16.644939
11.185,2.0,1.0,1.0,34.2,34.6,34.6,4.2,2.4,2.825,-0.48543271142821526,0.12244431277240252,0.8549265751533316,0.07483158775810221,-0.147782,-16.862935
11.185,2.0,1.0,1.0,34.2,34.6,34.6,4.2,2.4,2.8275,-0.5062573438217726,0.11774786147029079,0.8433511360111522,0.07637775547675577,-0.143321,-17.055752
11.185,2.0,1.0,1.0,34.2,34.6,34.6,4.2,2.4,2.83,-0.5266234529556378,0.11349226159873413,0.8311836518811364,0.07791009159826114,-0.140356,-17.223799
