1,w,sub_t,h,l1,l2,l3,g1,g2,Freq,S11_re,S21_re,S11_img,S21_img,S11_dB,S21_dB
11.185,2.0,1.0,1.0,34.7,33.2,33.2,3.8,2.6,2.5,0.666716046542305,-0.0115886033829288,0.734859591020338,0.00416697774269265,-0.067715,-38.191306
11.185,2.0,1.0,1.0,34.7,33.2,33.2,3.8,2.6,2.5025,0.6605757926225913,-0.011773956664001536,0.7402777718419936,0.00411478087802981,-0.068409,-38.081091
11.185,2.0,1.0,1.0,34.7,33.2,33.2,3.8,2.6,2.505,0.6543582475805693,-0.01196170905543231,0.7456721877140349,0.004059888617052692,-0.069115,-37.970619
11.185,2.0,1.0,1.0,34.7,33.2,33.2,3.8,2.6,2.5075,0.6480627290807068,-0.012151881409471111,0.7510419840925676,0.004002222661136476,-0.069831,-37.859884
11.185,2.0,1.0,1.0,34.7,33.2,33.2,3.8,2.6,2.51,0.6416885509292009,-0.01234449429722844,0.7563862841655032,0.003941702526966696,-0.070559,-37.748884
11.185,2.0,1.0,1.0,34.7,33.2,33.2,3.8,2.6,2.5125,0.6352350232794538,-0.012539567975914646,0.7617041882917467,0.0038782454837266124,-0.071299,-37.637612
11.185,2.0,1.0,1.0,34.7,33.2,33.2,3.8,2.6,2.515,0.6287014528518114,-0.012737122354198719,0.7669947734282629,0.0038117664885202176,-0.072051,-37.526065
11.185,2.0,1.0,1.0,34.7,33.2,33.2,3.8,2.6,2.5175,0.6220871431682498,-0.012937176955593137,0.7722570925448767,0.0037421781199875382,-0.072815,-37.414239
11.185,2.0,1.0,1.0,34.7,33.2,33.2,3.8,2.6,2.52,0.6153913948026722,-0.013139750879768423,0.7774901740266965,0.003669390510068138,-0.073592,-37.302128
11.185,2.0,1.0,1.0,34.7,33.2,33.2,3.8,2.6,2.5225,0.6086135056475671,-0.013344862761694843,0.7826930210640249,0.0035933112738684514,-0.074382,-37.189729
11.185,2.0,1.0,1.0,34.7,33.2,33.2,3.8,2.6,2.525,0.6017527711977436,-0.013552530728506028,0.7878646110296711,0.003513845437587512,-0.075185,-37.077036
11.185,2.0,1.0,1.0,34.7,33.2,33.2,3.8,2.6,2.5275,0.5948084848519293,-0.013762772353973095,0.793003894843564,0.003430895364455407,-0.076001,-36.964045
11.185,2.0,1.0,1.0,34.7,33.2,33.2,3.8,2.6,2.53,0.5877799382330382,-0.013975604610472873,0.7981097963245796,0.0033443606786380036,-0.076831,-36.850752
11.185,2.0,1.0,1.0,34.7,33.2,33.2,3.8,2.6,2.5325,0.5806664215279366,-0.014191043818329552,0.8031812115295195,0.003254138187061287,-0.077675,-36.737151
11.185,2.0,1.0,1.0,34.7,33.2,33.2,3.8,2.6,2.535,0.5734672238475665,-0.01440910559240219,0.8082170080791904,0.0031601217991073815,-0.078534,-36.623238
11.185,2.0,1.0,1.0,34.7,33.2,33.2,3.8,2.6,2.5375,0.566181633608342,-0.014629804785785898,0.8132160244715354,0.00306220244413499,-0.079407,-36.509008
11.185,2.0,1.0,1.0,34.7,33.2,33.2,3.8,2.6,2.54,0.5588089389357287,-0.014853155430487973,0.8181770693818083,0.00296026798677539,-0.080295,-36.394456
11.185,2.0,1.0,1.0,34.7,33.2,33.2,3.8,2.6,2.5425,0.5513484280909821,-0.015079170674934271,0.8230989209497859,0.0028542031399553577,-0.081199,-36.279577
11.185,2.0,1.0,1.0,34.7,33.2,33.2,3.8,2.6,2.545,0.5437993899220384,-0.015307862718154396,0.827980326054035,0.0027438893755978282,-0.082118,-36.164367
11.185,2.0,1.0,1.0,34.7,33.2,33.2,3.8,2.6,2.5475,0.5361611143396027,-0.015539242740487492,0.832819999573274,0.0026292048329508307,-0.083054,-36.04882
11.185,2.0,1.0,1.0,34.7,33.2,33.2,3.8,2.6,2.55,0.5284328928194851,-0.015773320830643905,0.8376166236349027,0.0025100242244943424,-0.084005,-35.932932
11.185,2.0,1.0,1.0,34.7,33.2,33.2,3.8,2.6,2.5525,0.520614018932324,-0.01601010590894961,0.8423688468507737,0.0023862187393756933,-0.084974,-35.816696
11.185,2.0,1.0,1.0,34.7,33.2,33.2,3.8,2.6,2.555,0.5127037889018153,-0.016249605646593567,0.8470752835403356,0.0022576559443220866,-0.085959,-35.70011
11.185,2.0,1.0,1.0,34.7,33.2,33.2,3.8,2.6,2.5575,0.5047015021926484,-0.016491826380689925,0.851734512941295,0.00212419968198031,-0.086963,-35.583165
11.185,2.0,1.0,1.0,34.7,33.2,33.2,3.8,2.6,2.56,0.4966064621293724,-0.01673677302495803,0.8563450784079643,0.001985709966632199,-0.087984,-35.465859
11.185,2.0,1.0,1.0,34.7,33.2,33.2,3.8,2.6,2.5625,0.4884179765474618,-0.016984448975815396,0.8609054865975159,0.0018420428772351642,-0.089023,-35.348185
11.185,2.0,1.0,1.0,34.7,33.2,33.2,3.8,2.6,2.565,0.48013535847787886,-0.01723485601366937,0.8654142066443881,0.001693050447736194,-0.090081,-35.230139
11.185,2.0,1.0,1.0,34.7,33.2,33.2,3.8,2.6,2.5675,0.4717579268665058,-0.01748799419918323,0.8698696693231233,0.0015385805546083743,-0.091158,-35.111714
11.185,2.0,1.0,1.0,34.7,33.2,33.2,3.8,2.6,2.57,0.46328500732981187,-0.017743861764283678,0.8742702661999738,0.001378476801558108,-0.092255,-34.992905
11.185,2.0,1.0,1.0,34.7,33.2,33.2,3.8,2.6,2.5725,0.4547159329482136,-0.01800245499766546,0.8786143487736403,0.0012125784013517359,-0.093372,-34.873707
11.185,2.0,1.0,1.0,34.7,33.2,33.2,3.8,2.6,2.575,0.4460500450985942,-0.018263768124538757,0.8829002276055551,0.001040720054709817,-0.09451,-34.754113
11.185,2.0,1.0,1.0,34.7,33.2,33.2,3.8,2.6,2.5775,0.437286694327516,-0.018527793180353195,0.8871261714401899,0.0008627318262174576,-0.095668,-34.63412
11.185,2.0,1.0,1.0,34.7,33.2,33.2,3.8,2.6,2.58,0.4284252412666938,-0.018794519878221196,0.8912904063158847,0.0006784390171988986,-0.096848,-34.51372
11.185,2.0,1.0,1.0,34.7,33.2,33.2,3.8,2.6,2.5825,0.41946505759233615,-0.01906393546975123,0.8953911146667926,0.00048766203550458325,-0.09805,-34.392908
11.185,2.0,1.0,1.0,34.7,33.2,33.2,3.8,2.6,2.585,0.4104055270300246,-0.01933602459898797,0.8994264344165599,0.0002902162621583062,-0.099274,-34.271678
11.185,2.0,1.0,1.0,34.7,33.2,33.2,3.8,2.6,2.5875,0.4012460464068239,-0.019610769149144447,0.9033944580644376,8.591191481281401e-05,-0.100521,-34.150024
11.185,2.0,1.0,1.0,34.7,33.2,33.2,3.8,2.6,2.59,0.3919860267523888,-0.019888148081795943,0.9072932317645847,-0.00012544609203914503,-0.101792,-34.02794
11.185,2.0,1.0,1.0,34.7,33.2,33.2,3.8,2.6,2.5925,0.3826248944508413,-0.020168137268192065,0.9111207543993977,-0.00034405829015089827,-0.103087,-33.905421
11.185,2.0,1.0,1.0,34.7,33.2,33.2,3.8,2.6,2.595,0.37316209244529014,-0.02045070931232722,0.9148749766477555,-0.0005701308039580902,-0.104407,-33.782458
11.185,2.0,1.0,1.0,34.7,33.2,33.2,3.8,2.6,2.5975,0.36359708149684533,-0.02073583336539484,0.918553800049169,-0.0008038755004195439,-0.105751,-33.659048
11.185,2.0,1.0,1.0,34.7,33.2,33.2,3.8,2.6,2.6,0.35392934150007227,-0.021023474931233195,0.922155076064898,-0.0010455101423170387,-0.107122,-33.535183
11.185,2.0,1.0,1.0,34.7,33.2,33.2,3.8,2.6,2.6025,0.34415837285687007,-0.021313595662353402,0.9256766051371673,-0.0012952585450695078,-0.108519,-33.410856
11.185,2.0,1.0,1.0,34.7,33.2,33.2,3.8,2.6,2.605,0.33428369791076323,-0.02160615314612229,0.9291161357477269,-0.0015533507371191238,-0.109943,-33.286061
11.185,2.0,1.0,1.0,34.7,33.2,33.2,3.8,2.6,2.6075,0.3243048624436843,-0.021901100680652996,0.9324713634770858,-0.001820023123947259,-0.111395,-33.160792
11.185,2.0,1.0,1.0,34.7,33.2,33.2,3.8,2.6,2.61,0.3142214372373438,-0.022198387039936072,0.9357399300658337,-0.002095518655780775,-0.112875,-33.035042
11.185,2.0,1.0,1.0,34.7,33.2,33.2,3.8,2.6,2.6125,0.304033019701314,-0.02249795622772288,0.9389194224795933,-0.0023800869990516197,-0.114385,-32.908803
11.185,2.0,1.0,1.0,34.7,33.2,33.2,3.8,2.6,2.615,0.293739235570004,-0.022799747219650186,0.9420073719792278,-0.002673984711675165,-0.115924,-32.78207
11.185,2.0,1.0,1.0,34.7,33.2,33.2,3.8,2.6,2.6175,0.2833397406707393,-0.023103693693071418,0.9450012531980643,-0.00297747542221597,-0.117494,-32.654834
11.185,2.0,1.0,1.0,34.7,33.2,33.2,3.8,2.6,2.62,0.2728342227651898,-0.02340972374403456,0.9478984832279802,-0.0032908300130143355,-0.119095,-32.527088
11.185,2.0,1.0,1.0,34.7,33.2,33.2,3.8,2.6,2.6225,0.2622224034664015,-0.023717759590821275,0.9506964207163545,-0.0036143268073513574,-0.120728,-32.398826
11.185,2.0,1.0,1.0,34.7,33.2,33.2,3.8,2.6,2.625,0.251504040233767,-0.0240277172634315,0.953392364975985,-0.00394825176073546,-0.122393,-32.27004
11.185,2.0,1.0,1.0,34.7,33.2,33.2,3.8,2.6,2.6275,0.24067892844821684,-0.02433950627837101,0.95598355511022,-0.004292898656401261,-0.124093,-32.140721
11.185,2.0,1.0,1.0,34.7,33.2,33.2,3.8,2.6,2.63,0.22974690357002162,-0.02465302929806462,0.9584671691556749,-0.004648569305118077,-0.125827,-32.010863
11.185,2.0,1.0,1.0,34.7,33.2,33.2,3.8,2.6,2.6325,0.2187078433815351,-0.024968181774185933,0.9608403232450583,-0.005015573749415126,-0.127596,-31.880458
11.185,2.0,1.0,1.0,34.7,33.2,33.2,3.8,2.6,2.635,0.20756167031728837,-0.02528485157415728,0.9631000707927573,-0.005394230472340851,-0.129402,-31.749496
11.185,2.0,1.0,1.0,34.7,33.2,33.2,3.8,2.6,2.6375,0.19630835388381065,-0.02560291859003496,0.9652434017060062,-0.005784866610885574,-0.131245,-31.617971
11.185,2.0,1.0,1.0,34.7,33.2,33.2,3.8,2.6,2.64,0.1849479131715659,-0.025922254328954234,0.9672672416245811,-0.006187818174211487,-0.133126,-31.485873
11.185,2.0,1.0,1.0,34.7,33.2,33.2,3.8,2.6,2.6425,0.17348041946142115,-0.026242721484262325,0.9691684511921551,-0.0066034302668487085,-0.135046,-31.353194
11.185,2.0,1.0,1.0,34.7,33.2,33.2,3.8,2.6,2.645,0.16190599892802568,-0.026564173486421094,0.9709438253625793,-0.0070320573170357045,-0.137007,-31.219926
11.185,2.0,1.0,1.0,34.7,33.2,33.2,3.8,2.6,2.6475,0.15022483544249574,-0.02688645403270817,0.9725900927445285,-0.0074740633104022495,-0.139008,-31.086058
11.185,2.0,1.0,1.0,34.7,33.2,33.2,3.8,2.6,2.65,0.13843717347675208,-0.027209396594690242,0.9741039149881241,-0.007929822029218362,-0.141052,-30.951583
11.185,2.0,1.0,1.0,34.7,33.2,33.2,3.8,2.6,2.6525,0.1265433211118952,-0.027532823902379582,0.9754818862172961,-0.00839971729745728,-0.14314,-30.81649
11.185,2.0,1.0,1.0,34.7,33.2,33.2,3.8,2.6,2.655,0.11454365315290152,-0.027856547403921135,0.9767205325118243,-0.008884143231954406,-0.145272,-30.680769
11.185,2.0,1.0,1.0,34.7,33.2,33.2,3.8,2.6,2.6575,0.10243861435195176,-0.028180366699583084,0.9778163114431758,-0.009383504499976214,-0.147449,-30.544412
11.185,2.0,1.0,1.0,34.7,33.2,33.2,3.8,2.6,2.66,0.09022872274262728,-0.02850406894874724,0.9787656116684053,-0.009898216583553908,-0.149674,-30.407407
11.185,2.0,1.0,1.0,34.7,33.2,33.2,3.8,2.6,2.6625,0.07791457308719589,-0.028827428248507342,0.9795647525865773,-0.010428706050979827,-0.151947,-30.269745
11.185,2.0,1.0,1.0,34.7,33.2,33.2,3.8,2.6,2.665,0.06549684043910235,-0.029150204982391747,0.9802099840623146,-0.010975410835915881,-0.15427,-30.131414
11.185,2.0,1.0,1.0,34.7,33.2,33.2,3.8,2.6,2.6675,0.05297628382280488,-0.0294721451376205,0.9806974862212511,-0.011538780524616765,-0.156644,-29.992403
11.185,2.0,1.0,1.0,34.7,33.2,33.2,3.8,2.6,2.67,0.040353750032937695,-0.029792979589195016,0.9810233693223411,-0.012119276651835936,-0.159071,-29.852701
11.185,2.0,1.0,1.0,34.7,33.2,33.2,3.8,2.6,2.6725,0.027630177554788297,-0.030112423348991654,0.9811836737120878,-0.012717373006051275,-0.161551,-29.712297
11.185,2.0,1.0,1.0,34.7,33.2,33.2,3.8,2.6,2.675,0.014806600607961145,-0.03043017477789167,0.9811743698659606,-0.013333555944725246,-0.164087,-29.571178
11.185,2.0,1.0,1.0,34.7,33.2,33.2,3.8,2.6,2.6775,0.0018841533150286732,-0.03074591475882627,0.9809913585223607,-0.013968324720403288,-0.16668,-29.429331
11.185,2.0,1.0,1.0,34.7,33.2,33.2,3.8,2.6,2.68,-0.011135926003100462,-0.031059305828445082,0.9806304709146371,-0.01462219181855131,-0.169332,-29.286745
11.185,2.0,1.0,1.0,34.7,33.2,33.2,3.8,2.6,2.6825,-0.024252290403469965,-0.03136999126492644,0.9800874691067819,-0.015295683308140948,-0.172045,-29.143405
11.185,2.0,1.0,1.0,34.7,33.2,33.2,3.8,2.6,2.685,-0.037463479767465786,-0.031677594129237645,0.9793580464385178,-0.015989339206114134,-0.17482,-28.999298
11.185,2.0,1.0,1.0,34.7,33.2,33.2,3.8,2.6,2.6875,-0.05076791611585111,-0.031981716256918764,0.9784378280855764,-0.016703713856991067,-0.177659,-28.85441
11.185,2.0,1.0,1.0,34.7,33.2,33.2,3.8,2.6,2.69,-0.06416389879105429,-0.03228193719720022,0.977322371741039,-0.017439376329034938,-0.180564,-28.708726
11.185,2.0,1.0,1.0,34.7,33.2,33.2,3.8,2.6,2.6925,-0.07764959950541374,-0.03257781309597484,0.9760071684236223,-0.01819691082855318,-0.183538,-28.562231
11.185,2.0,1.0,1.0,34.7,33.2,33.2,3.8,2.6,2.695,-0.09122305725412586,-0.03286887551881417,0.9744876434188516,-0.0189769171340945,-0.186581,-28.414908
11.185,2.0,1.0,1.0,34.7,33.2,33.2,3.8,2.6,2.6975,-0.10488217309174207,-0.033154630209856394,0.9727591573589872,-0.01978001105250723,-0.189698,-28.266743
11.185,2.0,1.0,1.0,34.7,33.2,33.2,3.8,2.6,2.7,-0.11862470477102321,-0.033434555781979264,0.970817007447565,-0.020606824899042187,-0.192889,-28.117718
11.185,2.0,1.0,1.0,34.7,33.2,33.2,3.8,2.6,2.7025,-0.13244826124307055,-0.0337081023332134,0.9686564288343085,-0.021458008003933538,-0.196158,-27.967815
11.185,2.0,1.0,1.0,34.7,33.2,33.2,3.8,2.6,2.705,-0.14635029701754357,-0.03397468998383152,0.966272596146029,-0.022334227248158152,-0.199506,-27.817016
11.185,2.0,1.0,1.0,34.7,33.2,33.2,3.8,2.6,2.7075,-0.16032810638179454,-0.0342337073279687,0.9636606251789583,-0.023236167631374028,-0.202937,-27.665302
11.185,2.0,1.0,1.0,34.7,33.2,33.2,3.8,2.6,2.71,-0.1743788174776424,-0.03448450979297238,0.9608155747577566,-0.02416453287536387,-0.206454,-27.512653
11.185,2.0,1.0,1.0,34.7,33.2,33.2,3.8,2.6,2.7125,-0.1884993862343126,-0.034726417898943575,0.957732448766085,-0.025120046066670263,-0.210058,-27.359048
11.185,2.0,1.0,1.0,34.7,33.2,33.2,3.8,2.6,2.715,-0.2026865901559474,-0.034958715410097915,0.9544061983533653,-0.026103450342501604,-0.213753,-27.204467
11.185,2.0,1.0,1.0,34.7,33.2,33.2,3.8,2.6,2.7175,-0.21693702196170966,-0.0351806473686358,0.9508317243218627,-0.02711550962441982,-0.217543,-27.048886
11.185,2.0,1.0,1.0,34.7,33.2,33.2,3.8,2.6,2.72,-0.231247083076194,-0.035391418000749186,0.947003879697792,-0.02815700940479058,-0.221431,-26.892282
11.185,2.0,1.0,1.0,34.7,33.2,33.2,3.8,2.6,2.7225,-0.24561297696730972,-0.035590188483193626,0.9429174724895064,-0.029228757591495375,-0.22542,-26.734631
11.185,2.0,1.0,1.0,34.7,33.2,33.2,3.8,2.6,2.725,-0.26003070232820813,-0.03577607455749499,0.9385672686352522,-0.030331585416960107,-0.229515,-26.575906
11.185,2.0,1.0,1.0,34.7,33.2,33.2,3.8,2.6,2.7275,-0.2744960460990496,-0.03594814397732323,0.9339479951421216,-0.03146634841817394,-0.233718,-26.416082
11.185,2.0,1.0,1.0,34.7,33.2,33.2,3.8,2.6,2.73,-0.2890045763234161,-0.03610541377282082,0.9290543434170613,-0.03263392749502919,-0.238034,-26.25513
11.185,2.0,1.0,1.0,34.7,33.2,33.2,3.8,2.6,2.7325,-0.3035516348330319,-0.03624684731369628,0.9238809727897433,-0.03383523005504067,-0.242468,-26.093021
11.185,2.0,1.0,1.0,34.7,33.2,33.2,3.8,2.6,2.735,-0.3181323297530136,-0.036371351150644354,0.9184225142260939,-0.03507119125327946,-0.247024,-25.929724
11.185,2.0,1.0,1.0,34.7,33.2,33.2,3.8,2.6,2.7375,-0.33274152781817745,-0.036477771612100696,0.912673574229991,-0.03634277533720372,-0.251707,-25.765206
11.185,2.0,1.0,1.0,34.7,33.2,33.2,3.8,2.6,2.74,-0.34737384648885067,-0.036564891130431335,0.9066287389293434,-0.03765097710697643,-0.256522,-25.599435
11.185,2.0,1.0,1.0,34.7,33.2,33.2,3.8,2.6,2.7425,-0.3620236458522179,-0.03663142426834424,0.9002825783412562,-0.03899682350284138,-0.261475,-25.432373
11.185,2.0,1.0,1.0,34.7,33.2,33.2,3.8,2.6,2.745,-0.3766850202923163,-0.03667601341253416,0.8936296508093576,-0.04038137533217409,-0.266571,-25.263984
11.185,2.0,1.0,1.0,34.7,33.2,33.2,3.8,2.6,2.7475,-0.3913517899083232,-0.03669722409725883,0.8866645076045704,-0.04180572914994505,-0.271817,-25.094228
11.185,2.0,1.0,1.0,34.7,33.2,33.2,3.8,2.6,2.75,-0.406017491656803,-0.0366935399156152,0.879381697678708,-0.0432710193075212,-0.27722,-24.923064
11.185,2.0,1.0,1.0,34.7,33.2,33.2,3.8,2.6,2.7525,-0.4206753701886506,-0.03666335697064397,0.8717757725581173,-0.04477842018598726,-0.282786,-24.750448
11.185,2.0,1.0,1.0,34.7,33.2,33.2,3.8,2.6,2.755,-0.4353183683459952,-0.03660497781192606,0.8638412913624096,-0.04632914863148646,-0.288523,-24.576334
11.185,2.0,1.0,1.0,34.7,33.2,33.2,3.8,2.6,2.7575,-0.4499391172776351,-0.036516604795917666,0.8555728259308588,-0.047924466611457175,-0.294439,-24.400674
11.185,2.0,1.0,1.0,34.7,33.2,33.2,3.8,2.6,2.76,-0.4645299261238061,-0.03639633279974892,0.8469649660365441,-0.04956568411204893,-0.300543,-24.223416
11.185,2.0,1.0,1.0,34.7,33.2,33.2,3.8,2.6,2.7625,-0.4790827712120847,-0.036242141208404556,0.838012324665595,-0.0512541622984455,-0.306843,-24.044507
11.185,2.0,1.0,1.0,34.7,33.2,33.2,3.8,2.6,2.765,-0.4935892846955299,-0.03605188508390478,0.8287095433361628,-0.052991316961251284,-0.31335,-23.863888
11.185,2.0,1.0,1.0,34.7,33.2,33.2,3.8,2.6,2.7675,-0.5080407425517763,-0.035823285412059966,0.8190512974288684,-0.054778622273492,-0.320075,-23.6815
11.185,2.0,1.0,1.0,34.7,33.2,33.2,3.8,2.6,2.77,-0.5224280518471757,-0.035553918307292987,0.8090323014975777,-0.056617614884089416,-0.327028,-23.497279
11.185,2.0,1.0,1.0,34.7,33.2,33.2,3.8,2.6,2.7725,-0.5367417371531332,-0.03524120303855745,0.7986473145265729,-0.0585098983748152,-0.334222,-23.311157
11.185,2.0,1.0,1.0,34.7,33.2,33.2,3.8,2.6,2.775,-0.550971925981699,-0.034882388719117405,0.7878911450974152,-0.060457148108640245,-0.341671,-23.123063
11.185,2.0,1.0,1.0,34.7,33.2,33.2,3.8,2.6,2.7775,-0.5651083330842804,-0.03447453947940203,0.7767586564263897,-0.06246111649794095,-0.349388,-22.93292
11.185,2.0,1.0,1.0,34.7,33.2,33.2,3.8,2.6,2.78,-0.579140243429828,-0.03401451791472136,0.7652447712312888,-0.06452363872105904,-0.35739,-22.740649
11.185,2.0,1.0,1.0,34.7,33.2,33.2,3.8,2.6,2.7825,-0.5930564936466431,-0.03349896656762592,0.753344476384917,-0.06664663891501939,-0.365692,-22.546164
11.185,2.0,1.0,1.0,34.7,33.2,33.2,3.8,2.6,2.785,-0.6068454516745037,-0.03292428716727201,0.7410528273120118,-0.06883213687054886,-0.374315,-22.349374
11.185,2.0,1.0,1.0,34.7,33.2,33.2,3.8,2.6,2.7875,-0.6204949943289854,-0.0322866173043131,0.7283649520870342,-0.07108225525251789,-0.383276,-22.150183
11.185,2.0,1.0,1.0,34.7,33.2,33.2,3.8,2.6,2.79,-0.6339924824279671,-0.03158180416835454,0.7152760551925279,-0.07339922736412974,-0.392599,-21.948488
11.185,2.0,1.0,1.0,34.7,33.2,33.2,3.8,2.6,2.7925,-0.6473247330683546,-0.03080537491442853,0.7017814209025278,-0.07578540546596514,-0.402307,-21.744182
11.185,2.0,1.0,1.0,34.7,33.2,33.2,3.8,2.6,2.795,-0.6604779885684477,-0.029952503153491773,0.6878764162631501,-0.07824326965059758,-0.412426,-21.537148
11.185,2.0,1.0,1.0,34.7,33.2,33.2,3.8,2.6,2.7975,-0.6734378815048645,-0.029017970977484746,0.6735564936546081,-0.08077543725884098,-0.422984,-21.327262
11.185,2.0,1.0,1.0,34.7,33.2,33.2,3.8,2.6,2.8,-0.6861893951709748,-0.027996125829404812,0.6588171929362913,-0.08338467280346856,-0.434013,-21.114394
11.185,2.0,1.0,1.0,34.7,33.2,33.2,3.8,2.6,2.8025,-0.6987168186620736,-0.026880831409982167,0.643654143201543,-0.08607389833858484,-0.445548,-20.898403
11.185,2.0,1.0,1.0,34.7,33.2,33.2,3.8,2.6,2.805,-0.7110036956479296,-0.02566541167104202,0.6280630642034744,-0.08884620417540852,-0.457626,-20.67914
11.185,2.0,1.0,1.0,34.7,33.2,33.2,3.8,2.6,2.8075,-0.7230327657207002,-0.024342586776777378,0.6120397675608349,-0.09170485979487937,-0.470289,-20.456445
11.185,2.0,1.0,1.0,34.7,33.2,33.2,3.8,2.6,2.81,-0.7347858969997915,-0.02290439971218773,0.5955801579178418,-0.09465332474006591,-0.483585,-20.230147
11.185,2.0,1.0,1.0,34.7,33.2,33.2,3.8,2.6,2.8125,-0.7462440084277195,-0.02134213197581204,0.5786802343196256,-0.09769525918129311,-0.497564,-20.000065
11.185,2.0,1.0,1.0,34.7,33.2,33.2,3.8,2.6,2.815,-0.7573869798940178,-0.019646206502945362,0.5613360921827908,-0.10083453372687393,-0.512286,-19.766003
11.185,2.0,1.0,1.0,34.7,33.2,33.2,3.8,2.6,2.8175,-0.768193547966489,-0.017806075615205304,0.5435439263988294,-0.10407523789243561,-0.527814,-19.527753
11.185,2.0,1.0,1.0,34.7,33.2,33.2,3.8,2.6,2.82,-0.7786411845778471,-0.015810091369610774,0.5253000363197999,-0.10742168642888897,-0.54422,-19.285091
11.185,2.0,1.0,1.0,34.7,33.2,33.2,3.8,2.6,2.8225,-0.7887059554946829,-0.013645355169364735,0.506600833659022,-0.1108784224253084,-0.561586,-19.037777
11.185,2.0,1.0,1.0,34.7,33.2,33.2,3.8,2.6,2.825,-0.7983623547651237,-0.011297542879869265,0.48744285471860926,-0.11445021572435815,-0.580004,-18.785555
11.185,2.0,1.0,1.0,34.7,33.2,33.2,3.8,2.6,2.8275,-0.8075831105774329,-0.008750700943494786,0.46782277886352236,-0.11814205468187683,-0.599576,-18.528148
