1,w,sub_t,h,l1,l2,l3,g1,g2,Freq,S11_re,S21_re,S11_img,S21_img,S11_dB,S21_dB
11.185,2.0,1.0,1.0,34.7,34.0,34.0,3.8,4.4,2.5,0.668131636077832,-0.00876616273503234,0.73324997173969,0.00202186929554504,-0.069804,-40.918713
11.185,2.0,1.0,1.0,34.7,34.0,34.0,3.8,4.4,2.5025,0.6620024762130048,-0.008900603689884646,0.7386755588082329,0.0019676462882175882,-0.07054,-40.804388
11.185,2.0,1.0,1.0,34.7,34.0,34.0,3.8,4.4,2.505,0.6557957424427396,-0.00903669416172462,0.7440775983900106,0.0019112102480882448,-0.071287,-40.689768
11.185,2.0,1.0,1.0,34.7,34.0,34.0,3.8,4.4,2.5075,0.6495107370061726,-0.009174448267466122,0.7494552386244243,0.0018524990880738985,-0.072047,-40.574847
11.185,2.0,1.0,1.0,34.7,34.0,34.0,3.8,4.4,2.51,0.6431467575922164,-0.009313879933309507,0.7548076050964091,0.0017914489334476106,-0.07282,-40.459619
11.185,2.0,1.0,1.0,34.7,34.0,34.0,3.8,4.4,2.5125,0.6367030975233233,-0.009455002872524985,0.7601338002515797,0.0017279940664398303,-0.073607,-40.344077
11.185,2.0,1.0,1.0,34.7,34.0,34.0,3.8,4.4,2.515,0.6301790459528904,-0.009597830561968527,0.7654329027978413,0.0016620668689794644,-0.074407,-40.228216
11.185,2.0,1.0,1.0,34.7,34.0,34.0,3.8,4.4,2.5175,0.6235738880769861,-0.009742376217266228,0.7707039670932253,0.0015935977635050218,-0.07522,-40.112028
11.185,2.0,1.0,1.0,34.7,34.0,34.0,3.8,4.4,2.52,0.6168869053610454,-0.00988865276659982,0.7759460225197706,0.001522515151772005,-0.076048,-39.995507
11.185,2.0,1.0,1.0,34.7,34.0,34.0,3.8,4.4,2.5225,0.6101173757822846,-0.010036672823022121,0.7811580728432129,0.001448745351579998,-0.07689,-39.878647
11.185,2.0,1.0,1.0,34.7,34.0,34.0,3.8,4.4,2.525,0.6032645740885297,-0.01018644865522856,0.7863390955583001,0.0013722125313387697,-0.077747,-39.76144
11.185,2.0,1.0,1.0,34.7,34.0,34.0,3.8,4.4,2.5275,0.5963277720742458,-0.010337992156706253,0.7914880412195358,0.0012928386423893218,-0.078619,-39.643881
11.185,2.0,1.0,1.0,34.7,34.0,34.0,3.8,4.4,2.53,0.5893062388745633,-0.010491314813178861,0.7966038327571525,0.001210543348991417,-0.079506,-39.525962
11.185,2.0,1.0,1.0,34.7,34.0,34.0,3.8,4.4,2.5325,0.5821992412781251,-0.010646427668260329,0.8016853647781419,0.0011252439558849968,-0.080409,-39.407677
11.185,2.0,1.0,1.0,34.7,34.0,34.0,3.8,4.4,2.535,0.575006044059607,-0.010803341287227427,0.8067315028521624,0.0010368553333282456,-0.081329,-39.289017
11.185,2.0,1.0,1.0,34.7,34.0,34.0,3.8,4.4,2.5375,0.567725910332826,-0.010962065718815039,0.8117410827821582,0.0009452898395102587,-0.082264,-39.169977
11.185,2.0,1.0,1.0,34.7,34.0,34.0,3.8,4.4,2.54,0.5603581019253437,-0.011122610454934049,0.816712909859537,0.0008504572402308533,-0.083216,-39.050549
11.185,2.0,1.0,1.0,34.7,34.0,34.0,3.8,4.4,2.5425,0.5529018797755365,-0.011284984388206121,0.8216457581037593,0.0007522646257347914,-0.084186,-38.930725
11.185,2.0,1.0,1.0,34.7,34.0,34.0,3.8,4.4,2.545,0.5453565043531362,-0.01144919576720435,0.8265383694862056,0.0006506163245815016,-0.085172,-38.810499
11.185,2.0,1.0,1.0,34.7,34.0,34.0,3.8,4.4,2.5475,0.5377212361042832,-0.011615252149282019,0.8313894531382001,0.0005454138144252507,-0.086177,-38.689862
11.185,2.0,1.0,1.0,34.7,34.0,34.0,3.8,4.4,2.55,0.5299953359221473,-0.011783160350867294,0.8361976845430916,0.0004365556295737918,-0.0872,-38.568807
11.185,2.0,1.0,1.0,34.7,34.0,34.0,3.8,4.4,2.5525,0.5221780656442743,-0.011952926395092645,0.8409617047122834,0.00032393726518638023,-0.088242,-38.447327
11.185,2.0,1.0,1.0,34.7,34.0,34.0,3.8,4.4,2.555,0.5142686885777784,-0.012124555456623186,0.8456801193451556,0.00020745107796428652,-0.089303,-38.325412
11.185,2.0,1.0,1.0,34.7,34.0,34.0,3.8,4.4,2.5575,0.5062664700535977,-0.012298051803538847,0.8503514979728155,8.698618317831254e-05,-0.090384,-38.203056
11.185,2.0,1.0,1.0,34.7,34.0,34.0,3.8,4.4,2.56,0.4981706780110667,-0.012473418736118624,0.8549743730856273,-3.7571652130543424e-05,-0.091485,-38.080251
11.185,2.0,1.0,1.0,34.7,34.0,34.0,3.8,4.4,2.5625,0.48998058361407654,-0.012650658522365636,0.8595472392445214,-0.00016634011995133907,-0.092606,-37.956987
11.185,2.0,1.0,1.0,34.7,34.0,34.0,3.8,4.4,2.565,0.48169546190017515,-0.01282977233010408,0.8640685521760737,-0.0002994404862883874,-0.093748,-37.833256
11.185,2.0,1.0,1.0,34.7,34.0,34.0,3.8,4.4,2.5675,0.4733145924639793,-0.013010760155468405,0.8685367278513835,-0.0004369977105265562,-0.094912,-37.70905
11.185,2.0,1.0,1.0,34.7,34.0,34.0,3.8,4.4,2.57,0.46483726017633553,-0.013193620747595333,0.8729501415488045,-0.0005791405693839992,-0.096098,-37.58436
11.185,2.0,1.0,1.0,34.7,34.0,34.0,3.8,4.4,2.5725,0.4562627559407051,-0.013378351529318858,0.8773071269006084,-0.0007260017856722856,-0.097306,-37.459177
11.185,2.0,1.0,1.0,34.7,34.0,34.0,3.8,4.4,2.575,0.4475903774883029,-0.013564948513656144,0.8816059749236841,-0.0008777181620981781,-0.098538,-37.333492
11.185,2.0,1.0,1.0,34.7,34.0,34.0,3.8,4.4,2.5775,0.4388194302135766,-0.013753406215859923,0.8858449330344067,-0.0010344307203556937,-0.099793,-37.207296
11.185,2.0,1.0,1.0,34.7,34.0,34.0,3.8,4.4,2.58,0.42994922805166447,-0.013943717560799951,0.8900222040478476,-0.0011962848457740926,-0.101073,-37.080579
11.185,2.0,1.0,1.0,34.7,34.0,34.0,3.8,4.4,2.5825,0.4209790943995025,-0.014135873785421563,0.8941359451615218,-0.0013634304378043734,-0.102377,-36.953331
11.185,2.0,1.0,1.0,34.7,34.0,34.0,3.8,4.4,2.585,0.4119083630823482,-0.014329864336013987,0.8981842669239106,-0.0015360220666462072,-0.103707,-36.825544
11.185,2.0,1.0,1.0,34.7,34.0,34.0,3.8,4.4,2.5875,0.4027363793674959,-0.01452567676000485,0.9021652321880286,-0.0017142191363377277,-0.105063,-36.697205
11.185,2.0,1.0,1.0,34.7,34.0,34.0,3.8,4.4,2.59,0.39346250102706404,-0.014723296591979261,0.906076855050341,-0.0018981860546526607,-0.106445,-36.568306
11.185,2.0,1.0,1.0,34.7,34.0,34.0,3.8,4.4,2.5925,0.38408609945174654,-0.01492270723360268,0.9099170997753905,-0.0020880924101740993,-0.107855,-36.438836
11.185,2.0,1.0,1.0,34.7,34.0,34.0,3.8,4.4,2.595,0.37460656081752375,-0.015123889827106383,0.9136838797065102,-0.002284113156939511,-0.109293,-36.308784
11.185,2.0,1.0,1.0,34.7,34.0,34.0,3.8,4.4,2.5975,0.36502328730734757,-0.015326823121972285,0.9173750561630617,-0.002486428807081189,-0.11076,-36.178139
11.185,2.0,1.0,1.0,34.7,34.0,34.0,3.8,4.4,2.6,0.35533569838990375,-0.015531483334428683,0.9209884373246835,-0.0026952256319166066,-0.112257,-36.04689
11.185,2.0,1.0,1.0,34.7,34.0,34.0,3.8,4.4,2.6025,0.34554323215761995,-0.015737843999343477,0.9245217771030582,-0.002910695871977056,-0.113783,-35.915024
11.185,2.0,1.0,1.0,34.7,34.0,34.0,3.8,4.4,2.605,0.33564534672611557,-0.015945875814072773,0.9279727740017788,-0.0031330379564999166,-0.115341,-35.782532
11.185,2.0,1.0,1.0,34.7,34.0,34.0,3.8,4.4,2.6075,0.3256415216974011,-0.01615554647379119,0.9313390699649307,-0.003362456732949622,-0.116931,-35.649399
11.185,2.0,1.0,1.0,34.7,34.0,34.0,3.8,4.4,2.61,0.315531259689173,-0.016366820497797648,0.9346182492150525,-0.00359916370717615,-0.118554,-35.515615
11.185,2.0,1.0,1.0,34.7,34.0,34.0,3.8,4.4,2.6125,0.30531408793261167,-0.016579659046253768,0.937807837081199,-0.0038433772948673244,-0.12021,-35.381165
11.185,2.0,1.0,1.0,34.7,34.0,34.0,3.8,4.4,2.615,0.29498955994116993,-0.016794019726771282,0.9409052988178649,-0.004095323085003595,-0.121901,-35.246038
11.185,2.0,1.0,1.0,34.7,34.0,34.0,3.8,4.4,2.6175,0.2845572572529167,-0.017009856390222372,0.9439080384155946,-0.004355234116079805,-0.123627,-35.110219
11.185,2.0,1.0,1.0,34.7,34.0,34.0,3.8,4.4,2.62,0.2740167912490476,-0.01722711891509895,0.9468133974041356,-0.004623351165921299,-0.12539,-34.973694
11.185,2.0,1.0,1.0,34.7,34.0,34.0,3.8,4.4,2.6225,0.26336780505125623,-0.01744575297969429,0.9496186536490622,-0.00489992305598928,-0.12719,-34.836451
11.185,2.0,1.0,1.0,34.7,34.0,34.0,3.8,4.4,2.625,0.252609975500748,-0.0176656998213237,0.952321020142814,-0.0051852069711439,-0.129028,-34.698473
11.185,2.0,1.0,1.0,34.7,34.0,34.0,3.8,4.4,2.6275,0.24174301522172117,-0.01788689598173779,0.9549176437911779,-0.005479468795915966,-0.130907,-34.559746
11.185,2.0,1.0,1.0,34.7,34.0,34.0,3.8,4.4,2.63,0.2307666747722455,-0.0181092730378134,0.9574056041962491,-0.0057829834684259675,-0.132826,-34.420255
11.185,2.0,1.0,1.0,34.7,34.0,34.0,3.8,4.4,2.6325,0.21968074488553094,-0.01833275731652963,0.9597819124369665,-0.006096035353187474,-0.134786,-34.279983
11.185,2.0,1.0,1.0,34.7,34.0,34.0,3.8,4.4,2.635,0.20848505880466792,-0.018557269593153947,0.9620435098483475,-0.006418918634138652,-0.13679,-34.138914
11.185,2.0,1.0,1.0,34.7,34.0,34.0,3.8,4.4,2.6375,0.19717949471401272,-0.01878272477146951,0.964187266800578,-0.00675193772936283,-0.138839,-33.997031
11.185,2.0,1.0,1.0,34.7,34.0,34.0,3.8,4.4,2.64,0.18576397827044389,-0.019009031544772664,0.9662099814791287,-0.007095407729089099,-0.140932,-33.854317
11.185,2.0,1.0,1.0,34.7,34.0,34.0,3.8,4.4,2.6425,0.17423848523786367,-0.019236092036255377,0.968108378667096,-0.007449654858704333,-0.143073,-33.710753
11.185,2.0,1.0,1.0,34.7,34.0,34.0,3.8,4.4,2.645,0.1626030442283687,-0.019463801417261263,0.9698791085309655,-0.007815016968664894,-0.145263,-33.566322
11.185,2.0,1.0,1.0,34.7,34.0,34.0,3.8,4.4,2.6475,0.1508577395536477,-0.019692047501763902,0.9715187454109773,-0.008191844053367321,-0.147502,-33.421003
11.185,2.0,1.0,1.0,34.7,34.0,34.0,3.8,4.4,2.65,0.13900271419024032,-0.019920710315260274,0.9730237866172862,-0.008580498801227146,-0.149792,-33.274776
11.185,2.0,1.0,1.0,34.7,34.0,34.0,3.8,4.4,2.6525,0.12703817286247532,-0.02014966163609736,0.9743906512330311,-0.008981357178420543,-0.152136,-33.127622
11.185,2.0,1.0,1.0,34.7,34.0,34.0,3.8,4.4,2.655,0.11496438524694486,-0.020378764507058042,0.9756156789254133,-0.009394809048976537,-0.154534,-32.979518
11.185,2.0,1.0,1.0,34.7,34.0,34.0,3.8,4.4,2.6575,0.10278168930259919,-0.020607872714814686,0.9766951287657937,-0.00982125883415713,-0.156989,-32.830443
11.185,2.0,1.0,1.0,34.7,34.0,34.0,3.8,4.4,2.66,0.09049049473064472,-0.020836830234617576,0.9776251780597129,-0.010261126214343882,-0.159502,-32.680374
11.185,2.0,1.0,1.0,34.7,34.0,34.0,3.8,4.4,2.6625,0.07809128656864245,-0.021065470637313777,0.9784019211876326,-0.010714846876956676,-0.162075,-32.529286
11.185,2.0,1.0,1.0,34.7,34.0,34.0,3.8,4.4,2.665,0.06558462892334624,-0.02129361645549,0.9790213684570269,-0.011182873314272729,-0.164711,-32.377156
11.185,2.0,1.0,1.0,34.7,34.0,34.0,3.8,4.4,2.6675,0.052971168847110305,-0.02152107850518995,0.9794794449662603,-0.011665675675388284,-0.16741,-32.223957
11.185,2.0,1.0,1.0,34.7,34.0,34.0,3.8,4.4,2.67,0.04025164036286523,-0.02174765515927485,0.9797719894804617,-0.012163742676985174,-0.170176,-32.069664
11.185,2.0,1.0,1.0,34.7,34.0,34.0,3.8,4.4,2.6725,0.02742686864299102,-0.021973131568064807,0.9798947533193185,-0.012677582578024755,-0.17301,-31.914247
11.185,2.0,1.0,1.0,34.7,34.0,34.0,3.8,4.4,2.675,0.014497774347720972,-0.022197278822410547,0.9798433992563734,-0.013207724224002992,-0.175916,-31.757679
11.185,2.0,1.0,1.0,34.7,34.0,34.0,3.8,4.4,2.6775,0.0014653781290726255,-0.02241985305379884,0.9796135004290316,-0.013754718166969597,-0.178895,-31.59993
11.185,2.0,1.0,1.0,34.7,34.0,34.0,3.8,4.4,2.68,-0.011669194693278937,-0.02264059446547302,0.9792005392580034,-0.014319137868142524,-0.18195,-31.440969
11.185,2.0,1.0,1.0,34.7,34.0,34.0,3.8,4.4,2.6825,-0.02490470927727108,-0.022859226287848568,0.9785999063743693,-0.014901580990648533,-0.185085,-31.280762
11.185,2.0,1.0,1.0,34.7,34.0,34.0,3.8,4.4,2.685,-0.038239816217415575,-0.023075453650709593,0.9778068995518353,-0.015502670790698734,-0.188301,-31.119276
11.185,2.0,1.0,1.0,34.7,34.0,34.0,3.8,4.4,2.6875,-0.0516730463093261,-0.0232889623637677,0.976816722641013,-0.0161230576163714,-0.191602,-30.956476
11.185,2.0,1.0,1.0,34.7,34.0,34.0,3.8,4.4,2.69,-0.0652028051109364,-0.02349941759614064,0.975624484501703,-0.016763420524136038,-0.194992,-30.792326
11.185,2.0,1.0,1.0,34.7,34.0,34.0,3.8,4.4,2.6925,-0.07882736729067732,-0.02370646244414088,0.9742251979282193,-0.017424469024326292,-0.198473,-30.626785
11.185,2.0,1.0,1.0,34.7,34.0,34.0,3.8,4.4,2.695,-0.09254487075180283,-0.023909716375432214,0.9726137785616514,-0.01810694496796047,-0.202049,-30.459815
11.185,2.0,1.0,1.0,34.7,34.0,34.0,3.8,4.4,2.6975,-0.10635331052094094,-0.02410877353609773,0.9707850437817117,-0.018811624588645035,-0.205724,-30.291372
11.185,2.0,1.0,1.0,34.7,34.0,34.0,3.8,4.4,2.7,-0.12025053238745778,-0.02430320090542262,0.9687337115693373,-0.019539320714780546,-0.209503,-30.121414
11.185,2.0,1.0,1.0,34.7,34.0,34.0,3.8,4.4,2.7025,-0.13423422627868212,-0.02449253628121132,0.9664543993295696,-0.020290885168955226,-0.213389,-29.949893
11.185,2.0,1.0,1.0,34.7,34.0,34.0,3.8,4.4,2.705,-0.14830191935406428,-0.024676286076178767,0.963941622662323,-0.02106721137326827,-0.217387,-29.776762
11.185,2.0,1.0,1.0,34.7,34.0,34.0,3.8,4.4,2.7075,-0.16245096879915577,-0.02485392290333701,0.9611897940665147,-0.021869237181407788,-0.221502,-29.60197
11.185,2.0,1.0,1.0,34.7,34.0,34.0,3.8,4.4,2.71,-0.17667855429765306,-0.02502488292528824,0.9581932215605506,-0.022697947960637548,-0.225738,-29.425463
11.185,2.0,1.0,1.0,34.7,34.0,34.0,3.8,4.4,2.7125,-0.19098167015672474,-0.02518856293886485,0.954946107199388,-0.02355437994946145,-0.230103,-29.247186
11.185,2.0,1.0,1.0,34.7,34.0,34.0,3.8,4.4,2.715,-0.20535711705720575,-0.02534431716254846,0.9514425454652333,-0.02443962391966447,-0.2346,-29.067081
11.185,2.0,1.0,1.0,34.7,34.0,34.0,3.8,4.4,2.7175,-0.2198014933960596,-0.025491453689466363,0.9476765215053125,-0.025354829174721333,-0.239237,-28.885084
11.185,2.0,1.0,1.0,34.7,34.0,34.0,3.8,4.4,2.72,-0.2343111861835292,-0.02562923056339271,0.9436419091861248,-0.026301207920260597,-0.24402,-28.701133
11.185,2.0,1.0,1.0,34.7,34.0,34.0,3.8,4.4,2.7225,-0.24888236145160697,-0.025756851428946237,0.9393324689289292,-0.027280040046433005,-0.248956,-28.515158
11.185,2.0,1.0,1.0,34.7,34.0,34.0,3.8,4.4,2.725,-0.26351095412352454,-0.02587346069992185,0.9347418452860248,-0.02829267836670535,-0.254053,-28.327088
11.185,2.0,1.0,1.0,34.7,34.0,34.0,3.8,4.4,2.7275,-0.2781926572859733,-0.02597813818123806,0.9298635642114298,-0.0293405543628744,-0.259319,-28.136846
11.185,2.0,1.0,1.0,34.7,34.0,34.0,3.8,4.4,2.73,-0.29292291079612504,-0.026069893070103222,0.9246910299729133,-0.03042518449202086,-0.264762,-27.944354
11.185,2.0,1.0,1.0,34.7,34.0,34.0,3.8,4.4,2.7325,-0.3076968891443333,-0.026147657250440527,0.9192175216447069,-0.03154817711781203,-0.270393,-27.749525
11.185,2.0,1.0,1.0,34.7,34.0,34.0,3.8,4.4,2.735,-0.3225094884800011,-0.0262102777810422,0.9134361891117009,-0.03271124013609268,-0.276222,-27.552273
11.185,2.0,1.0,1.0,34.7,34.0,34.0,3.8,4.4,2.7375,-0.3373553126923437,-0.02625650846196661,0.9073400485062121,-0.03391618937320016,-0.282258,-27.352501
11.185,2.0,1.0,1.0,34.7,34.0,34.0,3.8,4.4,2.74,-0.35222865841898376,-0.02628500034488265,0.900921976987493,-0.03516495784501119,-0.288516,-27.150111
11.185,2.0,1.0,1.0,34.7,34.0,34.0,3.8,4.4,2.7425,-0.36712349883307555,-0.02629429103083546,0.8941747067617876,-0.03645960597552354,-0.295006,-26.944997
11.185,2.0,1.0,1.0,34.7,34.0,34.0,3.8,4.4,2.745,-0.38203346603306515,-0.026282792572572686,0.8870908182268191,-0.03780233288592742,-0.301744,-26.737048
11.185,2.0,1.0,1.0,34.7,34.0,34.0,3.8,4.4,2.7475,-0.3969518318275392,-0.0262487777672893,0.8796627321088931,-0.03919548887880377,-0.308744,-26.526144
11.185,2.0,1.0,1.0,34.7,34.0,34.0,3.8,4.4,2.75,-0.411871486669737,-0.0261903645883903,0.871882700443145,-0.0406415892574619,-0.316023,-26.312161
11.185,2.0,1.0,1.0,34.7,34.0,34.0,3.8,4.4,2.7525,-0.42678491645089167,-0.026105498460372044,0.8637427962276375,-0.04214332963767552,-0.323598,-26.094964
11.185,2.0,1.0,1.0,34.7,34.0,34.0,3.8,4.4,2.755,-0.4416841768070196,-0.025991932027622698,0.855234901559806,-0.04370360292837165,-0.331491,-25.874411
11.185,2.0,1.0,1.0,34.7,34.0,34.0,3.8,4.4,2.7575,-0.45656086452813766,-0.025847202003910864,0.8463506940389339,-0.045325518179341905,-0.339722,-25.650352
11.185,2.0,1.0,1.0,34.7,34.0,34.0,3.8,4.4,2.76,-0.47140608557949737,-0.025668602612176343,0.8370816311908257,-0.04701242151790178,-0.348315,-25.422626
11.185,2.0,1.0,1.0,34.7,34.0,34.0,3.8,4.4,2.7625,-0.4862104191484613,-0.02545315503096982,0.8274189326403248,-0.048767919422730226,-0.357297,-25.191062
11.185,2.0,1.0,1.0,34.7,34.0,34.0,3.8,4.4,2.765,-0.5009638770139531,-0.025197572150792807,0.8173535597239834,-0.050595904611843295,-0.366695,-24.955477
11.185,2.0,1.0,1.0,34.7,34.0,34.0,3.8,4.4,2.7675,-0.5156558573933644,-0.02489821780597805,0.8068761921988845,-0.05250058485264984,-0.376543,-24.715676
11.185,2.0,1.0,1.0,34.7,34.0,34.0,3.8,4.4,2.77,-0.5302750922482133,-0.024551059479754448,0.7959772016648907,-0.05448651503490152,-0.386874,-24.471451
11.185,2.0,1.0,1.0,34.7,34.0,34.0,3.8,4.4,2.7725,-0.5448095868169669,-0.02415161327431994,0.7846466212769865,-0.05655863288131335,-0.397729,-24.222579
11.185,2.0,1.0,1.0,34.7,34.0,34.0,3.8,4.4,2.775,-0.559246549881651,-0.023694879684688544,0.7728741112832186,-0.0587222987043955,-0.409151,-23.968821
11.185,2.0,1.0,1.0,34.7,34.0,34.0,3.8,4.4,2.7775,-0.5735723129516086,-0.023175268402792267,0.7606489198840163,-0.06098333964945215,-0.421189,-23.709922
11.185,2.0,1.0,1.0,34.7,34.0,34.0,3.8,4.4,2.78,-0.5877722361472951,-0.022586509991503908,0.7479598388737199,-0.06334809888942042,-0.433898,-23.445607
11.185,2.0,1.0,1.0,34.7,34.0,34.0,3.8,4.4,2.7825,-0.601830598068905,-0.021921551787288534,0.7347951535000633,-0.06582349025205207,-0.447338,-23.175583
11.185,2.0,1.0,1.0,34.7,34.0,34.0,3.8,4.4,2.785,-0.6157304663128937,-0.021172434789839614,0.7211425859698489,-0.06841705875606781,-0.461579,-22.899533
11.185,2.0,1.0,1.0,34.7,34.0,34.0,3.8,4.4,2.7875,-0.6294535445201747,-0.020330147544767696,0.7069892320511256,-0.07113704749850035,-0.476699,-22.617115
11.185,2.0,1.0,1.0,34.7,34.0,34.0,3.8,4.4,2.79,-0.6429799908594553,-0.01938445207898266,0.692321490291226,-0.07399247125293056,-0.492787,-22.327964
11.185,2.0,1.0,1.0,34.7,34.0,34.0,3.8,4.4,2.7925,-0.6562882016108322,-0.018323675753083263,0.6771249835127958,-0.07699319698142697,-0.509945,-22.031684
11.185,2.0,1.0,1.0,34.7,34.0,34.0,3.8,4.4,2.795,-0.6693545519446472,-0.01713446137949799,0.6613844725055179,-0.08015003119280398,-0.528286,-21.727847
11.185,2.0,1.0,1.0,34.7,34.0,34.0,3.8,4.4,2.7975,-0.682153083991937,-0.015801466026225366,0.6450837622587045,-0.08347481363830896,-0.547945,-21.415993
11.185,2.0,1.0,1.0,34.7,34.0,34.0,3.8,4.4,2.8,-0.6946551297495875,-0.014306996462156264,0.6282056017664573,-0.08698051613689073,-0.569073,-21.095622
11.185,2.0,1.0,1.0,34.7,34.0,34.0,3.8,4.4,2.8025,-0.7068288530901856,-0.012630566042159713,0.6107315795138641,-0.0906813442371241,-0.591847,-20.766193
11.185,2.0,1.0,1.0,34.7,34.0,34.0,3.8,4.4,2.805,-0.7186386909379369,-0.010748353770851768,0.5926420184155757,-0.09459283775937839,-0.616474,-20.427121
11.185,2.0,1.0,1.0,34.7,34.0,34.0,3.8,4.4,2.8075,-0.7300446682469377,-0.008632541053297573,0.5739158765218089,-0.09873196373116487,-0.643191,-20.07777
11.185,2.0,1.0,1.0,34.7,34.0,34.0,3.8,4.4,2.81,-0.7410015544129808,-0.006250494890066286,0.5545306636762176,-0.10311719139550737,-0.672282,-19.717451
11.185,2.0,1.0,1.0,34.7,34.0,34.0,3.8,4.4,2.8125,-0.75145781969987,-0.00356375755775428,0.53446239017978,-0.107768533177535,-0.70408,-19.345414
11.185,2.0,1.0,1.0,34.7,34.0,34.0,3.8,4.4,2.815,-0.7613543385824574,-0.0005267915770786761,0.5136855724119341,-0.11270752673551432,-0.738978,-18.960847
11.185,2.0,1.0,1.0,34.7,34.0,34.0,3.8,4.4,2.8175,-0.7706227718928531,0.002914585664613141,0.4921733338573699,-0.11795711996610571,-0.777449,-18.562866
11.185,2.0,1.0,1.0,34.7,34.0,34.0,3.8,4.4,2.82,-0.7791835404944486,0.0068251616651901145,0.4698976605012174,-0.12354140072538289,-0.82006,-18.150515
11.185,2.0,1.0,1.0,34.7,34.0,34.0,3.8,4.4,2.8225,-0.7869432790852317,0.011282790077175905,0.446829900818369,-0.1294850824367225,-0.867497,-17.722755
11.185,2.0,1.0,1.0,34.7,34.0,34.0,3.8,4.4,2.825,-0.7937916290760978,0.016381488975221348,0.4229416483715203,-0.13581261006936804,-0.920596,-17.278469
11.185,2.0,1.0,1.0,34.7,34.0,34.0,3.8,4.4,2.8275,-0.799597194548872,0.02223534484340697,0.39820621830400316,-0.1425466794924088,-0.980385,-16.816452
