1,w,sub_t,h,l1,l2,l3,g1,g2,Freq,S11_re,S21_re,S11_img,S21_img,S11_dB,S21_dB
11.185,2.0,1.0,1.0,33.9,34.5,34.5,3.8,1.7,2.5,0.797352477564046,-0.0109249759033512,0.591582806910415,0.00769693939907803,-0.062371,-37.481235
11.185,2.0,1.0,1.0,33.9,34.5,34.5,3.8,1.7,2.5025,0.7930582993773942,-0.011149925552495192,0.5971972934782757,0.0077250537438595885,-0.063054,-37.351886
11.185,2.0,1.0,1.0,33.9,34.5,34.5,3.8,1.7,2.505,0.7887031724961917,-0.011379504068261269,0.6028060020836483,0.007752048781466,-0.063752,-37.221906
11.185,2.0,1.0,1.0,33.9,34.5,34.5,3.8,1.7,2.5075,0.7842864460264506,-0.011613831878935924,0.6084085450580333,0.007777869019654218,-0.064464,-37.09128
11.185,2.0,1.0,1.0,33.9,34.5,34.5,3.8,1.7,2.51,0.7798074578020944,-0.011853033615533273,0.6140045229101571,0.0078024564233891685,-0.065191,-36.959993
11.185,2.0,1.0,1.0,33.9,34.5,34.5,3.8,1.7,2.5125,0.7752655341335971,-0.012097238299022567,0.6195935239226722,0.007825750280472494,-0.065934,-36.828029
11.185,2.0,1.0,1.0,33.9,34.5,34.5,3.8,1.7,2.515,0.7706599895476737,-0.012346579537754004,0.6251751237329638,0.007847687058827737,-0.066693,-36.695371
11.185,2.0,1.0,1.0,33.9,34.5,34.5,3.8,1.7,2.5175,0.7659901265174985,-0.012601195735737501,0.6307488848972288,0.007868200254838394,-0.067468,-36.562002
11.185,2.0,1.0,1.0,33.9,34.5,34.5,3.8,1.7,2.52,0.7612552351828707,-0.01286123031248052,0.6363143564369835,0.007887220232082928,-0.06826,-36.427906
11.185,2.0,1.0,1.0,33.9,34.5,34.5,3.8,1.7,2.5225,0.7564545930597206,-0.013126831935139529,0.6418710733670446,0.00790467404975916,-0.069069,-36.293064
11.185,2.0,1.0,1.0,33.9,34.5,34.5,3.8,1.7,2.525,0.7515874647382763,-0.013398154763800664,0.6474185562040143,0.007920485280026998,-0.069897,-36.157458
11.185,2.0,1.0,1.0,33.9,34.5,34.5,3.8,1.7,2.5275,0.7466531015691751,-0.013675358710764413,0.6529563104541954,0.007934573813435453,-0.070743,-36.021071
11.185,2.0,1.0,1.0,33.9,34.5,34.5,3.8,1.7,2.53,0.7416507413367388,-0.01395860971477594,0.6584838260797898,0.007946855651525007,-0.071608,-35.883882
11.185,2.0,1.0,1.0,33.9,34.5,34.5,3.8,1.7,2.5325,0.7365796079185657,-0.01424808003121694,0.6640005769421594,0.007957242685619816,-0.072494,-35.745873
11.185,2.0,1.0,1.0,33.9,34.5,34.5,3.8,1.7,2.535,0.7314389109305164,-0.014543948539353367,0.6695060202208291,0.007965642460733622,-0.073399,-35.607022
11.185,2.0,1.0,1.0,33.9,34.5,34.5,3.8,1.7,2.5375,0.7262278453561144,-0.014846401067817724,0.6749995958068035,0.007971957923421251,-0.074326,-35.46731
11.185,2.0,1.0,1.0,33.9,34.5,34.5,3.8,1.7,2.54,0.7209455911592693,-0.015155630739601368,0.680480725668672,0.007976087152298784,-0.075275,-35.326715
11.185,2.0,1.0,1.0,33.9,34.5,34.5,3.8,1.7,2.5425,0.7155913128791538,-0.015471838337930949,0.6859488131898406,0.007977923069840518,-0.076247,-35.185215
11.185,2.0,1.0,1.0,33.9,34.5,34.5,3.8,1.7,2.545,0.71016415920597,-0.01579523269451603,0.6914032424751091,0.007977353133933563,-0.077242,-35.042787
11.185,2.0,1.0,1.0,33.9,34.5,34.5,3.8,1.7,2.5475,0.7046632625362165,-0.01612603110177558,0.696843377624641,0.007974259007526565,-0.078262,-34.899409
11.185,2.0,1.0,1.0,33.9,34.5,34.5,3.8,1.7,2.55,0.6990877385059462,-0.016464459750783207,0.702268561973249,0.007968516204555881,-0.079306,-34.755056
11.185,2.0,1.0,1.0,33.9,34.5,34.5,3.8,1.7,2.5525,0.6934366855003924,-0.016810754196814503,0.7076781172926905,0.00795999371015622,-0.080377,-34.609704
11.185,2.0,1.0,1.0,33.9,34.5,34.5,3.8,1.7,2.555,0.6877091841381618,-0.017165159854539522,0.7130713429545136,0.007948553572974,-0.081475,-34.463327
11.185,2.0,1.0,1.0,33.9,34.5,34.5,3.8,1.7,2.5575,0.6819042967280537,-0.01752793252507448,0.7184475150507608,0.007934050467185675,-0.0826,-34.315899
11.185,2.0,1.0,1.0,33.9,34.5,34.5,3.8,1.7,2.56,0.6760210666963903,-0.017899338957295802,0.7238058854695724,0.007916331221591005,-0.083755,-34.167393
11.185,2.0,1.0,1.0,33.9,34.5,34.5,3.8,1.7,2.5625,0.6700585179825289,-0.018279657446027615,0.7291456809225005,0.007895234312885793,-0.08494,-34.017781
11.185,2.0,1.0,1.0,33.9,34.5,34.5,3.8,1.7,2.565,0.6640156544000284,-0.018669178469939682,0.7344661019200227,0.007870589319928794,-0.086156,-33.867033
11.185,2.0,1.0,1.0,33.9,34.5,34.5,3.8,1.7,2.5675,0.6578914589607081,-0.01906820537224291,0.7397663216914149,0.007842216335491781,-0.087405,-33.715122
11.185,2.0,1.0,1.0,33.9,34.5,34.5,3.8,1.7,2.57,0.6516848931585603,-0.01947705508754147,0.7450454850447839,0.0078099253316199135,-0.088688,-33.562014
11.185,2.0,1.0,1.0,33.9,34.5,34.5,3.8,1.7,2.5725,0.6453948962102077,-0.019896058918503545,0.7503027071626419,0.007773515474324883,-0.090006,-33.407679
11.185,2.0,1.0,1.0,33.9,34.5,34.5,3.8,1.7,2.575,0.6390203842482689,-0.020325563366340373,0.7555370723279449,0.007732774382880126,-0.09136,-33.252083
11.185,2.0,1.0,1.0,33.9,34.5,34.5,3.8,1.7,2.5775,0.6325602494636549,-0.020765931019450543,0.7607476325750122,0.007687477328483152,-0.092752,-33.095193
11.185,2.0,1.0,1.0,33.9,34.5,34.5,3.8,1.7,2.58,0.6260133591924263,-0.021217541504983832,0.7659334062591596,0.007637386366481333,-0.094184,-32.936973
11.185,2.0,1.0,1.0,33.9,34.5,34.5,3.8,1.7,2.5825,0.6193785549424108,-0.021680792508524626,0.7710933765382416,0.007582249395720435,-0.095658,-32.777386
11.185,2.0,1.0,1.0,33.9,34.5,34.5,3.8,1.7,2.585,0.6126546513543156,-0.022156100867579742,0.7762264897585835,0.007521799137861653,-0.097174,-32.616395
11.185,2.0,1.0,1.0,33.9,34.5,34.5,3.8,1.7,2.5875,0.6058404350915364,-0.022643903745096956,0.7813316537369538,0.007455752028705095,-0.098736,-32.453959
11.185,2.0,1.0,1.0,33.9,34.5,34.5,3.8,1.7,2.59,0.5989346636522916,-0.023144659889833462,0.7864077359293227,0.0073838070126523965,-0.100344,-32.290038
11.185,2.0,1.0,1.0,33.9,34.5,34.5,3.8,1.7,2.5925,0.5919360640970568,-0.02365885099105496,0.7914535614761354,0.007305644230414767,-0.102001,-32.12459
11.185,2.0,1.0,1.0,33.9,34.5,34.5,3.8,1.7,2.595,0.584843331683573,-0.024186983135772985,0.7964679111126267,0.007220923588917518,-0.10371,-31.95757
11.185,2.0,1.0,1.0,33.9,34.5,34.5,3.8,1.7,2.5975,0.577655128400887,-0.024729588377538053,0.8014495189314272,0.007129283201038282,-0.105472,-31.788933
11.185,2.0,1.0,1.0,33.9,34.5,34.5,3.8,1.7,2.6,0.5703700813930155,-0.025287226426701878,0.8063970699831934,0.00703033768133257,-0.10729,-31.618631
11.185,2.0,1.0,1.0,33.9,34.5,34.5,3.8,1.7,2.6025,0.5629867812618476,-0.025860486473054906,0.8113091976992952,0.006923676282210175,-0.109167,-31.446614
11.185,2.0,1.0,1.0,33.9,34.5,34.5,3.8,1.7,2.605,0.5555037802377775,-0.026449989152851943,0.8161844811186854,0.0068088608531074075,-0.111105,-31.27283
11.185,2.0,1.0,1.0,33.9,34.5,34.5,3.8,1.7,2.6075,0.5479195902053811,-0.02705638867346402,0.8210214418988547,0.0066854236030108195,-0.113108,-31.097226
11.185,2.0,1.0,1.0,33.9,34.5,34.5,3.8,1.7,2.61,0.5402326805700667,-0.027680375110259267,0.8258185410882901,0.006552864644190003,-0.115179,-30.919746
11.185,2.0,1.0,1.0,33.9,34.5,34.5,3.8,1.7,2.6125,0.5324414759501276,-0.028322676891836263,0.8305741756349655,0.006410649292141952,-0.117321,-30.740331
11.185,2.0,1.0,1.0,33.9,34.5,34.5,3.8,1.7,2.615,0.5245443536769301,-0.02898406349142148,0.8352866746021463,0.006258205093475555,-0.119538,-30.55892
11.185,2.0,1.0,1.0,33.9,34.5,34.5,3.8,1.7,2.6175,0.5165396410841088,-0.029665348344127537,0.8399542950589559,0.0060949185497091675,-0.121834,-30.37545
11.185,2.0,1.0,1.0,33.9,34.5,34.5,3.8,1.7,2.62,0.5084256125645147,-0.030367392011868367,0.8445752176089006,0.0059201315006360295,-0.124214,-30.189853
11.185,2.0,1.0,1.0,33.9,34.5,34.5,3.8,1.7,2.6225,0.5002004863713214,-0.031091105620068483,0.8491475415144973,0.005733137125932207,-0.12668,-30.00206
11.185,2.0,1.0,1.0,33.9,34.5,34.5,3.8,1.7,2.625,0.491862421137097,-0.0318374545929125,0.853669279370387,0.00553317551793831,-0.12924,-29.811999
11.185,2.0,1.0,1.0,33.9,34.5,34.5,3.8,1.7,2.6275,0.48340951208167615,-0.03260746271679657,0.8581383512706875,0.0053194287718952285,-0.131897,-29.619592
11.185,2.0,1.0,1.0,33.9,34.5,34.5,3.8,1.7,2.63,0.4748397868764332,-0.03340221656488878,0.8625525784085635,0.005091015532204085,-0.134657,-29.42476
11.185,2.0,1.0,1.0,33.9,34.5,34.5,3.8,1.7,2.6325,0.4661512011288866,-0.03422287031932971,0.8669096760370151,0.004846984924325066,-0.137527,-29.227418
11.185,2.0,1.0,1.0,33.9,34.5,34.5,3.8,1.7,2.635,0.45734163344748047,-0.035070651031643904,0.8712072457094374,0.004586309791490541,-0.140513,-29.02748
11.185,2.0,1.0,1.0,33.9,34.5,34.5,3.8,1.7,2.6375,0.4484088800418593,-0.03594686436643001,0.8754427667062467,0.004307879143233818,-0.143622,-28.824851
11.185,2.0,1.0,1.0,33.9,34.5,34.5,3.8,1.7,2.64,0.43935064880882935,-0.03685290087840931,0.8796135865396079,0.0040104897084761405,-0.146862,-28.619436
11.185,2.0,1.0,1.0,33.9,34.5,34.5,3.8,1.7,2.6425,0.4301645528486193,-0.03779024287847313,0.8837169104114836,0.0036928364691993327,-0.150242,-28.411132
11.185,2.0,1.0,1.0,33.9,34.5,34.5,3.8,1.7,2.645,0.4208481033497111,-0.03876047195054434,0.8877497894805223,0.003353502031067389,-0.153769,-28.199831
11.185,2.0,1.0,1.0,33.9,34.5,34.5,3.8,1.7,2.6475,0.4113987017736173,-0.0397652771878984,0.8917091077700042,0.002990944664180367,-0.157455,-27.98542
11.185,2.0,1.0,1.0,33.9,34.5,34.5,3.8,1.7,2.65,0.4018136312632341,-0.04080646422511601,0.8955915675215926,0.0026034848197347507,-0.16131,-27.767778
11.185,2.0,1.0,1.0,33.9,34.5,34.5,3.8,1.7,2.6525,0.3920900471900377,-0.04188596515010115,0.8993936727669746,0.002189289895880606,-0.165345,-27.546781
11.185,2.0,1.0,1.0,33.9,34.5,34.5,3.8,1.7,2.655,0.38222496674606615,-0.043005849389613646,0.9031117108507417,0.0017463569874393335,-0.169574,-27.322294
11.185,2.0,1.0,1.0,33.9,34.5,34.5,3.8,1.7,2.6575,0.37221525747667633,-0.044168335671515346,0.9067417315915838,0.0012724933081013064,-0.17401,-27.094176
11.185,2.0,1.0,1.0,33.9,34.5,34.5,3.8,1.7,2.66,0.36205762463925845,-0.045375805177368785,0.9102795237136069,0.0007652939186586373,-0.17867,-26.862278
11.185,2.0,1.0,1.0,33.9,34.5,34.5,3.8,1.7,2.6625,0.3517485972617425,-0.04663081601003549,0.9137205881131795,0.0002221163287765494,-0.18357,-26.626441
11.185,2.0,1.0,1.0,33.9,34.5,34.5,3.8,1.7,2.665,0.3412845127628177,-0.04793611911228845,0.9170601074469655,-0.0003599485396669964,-0.188728,-26.386498
11.185,2.0,1.0,1.0,33.9,34.5,34.5,3.8,1.7,2.6675,0.3306614999839646,-0.04929467578381921,0.9202929114302872,-0.0009841096355899582,-0.194167,-26.142269
11.185,2.0,1.0,1.0,33.9,34.5,34.5,3.8,1.7,2.67,0.3198754604717984,-0.05070967695484723,0.923413437118294,-0.0016539140321893016,-0.199909,-25.893566
11.185,2.0,1.0,1.0,33.9,34.5,34.5,3.8,1.7,2.6725,0.3089220478390466,-0.05218456438396467,0.9264156833003877,-0.00237329101626634,-0.205978,-25.640185
11.185,2.0,1.0,1.0,33.9,34.5,34.5,3.8,1.7,2.675,0.29779664502473335,-0.053723053954622006,0.9292931579652199,-0.003146603051026031,-0.212405,-25.381913
11.185,2.0,1.0,1.0,33.9,34.5,34.5,3.8,1.7,2.6775,0.2864943392706946,-0.055329161246914324,0.9320388175816051,-0.00397870486084479,-0.219221,-25.118519
11.185,2.0,1.0,1.0,33.9,34.5,34.5,3.8,1.7,2.68,0.2750098946351661,-0.05700722955633586,0.9346449966801647,-0.00487501214555995,-0.226461,-24.849757
11.185,2.0,1.0,1.0,33.9,34.5,34.5,3.8,1.7,2.6825,0.26333772187866034,-0.05876196051498022,0.9371033258992866,-0.005841581751299714,-0.234165,-24.575366
11.185,2.0,1.0,1.0,33.9,34.5,34.5,3.8,1.7,2.685,0.25147184558845054,-0.060598447437550114,0.9394046362611196,-0.006885205520358584,-0.242378,-24.295063
11.185,2.0,1.0,1.0,33.9,34.5,34.5,3.8,1.7,2.6875,0.2394058684637986,-0.06252221145622729,0.9415388469489254,-0.008013520534105947,-0.251152,-24.008548
11.185,2.0,1.0,1.0,33.9,34.5,34.5,3.8,1.7,2.69,0.22713293277664315,-0.06453924041300045,0.9434948332399703,-0.009235139076133303,-0.260543,-23.715496
11.185,2.0,1.0,1.0,33.9,34.5,34.5,3.8,1.7,2.6925,0.2146456791686451,-0.06665603032821046,0.9452602704751119,-0.010559802410982776,-0.270617,-23.415559
11.185,2.0,1.0,1.0,33.9,34.5,34.5,3.8,1.7,2.695,0.20193620317056052,-0.0688796290348499,0.946821448973658,-0.01199856343982215,-0.28145,-23.10836
11.185,2.0,1.0,1.0,33.9,34.5,34.5,3.8,1.7,2.6975,0.1889960101694897,-0.07121768122336045,0.9481630535739266,-0.013564004514137086,-0.293126,-22.793496
11.185,2.0,1.0,1.0,33.9,34.5,34.5,3.8,1.7,2.7,0.17581597005670296,-0.07367847362851494,0.949267899922799,-0.0152704982344436,-0.305744,-22.470527
11.185,2.0,1.0,1.0,33.9,34.5,34.5,3.8,1.7,2.7025,0.16238627353999915,-0.07627097833144297,0.9501166176560162,-0.01713452102776544,-0.319418,-22.138981
11.185,2.0,1.0,1.0,33.9,34.5,34.5,3.8,1.7,2.705,0.14869639321316835,-0.0790048910327976,0.9506872680805081,-0.019175031808401168,-0.33428,-21.798344
11.185,2.0,1.0,1.0,33.9,34.5,34.5,3.8,1.7,2.7075,0.1347350541077801,-0.0818906595106537,0.9509548807282036,-0.02141393124185663,-0.350484,-21.448058
11.185,2.0,1.0,1.0,33.9,34.5,34.5,3.8,1.7,2.71,0.12049022085676554,-0.08493949506147923,0.9508908889869238,-0.023876621260083348,-0.368209,-21.087519
11.185,2.0,1.0,1.0,33.9,34.5,34.5,3.8,1.7,2.7125,0.10594911214461875,-0.08816335616533402,0.9504624396555711,-0.026592689786149423,-0.387669,-20.716068
11.185,2.0,1.0,1.0,33.9,34.5,34.5,3.8,1.7,2.715,0.09109825836030867,-0.09157488836331552,0.9496315443702638,-0.02959675246098462,-0.409114,-20.332986
11.185,2.0,1.0,1.0,33.9,34.5,34.5,3.8,1.7,2.7175,0.07592362614459243,-0.09518729654963438,0.9483540319692922,-0.032929491952834206,-0.432844,-19.937491
11.185,2.0,1.0,1.0,33.9,34.5,34.5,3.8,1.7,2.72,0.06041084510824628,-0.09901411429117421,0.9465782494787467,-0.03663894669052986,-0.459217,-19.528729
11.185,2.0,1.0,1.0,33.9,34.5,34.5,3.8,1.7,2.7225,0.044545589342152636,-0.10306881744995822,0.9442434449023669,-0.04078211518540018,-0.488666,-19.105767
11.185,2.0,1.0,1.0,33.9,34.5,34.5,3.8,1.7,2.725,0.028314192446059375,-0.1073642033086531,0.9412777467767879,-0.04542696008498781,-0.521716,-18.667588
11.185,2.0,1.0,1.0,33.9,34.5,34.5,3.8,1.7,2.7275,0.011704614312454002,-0.1119114169645582,0.9375956330720415,-0.05065491814054721,-0.559012,-18.213083
11.185,2.0,1.0,1.0,33.9,34.5,34.5,3.8,1.7,2.73,-0.005292061976562773,-0.1167184467929525,0.9330947556448361,-0.056564048160705246,-0.601345,-17.741046
11.185,2.0,1.0,1.0,33.9,34.5,34.5,3.8,1.7,2.7325,-0.022679332840476386,-0.12178781914418495,0.9276519577835655,-0.06327297701431242,-0.649704,-17.250173
11.185,2.0,1.0,1.0,33.9,34.5,34.5,3.8,1.7,2.735,-0.040451765023402635,-0.12711308185110237,0.9211182965790266,-0.07092582860069452,-0.705324,-16.739058
11.185,2.0,1.0,1.0,33.9,34.5,34.5,3.8,1.7,2.7375,-0.05858964592587356,-0.13267344999773348,0.9133128715168114,-0.07969832972753714,-0.769773,-16.206207
11.185,2.0,1.0,1.0,33.9,34.5,34.5,3.8,1.7,2.74,-0.07705083110383168,-0.13842565556048014,0.9040152939101361,-0.0898052518316104,-0.845049,-15.650059
11.185,2.0,1.0,1.0,33.9,34.5,34.5,3.8,1.7,2.7425,-0.09575831717101917,-0.1442915364705874,0.8929567682190491,-0.10150920874471962,-0.933733,-15.069023
11.185,2.0,1.0,1.0,33.9,34.5,34.5,3.8,1.7,2.745,-0.1145813032094578,-0.15013914147792667,0.8798101186463805,-0.11513046565586539,-1.039178,-14.46156
11.185,2.0,1.0,1.0,33.9,34.5,34.5,3.8,1.7,2.7475,-0.1333063928649385,-0.1557540267469766,0.8641799287004873,-0.13105657766529027,-1.165785,-13.826312
11.185,2.0,1.0,1.0,33.9,34.5,34.5,3.8,1.7,2.75,-0.15159408597218,-0.160795934901891,0.845595746848072,-0.149748890714155,-1.31936,-13.162322
11.185,2.0,1.0,1.0,33.9,34.5,34.5,3.8,1.7,2.7525,-0.16891398402226482,-0.16473435310472234,0.8235149419002039,-0.1717393145724581,-1.507595,-12.469396
11.185,2.0,1.0,1.0,33.9,34.5,34.5,3.8,1.7,2.755,-0.18445105896922379,-0.16675542001555702,0.7973488115036984,-0.19760378556464492,-1.740631,-11.748685
11.185,2.0,1.0,1.0,33.9,34.5,34.5,3.8,1.7,2.7575,-0.19697766098617697,-0.16563504451495917,0.7665382151051751,-0.2278862446101405,-2.031614,-11.003594
11.185,2.0,1.0,1.0,33.9,34.5,34.5,3.8,1.7,2.76,-0.20469878188000176,-0.15958600475971874,0.7307252372536484,-0.26292689986641415,-2.396824,-10.241169
11.185,2.0,1.0,1.0,33.9,34.5,34.5,3.8,1.7,2.7625,-0.205116739511806,-0.14612541303820925,0.6900916766348243,-0.3025246166250318,-2.854193,-9.474069
11.185,2.0,1.0,1.0,33.9,34.5,34.5,3.8,1.7,2.765,-0.19504994222379612,-0.12209702516288926,0.6459391364791892,-0.3453598892850175,-3.417197,-8.723085
11.185,2.0,1.0,1.0,33.9,34.5,34.5,3.8,1.7,2.7675,-0.17108789897087745,-0.08412906143645463,0.6014938701584476,-0.38819700456075873,-4.0775,-8.019629
11.185,2.0,1.0,1.0,33.9,34.5,34.5,3.8,1.7,2.77,-0.13087037671926927,-0.02991124898647208,0.5625972618286226,-0.4252054227370889,-4.767183,-7.406586
11.185,2.0,1.0,1.0,33.9,34.5,34.5,3.8,1.7,2.7725,-0.0752749304111361,0.039631327562079426,0.5373711511084968,-0.4483071456877574,-5.310119,-6.934679
11.185,2.0,1.0,1.0,33.9,34.5,34.5,3.8,1.7,2.775,-0.010435884900811208,0.11834660540850384,0.5337538206627207,-0.4496410557603513,-5.45152,-6.651785
11.185,2.0,1.0,1.0,33.9,34.5,34.5,3.8,1.7,2.7775,0.05277410330936927,0.19539958621840434,0.5553062229906209,-0.4257300266959238,-5.0703,-6.587098
11.185,2.0,1.0,1.0,33.9,34.5,34.5,3.8,1.7,2.78,0.10296511370668907,0.25948826100760986,0.5984442548044275,-0.3802040686566848,-4.332829,-6.73891
11.185,2.0,1.0,1.0,33.9,34.5,34.5,3.8,1.7,2.7825,0.13330642894755831,0.30387885186722613,0.6541075833095636,-0.32210669329089264,-3.510282,-7.075333
11.185,2.0,1.0,1.0,33.9,34.5,34.5,3.8,1.7,2.785,0.143268523421953,0.32810564444782253,0.7124332541337074,-0.26123781748647135,-2.772945,-7.547378
11.185,2.0,1.0,1.0,33.9,34.5,34.5,3.8,1.7,2.7875,0.1366203260930098,0.33595659703302894,0.7663682915887817,-0.20457692741955213,-2.175378,-8.104576
11.185,2.0,1.0,1.0,33.9,34.5,34.5,3.8,1.7,2.79,0.11844806831251263,0.3325058084274488,0.8124685875390392,-0.15550873187591518,-1.71253,-8.704935
11.185,2.0,1.0,1.0,33.9,34.5,34.5,3.8,1.7,2.7925,0.09324904083789957,0.3222255590535152,0.8499479319421497,-0.11478024368211458,-1.360191,-9.318
11.185,2.0,1.0,1.0,33.9,34.5,34.5,3.8,1.7,2.795,0.06430097778228343,0.3083675412822547,0.8794351900482683,-0.0817395429536022,-1.092768,-9.923721
11.185,2.0,1.0,1.0,33.9,34.5,34.5,3.8,1.7,2.7975,0.0337361309549081,0.29304186894435424,0.9020927434370907,-0.05521118487835971,-0.888906,-10.509917
11.185,2.0,1.0,1.0,33.9,34.5,34.5,3.8,1.7,2.8,0.0028356405564628085,0.2775123908758404,0.9191458706250911,-0.033961999420735724,-0.73227,-11.069791
11.185,2.0,1.0,1.0,33.9,34.5,34.5,3.8,1.7,2.8025,-0.027683596560374092,0.262482896914601,0.9316842429793709,-0.01689660126687134,-0.610792,-11.600021
11.185,2.0,1.0,1.0,33.9,34.5,34.5,3.8,1.7,2.805,-0.057454775493686806,0.24831023054360135,0.940605596923399,-0.003112083056826712,-0.515675,-12.099426
11.185,2.0,1.0,1.0,33.9,34.5,34.5,3.8,1.7,2.8075,-0.08631864236878105,0.23514588749278054,0.9466217191500026,0.008108780268963849,-0.440509,-12.568091
11.185,2.0,1.0,1.0,33.9,34.5,34.5,3.8,1.7,2.81,-0.11423415324061224,0.2230246307477178,0.9502861222807354,0.01732557005889521,-0.380604,-13.006813
11.185,2.0,1.0,1.0,33.9,34.5,34.5,3.8,1.7,2.8125,-0.141224433479032,0.211918010296861,0.952025345125634,0.0249716629189559,-0.332499,-13.416754
11.185,2.0,1.0,1.0,33.9,34.5,34.5,3.8,1.7,2.815,-0.16734488660806157,0.20176589328148697,0.9521670006758295,0.03138231462419553,-0.29362,-13.79923
11.185,2.0,1.0,1.0,33.9,34.5,34.5,3.8,1.7,2.8175,-0.19266478460392156,0.19249462750221855,0.9509626990373424,0.036817578754729394,-0.262028,-14.155589
11.185,2.0,1.0,1.0,33.9,34.5,34.5,3.8,1.7,2.82,-0.21725691672097935,0.18402722578790232,0.9486059726418472,0.041480218309034145,-0.236253,-14.487132
11.185,2.0,1.0,1.0,33.9,34.5,34.5,3.8,1.7,2.8225,-0.24119199442693623,0.17628884820444565,0.9452459847321867,0.045529405957882116,-0.215166,-14.795075
11.185,2.0,1.0,1.0,33.9,34.5,34.5,3.8,1.7,2.825,-0.26453583019826665,0.16920954683762926,0.9409979009454625,0.04909109943139903,-0.197892,-15.08053
11.185,2.0,1.0,1.0,33.9,34.5,34.5,3.8,1.7,2.8275,-0.28734811008335426,0.16272544142025702,0.9359507030043971,0.0522658740127832,-0.18375,-15.344493
11.185,2.0,1.0,1.0,33.9,34.5,34.5,3.8,1.7,2.83,-0.3096820614882312,0.15677901642740005,0.9301730725131818,0.05513484157861732,-0.172202,-15.58784
