1,w,sub_t,h,l1,l2,l3,g1,g2,Freq,S11_re,S21_re,S11_img,S21_img,S11_dB,S21_dB
11.185,2.0,1.0,1.0,33.2,33.2,33.2,3.7,2.1,2.5,0.879723158710205,-0.00588394860232554,0.46347942587991,0.00560262160259116,-0.04924,-41.803888
11.185,2.0,1.0,1.0,33.2,33.2,33.2,3.7,2.1,2.5025,0.8767761108478451,-0.006004059150693754,0.4689306293971316,0.005633847840832429,-0.049652,-41.68841
11.185,2.0,1.0,1.0,33.2,33.2,33.2,3.7,2.1,2.505,0.8737837375639844,-0.006126246986755197,0.47438274791122775,0.0056646621349877545,-0.050071,-41.572704
11.185,2.0,1.0,1.0,33.2,33.2,33.2,3.7,2.1,2.5075,0.8707456282793132,-0.006250551598170221,0.4798356137201084,0.005695044360666174,-0.050496,-41.456762
11.185,2.0,1.0,1.0,33.2,33.2,33.2,3.7,2.1,2.51,0.8676613659106486,-0.006377013430181047,0.48528905421400065,0.005724973666322333,-0.050929,-41.340577
11.185,2.0,1.0,1.0,33.2,33.2,33.2,3.7,2.1,2.5125,0.8645305267642575,-0.006505673913748525,0.4907428917160316,0.005754428444597639,-0.051369,-41.224142
11.185,2.0,1.0,1.0,33.2,33.2,33.2,3.7,2.1,2.515,0.8613526804275178,-0.006636575494662977,0.4961969433177206,0.005783386302411746,-0.051816,-41.107449
11.185,2.0,1.0,1.0,33.2,33.2,33.2,3.7,2.1,2.5175,0.8581273896589038,-0.006769761663668434,0.5016510207091879,0.005811824029741841,-0.052271,-40.990489
11.185,2.0,1.0,1.0,33.2,33.2,33.2,3.7,2.1,2.52,0.854854210276269,-0.006905276987642605,0.5071049300039158,0.005839717567027489,-0.052733,-40.873255
11.185,2.0,1.0,1.0,33.2,33.2,33.2,3.7,2.1,2.5225,0.8515326910434186,-0.007043167141875128,0.5125584715578433,0.005867041971130415,-0.053204,-40.75574
11.185,2.0,1.0,1.0,33.2,33.2,33.2,3.7,2.1,2.525,0.8481623735549452,-0.0071834789434903875,0.5180114397826241,0.005893771379778693,-0.053682,-40.637934
11.185,2.0,1.0,1.0,33.2,33.2,33.2,3.7,2.1,2.5275,0.8447427921193079,-0.007326260386062579,0.5234636229528264,0.00591987897441937,-0.054169,-40.519831
11.185,2.0,1.0,1.0,33.2,33.2,33.2,3.7,2.1,2.53,0.8412734736401448,-0.0074715606754729436,0.5289148030068603,0.005945336941398398,-0.054664,-40.401421
11.185,2.0,1.0,1.0,33.2,33.2,33.2,3.7,2.1,2.5325,0.8377539374957937,-0.007619430267061705,0.534364755341412,0.005970116431383224,-0.055168,-40.282696
11.185,2.0,1.0,1.0,33.2,33.2,33.2,3.7,2.1,2.535,0.8341836954170051,-0.0077699209041302425,0.5398132485991576,0.005994187516939139,-0.055681,-40.163649
11.185,2.0,1.0,1.0,33.2,33.2,33.2,3.7,2.1,2.5375,0.8305622513628337,-0.007923085657850826,0.5452600444495029,0.006017519148163036,-0.056203,-40.04427
11.185,2.0,1.0,1.0,33.2,33.2,33.2,3.7,2.1,2.54,0.8268891013946863,-0.008078978968644911,0.5507048973621085,0.00604007910627479,-0.056734,-39.924551
11.185,2.0,1.0,1.0,33.2,33.2,33.2,3.7,2.1,2.5425,0.8231637335485105,-0.008237656689093948,0.5561475543729336,0.006061833955060283,-0.057275,-39.804483
11.185,2.0,1.0,1.0,33.2,33.2,33.2,3.7,2.1,2.545,0.8193856277051099,-0.008399176128449119,0.5615877548425304,0.006082748990051802,-0.057825,-39.684058
11.185,2.0,1.0,1.0,33.2,33.2,33.2,3.7,2.1,2.5475,0.8155542554585686,-0.008563596098811039,0.5670252302062921,0.006102788185328755,-0.058385,-39.563265
11.185,2.0,1.0,1.0,33.2,33.2,33.2,3.7,2.1,2.55,0.8116690799827646,-0.008730976963052887,0.5724597037163814,0.006121914137809886,-0.058955,-39.442098
11.185,2.0,1.0,1.0,33.2,33.2,33.2,3.7,2.1,2.5525,0.8077295558959665,-0.008901380684564855,0.577890890175001,0.0061400880089040825,-0.059536,-39.320545
11.185,2.0,1.0,1.0,33.2,33.2,33.2,3.7,2.1,2.555,0.8037351291234887,-0.009074870878901745,0.5833184956587117,0.006157269463377303,-0.060127,-39.198598
11.185,2.0,1.0,1.0,33.2,33.2,33.2,3.7,2.1,2.5575,0.7996852367583905,-0.009251512867419728,0.588742217233448,0.00617341660528406,-0.060729,-39.076248
11.185,2.0,1.0,1.0,33.2,33.2,33.2,3.7,2.1,2.56,0.7955793069202156,-0.009431373732992788,0.5941617426598811,0.006188485910803812,-0.061343,-38.953485
11.185,2.0,1.0,1.0,33.2,33.2,33.2,3.7,2.1,2.5625,0.7914167586117417,-0.00961452237790386,0.5995767500887654,0.006202432157811051,-0.061968,-38.830298
11.185,2.0,1.0,1.0,33.2,33.2,33.2,3.7,2.1,2.565,0.7871970015737373,-0.009801029584011545,0.6049869077458925,0.00621520835199885,-0.062604,-38.706679
11.185,2.0,1.0,1.0,33.2,33.2,33.2,3.7,2.1,2.5675,0.7829194361377113,-0.009990968075297547,0.6103918736062381,0.006226765649363338,-0.063253,-38.582617
11.185,2.0,1.0,1.0,33.2,33.2,33.2,3.7,2.1,2.57,0.778583453076636,-0.010184412582906567,0.6157912950568998,0.00623705327484375,-0.063914,-38.458101
11.185,2.0,1.0,1.0,33.2,33.2,33.2,3.7,2.1,2.5725,0.7741884334536346,-0.010381439912795784,0.6211848085483795,0.006246018436901482,-0.064587,-38.333123
11.185,2.0,1.0,1.0,33.2,33.2,33.2,3.7,2.1,2.575,0.7697337484686203,-0.010582129016117972,0.6265720392337623,0.006253606237804821,-0.065274,-38.20767
11.185,2.0,1.0,1.0,33.2,33.2,33.2,3.7,2.1,2.5775,0.7652187593028701,-0.010786561062468692,0.6319526005953016,0.006259759579374413,-0.065974,-38.081733
11.185,2.0,1.0,1.0,33.2,33.2,33.2,3.7,2.1,2.58,0.760642816961529,-0.010994819516135006,0.6373260940579193,0.0062644190639241865,-0.066687,-37.9553
11.185,2.0,1.0,1.0,33.2,33.2,33.2,3.7,2.1,2.5825,0.7560052621140216,-0.011206990215491716,0.6426921085890946,0.006267522890119249,-0.067414,-37.82836
11.185,2.0,1.0,1.0,33.2,33.2,33.2,3.7,2.1,2.585,0.7513054249323649,-0.011423161455698116,0.648050220284586,0.00626900674344998,-0.068156,-37.700903
11.185,2.0,1.0,1.0,33.2,33.2,33.2,3.7,2.1,2.5875,0.7465426249273652,-0.01164342407485776,0.6533999919394202,0.006268803681004372,-0.068913,-37.572916
11.185,2.0,1.0,1.0,33.2,33.2,33.2,3.7,2.1,2.59,0.7417161707826919,-0.01186787154381214,0.6587409726035262,0.006266844010196523,-0.069685,-37.444388
11.185,2.0,1.0,1.0,33.2,33.2,33.2,3.7,2.1,2.5925,0.7368253601868049,-0.012096600059750147,0.6640726971213986,0.006263055161088602,-0.070472,-37.315306
11.185,2.0,1.0,1.0,33.2,33.2,33.2,3.7,2.1,2.595,0.7318694796627343,-0.012329708643823385,0.6693946856550989,0.006257361551915065,-0.071275,-37.18566
11.185,2.0,1.0,1.0,33.2,33.2,33.2,3.7,2.1,2.5975,0.7268478043956829,-0.012567299242971406,0.6747064431899115,0.006249684447394897,-0.072095,-37.055435
11.185,2.0,1.0,1.0,33.2,33.2,33.2,3.7,2.1,2.6,0.7217595980584465,-0.012809476836169972,0.6800074590219078,0.0062399418093849555,-0.072932,-36.924621
11.185,2.0,1.0,1.0,33.2,33.2,33.2,3.7,2.1,2.6025,0.7166041126346324,-0.013056349545329415,0.6852972062266333,0.006228048139398339,-0.073786,-36.793203
11.185,2.0,1.0,1.0,33.2,33.2,33.2,3.7,2.1,2.605,0.7113805882396541,-0.013308028751083136,0.6905751411081085,0.006213914312476473,-0.074658,-36.661169
11.185,2.0,1.0,1.0,33.2,33.2,33.2,3.7,2.1,2.6075,0.7060882529394855,-0.013564629213720567,0.6958407026272735,0.006197447401867497,-0.075548,-36.528505
11.185,2.0,1.0,1.0,33.2,33.2,33.2,3.7,2.1,2.61,0.7007263225671543,-0.013826269199533562,0.7010933118089585,0.00617855049392378,-0.076457,-36.395198
11.185,2.0,1.0,1.0,33.2,33.2,33.2,3.7,2.1,2.6125,0.6952940005369483,-0.014093070612862059,0.7063323711264283,0.006157122492587876,-0.077385,-36.261233
11.185,2.0,1.0,1.0,33.2,33.2,33.2,3.7,2.1,2.615,0.6897904776563039,-0.01436515913414128,0.7115572638624731,0.00613305791279087,-0.078334,-36.126597
11.185,2.0,1.0,1.0,33.2,33.2,33.2,3.7,2.1,2.6175,0.6842149319353547,-0.014642664364271632,0.7167673534459713,0.006106246662035069,-0.079303,-35.991274
11.185,2.0,1.0,1.0,33.2,33.2,33.2,3.7,2.1,2.62,0.6785665283941037,-0.014925719975651138,0.7219619827627862,0.006076573809379677,-0.080293,-35.855249
11.185,2.0,1.0,1.0,33.2,33.2,33.2,3.7,2.1,2.6225,0.6728444188671742,-0.015214463870232568,0.727140473439789,0.0060439193409885066,-0.081305,-35.718508
11.185,2.0,1.0,1.0,33.2,33.2,33.2,3.7,2.1,2.625,0.667047741806115,-0.0155090383449874,0.73230212510072,0.00600815790133369,-0.08234,-35.581035
11.185,2.0,1.0,1.0,33.2,33.2,33.2,3.7,2.1,2.6275,0.6611756220791907,-0.015809590265184942,0.7374462145925414,0.005969158519080524,-0.083398,-35.442813
11.185,2.0,1.0,1.0,33.2,33.2,33.2,3.7,2.1,2.63,0.655227170768619,-0.01611627124591791,0.7425719951808296,0.005926784316600761,-0.08448,-35.303827
11.185,2.0,1.0,1.0,33.2,33.2,33.2,3.7,2.1,2.6325,0.6492014849651891,-0.016429237842334833,0.7476786957126746,0.005880892201981543,-0.085586,-35.164059
11.185,2.0,1.0,1.0,33.2,33.2,33.2,3.7,2.1,2.635,0.64309764756019,-0.016748651749066312,0.7527655197454515,0.005831332542304075,-0.086718,-35.023493
11.185,2.0,1.0,1.0,33.2,33.2,33.2,3.7,2.1,2.6375,0.6369147270345853,-0.017074680009364615,0.7578316446397213,0.005777948816869707,-0.087876,-34.88211
11.185,2.0,1.0,1.0,33.2,33.2,33.2,3.7,2.1,2.64,0.6306517772453253,-0.01740749523450846,0.7628762206144153,0.005720577248943281,-0.089061,-34.739893
11.185,2.0,1.0,1.0,33.2,33.2,33.2,3.7,2.1,2.6425,0.6243078372087214,-0.017747275834058954,0.7678983697623041,0.005659046414466584,-0.090274,-34.596823
11.185,2.0,1.0,1.0,33.2,33.2,33.2,3.7,2.1,2.645,0.617881930880761,-0.01809420625759122,0.7728971850236477,0.005593176826067196,-0.091516,-34.452881
11.185,2.0,1.0,1.0,33.2,33.2,33.2,3.7,2.1,2.6475,0.6113730669342468,-0.018448477248565198,0.7778717291157483,0.005522780490546613,-0.092788,-34.308047
11.185,2.0,1.0,1.0,33.2,33.2,33.2,3.7,2.1,2.65,0.604780238532609,-0.018810286111042726,0.7828210334159942,0.0054476604378816025,-0.09409,-34.162303
11.185,2.0,1.0,1.0,33.2,33.2,33.2,3.7,2.1,2.6525,0.5981024231002644,-0.019179836990001517,0.7877440967957652,0.0053676102196012175,-0.095425,-34.015626
11.185,2.0,1.0,1.0,33.2,33.2,33.2,3.7,2.1,2.655,0.5913385820893158,-0.019557341166047206,0.7926398844024306,0.005282413374221085,-0.096792,-33.867995
11.185,2.0,1.0,1.0,33.2,33.2,33.2,3.7,2.1,2.6575,0.5844876607424273,-0.01994301736537492,0.7975073263864189,0.005191842857213697,-0.098194,-33.71939
11.185,2.0,1.0,1.0,33.2,33.2,33.2,3.7,2.1,2.66,0.577548587851642,-0.020337092085886684,0.8023453165701286,0.005095660432770727,-0.09963,-33.569788
11.185,2.0,1.0,1.0,33.2,33.2,33.2,3.7,2.1,2.6625,0.5705202755129202,-0.020739799940430143,0.8071527110551946,0.0049936160243728295,-0.101104,-33.419165
11.185,2.0,1.0,1.0,33.2,33.2,33.2,3.7,2.1,2.665,0.5634016188761137,-0.021151384018186118,0.8119283267643521,0.0048854470209106484,-0.102615,-33.267499
11.185,2.0,1.0,1.0,33.2,33.2,33.2,3.7,2.1,2.6675,0.5561914958901049,-0.02157209626529819,0.8166709399138311,0.0047708775348078054,-0.104165,-33.114764
11.185,2.0,1.0,1.0,33.2,33.2,33.2,3.7,2.1,2.67,0.5488887670427659,-0.022002197885908438,0.8213792844118891,0.004649617608271444,-0.105756,-32.960936
11.185,2.0,1.0,1.0,33.2,33.2,33.2,3.7,2.1,2.6725,0.5414922750953863,-0.02244195976483774,0.8260520501787257,0.004521362363433596,-0.107389,-32.805989
11.185,2.0,1.0,1.0,33.2,33.2,33.2,3.7,2.1,2.675,0.5340008448111796,-0.022891662913227927,0.8306878813826089,0.004385791091753546,-0.109066,-32.649896
11.185,2.0,1.0,1.0,33.2,33.2,33.2,3.7,2.1,2.6775,0.5264132826774226,-0.02335159893854656,0.835285374586612,0.004242566277609301,-0.110789,-32.492629
11.185,2.0,1.0,1.0,33.2,33.2,33.2,3.7,2.1,2.68,0.5187283766207537,-0.02382207054044381,0.839843076799863,0.004091332550522338,-0.112558,-32.334161
11.185,2.0,1.0,1.0,33.2,33.2,33.2,3.7,2.1,2.6825,0.5109448957151131,-0.02430339203404216,0.844359483426661,0.003931715559918487,-0.114376,-32.174462
11.185,2.0,1.0,1.0,33.2,33.2,33.2,3.7,2.1,2.685,0.503061589881746,-0.02479588990233939,0.8488330361062237,0.0037633207657334546,-0.116246,-32.013502
11.185,2.0,1.0,1.0,33.2,33.2,33.2,3.7,2.1,2.6875,0.49507718958064506,-0.025299903379505006,0.8532621204351543,0.0035857321375045983,-0.118168,-31.85125
11.185,2.0,1.0,1.0,33.2,33.2,33.2,3.7,2.1,2.69,0.48699040549277495,-0.02581578506695764,0.8576450635639732,0.0033985107538535616,-0.120145,-31.687673
11.185,2.0,1.0,1.0,33.2,33.2,33.2,3.7,2.1,2.6925,0.47879992819232114,-0.02634390158422125,0.8619801316582514,0.003201193293442796,-0.12218,-31.522739
11.185,2.0,1.0,1.0,33.2,33.2,33.2,3.7,2.1,2.695,0.4705044278082134,-0.02688463425667049,0.8662655272139379,0.0029932904075718587,-0.124274,-31.356412
11.185,2.0,1.0,1.0,33.2,33.2,33.2,3.7,2.1,2.6975,0.46210255367404174,-0.027438379842393095,0.8704993862154838,0.0027742849635571075,-0.126431,-31.188658
11.185,2.0,1.0,1.0,33.2,33.2,33.2,3.7,2.1,2.7,0.4535929339655032,-0.02800555130051359,0.8746797751241897,0.002543630146895948,-0.128652,-31.019438
11.185,2.0,1.0,1.0,33.2,33.2,33.2,3.7,2.1,2.7025,0.4449741753243976,-0.028586578603442946,0.8788046876829533,0.002300747408940477,-0.130941,-30.848715
11.185,2.0,1.0,1.0,33.2,33.2,33.2,3.7,2.1,2.705,0.43624486246818983,-0.02918190959563146,0.8828720415221426,0.0020450242453688744,-0.133301,-30.67645
11.185,2.0,1.0,1.0,33.2,33.2,33.2,3.7,2.1,2.7075,0.4274035577840735,-0.029792010901518926,0.8868796745497306,0.001775811789142437,-0.135734,-30.502601
11.185,2.0,1.0,1.0,33.2,33.2,33.2,3.7,2.1,2.71,0.4184488009064681,-0.03041736888547882,0.89082534110701,0.0014924221998295147,-0.138245,-30.327125
11.185,2.0,1.0,1.0,33.2,33.2,33.2,3.7,2.1,2.7125,0.4093791082768286,-0.0310584906666489,0.8947067078692019,0.0011941258291473704,-0.140837,-30.149978
11.185,2.0,1.0,1.0,33.2,33.2,33.2,3.7,2.1,2.715,0.4001929726846709,-0.031715905191619015,0.898521349467965,0.000880148140293053,-0.143513,-29.971114
11.185,2.0,1.0,1.0,33.2,33.2,33.2,3.7,2.1,2.7175,0.39088886278871027,-0.032390164368004654,0.9022667438102595,0.000549666356052763,-0.146277,-29.790486
11.185,2.0,1.0,1.0,33.2,33.2,33.2,3.7,2.1,2.72,0.38146522261709076,-0.03308184426195911,0.9059402670650883,0.00020180580777067681,-0.149134,-29.608044
11.185,2.0,1.0,1.0,33.2,33.2,33.2,3.7,2.1,2.7225,0.3719204710457415,-0.03379154636266814,0.9095391882863827,-0.00016436404603327467,-0.152089,-29.423736
11.185,2.0,1.0,1.0,33.2,33.2,33.2,3.7,2.1,2.725,0.36225300125409143,-0.03451989891680077,0.9130606636365224,-0.0005498339663362412,-0.155145,-29.237508
11.185,2.0,1.0,1.0,33.2,33.2,33.2,3.7,2.1,2.7275,0.3524611801575353,-0.03526755833576161,0.9165017301708006,-0.000955659684750165,-0.158309,-29.049304
11.185,2.0,1.0,1.0,33.2,33.2,33.2,3.7,2.1,2.73,0.3425433478164128,-0.03603521067836608,0.9198592991382863,-0.0013829671031010593,-0.161586,-28.859067
11.185,2.0,1.0,1.0,33.2,33.2,33.2,3.7,2.1,2.7325,0.33249781682162816,-0.036823573211231635,0.9231301487490994,-0.0018329579909042047,-0.164982,-28.666734
11.185,2.0,1.0,1.0,33.2,33.2,33.2,3.7,2.1,2.735,0.3223228716576475,-0.03763339604870246,0.9263109163518314,-0.0023069162364235114,-0.168502,-28.472243
11.185,2.0,1.0,1.0,33.2,33.2,33.2,3.7,2.1,2.7375,0.31201676804432477,-0.038465463873475034,0.9293980899577361,-0.0028062147141309653,-0.172155,-28.275527
11.185,2.0,1.0,1.0,33.2,33.2,33.2,3.7,2.1,2.74,0.301577732260009,-0.039320597738210505,0.932387999040127,-0.0033323228395274306,-0.175946,-28.076518
11.185,2.0,1.0,1.0,33.2,33.2,33.2,3.7,2.1,2.7425,0.29100396044962284,-0.040199656947258806,0.935276804528068,-0.0038868148916234063,-0.179885,-27.875142
11.185,2.0,1.0,1.0,33.2,33.2,33.2,3.7,2.1,2.745,0.2802936179230502,-0.04110354101609271,0.9380604879026828,-0.004471379194096032,-0.183979,-27.671323
11.185,2.0,1.0,1.0,33.2,33.2,33.2,3.7,2.1,2.7475,0.26944483845123735,-0.042033191704077655,0.9407348392920513,-0.005087828258457396,-0.188238,-27.464984
11.185,2.0,1.0,1.0,33.2,33.2,33.2,3.7,2.1,2.75,0.258455723570061,-0.0429895951136606,0.943295444446383,-0.00573811000676926,-0.192671,-27.25604
11.185,2.0,1.0,1.0,33.2,33.2,33.2,3.7,2.1,2.7525,0.24732434190538777,-0.04397378384580684,0.9457376704587296,-0.00642432020781719,-0.197288,-27.044405
11.185,2.0,1.0,1.0,33.2,33.2,33.2,3.7,2.1,2.755,0.2360487285370138,-0.044986839197366846,0.9480566500774168,-0.007148716279601742,-0.202102,-26.829987
11.185,2.0,1.0,1.0,33.2,33.2,33.2,3.7,2.1,2.7575,0.22462688442454107,-0.04602989338078496,0.9502472644343475,-0.007913732632949495,-0.207125,-26.61269
11.185,2.0,1.0,1.0,33.2,33.2,33.2,3.7,2.1,2.76,0.2130567759251027,-0.047104131739875564,0.9523041239876601,-0.008721997756515255,-0.21237,-26.392414
11.185,2.0,1.0,1.0,33.2,33.2,33.2,3.7,2.1,2.7625,0.20133633444139917,-0.048210794926934156,0.9542215474474419,-0.009576353273073256,-0.217852,-26.169054
11.185,2.0,1.0,1.0,33.2,33.2,33.2,3.7,2.1,2.765,0.1894634562493875,-0.04935118099574671,0.9559935384184052,-0.010479875231511485,-0.223587,-25.942496
11.185,2.0,1.0,1.0,33.2,33.2,33.2,3.7,2.1,2.7675,0.1774360025686475,-0.05052664735153457,0.9576137594528514,-0.011435897939252298,-0.229592,-25.712625
11.185,2.0,1.0,1.0,33.2,33.2,33.2,3.7,2.1,2.77,0.16525179995571534,-0.05173861248177027,0.9590755031597044,-0.012448040686978683,-0.235886,-25.479316
11.185,2.0,1.0,1.0,33.2,33.2,33.2,3.7,2.1,2.7725,0.15290864112252692,-0.05298855737017517,0.9603716599596724,-0.01352023777282716,-0.24249,-25.24244
11.185,2.0,1.0,1.0,33.2,33.2,33.2,3.7,2.1,2.775,0.1404042863097022,-0.05427802646884038,0.9614946820110845,-0.014656772298156241,-0.249427,-25.001858
11.185,2.0,1.0,1.0,33.2,33.2,33.2,3.7,2.1,2.7775,0.12773646537936095,-0.055608628068749194,0.9624365427538427,-0.015862314283427128,-0.256722,-24.757425
11.185,2.0,1.0,1.0,33.2,33.2,33.2,3.7,2.1,2.78,0.1149028808364545,-0.056982033865,0.9631886914279469,-0.01714196374289472,-0.264403,-24.508987
11.185,2.0,1.0,1.0,33.2,33.2,33.2,3.7,2.1,2.7825,0.10190121204393293,-0.058399977457158185,0.9637420018155054,-0.01850129946331424,-0.2725,-24.256382
11.185,2.0,1.0,1.0,33.2,33.2,33.2,3.7,2.1,2.785,0.08872912096861323,-0.059864251454055405,0.9640867143278072,-0.01994643435798807,-0.281047,-23.999436
11.185,2.0,1.0,1.0,33.2,33.2,33.2,3.7,2.1,2.7875,0.07538425988608065,-0.06137670276163509,0.9642123704079643,-0.021484078417022632,-0.290081,-23.737967
11.185,2.0,1.0,1.0,33.2,33.2,33.2,3.7,2.1,2.79,0.06186428158965512,-0.06293922551648555,0.9641077380401066,-0.02312161045232833,-0.299643,-23.47178
11.185,2.0,1.0,1.0,33.2,33.2,33.2,3.7,2.1,2.7925,0.048166852798253605,-0.06455375097904856,0.9637607269425242,-0.024867160047260126,-0.309781,-23.20067
11.185,2.0,1.0,1.0,33.2,33.2,33.2,3.7,2.1,2.795,0.03428967165032337,-0.066222233509461,0.9631582917675662,-0.02672970137259037,-0.320546,-22.924416
11.185,2.0,1.0,1.0,33.2,33.2,33.2,3.7,2.1,2.7975,0.020230490419190724,-0.06794663150272616,0.9622863213275221,-0.028719160830749182,-0.331995,-22.642786
11.185,2.0,1.0,1.0,33.2,33.2,33.2,3.7,2.1,2.8,0.005987144905870326,-0.06972888184149838,0.961129511503299,-0.030846540848564617,-0.344193,-22.355529
11.185,2.0,1.0,1.0,33.2,33.2,33.2,3.7,2.1,2.8025,-0.008442407618293795,-0.07157086601166687,0.9596712190600796,-0.03312406256632442,-0.357215,-22.062381
11.185,2.0,1.0,1.0,33.2,33.2,33.2,3.7,2.1,2.805,-0.02306003950481603,-0.07347436548813163,0.9578932930779046,-0.035565330681094895,-0.371141,-21.763057
11.185,2.0,1.0,1.0,33.2,33.2,33.2,3.7,2.1,2.8075,-0.03786738973450336,-0.07544100329549523,0.9557758800898664,-0.03818552430997646,-0.386067,-21.457256
11.185,2.0,1.0,1.0,33.2,33.2,33.2,3.7,2.1,2.81,-0.05286578278547158,-0.07747216772680841,0.9532971982891004,-0.041001618461288546,-0.402098,-21.144652
11.185,2.0,1.0,1.0,33.2,33.2,33.2,3.7,2.1,2.8125,-0.0680561240875456,-0.0795689129900552,0.950433275299531,-0.0440326415567402,-0.419357,-20.8249
11.185,2.0,1.0,1.0,33.2,33.2,33.2,3.7,2.1,2.815,-0.08343876517016323,-0.08173182994792974,0.9471576429857016,-0.04729997545359783,-0.437981,-20.497627
11.185,2.0,1.0,1.0,33.2,33.2,33.2,3.7,2.1,2.8175,-0.09901332946308893,-0.08396087798706971,0.9434409815880711,-0.050827705588304246,-0.458132,-20.162436
11.185,2.0,1.0,1.0,33.2,33.2,33.2,3.7,2.1,2.82,-0.11477848684595224,-0.08625516621463898,0.9392507041028543,-0.05464303021027873,-0.479994,-19.8189
11.185,2.0,1.0,1.0,33.2,33.2,33.2,3.7,2.1,2.8225,-0.1307316612095547,-0.08861266838127373,0.9345504702866554,-0.05877673918953005,-0.503781,-19.466561
11.185,2.0,1.0,1.0,33.2,33.2,33.2,3.7,2.1,2.825,-0.14686865013977912,-0.09102985082415388,0.9292996179924495,-0.06326377452701921,-0.529742,-19.104927
11.185,2.0,1.0,1.0,33.2,33.2,33.2,3.7,2.1,2.8275,-0.16318312888272818,-0.09350118583625308,0.9234524978266397,-0.06814388638052002,-0.558169,-18.733472
