1,w,sub_t,h,l1,l2,l3,g1,g2,Freq,S11_re,S21_re,S11_img,S21_img,S11_dB,S21_dB
11.185,2.0,1.0,1.0,33.6,34.1,34.1,4.3,1.8,2.5,0.837303565565805,-0.00759440041537193,0.535000194902094,0.00581138588496404,-0.055498,-40.3883
11.185,2.0,1.0,1.0,33.6,34.1,34.1,4.3,1.8,2.5025,0.8336451161158834,-0.007747827064461257,0.5405705875653778,0.005835470710251371,-0.056033,-40.264956
11.185,2.0,1.0,1.0,33.6,34.1,34.1,4.3,1.8,2.505,0.8299333038210299,-0.00790414481791503,0.5461386996195408,0.005858851521478811,-0.056579,-40.141173
11.185,2.0,1.0,1.0,33.6,34.1,34.1,4.3,1.8,2.5075,0.8261676034594878,-0.0080634199967013,0.5517042576002564,0.005881496358016355,-0.057134,-40.016938
11.185,2.0,1.0,1.0,33.6,34.1,34.1,4.3,1.8,2.51,0.8223474813343877,-0.008225720970816917,0.5572669799757594,0.005903371962197431,-0.0577,-39.892241
11.185,2.0,1.0,1.0,33.6,34.1,34.1,4.3,1.8,2.5125,0.8184723951188914,-0.008391118240323884,0.5628265768856627,0.00592444371888744,-0.058277,-39.767068
11.185,2.0,1.0,1.0,33.6,34.1,34.1,4.3,1.8,2.515,0.8145417936976044,-0.008559684520329855,0.5683827498707563,0.005944675591759668,-0.058865,-39.641407
11.185,2.0,1.0,1.0,33.6,34.1,34.1,4.3,1.8,2.5175,0.8105551170041111,-0.008731494830140492,0.5739351915933919,0.005964030056068722,-0.059464,-39.515246
11.185,2.0,1.0,1.0,33.6,34.1,34.1,4.3,1.8,2.52,0.8065117958544494,-0.008906626586827426,0.5794835855480867,0.005982468027696782,-0.060075,-39.388571
11.185,2.0,1.0,1.0,33.6,34.1,34.1,4.3,1.8,2.5225,0.8024112517763633,-0.009085159703472472,0.585027605761905,0.0059999487882307825,-0.060697,-39.261369
11.185,2.0,1.0,1.0,33.6,34.1,34.1,4.3,1.8,2.525,0.7982528968341225,-0.00926717669236522,0.5905669164842001,0.006016429905811098,-0.061332,-39.133626
11.185,2.0,1.0,1.0,33.6,34.1,34.1,4.3,1.8,2.5275,0.7940361334487094,-0.00945276277345139,0.5961011718652516,0.006031867151472218,-0.06198,-39.005329
11.185,2.0,1.0,1.0,33.6,34.1,34.1,4.3,1.8,2.53,0.7897603542131528,-0.009642005988349037,0.6016300156233019,0.006046214410675036,-0.06264,-38.876464
11.185,2.0,1.0,1.0,33.6,34.1,34.1,4.3,1.8,2.5325,0.7854249417027627,-0.00983499732027261,0.6071530806994848,0.006059423589707007,-0.063314,-38.747016
11.185,2.0,1.0,1.0,33.6,34.1,34.1,4.3,1.8,2.535,0.7810292682800105,-0.010031830820227359,0.6126699889001016,0.006071444516601435,-0.064001,-38.616971
11.185,2.0,1.0,1.0,33.6,34.1,34.1,4.3,1.8,2.5375,0.7765726958937796,-0.010232603739864031,0.6181803505256548,0.0060822248361997585,-0.064703,-38.486313
11.185,2.0,1.0,1.0,33.6,34.1,34.1,4.3,1.8,2.54,0.7720545758726844,-0.010437416671410168,0.6236837639860402,0.006091709898951053,-0.065419,-38.355026
11.185,2.0,1.0,1.0,33.6,34.1,34.1,4.3,1.8,2.5425,0.7674742487121318,-0.010646373695125654,0.6291798154012382,0.0060998426430103544,-0.066149,-38.223096
11.185,2.0,1.0,1.0,33.6,34.1,34.1,4.3,1.8,2.545,0.7628310438547805,-0.010859582534761419,0.6346680781868158,0.0061065634691622895,-0.066895,-38.090505
11.185,2.0,1.0,1.0,33.6,34.1,34.1,4.3,1.8,2.5475,0.758124279464023,-0.011077154721535691,0.6401481126234948,0.006111810108057709,-0.067657,-37.957238
11.185,2.0,1.0,1.0,33.6,34.1,34.1,4.3,1.8,2.55,0.753353262190071,-0.011299205767181918,0.6456194654100204,0.006115517479208941,-0.068436,-37.823276
11.185,2.0,1.0,1.0,33.6,34.1,34.1,4.3,1.8,2.5525,0.7485172869282203,-0.011525855346659817,0.6510816691984677,0.006117617541143292,-0.069231,-37.688604
11.185,2.0,1.0,1.0,33.6,34.1,34.1,4.3,1.8,2.555,0.7436156365688023,-0.011757227491170827,0.6565342421111162,0.00611803913206379,-0.070043,-37.553202
11.185,2.0,1.0,1.0,33.6,34.1,34.1,4.3,1.8,2.5575,0.7386475817383084,-0.011993450792162835,0.6619766872379318,0.006116707800311189,-0.070873,-37.417053
11.185,2.0,1.0,1.0,33.6,34.1,34.1,4.3,1.8,2.56,0.7336123805311268,-0.012234658617065153,0.6674084921136274,0.006113545623860611,-0.071721,-37.280137
11.185,2.0,1.0,1.0,33.6,34.1,34.1,4.3,1.8,2.5625,0.728509278231281,-0.0124809893375499,0.672829128173219,0.00610847101801977,-0.072588,-37.142436
11.185,2.0,1.0,1.0,33.6,34.1,34.1,4.3,1.8,2.565,0.7233375070235005,-0.012732586571179538,0.6782380501849038,0.006101398530422924,-0.073475,-37.003929
11.185,2.0,1.0,1.0,33.6,34.1,34.1,4.3,1.8,2.5675,0.7180962856929126,-0.012989599437365466,0.6836346956589895,0.006092238622334653,-0.074382,-36.864595
11.185,2.0,1.0,1.0,33.6,34.1,34.1,4.3,1.8,2.57,0.7127848193125635,-0.013252182828639436,0.6890184842315371,0.0060808974351891296,-0.07531,-36.724415
11.185,2.0,1.0,1.0,33.6,34.1,34.1,4.3,1.8,2.5725,0.7074022989179123,-0.013520497698316999,0.6943888170212474,0.006067276541193882,-0.07626,-36.583366
11.185,2.0,1.0,1.0,33.6,34.1,34.1,4.3,1.8,2.575,0.7019479011673747,-0.013794711365720205,0.6997450759580248,0.006051272676719755,-0.077231,-36.441426
11.185,2.0,1.0,1.0,33.6,34.1,34.1,4.3,1.8,2.5775,0.6964207879878932,-0.014074997840222519,0.705086623081518,0.006032777457080971,-0.078226,-36.298572
11.185,2.0,1.0,1.0,33.6,34.1,34.1,4.3,1.8,2.58,0.6908201062044363,-0.01436153816548251,0.7104127998078034,0.006011677071178664,-0.079244,-36.154781
11.185,2.0,1.0,1.0,33.6,34.1,34.1,4.3,1.8,2.5825,0.6851449871522065,-0.014654520785345952,0.7157229261622283,0.005987851954337329,-0.080287,-36.010027
11.185,2.0,1.0,1.0,33.6,34.1,34.1,4.3,1.8,2.585,0.679394546270246,-0.014954141933020677,0.7210162999762545,0.005961176437503881,-0.081356,-35.864287
11.185,2.0,1.0,1.0,33.6,34.1,34.1,4.3,1.8,2.5875,0.6735678826749898,-0.015260606045264441,0.7262921960459736,0.005931518370802411,-0.082451,-35.717534
11.185,2.0,1.0,1.0,33.6,34.1,34.1,4.3,1.8,2.59,0.6676640787121939,-0.015574126203473993,0.731549865249741,0.005898738719241687,-0.083573,-35.569741
11.185,2.0,1.0,1.0,33.6,34.1,34.1,4.3,1.8,2.5925,0.6616821994855009,-0.015894924603726792,0.7367885336221737,0.005862691128154737,-0.084724,-35.420882
11.185,2.0,1.0,1.0,33.6,34.1,34.1,4.3,1.8,2.595,0.6556212923597651,-0.016223233058005476,0.7420074013814796,0.005823221455707638,-0.085904,-35.270927
11.185,2.0,1.0,1.0,33.6,34.1,34.1,4.3,1.8,2.5975,0.6494803864370434,-0.016559293529032206,0.7472056419068369,0.005780167269545495,-0.087114,-35.119847
11.185,2.0,1.0,1.0,33.6,34.1,34.1,4.3,1.8,2.6,0.6432584920029885,-0.016903358701352202,0.7523824006622141,0.005733357304343174,-0.088356,-34.967612
11.185,2.0,1.0,1.0,33.6,34.1,34.1,4.3,1.8,2.6025,0.6369545999411476,-0.017255692591547234,0.7575367940626732,0.00568261087669346,-0.089631,-34.81419
11.185,2.0,1.0,1.0,33.6,34.1,34.1,4.3,1.8,2.605,0.6305676811124169,-0.017616571200715817,0.7626679082788403,0.00562773725339098,-0.09094,-34.659548
11.185,2.0,1.0,1.0,33.6,34.1,34.1,4.3,1.8,2.6075,0.6240966856966411,-0.017986283212645917,0.767774797974771,0.005568534968751762,-0.092285,-34.503654
11.185,2.0,1.0,1.0,33.6,34.1,34.1,4.3,1.8,2.61,0.6175405424930485,-0.018365130741421647,0.772856484973971,0.005504791086139219,-0.093666,-34.346472
11.185,2.0,1.0,1.0,33.6,34.1,34.1,4.3,1.8,2.6125,0.6108981581758667,-0.018753430132552883,0.7779119568478057,0.005436280398341708,-0.095086,-34.187967
11.185,2.0,1.0,1.0,33.6,34.1,34.1,4.3,1.8,2.615,0.6041684165011052,-0.01915151282210367,0.7829401654199128,0.005362764560855723,-0.096546,-34.028099
11.185,2.0,1.0,1.0,33.6,34.1,34.1,4.3,1.8,2.6175,0.5973501774600855,-0.01955972625871662,0.7879400251795657,0.005283991151465136,-0.098047,-33.866832
11.185,2.0,1.0,1.0,33.6,34.1,34.1,4.3,1.8,2.62,0.5904422763748322,-0.019978434893903465,0.792910411596174,0.005199692648758168,-0.099592,-33.704124
11.185,2.0,1.0,1.0,33.6,34.1,34.1,4.3,1.8,2.6225,0.5834435229299412,-0.020408021246491003,0.7978501593262544,0.005109585321379935,-0.101182,-33.539933
11.185,2.0,1.0,1.0,33.6,34.1,34.1,4.3,1.8,2.625,0.576352700134993,-0.0208488870476853,0.802758060303218,0.0050133680188655,-0.10282,-33.374216
11.185,2.0,1.0,1.0,33.6,34.1,34.1,4.3,1.8,2.6275,0.5691685632109242,-0.021301454473858776,0.8076328616992612,0.004910720853818967,-0.104507,-33.206928
11.185,2.0,1.0,1.0,33.6,34.1,34.1,4.3,1.8,2.63,0.5618898383931088,-0.021766167474870344,0.8124732637473702,0.004801303763982563,-0.106245,-33.038022
11.185,2.0,1.0,1.0,33.6,34.1,34.1,4.3,1.8,2.6325,0.5545152216431082,-0.02224349320651317,0.8172779174100702,0.00468475494135202,-0.108037,-32.867448
11.185,2.0,1.0,1.0,33.6,34.1,34.1,4.3,1.8,2.635,0.547043377260195,-0.0227339235765632,0.8220454218799393,0.004560689113917102,-0.109886,-32.695156
11.185,2.0,1.0,1.0,33.6,34.1,34.1,4.3,1.8,2.6375,0.5394729363827989,-0.023237976914865753,0.8267743218950898,0.004428695663810432,-0.111795,-32.521092
11.185,2.0,1.0,1.0,33.6,34.1,34.1,4.3,1.8,2.64,0.5318024953689283,-0.023756199778983227,0.8314631048507543,0.004288336563597894,-0.113765,-32.345201
11.185,2.0,1.0,1.0,33.6,34.1,34.1,4.3,1.8,2.6425,0.5240306140434651,-0.024289168908126785,0.8361101976857291,0.0041391441101023595,-0.1158,-32.167425
11.185,2.0,1.0,1.0,33.6,34.1,34.1,4.3,1.8,2.645,0.5161558137988497,-0.02483749333943607,0.8407139635197227,0.003980618432470875,-0.117904,-31.987703
11.185,2.0,1.0,1.0,33.6,34.1,34.1,4.3,1.8,2.6475,0.5081765755342187,-0.025401816702167363,0.8452726980145393,0.003812224748119183,-0.12008,-31.805973
11.185,2.0,1.0,1.0,33.6,34.1,34.1,4.3,1.8,2.65,0.5000913374163433,-0.02598281970701327,0.849784625428464,0.0036333903366522766,-0.122331,-31.622169
11.185,2.0,1.0,1.0,33.6,34.1,34.1,4.3,1.8,2.6525,0.491898492443908,-0.02658122284964258,0.8542478943290603,0.003443501197788327,-0.124662,-31.436221
11.185,2.0,1.0,1.0,33.6,34.1,34.1,4.3,1.8,2.655,0.4835963857945114,-0.027197789349622022,0.8586605729248876,0.003241898354614298,-0.127077,-31.248058
11.185,2.0,1.0,1.0,33.6,34.1,34.1,4.3,1.8,2.6575,0.475183311931485,-0.027833328348205694,0.8630206439710981,0.003027873758068771,-0.12958,-31.057603
11.185,2.0,1.0,1.0,33.6,34.1,34.1,4.3,1.8,2.66,0.4666575114449794,-0.02848869839106487,0.867325999197534,0.0028006657422507157,-0.132177,-30.864777
11.185,2.0,1.0,1.0,33.6,34.1,34.1,4.3,1.8,2.6625,0.4580171675988571,-0.029164811224927447,0.871574433200522,0.0025594539728398453,-0.134873,-30.669497
11.185,2.0,1.0,1.0,33.6,34.1,34.1,4.3,1.8,2.665,0.4492604025516245,-0.029862635940330486,0.8757636367309621,0.0023033538223998823,-0.137673,-30.471676
11.185,2.0,1.0,1.0,33.6,34.1,34.1,4.3,1.8,2.6675,0.4403852732160138,-0.030583203496290567,0.8798911893012268,0.0020314100964036403,-0.140584,-30.271222
11.185,2.0,1.0,1.0,33.6,34.1,34.1,4.3,1.8,2.67,0.43138976671769325,-0.031327611666728164,0.8839545510216471,0.0017425900221980188,-0.143612,-30.068037
11.185,2.0,1.0,1.0,33.6,34.1,34.1,4.3,1.8,2.6725,0.42227179540902465,-0.03209703045295949,0.8879510535635479,0.0014357753995038968,-0.146766,-29.862021
11.185,2.0,1.0,1.0,33.6,34.1,34.1,4.3,1.8,2.675,0.4130291913887161,-0.03289270801155959,0.891877890129571,0.001109753795029633,-0.150052,-29.653067
11.185,2.0,1.0,1.0,33.6,34.1,34.1,4.3,1.8,2.6775,0.4036597004725197,-0.03371597715243493,0.8957321042929146,0.0007632086448998648,-0.15348,-29.44106
11.185,2.0,1.0,1.0,33.6,34.1,34.1,4.3,1.8,2.68,0.3941609755538689,-0.034568262468071896,0.8995105775445025,0.00039470810629177645,-0.157058,-29.225883
11.185,2.0,1.0,1.0,33.6,34.1,34.1,4.3,1.8,2.6825,0.38453056928640433,-0.03545108816168457,0.9032100153603013,2.6924732317333082e-06,-0.160797,-29.007409
11.185,2.0,1.0,1.0,33.6,34.1,34.1,4.3,1.8,2.685,0.37476592601269754,-0.03636608664939978,0.906826931569171,-0.00041454005991967195,-0.164709,-28.785504
11.185,2.0,1.0,1.0,33.6,34.1,34.1,4.3,1.8,2.6875,0.364864372855152,-0.0373150080196975,0.910357630763637,-0.000858849541224846,-0.168804,-28.560029
11.185,2.0,1.0,1.0,33.6,34.1,34.1,4.3,1.8,2.69,0.35482310987603916,-0.038299730442051316,0.9137981884505807,-0.0013322726088878943,-0.173098,-28.330834
11.185,2.0,1.0,1.0,33.6,34.1,34.1,4.3,1.8,2.6925,0.34463919920392033,-0.039322271626034494,0.9171444285843657,-0.0018370433963770152,-0.177604,-28.09776
11.185,2.0,1.0,1.0,33.6,34.1,34.1,4.3,1.8,2.695,0.33430955301357096,-0.0403848014419206,0.9203918980593446,-0.0023756174120331264,-0.182339,-27.860639
11.185,2.0,1.0,1.0,33.6,34.1,34.1,4.3,1.8,2.6975,0.32383092023596033,-0.04148965582382172,0.923535837659543,-0.002950698888294737,-0.18732,-27.619293
11.185,2.0,1.0,1.0,33.6,34.1,34.1,4.3,1.8,2.7,0.3131998718644659,-0.04263935208627073,0.9265711488673757,-0.003565272190213473,-0.192568,-27.37353
11.185,2.0,1.0,1.0,33.6,34.1,34.1,4.3,1.8,2.7025,0.3024127847136371,-0.04383660579430541,0.9294923558166409,-0.0042226379878781885,-0.198104,-27.12315
11.185,2.0,1.0,1.0,33.6,34.1,34.1,4.3,1.8,2.705,0.2914658234785309,-0.04508434933467782,0.9322935615326767,-0.004926455037611327,-0.203954,-26.867935
11.185,2.0,1.0,1.0,33.6,34.1,34.1,4.3,1.8,2.7075,0.2803549209370908,-0.046385752340453466,0.9349683974282565,-0.00568078858855738,-0.210143,-26.607654
11.185,2.0,1.0,1.0,33.6,34.1,34.1,4.3,1.8,2.71,0.2690757561372637,-0.047744244121060014,0.9375099648094032,-0.006490166642436666,-0.216703,-26.34206
11.185,2.0,1.0,1.0,33.6,34.1,34.1,4.3,1.8,2.7125,0.25762373041730496,-0.049163538241935596,0.9399107668807103,-0.007359645554849163,-0.223668,-26.07089
11.185,2.0,1.0,1.0,33.6,34.1,34.1,4.3,1.8,2.715,0.24599394112625375,-0.05064765937813786,0.9421626294117692,-0.008294886789451849,-0.231076,-25.793858
11.185,2.0,1.0,1.0,33.6,34.1,34.1,4.3,1.8,2.7175,0.23418115294784703,-0.052200972528591225,0.9442566078181556,-0.009302247038168607,-0.238971,-25.51066
11.185,2.0,1.0,1.0,33.6,34.1,34.1,4.3,1.8,2.72,0.22217976679405851,-0.053828214613256,0.9461828779003284,-0.010388884422683922,-0.247402,-25.220969
11.185,2.0,1.0,1.0,33.6,34.1,34.1,4.3,1.8,2.7225,0.2099837863367449,-0.05553452837164946,0.9479306068435949,-0.01156288412252119,-0.256423,-24.924431
11.185,2.0,1.0,1.0,33.6,34.1,34.1,4.3,1.8,2.725,0.19758678240634908,-0.057325498319273714,0.9494878002752828,-0.012833407569029679,-0.2661,-24.620665
11.185,2.0,1.0,1.0,33.6,34.1,34.1,4.3,1.8,2.7275,0.18498185573229944,-0.05920718827152879,0.9508411201536262,-0.01421087034963398,-0.276504,-24.309259
11.185,2.0,1.0,1.0,33.6,34.1,34.1,4.3,1.8,2.73,0.17216159887082086,-0.06118617957300653,0.9519756669638052,-0.015707155244299623,-0.287718,-23.989767
11.185,2.0,1.0,1.0,33.6,34.1,34.1,4.3,1.8,2.7325,0.15911805872067697,-0.06326960861554953,0.9528747180377437,-0.017335868447237567,-0.29984,-23.661706
11.185,2.0,1.0,1.0,33.6,34.1,34.1,4.3,1.8,2.735,0.14584270185271736,-0.0654652014053121,0.9535194116871374,-0.019112649117813085,-0.312979,-23.32455
11.185,2.0,1.0,1.0,33.6,34.1,34.1,4.3,1.8,2.7375,0.13232638610322384,-0.0677813017201278,0.9538883641007676,-0.02105554509568445,-0.327267,-22.977728
11.185,2.0,1.0,1.0,33.6,34.1,34.1,4.3,1.8,2.74,0.11855934369573357,-0.07022688759408646,0.9539572024189565,-0.0231854710910344,-0.342854,-22.620618
11.185,2.0,1.0,1.0,33.6,34.1,34.1,4.3,1.8,2.7425,0.10453118384886961,-0.07281156819179377,0.9536979928123087,-0.02552677016404195,-0.35992,-22.252539
11.185,2.0,1.0,1.0,33.6,34.1,34.1,4.3,1.8,2.745,0.09023092683367605,-0.07554554916047361,0.9530785364345185,-0.028107905155522056,-0.378674,-21.872748
11.185,2.0,1.0,1.0,33.6,34.1,34.1,4.3,1.8,2.7475,0.07564708742467052,-0.0784395486201389,0.9520614983704663,-0.030962314332950634,-0.399368,-21.480432
11.185,2.0,1.0,1.0,33.6,34.1,34.1,4.3,1.8,2.75,0.0607678346585709,-0.0815046370690028,0.950603324627638,-0.0341294753933899,-0.422302,-21.074698
11.185,2.0,1.0,1.0,33.6,34.1,34.1,4.3,1.8,2.7525,0.045581268339278266,-0.08475196109776421,0.9486528891637727,-0.037656234756801944,-0.447839,-20.654568
11.185,2.0,1.0,1.0,33.6,34.1,34.1,4.3,1.8,2.755,0.030075873242225958,-0.08819229052045345,0.9461497961433804,-0.041598475529848564,-0.476416,-20.218965
11.185,2.0,1.0,1.0,33.6,34.1,34.1,4.3,1.8,2.7575,0.014241243288179184,-0.09183529758243403,0.9430222412868745,-0.04602321837459761,-0.508571,-19.76671
11.185,2.0,1.0,1.0,33.6,34.1,34.1,4.3,1.8,2.76,-0.0019307839174662644,-0.09568842937958807,0.9391843097581702,-0.051011275301365754,-0.544965,-19.296508
11.185,2.0,1.0,1.0,33.6,34.1,34.1,4.3,1.8,2.7625,-0.018444367341598756,-0.09975516115411265,0.934532556778213,-0.05666060682937307,-0.58642,-18.806941
11.185,2.0,1.0,1.0,33.6,34.1,34.1,4.3,1.8,2.765,-0.03529694689183621,-0.10403230387371047,0.9289416834289654,-0.06309056560974874,-0.633965,-18.296462
11.185,2.0,1.0,1.0,33.6,34.1,34.1,4.3,1.8,2.7675,-0.052475060051107504,-0.10850586093912724,0.9222590912855622,-0.07044723711731127,-0.688904,-17.763396
11.185,2.0,1.0,1.0,33.6,34.1,34.1,4.3,1.8,2.77,-0.06994789486177433,-0.11314464906151597,0.9142980939920797,-0.07891009207796729,-0.752899,-17.205951
11.185,2.0,1.0,1.0,33.6,34.1,34.1,4.3,1.8,2.7725,-0.0876573383839141,-0.11789046040996976,0.9048296238107527,-0.0887001041311312,-0.828095,-16.62224
11.185,2.0,1.0,1.0,33.6,34.1,34.1,4.3,1.8,2.775,-0.10550258815668041,-0.12264286304405986,0.8935724885348348,-0.10008926879695358,-0.917281,-16.010339
11.185,2.0,1.0,1.0,33.6,34.1,34.1,4.3,1.8,2.7775,-0.12331634025393137,-0.12723570140643248,0.8801828038704111,-0.11341089360303494,-1.024121,-15.368396
11.185,2.0,1.0,1.0,33.6,34.1,34.1,4.3,1.8,2.78,-0.14082802903641414,-0.13140084984635308,0.8642445506185521,-0.1290687175556212,-1.153455,-14.694812
11.185,2.0,1.0,1.0,33.6,34.1,34.1,4.3,1.8,2.7825,-0.15760755201778667,-0.1347127753120814,0.8452660880304623,-0.1475400697668255,-1.311705,-13.988573
11.185,2.0,1.0,1.0,33.6,34.1,34.1,4.3,1.8,2.785,-0.17298081551399777,-0.1365054282484413,0.8226934166967981,-0.1693623950243254,-1.507361,-13.249796
11.185,2.0,1.0,1.0,33.6,34.1,34.1,4.3,1.8,2.7875,-0.18590821540634886,-0.13575281923848118,0.7959626261052806,-0.19508100726601016,-1.751466,-12.480636
11.185,2.0,1.0,1.0,33.6,34.1,34.1,4.3,1.8,2.79,-0.1948247475630282,-0.1309122052244948,0.7646347102709717,-0.22511553416511465,-2.057749,-11.686742
11.185,2.0,1.0,1.0,33.6,34.1,34.1,4.3,1.8,2.7925,-0.19747075599020267,-0.11975881298400053,0.728686567339284,-0.25947249387352883,-2.441413,-10.879473
11.185,2.0,1.0,1.0,33.6,34.1,34.1,4.3,1.8,2.795,-0.190824925520538,-0.09932249576950898,0.6890564186539834,-0.297207795630731,-2.913982,-10.078999
11.185,2.0,1.0,1.0,33.6,34.1,34.1,4.3,1.8,2.7975,-0.17141811011247032,-0.06620092414925567,0.6484895972419426,-0.3355952615118167,-3.468619,-9.317891
11.185,2.0,1.0,1.0,33.6,34.1,34.1,4.3,1.8,2.8,-0.13650007048689525,-0.01771301477059042,0.6124312657951738,-0.3692530679398944,-4.048298,-8.643536
11.185,2.0,1.0,1.0,33.6,34.1,34.1,4.3,1.8,2.8025,-0.08636462581059823,0.04581111735259953,0.5890189180086595,-0.39016241031560694,-4.505037,-8.115627
11.185,2.0,1.0,1.0,33.6,34.1,34.1,4.3,1.8,2.805,-0.026883277012843952,0.11854644897840698,0.586692957300334,-0.3900330714014053,-4.622673,-7.794237
11.185,2.0,1.0,1.0,33.6,34.1,34.1,4.3,1.8,2.8075,0.030623505844153142,0.18932304360503807,0.6094076707089237,-0.3650193727739935,-4.290889,-7.719017
11.185,2.0,1.0,1.0,33.6,34.1,34.1,4.3,1.8,2.81,0.07412988222342397,0.24631479283487603,0.6531445642589696,-0.3191310776588196,-3.644227,-7.891049
11.185,2.0,1.0,1.0,33.6,34.1,34.1,4.3,1.8,2.8125,0.0969318768512688,0.282965965552337,0.707869898355554,-0.262276240795968,-2.92025,-8.272262
11.185,2.0,1.0,1.0,33.6,34.1,34.1,4.3,1.8,2.815,0.09944481188998294,0.29973403574603374,0.7631879421192346,-0.20468476968745947,-2.274252,-8.802944
11.185,2.0,1.0,1.0,33.6,34.1,34.1,4.3,1.8,2.8175,0.08643801166050882,0.3013468507387816,0.8123382901394918,-0.15298498217715814,-1.756366,-9.422794
11.185,2.0,1.0,1.0,33.6,34.1,34.1,4.3,1.8,2.82,0.06350723988656742,0.2933263799888077,0.8526199732160383,-0.10980299518742379,-1.360862,-10.08344
11.185,2.0,1.0,1.0,33.6,34.1,34.1,4.3,1.8,2.8225,0.03516236027300384,0.2801121760351498,0.8839723213758969,-0.07516964636255977,-1.06436,-10.751353
11.185,2.0,1.0,1.0,33.6,34.1,34.1,4.3,1.8,2.825,0.00442405500153983,0.26467122586762937,0.9075218239533461,-0.04795359539904011,-0.842755,-11.40559
11.185,2.0,1.0,1.0,33.6,34.1,34.1,4.3,1.8,2.8275,-0.026905225436612216,0.24876908956062432,0.9246956411458913,-0.02673308137053488,-0.676349,-12.034207
11.185,2.0,1.0,1.0,33.6,34.1,34.1,4.3,1.8,2.83,-0.057844734396907,0.23336237184375724,0.9368195900124807,-0.0101899257016954,-0.550355,-12.631111
