1,w,sub_t,h,l1,l2,l3,g1,g2,Freq,S11_re,S21_re,S11_img,S21_img,S11_dB,S21_dB
11.185,2.0,1.0,1.0,34.1,34.4,34.4,2.7,3.6,2.5,0.7645981904876,-0.0106804159259144,0.632314622969305,0.00593681853651737,-0.068142,-38.258905
11.185,2.0,1.0,1.0,34.1,34.4,34.4,2.7,3.6,2.5025,0.7597817088189681,-0.010885849950354838,0.6379612281736188,0.005934160987553638,-0.068889,-38.132809
11.185,2.0,1.0,1.0,34.1,34.4,34.4,2.7,3.6,2.505,0.7548980825029759,-0.011095089594293958,0.6435984741071663,0.0059297567295398396,-0.069651,-38.006205
11.185,2.0,1.0,1.0,34.1,34.4,34.4,2.7,3.6,2.5075,0.7499465921166988,-0.01130821818220334,0.649225855389973,0.005923535921022432,-0.070428,-37.879081
11.185,2.0,1.0,1.0,34.1,34.4,34.4,2.7,3.6,2.51,0.7449265072157241,-0.011525321341901902,0.654842851264686,0.00591542592538786,-0.07122,-37.751426
11.185,2.0,1.0,1.0,34.1,34.4,34.4,2.7,3.6,2.5125,0.7398370861752316,-0.011746487082021159,0.6604489250931754,0.005905351184277708,-0.072028,-37.623227
11.185,2.0,1.0,1.0,34.1,34.4,34.4,2.7,3.6,2.515,0.7346775760296018,-0.01197180587257219,0.6660435238353055,0.005893233084431331,-0.072852,-37.494475
11.185,2.0,1.0,1.0,34.1,34.4,34.4,2.7,3.6,2.5175,0.7294472123105975,-0.012201370728757826,0.6716260775091234,0.00587898981756413,-0.073693,-37.365155
11.185,2.0,1.0,1.0,34.1,34.4,34.4,2.7,3.6,2.52,0.7241452188841245,-0.012435277298183797,0.6771959986317156,0.005862536232862634,-0.07455,-37.235257
11.185,2.0,1.0,1.0,34.1,34.4,34.4,2.7,3.6,2.5225,0.7187708077856267,-0.012673623951627126,0.6827526816398888,0.005843783681649594,-0.075425,-37.104767
11.185,2.0,1.0,1.0,34.1,34.4,34.4,2.7,3.6,2.525,0.7133231790541302,-0.012916511877531092,0.6882955022898475,0.005822639853740602,-0.076318,-36.973673
11.185,2.0,1.0,1.0,34.1,34.4,34.4,2.7,3.6,2.5275,0.7078015205649741,-0.01316404518040497,0.6938238170349574,0.005799008604981572,-0.077229,-36.841963
11.185,2.0,1.0,1.0,34.1,34.4,34.4,2.7,3.6,2.53,0.7022050078612733,-0.01341633098331318,0.6993369623806418,0.00577278977541788,-0.07816,-36.709622
11.185,2.0,1.0,1.0,34.1,34.4,34.4,2.7,3.6,2.5325,0.6965328039841434,-0.013673479534653676,0.7048342542154177,0.005743878997511733,-0.079109,-36.576638
11.185,2.0,1.0,1.0,34.1,34.4,34.4,2.7,3.6,2.535,0.6907840593017301,-0.01393560431942942,0.710314987117021,0.005712167493776736,-0.080079,-36.442997
11.185,2.0,1.0,1.0,34.1,34.4,34.4,2.7,3.6,2.5375,0.6849579113370936,-0.014202822175233696,0.7157784336325004,0.00567754186315904,-0.08107,-36.308683
11.185,2.0,1.0,1.0,34.1,34.4,34.4,2.7,3.6,2.54,0.6790534845949827,-0.014475253413178934,0.7212238435311061,0.005639883855440616,-0.082082,-36.173684
11.185,2.0,1.0,1.0,34.1,34.4,34.4,2.7,3.6,2.5425,0.6730698903875532,-0.014753021944009303,0.7266504430287425,0.005599070132890857,-0.083115,-36.037985
11.185,2.0,1.0,1.0,34.1,34.4,34.4,2.7,3.6,2.545,0.6670062266590742,-0.01503625540965535,0.7320574339826555,0.005554972018333082,-0.084172,-35.90157
11.185,2.0,1.0,1.0,34.1,34.4,34.4,2.7,3.6,2.5475,0.6608615778096868,-0.015325085320496841,0.7374439930549701,0.005507455228732036,-0.085251,-35.764424
11.185,2.0,1.0,1.0,34.1,34.4,34.4,2.7,3.6,2.55,0.6546350145182462,-0.015619647198619108,0.7428092708436139,0.005456379593339339,-0.086354,-35.626531
11.185,2.0,1.0,1.0,34.1,34.4,34.4,2.7,3.6,2.5525,0.6483255935643297,-0.015920080727359634,0.7481523909790377,0.005401598755362598,-0.087482,-35.487875
11.185,2.0,1.0,1.0,34.1,34.4,34.4,2.7,3.6,2.555,0.6419323576494502,-0.01622652990746055,0.753472449185107,0.005342959856043516,-0.088635,-35.34844
11.185,2.0,1.0,1.0,34.1,34.4,34.4,2.7,3.6,2.5575,0.6354543352175366,-0.01653914322015765,0.7587685123023749,0.005280303199943798,-0.089814,-35.208209
11.185,2.0,1.0,1.0,34.1,34.4,34.4,2.7,3.6,2.56,0.6288905402747509,-0.016858073797554284,0.7640396172718752,0.005213461900145516,-0.091021,-35.067165
11.185,2.0,1.0,1.0,34.1,34.4,34.4,2.7,3.6,2.5625,0.6222399722087033,-0.017183479600647686,0.7692847700774406,0.005142261501968565,-0.092255,-34.925289
11.185,2.0,1.0,1.0,34.1,34.4,34.4,2.7,3.6,2.565,0.6155016156071224,-0.017515523605394132,0.7745029446444145,0.005066519583698753,-0.093517,-34.782564
11.185,2.0,1.0,1.0,34.1,34.4,34.4,2.7,3.6,2.5675,0.6086744400760647,-0.017854373997218412,0.7796930816925,0.004986045332697595,-0.094809,-34.638972
11.185,2.0,1.0,1.0,34.1,34.4,34.4,2.7,3.6,2.57,0.6017574000577196,-0.01820020437439732,0.7848540875403169,0.004900639095134165,-0.096132,-34.494492
11.185,2.0,1.0,1.0,34.1,34.4,34.4,2.7,3.6,2.5725,0.5947494346478894,-0.018553193960764353,0.7899848328590948,0.004810091897434865,-0.097487,-34.349105
11.185,2.0,1.0,1.0,34.1,34.4,34.4,2.7,3.6,2.575,0.587649467413214,-0.018913527828209244,0.7950841513727285,0.004714184937389208,-0.098874,-34.202792
11.185,2.0,1.0,1.0,34.1,34.4,34.4,2.7,3.6,2.5775,0.5804564062082246,-0.01928139712946941,0.8001508385012459,0.00461268904267939,-0.100294,-34.055531
11.185,2.0,1.0,1.0,34.1,34.4,34.4,2.7,3.6,2.58,0.5731691429923048,-0.019656999341729996,0.8051836499445079,0.004505364094412117,-0.10175,-33.907302
11.185,2.0,1.0,1.0,34.1,34.4,34.4,2.7,3.6,2.5825,0.5657865536466379,-0.02004053852158282,0.8101813002027469,0.004391958413026119,-0.103241,-33.758082
11.185,2.0,1.0,1.0,34.1,34.4,34.4,2.7,3.6,2.585,0.5583074977912339,-0.02043222557191131,0.8151424610302863,0.004272208103722148,-0.10477,-33.607849
11.185,2.0,1.0,1.0,34.1,34.4,34.4,2.7,3.6,2.5875,0.5507308186021251,-0.020832278521302133,0.8200657598185127,0.00414583635831752,-0.106337,-33.456581
11.185,2.0,1.0,1.0,34.1,34.4,34.4,2.7,3.6,2.59,0.5430553426288325,-0.02124092281660513,0.8249497779038685,0.004012552710152816,-0.107944,-33.304252
11.185,2.0,1.0,1.0,34.1,34.4,34.4,2.7,3.6,2.5925,0.5352798796121964,-0.02165839162929468,0.8297930487963151,0.0038720522383818325,-0.109593,-33.15084
11.185,2.0,1.0,1.0,34.1,34.4,34.4,2.7,3.6,2.595,0.5274032223027069,-0.022084926176307387,0.8345940563233332,0.00372401471764873,-0.111284,-32.996319
11.185,2.0,1.0,1.0,34.1,34.4,34.4,2.7,3.6,2.5975,0.5194241462794256,-0.022520776056062498,0.8393512326841636,0.003568103708793047,-0.11302,-32.840662
11.185,2.0,1.0,1.0,34.1,34.4,34.4,2.7,3.6,2.6,0.511341409769656,-0.022966199600391382,0.8440629564085409,0.003403965585828808,-0.114801,-32.683844
11.185,2.0,1.0,1.0,34.1,34.4,34.4,2.7,3.6,2.6025,0.5031537534695097,-0.023421464243130043,0.8487275502136797,0.0032312284940028296,-0.116631,-32.525837
11.185,2.0,1.0,1.0,34.1,34.4,34.4,2.7,3.6,2.605,0.4948599003655234,-0.023886846906149315,0.8533432787527965,0.003049501233256077,-0.11851,-32.366612
11.185,2.0,1.0,1.0,34.1,34.4,34.4,2.7,3.6,2.6075,0.4864585555575315,-0.02436263440361628,0.8579083462478281,0.002858372060875461,-0.12044,-32.20614
11.185,2.0,1.0,1.0,34.1,34.4,34.4,2.7,3.6,2.61,0.4779484060830063,-0.024849123865294913,0.8624208939983886,0.0026574074065348497,-0.122424,-32.044392
11.185,2.0,1.0,1.0,34.1,34.4,34.4,2.7,3.6,2.6125,0.46932812074312463,-0.025346623179709055,0.8668789977583197,0.0024461504922668065,-0.124463,-31.881336
11.185,2.0,1.0,1.0,34.1,34.4,34.4,2.7,3.6,2.615,0.4605963499308405,-0.02585545145798868,0.8712806649703859,0.0022241198491854395,-0.12656,-31.716939
11.185,2.0,1.0,1.0,34.1,34.4,34.4,2.7,3.6,2.6175,0.4517517254613324,-0.02637593951922338,0.8756238318488335,0.001990807721973426,-0.128717,-31.55117
11.185,2.0,1.0,1.0,34.1,34.4,34.4,2.7,3.6,2.62,0.44279286040522053,-0.026908430398130578,0.8799063602985564,0.0017456783512560354,-0.130936,-31.383993
11.185,2.0,1.0,1.0,34.1,34.4,34.4,2.7,3.6,2.6225,0.43371834892503675,-0.02745327987582169,0.8841260346585946,0.001488166122990495,-0.133221,-31.215373
11.185,2.0,1.0,1.0,34.1,34.4,34.4,2.7,3.6,2.625,0.424526766115552,-0.0280108570344104,0.888280558256465,0.00121767357289643,-0.135573,-31.045273
11.185,2.0,1.0,1.0,34.1,34.4,34.4,2.7,3.6,2.6275,0.4152166678486203,-0.02858154483614669,0.8923675497585801,0.0009335692327214523,-0.137996,-30.873655
11.185,2.0,1.0,1.0,34.1,34.4,34.4,2.7,3.6,2.63,0.4057865906234059,-0.029165740727681366,0.8963845393005173,0.0006351853037638611,-0.140493,-30.70048
11.185,2.0,1.0,1.0,34.1,34.4,34.4,2.7,3.6,2.6325,0.3962350514229717,-0.029763857269954803,0.9003289643793078,0.00032181514154314427,-0.143066,-30.525708
11.185,2.0,1.0,1.0,34.1,34.4,34.4,2.7,3.6,2.635,0.38656054757845115,-0.030376322794062695,0.9041981654880956,-7.2894662057207915e-06,-0.14572,-30.349296
11.185,2.0,1.0,1.0,34.1,34.4,34.4,2.7,3.6,2.6375,0.37676155664225697,-0.03100358208326601,0.9079893814715095,-0.00035292124795374745,-0.148458,-30.1712
11.185,2.0,1.0,1.0,34.1,34.4,34.4,2.7,3.6,2.64,0.36683653627206797,-0.031646097081080564,0.9116997445778305,-0.0007159206451063124,-0.151283,-29.991375
11.185,2.0,1.0,1.0,34.1,34.4,34.4,2.7,3.6,2.6425,0.3567839241277269,-0.032304347625086056,0.9153262751815068,-0.0010971792813359565,-0.154201,-29.809774
11.185,2.0,1.0,1.0,34.1,34.4,34.4,2.7,3.6,2.645,0.346602137783599,-0.032978832205728635,0.9188658761467315,-0.001497643731530658,-0.157214,-29.626347
11.185,2.0,1.0,1.0,34.1,34.4,34.4,2.7,3.6,2.6475,0.33628957465948256,-0.033670068748932164,0.922315326799603,-0.001918319620411008,-0.160328,-29.441045
11.185,2.0,1.0,1.0,34.1,34.4,34.4,2.7,3.6,2.65,0.325844611973779,-0.03437859542077469,0.9256712764728128,-0.0023602760843045743,-0.163548,-29.253815
11.185,2.0,1.0,1.0,34.1,34.4,34.4,2.7,3.6,2.6525,0.31526560672346493,-0.03510497145178581,0.9289302375827455,-0.002824650633433042,-0.166878,-29.064601
11.185,2.0,1.0,1.0,34.1,34.4,34.4,2.7,3.6,2.655,0.3045508956962507,-0.035849777977578746,0.9320885781943276,-0.0033126544564414263,-0.170325,-28.873346
11.185,2.0,1.0,1.0,34.1,34.4,34.4,2.7,3.6,2.6575,0.29369879552153083,-0.036613618891483866,0.9351425140238016,-0.003825578213837799,-0.173894,-28.679991
11.185,2.0,1.0,1.0,34.1,34.4,34.4,2.7,3.6,2.66,0.2827076027680225,-0.03739712170358025,0.9380880998237703,-0.004364798372613978,-0.177591,-28.484475
11.185,2.0,1.0,1.0,34.1,34.4,34.4,2.7,3.6,2.6625,0.2715755940976987,-0.03820093839897256,0.9409212200882492,-0.004931784140659272,-0.181424,-28.286732
11.185,2.0,1.0,1.0,34.1,34.4,34.4,2.7,3.6,2.665,0.26030102648753717,-0.03902574628627228,0.9436375790079646,-0.005528105066794137,-0.1854,-28.086695
11.185,2.0,1.0,1.0,34.1,34.4,34.4,2.7,3.6,2.6675,0.2488821375331105,-0.03987224882493894,0.9462326895976205,-0.006155439380443967,-0.189526,-27.884295
11.185,2.0,1.0,1.0,34.1,34.4,34.4,2.7,3.6,2.67,0.23731714585086117,-0.040741176417344024,0.9487018619071422,-0.006815583154311239,-0.19381,-27.679457
11.185,2.0,1.0,1.0,34.1,34.4,34.4,2.7,3.6,2.6725,0.22560425159949715,-0.04163328714801058,0.9510401902178746,-0.007510460384058099,-0.198263,-27.472106
11.185,2.0,1.0,1.0,34.1,34.4,34.4,2.7,3.6,2.675,0.213741637145207,-0.04254936744834193,0.9532425391120671,-0.008242134091170507,-0.202892,-27.262162
11.185,2.0,1.0,1.0,34.1,34.4,34.4,2.7,3.6,2.6775,0.201727467900564,-0.04349023266010723,0.9553035282895694,-0.009012818569099303,-0.20771,-27.049541
11.185,2.0,1.0,1.0,34.1,34.4,34.4,2.7,3.6,2.68,0.18955989337331441,-0.04445672746481085,0.9572175159891264,-0.009824892908716246,-0.212726,-26.834155
11.185,2.0,1.0,1.0,34.1,34.4,34.4,2.7,3.6,2.6825,0.17723704846890675,-0.04544972613858668,0.9589785808527245,-0.010680915957423202,-0.217953,-26.615914
11.185,2.0,1.0,1.0,34.1,34.4,34.4,2.7,3.6,2.685,0.16475705509993044,-0.04647013258312504,0.9605805020496704,-0.011583642887283092,-0.223405,-26.394721
11.185,2.0,1.0,1.0,34.1,34.4,34.4,2.7,3.6,2.6875,0.152118024167026,-0.0475188800719925,0.962016737452061,-0.0125360435717435,-0.229095,-26.170476
11.185,2.0,1.0,1.0,34.1,34.4,34.4,2.7,3.6,2.69,0.13931805798973712,-0.048596930638063925,0.9632803996244402,-0.013541322998427752,-0.235039,-25.943072
11.185,2.0,1.0,1.0,34.1,34.4,34.4,2.7,3.6,2.6925,0.12635525328270034,-0.04970527401110194,0.9643642293571923,-0.014602943977677458,-0.241254,-25.712401
11.185,2.0,1.0,1.0,34.1,34.4,34.4,2.7,3.6,2.695,0.11322770479347624,-0.05084492599404204,0.9652605664347271,-0.015724652443768194,-0.247757,-25.478345
11.185,2.0,1.0,1.0,34.1,34.4,34.4,2.7,3.6,2.6975,0.09993350974376299,-0.05201692614140871,0.9659613172850384,-0.016910505688839818,-0.25457,-25.240782
11.185,2.0,1.0,1.0,34.1,34.4,34.4,2.7,3.6,2.7,0.08647077324723876,-0.05322233457235354,0.9664579191056344,-0.018164903919564157,-0.261713,-24.999584
11.185,2.0,1.0,1.0,34.1,34.4,34.4,2.7,3.6,2.7025,0.07283761491589752,-0.054462227712674505,0.9667413000009825,-0.019492625584611224,-0.269211,-24.754615
11.185,2.0,1.0,1.0,34.1,34.4,34.4,2.7,3.6,2.705,0.05903217691460696,-0.05573769271307478,0.9668018345970923,-0.020898866988423057,-0.277089,-24.505733
11.185,2.0,1.0,1.0,34.1,34.4,34.4,2.7,3.6,2.7075,0.045052633782690116,-0.05704982023260927,0.9666292945179576,-0.02238928678530227,-0.285377,-24.252788
11.185,2.0,1.0,1.0,34.1,34.4,34.4,2.7,3.6,2.71,0.030897204414761476,-0.05839969520391019,0.9662127930144014,-0.02397005603925043,-0.294106,-23.995621
11.185,2.0,1.0,1.0,34.1,34.4,34.4,2.7,3.6,2.7125,0.016564166684232946,-0.059788385106802594,0.965540722926091,-0.02564791464158376,-0.30331,-23.734065
11.185,2.0,1.0,1.0,34.1,34.4,34.4,2.7,3.6,2.715,0.002051875306695266,-0.061216925164701855,0.9646006870295046,-0.02743023500268256,-0.313029,-23.467943
11.185,2.0,1.0,1.0,34.1,34.4,34.4,2.7,3.6,2.7175,-0.012641216317447426,-0.06268629973790811,0.963379419675271,-0.02932509407930661,-0.323305,-23.197068
11.185,2.0,1.0,1.0,34.1,34.4,34.4,2.7,3.6,2.72,-0.02751652936341671,-0.06419741901204278,0.9618626984441434,-0.03134135496817233,-0.334186,-22.921243
11.185,2.0,1.0,1.0,34.1,34.4,34.4,2.7,3.6,2.7225,-0.04257532680384463,-0.06575108985877166,0.9600352443477103,-0.03348875949388838,-0.345724,-22.640258
11.185,2.0,1.0,1.0,34.1,34.4,34.4,2.7,3.6,2.725,-0.057818673167523336,-0.06734797946717118,0.9578806088633657,-0.0357780334492698,-0.357978,-22.353892
11.185,2.0,1.0,1.0,34.1,34.4,34.4,2.7,3.6,2.7275,-0.07324738505340098,-0.06898856999148506,0.9553810458179661,-0.038221006413404424,-0.371014,-22.061909
11.185,2.0,1.0,1.0,34.1,34.4,34.4,2.7,3.6,2.73,-0.08886197016455159,-0.07067310201366495,0.9525173658156167,-0.040830748382745426,-0.384907,-21.76406
11.185,2.0,1.0,1.0,34.1,34.4,34.4,2.7,3.6,2.7325,-0.10466255204970043,-0.07240150404969795,0.9492687705367711,-0.043621725808240176,-0.39974,-21.460079
11.185,2.0,1.0,1.0,34.1,34.4,34.4,2.7,3.6,2.735,-0.12064877700267995,-0.07417330460163458,0.9456126638131731,-0.046609980041860524,-0.415606,-21.149686
11.185,2.0,1.0,1.0,34.1,34.4,34.4,2.7,3.6,2.7375,-0.1368196986257773,-0.0759875223257126,0.9415244359022754,-0.049813331662465175,-0.432613,-20.832581
11.185,2.0,1.0,1.0,34.1,34.4,34.4,2.7,3.6,2.74,-0.1531736343486468,-0.07784252868953906,0.9369772168444006,-0.05325161467464044,-0.45088,-20.508446
11.185,2.0,1.0,1.0,34.1,34.4,34.4,2.7,3.6,2.7425,-0.16970798662835174,-0.07973587594694,0.9319415941897115,-0.05694694515109895,-0.470546,-20.176942
11.185,2.0,1.0,1.0,34.1,34.4,34.4,2.7,3.6,2.745,-0.18641901952919587,-0.0816640812607431,0.9263852897422469,-0.0609240295068536,-0.491769,-19.837709
11.185,2.0,1.0,1.0,34.1,34.4,34.4,2.7,3.6,2.7475,-0.20330157874967217,-0.08362235520973801,0.9202727893114063,-0.0652105182248906,-0.514728,-19.490363
11.185,2.0,1.0,1.0,34.1,34.4,34.4,2.7,3.6,2.75,-0.220348739737157,-0.0856042595385668,0.913564918837886,-0.0698374114479916,-0.539633,-19.134496
11.185,2.0,1.0,1.0,34.1,34.4,34.4,2.7,3.6,2.7525,-0.2375513640562208,-0.08760127459945258,0.9062183597598822,-0.07483952332111528,-0.566725,-18.769675
11.185,2.0,1.0,1.0,34.1,34.4,34.4,2.7,3.6,2.755,-0.2548975383185136,-0.08960225116292508,0.8981850962568418,-0.08025601216378789,-0.596284,-18.395437
11.185,2.0,1.0,1.0,34.1,34.4,34.4,2.7,3.6,2.7575,-0.27237186229900306,-0.091592713705922,0.8894117873004451,-0.08613098322585953,-0.628635,-18.011294
11.185,2.0,1.0,1.0,34.1,34.4,34.4,2.7,3.6,2.76,-0.28995454277329136,-0.09355397234842068,0.8798390576588969,-0.09251416953319676,-0.664163,-17.616724
11.185,2.0,1.0,1.0,34.1,34.4,34.4,2.7,3.6,2.7625,-0.30762023635765556,-0.09546198756052647,0.8694007047878565,-0.09946169352196474,-0.703319,-17.21118
11.185,2.0,1.0,1.0,34.1,34.4,34.4,2.7,3.6,2.765,-0.3253365672461035,-0.09728591464751271,0.8580228239296258,-0.10703690677202383,-0.746636,-16.794082
11.185,2.0,1.0,1.0,34.1,34.4,34.4,2.7,3.6,2.7675,-0.3430622230019299,-0.09898623264822257,0.8456228633617013,-0.11531129557014895,-0.794751,-16.364826
11.185,2.0,1.0,1.0,34.1,34.4,34.4,2.7,3.6,2.77,-0.36074450201340447,-0.10051233322087731,0.8321086381540945,-0.12436542372600513,-0.848422,-15.92278
11.185,2.0,1.0,1.0,34.1,34.4,34.4,2.7,3.6,2.7725,-0.37831614823222914,-0.10179940774493643,0.8173773580356662,-0.13428985705558943,-0.908566,-15.467293
11.185,2.0,1.0,1.0,34.1,34.4,34.4,2.7,3.6,2.775,-0.3956912608237992,-0.10276442372653875,0.8013147693037653,-0.14518597005114198,-0.976289,-14.997705
11.185,2.0,1.0,1.0,34.1,34.4,34.4,2.7,3.6,2.7775,-0.4127600074952368,-0.10330092382945787,0.7837945818369254,-0.15716646490975797,-1.052937,-14.513357
11.185,2.0,1.0,1.0,34.1,34.4,34.4,2.7,3.6,2.78,-0.42938180165519135,-0.10327231362289661,0.7646784650211352,-0.17035532167587308,-1.140161,-14.013615
11.185,2.0,1.0,1.0,34.1,34.4,34.4,2.7,3.6,2.7825,-0.4453765310157218,-0.10250323325285317,0.7438170730820313,-0.18488672379668492,-1.239993,-13.497895
11.185,2.0,1.0,1.0,34.1,34.4,34.4,2.7,3.6,2.785,-0.460513364545238,-0.10076854936606654,0.7210528335707076,-0.20090223377016247,-1.35495,-12.96571
11.185,2.0,1.0,1.0,34.1,34.4,34.4,2.7,3.6,2.7875,-0.474496651448803,-0.09777949201940574,0.6962256482288988,-0.218545083904683,-1.488168,-12.416727
11.185,2.0,1.0,1.0,34.1,34.4,34.4,2.7,3.6,2.79,-0.4869485334182951,-0.09316656947823523,0.6691832719402515,-0.23794983981371196,-1.643569,-11.850859
11.185,2.0,1.0,1.0,34.1,34.4,34.4,2.7,3.6,2.7925,-0.4973882612942348,-0.08645926147693084,0.6397990163105703,-0.2592248271697657,-1.826079,-11.268381
11.185,2.0,1.0,1.0,34.1,34.4,34.4,2.7,3.6,2.795,-0.5052090971276165,-0.07706337274732,0.6080006060417565,-0.2824235504021481,-2.041888,-10.670099
11.185,2.0,1.0,1.0,34.1,34.4,34.4,2.7,3.6,2.7975,-0.5096555300283238,-0.06423875452506446,0.5738154240232218,-0.3074999505108592,-2.298752,-10.057584
11.185,2.0,1.0,1.0,34.1,34.4,34.4,2.7,3.6,2.8,-0.5098070105553549,-0.047083532878596644,0.5374386380355772,-0.3342411218079589,-2.606306,-9.433467
11.185,2.0,1.0,1.0,34.1,34.4,34.4,2.7,3.6,2.8025,-0.5045803654577579,-0.024536855048444255,0.4993307525142339,-0.36217107763828194,-2.976276,-8.801836
11.185,2.0,1.0,1.0,34.1,34.4,34.4,2.7,3.6,2.805,-0.4927721046357641,0.00457892582903348,0.4603476290548399,-0.39042263548751516,-3.422327,-8.168703
11.185,2.0,1.0,1.0,34.1,34.4,34.4,2.7,3.6,2.8075,-0.47317303514810677,0.04144470237492917,0.4218946966309661,-0.4175856907952474,-3.958951,-7.542518
11.185,2.0,1.0,1.0,34.1,34.4,34.4,2.7,3.6,2.81,-0.4447955680725496,0.08702000302290805,0.3860720714282619,-0.44156481982131734,-4.598023,-6.934635
11.185,2.0,1.0,1.0,34.1,34.4,34.4,2.7,3.6,2.8125,-0.407244775393164,0.141676960255814,0.355735196403837,-0.459520628874466,-5.340288,-6.359529
11.185,2.0,1.0,1.0,34.1,34.4,34.4,2.7,3.6,2.815,-0.3612136805461226,0.20471251270639954,0.33434696336711933,-0.46801704894980767,-6.157125,-5.834474
11.185,2.0,1.0,1.0,34.1,34.4,34.4,2.7,3.6,2.8175,-0.30897211659734686,0.2738681033096147,0.32548440558854913,-0.4635090902324684,-6.959322,-5.378351
11.185,2.0,1.0,1.0,34.1,34.4,34.4,2.7,3.6,2.82,-0.25457595988795306,0.3451262981945084,0.33196073515407337,-0.44320879769968125,-7.56945,-5.00937
11.185,2.0,1.0,1.0,34.1,34.4,34.4,2.7,3.6,2.8225,-0.20347549610127913,0.4131002725885337,0.35477393911631827,-0.4061201200890691,-7.765902,-4.74197
11.185,2.0,1.0,1.0,34.1,34.4,34.4,2.7,3.6,2.825,-0.16141642935086764,0.47211946958053863,0.3923755537516152,-0.3537557489885931,-7.446941,-4.583709
11.185,2.0,1.0,1.0,34.1,34.4,34.4,2.7,3.6,2.8275,-0.13298619927448005,0.5176620835526629,0.4407671341115957,-0.2900368260426926,-6.73744,-4.533397
11.185,2.0,1.0,1.0,34.1,34.4,34.4,2.7,3.6,2.83,-0.1204992346024359,0.5474503535034742,0.494503474956767,-0.2202999117962629,-5.866101,-4.581289
