1,w,sub_t,h,l1,l2,l3,g1,g2,Freq,S11_re,S21_re,S11_img,S21_img,S11_dB,S21_dB
11.185,2.0,1.0,1.0,33.0,33.5,33.5,4.0,3.5,2.5,0.900693323758068,-0.00379123497601602,0.421869463481949,0.00336703539480174,-0.047061,-45.898913
11.185,2.0,1.0,1.0,33.0,33.5,33.5,4.0,3.5,2.5025,0.8980768227295652,-0.0038698860788695592,0.42731211871718167,0.00338361381601666,-0.047433,-45.779873
11.185,2.0,1.0,1.0,33.0,33.5,33.5,4.0,3.5,2.505,0.8954175881855828,-0.0039498226878345215,0.4327574051805097,0.003399831343847786,-0.04781,-45.66071
11.185,2.0,1.0,1.0,33.0,33.5,33.5,4.0,3.5,2.5075,0.8927152411174982,-0.004031067414048303,0.4382051886300528,0.0034156739579543783,-0.048194,-45.541416
11.185,2.0,1.0,1.0,33.0,33.5,33.5,4.0,3.5,2.51,0.8899693965484794,-0.004113643389268602,0.44365533084138864,0.0034311271793374724,-0.048583,-45.421984
11.185,2.0,1.0,1.0,33.0,33.5,33.5,4.0,3.5,2.5125,0.8871796634350558,-0.004197574280582726,0.44910768947643737,0.003446176053419351,-0.048979,-45.302404
11.185,2.0,1.0,1.0,33.0,33.5,33.5,4.0,3.5,2.515,0.8843456445671498,-0.004282884305613241,0.4545621179482003,0.003460805132423443,-0.049381,-45.182669
11.185,2.0,1.0,1.0,33.0,33.5,33.5,4.0,3.5,2.5175,0.8814669364665634,-0.0043695982482396785,0.46001846528119883,0.0034749984570217195,-0.04979,-45.062771
11.185,2.0,1.0,1.0,33.0,33.5,33.5,4.0,3.5,2.52,0.8785431292838888,-0.004457741474857374,0.46547657596748543,0.003488739537215134,-0.050205,-44.9427
11.185,2.0,1.0,1.0,33.0,33.5,33.5,4.0,3.5,2.5225,0.8755738066938414,-0.004547339951195466,0.4709362898180514,0.0035020113324106135,-0.050627,-44.82245
11.185,2.0,1.0,1.0,33.0,33.5,33.5,4.0,3.5,2.525,0.8725585457889925,-0.004638420259716854,0.47639744180950006,0.0035147962306562816,-0.051055,-44.70201
11.185,2.0,1.0,1.0,33.0,33.5,33.5,4.0,3.5,2.5275,0.8694969169718814,-0.004731009617624705,0.4818598619258101,0.0035270760269944116,-0.051491,-44.581373
11.185,2.0,1.0,1.0,33.0,33.5,33.5,4.0,3.5,2.53,0.866388483845502,-0.004825135895500308,0.4873233749950202,0.003538831900889456,-0.051934,-44.460531
11.185,2.0,1.0,1.0,33.0,33.5,33.5,4.0,3.5,2.5325,0.8632328031021431,-0.004920827636599253,0.49278780052066373,0.003550044392686078,-0.052384,-44.339474
11.185,2.0,1.0,1.0,33.0,33.5,33.5,4.0,3.5,2.535,0.8600294244105652,-0.005018114076833616,0.49825295250777496,0.0035606933790496734,-0.052841,-44.218193
11.185,2.0,1.0,1.0,33.0,33.5,33.5,4.0,3.5,2.5375,0.8567778903015093,-0.005117025165469359,0.5037186392832691,0.0035707580473391424,-0.053306,-44.096681
11.185,2.0,1.0,1.0,33.0,33.5,33.5,4.0,3.5,2.54,0.8534777360515161,-0.005217591586569868,0.5091846633105099,0.003580216868858959,-0.053779,-43.974928
11.185,2.0,1.0,1.0,33.0,33.5,33.5,4.0,3.5,2.5425,0.8501284895650463,-0.00531984478121762,0.514650820997859,0.0035890475709344258,-0.05426,-43.852925
11.185,2.0,1.0,1.0,33.0,33.5,33.5,4.0,3.5,2.545,0.8467296712548891,-0.005423816970548251,0.5201169025009962,0.003597227107750923,-0.054749,-43.730663
11.185,2.0,1.0,1.0,33.0,33.5,33.5,4.0,3.5,2.5475,0.84328079392085,-0.0055295411796322125,0.5255826915187862,0.0036047316298944915,-0.055246,-43.608133
11.185,2.0,1.0,1.0,33.0,33.5,33.5,4.0,3.5,2.55,0.8397813626267001,-0.005637051262241937,0.5310479650824784,0.0036115364525274828,-0.055752,-43.485326
11.185,2.0,1.0,1.0,33.0,33.5,33.5,4.0,3.5,2.5525,0.8362308745753909,-0.005746381926543481,0.5365124933379838,0.0036176160221291333,-0.056266,-43.362232
11.185,2.0,1.0,1.0,33.0,33.5,33.5,4.0,3.5,2.555,0.8326288189825078,-0.005857568761754515,0.5419760393209961,0.00362294388172682,-0.05679,-43.238843
11.185,2.0,1.0,1.0,33.0,33.5,33.5,4.0,3.5,2.5575,0.8289746769479674,-0.005970648265811995,0.5474383587247049,0.0036274926345392787,-0.057322,-43.115148
11.185,2.0,1.0,1.0,33.0,33.5,33.5,4.0,3.5,2.56,0.8252679213259452,-0.00608565787409562,0.5528991996598177,0.0036312339059485035,-0.057864,-42.991139
11.185,2.0,1.0,1.0,33.0,33.5,33.5,4.0,3.5,2.5625,0.8215080165930302,-0.006202635989255315,0.5583583024066288,0.00363413830371188,-0.058415,-42.866804
11.185,2.0,1.0,1.0,33.0,33.5,33.5,4.0,3.5,2.565,0.8176944187145945,-0.006321622012194078,0.5638153991588458,0.0036361753763208843,-0.058976,-42.742135
11.185,2.0,1.0,1.0,33.0,33.5,33.5,4.0,3.5,2.5675,0.8138265750093844,-0.006442656374259255,0.5692702137588608,0.0036373135694069084,-0.059547,-42.617121
11.185,2.0,1.0,1.0,33.0,33.5,33.5,4.0,3.5,2.57,0.8099039240123198,-0.0065657805706997125,0.5747224614241697,0.0036375201800885756,-0.060129,-42.491752
11.185,2.0,1.0,1.0,33.0,33.5,33.5,4.0,3.5,2.5725,0.8059258953355002,-0.006691037195447979,0.5801718484646039,0.003636761309148573,-0.06072,-42.366019
11.185,2.0,1.0,1.0,33.0,33.5,33.5,4.0,3.5,2.575,0.8018919095274238,-0.006818469977290814,0.5856180719900417,0.0036350018109207348,-0.061323,-42.23991
11.185,2.0,1.0,1.0,33.0,33.5,33.5,4.0,3.5,2.5775,0.7978013779304106,-0.006948123817494541,0.5910608196082381,0.003632205240760909,-0.061936,-42.113415
11.185,2.0,1.0,1.0,33.0,33.5,33.5,4.0,3.5,2.58,0.7936537025362359,-0.007080044828955522,0.5964997691124092,0.0036283337999668775,-0.06256,-41.986523
11.185,2.0,1.0,1.0,33.0,33.5,33.5,4.0,3.5,2.5825,0.7894482758399755,-0.007214280376949991,0.6019345881581868,0.003623348278004093,-0.063197,-41.859223
11.185,2.0,1.0,1.0,33.0,33.5,33.5,4.0,3.5,2.585,0.7851844806920654,-0.007350879121561429,0.6073649339295377,0.0036172079918847344,-0.063844,-41.731505
11.185,2.0,1.0,1.0,33.0,33.5,33.5,4.0,3.5,2.5875,0.78086169014858,-0.007489891061868865,0.612790452793235,0.0036098707225376827,-0.064504,-41.603357
11.185,2.0,1.0,1.0,33.0,33.5,33.5,4.0,3.5,2.59,0.7764792673197412,-0.007631367581983231,0.6182107799414336,0.003601292647996292,-0.065176,-41.474768
11.185,2.0,1.0,1.0,33.0,33.5,33.5,4.0,3.5,2.5925,0.7720365652166541,-0.0077753614990250155,0.6236255390219063,0.0035914282732195392,-0.065861,-41.345726
11.185,2.0,1.0,1.0,33.0,33.5,33.5,4.0,3.5,2.595,0.7675329265962955,-0.007921927113140756,0.6290343417554413,0.003580230356349652,-0.066559,-41.21622
11.185,2.0,1.0,1.0,33.0,33.5,33.5,4.0,3.5,2.5975,0.762967683804747,-0.008071120259662825,0.6344367875399253,0.003567649831196295,-0.067271,-41.086236
11.185,2.0,1.0,1.0,33.0,33.5,33.5,4.0,3.5,2.6,0.7583401586186999,-0.008222998363522452,0.6398324630405735,0.00355363572572289,-0.067996,-40.955764
11.185,2.0,1.0,1.0,33.0,33.5,33.5,4.0,3.5,2.6025,0.7536496620852344,-0.00837762049603205,0.6452209417657558,0.0035381350762956343,-0.068735,-40.824791
11.185,2.0,1.0,1.0,33.0,33.5,33.5,4.0,3.5,2.605,0.7488954943598962,-0.008535047434161162,0.650601783627859,0.0035210928374390183,-0.069488,-40.693304
11.185,2.0,1.0,1.0,33.0,33.5,33.5,4.0,3.5,2.6075,0.7440769445430775,-0.008695341722436445,0.6559745344885725,0.00350245178682381,-0.070256,-40.56129
11.185,2.0,1.0,1.0,33.0,33.5,33.5,4.0,3.5,2.61,0.7391932905147299,-0.008858567737604921,0.6613387256879671,0.0034821524251946053,-0.071039,-40.428737
11.185,2.0,1.0,1.0,33.0,33.5,33.5,4.0,3.5,2.6125,0.7342437987674175,-0.00902479175620803,0.6666938735567093,0.0034601328709226572,-0.071838,-40.29563
11.185,2.0,1.0,1.0,33.0,33.5,33.5,4.0,3.5,2.615,0.7292277242377356,-0.009194082025222617,0.6720394789107177,0.0034363287488481144,-0.072653,-40.161956
11.185,2.0,1.0,1.0,33.0,33.5,33.5,4.0,3.5,2.6175,0.7241443101361144,-0.009366508835935816,0.6773750265275232,0.0034106730730506184,-0.073485,-40.027702
11.185,2.0,1.0,1.0,33.0,33.5,33.5,4.0,3.5,2.62,0.7189927877750285,-0.00954214460122944,0.6826999846035726,0.0033830961231619654,-0.074333,-39.892852
11.185,2.0,1.0,1.0,33.0,33.5,33.5,4.0,3.5,2.6225,0.713772376395632,-0.009721063936462522,0.6880138041916698,0.0033535253138053233,-0.075198,-39.757393
11.185,2.0,1.0,1.0,33.0,33.5,33.5,4.0,3.5,2.625,0.70848228299285,-0.00990334374415082,0.693315918617693,0.00332188505671535,-0.076082,-39.621309
11.185,2.0,1.0,1.0,33.0,33.5,33.5,4.0,3.5,2.6275,0.7031217021389375,-0.010089063302655908,0.6986057428757099,0.003288096615059906,-0.076983,-39.484586
11.185,2.0,1.0,1.0,33.0,33.5,33.5,4.0,3.5,2.63,0.6976898158055386,-0.010278304359109513,0.7038826730005339,0.003252077949448103,-0.077904,-39.347208
11.185,2.0,1.0,1.0,33.0,33.5,33.5,4.0,3.5,2.6325,0.6921857931842628,-0.01047115122681351,0.7091460854167324,0.003213743555070127,-0.078844,-39.209159
11.185,2.0,1.0,1.0,33.0,33.5,33.5,4.0,3.5,2.635,0.6866087905058031,-0.010667690887371361,0.7143953362630313,0.0031730042893716305,-0.079804,-39.070423
11.185,2.0,1.0,1.0,33.0,33.5,33.5,4.0,3.5,2.6375,0.6809579508576231,-0.01086801309782356,0.7196297606910059,0.003129767189619336,-0.080784,-38.930984
11.185,2.0,1.0,1.0,33.0,33.5,33.5,4.0,3.5,2.64,0.6752324040002162,-0.011072210503077967,0.7248486721368872,0.003083935279663812,-0.081786,-38.790824
11.185,2.0,1.0,1.0,33.0,33.5,33.5,4.0,3.5,2.6425,0.6694312661819759,-0.011280378753944135,0.7300513615652328,0.0030354073651508535,-0.082809,-38.649926
11.185,2.0,1.0,1.0,33.0,33.5,33.5,4.0,3.5,2.645,0.6635536399526767,-0.011492616631102029,0.7352370966831469,0.0029840778163728984,-0.083854,-38.508272
11.185,2.0,1.0,1.0,33.0,33.5,33.5,4.0,3.5,2.6475,0.6575986139755899,-0.011709026175357563,0.7404051211236484,0.0029298363378868026,-0.084923,-38.365845
11.185,2.0,1.0,1.0,33.0,33.5,33.5,4.0,3.5,2.65,0.6515652628382287,-0.011929712824560625,0.7455546535967104,0.002872567723953026,-0.086016,-38.222624
11.185,2.0,1.0,1.0,33.0,33.5,33.5,4.0,3.5,2.6525,0.6454526468617475,-0.012154785557586558,0.7506848870063734,0.0028121515987740964,-0.087133,-38.078592
11.185,2.0,1.0,1.0,33.0,33.5,33.5,4.0,3.5,2.655,0.6392598119089745,-0.01238435704581017,0.7557949875322767,0.0027484621404243598,-0.088275,-37.933729
11.185,2.0,1.0,1.0,33.0,33.5,33.5,4.0,3.5,2.6575,0.6329857891910791,-0.01261854381252932,0.760884093673799,0.002681367787271213,-0.089443,-37.788013
11.185,2.0,1.0,1.0,33.0,33.5,33.5,4.0,3.5,2.66,0.626629595072858,-0.012857466400827534,0.7659513152549142,0.0026107309255852997,-0.090638,-37.641425
11.185,2.0,1.0,1.0,33.0,33.5,33.5,4.0,3.5,2.6625,0.6201902308766176,-0.013101249550397601,0.770995732387712,0.002536407556926468,-0.091861,-37.493944
11.185,2.0,1.0,1.0,33.0,33.5,33.5,4.0,3.5,2.665,0.6136666826846098,-0.013350022383886126,0.7760163943924245,0.002458246943769214,-0.093113,-37.345546
11.185,2.0,1.0,1.0,33.0,33.5,33.5,4.0,3.5,2.6675,0.6070579211399874,-0.01360391860335497,0.7810123186716101,0.0023760912316979467,-0.094394,-37.19621
11.185,2.0,1.0,1.0,33.0,33.5,33.5,4.0,3.5,2.67,0.6003629012462098,-0.013863076697500282,0.7859824895360106,0.002289775046353924,-0.095705,-37.045913
11.185,2.0,1.0,1.0,33.0,33.5,33.5,4.0,3.5,2.6725,0.5935805621648242,-0.014127640160311912,0.7909258569794051,0.0021991250631542576,-0.097048,-36.894631
11.185,2.0,1.0,1.0,33.0,33.5,33.5,4.0,3.5,2.675,0.5867098270115365,-0.014397757721905576,0.7958413353995747,0.0021039595476241395,-0.098424,-36.742339
11.185,2.0,1.0,1.0,33.0,33.5,33.5,4.0,3.5,2.6775,0.5797496026504537,-0.014673583592310536,0.8007278022622949,0.0020040878639869327,-0.099834,-36.589011
11.185,2.0,1.0,1.0,33.0,33.5,33.5,4.0,3.5,2.68,0.5726987794863629,-0.014955277719051883,0.8055840967050173,0.0018993099494390526,-0.101278,-36.434623
11.185,2.0,1.0,1.0,33.0,33.5,33.5,4.0,3.5,2.6825,0.5655562312548963,-0.015243006059424082,0.8104090180766487,0.0017894157512977032,-0.102759,-36.279146
11.185,2.0,1.0,1.0,33.0,33.5,33.5,4.0,3.5,2.685,0.5583208148103835,-0.015536940868417693,0.8152013244095484,0.0016741846239429745,-0.104277,-36.122554
11.185,2.0,1.0,1.0,33.0,33.5,33.5,4.0,3.5,2.6875,0.550991369911181,-0.0158372610033278,0.819959730819548,0.00155338468218395,-0.105834,-35.964817
11.185,2.0,1.0,1.0,33.0,33.5,33.5,4.0,3.5,2.69,0.5435667190022306,-0.016144152246145394,0.8246829078294348,0.001426772107352537,-0.10743,-35.805906
11.185,2.0,1.0,1.0,33.0,33.5,33.5,4.0,3.5,2.6925,0.536045666994541,-0.01645780764491197,0.8293694796109895,0.0012940904020687445,-0.109069,-35.645791
11.185,2.0,1.0,1.0,33.0,33.5,33.5,4.0,3.5,2.695,0.5284270010412899,-0.016778427875298572,0.8340180221401946,0.0011550695892215011,-0.110751,-35.484441
11.185,2.0,1.0,1.0,33.0,33.5,33.5,4.0,3.5,2.6975,0.5207094903101335,-0.017106221623761648,0.8386270612598096,0.0010094253502634831,-0.112477,-35.321822
11.185,2.0,1.0,1.0,33.0,33.5,33.5,4.0,3.5,2.7,0.512891885751331,-0.017441405993719673,0.8431950706429399,0.0008568580974256118,-0.11425,-35.157901
11.185,2.0,1.0,1.0,33.0,33.5,33.5,4.0,3.5,2.7025,0.5049729198611762,-0.01778420693629755,0.8477204696506871,0.0006970519739039265,-0.116071,-34.992643
11.185,2.0,1.0,1.0,33.0,33.5,33.5,4.0,3.5,2.705,0.49695130644020846,-0.018134859707290042,0.8522016210762879,0.0005296737754587575,-0.117942,-34.826013
11.185,2.0,1.0,1.0,33.0,33.5,33.5,4.0,3.5,2.7075,0.48882574034559456,-0.01849360935211014,0.8566368287674585,0.0003543717861787825,-0.119866,-34.657972
11.185,2.0,1.0,1.0,33.0,33.5,33.5,4.0,3.5,2.71,0.48059489723700544,-0.018860711220605102,0.861024335117843,0.00017077452039646296,-0.121844,-34.488483
11.185,2.0,1.0,1.0,33.0,33.5,33.5,4.0,3.5,2.7125,0.4722574333152402,-0.01923643151375021,0.8653623184175759,-2.1510638118217747e-05,-0.123878,-34.317504
11.185,2.0,1.0,1.0,33.0,33.5,33.5,4.0,3.5,2.715,0.463811985052771,-0.01962104786435906,0.8696488900519721,-0.00022289890952086942,-0.125971,-34.144996
11.185,2.0,1.0,1.0,33.0,33.5,33.5,4.0,3.5,2.7175,0.45525716891529544,-0.020014849954086613,0.8738820915362288,-0.0004338297147280937,-0.128125,-33.970913
11.185,2.0,1.0,1.0,33.0,33.5,33.5,4.0,3.5,2.72,0.44659158107331415,-0.02041814016914123,0.8780598913727727,-0.0006547684078549307,-0.130343,-33.795213
11.185,2.0,1.0,1.0,33.0,33.5,33.5,4.0,3.5,2.7225,0.43781379710262924,-0.020831234297266524,0.882180181716473,-0.0008862081577509121,-0.132628,-33.617847
11.185,2.0,1.0,1.0,33.0,33.5,33.5,4.0,3.5,2.725,0.4289223716726186,-0.021254462268699325,0.8862407748313423,-0.0011286719936705256,-0.134983,-33.438768
11.185,2.0,1.0,1.0,33.0,33.5,33.5,4.0,3.5,2.7275,0.41991583822099554,-0.02168816894395673,0.8902393993205747,-0.001382715031853131,-0.13741,-33.257926
11.185,2.0,1.0,1.0,33.0,33.5,33.5,4.0,3.5,2.73,0.4107927086137366,-0.022132714951447592,0.8941736961097194,-0.0016489269017517841,-0.139913,-33.075267
11.185,2.0,1.0,1.0,33.0,33.5,33.5,4.0,3.5,2.7325,0.40155147278873277,-0.02258847757804031,0.8980412141605285,-0.0019279343928744453,-0.142496,-32.890738
11.185,2.0,1.0,1.0,33.0,33.5,33.5,4.0,3.5,2.735,0.39219059838169207,-0.023055851715843644,0.9018394058904033,-0.0022204043457234807,-0.145161,-32.704283
11.185,2.0,1.0,1.0,33.0,33.5,33.5,4.0,3.5,2.7375,0.38270853033274216,-0.023535250868565068,0.9055656222694375,-0.002527046813183028,-0.147914,-32.51584
11.185,2.0,1.0,1.0,33.0,33.5,33.5,4.0,3.5,2.74,0.3731036904721934,-0.024027108220890714,0.9092171075637049,-0.0028486185219603836,-0.150759,-32.32535
11.185,2.0,1.0,1.0,33.0,33.5,33.5,4.0,3.5,2.7425,0.36337447708389214,-0.02453187777437911,0.9127909936896375,-0.0031859266674002713,-0.153699,-32.132747
11.185,2.0,1.0,1.0,33.0,33.5,33.5,4.0,3.5,2.745,0.3535192644446998,-0.025050035553354607,0.9162842941400019,-0.0035398330792243754,-0.15674,-31.937965
11.185,2.0,1.0,1.0,33.0,33.5,33.5,4.0,3.5,2.7475,0.34353640233873106,-0.025582080884215895,0.9196938974370169,-0.0039112588005904775,-0.159887,-31.740932
11.185,2.0,1.0,1.0,33.0,33.5,33.5,4.0,3.5,2.75,0.333424215545201,-0.0261285377514202,0.923016560062485,-0.00430118912841143,-0.163145,-31.541577
11.185,2.0,1.0,1.0,33.0,33.5,33.5,4.0,3.5,2.7525,0.32318100329906857,-0.026689956233126262,0.9262488988083003,-0.004710679169233203,-0.166521,-31.33982
11.185,2.0,1.0,1.0,33.0,33.5,33.5,4.0,3.5,2.755,0.31280503872412874,-0.027266914019060538,0.9293873824832114,-0.005140859972284792,-0.17002,-31.135583
11.185,2.0,1.0,1.0,33.0,33.5,33.5,4.0,3.5,2.7575,0.30229456823884765,-0.027860018012552952,0.9324283229031176,-0.005592945309731722,-0.173649,-30.928781
11.185,2.0,1.0,1.0,33.0,33.5,33.5,4.0,3.5,2.76,0.2916478109361882,-0.02846990601782307,0.935367865082238,-0.0060682391838797695,-0.177417,-30.719325
11.185,2.0,1.0,1.0,33.0,33.5,33.5,4.0,3.5,2.7625,0.2808629579398466,-0.029097248512413392,0.9382019765310239,-0.006568144152307697,-0.18133,-30.507123
11.185,2.0,1.0,1.0,33.0,33.5,33.5,4.0,3.5,2.765,0.269938171740985,-0.029742750503067163,0.9409264355533855,-0.00709417057491716,-0.185397,-30.292077
11.185,2.0,1.0,1.0,33.0,33.5,33.5,4.0,3.5,2.7675,0.25887158552168094,-0.030407153461230428,0.9435368184203866,-0.007647946901992219,-0.189627,-30.074085
11.185,2.0,1.0,1.0,33.0,33.5,33.5,4.0,3.5,2.77,0.24766130247411233,-0.031091237331564565,0.9460284852796189,-0.008231231139929926,-0.194031,-29.853038
11.185,2.0,1.0,1.0,33.0,33.5,33.5,4.0,3.5,2.7725,0.23630539512818236,-0.031795822603208145,0.9483965646385619,-0.008845923651785083,-0.198619,-29.628825
11.185,2.0,1.0,1.0,33.0,33.5,33.5,4.0,3.5,2.775,0.22480190470501207,-0.0325217724287856,0.9506359362358072,-0.009494081473702894,-0.203403,-29.401325
11.185,2.0,1.0,1.0,33.0,33.5,33.5,4.0,3.5,2.7775,0.21314884051988162,-0.033269994770021245,0.9527412120854386,-0.010177934356335743,-0.208395,-29.170413
11.185,2.0,1.0,1.0,33.0,33.5,33.5,4.0,3.5,2.78,0.20134417946609198,-0.034041444540892744,0.9547067154463129,-0.010899902773228127,-0.21361,-28.935956
11.185,2.0,1.0,1.0,33.0,33.5,33.5,4.0,3.5,2.7825,0.18938586562145177,-0.03483712570904663,0.9565264574285103,-0.011662618176844415,-0.219063,-28.697814
11.185,2.0,1.0,1.0,33.0,33.5,33.5,4.0,3.5,2.785,0.17727181003214412,-0.03565809330305833,0.9581941109027298,-0.01246894582853783,-0.22477,-28.455839
11.185,2.0,1.0,1.0,33.0,33.5,33.5,4.0,3.5,2.7875,0.16499989074567512,-0.03650545525621621,0.9597029813233889,-0.01332201058268465,-0.23075,-28.209873
11.185,2.0,1.0,1.0,33.0,33.5,33.5,4.0,3.5,2.79,0.15256795318624186,-0.03738037399576973,0.9610459740110924,-0.014225226069109012,-0.237021,-27.959752
11.185,2.0,1.0,1.0,33.0,33.5,33.5,4.0,3.5,2.7925,0.13997381099386916,-0.03828406765860388,0.9622155573627574,-0.01518232779382014,-0.243608,-27.705299
11.185,2.0,1.0,1.0,33.0,33.5,33.5,4.0,3.5,2.795,0.12721524748461147,-0.039217810778267845,0.9632037213656031,-0.016197410768465276,-0.250533,-27.446327
11.185,2.0,1.0,1.0,33.0,33.5,33.5,4.0,3.5,2.7975,0.11429001793568079,-0.04018293424180687,0.9640019306813056,-0.017274972386782116,-0.257823,-27.182639
11.185,2.0,1.0,1.0,33.0,33.5,33.5,4.0,3.5,2.8,0.10119585295935737,-0.04118082425480397,0.9646010714351045,-0.01841996139544062,-0.265508,-26.914025
11.185,2.0,1.0,1.0,33.0,33.5,33.5,4.0,3.5,2.8025,0.08793046330742248,-0.042212919975307954,0.9649913906869318,-0.019637833961531515,-0.273621,-26.640258
11.185,2.0,1.0,1.0,33.0,33.5,33.5,4.0,3.5,2.805,0.07449154654889781,-0.04328070937646816,0.9651624273719726,-0.02093461802518828,-0.282199,-26.361102
11.185,2.0,1.0,1.0,33.0,33.5,33.5,4.0,3.5,2.8075,0.06087679619539637,-0.044385722766488576,0.9651029332695233,-0.02231698735029238,-0.291282,-26.076302
11.185,2.0,1.0,1.0,33.0,33.5,33.5,4.0,3.5,2.81,0.04708391402011249,-0.045529523223325194,0.9648007822829482,-0.023792346957361196,-0.300916,-25.785584
11.185,2.0,1.0,1.0,33.0,33.5,33.5,4.0,3.5,2.8125,0.0331106265414167,-0.0467136929774723,0.964242865979366,-0.0253689319509362,-0.311153,-25.48866
11.185,2.0,1.0,1.0,33.0,33.5,33.5,4.0,3.5,2.815,0.018954706937521215,-0.047939814481893,0.9634149729324686,-0.027055922151856537,-0.322051,-25.185217
11.185,2.0,1.0,1.0,33.0,33.5,33.5,4.0,3.5,2.8175,0.00461400404853417,-0.049209444520176095,0.9623016489196171,-0.028863575428313075,-0.333676,-24.874923
11.185,2.0,1.0,1.0,33.0,33.5,33.5,4.0,3.5,2.82,-0.009913519361592201,-0.050524079190525706,0.960886034425723,-0.03080338320759382,-0.3461,-24.55742
11.185,2.0,1.0,1.0,33.0,33.5,33.5,4.0,3.5,2.8225,-0.024629736224337114,-0.05188510692075505,0.9591496751778058,-0.032888252366002055,-0.35941,-24.232325
11.185,2.0,1.0,1.0,33.0,33.5,33.5,4.0,3.5,2.825,-0.03953628889155183,-0.05329374575844298,0.9570723005474249,-0.03513271856515418,-0.3737,-23.899223
11.185,2.0,1.0,1.0,33.0,33.5,33.5,4.0,3.5,2.8275,-0.05463450196057343,-0.05475095995862755,0.9546315635800761,-0.03755319716127416,-0.389083,-23.557673
