1,w,sub_t,h,l1,l2,l3,g1,g2,Freq,S11_re,S21_re,S11_img,S21_img,S11_dB,S21_dB
11.185,2.0,1.0,1.0,34.4,33.6,33.6,2.1,1.9,2.5,0.713931399689014,-0.0209640564094106,0.687410174241323,0.0131645875942674,-0.077865,-32.126826
11.185,2.0,1.0,1.0,34.4,33.6,33.6,2.1,1.9,2.5025,0.7082574696097349,-0.021374774167217305,0.6931030539971733,0.01316605595836927,-0.078795,-32.005037
11.185,2.0,1.0,1.0,34.4,33.6,33.6,2.1,1.9,2.505,0.7025050587478058,-0.021793053084571513,0.6987791930953342,0.01316375339804004,-0.079744,-31.882765
11.185,2.0,1.0,1.0,34.4,33.6,33.6,2.1,1.9,2.5075,0.696673328941911,-0.02221904189414196,0.7044378281971705,0.013157520857336706,-0.080715,-31.760004
11.185,2.0,1.0,1.0,34.4,33.6,33.6,2.1,1.9,2.51,0.6907614314681796,-0.022652892410372945,0.7100781728082741,0.013147193043154273,-0.081706,-31.636745
11.185,2.0,1.0,1.0,34.4,33.6,33.6,2.1,1.9,2.5125,0.6847685070151287,-0.02309475958273849,0.7156994165430691,0.013132598165306165,-0.082719,-31.51298
11.185,2.0,1.0,1.0,34.4,33.6,33.6,2.1,1.9,2.515,0.6786936856661385,-0.0235448015487183,0.7213007243651784,0.013113557664854513,-0.083753,-31.388702
11.185,2.0,1.0,1.0,34.4,33.6,33.6,2.1,1.9,2.5175,0.6725360868900344,-0.024003179686364565,0.726881235802674,0.013089885930111933,-0.08481,-31.263901
11.185,2.0,1.0,1.0,34.4,33.6,33.6,2.1,1.9,2.52,0.6662948195403421,-0.024470058666317157,0.732440064137338,0.013061389999699642,-0.085891,-31.13857
11.185,2.0,1.0,1.0,34.4,33.6,33.6,2.1,1.9,2.5225,0.659968981863864,-0.024945606503108453,0.7379762955669747,0.013027869252017803,-0.086994,-31.012701
11.185,2.0,1.0,1.0,34.4,33.6,33.6,2.1,1.9,2.525,0.6535576615192178,-0.025429994605586446,0.7434889883398386,0.012989115080443498,-0.088123,-30.886284
11.185,2.0,1.0,1.0,34.4,33.6,33.6,2.1,1.9,2.5275,0.6470599356060441,-0.025923397826266056,0.748977171860152,0.012944910553539425,-0.089276,-30.759311
11.185,2.0,1.0,1.0,34.4,33.6,33.6,2.1,1.9,2.53,0.6404748707056325,-0.02642599450940033,0.7544398457636721,0.012895030059511463,-0.090454,-30.631772
11.185,2.0,1.0,1.0,34.4,33.6,33.6,2.1,1.9,2.5325,0.6338015229337444,-0.026937966537544787,0.7598759789622157,0.012839238934114592,-0.091659,-30.50366
11.185,2.0,1.0,1.0,34.4,33.6,33.6,2.1,1.9,2.535,0.6270389380064705,-0.027459499376365635,0.7652845086560162,0.012777293071158692,-0.092891,-30.374965
11.185,2.0,1.0,1.0,34.4,33.6,33.6,2.1,1.9,2.5375,0.6201861513200128,-0.02799078211741898,0.7706643393127148,0.012708938514720063,-0.09415,-30.245677
11.185,2.0,1.0,1.0,34.4,33.6,33.6,2.1,1.9,2.54,0.6132421880453239,-0.02853200751860364,0.7760143416117699,0.012633911032111792,-0.095438,-30.115788
11.185,2.0,1.0,1.0,34.4,33.6,33.6,2.1,1.9,2.5425,0.6062060632386008,-0.029083372041961826,0.7813333513529954,0.01255193566661328,-0.096755,-29.985287
11.185,2.0,1.0,1.0,34.4,33.6,33.6,2.1,1.9,2.545,0.5990767819686885,-0.029645075888471942,0.7866201683278934,0.01246272626890125,-0.098103,-29.854164
11.185,2.0,1.0,1.0,34.4,33.6,33.6,2.1,1.9,2.5475,0.5918533394625229,-0.03021732302944475,0.7918735551523753,0.012365985006062927,-0.099481,-29.722411
11.185,2.0,1.0,1.0,34.4,33.6,33.6,2.1,1.9,2.55,0.5845347212697811,-0.03080032123409921,0.7970922360594348,0.012261401847007605,-0.10089,-29.590016
11.185,2.0,1.0,1.0,34.4,33.6,33.6,2.1,1.9,2.5525,0.5771199034480315,-0.03139428209285413,0.8022748956502261,0.012148654023023127,-0.102333,-29.45697
11.185,2.0,1.0,1.0,34.4,33.6,33.6,2.1,1.9,2.555,0.5696078527696957,-0.03199942103583041,0.8074201776019828,0.012027405462149627,-0.103809,-29.323262
11.185,2.0,1.0,1.0,34.4,33.6,33.6,2.1,1.9,2.5575,0.5619975269522559,-0.0326159573460132,0.8125266833311077,0.011897306195965341,-0.10532,-29.188881
11.185,2.0,1.0,1.0,34.4,33.6,33.6,2.1,1.9,2.56,0.5542878749132232,-0.03324411416647004,0.8175929706096959,0.011757991737293997,-0.106867,-29.053816
11.185,2.0,1.0,1.0,34.4,33.6,33.6,2.1,1.9,2.5625,0.5464778370514661,-0.03388411850096998,0.8226175521336787,0.011609082427254475,-0.10845,-28.918057
11.185,2.0,1.0,1.0,34.4,33.6,33.6,2.1,1.9,2.565,0.5385663455566024,-0.03453620120728622,0.8275988940406972,0.011450182749978433,-0.110071,-28.781593
11.185,2.0,1.0,1.0,34.4,33.6,33.6,2.1,1.9,2.5675,0.5305523247482801,-0.035200596982400065,0.8325354143757004,0.011280880613219415,-0.111732,-28.644411
11.185,2.0,1.0,1.0,34.4,33.6,33.6,2.1,1.9,2.57,0.5224346914472624,-0.03587754433875332,0.8374254815021984,0.011100746592968478,-0.113432,-28.506501
11.185,2.0,1.0,1.0,34.4,33.6,33.6,2.1,1.9,2.5725,0.5142123553803768,-0.036567285570618245,0.8422674124569813,0.010909333140074308,-0.115174,-28.36785
11.185,2.0,1.0,1.0,34.4,33.6,33.6,2.1,1.9,2.575,0.5058842196215085,-0.03727006670956832,0.8470594712460119,0.010706173746744043,-0.116959,-28.228446
11.185,2.0,1.0,1.0,34.4,33.6,33.6,2.1,1.9,2.5775,0.49744918107096403,-0.037986137467941106,0.8517998670790904,0.010490782070666834,-0.118788,-28.088277
11.185,2.0,1.0,1.0,34.4,33.6,33.6,2.1,1.9,2.58,0.4889061309756895,-0.038715751169081665,0.8564867525407607,0.010262651014359478,-0.120663,-27.94733
11.185,2.0,1.0,1.0,34.4,33.6,33.6,2.1,1.9,2.5825,0.4802539554929654,-0.039459164663045644,0.861118221694811,0.010021251757185776,-0.122585,-27.805593
11.185,2.0,1.0,1.0,34.4,33.6,33.6,2.1,1.9,2.585,0.47149153630041557,-0.04021663822631657,0.8656923081195704,0.00976603273733424,-0.124555,-27.663052
11.185,2.0,1.0,1.0,34.4,33.6,33.6,2.1,1.9,2.5875,0.4626177512553088,-0.04098843544396164,0.8702069828710769,0.009496418580868764,-0.126576,-27.519694
11.185,2.0,1.0,1.0,34.4,33.6,33.6,2.1,1.9,2.59,0.45363147510638135,-0.04177482307250074,0.874660152371007,0.009211808974779419,-0.128649,-27.375505
11.185,2.0,1.0,1.0,34.4,33.6,33.6,2.1,1.9,2.5925,0.44453158026158296,-0.04257607088160652,0.8790496562161249,0.008911577480760755,-0.130776,-27.230472
11.185,2.0,1.0,1.0,34.4,33.6,33.6,2.1,1.9,2.595,0.4353169376154297,-0.04339245147257355,0.8833732649058,0.008595070286233365,-0.132958,-27.08458
11.185,2.0,1.0,1.0,34.4,33.6,33.6,2.1,1.9,2.5975,0.4259864174398505,-0.04422424007130627,0.8876286774839782,0.008261604888893126,-0.135198,-26.937814
11.185,2.0,1.0,1.0,34.4,33.6,33.6,2.1,1.9,2.6,0.41653889034273034,-0.04507171429335835,0.891813519091764,0.00791046871082805,-0.137497,-26.790161
11.185,2.0,1.0,1.0,34.4,33.6,33.6,2.1,1.9,2.6025,0.40697322829863986,-0.045935153878326015,0.8959253384265807,0.00754091763797972,-0.139858,-26.641604
11.185,2.0,1.0,1.0,34.4,33.6,33.6,2.1,1.9,2.605,0.3972883057565426,-0.04681484039064069,0.8999616051036045,0.007152174480440688,-0.142283,-26.492128
11.185,2.0,1.0,1.0,34.4,33.6,33.6,2.1,1.9,2.6075,0.3874830008296511,-0.04771105688352365,0.9039197069149575,0.006743427348779577,-0.144775,-26.341717
11.185,2.0,1.0,1.0,34.4,33.6,33.6,2.1,1.9,2.61,0.37755619657296485,-0.048624087522553434,0.9077969469818434,0.00631382794125273,-0.147335,-26.190355
11.185,2.0,1.0,1.0,34.4,33.6,33.6,2.1,1.9,2.6125,0.36750678235443596,-0.049554217164956234,0.9115905407945412,0.005862489736418796,-0.149966,-26.038025
11.185,2.0,1.0,1.0,34.4,33.6,33.6,2.1,1.9,2.615,0.3573336553261554,-0.05050173089034998,0.9152976131348431,0.0053884860852848725,-0.15267,-25.884711
11.185,2.0,1.0,1.0,34.4,33.6,33.6,2.1,1.9,2.6175,0.34703572200246424,-0.05146691347825432,0.9189151948752068,0.004890848196717995,-0.155452,-25.730395
11.185,2.0,1.0,1.0,34.4,33.6,33.6,2.1,1.9,2.62,0.3366118999523914,-0.05245004882721941,0.9224402196485102,0.004368563009410431,-0.158313,-25.575058
11.185,2.0,1.0,1.0,34.4,33.6,33.6,2.1,1.9,2.6225,0.3260611196144346,-0.053451419309917064,0.9258695203819267,0.0038205709432223615,-0.161256,-25.418683
11.185,2.0,1.0,1.0,34.4,33.6,33.6,2.1,1.9,2.625,0.315382326242333,-0.0544713050579696,0.929199825688008,0.00324576352221968,-0.164286,-25.261252
11.185,2.0,1.0,1.0,34.4,33.6,33.6,2.1,1.9,2.6275,0.3045744819911555,-0.055509983169673496,0.9324277561056167,0.0026429808611781753,-0.167405,-25.102744
11.185,2.0,1.0,1.0,34.4,33.6,33.6,2.1,1.9,2.63,0.2936365681538399,-0.056567726833076995,0.9355498201828578,0.0020110090067424354,-0.170616,-24.94314
11.185,2.0,1.0,1.0,34.4,33.6,33.6,2.1,1.9,2.6325,0.2825675875591225,-0.05764480435610605,0.9385624103936338,0.0013485771237944104,-0.173924,-24.78242
11.185,2.0,1.0,1.0,34.4,33.6,33.6,2.1,1.9,2.635,0.27136656714274526,-0.05874147809458006,0.9414617988788898,0.0006543545169095486,-0.177332,-24.620564
11.185,2.0,1.0,1.0,34.4,33.6,33.6,2.1,1.9,2.6375,0.26003256070486425,-0.05985800326800963,0.9442441330029738,-7.305252395455687e-05,-0.180845,-24.457549
11.185,2.0,1.0,1.0,34.4,33.6,33.6,2.1,1.9,2.64,0.24856465186765608,-0.060994626652020295,0.9469054307149269,-0.0008351040651817,-0.184467,-24.293354
11.185,2.0,1.0,1.0,34.4,33.6,33.6,2.1,1.9,2.6425,0.2369619572484502,-0.06215158513506713,0.9494415757037293,-0.0016333300711216718,-0.188203,-24.127957
11.185,2.0,1.0,1.0,34.4,33.6,33.6,2.1,1.9,2.645,0.2252236298650191,-0.06332910412580431,0.9518483123358344,-0.00246933415902371,-0.192057,-23.961335
11.185,2.0,1.0,1.0,34.4,33.6,33.6,2.1,1.9,2.6475,0.21334886279122534,-0.06452739579601299,0.9541212403624306,-0.0033447975816658414,-0.196034,-23.793464
11.185,2.0,1.0,1.0,34.4,33.6,33.6,2.1,1.9,2.65,0.20133689308291175,-0.06574665714237031,0.9562558093829954,-0.004261483453131336,-0.20014,-23.624319
11.185,2.0,1.0,1.0,34.4,33.6,33.6,2.1,1.9,2.6525,0.18918700599582608,-0.06698706784851563,0.9582473130507221,-0.005221241234313595,-0.204381,-23.453876
11.185,2.0,1.0,1.0,34.4,33.6,33.6,2.1,1.9,2.655,0.17689853951941087,-0.06824878792685131,0.960090883004382,-0.006226011495965552,-0.208763,-23.282109
11.185,2.0,1.0,1.0,34.4,33.6,33.6,2.1,1.9,2.6575,0.16447088925271153,-0.06953195511722902,0.9617814825099936,-0.007277830978418137,-0.213292,-23.10899
11.185,2.0,1.0,1.0,34.4,33.6,33.6,2.1,1.9,2.66,0.1519035136511784,-0.07083668201713056,0.9633138997945285,-0.008378837968505257,-0.217974,-22.934494
11.185,2.0,1.0,1.0,34.4,33.6,33.6,2.1,1.9,2.6625,0.13919593967613395,-0.07216305291508873,0.9646827410525025,-0.009531278015750336,-0.222817,-22.758592
11.185,2.0,1.0,1.0,34.4,33.6,33.6,2.1,1.9,2.665,0.1263477688818605,-0.07351112029588772,0.9658824231049437,-0.01073751001148716,-0.227829,-22.581255
11.185,2.0,1.0,1.0,34.4,33.6,33.6,2.1,1.9,2.6675,0.11335868397898614,-0.07488090098246554,0.9669071656887055,-0.01200001265632468,-0.233018,-22.402453
11.185,2.0,1.0,1.0,34.4,33.6,33.6,2.1,1.9,2.67,0.10022845591691076,-0.0762723718753893,0.9677509833524536,-0.013321391343213545,-0.238391,-22.222156
11.185,2.0,1.0,1.0,34.4,33.6,33.6,2.1,1.9,2.6725,0.08695695153262208,-0.0776854652461922,0.9684076769339672,-0.014704385485345806,-0.243959,-22.040331
11.185,2.0,1.0,1.0,34.4,33.6,33.6,2.1,1.9,2.675,0.07354414181846192,-0.07912006353570625,0.9688708245915337,-0.016151876320208237,-0.249731,-21.856946
11.185,2.0,1.0,1.0,34.4,33.6,33.6,2.1,1.9,2.6775,0.05999011086722882,-0.08057599360270123,0.9691337723602801,-0.017666895223326734,-0.255716,-21.671968
11.185,2.0,1.0,1.0,34.4,33.6,33.6,2.1,1.9,2.68,0.046295065559591335,-0.08205302036156156,0.9691896242022008,-0.019252632567575107,-0.261927,-21.485361
11.185,2.0,1.0,1.0,34.4,33.6,33.6,2.1,1.9,2.6825,0.03245934606625888,-0.08355083974028729,0.9690312315165249,-0.02091244716636643,-0.268374,-21.297089
11.185,2.0,1.0,1.0,34.4,33.6,33.6,2.1,1.9,2.685,0.01848343724574077,-0.08506907088168031,0.968651182074763,-0.022649876341604248,-0.275071,-21.107115
11.185,2.0,1.0,1.0,34.4,33.6,33.6,2.1,1.9,2.6875,0.00436798102810847,-0.0866072475010177,0.968041788342458,-0.0244686466599094,-0.282029,-20.915402
11.185,2.0,1.0,1.0,34.4,33.6,33.6,2.1,1.9,2.69,-0.009886210114022036,-0.08816480830267076,0.9671950751472774,-0.026372685383347125,-0.289265,-20.721908
11.185,2.0,1.0,1.0,34.4,33.6,33.6,2.1,1.9,2.6925,-0.02427813849382302,-0.08974108634581038,0.9661027666506665,-0.028366132683624323,-0.296792,-20.526594
11.185,2.0,1.0,1.0,34.4,33.6,33.6,2.1,1.9,2.695,-0.038806605210365545,-0.09133529723532054,0.964756272577856,-0.030453354671449894,-0.304627,-20.329417
11.185,2.0,1.0,1.0,34.4,33.6,33.6,2.1,1.9,2.6975,-0.053470192677217476,-0.0929465259980991,0.9631466736587494,-0.032638957295423085,-0.312787,-20.130332
11.185,2.0,1.0,1.0,34.4,33.6,33.6,2.1,1.9,2.7,-0.068267245518,-0.09457371248673131,0.9612647062300191,-0.034927801167309536,-0.321291,-19.929294
11.185,2.0,1.0,1.0,34.4,33.6,33.6,2.1,1.9,2.7025,-0.08319584964678285,-0.09621563513178916,0.9591007459468439,-0.03732501737283303,-0.330159,-19.726257
11.185,2.0,1.0,1.0,34.4,33.6,33.6,2.1,1.9,2.705,-0.09825380932757338,-0.0978708928403133,0.9566447905512423,-0.03983602432896152,-0.339413,-19.521171
11.185,2.0,1.0,1.0,34.4,33.6,33.6,2.1,1.9,2.7075,-0.11343862198015521,-0.0995378848109599,0.9538864416429967,-0.04246654574997282,-0.349076,-19.313987
11.185,2.0,1.0,1.0,34.4,33.6,33.6,2.1,1.9,2.71,-0.12874745046871047,-0.10121478800530684,0.9508148853990543,-0.045222629785076476,-0.359173,-19.104651
11.185,2.0,1.0,1.0,34.4,33.6,33.6,2.1,1.9,2.7125,-0.14417709257422867,-0.10289953197933303,0.947418872188239,-0.04811066938979406,-0.369731,-18.89311
11.185,2.0,1.0,1.0,34.4,33.6,33.6,2.1,1.9,2.715,-0.1597239473111809,-0.10458977073840742,0.9436866950305122,-0.05113742399125887,-0.380778,-18.679307
11.185,2.0,1.0,1.0,34.4,33.6,33.6,2.1,1.9,2.7175,-0.17538397770243427,-0.10628285123247182,0.9396061668543864,-0.054310042503631355,-0.392347,-18.463185
11.185,2.0,1.0,1.0,34.4,33.6,33.6,2.1,1.9,2.72,-0.1911526695728316,-0.10797577805453705,0.9351645965129219,-0.057636087743330275,-0.404472,-18.244683
11.185,2.0,1.0,1.0,34.4,33.6,33.6,2.1,1.9,2.7225,-0.20702498586061824,-0.1096651738440945,0.9303487635289343,-0.06112356228401193,-0.41719,-18.023738
11.185,2.0,1.0,1.0,34.4,33.6,33.6,2.1,1.9,2.725,-0.22299531587511942,-0.11134723482632886,0.9251448915544472,-0.06478093577717368,-0.43054,-17.800286
11.185,2.0,1.0,1.0,34.4,33.6,33.6,2.1,1.9,2.7275,-0.23905741884801046,-0.11301768083672886,0.9195386205492599,-0.0686171737447771,-0.444567,-17.57426
11.185,2.0,1.0,1.0,34.4,33.6,33.6,2.1,1.9,2.73,-0.2552043610319121,-0.11467169908718351,0.9135149777104733,-0.07264176782373576,-0.459318,-17.345589
11.185,2.0,1.0,1.0,34.4,33.6,33.6,2.1,1.9,2.7325,-0.27142844549270073,-0.11630388082211883,0.9070583472206326,-0.07686476740663947,-0.474845,-17.114203
11.185,2.0,1.0,1.0,34.4,33.6,33.6,2.1,1.9,2.735,-0.28772113361804635,-0.11790814988954772,0.9001524389295101,-0.08129681257614582,-0.491204,-16.880025
11.185,2.0,1.0,1.0,34.4,33.6,33.6,2.1,1.9,2.7375,-0.3040729572225128,-0.11947768210972999,0.8927802561463903,-0.08594916816901078,-0.508458,-16.642979
11.185,2.0,1.0,1.0,34.4,33.6,33.6,2.1,1.9,2.74,-0.3204734199659521,-0.12100481416079574,0.8849240628001293,-0.0908337587257653,-0.526674,-16.402985
11.185,2.0,1.0,1.0,34.4,33.6,33.6,2.1,1.9,2.7425,-0.33691088661425045,-0.122480940513242,0.8765653503281085,-0.09596320397867503,-0.545926,-16.159959
11.185,2.0,1.0,1.0,34.4,33.6,33.6,2.1,1.9,2.745,-0.35337245845617576,-0.12389639673041208,0.8676848047888243,-0.10135085439751805,-0.566296,-15.913817
11.185,2.0,1.0,1.0,34.4,33.6,33.6,2.1,1.9,2.7475,-0.3698438329438965,-0.12524032720646694,0.8582622748641561,-0.10701082614202476,-0.587875,-15.664469
11.185,2.0,1.0,1.0,34.4,33.6,33.6,2.1,1.9,2.75,-0.386309145343928,-0.126500535133296,0.848276741636366,-0.112958034551561,-0.610761,-15.411824
11.185,2.0,1.0,1.0,34.4,33.6,33.6,2.1,1.9,2.7525,-0.40275078986594404,-0.12766331216966845,0.8377062913041949,-0.11920822502421868,-0.635063,-15.155788
11.185,2.0,1.0,1.0,34.4,33.6,33.6,2.1,1.9,2.755,-0.4191492173759953,-0.12871324492626948,0.8265280923579361,-0.12577799978307955,-0.660904,-14.896265
11.185,2.0,1.0,1.0,34.4,33.6,33.6,2.1,1.9,2.7575,-0.4354827063950168,-0.1296329949763009,0.8147183791851345,-0.13268483857712574,-0.688416,-14.633156
11.185,2.0,1.0,1.0,34.4,33.6,33.6,2.1,1.9,2.76,-0.45172710363144336,-0.13040304865143754,0.8022524446517257,-0.13994711079293917,-0.717751,-14.366358
11.185,2.0,1.0,1.0,34.4,33.6,33.6,2.1,1.9,2.7625,-0.46785552979897854,-0.131001432387599,0.7891046449296031,-0.14758407572963494,-0.749072,-14.095769
11.185,2.0,1.0,1.0,34.4,33.6,33.6,2.1,1.9,2.765,-0.4838380459304481,-0.13140338884803332,0.7752484207603304,-0.15561586687391152,-0.782566,-13.821283
11.185,2.0,1.0,1.0,34.4,33.6,33.6,2.1,1.9,2.7675,-0.4996412748255783,-0.13158100848169865,0.7606563405054159,-0.1640634548556301,-0.818441,-13.542793
11.185,2.0,1.0,1.0,34.4,33.6,33.6,2.1,1.9,2.77,-0.5152279716811554,-0.13150281058990254,0.745300171797499,-0.1729485823059111,-0.856927,-13.260193
11.185,2.0,1.0,1.0,34.4,33.6,33.6,2.1,1.9,2.7725,-0.5305565373756199,-0.1311332674024798,0.7291509904499249,-0.18229366200390645,-0.898286,-12.973376
11.185,2.0,1.0,1.0,34.4,33.6,33.6,2.1,1.9,2.775,-0.54558046736234,-0.13043226415266315,0.712179337597262,-0.19212162739281044,-0.94281,-12.682236
11.185,2.0,1.0,1.0,34.4,33.6,33.6,2.1,1.9,2.7775,-0.5602477287387365,-0.12935448775848227,0.694355438939465,-0.2024557216580674,-0.990831,-12.386669
11.185,2.0,1.0,1.0,34.4,33.6,33.6,2.1,1.9,2.78,-0.5745000579087214,-0.12784873657508533,0.675649503582437,-0.21331920795686382,-1.042722,-12.086576
11.185,2.0,1.0,1.0,34.4,33.6,33.6,2.1,1.9,2.7825,-0.5882721715021931,-0.12585714393460182,0.6560321244668454,-0.22473497891011632,-1.098908,-11.781864
11.185,2.0,1.0,1.0,34.4,33.6,33.6,2.1,1.9,2.785,-0.6014908840871374,-0.12331430906682138,0.6354748079362443,-0.2367250379362123,-1.15987,-11.472446
11.185,2.0,1.0,1.0,34.4,33.6,33.6,2.1,1.9,2.7875,-0.6140741280352422,-0.1201463308222791,0.6139506668144288,-0.249309818222069,-1.226157,-11.158249
11.185,2.0,1.0,1.0,34.4,33.6,33.6,2.1,1.9,2.79,-0.6259298741452463,-0.1162697428612161,0.5914353196441202,-0.2625072968896992,-1.298397,-10.839214
11.185,2.0,1.0,1.0,34.4,33.6,33.6,2.1,1.9,2.7925,-0.6369549569352949,-0.11159035427114455,0.5679080486689451,-0.27633185204341665,-1.377307,-10.515298
11.185,2.0,1.0,1.0,34.4,33.6,33.6,2.1,1.9,2.795,-0.6470338167762336,-0.10600200781719332,0.5433532808362179,-0.29079279875822056,-1.463714,-10.186486
11.185,2.0,1.0,1.0,34.4,33.6,33.6,2.1,1.9,2.7975,-0.6560371834540234,-0.09938528041013112,0.5177624695355041,-0.3058925267201765,-1.558567,-9.852793
11.185,2.0,1.0,1.0,34.4,33.6,33.6,2.1,1.9,2.8,-0.6638207439193373,-0.09160616848536456,0.49113646967359337,-0.3216241474499537,-1.662965,-9.51427
11.185,2.0,1.0,1.0,34.4,33.6,33.6,2.1,1.9,2.8025,-0.6702238629733979,-0.08251482687907559,0.4634885142614651,-0.33796854359084577,-1.778178,-9.171018
11.185,2.0,1.0,1.0,34.4,33.6,33.6,2.1,1.9,2.805,-0.6750684620439436,-0.07194446604067264,0.4348479154258548,-0.3548906981474344,-1.905681,-8.823198
11.185,2.0,1.0,1.0,34.4,33.6,33.6,2.1,1.9,2.8075,-0.6781582111189011,-0.0597105621081551,0.40526462392323187,-0.37233517054723675,-2.047194,-8.47104
11.185,2.0,1.0,1.0,34.4,33.6,33.6,2.1,1.9,2.81,-0.6792782557547207,-0.04561060089472121,0.37481478426957293,-0.39022058350775557,-2.20472,-8.114865
11.185,2.0,1.0,1.0,34.4,33.6,33.6,2.1,1.9,2.8125,-0.678195788158974,-0.0294246634559129,0.343607410305887,-0.40843299709487,-2.380605,-7.755101
11.185,2.0,1.0,1.0,34.4,33.6,33.6,2.1,1.9,2.815,-0.6746618808668717,-0.010917269796720058,0.31179226756671213,-0.4268180848359746,-2.577596,-7.392303
11.185,2.0,1.0,1.0,34.4,33.6,33.6,2.1,1.9,2.8175,-0.6684151328325143,0.010158972250084915,0.279568968713755,-0.445172106714639,-2.798923,-7.02718
11.185,2.0,1.0,1.0,34.4,33.6,33.6,2.1,1.9,2.82,-0.6591878243519523,0.03405722038826097,0.24719714566713044,-0.46323181607337194,-3.04838,-6.660621
11.185,2.0,1.0,1.0,34.4,33.6,33.6,2.1,1.9,2.8225,-0.6467154222496324,0.06102691708857227,0.21500733098808472,-0.48066366763912166,-3.330433,-6.293725
11.185,2.0,1.0,1.0,34.4,33.6,33.6,2.1,1.9,2.825,-0.6307503865843782,0.0913000297793478,0.18341183324947974,-0.49705304012882096,-3.650333,-5.927835
11.185,2.0,1.0,1.0,34.4,33.6,33.6,2.1,1.9,2.8275,-0.611081246825715,0.1250720515107434,0.15291440301742132,-0.5118946724890949,-4.014249,-5.564567
11.185,2.0,1.0,1.0,34.4,33.6,33.6,2.1,1.9,2.83,-0.5875577499549871,0.16247696757254906,0.12411685305472443,-0.5245861421514016,-4.429392,-5.205839
