1,w,sub_t,h,l1,l2,l3,g1,g2,Freq,S11_re,S21_re,S11_img,S21_img,S11_dB,S21_dB
11.185,2.0,1.0,1.0,33.0,33.4,33.4,3.0,3.5,2.5,0.901953444696873,-0.00477954766627775,0.418603035926906,0.00474973317592723,-0.049142,-43.429055
11.185,2.0,1.0,1.0,33.0,33.4,33.4,3.0,3.5,2.5025,0.8993353282647901,-0.004881255325361533,0.42408853971700816,0.004778883235516445,-0.049552,-43.310145
11.185,2.0,1.0,1.0,33.0,33.4,33.4,3.0,3.5,2.505,0.8966736783490022,-0.004984739198116319,0.42957717479227187,0.004807717157279556,-0.049969,-43.191048
11.185,2.0,1.0,1.0,33.0,33.4,33.4,3.0,3.5,2.5075,0.8939680955389248,-0.005090032981457867,0.4350688072099966,0.0048362185080915825,-0.050392,-43.071756
11.185,2.0,1.0,1.0,33.0,33.4,33.4,3.0,3.5,2.51,0.8912181739352061,-0.0051971711810287645,0.44056329894267865,0.004864370257564552,-0.050823,-42.952261
11.185,2.0,1.0,1.0,33.0,33.4,33.4,3.0,3.5,2.5125,0.888423501033939,-0.005306189134622342,0.4460605077400404,0.004892154754622046,-0.05126,-42.832555
11.185,2.0,1.0,1.0,33.0,33.4,33.4,3.0,3.5,2.515,0.8855836576087219,-0.0054171230363983846,0.4515602869864992,0.004919553703057994,-0.051705,-42.71263
11.185,2.0,1.0,1.0,33.0,33.4,33.4,3.0,3.5,2.5175,0.8826982175905396,-0.0055300099619216714,0.45706248555389656,0.004946548136030727,-0.052157,-42.592478
11.185,2.0,1.0,1.0,33.0,33.4,33.4,3.0,3.5,2.52,0.879766747945411,-0.005644887894055887,0.4625669476493376,0.004973118389440355,-0.052616,-42.472092
11.185,2.0,1.0,1.0,33.0,33.4,33.4,3.0,3.5,2.5225,0.8767888085497781,-0.005761795749746005,0.46807351265793695,0.004999244074135116,-0.053084,-42.351462
11.185,2.0,1.0,1.0,33.0,33.4,33.4,3.0,3.5,2.525,0.8737639520635834,-0.005880773407725083,0.4735820149803128,0.005024904046888784,-0.053559,-42.230581
11.185,2.0,1.0,1.0,33.0,33.4,33.4,3.0,3.5,2.5275,0.8706917238009945,-0.006001861737182196,0.4790922838646257,0.005050076380088732,-0.054042,-42.10944
11.185,2.0,1.0,1.0,33.0,33.4,33.4,3.0,3.5,2.53,0.8675716615987435,-0.006125102627429689,0.484604143232961,0.00507473833007032,-0.054533,-41.988032
11.185,2.0,1.0,1.0,33.0,33.4,33.4,3.0,3.5,2.5325,0.8644032956820239,-0.006250539018610429,0.4901174115018524,0.0050988663040298894,-0.055033,-41.866347
11.185,2.0,1.0,1.0,33.0,33.4,33.4,3.0,3.5,2.535,0.8611861485279093,-0.006378214933487253,0.49563190139673163,0.005122435825445079,-0.055541,-41.744377
11.185,2.0,1.0,1.0,33.0,33.4,33.4,3.0,3.5,2.5375,0.85791973472625,-0.00650817551035827,0.5011474197600723,0.005145421497926839,-0.056058,-41.622114
11.185,2.0,1.0,1.0,33.0,33.4,33.4,3.0,3.5,2.54,0.8546035608379985,-0.006640467037144712,0.5066637673530016,0.005167796967423115,-0.056585,-41.499549
11.185,2.0,1.0,1.0,33.0,33.4,33.4,3.0,3.5,2.5425,0.8512371252509178,-0.006775136986699153,0.5121807386501328,0.005189534882690418,-0.05712,-41.376673
11.185,2.0,1.0,1.0,33.0,33.4,33.4,3.0,3.5,2.545,0.8478199180326276,-0.006912234053385231,0.5176981216273648,0.0052106068539432724,-0.057665,-41.253477
11.185,2.0,1.0,1.0,33.0,33.4,33.4,3.0,3.5,2.5475,0.8443514207809446,-0.007051808190981017,0.523215697542379,0.005230983409588004,-0.058219,-41.129953
11.185,2.0,1.0,1.0,33.0,33.4,33.4,3.0,3.5,2.55,0.8408311064714576,-0.007193910651962532,0.5287332407075699,0.005250633950940281,-0.058784,-41.00609
11.185,2.0,1.0,1.0,33.0,33.4,33.4,3.0,3.5,2.5525,0.8372584393023056,-0.007338594028224418,0.5342505182551022,0.0052695267048211685,-0.059358,-40.881881
11.185,2.0,1.0,1.0,33.0,33.4,33.4,3.0,3.5,2.555,0.8336328745360908,-0.0074859122932993795,0.5397672898938094,0.00528762867391952,-0.059943,-40.757316
11.185,2.0,1.0,1.0,33.0,33.4,33.4,3.0,3.5,2.5575,0.8299538583388923,-0.007635920846140097,0.5452833076576185,0.005304905584802178,-0.060538,-40.632385
11.185,2.0,1.0,1.0,33.0,33.4,33.4,3.0,3.5,2.56,0.8262208276163188,-0.007788676556530223,0.5507983156451612,0.00532132183344615,-0.061144,-40.507078
11.185,2.0,1.0,1.0,33.0,33.4,33.4,3.0,3.5,2.5625,0.8224332098465549,-0.007944237812194832,0.5563120497502432,0.00533684042815973,-0.061762,-40.381388
11.185,2.0,1.0,1.0,33.0,33.4,33.4,3.0,3.5,2.565,0.8185904229103449,-0.008102664567683902,0.5618242373828095,0.005351422929751092,-0.062391,-40.255302
11.185,2.0,1.0,1.0,33.0,33.4,33.4,3.0,3.5,2.5675,0.8146918749178627,-0.00826401839510589,0.5673345971800261,0.005365029388794382,-0.063031,-40.128812
11.185,2.0,1.0,1.0,33.0,33.4,33.4,3.0,3.5,2.57,0.810736964032417,-0.008428362536792421,0.5728428387070971,0.005377618279834135,-0.063683,-40.001908
11.185,2.0,1.0,1.0,33.0,33.4,33.4,3.0,3.5,2.5725,0.8067250782909275,-0.008595761959979187,0.5783486621474051,0.005389146432359234,-0.064348,-39.874579
11.185,2.0,1.0,1.0,33.0,33.4,33.4,3.0,3.5,2.575,0.8026555954211273,-0.008766283413592238,0.5838517579815473,0.005399568958366585,-0.065025,-39.746816
11.185,2.0,1.0,1.0,33.0,33.4,33.4,3.0,3.5,2.5775,0.7985278826554283,-0.008939995487233435,0.589351806654821,0.00540883917632376,-0.065716,-39.618606
11.185,2.0,1.0,1.0,33.0,33.4,33.4,3.0,3.5,2.58,0.7943412965413958,-0.009116968672463128,0.5948484782326904,0.005416908531328164,-0.066419,-39.489941
11.185,2.0,1.0,1.0,33.0,33.4,33.4,3.0,3.5,2.5825,0.7900951827487727,-0.009297275426484172,0.6003414320437472,0.005423726511246301,-0.067136,-39.360809
11.185,2.0,1.0,1.0,33.0,33.4,33.4,3.0,3.5,2.585,0.7857888758729925,-0.009480990238335152,0.605830316309648,0.005429240558604183,-0.067867,-39.2312
11.185,2.0,1.0,1.0,33.0,33.4,33.4,3.0,3.5,2.5875,0.7814216992351253,-0.009668189697707611,0.6113147677614966,0.005433395977984269,-0.068612,-39.101101
11.185,2.0,1.0,1.0,33.0,33.4,33.4,3.0,3.5,2.59,0.7769929646781911,-0.009858952566507019,0.6167944112420999,0.0054361358386685,-0.069372,-38.970503
11.185,2.0,1.0,1.0,33.0,33.4,33.4,3.0,3.5,2.5925,0.7725019723597802,-0.010053359853283572,0.6222688592935157,0.00543740087225047,-0.070147,-38.839392
11.185,2.0,1.0,1.0,33.0,33.4,33.4,3.0,3.5,2.595,0.7679480105409217,-0.010251494890666136,0.6277377117292569,0.005437129364920767,-0.070937,-38.707758
11.185,2.0,1.0,1.0,33.0,33.4,33.4,3.0,3.5,2.5975,0.7633303553711278,-0.01045344341593821,0.6332005551905179,0.0054352570441104225,-0.071743,-38.575589
11.185,2.0,1.0,1.0,33.0,33.4,33.4,3.0,3.5,2.6,0.7586482706695526,-0.010659293654903668,0.638656962685729,0.005431716959156128,-0.072566,-38.442873
11.185,2.0,1.0,1.0,33.0,33.4,33.4,3.0,3.5,2.6025,0.7539010077022031,-0.010869136409195884,0.6441064931127147,0.0054264393556278335,-0.073405,-38.309596
11.185,2.0,1.0,1.0,33.0,33.4,33.4,3.0,3.5,2.605,0.7490878049551233,-0.011083065147194275,0.6495486907627126,0.005419351542935514,-0.074261,-38.175748
11.185,2.0,1.0,1.0,33.0,33.4,33.4,3.0,3.5,2.6075,0.7442078879034945,-0.011301176098718212,0.6549830848054478,0.005410377754805155,-0.075135,-38.041314
11.185,2.0,1.0,1.0,33.0,33.4,33.4,3.0,3.5,2.61,0.7392604687765721,-0.011523568353679844,0.6604091887544223,0.005399439002185766,-0.076028,-37.906282
11.185,2.0,1.0,1.0,33.0,33.4,33.4,3.0,3.5,2.6125,0.7342447463183934,-0.01175034396488497,0.665826499911547,0.005386452918118871,-0.076938,-37.770639
11.185,2.0,1.0,1.0,33.0,33.4,33.4,3.0,3.5,2.615,0.7291599055441724,-0.011981608055182686,0.6712344987901818,0.005371333594068952,-0.077868,-37.634372
11.185,2.0,1.0,1.0,33.0,33.4,33.4,3.0,3.5,2.6175,0.7240051174923191,-0.01221746892917436,0.6766326485155985,0.005353991407177634,-0.078818,-37.497465
11.185,2.0,1.0,1.0,33.0,33.4,33.4,3.0,3.5,2.62,0.7187795389719965,-0.012458038189703582,0.6820203942018386,0.005334332837866445,-0.079788,-37.359906
11.185,2.0,1.0,1.0,33.0,33.4,33.4,3.0,3.5,2.6225,0.7134823123061355,-0.01270343085936243,0.6873971623038755,0.005312260277171392,-0.080779,-37.221679
11.185,2.0,1.0,1.0,33.0,33.4,33.4,3.0,3.5,2.625,0.708112565069838,-0.0129537655072588,0.692762359943916,0.00528767182314781,-0.081791,-37.082771
11.185,2.0,1.0,1.0,33.0,33.4,33.4,3.0,3.5,2.6275,0.7026694098240678,-0.013209164381306619,0.6981153742106356,0.005260461065635685,-0.082826,-36.943166
11.185,2.0,1.0,1.0,33.0,33.4,33.4,3.0,3.5,2.63,0.6971519438445568,-0.013469753546311669,0.7034555714300493,0.00523051685862346,-0.083883,-36.80285
11.185,2.0,1.0,1.0,33.0,33.4,33.4,3.0,3.5,2.6325,0.6915592488458302,-0.013735663028142543,0.7087822964066567,0.005197723079391102,-0.084964,-36.661805
11.185,2.0,1.0,1.0,33.0,33.4,33.4,3.0,3.5,2.635,0.6858903907002643,-0.014007026964290726,0.714094871633409,0.005161958373552748,-0.086068,-36.520017
11.185,2.0,1.0,1.0,33.0,33.4,33.4,3.0,3.5,2.6375,0.6801444191520865,-0.014283983761140992,0.7193925964689687,0.0051230958850516095,-0.087198,-36.37747
11.185,2.0,1.0,1.0,33.0,33.4,33.4,3.0,3.5,2.64,0.6743203675262077,-0.014566676258290782,0.7246747462806409,0.00508100297008827,-0.088353,-36.234146
11.185,2.0,1.0,1.0,33.0,33.4,33.4,3.0,3.5,2.6425,0.6684172524318027,-0.01485525190027448,0.7299405715512349,0.0050355408938849485,-0.089535,-36.090028
11.185,2.0,1.0,1.0,33.0,33.4,33.4,3.0,3.5,2.645,0.6624340734605283,-0.015149862916069448,0.7351892969480361,0.0049865645091029176,-0.090744,-35.945099
11.185,2.0,1.0,1.0,33.0,33.4,33.4,3.0,3.5,2.6475,0.6563698128792748,-0.01545066650677891,0.7404201203519246,0.004933921914637892,-0.091981,-35.799342
11.185,2.0,1.0,1.0,33.0,33.4,33.4,3.0,3.5,2.65,0.6502234353173333,-0.015757825041910783,0.745632211844579,0.004877454093416848,-0.093247,-35.652737
11.185,2.0,1.0,1.0,33.0,33.4,33.4,3.0,3.5,2.6525,0.6439938874478865,-0.016071506264690616,0.750824712651532,0.004816994527711043,-0.094543,-35.505266
11.185,2.0,1.0,1.0,33.0,33.4,33.4,3.0,3.5,2.655,0.6376800976636795,-0.01639188350687337,0.7559967340387412,0.0047523687903590775,-0.09587,-35.35691
11.185,2.0,1.0,1.0,33.0,33.4,33.4,3.0,3.5,2.6575,0.6312809757467667,-0.016719135913541534,0.7611473561601467,0.004683394110164643,-0.097229,-35.20765
11.185,2.0,1.0,1.0,33.0,33.4,33.4,3.0,3.5,2.66,0.6247954125322027,-0.01705344867840307,0.7662756268535325,0.004609878909590499,-0.098621,-35.057465
11.185,2.0,1.0,1.0,33.0,33.4,33.4,3.0,3.5,2.6625,0.6182222795655556,-0.01739501329012987,0.7713805603818147,0.0045316223127154125,-0.100047,-34.906334
11.185,2.0,1.0,1.0,33.0,33.4,33.4,3.0,3.5,2.665,0.6115604287540952,-0.017744027790305407,0.7764611361166927,0.004448413621250418,-0.101508,-34.754236
11.185,2.0,1.0,1.0,33.0,33.4,33.4,3.0,3.5,2.6675,0.6048086920115349,-0.018100697043578168,0.7815162971613583,0.004360031756225489,-0.103005,-34.601149
11.185,2.0,1.0,1.0,33.0,33.4,33.4,3.0,3.5,2.67,0.597965880896179,-0.01846523302064934,0.7865449489087447,0.004266244662754154,-0.10454,-34.447052
11.185,2.0,1.0,1.0,33.0,33.4,33.4,3.0,3.5,2.6725,0.5910307862423255,-0.018837855094752918,0.7915459575315231,0.004166808675060585,-0.106114,-34.29192
11.185,2.0,1.0,1.0,33.0,33.4,33.4,3.0,3.5,2.675,0.5840021777847927,-0.019218790352318074,0.7965181483997774,0.004061467838709939,-0.107729,-34.135731
11.185,2.0,1.0,1.0,33.0,33.4,33.4,3.0,3.5,2.6775,0.576878803776403,-0.01960827391853789,0.8014603044219836,0.003949953186713992,-0.109385,-33.978461
11.185,2.0,1.0,1.0,33.0,33.4,33.4,3.0,3.5,2.68,0.5696593905982874,-0.02000654929860022,0.8063711643045841,0.003831981965890261,-0.111084,-33.820083
11.185,2.0,1.0,1.0,33.0,33.4,33.4,3.0,3.5,2.6825,0.5623426423628521,-0.020413868735370183,0.8112494207250769,0.0037072568095285053,-0.112828,-33.660573
11.185,2.0,1.0,1.0,33.0,33.4,33.4,3.0,3.5,2.685,0.55492724050926,-0.020830493584348627,0.8160937184131463,0.0035754648520628877,-0.114619,-33.499905
11.185,2.0,1.0,1.0,33.0,33.4,33.4,3.0,3.5,2.6875,0.5474118433912769,-0.021256694706763106,0.8209026521339221,0.0034362767810551063,-0.116458,-33.33805
11.185,2.0,1.0,1.0,33.0,33.4,33.4,3.0,3.5,2.69,0.539795085857353,-0.021692752881680117,0.8256747645669587,0.0032893458213619636,-0.118347,-33.174981
11.185,2.0,1.0,1.0,33.0,33.4,33.4,3.0,3.5,2.6925,0.5320755788227891,-0.022138959238060456,0.8304085440740276,0.0031343066458833866,-0.120288,-33.01067
11.185,2.0,1.0,1.0,33.0,33.4,33.4,3.0,3.5,2.695,0.5242519088338937,-0.022595615707705897,0.8351024223481982,0.0029707742067598577,-0.122282,-32.845086
11.185,2.0,1.0,1.0,33.0,33.4,33.4,3.0,3.5,2.6975,0.5163226376239978,-0.023063035500075234,0.8397547719360786,0.0027983424803056617,-0.124333,-32.6782
11.185,2.0,1.0,1.0,33.0,33.4,33.4,3.0,3.5,2.7,0.5082863016612805,-0.023541543599966484,0.8443639036243538,0.0026165831183200413,-0.126442,-32.509978
11.185,2.0,1.0,1.0,33.0,33.4,33.4,3.0,3.5,2.7025,0.5001414116883296,-0.02403147728908227,0.848928063681007,0.0024250439977032312,-0.128612,-32.34039
11.185,2.0,1.0,1.0,33.0,33.4,33.4,3.0,3.5,2.705,0.49188645225344696,-0.024533186692503494,0.8534454309407286,0.002223247659513773,-0.130844,-32.169401
11.185,2.0,1.0,1.0,33.0,33.4,33.4,3.0,3.5,2.7075,0.483519881233726,-0.02504703535110035,0.8579141137230877,0.0020106896277235138,-0.133142,-31.996976
11.185,2.0,1.0,1.0,33.0,33.4,33.4,3.0,3.5,2.71,0.47504012935001694,-0.025573400820898196,0.8623321465709773,0.0017868365969503012,-0.135508,-31.82308
11.185,2.0,1.0,1.0,33.0,33.4,33.4,3.0,3.5,2.7125,0.4664455996739452,-0.026112675300395436,0.8666974867956827,0.0015511244773624107,-0.137945,-31.647676
11.185,2.0,1.0,1.0,33.0,33.4,33.4,3.0,3.5,2.715,0.45773466712728067,-0.02666526628678853,0.8710080108136347,0.0013029562837383662,-0.140457,-31.470724
11.185,2.0,1.0,1.0,33.0,33.4,33.4,3.0,3.5,2.7175,0.448905677974039,-0.027231597262000147,0.8752615102584592,0.0010416998543173748,-0.143046,-31.292187
11.185,2.0,1.0,1.0,33.0,33.4,33.4,3.0,3.5,2.72,0.4399569493058908,-0.027812108409317086,0.8794556878503466,0.0007666853835709603,-0.145715,-31.112023
11.185,2.0,1.0,1.0,33.0,33.4,33.4,3.0,3.5,2.7225,0.43088676852157737,-0.028407257361330027,0.8835881530029749,0.00047720275134331225,-0.148469,-30.930189
11.185,2.0,1.0,1.0,33.0,33.4,33.4,3.0,3.5,2.725,0.42169339280133267,-0.02901751997970335,0.8876564171462291,0.00017249862892863474,-0.151311,-30.746641
11.185,2.0,1.0,1.0,33.0,33.4,33.4,3.0,3.5,2.7275,0.41237504857750346,-0.02964339116710545,0.8916578887407443,-0.0001482266594557155,-0.154245,-30.561334
11.185,2.0,1.0,1.0,33.0,33.4,33.4,3.0,3.5,2.73,0.40292993100296826,-0.03028538571136,0.895589867957797,-0.000485822543701203,-0.157276,-30.37422
11.185,2.0,1.0,1.0,33.0,33.4,33.4,3.0,3.5,2.7325,0.3933562034193029,-0.03094403916155082,0.8994495409953032,-0.0008411919099012064,-0.160408,-30.185252
11.185,2.0,1.0,1.0,33.0,33.4,33.4,3.0,3.5,2.735,0.38365199682718265,-0.03161990873539033,0.9032339739975311,-0.0012152951270398159,-0.163645,-29.994377
11.185,2.0,1.0,1.0,33.0,33.4,33.4,3.0,3.5,2.7375,0.3738154093620719,-0.03231357425664264,0.9069401065426461,-0.0016091544311688324,-0.166993,-29.801544
11.185,2.0,1.0,1.0,33.0,33.4,33.4,3.0,3.5,2.74,0.363844505779014,-0.033025639120740906,0.9105647446582343,-0.002023858703744582,-0.170458,-29.606696
11.185,2.0,1.0,1.0,33.0,33.4,33.4,3.0,3.5,2.7425,0.3537373169511847,-0.03375673128594181,0.9141045533205138,-0.0024605686850644893,-0.174044,-29.409779
11.185,2.0,1.0,1.0,33.0,33.4,33.4,3.0,3.5,2.745,0.3434918393879681,-0.03450750428637205,0.9175560483879147,-0.0029205226685626046,-0.177759,-29.210731
11.185,2.0,1.0,1.0,33.0,33.4,33.4,3.0,3.5,2.7475,0.33310603477959,-0.035278638262114456,0.9209155879140293,-0.0034050427271781264,-0.181609,-29.009493
11.185,2.0,1.0,1.0,33.0,33.4,33.4,3.0,3.5,2.75,0.322577829576919,-0.0360708409999998,0.924179362778525,-0.00391554152918879,-0.185602,-28.805999
11.185,2.0,1.0,1.0,33.0,33.4,33.4,3.0,3.5,2.7525,0.3119051146169395,-0.036884848976960816,0.9273433865673321,-0.004453529807910387,-0.189744,-28.600183
11.185,2.0,1.0,1.0,33.0,33.4,33.4,3.0,3.5,2.755,0.30108574480671374,-0.03772142839559173,0.9304034846251604,-0.005020624557624859,-0.194044,-28.391976
11.185,2.0,1.0,1.0,33.0,33.4,33.4,3.0,3.5,2.7575,0.2901175388813983,-0.03858137619886457,0.9333552821940381,-0.005618558037158588,-0.19851,-28.181305
11.185,2.0,1.0,1.0,33.0,33.4,33.4,3.0,3.5,2.76,0.2789982792553164,-0.03946552104765688,0.9361941915408702,-0.0062491876728470105,-0.203153,-27.968094
11.185,2.0,1.0,1.0,33.0,33.4,33.4,3.0,3.5,2.7625,0.26772571198912537,-0.04037472424074373,0.9389153979648688,-0.006914506964394256,-0.207981,-27.752265
11.185,2.0,1.0,1.0,33.0,33.4,33.4,3.0,3.5,2.765,0.25629754690114115,-0.04130988055201259,0.9415138445618164,-0.007616657510579634,-0.213007,-27.533735
11.185,2.0,1.0,1.0,33.0,33.4,33.4,3.0,3.5,2.7675,0.24471145785690912,-0.042271918953701915,0.9439842156062518,-0.008357942287143687,-0.218241,-27.312418
11.185,2.0,1.0,1.0,33.0,33.4,33.4,3.0,3.5,2.77,0.23296508327845747,-0.043261803187193026,0.9463209183945134,-0.009140840326808465,-0.223697,-27.088225
11.185,2.0,1.0,1.0,33.0,33.4,33.4,3.0,3.5,2.7725,0.22105602692365187,-0.04428053213400688,0.9485180633707311,-0.009968022971597941,-0.229387,-26.86106
11.185,2.0,1.0,1.0,33.0,33.4,33.4,3.0,3.5,2.775,0.2089818589969781,-0.04532913992881427,0.9505694423339671,-0.010842371890848116,-0.235328,-26.630826
11.185,2.0,1.0,1.0,33.0,33.4,33.4,3.0,3.5,2.7775,0.19674011766642693,-0.046408695743003665,0.9524685044972031,-0.011766999085008603,-0.241534,-26.397419
11.185,2.0,1.0,1.0,33.0,33.4,33.4,3.0,3.5,2.78,0.18432831107745307,-0.04752030315111728,0.9542083301372255,-0.012745269126111512,-0.248024,-26.160732
11.185,2.0,1.0,1.0,33.0,33.4,33.4,3.0,3.5,2.7825,0.1717439199749926,-0.04866509897255198,0.9557816015379775,-0.01378082392127348,-0.254817,-25.92065
11.185,2.0,1.0,1.0,33.0,33.4,33.4,3.0,3.5,2.785,0.15898440106896994,-0.04984425145649089,0.95718057088781,-0.014877610326593087,-0.261932,-25.677055
11.185,2.0,1.0,1.0,33.0,33.4,33.4,3.0,3.5,2.7875,0.14604719130891328,-0.051058957647968986,0.9583970247423974,-0.0160399109861956,-0.269393,-25.429821
11.185,2.0,1.0,1.0,33.0,33.4,33.4,3.0,3.5,2.79,0.13292971327031303,-0.05231043973596317,0.9594222446087276,-0.017272378826044422,-0.277225,-25.178818
11.185,2.0,1.0,1.0,33.0,33.4,33.4,3.0,3.5,2.7925,0.11962938190116776,-0.053599940138707766,0.9602469631403155,-0.018580075695701286,-0.285454,-24.923906
11.185,2.0,1.0,1.0,33.0,33.4,33.4,3.0,3.5,2.795,0.10614361293364323,-0.05492871502495406,0.9608613153581329,-0.01996851572494109,-0.29411,-24.664942
11.185,2.0,1.0,1.0,33.0,33.4,33.4,3.0,3.5,2.7975,0.09246983333593692,-0.05629802589989051,0.9612547842239243,-0.021443714047665277,-0.303226,-24.401771
11.185,2.0,1.0,1.0,33.0,33.4,33.4,3.0,3.5,2.8,0.07860549426634504,-0.057709128797536396,0.9614161397906693,-0.0230122416448883,-0.312837,-24.134232
11.185,2.0,1.0,1.0,33.0,33.4,33.4,3.0,3.5,2.8025,0.06454808709989701,-0.059163260513232535,0.9613333710365539,-0.024681287173899218,-0.322984,-23.862155
11.185,2.0,1.0,1.0,33.0,33.4,33.4,3.0,3.5,2.805,0.050295163233058215,-0.06066162117488766,0.9609936093513854,-0.026458726784611215,-0.33371,-23.585362
11.185,2.0,1.0,1.0,33.0,33.4,33.4,3.0,3.5,2.8075,0.0358443585410285,-0.062205352282821924,0.9603830424848314,-0.02835320307949678,-0.345065,-23.303661
11.185,2.0,1.0,1.0,33.0,33.4,33.4,3.0,3.5,2.81,0.02119342357422107,-0.06379550913634997,0.95948681758091,-0.030374214553599007,-0.357101,-23.016854
11.185,2.0,1.0,1.0,33.0,33.4,33.4,3.0,3.5,2.8125,0.00634026084722066,-0.0654330262990517,0.958288931709075,-0.0325322170594408,-0.36988,-22.724729
11.185,2.0,1.0,1.0,33.0,33.4,33.4,3.0,3.5,2.815,-0.008717029090173762,-0.067118674419055,0.9567721080551047,-0.03483873908198938,-0.383469,-22.427062
11.185,2.0,1.0,1.0,33.0,33.4,33.4,3.0,3.5,2.8175,-0.023980090684770965,-0.06885300629626753,0.9549176556508571,-0.03730651288491556,-0.397944,-22.123616
11.185,2.0,1.0,1.0,33.0,33.4,33.4,3.0,3.5,2.82,-0.03945024285998675,-0.07063628955035436,0.9527053101970017,-0.03994962390471947,-0.413388,-21.81414
11.185,2.0,1.0,1.0,33.0,33.4,33.4,3.0,3.5,2.8225,-0.05512839160281787,-0.07246842255885881,0.9501130531641321,-0.04278368112648356,-0.429898,-21.49837
11.185,2.0,1.0,1.0,33.0,33.4,33.4,3.0,3.5,2.825,-0.07101492144059397,-0.07434882946193,0.9471169059440068,-0.045826011574914505,-0.44758,-21.176023
11.185,2.0,1.0,1.0,33.0,33.4,33.4,3.0,3.5,2.8275,-0.08710956046936214,-0.07627632891345336,0.9436906953657705,-0.04909588249457738,-0.466559,-20.846802
