1,w,sub_t,h,l1,l2,l3,g1,g2,Freq,S11_re,S21_re,S11_img,S21_img,S11_dB,S21_dB
11.185,2.0,1.0,1.0,34.1,34.7,34.7,1.6,2.7,2.5,0.751659682468252,-0.0212185479315659,0.644237247196814,0.0147218816228997,-0.087589,-31.758998
11.185,2.0,1.0,1.0,34.1,34.7,34.7,1.6,2.7,2.5025,0.7463575835704986,-0.02169313406520424,0.6501611189109575,0.014776312657469629,-0.088807,-31.61824
11.185,2.0,1.0,1.0,34.1,34.7,34.7,1.6,2.7,2.505,0.7409742842256798,-0.022178689181840003,0.65607534098843,0.01482784215357949,-0.090054,-31.476669
11.185,2.0,1.0,1.0,34.1,34.7,34.7,1.6,2.7,2.5075,0.7355086853061613,-0.022675519793462346,0.6619792490014577,0.014876296501962717,-0.091332,-31.334271
11.185,2.0,1.0,1.0,34.1,34.7,34.7,1.6,2.7,2.51,0.7299596645964568,-0.023183942954993188,0.6678721538025879,0.014921492924134375,-0.092642,-31.191029
11.185,2.0,1.0,1.0,34.1,34.7,34.7,1.6,2.7,2.5125,0.7243260761827078,-0.023704286691997065,0.6737533404842532,0.01496323894616639,-0.093984,-31.046925
11.185,2.0,1.0,1.0,34.1,34.7,34.7,1.6,2.7,2.515,0.7186067498214793,-0.024236890448098954,0.6796220672868465,0.015001331838676238,-0.09536,-30.901944
11.185,2.0,1.0,1.0,34.1,34.7,34.7,1.6,2.7,2.5175,0.7128004902870053,-0.024782105553095683,0.6854775644521639,0.015035558020593625,-0.096771,-30.756066
11.185,2.0,1.0,1.0,34.1,34.7,34.7,1.6,2.7,2.52,0.7069060766959808,-0.025340295712797428,0.6913190330189544,0.015065692424073894,-0.098218,-30.609274
11.185,2.0,1.0,1.0,34.1,34.7,34.7,1.6,2.7,2.5225,0.7009222618089604,-0.02591183752168424,0.6971456435569369,0.01509149781771094,-0.099703,-30.46155
11.185,2.0,1.0,1.0,34.1,34.7,34.7,1.6,2.7,2.525,0.6948477713073755,-0.026497120999520386,0.7029565348355251,0.015112724084973701,-0.101226,-30.312874
11.185,2.0,1.0,1.0,34.1,34.7,34.7,1.6,2.7,2.5275,0.6886813030451319,-0.02709655015312094,0.7087508124231064,0.015129107454532394,-0.10279,-30.163228
11.185,2.0,1.0,1.0,34.1,34.7,34.7,1.6,2.7,2.53,0.6824215262737361,-0.02771054356452404,0.7145275472124744,0.015140369678866138,-0.104395,-30.012591
11.185,2.0,1.0,1.0,34.1,34.7,34.7,1.6,2.7,2.5325,0.6760670808398143,-0.028339535006880186,0.7202857738676303,0.015146217157239895,-0.106043,-29.860943
11.185,2.0,1.0,1.0,34.1,34.7,34.7,1.6,2.7,2.535,0.6696165763538721,-0.028983974089431198,0.7260244891868635,0.015146339998807589,-0.107737,-29.708264
11.185,2.0,1.0,1.0,34.1,34.7,34.7,1.6,2.7,2.5375,0.663068591329095,-0.029644326933011445,0.7317426503765488,0.015140411021238672,-0.109476,-29.554531
11.185,2.0,1.0,1.0,34.1,34.7,34.7,1.6,2.7,2.54,0.6564216722889227,-0.030321076877567864,0.7374391732297149,0.01512808467986636,-0.111264,-29.399724
11.185,2.0,1.0,1.0,34.1,34.7,34.7,1.6,2.7,2.5425,0.6496743328421177,-0.031014725223257433,0.7431129302029572,0.015108995921925064,-0.113102,-29.243819
11.185,2.0,1.0,1.0,34.1,34.7,34.7,1.6,2.7,2.545,0.6428250527239798,-0.03172579200674335,0.7487627483847208,0.015082758959968244,-0.114991,-29.086794
11.185,2.0,1.0,1.0,34.1,34.7,34.7,1.6,2.7,2.5475,0.6358722768023389,-0.03245481681437316,0.7543874073474339,0.015048965958036158,-0.116935,-28.928625
11.185,2.0,1.0,1.0,34.1,34.7,34.7,1.6,2.7,2.55,0.628814414046893,-0.03320235963398477,0.7599856368753704,0.015007185623572996,-0.118935,-28.769287
11.185,2.0,1.0,1.0,34.1,34.7,34.7,1.6,2.7,2.5525,0.6216498364604642,-0.03396900174714074,0.7655561145593814,0.014956961697462391,-0.120994,-28.608757
11.185,2.0,1.0,1.0,34.1,34.7,34.7,1.6,2.7,2.555,0.6143768779706752,-0.03475534666364964,0.7710974632489654,0.014897811333860736,-0.123113,-28.447007
11.185,2.0,1.0,1.0,34.1,34.7,34.7,1.6,2.7,2.5575,0.6069938332805457,-0.035562021100282254,0.7766082483512772,0.014829223360748862,-0.125295,-28.284013
11.185,2.0,1.0,1.0,34.1,34.7,34.7,1.6,2.7,2.56,0.5994989566765121,-0.036389676005629555,0.7820869749658002,0.014750656411283057,-0.127544,-28.119747
11.185,2.0,1.0,1.0,34.1,34.7,34.7,1.6,2.7,2.5625,0.591890460792336,-0.0372389876330895,0.78753208484242,0.0146615369151091,-0.129861,-27.95418
11.185,2.0,1.0,1.0,34.1,34.7,34.7,1.6,2.7,2.565,0.5841665153274023,-0.03811065866398771,0.7929419531495678,0.014561256937781396,-0.132249,-27.787286
11.185,2.0,1.0,1.0,34.1,34.7,34.7,1.6,2.7,2.5675,0.576325245717939,-0.03900541938284623,0.7983148850378791,0.014449171855312222,-0.134713,-27.619034
11.185,2.0,1.0,1.0,34.1,34.7,34.7,1.6,2.7,2.57,0.568364731759718,-0.039924028906807504,0.8036491119835402,0.014324597849633598,-0.137254,-27.449393
11.185,2.0,1.0,1.0,34.1,34.7,34.7,1.6,2.7,2.5725,0.5602830061808861,-0.040867276471185536,0.8089427878940186,0.01418680920938565,-0.139876,-27.278334
11.185,2.0,1.0,1.0,34.1,34.7,34.7,1.6,2.7,2.575,0.5520780531636815,-0.041835982773058514,0.8141939849573063,0.014035035418930312,-0.142584,-27.105824
11.185,2.0,1.0,1.0,34.1,34.7,34.7,1.6,2.7,2.5775,0.5437478068139167,-0.04283100137472425,0.8194006892140072,0.013868458016810385,-0.14538,-26.931829
11.185,2.0,1.0,1.0,34.1,34.7,34.7,1.6,2.7,2.58,0.5352901495773174,-0.0438532201687046,0.8245607958296699,0.013686207203014666,-0.148269,-26.756317
11.185,2.0,1.0,1.0,34.1,34.7,34.7,1.6,2.7,2.5825,0.5267029106020119,-0.0449035629058027,0.8296721040426253,0.01348735817234564,-0.151255,-26.579251
11.185,2.0,1.0,1.0,34.1,34.7,34.7,1.6,2.7,2.585,0.5179838640468132,-0.045982990787472006,0.8347323117601582,0.013270927148899363,-0.154343,-26.400597
11.185,2.0,1.0,1.0,34.1,34.7,34.7,1.6,2.7,2.5875,0.5091307273352672,-0.04709250412344018,0.8397390097732443,0.013035867094118964,-0.157537,-26.220316
11.185,2.0,1.0,1.0,34.1,34.7,34.7,1.6,2.7,2.59,0.5001411593559587,-0.048233144055124216,0.8446896755570754,0.01278106305805698,-0.160844,-26.03837
11.185,2.0,1.0,1.0,34.1,34.7,34.7,1.6,2.7,2.5925,0.49101275861011634,-0.049405994344867483,0.8495816666214067,0.012505327140330204,-0.164267,-25.85472
11.185,2.0,1.0,1.0,34.1,34.7,34.7,1.6,2.7,2.595,0.4817430613082976,-0.05061218323038755,0.8544122133710619,0.012207393023745742,-0.167813,-25.669324
11.185,2.0,1.0,1.0,34.1,34.7,34.7,1.6,2.7,2.5975,0.47232953941878614,-0.05185288534304051,0.859178411432926,0.011885910039662115,-0.171489,-25.482141
11.185,2.0,1.0,1.0,34.1,34.7,34.7,1.6,2.7,2.6,0.4627695986714154,-0.05312932368753367,0.8638772134012489,0.011539436719788982,-0.1753,-25.293127
11.185,2.0,1.0,1.0,34.1,34.7,34.7,1.6,2.7,2.6025,0.4530605765218182,-0.05444277167952914,0.8685054199480315,0.011166433784252203,-0.179254,-25.102236
11.185,2.0,1.0,1.0,34.1,34.7,34.7,1.6,2.7,2.605,0.44319974008263924,-0.05579455523613407,0.8730596702397114,0.010765256510305193,-0.183358,-24.909423
11.185,2.0,1.0,1.0,34.1,34.7,34.7,1.6,2.7,2.6075,0.43318428403016107,-0.05718605491250573,0.8775364315950696,0.010334146419970906,-0.18762,-24.714639
11.185,2.0,1.0,1.0,34.1,34.7,34.7,1.6,2.7,2.61,0.4230113284970328,-0.058618708075663474,0.8819319883122793,0.009871222218079005,-0.192049,-24.517834
11.185,2.0,1.0,1.0,34.1,34.7,34.7,1.6,2.7,2.6125,0.41267791696451595,-0.06009401110401309,0.8862424295852235,0.009374469904511294,-0.196654,-24.318956
11.185,2.0,1.0,1.0,34.1,34.7,34.7,1.6,2.7,2.615,0.4021810141709429,-0.061613521597963926,0.8904636364204002,0.008841731975901764,-0.201444,-24.117953
11.185,2.0,1.0,1.0,34.1,34.7,34.7,1.6,2.7,2.6175,0.39151750405701147,-0.0631788605832497,0.8945912674559278,0.008270695622411109,-0.206431,-23.914769
11.185,2.0,1.0,1.0,34.1,34.7,34.7,1.6,2.7,2.62,0.38068418777324814,-0.06479171468402432,0.8986207435731318,0.00765887981439303,-0.211625,-23.709346
11.185,2.0,1.0,1.0,34.1,34.7,34.7,1.6,2.7,2.6225,0.36967778178062116,-0.06645383823733951,0.9025472311788301,0.007003621161624544,-0.217039,-23.501627
11.185,2.0,1.0,1.0,34.1,34.7,34.7,1.6,2.7,2.625,0.358494916082099,-0.0681670553140287,0.906365624022522,0.00630205841412259,-0.222685,-23.291548
11.185,2.0,1.0,1.0,34.1,34.7,34.7,1.6,2.7,2.6275,0.3471321326310349,-0.0699332616031188,0.9100705233970826,0.005551115458200569,-0.228578,-23.079046
11.185,2.0,1.0,1.0,34.1,34.7,34.7,1.6,2.7,2.63,0.335585883972061,-0.0717544261073688,0.9136562165539871,0.0047474826441269,-0.234732,-22.864056
11.185,2.0,1.0,1.0,34.1,34.7,34.7,1.6,2.7,2.6325,0.32385253218186794,-0.07363259258609736,0.9171166531443445,0.003887596262271896,-0.241165,-22.646509
11.185,2.0,1.0,1.0,34.1,34.7,34.7,1.6,2.7,2.635,0.31192834819129406,-0.07556988066769318,0.9204454194747612,0.0029676159626834736,-0.247893,-22.426333
11.185,2.0,1.0,1.0,34.1,34.7,34.7,1.6,2.7,2.6375,0.2998095115870589,-0.07756848653763888,0.9236357103420263,0.0019833998883123176,-0.254935,-22.203455
11.185,2.0,1.0,1.0,34.1,34.7,34.7,1.6,2.7,2.64,0.28749211101171157,-0.07963068308794229,0.9266802981824527,0.0009304772642415293,-0.262313,-21.977798
11.185,2.0,1.0,1.0,34.1,34.7,34.7,1.6,2.7,2.6425,0.2749721453048364,-0.08175881938984443,0.9295714992399253,-0.000195981846113745,-0.270048,-21.749283
11.185,2.0,1.0,1.0,34.1,34.7,34.7,1.6,2.7,2.645,0.2622455255578505,-0.08395531932272962,0.9323011364210404,-0.0014011999422366486,-0.278166,-21.517826
11.185,2.0,1.0,1.0,34.1,34.7,34.7,1.6,2.7,2.6475,0.24930807829018112,-0.08622267915723572,0.9348604984655231,-0.0026908290093812176,-0.286691,-21.283342
11.185,2.0,1.0,1.0,34.1,34.7,34.7,1.6,2.7,2.65,0.23615554999717872,-0.08856346384841401,0.9372402950149801,-0.004070991372089878,-0.295653,-21.045741
11.185,2.0,1.0,1.0,34.1,34.7,34.7,1.6,2.7,2.6525,0.22278361337173336,-0.09098030174382916,0.9394306071123091,-0.005548324937675834,-0.305084,-20.804931
11.185,2.0,1.0,1.0,34.1,34.7,34.7,1.6,2.7,2.655,0.20918787556364582,-0.09347587734989513,0.9414208326073152,-0.007130033345452577,-0.315018,-20.560814
11.185,2.0,1.0,1.0,34.1,34.7,34.7,1.6,2.7,2.6575,0.19536388891616277,-0.0960529217251211,0.9431996258804833,-0.008823941600680759,-0.325491,-20.313291
11.185,2.0,1.0,1.0,34.1,34.7,34.7,1.6,2.7,2.66,0.1813071647101819,-0.09871419997853069,0.9447548312259911,-0.01063855784274389,-0.336546,-20.062256
11.185,2.0,1.0,1.0,34.1,34.7,34.7,1.6,2.7,2.6625,0.1670131905571509,-0.10146249524178994,0.9460734091562456,-0.012583141975518583,-0.348226,-19.807602
11.185,2.0,1.0,1.0,34.1,34.7,34.7,1.6,2.7,2.665,0.15247745221577577,-0.10430058835030455,0.9471413548031415,-0.014667781974738472,-0.360583,-19.549214
11.185,2.0,1.0,1.0,34.1,34.7,34.7,1.6,2.7,2.6675,0.13769546077074843,-0.1072312323064468,0.9479436074954326,-0.016903478782660974,-0.373669,-19.286975
11.185,2.0,1.0,1.0,34.1,34.7,34.7,1.6,2.7,2.67,0.12266278630993574,-0.11025712040073707,0.9484639504872956,-0.019302240804558786,-0.387545,-19.020763
11.185,2.0,1.0,1.0,34.1,34.7,34.7,1.6,2.7,2.6725,0.10737509947812415,-0.11338084662627497,0.9486848997005999,-0.021877189134011744,-0.402279,-18.750452
11.185,2.0,1.0,1.0,34.1,34.7,34.7,1.6,2.7,2.675,0.09182822258000294,-0.11660485672823907,0.9485875802239208,-0.0246426747535482,-0.417942,-18.475907
11.185,2.0,1.0,1.0,34.1,34.7,34.7,1.6,2.7,2.6775,0.07601819226462846,-0.11993138787187324,0.9481515891869859,-0.027614409081750384,-0.434617,-18.196994
11.185,2.0,1.0,1.0,34.1,34.7,34.7,1.6,2.7,2.68,0.059941336262937524,-0.12336239447426009,0.9473548435038442,-0.030809609363831154,-0.452395,-17.913568
11.185,2.0,1.0,1.0,34.1,34.7,34.7,1.6,2.7,2.6825,0.04359436718703923,-0.12689945720926374,0.946173410857286,-0.03424716052416262,-0.471376,-17.625483
11.185,2.0,1.0,1.0,34.1,34.7,34.7,1.6,2.7,2.685,0.026974497057065453,-0.13054367153908455,0.9445813221899633,-0.037947795207459424,-0.491673,-17.332584
11.185,2.0,1.0,1.0,34.1,34.7,34.7,1.6,2.7,2.6875,0.0100795770255609,-0.134295511322769,0.942550363887392,-0.0419342938171262,-0.513412,-17.034715
11.185,2.0,1.0,1.0,34.1,34.7,34.7,1.6,2.7,2.69,-0.007091732246482681,-0.13815466206871507,0.9400498478040035,-0.046231706395419854,-0.536735,-16.731711
11.185,2.0,1.0,1.0,34.1,34.7,34.7,1.6,2.7,2.6925,-0.024539752903882148,-0.14211981719471622,0.9370463573235245,-0.0508675981527984,-0.561801,-16.423404
11.185,2.0,1.0,1.0,34.1,34.7,34.7,1.6,2.7,2.695,-0.04226353677194937,-0.14618842918727587,0.9335034677990985,-0.0558723203033482,-0.588788,-16.10962
11.185,2.0,1.0,1.0,34.1,34.7,34.7,1.6,2.7,2.6975,-0.06026055686552072,-0.15035640575470166,0.9293814400431066,-0.06127930754332899,-0.6179,-15.790183
11.185,2.0,1.0,1.0,34.1,34.7,34.7,1.6,2.7,2.7,-0.07852633141856309,-0.15461773887877858,0.924636886111104,-0.06712540294134822,-0.649364,-15.464911
11.185,2.0,1.0,1.0,34.1,34.7,34.7,1.6,2.7,2.7025,-0.09705396566568837,-0.15896405201090505,0.9192224075595322,-0.07345121008074612,-0.683442,-15.13362
11.185,2.0,1.0,1.0,34.1,34.7,34.7,1.6,2.7,2.705,-0.1158335933995881,-0.16338404744495552,0.9130862078074578,-0.08030147085315117,-0.720428,-14.796125
11.185,2.0,1.0,1.0,34.1,34.7,34.7,1.6,2.7,2.7075,-0.13485169647993145,-0.1678628320406733,0.9061716824120338,-0.0877254651334544,-0.760662,-14.45224
11.185,2.0,1.0,1.0,34.1,34.7,34.7,1.6,2.7,2.71,-0.15409027589329094,-0.1723810948807381,0.898416994269579,-0.09577742537681282,-0.804529,-14.101782
11.185,2.0,1.0,1.0,34.1,34.7,34.7,1.6,2.7,2.7125,-0.17352584259274909,-0.17691410505223273,0.8897546453807105,-0.10451695456600882,-0.852473,-13.744571
11.185,2.0,1.0,1.0,34.1,34.7,34.7,1.6,2.7,2.715,-0.19312819015577398,-0.1814304915227417,0.8801110634137835,-0.11400942935720149,-0.905007,-13.380438
11.185,2.0,1.0,1.0,34.1,34.7,34.7,1.6,2.7,2.7175,-0.21285890435375987,-0.18589076009330124,0.869406230597915,-0.12432636099068507,-0.96272,-13.009221
11.185,2.0,1.0,1.0,34.1,34.7,34.7,1.6,2.7,2.72,-0.23266955724798308,-0.1902454948728092,0.8575533954470651,-0.13554567357691072,-1.026297,-12.630781
11.185,2.0,1.0,1.0,34.1,34.7,34.7,1.6,2.7,2.7225,-0.2524995259080262,-0.19443318411920266,0.8444589257287756,-0.14775184146429945,-1.096534,-12.244997
11.185,2.0,1.0,1.0,34.1,34.7,34.7,1.6,2.7,2.725,-0.2722733692282211,-0.19837760356412368,0.8300223855652422,-0.16103580291840272,-1.174356,-11.851786
11.185,2.0,1.0,1.0,34.1,34.7,34.7,1.6,2.7,2.7275,-0.29189769224520207,-0.20198468612199794,0.8141369525911598,-0.17549453428156592,-1.260849,-11.451104
11.185,2.0,1.0,1.0,34.1,34.7,34.7,1.6,2.7,2.73,-0.31125742858479005,-0.20513880792373207,0.796690335042374,-0.19123012477337561,-1.357283,-11.042964
11.185,2.0,1.0,1.0,34.1,34.7,34.7,1.6,2.7,2.7325,-0.33021148259731486,-0.20769843131036542,0.7775664060442388,-0.20834813458000465,-1.465153,-10.627451
11.185,2.0,1.0,1.0,34.1,34.7,34.7,1.6,2.7,2.735,-0.3485877001986475,-0.2094910725914128,0.7566478454990541,-0.22695494554155343,-1.586222,-10.204741
11.185,2.0,1.0,1.0,34.1,34.7,34.7,1.6,2.7,2.7375,-0.3661771916162725,-0.2103076162175541,0.7338201699947965,-0.2471537233765845,-1.722575,-9.775128
11.185,2.0,1.0,1.0,34.1,34.7,34.7,1.6,2.7,2.74,-0.38272812479193985,-0.20989609220621844,0.708977636421196,-0.2690385045690249,-1.876682,-9.339049
11.185,2.0,1.0,1.0,34.1,34.7,34.7,1.6,2.7,2.7425,-0.39793926511861755,-0.20795519024813092,0.6820316181075097,-0.2926858070777151,-2.051477,-8.897122
11.185,2.0,1.0,1.0,34.1,34.7,34.7,1.6,2.7,2.745,-0.4114537809138897,-0.20412802744275402,0.6529221554680283,-0.3181430596365418,-2.250442,-8.450187
11.185,2.0,1.0,1.0,34.1,34.7,34.7,1.6,2.7,2.7475,-0.422854193260279,-0.19799704595352233,0.6216334410538811,-0.3454130848004496,-2.477719,-7.99935
11.185,2.0,1.0,1.0,34.1,34.7,34.7,1.6,2.7,2.75,-0.431659848800724,-0.189081417570181,0.588213949430853,-0.374433918137683,-2.738224,-7.546045
11.185,2.0,1.0,1.0,34.1,34.7,34.7,1.6,2.7,2.7525,-0.4373289413717601,-0.17683898127519115,0.5528016663472481,-0.4050534992221165,-3.03778,-7.09208
11.185,2.0,1.0,1.0,34.1,34.7,34.7,1.6,2.7,2.755,-0.4392678627030892,-0.16067549775031043,0.5156542672210627,-0.43699937166045616,-3.38324,-6.639706
11.185,2.0,1.0,1.0,34.1,34.7,34.7,1.6,2.7,2.7575,-0.43685139156066144,-0.1399647397421683,0.4771829663820731,-0.4698446557390995,-3.782602,-6.191665
11.185,2.0,1.0,1.0,34.1,34.7,34.7,1.6,2.7,2.76,-0.42945765170017225,-0.11408336684509764,0.43798694039760133,-0.5029733751761809,-4.245045,-5.751229
11.185,2.0,1.0,1.0,34.1,34.7,34.7,1.6,2.7,2.7625,-0.416521396794603,-0.08246417228510516,0.3988826713225377,-0.5355507810067963,-4.780811,-5.322218
11.185,2.0,1.0,1.0,34.1,34.7,34.7,1.6,2.7,2.765,-0.3976073380731975,-0.044669458904750665,0.3609195102028934,-0.5665073722513679,-5.400733,-4.90897
11.185,2.0,1.0,1.0,34.1,34.7,34.7,1.6,2.7,2.7675,-0.3725012144904145,-0.00048229426240106607,0.3253700226888392,-0.5945480720565973,-6.115031,-4.516258
11.185,2.0,1.0,1.0,34.1,34.7,34.7,1.6,2.7,2.77,-0.3413098113354084,0.04999310097766819,0.29368275929434917,-0.6181989672806995,-6.930564,-4.149125
11.185,2.0,1.0,1.0,34.1,34.7,34.7,1.6,2.7,2.7725,-0.3045529427334452,0.10623878843574741,0.2673880564258572,-0.6359010898436462,-7.844976,-3.81265
11.185,2.0,1.0,1.0,34.1,34.7,34.7,1.6,2.7,2.775,-0.263223057311661,0.16726272978670215,0.24795610030587592,-0.6461521170931271,-8.834965,-3.511626
11.185,2.0,1.0,1.0,34.1,34.7,34.7,1.6,2.7,2.7775,-0.21878583332700985,0.23159730413958776,0.2366206987880615,-0.6476826526650652,-9.835659,-3.250194
11.185,2.0,1.0,1.0,34.1,34.7,34.7,1.6,2.7,2.78,-0.1731022557319993,0.29737638224135443,0.23419847103065206,-0.6396374373890901,-10.71536,-3.031469
11.185,2.0,1.0,1.0,34.1,34.7,34.7,1.6,2.7,2.7825,-0.1282706018913233,0.36249271438681446,0.24094443604672935,-0.6217204779398084,-11.277996,-2.857228
11.185,2.0,1.0,1.0,34.1,34.7,34.7,1.6,2.7,2.785,-0.08641106323366805,0.42481305988386986,0.2564836242939688,-0.5942643299142839,-11.351881,-2.72771
11.185,2.0,1.0,1.0,34.1,34.7,34.7,1.6,2.7,2.7875,-0.04943646971334397,0.48240765069578634,0.27984128487305254,-0.5582007457968209,-10.9283,-2.641575
11.185,2.0,1.0,1.0,34.1,34.7,34.7,1.6,2.7,2.79,-0.01885933208233853,0.5337437034571726,0.3095667069439953,-0.5149374465153058,-10.168826,-2.596034
11.185,2.0,1.0,1.0,34.1,34.7,34.7,1.6,2.7,2.7925,0.004325923175606767,0.5778039253543112,0.34391934543210895,-0.466172178173558,-9.270181,-2.587114
11.185,2.0,1.0,1.0,34.1,34.7,34.7,1.6,2.7,2.795,0.01967070516468823,0.6141149719060341,0.3810722065617856,-0.4136890704116372,-8.368298,-2.610009
11.185,2.0,1.0,1.0,34.1,34.7,34.7,1.6,2.7,2.7975,0.02722060668212337,0.6426962815220948,0.4192904879649558,-0.3591793854813249,-7.531434,-2.65946
11.185,2.0,1.0,1.0,34.1,34.7,34.7,1.6,2.7,2.8,0.027411674504823264,0.6639565095143591,0.45705884171816463,-0.30411343541889857,-6.784965,-2.730095
11.185,2.0,1.0,1.0,34.1,34.7,34.7,1.6,2.7,2.8025,0.020946163198255603,0.678569107910452,0.49314952415652363,-0.2496715518968955,-6.1326,-2.816711
11.185,2.0,1.0,1.0,34.1,34.7,34.7,1.6,2.7,2.805,0.008673661471828959,0.6873529859319281,0.526638590380027,-0.1967270608454581,-5.568569,-2.914468
11.185,2.0,1.0,1.0,34.1,34.7,34.7,1.6,2.7,2.8075,-0.008506656740283539,0.6911740731999904,0.5568849655890074,-0.14586648752162745,-5.083677,-3.019006
11.185,2.0,1.0,1.0,34.1,34.7,34.7,1.6,2.7,2.81,-0.02971671178046536,0.6908737947101319,0.5834883776109746,-0.0974310206214874,-4.668106,-3.1265
11.185,2.0,1.0,1.0,34.1,34.7,34.7,1.6,2.7,2.8125,-0.05414413618994,0.687223492602392,0.606239318962331,-0.0515660518294554,-4.312614,-3.233657
11.185,2.0,1.0,1.0,34.1,34.7,34.7,1.6,2.7,2.815,-0.08106550441341949,0.680900138639842,0.6250699767490453,-0.008269825530876925,-4.008988,-3.337691
11.185,2.0,1.0,1.0,34.1,34.7,34.7,1.6,2.7,2.8175,-0.10985395362411304,0.6724775524940552,0.6400111003420366,0.032563797999354445,-3.750148,-3.436273
11.185,2.0,1.0,1.0,34.1,34.7,34.7,1.6,2.7,2.82,-0.13997655187613137,0.6624277463093616,0.6511568048272093,0.07111048364386147,-3.530098,-3.527469
11.185,2.0,1.0,1.0,34.1,34.7,34.7,1.6,2.7,2.8225,-0.17098567723284053,0.651128095460248,0.6586374298603945,0.10758859591785484,-3.343821,-3.609689
11.185,2.0,1.0,1.0,34.1,34.7,34.7,1.6,2.7,2.825,-0.20250745770921433,0.6388712391907246,0.6625995820338797,0.14223953321909286,-3.187158,-3.681622
11.185,2.0,1.0,1.0,34.1,34.7,34.7,1.6,2.7,2.8275,-0.23422926111749312,0.6258756669390746,0.6631921009228589,0.1753139482586886,-3.056694,-3.742192
11.185,2.0,1.0,1.0,34.1,34.7,34.7,1.6,2.7,2.83,-0.2658874091466003,0.6122957523333747,0.6605566569724394,0.2070625359008535,-2.949653,-3.790513
