1,w,sub_t,h,l1,l2,l3,g1,g2,Freq,S11_re,S21_re,S11_img,S21_img,S11_dB,S21_dB
11.185,2.0,1.0,1.0,33.6,34.8,34.8,2.3,3.2,2.5,0.830337384427236,-0.0108929257005126,0.543649405181132,0.00875480131794149,-0.065572,-37.092925
11.185,2.0,1.0,1.0,33.6,34.8,34.8,2.3,3.2,2.5025,0.8264817585274942,-0.011135688612665237,0.5493333961814474,0.008809728480112987,-0.066346,-36.954774
11.185,2.0,1.0,1.0,33.6,34.8,34.8,2.3,3.2,2.505,0.8225669939957581,-0.011383973609433391,0.5550165712697216,0.008864079176099507,-0.067138,-36.815886
11.185,2.0,1.0,1.0,33.6,34.8,34.8,2.3,3.2,2.5075,0.8185923749549323,-0.011637939500853841,0.5606986531785526,0.008917806669757274,-0.067947,-36.676243
11.185,2.0,1.0,1.0,33.6,34.8,34.8,2.3,3.2,2.51,0.8145571699744679,-0.011897751049756976,0.5663793548723264,0.008970861641125033,-0.068774,-36.535828
11.185,2.0,1.0,1.0,33.6,34.8,34.8,2.3,3.2,2.5125,0.8104606316064011,-0.012163579248018839,0.5720583791526154,0.009023192031702845,-0.06962,-36.394621
11.185,2.0,1.0,1.0,33.6,34.8,34.8,2.3,3.2,2.515,0.8063019959017972,-0.012435601608106282,0.5777354182448817,0.009074742879259332,-0.070485,-36.252605
11.185,2.0,1.0,1.0,33.6,34.8,34.8,2.3,3.2,2.5175,0.8020804819065017,-0.012714002470897568,0.583410153365359,0.009125456141363494,-0.071371,-36.109761
11.185,2.0,1.0,1.0,33.6,34.8,34.8,2.3,3.2,2.52,0.7977952911349994,-0.012998973330833467,0.5890822542669262,0.009175270506769636,-0.072277,-35.966068
11.185,2.0,1.0,1.0,33.6,34.8,34.8,2.3,3.2,2.5225,0.7934456070211229,-0.01329071317952995,0.5947513787626643,0.009224121193706226,-0.073205,-35.821507
11.185,2.0,1.0,1.0,33.6,34.8,34.8,2.3,3.2,2.525,0.7890305943442393,-0.013589428869069387,0.600417172225725,0.009271939734037704,-0.074155,-35.676057
11.185,2.0,1.0,1.0,33.6,34.8,34.8,2.3,3.2,2.5275,0.7845493986294582,-0.013895335496276728,0.6060792670640076,0.009318653742175874,-0.075128,-35.529697
11.185,2.0,1.0,1.0,33.6,34.8,34.8,2.3,3.2,2.53,0.7800011455203029,-0.014208656809385751,0.6117372821680296,0.009364186667517808,-0.076125,-35.382406
11.185,2.0,1.0,1.0,33.6,34.8,34.8,2.3,3.2,2.5325,0.7753849401221615,-0.014529625638608112,0.6173908223302522,0.009408457529075742,-0.077146,-35.23416
11.185,2.0,1.0,1.0,33.6,34.8,34.8,2.3,3.2,2.535,0.7706998663147113,-0.014858484352232639,0.6230394776339766,0.009451380630843942,-0.078193,-35.084938
11.185,2.0,1.0,1.0,33.6,34.8,34.8,2.3,3.2,2.5375,0.7659449860313952,-0.015195485340008507,0.6286828228097763,0.009492865256312755,-0.079266,-34.934716
11.185,2.0,1.0,1.0,33.6,34.8,34.8,2.3,3.2,2.54,0.76111933850385,-0.015540891525702429,0.6343204165572607,0.00953281534039257,-0.080367,-34.78347
11.185,2.0,1.0,1.0,33.6,34.8,34.8,2.3,3.2,2.5425,0.7562219394690615,-0.015894976910868046,0.6399518008297813,0.009571129116847443,-0.081496,-34.631175
11.185,2.0,1.0,1.0,33.6,34.8,34.8,2.3,3.2,2.545,0.7512517803368243,-0.016258027152027458,0.6455765000794889,0.009607698739158432,-0.082654,-34.477805
11.185,2.0,1.0,1.0,33.6,34.8,34.8,2.3,3.2,2.5475,0.7462078273149196,-0.016630340173638788,0.6511940204599166,0.009642409872536555,-0.083842,-34.323335
11.185,2.0,1.0,1.0,33.6,34.8,34.8,2.3,3.2,2.55,0.7410890204891954,-0.017012226819417314,0.6568038489830429,0.00967514125458601,-0.085062,-34.167738
11.185,2.0,1.0,1.0,33.6,34.8,34.8,2.3,3.2,2.5525,0.7358942728555481,-0.017404011544781835,0.6624054526274784,0.009705764221874181,-0.086315,-34.010985
11.185,2.0,1.0,1.0,33.6,34.8,34.8,2.3,3.2,2.555,0.7306224693005262,-0.017806033153428703,0.66799827739416,0.009734142199392514,-0.087602,-33.853049
11.185,2.0,1.0,1.0,33.6,34.8,34.8,2.3,3.2,2.5575,0.7252724655270373,-0.018218645581280064,0.6735817473055776,0.009760130149594677,-0.088925,-33.693899
11.185,2.0,1.0,1.0,33.6,34.8,34.8,2.3,3.2,2.56,0.7198430869213566,-0.018642218731324017,0.6791552633441991,0.00978357397736196,-0.090284,-33.533506
11.185,2.0,1.0,1.0,33.6,34.8,34.8,2.3,3.2,2.5625,0.7143331273573108,-0.01907713936315852,0.684718202325357,0.009804309886875612,-0.091681,-33.371839
11.185,2.0,1.0,1.0,33.6,34.8,34.8,2.3,3.2,2.565,0.7087413479331731,-0.019523812041372955,0.6902699156994119,0.009822163685962284,-0.093119,-33.208865
11.185,2.0,1.0,1.0,33.6,34.8,34.8,2.3,3.2,2.5675,0.7030664756364496,-0.01998266014725262,0.6958097282774854,0.009836950033016557,-0.094597,-33.04455
11.185,2.0,1.0,1.0,33.6,34.8,34.8,2.3,3.2,2.57,0.6973072019313087,-0.020454126958676346,0.7013369368745338,0.009848471621090997,-0.096119,-32.878862
11.185,2.0,1.0,1.0,33.6,34.8,34.8,2.3,3.2,2.5725,0.6914621812629743,-0.020938676803499118,0.7068508088628829,0.009856518293168469,-0.097686,-32.711763
11.185,2.0,1.0,1.0,33.6,34.8,34.8,2.3,3.2,2.575,0.6855300294729187,-0.021436796292172093,0.7123505806286716,0.009860866081987808,-0.0993,-32.543219
11.185,2.0,1.0,1.0,33.6,34.8,34.8,2.3,3.2,2.5775,0.6795093221181527,-0.02194899563585786,0.7178354559228738,0.009861276167073779,-0.100963,-32.373191
11.185,2.0,1.0,1.0,33.6,34.8,34.8,2.3,3.2,2.58,0.6733985926873337,-0.022475810056853267,0.7233046040976963,0.00985749374081446,-0.102676,-32.201639
11.185,2.0,1.0,1.0,33.6,34.8,34.8,2.3,3.2,2.5825,0.6671963307057641,-0.023017801298740013,0.7287571582182168,0.009849246774520651,-0.104443,-32.028524
11.185,2.0,1.0,1.0,33.6,34.8,34.8,2.3,3.2,2.585,0.6609009797206681,-0.023575559244349006,0.7341922130380001,0.009836244674383548,-0.106266,-31.853804
11.185,2.0,1.0,1.0,33.6,34.8,34.8,2.3,3.2,2.5875,0.6545109351573438,-0.024149703650359105,0.7396088228262562,0.009818176816097287,-0.108147,-31.677436
11.185,2.0,1.0,1.0,33.6,34.8,34.8,2.3,3.2,2.59,0.6480245420359679,-0.024740886008152614,0.7450059990327124,0.00979471094562001,-0.110089,-31.499374
11.185,2.0,1.0,1.0,33.6,34.8,34.8,2.3,3.2,2.5925,0.6414400925378758,-0.025349791541436996,0.7503827077748476,0.00976549143208483,-0.112094,-31.319573
11.185,2.0,1.0,1.0,33.6,34.8,34.8,2.3,3.2,2.595,0.6347558234091557,-0.025977141352110936,0.7557378671303993,0.009730137357223041,-0.114167,-31.137985
11.185,2.0,1.0,1.0,33.6,34.8,34.8,2.3,3.2,2.5975,0.6279699131882337,-0.02662369472692592,0.7610703442160982,0.009688240423790743,-0.116309,-30.954559
11.185,2.0,1.0,1.0,33.6,34.8,34.8,2.3,3.2,2.6,0.621080479242928,-0.027290251618666255,0.7663789520313866,0.009639362663373705,-0.118525,-30.769244
11.185,2.0,1.0,1.0,33.6,34.8,34.8,2.3,3.2,2.6025,0.6140855746010904,-0.02797765531686696,0.7716624460433342,0.009583033921539834,-0.120818,-30.581986
11.185,2.0,1.0,1.0,33.6,34.8,34.8,2.3,3.2,2.605,0.6069831845574439,-0.02868679532451153,0.7769195204861721,0.00951874909557426,-0.123192,-30.39273
11.185,2.0,1.0,1.0,33.6,34.8,34.8,2.3,3.2,2.6075,0.5997712230376102,-0.029418610458718207,0.7821488043455933,0.00944596509692032,-0.125651,-30.201418
11.185,2.0,1.0,1.0,33.6,34.8,34.8,2.3,3.2,2.61,0.5924475286985107,-0.03017409219514634,0.7873488569943105,0.009364097506897748,-0.1282,-30.007989
11.185,2.0,1.0,1.0,33.6,34.8,34.8,2.3,3.2,2.6125,0.5850098607423322,-0.030954288277752096,0.7925181634411742,0.00927251689021565,-0.130843,-29.812381
11.185,2.0,1.0,1.0,33.6,34.8,34.8,2.3,3.2,2.615,0.5774558944190801,-0.031760306617606385,0.7976551291513506,0.009170544726156192,-0.133586,-29.61453
11.185,2.0,1.0,1.0,33.6,34.8,34.8,2.3,3.2,2.6175,0.5697832161903447,-0.03259331950677945,0.8027580743895874,0.00905744891198657,-0.136433,-29.414366
11.185,2.0,1.0,1.0,33.6,34.8,34.8,2.3,3.2,2.62,0.5619893185242738,-0.03345456817581332,0.8078252280323232,0.008932438787051675,-0.139391,-29.211821
11.185,2.0,1.0,1.0,33.6,34.8,34.8,2.3,3.2,2.6225,0.5540715942888483,-0.03434536772606502,0.812854720787171,0.008794659618974507,-0.142466,-29.006819
11.185,2.0,1.0,1.0,33.6,34.8,34.8,2.3,3.2,2.625,0.546027330707427,-0.0352671124712237,0.817844577750014,0.00864318648530101,-0.145665,-28.799285
11.185,2.0,1.0,1.0,33.6,34.8,34.8,2.3,3.2,2.6275,0.5378537028370164,-0.036221281725617595,0.8227927102203931,0.008477017474582566,-0.148995,-28.589138
11.185,2.0,1.0,1.0,33.6,34.8,34.8,2.3,3.2,2.63,0.5295477665259943,-0.03720944608053013,0.827696906684814,0.008295066120085893,-0.152464,-28.376295
11.185,2.0,1.0,1.0,33.6,34.8,34.8,2.3,3.2,2.6325,0.5211064508038715,-0.038233274213672785,0.832554822864806,0.008096152966798796,-0.15608,-28.160668
11.185,2.0,1.0,1.0,33.6,34.8,34.8,2.3,3.2,2.635,0.5125265496512215,-0.03929454028121681,0.8373639707117597,0.007878996157864103,-0.159852,-27.942167
11.185,2.0,1.0,1.0,33.6,34.8,34.8,2.3,3.2,2.6375,0.5038047130931046,-0.04039513194637662,0.8421217062133153,0.007642200909658557,-0.163791,-27.720696
11.185,2.0,1.0,1.0,33.6,34.8,34.8,2.3,3.2,2.64,0.49493743755408826,-0.041537059103465564,0.8468252158560277,0.007384247725015735,-0.167906,-27.496155
11.185,2.0,1.0,1.0,33.6,34.8,34.8,2.3,3.2,2.6425,0.4859210554074941,-0.04272246336158199,0.8514715015655958,0.007103479171052767,-0.17221,-27.26844
11.185,2.0,1.0,1.0,33.6,34.8,34.8,2.3,3.2,2.645,0.47675172364561585,-0.04395362835761093,0.8560573639185632,0.006798085021084663,-0.176716,-27.03744
11.185,2.0,1.0,1.0,33.6,34.8,34.8,2.3,3.2,2.6475,0.4674254115915812,-0.04523299097396805,0.8605793833872609,0.006466085528458041,-0.181436,-26.803041
11.185,2.0,1.0,1.0,33.6,34.8,34.8,2.3,3.2,2.65,0.4579378875672362,-0.04656315354237893,0.8650338993420487,0.006105312562905361,-0.186387,-26.565122
11.185,2.0,1.0,1.0,33.6,34.8,34.8,2.3,3.2,2.6525,0.4482847044252071,-0.04794689712080937,0.8694169864904286,0.005713388296140212,-0.191584,-26.323557
11.185,2.0,1.0,1.0,33.6,34.8,34.8,2.3,3.2,2.655,0.4384611838471434,-0.04938719593624601,0.8737244283801501,0.005287701071560246,-0.197045,-26.078212
11.185,2.0,1.0,1.0,33.6,34.8,34.8,2.3,3.2,2.6575,0.4284623993046429,-0.050887233091010155,0.877951687531289,0.004825378031516067,-0.20279,-25.828947
11.185,2.0,1.0,1.0,33.6,34.8,34.8,2.3,3.2,2.66,0.4182831575747199,-0.05245041763424945,0.8820938716886156,0.004323254002697521,-0.208841,-25.575615
11.185,2.0,1.0,1.0,33.6,34.8,34.8,2.3,3.2,2.6625,0.40791797869869056,-0.05408040310252201,0.8861456955978857,0.0037778360534161458,-0.215222,-25.31806
11.185,2.0,1.0,1.0,33.6,34.8,34.8,2.3,3.2,2.665,0.3973610742727777,-0.05578110763309785,0.8901014376052099,0.0031852630330405046,-0.221958,-25.056119
11.185,2.0,1.0,1.0,33.6,34.8,34.8,2.3,3.2,2.6675,0.38660632396192274,-0.05755673574948832,0.893954890253666,0.002541259280013399,-0.229078,-24.789619
11.185,2.0,1.0,1.0,33.6,34.8,34.8,2.3,3.2,2.67,0.37564725013676886,-0.05941180190911222,0.8976993039016208,0.001841081536398382,-0.236615,-24.518377
11.185,2.0,1.0,1.0,33.6,34.8,34.8,2.3,3.2,2.6725,0.3644769905499822,-0.06135115588554434,0.9013273222072357,0.0010794579284032642,-0.244605,-24.242201
11.185,2.0,1.0,1.0,33.6,34.8,34.8,2.3,3.2,2.675,0.353088268995142,-0.0633800100292863,0.904830908106866,0.0002505176571976031,-0.253086,-23.960886
11.185,2.0,1.0,1.0,33.6,34.8,34.8,2.3,3.2,2.6775,0.34147336393365196,-0.06550396840705212,0.9082012586532244,-0.000652290215591239,-0.262103,-23.674217
11.185,2.0,1.0,1.0,33.6,34.8,34.8,2.3,3.2,2.68,0.32962407513859693,-0.06772905775414083,0.9114287067621094,-0.001636290818161242,-0.271706,-23.381965
11.185,2.0,1.0,1.0,33.6,34.8,34.8,2.3,3.2,2.6825,0.31753168849732033,-0.07006176007931503,0.914502607531645,-0.002709692667332357,-0.281949,-23.083888
11.185,2.0,1.0,1.0,33.6,34.8,34.8,2.3,3.2,2.685,0.3051869392480125,-0.07250904662537079,0.9174112063297076,-0.003881714793828177,-0.292895,-22.779727
11.185,2.0,1.0,1.0,33.6,34.8,34.8,2.3,3.2,2.6875,0.29257997411540415,-0.07507841269563685,0.9201414852741584,-0.005162735139456441,-0.304614,-22.469211
11.185,2.0,1.0,1.0,33.6,34.8,34.8,2.3,3.2,2.69,0.2797003130780924,-0.07777791258544788,0.9226789840327051,-0.006564464265098681,-0.317185,-22.152048
11.185,2.0,1.0,1.0,33.6,34.8,34.8,2.3,3.2,2.6925,0.2665368118747727,-0.08061619347844416,0.9250075900149516,-0.008100149257477407,-0.330698,-21.827929
11.185,2.0,1.0,1.0,33.6,34.8,34.8,2.3,3.2,2.695,0.2530776268799041,-0.08360252663906884,0.9271092919818774,-0.00978481376364796,-0.345255,-21.496525
11.185,2.0,1.0,1.0,33.6,34.8,34.8,2.3,3.2,2.6975,0.23931018470805346,-0.08674683349758794,0.9289638898126509,-0.011635541359716358,-0.360973,-21.157486
11.185,2.0,1.0,1.0,33.6,34.8,34.8,2.3,3.2,2.7,0.2252211599203446,-0.09005970320235276,0.930548651590515,-0.013671811028717243,-0.377987,-20.810439
11.185,2.0,1.0,1.0,33.6,34.8,34.8,2.3,3.2,2.7025,0.21079646561735244,-0.09355239679413148,0.9318379072326252,-0.015915895447269044,-0.396448,-20.454986
11.185,2.0,1.0,1.0,33.6,34.8,34.8,2.3,3.2,2.705,0.19602126366724712,-0.09723683118224366,0.932802565515121,-0.018393335138678725,-0.416536,-20.090702
11.185,2.0,1.0,1.0,33.6,34.8,34.8,2.3,3.2,2.7075,0.18088000405630605,-0.10112553335119048,0.9334095384448127,-0.021133504430119895,-0.438455,-19.717136
11.185,2.0,1.0,1.0,33.6,34.8,34.8,2.3,3.2,2.71,0.16535650667269544,-0.10523155138768125,0.9336210534044419,-0.02417028864996958,-0.462446,-19.333803
11.185,2.0,1.0,1.0,33.6,34.8,34.8,2.3,3.2,2.7125,0.14943410418457964,-0.10956830355008264,0.9333938292508387,-0.027542896214901153,-0.488789,-18.940192
11.185,2.0,1.0,1.0,33.6,34.8,34.8,2.3,3.2,2.715,0.13309587217654115,-0.11414933907898334,0.9326780874930841,-0.03129683426321716,-0.517813,-18.535754
11.185,2.0,1.0,1.0,33.6,34.8,34.8,2.3,3.2,2.7175,0.11632498325409409,-0.11898797387869414,0.931416363791894,-0.0354850823159303,-0.549906,-18.119909
11.185,2.0,1.0,1.0,33.6,34.8,34.8,2.3,3.2,2.72,0.09910523668115691,-0.1240967493195559,0.929542078391371,-0.040169504994725075,-0.58553,-17.69204
11.185,2.0,1.0,1.0,33.6,34.8,34.8,2.3,3.2,2.7225,0.08142183607856705,-0.12948664142296049,0.926977817048671,-0.04542255175880356,-0.625235,-17.251497
11.185,2.0,1.0,1.0,33.6,34.8,34.8,2.3,3.2,2.725,0.06326251732994069,-0.13516591805260064,0.9236332673505241,-0.051329298143970685,-0.669682,-16.797598
11.185,2.0,1.0,1.0,33.6,34.8,34.8,2.3,3.2,2.7275,0.04461917069298236,-0.14113849987616228,0.919402750620103,-0.05798988745757603,-0.719667,-16.329629
11.185,2.0,1.0,1.0,33.6,34.8,34.8,2.3,3.2,2.73,0.025490160166221576,-0.14740162183121927,0.9141622900507715,-0.06552243115033268,-0.776159,-15.846856
11.185,2.0,1.0,1.0,33.6,34.8,34.8,2.3,3.2,2.7325,0.00588362615315831,-0.15394250891611053,0.907766167038826,-0.07406641433284229,-0.840338,-15.348533
11.185,2.0,1.0,1.0,33.6,34.8,34.8,2.3,3.2,2.735,-0.01417782679340277,-0.1607336645752972,0.9000429503321274,-0.08378661967893099,-0.913658,-14.833918
11.185,2.0,1.0,1.0,33.6,34.8,34.8,2.3,3.2,2.7375,-0.034650496143507216,-0.16772621112125613,0.890791054894451,-0.09487750987352941,-0.997917,-14.302303
11.185,2.0,1.0,1.0,33.6,34.8,34.8,2.3,3.2,2.74,-0.0554602265112391,-0.17484050843219492,0.8797740309699958,-0.10756786409195097,-1.095353,-13.75305
11.185,2.0,1.0,1.0,33.6,34.8,34.8,2.3,3.2,2.7425,-0.07648928268605398,-0.1819530025075551,0.8667160522651519,-0.12212519414219213,-1.20877,-13.185647
11.185,2.0,1.0,1.0,33.6,34.8,34.8,2.3,3.2,2.745,-0.09755806911787746,-0.18887792759665967,0.8512985535252051,-0.13885898279942788,-1.341698,-12.599794
11.185,2.0,1.0,1.0,33.6,34.8,34.8,2.3,3.2,2.7475,-0.11839997798323627,-0.1953421536827571,0.8331598011282362,-0.1581209516773336,-1.498601,-11.995524
11.185,2.0,1.0,1.0,33.6,34.8,34.8,2.3,3.2,2.75,-0.13862744783732,-0.200951278636948,0.811900570722959,-0.180299174370791,-1.685141,-11.373368
11.185,2.0,1.0,1.0,33.6,34.8,34.8,2.3,3.2,2.7525,-0.1576875906740373,-0.2051453527344519,0.7871013188056448,-0.20580063904837925,-1.908486,-10.734594
11.185,2.0,1.0,1.0,33.6,34.8,34.8,2.3,3.2,2.755,-0.17480721434145402,-0.20714411170275301,0.7583595155875423,-0.23501359230215627,-2.177663,-10.081536
11.185,2.0,1.0,1.0,33.6,34.8,34.8,2.3,3.2,2.7575,-0.18893108546085252,-0.20588563923976674,0.7253600964687367,-0.26823672957853684,-2.503856,-9.418024
11.185,2.0,1.0,1.0,33.6,34.8,34.8,2.3,3.2,2.76,-0.1986660591584909,-0.19997118906148234,0.6879961962227079,-0.3055581448490949,-2.900461,-8.749931
11.185,2.0,1.0,1.0,33.6,34.8,34.8,2.3,3.2,2.7625,-0.2022599904239331,-0.18764519119936063,0.6465578195668623,-0.3466665684866951,-3.382383,-8.085813
11.185,2.0,1.0,1.0,33.6,34.8,34.8,2.3,3.2,2.765,-0.19766919286191198,-0.16686424290314986,0.6019944573218498,-0.3905892371218687,-3.963464,-7.437547
11.185,2.0,1.0,1.0,33.6,34.8,34.8,2.3,3.2,2.7675,-0.18279456629309862,-0.13553497292415398,0.5562196707514768,-0.435388915558342,-4.649666,-6.820761
11.185,2.0,1.0,1.0,33.6,34.8,34.8,2.3,3.2,2.77,-0.15596781463722642,-0.09200139524774842,0.5123483891322987,-0.47792987433742834,-5.423802,-6.254694
11.185,2.0,1.0,1.0,33.6,34.8,34.8,2.3,3.2,2.7725,-0.11669328017281924,-0.03578570397770252,0.4746560154288009,-0.5139236657808894,-6.217554,-5.761021
11.185,2.0,1.0,1.0,33.6,34.8,34.8,2.3,3.2,2.775,-0.06645313400803879,0.0316115524832835,0.4480082742506464,-0.5385040884790758,-6.879763,-5.36128
11.185,2.0,1.0,1.0,33.6,34.8,34.8,2.3,3.2,2.7775,-0.009130378487550052,0.10629761288813491,0.4366836741075712,-0.547405818141336,-7.194763,-5.073062
11.185,2.0,1.0,1.0,33.6,34.8,34.8,2.3,3.2,2.78,0.04944260144460927,0.18244857065254608,0.4429463384431814,-0.5383854283597991,-7.019201,-4.906007
11.185,2.0,1.0,1.0,33.6,34.8,34.8,2.3,3.2,2.7825,0.10287965476971504,0.2537086431917792,0.4661255184504427,-0.5121293385598077,-6.423372,-4.859246
11.185,2.0,1.0,1.0,33.6,34.8,34.8,2.3,3.2,2.785,0.14596092657497,0.31490426808742183,0.5028122717660413,-0.47204484752677256,-5.620517,-4.921562
11.185,2.0,1.0,1.0,33.6,34.8,34.8,2.3,3.2,2.7875,0.175776470214591,0.3631756383530747,0.5480606276654356,-0.42305412330215236,-4.798208,-5.074193
11.185,2.0,1.0,1.0,33.6,34.8,34.8,2.3,3.2,2.79,0.19184677313487294,0.3980865649963552,0.5968565260377782,-0.37012908201644884,-4.0556,-5.294889
11.185,2.0,1.0,1.0,33.6,34.8,34.8,2.3,3.2,2.7925,0.19546666893261153,0.42096383612653204,0.6451511363318987,-0.31726595040603534,-3.425357,-5.561611
11.185,2.0,1.0,1.0,33.6,34.8,34.8,2.3,3.2,2.795,0.18882094374783298,0.43401386193179187,0.6902346356935486,-0.2671182888493622,-2.906646,-5.854943
11.185,2.0,1.0,1.0,33.6,34.8,34.8,2.3,3.2,2.7975,0.1742728292829679,0.43961476353725343,0.7306242193230466,-0.22111249741123618,-2.485802,-6.159122
11.185,2.0,1.0,1.0,33.6,34.8,34.8,2.3,3.2,2.8,0.1539506415112432,0.43990664943912694,0.7657433145939778,-0.17976921046605324,-2.146249,-6.462091
11.185,2.0,1.0,1.0,33.6,34.8,34.8,2.3,3.2,2.8025,0.12958291658327095,0.4366293600236326,0.7955878045283008,-0.14303600985345122,-1.872526,-6.755025
11.185,2.0,1.0,1.0,33.6,34.8,34.8,2.3,3.2,2.805,0.10248377338683946,0.43110933576320853,0.8204645518578991,-0.11054717227097499,-1.651567,-7.031683
11.185,2.0,1.0,1.0,33.6,34.8,34.8,2.3,3.2,2.8075,0.07360742795946298,0.4243148311615387,0.8408161750561867,-0.08179702811464694,-1.472823,-7.28777
11.185,2.0,1.0,1.0,33.6,34.8,34.8,2.3,3.2,2.81,0.0436228268588952,0.4169307555833586,0.857116099039718,-0.05624308401796555,-1.327972,-7.520401
11.185,2.0,1.0,1.0,33.6,34.8,34.8,2.3,3.2,2.8125,0.0129846913042436,0.409429649750543,0.86981193226996,-0.03336084806342,-1.210525,-7.727676
11.185,2.0,1.0,1.0,33.6,34.8,34.8,2.3,3.2,2.815,-0.018007690212300326,0.40213025243370953,0.8792987596399837,-0.012668684378580977,-1.11545,-7.908357
11.185,2.0,1.0,1.0,33.6,34.8,34.8,2.3,3.2,2.8175,-0.049165182796351174,0.3952424386050099,0.8859094770409469,0.006264536027795578,-1.038858,-8.061638
11.185,2.0,1.0,1.0,33.6,34.8,34.8,2.3,3.2,2.82,-0.08037532509213714,0.3889002368990831,0.8899140172437079,0.02382095169632522,-0.977756,-8.186972
11.185,2.0,1.0,1.0,33.6,34.8,34.8,2.3,3.2,2.8225,-0.11157813649935143,0.3831853952729153,0.8915226363431124,0.04033968369456645,-0.929853,-8.283954
11.185,2.0,1.0,1.0,33.6,34.8,34.8,2.3,3.2,2.825,-0.14274881779069118,0.3781438130607712,0.8908905402929171,0.05612467700155303,-0.893419,-8.352228
11.185,2.0,1.0,1.0,33.6,34.8,34.8,2.3,3.2,2.8275,-0.17388536287102668,0.3737967085327032,0.888122387541434,0.07145309957968367,-0.867174,-8.391429
11.185,2.0,1.0,1.0,33.6,34.8,34.8,2.3,3.2,2.83,-0.20499953407032545,0.37014790652688284,0.8832759122646813,0.08658372760612068,-0.850219,-8.401135
