1,w,sub_t,h,l1,l2,l3,g1,g2,Freq,S11_re,S21_re,S11_img,S21_img,S11_dB,S21_dB
11.185,2.0,1.0,1.0,34.0,33.5,33.5,3.5,4.0,2.5,0.789033533903878,-0.00710660018316168,0.60292704388747,0.00356545180104462,-0.060813,-41.991715
11.185,2.0,1.0,1.0,34.0,33.5,33.5,3.5,4.0,2.5025,0.7845417652404345,-0.00723118767502438,0.6086528316644471,0.00355182497267022,-0.061389,-41.877183
11.185,2.0,1.0,1.0,34.0,33.5,33.5,3.5,4.0,2.505,0.779986296874637,-0.007357590622407613,0.6143715667929451,0.0035368581473422664,-0.061975,-41.762422
11.185,2.0,1.0,1.0,34.0,33.5,33.5,3.5,4.0,2.5075,0.7753664973468996,-0.007485834423338626,0.6200827952039866,0.003520509430630132,-0.062571,-41.647426
11.185,2.0,1.0,1.0,34.0,33.5,33.5,3.5,4.0,2.51,0.7706817272642863,-0.007615944787219163,0.6257860497148068,0.0035027356458751063,-0.063176,-41.532191
11.185,2.0,1.0,1.0,34.0,33.5,33.5,3.5,4.0,2.5125,0.7659313392602206,-0.007747947733564732,0.6314808496442095,0.0034834922918715494,-0.063791,-41.416709
11.185,2.0,1.0,1.0,34.0,33.5,33.5,3.5,4.0,2.515,0.7611146779577829,-0.00788186959033785,0.6371667004169542,0.0034627334990434615,-0.064417,-41.300975
11.185,2.0,1.0,1.0,34.0,33.5,33.5,3.5,4.0,2.5175,0.756231079936874,-0.00801773699184645,0.6428430931568582,0.003440411984058686,-0.065053,-41.184981
11.185,2.0,1.0,1.0,34.0,33.5,33.5,3.5,4.0,2.52,0.751279873705501,-0.008155576876177531,0.6485095042683197,0.0034164790028203464,-0.065699,-41.068723
11.185,2.0,1.0,1.0,34.0,33.5,33.5,3.5,4.0,2.5225,0.7462603796755004,-0.008295416482133396,0.6541653950059313,0.0033908843017727386,-0.066357,-40.952194
11.185,2.0,1.0,1.0,34.0,33.5,33.5,3.5,4.0,2.525,0.7411719101429798,-0.008437283345636832,0.6598102110318733,0.003363576067456075,-0.067025,-40.835387
11.185,2.0,1.0,1.0,34.0,33.5,33.5,3.5,4.0,2.5275,0.7360137692738102,-0.008581205295569192,0.6654433819607565,0.003334500874241929,-0.067705,-40.718296
11.185,2.0,1.0,1.0,34.0,33.5,33.5,3.5,4.0,2.53,0.7307852530945069,-0.008727210449002857,0.6710643208915664,0.0033036036301777997,-0.068397,-40.600916
11.185,2.0,1.0,1.0,34.0,33.5,33.5,3.5,4.0,2.5325,0.7254856494888505,-0.008875327205787908,0.6766724239263773,0.0032708275208667595,-0.0691,-40.483238
11.185,2.0,1.0,1.0,34.0,33.5,33.5,3.5,4.0,2.535,0.7201142382006173,-0.009025584242450263,0.6822670696754777,0.0032361139513043475,-0.069816,-40.365257
11.185,2.0,1.0,1.0,34.0,33.5,33.5,3.5,4.0,2.5375,0.7146702908428221,-0.00917801050535509,0.6878476187485473,0.003199402485592068,-0.070543,-40.246966
11.185,2.0,1.0,1.0,34.0,33.5,33.5,3.5,4.0,2.54,0.7091530709138708,-0.009332635203088564,0.69341341323152,0.003160630784442508,-0.071284,-40.128359
11.185,2.0,1.0,1.0,34.0,33.5,33.5,3.5,4.0,2.5425,0.7035618338210635,-0.009489487798005871,0.6989637761487618,0.003119734540388225,-0.072037,-40.009429
11.185,2.0,1.0,1.0,34.0,33.5,33.5,3.5,4.0,2.545,0.6978958269118972,-0.009648597996892326,0.7044980109101793,0.003076647410601996,-0.072804,-39.890169
11.185,2.0,1.0,1.0,34.0,33.5,33.5,3.5,4.0,2.5475,0.6921542895136538,-0.009809995740679695,0.7100154007428644,0.0030313009472320235,-0.073584,-39.770572
11.185,2.0,1.0,1.0,34.0,33.5,33.5,3.5,4.0,2.55,0.6863364529817517,-0.009973711193157821,0.7155152081068957,0.00298362452515179,-0.074378,-39.650632
11.185,2.0,1.0,1.0,34.0,33.5,33.5,3.5,4.0,2.5525,0.6804415407574189,-0.010139774728616654,0.7209966740948687,0.0029335452670187227,-0.075185,-39.53034
11.185,2.0,1.0,1.0,34.0,33.5,33.5,3.5,4.0,2.555,0.6744687684352053,-0.010308216918351043,0.726459017814765,0.002880987965532302,-0.076008,-39.409692
11.185,2.0,1.0,1.0,34.0,33.5,33.5,3.5,4.0,2.5575,0.6684173438409304,-0.01047906851595641,0.731901435755738,0.0028258750027759633,-0.076845,-39.288678
11.185,2.0,1.0,1.0,34.0,33.5,33.5,3.5,4.0,2.56,0.6622864671206686,-0.01065236044133819,0.7373231011363796,0.00276812626652254,-0.077697,-39.167293
11.185,2.0,1.0,1.0,34.0,33.5,33.5,3.5,4.0,2.5625,0.6560753308414063,-0.010828123763355025,0.7427231632350499,0.0027076590633772655,-0.078564,-39.045528
11.185,2.0,1.0,1.0,34.0,33.5,33.5,3.5,4.0,2.565,0.649783120104033,-0.011006389681009171,0.7481007467018288,0.002644388028626125,-0.079448,-38.923376
11.185,2.0,1.0,1.0,34.0,33.5,33.5,3.5,4.0,2.5675,0.643409012669376,-0.011187189503093272,0.7534549508516337,0.002578225032651524,-0.080347,-38.800831
11.185,2.0,1.0,1.0,34.0,33.5,33.5,3.5,4.0,2.57,0.6369521790979965,-0.011370554626197927,0.7587848489380709,0.0025090790837700005,-0.081263,-38.677884
11.185,2.0,1.0,1.0,34.0,33.5,33.5,3.5,4.0,2.5725,0.6304117829045238,-0.011556516510976387,0.76408948740755,0.002436856227340703,-0.082196,-38.554527
11.185,2.0,1.0,1.0,34.0,33.5,33.5,3.5,4.0,2.575,0.6237869807273233,-0.01174510665655957,0.7693678851332071,0.0023614594409847207,-0.083146,-38.430754
11.185,2.0,1.0,1.0,34.0,33.5,33.5,3.5,4.0,2.5775,0.6170769225143469,-0.011936356573005364,0.774619032628164,0.0022827885257487314,-0.084113,-38.306556
11.185,2.0,1.0,1.0,34.0,33.5,33.5,3.5,4.0,2.58,0.6102807517260443,-0.012130297751660583,0.7798418912376506,0.002200739993037344,-0.085099,-38.181925
11.185,2.0,1.0,1.0,34.0,33.5,33.5,3.5,4.0,2.5825,0.6033976055562534,-0.012326961633306904,0.7850353923095222,0.0021152069471302762,-0.086103,-38.056853
11.185,2.0,1.0,1.0,34.0,33.5,33.5,3.5,4.0,2.585,0.5964266151720434,-0.012526379573952494,0.7901984363426761,0.0020260789630906586,-0.087127,-37.931332
11.185,2.0,1.0,1.0,34.0,33.5,33.5,3.5,4.0,2.5875,0.5893669059735117,-0.012728582808124693,0.7953298921128961,0.0019332419598617468,-0.088169,-37.805353
11.185,2.0,1.0,1.0,34.0,33.5,33.5,3.5,4.0,2.59,0.582217597874604,-0.012933602409508804,0.8004285957756263,0.001836578068337938,-0.089232,-37.678909
11.185,2.0,1.0,1.0,34.0,33.5,33.5,3.5,4.0,2.5925,0.5749778056060509,-0.013141469248768693,0.8054933499451918,0.0017359654941857992,-0.090315,-37.551991
11.185,2.0,1.0,1.0,34.0,33.5,33.5,3.5,4.0,2.595,0.5676466390415962,-0.01335221394837525,0.8105229227499605,0.0016312783751784518,-0.091418,-37.42459
11.185,2.0,1.0,1.0,34.0,33.5,33.5,3.5,4.0,2.5975,0.5602232035487075,-0.013565866834257794,0.8155160468629675,0.0015223866327939504,-0.092544,-37.296697
11.185,2.0,1.0,1.0,34.0,33.5,33.5,3.5,4.0,2.6,0.5527066003650485,-0.013782457884081074,0.8204714185074945,0.0014091558178161462,-0.093691,-37.168303
11.185,2.0,1.0,1.0,34.0,33.5,33.5,3.5,4.0,2.6025,0.5450959270020387,-0.014002016671939463,0.8253876964371116,0.0012914469496605927,-0.09486,-37.039399
11.185,2.0,1.0,1.0,34.0,33.5,33.5,3.5,4.0,2.605,0.5373902776768691,-0.01422457230924592,0.8302635008896888,0.00116911634913462,-0.096053,-36.909977
11.185,2.0,1.0,1.0,34.0,33.5,33.5,3.5,4.0,2.6075,0.5295887437744363,-0.01445015338157913,0.8350974125148812,0.0010420154643232661,-0.097269,-36.780026
11.185,2.0,1.0,1.0,34.0,33.5,33.5,3.5,4.0,2.61,0.5216904143406996,-0.014678787881237785,0.8398879712745961,0.0009099906892764899,-0.098509,-36.649537
11.185,2.0,1.0,1.0,34.0,33.5,33.5,3.5,4.0,2.6125,0.5136943766090382,-0.014910503135233972,0.8446336753159531,0.0007728831751539569,-0.099775,-36.518501
11.185,2.0,1.0,1.0,34.0,33.5,33.5,3.5,4.0,2.615,0.5055997165612531,-0.015145325728441105,0.8493329798162589,0.0006305286334647938,-0.101065,-36.386907
11.185,2.0,1.0,1.0,34.0,33.5,33.5,3.5,4.0,2.6175,0.4974055195249507,-0.01538328142159272,0.8539842957995073,0.0004827571310178649,-0.102382,-36.254745
11.185,2.0,1.0,1.0,34.0,33.5,33.5,3.5,4.0,2.62,0.4891108708090892,-0.015624395063808617,0.8585859889239402,0.00032939287617670917,-0.103725,-36.122006
11.185,2.0,1.0,1.0,34.0,33.5,33.5,3.5,4.0,2.6225,0.48071485637957034,-0.015868690499304342,0.8631363782402005,0.0001702539959875041,-0.105096,-35.988678
11.185,2.0,1.0,1.0,34.0,33.5,33.5,3.5,4.0,2.625,0.472216563576846,-0.0161161904679151,0.86763373491961,5.15230372479186e-06,-0.106495,-35.854752
11.185,2.0,1.0,1.0,34.0,33.5,33.5,3.5,4.0,2.6275,0.463615081877566,-0.0163669164990432,0.8720762809521431,-0.00016610694363020732,-0.107923,-35.720215
11.185,2.0,1.0,1.0,34.0,33.5,33.5,3.5,4.0,2.63,0.45490950370241295,-0.016620888798608964,0.8764621878136344,-0.0003437252984921807,-0.109381,-35.585058
11.185,2.0,1.0,1.0,34.0,33.5,33.5,3.5,4.0,2.6325,0.44609892527234507,-0.01687812612855852,0.880789575101814,-0.0005279113869014777,-0.110869,-35.449269
11.185,2.0,1.0,1.0,34.0,33.5,33.5,3.5,4.0,2.635,0.43718244751556956,-0.017138645678449964,0.8850565091407391,-0.0007188811844615717,-0.112389,-35.312836
11.185,2.0,1.0,1.0,34.0,33.5,33.5,3.5,4.0,2.6375,0.4281591770276747,-0.017402462928606022,0.8892610015532261,-0.0009168583046013038,-0.11394,-35.175747
11.185,2.0,1.0,1.0,34.0,33.5,33.5,3.5,4.0,2.64,0.4190282270874268,-0.017669591504287114,0.8934010078009059,-0.0011220742998203925,-0.115525,-35.037991
11.185,2.0,1.0,1.0,34.0,33.5,33.5,3.5,4.0,2.6425,0.4097887187308865,-0.01794004302029731,0.8974744256915155,-0.0013347689766183073,-0.117144,-34.899556
11.185,2.0,1.0,1.0,34.0,33.5,33.5,3.5,4.0,2.645,0.40043978188657664,-0.01821382691539663,0.9014790938530833,-0.0015551907248538583,-0.118798,-34.760428
11.185,2.0,1.0,1.0,34.0,33.5,33.5,3.5,4.0,2.6475,0.39098055657456937,-0.018490950275845023,0.9054127901746658,-0.0017835968623329986,-0.120487,-34.620595
11.185,2.0,1.0,1.0,34.0,33.5,33.5,3.5,4.0,2.65,0.3814101941724614,-0.01877141764735676,0.9092732302133222,-0.0020202539954772935,-0.122214,-34.480044
11.185,2.0,1.0,1.0,34.0,33.5,33.5,3.5,4.0,2.6525,0.37172785875137637,-0.019055230834688158,0.9130580655670181,-0.0022654383969829507,-0.123978,-34.338761
11.185,2.0,1.0,1.0,34.0,33.5,33.5,3.5,4.0,2.655,0.3619327284851987,-0.019342388688025132,0.9167648822131887,-0.0025194364014453226,-0.125781,-34.196732
11.185,2.0,1.0,1.0,34.0,33.5,33.5,3.5,4.0,2.6575,0.3520239971364459,-0.019632886875273835,0.9203911988126928,-0.0027825448199929044,-0.127625,-34.053944
11.185,2.0,1.0,1.0,34.0,33.5,33.5,3.5,4.0,2.66,0.3420008756222757,-0.019926717639287956,0.9239344649789222,-0.0030550713750479653,-0.12951,-33.910382
11.185,2.0,1.0,1.0,34.0,33.5,33.5,3.5,4.0,2.6625,0.3318625936643279,-0.020223869538992183,0.9273920595118342,-0.003337335156414925,-0.131437,-33.766032
11.185,2.0,1.0,1.0,34.0,33.5,33.5,3.5,4.0,2.665,0.3216084015261855,-0.020524327173279927,0.9307612885967221,-0.003629667099983422,-0.133409,-33.620877
11.185,2.0,1.0,1.0,34.0,33.5,33.5,3.5,4.0,2.6675,0.31123757184248446,-0.02082807088647306,0.9340393839675104,-0.003932410490431079,-0.135425,-33.474903
11.185,2.0,1.0,1.0,34.0,33.5,33.5,3.5,4.0,2.67,0.3007494015438049,-0.021135076454034486,0.9372235010344314,-0.004245921489413943,-0.137488,-33.328093
11.185,2.0,1.0,1.0,34.0,33.5,33.5,3.5,4.0,2.6725,0.2901432138816793,-0.021445314747117614,0.9403107169759068,-0.00457056969084769,-0.139599,-33.180431
11.185,2.0,1.0,1.0,34.0,33.5,33.5,3.5,4.0,2.675,0.2794183605582604,-0.021758751374418406,0.9432980287944943,-0.004906738705005657,-0.141759,-33.0319
11.185,2.0,1.0,1.0,34.0,33.5,33.5,3.5,4.0,2.6775,0.26857422396535424,-0.02207534629966815,0.9461823513367565,-0.005254826773296014,-0.14397,-32.882483
11.185,2.0,1.0,1.0,34.0,33.5,33.5,3.5,4.0,2.68,0.2576102195377464,-0.022395053432962313,0.9489605152769175,-0.005615247415727407,-0.146233,-32.732162
11.185,2.0,1.0,1.0,34.0,33.5,33.5,3.5,4.0,2.6825,0.2465257982259864,-0.02271782019396594,0.9516292650641579,-0.005988430113234353,-0.148551,-32.580919
11.185,2.0,1.0,1.0,34.0,33.5,33.5,3.5,4.0,2.685,0.23532044909398567,-0.023043587044863135,0.9541852568334008,-0.006374821027209291,-0.150925,-32.428734
11.185,2.0,1.0,1.0,34.0,33.5,33.5,3.5,4.0,2.6875,0.223993702047072,-0.0233722869907295,0.956625056279415,-0.00677488375878291,-0.153356,-32.275588
11.185,2.0,1.0,1.0,34.0,33.5,33.5,3.5,4.0,2.69,0.2125451306963873,-0.023703845044795516,0.9589451364940282,-0.007189100150602364,-0.155847,-32.121462
11.185,2.0,1.0,1.0,34.0,33.5,33.5,3.5,4.0,2.6925,0.20097435536577724,-0.024038177655838277,0.961141875766219,-0.007617971134093194,-0.158399,-31.966334
11.185,2.0,1.0,1.0,34.0,33.5,33.5,3.5,4.0,2.695,0.18928104624766948,-0.02437519209468004,0.9632115553447775,-0.008062017625439524,-0.161015,-31.810183
11.185,2.0,1.0,1.0,34.0,33.5,33.5,3.5,4.0,2.6975,0.17746492671468875,-0.024714785796487948,0.9651503571631728,-0.00852178147379986,-0.163696,-31.652987
11.185,2.0,1.0,1.0,34.0,33.5,33.5,3.5,4.0,2.7,0.1655257767941739,-0.0250568456552521,0.9669543615261699,-0.008997826465578748,-0.166446,-31.494724
11.185,2.0,1.0,1.0,34.0,33.5,33.5,3.5,4.0,2.7025,0.15346343681307456,-0.02540124726646494,0.9686195447576197,-0.00949073938891209,-0.169266,-31.335369
11.185,2.0,1.0,1.0,34.0,33.5,33.5,3.5,4.0,2.705,0.14127781122115746,-0.02574785411363289,0.9701417768087153,-0.01000113116289198,-0.172158,-31.174899
11.185,2.0,1.0,1.0,34.0,33.5,33.5,3.5,4.0,2.7075,0.12896887260085693,-0.026096516693812074,0.9715168188258438,-0.010529638036465288,-0.175126,-31.013289
11.185,2.0,1.0,1.0,34.0,33.5,33.5,3.5,4.0,2.71,0.11653666587262312,-0.026447071576868486,0.972740320676949,-0.011076922862384141,-0.178172,-30.850511
11.185,2.0,1.0,1.0,34.0,33.5,33.5,3.5,4.0,2.7125,0.10398131270510655,-0.026799340392615945,0.9738078184350998,-0.011643676452084062,-0.181299,-30.686541
11.185,2.0,1.0,1.0,34.0,33.5,33.5,3.5,4.0,2.715,0.09130301614015346,-0.02715312873936804,0.9747147318176568,-0.012230619017903885,-0.184509,-30.521349
11.185,2.0,1.0,1.0,34.0,33.5,33.5,3.5,4.0,2.7175,0.07850206544318077,-0.027508225006752166,0.9754563615791092,-0.012838501709664633,-0.187806,-30.354907
11.185,2.0,1.0,1.0,34.0,33.5,33.5,3.5,4.0,2.72,0.0655788411902686,-0.027864399104855966,0.9760278868552538,-0.013468108253283423,-0.191194,-30.187185
11.185,2.0,1.0,1.0,34.0,33.5,33.5,3.5,4.0,2.7225,0.0525338206040524,-0.028221401090906262,0.9764243624559364,-0.014120256699830849,-0.194675,-30.018152
11.185,2.0,1.0,1.0,34.0,33.5,33.5,3.5,4.0,2.725,0.039367583151451904,-0.028578959683692916,0.9766407161030408,-0.014795801294245674,-0.198253,-29.847775
11.185,2.0,1.0,1.0,34.0,33.5,33.5,3.5,4.0,2.7275,0.0260808164172154,-0.028936780654843477,0.9766717456097882,-0.015495634473814746,-0.201932,-29.676021
11.185,2.0,1.0,1.0,34.0,33.5,33.5,3.5,4.0,2.73,0.01267432226845152,-0.029294545084796404,0.9765121159967088,-0.016220689007512473,-0.205716,-29.502855
11.185,2.0,1.0,1.0,34.0,33.5,33.5,3.5,4.0,2.7325,-0.0008509766734622064,-0.029651907469900422,0.9761563565388154,-0.01697194028838734,-0.209609,-29.328241
11.185,2.0,1.0,1.0,34.0,33.5,33.5,3.5,4.0,2.735,-0.01449403023569444,-0.03000849366545591,0.975598857737566,-0.017750408792392605,-0.213616,-29.152141
11.185,2.0,1.0,1.0,34.0,33.5,33.5,3.5,4.0,2.7375,-0.02825365355200927,-0.030363898647685177,0.9748338682101204,-0.01855716271840154,-0.217741,-28.974515
11.185,2.0,1.0,1.0,34.0,33.5,33.5,3.5,4.0,2.74,-0.04212851955463533,-0.03071768407553627,0.9738554914871559,-0.019393320825629615,-0.22199,-28.795323
11.185,2.0,1.0,1.0,34.0,33.5,33.5,3.5,4.0,2.7425,-0.05611715107643325,-0.031069375630857047,0.972657682709086,-0.020260055486339742,-0.226367,-28.614523
11.185,2.0,1.0,1.0,34.0,33.5,33.5,3.5,4.0,2.745,-0.0702179125373505,-0.03141846011276923,0.9712342452089112,-0.021158595973530744,-0.230879,-28.432069
11.185,2.0,1.0,1.0,34.0,33.5,33.5,3.5,4.0,2.7475,-0.08442900118634795,-0.03176438225898573,0.9695788269680925,-0.022090232005340625,-0.235531,-28.247914
11.185,2.0,1.0,1.0,34.0,33.5,33.5,3.5,4.0,2.75,-0.0987484378667356,-0.0321065412632755,0.967684916929748,-0.0230563175701478,-0.24033,-28.062012
11.185,2.0,1.0,1.0,34.0,33.5,33.5,3.5,4.0,2.7525,-0.11317405726909081,-0.032444286954229136,0.9655458411510919,-0.02405827505885504,-0.245281,-27.874309
11.185,2.0,1.0,1.0,34.0,33.5,33.5,3.5,4.0,2.755,-0.12770349763160702,-0.03277691559581935,0.9631547587743617,-0.02509759973361296,-0.250394,-27.684754
11.185,2.0,1.0,1.0,34.0,33.5,33.5,3.5,4.0,2.7575,-0.1423341898427428,-0.033103665264901265,0.9605046577924102,-0.026175864565330404,-0.255674,-27.493291
11.185,2.0,1.0,1.0,34.0,33.5,33.5,3.5,4.0,2.76,-0.15706334589514906,-0.033423710754621264,0.9575883505817375,-0.027294725475733132,-0.261131,-27.299862
11.185,2.0,1.0,1.0,34.0,33.5,33.5,3.5,4.0,2.7625,-0.17188794663318502,-0.03373615794558554,0.9543984691718247,-0.028455927023536335,-0.266773,-27.104404
11.185,2.0,1.0,1.0,34.0,33.5,33.5,3.5,4.0,2.765,-0.18680472872837975,-0.034040037578399684,0.9509274602152851,-0.02966130857851092,-0.272609,-26.906856
11.185,2.0,1.0,1.0,34.0,33.5,33.5,3.5,4.0,2.7675,-0.20181017080807226,-0.0343342983516503,0.9471675796184336,-0.03091281103189456,-0.278649,-26.707148
11.185,2.0,1.0,1.0,34.0,33.5,33.5,3.5,4.0,2.77,-0.21690047865173334,-0.03461779925832201,0.9431108867863487,-0.03221248409678284,-0.284904,-26.505212
11.185,2.0,1.0,1.0,34.0,33.5,33.5,3.5,4.0,2.7725,-0.23207156935690557,-0.034889301060762545,0.9387492384303405,-0.03356249425786331,-0.291385,-26.300972
11.185,2.0,1.0,1.0,34.0,33.5,33.5,3.5,4.0,2.775,-0.24731905436201163,-0.03514745678929737,0.9340742818788182,-0.03496513343619173,-0.298106,-26.09435
11.185,2.0,1.0,1.0,34.0,33.5,33.5,3.5,4.0,2.7775,-0.2626382211960024,-0.03539080113206927,0.929077447824851,-0.036422828441698946,-0.305078,-25.885266
11.185,2.0,1.0,1.0,34.0,33.5,33.5,3.5,4.0,2.78,-0.2780240138045092,-0.035617738563171714,0.9237499424351434,-0.037938151293806996,-0.312317,-25.673631
11.185,2.0,1.0,1.0,34.0,33.5,33.5,3.5,4.0,2.7825,-0.29347101127819253,-0.0358265300321009,0.9180827387356659,-0.03951383049896583,-0.319837,-25.459356
11.185,2.0,1.0,1.0,34.0,33.5,33.5,3.5,4.0,2.785,-0.3089734047807756,-0.03601527800929963,0.9120665671786489,-0.04115276338314928,-0.327657,-25.242344
11.185,2.0,1.0,1.0,34.0,33.5,33.5,3.5,4.0,2.7875,-0.3245249724407506,-0.036181909649294505,0.905691905284187,-0.042858029587360416,-0.335793,-25.022494
11.185,2.0,1.0,1.0,34.0,33.5,33.5,3.5,4.0,2.79,-0.34011905193118125,-0.03632415779366148,0.89894896623704,-0.04463290584503331,-0.344266,-24.799699
11.185,2.0,1.0,1.0,34.0,33.5,33.5,3.5,4.0,2.7925,-0.3557485104149392,-0.036439539489599125,0.8918276863056279,-0.04648088217179867,-0.353098,-24.573846
11.185,2.0,1.0,1.0,34.0,33.5,33.5,3.5,4.0,2.795,-0.37140571147678964,-0.03652533164480203,0.8843177109354948,-0.048405679610364204,-0.36231,-24.344816
11.185,2.0,1.0,1.0,34.0,33.5,33.5,3.5,4.0,2.7975,-0.387082478596918,-0.0365785433738508,0.8764083793540265,-0.05041126968603876,-0.37193,-24.112482
11.185,2.0,1.0,1.0,34.0,33.5,33.5,3.5,4.0,2.8,-0.4027700546408379,-0.036595884513312076,0.8680887075069269,-0.05250189574148509,-0.381985,-23.87671
11.185,2.0,1.0,1.0,34.0,33.5,33.5,3.5,4.0,2.8025,-0.4184590567450588,-0.03657372968953922,0.8593473691304766,-0.054682096332163116,-0.392506,-23.637359
11.185,2.0,1.0,1.0,34.0,33.5,33.5,3.5,4.0,2.805,-0.43413942586325177,-0.03650807721154915,0.8501726747473527,-0.0569567308760184,-0.403526,-23.394277
11.185,2.0,1.0,1.0,34.0,33.5,33.5,3.5,4.0,2.8075,-0.44980037009979545,-0.03639450192732796,0.8405525483586752,-0.059331007761361826,-0.415083,-23.147306
11.185,2.0,1.0,1.0,34.0,33.5,33.5,3.5,4.0,2.81,-0.4654303007912203,-0.03622810102058403,0.8304745015922561,-0.061810515124237284,-0.427217,-22.896275
11.185,2.0,1.0,1.0,34.0,33.5,33.5,3.5,4.0,2.8125,-0.481016760095012,-0.0360034315302251,0.819925605058623,-0.064401254508974,-0.439973,-22.641003
11.185,2.0,1.0,1.0,34.0,33.5,33.5,3.5,4.0,2.815,-0.49654633860159836,-0.035714438139162544,0.808892456664825,-0.0671096776204021,-0.453402,-22.3813
11.185,2.0,1.0,1.0,34.0,33.5,33.5,3.5,4.0,2.8175,-0.5120045811892566,-0.03535436949305312,0.7973611466451851,-0.06994272635951612,-0.467558,-22.116961
11.185,2.0,1.0,1.0,34.0,33.5,33.5,3.5,4.0,2.82,-0.5273758789811126,-0.03491568096163852,0.7853172190932517,-0.07290787630089175,-0.482505,-21.847768
11.185,2.0,1.0,1.0,34.0,33.5,33.5,3.5,4.0,2.8225,-0.5426433448230844,-0.03438992133087971,0.7727456298277738,-0.07601318371236432,-0.498311,-21.573489
11.185,2.0,1.0,1.0,34.0,33.5,33.5,3.5,4.0,2.825,-0.5577886691626576,-0.033767600394964084,0.7596307005080968,-0.0792673361248498,-0.515054,-21.293877
11.185,2.0,1.0,1.0,34.0,33.5,33.5,3.5,4.0,2.8275,-0.5727919525470336,-0.033038033780808974,0.7459560690457098,-0.08267970631802904,-0.53282,-21.008667
