1,w,sub_t,h,l1,l2,l3,g1,g2,Freq,S11_re,S21_re,S11_img,S21_img,S11_dB,S21_dB
11.185,2.0,1.0,1.0,34.6,33.1,33.1,2.5,2.0,2.5,0.680318172528591,-0.0181885984960436,0.721180882346859,0.009495693480645,-0.074753,-33.757248
11.185,2.0,1.0,1.0,34.6,33.1,33.1,2.5,2.0,2.5025,0.6742721513303174,-0.018513132955724283,0.7267046554673701,0.009458495713886125,-0.075602,-33.64316
11.185,2.0,1.0,1.0,34.6,33.1,33.1,2.5,2.0,2.505,0.6681475474293638,-0.01884277655597603,0.7322064183302162,0.009417503395262719,-0.076465,-33.528718
11.185,2.0,1.0,1.0,34.6,33.1,33.1,2.5,2.0,2.5075,0.6619436060370143,-0.019177602809656455,0.7376853300634099,0.009372583925331125,-0.077342,-33.413917
11.185,2.0,1.0,1.0,34.6,33.1,33.1,2.5,2.0,2.51,0.65565956610065,-0.01951768587017357,0.7431405261530032,0.009323600342168179,-0.078234,-33.298752
11.185,2.0,1.0,1.0,34.6,33.1,33.1,2.5,2.0,2.5125,0.6492946604560691,-0.01986310050362504,0.7485711177934052,0.009270411172155572,-0.07914,-33.183217
11.185,2.0,1.0,1.0,34.6,33.1,33.1,2.5,2.0,2.515,0.6428481159934724,-0.020213922058100478,0.753976191221091,0.00921287027551745,-0.080063,-33.067308
11.185,2.0,1.0,1.0,34.6,33.1,33.1,2.5,2.0,2.5175,0.6363191538378545,-0.02057022642996091,0.759354807031341,0.00915082668642586,-0.081001,-32.951018
11.185,2.0,1.0,1.0,34.6,33.1,33.1,2.5,2.0,2.52,0.6297069895445334,-0.020932090026901082,0.7647059994776776,0.009084124447483587,-0.081955,-32.834344
11.185,2.0,1.0,1.0,34.6,33.1,33.1,2.5,2.0,2.5225,0.6230108333106366,-0.0212995897275861,0.770028775753635,0.009012602438386917,-0.082926,-32.717278
11.185,2.0,1.0,1.0,34.6,33.1,33.1,2.5,2.0,2.525,0.6162298902033445,-0.02167280283764468,0.7753221152565246,0.008936094198563909,-0.083914,-32.599816
11.185,2.0,1.0,1.0,34.6,33.1,33.1,2.5,2.0,2.5275,0.6093633604057664,-0.022051807041785932,0.7805849688328501,0.00885442774357799,-0.084919,-32.481952
11.185,2.0,1.0,1.0,34.6,33.1,33.1,2.5,2.0,2.53,0.6024104394813508,-0.02243668035179433,0.7858162580050151,0.008767425375078373,-0.085942,-32.363681
11.185,2.0,1.0,1.0,34.6,33.1,33.1,2.5,2.0,2.5325,0.5953703186577731,-0.022827501050142657,0.7910148741789897,0.00867490348407275,-0.086984,-32.244997
11.185,2.0,1.0,1.0,34.6,33.1,33.1,2.5,2.0,2.535,0.5882421851312822,-0.023224347628948046,0.7961796778325935,0.00857667234728933,-0.088045,-32.125894
11.185,2.0,1.0,1.0,34.6,33.1,33.1,2.5,2.0,2.5375,0.5810252223925432,-0.023627298723979,0.8013094976840511,0.008472535916388324,-0.089126,-32.006366
11.185,2.0,1.0,1.0,34.6,33.1,33.1,2.5,2.0,2.54,0.5737186105750457,-0.024036433043405542,0.8064031298404959,0.008362291599775258,-0.090226,-31.886408
11.185,2.0,1.0,1.0,34.6,33.1,33.1,2.5,2.0,2.5425,0.5663215268272024,-0.024451829290966162,0.8114593369260928,0.008245730036759168,-0.091347,-31.766014
11.185,2.0,1.0,1.0,34.6,33.1,33.1,2.5,2.0,2.545,0.5588331457093076,-0.024873566083205602,0.8164768471894622,0.008122634863792517,-0.092488,-31.645178
11.185,2.0,1.0,1.0,34.6,33.1,33.1,2.5,2.0,2.5475,0.5512526396165939,-0.02530172186041811,0.8214543535900861,0.007992782472519276,-0.093652,-31.523893
11.185,2.0,1.0,1.0,34.6,33.1,33.1,2.5,2.0,2.55,0.5435791792296373,-0.025736374790909664,0.8263905128634116,0.007855941759350112,-0.094837,-31.402154
11.185,2.0,1.0,1.0,34.6,33.1,33.1,2.5,2.0,2.5525,0.5358119339934816,-0.026177602668168518,0.8312839445643344,0.007711873866274127,-0.096046,-31.279954
11.185,2.0,1.0,1.0,34.6,33.1,33.1,2.5,2.0,2.555,0.5279500726268403,-0.026625482800511933,0.8361332300888099,0.007560331912607868,-0.097277,-31.157287
11.185,2.0,1.0,1.0,34.6,33.1,33.1,2.5,2.0,2.5575,0.5199927636628418,-0.02708009189274998,0.8409369116733122,0.0074010607173721835,-0.098533,-31.034148
11.185,2.0,1.0,1.0,34.6,33.1,33.1,2.5,2.0,2.56,0.5119391760228338,-0.027541505919380656,0.845693491371889,0.007233796511978874,-0.099813,-30.910529
11.185,2.0,1.0,1.0,34.6,33.1,33.1,2.5,2.0,2.5625,0.5037884796248241,-0.02800979998880307,0.8504014300105892,0.007058266642898611,-0.101119,-30.786423
11.185,2.0,1.0,1.0,34.6,33.1,33.1,2.5,2.0,2.565,0.4955398460281929,-0.028485048198005312,0.855059146119042,0.006874189263971413,-0.102451,-30.661826
11.185,2.0,1.0,1.0,34.6,33.1,33.1,2.5,2.0,2.5675,0.4871924491164113,-0.0289673234771505,0.8596650148389934,0.006681273018011295,-0.103809,-30.536729
11.185,2.0,1.0,1.0,34.6,33.1,33.1,2.5,2.0,2.57,0.4787454658195402,-0.029456697423453138,0.8642173668096338,0.006479216707345473,-0.105195,-30.411127
11.185,2.0,1.0,1.0,34.6,33.1,33.1,2.5,2.0,2.5725,0.4701980768783706,-0.02995324012370086,0.8687144870295767,0.006267708952917986,-0.10661,-30.285011
11.185,2.0,1.0,1.0,34.6,33.1,33.1,2.5,2.0,2.575,0.46154946765215665,-0.030457019964739,0.8731546136953541,0.0060464278415763946,-0.108053,-30.158377
11.185,2.0,1.0,1.0,34.6,33.1,33.1,2.5,2.0,2.5775,0.45279882897195106,-0.03096810343119585,0.8775359370163665,0.005815040561149771,-0.109526,-30.031216
11.185,2.0,1.0,1.0,34.6,33.1,33.1,2.5,2.0,2.58,0.4439453580416604,-0.031486554889683924,0.8818565980062063,0.005573203022912808,-0.11103,-29.903521
11.185,2.0,1.0,1.0,34.6,33.1,33.1,2.5,2.0,2.5825,0.4349882593889949,-0.03201243635866803,0.8861146872503601,0.005320559471021559,-0.112565,-29.775286
11.185,2.0,1.0,1.0,34.6,33.1,33.1,2.5,2.0,2.585,0.4259267458686106,-0.03254580726314235,0.8903082436502905,0.005056742078491775,-0.114132,-29.646502
11.185,2.0,1.0,1.0,34.6,33.1,33.1,2.5,2.0,2.5875,0.41676003971979747,-0.03308672417321002,0.8944352531439791,0.004781370529280451,-0.115733,-29.517164
11.185,2.0,1.0,1.0,34.6,33.1,33.1,2.5,2.0,2.59,0.407487373681205,-0.033635240525602475,0.8984936474030119,0.004494051586017893,-0.117369,-29.387263
11.185,2.0,1.0,1.0,34.6,33.1,33.1,2.5,2.0,2.5925,0.3981079921651497,-0.03419140632712233,0.9024813025063934,0.004194378642924286,-0.119039,-29.256792
11.185,2.0,1.0,1.0,34.6,33.1,33.1,2.5,2.0,2.595,0.3886211524942028,-0.03475526783892949,0.9063960375912626,0.0038819312634330292,-0.120746,-29.125742
11.185,2.0,1.0,1.0,34.6,33.1,33.1,2.5,2.0,2.5975,0.3790261262028099,-0.03532686724052949,0.9102356134808031,0.003556274702028471,-0.12249,-28.994108
11.185,2.0,1.0,1.0,34.6,33.1,33.1,2.5,2.0,2.6,0.3693222004068422,-0.03590624227225329,0.9139977312896581,0.003216959409792173,-0.124272,-28.861879
11.185,2.0,1.0,1.0,34.6,33.1,33.1,2.5,2.0,2.6025,0.3595086792440876,-0.03649342585494442,0.9176800310072286,0.0028635205231398826,-0.126094,-28.72905
11.185,2.0,1.0,1.0,34.6,33.1,33.1,2.5,2.0,2.605,0.3495848853887854,-0.03708844568549517,0.9212800900593322,0.0024954773352136206,-0.127957,-28.59561
11.185,2.0,1.0,1.0,34.6,33.1,33.1,2.5,2.0,2.6075,0.3395501616434552,-0.03769132380678889,0.924795421848727,0.002112332749382577,-0.129862,-28.461553
11.185,2.0,1.0,1.0,34.6,33.1,33.1,2.5,2.0,2.61,0.3294038726113878,-0.038302076150520094,0.9282234742751252,0.0017135727142894184,-0.131809,-28.32687
11.185,2.0,1.0,1.0,34.6,33.1,33.1,2.5,2.0,2.6125,0.3191454064532941,-0.038920712051270255,0.9315616282353723,0.0012986656398640405,-0.133801,-28.191552
11.185,2.0,1.0,1.0,34.6,33.1,33.1,2.5,2.0,2.615,0.3087741767317293,-0.03954723373012005,0.9348071961045819,0.0008670617937118879,-0.135839,-28.055591
11.185,2.0,1.0,1.0,34.6,33.1,33.1,2.5,2.0,2.6175,0.29828962434709416,-0.04018163574597017,0.9379574201990766,0.0004181926772675771,-0.137924,-27.918977
11.185,2.0,1.0,1.0,34.6,33.1,33.1,2.5,2.0,2.62,0.2876912195690976,-0.040823904412634775,0.9410094712221259,-4.8529618910707503e-05,-0.140057,-27.781703
11.185,2.0,1.0,1.0,34.6,33.1,33.1,2.5,2.0,2.6225,0.27697846416775984,-0.041474017179647965,0.9439604466935331,-0.0005337130813484245,-0.142241,-27.643759
11.185,2.0,1.0,1.0,34.6,33.1,33.1,2.5,2.0,2.625,0.266150893648188,-0.0421319419745972,0.946807369364263,-0.00103798646202086,-0.144476,-27.505135
11.185,2.0,1.0,1.0,34.6,33.1,33.1,2.5,2.0,2.6275,0.25520807959346903,-0.04279763650466154,0.9495471856174175,-0.0015619999895550342,-0.146764,-27.365823
11.185,2.0,1.0,1.0,34.6,33.1,33.1,2.5,2.0,2.63,0.24414963212026822,-0.04347104751488377,0.9521767638569536,-0.002106426103959624,-0.149107,-27.225813
11.185,2.0,1.0,1.0,34.6,33.1,33.1,2.5,2.0,2.6325,0.23297520245181338,-0.044152110000551324,0.9546928928857287,-0.0026719602155958278,-0.151506,-27.085095
11.185,2.0,1.0,1.0,34.6,33.1,33.1,2.5,2.0,2.635,0.22168448561319004,-0.044840746370890854,0.9570922802745266,-0.0032593214891178486,-0.153963,-26.943658
11.185,2.0,1.0,1.0,34.6,33.1,33.1,2.5,2.0,2.6375,0.21027722325402565,-0.04553686556110168,0.9593715507239051,-0.003869253653134003,-0.156481,-26.801495
11.185,2.0,1.0,1.0,34.6,33.1,33.1,2.5,2.0,2.64,0.19875320660382378,-0.046240362089562226,0.9615272444208423,-0.004502525836357085,-0.159061,-26.658592
11.185,2.0,1.0,1.0,34.6,33.1,33.1,2.5,2.0,2.6425,0.18711227956545007,-0.046951115056831874,0.9635558153923052,-0.00515993343103325,-0.161705,-26.514942
11.185,2.0,1.0,1.0,34.6,33.1,33.1,2.5,2.0,2.645,0.17535434195245508,-0.04766898708285123,0.9654536298580261,-0.005842298984461378,-0.164414,-26.370532
11.185,2.0,1.0,1.0,34.6,33.1,33.1,2.5,2.0,2.6475,0.16347935287613657,-0.04839382317850106,0.9672169645849702,-0.0065504731194336,-0.167192,-26.225351
11.185,2.0,1.0,1.0,34.6,33.1,33.1,2.5,2.0,2.65,0.15148733428849467,-0.04912544954742299,0.968842005246103,-0.007285335484454134,-0.170041,-26.07939
11.185,2.0,1.0,1.0,34.6,33.1,33.1,2.5,2.0,2.6525,0.1393783746874633,-0.049863672313722664,0.9703248447863044,-0.008047795734611089,-0.172962,-25.932635
11.185,2.0,1.0,1.0,34.6,33.1,33.1,2.5,2.0,2.655,0.12715263299106921,-0.0506082761708794,0.9716614817984088,-0.008838794544005806,-0.175959,-25.785076
11.185,2.0,1.0,1.0,34.6,33.1,33.1,2.5,2.0,2.6575,0.11481034258740631,-0.05135902294685487,0.9728478189126127,-0.009659304650665012,-0.179033,-25.636701
11.185,2.0,1.0,1.0,34.6,33.1,33.1,2.5,2.0,2.66,0.10235181556765124,-0.05211565008004477,0.973879661202631,-0.010510331934886584,-0.182188,-25.487498
11.185,2.0,1.0,1.0,34.6,33.1,33.1,2.5,2.0,2.6625,0.08977744714961274,-0.05287786900033055,0.9747527146122358,-0.0113929165319977,-0.185425,-25.337453
11.185,2.0,1.0,1.0,34.6,33.1,33.1,2.5,2.0,2.665,0.07708772029962327,-0.053645363409079105,0.975462584406013,-0.012308133980529289,-0.188749,-25.186555
11.185,2.0,1.0,1.0,34.6,33.1,33.1,2.5,2.0,2.6675,0.06428321056096734,-0.05441778745147956,0.9760047736484001,-0.013257096406838231,-0.192162,-25.034791
11.185,2.0,1.0,1.0,34.6,33.1,33.1,2.5,2.0,2.67,0.051364591097378925,-0.05519476377412361,0.9763746817152821,-0.014240953747236227,-0.195667,-24.882146
11.185,2.0,1.0,1.0,34.6,33.1,33.1,2.5,2.0,2.6725,0.038332637960513755,-0.055975881460196136,0.9765676028426971,-0.01526089500871457,-0.199267,-24.728608
11.185,2.0,1.0,1.0,34.6,33.1,33.1,2.5,2.0,2.675,0.025188235590813974,-0.05676069383406127,0.9765787247173878,-0.016318149569377334,-0.202967,-24.574163
11.185,2.0,1.0,1.0,34.6,33.1,33.1,2.5,2.0,2.6775,0.011932382561553592,-0.0575487161263937,0.976403127114248,-0.017413988519727558,-0.206768,-24.418795
11.185,2.0,1.0,1.0,34.6,33.1,33.1,2.5,2.0,2.68,-0.0014338024235915744,-0.05833942299030834,0.9760357805858974,-0.01854972604597669,-0.210676,-24.26249
11.185,2.0,1.0,1.0,34.6,33.1,33.1,2.5,2.0,2.6825,-0.014909074268553419,-0.059132245858176946,0.9754715452099461,-0.01972672085656972,-0.214693,-24.105234
11.185,2.0,1.0,1.0,34.6,33.1,33.1,2.5,2.0,2.685,-0.028492054946978936,-0.05992657012798797,0.974705169399709,-0.020946377653147278,-0.218825,-23.947009
11.185,2.0,1.0,1.0,34.6,33.1,33.1,2.5,2.0,2.6875,-0.04218122667631539,-0.06072173216718504,0.9737312887844639,-0.02221014864718125,-0.223075,-23.787801
11.185,2.0,1.0,1.0,34.6,33.1,33.1,2.5,2.0,2.69,-0.05597492479093062,-0.06151701612090982,0.9725444251655556,-0.023519535123536536,-0.227448,-23.627593
11.185,2.0,1.0,1.0,34.6,33.1,33.1,2.5,2.0,2.6925,-0.06987133030067316,-0.06231165051046627,0.9711389855549948,-0.024876089052225277,-0.231949,-23.466368
11.185,2.0,1.0,1.0,34.6,33.1,33.1,2.5,2.0,2.695,-0.08386846212021208,-0.06310480460659314,0.9695092613034437,-0.026281414749612868,-0.236582,-23.304108
11.185,2.0,1.0,1.0,34.6,33.1,33.1,2.5,2.0,2.6975,-0.09796416895365417,-0.06389558456078354,0.9676494273247972,-0.027737170590336927,-0.241353,-23.140795
11.185,2.0,1.0,1.0,34.6,33.1,33.1,2.5,2.0,2.7,-0.11215612081772998,-0.0646830292763891,0.9655535414248778,-0.029245070771165997,-0.246267,-22.976411
11.185,2.0,1.0,1.0,34.6,33.1,33.1,2.5,2.0,2.7025,-0.12644180018564655,-0.06546610599959495,0.9632155437420573,-0.030806887127994852,-0.25133,-22.810937
11.185,2.0,1.0,1.0,34.6,33.1,33.1,2.5,2.0,2.705,-0.14081849273232414,-0.06624370560851169,0.9606292563079967,-0.032424451007103124,-0.256549,-22.644351
11.185,2.0,1.0,1.0,34.6,33.1,33.1,2.5,2.0,2.7075,-0.15528327766015695,-0.0670146375765972,0.9577883827369872,-0.034099655191719556,-0.261928,-22.476635
11.185,2.0,1.0,1.0,34.6,33.1,33.1,2.5,2.0,2.71,-0.16983301758270786,-0.0677776245843533,0.9546865080528029,-0.03583445588480582,-0.267476,-22.307767
11.185,2.0,1.0,1.0,34.6,33.1,33.1,2.5,2.0,2.7125,-0.18446434794180017,-0.06853129675072608,0.9513170986623443,-0.03763087474880822,-0.273199,-22.137725
11.185,2.0,1.0,1.0,34.6,33.1,33.1,2.5,2.0,2.715,-0.19917366593118904,-0.06927418545283062,0.9476735024857994,-0.039491001002901274,-0.279105,-21.966486
11.185,2.0,1.0,1.0,34.6,33.1,33.1,2.5,2.0,2.7175,-0.21395711889757751,-0.07000471669949215,0.943748949253545,-0.041416993577960984,-0.285202,-21.794027
11.185,2.0,1.0,1.0,34.6,33.1,33.1,2.5,2.0,2.72,-0.22881059218681465,-0.07072120402059856,0.9395365509805463,-0.043411083329130684,-0.291497,-21.620323
11.185,2.0,1.0,1.0,34.6,33.1,33.1,2.5,2.0,2.7225,-0.24372969640000716,-0.07142184083035508,0.9350293026296324,-0.04547557530537837,-0.298001,-21.445349
11.185,2.0,1.0,1.0,34.6,33.1,33.1,2.5,2.0,2.725,-0.2587097540205185,-0.07210469221815609,0.9302200829757472,-0.047612851074835996,-0.304722,-21.269079
11.185,2.0,1.0,1.0,34.6,33.1,33.1,2.5,2.0,2.7275,-0.2737457853688356,-0.07276768611589271,0.9251016556841063,-0.04982537110397853,-0.31167,-21.091486
11.185,2.0,1.0,1.0,34.6,33.1,33.1,2.5,2.0,2.73,-0.28883249383747245,-0.07340860378501682,0.9196666706161636,-0.052115677187753444,-0.318857,-20.912541
11.185,2.0,1.0,1.0,34.6,33.1,33.1,2.5,2.0,2.7325,-0.3039642503528774,-0.07402506956051788,0.913907665378481,-0.05448639492662195,-0.326292,-20.732215
11.185,2.0,1.0,1.0,34.6,33.1,33.1,2.5,2.0,2.735,-0.3191350770051484,-0.07461453978203038,0.9078170671309689,-0.05694023624502887,-0.333989,-20.550478
11.185,2.0,1.0,1.0,34.6,33.1,33.1,2.5,2.0,2.7375,-0.33433862977959616,-0.07517429083449546,0.9013871946726687,-0.059480001944051876,-0.341959,-20.367296
11.185,2.0,1.0,1.0,34.6,33.1,33.1,2.5,2.0,2.74,-0.34956818031621806,-0.07570140621201621,0.8946102608252905,-0.06210858427879372,-0.350217,-20.182639
11.185,2.0,1.0,1.0,34.6,33.1,33.1,2.5,2.0,2.7425,-0.3648165966144363,-0.07619276250865024,0.8874783751371884,-0.06482896954840382,-0.358776,-19.99647
11.185,2.0,1.0,1.0,34.6,33.1,33.1,2.5,2.0,2.745,-0.38007632259006385,-0.07664501422872108,0.8799835469334973,-0.0676442406833289,-0.367653,-19.808753
11.185,2.0,1.0,1.0,34.6,33.1,33.1,2.5,2.0,2.7475,-0.395339356380118,-0.07705457729662629,0.8721176887418448,-0.07055757981036938,-0.376863,-19.619452
11.185,2.0,1.0,1.0,34.6,33.1,33.1,2.5,2.0,2.75,-0.410597227277759,-0.0774176111318878,0.863872620127545,-0.0735722707712073,-0.386425,-19.428527
11.185,2.0,1.0,1.0,34.6,33.1,33.1,2.5,2.0,2.7525,-0.42584097116471414,-0.07772999913909036,0.8552400719777483,-0.07669170156406557,-0.396357,-19.235937
11.185,2.0,1.0,1.0,34.6,33.1,33.1,2.5,2.0,2.755,-0.4410611042913977,-0.0779873274441492,0.8462116912807505,-0.07991936667083847,-0.40668,-19.041639
11.185,2.0,1.0,1.0,34.6,33.1,33.1,2.5,2.0,2.7575,-0.4562475952354304,-0.07818486168773381,0.8367790464549454,-0.08325886922311869,-0.417415,-18.845588
11.185,2.0,1.0,1.0,34.6,33.1,33.1,2.5,2.0,2.76,-0.4713898348470069,-0.07831752166333009,0.8269336332920796,-0.08671392294965706,-0.428586,-18.647739
11.185,2.0,1.0,1.0,34.6,33.1,33.1,2.5,2.0,2.7625,-0.4864766039642281,-0.07837985356096801,0.8166668815918355,-0.09028835383456829,-0.440217,-18.44804
11.185,2.0,1.0,1.0,34.6,33.1,33.1,2.5,2.0,2.765,-0.5014960386526051,-0.07836599954765681,0.8059701625800257,-0.09398610139945551,-0.452337,-18.246443
11.185,2.0,1.0,1.0,34.6,33.1,33.1,2.5,2.0,2.7675,-0.516435592690011,-0.07826966438156922,0.7948347972212696,-0.09781121950299738,-0.464973,-18.042892
11.185,2.0,1.0,1.0,34.6,33.1,33.1,2.5,2.0,2.77,-0.5312819969808423,-0.0780840787184597,0.7832520655598241,-0.10176787652763396,-0.478159,-17.837332
11.185,2.0,1.0,1.0,34.6,33.1,33.1,2.5,2.0,2.7725,-0.5460212155404509,-0.07780195872508316,0.771213217250163,-0.1058603547938546,-0.491928,-17.629703
11.185,2.0,1.0,1.0,34.6,33.1,33.1,2.5,2.0,2.775,-0.5606383976422612,-0.07741546156481084,0.7587094834730554,-0.1100930490071091,-0.506317,-17.419944
11.185,2.0,1.0,1.0,34.6,33.1,33.1,2.5,2.0,2.7775,-0.5751178256647482,-0.07691613626446973,0.7457320904747589,-0.11447046349910726,-0.521367,-17.207991
11.185,2.0,1.0,1.0,34.6,33.1,33.1,2.5,2.0,2.78,-0.5894428581126517,-0.07629486940781428,0.7322722750181807,-0.11899720797251881,-0.537121,-16.993775
11.185,2.0,1.0,1.0,34.6,33.1,33.1,2.5,2.0,2.7825,-0.6035958672155792,-0.0755418250290698,0.7183213020976839,-0.12367799139369465,-0.553627,-16.777225
11.185,2.0,1.0,1.0,34.6,33.1,33.1,2.5,2.0,2.785,-0.6175581704264562,-0.07464637799866969,0.7038704853461164,-0.12851761359943595,-0.570936,-16.558267
11.185,2.0,1.0,1.0,34.6,33.1,33.1,2.5,2.0,2.7875,-0.6313099550512186,-0.07359704010161411,0.6889112106570776,-0.13352095408772127,-0.589107,-16.336822
11.185,2.0,1.0,1.0,34.6,33.1,33.1,2.5,2.0,2.79,-0.6448301951383659,-0.07238137790572402,0.6734349636611092,-0.13869295734480816,-0.6082,-16.112808
11.185,2.0,1.0,1.0,34.6,33.1,33.1,2.5,2.0,2.7925,-0.6580965596415962,-0.07098592140140343,0.6574333618366575,-0.14403861391721434,-0.628284,-15.886139
11.185,2.0,1.0,1.0,34.6,33.1,33.1,2.5,2.0,2.795,-0.6710853107399537,-0.06939606226537556,0.6408981922110532,-0.14956293626080808,-0.649434,-15.656725
11.185,2.0,1.0,1.0,34.6,33.1,33.1,2.5,2.0,2.7975,-0.6837711910563128,-0.0675959404574501,0.6238214558213705,-0.15527092818294946,-0.671731,-15.42447
11.185,2.0,1.0,1.0,34.6,33.1,33.1,2.5,2.0,2.8,-0.6961272983570278,-0.06556831770126352,0.6061954203686609,-0.16116754642817133,-0.695267,-15.189276
11.185,2.0,1.0,1.0,34.6,33.1,33.1,2.5,2.0,2.8025,-0.708124946142589,-0.06329443622727259,0.5880126828237987,-0.16725765263160167,-0.720141,-14.951038
11.185,2.0,1.0,1.0,34.6,33.1,33.1,2.5,2.0,2.805,-0.7197335083526291,-0.06075386097012623,0.5692662441430607,-0.1735459534630305,-0.746465,-14.709647
11.185,2.0,1.0,1.0,34.6,33.1,33.1,2.5,2.0,2.8075,-0.7309202462110254,-0.057924303215364695,0.5499495987443437,-0.180036926290505,-0.77436,-14.46499
11.185,2.0,1.0,1.0,34.6,33.1,33.1,2.5,2.0,2.81,-0.7416501150327791,-0.054781423486755854,0.5300568420026915,-0.18673472708368677,-0.803963,-14.216948
11.185,2.0,1.0,1.0,34.6,33.1,33.1,2.5,2.0,2.8125,-0.7518855486112849,-0.05129861126313092,0.5095827997737162,-0.19364307652686655,-0.835426,-13.965396
11.185,2.0,1.0,1.0,34.6,33.1,33.1,2.5,2.0,2.815,-0.761586218615206,-0.04744673892441304,0.48852318487888696,-0.20076511938613692,-0.868919,-13.710206
11.185,2.0,1.0,1.0,34.6,33.1,33.1,2.5,2.0,2.8175,-0.7707087662667012,-0.043193887169217106,0.4668747866289502,-0.20810325103360278,-0.904632,-13.451242
11.185,2.0,1.0,1.0,34.6,33.1,33.1,2.5,2.0,2.82,-0.7792065034750837,-0.038505039048638556,0.44463570087150384,-0.2156589036233334,-0.942777,-13.188366
11.185,2.0,1.0,1.0,34.6,33.1,33.1,2.5,2.0,2.8225,-0.7870290806037528,-0.033341739763409955,0.42180560978721093,-0.22343228267761878,-0.983593,-12.921433
11.185,2.0,1.0,1.0,34.6,33.1,33.1,2.5,2.0,2.825,-0.7941221182120396,-0.02766171953363838,0.3983861228011303,-0.23142204270376582,-1.027351,-12.650296
11.185,2.0,1.0,1.0,34.6,33.1,33.1,2.5,2.0,2.8275,-0.8004268005236129,-0.021418477256835308,0.37438119260974895,-0.23962488783245042,-1.074355,-12.374802
