1,w,sub_t,h,l1,l2,l3,g1,g2,Freq,S11_re,S21_re,S11_img,S21_img,S11_dB,S21_dB
11.185,2.0,1.0,1.0,34.2,34.4,34.4,3.7,3.7,2.5,0.754458110357907,-0.00882826653989639,0.644943266230646,0.00398135078430216,-0.064937,-40.27846
11.185,2.0,1.0,1.0,34.2,34.4,34.4,3.7,3.7,2.5025,0.749506196652024,-0.008990963507282896,0.6505697530661321,0.003963942838412052,-0.065635,-40.152465
11.185,2.0,1.0,1.0,34.2,34.4,34.4,3.7,3.7,2.505,0.744486695389062,-0.009156532825542353,0.6561850221180973,0.003944868257258472,-0.066347,-40.025958
11.185,2.0,1.0,1.0,34.2,34.4,34.4,3.7,3.7,2.5075,0.7393989208711103,-0.00932503656001982,0.6617885286553553,0.0039240670383915285,-0.067072,-39.898926
11.185,2.0,1.0,1.0,34.2,34.4,34.4,3.7,3.7,2.51,0.734242178105497,-0.009496538589925316,0.6673797121712932,0.0039014768647203666,-0.067811,-39.771356
11.185,2.0,1.0,1.0,34.2,34.4,34.4,3.7,3.7,2.5125,0.7290157627094039,-0.009671104677869701,0.6729579958975862,0.0038770329988774416,-0.068564,-39.643236
11.185,2.0,1.0,1.0,34.2,34.4,34.4,3.7,3.7,2.515,0.7237189608149119,-0.009848802542782715,0.6785227863017922,0.0038506681718331625,-0.069333,-39.51455
11.185,2.0,1.0,1.0,34.2,34.4,34.4,3.7,3.7,2.5175,0.7183510489745392,-0.01002970193641193,0.6840734725681795,0.0038223124653913995,-0.070116,-39.385287
11.185,2.0,1.0,1.0,34.2,34.4,34.4,3.7,3.7,2.52,0.7129112940673037,-0.010213874723615884,0.6896094260611321,0.003791893188167045,-0.070916,-39.255431
11.185,2.0,1.0,1.0,34.2,34.4,34.4,3.7,3.7,2.5225,0.7073989532053828,-0.01040139496667867,0.6951299997704072,0.003759334744616855,-0.071731,-39.124968
11.185,2.0,1.0,1.0,34.2,34.4,34.4,3.7,3.7,2.525,0.701813273641384,-0.010592339013889363,0.7006345277375255,0.0037245584966622306,-0.072563,-38.993883
11.185,2.0,1.0,1.0,34.2,34.4,34.4,3.7,3.7,2.5275,0.6961534926762823,-0.010786785592646989,0.7061223244624922,0.0036874826174063216,-0.073412,-38.862161
11.185,2.0,1.0,1.0,34.2,34.4,34.4,3.7,3.7,2.53,0.6904188375680583,-0.010984815907369114,0.711592684290024,0.0036480219364100094,-0.074278,-38.729787
11.185,2.0,1.0,1.0,34.2,34.4,34.4,3.7,3.7,2.5325,0.6846085254410641,-0.01118651374250238,0.7170448807744096,0.003606087775948175,-0.075162,-38.596744
11.185,2.0,1.0,1.0,34.2,34.4,34.4,3.7,3.7,2.535,0.6787217631961372,-0.011391965570955594,0.7224781660220757,0.003561587777621628,-0.076065,-38.463016
11.185,2.0,1.0,1.0,34.2,34.4,34.4,3.7,3.7,2.5375,0.6727577474214889,-0.011601260668296342,0.7278917700108662,0.0035144257186509095,-0.076986,-38.328587
11.185,2.0,1.0,1.0,34.2,34.4,34.4,3.7,3.7,2.54,0.6667156643043655,-0.011814491233079951,0.7332848998850034,0.0034645013171213895,-0.077928,-38.193439
11.185,2.0,1.0,1.0,34.2,34.4,34.4,3.7,3.7,2.5425,0.6605946895434828,-0.012031752513704693,0.738656739224615,0.0034117100253911875,-0.078889,-38.057554
11.185,2.0,1.0,1.0,34.2,34.4,34.4,3.7,3.7,2.545,0.6543939882622176,-0.012253142942215745,0.7440064472886505,0.003355942810806806,-0.079871,-37.920915
11.185,2.0,1.0,1.0,34.2,34.4,34.4,3.7,3.7,2.5475,0.6481127149225406,-0.01247876427551395,0.7493331582299275,0.0032970859227994006,-0.080875,-37.783502
11.185,2.0,1.0,1.0,34.2,34.4,34.4,3.7,3.7,2.55,0.641750013239624,-0.012708721744456255,0.754635980280978,0.0032350206453570043,-0.0819,-37.645297
11.185,2.0,1.0,1.0,34.2,34.4,34.4,3.7,3.7,2.5525,0.635305016097096,-0.012943124211373941,0.7599139949092468,0.0031696230337813097,-0.082948,-37.50628
11.185,2.0,1.0,1.0,34.2,34.4,34.4,3.7,3.7,2.555,0.6287768454628381,-0.01318208433657437,0.765166255940133,0.003100763634543015,-0.08402,-37.366431
11.185,2.0,1.0,1.0,34.2,34.4,34.4,3.7,3.7,2.5575,0.6221646123052254,-0.013425718754432122,0.770391788646221,0.003028307186946443,-0.085115,-37.225729
11.185,2.0,1.0,1.0,34.2,34.4,34.4,3.7,3.7,2.56,0.6154674165096988,-0.013674148259727613,0.7755895888009575,0.0029521123051993456,-0.086236,-37.084152
11.185,2.0,1.0,1.0,34.2,34.4,34.4,3.7,3.7,2.5625,0.608684346795498,-0.0139274980049349,0.780758621694871,0.00287203113935879,-0.087382,-36.941678
11.185,2.0,1.0,1.0,34.2,34.4,34.4,3.7,3.7,2.565,0.6018144806323672,-0.014185897709223056,0.7858978211123264,0.002787909013485681,-0.088554,-36.798285
11.185,2.0,1.0,1.0,34.2,34.4,34.4,3.7,3.7,2.5675,0.5948568841570223,-0.014449481879988174,0.7910060882666141,0.0026995840391872937,-0.089755,-36.653949
11.185,2.0,1.0,1.0,34.2,34.4,34.4,3.7,3.7,2.57,0.5878106120891012,-0.01471839004780262,0.7960822906910231,0.002606886702559314,-0.090983,-36.508646
11.185,2.0,1.0,1.0,34.2,34.4,34.4,3.7,3.7,2.5725,0.5806747076462903,-0.01499276701573717,0.8011252610833518,0.0025096394223532506,-0.092241,-36.362351
11.185,2.0,1.0,1.0,34.2,34.4,34.4,3.7,3.7,2.575,0.5734482024582657,-0.015272763124086779,0.806133796101101,0.00240765607698807,-0.093528,-36.215038
11.185,2.0,1.0,1.0,34.2,34.4,34.4,3.7,3.7,2.5775,0.5661301164790313,-0.015558534531617119,0.8111066551043655,0.002300741497798041,-0.094847,-36.066681
11.185,2.0,1.0,1.0,34.2,34.4,34.4,3.7,3.7,2.58,0.5587194578971723,-0.015850243514535803,0.8160425588431751,0.002188690925656029,-0.096199,-35.917251
11.185,2.0,1.0,1.0,34.2,34.4,34.4,3.7,3.7,2.5825,0.5512152230434614,-0.01614805878449407,0.8209401880857758,0.002071289427831182,-0.097584,-35.766721
11.185,2.0,1.0,1.0,34.2,34.4,34.4,3.7,3.7,2.585,0.5436163962951968,-0.01645215582703076,0.8257981821839995,0.0019483112716268999,-0.099004,-35.615061
11.185,2.0,1.0,1.0,34.2,34.4,34.4,3.7,3.7,2.5875,0.5359219499765363,-0.01676271726198562,0.83061513757155,0.001819519251002071,-0.100459,-35.462241
11.185,2.0,1.0,1.0,34.2,34.4,34.4,3.7,3.7,2.59,0.5281308442540211,-0.017079933227539913,0.8353896061906207,0.0016846639619879844,-0.101952,-35.30823
11.185,2.0,1.0,1.0,34.2,34.4,34.4,3.7,3.7,2.5925,0.5202420270263445,-0.017404001789676857,0.8401200938418537,0.0015434830222881186,-0.103484,-35.152993
11.185,2.0,1.0,1.0,34.2,34.4,34.4,3.7,3.7,2.595,0.512254433807335,-0.017735129379008525,0.844805058452139,0.001395700229962264,-0.105056,-34.996499
11.185,2.0,1.0,1.0,34.2,34.4,34.4,3.7,3.7,2.5975,0.5041669876009452,-0.018073531257078744,0.8494429082542498,0.0012410246555649496,-0.10667,-34.838711
11.185,2.0,1.0,1.0,34.2,34.4,34.4,3.7,3.7,2.6,0.4959785987669261,-0.018419432014431948,0.8540319998716726,0.0010791496615019922,-0.108326,-34.679594
11.185,2.0,1.0,1.0,34.2,34.4,34.4,3.7,3.7,2.6025,0.48768816487568717,-0.018773066102933125,0.858570636301349,0.000909751841698584,-0.110028,-34.519109
11.185,2.0,1.0,1.0,34.2,34.4,34.4,3.7,3.7,2.605,0.4792945705506478,-0.019134678405036375,0.8630570647862638,0.0007324898739154579,-0.111777,-34.357217
11.185,2.0,1.0,1.0,34.2,34.4,34.4,3.7,3.7,2.6075,0.47079668729620483,-0.019504524842933257,0.8674894745689844,0.000547003276198279,-0.113574,-34.193878
11.185,2.0,1.0,1.0,34.2,34.4,34.4,3.7,3.7,2.61,0.4621933733092077,-0.01988287303076363,0.8718659945162845,0.0003529110579908668,-0.115423,-34.029049
11.185,2.0,1.0,1.0,34.2,34.4,34.4,3.7,3.7,2.6125,0.4534834732715794,-0.02027000297334874,0.8761846906039199,0.00014981025536275097,-0.117324,-33.862687
11.185,2.0,1.0,1.0,34.2,34.4,34.4,3.7,3.7,2.615,0.4446658181214522,-0.02066620781520324,0.8804435632493997,-6.27256614141999e-05,-0.11928,-33.694744
11.185,2.0,1.0,1.0,34.2,34.4,34.4,3.7,3.7,2.6175,0.43573922479990995,-0.021071794643913386,0.8846405444792191,-0.0002851485210833542,-0.121293,-33.525174
11.185,2.0,1.0,1.0,34.2,34.4,34.4,3.7,3.7,2.62,0.4267024959700644,-0.021487085352315416,0.8887734949154662,-0.0005179373401148699,-0.123367,-33.353927
11.185,2.0,1.0,1.0,34.2,34.4,34.4,3.7,3.7,2.6225,0.4175544197048498,-0.02191241756430213,0.8928402005649406,-0.0007616003833807847,-0.125503,-33.180951
11.185,2.0,1.0,1.0,34.2,34.4,34.4,3.7,3.7,2.625,0.40829376913955,-0.0223481456294909,0.896838369391917,-0.00101667741527015,-0.127705,-33.006191
11.185,2.0,1.0,1.0,34.2,34.4,34.4,3.7,3.7,2.6275,0.39891930208458115,-0.02279464169244546,0.9007656276533895,-0.00128374216200771,-0.129976,-32.829592
11.185,2.0,1.0,1.0,34.2,34.4,34.4,3.7,3.7,2.63,0.38942976059364554,-0.023252296842623955,0.9046195159730367,-0.0015634050085429059,-0.132318,-32.651094
11.185,2.0,1.0,1.0,34.2,34.4,34.4,3.7,3.7,2.6325,0.3798238704818225,-0.023721522351747543,0.9083974851271462,-0.0018563159563553641,-0.134736,-32.470635
11.185,2.0,1.0,1.0,34.2,34.4,34.4,3.7,3.7,2.635,0.3701003407876244,-0.024202751005846707,0.9120968915123457,-0.002163167871923949,-0.137233,-32.288151
11.185,2.0,1.0,1.0,34.2,34.4,34.4,3.7,3.7,2.6375,0.36025786317245834,-0.024696438539833884,0.9157149922610458,-0.0024847000595125124,-0.139812,-32.103574
11.185,2.0,1.0,1.0,34.2,34.4,34.4,3.7,3.7,2.64,0.3502951112502622,-0.025203065183086,0.9192489399660374,-0.002821702196405286,-0.142479,-31.916833
11.185,2.0,1.0,1.0,34.2,34.4,34.4,3.7,3.7,2.6425,0.34021073983945704,-0.025723137325184546,0.922695776970471,-0.003175018673886501,-0.145237,-31.727855
11.185,2.0,1.0,1.0,34.2,34.4,34.4,3.7,3.7,2.645,0.3300033841285987,-0.026257189311652725,0.926052429173503,-0.0035455533932024596,-0.148092,-31.536561
11.185,2.0,1.0,1.0,34.2,34.4,34.4,3.7,3.7,2.6475,0.31967165874639214,-0.026805785380243283,0.9293156992949682,-0.003934275072623571,-0.151049,-31.34287
11.185,2.0,1.0,1.0,34.2,34.4,34.4,3.7,3.7,2.65,0.30921415672593383,-0.02736952174905015,0.9324822595344547,-0.004342223129678053,-0.154112,-31.146695
11.185,2.0,1.0,1.0,34.2,34.4,34.4,3.7,3.7,2.6525,0.2986294483523378,-0.027949028868426158,0.9355486435508475,-0.004770514211870983,-0.157289,-30.947947
11.185,2.0,1.0,1.0,34.2,34.4,34.4,3.7,3.7,2.655,0.2879160798820611,-0.028544973849369493,0.9385112376776339,-0.005220349459946408,-0.160586,-30.746531
11.185,2.0,1.0,1.0,34.2,34.4,34.4,3.7,3.7,2.6575,0.2770725721216107,-0.02915806308164357,0.941366271276627,-0.005693022600279665,-0.164009,-30.542345
11.185,2.0,1.0,1.0,34.2,34.4,34.4,3.7,3.7,2.66,0.2660974188526575,-0.02978904505539152,0.9441098061180497,-0.0061899289776311,-0.167567,-30.335286
11.185,2.0,1.0,1.0,34.2,34.4,34.4,3.7,3.7,2.6625,0.25498908509014984,-0.030438713400312505,0.9467377246576374,-0.006712575656648297,-0.171267,-30.125241
11.185,2.0,1.0,1.0,34.2,34.4,34.4,3.7,3.7,2.665,0.24374600515974124,-0.03110791015651384,0.9492457170611436,-0.007262592740656991,-0.175119,-29.912094
11.185,2.0,1.0,1.0,34.2,34.4,34.4,3.7,3.7,2.6675,0.23236658058104268,-0.03179752929080768,0.9516292668027106,-0.00784174608001523,-0.179132,-29.69572
11.185,2.0,1.0,1.0,34.2,34.4,34.4,3.7,3.7,2.67,0.2208491777437433,-0.03250852047133457,0.9538836346353579,-0.008451951570329514,-0.183316,-29.475987
11.185,2.0,1.0,1.0,34.2,34.4,34.4,3.7,3.7,2.6725,0.20919212536500542,-0.03324189311175572,0.9560038406983805,-0.00909529127402194,-0.187684,-29.252758
11.185,2.0,1.0,1.0,34.2,34.4,34.4,3.7,3.7,2.675,0.1973937117188293,-0.03399872069356588,0.9579846444867524,-0.009774031638141795,-0.192247,-29.025883
11.185,2.0,1.0,1.0,34.2,34.4,34.4,3.7,3.7,2.6775,0.18545218163169913,-0.03478014537098027,0.9598205223603057,-0.010490644128256005,-0.197021,-28.795208
11.185,2.0,1.0,1.0,34.2,34.4,34.4,3.7,3.7,2.68,0.17336573324429772,-0.03558738285680405,0.9615056422139443,-0.011247828654319345,-0.202019,-28.560565
11.185,2.0,1.0,1.0,34.2,34.4,34.4,3.7,3.7,2.6825,0.1611325145470866,-0.03642172757903316,0.96303383486238,-0.012048540231608363,-0.207258,-28.321779
11.185,2.0,1.0,1.0,34.2,34.4,34.4,3.7,3.7,2.685,0.14875061970888945,-0.03728455808574263,0.9643985616114512,-0.012896019400572143,-0.212758,-28.078661
11.185,2.0,1.0,1.0,34.2,34.4,34.4,3.7,3.7,2.6875,0.136218085233659,-0.0381773426588305,0.965592877389813,-0.0137938270268474,-0.218537,-27.83101
11.185,2.0,1.0,1.0,34.2,34.4,34.4,3.7,3.7,2.69,0.12353288600287299,-0.03910164507375642,0.9666093886958725,-0.014745884220552303,-0.22462,-27.578613
11.185,2.0,1.0,1.0,34.2,34.4,34.4,3.7,3.7,2.6925,0.11069293129171888,-0.04005913041025729,0.9674402054704373,-0.015756518257079542,-0.23103,-27.321242
11.185,2.0,1.0,1.0,34.2,34.4,34.4,3.7,3.7,2.695,0.09769606088955826,-0.0410515707750705,0.9680768858295274,-0.016830515555986584,-0.237797,-27.058651
11.185,2.0,1.0,1.0,34.2,34.4,34.4,3.7,3.7,2.6975,0.08454004151297013,-0.04208085073776993,0.9685103723765222,-0.017973182987823327,-0.24495,-26.790579
11.185,2.0,1.0,1.0,34.2,34.4,34.4,3.7,3.7,2.7,0.07122256377896027,-0.04314897219916167,0.968730918548534,-0.019190419040447614,-0.252525,-26.516745
11.185,2.0,1.0,1.0,34.2,34.4,34.4,3.7,3.7,2.7025,0.057741240114104364,-0.044258058300467,0.9687280031262443,-0.020488796698803116,-0.260561,-26.236847
11.185,2.0,1.0,1.0,34.2,34.4,34.4,3.7,3.7,2.705,0.04409360412353767,-0.04541035582984027,0.9684902306336117,-0.021875660290800524,-0.269102,-25.95056
11.185,2.0,1.0,1.0,34.2,34.4,34.4,3.7,3.7,2.7075,0.03027711214646632,-0.04660823537560066,0.9680052148537626,-0.023359239046818536,-0.278199,-25.657535
11.185,2.0,1.0,1.0,34.2,34.4,34.4,3.7,3.7,2.71,0.016289148003291013,-0.04785418819189386,0.9672594420639687,-0.0249487807369019,-0.287909,-25.357393
11.185,2.0,1.0,1.0,34.2,34.4,34.4,3.7,3.7,2.7125,0.002127032322533536,-0.04915081835292903,0.9662381098127308,-0.026654709520871227,-0.298296,-25.049726
11.185,2.0,1.0,1.0,34.2,34.4,34.4,3.7,3.7,2.715,-0.012211961635048679,-0.050500828234962915,0.9649249360825485,-0.028488813114512183,-0.309434,-24.734093
11.185,2.0,1.0,1.0,34.2,34.4,34.4,3.7,3.7,2.7175,-0.02673058300406401,-0.05190699462196796,0.9633019324475518,-0.030464465594366386,-0.321409,-24.410012
11.185,2.0,1.0,1.0,34.2,34.4,34.4,3.7,3.7,2.72,-0.0414315655205912,-0.053372131697345504,0.9613491332741464,-0.03259689370476676,-0.334318,-24.076964
11.185,2.0,1.0,1.0,34.2,34.4,34.4,3.7,3.7,2.7225,-0.056317571802693055,-0.054899035739216465,0.9590442710327117,-0.0349034964843314,-0.348277,-23.734381
11.185,2.0,1.0,1.0,34.2,34.4,34.4,3.7,3.7,2.725,-0.07139111258658712,-0.05649040430561684,0.956362385270344,-0.037404230511544706,-0.363417,-23.381644
11.185,2.0,1.0,1.0,34.2,34.4,34.4,3.7,3.7,2.7275,-0.08665443094637629,-0.05814871982277874,0.9532753495866302,-0.040122076228836324,-0.379894,-23.018077
11.185,2.0,1.0,1.0,34.2,34.4,34.4,3.7,3.7,2.73,-0.1021093374571483,-0.059876083398762936,0.9497512968644605,-0.04308360482869565,-0.397891,-22.642939
11.185,2.0,1.0,1.0,34.2,34.4,34.4,3.7,3.7,2.7325,-0.11775697642140617,-0.0616739788189756,0.9457539177978433,-0.04631967030487692,-0.417625,-22.25542
11.185,2.0,1.0,1.0,34.2,34.4,34.4,3.7,3.7,2.735,-0.13359749483336492,-0.06354293820721615,0.9412416011430196,-0.04986625776177976,-0.439353,-21.854628
11.185,2.0,1.0,1.0,34.2,34.4,34.4,3.7,3.7,2.7375,-0.14962957344821914,-0.06548206850214047,0.9361663757757971,-0.05376552724280098,-0.463386,-21.439582
11.185,2.0,1.0,1.0,34.2,34.4,34.4,3.7,3.7,2.74,-0.1658497612440911,-0.06748837980090464,0.9304726042474514,-0.05806710248138613,-0.490098,-21.009202
11.185,2.0,1.0,1.0,34.2,34.4,34.4,3.7,3.7,2.7425,-0.18225152778879855,-0.06955582984741382,0.9240953648771282,-0.06282966628113452,-0.519942,-20.562295
11.185,2.0,1.0,1.0,34.2,34.4,34.4,3.7,3.7,2.745,-0.19882390804239483,-0.0716739590067639,0.9169584446155385,-0.06812293853120868,-0.553477,-20.097548
11.185,2.0,1.0,1.0,34.2,34.4,34.4,3.7,3.7,2.7475,-0.21554955394683586,-0.07382593002257848,0.9089718489015277,-0.07403012815234274,-0.591393,-19.613509
11.185,2.0,1.0,1.0,34.2,34.4,34.4,3.7,3.7,2.75,-0.232401915891709,-0.0759856959003436,0.900028720301043,-0.0806509636542152,-0.634549,-19.108581
11.185,2.0,1.0,1.0,34.2,34.4,34.4,3.7,3.7,2.7525,-0.2493411378538303,-0.07811388060906613,0.8900015516282075,-0.08810541156014504,-0.684029,-18.581007
11.185,2.0,1.0,1.0,34.2,34.4,34.4,3.7,3.7,2.755,-0.2663080364499191,-0.08015174499935081,0.8787375965522092,-0.09653817246596118,-0.74121,-18.028871
11.185,2.0,1.0,1.0,34.2,34.4,34.4,3.7,3.7,2.7575,-0.2832152063163881,-0.08201228494230267,0.8660534535068369,-0.10612396856900176,-0.807862,-17.450096
11.185,2.0,1.0,1.0,34.2,34.4,34.4,3.7,3.7,2.76,-0.2999337932457843,-0.08356701231613535,0.8517289939496212,-0.11707343693584517,-0.886279,-16.842472
11.185,2.0,1.0,1.0,34.2,34.4,34.4,3.7,3.7,2.7625,-0.3162737220282605,-0.08462622363185868,0.8355012608994599,-0.12963898217985975,-0.979474,-16.203707
11.185,2.0,1.0,1.0,34.2,34.4,34.4,3.7,3.7,2.765,-0.33195406770623354,-0.084909478938674,0.8170599558082744,-0.14411894344484957,-1.09143,-15.53154
11.185,2.0,1.0,1.0,34.2,34.4,34.4,3.7,3.7,2.7675,-0.3465587773189004,-0.0840015616060752,0.7960482122916774,-0.1608563449086325,-1.227463,-14.823947
11.185,2.0,1.0,1.0,34.2,34.4,34.4,3.7,3.7,2.77,-0.3594713025647745,-0.08128759616120154,0.7720765826518867,-0.18022427551280273,-1.394692,-14.079514
11.185,2.0,1.0,1.0,34.2,34.4,34.4,3.7,3.7,2.7725,-0.3697809763387356,-0.07586036549745422,0.7447664402330252,-0.20258170069184808,-1.602612,-13.298085
11.185,2.0,1.0,1.0,34.2,34.4,34.4,3.7,3.7,2.775,-0.3761577054923796,-0.06639675137080411,0.713854260494045,-0.22816836606068192,-1.86364,-12.481874
11.185,2.0,1.0,1.0,34.2,34.4,34.4,3.7,3.7,2.7775,-0.3767094371310122,-0.05101828141139155,0.6794131740475987,-0.25688283913870547,-2.193139,-11.637287
11.185,2.0,1.0,1.0,34.2,34.4,34.4,3.7,3.7,2.78,-0.36889107364355456,-0.027205023937272876,0.6422778281745195,-0.28785881887352066,-2.607431,-10.777791
11.185,2.0,1.0,1.0,34.2,34.4,34.4,3.7,3.7,2.7825,-0.34966121643595854,0.008040910723054672,0.6047549447942785,-0.318759831356182,-3.115877,-9.927966
11.185,2.0,1.0,1.0,34.2,34.4,34.4,3.7,3.7,2.785,-0.3162961727264064,0.05737577375758009,0.5715383801759174,-0.3448774485826819,-3.69878,-9.128135
11.185,2.0,1.0,1.0,34.2,34.4,34.4,3.7,3.7,2.7875,-0.2683693230267552,0.12113975914535964,0.5501912479787474,-0.3586726281233686,-4.262786,-8.436905
11.185,2.0,1.0,1.0,34.2,34.4,34.4,3.7,3.7,2.79,-0.21066348682237754,0.1944752141798183,0.5496658180259854,-0.35127918424834953,-4.602822,-7.925873
11.185,2.0,1.0,1.0,34.2,34.4,34.4,3.7,3.7,2.7925,-0.1545554620390364,0.26599902516716345,0.5756108207689519,-0.3171871798465922,-4.495084,-7.660825
11.185,2.0,1.0,1.0,34.2,34.4,34.4,3.7,3.7,2.795,-0.11418051477068762,0.32167572743039297,0.6249810788562257,-0.2595649293184338,-3.940074,-7.67387
11.185,2.0,1.0,1.0,34.2,34.4,34.4,3.7,3.7,2.7975,-0.09858728075387406,0.3526209035941571,0.6861756439620785,-0.1900382738770928,-3.182556,-7.946439
11.185,2.0,1.0,1.0,34.2,34.4,34.4,3.7,3.7,2.8,-0.10750286947921438,0.35924210384639405,0.7458501530464507,-0.1218682439668588,-2.457669,-8.419188
11.185,2.0,1.0,1.0,34.2,34.4,34.4,3.7,3.7,2.8025,-0.13424581414369374,0.3482728202320555,0.79533932736476,-0.06359234135761463,-1.866949,-9.019174
11.185,2.0,1.0,1.0,34.2,34.4,34.4,3.7,3.7,2.805,-0.17100205715945174,0.3275112413344645,0.8318234485132373,-0.01791981359360555,-1.419612,-9.682494
11.185,2.0,1.0,1.0,34.2,34.4,34.4,3.7,3.7,2.8075,-0.21182928929690686,0.3028542158062842,0.8561624990285898,0.01608191800986183,-1.090841,-10.363099
11.185,2.0,1.0,1.0,34.2,34.4,34.4,3.7,3.7,2.81,-0.25313780314476714,0.27784312312072584,0.8705983113131345,0.04069619781211757,-0.851175,-11.031819
11.185,2.0,1.0,1.0,34.2,34.4,34.4,3.7,3.7,2.8125,-0.293100085070267,0.254264900773316,0.877460645950171,0.0582761767515207,-0.67605,-11.671926
11.185,2.0,1.0,1.0,34.2,34.4,34.4,3.7,3.7,2.815,-0.33095565482648504,0.23284871803347407,0.8786847816211406,0.07077232521411805,-0.547193,-12.274785
11.185,2.0,1.0,1.0,34.2,34.4,34.4,3.7,3.7,2.8175,-0.36651332207279697,0.21376197734277685,0.8757330903744149,0.07965979847213278,-0.451593,-12.836638
11.185,2.0,1.0,1.0,34.2,34.4,34.4,3.7,3.7,2.82,-0.39985474415501593,0.19690450493564857,0.8696620506035295,0.08600839525831522,-0.380117,-13.356511
11.185,2.0,1.0,1.0,34.2,34.4,34.4,3.7,3.7,2.8225,-0.4311743441248214,0.18206676167327718,0.8612186407120955,0.09058033599494751,-0.326351,-13.834919
11.185,2.0,1.0,1.0,34.2,34.4,34.4,3.7,3.7,2.825,-0.4606986470259358,0.16900914909211867,0.8509257057737247,0.09391626549702954,-0.285767,-14.273101
11.185,2.0,1.0,1.0,34.2,34.4,34.4,3.7,3.7,2.8275,-0.4886484739639723,0.15749887662979992,0.8391473211992603,0.09640094214817072,-0.255134,-14.672579
11.185,2.0,1.0,1.0,34.2,34.4,34.4,3.7,3.7,2.83,-0.5152231666750207,0.14732509011235598,0.8261358422723792,0.09831052153975815,-0.232121,-15.034905
