1,w,sub_t,h,l1,l2,l3,g1,g2,Freq,S11_re,S21_re,S11_img,S21_img,S11_dB,S21_dB
11.185,2.0,1.0,1.0,33.0,34.4,34.4,4.2,1.5,2.5,0.897305037782356,-0.00590935616704211,0.428369244655353,0.00626616054268112,-0.049546,-41.296824
11.185,2.0,1.0,1.0,33.0,34.4,34.4,4.2,1.5,2.5025,0.8946691004323083,-0.006043874306976608,0.43372679476183196,0.006318832188471145,-0.050006,-41.165881
11.185,2.0,1.0,1.0,33.0,34.4,34.4,4.2,1.5,2.505,0.8919908761961987,-0.0061812630064527144,0.4390867358283866,0.006371654271247361,-0.050475,-41.034408
11.185,2.0,1.0,1.0,33.0,34.4,34.4,4.2,1.5,2.5075,0.8892699629801747,-0.006321599880060297,0.4444489544751687,0.006424621003138564,-0.050954,-40.902387
11.185,2.0,1.0,1.0,33.0,34.4,34.4,4.2,1.5,2.51,0.8865059507801691,-0.006464965423638934,0.44981333393273787,0.006477726206006097,-0.051442,-40.769804
11.185,2.0,1.0,1.0,33.0,34.4,34.4,4.2,1.5,2.5125,0.8836984214648741,-0.006611443150650533,0.4551797539197762,0.006530963286113551,-0.05194,-40.636639
11.185,2.0,1.0,1.0,33.0,34.4,34.4,4.2,1.5,2.515,0.8808469485496554,-0.00676111973638469,0.46054809051608764,0.006584325206962252,-0.052449,-40.502877
11.185,2.0,1.0,1.0,33.0,34.4,34.4,4.2,1.5,2.5175,0.8779510969608634,-0.0069140851705251,0.46591821603062195,0.006637804460142935,-0.052967,-40.368498
11.185,2.0,1.0,1.0,33.0,34.4,34.4,4.2,1.5,2.52,0.875010422789957,-0.007070432918648088,0.4712899988642925,0.006691393034038739,-0.053497,-40.233485
11.185,2.0,1.0,1.0,33.0,34.4,34.4,4.2,1.5,2.5225,0.8720244730368104,-0.00723026009326676,0.4766633033672825,0.006745082380199962,-0.054037,-40.09782
11.185,2.0,1.0,1.0,33.0,34.4,34.4,4.2,1.5,2.525,0.8689927853415235,-0.007393667635085028,0.48203798969057277,0.0067988633771941896,-0.054589,-39.961482
11.185,2.0,1.0,1.0,33.0,34.4,34.4,4.2,1.5,2.5275,0.8659148877040034,-0.0075607605051775575,0.4874139136313635,0.006852726291716687,-0.055153,-39.824452
11.185,2.0,1.0,1.0,33.0,34.4,34.4,4.2,1.5,2.53,0.8627902981905303,-0.007731647888869617,0.4927909264720473,0.006906660736725081,-0.055729,-39.68671
11.185,2.0,1.0,1.0,33.0,34.4,34.4,4.2,1.5,2.5325,0.8596185246264536,-0.007906443412154011,0.49816887481237376,0.006960655626339809,-0.056317,-39.548235
11.185,2.0,1.0,1.0,33.0,34.4,34.4,4.2,1.5,2.535,0.8563990642740943,-0.008085265371551128,0.5035476003944127,0.007014699127226767,-0.056918,-39.409006
11.185,2.0,1.0,1.0,33.0,34.4,34.4,4.2,1.5,2.5375,0.8531314034948623,-0.008268236978393077,0.5089269399198795,0.007068778606150119,-0.057533,-39.269001
11.185,2.0,1.0,1.0,33.0,34.4,34.4,4.2,1.5,2.54,0.8498150173945026,-0.008455486618595676,0.5143067248593731,0.0071228805733520905,-0.058162,-39.128198
11.185,2.0,1.0,1.0,33.0,34.4,34.4,4.2,1.5,2.5425,0.8464493694503041,-0.008647148129071582,0.5196867812530261,0.0071769906213832915,-0.058805,-38.986573
11.185,2.0,1.0,1.0,33.0,34.4,34.4,4.2,1.5,2.545,0.8430339111189981,-0.00884336109203724,0.5250669295020199,0.00723109335896654,-0.059463,-38.844103
11.185,2.0,1.0,1.0,33.0,34.4,34.4,4.2,1.5,2.5475,0.8395680814239749,-0.009044271148573804,0.5304469841503796,0.007285172339436745,-0.060136,-38.700763
11.185,2.0,1.0,1.0,33.0,34.4,34.4,4.2,1.5,2.55,0.8360513065203108,-0.009250030332922288,0.5358267536564196,0.007339209983250272,-0.060825,-38.556529
11.185,2.0,1.0,1.0,33.0,34.4,34.4,4.2,1.5,2.5525,0.8324829992359886,-0.009460797429122215,0.5412060401531206,0.007393187494004494,-0.061531,-38.411374
11.185,2.0,1.0,1.0,33.0,34.4,34.4,4.2,1.5,2.555,0.8288625585875289,-0.009676738351748482,0.546584639196701,0.007447084767349567,-0.062253,-38.265272
11.185,2.0,1.0,1.0,33.0,34.4,34.4,4.2,1.5,2.5575,0.8251893692681003,-0.00989802655265826,0.551962339502539,0.007500880292107024,-0.062993,-38.118195
11.185,2.0,1.0,1.0,33.0,34.4,34.4,4.2,1.5,2.56,0.8214628011060076,-0.010124843455834242,0.5573389226675384,0.0075545510428367815,-0.063752,-37.970115
11.185,2.0,1.0,1.0,33.0,34.4,34.4,4.2,1.5,2.5625,0.8176822084912495,-0.010357378922603184,0.562714162877936,0.007608072363009923,-0.064529,-37.821002
11.185,2.0,1.0,1.0,33.0,34.4,34.4,4.2,1.5,2.565,0.8138469297676302,-0.0105958317497213,0.5680878266014658,0.007661417837852308,-0.065326,-37.670827
11.185,2.0,1.0,1.0,33.0,34.4,34.4,4.2,1.5,2.5675,0.8099562865876805,-0.010840410203051806,0.5734596722626584,0.007714559155818329,-0.066144,-37.519558
11.185,2.0,1.0,1.0,33.0,34.4,34.4,4.2,1.5,2.57,0.8060095832273652,-0.011091332589821416,0.5788294498999563,0.007767465957536851,-0.066983,-37.367163
11.185,2.0,1.0,1.0,33.0,34.4,34.4,4.2,1.5,2.5725,0.8020061058572765,-0.011348827872728862,0.5841969008031778,0.007820105670938543,-0.067844,-37.213608
11.185,2.0,1.0,1.0,33.0,34.4,34.4,4.2,1.5,2.575,0.7979451217666924,-0.011613136329498985,0.5895617571297024,0.007872443331123462,-0.068727,-37.05886
11.185,2.0,1.0,1.0,33.0,34.4,34.4,4.2,1.5,2.5775,0.7938258785365028,-0.011884510261829871,0.5949237414975803,0.007924441383359527,-0.069635,-36.902882
11.185,2.0,1.0,1.0,33.0,34.4,34.4,4.2,1.5,2.58,0.789647603156642,-0.012163214758074404,0.6002825665535729,0.007976059467410524,-0.070568,-36.745637
11.185,2.0,1.0,1.0,33.0,34.4,34.4,4.2,1.5,2.5825,0.785409501083184,-0.012449528514437208,0.6056379345139051,0.008027254181176066,-0.071526,-36.587088
11.185,2.0,1.0,1.0,33.0,34.4,34.4,4.2,1.5,2.585,0.7811107552297955,-0.012743744719955567,0.6109895366752573,0.008077978821380076,-0.072511,-36.427194
11.185,2.0,1.0,1.0,33.0,34.4,34.4,4.2,1.5,2.5875,0.7767505248876707,-0.013046172011078976,0.6163370528932485,0.008128183098765644,-0.073525,-36.265915
11.185,2.0,1.0,1.0,33.0,34.4,34.4,4.2,1.5,2.59,0.7723279445674722,-0.01335713550227091,0.6216801510253193,0.00817781282493622,-0.074568,-36.103207
11.185,2.0,1.0,1.0,33.0,34.4,34.4,4.2,1.5,2.5925,0.7678421227560932,-0.013676977899738062,0.6270184863345772,0.008226809567622223,-0.075641,-35.939027
11.185,2.0,1.0,1.0,33.0,34.4,34.4,4.2,1.5,2.595,0.7632921405803117,-0.01400606070615441,0.632351700850722,0.008275110270738576,-0.076747,-35.773327
11.185,2.0,1.0,1.0,33.0,34.4,34.4,4.2,1.5,2.5975,0.7586770503685126,-0.014344765525105448,0.637679422683717,0.008322646835127684,-0.077886,-35.606061
11.185,2.0,1.0,1.0,33.0,34.4,34.4,4.2,1.5,2.6,0.7539958741007017,-0.014693495474937385,0.6430012652852993,0.00836934565534198,-0.07906,-35.437179
11.185,2.0,1.0,1.0,33.0,34.4,34.4,4.2,1.5,2.6025,0.7492476017359381,-0.015052676722777871,0.6483168266528042,0.008415127107200692,-0.080271,-35.266628
11.185,2.0,1.0,1.0,33.0,34.4,34.4,4.2,1.5,2.605,0.7444311894050661,-0.01542276015071279,0.6536256884690641,0.008459904980143708,-0.08152,-35.094354
11.185,2.0,1.0,1.0,33.0,34.4,34.4,4.2,1.5,2.6075,0.7395455574552566,-0.015804223167477,0.6589274151713013,0.008503585847586098,-0.08281,-34.920303
11.185,2.0,1.0,1.0,33.0,34.4,34.4,4.2,1.5,2.61,0.7345895883312804,-0.016197571680568085,0.6642215529409861,0.008546068367531736,-0.084142,-34.744413
11.185,2.0,1.0,1.0,33.0,34.4,34.4,4.2,1.5,2.6125,0.7295621242766676,-0.016603342245447704,0.6695076286055276,0.008587242504612869,-0.085518,-34.566625
11.185,2.0,1.0,1.0,33.0,34.4,34.4,4.2,1.5,2.615,0.7244619648358802,-0.017022104410485107,0.6747851484413955,0.008626988663458084,-0.086941,-34.386875
11.185,2.0,1.0,1.0,33.0,34.4,34.4,4.2,1.5,2.6175,0.7192878641363594,-0.017454463278553174,0.6800535968667759,0.00866517672182429,-0.088413,-34.205096
11.185,2.0,1.0,1.0,33.0,34.4,34.4,4.2,1.5,2.62,0.7140385279266742,-0.017901062308755215,0.6853124350101616,0.008701664950223736,-0.089937,-34.021217
11.185,2.0,1.0,1.0,33.0,34.4,34.4,4.2,1.5,2.6225,0.7087126103440659,-0.018362586384683056,0.6905610991392752,0.008736298802789795,-0.091516,-33.835166
11.185,2.0,1.0,1.0,33.0,34.4,34.4,4.2,1.5,2.625,0.703308710381286,-0.0188397651789393,0.695798998932371,0.00876890956180587,-0.093152,-33.646867
11.185,2.0,1.0,1.0,33.0,34.4,34.4,4.2,1.5,2.6275,0.6978253680187589,-0.01933337684746791,0.7010255155712557,0.008799312815606617,-0.094849,-33.456238
11.185,2.0,1.0,1.0,33.0,34.4,34.4,4.2,1.5,2.63,0.6922610599836855,-0.019844252091595287,0.7062399996321412,0.008827306746375902,-0.09661,-33.263197
11.185,2.0,1.0,1.0,33.0,34.4,34.4,4.2,1.5,2.6325,0.6866141950926212,-0.02037327863068623,0.7114417687466887,0.008852670200619698,-0.098439,-33.067654
11.185,2.0,1.0,1.0,33.0,34.4,34.4,4.2,1.5,2.635,0.6808831091282364,-0.02092140613406256,0.7166301050011556,0.008875160510677533,-0.100341,-32.869518
11.185,2.0,1.0,1.0,33.0,34.4,34.4,4.2,1.5,2.6375,0.675066059194249,-0.02148965166744529,0.7218042520363093,0.008894511030416432,-0.102319,-32.66869
11.185,2.0,1.0,1.0,33.0,34.4,34.4,4.2,1.5,2.64,0.6691612174847724,-0.022079105716808656,0.7269634118045727,0.008910428342066052,-0.104378,-32.465068
11.185,2.0,1.0,1.0,33.0,34.4,34.4,4.2,1.5,2.6425,0.663166664395375,-0.02269093886134438,0.7321067409334447,0.00892258908380425,-0.106524,-32.258545
11.185,2.0,1.0,1.0,33.0,34.4,34.4,4.2,1.5,2.645,0.6570803808927795,-0.023326409177439698,0.7372333466354675,0.008930636338942324,-0.108762,-32.049006
11.185,2.0,1.0,1.0,33.0,34.4,34.4,4.2,1.5,2.6475,0.6509002400481025,-0.02398687046740881,0.7423422820944655,0.00893417551708983,-0.111098,-31.836331
11.185,2.0,1.0,1.0,33.0,34.4,34.4,4.2,1.5,2.65,0.6446239976245344,-0.024673781420479973,0.7474325412451965,0.008932769645128501,-0.113539,-31.620394
11.185,2.0,1.0,1.0,33.0,34.4,34.4,4.2,1.5,2.6525,0.638249281594094,-0.025388715829568306,0.7525030528483364,0.008925933970728949,-0.116092,-31.40106
11.185,2.0,1.0,1.0,33.0,34.4,34.4,4.2,1.5,2.655,0.6317735804390168,-0.02613337400608126,0.7575526737444754,0.008913129762935113,-0.118765,-31.178188
11.185,2.0,1.0,1.0,33.0,34.4,34.4,4.2,1.5,2.6575,0.6251942300711126,-0.026909595556891364,0.7625801811485925,0.008893757172294557,-0.121567,-30.951626
11.185,2.0,1.0,1.0,33.0,34.4,34.4,4.2,1.5,2.66,0.6185083991762891,-0.0277193737132723,0.7675842638195871,0.008867146986235247,-0.124507,-30.721217
11.185,2.0,1.0,1.0,33.0,34.4,34.4,4.2,1.5,2.6625,0.6117130727607887,-0.028564871431735694,0.7725635119066101,0.00883255108274258,-0.127596,-30.486791
11.185,2.0,1.0,1.0,33.0,34.4,34.4,4.2,1.5,2.665,0.6048050336395367,-0.029448439522188008,0.7775164052337813,0.008789131345444177,-0.130846,-30.248167
11.185,2.0,1.0,1.0,33.0,34.4,34.4,4.2,1.5,2.6675,0.5977808415644198,-0.030372637100668294,0.7824412997355226,0.008735946754140885,-0.13427,-30.005154
11.185,2.0,1.0,1.0,33.0,34.4,34.4,4.2,1.5,2.67,0.590636809639918,-0.0313402547133838,0.7873364116938861,0.008671938304306933,-0.137881,-29.757549
11.185,2.0,1.0,1.0,33.0,34.4,34.4,4.2,1.5,2.6725,0.58336897761385,-0.03235434053730483,0.7921997993538681,0.008595911334141856,-0.141696,-29.505133
11.185,2.0,1.0,1.0,33.0,34.4,34.4,4.2,1.5,2.675,0.575973081560225,-0.033418230132015427,0.7970293413989152,0.008506514744550223,-0.145732,-29.247674
11.185,2.0,1.0,1.0,33.0,34.4,34.4,4.2,1.5,2.6775,0.5684445193870598,-0.034535580299995615,0.8018227116516738,0.008402216480986123,-0.150009,-28.984923
11.185,2.0,1.0,1.0,33.0,34.4,34.4,4.2,1.5,2.68,0.5607783115019215,-0.035710407710607274,0.8065773492179439,0.008281274499958545,-0.15455,-28.716613
11.185,2.0,1.0,1.0,33.0,34.4,34.4,4.2,1.5,2.6825,0.5529690558487266,-0.036947133059843144,0.8112904231062632,0.008141702258691808,-0.159379,-28.442457
11.185,2.0,1.0,1.0,33.0,34.4,34.4,4.2,1.5,2.685,0.5450108763871866,-0.03825063167702457,0.8159587901203584,0.007981227532842559,-0.164524,-28.162148
11.185,2.0,1.0,1.0,33.0,34.4,34.4,4.2,1.5,2.6875,0.5368973639168549,-0.039626291655351115,0.8205789445219784,0.007797243069568048,-0.170017,-27.875354
11.185,2.0,1.0,1.0,33.0,34.4,34.4,4.2,1.5,2.69,0.5286215079459122,-0.04108008078045146,0.8251469575776247,0.0075867472020265826,-0.175894,-27.581718
11.185,2.0,1.0,1.0,33.0,34.4,34.4,4.2,1.5,2.6925,0.520175618064762,-0.04261862376541373,0.8296584046079364,0.0073462720603345915,-0.182196,-27.280853
11.185,2.0,1.0,1.0,33.0,34.4,34.4,4.2,1.5,2.695,0.5115512330000198,-0.044249291578196244,0.834108276517275,0.007071796377766965,-0.188969,-26.972341
11.185,2.0,1.0,1.0,33.0,34.4,34.4,4.2,1.5,2.6975,0.5027390151888711,-0.045980304973990055,0.8384908719450708,0.006758639061641863,-0.196269,-26.655729
11.185,2.0,1.0,1.0,33.0,34.4,34.4,4.2,1.5,2.7,0.4937286283213612,-0.047820854726403295,0.8427996650835544,0.006401328610466301,-0.204156,-26.330523
11.185,2.0,1.0,1.0,33.0,34.4,34.4,4.2,1.5,2.7025,0.4845085948449046,-0.049781241490524465,0.8470271427579367,0.005993442022642968,-0.212702,-25.996186
11.185,2.0,1.0,1.0,33.0,34.4,34.4,4.2,1.5,2.705,0.47506612991230807,-0.051873038726219844,0.8511646024390758,0.005527404932964336,-0.221991,-25.652133
11.185,2.0,1.0,1.0,33.0,34.4,34.4,4.2,1.5,2.7075,0.4653869476923339,-0.054109282649839524,0.855201900280088,0.004994242157914797,-0.232121,-25.297723
11.185,2.0,1.0,1.0,33.0,34.4,34.4,4.2,1.5,2.71,0.4554550353792692,-0.0565046937366892,0.8591271347911406,0.004383264386241339,-0.243207,-24.932254
11.185,2.0,1.0,1.0,33.0,34.4,34.4,4.2,1.5,2.7125,0.445252389697189,-0.059075934801444845,0.8629262470432009,0.0036816720736182773,-0.255383,-24.554953
11.185,2.0,1.0,1.0,33.0,34.4,34.4,4.2,1.5,2.715,0.4347587103174302,-0.06184191101546987,0.8665825118267786,0.002874051200502878,-0.268812,-24.164972
11.185,2.0,1.0,1.0,33.0,34.4,34.4,4.2,1.5,2.7175,0.42395104462136274,-0.06482411714935693,0.8700758852767242,0.0019417267301844786,-0.283686,-23.761373
11.185,2.0,1.0,1.0,33.0,34.4,34.4,4.2,1.5,2.72,0.4128033790579489,-0.06804703644064804,0.8733821620870369,0.000861927350944748,-0.300239,-23.343119
11.185,2.0,1.0,1.0,33.0,34.4,34.4,4.2,1.5,2.7225,0.401286174706984,-0.07153859303847453,0.87647187810071,-0.0003933020575936891,-0.318751,-22.909061
11.185,2.0,1.0,1.0,33.0,34.4,34.4,4.2,1.5,2.725,0.3893658498826703,-0.07533065465039332,0.8793088696189485,-0.001858527947718728,-0.339569,-22.457922
11.185,2.0,1.0,1.0,33.0,34.4,34.4,4.2,1.5,2.7275,0.3770042230414435,-0.07945957147260485,0.8818483661063881,-0.003576817572414685,-0.363119,-21.988284
11.185,2.0,1.0,1.0,33.0,34.4,34.4,4.2,1.5,2.73,0.3641579490675046,-0.08396671756231455,0.8840344435472066,-0.005602261139674938,-0.38993,-21.498566
11.185,2.0,1.0,1.0,33.0,34.4,34.4,4.2,1.5,2.7325,0.35077801866700486,-0.08889896407700111,0.8857965950458088,-0.008003367089577981,-0.420668,-20.987008
11.185,2.0,1.0,1.0,33.0,34.4,34.4,4.2,1.5,2.735,0.3368094575473699,-0.09430894689883909,0.887045074293556,-0.010867670434154052,-0.456178,-20.451651
11.185,2.0,1.0,1.0,33.0,34.4,34.4,4.2,1.5,2.7375,0.3221914836380001,-0.10025486990742892,0.8876645241717802,-0.014308035196854514,-0.497541,-19.890322
11.185,2.0,1.0,1.0,33.0,34.4,34.4,4.2,1.5,2.74,0.3068586012026043,-0.10679936553870563,0.8875052026891839,-0.018471328589292103,-0.546163,-19.300621
11.185,2.0,1.0,1.0,33.0,34.4,34.4,4.2,1.5,2.7425,0.29074351155549566,-0.1140065357629931,0.8863708494985472,-0.02355040818007481,-0.603884,-18.67993
11.185,2.0,1.0,1.0,33.0,34.4,34.4,4.2,1.5,2.745,0.2737834500122871,-0.12193557197818483,0.884001903569435,-0.029800687867243093,-0.673149,-18.02544
11.185,2.0,1.0,1.0,33.0,34.4,34.4,4.2,1.5,2.7475,0.25593288786406543,-0.13062803450862362,0.8800524525388055,-0.03756286654759985,-0.757238,-17.334237
11.185,2.0,1.0,1.0,33.0,34.4,34.4,4.2,1.5,2.75,0.237187944891318,-0.140083489488022,0.874059212161096,-0.0472934689862395,-0.860603,-16.603487
11.185,2.0,1.0,1.0,33.0,34.4,34.4,4.2,1.5,2.7525,0.21763213779275764,-0.15021397000515174,0.865401726301452,-0.05960393740340717,-0.989321,-15.830789
11.185,2.0,1.0,1.0,33.0,34.4,34.4,4.2,1.5,2.755,0.1975203684030986,-0.16076054792570604,0.8532567857597332,-0.07530519489441764,-1.151698,-15.014851
11.185,2.0,1.0,1.0,33.0,34.4,34.4,4.2,1.5,2.7575,0.17742916201617853,-0.17114438342559105,0.8365615916472491,-0.09544311616367471,-1.358947,-14.156712
11.185,2.0,1.0,1.0,33.0,34.4,34.4,4.2,1.5,2.76,0.15851343353493924,-0.1802126733247649,0.8140301661166575,-0.12128058026581494,-1.625557,-13.261906
11.185,2.0,1.0,1.0,33.0,34.4,34.4,4.2,1.5,2.7625,0.14290597084499804,-0.18584442366528164,0.7843353991882368,-0.15411459285609175,-1.968133,-12.3441
11.185,2.0,1.0,1.0,33.0,34.4,34.4,4.2,1.5,2.765,0.13421297926242268,-0.18446383412780434,0.7466912403929457,-0.19469661132941515,-2.399087,-11.430677
11.185,2.0,1.0,1.0,33.0,34.4,34.4,4.2,1.5,2.7675,0.1377492445974582,-0.17081657021646648,0.7021761493297102,-0.24192078967980693,-2.907078,-10.569808
11.185,2.0,1.0,1.0,33.0,34.4,34.4,4.2,1.5,2.77,0.1594957560598376,-0.13901625903551448,0.6558277967274564,-0.29075760196656364,-3.414649,-9.835287
11.185,2.0,1.0,1.0,33.0,34.4,34.4,4.2,1.5,2.7725,0.20242592510914179,-0.08619077349578902,0.6179885604174526,-0.3309480002239946,-3.737766,-9.319796
11.185,2.0,1.0,1.0,33.0,34.4,34.4,4.2,1.5,2.775,0.2612829434366832,-0.01762981806528233,0.6012627675897881,-0.35005303935821075,-3.66748,-9.106321
11.185,2.0,1.0,1.0,33.0,34.4,34.4,4.2,1.5,2.7775,0.3220732634858707,0.052774484731870554,0.612251986770098,-0.34163740841072104,-3.200421,-9.226275
11.185,2.0,1.0,1.0,33.0,34.4,34.4,4.2,1.5,2.78,0.37019736713723744,0.11061330321992711,0.6462141709437195,-0.31049422788508335,-2.559897,-9.640024
11.185,2.0,1.0,1.0,33.0,34.4,34.4,4.2,1.5,2.7825,0.39893649873421844,0.149324031583576,0.6916103971462184,-0.26808312442923043,-1.955367,-10.261048
11.185,2.0,1.0,1.0,33.0,34.4,34.4,4.2,1.5,2.785,0.4097261139472401,0.17040098899028883,0.7381368541494874,-0.22458260818660633,-1.470801,-10.997758
11.185,2.0,1.0,1.0,33.0,34.4,34.4,4.2,1.5,2.7875,0.4075040535671102,0.17876909508656663,0.7801418969634982,-0.185544640911217,-1.108771,-11.779287
11.185,2.0,1.0,1.0,33.0,34.4,34.4,4.2,1.5,2.79,0.3971158124896093,0.17923494076543758,0.8157795419630771,-0.15275802217859757,-0.844961,-12.560187
11.185,2.0,1.0,1.0,33.0,34.4,34.4,4.2,1.5,2.7925,0.38208278409791097,0.17528175566157606,0.8451940368445958,-0.12605251267911943,-0.653298,-13.314936
11.185,2.0,1.0,1.0,33.0,34.4,34.4,4.2,1.5,2.795,0.3646372204009517,0.16911287993381763,0.8692631811974829,-0.10454125516048729,-0.513041,-14.030947
11.185,2.0,1.0,1.0,33.0,34.4,34.4,4.2,1.5,2.7975,0.34609326048930367,0.1620229262890499,0.8889868261158518,-0.0872228509333851,-0.409213,-14.703226
11.185,2.0,1.0,1.0,33.0,34.4,34.4,4.2,1.5,2.8,0.3271872615310417,0.15473591308807827,0.9052554992703226,-0.07320779521670402,-0.331363,-15.330941
11.185,2.0,1.0,1.0,33.0,34.4,34.4,4.2,1.5,2.8025,0.30831267721756667,0.14763792194469189,0.9187926504136817,-0.06177397395878828,-0.27225,-15.915399
11.185,2.0,1.0,1.0,33.0,34.4,34.4,4.2,1.5,2.805,0.2896657037270233,0.1409210695088798,0.9301629525955483,-0.05235745905517069,-0.226838,-16.458906
11.185,2.0,1.0,1.0,33.0,34.4,34.4,4.2,1.5,2.8075,0.27133141355530144,0.13466850329188076,0.9397997728153227,-0.044524753944358855,-0.191587,-16.964139
11.185,2.0,1.0,1.0,33.0,34.4,34.4,4.2,1.5,2.81,0.253333594788237,0.1289035005094302,0.9480339378591609,-0.037944003421623816,-0.16398,-17.433818
11.185,2.0,1.0,1.0,33.0,34.4,34.4,4.2,1.5,2.8125,0.235663283203808,0.123617527396079,0.955118173058236,-0.0323606247055755,-0.142198,-17.870536
11.185,2.0,1.0,1.0,33.0,34.4,34.4,4.2,1.5,2.815,0.2182949796421952,0.11878615712783652,0.961246275353291,-0.027578226920791375,-0.124914,-18.276683
11.185,2.0,1.0,1.0,33.0,34.4,34.4,4.2,1.5,2.8175,0.20119578673941874,0.11437801793675163,0.9665676334250182,-0.023444177731136114,-0.111144,-18.654417
11.185,2.0,1.0,1.0,33.0,34.4,34.4,4.2,1.5,2.82,0.18433047791044993,0.11035974440389544,0.9711980565495864,-0.019838845839896167,-0.10015,-19.005662
11.185,2.0,1.0,1.0,33.0,34.4,34.4,4.2,1.5,2.8225,0.16766422972195985,0.10669863799625368,0.9752278093455864,-0.016667620418939506,-0.091372,-19.332117
11.185,2.0,1.0,1.0,33.0,34.4,34.4,4.2,1.5,2.825,0.15116401476115315,0.10336401828129835,0.9787275762842421,-0.013854984755382263,-0.08438,-19.635276
11.185,2.0,1.0,1.0,33.0,34.4,34.4,4.2,1.5,2.8275,0.1347992315169816,0.10032783155959728,0.9817529055117967,-0.01134009653627653,-0.078843,-19.916438
11.185,2.0,1.0,1.0,33.0,34.4,34.4,4.2,1.5,2.83,0.11854190571131523,0.09756484527922848,0.9843475374981566,-0.009073471171648487,-0.074499,-20.176733
