1,w,sub_t,h,l1,l2,l3,g1,g2,Freq,S11_re,S21_re,S11_img,S21_img,S11_dB,S21_dB
11.185,2.0,1.0,1.0,33.3,33.9,33.9,3.8,4.0,2.5,0.871600597842447,-0.00455968246773207,0.478374075587783,0.00323086744583413,-0.050104,-45.05439
11.185,2.0,1.0,1.0,33.3,33.9,33.9,3.8,4.0,2.5025,0.8684985630398284,-0.004648043557961673,0.48388187390270176,0.0032399904277447115,-0.050535,-44.9347
11.185,2.0,1.0,1.0,33.3,33.9,33.9,3.8,4.0,2.505,0.8653491329400663,-0.004737849032282787,0.48939022066703886,0.0032485766774244655,-0.050972,-44.8148
11.185,2.0,1.0,1.0,33.3,33.9,33.9,3.8,4.0,2.5075,0.8621518670631285,-0.004829125488587097,0.4948989251931292,0.0032566070549672125,-0.051416,-44.694681
11.185,2.0,1.0,1.0,33.3,33.9,33.9,3.8,4.0,2.51,0.8589063180541395,-0.004921900167886561,0.5004077911846473,0.003264061778832803,-0.051868,-44.574335
11.185,2.0,1.0,1.0,33.3,33.9,33.9,3.8,4.0,2.5125,0.8556120315730612,-0.00501620097373497,0.5059166165567998,0.003270920401292987,-0.052327,-44.453753
11.185,2.0,1.0,1.0,33.3,33.9,33.9,3.8,4.0,2.515,0.8522685461827738,-0.005112056492362154,0.5114251932507863,0.003277161782800936,-0.052794,-44.332926
11.185,2.0,1.0,1.0,33.3,33.9,33.9,3.8,4.0,2.5175,0.8488753932355508,-0.005209496013553102,0.5169333070423096,0.0032827640652321483,-0.053268,-44.211845
11.185,2.0,1.0,1.0,33.3,33.9,33.9,3.8,4.0,2.52,0.8454320967579068,-0.00530854955230378,0.5224407373439518,0.003287704643935753,-0.053751,-44.090501
11.185,2.0,1.0,1.0,33.3,33.9,33.9,3.8,4.0,2.5225,0.8419381733338208,-0.005409247871289688,0.527947257001176,0.0032919601385402357,-0.054241,-43.968885
11.185,2.0,1.0,1.0,33.3,33.9,33.9,3.8,4.0,2.525,0.8383931319863067,-0.00551162250418313,0.5334526320817506,0.0032955063624456092,-0.05474,-43.846988
11.185,2.0,1.0,1.0,33.3,33.9,33.9,3.8,4.0,2.5275,0.8347964740573331,-0.005615705779857517,0.538956621658364,0.003298318290935599,-0.055247,-43.7248
11.185,2.0,1.0,1.0,33.3,33.9,33.9,3.8,4.0,2.53,0.8311476930860758,-0.0057215308475197625,0.5444589775841744,0.0033003700278393094,-0.055763,-43.602311
11.185,2.0,1.0,1.0,33.3,33.9,33.9,3.8,4.0,2.5325,0.827446274685498,-0.005829131702813212,0.549959444261061,0.0033016347706630966,-0.056288,-43.479513
11.185,2.0,1.0,1.0,33.3,33.9,33.9,3.8,4.0,2.535,0.8236916964172413,-0.005938543214936808,0.5554577584003092,0.0033020847741152114,-0.056823,-43.356396
11.185,2.0,1.0,1.0,33.3,33.9,33.9,3.8,4.0,2.5375,0.8198834276648318,-0.006049801154826462,0.5609536487754556,0.0033016913119343957,-0.057366,-43.232949
11.185,2.0,1.0,1.0,33.3,33.9,33.9,3.8,4.0,2.54,0.8160209295051796,-0.0061629422244507985,0.5664468359670174,0.0033004246369341835,-0.057919,-43.109163
11.185,2.0,1.0,1.0,33.3,33.9,33.9,3.8,4.0,2.5425,0.8121036545783744,-0.0062780040872722175,0.5719370320988111,0.003298253939163859,-0.058482,-42.985027
11.185,2.0,1.0,1.0,33.3,33.9,33.9,3.8,4.0,2.545,0.8081310469557644,-0.006395025399930479,0.5774239405655555,0.0032951473020861144,-0.059055,-42.860532
11.185,2.0,1.0,1.0,33.3,33.9,33.9,3.8,4.0,2.5475,0.8041025420063199,-0.006514045845206772,0.5829072557514313,0.0032910716566598762,-0.059638,-42.735667
11.185,2.0,1.0,1.0,33.3,33.9,33.9,3.8,4.0,2.55,0.8000175662612641,-0.006635106166331208,0.5883866627392864,0.0032859927332143145,-0.060231,-42.610421
11.185,2.0,1.0,1.0,33.3,33.9,33.9,3.8,4.0,2.5525,0.7958755372769847,-0.006758248202698571,0.5938618370101133,0.0032798750109899986,-0.060836,-42.484784
11.185,2.0,1.0,1.0,33.3,33.9,33.9,3.8,4.0,2.555,0.7916758634962039,-0.006883514927062653,0.5993324441324597,0.00327268166521648,-0.061451,-42.358745
11.185,2.0,1.0,1.0,33.3,33.9,33.9,3.8,4.0,2.5575,0.7874179441074128,-0.007010950484282502,0.6047981394413889,0.003264374511585297,-0.062077,-42.232293
11.185,2.0,1.0,1.0,33.3,33.9,33.9,3.8,4.0,2.56,0.7831011689025694,-0.00714060023169756,0.6102585677065913,0.0032549139479729344,-0.062716,-42.105417
11.185,2.0,1.0,1.0,33.3,33.9,33.9,3.8,4.0,2.5625,0.778724918133054,-0.007272510781214681,0.6157133627892413,0.0032442588932511634,-0.063366,-41.978105
11.185,2.0,1.0,1.0,33.3,33.9,33.9,3.8,4.0,2.565,0.7742885623638769,-0.007406730043194117,0.621162147287174,0.003232366723018772,-0.064028,-41.850346
11.185,2.0,1.0,1.0,33.3,33.9,33.9,3.8,4.0,2.5675,0.7697914623261511,-0.007543307272225793,0.6266045321679224,0.0032191932020740953,-0.064702,-41.722129
11.185,2.0,1.0,1.0,33.3,33.9,33.9,3.8,4.0,2.57,0.7652329687678132,-0.007682293114894424,0.6320401163891555,0.003204692413433876,-0.06539,-41.59344
11.185,2.0,1.0,1.0,33.3,33.9,33.9,3.8,4.0,2.5725,0.7606124223026035,-0.007823739659636678,0.6374684865060241,0.003188816683695892,-0.06609,-41.464268
11.185,2.0,1.0,1.0,33.3,33.9,33.9,3.8,4.0,2.575,0.7559291532573001,-0.007967700488799708,0.6428892162648999,0.0031715165045234513,-0.066804,-41.3346
11.185,2.0,1.0,1.0,33.3,33.9,33.9,3.8,4.0,2.5775,0.7511824815172097,-0.008114230733018323,0.648301866182967,0.00315274045001876,-0.067532,-41.204425
11.185,2.0,1.0,1.0,33.3,33.9,33.9,3.8,4.0,2.58,0.7463717163699187,-0.008263387128033014,0.6537059831131047,0.0031324350897327484,-0.068274,-41.073728
11.185,2.0,1.0,1.0,33.3,33.9,33.9,3.8,4.0,2.5825,0.7414961563472975,-0.00841522807408142,0.659101099793472,0.0031105448970433405,-0.06903,-40.942497
11.185,2.0,1.0,1.0,33.3,33.9,33.9,3.8,4.0,2.585,0.7365550890657678,-0.008569813698000922,0.6644867343811646,0.003087012152614739,-0.069802,-40.810718
11.185,2.0,1.0,1.0,33.3,33.9,33.9,3.8,4.0,2.5875,0.7315477910648236,-0.00872720591819136,0.6698623899693065,0.0030617768426277796,-0.070588,-40.678379
11.185,2.0,1.0,1.0,33.3,33.9,33.9,3.8,4.0,2.59,0.7264735276438167,-0.008887468512594454,0.6752275540868767,0.003034776551453039,-0.071391,-40.545464
11.185,2.0,1.0,1.0,33.3,33.9,33.9,3.8,4.0,2.5925,0.7213315526969916,-0.009050667189857094,0.6805816981805644,0.0030059463484098732,-0.072209,-40.411959
11.185,2.0,1.0,1.0,33.3,33.9,33.9,3.8,4.0,2.595,0.7161211085467869,-0.009216869663855895,0.6859242770778804,0.0029752186682311796,-0.073044,-40.277851
11.185,2.0,1.0,1.0,33.3,33.9,33.9,3.8,4.0,2.5975,0.7108414257753786,-0.00938614573177314,0.6912547284307443,0.0029425231848259096,-0.073897,-40.143123
11.185,2.0,1.0,1.0,33.3,33.9,33.9,3.8,4.0,2.6,0.7054917230544757,-0.009558567355923225,0.6965724721386989,0.0029077866778974785,-0.074766,-40.007762
11.185,2.0,1.0,1.0,33.3,33.9,33.9,3.8,4.0,2.6025,0.7000712069733568,-0.009734208749546574,0.7018769097508589,0.0028709328919477722,-0.075654,-39.871751
11.185,2.0,1.0,1.0,33.3,33.9,33.9,3.8,4.0,2.605,0.6945790718651351,-0.009913146466796537,0.7071674238456783,0.0028318823871545905,-0.07656,-39.735075
11.185,2.0,1.0,1.0,33.3,33.9,33.9,3.8,4.0,2.6075,0.6890144996312427,-0.010095459497164793,0.7124433773875305,0.002790552381577581,-0.077485,-39.597717
11.185,2.0,1.0,1.0,33.3,33.9,33.9,3.8,4.0,2.61,0.6833766595641204,-0.010281229364602575,0.717704113059068,0.002746856584099576,-0.07843,-39.45966
11.185,2.0,1.0,1.0,33.3,33.9,33.9,3.8,4.0,2.6125,0.67766470816809,-0.010470540231616355,0.7229489525682561,0.0027007050174670533,-0.079395,-39.320888
11.185,2.0,1.0,1.0,33.3,33.9,33.9,3.8,4.0,2.615,0.6718777889783814,-0.010663479008630081,0.7281771959289133,0.0026520038307416486,-0.080381,-39.181384
11.185,2.0,1.0,1.0,33.3,33.9,33.9,3.8,4.0,2.6175,0.666015032378294,-0.01086013546893241,0.7333881207135158,0.0026006551004212363,-0.081388,-39.041128
11.185,2.0,1.0,1.0,33.3,33.9,33.9,3.8,4.0,2.62,0.6600755554144474,-0.011060602369541763,0.7385809812769538,0.0025465566194259413,-0.082418,-38.900104
11.185,2.0,1.0,1.0,33.3,33.9,33.9,3.8,4.0,2.6225,0.6540584616100792,-0.011264975578350432,0.7437550079498509,0.0024896016730832095,-0.083469,-38.758292
11.185,2.0,1.0,1.0,33.3,33.9,33.9,3.8,4.0,2.625,0.647962840776346,-0.0114733542079301,0.748909406199946,0.00242967880117054,-0.084545,-38.615672
11.185,2.0,1.0,1.0,33.3,33.9,33.9,3.8,4.0,2.6275,0.6417877688215538,-0.01168584075640992,0.7540433557599804,0.0023666715449998875,-0.085644,-38.472226
11.185,2.0,1.0,1.0,33.3,33.9,33.9,3.8,4.0,2.63,0.6355323075582529,-0.011902541255864357,0.7591560097203925,0.002300458178438357,-0.086768,-38.327932
11.185,2.0,1.0,1.0,33.3,33.9,33.9,3.8,4.0,2.6325,0.6291955045081151,-0.012123565428679999,0.7642464935850348,0.0022309114216703552,-0.087918,-38.18277
11.185,2.0,1.0,1.0,33.3,33.9,33.9,3.8,4.0,2.635,0.6227763927044865,-0.012349026852404407,0.7693139042879947,0.0021578981364007415,-0.089094,-38.036718
11.185,2.0,1.0,1.0,33.3,33.9,33.9,3.8,4.0,2.6375,0.6162739904925177,-0.012579043133611072,0.7743573091694705,0.002081279001086036,-0.090298,-37.889755
11.185,2.0,1.0,1.0,33.3,33.9,33.9,3.8,4.0,2.64,0.6096873013267196,-0.012813736091358222,0.7793757449085182,0.002000908164660331,-0.091529,-37.741857
11.185,2.0,1.0,1.0,33.3,33.9,33.9,3.8,4.0,2.6425,0.6030153135658163,-0.013053231950854977,0.7843682164103191,0.0019166328770820699,-0.09279,-37.593002
11.185,2.0,1.0,1.0,33.3,33.9,33.9,3.8,4.0,2.645,0.5962570002647078,-0.013297661547995169,0.7893336956454441,0.0018282930948812898,-0.094081,-37.443164
11.185,2.0,1.0,1.0,33.3,33.9,33.9,3.8,4.0,2.6475,0.5894113189633599,-0.013547160545465025,0.7942711204384175,0.001735721059723412,-0.095402,-37.29232
11.185,2.0,1.0,1.0,33.3,33.9,33.9,3.8,4.0,2.65,0.5824772114723772,-0.013801869661181475,0.7991793932026736,0.001638740847820939,-0.096756,-37.140444
11.185,2.0,1.0,1.0,33.3,33.9,33.9,3.8,4.0,2.6525,0.5754536036550413,-0.014061934909873708,0.8040573796187539,0.0015371678878280696,-0.098143,-36.98751
11.185,2.0,1.0,1.0,33.3,33.9,33.9,3.8,4.0,2.655,0.5683394052054914,-0.014327507858675788,0.8089039072523914,0.001430808444628873,-0.099565,-36.83349
11.185,2.0,1.0,1.0,33.3,33.9,33.9,3.8,4.0,2.6575,0.5611335094227512,-0.01459874589766606,0.813717764108812,0.0013194590661908723,-0.101021,-36.678356
11.185,2.0,1.0,1.0,33.3,33.9,33.9,3.8,4.0,2.66,0.5538347929802243,-0.014875812526351569,0.818497697119318,0.0012029059903784225,-0.102515,-36.522081
11.185,2.0,1.0,1.0,33.3,33.9,33.9,3.8,4.0,2.6625,0.5464421156902638,-0.015158877657170913,0.8232424105558712,0.0010809245083295527,-0.104047,-36.364633
11.185,2.0,1.0,1.0,33.3,33.9,33.9,3.8,4.0,2.665,0.5389543202633432,-0.015448117937167195,0.8279505643690503,0.0009532782806606589,-0.105618,-36.205982
11.185,2.0,1.0,1.0,33.3,33.9,33.9,3.8,4.0,2.6675,0.5313702320613354,-0.01574371708906366,0.8326207724443369,0.0008197186024012353,-0.10723,-36.046097
11.185,2.0,1.0,1.0,33.3,33.9,33.9,3.8,4.0,2.67,0.5236886588443175,-0.01604586627306581,0.8372516007712627,0.0006799836121482091,-0.108885,-35.884944
11.185,2.0,1.0,1.0,33.3,33.9,33.9,3.8,4.0,2.6725,0.5159083905102682,-0.01635476447080945,0.8418415655194524,0.0005337974404757408,-0.110583,-35.72249
11.185,2.0,1.0,1.0,33.3,33.9,33.9,3.8,4.0,2.675,0.5080281988269609,-0.016670618892975813,0.8463891310150505,0.000380869292129664,-0.112328,-35.558699
11.185,2.0,1.0,1.0,33.3,33.9,33.9,3.8,4.0,2.6775,0.5000468371552598,-0.016993645412201178,0.850892707610425,0.00022089245596914174,-0.11412,-35.393535
11.185,2.0,1.0,1.0,33.3,33.9,33.9,3.8,4.0,2.68,0.4919630401629581,-0.017324069023031442,0.8553506494393709,5.3543235989095174e-05,-0.115961,-35.22696
11.185,2.0,1.0,1.0,33.3,33.9,33.9,3.8,4.0,2.6825,0.4837755235282059,-0.017662124330786455,0.8597612520492764,-0.00012152020395076809,-0.117853,-35.058936
11.185,2.0,1.0,1.0,33.3,33.9,33.9,3.8,4.0,2.685,0.4754829836314663,-0.018008056071336775,0.8641227499009027,-0.0003046590898519949,-0.119799,-34.88942
11.185,2.0,1.0,1.0,33.3,33.9,33.9,3.8,4.0,2.6875,0.46708409723484634,-0.018362119663930244,0.8684333137254778,-0.0004962553908072114,-0.121801,-34.718373
11.185,2.0,1.0,1.0,33.3,33.9,33.9,3.8,4.0,2.69,0.45857752114753947,-0.018724581799351263,0.8726910477277663,-0.0006967132857730611,-0.12386,-34.545749
11.185,2.0,1.0,1.0,33.3,33.9,33.9,3.8,4.0,2.6925,0.4499618918759732,-0.019095721065848604,0.876893986622625,-0.0009064607550444861,-0.12598,-34.371504
11.185,2.0,1.0,1.0,33.3,33.9,33.9,3.8,4.0,2.695,0.4412358252571806,-0.019475828615425607,0.8810400924912108,-0.0011259513088400824,-0.128162,-34.19559
11.185,2.0,1.0,1.0,33.3,33.9,33.9,3.8,4.0,2.6975,0.43239791607371303,-0.0198652088732512,0.885127251441573,-0.0013556658668285424,-0.130411,-34.017959
11.185,2.0,1.0,1.0,33.3,33.9,33.9,3.8,4.0,2.7,0.4234467376483547,-0.020264180293114928,0.8891532700566622,-0.0015961148040172883,-0.132727,-33.838559
11.185,2.0,1.0,1.0,33.3,33.9,33.9,3.8,4.0,2.7025,0.4143808414166884,-0.020673076162026623,0.8931158716109491,-0.0018478401802312766,-0.135116,-33.657338
11.185,2.0,1.0,1.0,33.3,33.9,33.9,3.8,4.0,2.705,0.4051987564754835,-0.021092245457219362,0.8970126920347113,-0.002111418172452603,-0.137579,-33.47424
11.185,2.0,1.0,1.0,33.3,33.9,33.9,3.8,4.0,2.7075,0.3958989891046923,-0.021522053758992712,0.900841275602658,-0.0023874617316032,-0.14012,-33.289209
11.185,2.0,1.0,1.0,33.3,33.9,33.9,3.8,4.0,2.71,0.38648002226075223,-0.021962884222978284,0.9045990703208611,-0.0026766234879829153,-0.142744,-33.102184
11.185,2.0,1.0,1.0,33.3,33.9,33.9,3.8,4.0,2.7125,0.376940315038734,-0.022415138615562376,0.9082834229828668,-0.002979598932561219,-0.145453,-32.913102
11.185,2.0,1.0,1.0,33.3,33.9,33.9,3.8,4.0,2.715,0.36727830210081414,-0.022879238416312415,0.9118915738623764,-0.003297129904723485,-0.148253,-32.721899
11.185,2.0,1.0,1.0,33.3,33.9,33.9,3.8,4.0,2.7175,0.3574923930684535,-0.023355625991342846,0.915420651005891,-0.0036300084209570558,-0.151147,-32.528507
11.185,2.0,1.0,1.0,33.3,33.9,33.9,3.8,4.0,2.72,0.34758097187566284,-0.023844765841600467,0.9188676640841599,-0.0039790808833931905,-0.15414,-32.332854
11.185,2.0,1.0,1.0,33.3,33.9,33.9,3.8,4.0,2.7225,0.3375423960807319,-0.024347145930022327,0.9222294977560882,-0.004345252712204671,-0.157238,-32.134866
11.185,2.0,1.0,1.0,33.3,33.9,33.9,3.8,4.0,2.725,0.327374996133962,-0.024863279091412657,0.9255029044927803,-0.004729493451681546,-0.160446,-31.934465
11.185,2.0,1.0,1.0,33.3,33.9,33.9,3.8,4.0,2.7275,0.3170770745990895,-0.025393704528670187,0.9286844968025774,-0.0051328424064969545,-0.16377,-31.731569
11.185,2.0,1.0,1.0,33.3,33.9,33.9,3.8,4.0,2.73,0.30664690532651573,-0.025938989398624473,0.9317707387900799,-0.005556414872379325,-0.167215,-31.526094
11.185,2.0,1.0,1.0,33.3,33.9,33.9,3.8,4.0,2.7325,0.29608273257693146,-0.02649973049018345,0.9347579369730938,-0.006001409034294006,-0.17079,-31.31795
11.185,2.0,1.0,1.0,33.3,33.9,33.9,3.8,4.0,2.735,0.28538277009475777,-0.0270765559966795,0.9376422302709965,-0.0064691136154968135,-0.174501,-31.107043
11.185,2.0,1.0,1.0,33.3,33.9,33.9,3.8,4.0,2.7375,0.2745452001318704,-0.027670127383171043,0.9404195790659216,-0.006960916372716982,-0.178355,-30.893274
11.185,2.0,1.0,1.0,33.3,33.9,33.9,3.8,4.0,2.74,0.2635681724236003,-0.02828114134789703,0.9430857532241692,-0.007478313546513548,-0.182362,-30.67654
11.185,2.0,1.0,1.0,33.3,33.9,33.9,3.8,4.0,2.7425,0.25244980312098786,-0.02891033187499748,0.9456363189489738,-0.008022920391890379,-0.186531,-30.456733
11.185,2.0,1.0,1.0,33.3,33.9,33.9,3.8,4.0,2.745,0.2411881736859612,-0.02955847237282787,0.9480666243168222,-0.008596482932939716,-0.190871,-30.233737
11.185,2.0,1.0,1.0,33.3,33.9,33.9,3.8,4.0,2.7475,0.2297813297596516,-0.03022637788852915,0.9503717833274389,-0.00920089110711012,-0.195394,-30.007431
11.185,2.0,1.0,1.0,33.3,33.9,33.9,3.8,4.0,2.75,0.218227280018689,-0.0309149073847103,0.952546658271713,-0.00983819349023413,-0.200111,-29.77769
11.185,2.0,1.0,1.0,33.3,33.9,33.9,3.8,4.0,2.7525,0.2065239950404072,-0.03162496605784251,0.9545858401915968,-0.010510613823412921,-0.205034,-29.544378
11.185,2.0,1.0,1.0,33.3,33.9,33.9,3.8,4.0,2.755,0.19466940620578435,-0.0323575076698205,0.9564836271704295,-0.011220569598092485,-0.210178,-29.307355
11.185,2.0,1.0,1.0,33.3,33.9,33.9,3.8,4.0,2.7575,0.18266140467916717,-0.03311353685361393,0.9582340001503091,-0.011970692997182642,-0.215558,-29.06647
11.185,2.0,1.0,1.0,33.3,33.9,33.9,3.8,4.0,2.76,0.17049784051716835,-0.03389411134028861,0.959830595923706,-0.012763854539137386,-0.22119,-28.821566
11.185,2.0,1.0,1.0,33.3,33.9,33.9,3.8,4.0,2.7625,0.15817652197626744,-0.03470034403704974,0.9612666768880666,-0.013603189830016169,-0.227093,-28.572475
11.185,2.0,1.0,1.0,33.3,33.9,33.9,3.8,4.0,2.765,0.1456952151109452,-0.03553340486318376,0.9625350970827986,-0.014492129897537984,-0.233287,-28.31902
11.185,2.0,1.0,1.0,33.3,33.9,33.9,3.8,4.0,2.7675,0.13305164378297782,-0.03639452222132691,0.9636282639455795,-0.015434435663253414,-0.239793,-28.061013
11.185,2.0,1.0,1.0,33.3,33.9,33.9,3.8,4.0,2.77,0.12024349023981354,-0.03728498394339965,0.9645380951266047,-0.016434237206960703,-0.246637,-27.798254
11.185,2.0,1.0,1.0,33.3,33.9,33.9,3.8,4.0,2.7725,0.10726839646835667,-0.03820613750122179,0.9652559695818783,-0.01749607859470976,-0.253844,-27.530531
11.185,2.0,1.0,1.0,33.3,33.9,33.9,3.8,4.0,2.775,0.09412396659327443,-0.03915938920782449,0.965772672025834,-0.01862496918235595,-0.261445,-27.257619
11.185,2.0,1.0,1.0,33.3,33.9,33.9,3.8,4.0,2.7775,0.0808077706706673,-0.04014620205231719,0.9660783296543921,-0.019826442475669417,-0.269474,-26.979278
11.185,2.0,1.0,1.0,33.3,33.9,33.9,3.8,4.0,2.78,0.06731735033445013,-0.04116809170282662,0.9661623398458169,-0.02110662383179341,-0.277966,-26.695251
11.185,2.0,1.0,1.0,33.3,33.9,33.9,3.8,4.0,2.7825,0.0536502268920419,-0.04222662007052905,0.9660132873007421,-0.022472308533043057,-0.286963,-26.405265
11.185,2.0,1.0,1.0,33.3,33.9,33.9,3.8,4.0,2.785,0.03980391264837555,-0.043323385642467994,0.9656188487850996,-0.023931052062206224,-0.296512,-26.109029
11.185,2.0,1.0,1.0,33.3,33.9,33.9,3.8,4.0,2.7875,0.025775926477202657,-0.044460009547310976,0.9649656832787024,-0.025491274770352637,-0.306665,-25.80623
11.185,2.0,1.0,1.0,33.3,33.9,33.9,3.8,4.0,2.79,0.011563814975053243,-0.04563811599708658,0.9640393048936493,-0.027162383568151278,-0.31748,-25.496535
11.185,2.0,1.0,1.0,33.3,33.9,33.9,3.8,4.0,2.7925,-0.0028348190477062445,-0.046859305322930964,0.9628239353929274,-0.028954913807558533,-0.329025,-25.179584
11.185,2.0,1.0,1.0,33.3,33.9,33.9,3.8,4.0,2.795,-0.01742227842737588,-0.048125117258123254,0.9613023324890857,-0.030880695174208016,-0.341374,-24.854995
11.185,2.0,1.0,1.0,33.3,33.9,33.9,3.8,4.0,2.7975,-0.03220072080410271,-0.04943698136803827,0.9594555893096346,-0.03295304620819352,-0.354613,-24.522353
11.185,2.0,1.0,1.0,33.3,33.9,33.9,3.8,4.0,2.8,-0.04717209102412464,-0.05079615051641624,0.9572628994485167,-0.03518700304389434,-0.368842,-24.181215
11.185,2.0,1.0,1.0,33.3,33.9,33.9,3.8,4.0,2.8025,-0.06233803139266842,-0.05220361189677242,0.9547012808447438,-0.03759958914533243,-0.384173,-23.831102
11.185,2.0,1.0,1.0,33.3,33.9,33.9,3.8,4.0,2.805,-0.07769976256553135,-0.05365996831633642,0.9517452502976682,-0.040210134255247464,-0.400736,-23.471498
11.185,2.0,1.0,1.0,33.3,33.9,33.9,3.8,4.0,2.8075,-0.09325792539461197,-0.05516527991490141,0.9483664386967414,-0.04304065252081248,-0.418683,-23.101847
11.185,2.0,1.0,1.0,33.3,33.9,33.9,3.8,4.0,2.81,-0.10901237066076164,-0.05671885307529782,0.9445331349650155,-0.0461162918544279,-0.438188,-22.721546
11.185,2.0,1.0,1.0,33.3,33.9,33.9,3.8,4.0,2.8125,-0.124961878977378,-0.0583189585722236,0.940209744250404,-0.0494658690746226,-0.459458,-22.329946
11.185,2.0,1.0,1.0,33.3,33.9,33.9,3.8,4.0,2.815,-0.14110378672000698,-0.05996245449510776,0.9353561430308716,-0.05312250826635233,-0.482733,-21.926343
11.185,2.0,1.0,1.0,33.3,33.9,33.9,3.8,4.0,2.8175,-0.1574334849027137,-0.06164428043088482,0.929926910567308,-0.057124403063968834,-0.508299,-21.509976
11.185,2.0,1.0,1.0,33.3,33.9,33.9,3.8,4.0,2.82,-0.17394374543848054,-0.06335677674748592,0.9238704126895947,-0.06151572704428443,-0.536495,-21.08002
11.185,2.0,1.0,1.0,33.3,33.9,33.9,3.8,4.0,2.8225,-0.19062381169157183,-0.06508876506153946,0.9171277105997238,-0.06634771975604917,-0.567723,-20.635583
11.185,2.0,1.0,1.0,33.3,33.9,33.9,3.8,4.0,2.825,-0.20745816550485152,-0.06682430092507181,0.909631264982529,-0.07167997833689292,-0.602472,-20.175702
11.185,2.0,1.0,1.0,33.3,33.9,33.9,3.8,4.0,2.8275,-0.22442484788369368,-0.06854097430216066,0.9013034057235715,-0.07758198467026085,-0.64133,-19.699337
