1,w,sub_t,h,l1,l2,l3,g1,g2,Freq,S11_re,S21_re,S11_img,S21_img,S11_dB,S21_dB
11.185,2.0,1.0,1.0,33.0,34.7,34.7,2.4,4.3,2.5,0.894299354423467,-0.00586902495829952,0.433261635748884,0.00549989617784847,-0.054686,-41.891339
11.185,2.0,1.0,1.0,33.0,34.7,34.7,2.4,4.3,2.5025,0.8915592601575041,-0.006004013264848075,0.43872827003091097,0.005544175240562943,-0.055243,-41.753142
11.185,2.0,1.0,1.0,33.0,34.7,34.7,2.4,4.3,2.505,0.8887737727172051,-0.006141980010878645,0.4441986464330882,0.005588460720000306,-0.055811,-41.614354
11.185,2.0,1.0,1.0,33.0,34.7,34.7,2.4,4.3,2.5075,0.8859424042738561,-0.0062830086259089354,0.449672662902266,0.005632741214902945,-0.056391,-41.474958
11.185,2.0,1.0,1.0,33.0,34.7,34.7,2.4,4.3,2.51,0.883064656372605,-0.006427185681209567,0.4551502137580393,0.005677004633874378,-0.056983,-41.334935
11.185,2.0,1.0,1.0,33.0,34.7,34.7,2.4,4.3,2.5125,0.880140019617096,-0.006574601037855279,0.46063118954182997,0.005721238152201061,-0.057587,-41.194268
11.185,2.0,1.0,1.0,33.0,34.7,34.7,2.4,4.3,2.515,0.8771679733409973,-0.006725348003151504,0.4661154768592094,0.005765428165669811,-0.058205,-41.052938
11.185,2.0,1.0,1.0,33.0,34.7,34.7,2.4,4.3,2.5175,0.8741479852656997,-0.006879523495989009,0.4716029582150682,0.005809560241144897,-0.058835,-40.910925
11.185,2.0,1.0,1.0,33.0,34.7,34.7,2.4,4.3,2.52,0.8710795111433934,-0.007037228221722188,0.4770935118412368,0.005853619063648505,-0.059479,-40.768211
11.185,2.0,1.0,1.0,33.0,34.7,34.7,2.4,4.3,2.5225,0.8679619943847102,-0.007198566857211035,0.4825870115160981,0.005897588379665104,-0.060138,-40.624775
11.185,2.0,1.0,1.0,33.0,34.7,34.7,2.4,4.3,2.525,0.8647948656700181,-0.0073636482467166,0.48808332637574564,0.005941450936365667,-0.06081,-40.480598
11.185,2.0,1.0,1.0,33.0,34.7,34.7,2.4,4.3,2.5275,0.8615775425434267,-0.007532585609393133,0.49358232071616537,0.005985188416419753,-0.061498,-40.335657
11.185,2.0,1.0,1.0,33.0,34.7,34.7,2.4,4.3,2.53,0.8583094289884758,-0.007705496759178136,0.49908385378589837,0.006028781368033664,-0.062201,-40.189933
11.185,2.0,1.0,1.0,33.0,34.7,34.7,2.4,4.3,2.5325,0.8549899149844075,-0.007882504337944749,0.5045877795686048,0.006072209129818711,-0.06292,-40.043402
11.185,2.0,1.0,1.0,33.0,34.7,34.7,2.4,4.3,2.535,0.85161837604184,-0.008063736062850593,0.5100939465548948,0.0061154497500582605,-0.063655,-39.896044
11.185,2.0,1.0,1.0,33.0,34.7,34.7,2.4,4.3,2.5375,0.8481941727165863,-0.008249324988890862,0.5156021975027378,0.0061584798998998835,-0.064408,-39.747833
11.185,2.0,1.0,1.0,33.0,34.7,34.7,2.4,4.3,2.54,0.844716650100244,-0.008439409787747008,0.5211123691857233,0.006201274779955608,-0.065178,-39.598748
11.185,2.0,1.0,1.0,33.0,34.7,34.7,2.4,4.3,2.5425,0.8411851372860957,-0.00863413504411057,0.5266242921283754,0.006243808019743027,-0.065966,-39.448763
11.185,2.0,1.0,1.0,33.0,34.7,34.7,2.4,4.3,2.545,0.8375989468087421,-0.008833651570759863,0.5321377903276523,0.006286051569345236,-0.066773,-39.297853
11.185,2.0,1.0,1.0,33.0,34.7,34.7,2.4,4.3,2.5475,0.8339573740557661,-0.009038116743773862,0.5376526809597014,0.006327975582607114,-0.067599,-39.145994
11.185,2.0,1.0,1.0,33.0,34.7,34.7,2.4,4.3,2.55,0.8302596966495895,-0.009247694859384564,0.5431687740708578,0.006369548291117717,-0.068445,-38.993159
11.185,2.0,1.0,1.0,33.0,34.7,34.7,2.4,4.3,2.5525,0.8265051737975488,-0.009462557514096661,0.5486858722517753,0.006410735868154497,-0.069312,-38.83932
11.185,2.0,1.0,1.0,33.0,34.7,34.7,2.4,4.3,2.555,0.8226930456080404,-0.009682884009843759,0.5542037702934968,0.006451502281681328,-0.070201,-38.684451
11.185,2.0,1.0,1.0,33.0,34.7,34.7,2.4,4.3,2.5575,0.8188225323704245,-0.009908861786104409,0.5597222548241646,0.006491809135400631,-0.071111,-38.528522
11.185,2.0,1.0,1.0,33.0,34.7,34.7,2.4,4.3,2.56,0.8148928337961846,-0.010140686881068681,0.5652411039249325,0.006531615496756767,-0.072045,-38.371503
11.185,2.0,1.0,1.0,33.0,34.7,34.7,2.4,4.3,2.5625,0.8109031282186238,-0.01037856442413332,0.5707600867235311,0.006570877710673548,-0.073003,-38.213366
11.185,2.0,1.0,1.0,33.0,34.7,34.7,2.4,4.3,2.565,0.8068525717481532,-0.0106227091622057,0.5762789629637927,0.006609549197680852,-0.073985,-38.054077
11.185,2.0,1.0,1.0,33.0,34.7,34.7,2.4,4.3,2.5675,0.8027402973799852,-0.01087334602252193,0.5817974825492612,0.006647580234942597,-0.074994,-37.893606
11.185,2.0,1.0,1.0,33.0,34.7,34.7,2.4,4.3,2.57,0.7985654140507553,-0.011130710714932143,0.587315385058855,0.006684917718538929,-0.076029,-37.731918
11.185,2.0,1.0,1.0,33.0,34.7,34.7,2.4,4.3,2.5725,0.7943270056402945,-0.011395050376877608,0.5928323992323387,0.006721504905176492,-0.077092,-37.568979
11.185,2.0,1.0,1.0,33.0,34.7,34.7,2.4,4.3,2.575,0.7900241299144545,-0.011666624264586718,0.5983482424231469,0.006757281131300547,-0.078183,-37.404755
11.185,2.0,1.0,1.0,33.0,34.7,34.7,2.4,4.3,2.5775,0.7856558174045049,-0.011945704494348118,0.6038626200158381,0.006792181507357971,-0.079305,-37.239208
11.185,2.0,1.0,1.0,33.0,34.7,34.7,2.4,4.3,2.58,0.7812210702182213,-0.012232576838087976,0.6093752248051978,0.006826136584707221,-0.080458,-37.0723
11.185,2.0,1.0,1.0,33.0,34.7,34.7,2.4,4.3,2.5825,0.7767188607773361,-0.012527541577886023,0.61488573633369,0.0068590719923874825,-0.081643,-36.903993
11.185,2.0,1.0,1.0,33.0,34.7,34.7,2.4,4.3,2.585,0.7721481304755341,-0.01283091442451533,0.6203938201836056,0.0068909080406386845,-0.082862,-36.734246
11.185,2.0,1.0,1.0,33.0,34.7,34.7,2.4,4.3,2.5875,0.7675077882506118,-0.013143027505593317,0.625899127219872,0.006921559287702745,-0.084116,-36.563017
11.185,2.0,1.0,1.0,33.0,34.7,34.7,2.4,4.3,2.59,0.762796709063839,-0.013464230429486213,0.6314012927790391,0.006950934066028235,-0.085407,-36.390263
11.185,2.0,1.0,1.0,33.0,34.7,34.7,2.4,4.3,2.5925,0.7580137322788558,-0.013794891431729657,0.6368999357994717,0.0069789339635388265,-0.086736,-36.215938
11.185,2.0,1.0,1.0,33.0,34.7,34.7,2.4,4.3,2.595,0.7531576599317351,-0.014135398611414829,0.6423946578872027,0.007005453255102244,-0.088105,-36.039998
11.185,2.0,1.0,1.0,33.0,34.7,34.7,2.4,4.3,2.5975,0.7482272548829602,-0.014486161265759554,0.6478850423112865,0.0070303782787431894,-0.089516,-35.862392
11.185,2.0,1.0,1.0,33.0,34.7,34.7,2.4,4.3,2.6,0.7432212388411877,-0.01484761133193788,0.6533706529217705,0.007053586750468198,-0.090971,-35.683072
11.185,2.0,1.0,1.0,33.0,34.7,34.7,2.4,4.3,2.6025,0.7381382902476229,-0.015220204946199205,0.6588510329825729,0.007074947010802761,-0.092471,-35.501985
11.185,2.0,1.0,1.0,33.0,34.7,34.7,2.4,4.3,2.605,0.7329770420086699,-0.015604424131378374,0.6643257039106658,0.0070943171952654,-0.094019,-35.319077
11.185,2.0,1.0,1.0,33.0,34.7,34.7,2.4,4.3,2.6075,0.7277360790632732,-0.016000778625094886,0.6697941639118843,0.007111544320003002,-0.095617,-35.134293
11.185,2.0,1.0,1.0,33.0,34.7,34.7,2.4,4.3,2.61,0.7224139357699045,-0.01640980786228268,0.6752558865024889,0.007126463272668672,-0.097267,-34.947574
11.185,2.0,1.0,1.0,33.0,34.7,34.7,2.4,4.3,2.6125,0.7170090930965609,-0.016832083127199634,0.6807103189042655,0.007138895697312542,-0.098972,-34.758859
11.185,2.0,1.0,1.0,33.0,34.7,34.7,2.4,4.3,2.615,0.7115199755953303,-0.017268209891759624,0.6861568802993506,0.007148648760552145,-0.100735,-34.568086
11.185,2.0,1.0,1.0,33.0,34.7,34.7,2.4,4.3,2.6175,0.705944948141077,-0.017718830358935452,0.6915949599291932,0.007155513784559282,-0.102558,-34.375188
11.185,2.0,1.0,1.0,33.0,34.7,34.7,2.4,4.3,2.62,0.7002823124115142,-0.01818462623213069,0.6970239150200034,0.007159264730408105,-0.104444,-34.180097
11.185,2.0,1.0,1.0,33.0,34.7,34.7,2.4,4.3,2.6225,0.6945303030833793,-0.01866632173384028,0.7024430685146646,0.007159656513029477,-0.106398,-33.982743
11.185,2.0,1.0,1.0,33.0,34.7,34.7,2.4,4.3,2.625,0.688687083716556,-0.0191646868996575,0.707851706588338,0.00715642312635719,-0.108422,-33.783049
11.185,2.0,1.0,1.0,33.0,34.7,34.7,2.4,4.3,2.6275,0.6827507422947141,-0.01968054117678371,0.713249075921848,0.007149275554169573,-0.11052,-33.580939
11.185,2.0,1.0,1.0,33.0,34.7,34.7,2.4,4.3,2.63,0.6767192863873844,-0.020214757359703347,0.7186343807032504,0.007137899438552049,-0.112697,-33.376332
11.185,2.0,1.0,1.0,33.0,34.7,34.7,2.4,4.3,2.6325,0.6705906378942007,-0.02076826589966761,0.7240067793237355,0.007121952473740658,-0.114956,-33.169142
11.185,2.0,1.0,1.0,33.0,34.7,34.7,2.4,4.3,2.635,0.6643626273273415,-0.02134205962914959,0.729365380729079,0.00710106148825101,-0.117303,-32.95928
11.185,2.0,1.0,1.0,33.0,34.7,34.7,2.4,4.3,2.6375,0.65803298758283,-0.02193719894757435,0.7347092403820445,0.007074819172519651,-0.119742,-32.746653
11.185,2.0,1.0,1.0,33.0,34.7,34.7,2.4,4.3,2.64,0.6515993471452625,-0.02255481752048437,0.7400373557844291,0.0070427804026335986,-0.122279,-32.531164
11.185,2.0,1.0,1.0,33.0,34.7,34.7,2.4,4.3,2.6425,0.6450592226636046,-0.023196128550975935,0.7453486614994772,0.0070044581029143314,-0.124919,-32.31271
11.185,2.0,1.0,1.0,33.0,34.7,34.7,2.4,4.3,2.645,0.6384100108277805,-0.02386243168987083,0.7506420236061162,0.00695931858092608,-0.12767,-32.091185
11.185,2.0,1.0,1.0,33.0,34.7,34.7,2.4,4.3,2.6475,0.6316489794667542,-0.024555120659805432,0.7559162335054719,0.006906776257626186,-0.130538,-31.866476
11.185,2.0,1.0,1.0,33.0,34.7,34.7,2.4,4.3,2.65,0.6247732577784619,-0.025275691678407188,0.7611700009871887,0.006846187702533193,-0.13353,-31.638463
11.185,2.0,1.0,1.0,33.0,34.7,34.7,2.4,4.3,2.6525,0.6177798255901797,-0.02602575277716973,0.7664019464476868,0.006776844868550951,-0.136655,-31.407023
11.185,2.0,1.0,1.0,33.0,34.7,34.7,2.4,4.3,2.655,0.6106655015343008,-0.026807034125780515,0.7716105921342916,0.006697967402956911,-0.139922,-31.172024
11.185,2.0,1.0,1.0,33.0,34.7,34.7,2.4,4.3,2.6575,0.6034269300090117,-0.027621399486744726,0.7767943522673808,0.006608693889431494,-0.14334,-30.933329
11.185,2.0,1.0,1.0,33.0,34.7,34.7,2.4,4.3,2.66,0.5960605667754514,-0.028470858942513836,0.7819515218667441,0.0065080718501166765,-0.146919,-30.690791
11.185,2.0,1.0,1.0,33.0,34.7,34.7,2.4,4.3,2.6625,0.5885626630224365,-0.02935758305730971,0.787080264077162,0.006395046305618312,-0.150672,-30.444256
11.185,2.0,1.0,1.0,33.0,34.7,34.7,2.4,4.3,2.665,0.5809292477061568,-0.030283918658864244,0.7921785957507457,0.006268446653446812,-0.154611,-30.193563
11.185,2.0,1.0,1.0,33.0,34.7,34.7,2.4,4.3,2.6675,0.573156107945071,-0.03125240645182612,0.7972443709983268,0.006126971580189504,-0.15875,-29.938538
11.185,2.0,1.0,1.0,33.0,34.7,34.7,2.4,4.3,2.67,0.565238767218825,-0.032265800705189814,0.8022752623674161,0.00596917166791719,-0.163104,-29.679001
11.185,2.0,1.0,1.0,33.0,34.7,34.7,2.4,4.3,2.6725,0.557172461083905,-0.03332709129137174,0.8072687392376711,0.005793429288688434,-0.16769,-29.414757
11.185,2.0,1.0,1.0,33.0,34.7,34.7,2.4,4.3,2.675,0.5489521100771148,-0.03443952839520784,0.8122220429436,0.005597935299674052,-0.172526,-29.145603
11.185,2.0,1.0,1.0,33.0,34.7,34.7,2.4,4.3,2.6775,0.5405722894300601,-0.0356066502579409,0.8171321580348384,0.005380661951772742,-0.177634,-28.87132
11.185,2.0,1.0,1.0,33.0,34.7,34.7,2.4,4.3,2.68,0.5320271951627784,-0.03683231437504106,0.8219957789621455,0.0051393313020378925,-0.183037,-28.591677
11.185,2.0,1.0,1.0,33.0,34.7,34.7,2.4,4.3,2.6825,0.5233106060615746,-0.03812073262834011,0.82680927132652,0.004871378268935063,-0.188759,-28.306429
11.185,2.0,1.0,1.0,33.0,34.7,34.7,2.4,4.3,2.685,0.5144158409740189,-0.03947651090334335,0.8315686266420659,0.004573907281892703,-0.19483,-28.015311
11.185,2.0,1.0,1.0,33.0,34.7,34.7,2.4,4.3,2.6875,0.50533571077218,-0.0409046938224948,0.836269409330843,0.00424364124313497,-0.201282,-27.718044
11.185,2.0,1.0,1.0,33.0,34.7,34.7,2.4,4.3,2.69,0.4960624642427798,-0.042410815315203694,0.8409066943775219,0.0038768612279012904,-0.20815,-27.414328
11.185,2.0,1.0,1.0,33.0,34.7,34.7,2.4,4.3,2.6925,0.48658772705981396,-0.044000955845729474,0.8454749937071226,0.003469334982617706,-0.215476,-27.103842
11.185,2.0,1.0,1.0,33.0,34.7,34.7,2.4,4.3,2.695,0.47690243288192785,-0.04568180722989868,0.8499681688893572,0.003016231818193109,-0.223304,-26.786242
11.185,2.0,1.0,1.0,33.0,34.7,34.7,2.4,4.3,2.6975,0.46699674549509784,-0.047460746089102196,0.8543793271905618,0.002512020909544571,-0.231688,-26.461159
11.185,2.0,1.0,1.0,33.0,34.7,34.7,2.4,4.3,2.7,0.45685997079523766,-0.04934591711076657,0.8587006972524049,0.0019503492660376213,-0.240685,-26.128196
11.185,2.0,1.0,1.0,33.0,34.7,34.7,2.4,4.3,2.7025,0.44648045728258395,-0.05134632740060349,0.8629234797273324,0.0013238946821683619,-0.250364,-25.786926
11.185,2.0,1.0,1.0,33.0,34.7,34.7,2.4,4.3,2.705,0.435845483633713,-0.05347195330951743,0.8670376669797226,0.0006241877488358995,-0.260802,-25.436887
11.185,2.0,1.0,1.0,33.0,34.7,34.7,2.4,4.3,2.7075,0.4249411318501755,-0.055733861173896816,0.8710318243831342,-0.00015860458356734285,-0.272089,-25.077582
11.185,2.0,1.0,1.0,33.0,34.7,34.7,2.4,4.3,2.71,0.4137521444923236,-0.058144343383994525,0.8748928236922513,-0.0010359434645231325,-0.284327,-24.708472
11.185,2.0,1.0,1.0,33.0,34.7,34.7,2.4,4.3,2.7125,0.4022617646530828,-0.06071707102959013,0.8786055162873299,-0.0020212428982609616,-0.297637,-24.328974
11.185,2.0,1.0,1.0,33.0,34.7,34.7,2.4,4.3,2.715,0.3904515577062666,-0.06346726396617135,0.8821523305678376,-0.0031302706117225776,-0.312159,-23.938453
11.185,2.0,1.0,1.0,33.0,34.7,34.7,2.4,4.3,2.7175,0.3783012146327028,-0.06641187834038968,0.8855127731233893,-0.004381645532313268,-0.328056,-23.536221
11.185,2.0,1.0,1.0,33.0,34.7,34.7,2.4,4.3,2.72,0.36578833813306466,-0.0695698101582138,0.8886628071426784,-0.0057974585791409974,-0.345524,-23.121529
11.185,2.0,1.0,1.0,33.0,34.7,34.7,2.4,4.3,2.7225,0.35288821517559393,-0.07296211097005886,0.8915740733013304,-0.00740405174246503,-0.364792,-22.693558
11.185,2.0,1.0,1.0,33.0,34.7,34.7,2.4,4.3,2.725,0.3395735837358704,-0.07661220753896864,0.8942129073706186,-0.009233001490764448,-0.386136,-22.251417
11.185,2.0,1.0,1.0,33.0,34.7,34.7,2.4,4.3,2.7275,0.32581440828707126,-0.08054611041391602,0.8965390940257576,-0.011322367391586867,-0.409885,-21.794129
11.185,2.0,1.0,1.0,33.0,34.7,34.7,2.4,4.3,2.73,0.31157768974573086,-0.08479258497653142,0.8985042764823645,-0.013718286786516137,-0.43644,-21.320629
11.185,2.0,1.0,1.0,33.0,34.7,34.7,2.4,4.3,2.7325,0.2968273537537605,-0.08938324004967678,0.9000499149100017,-0.016477023166353702,-0.466287,-20.82975
11.185,2.0,1.0,1.0,33.0,34.7,34.7,2.4,4.3,2.735,0.2815242907661557,-0.09435245911728181,0.9011046508424988,-0.019667611766596847,-0.500026,-20.320216
11.185,2.0,1.0,1.0,33.0,34.7,34.7,2.4,4.3,2.7375,0.26562666961181247,-0.09973705033408477,0.9015808873782541,-0.023375293479614194,-0.538398,-19.790638
11.185,2.0,1.0,1.0,33.0,34.7,34.7,2.4,4.3,2.74,0.24909072487241773,-0.10557541181419919,0.9013703331106695,-0.027705990151069664,-0.582329,-19.239501
11.185,2.0,1.0,1.0,33.0,34.7,34.7,2.4,4.3,2.7425,0.23187234721933714,-0.11190587836124215,0.9003381797225416,-0.032792152336140586,-0.632985,-18.66517
11.185,2.0,1.0,1.0,33.0,34.7,34.7,2.4,4.3,2.745,0.21393001725612015,-0.11876370207292249,0.898315491101941,-0.03880040236965229,-0.69185,-18.065891
11.185,2.0,1.0,1.0,33.0,34.7,34.7,2.4,4.3,2.7475,0.19522997094097672,-0.1261757682116807,0.895089288286269,-0.04594148817745414,-0.76083,-17.439815
11.185,2.0,1.0,1.0,33.0,34.7,34.7,2.4,4.3,2.75,0.175755055196632,-0.134151571932044,0.890389757923364,-0.0544831174428937,-0.842395,-16.78504
11.185,2.0,1.0,1.0,33.0,34.7,34.7,2.4,4.3,2.7525,0.15551966268588457,-0.14266804337023797,0.8838740903567178,-0.06476615789404623,-0.939777,-16.099693
11.185,2.0,1.0,1.0,33.0,34.7,34.7,2.4,4.3,2.755,0.1345946267757788,-0.15164430580969188,0.8751068976575181,-0.07722423380604401,-1.057239,-15.382078
11.185,2.0,1.0,1.0,33.0,34.7,34.7,2.4,4.3,2.7575,0.1131482664121199,-0.16090012954632196,0.8635384868619052,-0.09240540063044354,-1.200437,-14.630931
11.185,2.0,1.0,1.0,33.0,34.7,34.7,2.4,4.3,2.76,0.09151308042074295,-0.17008852218826057,0.8484855643212905,-0.1109912335261114,-1.376883,-13.845849
11.185,2.0,1.0,1.0,33.0,34.7,34.7,2.4,4.3,2.7625,0.07029153391446041,-0.17858895642655148,0.8291264085715037,-0.13380111921043836,-1.596483,-13.02799
11.185,2.0,1.0,1.0,33.0,34.7,34.7,2.4,4.3,2.765,0.05051657069491344,-0.18534560461201957,0.8045380692983798,-0.1617538743618585,-1.87198,-12.181204
11.185,2.0,1.0,1.0,33.0,34.7,34.7,2.4,4.3,2.7675,0.033874782231122356,-0.18864286618447484,0.7738320675816208,-0.19572968392283838,-2.218751,-11.313777
11.185,2.0,1.0,1.0,33.0,34.7,34.7,2.4,4.3,2.77,0.02296123020379825,-0.18584996773424922,0.7364888448657896,-0.23623139749416633,-2.652457,-10.440936
11.185,2.0,1.0,1.0,33.0,34.7,34.7,2.4,4.3,2.7725,0.02142317540663048,-0.1732793044712718,0.6930255383380489,-0.28271016075629885,-3.180867,-9.588018
11.185,2.0,1.0,1.0,33.0,34.7,34.7,2.4,4.3,2.775,0.03362820147625742,-0.14652648189673412,0.6460529442765734,-0.3325008854719646,-3.782887,-8.793377
11.185,2.0,1.0,1.0,33.0,34.7,34.7,2.4,4.3,2.7775,0.06327368666457017,-0.10187833156076115,0.6013614085561533,-0.37973390835262727,-4.369474,-8.10855
11.185,2.0,1.0,1.0,33.0,34.7,34.7,2.4,4.3,2.78,0.11069168116594652,-0.03903084002327883,0.5678302265139348,-0.4154399625502303,-4.753653,-7.591669
11.185,2.0,1.0,1.0,33.0,34.7,34.7,2.4,4.3,2.7825,0.1702256173148895,0.03627925901635207,0.5546118943109308,-0.43040352963196815,-4.729232,-7.291736
11.185,2.0,1.0,1.0,33.0,34.7,34.7,2.4,4.3,2.785,0.2307982558120999,0.1128726564461035,0.5661790094129474,-0.4201557782179539,-4.273299,-7.229157
11.185,2.0,1.0,1.0,33.0,34.7,34.7,2.4,4.3,2.7875,0.28082504846709205,0.17909843882881998,0.59937837925904,-0.38792077621592874,-3.584097,-7.385973
11.185,2.0,1.0,1.0,33.0,34.7,34.7,2.4,4.3,2.79,0.3135305121416976,0.22818525585018098,0.645653263079855,-0.34234682321249044,-2.880498,-7.714204
11.185,2.0,1.0,1.0,33.0,34.7,34.7,2.4,4.3,2.7925,0.32822849198209453,0.25950788728112567,0.6959492928084086,-0.2925514345325746,-2.276201,-8.155054
11.185,2.0,1.0,1.0,33.0,34.7,34.7,2.4,4.3,2.795,0.3280439263234237,0.2762731581425872,0.7439425702550352,-0.24487667811625002,-1.797569,-8.655314
11.185,2.0,1.0,1.0,33.0,34.7,34.7,2.4,4.3,2.7975,0.3171603998818333,0.282741691351124,0.7864886718897347,-0.202449930698609,-1.431774,-9.174701
11.185,2.0,1.0,1.0,33.0,34.7,34.7,2.4,4.3,2.8,0.29925026233040203,0.2826495325905325,0.8226753998562382,-0.1661468679811079,-1.155754,-9.686096
11.185,2.0,1.0,1.0,33.0,34.7,34.7,2.4,4.3,2.8025,0.2770074959493334,0.27874261360947883,0.8527670774867578,-0.13565818635349183,-0.947737,-10.17274
11.185,2.0,1.0,1.0,33.0,34.7,34.7,2.4,4.3,2.805,0.2522234521110415,0.2728570459473592,0.8774960757730806,-0.11020326440701365,-0.790339,-10.625035
11.185,2.0,1.0,1.0,33.0,34.7,34.7,2.4,4.3,2.8075,0.2260164658087924,0.26615297049729264,0.8976892703954273,-0.0889051186679765,-0.670549,-11.037962
11.185,2.0,1.0,1.0,33.0,34.7,34.7,2.4,4.3,2.81,0.19904969901339958,0.25933552064676246,0.914105125576463,-0.07095283971676698,-0.578882,-11.409265
11.185,2.0,1.0,1.0,33.0,34.7,34.7,2.4,4.3,2.8125,0.171693599090586,0.252819429443729,0.927379681524965,-0.0556542955745074,-0.508483,-11.738276
11.185,2.0,1.0,1.0,33.0,34.7,34.7,2.4,4.3,2.815,0.14413538887013885,0.2468400275061356,0.9380214280657411,-0.042439582127619925,-0.454395,-12.02517
11.185,2.0,1.0,1.0,33.0,34.7,34.7,2.4,4.3,2.8175,0.11644921290662898,0.24152453294933612,0.9464246622257624,-0.03084576098487194,-0.413023,-12.270511
11.185,2.0,1.0,1.0,33.0,34.7,34.7,2.4,4.3,2.82,0.08863983568080618,0.2369367147680389,0.9528874531618489,-0.020496744315420527,-0.381749,-12.474973
11.185,2.0,1.0,1.0,33.0,34.7,34.7,2.4,4.3,2.8225,0.06066937368019531,0.23310452356894437,0.9576285338718066,-0.011083914731939044,-0.358662,-12.639178
11.185,2.0,1.0,1.0,33.0,34.7,34.7,2.4,4.3,2.825,0.032473387031221254,0.23003707556811742,0.9608011852934973,-0.002349276188216208,-0.342371,-12.76359
11.185,2.0,1.0,1.0,33.0,34.7,34.7,2.4,4.3,2.8275,0.003970367473580049,0.22773504922406393,0.9625037477817758,0.005928679475268578,-0.331878,-12.84846
11.185,2.0,1.0,1.0,33.0,34.7,34.7,2.4,4.3,2.83,-0.024932849804849368,0.22619701147070306,0.9627869588137906,0.013946821188751747,-0.326484,-12.893784
