1,w,sub_t,h,l1,l2,l3,g1,g2,Freq,S11_re,S21_re,S11_img,S21_img,S11_dB,S21_dB
11.185,2.0,1.0,1.0,33.6,34.5,34.5,4.3,3.0,2.5,0.837161629859288,-0.00647833340025086,0.535086419025727,0.0042337428127114,-0.056137,-42.226212
11.185,2.0,1.0,1.0,33.6,34.5,34.5,4.3,3.0,2.5025,0.8335072643039912,-0.006608208551027307,0.5406441566794591,0.004246315899767623,-0.056694,-42.097175
11.185,2.0,1.0,1.0,33.6,34.5,34.5,4.3,3.0,2.505,0.8297996023655825,-0.006740594470761546,0.5461996555235812,0.004258199448059696,-0.057262,-41.967623
11.185,2.0,1.0,1.0,33.6,34.5,34.5,4.3,3.0,2.5075,0.8260381120070976,-0.006875553703701986,0.5517526463535204,0.004269364683583436,-0.057841,-41.83754
11.185,2.0,1.0,1.0,33.6,34.5,34.5,4.3,3.0,2.51,0.8222222521949154,-0.007013150978953959,0.5573028519444557,0.0042797816276972265,-0.058431,-41.70691
11.185,2.0,1.0,1.0,33.6,34.5,34.5,4.3,3.0,2.5125,0.8183514727113534,-0.0071534533093031,0.5628499867858099,0.0042894190363129,-0.059032,-41.575717
11.185,2.0,1.0,1.0,33.6,34.5,34.5,4.3,3.0,2.515,0.8144252139613234,-0.00729653009553046,0.5683937568060738,0.004298244335407375,-0.059646,-41.443945
11.185,2.0,1.0,1.0,33.6,34.5,34.5,4.3,3.0,2.5175,0.810442906772733,-0.007442453236579857,0.5739338590874998,0.00430622355259169,-0.060272,-41.311577
11.185,2.0,1.0,1.0,33.6,34.5,34.5,4.3,3.0,2.52,0.8064039721902755,-0.007591297245965721,0.5794699815702167,0.004313321244452795,-0.06091,-41.178596
11.185,2.0,1.0,1.0,33.6,34.5,34.5,4.3,3.0,2.5225,0.8023078212622448,-0.007743139374838374,0.5850018027452331,0.004319500419359428,-0.061561,-41.044985
11.185,2.0,1.0,1.0,33.6,34.5,34.5,4.3,3.0,2.525,0.7981538548199587,-0.00789805974215701,0.5905289913358277,0.004324722455397369,-0.062226,-40.910725
11.185,2.0,1.0,1.0,33.6,34.5,34.5,4.3,3.0,2.5275,0.7939414632493608,-0.00805614147245423,0.5960512059667428,0.004328947013070951,-0.062905,-40.775798
11.185,2.0,1.0,1.0,33.6,34.5,34.5,4.3,3.0,2.53,0.7896700262543266,-0.008217470841714607,0.6015680948205738,0.004332131942376518,-0.063597,-40.640184
11.185,2.0,1.0,1.0,33.6,34.5,34.5,4.3,3.0,2.5325,0.785338912611165,-0.008382137431930777,0.6070792952807147,0.004334233183818947,-0.064304,-40.503865
11.185,2.0,1.0,1.0,33.6,34.5,34.5,4.3,3.0,2.535,0.7809474799137567,-0.008550234294945443,0.6125844335601698,0.004335204662905135,-0.065026,-40.366821
11.185,2.0,1.0,1.0,33.6,34.5,34.5,4.3,3.0,2.5375,0.7764950743087399,-0.008721858126236416,0.6180831243154824,0.004334998177606361,-0.065764,-40.229031
11.185,2.0,1.0,1.0,33.6,34.5,34.5,4.3,3.0,2.54,0.7719810302200866,-0.008897109449355463,0.6235749702449978,0.004333563278236406,-0.066518,-40.090473
11.185,2.0,1.0,1.0,33.6,34.5,34.5,4.3,3.0,2.5425,0.7674046700623641,-0.00907609281178982,0.6290595616706047,0.004330847139141779,-0.067288,-39.951127
11.185,2.0,1.0,1.0,33.6,34.5,34.5,4.3,3.0,2.545,0.7627653039419215,-0.009258916993078705,0.6345364761020474,0.004326794421545289,-0.068075,-39.81097
11.185,2.0,1.0,1.0,33.6,34.5,34.5,4.3,3.0,2.5475,0.7580622293451691,-0.009445695226086686,0.6400052777828129,0.004321347126822554,-0.068879,-39.669979
11.185,2.0,1.0,1.0,33.6,34.5,34.5,4.3,3.0,2.55,0.7532947308130344,-0.009636545432412349,0.6454655172165527,0.0043144444394247,-0.069702,-39.52813
11.185,2.0,1.0,1.0,33.6,34.5,34.5,4.3,3.0,2.5525,0.748462079600629,-0.009831590472992684,0.6509167306728734,0.004306022558584248,-0.070543,-39.3854
11.185,2.0,1.0,1.0,33.6,34.5,34.5,4.3,3.0,2.555,0.7435635333210348,-0.010030958415056572,0.6563584396712813,0.00429601451786042,-0.071404,-39.241762
11.185,2.0,1.0,1.0,33.6,34.5,34.5,4.3,3.0,2.5575,0.7385983355720427,-0.010234782816679566,0.6617901504419373,0.00428434999148655,-0.072284,-39.097192
11.185,2.0,1.0,1.0,33.6,34.5,34.5,4.3,3.0,2.56,0.733565715544573,-0.01044320303030259,0.6672113533617686,0.004270955086382352,-0.073185,-38.951663
11.185,2.0,1.0,1.0,33.6,34.5,34.5,4.3,3.0,2.5625,0.728464887611372,-0.0106563645266975,0.672621522364373,0.00425575211857993,-0.074108,-38.805147
11.185,2.0,1.0,1.0,33.6,34.5,34.5,4.3,3.0,2.565,0.7232950508944577,-0.010874419240996209,0.6780201143220081,0.004238659372687304,-0.075052,-38.657616
11.185,2.0,1.0,1.0,33.6,34.5,34.5,4.3,3.0,2.5675,0.7180553888096537,-0.011097525942544787,0.6834065683977979,0.004219590842873067,-0.07602,-38.50904
11.185,2.0,1.0,1.0,33.6,34.5,34.5,4.3,3.0,2.57,0.7127450685863681,-0.011325850630506439,0.6887803053661352,0.004198455953700575,-0.077011,-38.35939
11.185,2.0,1.0,1.0,33.6,34.5,34.5,4.3,3.0,2.5725,0.7073632407606186,-0.01155956695731388,0.6941407268990682,0.004175159258965718,-0.078027,-38.208633
11.185,2.0,1.0,1.0,33.6,34.5,34.5,4.3,3.0,2.575,0.7019090386390988,-0.011798856682268323,0.6994872148162411,0.004149600116498211,-0.079068,-38.056738
11.185,2.0,1.0,1.0,33.6,34.5,34.5,4.3,3.0,2.5775,0.6963815777318736,-0.012043910157798545,0.7048191302957424,0.004121672336668906,-0.080136,-37.903672
11.185,2.0,1.0,1.0,33.6,34.5,34.5,4.3,3.0,2.58,0.6907799551510421,-0.012294926851133304,0.7101358130429379,0.0040912638021020215,-0.081231,-37.749398
11.185,2.0,1.0,1.0,33.6,34.5,34.5,4.3,3.0,2.5825,0.6851032489724468,-0.012552115904406464,0.7154365804141025,0.004058256055817947,-0.082354,-37.593882
11.185,2.0,1.0,1.0,33.6,34.5,34.5,4.3,3.0,2.585,0.6793505175572125,-0.01281569673650688,0.7207207264913054,0.00402252385472523,-0.083507,-37.437086
11.185,2.0,1.0,1.0,33.6,34.5,34.5,4.3,3.0,2.5875,0.6735207988295657,-0.013085899690313142,0.7259875211046782,0.003983934685035154,-0.084691,-37.278972
11.185,2.0,1.0,1.0,33.6,34.5,34.5,4.3,3.0,2.59,0.6676131095070249,-0.013362966729314762,0.7312362087977496,0.003942348235782909,-0.085906,-37.119499
11.185,2.0,1.0,1.0,33.6,34.5,34.5,4.3,3.0,2.5925,0.6616264442786387,-0.0136471521880254,0.7364660077311077,0.003897615826200446,-0.087156,-36.958625
11.185,2.0,1.0,1.0,33.6,34.5,34.5,4.3,3.0,2.595,0.6555597749265039,-0.013938723581041371,0.741676108519091,0.0038495797821905355,-0.088439,-36.796308
11.185,2.0,1.0,1.0,33.6,34.5,34.5,4.3,3.0,2.5975,0.6494120493852719,-0.014237962476101016,0.7468656729936693,0.0037980727565891607,-0.089759,-36.632503
11.185,2.0,1.0,1.0,33.6,34.5,34.5,4.3,3.0,2.6,0.6431821907337978,-0.01454516543705692,0.7520338328889765,0.00374291698726786,-0.091116,-36.467162
11.185,2.0,1.0,1.0,33.6,34.5,34.5,4.3,3.0,2.6025,0.636869096112453,-0.01486064504329675,0.7571796884392198,0.003683923486404789,-0.092513,-36.300237
11.185,2.0,1.0,1.0,33.6,34.5,34.5,4.3,3.0,2.605,0.6304716355588925,-0.015184730992847876,0.7623023068818469,0.003620891153431456,-0.093951,-36.131678
11.185,2.0,1.0,1.0,33.6,34.5,34.5,4.3,3.0,2.6075,0.6239886507542927,-0.01551777129717897,0.7674007208568674,0.0035536058032267083,-0.095432,-35.961431
11.185,2.0,1.0,1.0,33.6,34.5,34.5,4.3,3.0,2.61,0.617418953671167,-0.015860133576589965,0.7724739266921248,0.0034818391000601295,-0.096957,-35.789442
11.185,2.0,1.0,1.0,33.6,34.5,34.5,4.3,3.0,2.6125,0.6107613251128604,-0.016212206466063316,0.7775208825630604,0.003405347386567503,-0.09853,-35.615652
11.185,2.0,1.0,1.0,33.6,34.5,34.5,4.3,3.0,2.615,0.6040145131336873,-0.016574401142554585,0.7825405065140624,0.003323870395640785,-0.100151,-35.440003
11.185,2.0,1.0,1.0,33.6,34.5,34.5,4.3,3.0,2.6175,0.5971772313274163,-0.01694715298594354,0.7875316743268315,0.003237129831511104,-0.101824,-35.26243
11.185,2.0,1.0,1.0,33.6,34.5,34.5,4.3,3.0,2.62,0.5902481569703436,-0.017330923387267817,0.7924932172193035,0.003144827804457107,-0.103552,-35.08287
11.185,2.0,1.0,1.0,33.6,34.5,34.5,4.3,3.0,2.6225,0.583225929003578,-0.017726201719441403,0.7974239193564866,0.0030466451014460496,-0.105335,-34.901253
11.185,2.0,1.0,1.0,33.6,34.5,34.5,4.3,3.0,2.625,0.576109145837334,-0.0181335074874457,0.802322515152016,0.00294223927255947,-0.107179,-34.717508
11.185,2.0,1.0,1.0,33.6,34.5,34.5,4.3,3.0,2.6275,0.5688963629579141,-0.01855339267700067,0.8071876863363612,0.002831242510216836,-0.109085,-34.53156
11.185,2.0,1.0,1.0,33.6,34.5,34.5,4.3,3.0,2.63,0.5615860903157365,-0.01898644432301029,0.8120180587641898,0.0027132592949181958,-0.111057,-34.34333
11.185,2.0,1.0,1.0,33.6,34.5,34.5,4.3,3.0,2.6325,0.554176789470048,-0.019433287321671457,0.8168121989295001,0.0025878637774015673,-0.113099,-34.152735
11.185,2.0,1.0,1.0,33.6,34.5,34.5,4.3,3.0,2.635,0.5466668704629432,-0.019894587513080635,0.8215686101525442,0.00245459686265535,-0.115215,-33.959688
11.185,2.0,1.0,1.0,33.6,34.5,34.5,4.3,3.0,2.6375,0.5390546883918312,-0.02037105506452142,0.8262857283972359,0.0023129629560243803,-0.117408,-33.764099
11.185,2.0,1.0,1.0,33.6,34.5,34.5,4.3,3.0,2.64,0.5313385396455219,-0.020863448188431506,0.8309619176715047,0.002162426325560542,-0.119682,-33.565872
11.185,2.0,1.0,1.0,33.6,34.5,34.5,4.3,3.0,2.6425,0.5235166577646367,-0.021372577233390526,0.8355954649557206,0.002002407027626536,-0.122044,-33.364906
11.185,2.0,1.0,1.0,33.6,34.5,34.5,4.3,3.0,2.645,0.5155872088818603,-0.021899309191433698,0.8401845745957216,0.0018322763343577016,-0.124498,-33.161095
11.185,2.0,1.0,1.0,33.6,34.5,34.5,4.3,3.0,2.6475,0.5075482866916952,-0.022444572670661102,0.8447273620868178,0.0016513515916775226,-0.127049,-32.954327
11.185,2.0,1.0,1.0,33.6,34.5,34.5,4.3,3.0,2.65,0.49939790689260705,-0.02300936338859602,0.849221847163154,0.0014588904248373225,-0.129704,-32.744484
11.185,2.0,1.0,1.0,33.6,34.5,34.5,4.3,3.0,2.6525,0.49113400103678945,-0.02359475024916488,0.853665946092551,0.001254084194546906,-0.13247,-32.531441
11.185,2.0,1.0,1.0,33.6,34.5,34.5,4.3,3.0,2.655,0.4827544097138477,-0.024201882074678063,0.8580574630600509,0.0010360505902166268,-0.135353,-32.315066
11.185,2.0,1.0,1.0,33.6,34.5,34.5,4.3,3.0,2.6575,0.47425687498461006,-0.02483199507394037,0.8623940805031544,0.0008038252270903838,-0.138362,-32.095219
11.185,2.0,1.0,1.0,33.6,34.5,34.5,4.3,3.0,2.66,0.4656390319695639,-0.025486421138811798,0.8666733482375714,0.0005563520904116416,-0.141505,-31.871754
11.185,2.0,1.0,1.0,33.6,34.5,34.5,4.3,3.0,2.6625,0.4568983994830444,-0.02616659707438108,0.8708926711832511,0.00029247264137986567,-0.144791,-31.644513
11.185,2.0,1.0,1.0,33.6,34.5,34.5,4.3,3.0,2.665,0.448032369588864,-0.026874074882661466,0.8750492954654777,1.091336544285385e-05,-0.148232,-31.413329
11.185,2.0,1.0,1.0,33.6,34.5,34.5,4.3,3.0,2.6675,0.4390381959354301,-0.02761053323663315,0.8791402926234619,-0.000289728497897768,-0.151838,-31.178026
11.185,2.0,1.0,1.0,33.6,34.5,34.5,4.3,3.0,2.67,0.4299129807080476,-0.0283777903008619,0.8831625416075268,-0.0006110013548033599,-0.155621,-30.938416
11.185,2.0,1.0,1.0,33.6,34.5,34.5,4.3,3.0,2.6725,0.4206536600128315,-0.029177818077138862,0.8871127081833882,-0.0009546181585426986,-0.159597,-30.694297
11.185,2.0,1.0,1.0,33.6,34.5,34.5,4.3,3.0,2.675,0.41125698748002043,-0.030012758478974253,0.8909872212855,-0.0013224782596775362,-0.16378,-30.445458
11.185,2.0,1.0,1.0,33.6,34.5,34.5,4.3,3.0,2.6775,0.40171951584404325,-0.030884941367697972,0.8947822457674667,-0.0017166927438622551,-0.168187,-30.191667
11.185,2.0,1.0,1.0,33.6,34.5,34.5,4.3,3.0,2.68,0.39203757622315255,-0.03179690481571117,0.8984936508816418,-0.0021396139093888098,-0.172837,-29.932683
11.185,2.0,1.0,1.0,33.6,34.5,34.5,4.3,3.0,2.6825,0.38220725478241047,-0.032751417899374344,0.9021169736765267,-0.002593869676861939,-0.177752,-29.668242
11.185,2.0,1.0,1.0,33.6,34.5,34.5,4.3,3.0,2.685,0.3722243664200818,-0.03375150636525453,0.90564737632208,-0.003082403897838373,-0.182955,-29.398065
11.185,2.0,1.0,1.0,33.6,34.5,34.5,4.3,3.0,2.6875,0.362084425069142,-0.0348004815588752,0.909079596149952,-0.00360852374725887,-0.188472,-29.121849
11.185,2.0,1.0,1.0,33.6,34.5,34.5,4.3,3.0,2.69,0.35178261015307,-0.03590197305418291,0.9124078869155106,-0.004175955658207828,-0.194335,-28.839271
11.185,2.0,1.0,1.0,33.6,34.5,34.5,4.3,3.0,2.6925,0.3413137286794644,-0.03705996547340849,0.9156259494350126,-0.004788911602903173,-0.200576,-28.54998
11.185,2.0,1.0,1.0,33.6,34.5,34.5,4.3,3.0,2.695,0.3306721723987887,-0.03827884003842175,0.9187268493027895,-0.005452167961837065,-0.207234,-28.2536
11.185,2.0,1.0,1.0,33.6,34.5,34.5,4.3,3.0,2.6975,0.3198518694026287,-0.039563421441784326,0.9217029188214686,-0.0061711597814692,-0.214354,-27.949723
11.185,2.0,1.0,1.0,33.6,34.5,34.5,4.3,3.0,2.7,0.30884622949366713,-0.04091903066121316,0.9245456395449341,-0.0069520939368301,-0.221984,-27.637907
11.185,2.0,1.0,1.0,33.6,34.5,34.5,4.3,3.0,2.7025,0.29764808263968895,-0.042351544353174515,0.9272455008881773,-0.007802085638426158,-0.230183,-27.317671
11.185,2.0,1.0,1.0,33.6,34.5,34.5,4.3,3.0,2.705,0.2862496098457872,-0.04386746143051839,0.9297918290317364,-0.008729323919727274,-0.239016,-26.988494
11.185,2.0,1.0,1.0,33.6,34.5,34.5,4.3,3.0,2.7075,0.2746422658732696,-0.045473977324575206,0.932172578748234,-0.009743273302772474,-0.248559,-26.649808
11.185,2.0,1.0,1.0,33.6,34.5,34.5,4.3,3.0,2.71,0.26281669345012515,-0.04717906620475948,0.9343740786778766,-0.010854920888311307,-0.258903,-26.300992
11.185,2.0,1.0,1.0,33.6,34.5,34.5,4.3,3.0,2.7125,0.25076262903486546,-0.04899157100031457,0.936380717805158,-0.012077080822311254,-0.270151,-25.941365
11.185,2.0,1.0,1.0,33.6,34.5,34.5,4.3,3.0,2.715,0.2384688009387456,-0.050921300315044445,0.9381745572012419,-0.013424771685100235,-0.282424,-25.570183
11.185,2.0,1.0,1.0,33.6,34.5,34.5,4.3,3.0,2.7175,0.22592282188109017,-0.05297913004853326,0.9397348461647277,-0.014915687154486787,-0.295868,-25.186626
11.185,2.0,1.0,1.0,33.6,34.5,34.5,4.3,3.0,2.72,0.21311108017031585,-0.05517710541908652,0.9410374152579905,-0.01657078675629034,-0.310654,-24.789791
11.185,2.0,1.0,1.0,33.6,34.5,34.5,4.3,3.0,2.7225,0.20001863718751778,-0.05752853561348777,0.942053909757027,-0.018415042255897844,-0.326987,-24.378682
11.185,2.0,1.0,1.0,33.6,34.5,34.5,4.3,3.0,2.725,0.1866291445418549,-0.06004806763831549,0.9427508148181246,-0.02047838712685403,-0.345116,-23.952196
11.185,2.0,1.0,1.0,33.6,34.5,34.5,4.3,3.0,2.7275,0.17292480354358308,-0.06275171676384726,0.9430882069767155,-0.022796932755645677,-0.365341,-23.509108
11.185,2.0,1.0,1.0,33.6,34.5,34.5,4.3,3.0,2.73,0.15888640477234237,-0.06565681600472895,0.943018143727192,-0.025414537253564563,-0.388029,-23.048059
11.185,2.0,1.0,1.0,33.6,34.5,34.5,4.3,3.0,2.7325,0.1444935102845399,-0.06878182266397188,0.9424825715792811,-0.02838484317208484,-0.413636,-22.567538
11.185,2.0,1.0,1.0,33.6,34.5,34.5,4.3,3.0,2.735,0.12972488175623018,-0.07214587985437719,0.9414105901272898,-0.03177394195802158,-0.442726,-22.06586
11.185,2.0,1.0,1.0,33.6,34.5,34.5,4.3,3.0,2.7375,0.11455932537040936,-0.07576796455735182,0.9397148516175673,-0.0356638791567387,-0.47601,-21.541149
11.185,2.0,1.0,1.0,33.6,34.5,34.5,4.3,3.0,2.74,0.09897723696723407,-0.07966534315356873,0.9372867984362091,-0.040157288768190566,-0.514389,-20.99132
11.185,2.0,1.0,1.0,33.6,34.5,34.5,4.3,3.0,2.7425,0.08296332066378272,-0.08385086941719085,0.9339903427547528,-0.045383539602719424,-0.55902,-20.414058
11.185,2.0,1.0,1.0,33.6,34.5,34.5,4.3,3.0,2.745,0.06651127584068081,-0.08832834501846168,0.9296534780489026,-0.05150688589064446,-0.611405,-19.80682
11.185,2.0,1.0,1.0,33.6,34.5,34.5,4.3,3.0,2.7475,0.049631796240561465,-0.09308462591172674,0.9240572063531656,-0.05873721364373887,-0.673512,-19.166835
11.185,2.0,1.0,1.0,33.6,34.5,34.5,4.3,3.0,2.75,0.0323661636070951,-0.0980762413507153,0.916921146069653,-0.0673439858456506,-0.747952,-18.491159
11.185,2.0,1.0,1.0,33.6,34.5,34.5,4.3,3.0,2.7525,0.01480931622295777,-0.10320673420527368,0.9078854632194242,-0.07767370612409051,-0.838223,-17.776781
11.185,2.0,1.0,1.0,33.6,34.5,34.5,4.3,3.0,2.755,-0.002851057223452969,-0.10828833256485086,0.8964898719949674,-0.09017012376589617,-0.949048,-17.020861
11.185,2.0,1.0,1.0,33.6,34.5,34.5,4.3,3.0,2.7575,-0.020268593989907418,-0.11297743302284419,0.8821536428414016,-0.10539325442042811,-1.086823,-16.221178
11.185,2.0,1.0,1.0,33.6,34.5,34.5,4.3,3.0,2.76,-0.0368286809975198,-0.11666756082541999,0.8641687238338855,-0.12402527185824265,-1.260148,-15.37698
11.185,2.0,1.0,1.0,33.6,34.5,34.5,4.3,3.0,2.7625,-0.05147258656263714,-0.11831793603641025,0.8417373098570112,-0.14683250951082513,-1.480259,-14.490514
11.185,2.0,1.0,1.0,33.6,34.5,34.5,4.3,3.0,2.765,-0.062437152920328275,-0.11620046489881597,0.8141262710857464,-0.17451273967902764,-1.760696,-13.569695
11.185,2.0,1.0,1.0,33.6,34.5,34.5,4.3,3.0,2.7675,-0.06694080603843784,-0.10759626257812015,0.7810841867943848,-0.20728566242409796,-2.114261,-12.632506
11.185,2.0,1.0,1.0,33.6,34.5,34.5,4.3,3.0,2.77,-0.061024528390306705,-0.08864705464562404,0.7437437090339901,-0.24401069172379106,-2.542394,-11.713432
11.185,2.0,1.0,1.0,33.6,34.5,34.5,4.3,3.0,2.7725,-0.04017304189823817,-0.05497265033459542,0.706111346318095,-0.2807369591925979,-3.008501,-10.870597
11.185,2.0,1.0,1.0,33.6,34.5,34.5,4.3,3.0,2.775,-0.0017718301988053507,-0.004079558176662453,0.6763829808851873,-0.30943691667584455,-3.396117,-10.187803
11.185,2.0,1.0,1.0,33.6,34.5,34.5,4.3,3.0,2.7775,0.050560747684407555,0.060419563906420753,0.6655277514790174,-0.3194207048798336,-3.511683,-9.760067
11.185,2.0,1.0,1.0,33.6,34.5,34.5,4.3,3.0,2.78,0.10477883914687768,0.12670981203172565,0.6808805739277373,-0.3036085082333803,-3.236933,-9.656383
11.185,2.0,1.0,1.0,33.6,34.5,34.5,4.3,3.0,2.7825,0.14598876832469154,0.18027177434098463,0.7193507223431691,-0.2651213775247005,-2.6859,-9.880607
11.185,2.0,1.0,1.0,33.6,34.5,34.5,4.3,3.0,2.785,0.16596238972680052,0.21315811238566862,0.7692219646167332,-0.21545414011083708,-2.081368,-10.368884
11.185,2.0,1.0,1.0,33.6,34.5,34.5,4.3,3.0,2.7875,0.16587729013737343,0.2266073107276491,0.8186784191395093,-0.16612968419226398,-1.563004,-11.026482
11.185,2.0,1.0,1.0,33.6,34.5,34.5,4.3,3.0,2.79,0.15171889113072204,0.2265148476230891,0.861104281280567,-0.12355703263098776,-1.166116,-11.766868
11.185,2.0,1.0,1.0,33.6,34.5,34.5,4.3,3.0,2.7925,0.12951333570934587,0.21878053391278496,0.8947005615259879,-0.08944055381010543,-0.876383,-12.528638
11.185,2.0,1.0,1.0,33.6,34.5,34.5,4.3,3.0,2.795,0.10349679716937886,0.2075376944988567,0.9201733094474459,-0.0630510808900237,-0.668011,-13.27465
11.185,2.0,1.0,1.0,33.6,34.5,34.5,4.3,3.0,2.7975,0.07616262326633774,0.1952118926199919,0.939019513058559,-0.04289952489447031,-0.518031,-13.985044
11.185,2.0,1.0,1.0,33.6,34.5,34.5,4.3,3.0,2.8,0.04881835098335632,0.18307085993945366,0.9527278286670764,-0.027513273362151636,-0.409235,-14.650616
11.185,2.0,1.0,1.0,33.6,34.5,34.5,4.3,3.0,2.8025,0.02207704018042799,0.17170626727642463,0.9625218605826926,-0.015683201334527185,-0.329504,-15.268196
11.185,2.0,1.0,1.0,33.6,34.5,34.5,4.3,3.0,2.805,-0.003823188828695429,0.16134601277875096,0.9693333781335027,-0.00648738901796317,-0.270469,-15.83782
11.185,2.0,1.0,1.0,33.6,34.5,34.5,4.3,3.0,2.8075,-0.02883498162576245,0.15203377108562716,0.9738488770165122,0.0007557913625710228,-0.226363,-16.361091
11.185,2.0,1.0,1.0,33.6,34.5,34.5,4.3,3.0,2.81,-0.05300175303376827,0.14372625520304755,0.9765675984796288,0.006545161957384038,-0.19318,-16.840281
11.185,2.0,1.0,1.0,33.6,34.5,34.5,4.3,3.0,2.8125,-0.0764053558358696,0.136343996047442,0.977851414950626,0.0112459398983504,-0.168109,-17.277833
11.185,2.0,1.0,1.0,33.6,34.5,34.5,4.3,3.0,2.815,-0.09913958541093244,0.12979698694773872,0.9779629377712745,0.015127258639346238,-0.149149,-17.676115
11.185,2.0,1.0,1.0,33.6,34.5,34.5,4.3,3.0,2.8175,-0.121297364349391,0.12399705574563324,0.9770932308611876,0.018389455653635183,-0.134861,-18.037287
11.185,2.0,1.0,1.0,33.6,34.5,34.5,4.3,3.0,2.82,-0.14296504950476085,0.11886335224970958,0.9753815473397024,0.02118354015054441,-0.124195,-18.363247
11.185,2.0,1.0,1.0,33.6,34.5,34.5,4.3,3.0,2.8225,-0.1642203765351867,0.11432434014798493,0.9729292797005784,0.023625011405630576,-0.116374,-18.655616
11.185,2.0,1.0,1.0,33.6,34.5,34.5,4.3,3.0,2.825,-0.1851322059066093,0.11031807638636038,0.9698098105647397,0.025803695516672723,-0.110823,-18.915734
11.185,2.0,1.0,1.0,33.6,34.5,34.5,4.3,3.0,2.8275,-0.2057611115862604,0.10679170839671559,0.9660754809154787,0.027790804454904127,-0.107106,-19.144669
11.185,2.0,1.0,1.0,33.6,34.5,34.5,4.3,3.0,2.83,-0.2261603190887554,0.1037006684775702,0.9617625278011027,0.02964406369695562,-0.104898,-19.343232
