1,w,sub_t,h,l1,l2,l3,g1,g2,Freq,S11_re,S21_re,S11_img,S21_img,S11_dB,S21_dB
11.185,2.0,1.0,1.0,34.2,34.4,34.4,4.4,2.0,2.5,0.754722035867366,-0.0100788698875311,0.644841782412308,0.00532846144713425,-0.063759,-38.861364
11.185,2.0,1.0,1.0,34.2,34.4,34.4,4.4,2.0,2.5025,0.7498011625893302,-0.010267940649323173,0.6504393201696661,0.005320046464302881,-0.064434,-38.737598
11.185,2.0,1.0,1.0,34.2,34.4,34.4,4.4,2.0,2.505,0.7448137036927651,-0.010460416076313692,0.6560255661839136,0.005309930201023645,-0.065122,-38.613321
11.185,2.0,1.0,1.0,34.2,34.4,34.4,4.4,2.0,2.5075,0.7397589947434288,-0.010656370755479809,0.6615999860701562,0.005298048805766372,-0.065823,-38.488522
11.185,2.0,1.0,1.0,34.2,34.4,34.4,4.4,2.0,2.51,0.7346363624252246,-0.010855881473419428,0.6671620301517753,0.005284335935406962,-0.066538,-38.363188
11.185,2.0,1.0,1.0,34.2,34.4,34.4,4.4,2.0,2.5125,0.7294451244503657,-0.011059027300931728,0.6727111329942771,0.005268722641055337,-0.067267,-38.237306
11.185,2.0,1.0,1.0,34.2,34.4,34.4,4.4,2.0,2.515,0.7241845894697508,-0.01126588968170746,0.6782467129238058,0.005251137247669905,-0.068011,-38.110864
11.185,2.0,1.0,1.0,34.2,34.4,34.4,4.4,2.0,2.5175,0.7188540569835838,-0.011476552525370965,0.6837681715296964,0.005231505227058167,-0.068769,-37.983847
11.185,2.0,1.0,1.0,34.2,34.4,34.4,4.4,2.0,2.52,0.7134528172522319,-0.011691102305131783,0.6892748931504386,0.005209749063832869,-0.069542,-37.856242
11.185,2.0,1.0,1.0,34.2,34.4,34.4,4.4,2.0,2.5225,0.7079801512073562,-0.011909628160322459,0.6947662443423552,0.005185788113860596,-0.070331,-37.728035
11.185,2.0,1.0,1.0,34.2,34.4,34.4,4.4,2.0,2.525,0.7024353303632951,-0.012132222004116953,0.7002415733302919,0.005159538454704226,-0.071136,-37.599211
11.185,2.0,1.0,1.0,34.2,34.4,34.4,4.4,2.0,2.5275,0.6968176167287047,-0.012358978636746223,0.7057002094395595,0.005130912727522068,-0.071958,-37.469757
11.185,2.0,1.0,1.0,34.2,34.4,34.4,4.4,2.0,2.53,0.6911262627184488,-0.012589995864547536,0.7111414625083191,0.0050998199698446935,-0.072796,-37.339656
11.185,2.0,1.0,1.0,34.2,34.4,34.4,4.4,2.0,2.5325,0.6853605110657088,-0.012825374625210533,0.7165646222795667,0.005066165438604609,-0.073652,-37.208894
11.185,2.0,1.0,1.0,34.2,34.4,34.4,4.4,2.0,2.535,0.679519594734283,-0.013065219119606657,0.7219689577718181,0.005029850422744377,-0.074526,-37.077454
11.185,2.0,1.0,1.0,34.2,34.4,34.4,4.4,2.0,2.5375,0.6736027368310362,-0.013309636950617596,0.7273537166275276,0.004990772044674298,-0.075419,-36.94532
11.185,2.0,1.0,1.0,34.2,34.4,34.4,4.4,2.0,2.54,0.6676091505184352,-0.013558739269408003,0.7327181244382325,0.004948823049791725,-0.07633,-36.812476
11.185,2.0,1.0,1.0,34.2,34.4,34.4,4.4,2.0,2.5425,0.6615380389270958,-0.01381264092962092,0.7380613840453351,0.004903891583209003,-0.077262,-36.678905
11.185,2.0,1.0,1.0,34.2,34.4,34.4,4.4,2.0,2.545,0.6553885950682551,-0.014071460650008038,0.7433826748153716,0.004855860952766657,-0.078213,-36.544589
11.185,2.0,1.0,1.0,34.2,34.4,34.4,4.4,2.0,2.5475,0.6491600017460557,-0.014335321186046662,0.7486811518885217,0.0048046093773307,-0.079185,-36.409509
11.185,2.0,1.0,1.0,34.2,34.4,34.4,4.4,2.0,2.55,0.6428514314695007,-0.014604349511135003,0.753955945399064,0.004750009719288005,-0.080179,-36.273648
11.185,2.0,1.0,1.0,34.2,34.4,34.4,4.4,2.0,2.5525,0.6364620463639362,-0.014878677008002727,0.7592061596663352,0.004691929200060948,-0.081195,-36.136986
11.185,2.0,1.0,1.0,34.2,34.4,34.4,4.4,2.0,2.555,0.6299909980818605,-0.0151584396710213,0.7644308723547103,0.004630229097360168,-0.082233,-35.999504
11.185,2.0,1.0,1.0,34.2,34.4,34.4,4.4,2.0,2.5575,0.6234374277128425,-0.015443778320152141,0.7696291336009615,0.004564764422782044,-0.083296,-35.861182
11.185,2.0,1.0,1.0,34.2,34.4,34.4,4.4,2.0,2.56,0.6168004656923044,-0.015734838827325227,0.7747999651072557,0.0044953835782346446,-0.084382,-35.721998
11.185,2.0,1.0,1.0,34.2,34.4,34.4,4.4,2.0,2.5625,0.610079231708868,-0.0160317723561048,0.779942359197908,0.00442192798953964,-0.085494,-35.581931
11.185,2.0,1.0,1.0,34.2,34.4,34.4,4.4,2.0,2.565,0.6032728346099243,-0.016334735615563437,0.7850552778378741,0.004344231715408576,-0.086632,-35.440959
11.185,2.0,1.0,1.0,34.2,34.4,34.4,4.4,2.0,2.5675,0.5963803723050517,-0.016643891129359444,0.7901376516107763,0.004262121029827001,-0.087797,-35.29906
11.185,2.0,1.0,1.0,34.2,34.4,34.4,4.4,2.0,2.57,0.5894009316668315,-0.016959407521090986,0.7951883786541124,0.004175413975697802,-0.088989,-35.15621
11.185,2.0,1.0,1.0,34.2,34.4,34.4,4.4,2.0,2.5725,0.5823335884285599,-0.01728145981708648,0.8002063235490756,0.004083919887394315,-0.09021,-35.012385
11.185,2.0,1.0,1.0,34.2,34.4,34.4,4.4,2.0,2.575,0.5751774070782886,-0.01761022976788261,0.8051903161622053,0.003987438879651297,-0.091461,-34.867559
11.185,2.0,1.0,1.0,34.2,34.4,34.4,4.4,2.0,2.5775,0.5679314407485502,-0.017945906189744527,0.8101391504358456,0.0038857612999754947,-0.092743,-34.721708
11.185,2.0,1.0,1.0,34.2,34.4,34.4,4.4,2.0,2.58,0.5605947311010426,-0.018288685327690922,0.8150515831241238,0.0037786671414849217,-0.094056,-34.574804
11.185,2.0,1.0,1.0,34.2,34.4,34.4,4.4,2.0,2.5825,0.5531663082054398,-0.018638771241609633,0.819926332470864,0.0036659254127823647,-0.095403,-34.42682
11.185,2.0,1.0,1.0,34.2,34.4,34.4,4.4,2.0,2.585,0.5456451904114216,-0.018996376217176866,0.8247620768255193,0.0035472934611328797,-0.096784,-34.277727
11.185,2.0,1.0,1.0,34.2,34.4,34.4,4.4,2.0,2.5875,0.5380303842128666,-0.019361721203439156,0.8295574531928486,0.0034225162448397635,-0.0982,-34.127495
11.185,2.0,1.0,1.0,34.2,34.4,34.4,4.4,2.0,2.59,0.530320884103063,-0.01973503627906994,0.8343110557116408,0.003291325550297143,-0.099654,-33.976095
11.185,2.0,1.0,1.0,34.2,34.4,34.4,4.4,2.0,2.5925,0.5225156724196115,-0.020116561149483913,0.839021434057356,0.0031534391487318984,-0.101145,-33.823495
11.185,2.0,1.0,1.0,34.2,34.4,34.4,4.4,2.0,2.595,0.5146137191775866,-0.020506545677176392,0.8436870917630176,0.003008559887128834,-0.102676,-33.669662
11.185,2.0,1.0,1.0,34.2,34.4,34.4,4.4,2.0,2.5975,0.5066139818893006,-0.020905250447857536,0.8483064844521532,0.002856374707252134,-0.104249,-33.514562
11.185,2.0,1.0,1.0,34.2,34.4,34.4,4.4,2.0,2.6,0.4985154053688647,-0.021312947375170692,0.8528780179769178,0.0026965535860269934,-0.105864,-33.358159
11.185,2.0,1.0,1.0,34.2,34.4,34.4,4.4,2.0,2.6025,0.4903169215195175,-0.021729920347025148,0.8574000464538298,0.0025287483898170323,-0.107525,-33.200418
11.185,2.0,1.0,1.0,34.2,34.4,34.4,4.4,2.0,2.605,0.4820174491014521,-0.022156465916835812,0.8618708701887531,0.002352591634315469,-0.109231,-33.0413
11.185,2.0,1.0,1.0,34.2,34.4,34.4,4.4,2.0,2.6075,0.4736158934776296,-0.02259289404324911,0.8662887334818411,0.0021676951408498984,-0.110987,-32.880766
11.185,2.0,1.0,1.0,34.2,34.4,34.4,4.4,2.0,2.61,0.4651111463347876,-0.023039528882246196,0.870651822302156,0.001973648578866331,-0.112792,-32.718775
11.185,2.0,1.0,1.0,34.2,34.4,34.4,4.4,2.0,2.6125,0.45650208537652187,-0.023496709635857052,0.8749582618205162,0.0017700178831927282,-0.114651,-32.555284
11.185,2.0,1.0,1.0,34.2,34.4,34.4,4.4,2.0,2.615,0.447787573984997,-0.023964791462090334,0.879206113787839,0.0015563435333663528,-0.116564,-32.390249
11.185,2.0,1.0,1.0,34.2,34.4,34.4,4.4,2.0,2.6175,0.4389664608474615,-0.02444414645108992,0.8833933737447586,0.0013321386808220505,-0.118535,-32.223623
11.185,2.0,1.0,1.0,34.2,34.4,34.4,4.4,2.0,2.62,0.4300375795433229,-0.02493516467297102,0.8875179680466556,0.0010968871080538403,-0.120566,-32.055359
11.185,2.0,1.0,1.0,34.2,34.4,34.4,4.4,2.0,2.6225,0.4209997480870823,-0.02543825530327158,0.8915777506863273,0.0008500410019508067,-0.12266,-31.885407
11.185,2.0,1.0,1.0,34.2,34.4,34.4,4.4,2.0,2.625,0.411851768421955,-0.0259538478324752,0.895570499894373,0.000591018521339097,-0.124819,-31.713713
11.185,2.0,1.0,1.0,34.2,34.4,34.4,4.4,2.0,2.6275,0.40259242585841254,-0.026482393366634428,0.8994939144949391,0.0003192011362892901,-0.127048,-31.540224
11.185,2.0,1.0,1.0,34.2,34.4,34.4,4.4,2.0,2.63,0.39322048845133795,-0.02702436602673638,0.9033456099916437,3.3930713933672484e-05,-0.129348,-31.364883
11.185,2.0,1.0,1.0,34.2,34.4,34.4,4.4,2.0,2.6325,0.38373470630879986,-0.02758026445512049,0.9071231143553182,-0.0002654936776789924,-0.131725,-31.187629
11.185,2.0,1.0,1.0,34.2,34.4,34.4,4.4,2.0,2.635,0.37413381082477204,-0.028150613437978377,0.9108238634815329,-0.0005798192798441374,-0.13418,-31.008401
11.185,2.0,1.0,1.0,34.2,34.4,34.4,4.4,2.0,2.6375,0.36441651382735873,-0.02873596565373593,0.9144451962816681,-0.0009098435039471381,-0.13672,-30.827132
11.185,2.0,1.0,1.0,34.2,34.4,34.4,4.4,2.0,2.64,0.3545815066332434,-0.029336903557949264,0.9179843493664641,-0.0012564181839107113,-0.139348,-30.643756
11.185,2.0,1.0,1.0,34.2,34.4,34.4,4.4,2.0,2.6425,0.3446274589982465,-0.029954041416222762,0.9214384512754014,-0.0016204542671328546,-0.142068,-30.4582
11.185,2.0,1.0,1.0,34.2,34.4,34.4,4.4,2.0,2.645,0.3345530179529004,-0.030588027497590476,0.9248045161988512,-0.0020029269971342605,-0.144886,-30.270389
11.185,2.0,1.0,1.0,34.2,34.4,34.4,4.4,2.0,2.6475,0.32435680651099463,-0.031239546441776882,0.9280794371324885,-0.002404881648560911,-0.147807,-30.080244
11.185,2.0,1.0,1.0,34.2,34.4,34.4,4.4,2.0,2.65,0.31403742223798026,-0.031909321814762366,0.931259978394856,-0.0028274398837892546,-0.150837,-29.887683
11.185,2.0,1.0,1.0,34.2,34.4,34.4,4.4,2.0,2.6525,0.3035934356651338,-0.03259811886810539,0.9343427674289438,-0.0032718068103610525,-0.153983,-29.692618
11.185,2.0,1.0,1.0,34.2,34.4,34.4,4.4,2.0,2.655,0.29302338853422655,-0.03330674751850168,0.937324285797029,-0.0037392788300867476,-0.15725,-29.494959
11.185,2.0,1.0,1.0,34.2,34.4,34.4,4.4,2.0,2.6575,0.2823257918564894,-0.03403606556504423,0.9402008592643952,-0.00423125238418817,-0.160647,-29.294608
11.185,2.0,1.0,1.0,34.2,34.4,34.4,4.4,2.0,2.66,0.2714991237686375,-0.03478698216255937,0.9429686468516945,-0.004749233714669448,-0.164181,-29.091464
11.185,2.0,1.0,1.0,34.2,34.4,34.4,4.4,2.0,2.6625,0.2605418271679128,-0.035560461570149145,0.94562362871705,-0.005294849780631052,-0.167861,-28.885419
11.185,2.0,1.0,1.0,34.2,34.4,34.4,4.4,2.0,2.665,0.24945230710743715,-0.036357527194604805,0.9481615927071434,-0.005869860490003755,-0.171696,-28.676362
11.185,2.0,1.0,1.0,34.2,34.4,34.4,4.4,2.0,2.6675,0.23822892793292136,-0.037179265948523915,0.9505781193906994,-0.0064761724327966185,-0.175697,-28.464172
11.185,2.0,1.0,1.0,34.2,34.4,34.4,4.4,2.0,2.67,0.22687001014191663,-0.03802683294263194,0.9528685653573514,-0.007115854332203447,-0.179874,-28.248724
11.185,2.0,1.0,1.0,34.2,34.4,34.4,4.4,2.0,2.6725,0.21537382694772383,-0.03890145653073276,0.9550280445287589,-0.00779115446571756,-0.18424,-28.029883
11.185,2.0,1.0,1.0,34.2,34.4,34.4,4.4,2.0,2.675,0.20373860053197268,-0.03980444372361159,0.9570514071860056,-0.008504520350912398,-0.188808,-27.807507
11.185,2.0,1.0,1.0,34.2,34.4,34.4,4.4,2.0,2.6775,0.19196249797315448,-0.04073718598468647,0.9589332163662577,-0.009258621041155298,-0.193593,-27.581447
11.185,2.0,1.0,1.0,34.2,34.4,34.4,4.4,2.0,2.68,0.1800436268436035,-0.04170116541471106,0.9606677212206782,-0.01005637243695374,-0.198611,-27.351544
11.185,2.0,1.0,1.0,34.2,34.4,34.4,4.4,2.0,2.6825,0.16798003047530358,-0.042697961324646275,0.9622488268525291,-0.010900966091012794,-0.203879,-27.117626
11.185,2.0,1.0,1.0,34.2,34.4,34.4,4.4,2.0,2.685,0.15576968290631268,-0.04372925718397817,0.9636700600665761,-0.011795902072050004,-0.209417,-26.879515
11.185,2.0,1.0,1.0,34.2,34.4,34.4,4.4,2.0,2.6875,0.143410483536031,-0.0447968479149266,0.964924530355022,-0.0127450265572315,-0.215246,-26.637017
11.185,2.0,1.0,1.0,34.2,34.4,34.4,4.4,2.0,2.69,0.13090025154062632,-0.04590264747939756,0.9660048853171136,-0.013752574949848445,-0.221391,-26.389929
11.185,2.0,1.0,1.0,34.2,34.4,34.4,4.4,2.0,2.6925,0.11823672013210113,-0.047048696672757157,0.966903259554113,-0.014823221472651173,-0.227879,-26.13803
11.185,2.0,1.0,1.0,34.2,34.4,34.4,4.4,2.0,2.695,0.1054175307891758,-0.04823717099324771,0.9676112158920027,-0.015962136374493206,-0.234738,-25.881086
11.185,2.0,1.0,1.0,34.2,34.4,34.4,4.4,2.0,2.6975,0.09244022764958247,-0.049470388393658624,0.9681196775529519,-0.017175052116698373,-0.242003,-25.618848
11.185,2.0,1.0,1.0,34.2,34.4,34.4,4.4,2.0,2.7,0.07930225233800214,-0.05075081663653311,0.9684188496128306,-0.018468340186015595,-0.24971,-25.351045
11.185,2.0,1.0,1.0,34.2,34.4,34.4,4.4,2.0,2.7025,0.06600093961986742,-0.05208107985731266,0.968498127732887,-0.019849100526115188,-0.257902,-25.07739
11.185,2.0,1.0,1.0,34.2,34.4,34.4,4.4,2.0,2.705,0.05253351443057682,-0.053463963779705116,0.9683459917223552,-0.021325266005700286,-0.266626,-24.797573
11.185,2.0,1.0,1.0,34.2,34.4,34.4,4.4,2.0,2.7075,0.03889709104830788,-0.05490241880804815,0.967949880954107,-0.022905724869413672,-0.275935,-24.511258
11.185,2.0,1.0,1.0,34.2,34.4,34.4,4.4,2.0,2.71,0.02508867547941317,-0.05639955991995941,0.9672960479902277,-0.024600464774540944,-0.285891,-24.218087
11.185,2.0,1.0,1.0,34.2,34.4,34.4,4.4,2.0,2.7125,0.011105172539900357,-0.05795866186752638,0.9663693859439327,-0.026420742836306885,-0.296563,-23.917669
11.185,2.0,1.0,1.0,34.2,34.4,34.4,4.4,2.0,2.715,-0.0030566003103945647,-0.05958314762215722,0.9651532240638235,-0.028379287131221887,-0.308031,-23.609585
11.185,2.0,1.0,1.0,34.2,34.4,34.4,4.4,2.0,2.7175,-0.017399889529280094,-0.06127656720387565,0.9636290847189748,-0.030490536397777598,-0.320386,-23.293376
11.185,2.0,1.0,1.0,34.2,34.4,34.4,4.4,2.0,2.72,-0.03192796849006593,-0.06304256293028149,0.9617763933152575,-0.032770926298956594,-0.333734,-22.96855
11.185,2.0,1.0,1.0,34.2,34.4,34.4,4.4,2.0,2.7225,-0.04664408140646244,-0.06488481557440125,0.9595721305908305,-0.03523923266372249,-0.348198,-22.634567
11.185,2.0,1.0,1.0,34.2,34.4,34.4,4.4,2.0,2.725,-0.06155136049444736,-0.06680696374746181,0.9569904141024141,-0.03791698472204221,-0.36392,-22.290841
11.185,2.0,1.0,1.0,34.2,34.4,34.4,4.4,2.0,2.7275,-0.07665270559619168,-0.06881248575049986,0.9540019923732703,-0.04082896463758784,-0.381067,-21.936733
11.185,2.0,1.0,1.0,34.2,34.4,34.4,4.4,2.0,2.73,-0.09195061110040989,-0.07090452876927304,0.9505736309420175,-0.04400381380665421,-0.399837,-21.571545
11.185,2.0,1.0,1.0,34.2,34.4,34.4,4.4,2.0,2.7325,-0.1074469187043422,-0.0730856640320601,0.9466673642028842,-0.04747477165113251,-0.420462,-21.194512
11.185,2.0,1.0,1.0,34.2,34.4,34.4,4.4,2.0,2.735,-0.1231424654922155,-0.07535753753477671,0.9422395802026619,-0.051280579240118855,-0.443221,-20.804797
11.185,2.0,1.0,1.0,34.2,34.4,34.4,4.4,2.0,2.7375,-0.13903658363126706,-0.07772037285185741,0.9372398971837332,-0.055466588292667894,-0.468447,-20.401481
11.185,2.0,1.0,1.0,34.2,34.4,34.4,4.4,2.0,2.74,-0.15512638871277365,-0.08017226341742342,0.9316097804048264,-0.06008612616124996,-0.496541,-19.983556
11.185,2.0,1.0,1.0,34.2,34.4,34.4,4.4,2.0,2.7425,-0.17140576535998078,-0.08270816347769337,0.9252808355720735,-0.06520217931397519,-0.527994,-19.549915
11.185,2.0,1.0,1.0,34.2,34.4,34.4,4.4,2.0,2.745,-0.18786391655594661,-0.08531844510051738,0.918172701461931,-0.07088947121277667,-0.563403,-19.099341
11.185,2.0,1.0,1.0,34.2,34.4,34.4,4.4,2.0,2.7475,-0.2044832801121699,-0.08798682616133409,0.9101904504256291,-0.07723702388898929,-0.603509,-18.6305
11.185,2.0,1.0,1.0,34.2,34.4,34.4,4.4,2.0,2.75,-0.221236520905718,-0.090687380339871,0.901221395024189,-0.0843513023319736,-0.649234,-18.141932
11.185,2.0,1.0,1.0,34.2,34.4,34.4,4.4,2.0,2.7525,-0.23808216428599635,-0.09338019840029817,0.8911312001472836,-0.09236003892844703,-0.701736,-17.632049
11.185,2.0,1.0,1.0,34.2,34.4,34.4,4.4,2.0,2.755,-0.25495821915362055,-0.09600505550204484,0.8797592298246378,-0.10141680445133255,-0.762484,-17.099133
11.185,2.0,1.0,1.0,34.2,34.4,34.4,4.4,2.0,2.7575,-0.2717728113353693,-0.09847211526512319,0.8669131519787647,-0.11170629722147118,-0.833361,-16.541353
11.185,2.0,1.0,1.0,34.2,34.4,34.4,4.4,2.0,2.76,-0.28839035655125533,-0.10064821624852677,0.8523630541438909,-0.1234500919460797,-0.916803,-15.956797
11.185,2.0,1.0,1.0,34.2,34.4,34.4,4.4,2.0,2.7625,-0.3046110814571782,-0.10233657580665768,0.8358358310364792,-0.13691208311829242,-1.015988,-15.343541
11.185,2.0,1.0,1.0,34.2,34.4,34.4,4.4,2.0,2.765,-0.3201406907817738,-0.10324675193016387,0.8170116695531433,-0.15240179851391364,-1.135103,-14.699771
11.185,2.0,1.0,1.0,34.2,34.4,34.4,4.4,2.0,2.7675,-0.33454569806299095,-0.10295044795554299,0.7955266114644293,-0.17027161861928378,-1.2797,-14.024011
11.185,2.0,1.0,1.0,34.2,34.4,34.4,4.4,2.0,2.77,-0.34718870970250815,-0.1008175527297404,0.7709893965556942,-0.19089975171024276,-1.457154,-13.315498
11.185,2.0,1.0,1.0,34.2,34.4,34.4,4.4,2.0,2.7725,-0.3571380034067659,-0.0959269027636457,0.7430287261111681,-0.2146429583574154,-1.677216,-12.574825
11.185,2.0,1.0,1.0,34.2,34.4,34.4,4.4,2.0,2.775,-0.3630506562942446,-0.08695119247264323,0.7114009969998442,-0.24172927723722007,-1.952493,-11.804985
11.185,2.0,1.0,1.0,34.2,34.4,34.4,4.4,2.0,2.7775,-0.3630472126604454,-0.07203411670261048,0.676209676039401,-0.27204020141833235,-2.298384,-11.013034
11.185,2.0,1.0,1.0,34.2,34.4,34.4,4.4,2.0,2.78,-0.35464712175993945,-0.04872866340376835,0.6383088441357408,-0.30471088900477655,-2.730995,-10.212572
11.185,2.0,1.0,1.0,34.2,34.4,34.4,4.4,2.0,2.7825,-0.3349448219337313,-0.014174913799936375,0.5999486696122385,-0.3374922082411114,-3.259417,-9.427071
11.185,2.0,1.0,1.0,34.2,34.4,34.4,4.4,2.0,2.785,-0.30137232840657735,0.034140836680763474,0.5655651375375119,-0.3659731609164109,-3.864867,-8.693384
11.185,2.0,1.0,1.0,34.2,34.4,34.4,4.4,2.0,2.7875,-0.253436325301814,0.0966645778353105,0.5421562162739679,-0.38321792270632277,-4.459189,-8.063189
11.185,2.0,1.0,1.0,34.2,34.4,34.4,4.4,2.0,2.79,-0.19519079851888166,0.16933381948773424,0.5380195027243458,-0.38102875133796643,-4.847033,-7.598082
11.185,2.0,1.0,1.0,34.2,34.4,34.4,4.4,2.0,2.7925,-0.13650882082331978,0.242339510104797,0.5588882469440689,-0.35377773137836327,-4.801842,-7.354487
11.185,2.0,1.0,1.0,34.2,34.4,34.4,4.4,2.0,2.795,-0.0902609398359632,0.3029441621598364,0.6032962371230856,-0.3029798663152178,-4.293247,-7.361936
11.185,2.0,1.0,1.0,34.2,34.4,34.4,4.4,2.0,2.7975,-0.06592514186439583,0.34181091508982653,0.6619444507852708,-0.23788552732246784,-3.540705,-7.608902
11.185,2.0,1.0,1.0,34.2,34.4,34.4,4.4,2.0,2.8,-0.06522810326044973,0.3572913785037643,0.7226995119364275,-0.1705086756756226,-2.78561,-8.048469
11.185,2.0,1.0,1.0,34.2,34.4,34.4,4.4,2.0,2.8025,-0.08347528299388464,0.3540773592379145,0.7764023524947008,-0.10988376417340685,-2.148348,-8.618704
11.185,2.0,1.0,1.0,34.2,34.4,34.4,4.4,2.0,2.805,-0.11379074432081797,0.33899244220349256,0.8189136570492762,-0.06006391099350868,-1.652183,-9.261954
11.185,2.0,1.0,1.0,34.2,34.4,34.4,4.4,2.0,2.8075,-0.15023080708934033,0.3179162137909685,0.8498985222878479,-0.021341061112798453,-1.279039,-9.93422
11.185,2.0,1.0,1.0,34.2,34.4,34.4,4.4,2.0,2.81,-0.1887759691334805,0.2948130293255835,0.8708677386748765,0.00780951702154593,-1.001538,-10.60602
11.185,2.0,1.0,1.0,34.2,34.4,34.4,4.4,2.0,2.8125,-0.227106102143412,0.271962010903135,0.883821997027175,0.0293882939443428,-0.795018,-11.259416
11.185,2.0,1.0,1.0,34.2,34.4,34.4,4.4,2.0,2.815,-0.26405550942171624,0.2505000393737389,0.8906116302148833,0.045240667334511216,-0.640323,-11.884452
11.185,2.0,1.0,1.0,34.2,34.4,34.4,4.4,2.0,2.8175,-0.29914251852007917,0.23088854755853616,0.8927338724485613,0.056858870688735845,-0.523408,-12.476254
11.185,2.0,1.0,1.0,34.2,34.4,34.4,4.4,2.0,2.82,-0.3322548939757342,0.21322497003423332,0.891327107011946,0.06537803546773652,-0.434199,-13.033014
11.185,2.0,1.0,1.0,34.2,34.4,34.4,4.4,2.0,2.8225,-0.36346304461408585,0.19742731742639774,0.8872311132849711,0.0716368864695365,-0.365501,-13.55469
11.185,2.0,1.0,1.0,34.2,34.4,34.4,4.4,2.0,2.825,-0.3929166186830226,0.18333614795878284,0.8810569335962265,0.07624750309368318,-0.31216,-14.042192
11.185,2.0,1.0,1.0,34.2,34.4,34.4,4.4,2.0,2.8275,-0.420790251759106,0.17076793432382859,0.873247026334153,0.07965519741964681,-0.270455,-14.496904
