1,w,sub_t,h,l1,l2,l3,g1,g2,Freq,S11_re,S21_re,S11_img,S21_img,S11_dB,S21_dB
11.185,2.0,1.0,1.0,33.9,34.2,34.2,4.0,2.5,2.5,0.799242919414912,-0.00832104180167779,0.589569774008244,0.005121433208566,-0.05955,-40.201385
11.185,2.0,1.0,1.0,33.9,34.2,34.2,4.0,2.5,2.5025,0.7949861384068013,-0.0084793010713999,0.5951840972173189,0.005126060458628243,-0.060143,-40.079989
11.185,2.0,1.0,1.0,33.9,34.2,34.2,4.0,2.5,2.505,0.7906696238610744,-0.008640352108707106,0.6007924033512532,0.005129511390634904,-0.060747,-39.958181
11.185,2.0,1.0,1.0,33.9,34.2,34.2,4.0,2.5,2.5075,0.7862927819321859,-0.008804253020209351,0.6063943045162636,0.005131741198794812,-0.061361,-39.83595
11.185,2.0,1.0,1.0,33.9,34.2,34.2,4.0,2.5,2.51,0.7818550101881703,-0.008971063493536414,0.6119894015682042,0.00513270339965116,-0.061987,-39.713286
11.185,2.0,1.0,1.0,33.9,34.2,34.2,4.0,2.5,2.5125,0.7773556974988104,-0.009140844852007802,0.6175772837644717,0.005132349760103341,-0.062625,-39.590179
11.185,2.0,1.0,1.0,33.9,34.2,34.2,4.0,2.5,2.515,0.7727942239230953,-0.009313660111648109,0.6231575284046176,0.005130630221832245,-0.063274,-39.466617
11.185,2.0,1.0,1.0,33.9,34.2,34.2,4.0,2.5,2.5175,0.7681699605960073,-0.009489574040669002,0.6287297004592348,0.005127492821919354,-0.063936,-39.34259
11.185,2.0,1.0,1.0,33.9,34.2,34.2,4.0,2.5,2.52,0.7634822696146452,-0.009668653221547306,0.634293352186702,0.005122883609435955,-0.064609,-39.218087
11.185,2.0,1.0,1.0,33.9,34.2,34.2,4.0,2.5,2.5225,0.7587305039237291,-0.009850966115834903,0.6398480227373029,0.005116746557763935,-0.065296,-39.093095
11.185,2.0,1.0,1.0,33.9,34.2,34.2,4.0,2.5,2.525,0.7539140072004914,-0.010036583131846216,0.6453932377442627,0.005109023472392392,-0.065996,-38.967605
11.185,2.0,1.0,1.0,33.9,34.2,34.2,4.0,2.5,2.5275,0.7490321137389876,-0.010225576695377,0.6509285089011972,0.00509965389391802,-0.066709,-38.841603
11.185,2.0,1.0,1.0,33.9,34.2,34.2,4.0,2.5,2.53,0.744084148333853,-0.010418021323617698,0.6564533335254392,0.005088574995956371,-0.067436,-38.715078
11.185,2.0,1.0,1.0,33.9,34.2,34.2,4.0,2.5,2.5325,0.7390694261635216,-0.010613993702435478,0.6619671941066978,0.00507572147765275,-0.068177,-38.588017
11.185,2.0,1.0,1.0,33.9,34.2,34.2,4.0,2.5,2.535,0.7339872526729343,-0.010813572767209454,0.6674695578404797,0.005061025450456971,-0.068933,-38.460409
11.185,2.0,1.0,1.0,33.9,34.2,34.2,4.0,2.5,2.5375,0.7288369234557579,-0.011016839787415567,0.672959876145646,0.00504441631880469,-0.069704,-38.33224
11.185,2.0,1.0,1.0,33.9,34.2,34.2,4.0,2.5,2.54,0.7236177241361299,-0.011223878455170136,0.6784375841654818,0.005025820654319565,-0.07049,-38.203496
11.185,2.0,1.0,1.0,33.9,34.2,34.2,4.0,2.5,2.5425,0.71832893024995,-0.01143477497795454,0.683902100251601,0.0050051620631247585,-0.071291,-38.074166
11.185,2.0,1.0,1.0,33.9,34.2,34.2,4.0,2.5,2.545,0.7129698071257309,-0.011649618175758157,0.6893528254299774,0.004982361045820218,-0.072109,-37.944234
11.185,2.0,1.0,1.0,33.9,34.2,34.2,4.0,2.5,2.5475,0.7075396097650241,-0.011868499582891375,0.6947891428483516,0.004957334849650218,-0.072944,-37.813688
11.185,2.0,1.0,1.0,33.9,34.2,34.2,4.0,2.5,2.55,0.7020375827224178,-0.012091513554738541,0.7002104172042378,0.004929997312349422,-0.073796,-37.682512
11.185,2.0,1.0,1.0,33.9,34.2,34.2,4.0,2.5,2.5525,0.6964629599851292,-0.012318757379736813,0.7056159941526816,0.004900258697117505,-0.074665,-37.550693
11.185,2.0,1.0,1.0,33.9,34.2,34.2,4.0,2.5,2.555,0.6908149648521694,-0.012550331396887542,0.7110051996929047,0.004868025518129253,-0.075553,-37.418215
11.185,2.0,1.0,1.0,33.9,34.2,34.2,4.0,2.5,2.5575,0.6850928098130834,-0.012786339119126569,0.716377339532901,0.004833200355942965,-0.076459,-37.285062
11.185,2.0,1.0,1.0,33.9,34.2,34.2,4.0,2.5,2.56,0.6792956964262526,-0.013026887362901989,0.7217316984309952,0.004795681662118163,-0.077385,-37.15122
11.185,2.0,1.0,1.0,33.9,34.2,34.2,4.0,2.5,2.5625,0.6734228151967327,-0.013272086384332027,0.7270675395133203,0.004755363552301573,-0.07833,-37.016672
11.185,2.0,1.0,1.0,33.9,34.2,34.2,4.0,2.5,2.565,0.6674733454535916,-0.013522050022341121,0.7323841035661128,0.00471213558697942,-0.079296,-36.881401
11.185,2.0,1.0,1.0,33.9,34.2,34.2,4.0,2.5,2.5675,0.6614464552267196,-0.013776895849199304,0.7376806083016334,0.0046658825390310165,-0.080282,-36.745391
11.185,2.0,1.0,1.0,33.9,34.2,34.2,4.0,2.5,2.57,0.6553413011230418,-0.014036745328920732,0.7429562475964671,0.004616484147148262,-0.081291,-36.608624
11.185,2.0,1.0,1.0,33.9,34.2,34.2,4.0,2.5,2.5725,0.649157028202074,-0.014301723984007947,0.7482101907008702,0.004563814854107822,-0.082321,-36.471083
11.185,2.0,1.0,1.0,33.9,34.2,34.2,4.0,2.5,2.575,0.6428927698507376,-0.014571961571063425,0.7534415814177347,0.004507743528800857,-0.083375,-36.332749
11.185,2.0,1.0,1.0,33.9,34.2,34.2,4.0,2.5,2.5775,0.6365476476573325,-0.014847592265827003,0.7586495372496497,0.004448133170831883,-0.084452,-36.193603
11.185,2.0,1.0,1.0,33.9,34.2,34.2,4.0,2.5,2.58,0.6301207712845575,-0.01512875485823719,0.7638331485124323,0.004384840596399096,-0.085554,-36.053626
11.185,2.0,1.0,1.0,33.9,34.2,34.2,4.0,2.5,2.5825,0.623611238341422,-0.01541559295815811,0.768991477413401,0.004317716104056982,-0.086681,-35.912799
11.185,2.0,1.0,1.0,33.9,34.2,34.2,4.0,2.5,2.585,0.6170181342539018,-0.01570825521245977,0.7741235570925016,0.004246603118844151,-0.087834,-35.7711
11.185,2.0,1.0,1.0,33.9,34.2,34.2,4.0,2.5,2.5875,0.6103405321341319,-0.016006895534189623,0.7792283906243131,0.004171337813123283,-0.089014,-35.628509
11.185,2.0,1.0,1.0,33.9,34.2,34.2,4.0,2.5,2.59,0.603577492647928,-0.016311673344627128,0.7843049499787628,0.004091748702337867,-0.090221,-35.485005
11.185,2.0,1.0,1.0,33.9,34.2,34.2,4.0,2.5,2.5925,0.5967280638803686,-0.016622753829072388,0.7893521749382406,0.004007656213728404,-0.091458,-35.340564
11.185,2.0,1.0,1.0,33.9,34.2,34.2,4.0,2.5,2.595,0.5897912811991585,-0.016940308207281186,0.7943689719686219,0.003918872225875208,-0.092724,-35.195165
11.185,2.0,1.0,1.0,33.9,34.2,34.2,4.0,2.5,2.5975,0.5827661671154246,-0.01726451401952912,0.799354213041501,0.003825199576740687,-0.094021,-35.048782
11.185,2.0,1.0,1.0,33.9,34.2,34.2,4.0,2.5,2.6,0.5756517311415702,-0.01759555542935908,0.8043067344047411,0.003726431537669711,-0.095349,-34.901393
11.185,2.0,1.0,1.0,33.9,34.2,34.2,4.0,2.5,2.6025,0.5684469696457581,-0.017933623544147015,0.809225335298169,0.0036223512505706612,-0.096711,-34.752972
11.185,2.0,1.0,1.0,33.9,34.2,34.2,4.0,2.5,2.605,0.561150865702525,-0.018278916754706585,0.8141087766110225,0.003512731125237863,-0.098106,-34.603493
11.185,2.0,1.0,1.0,33.9,34.2,34.2,4.0,2.5,2.6075,0.5537623889389782,-0.018631641095245878,0.8189557794774434,0.0033973321934863865,-0.099537,-34.452929
11.185,2.0,1.0,1.0,33.9,34.2,34.2,4.0,2.5,2.61,0.5462804953759571,-0.018992010625090046,0.8237650238059813,0.003275903416451711,-0.101005,-34.301253
11.185,2.0,1.0,1.0,33.9,34.2,34.2,4.0,2.5,2.6125,0.5387041272634512,-0.019360247833691842,0.8285351467387427,0.00314818094104865,-0.10251,-34.148437
11.185,2.0,1.0,1.0,33.9,34.2,34.2,4.0,2.5,2.615,0.5310322129094955,-0.019736584070570485,0.8332647410353845,0.0030138873011924566,-0.104054,-33.99445
11.185,2.0,1.0,1.0,33.9,34.2,34.2,4.0,2.5,2.6175,0.5232636665016633,-0.020121260001943506,0.8379523533767612,0.0028727305589438565,-0.10564,-33.839262
11.185,2.0,1.0,1.0,33.9,34.2,34.2,4.0,2.5,2.62,0.5153973879201803,-0.020514526095955953,0.842596482582502,0.0027244033802545473,-0.107267,-33.682842
11.185,2.0,1.0,1.0,33.9,34.2,34.2,4.0,2.5,2.6225,0.5074322625415548,-0.02091664313855729,0.8471955777362675,0.002568582039444071,-0.108939,-33.525157
11.185,2.0,1.0,1.0,33.9,34.2,34.2,4.0,2.5,2.625,0.499367161031524,-0.0213278827822358,0.851748036211846,0.00240492534593451,-0.110656,-33.366174
11.185,2.0,1.0,1.0,33.9,34.2,34.2,4.0,2.5,2.6275,0.4912009391259427,-0.021748528129994137,0.8562522015925327,0.002233073486091353,-0.112421,-33.205856
11.185,2.0,1.0,1.0,33.9,34.2,34.2,4.0,2.5,2.63,0.4829324373981226,-0.02217887435713307,0.86070636147553,0.002052646772262816,-0.114236,-33.044169
11.185,2.0,1.0,1.0,33.9,34.2,34.2,4.0,2.5,2.6325,0.47456048101095405,-0.022619229373611906,0.8651087451522026,0.0018632442902617814,-0.116102,-32.881074
11.185,2.0,1.0,1.0,33.9,34.2,34.2,4.0,2.5,2.635,0.4660838794519645,-0.023069914529968094,0.8694575211541169,0.0016644424355848938,-0.118021,-32.716533
11.185,2.0,1.0,1.0,33.9,34.2,34.2,4.0,2.5,2.6375,0.45750142624928625,-0.023531265370009893,0.8737507946537119,0.00145579332759644,-0.119997,-32.550504
11.185,2.0,1.0,1.0,33.9,34.2,34.2,4.0,2.5,2.64,0.44881189866627025,-0.02400363243374399,0.8779866047072266,0.0012368230897053104,-0.12203,-32.382945
11.185,2.0,1.0,1.0,33.9,34.2,34.2,4.0,2.5,2.6425,0.4400140573722909,-0.02448738211426458,0.8821629213262088,0.0010070299822142546,-0.124125,-32.213814
11.185,2.0,1.0,1.0,33.9,34.2,34.2,4.0,2.5,2.645,0.4311066460870143,-0.024982897572613762,0.8862776423623434,0.0007658823729978019,-0.126283,-32.043064
11.185,2.0,1.0,1.0,33.9,34.2,34.2,4.0,2.5,2.6475,0.4220883911951568,-0.025490579714924147,0.8903285901886719,0.0005128165294475236,-0.128507,-31.870648
11.185,2.0,1.0,1.0,33.9,34.2,34.2,4.0,2.5,2.65,0.4129580013284469,-0.026010848236475655,0.8943135081583007,0.00024723421318005085,-0.130801,-31.696517
11.185,2.0,1.0,1.0,33.9,34.2,34.2,4.0,2.5,2.6525,0.4037141669112756,-0.02654414273763263,0.8982300568194697,-3.1499943196748614e-05,-0.133168,-31.52062
11.185,2.0,1.0,1.0,33.9,34.2,34.2,4.0,2.5,2.655,0.3943555596660952,-0.027090923916985598,0.9020758098634177,-0.00032406130046112516,-0.13561,-31.342902
11.185,2.0,1.0,1.0,33.9,34.2,34.2,4.0,2.5,2.6575,0.384880832074395,-0.027651674847388143,0.905848249778535,-0.0006311683443339723,-0.138133,-31.163309
11.185,2.0,1.0,1.0,33.9,34.2,34.2,4.0,2.5,2.66,0.3752886167886646,-0.028226902340961844,0.909544763181144,-0.0009535861134800614,-0.140738,-30.981782
11.185,2.0,1.0,1.0,33.9,34.2,34.2,4.0,2.5,2.6625,0.3655775259904439,-0.028817138409531467,0.9131626357894848,-0.0012921299568950514,-0.143432,-30.79826
11.185,2.0,1.0,1.0,33.9,34.2,34.2,4.0,2.5,2.665,0.35574615068914744,-0.029422941827344458,0.9166990470033072,-0.001647669657824237,-0.146218,-30.61268
11.185,2.0,1.0,1.0,33.9,34.2,34.2,4.0,2.5,2.6675,0.34579305995605547,-0.030044899803312403,0.9201510640465803,-0.002021133966162088,-0.149101,-30.424976
11.185,2.0,1.0,1.0,33.9,34.2,34.2,4.0,2.5,2.67,0.3357168000874604,-0.030683629770382435,0.9235156356253376,-0.0024135155867909064,-0.152086,-30.235078
11.185,2.0,1.0,1.0,33.9,34.2,34.2,4.0,2.5,2.6725,0.3255158936906667,-0.03133978129997979,0.9267895850462724,-0.0028258766776421275,-0.155179,-30.042913
11.185,2.0,1.0,1.0,33.9,34.2,34.2,4.0,2.5,2.675,0.3151888386862984,-0.032014038149746356,0.9299696027343564,-0.003259354918537811,-0.158385,-29.848407
11.185,2.0,1.0,1.0,33.9,34.2,34.2,4.0,2.5,2.6775,0.30473410722011923,-0.03270712045300336,0.9330522380793342,-0.003715170220257886,-0.161711,-29.651477
11.185,2.0,1.0,1.0,33.9,34.2,34.2,4.0,2.5,2.68,0.2941501444775512,-0.033419787058455414,0.9360338905311116,-0.004194632152965124,-0.165164,-29.452043
11.185,2.0,1.0,1.0,33.9,34.2,34.2,4.0,2.5,2.6825,0.28343536739409075,-0.03415283802858087,0.9389107998528008,-0.004699148184330028,-0.16875,-29.250014
11.185,2.0,1.0,1.0,33.9,34.2,34.2,4.0,2.5,2.685,0.27258816325514773,-0.034907117304864524,0.9416790354269844,-0.005230232830701299,-0.172478,-29.0453
11.185,2.0,1.0,1.0,33.9,34.2,34.2,4.0,2.5,2.6875,0.26160688817937233,-0.035683515547434555,0.9443344844955439,-0.0057895178397822725,-0.176357,-28.837803
11.185,2.0,1.0,1.0,33.9,34.2,34.2,4.0,2.5,2.69,0.25048986548053315,-0.03648297315567864,0.9468728391955503,-0.006378763540876652,-0.180395,-28.627421
11.185,2.0,1.0,1.0,33.9,34.2,34.2,4.0,2.5,2.6925,0.2392353839044598,-0.03730648347488909,0.9492895822329411,-0.006999871519329741,-0.184603,-28.414048
11.185,2.0,1.0,1.0,33.9,34.2,34.2,4.0,2.5,2.695,0.22784169573979393,-0.03815509619175623,0.9515799710113679,-0.007654898795840804,-0.188992,-28.197569
11.185,2.0,1.0,1.0,33.9,34.2,34.2,4.0,2.5,2.6975,0.21630701480434042,-0.039029920918374435,0.9537390200050042,-0.008346073719551223,-0.193573,-27.977865
11.185,2.0,1.0,1.0,33.9,34.2,34.2,4.0,2.5,2.7,0.20462951431317156,-0.039932130960039454,0.955761481130533,-0.009075813816993815,-0.19836,-27.754811
11.185,2.0,1.0,1.0,33.9,34.2,34.2,4.0,2.5,2.7025,0.19280732464050207,-0.040862967256137216,0.9576418218338699,-0.009846745878114226,-0.203367,-27.528272
11.185,2.0,1.0,1.0,33.9,34.2,34.2,4.0,2.5,2.705,0.18083853099537067,-0.041823742475335275,0.9593742005603415,-0.010661728606813399,-0.208609,-27.298109
11.185,2.0,1.0,1.0,33.9,34.2,34.2,4.0,2.5,2.7075,0.16872117104188294,-0.04281584523545883,0.9609524392214892,-0.01152387821825058,-0.214103,-27.064173
11.185,2.0,1.0,1.0,33.9,34.2,34.2,4.0,2.5,2.71,0.15645323250907717,-0.043840744403992764,0.9623699922057132,-0.0124365974302432,-0.219868,-26.826305
11.185,2.0,1.0,1.0,33.9,34.2,34.2,4.0,2.5,2.7125,0.1440326508545583,-0.04489999341599417,0.9636199114012459,-0.013403608373652448,-0.225925,-26.584337
11.185,2.0,1.0,1.0,33.9,34.2,34.2,4.0,2.5,2.715,0.13145730707123293,-0.04599523452084317,0.9646948066060729,-0.014428990039284653,-0.232296,-26.338092
11.185,2.0,1.0,1.0,33.9,34.2,34.2,4.0,2.5,2.7175,0.1187250257598894,-0.047128202835760524,0.9655868005867578,-0.015517220989817919,-0.239007,-26.087381
11.185,2.0,1.0,1.0,33.9,34.2,34.2,4.0,2.5,2.72,0.1058335736345435,-0.04830073003979304,0.9662874779128454,-0.01667322819858245,-0.246085,-25.832003
11.185,2.0,1.0,1.0,33.9,34.2,34.2,4.0,2.5,2.7225,0.09278065868570523,-0.04951474748359105,0.96678782653055,-0.017902443037638792,-0.253562,-25.571742
11.185,2.0,1.0,1.0,33.9,34.2,34.2,4.0,2.5,2.725,0.07956393030398018,-0.050772288413183125,0.9670781708423926,-0.019210865631640435,-0.261471,-25.306372
11.185,2.0,1.0,1.0,33.9,34.2,34.2,4.0,2.5,2.7275,0.06618098076844117,-0.052075488903982246,0.9671480948207267,-0.020605139029087192,-0.269852,-25.035646
11.185,2.0,1.0,1.0,33.9,34.2,34.2,4.0,2.5,2.73,0.05262934863963721,-0.05342658696616454,0.9669863533930283,-0.022092634928235197,-0.278747,-24.759306
11.185,2.0,1.0,1.0,33.9,34.2,34.2,4.0,2.5,2.7325,0.03890652477699534,-0.054827919103239885,0.9665807699831858,-0.02368155304300165,-0.288206,-24.47707
11.185,2.0,1.0,1.0,33.9,34.2,34.2,4.0,2.5,2.735,0.025009961940003916,-0.05628191336695005,0.9659181176610534,-0.02538103661941484,-0.298283,-24.188641
11.185,2.0,1.0,1.0,33.9,34.2,34.2,4.0,2.5,2.7375,0.010937089252648767,-0.05779107763301538,0.9649839808232321,-0.02720130713398177,-0.30904,-23.893697
11.185,2.0,1.0,1.0,33.9,34.2,34.2,4.0,2.5,2.74,-0.0033146667603010348,-0.0593579813954813,0.963762593678083,-0.02915382184473101,-0.320547,-23.591892
11.185,2.0,1.0,1.0,33.9,34.2,34.2,4.0,2.5,2.7425,-0.01774785227937458,-0.06098522880367269,0.9622366510081638,-0.03125145865230107,-0.332885,-23.282856
11.185,2.0,1.0,1.0,33.9,34.2,34.2,4.0,2.5,2.745,-0.032364944373383366,-0.0626754198912689,0.9603870856973403,-0.033508733697789846,-0.346144,-22.966189
11.185,2.0,1.0,1.0,33.9,34.2,34.2,4.0,2.5,2.7475,-0.04716829313617298,-0.06443109589696483,0.9581928062930046,-0.035942058319999026,-0.360431,-22.641459
11.185,2.0,1.0,1.0,33.9,34.2,34.2,4.0,2.5,2.75,-0.0621600422125103,-0.0662546631458368,0.95563038637133,-0.0385700434707633,-0.375865,-22.3082
11.185,2.0,1.0,1.0,33.9,34.2,34.2,4.0,2.5,2.7525,-0.07734202017406862,-0.06814828800245272,0.9526736956193804,-0.04141386150769886,-0.392587,-21.965909
11.185,2.0,1.0,1.0,33.9,34.2,34.2,4.0,2.5,2.755,-0.09271559248813807,-0.07011375271216332,0.9492934602643657,-0.04449767752467963,-0.410759,-21.614039
11.185,2.0,1.0,1.0,33.9,34.2,34.2,4.0,2.5,2.7575,-0.10828146005844233,-0.0721522582184888,0.9454567376793654,-0.047849165127107685,-0.430572,-21.251999
11.185,2.0,1.0,1.0,33.9,34.2,34.2,4.0,2.5,2.76,-0.12403938507822401,-0.0742641548559649,0.941126286583842,-0.05150012490109771,-0.452249,-20.879147
11.185,2.0,1.0,1.0,33.9,34.2,34.2,4.0,2.5,2.7625,-0.13998781759901985,-0.07644857455535284,0.9362598101518395,-0.055487227843207504,-0.476052,-20.494785
11.185,2.0,1.0,1.0,33.9,34.2,34.2,4.0,2.5,2.765,-0.15612338588373628,-0.07870292797250829,0.9308090444945026,-0.059852910752094465,-0.502295,-20.098156
11.185,2.0,1.0,1.0,33.9,34.2,34.2,4.0,2.5,2.7675,-0.17244019896866195,-0.08102221546942212,0.9247186594445671,-0.06464645598167452,-0.531351,-19.688436
11.185,2.0,1.0,1.0,33.9,34.2,34.2,4.0,2.5,2.77,-0.18892888898954258,-0.08339808024560215,0.9179249325929931,-0.06992529375700127,-0.563669,-19.264728
11.185,2.0,1.0,1.0,33.9,34.2,34.2,4.0,2.5,2.7725,-0.20557529092460883,-0.08581750237198014,0.9103541517821221,-0.07575657078460069,-0.599789,-18.82606
11.185,2.0,1.0,1.0,33.9,34.2,34.2,4.0,2.5,2.775,-0.22235861435791038,-0.08826098996379904,0.9019206972224084,-0.08221903267101759,-0.640374,-18.371379
11.185,2.0,1.0,1.0,33.9,34.2,34.2,4.0,2.5,2.7775,-0.23924889965955395,-0.09070006232505536,0.8925247550807086,-0.08940526669802575,-0.686233,-17.899544
11.185,2.0,1.0,1.0,33.9,34.2,34.2,4.0,2.5,2.78,-0.2562034609095797,-0.09309373104003685,0.8820496256657567,-0.09742433994683289,-0.738368,-17.409333
11.185,2.0,1.0,1.0,33.9,34.2,34.2,4.0,2.5,2.7825,-0.27316188757107696,-0.09538355650286312,0.8703586224149082,-0.10640483449992472,-0.798028,-16.89944
11.185,2.0,1.0,1.0,33.9,34.2,34.2,4.0,2.5,2.785,-0.29003898931005345,-0.09748667254866321,0.8572916337839183,-0.11649820565299106,-0.866782,-16.368492
11.185,2.0,1.0,1.0,33.9,34.2,34.2,4.0,2.5,2.7875,-0.30671480157626835,-0.09928590926194758,0.8426615778337562,-0.12788223217113318,-0.946616,-15.815072
11.185,2.0,1.0,1.0,33.9,34.2,34.2,4.0,2.5,2.79,-0.3230203995130347,-0.1006157802528718,0.8262512902777336,-0.1407640189635026,-1.040069,-15.237766
11.185,2.0,1.0,1.0,33.9,34.2,34.2,4.0,2.5,2.7925,-0.33871777906240574,-0.10124262113005994,0.8078119802851972,-0.15538142446808675,-1.150405,-14.635242
11.185,2.0,1.0,1.0,33.9,34.2,34.2,4.0,2.5,2.795,-0.3534714823024635,-0.10083659682663479,0.7870654932126621,-0.17200069189212278,-1.281854,-14.006382
11.185,2.0,1.0,1.0,33.9,34.2,34.2,4.0,2.5,2.7975,-0.3668091191568715,-0.09893278676155806,0.7637146252452285,-0.1909060815099229,-1.439911,-13.350495
11.185,2.0,1.0,1.0,33.9,34.2,34.2,4.0,2.5,2.8,-0.3780679439108925,-0.09487857938672693,0.737469258074229,-0.2123738245027078,-1.631721,-12.667659
11.185,2.0,1.0,1.0,33.9,34.2,34.2,4.0,2.5,2.8025,-0.38632642057477057,-0.08776638694260819,0.7081019504343876,-0.23661693596101693,-1.866482,-11.959253
11.185,2.0,1.0,1.0,33.9,34.2,34.2,4.0,2.5,2.805,-0.39032612013326945,-0.07635705583657168,0.6755554780581716,-0.26367871710046825,-2.155755,-11.228772
11.185,2.0,1.0,1.0,33.9,34.2,34.2,4.0,2.5,2.8075,-0.38840615948489354,-0.059016038215164,0.640135461789905,-0.29324234786669706,-2.513215,-10.483033
11.185,2.0,1.0,1.0,33.9,34.2,34.2,4.0,2.5,2.81,-0.3785092782748999,-0.03372080222515842,0.6028258353532021,-0.3243195882281665,-2.952763,-9.733839
11.185,2.0,1.0,1.0,33.9,34.2,34.2,4.0,2.5,2.8125,-0.358383987536791,0.00173770358395208,0.56573862111509,-0.354807826388568,-3.482383,-9.000032
11.185,2.0,1.0,1.0,33.9,34.2,34.2,4.0,2.5,2.815,-0.32618342068167966,0.049162040714730196,0.5325985812667079,-0.38101444099334314,-4.088721,-8.309463
11.185,2.0,1.0,1.0,33.9,34.2,34.2,4.0,2.5,2.8175,-0.28164230590840106,0.10878627718702918,0.5089079811114147,-0.39749920726355126,-4.706855,-7.699598
11.185,2.0,1.0,1.0,33.9,34.2,34.2,4.0,2.5,2.82,-0.22765456255551386,0.17772284108648076,0.5011227653609999,-0.3978936190399054,-5.186281,-7.214642
11.185,2.0,1.0,1.0,33.9,34.2,34.2,4.0,2.5,2.8225,-0.17123561587265562,0.24902241712522563,0.5143093036608758,-0.3772166832527121,-5.318954,-6.897219
11.185,2.0,1.0,1.0,33.9,34.2,34.2,4.0,2.5,2.825,-0.12227246880156104,0.31291920737924034,0.5490377000723303,-0.3349353645186789,-4.997732,-6.775737
11.185,2.0,1.0,1.0,33.9,34.2,34.2,4.0,2.5,2.8275,-0.08975653284655528,0.360553415178147,0.5999645790327359,-0.27634893627070994,-4.34136,-6.853587
