1,w,sub_t,h,l1,l2,l3,g1,g2,Freq,S11_re,S21_re,S11_img,S21_img,S11_dB,S21_dB
11.185,2.0,1.0,1.0,33.1,34.5,34.5,2.5,3.9,2.5,0.885394886172618,-0.00622244272245003,0.451000243660687,0.00573925726047854,-0.055397,-41.447361
11.185,2.0,1.0,1.0,33.1,34.5,34.5,2.5,3.9,2.5025,0.8825043198948694,-0.006360321668472844,0.4564945734864436,0.005780116718165658,-0.055943,-41.315705
11.185,2.0,1.0,1.0,33.1,34.5,34.5,2.5,3.9,2.505,0.8795671083146325,-0.00650105637075484,0.46199172110518877,0.005820804525877576,-0.0565,-41.183558
11.185,2.0,1.0,1.0,33.1,34.5,34.5,2.5,3.9,2.5075,0.8765827634079923,-0.006644719666617258,0.4674915535020342,0.005861303358256922,-0.057067,-41.050906
11.185,2.0,1.0,1.0,33.1,34.5,34.5,2.5,3.9,2.51,0.8735507873785857,-0.006791386854116418,0.47299393315983085,0.0059015950243153335,-0.057646,-40.917737
11.185,2.0,1.0,1.0,33.1,34.5,34.5,2.5,3.9,2.5125,0.870470672403686,-0.006941135795635334,0.4784987178852791,0.005941660420868309,-0.058236,-40.784035
11.185,2.0,1.0,1.0,33.1,34.5,34.5,2.5,3.9,2.515,0.8673419003713245,-0.0070940470266952485,0.4840057606278839,0.0059814794831499814,-0.058837,-40.649787
11.185,2.0,1.0,1.0,33.1,34.5,34.5,2.5,3.9,2.5175,0.8641639426080311,-0.007250203870294647,0.48951490929139885,0.006021031132414351,-0.059451,-40.514977
11.185,2.0,1.0,1.0,33.1,34.5,34.5,2.5,3.9,2.52,0.8609362595967295,-0.007409692557100525,0.4950260065373834,0.006060293220314633,-0.060077,-40.37959
11.185,2.0,1.0,1.0,33.1,34.5,34.5,2.5,3.9,2.5225,0.857658300684323,-0.007572602351844067,0.500538889580464,0.006099242469836015,-0.060716,-40.243611
11.185,2.0,1.0,1.0,33.1,34.5,34.5,2.5,3.9,2.525,0.8543295037784444,-0.007739025686291225,0.5060533899748824,0.006137854412540392,-0.061368,-40.107025
11.185,2.0,1.0,1.0,33.1,34.5,34.5,2.5,3.9,2.5275,0.8509492950328377,-0.00790905829918798,0.5115693333918737,0.006176103321861202,-0.062033,-39.969815
11.185,2.0,1.0,1.0,33.1,34.5,34.5,2.5,3.9,2.53,0.847517088520796,-0.008082799383606187,0.5170865393873897,0.006213962142165944,-0.062712,-39.831965
11.185,2.0,1.0,1.0,33.1,34.5,34.5,2.5,3.9,2.5325,0.8440322858960387,-0.008260351742145611,0.5226048211596486,0.00625140241328332,-0.063406,-39.693459
11.185,2.0,1.0,1.0,33.1,34.5,34.5,2.5,3.9,2.535,0.840494276040384,-0.008441821950479904,0.5281239852959807,0.0062883941901632255,-0.064114,-39.554279
11.185,2.0,1.0,1.0,33.1,34.5,34.5,2.5,3.9,2.5375,0.8369024346975131,-0.008627320529768273,0.5336438315083527,0.006324905957315108,-0.064838,-39.414408
11.185,2.0,1.0,1.0,33.1,34.5,34.5,2.5,3.9,2.54,0.8332561240921009,-0.00881696212849401,0.5391641523569789,0.006360904537637986,-0.065577,-39.273828
11.185,2.0,1.0,1.0,33.1,34.5,34.5,2.5,3.9,2.5425,0.8295546925335119,-0.00901086571432694,0.544684732961328,0.006396354995223903,-0.066332,-39.132521
11.185,2.0,1.0,1.0,33.1,34.5,34.5,2.5,3.9,2.545,0.8257974740032266,-0.009209154776655275,0.5502053506978202,0.0064312205316829395,-0.067104,-38.990469
11.185,2.0,1.0,1.0,33.1,34.5,34.5,2.5,3.9,2.5475,0.8219837877251086,-0.009411957540476367,0.5557257748834424,0.006465462375497132,-0.067894,-38.847652
11.185,2.0,1.0,1.0,33.1,34.5,34.5,2.5,3.9,2.55,0.8181129377175365,-0.00961940719238616,0.5612457664444731,0.006499039663870736,-0.0687,-38.704051
11.185,2.0,1.0,1.0,33.1,34.5,34.5,2.5,3.9,2.5525,0.8141842123263978,-0.009831642119465543,0.5667650775694143,0.00653190931649756,-0.069526,-38.559646
11.185,2.0,1.0,1.0,33.1,34.5,34.5,2.5,3.9,2.555,0.810196883737832,-0.01004880616191706,0.5722834513452113,0.00656402590061436,-0.07037,-38.414417
11.185,2.0,1.0,1.0,33.1,34.5,34.5,2.5,3.9,2.5575,0.8061502074695567,-0.010271048880374074,0.577800621375726,0.006595341486657227,-0.071233,-38.268342
11.185,2.0,1.0,1.0,33.1,34.5,34.5,2.5,3.9,2.56,0.8020434218395203,-0.010498525838871606,0.5833163113813757,0.006625805493772975,-0.072117,-38.1214
11.185,2.0,1.0,1.0,33.1,34.5,34.5,2.5,3.9,2.5625,0.7978757474105379,-0.01073139890454518,0.5888302347787632,0.00665536452437422,-0.073021,-37.97357
11.185,2.0,1.0,1.0,33.1,34.5,34.5,2.5,3.9,2.565,0.7936463864094555,-0.010969836565207865,0.5943420942390316,0.006683962186852371,-0.073947,-37.824827
11.185,2.0,1.0,1.0,33.1,34.5,34.5,2.5,3.9,2.5675,0.7893545221193072,-0.011214014266042575,0.5998515812235647,0.006711538905480328,-0.074896,-37.67515
11.185,2.0,1.0,1.0,33.1,34.5,34.5,2.5,3.9,2.57,0.7849993182427867,-0.011464114766746837,0.6053583754955658,0.006738031716450294,-0.075867,-37.524514
11.185,2.0,1.0,1.0,33.1,34.5,34.5,2.5,3.9,2.5725,0.7805799182352507,-0.011720328520572717,0.6108621446059155,0.006763374048892126,-0.076862,-37.372895
11.185,2.0,1.0,1.0,33.1,34.5,34.5,2.5,3.9,2.575,0.7760954446053256,-0.01198285407681952,0.6163625433515764,0.006787495489610724,-0.077882,-37.220268
11.185,2.0,1.0,1.0,33.1,34.5,34.5,2.5,3.9,2.5775,0.7715449981810446,-0.012251898508462507,0.6218592132046671,0.006810321530158394,-0.078927,-37.066607
11.185,2.0,1.0,1.0,33.1,34.5,34.5,2.5,3.9,2.58,0.7669276573392869,-0.012527677866740852,0.6273517817101838,0.006831773294729615,-0.079998,-36.911884
11.185,2.0,1.0,1.0,33.1,34.5,34.5,2.5,3.9,2.5825,0.7622424771961036,-0.012810417664674315,0.6328398618501548,0.006851767247216771,-0.081097,-36.756074
11.185,2.0,1.0,1.0,33.1,34.5,34.5,2.5,3.9,2.585,0.7574884887553395,-0.01310035339164392,0.6383230513718272,0.006870214875601754,-0.082225,-36.599147
11.185,2.0,1.0,1.0,33.1,34.5,34.5,2.5,3.9,2.5875,0.7526646980127406,-0.013397731061350972,0.6438009320772821,0.006887022351683016,-0.083382,-36.441076
11.185,2.0,1.0,1.0,33.1,34.5,34.5,2.5,3.9,2.59,0.7477700850125272,-0.013702807795661333,0.6492730690716312,0.006902090163930881,-0.084569,-36.281829
11.185,2.0,1.0,1.0,33.1,34.5,34.5,2.5,3.9,2.5925,0.7428036028531383,-0.014015852447060564,0.654739009966685,0.006915312721048341,-0.085788,-36.121376
11.185,2.0,1.0,1.0,33.1,34.5,34.5,2.5,3.9,2.595,0.7377641766386238,-0.014337146262674525,0.6601982840367094,0.006926577923562553,-0.08704,-35.959685
11.185,2.0,1.0,1.0,33.1,34.5,34.5,2.5,3.9,2.5975,0.7326507023718212,-0.014666983593070268,0.6656504013225629,0.0069357667004990515,-0.088326,-35.796724
11.185,2.0,1.0,1.0,33.1,34.5,34.5,2.5,3.9,2.6,0.7274620457851656,-0.01500567264933253,0.6710948516801567,0.006942752507883111,-0.089648,-35.632459
11.185,2.0,1.0,1.0,33.1,34.5,34.5,2.5,3.9,2.6025,0.7221970411046187,-0.015353536312217994,0.6765311037687795,0.00694740078546923,-0.091007,-35.466856
11.185,2.0,1.0,1.0,33.1,34.5,34.5,2.5,3.9,2.605,0.7168544897417994,-0.0157109129975336,0.6819586039744144,0.0069495683677173285,-0.092404,-35.299877
11.185,2.0,1.0,1.0,33.1,34.5,34.5,2.5,3.9,2.6075,0.7114331589090037,-0.016078157582251035,0.6873767752626735,0.006949102844604631,-0.093842,-35.131486
11.185,2.0,1.0,1.0,33.1,34.5,34.5,2.5,3.9,2.61,0.7059317801513104,-0.01645564239628668,0.6927850159554356,0.0069458418673828196,-0.09532,-34.961645
11.185,2.0,1.0,1.0,33.1,34.5,34.5,2.5,3.9,2.6125,0.7003490477894679,-0.016843758285322176,0.6981826984246837,0.006939612393849277,-0.096843,-34.790315
11.185,2.0,1.0,1.0,33.1,34.5,34.5,2.5,3.9,2.615,0.6946836172666933,-0.017242915750541873,0.7035691676963506,0.006930229867097671,-0.098411,-34.617453
11.185,2.0,1.0,1.0,33.1,34.5,34.5,2.5,3.9,2.6175,0.6889341033918935,-0.01765354617170937,0.7089437399562241,0.0069174973210324,-0.100026,-34.443018
11.185,2.0,1.0,1.0,33.1,34.5,34.5,2.5,3.9,2.62,0.6830990784711437,-0.018076103120611003,0.7143057009491284,0.006901204405163591,-0.10169,-34.266965
11.185,2.0,1.0,1.0,33.1,34.5,34.5,2.5,3.9,2.6225,0.6771770703184863,-0.018511063772562272,0.7196543042616358,0.006881126320334987,-0.103406,-34.089249
11.185,2.0,1.0,1.0,33.1,34.5,34.5,2.5,3.9,2.625,0.671166560136319,-0.0189589304244108,0.724988769477477,0.00685702265606355,-0.105176,-33.909824
11.185,2.0,1.0,1.0,33.1,34.5,34.5,2.5,3.9,2.6275,0.6650659802546814,-0.019420232128285527,0.7303082801936591,0.006828636119063384,-0.107002,-33.72864
11.185,2.0,1.0,1.0,33.1,34.5,34.5,2.5,3.9,2.63,0.6588737117177764,-0.019895526451245614,0.7356119818838638,0.0067956911412765655,-0.108887,-33.545646
11.185,2.0,1.0,1.0,33.1,34.5,34.5,2.5,3.9,2.6325,0.6525880817049232,-0.02038540137197944,0.7408989795942349,0.006757892354320492,-0.110834,-33.36079
11.185,2.0,1.0,1.0,33.1,34.5,34.5,2.5,3.9,2.635,0.6462073607719045,-0.0208904773268183,0.7461683354548613,0.006714922915645709,-0.112845,-33.174017
11.185,2.0,1.0,1.0,33.1,34.5,34.5,2.5,3.9,2.6375,0.6397297598973172,-0.021411409418550395,0.751419065988309,0.006666442669872781,-0.114924,-32.985271
11.185,2.0,1.0,1.0,33.1,34.5,34.5,2.5,3.9,2.64,0.633153427316978,-0.021948889802889986,0.7566501391943158,0.0066120861266874475,-0.117075,-32.794492
11.185,2.0,1.0,1.0,33.1,34.5,34.5,2.5,3.9,2.6425,0.6264764451278095,-0.022503650268969937,0.761860471387184,0.006551460234293603,-0.1193,-32.60162
11.185,2.0,1.0,1.0,33.1,34.5,34.5,2.5,3.9,2.645,0.6196968256407114,-0.02307646503190185,0.7670489237595092,0.0064841419247050405,-0.121603,-32.406591
11.185,2.0,1.0,1.0,33.1,34.5,34.5,2.5,3.9,2.6475,0.6128125074598906,-0.023668153757324964,0.7722142986425431,0.006409675404037355,-0.123989,-32.209338
11.185,2.0,1.0,1.0,33.1,34.5,34.5,2.5,3.9,2.65,0.6058213512637846,-0.024279584839938265,0.7773553354296976,0.00632756915739236,-0.126462,-32.009792
11.185,2.0,1.0,1.0,33.1,34.5,34.5,2.5,3.9,2.6525,0.5987211352602047,-0.024911678960323643,0.782470706125298,0.006237292633819815,-0.129027,-31.807881
11.185,2.0,1.0,1.0,33.1,34.5,34.5,2.5,3.9,2.655,0.5915095502854232,-0.025565412946940046,0.7875590104757257,0.006138272572112964,-0.131688,-31.603531
11.185,2.0,1.0,1.0,33.1,34.5,34.5,2.5,3.9,2.6575,0.5841841945138208,-0.026241823973035157,0.7926187706342842,0.006029888922750213,-0.134452,-31.396663
11.185,2.0,1.0,1.0,33.1,34.5,34.5,2.5,3.9,2.66,0.5767425677411586,-0.026942014121403176,0.7976484253044854,0.005911470314989856,-0.137323,-31.187194
11.185,2.0,1.0,1.0,33.1,34.5,34.5,2.5,3.9,2.6625,0.5691820652006588,-0.02766715535346889,0.8026463232987759,0.005782289010838597,-0.140307,-30.975041
11.185,2.0,1.0,1.0,33.1,34.5,34.5,2.5,3.9,2.665,0.5614999708666907,-0.028418494923124878,0.8076107164408102,0.005641555279154468,-0.143413,-30.760114
11.185,2.0,1.0,1.0,33.1,34.5,34.5,2.5,3.9,2.6675,0.5536934501960805,-0.029197361280135798,0.8125397517290585,0.005488411113309183,-0.146646,-30.542319
11.185,2.0,1.0,1.0,33.1,34.5,34.5,2.5,3.9,2.67,0.5457595422516329,-0.03000517051280718,0.8174314626675403,0.005321923204386009,-0.150014,-30.321558
11.185,2.0,1.0,1.0,33.1,34.5,34.5,2.5,3.9,2.6725,0.5376951511465258,-0.030843433385032915,0.8222837596554713,0.0051410750685083,-0.153527,-30.09773
11.185,2.0,1.0,1.0,33.1,34.5,34.5,2.5,3.9,2.675,0.5294970367416231,-0.03171376302883712,0.8270944193112694,0.0049447582112518455,-0.157193,-29.870728
11.185,2.0,1.0,1.0,33.1,34.5,34.5,2.5,3.9,2.6775,0.5211618045204135,-0.032617883360181094,0.8318610725872241,0.004731762193738901,-0.161021,-29.640439
11.185,2.0,1.0,1.0,33.1,34.5,34.5,2.5,3.9,2.68,0.5126858945582056,-0.03355763829313478,0.836581191508672,0.004500763443440902,-0.165023,-29.406744
11.185,2.0,1.0,1.0,33.1,34.5,34.5,2.5,3.9,2.6825,0.5040655694933024,-0.034535001835587234,0.841252074345081,0.004250312627300246,-0.16921,-29.169522
11.185,2.0,1.0,1.0,33.1,34.5,34.5,2.5,3.9,2.685,0.49529690139808713,-0.03555208915851175,0.8458708289892586,0.0039788203747482655,-0.173596,-28.92864
11.185,2.0,1.0,1.0,33.1,34.5,34.5,2.5,3.9,2.6875,0.4863757574372819,-0.03661116874043192,0.8504343542840261,0.0036845411026463844,-0.178193,-28.683962
11.185,2.0,1.0,1.0,33.1,34.5,34.5,2.5,3.9,2.69,0.47729778418906255,-0.037714675699147306,0.8549393189919415,0.0033655546519581725,-0.183017,-28.435345
11.185,2.0,1.0,1.0,33.1,34.5,34.5,2.5,3.9,2.6925,0.4680583904922212,-0.038865226433929284,0.8593821380516558,0.003019745395696632,-0.188085,-28.182637
11.185,2.0,1.0,1.0,33.1,34.5,34.5,2.5,3.9,2.695,0.458652728669361,-0.04006563471317257,0.8637589457024596,0.002644778417713382,-0.193414,-27.925676
11.185,2.0,1.0,1.0,33.1,34.5,34.5,2.5,3.9,2.6975,0.44907567396218534,-0.04131892935470585,0.8680655649844067,0.0022380722900758885,-0.199026,-27.664296
11.185,2.0,1.0,1.0,33.1,34.5,34.5,2.5,3.9,2.7,0.4393218020008124,-0.04262837365828781,0.8722974730324525,0.001796767890591124,-0.204942,-27.398316
11.185,2.0,1.0,1.0,33.1,34.5,34.5,2.5,3.9,2.7025,0.4293853641149741,-0.043997486761756646,0.8764497614760577,0.0013176925982600857,-0.211186,-27.127549
11.185,2.0,1.0,1.0,33.1,34.5,34.5,2.5,3.9,2.705,0.41926026028186963,-0.045430067103088265,0.8805170911266,0.0007973190791543076,-0.217786,-26.851795
11.185,2.0,1.0,1.0,33.1,34.5,34.5,2.5,3.9,2.7075,0.408940009494265,-0.046930218179128666,0.8844936399787393,0.00023171772346221274,-0.224772,-26.570843
11.185,2.0,1.0,1.0,33.1,34.5,34.5,2.5,3.9,2.71,0.3984177173249411,-0.04850237679633405,0.8883730433621874,-0.0003834983898807503,-0.232176,-26.284468
11.185,2.0,1.0,1.0,33.1,34.5,34.5,2.5,3.9,2.7125,0.3876860404620088,-0.050151344007122574,0.8921483248493892,-0.0010532373491865,-0.240037,-25.992433
11.185,2.0,1.0,1.0,33.1,34.5,34.5,2.5,3.9,2.715,0.37673714799743885,-0.051882318913930484,0.8958118162423995,-0.0017830027094233108,-0.248396,-25.694486
11.185,2.0,1.0,1.0,33.1,34.5,34.5,2.5,3.9,2.7175,0.3655626792732052,-0.05370093549693303,0.8993550646163474,-0.0025789801945361626,-0.257299,-25.390358
11.185,2.0,1.0,1.0,33.1,34.5,34.5,2.5,3.9,2.72,0.3541536981327362,-0.0556133025735886,0.9027687239715452,-0.0034481391763822367,-0.266799,-25.079763
11.185,2.0,1.0,1.0,33.1,34.5,34.5,2.5,3.9,2.7225,0.3425006434997995,-0.05762604691878833,0.9060424285215684,-0.004398351815135444,-0.276955,-24.762396
11.185,2.0,1.0,1.0,33.1,34.5,34.5,2.5,3.9,2.725,0.330593276326822,-0.0597463594492478,0.9091646439952443,-0.005438533378774076,-0.287834,-24.437934
11.185,2.0,1.0,1.0,33.1,34.5,34.5,2.5,3.9,2.7275,0.31842062314005676,-0.06198204418474232,0.9121224925243296,-0.006578808044946118,-0.299512,-24.106029
11.185,2.0,1.0,1.0,33.1,34.5,34.5,2.5,3.9,2.73,0.3059709166890628,-0.0643415694130673,0.9149015456848244,-0.007830705466924862,-0.312075,-23.76631
11.185,2.0,1.0,1.0,33.1,34.5,34.5,2.5,3.9,2.7325,0.29323153462385654,-0.06683412006420181,0.9174855790064568,-0.00920739460716177,-0.325622,-23.418382
11.185,2.0,1.0,1.0,33.1,34.5,34.5,2.5,3.9,2.735,0.2801889377343421,-0.06946964968316928,0.9198562796957344,-0.01072396287141075,-0.340267,-23.06182
11.185,2.0,1.0,1.0,33.1,34.5,34.5,2.5,3.9,2.7375,0.26682861017845383,-0.07225892949608603,0.9219928973492815,-0.012397750495134217,-0.356138,-22.696169
11.185,2.0,1.0,1.0,33.1,34.5,34.5,2.5,3.9,2.74,0.25313500542119105,-0.07521359076797081,0.9238718249600177,-0.014248752544736558,-0.373388,-22.320941
11.185,2.0,1.0,1.0,33.1,34.5,34.5,2.5,3.9,2.7425,0.23909150348471403,-0.07834615477779563,0.9254660944062633,-0.016300103928091676,-0.392191,-21.935613
11.185,2.0,1.0,1.0,33.1,34.5,34.5,2.5,3.9,2.745,0.2246803878295469,-0.08167004202983828,0.9267447666982851,-0.018578666621272482,-0.412751,-21.539623
11.185,2.0,1.0,1.0,33.1,34.5,34.5,2.5,3.9,2.7475,0.2098828541274035,-0.08519954840711165,0.9276721923378238,-0.021115743104961445,-0.435307,-21.132365
11.185,2.0,1.0,1.0,33.1,34.5,34.5,2.5,3.9,2.75,0.194679068902579,-0.0889497703053841,0.928207110987337,-0.0239479459921282,-0.460141,-20.713192
11.185,2.0,1.0,1.0,33.1,34.5,34.5,2.5,3.9,2.7525,0.17904830432819754,-0.09293645256085263,0.9283015519829014,-0.02711826127085336,-0.487586,-20.281406
11.185,2.0,1.0,1.0,33.1,34.5,34.5,2.5,3.9,2.755,0.16296918757205808,-0.0971757210145424,0.9278994877922001,-0.03067735173364305,-0.51804,-19.836261
11.185,2.0,1.0,1.0,33.1,34.5,34.5,2.5,3.9,2.7575,0.1464201207799836,-0.10168364408728796,0.9269351811118047,-0.0346851582038395,-0.551978,-19.376955
11.185,2.0,1.0,1.0,33.1,34.5,34.5,2.5,3.9,2.76,0.12937995371055072,-0.10647554217104045,0.9253311529053684,-0.03921286908967139,-0.589972,-18.902632
11.185,2.0,1.0,1.0,33.1,34.5,34.5,2.5,3.9,2.7625,0.11182902911975671,-0.11156492612472203,0.9229956837577494,-0.04434534312194361,-0.632718,-18.412383
11.185,2.0,1.0,1.0,33.1,34.5,34.5,2.5,3.9,2.765,0.09375077704349084,-0.11696189100829849,0.9198197458949404,-0.05018408440579515,-0.681062,-17.905245
11.185,2.0,1.0,1.0,33.1,34.5,34.5,2.5,3.9,2.7675,0.07513411666518566,-0.12267071005604985,0.91567325150855,-0.05685087972064135,-0.736047,-17.380208
11.185,2.0,1.0,1.0,33.1,34.5,34.5,2.5,3.9,2.77,0.05597704583715445,-0.12868625471476924,0.9104005018777541,-0.06449220811612277,-0.798962,-16.836229
11.185,2.0,1.0,1.0,33.1,34.5,34.5,2.5,3.9,2.7725,0.036291975999391435,-0.1349886923444759,0.903814745730997,-0.07328450786979791,-0.871415,-16.272248
11.185,2.0,1.0,1.0,33.1,34.5,34.5,2.5,3.9,2.775,0.016113627759671477,-0.1415356610166724,0.8956918324044225,-0.0834403080484766,-0.955422,-15.687226
11.185,2.0,1.0,1.0,33.1,34.5,34.5,2.5,3.9,2.7775,-0.0044893312318612655,-0.14825076272392884,0.885763128413677,-0.09521504920792585,-1.053536,-15.080196
11.185,2.0,1.0,1.0,33.1,34.5,34.5,2.5,3.9,2.78,-0.02539722065752726,-0.15500672497953044,0.8737082518586341,-0.10891403494102543,-1.169003,-14.450344
11.185,2.0,1.0,1.0,33.1,34.5,34.5,2.5,3.9,2.7825,-0.04641451884775936,-0.16160094928736554,0.8591489400895426,-0.1248982037367276,-1.305974,-13.797137
11.185,2.0,1.0,1.0,33.1,34.5,34.5,2.5,3.9,2.785,-0.06723420390141047,-0.16772045867871502,0.8416467971965466,-0.14358600012259717,-1.469776,-13.120513
11.185,2.0,1.0,1.0,33.1,34.5,34.5,2.5,3.9,2.7875,-0.08738764571227586,-0.1728927366074615,0.8207102404509704,-0.16544609521180692,-1.667241,-12.42116
11.185,2.0,1.0,1.0,33.1,34.5,34.5,2.5,3.9,2.79,-0.10617678937795917,-0.17641933889811343,0.79582033965825,-0.1909714177079985,-1.907073,-11.700927
11.185,2.0,1.0,1.0,33.1,34.5,34.5,2.5,3.9,2.7925,-0.1225883605883148,-0.17729215159878775,0.766492079629359,-0.22061827582283441,-2.200155,-10.963408
11.185,2.0,1.0,1.0,33.1,34.5,34.5,2.5,3.9,2.795,-0.13519895580942587,-0.1741012023593566,0.7323966974659447,-0.2546854825141865,-2.559546,-10.214729
11.185,2.0,1.0,1.0,33.1,34.5,34.5,2.5,3.9,2.7975,-0.14210108727122445,-0.1649637976751702,0.693578746533689,-0.2931007343393563,-2.999506,-9.464564
11.185,2.0,1.0,1.0,33.1,34.5,34.5,2.5,3.9,2.8,-0.14092019107181147,-0.14754387111845435,0.6507966558997643,-0.3350866279714785,-3.532094,-8.727259
11.185,2.0,1.0,1.0,33.1,34.5,34.5,2.5,3.9,2.8025,-0.12904879326531923,-0.1192851113571685,0.605970973591241,-0.37872288308258756,-4.158335,-8.022786
11.185,2.0,1.0,1.0,33.1,34.5,34.5,2.5,3.9,2.805,-0.10425870968414308,-0.07801435896811983,0.5626021484110885,-0.4205415159095543,-4.849332,-7.37688
11.185,2.0,1.0,1.0,33.1,34.5,34.5,2.5,3.9,2.8075,-0.06576011512035894,-0.022979859764026903,0.5258184968879138,-0.45548801921392024,-5.515882,-6.819421
11.185,2.0,1.0,1.0,33.1,34.5,34.5,2.5,3.9,2.81,-0.01542731259116102,0.043953914978401724,0.5015870802316158,-0.47770390787077766,-5.988967,-6.380212
11.185,2.0,1.0,1.0,33.1,34.5,34.5,2.5,3.9,2.8125,0.0416012852927062,0.117732283411944,0.494915929553712,-0.48229220696909,-6.078794,-6.082418
11.185,2.0,1.0,1.0,33.1,34.5,34.5,2.5,3.9,2.815,0.09782407078816126,0.1910084369917487,0.5077464467690959,-0.4673748822445294,-5.728776,-5.935901
11.185,2.0,1.0,1.0,33.1,34.5,34.5,2.5,3.9,2.8175,0.14571318788568588,0.2564394984326376,0.5379455252580899,-0.43506304604572565,-5.077738,-5.933899
11.185,2.0,1.0,1.0,33.1,34.5,34.5,2.5,3.9,2.82,0.18011850501252566,0.3090348003282516,0.5802271276744211,-0.390537714043233,-4.328487,-6.055094
11.185,2.0,1.0,1.0,33.1,34.5,34.5,2.5,3.9,2.8225,0.1992767379488056,0.3471305668479555,0.6282976002942858,-0.3399416762590431,-3.620411,-6.269776
11.185,2.0,1.0,1.0,33.1,34.5,34.5,2.5,3.9,2.825,0.20422732572360652,0.371806208140703,0.6767680651618718,-0.2885093009307468,-3.0127,-6.546704
11.185,2.0,1.0,1.0,33.1,34.5,34.5,2.5,3.9,2.8275,0.1975082540824339,0.3856018447796272,0.7220166945670919,-0.2397287710140623,-2.515657,-6.857984
11.185,2.0,1.0,1.0,33.1,34.5,34.5,2.5,3.9,2.83,0.18200620338314294,0.39139224843680165,0.7621329593599805,-0.19540236582116166,-2.118508,-7.181262
