1,w,sub_t,h,l1,l2,l3,g1,g2,Freq,S11_re,S21_re,S11_img,S21_img,S11_dB,S21_dB
11.185,2.0,1.0,1.0,34.3,33.4,33.4,3.9,1.5,2.5,0.739222939600997,-0.0121917859262427,0.662575703944802,0.00696543995350571,-0.063623,-37.051878
11.185,2.0,1.0,1.0,34.3,33.4,33.4,3.9,1.5,2.5025,0.7340553128760244,-0.012413425921841836,0.668184909882792,0.0069544323503083995,-0.064279,-36.936666
11.185,2.0,1.0,1.0,34.3,33.4,33.4,3.9,1.5,2.505,0.7288185643840294,-0.012638675873676342,0.6737805941239078,0.006941265821937282,-0.064946,-36.821094
11.185,2.0,1.0,1.0,34.3,33.4,33.4,3.9,1.5,2.5075,0.7235120277263853,-0.012867597429875513,0.679362158281323,0.00692586385627499,-0.065626,-36.705154
11.185,2.0,1.0,1.0,34.3,33.4,33.4,3.9,1.5,2.51,0.718135029085095,-0.013100253392736171,0.6849289872612401,0.006908147319603939,-0.066318,-36.588839
11.185,2.0,1.0,1.0,34.3,33.4,33.4,3.9,1.5,2.5125,0.7126868872314793,-0.013336707739085388,0.6904804487861678,0.006888034358206018,-0.067023,-36.472142
11.185,2.0,1.0,1.0,34.3,33.4,33.4,3.9,1.5,2.515,0.7071669135406429,-0.013577025640823782,0.6960158929047812,0.006865440295849441,-0.067741,-36.355055
11.185,2.0,1.0,1.0,34.3,33.4,33.4,3.9,1.5,2.5175,0.7015744120120737,-0.013821273485637036,0.7015346514879652,0.006840277526967379,-0.068471,-36.237571
11.185,2.0,1.0,1.0,34.3,33.4,33.4,3.9,1.5,2.52,0.6959086792967144,-0.014069518897861845,0.7070360377106785,0.006812455405322818,-0.069216,-36.119683
11.185,2.0,1.0,1.0,34.3,33.4,33.4,3.9,1.5,2.5225,0.6901690047309047,-0.014321830759490619,0.712519345519201,0.006781880127942478,-0.069974,-36.001382
11.185,2.0,1.0,1.0,34.3,33.4,33.4,3.9,1.5,2.525,0.684354670377562,-0.014578279231297987,0.7179838490833829,0.006748454614090315,-0.070746,-35.882661
11.185,2.0,1.0,1.0,34.3,33.4,33.4,3.9,1.5,2.5275,0.6784649510750235,-0.014838935774070403,0.7234288022334545,0.0067120783790392165,-0.071533,-35.763511
11.185,2.0,1.0,1.0,34.3,33.4,33.4,3.9,1.5,2.53,0.6724991144939771,-0.015103873169918196,0.728853437880961,0.006672647402384227,-0.072334,-35.643926
11.185,2.0,1.0,1.0,34.3,33.4,33.4,3.9,1.5,2.5325,0.6664564212029296,-0.015373165543647642,0.7342569674233685,0.006630053990627652,-0.073151,-35.523896
11.185,2.0,1.0,1.0,34.3,33.4,33.4,3.9,1.5,2.535,0.6603361247426719,-0.01564688838416742,0.7396385801318869,0.006584186633749867,-0.073983,-35.403412
11.185,2.0,1.0,1.0,34.3,33.4,33.4,3.9,1.5,2.5375,0.6541374717102504,-0.015925118565903708,0.7449974425220118,0.00653492985546306,-0.074831,-35.282468
11.185,2.0,1.0,1.0,34.3,33.4,33.4,3.9,1.5,2.54,0.6478597018529387,-0.016207934370192287,0.7503326977063118,0.0064821640568278995,-0.075696,-35.161053
11.185,2.0,1.0,1.0,34.3,33.4,33.4,3.9,1.5,2.5425,0.6415020481727567,-0.016495415506616557,0.7556434647289392,0.006425765352893786,-0.076578,-35.03916
11.185,2.0,1.0,1.0,34.3,33.4,33.4,3.9,1.5,2.545,0.6350637370420893,-0.016787643134255233,0.7609288378813434,0.006365605402003131,-0.077476,-34.916779
11.185,2.0,1.0,1.0,34.3,33.4,33.4,3.9,1.5,2.5475,0.6285439883310038,-0.017084699882800616,0.7661878859986411,0.006301551227378361,-0.078392,-34.7939
11.185,2.0,1.0,1.0,34.3,33.4,33.4,3.9,1.5,2.55,0.621942015546854,-0.017386669873505737,0.7714196517360924,0.006233465030587539,-0.079327,-34.670516
11.185,2.0,1.0,1.0,34.3,33.4,33.4,3.9,1.5,2.5525,0.6152570259868406,-0.017693638739912913,0.7766231508250874,0.00616120399645897,-0.08028,-34.546616
11.185,2.0,1.0,1.0,34.3,33.4,33.4,3.9,1.5,2.555,0.6084882209041671,-0.018005693648314402,0.7817973713080619,0.006084620088989511,-0.081252,-34.422191
11.185,2.0,1.0,1.0,34.3,33.4,33.4,3.9,1.5,2.5575,0.6016347956885025,-0.01832292331788916,0.7869412727517172,0.006003559837761334,-0.082243,-34.29723
11.185,2.0,1.0,1.0,34.3,33.4,33.4,3.9,1.5,2.56,0.594695940061477,-0.018645418040455955,0.7920537854378975,0.005917864114352813,-0.083255,-34.171725
11.185,2.0,1.0,1.0,34.3,33.4,33.4,3.9,1.5,2.5625,0.5876708382879696,-0.018973269699777064,0.7971338095314683,0.005827367898195323,-0.084287,-34.045664
11.185,2.0,1.0,1.0,34.3,33.4,33.4,3.9,1.5,2.565,0.5805586694039759,-0.019306571790341745,0.802180214224505,0.005731900031292295,-0.08534,-33.919038
11.185,2.0,1.0,1.0,34.3,33.4,33.4,3.9,1.5,2.5675,0.5733586074618935,-0.01964541943555045,0.8071918368560735,0.005631282961179635,-0.086415,-33.791835
11.185,2.0,1.0,1.0,34.3,33.4,33.4,3.9,1.5,2.57,0.5660698217940832,-0.019989909405215462,0.8121674820068645,0.005525332471465084,-0.087513,-33.664045
11.185,2.0,1.0,1.0,34.3,33.4,33.4,3.9,1.5,2.5725,0.5586914772956049,-0.02034014013228564,0.8171059205679078,0.005413857399239924,-0.088633,-33.535657
11.185,2.0,1.0,1.0,34.3,33.4,33.4,3.9,1.5,2.575,0.5512227347270757,-0.0206962117286929,0.8220058887825612,0.005296659338609692,-0.089777,-33.40666
11.185,2.0,1.0,1.0,34.3,33.4,33.4,3.9,1.5,2.5775,0.5436627510386286,-0.02105822600021057,0.8268660872609372,0.005173532329538303,-0.090946,-33.277041
11.185,2.0,1.0,1.0,34.3,33.4,33.4,3.9,1.5,2.58,0.536010679716001,-0.02142628646020346,0.8316851799658893,0.0050442625311460905,-0.092139,-33.14679
11.185,2.0,1.0,1.0,34.3,33.4,33.4,3.9,1.5,2.5825,0.5282656711498139,-0.02180049834213645,0.8364617931696485,0.0049086278785410754,-0.093358,-33.015894
11.185,2.0,1.0,1.0,34.3,33.4,33.4,3.9,1.5,2.585,0.5204268730291688,-0.022180968610698782,0.8411945143801475,0.0047663977221995635,-0.094603,-32.884341
11.185,2.0,1.0,1.0,34.3,33.4,33.4,3.9,1.5,2.5875,0.5124934307607153,-0.022567805971385354,0.8458818912360346,0.0046173324488417485,-0.095876,-32.752118
11.185,2.0,1.0,1.0,34.3,33.4,33.4,3.9,1.5,2.59,0.5044644879144139,-0.02296112087836346,0.8505224303693182,0.004461183082672693,-0.097176,-32.619212
11.185,2.0,1.0,1.0,34.3,33.4,33.4,3.9,1.5,2.5925,0.49633918669725463,-0.02336102554043446,0.8551145962345398,0.004297690865777438,-0.098506,-32.48561
11.185,2.0,1.0,1.0,34.3,33.4,33.4,3.9,1.5,2.595,0.48811666845626667,-0.023767633924884304,0.8596568099033051,0.004126586816369918,-0.099864,-32.351299
11.185,2.0,1.0,1.0,34.3,33.4,33.4,3.9,1.5,2.5975,0.47979607421218595,-0.024181061758995676,0.8641474478229463,0.003947591263499653,-0.101254,-32.216264
11.185,2.0,1.0,1.0,34.3,33.4,33.4,3.9,1.5,2.6,0.47137654522522965,-0.024601426528971165,0.8685848405380129,0.0037604133567157305,-0.102675,-32.080492
11.185,2.0,1.0,1.0,34.3,33.4,33.4,3.9,1.5,2.6025,0.4628572235944946,-0.025028847475994133,0.8729672713732067,0.003564750549073393,-0.104129,-31.943968
11.185,2.0,1.0,1.0,34.3,33.4,33.4,3.9,1.5,2.605,0.4542372528925313,-0.02546344558912585,0.877292975076321,0.0033602880517463658,-0.105616,-31.806676
11.185,2.0,1.0,1.0,34.3,33.4,33.4,3.9,1.5,2.6075,0.4455157788367608,-0.02590534359470591,0.8815601364196008,0.0031466982583728204,-0.107137,-31.668602
11.185,2.0,1.0,1.0,34.3,33.4,33.4,3.9,1.5,2.61,0.4366919499994398,-0.026354665941891422,0.8857668887578924,0.002923640137116355,-0.108694,-31.52973
11.185,2.0,1.0,1.0,34.3,33.4,33.4,3.9,1.5,2.6125,0.42776491855798027,-0.026811538783930815,0.8899113125417998,0.0026907585882651784,-0.110288,-31.390043
11.185,2.0,1.0,1.0,34.3,33.4,33.4,3.9,1.5,2.615,0.418733841087493,-0.027276089954727502,0.8939914337839806,0.0024476837650166546,-0.11192,-31.249525
11.185,2.0,1.0,1.0,34.3,33.4,33.4,3.9,1.5,2.6175,0.4095978793975392,-0.02774844894019996,0.8980052224765274,0.0021940303549061978,-0.113591,-31.108159
11.185,2.0,1.0,1.0,34.3,33.4,33.4,3.9,1.5,2.62,0.4003562014151537,-0.028228746843895532,0.9019505909572788,0.0019293968191299656,-0.115302,-30.965927
11.185,2.0,1.0,1.0,34.3,33.4,33.4,3.9,1.5,2.6225,0.3910079821162805,-0.02871711634625267,0.9058253922227274,0.0016533645867846112,-0.117056,-30.822811
11.185,2.0,1.0,1.0,34.3,33.4,33.4,3.9,1.5,2.625,0.381552404507935,-0.0292136916568436,0.909627418184974,0.00136549720079822,-0.118853,-30.678793
11.185,2.0,1.0,1.0,34.3,33.4,33.4,3.9,1.5,2.6275,0.3719886606634376,-0.029718608458854687,0.9133543978700259,0.0010653394120528005,-0.120694,-30.533853
11.185,2.0,1.0,1.0,34.3,33.4,33.4,3.9,1.5,2.63,0.3623159528132524,-0.03023200384497805,0.91700399555448,0.0007524162179001596,-0.122582,-30.387972
11.185,2.0,1.0,1.0,34.3,33.4,33.4,3.9,1.5,2.6325,0.3525334944940639,-0.03075401624379625,0.9205738088373809,0.00042623184094459614,-0.124517,-30.241129
11.185,2.0,1.0,1.0,34.3,33.4,33.4,3.9,1.5,2.635,0.34264051175888505,-0.03128478533563558,0.9240613666437808,8.626864360300135e-05,-0.126502,-30.093303
11.185,2.0,1.0,1.0,34.3,33.4,33.4,3.9,1.5,2.6375,0.3326362444511442,-0.031824451956744465,0.9274641271561961,-0.00026801402644157393,-0.128539,-29.944473
11.185,2.0,1.0,1.0,34.3,33.4,33.4,3.9,1.5,2.64,0.3225199475458428,-0.03237315799052298,0.9307794756698415,-0.00063718106521868,-0.130628,-29.794617
11.185,2.0,1.0,1.0,34.3,33.4,33.4,3.9,1.5,2.6425,0.3122908925611113,-0.03293104624437292,0.9340047223671,-0.0010218229216846712,-0.132773,-29.64371
11.185,2.0,1.0,1.0,34.3,33.4,33.4,3.9,1.5,2.645,0.3019483690436497,-0.03349826031057128,0.9371371000062818,-0.0014225569935120436,-0.134975,-29.49173
11.185,2.0,1.0,1.0,34.3,33.4,33.4,3.9,1.5,2.6475,0.29149168613179416,-0.03407494440937242,0.9401737615192365,-0.0018400291163780174,-0.137237,-29.338652
11.185,2.0,1.0,1.0,34.3,33.4,33.4,3.9,1.5,2.65,0.280920174200167,-0.03466124321232571,0.9431117775118486,-0.0022749151543285406,-0.13956,-29.18445
11.185,2.0,1.0,1.0,34.3,33.4,33.4,3.9,1.5,2.6525,0.27023318659020146,-0.035257301643542543,0.9459481336608363,-0.002727922699510354,-0.141947,-29.029097
11.185,2.0,1.0,1.0,34.3,33.4,33.4,3.9,1.5,2.655,0.2594301014310647,-0.035863264656364385,0.9486797279996133,-0.003199792890362746,-0.144401,-28.872568
11.185,2.0,1.0,1.0,34.3,33.4,33.4,3.9,1.5,2.6575,0.2485103235559112,-0.036479276982552836,0.9513033680852087,-0.003691302358241082,-0.146923,-28.714833
11.185,2.0,1.0,1.0,34.3,33.4,33.4,3.9,1.5,2.66,0.2374732865187472,-0.037105482850757945,0.9538157680373996,-0.004203265313427247,-0.149518,-28.555864
11.185,2.0,1.0,1.0,34.3,33.4,33.4,3.9,1.5,2.6625,0.2263184547176472,-0.037742025670589374,0.9562135454402617,-0.004736535782567668,-0.152188,-28.395629
11.185,2.0,1.0,1.0,34.3,33.4,33.4,3.9,1.5,2.665,0.21504532563051443,-0.038389047678136105,0.9584932180952738,-0.005292010010796379,-0.154935,-28.234098
11.185,2.0,1.0,1.0,34.3,33.4,33.4,3.9,1.5,2.6675,0.2036534321701939,-0.039046689538215544,0.9606512006139185,-0.005870629043145246,-0.157764,-28.071237
11.185,2.0,1.0,1.0,34.3,33.4,33.4,3.9,1.5,2.67,0.1921423451663308,-0.039715089898002036,0.9626838008363614,-0.006473381501351712,-0.160677,-27.907014
11.185,2.0,1.0,1.0,34.3,33.4,33.4,3.9,1.5,2.6725,0.18051167598208426,-0.04039438488594253,0.9645872160613067,-0.007101306573853566,-0.163679,-27.741392
11.185,2.0,1.0,1.0,34.3,33.4,33.4,3.9,1.5,2.675,0.16876107927469255,-0.04108470754902395,0.966357529070367,-0.007755497238634,-0.166772,-27.574335
11.185,2.0,1.0,1.0,34.3,33.4,33.4,3.9,1.5,2.6775,0.15689025590976616,-0.041786187220484015,0.9679907039283989,-0.008437103740687069,-0.169963,-27.405805
11.185,2.0,1.0,1.0,34.3,33.4,33.4,3.9,1.5,2.68,0.14489895604030617,-0.04249894880892554,0.9694825815390672,-0.009147337348217946,-0.173253,-27.235762
11.185,2.0,1.0,1.0,34.3,33.4,33.4,3.9,1.5,2.6825,0.13278698236270084,-0.04322311199849387,0.970828874932447,-0.009887474414336303,-0.176649,-27.064166
11.185,2.0,1.0,1.0,34.3,33.4,33.4,3.9,1.5,2.685,0.12055419356341253,-0.043958790348271964,0.9720251642586695,-0.010658860773961824,-0.180156,-26.890972
11.185,2.0,1.0,1.0,34.3,33.4,33.4,3.9,1.5,2.6875,0.10820050797172365,-0.044706090277289785,0.973066891458531,-0.011462916508989496,-0.183777,-26.716137
11.185,2.0,1.0,1.0,34.3,33.4,33.4,3.9,1.5,2.69,0.09572590743591207,-0.04546510991951672,0.9739493545783642,-0.012301141118511731,-0.18752,-26.539613
11.185,2.0,1.0,1.0,34.3,33.4,33.4,3.9,1.5,2.6925,0.08313044144245157,-0.04623593783083462,0.9746677016924774,-0.013175119135121408,-0.19139,-26.361351
11.185,2.0,1.0,1.0,34.3,33.4,33.4,3.9,1.5,2.695,0.07041423150055959,-0.04701865152722691,0.97521692439188,-0.014086526233081457,-0.195393,-26.181301
11.185,2.0,1.0,1.0,34.3,33.4,33.4,3.9,1.5,2.6975,0.057577475817439445,-0.04781331583019793,0.975591850792813,-0.015037135879542094,-0.199536,-25.999408
11.185,2.0,1.0,1.0,34.3,33.4,33.4,3.9,1.5,2.7,0.0446204542933069,-0.04861998099165563,0.9757871380126883,-0.01602882658607228,-0.203827,-25.815618
11.185,2.0,1.0,1.0,34.3,33.4,33.4,3.9,1.5,2.7025,0.03154353386948259,-0.04943868056607035,0.9757972640543457,-0.017063589824684807,-0.208272,-25.629872
11.185,2.0,1.0,1.0,34.3,33.4,33.4,3.9,1.5,2.705,0.018347174267943578,-0.05026942899252157,0.975616519031844,-0.018143538680361115,-0.212881,-25.442109
11.185,2.0,1.0,1.0,34.3,33.4,33.4,3.9,1.5,2.7075,0.005031934166620022,-0.05111221884312461,0.9752389956622995,-0.01927091732098195,-0.217663,-25.252263
11.185,2.0,1.0,1.0,34.3,33.4,33.4,3.9,1.5,2.71,-0.008401522138199178,-0.051967017687114654,0.974658578938303,-0.020448111375685495,-0.222627,-25.060269
11.185,2.0,1.0,1.0,34.3,33.4,33.4,3.9,1.5,2.7125,-0.021952417522731162,-0.052833764511338616,0.9738689348840843,-0.02167765932420248,-0.227784,-24.866056
11.185,2.0,1.0,1.0,34.3,33.4,33.4,3.9,1.5,2.715,-0.03561985421026015,-0.05371236562780015,0.9728634982855365,-0.022962265012853297,-0.233144,-24.669549
11.185,2.0,1.0,1.0,34.3,33.4,33.4,3.9,1.5,2.7175,-0.04940280524809974,-0.0546026899869248,0.971635459269322,-0.024304811427902116,-0.23872,-24.47067
11.185,2.0,1.0,1.0,34.3,33.4,33.4,3.9,1.5,2.72,-0.06330010519168895,-0.05550456380094104,0.970177748589218,-0.02570837587411262,-0.244525,-24.269337
11.185,2.0,1.0,1.0,34.3,33.4,33.4,3.9,1.5,2.7225,-0.07731043988372037,-0.0564177643647818,0.9684830214581749,-0.02717624672599254,-0.250573,-24.065464
11.185,2.0,1.0,1.0,34.3,33.4,33.4,3.9,1.5,2.725,-0.09143233519620919,-0.05734201294157793,0.9665436397421309,-0.028711941941711016,-0.25688,-23.85896
11.185,2.0,1.0,1.0,34.3,33.4,33.4,3.9,1.5,2.7275,-0.10566414457934169,-0.05827696655547936,0.964351652305661,-0.030319229555506682,-0.263462,-23.649729
11.185,2.0,1.0,1.0,34.3,33.4,33.4,3.9,1.5,2.73,-0.1200040352318988,-0.05922220850528243,0.9618987732697932,-0.03200215039405309,-0.270338,-23.437669
11.185,2.0,1.0,1.0,34.3,33.4,33.4,3.9,1.5,2.7325,-0.13444997267319264,-0.0601772373771307,0.9591763579079897,-0.033765043296361215,-0.277527,-23.222673
11.185,2.0,1.0,1.0,34.3,33.4,33.4,3.9,1.5,2.735,-0.14899970345405367,-0.06114145429201979,0.9561753758667526,-0.03561257315603761,-0.285051,-23.004629
11.185,2.0,1.0,1.0,34.3,33.4,33.4,3.9,1.5,2.7375,-0.16365073569325767,-0.062114148072341654,0.9528863813517385,-0.03754976214991645,-0.292934,-22.783417
11.185,2.0,1.0,1.0,34.3,33.4,33.4,3.9,1.5,2.74,-0.1784003170633302,-0.06309447794916255,0.9492994798676414,-0.0395820245691593,-0.301201,-22.55891
11.185,2.0,1.0,1.0,34.3,33.4,33.4,3.9,1.5,2.7425,-0.19324540977364635,-0.06408145335576934,0.9454042910393873,-0.04171520572894668,-0.309883,-22.330973
11.185,2.0,1.0,1.0,34.3,33.4,33.4,3.9,1.5,2.745,-0.2081826620057627,-0.06507391025997152,0.9411899069721907,-0.04395562550207579,-0.319009,-22.099464
11.185,2.0,1.0,1.0,34.3,33.4,33.4,3.9,1.5,2.7475,-0.22320837514179356,-0.06607048337363787,0.9366448455271899,-0.046310127101510105,-0.328615,-21.864232
11.185,2.0,1.0,1.0,34.3,33.4,33.4,3.9,1.5,2.75,-0.238318465986242,-0.0670695734377907,0.931756997796276,-0.0487861318287306,-0.338739,-21.625117
11.185,2.0,1.0,1.0,34.3,33.4,33.4,3.9,1.5,2.7525,-0.2535084230084049,-0.06806930860872125,0.9265135689526195,-0.051391700610288416,-0.349423,-21.381946
11.185,2.0,1.0,1.0,34.3,33.4,33.4,3.9,1.5,2.755,-0.2687732554177624,-0.0690674987566712,0.9209010115303162,-0.054135603266053614,-0.360716,-21.134538
11.185,2.0,1.0,1.0,34.3,33.4,33.4,3.9,1.5,2.7575,-0.2841074336180306,-0.07006158122299606,0.9149049500457447,-0.05702739659115438,-0.37267,-20.8827
11.185,2.0,1.0,1.0,34.3,33.4,33.4,3.9,1.5,2.76,-0.29950481925289063,-0.0710485562506802,0.9085100957127833,-0.060077512491229855,-0.385344,-20.626223
11.185,2.0,1.0,1.0,34.3,33.4,33.4,3.9,1.5,2.7625,-0.31495858264005433,-0.07202490988905784,0.9017001498222658,-0.06329735758893866,-0.398804,-20.364887
11.185,2.0,1.0,1.0,34.3,33.4,33.4,3.9,1.5,2.765,-0.33046110486743213,-0.07298652165384716,0.8944576941522214,-0.0666994259194601,-0.413123,-20.098457
11.185,2.0,1.0,1.0,34.3,33.4,33.4,3.9,1.5,2.7675,-0.3460038611659707,-0.07392855356870996,0.8867640665495258,-0.0702974265537448,-0.428386,-19.826678
11.185,2.0,1.0,1.0,34.3,33.4,33.4,3.9,1.5,2.77,-0.36157728133947875,-0.07484531638620835,0.8785992195779454,-0.07410642822811812,-0.444687,-19.549281
11.185,2.0,1.0,1.0,34.3,33.4,33.4,3.9,1.5,2.7725,-0.37717058197216785,-0.0757301077342512,0.8699415598678094,-0.07814302331172104,-0.462133,-19.265976
11.185,2.0,1.0,1.0,34.3,33.4,33.4,3.9,1.5,2.775,-0.3927715637834238,-0.0765750155935413,0.8607677655398341,-0.08242551369786474,-0.480845,-18.976453
11.185,2.0,1.0,1.0,34.3,33.4,33.4,3.9,1.5,2.7775,-0.40836636576995544,-0.07737067879619812,0.8510525788300745,-0.08697412144143768,-0.500962,-18.680376
11.185,2.0,1.0,1.0,34.3,33.4,33.4,3.9,1.5,2.78,-0.4239391655533365,-0.07810599403267375,0.8407685708485905,-0.09181122714785785,-0.522643,-18.377389
11.185,2.0,1.0,1.0,34.3,33.4,33.4,3.9,1.5,2.7825,-0.43947181248586853,-0.0787677560141193,0.8298858753173723,-0.09696163919355877,-0.546072,-18.067107
11.185,2.0,1.0,1.0,34.3,33.4,33.4,3.9,1.5,2.785,-0.454943376359904,-0.07934021376369167,0.818371888243421,-0.1024528967334408,-0.57146,-17.749114
11.185,2.0,1.0,1.0,34.3,33.4,33.4,3.9,1.5,2.7875,-0.47032958975281897,-0.07980452124278496,0.8061909309347977,-0.10831560898357702,-0.599052,-17.422966
11.185,2.0,1.0,1.0,34.3,33.4,33.4,3.9,1.5,2.79,-0.48560215577407406,-0.08013805431386857,0.7933038747871756,-0.11458383223186741,-0.629134,-17.088185
11.185,2.0,1.0,1.0,34.3,33.4,33.4,3.9,1.5,2.7925,-0.5007278848059938,-0.0803135579495113,0.7796677282124109,-0.12129548407074531,-0.66204,-16.744256
11.185,2.0,1.0,1.0,34.3,33.4,33.4,3.9,1.5,2.795,-0.5156676131492121,-0.0802980770284252,0.7652351895054886,-0.12849279091039392,-0.698164,-16.390626
11.185,2.0,1.0,1.0,34.3,33.4,33.4,3.9,1.5,2.7975,-0.5303748425260937,-0.08005161025349819,0.749954175222892,-0.13622275905265926,-0.737972,-16.026702
11.185,2.0,1.0,1.0,34.3,33.4,33.4,3.9,1.5,2.8,-0.5447940211833653,-0.07952540872046197,0.733767343133274,-0.14453765013419495,-0.782017,-15.651849
11.185,2.0,1.0,1.0,34.3,33.4,33.4,3.9,1.5,2.8025,-0.5588583636665463,-0.0786598172769664,0.7166116441247776,-0.15349542647327416,-0.830962,-15.265391
11.185,2.0,1.0,1.0,34.3,33.4,33.4,3.9,1.5,2.805,-0.5724870758184452,-0.0773815266707887,0.6984179619299099,-0.16316010748599005,-0.885605,-14.866609
11.185,2.0,1.0,1.0,34.3,33.4,33.4,3.9,1.5,2.8075,-0.5855818127332832,-0.0756000661781796,0.679110938337896,-0.17360193973756885,-0.946912,-14.454745
11.185,2.0,1.0,1.0,34.3,33.4,33.4,3.9,1.5,2.81,-0.5980221491627391,-0.0732033188566379,0.6586091427758266,-0.18489722236433856,-1.016059,-14.029006
11.185,2.0,1.0,1.0,34.3,33.4,33.4,3.9,1.5,2.8125,-0.609659784337146,-0.0700517849457763,0.636825841273101,-0.197127534139319,-1.094492,-13.58858
11.185,2.0,1.0,1.0,34.3,33.4,33.4,3.9,1.5,2.815,-0.6203111396090498,-0.06597125656522498,0.6136707701418617,-0.21037795928899644,-1.183998,-13.132646
11.185,2.0,1.0,1.0,34.3,33.4,33.4,3.9,1.5,2.8175,-0.6297479481270961,-0.06074350912826981,0.5890535534130997,-0.22473367741054276,-1.286801,-12.660408
11.185,2.0,1.0,1.0,34.3,33.4,33.4,3.9,1.5,2.82,-0.637685406214674,-0.0540945870463043,0.5628897632990777,-0.24027392585509058,-1.405689,-12.171135
11.185,2.0,1.0,1.0,34.3,33.4,33.4,3.9,1.5,2.8225,-0.6437675115312644,-0.04568031833896272,0.5351111705087489,-0.2570618007198802,-1.544179,-11.664229
11.185,2.0,1.0,1.0,34.3,33.4,33.4,3.9,1.5,2.825,-0.64754946659293,-0.03506894709772268,0.5056825443858144,-0.27512755804869393,-1.706736,-11.139325
11.185,2.0,1.0,1.0,34.3,33.4,33.4,3.9,1.5,2.8275,-0.6484776982600041,-0.0217214430778572,0.4746285229001523,-0.2944419302828526,-1.899049,-10.596436
