1,w,sub_t,h,l1,l2,l3,g1,g2,Freq,S11_re,S21_re,S11_img,S21_img,S11_dB,S21_dB
11.185,2.0,1.0,1.0,33.7,33.5,33.5,3.7,1.8,2.5,0.824750632748169,-0.00874773196539119,0.55408348976508,0.0068202836202519,-0.055851,-39.099569
11.185,2.0,1.0,1.0,33.7,33.5,33.5,3.7,1.8,2.5025,0.820876479263682,-0.00891946185153787,0.5596987546012903,0.006844498239609441,-0.056385,-38.982393
11.185,2.0,1.0,1.0,33.7,33.5,33.5,3.7,1.8,2.505,0.816946499481185,-0.009094233868153653,0.5653105653309631,0.006867750628698591,-0.056927,-38.864875
11.185,2.0,1.0,1.0,33.7,33.5,33.5,3.7,1.8,2.5075,0.8129601468671731,-0.009272107897290249,0.5709186046714629,0.006890000012103695,-0.057479,-38.747007
11.185,2.0,1.0,1.0,33.7,33.5,33.5,3.7,1.8,2.51,0.8089168668478803,-0.0094531453124306,0.5765225461044611,0.006911204122015406,-0.05804,-38.62878
11.185,2.0,1.0,1.0,33.7,33.5,33.5,3.7,1.8,2.5125,0.8048160966995438,-0.009637409023899689,0.5821220535893613,0.006931319137156299,-0.058611,-38.510186
11.185,2.0,1.0,1.0,33.7,33.5,33.5,3.7,1.8,2.515,0.8006572654379143,-0.009824963525908482,0.58771678126758,0.006950299618887235,-0.059192,-38.391218
11.185,2.0,1.0,1.0,33.7,33.5,33.5,3.7,1.8,2.5175,0.7964397937070659,-0.010015874945300133,0.5933063731573488,0.006968098444346447,-0.059783,-38.271865
11.185,2.0,1.0,1.0,33.7,33.5,33.5,3.7,1.8,2.52,0.7921630936675246,-0.010210211092072171,0.5988904628387255,0.006984666736465378,-0.060385,-38.152121
11.185,2.0,1.0,1.0,33.7,33.5,33.5,3.7,1.8,2.5225,0.7878265688837773,-0.010408041511750949,0.6044686731284369,0.006999953790695641,-0.060997,-38.031976
11.185,2.0,1.0,1.0,33.7,33.5,33.5,3.7,1.8,2.525,0.7834296142111883,-0.010609437539698997,0.6100406157442162,0.00701390699827096,-0.061621,-37.911421
11.185,2.0,1.0,1.0,33.7,33.5,33.5,3.7,1.8,2.5275,0.77897161568238,-0.01081447235744022,0.615605890958252,0.007026471765818448,-0.062256,-37.790448
11.185,2.0,1.0,1.0,33.7,33.5,33.5,3.7,1.8,2.53,0.7744519503931255,-0.011023221051091754,0.6211640872393457,0.007037591431120476,-0.062902,-37.669046
11.185,2.0,1.0,1.0,33.7,33.5,33.5,3.7,1.8,2.5325,0.7698699863878039,-0.011235760671996184,0.6267147808833777,0.007047207174818036,-0.063561,-37.547207
11.185,2.0,1.0,1.0,33.7,33.5,33.5,3.7,1.8,2.535,0.7652250825444765,-0.011452170299652778,0.6322575356316567,0.007055257927831357,-0.064231,-37.424921
11.185,2.0,1.0,1.0,33.7,33.5,33.5,3.7,1.8,2.5375,0.7605165884596433,-0.011672531107051161,0.6377919022766919,0.007061680274261399,-0.064915,-37.302179
11.185,2.0,1.0,1.0,33.7,33.5,33.5,3.7,1.8,2.54,0.7557438443327406,-0.011896926428516714,0.6433174182549406,0.0070664083495194365,-0.065611,-37.17897
11.185,2.0,1.0,1.0,33.7,33.5,33.5,3.7,1.8,2.5425,0.750906180850445,-0.012125441830182614,0.6488336072260318,0.0070693737334166975,-0.066321,-37.055285
11.185,2.0,1.0,1.0,33.7,33.5,33.5,3.7,1.8,2.545,0.7460029190708534,-0.012358165183209514,0.6543399786379657,0.007070505337927866,-0.067044,-36.931113
11.185,2.0,1.0,1.0,33.7,33.5,33.5,3.7,1.8,2.5475,0.7410333703076152,-0.012595186739880235,0.6598360272777458,0.007069729289324935,-0.067781,-36.806445
11.185,2.0,1.0,1.0,33.7,33.5,33.5,3.7,1.8,2.55,0.7359968360140821,-0.012836599212704268,0.6653212328069082,0.007066968804356501,-0.068532,-36.681268
11.185,2.0,1.0,1.0,33.7,33.5,33.5,3.7,1.8,2.5525,0.7308926076675724,-0.013082497856673137,0.6707950592813379,0.007062144060127565,-0.069299,-36.555574
11.185,2.0,1.0,1.0,33.7,33.5,33.5,3.7,1.8,2.555,0.725719966653816,-0.013332980554817034,0.6762569546547851,0.0070551720573109435,-0.07008,-36.429349
11.185,2.0,1.0,1.0,33.7,33.5,33.5,3.7,1.8,2.5575,0.7204781841516753,-0.013588147907219367,0.6817063502654378,0.007045966476296925,-0.070877,-36.302585
11.185,2.0,1.0,1.0,33.7,33.5,33.5,3.7,1.8,2.56,0.7151665210182332,-0.013848103323656972,0.6871426603048666,0.007034437525861623,-0.07169,-36.175268
11.185,2.0,1.0,1.0,33.7,33.5,33.5,3.7,1.8,2.5625,0.7097842276743425,-0.014112953120039807,0.6925652812686545,0.007020491783904835,-0.07252,-36.047387
11.185,2.0,1.0,1.0,33.7,33.5,33.5,3.7,1.8,2.565,0.7043305439907278,-0.014382806618838005,0.6979735913879681,0.007004032029778267,-0.073366,-35.918931
11.185,2.0,1.0,1.0,33.7,33.5,33.5,3.7,1.8,2.5675,0.6988046991747553,-0.014657776253690141,0.7033669500412799,0.0069849570676911,-0.07423,-35.789886
11.185,2.0,1.0,1.0,33.7,33.5,33.5,3.7,1.8,2.57,0.6932059116579647,-0.014937977678401201,0.7087446971454467,0.0069631615406439374,-0.075112,-35.660242
11.185,2.0,1.0,1.0,33.7,33.5,33.5,3.7,1.8,2.5725,0.6875333889844766,-0.01522352988054891,0.7141061525252667,0.0069385357343036665,-0.076012,-35.529984
11.185,2.0,1.0,1.0,33.7,33.5,33.5,3.7,1.8,2.575,0.6817863277003869,-0.015514555299929561,0.7194506152606178,0.006910965370189257,-0.076932,-35.399101
11.185,2.0,1.0,1.0,33.7,33.5,33.5,3.7,1.8,2.5775,0.6759639132442695,-0.015811179952088295,0.7247773630102156,0.006880331387493732,-0.077871,-35.267578
11.185,2.0,1.0,1.0,33.7,33.5,33.5,3.7,1.8,2.58,0.6700653198389028,-0.016113533557193378,0.7300856513109862,0.0068465097128179685,-0.078829,-35.135402
11.185,2.0,1.0,1.0,33.7,33.5,33.5,3.7,1.8,2.5825,0.6640897103843418,-0.016421749674527558,0.7353747128519882,0.006809371017039244,-0.079809,-35.00256
11.185,2.0,1.0,1.0,33.7,33.5,33.5,3.7,1.8,2.585,0.6580362363524688,-0.016735965842887807,0.7406437567217575,0.006768780458479547,-0.08081,-34.869037
11.185,2.0,1.0,1.0,33.7,33.5,33.5,3.7,1.8,2.5875,0.6519040376831423,-0.017056323727199646,0.745891967627882,0.006724597411476417,-0.081833,-34.734819
11.185,2.0,1.0,1.0,33.7,33.5,33.5,3.7,1.8,2.59,0.6456922426820875,-0.017382969271671773,0.7511185050875453,0.006676675179391163,-0.082878,-34.59989
11.185,2.0,1.0,1.0,33.7,33.5,33.5,3.7,1.8,2.5925,0.6393999679206456,-0.01771605285983579,0.7563225025877004,0.006624860691016142,-0.083947,-34.464236
11.185,2.0,1.0,1.0,33.7,33.5,33.5,3.7,1.8,2.595,0.6330263181375447,-0.018055729481835564,0.7615030667134504,0.006568994179262429,-0.08504,-34.327841
11.185,2.0,1.0,1.0,33.7,33.5,33.5,3.7,1.8,2.5975,0.6265703861427997,-0.018402158909353553,0.7666592762431322,0.006508908840922505,-0.086158,-34.190689
11.185,2.0,1.0,1.0,33.7,33.5,33.5,3.7,1.8,2.6,0.6200312527238983,-0.018755505878583895,0.7717901812084929,0.006444430476207793,-0.087301,-34.052764
11.185,2.0,1.0,1.0,33.7,33.5,33.5,3.7,1.8,2.6025,0.6134079865544161,-0.019115940281686773,0.7768948019182503,0.0063753771066585,-0.088471,-33.914049
11.185,2.0,1.0,1.0,33.7,33.5,33.5,3.7,1.8,2.605,0.6066996441051836,-0.019483637367185478,0.7819721279432169,0.006301558569910006,-0.089668,-33.774526
11.185,2.0,1.0,1.0,33.7,33.5,33.5,3.7,1.8,2.6075,0.5999052695581601,-0.019858777949793554,0.7870211170610385,0.0062227760896778495,-0.090893,-33.634178
11.185,2.0,1.0,1.0,33.7,33.5,33.5,3.7,1.8,2.61,0.5930238947231499,-0.020241548630191224,0.7920406941584764,0.006138821819190729,-0.092147,-33.492988
11.185,2.0,1.0,1.0,33.7,33.5,33.5,3.7,1.8,2.6125,0.5860545389574933,-0.02063214202529955,0.7970297500889981,0.006049478356151988,-0.093432,-33.350935
11.185,2.0,1.0,1.0,33.7,33.5,33.5,3.7,1.8,2.615,0.5789962090888672,-0.02103075700963521,0.8019871404833068,0.00595451822715394,-0.094747,-33.208002
11.185,2.0,1.0,1.0,33.7,33.5,33.5,3.7,1.8,2.6175,0.5718478993413328,-0.021437598968363444,0.8069116845102499,0.005853703339290863,-0.096094,-33.064168
11.185,2.0,1.0,1.0,33.7,33.5,33.5,3.7,1.8,2.62,0.5646085912647508,-0.021852880062703545,0.811802163585362,0.005746784396527094,-0.097475,-32.919414
11.185,2.0,1.0,1.0,33.7,33.5,33.5,3.7,1.8,2.6225,0.5572772536676839,-0.022276819508381836,0.8166573200241019,0.005633500278165303,-0.09889,-32.773718
11.185,2.0,1.0,1.0,33.7,33.5,33.5,3.7,1.8,2.625,0.549852842553918,-0.0227096438678662,0.821475855636592,0.00551357737652972,-0.10034,-32.62706
11.185,2.0,1.0,1.0,33.7,33.5,33.5,3.7,1.8,2.6275,0.5423343010626844,-0.023151587357164,0.826256430260465,0.005386728890725013,-0.101827,-32.479417
11.185,2.0,1.0,1.0,33.7,33.5,33.5,3.7,1.8,2.63,0.5347205594127088,-0.023602892168006054,0.830997660228087,0.005252654073053338,-0.103352,-32.330766
11.185,2.0,1.0,1.0,33.7,33.5,33.5,3.7,1.8,2.6325,0.5270105348501569,-0.0240638088062937,0.8356981167642106,0.0051110374243646065,-0.104917,-32.181085
11.185,2.0,1.0,1.0,33.7,33.5,33.5,3.7,1.8,2.635,0.5192031316005745,-0.02453459644773145,0.8403563243096779,0.004961547834277038,-0.106523,-32.03035
11.185,2.0,1.0,1.0,33.7,33.5,33.5,3.7,1.8,2.6375,0.5112972408248826,-0.0250155233116237,0.8449707587665441,0.0048038376618321004,-0.10817,-31.878535
11.185,2.0,1.0,1.0,33.7,33.5,33.5,3.7,1.8,2.64,0.5032917405794792,-0.025506867053870192,0.8495398456594995,0.004637541751736014,-0.109862,-31.725615
11.185,2.0,1.0,1.0,33.7,33.5,33.5,3.7,1.8,2.6425,0.49518549578050375,-0.026008915180249278,0.8540619582080765,0.004462276380884512,-0.1116,-31.571565
11.185,2.0,1.0,1.0,33.7,33.5,33.5,3.7,1.8,2.645,0.4869773581722834,-0.026521965481139886,0.8585354153036211,0.0042776381293651985,-0.113385,-31.416356
11.185,2.0,1.0,1.0,33.7,33.5,33.5,3.7,1.8,2.6475,0.4786661662999892,-0.02704632648889326,0.8629584793844705,0.004083202669571848,-0.115219,-31.25996
11.185,2.0,1.0,1.0,33.7,33.5,33.5,3.7,1.8,2.65,0.47025074548647994,-0.02758231795912794,0.8673293542021843,0.003878523466449003,-0.117105,-31.10235
11.185,2.0,1.0,1.0,33.7,33.5,33.5,3.7,1.8,2.6525,0.4617299078133612,-0.028130271377283193,0.8716461824709816,0.003663130381196943,-0.119043,-30.943494
11.185,2.0,1.0,1.0,33.7,33.5,33.5,3.7,1.8,2.655,0.45310245210619743,-0.02869053049183184,0.8759070433918381,0.0034365281700049002,-0.121037,-30.783363
11.185,2.0,1.0,1.0,33.7,33.5,33.5,3.7,1.8,2.6575,0.4443671639238638,-0.029263451875611593,0.8801099500418396,0.0031981948685312817,-0.123088,-30.621923
11.185,2.0,1.0,1.0,33.7,33.5,33.5,3.7,1.8,2.66,0.43552281555199546,-0.02984940551679805,0.8842528466184627,0.0029475800519047717,-0.1252,-30.459142
11.185,2.0,1.0,1.0,33.7,33.5,33.5,3.7,1.8,2.6625,0.4265681660004892,-0.030448775441095602,0.8883336055274598,0.002684102958964862,-0.127374,-30.294986
11.185,2.0,1.0,1.0,33.7,33.5,33.5,3.7,1.8,2.665,0.41750196100501374,-0.03106196036677647,0.8923500243018335,0.0024071504682830432,-0.129613,-30.129419
11.185,2.0,1.0,1.0,33.7,33.5,33.5,3.7,1.8,2.6675,0.40832293303251155,-0.031689374394240445,0.8962998223381404,0.002116074912190684,-0.13192,-29.962405
11.185,2.0,1.0,1.0,33.7,33.5,33.5,3.7,1.8,2.67,0.399029801290685,-0.03233144773180141,0.9001806374348855,0.001810191713564112,-0.134298,-29.793904
11.185,2.0,1.0,1.0,33.7,33.5,33.5,3.7,1.8,2.6725,0.38962127174149686,-0.032988627459427086,0.9039900221161773,0.001488776828466496,-0.13675,-29.623879
11.185,2.0,1.0,1.0,33.7,33.5,33.5,3.7,1.8,2.675,0.38009603711878875,-0.033661378332159014,0.9077254397219897,0.0011510639758932227,-0.13928,-29.452287
11.185,2.0,1.0,1.0,33.7,33.5,33.5,3.7,1.8,2.6775,0.37045277695018625,-0.0343501836249158,0.9113842602443214,0.0007962416337814019,-0.14189,-29.279086
11.185,2.0,1.0,1.0,33.7,33.5,33.5,3.7,1.8,2.68,0.36069015758357226,-0.035055546020333055,0.9149637558862569,0.0004234497781012954,-0.144585,-29.104232
11.185,2.0,1.0,1.0,33.7,33.5,33.5,3.7,1.8,2.6825,0.3508068322185868,-0.035777988541197424,0.9184610963183015,3.177633920325797e-05,-0.147369,-28.927678
11.185,2.0,1.0,1.0,33.7,33.5,33.5,3.7,1.8,2.685,0.34080144094376813,-0.03651805552889399,0.9218733436034696,-0.0003797466533896139,-0.150246,-28.749378
11.185,2.0,1.0,1.0,33.7,33.5,33.5,3.7,1.8,2.6875,0.33067261078025006,-0.037276313669083745,0.9251974467592313,-0.0008121472699232901,-0.153221,-28.56928
11.185,2.0,1.0,1.0,33.7,33.5,33.5,3.7,1.8,2.69,0.3204189557332627,-0.0380533530655445,0.9284302359206745,-0.0012665182590880291,-0.156298,-28.387333
11.185,2.0,1.0,1.0,33.7,33.5,33.5,3.7,1.8,2.6925,0.310039076853088,-0.03884978836273745,0.9315684160649643,-0.0017440220467523002,-0.159482,-28.203484
11.185,2.0,1.0,1.0,33.7,33.5,33.5,3.7,1.8,2.695,0.2995315623077301,-0.03966625991716016,0.9346085602522942,-0.002245896199993798,-0.16278,-28.017675
11.185,2.0,1.0,1.0,33.7,33.5,33.5,3.7,1.8,2.6975,0.2888949874701992,-0.040503435016903955,0.9375471023329998,-0.002773459407256748,-0.166196,-27.829847
11.185,2.0,1.0,1.0,33.7,33.5,33.5,3.7,1.8,2.7,0.2781279150242544,-0.041362009147999805,0.9403803290641745,-0.003328118031826809,-0.169738,-27.63994
11.185,2.0,1.0,1.0,33.7,33.5,33.5,3.7,1.8,2.7025,0.26722889509350845,-0.042242707305076385,0.9431043715719037,-0.003911373303082886,-0.173412,-27.44789
11.185,2.0,1.0,1.0,33.7,33.5,33.5,3.7,1.8,2.705,0.25619646540025137,-0.04314628534250432,0.9457151960869782,-0.004524829218282077,-0.177225,-27.253628
11.185,2.0,1.0,1.0,33.7,33.5,33.5,3.7,1.8,2.7075,0.24502915146204027,-0.04407353136050293,0.9482085938724792,-0.005170201237142638,-0.181185,-27.057086
11.185,2.0,1.0,1.0,33.7,33.5,33.5,3.7,1.8,2.71,0.23372546683634385,-0.04502526711853926,0.9505801702507333,-0.005849325862386856,-0.185301,-26.858189
11.185,2.0,1.0,1.0,33.7,33.5,33.5,3.7,1.8,2.7125,0.22228391342619938,-0.046002349465670986,0.952825332624663,-0.006564171211931687,-0.189582,-26.656861
11.185,2.0,1.0,1.0,33.7,33.5,33.5,3.7,1.8,2.715,0.21070298186329148,-0.047005671774119295,0.9549392773741163,-0.007316848702827815,-0.194037,-26.453021
11.185,2.0,1.0,1.0,33.7,33.5,33.5,3.7,1.8,2.7175,0.19898115198903502,-0.04803616535815959,0.9569169754911675,-0.008109625983669879,-0.198677,-26.246585
11.185,2.0,1.0,1.0,33.7,33.5,33.5,3.7,1.8,2.72,0.1871168934595834,-0.049094800855176035,0.9587531567991043,-0.0089449412714003,-0.203513,-26.037463
11.185,2.0,1.0,1.0,33.7,33.5,33.5,3.7,1.8,2.7225,0.17510866650716622,-0.050182589539180505,0.9604422925775998,-0.009825419270657198,-0.208559,-25.825563
11.185,2.0,1.0,1.0,33.7,33.5,33.5,3.7,1.8,2.725,0.16295492289843602,-0.05130058452893629,0.961978576390658,-0.010753888879582583,-0.213826,-25.610787
11.185,2.0,1.0,1.0,33.7,33.5,33.5,3.7,1.8,2.7275,0.15065410714058333,-0.052449881842642064,0.963355902883923,-0.011733402915959203,-0.219331,-25.393031
11.185,2.0,1.0,1.0,33.7,33.5,33.5,3.7,1.8,2.73,0.13820465799884088,-0.05363162123841428,0.9645678442828598,-0.012767260132396811,-0.225088,-25.172188
11.185,2.0,1.0,1.0,33.7,33.5,33.5,3.7,1.8,2.7325,0.12560501040475805,-0.05484698676392026,0.9656076242824861,-0.013859029829957568,-0.231116,-24.948141
11.185,2.0,1.0,1.0,33.7,33.5,33.5,3.7,1.8,2.735,0.11285359785458975,-0.056097206918645504,0.9664680889715157,-0.015012579427130463,-0.237434,-24.720771
11.185,2.0,1.0,1.0,33.7,33.5,33.5,3.7,1.8,2.7375,0.09994885542200319,-0.057383554307386744,0.967141674377723,-0.016232105396724907,-0.244061,-24.489951
11.185,2.0,1.0,1.0,33.7,33.5,33.5,3.7,1.8,2.74,0.08688922354052594,-0.05870734463235586,0.9676203701556245,-0.017522168048555782,-0.251021,-24.255545
11.185,2.0,1.0,1.0,33.7,33.5,33.5,3.7,1.8,2.7425,0.07367315275040484,-0.06006993483205031,0.9678956788601414,-0.018887730712576944,-0.25834,-24.017411
11.185,2.0,1.0,1.0,33.7,33.5,33.5,3.7,1.8,2.745,0.060299109653960944,-0.06147272012567363,0.9679585701587673,-0.020334203967561353,-0.266044,-23.775399
11.185,2.0,1.0,1.0,33.7,33.5,33.5,3.7,1.8,2.7475,0.04676558438589152,-0.06291712965958242,0.9677994292270662,-0.02186749566716731,-0.274164,-23.529348
11.185,2.0,1.0,1.0,33.7,33.5,33.5,3.7,1.8,2.75,0.033071099983877,-0.0644046203734507,0.967407998444964,-0.0234940676414331,-0.282734,-23.279089
11.185,2.0,1.0,1.0,33.7,33.5,33.5,3.7,1.8,2.7525,0.019214224144892007,-0.06593666860394112,0.9667733113604059,-0.025221000101204906,-0.291792,-23.024444
11.185,2.0,1.0,1.0,33.7,33.5,33.5,3.7,1.8,2.755,0.005193583979944389,-0.06751475881666796,0.9658836177078259,-0.027056064950306182,-0.301378,-22.765219
11.185,2.0,1.0,1.0,33.7,33.5,33.5,3.7,1.8,2.7575,-0.00899211545777995,-0.06914036869530477,0.9647262980560358,-0.02900780942087688,-0.31154,-22.501212
11.185,2.0,1.0,1.0,33.7,33.5,33.5,3.7,1.8,2.76,-0.02334406788860702,-0.07081494960956948,0.9632877664068857,-0.031085651697800934,-0.322329,-22.232208
11.185,2.0,1.0,1.0,33.7,33.5,33.5,3.7,1.8,2.7625,-0.037863336516623124,-0.07253990121807839,0.9615533587643967,-0.03329999049633807,-0.333803,-21.957974
11.185,2.0,1.0,1.0,33.7,33.5,33.5,3.7,1.8,2.765,-0.05255081714179006,-0.07431653861989802,0.9595072053346833,-0.035662330912215046,-0.346028,-21.678265
11.185,2.0,1.0,1.0,33.7,33.5,33.5,3.7,1.8,2.7675,-0.06740719163742427,-0.07614605002652061,0.9571320835886785,-0.0381854292864142,-0.359075,-21.392819
11.185,2.0,1.0,1.0,33.7,33.5,33.5,3.7,1.8,2.77,-0.0824328691808005,-0.07802944235261322,0.9544092489096991,-0.040883460330321544,-0.37303,-21.101354
11.185,2.0,1.0,1.0,33.7,33.5,33.5,3.7,1.8,2.7725,-0.09762791187461625,-0.07996747137736716,0.9513182389414137,-0.04377221035510563,-0.387984,-20.80357
11.185,2.0,1.0,1.0,33.7,33.5,33.5,3.7,1.8,2.775,-0.11299194041657243,-0.0819605521524487,0.9478366470327753,-0.04686930115804692,-0.404046,-20.499145
11.185,2.0,1.0,1.0,33.7,33.5,33.5,3.7,1.8,2.7775,-0.12852401418676168,-0.0840086440516941,0.9439398593275358,-0.05019444995466182,-0.421338,-20.187735
11.185,2.0,1.0,1.0,33.7,33.5,33.5,3.7,1.8,2.78,-0.14422247842490218,-0.08611110316936522,0.9396007490505657,-0.05376977172492424,-0.439999,-19.868968
11.185,2.0,1.0,1.0,33.7,33.5,33.5,3.7,1.8,2.7825,-0.16008476892142826,-0.08826649253875664,0.9347893203878807,-0.057620131477253624,-0.46019,-19.542448
11.185,2.0,1.0,1.0,33.7,33.5,33.5,3.7,1.8,2.785,-0.17610716165661727,-0.09047233767138113,0.9294722930368219,-0.06177355522941351,-0.482097,-19.207747
11.185,2.0,1.0,1.0,33.7,33.5,33.5,3.7,1.8,2.7875,-0.192284450828136,-0.09272481094894447,0.9236126170292559,-0.06626170994775864,-0.505936,-18.864408
11.185,2.0,1.0,1.0,33.7,33.5,33.5,3.7,1.8,2.79,-0.2086095333501439,-0.0950183230791626,0.9171689058482492,-0.07112046422964029,-0.531958,-18.511938
11.185,2.0,1.0,1.0,33.7,33.5,33.5,3.7,1.8,2.7925,-0.22507287069053364,-0.09734499266134378,0.9100947742699727,-0.07639054305371587,-0.560456,-18.149805
11.185,2.0,1.0,1.0,33.7,33.5,33.5,3.7,1.8,2.795,-0.24166178915513722,-0.09969395522255071,0.9023380659723453,-0.0821182912528136,-0.591776,-17.777441
11.185,2.0,1.0,1.0,33.7,33.5,33.5,3.7,1.8,2.7975,-0.2583595664875594,-0.1020504599491501,0.8938399551400811,-0.0883565611015196,-0.626328,-17.394235
11.185,2.0,1.0,1.0,33.7,33.5,33.5,3.7,1.8,2.8,-0.2751442346390188,-0.10439468447318609,0.8845339067407397,-0.09516573887574176,-0.664598,-16.999533
11.185,2.0,1.0,1.0,33.7,33.5,33.5,3.7,1.8,2.8025,-0.29198700400715527,-0.10670017373256054,0.8743444830294741,-0.10261492225184152,-0.707167,-16.592635
11.185,2.0,1.0,1.0,33.7,33.5,33.5,3.7,1.8,2.805,-0.3088501809588002,-0.10893177575107975,0.8631859911873534,-0.11078325294463082,-0.754734,-16.172796
11.185,2.0,1.0,1.0,33.7,33.5,33.5,3.7,1.8,2.8075,-0.3256844048710001,-0.11104290205646794,0.8509609822473025,-0.11976139360651349,-0.808147,-15.73923
11.185,2.0,1.0,1.0,33.7,33.5,33.5,3.7,1.8,2.81,-0.34242496918229,-0.11297187937295247,0.837558640403985,-0.1296531089536896,-0.868437,-15.291109
11.185,2.0,1.0,1.0,33.7,33.5,33.5,3.7,1.8,2.8125,-0.3589869081323385,-0.11463707737928128,0.8228531541315746,-0.14057685870152034,-0.936871,-14.827577
11.185,2.0,1.0,1.0,33.7,33.5,33.5,3.7,1.8,2.815,-0.375258421760006,-0.11593038963325189,0.806702252364187,-0.1526672181532289,-1.015011,-14.347765
11.185,2.0,1.0,1.0,33.7,33.5,33.5,3.7,1.8,2.8175,-0.3910920724672089,-0.11670850757521112,0.7889462469038332,-0.16607578479705504,-1.104803,-13.850813
11.185,2.0,1.0,1.0,33.7,33.5,33.5,3.7,1.8,2.82,-0.4062930187936334,-0.11678126286985753,0.7694081894798858,-0.1809709631014569,-1.20868,-13.33591
11.185,2.0,1.0,1.0,33.7,33.5,33.5,3.7,1.8,2.8225,-0.4206033730927533,-0.1158961386881181,0.7478961975169724,-0.19753557648055145,-1.329712,-12.802361
11.185,2.0,1.0,1.0,33.7,33.5,33.5,3.7,1.8,2.825,-0.4336816329939017,-0.11371791966929039,0.7242097330354562,-0.2159605299751659,-1.471789,-12.249672
11.185,2.0,1.0,1.0,33.7,33.5,33.5,3.7,1.8,2.8275,-0.4450761745881331,-0.1098024960829771,0.6981527881661647,-0.23643158778117365,-1.639861,-11.677691
