1,w,sub_t,h,l1,l2,l3,g1,g2,Freq,S11_re,S21_re,S11_img,S21_img,S11_dB,S21_dB
11.185,2.0,1.0,1.0,33.6,34.6,34.6,4.0,2.4,2.5,0.836648715219681,-0.00761719052834726,0.535829510103765,0.00567806586466862,-0.056413,-40.444949
11.185,2.0,1.0,1.0,33.6,34.6,34.6,4.0,2.4,2.5025,0.832982924809014,-0.007775808614028991,0.5413900975486212,0.005704009507320515,-0.056988,-40.315221
11.185,2.0,1.0,1.0,33.6,34.6,34.6,4.0,2.4,2.505,0.8292634420328813,-0.007937636638141152,0.5469486522054183,0.005729330672473027,-0.057574,-40.184926
11.185,2.0,1.0,1.0,33.6,34.6,34.6,4.0,2.4,2.5075,0.8254897164630445,-0.008102757506537158,0.5525049070551389,0.005753998154703667,-0.058171,-40.05405
11.185,2.0,1.0,1.0,33.6,34.6,34.6,4.0,2.4,2.51,0.8216611879289587,-0.008271257052901491,0.5580585869954359,0.005777979347819625,-0.05878,-39.922576
11.185,2.0,1.0,1.0,33.6,34.6,34.6,4.0,2.4,2.5125,0.8177772862944285,-0.008443224171273276,0.5636094085658547,0.005801240171341011,-0.059402,-39.790489
11.185,2.0,1.0,1.0,33.6,34.6,34.6,4.0,2.4,2.515,0.8138374312263967,-0.0086187509558887,0.5691570796625768,0.005823744992420958,-0.060037,-39.657773
11.185,2.0,1.0,1.0,33.6,34.6,34.6,4.0,2.4,2.5175,0.8098410319554288,-0.008797932848817601,0.5747012992421553,0.005845456542871447,-0.060684,-39.524409
11.185,2.0,1.0,1.0,33.6,34.6,34.6,4.0,2.4,2.52,0.8057874870274108,-0.008980868795906725,0.5802417570137257,0.0058663358309364545,-0.061346,-39.390383
11.185,2.0,1.0,1.0,33.6,34.6,34.6,4.0,2.4,2.5225,0.8016761840459589,-0.009167661411578518,0.5857781331190796,0.005886342047423755,-0.062021,-39.255674
11.185,2.0,1.0,1.0,33.6,34.6,34.6,4.0,2.4,2.525,0.7975064994049805,-0.009358417153078401,0.5913100978000115,0.005905432465773717,-0.06271,-39.120267
11.185,2.0,1.0,1.0,33.6,34.6,34.6,4.0,2.4,2.5275,0.7932777980107948,-0.009553246504807524,0.5968373110522681,0.005923562335607302,-0.063414,-38.984141
11.185,2.0,1.0,1.0,33.6,34.6,34.6,4.0,2.4,2.53,0.7889894329931756,-0.009752264173427188,0.6023594222653876,0.005940684769255921,-0.064134,-38.847278
11.185,2.0,1.0,1.0,33.6,34.6,34.6,4.0,2.4,2.5325,0.7846407454046228,-0.009955589294475436,0.6078760698476807,0.005956750620732209,-0.064869,-38.709658
11.185,2.0,1.0,1.0,33.6,34.6,34.6,4.0,2.4,2.535,0.7802310639071118,-0.010163345651294302,0.6133868808355446,0.005971708356552978,-0.06562,-38.571261
11.185,2.0,1.0,1.0,33.6,34.6,34.6,4.0,2.4,2.5375,0.7757597044455204,-0.010375661907129416,0.6188914704862246,0.005985503917773084,-0.066388,-38.432068
11.185,2.0,1.0,1.0,33.6,34.6,34.6,4.0,2.4,2.54,0.7712259699068502,-0.01059267185133305,0.6243894418531057,0.005998080572531163,-0.067174,-38.292055
11.185,2.0,1.0,1.0,33.6,34.6,34.6,4.0,2.4,2.5425,0.7666291497643026,-0.010814514660677588,0.6298803853425166,0.006009378758344233,-0.067977,-38.151202
11.185,2.0,1.0,1.0,33.6,34.6,34.6,4.0,2.4,2.545,0.7619685197051753,-0.011041335176867414,0.6353638782509646,0.006019335913318234,-0.068799,-38.009487
11.185,2.0,1.0,1.0,33.6,34.6,34.6,4.0,2.4,2.5475,0.7572433412414785,-0.011273284201428431,0.6408394842816255,0.006027886295363589,-0.06964,-37.866885
11.185,2.0,1.0,1.0,33.6,34.6,34.6,4.0,2.4,2.55,0.7524528613020427,-0.011510518809252154,0.6463067530388359,0.00603496078841952,-0.0705,-37.723375
11.185,2.0,1.0,1.0,33.6,34.6,34.6,4.0,2.4,2.5525,0.7475963118048287,-0.011753202682177818,0.6517652194992016,0.00604048669459583,-0.071381,-37.57893
11.185,2.0,1.0,1.0,33.6,34.6,34.6,4.0,2.4,2.555,0.7426729092079926,-0.012001506464115368,0.6572144034578552,0.006044387511035777,-0.072284,-37.433525
11.185,2.0,1.0,1.0,33.6,34.6,34.6,4.0,2.4,2.5575,0.7376818540381579,-0.012255608139339687,0.6626538089482507,0.006046582690187671,-0.073208,-37.287136
11.185,2.0,1.0,1.0,33.6,34.6,34.6,4.0,2.4,2.56,0.7326223303942085,-0.012515693435727497,0.66808292363374,0.006046987382043356,-0.074154,-37.139735
11.185,2.0,1.0,1.0,33.6,34.6,34.6,4.0,2.4,2.5625,0.7274935054247484,-0.01278195625486469,0.6735012181690432,0.0060455121567584156,-0.075125,-36.991294
11.185,2.0,1.0,1.0,33.6,34.6,34.6,4.0,2.4,2.565,0.7222945287772209,-0.013054599131121357,0.6789081455295337,0.006042062705909358,-0.076119,-36.841785
11.185,2.0,1.0,1.0,33.6,34.6,34.6,4.0,2.4,2.5675,0.7170245320164903,-0.013333833721978383,0.6843031403060773,0.00603653952046572,-0.077139,-36.691178
11.185,2.0,1.0,1.0,33.6,34.6,34.6,4.0,2.4,2.57,0.7116826280104833,-0.013619881332097038,0.6896856179629622,0.006028837543356474,-0.078185,-36.539444
11.185,2.0,1.0,1.0,33.6,34.6,34.6,4.0,2.4,2.5725,0.7062679102802631,-0.013912973473848511,0.6950549740562149,0.0060188457942898736,-0.079258,-36.38655
11.185,2.0,1.0,1.0,33.6,34.6,34.6,4.0,2.4,2.575,0.7007794523116607,-0.014213352467271814,0.7004105834093409,0.006006446964238203,-0.080359,-36.232465
11.185,2.0,1.0,1.0,33.6,34.6,34.6,4.0,2.4,2.5775,0.6952163068253177,-0.014521272082703006,0.705751799243236,0.005991516976723267,-0.081489,-36.077153
11.185,2.0,1.0,1.0,33.6,34.6,34.6,4.0,2.4,2.58,0.6895775050016857,-0.014836998229624811,0.7110779522566932,0.0059739245127285795,-0.08265,-35.920582
11.185,2.0,1.0,1.0,33.6,34.6,34.6,4.0,2.4,2.5825,0.6838620556571845,-0.015160809695623115,0.7163883496535766,0.0059535304957171855,-0.083843,-35.762715
11.185,2.0,1.0,1.0,33.6,34.6,34.6,4.0,2.4,2.585,0.6780689443673673,-0.015492998939708067,0.7216822741123076,0.005930187532843968,-0.085069,-35.603513
11.185,2.0,1.0,1.0,33.6,34.6,34.6,4.0,2.4,2.5875,0.6721971325324989,-0.015833872944673394,0.7269589826928743,0.005903739308012715,-0.086329,-35.44294
11.185,2.0,1.0,1.0,33.6,34.6,34.6,4.0,2.4,2.59,0.6662455563805227,-0.016183754133623603,0.732217705676052,0.005874019921934091,-0.087624,-35.280954
11.185,2.0,1.0,1.0,33.6,34.6,34.6,4.0,2.4,2.5925,0.660213125901851,-0.01654298135630973,0.7374576453289498,0.0058408531737830114,-0.088957,-35.117514
11.185,2.0,1.0,1.0,33.6,34.6,34.6,4.0,2.4,2.595,0.6540987237098703,-0.0169119109514773,0.7426779745903476,0.00580405177842476,-0.090329,-34.952577
11.185,2.0,1.0,1.0,33.6,34.6,34.6,4.0,2.4,2.5975,0.6479012038203953,-0.017290917892061646,0.7478778356685514,0.0057634165124660795,-0.091742,-34.786098
11.185,2.0,1.0,1.0,33.6,34.6,34.6,4.0,2.4,2.6,0.6416193903426094,-0.017680397020765223,0.7530563385436856,0.005718735281580615,-0.093197,-34.61803
11.185,2.0,1.0,1.0,33.6,34.6,34.6,4.0,2.4,2.6025,0.6352520760732452,-0.018080764384331264,0.7582125593653524,0.005669782100641506,-0.094696,-34.448324
11.185,2.0,1.0,1.0,33.6,34.6,34.6,4.0,2.4,2.605,0.6287980209848552,-0.018492458675702633,0.763345538735584,0.005616315977152178,-0.096241,-34.276931
11.185,2.0,1.0,1.0,33.6,34.6,34.6,4.0,2.4,2.6075,0.6222559505980545,-0.01891594279422579,0.7684542798657387,0.005558079687280445,-0.097835,-34.103797
11.185,2.0,1.0,1.0,33.6,34.6,34.6,4.0,2.4,2.61,0.6156245542265053,-0.01935170553515041,0.7735377465946546,0.00549479843244736,-0.09948,-33.928868
11.185,2.0,1.0,1.0,33.6,34.6,34.6,4.0,2.4,2.6125,0.6089024830821662,-0.01980026342089523,0.7785948612537494,0.005426178362876716,-0.101178,-33.752088
11.185,2.0,1.0,1.0,33.6,34.6,34.6,4.0,2.4,2.615,0.602088348226938,-0.02026216268791808,0.7836245023630124,0.0053519049527401205,-0.102932,-33.573395
11.185,2.0,1.0,1.0,33.6,34.6,34.6,4.0,2.4,2.6175,0.5951807183552899,-0.020737981444561748,0.7886255021396763,0.005271641209503606,-0.104744,-33.392729
11.185,2.0,1.0,1.0,33.6,34.6,34.6,4.0,2.4,2.62,0.588178117390669,-0.021228332016974,0.7935966437990613,0.00518502569774795,-0.106618,-33.210025
11.185,2.0,1.0,1.0,33.6,34.6,34.6,4.0,2.4,2.6225,0.581079021876524,-0.02173386350213895,0.7985366586243017,0.005091670355050209,-0.108557,-33.025214
11.185,2.0,1.0,1.0,33.6,34.6,34.6,4.0,2.4,2.625,0.573881858140554,-0.022255264549241,0.803444222778517,0.00499115807441506,-0.110564,-32.838226
11.185,2.0,1.0,1.0,33.6,34.6,34.6,4.0,2.4,2.6275,0.5665849992082491,-0.02279326639304878,0.8083179538293648,0.004883040024163261,-0.112643,-32.648987
11.185,2.0,1.0,1.0,33.6,34.6,34.6,4.0,2.4,2.63,0.5591867614389658,-0.023348646165783596,0.8131564069516628,0.004766832672035644,-0.114798,-32.457419
11.185,2.0,1.0,1.0,33.6,34.6,34.6,4.0,2.4,2.6325,0.55168540085455,-0.023922230517080985,0.8179580707689098,0.004642014475453565,-0.117032,-32.263441
11.185,2.0,1.0,1.0,33.6,34.6,34.6,4.0,2.4,2.635,0.5440791091268811,-0.024514899575207024,0.8227213627888015,0.004508022194272095,-0.119351,-32.066969
11.185,2.0,1.0,1.0,33.6,34.6,34.6,4.0,2.4,2.6375,0.5363660091865927,-0.025127591286713772,0.8274446243812172,0.0043642467758248475,-0.12176,-31.867911
11.185,2.0,1.0,1.0,33.6,34.6,34.6,4.0,2.4,2.64,0.5285441504105094,-0.025761306176282365,0.8321261152394069,0.004210028754417149,-0.124263,-31.666175
11.185,2.0,1.0,1.0,33.6,34.6,34.6,4.0,2.4,2.6425,0.5206115033400742,-0.02641711257367149,0.8367640072559882,0.004044653098468195,-0.126867,-31.461661
11.185,2.0,1.0,1.0,33.6,34.6,34.6,4.0,2.4,2.645,0.512565953876952,-0.0270961523605678,0.841356377734704,0.003867343427980432,-0.129577,-31.254267
11.185,2.0,1.0,1.0,33.6,34.6,34.6,4.0,2.4,2.6475,0.5044052968951667,-0.027799647296807898,0.8459012018463078,0.0036772555126198194,-0.132401,-31.043882
11.185,2.0,1.0,1.0,33.6,34.6,34.6,4.0,2.4,2.65,0.4961272292012665,-0.02852890599303169,0.8503963442221143,0.0034734699460515724,-0.135345,-30.830392
11.185,2.0,1.0,1.0,33.6,34.6,34.6,4.0,2.4,2.6525,0.48772934176518795,-0.029285331605459104,0.8548395495611264,0.0032549838748386585,-0.138418,-30.613674
11.185,2.0,1.0,1.0,33.6,34.6,34.6,4.0,2.4,2.655,0.479209111134267,-0.030070430338308304,0.8592284321058141,0.0030207016396172396,-0.141628,-30.393602
11.185,2.0,1.0,1.0,33.6,34.6,34.6,4.0,2.4,2.6575,0.4705638899313803,-0.0308858208505493,0.8635604638167227,0.0027694241617345684,-0.144985,-30.170039
11.185,2.0,1.0,1.0,33.6,34.6,34.6,4.0,2.4,2.66,0.461790896325017,-0.03173324467640807,0.8678329610463705,0.002499836879225871,-0.148499,-29.942842
11.185,2.0,1.0,1.0,33.6,34.6,34.6,4.0,2.4,2.6625,0.45288720234415125,-0.032614577783493345,0.8720430694772825,0.002210496000879864,-0.152181,-29.711861
11.185,2.0,1.0,1.0,33.6,34.6,34.6,4.0,2.4,2.665,0.44384972089373353,-0.033531843408849536,0.8761877470462154,0.0018998128049033986,-0.156043,-29.476933
11.185,2.0,1.0,1.0,33.6,34.6,34.6,4.0,2.4,2.6675,0.43467519130736704,-0.034487226331858335,0.8802637445249134,0.0015660356577409822,-0.1601,-29.237889
11.185,2.0,1.0,1.0,33.6,34.6,34.6,4.0,2.4,2.67,0.42536016325180215,-0.035483088763988674,0.8842675833652442,0.0012072293669161372,-0.164367,-28.994547
11.185,2.0,1.0,1.0,33.6,34.6,34.6,4.0,2.4,2.6725,0.4159009787731851,-0.03652198805914915,0.8881955303405794,0.0008212514068204348,-0.168859,-28.746716
11.185,2.0,1.0,1.0,33.6,34.6,34.6,4.0,2.4,2.675,0.40629375224723996,-0.03760669647504928,0.8920435684226089,0.00040572446499892494,-0.173596,-28.494191
11.185,2.0,1.0,1.0,33.6,34.6,34.6,4.0,2.4,2.6775,0.39653434796447223,-0.038740223245693366,0.895807363219435,-4.19953553629499e-05,-0.178598,-28.236753
11.185,2.0,1.0,1.0,33.6,34.6,34.6,4.0,2.4,2.68,0.3866183550471047,-0.03992583925794439,0.8994822241613971,-0.0005248554784686273,-0.183888,-27.974168
11.185,2.0,1.0,1.0,33.6,34.6,34.6,4.0,2.4,2.6825,0.376541059356805,-0.04116710466087514,0.9030630594491996,-0.001046149915709525,-0.189492,-27.70619
11.185,2.0,1.0,1.0,33.6,34.6,34.6,4.0,2.4,2.685,0.3662974120116993,-0.042467899774915344,0.9065443235659083,-0.0016095696235177226,-0.195437,-27.43255
11.185,2.0,1.0,1.0,33.6,34.6,34.6,4.0,2.4,2.6875,0.3558819940887117,-0.043832459707644454,0.9099199558893174,-0.002219261601855447,-0.201757,-27.152964
11.185,2.0,1.0,1.0,33.6,34.6,34.6,4.0,2.4,2.69,0.34528897704440525,-0.04526541312274282,0.9131833086100228,-0.0028798985024644976,-0.208487,-26.867126
11.185,2.0,1.0,1.0,33.6,34.6,34.6,4.0,2.4,2.6925,0.33451207834719854,-0.04677182564514529,0.9163270617445862,-0.003596760925912903,-0.215667,-26.574707
11.185,2.0,1.0,1.0,33.6,34.6,34.6,4.0,2.4,2.695,0.3235445117808077,-0.04835724841401197,0.9193431225086283,-0.0043758351034659795,-0.223345,-26.275351
11.185,2.0,1.0,1.0,33.6,34.6,34.6,4.0,2.4,2.6975,0.3123789318604122,-0.050027772308079595,0.9222225056497395,-0.005223929314984394,-0.231573,-25.968679
11.185,2.0,1.0,1.0,33.6,34.6,34.6,4.0,2.4,2.7,0.30100737181152726,-0.051790088353214664,0.9249551904931436,-0.006148813228416226,-0.240411,-25.654277
11.185,2.0,1.0,1.0,33.6,34.6,34.6,4.0,2.4,2.7025,0.2894211746151904,-0.053651554760853835,0.9275299493687217,-0.007159385414362255,-0.249928,-25.3317
11.185,2.0,1.0,1.0,33.6,34.6,34.6,4.0,2.4,2.705,0.2776109167508115,-0.0556202709095373,0.929934140692896,-0.008265875662978005,-0.260204,-25.000465
11.185,2.0,1.0,1.0,33.6,34.6,34.6,4.0,2.4,2.7075,0.2655663245142962,-0.057705158325343356,0.9321534581742102,-0.009480090506852853,-0.27133,-24.660047
11.185,2.0,1.0,1.0,33.6,34.6,34.6,4.0,2.4,2.71,0.2532761832225055,-0.059916048272007055,0.9341716252654036,-0.01081571266229611,-0.283413,-24.309877
11.185,2.0,1.0,1.0,33.6,34.6,34.6,4.0,2.4,2.7125,0.24072824034189938,-0.06226377482188994,0.9359700209187815,-0.012288668117576129,-0.296578,-23.949333
11.185,2.0,1.0,1.0,33.6,34.6,34.6,4.0,2.4,2.715,0.2279091047637924,-0.06476027108081182,0.9375272186749852,-0.013917578556395584,-0.31097,-23.577738
11.185,2.0,1.0,1.0,33.6,34.6,34.6,4.0,2.4,2.7175,0.21480414634667822,-0.06741866432845038,0.9388184158015144,-0.01572432202806394,-0.326763,-23.194351
11.185,2.0,1.0,1.0,33.6,34.6,34.6,4.0,2.4,2.72,0.20139740285735133,-0.07025336281411668,0.9398147221543716,-0.01773473169524145,-0.344161,-22.798361
11.185,2.0,1.0,1.0,33.6,34.6,34.6,4.0,2.4,2.7225,0.18767150619511758,-0.07328012219128326,0.9404822690666642,-0.019979471690137085,-0.363408,-22.388877
11.185,2.0,1.0,1.0,33.6,34.6,34.6,4.0,2.4,2.725,0.17360764727111552,-0.0765160720972254,0.9407810860691568,-0.02249514137446341,-0.384799,-21.964923
11.185,2.0,1.0,1.0,33.6,34.6,34.6,4.0,2.4,2.7275,0.1591856107203804,-0.07997967161750655,0.9406636765543198,-0.025325675665651106,-0.408688,-21.525422
11.185,2.0,1.0,1.0,33.6,34.6,34.6,4.0,2.4,2.73,0.14438392928796542,-0.08369054380326334,0.9400732012251644,-0.02852413090526773,-0.435509,-21.069192
11.185,2.0,1.0,1.0,33.6,34.6,34.6,4.0,2.4,2.7325,0.12918023735783907,-0.08766910996984731,0.9389411486030369,-0.0321549746696733,-0.465796,-20.594927
11.185,2.0,1.0,1.0,33.6,34.6,34.6,4.0,2.4,2.735,0.11355195036972203,-0.09193589758978404,0.9371843330372301,-0.036297035845858826,-0.500207,-20.101195
11.185,2.0,1.0,1.0,33.6,34.6,34.6,4.0,2.4,2.7375,0.09747747274848773,-0.09651032038273248,0.9347010107296414,-0.04104731994006842,-0.539568,-19.586419
11.185,2.0,1.0,1.0,33.6,34.6,34.6,4.0,2.4,2.74,0.0809382594911152,-0.10140860790367975,0.9313658426416439,-0.046525954420255915,-0.584919,-19.048875
11.185,2.0,1.0,1.0,33.6,34.6,34.6,4.0,2.4,2.7425,0.06392225548154563,-0.10664036520397313,0.9270233630836986,-0.052882596427499096,-0.637586,-18.486689
11.185,2.0,1.0,1.0,33.6,34.6,34.6,4.0,2.4,2.745,0.04642956091767928,-0.11220292277569714,0.921479547841042,-0.06030469667498152,-0.699274,-17.897845
11.185,2.0,1.0,1.0,33.6,34.6,34.6,4.0,2.4,2.7475,0.02848170064539999,-0.11807211466114484,0.9144910540068336,-0.06902803050571425,-0.7722,-17.280215
11.185,2.0,1.0,1.0,33.6,34.6,34.6,4.0,2.4,2.75,0.0101367359277165,-0.124187274555133,0.905751819875326,-0.0793497855311925,-0.859272,-16.631628
11.185,2.0,1.0,1.0,33.6,34.6,34.6,4.0,2.4,2.7525,-0.008486162567390987,-0.13042688208401304,0.8948771874875612,-0.09164401618613228,-0.964341,-15.949988
11.185,2.0,1.0,1.0,33.6,34.6,34.6,4.0,2.4,2.755,-0.027166919156326446,-0.13656918873393017,0.8813870344017208,-0.10637795166992076,-1.092543,-15.233508
11.185,2.0,1.0,1.0,33.6,34.6,34.6,4.0,2.4,2.7575,-0.045520679772189,-0.1422291279406692,0.8646926308185374,-0.12412443149825916,-1.250746,-14.481111
11.185,2.0,1.0,1.0,33.6,34.6,34.6,4.0,2.4,2.76,-0.06289727488650104,-0.14675919543897062,0.8440992220684325,-0.14555852429999183,-1.448083,-13.693124
11.185,2.0,1.0,1.0,33.6,34.6,34.6,4.0,2.4,2.7625,-0.07822931233111007,-0.14910002808744113,0.8188516396114579,-0.17141126721226585,-1.696437,-12.872439
11.185,2.0,1.0,1.0,33.6,34.6,34.6,4.0,2.4,2.765,-0.08982172500403858,-0.14757410344418093,0.7882793745737575,-0.20232478596192305,-2.010372,-12.026394
11.185,2.0,1.0,1.0,33.6,34.6,34.6,4.0,2.4,2.7675,-0.09511496711352403,-0.13965525528397615,0.7521432745508025,-0.23850829835504672,-2.405087,-11.169646
11.185,2.0,1.0,1.0,33.6,34.6,34.6,4.0,2.4,2.77,-0.09057169315226779,-0.12186316108343606,0.7113250845607808,-0.27905708874624086,-2.888792,-10.328102
11.185,2.0,1.0,1.0,33.6,34.6,34.6,4.0,2.4,2.7725,-0.07208214799161915,-0.09017329337182374,0.6689206767136572,-0.3208782937550717,-3.442368,-9.54309
11.185,2.0,1.0,1.0,33.6,34.6,34.6,4.0,2.4,2.775,-0.036542197633627066,-0.04158319326716976,0.6313281141836227,-0.35763341231156714,-3.980372,-8.872917
11.185,2.0,1.0,1.0,33.6,34.6,34.6,4.0,2.4,2.7775,0.015137083675817814,0.022924525623364753,0.6079139689987499,-0.3800971523649412,-4.320466,-8.386339
11.185,2.0,1.0,1.0,33.6,34.6,34.6,4.0,2.4,2.78,0.07534862167319967,0.09577726331237385,0.6074537509709905,-0.37969188427142636,-4.263424,-8.143468
11.185,2.0,1.0,1.0,33.6,34.6,34.6,4.0,2.4,2.7825,0.13128725819605544,0.16434691350540923,0.6324103304539919,-0.3541067045388966,-3.796774,-8.170109
11.185,2.0,1.0,1.0,33.6,34.6,34.6,4.0,2.4,2.785,0.17141455775948433,0.21733799259777167,0.6765455674467433,-0.3095810690785985,-3.123847,-8.444325
11.185,2.0,1.0,1.0,33.6,34.6,34.6,4.0,2.4,2.7875,0.1910717596716208,0.250267632333498,0.7290065391868714,-0.2568270226370974,-2.456831,-8.907793
11.185,2.0,1.0,1.0,33.6,34.6,34.6,4.0,2.4,2.79,0.1923389897221887,0.26526648036635453,0.780365801081267,-0.20509087389937886,-1.89791,-9.491233
11.185,2.0,1.0,1.0,33.6,34.6,34.6,4.0,2.4,2.7925,0.18033669529488305,0.26741634674650916,0.8253673212998553,-0.1594897900229532,-1.464523,-10.134589
11.185,2.0,1.0,1.0,33.6,34.6,34.6,4.0,2.4,2.795,0.1601219930400346,0.2617054443741505,0.8623434406950362,-0.12161367970762607,-1.139182,-10.794612
11.185,2.0,1.0,1.0,33.6,34.6,34.6,4.0,2.4,2.7975,0.1354549129674217,0.2518301966305978,0.8916278064977237,-0.09109572844399606,-0.897235,-11.443786
11.185,2.0,1.0,1.0,33.6,34.6,34.6,4.0,2.4,2.8,0.10875072928144916,0.2401589103293433,0.9143301641614032,-0.0668167196930028,-0.716931,-12.066233
11.185,2.0,1.0,1.0,33.6,34.6,34.6,4.0,2.4,2.8025,0.08142462793368277,0.2280758680216153,0.9316868682233367,-0.04754039440910169,-0.581556,-12.653706
11.185,2.0,1.0,1.0,33.6,34.6,34.6,4.0,2.4,2.805,0.05424599460012207,0.21633165150532296,0.9447975929734439,-0.03216931676218696,-0.478931,-13.20261
11.185,2.0,1.0,1.0,33.6,34.6,34.6,4.0,2.4,2.8075,0.02759734034182163,0.20529821448434885,0.9545550781081047,-0.019811842784087538,-0.400352,-13.712039
11.185,2.0,1.0,1.0,33.6,34.6,34.6,4.0,2.4,2.81,0.0016401972852097763,0.19513192459813683,0.9616537419462281,-0.009772313576034038,-0.339613,-14.182555
11.185,2.0,1.0,1.0,33.6,34.6,34.6,4.0,2.4,2.8125,-0.0235851962602714,0.185871351926842,0.96662292608163,-0.00151754045632811,-0.292273,-14.615461
11.185,2.0,1.0,1.0,33.6,34.6,34.6,4.0,2.4,2.815,-0.04810208970060966,0.17749388265438445,0.9698626359682839,0.0053588594402753965,-0.255126,-15.012375
11.185,2.0,1.0,1.0,33.6,34.6,34.6,4.0,2.4,2.8175,-0.07196448628454137,0.16994773119352222,0.9716743057533883,0.011167065238349394,-0.225829,-15.374982
11.185,2.0,1.0,1.0,33.6,34.6,34.6,4.0,2.4,2.82,-0.09523900715902343,0.16316965735325364,0.9722850864570823,0.01614519865945239,-0.202656,-15.704899
11.185,2.0,1.0,1.0,33.6,34.6,34.6,4.0,2.4,2.8225,-0.11799512520322006,0.15709450727046498,0.9718662672715169,0.020477664075117977,-0.184319,-16.003606
11.185,2.0,1.0,1.0,33.6,34.6,34.6,4.0,2.4,2.825,-0.14030014782114264,0.15166013083312282,0.9705469803505191,0.024308844650841585,-0.16985,-16.272405
11.185,2.0,1.0,1.0,33.6,34.6,34.6,4.0,2.4,2.8275,-0.16221686643262323,0.14680971677218735,0.9684243069466745,0.027753274971937227,-0.158509,-16.512409
11.185,2.0,1.0,1.0,33.6,34.6,34.6,4.0,2.4,2.83,-0.18380268200841593,0.1424927121093785,0.965570702736908,0.030903209073774238,-0.149733,-16.724535
