1,w,sub_t,h,l1,l2,l3,g1,g2,Freq,S11_re,S21_re,S11_img,S21_img,S11_dB,S21_dB
11.185,2.0,1.0,1.0,33.6,34.0,34.0,4.2,3.4,2.5,0.839159206655286,-0.00558190095677825,0.532235458821237,0.00347553462366212,-0.054793,-43.641449
11.185,2.0,1.0,1.0,33.6,34.0,34.0,4.2,3.4,2.5025,0.8355044447452347,-0.005686364040326973,0.5378499138483239,0.0034783706832827066,-0.055288,-43.522866
11.185,2.0,1.0,1.0,33.6,34.0,34.0,4.2,3.4,2.505,0.8317960922599699,-0.00579251454714856,0.5434621262947333,0.0034804173173016394,-0.055791,-43.40402
11.185,2.0,1.0,1.0,33.6,34.0,34.0,4.2,3.4,2.5075,0.828033638100406,-0.005900383144978778,0.5490718128684386,0.0034816475376839924,-0.056302,-43.284903
11.185,2.0,1.0,1.0,33.6,34.0,34.0,4.2,3.4,2.51,0.8242165637622922,-0.006010001223804226,0.5546786821224804,0.00348203345303371,-0.056822,-43.165506
11.185,2.0,1.0,1.0,33.6,34.0,34.0,4.2,3.4,2.5125,0.8203443432394475,-0.006121400917195278,0.5602824342052842,0.003481546234024197,-0.057351,-43.045821
11.185,2.0,1.0,1.0,33.6,34.0,34.0,4.2,3.4,2.515,0.8164164429265579,-0.00623461512441793,0.5658827606032841,0.003480156077302876,-0.057889,-42.925839
11.185,2.0,1.0,1.0,33.6,34.0,34.0,4.2,3.4,2.5175,0.8124323215215915,-0.006349677533359582,0.5714793438755819,0.003477832167791618,-0.058435,-42.80555
11.185,2.0,1.0,1.0,33.6,34.0,34.0,4.2,3.4,2.52,0.8083914299278663,-0.006466622644305589,0.5770718573803959,0.0034745426393005215,-0.058991,-42.684946
11.185,2.0,1.0,1.0,33.6,34.0,34.0,4.2,3.4,2.5225,0.8042932111558448,-0.0065854857946050505,0.5826599649930022,0.003470254533367136,-0.059557,-42.564017
11.185,2.0,1.0,1.0,33.6,34.0,34.0,4.2,3.4,2.525,0.8001371002246923,-0.006706303184266844,0.5882433208149074,0.0034649337562286733,-0.060132,-42.442755
11.185,2.0,1.0,1.0,33.6,34.0,34.0,4.2,3.4,2.5275,0.795922524063667,-0.006829111902529076,0.5938215688739462,0.0034585450338284482,-0.060717,-42.32115
11.185,2.0,1.0,1.0,33.6,34.0,34.0,4.2,3.4,2.53,0.7916489014134074,-0.006953949955446937,0.5993943428149973,0.0034510518647522127,-0.061312,-42.199191
11.185,2.0,1.0,1.0,33.6,34.0,34.0,4.2,3.4,2.5325,0.7873156427271802,-0.007080856294547388,0.6049612655810038,0.003442416470983431,-0.061918,-42.076871
11.185,2.0,1.0,1.0,33.6,34.0,34.0,4.2,3.4,2.535,0.7829221500721583,-0.007209870846600915,0.6105219490839691,0.0034325997463597584,-0.062534,-41.954178
11.185,2.0,1.0,1.0,33.6,34.0,34.0,4.2,3.4,2.5375,0.7784678170308115,-0.007341034544563934,0.6160759938655783,0.003421561202605515,-0.063162,-41.831103
11.185,2.0,1.0,1.0,33.6,34.0,34.0,4.2,3.4,2.54,0.7739520286024814,-0.007474389359748205,0.6216229887470969,0.003409258912807182,-0.0638,-41.707635
11.185,2.0,1.0,1.0,33.6,34.0,34.0,4.2,3.4,2.5425,0.769374161105226,-0.007609978335277215,0.6271625104681714,0.0033956494521904263,-0.06445,-41.583765
11.185,2.0,1.0,1.0,33.6,34.0,34.0,4.2,3.4,2.545,0.7647335820780244,-0.007747845620892066,0.6326941233141521,0.003380687836048067,-0.065112,-41.459482
11.185,2.0,1.0,1.0,33.6,34.0,34.0,4.2,3.4,2.5475,0.7600296501834339,-0.007888036509174261,0.638217378731523,0.0033643274546585867,-0.065785,-41.334774
11.185,2.0,1.0,1.0,33.6,34.0,34.0,4.2,3.4,2.55,0.7552617151107902,-0.008030597473255581,0.6437318149310454,0.003346520005024695,-0.066471,-41.209633
11.185,2.0,1.0,1.0,33.6,34.0,34.0,4.2,3.4,2.5525,0.7504291174800698,-0.008175576206089823,0.6492369564781499,0.0033272154192495822,-0.06717,-41.084045
11.185,2.0,1.0,1.0,33.6,34.0,34.0,4.2,3.4,2.555,0.7455311887465016,-0.008323021661365726,0.6547323138701503,0.003306361789357087,-0.067882,-40.958001
11.185,2.0,1.0,1.0,33.6,34.0,34.0,4.2,3.4,2.5575,0.7405672511060528,-0.008472984096144994,0.6602173830997928,0.0032839052883484993,-0.068607,-40.831488
11.185,2.0,1.0,1.0,33.6,34.0,34.0,4.2,3.4,2.56,0.7355366174019069,-0.008625515115314092,0.6656916452046512,0.003259790087275001,-0.069345,-40.704496
11.185,2.0,1.0,1.0,33.6,34.0,34.0,4.2,3.4,2.5625,0.7304385910320549,-0.008780667717944142,0.6711545658018514,0.0032339582680897708,-0.070098,-40.577011
11.185,2.0,1.0,1.0,33.6,34.0,34.0,4.2,3.4,2.565,0.7252724658581233,-0.008938496345659006,0.6766055946075941,0.003206349732026901,-0.070864,-40.449023
11.185,2.0,1.0,1.0,33.6,34.0,34.0,4.2,3.4,2.5675,0.7200375261155917,-0.009099056933117305,0.682044164940905,0.0031769021032379352,-0.071646,-40.320519
11.185,2.0,1.0,1.0,33.6,34.0,34.0,4.2,3.4,2.57,0.7147330463255184,-0.009262406960721364,0.687469693211033,0.003145550627396461,-0.072442,-40.191486
11.185,2.0,1.0,1.0,33.6,34.0,34.0,4.2,3.4,2.5725,0.709358291207939,-0.0094286055096722,0.6928815783878816,0.003112228064962179,-0.073254,-40.061911
11.185,2.0,1.0,1.0,33.6,34.0,34.0,4.2,3.4,2.575,0.7039125155970798,-0.009597713319497806,0.698279201454827,0.00307686457877287,-0.074082,-39.931781
11.185,2.0,1.0,1.0,33.6,34.0,34.0,4.2,3.4,2.5775,0.6983949643585512,-0.00976979284818958,0.7036619248432525,0.0030393876156091285,-0.074926,-39.801084
11.185,2.0,1.0,1.0,33.6,34.0,34.0,4.2,3.4,2.58,0.6928048723086876,-0.00994490833509009,0.7090290918480895,0.002999721781351158,-0.075787,-39.669804
11.185,2.0,1.0,1.0,33.6,34.0,34.0,4.2,3.4,2.5825,0.6871414641361996,-0.01012312586668531,0.714380026023628,0.0029577887093184636,-0.076665,-39.537929
11.185,2.0,1.0,1.0,33.6,34.0,34.0,4.2,3.4,2.585,0.6814039543263232,-0.010304513445462809,0.7197140305588156,0.0029135069213536077,-0.07756,-39.405444
11.185,2.0,1.0,1.0,33.6,34.0,34.0,4.2,3.4,2.5875,0.6755915470876444,-0.010489141062009343,0.7250303876312277,0.0028667916811778386,-0.078474,-39.272335
11.185,2.0,1.0,1.0,33.6,34.0,34.0,4.2,3.4,2.59,0.6697034362817966,-0.010677080770530981,0.7303283577388481,0.00281755483951108,-0.079406,-39.138585
11.185,2.0,1.0,1.0,33.6,34.0,34.0,4.2,3.4,2.5925,0.6637388053562205,-0.010868406767992337,0.735607179008754,0.002765704670409933,-0.080358,-39.004181
11.185,2.0,1.0,1.0,33.6,34.0,34.0,4.2,3.4,2.595,0.6576968272802012,-0.011063195477082543,0.7408660664817459,0.0027111456982354784,-0.081329,-38.869107
11.185,2.0,1.0,1.0,33.6,34.0,34.0,4.2,3.4,2.5975,0.6515766644843769,-0.01126152563323115,0.7461042113719226,0.0026537785146167224,-0.08232,-38.733346
11.185,2.0,1.0,1.0,33.6,34.0,34.0,4.2,3.4,2.6,0.6453774688039435,-0.011463478375910415,0.7513207803001319,0.002593499584725939,-0.083332,-38.596882
11.185,2.0,1.0,1.0,33.6,34.0,34.0,4.2,3.4,2.6025,0.63909838142578,-0.011669137344476681,0.7565149145001665,0.0025302010421277563,-0.084366,-38.459698
11.185,2.0,1.0,1.0,33.6,34.0,34.0,4.2,3.4,2.605,0.6327385328397079,-0.0118785887788206,0.761685728996527,0.0024637704714052123,-0.085421,-38.321777
11.185,2.0,1.0,1.0,33.6,34.0,34.0,4.2,3.4,2.6075,0.6262970427941276,-0.01209192162511384,0.7668323117524768,0.0023940906777007867,-0.0865,-38.1831
11.185,2.0,1.0,1.0,33.6,34.0,34.0,4.2,3.4,2.61,0.619773020256265,-0.012309227646958949,0.7719537227870547,0.00232103944224086,-0.087601,-38.043651
11.185,2.0,1.0,1.0,33.6,34.0,34.0,4.2,3.4,2.6125,0.6131655633772648,-0.012530601542270654,0.7770489932596218,0.002244489262834393,-0.088727,-37.90341
11.185,2.0,1.0,1.0,33.6,34.0,34.0,4.2,3.4,2.615,0.6064737594623756,-0.012756141066238257,0.7821171245204375,0.002164307078253288,-0.089877,-37.762358
11.185,2.0,1.0,1.0,33.6,34.0,34.0,4.2,3.4,2.6175,0.5996966849464799,-0.012985947160743335,0.7871570871256369,0.0020803539753088737,-0.091054,-37.620476
11.185,2.0,1.0,1.0,33.6,34.0,34.0,4.2,3.4,2.62,0.5928334053752093,-0.013220124090632134,0.7921678198149079,0.001992484877339124,-0.092256,-37.477742
11.185,2.0,1.0,1.0,33.6,34.0,34.0,4.2,3.4,2.6225,0.5858829753918988,-0.013458779587269641,0.7971482284500289,0.0019005482127095873,-0.093486,-37.334136
11.185,2.0,1.0,1.0,33.6,34.0,34.0,4.2,3.4,2.625,0.578844438730642,-0.0137020249998318,0.802097184912297,0.00180438556181046,-0.094743,-37.189637
11.185,2.0,1.0,1.0,33.6,34.0,34.0,4.2,3.4,2.6275,0.5717168282156767,-0.013949975454823833,0.8070135259567646,0.0017038312808983678,-0.09603,-37.044222
11.185,2.0,1.0,1.0,33.6,34.0,34.0,4.2,3.4,2.63,0.5644991657673725,-0.014202750024346098,0.8118960520210172,0.0015987121009846483,-0.097346,-36.897869
11.185,2.0,1.0,1.0,33.6,34.0,34.0,4.2,3.4,2.6325,0.557190462415051,-0.014460471903665732,0.8167435259860859,0.0014888466998113175,-0.098694,-36.750555
11.185,2.0,1.0,1.0,33.6,34.0,34.0,4.2,3.4,2.635,0.5497897183168888,-0.014723268598690381,0.821554671886888,0.00137404524477677,-0.100073,-36.602254
11.185,2.0,1.0,1.0,33.6,34.0,34.0,4.2,3.4,2.6375,0.5422959227871449,-0.014991272123981847,0.8263281735693976,0.0012541089044787533,-0.101485,-36.452943
11.185,2.0,1.0,1.0,33.6,34.0,34.0,4.2,3.4,2.64,0.5347080543309217,-0.015264619211992387,0.8310626732915319,0.001128829326324102,-0.102931,-36.302595
11.185,2.0,1.0,1.0,33.6,34.0,34.0,4.2,3.4,2.6425,0.5270250806867017,-0.015543451534252945,0.8357567702644818,0.0009979880774167312,-0.104413,-36.151184
11.185,2.0,1.0,1.0,33.6,34.0,34.0,4.2,3.4,2.645,0.5192459588768522,-0.015827915935293323,0.8404090191309614,0.0008613560456702089,-0.10593,-35.998682
11.185,2.0,1.0,1.0,33.6,34.0,34.0,4.2,3.4,2.6475,0.5113696352663035,-0.016118164680128364,0.8450179283765484,0.0007186927977981559,-0.107486,-35.845062
11.185,2.0,1.0,1.0,33.6,34.0,34.0,4.2,3.4,2.65,0.5033950456295578,-0.01641435571620189,0.8495819586699683,0.0005697458905114369,-0.109081,-35.690294
11.185,2.0,1.0,1.0,33.6,34.0,34.0,4.2,3.4,2.6525,0.4953211152262225,-0.016716652950739423,0.8540995211277903,0.0004142501308901789,-0.110716,-35.534347
11.185,2.0,1.0,1.0,33.6,34.0,34.0,4.2,3.4,2.655,0.48714675888516906,-0.017025226544528173,0.858568975498637,0.0002519267814983745,-0.112393,-35.377191
11.185,2.0,1.0,1.0,33.6,34.0,34.0,4.2,3.4,2.6575,0.47887088109745535,-0.017340253223208348,0.8629886282615274,8.248270536322948e-05,-0.114113,-35.218793
11.185,2.0,1.0,1.0,33.6,34.0,34.0,4.2,3.4,2.66,0.470492376118088,-0.017661916607234703,0.8673567306325014,-9.43905545540072e-05,-0.115879,-35.059119
11.185,2.0,1.0,1.0,33.6,34.0,34.0,4.2,3.4,2.6625,0.4620101280766909,-0.017990407561741407,0.8716714764730972,-0.00027901776732282063,-0.117691,-34.898135
11.185,2.0,1.0,1.0,33.6,34.0,34.0,4.2,3.4,2.665,0.4534230110970902,-0.01832592456762472,0.8759310000936646,-0.0004717410839876491,-0.119552,-34.735805
11.185,2.0,1.0,1.0,33.6,34.0,34.0,4.2,3.4,2.6675,0.44472988942582603,-0.018668674115240362,0.8801333739437731,-0.0006729211927254126,-0.121464,-34.572091
11.185,2.0,1.0,1.0,33.6,34.0,34.0,4.2,3.4,2.67,0.435929617569528,-0.019018871122199698,0.8842766061812264,-0.000882938567222344,-0.123428,-34.406955
11.185,2.0,1.0,1.0,33.6,34.0,34.0,4.2,3.4,2.6725,0.42702104044107064,-0.01937673937683796,0.8883586381103202,-0.0011021948171416667,-0.125447,-34.240357
11.185,2.0,1.0,1.0,33.6,34.0,34.0,4.2,3.4,2.675,0.4180029935143888,-0.019742512009019067,0.892377341479007,-0.0013311141505234197,-0.127522,-34.072254
11.185,2.0,1.0,1.0,33.6,34.0,34.0,4.2,3.4,2.6775,0.4088743029877784,-0.020116431990034392,0.896330515623541,-0.0015701449590494684,-0.129657,-33.902603
11.185,2.0,1.0,1.0,33.6,34.0,34.0,4.2,3.4,2.68,0.3996337859554708,-0.02049875266344439,0.9002158844479526,-0.0018197615383330479,-0.131854,-33.731359
11.185,2.0,1.0,1.0,33.6,34.0,34.0,4.2,3.4,2.6825,0.3902802505872451,-0.020889738308802825,0.9040310932243085,-0.002080465956775258,-0.134115,-33.558476
11.185,2.0,1.0,1.0,33.6,34.0,34.0,4.2,3.4,2.685,0.380812496315782,-0.021289664740289538,0.9077737051981614,-0.0023527900880901155,-0.136443,-33.383904
11.185,2.0,1.0,1.0,33.6,34.0,34.0,4.2,3.4,2.6875,0.3712293140314568,-0.02169881994235594,0.9114411979818137,-0.00263729782436418,-0.138841,-33.207592
11.185,2.0,1.0,1.0,33.6,34.0,34.0,4.2,3.4,2.69,0.3615294862842567,-0.022117504744555972,0.9150309597160301,-0.00293458748850874,-0.141313,-33.029488
11.185,2.0,1.0,1.0,33.6,34.0,34.0,4.2,3.4,2.6925,0.35171178749247256,-0.022546033537788255,0.9185402849785582,-0.003245294467227693,-0.143861,-32.849535
11.185,2.0,1.0,1.0,33.6,34.0,34.0,4.2,3.4,2.695,0.34177498415788987,-0.022984735034203986,0.9219663704152394,-0.0035700940881870057,-0.146489,-32.667677
11.185,2.0,1.0,1.0,33.6,34.0,34.0,4.2,3.4,2.6975,0.3317178350871883,-0.023433953073038808,0.9253063100665647,-0.003909704767994299,-0.149202,-32.483853
11.185,2.0,1.0,1.0,33.6,34.0,34.0,4.2,3.4,2.7,0.32153909161941047,-0.023894047474585022,0.9285570903591791,-0.004264891460919083,-0.152002,-32.298001
11.185,2.0,1.0,1.0,33.6,34.0,34.0,4.2,3.4,2.7025,0.3112374978594398,-0.02436539494443362,0.9317155847280353,-0.004636469442079345,-0.154895,-32.110053
11.185,2.0,1.0,1.0,33.6,34.0,34.0,4.2,3.4,2.705,0.300811790917678,-0.024848390029953787,0.9347785478305215,-0.0050253084631538625,-0.157884,-31.919943
11.185,2.0,1.0,1.0,33.6,34.0,34.0,4.2,3.4,2.7075,0.29026070115636454,-0.02534344613073439,0.9377426093089017,-0.005432337323645293,-0.160976,-31.727596
11.185,2.0,1.0,1.0,33.6,34.0,34.0,4.2,3.4,2.71,0.27958295244341114,-0.02585099656435011,0.9406042670516614,-0.005858548906411158,-0.164175,-31.532939
11.185,2.0,1.0,1.0,33.6,34.0,34.0,4.2,3.4,2.7125,0.26877726241513145,-0.026371495688314227,0.9433598798977703,-0.006305005732724644,-0.167486,-31.335893
11.185,2.0,1.0,1.0,33.6,34.0,34.0,4.2,3.4,2.715,0.25784234274999995,-0.0269054200783898,0.9460056597202608,-0.006772846099660535,-0.170916,-31.136373
11.185,2.0,1.0,1.0,33.6,34.0,34.0,4.2,3.4,2.7175,0.2467768994564987,-0.02745326976250708,0.948537662816774,-0.007263290871293603,-0.174472,-30.934293
11.185,2.0,1.0,1.0,33.6,34.0,34.0,4.2,3.4,2.72,0.23557963317938918,-0.02801556950831402,0.9509517805245651,-0.007777651005244069,-0.178161,-30.729563
11.185,2.0,1.0,1.0,33.6,34.0,34.0,4.2,3.4,2.7225,0.22424923953031922,-0.028592870160783688,0.9532437289657392,-0.008317335907745166,-0.181989,-30.522085
11.185,2.0,1.0,1.0,33.6,34.0,34.0,4.2,3.4,2.725,0.21278440945084826,-0.029185750024215106,0.9554090378148243,-0.008883862723915711,-0.185966,-30.311758
11.185,2.0,1.0,1.0,33.6,34.0,34.0,4.2,3.4,2.7275,0.20118382961858827,-0.02979481628027186,0.9574430379649387,-0.009478866685641761,-0.1901,-30.098477
11.185,2.0,1.0,1.0,33.6,34.0,34.0,4.2,3.4,2.73,0.18944618291072132,-0.030420706430223012,0.9593408479502887,-0.010104112657791563,-0.1944,-29.882129
11.185,2.0,1.0,1.0,33.6,34.0,34.0,4.2,3.4,2.7325,0.17757014894353862,-0.031064089745095516,0.9610973589611179,-0.010761508044904156,-0.198878,-29.662596
11.185,2.0,1.0,1.0,33.6,34.0,34.0,4.2,3.4,2.735,0.1655544047124071,-0.03172566870172576,0.9627072182618828,-0.011453117245568618,-0.203545,-29.439753
11.185,2.0,1.0,1.0,33.6,34.0,34.0,4.2,3.4,2.7375,0.1533976253638169,-0.032406180375388206,0.9641648107937006,-0.01218117787115453,-0.208412,-29.213469
11.185,2.0,1.0,1.0,33.6,34.0,34.0,4.2,3.4,2.74,0.14109848514052764,-0.033106397750324576,0.9654642387070989,-0.012948118980201463,-0.213494,-28.983604
11.185,2.0,1.0,1.0,33.6,34.0,34.0,4.2,3.4,2.7425,0.1286556585527174,-0.03382713089754617,0.9665992985298216,-0.013756581620650498,-0.218805,-28.75001
11.185,2.0,1.0,1.0,33.6,34.0,34.0,4.2,3.4,2.745,0.11606782184331195,-0.03456922795399804,0.9675634556255943,-0.014609442020441716,-0.224361,-28.512532
11.185,2.0,1.0,1.0,33.6,34.0,34.0,4.2,3.4,2.7475,0.103333654835163,-0.035333575817616855,0.9683498155418745,-0.015509837824318178,-0.23018,-28.271004
11.185,2.0,1.0,1.0,33.6,34.0,34.0,4.2,3.4,2.75,0.0904518432727603,-0.0361211004477712,0.968951091775788,-0.0164611978428113,-0.236281,-28.025251
11.185,2.0,1.0,1.0,33.6,34.0,34.0,4.2,3.4,2.7525,0.07742108180324347,-0.036932766628437794,0.9693595694054485,-0.01746727586058969,-0.242687,-27.775085
11.185,2.0,1.0,1.0,33.6,34.0,34.0,4.2,3.4,2.755,0.06424007778275179,-0.037769577010178974,0.969567063935875,-0.018532189148395224,-0.249419,-27.520309
11.185,2.0,1.0,1.0,33.6,34.0,34.0,4.2,3.4,2.7575,0.05090755614726001,-0.03863257019381828,0.9695648745913303,-0.01966046243906842,-0.256506,-27.260711
11.185,2.0,1.0,1.0,33.6,34.0,34.0,4.2,3.4,2.76,0.037422265655762225,-0.039522817550064156,0.9693437311449177,-0.020857078267854424,-0.263976,-26.996065
11.185,2.0,1.0,1.0,33.6,34.0,34.0,4.2,3.4,2.7625,0.023782986902481682,-0.040441418380496766,0.968893733206441,-0.022127534745454223,-0.271861,-26.726132
11.185,2.0,1.0,1.0,33.6,34.0,34.0,4.2,3.4,2.765,0.009988542610288953,-0.04138949290998692,0.9682042806845017,-0.023477912035512423,-0.280198,-26.450656
11.185,2.0,1.0,1.0,33.6,34.0,34.0,4.2,3.4,2.7675,-0.003962189132096139,-0.042368172450402156,0.9672639938905694,-0.02491494905430905,-0.289027,-26.16936
11.185,2.0,1.0,1.0,33.6,34.0,34.0,4.2,3.4,2.77,-0.01807025782989529,-0.04337858587911438,0.9660606214515052,-0.026446132209120975,-0.298393,-25.881952
11.185,2.0,1.0,1.0,33.6,34.0,34.0,4.2,3.4,2.7725,-0.03233661862171144,-0.04442184131824682,0.9645809338305878,-0.02807979835513052,-0.308348,-25.588117
11.185,2.0,1.0,1.0,33.6,34.0,34.0,4.2,3.4,2.775,-0.04676210394124608,-0.04549900156130678,0.9628105998103847,-0.029825254593860075,-0.31895,-25.287516
11.185,2.0,1.0,1.0,33.6,34.0,34.0,4.2,3.4,2.7775,-0.06134738689394961,-0.04661105134502377,0.9607340427452536,-0.03169291807736981,-0.330264,-24.979785
11.185,2.0,1.0,1.0,33.6,34.0,34.0,4.2,3.4,2.78,-0.07609293384322063,-0.04775885396777809,0.9583342727240153,-0.03369447964459969,-0.342365,-24.664534
11.185,2.0,1.0,1.0,33.6,34.0,34.0,4.2,3.4,2.7825,-0.09099894290200393,-0.04894309395963241,0.9555926899664183,-0.035843095927014595,-0.355338,-24.34134
11.185,2.0,1.0,1.0,33.6,34.0,34.0,4.2,3.4,2.785,-0.10606526395372541,-0.05016420144030651,0.9524888537766762,-0.03815361555374187,-0.36928,-24.009749
11.185,2.0,1.0,1.0,33.6,34.0,34.0,4.2,3.4,2.7875,-0.12129129438003047,-0.051422252359776516,0.949000210153346,-0.04064284630162043,-0.384304,-23.669267
11.185,2.0,1.0,1.0,33.6,34.0,34.0,4.2,3.4,2.79,-0.1366758427107689,-0.05271683686071952,0.9451017696603422,-0.0433298715195303,-0.400539,-23.319364
11.185,2.0,1.0,1.0,33.6,34.0,34.0,4.2,3.4,2.7925,-0.15221694973464575,-0.054046885334491895,0.9407657253469573,-0.046236425960733483,-0.418136,-22.959462
11.185,2.0,1.0,1.0,33.6,34.0,34.0,4.2,3.4,2.795,-0.16791165293550103,-0.055410438082052114,0.9359609983114183,-0.04938734333525103,-0.437272,-22.588936
11.185,2.0,1.0,1.0,33.6,34.0,34.0,4.2,3.4,2.7975,-0.18375567504746118,-0.056804339438446816,0.930652695885753,-0.05281109049331088,-0.458151,-22.207106
11.185,2.0,1.0,1.0,33.6,34.0,34.0,4.2,3.4,2.8,-0.19974301047785392,-0.05822383020167342,0.9248014643559076,-0.056540406193827136,-0.481017,-21.813234
11.185,2.0,1.0,1.0,33.6,34.0,34.0,4.2,3.4,2.8025,-0.21586537350169116,-0.05966200239970084,0.9183627146542509,-0.06061306586469364,-0.506159,-21.406516
11.185,2.0,1.0,1.0,33.6,34.0,34.0,4.2,3.4,2.805,-0.2321114582891818,-0.06110906664130632,0.91128569572613,-0.06507279747039435,-0.533919,-20.986078
11.185,2.0,1.0,1.0,33.6,34.0,34.0,4.2,3.4,2.8075,-0.24846594125123045,-0.062551362797598,0.90351238667045,-0.06997037717603163,-0.564709,-20.550967
11.185,2.0,1.0,1.0,33.6,34.0,34.0,4.2,3.4,2.81,-0.26490812835211625,-0.06397001703716747,0.8949761761322416,-0.07536493609280147,-0.599027,-20.100149
11.185,2.0,1.0,1.0,33.6,34.0,34.0,4.2,3.4,2.8125,-0.28141011027505,-0.0653391086355873,0.885600297475657,-0.0813255093224648,-0.637479,-19.632499
11.185,2.0,1.0,1.0,33.6,34.0,34.0,4.2,3.4,2.815,-0.2979342313296676,-0.06662315321613782,0.8752959942444095,-0.08793285254579825,-0.680807,-19.146798
11.185,2.0,1.0,1.0,33.6,34.0,34.0,4.2,3.4,2.8175,-0.3144295961715778,-0.06777362759566948,0.863960408443033,-0.09528153342951586,-0.729924,-18.641732
11.185,2.0,1.0,1.0,33.6,34.0,34.0,4.2,3.4,2.82,-0.3308272211429736,-0.06872414463079597,0.851474225589737,-0.10348226386470812,-0.785971,-18.115894
11.185,2.0,1.0,1.0,33.6,34.0,34.0,4.2,3.4,2.8225,-0.34703327009645973,-0.06938372019799985,0.8376991961332003,-0.11266435375734814,-0.850373,-17.567794
11.185,2.0,1.0,1.0,33.6,34.0,34.0,4.2,3.4,2.825,-0.3629195804224283,-0.06962734125197169,0.8224758206695609,-0.12297799995966076,-0.924935,-16.995881
11.185,2.0,1.0,1.0,33.6,34.0,34.0,4.2,3.4,2.8275,-0.3783103663437867,-0.06928272651981868,0.8056218050993981,-0.13459580660957537,-1.011952,-16.398588
