1,w,sub_t,h,l1,l2,l3,g1,g2,Freq,S11_re,S21_re,S11_img,S21_img,S11_dB,S21_dB
11.185,2.0,1.0,1.0,34.5,34.9,34.9,4.0,3.0,2.5,0.696862152404365,-0.0125965775305916,0.70472890580377,0.00489699051756957,-0.077737,-37.383701
11.185,2.0,1.0,1.0,34.5,34.9,34.9,4.0,3.0,2.5025,0.6909946789638207,-0.01284814311977004,0.7103259444320698,0.004864444408334907,-0.078723,-37.241416
11.185,2.0,1.0,1.0,34.5,34.9,34.9,4.0,3.0,2.505,0.6850479510286156,-0.013105180622738823,0.7159033864915829,0.004829136472377723,-0.079733,-37.098177
11.185,2.0,1.0,1.0,34.5,34.9,34.9,4.0,3.0,2.5075,0.6790211065108973,-0.013367853622366213,0.7214604179748125,0.004790947426687541,-0.080766,-36.95396
11.185,2.0,1.0,1.0,34.5,34.9,34.9,4.0,3.0,2.51,0.672913269772626,-0.013636332612863785,0.7269962001630589,0.004749752037801208,-0.081824,-36.808737
11.185,2.0,1.0,1.0,34.5,34.9,34.9,4.0,3.0,2.5125,0.666723551308194,-0.013910795380931686,0.7325098687550616,0.004705418754135697,-0.082907,-36.662481
11.185,2.0,1.0,1.0,34.5,34.9,34.9,4.0,3.0,2.515,0.6604510474094836,-0.014191427412619306,0.7380005329554257,0.004657809310691033,-0.084017,-36.515164
11.185,2.0,1.0,1.0,34.5,34.9,34.9,4.0,3.0,2.5175,0.6540948398117696,-0.014478422327931985,0.743467274520098,0.004606778303670567,-0.085154,-36.366755
11.185,2.0,1.0,1.0,34.5,34.9,34.9,4.0,3.0,2.52,0.6476539953186778,-0.014771982345399119,0.7489091467559567,0.004552172732314527,-0.086319,-36.217225
11.185,2.0,1.0,1.0,34.5,34.9,34.9,4.0,3.0,2.5225,0.6411275654042682,-0.015072318779018717,0.754325173471232,0.004493831504963008,-0.087513,-36.066542
11.185,2.0,1.0,1.0,34.5,34.9,34.9,4.0,3.0,2.525,0.634514585790063,-0.015379652570216392,0.7597143478732326,0.004431584906052479,-0.088738,-35.914672
11.185,2.0,1.0,1.0,34.5,34.9,34.9,4.0,3.0,2.5275,0.6278140759946491,-0.015694214857701085,0.7650756314094568,0.004365254020399155,-0.089994,-35.761583
11.185,2.0,1.0,1.0,34.5,34.9,34.9,4.0,3.0,2.53,0.6210250388532293,-0.01601624758836868,0.7704079525477839,0.004294650110732492,-0.091284,-35.607238
11.185,2.0,1.0,1.0,34.5,34.9,34.9,4.0,3.0,2.5325,0.6141464600042108,-0.016346004172704622,0.7757102054910232,0.0042195739440016216,-0.092607,-35.451602
11.185,2.0,1.0,1.0,34.5,34.9,34.9,4.0,3.0,2.535,0.6071773073396167,-0.01668375018846467,0.7809812488205865,0.004139815061485412,-0.093966,-35.294637
11.185,2.0,1.0,1.0,34.5,34.9,34.9,4.0,3.0,2.5375,0.6001165304157804,-0.017029764136778047,0.7862199040635024,0.004055150987181833,-0.095361,-35.136303
11.185,2.0,1.0,1.0,34.5,34.9,34.9,4.0,3.0,2.54,0.5929630598203764,-0.017384338255222526,0.7914249541763855,0.003965346368327949,-0.096795,-34.976559
11.185,2.0,1.0,1.0,34.5,34.9,34.9,4.0,3.0,2.5425,0.5857158064914414,-0.01774777939286671,0.7965951419392501,0.00387015204119787,-0.098269,-34.815364
11.185,2.0,1.0,1.0,34.5,34.9,34.9,4.0,3.0,2.545,0.5783736609835557,-0.018120409952774374,0.8017291682512953,0.0037693040145301126,-0.099784,-34.652673
11.185,2.0,1.0,1.0,34.5,34.9,34.9,4.0,3.0,2.5475,0.5709354926758535,-0.018502568908015653,0.8068256903198638,0.003662522362035946,-0.101343,-34.48844
11.185,2.0,1.0,1.0,34.5,34.9,34.9,4.0,3.0,2.55,0.5634001489158988,-0.018894612897846073,0.8118833197328075,0.003549510014421185,-0.102947,-34.322617
11.185,2.0,1.0,1.0,34.5,34.9,34.9,4.0,3.0,2.5525,0.5557664540928796,-0.019296917411394846,0.8169006204032999,0.0034299514401959406,-0.104599,-34.155155
11.185,2.0,1.0,1.0,34.5,34.9,34.9,4.0,3.0,2.555,0.5480332086327784,-0.019709878066968504,0.8218761063748753,0.003303511203231818,-0.1063,-33.986001
11.185,2.0,1.0,1.0,34.5,34.9,34.9,4.0,3.0,2.5575,0.5401991879073985,-0.020133911995920968,0.8268082394729657,0.003169832383527771,-0.108052,-33.815102
11.185,2.0,1.0,1.0,34.5,34.9,34.9,4.0,3.0,2.56,0.5322631410482134,-0.02056945934099056,0.8316954267875204,0.003028534845937393,-0.109859,-33.642402
11.185,2.0,1.0,1.0,34.5,34.9,34.9,4.0,3.0,2.5625,0.5242237896549744,-0.021016984880060544,0.836536017969366,0.0028792133396570896,-0.111722,-33.467841
11.185,2.0,1.0,1.0,34.5,34.9,34.9,4.0,3.0,2.565,0.5160798263878659,-0.0214769797874841,0.841328302320755,0.0027214354090389662,-0.113645,-33.291357
11.185,2.0,1.0,1.0,34.5,34.9,34.9,4.0,3.0,2.5675,0.5078299134307402,-0.021949963546434765,0.846070505657996,0.0025547390937280764,-0.11563,-33.112887
11.185,2.0,1.0,1.0,34.5,34.9,34.9,4.0,3.0,2.57,0.4994726808114964,-0.022436486027228777,0.8507607869211748,0.002378630393175245,-0.117681,-32.932363
11.185,2.0,1.0,1.0,34.5,34.9,34.9,4.0,3.0,2.5725,0.4910067245640675,-0.022937129748222942,0.855397234502591,0.002192580467183082,-0.1198,-32.749715
11.185,2.0,1.0,1.0,34.5,34.9,34.9,4.0,3.0,2.575,0.48243060471467275,-0.023452512337756876,0.8599778622616777,0.001996022540224617,-0.121992,-32.564868
11.185,2.0,1.0,1.0,34.5,34.9,34.9,4.0,3.0,2.5775,0.4737428430729444,-0.023983289217696192,0.8645006051896896,0.001788348472745251,-0.12426,-32.377745
11.185,2.0,1.0,1.0,34.5,34.9,34.9,4.0,3.0,2.58,0.4649419208062577,-0.024530156531482952,0.8689633146822532,0.0015689049574072343,-0.126608,-32.188264
11.185,2.0,1.0,1.0,34.5,34.9,34.9,4.0,3.0,2.5825,0.4560262757729963,-0.025093854342236873,0.8733637533718538,0.0013369892921379913,-0.129041,-31.996342
11.185,2.0,1.0,1.0,34.5,34.9,34.9,4.0,3.0,2.585,0.4469942995876185,-0.025675170129414802,0.877699589465303,0.001091844674743761,-0.131564,-31.801887
11.185,2.0,1.0,1.0,34.5,34.9,34.9,4.0,3.0,2.5875,0.43784433438708564,-0.02627494261587213,0.8819683905230608,0.0008326549555630982,-0.134182,-31.604805
11.185,2.0,1.0,1.0,34.5,34.9,34.9,4.0,3.0,2.59,0.42857466926458726,-0.02689406596091667,0.8861676166076915,0.0005585387749418465,-0.1369,-31.404998
11.185,2.0,1.0,1.0,34.5,34.9,34.9,4.0,3.0,2.5925,0.41918353633231664,-0.027533494359163694,0.8902946127175132,0.00026854300094069185,-0.139724,-31.20236
11.185,2.0,1.0,1.0,34.5,34.9,34.9,4.0,3.0,2.595,0.40966910637046244,-0.028194247089736387,0.8943466004082715,-3.836463068126349e-05,-0.142662,-30.996782
11.185,2.0,1.0,1.0,34.5,34.9,34.9,4.0,3.0,2.5975,0.40002948401429106,-0.02887741406568391,0.8983206684901341,-0.00036330378792895417,-0.145719,-30.788147
11.185,2.0,1.0,1.0,34.5,34.9,34.9,4.0,3.0,2.6,0.39026270242538863,-0.029584161939456816,0.9022137626688549,-0.0007074908578370436,-0.148904,-30.576332
11.185,2.0,1.0,1.0,34.5,34.9,34.9,4.0,3.0,2.6025,0.38036671738654415,-0.03031574082697664,0.9060226739781477,-0.001072249459995711,-0.152226,-30.361207
11.185,2.0,1.0,1.0,34.5,34.9,34.9,4.0,3.0,2.605,0.37033940075238597,-0.03107349172031662,0.9097440258243651,-0.0014590223390717632,-0.155692,-30.142635
11.185,2.0,1.0,1.0,34.5,34.9,34.9,4.0,3.0,2.6075,0.36017853317972937,-0.031858854667351395,0.9133742594336047,-0.0018693848484078036,-0.159315,-29.92047
11.185,2.0,1.0,1.0,34.5,34.9,34.9,4.0,3.0,2.61,0.3498817960524781,-0.03267337780599397,0.9169096174543467,-0.0023050602742886415,-0.163103,-29.694558
11.185,2.0,1.0,1.0,34.5,34.9,34.9,4.0,3.0,2.6125,0.3394467625058831,-0.033518727350862206,0.9203461254242575,-0.0027679372954915182,-0.167071,-29.464734
11.185,2.0,1.0,1.0,34.5,34.9,34.9,4.0,3.0,2.615,0.32887088744396137,-0.03439669864142816,0.9236795707562725,-0.0032600899269695487,-0.17123,-29.230826
11.185,2.0,1.0,1.0,34.5,34.9,34.9,4.0,3.0,2.6175,0.31815149643194873,-0.03530922837286378,0.9269054788343526,-0.0037838003620634703,-0.175595,-28.992647
11.185,2.0,1.0,1.0,34.5,34.9,34.9,4.0,3.0,2.62,0.3072857733328778,-0.03625840814381912,0.9300190857308447,-0.0043415852071442265,-0.180184,-28.75
11.185,2.0,1.0,1.0,34.5,34.9,34.9,4.0,3.0,2.6225,0.2962707465439821,-0.03724649946903033,0.9330153069618553,-0.004936225699382343,-0.185013,-28.502674
11.185,2.0,1.0,1.0,34.5,34.9,34.9,4.0,3.0,2.625,0.285103273675036,-0.0382759504185661,0.935888701580303,-0.00557080261662428,-0.190102,-28.250445
11.185,2.0,1.0,1.0,34.5,34.9,34.9,4.0,3.0,2.6275,0.2737800244974716,-0.03934941405906333,0.9386334307631495,-0.006248736733487602,-0.195475,-27.993073
11.185,2.0,1.0,1.0,34.5,34.9,34.9,4.0,3.0,2.63,0.2622974619813613,-0.04046976888441514,0.9412432098729022,-0.006973835856557208,-0.201155,-27.7303
11.185,2.0,1.0,1.0,34.5,34.9,34.9,4.0,3.0,2.6325,0.250651821228534,-0.04164014143250569,0.9437112527553296,-0.007750349692724056,-0.20717,-27.46185
11.185,2.0,1.0,1.0,34.5,34.9,34.9,4.0,3.0,2.635,0.23883908610670765,-0.04286393128827758,0.9460302067643127,-0.008583034079465274,-0.213552,-27.187427
11.185,2.0,1.0,1.0,34.5,34.9,34.9,4.0,3.0,2.6375,0.22685496339515637,-0.04414483866803067,0.9481920766665689,-0.009477226448750115,-0.220335,-26.906713
11.185,2.0,1.0,1.0,34.5,34.9,34.9,4.0,3.0,2.64,0.2146948542724907,-0.04548689475989937,0.9501881351550732,-0.010438934826120495,-0.22756,-26.619364
11.185,2.0,1.0,1.0,34.5,34.9,34.9,4.0,3.0,2.6425,0.20235382301978808,-0.046894494952762426,0.9520088171660874,-0.011474943207936654,-0.235272,-26.32501
11.185,2.0,1.0,1.0,34.5,34.9,34.9,4.0,3.0,2.645,0.1898265628894488,-0.04837243500826343,0.9536435945190336,-0.012592936845076376,-0.243521,-26.023251
11.185,2.0,1.0,1.0,34.5,34.9,34.9,4.0,3.0,2.6475,0.1771073592197733,-0.04992595010006663,0.9550808265391058,-0.013801651833026318,-0.252367,-25.713654
11.185,2.0,1.0,1.0,34.5,34.9,34.9,4.0,3.0,2.65,0.16419005008388163,-0.05156075643401134,0.9563075812240867,-0.015111054522585723,-0.261877,-25.395749
11.185,2.0,1.0,1.0,34.5,34.9,34.9,4.0,3.0,2.6525,0.15106798508910715,-0.05328309483221674,0.9573094201056309,-0.016532557697119254,-0.272128,-25.069027
11.185,2.0,1.0,1.0,34.5,34.9,34.9,4.0,3.0,2.655,0.1377339834487028,-0.05509977515317505,0.958070138132875,-0.018079282311384254,-0.283211,-24.732931
11.185,2.0,1.0,1.0,34.5,34.9,34.9,4.0,3.0,2.6575,0.12418029322152241,-0.05701821963764338,0.9585714475407654,-0.019766375987304262,-0.29523,-24.386855
11.185,2.0,1.0,1.0,34.5,34.9,34.9,4.0,3.0,2.66,0.11039855479267532,-0.05904650207938216,0.958792591579593,-0.021611402593805017,-0.308306,-24.030136
11.185,2.0,1.0,1.0,34.5,34.9,34.9,4.0,3.0,2.6625,0.0963797734556114,-0.06119337791126953,0.9587098699369139,-0.023634821343699316,-0.322585,-23.66205
11.185,2.0,1.0,1.0,34.5,34.9,34.9,4.0,3.0,2.665,0.08211430867013804,-0.06346829755034687,0.9582960523559038,-0.02586057924812559,-0.338235,-23.2818
11.185,2.0,1.0,1.0,34.5,34.9,34.9,4.0,3.0,2.6675,0.06759189170049126,-0.06588139116450342,0.9575196499109491,-0.02831684791947381,-0.355459,-22.888509
11.185,2.0,1.0,1.0,34.5,34.9,34.9,4.0,3.0,2.67,0.05280168964355224,-0.06844340663752416,0.9563440040594103,-0.031036945199124564,-0.374498,-22.481213
11.185,2.0,1.0,1.0,34.5,34.9,34.9,4.0,3.0,2.6725,0.03773244353452253,-0.07116557270697677,0.9547261411742427,-0.03406049469329778,-0.395645,-22.058846
11.185,2.0,1.0,1.0,34.5,34.9,34.9,4.0,3.0,2.675,0.022372723157940366,-0.07405934411258339,0.9526153237661492,-0.03743489305552582,-0.419254,-21.62023
11.185,2.0,1.0,1.0,34.5,34.9,34.9,4.0,3.0,2.6775,0.006711364419634486,-0.07713596205506075,0.9499512077532328,-0.04121717705335892,-0.445757,-21.16406
11.185,2.0,1.0,1.0,34.5,34.9,34.9,4.0,3.0,2.68,-0.009261808473905135,-0.08040572638202227,0.9466614864269239,-0.045476411632241,-0.47569,-20.688888
11.185,2.0,1.0,1.0,34.5,34.9,34.9,4.0,3.0,2.6825,-0.025554816298020207,-0.08387681764473501,0.9426588646614236,-0.05029675790822818,-0.509718,-20.193112
11.185,2.0,1.0,1.0,34.5,34.9,34.9,4.0,3.0,2.685,-0.042171662248947944,-0.08755341432214364,0.9378371604690842,-0.055781427266127545,-0.548679,-19.674953
11.185,2.0,1.0,1.0,34.5,34.9,34.9,4.0,3.0,2.6875,-0.0591093751401011,-0.0914327013437735,0.932066276426072,-0.062057783312877,-0.593633,-19.13245
11.185,2.0,1.0,1.0,34.5,34.9,34.9,4.0,3.0,2.69,-0.0763533219114585,-0.09550012460327513,0.9251857279249126,-0.06928391013952341,-0.645943,-18.563441
11.185,2.0,1.0,1.0,34.5,34.9,34.9,4.0,3.0,2.6925,-0.09386976558236786,-0.09972185312775884,0.9169963804247436,-0.07765700117231095,-0.707375,-17.965576
11.185,2.0,1.0,1.0,34.5,34.9,34.9,4.0,3.0,2.695,-0.11159401281662122,-0.10403276933437855,0.9072500898885889,-0.08742388114088376,-0.780245,-17.33633
11.185,2.0,1.0,1.0,34.5,34.9,34.9,4.0,3.0,2.6975,-0.12941146863572148,-0.10831726585193915,0.8956371933241235,-0.09889371871869643,-0.867621,-16.673071
11.185,2.0,1.0,1.0,34.5,34.9,34.9,4.0,3.0,2.7,-0.1471272743838806,-0.11237846093720698,0.8817725670461646,-0.11245220777380001,-0.973612,-15.973188
11.185,2.0,1.0,1.0,34.5,34.9,34.9,4.0,3.0,2.7025,-0.1644176823087564,-0.1158888821939158,0.8651829431206132,-0.12857449716628191,-1.103764,-15.234345
11.185,2.0,1.0,1.0,34.5,34.9,34.9,4.0,3.0,2.705,-0.18075278924301405,-0.11831207927539808,0.8453028223956456,-0.14782943841640744,-1.265582,-14.454952
11.185,2.0,1.0,1.0,34.5,34.9,34.9,4.0,3.0,2.7075,-0.19527645584439876,-0.11878075989205884,0.8214966480033611,-0.17085725010384667,-1.469168,-13.635014
11.185,2.0,1.0,1.0,34.5,34.9,34.9,4.0,3.0,2.71,-0.20662910998393044,-0.1159168821636531,0.7931463742517991,-0.19828091400404887,-1.72775,-12.777607
11.185,2.0,1.0,1.0,34.5,34.9,34.9,4.0,3.0,2.7125,-0.21271606975560953,-0.10759626076434627,0.7598835293030455,-0.2304710465131148,-2.057413,-11.891369
11.185,2.0,1.0,1.0,34.5,34.9,34.9,4.0,3.0,2.715,-0.21049405179609393,-0.09073120943182089,0.7221024753721149,-0.2670254373998747,-2.473833,-10.994432
11.185,2.0,1.0,1.0,34.5,34.9,34.9,4.0,3.0,2.7175,-0.19604180204787658,-0.06134080229490433,0.6819138737894063,-0.30580152264510685,-2.980532,-10.119886
11.185,2.0,1.0,1.0,34.5,34.9,34.9,4.0,3.0,2.72,-0.16553722642426463,-0.015540344166075935,0.6444691454149577,-0.3415710583403491,-3.538482,-9.321398
11.185,2.0,1.0,1.0,34.5,34.9,34.9,4.0,3.0,2.7225,-0.11793388837507875,0.047743957896657446,0.6186892696853142,-0.3652765901658814,-4.015544,-8.673994
11.185,2.0,1.0,1.0,34.5,34.9,34.9,4.0,3.0,2.725,-0.058813815606619566,0.12286220834969463,0.6150673329316203,-0.36625537492419286,-4.182017,-8.261202
11.185,2.0,1.0,1.0,34.5,34.9,34.9,4.0,3.0,2.7275,-0.0014144823692595807,0.1963890208929117,0.6392696176811513,-0.33873105895156774,-3.886297,-8.144369
11.185,2.0,1.0,1.0,34.5,34.9,34.9,4.0,3.0,2.73,0.03948020242134133,0.25331429538039535,0.6864498004145334,-0.28759268108041275,-3.253482,-8.330442
11.185,2.0,1.0,1.0,34.5,34.9,34.9,4.0,3.0,2.7325,0.056401454980984075,0.2860398700025726,0.7438096972288409,-0.225809073732308,-2.545863,-8.76774
11.185,2.0,1.0,1.0,34.5,34.9,34.9,4.0,3.0,2.735,0.05136534433284289,0.29659359728098533,0.7989792345857065,-0.1659276141740206,-1.931378,-9.37419
11.185,2.0,1.0,1.0,34.5,34.9,34.9,4.0,3.0,2.7375,0.031179432649515212,0.29187346518615487,0.8451355825144309,-0.11487236141090015,-1.455565,-10.070677
11.185,2.0,1.0,1.0,34.5,34.9,34.9,4.0,3.0,2.74,0.0025850115171443186,0.27871704012699666,0.8805808904099979,-0.07436589317157713,-1.104577,-10.798063
11.185,2.0,1.0,1.0,34.5,34.9,34.9,4.0,3.0,2.7425,-0.02967930046572536,0.261933049222303,0.9063193057869421,-0.04338566792303341,-0.849721,-11.518649
11.185,2.0,1.0,1.0,34.5,34.9,34.9,4.0,3.0,2.745,-0.06283910881747283,0.244337977663567,0.9242006883148284,-0.020047884302722845,-0.664643,-12.211041
11.185,2.0,1.0,1.0,34.5,34.9,34.9,4.0,3.0,2.7475,-0.09546878423794398,0.2273795237433246,0.9360316309946104,-0.0025103901812775415,-0.529245,-12.864444
11.185,2.0,1.0,1.0,34.5,34.9,34.9,4.0,3.0,2.75,-0.12693403270072,0.211701934620501,0.943287064139617,0.0107339969841018,-0.429184,-13.474353
11.185,2.0,1.0,1.0,34.5,34.9,34.9,4.0,3.0,2.7525,-0.15702411139268196,0.1975192159979777,0.9470841221471654,0.02083057389244462,-0.354458,-14.039777
11.185,2.0,1.0,1.0,34.5,34.9,34.9,4.0,3.0,2.755,-0.1857387301574571,0.18483147239476794,0.9482409587466101,0.028622247780551245,-0.298113,-14.561565
11.185,2.0,1.0,1.0,34.5,34.9,34.9,4.0,3.0,2.7575,-0.2131727305759043,0.17354204069367044,0.9473484223491154,0.03472221822155518,-0.25529,-15.04144
11.185,2.0,1.0,1.0,34.5,34.9,34.9,4.0,3.0,2.76,-0.23945649700580704,0.16351805744267975,0.9448314000417664,0.03957625938946616,-0.222555,-15.481455
11.185,2.0,1.0,1.0,34.5,34.9,34.9,4.0,3.0,2.7625,-0.26472654641784754,0.15462038654081803,0.9409955419034516,0.04351022237889834,-0.197453,-15.883701
11.185,2.0,1.0,1.0,34.5,34.9,34.9,4.0,3.0,2.765,-0.2891119676945631,0.14671745124029376,0.9360611290671166,0.046764533107854646,-0.17821,-16.250147
11.185,2.0,1.0,1.0,34.5,34.9,34.9,4.0,3.0,2.7675,-0.3127289773081926,0.1396908220489095,0.9301870966006827,0.049518736411576246,-0.163523,-16.582563
11.185,2.0,1.0,1.0,34.5,34.9,34.9,4.0,3.0,2.77,-0.3356795031752121,0.13343671299606247,0.9234879340601801,0.051908850011336424,-0.152429,-16.882486
11.185,2.0,1.0,1.0,34.5,34.9,34.9,4.0,3.0,2.7725,-0.3580516662734558,0.1278655512554351,0.9160455580778049,0.05403965804808136,-0.144206,-17.151209
11.185,2.0,1.0,1.0,34.5,34.9,34.9,4.0,3.0,2.775,-0.37992106702357037,0.12290073167032671,0.9079176652697177,0.055993482188437776,-0.138311,-17.389785
11.185,2.0,1.0,1.0,34.5,34.9,34.9,4.0,3.0,2.7775,-0.4013523289609478,0.11847711357263345,0.8991436192876507,0.05783651011251055,-0.13433,-17.59903
11.185,2.0,1.0,1.0,34.5,34.9,34.9,4.0,3.0,2.78,-0.4224006370531915,0.11453952777754203,0.8897485979142415,0.05962343177903347,-0.131947,-17.779535
11.185,2.0,1.0,1.0,34.5,34.9,34.9,4.0,3.0,2.7825,-0.4431131550954012,0.11104141193987954,0.8797464967127792,0.06140090520796881,-0.130926,-17.931669
11.185,2.0,1.0,1.0,34.5,34.9,34.9,4.0,3.0,2.785,-0.46353028100710636,0.10794361645411564,0.8691419269856797,0.06321021772347264,-0.131083,-18.05559
11.185,2.0,1.0,1.0,34.5,34.9,34.9,4.0,3.0,2.7875,-0.48368673497205605,0.1052133857260987,0.857931535631964,0.0650894038073977,-0.132285,-18.151245
11.185,2.0,1.0,1.0,34.5,34.9,34.9,4.0,3.0,2.79,-0.5036124913970375,0.1028235023088048,0.8461047968929334,0.06707501134979318,-0.134437,-18.218369
11.185,2.0,1.0,1.0,34.5,34.9,34.9,4.0,3.0,2.7925,-0.523333571185586,0.10075157410851099,0.8336443696100542,0.069203663624108,-0.137475,-18.256486
11.185,2.0,1.0,1.0,34.5,34.9,34.9,4.0,3.0,2.795,-0.5428727107582072,0.09897944221869912,0.8205260704415599,0.07151353799276493,-0.141364,-18.264898
11.185,2.0,1.0,1.0,34.5,34.9,34.9,4.0,3.0,2.7975,-0.5622499209739669,0.09749268585727572,0.8067184775377583,0.07404587016745112,-0.146096,-18.242675
11.185,2.0,1.0,1.0,34.5,34.9,34.9,4.0,3.0,2.8,-0.5814829434769727,0.09628019940384762,0.7921821456443019,0.07684659296943097,-0.15169,-18.188634
11.185,2.0,1.0,1.0,34.5,34.9,34.9,4.0,3.0,2.8025,-0.6005876038035928,0.09533381302750074,0.7768683780118588,0.07996823101337042,-0.158194,-18.101322
11.185,2.0,1.0,1.0,34.5,34.9,34.9,4.0,3.0,2.805,-0.6195780486350008,0.09464792095771297,0.7607174579102792,0.08347219960953671,-0.165686,-17.978977
11.185,2.0,1.0,1.0,34.5,34.9,34.9,4.0,3.0,2.8075,-0.6384668363380034,0.0942190672215417,0.743656186647123,0.08743170196263937,-0.174283,-17.819496
11.185,2.0,1.0,1.0,34.5,34.9,34.9,4.0,3.0,2.81,-0.6572648207379886,0.09404541279967121,0.7255944967120768,0.09193549152654885,-0.184149,-17.620374
11.185,2.0,1.0,1.0,34.5,34.9,34.9,4.0,3.0,2.8125,-0.675980719426886,0.0941259619689019,0.706420794116488,0.0970928798118515,-0.195511,-17.378641
11.185,2.0,1.0,1.0,34.5,34.9,34.9,4.0,3.0,2.815,-0.6946201741767349,0.09445934309411998,0.6859955109470833,0.10304054684675261,-0.208674,-17.090772
11.185,2.0,1.0,1.0,34.5,34.9,34.9,4.0,3.0,2.8175,-0.7131839626574816,0.09504178997479344,0.6641420810131987,0.10995199016262794,-0.224062,-16.752571
11.185,2.0,1.0,1.0,34.5,34.9,34.9,4.0,3.0,2.82,-0.7316647502723487,0.09586369492773772,0.6406341266459552,0.11805089371693478,-0.242258,-16.359021
11.185,2.0,1.0,1.0,34.5,34.9,34.9,4.0,3.0,2.8225,-0.7500412636068702,0.09690358533144958,0.6151769577127665,0.1276304227494085,-0.264083,-15.904079
11.185,2.0,1.0,1.0,34.5,34.9,34.9,4.0,3.0,2.825,-0.7682677845127225,0.09811736449808067,0.5873803518750053,0.13908164958808863,-0.290718,-15.380407
11.185,2.0,1.0,1.0,34.5,34.9,34.9,4.0,3.0,2.8275,-0.786254893333866,0.09941862265690611,0.5567176904297315,0.1529363301546696,-0.323906,-14.779004
11.185,2.0,1.0,1.0,34.5,34.9,34.9,4.0,3.0,2.83,-0.8038332801788352,0.10064156581787127,0.5224633262625441,0.1699326669637895,-0.366297,-14.088704
