1,w,sub_t,h,l1,l2,l3,g1,g2,Freq,S11_re,S21_re,S11_img,S21_img,S11_dB,S21_dB
11.185,2.0,1.0,1.0,33.0,34.0,34.0,4.0,3.5,2.5,0.899771835329837,-0.003956631134593,0.423710678158132,0.00343472721938832,-0.04751,-45.614216
11.185,2.0,1.0,1.0,33.0,34.0,34.0,4.0,3.5,2.5025,0.8971506766425179,-0.004038967155347988,0.42912928231367065,0.0034529624373575993,-0.0479,-45.491937
11.185,2.0,1.0,1.0,33.0,34.0,34.0,4.0,3.5,2.505,0.8944870063286777,-0.004122723765743246,0.4345503504471318,0.0034708808341732777,-0.048296,-45.369456
11.185,2.0,1.0,1.0,33.0,34.0,34.0,4.0,3.5,2.5075,0.891780445035834,-0.004207929000802789,0.43997375251035065,0.0034884690427639774,-0.048699,-45.246763
11.185,2.0,1.0,1.0,33.0,34.0,34.0,4.0,3.5,2.51,0.88903060720399,-0.004294611647987657,0.44539935459420393,0.0035057132240681847,-0.049109,-45.123849
11.185,2.0,1.0,1.0,33.0,34.0,34.0,4.0,3.5,2.5125,0.8862371009530352,-0.004382801272745688,0.4508270187991224,0.0035225990478131,-0.049525,-45.000704
11.185,2.0,1.0,1.0,33.0,34.0,34.0,4.0,3.5,2.515,0.8833995279678257,-0.004472528245118596,0.4562566031013614,0.0035391116723978476,-0.049949,-44.877317
11.185,2.0,1.0,1.0,33.0,34.0,34.0,4.0,3.5,2.5175,0.8805174833808905,-0.004563823767456741,0.4616879612148626,0.0035552357238307236,-0.050379,-44.753678
11.185,2.0,1.0,1.0,33.0,34.0,34.0,4.0,3.5,2.52,0.8775905556526958,-0.004656719903298084,0.4671209424485637,0.003570955273671075,-0.050817,-44.629777
11.185,2.0,1.0,1.0,33.0,34.0,34.0,4.0,3.5,2.5225,0.8746183264494047,-0.0047512496074683976,0.47255539155896487,0.0035862538159203163,-0.051262,-44.505603
11.185,2.0,1.0,1.0,33.0,34.0,34.0,4.0,3.5,2.525,0.8716003705180626,-0.004847446757465783,0.47799114859779934,0.003601114242804419,-0.051715,-44.381147
11.185,2.0,1.0,1.0,33.0,34.0,34.0,4.0,3.5,2.5275,0.8685362555591319,-0.004945346186192856,0.4834280487546159,0.003615518819386531,-0.052176,-44.256397
11.185,2.0,1.0,1.0,33.0,34.0,34.0,4.0,3.5,2.53,0.8654255420963103,-0.005044983716106989,0.488865922194082,0.003629449156944161,-0.052645,-44.131342
11.185,2.0,1.0,1.0,33.0,34.0,34.0,4.0,3.5,2.5325,0.8622677833435455,-0.005146396194861503,0.49430459388781045,0.0036428861850412377,-0.053122,-44.005972
11.185,2.0,1.0,1.0,33.0,34.0,34.0,4.0,3.5,2.535,0.8590625250691688,-0.005249621532514653,0.49974388344050824,0.0036558101222213014,-0.053607,-43.880275
11.185,2.0,1.0,1.0,33.0,34.0,34.0,4.0,3.5,2.5375,0.8558093054570656,-0.005354698740389253,0.5051836049102186,0.0036682004452419786,-0.054101,-43.754241
11.185,2.0,1.0,1.0,33.0,34.0,34.0,4.0,3.5,2.54,0.8525076549647851,-0.0054616679716692675,0.5106235666224402,0.0036800358567676485,-0.054604,-43.627857
11.185,2.0,1.0,1.0,33.0,34.0,34.0,4.0,3.5,2.5425,0.8491570961785029,-0.005570570563826476,0.5160635709778849,0.0036912942514292927,-0.055115,-43.501113
11.185,2.0,1.0,1.0,33.0,34.0,34.0,4.0,3.5,2.545,0.8457571436647346,-0.005681449082974936,0.5215034142536241,0.0037019526801573,-0.055636,-43.373997
11.185,2.0,1.0,1.0,33.0,34.0,34.0,4.0,3.5,2.5475,0.8423073038186998,-0.00579434737025691,0.5269428863973613,0.0037119873126831306,-0.056167,-43.246496
11.185,2.0,1.0,1.0,33.0,34.0,34.0,4.0,3.5,2.55,0.8388070747092201,-0.005909310590371923,0.5323817708145722,0.0037213733981024642,-0.056707,-43.1186
11.185,2.0,1.0,1.0,33.0,34.0,34.0,4.0,3.5,2.5525,0.8352559459200546,-0.006026385282364715,0.5378198441482085,0.003730085223381479,-0.057257,-42.990294
11.185,2.0,1.0,1.0,33.0,34.0,34.0,4.0,3.5,2.555,0.8316533983875323,-0.006145619412799642,0.543256876050683,0.0037380960696834524,-0.057817,-42.861568
11.185,2.0,1.0,1.0,33.0,34.0,34.0,4.0,3.5,2.5575,0.8279989042343662,-0.006267062431451337,0.5486926289478206,0.003745378166379903,-0.058387,-42.732408
11.185,2.0,1.0,1.0,33.0,34.0,34.0,4.0,3.5,2.56,0.8242919265995151,-0.006390765329655242,0.5541268577944388,0.003751902642605534,-0.058969,-42.602801
11.185,2.0,1.0,1.0,33.0,34.0,34.0,4.0,3.5,2.5625,0.8205319194639508,-0.006516780701468268,0.5595593098212212,0.0037576394762028316,-0.059561,-42.472735
11.185,2.0,1.0,1.0,33.0,34.0,34.0,4.0,3.5,2.565,0.8167183274721757,-0.006645162807799282,0.5649897242725216,0.003762557439892821,-0.060164,-42.342195
11.185,2.0,1.0,1.0,33.0,34.0,34.0,4.0,3.5,2.5675,0.8128505857493462,-0.006775967643680185,0.5704178321347095,0.003766624044496249,-0.060779,-42.211169
11.185,2.0,1.0,1.0,33.0,34.0,34.0,4.0,3.5,2.57,0.80892811971382,-0.006909253008861276,0.575843355854668,0.003769805479016341,-0.061406,-42.079642
11.185,2.0,1.0,1.0,33.0,34.0,34.0,4.0,3.5,2.5725,0.804950344884959,-0.007045078581923348,0.5812660090480148,0.0037720665473812277,-0.062045,-41.947601
11.185,2.0,1.0,1.0,33.0,34.0,34.0,4.0,3.5,2.575,0.8009166666859969,-0.00718350599811525,0.5866854961966061,0.00377337060162828,-0.062696,-41.81503
11.185,2.0,1.0,1.0,33.0,34.0,34.0,4.0,3.5,2.5775,0.796826480241767,-0.007324598931138103,0.5921015123348514,0.003773679471297147,-0.06336,-41.681916
11.185,2.0,1.0,1.0,33.0,34.0,34.0,4.0,3.5,2.58,0.7926791701710897,-0.007468423179111889,0.5975137427243478,0.0037729533887796095,-0.064038,-41.548243
11.185,2.0,1.0,1.0,33.0,34.0,34.0,4.0,3.5,2.5825,0.7884741103735732,-0.007615046754979017,0.602921862516313,0.0037711509103563034,-0.064729,-41.413996
11.185,2.0,1.0,1.0,33.0,34.0,34.0,4.0,3.5,2.585,0.7842106638106057,-0.007764539981612819,0.6083255364012625,0.0037682288326293814,-0.065433,-41.279158
11.185,2.0,1.0,1.0,33.0,34.0,34.0,4.0,3.5,2.5875,0.7798881822802642,-0.007916975591923045,0.6137244182453543,0.0037641421040366333,-0.066153,-41.143716
11.185,2.0,1.0,1.0,33.0,34.0,34.0,4.0,3.5,2.59,0.7755060061858781,-0.008072428834265328,0.6191181507127772,0.0037588437311090097,-0.066886,-41.007651
11.185,2.0,1.0,1.0,33.0,34.0,34.0,4.0,3.5,2.5925,0.7710634642979359,-0.00823097758348845,0.6245063648735374,0.0037522846791074272,-0.067635,-40.870947
11.185,2.0,1.0,1.0,33.0,34.0,34.0,4.0,3.5,2.595,0.7665598735090426,-0.008392702457973017,0.6298886797959404,0.0037444137666428493,-0.0684,-40.733587
11.185,2.0,1.0,1.0,33.0,34.0,34.0,4.0,3.5,2.5975,0.7619945385815639,-0.008557686943043933,0.6352647021230463,0.0037351775538554993,-0.06918,-40.595555
11.185,2.0,1.0,1.0,33.0,34.0,34.0,4.0,3.5,2.6,0.7573667518876122,-0.008726017521164661,0.6406340256323123,0.003724520223691737,-0.069977,-40.45683
11.185,2.0,1.0,1.0,33.0,34.0,34.0,4.0,3.5,2.6025,0.7526757931409788,-0.008897783809351939,0.6459962307775858,0.0037123834557800527,-0.070791,-40.317396
11.185,2.0,1.0,1.0,33.0,34.0,34.0,4.0,3.5,2.605,0.7479209291205934,-0.009073078704283139,0.6513508842125816,0.0036987062923677393,-0.071622,-40.177234
11.185,2.0,1.0,1.0,33.0,34.0,34.0,4.0,3.5,2.6075,0.7431014133850606,-0.009251998535600724,0.6566975382948893,0.003683424995731469,-0.072471,-40.036324
11.185,2.0,1.0,1.0,33.0,34.0,34.0,4.0,3.5,2.61,0.7382164859777928,-0.009434643227960806,0.6620357305695127,0.0036664728964293306,-0.073339,-39.894647
11.185,2.0,1.0,1.0,33.0,34.0,34.0,4.0,3.5,2.6125,0.7332653731222131,-0.009621116472408259,0.6673649832308737,0.003647780231705085,-0.074226,-39.752181
11.185,2.0,1.0,1.0,33.0,34.0,34.0,4.0,3.5,2.615,0.7282472869064659,-0.009811525907711928,0.6726848025621385,0.003627273973295889,-0.075132,-39.608908
11.185,2.0,1.0,1.0,33.0,34.0,34.0,4.0,3.5,2.6175,0.7231614249570297,-0.01000598331233745,0.6779946783506358,0.0036048776438326368,-0.076059,-39.464804
11.185,2.0,1.0,1.0,33.0,34.0,34.0,4.0,3.5,2.62,0.7180069701005769,-0.010204604807788955,0.6832940832780666,0.003580511120945873,-0.077007,-39.319848
11.185,2.0,1.0,1.0,33.0,34.0,34.0,4.0,3.5,2.6225,0.7127830900133622,-0.010407511074110695,0.688582472284097,0.003554090428115863,-0.077976,-39.174019
11.185,2.0,1.0,1.0,33.0,34.0,34.0,4.0,3.5,2.625,0.707488936857388,-0.0106148275783985,0.693859281901822,0.00352552751121572,-0.078968,-39.027291
11.185,2.0,1.0,1.0,33.0,34.0,34.0,4.0,3.5,2.6275,0.7021236469024992,-0.010826684817242384,0.6991239295634946,0.003494729999602996,-0.079983,-38.879642
11.185,2.0,1.0,1.0,33.0,34.0,34.0,4.0,3.5,2.63,0.6966863401335144,-0.011043218574091561,0.7043758128747627,0.0034616009505092993,-0.081021,-38.731048
11.185,2.0,1.0,1.0,33.0,34.0,34.0,4.0,3.5,2.6325,0.6911761198414129,-0.011264570192619162,0.7096143088555431,0.003426038575361347,-0.082084,-38.581482
11.185,2.0,1.0,1.0,33.0,34.0,34.0,4.0,3.5,2.635,0.6855920721975203,-0.011490886867246173,0.7148387731455107,0.0033879359465385436,-0.083173,-38.430918
11.185,2.0,1.0,1.0,33.0,34.0,34.0,4.0,3.5,2.6375,0.6799332658095368,-0.011722321952083444,0.7200485391719994,0.0033471806829320056,-0.084288,-38.279331
11.185,2.0,1.0,1.0,33.0,34.0,34.0,4.0,3.5,2.64,0.6741987512581518,-0.011959035289655445,0.7252429172779713,0.003303654612510581,-0.08543,-38.126692
11.185,2.0,1.0,1.0,33.0,34.0,34.0,4.0,3.5,2.6425,0.6683875606128843,-0.012201193560882194,0.73042119380747,0.003257233409927423,-0.0866,-37.972973
11.185,2.0,1.0,1.0,33.0,34.0,34.0,4.0,3.5,2.645,0.6624987069256659,-0.012448970657921922,0.735582630145789,0.003207786207008121,-0.0878,-37.818145
11.185,2.0,1.0,1.0,33.0,34.0,34.0,4.0,3.5,2.6475,0.6565311837005428,-0.012702548081613856,0.7407264617113305,0.0031551751737442686,-0.08903,-37.662176
11.185,2.0,1.0,1.0,33.0,34.0,34.0,4.0,3.5,2.65,0.6504839643377265,-0.012962115365411794,0.7458518968958813,0.0030992550671839255,-0.090291,-37.505037
11.185,2.0,1.0,1.0,33.0,34.0,34.0,4.0,3.5,2.6525,0.6443560015500878,-0.013227870527859705,0.7509581159497062,0.0030398727453383886,-0.091584,-37.346694
11.185,2.0,1.0,1.0,33.0,34.0,34.0,4.0,3.5,2.655,0.6381462267499611,-0.013500020555846008,0.7560442698075828,0.002976866642936193,-0.092912,-37.187114
11.185,2.0,1.0,1.0,33.0,34.0,34.0,4.0,3.5,2.6575,0.6318535494039801,-0.013778781921066453,0.7611094788514984,0.002910066205520256,-0.094274,-37.026262
11.185,2.0,1.0,1.0,33.0,34.0,34.0,4.0,3.5,2.66,0.6254768563534205,-0.014064381132344586,0.7661528316053505,0.0028392912780205114,-0.095673,-36.864103
11.185,2.0,1.0,1.0,33.0,34.0,34.0,4.0,3.5,2.6625,0.6190150110973035,-0.014357055326697808,0.7711733833565368,0.0027643514435196316,-0.097109,-36.7006
11.185,2.0,1.0,1.0,33.0,34.0,34.0,4.0,3.5,2.665,0.612466853035232,-0.014657052902297482,0.7761701546988351,0.00268504530746976,-0.098585,-36.535714
11.185,2.0,1.0,1.0,33.0,34.0,34.0,4.0,3.5,2.6675,0.6058311966666731,-0.014964634196762345,0.7811421299903922,0.0026011597221029586,-0.100101,-36.369405
11.185,2.0,1.0,1.0,33.0,34.0,34.0,4.0,3.5,2.67,0.5991068307430499,-0.015280072214539149,0.7860882557200493,0.0025124689451927256,-0.10166,-36.201633
11.185,2.0,1.0,1.0,33.0,34.0,34.0,4.0,3.5,2.6725,0.5922925173686656,-0.01560365340747921,0.7910074387745091,0.0024187337266789862,-0.103263,-36.032354
11.185,2.0,1.0,1.0,33.0,34.0,34.0,4.0,3.5,2.675,0.5853869910460997,-0.01593567851309874,0.7958985445980794,0.0023197003159263906,-0.104913,-35.861525
11.185,2.0,1.0,1.0,33.0,34.0,34.0,4.0,3.5,2.6775,0.5783889576612729,-0.016276463455443157,0.80076039523584,0.0022150993815626637,-0.10661,-35.689099
11.185,2.0,1.0,1.0,33.0,34.0,34.0,4.0,3.5,2.68,0.5712970934028958,-0.016626340313941106,0.8055917672501023,0.0021046448349066223,-0.108357,-35.515028
11.185,2.0,1.0,1.0,33.0,34.0,34.0,4.0,3.5,2.6825,0.5641100436105114,-0.016985658366153785,0.8103913894988937,0.0019880325469370384,-0.110157,-35.339263
11.185,2.0,1.0,1.0,33.0,34.0,34.0,4.0,3.5,2.685,0.5568264215447175,-0.017354785210899327,0.8151579407639566,0.0018649389475554324,-0.112012,-35.161752
11.185,2.0,1.0,1.0,33.0,34.0,34.0,4.0,3.5,2.6875,0.549444807072538,-0.0177341079788643,0.819890047214311,0.0017350194945372,-0.113923,-34.982441
11.185,2.0,1.0,1.0,33.0,34.0,34.0,4.0,3.5,2.69,0.5419637452601829,-0.01812403463851596,0.8245862796898074,0.0015979069980204255,-0.115894,-34.801275
11.185,2.0,1.0,1.0,33.0,34.0,34.0,4.0,3.5,2.6925,0.5343817448646174,-0.018524995405905794,0.8292451507872796,0.001453209784623322,-0.117928,-34.618194
11.185,2.0,1.0,1.0,33.0,34.0,34.0,4.0,3.5,2.695,0.5266972767145167,-0.018937444267809602,0.833865111729776,0.001300509683278755,-0.120028,-34.433139
11.185,2.0,1.0,1.0,33.0,34.0,34.0,4.0,3.5,2.6975,0.5189087719701507,-0.019361860628605655,0.8384445489970151,0.0011393598125835078,-0.122196,-34.246045
11.185,2.0,1.0,1.0,33.0,34.0,34.0,4.0,3.5,2.7,0.5110146202506969,-0.01979875109233588,0.8429817806924315,0.0009692821468425091,-0.124436,-34.056848
11.185,2.0,1.0,1.0,33.0,34.0,34.0,4.0,3.5,2.7025,0.5030131676162392,-0.020248651392571412,0.8474750526191148,0.0007897648349886999,-0.126751,-33.865476
11.185,2.0,1.0,1.0,33.0,34.0,34.0,4.0,3.5,2.705,0.4949027143903865,-0.02071212848398173,0.8519225340333337,0.0006002592431089943,-0.129147,-33.671859
11.185,2.0,1.0,1.0,33.0,34.0,34.0,4.0,3.5,2.7075,0.48668151280794747,-0.021189782810945433,0.8563223130402592,0.0004001766873475006,-0.131625,-33.475921
11.185,2.0,1.0,1.0,33.0,34.0,34.0,4.0,3.5,2.71,0.47834776447045885,-0.021682250770112352,0.8606723915917669,0.0001888848193816815,-0.134192,-33.277583
11.185,2.0,1.0,1.0,33.0,34.0,34.0,4.0,3.5,2.7125,0.46989961759052323,-0.022190207385576918,0.8649706800407584,-3.4296378607891835e-05,-0.136852,-33.076762
11.185,2.0,1.0,1.0,33.0,34.0,34.0,4.0,3.5,2.715,0.4613351640039067,-0.022714369217251135,0.86921499120014,-0.00027009903866765305,-0.13961,-32.873372
11.185,2.0,1.0,1.0,33.0,34.0,34.0,4.0,3.5,2.7175,0.4526524359261026,-0.02325549752515643,0.8734030338473099,-0.0005193123477775551,-0.142471,-32.667322
11.185,2.0,1.0,1.0,33.0,34.0,34.0,4.0,3.5,2.72,0.44384940242761606,-0.02381440171468776,0.8775324056065269,-0.000782788049058045,-0.145441,-32.458517
11.185,2.0,1.0,1.0,33.0,34.0,34.0,4.0,3.5,2.7225,0.4349239655994816,-0.024391943090490125,0.8816005851316931,-0.0010614465775915178,-0.148528,-32.246856
11.185,2.0,1.0,1.0,33.0,34.0,34.0,4.0,3.5,2.725,0.4258739563775994,-0.024989038949394755,0.8856049235005591,-0.001356283916193583,-0.151736,-32.032234
11.185,2.0,1.0,1.0,33.0,34.0,34.0,4.0,3.5,2.7275,0.416697129991153,-0.025606667045947,0.8895426347179519,-0.00166837926958624,-0.155075,-31.814542
11.185,2.0,1.0,1.0,33.0,34.0,34.0,4.0,3.5,2.73,0.4073911609968865,-0.026245870467390374,0.8934107852098208,-0.0019989036708295805,-0.158552,-31.593662
11.185,2.0,1.0,1.0,33.0,34.0,34.0,4.0,3.5,2.7325,0.39795363785713045,-0.02690776295857699,0.897206282171408,-0.0023491296519812482,-0.162176,-31.369472
11.185,2.0,1.0,1.0,33.0,34.0,34.0,4.0,3.5,2.735,0.3883820570153806,-0.027593534741120074,0.9009258606109913,-0.002720442132327317,-0.165956,-31.141844
11.185,2.0,1.0,1.0,33.0,34.0,34.0,4.0,3.5,2.7375,0.378673816418825,-0.028304458875178202,0.9045660689048666,-0.0031143507027892314,-0.169904,-30.91064
11.185,2.0,1.0,1.0,33.0,34.0,34.0,4.0,3.5,2.74,0.36882620843265146,-0.029041898216491672,0.9081232526486555,-0.0035325035150838343,-0.174029,-30.675717
11.185,2.0,1.0,1.0,33.0,34.0,34.0,4.0,3.5,2.7425,0.35883641208622463,-0.029807313025601273,0.9115935365537196,-0.003976703019838716,-0.178345,-30.436922
11.185,2.0,1.0,1.0,33.0,34.0,34.0,4.0,3.5,2.745,0.34870148458654965,-0.030602269290424956,0.9149728040941617,-0.004448923840364338,-0.182865,-30.194096
11.185,2.0,1.0,1.0,33.0,34.0,34.0,4.0,3.5,2.7475,0.33841835202991094,-0.03142844782732893,0.9182566745581521,-0.004951333119608921,-0.187604,-29.947066
11.185,2.0,1.0,1.0,33.0,34.0,34.0,4.0,3.5,2.75,0.327983799238624,-0.0322876542292135,0.921440477095287,-0.00548631373880163,-0.192579,-29.695653
11.185,2.0,1.0,1.0,33.0,34.0,34.0,4.0,3.5,2.7525,0.3173944586467887,-0.03318182973146632,0.924519221277051,-0.006056490879684336,-0.197807,-29.439666
11.185,2.0,1.0,1.0,33.0,34.0,34.0,4.0,3.5,2.755,0.306646798157522,-0.03411306306729468,0.9274875635974091,-0.006664762490839187,-0.203308,-29.178899
11.185,2.0,1.0,1.0,33.0,34.0,34.0,4.0,3.5,2.7575,0.29573710789515556,-0.03508360338199941,0.9303397692315193,-0.007314334325963549,-0.209105,-28.913137
11.185,2.0,1.0,1.0,33.0,34.0,34.0,4.0,3.5,2.76,0.2846614857807792,-0.03609587426989522,0.9330696682380913,-0.00800876035240474,-0.215222,-28.642148
11.185,2.0,1.0,1.0,33.0,34.0,34.0,4.0,3.5,2.7625,0.273415821869887,-0.03715248898600419,0.9356706052294397,-0.008751989487395705,-0.221687,-28.365688
11.185,2.0,1.0,1.0,33.0,34.0,34.0,4.0,3.5,2.765,0.26199578140951946,-0.03825626686472409,0.9381353813356905,-0.009548419814189019,-0.228529,-28.083494
11.185,2.0,1.0,1.0,33.0,34.0,34.0,4.0,3.5,2.7675,0.25039678660266335,-0.03941025094581403,0.940456187046999,-0.010402961669520821,-0.235783,-27.795285
11.185,2.0,1.0,1.0,33.0,34.0,34.0,4.0,3.5,2.77,0.2386139971149535,-0.04061772675907183,0.9426245242186302,-0.011321111288778399,-0.243487,-27.500762
11.185,2.0,1.0,1.0,33.0,34.0,34.0,4.0,3.5,2.7725,0.22664228943013434,-0.04188224214580492,0.9446311151538695,-0.012309037060208528,-0.251685,-27.199604
11.185,2.0,1.0,1.0,33.0,34.0,34.0,4.0,3.5,2.775,0.21447623526646875,-0.043207627887374436,0.9464657962204129,-0.013373680892815215,-0.260424,-26.891465
11.185,2.0,1.0,1.0,33.0,34.0,34.0,4.0,3.5,2.7775,0.2021100794208585,-0.044598018754233464,0.9481173928834004,-0.014522877767731947,-0.269761,-26.575976
11.185,2.0,1.0,1.0,33.0,34.0,34.0,4.0,3.5,2.78,0.1895377176314753,-0.04605787436236628,0.9495735723219594,-0.01576549725006622,-0.279757,-26.252739
11.185,2.0,1.0,1.0,33.0,34.0,34.0,4.0,3.5,2.7825,0.17675267537275915,-0.04759199889844047,0.9508206688966248,-0.017111611626434507,-0.290484,-25.921325
11.185,2.0,1.0,1.0,33.0,34.0,34.0,4.0,3.5,2.785,0.16374808896088366,-0.04920555830806886,0.9518434766013151,-0.01857269645298559,-0.302024,-25.581271
11.185,2.0,1.0,1.0,33.0,34.0,34.0,4.0,3.5,2.7875,0.1505166910145206,-0.05090409287253632,0.952625001199839,-0.02016187071465008,-0.314472,-25.232078
11.185,2.0,1.0,1.0,33.0,34.0,34.0,4.0,3.5,2.79,0.1370508032730842,-0.05269352214005208,0.9531461629280322,-0.021894185592709302,-0.327935,-24.873206
11.185,2.0,1.0,1.0,33.0,34.0,34.0,4.0,3.5,2.7925,0.1233423411518175,-0.05458013779969269,0.9533854383287946,-0.023786973122840487,-0.342542,-24.504069
11.185,2.0,1.0,1.0,33.0,34.0,34.0,4.0,3.5,2.795,0.10938283639879132,-0.05657057810166356,0.9533184268375229,-0.025860268938640102,-0.358438,-24.124031
11.185,2.0,1.0,1.0,33.0,34.0,34.0,4.0,3.5,2.7975,0.09516348709209388,-0.05867177455909742,0.9529173239700512,-0.028137327013185602,-0.375797,-23.732403
11.185,2.0,1.0,1.0,33.0,34.0,34.0,4.0,3.5,2.8,0.08067524838956591,-0.06089085750301971,0.9521502781586331,-0.03064524905557964,-0.394823,-23.328434
11.185,2.0,1.0,1.0,33.0,34.0,34.0,4.0,3.5,2.8025,0.06590898353671817,-0.06323500098912833,0.9509806021567624,-0.03341575726271945,-0.415756,-22.911307
11.185,2.0,1.0,1.0,33.0,34.0,34.0,4.0,3.5,2.805,0.05085570357998853,-0.06571117864950567,0.9493658021646141,-0.03648614678846572,-0.438884,-22.480132
11.185,2.0,1.0,1.0,33.0,34.0,34.0,4.0,3.5,2.8075,0.035506937428462594,-0.06832578894794789,0.9472563780578225,-0.03990046392016051,-0.464551,-22.033937
11.185,2.0,1.0,1.0,33.0,34.0,34.0,4.0,3.5,2.81,0.019855293497894878,-0.07108408880984285,0.9445943360072114,-0.04371096786077674,-0.493175,-21.571664
11.185,2.0,1.0,1.0,33.0,34.0,34.0,4.0,3.5,2.8125,0.003895303430945,-0.0739893455073469,0.941311340202226,-0.0479799483433765,-0.52526,-21.092159
11.185,2.0,1.0,1.0,33.0,34.0,34.0,4.0,3.5,2.815,-0.012375317653721912,-0.07704157300025305,0.9373264136680947,-0.05278198770375527,-0.561426,-20.594167
11.185,2.0,1.0,1.0,33.0,34.0,34.0,4.0,3.5,2.8175,-0.02895379353483953,-0.08023565299173438,0.9325430807712879,-0.058206773013516476,-0.602437,-20.076326
11.185,2.0,1.0,1.0,33.0,34.0,34.0,4.0,3.5,2.82,-0.04582949031572096,-0.08355854097993468,0.926845829901758,-0.06436257745246453,-0.649245,-19.537167
11.185,2.0,1.0,1.0,33.0,34.0,34.0,4.0,3.5,2.8225,-0.06297974616374165,-0.08698510562388757,0.9200957731560104,-0.07138053112684717,-0.703039,-18.975118
11.185,2.0,1.0,1.0,33.0,34.0,34.0,4.0,3.5,2.825,-0.08036363980980712,-0.09047191890508131,0.9121254103401526,-0.07941977035398694,-0.765326,-18.388517
11.185,2.0,1.0,1.0,33.0,34.0,34.0,4.0,3.5,2.8275,-0.09791265842260678,-0.09394796594505922,0.902732508128016,-0.08867345034987788,-0.838026,-17.775645
