1,w,sub_t,h,l1,l2,l3,g1,g2,Freq,S11_re,S21_re,S11_img,S21_img,S11_dB,S21_dB
11.185,2.0,1.0,1.0,33.6,34.2,34.2,2.6,4.2,2.5,0.83474003507338,-0.00720894664605809,0.538441953687626,0.00495925818686412,-0.058102,-41.159802
11.185,2.0,1.0,1.0,33.6,34.2,34.2,2.6,4.2,2.5025,0.8310107116057197,-0.007351422348865324,0.5440596454116959,0.0049732183373507564,-0.058678,-41.036044
11.185,2.0,1.0,1.0,33.6,34.2,34.2,2.6,4.2,2.505,0.8272261403878894,-0.007496487450586067,0.5496756061457221,0.004986320155553841,-0.059265,-40.911896
11.185,2.0,1.0,1.0,33.6,34.2,34.2,2.6,4.2,2.5075,0.82338574654385,-0.007644197142421277,0.5552895593936479,0.004998528010021401,-0.059863,-40.787349
11.185,2.0,1.0,1.0,33.6,34.2,34.2,2.6,4.2,2.51,0.819488945488228,-0.007794608124797261,0.5609012200183128,0.0050098048838763155,-0.060472,-40.662392
11.185,2.0,1.0,1.0,33.6,34.2,34.2,2.6,4.2,2.5125,0.8155351427468257,-0.007947778657751073,0.5665102939491659,0.005020112314405052,-0.061092,-40.537015
11.185,2.0,1.0,1.0,33.6,34.2,34.2,2.6,4.2,2.515,0.8115237337735066,-0.008103768613316808,0.5721164778796027,0.005029410329656803,-0.061724,-40.411207
11.185,2.0,1.0,1.0,33.6,34.2,34.2,2.6,4.2,2.5175,0.807454103763368,-0.008262639530005233,0.5777194589534862,0.005037657381884495,-0.062368,-40.284959
11.185,2.0,1.0,1.0,33.6,34.2,34.2,2.6,4.2,2.52,0.803325627462113,-0.008424454669474701,0.583318914440435,0.0050448102776484895,-0.063024,-40.158259
11.185,2.0,1.0,1.0,33.6,34.2,34.2,2.6,4.2,2.5225,0.7991376689715352,-0.008589279075495662,0.5889145113993942,0.005050824104392308,-0.063692,-40.031096
11.185,2.0,1.0,1.0,33.6,34.2,34.2,2.6,4.2,2.525,0.7948895815510113,-0.008757179635317443,0.5945059063300254,0.005055652153287261,-0.064374,-39.90346
11.185,2.0,1.0,1.0,33.6,34.2,34.2,2.6,4.2,2.5275,0.7905807074149079,-0.00892822514355133,0.6000927448114041,0.005059245838129745,-0.065068,-39.775338
11.185,2.0,1.0,1.0,33.6,34.2,34.2,2.6,4.2,2.53,0.7862103775258007,-0.009102486368689773,0.6056746611274881,0.005061554610060621,-0.065776,-39.64672
11.185,2.0,1.0,1.0,33.6,34.2,34.2,2.6,4.2,2.5325,0.7817779113833988,-0.009280036122389028,0.6112512778788093,0.005062525867860945,-0.066498,-39.517593
11.185,2.0,1.0,1.0,33.6,34.2,34.2,2.6,4.2,2.535,0.7772826168090615,-0.009460949331648476,0.6168222055797947,0.00506210486356186,-0.067235,-39.387946
11.185,2.0,1.0,1.0,33.6,34.2,34.2,2.6,4.2,2.5375,0.7727237897257968,-0.009645303114027743,0.6223870422411072,0.005060234603088803,-0.067985,-39.257767
11.185,2.0,1.0,1.0,33.6,34.2,34.2,2.6,4.2,2.54,0.7681007139336199,-0.009833176856050133,0.627945372936356,0.005056855741641335,-0.068751,-39.127044
11.185,2.0,1.0,1.0,33.6,34.2,34.2,2.6,4.2,2.5425,0.7634126608801465,-0.010024652294950143,0.6334967693524977,0.005051906473489333,-0.069532,-38.995763
11.185,2.0,1.0,1.0,33.6,34.2,34.2,2.6,4.2,2.545,0.7586588894262908,-0.010219813603929548,0.639040789323215,0.005045322415844502,-0.07033,-38.863913
11.185,2.0,1.0,1.0,33.6,34.2,34.2,2.6,4.2,2.5475,0.7538386456069421,-0.010418747481098091,0.6445769763445092,0.005037036486442371,-0.071143,-38.73148
11.185,2.0,1.0,1.0,33.6,34.2,34.2,2.6,4.2,2.55,0.7489511623864591,-0.010621543242283184,0.6501048590717317,0.005026978774444468,-0.071973,-38.59845
11.185,2.0,1.0,1.0,33.6,34.2,34.2,2.6,4.2,2.5525,0.7439956594088614,-0.010828292917903748,0.6556239507971888,0.005015076404242903,-0.07282,-38.464811
11.185,2.0,1.0,1.0,33.6,34.2,34.2,2.6,4.2,2.555,0.73897134274254,-0.011039091354114853,0.6611337489074598,0.0050012533917198395,-0.073685,-38.330549
11.185,2.0,1.0,1.0,33.6,34.2,34.2,2.6,4.2,2.5575,0.7338774046193371,-0.01125403631844105,0.6666337343194905,0.004985430492482321,-0.074568,-38.195649
11.185,2.0,1.0,1.0,33.6,34.2,34.2,2.6,4.2,2.56,0.7287130231678277,-0.011473228610129326,0.6721233708944708,0.004967525041558282,-0.07547,-38.060097
11.185,2.0,1.0,1.0,33.6,34.2,34.2,2.6,4.2,2.5625,0.7234773621406189,-0.011696772175464975,0.6776021048284543,0.004947450784002098,-0.076391,-37.923878
11.185,2.0,1.0,1.0,33.6,34.2,34.2,2.6,4.2,2.565,0.7181695706354853,-0.011924774228308928,0.6830693640186382,0.004925117695817597,-0.077332,-37.786979
11.185,2.0,1.0,1.0,33.6,34.2,34.2,2.6,4.2,2.5675,0.7127887828101457,-0.012157345376129267,0.6885245574041062,0.004900431794562504,-0.078293,-37.649382
11.185,2.0,1.0,1.0,33.6,34.2,34.2,2.6,4.2,2.57,0.707334117590475,-0.012394599751815517,0.6939670742798333,0.004873294938950894,-0.079275,-37.511073
11.185,2.0,1.0,1.0,33.6,34.2,34.2,2.6,4.2,2.5725,0.7018046783719306,-0.012636655151581832,0.6993962835826216,0.004843604616718713,-0.080279,-37.372036
11.185,2.0,1.0,1.0,33.6,34.2,34.2,2.6,4.2,2.575,0.6961995527139718,-0.012883633179282495,0.7048115331475959,0.004811253719961549,-0.081304,-37.232254
11.185,2.0,1.0,1.0,33.6,34.2,34.2,2.6,4.2,2.5775,0.6905178120272278,-0.013135659397482331,0.7102121489337749,0.004776130307093335,-0.082353,-37.091711
11.185,2.0,1.0,1.0,33.6,34.2,34.2,2.6,4.2,2.58,0.6847585112531674,-0.013392863485645069,0.7155974342171653,0.004738117350508814,-0.083425,-36.950389
11.185,2.0,1.0,1.0,33.6,34.2,34.2,2.6,4.2,2.5825,0.6789206885359931,-0.01365537940582396,0.7209666687497104,0.004697092468960981,-0.084522,-36.808272
11.185,2.0,1.0,1.0,33.6,34.2,34.2,2.6,4.2,2.585,0.6730033648864857,-0.013923345576261922,0.7263191078823291,0.004652927643587107,-0.085644,-36.66534
11.185,2.0,1.0,1.0,33.6,34.2,34.2,2.6,4.2,2.5875,0.6670055438374951,-0.014196905053332603,0.7316539816501677,0.0046054889164321225,-0.086791,-36.521576
11.185,2.0,1.0,1.0,33.6,34.2,34.2,2.6,4.2,2.59,0.6609262110907668,-0.014476205722279223,0.7369704938180446,0.004554636070226005,-0.087965,-36.376962
11.185,2.0,1.0,1.0,33.6,34.2,34.2,2.6,4.2,2.5925,0.6547643341547599,-0.014761400497235986,0.7422678208839714,0.004500222288071312,-0.089167,-36.231477
11.185,2.0,1.0,1.0,33.6,34.2,34.2,2.6,4.2,2.595,0.6485188619731193,-0.015052647531044377,0.7475451110384475,0.004442093791587353,-0.090397,-36.085102
11.185,2.0,1.0,1.0,33.6,34.2,34.2,2.6,4.2,2.5975,0.6421887245434057,-0.015350110435409766,0.7528014830770983,0.004380089455937811,-0.091657,-35.937817
11.185,2.0,1.0,1.0,33.6,34.2,34.2,2.6,4.2,2.6,0.6357728325256977,-0.015653958511972925,0.7580360252640604,0.004314040400037829,-0.092946,-35.789601
11.185,2.0,1.0,1.0,33.6,34.2,34.2,2.6,4.2,2.6025,0.6292700768406477,-0.0159643669949083,0.7632477941432981,0.004243769550093918,-0.094267,-35.640433
11.185,2.0,1.0,1.0,33.6,34.2,34.2,2.6,4.2,2.605,0.6226793282565269,-0.016281517305695773,0.7684358132948861,0.004169091174473161,-0.095621,-35.49029
11.185,2.0,1.0,1.0,33.6,34.2,34.2,2.6,4.2,2.6075,0.6159994369647999,-0.016605597320751283,0.7735990720330401,0.004089810387727395,-0.097007,-35.339151
11.185,2.0,1.0,1.0,33.6,34.2,34.2,2.6,4.2,2.61,0.6092292321437184,-0.016936801652642233,0.7787365240424499,0.0040057226214101,-0.098429,-35.186992
11.185,2.0,1.0,1.0,33.6,34.2,34.2,2.6,4.2,2.6125,0.602367521509397,-0.01727533194565704,0.783847085949232,0.003916613059117882,-0.099886,-35.03379
11.185,2.0,1.0,1.0,33.6,34.2,34.2,2.6,4.2,2.615,0.5954130908538001,-0.017621397186542195,0.7889296358225127,0.0038222560329623264,-0.10138,-34.879519
11.185,2.0,1.0,1.0,33.6,34.2,34.2,2.6,4.2,2.6175,0.588364703569044,-0.01797521403126829,0.7939830116023632,0.0037224143784298823,-0.102913,-34.724156
11.185,2.0,1.0,1.0,33.6,34.2,34.2,2.6,4.2,2.62,0.5812211001573678,-0.018337007148735904,0.799006009449473,0.003616838744313989,-0.104485,-34.567674
11.185,2.0,1.0,1.0,33.6,34.2,34.2,2.6,4.2,2.6225,0.5739809977260912,-0.01870700958238472,0.803997382011584,0.0035052668541031835,-0.106098,-34.410047
11.185,2.0,1.0,1.0,33.6,34.2,34.2,2.6,4.2,2.625,0.566643089466855,-0.0190854631307225,0.808955836601301,0.00338742271487776,-0.107754,-34.251247
11.185,2.0,1.0,1.0,33.6,34.2,34.2,2.6,4.2,2.6275,0.5592060441183581,-0.01947261874784863,0.8138800332794695,0.0032630157694020024,-0.109455,-34.091246
11.185,2.0,1.0,1.0,33.6,34.2,34.2,2.6,4.2,2.63,0.5516685054118052,-0.01986873696510404,0.8187685828378228,0.0031317399866961225,-0.111201,-33.930015
11.185,2.0,1.0,1.0,33.6,34.2,34.2,2.6,4.2,2.6325,0.5440290914982011,-0.020274088335041587,0.823620044674078,0.0029932728859263023,-0.112994,-33.767524
11.185,2.0,1.0,1.0,33.6,34.2,34.2,2.6,4.2,2.635,0.5362863943565939,-0.02068895389897102,0.8284329245520712,0.002847274487958752,-0.114838,-33.603743
11.185,2.0,1.0,1.0,33.6,34.2,34.2,2.6,4.2,2.6375,0.5284389791823281,-0.021113625679398142,0.8332056722388986,0.0026933861883782673,-0.116732,-33.438639
11.185,2.0,1.0,1.0,33.6,34.2,34.2,2.6,4.2,2.64,0.5204853837542907,-0.02154840719874102,0.8379366790103139,0.0025312295451670385,-0.11868,-33.27218
11.185,2.0,1.0,1.0,33.6,34.2,34.2,2.6,4.2,2.6425,0.512424117780127,-0.021993614025770145,0.8426242750148554,0.0023604049735696086,-0.120683,-33.104332
11.185,2.0,1.0,1.0,33.6,34.2,34.2,2.6,4.2,2.645,0.504253662218316,-0.022449574351284012,0.8472667264863284,0.0021804903399246798,-0.122745,-32.935059
11.185,2.0,1.0,1.0,33.6,34.2,34.2,2.6,4.2,2.6475,0.49597246857597715,-0.02291662959459234,0.8518622327932961,0.001991039445417346,-0.124866,-32.764326
11.185,2.0,1.0,1.0,33.6,34.2,34.2,2.6,4.2,2.65,0.4875789581812094,-0.023395135042439626,0.8564089233132087,0.0017915803897836007,-0.12705,-32.592095
11.185,2.0,1.0,1.0,33.6,34.2,34.2,2.6,4.2,2.6525,0.47907152142876774,-0.023885460522052558,0.8609048541175914,0.0015816138039739215,-0.129299,-32.418327
11.185,2.0,1.0,1.0,33.6,34.2,34.2,2.6,4.2,2.655,0.47044851699779683,-0.024387991110046945,0.8653480044534608,0.0013606109396366046,-0.131616,-32.242983
11.185,2.0,1.0,1.0,33.6,34.2,34.2,2.6,4.2,2.6575,0.4617082710403617,-0.02490312787896243,0.8697362730046495,0.0011280116020050998,-0.134004,-32.066021
11.185,2.0,1.0,1.0,33.6,34.2,34.2,2.6,4.2,2.66,0.45284907633948596,-0.025431288683222104,0.874067473915146,0.0008832219113437741,-0.136465,-31.887398
11.185,2.0,1.0,1.0,33.6,34.2,34.2,2.6,4.2,2.6625,0.4438691914354239,-0.025972908986320983,0.8783393325547377,0.0006256118765082107,-0.139004,-31.707069
11.185,2.0,1.0,1.0,33.6,34.2,34.2,2.6,4.2,2.665,0.4347668397188953,-0.026528442731035568,0.8825494810052612,0.00035451276238331714,-0.141624,-31.524989
11.185,2.0,1.0,1.0,33.6,34.2,34.2,2.6,4.2,2.6675,0.42554020849011126,-0.0270983632544054,0.88669545324351,6.921423095336976e-05,-0.144328,-31.34111
11.185,2.0,1.0,1.0,33.6,34.2,34.2,2.6,4.2,2.67,0.41618744798245433,-0.027683164249164182,0.8907746799943534,-0.00023103876650201256,-0.147121,-31.155383
11.185,2.0,1.0,1.0,33.6,34.2,34.2,2.6,4.2,2.6725,0.40670667034983854,-0.028283360773179174,0.8947844832248031,-0.000547049371131432,-0.150006,-30.967755
11.185,2.0,1.0,1.0,33.6,34.2,34.2,2.6,4.2,2.675,0.3970959486169557,-0.028899490308282864,0.8987220702466051,-0.0008796725000616198,-0.152988,-30.778174
11.185,2.0,1.0,1.0,33.6,34.2,34.2,2.6,4.2,2.6775,0.3873533155918533,-0.029532113869643054,0.9025845273913954,-0.0012298188629078764,-0.156071,-30.586584
11.185,2.0,1.0,1.0,33.6,34.2,34.2,2.6,4.2,2.68,0.3774767627406232,-0.030181817166488226,0.9063688132184498,-0.0015984593460227569,-0.159261,-30.392928
11.185,2.0,1.0,1.0,33.6,34.2,34.2,2.6,4.2,2.6825,0.36746423902443875,-0.030849211814576286,0.9100717512105547,-0.0019866298033811743,-0.162562,-30.197145
11.185,2.0,1.0,1.0,33.6,34.2,34.2,2.6,4.2,2.685,0.35731364969970597,-0.031534936600234334,0.9136900219084454,-0.0023954362976670667,-0.165981,-29.999173
11.185,2.0,1.0,1.0,33.6,34.2,34.2,2.6,4.2,2.6875,0.347022855082845,-0.0322396587950756,0.917220154428483,-0.00282606084041733,-0.169524,-29.798948
11.185,2.0,1.0,1.0,33.6,34.2,34.2,2.6,4.2,2.69,0.3365896692821349,-0.03296407551958233,0.9206585173017372,-0.003279767686087416,-0.173197,-29.596401
11.185,2.0,1.0,1.0,33.6,34.2,34.2,2.6,4.2,2.6925,0.3260118589001824,-0.03370891515258401,0.9240013085652355,-0.003757910241738171,-0.177007,-29.391463
11.185,2.0,1.0,1.0,33.6,34.2,34.2,2.6,4.2,2.695,0.31528714171208533,-0.03447493878219528,0.92724454502773,-0.004261938661823636,-0.180961,-29.184059
11.185,2.0,1.0,1.0,33.6,34.2,34.2,2.6,4.2,2.6975,0.30441318532611544,-0.03526294169195629,0.9303840506227734,-0.004793408206441003,-0.185067,-28.974113
11.185,2.0,1.0,1.0,33.6,34.2,34.2,2.6,4.2,2.7,0.29338760583608187,-0.036073754873626386,0.9334154437509841,-0.005353988451541657,-0.189335,-28.761546
11.185,2.0,1.0,1.0,33.6,34.2,34.2,2.6,4.2,2.7025,0.2822079664773172,-0.036908246555248075,0.9363341235009284,-0.005945473451208983,-0.193773,-28.546273
11.185,2.0,1.0,1.0,33.6,34.2,34.2,2.6,4.2,2.705,0.2708717763017789,-0.03776732372956071,0.9391352546238134,-0.00656979296540206,-0.198391,-28.328207
11.185,2.0,1.0,1.0,33.6,34.2,34.2,2.6,4.2,2.7075,0.2593764888920952,-0.03865193366346689,0.9418137511208625,-0.007229024881827225,-0.203199,-28.107257
11.185,2.0,1.0,1.0,33.6,34.2,34.2,2.6,4.2,2.71,0.24771950113982702,-0.03956306536382132,0.9443642582835483,-0.007925408978138836,-0.208211,-27.883327
11.185,2.0,1.0,1.0,33.6,34.2,34.2,2.6,4.2,2.7125,0.23589815211989096,-0.04050175096808919,0.946781133005325,-0.008661362190870093,-0.213437,-27.656318
11.185,2.0,1.0,1.0,33.6,34.2,34.2,2.6,4.2,2.715,0.22390972210143736,-0.041469067020087444,0.9490584221587677,-0.009439495580783261,-0.218892,-27.426124
11.185,2.0,1.0,1.0,33.6,34.2,34.2,2.6,4.2,2.7175,0.2117514317457527,-0.042466135580709344,0.9511898388034585,-0.010262633211232143,-0.224589,-27.192636
11.185,2.0,1.0,1.0,33.6,34.2,34.2,2.6,4.2,2.72,0.1994204415545671,-0.043494125110746025,0.9531687359569821,-0.011133833187249502,-0.230546,-26.955739
11.185,2.0,1.0,1.0,33.6,34.2,34.2,2.6,4.2,2.7225,0.18691385164795105,-0.0445542510470752,0.9549880776232549,-0.01205641113913628,-0.23678,-26.71531
11.185,2.0,1.0,1.0,33.6,34.2,34.2,2.6,4.2,2.725,0.17422870197074616,-0.04564777597381663,0.9566404067281744,-0.013033966476174474,-0.243309,-26.471224
11.185,2.0,1.0,1.0,33.6,34.2,34.2,2.6,4.2,2.7275,0.16136197305085723,-0.04677600926563406,0.958117809561289,-0.014070411784734043,-0.250154,-26.223347
11.185,2.0,1.0,1.0,33.6,34.2,34.2,2.6,4.2,2.73,0.14831058746328935,-0.04794030604997341,0.9594118762624951,-0.015170005801659342,-0.257338,-25.971539
11.185,2.0,1.0,1.0,33.6,34.2,34.2,2.6,4.2,2.7325,0.13507141219169957,-0.049142065297189584,0.9605136568233333,-0.016337390459831964,-0.264885,-25.71565
11.185,2.0,1.0,1.0,33.6,34.2,34.2,2.6,4.2,2.735,0.12164126212670698,-0.05038272680029568,0.9614136119914565,-0.017577632579851128,-0.272823,-25.455527
11.185,2.0,1.0,1.0,33.6,34.2,34.2,2.6,4.2,2.7375,0.10801690499944361,-0.05166376674705408,0.9621015583722777,-0.01889627087183138,-0.281181,-25.191004
11.185,2.0,1.0,1.0,33.6,34.2,34.2,2.6,4.2,2.74,0.09419506812317595,-0.052986691513221745,0.9625666069112804,-0.02029936901669045,-0.289993,-24.921908
11.185,2.0,1.0,1.0,33.6,34.2,34.2,2.6,4.2,2.7425,0.08017244740909865,-0.05435302921300148,0.962797093811095,-0.021793575719727863,-0.299295,-24.648057
11.185,2.0,1.0,1.0,33.6,34.2,34.2,2.6,4.2,2.745,0.06594571923987626,-0.05576431842607015,0.9627805027859473,-0.023386192773971436,-0.309127,-24.369257
11.185,2.0,1.0,1.0,33.6,34.2,34.2,2.6,4.2,2.7475,0.05151155593267748,-0.05722209337342594,0.9625033773784932,-0.025085252340446954,-0.319533,-24.085305
11.185,2.0,1.0,1.0,33.6,34.2,34.2,2.6,4.2,2.75,0.0368666457108457,-0.0587278646282995,0.961951221855867,-0.0268996048515595,-0.330565,-23.795984
11.185,2.0,1.0,1.0,33.6,34.2,34.2,2.6,4.2,2.7525,0.022007718341069897,-0.060283094212612416,0.9611083889577365,-0.02883901917718007,-0.342276,-23.501065
11.185,2.0,1.0,1.0,33.6,34.2,34.2,2.6,4.2,2.755,0.0069315778951809775,-0.06188916362978544,0.9599579524832412,-0.03091429696652453,-0.354729,-23.200307
11.185,2.0,1.0,1.0,33.6,34.2,34.2,2.6,4.2,2.7575,-0.008364855518798923,-0.06354733300266835,0.9584815623692623,-0.03313740339889323,-0.367994,-22.893453
11.185,2.0,1.0,1.0,33.6,34.2,34.2,2.6,4.2,2.76,-0.023884492718468892,-0.06525868899686006,0.9566592795220461,-0.0355216169497521,-0.382148,-22.58023
11.185,2.0,1.0,1.0,33.6,34.2,34.2,2.6,4.2,2.7625,-0.03963000813105502,-0.06702407858314573,0.9544693872101275,-0.0380817012127989,-0.397279,-22.26035
11.185,2.0,1.0,1.0,33.6,34.2,34.2,2.6,4.2,2.765,-0.05560375441422681,-0.0688440248865874,0.9518881753010573,-0.040834102320621145,-0.413488,-21.933504
11.185,2.0,1.0,1.0,33.6,34.2,34.2,2.6,4.2,2.7675,-0.07180765417630858,-0.07071862032915549,0.9488896930209616,-0.0437971760823173,-0.430885,-21.599368
11.185,2.0,1.0,1.0,33.6,34.2,34.2,2.6,4.2,2.77,-0.08824306259547554,-0.0726473909251076,0.9454454652304078,-0.04699144960927074,-0.449601,-21.257595
11.185,2.0,1.0,1.0,33.6,34.2,34.2,2.6,4.2,2.7725,-0.10491059296582071,-0.07462912383736081,0.9415241664435803,-0.05043992292800821,-0.469781,-20.907815
11.185,2.0,1.0,1.0,33.6,34.2,34.2,2.6,4.2,2.775,-0.12180989488807428,-0.07666164802094332,0.9370912459810868,-0.05416841686988637,-0.491594,-20.549637
11.185,2.0,1.0,1.0,33.6,34.2,34.2,2.6,4.2,2.7775,-0.13893937180111374,-0.07874155479590525,0.9321084967673718,-0.05820597435250397,-0.515233,-20.182644
11.185,2.0,1.0,1.0,33.6,34.2,34.2,2.6,4.2,2.78,-0.1562958205866531,-0.08086384127982249,0.9265335594171646,-0.06258532297032587,-0.54092,-19.806393
11.185,2.0,1.0,1.0,33.6,34.2,34.2,2.6,4.2,2.7825,-0.1738739707659636,-0.08302145446677354,0.9203193525035862,-0.06734340748874762,-0.568915,-19.420413
11.185,2.0,1.0,1.0,33.6,34.2,34.2,2.6,4.2,2.785,-0.1916658939349303,-0.08520470696302263,0.9134134194406018,-0.07252200120837915,-0.59952,-19.024206
11.185,2.0,1.0,1.0,33.6,34.2,34.2,2.6,4.2,2.7875,-0.20966024500853767,-0.08740052644609236,0.9057571825429906,-0.07816840493544153,-0.633086,-18.617241
11.185,2.0,1.0,1.0,33.6,34.2,34.2,2.6,4.2,2.79,-0.22784128485207017,-0.08959148910085393,0.8972850960403258,-0.0843362409679772,-0.670029,-18.19896
11.185,2.0,1.0,1.0,33.6,34.2,34.2,2.6,4.2,2.7925,-0.24618761802897202,-0.09175457168805742,0.8879236929190811,-0.09108634628753101,-0.710837,-17.768774
11.185,2.0,1.0,1.0,33.6,34.2,34.2,2.6,4.2,2.795,-0.2646705584962171,-0.09385953634517738,0.877590526739639,-0.09848776274869013,-0.756092,-17.326064
11.185,2.0,1.0,1.0,33.6,34.2,34.2,2.6,4.2,2.7975,-0.2832520086324769,-0.09586683524834423,0.8661930210863951,-0.10661881043604816,-0.806488,-16.870187
11.185,2.0,1.0,1.0,33.6,34.2,34.2,2.6,4.2,2.8,-0.30188170121746455,-0.09772488715138886,0.8536272593365443,-0.11556821026190185,-0.862857,-16.400476
11.185,2.0,1.0,1.0,33.6,34.2,34.2,2.6,4.2,2.8025,-0.3204936079665185,-0.09936653270352226,0.8397767811484831,-0.12543618818982594,-0.926202,-15.916253
11.185,2.0,1.0,1.0,33.6,34.2,34.2,2.6,4.2,2.805,-0.3390012602733995,-0.10070441872576381,0.8245115075736562,-0.13633543818382887,-0.997743,-15.416835
11.185,2.0,1.0,1.0,33.6,34.2,34.2,2.6,4.2,2.8075,-0.35729165738745267,-0.10162499286154907,0.8076870065449686,-0.14839173170373904,-1.078967,-14.90156
11.185,2.0,1.0,1.0,33.6,34.2,34.2,2.6,4.2,2.81,-0.3752173569220932,-0.10198071189304286,0.7891444538820269,-0.16174381937765855,-1.171699,-14.369804
11.185,2.0,1.0,1.0,33.6,34.2,34.2,2.6,4.2,2.8125,-0.392586262009566,-0.101579989267611,0.768711870560897,-0.176542047153719,-1.278193,-13.821027
11.185,2.0,1.0,1.0,33.6,34.2,34.2,2.6,4.2,2.815,-0.4091485629655932,-0.10017435437559709,0.7462075661842312,-0.1929447641392204,-1.401245,-13.254825
11.185,2.0,1.0,1.0,33.6,34.2,34.2,2.6,4.2,2.8175,-0.42458031230994325,-0.09744232086918163,0.7214472474457914,-0.21111107753310357,-1.544341,-12.671007
11.185,2.0,1.0,1.0,33.6,34.2,34.2,2.6,4.2,2.82,-0.4384633176366632,-0.09296967010952606,0.6942570264381913,-0.23118774572177686,-1.711836,-12.069704
11.185,2.0,1.0,1.0,33.6,34.2,34.2,2.6,4.2,2.8225,-0.45026162938116854,-0.08622644864900009,0.6644956469505691,-0.2532869359985786,-1.909186,-11.451521
11.185,2.0,1.0,1.0,33.6,34.2,34.2,2.6,4.2,2.825,-0.45929623701171657,-0.07654230768961345,0.632090632932396,-0.2774502155827126,-2.143203,-10.817738
11.185,2.0,1.0,1.0,33.6,34.2,34.2,2.6,4.2,2.8275,-0.46472224541959645,-0.06308444623585895,0.5970945440008215,-0.3035927032039705,-2.422331,-10.170589
