1,w,sub_t,h,l1,l2,l3,g1,g2,Freq,S11_re,S21_re,S11_img,S21_img,S11_dB,S21_dB
11.185,2.0,1.0,1.0,33.5,34.5,34.5,3.1,3.9,2.5,0.846738605144238,-0.00684481829655042,0.519502972842561,0.00490456852619373,-0.05749,-41.49315
11.185,2.0,1.0,1.0,33.5,34.5,34.5,3.1,3.9,2.5025,0.8432120685267551,-0.0069865640675140575,0.5250807549444505,0.0049253818650022785,-0.058077,-41.362522
11.185,2.0,1.0,1.0,33.5,34.5,34.5,3.1,3.9,2.505,0.8396326006184938,-0.007131135092867394,0.5306578163498499,0.004945580816709851,-0.058674,-41.231366
11.185,2.0,1.0,1.0,33.5,34.5,34.5,3.1,3.9,2.5075,0.8359996477915561,-0.007278602400146808,0.536233916798726,0.00496513595195371,-0.059283,-41.099669
11.185,2.0,1.0,1.0,33.5,34.5,34.5,3.1,3.9,2.51,0.8323126463617772,-0.0074290394327801695,0.5418088084934816,0.004984016552390964,-0.059905,-40.967415
11.185,2.0,1.0,1.0,33.5,34.5,34.5,3.1,3.9,2.5125,0.8285710223583274,-0.007582522154665526,0.5473822358352373,0.005002190545286123,-0.060538,-40.834589
11.185,2.0,1.0,1.0,33.5,34.5,34.5,3.1,3.9,2.515,0.8247741912858234,-0.007739129160259374,0.552953935149972,0.005019624434209518,-0.061185,-40.701177
11.185,2.0,1.0,1.0,33.5,34.5,34.5,3.1,3.9,2.5175,0.8209215578785876,-0.007898941790515883,0.5585236344040256,0.005036283225577332,-0.061844,-40.567161
11.185,2.0,1.0,1.0,33.5,34.5,34.5,3.1,3.9,2.52,0.8170125158466509,-0.008062044255043739,0.5640910529084744,0.0050521303507457226,-0.062516,-40.432527
11.185,2.0,1.0,1.0,33.5,34.5,34.5,3.1,3.9,2.5225,0.8130464476130983,-0.008228523760872568,0.5696559010118151,0.005067127583344693,-0.063203,-40.297257
11.185,2.0,1.0,1.0,33.5,34.5,34.5,3.1,3.9,2.525,0.8090227240422915,-0.008398470648250486,0.5752178797804033,0.005081234951508291,-0.063904,-40.161336
11.185,2.0,1.0,1.0,33.5,34.5,34.5,3.1,3.9,2.5275,0.8049407041584982,-0.008571978533924014,0.5807766806660308,0.0050944106446469675,-0.064619,-40.024745
11.185,2.0,1.0,1.0,33.5,34.5,34.5,3.1,3.9,2.53,0.8007997348544152,-0.008749144462385564,0.5863319851599841,0.005106610914354691,-0.065349,-39.887468
11.185,2.0,1.0,1.0,33.5,34.5,34.5,3.1,3.9,2.5325,0.7965991505890343,-0.008930069065609452,0.5918834644328994,0.005117789969026752,-0.066095,-39.749486
11.185,2.0,1.0,1.0,33.5,34.5,34.5,3.1,3.9,2.535,0.7923382730742596,-0.009114856731836655,0.597430778959681,0.005127899861728033,-0.066857,-39.610781
11.185,2.0,1.0,1.0,33.5,34.5,34.5,3.1,3.9,2.5375,0.788016410949651,-0.009303615784010462,0.6029735781286771,0.005136890370798612,-0.067635,-39.471333
11.185,2.0,1.0,1.0,33.5,34.5,34.5,3.1,3.9,2.54,0.7836328594446086,-0.009496458668511907,0.6085114998342913,0.005144708872655541,-0.068431,-39.331124
11.185,2.0,1.0,1.0,33.5,34.5,34.5,3.1,3.9,2.5425,0.779186900027269,-0.00969350215489294,0.6140441700521162,0.005151300206200509,-0.069244,-39.190134
11.185,2.0,1.0,1.0,33.5,34.5,34.5,3.1,3.9,2.545,0.7746778000393314,-0.009894867547360235,0.6195712023956332,0.005156606528176385,-0.070075,-39.048342
11.185,2.0,1.0,1.0,33.5,34.5,34.5,3.1,3.9,2.5475,0.7701048123159694,-0.01010068090882081,0.6250921976534305,0.005160567158781944,-0.070924,-38.905726
11.185,2.0,1.0,1.0,33.5,34.5,34.5,3.1,3.9,2.55,0.7654671747899096,-0.010311073298365852,0.6306067433058543,0.005163118416772024,-0.071793,-38.762267
11.185,2.0,1.0,1.0,33.5,34.5,34.5,3.1,3.9,2.5525,0.7607641100787117,-0.010526181023137529,0.6361144130198699,0.005164193443210243,-0.072682,-38.61794
11.185,2.0,1.0,1.0,33.5,34.5,34.5,3.1,3.9,2.555,0.7559948250541733,-0.0107461459056014,0.6416147661208759,0.005163722012969534,-0.073592,-38.472725
11.185,2.0,1.0,1.0,33.5,34.5,34.5,3.1,3.9,2.5575,0.7511585103927222,-0.010971115567328875,0.647107347040082,0.005161630332980696,-0.074522,-38.326596
11.185,2.0,1.0,1.0,33.5,34.5,34.5,3.1,3.9,2.56,0.7462543401055662,-0.011201243730485266,0.6525916847359552,0.005157840826150308,-0.075475,-38.179531
11.185,2.0,1.0,1.0,33.5,34.5,34.5,3.1,3.9,2.5625,0.7412814710472496,-0.01143669053831805,0.6580672920881366,0.005152271899753766,-0.07645,-38.031504
11.185,2.0,1.0,1.0,33.5,34.5,34.5,3.1,3.9,2.565,0.7362390424011737,-0.011677622896048089,0.6635336652620856,0.005144837697013925,-0.077449,-37.88249
11.185,2.0,1.0,1.0,33.5,34.5,34.5,3.1,3.9,2.5675,0.731126175140514,-0.011924214833684723,0.6689902830425715,0.005135447830432147,-0.078472,-37.732462
11.185,2.0,1.0,1.0,33.5,34.5,34.5,3.1,3.9,2.57,0.725941971462826,-0.012176647892415777,0.6744366061339769,0.005124007095317031,-0.07952,-37.581394
11.185,2.0,1.0,1.0,33.5,34.5,34.5,3.1,3.9,2.5725,0.7206855141964877,-0.012435111536365033,0.6798720764252004,0.0051104151617945215,-0.080594,-37.429257
11.185,2.0,1.0,1.0,33.5,34.5,34.5,3.1,3.9,2.575,0.7153558661769783,-0.012699803591665735,0.6852961162167573,0.005094566243413054,-0.081695,-37.276023
11.185,2.0,1.0,1.0,33.5,34.5,34.5,3.1,3.9,2.5775,0.7099520695907999,-0.012970930714969414,0.6907081274074613,0.00507634874027307,-0.082824,-37.121661
11.185,2.0,1.0,1.0,33.5,34.5,34.5,3.1,3.9,2.58,0.7044731452846728,-0.013248708893697076,0.6961074906378385,0.00505564485440308,-0.083983,-36.966142
11.185,2.0,1.0,1.0,33.5,34.5,34.5,3.1,3.9,2.5825,0.6989180920374044,-0.013533363980546526,0.7014935643871741,0.005032330174851169,-0.085171,-36.809433
11.185,2.0,1.0,1.0,33.5,34.5,34.5,3.1,3.9,2.585,0.6932858857916183,-0.013825132264995923,0.7068656840207808,0.0050062732297332805,-0.08639,-36.651502
11.185,2.0,1.0,1.0,33.5,34.5,34.5,3.1,3.9,2.5875,0.6875754788422503,-0.014124261084794903,0.7122231607837924,0.004977335002153049,-0.087642,-36.492315
11.185,2.0,1.0,1.0,33.5,34.5,34.5,3.1,3.9,2.59,0.6817857989784577,-0.014431009480708672,0.717565280737391,0.004945368406607507,-0.088928,-36.331836
11.185,2.0,1.0,1.0,33.5,34.5,34.5,3.1,3.9,2.5925,0.6759157485752498,-0.014745648898086564,0.7228913036330148,0.004910217722115098,-0.090249,-36.17003
11.185,2.0,1.0,1.0,33.5,34.5,34.5,3.1,3.9,2.595,0.6699642036308285,-0.015068463939160238,0.7282004617196195,0.004871717977897475,-0.091606,-36.006859
11.185,2.0,1.0,1.0,33.5,34.5,34.5,3.1,3.9,2.5975,0.6639300127452146,-0.015399753170349936,0.7334919584785994,0.004829694286985842,-0.093,-35.842284
11.185,2.0,1.0,1.0,33.5,34.5,34.5,3.1,3.9,2.6,0.6578119960353325,-0.0157398299892665,0.7387649672803951,0.0047839611226085784,-0.094435,-35.676264
11.185,2.0,1.0,1.0,33.5,34.5,34.5,3.1,3.9,2.6025,0.6516089439812567,-0.01608902355655186,0.7440186299562023,0.004734321531631658,-0.09591,-35.508758
11.185,2.0,1.0,1.0,33.5,34.5,34.5,3.1,3.9,2.605,0.6453196161977822,-0.01644767979820543,0.7492520552775037,0.004680566278674118,-0.097428,-35.339723
11.185,2.0,1.0,1.0,33.5,34.5,34.5,3.1,3.9,2.6075,0.6389427401249256,-0.01681616248460221,0.7544643173353444,0.004622472913773543,-0.098991,-35.169114
11.185,2.0,1.0,1.0,33.5,34.5,34.5,3.1,3.9,2.61,0.6324770096303126,-0.017194854393029778,0.7596544538103918,0.004559804755642016,-0.100601,-34.996883
11.185,2.0,1.0,1.0,33.5,34.5,34.5,3.1,3.9,2.6125,0.6259210835156865,-0.017584158561261946,0.7648214641238249,0.004492309781612714,-0.102259,-34.822982
11.185,2.0,1.0,1.0,33.5,34.5,34.5,3.1,3.9,2.615,0.6192735839189831,-0.01798449964045502,0.7699643074579569,0.0044197194142970376,-0.103968,-34.647361
11.185,2.0,1.0,1.0,33.5,34.5,34.5,3.1,3.9,2.6175,0.6125330946025406,-0.018396325356507506,0.7750819006342106,0.004341747193741007,-0.10573,-34.469967
11.185,2.0,1.0,1.0,33.5,34.5,34.5,3.1,3.9,2.62,0.6056981591170062,-0.01882010808997889,0.780173115834622,0.004258087322510267,-0.107548,-34.290746
11.185,2.0,1.0,1.0,33.5,34.5,34.5,3.1,3.9,2.6225,0.5987672788294125,-0.019256346585727543,0.7852367781513774,0.004168413069506506,-0.109424,-34.10964
11.185,2.0,1.0,1.0,33.5,34.5,34.5,3.1,3.9,2.625,0.591738910802669,-0.0197055678046157,0.790271662947009,0.00407237501656033,-0.111361,-33.92659
11.185,2.0,1.0,1.0,33.5,34.5,34.5,3.1,3.9,2.6275,0.584611465512313,-0.020168328930961103,0.7952764930057277,0.003969599129729245,-0.113362,-33.741535
11.185,2.0,1.0,1.0,33.5,34.5,34.5,3.1,3.9,2.63,0.5773833043848529,-0.020645219550901255,0.8002499354538967,0.003859684634896184,-0.11543,-33.55441
11.185,2.0,1.0,1.0,33.5,34.5,34.5,3.1,3.9,2.6325,0.570052737140285,-0.021136864018504092,0.80519059842484,0.003742201674517533,-0.117568,-33.365148
11.185,2.0,1.0,1.0,33.5,34.5,34.5,3.1,3.9,2.635,0.562618018919441,-0.021643924028327797,0.810097027439931,0.003616688719264109,-0.119781,-33.173677
11.185,2.0,1.0,1.0,33.5,34.5,34.5,3.1,3.9,2.6375,0.5550773471746483,-0.022167101415229762,0.8149677014741878,0.003482649704658576,-0.122072,-32.979926
11.185,2.0,1.0,1.0,33.5,34.5,34.5,3.1,3.9,2.64,0.5474288582997259,-0.022707141204582573,0.8198010286703062,0.003339550858683406,-0.124445,-32.783816
11.185,2.0,1.0,1.0,33.5,34.5,34.5,3.1,3.9,2.6425,0.5396706239726177,-0.023264834938700803,0.8245953416600791,0.0031868171814770437,-0.126905,-32.585267
11.185,2.0,1.0,1.0,33.5,34.5,34.5,3.1,3.9,2.645,0.5318006471808548,-0.023841024308264576,0.8293488924464256,0.0030238285326618366,-0.129456,-32.384195
11.185,2.0,1.0,1.0,33.5,34.5,34.5,3.1,3.9,2.6475,0.5238168578965732,-0.024436605120878002,0.8340598467925546,0.002849915275336328,-0.132104,-32.180511
11.185,2.0,1.0,1.0,33.5,34.5,34.5,3.1,3.9,2.65,0.5157171083638659,-0.025052531642681283,0.8387262780570393,0.0026643534181979155,-0.134854,-31.974123
11.185,2.0,1.0,1.0,33.5,34.5,34.5,3.1,3.9,2.6525,0.5074991679568854,-0.025689821353189146,0.843346160404496,0.002466359188390856,-0.137712,-31.764933
11.185,2.0,1.0,1.0,33.5,34.5,34.5,3.1,3.9,2.655,0.49916071756205943,-0.026349560158333125,0.8479173613109979,0.002255082957351792,-0.140684,-31.552839
11.185,2.0,1.0,1.0,33.5,34.5,34.5,3.1,3.9,2.6575,0.49069934343221583,-0.027032908112093378,0.8524376332709082,0.002029602429731634,-0.143779,-31.337733
11.185,2.0,1.0,1.0,33.5,34.5,34.5,3.1,3.9,2.66,0.4821125304540528,-0.02774110570321152,0.8569046045972364,0.0017889149911980832,-0.147002,-31.119502
11.185,2.0,1.0,1.0,33.5,34.5,34.5,3.1,3.9,2.6625,0.4733976547632467,-0.028475480770353587,0.8613157691904177,0.0015319290940394293,-0.150363,-30.898027
11.185,2.0,1.0,1.0,33.5,34.5,34.5,3.1,3.9,2.665,0.46455197563341005,-0.02923745611684725,0.8656684751300894,0.0012574545395374328,-0.15387,-30.673183
11.185,2.0,1.0,1.0,33.5,34.5,34.5,3.1,3.9,2.6675,0.45557262655607345,-0.03002855790483907,0.8699599119203346,0.0009641914924002696,-0.157533,-30.444835
11.185,2.0,1.0,1.0,33.5,34.5,34.5,3.1,3.9,2.67,0.44645660541860616,-0.030850424918531193,0.8741870961902413,0.0006507180343873874,-0.161363,-30.212845
11.185,2.0,1.0,1.0,33.5,34.5,34.5,3.1,3.9,2.6725,0.4372007636755383,-0.03170481879716066,0.8783468556174758,0.0003154760306708993,-0.165371,-29.977065
11.185,2.0,1.0,1.0,33.5,34.5,34.5,3.1,3.9,2.675,0.4278017943959095,-0.03259363535069684,0.8824358108017256,-4.324495774910243e-05,-0.169571,-29.737336
11.185,2.0,1.0,1.0,33.5,34.5,34.5,3.1,3.9,2.6775,0.41825621905489613,-0.03351891708495945,0.8864503547658856,-0.00042732603053061125,-0.173975,-29.493495
11.185,2.0,1.0,1.0,33.5,34.5,34.5,3.1,3.9,2.68,0.4085603729220401,-0.03448286707808142,0.8903866297038711,-0.0008388399464604527,-0.1786,-29.245363
11.185,2.0,1.0,1.0,33.5,34.5,34.5,3.1,3.9,2.6825,0.3987103888808137,-0.03548786436700243,0.8942405005227051,-0.001280075207291372,-0.183462,-28.992756
11.185,2.0,1.0,1.0,33.5,34.5,34.5,3.1,3.9,2.685,0.3887021794949678,-0.03653648102097466,0.8980075246401732,-0.0017535637555328393,-0.188581,-28.735473
11.185,2.0,1.0,1.0,33.5,34.5,34.5,3.1,3.9,2.6875,0.37853141711628896,-0.037631501098756466,0.9016829173942752,-0.0022621129184910486,-0.193976,-28.473304
11.185,2.0,1.0,1.0,33.5,34.5,34.5,3.1,3.9,2.69,0.36819351180625803,-0.038775941706990474,0.9052615122924307,-0.002808842357578615,-0.199671,-28.206024
11.185,2.0,1.0,1.0,33.5,34.5,34.5,3.1,3.9,2.6925,0.357683586821084,-0.039973076398677476,0.908737715171161,-0.003397226937224813,-0.205692,-27.933392
11.185,2.0,1.0,1.0,33.5,34.5,34.5,3.1,3.9,2.695,0.3469964513867238,-0.04122646117174232,0.9121054511434458,-0.0040311466189884414,-0.212067,-27.655153
11.185,2.0,1.0,1.0,33.5,34.5,34.5,3.1,3.9,2.6975,0.33612657046896516,-0.04253996334698989,0.9153581029718841,-0.004714944722789822,-0.218827,-27.371032
11.185,2.0,1.0,1.0,33.5,34.5,34.5,3.1,3.9,2.7,0.32506803122597744,-0.043917793619909974,0.9184884392090997,-0.005453496190526833,-0.22601,-27.080735
11.185,2.0,1.0,1.0,33.5,34.5,34.5,3.1,3.9,2.7025,0.31381450582017645,-0.045364541588262544,0.921488530077168,-0.0062522878529018755,-0.233655,-26.783948
11.185,2.0,1.0,1.0,33.5,34.5,34.5,3.1,3.9,2.705,0.3023592102683459,-0.046885215051680924,0.9243496485951282,-0.007117513157897722,-0.241808,-26.480333
11.185,2.0,1.0,1.0,33.5,34.5,34.5,3.1,3.9,2.7075,0.2906948590316794,-0.04848528335247632,0.9270621538819525,-0.00805618439472332,-0.25052,-26.169525
11.185,2.0,1.0,1.0,33.5,34.5,34.5,3.1,3.9,2.71,0.27881361510303176,-0.050170724966059815,0.9296153528276,-0.009076266173816424,-0.259852,-25.851135
11.185,2.0,1.0,1.0,33.5,34.5,34.5,3.1,3.9,2.7125,0.26670703545540975,-0.051948079436492656,0.9319973353925143,-0.010186834845648475,-0.269869,-25.524738
11.185,2.0,1.0,1.0,33.5,34.5,34.5,3.1,3.9,2.715,0.2543660119010557,-0.053824503559992666,0.9341947776072972,-0.011398269716811972,-0.280649,-25.189879
11.185,2.0,1.0,1.0,33.5,34.5,34.5,3.1,3.9,2.7175,0.2417807077154463,-0.055807831405491594,0.9361927048217348,-0.012722483427733315,-0.29228,-24.846063
11.185,2.0,1.0,1.0,33.5,34.5,34.5,3.1,3.9,2.72,0.22894049086688203,-0.05790663726453285,0.9379742057927145,-0.014173200794336972,-0.304865,-24.492755
11.185,2.0,1.0,1.0,33.5,34.5,34.5,3.1,3.9,2.7225,0.21583386545307953,-0.06013029984969829,0.9395200856666738,-0.015766297921369306,-0.318524,-24.129371
11.185,2.0,1.0,1.0,33.5,34.5,34.5,3.1,3.9,2.725,0.2024484041221512,-0.06248906487035787,0.940808442620986,-0.017520216648589874,-0.333394,-23.75528
11.185,2.0,1.0,1.0,33.5,34.5,34.5,3.1,3.9,2.7275,0.18877068606026384,-0.06499410129288495,0.9418141486356663,-0.019456473633574275,-0.349638,-23.369791
11.185,2.0,1.0,1.0,33.5,34.5,34.5,3.1,3.9,2.73,0.17478624788946978,-0.06765754381266571,0.9425082092457121,-0.021600288927725926,-0.36745,-22.97215
11.185,2.0,1.0,1.0,33.5,34.5,34.5,3.1,3.9,2.7325,0.16047955903922323,-0.07049250982510279,0.9428569697413983,-0.02398136619221036,-0.387057,-22.561533
11.185,2.0,1.0,1.0,33.5,34.5,34.5,3.1,3.9,2.735,0.14583403961297656,-0.07351307270542913,0.942821125565898,-0.026634866290658043,-0.408731,-22.137038
11.185,2.0,1.0,1.0,33.5,34.5,34.5,3.1,3.9,2.7375,0.13083214868062,-0.0767341632823121,0.9423544818603753,-0.02960262861724582,-0.432799,-21.697677
11.185,2.0,1.0,1.0,33.5,34.5,34.5,3.1,3.9,2.74,0.11545558619516211,-0.08017135611867382,0.9414023902774684,-0.032934711099476544,-0.459658,-21.242362
11.185,2.0,1.0,1.0,33.5,34.5,34.5,3.1,3.9,2.7425,0.09968567537375003,-0.08384047359290635,0.9398997691720147,-0.03669134147580888,-0.489789,-20.769903
11.185,2.0,1.0,1.0,33.5,34.5,34.5,3.1,3.9,2.745,0.08350402920379585,-0.08775690402592119,0.9377685848019431,-0.0409454004238932,-0.523787,-20.27899
11.185,2.0,1.0,1.0,33.5,34.5,34.5,3.1,3.9,2.7475,0.06689366243765998,-0.09193447256931396,0.9349146350921212,-0.04578559247772749,-0.562384,-19.768189
11.185,2.0,1.0,1.0,33.5,34.5,34.5,3.1,3.9,2.75,0.0498408014361733,-0.0963836129341051,0.931223433541161,-0.05132050361004,-0.606499,-19.235928
11.185,2.0,1.0,1.0,33.5,34.5,34.5,3.1,3.9,2.7525,0.032337788565914884,-0.10110844440849097,0.9265549412436088,-0.05768379246792534,-0.65729,-18.680499
11.185,2.0,1.0,1.0,33.5,34.5,34.5,3.1,3.9,2.755,0.014387707905824554,-0.10610212993239591,0.9207368483914026,-0.06504080670051007,-0.716229,-18.100055
11.185,2.0,1.0,1.0,33.5,34.5,34.5,3.1,3.9,2.7575,-0.003988273435915858,-0.11133952604243831,0.9135560864271665,-0.07359693292720129,-0.785213,-17.49263
11.185,2.0,1.0,1.0,33.5,34.5,34.5,3.1,3.9,2.76,-0.022739267850366736,-0.11676555412263916,0.90474831455945,-0.08360792206421547,-0.866702,-16.85617
11.185,2.0,1.0,1.0,33.5,34.5,34.5,3.1,3.9,2.7625,-0.041766226362509914,-0.12227680480177425,0.8939853971703469,-0.0953921532430175,-0.963923,-16.188618
11.185,2.0,1.0,1.0,33.5,34.5,34.5,3.1,3.9,2.765,-0.06089275486087714,-0.1276924720278163,0.8808616500441787,-0.10934403159342215,-1.081141,-15.48805
11.185,2.0,1.0,1.0,33.5,34.5,34.5,3.1,3.9,2.7675,-0.07981914085271788,-0.1327086376675987,0.8648814714065779,-0.12594587215993966,-1.224035,-14.752931
11.185,2.0,1.0,1.0,33.5,34.5,34.5,3.1,3.9,2.77,-0.09805077358214298,-0.13682721388885688,0.845455083289364,-0.14577151768783198,-1.400166,-13.982547
11.185,2.0,1.0,1.0,33.5,34.5,34.5,3.1,3.9,2.7725,-0.11478951103182787,-0.1392483206519824,0.821917764567685,-0.16946632056765276,-1.619539,-13.177743
11.185,2.0,1.0,1.0,33.5,34.5,34.5,3.1,3.9,2.775,-0.12877738719985576,-0.13871587309888594,0.7936049519404992,-0.19767125592031867,-1.895037,-12.342121
11.185,2.0,1.0,1.0,33.5,34.5,34.5,3.1,3.9,2.7775,-0.13809637991364387,-0.1333206735666815,0.7600452782978543,-0.2308296009539734,-2.242153,-11.483949
11.185,2.0,1.0,1.0,33.5,34.5,34.5,3.1,3.9,2.78,-0.13998008881804638,-0.1203174629080999,0.721373509035846,-0.2687755687261293,-2.67627,-10.618978
11.185,2.0,1.0,1.0,33.5,34.5,34.5,3.1,3.9,2.7825,-0.13082598761456793,-0.09614433500949883,0.6790790814302076,-0.3099921065421645,-3.203325,-9.774115
11.185,2.0,1.0,1.0,33.5,34.5,34.5,3.1,3.9,2.785,-0.10683174354046425,-0.05706423153853644,0.6370637925826762,-0.35056880494111925,-3.795898,-8.990962
11.185,2.0,1.0,1.0,33.5,34.5,34.5,3.1,3.9,2.7875,-0.06582677849244623,-0.0009881330182014041,0.6024415538225905,-0.3834286990267586,-4.350157,-8.326279
11.185,2.0,1.0,1.0,33.5,34.5,34.5,3.1,3.9,2.79,-0.010229779807736256,0.06960642498274922,0.5846090019008556,-0.39928058282451057,-4.66136,-7.844416
11.185,2.0,1.0,1.0,33.5,34.5,34.5,3.1,3.9,2.7925,0.05098961320481609,0.14577854252100172,0.5912277714441875,-0.3906160334956842,-4.53272,-7.598696
11.185,2.0,1.0,1.0,33.5,34.5,34.5,3.1,3.9,2.795,0.10478148967772051,0.21462446240828334,0.6229596987196186,-0.35688739409330056,-3.98964,-7.608701
11.185,2.0,1.0,1.0,33.5,34.5,34.5,3.1,3.9,2.7975,0.1405584024320575,0.26575412306661056,0.6722393953125455,-0.30565013462001706,-3.263687,-7.85031
11.185,2.0,1.0,1.0,33.5,34.5,34.5,3.1,3.9,2.8,0.15490415278280636,0.2958919284929052,0.7279219235749141,-0.24792656299277221,-2.565956,-8.267566
11.185,2.0,1.0,1.0,33.5,34.5,34.5,3.1,3.9,2.8025,0.15071213964946656,0.3079724833081178,0.780930633623468,-0.19264178109387897,-1.988936,-8.795646
11.185,2.0,1.0,1.0,33.5,34.5,34.5,3.1,3.9,2.805,0.1334383493676804,0.30742553659771227,0.8264646945991361,-0.14447955739305543,-1.543751,-9.378514
11.185,2.0,1.0,1.0,33.5,34.5,34.5,3.1,3.9,2.8075,0.10821821399767119,0.29933941720837753,0.863195160076791,-0.10469837653905549,-1.210091,-9.975495
11.185,2.0,1.0,1.0,33.5,34.5,34.5,3.1,3.9,2.81,0.07879625052235274,0.2874174081042693,0.891670429126615,-0.07271172201445002,-0.96213,-10.560321
11.185,2.0,1.0,1.0,33.5,34.5,34.5,3.1,3.9,2.8125,0.0475473892031657,0.274006989508306,0.913133107789514,-0.0472546982427774,-0.777559,-11.117484
11.185,2.0,1.0,1.0,33.5,34.5,34.5,3.1,3.9,2.815,0.015843125515554172,0.260465119751142,0.9289032118959276,-0.02698994956710846,-0.639328,-11.638625
11.185,2.0,1.0,1.0,33.5,34.5,34.5,3.1,3.9,2.8175,-0.015588750303108065,0.24751481087837693,0.9401334183292667,-0.010746706474703464,-0.535016,-12.119797
11.185,2.0,1.0,1.0,33.5,34.5,34.5,3.1,3.9,2.82,-0.046404085105437066,0.23550229453466992,0.9477488994169291,0.002421691702784545,-0.455735,-12.559638
11.185,2.0,1.0,1.0,33.5,34.5,34.5,3.1,3.9,2.8225,-0.07647637222861077,0.22456094155247822,0.9524617666561195,0.013253414300612516,-0.39514,-12.958214
11.185,2.0,1.0,1.0,33.5,34.5,34.5,3.1,3.9,2.825,-0.10579728074676456,0.21470941269081212,0.9548079418200875,0.022315602168992466,-0.348683,-13.316316
11.185,2.0,1.0,1.0,33.5,34.5,34.5,3.1,3.9,2.8275,-0.1344192044630557,0.20590832896184763,0.9551852425371988,0.03004289968878902,-0.313082,-13.635039
11.185,2.0,1.0,1.0,33.5,34.5,34.5,3.1,3.9,2.83,-0.16242295607108617,0.19809215202220326,0.9538856487610302,0.03677022736585538,-0.285947,-13.915537
