1,w,sub_t,h,l1,l2,l3,g1,g2,Freq,S11_re,S21_re,S11_img,S21_img,S11_dB,S21_dB
11.185,2.0,1.0,1.0,33.2,34.2,34.2,3.9,2.3,2.5,0.879223387052006,-0.00590685224369279,0.464090117790783,0.00542192856731807,-0.050614,-41.918686
11.185,2.0,1.0,1.0,33.2,34.2,34.2,3.9,2.3,2.5025,0.8762694271650556,-0.006032561913896532,0.46953318086916607,0.0054562305380019835,-0.05107,-41.793897
11.185,2.0,1.0,1.0,33.2,34.2,34.2,3.9,2.3,2.505,0.8732698567079656,-0.006160690847158694,0.47497739694016583,0.005490259185064038,-0.051535,-41.668717
11.185,2.0,1.0,1.0,33.2,34.2,34.2,3.9,2.3,2.5075,0.8702242437919265,-0.006291295409674273,0.48042260499682543,0.005523997161772833,-0.052008,-41.543133
11.185,2.0,1.0,1.0,33.2,34.2,34.2,3.9,2.3,2.51,0.8671321490175541,-0.006424433738324167,0.48586863920217815,0.0055574263806198315,-0.05249,-41.417135
11.185,2.0,1.0,1.0,33.2,34.2,34.2,3.9,2.3,2.5125,0.8639931253163162,-0.006560165811309249,0.49131532872469935,0.005590527977809003,-0.052981,-41.290709
11.185,2.0,1.0,1.0,33.2,34.2,34.2,3.9,2.3,2.515,0.8608067177874223,-0.00669855352220935,0.49676249756792956,0.005623282275781372,-0.05348,-41.163844
11.185,2.0,1.0,1.0,33.2,34.2,34.2,3.9,2.3,2.5175,0.8575724635299888,-0.006839660757662494,0.5022099643940096,0.005655668743648793,-0.05399,-41.036527
11.185,2.0,1.0,1.0,33.2,34.2,34.2,3.9,2.3,2.52,0.8542898914702581,-0.006983553478873714,0.5076575423408829,0.005687665955402274,-0.054508,-40.908744
11.185,2.0,1.0,1.0,33.2,34.2,34.2,3.9,2.3,2.5225,0.8509585221836689,-0.007130299807175215,0.5131050388328726,0.00571925154574996,-0.055037,-40.780483
11.185,2.0,1.0,1.0,33.2,34.2,34.2,3.9,2.3,2.525,0.8475778677115302,-0.007279970113875959,0.5185522553843659,0.005750402163429728,-0.055576,-40.65173
11.185,2.0,1.0,1.0,33.2,34.2,34.2,3.9,2.3,2.5275,0.8441474313720532,-0.007432637114653817,0.5239989873962908,0.005781093421828246,-0.056125,-40.522471
11.185,2.0,1.0,1.0,33.2,34.2,34.2,3.9,2.3,2.53,0.8406667075654823,-0.0075883759687607475,0.5294450239450681,0.005811299846728088,-0.056685,-40.392693
11.185,2.0,1.0,1.0,33.2,34.2,34.2,3.9,2.3,2.5325,0.8371351815730351,-0.007747264383330341,0.5348901475636946,0.005840994820987893,-0.057256,-40.262381
11.185,2.0,1.0,1.0,33.2,34.2,34.2,3.9,2.3,2.535,0.8335523293493536,-0.007909382723096766,0.5403341340146103,0.00587015052594857,-0.057839,-40.131521
11.185,2.0,1.0,1.0,33.2,34.2,34.2,3.9,2.3,2.5375,0.8299176173081494,-0.008074814125855522,0.5457767520539554,0.005898737879339569,-0.058433,-40.000099
11.185,2.0,1.0,1.0,33.2,34.2,34.2,3.9,2.3,2.54,0.8262305021006957,-0.008243644624019927,0.5512177631868255,0.005926726469444022,-0.059039,-39.868097
11.185,2.0,1.0,1.0,33.2,34.2,34.2,3.9,2.3,2.5425,0.8224904303867994,-0.008415963272652136,0.556656921413096,0.0059540844852607935,-0.059657,-39.735503
11.185,2.0,1.0,1.0,33.2,34.2,34.2,3.9,2.3,2.545,0.8186968385978676,-0.008591862284374443,0.5620939729633632,0.005980778642381183,-0.060288,-39.602298
11.185,2.0,1.0,1.0,33.2,34.2,34.2,3.9,2.3,2.5475,0.8148491526916438,-0.00877143717159568,0.567528656024512,0.006006774104275206,-0.060932,-39.468468
11.185,2.0,1.0,1.0,33.2,34.2,34.2,3.9,2.3,2.55,0.8109467878981658,-0.008954786896519849,0.5729607004544208,0.006032034398658015,-0.061589,-39.333996
11.185,2.0,1.0,1.0,33.2,34.2,34.2,3.9,2.3,2.5525,0.8069891484564707,-0.009142014029436775,0.5783898274852273,0.006056521328578435,-0.06226,-39.198865
11.185,2.0,1.0,1.0,33.2,34.2,34.2,3.9,2.3,2.555,0.8029756273415233,-0.009333224915833285,0.5838157494146027,0.006080194877844323,-0.062946,-39.063057
11.185,2.0,1.0,1.0,33.2,34.2,34.2,3.9,2.3,2.5575,0.7989056059808143,-0.009528529852902189,0.5892381692844033,0.006103013110364309,-0.063646,-38.926555
11.185,2.0,1.0,1.0,33.2,34.2,34.2,3.9,2.3,2.56,0.7947784539600399,-0.009728043276070034,0.5946567805460358,0.00612493206295276,-0.064362,-38.789341
11.185,2.0,1.0,1.0,33.2,34.2,34.2,3.9,2.3,2.5625,0.790593528717217,-0.00993188395621194,0.600071266711834,0.006145905631104081,-0.065093,-38.651395
11.185,2.0,1.0,1.0,33.2,34.2,34.2,3.9,2.3,2.565,0.7863501752245429,-0.0101401752082727,0.6054813009916921,0.006165885447200643,-0.06584,-38.5127
11.185,2.0,1.0,1.0,33.2,34.2,34.2,3.9,2.3,2.5675,0.782047725657267,-0.010353045112068434,0.6108865459141378,0.006184820750571548,-0.066603,-38.373234
11.185,2.0,1.0,1.0,33.2,34.2,34.2,3.9,2.3,2.57,0.7776854990487644,-0.010570626746104156,0.6162866529309815,0.006202658248769769,-0.067384,-38.232979
11.185,2.0,1.0,1.0,33.2,34.2,34.2,3.9,2.3,2.5725,0.7732628009309537,-0.010793058435307451,0.6216812620046085,0.006219341969375957,-0.068183,-38.091913
11.185,2.0,1.0,1.0,33.2,34.2,34.2,3.9,2.3,2.575,0.7687789229591251,-0.01102048401365017,0.6270700011769097,0.00623481310157828,-0.069,-37.950016
11.185,2.0,1.0,1.0,33.2,34.2,34.2,3.9,2.3,2.5775,0.7642331425201736,-0.011253053102707621,0.6324524861187696,0.006249009826707409,-0.069835,-37.807264
11.185,2.0,1.0,1.0,33.2,34.2,34.2,3.9,2.3,2.58,0.7596247223231509,-0.01149092140728942,0.6378283196589496,0.0062618671368312,-0.07069,-37.663637
11.185,2.0,1.0,1.0,33.2,34.2,34.2,3.9,2.3,2.5825,0.7549529099709484,-0.011734251029368903,0.643197091291113,0.0062733166404318275,-0.071566,-37.519111
11.185,2.0,1.0,1.0,33.2,34.2,34.2,3.9,2.3,2.585,0.7502169375118483,-0.011983210801638207,0.6485583766576309,0.0062832863540933205,-0.072462,-37.373661
11.185,2.0,1.0,1.0,33.2,34.2,34.2,3.9,2.3,2.5875,0.7454160209695441,-0.012237976642127245,0.6539117370087087,0.006291700479030778,-0.07338,-37.227265
11.185,2.0,1.0,1.0,33.2,34.2,34.2,3.9,2.3,2.59,0.740549359850143,-0.012498731931444103,0.6592567186352345,0.006298479161176011,-0.07432,-37.079896
11.185,2.0,1.0,1.0,33.2,34.2,34.2,3.9,2.3,2.5925,0.7356161366245065,-0.01276566791432761,0.6645928522736372,0.006303538233413622,-0.075283,-36.93153
11.185,2.0,1.0,1.0,33.2,34.2,34.2,3.9,2.3,2.595,0.7306155161841729,-0.013038984127345676,0.6699196524808686,0.006306788938421631,-0.076271,-36.782138
11.185,2.0,1.0,1.0,33.2,34.2,34.2,3.9,2.3,2.5975,0.7255466452689165,-0.013318888854732792,0.6752366169774868,0.006308137630419793,-0.077283,-36.631694
11.185,2.0,1.0,1.0,33.2,34.2,34.2,3.9,2.3,2.6,0.7204086518638593,-0.013605599614532527,0.6805432259566165,0.006307485453957127,-0.07832,-36.480169
11.185,2.0,1.0,1.0,33.2,34.2,34.2,3.9,2.3,2.6025,0.7152006445638415,-0.013899343677401645,0.6858389413563641,0.006304727997683584,-0.079385,-36.327534
11.185,2.0,1.0,1.0,33.2,34.2,34.2,3.9,2.3,2.605,0.7099217119025635,-0.014200358620642504,0.691123206093058,0.006299754920837815,-0.080477,-36.173759
11.185,2.0,1.0,1.0,33.2,34.2,34.2,3.9,2.3,2.6075,0.7045709216437712,-0.014508892920259791,0.696395443252412,0.006292449549950334,-0.081598,-36.018813
11.185,2.0,1.0,1.0,33.2,34.2,34.2,3.9,2.3,2.61,0.6991473200315214,-0.014825206584091564,0.7016550552354539,0.006282688442999167,-0.082749,-35.862663
11.185,2.0,1.0,1.0,33.2,34.2,34.2,3.9,2.3,2.6125,0.6936499309962734,-0.015149571829344077,0.7069014228557453,0.006270340917960725,-0.08393,-35.705276
11.185,2.0,1.0,1.0,33.2,34.2,34.2,3.9,2.3,2.615,0.688077755313247,-0.015482273808167454,0.712133904384081,0.006255268542373318,-0.085144,-35.546618
11.185,2.0,1.0,1.0,33.2,34.2,34.2,3.9,2.3,2.6175,0.6824297697091627,-0.01582361138524914,0.7173518345364632,0.00623732458016112,-0.086392,-35.386652
11.185,2.0,1.0,1.0,33.2,34.2,34.2,3.9,2.3,2.62,0.6767049259130898,-0.016173897971777908,0.7225545234007312,0.006216353391555153,-0.087675,-35.225343
11.185,2.0,1.0,1.0,33.2,34.2,34.2,3.9,2.3,2.6225,0.6709021496467124,-0.016533462420546555,0.7277412552967366,0.0061921897814855515,-0.088993,-35.062652
11.185,2.0,1.0,1.0,33.2,34.2,34.2,3.9,2.3,2.625,0.665020339548887,-0.01690264998742,0.732911287564412,0.00616465829129555,-0.09035,-34.898538
11.185,2.0,1.0,1.0,33.2,34.2,34.2,3.9,2.3,2.6275,0.659058366028818,-0.017281823364906673,0.7380638492734939,0.006133572428042879,-0.091746,-34.732962
11.185,2.0,1.0,1.0,33.2,34.2,34.2,3.9,2.3,2.63,0.6530150700416422,-0.01767136379413397,0.7431981398479477,0.006098733824989984,-0.093184,-34.56588
11.185,2.0,1.0,1.0,33.2,34.2,34.2,3.9,2.3,2.6325,0.6468892617795681,-0.018071672262156623,0.7483133275974024,0.00605993132613456,-0.094664,-34.397249
11.185,2.0,1.0,1.0,33.2,34.2,34.2,3.9,2.3,2.635,0.6406797192710162,-0.01848317079222337,0.753408548147007,0.006016939986786284,-0.09619,-34.227022
11.185,2.0,1.0,1.0,33.2,34.2,34.2,3.9,2.3,2.6375,0.6343851868794362,-0.018906303835401515,0.7584829027561494,0.005969519981231184,-0.097762,-34.055152
11.185,2.0,1.0,1.0,33.2,34.2,34.2,3.9,2.3,2.64,0.6280043736925821,-0.019341539772823633,0.7635354565153639,0.005917415407436257,-0.099384,-33.881589
11.185,2.0,1.0,1.0,33.2,34.2,34.2,3.9,2.3,2.6425,0.6215359517920857,-0.01978937253878013,0.7685652364094708,0.005860352977503594,-0.101057,-33.706281
11.185,2.0,1.0,1.0,33.2,34.2,34.2,3.9,2.3,2.645,0.6149785543920641,-0.02025032337595628,0.7735712292335619,0.005798040581170162,-0.102784,-33.529175
11.185,2.0,1.0,1.0,33.2,34.2,34.2,3.9,2.3,2.6475,0.6083307738342876,-0.020724942735309445,0.7785523793467903,0.005730165708034754,-0.104567,-33.350216
11.185,2.0,1.0,1.0,33.2,34.2,34.2,3.9,2.3,2.65,0.6015911594260763,-0.021213812334423668,0.7835075862470611,0.005656393712350113,-0.106409,-33.169344
11.185,2.0,1.0,1.0,33.2,34.2,34.2,3.9,2.3,2.6525,0.5947582151055867,-0.021717547389675,0.7884357019475365,0.005576365902103282,-0.108314,-32.986499
11.185,2.0,1.0,1.0,33.2,34.2,34.2,3.9,2.3,2.655,0.5878303969174181,-0.02223679903922467,0.7933355281334544,0.005489697431686373,-0.110284,-32.801618
11.185,2.0,1.0,1.0,33.2,34.2,34.2,3.9,2.3,2.6575,0.5808061102795826,-0.02277225697573667,0.7982058130748804,0.00539597497467029,-0.112323,-32.614634
11.185,2.0,1.0,1.0,33.2,34.2,34.2,3.9,2.3,2.66,0.5736837070207076,-0.023324652309832675,0.803045248267796,0.0052947541499880025,-0.114434,-32.425479
11.185,2.0,1.0,1.0,33.2,34.2,34.2,3.9,2.3,2.6625,0.5664614821639496,-0.023894760687670064,0.80785246477214,0.005185556671128181,-0.116622,-32.234081
11.185,2.0,1.0,1.0,33.2,34.2,34.2,3.9,2.3,2.665,0.5591376704313462,-0.02448340568870145,0.8126260292111116,0.0050678671836591055,-0.118889,-32.040363
11.185,2.0,1.0,1.0,33.2,34.2,34.2,3.9,2.3,2.6675,0.5517104424392987,-0.02509146253267649,0.8173644393909807,0.004941129751439219,-0.121242,-31.844247
11.185,2.0,1.0,1.0,33.2,34.2,34.2,3.9,2.3,2.67,0.544177900552396,-0.02571986212833487,0.8220661194948491,0.004804743946106486,-0.123685,-31.645651
11.185,2.0,1.0,1.0,33.2,34.2,34.2,3.9,2.3,2.6725,0.5365380743589104,-0.02636959550005389,0.8267294147970059,0.004658060487731728,-0.126222,-31.444487
11.185,2.0,1.0,1.0,33.2,34.2,34.2,3.9,2.3,2.675,0.5287889157268878,-0.027041718633018193,0.8313525858365912,0.004500376376692727,-0.12886,-31.240664
11.185,2.0,1.0,1.0,33.2,34.2,34.2,3.9,2.3,2.6775,0.5209282933947851,-0.027737357782339,0.8359338019800543,0.0043309294476752925,-0.131604,-31.034088
11.185,2.0,1.0,1.0,33.2,34.2,34.2,3.9,2.3,2.68,0.512953987044981,-0.02845771529703556,0.840471134291026,0.004148892265978226,-0.134461,-30.824657
11.185,2.0,1.0,1.0,33.2,34.2,34.2,3.9,2.3,2.6825,0.504863680802152,-0.02920407601598885,0.8449625476135006,0.00395336527369246,-0.137439,-30.612266
11.185,2.0,1.0,1.0,33.2,34.2,34.2,3.9,2.3,2.685,0.49665495609129634,-0.029977814299980376,0.8494058917592052,0.0037433690784713265,-0.140544,-30.396804
11.185,2.0,1.0,1.0,33.2,34.2,34.2,3.9,2.3,2.6875,0.4883252837820802,-0.03078040177183759,0.8537988916723255,0.003517835760060028,-0.143786,-30.178155
11.185,2.0,1.0,1.0,33.2,34.2,34.2,3.9,2.3,2.69,0.47987201553700476,-0.03161341584564054,0.858139136423747,0.003275599048972495,-0.147173,-29.956195
11.185,2.0,1.0,1.0,33.2,34.2,34.2,3.9,2.3,2.6925,0.47129237427048143,-0.03247854913602826,0.8624240668620682,0.003015383207010948,-0.150715,-29.730793
11.185,2.0,1.0,1.0,33.2,34.2,34.2,3.9,2.3,2.695,0.46258344361424136,-0.03337761985000448,0.8666509617189173,0.0027357904099147867,-0.154424,-29.501813
11.185,2.0,1.0,1.0,33.2,34.2,34.2,3.9,2.3,2.6975,0.45374215627124215,-0.034312583276440906,0.870816921930655,0.0024352863972826994,-0.15831,-29.26911
11.185,2.0,1.0,1.0,33.2,34.2,34.2,3.9,2.3,2.7,0.44476528112545344,-0.035285544502834894,0.8749188528960078,0.0021121841127938424,-0.162388,-29.03253
11.185,2.0,1.0,1.0,33.2,34.2,34.2,3.9,2.3,2.7025,0.4356494089581944,-0.03629877250496351,0.8789534443380692,0.0017646250071147239,-0.166671,-28.79191
11.185,2.0,1.0,1.0,33.2,34.2,34.2,3.9,2.3,2.705,0.42639093660315175,-0.037354715772990134,0.8829171473774348,0.0013905576147934234,-0.171176,-28.547077
11.185,2.0,1.0,1.0,33.2,34.2,34.2,3.9,2.3,2.7075,0.4169860493515283,-0.03845601965743728,0.886806148348622,0.0009877129425151666,-0.175919,-28.297849
11.185,2.0,1.0,1.0,33.2,34.2,34.2,3.9,2.3,2.71,0.4074307013960329,-0.03960554564024846,0.890616338801268,0.0005535761163027882,-0.180921,-28.044032
11.185,2.0,1.0,1.0,33.2,34.2,34.2,3.9,2.3,2.7125,0.39772059407757837,-0.040806392759870865,0.8943432810171323,8.535362581010973e-05,-0.186202,-27.785417
11.185,2.0,1.0,1.0,33.2,34.2,34.2,3.9,2.3,2.715,0.38785115167189205,-0.04206192144463945,0.8979821682387599,-0.0004200646300211765,-0.191786,-27.521785
11.185,2.0,1.0,1.0,33.2,34.2,34.2,3.9,2.3,2.7175,0.37781749442512763,-0.04337578003524429,0.9015277786396614,-0.0009661494560673607,-0.1977,-27.2529
11.185,2.0,1.0,1.0,33.2,34.2,34.2,3.9,2.3,2.72,0.3676144085189573,-0.04475193430380726,0.9049744218612346,-0.0015567837956708514,-0.203974,-26.978511
11.185,2.0,1.0,1.0,33.2,34.2,34.2,3.9,2.3,2.7225,0.35723631261782196,-0.046194700302582714,0.9083158766883269,-0.0021963229004349737,-0.210641,-26.698351
11.185,2.0,1.0,1.0,33.2,34.2,34.2,3.9,2.3,2.725,0.34667722062656364,-0.04770878089709447,0.9115453181204695,-0.0028896649604781433,-0.217738,-26.41213
11.185,2.0,1.0,1.0,33.2,34.2,34.2,3.9,2.3,2.7275,0.33593070026899546,-0.049299306352873745,0.9146552317028316,-0.0036423343094721216,-0.225308,-26.119542
11.185,2.0,1.0,1.0,33.2,34.2,34.2,3.9,2.3,2.73,0.32498982709307334,-0.05097187934601961,0.9176373124882419,-0.004460579806357966,-0.233398,-25.820255
11.185,2.0,1.0,1.0,33.2,34.2,34.2,3.9,2.3,2.7325,0.3138471335246541,-0.052732624746747316,0.9204823453813098,-0.005351491609424611,-0.242063,-25.513913
11.185,2.0,1.0,1.0,33.2,34.2,34.2,3.9,2.3,2.735,0.30249455264286285,-0.05458824446851857,0.9231800628310682,-0.006323140334557046,-0.251364,-25.200134
11.185,2.0,1.0,1.0,33.2,34.2,34.2,3.9,2.3,2.7375,0.29092335645554235,-0.056546077563145905,0.9257189748417065,-0.007384743575307763,-0.261372,-24.878504
11.185,2.0,1.0,1.0,33.2,34.2,34.2,3.9,2.3,2.74,0.27912408864345917,-0.058614165544141214,0.928086164998642,-0.008546866020348706,-0.272169,-24.548576
11.185,2.0,1.0,1.0,33.2,34.2,34.2,3.9,2.3,2.7425,0.26708649206198654,-0.06080132259105188,0.9302670445758373,-0.009821661016209899,-0.283847,-24.209867
11.185,2.0,1.0,1.0,33.2,34.2,34.2,3.9,2.3,2.745,0.2547994318073778,-0.06311720975806893,0.9322450546891871,-0.011223163499088279,-0.296515,-23.861855
11.185,2.0,1.0,1.0,33.2,34.2,34.2,3.9,2.3,2.7475,0.24225081547469823,-0.06557241147740044,0.9340013037429118,-0.012767646903780645,-0.310298,-23.503971
11.185,2.0,1.0,1.0,33.2,34.2,34.2,3.9,2.3,2.75,0.229427513512755,-0.0681785113550968,0.935514123885465,-0.0144740601429822,-0.325346,-23.135597
11.185,2.0,1.0,1.0,33.2,34.2,34.2,3.9,2.3,2.7525,0.21631528455676075,-0.07094816226578567,0.9367585255883556,-0.01636456529211642,-0.341829,-22.756061
11.185,2.0,1.0,1.0,33.2,34.2,34.2,3.9,2.3,2.755,0.20289871365757048,-0.07389514269846673,0.9377055234401602,-0.018465202552559592,-0.359953,-22.36463
11.185,2.0,1.0,1.0,33.2,34.2,34.2,3.9,2.3,2.7575,0.18916117599014107,-0.07703438662724549,0.9383212983534505,-0.02080671684626587,-0.379961,-21.960504
11.185,2.0,1.0,1.0,33.2,34.2,34.2,3.9,2.3,2.76,0.17508484578561287,-0.08038196701053262,0.9385661510198454,-0.023425590599245382,-0.402142,-21.542808
11.185,2.0,1.0,1.0,33.2,34.2,34.2,3.9,2.3,2.7625,0.16065078125066018,-0.08395500200780165,0.9383931878570302,-0.02636534064313502,-0.426847,-21.110586
11.185,2.0,1.0,1.0,33.2,34.2,34.2,3.9,2.3,2.765,0.14583913324817924,-0.08777143602486423,0.9377466629301142,-0.029678154618646358,-0.454498,-20.66279
11.185,2.0,1.0,1.0,33.2,34.2,34.2,3.9,2.3,2.7675,0.1306295518836204,-0.09184962141312317,0.936559876307396,-0.03342696485607878,-0.485612,-20.198277
11.185,2.0,1.0,1.0,33.2,34.2,34.2,3.9,2.3,2.77,0.11500190622143919,-0.0962075857500855,0.9347524999298207,-0.03768808648187805,-0.520824,-19.715796
11.185,2.0,1.0,1.0,33.2,34.2,34.2,3.9,2.3,2.7725,0.09893749668273573,-0.10086180566062605,0.932227165632586,-0.042554582085249745,-0.560921,-19.213983
11.185,2.0,1.0,1.0,33.2,34.2,34.2,3.9,2.3,2.775,0.08242104090712599,-0.10582520758342351,0.9288651071286568,-0.048140556904290005,-0.606887,-18.691361
11.185,2.0,1.0,1.0,33.2,34.2,34.2,3.9,2.3,2.7775,0.0654438738455304,-0.11110395714936064,0.9245206028095347,-0.05458663176857639,-0.659961,-18.146338
11.185,2.0,1.0,1.0,33.2,34.2,34.2,3.9,2.3,2.78,0.04800905632240876,-0.1166923476274341,0.9190139318302831,-0.06206687313103165,-0.721722,-17.57722
11.185,2.0,1.0,1.0,33.2,34.2,34.2,3.9,2.3,2.7825,0.03013948765680951,-0.122564700606715,0.912122563568302,-0.07079744888466469,-0.794197,-16.98224
11.185,2.0,1.0,1.0,33.2,34.2,34.2,3.9,2.3,2.785,0.011890749560864975,-0.12866256770549225,0.9035704219963537,-0.08104715355295136,-0.880008,-16.359615
11.185,2.0,1.0,1.0,33.2,34.2,34.2,3.9,2.3,2.7875,-0.006628613162734445,-0.1348745566257376,0.8930154583617883,-0.09314955096378656,-0.982581,-15.707649
11.185,2.0,1.0,1.0,33.2,34.2,34.2,3.9,2.3,2.79,-0.0252252056276164,-0.1410046632781417,0.8800367576144528,-0.10751548911191434,-1.106417,-15.024913
11.185,2.0,1.0,1.0,33.2,34.2,34.2,3.9,2.3,2.7925,-0.04357108407798079,-0.1467229937512481,0.86412466669912,-0.12464248627202673,-1.257444,-14.310549
11.185,2.0,1.0,1.0,33.2,34.2,34.2,3.9,2.3,2.795,-0.06112766593170433,-0.1514904474985139,0.8446822617376747,-0.14511268893100063,-1.443448,-13.564778
11.185,2.0,1.0,1.0,33.2,34.2,34.2,3.9,2.3,2.7975,-0.07703329338168857,-0.1544476464451989,0.8210561523284285,-0.16956150852064186,-1.674481,-12.789715
11.185,2.0,1.0,1.0,33.2,34.2,34.2,3.9,2.3,2.8,-0.08994852884265236,-0.15426252580372862,0.7926324398767343,-0.1985814384355794,-1.962992,-11.990664
11.185,2.0,1.0,1.0,33.2,34.2,34.2,3.9,2.3,2.8025,-0.09787431337129582,-0.1489520575098525,0.7590616664731078,-0.23249798464350657,-2.322847,-11.178056
11.185,2.0,1.0,1.0,33.2,34.2,34.2,3.9,2.3,2.805,-0.09802050004930515,-0.1357555398346061,0.7207055734259317,-0.2709264456734285,-2.765242,-10.370121
11.185,2.0,1.0,1.0,33.2,34.2,34.2,3.9,2.3,2.8075,-0.08693806741608905,-0.11127111958710835,0.6793794018049456,-0.31203822230091544,-3.287211,-9.59599
11.185,2.0,1.0,1.0,33.2,34.2,34.2,3.9,2.3,2.81,-0.06131720539272353,-0.07225257954132266,0.6392645509479327,-0.35166363384446064,-3.846614,-8.897884
11.185,2.0,1.0,1.0,33.2,34.2,34.2,3.9,2.3,2.8125,-0.0198418235494241,-0.0174477396649952,0.607326065186521,-0.382892766770125,-4.326928,-8.329448
11.185,2.0,1.0,1.0,33.2,34.2,34.2,3.9,2.3,2.815,0.03432264049614464,0.04994992503455453,0.5919496110218462,-0.39744287673872924,-4.539729,-7.946445
11.185,2.0,1.0,1.0,33.2,34.2,34.2,3.9,2.3,2.8175,0.092517812090844,0.12132850341405098,0.5991551550333324,-0.3894124735587739,-4.346878,-7.789441
11.185,2.0,1.0,1.0,33.2,34.2,34.2,3.9,2.3,2.82,0.14341436262911783,0.18547905123429553,0.6286140117525759,-0.3592018169164839,-3.811957,-7.866724
11.185,2.0,1.0,1.0,33.2,34.2,34.2,3.9,2.3,2.8225,0.17838162691514559,0.23391020479804683,0.6734593724469526,-0.3136617777579389,-3.139293,-8.150313
11.185,2.0,1.0,1.0,33.2,34.2,34.2,3.9,2.3,2.825,0.19474008566522558,0.2640380893694072,0.7243164024086811,-0.26208283643007096,-2.498327,-8.588528
11.185,2.0,1.0,1.0,33.2,34.2,34.2,3.9,2.3,2.8275,0.19479987554065623,0.2782048941111822,0.7735822109310353,-0.21196633190658465,-1.962859,-9.124752
11.185,2.0,1.0,1.0,33.2,34.2,34.2,3.9,2.3,2.83,0.1829626236132731,0.2807994688821288,0.8170377728221193,-0.16744923718285915,-1.542658,-9.710727
