1,w,sub_t,h,l1,l2,l3,g1,g2,Freq,S11_re,S21_re,S11_img,S21_img,S11_dB,S21_dB
11.185,2.0,1.0,1.0,33.2,34.1,34.1,3.5,3.9,2.5,0.879565243128491,-0.00476400582897403,0.463298308917425,0.00375143726391564,-0.051198,-44.345178
11.185,2.0,1.0,1.0,33.2,34.1,34.1,3.5,3.9,2.5025,0.8766174559880765,-0.0048605010261715265,0.46874308531990994,0.0037680708703824155,-0.051647,-44.22246
11.185,2.0,1.0,1.0,33.2,34.1,34.1,3.5,3.9,2.505,0.8736241644441226,-0.0049586882722325995,0.47418903007038843,0.003784268803326395,-0.052103,-44.099468
11.185,2.0,1.0,1.0,33.2,34.1,34.1,3.5,3.9,2.5075,0.8705849431296395,-0.005058602304910902,0.4796359824928905,0.003800013223604698,-0.052568,-43.976192
11.185,2.0,1.0,1.0,33.2,34.1,34.1,3.5,3.9,2.51,0.8674993595279122,-0.0051602788248285725,0.48508377707416295,0.003815285638678656,-0.05304,-43.852622
11.185,2.0,1.0,1.0,33.2,34.1,34.1,3.5,3.9,2.5125,0.8643669738375087,-0.005263754529036087,0.4905322433009996,0.0038300668750293645,-0.05352,-43.728747
11.185,2.0,1.0,1.0,33.2,34.1,34.1,3.5,3.9,2.515,0.861187338834276,-0.00536906714599092,0.4959812054920694,0.0038443370492380396,-0.054009,-43.604556
11.185,2.0,1.0,1.0,33.2,34.1,34.1,3.5,3.9,2.5175,0.8579599997302364,-0.005476255472025976,0.5014304826240074,0.003858075537656826,-0.054506,-43.48004
11.185,2.0,1.0,1.0,33.2,34.1,34.1,3.5,3.9,2.52,0.8546844940292866,-0.005585359409383349,0.5068798881515744,0.003871260944590686,-0.055012,-43.355188
11.185,2.0,1.0,1.0,33.2,34.1,34.1,3.5,3.9,2.5225,0.8513603513796089,-0.005696420005892826,0.5123292298216265,0.0038838710689064197,-0.055528,-43.229988
11.185,2.0,1.0,1.0,33.2,34.1,34.1,3.5,3.9,2.525,0.8479870934226829,-0.0058094794963797405,0.5177783094806753,0.0038958828689788093,-0.056052,-43.104429
11.185,2.0,1.0,1.0,33.2,34.1,34.1,3.5,3.9,2.5275,0.8445642336387927,-0.0059245813458915645,0.5232269228757774,0.003907272425878484,-0.056586,-42.978501
11.185,2.0,1.0,1.0,33.2,34.1,34.1,3.5,3.9,2.53,0.8410912771889204,-0.006041770294837684,0.5286748594484872,0.003918014904699597,-0.057129,-42.852192
11.185,2.0,1.0,1.0,33.2,34.1,34.1,3.5,3.9,2.5325,0.8375677207529018,-0.0061610924061430115,0.5341219021215966,0.003928084513918776,-0.057683,-42.72549
11.185,2.0,1.0,1.0,33.2,34.1,34.1,3.5,3.9,2.535,0.8339930523637229,-0.006282595114521767,0.5395678270783782,0.003937454462669358,-0.058246,-42.598383
11.185,2.0,1.0,1.0,33.2,34.1,34.1,3.5,3.9,2.5375,0.8303667512378285,-0.006406327277984258,0.5450124035340147,0.00394609691580732,-0.05882,-42.470861
11.185,2.0,1.0,1.0,33.2,34.1,34.1,3.5,3.9,2.54,0.8266882876013014,-0.006532339231696587,0.5504553934989054,0.00395398294663693,-0.059405,-42.342909
11.185,2.0,1.0,1.0,33.2,34.1,34.1,3.5,3.9,2.5425,0.8229571225117688,-0.006660682844320584,0.5558965515335137,0.003961082487154759,-0.06,-42.214518
11.185,2.0,1.0,1.0,33.2,34.1,34.1,3.5,3.9,2.545,0.8191727076758861,-0.006791411576968956,0.5613356244943999,0.003967364275661469,-0.060607,-42.085673
11.185,2.0,1.0,1.0,33.2,34.1,34.1,3.5,3.9,2.5475,0.815334485262237,-0.006924580544919331,0.5667723512710652,0.003972795801579867,-0.061225,-41.956362
11.185,2.0,1.0,1.0,33.2,34.1,34.1,3.5,3.9,2.55,0.8114418877094739,-0.007060246582239947,0.5722064625132367,0.003977343247306601,-0.061856,-41.826572
11.185,2.0,1.0,1.0,33.2,34.1,34.1,3.5,3.9,2.5525,0.8074943375295356,-0.0071984683094891665,0.5776376803481558,0.003980971426912584,-0.062498,-41.69629
11.185,2.0,1.0,1.0,33.2,34.1,34.1,3.5,3.9,2.555,0.8034912471057349,-0.0073393062046617314,0.5830657180874633,0.003983643721494139,-0.063152,-41.565502
11.185,2.0,1.0,1.0,33.2,34.1,34.1,3.5,3.9,2.5575,0.7994320184855274,-0.007482822677565756,0.58849027992322,0.003985322010962335,-0.06382,-41.434196
11.185,2.0,1.0,1.0,33.2,34.1,34.1,3.5,3.9,2.56,0.7953160431677487,-0.007629082147826074,0.5939110606125788,0.003985966602042982,-0.0645,-41.302356
11.185,2.0,1.0,1.0,33.2,34.1,34.1,3.5,3.9,2.5625,0.7911427018840943,-0.007778151126722776,0.5993277451506114,0.00398553615224261,-0.065195,-41.169968
11.185,2.0,1.0,1.0,33.2,34.1,34.1,3.5,3.9,2.565,0.7869113643746007,-0.007930098303087559,0.6047400084307564,0.003983987589518121,-0.065902,-41.037019
11.185,2.0,1.0,1.0,33.2,34.1,34.1,3.5,3.9,2.5675,0.7826213891568853,-0.008084994633494689,0.6101475148923211,0.003981276027367902,-0.066624,-40.903493
11.185,2.0,1.0,1.0,33.2,34.1,34.1,3.5,3.9,2.57,0.7782721232888664,-0.008242913437000144,0.6155499181544499,0.0039773546750411755,-0.067361,-40.769376
11.185,2.0,1.0,1.0,33.2,34.1,34.1,3.5,3.9,2.5725,0.7738629021246833,-0.008403930494698956,0.6209468606359281,0.003972174742539447,-0.068113,-40.63465
11.185,2.0,1.0,1.0,33.2,34.1,34.1,3.5,3.9,2.575,0.7693930490635104,-0.00856812415438932,0.6263379731601559,0.003965685340058454,-0.06888,-40.499302
11.185,2.0,1.0,1.0,33.2,34.1,34.1,3.5,3.9,2.5775,0.7648618752909443,-0.008735575440651911,0.6317228745445885,0.003957833371492726,-0.069663,-40.363315
11.185,2.0,1.0,1.0,33.2,34.1,34.1,3.5,3.9,2.58,0.7602686795126198,-0.008906368170673785,0.6371011711738924,0.003948563421594475,-0.070462,-40.226672
11.185,2.0,1.0,1.0,33.2,34.1,34.1,3.5,3.9,2.5825,0.7556127476796807,-0.009080589076169873,0.642472456556032,0.003937817636347057,-0.071278,-40.089357
11.185,2.0,1.0,1.0,33.2,34.1,34.1,3.5,3.9,2.585,0.7508933527057184,-0.009258327931778885,0.6478363108604365,0.003925535596078177,-0.072112,-39.951352
11.185,2.0,1.0,1.0,33.2,34.1,34.1,3.5,3.9,2.5875,0.7461097541747543,-0.00943967769033787,0.6531923004373622,0.003911654180799921,-0.072963,-39.812639
11.185,2.0,1.0,1.0,33.2,34.1,34.1,3.5,3.9,2.59,0.7412611980398192,-0.009624734625467935,0.6585399773174863,0.00389610742722104,-0.073833,-39.673201
11.185,2.0,1.0,1.0,33.2,34.1,34.1,3.5,3.9,2.5925,0.7363469163116406,-0.009813598481935014,0.6638788786907321,0.0038788263768321017,-0.074721,-39.533019
11.185,2.0,1.0,1.0,33.2,34.1,34.1,3.5,3.9,2.595,0.7313661267369383,-0.010006372634282576,0.6692085263632312,0.003859738914414322,-0.075629,-39.392075
11.185,2.0,1.0,1.0,33.2,34.1,34.1,3.5,3.9,2.5975,0.7263180324657519,-0.010203164254270291,0.6745284261912836,0.003838769596268764,-0.076557,-39.250348
11.185,2.0,1.0,1.0,33.2,34.1,34.1,3.5,3.9,2.6,0.7212018217072225,-0.010404084487690882,0.6798380674910783,0.0038158394674041945,-0.077506,-39.107818
11.185,2.0,1.0,1.0,33.2,34.1,34.1,3.5,3.9,2.6025,0.7160166673731874,-0.01060924864118031,0.6851369224228556,0.003790865866856169,-0.078476,-38.964466
11.185,2.0,1.0,1.0,33.2,34.1,34.1,3.5,3.9,2.605,0.7107617267088913,-0.01081877637968236,0.6904244453481123,0.0037637622202400284,-0.079468,-38.82027
11.185,2.0,1.0,1.0,33.2,34.1,34.1,3.5,3.9,2.6075,0.7054361409100889,-0.011032791935278069,0.6957000721583356,0.0037344378185622563,-0.080483,-38.675209
11.185,2.0,1.0,1.0,33.2,34.1,34.1,3.5,3.9,2.61,0.7000390347257338,-0.011251424328144348,0.7009632195736476,0.003702797582229436,-0.081521,-38.52926
11.185,2.0,1.0,1.0,33.2,34.1,34.1,3.5,3.9,2.6125,0.6945695160454001,-0.011474807600464949,0.7062132844096297,0.0036687418091004096,-0.082584,-38.382402
11.185,2.0,1.0,1.0,33.2,34.1,34.1,3.5,3.9,2.615,0.689026675470506,-0.011703081064179664,0.7114496428104593,0.003632165905324471,-0.083671,-38.23461
11.185,2.0,1.0,1.0,33.2,34.1,34.1,3.5,3.9,2.6175,0.6834095858683513,-0.011936389563526778,0.7166716494463496,0.0035929600975945627,-0.084785,-38.08586
11.185,2.0,1.0,1.0,33.2,34.1,34.1,3.5,3.9,2.62,0.6777173019078812,-0.012174883753408142,0.7218786366731306,0.0035510091253203226,-0.085925,-37.936128
11.185,2.0,1.0,1.0,33.2,34.1,34.1,3.5,3.9,2.6225,0.6719488595760106,-0.012418720394688054,0.7270699136516472,0.0035061919110872656,-0.087093,-37.785388
11.185,2.0,1.0,1.0,33.2,34.1,34.1,3.5,3.9,2.625,0.666103275673261,-0.012668062667624,0.732244765424441,0.00345838120761766,-0.088289,-37.633615
11.185,2.0,1.0,1.0,33.2,34.1,34.1,3.5,3.9,2.6275,0.6601795472873231,-0.012923080504725147,0.737402451947012,0.0034074432192795915,-0.089515,-37.48078
11.185,2.0,1.0,1.0,33.2,34.1,34.1,3.5,3.9,2.63,0.6541766512430861,-0.013183950944437067,0.7425422070707034,0.0033532371960060077,-0.090771,-37.326857
11.185,2.0,1.0,1.0,33.2,34.1,34.1,3.5,3.9,2.6325,0.6480935435275186,-0.013450858507166263,0.7476632374740199,0.0032956149972799232,-0.09206,-37.171816
11.185,2.0,1.0,1.0,33.2,34.1,34.1,3.5,3.9,2.635,0.6419291586876666,-0.013723995595281462,0.7527647215389153,0.003234420623613894,-0.093381,-37.015628
11.185,2.0,1.0,1.0,33.2,34.1,34.1,3.5,3.9,2.6375,0.6356824091998874,-0.014003562918863448,0.7578458081682818,0.0031694897127002423,-0.094736,-36.858263
11.185,2.0,1.0,1.0,33.2,34.1,34.1,3.5,3.9,2.64,0.6293521848082506,-0.014289769949123897,0.7629056155405534,0.0031006489971269298,-0.096127,-36.699688
11.185,2.0,1.0,1.0,33.2,34.1,34.1,3.5,3.9,2.6425,0.6229373518298996,-0.014582835401572864,0.7679432297969506,0.0030277157202432464,-0.097554,-36.539873
11.185,2.0,1.0,1.0,33.2,34.1,34.1,3.5,3.9,2.645,0.6164367524249351,-0.014882987751191781,0.7729577036565073,0.002950497006411902,-0.099019,-36.378782
11.185,2.0,1.0,1.0,33.2,34.1,34.1,3.5,3.9,2.6475,0.609849203828193,-0.015190465782059568,0.7779480549535531,0.002868789181497599,-0.100524,-36.216381
11.185,2.0,1.0,1.0,33.2,34.1,34.1,3.5,3.9,2.65,0.6031734975400274,-0.015505519174090586,0.7829132650918446,0.0027823770390105838,-0.10207,-36.052634
11.185,2.0,1.0,1.0,33.2,34.1,34.1,3.5,3.9,2.6525,0.5964083984729963,-0.015828409129770724,0.7878522774089529,0.0026910330468423458,-0.103659,-35.887505
11.185,2.0,1.0,1.0,33.2,34.1,34.1,3.5,3.9,2.655,0.5895526440510119,-0.016159409044030997,0.7927639954439325,0.0025945164889909,-0.105292,-35.720954
11.185,2.0,1.0,1.0,33.2,34.1,34.1,3.5,3.9,2.6575,0.5826049432572451,-0.01649880522067099,0.7976472811005727,0.002492572536070658,-0.106972,-35.552941
11.185,2.0,1.0,1.0,33.2,34.1,34.1,3.5,3.9,2.66,0.5755639756267199,-0.016846897639046114,0.8025009526977818,0.0023849312377242546,-0.108699,-35.383426
11.185,2.0,1.0,1.0,33.2,34.1,34.1,3.5,3.9,2.6625,0.5684283901791636,-0.01720400077506147,0.8073237828977756,0.0022713064292951258,-0.110477,-35.212366
11.185,2.0,1.0,1.0,33.2,34.1,34.1,3.5,3.9,2.665,0.5611968042872525,-0.017570444480876475,0.8121144965017963,0.002151394544264944,-0.112307,-35.039717
11.185,2.0,1.0,1.0,33.2,34.1,34.1,3.5,3.9,2.6675,0.5538678024749715,-0.017946574928118627,0.816871768101969,0.0020248733229991027,-0.114192,-34.865431
11.185,2.0,1.0,1.0,33.2,34.1,34.1,3.5,3.9,2.67,0.5464399351402739,-0.018332755619839106,0.8215942195767163,0.0018914004072597731,-0.116133,-34.689462
11.185,2.0,1.0,1.0,33.2,34.1,34.1,3.5,3.9,2.6725,0.5389117171957065,-0.01872936847691742,0.8262804174157641,0.0017506118087222044,-0.118134,-34.51176
11.185,2.0,1.0,1.0,33.2,34.1,34.1,3.5,3.9,2.675,0.5312816266200564,-0.019136815005141573,0.8309288698592114,0.0016021202383474352,-0.120198,-34.332274
11.185,2.0,1.0,1.0,33.2,34.1,34.1,3.5,3.9,2.6775,0.5235481029134156,-0.01955551754976208,0.8355380238334129,0.00144551328189747,-0.122326,-34.150949
11.185,2.0,1.0,1.0,33.2,34.1,34.1,3.5,3.9,2.68,0.5157095454473298,-0.01998592064494211,0.8401062616644261,0.0012803514051036124,-0.124522,-33.96773
11.185,2.0,1.0,1.0,33.2,34.1,34.1,3.5,3.9,2.6825,0.5077643117009176,-0.020428492466209938,0.8446318975475419,0.0011061657699805673,-0.12679,-33.782559
11.185,2.0,1.0,1.0,33.2,34.1,34.1,3.5,3.9,2.685,0.4997107153729417,-0.020883726394770093,0.8491131737488739,0.0009224558414839098,-0.129132,-33.595375
11.185,2.0,1.0,1.0,33.2,34.1,34.1,3.5,3.9,2.6875,0.491547024358877,-0.0213521427033485,0.853548256512088,0.000728686761092894,-0.131552,-33.406116
11.185,2.0,1.0,1.0,33.2,34.1,34.1,3.5,3.9,2.69,0.4832714585809651,-0.021834290374141734,0.8579352316400574,0.000524286460915309,-0.134055,-33.214715
11.185,2.0,1.0,1.0,33.2,34.1,34.1,3.5,3.9,2.6925,0.4748821876580536,-0.02233074906042042,0.8622720997174764,0.00030864248849621297,-0.136645,-33.021105
11.185,2.0,1.0,1.0,33.2,34.1,34.1,3.5,3.9,2.695,0.4663773284008132,-0.022842131204398684,0.8665567709361567,8.109850860314887e-05,-0.139325,-32.825213
11.185,2.0,1.0,1.0,33.2,34.1,34.1,3.5,3.9,2.6975,0.4577549421164733,-0.023369084325144198,0.8707870594798215,-0.00015904955622886142,-0.1421,-32.626965
11.185,2.0,1.0,1.0,33.2,34.1,34.1,3.5,3.9,2.7,0.44901303170576395,-0.023912293491557112,0.8749606774195462,-0.00041255778976809855,-0.144977,-32.426283
11.185,2.0,1.0,1.0,33.2,34.1,34.1,3.5,3.9,2.7025,0.44014953853307043,-0.024472483996807775,0.879075228064509,-0.0006802390000917924,-0.14796,-32.223085
11.185,2.0,1.0,1.0,33.2,34.1,34.1,3.5,3.9,2.705,0.4311623390490467,-0.025050424252086555,0.8831281987052201,-0.0009629679477065806,-0.151054,-32.017285
11.185,2.0,1.0,1.0,33.2,34.1,34.1,3.5,3.9,2.7075,0.4220492411429924,-0.025646928919088756,0.8871169526777526,-0.001261687147896487,-0.154268,-31.808795
11.185,2.0,1.0,1.0,33.2,34.1,34.1,3.5,3.9,2.71,0.41280798020023907,-0.02626286230232795,0.8910387206674883,-0.0015774133206055648,-0.157606,-31.59752
11.185,2.0,1.0,1.0,33.2,34.1,34.1,3.5,3.9,2.7125,0.4034362148375617,-0.026899142024137044,0.8948905911592935,-0.001911244571840339,-0.161077,-31.383362
11.185,2.0,1.0,1.0,33.2,34.1,34.1,3.5,3.9,2.715,0.3939315222872977,-0.027556743007057887,0.8986694999275425,-0.0022643684030038513,-0.164689,-31.166217
11.185,2.0,1.0,1.0,33.2,34.1,34.1,3.5,3.9,2.7175,0.3842913933983793,-0.028236701790218276,0.9023722184436929,-0.0026380706590691185,-0.16845,-30.945977
11.185,2.0,1.0,1.0,33.2,34.1,34.1,3.5,3.9,2.72,0.37451322721995667,-0.02894012120820816,0.9059953410607614,-0.003033745543445444,-0.17237,-30.722529
11.185,2.0,1.0,1.0,33.2,34.1,34.1,3.5,3.9,2.7225,0.3645943251306642,-0.02966817546284358,0.9095352708125779,-0.003452906847252489,-0.176458,-30.495752
11.185,2.0,1.0,1.0,33.2,34.1,34.1,3.5,3.9,2.725,0.35453188447409095,-0.030422115619960086,0.9129882036404611,-0.0038972005640407507,-0.180726,-30.26552
11.185,2.0,1.0,1.0,33.2,34.1,34.1,3.5,3.9,2.7275,0.3443229916585202,-0.031203275564909233,0.9163501108303361,-0.0043684190884692685,-0.185185,-30.0317
11.185,2.0,1.0,1.0,33.2,34.1,34.1,3.5,3.9,2.73,0.33396461467695243,-0.032013078451566014,0.919616719408305,-0.004868517229874791,-0.189849,-29.794151
11.185,2.0,1.0,1.0,33.2,34.1,34.1,3.5,3.9,2.7325,0.32345359500171295,-0.03285304368019652,0.9227834902013387,-0.005399630310047544,-0.194732,-29.552727
11.185,2.0,1.0,1.0,33.2,34.1,34.1,3.5,3.9,2.735,0.3127866388071301,-0.033724794439168225,0.9258455932207064,-0.00596409466006863,-0.19985,-29.307271
11.185,2.0,1.0,1.0,33.2,34.1,34.1,3.5,3.9,2.7375,0.3019603074740463,-0.034630065843817844,0.9287978799674349,-0.006564470885256493,-0.20522,-29.057617
11.185,2.0,1.0,1.0,33.2,34.1,34.1,3.5,3.9,2.74,0.2909710073319845,-0.03557071370225842,0.9316348521895672,-0.007203570331923977,-0.210859,-28.803591
11.185,2.0,1.0,1.0,33.2,34.1,34.1,3.5,3.9,2.7425,0.2798149785992714,-0.03654872393176516,0.9343506265378214,-0.007884485267015068,-0.216791,-28.545008
11.185,2.0,1.0,1.0,33.2,34.1,34.1,3.5,3.9,2.745,0.26848828348944964,-0.03756622263959145,0.9369388944665329,-0.008610623374523247,-0.223036,-28.281671
11.185,2.0,1.0,1.0,33.2,34.1,34.1,3.5,3.9,2.7475,0.2569867934652115,-0.03862548686725098,0.9393928766067845,-0.009385747284322553,-0.229621,-28.013373
11.185,2.0,1.0,1.0,33.2,34.1,34.1,3.5,3.9,2.75,0.245306175640818,-0.0397289559755553,0.941705270693886,-0.010214019983905,-0.236574,-27.739891
11.185,2.0,1.0,1.0,33.2,34.1,34.1,3.5,3.9,2.7525,0.23344187836315705,-0.040879243616440374,0.9438681919561503,-0.011100057126804327,-0.243925,-27.460992
11.185,2.0,1.0,1.0,33.2,34.1,34.1,3.5,3.9,2.755,0.22138911604382586,-0.04207915019333063,0.9458731046592108,-0.012048987449782495,-0.251711,-27.176424
11.185,2.0,1.0,1.0,33.2,34.1,34.1,3.5,3.9,2.7575,0.20914285337478317,-0.043331675649663656,0.9477107432410449,-0.013066522752421738,-0.259969,-26.88592
11.185,2.0,1.0,1.0,33.2,34.1,34.1,3.5,3.9,2.76,0.19669778914511785,-0.0446400323386257,0.9493710211563315,-0.014159039187934368,-0.268743,-26.589196
11.185,2.0,1.0,1.0,33.2,34.1,34.1,3.5,3.9,2.7625,0.18404833999545755,-0.046007657607077104,0.9508429251608168,-0.01533367197579653,-0.278082,-26.285948
11.185,2.0,1.0,1.0,33.2,34.1,34.1,3.5,3.9,2.765,0.17118862461263773,-0.04743822556054375,0.9521143922893703,-0.016598426091593586,-0.288043,-25.975851
11.185,2.0,1.0,1.0,33.2,34.1,34.1,3.5,3.9,2.7675,0.15811244909822078,-0.04893565724671358,0.9531721661931982,-0.017962306037899875,-0.298686,-25.658555
11.185,2.0,1.0,1.0,33.2,34.1,34.1,3.5,3.9,2.77,0.1448132945653716,-0.050504128178016486,0.9540016287741397,-0.019435468478167687,-0.310083,-25.333689
11.185,2.0,1.0,1.0,33.2,34.1,34.1,3.5,3.9,2.7725,0.1312843084643988,-0.05214807167595567,0.9545866021516584,-0.021029402356370238,-0.322316,-25.000852
11.185,2.0,1.0,1.0,33.2,34.1,34.1,3.5,3.9,2.775,0.11751830175703405,-0.053872175913754435,0.9549091148761945,-0.02275714217001958,-0.335476,-24.659613
11.185,2.0,1.0,1.0,33.2,34.1,34.1,3.5,3.9,2.7775,0.10350775492261806,-0.05568137169309873,0.9549491249045975,-0.024633521365316425,-0.349669,-24.30951
11.185,2.0,1.0,1.0,33.2,34.1,34.1,3.5,3.9,2.78,0.08924483698415604,-0.0575808068211449,0.9546841901084748,-0.02667547444583903,-0.365019,-23.950043
11.185,2.0,1.0,1.0,33.2,34.1,34.1,3.5,3.9,2.7825,0.07472144342913416,-0.05957580132140433,0.9540890749064408,-0.02890239841131168,-0.381665,-23.580676
11.185,2.0,1.0,1.0,33.2,34.1,34.1,3.5,3.9,2.785,0.05992926127012746,-0.061671775424636525,0.9531352788879023,-0.031336586669750914,-0.399774,-23.200827
11.185,2.0,1.0,1.0,33.2,34.1,34.1,3.5,3.9,2.7875,0.044859872834096294,-0.0638741390670077,0.9517904698985281,-0.03400375171342067,-0.419536,-22.80987
11.185,2.0,1.0,1.0,33.2,34.1,34.1,3.5,3.9,2.79,0.029504914607224347,-0.0661881270724084,0.9500177998333927,-0.03693365675386501,-0.441178,-22.407128
11.185,2.0,1.0,1.0,33.2,34.1,34.1,3.5,3.9,2.7925,0.01385631420775609,-0.06861855773159195,0.9477750761649872,-0.04016088132261609,-0.464966,-21.991865
11.185,2.0,1.0,1.0,33.2,34.1,34.1,3.5,3.9,2.795,-0.002093361789483719,-0.0711694832609597,0.9450137558550925,-0.04372575170335535,-0.491216,-21.56329
11.185,2.0,1.0,1.0,33.2,34.1,34.1,3.5,3.9,2.7975,-0.018350402573905925,-0.0738436873767457,0.941677720643334,-0.04767547405921314,-0.520305,-21.120542
11.185,2.0,1.0,1.0,33.2,34.1,34.1,3.5,3.9,2.8,-0.03491922370229785,-0.07664196611012646,0.9377017837891515,-0.052065516207405224,-0.552687,-20.662694
11.185,2.0,1.0,1.0,33.2,34.1,34.1,3.5,3.9,2.8025,-0.05180131778701159,-0.0795621002860006,0.93300986850342,-0.05696129280949097,-0.588909,-20.188741
11.185,2.0,1.0,1.0,33.2,34.1,34.1,3.5,3.9,2.805,-0.06899374697590144,-0.08259738775552071,0.9275127885449693,-0.06244021727255536,-0.629638,-19.697603
11.185,2.0,1.0,1.0,33.2,34.1,34.1,3.5,3.9,2.8075,-0.08648697673222602,-0.08573454455331198,0.9211055541182291,-0.0685941895805427,-0.675691,-19.188121
11.185,2.0,1.0,1.0,33.2,34.1,34.1,3.5,3.9,2.81,-0.10426175921234275,-0.0889506979225938,0.9136641262367333,-0.07553258777495392,-0.72808,-18.659059
11.185,2.0,1.0,1.0,33.2,34.1,34.1,3.5,3.9,2.8125,-0.122284640851406,-0.092209068042529,0.905041560027636,-0.0833858122980047,-0.78806,-18.109112
11.185,2.0,1.0,1.0,33.2,34.1,34.1,3.5,3.9,2.815,-0.14050147367884736,-0.0954527517163369,0.8950635313169429,-0.09230937838723594,-0.857206,-17.536923
11.185,2.0,1.0,1.0,33.2,34.1,34.1,3.5,3.9,2.8175,-0.15882802824429967,-0.09859575703492017,0.8835233679390764,-0.10248842710163028,-0.937512,-16.941114
11.185,2.0,1.0,1.0,33.2,34.1,34.1,3.5,3.9,2.82,-0.177136408168558,-0.10151006614224817,0.870176976190461,-0.11414226503369271,-1.031513,-16.320341
11.185,2.0,1.0,1.0,33.2,34.1,34.1,3.5,3.9,2.8225,-0.19523542737595379,-0.10400700215247857,0.8547385897457098,-0.12752802679575703,-1.14246,-15.673376
11.185,2.0,1.0,1.0,33.2,34.1,34.1,3.5,3.9,2.825,-0.2128424405193242,-0.1058105584947177,0.836879298924225,-0.14294156974749472,-1.27454,-14.99926
11.185,2.0,1.0,1.0,33.2,34.1,34.1,3.5,3.9,2.8275,-0.22954343778551137,-0.10651973658117014,0.8162322306611309,-0.16071189213972054,-1.433163,-14.297518
