1,w,sub_t,h,l1,l2,l3,g1,g2,Freq,S11_re,S21_re,S11_img,S21_img,S11_dB,S21_dB
11.185,2.0,1.0,1.0,33.2,34.5,34.5,2.9,2.4,2.5,0.878689830913156,-0.00802234115124856,0.463440240953669,0.00811091020410607,-0.057389,-38.855731
11.185,2.0,1.0,1.0,33.2,34.5,34.5,2.9,2.4,2.5025,0.8756679509560117,-0.008205205866471471,0.4689824171231716,0.008176008108540083,-0.057978,-38.723364
11.185,2.0,1.0,1.0,33.2,34.5,34.5,2.9,2.4,2.505,0.8725975861531434,-0.008392069777647209,0.4745269170878391,0.008241147209140926,-0.058579,-38.590417
11.185,2.0,1.0,1.0,33.2,34.5,34.5,2.9,2.4,2.5075,0.8694782188362233,-0.00858304119293908,0.4800735862869614,0.008306310465168902,-0.059192,-38.456875
11.185,2.0,1.0,1.0,33.2,34.5,34.5,2.9,2.4,2.51,0.8663093207364352,-0.008778232297312316,0.4856222649905268,0.008371479810054675,-0.059818,-38.322721
11.185,2.0,1.0,1.0,33.2,34.5,34.5,2.9,2.4,2.5125,0.8630903526911359,-0.008977759325394229,0.491172788100618,0.00843663608978063,-0.060457,-38.187941
11.185,2.0,1.0,1.0,33.2,34.5,34.5,2.9,2.4,2.515,0.8598207643389246,-0.00918174274357578,0.4967249849443765,0.008501758997185645,-0.06111,-38.052518
11.185,2.0,1.0,1.0,33.2,34.5,34.5,2.9,2.4,2.5175,0.8564999938024862,-0.00939030744193167,0.5022786790580593,0.008566827001887297,-0.061777,-37.916436
11.185,2.0,1.0,1.0,33.2,34.5,34.5,2.9,2.4,2.52,0.8531274673585361,-0.009603582936577119,0.5078336879617329,0.008631817275494568,-0.062458,-37.779678
11.185,2.0,1.0,1.0,33.2,34.5,34.5,2.9,2.4,2.5225,0.8497025990941512,-0.009821703583123195,0.5133898229240529,0.008696705611753515,-0.063153,-37.642228
11.185,2.0,1.0,1.0,33.2,34.5,34.5,2.9,2.4,2.525,0.8462247905487108,-0.01004480880194251,0.5189468887166079,0.008761466341238932,-0.063864,-37.504067
11.185,2.0,1.0,1.0,33.2,34.5,34.5,2.9,2.4,2.5275,0.8426934303406242,-0.010273043316006576,0.5245046833572183,0.008826072240172202,-0.064591,-37.365179
11.185,2.0,1.0,1.0,33.2,34.5,34.5,2.9,2.4,2.53,0.8391078937779681,-0.01050655740211462,0.5300629978415544,0.008890494432908971,-0.065334,-37.225544
11.185,2.0,1.0,1.0,33.2,34.5,34.5,2.9,2.4,2.5325,0.8354675424520828,-0.010745507156393034,0.5356216158623942,0.008954702287599864,-0.066094,-37.085143
11.185,2.0,1.0,1.0,33.2,34.5,34.5,2.9,2.4,2.535,0.8317717238131137,-0.01099005477501125,0.5411803135157942,0.009018663304485074,-0.066871,-36.943959
11.185,2.0,1.0,1.0,33.2,34.5,34.5,2.9,2.4,2.5375,0.8280197707264132,-0.011240368851131373,0.5467388589933657,0.009082342996234168,-0.067666,-36.80197
11.185,2.0,1.0,1.0,33.2,34.5,34.5,2.9,2.4,2.54,0.8242110010086329,-0.011496624689186902,0.5522970122598277,0.009145704759690995,-0.068479,-36.659158
11.185,2.0,1.0,1.0,33.2,34.5,34.5,2.9,2.4,2.5425,0.8203447169422453,-0.011759004637668914,0.5578545247149079,0.00920870973832449,-0.069311,-36.5155
11.185,2.0,1.0,1.0,33.2,34.5,34.5,2.9,2.4,2.545,0.8164202047671518,-0.012027698441691416,0.5634111388386102,0.00927131667462376,-0.070163,-36.370977
11.185,2.0,1.0,1.0,33.2,34.5,34.5,2.9,2.4,2.5475,0.8124367341479195,-0.012302903616705644,0.5689665878187712,0.009333481751603678,-0.071036,-36.225566
11.185,2.0,1.0,1.0,33.2,34.5,34.5,2.9,2.4,2.55,0.8083935576150776,-0.012584825844842933,0.5745205951597712,0.00939515842251116,-0.071929,-36.079244
11.185,2.0,1.0,1.0,33.2,34.5,34.5,2.9,2.4,2.5525,0.804289909978795,-0.01287367939548152,0.5800728742711203,0.009456297227736393,-0.072845,-35.93199
11.185,2.0,1.0,1.0,33.2,34.5,34.5,2.9,2.4,2.555,0.80012500771311,-0.013169687571764089,0.5856231280345934,0.0095168455978375,-0.073782,-35.783779
11.185,2.0,1.0,1.0,33.2,34.5,34.5,2.9,2.4,2.5575,0.7958980483087449,-0.013473083184930646,0.5911710483484262,0.009576747641484789,-0.074744,-35.634588
11.185,2.0,1.0,1.0,33.2,34.5,34.5,2.9,2.4,2.56,0.7916082095923969,-0.013784109058485546,0.5967163156469824,0.009635943917012859,-0.075729,-35.484391
11.185,2.0,1.0,1.0,33.2,34.5,34.5,2.9,2.4,2.5625,0.787254649010191,-0.0141030185643831,0.602258598394147,0.00969437118614116,-0.076739,-35.333163
11.185,2.0,1.0,1.0,33.2,34.5,34.5,2.9,2.4,2.565,0.7828365028728239,-0.014430076193601737,0.6077975525485646,0.009751962148283092,-0.077776,-35.180877
11.185,2.0,1.0,1.0,33.2,34.5,34.5,2.9,2.4,2.5675,0.7783528855597084,-0.014765558163671614,0.6133328209986461,0.009808645153702205,-0.078839,-35.027507
11.185,2.0,1.0,1.0,33.2,34.5,34.5,2.9,2.4,2.57,0.773802888679196,-0.015109753065943745,0.6188640329650977,0.009864343893602872,-0.079931,-34.873024
11.185,2.0,1.0,1.0,33.2,34.5,34.5,2.9,2.4,2.5725,0.769185580181726,-0.015462962555624902,0.6243908033685124,0.009918977065043237,-0.081051,-34.7174
11.185,2.0,1.0,1.0,33.2,34.5,34.5,2.9,2.4,2.575,0.7645000034224598,-0.015825502087866154,0.6299127321593188,0.009972458008344825,-0.082202,-34.560605
11.185,2.0,1.0,1.0,33.2,34.5,34.5,2.9,2.4,2.5775,0.7597451761696823,-0.016197701703481143,0.6354294036071408,0.010024694314427604,-0.083384,-34.402609
11.185,2.0,1.0,1.0,33.2,34.5,34.5,2.9,2.4,2.58,0.7549200895549101,-0.01657990686818401,0.6409403855463183,0.010075587399229582,-0.084599,-34.24338
11.185,2.0,1.0,1.0,33.2,34.5,34.5,2.9,2.4,2.5825,0.750023706960298,-0.01697247936958815,0.646445228574034,0.010125032042069135,-0.085847,-34.082885
11.185,2.0,1.0,1.0,33.2,34.5,34.5,2.9,2.4,2.585,0.7450549628385379,-0.017375798276584833,0.6519434651971164,0.010172915884466983,-0.087131,-33.921092
11.185,2.0,1.0,1.0,33.2,34.5,34.5,2.9,2.4,2.5875,0.7400127614600159,-0.017790260966144923,0.657434608923209,0.010219118885568243,-0.088452,-33.757965
11.185,2.0,1.0,1.0,33.2,34.5,34.5,2.9,2.4,2.59,0.7348959755815113,-0.018216284223047254,0.6629181532915266,0.010263512729877649,-0.089811,-33.59347
11.185,2.0,1.0,1.0,33.2,34.5,34.5,2.9,2.4,2.5925,0.729703445030196,-0.01865430541855162,0.6683935708379445,0.010305960182545953,-0.09121,-33.427568
11.185,2.0,1.0,1.0,33.2,34.5,34.5,2.9,2.4,2.595,0.7244339751961254,-0.019104783774593875,0.6738603119885782,0.010346314386905996,-0.092651,-33.260221
11.185,2.0,1.0,1.0,33.2,34.5,34.5,2.9,2.4,2.5975,0.7190863354257462,-0.019568201720710304,0.6793178038754077,0.010384418098355013,-0.094135,-33.091391
11.185,2.0,1.0,1.0,33.2,34.5,34.5,2.9,2.4,2.6,0.7136592573082599,-0.020045066351580237,0.6847654490667746,0.010420102847995955,-0.095665,-32.921036
11.185,2.0,1.0,1.0,33.2,34.5,34.5,2.9,2.4,2.6025,0.7081514328458957,-0.020535910993843925,0.6902026242047762,0.010453188028684052,-0.097242,-32.749114
11.185,2.0,1.0,1.0,33.2,34.5,34.5,2.9,2.4,2.605,0.7025615124982589,-0.02104129689169507,0.6956286785407073,0.01048347989525147,-0.098868,-32.575581
11.185,2.0,1.0,1.0,33.2,34.5,34.5,2.9,2.4,2.6075,0.6968881030899854,-0.021561815021684104,0.701042932358652,0.010510770469702446,-0.100547,-32.400391
11.185,2.0,1.0,1.0,33.2,34.5,34.5,2.9,2.4,2.61,0.6911297655698447,-0.02209808804820861,0.7064446752761842,0.010534836341051367,-0.102279,-32.223497
11.185,2.0,1.0,1.0,33.2,34.5,34.5,2.9,2.4,2.6125,0.6852850126082627,-0.02265077243232034,0.711833164409848,0.010555437348210978,-0.104069,-32.044851
11.185,2.0,1.0,1.0,33.2,34.5,34.5,2.9,2.4,2.615,0.679352306018897,-0.023220560707763925,0.7172076223915791,0.010572315132893535,-0.105919,-31.864402
11.185,2.0,1.0,1.0,33.2,34.5,34.5,2.9,2.4,2.6175,0.6733300539884612,-0.02380818393958883,0.722567235220556,0.010585191547850504,-0.107831,-31.682096
11.185,2.0,1.0,1.0,33.2,34.5,34.5,2.9,2.4,2.62,0.6672166080973342,-0.024414414382268334,0.7279111499330486,0.010593766903895517,-0.109808,-31.49788
11.185,2.0,1.0,1.0,33.2,34.5,34.5,2.9,2.4,2.6225,0.6610102601116742,-0.025040068356032598,0.7332384720706345,0.01059771803702238,-0.111855,-31.311695
11.185,2.0,1.0,1.0,33.2,34.5,34.5,2.9,2.4,2.625,0.654709238525753,-0.0256860093621015,0.738548262924645,0.010596696174472,-0.113975,-31.123484
11.185,2.0,1.0,1.0,33.2,34.5,34.5,2.9,2.4,2.6275,0.6483117048309066,-0.02635315145971504,0.7438395365318374,0.010590324575797153,-0.116171,-30.933183
11.185,2.0,1.0,1.0,33.2,34.5,34.5,2.9,2.4,2.63,0.6418157494850156,-0.027042462930327377,0.749111256392991,0.010578195921742804,-0.118447,-30.74073
11.185,2.0,1.0,1.0,33.2,34.5,34.5,2.9,2.4,2.6325,0.6352193875535551,-0.027754970257095807,0.7543623318823357,0.010559869420043702,-0.120808,-30.546057
11.185,2.0,1.0,1.0,33.2,34.5,34.5,2.9,2.4,2.635,0.628520553990098,-0.028491762450890263,0.759591614311357,0.01053486759296133,-0.123259,-30.349094
11.185,2.0,1.0,1.0,33.2,34.5,34.5,2.9,2.4,2.6375,0.6217170985205958,-0.029253995757514587,0.7647978926054878,0.010502672706428766,-0.125805,-30.149768
11.185,2.0,1.0,1.0,33.2,34.5,34.5,2.9,2.4,2.64,0.6148067800917556,-0.030042898784719663,0.7699798885463796,0.010462722794947869,-0.12845,-29.948005
11.185,2.0,1.0,1.0,33.2,34.5,34.5,2.9,2.4,2.6425,0.6077872608393861,-0.030859778091949116,0.7751362515256777,0.010414407229740269,-0.131201,-29.743723
11.185,2.0,1.0,1.0,33.2,34.5,34.5,2.9,2.4,2.645,0.6006560995275336,-0.031706024290651155,0.7802655527484048,0.01035706176992896,-0.134065,-29.536841
11.185,2.0,1.0,1.0,33.2,34.5,34.5,2.9,2.4,2.6475,0.5934107444036074,-0.032583118708494035,0.785366278814919,0.010289963027543102,-0.137047,-29.327271
11.185,2.0,1.0,1.0,33.2,34.5,34.5,2.9,2.4,2.65,0.5860485254083281,-0.03349264067699399,0.790436824599788,0.010212322266634176,-0.140155,-29.114923
11.185,2.0,1.0,1.0,33.2,34.5,34.5,2.9,2.4,2.6525,0.5785666456722482,-0.03443627550901045,0.7954754853334448,0.010123278444522326,-0.143398,-28.899702
11.185,2.0,1.0,1.0,33.2,34.5,34.5,2.9,2.4,2.655,0.5709621722225295,-0.03541582324036268,0.8004804477779498,0.01002189038878954,-0.146783,-28.681508
11.185,2.0,1.0,1.0,33.2,34.5,34.5,2.9,2.4,2.6575,0.5632320258147071,-0.0364332082185913,0.8054497803710168,0.009907127986719728,-0.15032,-28.460237
11.185,2.0,1.0,1.0,33.2,34.5,34.5,2.9,2.4,2.66,0.5553729697940166,-0.037490489631731905,0.8103814221923118,0.009777862243952239,-0.15402,-28.235778
11.185,2.0,1.0,1.0,33.2,34.5,34.5,2.9,2.4,2.6625,0.5473815978795384,-0.038589873081023685,0.8152731705821926,0.009632854045571031,-0.157892,-28.008017
11.185,2.0,1.0,1.0,33.2,34.5,34.5,2.9,2.4,2.665,0.5392543207516216,-0.0397337233138703,0.8201226672149007,0.009470741424977502,-0.16195,-27.776832
11.185,2.0,1.0,1.0,33.2,34.5,34.5,2.9,2.4,2.6675,0.5309873513088282,-0.04092457824724208,0.8249273823947115,0.009290025112795572,-0.166206,-27.542097
11.185,2.0,1.0,1.0,33.2,34.5,34.5,2.9,2.4,2.67,0.5225766884446399,-0.042165164427213284,0.8296845973037775,0.009089052098664728,-0.170675,-27.303675
11.185,2.0,1.0,1.0,33.2,34.5,34.5,2.9,2.4,2.6725,0.5140180991763893,-0.04345841408759287,0.8343913838828539,0.008865996891747595,-0.175372,-27.061427
11.185,2.0,1.0,1.0,33.2,34.5,34.5,2.9,2.4,2.675,0.5053070989391353,-0.0448074839897607,0.8390445819692288,0.008618840109480472,-0.180315,-26.815203
11.185,2.0,1.0,1.0,33.2,34.5,34.5,2.9,2.4,2.6775,0.49643892983533744,-0.046215776246968314,0.8436407732479286,0.008345343956512435,-0.185523,-26.564845
11.185,2.0,1.0,1.0,33.2,34.5,34.5,2.9,2.4,2.68,0.4874085366072232,-0.04768696135953444,0.8481762514900704,0.008043024074388044,-0.191017,-26.310187
11.185,2.0,1.0,1.0,33.2,34.5,34.5,2.9,2.4,2.6825,0.4782105400726649,-0.049225003712514925,0.8526469884529836,0.007709117144230425,-0.19682,-26.051052
11.185,2.0,1.0,1.0,33.2,34.5,34.5,2.9,2.4,2.685,0.4688392077373443,-0.05083418981438712,0.8570485946964771,0.007340543505576314,-0.202957,-25.787255
11.185,2.0,1.0,1.0,33.2,34.5,34.5,2.9,2.4,2.6875,0.459288421266393,-0.0525191595836235,0.861376274423475,0.006933863909738,-0.209459,-25.518596
11.185,2.0,1.0,1.0,33.2,34.5,34.5,2.9,2.4,2.69,0.4495516404682555,-0.05428494101905643,0.8656247732750194,0.006485229349517704,-0.216355,-25.244867
11.185,2.0,1.0,1.0,33.2,34.5,34.5,2.9,2.4,2.6925,0.4396218634133037,-0.05613698861841388,0.8697883177915897,0.005990322691068292,-0.223682,-24.965845
11.185,2.0,1.0,1.0,33.2,34.5,34.5,2.9,2.4,2.695,0.42949158228181494,-0.058081225935434036,0.8738605449849428,0.005444290568468876,-0.23148,-24.681292
11.185,2.0,1.0,1.0,33.2,34.5,34.5,2.9,2.4,2.6975,0.41915273451294793,-0.06012409268659563,0.8778344201348619,0.004841663674814188,-0.239793,-24.390957
11.185,2.0,1.0,1.0,33.2,34.5,34.5,2.9,2.4,2.7,0.40859664881303964,-0.06227259682921989,0.8817021405173662,0.004176263179632599,-0.248671,-24.094571
11.185,2.0,1.0,1.0,33.2,34.5,34.5,2.9,2.4,2.7025,0.3978139855842786,-0.06453437202684525,0.8854550222649525,0.003441090501207904,-0.25817,-23.791848
11.185,2.0,1.0,1.0,33.2,34.5,34.5,2.9,2.4,2.705,0.386794671363671,-0.06691774088536802,0.8890833669293304,0.002628197038288243,-0.268355,-23.482481
11.185,2.0,1.0,1.0,33.2,34.5,34.5,2.9,2.4,2.7075,0.3755278269316657,-0.06943178426985891,0.8925763035297224,0.0017285296858277652,-0.279298,-23.166143
11.185,2.0,1.0,1.0,33.2,34.5,34.5,2.9,2.4,2.71,0.3640016888814313,-0.07208641687560803,0.8959216008823047,0.0007317469815623761,-0.291082,-22.842484
11.185,2.0,1.0,1.0,33.2,34.5,34.5,2.9,2.4,2.7125,0.3522035246651323,-0.07489246899621697,0.8991054437637179,-0.00037400050013702385,-0.303801,-22.511129
11.185,2.0,1.0,1.0,33.2,34.5,34.5,2.9,2.4,2.715,0.3401195414991164,-0.07786177405995888,0.9021121648925559,-0.0016023334438296899,-0.317564,-22.171675
11.185,2.0,1.0,1.0,33.2,34.5,34.5,2.9,2.4,2.7175,0.32773479008397605,-0.08100726092494666,0.9049239227255688,-0.002968960681383803,-0.332496,-21.823691
11.185,2.0,1.0,1.0,33.2,34.5,34.5,2.9,2.4,2.72,0.3150330649786494,-0.08434304903345075,0.9075203125413297,-0.004492062073816028,-0.348741,-21.466712
11.185,2.0,1.0,1.0,33.2,34.5,34.5,2.9,2.4,2.7225,0.30199680480852853,-0.08788454317783011,0.909877895070817,-0.006192752965631421,-0.366468,-21.100239
11.185,2.0,1.0,1.0,33.2,34.5,34.5,2.9,2.4,2.725,0.28860699750619306,-0.09164852260569391,0.9119696228360918,-0.008095649842936637,-0.385872,-20.723735
11.185,2.0,1.0,1.0,33.2,34.5,34.5,2.9,2.4,2.7275,0.2748430988064978,-0.09565321616455617,0.9137641391268188,-0.010229561997230279,-0.407183,-20.33662
11.185,2.0,1.0,1.0,33.2,34.5,34.5,2.9,2.4,2.73,0.26068297673335533,-0.09991835067100642,0.9152249178685828,-0.012628340591650385,-0.430673,-19.938271
11.185,2.0,1.0,1.0,33.2,34.5,34.5,2.9,2.4,2.7325,0.2461029015533776,-0.10446515296022403,0.9163092041363838,-0.015331924919119241,-0.456662,-19.528016
11.185,2.0,1.0,1.0,33.2,34.5,34.5,2.9,2.4,2.735,0.23107761072922978,-0.1093162760377784,0.9169667042937438,-0.01838763627015836,-0.485533,-19.105134
11.185,2.0,1.0,1.0,33.2,34.5,34.5,2.9,2.4,2.7375,0.21558049343770735,-0.1144956047732195,0.9171379612036861,-0.02185178316826654,-0.517744,-18.668846
11.185,2.0,1.0,1.0,33.2,34.5,34.5,2.9,2.4,2.74,0.19958396172746318,-0.12002787415905049,0.9167523332068677,-0.02579165822103268,-0.553848,-18.21832
11.185,2.0,1.0,1.0,33.2,34.5,34.5,2.9,2.4,2.7425,0.18306010917136178,-0.12593799954658863,0.9157254753492056,-0.030288026698547847,-0.594516,-17.752664
11.185,2.0,1.0,1.0,33.2,34.5,34.5,2.9,2.4,2.745,0.16598180866552403,-0.13224996776437167,0.9139561980118166,-0.03543822981399006,-0.640567,-17.270932
11.185,2.0,1.0,1.0,33.2,34.5,34.5,2.9,2.4,2.7475,0.1483244775246448,-0.13898506202218772,0.9113225533636424,-0.04136004979863581,-0.693011,-16.772123
11.185,2.0,1.0,1.0,33.2,34.5,34.5,2.9,2.4,2.75,0.130068853248252,-0.146159079109327,0.907676978547078,-0.0481965045784287,-0.753097,-16.255197
11.185,2.0,1.0,1.0,33.2,34.5,34.5,2.9,2.4,2.7525,0.11120529654723185,-0.15377802556198106,0.9028403167543668,-0.0561217466206064,-0.822387,-15.719084
11.185,2.0,1.0,1.0,33.2,34.5,34.5,2.9,2.4,2.755,0.09174039714417372,-0.16183152282821564,0.8965945655252723,-0.06534821119408604,-0.902846,-15.162725
11.185,2.0,1.0,1.0,33.2,34.5,34.5,2.9,2.4,2.7575,0.07170704040497392,-0.1702827726389787,0.8886743102152155,-0.07613504952082799,-0.996963,-14.58511
11.185,2.0,1.0,1.0,33.2,34.5,34.5,2.9,2.4,2.76,0.051179645731835935,-0.1790533869365223,0.8787570761149255,-0.08879760608442375,-1.107917,-13.985362
11.185,2.0,1.0,1.0,33.2,34.5,34.5,2.9,2.4,2.7625,0.030297054717392243,-0.18800062917787155,0.8664534380280069,-0.1037170949367558,-1.239789,-13.362852
11.185,2.0,1.0,1.0,33.2,34.5,34.5,2.9,2.4,2.765,0.009296529912625253,-0.19688364562257113,0.8512989572222317,-0.12134840364809651,-1.39784,-12.717387
11.185,2.0,1.0,1.0,33.2,34.5,34.5,2.9,2.4,2.7675,-0.01143662418046434,-0.2053142357032428,0.8327523830063146,-0.142221600140716,-1.588863,-12.049482
11.185,2.0,1.0,1.0,33.2,34.5,34.5,2.9,2.4,2.77,-0.03129874223321342,-0.21268717407492554,0.8102088638351345,-0.166928442538026,-1.821584,-11.36077
11.185,2.0,1.0,1.0,33.2,34.5,34.5,2.9,2.4,2.7725,-0.049373140389118074,-0.21808655855214362,0.7830442061728489,-0.19607796667690572,-2.107043,-10.654596
11.185,2.0,1.0,1.0,33.2,34.5,34.5,2.9,2.4,2.775,-0.06431438381762704,-0.22017156434610505,0.7507171866601363,-0.2301943859068669,-2.458714,-9.936839
11.185,2.0,1.0,1.0,33.2,34.5,34.5,2.9,2.4,2.7775,-0.07423382726961467,-0.21706397878484293,0.7129697192933536,-0.2695179487442376,-2.891751,-9.217002
11.185,2.0,1.0,1.0,33.2,34.5,34.5,2.9,2.4,2.78,-0.07664976727973295,-0.2063005671836271,0.6701693572642649,-0.3136649781370876,-3.419865,-8.509483
11.185,2.0,1.0,1.0,33.2,34.5,34.5,2.9,2.4,2.7825,-0.06863327322225149,-0.1849803231214877,0.6238074572066838,-0.3611345689099314,-4.046733,-7.834755
11.185,2.0,1.0,1.0,33.2,34.5,34.5,2.9,2.4,2.785,-0.0473473016597425,-0.15030202503565,0.5770497184434852,-0.4087654208595786,-4.746595,-7.219788
11.185,2.0,1.0,1.0,33.2,34.5,34.5,2.9,2.4,2.7875,-0.011132562667913832,-0.10064251647258654,0.5350021274342643,-0.4514777965113371,-5.43101,-6.696651
11.185,2.0,1.0,1.0,33.2,34.5,34.5,2.9,2.4,2.79,0.039044723516688695,-0.03698940782606851,0.5041286111684576,-0.4828586539623838,-5.9232,-6.298188
11.185,2.0,1.0,1.0,33.2,34.5,34.5,2.9,2.4,2.7925,0.09860118420065977,0.036084991914483514,0.49044684605904865,-0.49695610838103005,-6.01608,-6.050801
11.185,2.0,1.0,1.0,33.2,34.5,34.5,2.9,2.4,2.795,0.15992703681449266,0.11102244175132918,0.4970757108497618,-0.4907085726091888,-5.643771,-5.96672
11.185,2.0,1.0,1.0,33.2,34.5,34.5,2.9,2.4,2.7975,0.2147857470773557,0.17966650401742087,0.5227352353818758,-0.4654197959363766,-4.956854,-6.039827
11.185,2.0,1.0,1.0,33.2,34.5,34.5,2.9,2.4,2.8,0.2571172970244528,0.23603923669909288,0.5624113224553318,-0.4260848998755994,-4.174642,-6.247702
11.185,2.0,1.0,1.0,33.2,34.5,34.5,2.9,2.4,2.8025,0.2844363745989154,0.2777160746827121,0.6096163227772041,-0.37914106263116737,-3.443468,-6.558551
11.185,2.0,1.0,1.0,33.2,34.5,34.5,2.9,2.4,2.805,0.2973870034868846,0.30537271256164294,0.658580525597838,-0.33029632678357573,-2.821903,-6.939007
11.185,2.0,1.0,1.0,33.2,34.5,34.5,2.9,2.4,2.8075,0.2983739441418423,0.3214222071792059,0.7053226844674526,-0.2834749473984009,-2.317267,-7.359611
11.185,2.0,1.0,1.0,33.2,34.5,34.5,2.9,2.4,2.81,0.2902950928863447,0.3287577168950949,0.7476723287285892,-0.24080179926204387,-1.915965,-7.797163
11.185,2.0,1.0,1.0,33.2,34.5,34.5,2.9,2.4,2.8125,0.275793259924625,0.330012935679474,0.784798225716683,-0.203073857446946,-1.599126,-8.234818
11.185,2.0,1.0,1.0,33.2,34.5,34.5,2.9,2.4,2.815,0.25697120685510805,0.3272822866738421,0.8166806202354459,-0.17028500769903462,-1.348952,-8.661078
11.185,2.0,1.0,1.0,33.2,34.5,34.5,2.9,2.4,2.8175,0.23537377341174368,0.32210535943574004,0.8437106977451938,-0.14202326377415211,-1.150639,-9.068499
11.185,2.0,1.0,1.0,33.2,34.5,34.5,2.9,2.4,2.82,0.2120791703892684,0.31555884605933016,0.8664397049022008,-0.1177189618820746,-0.992532,-9.452524
11.185,2.0,1.0,1.0,33.2,34.5,34.5,2.9,2.4,2.8225,0.18781287549730644,0.30837031127478326,0.8854416461586271,-0.096780165805574,-0.865673,-9.810556
11.185,2.0,1.0,1.0,33.2,34.5,34.5,2.9,2.4,2.825,0.1630482949017868,0.30101847321295566,0.9012475920284077,-0.07865708601167379,-0.76325,-10.141289
11.185,2.0,1.0,1.0,33.2,34.5,34.5,2.9,2.4,2.8275,0.13808462759677803,0.2938106756048614,0.9143202807135665,-0.06286661893871723,-0.68009,-10.444232
11.185,2.0,1.0,1.0,33.2,34.5,34.5,2.9,2.4,2.83,0.1131031823221076,0.2869388956297578,0.925049362719807,-0.04899648229907966,-0.612259,-10.719393
