1,w,sub_t,h,l1,l2,l3,g1,g2,Freq,S11_re,S21_re,S11_img,S21_img,S11_dB,S21_dB
11.185,2.0,1.0,1.0,33.7,33.5,33.5,3.6,3.7,2.5,0.82825607646677,-0.00625531015583125,0.548583602638327,0.00391756412509792,-0.057039,-42.637931
11.185,2.0,1.0,1.0,33.7,33.5,33.5,3.6,3.7,2.5025,0.8243593286491294,-0.006371579691905427,0.5543155323283833,0.003918450882425736,-0.057559,-42.521899
11.185,2.0,1.0,1.0,33.7,33.5,33.5,3.6,3.7,2.505,0.8204048470994281,-0.006489657215776874,0.5600445617913775,0.0039183548593542715,-0.058087,-42.405652
11.185,2.0,1.0,1.0,33.7,33.5,33.5,3.6,3.7,2.5075,0.816392063872651,-0.006609571666970201,0.5657703533885617,0.003917242983873809,-0.058624,-42.289182
11.185,2.0,1.0,1.0,33.7,33.5,33.5,3.6,3.7,2.51,0.8123204031808081,-0.006731352503782746,0.5714925595672087,0.0039150811260390715,-0.059169,-42.172482
11.185,2.0,1.0,1.0,33.7,33.5,33.5,3.6,3.7,2.5125,0.808189281313037,-0.0068550297121091385,0.5772108225606558,0.003911834061001448,-0.059724,-42.055546
11.185,2.0,1.0,1.0,33.7,33.5,33.5,3.6,3.7,2.515,0.8039981065568037,-0.006980633814338525,0.582924774079415,0.003907465430620841,-0.060287,-41.938368
11.185,2.0,1.0,1.0,33.7,33.5,33.5,3.6,3.7,2.5175,0.7997462791203482,-0.007108195878318351,0.5886340349930445,0.0039019377035967736,-0.06086,-41.820939
11.185,2.0,1.0,1.0,33.7,33.5,33.5,3.6,3.7,2.52,0.7954331910565114,-0.007237747526379133,0.5943382150025409,0.0038952121340550035,-0.061443,-41.703254
11.185,2.0,1.0,1.0,33.7,33.5,33.5,3.6,3.7,2.5225,0.7910582261881108,-0.007369320944412523,0.6000369123029258,0.0038872487185235807,-0.062035,-41.585304
11.185,2.0,1.0,1.0,33.7,33.5,33.5,3.6,3.7,2.525,0.7866207600350199,-0.0075029488909959426,0.6057297132357624,0.0038780061512280525,-0.062637,-41.467085
11.185,2.0,1.0,1.0,33.7,33.5,33.5,3.6,3.7,2.5275,0.7821201597431257,-0.007638664706555062,0.6114161919312877,0.003867441777633153,-0.06325,-41.348587
11.185,2.0,1.0,1.0,33.7,33.5,33.5,3.6,3.7,2.53,0.7775557840153533,-0.007776502322555332,0.6170959099398431,0.0038555115461539695,-0.063873,-41.229804
11.185,2.0,1.0,1.0,33.7,33.5,33.5,3.6,3.7,2.5325,0.7729269830449488,-0.007916496270712559,0.622768415852285,0.0038421699579563903,-0.064506,-41.110729
11.185,2.0,1.0,1.0,33.7,33.5,33.5,3.6,3.7,2.535,0.7682330984512185,-0.008058681692212008,0.6284332449090485,0.003827370014762027,-0.065151,-40.991354
11.185,2.0,1.0,1.0,33.7,33.5,33.5,3.6,3.7,2.5375,0.763473463217957,-0.008203094346924096,0.634089918597512,0.003811063164569245,-0.065806,-40.871673
11.185,2.0,1.0,1.0,33.7,33.5,33.5,3.6,3.7,2.54,0.7586474016347774,-0.008349770622604035,0.6397379442373204,0.0037931992451969614,-0.066473,-40.751677
11.185,2.0,1.0,1.0,33.7,33.5,33.5,3.6,3.7,2.5425,0.7537542292415902,-0.008498747544061776,0.6453768145533025,0.003773726425553547,-0.067152,-40.631359
11.185,2.0,1.0,1.0,33.7,33.5,33.5,3.6,3.7,2.545,0.7487932527764868,-0.008650062782287029,0.6510060072356102,0.00375259114452774,-0.067842,-40.510712
11.185,2.0,1.0,1.0,33.7,33.5,33.5,3.6,3.7,2.5475,0.7437637701272994,-0.008803754663513042,0.6566249844866904,0.0037297380473939722,-0.068545,-40.389728
11.185,2.0,1.0,1.0,33.7,33.5,33.5,3.6,3.7,2.55,0.7386650702871056,-0.008959862178201841,0.6622331925547112,0.0037051099196178014,-0.06926,-40.268399
11.185,2.0,1.0,1.0,33.7,33.5,33.5,3.6,3.7,2.5525,0.7334964333140005,-0.009118424989931226,0.6678300612530127,0.0036786476179426725,-0.069987,-40.146718
11.185,2.0,1.0,1.0,33.7,33.5,33.5,3.6,3.7,2.555,0.7282571302954284,-0.009279483444163518,0.6734150034651841,0.003650289998631461,-0.070728,-40.024676
11.185,2.0,1.0,1.0,33.7,33.5,33.5,3.6,3.7,2.5575,0.7229464233174144,-0.00944307857687315,0.6789874146353329,0.0036199738427309196,-0.071482,-39.902265
11.185,2.0,1.0,1.0,33.7,33.5,33.5,3.6,3.7,2.56,0.7175635654390499,-0.009609252123009173,0.6845466722430948,0.0035876337782192935,-0.072249,-39.779478
11.185,2.0,1.0,1.0,33.7,33.5,33.5,3.6,3.7,2.5625,0.7121078006725936,-0.009778046524766403,0.6900921352629392,0.0035532021988903947,-0.073031,-39.656305
11.185,2.0,1.0,1.0,33.7,33.5,33.5,3.6,3.7,2.565,0.7065783639695735,-0.00994950493963715,0.6956231436072985,0.00351660917981907,-0.073826,-39.532739
11.185,2.0,1.0,1.0,33.7,33.5,33.5,3.6,3.7,2.5675,0.7009744812133073,-0.010123671248212836,0.7011390175530344,0.0034777823892450945,-0.074636,-39.408772
11.185,2.0,1.0,1.0,33.7,33.5,33.5,3.6,3.7,2.57,0.6952953692182614,-0.010300590061702473,0.7066390571507513,0.00343664699670334,-0.075462,-39.284394
11.185,2.0,1.0,1.0,33.7,33.5,33.5,3.6,3.7,2.5725,0.6895402357367032,-0.010480306729133079,0.7121225416164457,0.0033931255772184326,-0.076302,-39.159598
11.185,2.0,1.0,1.0,33.7,33.5,33.5,3.6,3.7,2.575,0.683708279473121,-0.01066286734419282,0.7175887287049635,0.0033471380113724303,-0.077158,-39.034373
11.185,2.0,1.0,1.0,33.7,33.5,33.5,3.6,3.7,2.5775,0.6777986901069143,-0.010848318751676345,0.723036854064726,0.003298601381042851,-0.07803,-38.908712
11.185,2.0,1.0,1.0,33.7,33.5,33.5,3.6,3.7,2.58,0.6718106483238788,-0.011036708553487018,0.7284661305731674,0.00324742986059757,-0.078919,-38.782605
11.185,2.0,1.0,1.0,33.7,33.5,33.5,3.6,3.7,2.5825,0.6657433258570368,-0.01122808511414854,0.7338757476523177,0.0031935346033200858,-0.079824,-38.656043
11.185,2.0,1.0,1.0,33.7,33.5,33.5,3.6,3.7,2.585,0.6595958855373971,-0.011422497565773522,0.73926487056393,0.0031368236228267493,-0.080746,-38.529017
11.185,2.0,1.0,1.0,33.7,33.5,33.5,3.6,3.7,2.5875,0.6533674813552527,-0.011619995812433639,0.744632639683563,0.00307720166922264,-0.081686,-38.401518
11.185,2.0,1.0,1.0,33.7,33.5,33.5,3.6,3.7,2.59,0.6470572585326624,-0.011820630533870372,0.7499781697529792,0.0030145700997288825,-0.082644,-38.273535
11.185,2.0,1.0,1.0,33.7,33.5,33.5,3.6,3.7,2.5925,0.6406643536077835,-0.012024453188482078,0.7553005491102299,0.0029488267434980703,-0.083621,-38.145059
11.185,2.0,1.0,1.0,33.7,33.5,33.5,3.6,3.7,2.595,0.6341878945317784,-0.012231516015516057,0.7605988388967545,0.0028798657603176215,-0.084617,-38.016079
11.185,2.0,1.0,1.0,33.7,33.5,33.5,3.6,3.7,2.5975,0.6276270007790226,-0.012441872036391256,0.7658720722408244,0.0028075774928829874,-0.085632,-37.886587
11.185,2.0,1.0,1.0,33.7,33.5,33.5,3.6,3.7,2.6,0.6209807834714058,-0.0126555750550689,0.7711192534166318,0.002731848312303629,-0.086667,-37.756571
11.185,2.0,1.0,1.0,33.7,33.5,33.5,3.6,3.7,2.6025,0.6142483455175543,-0.012872679657383335,0.7763393569782879,0.002652560456483723,-0.087722,-37.626022
11.185,2.0,1.0,1.0,33.7,33.5,33.5,3.6,3.7,2.605,0.6074287817678174,-0.013093241209237863,0.781531326868011,0.002569591860997893,-0.088799,-37.494927
11.185,2.0,1.0,1.0,33.7,33.5,33.5,3.6,3.7,2.6075,0.6005211791859444,-0.013317315853563244,0.7866940754977193,0.002482815982058478,-0.089897,-37.363278
11.185,2.0,1.0,1.0,33.7,33.5,33.5,3.6,3.7,2.61,0.5935246170383921,-0.013544960505927238,0.7918264828032504,0.002392101611145627,-0.091017,-37.231062
11.185,2.0,1.0,1.0,33.7,33.5,33.5,3.6,3.7,2.6125,0.5864381671022652,-0.013776232848676233,0.7969273952703941,0.002297312680844685,-0.09216,-37.098268
11.185,2.0,1.0,1.0,33.7,33.5,33.5,3.6,3.7,2.615,0.579260893892928,-0.014011191323479302,0.8019956249319027,0.002198308061405435,-0.093326,-36.964885
11.185,2.0,1.0,1.0,33.7,33.5,33.5,3.6,3.7,2.6175,0.5719918549124036,-0.014249895122134655,0.8070299483346063,0.0020949413475075266,-0.094516,-36.830901
11.185,2.0,1.0,1.0,33.7,33.5,33.5,3.6,3.7,2.62,0.5646301009197,-0.014492404175487436,0.8120291054757539,0.0019870606346823107,-0.09573,-36.696305
11.185,2.0,1.0,1.0,33.7,33.5,33.5,3.6,3.7,2.6225,0.5571746762242777,-0.014738779140295612,0.8169917987076507,0.0018745082848048258,-0.09697,-36.561084
11.185,2.0,1.0,1.0,33.7,33.5,33.5,3.6,3.7,2.625,0.549624619003939,-0.0149890813838663,0.821916691609642,0.00175712068003168,-0.098236,-36.425225
11.185,2.0,1.0,1.0,33.7,33.5,33.5,3.6,3.7,2.6275,0.5419789616484555,-0.015243372966271691,0.8268024078264667,0.0016347279645178982,-0.099528,-36.288716
11.185,2.0,1.0,1.0,33.7,33.5,33.5,3.6,3.7,2.63,0.5342367311303465,-0.015501716619936282,0.8316475298719562,0.0015071537732012142,-0.100848,-36.151544
11.185,2.0,1.0,1.0,33.7,33.5,33.5,3.6,3.7,2.6325,0.5263969494042692,-0.015764175726370993,0.8364505978970344,0.0013742149468932495,-0.102195,-36.013697
11.185,2.0,1.0,1.0,33.7,33.5,33.5,3.6,3.7,2.635,0.518458633836561,-0.0160308142898099,0.8412101084209213,0.0012357212328647485,-0.103572,-35.875159
11.185,2.0,1.0,1.0,33.7,33.5,33.5,3.6,3.7,2.6375,0.5104207976665585,-0.016301696907484592,0.8459245130244148,0.0010914749700556637,-0.104978,-35.735918
11.185,2.0,1.0,1.0,33.7,33.5,33.5,3.6,3.7,2.64,0.5022824505013695,-0.016576888736249427,0.8505922170040808,0.0009412707579783969,-0.106415,-35.59596
11.185,2.0,1.0,1.0,33.7,33.5,33.5,3.6,3.7,2.6425,0.4940425988458978,-0.016856455455244702,0.8552115779861261,0.0007848951083178708,-0.107883,-35.455269
11.185,2.0,1.0,1.0,33.7,33.5,33.5,3.6,3.7,2.645,0.48570024666997236,-0.017140463224258426,0.8597809044986956,0.0006221260781589674,-0.109384,-35.313831
11.185,2.0,1.0,1.0,33.7,33.5,33.5,3.6,3.7,2.6475,0.47725439601455133,-0.017428978637417037,0.8642984545012665,0.00045273288369522134,-0.110918,-35.171632
11.185,2.0,1.0,1.0,33.7,33.5,33.5,3.6,3.7,2.65,0.46870404763903806,-0.01772206867180367,0.8687624338697774,0.00027647549318726385,-0.112486,-35.028655
11.185,2.0,1.0,1.0,33.7,33.5,33.5,3.6,3.7,2.6525,0.46004820171189836,-0.01801980063056399,0.873170994836036,9.310419784975917e-05,-0.11409,-34.884884
11.185,2.0,1.0,1.0,33.7,33.5,33.5,3.6,3.7,2.655,0.4512858585468121,-0.018322242080023424,0.8775222343799265,-9.76408407556876e-05,-0.11573,-34.740304
11.185,2.0,1.0,1.0,33.7,33.5,33.5,3.6,3.7,2.6575,0.442416019386761,-0.018629460780292668,0.8818141925728288,-0.00029603006834970087,-0.117407,-34.594898
11.185,2.0,1.0,1.0,33.7,33.5,33.5,3.6,3.7,2.66,0.43343768723853937,-0.018941524608792615,0.8860448508706081,-0.0005023450422335334,-0.119123,-34.448648
11.185,2.0,1.0,1.0,33.7,33.5,33.5,3.6,3.7,2.6625,0.4243498677603285,-0.019258501476074524,0.890212130354433,-0.0007168789640302076,-0.120879,-34.301537
11.185,2.0,1.0,1.0,33.7,33.5,33.5,3.6,3.7,2.665,0.41515157020507193,-0.019580459233254778,0.8943138899176094,-0.0009399372427812596,-0.122675,-34.153546
11.185,2.0,1.0,1.0,33.7,33.5,33.5,3.6,3.7,2.6675,0.4058418084225836,-0.0199074655703162,0.8983479243964897,-0.0011718380904628394,-0.124515,-34.004658
11.185,2.0,1.0,1.0,33.7,33.5,33.5,3.6,3.7,2.67,0.3964196019234181,-0.020239587904457734,0.9023119626434288,-0.0014129131521510158,-0.126397,-33.854853
11.185,2.0,1.0,1.0,33.7,33.5,33.5,3.6,3.7,2.6725,0.38688397700772276,-0.020576893257593605,0.9062036655396348,-0.0016635081732452358,-0.128325,-33.704112
11.185,2.0,1.0,1.0,33.7,33.5,33.5,3.6,3.7,2.675,0.3772339679624628,-0.020919448122014225,0.9100206239456077,-0.0019239837063564117,-0.1303,-33.552414
11.185,2.0,1.0,1.0,33.7,33.5,33.5,3.6,3.7,2.6775,0.3674686183305775,-0.021267318313123285,0.9137603565867447,-0.0021947158606816495,-0.132322,-33.39974
11.185,2.0,1.0,1.0,33.7,33.5,33.5,3.6,3.7,2.68,0.35758698225582286,-0.021620568808055386,0.9174203078715035,-0.002476097096923102,-0.134394,-33.246066
11.185,2.0,1.0,1.0,33.7,33.5,33.5,3.6,3.7,2.6825,0.34758812590728067,-0.021979263568856378,0.9209978456393417,-0.0027685370710663418,-0.136518,-33.091372
11.185,2.0,1.0,1.0,33.7,33.5,33.5,3.6,3.7,2.685,0.33747112898770915,-0.02234346534877258,0.9244902588354558,-0.003072463530617577,-0.138694,-32.935635
11.185,2.0,1.0,1.0,33.7,33.5,33.5,3.6,3.7,2.6875,0.327235086330168,-0.0227132354800433,0.927894755109121,-0.00338832326720908,-0.140926,-32.778831
11.185,2.0,1.0,1.0,33.7,33.5,33.5,3.6,3.7,2.69,0.31687910958761495,-0.02308863364141924,0.9312084583321723,-0.003716583129823036,-0.143214,-32.620937
11.185,2.0,1.0,1.0,33.7,33.5,33.5,3.6,3.7,2.6925,0.30640232902041414,-0.023469717603441805,0.9344284060339181,-0.004057731103260403,-0.145561,-32.461927
11.185,2.0,1.0,1.0,33.7,33.5,33.5,3.6,3.7,2.695,0.295803895387059,-0.023856542949301146,0.9375515467484485,-0.004412277456892019,-0.147969,-32.301777
11.185,2.0,1.0,1.0,33.7,33.5,33.5,3.6,3.7,2.6975,0.2850829819436624,-0.02424916276885495,0.9405747372699741,-0.004780755969185839,-0.150439,-32.140459
11.185,2.0,1.0,1.0,33.7,33.5,33.5,3.6,3.7,2.7,0.2742387865582055,-0.024647627323116674,0.9434947398114399,-0.005163725234002863,-0.152975,-31.977946
11.185,2.0,1.0,1.0,33.7,33.5,33.5,3.6,3.7,2.7025,0.2632705339458545,-0.02505198367622176,0.9463082190612405,-0.005561770055208696,-0.155579,-31.81421
11.185,2.0,1.0,1.0,33.7,33.5,33.5,3.6,3.7,2.705,0.2521774780321392,-0.02546227529153658,0.9490117391323838,-0.005975502936756271,-0.158253,-31.649222
11.185,2.0,1.0,1.0,33.7,33.5,33.5,3.6,3.7,2.7075,0.24095890445121507,-0.025878541588190113,0.9516017603979072,-0.006405565676071386,-0.161,-31.482952
11.185,2.0,1.0,1.0,33.7,33.5,33.5,3.6,3.7,2.71,0.22961413318698096,-0.026300817453871476,0.9540746362057656,-0.006852631069316725,-0.163823,-31.315369
11.185,2.0,1.0,1.0,33.7,33.5,33.5,3.6,3.7,2.7125,0.21814252136537152,-0.026729132709244544,0.9564266094657228,-0.007317404737938726,-0.166724,-31.146439
11.185,2.0,1.0,1.0,33.7,33.5,33.5,3.6,3.7,2.715,0.2065434662067993,-0.027163511518769695,0.9586538091000374,-0.007800627086815027,-0.169706,-30.97613
11.185,2.0,1.0,1.0,33.7,33.5,33.5,3.6,3.7,2.7175,0.19481640814841591,-0.02760397174209056,0.9607522463488699,-0.00830307540533895,-0.172774,-30.804406
11.185,2.0,1.0,1.0,33.7,33.5,33.5,3.6,3.7,2.72,0.18296083414667771,-0.02805052421941969,0.9627178109203944,-0.008825566123903396,-0.17593,-30.631232
11.185,2.0,1.0,1.0,33.7,33.5,33.5,3.6,3.7,2.7225,0.1709762811715339,-0.028503171983539317,0.9645462669745193,-0.00936895723950398,-0.179177,-30.45657
11.185,2.0,1.0,1.0,33.7,33.5,33.5,3.6,3.7,2.725,0.15886233990463855,-0.028961909390094135,0.9662332489279124,-0.009934150925574373,-0.182521,-30.280382
11.185,2.0,1.0,1.0,33.7,33.5,33.5,3.6,3.7,2.7275,0.14661865865500984,-0.029426721156788606,0.9677742570666619,-0.01052209634272568,-0.185964,-30.102626
11.185,2.0,1.0,1.0,33.7,33.5,33.5,3.6,3.7,2.73,0.13424494750692456,-0.02989758130087579,0.9691646529513701,-0.011133792668791697,-0.189511,-29.923262
11.185,2.0,1.0,1.0,33.7,33.5,33.5,3.6,3.7,2.7325,0.1217409827162051,-0.030374451962929736,0.9703996545977405,-0.011770292368521559,-0.193167,-29.742244
11.185,2.0,1.0,1.0,33.7,33.5,33.5,3.6,3.7,2.735,0.10910661137274696,-0.03085728210328597,0.9714743314137608,-0.01243270472542025,-0.196936,-29.559528
11.185,2.0,1.0,1.0,33.7,33.5,33.5,3.6,3.7,2.7375,0.0963417563489712,-0.03134600605569357,0.9723835988723848,-0.013122199660659004,-0.200823,-29.375067
11.185,2.0,1.0,1.0,33.7,33.5,33.5,3.6,3.7,2.74,0.08344642155605606,-0.0318405419205999,0.9731222128960996,-0.013840011866683375,-0.204834,-29.18881
11.185,2.0,1.0,1.0,33.7,33.5,33.5,3.6,3.7,2.7425,0.07042069753222373,-0.032340789778045095,0.9736847639269589,-0.014587445286182367,-0.208975,-29.000708
11.185,2.0,1.0,1.0,33.7,33.5,33.5,3.6,3.7,2.745,0.05726476739021613,-0.03284662969731976,0.974065670652461,-0.01536587797048663,-0.213251,-28.810705
11.185,2.0,1.0,1.0,33.7,33.5,33.5,3.6,3.7,2.7475,0.04397891315432883,-0.03335791951727492,0.9742591733540323,-0.016176767355285285,-0.217669,-28.618747
11.185,2.0,1.0,1.0,33.7,33.5,33.5,3.6,3.7,2.75,0.0305635225211398,-0.0338744923673887,0.974259326840783,-0.0170216559958495,-0.222237,-28.424774
11.185,2.0,1.0,1.0,33.7,33.5,33.5,3.6,3.7,2.7525,0.017019096082444205,-0.03439615389530399,0.9740599929265652,-0.017902177808785478,-0.22696,-28.228725
11.185,2.0,1.0,1.0,33.7,33.5,33.5,3.6,3.7,2.755,0.0033462550539691783,-0.03492267916144114,0.9736548324030956,-0.018820064872784013,-0.231848,-28.030537
11.185,2.0,1.0,1.0,33.7,33.5,33.5,3.6,3.7,2.7575,-0.010454250440677023,-0.03545380915534211,0.9730372964559402,-0.019777154846976105,-0.236909,-27.830142
11.185,2.0,1.0,1.0,33.7,33.5,33.5,3.6,3.7,2.76,-0.024381532474419522,-0.03598924688144968,0.972200617463383,-0.020775399072426978,-0.242152,-27.627471
11.185,2.0,1.0,1.0,33.7,33.5,33.5,3.6,3.7,2.7625,-0.03843455574510865,-0.03652865295390248,0.9711377991105156,-0.021816871430127713,-0.247586,-27.42245
11.185,2.0,1.0,1.0,33.7,33.5,33.5,3.6,3.7,2.765,-0.052612127253973275,-0.03707164063039561,0.9698416057421343,-0.022903778037685306,-0.253222,-27.215003
11.185,2.0,1.0,1.0,33.7,33.5,33.5,3.6,3.7,2.7675,-0.06691288514915136,-0.03761777020396841,0.968304550868125,-0.024038467876913477,-0.259071,-27.005048
11.185,2.0,1.0,1.0,33.7,33.5,33.5,3.6,3.7,2.77,-0.08133528663621688,-0.03816654265840823,0.9665188847237008,-0.025223444455854293,-0.265146,-26.7925
11.185,2.0,1.0,1.0,33.7,33.5,33.5,3.6,3.7,2.7725,-0.0958775948421427,-0.03871739247741786,0.9644765807740658,-0.02646137862158264,-0.271459,-26.577272
11.185,2.0,1.0,1.0,33.7,33.5,33.5,3.6,3.7,2.775,-0.11053786450084485,-0.039269679479322465,0.9621693210384336,-0.027755122654684928,-0.278025,-26.359268
11.185,2.0,1.0,1.0,33.7,33.5,33.5,3.6,3.7,2.7775,-0.12531392630674992,-0.039822679527316406,0.9595884800917811,-0.029107725792783114,-0.284859,-26.138391
11.185,2.0,1.0,1.0,33.7,33.5,33.5,3.6,3.7,2.78,-0.1402033697569874,-0.04037557393938608,0.956725107583802,-0.030522451349166205,-0.291977,-25.914536
11.185,2.0,1.0,1.0,33.7,33.5,33.5,3.6,3.7,2.7825,-0.15520352427201187,-0.04092743739124434,0.9535699090930867,-0.03200279561378314,-0.299398,-25.687595
11.185,2.0,1.0,1.0,33.7,33.5,33.5,3.6,3.7,2.785,-0.1703114383477127,-0.041477224068848864,0.9501132251101432,-0.033552508747891154,-0.307141,-25.457451
11.185,2.0,1.0,1.0,33.7,33.5,33.5,3.6,3.7,2.7875,-0.1855238564479112,-0.04202375178307244,0.9463450079151969,-0.03517561791088001,-0.315227,-25.223984
11.185,2.0,1.0,1.0,33.7,33.5,33.5,3.6,3.7,2.79,-0.2008371932932687,-0.042565683706301455,0.9422547960852539,-0.03687645288864131,-0.323679,-24.987065
11.185,2.0,1.0,1.0,33.7,33.5,33.5,3.6,3.7,2.7925,-0.21624750513877739,-0.043101507327215516,0.9378316863293498,-0.03865967452771622,-0.332524,-24.746558
11.185,2.0,1.0,1.0,33.7,33.5,33.5,3.6,3.7,2.795,-0.23175045755509482,-0.04362951014337255,0.9330643023106553,-0.04053030631882213,-0.341789,-24.502319
11.185,2.0,1.0,1.0,33.7,33.5,33.5,3.6,3.7,2.7975,-0.24734128913561612,-0.0441477515185098,0.9279407600687875,-0.04249376951764737,-0.351505,-24.254196
11.185,2.0,1.0,1.0,33.7,33.5,33.5,3.6,3.7,2.8,-0.263014770438088,-0.04465403001898939,0.9224486296047462,-0.044555922240494455,-0.361705,-24.002029
11.185,2.0,1.0,1.0,33.7,33.5,33.5,3.6,3.7,2.8025,-0.27876515733161517,-0.04514584540693496,0.9165748921340324,-0.04672310302777911,-0.372427,-23.745645
11.185,2.0,1.0,1.0,33.7,33.5,33.5,3.6,3.7,2.805,-0.29458613775157355,-0.04562035430053916,0.9103058924504015,-0.049002179429828804,-0.383712,-23.484865
11.185,2.0,1.0,1.0,33.7,33.5,33.5,3.6,3.7,2.8075,-0.3104707706587062,-0.0460743183074907,0.9036272857733116,-0.051400602236891954,-0.395604,-23.219494
11.185,2.0,1.0,1.0,33.7,33.5,33.5,3.6,3.7,2.81,-0.3264114157453186,-0.046504043186283144,0.8965239783768125,-0.05392646604839706,-0.408156,-22.94933
11.185,2.0,1.0,1.0,33.7,33.5,33.5,3.6,3.7,2.8125,-0.342399652119167,-0.0469053072807165,0.888980061217309,-0.0565885769543544,-0.421423,-22.674153
11.185,2.0,1.0,1.0,33.7,33.5,33.5,3.6,3.7,2.815,-0.3584261838096446,-0.04727327709044584,0.8809787356941767,-0.059396528182483845,-0.435468,-22.393732
11.185,2.0,1.0,1.0,33.7,33.5,33.5,3.6,3.7,2.8175,-0.37448072946203637,-0.04760240736621481,0.8725022305939769,-0.062360784644864845,-0.450362,-22.107821
11.185,2.0,1.0,1.0,33.7,33.5,33.5,3.6,3.7,2.82,-0.3905518929899611,-0.04788632252852267,0.863531709191419,-0.06549277739220137,-0.466183,-21.816155
11.185,2.0,1.0,1.0,33.7,33.5,33.5,3.6,3.7,2.8225,-0.4066270112126286,-0.04811767547231155,0.8540471654170573,-0.06880500904348946,-0.483021,-21.518454
11.185,2.0,1.0,1.0,33.7,33.5,33.5,3.6,3.7,2.825,-0.42269197357269106,-0.04828797889862472,0.8440273079664787,-0.07231117129051934,-0.500976,-21.214418
11.185,2.0,1.0,1.0,33.7,33.5,33.5,3.6,3.7,2.8275,-0.43873100786139974,-0.04838740315672762,0.8334494312391967,-0.07602627555964592,-0.520162,-20.903726
