1,w,sub_t,h,l1,l2,l3,g1,g2,Freq,S11_re,S21_re,S11_img,S21_img,S11_dB,S21_dB
11.185,2.0,1.0,1.0,34.8,34.3,34.3,4.2,3.2,2.5,0.6457748190006,-0.0110327628908488,0.752769812876086,0.00298502717832698,-0.071428,-38.839496
11.185,2.0,1.0,1.0,34.8,34.3,34.3,4.2,3.2,2.5025,0.6393175139990938,-0.011214472467140786,0.7581428789204739,0.0029238385933165905,-0.072223,-38.718812
11.185,2.0,1.0,1.0,34.8,34.3,34.3,4.2,3.2,2.505,0.632779075226743,-0.011398848093090668,0.7634885891369352,0.002859819434873572,-0.073033,-38.597676
11.185,2.0,1.0,1.0,34.8,34.3,34.3,4.2,3.2,2.5075,0.6261587790737765,-0.011585929428482852,0.7688059818063185,0.0027928801175564166,-0.073858,-38.476079
11.185,2.0,1.0,1.0,34.8,34.3,34.3,4.2,3.2,2.51,0.6194558978338585,-0.011775756713091948,0.7740940697568869,0.0027229280269422196,-0.074698,-38.35401
11.185,2.0,1.0,1.0,34.8,34.3,34.3,4.2,3.2,2.5125,0.6126696999188498,-0.011968370772333856,0.7793518396955302,0.0026498674012426183,-0.075554,-38.231459
11.185,2.0,1.0,1.0,34.8,34.3,34.3,4.2,3.2,2.515,0.6057994500882389,-0.012163813022810947,0.7845782515223135,0.0025735992073978877,-0.076427,-38.108418
11.185,2.0,1.0,1.0,34.8,34.3,34.3,4.2,3.2,2.5175,0.5988444096939286,-0.012362125477738262,0.7897722376279551,0.0024940210113366173,-0.077316,-37.984874
11.185,2.0,1.0,1.0,34.8,34.3,34.3,4.2,3.2,2.52,0.5918038369410389,-0.012563350752240587,0.7949327021738621,0.0024110268420670655,-0.078223,-37.860818
11.185,2.0,1.0,1.0,34.8,34.3,34.3,4.2,3.2,2.5225,0.5846769871654746,-0.0127675320685045,0.8000585203542816,0.00232450704924351,-0.079147,-37.736239
11.185,2.0,1.0,1.0,34.8,34.3,34.3,4.2,3.2,2.525,0.5774631131289653,-0.012974713260773223,0.8051485376401741,0.002234348153825006,-0.080089,-37.611125
11.185,2.0,1.0,1.0,34.8,34.3,34.3,4.2,3.2,2.5275,0.570161465332365,-0.013184938780167698,0.8102015690043677,0.0021404326914191032,-0.08105,-37.485466
11.185,2.0,1.0,1.0,34.8,34.3,34.3,4.2,3.2,2.53,0.5627712923480027,-0.013398253699317299,0.8152163981275364,0.002042639047871874,-0.082029,-37.359249
11.185,2.0,1.0,1.0,34.8,34.3,34.3,4.2,3.2,2.5325,0.5552918411719079,-0.013614703716781675,0.8201917765845591,0.001940841286635873,-0.083028,-37.232464
11.185,2.0,1.0,1.0,34.8,34.3,34.3,4.2,3.2,2.535,0.54772235759676,-0.013834335161244339,0.8251264230107687,0.0018349089674125209,-0.084048,-37.105098
11.185,2.0,1.0,1.0,34.8,34.3,34.3,4.2,3.2,2.5375,0.5400620866064613,-0.014057194995455222,0.8300190222476026,0.0017247069555290661,-0.085087,-36.977138
11.185,2.0,1.0,1.0,34.8,34.3,34.3,4.2,3.2,2.54,0.532310272793232,-0.014283330819898762,0.8348682244671403,0.00161009522147037,-0.086148,-36.848572
11.185,2.0,1.0,1.0,34.8,34.3,34.3,4.2,3.2,2.5425,0.5244661607981844,-0.014512790876161172,0.8396726442749972,0.0014909286299409404,-0.08723,-36.719387
11.185,2.0,1.0,1.0,34.8,34.3,34.3,4.2,3.2,2.545,0.5165289957763527,-0.014745624049967017,0.8444308597910156,0.0013670567177878597,-0.088335,-36.589569
11.185,2.0,1.0,1.0,34.8,34.3,34.3,4.2,3.2,2.5475,0.508498023887204,-0.014981879873853592,0.8491414117071665,0.0012383234600615543,-0.089462,-36.459105
11.185,2.0,1.0,1.0,34.8,34.3,34.3,4.2,3.2,2.55,0.5003724928116553,-0.015221608529446599,0.8538028023220656,0.0011045670234362383,-0.090612,-36.32798
11.185,2.0,1.0,1.0,34.8,34.3,34.3,4.2,3.2,2.5525,0.49215165229671626,-0.015464860849297369,0.8584134945514457,0.0009656195061520094,-0.091787,-36.196181
11.185,2.0,1.0,1.0,34.8,34.3,34.3,4.2,3.2,2.555,0.48383475472884835,-0.015711688318237122,0.8629719109139202,0.0008213066635721772,-0.092987,-36.063692
11.185,2.0,1.0,1.0,34.8,34.3,34.3,4.2,3.2,2.5575,0.47542105573720933,-0.015962143074198184,0.8674764324913311,0.000671447618379127,-0.094212,-35.930498
11.185,2.0,1.0,1.0,34.8,34.3,34.3,4.2,3.2,2.56,0.46690981482799027,-0.01621627790844649,0.8719253978629059,0.0005158545543514073,-0.095463,-35.796584
11.185,2.0,1.0,1.0,34.8,34.3,34.3,4.2,3.2,2.5625,0.4583002960510702,-0.01647414626516189,0.8763171020124361,0.00035433239257931694,-0.096741,-35.661933
11.185,2.0,1.0,1.0,34.8,34.3,34.3,4.2,3.2,2.565,0.44959176870026646,-0.016735802240296072,0.8806497952076151,0.0001866784488814065,-0.098047,-35.526529
11.185,2.0,1.0,1.0,34.8,34.3,34.3,4.2,3.2,2.5675,0.4407835080485139,-0.01700130057962764,0.8849216818506169,1.268207108119167e-05,-0.099381,-35.390355
11.185,2.0,1.0,1.0,34.8,34.3,34.3,4.2,3.2,2.57,0.43187479611932167,-0.0172706966759234,0.8891309192989291,-0.00016787574530959716,-0.100745,-35.253393
11.185,2.0,1.0,1.0,34.8,34.3,34.3,4.2,3.2,2.5725,0.4228649224959194,-0.017544046565104672,0.8932756166553891,-0.0003552227645796929,-0.102139,-35.115625
11.185,2.0,1.0,1.0,34.8,34.3,34.3,4.2,3.2,2.575,0.41375318516955195,-0.017821406921300482,0.8973538335262785,-0.000549595943192857,-0.103564,-34.977032
11.185,2.0,1.0,1.0,34.8,34.3,34.3,4.2,3.2,2.5775,0.40453889142841915,-0.018102835050656407,0.9013635787462274,-0.0007512418889116486,-0.105021,-34.837595
11.185,2.0,1.0,1.0,34.8,34.3,34.3,4.2,3.2,2.58,0.39522135878882064,-0.01838838888374802,0.9053028090686015,-0.0009604173486989074,-0.106512,-34.697295
11.185,2.0,1.0,1.0,34.8,34.3,34.3,4.2,3.2,2.5825,0.3857999159700974,-0.018678126966426272,0.9091694278198929,-0.0011773897276052393,-0.108036,-34.556111
11.185,2.0,1.0,1.0,34.8,34.3,34.3,4.2,3.2,2.585,0.3762739039150446,-0.018972108448900227,0.9129612835165256,-0.0014024376410509095,-0.109596,-34.414021
11.185,2.0,1.0,1.0,34.8,34.3,34.3,4.2,3.2,2.5875,0.3666426768574915,-0.019270393072831238,0.9166761684423276,-0.0016358515031289214,-0.111192,-34.271005
11.185,2.0,1.0,1.0,34.8,34.3,34.3,4.2,3.2,2.59,0.35690560343884825,-0.019573041156182462,0.9203118171847366,-0.001877934153800005,-0.112826,-34.127038
11.185,2.0,1.0,1.0,34.8,34.3,34.3,4.2,3.2,2.5925,0.3470620678754332,-0.019880113575529525,0.9238659051276473,-0.0021290015281144278,-0.114498,-33.982098
11.185,2.0,1.0,1.0,34.8,34.3,34.3,4.2,3.2,2.595,0.3371114711785212,-0.02019167174549533,0.9273360468985455,-0.0023893833708961546,-0.116211,-33.836161
11.185,2.0,1.0,1.0,34.8,34.3,34.3,4.2,3.2,2.5975,0.3270532324290581,-0.020507777594920222,0.9307197947673818,-0.002659424000646079,-0.117965,-33.689202
11.185,2.0,1.0,1.0,34.8,34.3,34.3,4.2,3.2,2.6,0.31688679010912657,-0.02082849353932536,0.9340146369943167,-0.002939483126789968,-0.119762,-33.541194
11.185,2.0,1.0,1.0,34.8,34.3,34.3,4.2,3.2,2.6025,0.3066116034923065,-0.021153882449153526,0.9372179961231835,-0.003229936724792233,-0.121603,-33.392111
11.185,2.0,1.0,1.0,34.8,34.3,34.3,4.2,3.2,2.605,0.29622715409515316,-0.02148400761320221,0.9403272272171596,-0.0035311779741088135,-0.12349,-33.241925
11.185,2.0,1.0,1.0,34.8,34.3,34.3,4.2,3.2,2.6075,0.2857329471921526,-0.02181893269656675,0.9433396160327315,-0.0038436182644437,-0.125425,-33.090607
11.185,2.0,1.0,1.0,34.8,34.3,34.3,4.2,3.2,2.61,0.27512851339660477,-0.02215872169231236,0.9462523771276035,-0.004167688276328289,-0.127408,-32.938128
11.185,2.0,1.0,1.0,34.8,34.3,34.3,4.2,3.2,2.6125,0.2644134103100132,-0.022503438865971174,0.9490626518976746,-0.004503839142655698,-0.129443,-32.784455
11.185,2.0,1.0,1.0,34.8,34.3,34.3,4.2,3.2,2.615,0.2535872242427029,-0.02285314869182088,0.9517675065376657,-0.004852543698489224,-0.131531,-32.629557
11.185,2.0,1.0,1.0,34.8,34.3,34.3,4.2,3.2,2.6175,0.24264957200856901,-0.023207915779736993,0.9543639299192798,-0.005214297827225966,-0.133674,-32.473399
11.185,2.0,1.0,1.0,34.8,34.3,34.3,4.2,3.2,2.62,0.23160010279700313,-0.023567804791224937,0.9568488313801075,-0.005589621912056966,-0.135874,-32.315948
11.185,2.0,1.0,1.0,34.8,34.3,34.3,4.2,3.2,2.6225,0.22043850012528382,-0.02393288034301339,0.9592190384155935,-0.0059790624026170285,-0.138133,-32.157166
11.185,2.0,1.0,1.0,34.8,34.3,34.3,4.2,3.2,2.625,0.209164483874959,-0.0243032068963351,0.961471294265479,-0.00638319350779363,-0.140453,-31.997016
11.185,2.0,1.0,1.0,34.8,34.3,34.3,4.2,3.2,2.6275,0.1977778124159781,-0.024678848629721986,0.9636022553850514,-0.006802619026867042,-0.142838,-31.835458
11.185,2.0,1.0,1.0,34.8,34.3,34.3,4.2,3.2,2.63,0.18627828482272396,-0.0250598692927889,0.965608488790299,-0.007237974332505381,-0.145289,-31.672451
11.185,2.0,1.0,1.0,34.8,34.3,34.3,4.2,3.2,2.6325,0.17466574318639239,-0.02544633203807164,0.9674864692647207,-0.0076899285206610355,-0.14781,-31.507951
11.185,2.0,1.0,1.0,34.8,34.3,34.3,4.2,3.2,2.635,0.1629400750286489,-0.025838299227505034,0.9692325764139376,-0.008159186744126773,-0.150403,-31.341915
11.185,2.0,1.0,1.0,34.8,34.3,34.3,4.2,3.2,2.6375,0.15110121582199937,-0.026235832209562694,0.9708430915524774,-0.00864649274844676,-0.153072,-31.174295
11.185,2.0,1.0,1.0,34.8,34.3,34.3,4.2,3.2,2.64,0.13914915162284572,-0.026638991062423335,0.9723141944050816,-0.009152631631059501,-0.155819,-31.005042
11.185,2.0,1.0,1.0,34.8,34.3,34.3,4.2,3.2,2.6425,0.1270839218239967,-0.02704783429774711,0.9736419596025304,-0.009678432847025178,-0.158649,-30.834106
11.185,2.0,1.0,1.0,34.8,34.3,34.3,4.2,3.2,2.645,0.11490562203413941,-0.027462418518738603,0.9748223529493679,-0.010224773487487541,-0.161564,-30.661432
11.185,2.0,1.0,1.0,34.8,34.3,34.3,4.2,3.2,2.6475,0.10261440709282096,-0.02788279802509053,0.9758512274378502,-0.01079258186020544,-0.16457,-30.486964
11.185,2.0,1.0,1.0,34.8,34.3,34.3,4.2,3.2,2.65,0.09021049423058873,-0.02830902435613597,0.97672431897901,-0.011382841405099549,-0.16767,-30.310643
11.185,2.0,1.0,1.0,34.8,34.3,34.3,4.2,3.2,2.6525,0.07769416638540856,-0.02874114576203196,0.9774372418177472,-0.011996594981878637,-0.170869,-30.132409
11.185,2.0,1.0,1.0,34.8,34.3,34.3,4.2,3.2,2.655,0.06506577568800723,-0.02917920659101838,0.9779854835943097,-0.012634949571503637,-0.174171,-29.952196
11.185,2.0,1.0,1.0,34.8,34.3,34.3,4.2,3.2,2.6575,0.05232574713082947,-0.02962324657868494,0.9783644000093495,-0.013299081438611486,-0.177582,-29.769937
11.185,2.0,1.0,1.0,34.8,34.3,34.3,4.2,3.2,2.66,0.0394745824376156,-0.030073300022668923,0.9785692090436953,-0.01399024180816066,-0.181108,-29.585559
11.185,2.0,1.0,1.0,34.8,34.3,34.3,4.2,3.2,2.6625,0.026512864153397552,-0.030529394823216777,0.9785949846771398,-0.01470976311659391,-0.184754,-29.398988
11.185,2.0,1.0,1.0,34.8,34.3,34.3,4.2,3.2,2.665,0.013441259978068061,-0.03099155136647709,0.9784366500425526,-0.015459065905906462,-0.188526,-29.210146
11.185,2.0,1.0,1.0,34.8,34.3,34.3,4.2,3.2,2.6675,0.0002605273707594173,-0.03145978122312597,0.9780889699424741,-0.01623966643829955,-0.192432,-29.018949
11.185,2.0,1.0,1.0,34.8,34.3,34.3,4.2,3.2,2.67,-0.013028481542938996,-0.031934085629815166,0.9775465426447504,-0.017053185119835935,-0.19648,-28.825308
11.185,2.0,1.0,1.0,34.8,34.3,34.3,4.2,3.2,2.6725,-0.026424814722935713,-0.03241445371479305,0.9768037908614319,-0.017901355833895842,-0.200676,-28.629133
11.185,2.0,1.0,1.0,34.8,34.3,34.3,4.2,3.2,2.675,-0.039927414580774166,-0.032900860421657865,0.9758549518010006,-0.018786036299577806,-0.20503,-28.430326
11.185,2.0,1.0,1.0,34.8,34.3,34.3,4.2,3.2,2.6775,-0.053535111906259834,-0.033393264076280765,0.9746940661673325,-0.019709219586820367,-0.209552,-28.228782
11.185,2.0,1.0,1.0,34.8,34.3,34.3,4.2,3.2,2.68,-0.0672466192905329,-0.033891603531143955,0.9733149659595894,-0.020673046939354164,-0.21425,-28.024395
11.185,2.0,1.0,1.0,34.8,34.3,34.3,4.2,3.2,2.6825,-0.08106052396873105,-0.03439579480824201,0.9717112609047356,-0.021679822079105446,-0.219138,-27.817047
11.185,2.0,1.0,1.0,34.8,34.3,34.3,4.2,3.2,2.685,-0.09497527998995305,-0.034905727145765966,0.969876323328078,-0.022732027191952605,-0.224225,-27.606618
11.185,2.0,1.0,1.0,34.8,34.3,34.3,4.2,3.2,2.6875,-0.10898919960315401,-0.03542125833435423,0.9678032712364716,-0.023832340825471372,-0.229527,-27.392977
11.185,2.0,1.0,1.0,34.8,34.3,34.3,4.2,3.2,2.69,-0.1231004437243591,-0.03594220920490903,0.9654849493527501,-0.02498365796532804,-0.235056,-27.175987
11.185,2.0,1.0,1.0,34.8,34.3,34.3,4.2,3.2,2.6925,-0.13730701132189177,-0.036468357100788246,0.9629139077974558,-0.02618911259931084,-0.24083,-26.955503
11.185,2.0,1.0,1.0,34.8,34.3,34.3,4.2,3.2,2.695,-0.15160672752087362,-0.03699942813122848,0.9600823780639756,-0.027452103127812773,-0.246864,-26.731368
11.185,2.0,1.0,1.0,34.8,34.3,34.3,4.2,3.2,2.6975,-0.16599723018454027,-0.03753508795843892,0.9569822458741283,-0.028776321038382666,-0.253179,-26.503419
11.185,2.0,1.0,1.0,34.8,34.3,34.3,4.2,3.2,2.7,-0.18047595467540756,-0.03807493081572896,0.9536050204314097,-0.030165783331490212,-0.259795,-26.271478
11.185,2.0,1.0,1.0,34.8,34.3,34.3,4.2,3.2,2.7025,-0.1950401164315401,-0.03861846638549135,0.9499417995062799,-0.03162486926705847,-0.266735,-26.035359
11.185,2.0,1.0,1.0,34.8,34.3,34.3,4.2,3.2,2.705,-0.2096866909083756,-0.03916510408025465,0.945983229689513,-0.0331583620991832,-0.274025,-25.794861
11.185,2.0,1.0,1.0,34.8,34.3,34.3,4.2,3.2,2.7075,-0.2244123903299946,-0.039714134162649135,0.941719461032481,-0.034771496582933416,-0.281694,-25.549769
11.185,2.0,1.0,1.0,34.8,34.3,34.3,4.2,3.2,2.71,-0.23921363655952413,-0.040264705004945237,0.9371400951536092,-0.03647001317600141,-0.289772,-25.299854
11.185,2.0,1.0,1.0,34.8,34.3,34.3,4.2,3.2,2.7125,-0.25408652922845015,-0.040815795617872935,0.932234125723307,-0.03826022002388088,-0.298297,-25.044871
11.185,2.0,1.0,1.0,34.8,34.3,34.3,4.2,3.2,2.715,-0.2690268080486161,-0.04136618236130044,0.9269898700400097,-0.040149064015731775,-0.307306,-24.784555
11.185,2.0,1.0,1.0,34.8,34.3,34.3,4.2,3.2,2.7175,-0.28402980795497107,-0.04191439847231397,0.921394890170631,-0.04214421243589976,-0.316845,-24.518623
11.185,2.0,1.0,1.0,34.8,34.3,34.3,4.2,3.2,2.72,-0.29909040537333254,-0.042458684691058964,0.9154359018417435,-0.04425414702121244,-0.326964,-24.246771
11.185,2.0,1.0,1.0,34.8,34.3,34.3,4.2,3.2,2.7225,-0.3142029534515069,-0.0429969288071032,0.9090986689233508,-0.04648827257630342,-0.337719,-23.96867
11.185,2.0,1.0,1.0,34.8,34.3,34.3,4.2,3.2,2.725,-0.32936120350129733,-0.04352659135648941,0.9023678809339444,-0.04885704270954866,-0.349175,-23.683965
11.185,2.0,1.0,1.0,34.8,34.3,34.3,4.2,3.2,2.7275,-0.3445582091294949,-0.04404461392813546,0.8952270105002607,-0.05137210574385898,-0.361405,-23.392273
11.185,2.0,1.0,1.0,34.8,34.3,34.3,4.2,3.2,2.73,-0.3597862085283372,-0.04454730552828158,0.8876581471130877,-0.05404647444415421,-0.374493,-23.093182
11.185,2.0,1.0,1.0,34.8,34.3,34.3,4.2,3.2,2.7325,-0.37503647906889637,-0.04503020112198986,0.8796418028153045,-0.05689472390272616,-0.388533,-22.78624
11.185,2.0,1.0,1.0,34.8,34.3,34.3,4.2,3.2,2.735,-0.3902991565829029,-0.04548788470976459,0.8711566846242602,-0.05993322275044203,-0.403637,-22.470962
11.185,2.0,1.0,1.0,34.8,34.3,34.3,4.2,3.2,2.7375,-0.4055630093756443,-0.04591376695113598,0.8621794275139956,-0.06318040382880467,-0.419932,-22.146817
11.185,2.0,1.0,1.0,34.8,34.3,34.3,4.2,3.2,2.74,-0.42081515387078067,-0.046299804201538036,0.8526842806578332,-0.06665708157044177,-0.437567,-21.81323
11.185,2.0,1.0,1.0,34.8,34.3,34.3,4.2,3.2,2.7425,-0.43604069454787614,-0.04663614158485755,0.842642738368985,-0.07038682458214912,-0.456715,-21.469571
11.185,2.0,1.0,1.0,34.8,34.3,34.3,4.2,3.2,2.745,-0.45122226507434776,-0.04691065696103553,0.8320231058190927,-0.07439639326056169,-0.477579,-21.115154
11.185,2.0,1.0,1.0,34.8,34.3,34.3,4.2,3.2,2.7475,-0.4663394396602063,-0.04710837477141721,0.8207899882665163,-0.07871625358952583,-0.500401,-20.749228
11.185,2.0,1.0,1.0,34.8,34.3,34.3,4.2,3.2,2.75,-0.481367972830674,-0.0472107079092983,0.808903691403555,-0.0833811793513539,-0.525465,-20.370971
11.185,2.0,1.0,1.0,34.8,34.3,34.3,4.2,3.2,2.7525,-0.496278810811102,-0.04719447076393633,0.7963195199510802,-0.08843095541105356,-0.553114,-19.979484
11.185,2.0,1.0,1.0,34.8,34.3,34.3,4.2,3.2,2.755,-0.5110367968233286,-0.0470305856987869,0.7829869625618564,-0.0939111937257787,-0.583757,-19.573777
11.185,2.0,1.0,1.0,34.8,34.3,34.3,4.2,3.2,2.7575,-0.5255989633279291,-0.04668237598014564,0.7688487548408425,-0.09987426988236026,-0.617893,-19.152767
11.185,2.0,1.0,1.0,34.8,34.3,34.3,4.2,3.2,2.76,-0.5399122630775154,-0.04610329704537518,0.7538398213633745,-0.10638037875095856,-0.656128,-18.715264
11.185,2.0,1.0,1.0,34.8,34.3,34.3,4.2,3.2,2.7625,-0.5539105327587198,-0.04523389999470028,0.7378861164459654,-0.11349868877112583,-0.69921,-18.259967
11.185,2.0,1.0,1.0,34.8,34.3,34.3,4.2,3.2,2.765,-0.5675104009999046,-0.04399773934342327,0.7209034200566888,-0.12130853747949644,-0.748067,-17.78545
11.185,2.0,1.0,1.0,34.8,34.3,34.3,4.2,3.2,2.7675,-0.5806057371544803,-0.0422958219834548,0.7027962137846474,-0.1299005419773454,-0.803856,-17.290165
11.185,2.0,1.0,1.0,34.8,34.3,34.3,4.2,3.2,2.77,-0.5930600765497481,-0.03999903408423801,0.6834568873665846,-0.1393773719462989,-0.868044,-16.772439
11.185,2.0,1.0,1.0,34.8,34.3,34.3,4.2,3.2,2.7725,-0.6046962386771505,-0.03693776433915477,0.6627657535958785,-0.149853704828202,-0.942494,-16.230486
11.185,2.0,1.0,1.0,34.8,34.3,34.3,4.2,3.2,2.775,-0.615282068303886,-0.032887657037759505,0.6405927577651744,-0.16145447366018525,-1.029609,-15.662438
11.185,2.0,1.0,1.0,34.8,34.3,34.3,4.2,3.2,2.7775,-0.6245108874965634,-0.02755008919859702,0.6168024964638729,-0.1743097885958291,-1.132504,-15.066408
11.185,2.0,1.0,1.0,34.8,34.3,34.3,4.2,3.2,2.78,-0.6319749239078567,-0.020525648086604,0.591265450003615,-0.18854362337243,-1.255256,-14.440596
11.185,2.0,1.0,1.0,34.8,34.3,34.3,4.2,3.2,2.7825,-0.637129919484062,-0.011278832194934528,0.5638805816912769,-0.20425111042267052,-1.403239,-13.783489
11.185,2.0,1.0,1.0,34.8,34.3,34.3,4.2,3.2,2.785,-0.639249975712662,0.0009069365307899494,0.534618272429698,-0.22145547912651514,-1.583545,-13.094199
11.185,2.0,1.0,1.0,34.8,34.3,34.3,4.2,3.2,2.7875,-0.6373750466824282,0.016981527807136784,0.5035986832928654,-0.2400295648722721,-1.805491,-12.373022
11.185,2.0,1.0,1.0,34.8,34.3,34.3,4.2,3.2,2.79,-0.6302629130487412,0.038175641328440875,0.4712293544880241,-0.2595581427529672,-2.08107,-11.622361
11.185,2.0,1.0,1.0,34.8,34.3,34.3,4.2,3.2,2.7925,-0.616380074690355,0.06600915477990185,0.43843469735394147,-0.2791085803459428,-2.424906,-10.848176
11.185,2.0,1.0,1.0,34.8,34.3,34.3,4.2,3.2,2.795,-0.5940130812384822,0.10217875791247777,0.4070071546560253,-0.29688034337241825,-2.852459,-10.062181
11.185,2.0,1.0,1.0,34.8,34.3,34.3,4.2,3.2,2.7975,-0.5616608414609717,0.14816461301112493,0.3800592984678237,-0.3097545856968898,-3.373291,-9.284838
11.185,2.0,1.0,1.0,34.8,34.3,34.3,4.2,3.2,2.8,-0.5189433745642453,0.20432154851559628,0.3623823490165754,-0.3129387997005095,-3.972639,-8.54872
11.185,2.0,1.0,1.0,34.8,34.3,34.3,4.2,3.2,2.8025,-0.46815314666288854,0.26833054883263063,0.36015023470951735,-0.3002668620426625,-4.573295,-7.900523
11.185,2.0,1.0,1.0,34.8,34.3,34.3,4.2,3.2,2.805,-0.41589953964012266,0.3335615526300539,0.3790656208466862,-0.2660548741150205,-4.994024,-7.398129
11.185,2.0,1.0,1.0,34.8,34.3,34.3,4.2,3.2,2.8075,-0.37301527199052614,0.3891759247773437,0.4206842100837657,-0.20877130698534896,-5.001541,-7.098688
11.185,2.0,1.0,1.0,34.8,34.3,34.3,4.2,3.2,2.81,-0.3507512948701251,0.4239331704791182,0.47915517185912926,-0.13428351837257063,-4.526978,-7.038804
11.185,2.0,1.0,1.0,34.8,34.3,34.3,4.2,3.2,2.8125,-0.354786475176792,0.432170754095163,0.542401133768492,-0.0546679357539744,-3.766758,-7.21795
11.185,2.0,1.0,1.0,34.8,34.3,34.3,4.2,3.2,2.815,-0.3824583496257229,0.4165601693964282,0.5980324781279822,0.01770157634177094,-2.976408,-7.59861
11.185,2.0,1.0,1.0,34.8,34.3,34.3,4.2,3.2,2.8175,-0.4256843467054507,0.3851809663338424,0.6386924340076915,0.07548918596754556,-2.29785,-8.123017
11.185,2.0,1.0,1.0,34.8,34.3,34.3,4.2,3.2,2.82,-0.47587924194659653,0.34660596243414016,0.6628945762816549,0.11722759010746225,-1.765973,-8.732908
11.185,2.0,1.0,1.0,34.8,34.3,34.3,4.2,3.2,2.8225,-0.5268264557174953,0.3070341616773002,0.6727620688425455,0.14505490091967366,-1.36585,-9.381296
11.185,2.0,1.0,1.0,34.8,34.3,34.3,4.2,3.2,2.825,-0.5750562635143451,0.26991561756280447,0.6715967334397528,0.16228392268711075,-1.069422,-10.035299
11.185,2.0,1.0,1.0,34.8,34.3,34.3,4.2,3.2,2.8275,-0.6190936570572646,0.2367052827730473,0.6625046779582869,0.1720288683711535,-0.850281,-10.674079
