1,w,sub_t,h,l1,l2,l3,g1,g2,Freq,S11_re,S21_re,S11_img,S21_img,S11_dB,S21_dB
11.185,2.0,1.0,1.0,33.2,34.7,34.7,2.6,2.6,2.5,0.875838328513209,-0.00883080066663523,0.468356603434165,0.00894090815299293,-0.059246,-38.015549
11.185,2.0,1.0,1.0,33.2,34.7,34.7,2.6,2.6,2.5025,0.8727523474389521,-0.009037630960603754,0.4739263634458469,0.009018212711298702,-0.059897,-37.877939
11.185,2.0,1.0,1.0,33.2,34.7,34.7,2.6,2.6,2.505,0.8696163937661467,-0.009249258554168627,0.4794988403318248,0.00909575708537626,-0.060562,-37.739634
11.185,2.0,1.0,1.0,33.2,34.7,34.7,2.6,2.6,2.5075,0.8664298979225782,-0.009465823706152312,0.48507388596445383,0.009173526684444924,-0.061242,-37.600617
11.185,2.0,1.0,1.0,33.2,34.7,34.7,2.6,2.6,2.51,0.8631922775170334,-0.009687472080323131,0.4906513469725796,0.009251505801146804,-0.061937,-37.460869
11.185,2.0,1.0,1.0,33.2,34.7,34.7,2.6,2.6,2.5125,0.8599029369338629,-0.00991435500390861,0.4962310645243559,0.009329677534721373,-0.062648,-37.320371
11.185,2.0,1.0,1.0,33.2,34.7,34.7,2.6,2.6,2.515,0.8565612669092555,-0.010146629740886,0.501812874099743,0.009408023708516434,-0.063375,-37.179106
11.185,2.0,1.0,1.0,33.2,34.7,34.7,2.6,2.6,2.5175,0.8531666440881455,-0.010384459781032852,0.5073966052520382,0.009486524781370586,-0.064118,-37.037053
11.185,2.0,1.0,1.0,33.2,34.7,34.7,2.6,2.6,2.52,0.8497184305605614,-0.010628015145797061,0.512982081357773,0.009565159752365033,-0.064879,-36.894193
11.185,2.0,1.0,1.0,33.2,34.7,34.7,2.6,2.6,2.5225,0.8462159733761767,-0.010877472712123965,0.5185691193542162,0.009643906058388912,-0.065658,-36.750505
11.185,2.0,1.0,1.0,33.2,34.7,34.7,2.6,2.6,2.525,0.8426586040356899,-0.011133016555469465,0.5241575294637119,0.009722739463919397,-0.066455,-36.605968
11.185,2.0,1.0,1.0,33.2,34.7,34.7,2.6,2.6,2.5275,0.8390456379575908,-0.011394838313321297,0.5297471149039794,0.009801633942355273,-0.067271,-36.460561
11.185,2.0,1.0,1.0,33.2,34.7,34.7,2.6,2.6,2.53,0.8353763739187438,-0.011663137570655655,0.5353376715834448,0.00988056154818378,-0.068107,-36.314263
11.185,2.0,1.0,1.0,33.2,34.7,34.7,2.6,2.6,2.5325,0.8316500934671028,-0.011938122268869126,0.5409289877805968,0.009959492279190614,-0.068963,-36.167049
11.185,2.0,1.0,1.0,33.2,34.7,34.7,2.6,2.6,2.535,0.8278660603047435,-0.012220009139850581,0.5465208438062803,0.010038393927848702,-0.06984,-36.018898
11.185,2.0,1.0,1.0,33.2,34.7,34.7,2.6,2.6,2.5375,0.8240235196392542,-0.012509024166989426,0.5521130116477238,0.010117231920935544,-0.07074,-35.869786
11.185,2.0,1.0,1.0,33.2,34.7,34.7,2.6,2.6,2.54,0.8201216975013759,-0.012805403075066031,0.5577052545930256,0.010195969146337053,-0.071661,-35.719687
11.185,2.0,1.0,1.0,33.2,34.7,34.7,2.6,2.6,2.5425,0.8161598000266063,-0.013109391851128483,0.5632973268346867,0.010274565765894153,-0.072607,-35.568578
11.185,2.0,1.0,1.0,33.2,34.7,34.7,2.6,2.6,2.545,0.8121370126983058,-0.013421247298635064,0.5688889730506591,0.010352979013031257,-0.073576,-35.416431
11.185,2.0,1.0,1.0,33.2,34.7,34.7,2.6,2.6,2.5475,0.8080524995496453,-0.01374123762733256,0.5744799279612348,0.010431162973782342,-0.074571,-35.263222
11.185,2.0,1.0,1.0,33.2,34.7,34.7,2.6,2.6,2.55,0.8039054023214949,-0.014069643081551004,0.5800699158599664,0.010509068349686889,-0.075592,-35.108921
11.185,2.0,1.0,1.0,33.2,34.7,34.7,2.6,2.6,2.5525,0.7996948395731528,-0.014406756609821126,0.585658650116599,0.010586642200872453,-0.07664,-34.953503
11.185,2.0,1.0,1.0,33.2,34.7,34.7,2.6,2.6,2.555,0.7954199057425033,-0.014752884578975863,0.5912458326498509,0.010663827667464567,-0.077716,-34.796936
11.185,2.0,1.0,1.0,33.2,34.7,34.7,2.6,2.6,2.5575,0.7910796701519399,-0.01510834753616904,0.5968311533676397,0.010740563667272841,-0.078821,-34.639192
11.185,2.0,1.0,1.0,33.2,34.7,34.7,2.6,2.6,2.56,0.7866731759560626,-0.015473481022547144,0.6024142895721194,0.010816784567480421,-0.079957,-34.48024
11.185,2.0,1.0,1.0,33.2,34.7,34.7,2.6,2.6,2.5625,0.782199439026805,-0.0158486364426424,0.607994905326643,0.010892419827824,-0.081125,-34.320048
11.185,2.0,1.0,1.0,33.2,34.7,34.7,2.6,2.6,2.565,0.7776574467712776,-0.01623418199391963,0.6135726507814769,0.01096739361247979,-0.082325,-34.158584
11.185,2.0,1.0,1.0,33.2,34.7,34.7,2.6,2.6,2.5675,0.7730461568771889,-0.016630503661309814,0.6191471614547438,0.011041624367563212,-0.08356,-33.995814
11.185,2.0,1.0,1.0,33.2,34.7,34.7,2.6,2.6,2.57,0.7683644959802466,-0.01703800628200659,0.6247180574647426,0.011115024360811201,-0.08483,-33.831702
11.185,2.0,1.0,1.0,33.2,34.7,34.7,2.6,2.6,2.5725,0.7636113582474297,-0.017457114686288196,0.6302849427093675,0.011187499179633133,-0.086138,-33.666215
11.185,2.0,1.0,1.0,33.2,34.7,34.7,2.6,2.6,2.575,0.7587856038694748,-0.01788827492066503,0.635847403987891,0.011258947183280656,-0.087484,-33.499313
11.185,2.0,1.0,1.0,33.2,34.7,34.7,2.6,2.6,2.5775,0.753886057455288,-0.018331955560246457,0.6414050100598779,0.011329258904407077,-0.088871,-33.330959
11.185,2.0,1.0,1.0,33.2,34.7,34.7,2.6,2.6,2.58,0.748911506320328,-0.018788649117876685,0.6469573106354065,0.011398316394734749,-0.090301,-33.161114
11.185,2.0,1.0,1.0,33.2,34.7,34.7,2.6,2.6,2.5825,0.7438606986602346,-0.019258873558316143,0.6525038352901479,0.011465992508935544,-0.091774,-32.989735
11.185,2.0,1.0,1.0,33.2,34.7,34.7,2.6,2.6,2.585,0.7387323416001618,-0.01974317392654725,0.6580440922980965,0.011532150120127902,-0.093293,-32.816782
11.185,2.0,1.0,1.0,33.2,34.7,34.7,2.6,2.6,2.5875,0.7335250991093345,-0.020242124100175993,0.6635775673739547,0.011596641259606731,-0.094861,-32.64221
11.185,2.0,1.0,1.0,33.2,34.7,34.7,2.6,2.6,2.59,0.7282375897693416,-0.02075632867688836,0.6691037223162096,0.011659306172527516,-0.096479,-32.465973
11.185,2.0,1.0,1.0,33.2,34.7,34.7,2.6,2.6,2.5925,0.7228683843835194,-0.02128642500901964,0.6746219935409162,0.011719972280247588,-0.09815,-32.288024
11.185,2.0,1.0,1.0,33.2,34.7,34.7,2.6,2.6,2.595,0.7174160034135466,-0.021833085398514026,0.6801317904949735,0.011778453038875857,-0.099877,-32.108315
11.185,2.0,1.0,1.0,33.2,34.7,34.7,2.6,2.6,2.5975,0.7118789142279367,-0.022397019466912072,0.685632493936354,0.011834546682267345,-0.101661,-31.926795
11.185,2.0,1.0,1.0,33.2,34.7,34.7,2.6,2.6,2.6,0.7062555281455735,-0.022978976716514395,0.6911234540671746,0.011888034836198333,-0.103507,-31.743411
11.185,2.0,1.0,1.0,33.2,34.7,34.7,2.6,2.6,2.6025,0.7005441972556921,-0.02357974930055806,0.6966039885037377,0.0119386809887506,-0.105416,-31.558108
11.185,2.0,1.0,1.0,33.2,34.7,34.7,2.6,2.6,2.605,0.6947432109937529,-0.024200175022124567,0.7020733800656671,0.011986228799973431,-0.107393,-31.37083
11.185,2.0,1.0,1.0,33.2,34.7,34.7,2.6,2.6,2.6075,0.6888507924505053,-0.02484114058360043,0.7075308743639507,0.012030400231650093,-0.10944,-31.181517
11.185,2.0,1.0,1.0,33.2,34.7,34.7,2.6,2.6,2.61,0.6828650943891066,-0.025503585110863133,0.712975677165055,0.01207089347542575,-0.111562,-30.990109
11.185,2.0,1.0,1.0,33.2,34.7,34.7,2.6,2.6,2.6125,0.6767841949424519,-0.026188503978997336,0.7184069515052584,0.012107380654589052,-0.113762,-30.796542
11.185,2.0,1.0,1.0,33.2,34.7,34.7,2.6,2.6,2.615,0.6706060929598396,-0.026896952969294275,0.7238238145258554,0.012139505271401568,-0.116045,-30.600748
11.185,2.0,1.0,1.0,33.2,34.7,34.7,2.6,2.6,2.6175,0.6643287029686981,-0.027630052790592927,0.7292253339958524,0.012166879367928781,-0.118415,-30.402658
11.185,2.0,1.0,1.0,33.2,34.7,34.7,2.6,2.6,2.62,0.6579498497132817,-0.028388994001732563,0.7346105244841539,0.012189080363790412,-0.120878,-30.202201
11.185,2.0,1.0,1.0,33.2,34.7,34.7,2.6,2.6,2.6225,0.6514672622279594,-0.02917504237605546,0.7399783431378534,0.01220564752897712,-0.123438,-29.999301
11.185,2.0,1.0,1.0,33.2,34.7,34.7,2.6,2.6,2.625,0.644878567397925,-0.029989544753581,0.745327685017009,0.0122160780437783,-0.126101,-29.793879
11.185,2.0,1.0,1.0,33.2,34.7,34.7,2.6,2.6,2.6275,0.6381812829547101,-0.030833935431750337,0.7506573779290728,0.012219822590757115,-0.128873,-29.585853
11.185,2.0,1.0,1.0,33.2,34.7,34.7,2.6,2.6,2.63,0.631372809847828,-0.03170974315157162,0.7559661766976833,0.012216280415431102,-0.131761,-29.375138
11.185,2.0,1.0,1.0,33.2,34.7,34.7,2.6,2.6,2.6325,0.6244504239269919,-0.0326185987426877,0.7612527567907278,0.012204793782652495,-0.134772,-29.161643
11.185,2.0,1.0,1.0,33.2,34.7,34.7,2.6,2.6,2.635,0.6174112668616275,-0.03356224349842612,0.766515707221064,0.012184641744357313,-0.137914,-28.945274
11.185,2.0,1.0,1.0,33.2,34.7,34.7,2.6,2.6,2.6375,0.6102523362156927,-0.03454253836039389,0.7717535226198081,0.012155033121086489,-0.141195,-28.725933
11.185,2.0,1.0,1.0,33.2,34.7,34.7,2.6,2.6,2.64,0.6029704745859582,-0.035561474001774604,0.776964594366278,0.01211509858406584,-0.144624,-28.503517
11.185,2.0,1.0,1.0,33.2,34.7,34.7,2.6,2.6,2.6425,0.5955623577008566,-0.036621181909304655,0.7821472006399833,0.012063881706236925,-0.148212,-28.277918
11.185,2.0,1.0,1.0,33.2,34.7,34.7,2.6,2.6,2.645,0.5880244813644612,-0.03772394657611902,0.7872994952380546,0.012000328828891084,-0.151968,-28.049022
11.185,2.0,1.0,1.0,33.2,34.7,34.7,2.6,2.6,2.6475,0.5803531471160801,-0.03887221893142741,0.792419494975392,0.011923277564812595,-0.155904,-27.816709
11.185,2.0,1.0,1.0,33.2,34.7,34.7,2.6,2.6,2.65,0.57254444646002,-0.040068631148506326,0.7975050654538649,0.011831443728253921,-0.160034,-27.580856
11.185,2.0,1.0,1.0,33.2,34.7,34.7,2.6,2.6,2.6525,0.5645942435022274,-0.04131601298996657,0.8025539049500172,0.01172340644566083,-0.164371,-27.341328
11.185,2.0,1.0,1.0,33.2,34.7,34.7,2.6,2.6,2.655,0.5564981558103304,-0.04261740986891209,0.8075635261267737,0.011597591157586245,-0.168931,-27.097989
11.185,2.0,1.0,1.0,33.2,34.7,34.7,2.6,2.6,2.6575,0.5482515332910711,-0.043976102826648246,0.8125312352219706,0.011452250170181463,-0.17373,-26.850691
11.185,2.0,1.0,1.0,33.2,34.7,34.7,2.6,2.6,2.66,0.5398494348538287,-0.04539563065225749,0.8174541083033513,0.011285440352152794,-0.178787,-26.59928
11.185,2.0,1.0,1.0,33.2,34.7,34.7,2.6,2.6,2.6625,0.5312866026007963,-0.04687981439683528,0.8223289641035776,0.011094997497798477,-0.184122,-26.343593
11.185,2.0,1.0,1.0,33.2,34.7,34.7,2.6,2.6,2.665,0.5225574332531251,-0.04843278456562868,0.8271523328569421,0.010878506785816554,-0.189759,-26.083458
11.185,2.0,1.0,1.0,33.2,34.7,34.7,2.6,2.6,2.6675,0.5136559464880203,-0.050059011304808006,0.8319204204481457,0.010633268653408955,-0.195721,-25.818693
11.185,2.0,1.0,1.0,33.2,34.7,34.7,2.6,2.6,2.67,0.5045757498242511,-0.05176333793609454,0.83662906704827,0.010356259271289447,-0.202036,-25.549105
11.185,2.0,1.0,1.0,33.2,34.7,34.7,2.6,2.6,2.6725,0.495309999653232,-0.05355101823166655,0.8412736992481598,0.01004408464190196,-0.208736,-25.27449
11.185,2.0,1.0,1.0,33.2,34.7,34.7,2.6,2.6,2.675,0.4858513579702459,-0.05542775786306702,0.8458492744976898,0.009692927143359458,-0.215855,-24.994631
11.185,2.0,1.0,1.0,33.2,34.7,34.7,2.6,2.6,2.6775,0.4761919443166482,-0.05739976050011649,0.8503502164117976,0.009298483096326018,-0.22343,-24.709299
11.185,2.0,1.0,1.0,33.2,34.7,34.7,2.6,2.6,2.68,0.46632328240090476,-0.059473779077175645,0.8547703391991663,0.00885588962892362,-0.231506,-24.418248
11.185,2.0,1.0,1.0,33.2,34.7,34.7,2.6,2.6,2.6825,0.45623624082713576,-0.06165717278144371,0.8591027590924764,0.008359638741236913,-0.240129,-24.121218
11.185,2.0,1.0,1.0,33.2,34.7,34.7,2.6,2.6,2.685,0.4459209673291721,-0.06395797034654734,0.8633397901915636,0.007803476007662865,-0.249355,-23.817933
11.185,2.0,1.0,1.0,33.2,34.7,34.7,2.6,2.6,2.6875,0.435366815893364,-0.0663849402471371,0.867472821548731,0.00718028077853862,-0.259245,-23.508096
11.185,2.0,1.0,1.0,33.2,34.7,34.7,2.6,2.6,2.69,0.42456226616550635,-0.06894766837552509,0.8714921715982641,0.006481924021835804,-0.269869,-23.191393
11.185,2.0,1.0,1.0,33.2,34.7,34.7,2.6,2.6,2.6925,0.41349483459281916,-0.07165664372301853,0.8753869151204906,0.005699099042184949,-0.281305,-22.867486
11.185,2.0,1.0,1.0,33.2,34.7,34.7,2.6,2.6,2.695,0.4021509768757691,-0.07452335246184659,0.8791446767836028,0.004821119177706789,-0.293646,-22.536014
11.185,2.0,1.0,1.0,33.2,34.7,34.7,2.6,2.6,2.6975,0.39051598153312544,-0.07756038059188369,0.8827513838583423,0.0038356751400320114,-0.306993,-22.196593
11.185,2.0,1.0,1.0,33.2,34.7,34.7,2.6,2.6,2.7,0.3785738547717849,-0.08078152492540046,0.8861909688664559,0.0027285428453258788,-0.321467,-21.848807
11.185,2.0,1.0,1.0,33.2,34.7,34.7,2.6,2.6,2.7025,0.3663071974810248,-0.08420191155242604,0.8894450105937887,0.001483230275322214,-0.337205,-21.492214
11.185,2.0,1.0,1.0,33.2,34.7,34.7,2.6,2.6,2.705,0.3536970761592093,-0.08783811993954659,0.8924922989309283,8.054896673546173e-05,-0.354367,-21.126336
11.185,2.0,1.0,1.0,33.2,34.7,34.7,2.6,2.6,2.7075,0.3407228911076514,-0.09170830928867327,0.895308305215694,-0.0015019080258971802,-0.373139,-20.750662
11.185,2.0,1.0,1.0,33.2,34.7,34.7,2.6,2.6,2.71,0.3273622475573937,-0.0958323414550497,0.8978645349084231,-0.00329040464641001,-0.393738,-20.364641
11.185,2.0,1.0,1.0,33.2,34.7,34.7,2.6,2.6,2.7125,0.31359083892732886,-0.10023189120047464,0.9001277332364405,-0.005315845919557019,-0.41642,-19.967683
11.185,2.0,1.0,1.0,33.2,34.7,34.7,2.6,2.6,2.715,0.29938235674236535,-0.10493052924610727,0.9020589065287777,-0.007614744524453437,-0.441487,-19.559151
11.185,2.0,1.0,1.0,33.2,34.7,34.7,2.6,2.6,2.7175,0.28470844976459175,-0.10995375559866206,0.9036121118784491,-0.01023041676492335,-0.469299,-19.138364
11.185,2.0,1.0,1.0,33.2,34.7,34.7,2.6,2.6,2.72,0.26953876696154117,-0.11532894861058075,0.9047329550003659,-0.01321446747783847,-0.500283,-18.704587
11.185,2.0,1.0,1.0,33.2,34.7,34.7,2.6,2.6,2.7225,0.2538411371006014,-0.12108517716636771,0.9053567201543251,-0.016628639243615836,-0.534956,-18.257037
11.185,2.0,1.0,1.0,33.2,34.7,34.7,2.6,2.6,2.725,0.2375819651209424,-0.12725279618316968,0.9054060363161299,-0.02054712072062937,-0.573941,-17.794877
11.185,2.0,1.0,1.0,33.2,34.7,34.7,2.6,2.6,2.7275,0.22072696670075467,-0.13386270460329228,0.9047879602891553,-0.025059432120822615,-0.617998,-17.317217
11.185,2.0,1.0,1.0,33.2,34.7,34.7,2.6,2.6,2.73,0.20324242473554474,-0.14094508316993298,0.9033903309179532,-0.030274032000087974,-0.668056,-16.82312
11.185,2.0,1.0,1.0,33.2,34.7,34.7,2.6,2.6,2.7325,0.18509724550676127,-0.14852733587143974,0.9010772217289208,-0.03632281591310071,-0.725264,-16.311608
11.185,2.0,1.0,1.0,33.2,34.7,34.7,2.6,2.6,2.735,0.16626623414092945,-0.15663081816484667,0.8976832990226139,-0.04336669724768881,-0.791049,-15.781677
11.185,2.0,1.0,1.0,33.2,34.7,34.7,2.6,2.6,2.7375,0.14673522187692828,-0.16526572382832536,0.8930068937404761,-0.05160245870242126,-0.867201,-15.232325
11.185,2.0,1.0,1.0,33.2,34.7,34.7,2.6,2.6,2.74,0.1265089944796278,-0.17442318807534074,0.8868016493662694,-0.06127100851852254,-0.955973,-14.662586
11.185,2.0,1.0,1.0,33.2,34.7,34.7,2.6,2.6,2.7425,0.10562343475550022,-0.1840632049923445,0.8787667760244047,-0.0726670077652126,-1.060234,-14.0716
11.185,2.0,1.0,1.0,33.2,34.7,34.7,2.6,2.6,2.745,0.08416395028776337,-0.1940963053689586,0.8685363399573738,-0.08614943734307967,-1.183649,-13.458706
11.185,2.0,1.0,1.0,33.2,34.7,34.7,2.6,2.6,2.7475,0.06229314066642194,-0.20435606692763678,0.8556688639595811,-0.10215183126834629,-1.330929,-12.823595
11.185,2.0,1.0,1.0,33.2,34.7,34.7,2.6,2.6,2.75,0.0402917149055034,-0.214558485159931,0.8396401899371,-0.121189237535143,-1.508146,-12.166527
11.185,2.0,1.0,1.0,33.2,34.7,34.7,2.6,2.6,2.7525,0.018617602611479805,-0.2242433155624315,0.8198456882388424,-0.14385585644172788,-1.723119,-11.488666
11.185,2.0,1.0,1.0,33.2,34.7,34.7,2.6,2.6,2.755,-0.0020118946990538094,-0.23269260879283998,0.7956233978860301,-0.1708018500875819,-1.985821,-10.792553
11.185,2.0,1.0,1.0,33.2,34.7,34.7,2.6,2.6,2.7575,-0.020513423372453442,-0.23882501451098062,0.7663184896723748,-0.20266908668288838,-2.308703,-10.082772
11.185,2.0,1.0,1.0,33.2,34.7,34.7,2.6,2.6,2.76,-0.0353161598400761,-0.2410756523084189,0.731421387592974,-0.23995376291257636,-2.706534,-9.366844
11.185,2.0,1.0,1.0,33.2,34.7,34.7,2.6,2.6,2.7625,-0.04426253481462338,-0.2372982504807803,0.6908223199106681,-0.28275356413994385,-3.19488,-8.656315
11.185,2.0,1.0,1.0,33.2,34.7,34.7,2.6,2.6,2.765,-0.044619211619446104,-0.22477706399147482,0.6452178370999165,-0.33036433218009326,-3.785153,-7.967894
11.185,2.0,1.0,1.0,33.2,34.7,34.7,2.6,2.6,2.7675,-0.03335591775841585,-0.20050486511135235,0.5966440758177947,-0.38075166914148506,-4.472141,-7.324199
11.185,2.0,1.0,1.0,33.2,34.7,34.7,2.6,2.6,2.77,-0.007881495028429079,-0.16191440406090546,0.5489516755615548,-0.43008159813386054,-5.208423,-6.753339
11.185,2.0,1.0,1.0,33.2,34.7,34.7,2.6,2.6,2.7725,0.032718736720211555,-0.10810599955616325,0.5077969687178348,-0.4727324164942134,-5.868205,-6.286313
11.185,2.0,1.0,1.0,33.2,34.7,34.7,2.6,2.6,2.775,0.08635439001990765,-0.041163093681458846,0.4796314251925046,-0.5023006282813991,-6.243302,-5.951657
11.185,2.0,1.0,1.0,33.2,34.7,34.7,2.6,2.6,2.7775,0.14746674442973956,0.03339335072779916,0.4696386766722353,-0.5136488188733673,-6.156342,-5.768357
11.185,2.0,1.0,1.0,33.2,34.7,34.7,2.6,2.6,2.78,0.20826493662661558,0.10783672755441892,0.479588924452332,-0.5050312420507734,-5.632335,-5.740009
11.185,2.0,1.0,1.0,33.2,34.7,34.7,2.6,2.6,2.7825,0.2612751640479088,0.17476582975375876,0.507110392025556,-0.4788102560407806,-4.875482,-5.853569
11.185,2.0,1.0,1.0,33.2,34.7,34.7,2.6,2.6,2.785,0.301611121153141,0.229354499108721,0.5469186390374714,-0.44023097337608363,-4.08836,-6.083473
11.185,2.0,1.0,1.0,33.2,34.7,34.7,2.6,2.6,2.7875,0.327688057465861,0.270054801247286,0.592993925557359,-0.3952591051331474,-3.381672,-6.398624
11.185,2.0,1.0,1.0,33.2,34.7,34.7,2.6,2.6,2.79,0.3404875147001362,0.2978633597623227,0.6403003809607233,-0.34887693232780576,-2.790833,-6.768765
11.185,2.0,1.0,1.0,33.2,34.7,34.7,2.6,2.6,2.7925,0.34230720821885746,0.31507939785932815,0.6854645444138336,-0.3044130074774649,-2.313354,-7.168293
11.185,2.0,1.0,1.0,33.2,34.7,34.7,2.6,2.6,2.795,0.335741745709107,0.3242937491488062,0.7266615269754345,-0.2636574759658455,-1.933049,-7.577526
11.185,2.0,1.0,1.0,33.2,34.7,34.7,2.6,2.6,2.7975,0.3231175932845694,0.32782936778382826,0.7631805655888091,-0.22729438710992567,-1.631384,-7.982347
11.185,2.0,1.0,1.0,33.2,34.7,34.7,2.6,2.6,2.8,0.30628932795279556,0.3275403411209316,0.7949854325366871,-0.195338208796819,-1.391741,-8.373171
11.185,2.0,1.0,1.0,33.2,34.7,34.7,2.6,2.6,2.8025,0.2866359578730502,0.32480915423198087,0.8223884079531307,-0.16745714606090192,-1.200542,-8.743793
11.185,2.0,1.0,1.0,33.2,34.7,34.7,2.6,2.6,2.805,0.26513788062212956,0.3206236875248783,0.845845103056657,-0.1431763164864285,-1.047145,-9.090404
11.185,2.0,1.0,1.0,33.2,34.7,34.7,2.6,2.6,2.8075,0.2424702615930213,0.3156703034953491,0.8658396410341515,-0.12199118868047226,-0.92336,-9.410823
11.185,2.0,1.0,1.0,33.2,34.7,34.7,2.6,2.6,2.81,0.21908601917698686,0.3104164992264434,0.8828273794474099,-0.10342390323509716,-0.822935,-9.703934
11.185,2.0,1.0,1.0,33.2,34.7,34.7,2.6,2.6,2.8125,0.195280960325291,0.30517578828206,0.897210783047588,-0.0870466869800455,-0.741097,-9.9693
11.185,2.0,1.0,1.0,33.2,34.7,34.7,2.6,2.6,2.815,0.17124176693868032,0.30015554826315793,0.909332901891218,-0.07248777148342725,-0.674197,-10.206892
11.185,2.0,1.0,1.0,33.2,34.7,34.7,2.6,2.6,2.8175,0.1470801096484051,0.295491111088174,0.919479382123182,-0.05942879493690779,-0.619434,-10.416905
11.185,2.0,1.0,1.0,33.2,34.7,34.7,2.6,2.6,2.82,0.12285639097138926,0.29126958706593226,0.9278840359632176,-0.04759859452970419,-0.574649,-10.599639
11.185,2.0,1.0,1.0,33.2,34.7,34.7,2.6,2.6,2.8225,0.0985960509595952,0.2875463437690226,0.9347353958711623,-0.036765912748761,-0.538173,-10.755417
11.185,2.0,1.0,1.0,33.2,34.7,34.7,2.6,2.6,2.825,0.0743006585663596,0.28435635317708646,0.9401830083810884,-0.02673221584513686,-0.508713,-10.884528
11.185,2.0,1.0,1.0,33.2,34.7,34.7,2.6,2.6,2.8275,0.049955391109066695,0.28172200264716024,0.9443429283415624,-0.017325115649803376,-0.485269,-10.987191
11.185,2.0,1.0,1.0,33.2,34.7,34.7,2.6,2.6,2.83,0.025534025672586082,0.27965848894038375,0.9473022289220134,-0.00839252362283054,-0.467075,-11.06353
