1,w,sub_t,h,l1,l2,l3,g1,g2,Freq,S11_re,S21_re,S11_img,S21_img,S11_dB,S21_dB
11.185,2.0,1.0,1.0,33.3,34.9,34.9,1.6,4.4,2.5,0.859804795368809,-0.00947842297721975,0.495477191440186,0.00816869182323446,-0.066687,-38.052969
11.185,2.0,1.0,1.0,33.3,34.9,34.9,1.6,4.4,2.5025,0.8563677808222024,-0.009703432167460987,0.5012088814391671,0.008234345773507292,-0.067507,-37.905894
11.185,2.0,1.0,1.0,33.3,34.9,34.9,1.6,4.4,2.505,0.8528736152795144,-0.009933984842651076,0.5069443922008852,0.008299937500056179,-0.068346,-37.757959
11.185,2.0,1.0,1.0,33.3,34.9,34.9,1.6,4.4,2.5075,0.8493215304461117,-0.010170256734740233,0.5126835587566333,0.008365437208969265,-0.069204,-37.609142
11.185,2.0,1.0,1.0,33.3,34.9,34.9,1.6,4.4,2.51,0.845710738425805,-0.010412430866398655,0.5184262090030403,0.008430813041059922,-0.070083,-37.45942
11.185,2.0,1.0,1.0,33.3,34.9,34.9,1.6,4.4,2.5125,0.8420404310228646,-0.010660697925632396,0.5241721633561475,0.008496030927715437,-0.070982,-37.308771
11.185,2.0,1.0,1.0,33.3,34.9,34.9,1.6,4.4,2.515,0.8383097790101358,-0.010915256663377138,0.5299212343860664,0.008561054435644847,-0.071904,-37.157171
11.185,2.0,1.0,1.0,33.3,34.9,34.9,1.6,4.4,2.5175,0.8345179313611555,-0.011176314315708225,0.5356732264308411,0.00862584459957016,-0.072848,-37.004596
11.185,2.0,1.0,1.0,33.3,34.9,34.9,1.6,4.4,2.52,0.8306640144439861,-0.01144408705244122,0.5414279351880735,0.008690359741810143,-0.073816,-36.851021
11.185,2.0,1.0,1.0,33.3,34.9,34.9,1.6,4.4,2.5225,0.8267471311743501,-0.011718800454039887,0.5471851472826841,0.008754555277606007,-0.074808,-36.69642
11.185,2.0,1.0,1.0,33.3,34.9,34.9,1.6,4.4,2.525,0.8227663601254095,-0.012000690018910352,0.552944639809102,0.008818383504924528,-0.075825,-36.540767
11.185,2.0,1.0,1.0,33.3,34.9,34.9,1.6,4.4,2.5275,0.8187207545913736,-0.01229000170333259,0.55870617984599,0.008881793377348533,-0.076868,-36.384036
11.185,2.0,1.0,1.0,33.3,34.9,34.9,1.6,4.4,2.53,0.8146093416018831,-0.012586992496470198,0.5644695239414438,0.008944730258524583,-0.077938,-36.226198
11.185,2.0,1.0,1.0,33.3,34.9,34.9,1.6,4.4,2.5325,0.8104311208838657,-0.01289193103310905,0.5702344175664324,0.009007135656485421,-0.079036,-36.067225
11.185,2.0,1.0,1.0,33.3,34.9,34.9,1.6,4.4,2.535,0.806185063767301,-0.013205098247002762,0.5760005945340392,0.009068946935989839,-0.080163,-35.907088
11.185,2.0,1.0,1.0,33.3,34.9,34.9,1.6,4.4,2.5375,0.801870112031058,-0.013526788067952112,0.581767776381816,0.009130097006831707,-0.081321,-35.745756
11.185,2.0,1.0,1.0,33.3,34.9,34.9,1.6,4.4,2.54,0.7974851766846243,-0.013857308166022908,0.5875356717143451,0.009190513985857416,-0.08251,-35.583197
11.185,2.0,1.0,1.0,33.3,34.9,34.9,1.6,4.4,2.5425,0.7930291366812217,-0.014196980746605196,0.5933039755027907,0.00925012083019024,-0.083731,-35.419381
11.185,2.0,1.0,1.0,33.3,34.9,34.9,1.6,4.4,2.545,0.788500837557416,-0.014546143400350854,0.5990723683379409,0.009308834938894285,-0.084987,-35.254273
11.185,2.0,1.0,1.0,33.3,34.9,34.9,1.6,4.4,2.5475,0.7838990899939207,-0.014905150012390435,0.6048405156328612,0.009366567720014433,-0.086278,-35.087839
11.185,2.0,1.0,1.0,33.3,34.9,34.9,1.6,4.4,2.55,0.7792226682918195,-0.015274371735632168,0.610608066770948,0.009423224119589338,-0.087606,-34.920044
11.185,2.0,1.0,1.0,33.3,34.9,34.9,1.6,4.4,2.5525,0.7744703087579619,-0.015654198033389074,0.6163746541946703,0.009478702108866694,-0.088972,-34.750852
11.185,2.0,1.0,1.0,33.3,34.9,34.9,1.6,4.4,2.555,0.7696407079927035,-0.016045037797069114,0.6221398924298881,0.009532892125522798,-0.090377,-34.580225
11.185,2.0,1.0,1.0,33.3,34.9,34.9,1.6,4.4,2.5575,0.7647325210725783,-0.016447320545204105,0.6279033770400408,0.009585676464220988,-0.091825,-34.408124
11.185,2.0,1.0,1.0,33.3,34.9,34.9,1.6,4.4,2.56,0.7597443596198161,-0.016861497710687758,0.633664683503921,0.009636928611306834,-0.093316,-34.234508
11.185,2.0,1.0,1.0,33.3,34.9,34.9,1.6,4.4,2.5625,0.7546747897498781,-0.017288044023755757,0.6394233660100829,0.009686512517840924,-0.094852,-34.059336
11.185,2.0,1.0,1.0,33.3,34.9,34.9,1.6,4.4,2.565,0.7495223298873692,-0.01772745899897086,0.6451789561601728,0.00973428180449177,-0.096436,-33.882565
11.185,2.0,1.0,1.0,33.3,34.9,34.9,1.6,4.4,2.5675,0.7442854484398023,-0.01818026853528727,0.6509309615726073,0.009780078891045882,-0.098068,-33.70415
11.185,2.0,1.0,1.0,33.3,34.9,34.9,1.6,4.4,2.57,0.7389625613176698,-0.018647026639167678,0.6566788643770889,0.00982373404242653,-0.099753,-33.524045
11.185,2.0,1.0,1.0,33.3,34.9,34.9,1.6,4.4,2.5725,0.7335520292881991,-0.019128317281727144,0.6624221195893569,0.009865064322130976,-0.101492,-33.342202
11.185,2.0,1.0,1.0,33.3,34.9,34.9,1.6,4.4,2.575,0.7280521551489286,-0.019624756401986083,0.6681601533543433,0.009903872442880282,-0.103287,-33.158571
11.185,2.0,1.0,1.0,33.3,34.9,34.9,1.6,4.4,2.5775,0.7224611807059087,-0.02013699406955506,0.6738923610445351,0.009939945503011543,-0.105141,-32.973101
11.185,2.0,1.0,1.0,33.3,34.9,34.9,1.6,4.4,2.58,0.7167772835398004,-0.020665716821448233,0.6796181051987569,0.009973053595697315,-0.107058,-32.785739
11.185,2.0,1.0,1.0,33.3,34.9,34.9,1.6,4.4,2.5825,0.710998573541487,-0.02121165018926169,0.6853367132848277,0.010002948276434087,-0.109039,-32.596428
11.185,2.0,1.0,1.0,33.3,34.9,34.9,1.6,4.4,2.585,0.7051230891969464,-0.02177556143466545,0.6910474752674985,0.01002936087236196,-0.111089,-32.405111
11.185,2.0,1.0,1.0,33.3,34.9,34.9,1.6,4.4,2.5875,0.6991487935990405,-0.02235826251307767,0.696749640960773,0.010052000614827873,-0.113211,-32.211728
11.185,2.0,1.0,1.0,33.3,34.9,34.9,1.6,4.4,2.59,0.6930735701615826,-0.022960613287530254,0.7024424171410713,0.010070552574141071,-0.115408,-32.016216
11.185,2.0,1.0,1.0,33.3,34.9,34.9,1.6,4.4,2.5925,0.6868952180084236,-0.02358352501713964,0.7081249643946742,0.0100846753726405,-0.117684,-31.818511
11.185,2.0,1.0,1.0,33.3,34.9,34.9,1.6,4.4,2.595,0.6806114470074286,-0.024227964147284044,0.7137963936694122,0.010093998648940195,-0.120045,-31.618545
11.185,2.0,1.0,1.0,33.3,34.9,34.9,1.6,4.4,2.5975,0.6742198724159444,-0.024894956431611402,0.7194557624965952,0.010098120242468162,-0.122493,-31.416247
11.185,2.0,1.0,1.0,33.3,34.9,34.9,1.6,4.4,2.6,0.6677180091007394,-0.025585591419391054,0.725102070844584,0.010096603063086334,-0.125034,-31.211544
11.185,2.0,1.0,1.0,33.3,34.9,34.9,1.6,4.4,2.6025,0.6611032652913237,-0.026301027345534377,0.7307342565601138,0.010088971605569997,-0.127673,-31.004359
11.185,2.0,1.0,1.0,33.3,34.9,34.9,1.6,4.4,2.605,0.6543729358209515,-0.027042496464901016,0.7363511903473796,0.010074708062921215,-0.130416,-30.794612
11.185,2.0,1.0,1.0,33.3,34.9,34.9,1.6,4.4,2.6075,0.6475241948044925,-0.027811310877335692,0.7419516702278008,0.010053247985748099,-0.133268,-30.582219
11.185,2.0,1.0,1.0,33.3,34.9,34.9,1.6,4.4,2.61,0.6405540876965435,-0.028608868895327006,0.74753441541516,0.010023975427093986,-0.136237,-30.367093
11.185,2.0,1.0,1.0,33.3,34.9,34.9,1.6,4.4,2.6125,0.6334595226666401,-0.02943666201232149,0.7530980595312515,0.009986217502946673,-0.139328,-30.149143
11.185,2.0,1.0,1.0,33.3,34.9,34.9,1.6,4.4,2.615,0.6262372612210687,-0.03029628253665939,0.7586411430760034,0.009939238287954701,-0.14255,-29.928272
11.185,2.0,1.0,1.0,33.3,34.9,34.9,1.6,4.4,2.6175,0.6188839079925108,-0.031189431963929662,0.7641621050529854,0.009882231953339423,-0.14591,-29.70438
11.185,2.0,1.0,1.0,33.3,34.9,34.9,1.6,4.4,2.62,0.6113958996093743,-0.03211793016939362,0.7696592736359261,0.009814315039260295,-0.149418,-29.477363
11.185,2.0,1.0,1.0,33.3,34.9,34.9,1.6,4.4,2.6225,0.6037694925461119,-0.03308372551213102,0.7751308557438864,0.009734517736550544,-0.153083,-29.247109
11.185,2.0,1.0,1.0,33.3,34.9,34.9,1.6,4.4,2.625,0.596000749843929,-0.0340889059538778,0.780574925371542,0.00964177403227106,-0.156914,-29.013503
11.185,2.0,1.0,1.0,33.3,34.9,34.9,1.6,4.4,2.6275,0.5880855265777608,-0.03513571130832074,0.7859894104960394,0.00953491054930974,-0.160924,-28.776423
11.185,2.0,1.0,1.0,33.3,34.9,34.9,1.6,4.4,2.63,0.5800194539302368,-0.03622654675107668,0.7913720783522334,0.009412633881514514,-0.165125,-28.535742
11.185,2.0,1.0,1.0,33.3,34.9,34.9,1.6,4.4,2.6325,0.5717979217161473,-0.03736399773693252,0.7967205188329313,0.00927351619166173,-0.16953,-28.291323
11.185,2.0,1.0,1.0,33.3,34.9,34.9,1.6,4.4,2.635,0.5634160591815672,-0.038550846489369725,0.8020321257288339,0.009115978798771338,-0.174153,-28.043027
11.185,2.0,1.0,1.0,33.3,34.9,34.9,1.6,4.4,2.6375,0.5548687138799764,-0.03979009024819805,0.8073040754727733,0.008938273432484399,-0.179011,-27.790701
11.185,2.0,1.0,1.0,33.3,34.9,34.9,1.6,4.4,2.64,0.546150428403147,-0.04108496148452324,0.81253330299282,0.008738460773659421,-0.184121,-27.53419
11.185,2.0,1.0,1.0,33.3,34.9,34.9,1.6,4.4,2.6425,0.5372554147170954,-0.04243895031851612,0.8177164742066503,0.008514385829865983,-0.189503,-27.273326
11.185,2.0,1.0,1.0,33.3,34.9,34.9,1.6,4.4,2.645,0.5281775258226068,-0.043855829404781006,0.8228499546025573,0.00826364960935862,-0.195178,-27.007932
11.185,2.0,1.0,1.0,33.3,34.9,34.9,1.6,4.4,2.6475,0.5189102244256727,-0.04533968158271131,0.8279297732471602,0.007983576454044712,-0.201169,-26.737821
11.185,2.0,1.0,1.0,33.3,34.9,34.9,1.6,4.4,2.65,0.5094465482654149,-0.04689493062519257,0.832951581432052,0.007671176266705562,-0.207503,-26.462796
11.185,2.0,1.0,1.0,33.3,34.9,34.9,1.6,4.4,2.6525,0.499779071705806,-0.048526375458288,0.8379106050158542,0.0073231007149988266,-0.214209,-26.182647
11.185,2.0,1.0,1.0,33.3,34.9,34.9,1.6,4.4,2.655,0.48989986315285095,-0.050239228266889945,0.8428015893277919,0.00693559230789074,-0.221318,-25.897151
11.185,2.0,1.0,1.0,33.3,34.9,34.9,1.6,4.4,2.6575,0.47980043781170006,-0.05203915694602053,0.8476187352652249,0.00650442501068651,-0.228867,-25.606071
11.185,2.0,1.0,1.0,33.3,34.9,34.9,1.6,4.4,2.66,0.4694717052494133,-0.0539323324033191,0.8523556249299107,0.006024834782000912,-0.236896,-25.309154
11.185,2.0,1.0,1.0,33.3,34.9,34.9,1.6,4.4,2.6625,0.45890391118106105,-0.05592548126310726,0.857005134792041,0.005491438066150805,-0.245449,-25.006133
11.185,2.0,1.0,1.0,33.3,34.9,34.9,1.6,4.4,2.665,0.4480865728527855,-0.05802594456282804,0.8615593339297296,0.004898135840002417,-0.254579,-24.69672
11.185,2.0,1.0,1.0,33.3,34.9,34.9,1.6,4.4,2.6675,0.4370084073609779,-0.060241743063125325,0.8660093643416327,0.004238000271737972,-0.264341,-24.380609
11.185,2.0,1.0,1.0,33.3,34.9,34.9,1.6,4.4,2.67,0.4256572522300246,-0.06258164980496142,0.8703452996425034,0.0035031403712459785,-0.274801,-24.057473
11.185,2.0,1.0,1.0,33.3,34.9,34.9,1.6,4.4,2.6725,0.4140199775852131,-0.06505527052805458,0.8745559775874957,0.002684542160267506,-0.286032,-23.726961
11.185,2.0,1.0,1.0,33.3,34.9,34.9,1.6,4.4,2.675,0.40208238932168244,-0.06767313249509711,0.8786288007815967,0.0017718778162003205,-0.298118,-23.388698
11.185,2.0,1.0,1.0,33.3,34.9,34.9,1.6,4.4,2.6775,0.3898291228141693,-0.07044678211640734,0.8825494985512463,0.0007532768829614563,-0.311155,-23.04228
11.185,2.0,1.0,1.0,33.3,34.9,34.9,1.6,4.4,2.68,0.377243526979765,-0.07338889149589505,0.8863018412019465,-0.0003849490875317836,-0.325252,-22.687274
11.185,2.0,1.0,1.0,33.3,34.9,34.9,1.6,4.4,2.6825,0.3643075389631165,-0.07651337355563281,0.8898672956484368,-0.0016586393075491287,-0.340537,-22.323213
11.185,2.0,1.0,1.0,33.3,34.9,34.9,1.6,4.4,2.685,0.3510015504595842,-0.07983550464414142,0.8932246085387048,-0.003086187611935061,-0.357157,-21.949593
11.185,2.0,1.0,1.0,33.3,34.9,34.9,1.6,4.4,2.6875,0.33730426787598494,-0.08337205234438869,0.8963492993108249,-0.004689034710381643,-0.375283,-21.565874
11.185,2.0,1.0,1.0,33.3,34.9,34.9,1.6,4.4,2.69,0.3231925703751752,-0.0871414043481241,0.8992130408752318,-0.006492270827391015,-0.395114,-21.171469
11.185,2.0,1.0,1.0,33.3,34.9,34.9,1.6,4.4,2.6925,0.3086413726991943,-0.091163691416236,0.9017828994824115,-0.008525376778818374,-0.416885,-20.765746
11.185,2.0,1.0,1.0,33.3,34.9,34.9,1.6,4.4,2.695,0.29362350403087367,-0.09546089308879205,0.9040203974000726,-0.010823139369363168,-0.440874,-20.348019
11.185,2.0,1.0,1.0,33.3,34.9,34.9,1.6,4.4,2.6975,0.27810962081945284,-0.10005690816459822,0.9058803517520363,-0.013426787136704274,-0.46741,-19.917549
11.185,2.0,1.0,1.0,33.3,34.9,34.9,1.6,4.4,2.7,0.2620681816618058,-0.10497756184724139,0.9073094295967178,-0.016385405571762296,-0.496886,-19.473534
11.185,2.0,1.0,1.0,33.3,34.9,34.9,1.6,4.4,2.7025,0.24546552784027825,-0.11025050602280255,0.9082443422434736,-0.019757707800964558,-0.529777,-19.015106
11.185,2.0,1.0,1.0,33.3,34.9,34.9,1.6,4.4,2.705,0.2282661368159635,-0.11590494557039298,0.9086095800174556,-0.02361425821152685,-0.566654,-18.541329
11.185,2.0,1.0,1.0,33.3,34.9,34.9,1.6,4.4,2.7075,0.21043315226765003,-0.12197108753916833,0.9083145613145313,-0.028040273487369514,-0.608216,-18.051194
11.185,2.0,1.0,1.0,33.3,34.9,34.9,1.6,4.4,2.71,0.19192934999084726,-0.12847915467010576,0.9072500363224487,-0.03313915849168763,-0.655321,-17.543616
11.185,2.0,1.0,1.0,33.3,34.9,34.9,1.6,4.4,2.7125,0.17271878474900093,-0.13545771956363648,0.9052835468129491,-0.03903697276578333,-0.70903,-17.017436
11.185,2.0,1.0,1.0,33.3,34.9,34.9,1.6,4.4,2.715,0.15276949544986998,-0.14293098448447908,0.9022537022257114,-0.04588806379748766,-0.770669,-16.471428
11.185,2.0,1.0,1.0,33.3,34.9,34.9,1.6,4.4,2.7175,0.132057850076024,-0.15091442930003407,0.8979629981700277,-0.05388213634505135,-0.841904,-15.904312
11.185,2.0,1.0,1.0,33.3,34.9,34.9,1.6,4.4,2.72,0.11057542580857743,-0.1594079385346287,0.8921688984467185,-0.06325303105835718,-0.924853,-15.314779
11.185,2.0,1.0,1.0,33.3,34.9,34.9,1.6,4.4,2.7225,0.08833979956236125,-0.16838504270658078,0.8845729736237598,-0.07428941272736134,-1.022227,-14.701535
11.185,2.0,1.0,1.0,33.3,34.9,34.9,1.6,4.4,2.725,0.06541134617265078,-0.17777619332472877,0.8748081374944761,-0.0873473197791085,-1.13753,-14.063382
11.185,2.0,1.0,1.0,33.3,34.9,34.9,1.6,4.4,2.7275,0.04191919642349113,-0.1874429456098876,0.8624246465653178,-0.10286390405786079,-1.275328,-13.399333
11.185,2.0,1.0,1.0,33.3,34.9,34.9,1.6,4.4,2.73,0.01810096223744465,-0.1971384823883671,0.8468769123481336,-0.12137031042015996,-1.441611,-12.708811
11.185,2.0,1.0,1.0,33.3,34.9,34.9,1.6,4.4,2.7325,-0.00563738852974443,-0.20644815832981353,0.8275160340229952,-0.14349880135769738,-1.64427,-11.991953
11.185,2.0,1.0,1.0,33.3,34.9,34.9,1.6,4.4,2.735,-0.028633595596668445,-0.2147022415097799,0.8035985142945811,-0.16997370677503867,-1.893707,-11.250076
11.185,2.0,1.0,1.0,33.3,34.9,34.9,1.6,4.4,2.7375,-0.049845771931698014,-0.22085363508440864,0.7743316976536756,-0.20156576415110863,-2.2035,-10.486378
11.185,2.0,1.0,1.0,33.3,34.9,34.9,1.6,4.4,2.74,-0.06769384415411889,-0.22332088621646737,0.7389929028342,-0.2389730975577118,-2.590905,-9.706959
11.185,2.0,1.0,1.0,33.3,34.9,34.9,1.6,4.4,2.7425,-0.07989080887983571,-0.21982161378363657,0.6971808852511601,-0.2825706195142038,-3.076434,-8.922214
11.185,2.0,1.0,1.0,33.3,34.9,34.9,1.6,4.4,2.745,-0.08334841834540853,-0.20728084773519612,0.6492720594326649,-0.3319561454094106,-3.68048,-8.14854
11.185,2.0,1.0,1.0,33.3,34.9,34.9,1.6,4.4,2.7475,-0.0743498683070177,-0.182006141490174,0.5971162753876261,-0.38525947838813257,-4.412006,-7.410011
11.185,2.0,1.0,1.0,33.3,34.9,34.9,1.6,4.4,2.75,-0.0493003778470916,-0.14043834046056,0.544829525259081,-0.438358132605796,-5.239372,-6.739084
11.185,2.0,1.0,1.0,33.3,34.9,34.9,1.6,4.4,2.7525,-0.006307361202544042,-0.0807256412784494,0.49915475772207624,-0.484528088817391,-6.034602,-6.174713
11.185,2.0,1.0,1.0,33.3,34.9,34.9,1.6,4.4,2.755,0.052734539803733375,-0.00479109919571539,0.4684840480482635,-0.5154310802555389,-6.531421,-5.756213
11.185,2.0,1.0,1.0,33.3,34.9,34.9,1.6,4.4,2.7575,0.1209508220445947,0.08050315432006881,0.4600335048953254,-0.5239344379297782,-6.453924,-5.513121
11.185,2.0,1.0,1.0,33.3,34.9,34.9,1.6,4.4,2.76,0.1879142487198789,0.16480588151506873,0.47637492253890873,-0.5075481168383347,-5.812931,-5.455118
11.185,2.0,1.0,1.0,33.3,34.9,34.9,1.6,4.4,2.7625,0.24353512290608442,0.23815821550734753,0.5139988657832053,-0.46981560154209356,-4.901201,-5.568215
11.185,2.0,1.0,1.0,33.3,34.9,34.9,1.6,4.4,2.765,0.2817001131673836,0.29458917384234634,0.5652288110571363,-0.4183743813222433,-3.992029,-5.819973
11.185,2.0,1.0,1.0,33.3,34.9,34.9,1.6,4.4,2.7675,0.3012267080253796,0.3330249862985268,0.6217518603524292,-0.36144036367681903,-3.211968,-6.170023
11.185,2.0,1.0,1.0,33.3,34.9,34.9,1.6,4.4,2.77,0.30440325452292893,0.3558126716816107,0.6771794085527282,-0.3052839958105938,-2.586646,-6.579704
11.185,2.0,1.0,1.0,33.3,34.9,34.9,1.6,4.4,2.7725,0.29491845722425497,0.36666037057524564,0.7277561409986903,-0.25355040853141586,-2.099923,-7.017417
11.185,2.0,1.0,1.0,33.3,34.9,34.9,1.6,4.4,2.775,0.27641175836216036,0.3692073635680322,0.771876927903153,-0.20775334742749088,-1.725031,-7.459948
11.185,2.0,1.0,1.0,33.3,34.9,34.9,1.6,4.4,2.7775,0.2518352669113749,0.3664014231043518,0.8092856539790126,-0.16807429063482662,-1.436553,-7.891494
11.185,2.0,1.0,1.0,33.3,34.9,34.9,1.6,4.4,2.78,0.22334094011225042,0.36039423713899366,0.8404135957168445,-0.13401730121651592,-1.21377,-8.301944
11.185,2.0,1.0,1.0,33.3,34.9,34.9,1.6,4.4,2.7825,0.1923960140385549,0.3526598112556052,0.8659588402457752,-0.10482284589097836,-1.040799,-8.6852
11.185,2.0,1.0,1.0,33.3,34.9,34.9,1.6,4.4,2.785,0.15995375063745396,0.34416541556771185,0.8866595071373964,-0.07968932409533469,-0.905776,-9.037846
11.185,2.0,1.0,1.0,33.3,34.9,34.9,1.6,4.4,2.7875,0.1266072562577712,0.33552448960114833,0.9031886697098902,-0.05787436880908123,-0.79992,-9.358187
11.185,2.0,1.0,1.0,33.3,34.9,34.9,1.6,4.4,2.79,0.09270701175210365,0.3271129680773524,0.9161157337965858,-0.03873067886172773,-0.716745,-9.645584
11.185,2.0,1.0,1.0,33.3,34.9,34.9,1.6,4.4,2.7925,0.05844393098099858,0.3191511567224102,0.9259002801627603,-0.02170990393200997,-0.651447,-9.900022
11.185,2.0,1.0,1.0,33.3,34.9,34.9,1.6,4.4,2.795,0.023905682384880337,0.3117589519504419,0.9328997546582273,-0.006352845190965849,-0.60045,-10.121818
11.185,2.0,1.0,1.0,33.3,34.9,34.9,1.6,4.4,2.7975,-0.010885956684936783,0.3049921224721911,0.937381621131966,0.007724887675387058,-0.561086,-10.311442
11.185,2.0,1.0,1.0,33.3,34.9,34.9,1.6,4.4,2.8,-0.04595058013848305,0.2988656869987609,0.9395356145661863,0.020847572661035582,-0.531359,-10.469398
11.185,2.0,1.0,1.0,33.3,34.9,34.9,1.6,4.4,2.8025,-0.08133306843966095,0.2933686636812103,0.9394842865380123,0.03329274903779653,-0.509782,-10.596151
11.185,2.0,1.0,1.0,33.3,34.9,34.9,1.6,4.4,2.805,-0.11709291587577769,0.28847306655168126,0.9372912553007028,0.04530279448154664,-0.495253,-10.692086
11.185,2.0,1.0,1.0,33.3,34.9,34.9,1.6,4.4,2.8075,-0.15329692173910608,0.28413901552038245,0.9329671085994425,0.05709476230894804,-0.486977,-10.757476
11.185,2.0,1.0,1.0,33.3,34.9,34.9,1.6,4.4,2.81,-0.1900138449731906,0.2803171290073188,0.9264731079109443,0.06886873647400167,-0.484402,-10.792476
11.185,2.0,1.0,1.0,33.3,34.9,34.9,1.6,4.4,2.8125,-0.2273100286449,0.276948889197265,0.91772288840122,0.0808150076729292,-0.487183,-10.79711
11.185,2.0,1.0,1.0,33.3,34.9,34.9,1.6,4.4,2.815,-0.26524523562273233,0.2739653327987149,0.9065823307052642,0.09312034822096747,-0.495151,-10.771272
11.185,2.0,1.0,1.0,33.3,34.9,34.9,1.6,4.4,2.8175,-0.3038680471303311,0.2712841684886416,0.8928677452927655,0.10597360272243317,-0.508303,-10.714735
11.185,2.0,1.0,1.0,33.3,34.9,34.9,1.6,4.4,2.82,-0.3432101898422041,0.26880521538422913,0.8763424842150928,0.11957072636822746,-0.526793,-10.627159
11.185,2.0,1.0,1.0,33.3,34.9,34.9,1.6,4.4,2.8225,-0.3832790893763741,0.26640386592841964,0.8567120987275301,0.13411928705430404,-0.550939,-10.508101
11.185,2.0,1.0,1.0,33.3,34.9,34.9,1.6,4.4,2.825,-0.4240478033873244,0.26392208129860634,0.8336182178780558,0.14984228196112032,-0.581231,-10.357047
11.185,2.0,1.0,1.0,33.3,34.9,34.9,1.6,4.4,2.8275,-0.4654412661824477,0.26115621637633984,0.806631466628529,0.16698086897874026,-0.618357,-10.173436
11.185,2.0,1.0,1.0,33.3,34.9,34.9,1.6,4.4,2.83,-0.5073174811446971,0.25784074606051083,0.7752440256784096,0.18579522300499401,-0.663233,-9.956713
