1,w,sub_t,h,l1,l2,l3,g1,g2,Freq,S11_re,S21_re,S11_img,S21_img,S11_dB,S21_dB
11.185,2.0,1.0,1.0,34.8,33.7,33.7,2.4,3.1,2.5,0.639081616307614,-0.0171781988373799,0.757011333282772,0.00656937748119455,-0.081135,-34.707657
11.185,2.0,1.0,1.0,34.8,33.7,33.7,2.4,3.1,2.5025,0.6323176399149735,-0.01747505673834293,0.7625323126914082,0.006494752664424507,-0.082066,-34.589709
11.185,2.0,1.0,1.0,34.8,33.7,33.7,2.4,3.1,2.505,0.6254653646275841,-0.017776312985538462,0.768023452481724,0.0064157259710420625,-0.083014,-34.471386
11.185,2.0,1.0,1.0,34.8,33.7,33.7,2.4,3.1,2.5075,0.6185239691984451,-0.01808202004881781,0.7734836436298151,0.006332151660218184,-0.083979,-34.352682
11.185,2.0,1.0,1.0,34.8,33.7,33.7,2.4,3.1,2.51,0.6114926283205985,-0.018392230247509057,0.778911746601854,0.00624387931026387,-0.084963,-34.233591
11.185,2.0,1.0,1.0,34.8,33.7,33.7,2.4,3.1,2.5125,0.6043705129467872,-0.018706995689415182,0.784306590542493,0.006150753664505347,-0.085965,-34.114107
11.185,2.0,1.0,1.0,34.8,33.7,33.7,2.4,3.1,2.515,0.5971567906311862,-0.019026368205566805,0.7896669724442763,0.006052614472054282,-0.086985,-33.994226
11.185,2.0,1.0,1.0,34.8,33.7,33.7,2.4,3.1,2.5175,0.5898506258942998,-0.01935039928048555,0.794991656297773,0.005949296323308076,-0.088025,-33.873941
11.185,2.0,1.0,1.0,34.8,33.7,33.7,2.4,3.1,2.52,0.582451180612136,-0.019679139977700703,0.8002793722221883,0.005840628480011481,-0.089085,-33.753245
11.185,2.0,1.0,1.0,34.8,33.7,33.7,2.4,3.1,2.5225,0.5749576144308416,-0.02001264086024641,0.8055288155761737,0.005726434699705831,-0.090164,-33.632135
11.185,2.0,1.0,1.0,34.8,33.7,33.7,2.4,3.1,2.525,0.5673690852080046,-0.020350951905854297,0.8107386460486236,0.005606533054386027,-0.091265,-33.510602
11.185,2.0,1.0,1.0,34.8,33.7,33.7,2.4,3.1,2.5275,0.5596847494818968,-0.020694122416538025,0.815907486729217,0.00548073574318234,-0.092386,-33.388642
11.185,2.0,1.0,1.0,34.8,33.7,33.7,2.4,3.1,2.53,0.5519037629699854,-0.021042200922251463,0.8210339231584933,0.005348848898876346,-0.093529,-33.266248
11.185,2.0,1.0,1.0,34.8,33.7,33.7,2.4,3.1,2.5325,0.5440252810980887,-0.021395235078284214,0.826116502357271,0.005210672388057208,-0.094694,-33.143414
11.185,2.0,1.0,1.0,34.8,33.7,33.7,2.4,3.1,2.535,0.536048459561603,-0.021753271556040163,0.8311537318352317,0.0050659996047169925,-0.095881,-33.020133
11.185,2.0,1.0,1.0,34.8,33.7,33.7,2.4,3.1,2.5375,0.5279724549203114,-0.02211635592682421,0.8361440785785097,0.004914617257080146,-0.097092,-32.8964
11.185,2.0,1.0,1.0,34.8,33.7,33.7,2.4,3.1,2.54,0.5197964252283086,-0.022484532538243382,0.8410859680161535,0.0047563051474541155,-0.098326,-32.772208
11.185,2.0,1.0,1.0,34.8,33.7,33.7,2.4,3.1,2.5425,0.51151953070067,-0.022857844382806195,0.8459777829653543,0.004590835944884468,-0.099585,-32.64755
11.185,2.0,1.0,1.0,34.8,33.7,33.7,2.4,3.1,2.545,0.5031409344185394,-0.023236332958280533,0.8508178625553509,0.004417974950390214,-0.100868,-32.522421
11.185,2.0,1.0,1.0,34.8,33.7,33.7,2.4,3.1,2.5475,0.4946598030743941,-0.023620038119347524,0.8556045011299511,0.004237479854550014,-0.102177,-32.396812
11.185,2.0,1.0,1.0,34.8,33.7,33.7,2.4,3.1,2.55,0.48607530775928376,-0.024008997920063436,0.8603359471286669,0.0040491004872018595,-0.103513,-32.270719
11.185,2.0,1.0,1.0,34.8,33.7,33.7,2.4,3.1,2.5525,0.4773866247939587,-0.024403248446611524,0.8650104019464392,0.0038525785590156174,-0.104875,-32.144133
11.185,2.0,1.0,1.0,34.8,33.7,33.7,2.4,3.1,2.555,0.46859293660582524,-0.024802823639804124,0.8696260187720289,0.0036476473946866093,-0.106264,-32.017048
11.185,2.0,1.0,1.0,34.8,33.7,33.7,2.4,3.1,2.5575,0.4596934326537706,-0.02520775510675656,0.8741809014051445,0.003434031657496444,-0.107681,-31.889457
11.185,2.0,1.0,1.0,34.8,33.7,33.7,2.4,3.1,2.56,0.4506873104029833,-0.025618071921130296,0.8786731030524337,0.0032114470649763334,-0.109128,-31.761353
11.185,2.0,1.0,1.0,34.8,33.7,33.7,2.4,3.1,2.5625,0.4415737763519552,-0.026033800411304476,0.8831006251025177,0.0029796000954036297,-0.110604,-31.632729
11.185,2.0,1.0,1.0,34.8,33.7,33.7,2.4,3.1,2.565,0.4323520471139359,-0.02645496393580113,0.887461415880289,0.0027381876848533316,-0.11211,-31.503578
11.185,2.0,1.0,1.0,34.8,33.7,33.7,2.4,3.1,2.5675,0.42302135055522316,-0.026881582645251364,0.89175336938074,0.0024868969145202856,-0.113647,-31.373892
11.185,2.0,1.0,1.0,34.8,33.7,33.7,2.4,3.1,2.57,0.41358092699272186,-0.027313673230150264,0.8959743239826683,0.0022254046880181397,-0.115217,-31.243663
11.185,2.0,1.0,1.0,34.8,33.7,33.7,2.4,3.1,2.5725,0.404030030453316,-0.02775124865360588,0.9001220611426332,0.001953377398354906,-0.116819,-31.112885
11.185,2.0,1.0,1.0,34.8,33.7,33.7,2.4,3.1,2.575,0.39436792999768866,-0.02819431786824224,0.9041943040696306,0.0016704705842754057,-0.118455,-30.981549
11.185,2.0,1.0,1.0,34.8,33.7,33.7,2.4,3.1,2.5775,0.3845939111113179,-0.0286428855163701,0.9081887163810036,0.0013763285756531944,-0.120125,-30.849649
11.185,2.0,1.0,1.0,34.8,33.7,33.7,2.4,3.1,2.58,0.3747072771654731,-0.02909695161248707,0.9121029007401824,0.001070584127605247,-0.121831,-30.717175
11.185,2.0,1.0,1.0,34.8,33.7,33.7,2.4,3.1,2.5825,0.3647073509511326,-0.029556511207118146,0.9159343974769335,0.0007528580429932372,-0.123573,-30.58412
11.185,2.0,1.0,1.0,34.8,33.7,33.7,2.4,3.1,2.585,0.3545934762888567,-0.0300215540309465,0.9196806831908647,0.00042275878296673346,-0.125352,-30.450476
11.185,2.0,1.0,1.0,34.8,33.7,33.7,2.4,3.1,2.5875,0.3443650197177354,-0.030492064118129616,0.9233391693390377,7.988206519196776e-05,-0.12717,-30.316234
11.185,2.0,1.0,1.0,34.8,33.7,33.7,2.4,3.1,2.59,0.3340213722666708,-0.030968019407625814,0.9269072008086061,-0.0002761895505985625,-0.129028,-30.181386
11.185,2.0,1.0,1.0,34.8,33.7,33.7,2.4,3.1,2.5925,0.32356195131131654,-0.03144939132129297,0.9303820544755268,-0.000645887090112947,-0.130926,-30.045924
11.185,2.0,1.0,1.0,34.8,33.7,33.7,2.4,3.1,2.595,0.3129862025201707,-0.031936144317444945,0.9337609377504591,-0.0010296556054508023,-0.132865,-29.909838
11.185,2.0,1.0,1.0,34.8,33.7,33.7,2.4,3.1,2.5975,0.30229360189336885,-0.032428235418474914,0.9370409871131096,-0.0014279546298985293,-0.134848,-29.773121
11.185,2.0,1.0,1.0,34.8,33.7,33.7,2.4,3.1,2.6,0.2914836578978824,-0.032925613711074976,0.9402192666363625,-0.0018412586469821616,-0.136874,-29.635762
11.185,2.0,1.0,1.0,34.8,33.7,33.7,2.4,3.1,2.6025,0.28055591370296046,-0.033428219817485526,0.9432927665016763,-0.002270057574202239,-0.138946,-29.497753
11.185,2.0,1.0,1.0,34.8,33.7,33.7,2.4,3.1,2.605,0.2695099495197225,-0.033935985336123624,0.9462584015073426,-0.0027148572618933527,-0.141064,-29.359085
11.185,2.0,1.0,1.0,34.8,33.7,33.7,2.4,3.1,2.6075,0.25834538504899374,-0.03444883224982942,0.9491130095713374,-0.003176180007661529,-0.143231,-29.219747
11.185,2.0,1.0,1.0,34.8,33.7,33.7,2.4,3.1,2.61,0.2470618820415767,-0.034966672299868704,0.9518533502306308,-0.0036545650868723056,-0.145446,-29.079731
11.185,2.0,1.0,1.0,34.8,33.7,33.7,2.4,3.1,2.6125,0.23565914697528573,-0.035489406323708776,0.9544761031389662,-0.0041505692996770295,-0.147712,-28.939026
11.185,2.0,1.0,1.0,34.8,33.7,33.7,2.4,3.1,2.615,0.22413693385320937,-0.036016923554464744,0.9569778665652692,-0.004664767535085629,-0.150031,-28.797622
11.185,2.0,1.0,1.0,34.8,33.7,33.7,2.4,3.1,2.6175,0.21249504712781944,-0.03654910087977696,0.9593551558949996,-0.005197753352610601,-0.152403,-28.655509
11.185,2.0,1.0,1.0,34.8,33.7,33.7,2.4,3.1,2.62,0.20073334475567337,-0.03708580205773821,0.9616044021369273,-0.005750139582031295,-0.154831,-28.512676
11.185,2.0,1.0,1.0,34.8,33.7,33.7,2.4,3.1,2.6225,0.1888517413875977,-0.03762687688733648,0.9637219504379763,-0.006322558941848776,-0.157316,-28.369112
11.185,2.0,1.0,1.0,34.8,33.7,33.7,2.4,3.1,2.625,0.176850211699436,-0.0381721603307081,0.96570405860895,-0.00691566467702486,-0.159859,-28.224807
11.185,2.0,1.0,1.0,34.8,33.7,33.7,2.4,3.1,2.6275,0.1647287938685336,-0.03872147158432443,0.9675468956641512,-0.007530131216628501,-0.162463,-28.07975
11.185,2.0,1.0,1.0,34.8,33.7,33.7,2.4,3.1,2.63,0.1524875932013641,-0.039274613096032834,0.9692465403780623,-0.008166654852038296,-0.165129,-27.933928
11.185,2.0,1.0,1.0,34.8,33.7,33.7,2.4,3.1,2.6325,0.14012678591781846,-0.03983136952466933,0.9707989798624811,-0.0088259544363819,-0.16786,-27.78733
11.185,2.0,1.0,1.0,34.8,33.7,33.7,2.4,3.1,2.635,0.12764662309789312,-0.040391506638731735,0.9722001081676617,-0.009508772105927715,-0.170657,-27.639945
11.185,2.0,1.0,1.0,34.8,33.7,33.7,2.4,3.1,2.6375,0.11504743479667821,-0.04095477015035277,0.9734457249112568,-0.010215874024177162,-0.173523,-27.491758
11.185,2.0,1.0,1.0,34.8,33.7,33.7,2.4,3.1,2.64,0.10232963433372358,-0.04152088448055176,0.9745315339390114,-0.010948051149449993,-0.17646,-27.342759
11.185,2.0,1.0,1.0,34.8,33.7,33.7,2.4,3.1,2.6425,0.08949372276311578,-0.04208955145144529,0.9754531420214163,-0.011706120026791852,-0.179469,-27.192934
11.185,2.0,1.0,1.0,34.8,33.7,33.7,2.4,3.1,2.645,0.07654029353075553,-0.04266044890078751,0.976206057590705,-0.012490923605084445,-0.182554,-27.042269
11.185,2.0,1.0,1.0,34.8,33.7,33.7,2.4,3.1,2.6475,0.06347003732560141,-0.0432332292138601,0.9767856895228098,-0.01330333208028367,-0.185716,-26.890751
11.185,2.0,1.0,1.0,34.8,33.7,33.7,2.4,3.1,2.65,0.05028374713184182,-0.043807517767360166,0.9771873459691095,-0.01414424376576942,-0.188959,-26.738366
11.185,2.0,1.0,1.0,34.8,33.7,33.7,2.4,3.1,2.6525,0.036982323489293874,-0.04438291127951655,0.9774062332430101,-0.015014585990842369,-0.192285,-26.5851
11.185,2.0,1.0,1.0,34.8,33.7,33.7,2.4,3.1,2.655,0.023566779969520203,-0.04495897606022047,0.97743745476662,-0.015915316028472678,-0.195697,-26.430937
11.185,2.0,1.0,1.0,34.8,33.7,33.7,2.4,3.1,2.6575,0.010038248875530979,-0.04553524615445568,0.977276010083016,-0.016847422053465705,-0.199197,-26.275862
11.185,2.0,1.0,1.0,34.8,33.7,33.7,2.4,3.1,2.66,-0.003602012826742126,-0.04611122137177485,0.976916793939779,-0.017811924132285155,-0.202789,-26.11986
11.185,2.0,1.0,1.0,34.8,33.7,33.7,2.4,3.1,2.6625,-0.01735261733666378,-0.0466863651939677,0.9763545954497235,-0.01880987524584859,-0.206477,-25.962914
11.185,2.0,1.0,1.0,34.8,33.7,33.7,2.4,3.1,2.665,-0.03121203959784374,-0.047260102552414175,0.975584097334933,-0.019842362346693922,-0.210263,-25.805008
11.185,2.0,1.0,1.0,34.8,33.7,33.7,2.4,3.1,2.6675,-0.04517861061840021,-0.04783181746588517,0.9745998752604288,-0.020910507451997226,-0.21415,-25.646124
11.185,2.0,1.0,1.0,34.8,33.7,33.7,2.4,3.1,2.67,-0.05925051052263955,-0.04840085052875776,0.9733963972639923,-0.022015468774016528,-0.218144,-25.486245
11.185,2.0,1.0,1.0,34.8,33.7,33.7,2.4,3.1,2.6725,-0.07342576132369244,-0.048966496238726724,0.971968023288856,-0.023158441889630475,-0.222247,-25.325353
11.185,2.0,1.0,1.0,34.8,33.7,33.7,2.4,3.1,2.675,-0.08770221940599786,-0.04952800015211189,0.9703090048261516,-0.024340660950734793,-0.226463,-25.163427
11.185,2.0,1.0,1.0,34.8,33.7,33.7,2.4,3.1,2.6775,-0.10207756770583844,-0.05008455585378134,0.9684134846741881,-0.025563399937366598,-0.230797,-25.00045
11.185,2.0,1.0,1.0,34.8,33.7,33.7,2.4,3.1,2.68,-0.11654930757735794,-0.05063530172750218,0.966275496821792,-0.026827973955523582,-0.235253,-24.8364
11.185,2.0,1.0,1.0,34.8,33.7,33.7,2.4,3.1,2.6825,-0.13111475033052766,-0.051179317511195,0.9638889664630858,-0.02813574058174873,-0.239835,-24.671256
11.185,2.0,1.0,1.0,34.8,33.7,33.7,2.4,3.1,2.685,-0.1457710084265913,-0.051715620620080095,0.9612477101512292,-0.029488101256652407,-0.24455,-24.504997
11.185,2.0,1.0,1.0,34.8,33.7,33.7,2.4,3.1,2.6875,-0.160514986315295,-0.0522431622190453,0.958345436098784,-0.0308865027296354,-0.249401,-24.337601
11.185,2.0,1.0,1.0,34.8,33.7,33.7,2.4,3.1,2.69,-0.17534337089691976,-0.05276082302371833,0.9551757446324594,-0.032332438557162176,-0.254395,-24.169043
11.185,2.0,1.0,1.0,34.8,33.7,33.7,2.4,3.1,2.6925,-0.19025262159064518,-0.05326740880766493,0.9517321288101404,-0.0338274506570098,-0.259537,-23.9993
11.185,2.0,1.0,1.0,34.8,33.7,33.7,2.4,3.1,2.695,-0.20523895998901154,-0.05376164559082126,0.9480079752081684,-0.0353731309209611,-0.264832,-23.828347
11.185,2.0,1.0,1.0,34.8,33.7,33.7,2.4,3.1,2.6975,-0.22029835907637255,-0.0542421744817003,0.94399656488698,-0.03697112288844936,-0.270289,-23.656157
11.185,2.0,1.0,1.0,34.8,33.7,33.7,2.4,3.1,2.7,-0.23542653198690736,-0.05470754614301023,0.9396910745433018,-0.038623123483639894,-0.275912,-23.482704
11.185,2.0,1.0,1.0,34.8,33.7,33.7,2.4,3.1,2.7025,-0.2506189202752818,-0.05515621484708994,0.9350845778571879,-0.040330884818386314,-0.28171,-23.307958
11.185,2.0,1.0,1.0,34.8,33.7,33.7,2.4,3.1,2.705,-0.26587068167006445,-0.05558653208392241,0.930170047042392,-0.04209621606337457,-0.287689,-23.131892
11.185,2.0,1.0,1.0,34.8,33.7,33.7,2.4,3.1,2.7075,-0.2811766772766964,-0.05599673968040247,0.9249403546086515,-0.04392098538957716,-0.293858,-22.954473
11.185,2.0,1.0,1.0,34.8,33.7,33.7,2.4,3.1,2.71,-0.2965314581929615,-0.056384962384930216,0.9193882753447431,-0.04580712198183873,-0.300226,-22.775671
11.185,2.0,1.0,1.0,34.8,33.7,33.7,2.4,3.1,2.7125,-0.31192925149551004,-0.05674919986622686,0.9135064885314338,-0.0477566181259989,-0.306801,-22.595452
11.185,2.0,1.0,1.0,34.8,33.7,33.7,2.4,3.1,2.715,-0.3273639455509607,-0.05708731806942129,0.9072875803938321,-0.04977153137036994,-0.313593,-22.413782
11.185,2.0,1.0,1.0,34.8,33.7,33.7,2.4,3.1,2.7175,-0.34282907459934187,-0.057397039865875916,0.9007240468031797,-0.05185398676161852,-0.320612,-22.230624
11.185,2.0,1.0,1.0,34.8,33.7,33.7,2.4,3.1,2.72,-0.3583178025509932,-0.05767593492576729,0.8938082962388318,-0.054006179154069786,-0.327868,-22.045941
11.185,2.0,1.0,1.0,34.8,33.7,33.7,2.4,3.1,2.7225,-0.3738229059305244,-0.057921408734025605,0.8865326530220514,-0.05623037559013193,-0.335374,-21.859693
11.185,2.0,1.0,1.0,34.8,33.7,33.7,2.4,3.1,2.725,-0.38933675589265043,-0.058130690660710665,0.8788893608345321,-0.05852891774782425,-0.343141,-21.671839
11.185,2.0,1.0,1.0,34.8,33.7,33.7,2.4,3.1,2.7275,-0.40485129922485513,-0.05830082098611007,0.87087058653611,-0.06090422444923322,-0.351183,-21.482336
11.185,2.0,1.0,1.0,34.8,33.7,33.7,2.4,3.1,2.73,-0.4203580382403219,-0.058428636768611146,0.8624684242982531,-0.06335879422096315,-0.359514,-21.291139
11.185,2.0,1.0,1.0,34.8,33.7,33.7,2.4,3.1,2.7325,-0.43584800945149454,-0.05851075642951016,0.8536749000725788,-0.0658952078942084,-0.368148,-21.098201
11.185,2.0,1.0,1.0,34.8,33.7,33.7,2.4,3.1,2.735,-0.4513117608996066,-0.05854356291314604,0.8444819764171508,-0.06851613122774197,-0.377102,-20.903472
11.185,2.0,1.0,1.0,34.8,33.7,33.7,2.4,3.1,2.7375,-0.4667393279982355,-0.058523185262811604,0.8348815577077147,-0.0712243175317364,-0.386393,-20.706901
11.185,2.0,1.0,1.0,34.8,33.7,33.7,2.4,3.1,2.74,-0.48212020772914466,-0.058445478432481386,0.8248654957666733,-0.07402261026362393,-0.396039,-20.508433
11.185,2.0,1.0,1.0,34.8,33.7,33.7,2.4,3.1,2.7425,-0.4974433310060088,-0.05830600113115042,0.8144255959497468,-0.07691394555889702,-0.406061,-20.308011
11.185,2.0,1.0,1.0,34.8,33.7,33.7,2.4,3.1,2.745,-0.5126970329954745,-0.058099991470080735,0.8035536237392572,-0.07990135464945675,-0.41648,-20.105575
11.185,2.0,1.0,1.0,34.8,33.7,33.7,2.4,3.1,2.7475,-0.5278690211551615,-0.057822340153027674,0.7922413119043147,-0.0829879661093943,-0.427319,-19.901063
11.185,2.0,1.0,1.0,34.8,33.7,33.7,2.4,3.1,2.75,-0.542946340713833,-0.0574675609150217,0.78048036830238,-0.0861770078523857,-0.438602,-19.694409
11.185,2.0,1.0,1.0,34.8,33.7,33.7,2.4,3.1,2.7525,-0.5579153372795341,-0.05702975787587488,0.768262484414447,-0.08947180878549753,-0.450358,-19.485543
11.185,2.0,1.0,1.0,34.8,33.7,33.7,2.4,3.1,2.755,-0.5727616162162913,-0.05650258942955642,0.7555793447282931,-0.0928758000002997,-0.462616,-19.274392
11.185,2.0,1.0,1.0,34.8,33.7,33.7,2.4,3.1,2.7575,-0.5874699983780223,-0.05587922823909788,0.7424226371118886,-0.0963925153527301,-0.475406,-19.060881
11.185,2.0,1.0,1.0,34.8,33.7,33.7,2.4,3.1,2.76,-0.6020244717286342,-0.055152316847820876,0.7287840643535388,-0.10002559124682023,-0.488764,-18.844928
11.185,2.0,1.0,1.0,34.8,33.7,33.7,2.4,3.1,2.7625,-0.616408138309055,-0.05431391835033554,0.7146553570881679,-0.10377876539262683,-0.502728,-18.626448
11.185,2.0,1.0,1.0,34.8,33.7,33.7,2.4,3.1,2.765,-0.6306031559333584,-0.053355461489747506,0.7000282883824248,-0.1076558742534724,-0.517338,-18.405353
11.185,2.0,1.0,1.0,34.8,33.7,33.7,2.4,3.1,2.7675,-0.6445906739063637,-0.05226767945943557,0.684894690317557,-0.11166084882943973,-0.532639,-18.181548
11.185,2.0,1.0,1.0,34.8,33.7,33.7,2.4,3.1,2.77,-0.6583507619521701,-0.051040541587126384,0.6692464729911833,-0.11579770833990875,-0.548681,-17.954935
11.185,2.0,1.0,1.0,34.8,33.7,33.7,2.4,3.1,2.7725,-0.6718623314252561,-0.04966317696407383,0.6530756464613955,-0.12007055126388544,-0.565516,-17.725409
11.185,2.0,1.0,1.0,34.8,33.7,33.7,2.4,3.1,2.775,-0.6851030477414706,-0.048123788951128836,0.6363743462836372,-0.12448354306820329,-0.583204,-17.492861
11.185,2.0,1.0,1.0,34.8,33.7,33.7,2.4,3.1,2.7775,-0.698049232812893,-0.04640955934437143,0.619134863448825,-0.12904089979431502,-0.60181,-17.257174
11.185,2.0,1.0,1.0,34.8,33.7,33.7,2.4,3.1,2.78,-0.710675756096521,-0.044506540813726965,0.6013496797277299,-0.1337468664768328,-0.621405,-17.018228
11.185,2.0,1.0,1.0,34.8,33.7,33.7,2.4,3.1,2.7825,-0.7229559126695367,-0.04239953603657372,0.5830115096714469,-0.13860568912172924,-0.642068,-16.775893
11.185,2.0,1.0,1.0,34.8,33.7,33.7,2.4,3.1,2.785,-0.7348612865217523,-0.04007196173287274,0.5641133508227398,-0.14362157866733627,-0.663887,-16.530035
11.185,2.0,1.0,1.0,34.8,33.7,33.7,2.4,3.1,2.7875,-0.7463615970071199,-0.03750569556737001,0.5446485440735908,-0.14879866497193447,-0.686959,-16.280511
11.185,2.0,1.0,1.0,34.8,33.7,33.7,2.4,3.1,2.79,-0.757424526119939,-0.03468090361717725,0.5246108465792889,-0.15414093839906293,-0.711391,-16.027172
11.185,2.0,1.0,1.0,34.8,33.7,33.7,2.4,3.1,2.7925,-0.7680155239583402,-0.031575845810166855,0.5039945202332027,-0.15965217598183976,-0.737305,-15.769861
11.185,2.0,1.0,1.0,34.8,33.7,33.7,2.4,3.1,2.795,-0.7780975894101683,-0.02816665642378829,0.4827944394492201,-0.16533584841070842,-0.764833,-15.50841
11.185,2.0,1.0,1.0,34.8,33.7,33.7,2.4,3.1,2.7975,-0.7876310227505448,-0.024427096401260742,0.4610062229293427,-0.17119500316723157,-0.794127,-15.242647
11.185,2.0,1.0,1.0,34.8,33.7,33.7,2.4,3.1,2.8,-0.7965731464875062,-0.02032827390373035,0.4386263952600352,-0.17723211797236096,-0.825355,-14.972389
11.185,2.0,1.0,1.0,34.8,33.7,33.7,2.4,3.1,2.8025,-0.8048779904508424,-0.015838329191908373,0.41565258564399216,-0.18344891727100596,-0.858708,-14.697445
11.185,2.0,1.0,1.0,34.8,33.7,33.7,2.4,3.1,2.805,-0.8124959368203629,-0.010922079649337276,0.3920837729100329,-0.18984614266056657,-0.8944,-14.417614
11.185,2.0,1.0,1.0,34.8,33.7,33.7,2.4,3.1,2.8075,-0.8193733205811399,-0.005540620569213596,0.3679205882486503,-0.19642326589530515,-0.932674,-14.132687
11.185,2.0,1.0,1.0,34.8,33.7,33.7,2.4,3.1,2.81,-0.8254519808475024,0.0003491226999549778,0.34316569001329383,-0.20317813024394735,-0.973806,-13.842448
11.185,2.0,1.0,1.0,34.8,33.7,33.7,2.4,3.1,2.8125,-0.830668758724682,0.00679489540900865,0.3178242285548,-0.210106502400211,-1.01811,-13.54667
11.185,2.0,1.0,1.0,34.8,33.7,33.7,2.4,3.1,2.815,-0.8349549380397246,0.013849670343213738,0.29190442359777785,-0.21720151266870144,-1.065945,-13.245121
11.185,2.0,1.0,1.0,34.8,33.7,33.7,2.4,3.1,2.8175,-0.8382356266114117,0.021572263168196312,0.26541828233924847,-0.22445295555980668,-1.117723,-12.937561
11.185,2.0,1.0,1.0,34.8,33.7,33.7,2.4,3.1,2.82,-0.8404290780922313,0.030028005951048316,0.2383824935044653,-0.2318464159784392,-1.173917,-12.623745
11.185,2.0,1.0,1.0,34.8,33.7,33.7,2.4,3.1,2.8225,-0.8414459583111318,0.039289474737330125,0.21081954131889968,-0.23936217760199982,-1.235072,-12.303427
11.185,2.0,1.0,1.0,34.8,33.7,33.7,2.4,3.1,2.825,-0.8411885662036325,0.049437260942810334,0.1827590940536365,-0.24697385951488374,-1.301823,-11.976359
11.185,2.0,1.0,1.0,34.8,33.7,33.7,2.4,3.1,2.8275,-0.8395500288789634,0.06056076692915999,0.15423973476159172,-0.25464671441953923,-1.374905,-11.642298
