1,w,sub_t,h,l1,l2,l3,g1,g2,Freq,S11_re,S21_re,S11_img,S21_img,S11_dB,S21_dB
11.185,2.0,1.0,1.0,34.0,33.8,33.8,3.5,3.6,2.5,0.784266418642099,-0.0076462752078091,0.609187315450158,0.00401815155061545,-0.060425,-41.271968
11.185,2.0,1.0,1.0,34.0,33.8,33.8,3.5,3.6,2.5025,0.7797755035743851,-0.007782601246283974,0.6148173947423302,0.0040082787385577225,-0.061009,-41.155718
11.185,2.0,1.0,1.0,34.0,33.8,33.8,3.5,3.6,2.505,0.7752224328676307,-0.007921040977044883,0.6204397505153706,0.003997070404876744,-0.061604,-41.039179
11.185,2.0,1.0,1.0,34.0,33.8,33.8,3.5,3.6,2.5075,0.7706065988443724,-0.00806162895477726,0.6260539444457934,0.00398448256834638,-0.062208,-40.922342
11.185,2.0,1.0,1.0,34.0,33.8,33.8,3.5,3.6,2.51,0.7659273859178586,-0.008204400369452731,0.631659525716834,0.003970469808886904,-0.062823,-40.805202
11.185,2.0,1.0,1.0,34.0,33.8,33.8,3.5,3.6,2.5125,0.7611841705353131,-0.008349391057617978,0.6372560306487824,0.003954985215447397,-0.063449,-40.687749
11.185,2.0,1.0,1.0,34.0,33.8,33.8,3.5,3.6,2.515,0.7563763211236744,-0.008496637513800708,0.6428429823184298,0.003937980331779719,-0.064085,-40.569977
11.185,2.0,1.0,1.0,34.0,33.8,33.8,3.5,3.6,2.5175,0.7515031980380176,-0.008646176902026067,0.6484198901672817,0.0039194051000073955,-0.064732,-40.451879
11.185,2.0,1.0,1.0,34.0,33.8,33.8,3.5,3.6,2.52,0.7465641535128673,-0.008798047067437972,0.653986249598225,0.003899207801888227,-0.065391,-40.333447
11.185,2.0,1.0,1.0,34.0,33.8,33.8,3.5,3.6,2.5225,0.7415585316166354,-0.008952286548017127,0.6595415415602701,0.003877334997663606,-0.066061,-40.214673
11.185,2.0,1.0,1.0,34.0,33.8,33.8,3.5,3.6,2.525,0.7364856682094126,-0.009108934586388768,0.6650852321210384,0.003853731462382546,-0.066742,-40.095549
11.185,2.0,1.0,1.0,34.0,33.8,33.8,3.5,3.6,2.5275,0.7313448909043612,-0.009268031141710348,0.6706167720266129,0.0038283401195814536,-0.067436,-39.976067
11.185,2.0,1.0,1.0,34.0,33.8,33.8,3.5,3.6,2.53,0.726135519032982,-0.009429616901629908,0.6761355962483708,0.003801101972195424,-0.068142,-39.856221
11.185,2.0,1.0,1.0,34.0,33.8,33.8,3.5,3.6,2.5325,0.7208568636145237,-0.009593733294303936,0.6816411235164103,0.0037719560305694904,-0.068861,-39.736001
11.185,2.0,1.0,1.0,34.0,33.8,33.8,3.5,3.6,2.535,0.715508227329823,-0.009760422500462891,0.6871327558391709,0.003740839237430704,-0.069592,-39.615399
11.185,2.0,1.0,1.0,34.0,33.8,33.8,3.5,3.6,2.5375,0.710088904499892,-0.00992972746551103,0.6926098780088189,0.0037076863896757027,-0.070337,-39.494407
11.185,2.0,1.0,1.0,34.0,33.8,33.8,3.5,3.6,2.54,0.7045981810695643,-0.010101691911646222,0.6980718570919808,0.0036724300568184744,-0.071096,-39.373018
11.185,2.0,1.0,1.0,34.0,33.8,33.8,3.5,3.6,2.5425,0.6990353345965415,-0.01027636034998369,0.7035180419053806,0.003635000495936134,-0.071868,-39.251221
11.185,2.0,1.0,1.0,34.0,33.8,33.8,3.5,3.6,2.545,0.693399634246195,-0.010453778092666479,0.7089477624759193,0.003595325562940198,-0.072654,-39.129009
11.185,2.0,1.0,1.0,34.0,33.8,33.8,3.5,3.6,2.5475,0.6876903407925025,-0.0106339912649431,0.7143603294847285,0.003553330619991694,-0.073455,-39.006373
11.185,2.0,1.0,1.0,34.0,33.8,33.8,3.5,3.6,2.55,0.6819067066254964,-0.010817046817192179,0.7197550336947209,0.003508938438867936,-0.07427,-38.883304
11.185,2.0,1.0,1.0,34.0,33.8,33.8,3.5,3.6,2.5525,0.6760479757656603,-0.011002992536870388,0.7251311453611211,0.0034620691000775234,-0.075101,-38.759794
11.185,2.0,1.0,1.0,34.0,33.8,33.8,3.5,3.6,2.555,0.6701133838856864,-0.011191877060359623,0.7304879136244746,0.0034126398875089165,-0.075947,-38.635832
11.185,2.0,1.0,1.0,34.0,33.8,33.8,3.5,3.6,2.5575,0.6641021583400544,-0.011383749884685658,0.7358245658856043,0.003360565178384423,-0.076809,-38.511409
11.185,2.0,1.0,1.0,34.0,33.8,33.8,3.5,3.6,2.56,0.6580135182029175,-0.011578661379078876,0.741140307161947,0.0033057563282789257,-0.077688,-38.386517
11.185,2.0,1.0,1.0,34.0,33.8,33.8,3.5,3.6,2.5625,0.6518466743147914,-0.011776662796344413,0.7464343194247239,0.003248121550947956,-0.078583,-38.261145
11.185,2.0,1.0,1.0,34.0,33.8,33.8,3.5,3.6,2.565,0.6456008293385678,-0.011977806284006982,0.751705760916349,0.003187565792694093,-0.079496,-38.135284
11.185,2.0,1.0,1.0,34.0,33.8,33.8,3.5,3.6,2.5675,0.6392751778254211,-0.012182144895191283,0.7569537654474661,0.0031239906009849594,-0.080426,-38.008924
11.185,2.0,1.0,1.0,34.0,33.8,33.8,3.5,3.6,2.57,0.6328689062911736,-0.012389732599196525,0.7621774416729981,0.0030572939870178893,-0.081373,-37.882055
11.185,2.0,1.0,1.0,34.0,33.8,33.8,3.5,3.6,2.5725,0.6263811933037347,-0.012600624291719612,0.7673758723465659,0.0029873702819081306,-0.08234,-37.754666
11.185,2.0,1.0,1.0,34.0,33.8,33.8,3.5,3.6,2.575,0.6198112095822528,-0.01281487580467672,0.7725481135525956,0.0029141099861568066,-0.083325,-37.626748
11.185,2.0,1.0,1.0,34.0,33.8,33.8,3.5,3.6,2.5775,0.6131581181086516,-0.01303254391556975,0.7776931939154378,0.002837399612033885,-0.08433,-37.498288
11.185,2.0,1.0,1.0,34.0,33.8,33.8,3.5,3.6,2.58,0.6064210742522547,-0.013253686356338333,0.782810113784773,0.0027571215184879045,-0.085355,-37.369278
11.185,2.0,1.0,1.0,34.0,33.8,33.8,3.5,3.6,2.5825,0.5995992259082298,-0.013478361821633289,0.7878978443965792,0.0026731537381694784,-0.0864,-37.239704
11.185,2.0,1.0,1.0,34.0,33.8,33.8,3.5,3.6,2.585,0.5926917136506396,-0.013706629976441778,0.7929553270088755,0.002585369796129379,-0.087466,-37.109557
11.185,2.0,1.0,1.0,34.0,33.8,33.8,3.5,3.6,2.5875,0.5856976709008913,-0.01393855146298766,0.797981472011476,0.0024936385197225205,-0.088554,-36.978825
11.185,2.0,1.0,1.0,34.0,33.8,33.8,3.5,3.6,2.59,0.5786162241124608,-0.014174187906824202,0.8029751580089014,0.002397823839219806,-0.089664,-36.847495
11.185,2.0,1.0,1.0,34.0,33.8,33.8,3.5,3.6,2.5925,0.5714464929727553,-0.014413601922028707,0.8079352308756282,0.0022977845785951945,-0.090796,-36.715557
11.185,2.0,1.0,1.0,34.0,33.8,33.8,3.5,3.6,2.595,0.5641875906230823,-0.014656857115399853,0.8128605027827523,0.0021933742359210007,-0.091952,-36.582997
11.185,2.0,1.0,1.0,34.0,33.8,33.8,3.5,3.6,2.5975,0.5568386238976764,-0.014904018089550908,0.8177497511951889,0.0020844407527654957,-0.093132,-36.449804
11.185,2.0,1.0,1.0,34.0,33.8,33.8,3.5,3.6,2.6,0.5493986935828254,-0.015155150444780732,0.8226017178384264,0.001970826271945557,-0.094336,-36.315964
11.185,2.0,1.0,1.0,34.0,33.8,33.8,3.5,3.6,2.6025,0.5418668946971849,-0.015410320779594259,0.82741510763384,0.0018523668829428703,-0.095566,-36.181465
11.185,2.0,1.0,1.0,34.0,33.8,33.8,3.5,3.6,2.605,0.5342423167943869,-0.015669596689733136,0.8321885876015495,0.0017288923542439017,-0.096822,-36.046293
11.185,2.0,1.0,1.0,34.0,33.8,33.8,3.5,3.6,2.6075,0.5265240442891512,-0.015933046765562835,0.8369207857297198,0.0016002258518116597,-0.098104,-35.910435
11.185,2.0,1.0,1.0,34.0,33.8,33.8,3.5,3.6,2.61,0.5187111568081312,-0.016200740587648893,0.8416102898091958,0.0014661836428417627,-0.099414,-35.773877
11.185,2.0,1.0,1.0,34.0,33.8,33.8,3.5,3.6,2.6125,0.5108027295668026,-0.01647274872033999,0.8462556462322759,0.0013265747838939236,-0.100752,-35.636604
11.185,2.0,1.0,1.0,34.0,33.8,33.8,3.5,3.6,2.615,0.5027978337737509,-0.016749142703156954,0.850855358754424,0.0011812007924244764,-0.102119,-35.498602
11.185,2.0,1.0,1.0,34.0,33.8,33.8,3.5,3.6,2.6175,0.4946955370638099,-0.017029995039768674,0.8554078872176012,0.0010298553006747881,-0.103516,-35.359856
11.185,2.0,1.0,1.0,34.0,33.8,33.8,3.5,3.6,2.62,0.4864949039615403,-0.017315379184314274,0.8599116462338886,0.0008723236907922266,-0.104944,-35.220351
11.185,2.0,1.0,1.0,34.0,33.8,33.8,3.5,3.6,2.6225,0.47819499637662444,-0.017605369524808526,0.8643650038279828,0.000708382709977881,-0.106404,-35.080072
11.185,2.0,1.0,1.0,34.0,33.8,33.8,3.5,3.6,2.625,0.469794874132856,-0.0179000413633404,0.868766280037056,0.00053780006436333,-0.107896,-34.939001
11.185,2.0,1.0,1.0,34.0,33.8,33.8,3.5,3.6,2.6275,0.4612935955324247,-0.018199470892747628,0.8731137454664505,0.00036033399022049957,-0.109422,-34.797123
11.185,2.0,1.0,1.0,34.0,33.8,33.8,3.5,3.6,2.63,0.4526902179573561,-0.01850373516941805,0.8774056197995167,0.00017573280100132463,-0.110983,-34.65442
11.185,2.0,1.0,1.0,34.0,33.8,33.8,3.5,3.6,2.6325,0.443983798509997,-0.01881291208183303,0.8816400702598786,-1.626559141337095e-05,-0.112579,-34.510876
11.185,2.0,1.0,1.0,34.0,33.8,33.8,3.5,3.6,2.635,0.4351733946945732,-0.0191270803144309,0.8858152100242677,-0.00021593418300244947,-0.114212,-34.366473
11.185,2.0,1.0,1.0,34.0,33.8,33.8,3.5,3.6,2.6375,0.4262580651419359,-0.01944631930632316,0.8899290965839731,-0.0004235574133169736,-0.115883,-34.221192
11.185,2.0,1.0,1.0,34.0,33.8,33.8,3.5,3.6,2.64,0.41723687037970547,-0.019770709204350763,0.8939797300528367,-0.0006394317326540703,-0.117594,-34.075015
11.185,2.0,1.0,1.0,34.0,33.8,33.8,3.5,3.6,2.6425,0.40810887365017173,-0.020100330809912196,0.897965051419591,-0.0008638662028933029,-0.119344,-33.927922
11.185,2.0,1.0,1.0,34.0,33.8,33.8,3.5,3.6,2.645,0.39887314177840216,-0.02043526551893662,0.9018829407421787,-0.0010971831343792155,-0.121137,-33.779893
11.185,2.0,1.0,1.0,34.0,33.8,33.8,3.5,3.6,2.6475,0.38952874609316124,-0.020775595254308703,0.9057312152815622,-0.0013397187614283112,-0.122972,-33.630908
11.185,2.0,1.0,1.0,34.0,33.8,33.8,3.5,3.6,2.65,0.3800747634033608,-0.021121402389978047,0.9095076275723314,-0.0015918239592568907,-0.124853,-33.480947
11.185,2.0,1.0,1.0,34.0,33.8,33.8,3.5,3.6,2.6525,0.37051027703295714,-0.021472769665901146,0.9132098634272444,-0.0018538650053596237,-0.126779,-33.329987
11.185,2.0,1.0,1.0,34.0,33.8,33.8,3.5,3.6,2.655,0.3608343779173048,-0.021829780092873757,0.9168355398726247,-0.00212622438863045,-0.128752,-33.178006
11.185,2.0,1.0,1.0,34.0,33.8,33.8,3.5,3.6,2.6575,0.35104616576422315,-0.022192516846204595,0.920382203011279,-0.002409301669799161,-0.130775,-33.024982
11.185,2.0,1.0,1.0,34.0,33.8,33.8,3.5,3.6,2.66,0.34114475028315405,-0.022561063147066067,0.9238473258094068,-0.002703514397070293,-0.132849,-32.87089
11.185,2.0,1.0,1.0,34.0,33.8,33.8,3.5,3.6,2.6625,0.3311292524860505,-0.02293550213022449,0.9272283058035949,-0.0030092990811924473,-0.134975,-32.715706
11.185,2.0,1.0,1.0,34.0,33.8,33.8,3.5,3.6,2.665,0.320998806063802,-0.023315916696706705,0.9305224627237665,-0.0033271122345651075,-0.137155,-32.559405
11.185,2.0,1.0,1.0,34.0,33.8,33.8,3.5,3.6,2.6675,0.31075255884228165,-0.023702389349790135,0.9337270360275559,-0.0036574314794025984,-0.139392,-32.401962
11.185,2.0,1.0,1.0,34.0,33.8,33.8,3.5,3.6,2.67,0.3003896743223503,-0.024095002012518515,0.9368391823411697,-0.0040007567304343175,-0.141688,-32.243348
11.185,2.0,1.0,1.0,34.0,33.8,33.8,3.5,3.6,2.6725,0.28990933330839863,-0.024493835824730883,0.939855972801457,-0.0043576114581244454,-0.144044,-32.083537
11.185,2.0,1.0,1.0,34.0,33.8,33.8,3.5,3.6,2.675,0.2793107356304058,-0.024898970917352763,0.9427743902932931,-0.004728544038950568,-0.146463,-31.9225
11.185,2.0,1.0,1.0,34.0,33.8,33.8,3.5,3.6,2.6775,0.2685931019647418,-0.025310486161425817,0.9455913265759749,-0.005114129199897411,-0.148947,-31.760207
11.185,2.0,1.0,1.0,34.0,33.8,33.8,3.5,3.6,2.68,0.25775567575938163,-0.025728458889045767,0.9483035792916517,-0.005514969565002583,-0.151498,-31.596627
11.185,2.0,1.0,1.0,34.0,33.8,33.8,3.5,3.6,2.6825,0.24679772526960328,-0.02615296458302669,0.9509078488481613,-0.005931697312545116,-0.15412,-31.431729
11.185,2.0,1.0,1.0,34.0,33.8,33.8,3.5,3.6,2.685,0.2357185457107025,-0.026584076531715416,0.9534007351679168,-0.006364975952303833,-0.156815,-31.26548
11.185,2.0,1.0,1.0,34.0,33.8,33.8,3.5,3.6,2.6875,0.224517461534766,-0.0270218654449256,0.95577873429364,-0.0068155022332402,-0.159585,-31.097846
11.185,2.0,1.0,1.0,34.0,33.8,33.8,3.5,3.6,2.69,0.21319382883917412,-0.027466399026447087,0.958038234840788,-0.0072840081929889215,-0.162435,-30.928791
11.185,2.0,1.0,1.0,34.0,33.8,33.8,3.5,3.6,2.6925,0.20174703791507587,-0.02791774149799954,0.9601755142855108,-0.007771263361687956,-0.165366,-30.758278
11.185,2.0,1.0,1.0,34.0,33.8,33.8,3.5,3.6,2.695,0.1901765159449043,-0.028375953068826135,0.962186735075768,-0.008278077133949256,-0.168383,-30.586271
11.185,2.0,1.0,1.0,34.0,33.8,33.8,3.5,3.6,2.6975,0.1784817298587343,-0.028841089344357702,0.9640679405519341,-0.008805301324196714,-0.171489,-30.412729
11.185,2.0,1.0,1.0,34.0,33.8,33.8,3.5,3.6,2.7,0.16666218936030636,-0.02931320066649545,0.9658150506617287,-0.00935383292217738,-0.174687,-30.237611
11.185,2.0,1.0,1.0,34.0,33.8,33.8,3.5,3.6,2.7025,0.15471745013451718,-0.029792331377052703,0.9674238574526727,-0.009924617067222119,-0.177983,-30.060874
11.185,2.0,1.0,1.0,34.0,33.8,33.8,3.5,3.6,2.705,0.14264711724948004,-0.03027851899473408,0.9688900203233343,-0.010518650261807502,-0.181379,-29.882475
11.185,2.0,1.0,1.0,34.0,33.8,33.8,3.5,3.6,2.7075,0.13045084876752683,-0.03077179329469629,0.9702090610126113,-0.011136983847182312,-0.184881,-29.702366
11.185,2.0,1.0,1.0,34.0,33.8,33.8,3.5,3.6,2.71,0.11812835958122272,-0.0312721752781942,0.9713763583038154,-0.011780727766297646,-0.188493,-29.520501
11.185,2.0,1.0,1.0,34.0,33.8,33.8,3.5,3.6,2.7125,0.10567942549215552,-0.031779676018039334,0.9723871424177318,-0.012451054642059829,-0.19222,-29.336828
11.185,2.0,1.0,1.0,34.0,33.8,33.8,3.5,3.6,2.715,0.09310388755244238,-0.03229429536354118,0.9732364890657266,-0.013149204202040786,-0.196068,-29.151296
11.185,2.0,1.0,1.0,34.0,33.8,33.8,3.5,3.6,2.7175,0.08040165669124291,-0.03281602048622167,0.9739193131305912,-0.013876488084287798,-0.200042,-28.96385
11.185,2.0,1.0,1.0,34.0,33.8,33.8,3.5,3.6,2.72,0.06757271865137944,-0.03334482424482816,0.9744303619389166,-0.014634295062816752,-0.204149,-28.774434
11.185,2.0,1.0,1.0,34.0,33.8,33.8,3.5,3.6,2.7225,0.05461713926433796,-0.03388066334496154,0.9747642080844275,-0.01542409673581769,-0.208395,-28.582988
11.185,2.0,1.0,1.0,34.0,33.8,33.8,3.5,3.6,2.725,0.04153507009576539,-0.03442347626489217,0.974915241756691,-0.016247453724609204,-0.212787,-28.38945
11.185,2.0,1.0,1.0,34.0,33.8,33.8,3.5,3.6,2.7275,0.02832675449780189,-0.03497318091477789,0.9748776625240407,-0.01710602243703929,-0.217332,-28.193755
11.185,2.0,1.0,1.0,34.0,33.8,33.8,3.5,3.6,2.73,0.014992534109821693,-0.035529671991395284,0.9746454705130956,-0.01800156245542074,-0.222039,-27.995835
11.185,2.0,1.0,1.0,34.0,33.8,33.8,3.5,3.6,2.7325,0.0015328558549996326,-0.036092817984527285,0.9742124569200367,-0.01893594461633055,-0.226916,-27.79562
11.185,2.0,1.0,1.0,34.0,33.8,33.8,3.5,3.6,2.735,-0.012051720512805243,-0.03666245778414268,0.9735721937805034,-0.019911159857796193,-0.231971,-27.593035
11.185,2.0,1.0,1.0,34.0,33.8,33.8,3.5,3.6,2.7375,-0.025760514249208315,-0.0372383968292684,0.9727180229156004,-0.020929328918693698,-0.237216,-27.388002
11.185,2.0,1.0,1.0,34.0,33.8,33.8,3.5,3.6,2.74,-0.039592714774094866,-0.037820402729750506,0.971643043960753,-0.021992712985735435,-0.24266,-27.180439
11.185,2.0,1.0,1.0,34.0,33.8,33.8,3.5,3.6,2.7425,-0.053547372057311644,-0.03840820028064653,0.9703401013720094,-0.023103725395424914,-0.248315,-26.970261
11.185,2.0,1.0,1.0,34.0,33.8,33.8,3.5,3.6,2.745,-0.06762338613785268,-0.03900146577543602,0.9688017702903826,-0.024264944512002423,-0.254193,-26.757377
11.185,2.0,1.0,1.0,34.0,33.8,33.8,3.5,3.6,2.7475,-0.08181949566316586,-0.03959982050816453,0.967020341129013,-0.025479127917946248,-0.260308,-26.541693
11.185,2.0,1.0,1.0,34.0,33.8,33.8,3.5,3.6,2.75,-0.0961342653160535,-0.0402028233355335,0.964987802729742,-0.0267492280713053,-0.266674,-26.323109
11.185,2.0,1.0,1.0,34.0,33.8,33.8,3.5,3.6,2.7525,-0.11056607197378657,-0.04080996214718762,0.9626958239149145,-0.028078409604336708,-0.273307,-26.10152
11.185,2.0,1.0,1.0,34.0,33.8,33.8,3.5,3.6,2.755,-0.12511308941691973,-0.041420644065270594,0.9601357332366025,-0.029470068460973213,-0.280223,-25.876815
11.185,2.0,1.0,1.0,34.0,33.8,33.8,3.5,3.6,2.7575,-0.13977327137253873,-0.04203418416177852,0.9572984966982033,-0.030927853096968813,-0.287441,-25.648878
11.185,2.0,1.0,1.0,34.0,33.8,33.8,3.5,3.6,2.76,-0.15454433263746087,-0.042649792443173164,0.9541746931924019,-0.03245568799662707,-0.294982,-25.417586
11.185,2.0,1.0,1.0,34.0,33.8,33.8,3.5,3.6,2.7625,-0.16942372797972283,-0.04326655880470658,0.950754487363981,-0.034057799794363734,-0.302867,-25.18281
11.185,2.0,1.0,1.0,34.0,33.8,33.8,3.5,3.6,2.765,-0.18440862845947475,-0.04388343560017038,0.9470275995653012,-0.03573874632857109,-0.31112,-24.944412
11.185,2.0,1.0,1.0,34.0,33.8,33.8,3.5,3.6,2.7675,-0.19949589474137555,-0.044499217404123416,0.9429832725259043,-0.037503449000022795,-0.319768,-24.702247
11.185,2.0,1.0,1.0,34.0,33.8,33.8,3.5,3.6,2.77,-0.21468204688659853,-0.0451125174603253,0.9386102343046788,-0.039357228858120485,-0.328839,-24.456162
11.185,2.0,1.0,1.0,34.0,33.8,33.8,3.5,3.6,2.7725,-0.22996323001020963,-0.04572174020867792,0.9338966570325353,-0.041305846896422076,-0.338366,-24.205994
11.185,2.0,1.0,1.0,34.0,33.8,33.8,3.5,3.6,2.775,-0.24533517506482946,-0.046325049159152865,0.9288301108848249,-0.04335554910496038,-0.348384,-23.951571
11.185,2.0,1.0,1.0,34.0,33.8,33.8,3.5,3.6,2.7775,-0.2607931538582916,-0.04692032922954606,0.923397512644656,-0.04551311690168984,-0.358932,-23.692711
11.185,2.0,1.0,1.0,34.0,33.8,33.8,3.5,3.6,2.78,-0.2763319272248486,-0.04750514247761782,0.917585068130148,-0.0477859236497969,-0.370052,-23.429219
11.185,2.0,1.0,1.0,34.0,33.8,33.8,3.5,3.6,2.7825,-0.2919456850373608,-0.04807667592859222,0.9113782076596564,-0.05018199806221192,-0.381792,-23.160889
11.185,2.0,1.0,1.0,34.0,33.8,33.8,3.5,3.6,2.785,-0.3076279764608737,-0.04863167991511432,0.9047615136186382,-0.05271009539986093,-0.394206,-22.887502
11.185,2.0,1.0,1.0,34.0,33.8,33.8,3.5,3.6,2.7875,-0.32337162849149625,-0.049166394994571955,0.8977186390702199,-0.05537977748578708,-0.407353,-22.608824
11.185,2.0,1.0,1.0,34.0,33.8,33.8,3.5,3.6,2.79,-0.339168650380827,-0.04967646507026963,0.8902322162194495,-0.05820150268227759,-0.4213,-22.324608
11.185,2.0,1.0,1.0,34.0,33.8,33.8,3.5,3.6,2.7925,-0.3550101209915177,-0.05015683379529542,0.8822837534011085,-0.061186727110039155,-0.436122,-22.034587
11.185,2.0,1.0,1.0,34.0,33.8,33.8,3.5,3.6,2.795,-0.3708860554341919,-0.050601620651478274,0.8738535191171297,-0.0643480185226556,-0.451902,-21.73848
11.185,2.0,1.0,1.0,34.0,33.8,33.8,3.5,3.6,2.7975,-0.3867852464609077,-0.0510039722324213,0.8649204115103224,-0.0676991843778044,-0.468735,-21.435983
11.185,2.0,1.0,1.0,34.0,33.8,33.8,3.5,3.6,2.8,-0.40269507498578155,-0.05135588316986777,0.8554618115392515,-0.07125541575562266,-0.486731,-21.126775
11.185,2.0,1.0,1.0,34.0,33.8,33.8,3.5,3.6,2.8025,-0.41860128270376473,-0.05164797976260467,0.8454534180363588,-0.07503344884250901,-0.50601,-20.810511
11.185,2.0,1.0,1.0,34.0,33.8,33.8,3.5,3.6,2.805,-0.43448769799995646,-0.051869257613652645,0.8348690628214035,-0.07905174569166479,-0.526712,-20.48682
11.185,2.0,1.0,1.0,34.0,33.8,33.8,3.5,3.6,2.8075,-0.4503359040739915,-0.052006762346607324,0.8236805041575285,-0.08333069583720432,-0.548999,-20.155308
11.185,2.0,1.0,1.0,34.0,33.8,33.8,3.5,3.6,2.81,-0.4661248353041522,-0.05204519961525082,0.8118571971586476,-0.08789283999586528,-0.573053,-19.815552
11.185,2.0,1.0,1.0,34.0,33.8,33.8,3.5,3.6,2.8125,-0.48183028415829,-0.0519664569595807,0.799366040408297,-0.0927631164156794,-0.599088,-19.467099
11.185,2.0,1.0,1.0,34.0,33.8,33.8,3.5,3.6,2.815,-0.4974242961827302,-0.05174901536006973,0.7861710992205062,-0.097969129236254,-0.62735,-19.109463
11.185,2.0,1.0,1.0,34.0,33.8,33.8,3.5,3.6,2.8175,-0.5128744244559121,-0.051367222296213814,0.7722333079506556,-0.10354143622433623,-0.658125,-18.742124
11.185,2.0,1.0,1.0,34.0,33.8,33.8,3.5,3.6,2.82,-0.5281428069846265,-0.05079039033733133,0.7575101569865251,-0.10951385000619943,-0.69175,-18.364526
11.185,2.0,1.0,1.0,34.0,33.8,33.8,3.5,3.6,2.8225,-0.5431850203490257,-0.04998167529577626,0.741955375183391,-0.11592374177402526,-0.728619,-17.976075
11.185,2.0,1.0,1.0,34.0,33.8,33.8,3.5,3.6,2.825,-0.5579486498557864,-0.04889667515791167,0.7255186265665626,-0.1228123283915525,-0.769198,-17.576138
11.185,2.0,1.0,1.0,34.0,33.8,33.8,3.5,3.6,2.8275,-0.5723714998163048,-0.0474816746746898,0.708145252655462,-0.13022491133507133,-0.814042,-17.16404
