1,w,sub_t,h,l1,l2,l3,g1,g2,Freq,S11_re,S21_re,S11_img,S21_img,S11_dB,S21_dB
11.185,2.0,1.0,1.0,33.8,33.6,33.6,2.4,2.2,2.5,0.809855454317415,-0.0127249522597762,0.573860248690316,0.010451815954668,-0.064838,-35.667666
11.185,2.0,1.0,1.0,33.8,33.6,33.6,2.4,2.2,2.5025,0.8056510469236771,-0.01298594686996876,0.5796114583290625,0.010497108405657544,-0.065536,-35.546697
11.185,2.0,1.0,1.0,33.8,33.6,33.6,2.4,2.2,2.505,0.8013845284072384,-0.013251936880154786,0.58535854184578,0.010541073127834932,-0.066247,-35.425298
11.185,2.0,1.0,1.0,33.8,33.6,33.6,2.4,2.2,2.5075,0.7970552298917077,-0.013523028703050562,0.5911011125631125,0.010583643001991787,-0.066971,-35.303461
11.185,2.0,1.0,1.0,33.8,33.6,33.6,2.4,2.2,2.51,0.7926624719068089,-0.013799331486693598,0.5968387716093064,0.010624748172685949,-0.067709,-35.181178
11.185,2.0,1.0,1.0,33.8,33.6,33.6,2.4,2.2,2.5125,0.7882055642251562,-0.01408095719596235,0.6025711075137252,0.01066431592827514,-0.068461,-35.05844
11.185,2.0,1.0,1.0,33.8,33.6,33.6,2.4,2.2,2.515,0.7836838056973187,-0.0143680206967757,0.6082976957882023,0.010702270575151607,-0.069226,-34.935239
11.185,2.0,1.0,1.0,33.8,33.6,33.6,2.4,2.2,2.5175,0.7790964840852298,-0.014660639843064942,0.6140180984936582,0.010738533305866998,-0.070007,-34.811566
11.185,2.0,1.0,1.0,33.8,33.6,33.6,2.4,2.2,2.52,0.7744428758939699,-0.01495893556661664,0.6197318637914216,0.010773022060818174,-0.070802,-34.687412
11.185,2.0,1.0,1.0,33.8,33.6,33.6,2.4,2.2,2.5225,0.7697222462019924,-0.01526303196988445,0.625438525478619,0.010805651383144594,-0.071613,-34.562767
11.185,2.0,1.0,1.0,33.8,33.6,33.6,2.4,2.2,2.525,0.764933848489831,-0.015573056421874737,0.6311376025070198,0.010836332266466709,-0.07244,-34.437624
11.185,2.0,1.0,1.0,33.8,33.6,33.6,2.4,2.2,2.5275,0.760076924467358,-0.01588913965721206,0.6368285984846638,0.010864971995072751,-0.073283,-34.311973
11.185,2.0,1.0,1.0,33.8,33.6,33.6,2.4,2.2,2.53,0.7551507038996635,-0.016211415878494853,0.6425110011595656,0.010891473976136774,-0.074142,-34.185804
11.185,2.0,1.0,1.0,33.8,33.6,33.6,2.4,2.2,2.5325,0.7501544044316284,-0.016540022862054953,0.6481842818847765,0.010915737563525141,-0.075019,-34.059107
11.185,2.0,1.0,1.0,33.8,33.6,33.6,2.4,2.2,2.535,0.7450872314112673,-0.01687510206723882,0.653847895064033,0.010937657872721634,-0.075914,-33.931873
11.185,2.0,1.0,1.0,33.8,33.6,33.6,2.4,2.2,2.5375,0.7399483777119475,-0.01721679874933073,0.659501277577187,0.010957125586371049,-0.076827,-33.804092
11.185,2.0,1.0,1.0,33.8,33.6,33.6,2.4,2.2,2.54,0.7347370235535645,-0.017565262076242417,0.6651438481845804,0.010974026749911232,-0.077758,-33.675754
11.185,2.0,1.0,1.0,33.8,33.6,33.6,2.4,2.2,2.5425,0.7294523363227915,-0.017920645249098924,0.6707750069094816,0.010988242556727793,-0.078709,-33.546848
11.185,2.0,1.0,1.0,33.8,33.6,33.6,2.4,2.2,2.545,0.7240934703925167,-0.018283105626849594,0.6763941343976493,0.01099964912223208,-0.07968,-33.417365
11.185,2.0,1.0,1.0,33.8,33.6,33.6,2.4,2.2,2.5475,0.718659566940602,-0.018652804855042858,0.6820005912530545,0.011008117246222478,-0.080671,-33.287292
11.185,2.0,1.0,1.0,33.8,33.6,33.6,2.4,2.2,2.55,0.7131497537680852,-0.019029908998901793,0.6875937173487433,0.011013512162849093,-0.081682,-33.15662
11.185,2.0,1.0,1.0,33.8,33.6,33.6,2.4,2.2,2.5525,0.7075631451169995,-0.019414588680843257,0.6931728311117452,0.011015693277456664,-0.082716,-33.025337
11.185,2.0,1.0,1.0,33.8,33.6,33.6,2.4,2.2,2.555,0.7018988414879519,-0.01980701922258686,0.6987372287809142,0.011014513889534214,-0.083772,-32.893433
11.185,2.0,1.0,1.0,33.8,33.6,33.6,2.4,2.2,2.5575,0.6961559294576456,-0.020207380792003207,0.7042861836365036,0.011009820900946963,-0.08485,-32.760894
11.185,2.0,1.0,1.0,33.8,33.6,33.6,2.4,2.2,2.56,0.69033348149654,-0.02061585855485217,0.709818945200216,0.011001454508574208,-0.085953,-32.627711
11.185,2.0,1.0,1.0,33.8,33.6,33.6,2.4,2.2,2.5625,0.684430555786852,-0.02103264283156786,0.7153347384044075,0.01098924788041513,-0.087079,-32.49387
11.185,2.0,1.0,1.0,33.8,33.6,33.6,2.4,2.2,2.565,0.6784461960411153,-0.021457929259246715,0.7208327627290573,0.010973026814162852,-0.088231,-32.35936
11.185,2.0,1.0,1.0,33.8,33.6,33.6,2.4,2.2,2.5675,0.6723794313215582,-0.02189191895899855,0.7263121913050221,0.010952609377179632,-0.089408,-32.224168
11.185,2.0,1.0,1.0,33.8,33.6,33.6,2.4,2.2,2.57,0.6662292758605403,-0.022334818708821827,0.7317721699820281,0.010927805526730595,-0.090612,-32.088281
11.185,2.0,1.0,1.0,33.8,33.6,33.6,2.4,2.2,2.5725,0.6599947288823442,-0.022786841122166595,0.7372118163597606,0.010898416709258231,-0.091843,-31.951687
11.185,2.0,1.0,1.0,33.8,33.6,33.6,2.4,2.2,2.575,0.653674774426621,-0.023248204832347366,0.7426302187803132,0.010864235437391139,-0.093103,-31.814372
11.185,2.0,1.0,1.0,33.8,33.6,33.6,2.4,2.2,2.5775,0.6472683811738246,-0.023719134682969534,0.7480264352801678,0.010825044843292437,-0.094392,-31.676323
11.185,2.0,1.0,1.0,33.8,33.6,33.6,2.4,2.2,2.58,0.6407745022729907,-0.02419986192453135,0.7533994924997511,0.010780618206852867,-0.095711,-31.537526
11.185,2.0,1.0,1.0,33.8,33.6,33.6,2.4,2.2,2.5825,0.6341920751722426,-0.02469062441736248,0.7587483845485355,0.010730718457127622,-0.097061,-31.397966
11.185,2.0,1.0,1.0,33.8,33.6,33.6,2.4,2.2,2.585,0.6275200214524481,-0.025191666841054876,0.7640720718234789,0.010675097645301477,-0.098444,-31.257631
11.185,2.0,1.0,1.0,33.8,33.6,33.6,2.4,2.2,2.5875,0.6207572466644676,-0.025703240910541263,0.7693694797785064,0.010613496387342772,-0.099859,-31.116504
11.185,2.0,1.0,1.0,33.8,33.6,33.6,2.4,2.2,2.59,0.6139026401704988,-0.0262256055989645,0.774639497642579,0.0105456432743724,-0.101309,-30.97457
11.185,2.0,1.0,1.0,33.8,33.6,33.6,2.4,2.2,2.5925,0.6069550749900258,-0.02675902736748094,0.7798809770837434,0.010471254248629228,-0.102794,-30.831815
11.185,2.0,1.0,1.0,33.8,33.6,33.6,2.4,2.2,2.595,0.5999134076509709,-0.027303780402123168,0.7850927308163783,0.010390031942757028,-0.104315,-30.688223
11.185,2.0,1.0,1.0,33.8,33.6,33.6,2.4,2.2,2.5975,0.5927764780466416,-0.0278601468578417,0.7902735311487115,0.010301664979967012,-0.105875,-30.543778
11.185,2.0,1.0,1.0,33.8,33.6,33.6,2.4,2.2,2.6,0.5855431092991676,-0.028428417109826173,0.7954221084674522,0.010205827232447045,-0.107473,-30.398462
11.185,2.0,1.0,1.0,33.8,33.6,33.6,2.4,2.2,2.6025,0.5782121076301494,-0.02900889001218944,0.8005371496561974,0.010102177035189265,-0.109112,-30.25226
11.185,2.0,1.0,1.0,33.8,33.6,33.6,2.4,2.2,2.605,0.5707822622393106,-0.02960187316407686,0.8056172964440445,0.009990356352189571,-0.110793,-30.105154
11.185,2.0,1.0,1.0,33.8,33.6,33.6,2.4,2.2,2.6075,0.563252345192019,-0.030207683183234604,0.8106611436806026,0.00986998989174032,-0.112517,-29.957127
11.185,2.0,1.0,1.0,33.8,33.6,33.6,2.4,2.2,2.61,0.5556211113166145,-0.030826645987042867,0.815667237533332,0.009740684167279485,-0.114286,-29.80816
11.185,2.0,1.0,1.0,33.8,33.6,33.6,2.4,2.2,2.6125,0.5478872981125673,-0.03145909708098028,0.8206340736028567,0.009602026499984007,-0.116102,-29.658234
11.185,2.0,1.0,1.0,33.8,33.6,33.6,2.4,2.2,2.615,0.5400496256705668,-0.032105381854443414,0.8255600949516018,0.00945358395899177,-0.117965,-29.507332
11.185,2.0,1.0,1.0,33.8,33.6,33.6,2.4,2.2,2.6175,0.5321067966057775,-0.03276585588379628,0.8304436900407527,0.009294902234809369,-0.119879,-29.355433
11.185,2.0,1.0,1.0,33.8,33.6,33.6,2.4,2.2,2.62,0.5240574960055745,-0.03344088524246328,0.835283190570203,0.009125504441103813,-0.121844,-29.202518
11.185,2.0,1.0,1.0,33.8,33.6,33.6,2.4,2.2,2.6225,0.5159003913932059,-0.034130846817811686,0.8400768692157404,0.00894488983968613,-0.123863,-29.048565
11.185,2.0,1.0,1.0,33.8,33.6,33.6,2.4,2.2,2.625,0.507634132708999,-0.0348361286344902,0.844822937257292,0.00875253248307032,-0.125938,-28.893555
11.185,2.0,1.0,1.0,33.8,33.6,33.6,2.4,2.2,2.6275,0.499257352310818,-0.03555713018379469,0.8495195420916248,0.008547879768525085,-0.12807,-28.737466
11.185,2.0,1.0,1.0,33.8,33.6,33.6,2.4,2.2,2.63,0.4907686649957174,-0.0362942627585291,0.8541647646223386,0.008330350897028277,-0.130262,-28.580274
11.185,2.0,1.0,1.0,33.8,33.6,33.6,2.4,2.2,2.6325,0.48216666804487934,-0.03704794979270036,0.8587566165194748,0.0080993352299806,-0.132517,-28.421959
11.185,2.0,1.0,1.0,33.8,33.6,33.6,2.4,2.2,2.635,0.4734499412941645,-0.03781862720524504,0.8632930373404432,0.007854190535925178,-0.134837,-28.262496
11.185,2.0,1.0,1.0,33.8,33.6,33.6,2.4,2.2,2.6375,0.46461704723283515,-0.0386067437468188,0.8677718915033107,0.007594241118858279,-0.137224,-28.101861
11.185,2.0,1.0,1.0,33.8,33.6,33.6,2.4,2.2,2.64,0.4556665311332591,-0.03941276134848704,0.8721909651027967,0.007318775818984652,-0.139681,-27.94003
11.185,2.0,1.0,1.0,33.8,33.6,33.6,2.4,2.2,2.6425,0.4465969212147443,-0.040237155470934996,0.8765479625584854,0.007027045875974361,-0.142211,-27.776977
11.185,2.0,1.0,1.0,33.8,33.6,33.6,2.4,2.2,2.645,0.4374067288449469,-0.041080415452558076,0.8808405030839611,0.006718262643901264,-0.144816,-27.612677
11.185,2.0,1.0,1.0,33.8,33.6,33.6,2.4,2.2,2.6475,0.4280944487827143,-0.04194304485450172,0.8850661169645478,0.006391595146080425,-0.147501,-27.447102
11.185,2.0,1.0,1.0,33.8,33.6,33.6,2.4,2.2,2.65,0.41865855946660846,-0.042825561800378255,0.8892222416303798,0.0060461674569626325,-0.150268,-27.280226
11.185,2.0,1.0,1.0,33.8,33.6,33.6,2.4,2.2,2.6525,0.4090975233539094,-0.04372849930799647,0.8933062175102915,0.005681055897083032,-0.153121,-27.112019
11.185,2.0,1.0,1.0,33.8,33.6,33.6,2.4,2.2,2.655,0.3994097873153635,-0.04465240560999242,0.8973152836508301,0.005295286025777358,-0.156064,-26.942452
11.185,2.0,1.0,1.0,33.8,33.6,33.6,2.4,2.2,2.6575,0.3895937830916253,-0.04559784445972432,0.9012465730832689,0.004887829414969066,-0.1591,-26.771495
11.185,2.0,1.0,1.0,33.8,33.6,33.6,2.4,2.2,2.66,0.3796479278180271,-0.046565395418198464,0.9050971079199644,0.004457600185773997,-0.162234,-26.599117
11.185,2.0,1.0,1.0,33.8,33.6,33.6,2.4,2.2,2.6625,0.36957062462512047,-0.04755565411709837,0.9088637941597233,0.004003451287953125,-0.16547,-26.425287
11.185,2.0,1.0,1.0,33.8,33.6,33.6,2.4,2.2,2.665,0.359360263323317,-0.04856923249219323,0.9125434161799995,0.0035241705003457606,-0.168812,-26.24997
11.185,2.0,1.0,1.0,33.8,33.6,33.6,2.4,2.2,2.6675,0.34901522118106104,-0.04960675898047401,0.9161326308916399,0.0030184761283222382,-0.172266,-26.073133
11.185,2.0,1.0,1.0,33.8,33.6,33.6,2.4,2.2,2.67,0.3385338638070967,-0.050668878673306675,0.91962796152965,0.002485012371974722,-0.175837,-25.89474
11.185,2.0,1.0,1.0,33.8,33.6,33.6,2.4,2.2,2.6725,0.32791454614878784,-0.05175625341665352,0.9230257910509256,0.001922344336200043,-0.17953,-25.714756
11.185,2.0,1.0,1.0,33.8,33.6,33.6,2.4,2.2,2.675,0.31715561362002237,-0.05286956184799259,0.926322355107075,0.0013289526509865787,-0.18335,-25.533143
11.185,2.0,1.0,1.0,33.8,33.6,33.6,2.4,2.2,2.6775,0.3062554033739854,-0.05400949935791224,0.9295137345574146,0.000703227667062915,-0.187305,-25.349861
11.185,2.0,1.0,1.0,33.8,33.6,33.6,2.4,2.2,2.68,0.29521224573819727,-0.0551767779624498,0.932595847483705,4.346318857335992e-05,-0.191401,-25.164871
11.185,2.0,1.0,1.0,33.8,33.6,33.6,2.4,2.2,2.6825,0.2840244658315557,-0.056372126070024224,0.9355644406644411,-0.000652150299440267,-0.195645,-24.978131
11.185,2.0,1.0,1.0,33.8,33.6,33.6,2.4,2.2,2.685,0.27269038538585905,-0.057596288124244964,0.9384150804622367,-0.0013855329552832762,-0.200044,-24.789598
11.185,2.0,1.0,1.0,33.8,33.6,33.6,2.4,2.2,2.6875,0.2612083247974562,-0.05885002410088849,0.9411431430731196,-0.0021587235079082155,-0.204606,-24.599227
11.185,2.0,1.0,1.0,33.8,33.6,33.6,2.4,2.2,2.69,0.24957660543834392,-0.06013410883386605,0.9437438040813014,-0.002973887843936342,-0.209341,-24.406974
11.185,2.0,1.0,1.0,33.8,33.6,33.6,2.4,2.2,2.6925,0.23779355226020005,-0.06144933114096287,0.9462120272571473,-0.0038333283170094187,-0.214256,-24.212789
11.185,2.0,1.0,1.0,33.8,33.6,33.6,2.4,2.2,2.695,0.22585749672984395,-0.0627964927154207,0.9485425525295225,-0.004739493848694971,-0.219361,-24.016624
11.185,2.0,1.0,1.0,33.8,33.6,33.6,2.4,2.2,2.6975,0.21376678014022654,-0.06417640674394934,0.9507298830564443,-0.005694990897554016,-0.224668,-23.818427
11.185,2.0,1.0,1.0,33.8,33.6,33.6,2.4,2.2,2.7,0.20151975734775843,-0.06558989620533395,0.9527682713098408,-0.0067025953811980475,-0.230187,-23.618144
11.185,2.0,1.0,1.0,33.8,33.6,33.6,2.4,2.2,2.7025,0.18911480099448888,-0.06703779179631701,0.9546517040811501,-0.007765265645349483,-0.23593,-23.415722
11.185,2.0,1.0,1.0,33.8,33.6,33.6,2.4,2.2,2.705,0.17655030628266702,-0.06852092942265228,0.9563738863044208,-0.008886156584157867,-0.24191,-23.211102
11.185,2.0,1.0,1.0,33.8,33.6,33.6,2.4,2.2,2.7075,0.16382469637979616,-0.07004014718295165,0.9579282235822487,-0.010068635027462627,-0.248141,-23.004224
11.185,2.0,1.0,1.0,33.8,33.6,33.6,2.4,2.2,2.71,0.15093642854463926,-0.07159628176086683,0.9593078032872776,-0.011316296523458707,-0.254638,-22.795028
11.185,2.0,1.0,1.0,33.8,33.6,33.6,2.4,2.2,2.7125,0.13788400107910537,-0.07319016412697311,0.960505374097948,-0.012632983659477662,-0.261416,-22.583448
11.185,2.0,1.0,1.0,33.8,33.6,33.6,2.4,2.2,2.715,0.12466596122800849,-0.07482261443501864,0.9615133238114026,-0.014022806079507214,-0.268493,-22.369419
11.185,2.0,1.0,1.0,33.8,33.6,33.6,2.4,2.2,2.7175,0.11128091416868406,-0.07649443597753218,0.9623236552589544,-0.015490162374829034,-0.275887,-22.152869
11.185,2.0,1.0,1.0,33.8,33.6,33.6,2.4,2.2,2.72,0.09772753325610414,-0.07820640804255356,0.9629279601299104,-0.01703976404395833,-0.28362,-21.933727
11.185,2.0,1.0,1.0,33.8,33.6,33.6,2.4,2.2,2.7225,0.08400457171693422,-0.0799592774857994,0.9633173904877618,-0.0186766617401386,-0.291711,-21.711917
11.185,2.0,1.0,1.0,33.8,33.6,33.6,2.4,2.2,2.725,0.07011087601904407,-0.081753748800058,0.9634826277384338,-0.020406274049200254,-0.300186,-21.487361
11.185,2.0,1.0,1.0,33.8,33.6,33.6,2.4,2.2,2.7275,0.05604540118188596,-0.08359047242507288,0.9634138487833589,-0.022234419067895996,-0.30907,-21.259976
11.185,2.0,1.0,1.0,33.8,33.6,33.6,2.4,2.2,2.73,0.04180722833965435,-0.08547003099536687,0.9631006890601452,-0.024167349083080922,-0.31839,-21.029678
11.185,2.0,1.0,1.0,33.8,33.6,33.6,2.4,2.2,2.7325,0.027395584924060242,-0.08739292316899726,0.9625322021406152,-0.02621178868558801,-0.328178,-20.796376
11.185,2.0,1.0,1.0,33.8,33.6,33.6,2.4,2.2,2.735,0.012809867899254297,-0.08935954461530048,0.9616968155195048,-0.028374976689524378,-0.338466,-20.559979
11.185,2.0,1.0,1.0,33.8,33.6,33.6,2.4,2.2,2.7375,-0.0019503294404024953,-0.09137016566220409,0.9605822821871616,-0.030664712268183077,-0.349291,-20.320389
11.185,2.0,1.0,1.0,33.8,33.6,33.6,2.4,2.2,2.74,-0.016885186505551007,-0.09342490501101916,0.9591756275361196,-0.033089405761879874,-0.360692,-20.077505
11.185,2.0,1.0,1.0,33.8,33.6,33.6,2.4,2.2,2.7425,-0.03199461956390579,-0.0955236988156664,0.9574630911042354,-0.03565813466077475,-0.372712,-19.83122
11.185,2.0,1.0,1.0,33.8,33.6,33.6,2.4,2.2,2.745,-0.04727824015903314,-0.09766626429015836,0.9554300626069269,-0.03838070531687191,-0.385401,-19.581426
11.185,2.0,1.0,1.0,33.8,33.6,33.6,2.4,2.2,2.7475,-0.06273530678442496,-0.0998520568481948,0.9530610116577777,-0.04126772099341993,-0.398809,-19.328005
11.185,2.0,1.0,1.0,33.8,33.6,33.6,2.4,2.2,2.75,-0.0783646686077442,-0.102080219586194,0.950339410522057,-0.044330656915938,-0.412995,-19.070837
11.185,2.0,1.0,1.0,33.8,33.6,33.6,2.4,2.2,2.7525,-0.09416469980647918,-0.10434952368898871,0.947247649192461,-0.04758194304557831,-0.428023,-18.809797
11.185,2.0,1.0,1.0,33.8,33.6,33.6,2.4,2.2,2.755,-0.11013322279443297,-0.1066582980572075,0.9437669420234248,-0.05103505535017909,-0.443962,-18.544751
11.185,2.0,1.0,1.0,33.8,33.6,33.6,2.4,2.2,2.7575,-0.12626741827784446,-0.1090043461166023,0.9398772251129262,-0.05470461639771165,-0.460893,-18.275564
11.185,2.0,1.0,1.0,33.8,33.6,33.6,2.4,2.2,2.76,-0.14256371966769177,-0.11138484735945631,0.935557043584254,-0.05860650613571264,-0.478901,-18.00209
11.185,2.0,1.0,1.0,33.8,33.6,33.6,2.4,2.2,2.7625,-0.1590176888754251,-0.11379624067118203,0.9307834279020043,-0.06275798374142548,-0.498083,-17.72418
11.185,2.0,1.0,1.0,33.8,33.6,33.6,2.4,2.2,2.765,-0.17562386991359744,-0.11623408589219898,0.9255317583673998,-0.06717782142013755,-0.518547,-17.441676
11.185,2.0,1.0,1.0,33.8,33.6,33.6,2.4,2.2,2.7675,-0.1923756159880279,-0.11869289933312555,0.9197756169930198,-0.07188645097875615,-0.540415,-17.154415
11.185,2.0,1.0,1.0,33.8,33.6,33.6,2.4,2.2,2.77,-0.20926488487568595,-0.12116595807218761,0.9134866260771617,-0.07690612388703438,-0.56382,-16.862226
11.185,2.0,1.0,1.0,33.8,33.6,33.6,2.4,2.2,2.7725,-0.22628199629911225,-0.12364506678382686,0.906634273013174,-0.08226108533073216,-0.588916,-16.564932
11.185,2.0,1.0,1.0,33.8,33.6,33.6,2.4,2.2,2.775,-0.24341534369339762,-0.12612027953648872,0.8991857212201371,-0.0879777624185745,-0.615874,-16.262348
11.185,2.0,1.0,1.0,33.8,33.6,33.6,2.4,2.2,2.7775,-0.26065105116831433,-0.1285795674078282,0.8911056076256767,-0.0940849661714383,-0.644886,-15.954282
11.185,2.0,1.0,1.0,33.8,33.6,33.6,2.4,2.2,2.78,-0.2779725645402018,-0.13100842084162553,0.8823558279481303,-0.1006141061192774,-0.676173,-15.640537
11.185,2.0,1.0,1.0,33.8,33.6,33.6,2.4,2.2,2.7825,-0.2953601629837481,-0.13338937334944584,0.8728953122234805,-0.10759941515039695,-0.709983,-15.320907
11.185,2.0,1.0,1.0,33.8,33.6,33.6,2.4,2.2,2.785,-0.3127903750630872,-0.13570143037218008,0.8626797947521487,-0.11507818054946688,-0.746599,-14.995184
11.185,2.0,1.0,1.0,33.8,33.6,33.6,2.4,2.2,2.7875,-0.33023527957406124,-0.13791938379004623,0.8516615851090287,-0.12309097471961207,-0.786347,-14.663151
11.185,2.0,1.0,1.0,33.8,33.6,33.6,2.4,2.2,2.79,-0.34766166769858264,-0.1400129886371842,0.8397893503492636,-0.1316818756288154,-0.829596,-14.32459
11.185,2.0,1.0,1.0,33.8,33.6,33.6,2.4,2.2,2.7925,-0.3650300383905667,-0.1419459739897651,0.8270079234383944,-0.14089866216753927,-0.876775,-13.979281
11.185,2.0,1.0,1.0,33.8,33.6,33.6,2.4,2.2,2.795,-0.38229339367702825,-0.14367485474808542,0.8132581597617486,-0.15079296283157007,-0.928375,-13.627006
11.185,2.0,1.0,1.0,33.8,33.6,33.6,2.4,2.2,2.7975,-0.39939579474731224,-0.14514750519982653,0.7984768730304264,-0.1614203267480322,-0.984968,-13.267549
11.185,2.0,1.0,1.0,33.8,33.6,33.6,2.4,2.2,2.8,-0.4162706335494937,-0.14630144905953968,0.7825968949421965,-0.17284017310335398,-1.047216,-12.900703
11.185,2.0,1.0,1.0,33.8,33.6,33.6,2.4,2.2,2.8025,-0.43283856860580694,-0.14706181461141965,0.7655473208186586,-0.18511555726881312,-1.115891,-12.526275
11.185,2.0,1.0,1.0,33.8,33.6,33.6,2.4,2.2,2.805,-0.44900506881896085,-0.14733889854837584,0.7472540277347652,-0.1983126677444617,-1.191898,-12.144092
11.185,2.0,1.0,1.0,33.8,33.6,33.6,2.4,2.2,2.8075,-0.4646575067830505,-0.14702527970014725,0.7276405844132269,-0.2124999354265649,-1.276296,-11.754014
11.185,2.0,1.0,1.0,33.8,33.6,33.6,2.4,2.2,2.81,-0.4796617462466235,-0.14599242676652657,0.7066297158307984,-0.2277465931886912,-1.370337,-11.355939
11.185,2.0,1.0,1.0,33.8,33.6,33.6,2.4,2.2,2.8125,-0.49385818130004416,-0.1440867567896888,0.6841455428525569,-0.24412046656840564,-1.475499,-10.949828
11.185,2.0,1.0,1.0,33.8,33.6,33.6,2.4,2.2,2.815,-0.5070572145102936,-0.14112513031015816,0.6601168910268044,-0.26168470270011757,-1.593537,-10.535714
11.185,2.0,1.0,1.0,33.8,33.6,33.6,2.4,2.2,2.8175,-0.519034218224865,-0.13688982552843248,0.6344820548691495,-0.28049305256474505,-1.72654,-10.113734
11.185,2.0,1.0,1.0,33.8,33.6,33.6,2.4,2.2,2.82,-0.5295241233643221,-0.1311231330316655,0.6071955140305332,-0.30058321158709994,-1.877003,-9.684157
11.185,2.0,1.0,1.0,33.8,33.6,33.6,2.4,2.2,2.8225,-0.5382159456455395,-0.12352187710344639,0.5782372197142963,-0.3219676014654607,-2.047913,-9.247422
11.185,2.0,1.0,1.0,33.8,33.6,33.6,2.4,2.2,2.825,-0.5447478204945183,-0.11373242942484069,0.5476251869106791,-0.3446208583678885,-2.242851,-8.804188
11.185,2.0,1.0,1.0,33.8,33.6,33.6,2.4,2.2,2.8275,-0.5487035120434375,-0.10134717319399837,0.5154322045705573,-0.3684632148978351,-2.466116,-8.355389
11.185,2.0,1.0,1.0,33.8,33.6,33.6,2.4,2.2,2.83,-0.5496119271781722,-0.08590393901520141,0.4818074440181659,-0.39333899285506,-2.722866,-7.902302
