1,w,sub_t,h,l1,l2,l3,g1,g2,Freq,S11_re,S21_re,S11_img,S21_img,S11_dB,S21_dB
11.185,2.0,1.0,1.0,34.8,34.1,34.1,3.1,1.8,2.5,0.641834444064991,-0.0195008021643759,0.754843862894469,0.00844017941406573,-0.080032,-33.45325
11.185,2.0,1.0,1.0,34.8,34.1,34.1,3.1,1.8,2.5025,0.6352647331249185,-0.019858183192515973,0.7602382562939116,0.008381475998017583,-0.080993,-33.32924
11.185,2.0,1.0,1.0,34.8,34.1,34.1,3.1,1.8,2.505,0.6286105711771712,-0.020221821769358828,0.7656046221524679,0.00831819008675673,-0.081975,-33.204682
11.185,2.0,1.0,1.0,34.8,34.1,34.1,3.1,1.8,2.5075,0.6218711462673076,-0.020591832729565624,0.7709419373954693,0.008250150247638645,-0.082977,-33.079567
11.185,2.0,1.0,1.0,34.8,34.1,34.1,3.1,1.8,2.51,0.6150456399519648,-0.020968333178085656,0.7762491502988489,0.008177178639579974,-0.084001,-32.953886
11.185,2.0,1.0,1.0,34.8,34.1,34.1,3.1,1.8,2.5125,0.6081332274551107,-0.021351442533282625,0.7815251796583998,0.008099090742993332,-0.085047,-32.827629
11.185,2.0,1.0,1.0,34.8,34.1,34.1,3.1,1.8,2.515,0.6011330778381445,-0.021741282570371872,0.786768913933986,0.00801569507657342,-0.086116,-32.700785
11.185,2.0,1.0,1.0,34.8,34.1,34.1,3.1,1.8,2.5175,0.5940443541845797,-0.022137977465112015,0.7919792103678351,0.007926792900191555,-0.087209,-32.573345
11.185,2.0,1.0,1.0,34.8,34.1,34.1,3.1,1.8,2.52,0.5868662138000321,-0.02254165383768873,0.7971548940760433,0.007832177903106847,-0.088325,-32.445298
11.185,2.0,1.0,1.0,34.8,34.1,34.1,3.1,1.8,2.5225,0.5795978084283201,-0.02295244079671778,0.8022947571123273,0.007731635876650247,-0.089466,-32.316633
11.185,2.0,1.0,1.0,34.8,34.1,34.1,3.1,1.8,2.525,0.572238284484467,-0.02337046998328834,0.8073975575030649,0.00762494437048079,-0.090632,-32.18734
11.185,2.0,1.0,1.0,34.8,34.1,34.1,3.1,1.8,2.5275,0.5647867833054682,-0.02379587561495504,0.8124620182525975,0.007511872331453522,-0.091824,-32.057407
11.185,2.0,1.0,1.0,34.8,34.1,34.1,3.1,1.8,2.53,0.5572424414197216,-0.024228794529577408,0.8174868263177009,0.007392179724072571,-0.093043,-31.926823
11.185,2.0,1.0,1.0,34.8,34.1,34.1,3.1,1.8,2.5325,0.5496043908360475,-0.024669366228892098,0.8224706315501028,0.0072656171314329,-0.09429,-31.795576
11.185,2.0,1.0,1.0,34.8,34.1,34.1,3.1,1.8,2.535,0.5418717593532721,-0.02511773292169092,0.8274120456058554,0.0071319253354777965,-0.095565,-31.663654
11.185,2.0,1.0,1.0,34.8,34.1,34.1,3.1,1.8,2.5375,0.5340436708914141,-0.0255740395664602,0.8323096408202952,0.006990834875318241,-0.096869,-31.531044
11.185,2.0,1.0,1.0,34.8,34.1,34.1,3.1,1.8,2.54,0.5261192458455278,-0.02603843391332216,0.837161949047281,0.006842065582270197,-0.098203,-31.397735
11.185,2.0,1.0,1.0,34.8,34.1,34.1,3.1,1.8,2.5425,0.5180976014633351,-0.026511066545098914,0.8419674604612973,0.006685326090171498,-0.099568,-31.263712
11.185,2.0,1.0,1.0,34.8,34.1,34.1,3.1,1.8,2.545,0.5099778522478173,-0.026992090917298792,0.8467246223209521,0.006520313319435798,-0.100965,-31.128964
11.185,2.0,1.0,1.0,34.8,34.1,34.1,3.1,1.8,2.5475,0.5017591103860144,-0.027481663396800273,0.8514318376922911,0.006346711933189363,-0.102395,-30.993475
11.185,2.0,1.0,1.0,34.8,34.1,34.1,3.1,1.8,2.55,0.4934404862052939,-0.027979943298985746,0.8560874641302848,0.006164193763714114,-0.103859,-30.857232
11.185,2.0,1.0,1.0,34.8,34.1,34.1,3.1,1.8,2.5525,0.4850210886584906,-0.02848709292304345,0.8606898123166978,0.005972417207290799,-0.105358,-30.720221
11.185,2.0,1.0,1.0,34.8,34.1,34.1,3.1,1.8,2.555,0.47650002583930157,-0.02900327758512728,0.865237144652485,0.0057710265853907795,-0.106892,-30.582427
11.185,2.0,1.0,1.0,34.8,34.1,34.1,3.1,1.8,2.5575,0.46787640552945114,-0.029528665649026696,0.8697276738027072,0.005559651470011979,-0.108464,-30.443835
11.185,2.0,1.0,1.0,34.8,34.1,34.1,3.1,1.8,2.56,0.45914933577920547,-0.030063428553956054,0.8741595611918288,0.005337905970785516,-0.110074,-30.304429
11.185,2.0,1.0,1.0,34.8,34.1,34.1,3.1,1.8,2.5625,0.45031792552287864,-0.030607740839031464,0.8785309154471288,0.005105387981296118,-0.111723,-30.164194
11.185,2.0,1.0,1.0,34.8,34.1,34.1,3.1,1.8,2.565,0.4413812852310794,-0.031161780163948258,0.8828397907877805,0.004861678381860712,-0.113414,-30.023112
11.185,2.0,1.0,1.0,34.8,34.1,34.1,3.1,1.8,2.5675,0.43233852760154284,-0.031725727325317185,0.8870841853569923,0.0046063401957927965,-0.115146,-29.881167
11.185,2.0,1.0,1.0,34.8,34.1,34.1,3.1,1.8,2.57,0.4231887682904772,-0.032299766268053955,0.8912620394944026,0.004338917695943302,-0.116923,-29.738341
11.185,2.0,1.0,1.0,34.8,34.1,34.1,3.1,1.8,2.5725,0.4139311266864734,-0.03288408409114322,0.8953712339457259,0.004058935458051307,-0.118744,-29.594618
11.185,2.0,1.0,1.0,34.8,34.1,34.1,3.1,1.8,2.575,0.40456472672914956,-0.03347887104702005,0.8994095880064,0.003765897357156287,-0.120612,-29.449977
11.185,2.0,1.0,1.0,34.8,34.1,34.1,3.1,1.8,2.5775,0.39508869777481875,-0.03408432053371846,0.9033748575957451,0.003459285503016759,-0.122528,-29.304401
11.185,2.0,1.0,1.0,34.8,34.1,34.1,3.1,1.8,2.58,0.3855021755116218,-0.034700629078837614,0.9072647332578534,0.003138559110143329,-0.124494,-29.15787
11.185,2.0,1.0,1.0,34.8,34.1,34.1,3.1,1.8,2.5825,0.3758043029266935,-0.03532799631426015,0.9110768380851431,0.002803153297686765,-0.126511,-29.010363
11.185,2.0,1.0,1.0,34.8,34.1,34.1,3.1,1.8,2.585,0.36599423132812775,-0.03596662494042839,0.9148087255601453,0.0024524778140193174,-0.128583,-28.86186
11.185,2.0,1.0,1.0,34.8,34.1,34.1,3.1,1.8,2.5875,0.35607112142465674,-0.036616720678838914,0.9184578773107492,0.0020859156804051396,-0.130709,-28.71234
11.185,2.0,1.0,1.0,34.8,34.1,34.1,3.1,1.8,2.59,0.34603414446618885,-0.0372784922112506,0.9220217007736836,0.0017028217476724873,-0.132893,-28.561781
11.185,2.0,1.0,1.0,34.8,34.1,34.1,3.1,1.8,2.5925,0.3358824834485333,-0.037952151103917586,0.9254975267605943,0.0013025211592673132,-0.135137,-28.41016
11.185,2.0,1.0,1.0,34.8,34.1,34.1,3.1,1.8,2.595,0.3256153343859334,-0.03863791171494489,0.9288826069205438,0.0008843077134851458,-0.137442,-28.257453
11.185,2.0,1.0,1.0,34.8,34.1,34.1,3.1,1.8,2.5975,0.3152319076552272,-0.03933599108263184,0.9321741110922186,0.0004474421170330362,-0.139812,-28.103636
11.185,2.0,1.0,1.0,34.8,34.1,34.1,3.1,1.8,2.6,0.30473142941582426,-0.040046608792392684,0.9353691245385031,-8.8498786323461e-06,-0.142249,-27.948685
11.185,2.0,1.0,1.0,34.8,34.1,34.1,3.1,1.8,2.6025,0.29411314310998343,-0.04076998681954369,0.9384646450553825,-0.0004853794675252179,-0.144754,-27.792573
11.185,2.0,1.0,1.0,34.8,34.1,34.1,3.1,1.8,2.605,0.2833763110482319,-0.041506349344893265,0.9414575799464129,-0.00098299691610539,-0.147332,-27.635274
11.185,2.0,1.0,1.0,34.8,34.1,34.1,3.1,1.8,2.6075,0.272520216085235,-0.042255922539680996,0.9443447428530846,-0.0015025938381513536,-0.149985,-27.47676
11.185,2.0,1.0,1.0,34.8,34.1,34.1,3.1,1.8,2.61,0.2615441633918438,-0.0430189343159583,0.9471228504305302,-0.002045105629726345,-0.152715,-27.317003
11.185,2.0,1.0,1.0,34.8,34.1,34.1,3.1,1.8,2.6125,0.25044748232960545,-0.043795614037991884,0.9497885188569262,-0.002611514077592761,-0.155527,-27.155973
11.185,2.0,1.0,1.0,34.8,34.1,34.1,3.1,1.8,2.615,0.23922952843459058,-0.04458619218968735,0.9523382601638067,-0.003202850155716436,-0.158424,-26.993639
11.185,2.0,1.0,1.0,34.8,34.1,34.1,3.1,1.8,2.6175,0.2278896855181131,-0.04539089999235913,0.9547684783731668,-0.003820197025925092,-0.161408,-26.82997
11.185,2.0,1.0,1.0,34.8,34.1,34.1,3.1,1.8,2.62,0.21642736789262915,-0.04620996896641044,0.9570754654258181,-0.004464693260368147,-0.164485,-26.664933
11.185,2.0,1.0,1.0,34.8,34.1,34.1,3.1,1.8,2.6225,0.20484202273200705,-0.04704363042961199,0.9592553968838013,-0.005137536305178717,-0.167657,-26.498494
11.185,2.0,1.0,1.0,34.8,34.1,34.1,3.1,1.8,2.625,0.19313313257637,-0.04789211492366,0.961304327387855,-0.00583998620668906,-0.17093,-26.330618
11.185,2.0,1.0,1.0,34.8,34.1,34.1,3.1,1.8,2.6275,0.18130021799279275,-0.048755651559547086,0.9632181858489237,-0.0065733696237237575,-0.174307,-26.161267
11.185,2.0,1.0,1.0,34.8,34.1,34.1,3.1,1.8,2.63,0.1693428404045036,-0.04963446727094951,0.9649927703503863,-0.007339084151910127,-0.177794,-25.990404
11.185,2.0,1.0,1.0,34.8,34.1,34.1,3.1,1.8,2.6325,0.15726060510269682,-0.05052878596330884,0.9666237427351553,-0.008138602988643313,-0.181396,-25.81799
11.185,2.0,1.0,1.0,34.8,34.1,34.1,3.1,1.8,2.635,0.14505316445678557,-0.05143882754452859,0.9681066228489432,-0.008973479970350877,-0.185117,-25.643983
11.185,2.0,1.0,1.0,34.8,34.1,34.1,3.1,1.8,2.6375,0.13272022134094552,-0.05236480682117131,0.9694367824077635,-0.009845355017063647,-0.188964,-25.46834
11.185,2.0,1.0,1.0,34.8,34.1,34.1,3.1,1.8,2.64,0.12026153279701733,-0.0533069322416961,0.9706094384541569,-0.010755960023060685,-0.192944,-25.291017
11.185,2.0,1.0,1.0,34.8,34.1,34.1,3.1,1.8,2.6425,0.10767691395657378,-0.054265404465552815,0.9716196463625624,-0.011707125236562333,-0.197061,-25.111968
11.185,2.0,1.0,1.0,34.8,34.1,34.1,3.1,1.8,2.645,0.09496624224795763,-0.05524041473379627,0.9724622923497159,-0.012700786176164377,-0.201324,-24.931145
11.185,2.0,1.0,1.0,34.8,34.1,34.1,3.1,1.8,2.6475,0.08212946191772907,-0.056232143013215496,0.9731320854408061,-0.01373899113699651,-0.20574,-24.748497
11.185,2.0,1.0,1.0,34.8,34.1,34.1,3.1,1.8,2.65,0.06916658890004614,-0.05724075588171534,0.9736235488363572,-0.01482390934553252,-0.210316,-24.563972
11.185,2.0,1.0,1.0,34.8,34.1,34.1,3.1,1.8,2.6525,0.05607771607243966,-0.05826640411770613,0.9739310106182796,-0.01595783982865308,-0.215062,-24.377516
11.185,2.0,1.0,1.0,34.8,34.1,34.1,3.1,1.8,2.655,0.04286301894201885,-0.05930921995046746,0.9740485937261636,-0.017143221070085184,-0.219986,-24.189071
11.185,2.0,1.0,1.0,34.8,34.1,34.1,3.1,1.8,2.6575,0.029522761812819362,-0.06036931392165875,0.9739702051265924,-0.018382641535797686,-0.225098,-23.998578
11.185,2.0,1.0,1.0,34.8,34.1,34.1,3.1,1.8,2.66,0.0160573044927696,-0.061446771300201326,0.9736895240888409,-0.019678851159478986,-0.230409,-23.805975
11.185,2.0,1.0,1.0,34.8,34.1,34.1,3.1,1.8,2.6625,0.0024671096078887236,-0.06254164798342969,0.9731999894697138,-0.021034773889981467,-0.23593,-23.611196
11.185,2.0,1.0,1.0,34.8,34.1,34.1,3.1,1.8,2.665,-0.011247249397959925,-0.06365396580643634,0.9724947858982217,-0.0224535214147788,-0.241674,-23.414174
11.185,2.0,1.0,1.0,34.8,34.1,34.1,3.1,1.8,2.6675,-0.025085079486689935,-0.06478370716860922,0.9715668287371958,-0.023938408187210224,-0.247652,-23.214838
11.185,2.0,1.0,1.0,34.8,34.1,34.1,3.1,1.8,2.67,-0.03904555836698252,-0.0659308088711059,0.9704087476834584,-0.025492967900826564,-0.253881,-23.013113
11.185,2.0,1.0,1.0,34.8,34.1,34.1,3.1,1.8,2.6725,-0.05312772382889729,-0.06709515504095707,0.9690128688506875,-0.02712097157172697,-0.260374,-22.80892
11.185,2.0,1.0,1.0,34.8,34.1,34.1,3.1,1.8,2.675,-0.06733046192725038,-0.06827656899610536,0.9673711951592318,-0.02882644740967639,-0.267149,-22.602178
11.185,2.0,1.0,1.0,34.8,34.1,34.1,3.1,1.8,2.6775,-0.08165249384390118,-0.06947480388026823,0.9654753848345741,-0.030613702681336508,-0.274224,-22.3928
11.185,2.0,1.0,1.0,34.8,34.1,34.1,3.1,1.8,2.68,-0.0960923612292372,-0.07068953186627416,0.963316727790588,-0.0324873477944771,-0.281618,-22.180697
11.185,2.0,1.0,1.0,34.8,34.1,34.1,3.1,1.8,2.6825,-0.11064840978747581,-0.07192033169042274,0.960886119644677,-0.03445232286096507,-0.289352,-21.965773
11.185,2.0,1.0,1.0,34.8,34.1,34.1,3.1,1.8,2.685,-0.12531877082775886,-0.07316667423727234,0.958174033078943,-0.036513927029101126,-0.297451,-21.747928
11.185,2.0,1.0,1.0,34.8,34.1,34.1,3.1,1.8,2.6875,-0.1401013404518277,-0.0744279058425257,0.955170486224216,-0.03867785091297341,-0.305939,-21.527057
11.185,2.0,1.0,1.0,34.8,34.1,34.1,3.1,1.8,2.69,-0.1549937559874298,-0.07570322891953557,0.9518650077013983,-0.040950212488465226,-0.314843,-21.30305
11.185,2.0,1.0,1.0,34.8,34.1,34.1,3.1,1.8,2.6925,-0.1699933692024979,-0.0769916794400997,0.9482465979067473,-0.043337596872977606,-0.324196,-21.075789
11.185,2.0,1.0,1.0,34.8,34.1,34.1,3.1,1.8,2.695,-0.18509721574533916,-0.07829210070982007,0.9443036860736128,-0.04584710045937945,-0.334029,-20.845152
11.185,2.0,1.0,1.0,34.8,34.1,34.1,3.1,1.8,2.6975,-0.20030198014752268,-0.0796031127688979,0.9400240825822049,-0.04848637993485322,-0.34438,-20.61101
11.185,2.0,1.0,1.0,34.8,34.1,34.1,3.1,1.8,2.7,-0.21560395559409173,-0.08092307661642066,0.9353949259205793,-0.051263706782681724,-0.355288,-20.373224
11.185,2.0,1.0,1.0,34.8,34.1,34.1,3.1,1.8,2.7025,-0.23099899750507716,-0.08225005229460355,0.9304026236235244,-0.05418802794021149,-0.3668,-20.13165
11.185,2.0,1.0,1.0,34.8,34.1,34.1,3.1,1.8,2.705,-0.2464824697760328,-0.08358174967223939,0.9250327864311221,-0.05726903336952902,-0.378963,-19.886135
11.185,2.0,1.0,1.0,34.8,34.1,34.1,3.1,1.8,2.7075,-0.2620491822851467,-0.0849154705253456,0.919270154815153,-0.06051723138892297,-0.391834,-19.636517
11.185,2.0,1.0,1.0,34.8,34.1,34.1,3.1,1.8,2.71,-0.27769331797947433,-0.08624804021695663,0.9130985169195874,-0.06394403271254955,-0.405472,-19.382625
11.185,2.0,1.0,1.0,34.8,34.1,34.1,3.1,1.8,2.7125,-0.2934083474899529,-0.08757572691381044,0.9065006168521016,-0.06756184425177468,-0.419946,-19.124276
11.185,2.0,1.0,1.0,34.8,34.1,34.1,3.1,1.8,2.715,-0.30918692877663745,-0.08889414582832485,0.8994580521490286,-0.07138417384212074,-0.435332,-18.861278
11.185,2.0,1.0,1.0,34.8,34.1,34.1,3.1,1.8,2.7175,-0.32502078875101686,-0.09019814541834664,0.8919511591201464,-0.07542574717059382,-0.451714,-18.593428
11.185,2.0,1.0,1.0,34.8,34.1,34.1,3.1,1.8,2.72,-0.34090058313379995,-0.0914816717875049,0.8839588846686535,-0.07970263828274579,-0.469188,-18.320507
11.185,2.0,1.0,1.0,34.8,34.1,34.1,3.1,1.8,2.7225,-0.35681572994983735,-0.09273760667115608,0.8754586430856224,-0.08423241513660523,-0.487862,-18.042286
11.185,2.0,1.0,1.0,34.8,34.1,34.1,3.1,1.8,2.725,-0.37275421099278905,-0.09395757332307801,0.8664261562532191,-0.08903430172523896,-0.507857,-17.758521
11.185,2.0,1.0,1.0,34.8,34.1,34.1,3.1,1.8,2.7275,-0.388702334255163,-0.0951317032805994,0.8568352756808028,-0.09412935828645039,-0.52931,-17.468953
11.185,2.0,1.0,1.0,34.8,34.1,34.1,3.1,1.8,2.73,-0.4046444486427582,-0.09624835530999924,0.8466577848795518,-0.09954068101959336,-0.552378,-17.173305
11.185,2.0,1.0,1.0,34.8,34.1,34.1,3.1,1.8,2.7325,-0.42056260018686753,-0.09729377572997867,0.8358631808085256,-0.10529362248023193,-0.577239,-16.871285
11.185,2.0,1.0,1.0,34.8,34.1,34.1,3.1,1.8,2.735,-0.4364361163173747,-0.09825168666507297,0.8244184335793219,-0.11141603334086973,-0.604097,-16.562582
11.185,2.0,1.0,1.0,34.8,34.1,34.1,3.1,1.8,2.7375,-0.4522411014211595,-0.0991027854496663,0.8122877244072395,-0.11793852536859627,-0.633187,-16.246866
11.185,2.0,1.0,1.0,34.8,34.1,34.1,3.1,1.8,2.74,-0.46794982270099517,-0.09982413420731318,0.7994321631210337,-0.1248947540987948,-0.664779,-15.923787
11.185,2.0,1.0,1.0,34.8,34.1,34.1,3.1,1.8,2.7425,-0.4835299600456189,-0.10038841334711743,0.7858094886514168,-0.13232171751419244,-0.699185,-15.592976
11.185,2.0,1.0,1.0,34.8,34.1,34.1,3.1,1.8,2.745,-0.4989436869459273,-0.10076300607839851,0.7713737591938964,-0.1402600636825047,-0.73677,-15.25404
11.185,2.0,1.0,1.0,34.8,34.1,34.1,3.1,1.8,2.7475,-0.5141465411180385,-0.10090887272611129,0.7560750437486329,-0.14875439519393316,-0.777957,-14.906567
11.185,2.0,1.0,1.0,34.8,34.1,34.1,3.1,1.8,2.75,-0.529086033045659,-0.100779163268749,0.739859134308058,-0.157853550535254,-0.823246,-14.550124
11.185,2.0,1.0,1.0,34.8,34.1,34.1,3.1,1.8,2.7525,-0.5436999277339999,-0.1003175037368268,0.7226673093102405,-0.16761083101348706,-0.873223,-14.184259
11.185,2.0,1.0,1.0,34.8,34.1,34.1,3.1,1.8,2.755,-0.5579141192125481,-0.09945587656790587,0.7044361958881767,-0.1780841247036506,-0.928583,-13.8085
11.185,2.0,1.0,1.0,34.8,34.1,34.1,3.1,1.8,2.7575,-0.5716399985344416,-0.0981119965546446,0.685097803532531,-0.1893358535222018,-0.990153,-13.422366
11.185,2.0,1.0,1.0,34.8,34.1,34.1,3.1,1.8,2.76,-0.5847711944076198,-0.09618606292158163,0.664579838844159,-0.20143263211820117,-1.058924,-13.025364
11.185,2.0,1.0,1.0,34.8,34.1,34.1,3.1,1.8,2.7625,-0.5971795422560131,-0.09355674552006212,0.6428064655585877,-0.21444447235709574,-1.136088,-12.617008
11.185,2.0,1.0,1.0,34.8,34.1,34.1,3.1,1.8,2.765,-0.6087101152985726,-0.09007624213894906,0.6196997537747276,-0.22844328698055372,-1.223086,-12.196822
11.185,2.0,1.0,1.0,34.8,34.1,34.1,3.1,1.8,2.7675,-0.6191751363079282,-0.08556423087063907,0.5951821781879759,-0.24350032977227723,-1.321675,-11.764368
11.185,2.0,1.0,1.0,34.8,34.1,34.1,3.1,1.8,2.77,-0.6283465932427874,-0.07980054884458028,0.5691806917723418,-0.25968204278344,-1.434003,-11.319266
11.185,2.0,1.0,1.0,34.8,34.1,34.1,3.1,1.8,2.7725,-0.6359474287480554,-0.07251647970068564,0.541633137413859,-0.2770435456521992,-1.562718,-10.861238
11.185,2.0,1.0,1.0,34.8,34.1,34.1,3.1,1.8,2.775,-0.6416413036274817,-0.06338466853819083,0.512498086620222,-0.29561867746290843,-1.711096,-10.390157
11.185,2.0,1.0,1.0,34.8,34.1,34.1,3.1,1.8,2.7775,-0.6450212190113294,-0.05200797654080157,0.4817696296478759,-0.31540507146521485,-1.883216,-9.90612
11.185,2.0,1.0,1.0,34.8,34.1,34.1,3.1,1.8,2.78,-0.64559783963415,-0.037908156921183295,0.4494991850998637,-0.3363422102291624,-2.084174,-9.409552
11.185,2.0,1.0,1.0,34.8,34.1,34.1,3.1,1.8,2.7825,-0.6427893785136372,-0.020516265490935496,0.4158269967977384,-0.3582798307193472,-2.320355,-8.901335
11.185,2.0,1.0,1.0,34.8,34.1,34.1,3.1,1.8,2.785,-0.6359166531098357,0.0008315192860479939,0.3810264663275327,-0.38093360805915827,-2.599761,-8.382994
11.185,2.0,1.0,1.0,34.8,34.1,34.1,3.1,1.8,2.7875,-0.62420974306662,0.026886173520986687,0.3455644027376501,-0.4038251819216416,-2.932374,-7.856923
11.185,2.0,1.0,1.0,34.8,34.1,34.1,3.1,1.8,2.79,-0.6068368500612952,0.058455579761114415,0.3101787649663046,-0.42620520115678734,-3.3305,-7.326688
11.185,2.0,1.0,1.0,34.8,34.1,34.1,3.1,1.8,2.7925,-0.5829713221721773,0.09633589952433766,0.2759709159114727,-0.4469627576656637,-3.808905,-6.797367
11.185,2.0,1.0,1.0,34.8,34.1,34.1,3.1,1.8,2.795,-0.5519178889521658,0.14118392743823516,0.2444993746013568,-0.46453473442481524,-4.384296,-6.275936
11.185,2.0,1.0,1.0,34.8,34.1,34.1,3.1,1.8,2.7975,-0.5133196483463454,0.1933098382422902,0.21784401618099775,-0.47684657855079526,-5.073051,-5.771618
11.185,2.0,1.0,1.0,34.8,34.1,34.1,3.1,1.8,2.8,-0.46745442991028335,0.25238340681145516,0.19858379916959656,-0.4813413362063256,-5.884659,-5.296088
11.185,2.0,1.0,1.0,34.8,34.1,34.1,3.1,1.8,2.8025,-0.41559028498657125,0.31708619223452233,0.18960651699158615,-0.47517690378351224,-6.805485,-4.86334
11.185,2.0,1.0,1.0,34.8,34.1,34.1,3.1,1.8,2.805,-0.3602978712192585,0.3848133883088486,0.19367172575634983,-0.4556663387651169,-7.764436,-4.489001
11.185,2.0,1.0,1.0,34.8,34.1,34.1,3.1,1.8,2.8075,-0.30553313220418105,0.45160988079988945,0.21271857495858146,-0.4209633582994757,-8.582378,-4.188908
11.185,2.0,1.0,1.0,34.8,34.1,34.1,3.1,1.8,2.81,-0.25627859374779066,0.5125439640186891,0.24707026785487798,-0.3708366639685089,-8.971465,-3.977
11.185,2.0,1.0,1.0,34.8,34.1,34.1,3.1,1.8,2.8125,-0.21766349677896998,0.562585963804135,0.29487189838689143,-0.30719990253450047,-8.718372,-3.862906
11.185,2.0,1.0,1.0,34.8,34.1,34.1,3.1,1.8,2.815,-0.19378081886523957,0.5977662894969836,0.35213630250374045,-0.23403772300993297,-7.916904,-3.849993
11.185,2.0,1.0,1.0,34.8,34.1,34.1,3.1,1.8,2.8175,-0.18669239729411338,0.6161298552137447,0.41352344402457575,-0.15662082054837734,-6.864371,-3.934616
11.185,2.0,1.0,1.0,34.8,34.1,34.1,3.1,1.8,2.82,-0.19608658954186514,0.6180438727885051,0.47355898470193736,-0.08030994311701958,-5.805266,-4.106896
11.185,2.0,1.0,1.0,34.8,34.1,34.1,3.1,1.8,2.8225,-0.21968884613677236,0.6057764536952202,0.5277503637983038,-0.009477029237478398,-4.857397,-4.352689
11.185,2.0,1.0,1.0,34.8,34.1,34.1,3.1,1.8,2.825,-0.2541237935579122,0.5826479240125128,0.5731891880913731,0.053065975352493265,-4.054696,-4.656
11.185,2.0,1.0,1.0,34.8,34.1,34.1,3.1,1.8,2.8275,-0.29579592256450643,0.5521745586579954,0.6085774025442419,0.10607967236334537,-3.392657,-5.001073
11.185,2.0,1.0,1.0,34.8,34.1,34.1,3.1,1.8,2.83,-0.34150342716836213,0.5174764582660086,0.6338802190187405,0.1495524802916281,-2.853109,-5.373807
