1,w,sub_t,h,l1,l2,l3,g1,g2,Freq,S11_re,S21_re,S11_img,S21_img,S11_dB,S21_dB
11.185,2.0,1.0,1.0,33.5,33.5,33.5,4.0,2.5,2.5,0.851848595520955,-0.00636205520565042,0.511956332310419,0.00491947082680322,-0.05355,-41.892505
11.185,2.0,1.0,1.0,33.5,33.5,33.5,4.0,2.5,2.5025,0.8483749214138534,-0.006486625247302931,0.5175882462195587,0.004935947805379233,-0.054024,-41.775711
11.185,2.0,1.0,1.0,33.5,33.5,33.5,4.0,2.5,2.505,0.8448490395537751,-0.006613286521369841,0.5232190825507959,0.004951695632205112,-0.054505,-41.658665
11.185,2.0,1.0,1.0,33.5,33.5,33.5,4.0,2.5,2.5075,0.8412704546554512,-0.006742077551881944,0.5288485834869262,0.004966686070078933,-0.054995,-41.541359
11.185,2.0,1.0,1.0,33.5,33.5,33.5,4.0,2.5,2.51,0.8376386641490868,-0.006873037758601888,0.534476483735187,0.00498088990805717,-0.055493,-41.423786
11.185,2.0,1.0,1.0,33.5,33.5,33.5,4.0,2.5,2.5125,0.8339531580810542,-0.007006207482213315,0.5401025102960596,0.004994276924134109,-0.055999,-41.305937
11.185,2.0,1.0,1.0,33.5,33.5,33.5,4.0,2.5,2.515,0.8302134190139324,-0.007141628010354815,0.5457263822249211,0.005006815846313703,-0.056513,-41.187806
11.185,2.0,1.0,1.0,33.5,33.5,33.5,4.0,2.5,2.5175,0.8264189219259495,-0.007279341604532455,0.5513478103862943,0.005018474311994962,-0.057037,-41.069382
11.185,2.0,1.0,1.0,33.5,33.5,33.5,4.0,2.5,2.52,0.8225691341098474,-0.007419391527947075,0.5569664972004721,0.005029218825587715,-0.057569,-40.950659
11.185,2.0,1.0,1.0,33.5,33.5,33.5,4.0,2.5,2.5225,0.8186635150712351,-0.00756182207427296,0.5625821363822298,0.0050390147142705885,-0.058111,-40.831629
11.185,2.0,1.0,1.0,33.5,33.5,33.5,4.0,2.5,2.525,0.814701516426457,-0.007706678597428319,0.5681944126713918,0.005047826081798735,-0.058662,-40.712282
11.185,2.0,1.0,1.0,33.5,33.5,33.5,4.0,2.5,2.5275,0.810682581800038,-0.007854007542377623,0.5738030015549674,0.005055615760262366,-0.059222,-40.59261
11.185,2.0,1.0,1.0,33.5,33.5,33.5,4.0,2.5,2.53,0.8066061467217581,-0.00800385647700999,0.5794075689805668,0.005062345259693045,-0.059793,-40.472605
11.185,2.0,1.0,1.0,33.5,33.5,33.5,4.0,2.5,2.5325,0.8024716385234077,-0.008156274125138125,0.5850077710608079,0.005067974715406817,-0.060373,-40.352259
11.185,2.0,1.0,1.0,33.5,33.5,33.5,4.0,2.5,2.535,0.7982784762352884,-0.008311310400666341,0.5906032537684156,0.005072462832968571,-0.060963,-40.231561
11.185,2.0,1.0,1.0,33.5,33.5,33.5,4.0,2.5,2.5375,0.7940260704825274,-0.008469016442976873,0.5961936526216782,0.005075766830653768,-0.061564,-40.110504
11.185,2.0,1.0,1.0,33.5,33.5,33.5,4.0,2.5,2.54,0.7897138233812672,-0.008629444653587856,0.6017785923599489,0.005077842379277497,-0.062176,-39.989078
11.185,2.0,1.0,1.0,33.5,33.5,33.5,4.0,2.5,2.5425,0.7853411284348056,-0.00879264873413759,0.6073576866088406,0.005078643539251839,-0.062799,-39.867275
11.185,2.0,1.0,1.0,33.5,33.5,33.5,4.0,2.5,2.545,0.7809073704297677,-0.008958683725753803,0.6129305375347652,0.0050781226947249755,-0.063433,-39.745084
11.185,2.0,1.0,1.0,33.5,33.5,33.5,4.0,2.5,2.5475,0.7764119253323887,-0.009127606049868517,0.618496735488433,0.005076230484646433,-0.064079,-39.622497
11.185,2.0,1.0,1.0,33.5,33.5,33.5,4.0,2.5,2.55,0.7718541601849893,-0.009299473550543466,0.6240558586369523,0.005072915730592907,-0.064736,-39.499503
11.185,2.0,1.0,1.0,33.5,33.5,33.5,4.0,2.5,2.5525,0.7672334330027512,-0.009474345538373148,0.6296074725840999,0.005068125361179228,-0.065405,-39.376094
11.185,2.0,1.0,1.0,33.5,33.5,33.5,4.0,2.5,2.555,0.7625490926708715,-0.00965228283603735,0.635151129978369,0.005061804332867869,-0.066087,-39.252259
11.185,2.0,1.0,1.0,33.5,33.5,33.5,4.0,2.5,2.5575,0.7578004788422071,-0.009833347825578171,0.6406863701083534,0.005053895546978824,-0.066782,-39.127988
11.185,2.0,1.0,1.0,33.5,33.5,33.5,4.0,2.5,2.56,0.7529869218355218,-0.010017604497480547,0.646212718485013,0.005044339762689177,-0.067489,-39.003271
11.185,2.0,1.0,1.0,33.5,33.5,33.5,4.0,2.5,2.5625,0.7481077425344408,-0.01020511850163973,0.6517296864103526,0.005033075505797664,-0.06821,-38.878097
11.185,2.0,1.0,1.0,33.5,33.5,33.5,4.0,2.5,2.565,0.7431622522872366,-0.010395957200304175,0.65723677053203,0.005020038973015888,-0.068944,-38.752457
11.185,2.0,1.0,1.0,33.5,33.5,33.5,4.0,2.5,2.5675,0.7381497528075786,-0.010590189723085782,0.6627334523833687,0.005005163931531373,-0.069693,-38.626339
11.185,2.0,1.0,1.0,33.5,33.5,33.5,4.0,2.5,2.57,0.7330695360763677,-0.010787887024136529,0.6682191979082532,0.004988381613572098,-0.070456,-38.499732
11.185,2.0,1.0,1.0,33.5,33.5,33.5,4.0,2.5,2.5725,0.7279208842448053,-0.01098912194159378,0.6736934569703462,0.004969620605682905,-0.071233,-38.372626
11.185,2.0,1.0,1.0,33.5,33.5,33.5,4.0,2.5,2.575,0.7227030695388357,-0.011193969259404555,0.6791556628460438,0.004948806732406003,-0.072026,-38.245008
11.185,2.0,1.0,1.0,33.5,33.5,33.5,4.0,2.5,2.5775,0.7174153541651223,-0.011402505771643095,0.6846052317005632,0.004925862934036095,-0.072834,-38.116868
11.185,2.0,1.0,1.0,33.5,33.5,33.5,4.0,2.5,2.58,0.7120569902187165,-0.011614810349443984,0.690041562046521,0.0049007091380996355,-0.073659,-37.988193
11.185,2.0,1.0,1.0,33.5,33.5,33.5,4.0,2.5,2.5825,0.7066272195925826,-0.011830964010680015,0.6954640341843458,0.004873262124181338,-0.074499,-37.858972
11.185,2.0,1.0,1.0,33.5,33.5,33.5,4.0,2.5,2.585,0.7011252738891651,-0.012051049992520218,0.7008720096238168,0.004843435381698201,-0.075356,-37.729192
11.185,2.0,1.0,1.0,33.5,33.5,33.5,4.0,2.5,2.5875,0.6955503743341712,-0.012275153827012683,0.7062648304860096,0.004811138960190048,-0.076231,-37.598841
11.185,2.0,1.0,1.0,33.5,33.5,33.5,4.0,2.5,2.59,0.6899017316927745,-0.012503363419843982,0.7116418188848701,0.004776279311667704,-0.077123,-37.467906
11.185,2.0,1.0,1.0,33.5,33.5,33.5,4.0,2.5,2.5925,0.684178546188425,-0.012735769132437558,0.7170022762876248,0.0047387591245264685,-0.078034,-37.336374
11.185,2.0,1.0,1.0,33.5,33.5,33.5,4.0,2.5,2.595,0.6783800074244977,-0.012972463867560199,0.7223454828531701,0.004698477148496513,-0.078963,-37.204231
11.185,2.0,1.0,1.0,33.5,33.5,33.5,4.0,2.5,2.5975,0.672505294308972,-0.013213543158618756,0.7276706967475638,0.004655328010064707,-0.079911,-37.071465
11.185,2.0,1.0,1.0,33.5,33.5,33.5,4.0,2.5,2.6,0.66655357498239,-0.013459105262838377,0.7329771534356818,0.004609202017760352,-0.080879,-36.938061
11.185,2.0,1.0,1.0,33.5,33.5,33.5,4.0,2.5,2.6025,0.6605240067493252,-0.013709251258524192,0.7382640649480481,0.004559984956652512,-0.081868,-36.804005
11.185,2.0,1.0,1.0,33.5,33.5,33.5,4.0,2.5,2.605,0.6544157360136015,-0.013964085146622994,0.7435306191218168,0.00450755787135822,-0.082877,-36.669282
11.185,2.0,1.0,1.0,33.5,33.5,33.5,4.0,2.5,2.6075,0.6482278982175256,-0.014223713956811932,0.7487759788147987,0.004451796836807894,-0.083908,-36.533878
11.185,2.0,1.0,1.0,33.5,33.5,33.5,4.0,2.5,2.61,0.6419596177853997,-0.01448824785835579,0.753999281091383,0.004392572715957046,-0.084961,-36.397778
11.185,2.0,1.0,1.0,33.5,33.5,33.5,4.0,2.5,2.6125,0.6356100080715831,-0.014757800275990258,0.7591996363791353,0.00432975090357169,-0.086037,-36.260965
11.185,2.0,1.0,1.0,33.5,33.5,33.5,4.0,2.5,2.615,0.629178171313389,-0.015032488011101977,0.764376127594781,0.004263191055145517,-0.087136,-36.123424
11.185,2.0,1.0,1.0,33.5,33.5,33.5,4.0,2.5,2.6175,0.6226631985891186,-0.015312431368494845,0.7695278092381995,0.004192746799936123,-0.08826,-35.985138
11.185,2.0,1.0,1.0,33.5,33.5,33.5,4.0,2.5,2.62,0.6160641697815281,-0.0155977542890479,0.7746537064529828,0.004118265437024226,-0.089408,-35.846092
11.185,2.0,1.0,1.0,33.5,33.5,33.5,4.0,2.5,2.6225,0.6093801535470463,-0.015888584488590592,0.779752814052024,0.004039587613214632,-0.090582,-35.706267
11.185,2.0,1.0,1.0,33.5,33.5,33.5,4.0,2.5,2.625,0.602610207291076,-0.0161850536033396,0.784824095506482,0.00395654698150186,-0.091783,-35.565645
11.185,2.0,1.0,1.0,33.5,33.5,33.5,4.0,2.5,2.6275,0.5957533771496958,-0.016487297342263698,0.789866481896399,0.0038689698387181547,-0.093011,-35.42421
11.185,2.0,1.0,1.0,33.5,33.5,33.5,4.0,2.5,2.63,0.5888086979781237,-0.016795455646764948,0.7948788708211003,0.003776674740869121,-0.094267,-35.281942
11.185,2.0,1.0,1.0,33.5,33.5,33.5,4.0,2.5,2.6325,0.581775193346285,-0.01710967285808928,0.7998601252674032,0.003679472094537857,-0.095552,-35.138822
11.185,2.0,1.0,1.0,33.5,33.5,33.5,4.0,2.5,2.635,0.5746518755418512,-0.017430097892903756,0.8048090724335124,0.0035771637226008866,-0.096867,-34.99483
11.185,2.0,1.0,1.0,33.5,33.5,33.5,4.0,2.5,2.6375,0.567437745581128,-0.017756884427504963,0.8097245025063409,0.003469542402351443,-0.098213,-34.849947
11.185,2.0,1.0,1.0,33.5,33.5,33.5,4.0,2.5,2.64,0.5601317932281591,-0.01809019109115319,0.8146051673898339,0.003356391373961676,-0.099591,-34.704152
11.185,2.0,1.0,1.0,33.5,33.5,33.5,4.0,2.5,2.6425,0.5527329970224489,-0.018430181669053868,0.8194497793816885,0.0032374838170351225,-0.101002,-34.557423
11.185,2.0,1.0,1.0,33.5,33.5,33.5,4.0,2.5,2.645,0.5452403243156995,-0.01877702531554261,0.8242570097956772,0.003112582292804598,-0.102448,-34.409738
11.185,2.0,1.0,1.0,33.5,33.5,33.5,4.0,2.5,2.6475,0.5376527313179646,-0.019130896778061967,0.8290254875265644,0.002981438149312873,-0.103928,-34.261075
11.185,2.0,1.0,1.0,33.5,33.5,33.5,4.0,2.5,2.65,0.5299691631536299,-0.019491976632553996,0.8337537975543899,0.002843790886675195,-0.105445,-34.111411
11.185,2.0,1.0,1.0,33.5,33.5,33.5,4.0,2.5,2.6525,0.5221885539276634,-0.0198604515309293,0.8384404793846011,0.002699367479260055,-0.107,-33.960721
11.185,2.0,1.0,1.0,33.5,33.5,33.5,4.0,2.5,2.655,0.5143098268025358,-0.02023651446131243,0.8430840254202798,0.0025478816513328662,-0.108594,-33.808981
11.185,2.0,1.0,1.0,33.5,33.5,33.5,4.0,2.5,2.6575,0.5063318940862671,-0.020620365021804647,0.8476828792623616,0.0023890331023897864,-0.110229,-33.656165
11.185,2.0,1.0,1.0,33.5,33.5,33.5,4.0,2.5,2.66,0.4982536573320318,-0.02101220970854517,0.8522354339334269,0.002222506678051658,-0.111906,-33.502247
11.185,2.0,1.0,1.0,33.5,33.5,33.5,4.0,2.5,2.6625,0.4900740074497846,-0.02141226221889811,0.8567400300202439,0.002047971481999782,-0.113626,-33.347201
11.185,2.0,1.0,1.0,33.5,33.5,33.5,4.0,2.5,2.665,0.48179182483034305,-0.02182074377063637,0.8611949537298466,0.0018650799239983418,-0.115391,-33.190997
11.185,2.0,1.0,1.0,33.5,33.5,33.5,4.0,2.5,2.6675,0.4734059794824184,-0.022237883438038845,0.8655984348534425,0.0016734666985708552,-0.117203,-33.033606
11.185,2.0,1.0,1.0,33.5,33.5,33.5,4.0,2.5,2.67,0.46491533118304484,-0.022663918505866083,0.8699486446319453,0.0014727476883611443,-0.119064,-32.875
11.185,2.0,1.0,1.0,33.5,33.5,33.5,4.0,2.5,2.6725,0.45631872964189973,-0.02309909484222539,0.874243693516349,0.0012625187856193422,-0.120975,-32.715146
11.185,2.0,1.0,1.0,33.5,33.5,33.5,4.0,2.5,2.675,0.4476150146800099,-0.023543667291382547,0.8784816288155124,0.0010423546245911383,-0.122939,-32.554013
11.185,2.0,1.0,1.0,33.5,33.5,33.5,4.0,2.5,2.6775,0.4388030164233502,-0.02399790008762542,0.8826604322232252,0.000811807216855587,-0.124957,-32.391568
11.185,2.0,1.0,1.0,33.5,33.5,33.5,4.0,2.5,2.68,0.42988155551185503,-0.024462067291325242,0.8867780172156227,0.0005704044808364923,-0.127032,-32.227776
11.185,2.0,1.0,1.0,33.5,33.5,33.5,4.0,2.5,2.6825,0.42084944332440255,-0.02493645324838391,0.8908322263091228,0.0003176486557983856,-0.129166,-32.062602
11.185,2.0,1.0,1.0,33.5,33.5,33.5,4.0,2.5,2.685,0.411705482220334,-0.025421353074290054,0.8948208281680841,5.301458961387607e-05,-0.131362,-31.896008
11.185,2.0,1.0,1.0,33.5,33.5,33.5,4.0,2.5,2.6875,0.402448465798125,-0.0259170731640354,0.898741514550246,-0.000224052111554146,-0.133621,-31.727956
11.185,2.0,1.0,1.0,33.5,33.5,33.5,4.0,2.5,2.69,0.3930771791718787,-0.026423931729161555,0.9025918970767723,-0.0005141370847956438,-0.135947,-31.558407
11.185,2.0,1.0,1.0,33.5,33.5,33.5,4.0,2.5,2.6925,0.38359039926633576,-0.026942259363216245,0.9063695038123241,-0.0008178593778020318,-0.138343,-31.38732
11.185,2.0,1.0,1.0,33.5,33.5,33.5,4.0,2.5,2.695,0.3739868951312293,-0.02747239963688541,0.9100717756389765,-0.0011358737982193805,-0.140812,-31.21465
11.185,2.0,1.0,1.0,33.5,33.5,33.5,4.0,2.5,2.6975,0.36426542827584685,-0.028014709724041874,0.913696062406049,-0.0014688734630258014,-0.143357,-31.040354
11.185,2.0,1.0,1.0,33.5,33.5,33.5,4.0,2.5,2.7,0.35442475302484805,-0.028569561059890926,0.9172396188358698,-0.0018175925680060337,-0.14598,-30.864386
11.185,2.0,1.0,1.0,33.5,33.5,33.5,4.0,2.5,2.7025,0.34446361689649624,-0.02913734003230655,0.9206996001632459,-0.002182809399712304,-0.148687,-30.686697
11.185,2.0,1.0,1.0,33.5,33.5,33.5,4.0,2.5,2.705,0.3343807610047051,-0.029718448707317113,0.924073057483819,-0.0025653496149200673,-0.151481,-30.507236
11.185,2.0,1.0,1.0,33.5,33.5,33.5,4.0,2.5,2.7075,0.3241749204865231,-0.030313305589514936,0.9273569327835751,-0.002966089815550894,-0.154366,-30.325952
11.185,2.0,1.0,1.0,33.5,33.5,33.5,4.0,2.5,2.71,0.3138448249570306,-0.030922346417911518,0.9305480536184518,-0.0033859614503962032,-0.157346,-30.142789
11.185,2.0,1.0,1.0,33.5,33.5,33.5,4.0,2.5,2.7125,0.303389198994004,-0.03154602499742572,0.9336431274092263,-0.003825955078791577,-0.160426,-29.957691
11.185,2.0,1.0,1.0,33.5,33.5,33.5,4.0,2.5,2.715,0.2928067626552261,-0.032184814065751736,0.9366387353125551,-0.0042871250357333305,-0.163611,-29.770598
11.185,2.0,1.0,1.0,33.5,33.5,33.5,4.0,2.5,2.7175,0.2820962320319455,-0.03283920619478808,0.9395313256241486,-0.0047705945428738895,-0.166907,-29.581448
11.185,2.0,1.0,1.0,33.5,33.5,33.5,4.0,2.5,2.72,0.2712563198428017,-0.0335097147250796,0.9423172066644461,-0.0052775613154756075,-0.170319,-29.390176
11.185,2.0,1.0,1.0,33.5,33.5,33.5,4.0,2.5,2.7225,0.2602857360734822,-0.03419687473080114,0.9449925390907588,-0.0058093037218576995,-0.173853,-29.196715
11.185,2.0,1.0,1.0,33.5,33.5,33.5,4.0,2.5,2.725,0.24918318866867775,-0.034901244011636565,0.9475533275724721,-0.006367187559254227,-0.177516,-29.000992
11.185,2.0,1.0,1.0,33.5,33.5,33.5,4.0,2.5,2.7275,0.23794738428435594,-0.035623404106434525,0.9499954117574697,-0.0069526735184827024,-0.181315,-28.802934
11.185,2.0,1.0,1.0,33.5,33.5,33.5,4.0,2.5,2.73,0.22657702911038285,-0.03636396132165963,0.9523144564481991,-0.00756732541956076,-0.185257,-28.602462
11.185,2.0,1.0,1.0,33.5,33.5,33.5,4.0,2.5,2.7325,0.21507082977581304,-0.037123547765337044,0.9545059408946015,-0.008212819311628322,-0.189351,-28.399494
11.185,2.0,1.0,1.0,33.5,33.5,33.5,4.0,2.5,2.735,0.20342749435221003,-0.03790282237427326,0.9565651470981684,-0.00889095354347188,-0.193606,-28.193945
11.185,2.0,1.0,1.0,33.5,33.5,33.5,4.0,2.5,2.7375,0.1916457334739959,-0.03870247191869525,0.9584871470064141,-0.009603659925909945,-0.198031,-27.985724
11.185,2.0,1.0,1.0,33.5,33.5,33.5,4.0,2.5,2.74,0.17972426159946184,-0.03952321196390639,0.9602667884596688,-0.01035301612461997,-0.202636,-27.774736
11.185,2.0,1.0,1.0,33.5,33.5,33.5,4.0,2.5,2.7425,0.16766179844175635,-0.04036578776287755,0.9618986797319267,-0.01114125944210062,-0.207433,-27.560882
11.185,2.0,1.0,1.0,33.5,33.5,33.5,4.0,2.5,2.745,0.15545707060633993,-0.041230975046602225,0.9633771724839784,-0.011970802170841807,-0.212433,-27.344055
11.185,2.0,1.0,1.0,33.5,33.5,33.5,4.0,2.5,2.7475,0.14310881348027066,-0.0421195806701848,0.9646963429196665,-0.012844248727029424,-0.217651,-27.124146
11.185,2.0,1.0,1.0,33.5,33.5,33.5,4.0,2.5,2.75,0.130615773429815,-0.0430324430615524,0.965849970904072,-0.0137644148059369,-0.223099,-26.901037
11.185,2.0,1.0,1.0,33.5,33.5,33.5,4.0,2.5,2.7525,0.11797671037678964,-0.04397043240581806,0.9668315167649224,-0.014734348837401757,-0.228795,-26.674606
11.185,2.0,1.0,1.0,33.5,33.5,33.5,4.0,2.5,2.755,0.10519040084148129,-0.04493445048094119,0.9676340954545001,-0.01575735606347187,-0.234754,-26.44472
11.185,2.0,1.0,1.0,33.5,33.5,33.5,4.0,2.5,2.7575,0.09225564156182817,-0.04592543003852614,0.968250447697526,-0.01683702561166517,-0.240997,-26.211244
11.185,2.0,1.0,1.0,33.5,33.5,33.5,4.0,2.5,2.76,0.07917125382610964,-0.04694433359616678,0.9686729076894498,-0.017977260997780277,-0.247542,-25.974029
11.185,2.0,1.0,1.0,33.5,33.5,33.5,4.0,2.5,2.7625,0.06593608869099567,-0.04799215147319972,0.9688933668374689,-0.019182314563631536,-0.254414,-25.732923
11.185,2.0,1.0,1.0,33.5,33.5,33.5,4.0,2.5,2.765,0.052549033300616624,-0.04906989885809173,0.9689032329511982,-0.020456826439609947,-0.261636,-25.487761
11.185,2.0,1.0,1.0,33.5,33.5,33.5,4.0,2.5,2.7675,0.03900901857772908,-0.05017861164047226,0.9686933841886131,-0.021805868722208334,-0.269236,-25.238368
11.185,2.0,1.0,1.0,33.5,33.5,33.5,4.0,2.5,2.77,0.0253150286283807,-0.05131934067074344,0.9682541169424327,-0.023234995675791122,-0.277245,-24.984561
11.185,2.0,1.0,1.0,33.5,33.5,33.5,4.0,2.5,2.7725,0.011466112291073877,-0.052493144021024014,0.96757508670858,-0.024750300909774717,-0.285697,-24.72614
11.185,2.0,1.0,1.0,33.5,33.5,33.5,4.0,2.5,2.775,-0.0025386026242480925,-0.05370107670736276,0.9666452408070109,-0.02635848265171652,-0.294628,-24.462898
11.185,2.0,1.0,1.0,33.5,33.5,33.5,4.0,2.5,2.7775,-0.016699891715559204,-0.05494417718740482,0.96545274162024,-0.028066918439281205,-0.30408,-24.194611
11.185,2.0,1.0,1.0,33.5,33.5,33.5,4.0,2.5,2.78,-0.031018412106371126,-0.05622344976044525,0.9639848787692997,-0.029883750796571244,-0.314101,-23.92104
11.185,2.0,1.0,1.0,33.5,33.5,33.5,4.0,2.5,2.7825,-0.045494675178625564,-0.0575398417553362,0.9622279683521454,-0.03181798575124118,-0.324743,-23.641929
11.185,2.0,1.0,1.0,33.5,33.5,33.5,4.0,2.5,2.785,-0.06012901248349585,-0.058894214079215974,0.960167237015361,-0.033879606398286445,-0.336064,-23.357007
11.185,2.0,1.0,1.0,33.5,33.5,33.5,4.0,2.5,2.7875,-0.07492153298391233,-0.06028730329393799,0.9577866882041219,-0.036079704136524914,-0.348131,-23.065981
11.185,2.0,1.0,1.0,33.5,33.5,33.5,4.0,2.5,2.79,-0.08987206924920609,-0.061719672857232385,0.9550689474229243,-0.038430630709078685,-0.361019,-22.768538
11.185,2.0,1.0,1.0,33.5,33.5,33.5,4.0,2.5,2.7925,-0.10498010952283211,-0.0631916504712904,0.9519950827232685,-0.040946174786659226,-0.374813,-22.464343
11.185,2.0,1.0,1.0,33.5,33.5,33.5,4.0,2.5,2.795,-0.12024471166335554,-0.0647032475674911,0.9485443958940507,-0.043641767561949624,-0.38961,-22.153033
11.185,2.0,1.0,1.0,33.5,33.5,33.5,4.0,2.5,2.7975,-0.13566439374056002,-0.06625405574727421,0.9446941789431345,-0.046534722697123956,-0.405522,-21.83422
11.185,2.0,1.0,1.0,33.5,33.5,33.5,4.0,2.5,2.8,-0.1512369944494025,-0.06784311339300303,0.9404194293997191,-0.04964451700862549,-0.422676,-21.507486
11.185,2.0,1.0,1.0,33.5,33.5,33.5,4.0,2.5,2.8025,-0.1669594943414291,-0.06946873351776485,0.9356925167121005,-0.052993119507616676,-0.441219,-21.172379
11.185,2.0,1.0,1.0,33.5,33.5,33.5,4.0,2.5,2.805,-0.18282778596938754,-0.07112828104428111,0.9304827905432825,-0.05660537786102909,-0.46132,-20.828412
11.185,2.0,1.0,1.0,33.5,33.5,33.5,4.0,2.5,2.8075,-0.19883637712220972,-0.07281788381954586,0.9247561200678724,-0.06050947300562368,-0.483178,-20.475059
11.185,2.0,1.0,1.0,33.5,33.5,33.5,4.0,2.5,2.81,-0.21497800601260125,-0.07453205640580839,0.918474351462436,-0.06473745452013581,-0.507024,-20.111751
11.185,2.0,1.0,1.0,33.5,33.5,33.5,4.0,2.5,2.8125,-0.231243140033837,-0.0762632085115914,0.911594668720858,-0.0693258713743463,-0.533129,-19.737874
11.185,2.0,1.0,1.0,33.5,33.5,33.5,4.0,2.5,2.815,-0.24761931977582677,-0.07800100009674248,0.9040688408693965,-0.07431651467477844,-0.561812,-19.352763
11.185,2.0,1.0,1.0,33.5,33.5,33.5,4.0,2.5,2.8175,-0.26409029632747494,-0.07973149165966753,0.8958423369193032,-0.07975729069801883,-0.593455,-18.955697
11.185,2.0,1.0,1.0,33.5,33.5,33.5,4.0,2.5,2.82,-0.2806348910073013,-0.08143601952507673,0.8868532890844959,-0.08570324323950074,-0.62851,-18.5459
11.185,2.0,1.0,1.0,33.5,33.5,33.5,4.0,2.5,2.8225,-0.29722548047107,-0.0830897000362504,0.8770312860226618,-0.09221774299760986,-0.667523,-18.122534
11.185,2.0,1.0,1.0,33.5,33.5,33.5,4.0,2.5,2.825,-0.31382597373128257,-0.08465943054199598,0.8662959831319577,-0.09937385636988041,-0.711151,-17.684697
11.185,2.0,1.0,1.0,33.5,33.5,33.5,4.0,2.5,2.8275,-0.3303890969712384,-0.0861012049916542,0.8545555297911539,-0.10725589314442976,-0.760196,-17.231421
