1,w,sub_t,h,l1,l2,l3,g1,g2,Freq,S11_re,S21_re,S11_img,S21_img,S11_dB,S21_dB
11.185,2.0,1.0,1.0,33.8,34.0,34.0,2.2,3.8,2.5,0.805363615007715,-0.0100694110923722,0.579760589387165,0.00684377868091864,-0.066816,-38.290629
11.185,2.0,1.0,1.0,33.8,34.0,34.0,2.2,3.8,2.5025,0.8010163772770309,-0.010270722468959909,0.5856141384165087,0.006857971478189183,-0.067529,-38.166746
11.185,2.0,1.0,1.0,33.8,34.0,34.0,2.2,3.8,2.505,0.7966036056927953,-0.010475731007682553,0.5914635486882828,0.006870699540137618,-0.068256,-38.042457
11.185,2.0,1.0,1.0,33.8,34.0,34.0,2.2,3.8,2.5075,0.7921245716276714,-0.010684512095617292,0.5973083951833773,0.006881900592691864,-0.068996,-37.917754
11.185,2.0,1.0,1.0,33.8,34.0,34.0,2.2,3.8,2.51,0.7875785349132702,-0.010897142930392187,0.6031482391994228,0.006891509935804932,-0.06975,-37.792628
11.185,2.0,1.0,1.0,33.8,34.0,34.0,2.2,3.8,2.5125,0.7829647436697723,-0.011113702568295837,0.608982627891661,0.006899460341031458,-0.070519,-37.66707
11.185,2.0,1.0,1.0,33.8,34.0,34.0,2.2,3.8,2.515,0.7782824341345113,-0.011334271973696117,0.6148110937977517,0.006905681944323416,-0.071302,-37.541071
11.185,2.0,1.0,1.0,33.8,34.0,34.0,2.2,3.8,2.5175,0.7735308304896422,-0.01155893406979686,0.6206331543458895,0.0069101021337964206,-0.0721,-37.414622
11.185,2.0,1.0,1.0,33.8,34.0,34.0,2.2,3.8,2.52,0.7687091446889882,-0.011787773790763912,0.6264483113456052,0.006912645432203695,-0.072913,-37.287713
11.185,2.0,1.0,1.0,33.8,34.0,34.0,2.2,3.8,2.5225,0.7638165762842122,-0.012020878135248582,0.6322560504605551,0.0069132333738394615,-0.073743,-37.160336
11.185,2.0,1.0,1.0,33.8,34.0,34.0,2.2,3.8,2.525,0.7588523122504286,-0.012258336221339594,0.6380558406626271,0.006911784375577548,-0.074588,-37.03248
11.185,2.0,1.0,1.0,33.8,34.0,34.0,2.2,3.8,2.5275,0.753815526811411,-0.012500239342971356,0.6438471336666209,0.006908213601733109,-0.07545,-36.904137
11.185,2.0,1.0,1.0,33.8,34.0,34.0,2.2,3.8,2.53,0.7487053812645516,-0.012746681027817255,0.6496293633447366,0.006902432822417159,-0.076329,-36.775296
11.185,2.0,1.0,1.0,33.8,34.0,34.0,2.2,3.8,2.5325,0.7435210238057463,-0.012997757096695555,0.6554019451200844,0.006894350265034034,-0.077226,-36.645947
11.185,2.0,1.0,1.0,33.8,34.0,34.0,2.2,3.8,2.535,0.7382615893543827,-0.013253565724514329,0.6611642753383821,0.00688387045855031,-0.078141,-36.516081
11.185,2.0,1.0,1.0,33.8,34.0,34.0,2.2,3.8,2.5375,0.7329261993786419,-0.013514207502780401,0.6669157306169657,0.006870894070141915,-0.079074,-36.385687
11.185,2.0,1.0,1.0,33.8,34.0,34.0,2.2,3.8,2.54,0.7275139617213208,-0.01377978550369646,0.6726556671702119,0.006855317733801833,-0.080025,-36.254755
11.185,2.0,1.0,1.0,33.8,34.0,34.0,2.2,3.8,2.5425,0.7220239704264091,-0.014050405345868159,0.6783834201104192,0.006837033870465163,-0.080997,-36.123274
11.185,2.0,1.0,1.0,33.8,34.0,34.0,2.2,3.8,2.545,0.7164553055666726,-0.014326175261640926,0.6840983027231576,0.006815930499181327,-0.081988,-35.991233
11.185,2.0,1.0,1.0,33.8,34.0,34.0,2.2,3.8,2.5475,0.7108070330725159,-0.01460720616608376,0.6897996057160337,0.006791891038833625,-0.082999,-35.858622
11.185,2.0,1.0,1.0,33.8,34.0,34.0,2.2,3.8,2.55,0.7050782045624011,-0.014893611727635273,0.6954865964398065,0.006764794099875142,-0.084032,-35.725429
11.185,2.0,1.0,1.0,33.8,34.0,34.0,2.2,3.8,2.5525,0.6992678571751566,-0.015185508440421701,0.7011585180806832,0.0067345132655172255,-0.085086,-35.591644
11.185,2.0,1.0,1.0,33.8,34.0,34.0,2.2,3.8,2.555,0.6933750134044914,-0.015483015698255751,0.7068145888226263,0.006700916861770029,-0.086163,-35.457253
11.185,2.0,1.0,1.0,33.8,34.0,34.0,2.2,3.8,2.5575,0.6873986809360819,-0.01578625587031838,0.712454000978406,0.006663867715696911,-0.087262,-35.322247
11.185,2.0,1.0,1.0,33.8,34.0,34.0,2.2,3.8,2.56,0.6813378524876242,-0.016095354378521283,0.7180759200880849,0.00662322290120376,-0.088385,-35.186613
11.185,2.0,1.0,1.0,33.8,34.0,34.0,2.2,3.8,2.5625,0.6751915056522644,-0.016410439776542773,0.7236794839835614,0.006578833471639654,-0.089532,-35.050338
11.185,2.0,1.0,1.0,33.8,34.0,34.0,2.2,3.8,2.565,0.668958602745844,-0.01673164383052226,0.7292638018177248,0.006530544178438713,-0.090704,-34.913411
11.185,2.0,1.0,1.0,33.8,34.0,34.0,2.2,3.8,2.5675,0.6626380906584641,-0.01705910160139164,0.7348279530566979,0.006478193174982438,-0.091901,-34.775819
11.185,2.0,1.0,1.0,33.8,34.0,34.0,2.2,3.8,2.57,0.6562289007108583,-0.017392951528813077,0.7403709864335796,0.006421611704807203,-0.093124,-34.637549
11.185,2.0,1.0,1.0,33.8,34.0,34.0,2.2,3.8,2.5725,0.6497299485161433,-0.017733335516683935,0.7458919188620068,0.006360623773223801,-0.094375,-34.498589
11.185,2.0,1.0,1.0,33.8,34.0,34.0,2.2,3.8,2.575,0.6431401338475319,-0.01808039902015804,0.7513897343077746,0.006295045801353552,-0.095653,-34.358923
11.185,2.0,1.0,1.0,33.8,34.0,34.0,2.2,3.8,2.5775,0.6364583405126542,-0.018434291134120453,0.7568633826166559,0.006224686261517069,-0.096961,-34.21854
11.185,2.0,1.0,1.0,33.8,34.0,34.0,2.2,3.8,2.58,0.6296834362351666,-0.018795164683039548,0.7623117782964726,0.006149345292841512,-0.098297,-34.077425
11.185,2.0,1.0,1.0,33.8,34.0,34.0,2.2,3.8,2.5825,0.622814272544381,-0.019163176312104853,0.7677337992513581,0.006068814295872253,-0.099664,-33.935565
11.185,2.0,1.0,1.0,33.8,34.0,34.0,2.2,3.8,2.585,0.6158496846737072,-0.01953848657954118,0.7731282854660465,0.005982875504892593,-0.101062,-33.792944
11.185,2.0,1.0,1.0,33.8,34.0,34.0,2.2,3.8,2.5875,0.6087884914687518,-0.01992126004997085,0.7784940376379031,0.005891301536564633,-0.102493,-33.649548
11.185,2.0,1.0,1.0,33.8,34.0,34.0,2.2,3.8,2.59,0.6016294953059874,-0.020311665388673066,0.7838298157542826,0.005793854913406572,-0.103957,-33.505361
11.185,2.0,1.0,1.0,33.8,34.0,34.0,2.2,3.8,2.5925,0.5943714820229601,-0.020709875456565923,0.7891343376126745,0.005690287560517957,-0.105455,-33.36037
11.185,2.0,1.0,1.0,33.8,34.0,34.0,2.2,3.8,2.595,0.5870132208611031,-0.021116067405707387,0.7944062772809377,0.005580340273850683,-0.106989,-33.214557
11.185,2.0,1.0,1.0,33.8,34.0,34.0,2.2,3.8,2.5975,0.5795534644222617,-0.02153042277508235,0.7996442634947939,0.005463742158201274,-0.108559,-33.067907
11.185,2.0,1.0,1.0,33.8,34.0,34.0,2.2,3.8,2.6,0.5719909486401579,-0.021953127586407002,0.8048468779895666,0.0053402100329690925,-0.110167,-32.920403
11.185,2.0,1.0,1.0,33.8,34.0,34.0,2.2,3.8,2.6025,0.5643243927681019,-0.02238437243964207,0.8100126537629799,0.0052094478035816846,-0.111814,-32.772029
11.185,2.0,1.0,1.0,33.8,34.0,34.0,2.2,3.8,2.605,0.5565524993843417,-0.022824352607864334,0.815140073265654,0.005071145796334752,-0.113501,-32.622767
11.185,2.0,1.0,1.0,33.8,34.0,34.0,2.2,3.8,2.6075,0.5486739544165748,-0.02327326813109535,0.8202275665157235,0.004924980054228171,-0.115229,-32.4726
11.185,2.0,1.0,1.0,33.8,34.0,34.0,2.2,3.8,2.61,0.5406874271872485,-0.023731323908630964,0.8252735091337773,0.004770611591197866,-0.117001,-32.32151
11.185,2.0,1.0,1.0,33.8,34.0,34.0,2.2,3.8,2.6125,0.532591570481402,-0.024198729789354435,0.8302762202941119,0.004607685601949036,-0.118816,-32.169478
11.185,2.0,1.0,1.0,33.8,34.0,34.0,2.2,3.8,2.615,0.5243850206389409,-0.02467570065944555,0.8352339605880151,0.004435830624383492,-0.120678,-32.016486
11.185,2.0,1.0,1.0,33.8,34.0,34.0,2.2,3.8,2.6175,0.516066397673396,-0.025162456526819876,0.8401449297945379,0.004254657651384808,-0.122587,-31.862514
11.185,2.0,1.0,1.0,33.8,34.0,34.0,2.2,3.8,2.62,0.5076343054193674,-0.025659222601545437,0.8450072645539134,0.004063759188474883,-0.124544,-31.707542
11.185,2.0,1.0,1.0,33.8,34.0,34.0,2.2,3.8,2.6225,0.49908733171102987,-0.0261662293713854,0.8498190359384858,0.0038627082535855747,-0.126553,-31.551551
11.185,2.0,1.0,1.0,33.8,34.0,34.0,2.2,3.8,2.625,0.490424048594306,-0.0266837126715041,0.854578246915644,0.00365105731489388,-0.128614,-31.394519
11.185,2.0,1.0,1.0,33.8,34.0,34.0,2.2,3.8,2.6275,0.4816430125754581,-0.027211913747250648,0.8592828296969192,0.003428337162350152,-0.130729,-31.236426
11.185,2.0,1.0,1.0,33.8,34.0,34.0,2.2,3.8,2.63,0.4727427649091586,-0.027751079308793863,0.8639306429669883,0.003194055708180039,-0.132901,-31.077248
11.185,2.0,1.0,1.0,33.8,34.0,34.0,2.2,3.8,2.6325,0.46372183192929467,-0.02830146157622516,0.8685194689859057,0.002947696711262039,-0.135131,-30.916964
11.185,2.0,1.0,1.0,33.8,34.0,34.0,2.2,3.8,2.635,0.4545787254260766,-0.028863318313569686,0.8730470105574194,0.0026887184198705833,-0.137422,-30.755551
11.185,2.0,1.0,1.0,33.8,34.0,34.0,2.2,3.8,2.6375,0.4453119430733204,-0.02943691284994557,0.8775108878557175,0.0024165521268232374,-0.139775,-30.592985
11.185,2.0,1.0,1.0,33.8,34.0,34.0,2.2,3.8,2.64,0.4359199689100906,-0.030022514085889462,0.8819086351024255,0.002130600630580608,-0.142193,-30.429241
11.185,2.0,1.0,1.0,33.8,34.0,34.0,2.2,3.8,2.6425,0.42640127388130356,-0.030620396482610283,0.8862376970850491,0.001830236595311877,-0.144679,-30.264296
11.185,2.0,1.0,1.0,33.8,34.0,34.0,2.2,3.8,2.645,0.4167543164422677,-0.03123084003165103,0.8904954255074379,0.0015148008023534044,-0.147234,-30.098122
11.185,2.0,1.0,1.0,33.8,34.0,34.0,2.2,3.8,2.6475,0.40697754323262053,-0.03185413020211422,0.8946790751621303,0.001183600284848264,-0.149863,-29.930693
11.185,2.0,1.0,1.0,33.8,34.0,34.0,2.2,3.8,2.65,0.39706938982558615,-0.032490557862246035,0.8987857999136781,0.0008359063366549893,-0.152567,-29.761983
11.185,2.0,1.0,1.0,33.8,34.0,34.0,2.2,3.8,2.6525,0.38702828155910934,-0.03314041917175906,0.902812648481206,0.0004709523858495793,-0.15535,-29.591963
11.185,2.0,1.0,1.0,33.8,34.0,34.0,2.2,3.8,2.655,0.3768526344559518,-0.03380401544081466,0.9067565600075651,8.793172230453161e-05,-0.158214,-29.420605
11.185,2.0,1.0,1.0,33.8,34.0,34.0,2.2,3.8,2.6575,0.36654085624060945,-0.034481652951055354,0.9106143594014297,-0.0003140049320884745,-0.161164,-29.247878
11.185,2.0,1.0,1.0,33.8,34.0,34.0,2.2,3.8,2.66,0.35609134746162474,-0.03517364273348535,0.9143827524376078,-0.0007357520229929228,-0.164202,-29.073753
11.185,2.0,1.0,1.0,33.8,34.0,34.0,2.2,3.8,2.6625,0.3455025027287732,-0.035880300297320145,0.9180583205996355,-0.0011782519465450005,-0.167333,-28.898198
11.185,2.0,1.0,1.0,33.8,34.0,34.0,2.2,3.8,2.665,0.33477271207551224,-0.036601945303162964,0.9216375156474366,-0.0016424980303747913,-0.170559,-28.72118
11.185,2.0,1.0,1.0,33.8,34.0,34.0,2.2,3.8,2.6675,0.3239003624582233,-0.03733890117299241,0.9251166538913789,-0.002129537728822259,-0.173886,-28.542666
11.185,2.0,1.0,1.0,33.8,34.0,34.0,2.2,3.8,2.67,0.3128838394049268,-0.038091494628461536,0.9284919101525136,-0.0026404760499075075,-0.177317,-28.362621
11.185,2.0,1.0,1.0,33.8,34.0,34.0,2.2,3.8,2.6725,0.3017215288275362,-0.03886005514788041,0.9317593113870456,-0.0031764792332249804,-0.180857,-28.18101
11.185,2.0,1.0,1.0,33.8,34.0,34.0,2.2,3.8,2.675,0.29041181901325475,-0.03964491433097603,0.9349147299511993,-0.0037387786997060443,-0.184511,-27.997796
11.185,2.0,1.0,1.0,33.8,34.0,34.0,2.2,3.8,2.6775,0.27895310281241154,-0.04044640515906256,0.937953876480569,-0.004328675296148196,-0.188284,-27.812941
11.185,2.0,1.0,1.0,33.8,34.0,34.0,2.2,3.8,2.68,0.2673437800420054,-0.041264861136590336,0.9408722923557504,-0.004947543859563157,-0.192182,-27.626405
11.185,2.0,1.0,1.0,33.8,34.0,34.0,2.2,3.8,2.6825,0.2555822601264115,-0.04210061529813841,0.9436653417235302,-0.005596838128767374,-0.196209,-27.438149
11.185,2.0,1.0,1.0,33.8,34.0,34.0,2.2,3.8,2.685,0.24366696499919638,-0.0429539990627421,0.946328203040155,-0.006278096033259969,-0.200373,-27.24813
11.185,2.0,1.0,1.0,33.8,34.0,34.0,2.2,3.8,2.6875,0.231596332292819,-0.0438253409149551,0.948855860100118,-0.00699294539231898,-0.204679,-27.056304
11.185,2.0,1.0,1.0,33.8,34.0,34.0,2.2,3.8,2.69,0.21936881884622061,-0.04471496488919249,0.9512430925105498,-0.007743110060438495,-0.209134,-26.862627
11.185,2.0,1.0,1.0,33.8,34.0,34.0,2.2,3.8,2.6925,0.2069829045639344,-0.045623188830628866,0.9534844655675767,-0.00853041655875223,-0.213747,-26.667052
11.185,2.0,1.0,1.0,33.8,34.0,34.0,2.2,3.8,2.695,0.19443709666457473,-0.046550322402160726,0.9555743194868906,-0.009356801235978079,-0.218523,-26.469532
11.185,2.0,1.0,1.0,33.8,34.0,34.0,2.2,3.8,2.6975,0.1817299343612635,-0.04749666480262245,0.9575067579362647,-0.010224318006722827,-0.223473,-26.270015
11.185,2.0,1.0,1.0,33.8,34.0,34.0,2.2,3.8,2.7,0.16885999402209373,-0.04846250215645877,0.9592756358127108,-0.011135146719735237,-0.228604,-26.068452
11.185,2.0,1.0,1.0,33.8,34.0,34.0,2.2,3.8,2.7025,0.1558258948649101,-0.049448104529318714,0.9608745462014656,-0.01209160221395348,-0.233925,-25.864786
11.185,2.0,1.0,1.0,33.8,34.0,34.0,2.2,3.8,2.705,0.14262630524794048,-0.05045372251740238,0.9622968064478618,-0.013096144125995749,-0.239448,-25.658964
11.185,2.0,1.0,1.0,33.8,34.0,34.0,2.2,3.8,2.7075,0.12925994962602738,-0.05147958335073024,0.9635354432663967,-0.01415138751916575,-0.245182,-25.450928
11.185,2.0,1.0,1.0,33.8,34.0,34.0,2.2,3.8,2.71,0.11572561625178236,-0.05252588644163128,0.9645831768038365,-0.015260114411131155,-0.25114,-25.240617
11.185,2.0,1.0,1.0,33.8,34.0,34.0,2.2,3.8,2.7125,0.10202216571194242,-0.05359279829946353,0.9654324035649663,-0.016425286285268292,-0.257333,-25.027969
11.185,2.0,1.0,1.0,33.8,34.0,34.0,2.2,3.8,2.715,0.08814854040195726,-0.054680446720641616,0.9660751781005021,-0.017650057679306285,-0.263774,-24.812919
11.185,2.0,1.0,1.0,33.8,34.0,34.0,2.2,3.8,2.7175,0.07410377505654529,-0.05578891414917068,0.9665031933466371,-0.01893779095443637,-0.270478,-24.5954
11.185,2.0,1.0,1.0,33.8,34.0,34.0,2.2,3.8,2.72,0.05988700847107485,-0.05691823008672906,0.9667077594946765,-0.020292072358545854,-0.277461,-24.375343
11.185,2.0,1.0,1.0,33.8,34.0,34.0,2.2,3.8,2.7225,0.04549749656843488,-0.05806836241251236,0.9666797812570432,-0.02171672950878309,-0.284738,-24.152673
11.185,2.0,1.0,1.0,33.8,34.0,34.0,2.2,3.8,2.725,0.03093462698927822,-0.05923920745105387,0.9664097333826106,-0.02321585043132098,-0.292326,-23.927317
11.185,2.0,1.0,1.0,33.8,34.0,34.0,2.2,3.8,2.7275,0.016197935410403274,-0.060430578600530166,0.9658876342597077,-0.024793804310064567,-0.300247,-23.699193
11.185,2.0,1.0,1.0,33.8,34.0,34.0,2.2,3.8,2.73,0.001287123827636169,-0.06164219330393385,0.9651030174291845,-0.026455264111175564,-0.308519,-23.468221
11.185,2.0,1.0,1.0,33.8,34.0,34.0,2.2,3.8,2.7325,-0.013797918923591234,-0.06287365811017652,0.964044900812575,-0.028205231266745533,-0.317165,-23.234315
11.185,2.0,1.0,1.0,33.8,34.0,34.0,2.2,3.8,2.735,-0.029057094093466174,-0.06412445153067552,0.9627017534415958,-0.03004906261873909,-0.32621,-22.997385
11.185,2.0,1.0,1.0,33.8,34.0,34.0,2.2,3.8,2.7375,-0.04449006702156852,-0.0653939043481481,0.9610614594550064,-0.031992499843455285,-0.33568,-22.757337
11.185,2.0,1.0,1.0,33.8,34.0,34.0,2.2,3.8,2.74,-0.06009623779213517,-0.06668117697677788,0.9591112791072669,-0.03404170159712505,-0.345603,-22.514076
11.185,2.0,1.0,1.0,33.8,34.0,34.0,2.2,3.8,2.7425,-0.07587470804334717,-0.06798523340498838,0.9568378065106161,-0.036203278644749405,-0.35601,-22.267499
11.185,2.0,1.0,1.0,33.8,34.0,34.0,2.2,3.8,2.745,-0.09182424335001109,-0.06930481117173953,0.9542269238084303,-0.03848433225659255,-0.366936,-22.0175
11.185,2.0,1.0,1.0,33.8,34.0,34.0,2.2,3.8,2.7475,-0.10794323050067232,-0.0706383867321672,0.951263751453418,-0.04089249617946343,-0.378417,-21.763968
11.185,2.0,1.0,1.0,33.8,34.0,34.0,2.2,3.8,2.75,-0.124229628873772,-0.0719841354556104,0.947932594239987,-0.0434359825123924,-0.390494,-21.506789
11.185,2.0,1.0,1.0,33.8,34.0,34.0,2.2,3.8,2.7525,-0.1406809149792798,-0.0733398853651343,0.9442168827170183,-0.04612363183757754,-0.403212,-21.24584
11.185,2.0,1.0,1.0,33.8,34.0,34.0,2.2,3.8,2.755,-0.15729401906810778,-0.07470306356835599,0.9400991095865577,-0.04896496797616206,-0.416618,-20.980997
11.185,2.0,1.0,1.0,33.8,34.0,34.0,2.2,3.8,2.7575,-0.17406525251635435,-0.07607063413965606,0.9355607606776492,-0.051970257752587554,-0.430767,-20.712126
11.185,2.0,1.0,1.0,33.8,34.0,34.0,2.2,3.8,2.76,-0.19099022445866093,-0.07743902598759186,0.9305822400753595,-0.05515057615819219,-0.445718,-20.43909
11.185,2.0,1.0,1.0,33.8,34.0,34.0,2.2,3.8,2.7625,-0.20806374586746004,-0.07880404897118484,0.9251427889867604,-0.058517877300700814,-0.461535,-20.161744
11.185,2.0,1.0,1.0,33.8,34.0,34.0,2.2,3.8,2.765,-0.22527971894331053,-0.08016079620585574,0.919220397943511,-0.0620850715060531,-0.478291,-19.879938
11.185,2.0,1.0,1.0,33.8,34.0,34.0,2.2,3.8,2.7675,-0.24263100928521042,-0.08150353011351144,0.9127917119818041,-0.06586610889562355,-0.496067,-19.593514
11.185,2.0,1.0,1.0,33.8,34.0,34.0,2.2,3.8,2.77,-0.260109297835722,-0.08282554930888868,0.905831928514563,-0.0698760696856545,-0.514949,-19.302307
11.185,2.0,1.0,1.0,33.8,34.0,34.0,2.2,3.8,2.7725,-0.27770490902829326,-0.08411903286051364,0.8983146877312271,-0.07413126133354565,-0.535039,-19.006144
11.185,2.0,1.0,1.0,33.8,34.0,34.0,2.2,3.8,2.775,-0.295406610885064,-0.08537485780147562,0.8902119555451015,-0.0786493224697924,-0.556445,-18.704847
11.185,2.0,1.0,1.0,33.8,34.0,34.0,2.2,3.8,2.7775,-0.3132013820009036,-0.08658238497132548,0.8814938993815478,-0.08344933328078383,-0.579291,-18.398227
11.185,2.0,1.0,1.0,33.8,34.0,34.0,2.2,3.8,2.78,-0.33107413937808944,-0.08772920732092974,0.8721287574951766,-0.0885519316138692,-0.603716,-18.086088
11.185,2.0,1.0,1.0,33.8,34.0,34.0,2.2,3.8,2.7825,-0.3490074199167641,-0.08880085367842733,0.8620827030651136,-0.09397943351817271,-0.629875,-17.768228
11.185,2.0,1.0,1.0,33.8,34.0,34.0,2.2,3.8,2.785,-0.36698100698643915,-0.08978043962431616,0.8513197051044638,-0.09975595615342675,-0.657944,-17.444434
11.185,2.0,1.0,1.0,33.8,34.0,34.0,2.2,3.8,2.7875,-0.3849714918670513,-0.0906482555218916,0.83980138931423,-0.10590753991473784,-0.68812,-17.114487
11.185,2.0,1.0,1.0,33.8,34.0,34.0,2.2,3.8,2.79,-0.40295175791766813,-0.0913812798591364,0.8274869035219042,-0.1124622651264601,-0.720629,-16.778159
11.185,2.0,1.0,1.0,33.8,34.0,34.0,2.2,3.8,2.7925,-0.4208903730707083,-0.09195260384474156,0.8143327944173074,-0.11945035660889439,-0.755726,-16.435215
11.185,2.0,1.0,1.0,33.8,34.0,34.0,2.2,3.8,2.795,-0.4387508736318451,-0.09233075063661876,0.8002929051287745,-0.12690426662416385,-0.793701,-16.085416
11.185,2.0,1.0,1.0,33.8,34.0,34.0,2.2,3.8,2.7975,-0.4564909193792508,-0.09247886965543287,0.7853183070339507,-0.13485872290387685,-0.834888,-15.728513
11.185,2.0,1.0,1.0,33.8,34.0,34.0,2.2,3.8,2.8,-0.4740612966238481,-0.09235378317085373,0.7693572844195298,-0.1433507233075,-0.879668,-15.364257
11.185,2.0,1.0,1.0,33.8,34.0,34.0,2.2,3.8,2.8025,-0.49140474229697617,-0.0919048588259772,0.7523553976549334,-0.15241945170179588,-0.928482,-14.992396
11.185,2.0,1.0,1.0,33.8,34.0,34.0,2.2,3.8,2.805,-0.5084545584586082,-0.09107267816773754,0.7342556600312702,-0.1621060802916174,-0.981836,-14.612678
11.185,2.0,1.0,1.0,33.8,34.0,34.0,2.2,3.8,2.8075,-0.5251329832201135,-0.08978746792514351,0.714998876124017,-0.1724534110965745,-1.040319,-14.224856
11.185,2.0,1.0,1.0,33.8,34.0,34.0,2.2,3.8,2.81,-0.5413492815715992,-0.0879672583343781,0.6945242064679878,-0.18350529256838014,-1.104614,-13.828693
11.185,2.0,1.0,1.0,33.8,34.0,34.0,2.2,3.8,2.8125,-0.556997519037747,-0.0855157322772575,0.672770045735001,-0.195305725248107,-1.175519,-13.423967
11.185,2.0,1.0,1.0,33.8,34.0,34.0,2.2,3.8,2.815,-0.5719539841512608,-0.08231973204496386,0.6496753309796145,-0.20789754138978928,-1.253968,-13.01048
11.185,2.0,1.0,1.0,33.8,34.0,34.0,2.2,3.8,2.8175,-0.5860742351064608,-0.07824639979979515,0.6251814345684091,-0.2213205059463005,-1.341059,-12.588069
11.185,2.0,1.0,1.0,33.8,34.0,34.0,2.2,3.8,2.82,-0.5991897657734943,-0.0731399473585845,0.5992348448664694,-0.23560863851287053,-1.438086,-12.156618
11.185,2.0,1.0,1.0,33.8,34.0,34.0,2.2,3.8,2.8225,-0.611104322758294,-0.06681808691357574,0.5717908979901145,-0.2507864963960268,-1.54658,-11.716074
11.185,2.0,1.0,1.0,33.8,34.0,34.0,2.2,3.8,2.825,-0.6215899675684604,-0.05906821579041267,0.5428188961569518,-0.26686408770394326,-1.66836,-11.266474
11.185,2.0,1.0,1.0,33.8,34.0,34.0,2.2,3.8,2.8275,-0.630383079281531,-0.04964354822276106,0.5123090299369547,-0.28383000262205066,-1.805591,-10.807966
