1,w,sub_t,h,l1,l2,l3,g1,g2,Freq,S11_re,S21_re,S11_img,S21_img,S11_dB,S21_dB
11.185,2.0,1.0,1.0,34.2,33.7,33.7,1.7,4.2,2.5,0.743332062994273,-0.012889221280059,0.655954219214517,0.00685915525451989,-0.075267,-36.712535
11.185,2.0,1.0,1.0,34.2,33.7,33.7,1.7,4.2,2.5025,0.7379554437678503,-0.013130496190171339,0.6618535996524476,0.006839509758553527,-0.076107,-36.591816
11.185,2.0,1.0,1.0,34.2,33.7,33.7,1.7,4.2,2.505,0.7325007812597136,-0.013375799829217517,0.6677406025450897,0.00681720343783428,-0.076962,-36.470725
11.185,2.0,1.0,1.0,34.2,33.7,33.7,1.7,4.2,2.5075,0.7269672148630029,-0.013625198553094521,0.6736145265605674,0.006792137675687944,-0.077833,-36.349256
11.185,2.0,1.0,1.0,34.2,33.7,33.7,1.7,4.2,2.51,0.7213538730059039,-0.013878759630514048,0.6794746485982037,0.006764210373028479,-0.078721,-36.227402
11.185,2.0,1.0,1.0,34.2,33.7,33.7,1.7,4.2,2.5125,0.7156598731237122,-0.014136551236581084,0.6853202231050344,0.006733315819317613,-0.079624,-36.105156
11.185,2.0,1.0,1.0,34.2,33.7,33.7,1.7,4.2,2.515,0.7098843216388984,-0.014398642444625612,0.6911504813709222,0.006699344558484615,-0.080545,-35.982513
11.185,2.0,1.0,1.0,34.2,33.7,33.7,1.7,4.2,2.5175,0.7040263139497742,-0.014665103216147134,0.6969646308015823,0.006662183249601255,-0.081483,-35.859464
11.185,2.0,1.0,1.0,34.2,33.7,33.7,1.7,4.2,2.52,0.6980849344283702,-0.01493600438872309,0.7027618541688802,0.00662171452209737,-0.082439,-35.736004
11.185,2.0,1.0,1.0,34.2,33.7,33.7,1.7,4.2,2.5225,0.6920592564282069,-0.01521141766172049,0.7085413088376532,0.006577816825295317,-0.083413,-35.612126
11.185,2.0,1.0,1.0,34.2,33.7,33.7,1.7,4.2,2.525,0.6859483423026378,-0.015491415579641265,0.7143021259683924,0.006530364272030437,-0.084405,-35.487823
11.185,2.0,1.0,1.0,34.2,33.7,33.7,1.7,4.2,2.5275,0.6797512434345079,-0.015776071512918353,0.720043409695009,0.006479226476116183,-0.085417,-35.363088
11.185,2.0,1.0,1.0,34.2,33.7,33.7,1.7,4.2,2.53,0.6734670002779178,-0.01606545963596766,0.725764236276953,0.0064242683834021454,-0.086448,-35.237914
11.185,2.0,1.0,1.0,34.2,33.7,33.7,1.7,4.2,2.5325,0.667094642412907,-0.01635965490228815,0.7314636532248925,0.006365350096163206,-0.087498,-35.112294
11.185,2.0,1.0,1.0,34.2,33.7,33.7,1.7,4.2,2.535,0.660633188613931,-0.0166587330163878,0.7371406783991827,0.006302326690545885,-0.08857,-34.98622
11.185,2.0,1.0,1.0,34.2,33.7,33.7,1.7,4.2,2.5375,0.6540816469330585,-0.01696277040229769,0.7427942990802736,0.006235048026788339,-0.089662,-34.859687
11.185,2.0,1.0,1.0,34.2,33.7,33.7,1.7,4.2,2.54,0.6474390147988621,-0.017271844168420907,0.7484234710102575,0.006163358551917891,-0.090776,-34.732685
11.185,2.0,1.0,1.0,34.2,33.7,33.7,1.7,4.2,2.5425,0.6407042791320173,-0.01758603206844573,0.7540271174046757,0.006087097094616958,-0.091912,-34.605208
11.185,2.0,1.0,1.0,34.2,33.7,33.7,1.7,4.2,2.545,0.6338764164787124,-0.017905412458033326,0.7596041279337153,0.00600609665193737,-0.09307,-34.477249
11.185,2.0,1.0,1.0,34.2,33.7,33.7,1.7,4.2,2.5475,0.626954393163015,-0.01823006424697113,0.7651533576718984,0.005920184167528169,-0.094252,-34.3488
11.185,2.0,1.0,1.0,34.2,33.7,33.7,1.7,4.2,2.55,0.6199371654593869,-0.018560066846463066,0.7706736260153493,0.005829180301028829,-0.095457,-34.219853
11.185,2.0,1.0,1.0,34.2,33.7,33.7,1.7,4.2,2.5525,0.6128236797866556,-0.018895500111202237,0.7761637155656834,0.005732899188266469,-0.096687,-34.0904
11.185,2.0,1.0,1.0,34.2,33.7,33.7,1.7,4.2,2.555,0.6056128729247742,-0.019236444275852,0.7816223709795834,0.005631148191879028,-0.097942,-33.960434
11.185,2.0,1.0,1.0,34.2,33.7,33.7,1.7,4.2,2.5575,0.5983036722557873,-0.019582979885532207,0.7870482977830613,0.005523727641972573,-0.099222,-33.829948
11.185,2.0,1.0,1.0,34.2,33.7,33.7,1.7,4.2,2.56,0.5908949960305366,-0.019935187719881772,0.7924401611494144,0.005410430566404389,-0.100529,-33.698932
11.185,2.0,1.0,1.0,34.2,33.7,33.7,1.7,4.2,2.5625,0.5833857536626629,-0.02029314871023937,0.7977965846398546,0.005291042410266875,-0.101862,-33.567378
11.185,2.0,1.0,1.0,34.2,33.7,33.7,1.7,4.2,2.565,0.5757748460515992,-0.02065694384945253,0.8031161489057692,0.005165340744130166,-0.103223,-33.43528
11.185,2.0,1.0,1.0,34.2,33.7,33.7,1.7,4.2,2.5675,0.568061165936316,-0.021026654093791713,0.8083973903515496,0.005033094960583964,-0.104613,-33.302628
11.185,2.0,1.0,1.0,34.2,33.7,33.7,1.7,4.2,2.57,0.5602435982816929,-0.02140236025641161,0.8136387997569169,0.004894065958600137,-0.106031,-33.169413
11.185,2.0,1.0,1.0,34.2,33.7,33.7,1.7,4.2,2.5725,0.5523210206994669,-0.021784142891762025,0.8188388208576453,0.004748005815219192,-0.10748,-33.035628
11.185,2.0,1.0,1.0,34.2,33.7,33.7,1.7,4.2,2.575,0.5442923039058591,-0.02217208217031154,0.8239958488835674,0.004594657444043326,-0.108959,-32.901264
11.185,2.0,1.0,1.0,34.2,33.7,33.7,1.7,4.2,2.5775,0.5361563122180482,-0.02256625774290225,0.829108229052736,0.004433754239999136,-0.11047,-32.766312
11.185,2.0,1.0,1.0,34.2,33.7,33.7,1.7,4.2,2.58,0.52791190409182,-0.022966748594007987,0.8341742550205924,0.004265019709811455,-0.112014,-32.630763
11.185,2.0,1.0,1.0,34.2,33.7,33.7,1.7,4.2,2.5825,0.5195579327028179,-0.02337363288311836,0.8391921672829878,0.00408816708760827,-0.11359,-32.494609
11.185,2.0,1.0,1.0,34.2,33.7,33.7,1.7,4.2,2.585,0.5110932465739746,-0.02378698777341764,0.8441601515318832,0.0039028989350543067,-0.115201,-32.357839
11.185,2.0,1.0,1.0,34.2,33.7,33.7,1.7,4.2,2.5875,0.502516690251827,-0.024206889246870075,0.8490763369625475,0.0037089067253871138,-0.116847,-32.220446
11.185,2.0,1.0,1.0,34.2,33.7,33.7,1.7,4.2,2.59,0.4938271050345881,-0.02463341190476194,0.8539387945310556,0.003505870410707392,-0.118529,-32.082419
11.185,2.0,1.0,1.0,34.2,33.7,33.7,1.7,4.2,2.5925,0.4850233297549727,-0.025066628752686372,0.8587455351609014,0.003293457971848006,-0.120249,-31.94375
11.185,2.0,1.0,1.0,34.2,33.7,33.7,1.7,4.2,2.595,0.4761042016209838,-0.025506610968884083,0.8634945078974976,0.003071324950123879,-0.122006,-31.804427
11.185,2.0,1.0,1.0,34.2,33.7,33.7,1.7,4.2,2.5975,0.4670685571179823,-0.025953427654781525,0.8681835980093825,0.0028391139602371605,-0.123803,-31.664443
11.185,2.0,1.0,1.0,34.2,33.7,33.7,1.7,4.2,2.6,0.4579152329755988,-0.02640714556648473,0.8728106250349074,0.0025964541835856963,-0.12564,-31.523787
11.185,2.0,1.0,1.0,34.2,33.7,33.7,1.7,4.2,2.6025,0.4486430672032087,-0.026867828825901108,0.8773733407732012,0.002342960841197478,-0.127519,-31.382448
11.185,2.0,1.0,1.0,34.2,33.7,33.7,1.7,4.2,2.605,0.4392509001978964,-0.027335538610070768,0.8818694272182276,0.0020782346454831457,-0.12944,-31.240417
11.185,2.0,1.0,1.0,34.2,33.7,33.7,1.7,4.2,2.6075,0.4297375759290574,-0.02781033281718731,0.8862964944347282,0.0018018612299726662,-0.131406,-31.097683
11.185,2.0,1.0,1.0,34.2,33.7,33.7,1.7,4.2,2.61,0.4201019432040174,-0.028292265707682687,0.8906520783748901,0.001513410556173026,-0.133417,-30.954236
11.185,2.0,1.0,1.0,34.2,33.7,33.7,1.7,4.2,2.6125,0.41034285701925344,-0.028781387518636965,0.8949336386345723,0.0012124362966532737,-0.135474,-30.810065
11.185,2.0,1.0,1.0,34.2,33.7,33.7,1.7,4.2,2.615,0.40045918000209374,-0.029277744049650167,0.8991385561479681,0.0008984751934352077,-0.137579,-30.66516
11.185,2.0,1.0,1.0,34.2,33.7,33.7,1.7,4.2,2.6175,0.39044978394800695,-0.02978137621818232,0.9032641308195831,0.0005710463907373289,-0.139734,-30.519508
11.185,2.0,1.0,1.0,34.2,33.7,33.7,1.7,4.2,2.62,0.3803135514588864,-0.030292319582226137,0.9073075790924748,0.00022965074108935928,-0.14194,-30.3731
11.185,2.0,1.0,1.0,34.2,33.7,33.7,1.7,4.2,2.6225,0.37004937768801066,-0.03081060382802548,0.9112660314517056,-0.00012622991619525852,-0.144198,-30.225923
11.185,2.0,1.0,1.0,34.2,33.7,33.7,1.7,4.2,2.625,0.359656172197702,-0.0313362522203882,0.915136529862042,-0.000497133505231331,-0.14651,-30.077966
11.185,2.0,1.0,1.0,34.2,33.7,33.7,1.7,4.2,2.6275,0.3491328609359892,-0.031869281012968154,0.9189160251389554,-0.000883618493531756,-0.148878,-29.929217
11.185,2.0,1.0,1.0,34.2,33.7,33.7,1.7,4.2,2.63,0.33847838833895677,-0.03240969881570082,0.9226013742520749,-0.0012862647028373138,-0.151304,-29.779665
11.185,2.0,1.0,1.0,34.2,33.7,33.7,1.7,4.2,2.6325,0.327691719565826,-0.03295750591637469,0.9261893375602814,-0.0017056741519377904,-0.153788,-29.629296
11.185,2.0,1.0,1.0,34.2,33.7,33.7,1.7,4.2,2.635,0.3167718428741696,-0.03351269355310166,0.9296765759777497,-0.002142471932643922,-0.156334,-29.4781
11.185,2.0,1.0,1.0,34.2,33.7,33.7,1.7,4.2,2.6375,0.3057177721431146,-0.0340752431342139,0.9330596480702958,-0.0025973071200962915,-0.158943,-29.326062
11.185,2.0,1.0,1.0,34.2,33.7,33.7,1.7,4.2,2.64,0.2945285495527441,-0.03464512540186222,0.9363350070815377,-0.0030708537186241182,-0.161617,-29.17317
11.185,2.0,1.0,1.0,34.2,33.7,33.7,1.7,4.2,2.6425,0.28320324842846323,-0.03522229953531533,0.9394989978884466,-0.0035638116443885144,-0.164358,-29.019411
11.185,2.0,1.0,1.0,34.2,33.7,33.7,1.7,4.2,2.645,0.2717409762594588,-0.035806712189667196,0.9425478538860378,-0.004076907746067932,-0.167168,-28.864772
11.185,2.0,1.0,1.0,34.2,33.7,33.7,1.7,4.2,2.6475,0.2601408779009954,-0.03639829646533889,0.9454776938010615,-0.0046108968648614105,-0.170049,-28.709239
11.185,2.0,1.0,1.0,34.2,33.7,33.7,1.7,4.2,2.65,0.24840213897072153,-0.03699697080342137,0.9482845184347293,-0.005166562935101244,-0.173005,-28.552797
11.185,2.0,1.0,1.0,34.2,33.7,33.7,1.7,4.2,2.6525,0.23652398944985883,-0.03760263780153043,0.9509642073347073,-0.005744720126776209,-0.176037,-28.395434
11.185,2.0,1.0,1.0,34.2,33.7,33.7,1.7,4.2,2.655,0.22450570750058407,-0.038215182944449574,0.9535125153967475,-0.006346214031276036,-0.179148,-28.237135
11.185,2.0,1.0,1.0,34.2,33.7,33.7,1.7,4.2,2.6575,0.21234662351171635,-0.03883447324339919,0.9559250693966279,-0.0069719228916660225,-0.18234,-28.077884
11.185,2.0,1.0,1.0,34.2,33.7,33.7,1.7,4.2,2.66,0.20004612438535557,-0.039460355777304834,0.9581973644532358,-0.0076227588787973685,-0.185617,-27.917667
11.185,2.0,1.0,1.0,34.2,33.7,33.7,1.7,4.2,2.6625,0.18760365807795726,-0.04009265612892871,0.9603247604239359,-0.008299669414543132,-0.188981,-27.756468
11.185,2.0,1.0,1.0,34.2,33.7,33.7,1.7,4.2,2.665,0.17501873840998253,-0.040731176708181265,0.9623024782336437,-0.00900363854343097,-0.192435,-27.594272
11.185,2.0,1.0,1.0,34.2,33.7,33.7,1.7,4.2,2.6675,0.16229095015916228,-0.041375694954332284,0.9641255961393466,-0.009735688353906731,-0.195982,-27.431063
11.185,2.0,1.0,1.0,34.2,33.7,33.7,1.7,4.2,2.67,0.14941995445320802,-0.04202596140819901,0.9657890459321519,-0.010496880450422586,-0.199626,-27.266825
11.185,2.0,1.0,1.0,34.2,33.7,33.7,1.7,4.2,2.6725,0.13640549447874756,-0.04268169764468693,0.9672876090793476,-0.01128831747748125,-0.20337,-27.10154
11.185,2.0,1.0,1.0,34.2,33.7,33.7,1.7,4.2,2.675,0.12324740152427492,-0.04334259405529917,0.9686159128093691,-0.012111144696693861,-0.207218,-26.935192
11.185,2.0,1.0,1.0,34.2,33.7,33.7,1.7,4.2,2.6775,0.1099456013758435,-0.044008307469406344,0.9697684261430234,-0.012966551617815118,-0.211173,-26.767763
11.185,2.0,1.0,1.0,34.2,33.7,33.7,1.7,4.2,2.68,0.09650012108548917,-0.04467845860217004,0.9707394558748543,-0.013855773684602559,-0.21524,-26.599235
11.185,2.0,1.0,1.0,34.2,33.7,33.7,1.7,4.2,2.6825,0.08291109613341849,-0.045352629316037306,0.9715231425090517,-0.014780094016206101,-0.219421,-26.42959
11.185,2.0,1.0,1.0,34.2,33.7,33.7,1.7,4.2,2.685,0.06917877800636425,-0.04603035968166113,0.9721134561549413,-0.015740845204623655,-0.223723,-26.25881
11.185,2.0,1.0,1.0,34.2,33.7,33.7,1.7,4.2,2.6875,0.0553035422158595,-0.046711144822944,0.972504192387786,-0.0167394111685547,-0.228148,-26.086874
11.185,2.0,1.0,1.0,34.2,33.7,33.7,1.7,4.2,2.69,0.0412858967815948,-0.04739443152963694,0.972688968081281,-0.01777722906373979,-0.232703,-25.913765
11.185,2.0,1.0,1.0,34.2,33.7,33.7,1.7,4.2,2.6925,0.02712649120666552,-0.04807961461955343,0.9726612172190365,-0.018855791249589277,-0.237391,-25.73946
11.185,2.0,1.0,1.0,34.2,33.7,33.7,1.7,4.2,2.695,0.012826125973170902,-0.04876603303094776,0.9724141866931454,-0.019976647311560715,-0.242219,-25.56394
11.185,2.0,1.0,1.0,34.2,33.7,33.7,1.7,4.2,2.6975,-0.0016142374115549077,-0.049452965623969274,0.9719409320989529,-0.021141406138351696,-0.247191,-25.387184
11.185,2.0,1.0,1.0,34.2,33.7,33.7,1.7,4.2,2.7,-0.016193465785795055,-0.05013962666830097,0.9712343135361902,-0.022351738052500614,-0.252313,-25.209169
11.185,2.0,1.0,1.0,34.2,33.7,33.7,1.7,4.2,2.7025,-0.03091024308702036,-0.050825160992128124,0.9702869914278532,-0.023609376992446685,-0.257591,-25.029874
11.185,2.0,1.0,1.0,34.2,33.7,33.7,1.7,4.2,2.705,-0.045763058451469614,-0.05150863876542335,0.9690914223694488,-0.02491612274345635,-0.263031,-24.849276
11.185,2.0,1.0,1.0,34.2,33.7,33.7,1.7,4.2,2.7075,-0.06075019362056716,-0.052189049888175715,0.9676398550227598,-0.026273843214082757,-0.268641,-24.66735
11.185,2.0,1.0,1.0,34.2,33.7,33.7,1.7,4.2,2.71,-0.0758697096122731,-0.05286529795159612,0.9659243260697871,-0.02768447675395122,-0.274426,-24.484073
11.185,2.0,1.0,1.0,34.2,33.7,33.7,1.7,4.2,2.7125,-0.09111943261252808,-0.05353619373748927,0.9639366562443482,-0.0291500345076591,-0.280396,-24.29942
11.185,2.0,1.0,1.0,34.2,33.7,33.7,1.7,4.2,2.715,-0.10649693903875498,-0.054200448217853046,0.961668446460792,-0.030672602798398403,-0.286556,-24.113365
11.185,2.0,1.0,1.0,34.2,33.7,33.7,1.7,4.2,2.7175,-0.12199953972385724,-0.05485666501333042,0.9591110740614007,-0.03225434553354494,-0.292915,-23.925882
11.185,2.0,1.0,1.0,34.2,33.7,33.7,1.7,4.2,2.72,-0.13762426316533974,-0.05550333226535418,0.9562556892066045,-0.033897506622868646,-0.299483,-23.736945
11.185,2.0,1.0,1.0,34.2,33.7,33.7,1.7,4.2,2.7225,-0.1533678377800259,-0.05613881387266211,0.953093211434733,-0.03560441239817677,-0.306268,-23.546524
11.185,2.0,1.0,1.0,34.2,33.7,33.7,1.7,4.2,2.725,-0.169226673100198,-0.056761340038265704,0.9496143264212341,-0.03737747402104904,-0.313279,-23.354591
11.185,2.0,1.0,1.0,34.2,33.7,33.7,1.7,4.2,2.7275,-0.18519683984202817,-0.05736899706789849,0.9458094829705675,-0.03921918986284127,-0.320528,-23.161116
11.185,2.0,1.0,1.0,34.2,33.7,33.7,1.7,4.2,2.73,-0.20127404877158026,-0.05795971635538234,0.9416688902779965,-0.04113214783822236,-0.328024,-22.96607
11.185,2.0,1.0,1.0,34.2,33.7,33.7,1.7,4.2,2.7325,-0.2174536282876459,-0.05853126248418599,0.9371825155027661,-0.04311902767014884,-0.33578,-22.769419
11.185,2.0,1.0,1.0,34.2,33.7,33.7,1.7,4.2,2.735,-0.23373050063388986,-0.05908122036763936,0.9323400816991699,-0.0451826030602479,-0.343807,-22.571133
11.185,2.0,1.0,1.0,34.2,33.7,33.7,1.7,4.2,2.7375,-0.2500991566455102,-0.05960698134274195,0.9271310661575543,-0.04732574373401897,-0.352118,-22.371176
11.185,2.0,1.0,1.0,34.2,33.7,33.7,1.7,4.2,2.74,-0.26655362892733,-0.060105728124181225,0.9215446992138046,-0.0495514173249363,-0.360727,-22.169515
11.185,2.0,1.0,1.0,34.2,33.7,33.7,1.7,4.2,2.7425,-0.28308746335134044,-0.06057441851597788,0.9155699635930259,-0.0518626910553384,-0.369649,-21.966113
11.185,2.0,1.0,1.0,34.2,33.7,33.7,1.7,4.2,2.745,-0.299693688751683,-0.06100976776799279,0.9091955943615289,-0.05426273316474787,-0.378898,-21.760933
11.185,2.0,1.0,1.0,34.2,33.7,33.7,1.7,4.2,2.7475,-0.31636478468399787,-0.061408229453271665,0.9024100795708813,-0.056754814027822675,-0.388492,-21.553936
11.185,2.0,1.0,1.0,34.2,33.7,33.7,1.7,4.2,2.75,-0.333092647103961,-0.0617659747297421,0.89520166168859,-0.0593423068942689,-0.398448,-21.345084
11.185,2.0,1.0,1.0,34.2,33.7,33.7,1.7,4.2,2.7525,-0.34986855180619053,-0.06207886983599842,0.8875583399228698,-0.06202868817150707,-0.408785,-21.134335
11.185,2.0,1.0,1.0,34.2,33.7,33.7,1.7,4.2,2.755,-0.366683115449749,-0.06234245165566452,0.8794678735634865,-0.06481753715737265,-0.419523,-20.921645
11.185,2.0,1.0,1.0,34.2,33.7,33.7,1.7,4.2,2.7575,-0.3835262539799347,-0.06255190116798334,0.8709177864776776,-0.0677125351143258,-0.430683,-20.706972
11.185,2.0,1.0,1.0,34.2,33.7,33.7,1.7,4.2,2.76,-0.40038713823761246,-0.06270201458366842,0.8618953729198743,-0.07071746355807815,-0.442288,-20.490269
11.185,2.0,1.0,1.0,34.2,33.7,33.7,1.7,4.2,2.7625,-0.4172541465270339,-0.06278717194452509,0.8523877048368663,-0.07383620161179788,-0.454363,-20.271488
11.185,2.0,1.0,1.0,34.2,33.7,33.7,1.7,4.2,2.765,-0.4341148138906722,-0.06280130294271756,0.8423816408768124,-0.07707272225147156,-0.466934,-20.050581
11.185,2.0,1.0,1.0,34.2,33.7,33.7,1.7,4.2,2.7675,-0.4509557778147463,-0.0627378496906679,0.8318638373417165,-0.08043108723794676,-0.48003,-19.827497
11.185,2.0,1.0,1.0,34.2,33.7,33.7,1.7,4.2,2.77,-0.4677627200619043,-0.06258972614524164,0.8208207613596283,-0.0839154404958026,-0.493681,-19.602182
11.185,2.0,1.0,1.0,34.2,33.7,33.7,1.7,4.2,2.7725,-0.48452030429748383,-0.062349273859956776,0.809238706595564,-0.0875299996575139,-0.507919,-19.374581
11.185,2.0,1.0,1.0,34.2,33.7,33.7,1.7,4.2,2.775,-0.5012121091429071,-0.06200821370630762,0.7971038118707623,-0.0912790454422404,-0.522781,-19.144639
11.185,2.0,1.0,1.0,34.2,33.7,33.7,1.7,4.2,2.7775,-0.51782055625408,-0.06155759316982538,0.7844020831188557,-0.09516690848057714,-0.538304,-18.912295
11.185,2.0,1.0,1.0,34.2,33.7,33.7,1.7,4.2,2.78,-0.5343268329836133,-0.06098772878817496,0.7711194191776949,-0.09919795312810639,-0.55453,-18.677487
11.185,2.0,1.0,1.0,34.2,33.7,33.7,1.7,4.2,2.7825,-0.5507108091439029,-0.06028814325745597,0.7572416419976775,-0.10337655772959455,-0.571503,-18.440153
11.185,2.0,1.0,1.0,34.2,33.7,33.7,1.7,4.2,2.785,-0.5669509473433105,-0.05944749668911948,0.7427545319449858,-0.10770709069987876,-0.589272,-18.200227
11.185,2.0,1.0,1.0,34.2,33.7,33.7,1.7,4.2,2.7875,-0.5830242063201839,-0.0584535114539032,0.727643868993191,-0.11219388167400547,-0.607889,-17.957639
11.185,2.0,1.0,1.0,34.2,33.7,33.7,1.7,4.2,2.79,-0.598905936650221,-0.057292890001526924,0.7118954807329646,-0.11684118684476866,-0.627412,-17.712318
11.185,2.0,1.0,1.0,34.2,33.7,33.7,1.7,4.2,2.7925,-0.6145697681519662,-0.05595122499656143,0.6954952982913265,-0.12165314744637981,-0.647902,-17.46419
11.185,2.0,1.0,1.0,34.2,33.7,33.7,1.7,4.2,2.795,-0.6299874882652535,-0.054412901063314915,0.6784294214433226,-0.12663374015395082,-0.669428,-17.21318
11.185,2.0,1.0,1.0,34.2,33.7,33.7,1.7,4.2,2.7975,-0.645128910629147,-0.05266098738787161,0.6606841944263873,-0.13178671794405772,-0.692063,-16.959207
11.185,2.0,1.0,1.0,34.2,33.7,33.7,1.7,4.2,2.8,-0.6599617330434697,-0.05067712038650036,0.6422462942375885,-0.13711553969535556,-0.715889,-16.70219
11.185,2.0,1.0,1.0,34.2,33.7,33.7,1.7,4.2,2.8025,-0.6744513839642794,-0.04844137562065762,0.6231028335143279,-0.14262328649203193,-0.740994,-16.442044
11.185,2.0,1.0,1.0,34.2,33.7,33.7,1.7,4.2,2.805,-0.6885608566649953,-0.04593212812538031,0.6032414804795069,-0.1483125622176399,-0.767475,-16.178681
11.185,2.0,1.0,1.0,34.2,33.7,33.7,1.7,4.2,2.8075,-0.702250530198655,-0.043125900327706516,0.5826505988838017,-0.15418537558165485,-0.79544,-15.91201
11.185,2.0,1.0,1.0,34.2,33.7,33.7,1.7,4.2,2.81,-0.7154779763334268,-0.039997196775296916,0.5613194114131852,-0.1602430001932713,-0.825007,-15.641939
11.185,2.0,1.0,1.0,34.2,33.7,33.7,1.7,4.2,2.8125,-0.728197751716898,-0.0365183249866648,0.53923819066454,-0.166485808671855,-0.856305,-15.368372
11.185,2.0,1.0,1.0,34.2,33.7,33.7,1.7,4.2,2.815,-0.7403611746738781,-0.03265920189204321,0.5163984825429139,-0.17291307604437464,-0.889479,-15.091211
11.185,2.0,1.0,1.0,34.2,33.7,33.7,1.7,4.2,2.8175,-0.7519160862819914,-0.0283871455828304,0.49279336782047295,-0.1795227468080715,-0.924687,-14.810356
11.185,2.0,1.0,1.0,34.2,33.7,33.7,1.7,4.2,2.82,-0.7628065957326802,-0.023666652460695835,0.4684177686403823,-0.18631115901070386,-0.962108,-14.525704
11.185,2.0,1.0,1.0,34.2,33.7,33.7,1.7,4.2,2.8225,-0.7729728105161932,-0.018459160418239747,0.4432688079727696,-0.1932727174983548,-1.001936,-14.237153
11.185,2.0,1.0,1.0,34.2,33.7,33.7,1.7,4.2,2.825,-0.7823505527243948,-0.01272279944863394,0.41734623145756655,-0.2003995070787144,-1.044392,-13.944597
11.185,2.0,1.0,1.0,34.2,33.7,33.7,1.7,4.2,2.8275,-0.790871063821503,-0.006412132146495344,0.39065290272463843,-0.20768083472352417,-1.08972,-13.647934
