1,w,sub_t,h,l1,l2,l3,g1,g2,Freq,S11_re,S21_re,S11_img,S21_img,S11_dB,S21_dB
11.185,2.0,1.0,1.0,33.9,33.7,33.7,2.7,4.3,2.5,0.79673560814559,-0.00793429250413555,0.592303851633014,0.00441908173485727,-0.062942,-40.836446
11.185,2.0,1.0,1.0,33.9,33.7,33.7,2.7,4.3,2.5025,0.7923452704596124,-0.008078879824523797,0.5980464621260627,0.004412478384711583,-0.063563,-40.719204
11.185,2.0,1.0,1.0,33.9,33.7,33.7,2.7,4.3,2.505,0.7878917794570707,-0.008225760366597673,0.603782977633099,0.004404503522072568,-0.064195,-40.601674
11.185,2.0,1.0,1.0,33.9,33.7,33.7,2.7,4.3,2.5075,0.7833744935594634,-0.008374971898495436,0.6095129684939594,0.004395110186248488,-0.064837,-40.48385
11.185,2.0,1.0,1.0,33.9,33.7,33.7,2.7,4.3,2.51,0.7787927623750648,-0.008526552856298091,0.6152359923596057,0.004384249854036745,-0.06549,-40.365723
11.185,2.0,1.0,1.0,33.9,33.7,33.7,2.7,4.3,2.5125,0.7741459266175901,-0.008680542353704692,0.6209515938041664,0.004371872383095927,-0.066154,-40.247287
11.185,2.0,1.0,1.0,33.9,33.7,33.7,2.7,4.3,2.515,0.7694333180267805,-0.008836980191637119,0.6266593039250896,0.004357925953067767,-0.06683,-40.128535
11.185,2.0,1.0,1.0,33.9,33.7,33.7,2.7,4.3,2.5175,0.7646542592911256,-0.008995906867753827,0.6323586399310119,0.004342357004350508,-0.067518,-40.00946
11.185,2.0,1.0,1.0,33.9,33.7,33.7,2.7,4.3,2.52,0.7598080639729168,-0.009157363585851962,0.6380491047169815,0.004325110174419833,-0.068218,-39.890055
11.185,2.0,1.0,1.0,33.9,33.7,33.7,2.7,4.3,2.5225,0.754894036435877,-0.009321392265133437,0.6437301864266092,0.004306128231589106,-0.06893,-39.770313
11.185,2.0,1.0,1.0,33.9,33.7,33.7,2.7,4.3,2.525,0.7499114717755837,-0.009488035549310724,0.6494013580007584,0.004285352006094992,-0.069655,-39.650226
11.185,2.0,1.0,1.0,33.9,33.7,33.7,2.7,4.3,2.5275,0.7448596557529472,-0.009657336815524628,0.6550620767123387,0.004262720318388912,-0.070392,-39.529786
11.185,2.0,1.0,1.0,33.9,33.7,33.7,2.7,4.3,2.53,0.7397378647310098,-0.009829340183044481,0.6607117836867665,0.004238169904508903,-0.071143,-39.408987
11.185,2.0,1.0,1.0,33.9,33.7,33.7,2.7,4.3,2.5325,0.7345453656153451,-0.010004090521719147,0.6663499034076378,0.004211635338400093,-0.071907,-39.287821
11.185,2.0,1.0,1.0,33.9,33.7,33.7,2.7,4.3,2.535,0.7292814157983483,-0.01018163346014434,0.6719758432071538,0.004183048951045708,-0.072685,-39.16628
11.185,2.0,1.0,1.0,33.9,33.7,33.7,2.7,4.3,2.5375,0.7239452631077464,-0.010362015393508913,0.6775889927408073,0.004152340746262738,-0.073477,-39.044356
11.185,2.0,1.0,1.0,33.9,33.7,33.7,2.7,4.3,2.54,0.7185361457596459,-0.010545283491080255,0.6831887234458407,0.004119438313010158,-0.074284,-38.922042
11.185,2.0,1.0,1.0,33.9,33.7,33.7,2.7,4.3,2.5425,0.7130532923164734,-0.01073148570328543,0.6887743879829592,0.004084266734048565,-0.075105,-38.79933
11.185,2.0,1.0,1.0,33.9,33.7,33.7,2.7,4.3,2.545,0.7074959216501804,-0.010920670768341424,0.6943453196607747,0.004046748490782693,-0.075941,-38.676211
11.185,2.0,1.0,1.0,33.9,33.7,33.7,2.7,4.3,2.5475,0.7018632429111071,-0.011112888218384055,0.6999008318424199,0.004006803364109165,-0.076793,-38.552678
11.185,2.0,1.0,1.0,33.9,33.7,33.7,2.7,4.3,2.55,0.6961544555029049,-0.011308188385041638,0.7054402173337917,0.003964348331082501,-0.077661,-38.428722
11.185,2.0,1.0,1.0,33.9,33.7,33.7,2.7,4.3,2.5525,0.6903687490639732,-0.011506622404394349,0.710962747752815,0.0039192974572029105,-0.078544,-38.304336
11.185,2.0,1.0,1.0,33.9,33.7,33.7,2.7,4.3,2.555,0.6845053034558546,-0.011708242221256913,0.7164676728791488,0.0038715617841185183,-0.079445,-38.17951
11.185,2.0,1.0,1.0,33.9,33.7,33.7,2.7,4.3,2.5575,0.678563288759078,-0.011913100592716368,0.7219542199837038,0.0038210492125242607,-0.080362,-38.054235
11.185,2.0,1.0,1.0,33.9,33.7,33.7,2.7,4.3,2.56,0.6725418652769685,-0.012121251090851902,0.7274215931373315,0.0037676643800276122,-0.081297,-37.928505
11.185,2.0,1.0,1.0,33.9,33.7,33.7,2.7,4.3,2.5625,0.6664401835479576,-0.01233274810455774,0.7328689724980252,0.0037113085337386973,-0.08225,-37.802309
11.185,2.0,1.0,1.0,33.9,33.7,33.7,2.7,4.3,2.565,0.6602573843669649,-0.012547646840384567,0.7382955135759557,0.0036518793973301963,-0.083221,-37.675638
11.185,2.0,1.0,1.0,33.9,33.7,33.7,2.7,4.3,2.5675,0.6539925988164593,-0.012766003322307732,0.7437003464756271,0.0035892710322972536,-0.084211,-37.548485
11.185,2.0,1.0,1.0,33.9,33.7,33.7,2.7,4.3,2.57,0.6476449483078268,-0.012987874390323739,0.7490825751144352,0.0035233736931337013,-0.08522,-37.420838
11.185,2.0,1.0,1.0,33.9,33.7,33.7,2.7,4.3,2.5725,0.6412135446337165,-0.013213317697769261,0.7544412764168743,0.0034540736761247315,-0.086248,-37.29269
11.185,2.0,1.0,1.0,33.9,33.7,33.7,2.7,4.3,2.575,0.6346974900320682,-0.013442391707248001,0.7597754994836169,0.003381253161439782,-0.087297,-37.164031
11.185,2.0,1.0,1.0,33.9,33.7,33.7,2.7,4.3,2.5775,0.6280958772625729,-0.013675155685042396,0.7650842647346666,0.003304790048191093,-0.088367,-37.03485
11.185,2.0,1.0,1.0,33.9,33.7,33.7,2.7,4.3,2.58,0.6214077896963413,-0.013911669693877443,0.7703665630257536,0.003224557782105333,-0.089458,-36.905139
11.185,2.0,1.0,1.0,33.9,33.7,33.7,2.7,4.3,2.5825,0.6146323014196114,-0.014151994583893747,0.7756213547371252,0.0031404251754344283,-0.09057,-36.774887
11.185,2.0,1.0,1.0,33.9,33.7,33.7,2.7,4.3,2.585,0.6077684773523682,-0.014396191981675638,0.7808475688338413,0.0030522562187114553,-0.091705,-36.644085
11.185,2.0,1.0,1.0,33.9,33.7,33.7,2.7,4.3,2.5875,0.6008153733827847,-0.014644324277168408,0.7860441018966721,0.002959909883933707,-0.092863,-36.512721
11.185,2.0,1.0,1.0,33.9,33.7,33.7,2.7,4.3,2.59,0.5937720365184687,-0.014896454608305392,0.7912098171226412,0.002863239918731345,-0.094045,-36.380787
11.185,2.0,1.0,1.0,33.9,33.7,33.7,2.7,4.3,2.5925,0.5866375050555138,-0.015152646843152198,0.7963435432942587,0.0027620946310534964,-0.09525,-36.24827
11.185,2.0,1.0,1.0,33.9,33.7,33.7,2.7,4.3,2.595,0.5794108087664567,-0.015412965559359273,0.801444073716414,0.0026563166638768217,-0.096481,-36.11516
11.185,2.0,1.0,1.0,33.9,33.7,33.7,2.7,4.3,2.5975,0.5720909691082458,-0.01567747602069913,0.806510165119908,0.002545742759410674,-0.097736,-35.981446
11.185,2.0,1.0,1.0,33.9,33.7,33.7,2.7,4.3,2.6,0.564676999451434,-0.015946244150445148,0.8115405365305325,0.0024302035122428156,-0.099018,-35.847117
11.185,2.0,1.0,1.0,33.9,33.7,33.7,2.7,4.3,2.6025,0.5571679053318529,-0.01621933650133048,0.8165338681025859,0.0023095231108349475,-0.100327,-35.712162
11.185,2.0,1.0,1.0,33.9,33.7,33.7,2.7,4.3,2.605,0.5495626847260832,-0.016496820221805174,0.8214887999156705,0.002183519066741477,-0.101663,-35.576569
11.185,2.0,1.0,1.0,33.9,33.7,33.7,2.7,4.3,2.6075,0.5418603283521337,-0.01677876301828602,0.8264039307335765,0.0020520019308861433,-0.103028,-35.440326
11.185,2.0,1.0,1.0,33.9,33.7,33.7,2.7,4.3,2.61,0.5340598199967952,-0.017065233113069823,0.831277816724009,0.001914774996190498,-0.104422,-35.303421
11.185,2.0,1.0,1.0,33.9,33.7,33.7,2.7,4.3,2.6125,0.5261601368712258,-0.017356299197554093,0.8361089701378824,0.0017716339858025191,-0.105846,-35.165842
11.185,2.0,1.0,1.0,33.9,33.7,33.7,2.7,4.3,2.615,0.5181602499963988,-0.017652030380380376,0.8408958579468438,0.001622366726127582,-0.1073,-35.027575
11.185,2.0,1.0,1.0,33.9,33.7,33.7,2.7,4.3,2.6175,0.51005912462015,-0.017952496130083408,0.8456369004376506,0.001466752803812286,-0.108787,-34.888609
11.185,2.0,1.0,1.0,33.9,33.7,33.7,2.7,4.3,2.62,0.5018557206676412,-0.018257766211796006,0.8503304697619637,0.0013045632057770765,-0.110305,-34.748931
11.185,2.0,1.0,1.0,33.9,33.7,33.7,2.7,4.3,2.6225,0.4935489932271503,-0.018567910617522155,0.8549748884400763,0.0011355599413350945,-0.111858,-34.608526
11.185,2.0,1.0,1.0,33.9,33.7,33.7,2.7,4.3,2.625,0.485137893073237,-0.0188829994894494,0.859568427817021,0.00095949564537164,-0.113444,-34.467382
11.185,2.0,1.0,1.0,33.9,33.7,33.7,2.7,4.3,2.6275,0.4766213672293915,-0.019203103035729408,0.8641093064694626,0.0007761131614904965,-0.115067,-34.325484
11.185,2.0,1.0,1.0,33.9,33.7,33.7,2.7,4.3,2.63,0.467998359572442,-0.01952829143810553,0.8685956885616882,0.0005851451039611114,-0.116725,-34.182818
11.185,2.0,1.0,1.0,33.9,33.7,33.7,2.7,4.3,2.6325,0.4592678114810889,-0.019858634750714966,0.873025682148966,0.000386313397221417,-0.118422,-34.039369
11.185,2.0,1.0,1.0,33.9,33.7,33.7,2.7,4.3,2.635,0.45042866253108055,-0.020194202789335258,0.8773973374264535,0.00017932879160721804,-0.120157,-33.895123
11.185,2.0,1.0,1.0,33.9,33.7,33.7,2.7,4.3,2.6375,0.4414798512396896,-0.020535065010282034,0.8817086449217525,-3.6109646112304897e-05,-0.121932,-33.750065
11.185,2.0,1.0,1.0,33.9,33.7,33.7,2.7,4.3,2.64,0.4324203158622711,-0.020881290378097214,0.8859575336291542,-0.00026031506891197184,-0.123748,-33.604178
11.185,2.0,1.0,1.0,33.9,33.7,33.7,2.7,4.3,2.6425,0.42324899524388154,-0.021232947221090842,0.8901418690834909,-0.0004936134140250763,-0.125607,-33.457448
11.185,2.0,1.0,1.0,33.9,33.7,33.7,2.7,4.3,2.645,0.4139648297290772,-0.021590103073717695,0.8942594513714417,-0.0007363439975343179,-0.127509,-33.309857
11.185,2.0,1.0,1.0,33.9,33.7,33.7,2.7,4.3,2.6475,0.4045667621332036,-0.021952824504680175,0.8983080130780269,-0.0009888601409016448,-0.129456,-33.161389
11.185,2.0,1.0,1.0,33.9,33.7,33.7,2.7,4.3,2.65,0.39505373877865746,-0.02232117692955003,0.9022852171659255,-0.0012515298314341912,-0.13145,-33.012026
11.185,2.0,1.0,1.0,33.9,33.7,33.7,2.7,4.3,2.6525,0.38542471059986066,-0.022695224406590987,0.9061886547851096,-0.0015247364188261852,-0.133491,-32.861752
11.185,2.0,1.0,1.0,33.9,33.7,33.7,2.7,4.3,2.655,0.3756786343208232,-0.023075029414347765,0.9100158430101917,-0.0018088793500758717,-0.135582,-32.710548
11.185,2.0,1.0,1.0,33.9,33.7,33.7,2.7,4.3,2.6575,0.36581447370947967,-0.023460652609432985,0.9137642225027259,-0.0021043749452437067,-0.137725,-32.558396
11.185,2.0,1.0,1.0,33.9,33.7,33.7,2.7,4.3,2.66,0.3558312009131859,-0.023852152562799534,0.9174311550955533,-0.0024116572167039462,-0.13992,-32.405276
11.185,2.0,1.0,1.0,33.9,33.7,33.7,2.7,4.3,2.6625,0.34572779788006347,-0.024249585472625925,0.9210139212961265,-0.002731178734739821,-0.142169,-32.25117
11.185,2.0,1.0,1.0,33.9,33.7,33.7,2.7,4.3,2.665,0.3355032578711229,-0.024653004851766348,0.9245097177055819,-0.0030634115425501023,-0.144475,-32.096057
11.185,2.0,1.0,1.0,33.9,33.7,33.7,2.7,4.3,2.6675,0.32515658706846984,-0.025062461187521468,0.9279156543501114,-0.003408848123969426,-0.146839,-31.939916
11.185,2.0,1.0,1.0,33.9,33.7,33.7,2.7,4.3,2.67,0.3146868062851649,-0.02547800157127105,0.9312287519210074,-0.0037680024274607867,-0.149263,-31.782727
11.185,2.0,1.0,1.0,33.9,33.7,33.7,2.7,4.3,2.6725,0.3040929527827072,-0.025899669295271748,0.93444593891951,-0.004141410950217139,-0.15175,-31.624468
11.185,2.0,1.0,1.0,33.9,33.7,33.7,2.7,4.3,2.675,0.29337408220249706,-0.026327503413657274,0.9375640487023458,-0.004529633886510793,-0.154301,-31.465117
11.185,2.0,1.0,1.0,33.9,33.7,33.7,2.7,4.3,2.6775,0.2825292706180393,-0.026761538264387222,0.9405798164235682,-0.004933256344760008,-0.156918,-31.30465
11.185,2.0,1.0,1.0,33.9,33.7,33.7,2.7,4.3,2.68,0.27155761671510864,-0.027201802948563884,0.9434898758680295,-0.005352889638141213,-0.159605,-31.143044
11.185,2.0,1.0,1.0,33.9,33.7,33.7,2.7,4.3,2.6825,0.2604582441076138,-0.027648320763174958,0.9462907561714705,-0.005789172653966973,-0.162363,-30.980275
11.185,2.0,1.0,1.0,33.9,33.7,33.7,2.7,4.3,2.685,0.24923030379739805,-0.028101108582917787,0.9489788784218693,-0.006242773307477993,-0.165196,-30.816317
11.185,2.0,1.0,1.0,33.9,33.7,33.7,2.7,4.3,2.6875,0.237872976786839,-0.0285601761863119,0.951550552136295,-0.00671439008616452,-0.168105,-30.651145
11.185,2.0,1.0,1.0,33.9,33.7,33.7,2.7,4.3,2.69,0.22638547685374497,-0.029025525520805655,0.9540019716070732,-0.007204753691242044,-0.171094,-30.484733
11.185,2.0,1.0,1.0,33.9,33.7,33.7,2.7,4.3,2.6925,0.2147670534987156,-0.02949714990102562,0.9563292121106117,-0.00771462878346578,-0.174165,-30.317051
11.185,2.0,1.0,1.0,33.9,33.7,33.7,2.7,4.3,2.695,0.2030169950759846,-0.029975033133690425,0.9585282259716807,-0.008244815841076787,-0.177323,-30.148073
11.185,2.0,1.0,1.0,33.9,33.7,33.7,2.7,4.3,2.6975,0.19113463211950735,-0.03045914856201449,0.9605948384753957,-0.008796153138343948,-0.180569,-29.977769
11.185,2.0,1.0,1.0,33.9,33.7,33.7,2.7,4.3,2.7,0.1791193408771107,-0.030949458021640192,0.962524743618482,-0.009369518853894193,-0.183908,-29.806108
11.185,2.0,1.0,1.0,33.9,33.7,33.7,2.7,4.3,2.7025,0.1669705470664504,-0.03144591069926149,0.9643134996907069,-0.009965833318829958,-0.187344,-29.63306
11.185,2.0,1.0,1.0,33.9,33.7,33.7,2.7,4.3,2.705,0.1546877298677567,-0.031948441884110966,0.9659565246765854,-0.010586061415508774,-0.190879,-29.458592
11.185,2.0,1.0,1.0,33.9,33.7,33.7,2.7,4.3,2.7075,0.14227042616956473,-0.03245697160137406,0.9674490914665738,-0.011231215138828455,-0.194519,-29.28267
11.185,2.0,1.0,1.0,33.9,33.7,33.7,2.7,4.3,2.71,0.12971823508507674,-0.03297140311534126,0.9687863228660443,-0.011902356332918246,-0.198267,-29.10526
11.185,2.0,1.0,1.0,33.9,33.7,33.7,2.7,4.3,2.7125,0.117030822758361,-0.03349162128869937,0.969963186389225,-0.012600599617302623,-0.202128,-28.926327
11.185,2.0,1.0,1.0,33.9,33.7,33.7,2.7,4.3,2.715,0.10420792748137317,-0.0340174907827687,0.9709744888241489,-0.013327115517880538,-0.206106,-28.745833
11.185,2.0,1.0,1.0,33.9,33.7,33.7,2.7,4.3,2.7175,0.09124936514475122,-0.034548854081692004,0.9718148705533123,-0.014083133819470215,-0.210208,-28.563739
11.185,2.0,1.0,1.0,33.9,33.7,33.7,2.7,4.3,2.72,0.07815503504757122,-0.0350855293215407,0.9724787996133188,-0.014869947158213168,-0.214437,-28.380006
11.185,2.0,1.0,1.0,33.9,33.7,33.7,2.7,4.3,2.7225,0.0649249260937027,-0.035627307902992594,0.9729605654751552,-0.01568891487383236,-0.2188,-28.194592
11.185,2.0,1.0,1.0,33.9,33.7,33.7,2.7,4.3,2.725,0.05155912340528893,-0.03617395186360645,0.9732542725249648,-0.016541467143606062,-0.223302,-28.007455
11.185,2.0,1.0,1.0,33.9,33.7,33.7,2.7,4.3,2.7275,0.038057815386955074,-0.03672519098273765,0.973353833223197,-0.017429109421980005,-0.227951,-27.81855
11.185,2.0,1.0,1.0,33.9,33.7,33.7,2.7,4.3,2.73,0.024421301278042512,-0.037280719588734995,0.9732529609178122,-0.018353427211998955,-0.232752,-27.62783
11.185,2.0,1.0,1.0,33.9,33.7,33.7,2.7,4.3,2.7325,0.010649999234163572,-0.037840193034186315,0.9729451622847808,-0.01931609119723421,-0.237712,-27.435248
11.185,2.0,1.0,1.0,33.9,33.7,33.7,2.7,4.3,2.735,-0.0032555450159348002,-0.03840322380055127,0.9724237293663918,-0.020318862765618718,-0.24284,-27.240754
11.185,2.0,1.0,1.0,33.9,33.7,33.7,2.7,4.3,2.7375,-0.01729464888697717,-0.0389693771884584,0.9716817311749033,-0.021363599959619523,-0.248144,-27.044294
11.185,2.0,1.0,1.0,33.9,33.7,33.7,2.7,4.3,2.74,-0.031466482969933283,-0.039538166544143286,0.9707120048257248,-0.02245226389048667,-0.253631,-26.845816
11.185,2.0,1.0,1.0,33.9,33.7,33.7,2.7,4.3,2.7425,-0.04577006031682309,-0.04010904796585326,0.9695071461606312,-0.023586925657962176,-0.259311,-26.645263
11.185,2.0,1.0,1.0,33.9,33.7,33.7,2.7,4.3,2.745,-0.06020422490547219,-0.04068141442639772,0.9680594998174556,-0.024769773820826613,-0.265194,-26.442575
11.185,2.0,1.0,1.0,33.9,33.7,33.7,2.7,4.3,2.7475,-0.07476763920308023,-0.04125458923922754,0.9663611486981647,-0.026003122468047226,-0.271291,-26.237692
11.185,2.0,1.0,1.0,33.9,33.7,33.7,2.7,4.3,2.75,-0.0894587707370357,-0.0418278187852836,0.964403902782298,-0.0272894199450914,-0.277612,-26.03055
11.185,2.0,1.0,1.0,33.9,33.7,33.7,2.7,4.3,2.7525,-0.10427587756936062,-0.04240026440614659,0.962179287227225,-0.028631258295220504,-0.284169,-25.821081
11.185,2.0,1.0,1.0,33.9,33.7,33.7,2.7,4.3,2.755,-0.11921699255726904,-0.04297099335547417,0.9596785296907084,-0.030031383481303086,-0.290976,-25.609216
11.185,2.0,1.0,1.0,33.9,33.7,33.7,2.7,4.3,2.7575,-0.13427990626627914,-0.04353896868502528,0.956892546804627,-0.03149270645992327,-0.298045,-25.394882
11.185,2.0,1.0,1.0,33.9,33.7,33.7,2.7,4.3,2.76,-0.14946214838358857,-0.04410303792335592,0.9538119297215216,-0.033018315186307434,-0.305393,-25.178002
11.185,2.0,1.0,1.0,33.9,33.7,33.7,2.7,4.3,2.7625,-0.1647609674578355,-0.04466192038410651,0.9504269286477963,-0.03461148763589172,-0.313034,-24.958497
11.185,2.0,1.0,1.0,33.9,33.7,33.7,2.7,4.3,2.765,-0.18017330876608081,-0.04521419291614002,0.9467274362688832,-0.036275705936176156,-0.320987,-24.736284
11.185,2.0,1.0,1.0,33.9,33.7,33.7,2.7,4.3,2.7675,-0.19569579007945778,-0.04575827387902625,0.9427029699625804,-0.038014671710857435,-0.32927,-24.511274
11.185,2.0,1.0,1.0,33.9,33.7,33.7,2.7,4.3,2.77,-0.21132467506455807,-0.04629240509374307,0.9383426526869666,-0.039832322747049925,-0.337902,-24.283377
11.185,2.0,1.0,1.0,33.9,33.7,33.7,2.7,4.3,2.7725,-0.22705584401736906,-0.04681463147909003,0.9336351924190334,-0.04173285110560181,-0.346905,-24.052495
11.185,2.0,1.0,1.0,33.9,33.7,33.7,2.7,4.3,2.775,-0.2428847615793693,-0.04732277803811796,0.9285688600093593,-0.04372072280396763,-0.356304,-23.818528
11.185,2.0,1.0,1.0,33.9,33.7,33.7,2.7,4.3,2.7775,-0.25880644102991573,-0.04781442380458393,0.9231314653071976,-0.04580069921058682,-0.366124,-23.581371
11.185,2.0,1.0,1.0,33.9,33.7,33.7,2.7,4.3,2.78,-0.2748154046837257,-0.04828687229550569,0.91731033139926,-0.04797786029894818,-0.376393,-23.340911
11.185,2.0,1.0,1.0,33.9,33.7,33.7,2.7,4.3,2.7825,-0.29090563984515055,-0.04873711794045788,0.9110922667950007,-0.05025762991803031,-0.387141,-23.097032
11.185,2.0,1.0,1.0,33.9,33.7,33.7,2.7,4.3,2.785,-0.30707054967991904,-0.04916180786909263,0.9044635353815246,-0.05264580324301083,-0.398401,-22.849612
11.185,2.0,1.0,1.0,33.9,33.7,33.7,2.7,4.3,2.7875,-0.3233028982570291,-0.049557198332774485,0.8974098239635784,-0.05514857657511869,-0.410211,-22.59852
11.185,2.0,1.0,1.0,33.9,33.7,33.7,2.7,4.3,2.79,-0.3395947488855857,-0.049919104910946095,0.8899162071992615,-0.057772579661123126,-0.422608,-22.343621
11.185,2.0,1.0,1.0,33.9,33.7,33.7,2.7,4.3,2.7925,-0.3559373947191278,-0.05024284550392965,0.8819671097419287,-0.060524910699518174,-0.435639,-22.084772
11.185,2.0,1.0,1.0,33.9,33.7,33.7,2.7,4.3,2.795,-0.3723212804189451,-0.050523174936556066,0.8735462654052317,-0.06341317418978694,-0.449349,-21.821821
11.185,2.0,1.0,1.0,33.9,33.7,33.7,2.7,4.3,2.7975,-0.3887359134516248,-0.050754209785505267,0.8646366731845799,-0.06644552176012072,-0.463794,-21.554609
11.185,2.0,1.0,1.0,33.9,33.7,33.7,2.7,4.3,2.8,-0.4051697633380443,-0.05092934179052934,0.8552205499982116,-0.06963069607356658,-0.47903,-21.282968
11.185,2.0,1.0,1.0,33.9,33.7,33.7,2.7,4.3,2.8025,-0.42161014686191584,-0.051041137907315376,0.8452792800604086,-0.0729780778571427,-0.495124,-21.006722
11.185,2.0,1.0,1.0,33.9,33.7,33.7,2.7,4.3,2.805,-0.4380430968757502,-0.051081224697339785,0.8347933608753724,-0.07649773601548315,-0.512147,-20.725683
11.185,2.0,1.0,1.0,33.9,33.7,33.7,2.7,4.3,2.8075,-0.45445321189782917,-0.05104015431522761,0.8237423459531058,-0.08020048066985495,-0.530179,-20.439654
11.185,2.0,1.0,1.0,33.9,33.7,33.7,2.7,4.3,2.81,-0.47082348316009937,-0.05090724883185362,0.812104784512002,-0.08409791879112624,-0.54931,-20.148427
11.185,2.0,1.0,1.0,33.9,33.7,33.7,2.7,4.3,2.8125,-0.487135095125403,-0.0506704190036641,0.799858158665349,-0.0882025118528156,-0.569639,-19.851782
11.185,2.0,1.0,1.0,33.9,33.7,33.7,2.7,4.3,2.815,-0.5033671947211025,-0.05031595284389707,0.7869788189155923,-0.09252763459252006,-0.59128,-19.549487
11.185,2.0,1.0,1.0,33.9,33.7,33.7,2.7,4.3,2.8175,-0.5194966236085954,-0.049828268443937646,0.7734419192352768,-0.09708763350260044,-0.614357,-19.241296
11.185,2.0,1.0,1.0,33.9,33.7,33.7,2.7,4.3,2.82,-0.5354976066936994,-0.04918962440292837,0.759221353643253,-0.10189788302771659,-0.639013,-18.926951
11.185,2.0,1.0,1.0,33.9,33.7,33.7,2.7,4.3,2.8225,-0.5513413887456978,-0.048379779916257866,0.7442896970519582,-0.10697483656480065,-0.665408,-18.606178
11.185,2.0,1.0,1.0,33.9,33.7,33.7,2.7,4.3,2.825,-0.5669958093925402,-0.04737559500950501,0.728618154351835,-0.11233606815495992,-0.693725,-18.27869
11.185,2.0,1.0,1.0,33.9,33.7,33.7,2.7,4.3,2.8275,-0.5824248048521847,-0.04615055954120672,0.7121765233286815,-0.11800029911056906,-0.724171,-17.944182
