1,w,sub_t,h,l1,l2,l3,g1,g2,Freq,S11_re,S21_re,S11_img,S21_img,S11_dB,S21_dB
11.185,2.0,1.0,1.0,34.4,33.6,33.6,1.7,2.7,2.5,0.707954400854881,-0.0195516916283729,0.69336813531806,0.0114127476828426,-0.079067,-32.902896
11.185,2.0,1.0,1.0,34.4,33.6,33.6,1.7,2.7,2.5025,0.7021318919942616,-0.0199275937044407,0.6991057260279198,0.011398148810428227,-0.080044,-32.781673
11.185,2.0,1.0,1.0,34.4,33.6,33.6,1.7,2.7,2.505,0.6962283867503765,-0.020310180718503237,0.7048258204888153,0.011379647475622832,-0.081038,-32.660009
11.185,2.0,1.0,1.0,34.4,33.6,33.6,1.7,2.7,2.5075,0.6902429975265998,-0.020699571718404922,0.7105276090560163,0.011357087094971048,-0.082049,-32.537896
11.185,2.0,1.0,1.0,34.4,33.6,33.6,1.7,2.7,2.51,0.6841748260895937,-0.021095887693107815,0.7162102568584687,0.011330305263211363,-0.083078,-32.41533
11.185,2.0,1.0,1.0,34.4,33.6,33.6,1.7,2.7,2.5125,0.6780229635941627,-0.0214992515783981,0.7218729030108143,0.01129913352499322,-0.084126,-32.292303
11.185,2.0,1.0,1.0,34.4,33.6,33.6,1.7,2.7,2.515,0.6717864906191456,-0.0219097882601447,0.7275146598006342,0.011263397137092759,-0.085193,-32.168808
11.185,2.0,1.0,1.0,34.4,33.6,33.6,1.7,2.7,2.5175,0.6654644772151196,-0.022327624574876536,0.7331346118501249,0.011222914820712153,-0.08628,-32.044838
11.185,2.0,1.0,1.0,34.4,33.6,33.6,1.7,2.7,2.52,0.6590559829646983,-0.022752889307429153,0.7387318152514202,0.011177498503426617,-0.087387,-31.920387
11.185,2.0,1.0,1.0,34.4,33.6,33.6,1.7,2.7,2.5225,0.6525600570562959,-0.02318571318538995,0.744305296674714,0.0111269530503252,-0.088515,-31.795448
11.185,2.0,1.0,1.0,34.4,33.6,33.6,1.7,2.7,2.525,0.6459757383722361,-0.023626228870054364,0.7498540524483531,0.011071075983869803,-0.089664,-31.670012
11.185,2.0,1.0,1.0,34.4,33.6,33.6,1.7,2.7,2.5275,0.6393020555921535,-0.02407457094358087,0.7553770476100146,0.011009657191975272,-0.090835,-31.544074
11.185,2.0,1.0,1.0,34.4,33.6,33.6,1.7,2.7,2.53,0.6325380273127035,-0.024530875892010504,0.760873214928075,0.01094247862379093,-0.092029,-31.417626
11.185,2.0,1.0,1.0,34.4,33.6,33.6,1.7,2.7,2.5325,0.6256826621846295,-0.024995282083791977,0.7663414538922407,0.01086931397264021,-0.093247,-31.290661
11.185,2.0,1.0,1.0,34.4,33.6,33.6,1.7,2.7,2.535,0.6187349590683031,-0.025467929743425814,0.7717806296725006,0.010789928345549366,-0.094488,-31.16317
11.185,2.0,1.0,1.0,34.4,33.6,33.6,1.7,2.7,2.5375,0.6116939072089391,-0.025948960919812806,0.7771895720454083,0.010704077918771707,-0.095754,-31.035146
11.185,2.0,1.0,1.0,34.4,33.6,33.6,1.7,2.7,2.54,0.6045584864327175,-0.026438519448860717,0.7825670742867106,0.010611509578685252,-0.097046,-30.906583
11.185,2.0,1.0,1.0,34.4,33.6,33.6,1.7,2.7,2.5425,0.5973276673651445,-0.02693675090987098,0.7879118920292729,0.010511960547414234,-0.098364,-30.77747
11.185,2.0,1.0,1.0,34.4,33.6,33.6,1.7,2.7,2.545,0.5900004116730491,-0.02744380257519043,0.7932227420852621,0.010405157992493926,-0.099709,-30.647802
11.185,2.0,1.0,1.0,34.4,33.6,33.6,1.7,2.7,2.5475,0.5825756723316926,-0.027959823352574898,0.7984983012314785,0.010290818619868875,-0.101081,-30.517569
11.185,2.0,1.0,1.0,34.4,33.6,33.6,1.7,2.7,2.55,0.5750523939185501,-0.02848496371967285,0.8037372049567549,0.010168648249480581,-0.102483,-30.386764
11.185,2.0,1.0,1.0,34.4,33.6,33.6,1.7,2.7,2.5525,0.5674295129354218,-0.029019375649988712,0.8089380461702402,0.010038341372666836,-0.103913,-30.255378
11.185,2.0,1.0,1.0,34.4,33.6,33.6,1.7,2.7,2.555,0.559705958160608,-0.029563212529643352,0.8140993738694292,0.009899580690560747,-0.105375,-30.123403
11.185,2.0,1.0,1.0,34.4,33.6,33.6,1.7,2.7,2.5575,0.5518806510329973,-0.030116629064194718,0.8192196917667246,0.009752036632638414,-0.106867,-29.990831
11.185,2.0,1.0,1.0,34.4,33.6,33.6,1.7,2.7,2.56,0.5439525060700169,-0.030679781174728433,0.824297456873296,0.009595366854526263,-0.108392,-29.857651
11.185,2.0,1.0,1.0,34.4,33.6,33.6,1.7,2.7,2.5625,0.5359204313214994,-0.0312528258823692,0.8293310780389828,0.009429215714139492,-0.109951,-29.723857
11.185,2.0,1.0,1.0,34.4,33.6,33.6,1.7,2.7,2.565,0.5277833288616447,-0.03183592118030175,0.834318914446954,0.009253213725178067,-0.111543,-29.589439
11.185,2.0,1.0,1.0,34.4,33.6,33.6,1.7,2.7,2.5675,0.5195400953213871,-0.03242922589231982,0.8392592740617959,0.009066976986965646,-0.113171,-29.454387
11.185,2.0,1.0,1.0,34.4,33.6,33.6,1.7,2.7,2.57,0.5111896224635785,-0.03303289951685201,0.8441504120296838,0.008870106589568334,-0.114835,-29.318694
11.185,2.0,1.0,1.0,34.4,33.6,33.6,1.7,2.7,2.5725,0.5027307978035792,-0.033647102055332306,0.8489905290292665,0.008662187993082283,-0.116537,-29.182348
11.185,2.0,1.0,1.0,34.4,33.6,33.6,1.7,2.7,2.575,0.49416250527795974,-0.03427199382370023,0.8537777695718438,0.008442790379930242,-0.118278,-29.045341
11.185,2.0,1.0,1.0,34.4,33.6,33.6,1.7,2.7,2.5775,0.48548362596419387,-0.03490773524572381,0.8585102202494087,0.008211465978952899,-0.120058,-28.907664
11.185,2.0,1.0,1.0,34.4,33.6,33.6,1.7,2.7,2.58,0.4766930388543828,-0.03555448662674128,0.863185907929083,0.007967749360027823,-0.12188,-28.769306
11.185,2.0,1.0,1.0,34.4,33.6,33.6,1.7,2.7,2.5825,0.4677896216862128,-0.036212407906312895,0.867802797892462,0.0077111566978900975,-0.123745,-28.630258
11.185,2.0,1.0,1.0,34.4,33.6,33.6,1.7,2.7,2.585,0.45877225183455855,-0.03688165838815936,0.8723587919183379,0.007441185003771425,-0.125653,-28.490509
11.185,2.0,1.0,1.0,34.4,33.6,33.6,1.7,2.7,2.5875,0.44963980726730685,-0.037562396445643284,0.8768517263072643,0.0071573113234110275,-0.127607,-28.350049
11.185,2.0,1.0,1.0,34.4,33.6,33.6,1.7,2.7,2.59,0.4403911675692246,-0.038254779200916515,0.8812793698463829,0.006858991899928535,-0.129607,-28.208868
11.185,2.0,1.0,1.0,34.4,33.6,33.6,1.7,2.7,2.5925,0.4310252150378645,-0.03895896217571685,0.8856394217129191,0.006545661299981542,-0.131656,-28.066955
11.185,2.0,1.0,1.0,34.4,33.6,33.6,1.7,2.7,2.595,0.4215408358557979,-0.03967509891164155,0.889929509314724,0.006216731501562357,-0.133755,-27.924299
11.185,2.0,1.0,1.0,34.4,33.6,33.6,1.7,2.7,2.5975,0.41193692134364474,-0.040403340557564546,0.8941471860662292,0.005871590941714887,-0.135905,-27.78089
11.185,2.0,1.0,1.0,34.4,33.6,33.6,1.7,2.7,2.6,0.40221236929868565,-0.041143835421682755,0.8982899290981449,0.005509603522378965,-0.138109,-27.636716
11.185,2.0,1.0,1.0,34.4,33.6,33.6,1.7,2.7,2.6025,0.3923660854241009,-0.04189672848548606,0.9023551368992292,0.005130107572493187,-0.140367,-27.491767
11.185,2.0,1.0,1.0,34.4,33.6,33.6,1.7,2.7,2.605,0.38239698485417223,-0.04266216087674029,0.9063401268884362,0.004732414764404637,-0.142683,-27.346029
11.185,2.0,1.0,1.0,34.4,33.6,33.6,1.7,2.7,2.6075,0.3723039937811153,-0.04344026929834564,0.9102421329157374,0.0043158089825540286,-0.145057,-27.199493
11.185,2.0,1.0,1.0,34.4,33.6,33.6,1.7,2.7,2.61,0.3620860511895304,-0.04423118540969354,0.9140583026898993,0.0038795451423187387,-0.147492,-27.052145
11.185,2.0,1.0,1.0,34.4,33.6,33.6,1.7,2.7,2.6125,0.3517421107048369,-0.045035035156883,0.9177856951315032,0.0034228479568072408,-0.14999,-26.903974
11.185,2.0,1.0,1.0,34.4,33.6,33.6,1.7,2.7,2.615,0.3412711425624011,-0.04585193804787532,0.92142127764948,0.0029449106493102542,-0.152553,-26.754968
11.185,2.0,1.0,1.0,34.4,33.6,33.6,1.7,2.7,2.6175,0.33067213570452647,-0.0466820063683594,0.9249619233394522,0.0024448936090199144,-0.155183,-26.605113
11.185,2.0,1.0,1.0,34.4,33.6,33.6,1.7,2.7,2.62,0.3199441000128559,-0.047525344333770786,0.9284044081021526,0.00192192298753429,-0.157883,-26.454398
11.185,2.0,1.0,1.0,34.4,33.6,33.6,1.7,2.7,2.6225,0.30908606868422533,-0.04838204717254892,0.9317454076802492,0.001375089233567639,-0.160655,-26.302808
11.185,2.0,1.0,1.0,34.4,33.6,33.6,1.7,2.7,2.625,0.298097100758503,-0.0492522001353282,0.934981494611874,0.000803445563189036,-0.163501,-26.150332
11.185,2.0,1.0,1.0,34.4,33.6,33.6,1.7,2.7,2.6275,0.2869762838074478,-0.05013587742434108,0.9381091350992158,0.00020600636281107822,-0.166425,-25.996954
11.185,2.0,1.0,1.0,34.4,33.6,33.6,1.7,2.7,2.63,0.2757227367942173,-0.0510331410368533,0.9411246857905692,-0.00041825447794799933,-0.169429,-25.842662
11.185,2.0,1.0,1.0,34.4,33.6,33.6,1.7,2.7,2.6325,0.26433561311372034,-0.05194403951595874,0.9440243904742457,-0.0010704053065087738,-0.172516,-25.687442
11.185,2.0,1.0,1.0,34.4,33.6,33.6,1.7,2.7,2.635,0.2528141038246929,-0.052868606601525134,0.9468043766828532,-0.0017515585237602982,-0.175689,-25.531278
11.185,2.0,1.0,1.0,34.4,33.6,33.6,1.7,2.7,2.6375,0.24115744108503182,-0.0538068597734987,0.9494606522064648,-0.0024628724798535047,-0.178951,-25.374158
11.185,2.0,1.0,1.0,34.4,33.6,33.6,1.7,2.7,2.64,0.22936490180266686,-0.05475879867914673,0.9519891015133216,-0.003205553452636953,-0.182305,-25.216064
11.185,2.0,1.0,1.0,34.4,33.6,33.6,1.7,2.7,2.6425,0.2174358115150646,-0.055724403435125344,0.9543854820767704,-0.0039808577121037405,-0.185756,-25.056984
11.185,2.0,1.0,1.0,34.4,33.6,33.6,1.7,2.7,2.645,0.2053695485112824,-0.05670363279451666,0.956645420607266,-0.004790093674314,-0.189306,-24.8969
11.185,2.0,1.0,1.0,34.4,33.6,33.6,1.7,2.7,2.6475,0.19316554821143642,-0.05769642216816334,0.9587644091883779,-0.005634624148337203,-0.192959,-24.735798
11.185,2.0,1.0,1.0,34.4,33.6,33.6,1.7,2.7,2.65,0.18082330781937964,-0.05870268148874702,0.9607378013159054,-0.006515868679840941,-0.19672,-24.573661
11.185,2.0,1.0,1.0,34.4,33.6,33.6,1.7,2.7,2.6525,0.16834239126554518,-0.05972229290508691,0.9625608078393519,-0.007435305995013474,-0.200592,-24.410472
11.185,2.0,1.0,1.0,34.4,33.6,33.6,1.7,2.7,2.655,0.15572243445793021,-0.06075510829309177,0.9642284928052202,-0.008394476548570682,-0.20458,-24.246216
11.185,2.0,1.0,1.0,34.4,33.6,33.6,1.7,2.7,2.6575,0.14296315086053765,-0.06180094656864518,0.9657357692018105,-0.00939498517963081,-0.208688,-24.080874
11.185,2.0,1.0,1.0,34.4,33.6,33.6,1.7,2.7,2.66,0.13006433741986886,-0.06285959078645806,0.9670773946054454,-0.010438503879268061,-0.212922,-23.914429
11.185,2.0,1.0,1.0,34.4,33.6,33.6,1.7,2.7,2.6625,0.11702588086153554,-0.0639307850075528,0.9682479667283637,-0.011526774673550162,-0.217285,-23.746863
11.185,2.0,1.0,1.0,34.4,33.6,33.6,1.7,2.7,2.665,0.10384776438058593,-0.06501423091655614,0.9692419188688478,-0.012661612625842393,-0.221785,-23.578159
11.185,2.0,1.0,1.0,34.4,33.6,33.6,1.7,2.7,2.6675,0.09053007475089052,-0.06610958416833972,0.9700535152645202,-0.013844908962093385,-0.226425,-23.408296
11.185,2.0,1.0,1.0,34.4,33.6,33.6,1.7,2.7,2.67,0.07707300988072605,-0.06721645044176808,0.9706768463502337,-0.015078634322724393,-0.231212,-23.237257
11.185,2.0,1.0,1.0,34.4,33.6,33.6,1.7,2.7,2.6725,0.06347688684370072,-0.06833438117635823,0.9711058239224147,-0.016364842144591753,-0.236152,-23.065021
11.185,2.0,1.0,1.0,34.4,33.6,33.6,1.7,2.7,2.675,0.04974215041637697,-0.06946286896551167,0.9713341762123623,-0.017705672176291355,-0.241252,-22.891568
11.185,2.0,1.0,1.0,34.4,33.6,33.6,1.7,2.7,2.6775,0.03586938215627167,-0.07060134257763785,0.971355442871621,-0.01910335412980476,-0.246518,-22.716878
11.185,2.0,1.0,1.0,34.4,33.6,33.6,1.7,2.7,2.68,0.021859310056509106,-0.07174916157391234,0.9711629698733303,-0.02056021147113944,-0.251958,-22.54093
11.185,2.0,1.0,1.0,34.4,33.6,33.6,1.7,2.7,2.6825,0.007712818816248469,-0.07290561048858736,0.9707499043342896,-0.022078665352173062,-0.257579,-22.363702
11.185,2.0,1.0,1.0,34.4,33.6,33.6,1.7,2.7,2.685,-0.00656903923096792,-0.0740698925346755,0.9701091892635024,-0.0236612386853654,-0.263389,-22.185173
11.185,2.0,1.0,1.0,34.4,33.6,33.6,1.7,2.7,2.6875,-0.02098503248538434,-0.07524112279441272,0.969233558244081,-0.025310560362319125,-0.269396,-22.005319
11.185,2.0,1.0,1.0,34.4,33.6,33.6,1.7,2.7,2.69,-0.03553373769647261,-0.0764183208501629,0.9681155300567131,-0.027029369616339182,-0.275609,-21.824117
11.185,2.0,1.0,1.0,34.4,33.6,33.6,1.7,2.7,2.6925,-0.05021352677241001,-0.0776004028073024,0.9667474032543855,-0.028820520528134094,-0.282039,-21.641544
11.185,2.0,1.0,1.0,34.4,33.6,33.6,1.7,2.7,2.695,-0.06502255272581578,-0.07878617265607975,0.9651212506998009,-0.03068698667257154,-0.288694,-21.457576
11.185,2.0,1.0,1.0,34.4,33.6,33.6,1.7,2.7,2.6975,-0.07995873469323084,-0.07997431291445105,0.9632289140789254,-0.032631865902941634,-0.295586,-21.272187
11.185,2.0,1.0,1.0,34.4,33.6,33.6,1.7,2.7,2.7,-0.09501974196033543,-0.0811633744883743,0.9610619984063923,-0.0346583852674061,-0.302725,-21.085352
11.185,2.0,1.0,1.0,34.4,33.6,33.6,1.7,2.7,2.7025,-0.11020297691909978,-0.08235176567997482,0.9586118665411615,-0.03676990605021686,-0.310123,-20.897044
11.185,2.0,1.0,1.0,34.4,33.6,33.6,1.7,2.7,2.705,-0.1255055568765093,-0.08353774026728597,0.9558696337339011,-0.03896992892776621,-0.317794,-20.707237
11.185,2.0,1.0,1.0,34.4,33.6,33.6,1.7,2.7,2.7075,-0.14092429462738826,-0.08471938457187536,0.9528261622311572,-0.04126209922655341,-0.32575,-20.515902
11.185,2.0,1.0,1.0,34.4,33.6,33.6,1.7,2.7,2.71,-0.15645567769590504,-0.08589460342249541,0.9494720559654507,-0.04365021226659873,-0.334005,-20.323012
11.185,2.0,1.0,1.0,34.4,33.6,33.6,1.7,2.7,2.7125,-0.1720958461416837,-0.08706110491388148,0.9457976553653182,-0.04613821876964138,-0.342574,-20.128536
11.185,2.0,1.0,1.0,34.4,33.6,33.6,1.7,2.7,2.715,-0.18784056881676697,-0.08821638384985411,0.9417930323248276,-0.048730230306469786,-0.351475,-19.932446
11.185,2.0,1.0,1.0,34.4,33.6,33.6,1.7,2.7,2.7175,-0.2036852179490913,-0.0893577037488773,0.9374479853786601,-0.05143052475185176,-0.360723,-19.734709
11.185,2.0,1.0,1.0,34.4,33.6,33.6,1.7,2.7,2.72,-0.21962474191634085,-0.09048207727806112,0.9327520351363909,-0.054243551708558845,-0.370337,-19.535294
11.185,2.0,1.0,1.0,34.4,33.6,33.6,1.7,2.7,2.7225,-0.23565363606111608,-0.09158624496816604,0.9276944200384349,-0.05717393785376216,-0.380336,-19.33417
11.185,2.0,1.0,1.0,34.4,33.6,33.6,1.7,2.7,2.725,-0.25176591138392934,-0.09266665204731986,0.9222640925065109,-0.06022649215133994,-0.390742,-19.1313
11.185,2.0,1.0,1.0,34.4,33.6,33.6,1.7,2.7,2.7275,-0.26795506093476207,-0.09371942321477877,0.9164497155734854,-0.06340621086217729,-0.401576,-18.926653
11.185,2.0,1.0,1.0,34.4,33.6,33.6,1.7,2.7,2.73,-0.28421402370630644,-0.0947403351579731,0.9102396600916771,-0.066718282270966,-0.412862,-18.720191
11.185,2.0,1.0,1.0,34.4,33.6,33.6,1.7,2.7,2.7325,-0.30053514581273455,-0.09572478659613637,0.9036220026352407,-0.07016809103202382,-0.424626,-18.511878
11.185,2.0,1.0,1.0,34.4,33.6,33.6,1.7,2.7,2.735,-0.31691013871645046,-0.09666776561183957,0.8965845242317462,-0.07376122201774504,-0.436895,-18.301677
11.185,2.0,1.0,1.0,34.4,33.6,33.6,1.7,2.7,2.7375,-0.3333300342417706,-0.0975638140075698,0.889114710080926,-0.0775034635309928,-0.449698,-18.089548
11.185,2.0,1.0,1.0,34.4,33.6,33.6,1.7,2.7,2.74,-0.34978513608859024,-0.09840698839792153,0.8811997504454431,-0.08140080971637753,-0.463067,-17.875453
11.185,2.0,1.0,1.0,34.4,33.6,33.6,1.7,2.7,2.7425,-0.3662649675306698,-0.09919081771883595,0.8728265429301684,-0.08545946197425003,-0.477035,-17.65935
11.185,2.0,1.0,1.0,34.4,33.6,33.6,1.7,2.7,2.745,-0.3827582149520291,-0.09990825680345547,0.8639816964037431,-0.08968582914444402,-0.49164,-17.441197
11.185,2.0,1.0,1.0,34.4,33.6,33.6,1.7,2.7,2.7475,-0.3992526668408968,-0.10055163563941243,0.8546515368601003,-0.09408652618333688,-0.50692,-17.220951
11.185,2.0,1.0,1.0,34.4,33.6,33.6,1.7,2.7,2.75,-0.415735147823702,-0.101112603884629,0.844822115569461,-0.0986683710064069,-0.522918,-16.998567
11.185,2.0,1.0,1.0,34.4,33.6,33.6,1.7,2.7,2.7525,-0.4321914472814316,-0.10158207017790186,0.834479219929493,-0.10343837910769109,-0.53968,-16.774
11.185,2.0,1.0,1.0,34.4,33.6,33.6,1.7,2.7,2.755,-0.44860624204758315,-0.10195013573670789,0.8236083874995728,-0.10840375549566923,-0.557255,-16.547203
11.185,2.0,1.0,1.0,34.4,33.6,33.6,1.7,2.7,2.7575,-0.46496301264084394,-0.10220602168791924,0.8121949237864795,-0.11357188340007573,-0.575697,-16.318128
11.185,2.0,1.0,1.0,34.4,33.6,33.6,1.7,2.7,2.76,-0.4812439524368019,-0.10233798952775437,0.8002239244508726,-0.11895030910349821,-0.595064,-16.086724
11.185,2.0,1.0,1.0,34.4,33.6,33.6,1.7,2.7,2.7625,-0.4974298691321159,-0.10233325405583638,0.7876803027232727,-0.12454672213257557,-0.61542,-15.852943
11.185,2.0,1.0,1.0,34.4,33.6,33.6,1.7,2.7,2.765,-0.5135000778021992,-0.10217788807549347,0.7745488229596147,-0.13036892990266663,-0.636832,-15.616732
11.185,2.0,1.0,1.0,34.4,33.6,33.6,1.7,2.7,2.7675,-0.5294322848009944,-0.10185671809966587,0.7608141414336371,-0.1364248257431155,-0.659377,-15.378039
11.185,2.0,1.0,1.0,34.4,33.6,33.6,1.7,2.7,2.77,-0.5452024617005244,-0.10135321025074917,0.7464608556611587,-0.14272234903293848,-0.683136,-15.136809
11.185,2.0,1.0,1.0,34.4,33.6,33.6,1.7,2.7,2.7725,-0.5607847084211007,-0.10064934549595116,0.7314735637853196,-0.1492694359433927,-0.708197,-14.892988
11.185,2.0,1.0,1.0,34.4,33.6,33.6,1.7,2.7,2.775,-0.5761511046637928,-0.09972548332074893,0.7158369358285563,-0.15607395900802992,-0.734659,-14.64652
11.185,2.0,1.0,1.0,34.4,33.6,33.6,1.7,2.7,2.7775,-0.5912715487298671,-0.09856021291661221,0.6995357989440566,-0.16314365341498366,-0.762627,-14.39735
11.185,2.0,1.0,1.0,34.4,33.6,33.6,1.7,2.7,2.78,-0.6061135828037338,-0.09713019095176595,0.6825552391853538,-0.17048602753173223,-0.792219,-14.14542
11.185,2.0,1.0,1.0,34.4,33.6,33.6,1.7,2.7,2.7825,-0.6206422037952184,-0.09540996501410626,0.6648807227678498,-0.17810825471945207,-0.823563,-13.890673
11.185,2.0,1.0,1.0,34.4,33.6,33.6,1.7,2.7,2.785,-0.6348196588952099,-0.0933717818749717,0.6464982403315375,-0.18601704296114702,-0.856801,-13.633052
11.185,2.0,1.0,1.0,34.4,33.6,33.6,1.7,2.7,2.7875,-0.648605225111272,-0.09098537983661917,0.6273944783431462,-0.1942184782021981,-0.892089,-13.372501
11.185,2.0,1.0,1.0,34.4,33.6,33.6,1.7,2.7,2.79,-0.6619549722365959,-0.0882177646149553,0.6075570225122982,-0.2027178365701298,-0.929597,-13.108964
11.185,2.0,1.0,1.0,34.4,33.6,33.6,1.7,2.7,2.7925,-0.6748215089930557,-0.08503296849858424,0.5869745989553787,-0.21151935978710135,-0.969517,-12.842385
11.185,2.0,1.0,1.0,34.4,33.6,33.6,1.7,2.7,2.795,-0.6871537125115039,-0.08139179294953242,0.5656373598383483,-0.220625987098655,-1.012058,-12.572713
11.185,2.0,1.0,1.0,34.4,33.6,33.6,1.7,2.7,2.7975,-0.6988964419133384,-0.077251535414154,0.5435372213815178,-0.23003903590031766,-1.057455,-12.299897
11.185,2.0,1.0,1.0,34.4,33.6,33.6,1.7,2.7,2.8,-0.7099902375947527,-0.07256570195114075,0.5206682634283816,-0.23975782193674877,-1.105966,-12.023891
11.185,2.0,1.0,1.0,34.4,33.6,33.6,1.7,2.7,2.8025,-0.7203710089602565,-0.06728370842947312,0.49702720127782335,-0.24977920846684593,-1.15788,-11.744652
11.185,2.0,1.0,1.0,34.4,33.6,33.6,1.7,2.7,2.805,-0.7299697148984228,-0.061350574593942706,0.47261394215554386,-0.2600970721310718,-1.21352,-11.462143
11.185,2.0,1.0,1.0,34.4,33.6,33.6,1.7,2.7,2.8075,-0.7387120433554192,-0.05470661735444135,0.44743224054714187,-0.270701671435158,-1.273246,-11.176337
11.185,2.0,1.0,1.0,34.4,33.6,33.6,1.7,2.7,2.81,-0.7465180990856572,-0.047287152370485995,0.42149046860125094,-0.2815789018081368,-1.337461,-10.887212
11.185,2.0,1.0,1.0,34.4,33.6,33.6,1.7,2.7,2.8125,-0.7533021122210086,-0.03902221654997686,0.3948025198762034,-0.29270941916371124,-1.406617,-10.594759
11.185,2.0,1.0,1.0,34.4,33.6,33.6,1.7,2.7,2.815,-0.7589721849157716,-0.02983632867312981,0.3673888667418498,-0.3040676118988298,-1.481222,-10.298982
11.185,2.0,1.0,1.0,34.4,33.6,33.6,1.7,2.7,2.8175,-0.7634300992485488,-0.019648311240107328,0.33927779358798205,-0.3156203994736577,-1.561851,-9.9999
11.185,2.0,1.0,1.0,34.4,33.6,33.6,1.7,2.7,2.82,-0.766571217088059,-0.008371204112954377,0.3105068293678651,-0.3273258343973071,-1.649147,-9.697555
11.185,2.0,1.0,1.0,34.4,33.6,33.6,1.7,2.7,2.8225,-0.7682845120830254,0.004087690102138446,0.2811244035250962,-0.3391314839863755,-1.743844,-9.392007
11.185,2.0,1.0,1.0,34.4,33.6,33.6,1.7,2.7,2.825,-0.7684527856539197,0.01782657737752929,0.2511917484446792,-0.35097256923554093,-1.846767,-9.083347
11.185,2.0,1.0,1.0,34.4,33.6,33.6,1.7,2.7,2.8275,-0.7669531331608777,0.03294869459078204,0.22078506843043816,-0.36276984133930695,-1.958857,-8.771697
11.185,2.0,1.0,1.0,34.4,33.6,33.6,1.7,2.7,2.83,-0.7636577435227527,0.049561500255573814,0.18999798873512208,-0.37442718292695415,-2.081183,-8.45722
