1,w,sub_t,h,l1,l2,l3,g1,g2,Freq,S11_re,S21_re,S11_img,S21_img,S11_dB,S21_dB
11.185,2.0,1.0,1.0,33.6,33.9,33.9,4.2,2.4,2.5,0.837898699960455,-0.00663920599970232,0.534302707544166,0.00472747968902137,-0.054393,-41.77648
11.185,2.0,1.0,1.0,33.6,33.9,33.9,4.2,2.4,2.5025,0.8342686082916968,-0.006767338855872409,0.5398486405728394,0.004740815883085658,-0.05489,-41.65756
11.185,2.0,1.0,1.0,33.6,33.9,33.9,4.2,2.4,2.505,0.8305860237715744,-0.0068976820983670094,0.5453921936331279,0.004753390286517037,-0.055395,-41.538316
11.185,2.0,1.0,1.0,33.6,33.9,33.9,4.2,2.4,2.5075,0.8268504452582071,-0.007030279999091829,0.5509330977806184,0.0047651734599205645,-0.055909,-41.418737
11.185,2.0,1.0,1.0,33.6,33.9,33.9,4.2,2.4,2.51,0.823061364024974,-0.0071651779954030785,0.5564710762840015,0.004776134898939779,-0.056432,-41.298816
11.185,2.0,1.0,1.0,33.6,33.9,33.9,4.2,2.4,2.5125,0.8192182636478407,-0.007302422728790725,0.562005844381462,0.004786242990456309,-0.056964,-41.178541
11.185,2.0,1.0,1.0,33.6,33.9,33.9,4.2,2.4,2.515,0.8153206198913233,-0.007442062085142785,0.5675371090292815,0.004795464966713079,-0.057506,-41.057905
11.185,2.0,1.0,1.0,33.6,33.9,33.9,4.2,2.4,2.5175,0.8113679005930925,-0.007584145236668379,0.5730645686423552,0.004803766857246989,-0.058057,-40.936896
11.185,2.0,1.0,1.0,33.6,33.9,33.9,4.2,2.4,2.52,0.8073595655472001,-0.007728722685562092,0.5785879128263572,0.004811113438509867,-0.058618,-40.815504
11.185,2.0,1.0,1.0,33.6,33.9,33.9,4.2,2.4,2.5225,0.8032950663859404,-0.007875846309496493,0.5841068221012242,0.004817468181048643,-0.059189,-40.693721
11.185,2.0,1.0,1.0,33.6,33.9,33.9,4.2,2.4,2.525,0.7991738464603236,-0.008025569409035389,0.589620967615668,0.004822793194107411,-0.05977,-40.571535
11.185,2.0,1.0,1.0,33.6,33.9,33.9,4.2,2.4,2.5275,0.7949953407191641,-0.008177946757065235,0.5951300108523799,0.004827049167505236,-0.060362,-40.448935
11.185,2.0,1.0,1.0,33.6,33.9,33.9,4.2,2.4,2.53,0.7907589755867783,-0.008333034650348363,0.6006336033235796,0.004830195310633847,-0.060964,-40.325913
11.185,2.0,1.0,1.0,33.6,33.9,33.9,4.2,2.4,2.5325,0.7864641688392805,-0.008490890963307424,0.6061313862565564,0.004832189288409223,-0.061578,-40.202455
11.185,2.0,1.0,1.0,33.6,33.9,33.9,4.2,2.4,2.535,0.7821103294794706,-0.008651575204157444,0.6116229902688305,0.004832987153999943,-0.062203,-40.078553
11.185,2.0,1.0,1.0,33.6,33.9,33.9,4.2,2.4,2.5375,0.7776968576103122,-0.008815148573508926,0.6171080350325383,0.004832543278143288,-0.06284,-39.954193
11.185,2.0,1.0,1.0,33.6,33.9,33.9,4.2,2.4,2.54,0.7732231443069807,-0.008981674025572414,0.6225861289276353,0.004830810274847407,-0.063489,-39.829366
11.185,2.0,1.0,1.0,33.6,33.9,33.9,4.2,2.4,2.5425,0.768688571487481,-0.009151216332103789,0.6280568686834924,0.004827738923263907,-0.06415,-39.704059
11.185,2.0,1.0,1.0,33.6,33.9,33.9,4.2,2.4,2.545,0.7640925117818149,-0.009323842149237791,0.6335198390084334,0.0048232780855005175,-0.064823,-39.578261
11.185,2.0,1.0,1.0,33.6,33.9,33.9,4.2,2.4,2.5475,0.7594343283996952,-0.009499620087365945,0.6389746122067417,0.0048173746201274625,-0.06551,-39.45196
11.185,2.0,1.0,1.0,33.6,33.9,33.9,4.2,2.4,2.55,0.7547133749967739,-0.009678620784226448,0.6444207477826547,0.0048099732911138175,-0.066209,-39.325142
11.185,2.0,1.0,1.0,33.6,33.9,33.9,4.2,2.4,2.5525,0.7499289955393932,-0.009860916981381997,0.6498577920308126,0.004801016671911592,-0.066922,-39.197797
11.185,2.0,1.0,1.0,33.6,33.9,33.9,4.2,2.4,2.555,0.7450805241678098,-0.010046583604274918,0.6552852776126328,0.0047904450443850355,-0.06765,-39.069911
11.185,2.0,1.0,1.0,33.6,33.9,33.9,4.2,2.4,2.5575,0.7401672850578898,-0.010235697846060023,0.6607027231180373,0.004778196292260972,-0.068391,-38.94147
11.185,2.0,1.0,1.0,33.6,33.9,33.9,4.2,2.4,2.56,0.7351885922812377,-0.010428339255428291,0.6661096326119256,0.004764205788752337,-0.069147,-38.812463
11.185,2.0,1.0,1.0,33.6,33.9,33.9,4.2,2.4,2.5625,0.730143749663733,-0.0106245898286498,0.671505495164768,0.00474840627798159,-0.069919,-38.682875
11.185,2.0,1.0,1.0,33.6,33.9,33.9,4.2,2.4,2.565,0.7250320506424329,-0.010824534106077683,0.6768897843666576,0.004730727749803135,-0.070706,-38.552692
11.185,2.0,1.0,1.0,33.6,33.9,33.9,4.2,2.4,2.5675,0.7198527781208106,-0.011028259273372358,0.6822619578241094,0.004711097307593706,-0.071508,-38.4219
11.185,2.0,1.0,1.0,33.6,33.9,33.9,4.2,2.4,2.57,0.71460520432227,-0.011235855267721471,0.6876214566388739,0.004689439028547505,-0.072328,-38.290484
11.185,2.0,1.0,1.0,33.6,33.9,33.9,4.2,2.4,2.5725,0.7092885906418911,-0.01144741488935083,0.6929677048679848,0.0046656738159771855,-0.073164,-38.158431
11.185,2.0,1.0,1.0,33.6,33.9,33.9,4.2,2.4,2.575,0.7039021874963423,-0.011663033918640004,0.6983001089642122,0.004639719243083802,-0.074017,-38.025723
11.185,2.0,1.0,1.0,33.6,33.9,33.9,4.2,2.4,2.5775,0.6984452341718889,-0.011882811239179256,0.7036180571960436,0.004611489387616937,-0.074888,-37.892347
11.185,2.0,1.0,1.0,33.6,33.9,33.9,4.2,2.4,2.58,0.6929169586704246,-0.012106848967126783,0.7089209190462724,0.004580894656800911,-0.075778,-37.758286
11.185,2.0,1.0,1.0,33.6,33.9,33.9,4.2,2.4,2.5825,0.6873165775534226,-0.01233525258725036,0.7142080445882099,0.0045478416018536446,-0.076687,-37.623524
11.185,2.0,1.0,1.0,33.6,33.9,33.9,4.2,2.4,2.585,0.681643295783719,-0.012568131096064377,0.7194787638384766,0.004512232721370778,-0.077615,-37.488044
11.185,2.0,1.0,1.0,33.6,33.9,33.9,4.2,2.4,2.5875,0.6758963065649973,-0.012805597152502313,0.7247323860852725,0.004473966252789068,-0.078563,-37.351829
11.185,2.0,1.0,1.0,33.6,33.9,33.9,4.2,2.4,2.59,0.6700747911788576,-0.013047767236595589,0.7299681991909353,0.004432935951078889,-0.079532,-37.214861
11.185,2.0,1.0,1.0,33.6,33.9,33.9,4.2,2.4,2.5925,0.6641779188193039,-0.013294761816664018,0.7351854688675482,0.004389030853745649,-0.080522,-37.077123
11.185,2.0,1.0,1.0,33.6,33.9,33.9,4.2,2.4,2.595,0.6582048464245042,-0.013546705525558258,0.7403834379242443,0.004342135031143457,-0.081534,-36.938595
11.185,2.0,1.0,1.0,33.6,33.9,33.9,4.2,2.4,2.5975,0.6521547185056128,-0.013803727346535677,0.745561325484791,0.004292127321020361,-0.082569,-36.799259
11.185,2.0,1.0,1.0,33.6,33.9,33.9,4.2,2.4,2.6,0.6460266669724521,-0.014065960809392061,0.7507183261739254,0.004238881046122897,-0.083627,-36.659096
11.185,2.0,1.0,1.0,33.6,33.9,33.9,4.2,2.4,2.6025,0.6398198109558201,-0.014333544197517454,0.7558536092708019,0.0041822637135869945,-0.084709,-36.518085
11.185,2.0,1.0,1.0,33.6,33.9,33.9,4.2,2.4,2.605,0.6335332566261418,-0.014606620766595173,0.760966317827811,0.004122136694731769,-0.085816,-36.376205
11.185,2.0,1.0,1.0,33.6,33.9,33.9,4.2,2.4,2.6075,0.6271660970081747,-0.014885338975715598,0.7660555677528871,0.0040583548837515495,-0.086949,-36.233436
11.185,2.0,1.0,1.0,33.6,33.9,33.9,4.2,2.4,2.61,0.6207174117914296,-0.015169852731734459,0.7711204468532868,0.003990766333668162,-0.088108,-36.089755
11.185,2.0,1.0,1.0,33.6,33.9,33.9,4.2,2.4,2.6125,0.6141862671359252,-0.015460321647768706,0.7761600138386716,0.003919211867758715,-0.089294,-35.94514
11.185,2.0,1.0,1.0,33.6,33.9,33.9,4.2,2.4,2.615,0.6075717154728544,-0.015756911316790984,0.78117329728116,0.0038435246645124985,-0.090509,-35.799568
11.185,2.0,1.0,1.0,33.6,33.9,33.9,4.2,2.4,2.6175,0.6008727952996996,-0.016059793601357127,0.7861592945298191,0.0037635298139926062,-0.091754,-35.653016
11.185,2.0,1.0,1.0,33.6,33.9,33.9,4.2,2.4,2.62,0.5940885309692622,-0.01636914694058111,0.7911169705768799,0.003679043843281017,-0.093028,-35.505458
11.185,2.0,1.0,1.0,33.6,33.9,33.9,4.2,2.4,2.6225,0.58721793247202,-0.01668515667555983,0.7960452568727303,0.003589874208468645,-0.094334,-35.356869
11.185,2.0,1.0,1.0,33.6,33.9,33.9,4.2,2.4,2.625,0.580259995211173,-0.0170080153945413,0.800943050086483,0.00349581875041191,-0.095673,-35.207223
11.185,2.0,1.0,1.0,33.6,33.9,33.9,4.2,2.4,2.6275,0.573213699769628,-0.017337923299235926,0.805809210808671,0.0033966651112106554,-0.097045,-35.056493
11.185,2.0,1.0,1.0,33.6,33.9,33.9,4.2,2.4,2.63,0.5660780116681323,-0.01767508859377763,0.8106425621922926,0.0032921901080681334,-0.098452,-34.904651
11.185,2.0,1.0,1.0,33.6,33.9,33.9,4.2,2.4,2.6325,0.5588518811136446,-0.01801972789796384,0.8154418885281207,0.0031821590608659958,-0.099895,-34.751669
11.185,2.0,1.0,1.0,33.6,33.9,33.9,4.2,2.4,2.635,0.5515342427369491,-0.018372066686534596,0.8202059337498065,0.0030663250694240494,-0.101375,-34.597517
11.185,2.0,1.0,1.0,33.6,33.9,33.9,4.2,2.4,2.6375,0.5441240153184067,-0.018732339756390225,0.8249333998639025,0.0029444282360103855,-0.102895,-34.442163
11.185,2.0,1.0,1.0,33.6,33.9,33.9,4.2,2.4,2.64,0.5366201015005977,-0.019100791723804692,0.8296229452994893,0.0028161948282169236,-0.104455,-34.285577
11.185,2.0,1.0,1.0,33.6,33.9,33.9,4.2,2.4,2.6425,0.5290213874865055,-0.019477677553857098,0.8342731831715587,0.0026813363768142242,-0.106056,-34.127724
11.185,2.0,1.0,1.0,33.6,33.9,33.9,4.2,2.4,2.645,0.5213267427217205,-0.01986326312448573,0.838882679451765,0.0025395487026388967,-0.107702,-33.968572
11.185,2.0,1.0,1.0,33.6,33.9,33.9,4.2,2.4,2.6475,0.5135350195589913,-0.02025782582776841,0.843449951039507,0.0023905108659411944,-0.109392,-33.808085
11.185,2.0,1.0,1.0,33.6,33.9,33.9,4.2,2.4,2.65,0.505645052903256,-0.02066165521124623,0.847973463725624,0.002233884030919568,-0.11113,-33.646226
11.185,2.0,1.0,1.0,33.6,33.9,33.9,4.2,2.4,2.6525,0.49765565983512816,-0.02107505366234152,0.8524516300401621,0.0020693102373847715,-0.112917,-33.482957
11.185,2.0,1.0,1.0,33.6,33.9,33.9,4.2,2.4,2.655,0.48956563921053936,-0.02149833713917518,0.856882806974824,0.001896411070614358,-0.114755,-33.318239
11.185,2.0,1.0,1.0,33.6,33.9,33.9,4.2,2.4,2.6575,0.481373771234052,-0.021931835951361896,0.861265293569687,0.0017147862194698497,-0.116647,-33.152032
11.185,2.0,1.0,1.0,33.6,33.9,33.9,4.2,2.4,2.66,0.4730788170030676,-0.0223758955946611,0.8655973283526806,0.001524011911734907,-0.118594,-32.984292
11.185,2.0,1.0,1.0,33.6,33.9,33.9,4.2,2.4,2.6625,0.46467951801989277,-0.022830877643684983,0.8698770866190342,0.0013236392143786075,-0.120598,-32.814975
11.185,2.0,1.0,1.0,33.6,33.9,33.9,4.2,2.4,2.665,0.45617459566828045,-0.02329716070721329,0.8741026775365051,0.0011131921850319067,-0.122664,-32.644036
11.185,2.0,1.0,1.0,33.6,33.9,33.9,4.2,2.4,2.6675,0.4475627506507706,-0.023775141451044868,0.8782721410605665,0.0008921658593661516,-0.124793,-32.471427
11.185,2.0,1.0,1.0,33.6,33.9,33.9,4.2,2.4,2.67,0.43884266238274455,-0.02426523569372276,0.882383444641938,0.000660024057250837,-0.126987,-32.297098
11.185,2.0,1.0,1.0,33.6,33.9,33.9,4.2,2.4,2.6725,0.4300129883387178,-0.024767879580911777,0.8864344797067673,0.0004161969885152162,-0.129251,-32.120997
11.185,2.0,1.0,1.0,33.6,33.9,33.9,4.2,2.4,2.675,0.42107236334598036,-0.02528353084467781,0.890423057887427,0.0001600786368076209,-0.131588,-31.943071
11.185,2.0,1.0,1.0,33.6,33.9,33.9,4.2,2.4,2.6775,0.4120193988201916,-0.025812670154428466,0.8943469069792299,-0.00010897610260593797,-0.134001,-31.763264
11.185,2.0,1.0,1.0,33.6,33.9,33.9,4.2,2.4,2.68,0.4028526819370513,-0.026355802566813347,0.8982036665953315,-0.00039165455828235737,-0.136493,-31.581516
11.185,2.0,1.0,1.0,33.6,33.9,33.9,4.2,2.4,2.6825,0.3935707747336308,-0.02691345908245988,0.9019908834886077,-0.0006886897219075448,-0.139069,-31.397767
11.185,2.0,1.0,1.0,33.6,33.9,33.9,4.2,2.4,2.685,0.3841722131323474,-0.02748619831802835,0.9057060065053424,-0.0010008640260365646,-0.141733,-31.211952
11.185,2.0,1.0,1.0,33.6,33.9,33.9,4.2,2.4,2.6875,0.374655505879986,-0.0280746083027082,0.909346381131009,-0.00132901349935087,-0.144489,-31.024004
11.185,2.0,1.0,1.0,33.6,33.9,33.9,4.2,2.4,2.69,0.365019133393523,-0.028679308408942266,0.9129092435832007,-0.0016740323436972386,-0.147342,-30.833855
11.185,2.0,1.0,1.0,33.6,33.9,33.9,4.2,2.4,2.6925,0.3552615465038298,-0.029300951427848214,0.9163917144007822,-0.002036877983130961,-0.150298,-30.641429
11.185,2.0,1.0,1.0,33.6,33.9,33.9,4.2,2.4,2.695,0.3453811650877139,-0.029940225800494054,0.919790791471394,-0.002418576642047613,-0.153362,-30.446651
11.185,2.0,1.0,1.0,33.6,33.9,33.9,4.2,2.4,2.6975,0.33537637657801495,-0.030597858016870566,0.9231033424314677,-0.0028202295174125803,-0.156541,-30.24944
11.185,2.0,1.0,1.0,33.6,33.9,33.9,4.2,2.4,2.7,0.32524553434090975,-0.03127461519505146,0.9263260963636513,-0.003243019619259685,-0.159839,-30.049712
11.185,2.0,1.0,1.0,33.6,33.9,33.9,4.2,2.4,2.7025,0.3149869559089131,-0.03197130785363006,0.9294556347058266,-0.003688219364256418,-0.163266,-29.847377
11.185,2.0,1.0,1.0,33.6,33.9,33.9,4.2,2.4,2.705,0.30459892105762565,-0.032688792891012786,0.9324883812734339,-0.004157199019473365,-0.166827,-29.642344
11.185,2.0,1.0,1.0,33.6,33.9,33.9,4.2,2.4,2.7075,0.2940796697138722,-0.03342797678549488,0.9354205912823035,-0.004651436107868145,-0.170532,-29.434513
11.185,2.0,1.0,1.0,33.6,33.9,33.9,4.2,2.4,2.71,0.283427399682771,-0.034189819030156436,0.9382483392422366,-0.005172525903762987,-0.174389,-29.223782
11.185,2.0,1.0,1.0,33.6,33.9,33.9,4.2,2.4,2.7125,0.2726402641814163,-0.03497533581641364,0.9409675055717577,-0.005722193166215002,-0.178407,-29.010043
11.185,2.0,1.0,1.0,33.6,33.9,33.9,4.2,2.4,2.715,0.2617163691674894,-0.03578560397939877,0.9435737617611806,-0.006302305281180449,-0.182598,-28.79318
11.185,2.0,1.0,1.0,33.6,33.9,33.9,4.2,2.4,2.7175,0.25065377045230836,-0.036621765217064325,0.9460625538837778,-0.0069148870104166725,-0.186972,-28.573073
11.185,2.0,1.0,1.0,33.6,33.9,33.9,4.2,2.4,2.72,0.23945047058990815,-0.037485030592771626,0.9484290842225918,-0.007562137076930636,-0.191542,-28.349595
11.185,2.0,1.0,1.0,33.6,33.9,33.9,4.2,2.4,2.7225,0.22810441553688218,-0.038376685327848575,0.9506682907423064,-0.008246446854438517,-0.196321,-28.122611
11.185,2.0,1.0,1.0,33.6,33.9,33.9,4.2,2.4,2.725,0.21661349108249406,-0.03929809388576258,0.9527748240904194,-0.008970421472902557,-0.201325,-27.891978
11.185,2.0,1.0,1.0,33.6,33.9,33.9,4.2,2.4,2.7275,0.20497551905526828,-0.04025070534265355,0.9547430217582922,-0.009736903705205533,-0.206569,-27.657545
11.185,2.0,1.0,1.0,33.6,33.9,33.9,4.2,2.4,2.73,0.1931882533218741,-0.04123605902927946,0.9565668789686748,-0.01054900106313988,-0.212071,-27.419152
11.185,2.0,1.0,1.0,33.6,33.9,33.9,4.2,2.4,2.7325,0.1812493756072711,-0.042255790416030795,0.9582400157798985,-0.011410116606299854,-0.217851,-27.176628
11.185,2.0,1.0,1.0,33.6,33.9,33.9,4.2,2.4,2.735,0.16915649118330325,-0.043311637194318,0.959755639805321,-0.012323984057806457,-0.223931,-26.929795
11.185,2.0,1.0,1.0,33.6,33.9,33.9,4.2,2.4,2.7375,0.15690712449762956,-0.04440544548267652,0.9611065038365351,-0.013294707929360796,-0.230334,-26.678459
11.185,2.0,1.0,1.0,33.6,33.9,33.9,4.2,2.4,2.74,0.14449871484849466,-0.045539176052144775,0.9622848575261324,-0.014326809488966282,-0.237087,-26.422416
11.185,2.0,1.0,1.0,33.6,33.9,33.9,4.2,2.4,2.7425,0.1319286122561851,-0.04671491041988111,0.9632823921253377,-0.015425279562850416,-0.24422,-26.161448
11.185,2.0,1.0,1.0,33.6,33.9,33.9,4.2,2.4,2.745,0.11919407374326421,-0.04793485659858261,0.9640901770771755,-0.01659563935494789,-0.251766,-25.895322
11.185,2.0,1.0,1.0,33.6,33.9,33.9,4.2,2.4,2.7475,0.10629226031814996,-0.04920135420663933,0.964698587028979,-0.017844010700663538,-0.259761,-25.623791
11.185,2.0,1.0,1.0,33.6,33.9,33.9,4.2,2.4,2.75,0.0932202350677699,-0.0505168785327597,0.965097217538991,-0.0191771974563889,-0.268247,-25.346588
11.185,2.0,1.0,1.0,33.6,33.9,33.9,4.2,2.4,2.7525,0.07997496291492875,-0.0518840429990219,0.965274787397878,-0.020602780074795216,-0.277271,-25.063428
11.185,2.0,1.0,1.0,33.6,33.9,33.9,4.2,2.4,2.755,0.06655331279844828,-0.05330559926426518,0.965219025051344,-0.02212922584386913,-0.286884,-24.774007
11.185,2.0,1.0,1.0,33.6,33.9,33.9,4.2,2.4,2.7575,0.05295206330799477,-0.054784433936624764,0.9649165360746647,-0.023766017794651925,-0.297146,-24.477994
11.185,2.0,1.0,1.0,33.6,33.9,33.9,4.2,2.4,2.76,0.039167913177134285,-0.056323560493836966,0.9643526479886355,-0.02552380593344051,-0.308124,-24.175039
11.185,2.0,1.0,1.0,33.6,33.9,33.9,4.2,2.4,2.7625,0.025197498543651102,-0.05792610450667434,0.9635112278873146,-0.027414585260070835,-0.319895,-23.86476
11.185,2.0,1.0,1.0,33.6,33.9,33.9,4.2,2.4,2.765,0.011037419576617689,-0.05959527957413575,0.9623744673309518,-0.02945190603410185,-0.332547,-23.546748
11.185,2.0,1.0,1.0,33.6,33.9,33.9,4.2,2.4,2.7675,-0.0033157199838271087,-0.06133435043822059,0.9609226276922989,-0.031651122994611224,-0.34618,-23.220559
11.185,2.0,1.0,1.0,33.6,33.9,33.9,4.2,2.4,2.77,-0.017865255524754032,-0.06314657845151055,0.9591337375681936,-0.03402969178844896,-0.36091,-22.885715
11.185,2.0,1.0,1.0,33.6,33.9,33.9,4.2,2.4,2.7725,-0.0326143798443393,-0.06503514278077693,0.9569832319030622,-0.03660752279229182,-0.376872,-22.541697
11.185,2.0,1.0,1.0,33.6,33.9,33.9,4.2,2.4,2.775,-0.04756602786147192,-0.06700302824207047,0.9544435200218078,-0.03940740491842347,-0.394222,-22.187942
11.185,2.0,1.0,1.0,33.6,33.9,33.9,4.2,2.4,2.7775,-0.06272271508515614,-0.06905286718632783,0.9514834667232835,-0.04245551498304352,-0.413143,-21.823838
11.185,2.0,1.0,1.0,33.6,33.9,33.9,4.2,2.4,2.78,-0.07808631224762515,-0.07118671796855956,0.9480677668126914,-0.04578203191478975,-0.43385,-21.448721
11.185,2.0,1.0,1.0,33.6,33.9,33.9,4.2,2.4,2.7825,-0.09365773153072446,-0.07340575562547601,0.9441561888140332,-0.049421879622832544,-0.456597,-21.061868
11.185,2.0,1.0,1.0,33.6,33.9,33.9,4.2,2.4,2.785,-0.10943648988849833,-0.07570984055882596,0.939702657977469,-0.053415627846989305,-0.481685,-20.662491
11.185,2.0,1.0,1.0,33.6,33.9,33.9,4.2,2.4,2.7875,-0.1254201007518506,-0.07809691695368913,0.9346541420160918,-0.05781058683415019,-0.509475,-20.249732
11.185,2.0,1.0,1.0,33.6,33.9,33.9,4.2,2.4,2.79,-0.141603224913571,-0.08056217239804025,0.9289492953632741,-0.06266213912607754,-0.540401,-19.822654
11.185,2.0,1.0,1.0,33.6,33.9,33.9,4.2,2.4,2.7925,-0.15797648169122833,-0.08309686080975637,0.9225168095734868,-0.0680353596560612,-0.57499,-19.380239
11.185,2.0,1.0,1.0,33.6,33.9,33.9,4.2,2.4,2.795,-0.17452477817208148,-0.08568664800234543,0.915273409950777,-0.07400698257433572,-0.613881,-18.921379
11.185,2.0,1.0,1.0,33.6,33.9,33.9,4.2,2.4,2.7975,-0.19122495094453015,-0.08830927661439289,0.9071214341580097,-0.08066777717689597,-0.657863,-18.444873
11.185,2.0,1.0,1.0,33.6,33.9,33.9,4.2,2.4,2.8,-0.20804242158143912,-0.09093125520714582,0.8979459327792144,-0.08812539067702578,-0.707914,-17.949425
11.185,2.0,1.0,1.0,33.6,33.9,33.9,4.2,2.4,2.8025,-0.22492643019521505,-0.09350314126789691,0.8876112552161662,-0.09650769176036274,-0.765251,-17.433647
11.185,2.0,1.0,1.0,33.6,33.9,33.9,4.2,2.4,2.805,-0.2418032106243072,-0.09595278999642752,0.8759571475876871,-0.10596658537929714,-0.83141,-16.896072
11.185,2.0,1.0,1.0,33.6,33.9,33.9,4.2,2.4,2.8075,-0.2585661792104073,-0.09817565361902686,0.8627945320665161,-0.11668212684419348,-0.908341,-16.335177
11.185,2.0,1.0,1.0,33.6,33.9,33.9,4.2,2.4,2.81,-0.27506179403817593,-0.10002080771842942,0.8479014341572813,-0.12886646793270018,-0.998537,-15.749432
11.185,2.0,1.0,1.0,33.6,33.9,33.9,4.2,2.4,2.8125,-0.291069174157463,-0.101270823981201,0.831020115159392,-0.142766581743787,-1.105214,-15.137385
11.185,2.0,1.0,1.0,33.6,33.9,33.9,4.2,2.4,2.815,-0.3062708557863404,-0.10161291112637963,0.8118576057448316,-0.15866358540335562,-1.232543,-14.4978
11.185,2.0,1.0,1.0,33.6,33.9,33.9,4.2,2.4,2.8175,-0.3202113370664922,-0.10059804040115411,0.7900939710343616,-0.1768643690886264,-1.385948,-13.829895
11.185,2.0,1.0,1.0,33.6,33.9,33.9,4.2,2.4,2.82,-0.3322398071204389,-0.09758453891328288,0.7654065055181277,-0.19767742035351224,-1.57247,-13.133717
11.185,2.0,1.0,1.0,33.6,33.9,33.9,4.2,2.4,2.8225,-0.3414350216565288,-0.09166421379539583,0.7375247092360152,-0.22135817313051942,-1.801137,-12.410747
11.185,2.0,1.0,1.0,33.6,33.9,33.9,4.2,2.4,2.825,-0.34651696940689314,-0.08157571841827656,0.7063412957658317,-0.24799897898744144,-2.083149,-11.664826
11.185,2.0,1.0,1.0,33.6,33.9,33.9,4.2,2.4,2.8275,-0.3457687660568033,-0.06562848811097023,0.6721175851384437,-0.2773259585058949,-2.431372,-10.903542
