1,w,sub_t,h,l1,l2,l3,g1,g2,Freq,S11_re,S21_re,S11_img,S21_img,S11_dB,S21_dB
11.185,2.0,1.0,1.0,34.0,34.2,34.2,3.6,3.1,2.5,0.784478747471539,-0.00855535620032154,0.608593096048134,0.00484944352371051,-0.062145,-40.145231
11.185,2.0,1.0,1.0,34.0,34.2,34.2,3.6,3.1,2.5025,0.7799848260633583,-0.008715196944932549,0.6142263959302684,0.004846661980343916,-0.062771,-40.02418
11.185,2.0,1.0,1.0,34.0,34.2,34.2,3.6,3.1,2.505,0.7754283612666155,-0.008877786376861903,0.6198521320527067,0.004842518512945663,-0.063408,-39.902727
11.185,2.0,1.0,1.0,34.0,34.2,34.2,3.6,3.1,2.5075,0.7708087259697829,-0.009043178992309752,0.6254698656984259,0.00483696319583879,-0.064057,-39.780862
11.185,2.0,1.0,1.0,34.0,34.2,34.2,3.6,3.1,2.51,0.766125284323066,-0.009211430657047838,0.6310791454268162,0.004829944279585955,-0.064717,-39.658578
11.185,2.0,1.0,1.0,34.0,34.2,34.2,3.6,3.1,2.5125,0.7613773916431054,-0.009382598649021967,0.6366795066838375,0.004821408115311156,-0.065389,-39.535863
11.185,2.0,1.0,1.0,34.0,34.2,34.2,3.6,3.1,2.515,0.7565643943182576,-0.009556741702576572,0.6422704713997733,0.004811299075397478,-0.066074,-39.412707
11.185,2.0,1.0,1.0,34.0,34.2,34.2,3.6,3.1,2.5175,0.7516856297145742,-0.009733920054375664,0.647851547574123,0.004799559470360292,-0.066771,-39.289101
11.185,2.0,1.0,1.0,34.0,34.2,34.2,3.6,3.1,2.52,0.7467404260825695,-0.009914195491099325,0.6534222288472019,0.004786129461681275,-0.067482,-39.165034
11.185,2.0,1.0,1.0,34.0,34.2,34.2,3.6,3.1,2.5225,0.741728102464912,-0.010097631398998025,0.6589819940579411,0.0047709469703765385,-0.068205,-39.040496
11.185,2.0,1.0,1.0,34.0,34.2,34.2,3.6,3.1,2.525,0.7366479686051384,-0.01028429281539267,0.6645303067874189,0.004753947581055654,-0.068942,-38.915476
11.185,2.0,1.0,1.0,34.0,34.2,34.2,3.6,3.1,2.5275,0.7314993248575244,-0.010474246482212561,0.6700666148875903,0.00473506444121357,-0.069694,-38.789963
11.185,2.0,1.0,1.0,34.0,34.2,34.2,3.6,3.1,2.53,0.7262814620982448,-0.010667560901668328,0.675590349994674,0.004714228155479958,-0.070459,-38.663947
11.185,2.0,1.0,1.0,34.0,34.2,34.2,3.6,3.1,2.5325,0.7209936616379551,-0.010864306394162877,0.6811009270266352,0.0046913666745322,-0.071239,-38.537415
11.185,2.0,1.0,1.0,34.0,34.2,34.2,3.6,3.1,2.535,0.7156351951359359,-0.011064555158548747,0.6865977436641701,0.004666405178358282,-0.072035,-38.410356
11.185,2.0,1.0,1.0,34.0,34.2,34.2,3.6,3.1,2.5375,0.7102053245159621,-0.01126838133484619,0.6920801798145771,0.004639265953535292,-0.072846,-38.282759
11.185,2.0,1.0,1.0,34.0,34.2,34.2,3.6,3.1,2.54,0.7047033018840342,-0.011475861069543486,0.6975475970578564,0.004609868264164937,-0.073672,-38.154611
11.185,2.0,1.0,1.0,34.0,34.2,34.2,3.6,3.1,2.5425,0.6991283694481525,-0.011687072583607102,0.7029993380743786,0.004578128216084593,-0.074515,-38.025901
11.185,2.0,1.0,1.0,34.0,34.2,34.2,3.6,3.1,2.545,0.6934797594402861,-0.011902096243337068,0.7084347260533941,0.004543958613943994,-0.075375,-37.896615
11.185,2.0,1.0,1.0,34.0,34.2,34.2,3.6,3.1,2.5475,0.6877566940407375,-0.012121014634210274,0.7138530640816451,0.004507268810710331,-0.076252,-37.766742
11.185,2.0,1.0,1.0,34.0,34.2,34.2,3.6,3.1,2.55,0.681958385305056,-0.01234391263786377,0.7192536345112999,0.0044679645491324405,-0.077147,-37.636268
11.185,2.0,1.0,1.0,34.0,34.2,34.2,3.6,3.1,2.5525,0.676084035093725,-0.012570877512376745,0.7246356983063784,0.004425947794661877,-0.07806,-37.50518
11.185,2.0,1.0,1.0,34.0,34.2,34.2,3.6,3.1,2.555,0.6701328350047959,-0.012801998976021845,0.729998494366817,0.0043811165592922,-0.078992,-37.373464
11.185,2.0,1.0,1.0,34.0,34.2,34.2,3.6,3.1,2.5575,0.6641039663096848,-0.013037369294664463,0.7353412388292487,0.004333364715738022,-0.079943,-37.241106
11.185,2.0,1.0,1.0,34.0,34.2,34.2,3.6,3.1,2.56,0.6579965998923512,-0.013277083372999602,0.7406631243435577,0.0042825818013339225,-0.080914,-37.108093
11.185,2.0,1.0,1.0,34.0,34.2,34.2,3.6,3.1,2.5625,0.6518098961920736,-0.013521238849827697,0.7459633193241795,0.004228652810986147,-0.081905,-36.974409
11.185,2.0,1.0,1.0,34.0,34.2,34.2,3.6,3.1,2.565,0.6455430051500527,-0.013769936197582188,0.7512409671750971,0.004171457978460465,-0.082917,-36.84004
11.185,2.0,1.0,1.0,34.0,34.2,34.2,3.6,3.1,2.5675,0.6391950661600858,-0.014023278826333868,0.7564951854873974,0.004110872545235849,-0.083951,-36.704971
11.185,2.0,1.0,1.0,34.0,34.2,34.2,3.6,3.1,2.57,0.632765208023553,-0.014281373192511587,0.7617250652082013,0.004046766516093638,-0.085006,-36.569186
11.185,2.0,1.0,1.0,34.0,34.2,34.2,3.6,3.1,2.5725,0.6262525489089686,-0.014544328912591994,0.7669296697797131,0.003979004400548782,-0.086085,-36.432669
11.185,2.0,1.0,1.0,34.0,34.2,34.2,3.6,3.1,2.575,0.6196561963163618,-0.014812258882027014,0.7721080342470473,0.00390744493915988,-0.087187,-36.295403
11.185,2.0,1.0,1.0,34.0,34.2,34.2,3.6,3.1,2.5775,0.6129752470467561,-0.015085279399693082,0.777259164333421,0.003831940813678613,-0.088313,-36.157372
11.185,2.0,1.0,1.0,34.0,34.2,34.2,3.6,3.1,2.58,0.6062087871770252,-0.015363510298163786,0.7823820354812131,0.0037523383399172237,-0.089465,-36.018559
11.185,2.0,1.0,1.0,34.0,34.2,34.2,3.6,3.1,2.5825,0.5993558920404068,-0.015647075080125653,0.7874755918572865,0.0036684771421219256,-0.090642,-35.878946
11.185,2.0,1.0,1.0,34.0,34.2,34.2,3.6,3.1,2.585,0.5924156262129746,-0.0159361010612753,0.7925387453208783,0.003580189807543355,-0.091845,-35.738515
11.185,2.0,1.0,1.0,34.0,34.2,34.2,3.6,3.1,2.5875,0.5853870435063553,-0.0162307195200578,0.7975703743522529,0.0034873015197858016,-0.093076,-35.597247
11.185,2.0,1.0,1.0,34.0,34.2,34.2,3.6,3.1,2.59,0.5782691869670162,-0.016531065854625982,0.8025693229401684,0.0033896296694020645,-0.094335,-35.455123
11.185,2.0,1.0,1.0,34.0,34.2,34.2,3.6,3.1,2.5925,0.5710610888824171,-0.0168372797474249,0.8075343994261145,0.0032869834400713507,-0.095623,-35.312123
11.185,2.0,1.0,1.0,34.0,34.2,34.2,3.6,3.1,2.595,0.5637617707943715,-0.01714950533782774,0.8124643753030948,0.003179163368557737,-0.096941,-35.168228
11.185,2.0,1.0,1.0,34.0,34.2,34.2,3.6,3.1,2.5975,0.5563702435199194,-0.01746789140327735,0.8173579839666061,0.0030659608764927147,-0.098291,-35.023416
11.185,2.0,1.0,1.0,34.0,34.2,34.2,3.6,3.1,2.6,0.5488855071800619,-0.017792591549411686,0.8222139194152681,0.0029471577718578807,-0.099672,-34.877666
11.185,2.0,1.0,1.0,34.0,34.2,34.2,3.6,3.1,2.6025,0.5413065512366985,-0.018123764409681265,0.8270308348983839,0.002822525717857534,-0.101086,-34.730956
11.185,2.0,1.0,1.0,34.0,34.2,34.2,3.6,3.1,2.605,0.5336323545380973,-0.018461573854996145,0.831807341507512,0.002691825666668701,-0.102535,-34.583264
11.185,2.0,1.0,1.0,34.0,34.2,34.2,3.6,3.1,2.6075,0.525861885373265,-0.01880618921396995,0.8365420067088867,0.0025548072553322585,-0.104019,-34.434565
11.185,2.0,1.0,1.0,34.0,34.2,34.2,3.6,3.1,2.61,0.517994101535567,-0.01915778550436159,0.8412333528132881,0.0024112081608037936,-0.10554,-34.284837
11.185,2.0,1.0,1.0,34.0,34.2,34.2,3.6,3.1,2.6125,0.5100279503959546,-0.019516543676349023,0.8458798553797052,0.002260753410910356,-0.107099,-34.134054
11.185,2.0,1.0,1.0,34.0,34.2,34.2,3.6,3.1,2.615,0.5019623689861649,-0.019882650868303937,0.8504799415488072,0.002103154647662297,-0.108696,-33.982191
11.185,2.0,1.0,1.0,34.0,34.2,34.2,3.6,3.1,2.6175,0.49379628409227144,-0.02025630067577244,0.85503198830193,0.0019381093390387696,-0.110335,-33.829221
11.185,2.0,1.0,1.0,34.0,34.2,34.2,3.6,3.1,2.62,0.4855286123589532,-0.020637693434403945,0.8595343206409178,0.0017652999350010236,-0.112015,-33.675117
11.185,2.0,1.0,1.0,34.0,34.2,34.2,3.6,3.1,2.6225,0.4771582604048547,-0.021027036517608958,0.8639852096837585,0.0015843929630850787,-0.11374,-33.519851
11.185,2.0,1.0,1.0,34.0,34.2,34.2,3.6,3.1,2.625,0.468684124949449,-0.021424544649763,0.868382870670487,0.00139503805847932,-0.115509,-33.363394
11.185,2.0,1.0,1.0,34.0,34.2,34.2,3.6,3.1,2.6275,0.4601050929517583,-0.02183044023581507,0.8727254608733875,0.0011968669229971214,-0.117326,-33.205715
11.185,2.0,1.0,1.0,34.0,34.2,34.2,3.6,3.1,2.63,0.4514200417613694,-0.02224495370819447,0.8770110774049054,0.0009894922068064537,-0.119191,-33.046785
11.185,2.0,1.0,1.0,34.0,34.2,34.2,3.6,3.1,2.6325,0.44262783928211996,-0.022668323891948627,0.8812377549161697,0.0007725063061688306,-0.121107,-32.886571
11.185,2.0,1.0,1.0,34.0,34.2,34.2,3.6,3.1,2.635,0.4337273441489104,-0.023100798389079014,0.8854034631782309,0.0005454800697611221,-0.123075,-32.725039
11.185,2.0,1.0,1.0,34.0,34.2,34.2,3.6,3.1,2.6375,0.42471740591806195,-0.023542633983074265,0.8895061045374965,0.00030796140540011245,-0.125098,-32.562156
11.185,2.0,1.0,1.0,34.0,34.2,34.2,3.6,3.1,2.64,0.4155968652716799,-0.0239940970646698,0.8935435112359048,5.94737781459764e-05,-0.127178,-32.397885
11.185,2.0,1.0,1.0,34.0,34.2,34.2,3.6,3.1,2.6425,0.40636455423652507,-0.024455464079883315,0.8975134425854994,-0.00020048541017600026,-0.129317,-32.23219
11.185,2.0,1.0,1.0,34.0,34.2,34.2,3.6,3.1,2.645,0.39701929641790495,-0.02492702200139312,0.901413581986008,-0.0004724465710476713,-0.131518,-32.065032
11.185,2.0,1.0,1.0,34.0,34.2,34.2,3.6,3.1,2.6475,0.3875599072491655,-0.02540906882433016,0.905241533772839,-0.0007569698211099836,-0.133783,-31.896372
11.185,2.0,1.0,1.0,34.0,34.2,34.2,3.6,3.1,2.65,0.37798519425739613,-0.02590191408754869,0.9089948198816304,-0.001054647029296113,-0.136115,-31.726169
11.185,2.0,1.0,1.0,34.0,34.2,34.2,3.6,3.1,2.6525,0.3682939573460827,-0.026405879421413977,0.9126708763139875,-0.001366104034222796,-0.138517,-31.554379
11.185,2.0,1.0,1.0,34.0,34.2,34.2,3.6,3.1,2.655,0.3584849890954842,-0.02692129912310488,0.9162670493873876,-0.0016920030484750101,-0.140992,-31.380958
11.185,2.0,1.0,1.0,34.0,34.2,34.2,3.6,3.1,2.6575,0.3485570750816739,-0.027448520760354752,0.9197805917503888,-0.002033045268282768,-0.143542,-31.205861
11.185,2.0,1.0,1.0,34.0,34.2,34.2,3.6,3.1,2.66,0.33850899421532055,-0.027987905804452772,0.9232086581421634,-0.0023899737091890422,-0.146173,-31.029038
11.185,2.0,1.0,1.0,34.0,34.2,34.2,3.6,3.1,2.6625,0.3283395191015027,-0.02853983029318201,0.9265483008729846,-0.002763576290675337,-0.148887,-30.85044
11.185,2.0,1.0,1.0,34.0,34.2,34.2,3.6,3.1,2.665,0.3180474164220506,-0.029104685524176995,0.9297964649996745,-0.0031546891953875794,-0.151687,-30.670016
11.185,2.0,1.0,1.0,34.0,34.2,34.2,3.6,3.1,2.6675,0.3076314473422901,-0.02968287877892225,0.9329499831669038,-0.0035642005316288096,-0.154579,-30.487709
11.185,2.0,1.0,1.0,34.0,34.2,34.2,3.6,3.1,2.67,0.2970903679443769,-0.030274834077279482,0.9360055700818632,-0.003993054331214414,-0.157567,-30.303465
11.185,2.0,1.0,1.0,34.0,34.2,34.2,3.6,3.1,2.6725,0.28642292968992744,-0.03088099296199658,0.938959816585888,-0.004442254918674224,-0.160655,-30.117223
11.185,2.0,1.0,1.0,34.0,34.2,34.2,3.6,3.1,2.675,0.2756278799152596,-0.031501815312098655,0.9418091832821638,-0.004912871692203716,-0.163849,-29.928923
11.185,2.0,1.0,1.0,34.0,34.2,34.2,3.6,3.1,2.6775,0.2647039623632744,-0.032137780183363655,0.9445499936735976,-0.005406044361798065,-0.167153,-29.7385
11.185,2.0,1.0,1.0,34.0,34.2,34.2,3.6,3.1,2.68,0.25364991775693635,-0.032789386673203656,0.947178426759172,-0.005922988695735985,-0.170574,-29.545887
11.185,2.0,1.0,1.0,34.0,34.2,34.2,3.6,3.1,2.6825,0.2424644844204781,-0.033457154806168586,0.9496905090304636,-0.006465002833127796,-0.174117,-29.351014
11.185,2.0,1.0,1.0,34.0,34.2,34.2,3.6,3.1,2.685,0.23114639895583908,-0.03414162643491221,0.9520821058024904,-0.007033474227733161,-0.17779,-29.153807
11.185,2.0,1.0,1.0,34.0,34.2,34.2,3.6,3.1,2.6875,0.21969439698360194,-0.03484336614973875,0.9543489118043842,-0.007629887296834692,-0.181599,-28.954189
11.185,2.0,1.0,1.0,34.0,34.2,34.2,3.6,3.1,2.69,0.2081072139598904,-0.03556296218771193,0.9564864409454258,-0.008255831858805376,-0.185552,-28.75208
11.185,2.0,1.0,1.0,34.0,34.2,34.2,3.6,3.1,2.6925,0.19638358608331463,-0.03630102732965348,0.9584900151605471,-0.008913012454336474,-0.189657,-28.547394
11.185,2.0,1.0,1.0,34.0,34.2,34.2,3.6,3.1,2.695,0.18452225130943858,-0.03705819977005891,0.9603547522262015,-0.009603258659340912,-0.193924,-28.340045
11.185,2.0,1.0,1.0,34.0,34.2,34.2,3.6,3.1,2.6975,0.17252195049425398,-0.03783514394087377,0.9620755524223106,-0.010328536512612351,-0.19836,-28.129937
11.185,2.0,1.0,1.0,34.0,34.2,34.2,3.6,3.1,2.7,0.1603814286933381,-0.03863255126499792,0.9636470838983001,-0.011090961198735799,-0.202978,-27.916975
11.185,2.0,1.0,1.0,34.0,34.2,34.2,3.6,3.1,2.7025,0.14809943664954528,-0.039451140809096626,0.9650637665809223,-0.011892811146928787,-0.207788,-27.701054
11.185,2.0,1.0,1.0,34.0,34.2,34.2,3.6,3.1,2.705,0.13567473251001363,-0.04029165979748453,0.9663197544377193,-0.012736543729917612,-0.212803,-27.482067
11.185,2.0,1.0,1.0,34.0,34.2,34.2,3.6,3.1,2.7075,0.1231060838228653,-0.04115488393914899,0.9674089158824942,-0.013624812774207599,-0.218034,-27.2599
11.185,2.0,1.0,1.0,34.0,34.2,34.2,3.6,3.1,2.71,0.11039226987609119,-0.042041617507912375,0.9683248120769298,-0.014560488124865786,-0.223498,-27.034433
11.185,2.0,1.0,1.0,34.0,34.2,34.2,3.6,3.1,2.7125,0.09753208445608637,-0.04295269310071486,0.9690606728449107,-0.01554667754503488,-0.22921,-26.805539
11.185,2.0,1.0,1.0,34.0,34.2,34.2,3.6,3.1,2.715,0.0845243391220559,-0.043888970980266465,0.9696093698721181,-0.016586751273808334,-0.235186,-26.573085
11.185,2.0,1.0,1.0,34.0,34.2,34.2,3.6,3.1,2.7175,0.07136786711584214,-0.04485133788492583,0.9699633868118694,-0.017684369617014906,-0.241445,-26.33693
11.185,2.0,1.0,1.0,34.0,34.2,34.2,3.6,3.1,2.72,0.05806152805603783,-0.045840705159386305,0.9701147858575125,-0.01884351400528955,-0.248009,-26.096924
11.185,2.0,1.0,1.0,34.0,34.2,34.2,3.6,3.1,2.7225,0.04460421360192471,-0.0468580060230444,0.9700551702702487,-0.020068522024271375,-0.254899,-25.852909
11.185,2.0,1.0,1.0,34.0,34.2,34.2,3.6,3.1,2.725,0.03099485431899504,-0.04790419174678266,0.9697756422669555,-0.02136412700490261,-0.262141,-25.604719
11.185,2.0,1.0,1.0,34.0,34.2,34.2,3.6,3.1,2.7275,0.017232428035893508,-0.048980226450778284,0.9692667555729212,-0.02273550286011532,-0.269761,-25.352176
11.185,2.0,1.0,1.0,34.0,34.2,34.2,3.6,3.1,2.73,0.0033159700562840535,-0.05008708016251215,0.9685184618262547,-0.024188314970641188,-0.277791,-25.095091
11.185,2.0,1.0,1.0,34.0,34.2,34.2,3.6,3.1,2.7325,-0.010755414317809927,-0.05122571968114024,0.96752004988057,-0.025728778060916387,-0.286264,-24.833266
11.185,2.0,1.0,1.0,34.0,34.2,34.2,3.6,3.1,2.735,-0.02498253437608292,-0.0523970966761994,0.9662600768858246,-0.02736372217040496,-0.295217,-24.566486
11.185,2.0,1.0,1.0,34.0,34.2,34.2,3.6,3.1,2.7375,-0.03936609497738849,-0.05360213229798461,0.9647262898286149,-0.029100668021419765,-0.304692,-24.294527
11.185,2.0,1.0,1.0,34.0,34.2,34.2,3.6,3.1,2.74,-0.053906672995198766,-0.05484169738429036,0.962905535976371,-0.030947913317988143,-0.314736,-24.017146
11.185,2.0,1.0,1.0,34.0,34.2,34.2,3.6,3.1,2.7425,-0.06860468806373277,-0.0561165871009898,0.9607836603870321,-0.03291463178911659,-0.325401,-23.734087
11.185,2.0,1.0,1.0,34.0,34.2,34.2,3.6,3.1,2.745,-0.08346036613770422,-0.05742748853548953,0.958345388307603,-0.03501098712301727,-0.336745,-23.445076
11.185,2.0,1.0,1.0,34.0,34.2,34.2,3.6,3.1,2.7475,-0.09847369396526409,-0.05877493935036414,0.9555741898807083,-0.03724826433727337,-0.348834,-23.149818
11.185,2.0,1.0,1.0,34.0,34.2,34.2,3.6,3.1,2.75,-0.113644362036744,-0.0601592750699664,0.952452124094679,-0.0396390216061963,-0.361744,-22.848
11.185,2.0,1.0,1.0,34.0,34.2,34.2,3.6,3.1,2.7525,-0.12897169287168544,-0.06158056187602387,0.9489596583352039,-0.04219726613543351,-0.375558,-22.539285
11.185,2.0,1.0,1.0,34.0,34.2,34.2,3.6,3.1,2.755,-0.1444545505896825,-0.0630385108759824,0.9450754592079306,-0.04493865835180172,-0.390373,-22.223313
11.185,2.0,1.0,1.0,34.0,34.2,34.2,3.6,3.1,2.7575,-0.160091226504377,-0.06453236860819135,0.9407761494832805,-0.04788074948143423,-0.406299,-21.899697
11.185,2.0,1.0,1.0,34.0,34.2,34.2,3.6,3.1,2.76,-0.17587929388582957,-0.06606077696313953,0.9360360250479531,-0.051043258540116605,-0.423463,-21.568021
11.185,2.0,1.0,1.0,34.0,34.2,34.2,3.6,3.1,2.7625,-0.19181542292025472,-0.06762159359636084,0.9308267246149065,-0.054448395872894836,-0.442009,-21.227838
11.185,2.0,1.0,1.0,34.0,34.2,34.2,3.6,3.1,2.765,-0.2078951440727504,-0.06921166110322992,0.9251168436333302,-0.05812124166633021,-0.462106,-20.878666
11.185,2.0,1.0,1.0,34.0,34.2,34.2,3.6,3.1,2.7675,-0.22411254427444327,-0.07082650946658099,0.9188714823544463,-0.06209018931323537,-0.483948,-20.519987
11.185,2.0,1.0,1.0,34.0,34.2,34.2,3.6,3.1,2.77,-0.24045987525864,-0.07245997122644518,0.9120517163766488,-0.0663874651062899,-0.507763,-20.151244
11.185,2.0,1.0,1.0,34.0,34.2,34.2,3.6,3.1,2.7725,-0.2569270464738382,-0.07410368197402502,0.9046139762940677,-0.0710497373930614,-0.533817,-19.771833
11.185,2.0,1.0,1.0,34.0,34.2,34.2,3.6,3.1,2.775,-0.27350096562696824,-0.07574642946775001,0.8965093214758637,-0.0761188298696288,-0.562425,-19.381105
11.185,2.0,1.0,1.0,34.0,34.2,34.2,3.6,3.1,2.7775,-0.29016467711476573,-0.07737330197342678,0.8876825918387,-0.08164255479333869,-0.593959,-18.978362
11.185,2.0,1.0,1.0,34.0,34.2,34.2,3.6,3.1,2.78,-0.30689623107210956,-0.07896456904384976,0.8780714213465196,-0.08767568195259982,-0.628861,-18.56285
11.185,2.0,1.0,1.0,34.0,34.2,34.2,3.6,3.1,2.7825,-0.3236671916847595,-0.08049420407545581,0.8676050989586956,-0.0942810571669568,-0.667663,-18.13376
11.185,2.0,1.0,1.0,34.0,34.2,34.2,3.6,3.1,2.785,-0.3404406602766081,-0.08192792513512005,0.8562032687364461,-0.1015308780236803,-0.711006,-17.690225
11.185,2.0,1.0,1.0,34.0,34.2,34.2,3.6,3.1,2.7875,-0.35716864309285595,-0.08322058538302984,0.8437744740717638,-0.10950812123968252,-0.759665,-17.231318
11.185,2.0,1.0,1.0,34.0,34.2,34.2,3.6,3.1,2.79,-0.3737885311682612,-0.08431268249312199,0.8302145771201075,-0.11830808990324687,-0.81459,-16.756057
11.185,2.0,1.0,1.0,34.0,34.2,34.2,3.6,3.1,2.7925,-0.39021837451854985,-0.0851256721966164,0.8154051330438364,-0.12804000041366806,-0.876951,-16.263411
11.185,2.0,1.0,1.0,34.0,34.2,34.2,3.6,3.1,2.795,-0.4063505185744893,-0.08555565800937717,0.7992118857956352,-0.1388284421247575,-0.948194,-15.752309
11.185,2.0,1.0,1.0,34.0,34.2,34.2,3.6,3.1,2.7975,-0.422043021230348,-0.08546488143434446,0.7814837051594933,-0.15081439045252618,-1.030127,-15.221667
11.185,2.0,1.0,1.0,34.0,34.2,34.2,3.6,3.1,2.8,-0.43710808240050514,-0.08467025292344275,0.762052549095728,-0.16415519143778923,-1.125022,-14.670422
11.185,2.0,1.0,1.0,34.0,34.2,34.2,3.6,3.1,2.8025,-0.45129650673641103,-0.08292795595258486,0.74073548569695,-0.1790224885554133,-1.235757,-14.097591
11.185,2.0,1.0,1.0,34.0,34.2,34.2,3.6,3.1,2.805,-0.4642770318122572,-0.07991297234939589,0.7173405641568449,-0.1955963132234174,-1.365994,-13.502369
11.185,2.0,1.0,1.0,34.0,34.2,34.2,3.6,3.1,2.8075,-0.475609318300013,-0.07519234562708897,0.6916795640739469,-0.2140523309992756,-1.52042,-12.884265
11.185,2.0,1.0,1.0,34.0,34.2,34.2,3.6,3.1,2.81,-0.4847098217955145,-0.06819142497378461,0.6635926230368419,-0.23453728313877054,-1.70504,-12.243327
11.185,2.0,1.0,1.0,34.0,34.2,34.2,3.6,3.1,2.8125,-0.490811310640227,-0.058153873248711,0.632992704167333,-0.257124732041546,-1.927522,-11.580464
11.185,2.0,1.0,1.0,34.0,34.2,34.2,3.6,3.1,2.815,-0.4929207803958666,-0.0441001862014725,0.5999418653822584,-0.2817392663448826,-2.197539,-10.897928
11.185,2.0,1.0,1.0,34.0,34.2,34.2,3.6,3.1,2.8175,-0.4897893034217753,-0.024798193060050884,0.5647754800393678,-0.3080331968792962,-2.526932,-10.199994
11.185,2.0,1.0,1.0,34.0,34.2,34.2,3.6,3.1,2.82,-0.4799244102551942,0.0012240819212259845,0.5282915169141601,-0.33519887442023116,-2.929245,-9.493891
11.185,2.0,1.0,1.0,34.0,34.2,34.2,3.6,3.1,2.8225,-0.4617037972543003,0.03556490383473914,0.4920105151070573,-0.3617112079935929,-3.417551,-8.790976
11.185,2.0,1.0,1.0,34.0,34.2,34.2,3.6,3.1,2.825,-0.43368358598312934,0.07964235505715651,0.45846926177714864,-0.38503729645070006,-3.998164,-8.108
11.185,2.0,1.0,1.0,34.0,34.2,34.2,3.6,3.1,2.8275,-0.3952045379959157,0.13409275829040693,0.43141282886640137,-0.4014475731310658,-4.655885,-7.46805
