1,w,sub_t,h,l1,l2,l3,g1,g2,Freq,S11_re,S21_re,S11_img,S21_img,S11_dB,S21_dB
11.185,2.0,1.0,1.0,34.8,33.8,33.8,1.7,2.8,2.5,0.627403128522945,-0.0239308857862414,0.765400612074748,0.0103833509508393,-0.090076,-31.671711
11.185,2.0,1.0,1.0,34.8,33.8,33.8,1.7,2.8,2.5025,0.6203464346072174,-0.024371346206755778,0.770959181395132,0.010298342256352466,-0.091252,-31.548906
11.185,2.0,1.0,1.0,34.8,33.8,33.8,1.7,2.8,2.505,0.6131949124308744,-0.024819098397606792,0.7764857783266694,0.010207014129185711,-0.092447,-31.425645
11.185,2.0,1.0,1.0,34.8,33.8,33.8,1.7,2.8,2.5075,0.6059475982537382,-0.02527424610387043,0.781979136608059,0.010109133778896663,-0.093664,-31.301923
11.185,2.0,1.0,1.0,34.8,33.8,33.8,1.7,2.8,2.51,0.5986035227654626,-0.02573689342531751,0.7874379528567048,0.010004460274666832,-0.094903,-31.177733
11.185,2.0,1.0,1.0,34.8,33.8,33.8,1.7,2.8,2.5125,0.5911617114518025,-0.026207144726606256,0.792860885506944,0.009892744251068702,-0.096165,-31.05307
11.185,2.0,1.0,1.0,34.8,33.8,33.8,1.7,2.8,2.515,0.5836211849890801,-0.02668510453980172,0.7982465537199631,0.009773727602930018,-0.09745,-30.927926
11.185,2.0,1.0,1.0,34.8,33.8,33.8,1.7,2.8,2.5175,0.5759809596683777,-0.027170877458709823,0.8035935362647992,0.009647143168898697,-0.098758,-30.802297
11.185,2.0,1.0,1.0,34.8,33.8,33.8,1.7,2.8,2.52,0.5682400478510404,-0.027664568024482392,0.808900370369863,0.009512714403295935,-0.100092,-30.676175
11.185,2.0,1.0,1.0,34.8,33.8,33.8,1.7,2.8,2.5225,0.5603974584571871,-0.028166280601913948,0.8141655505443838,0.009370155035834424,-0.101451,-30.549555
11.185,2.0,1.0,1.0,34.8,33.8,33.8,1.7,2.8,2.525,0.5524521974889574,-0.028676119245816215,0.8193875273692222,0.00921916871876165,-0.102836,-30.422429
11.185,2.0,1.0,1.0,34.8,33.8,33.8,1.7,2.8,2.5275,0.5444032685903508,-0.029194187556816815,0.8245647062564732,0.00905944866097771,-0.104248,-30.294792
11.185,2.0,1.0,1.0,34.8,33.8,33.8,1.7,2.8,2.53,0.5362496736455857,-0.02972058852588686,0.8296954461772995,0.008890677248660302,-0.105688,-30.166636
11.185,2.0,1.0,1.0,34.8,33.8,33.8,1.7,2.8,2.5325,0.5279904134179944,-0.030255424366858873,0.8347780583574514,0.008712525651916051,-0.107156,-30.037954
11.185,2.0,1.0,1.0,34.8,33.8,33.8,1.7,2.8,2.535,0.5196244882315695,-0.03079879633615135,0.8398108049399323,0.008524653416963287,-0.108654,-29.908741
11.185,2.0,1.0,1.0,34.8,33.8,33.8,1.7,2.8,2.5375,0.5111508986973966,-0.03135080453886269,0.8447918976142885,0.008326708043334755,-0.110183,-29.778988
11.185,2.0,1.0,1.0,34.8,33.8,33.8,1.7,2.8,2.54,0.5025686464872772,-0.03191154772034979,0.8497194962120194,0.008118324545576174,-0.111743,-29.648689
11.185,2.0,1.0,1.0,34.8,33.8,33.8,1.7,2.8,2.5425,0.4938767351569904,-0.032481123042346606,0.8545917072676216,0.007899124998899457,-0.113335,-29.517837
11.185,2.0,1.0,1.0,34.8,33.8,33.8,1.7,2.8,2.545,0.4850741710217372,-0.03305962584262044,0.8594065825448053,0.007668718068234556,-0.114961,-29.386425
11.185,2.0,1.0,1.0,34.8,33.8,33.8,1.7,2.8,2.5475,0.4761599640864497,-0.03364714937709822,0.8641621175274384,0.0074266985201103,-0.11662,-29.254445
11.185,2.0,1.0,1.0,34.8,33.8,33.8,1.7,2.8,2.55,0.4671331290337362,-0.0342437845433319,0.868856249874828,0.00717264671677627,-0.118316,-29.121889
11.185,2.0,1.0,1.0,34.8,33.8,33.8,1.7,2.8,2.5525,0.45799268627242895,-0.03484961958409377,0.8734868578409333,0.006906128091966158,-0.120047,-28.988751
11.185,2.0,1.0,1.0,34.8,33.8,33.8,1.7,2.8,2.555,0.44873766304976587,-0.035464739769822666,0.8780517586571999,0.006626692607684607,-0.121817,-28.855022
11.185,2.0,1.0,1.0,34.8,33.8,33.8,1.7,2.8,2.5575,0.43936709463042817,-0.036089227058556356,0.8825487068787009,0.00633387419138711,-0.123625,-28.720694
11.185,2.0,1.0,1.0,34.8,33.8,33.8,1.7,2.8,2.56,0.4298800255457947,-0.036723159731900476,0.8869753926933297,0.006027190152906781,-0.125473,-28.585761
11.185,2.0,1.0,1.0,34.8,33.8,33.8,1.7,2.8,2.5625,0.42027551091692844,-0.03736661200549123,0.8913294401938415,0.005706140580467552,-0.127362,-28.450213
11.185,2.0,1.0,1.0,34.8,33.8,33.8,1.7,2.8,2.565,0.4105526178549586,-0.0380196536123128,0.8956084056125981,0.005370207715109876,-0.129293,-28.314044
11.185,2.0,1.0,1.0,34.8,33.8,33.8,1.7,2.8,2.5675,0.4007104269427302,-0.03868234935712252,0.8998097755189138,0.005018855302841266,-0.131269,-28.177243
11.185,2.0,1.0,1.0,34.8,33.8,33.8,1.7,2.8,2.57,0.39074803380172546,-0.03935475864012827,0.9039309649789867,0.00465152792381257,-0.133289,-28.039804
11.185,2.0,1.0,1.0,34.8,33.8,33.8,1.7,2.8,2.5725,0.3806645507484816,-0.04003693494794245,0.9079693156784592,0.004267650297806494,-0.135356,-27.901717
11.185,2.0,1.0,1.0,34.8,33.8,33.8,1.7,2.8,2.575,0.370459108544895,-0.04072892530970942,0.9119220940077299,0.0038666265653175057,-0.137471,-27.762974
11.185,2.0,1.0,1.0,34.8,33.8,33.8,1.7,2.8,2.5775,0.36013085824704566,-0.04143076971616974,0.9157864891102333,0.0034478395434896104,-0.139635,-27.623567
11.185,2.0,1.0,1.0,34.8,33.8,33.8,1.7,2.8,2.58,0.34967897315733215,-0.04214250049927833,0.9195596108939833,0.00301064995617142,-0.141851,-27.483486
11.185,2.0,1.0,1.0,34.8,33.8,33.8,1.7,2.8,2.5825,0.3391026508849739,-0.04286414166984229,0.9232384880067919,0.002554395637341326,-0.144119,-27.342722
11.185,2.0,1.0,1.0,34.8,33.8,33.8,1.7,2.8,2.585,0.32840111552014994,-0.04359570821047716,0.9268200657756729,0.00207839070714898,-0.146442,-27.201266
11.185,2.0,1.0,1.0,34.8,33.8,33.8,1.7,2.8,2.5875,0.317573619927267,-0.04433720532100807,0.9303012041110632,0.0015819247198174094,-0.14882,-27.059109
11.185,2.0,1.0,1.0,34.8,33.8,33.8,1.7,2.8,2.59,0.3066194481631502,-0.04508862761325115,0.9336786753766237,0.0010642617826499168,-0.151257,-26.916241
11.185,2.0,1.0,1.0,34.8,33.8,33.8,1.7,2.8,2.5925,0.29553791802614465,-0.04584995825191559,0.936949162225519,0.0005246396453842923,-0.153753,-26.772653
11.185,2.0,1.0,1.0,34.8,33.8,33.8,1.7,2.8,2.595,0.2843283837424717,-0.046621168038146844,0.9401092554042203,-3.7731240853413136e-05,-0.156311,-26.628334
11.185,2.0,1.0,1.0,34.8,33.8,33.8,1.7,2.8,2.5975,0.2729902387963756,-0.047402214432009156,0.9431554515250418,-0.0006236686957405677,-0.158933,-26.483276
11.185,2.0,1.0,1.0,34.8,33.8,33.8,1.7,2.8,2.6,0.26152291891099066,-0.0481930405099561,0.9460841508088013,-0.0012340198138242016,-0.16162,-26.337467
11.185,2.0,1.0,1.0,34.8,33.8,33.8,1.7,2.8,2.6025,0.24992590518711244,-0.04899357385307924,0.9488916547991574,-0.0018696620011769817,-0.164376,-26.190898
11.185,2.0,1.0,1.0,34.8,33.8,33.8,1.7,2.8,2.605,0.23819872740740922,-0.04980372536164154,0.9515741640504107,-0.0025315040453363882,-0.167202,-26.043557
11.185,2.0,1.0,1.0,34.8,33.8,33.8,1.7,2.8,2.6075,0.22634096751394195,-0.05062338799110896,0.9541277757907364,-0.003220487219195804,-0.1701,-25.895435
11.185,2.0,1.0,1.0,34.8,33.8,33.8,1.7,2.8,2.61,0.21435226326725532,-0.05145243540456106,0.9565484815630766,-0.003937586419480468,-0.173074,-25.74652
11.185,2.0,1.0,1.0,34.8,33.8,33.8,1.7,2.8,2.6125,0.2022323120956343,-0.05229072053602906,0.9588321648461483,-0.004683811340406213,-0.176125,-25.596802
11.185,2.0,1.0,1.0,34.8,33.8,33.8,1.7,2.8,2.615,0.1899808751435555,-0.0531380740589305,0.9609745986582996,-0.0054602076830699035,-0.179256,-25.446269
11.185,2.0,1.0,1.0,34.8,33.8,33.8,1.7,2.8,2.6175,0.17759778152877623,-0.053994302753378166,0.9629714431472256,-0.006267858401064401,-0.182471,-25.294909
11.185,2.0,1.0,1.0,34.8,33.8,33.8,1.7,2.8,2.62,0.16508293281793393,-0.054859187765710506,0.9648182431688613,-0.00710788498274674,-0.185771,-25.142711
11.185,2.0,1.0,1.0,34.8,33.8,33.8,1.7,2.8,2.6225,0.15243630773099334,-0.0557324827531389,0.9665104258591022,-0.007981448770514158,-0.18916,-24.989663
11.185,2.0,1.0,1.0,34.8,33.8,33.8,1.7,2.8,2.625,0.139657967085404,-0.0566139119059044,0.968043298202341,-0.00888975231734863,-0.192641,-24.835753
11.185,2.0,1.0,1.0,34.8,33.8,33.8,1.7,2.8,2.6275,0.12674805899128144,-0.05750316783881888,0.9694120446011962,-0.009834040780796758,-0.196217,-24.680969
11.185,2.0,1.0,1.0,34.8,33.8,33.8,1.7,2.8,2.63,0.11370682430954299,-0.05839990934348429,0.9706117244521972,-0.01081560335442803,-0.199892,-24.525297
11.185,2.0,1.0,1.0,34.8,33.8,33.8,1.7,2.8,2.6325,0.1005346023854547,-0.059303758991873394,0.9716372697326272,-0.011835774736683704,-0.203669,-24.368725
11.185,2.0,1.0,1.0,34.8,33.8,33.8,1.7,2.8,2.635,0.08723183707070294,-0.060214300581291555,0.9724834826041895,-0.012895936636873008,-0.207551,-24.21124
11.185,2.0,1.0,1.0,34.8,33.8,33.8,1.7,2.8,2.6375,0.07379908304772725,-0.06113107641002276,0.9731450330396363,-0.01399751931789946,-0.211544,-24.052828
11.185,2.0,1.0,1.0,34.8,33.8,33.8,1.7,2.8,2.64,0.06023701247074644,-0.062053584372190815,0.9736164564790486,-0.015142003175098995,-0.21565,-23.893475
11.185,2.0,1.0,1.0,34.8,33.8,33.8,1.7,2.8,2.6425,0.046546421938680575,-0.06298127485952804,0.9738921515230127,-0.01633092035034307,-0.219873,-23.733169
11.185,2.0,1.0,1.0,34.8,33.8,33.8,1.7,2.8,2.645,0.03272823981592229,-0.06391354745684462,0.9739663776705304,-0.01756585638030317,-0.22422,-23.571893
11.185,2.0,1.0,1.0,34.8,33.8,33.8,1.7,2.8,2.6475,0.01878353391779675,-0.06484974741700844,0.9738332531101896,-0.018848451877476833,-0.228693,-23.409634
11.185,2.0,1.0,1.0,34.8,33.8,33.8,1.7,2.8,2.65,0.004713519578404755,-0.0657891619001868,0.9734867525737765,-0.02018040424224353,-0.233297,-23.246376
11.185,2.0,1.0,1.0,34.8,33.8,33.8,1.7,2.8,2.6525,-0.00948043188039342,-0.06673101596094963,0.9729207052622992,-0.02156346940383558,-0.238039,-23.082104
11.185,2.0,1.0,1.0,34.8,33.8,33.8,1.7,2.8,2.655,-0.023796784259158123,-0.06767446826558776,0.9721287928551948,-0.02299946358768704,-0.242922,-22.916803
11.185,2.0,1.0,1.0,34.8,33.8,33.8,1.7,2.8,2.6575,-0.038233827149283785,-0.06861860652063792,0.9711045476143633,-0.02449026510612633,-0.247953,-22.750457
11.185,2.0,1.0,1.0,34.8,33.8,33.8,1.7,2.8,2.66,-0.05278966613755882,-0.06956244259213683,0.9698413505956188,-0.026037816168833,-0.253138,-22.583048
11.185,2.0,1.0,1.0,34.8,33.8,33.8,1.7,2.8,2.6625,-0.06746221252339427,-0.07050490729351297,0.9683324299812037,-0.027644124708845016,-0.258482,-22.41456
11.185,2.0,1.0,1.0,34.8,33.8,33.8,1.7,2.8,2.665,-0.0822491725238773,-0.07144484481828255,0.9665708595480842,-0.029311266219194804,-0.263992,-22.244976
11.185,2.0,1.0,1.0,34.8,33.8,33.8,1.7,2.8,2.6675,-0.09714803594014702,-0.07238100679180015,0.9645495572879914,-0.0310413855944363,-0.269675,-22.074278
11.185,2.0,1.0,1.0,34.8,33.8,33.8,1.7,2.8,2.67,-0.11215606425694084,-0.07331204591423716,0.9622612841964964,-0.03283669897040979,-0.275538,-21.902447
11.185,2.0,1.0,1.0,34.8,33.8,33.8,1.7,2.8,2.6725,-0.12727027814526226,-0.07423650916468193,0.9596986432498379,-0.03469949555454085,-0.281588,-21.729466
11.185,2.0,1.0,1.0,34.8,33.8,33.8,1.7,2.8,2.675,-0.1424874443360649,-0.07515283053376923,0.9568540785898274,-0.03663213943777696,-0.287834,-21.555314
11.185,2.0,1.0,1.0,34.8,33.8,33.8,1.7,2.8,2.6775,-0.15780406183059267,-0.07605932324952211,0.9537198749389114,-0.03863707137790654,-0.294283,-21.379973
11.185,2.0,1.0,1.0,34.8,33.8,33.8,1.7,2.8,2.68,-0.17321634741057967,-0.07695417145810582,0.9502881572693862,-0.0407168105424575,-0.300944,-21.203421
11.185,2.0,1.0,1.0,34.8,33.8,33.8,1.7,2.8,2.6825,-0.18872022040872624,-0.07783542131792831,0.946550890752915,-0.04287395619759761,-0.307827,-21.025638
11.185,2.0,1.0,1.0,34.8,33.8,33.8,1.7,2.8,2.685,-0.20431128669693335,-0.07870097146192763,0.9424998810188685,-0.04511118932744283,-0.314941,-20.846602
11.185,2.0,1.0,1.0,34.8,33.8,33.8,1.7,2.8,2.6875,-0.21998482184642307,-0.07954856277895711,0.9381267747526686,-0.04743127416586084,-0.322297,-20.666292
11.185,2.0,1.0,1.0,34.8,33.8,33.8,1.7,2.8,2.69,-0.2357357534102156,-0.08037576746084679,0.9334230606682721,-0.049837059620206306,-0.329906,-20.484684
11.185,2.0,1.0,1.0,34.8,33.8,33.8,1.7,2.8,2.6925,-0.2515586422744033,-0.08117997725696854,0.9283800708922799,-0.05233148056338957,-0.337778,-20.301755
11.185,2.0,1.0,1.0,34.8,33.8,33.8,1.7,2.8,2.695,-0.26744766302013856,-0.08195839087290284,0.9229889828008907,-0.05491755896717913,-0.345928,-20.117481
11.185,2.0,1.0,1.0,34.8,33.8,33.8,1.7,2.8,2.6975,-0.28339658323333144,-0.082708000444046,0.917240821355169,-0.05759840484563634,-0.354366,-19.931837
11.185,2.0,1.0,1.0,34.8,33.8,33.8,1.7,2.8,2.7,-0.29939874169346026,-0.0834255770086692,0.9111264619849322,-0.060377216972950926,-0.363108,-19.744797
11.185,2.0,1.0,1.0,34.8,33.8,33.8,1.7,2.8,2.7025,-0.31544702536686814,-0.08410765489796106,0.9046366340769858,-0.06325728333462893,-0.372168,-19.556335
11.185,2.0,1.0,1.0,34.8,33.8,33.8,1.7,2.8,2.705,-0.3315338451230284,-0.08475051495290208,0.89776192512974,-0.0662419812648309,-0.381561,-19.366422
11.185,2.0,1.0,1.0,34.8,33.8,33.8,1.7,2.8,2.7075,-0.3476511100847987,-0.08535016646936551,0.8904927856433614,-0.06933477721556965,-0.391305,-19.175032
11.185,2.0,1.0,1.0,34.8,33.8,33.8,1.7,2.8,2.71,-0.3637902005152467,-0.08590232776351678,0.8828195348228282,-0.07253922609525183,-0.401415,-18.982134
11.185,2.0,1.0,1.0,34.8,33.8,33.8,1.7,2.8,2.7125,-0.3799419391343886,-0.08640240523932619,0.874732367180725,-0.07585897010454531,-0.411913,-18.787699
11.185,2.0,1.0,1.0,34.8,33.8,33.8,1.7,2.8,2.715,-0.3960965607488312,-0.08684547082872576,0.8662213601374934,-0.0792977369865136,-0.422817,-18.591694
11.185,2.0,1.0,1.0,34.8,33.8,33.8,1.7,2.8,2.7175,-0.4122436800659263,-0.08722623766251969,0.8572764827295017,-0.08285933759515585,-0.434149,-18.394088
11.185,2.0,1.0,1.0,34.8,33.8,33.8,1.7,2.8,2.72,-0.42837225755136554,-0.08753903381652457,0.8478876055498821,-0.0865476626715965,-0.445931,-18.194847
11.185,2.0,1.0,1.0,34.8,33.8,33.8,1.7,2.8,2.7225,-0.44447056317521644,-0.08777777396244307,0.8380445120640885,-0.09036667869985215,-0.458189,-17.993937
11.185,2.0,1.0,1.0,34.8,33.8,33.8,1.7,2.8,2.725,-0.46052613787590624,-0.08793592873657403,0.8277369114619153,-0.09432042269389894,-0.470949,-17.79132
11.185,2.0,1.0,1.0,34.8,33.8,33.8,1.7,2.8,2.7275,-0.4765257525547832,-0.088006491621534,0.816954453230689,-0.09841299574424484,-0.484238,-17.586961
11.185,2.0,1.0,1.0,34.8,33.8,33.8,1.7,2.8,2.73,-0.492455364395123,-0.0879819431165991,0.805686743661345,-0.10264855512470207,-0.498088,-17.380821
11.185,2.0,1.0,1.0,34.8,33.8,33.8,1.7,2.8,2.7325,-0.5083000702791677,-0.08785421195100922,0.7939233645304714,-0.10703130472794489,-0.51253,-17.172859
11.185,2.0,1.0,1.0,34.8,33.8,33.8,1.7,2.8,2.735,-0.5240440570544233,-0.0876146330715436,0.7816538942383322,-0.11156548356085312,-0.527599,-16.963034
11.185,2.0,1.0,1.0,34.8,33.8,33.8,1.7,2.8,2.7375,-0.5396705483764533,-0.08725390211083839,0.7688679317260039,-0.11625535198663922,-0.543334,-16.751303
11.185,2.0,1.0,1.0,34.8,33.8,33.8,1.7,2.8,2.74,-0.5551617478293034,-0.08676202601631952,0.7555551235455056,-0.1211051753491879,-0.559775,-16.537622
11.185,2.0,1.0,1.0,34.8,33.8,33.8,1.7,2.8,2.7425,-0.5704987779969877,-0.08612826949133612,0.741705194516345,-0.12611920455455702,-0.576965,-16.321945
11.185,2.0,1.0,1.0,34.8,33.8,33.8,1.7,2.8,2.745,-0.5856616151299844,-0.08534109687029838,0.7273079824719537,-0.13130165311358902,-0.594953,-16.104224
11.185,2.0,1.0,1.0,34.8,33.8,33.8,1.7,2.8,2.7475,-0.6006290190199483,-0.08438810901867741,0.7123534776819022,-0.13665667006619497,-0.613789,-15.884409
11.185,2.0,1.0,1.0,34.8,33.8,33.8,1.7,2.8,2.75,-0.6153784576642,-0.0832559748170898,0.696831867632833,-0.142188308109872,-0.633529,-15.66245
11.185,2.0,1.0,1.0,34.8,33.8,33.8,1.7,2.8,2.7525,-0.6298860262697822,-0.08193035675713804,0.6807335879654024,-0.14790048613977466,-0.654235,-15.438293
11.185,2.0,1.0,1.0,34.8,33.8,33.8,1.7,2.8,2.755,-0.6441263601159696,-0.08039583014625191,0.6640493804992944,-0.15379694527209695,-0.675971,-15.211884
11.185,2.0,1.0,1.0,34.8,33.8,33.8,1.7,2.8,2.7575,-0.6580725407656353,-0.07863579539097339,0.6467703594371543,-0.15988119726303843,-0.69881,-14.983167
11.185,2.0,1.0,1.0,34.8,33.8,33.8,1.7,2.8,2.76,-0.6716959950917123,-0.07663238280502711,0.6288880870256937,-0.16615646404790604,-0.722829,-14.752082
11.185,2.0,1.0,1.0,34.8,33.8,33.8,1.7,2.8,2.7625,-0.6849663865681018,-0.07436634937289106,0.6103946601728686,-0.1726256069040623,-0.748114,-14.518569
11.185,2.0,1.0,1.0,34.8,33.8,33.8,1.7,2.8,2.765,-0.6978514982684243,-0.07181696689525273,0.5912828097802302,-0.17929104348159783,-0.774759,-14.282568
11.185,2.0,1.0,1.0,34.8,33.8,33.8,1.7,2.8,2.7675,-0.7103171070260502,-0.06896190095472175,0.5715460148559348,-0.18615465064011189,-0.802865,-14.044013
11.185,2.0,1.0,1.0,34.8,33.8,33.8,1.7,2.8,2.77,-0.7223268482417684,-0.06577708017521997,0.5511786338343756,-0.19321765067108534,-0.832545,-13.80284
11.185,2.0,1.0,1.0,34.8,33.8,33.8,1.7,2.8,2.7725,-0.7338420708899099,-0.06223655531544379,0.5301760559520762,-0.20048047806414607,-0.863923,-13.558982
11.185,2.0,1.0,1.0,34.8,33.8,33.8,1.7,2.8,2.775,-0.7448216823818237,-0.058312347847377655,0.5085348760266525,-0.2079426234820889,-0.897134,-13.312371
11.185,2.0,1.0,1.0,34.8,33.8,33.8,1.7,2.8,2.7775,-0.7552219831123453,-0.05397428784028965,0.48625309656752086,-0.21560245103260137,-0.932329,-13.062938
11.185,2.0,1.0,1.0,34.8,33.8,33.8,1.7,2.8,2.78,-0.7649964907608557,-0.049189841218899494,0.46333036182653164,-0.22345698425206148,-0.969672,-12.810612
11.185,2.0,1.0,1.0,34.8,33.8,33.8,1.7,2.8,2.7825,-0.7740957547693167,-0.043923926817354006,0.43976822918696834,-0.23150165543539736,-1.009348,-12.555323
11.185,2.0,1.0,1.0,34.8,33.8,33.8,1.7,2.8,2.785,-0.7824671619098301,-0.038138724141704126,0.4155704842042912,-0.23973001204258054,-1.05156,-12.297001
11.185,2.0,1.0,1.0,34.8,33.8,33.8,1.7,2.8,2.7875,-0.7900547345268447,-0.0317934734259634,0.3907435066650559,-0.24813337287382864,-1.096533,-12.035575
11.185,2.0,1.0,1.0,34.8,33.8,33.8,1.7,2.8,2.79,-0.7967989239508146,-0.0248442704757805,0.3652966962328495,-0.2567004255213215,-1.144521,-11.770977
11.185,2.0,1.0,1.0,34.8,33.8,33.8,1.7,2.8,2.7925,-0.8026364028022567,-0.017243860009963523,0.339242967609498,-0.2654167552681363,-1.195803,-11.50314
11.185,2.0,1.0,1.0,34.8,33.8,33.8,1.7,2.8,2.795,-0.8074998615290302,-0.008941432823090113,0.31259932665589996,-0.2742642941159514,-1.250694,-11.232001
11.185,2.0,1.0,1.0,34.8,33.8,33.8,1.7,2.8,2.7975,-0.8113178166600882,0.00011756578480515996,0.28538754057766813,-0.2832206769945103,-1.309546,-10.9575
11.185,2.0,1.0,1.0,34.8,33.8,33.8,1.7,2.8,2.8,-0.814014441059566,0.009991606092094327,0.25763491705359376,-0.29225849047049285,-1.372753,-10.679584
11.185,2.0,1.0,1.0,34.8,33.8,33.8,1.7,2.8,2.8025,-0.8155094301035696,0.020743208735234855,0.2293752090081677,-0.30134439749323705,-1.44076,-10.398208
11.185,2.0,1.0,1.0,34.8,33.8,33.8,1.7,2.8,2.805,-0.8157179223951508,0.032439025731035624,0.2006496634952387,-0.31043811999645443,-1.51407,-10.113335
11.185,2.0,1.0,1.0,34.8,33.8,33.8,1.7,2.8,2.8075,-0.8145504996401298,0.045149843361784694,0.17150823469513246,-0.3194912596900433,-1.593247,-9.824943
11.185,2.0,1.0,1.0,34.8,33.8,33.8,1.7,2.8,2.81,-0.8119132979310753,0.05895047502989912,0.1420109820649886,-0.32844593638843117,-1.678934,-9.533024
11.185,2.0,1.0,1.0,34.8,33.8,33.8,1.7,2.8,2.8125,-0.8077082722701105,0.07391950275500332,0.11222967482053063,-0.3372332231260289,-1.771861,-9.237589
11.185,2.0,1.0,1.0,34.8,33.8,33.8,1.7,2.8,2.815,-0.801833668068024,0.09013881427822759,0.0822496225838005,-0.3457713586805964,-1.872856,-8.938675
11.185,2.0,1.0,1.0,34.8,33.8,33.8,1.7,2.8,2.8175,-0.7941847679406684,0.10769286841326194,0.05217174837269715,-0.3539637217782488,-1.982867,-8.636344
11.185,2.0,1.0,1.0,34.8,33.8,33.8,1.7,2.8,2.82,-0.7846549996652565,0.12666760407135075,0.022114912976096843,-0.3616965583259497,-2.102977,-8.330696
11.185,2.0,1.0,1.0,34.8,33.8,33.8,1.7,2.8,2.8225,-0.7731375117618686,0.14714888819353697,-0.007781512425381287,-0.3688364650528937,-2.234425,-8.021872
11.185,2.0,1.0,1.0,34.8,33.8,33.8,1.7,2.8,2.825,-0.7595273465847299,0.16922037489570058,-0.03735484785783588,-0.3752276519846524,-2.378639,-7.710063
11.185,2.0,1.0,1.0,34.8,33.8,33.8,1.7,2.8,2.8275,-0.7437243661901498,0.19296062331445366,-0.06641613198410158,-0.38068903484096006,-2.537263,-7.395519
11.185,2.0,1.0,1.0,34.8,33.8,33.8,1.7,2.8,2.83,-0.725637111748793,0.21843929674861165,-0.09474706924299461,-0.38501124995314356,-2.712193,-7.078561
