1,w,sub_t,h,l1,l2,l3,g1,g2,Freq,S11_re,S21_re,S11_img,S21_img,S11_dB,S21_dB
11.185,2.0,1.0,1.0,34.8,34.1,34.1,3.3,4.1,2.5,0.644583177082463,-0.0109020995913986,0.753423152543747,0.00282341796900333,-0.073873,-38.967867
11.185,2.0,1.0,1.0,34.8,34.1,34.1,3.3,4.1,2.5025,0.63811304601457,-0.01107584711588863,0.7587906210337141,0.0027596359555103873,-0.074679,-38.85089
11.185,2.0,1.0,1.0,34.8,34.1,34.1,3.3,4.1,2.505,0.6315615931666982,-0.011251915685560653,0.7641307448108121,0.002693037702587645,-0.075499,-38.733555
11.185,2.0,1.0,1.0,34.8,34.1,34.1,3.3,4.1,2.5075,0.6249280889800175,-0.01143033015552005,0.7694425635964827,0.002623538854061408,-0.076334,-38.615855
11.185,2.0,1.0,1.0,34.8,34.1,34.1,3.3,4.1,2.51,0.6182117998160379,-0.011611115299049988,0.7747250915798786,0.0025510524588635785,-0.077184,-38.497783
11.185,2.0,1.0,1.0,34.8,34.1,34.1,3.3,4.1,2.5125,0.6114119881905011,-0.011794295781488221,0.7799773167526836,0.0024754888845043535,-0.078048,-38.379333
11.185,2.0,1.0,1.0,34.8,34.1,34.1,3.3,4.1,2.515,0.6045279130235743,-0.011979896132388196,0.7851982002283494,0.0023967557273764932,-0.078928,-38.260497
11.185,2.0,1.0,1.0,34.8,34.1,34.1,3.3,4.1,2.5175,0.5975588299071383,-0.01216794071586776,0.790386675545472,0.0023147577197594254,-0.079824,-38.141268
11.185,2.0,1.0,1.0,34.8,34.1,34.1,3.3,4.1,2.52,0.5905039913899507,-0.012358453699044578,0.7955416479550784,0.002229396633384909,-0.080736,-38.021639
11.185,2.0,1.0,1.0,34.8,34.1,34.1,3.3,4.1,2.5225,0.5833626472815587,-0.012551459018450112,0.8006619936915361,0.0021405711794195087,-0.081665,-37.901603
11.185,2.0,1.0,1.0,34.8,34.1,34.1,3.3,4.1,2.525,0.5761340449757985,-0.01274698034430997,0.8057465592268717,0.0020481769047109477,-0.082611,-37.781151
11.185,2.0,1.0,1.0,34.8,34.1,34.1,3.3,4.1,2.5275,0.5688174297948081,-0.01294504104257017,0.8107941605082303,0.0019521060841384166,-0.083574,-37.660277
11.185,2.0,1.0,1.0,34.8,34.1,34.1,3.3,4.1,2.53,0.5614120453544933,-0.013145664134543239,0.8158035821782508,0.0018522476088981246,-0.084554,-37.538972
11.185,2.0,1.0,1.0,34.8,34.1,34.1,3.3,4.1,2.5325,0.5539171339524337,-0.013348872254040276,0.8207735767781146,0.0017484868705466942,-0.085553,-37.41723
11.185,2.0,1.0,1.0,34.8,34.1,34.1,3.3,4.1,2.535,0.5463319369792328,-0.013554687601847738,0.825702863933057,0.001640705640615506,-0.08657,-37.295041
11.185,2.0,1.0,1.0,34.8,34.1,34.1,3.3,4.1,2.5375,0.5386556953543968,-0.013763131897399276,0.830590129520102,0.0015287819455992696,-0.087607,-37.172398
11.185,2.0,1.0,1.0,34.8,34.1,34.1,3.3,4.1,2.54,0.5308876499878304,-0.013974226327484327,0.8354340248178374,0.00141258993711114,-0.088662,-37.049292
11.185,2.0,1.0,1.0,34.8,34.1,34.1,3.3,4.1,2.5425,0.5230270422680897,-0.01418799149182609,0.8402331656380062,0.0012919997569853104,-0.089738,-36.925716
11.185,2.0,1.0,1.0,34.8,34.1,34.1,3.3,4.1,2.545,0.5150731145785955,-0.014404447345351441,0.8449861314387458,0.0011668773970959384,-0.090834,-36.801661
11.185,2.0,1.0,1.0,34.8,34.1,34.1,3.3,4.1,2.5475,0.5070251108430376,-0.014623613136964702,0.8496914644192737,0.0010370845536481952,-0.091951,-36.677118
11.185,2.0,1.0,1.0,34.8,34.1,34.1,3.3,4.1,2.55,0.49888227710124106,-0.014845507344626299,0.854347668595885,0.0009024784756829355,-0.093089,-36.552079
11.185,2.0,1.0,1.0,34.8,34.1,34.1,3.3,4.1,2.5525,0.49064386211685135,-0.015070147606524986,0.858953208859069,0.0007629118075220421,-0.09425,-36.426534
11.185,2.0,1.0,1.0,34.8,34.1,34.1,3.3,4.1,2.555,0.4823091180181916,-0.015297550648119605,0.8635065100116445,0.0006182324248649944,-0.095432,-36.300475
11.185,2.0,1.0,1.0,34.8,34.1,34.1,3.3,4.1,2.5575,0.47387730097373904,-0.015527732204813051,0.8680059557877623,0.00046828326423019,-0.096638,-36.173891
11.185,2.0,1.0,1.0,34.8,34.1,34.1,3.3,4.1,2.56,0.46534767190370935,-0.01576070694000515,0.8724498878526852,0.0003129021454161527,-0.097867,-36.046775
11.185,2.0,1.0,1.0,34.8,34.1,34.1,3.3,4.1,2.5625,0.45671949722928473,-0.015996488358257222,0.876836604783238,0.00015192158663780312,-0.099121,-35.919115
11.185,2.0,1.0,1.0,34.8,34.1,34.1,3.3,4.1,2.565,0.4479920496610761,-0.016235088713282657,0.881164361028876,-1.4831388028382836e-05,-0.100399,-35.790903
11.185,2.0,1.0,1.0,34.8,34.1,34.1,3.3,4.1,2.5675,0.43916460902849974,-0.01647651891046018,0.8854313658532992,-0.00018753544927930946,-0.101702,-35.662128
11.185,2.0,1.0,1.0,34.8,34.1,34.1,3.3,4.1,2.57,0.4302364631517522,-0.016720788403547657,0.889635782256588,-0.0003663751717141952,-0.103032,-35.53278
11.185,2.0,1.0,1.0,34.8,34.1,34.1,3.3,4.1,2.5725,0.4212069087581861,-0.016967905085252068,0.8937757258778575,-0.0005515412518979316,-0.104388,-35.402849
11.185,2.0,1.0,1.0,34.8,34.1,34.1,3.3,4.1,2.575,0.41207525244491017,-0.01721787517128972,0.8978492638784212,-0.0007432307358279619,-0.105772,-35.272324
11.185,2.0,1.0,1.0,34.8,34.1,34.1,3.3,4.1,2.5775,0.40284081168953384,-0.017470703077546175,0.9018544138055202,-0.0009416472563051329,-0.107184,-35.141194
11.185,2.0,1.0,1.0,34.8,34.1,34.1,3.3,4.1,2.58,0.3935029159110249,-0.01772639128991824,0.9057891424366571,-0.0011470012807416842,-0.108624,-35.009448
11.185,2.0,1.0,1.0,34.8,34.1,34.1,3.3,4.1,2.5825,0.3840609075827113,-0.017984940226393856,0.9096513646046266,-0.0013595103699770787,-0.110095,-34.877075
11.185,2.0,1.0,1.0,34.8,34.1,34.1,3.3,4.1,2.585,0.37451414339956646,-0.0182463480908926,0.9134389420033561,-0.0015793994487099826,-0.111595,-34.744062
11.185,2.0,1.0,1.0,34.8,34.1,34.1,3.3,4.1,2.5875,0.36486199550193127,-0.018510610718358484,0.9171496819746741,-0.001806901088198461,-0.113127,-34.610399
11.185,2.0,1.0,1.0,34.8,34.1,34.1,3.3,4.1,2.59,0.35510385275797535,-0.018777721410559348,0.9207813362761825,-0.0020422558019256337,-0.114691,-34.476073
11.185,2.0,1.0,1.0,34.8,34.1,34.1,3.3,4.1,2.5925,0.34523912210719404,-0.01904767076200845,0.9243315998304101,-0.002285712354978184,-0.116288,-34.341071
11.185,2.0,1.0,1.0,34.8,34.1,34.1,3.3,4.1,2.595,0.33526722996741015,-0.019320446475381035,0.9277981094554605,-0.002537528087938842,-0.117919,-34.20538
11.185,2.0,1.0,1.0,34.8,34.1,34.1,3.3,4.1,2.5975,0.3251876237077432,-0.01959603316575371,0.9311784425773985,-0.0027979692561534483,-0.119585,-34.068988
11.185,2.0,1.0,1.0,34.8,34.1,34.1,3.3,4.1,2.6,0.3149997731901545,-0.0198744121529417,0.934470115924636,-0.0030673113852960183,-0.121286,-33.931881
11.185,2.0,1.0,1.0,34.8,34.1,34.1,3.3,4.1,2.6025,0.3047031723822554,-0.020155561241156833,0.9376705842046007,-0.003345839644225201,-0.123024,-33.794046
11.185,2.0,1.0,1.0,34.8,34.1,34.1,3.3,4.1,2.605,0.29429734104412514,-0.020439454485146915,0.9407772387630058,-0.0036338492362010537,-0.1248,-33.655468
11.185,2.0,1.0,1.0,34.8,34.1,34.1,3.3,4.1,2.6075,0.28378182649202466,-0.02072606194191333,0.9437874062260551,-0.003931645809612933,-0.126615,-33.516132
11.185,2.0,1.0,1.0,34.8,34.1,34.1,3.3,4.1,2.61,0.27315620544196706,-0.0210153494070302,0.946698347125923,-0.0042395458894590055,-0.128469,-33.376023
11.185,2.0,1.0,1.0,34.8,34.1,34.1,3.3,4.1,2.6125,0.26242008593620203,-0.021307278134511484,0.9495072545098847,-0.004557877330915752,-0.130365,-33.235128
11.185,2.0,1.0,1.0,34.8,34.1,34.1,3.3,4.1,2.615,0.25157310935579785,-0.02160180453908478,0.9522112525334779,-0.004886979796442346,-0.132304,-33.093428
11.185,2.0,1.0,1.0,34.8,34.1,34.1,3.3,4.1,2.6175,0.2406149525226135,-0.021898879879636485,0.9548073950380697,-0.005227205257980967,-0.134286,-32.950909
11.185,2.0,1.0,1.0,34.8,34.1,34.1,3.3,4.1,2.62,0.2295453298940593,-0.022198449922487616,0.9572926641132228,-0.005578918525941554,-0.136313,-32.807553
11.185,2.0,1.0,1.0,34.8,34.1,34.1,3.3,4.1,2.6225,0.2183639958541761,-0.022500454583046024,0.9596639686442494,-0.005942497806798878,-0.138386,-32.663344
11.185,2.0,1.0,1.0,34.8,34.1,34.1,3.3,4.1,2.625,0.207070747104714,-0.022804827544252,0.961918142845304,-0.0063183352912808,-0.140507,-32.518263
11.185,2.0,1.0,1.0,34.8,34.1,34.1,3.3,4.1,2.6275,0.19566542515998644,-0.02311149585009553,0.964051944778378,-0.006706837775295153,-0.142677,-32.372293
11.185,2.0,1.0,1.0,34.8,34.1,34.1,3.3,4.1,2.63,0.1841479189494764,-0.023420379472327838,0.9660620548585066,-0.0071084273159233895,-0.144898,-32.225413
11.185,2.0,1.0,1.0,34.8,34.1,34.1,3.3,4.1,2.6325,0.1725181675322906,-0.023731390848317484,0.967945074345454,-0.007523541925010499,-0.147172,-32.077606
11.185,2.0,1.0,1.0,34.8,34.1,34.1,3.3,4.1,2.635,0.16077616292775274,-0.024044434387811918,0.9696975238220865,-0.007952636303099976,-0.149499,-31.928851
11.185,2.0,1.0,1.0,34.8,34.1,34.1,3.3,4.1,2.6375,0.1489219530666134,-0.024359405946152494,0.971315841659578,-0.008396182616703031,-0.151883,-31.779127
11.185,2.0,1.0,1.0,34.8,34.1,34.1,3.3,4.1,2.64,0.13695564486751788,-0.02467619226125695,0.972796382469469,-0.008854671322158001,-0.154323,-31.628412
11.185,2.0,1.0,1.0,34.8,34.1,34.1,3.3,4.1,2.6425,0.12487740744365368,-0.024994670351420334,0.9741354155425194,-0.009328612039624866,-0.156824,-31.476685
11.185,2.0,1.0,1.0,34.8,34.1,34.1,3.3,4.1,2.645,0.1126874754446838,-0.02531470687069388,0.9753291232741294,-0.009818534481081382,-0.159386,-31.323923
11.185,2.0,1.0,1.0,34.8,34.1,34.1,3.3,4.1,2.6475,0.10038615253937687,-0.025636157418274887,0.9763735995759346,-0.010324989436539768,-0.162011,-31.170101
11.185,2.0,1.0,1.0,34.8,34.1,34.1,3.3,4.1,2.65,0.08797381504458276,-0.025958865797976936,0.9772648482729911,-0.010848549823091672,-0.164702,-31.015196
11.185,2.0,1.0,1.0,34.8,34.1,34.1,3.3,4.1,2.6525,0.0754509157066218,-0.026282663223440167,0.977998781485716,-0.01138981180181532,-0.167462,-30.859181
11.185,2.0,1.0,1.0,34.8,34.1,34.1,3.3,4.1,2.655,0.0628179876413947,-0.026607367464285898,0.9785712179954829,-0.01194939596805368,-0.170292,-30.702031
11.185,2.0,1.0,1.0,34.8,34.1,34.1,3.3,4.1,2.6575,0.05007564844002416,-0.026932781927905387,0.9789778815924136,-0.012527948621091776,-0.173194,-30.543718
11.185,2.0,1.0,1.0,34.8,34.1,34.1,3.3,4.1,2.66,0.03722460444723985,-0.02725869467099592,0.9792143994035685,-0.013126143119836824,-0.176173,-30.384213
11.185,2.0,1.0,1.0,34.8,34.1,34.1,3.3,4.1,2.6625,0.024265655220263967,-0.027584877334308314,0.9792763001992596,-0.013744681331741476,-0.179229,-30.223488
11.185,2.0,1.0,1.0,34.8,34.1,34.1,3.3,4.1,2.665,0.011199698176483154,-0.02791108399333866,0.9791590126747242,-0.014384295182914396,-0.182367,-30.06151
11.185,2.0,1.0,1.0,34.8,34.1,34.1,3.3,4.1,2.6675,-0.001972266561078372,-0.02823704991687051,0.9788578637037931,-0.015045748318138406,-0.18559,-29.89825
11.185,2.0,1.0,1.0,34.8,34.1,34.1,3.3,4.1,2.67,-0.015249131110785668,-0.028562490224342457,0.9783680765605343,-0.015729837880381407,-0.1889,-29.733672
11.185,2.0,1.0,1.0,34.8,34.1,34.1,3.3,4.1,2.6725,-0.028629674561347334,-0.028887098431958642,0.977684769104057,-0.016437396420338698,-0.192301,-29.567743
11.185,2.0,1.0,1.0,34.8,34.1,34.1,3.3,4.1,2.675,-0.0421125574711212,-0.029210544876264413,0.9768029519208078,-0.017169293947603723,-0.195796,-29.400428
11.185,2.0,1.0,1.0,34.8,34.1,34.1,3.3,4.1,2.6775,-0.05569631612512549,-0.02953247500255141,0.9757175264176595,-0.017926440136241166,-0.19939,-29.231687
11.185,2.0,1.0,1.0,34.8,34.1,34.1,3.3,4.1,2.68,-0.06937935653579326,-0.029852507503913085,0.9744232828579729,-0.01870978669883963,-0.203086,-29.061483
11.185,2.0,1.0,1.0,34.8,34.1,34.1,3.3,4.1,2.6825,-0.08315994817203722,-0.030170232295015476,0.972914898331496,-0.019520329944570283,-0.206889,-28.889775
11.185,2.0,1.0,1.0,34.8,34.1,34.1,3.3,4.1,2.685,-0.09703621739950179,-0.030485208302646432,0.9711869346474961,-0.02035911353839057,-0.210803,-28.71652
11.185,2.0,1.0,1.0,34.8,34.1,34.1,3.3,4.1,2.6875,-0.11100614061291,-0.0307969610528202,0.969233836138846,-0.0212272314803231,-0.214832,-28.541673
11.185,2.0,1.0,1.0,34.8,34.1,34.1,3.3,4.1,2.69,-0.1250675370391277,-0.03110498003160126,0.9670499273628961,-0.02212583132573412,-0.218983,-28.365189
11.185,2.0,1.0,1.0,34.8,34.1,34.1,3.3,4.1,2.6925,-0.13921806118698038,-0.03140871579381866,0.9646294106828143,-0.023056117669760474,-0.22326,-28.187019
11.185,2.0,1.0,1.0,34.8,34.1,34.1,3.3,4.1,2.695,-0.15345519491674622,-0.03170757679040754,0.9619663637106526,-0.02401935592150444,-0.227668,-28.007112
11.185,2.0,1.0,1.0,34.8,34.1,34.1,3.3,4.1,2.6975,-0.16777623909881018,-0.03200092588117191,0.9590547365906777,-0.025016876396381844,-0.232215,-27.825415
11.185,2.0,1.0,1.0,34.8,34.1,34.1,3.3,4.1,2.7,-0.18217830482673733,-0.03228807649521967,0.9558883490984053,-0.026050078758080148,-0.236906,-27.641872
11.185,2.0,1.0,1.0,34.8,34.1,34.1,3.3,4.1,2.7025,-0.19665830414536023,-0.03256828839608847,0.9524608875272934,-0.02712043684502371,-0.241749,-27.456425
11.185,2.0,1.0,1.0,34.8,34.1,34.1,3.3,4.1,2.705,-0.21121294024880563,-0.03284076300253343,0.9487659013311619,-0.02822950392007206,-0.24675,-27.269013
11.185,2.0,1.0,1.0,34.8,34.1,34.1,3.3,4.1,2.7075,-0.2258386970969541,-0.0331046382089527,0.9447967994859561,-0.02937891838646115,-0.251918,-27.079572
11.185,2.0,1.0,1.0,34.8,34.1,34.1,3.3,4.1,2.71,-0.24053182839118037,-0.03335898264131623,0.9405468465295351,-0.03057041001777379,-0.25726,-26.888033
11.185,2.0,1.0,1.0,34.8,34.1,34.1,3.3,4.1,2.7125,-0.25528834584137483,-0.03360278927504402,0.936009158232599,-0.03180580675506598,-0.262787,-26.694327
11.185,2.0,1.0,1.0,34.8,34.1,34.1,3.3,4.1,2.715,-0.27010400664579676,-0.03383496833031841,0.9311766968475724,-0.03308704213023369,-0.268508,-26.498378
11.185,2.0,1.0,1.0,34.8,34.1,34.1,3.3,4.1,2.7175,-0.2849743000931187,-0.03405433934753173,0.9260422658752802,-0.03441616338136076,-0.274433,-26.300108
11.185,2.0,1.0,1.0,34.8,34.1,34.1,3.3,4.1,2.72,-0.29989443318162334,-0.034259622330634634,0.9205985042813605,-0.03579534033320936,-0.280573,-26.099435
11.185,2.0,1.0,1.0,34.8,34.1,34.1,3.3,4.1,2.7225,-0.3148593151336576,-0.03444942782866104,0.9148378800855549,-0.03722687512429965,-0.286941,-25.896272
11.185,2.0,1.0,1.0,34.8,34.1,34.1,3.3,4.1,2.725,-0.32986354066344487,-0.03462224580517758,0.9087526832371802,-0.03871321287123668,-0.29355,-25.690526
11.185,2.0,1.0,1.0,34.8,34.1,34.1,3.3,4.1,2.7275,-0.34490137183287994,-0.03477643312126738,0.9023350176791041,-0.04025695337121011,-0.300414,-25.482101
11.185,2.0,1.0,1.0,34.8,34.1,34.1,3.3,4.1,2.73,-0.359966718301997,-0.03491019942919437,0.8955767924903496,-0.04186086395496592,-0.307547,-25.270895
11.185,2.0,1.0,1.0,34.8,34.1,34.1,3.3,4.1,2.7325,-0.37505311574780326,-0.03502159124026815,0.8884697119838647,-0.0435278936151659,-0.314968,-25.056799
11.185,2.0,1.0,1.0,34.8,34.1,34.1,3.3,4.1,2.735,-0.39015370218589446,-0.035108473890590776,0.8810052646210424,-0.04526118854895319,-0.322695,-24.839699
11.185,2.0,1.0,1.0,34.8,34.1,34.1,3.3,4.1,2.7375,-0.4052611918825267,-0.03516851108106491,0.8731747105880346,-0.04706410926883213,-0.330746,-24.619475
11.185,2.0,1.0,1.0,34.8,34.1,34.1,3.3,4.1,2.74,-0.4203678464890601,-0.0351991416117257,0.8649690678608565,-0.04894024945266058,-0.339143,-24.395998
11.185,2.0,1.0,1.0,34.8,34.1,34.1,3.3,4.1,2.7425,-0.4354654429640107,-0.03519755286323939,0.856379096566595,-0.05089345672165332,-0.347911,-24.169133
11.185,2.0,1.0,1.0,34.8,34.1,34.1,3.3,4.1,2.745,-0.4505452377679676,-0.03516065049795885,0.8473952814269186,-0.05292785555470892,-0.357075,-23.938736
11.185,2.0,1.0,1.0,34.8,34.1,34.1,3.3,4.1,2.7475,-0.46559792672059463,-0.035085023756374976,0.8380078120475509,-0.055047872567916434,-0.366663,-23.704653
11.185,2.0,1.0,1.0,34.8,34.1,34.1,3.3,4.1,2.75,-0.480613599793182,-0.0349669056086036,0.82820656079391,-0.0572582644094127,-0.376707,-23.466723
11.185,2.0,1.0,1.0,34.8,34.1,34.1,3.3,4.1,2.7525,-0.4955816899703845,-0.03480212688029967,0.81798105796918,-0.05956414854124329,-0.387241,-23.224774
11.185,2.0,1.0,1.0,34.8,34.1,34.1,3.3,4.1,2.755,-0.5104909151454406,-0.03458606330262704,0.807320463987649,-0.06197103720059432,-0.398303,-22.978621
11.185,2.0,1.0,1.0,34.8,34.1,34.1,3.3,4.1,2.7575,-0.5253292118075026,-0.03431357422980339,0.7962135382146033,-0.0644848748512696,-0.409936,-22.728069
11.185,2.0,1.0,1.0,34.8,34.1,34.1,3.3,4.1,2.76,-0.5400836590290465,-0.03397893151675144,0.7846486041265378,-0.06711207945040758,-0.422186,-22.472911
11.185,2.0,1.0,1.0,34.8,34.1,34.1,3.3,4.1,2.7625,-0.5547403909553164,-0.03357573674281814,0.7726135104350068,-0.06985958786204012,-0.435105,-22.212923
11.185,2.0,1.0,1.0,34.8,34.1,34.1,3.3,4.1,2.765,-0.5692844956225624,-0.033096824591898416,0.7600955878186968,-0.07273490574351266,-0.448753,-21.94787
11.185,2.0,1.0,1.0,34.8,34.1,34.1,3.3,4.1,2.7675,-0.5836998974708836,-0.03253414973765441,0.7470816009278539,-0.07574616220637109,-0.463193,-21.677497
11.185,2.0,1.0,1.0,34.8,34.1,34.1,3.3,4.1,2.77,-0.5979692203491711,-0.03187865401339833,0.7335576953724634,-0.07890216950042327,-0.4785,-21.401534
11.185,2.0,1.0,1.0,34.8,34.1,34.1,3.3,4.1,2.7725,-0.6120736271070437,-0.031120109942447155,0.7195093394944226,-0.08221248787446894,-0.494756,-21.119692
11.185,2.0,1.0,1.0,34.8,34.1,34.1,3.3,4.1,2.775,-0.6259926309973435,-0.030246935831915983,0.7049212608737805,-0.08568749560985163,-0.512054,-20.831659
11.185,2.0,1.0,1.0,34.8,34.1,34.1,3.3,4.1,2.7775,-0.6397038730293048,-0.029245976547251307,0.6897773777582992,-0.08933846397507333,-0.530499,-20.537105
11.185,2.0,1.0,1.0,34.8,34.1,34.1,3.3,4.1,2.78,-0.6531828580614415,-0.028102242730764785,0.6740607259743427,-0.09317763647047672,-0.550213,-20.235671
11.185,2.0,1.0,1.0,34.8,34.1,34.1,3.3,4.1,2.7825,-0.6664026407344003,-0.026798599534483096,0.6577533824336963,-0.09721831116284681,-0.571331,-19.926976
11.185,2.0,1.0,1.0,34.8,34.1,34.1,3.3,4.1,2.785,-0.679333450228571,-0.025315393816399023,0.6408363871786467,-0.10147492406649448,-0.594012,-19.610609
11.185,2.0,1.0,1.0,34.8,34.1,34.1,3.3,4.1,2.7875,-0.6919422401766098,-0.02363000608688902,0.6232896671274861,-0.10596313028829413,-0.618436,-19.286128
11.185,2.0,1.0,1.0,34.8,34.1,34.1,3.3,4.1,2.79,-0.704192146726662,-0.021716310147095106,0.6050919664687472,-0.11069987784344265,-0.644812,-18.95306
11.185,2.0,1.0,1.0,34.8,34.1,34.1,3.3,4.1,2.7925,-0.7160418335627365,-0.019544019157780267,0.586220791258506,-0.11570346641101109,-0.673382,-18.610894
11.185,2.0,1.0,1.0,34.8,34.1,34.1,3.3,4.1,2.795,-0.7274446974310467,-0.017077891600961247,0.5666523795698352,-0.12099357946202946,-0.704428,-18.259082
11.185,2.0,1.0,1.0,34.8,34.1,34.1,3.3,4.1,2.7975,-0.7383479011409683,-0.014276763992411713,0.5463617140662151,-0.1265912726147115,-0.73828,-17.897035
11.185,2.0,1.0,1.0,34.8,34.1,34.1,3.3,4.1,2.8,-0.748691192817897,-0.011092368980874723,0.5253226019113568,-0.13251889295568842,-0.775328,-17.524122
11.185,2.0,1.0,1.0,34.8,34.1,34.1,3.3,4.1,2.8025,-0.7584054600803608,-0.007467887326405995,0.5035078586483503,-0.13879989224281095,-0.816032,-17.139664
11.185,2.0,1.0,1.0,34.8,34.1,34.1,3.3,4.1,2.805,-0.7674109555332249,-0.0033361699232348032,0.48088964979223725,-0.14545847965105313,-0.860938,-16.742935
11.185,2.0,1.0,1.0,34.8,34.1,34.1,3.3,4.1,2.8075,-0.7756151154063751,0.0013824485832174239,0.4574400689060479,-0.1525190344968086,-0.910701,-16.333162
11.185,2.0,1.0,1.0,34.8,34.1,34.1,3.3,4.1,2.81,-0.7829098766066712,0.006782839652443022,0.43313206759233464,-0.1600051624306197,-0.966109,-15.909523
11.185,2.0,1.0,1.0,34.8,34.1,34.1,3.3,4.1,2.8125,-0.789168380015825,0.0129783867264339,0.407940906601204,-0.16793822441594,-1.028115,-15.471149
11.185,2.0,1.0,1.0,34.8,34.1,34.1,3.3,4.1,2.815,-0.7942409323848862,0.020105035171139356,0.3818463761227199,-0.17633508836758158,-1.097885,-15.017132
11.185,2.0,1.0,1.0,34.8,34.1,34.1,3.3,4.1,2.8175,-0.7979500917713132,0.028326221658008167,0.35483614882189396,-0.18520473700639778,-1.176844,-14.546537
11.185,2.0,1.0,1.0,34.8,34.1,34.1,3.3,4.1,2.82,-0.8000847544808659,0.03783880509762448,0.3269107975419,-0.19454319593753566,-1.266757,-14.058415
11.185,2.0,1.0,1.0,34.8,34.1,34.1,3.3,4.1,2.8225,-0.8003931787427585,0.04888006337075271,0.2980912528602445,-0.2043260010246844,-1.369821,-13.551837
11.185,2.0,1.0,1.0,34.8,34.1,34.1,3.3,4.1,2.825,-0.7985750264734038,0.0617356727011555,0.2684298214413252,-0.21449707603702164,-1.488783,-13.025938
11.185,2.0,1.0,1.0,34.8,34.1,34.1,3.3,4.1,2.8275,-0.794272820802967,0.07674826767571918,0.23802636352622414,-0.22495241099015154,-1.62711,-12.479986
