1,w,sub_t,h,l1,l2,l3,g1,g2,Freq,S11_re,S21_re,S11_img,S21_img,S11_dB,S21_dB
11.185,2.0,1.0,1.0,34.0,33.8,33.8,2.8,3.2,2.5,-0.918679263631483,0.0278049406655897,-0.0334062673874155,-0.101751830068342,-0.730983,-19.536395
11.185,2.0,1.0,1.0,34.0,33.8,33.8,2.8,3.2,2.5025,-0.9143208199891902,0.03152636376742751,-0.06050706394635544,-0.10336597491606561,-0.75905,-19.326153
11.185,2.0,1.0,1.0,34.0,33.8,33.8,2.8,3.2,2.505,-0.9088428257387071,0.03548071517348748,-0.08782426581934497,-0.10500191617805026,-0.789858,-19.106502
11.185,2.0,1.0,1.0,34.0,33.8,33.8,2.8,3.2,2.5075,-0.9021671925786271,0.03969624589617035,-0.11535292683126988,-0.10665999367847664,-0.823832,-18.876583
11.185,2.0,1.0,1.0,34.0,33.8,33.8,2.8,3.2,2.51,-0.8942024646644179,0.04420620670972732,-0.14308653773545063,-0.10833944952589013,-0.861481,-18.63545
11.185,2.0,1.0,1.0,34.0,33.8,33.8,2.8,3.2,2.5125,-0.8848408829101478,0.04904987691790025,-0.17101588702914394,-0.11003789788387403,-0.903425,-18.38206
11.185,2.0,1.0,1.0,34.0,33.8,33.8,2.8,3.2,2.515,-0.8739547370969478,0.05427383462596042,-0.1991273908110285,-0.11175057562013468,-0.950419,-18.11526
11.185,2.0,1.0,1.0,34.0,33.8,33.8,2.8,3.2,2.5175,-0.8613918192107449,0.05993352842036228,-0.22740064918226238,-0.11346927856633163,-1.003398,-17.833775
11.185,2.0,1.0,1.0,34.0,33.8,33.8,2.8,3.2,2.52,-0.8469697458609055,0.06609522295943306,-0.25580486851147205,-0.11518084325855331,-1.063526,-17.536195
11.185,2.0,1.0,1.0,34.0,33.8,33.8,2.8,3.2,2.5225,-0.8304688680522143,0.07283840290778422,-0.284293608762126,-0.11686496634242025,-1.132266,-17.220963
11.185,2.0,1.0,1.0,34.0,33.8,33.8,2.8,3.2,2.525,-0.8116234420153999,0.08025872641276771,-0.31279703853824803,-0.11849105100070569,-1.211482,-16.886363
11.185,2.0,1.0,1.0,34.0,33.8,33.8,2.8,3.2,2.5275,-0.7901107176195477,0.08847161086103149,-0.34121045335132955,-0.12001361272109426,-1.303579,-16.530509
11.185,2.0,1.0,1.0,34.0,33.8,33.8,2.8,3.2,2.53,-0.7655376618497871,0.09761648846560379,-0.369377150349154,-0.12136553627151295,-1.411697,-16.151348
11.185,2.0,1.0,1.0,34.0,33.8,33.8,2.8,3.2,2.5325,-0.7374252840593191,0.10786164253773498,-0.3970627262443995,-0.12244810839571006,-1.540003,-15.746668
11.185,2.0,1.0,1.0,34.0,33.8,33.8,2.8,3.2,2.535,-0.7051912001070815,0.11940923529052838,-0.42391628569383916,-0.12311619538864042,-1.694116,-15.31414
11.185,2.0,1.0,1.0,34.0,33.8,33.8,2.8,3.2,2.5375,-0.668132648052044,0.13249947886526806,-0.4494116655444566,-0.12315611671860595,-1.881757,-14.851397
11.185,2.0,1.0,1.0,34.0,33.8,33.8,2.8,3.2,2.54,-0.625415637210851,0.14741151247352782,-0.4727583491152242,-0.122252628815365,-2.113755,-14.356197
11.185,2.0,1.0,1.0,34.0,33.8,33.8,2.8,3.2,2.5425,-0.5760832438249186,0.1644557102277199,-0.4927672961004974,-0.11994005663515973,-2.405652,-13.826715
11.185,2.0,1.0,1.0,34.0,33.8,33.8,2.8,3.2,2.545,-0.5191110063232137,0.18394652645372575,-0.5076526643245933,-0.1155315692667062,-2.780349,-13.262065
11.185,2.0,1.0,1.0,34.0,33.8,33.8,2.8,3.2,2.5475,-0.45356639631886014,0.20613438841205012,-0.5147513318944025,-0.10802193747499388,-3.272637,-12.663203
11.185,2.0,1.0,1.0,34.0,33.8,33.8,2.8,3.2,2.55,-0.3789811835835448,0.23105689764492424,-0.5101635183666784,-0.0959687311938562,-3.937331,-12.034445
11.185,2.0,1.0,1.0,34.0,33.8,33.8,2.8,3.2,2.5525,-0.2961224723483375,0.2582442126197401,-0.4883989323024828,-0.07738927853112763,-4.864867,-11.3859
11.185,2.0,1.0,1.0,34.0,33.8,33.8,2.8,3.2,2.555,-0.20840798288585713,0.286199221673711,-0.44233443204222084,-0.049793909889651315,-6.21432,-10.73712
11.185,2.0,1.0,1.0,34.0,33.8,33.8,2.8,3.2,2.5575,-0.12405848907758842,0.3116447528493336,-0.3642455266425666,-0.010637875775414363,-8.295467,-10.121746
11.185,2.0,1.0,1.0,34.0,33.8,33.8,2.8,3.2,2.56,-0.058214979542202214,0.328865408020451,-0.24920847641732816,0.041359769348424176,-11.837995,-9.591482
11.185,2.0,1.0,1.0,34.0,33.8,33.8,2.8,3.2,2.5625,-0.0322019941100715,0.33020181339697,-0.101613590817052,0.103856243553968,-19.445341,-9.21473
11.185,2.0,1.0,1.0,34.0,33.8,33.8,2.8,3.2,2.565,-0.06565579604981725,0.30915398681599454,0.05843899185404013,0.16881418266338552,-21.120566,-9.063178
11.185,2.0,1.0,1.0,34.0,33.8,33.8,2.8,3.2,2.5675,-0.16244228875616032,0.26544385873452275,0.197886340077953,0.22399347051849558,-11.834505,-9.18532
11.185,2.0,1.0,1.0,34.0,33.8,33.8,2.8,3.2,2.57,-0.3032311004298399,0.2071702796180089,0.2870668807409272,0.2592007312413494,-7.585619,-9.581948
11.185,2.0,1.0,1.0,34.0,33.8,33.8,2.8,3.2,2.5725,-0.4559903714720985,0.14639887504621596,0.3161340009813159,0.2719387200421814,-5.116356,-10.205277
11.185,2.0,1.0,1.0,34.0,33.8,33.8,2.8,3.2,2.575,-0.5941148302579438,0.09251893557789798,0.2951606809376333,0.26681928884425643,-3.564563,-10.982569
11.185,2.0,1.0,1.0,34.0,33.8,33.8,2.8,3.2,2.5775,-0.7049125401904706,0.04954438061045749,0.24227391628864964,0.25092516606009296,-2.552391,-11.843022
11.185,2.0,1.0,1.0,34.0,33.8,33.8,2.8,3.2,2.58,-0.7869438608928317,0.0174339862254032,0.17362385285519044,0.2302285358542468,-1.874704,-12.731985
11.185,2.0,1.0,1.0,34.0,33.8,33.8,2.8,3.2,2.5825,-0.8442080516135162,-0.005662876699589485,0.0999808492879568,0.20854588496465615,-1.410519,-13.612766
11.185,2.0,1.0,1.0,34.0,33.8,33.8,2.8,3.2,2.585,-0.8820589361797869,-0.021932140749474516,0.027334528376896306,0.18789891907297548,-1.085879,-14.462744
11.185,2.0,1.0,1.0,34.0,33.8,33.8,2.8,3.2,2.5875,-0.9053515820170349,-0.03327355308039214,-0.04148733503886845,0.16917212914275018,-0.854545,-15.268586
11.185,2.0,1.0,1.0,34.0,33.8,33.8,2.8,3.2,2.59,-0.9179118392758899,-0.041155191744565105,-0.10546009370362237,0.15262967681459874,-0.687029,-16.022413
11.185,2.0,1.0,1.0,34.0,33.8,33.8,2.8,3.2,2.5925,-0.9225627961274221,-0.04665589468963875,-0.16449133726182966,0.13823478567445718,-0.564167,-16.719135
11.185,2.0,1.0,1.0,34.0,33.8,33.8,2.8,3.2,2.595,-0.9213148223858612,-0.050555761414671066,-0.21892867091249674,0.1258253697512887,-0.473282,-17.354677
11.185,2.0,1.0,1.0,34.0,33.8,33.8,2.8,3.2,2.5975,-0.9155625198494872,-0.05342300581876447,-0.2693031451970177,0.11520395705827939,-0.40587,-17.924742
11.185,2.0,1.0,1.0,34.0,33.8,33.8,2.8,3.2,2.6,-0.9062403761770302,-0.05568426558057884,-0.3162063943136748,0.10618133981338226,-0.356187,-18.423857
11.185,2.0,1.0,1.0,34.0,33.8,33.8,2.8,3.2,2.6025,-0.8939290689778114,-0.05767971995343272,-0.36024115528880235,0.09859702733912569,-0.32039,-18.844453
11.185,2.0,1.0,1.0,34.0,33.8,33.8,2.8,3.2,2.605,-0.878914383836789,-0.059708999228803156,-0.4020132037899593,0.09232930233796958,-0.296043,-19.175786
11.185,2.0,1.0,1.0,34.0,33.8,33.8,2.8,3.2,2.6075,-0.8611973828032607,-0.06207611398130874,-0.44215041347300504,0.08730209407417852,-0.281872,-19.402435
11.185,2.0,1.0,1.0,34.0,33.8,33.8,2.8,3.2,2.61,-0.8404414136260332,-0.06514557891291207,-0.48134652890443647,0.08349320163125219,-0.277804,-19.501984
11.185,2.0,1.0,1.0,34.0,33.8,33.8,2.8,3.2,2.6125,-0.8158110172022842,-0.06943256742680248,-0.5204375523712298,0.08094715964705236,-0.285373,-19.441126
11.185,2.0,1.0,1.0,34.0,33.8,33.8,2.8,3.2,2.615,-0.7855786048340958,-0.0757800560157873,-0.5605297234621908,0.07979367752806661,-0.308977,-19.168685
11.185,2.0,1.0,1.0,34.0,33.8,33.8,2.8,3.2,2.6175,-0.7461354485206346,-0.08576837869408262,-0.6031993659324826,0.08025711936044,-0.359443,-18.602021
11.185,2.0,1.0,1.0,34.0,33.8,33.8,2.8,3.2,2.62,-0.6891856199426822,-0.1028284350294401,-0.6506517458603391,0.08253582724528903,-0.465667,-17.598041
11.185,2.0,1.0,1.0,34.0,33.8,33.8,2.8,3.2,2.6225,-0.5921418130757976,-0.13589894895753699,-0.7041706857805691,0.08558465961836612,-0.72379,-15.884938
11.185,2.0,1.0,1.0,34.0,33.8,33.8,2.8,3.2,2.625,-0.37758111248487,-0.213640441889831,-0.738492349755468,0.0745387857339202,-1.624504,-12.907447
11.185,2.0,1.0,1.0,34.0,33.8,33.8,2.8,3.2,2.6275,0.06907713499862707,-0.3527989981000433,-0.31121237032342425,-0.13070837768327823,-9.930003,-8.490846
11.185,2.0,1.0,1.0,34.0,33.8,33.8,2.8,3.2,2.63,-0.7345229934144565,-0.003889492130996745,0.11477696905851123,-0.2555138463004838,-2.575123,-11.850705
11.185,2.0,1.0,1.0,34.0,33.8,33.8,2.8,3.2,2.6325,-0.9069674883003296,0.048291588477650825,-0.2518789461225052,-0.11026175003002668,-0.525501,-18.389397
11.185,2.0,1.0,1.0,34.0,33.8,33.8,2.8,3.2,2.635,-0.8854708815368358,0.03787104392545114,-0.4109375455696075,-0.057778091149841275,-0.209398,-23.212519
11.185,2.0,1.0,1.0,34.0,33.8,33.8,2.8,3.2,2.6375,-0.8532041137427954,0.02794268893696014,-0.49490358610105706,-0.0347749662593769,-0.119377,-27.011268
11.185,2.0,1.0,1.0,34.0,33.8,33.8,2.8,3.2,2.64,-0.823945988391839,0.021002131256407524,-0.5492155716371865,-0.022684423969736932,-0.085414,-30.196909
11.185,2.0,1.0,1.0,34.0,33.8,33.8,2.8,3.2,2.6425,-0.7980064844039967,0.01620249626456642,-0.5891098097159099,-0.015576138600482257,-0.070646,-32.965908
11.185,2.0,1.0,1.0,34.0,33.8,33.8,2.8,3.2,2.645,-0.7745586551495428,0.012821724452933902,-0.6208612586999646,-0.011085596587692098,-0.063831,-35.416839
11.185,2.0,1.0,1.0,34.0,33.8,33.8,2.8,3.2,2.6475,-0.7529072171664237,0.010396186077925905,-0.6474873349340478,-0.008107880070664986,-0.06075,-37.599042
11.185,2.0,1.0,1.0,34.0,33.8,33.8,2.8,3.2,2.65,-0.7325657269793004,0.00863247392555365,-0.6706132865647455,-0.006065138260849687,-0.059581,-39.534833
11.185,2.0,1.0,1.0,34.0,33.8,33.8,2.8,3.2,2.6525,-0.7132016062100638,0.00734016157833115,-0.6911929193452305,-0.004629161842117926,-0.059451,-41.23164
11.185,2.0,1.0,1.0,34.0,33.8,33.8,2.8,3.2,2.655,-0.6945850349496367,0.006391722930715336,-0.7098248619078146,-0.003601527878460729,-0.059911,-42.69015
11.185,2.0,1.0,1.0,34.0,33.8,33.8,2.8,3.2,2.6575,-0.6765541472529356,0.005699172022157733,-0.7269057080460374,-0.002856332485098294,-0.060714,-43.910549
11.185,2.0,1.0,1.0,34.0,33.8,33.8,2.8,3.2,2.66,-0.6589926069974928,0.005200176129591753,-0.7427101921561454,-0.0023105761307686415,-0.061717,-44.897152
11.185,2.0,1.0,1.0,34.0,33.8,33.8,2.8,3.2,2.6625,-0.6418151855565881,0.004849552736537315,-0.7574359088870256,-0.0019078439109130691,-0.062835,-45.661017
11.185,2.0,1.0,1.0,34.0,33.8,33.8,2.8,3.2,2.665,-0.6249583511452187,0.00461390175748951,-0.7712295996824662,-0.0016088315910640304,-0.064015,-46.220306
11.185,2.0,1.0,1.0,34.0,33.8,33.8,2.8,3.2,2.6675,-0.6083740076102121,0.0044681182588269565,-0.7842033020834189,-0.001385602252783958,-0.065224,-46.598738
11.185,2.0,1.0,1.0,34.0,33.8,33.8,2.8,3.2,2.67,-0.5920252422541484,0.00439306699509537,-0.796444652880732,-0.0012179750550555238,-0.06644,-46.823022
11.185,2.0,1.0,1.0,34.0,33.8,33.8,2.8,3.2,2.6725,-0.5758833794754052,0.004373995190865377,-0.8080236797470995,-0.0010911829249275105,-0.067649,-46.920226
11.185,2.0,1.0,1.0,34.0,33.8,33.8,2.8,3.2,2.675,-0.5599258997837636,0.004399426876253273,-0.8189974079036336,-0.000994312266974974,-0.068841,-46.915719
11.185,2.0,1.0,1.0,34.0,33.8,33.8,2.8,3.2,2.6775,-0.5441349431167793,0.004460379148818068,-0.8294130645721087,-0.000919239491036223,-0.07001,-46.831916
11.185,2.0,1.0,1.0,34.0,33.8,33.8,2.8,3.2,2.68,-0.5284962135095453,0.004549798789598454,-0.8393103586474884,-0.0008598917485367087,-0.071152,-46.687735
11.185,2.0,1.0,1.0,34.0,33.8,33.8,2.8,3.2,2.6825,-0.5129981636213817,0.00466215335423305,-0.84872313547891,-0.0008117243912620836,-0.072265,-46.498573
11.185,2.0,1.0,1.0,34.0,33.8,33.8,2.8,3.2,2.685,-0.4976313767289287,0.004793133441155982,-0.8576806001400651,-0.0007713465539542875,-0.073347,-46.276569
11.185,2.0,1.0,1.0,34.0,33.8,33.8,2.8,3.2,2.6875,-0.482388088996699,0.00493943760707709,-0.866208236885031,-0.000736250174667835,-0.074399,-46.031017
11.185,2.0,1.0,1.0,34.0,33.8,33.8,2.8,3.2,2.69,-0.4672618111481378,0.005098621510110639,-0.8743285109663308,-0.0007046128986605136,-0.075419,-45.768784
11.185,2.0,1.0,1.0,34.0,33.8,33.8,2.8,3.2,2.6925,-0.4522470190540481,0.005269000307611775,-0.8820614121720057,-0.0006751551935101525,-0.076411,-45.494707
11.185,2.0,1.0,1.0,34.0,33.8,33.8,2.8,3.2,2.695,-0.4373388889176705,0.005449599532325981,-0.8894248817931205,-0.0006470387322597103,-0.077373,-45.211913
11.185,2.0,1.0,1.0,34.0,33.8,33.8,2.8,3.2,2.6975,-0.4225330554430698,0.005640155852723511,-0.8964351529683265,-0.0006197980036225157,-0.078309,-44.922047
11.185,2.0,1.0,1.0,34.0,33.8,33.8,2.8,3.2,2.7,-0.4078253705829895,0.005841176743661196,-0.9031070264800805,-0.0005933011296623197,-0.079222,-44.625417
11.185,2.0,1.0,1.0,34.0,33.8,33.8,2.8,3.2,2.7025,-0.3932116350865017,0.00605407939547468,-0.9094540989156245,-0.0005677398628848171,-0.080114,-44.321011
11.185,2.0,1.0,1.0,34.0,33.8,33.8,2.8,3.2,2.705,-0.3786872622205586,0.006281448319645663,-0.915488957020722,-0.0005436537606893114,-0.08099,-44.006394
11.185,2.0,1.0,1.0,34.0,33.8,33.8,2.8,3.2,2.7075,-0.3642468061153967,0.006527486603776665,-0.9212233508969873,-0.0005220013884379829,-0.081857,-43.677395
11.185,2.0,1.0,1.0,34.0,33.8,33.8,2.8,3.2,2.71,-0.3498832309819375,0.006798806655481253,-0.9266683598227682,-0.0005043057302342952,-0.082723,-43.327517
11.185,2.0,1.0,1.0,34.0,33.8,33.8,2.8,3.2,2.7125,-0.3355866751360415,0.007105858313619032,-0.9318345692955367,-0.0004929301236722541,-0.083602,-42.94682
11.185,2.0,1.0,1.0,34.0,33.8,33.8,2.8,3.2,2.715,-0.3213421789378122,0.007465645196481845,-0.9367322898807492,-0.0004916058834191615,-0.084513,-42.519862
11.185,2.0,1.0,1.0,34.0,33.8,33.8,2.8,3.2,2.7175,-0.3071251198236678,0.007907281458878158,-0.9413718759141744,-0.0005064910453748014,-0.085494,-42.021674
11.185,2.0,1.0,1.0,34.0,33.8,33.8,2.8,3.2,2.72,-0.2928910168958508,0.008484535793652876,-0.9457642637362023,-0.0005484697142126771,-0.086608,-41.409328
11.185,2.0,1.0,1.0,34.0,33.8,33.8,2.8,3.2,2.7225,-0.2785493921870821,0.009308265407968865,-0.9499219715841718,-0.0006387375067824022,-0.087998,-40.602223
11.185,2.0,1.0,1.0,34.0,33.8,33.8,2.8,3.2,2.725,-0.26388219933317236,0.010648630568915086,-0.9538607905002209,-0.0008246516048477852,-0.090026,-39.428157
11.185,2.0,1.0,1.0,34.0,33.8,33.8,2.8,3.2,2.7275,-0.24819465503933724,0.013379577308113812,-0.9575970549665683,-0.0012352957359168747,-0.09398,-37.434289
11.185,2.0,1.0,1.0,34.0,33.8,33.8,2.8,3.2,2.73,-0.22745233570235884,0.022767928442036265,-0.9609210700993197,-0.0022649204542050873,-0.109491,-32.810763
11.185,2.0,1.0,1.0,34.0,33.8,33.8,2.8,3.2,2.7325,-0.28054722664521703,-0.047600378909305345,-0.9364100061680327,0.03525577194084821,-0.197373,-24.548457
11.185,2.0,1.0,1.0,34.0,33.8,33.8,2.8,3.2,2.735,-0.22346214265952963,-0.004531673600395703,-0.9652476557780691,0.003826720882265274,-0.080485,-44.537059
11.185,2.0,1.0,1.0,34.0,33.8,33.8,2.8,3.2,2.7375,-0.20604586620758228,0.00038142878077252417,-0.9688521885572183,0.002234483246178373,-0.082737,-52.891718
11.185,2.0,1.0,1.0,34.0,33.8,33.8,2.8,3.2,2.74,-0.19139587338449127,0.002285216964059387,-0.9716731648915423,0.0017486261142595119,-0.084279,-50.819744
11.185,2.0,1.0,1.0,34.0,33.8,33.8,2.8,3.2,2.7425,-0.17760006574853118,0.0033122895820210047,-0.9741645866392439,0.0015442373795893844,-0.085354,-48.743258
11.185,2.0,1.0,1.0,34.0,33.8,33.8,2.8,3.2,2.745,-0.1642202229853264,0.003963564960916397,-0.9764142443454285,0.0014525250523020584,-0.086175,-47.491002
11.185,2.0,1.0,1.0,34.0,33.8,33.8,2.8,3.2,2.7475,-0.15110147220788686,0.004418106065073215,-0.9784531472868042,0.0014170923695267753,-0.086843,-46.670001
11.185,2.0,1.0,1.0,34.0,33.8,33.8,2.8,3.2,2.75,-0.138175148061842,0.00475586751521787,-0.980296830038569,0.00141375218697386,-0.08741,-46.087654
11.185,2.0,1.0,1.0,34.0,33.8,33.8,2.8,3.2,2.7525,-0.12540612497894474,0.005017961240545296,-0.9819551553064666,0.0014303833333584733,-0.087905,-45.650173
11.185,2.0,1.0,1.0,34.0,33.8,33.8,2.8,3.2,2.755,-0.11277455062941548,0.005227718355904489,-0.9834354589804831,0.0014602186650299715,-0.088345,-45.307484
11.185,2.0,1.0,1.0,34.0,33.8,33.8,2.8,3.2,2.7575,-0.10026833978507733,0.0053993883392687465,-0.9847437740528701,0.0014991650678495136,-0.088741,-45.03058
11.185,2.0,1.0,1.0,34.0,33.8,33.8,2.8,3.2,2.76,-0.08787969450597566,0.005542186473097839,-0.9858853770068295,0.0015445878200389324,-0.089101,-44.801512
11.185,2.0,1.0,1.0,34.0,33.8,33.8,2.8,3.2,2.7625,-0.07560333763481791,0.005662353815791721,-0.9868650586656533,0.0015947039904060805,-0.08943,-44.60857
11.185,2.0,1.0,1.0,34.0,33.8,33.8,2.8,3.2,2.765,-0.06343555002566915,0.005764282006065547,-0.9876872702558446,0.0016482563717024456,-0.089733,-44.443773
11.185,2.0,1.0,1.0,34.0,33.8,33.8,2.8,3.2,2.7675,-0.05137361492770671,0.0058511632613388554,-0.9883562079512221,0.0017043274051700902,-0.090012,-44.301482
11.185,2.0,1.0,1.0,34.0,33.8,33.8,2.8,3.2,2.77,-0.039415481881772095,0.0059253839700863465,-0.9888758649122139,0.001762227626504537,-0.09027,-44.177591
11.185,2.0,1.0,1.0,34.0,33.8,33.8,2.8,3.2,2.7725,-0.027559555234728243,0.005988772560694495,-0.9892500651211699,0.001821425956355244,-0.090509,-44.069024
11.185,2.0,1.0,1.0,34.0,33.8,33.8,2.8,3.2,2.775,-0.015804556548364854,0.00604276090675152,-0.9894824864987855,0.0018815045655776858,-0.09073,-43.973431
11.185,2.0,1.0,1.0,34.0,33.8,33.8,2.8,3.2,2.7775,-0.00414943248929513,0.006088492506205924,-0.9895766774246497,0.0019421287367958116,-0.090935,-43.888972
11.185,2.0,1.0,1.0,34.0,33.8,33.8,2.8,3.2,2.78,0.007406708369949143,0.006126896834748038,-0.9895360690356299,0.00200302618569263,-0.091124,-43.814187
11.185,2.0,1.0,1.0,34.0,33.8,33.8,2.8,3.2,2.7825,0.01886463984522362,0.006158741595885774,-0.9893639847228852,0.002063972525170446,-0.091299,-43.747896
11.185,2.0,1.0,1.0,34.0,33.8,33.8,2.8,3.2,2.785,0.03022504976183197,0.0061846701689880585,-0.9890636477079291,0.002124780822116402,-0.091461,-43.689132
11.185,2.0,1.0,1.0,34.0,33.8,33.8,2.8,3.2,2.7875,0.04148856288951272,0.006205228926382265,-0.9886381872607,0.0021852939439067063,-0.091611,-43.63709
11.185,2.0,1.0,1.0,34.0,33.8,33.8,2.8,3.2,2.79,0.052655757805251655,0.0062208874800642085,-0.9880906439300492,0.0022453788461011983,-0.091748,-43.591096
11.185,2.0,1.0,1.0,34.0,33.8,33.8,2.8,3.2,2.7925,0.06372717943518127,0.0062320539066847746,-0.9874239740369176,0.002304922236346972,-0.091875,-43.550579
11.185,2.0,1.0,1.0,34.0,33.8,33.8,2.8,3.2,2.795,0.07470334847228183,0.006239086348823837,-0.9866410536034861,0.002363827230752656,-0.091991,-43.515046
11.185,2.0,1.0,1.0,34.0,33.8,33.8,2.8,3.2,2.7975,0.08558476850231479,0.006242301963358101,-0.9857446818410808,0.0024220107373430972,-0.092096,-43.484073
11.185,2.0,1.0,1.0,34.0,33.8,33.8,2.8,3.2,2.8,0.09637193142667026,0.006241983901868902,-0.984737584285728,0.002479401379998794,-0.092192,-43.457292
11.185,2.0,1.0,1.0,34.0,33.8,33.8,2.8,3.2,2.8025,0.10706532160462294,0.0062383868134163,-0.9836224156470224,0.0025359378296830205,-0.092279,-43.434375
11.185,2.0,1.0,1.0,34.0,33.8,33.8,2.8,3.2,2.805,0.11766541902246239,0.006231741225394198,-0.9824017624197607,0.0025915674465370178,-0.092358,-43.415038
11.185,2.0,1.0,1.0,34.0,33.8,33.8,2.8,3.2,2.8075,0.12817270171611797,0.006222257063708157,-0.9810781452962439,0.002646245162136122,-0.092428,-43.399024
11.185,2.0,1.0,1.0,34.0,33.8,33.8,2.8,3.2,2.81,0.13858764761627695,0.00621012650632345,-0.979654021408782,0.002699932549423114,-0.09249,-43.386104
11.185,2.0,1.0,1.0,34.0,33.8,33.8,2.8,3.2,2.8125,0.148910735943385,0.00619552631583843,-0.978131786425791,0.00275259704091832,-0.092545,-43.376073
11.185,2.0,1.0,1.0,34.0,33.8,33.8,2.8,3.2,2.815,0.1591424482495682,0.006178619761487578,-0.9765137765202557,0.00280421126530988,-0.092592,-43.368747
11.185,2.0,1.0,1.0,34.0,33.8,33.8,2.8,3.2,2.8175,0.16928326918205738,0.006159558215022589,-0.9748022702258344,0.002854752479508605,-0.092633,-43.363955
11.185,2.0,1.0,1.0,34.0,33.8,33.8,2.8,3.2,2.82,0.1793336870259432,0.006138482485616842,-0.9729994901931968,0.0029042020784333365,-0.092667,-43.361544
11.185,2.0,1.0,1.0,34.0,33.8,33.8,2.8,3.2,2.8225,0.18929419407147446,0.006115523944448825,-0.9711076048570741,0.002952545168675955,-0.092695,-43.361375
11.185,2.0,1.0,1.0,34.0,33.8,33.8,2.8,3.2,2.825,0.19916528684149556,0.0060908054786499195,-0.9691287300228478,0.0029997701951323175,-0.092717,-43.363317
