1,w,sub_t,h,l1,l2,l3,g1,g2,Freq,S11_re,S21_re,S11_img,S21_img,S11_dB,S21_dB
11.185,2.0,1.0,1.0,33.9,34.0,34.0,2.8,2.9,2.5,0.794434115879277,-0.0108009949048118,0.595066654069648,0.00732902351230119,-0.064624,-37.685914
11.185,2.0,1.0,1.0,33.9,34.0,34.0,2.8,2.9,2.5025,0.7899561193848105,-0.011015497491405348,0.6008696236315627,0.007343968312662013,-0.065307,-37.562799
11.185,2.0,1.0,1.0,33.9,34.0,34.0,2.8,2.9,2.505,0.7854127298570748,-0.01123395415655585,0.606666311605243,0.007357384660402525,-0.066003,-37.439252
11.185,2.0,1.0,1.0,33.9,34.0,34.0,2.8,2.9,2.5075,0.7808032565766265,-0.01145644744819373,0.6124562630113574,0.007369207883598437,-0.066712,-37.315264
11.185,2.0,1.0,1.0,33.9,34.0,34.0,2.8,2.9,2.51,0.7761269985990634,-0.011683062012608846,0.6182390090745468,0.0073793707802896815,-0.067434,-37.190825
11.185,2.0,1.0,1.0,33.9,34.0,34.0,2.8,2.9,2.5125,0.7713832446217931,-0.01191388465710631,0.6240140667813602,0.0073878035097832955,-0.068171,-37.065926
11.185,2.0,1.0,1.0,33.9,34.0,34.0,2.8,2.9,2.515,0.7665712728505082,-0.012149004414807953,0.6297809384232939,0.0073944334787084945,-0.068921,-36.940557
11.185,2.0,1.0,1.0,33.9,34.0,34.0,2.8,2.9,2.5175,0.7616903508654711,-0.01238851261168253,0.63553911112435,0.007399185221536952,-0.069686,-36.814709
11.185,2.0,1.0,1.0,33.9,34.0,34.0,2.8,2.9,2.52,0.7567397354876947,-0.012632502935890542,0.6412880563525515,0.007401980275263614,-0.070467,-36.688371
11.185,2.0,1.0,1.0,33.9,34.0,34.0,2.8,2.9,2.5225,0.7517186726451465,-0.012881071509532983,0.647027229414771,0.007402737047924044,-0.071262,-36.561534
11.185,2.0,1.0,1.0,33.9,34.0,34.0,2.8,2.9,2.525,0.7466263972390699,-0.013134316962897487,0.6527560689342571,0.007401370680604569,-0.072073,-36.434186
11.185,2.0,1.0,1.0,33.9,34.0,34.0,2.8,2.9,2.5275,0.7414621330105514,-0.01339234051129995,0.6584739963101776,0.007397792902578847,-0.072901,-36.306318
11.185,2.0,1.0,1.0,33.9,34.0,34.0,2.8,2.9,2.53,0.7362250924074695,-0.013655246034620799,0.6641804151584726,0.007391911879182095,-0.073745,-36.177918
11.185,2.0,1.0,1.0,33.9,34.0,34.0,2.8,2.9,2.5325,0.7309144764519506,-0.013923140159643195,0.6698747107332891,0.007383632052008246,-0.074606,-36.048976
11.185,2.0,1.0,1.0,33.9,34.0,34.0,2.8,2.9,2.535,0.7255294746084864,-0.014196132345302042,0.6755562493282313,0.0073728539709892816,-0.075484,-35.919481
11.185,2.0,1.0,1.0,33.9,34.0,34.0,2.8,2.9,2.5375,0.7200692646528658,-0.014474334970957374,0.6812243776566049,0.00735947411788668,-0.076381,-35.789422
11.185,2.0,1.0,1.0,33.9,34.0,34.0,2.8,2.9,2.54,0.7145330125420847,-0.014757863427811555,0.6868784222098268,0.00734338472069409,-0.077296,-35.658787
11.185,2.0,1.0,1.0,33.9,34.0,34.0,2.8,2.9,2.5425,0.708919872285409,-0.015046836213593692,0.6925176885931041,0.007324473558417424,-0.07823,-35.527564
11.185,2.0,1.0,1.0,33.9,34.0,34.0,2.8,2.9,2.545,0.7032289858167732,-0.015341375030639138,0.698141460837454,0.007302623755662407,-0.079184,-35.395741
11.185,2.0,1.0,1.0,33.9,34.0,34.0,2.8,2.9,2.5475,0.6974594828687224,-0.015641604887497766,0.7037490006870805,0.007277713566421758,-0.080157,-35.263307
11.185,2.0,1.0,1.0,33.9,34.0,34.0,2.8,2.9,2.55,0.6916104808480865,-0.01594765420420992,0.7093395468610956,0.007249616146412282,-0.081152,-35.130249
11.185,2.0,1.0,1.0,33.9,34.0,34.0,2.8,2.9,2.5525,0.6856810847136309,-0.01625965492139362,0.7149123142884806,0.007218199313268345,-0.082167,-34.996554
11.185,2.0,1.0,1.0,33.9,34.0,34.0,2.8,2.9,2.555,0.6796703868558986,-0.0165777426132922,0.72046649331517,0.007183325293849766,-0.083205,-34.86221
11.185,2.0,1.0,1.0,33.9,34.0,34.0,2.8,2.9,2.5575,0.6735774669795005,-0.016902056604937925,0.7260012488820536,0.007144850457870915,-0.084264,-34.727202
11.185,2.0,1.0,1.0,33.9,34.0,34.0,2.8,2.9,2.56,0.6674013919881158,-0.0172327400935923,0.7315157196726306,0.0071026250370017,-0.085347,-34.591519
11.185,2.0,1.0,1.0,33.9,34.0,34.0,2.8,2.9,2.5625,0.661141215872481,-0.0175699402746275,0.737009017228985,0.00705649282853169,-0.086454,-34.455146
11.185,2.0,1.0,1.0,33.9,34.0,34.0,2.8,2.9,2.565,0.6547959796016589,-0.017913808472024825,0.7424802250346866,0.007006290882622912,-0.087586,-34.318069
11.185,2.0,1.0,1.0,33.9,34.0,34.0,2.8,2.9,2.5675,0.6483647110179056,-0.018264500273662793,0.7479283975631157,0.0069518491721075725,-0.088742,-34.180274
11.185,2.0,1.0,1.0,33.9,34.0,34.0,2.8,2.9,2.57,0.6418464247354618,-0.01862217567158345,0.7533525592896598,0.006892990243710442,-0.089925,-34.041746
11.185,2.0,1.0,1.0,33.9,34.0,34.0,2.8,2.9,2.5725,0.6352401220436196,-0.018986999207422806,0.758751703666113,0.006829528849494053,-0.091134,-33.902471
11.185,2.0,1.0,1.0,33.9,34.0,34.0,2.8,2.9,2.575,0.628544790814434,-0.019359140123201408,0.7641247920555242,0.006761271557235932,-0.092372,-33.762432
11.185,2.0,1.0,1.0,33.9,34.0,34.0,2.8,2.9,2.5775,0.621759405415479,-0.019738772517674318,0.7694707526256293,0.0066880163383509095,-0.093637,-33.621615
11.185,2.0,1.0,1.0,33.9,34.0,34.0,2.8,2.9,2.58,0.6148829266280604,-0.02012607550844697,0.7747884791988929,0.006609552131867016,-0.094932,-33.480003
11.185,2.0,1.0,1.0,33.9,34.0,34.0,2.8,2.9,2.5825,0.607914301571327,-0.02052123340006435,0.7800768300570645,0.006525658382850971,-0.096258,-33.33758
11.185,2.0,1.0,1.0,33.9,34.0,34.0,2.8,2.9,2.585,0.6008524636327554,-0.020924435858289358,0.7853346266980173,0.0064361045535555085,-0.097614,-33.194329
11.185,2.0,1.0,1.0,33.9,34.0,34.0,2.8,2.9,2.5875,0.5936963324054976,-0.021335878090786825,0.790560652542505,0.006340649605428172,-0.099003,-33.050234
11.185,2.0,1.0,1.0,33.9,34.0,34.0,2.8,2.9,2.59,0.5864448136331349,-0.02175576103443283,0.7957536515883041,0.006239041449975797,-0.100426,-32.905275
11.185,2.0,1.0,1.0,33.9,34.0,34.0,2.8,2.9,2.5925,0.5790967991623832,-0.022184291549471866,0.8009123270090649,0.006131016366320973,-0.101883,-32.759437
11.185,2.0,1.0,1.0,33.9,34.0,34.0,2.8,2.9,2.595,0.571651166904375,-0.022621682620744078,0.8060353396949893,0.00601629838311523,-0.103375,-32.612699
11.185,2.0,1.0,1.0,33.9,34.0,34.0,2.8,2.9,2.5975,0.564106780805128,-0.023068153566203967,0.8111213067322814,0.005894598622286291,-0.104905,-32.465043
11.185,2.0,1.0,1.0,33.9,34.0,34.0,2.8,2.9,2.6,0.5564624908259014,-0.023523930252950263,0.8161687998180976,0.005765614601892443,-0.106472,-32.316449
11.185,2.0,1.0,1.0,33.9,34.0,34.0,2.8,2.9,2.6025,0.5487171329341639,-0.023989245320979676,0.8211763436074788,0.005629029495135107,-0.108079,-32.166898
11.185,2.0,1.0,1.0,33.9,34.0,34.0,2.8,2.9,2.605,0.5408695291059432,-0.024464338414874637,0.8261424139885271,0.005484511342336002,-0.109726,-32.016369
11.185,2.0,1.0,1.0,33.9,34.0,34.0,2.8,2.9,2.6075,0.5329184873403972,-0.024949456423619808,0.8310654362817919,0.005331712212420953,-0.111416,-31.86484
11.185,2.0,1.0,1.0,33.9,34.0,34.0,2.8,2.9,2.61,0.5248628016874991,-0.025444853728731995,0.8359437833595396,0.0051702673101606395,-0.113149,-31.712291
11.185,2.0,1.0,1.0,33.9,34.0,34.0,2.8,2.9,2.6125,0.5167012522897925,-0.025950792460869787,0.8407757736802689,0.0049997940251004895,-0.114927,-31.558699
11.185,2.0,1.0,1.0,33.9,34.0,34.0,2.8,2.9,2.615,0.5084326054392427,-0.02646754276506728,0.8455596692334684,0.0048198909177628495,-0.116753,-31.404041
11.185,2.0,1.0,1.0,33.9,34.0,34.0,2.8,2.9,2.6175,0.5000556136503089,-0.026995383074705188,0.8502936733892242,0.004630136638322759,-0.118626,-31.248294
11.185,2.0,1.0,1.0,33.9,34.0,34.0,2.8,2.9,2.62,0.49156901575042816,-0.02753460039430171,0.854975928646875,0.004430088772538271,-0.12055,-31.091433
11.185,2.0,1.0,1.0,33.9,34.0,34.0,2.8,2.9,2.6225,0.4829715369892066,-0.02808549059116047,0.8596045142764376,0.004219282609254893,-0.122527,-30.933433
11.185,2.0,1.0,1.0,33.9,34.0,34.0,2.8,2.9,2.625,0.474261889167749,-0.0286483586958592,0.864177443846011,0.00399722982329836,-0.124557,-30.77427
11.185,2.0,1.0,1.0,33.9,34.0,34.0,2.8,2.9,2.6275,0.46543877078963086,-0.02922351921150304,0.8686926626278277,0.0037634170670098298,-0.126644,-30.613915
11.185,2.0,1.0,1.0,33.9,34.0,34.0,2.8,2.9,2.63,0.45650086723520933,-0.029811296431587645,0.8731480448749839,0.003517304463065324,-0.128789,-30.452343
11.185,2.0,1.0,1.0,33.9,34.0,34.0,2.8,2.9,2.6325,0.4474468509610827,-0.03041202476622745,0.8775413909602111,0.0032583239905428496,-0.130995,-30.289525
11.185,2.0,1.0,1.0,33.9,34.0,34.0,2.8,2.9,2.635,0.4382753817267127,-0.031026049076394602,0.8818704243673116,0.002985877755453755,-0.133264,-30.125433
11.185,2.0,1.0,1.0,33.9,34.0,34.0,2.8,2.9,2.6375,0.4289851068504107,-0.03165372501568658,0.8861327885250336,0.0026993361361295942,-0.135599,-29.960035
11.185,2.0,1.0,1.0,33.9,34.0,34.0,2.8,2.9,2.64,0.4195746614970955,-0.03229541937898567,0.8903260434722858,0.002398035792942822,-0.138002,-29.793302
11.185,2.0,1.0,1.0,33.9,34.0,34.0,2.8,2.9,2.6425,0.4100426690005285,-0.03295151045719096,0.894447662342547,0.002081277530831311,-0.140477,-29.625202
11.185,2.0,1.0,1.0,33.9,34.0,34.0,2.8,2.9,2.645,0.4003877412229771,-0.03362238839699031,0.8984950276542369,0.0017483240019765963,-0.143025,-29.455702
11.185,2.0,1.0,1.0,33.9,34.0,34.0,2.8,2.9,2.6475,0.3906084789556268,-0.03430845556438437,0.9024654273925623,0.0013983972347473292,-0.145651,-29.284768
11.185,2.0,1.0,1.0,33.9,34.0,34.0,2.8,2.9,2.65,0.3807034723634004,-0.03501012691037436,0.9063560508669989,0.0010306759736419854,-0.148357,-29.112364
11.185,2.0,1.0,1.0,33.9,34.0,34.0,2.8,2.9,2.6525,0.3706713014783445,-0.035727830336872435,0.9101639843270174,0.0006442928134372837,-0.151147,-28.938455
11.185,2.0,1.0,1.0,33.9,34.0,34.0,2.8,2.9,2.655,0.3605105367461618,-0.036462007060477974,0.913886206316998,0.00023833110904616085,-0.154026,-28.763003
11.185,2.0,1.0,1.0,33.9,34.0,34.0,2.8,2.9,2.6575,0.35021973963111935,-0.037213111971269947,0.917519582749369,-0.00018817835930204642,-0.156995,-28.585969
11.185,2.0,1.0,1.0,33.9,34.0,34.0,2.8,2.9,2.66,0.3397974632851813,-0.03798161398319131,0.9210608616729079,-0.0006362609880583805,-0.160061,-28.407313
11.185,2.0,1.0,1.0,33.9,34.0,34.0,2.8,2.9,2.6625,0.32924225328802514,-0.03876799637191666,0.9245066677107979,-0.0011070022443801148,-0.163227,-28.226993
11.185,2.0,1.0,1.0,33.9,34.0,34.0,2.8,2.9,2.665,0.3185526484654468,-0.039572757095300316,0.9278534961404078,-0.0016015518796690992,-0.166498,-28.044966
11.185,2.0,1.0,1.0,33.9,34.0,34.0,2.8,2.9,2.6675,0.3077271817947621,-0.040396409090551075,0.9310977065838268,-0.0021211284930443166,-0.16988,-27.861187
11.185,2.0,1.0,1.0,33.9,34.0,34.0,2.8,2.9,2.67,0.2967643814069622,-0.041239480541178125,0.9342355162749013,-0.002667024478464267,-0.173376,-27.67561
11.185,2.0,1.0,1.0,33.9,34.0,34.0,2.8,2.9,2.6725,0.2856627716968226,-0.04210251510543535,0.9372629928648474,-0.0032406113929013903,-0.176993,-27.488186
11.185,2.0,1.0,1.0,33.9,34.0,34.0,2.8,2.9,2.675,0.274420874553814,-0.04298607209645562,0.9401760467243537,-0.0038433457871102908,-0.180737,-27.298865
11.185,2.0,1.0,1.0,33.9,34.0,34.0,2.8,2.9,2.6775,0.26303721072857045,-0.04389072660244093,0.9429704226954745,-0.0044767755451791845,-0.184614,-27.107596
11.185,2.0,1.0,1.0,33.9,34.0,34.0,2.8,2.9,2.68,0.25151030135193575,-0.04481706953312807,0.945641691241362,-0.005142546784281053,-0.188632,-26.914323
11.185,2.0,1.0,1.0,33.9,34.0,34.0,2.8,2.9,2.6825,0.2398386696262731,-0.04576570757620844,0.948185238936012,-0.005842411371924262,-0.192797,-26.718991
11.185,2.0,1.0,1.0,33.9,34.0,34.0,2.8,2.9,2.685,0.2280208427118025,-0.0467372630443786,0.9505962582295575,-0.00657823512463511,-0.197117,-26.52154
11.185,2.0,1.0,1.0,33.9,34.0,34.0,2.8,2.9,2.6875,0.216055353834433,-0.0477323735901417,0.952869736417154,-0.00735200675948692,-0.201601,-26.321911
11.185,2.0,1.0,1.0,33.9,34.0,34.0,2.8,2.9,2.69,0.20394074464587947,-0.048751691761266557,0.9550004437310212,-0.00816584767834145,-0.206257,-26.120039
11.185,2.0,1.0,1.0,33.9,34.0,34.0,2.8,2.9,2.6925,0.19167556787193352,-0.04979588436481195,0.9569829204656465,-0.009022022674231252,-0.211096,-25.915858
11.185,2.0,1.0,1.0,33.9,34.0,34.0,2.8,2.9,2.695,0.17925839029089058,-0.0508656316016842,0.9588114630352744,-0.009922951660128906,-0.216127,-25.7093
11.185,2.0,1.0,1.0,33.9,34.0,34.0,2.8,2.9,2.6975,0.16668779609122142,-0.05196162592663311,0.9604801088505298,-0.010871222532622005,-0.221361,-25.500291
11.185,2.0,1.0,1.0,33.9,34.0,34.0,2.8,2.9,2.7,0.15396239066621445,-0.05308457058017328,0.9619826198870259,-0.011869605296925581,-0.226812,-25.288757
11.185,2.0,1.0,1.0,33.9,34.0,34.0,2.8,2.9,2.7025,0.14108080491338734,-0.05423517772888241,0.9633124648029562,-0.012921067595478411,-0.232491,-25.074619
11.185,2.0,1.0,1.0,33.9,34.0,34.0,2.8,2.9,2.705,0.12804170011865956,-0.0554141661385342,0.9644627994445989,-0.014028791800342522,-0.238412,-24.857795
11.185,2.0,1.0,1.0,33.9,34.0,34.0,2.8,2.9,2.7075,0.11484377351969947,-0.05662225829016578,0.9654264455581136,-0.015196193850085854,-0.244591,-24.638199
11.185,2.0,1.0,1.0,33.9,34.0,34.0,2.8,2.9,2.71,0.10148576466023582,-0.05786017683198362,0.9661958675025736,-0.016426944035134356,-0.251045,-24.415741
11.185,2.0,1.0,1.0,33.9,34.0,34.0,2.8,2.9,2.7125,0.08796646266788864,-0.05912864023934189,0.9667631467324678,-0.017724989962152393,-0.25779,-24.190327
11.185,2.0,1.0,1.0,33.9,34.0,34.0,2.8,2.9,2.715,0.0742847146130781,-0.06042835753017936,0.9671199537874047,-0.019094581958328208,-0.264846,-23.961858
11.185,2.0,1.0,1.0,33.9,34.0,34.0,2.8,2.9,2.7175,0.060439435136659905,-0.06176002185333686,0.9672575174919203,-0.020540301211057228,-0.272234,-23.730231
11.185,2.0,1.0,1.0,33.9,34.0,34.0,2.8,2.9,2.72,0.04642961757028463,-0.06312430273099742,0.967166591028504,-0.02206709097805302,-0.279977,-23.495337
11.185,2.0,1.0,1.0,33.9,34.0,34.0,2.8,2.9,2.7225,0.03225434681736148,-0.06452183669270374,0.9668374145014702,-0.02368029124810017,-0.2881,-23.257063
11.185,2.0,1.0,1.0,33.9,34.0,34.0,2.8,2.9,2.725,0.01791281431585472,-0.06595321598529881,0.9662596735573011,-0.025385677284285958,-0.296631,-23.015289
11.185,2.0,1.0,1.0,33.9,34.0,34.0,2.8,2.9,2.7275,0.003404335468745896,-0.06741897497859987,0.9654224535676836,-0.027189502540551365,-0.305598,-22.769889
11.185,2.0,1.0,1.0,33.9,34.0,34.0,2.8,2.9,2.73,-0.011271629993089193,-0.06891957380798257,0.964314188813557,-0.02909854650976684,-0.315036,-22.520732
11.185,2.0,1.0,1.0,33.9,34.0,34.0,2.8,2.9,2.7325,-0.02611545415474463,-0.07045537869906286,0.9629226060310229,-0.03112016813842788,-0.324979,-22.267677
11.185,2.0,1.0,1.0,33.9,34.0,34.0,2.8,2.9,2.735,-0.0411273128892597,-0.07202663830217003,0.96123466159164,-0.0332623655306659,-0.335468,-22.01058
11.185,2.0,1.0,1.0,33.9,34.0,34.0,2.8,2.9,2.7375,-0.05630715283473853,-0.07363345522016831,0.9592364714891743,-0.03553384276390023,-0.346548,-21.749285
11.185,2.0,1.0,1.0,33.9,34.0,34.0,2.8,2.9,2.74,-0.07165465237604363,-0.07527575173590598,0.9569132331909057,-0.03794408475142285,-0.358265,-21.48363
11.185,2.0,1.0,1.0,33.9,34.0,34.0,2.8,2.9,2.7425,-0.0871691754116184,-0.07695322852699364,0.9542491382828401,-0.04050344121480813,-0.370675,-21.213445
11.185,2.0,1.0,1.0,33.9,34.0,34.0,2.8,2.9,2.745,-0.1028497164153415,-0.07866531488540687,0.9512272746934667,-0.04322322097237028,-0.383837,-20.938547
11.185,2.0,1.0,1.0,33.9,34.0,34.0,2.8,2.9,2.7475,-0.1186948349679782,-0.0804111086245312,0.9478295171192466,-0.04611579790972349,-0.397818,-20.658747
11.185,2.0,1.0,1.0,33.9,34.0,34.0,2.8,2.9,2.75,-0.134702577516064,-0.0821893034401445,0.944036404096697,-0.0491947301749188,-0.412692,-20.373843
11.185,2.0,1.0,1.0,33.9,34.0,34.0,2.8,2.9,2.7525,-0.15087038359685953,-0.08399810097340338,0.9398269999716992,-0.052474894332603196,-0.428542,-20.083622
11.185,2.0,1.0,1.0,33.9,34.0,34.0,2.8,2.9,2.755,-0.16719497311952297,-0.08583510417634427,0.9351787398093266,-0.055972636416326174,-0.445463,-19.787858
11.185,2.0,1.0,1.0,33.9,34.0,34.0,2.8,2.9,2.7575,-0.18367221048056737,-0.08769718776951521,0.9300672550726441,-0.0597059420298047,-0.46356,-19.486315
11.185,2.0,1.0,1.0,33.9,34.0,34.0,2.8,2.9,2.76,-0.20029694027206954,-0.08958034056337581,0.9244661776867119,-0.06369462785645974,-0.482951,-19.17874
11.185,2.0,1.0,1.0,33.9,34.0,34.0,2.8,2.9,2.7625,-0.21706278805826978,-0.09147947313420365,0.9183469199111046,-0.06796055712504435,-0.503771,-18.864868
11.185,2.0,1.0,1.0,33.9,34.0,34.0,2.8,2.9,2.765,-0.2339619180781787,-0.09338818272993882,0.9116784272977005,-0.0725278817205272,-0.526174,-18.544417
11.185,2.0,1.0,1.0,33.9,34.0,34.0,2.8,2.9,2.7675,-0.25098473768743845,-0.09529846524044013,0.9044269019524507,-0.07742331368125485,-0.550333,-18.217091
11.185,2.0,1.0,1.0,33.9,34.0,34.0,2.8,2.9,2.77,-0.2681195357651171,-0.09720036148364283,0.8965554934154075,-0.08267642872053951,-0.576447,-17.882575
11.185,2.0,1.0,1.0,33.9,34.0,34.0,2.8,2.9,2.7725,-0.28535203903210843,-0.09908152178620727,0.8880239548215724,-0.08832000405391909,-0.604746,-17.54054
11.185,2.0,1.0,1.0,33.9,34.0,34.0,2.8,2.9,2.775,-0.30266486607011317,-0.10092666868766616,0.8787882627556475,-0.0943903920526424,-0.635492,-17.190635
11.185,2.0,1.0,1.0,33.9,34.0,34.0,2.8,2.9,2.7775,-0.3200368535590956,-0.10271693233691416,0.868800200591183,-0.10092792985465503,-0.668989,-16.832496
11.185,2.0,1.0,1.0,33.9,34.0,34.0,2.8,2.9,2.78,-0.337442222576811,-0.1044290264902936,0.8580069074443808,-0.1079773827108003,-0.705591,-16.465736
11.185,2.0,1.0,1.0,33.9,34.0,34.0,2.8,2.9,2.7825,-0.35484954437578287,-0.10603422461225276,0.8463503986746239,-0.11558841502636762,-0.745707,-16.089954
11.185,2.0,1.0,1.0,33.9,34.0,34.0,2.8,2.9,2.785,-0.3722204544609056,-0.10749708501427181,0.833767069869127,-0.12381607703508835,-0.789821,-15.704731
11.185,2.0,1.0,1.0,33.9,34.0,34.0,2.8,2.9,2.7875,-0.389508050580927,-0.10877386079468447,0.820187205555531,-0.13272128571714098,-0.838496,-15.309635
11.185,2.0,1.0,1.0,33.9,34.0,34.0,2.8,2.9,2.79,-0.4066548939704351,-0.10981051411530394,0.8055345281115004,-0.1423712643279338,-0.892401,-14.904222
11.185,2.0,1.0,1.0,33.9,34.0,34.0,2.8,2.9,2.7925,-0.4235905134958637,-0.11054023473588834,0.7897258438589299,-0.15283988336821067,-0.952326,-14.488041
11.185,2.0,1.0,1.0,33.9,34.0,34.0,2.8,2.9,2.795,-0.44022828925591445,-0.11088033971688828,0.7726708756028158,-0.16420781354177685,-1.019217,-14.060646
11.185,2.0,1.0,1.0,33.9,34.0,34.0,2.8,2.9,2.7975,-0.4564615663863709,-0.11072840552598172,0.754272418897633,-0.17656235322591432,-1.094202,-13.621597
11.185,2.0,1.0,1.0,33.9,34.0,34.0,2.8,2.9,2.8,-0.4721588235396353,-0.1099574576724505,0.734427030205283,-0.18999672212564278,-1.178644,-13.170485
11.185,2.0,1.0,1.0,33.9,34.0,34.0,2.8,2.9,2.8025,-0.4871576988137846,-0.10841002152102877,0.713026558741286,-0.20460850922483,-1.274187,-12.706945
11.185,2.0,1.0,1.0,33.9,34.0,34.0,2.8,2.9,2.805,-0.5012576690510674,-0.10589083137104847,0.6899609834804449,-0.22049681362872434,-1.382832,-12.230686
11.185,2.0,1.0,1.0,33.9,34.0,34.0,2.8,2.9,2.8075,-0.5142112058106688,-0.10215802263321122,0.6651232293379553,-0.23775740464098502,-1.507022,-11.741531
11.185,2.0,1.0,1.0,33.9,34.0,34.0,2.8,2.9,2.81,-0.525713327891766,-0.0969127289327009,0.6384169309967893,-0.256474933479868,-1.649752,-11.23947
11.185,2.0,1.0,1.0,33.9,34.0,34.0,2.8,2.9,2.8125,-0.535389696358158,-0.0897872324861707,0.609768505558243,-0.276710837199861,-1.814708,-10.724724
11.185,2.0,1.0,1.0,33.9,34.0,34.0,2.8,2.9,2.815,-0.5427838530464981,-0.08033227147103124,0.579145387083284,-0.29848508489200015,-2.006431,-10.197847
11.185,2.0,1.0,1.0,33.9,34.0,34.0,2.8,2.9,2.8175,-0.5473450421685474,-0.06800494670256732,0.5465828244988775,-0.3217493699804815,-2.230524,-9.659842
11.185,2.0,1.0,1.0,33.9,34.0,34.0,2.8,2.9,2.82,-0.5484194969913987,-0.05216011137689324,0.5122221068584466,-0.34634889303781335,-2.493871,-9.112325
11.185,2.0,1.0,1.0,33.9,34.0,34.0,2.8,2.9,2.8225,-0.5452503864769163,-0.03205043776143418,0.4763631142900404,-0.37196984933391497,-2.804866,-8.557721
11.185,2.0,1.0,1.0,33.9,34.0,34.0,2.8,2.9,2.825,-0.5369950109219448,-0.00684374275640564,0.4395330037258097,-0.39807082923837267,-3.17356,-7.999509
11.185,2.0,1.0,1.0,33.9,34.0,34.0,2.8,2.9,2.8275,-0.522772175111677,0.024329517747321377,0.40256940434637734,-0.42379977717925915,-3.611586,-7.442496
11.185,2.0,1.0,1.0,33.9,34.0,34.0,2.8,2.9,2.83,-0.5017568442978835,0.06228151758752861,0.3667089418067101,-0.4479057087260686,-4.131479,-6.893098
