1,w,sub_t,h,l1,l2,l3,g1,g2,Freq,S11_re,S21_re,S11_img,S21_img,S11_dB,S21_dB
11.185,2.0,1.0,1.0,33.8,34.7,34.7,2.8,2.1,2.5,0.807247478760197,-0.0132142852292446,0.576736410024997,0.010363374271868,-0.068843,-35.497249
11.185,2.0,1.0,1.0,33.8,34.7,34.7,2.8,2.1,2.5025,0.803035552635422,-0.01350509446345465,0.5824257748669357,0.01042240041420199,-0.06967,-35.360861
11.185,2.0,1.0,1.0,33.8,34.7,34.7,2.8,2.1,2.505,0.7987610599666932,-0.01380249832618266,0.5881113362725978,0.010480538479012404,-0.070516,-35.223714
11.185,2.0,1.0,1.0,33.8,34.7,34.7,2.8,2.1,2.5075,0.794423258196998,-0.014106685855564821,0.5937927330036454,0.01053772559576126,-0.071382,-35.085791
11.185,2.0,1.0,1.0,33.8,34.7,34.7,2.8,2.1,2.51,0.7900213893260797,-0.014417853208057402,0.5994695916829973,0.010593895505249659,-0.072267,-34.947074
11.185,2.0,1.0,1.0,33.8,34.7,34.7,2.8,2.1,2.5125,0.7855546794600407,-0.014736203992080327,0.605141526323156,0.010648978357637066,-0.073173,-34.807544
11.185,2.0,1.0,1.0,33.8,34.7,34.7,2.8,2.1,2.515,0.7810223383412672,-0.015061949620416534,0.6108081378324924,0.010702900496735494,-0.0741,-34.667182
11.185,2.0,1.0,1.0,33.8,34.7,34.7,2.8,2.1,2.5175,0.7764235588574967,-0.015395309682596385,0.6164690134981377,0.01075558422951396,-0.07505,-34.525968
11.185,2.0,1.0,1.0,33.8,34.7,34.7,2.8,2.1,2.52,0.7717575165287218,-0.01573651233859074,0.6221237264440616,0.010806947579654324,-0.076022,-34.383883
11.185,2.0,1.0,1.0,33.8,34.7,34.7,2.8,2.1,2.5225,0.7670233689705718,-0.016085794735232747,0.627771835062762,0.010856904023897452,-0.077018,-34.240907
11.185,2.0,1.0,1.0,33.8,34.7,34.7,2.8,2.1,2.525,0.7622202553326617,-0.016443403446899884,0.6334128824189074,0.010905362209805302,-0.078038,-34.097017
11.185,2.0,1.0,1.0,33.8,34.7,34.7,2.8,2.1,2.5275,0.7573472957103176,-0.016809594942103254,0.6390463956231195,0.010952225653440395,-0.079083,-33.952193
11.185,2.0,1.0,1.0,33.8,34.7,34.7,2.8,2.1,2.53,0.7524035905279489,-0.0171846360777579,0.6446718851739284,0.010997392415327701,-0.080155,-33.806412
11.185,2.0,1.0,1.0,33.8,34.7,34.7,2.8,2.1,2.5325,0.7473882198922079,-0.01756880462304815,0.6502888442657874,0.01104075475291222,-0.081253,-33.659651
11.185,2.0,1.0,1.0,33.8,34.7,34.7,2.8,2.1,2.535,0.7423002429129161,-0.017962389814950987,0.6558967480608481,0.01108219874756028,-0.082379,-33.511888
11.185,2.0,1.0,1.0,33.8,34.7,34.7,2.8,2.1,2.5375,0.7371386969896055,-0.018365692947643883,0.6614950529219926,0.011121603903967858,-0.083535,-33.363097
11.185,2.0,1.0,1.0,33.8,34.7,34.7,2.8,2.1,2.54,0.7319025970613126,-0.018779027998202778,0.6670831956044152,0.011158842719636599,-0.084721,-33.213254
11.185,2.0,1.0,1.0,33.8,34.7,34.7,2.8,2.1,2.5425,0.7265909348170975,-0.019202722291188946,0.6726605924028054,0.011193780221853798,-0.085937,-33.062333
11.185,2.0,1.0,1.0,33.8,34.7,34.7,2.8,2.1,2.545,0.7212026778645458,-0.019637117204934586,0.6782266382509142,0.011226273469362353,-0.087187,-32.910308
11.185,2.0,1.0,1.0,33.8,34.7,34.7,2.8,2.1,2.5475,0.7157367688532805,-0.02008256892256814,0.6837807057699922,0.011256171015632529,-0.08847,-32.757151
11.185,2.0,1.0,1.0,33.8,34.7,34.7,2.8,2.1,2.55,0.7101921245502597,-0.02053944923107193,0.6893221442622858,0.011283312330339574,-0.089788,-32.602836
11.185,2.0,1.0,1.0,33.8,34.7,34.7,2.8,2.1,2.5525,0.7045676348633865,-0.021008146371938013,0.6948502786453947,0.011307527175311461,-0.091142,-32.447333
11.185,2.0,1.0,1.0,33.8,34.7,34.7,2.8,2.1,2.555,0.698862161809626,-0.021489065947290154,0.7003644083229115,0.011328634930832715,-0.092534,-32.290612
11.185,2.0,1.0,1.0,33.8,34.7,34.7,2.8,2.1,2.5575,0.6930745384235254,-0.021982631885666862,0.7058638059863301,0.011346443867767836,-0.093966,-32.132643
11.185,2.0,1.0,1.0,33.8,34.7,34.7,2.8,2.1,2.56,0.6872035676016754,-0.022489287472019264,0.711347716342708,0.01136075036049867,-0.095438,-31.973393
11.185,2.0,1.0,1.0,33.8,34.7,34.7,2.8,2.1,2.5625,0.6812480208782502,-0.02300949644687114,0.7168153547620241,0.01137133803514563,-0.096953,-31.812832
11.185,2.0,1.0,1.0,33.8,34.7,34.7,2.8,2.1,2.565,0.6752066371263369,-0.023543744180019418,0.7222659058375834,0.011377976846955623,-0.098512,-31.650923
11.185,2.0,1.0,1.0,33.8,34.7,34.7,2.8,2.1,2.5675,0.6690781211793159,-0.024092538924623718,0.7276985218521095,0.011380422080084638,-0.100118,-31.487634
11.185,2.0,1.0,1.0,33.8,34.7,34.7,2.8,2.1,2.57,0.6628611423660097,-0.024656413158053846,0.7331123211414448,0.011378413262268225,-0.101772,-31.322927
11.185,2.0,1.0,1.0,33.8,34.7,34.7,2.8,2.1,2.5725,0.6565543329527703,-0.025235925016429975,0.7385063863469065,0.011371672986049287,-0.103476,-31.156766
11.185,2.0,1.0,1.0,33.8,34.7,34.7,2.8,2.1,2.575,0.6501562864850501,-0.025831659830416204,0.7438797625463932,0.01135990562730711,-0.105234,-30.989112
11.185,2.0,1.0,1.0,33.8,34.7,34.7,2.8,2.1,2.5775,0.6436655560203155,-0.026444231770512153,0.7492314552532853,0.01134279595079219,-0.107046,-30.819925
11.185,2.0,1.0,1.0,33.8,34.7,34.7,2.8,2.1,2.58,0.6370806522434126,-0.02707428561084274,0.7545604282709661,0.011320007591198755,-0.108915,-30.649164
11.185,2.0,1.0,1.0,33.8,34.7,34.7,2.8,2.1,2.5825,0.6304000414546559,-0.02772249862127526,0.7598656013894479,0.01129118139698731,-0.110845,-30.476786
11.185,2.0,1.0,1.0,33.8,34.7,34.7,2.8,2.1,2.585,0.6236221434200147,-0.0283895825986047,0.7651458479090538,0.011255933622677608,-0.112838,-30.302746
11.185,2.0,1.0,1.0,33.8,34.7,34.7,2.8,2.1,2.5875,0.6167453290717478,-0.029076286048555222,0.7703999919743968,0.011213853953646546,-0.114897,-30.126999
11.185,2.0,1.0,1.0,33.8,34.7,34.7,2.8,2.1,2.59,0.6097679180467468,-0.029783396531451227,0.7756268056999334,0.011164503345555356,-0.117025,-29.949496
11.185,2.0,1.0,1.0,33.8,34.7,34.7,2.8,2.1,2.5925,0.6026881760485996,-0.030511743185633135,0.7808250060661793,0.01110741165836606,-0.119225,-29.770189
11.185,2.0,1.0,1.0,33.8,34.7,34.7,2.8,2.1,2.595,0.5955043120180781,-0.03126219944403617,0.7859932515631508,0.011042075062446088,-0.121502,-29.589025
11.185,2.0,1.0,1.0,33.8,34.7,34.7,2.8,2.1,2.5975,0.588214475095207,-0.03203568596083701,0.7911301385547846,0.010967953191462883,-0.123859,-29.405952
11.185,2.0,1.0,1.0,33.8,34.7,34.7,2.8,2.1,2.6,0.5808167513544832,-0.03283317376670517,0.7962341973347982,0.010884466013581262,-0.126301,-29.220913
11.185,2.0,1.0,1.0,33.8,34.7,34.7,2.8,2.1,2.6025,0.5733091602929745,-0.03365568767300256,0.801303887840812,0.01079099038883753,-0.128831,-29.033851
11.185,2.0,1.0,1.0,33.8,34.7,34.7,2.8,2.1,2.605,0.565689651049015,-0.03450430994726412,0.8063375949892997,0.010686856276404302,-0.131454,-28.844706
11.185,2.0,1.0,1.0,33.8,34.7,34.7,2.8,2.1,2.6075,0.5579560983270366,-0.03538018428448604,0.8113336235891148,0.010571342550695135,-0.134176,-28.653414
11.185,2.0,1.0,1.0,33.8,34.7,34.7,2.8,2.1,2.61,0.5501062980016169,-0.036284520101166416,0.8162901927858011,0.01044367237979354,-0.137001,-28.459911
11.185,2.0,1.0,1.0,33.8,34.7,34.7,2.8,2.1,2.6125,0.5421379623711412,-0.03721859718170948,0.8212054299825576,0.010303008113407931,-0.139937,-28.264129
11.185,2.0,1.0,1.0,33.8,34.7,34.7,2.8,2.1,2.615,0.5340487150285186,-0.038183770709737615,0.8260773641763671,0.010148445620322218,-0.142988,-28.065995
11.185,2.0,1.0,1.0,33.8,34.7,34.7,2.8,2.1,2.6175,0.5258360853131511,-0.03918147672008076,0.830903918639408,0.00997900800696847,-0.146162,-27.865437
11.185,2.0,1.0,1.0,33.8,34.7,34.7,2.8,2.1,2.62,0.5174975023047523,-0.04021323801075835,0.8356829028660862,0.00979363863910327,-0.149466,-27.662376
11.185,2.0,1.0,1.0,33.8,34.7,34.7,2.8,2.1,2.6225,0.5090302883156895,-0.04128067055815425,0.8404120036947729,0.009591193377402359,-0.152908,-27.456732
11.185,2.0,1.0,1.0,33.8,34.7,34.7,2.8,2.1,2.625,0.500431651834264,-0.0423854904828312,0.845088775500202,0.00937043192482716,-0.156496,-27.248419
11.185,2.0,1.0,1.0,33.8,34.7,34.7,2.8,2.1,2.6275,0.49169867986658,-0.04352952161807147,0.8497106293373351,0.009130008168546005,-0.16024,-27.03735
11.185,2.0,1.0,1.0,33.8,34.7,34.7,2.8,2.1,2.63,0.48282832961963323,-0.04471470373826123,0.8542748208997017,0.008868459381629326,-0.164149,-26.823431
11.185,2.0,1.0,1.0,33.8,34.7,34.7,2.8,2.1,2.6325,0.4738174194626623,-0.04594310150968219,0.8587784371346078,0.00858419412922813,-0.168234,-26.606565
11.185,2.0,1.0,1.0,33.8,34.7,34.7,2.8,2.1,2.635,0.46466261909792217,-0.04721691423212481,0.8632183813333266,0.008275478699936998,-0.172507,-26.38665
11.185,2.0,1.0,1.0,33.8,34.7,34.7,2.8,2.1,2.6375,0.4553604388656625,-0.04853848644597093,0.8675913564860587,0.0079404218548787,-0.176981,-26.163579
11.185,2.0,1.0,1.0,33.8,34.7,34.7,2.8,2.1,2.64,0.4459072181014133,-0.049910319485973124,0.8718938466580164,0.0075769576539300556,-0.181668,-25.937238
11.185,2.0,1.0,1.0,33.8,34.7,34.7,2.8,2.1,2.6425,0.43629911245672365,-0.051335084069786145,0.8761220961036889,0.007182826079476886,-0.186586,-25.707511
11.185,2.0,1.0,1.0,33.8,34.7,34.7,2.8,2.1,2.645,0.4265320800873642,-0.052815634016274045,0.8802720857898648,0.006755551131963867,-0.191749,-25.474272
11.185,2.0,1.0,1.0,33.8,34.7,34.7,2.8,2.1,2.6475,0.41660186660594495,-0.054355021195500605,0.8843395069429707,0.006292416016880554,-0.197177,-25.237391
11.185,2.0,1.0,1.0,33.8,34.7,34.7,2.8,2.1,2.65,0.40650398868915366,-0.055956511818834355,0.8883197311709656,0.005790434977956557,-0.202889,-24.996729
11.185,2.0,1.0,1.0,33.8,34.7,34.7,2.8,2.1,2.6525,0.396233716223931,-0.05762360418330637,0.8922077766322368,0.005246321254115654,-0.208908,-24.752141
11.185,2.0,1.0,1.0,33.8,34.7,34.7,2.8,2.1,2.655,0.38578605287223383,-0.059360047988662706,0.8959982696311923,0.004656450545555001,-0.215256,-24.503473
11.185,2.0,1.0,1.0,33.8,34.7,34.7,2.8,2.1,2.6575,0.375155714931831,-0.0611698653475457,0.8996854009091064,0.004016819263994626,-0.221961,-24.250563
11.185,2.0,1.0,1.0,33.8,34.7,34.7,2.8,2.1,2.66,0.3643371083716685,-0.06305737360772636,0.9032628757655637,0.0033229967097430165,-0.229053,-23.993238
11.185,2.0,1.0,1.0,33.8,34.7,34.7,2.8,2.1,2.6625,0.3533243039267401,-0.06502721009856567,0.9067238569854323,0.0025700701589031955,-0.236563,-23.731319
11.185,2.0,1.0,1.0,33.8,34.7,34.7,2.8,2.1,2.665,0.3421110101512158,-0.06708435889955318,0.910060899352853,0.0017525816517904244,-0.24453,-23.464611
11.185,2.0,1.0,1.0,33.8,34.7,34.7,2.8,2.1,2.6675,0.3306905443533978,-0.06923417970354197,0.913265874299522,0.0008644550410036698,-0.252992,-23.192912
11.185,2.0,1.0,1.0,33.8,34.7,34.7,2.8,2.1,2.67,0.31905580137607037,-0.07148243880665643,0.9163298829505463,-0.00010108842468585626,-0.261995,-22.916004
11.185,2.0,1.0,1.0,33.8,34.7,34.7,2.8,2.1,2.6725,0.3071992202476661,-0.07383534219444976,0.9192431554854228,-0.0011516280479249362,-0.27159,-22.633658
11.185,2.0,1.0,1.0,33.8,34.7,34.7,2.8,2.1,2.675,0.29511274882182925,-0.07629957060103185,0.9219949343100169,-0.0022956576481853452,-0.281834,-22.345628
11.185,2.0,1.0,1.0,33.8,34.7,34.7,2.8,2.1,2.6775,0.28278780665773795,-0.07888231628246505,0.9245733380194607,-0.003542718543951213,-0.292791,-22.051656
11.185,2.0,1.0,1.0,33.8,34.7,34.7,2.8,2.1,2.68,0.2702152465875841,-0.08159132105092722,0.9269652024991925,-0.004903555179355803,-0.304533,-21.751463
11.185,2.0,1.0,1.0,33.8,34.7,34.7,2.8,2.1,2.6825,0.25738531569459694,-0.0844349148385781,0.9291558947333401,-0.0063902977958668694,-0.317142,-21.444753
11.185,2.0,1.0,1.0,33.8,34.7,34.7,2.8,2.1,2.685,0.24428761681732594,-0.08742205366711787,0.931129093931129,-0.008016677501966683,-0.330712,-21.131213
11.185,2.0,1.0,1.0,33.8,34.7,34.7,2.8,2.1,2.6875,0.230911072249631,-0.0905623553450151,0.932866533398501,-0.00979828026941472,-0.345349,-20.810503
11.185,2.0,1.0,1.0,33.8,34.7,34.7,2.8,2.1,2.69,0.21724389208506112,-0.09386613043523301,0.9343476951188235,-0.011752847838195345,-0.361175,-20.482265
11.185,2.0,1.0,1.0,33.8,34.7,34.7,2.8,2.1,2.6925,0.2032735507495815,-0.09734440494173655,0.9355494471953747,-0.013900635311085275,-0.37833,-20.146112
11.185,2.0,1.0,1.0,33.8,34.7,34.7,2.8,2.1,2.695,0.18898677680611564,-0.10100892962549518,0.9364456120658604,-0.0162648374454949,-0.396975,-19.801633
11.185,2.0,1.0,1.0,33.8,34.7,34.7,2.8,2.1,2.6975,0.17436956327944497,-0.10487216869917014,0.9370064506250053,-0.0188720984045802,-0.417296,-19.448386
11.185,2.0,1.0,1.0,33.8,34.7,34.7,2.8,2.1,2.7,0.15940720879979545,-0.1089472576063418,0.9371980439662243,-0.021753123129161927,-0.439513,-19.085897
11.185,2.0,1.0,1.0,33.8,34.7,34.7,2.8,2.1,2.7025,0.14408440416735668,-0.11324791529773164,0.9369815502423889,-0.02494341267054609,-0.463878,-18.713661
11.185,2.0,1.0,1.0,33.8,34.7,34.7,2.8,2.1,2.705,0.12838538502893962,-0.11778829034505289,0.9363123090040462,-0.028484150924334255,-0.49069,-18.331134
11.185,2.0,1.0,1.0,33.8,34.7,34.7,2.8,2.1,2.7075,0.11229417999497207,-0.1225827116231328,0.9351387591658308,-0.03242327635963528,-0.520301,-17.937736
11.185,2.0,1.0,1.0,33.8,34.7,34.7,2.8,2.1,2.71,0.09579499581095473,-0.12764530204718286,0.9334011293908473,-0.036816779630901283,-0.553129,-17.532849
11.185,2.0,1.0,1.0,33.8,34.7,34.7,2.8,2.1,2.7125,0.07887279872199124,-0.13298939639290647,0.9310298512063555,-0.04173027634933717,-0.589671,-17.115809
11.185,2.0,1.0,1.0,33.8,34.7,34.7,2.8,2.1,2.715,0.06151417622767236,-0.13862667926899463,0.9279436358820042,-0.04724091346340806,-0.630525,-16.685917
11.185,2.0,1.0,1.0,33.8,34.7,34.7,2.8,2.1,2.7175,0.04370859932462153,-0.14456592356581519,0.9240471468680398,-0.05343967679567761,-0.676411,-16.24243
11.185,2.0,1.0,1.0,33.8,34.7,34.7,2.8,2.1,2.72,0.025450256813104463,-0.15081115846123314,0.9192281922984317,-0.06043417441053878,-0.728206,-15.78457
11.185,2.0,1.0,1.0,33.8,34.7,34.7,2.8,2.1,2.7225,0.006740707014481064,-0.15735902265482624,0.9133543605360726,-0.06835197182357323,-0.786977,-15.311529
11.185,2.0,1.0,1.0,33.8,34.7,34.7,2.8,2.1,2.725,-0.012407302365343896,-0.16419495366350753,0.9062690333111723,-0.077344543284477,-0.854043,-14.822479
11.185,2.0,1.0,1.0,33.8,34.7,34.7,2.8,2.1,2.7275,-0.03196434596976129,-0.1712877153246013,0.8977867493137687,-0.08759186487491875,-0.931035,-14.316596
11.185,2.0,1.0,1.0,33.8,34.7,34.7,2.8,2.1,2.73,-0.05187645445745236,-0.17858155750323157,0.887687980892649,-0.09930758529878611,-1.019986,-13.793085
11.185,2.0,1.0,1.0,33.8,34.7,34.7,2.8,2.1,2.7325,-0.07205387382291316,-0.18598501726638203,0.8757135717903256,-0.11274452517759617,-1.123456,-13.251227
11.185,2.0,1.0,1.0,33.8,34.7,34.7,2.8,2.1,2.735,-0.09235507755882699,-0.19335499699966835,0.861559441164619,-0.1281998991917891,-1.244676,-12.690453
11.185,2.0,1.0,1.0,33.8,34.7,34.7,2.8,2.1,2.7375,-0.1125642010292706,-0.20047430101918387,0.8448728179832292,-0.146018998726408,-1.387759,-12.110437
11.185,2.0,1.0,1.0,33.8,34.7,34.7,2.8,2.1,2.74,-0.13235959829713198,-0.2070203483104812,0.8252524400830323,-0.16659490715596134,-1.557959,-11.511259
11.185,2.0,1.0,1.0,33.8,34.7,34.7,2.8,2.1,2.7425,-0.15127095992454234,-0.2125225234976692,0.8022571502916793,-0.19035983113175292,-1.762002,-10.893613
11.185,2.0,1.0,1.0,33.8,34.7,34.7,2.8,2.1,2.745,-0.16862291888567213,-0.21630612223721468,0.7754305621819273,-0.21776040846166472,-2.008482,-10.259125
11.185,2.0,1.0,1.0,33.8,34.7,34.7,2.8,2.1,2.7475,-0.1834654920238509,-0.21742326721544825,0.7443543163233857,-0.24920453507649062,-2.308274,-9.610788
11.185,2.0,1.0,1.0,33.8,34.7,34.7,2.8,2.1,2.75,-0.194498330227608,-0.214577778588652,0.708748692139545,-0.284961056808465,-2.674822,-8.953544
11.185,2.0,1.0,1.0,33.8,34.7,34.7,2.8,2.1,2.7525,-0.20001027267360832,-0.2060654450204555,0.6686447908723026,-0.32498828396596846,-3.123908,-8.295026
11.185,2.0,1.0,1.0,33.8,34.7,34.7,2.8,2.1,2.755,-0.19788230290647052,-0.1897776040045831,0.6246501294387284,-0.36866971471666266,-3.671934,-7.64641
11.185,2.0,1.0,1.0,33.8,34.7,34.7,2.8,2.1,2.7575,-0.1857402770640138,-0.16335395690116028,0.5783035394988372,-0.41446125971924663,-4.330508,-7.023212
11.185,2.0,1.0,1.0,33.8,34.7,34.7,2.8,2.1,2.76,-0.16137509462296779,-0.1246015099848908,0.5324417754423523,-0.45952745386787597,-5.092886,-6.445657
11.185,2.0,1.0,1.0,33.8,34.7,34.7,2.8,2.1,2.7625,-0.12351533785108812,-0.07226373997057128,0.4913679178841809,-0.49957570972534115,-5.905767,-5.938041
11.185,2.0,1.0,1.0,33.8,34.7,34.7,2.8,2.1,2.765,-0.07285137736832711,-0.007038693313102824,0.46048224543585226,-0.5292259861699093,-6.628379,-5.526409
11.185,2.0,1.0,1.0,33.8,34.7,34.7,2.8,2.1,2.7675,-0.012855030022124157,0.06760822009846534,0.4451049257118859,-0.543184088817941,-7.027131,-5.234295
11.185,2.0,1.0,1.0,33.8,34.7,34.7,2.8,2.1,2.77,0.05032466838398787,0.14555206665324574,0.4486954881836984,-0.538013013555126,-6.906675,-5.077379
11.185,2.0,1.0,1.0,33.8,34.7,34.7,2.8,2.1,2.7725,0.10929004382125472,0.21943326810158229,0.4713617764473075,-0.5136132244918061,-6.305499,-5.059157
11.185,2.0,1.0,1.0,33.8,34.7,34.7,2.8,2.1,2.775,0.15759294351057965,0.2828452046596586,0.5096884959265551,-0.4733881920049445,-5.457378,-5.169867
11.185,2.0,1.0,1.0,33.8,34.7,34.7,2.8,2.1,2.7775,0.19144712781534937,0.3320351106458688,0.5580558740864853,-0.4229283483544946,-4.58323,-5.389283
11.185,2.0,1.0,1.0,33.8,34.7,34.7,2.8,2.1,2.78,0.21010440572865,0.366274025616706,0.610550715807776,-0.36810858984604333,-3.799514,-5.691825
11.185,2.0,1.0,1.0,33.8,34.7,34.7,2.8,2.1,2.7825,0.21508285633952587,0.38708558949523986,0.6623966166627605,-0.3136668067727894,-3.142315,-6.051595
11.185,2.0,1.0,1.0,33.8,34.7,34.7,2.8,2.1,2.785,0.2090131373226998,0.3970968181458335,0.710485040856494,-0.26267796728365833,-2.608428,-6.445761
11.185,2.0,1.0,1.0,33.8,34.7,34.7,2.8,2.1,2.7875,0.19470773268498837,0.3991122497160463,0.7532254153992101,-0.21670533830527897,-2.180583,-6.856023
11.185,2.0,1.0,1.0,33.8,34.7,34.7,2.8,2.1,2.79,0.1746423165287948,0.3955988244167271,0.7901141101798634,-0.17623051405524154,-1.839044,-7.268699
11.185,2.0,1.0,1.0,33.8,34.7,34.7,2.8,2.1,2.7925,0.15077192208942375,0.38850394533120886,0.8213007417825546,-0.14108534486666513,-1.566008,-7.674094
11.185,2.0,1.0,1.0,33.8,34.7,34.7,2.8,2.1,2.795,0.12453789567377761,0.3792631516904974,0.8472633773820917,-0.11077505330131038,-1.346799,-8.065647
11.185,2.0,1.0,1.0,33.8,34.7,34.7,2.8,2.1,2.7975,0.0969536075121763,0.3688858981824042,0.8686025362748809,-0.08468293776915302,-1.169803,-8.439114
11.185,2.0,1.0,1.0,33.8,34.7,34.7,2.8,2.1,2.8,0.06870605572765866,0.3580569438953304,0.8859260733941514,-0.062184583900442444,-1.026008,-8.791902
11.185,2.0,1.0,1.0,33.8,34.7,34.7,2.8,2.1,2.8025,0.04024609223941182,0.3472262840547052,0.899792932210375,-0.042703500937728386,-0.908469,-9.122552
11.185,2.0,1.0,1.0,33.8,34.7,34.7,2.8,2.1,2.805,0.011859372162917142,0.3366798202101225,0.9106911344076932,-0.025732711981916297,-0.811841,-9.430362
11.185,2.0,1.0,1.0,33.8,34.7,34.7,2.8,2.1,2.8075,-0.0162813375205415,0.32659143809508856,0.9190339412537886,-0.010838280853185589,-0.732006,-9.715124
11.185,2.0,1.0,1.0,33.8,34.7,34.7,2.8,2.1,2.81,-0.04407901879993277,0.3170599691412457,0.9251646760555138,0.0023457716865972395,-0.665772,-9.976934
11.185,2.0,1.0,1.0,33.8,34.7,34.7,2.8,2.1,2.8125,-0.0714866412742193,0.308134820645014,0.929364966045555,0.0141259595610895,-0.610654,-10.216067
11.185,2.0,1.0,1.0,33.8,34.7,34.7,2.8,2.1,2.815,-0.09848956204029938,0.29983348114387337,0.9318637064385663,0.024758559920742284,-0.564708,-10.432885
11.185,2.0,1.0,1.0,33.8,34.7,34.7,2.8,2.1,2.8175,-0.12509362885625971,0.292153349027889,0.9328454771204336,0.03445832804551139,-0.526403,-10.627783
11.185,2.0,1.0,1.0,33.8,34.7,34.7,2.8,2.1,2.82,-0.15131720647003996,0.2850796556211857,0.9324579035267883,0.04340620550998103,-0.494528,-10.801142
11.185,2.0,1.0,1.0,33.8,34.7,34.7,2.8,2.1,2.8225,-0.17718587502213912,0.27859072601069884,0.9308178365723592,0.05175591073672757,-0.468123,-10.953306
11.185,2.0,1.0,1.0,33.8,34.7,34.7,2.8,2.1,2.825,-0.20272893611541498,0.27266143483807276,0.9280164040867018,0.05963947940740928,-0.446426,-11.084563
11.185,2.0,1.0,1.0,33.8,34.7,34.7,2.8,2.1,2.8275,-0.22797713479305767,0.26726544162738375,0.9241230559676986,0.06717189415002907,-0.428828,-11.195129
11.185,2.0,1.0,1.0,33.8,34.7,34.7,2.8,2.1,2.83,-0.25296119386123095,0.2623766013009926,0.91918874098879,0.07445496215100225,-0.414852,-11.285145
