1,w,sub_t,h,l1,l2,l3,g1,g2,Freq,S11_re,S21_re,S11_img,S21_img,S11_dB,S21_dB
11.185,2.0,1.0,1.0,34.4,34.2,34.2,4.2,3.3,2.5,0.722179725810269,-0.00877621476627559,0.681096857821056,0.00332282872238774,-0.063714,-40.552059
11.185,2.0,1.0,1.0,34.4,34.2,34.2,4.2,3.3,2.5025,0.7168113050778965,-0.008925055988129572,0.6866359004058468,0.003291597229330918,-0.064371,-40.433935
11.185,2.0,1.0,1.0,34.4,34.2,34.2,4.2,3.3,2.505,0.711372562097932,-0.009076140208725493,0.6921593650123148,0.00325850354607271,-0.06504,-40.315443
11.185,2.0,1.0,1.0,34.4,34.2,34.2,4.2,3.3,2.5075,0.7058628287333845,-0.0092295034613055,0.6976666103258247,0.00322348876190751,-0.065721,-40.196574
11.185,2.0,1.0,1.0,34.4,34.2,34.2,4.2,3.3,2.51,0.7002814298929391,-0.009385182438272728,0.7031569774283483,0.0031864920114409046,-0.066415,-40.077321
11.185,2.0,1.0,1.0,34.4,34.2,34.2,4.2,3.3,2.5125,0.6946276835614736,-0.009543214503916748,0.7086297893045441,0.003147450400554759,-0.06712,-39.957673
11.185,2.0,1.0,1.0,34.4,34.2,34.2,4.2,3.3,2.515,0.6889009008371685,-0.009703637707389716,0.7140843503341735,0.0031062989291121305,-0.067839,-39.837622
11.185,2.0,1.0,1.0,34.4,34.2,34.2,4.2,3.3,2.5175,0.6831003859755933,-0.009866490795938926,0.7195199457704641,0.003062970410233784,-0.06857,-39.717158
11.185,2.0,1.0,1.0,34.4,34.2,34.2,4.2,3.3,2.52,0.6772254364411258,-0.010031813228401392,0.7249358412040474,0.0030173953859653512,-0.069315,-39.596273
11.185,2.0,1.0,1.0,34.4,34.2,34.2,4.2,3.3,2.5225,0.6712753429661295,-0.01019964518896583,0.7303312820120473,0.002969502039144854,-0.070074,-39.474957
11.185,2.0,1.0,1.0,34.4,34.2,34.2,4.2,3.3,2.525,0.66524938961828,-0.010370027601208233,0.7357054927919263,0.002919216101267334,-0.070847,-39.353201
11.185,2.0,1.0,1.0,34.4,34.2,34.2,4.2,3.3,2.5275,0.6591468538764832,-0.010543002142407082,0.7410576767796572,0.002866460756131008,-0.071634,-39.230994
11.185,2.0,1.0,1.0,34.4,34.2,34.2,4.2,3.3,2.53,0.6529670067158376,-0.010718611258143619,0.746387015251777,0.0028111565390346576,-0.072435,-39.108327
11.185,2.0,1.0,1.0,34.4,34.2,34.2,4.2,3.3,2.5325,0.6467091127021096,-0.010896898177194357,0.7516926669108774,0.0027532212312833437,-0.073252,-38.985189
11.185,2.0,1.0,1.0,34.4,34.2,34.2,4.2,3.3,2.535,0.6403724300962077,-0.011077906926721259,0.756973767254068,0.0026925697497402726,-0.074084,-38.86157
11.185,2.0,1.0,1.0,34.4,34.2,34.2,4.2,3.3,2.5375,0.6339562109691789,-0.011261682347766111,0.7622294279239182,0.0026291140311490192,-0.074932,-38.737461
11.185,2.0,1.0,1.0,34.4,34.2,34.2,4.2,3.3,2.54,0.6274597013282498,-0.011448270111056062,0.7674587360413979,0.002562762910929837,-0.075797,-38.612849
11.185,2.0,1.0,1.0,34.4,34.2,34.2,4.2,3.3,2.5425,0.6208821412544729,-0.011637716733125728,0.77266075352029,0.002493421996133552,-0.076678,-38.487724
11.185,2.0,1.0,1.0,34.4,34.2,34.2,4.2,3.3,2.545,0.6142227650525537,-0.011830069592763124,0.7778345163625555,0.002420993532217427,-0.077576,-38.362075
11.185,2.0,1.0,1.0,34.4,34.2,34.2,4.2,3.3,2.5475,0.6074808014134725,-0.012025376947785011,0.7829790339340877,0.0023453762632821445,-0.078491,-38.23589
11.185,2.0,1.0,1.0,34.4,34.2,34.2,4.2,3.3,2.55,0.6006554735905062,-0.01222368795214845,0.788093288220302,0.0022664652853847866,-0.079425,-38.109158
11.185,2.0,1.0,1.0,34.4,34.2,34.2,4.2,3.3,2.5525,0.5937459995893357,-0.012425052673403943,0.7931762330609564,0.00218415189251692,-0.080376,-37.981867
11.185,2.0,1.0,1.0,34.4,34.2,34.2,4.2,3.3,2.555,0.5867515923728912,-0.012629522110496052,0.7982267933636011,0.002098323414805904,-0.081347,-37.854004
11.185,2.0,1.0,1.0,34.4,34.2,34.2,4.2,3.3,2.5575,0.5796714600816526,-0.012837148211916987,0.8032438642950175,0.0020088630484677815,-0.082337,-37.725558
11.185,2.0,1.0,1.0,34.4,34.2,34.2,4.2,3.3,2.56,0.5725048062701503,-0.013047983894217735,0.8082263104499832,0.0019156496770058311,-0.083347,-37.596515
11.185,2.0,1.0,1.0,34.4,34.2,34.2,4.2,3.3,2.5625,0.565250830160421,-0.0132620830608806,0.813172964996674,0.00181855768311083,-0.084378,-37.466862
11.185,2.0,1.0,1.0,34.4,34.2,34.2,4.2,3.3,2.565,0.5579087269132158,-0.013479500621557373,0.8180826287979914,0.001717456750681256,-0.08543,-37.336587
11.185,2.0,1.0,1.0,34.4,34.2,34.2,4.2,3.3,2.5675,0.5504776879178008,-0.013700292511674397,0.8229540695080516,0.0016122116563365657,-0.086503,-37.205675
11.185,2.0,1.0,1.0,34.4,34.2,34.2,4.2,3.3,2.57,0.5429569011011962,-0.013924515712406473,0.8277860206430645,0.0015026820497507348,-0.087598,-37.074113
11.185,2.0,1.0,1.0,34.4,34.2,34.2,4.2,3.3,2.5725,0.5353455512577551,-0.01415222827101886,0.8325771806257761,0.0013887222220818531,-0.088716,-36.941885
11.185,2.0,1.0,1.0,34.4,34.2,34.2,4.2,3.3,2.575,0.5276428204000123,-0.01438348932157558,0.8373262118026131,0.0012701808617185725,-0.089857,-36.808978
11.185,2.0,1.0,1.0,34.4,34.2,34.2,4.2,3.3,2.5775,0.5198478881317647,-0.014618359106009235,0.8420317394326221,0.0011469007965030855,-0.091023,-36.675377
11.185,2.0,1.0,1.0,34.4,34.2,34.2,4.2,3.3,2.58,0.5119599320443956,-0.014856898995545542,0.8466923506472513,0.0010187187215255536,-0.092213,-36.541065
11.185,2.0,1.0,1.0,34.4,34.2,34.2,4.2,3.3,2.5825,0.5039781281374693,-0.015099171512473161,0.8513065933799732,0.0008854649115128913,-0.093429,-36.406028
11.185,2.0,1.0,1.0,34.4,34.2,34.2,4.2,3.3,2.585,0.4959016512646942,-0.015345240352244093,0.8558729752646791,0.0007469629167565307,-0.094671,-36.270248
11.185,2.0,1.0,1.0,34.4,34.2,34.2,4.2,3.3,2.5875,0.4877296756063614,-0.015595170405887569,0.860389962501728,0.0006030292414392115,-0.09594,-36.133709
11.185,2.0,1.0,1.0,34.4,34.2,34.2,4.2,3.3,2.59,0.47946137516944054,-0.01584902778271354,0.8648559786904513,0.0004534730031276654,-0.097237,-35.996394
11.185,2.0,1.0,1.0,34.4,34.2,34.2,4.2,3.3,2.5925,0.4710959243165268,-0.016106879833277014,0.8692694036268507,0.0002980955720958391,-0.098563,-35.858284
11.185,2.0,1.0,1.0,34.4,34.2,34.2,4.2,3.3,2.595,0.4626324983249188,-0.016368795172565894,0.8736285720651267,0.00013669018903291304,-0.099918,-35.719363
11.185,2.0,1.0,1.0,34.4,34.2,34.2,4.2,3.3,2.5975,0.4540702739771061,-0.01663484370336854,0.8779317724416135,-3.0958440432209764e-05,-0.101303,-35.57961
11.185,2.0,1.0,1.0,34.4,34.2,34.2,4.2,3.3,2.6,0.4454084301840366,-0.01690509663976556,0.8821772455595577,-0.00020507457609149132,-0.10272,-35.439008
11.185,2.0,1.0,1.0,34.4,34.2,34.2,4.2,3.3,2.6025,0.4366461486425781,-0.017179626530679285,0.8863631832330977,-0.00038589190025115164,-0.104169,-35.297535
11.185,2.0,1.0,1.0,34.4,34.2,34.2,4.2,3.3,2.605,0.4277826145286156,-0.017458507283401856,0.8904877268886575,-0.0005736540035670139,-0.105652,-35.155171
11.185,2.0,1.0,1.0,34.4,34.2,34.2,4.2,3.3,2.6075,0.41881701722732095,-0.01774181418700492,0.8945489661218454,-0.0007686149018080923,-0.107168,-35.011896
11.185,2.0,1.0,1.0,34.4,34.2,34.2,4.2,3.3,2.61,0.4097485511021724,-0.018029623935517648,0.8985449372077758,-0.0009710395859268107,-0.108721,-34.867687
11.185,2.0,1.0,1.0,34.4,34.2,34.2,4.2,3.3,2.6125,0.4005764163043608,-0.018322014650736237,0.902473621562587,-0.0011812046080319388,-0.11031,-34.722522
11.185,2.0,1.0,1.0,34.4,34.2,34.2,4.2,3.3,2.615,0.3912998196242941,-0.018619065904503938,0.9063329441537243,-0.0013993987060934817,-0.111937,-34.576378
11.185,2.0,1.0,1.0,34.4,34.2,34.2,4.2,3.3,2.6175,0.38191797538698724,-0.0189208587402706,0.9101207718563415,-0.0016259234704698179,-0.113603,-34.429231
11.185,2.0,1.0,1.0,34.4,34.2,34.2,4.2,3.3,2.62,0.372430106393192,-0.019227475693706295,0.9138349117529565,-0.001861094055635353,-0.115309,-34.281055
11.185,2.0,1.0,1.0,34.4,34.2,34.2,4.2,3.3,2.6225,0.36283544490819514,-0.019539000812103552,0.9174731093732228,-0.0021052399408043243,-0.117058,-34.131826
11.185,2.0,1.0,1.0,34.4,34.2,34.2,4.2,3.3,2.625,0.353133233700334,-0.0198555196722555,0.921033046870378,-0.00235870574349727,-0.118849,-33.981516
11.185,2.0,1.0,1.0,34.4,34.2,34.2,4.2,3.3,2.6275,0.34332272713132145,-0.020177119396443257,0.9245123411306273,-0.002621852090487503,-0.120686,-33.830099
11.185,2.0,1.0,1.0,34.4,34.2,34.2,4.2,3.3,2.63,0.3334031923006193,-0.0205038886661012,0.9279085418113222,-0.002895056550995343,-0.122569,-33.677545
11.185,2.0,1.0,1.0,34.4,34.2,34.2,4.2,3.3,2.6325,0.32337391024618867,-0.020835917732655047,0.9312191293034028,-0.0031787146374778583,-0.1245,-33.523826
11.185,2.0,1.0,1.0,34.4,34.2,34.2,4.2,3.3,2.635,0.31323417720407,-0.021173298424940413,0.9344415126131009,-0.003473240879894481,-0.126481,-33.368911
11.185,2.0,1.0,1.0,34.4,34.2,34.2,4.2,3.3,2.6375,0.3029833059293994,-0.0215161241525085,0.9375730271573836,-0.0037790699799203978,-0.128514,-33.212768
11.185,2.0,1.0,1.0,34.4,34.2,34.2,4.2,3.3,2.64,0.29262062708157216,-0.02186448990400717,0.9406109324670298,-0.004096658052241786,-0.130601,-33.055365
11.185,2.0,1.0,1.0,34.4,34.2,34.2,4.2,3.3,2.6425,0.28214549067649597,-0.022218492239687367,0.9435524097905811,-0.0044264839607996,-0.132743,-32.896667
11.185,2.0,1.0,1.0,34.4,34.2,34.2,4.2,3.3,2.645,0.2715572676090102,-0.02257822927692365,0.9463945595916579,-0.004769050758673056,-0.134943,-32.736638
11.185,2.0,1.0,1.0,34.4,34.2,34.2,4.2,3.3,2.6475,0.2608553512487945,-0.02294380066744767,0.9491343989313028,-0.005124887241210448,-0.137203,-32.575243
11.185,2.0,1.0,1.0,34.4,34.2,34.2,4.2,3.3,2.65,0.2500391591132973,-0.023315307564775,0.9517688587260771,-0.005494549623043391,-0.139526,-32.412443
11.185,2.0,1.0,1.0,34.4,34.2,34.2,4.2,3.3,2.6525,0.23910813462155106,-0.02369285258004293,0.954294780871548,-0.005878623350770544,-0.141914,-32.248197
11.185,2.0,1.0,1.0,34.4,34.2,34.2,4.2,3.3,2.655,0.2280617489329735,-0.02407653972417784,0.956708915219635,-0.006277725064391789,-0.14437,-32.082465
11.185,2.0,1.0,1.0,34.4,34.2,34.2,4.2,3.3,2.6575,0.2168995028756913,-0.024466474333952166,0.9590079163968914,-0.00669250472202144,-0.146896,-31.915203
11.185,2.0,1.0,1.0,34.4,34.2,34.2,4.2,3.3,2.66,0.205620928969297,-0.024862762979074745,0.9611883404492723,-0.007123647904045157,-0.149496,-31.746366
11.185,2.0,1.0,1.0,34.4,34.2,34.2,4.2,3.3,2.6625,0.1942255935474726,-0.02526551334696634,0.9632466412971786,-0.007571878314722877,-0.152173,-31.575908
11.185,2.0,1.0,1.0,34.4,34.2,34.2,4.2,3.3,2.665,0.18271309898642898,-0.025674834101297703,0.9651791669825949,-0.008037960501314974,-0.15493,-31.403779
11.185,2.0,1.0,1.0,34.4,34.2,34.2,4.2,3.3,2.6675,0.17108308604584962,-0.026090834709683028,0.9669821556878591,-0.008522702813154832,-0.157771,-31.229928
11.185,2.0,1.0,1.0,34.4,34.2,34.2,4.2,3.3,2.67,0.15933523632973043,-0.026513625235125408,0.9686517315030597,-0.00902696062574115,-0.160699,-31.054301
11.185,2.0,1.0,1.0,34.4,34.2,34.2,4.2,3.3,2.6725,0.14746927487546155,-0.026943316084860103,0.9701838999161093,-0.009551639857929638,-0.163719,-30.876843
11.185,2.0,1.0,1.0,34.4,34.2,34.2,4.2,3.3,2.675,0.1354849728805815,-0.02738001770912464,0.9715745429962105,-0.010097700813714288,-0.166835,-30.697496
11.185,2.0,1.0,1.0,34.4,34.2,34.2,4.2,3.3,2.6775,0.12338215057788819,-0.0278238402410596,0.972819414237633,-0.010666162383963517,-0.170052,-30.516198
11.185,2.0,1.0,1.0,34.4,34.2,34.2,4.2,3.3,2.68,0.11116068027110444,-0.02827489306737378,0.9739141330263427,-0.011258106647890277,-0.173374,-30.332884
11.185,2.0,1.0,1.0,34.4,34.2,34.2,4.2,3.3,2.6825,0.09882048954512146,-0.02873328431754049,0.9748541786870563,-0.01187468391906572,-0.176807,-30.147488
11.185,2.0,1.0,1.0,34.4,34.2,34.2,4.2,3.3,2.685,0.08636156466693509,-0.029199120257076053,0.9756348840625587,-0.012517118286534254,-0.180357,-29.95994
11.185,2.0,1.0,1.0,34.4,34.2,34.2,4.2,3.3,2.6875,0.0737839541959765,-0.0296725045678051,0.976251428570571,-0.0131867137081617,-0.184029,-29.770165
11.185,2.0,1.0,1.0,34.4,34.2,34.2,4.2,3.3,2.69,0.061087772825592586,-0.030153537494862416,0.9766988306758966,-0.013884860720884707,-0.187831,-29.578085
11.185,2.0,1.0,1.0,34.4,34.2,34.2,4.2,3.3,2.6925,0.048273205481044114,-0.03064231483640912,0.9769719397068944,-0.014613043841182559,-0.191768,-29.383619
11.185,2.0,1.0,1.0,34.4,34.2,34.2,4.2,3.3,2.695,0.035340511703864215,-0.031138926747513524,0.9770654269352909,-0.015372849739042798,-0.195849,-29.186681
11.185,2.0,1.0,1.0,34.4,34.2,34.2,4.2,3.3,2.6975,0.022290030357608147,-0.031643456324222385,0.9769737758267768,-0.016165976280162708,-0.200082,-28.98718
11.185,2.0,1.0,1.0,34.4,34.2,34.2,4.2,3.3,2.7,0.00912218469651175,-0.03215597792730633,0.9766912713564355,-0.016994242544366076,-0.204475,-28.785021
11.185,2.0,1.0,1.0,34.4,34.2,34.2,4.2,3.3,2.7025,-0.004162512153797567,-0.03267655519728539,0.9762119882675229,-0.017859599943532846,-0.209038,-28.580104
11.185,2.0,1.0,1.0,34.4,34.2,34.2,4.2,3.3,2.705,-0.017563451244971398,-0.033205238702808476,0.9755297781340927,-0.01876414458008576,-0.213782,-28.372322
11.185,2.0,1.0,1.0,34.4,34.2,34.2,4.2,3.3,2.7075,-0.031079921314105145,-0.033742063152910826,0.9746382550670077,-0.019710131007693553,-0.218717,-28.161564
11.185,2.0,1.0,1.0,34.4,34.2,34.2,4.2,3.3,2.71,-0.04471110166764272,-0.03428704408964268,0.9735307798784351,-0.020699987579829146,-0.223855,-27.94771
11.185,2.0,1.0,1.0,34.4,34.2,34.2,4.2,3.3,2.7125,-0.058456054340386754,-0.03484017396046537,0.9722004424914242,-0.02173633359978907,-0.229211,-27.730636
11.185,2.0,1.0,1.0,34.4,34.2,34.2,4.2,3.3,2.715,-0.07231371540827325,-0.03540141744892794,0.9706400423478051,-0.02282199851844479,-0.234797,-27.510209
11.185,2.0,1.0,1.0,34.4,34.2,34.2,4.2,3.3,2.7175,-0.08628288530817847,-0.03597070591655261,0.9688420665285703,-0.02396004346424325,-0.240631,-27.286289
11.185,2.0,1.0,1.0,34.4,34.2,34.2,4.2,3.3,2.72,-0.10036221798674008,-0.03654793077741637,0.9667986652550211,-0.025153785434836488,-0.246729,-27.058725
11.185,2.0,1.0,1.0,34.4,34.2,34.2,4.2,3.3,2.7225,-0.11455020866159686,-0.03713293558816467,0.9645016243849818,-0.026406824532459836,-0.25311,-26.82736
11.185,2.0,1.0,1.0,34.4,34.2,34.2,4.2,3.3,2.725,-0.12884517993054734,-0.037725506588265234,0.9619423344547754,-0.027723074687287918,-0.259795,-26.592025
11.185,2.0,1.0,1.0,34.4,34.2,34.2,4.2,3.3,2.7275,-0.14324526590478728,-0.03832536136584998,0.9591117557425226,-0.029106798386314945,-0.266807,-26.352541
11.185,2.0,1.0,1.0,34.4,34.2,34.2,4.2,3.3,2.73,-0.15774839396816612,-0.03893213525044417,0.9560003787394644,-0.03056264601198033,-0.274171,-26.108718
11.185,2.0,1.0,1.0,34.4,34.2,34.2,4.2,3.3,2.7325,-0.17235226367175577,-0.039545364941354265,0.9525981793106478,-0.03209570049746035,-0.281915,-25.860351
11.185,2.0,1.0,1.0,34.4,34.2,34.2,4.2,3.3,2.735,-0.18705432215648313,-0.040164468764406276,0.9488945677012807,-0.03371152812740105,-0.290072,-25.607223
11.185,2.0,1.0,1.0,34.4,34.2,34.2,4.2,3.3,2.7375,-0.2018517353497956,-0.0407887228035461,0.9448783303963201,-0.035416236457715404,-0.298674,-25.349103
11.185,2.0,1.0,1.0,34.4,34.2,34.2,4.2,3.3,2.74,-0.21674135399643435,-0.041417231968960355,0.9405375636638167,-0.037216540500447745,-0.307762,-25.085741
11.185,2.0,1.0,1.0,34.4,34.2,34.2,4.2,3.3,2.7425,-0.23171967334721116,-0.042048894828639494,0.9358595974014363,-0.0391198385251077,-0.317379,-24.816873
11.185,2.0,1.0,1.0,34.4,34.2,34.2,4.2,3.3,2.745,-0.24678278502810677,-0.04268236073089897,0.930830907653812,-0.0411342990727599,-0.327573,-24.542212
11.185,2.0,1.0,1.0,34.4,34.2,34.2,4.2,3.3,2.7475,-0.2619263192253944,-0.043315977361751905,0.9254370158679222,-0.043268961071201276,-0.338399,-24.261452
11.185,2.0,1.0,1.0,34.4,34.2,34.2,4.2,3.3,2.75,-0.277145374824404,-0.0439477263871698,0.919662372595322,-0.0455338492876634,-0.34992,-23.974263
11.185,2.0,1.0,1.0,34.4,34.2,34.2,4.2,3.3,2.7525,-0.2924344344947741,-0.04457514419138461,0.9134902229231671,-0.04794010776984486,-0.362205,-23.680292
11.185,2.0,1.0,1.0,34.4,34.2,34.2,4.2,3.3,2.755,-0.30778726087624264,-0.04519522389171925,0.9069024504086034,-0.050500154418023996,-0.375336,-23.379155
11.185,2.0,1.0,1.0,34.4,34.2,34.2,4.2,3.3,2.7575,-0.3231967689221376,-0.045804293724766874,0.8998793956906884,-0.05322786041252063,-0.389402,-23.07044
11.185,2.0,1.0,1.0,34.4,34.2,34.2,4.2,3.3,2.76,-0.3386548680155627,-0.046397865472163916,0.8923996452480046,-0.05613875890346922,-0.40451,-22.753701
11.185,2.0,1.0,1.0,34.4,34.2,34.2,4.2,3.3,2.7625,-0.3541522655669618,-0.046970444709342286,0.8844397849482061,-0.05925028816301346,-0.42078,-22.428455
11.185,2.0,1.0,1.0,34.4,34.2,34.2,4.2,3.3,2.765,-0.36967822126741134,-0.04751529215620389,0.8759741120935373,-0.06258207530671366,-0.438351,-22.09418
11.185,2.0,1.0,1.0,34.4,34.2,34.2,4.2,3.3,2.7675,-0.3852202377836666,-0.0480241220618729,0.8669742986118743,-0.06615626770150658,-0.457386,-21.750306
11.185,2.0,1.0,1.0,34.4,34.2,34.2,4.2,3.3,2.77,-0.400763669124507,-0.0484867190572609,0.857408996908475,-0.06999792025772054,-0.478075,-21.396218
11.185,2.0,1.0,1.0,34.4,34.2,34.2,4.2,3.3,2.7725,-0.4162912217447893,-0.048890448827691835,0.8472433787562752,-0.07413544787329981,-0.500639,-21.031245
11.185,2.0,1.0,1.0,34.4,34.2,34.2,4.2,3.3,2.775,-0.4317823150695412,-0.049219629688962555,0.8364385966188488,-0.07860115320059982,-0.525342,-20.654655
11.185,2.0,1.0,1.0,34.4,34.2,34.2,4.2,3.3,2.7775,-0.4472122566511551,-0.049454720844634044,0.8249511562666942,-0.08343184034107723,-0.552493,-20.265654
11.185,2.0,1.0,1.0,34.4,34.2,34.2,4.2,3.3,2.78,-0.46255117140062235,-0.04957126756409198,0.8127321900045192,-0.08866952449945982,-0.582465,-19.863373
11.185,2.0,1.0,1.0,34.4,34.2,34.2,4.2,3.3,2.7825,-0.4777626025424615,-0.0495385220658434,0.7997266222366954,-0.09436224508576446,-0.615705,-19.446867
11.185,2.0,1.0,1.0,34.4,34.2,34.2,4.2,3.3,2.785,-0.49280167172077677,-0.0493176291543335,0.7858722251503408,-0.10056498355704392,-0.65275,-19.015105
11.185,2.0,1.0,1.0,34.4,34.2,34.2,4.2,3.3,2.7875,-0.507612643666499,-0.04885922434812089,0.7710985749399543,-0.1073406745096548,-0.694261,-18.566965
11.185,2.0,1.0,1.0,34.4,34.2,34.2,4.2,3.3,2.79,-0.5221256824035089,-0.048100234837468656,0.7553259433596407,-0.1147612740817301,-0.741042,-18.101229
11.185,2.0,1.0,1.0,34.4,34.2,34.2,4.2,3.3,2.7925,-0.5362525049596535,-0.04695959411174619,0.7384642043639429,-0.12290880479299877,-0.794092,-17.616583
11.185,2.0,1.0,1.0,34.4,34.2,34.2,4.2,3.3,2.795,-0.5498805271816842,-0.045332471952228615,0.7204119166105886,-0.13187621527714552,-0.854654,-17.111615
11.185,2.0,1.0,1.0,34.4,34.2,34.2,4.2,3.3,2.7975,-0.5628649458281438,-0.043082474315486285,0.7010558863673635,-0.14176775055554713,-0.924294,-16.584825
11.185,2.0,1.0,1.0,34.4,34.2,34.2,4.2,3.3,2.8,-0.5750180047600322,-0.040031076005535064,0.6802717680301944,-0.15269827804077185,-1.004994,-16.03465
11.185,2.0,1.0,1.0,34.4,34.2,34.2,4.2,3.3,2.8025,-0.5860944536417202,-0.03594331636750202,0.6579267001106495,-0.16479057842479752,-1.099289,-15.459504
11.185,2.0,1.0,1.0,34.4,34.2,34.2,4.2,3.3,2.805,-0.595771957825664,-0.03050854776185192,0.6338857366633354,-0.17816885770759155,-1.210445,-14.857856
11.185,2.0,1.0,1.0,34.4,34.2,34.2,4.2,3.3,2.8075,-0.6036250682854819,-0.023314888564493947,0.6080251360755224,-0.19294545246684242,-1.342697,-14.228354
11.185,2.0,1.0,1.0,34.4,34.2,34.2,4.2,3.3,2.81,-0.6090916060004669,-0.013816290479302024,0.5802577465591587,-0.2091955564918778,-1.501559,-13.570048
11.185,2.0,1.0,1.0,34.4,34.2,34.2,4.2,3.3,2.8125,-0.611431666657756,-0.00129248759220826,0.550579229045472,-0.226911356387069,-1.694202,-12.882734
11.185,2.0,1.0,1.0,34.4,34.2,34.2,4.2,3.3,2.815,-0.6096834882138925,0.01519388900612686,0.5191490688123898,-0.24592185860363078,-1.929864,-12.167511
11.185,2.0,1.0,1.0,34.4,34.2,34.2,4.2,3.3,2.8175,-0.6026303585071558,0.0368289090943729,0.48642682977334,-0.2657583554743068,-2.220121,-11.427648
11.185,2.0,1.0,1.0,34.4,34.2,34.2,4.2,3.3,2.82,-0.5888142378020629,0.06503231490790831,0.4533884184496809,-0.2854413857357826,-2.578538,-10.669888
11.185,2.0,1.0,1.0,34.4,34.2,34.2,4.2,3.3,2.8225,-0.5666719742302779,0.10132098245264184,0.4218371738212763,-0.30317514706731447,-3.01844,-9.906294
11.185,2.0,1.0,1.0,34.4,34.2,34.2,4.2,3.3,2.825,-0.5349280793234914,0.14691914505453946,0.39477010106296695,-0.31598945129686545,-3.545861,-9.156577
11.185,2.0,1.0,1.0,34.4,34.2,34.2,4.2,3.3,2.8275,-0.49341238589429903,0.20195090550596762,0.37660874271153594,-0.3195181970840558,-4.142123,-8.450406
