1,w,sub_t,h,l1,l2,l3,g1,g2,Freq,S11_re,S21_re,S11_img,S21_img,S11_dB,S21_dB
11.185,2.0,1.0,1.0,34.5,34.0,34.0,2.5,2.5,2.5,0.695720184611921,-0.0172558136386292,0.705979356517167,0.00896852705451373,-0.076969,-34.222813
11.185,2.0,1.0,1.0,34.5,34.0,34.0,2.5,2.5,2.5025,0.6897927264839262,-0.01758269053344137,0.7116279171989257,0.008940956356572459,-0.077876,-34.09948
11.185,2.0,1.0,1.0,34.5,34.0,34.0,2.5,2.5,2.505,0.6837850090615181,-0.017915365376472776,0.7172567010704033,0.008909809912539398,-0.078801,-33.975656
11.185,2.0,1.0,1.0,34.5,34.0,34.0,2.5,2.5,2.5075,0.6776962039552352,-0.018253948232058524,0.7228648748905044,0.008874949363498037,-0.079744,-33.85133
11.185,2.0,1.0,1.0,34.5,34.0,34.0,2.5,2.5,2.51,0.6715254735587078,-0.018598551395972506,0.7284515809654066,0.008836231095201933,-0.080707,-33.726494
11.185,2.0,1.0,1.0,34.5,34.0,34.0,2.5,2.5,2.5125,0.6652719710803379,-0.01894928943432655,0.7340159364046805,0.008793506020273746,-0.081689,-33.601139
11.185,2.0,1.0,1.0,34.5,34.0,34.0,2.5,2.5,2.515,0.6589348405843106,-0.019306279222390484,0.739557032354028,0.008746619350382342,-0.082691,-33.475257
11.185,2.0,1.0,1.0,34.5,34.0,34.0,2.5,2.5,2.5175,0.6525132170415402,-0.01966963998325009,0.7450739332038306,0.008695410357884239,-0.083714,-33.348837
11.185,2.0,1.0,1.0,34.5,34.0,34.0,2.5,2.5,2.52,0.646006226391144,-0.020039493326214786,0.7505656757727027,0.0086397121263803,-0.084758,-33.22187
11.185,2.0,1.0,1.0,34.5,34.0,34.0,2.5,2.5,2.5225,0.639412985613123,-0.020415963284874515,0.756031268465165,0.008579351289605677,-0.085824,-33.094346
11.185,2.0,1.0,1.0,34.5,34.0,34.0,2.5,2.5,2.525,0.6327326028129071,-0.02079917635469767,0.7614696904025734,0.008514147758041036,-0.086912,-32.966257
11.185,2.0,1.0,1.0,34.5,34.0,34.0,2.5,2.5,2.5275,0.6259641773184981,-0.02118926153004961,0.7668798905263595,0.008443914432591883,-0.088023,-32.837591
11.185,2.0,1.0,1.0,34.5,34.0,34.0,2.5,2.5,2.53,0.6191067997909703,-0.021586350340498994,0.7722607866726204,0.008368456904646219,-0.089158,-32.708339
11.185,2.0,1.0,1.0,34.5,34.0,34.0,2.5,2.5,2.5325,0.6121595523491286,-0.021990576886267068,0.7776112646170537,0.008287573141777594,-0.090317,-32.578491
11.185,2.0,1.0,1.0,34.5,34.0,34.0,2.5,2.5,2.535,0.6051215087091585,-0.02240207787265988,0.782930177089187,0.008201053158316568,-0.0915,-32.448035
11.185,2.0,1.0,1.0,34.5,34.0,34.0,2.5,2.5,2.5375,0.597991734340175,-0.022820992643307617,0.7882163427548049,0.008108678669965428,-0.092709,-32.316962
11.185,2.0,1.0,1.0,34.5,34.0,34.0,2.5,2.5,2.54,0.5907692866365892,-0.023247463212018427,0.7934685451654412,0.008010222731579166,-0.093945,-32.18526
11.185,2.0,1.0,1.0,34.5,34.0,34.0,2.5,2.5,2.5425,0.5834532151082888,-0.023681634293035787,0.798685531673737,0.007905449357182206,-0.095207,-32.052918
11.185,2.0,1.0,1.0,34.5,34.0,34.0,2.5,2.5,2.545,0.5760425615896716,-0.024123653329465915,0.803866012313426,0.007794113121230398,-0.096498,-31.919925
11.185,2.0,1.0,1.0,34.5,34.0,34.0,2.5,2.5,2.5475,0.5685363604686366,-0.024573670519622105,0.8090086586426354,0.007675958740064998,-0.097817,-31.786269
11.185,2.0,1.0,1.0,34.5,34.0,34.0,2.5,2.5,2.55,0.5609336389366731,-0.025031838841005297,0.8141121025491627,0.007550720632438561,-0.099165,-31.651939
11.185,2.0,1.0,1.0,34.5,34.0,34.0,2.5,2.5,2.5525,0.5532334172612963,-0.025498314071615368,0.8191749350162713,0.007418122457919207,-0.100544,-31.516923
11.185,2.0,1.0,1.0,34.5,34.0,34.0,2.5,2.5,2.555,0.5454347090820977,-0.025973254808256352,0.8241957048475392,0.007277876631903325,-0.101954,-31.381208
11.185,2.0,1.0,1.0,34.5,34.0,34.0,2.5,2.5,2.5575,0.5375365217317748,-0.0264568224814683,0.8291729173491846,0.007129683815880329,-0.103397,-31.244781
11.185,2.0,1.0,1.0,34.5,34.0,34.0,2.5,2.5,2.56,0.5295378565835893,-0.02694918136667999,0.8341050329682207,0.006973232381507892,-0.104872,-31.107631
11.185,2.0,1.0,1.0,34.5,34.0,34.0,2.5,2.5,2.5625,0.5214377094267628,-0.027450498591140113,0.8389904658847117,0.0068081978469546325,-0.106382,-30.969744
11.185,2.0,1.0,1.0,34.5,34.0,34.0,2.5,2.5,2.565,0.5132350708714105,-0.02796094413614064,0.8438275825563296,0.006634242283866629,-0.107927,-30.831106
11.185,2.0,1.0,1.0,34.5,34.0,34.0,2.5,2.5,2.5675,0.504928926784729,-0.02848069083399768,0.8486147002132767,0.006451013693201045,-0.109508,-30.691705
11.185,2.0,1.0,1.0,34.5,34.0,34.0,2.5,2.5,2.57,0.49651825876021244,-0.029009914359204865,0.8533500853015762,0.0062581453480491395,-0.111127,-30.551525
11.185,2.0,1.0,1.0,34.5,34.0,34.0,2.5,2.5,2.5725,0.4880020446218053,-0.029548793213116164,0.8580319518726096,0.006055255101442329,-0.112784,-30.410554
11.185,2.0,1.0,1.0,34.5,34.0,34.0,2.5,2.5,2.575,0.4793792589650044,-0.030097508701451784,0.8626584599166439,0.0058419446569923155,-0.114481,-30.268775
11.185,2.0,1.0,1.0,34.5,34.0,34.0,2.5,2.5,2.5775,0.47064887373703823,-0.030656244903851413,0.867227713637997,0.0056177988000697746,-0.11622,-30.126175
11.185,2.0,1.0,1.0,34.5,34.0,34.0,2.5,2.5,2.58,0.4618098588583882,-0.031225188634622283,0.8717377596693172,0.005382384587054535,-0.118001,-29.982739
11.185,2.0,1.0,1.0,34.5,34.0,34.0,2.5,2.5,2.5825,0.45286118288803856,-0.031804529393745826,0.8761865852223415,0.005135250490024239,-0.119826,-29.83845
11.185,2.0,1.0,1.0,34.5,34.0,34.0,2.5,2.5,2.585,0.4438018137350098,-0.0323944593071112,0.8805721161723012,0.004875925494046,-0.121697,-29.693292
11.185,2.0,1.0,1.0,34.5,34.0,34.0,2.5,2.5,2.5875,0.43463071941887144,-0.03299517305484271,0.8848922150729945,0.004603918144039542,-0.123614,-29.547249
11.185,2.0,1.0,1.0,34.5,34.0,34.0,2.5,2.5,2.59,0.4253468688821141,-0.03360686778647244,0.8891446790993487,0.004318715537946566,-0.12558,-29.400305
11.185,2.0,1.0,1.0,34.5,34.0,34.0,2.5,2.5,2.5925,0.4159492328574334,-0.034229743021583096,0.8933272379140897,0.0040197822627087015,-0.127596,-29.252443
11.185,2.0,1.0,1.0,34.5,34.0,34.0,2.5,2.5,2.595,0.406436784793199,-0.034864000534405734,0.8974375514549213,0.0037065592692822665,-0.129664,-29.103643
11.185,2.0,1.0,1.0,34.5,34.0,34.0,2.5,2.5,2.5975,0.39680850184056843,-0.03550984422070212,0.9014732076383631,0.003378462682643111,-0.131786,-28.95389
11.185,2.0,1.0,1.0,34.5,34.0,34.0,2.5,2.5,2.6,0.3870633659059574,-0.0361674799450879,0.9054317199761597,0.0030348825424177024,-0.133964,-28.803163
11.185,2.0,1.0,1.0,34.5,34.0,34.0,2.5,2.5,2.6025,0.3772003647728509,-0.036837115366759855,0.9093105250998468,0.0026751814694438484,-0.136199,-28.651443
11.185,2.0,1.0,1.0,34.5,34.0,34.0,2.5,2.5,2.605,0.36721849329717,-0.037518959741381364,0.9131069801888003,0.0022986932531952145,-0.138494,-28.498713
11.185,2.0,1.0,1.0,34.5,34.0,34.0,2.5,2.5,2.6075,0.35711675468075693,-0.03821322369663646,0.9168183602967093,0.001904721354610583,-0.14085,-28.34495
11.185,2.0,1.0,1.0,34.5,34.0,34.0,2.5,2.5,2.61,0.3468941618278517,-0.03892011897870343,0.9204418555710692,0.0014925373184285756,-0.143271,-28.190135
11.185,2.0,1.0,1.0,34.5,34.0,34.0,2.5,2.5,2.6125,0.3365497387897935,-0.039639858166602246,0.9239745683598762,0.001061379088662834,-0.145759,-28.034246
11.185,2.0,1.0,1.0,34.5,34.0,34.0,2.5,2.5,2.615,0.3260825223035768,-0.04037265435103925,0.927413510199261,0.0006104492203332829,-0.148316,-27.877261
11.185,2.0,1.0,1.0,34.5,34.0,34.0,2.5,2.5,2.6175,0.31549156343034085,-0.041118720774008265,0.9307555986753194,0.0001389129800081419,-0.150944,-27.719159
11.185,2.0,1.0,1.0,34.5,34.0,34.0,2.5,2.5,2.62,0.30477592930033426,-0.04187827042499096,0.933997654152846,-0.00035410367289904083,-0.153647,-27.559915
11.185,2.0,1.0,1.0,34.5,34.0,34.0,2.5,2.5,2.6225,0.2939347049714287,-0.0426515155891447,0.9371363963631165,-0.0008695162328076582,-0.156427,-27.399506
11.185,2.0,1.0,1.0,34.5,34.0,34.0,2.5,2.5,2.625,0.282966995408864,-0.0434386673423428,0.940168440842196,-0.0014082839320799,-0.159288,-27.237908
11.185,2.0,1.0,1.0,34.5,34.0,34.0,2.5,2.5,2.6275,0.2718719275945048,-0.04423993498736104,0.9430902952105593,-0.0019714121728284634,-0.162233,-27.075095
11.185,2.0,1.0,1.0,34.5,34.0,34.0,2.5,2.5,2.63,0.2606486527746582,-0.04505552542484666,0.9458983552840328,-0.0025599551175542563,-0.165264,-26.911041
11.185,2.0,1.0,1.0,34.5,34.0,34.0,2.5,2.5,2.6325,0.2492963488562764,-0.0458856424519798,0.9485889010051901,-0.0031750184507172417,-0.168387,-26.74572
11.185,2.0,1.0,1.0,34.5,34.0,34.0,2.5,2.5,2.635,0.23781422296225133,-0.04673048598091192,0.9511580921834155,-0.003817762324386207,-0.171603,-26.579103
11.185,2.0,1.0,1.0,34.5,34.0,34.0,2.5,2.5,2.6375,0.22620151415753578,-0.04759025116813826,0.953601964030792,-0.004489404502276856,-0.174919,-26.411163
11.185,2.0,1.0,1.0,34.5,34.0,34.0,2.5,2.5,2.64,0.21445749635887704,-0.04846512744491807,0.9559164224798343,-0.005191223717747119,-0.178336,-26.241869
11.185,2.0,1.0,1.0,34.5,34.0,34.0,2.5,2.5,2.6425,0.202581481442261,-0.049355297437669955,0.9580972392678059,-0.005924563262714423,-0.181861,-26.071192
11.185,2.0,1.0,1.0,34.5,34.0,34.0,2.5,2.5,2.645,0.1905728225635195,-0.050260935765937716,0.9601400467709789,-0.006690834825984952,-0.185498,-25.899099
11.185,2.0,1.0,1.0,34.5,34.0,34.0,2.5,2.5,2.6475,0.1784309177091437,-0.05118220770400565,0.9620403325706288,-0.007491522601165307,-0.189251,-25.725559
11.185,2.0,1.0,1.0,34.5,34.0,34.0,2.5,2.5,2.65,0.1661552134960883,-0.05211926769053242,0.9637934337308806,-0.008328187686181272,-0.193126,-25.550537
11.185,2.0,1.0,1.0,34.5,34.0,34.0,2.5,2.5,2.6525,0.15374520924143018,-0.053072257668617354,0.965394530766579,-0.009202472798450862,-0.197129,-25.373999
11.185,2.0,1.0,1.0,34.5,34.0,34.0,2.5,2.5,2.655,0.14120046132489972,-0.05404130523651175,0.9668386412773388,-0.010116107332007298,-0.201265,-25.195908
11.185,2.0,1.0,1.0,34.5,34.0,34.0,2.5,2.5,2.6575,0.12852058786996923,-0.05502652158666119,0.9681206132215338,-0.011070912785334805,-0.20554,-25.016228
11.185,2.0,1.0,1.0,34.5,34.0,34.0,2.5,2.5,2.66,0.11570527377202479,-0.056027999207903245,0.9692351178015065,-0.012068808591390997,-0.209962,-24.83492
11.185,2.0,1.0,1.0,34.5,34.0,34.0,2.5,2.5,2.6625,0.10275427610552339,-0.057045809322367746,0.9701766419283671,-0.013111818384293358,-0.214538,-24.651944
11.185,2.0,1.0,1.0,34.5,34.0,34.0,2.5,2.5,2.665,0.08966742994574523,-0.05807999902489327,0.9709394802316679,-0.014202076740451033,-0.219274,-24.467257
11.185,2.0,1.0,1.0,34.5,34.0,34.0,2.5,2.5,2.6675,0.07644465464514874,-0.059130588088489734,0.9715177265757191,-0.015341836435563014,-0.224179,-24.280818
11.185,2.0,1.0,1.0,34.5,34.0,34.0,2.5,2.5,2.67,0.0630859606091707,-0.06019756539448334,0.971905265040496,-0.016533476262929156,-0.229262,-24.092581
11.185,2.0,1.0,1.0,34.5,34.0,34.0,2.5,2.5,2.6725,0.04959145662205685,-0.06128088494035392,0.972095760320764,-0.017779509462956252,-0.234531,-23.902501
11.185,2.0,1.0,1.0,34.5,34.0,34.0,2.5,2.5,2.675,0.03596135777971772,-0.062380461371812794,0.9720826474923905,-0.019082592818625666,-0.239997,-23.710527
11.185,2.0,1.0,1.0,34.5,34.0,34.0,2.5,2.5,2.6775,0.022195994094115178,-0.0634961649782425,0.9718591210895162,-0.020445536477095027,-0.245669,-23.516612
11.185,2.0,1.0,1.0,34.5,34.0,34.0,2.5,2.5,2.68,0.00829581984222415,-0.0646278160820453,0.9714181234305107,-0.021871314563545692,-0.251559,-23.320701
11.185,2.0,1.0,1.0,34.5,34.0,34.0,2.5,2.5,2.6825,-0.005738576257449437,-0.06577517874256572,0.9707523321242212,-0.023363076659944602,-0.257679,-23.122742
11.185,2.0,1.0,1.0,34.5,34.0,34.0,2.5,2.5,2.685,-0.01990645994638005,-0.06693795368382098,0.9698541466809438,-0.024924160228605417,-0.264042,-22.922678
11.185,2.0,1.0,1.0,34.5,34.0,34.0,2.5,2.5,2.6875,-0.0342069392979137,-0.0681157703420417,0.968715674144764,-0.0265581040683731,-0.270662,-22.720449
11.185,2.0,1.0,1.0,34.5,34.0,34.0,2.5,2.5,2.69,-0.04863895143649398,-0.06930817791367767,0.9673287136553036,-0.028268662899963354,-0.277552,-22.515995
11.185,2.0,1.0,1.0,34.5,34.0,34.0,2.5,2.5,2.6925,-0.06320124796338565,-0.07051463526670786,0.9656847398374533,-0.03005982318656481,-0.28473,-22.309251
11.185,2.0,1.0,1.0,34.5,34.0,34.0,2.5,2.5,2.695,-0.07789237892721093,-0.0717344995573465,0.9637748849073083,-0.03193582030625609,-0.292213,-22.100151
11.185,2.0,1.0,1.0,34.5,34.0,34.0,2.5,2.5,2.6975,-0.09271067515350133,-0.07296701337008972,0.9615899193711521,-0.03390115720421873,-0.300018,-21.888626
11.185,2.0,1.0,1.0,34.5,34.0,34.0,2.5,2.5,2.7,-0.10765422871911975,-0.07421129017082578,0.9591202311819802,-0.03596062466512468,-0.308167,-21.674603
11.185,2.0,1.0,1.0,34.5,34.0,34.0,2.5,2.5,2.7025,-0.12272087132441525,-0.07546629782976205,0.9563558032045973,-0.03811932335952833,-0.31668,-21.458006
11.185,2.0,1.0,1.0,34.5,34.0,34.0,2.5,2.5,2.705,-0.13790815027714687,-0.07673083993228913,0.9532861888258254,-0.04038268783254875,-0.325582,-21.238755
11.185,2.0,1.0,1.0,34.5,34.0,34.0,2.5,2.5,2.7075,-0.15321330175683467,-0.07800353455057672,0.9499004855308245,-0.0427565126185964,-0.334897,-21.016769
11.185,2.0,1.0,1.0,34.5,34.0,34.0,2.5,2.5,2.71,-0.16863322097461828,-0.07928279009542702,0.94618730625001,-0.04524698068227229,-0.344655,-20.79196
11.185,2.0,1.0,1.0,34.5,34.0,34.0,2.5,2.5,2.7125,-0.18416442878079226,-0.08056677780518877,0.9421347482637356,-0.04786069440269281,-0.354884,-20.564238
11.185,2.0,1.0,1.0,34.5,34.0,34.0,2.5,2.5,2.715,-0.19980303419779363,-0.08185340035455606,0.9377303594340507,-0.05060470933612075,-0.365619,-20.333508
11.185,2.0,1.0,1.0,34.5,34.0,34.0,2.5,2.5,2.7175,-0.21554469226858128,-0.08314025597867292,0.9329611015147837,-0.05348657100947464,-0.376894,-20.09967
11.185,2.0,1.0,1.0,34.5,34.0,34.0,2.5,2.5,2.72,-0.23138455650629103,-0.08442459740451659,0.927813310273653,-0.05651435501449851,-0.38875,-19.86262
11.185,2.0,1.0,1.0,34.5,34.0,34.0,2.5,2.5,2.7225,-0.2473172251076292,-0.08570328475888636,0.9222726521437353,-0.05969671068816362,-0.40123,-19.62225
11.185,2.0,1.0,1.0,34.5,34.0,34.0,2.5,2.5,2.725,-0.26333667994586984,-0.08697273147667511,0.9163240771079515,-0.06304290867806263,-0.41438,-19.378445
11.185,2.0,1.0,1.0,34.5,34.0,34.0,2.5,2.5,2.7275,-0.27943621718481554,-0.08822884205986001,0.9099517675106088,-0.06656289270039582,-0.428254,-19.131084
11.185,2.0,1.0,1.0,34.5,34.0,34.0,2.5,2.5,2.73,-0.29560836814713065,-0.0894669403312366,0.9031390824872818,-0.07026733580019161,-0.442908,-18.880042
11.185,2.0,1.0,1.0,34.5,34.0,34.0,2.5,2.5,2.7325,-0.31184480882225196,-0.09068168658066644,0.8958684977113748,-0.07416770141540804,-0.458407,-18.625188
11.185,2.0,1.0,1.0,34.5,34.0,34.0,2.5,2.5,2.735,-0.32813625610236596,-0.0918669817073678,0.8881215401774308,-0.07827630952389542,-0.47482,-18.366381
11.185,2.0,1.0,1.0,34.5,34.0,34.0,2.5,2.5,2.7375,-0.34447234847992914,-0.09301585610979868,0.8798787177836638,-0.08260640810870898,-0.492226,-18.103478
11.185,2.0,1.0,1.0,34.5,34.0,34.0,2.5,2.5,2.74,-0.3608415085148272,-0.09412034065314961,0.8711194435479117,-0.08717225010443526,-0.51071,-17.836324
11.185,2.0,1.0,1.0,34.5,34.0,34.0,2.5,2.5,2.7425,-0.37723078386932174,-0.09517131653923967,0.8618219544037438,-0.09198917587359094,-0.53037,-17.564761
11.185,2.0,1.0,1.0,34.5,34.0,34.0,2.5,2.5,2.745,-0.39362566309705316,-0.09615834029768447,0.8519632246924569,-0.09707370109208462,-0.551313,-17.28862
11.185,2.0,1.0,1.0,34.5,34.0,34.0,2.5,2.5,2.7475,-0.41000986163824515,-0.09706943939039263,0.8415188747134995,-0.10244360967514168,-0.57366,-17.007724
11.185,2.0,1.0,1.0,34.5,34.0,34.0,2.5,2.5,2.75,-0.426365072592535,-0.097890873049798,0.830463075049245,-0.108118051021261,-0.597545,-16.721889
11.185,2.0,1.0,1.0,34.5,34.0,34.0,2.5,2.5,2.7525,-0.4426706757850126,-0.0986068519267498,0.8187684478790228,-0.11411764035292123,-0.623121,-16.430922
11.185,2.0,1.0,1.0,34.5,34.0,34.0,2.5,2.5,2.755,-0.4589033973775523,-0.0991992088743473,0.8064059671949028,-0.1204645602363859,-0.650559,-16.134619
11.185,2.0,1.0,1.0,34.5,34.0,34.0,2.5,2.5,2.7575,-0.4750369107690361,-0.09964701170270572,0.7933448607993601,-0.12718266039796744,-0.680054,-15.83277
11.185,2.0,1.0,1.0,34.5,34.0,34.0,2.5,2.5,2.76,-0.49104136773386114,-0.09992610696678103,0.7795525182997763,-0.13429755162425946,-0.711825,-15.525155
11.185,2.0,1.0,1.0,34.5,34.0,34.0,2.5,2.5,2.7625,-0.506882846626453,-0.10000858175353979,0.7649944111476891,-0.1418366877091397,-0.746123,-15.211542
11.185,2.0,1.0,1.0,34.5,34.0,34.0,2.5,2.5,2.765,-0.5225227019895005,-0.09986212797691721,0.7496340332792869,-0.1498294269148717,-0.783233,-14.891696
11.185,2.0,1.0,1.0,34.5,34.0,34.0,2.5,2.5,2.7675,-0.5379167970154342,-0.09944929083950681,0.7334328743370269,-0.15830706101125527,-0.823484,-14.565368
11.185,2.0,1.0,1.0,34.5,34.0,34.0,2.5,2.5,2.77,-0.5530145970144267,-0.09872657987085587,0.716350442112772,-0.16730279532613082,-0.867251,-14.232308
11.185,2.0,1.0,1.0,34.5,34.0,34.0,2.5,2.5,2.7725,-0.567758098371484,-0.09764341733796747,0.6983443571830934,-0.17685165695416777,-0.914967,-13.892255
11.185,2.0,1.0,1.0,34.5,34.0,34.0,2.5,2.5,2.775,-0.5820805635394375,-0.09614089495470696,0.6793705512849175,-0.18699029975691206,-0.967135,-13.544948
11.185,2.0,1.0,1.0,34.5,34.0,34.0,2.5,2.5,2.7775,-0.5959050286548956,-0.09415030593460322,0.6593836125702164,-0.19775666328776256,-1.024336,-13.190124
11.185,2.0,1.0,1.0,34.5,34.0,34.0,2.5,2.5,2.78,-0.609142546840015,-0.09159141599485558,0.638337336486167,-0.20918942729755882,-1.087251,-12.827523
11.185,2.0,1.0,1.0,34.5,34.0,34.0,2.5,2.5,2.7825,-0.6216901279796241,-0.08837043474040619,0.6161855619488895,-0.22132718273794624,-1.156673,-12.456895
11.185,2.0,1.0,1.0,34.5,34.0,34.0,2.5,2.5,2.785,-0.6334283361237251,-0.08437764931106911,0.5928834003503936,-0.23420721256452054,-1.233537,-12.078002
11.185,2.0,1.0,1.0,34.5,34.0,34.0,2.5,2.5,2.7875,-0.6442185109315501,-0.07948468751980067,0.5683890017517025,-0.2478637391844936,-1.318945,-11.690635
11.185,2.0,1.0,1.0,34.5,34.0,34.0,2.5,2.5,2.79,-0.6538995933877847,-0.07354139156219039,0.5426660506548008,-0.26232544784309264,-1.4142,-11.294616
11.185,2.0,1.0,1.0,34.5,34.0,34.0,2.5,2.5,2.7925,-0.6622845640951927,-0.0663723114018689,0.5156872453604476,-0.27761203429232495,-1.520856,-10.889824
11.185,2.0,1.0,1.0,34.5,34.0,34.0,2.5,2.5,2.795,-0.6691565535388919,-0.05777287781609163,0.4874390919541865,-0.29372944893544517,-1.640766,-10.476208
11.185,2.0,1.0,1.0,34.5,34.0,34.0,2.5,2.5,2.7975,-0.6742647709242999,-0.04750540179648564,0.4579284365832904,-0.3106634181722613,-1.776152,-10.053814
11.185,2.0,1.0,1.0,34.5,34.0,34.0,2.5,2.5,2.8,-0.6773205404950232,-0.03529518833233502,0.4271912640975203,-0.3283707207076004,-1.929689,-9.622824
11.185,2.0,1.0,1.0,34.5,34.0,34.0,2.5,2.5,2.8025,-0.6779939579782028,-0.020827274609942645,0.3953043954689689,-0.346767593962696,-2.104606,-9.183592
11.185,2.0,1.0,1.0,34.5,34.0,34.0,2.5,2.5,2.805,-0.6759120191989086,-0.003744639144720693,0.362400793776371,-0.3657145702126815,-2.304813,-8.736699
11.185,2.0,1.0,1.0,34.5,34.0,34.0,2.5,2.5,2.8075,-0.6706595675909414,0.016350781590548077,0.32868918589217183,-0.3849970463400584,-2.535053,-8.283026
11.185,2.0,1.0,1.0,34.5,34.0,34.0,2.5,2.5,2.81,-0.661785092896431,0.03989225393430814,0.2944785290992728,-0.4043010696098917,-2.801079,-7.823825
11.185,2.0,1.0,1.0,34.5,34.0,34.0,2.5,2.5,2.8125,-0.648814297617214,0.0673346958273777,0.260207341396983,-0.42318433046649,-3.109862,-7.360825
11.185,2.0,1.0,1.0,34.5,34.0,34.0,2.5,2.5,2.815,-0.631275361805906,0.09912952334388321,0.22647683526029885,-0.4410434255277579,-3.469802,-6.896339
11.185,2.0,1.0,1.0,34.5,34.0,34.0,2.5,2.5,2.8175,-0.608740747685064,0.1356831088175373,0.19408483888812156,-0.4570803942181341,-3.890906,-6.433387
11.185,2.0,1.0,1.0,34.5,34.0,34.0,2.5,2.5,2.82,-0.5808906668729209,0.1772937960976105,0.1640543484946342,-0.4702746441840528,-4.384839,-5.975816
11.185,2.0,1.0,1.0,34.5,34.0,34.0,2.5,2.5,2.8225,-0.5476020238405757,0.2240637296804855,0.13764613309763157,-0.47937075656474504,-4.96462,-5.528406
11.185,2.0,1.0,1.0,34.5,34.0,34.0,2.5,2.5,2.825,-0.5090623223070684,0.2757860571166302,0.11633965630594363,-0.48289775613828073,-5.643477,-5.096928
11.185,2.0,1.0,1.0,34.5,34.0,34.0,2.5,2.5,2.8275,-0.46589912718438103,0.331816886802175,0.10176253321748086,-0.4792394105401853,-6.431759,-4.688113
11.185,2.0,1.0,1.0,34.5,34.0,34.0,2.5,2.5,2.83,-0.4193016536981484,0.3909552684111345,0.09554952957629459,-0.46677429616145394,-7.329607,-4.30949
