1,w,sub_t,h,l1,l2,l3,g1,g2,Freq,S11_re,S21_re,S11_img,S21_img,S11_dB,S21_dB
11.185,2.0,1.0,1.0,33.2,33.5,33.5,4.4,3.1,2.5,0.882865713196001,-0.00432499818212042,0.457427599332173,0.00339252656881763,-0.04939,-45.197796
11.185,2.0,1.0,1.0,33.2,33.5,33.5,4.4,3.1,2.5025,0.8799274473318784,-0.004410317952441364,0.4629553958583477,0.003404762293991919,-0.049794,-45.08032
11.185,2.0,1.0,1.0,33.2,33.5,33.5,4.4,3.1,2.505,0.8769429374915324,-0.004497005024636513,0.46848458571944335,0.003416511480094876,-0.050204,-44.962692
11.185,2.0,1.0,1.0,33.2,33.5,33.5,4.4,3.1,2.5075,0.8739117634223941,-0.004585083045554209,0.47401499085698595,0.003427756638247508,-0.05062,-44.844904
11.185,2.0,1.0,1.0,33.2,33.5,33.5,4.4,3.1,2.51,0.8708334985195367,-0.004674576188631624,0.47954642801548725,0.00343847971515349,-0.051043,-44.726949
11.185,2.0,1.0,1.0,33.2,33.5,33.5,4.4,3.1,2.5125,0.8677077097306567,-0.004765509168245405,0.48507870857820773,0.0034486620726322846,-0.051472,-44.608819
11.185,2.0,1.0,1.0,33.2,33.5,33.5,4.4,3.1,2.515,0.8645339574599935,-0.004857907254533541,0.4906116383978553,0.0034582844663147536,-0.051909,-44.490505
11.185,2.0,1.0,1.0,33.2,33.5,33.5,4.4,3.1,2.5175,0.8613117954712066,-0.004951796288707173,0.4961450176220351,0.0034673270234609616,-0.052352,-44.372
11.185,2.0,1.0,1.0,33.2,33.5,33.5,4.4,3.1,2.52,0.8580407707892133,-0.005047202698871922,0.5016786405133039,0.00347576921985982,-0.052802,-44.253296
11.185,2.0,1.0,1.0,33.2,33.5,33.5,4.4,3.1,2.5225,0.8547204236010095,-0.005144153516379279,0.5072122952636205,0.0034835898557662756,-0.05326,-44.134384
11.185,2.0,1.0,1.0,33.2,33.5,33.5,4.4,3.1,2.525,0.8513502871554808,-0.0052426763927296,0.5127457638030363,0.0034907670308309525,-0.053725,-44.015256
11.185,2.0,1.0,1.0,33.2,33.5,33.5,4.4,3.1,2.5275,0.8479298876622221,-0.005342799617049343,0.5182788216024226,0.0034972781179734777,-0.054198,-43.895905
11.185,2.0,1.0,1.0,33.2,33.5,33.5,4.4,3.1,2.53,0.84445874418939,-0.0054445521341661895,0.5238112374700381,0.003503099736148461,-0.054678,-43.77632
11.185,2.0,1.0,1.0,33.2,33.5,33.5,4.4,3.1,2.5325,0.8409363685606032,-0.005547963563306852,0.5293427733417347,0.0035082077219508482,-0.055167,-43.656495
11.185,2.0,1.0,1.0,33.2,33.5,33.5,4.4,3.1,2.535,0.8373622652509123,-0.005653064217443678,0.5348731840645929,0.0035125771000032702,-0.055663,-43.53642
11.185,2.0,1.0,1.0,33.2,33.5,33.5,4.4,3.1,2.5375,0.833735931281874,-0.005759885123317524,0.5404022171737582,0.003516182052065509,-0.056168,-43.416088
11.185,2.0,1.0,1.0,33.2,33.5,33.5,4.4,3.1,2.54,0.8300568561157469,-0.00586845804216546,0.5459296126622626,0.003518995884803104,-0.056681,-43.295488
11.185,2.0,1.0,1.0,33.2,33.5,33.5,4.4,3.1,2.5425,0.8263245215488423,-0.00597881549118373,0.5514551027435897,0.0035209909961477284,-0.057203,-43.174613
11.185,2.0,1.0,1.0,33.2,33.5,33.5,4.4,3.1,2.545,0.8225384016040657,-0.006090990765757603,0.5569784116067432,0.0035221388401783073,-0.057733,-43.053454
11.185,2.0,1.0,1.0,33.2,33.5,33.5,4.4,3.1,2.5475,0.8186979624226823,-0.006205017962491562,0.5624992551635554,0.0035224098904487323,-0.058273,-42.932002
11.185,2.0,1.0,1.0,33.2,33.5,33.5,4.4,3.1,2.55,0.8148026621553417,-0.006320932003074914,0.5680173407879933,0.0035217736016818425,-0.058822,-42.810247
11.185,2.0,1.0,1.0,33.2,33.5,33.5,4.4,3.1,2.5525,0.810851950852411,-0.006438768659019737,0.5735323670471631,0.003520198369746593,-0.05938,-42.68818
11.185,2.0,1.0,1.0,33.2,33.5,33.5,4.4,3.1,2.555,0.8068452703536549,-0.006558564577310223,0.5790440234237555,0.003517651489828916,-0.059948,-42.565793
11.185,2.0,1.0,1.0,33.2,33.5,33.5,4.4,3.1,2.5575,0.8027820541773097,-0.006680357307004302,0.5845519900296242,0.0035140991127022127,-0.060526,-42.443075
11.185,2.0,1.0,1.0,33.2,33.5,33.5,4.4,3.1,2.56,0.7986617274086084,-0.00680418532683064,0.5900559373101961,0.0035095061989976386,-0.061114,-42.320018
11.185,2.0,1.0,1.0,33.2,33.5,33.5,4.4,3.1,2.5625,0.794483706587808,-0.0069300880738263956,0.5955555257393962,0.0035038364713682914,-0.061712,-42.196611
11.185,2.0,1.0,1.0,33.2,33.5,33.5,4.4,3.1,2.565,0.7902473995977763,-0.007058105973064213,0.6010504055047639,0.003497052364434336,-0.062321,-42.072846
11.185,2.0,1.0,1.0,33.2,33.5,33.5,4.4,3.1,2.5675,0.7859522055512083,-0.007188280468518139,0.6065402161824089,0.0034891149723906096,-0.062941,-41.948711
11.185,2.0,1.0,1.0,33.2,33.5,33.5,4.4,3.1,2.57,0.7815975146775309,-0.007320654055122538,0.6120245864014611,0.003479983994148699,-0.063571,-41.824197
11.185,2.0,1.0,1.0,33.2,33.5,33.5,4.4,3.1,2.5725,0.7771827082095708,-0.007455270312080047,0.617503133497641,0.0034696176758802185,-0.064213,-41.699293
11.185,2.0,1.0,1.0,33.2,33.5,33.5,4.4,3.1,2.575,0.7727071582700625,-0.007592173937477932,0.6229754631555698,0.003457972750816875,-0.064867,-41.57399
11.185,2.0,1.0,1.0,33.2,33.5,33.5,4.4,3.1,2.5775,0.7681702277580736,-0.007731410784275626,0.628441169039414,0.0034450043761553423,-0.065533,-41.448276
11.185,2.0,1.0,1.0,33.2,33.5,33.5,4.4,3.1,2.58,0.7635712702354405,-0.007873027897730075,0.6338998324114532,0.0034306660669051435,-0.066211,-41.322142
11.185,2.0,1.0,1.0,33.2,33.5,33.5,4.4,3.1,2.5825,0.7589096298132926,-0.008017073554328553,0.63935102173814,0.0034149096265061987,-0.066901,-41.195576
11.185,2.0,1.0,1.0,33.2,33.5,33.5,4.4,3.1,2.585,0.7541846410387735,-0.0081635973023035,0.644794292283192,0.00339768507403301,-0.067604,-41.068566
11.185,2.0,1.0,1.0,33.2,33.5,33.5,4.4,3.1,2.5875,0.7493956287820497,-0.008312650003807586,0.6502291856872602,0.0033789405677886624,-0.06832,-40.941103
11.185,2.0,1.0,1.0,33.2,33.5,33.5,4.4,3.1,2.59,0.7445419081237237,-0.008464283878832234,0.6556552295336674,0.0033586223250798267,-0.06905,-40.813174
11.185,2.0,1.0,1.0,33.2,33.5,33.5,4.4,3.1,2.5925,0.739622784242752,-0.00861855255095719,0.6610719368997208,0.003336674537949817,-0.069793,-40.684768
11.185,2.0,1.0,1.0,33.2,33.5,33.5,4.4,3.1,2.595,0.734637552305004,-0.008775511095024523,0.6664788058930492,0.003313039284631559,-0.070551,-40.555873
11.185,2.0,1.0,1.0,33.2,33.5,33.5,4.4,3.1,2.5975,0.7295854973525701,-0.008935216086835555,0.6718753191724244,0.003287656436465433,-0.071323,-40.426477
11.185,2.0,1.0,1.0,33.2,33.5,33.5,4.4,3.1,2.6,0.7244658941939546,-0.009097725654975304,0.6772609434524738,0.003260463560011225,-0.07211,-40.296567
11.185,2.0,1.0,1.0,33.2,33.5,33.5,4.4,3.1,2.6025,0.7192780072953048,-0.009263099534875172,0.6826351289916753,0.0032313958140614864,-0.072912,-40.166131
11.185,2.0,1.0,1.0,33.2,33.5,33.5,4.4,3.1,2.605,0.7140210906728003,-0.0094313991252317,0.6879973090630077,0.003200385841247297,-0.07373,-40.035157
11.185,2.0,1.0,1.0,33.2,33.5,33.5,4.4,3.1,2.6075,0.7086943877863712,-0.009602687546905997,0.6933468994065796,0.003167363653900792,-0.074564,-39.90363
11.185,2.0,1.0,1.0,33.2,33.5,33.5,4.4,3.1,2.61,0.7032971314348972,-0.00977702970443621,0.6986832976635441,0.003132256513819351,-0.075414,-39.771539
11.185,2.0,1.0,1.0,33.2,33.5,33.5,4.4,3.1,2.6125,0.6978285436530589,-0.00995449235030419,0.7040058827905693,0.0030949888055471506,-0.076281,-39.638868
11.185,2.0,1.0,1.0,33.2,33.5,33.5,4.4,3.1,2.615,0.6922878356100035,-0.010135144152105117,0.7093140144540958,0.003055481902764313,-0.077166,-39.505606
11.185,2.0,1.0,1.0,33.2,33.5,33.5,4.4,3.1,2.6175,0.6866742075100285,-0.01031905576277949,0.7146070324035779,0.0030136540273416096,-0.078068,-39.371736
11.185,2.0,1.0,1.0,33.2,33.5,33.5,4.4,3.1,2.62,0.6809868484954512,-0.010506299894076017,0.7198842558228584,0.0029694201005883536,-0.078989,-39.237245
11.185,2.0,1.0,1.0,33.2,33.5,33.5,4.4,3.1,2.6225,0.6752249365518737,-0.010696951393425358,0.7251449826587991,0.00292269158618404,-0.079929,-39.102118
11.185,2.0,1.0,1.0,33.2,33.5,33.5,4.4,3.1,2.625,0.669387638416053,-0.010891087324415,0.730388488926215,0.00287337632424468,-0.080888,-38.96634
11.185,2.0,1.0,1.0,33.2,33.5,33.5,4.4,3.1,2.6275,0.663474109486577,-0.011088787051069766,0.7356140279881468,0.002821378355936764,-0.081867,-38.829894
11.185,2.0,1.0,1.0,33.2,33.5,33.5,4.4,3.1,2.63,0.6574834937375795,-0.011290132326153507,0.7408208298104176,0.0027665977380023584,-0.082867,-38.692767
11.185,2.0,1.0,1.0,33.2,33.5,33.5,4.4,3.1,2.6325,0.6514149236357218,-0.011495207383722988,0.7460081001893912,0.0027089303465110213,-0.083888,-38.55494
11.185,2.0,1.0,1.0,33.2,33.5,33.5,4.4,3.1,2.635,0.6452675200606778,-0.011704099036179532,0.7511750199517653,0.0026482676691013765,-0.08493,-38.416398
11.185,2.0,1.0,1.0,33.2,33.5,33.5,4.4,3.1,2.6375,0.6390403922293764,-0.01191689677608007,0.7563207441251806,0.0025844965849146214,-0.085995,-38.277122
11.185,2.0,1.0,1.0,33.2,33.5,33.5,4.4,3.1,2.64,0.6327326376242434,-0.012133692882986978,0.7614444010783588,0.0025174991313591114,-0.087083,-38.137097
11.185,2.0,1.0,1.0,33.2,33.5,33.5,4.4,3.1,2.6425,0.6263433419257202,-0.012354582535654031,0.7665450916293859,0.002447152256776459,-0.088194,-37.996304
11.185,2.0,1.0,1.0,33.2,33.5,33.5,4.4,3.1,2.645,0.6198715789493201,-0.01257966392986556,0.7716218881206957,0.002373327558001199,-0.08933,-37.854724
11.185,2.0,1.0,1.0,33.2,33.5,33.5,4.4,3.1,2.6475,0.613316410587509,-0.012809038402268125,0.7766738334592034,0.0022958910017246564,-0.090491,-37.712338
11.185,2.0,1.0,1.0,33.2,33.5,33.5,4.4,3.1,2.65,0.6066768867566809,-0.013042810560555704,0.7816999401199569,0.00221470262848132,-0.091678,-37.569128
11.185,2.0,1.0,1.0,33.2,33.5,33.5,4.4,3.1,2.6525,0.5999520453495456,-0.013281088420393683,0.786699189111539,0.0021296162379768396,-0.092891,-37.425072
11.185,2.0,1.0,1.0,33.2,33.5,33.5,4.4,3.1,2.655,0.593140912193203,-0.013523983549494072,0.7916705289013777,0.0020404790543671553,-0.094133,-37.280152
11.185,2.0,1.0,1.0,33.2,33.5,33.5,4.4,3.1,2.6575,0.5862425010132197,-0.01377161121928145,0.7966128742989588,0.0019471313699779527,-0.095402,-37.134344
11.185,2.0,1.0,1.0,33.2,33.5,33.5,4.4,3.1,2.66,0.5792558134040197,-0.014024090564618895,0.8015251052948256,0.0018494061658222154,-0.096701,-36.987629
11.185,2.0,1.0,1.0,33.2,33.5,33.5,4.4,3.1,2.6625,0.5721798388059017,-0.01428154475209566,0.8064060658530772,0.001747128707129293,-0.09803,-36.839982
11.185,2.0,1.0,1.0,33.2,33.5,33.5,4.4,3.1,2.665,0.565013554488994,-0.014544101157412547,0.8112545626549402,0.0016401161119379655,-0.099391,-36.691382
11.185,2.0,1.0,1.0,33.2,33.5,33.5,4.4,3.1,2.6675,0.5577559255444832,-0.014811891552436665,0.8160693637907793,0.0015281768906323073,-0.100784,-36.541805
11.185,2.0,1.0,1.0,33.2,33.5,33.5,4.4,3.1,2.67,0.5504059048834274,-0.015085052302537372,0.8208491973977381,0.001411110454105131,-0.10221,-36.391226
11.185,2.0,1.0,1.0,33.2,33.5,33.5,4.4,3.1,2.6725,0.5429624332434762,-0.015363724574856212,0.8255927502399796,0.0012887065880199636,-0.103671,-36.239621
11.185,2.0,1.0,1.0,33.2,33.5,33.5,4.4,3.1,2.675,0.5354244392038326,-0.015648054558208252,0.830298666228249,0.0011607448904068778,-0.105167,-36.086962
11.185,2.0,1.0,1.0,33.2,33.5,33.5,4.4,3.1,2.6775,0.5277908392087652,-0.015938193695359468,0.834965544875229,0.001026994169568543,-0.106701,-35.933223
11.185,2.0,1.0,1.0,33.2,33.5,33.5,4.4,3.1,2.68,0.5200605375999925,-0.016234298928476266,0.8395919396828683,0.0008872117989827457,-0.108272,-35.778378
11.185,2.0,1.0,1.0,33.2,33.5,33.5,4.4,3.1,2.6825,0.5122324266582566,-0.016536532958593916,0.8441763564575367,0.0007411430255670324,-0.109884,-35.622396
11.185,2.0,1.0,1.0,33.2,33.5,33.5,4.4,3.1,2.685,0.5043053866543823,-0.016845064520011947,0.8487172515485122,0.0005885202273217839,-0.111536,-35.465249
11.185,2.0,1.0,1.0,33.2,33.5,33.5,4.4,3.1,2.6875,0.496278285910123,-0.0171600686705801,0.853213030004918,0.000429062115967149,-0.113231,-35.306905
11.185,2.0,1.0,1.0,33.2,33.5,33.5,4.4,3.1,2.69,0.4881499808690867,-0.01748172709890485,0.8576620436457745,0.00026247287975884057,-0.11497,-35.147334
11.185,2.0,1.0,1.0,33.2,33.5,33.5,4.4,3.1,2.6925,0.4799193161780001,-0.017810228449572536,0.8620625890373754,8.844126117531034e-05,-0.116754,-34.986503
11.185,2.0,1.0,1.0,33.2,33.5,33.5,4.4,3.1,2.695,0.47158512477859454,-0.01814576866755398,0.8664129053716221,-9.336043637050722e-05,-0.118587,-34.824378
11.185,2.0,1.0,1.0,33.2,33.5,33.5,4.4,3.1,2.6975,0.46314622801033395,-0.018488551363031448,0.8707111722383915,-0.00028327741924860195,-0.120468,-34.660923
11.185,2.0,1.0,1.0,33.2,33.5,33.5,4.4,3.1,2.7,0.45460143572423517,-0.018838788197960903,0.8749555072842995,-0.0004816735588885906,-0.122401,-34.496103
11.185,2.0,1.0,1.0,33.2,33.5,33.5,4.4,3.1,2.7025,0.4459495464079753,-0.019196699295765313,0.8791439637495134,-0.0006889326395023511,-0.124387,-34.329879
11.185,2.0,1.0,1.0,33.2,33.5,33.5,4.4,3.1,2.705,0.43718934732248727,-0.019562513675630885,0.883274527873385,-0.0009054597069859026,-0.126428,-34.162213
11.185,2.0,1.0,1.0,33.2,33.5,33.5,4.4,3.1,2.7075,0.4283196146502105,-0.019936469712963752,0.8873451161587743,-0.0011316825286859953,-0.128528,-33.993064
11.185,2.0,1.0,1.0,33.2,33.5,33.5,4.4,3.1,2.71,0.4193391136551615,-0.02031881562764173,0.8913535724838404,-0.0013680531747825167,-0.130687,-33.822389
11.185,2.0,1.0,1.0,33.2,33.5,33.5,4.4,3.1,2.7125,0.4102465988549529,-0.020709810001780002,0.8952976650489165,-0.001615049733239187,-0.132909,-33.650146
11.185,2.0,1.0,1.0,33.2,33.5,33.5,4.4,3.1,2.715,0.40104081420490073,-0.021109722328804308,0.8991750831447143,-0.001873178171625216,-0.135196,-33.476287
11.185,2.0,1.0,1.0,33.2,33.5,33.5,4.4,3.1,2.7175,0.39172049329433617,-0.02151883359569675,0.9029834337266186,-0.0021429743606378635,-0.137551,-33.300767
11.185,2.0,1.0,1.0,33.2,33.5,33.5,4.4,3.1,2.72,0.3822843595552639,-0.021937436900343308,0.9067202377780929,-0.002425006275874037,-0.139977,-33.123535
11.185,2.0,1.0,1.0,33.2,33.5,33.5,4.4,3.1,2.7225,0.37273112648348683,-0.022365838105961516,0.9103829264443096,-0.0027198763963500188,-0.142478,-32.944541
11.185,2.0,1.0,1.0,33.2,33.5,33.5,4.4,3.1,2.725,0.36305949787241215,-0.022804356534620242,0.9139688369148913,-0.0030282243204722134,-0.145056,-32.763729
11.185,2.0,1.0,1.0,33.2,33.5,33.5,4.4,3.1,2.7275,0.3532681680597348,-0.02325332570187296,0.9174752080321812,-0.003350729622666852,-0.147716,-32.581046
11.185,2.0,1.0,1.0,33.2,33.5,33.5,4.4,3.1,2.73,0.34335582218735833,-0.023713094094502375,0.9208991755986033,-0.003688114976723577,-0.15046,-32.396431
11.185,2.0,1.0,1.0,33.2,33.5,33.5,4.4,3.1,2.7325,0.3333211364749797,-0.02418402599331164,0.9242377673534531,-0.0040411495751439454,-0.153294,-32.209825
11.185,2.0,1.0,1.0,33.2,33.5,33.5,4.4,3.1,2.735,0.32316277850799013,-0.024666502342777282,0.9274878975857526,-0.0044106528774844,-0.156221,-32.021163
11.185,2.0,1.0,1.0,33.2,33.5,33.5,4.4,3.1,2.7375,0.3128794075405623,-0.025160921669191618,0.9306463613455975,-0.004797498724898952,-0.159247,-31.830379
11.185,2.0,1.0,1.0,33.2,33.5,33.5,4.4,3.1,2.74,0.3024696748151597,-0.025667701048640745,0.9337098282115748,-0.005202619862922765,-0.162376,-31.637404
11.185,2.0,1.0,1.0,33.2,33.5,33.5,4.4,3.1,2.7425,0.2919322239001224,-0.02618727712577256,0.9366748355662855,-0.005627012920067435,-0.165613,-31.442164
11.185,2.0,1.0,1.0,33.2,33.5,33.5,4.4,3.1,2.745,0.28126569104760385,-0.026720107183763896,0.9395377813256243,-0.006071743896166339,-0.168964,-31.244583
11.185,2.0,1.0,1.0,33.2,33.5,33.5,4.4,3.1,2.7475,0.27046870557489233,-0.027266670265167825,0.9422949160601182,-0.0065379542217215625,-0.172436,-31.04458
11.185,2.0,1.0,1.0,33.2,33.5,33.5,4.4,3.1,2.75,0.25953989027316,-0.0278274683423545,0.944942334438137,-0.00702686745794934,-0.176035,-30.842073
11.185,2.0,1.0,1.0,33.2,33.5,33.5,4.4,3.1,2.7525,0.2484778618489855,-0.028403027534990657,0.9474759659109876,-0.007539796716964513,-0.179768,-30.636972
11.185,2.0,1.0,1.0,33.2,33.5,33.5,4.4,3.1,2.755,0.2372812314056827,-0.028993899370351177,0.9498915645485202,-0.008078152892844647,-0.183642,-30.429184
11.185,2.0,1.0,1.0,33.2,33.5,33.5,4.4,3.1,2.7575,0.2259486049735757,-0.029600662080127127,0.9521846979206953,-0.008643453807400387,-0.187667,-30.218613
11.185,2.0,1.0,1.0,33.2,33.5,33.5,4.4,3.1,2.76,0.21447858410117124,-0.030223921924645937,0.9543507349051807,-0.009237334389716922,-0.19185,-30.005155
11.185,2.0,1.0,1.0,33.2,33.5,33.5,4.4,3.1,2.7625,0.20286976652262775,-0.030864314531907414,0.9563848322831492,-0.009861558026270107,-0.196202,-29.788702
11.185,2.0,1.0,1.0,33.2,33.5,33.5,4.4,3.1,2.765,0.1911207469214486,-0.031522506234335106,0.9582819199645112,-0.010518029239148382,-0.200733,-29.56914
11.185,2.0,1.0,1.0,33.2,33.5,33.5,4.4,3.1,2.7675,0.17923011781600878,-0.03219919538040356,0.9600366846593029,-0.011208807874164587,-0.205455,-29.346349
11.185,2.0,1.0,1.0,33.2,33.5,33.5,4.4,3.1,2.77,0.16719647059980078,-0.03289511359097668,0.9616435517831637,-0.01193612500911091,-0.210379,-29.120201
11.185,2.0,1.0,1.0,33.2,33.5,33.5,4.4,3.1,2.7725,0.1550183967785669,-0.03361102692085401,0.9630966653509665,-0.012702400825874885,-0.21552,-28.890562
11.185,2.0,1.0,1.0,33.2,33.5,33.5,4.4,3.1,2.775,0.14269448945828875,-0.03434773687412218,0.9643898655727094,-0.0135102647296063,-0.220892,-28.657291
11.185,2.0,1.0,1.0,33.2,33.5,33.5,4.4,3.1,2.7775,0.1302233451530935,-0.03510608120672518,0.9655166638185361,-0.014362578044767097,-0.226512,-28.420235
11.185,2.0,1.0,1.0,33.2,33.5,33.5,4.4,3.1,2.78,0.1176035660013657,-0.035886934430292505,0.9664702145637266,-0.015262459673163328,-0.232396,-28.179237
11.185,2.0,1.0,1.0,33.2,33.5,33.5,4.4,3.1,2.7825,0.10483376250302955,-0.03669120790648942,0.9672432838579652,-0.016213315164716347,-0.238566,-27.934126
11.185,2.0,1.0,1.0,33.2,33.5,33.5,4.4,3.1,2.785,0.09191255692243482,-0.037519849389451874,0.9678282137838508,-0.01721886972993371,-0.245041,-27.684722
11.185,2.0,1.0,1.0,33.2,33.5,33.5,4.4,3.1,2.7875,0.07883858754187502,-0.038373841833192424,0.9682168822748893,-0.018283205816416525,-0.251847,-27.430833
11.185,2.0,1.0,1.0,33.2,33.5,33.5,4.4,3.1,2.79,0.06561051400276888,-0.039254201228587096,0.9684006575497176,-0.019410805983557194,-0.259009,-27.172257
11.185,2.0,1.0,1.0,33.2,33.5,33.5,4.4,3.1,2.7925,0.052227024038828264,-0.04016197316718153,0.9683703462830376,-0.020606601943801244,-0.266556,-26.908776
11.185,2.0,1.0,1.0,33.2,33.5,33.5,4.4,3.1,2.795,0.03868684199234217,-0.04109822774200087,0.9681161344696376,-0.021876030800410205,-0.274521,-26.640158
11.185,2.0,1.0,1.0,33.2,33.5,33.5,4.4,3.1,2.7975,0.024988739617560554,-0.04206405228270271,0.9676275197398404,-0.023225099706619904,-0.28294,-26.366156
11.185,2.0,1.0,1.0,33.2,33.5,33.5,4.4,3.1,2.8,0.011131549821767655,-0.043060541275691214,0.9668932336449746,-0.02466046040695781,-0.291854,-26.086505
11.185,2.0,1.0,1.0,33.2,33.5,33.5,4.4,3.1,2.8025,-0.00288581581365616,-0.0440887826283085,0.9659011521406969,-0.026189495407533698,-0.301308,-25.800921
11.185,2.0,1.0,1.0,33.2,33.5,33.5,4.4,3.1,2.805,-0.017064344638685513,-0.04514983918537438,0.964638192142385,-0.027820417869812167,-0.311352,-25.5091
11.185,2.0,1.0,1.0,33.2,33.5,33.5,4.4,3.1,2.8075,-0.03140489424244977,-0.046244724076404564,0.9630901915959745,-0.029562387745902093,-0.322045,-25.210716
11.185,2.0,1.0,1.0,33.2,33.5,33.5,4.4,3.1,2.81,-0.04590815560210556,-0.04737436803599509,0.9612417699816558,-0.031425647190195555,-0.333453,-24.905418
11.185,2.0,1.0,1.0,33.2,33.5,33.5,4.4,3.1,2.8125,-0.0605746056310397,-0.0485395762615079,0.959076165524871,-0.0334216789137107,-0.345648,-24.592828
11.185,2.0,1.0,1.0,33.2,33.5,33.5,4.4,3.1,2.815,-0.07540444591032341,-0.04974097160106763,0.9565750446022897,-0.035563391919840835,-0.358716,-24.272539
11.185,2.0,1.0,1.0,33.2,33.5,33.5,4.4,3.1,2.8175,-0.09039752334889957,-0.050978919831523015,0.953718277867545,-0.037865340004951176,-0.372755,-23.944112
11.185,2.0,1.0,1.0,33.2,33.5,33.5,4.4,3.1,2.82,-0.10555322711840179,-0.0522534313939974,0.9504836764440309,-0.040343979561763485,-0.387875,-23.60707
11.185,2.0,1.0,1.0,33.2,33.5,33.5,4.4,3.1,2.8225,-0.12087035431161358,-0.05356403206918191,0.9468466800953169,-0.04301797463102577,-0.404205,-23.260901
11.185,2.0,1.0,1.0,33.2,33.5,33.5,4.4,3.1,2.825,-0.1363469341882742,-0.05490959250614833,0.9427799875381008,-0.0459085588554392,-0.421895,-22.905045
11.185,2.0,1.0,1.0,33.2,33.5,33.5,4.4,3.1,2.8275,-0.15197999732766168,-0.056288102999336544,0.9382531169568856,-0.049039966048108216,-0.441118,-22.5389
