1,w,sub_t,h,l1,l2,l3,g1,g2,Freq,S11_re,S21_re,S11_img,S21_img,S11_dB,S21_dB
11.185,2.0,1.0,1.0,34.3,34.7,34.7,1.5,1.7,2.5,0.708102094855073,-0.0334825817065803,0.689562158619841,0.0229112999970254,-0.101479,-27.835673
11.185,2.0,1.0,1.0,34.3,34.7,34.7,1.5,1.7,2.5025,0.7020264767524146,-0.03425767360567061,0.6954838221616304,0.02298756906880083,-0.103104,-27.690362
11.185,2.0,1.0,1.0,34.3,34.7,34.7,1.5,1.7,2.505,0.6958573301776392,-0.035051598055571016,0.7013885907915748,0.023058384916680105,-0.104775,-27.544124
11.185,2.0,1.0,1.0,34.3,34.7,34.7,1.5,1.7,2.5075,0.6895932990229661,-0.03586490532016871,0.7072755034690185,0.023123405489257086,-0.106492,-27.39694
11.185,2.0,1.0,1.0,34.3,34.7,34.7,1.5,1.7,2.51,0.6832329967961158,-0.03669816513111353,0.7131435613955228,0.02318226957093602,-0.108257,-27.248792
11.185,2.0,1.0,1.0,34.3,34.7,34.7,1.5,1.7,2.5125,0.6767750057412125,-0.037551967484648306,0.7189917262721569,0.023234595615864686,-0.110072,-27.099661
11.185,2.0,1.0,1.0,34.3,34.7,34.7,1.5,1.7,2.515,0.6702178759278723,-0.038426923474167,0.7248189184591856,0.023279980502444245,-0.111939,-26.949528
11.185,2.0,1.0,1.0,34.3,34.7,34.7,1.5,1.7,2.5175,0.6635601243072217,-0.0393236661600857,0.7306240150314717,0.023317998202343475,-0.11386,-26.798371
11.185,2.0,1.0,1.0,34.3,34.7,34.7,1.5,1.7,2.52,0.6568002337335892,-0.040242851478668754,0.7364058477224068,0.02334819835742626,-0.115837,-26.646172
11.185,2.0,1.0,1.0,34.3,34.7,34.7,1.5,1.7,2.5225,0.6499366519505786,-0.04118515919148566,0.7421632007485637,0.023370104757434625,-0.117872,-26.49291
11.185,2.0,1.0,1.0,34.3,34.7,34.7,1.5,1.7,2.525,0.6429677905401934,-0.04215129387722929,0.7478948085066559,0.023383213710649383,-0.119969,-26.338562
11.185,2.0,1.0,1.0,34.3,34.7,34.7,1.5,1.7,2.5275,0.6358920238336997,-0.04314198596765072,0.7535993531336559,0.023386992299071103,-0.122128,-26.183106
11.185,2.0,1.0,1.0,34.3,34.7,34.7,1.5,1.7,2.53,0.6287076877829051,-0.044157992829398585,0.759275461920184,0.023380876508916723,-0.124354,-26.026521
11.185,2.0,1.0,1.0,34.3,34.7,34.7,1.5,1.7,2.5325,0.6214130787905262,-0.045200099893568775,0.7649217045664122,0.02336426922641197,-0.126648,-25.868783
11.185,2.0,1.0,1.0,34.3,34.7,34.7,1.5,1.7,2.535,0.6140064524983491,-0.04626912183477848,0.7705365902688307,0.023336538087959054,-0.129013,-25.709869
11.185,2.0,1.0,1.0,34.3,34.7,34.7,1.5,1.7,2.5375,0.6064860225319337,-0.047365903801566946,0.7761185646251914,0.023297013172772697,-0.131453,-25.549753
11.185,2.0,1.0,1.0,34.3,34.7,34.7,1.5,1.7,2.54,0.5988499592006522,-0.04849132269990511,0.7816660063438478,0.023244984524995013,-0.133971,-25.388411
11.185,2.0,1.0,1.0,34.3,34.7,34.7,1.5,1.7,2.5425,0.5910963881519338,-0.04964628853154641,0.7871772237424797,0.0231796994911001,-0.13657,-25.225817
11.185,2.0,1.0,1.0,34.3,34.7,34.7,1.5,1.7,2.545,0.5832233889787198,-0.05083174578887707,0.7926504510198499,0.02310035985709108,-0.139254,-25.061945
11.185,2.0,1.0,1.0,34.3,34.7,34.7,1.5,1.7,2.5475,0.5752289937792537,-0.05204867490782142,0.7980838442827727,0.023006118768535647,-0.142026,-24.896767
11.185,2.0,1.0,1.0,34.3,34.7,34.7,1.5,1.7,2.55,0.5671111856684992,-0.05329809378021332,0.8034754773088332,0.02289607741489489,-0.144891,-24.730256
11.185,2.0,1.0,1.0,34.3,34.7,34.7,1.5,1.7,2.5525,0.5588678972407728,-0.054581059326854996,0.8088233370235997,0.022769281457830713,-0.147853,-24.562383
11.185,2.0,1.0,1.0,34.3,34.7,34.7,1.5,1.7,2.555,0.5504970089833792,-0.05589866913224238,0.8141253186691183,0.022624717181233062,-0.150917,-24.393117
11.185,2.0,1.0,1.0,34.3,34.7,34.7,1.5,1.7,2.5575,0.5419963476414629,-0.05725206314162611,0.8193792206382584,0.02246130733855098,-0.154086,-24.22243
11.185,2.0,1.0,1.0,34.3,34.7,34.7,1.5,1.7,2.56,0.5333636845346947,-0.058642425420688246,0.8245827389470844,0.02227790667063447,-0.157367,-24.050289
11.185,2.0,1.0,1.0,34.3,34.7,34.7,1.5,1.7,2.5625,0.524596733826956,-0.060070985977637,0.829733461314755,0.0220732970646534,-0.160765,-23.876662
11.185,2.0,1.0,1.0,34.3,34.7,34.7,1.5,1.7,2.565,0.5156931507508148,-0.06153902264692928,0.8348288608174902,0.02184618232174132,-0.164284,-23.701515
11.185,2.0,1.0,1.0,34.3,34.7,34.7,1.5,1.7,2.5675,0.5066505297893935,-0.0630478630331063,0.8398662890798664,0.021595182497776946,-0.167933,-23.524816
11.185,2.0,1.0,1.0,34.3,34.7,34.7,1.5,1.7,2.57,0.4974664028191495,-0.06459888651235422,0.8448429689630983,0.021318827778120553,-0.171716,-23.346528
11.185,2.0,1.0,1.0,34.3,34.7,34.7,1.5,1.7,2.5725,0.48813823721822003,-0.06619352628833311,0.8497559867059018,0.02101555184313987,-0.17564,-23.166615
11.185,2.0,1.0,1.0,34.3,34.7,34.7,1.5,1.7,2.575,0.4786634339463523,-0.06783327149753575,0.8546022834690987,0.020683684676932816,-0.179714,-22.985039
11.185,2.0,1.0,1.0,34.3,34.7,34.7,1.5,1.7,2.5775,0.46903932560403855,-0.0695196693578945,0.8593786462301284,0.020321444766727884,-0.183945,-22.801762
11.185,2.0,1.0,1.0,34.3,34.7,34.7,1.5,1.7,2.58,0.4592631744804283,-0.07125432735249868,0.8640816979681427,0.019926930634973097,-0.188341,-22.616744
11.185,2.0,1.0,1.0,34.3,34.7,34.7,1.5,1.7,2.5825,0.4493321706018706,-0.07303891543806824,0.8687078870742002,0.019498111640028397,-0.192911,-22.429944
11.185,2.0,1.0,1.0,34.3,34.7,34.7,1.5,1.7,2.585,0.43924342979570874,-0.0748751682651695,0.8732534759142558,0.01903281797459096,-0.197664,-22.24132
11.185,2.0,1.0,1.0,34.3,34.7,34.7,1.5,1.7,2.5875,0.42899399178719094,-0.07676488739399272,0.8777145284650277,0.01852872978342057,-0.202611,-22.050826
11.185,2.0,1.0,1.0,34.3,34.7,34.7,1.5,1.7,2.59,0.4185808183512755,-0.07870994348571883,0.8820868969343431,0.0179833653135041,-0.207762,-21.858419
11.185,2.0,1.0,1.0,34.3,34.7,34.7,1.5,1.7,2.5925,0.40800079154569147,-0.08071227844499866,0.8863662072681181,0.017394068000392882,-0.21313,-21.664051
11.185,2.0,1.0,1.0,34.3,34.7,34.7,1.5,1.7,2.595,0.3972507120571649,-0.08277390748367877,0.8905478434355643,0.016757992383955613,-0.218726,-21.467673
11.185,2.0,1.0,1.0,34.3,34.7,34.7,1.5,1.7,2.5975,0.3863272976991772,-0.08489692106951328,0.8946269303724855,0.016072088735076574,-0.224565,-21.269237
11.185,2.0,1.0,1.0,34.3,34.7,34.7,1.5,1.7,2.6,0.3752271821074478,-0.0870834867159603,0.8985983154493525,0.015333086261753672,-0.23066,-21.068689
11.185,2.0,1.0,1.0,34.3,34.7,34.7,1.5,1.7,2.6025,0.3639469136885355,-0.08933585056007652,0.902456548316214,0.014537474748443666,-0.237027,-20.865977
11.185,2.0,1.0,1.0,34.3,34.7,34.7,1.5,1.7,2.605,0.3524829548879101,-0.09165633866470344,0.9061958589601345,0.013681484466194903,-0.243682,-20.661046
11.185,2.0,1.0,1.0,34.3,34.7,34.7,1.5,1.7,2.6075,0.34083168185693824,-0.09404735796823901,0.9098101337925525,0.012761064172891244,-0.250645,-20.453837
11.185,2.0,1.0,1.0,34.3,34.7,34.7,1.5,1.7,2.61,0.3289893846137343,-0.09651139678992567,0.9132928895636007,0.01177185700259467,-0.257933,-20.244291
11.185,2.0,1.0,1.0,34.3,34.7,34.7,1.5,1.7,2.6125,0.31695226781132896,-0.09905102478027437,0.9166372448776255,0.010709174020273757,-0.265569,-20.032348
11.185,2.0,1.0,1.0,34.3,34.7,34.7,1.5,1.7,2.615,0.3047164522486673,-0.10166889218439829,0.9198358890588089,0.00956796519288725,-0.273575,-19.817944
11.185,2.0,1.0,1.0,34.3,34.7,34.7,1.5,1.7,2.6175,0.29227797728621585,-0.10436772825996402,0.9228810480874948,0.008342787499574112,-0.281975,-19.601013
11.185,2.0,1.0,1.0,34.3,34.7,34.7,1.5,1.7,2.62,0.27963280435929894,-0.10715033866035531,0.9257644472963684,0.007027769872285697,-0.290796,-19.381487
11.185,2.0,1.0,1.0,34.3,34.7,34.7,1.5,1.7,2.6225,0.26677682181972284,-0.11001960155646072,0.9284772704806732,0.005616574623283772,-0.300067,-19.159295
11.185,2.0,1.0,1.0,34.3,34.7,34.7,1.5,1.7,2.625,0.253705851380993,-0.112978462226038,0.931010115037852,0.00410235497719377,-0.30982,-18.934364
11.185,2.0,1.0,1.0,34.3,34.7,34.7,1.5,1.7,2.6275,0.24041565649585422,-0.11602992578643138,0.9333529427091386,0.0024777082824442324,-0.320089,-18.70662
11.185,2.0,1.0,1.0,34.3,34.7,34.7,1.5,1.7,2.63,0.22690195305894964,-0.1191770476827128,0.9354950254482949,0.0007346244296548372,-0.330911,-18.475983
11.185,2.0,1.0,1.0,34.3,34.7,34.7,1.5,1.7,2.6325,0.2131604229040269,-0.12242292146699754,0.9374248858907537,-0.001135571047380207,-0.342327,-18.242372
11.185,2.0,1.0,1.0,34.3,34.7,34.7,1.5,1.7,2.635,0.19918673065706502,-0.12577066331313583,0.9391302318397149,-0.0031422797692070284,-0.354382,-18.005703
11.185,2.0,1.0,1.0,34.3,34.7,34.7,1.5,1.7,2.6375,0.18497654461698596,-0.12922339260108842,0.9405978841241581,-0.005295699849373126,-0.367125,-17.76589
11.185,2.0,1.0,1.0,34.3,34.7,34.7,1.5,1.7,2.64,0.17052556246800915,-0.13278420777330502,0.9418136971175591,-0.007606902483138139,-0.380609,-17.522842
11.185,2.0,1.0,1.0,34.3,34.7,34.7,1.5,1.7,2.6425,0.15582954278697378,-0.1364561565067072,0.9427624711356997,-0.010087916565575101,-0.394893,-17.276466
11.185,2.0,1.0,1.0,34.3,34.7,34.7,1.5,1.7,2.645,0.14088434350029197,-0.14024219905298613,0.9434278558583098,-0.012751822192181034,-0.410042,-17.026667
11.185,2.0,1.0,1.0,34.3,34.7,34.7,1.5,1.7,2.6475,0.12568596867562612,-0.1441451633700996,0.9437922438438155,-0.015612853970729996,-0.426127,-16.773345
11.185,2.0,1.0,1.0,34.3,34.7,34.7,1.5,1.7,2.65,0.11023062531072358,-0.1481676903910876,0.9438366531315739,-0.01868651514823223,-0.443226,-16.516396
11.185,2.0,1.0,1.0,34.3,34.7,34.7,1.5,1.7,2.6525,0.09451479211605837,-0.1523121674428183,0.9435405978551354,-0.02198970362797372,-0.461428,-16.255717
11.185,2.0,1.0,1.0,34.3,34.7,34.7,1.5,1.7,2.655,0.07853530269040798,-0.15658064742542355,0.9428819457284934,-0.025540851013637504,-0.480828,-15.991196
11.185,2.0,1.0,1.0,34.3,34.7,34.7,1.5,1.7,2.6575,0.06228944597365422,-0.1609747508788308,0.9418367612222653,-0.029360075862993447,-0.501533,-15.722724
11.185,2.0,1.0,1.0,34.3,34.7,34.7,1.5,1.7,2.66,0.045775087445365084,-0.16549554747928893,0.9403791332288668,-0.033469352352257946,-0.523662,-15.450184
11.185,2.0,1.0,1.0,34.3,34.7,34.7,1.5,1.7,2.6625,0.028990815241204032,-0.17014341280613982,0.9384809860394687,-0.03789269552932707,-0.547348,-15.173459
11.185,2.0,1.0,1.0,34.3,34.7,34.7,1.5,1.7,2.665,0.011936116205168882,-0.1749178553739033,0.936111872541204,-0.042656364249529115,-0.572739,-14.89243
11.185,2.0,1.0,1.0,34.3,34.7,34.7,1.5,1.7,2.6675,-0.00538841208825501,-0.1798173079095862,0.9332387487186066,-0.04778908271343926,-0.6,-14.606973
11.185,2.0,1.0,1.0,34.3,34.7,34.7,1.5,1.7,2.67,-0.02298080609073552,-0.18483887563858722,0.9298257288466285,-0.05332228122467453,-0.629317,-14.316965
11.185,2.0,1.0,1.0,34.3,34.7,34.7,1.5,1.7,2.6725,-0.04083742910999263,-0.1899780328890354,0.925833821245834,-0.05929035630457646,-0.660898,-14.022281
11.185,2.0,1.0,1.0,34.3,34.7,34.7,1.5,1.7,2.675,-0.058952601777479005,-0.1952282575949493,0.9212206452035403,-0.06573094957020789,-0.694978,-13.722796
11.185,2.0,1.0,1.0,34.3,34.7,34.7,1.5,1.7,2.6775,-0.07731815767193921,-0.20058059123228075,0.9159401307425198,-0.0726852437076944,-0.731821,-13.418386
11.185,2.0,1.0,1.0,34.3,34.7,34.7,1.5,1.7,2.68,-0.0959229092140643,-0.20602310931871728,0.9099422044679558,-0.08019827232799337,-0.771728,-13.108929
11.185,2.0,1.0,1.0,34.3,34.7,34.7,1.5,1.7,2.6825,-0.11475200615459921,-0.21154028481420373,0.9031724669126409,-0.08831923830799095,-0.815039,-12.794308
11.185,2.0,1.0,1.0,34.3,34.7,34.7,1.5,1.7,2.685,-0.13378616577686414,-0.2171122235555883,0.8955718698532457,-0.09710183217310532,-0.862138,-12.474408
11.185,2.0,1.0,1.0,34.3,34.7,34.7,1.5,1.7,2.6875,-0.153000750335088,-0.222713747255593,0.887076406280539,-0.106604537874912,-0.913468,-12.149127
11.185,2.0,1.0,1.0,34.3,34.7,34.7,1.5,1.7,2.69,-0.17236466331423983,-0.22831329565482852,0.877616831455105,-0.11689090757721311,-0.96953,-11.818372
11.185,2.0,1.0,1.0,34.3,34.7,34.7,1.5,1.7,2.6925,-0.19183903197292276,-0.2338716152825853,0.8671184412576866,-0.1280297792963933,-1.0309,-11.482064
11.185,2.0,1.0,1.0,34.3,34.7,34.7,1.5,1.7,2.695,-0.21137563960284153,-0.23934019824129268,0.8555009444687455,-0.14009540082755195,-1.098241,-11.140146
11.185,2.0,1.0,1.0,34.3,34.7,34.7,1.5,1.7,2.6975,-0.23091506750493038,-0.2446594309775687,0.8426784794495257,-0.1531674095621303,-1.172315,-10.792586
11.185,2.0,1.0,1.0,34.3,34.7,34.7,1.5,1.7,2.7,-0.2503845046640228,-0.24975641095882753,0.8285598438612738,-0.16733059965028146,-1.254,-10.439383
11.185,2.0,1.0,1.0,34.3,34.7,34.7,1.5,1.7,2.7025,-0.26969518380025814,-0.25454238983509664,0.81304902959137,-0.1826743844394879,-1.344316,-10.080577
11.185,2.0,1.0,1.0,34.3,34.7,34.7,1.5,1.7,2.705,-0.2887394078732579,-0.25890980701561156,0.7960461850492769,-0.19929183213298116,-1.444445,-9.716259
11.185,2.0,1.0,1.0,34.3,34.7,34.7,1.5,1.7,2.7075,-0.30738714416672935,-0.26272889057786897,0.777449164430875,-0.21727811517382312,-1.555762,-9.346584
11.185,2.0,1.0,1.0,34.3,34.7,34.7,1.5,1.7,2.71,-0.3254821880411962,-0.2658438273049622,0.7571558689686071,-0.236728168424857,-1.679872,-8.971783
11.185,2.0,1.0,1.0,34.3,34.7,34.7,1.5,1.7,2.7125,-0.3428379412425139,-0.26806854634422544,0.7350676381163835,-0.25773329824209756,-1.81865,-8.59218
11.185,2.0,1.0,1.0,34.3,34.7,34.7,1.5,1.7,2.715,-0.359232918228728,-0.2691822294316181,0.7110940066276218,-0.28037642645052235,-1.974295,-8.208217
11.185,2.0,1.0,1.0,34.3,34.7,34.7,1.5,1.7,2.7175,-0.37440619837276895,-0.2689247648809326,0.6851592006832963,-0.3047255958966004,-2.149386,-7.820472
11.185,2.0,1.0,1.0,34.3,34.7,34.7,1.5,1.7,2.72,-0.3880531938103511,-0.26699251430437854,0.657210791094772,-0.3308253191667531,-2.346956,-7.429688
11.185,2.0,1.0,1.0,34.3,34.7,34.7,1.5,1.7,2.7225,-0.39982231387525535,-0.26303497208090576,0.6272309340673439,-0.35868533927291746,-2.570578,-7.036803
11.185,2.0,1.0,1.0,34.3,34.7,34.7,1.5,1.7,2.725,-0.40931338562094294,-0.25665317609073834,0.5952505779903959,-0.38826642266115147,-2.824454,-6.642981
11.185,2.0,1.0,1.0,34.3,34.7,34.7,1.5,1.7,2.7275,-0.41607903341188607,-0.24740107180786922,0.5613668510511065,-0.41946296794539417,-3.113537,-6.24965
11.185,2.0,1.0,1.0,34.3,34.7,34.7,1.5,1.7,2.73,-0.41963060438948396,-0.23479141600762674,0.525763506193783,-0.45208255127098795,-3.44365,-5.858532
11.185,2.0,1.0,1.0,34.3,34.7,34.7,1.5,1.7,2.7325,-0.4194505873239708,-0.21830816779724754,0.48873371389365167,-0.485823114408294,-3.821618,-5.471674
11.185,2.0,1.0,1.0,34.3,34.7,34.7,1.5,1.7,2.735,-0.4150136875950936,-0.19742753121528483,0.45070359391811576,-0.5202494001907519,-4.255403,-5.091471
11.185,2.0,1.0,1.0,34.3,34.7,34.7,1.5,1.7,2.7375,-0.4058185933430379,-0.17164968793820476,0.412253644586862,-0.5547714721673979,-4.754198,-4.720674
11.185,2.0,1.0,1.0,34.3,34.7,34.7,1.5,1.7,2.74,-0.39143172823187133,-0.1405425217044371,0.37413374937704497,-0.5886296344370239,-5.328436,-4.362377
11.185,2.0,1.0,1.0,34.3,34.7,34.7,1.5,1.7,2.7425,-0.37154264362517936,-0.10379699647795637,0.33726599099244703,-0.6208915192114739,-5.989576,-4.019977
11.185,2.0,1.0,1.0,34.3,34.7,34.7,1.5,1.7,2.745,-0.3460279681703417,-0.061291118270602477,0.30272861146733787,-0.6504680050167881,-6.749362,-3.697092
11.185,2.0,1.0,1.0,34.3,34.7,34.7,1.5,1.7,2.7475,-0.31501712722101327,-0.013155706069591213,0.27171489337539084,-0.6761541978777279,-7.617913,-3.397441
11.185,2.0,1.0,1.0,34.3,34.7,34.7,1.5,1.7,2.75,-0.278949041621532,0.0401688076834259,0.245463325981714,-0.696699126453877,-8.59917,-3.124682
11.185,2.0,1.0,1.0,34.3,34.7,34.7,1.5,1.7,2.7525,-0.23860606515150823,0.09789828344062282,0.2251606209924127,-0.7109026082461551,-9.68066,-2.882209
11.185,2.0,1.0,1.0,34.3,34.7,34.7,1.5,1.7,2.755,-0.19511132879248952,0.15890732642035585,0.21182648010497201,-0.7177304099973041,-10.812418,-2.672939
11.185,2.0,1.0,1.0,34.3,34.7,34.7,1.5,1.7,2.7575,-0.14987996494147096,0.22177783139768917,0.20619667101817057,-0.7164311679330245,-11.872131,-2.499091
11.185,2.0,1.0,1.0,34.3,34.7,34.7,1.5,1.7,2.76,-0.1045235763394261,0.28489428790636995,0.20862599951261304,-0.7066334913496268,-12.640022,-2.36201
11.185,2.0,1.0,1.0,34.3,34.7,34.7,1.5,1.7,2.7625,-0.06071882246147003,0.3465750098944574,0.21903225221197017,-0.6884021683971299,-12.868296,-2.262049
11.185,2.0,1.0,1.0,34.3,34.7,34.7,1.5,1.7,2.765,-0.020061244456944554,0.4052181993201007,0.23689492483958607,-0.6622396338893303,-12.477851,-2.198533
11.185,2.0,1.0,1.0,34.3,34.7,34.7,1.5,1.7,2.7675,0.016069717687312704,0.45943690435471524,0.26131024999591607,-0.6290311467834907,-11.640478,-2.169813
11.185,2.0,1.0,1.0,34.3,34.7,34.7,1.5,1.7,2.77,0.04661135431303181,0.5081597041592645,0.29109092416432747,-0.5899452373199764,-10.609475,-2.173399
11.185,2.0,1.0,1.0,34.3,34.7,34.7,1.5,1.7,2.7725,0.0708701451793625,0.5506832791224177,0.3248897372960563,-0.5463101897279823,-9.563394,-2.20615
11.185,2.0,1.0,1.0,34.3,34.7,34.7,1.5,1.7,2.775,0.08852435161641645,0.586675135581547,0.36132386788099896,-0.4994897836312934,-8.588906,-2.264492
11.185,2.0,1.0,1.0,34.3,34.7,34.7,1.5,1.7,2.7775,0.0995855352776359,0.6161352453747921,0.39908068404201896,-0.4507774570817418,-7.716441,-2.344634
11.185,2.0,1.0,1.0,34.3,34.7,34.7,1.5,1.7,2.78,0.10433374660621124,0.6393313188697974,0.4369938193564131,-0.4013201385590377,-6.949731,-2.442757
11.185,2.0,1.0,1.0,34.3,34.7,34.7,1.5,1.7,2.7825,0.10324200551448415,0.6567233213410546,0.47408671266520236,-0.35207458011450055,-6.28162,-2.555177
11.185,2.0,1.0,1.0,34.3,34.7,34.7,1.5,1.7,2.785,0.09690285253677322,0.6688900090562967,0.5095872343826104,-0.30379258959038075,-5.701358,-2.678445
11.185,2.0,1.0,1.0,34.3,34.7,34.7,1.5,1.7,2.7875,0.08596522877739442,0.676465748720203,0.5429204992044251,-0.2570280775846441,-5.197735,-2.809429
11.185,2.0,1.0,1.0,34.3,34.7,34.7,1.5,1.7,2.79,0.07108548904585958,0.6800914332942789,0.5736877762555669,-0.21215801759459094,-4.760315,-2.945337
11.185,2.0,1.0,1.0,34.3,34.7,34.7,1.5,1.7,2.7925,0.05289295099453521,0.680379905835083,0.601638461129391,-0.16941035891837453,-4.379851,-3.083734
11.185,2.0,1.0,1.0,34.3,34.7,34.7,1.5,1.7,2.795,0.0319683045585081,0.6778942228234975,0.6266403288373411,-0.12889367340658953,-4.048345,-3.222524
11.185,2.0,1.0,1.0,34.3,34.7,34.7,1.5,1.7,2.7975,0.008832272664248481,0.6731361527182192,0.6486514472645096,-0.09062515427992263,-3.758967,-3.359928
11.185,2.0,1.0,1.0,34.3,34.7,34.7,1.5,1.7,2.8,-0.016058226633547827,0.6665421622317943,0.6676955831354978,-0.0545551318326609,-3.505919,-3.494451
11.185,2.0,1.0,1.0,34.3,34.7,34.7,1.5,1.7,2.8025,-0.042308861773931325,0.6584844453957239,0.6838418096006965,-0.020587393632324234,-3.284295,-3.624846
11.185,2.0,1.0,1.0,34.3,34.7,34.7,1.5,1.7,2.805,-0.06958356951439912,0.6492750375831224,0.6971883077297,0.011404685953201989,-3.089951,-3.750086
11.185,2.0,1.0,1.0,34.3,34.7,34.7,1.5,1.7,2.8075,-0.09759858343782908,0.63917156537871,0.7078499584381138,0.041565805683341256,-2.919387,-3.869323
11.185,2.0,1.0,1.0,34.3,34.7,34.7,1.5,1.7,2.81,-0.12611580767351752,0.6283836301810933,0.7159491489413609,0.07004961248645593,-2.769646,-3.981866
11.185,2.0,1.0,1.0,34.3,34.7,34.7,1.5,1.7,2.8125,-0.154936178764161,0.617079178242717,0.72160918443421,0.097012183202421,-2.638227,-4.087149
11.185,2.0,1.0,1.0,34.3,34.7,34.7,1.5,1.7,2.815,-0.18389339586788525,0.6053904718844478,0.7249497388153693,0.12260754708991382,-2.523017,-4.18471
11.185,2.0,1.0,1.0,34.3,34.7,34.7,1.5,1.7,2.8175,-0.21284821635592568,0.5934194590234658,0.726083856256639,0.1469847605164374,-2.422229,-4.274174
11.185,2.0,1.0,1.0,34.3,34.7,34.7,1.5,1.7,2.82,-0.24168339295201163,0.5812424582600004,0.7251161030348168,0.17028613222437156,-2.334353,-4.355231
11.185,2.0,1.0,1.0,34.3,34.7,34.7,1.5,1.7,2.8225,-0.2702992532194821,0.5689141511686512,0.7221415525934006,0.1926462804060168,-2.258115,-4.427625
11.185,2.0,1.0,1.0,34.3,34.7,34.7,1.5,1.7,2.825,-0.2986098785762535,0.5564709159517742,0.7172453599517893,0.2141917751387453,-2.192445,-4.49114
11.185,2.0,1.0,1.0,34.3,34.7,34.7,1.5,1.7,2.8275,-0.3265398174617739,0.5439335578423143,0.7105027423618111,0.23504117948985875,-2.136444,-4.545592
11.185,2.0,1.0,1.0,34.3,34.7,34.7,1.5,1.7,2.83,-0.35402125806593987,0.5313094992839087,0.701979231897084,0.2553053500904433,-2.089371,-4.590819
11.185,2.0,1.0,1.0,34.3,34.7,34.7,1.5,1.7,2.8325,-0.38099158478577005,0.5185944923036186,0.6917311039166452,0.2750878945655228,-2.050615,-4.626676
