1,w,sub_t,h,l1,l2,l3,g1,g2,Freq,S11_re,S21_re,S11_img,S21_img,S11_dB,S21_dB
11.185,2.0,1.0,1.0,34.0,33.0,33.0,4.0,3.0,2.5,0.786251302709683,-0.00712260478351711,0.607580564842585,0.00388172724937779,-0.05531,-41.817787
11.185,2.0,1.0,1.0,34.0,33.0,33.0,4.0,3.0,2.5025,0.7818319338127556,-0.0072454714221750404,0.613164774339652,0.003871877454295858,-0.055807,-41.707716
11.185,2.0,1.0,1.0,34.0,33.0,33.0,4.0,3.0,2.505,0.7773523092882954,-0.0073700877524403375,0.618741288242482,0.003860795921244401,-0.056312,-41.597437
11.185,2.0,1.0,1.0,34.0,33.0,33.0,4.0,3.0,2.5075,0.7728118630399863,-0.00749647670868776,0.6243096883496565,0.003848444344869222,-0.056825,-41.486946
11.185,2.0,1.0,1.0,34.0,33.0,33.0,4.0,3.0,2.51,0.7682100220669867,-0.007624661464945491,0.6298695448832095,0.0038347833190940524,-0.057346,-41.376239
11.185,2.0,1.0,1.0,34.0,33.0,33.0,4.0,3.0,2.5125,0.763546206434618,-0.007754665433122493,0.6354204161593947,0.003819772302867796,-0.057876,-41.265312
11.185,2.0,1.0,1.0,34.0,33.0,33.0,4.0,3.0,2.515,0.7588198292483077,-0.007886512260877509,0.6409618482504497,0.0038033695847394422,-0.058414,-41.154159
11.185,2.0,1.0,1.0,34.0,33.0,33.0,4.0,3.0,2.5175,0.754030296631019,-0.008020225829104468,0.6464933746371047,0.0037855322462174517,-0.058961,-41.042777
11.185,2.0,1.0,1.0,34.0,33.0,33.0,4.0,3.0,2.52,0.7491770077043882,-0.008155830249007978,0.652014515851624,0.0037662161238695515,-0.059517,-40.93116
11.185,2.0,1.0,1.0,34.0,33.0,33.0,4.0,3.0,2.5225,0.7442593545738405,-0.008293349858740282,0.6575247791111103,0.003745375770117539,-0.060082,-40.819304
11.185,2.0,1.0,1.0,34.0,33.0,33.0,4.0,3.0,2.525,0.7392767223179157,-0.008432809219570354,0.6630236579408452,0.0037229644126795503,-0.060656,-40.707204
11.185,2.0,1.0,1.0,34.0,33.0,33.0,4.0,3.0,2.5275,0.7342284889820991,-0.008574233111553529,0.6685106317874119,0.0036989339126103833,-0.06124,-40.594856
11.185,2.0,1.0,1.0,34.0,33.0,33.0,4.0,3.0,2.53,0.7291140255774288,-0.00871764652866796,0.6739851656213341,0.00367323472088964,-0.061833,-40.482254
11.185,2.0,1.0,1.0,34.0,33.0,33.0,4.0,3.0,2.5325,0.7239326960841893,-0.008863074673382995,0.6794467095289788,0.0036458158335038017,-0.062436,-40.369394
11.185,2.0,1.0,1.0,34.0,33.0,33.0,4.0,3.0,2.535,0.718683857460998,-0.009010542950622166,0.6848946982934605,0.0036166247449679226,-0.063049,-40.256271
11.185,2.0,1.0,1.0,34.0,33.0,33.0,4.0,3.0,2.5375,0.7133668596596233,-0.009160076961080897,0.6903285509642655,0.0035856074002303083,-0.063673,-40.14288
11.185,2.0,1.0,1.0,34.0,33.0,33.0,4.0,3.0,2.54,0.7079810456458745,-0.009311702493857732,0.6957476704153349,0.0035527081449002345,-0.064306,-40.029216
11.185,2.0,1.0,1.0,34.0,33.0,33.0,4.0,3.0,2.5425,0.7025257514269264,-0.009465445518354638,0.7011514428913199,0.003517869673738246,-0.064951,-39.915273
11.185,2.0,1.0,1.0,34.0,33.0,33.0,4.0,3.0,2.545,0.6970003060854629,-0.00962133217539998,0.7065392375417341,0.0034810329773447214,-0.065606,-39.801047
11.185,2.0,1.0,1.0,34.0,33.0,33.0,4.0,3.0,2.5475,0.6914040318210414,-0.009779388767544434,0.7119104059427052,0.003442137286981623,-0.066273,-39.686531
11.185,2.0,1.0,1.0,34.0,33.0,33.0,4.0,3.0,2.55,0.6857362439990791,-0.00993964174847859,0.7172642816060514,0.0034011200174577337,-0.066951,-39.571722
11.185,2.0,1.0,1.0,34.0,33.0,33.0,4.0,3.0,2.5525,0.6799962512079284,-0.010102117711516144,0.7226001794753707,0.003357916708007334,-0.06764,-39.456613
11.185,2.0,1.0,1.0,34.0,33.0,33.0,4.0,3.0,2.555,0.6741833553244736,-0.010266843377085442,0.7279173954088607,0.003312460961087886,-0.068342,-39.341199
11.185,2.0,1.0,1.0,34.0,33.0,33.0,4.0,3.0,2.5575,0.6682968515887379,-0.010433845579167444,0.7332152056485624,0.003264684379020075,-0.069055,-39.225474
11.185,2.0,1.0,1.0,34.0,33.0,33.0,4.0,3.0,2.56,0.6623360286880109,-0.01060315125061537,0.7384928662757207,0.003214516498391124,-0.069781,-39.109434
11.185,2.0,1.0,1.0,34.0,33.0,33.0,4.0,3.0,2.5625,0.6563001688510156,-0.01077478740728736,0.7437496126519624,0.0031618847221381247,-0.07052,-38.993071
11.185,2.0,1.0,1.0,34.0,33.0,33.0,4.0,3.0,2.565,0.6501885479526637,-0.010948781130920033,0.748984658845978,0.003106714249225868,-0.071271,-38.876381
11.185,2.0,1.0,1.0,34.0,33.0,33.0,4.0,3.0,2.5675,0.6440004356299853,-0.011125159550665994,0.7541971970453953,0.0030489280018299266,-0.072036,-38.759357
11.185,2.0,1.0,1.0,34.0,33.0,33.0,4.0,3.0,2.57,0.6377350954098301,-0.011303949823214952,0.7593863969535387,0.0029884465499324217,-0.072814,-38.641994
11.185,2.0,1.0,1.0,34.0,33.0,33.0,4.0,3.0,2.5725,0.6313917848489672,-0.011485179111413068,0.7645514051707528,0.0029251880332339265,-0.073606,-38.524286
11.185,2.0,1.0,1.0,34.0,33.0,33.0,4.0,3.0,2.575,0.6249697556872507,-0.011668874561290303,0.7696913445599841,0.002859068080281776,-0.074412,-38.406226
11.185,2.0,1.0,1.0,34.0,33.0,33.0,4.0,3.0,2.5775,0.6184682540145365,-0.0118550632774009,0.7748053135962966,0.0027899997247106435,-0.075233,-38.287809
11.185,2.0,1.0,1.0,34.0,33.0,33.0,4.0,3.0,2.58,0.611886520452076,-0.012043772296376421,0.7798923857000118,0.002717893318486707,-0.076068,-38.169028
11.185,2.0,1.0,1.0,34.0,33.0,33.0,4.0,3.0,2.5825,0.6052237903491302,-0.01223502855858548,0.7849516085531627,0.0026426564420440764,-0.076918,-38.049877
11.185,2.0,1.0,1.0,34.0,33.0,33.0,4.0,3.0,2.585,0.5984792939956044,-0.012428858877788135,0.7899820033989383,0.0025641938111951143,-0.077784,-37.930349
11.185,2.0,1.0,1.0,34.0,33.0,33.0,4.0,3.0,2.5875,0.5916522568515118,-0.012625289908666761,0.7949825643238236,0.002482407180693559,-0.078665,-37.810438
11.185,2.0,1.0,1.0,34.0,33.0,33.0,4.0,3.0,2.59,0.584741899794138,-0.012824348112108835,0.799952257522112,0.0023971952443239825,-0.079563,-37.690138
11.185,2.0,1.0,1.0,34.0,33.0,33.0,4.0,3.0,2.5925,0.57774743938379,-0.013026059718109636,0.8048900205424997,0.002308453531384418,-0.080477,-37.569441
11.185,2.0,1.0,1.0,34.0,33.0,33.0,4.0,3.0,2.595,0.5706680881490812,-0.0132304506861558,0.8097947615164498,0.002216074299426309,-0.081408,-37.448341
11.185,2.0,1.0,1.0,34.0,33.0,33.0,4.0,3.0,2.5975,0.5635030548927126,-0.013437546662943146,0.8146653583680455,0.0021199464231069914,-0.082357,-37.326831
11.185,2.0,1.0,1.0,34.0,33.0,33.0,4.0,3.0,2.6,0.556251545018776,-0.013647372937273465,0.819500658005035,0.002019955279006307,-0.083323,-37.204905
11.185,2.0,1.0,1.0,34.0,33.0,33.0,4.0,3.0,2.6025,0.5489127608826511,-0.013859954391966503,0.8242994754907914,0.0019159826262516286,-0.084307,-37.082554
11.185,2.0,1.0,1.0,34.0,33.0,33.0,4.0,3.0,2.605,0.5414859021645855,-0.014075315452614439,0.8290605931969153,0.0018079064827883197,-0.085309,-36.959771
11.185,2.0,1.0,1.0,34.0,33.0,33.0,4.0,3.0,2.6075,0.5339701662681325,-0.01429348003299631,0.8337827599362218,0.0016956009971268178,-0.086331,-36.83655
11.185,2.0,1.0,1.0,34.0,33.0,33.0,4.0,3.0,2.61,0.5263647487446417,-0.014514471476958963,0.8384646900758529,0.0015789363153889552,-0.087372,-36.712883
11.185,2.0,1.0,1.0,34.0,33.0,33.0,4.0,3.0,2.6125,0.5186688437450585,-0.01473831249656165,0.8431050626302834,0.0014577784434690383,-0.088433,-36.588763
11.185,2.0,1.0,1.0,34.0,33.0,33.0,4.0,3.0,2.615,0.5108816445003405,-0.014965025106268539,0.847702520333997,0.0013319891041158724,-0.089514,-36.464181
11.185,2.0,1.0,1.0,34.0,33.0,33.0,4.0,3.0,2.6175,0.5030023438318546,-0.015194630552961986,0.8522556686936146,0.0012014255887342323,-0.090616,-36.33913
11.185,2.0,1.0,1.0,34.0,33.0,33.0,4.0,3.0,2.62,0.49503013469317514,-0.015427149241536384,0.8567630750192887,0.0010659406036940646,-0.091739,-36.213602
11.185,2.0,1.0,1.0,34.0,33.0,33.0,4.0,3.0,2.6225,0.48696421074474877,-0.015662600655818742,0.8612232674351928,0.0009253821109262278,-0.092884,-36.087589
11.185,2.0,1.0,1.0,34.0,33.0,33.0,4.0,3.0,2.625,0.478803766962983,-0.0159010032745474,0.865634733868938,0.00077959316257264,-0.094052,-35.961083
11.185,2.0,1.0,1.0,34.0,33.0,33.0,4.0,3.0,2.6275,0.4705480002853338,-0.016142374482125844,0.8699959210198035,0.0006284117294473915,-0.095243,-35.834075
11.185,2.0,1.0,1.0,34.0,33.0,33.0,4.0,3.0,2.63,0.4621961102930702,-0.01638673047385099,0.8743052333056613,0.000471670523054448,-0.096457,-35.706557
11.185,2.0,1.0,1.0,34.0,33.0,33.0,4.0,3.0,2.6325,0.4537472999334387,-0.016634086155299228,0.8785610317885207,0.0003091968108931004,-0.097695,-35.578521
11.185,2.0,1.0,1.0,34.0,33.0,33.0,4.0,3.0,2.635,0.445200776283024,-0.016884455035534398,0.8827616330786332,0.00014081222476999307,-0.098957,-35.449957
11.185,2.0,1.0,1.0,34.0,33.0,33.0,4.0,3.0,2.6375,0.43655575135418423,-0.017137849113782445,0.8869053082171445,-3.366743817810584e-05,-0.100246,-35.320857
11.185,2.0,1.0,1.0,34.0,33.0,33.0,4.0,3.0,2.64,0.42781144294647677,-0.01739427875919717,0.8909902815373009,-0.00021443242206327536,-0.10156,-35.191212
11.185,2.0,1.0,1.0,34.0,33.0,33.0,4.0,3.0,2.6425,0.4189670755451144,-0.017653752583318933,0.8950147295042574,-0.0004016792267549527,-0.102901,-35.061011
11.185,2.0,1.0,1.0,34.0,33.0,33.0,4.0,3.0,2.645,0.4100218812685263,-0.01791627730480431,0.8989767795335754,-0.0005956108306642727,-0.104269,-34.930247
11.185,2.0,1.0,1.0,34.0,33.0,33.0,4.0,3.0,2.6475,0.4009751008672063,-0.018181857605980366,0.9028745087885314,-0.0007964369221705629,-0.105665,-34.79891
11.185,2.0,1.0,1.0,34.0,33.0,33.0,4.0,3.0,2.65,0.3918259847760789,-0.018450495980750183,0.9067059429564184,-0.0010043741400757136,-0.107089,-34.666989
11.185,2.0,1.0,1.0,34.0,33.0,33.0,4.0,3.0,2.6525,0.38257379422275395,-0.018722192573346213,0.9104690550040404,-0.0012196463234949606,-0.108544,-34.534474
11.185,2.0,1.0,1.0,34.0,33.0,33.0,4.0,3.0,2.655,0.373217802394052,-0.018996945007399794,0.9141617639126827,-0.0014424847716168164,-0.110028,-34.401356
11.185,2.0,1.0,1.0,34.0,33.0,33.0,4.0,3.0,2.6575,0.3637572956633381,-0.019274748204760255,0.9177819333928664,-0.0016731285137912702,-0.111544,-34.267624
11.185,2.0,1.0,1.0,34.0,33.0,33.0,4.0,3.0,2.66,0.3541915748812456,-0.019555594193462963,0.9213273705792687,-0.0019118245904323607,-0.113092,-34.133268
11.185,2.0,1.0,1.0,34.0,33.0,33.0,4.0,3.0,2.6625,0.3445199567325027,-0.019839471904207085,0.9247958247062339,-0.0021588283452518837,-0.114672,-33.998277
11.185,2.0,1.0,1.0,34.0,33.0,33.0,4.0,3.0,2.665,0.3347417751616225,-0.020126366954664528,0.928184985764384,-0.002414403729374432,-0.116286,-33.862639
11.185,2.0,1.0,1.0,34.0,33.0,33.0,4.0,3.0,2.6675,0.32485638287037544,-0.020416261420896264,0.9314924831388732,-0.002678823617919676,-0.117935,-33.726343
11.185,2.0,1.0,1.0,34.0,33.0,33.0,4.0,3.0,2.67,0.31486315289000566,-0.020709133595106927,0.9347158842299284,-0.002952370139675004,-0.119619,-33.589379
11.185,2.0,1.0,1.0,34.0,33.0,33.0,4.0,3.0,2.6725,0.3047614802312852,-0.02100495772891673,0.9378526930563685,-0.0032353350205254635,-0.12134,-33.451733
11.185,2.0,1.0,1.0,34.0,33.0,33.0,4.0,3.0,2.675,0.2945507836156149,-0.021303703761275897,0.9409003488428803,-0.0035280199413532855,-0.123098,-33.313395
11.185,2.0,1.0,1.0,34.0,33.0,33.0,4.0,3.0,2.6775,0.2842305072904591,-0.021605337030086706,0.9438562245918999,-0.0038307369111672896,-0.124895,-33.174352
11.185,2.0,1.0,1.0,34.0,33.0,33.0,4.0,3.0,2.68,0.2738001229325327,-0.021909817966536075,0.9467176256410355,-0.004143808656280348,-0.126731,-33.03459
11.185,2.0,1.0,1.0,34.0,33.0,33.0,4.0,3.0,2.6825,0.26325913164227904,-0.02221710177106992,0.9494817882070422,-0.004467569026407496,-0.128608,-32.894098
11.185,2.0,1.0,1.0,34.0,33.0,33.0,4.0,3.0,2.685,0.2526070660332643,-0.022527138069867437,0.952145877917454,-0.0048023634186275446,-0.130527,-32.752863
11.185,2.0,1.0,1.0,34.0,33.0,33.0,4.0,3.0,2.6875,0.241843492420266,-0.02283987055059,0.954706988331058,-0.00514854922021613,-0.13249,-32.610869
11.185,2.0,1.0,1.0,34.0,33.0,33.0,4.0,3.0,2.69,0.23096801310994727,-0.023155236576091046,0.9571621394484862,-0.005506496271438867,-0.134497,-32.468104
11.185,2.0,1.0,1.0,34.0,33.0,33.0,4.0,3.0,2.6925,0.21998026879811206,-0.02347316677467602,0.9595082762142997,-0.005876587349478671,-0.13655,-32.324554
11.185,2.0,1.0,1.0,34.0,33.0,33.0,4.0,3.0,2.695,0.20887994107771915,-0.023793584605394574,0.9617422670120146,-0.006259218674758475,-0.138649,-32.180204
11.185,2.0,1.0,1.0,34.0,33.0,33.0,4.0,3.0,2.6975,0.19766675506189854,-0.02411640589673185,0.9638609021536302,-0.006654800441029448,-0.140798,-32.035038
11.185,2.0,1.0,1.0,34.0,33.0,33.0,4.0,3.0,2.7,0.18634048212642973,-0.024441538356937687,0.965860892365297,-0.00706375737070066,-0.142996,-31.889041
11.185,2.0,1.0,1.0,34.0,33.0,33.0,4.0,3.0,2.7025,0.17490094277621715,-0.024768881054093188,0.9677388672708576,-0.007486529297010458,-0.145246,-31.742198
11.185,2.0,1.0,1.0,34.0,33.0,33.0,4.0,3.0,2.705,0.1633480096405077,-0.025098323863859486,0.9694913738750818,-0.007923571774774235,-0.14755,-31.594493
11.185,2.0,1.0,1.0,34.0,33.0,33.0,4.0,3.0,2.7075,0.151681610601708,-0.025429746882685973,0.9711148750485007,-0.008375356721589972,-0.149908,-31.445907
11.185,2.0,1.0,1.0,34.0,33.0,33.0,4.0,3.0,2.71,0.13990173206286574,-0.025763019804065798,0.9726057480158228,-0.008842373091544646,-0.152322,-31.296425
11.185,2.0,1.0,1.0,34.0,33.0,33.0,4.0,3.0,2.7125,0.12800842235901663,-0.026098001255223956,0.9739602828499946,-0.009325127583646167,-0.154795,-31.146028
11.185,2.0,1.0,1.0,34.0,33.0,33.0,4.0,3.0,2.715,0.11600179531781733,-0.02643453809139076,0.9751746809740219,-0.009824145387395757,-0.157329,-30.994698
11.185,2.0,1.0,1.0,34.0,33.0,33.0,4.0,3.0,2.7175,0.10388203397506021,-0.026772464644564477,0.9762450536727422,-0.01033997096813865,-0.159924,-30.842416
11.185,2.0,1.0,1.0,34.0,33.0,33.0,4.0,3.0,2.72,0.09164939445090349,-0.027111601923382956,0.977167420616761,-0.01087316889506342,-0.162584,-30.689162
11.185,2.0,1.0,1.0,34.0,33.0,33.0,4.0,3.0,2.7225,0.07930420999283459,-0.027451756760415013,0.9779377084008151,-0.011424324714987657,-0.16531,-30.534917
11.185,2.0,1.0,1.0,34.0,33.0,33.0,4.0,3.0,2.725,0.06684689519170671,-0.027792720902831376,0.9785517490988214,-0.011994045875350976,-0.168105,-30.379659
11.185,2.0,1.0,1.0,34.0,33.0,33.0,4.0,3.0,2.7275,0.05427795037736553,-0.028134270042031607,0.9790052788378721,-0.01258296270016319,-0.17097,-30.223367
11.185,2.0,1.0,1.0,34.0,33.0,33.0,4.0,3.0,2.73,0.04159796620077775,-0.02847616277736673,0.979293936393402,-0.01319172942299946,-0.17391,-30.066019
11.185,2.0,1.0,1.0,34.0,33.0,33.0,4.0,3.0,2.7325,0.028807628409819597,-0.028818139508616267,0.979413261807688,-0.013821025281529597,-0.176925,-29.907591
11.185,2.0,1.0,1.0,34.0,33.0,33.0,4.0,3.0,2.735,0.015907722826312663,-0.029159921251335284,0.9793586950337527,-0.014471555678495096,-0.180019,-29.74806
11.185,2.0,1.0,1.0,34.0,33.0,33.0,4.0,3.0,2.7375,0.002899140532257265,-0.029501208368578273,0.9791255746066149,-0.015144053414519283,-0.183194,-29.587401
11.185,2.0,1.0,1.0,34.0,33.0,33.0,4.0,3.0,2.74,-0.010217116726294575,-0.029841679211825397,0.9787091363436458,-0.015839279998665568,-0.186454,-29.425589
11.185,2.0,1.0,1.0,34.0,33.0,33.0,4.0,3.0,2.7425,-0.02343993090879048,-0.030180988663166645,0.9781045120755717,-0.016558027043232088,-0.189801,-29.262595
11.185,2.0,1.0,1.0,34.0,33.0,33.0,4.0,3.0,2.745,-0.036768061813616755,-0.030518766569935067,0.9773067284093808,-0.01730111774991485,-0.19324,-29.098394
11.185,2.0,1.0,1.0,34.0,33.0,33.0,4.0,3.0,2.7475,-0.05020014096521324,-0.030854616062002602,0.9763107055240401,-0.01806940849517719,-0.196772,-28.932956
11.185,2.0,1.0,1.0,34.0,33.0,33.0,4.0,3.0,2.75,-0.0637346652439143,-0.0311881117408499,0.975111255999508,-0.0188637905234482,-0.200403,-28.766251
11.185,2.0,1.0,1.0,34.0,33.0,33.0,4.0,3.0,2.7525,-0.07736999024665257,-0.03151879772827208,0.9737030836790236,-0.019685191757637912,-0.204135,-28.598248
11.185,2.0,1.0,1.0,34.0,33.0,33.0,4.0,3.0,2.755,-0.09110432336567618,-0.03184618556116913,0.9720807825640484,-0.0205345787374148,-0.207973,-28.428914
11.185,2.0,1.0,1.0,34.0,33.0,33.0,4.0,3.0,2.7575,-0.10493571657128262,-0.03216975191726452,0.9702388357405246,-0.021412958696756884,-0.211921,-28.258216
11.185,2.0,1.0,1.0,34.0,33.0,33.0,4.0,3.0,2.76,-0.11886205888317677,-0.0324889361547726,0.9681716143342914,-0.022321381793456115,-0.215983,-28.086119
11.185,2.0,1.0,1.0,34.0,33.0,33.0,4.0,3.0,2.7625,-0.1328810685135756,-0.0328031376469604,0.9658733764925106,-0.023260943504561142,-0.220165,-27.912585
11.185,2.0,1.0,1.0,34.0,33.0,33.0,4.0,3.0,2.765,-0.14699028466330918,-0.03311171289018654,0.9633382663868655,-0.024232787203183212,-0.224471,-27.737576
11.185,2.0,1.0,1.0,34.0,33.0,33.0,4.0,3.0,2.7675,-0.16118705895011295,-0.033413972361300275,0.960560313232964,-0.02523810693368173,-0.228906,-27.561052
11.185,2.0,1.0,1.0,34.0,33.0,33.0,4.0,3.0,2.77,-0.17546854644586707,-0.03370917709720279,0.9575334303189115,-0.026278150404016272,-0.233477,-27.382972
11.185,2.0,1.0,1.0,34.0,33.0,33.0,4.0,3.0,2.7725,-0.18983169629666663,-0.03399653496584133,0.95425141403432,-0.027354222216003934,-0.238189,-27.20329
11.185,2.0,1.0,1.0,34.0,33.0,33.0,4.0,3.0,2.775,-0.20427324189632567,-0.03427519659386228,0.9507079428890546,-0.028467687356387446,-0.243049,-27.021961
11.185,2.0,1.0,1.0,34.0,33.0,33.0,4.0,3.0,2.7775,-0.2187896905800242,-0.03454425091150265,0.946896576508838,-0.029619974974013356,-0.248063,-26.838937
11.185,2.0,1.0,1.0,34.0,33.0,33.0,4.0,3.0,2.78,-0.23337731280031104,-0.034802720269957184,0.9428107545922937,-0.030812582471072915,-0.253239,-26.654167
11.185,2.0,1.0,1.0,34.0,33.0,33.0,4.0,3.0,2.7825,-0.2480321307423359,-0.035049555080302615,0.9384437958112205,-0.03204707993928817,-0.258584,-26.467597
11.185,2.0,1.0,1.0,34.0,33.0,33.0,4.0,3.0,2.785,-0.2627499063290713,-0.03528362791595996,0.9337888966326382,-0.0333251149751634,-0.264107,-26.279173
11.185,2.0,1.0,1.0,34.0,33.0,33.0,4.0,3.0,2.7875,-0.2775261285599196,-0.03550372701246456,0.9288391300376058,-0.03464841791200237,-0.269817,-26.088835
11.185,2.0,1.0,1.0,34.0,33.0,33.0,4.0,3.0,2.79,-0.2923560001176799,-0.03570854908880818,0.9235874441077428,-0.03601880751033437,-0.275723,-25.896522
11.185,2.0,1.0,1.0,34.0,33.0,33.0,4.0,3.0,2.7925,-0.3072344231687525,-0.035896691403590246,0.9180266604459009,-0.03743819715273491,-0.281835,-25.702169
11.185,2.0,1.0,1.0,34.0,33.0,33.0,4.0,3.0,2.795,-0.32215598426978254,-0.036066642946396235,0.9121494723923989,-0.03890860159380808,-0.288164,-25.505707
11.185,2.0,1.0,1.0,34.0,33.0,33.0,4.0,3.0,2.7975,-0.33711493827998473,-0.03621677464989606,0.9059484429926624,-0.04043214432132815,-0.294723,-25.307064
11.185,2.0,1.0,1.0,34.0,33.0,33.0,4.0,3.0,2.8,-0.35210519116217726,-0.036345328490739334,0.899416002665933,-0.042011065590272005,-0.301522,-25.106164
11.185,2.0,1.0,1.0,34.0,33.0,33.0,4.0,3.0,2.8025,-0.3671202815362184,-0.03645040532696087,0.8925444465178982,-0.043647731197718496,-0.308578,-24.902927
11.185,2.0,1.0,1.0,34.0,33.0,33.0,4.0,3.0,2.805,-0.38215336082579315,-0.036529951295749985,0.8853259312326724,-0.0453446420733481,-0.315903,-24.697268
11.185,2.0,1.0,1.0,34.0,33.0,33.0,4.0,3.0,2.8075,-0.3971971718125792,-0.03658174256742303,0.8777524714714049,-0.0471044447675878,-0.323514,-24.489097
11.185,2.0,1.0,1.0,34.0,33.0,33.0,4.0,3.0,2.81,-0.41224402537990557,-0.03660336821846643,0.8698159356960408,-0.04892994292724493,-0.331429,-24.27832
11.185,2.0,1.0,1.0,34.0,33.0,33.0,4.0,3.0,2.8125,-0.42728577519009825,-0.036592210947631085,0.8615080413273656,-0.05082410985673358,-0.339666,-24.064835
11.185,2.0,1.0,1.0,34.0,33.0,33.0,4.0,3.0,2.815,-0.44231378999471904,-0.03654542531307867,0.8528203491365296,-0.05279010227163838,-0.348246,-23.848538
11.185,2.0,1.0,1.0,34.0,33.0,33.0,4.0,3.0,2.8175,-0.45731892322320217,-0.03645991311409006,0.8437442567589164,-0.054831275360193145,-0.357192,-23.629314
11.185,2.0,1.0,1.0,34.0,33.0,33.0,4.0,3.0,2.82,-0.47229147943139066,-0.03633229547610595,0.8342709912087403,-0.05695119927706672,-0.366527,-23.407043
11.185,2.0,1.0,1.0,34.0,33.0,33.0,4.0,3.0,2.8225,-0.4872211771148854,-0.03615888112075727,0.8243916002624255,-0.05915367720227556,-0.376278,-23.1816
11.185,2.0,1.0,1.0,34.0,33.0,33.0,4.0,3.0,2.825,-0.5020971073003805,-0.035935630210458244,0.8140969425692055,-0.061442765105547505,-0.386476,-22.952848
11.185,2.0,1.0,1.0,34.0,33.0,33.0,4.0,3.0,2.8275,-0.5169076872179743,-0.03565811304687858,0.803377676339186,-0.06382279336229318,-0.397151,-22.720645
