1,w,sub_t,h,l1,l2,l3,g1,g2,Freq,S11_re,S21_re,S11_img,S21_img,S11_dB,S21_dB
11.185,2.0,1.0,1.0,33.0,34.5,34.5,1.5,2.5,2.5,0.89165819528487,-0.0116338267276292,0.435873685266886,0.0143186917574354,-0.06546,-34.680476
11.185,2.0,1.0,1.0,33.0,34.5,34.5,1.5,2.5,2.5025,0.8887354811922534,-0.011926846224780855,0.4415997674882013,0.014463886533996698,-0.06625,-34.541319
11.185,2.0,1.0,1.0,33.0,34.5,34.5,1.5,2.5,2.505,0.8857603319652819,-0.012227051575784317,0.4473327022477036,0.014610120037014944,-0.067058,-34.401455
11.185,2.0,1.0,1.0,33.0,34.5,34.5,1.5,2.5,2.5075,0.8827320583412747,-0.012534656421645288,0.4530723955200542,0.014757382116617103,-0.067885,-34.260869
11.185,2.0,1.0,1.0,33.0,34.5,34.5,1.5,2.5,2.51,0.8796499538342039,-0.012849882432124234,0.4588187483535473,0.014905661055481087,-0.068731,-34.119545
11.185,2.0,1.0,1.0,33.0,34.5,34.5,1.5,2.5,2.5125,0.8765132941559972,-0.013172959670523302,0.4645716566127913,0.01505494344727904,-0.069597,-33.977466
11.185,2.0,1.0,1.0,33.0,34.5,34.5,1.5,2.5,2.515,0.8733213366123318,-0.013504126977918062,0.47033101070699507,0.015205214065962662,-0.070484,-33.834615
11.185,2.0,1.0,1.0,33.0,34.5,34.5,1.5,2.5,2.5175,0.8700733194715231,-0.013843632378019544,0.47609669530288234,0.015356455725156872,-0.071393,-33.690975
11.185,2.0,1.0,1.0,33.0,34.5,34.5,1.5,2.5,2.52,0.8667684613050084,-0.01419173350393957,0.4818685890212239,0.015508649126863264,-0.072323,-33.546529
11.185,2.0,1.0,1.0,33.0,34.5,34.5,1.5,2.5,2.5225,0.8634059602978467,-0.014548698048217543,0.48764656411584434,0.015661772698605053,-0.073276,-33.401259
11.185,2.0,1.0,1.0,33.0,34.5,34.5,1.5,2.5,2.525,0.8599849935275272,-0.014914804237562628,0.49343048613392576,0.015815802418069305,-0.074253,-33.255146
11.185,2.0,1.0,1.0,33.0,34.5,34.5,1.5,2.5,2.5275,0.8565047162092828,-0.015290341333870043,0.4992202135562959,0.015970711624215865,-0.075255,-33.108171
11.185,2.0,1.0,1.0,33.0,34.5,34.5,1.5,2.5,2.53,0.8529642609059835,-0.015675610163173318,0.5050155974162934,0.016126470813733328,-0.076282,-32.960316
11.185,2.0,1.0,1.0,33.0,34.5,34.5,1.5,2.5,2.5325,0.8493627367005443,-0.01607092367432341,0.5108164808956911,0.016283047421616986,-0.077335,-32.811561
11.185,2.0,1.0,1.0,33.0,34.5,34.5,1.5,2.5,2.535,0.8456992283286446,-0.016476607529304025,0.5166226988960299,0.016440405584536206,-0.078415,-32.661886
11.185,2.0,1.0,1.0,33.0,34.5,34.5,1.5,2.5,2.5375,0.8419727952694163,-0.016893000727237387,0.5224340775835694,0.016598505885532036,-0.079524,-32.51127
11.185,2.0,1.0,1.0,33.0,34.5,34.5,1.5,2.5,2.54,0.8381824707915766,-0.017320456264281008,0.5282504339059215,0.01675730507845502,-0.080662,-32.359693
11.185,2.0,1.0,1.0,33.0,34.5,34.5,1.5,2.5,2.5425,0.8343272609523168,-0.01775934183177859,0.5340715750782609,0.01691675579040084,-0.08183,-32.207132
11.185,2.0,1.0,1.0,33.0,34.5,34.5,1.5,2.5,2.545,0.830406143546067,-0.018210040555201323,0.5398972980368222,0.01707680620024061,-0.083029,-32.053566
11.185,2.0,1.0,1.0,33.0,34.5,34.5,1.5,2.5,2.5475,0.8264180670000534,-0.018672951776607254,0.5457273888571874,0.017237399691159196,-0.084261,-31.898972
11.185,2.0,1.0,1.0,33.0,34.5,34.5,1.5,2.5,2.55,0.8223619492133297,-0.01914849188354741,0.5515616221346707,0.017398474474918553,-0.085527,-31.743327
11.185,2.0,1.0,1.0,33.0,34.5,34.5,1.5,2.5,2.5525,0.8182366763357574,-0.019637095187567455,0.557399760323821,0.017559963185339488,-0.086828,-31.586607
11.185,2.0,1.0,1.0,33.0,34.5,34.5,1.5,2.5,2.555,0.8140411014831093,-0.020139214855699666,0.5632415530338428,0.017721792438253572,-0.088165,-31.428787
11.185,2.0,1.0,1.0,33.0,34.5,34.5,1.5,2.5,2.5575,0.8097740433842247,-0.020655323898588575,0.5690867362764103,0.017883882354907368,-0.08954,-31.269844
11.185,2.0,1.0,1.0,33.0,34.5,34.5,1.5,2.5,2.56,0.8054342849558311,-0.021185916219182765,0.5749350316620263,0.018046146045500384,-0.090955,-31.10975
11.185,2.0,1.0,1.0,33.0,34.5,34.5,1.5,2.5,2.5625,0.801020571800314,-0.0217315077262255,0.580786145540726,0.0182084890492095,-0.09241,-30.948479
11.185,2.0,1.0,1.0,33.0,34.5,34.5,1.5,2.5,2.565,0.7965316106213712,-0.02229263751710809,0.5866397680825313,0.01837080872668273,-0.093909,-30.786006
11.185,2.0,1.0,1.0,33.0,34.5,34.5,1.5,2.5,2.5675,0.7919660675521071,-0.022869869135006854,0.5924955722925934,0.018532993600579264,-0.095451,-30.6223
11.185,2.0,1.0,1.0,33.0,34.5,34.5,1.5,2.5,2.57,0.7873225663896907,-0.023463791905614255,0.5983532129555107,0.018694922639276704,-0.09704,-30.457335
11.185,2.0,1.0,1.0,33.0,34.5,34.5,1.5,2.5,2.5725,0.7825996867302694,-0.02407502235919658,0.6042123255027367,0.018856464478363734,-0.098678,-30.291081
11.185,2.0,1.0,1.0,33.0,34.5,34.5,1.5,2.5,2.575,0.7777959619973278,-0.02470420574416758,0.610072524796404,0.0190174765739722,-0.100365,-30.123506
11.185,2.0,1.0,1.0,33.0,34.5,34.5,1.5,2.5,2.5775,0.7729098773561601,-0.025352017638866974,0.6159334038222172,0.019177804281377758,-0.102105,-29.954581
11.185,2.0,1.0,1.0,33.0,34.5,34.5,1.5,2.5,2.58,0.767939867506545,-0.026019165668772506,0.6217945322833194,0.019337279851596074,-0.1039,-29.784273
11.185,2.0,1.0,1.0,33.0,34.5,34.5,1.5,2.5,2.5825,0.7628843143450791,-0.026706391336963137,0.6276554550862171,0.01949572133792309,-0.105752,-29.612549
11.185,2.0,1.0,1.0,33.0,34.5,34.5,1.5,2.5,2.585,0.7577415444879665,-0.027414471976289937,0.6335156907089086,0.01965293140349185,-0.107663,-29.439375
11.185,2.0,1.0,1.0,33.0,34.5,34.5,1.5,2.5,2.5875,0.752509826644297,-0.028144222832408517,0.6393747294403358,0.019808696019941254,-0.109637,-29.264716
11.185,2.0,1.0,1.0,33.0,34.5,34.5,1.5,2.5,2.59,0.7471873688290741,-0.028896499287581128,0.6452320314791207,0.019962783046195427,-0.111676,-29.088537
11.185,2.0,1.0,1.0,33.0,34.5,34.5,1.5,2.5,2.5925,0.7417723154043538,-0.029672199235979326,0.6510870248782544,0.020114940675124197,-0.113784,-28.910799
11.185,2.0,1.0,1.0,33.0,34.5,34.5,1.5,2.5,2.595,0.7362627439359438,-0.03047226562211736,0.6569391033209497,0.020264895734472103,-0.115963,-28.731465
11.185,2.0,1.0,1.0,33.0,34.5,34.5,1.5,2.5,2.5975,0.7306566618520398,-0.03129768915501458,0.6627876237112561,0.020412351826893514,-0.118217,-28.550494
11.185,2.0,1.0,1.0,33.0,34.5,34.5,1.5,2.5,2.6,0.7249520028891041,-0.03214951121174781,0.6686319035611958,0.02055698729218217,-0.12055,-28.367847
11.185,2.0,1.0,1.0,33.0,34.5,34.5,1.5,2.5,2.6025,0.719146623309054,-0.033028826945206105,0.674471218154124,0.02069845297281473,-0.122965,-28.183481
11.185,2.0,1.0,1.0,33.0,34.5,34.5,1.5,2.5,2.605,0.7132382978705011,-0.03393678861210834,0.6803047974617144,0.020836369761707146,-0.125467,-27.997352
11.185,2.0,1.0,1.0,33.0,34.5,34.5,1.5,2.5,2.6075,0.7072247155353798,-0.03487460913871152,0.6861318227893466,0.020970325908572205,-0.12806,-27.809415
11.185,2.0,1.0,1.0,33.0,34.5,34.5,1.5,2.5,2.61,0.7011034748907249,-0.03584356594310393,0.6919514231217304,0.021099874058428864,-0.130748,-27.619625
11.185,2.0,1.0,1.0,33.0,34.5,34.5,1.5,2.5,2.6125,0.6948720792636869,-0.03684500503458933,0.6977626711372786,0.021224527992599652,-0.133537,-27.427932
11.185,2.0,1.0,1.0,33.0,34.5,34.5,1.5,2.5,2.615,0.6885279315060403,-0.03788034541239869,0.70356457885596,0.021343759038888816,-0.136431,-27.234287
11.185,2.0,1.0,1.0,33.0,34.5,34.5,1.5,2.5,2.6175,0.6820683284224811,-0.03895108378784842,0.70935609288109,0.021456992113496397,-0.139438,-27.038639
11.185,2.0,1.0,1.0,33.0,34.5,34.5,1.5,2.5,2.62,0.6754904548148594,-0.04005879965609302,0.7151360891906654,0.021563601352519817,-0.142561,-26.840934
11.185,2.0,1.0,1.0,33.0,34.5,34.5,1.5,2.5,2.6225,0.6687913771121988,-0.04120516074581899,0.7209033674283468,0.021662905285541163,-0.145809,-26.641117
11.185,2.0,1.0,1.0,33.0,34.5,34.5,1.5,2.5,2.625,0.661968036553888,-0.0423919288775725,0.726656644637881,0.0217541614976967,-0.149188,-26.439131
11.185,2.0,1.0,1.0,33.0,34.5,34.5,1.5,2.5,2.6275,0.6550172418907453,-0.043620966263966686,0.7323945483776421,0.021836560719656364,-0.152705,-26.234916
11.185,2.0,1.0,1.0,33.0,34.5,34.5,1.5,2.5,2.63,0.647935661565839,-0.044894242287696506,0.7381156091437584,0.021909220276983717,-0.156369,-26.028412
11.185,2.0,1.0,1.0,33.0,34.5,34.5,1.5,2.5,2.6325,0.6407198153338998,-0.04621384079620027,0.743818252020977,0.021971176821225936,-0.160187,-25.819554
11.185,2.0,1.0,1.0,33.0,34.5,34.5,1.5,2.5,2.635,0.6333660652749458,-0.04758196795483724,0.7495007874697054,0.022021378254643727,-0.16417,-25.608277
11.185,2.0,1.0,1.0,33.0,34.5,34.5,1.5,2.5,2.6375,0.6258706061543735,-0.049000960703685474,0.7551614011454003,0.022058674748487387,-0.168327,-25.39451
11.185,2.0,1.0,1.0,33.0,34.5,34.5,1.5,2.5,2.64,0.6182294550781929,-0.05047329586640177,0.7607981426324056,0.02208180874094646,-0.172669,-25.178184
11.185,2.0,1.0,1.0,33.0,34.5,34.5,1.5,2.5,2.6425,0.6104384403884673,-0.05200159996305461,0.7664089129580975,0.022089403785011407,-0.177208,-24.959224
11.185,2.0,1.0,1.0,33.0,34.5,34.5,1.5,2.5,2.645,0.6024931897402512,-0.05358865978234929,0.7719914507345483,0.022079952098185883,-0.181955,-24.737553
11.185,2.0,1.0,1.0,33.0,34.5,34.5,1.5,2.5,2.6475,0.594389117297601,-0.05523743377217885,0.7775433167533606,0.0220518006448351,-0.186925,-24.51309
11.185,2.0,1.0,1.0,33.0,34.5,34.5,1.5,2.5,2.65,0.5861214099825519,-0.05695106431081878,0.7830618768344282,0.022003135557500813,-0.192132,-24.285752
11.185,2.0,1.0,1.0,33.0,34.5,34.5,1.5,2.5,2.6525,0.5776850127075864,-0.05873289092423995,0.788544282700525,0.021931964675175143,-0.197593,-24.055452
11.185,2.0,1.0,1.0,33.0,34.5,34.5,1.5,2.5,2.655,0.5690746125190129,-0.06058646451774414,0.7939874506162351,0.021836097943648908,-0.203324,-23.8221
11.185,2.0,1.0,1.0,33.0,34.5,34.5,1.5,2.5,2.6575,0.5602846215763659,-0.06251556269216983,0.79938803749089,0.021713125384846994,-0.209344,-23.585601
11.185,2.0,1.0,1.0,33.0,34.5,34.5,1.5,2.5,2.66,0.5513091588914837,-0.0645242062159863,0.8047424141000477,0.021560392297595394,-0.215674,-23.345857
11.185,2.0,1.0,1.0,33.0,34.5,34.5,1.5,2.5,2.6625,0.5421420307509426,-0.06661667672421237,0.810046635027443,0.02137497130043847,-0.222336,-23.102765
11.185,2.0,1.0,1.0,33.0,34.5,34.5,1.5,2.5,2.665,0.5327767097474538,-0.06879753571272589,0.8152964048679956,0.021153630766619504,-0.229355,-22.856219
11.185,2.0,1.0,1.0,33.0,34.5,34.5,1.5,2.5,2.6675,0.5232063123505699,-0.07107164489139303,0.8204870401607289,0.020892799130600517,-0.236758,-22.606106
11.185,2.0,1.0,1.0,33.0,34.5,34.5,1.5,2.5,2.67,0.5134235749553967,-0.07344418795057041,0.8256134264365791,0.020588524462683448,-0.244573,-22.352311
11.185,2.0,1.0,1.0,33.0,34.5,34.5,1.5,2.5,2.6725,0.5034208283614554,-0.07592069378160382,0.8306699696677174,0.020236428611195886,-0.252834,-22.09471
11.185,2.0,1.0,1.0,33.0,34.5,34.5,1.5,2.5,2.675,0.4931899706539679,-0.07850706117126456,0.8356505412896266,0.01983165509772332,-0.261575,-21.833178
11.185,2.0,1.0,1.0,33.0,34.5,34.5,1.5,2.5,2.6775,0.4827224384889027,-0.08120958496041299,0.8405484158315971,0.019368809816889498,-0.270835,-21.56758
11.185,2.0,1.0,1.0,33.0,34.5,34.5,1.5,2.5,2.68,0.4720091768240652,-0.08403498361561745,0.8453562000318212,0.018841893434537356,-0.280659,-21.297778
11.185,2.0,1.0,1.0,33.0,34.5,34.5,1.5,2.5,2.6825,0.46104060719517315,-0.08699042810517972,0.850065752125472,0.01824422419247224,-0.291093,-21.023627
11.185,2.0,1.0,1.0,33.0,34.5,34.5,1.5,2.5,2.685,0.44980659471318085,-0.09008357189300673,0.8546680897728545,0.01756834960904948,-0.302191,-20.744973
11.185,2.0,1.0,1.0,33.0,34.5,34.5,1.5,2.5,2.6875,0.438296414063753,-0.0933225817584951,0.859153284833747,0.0168059453067148,-0.314012,-20.461657
11.185,2.0,1.0,1.0,33.0,34.5,34.5,1.5,2.5,2.69,0.42649871493034935,-0.09671616900938687,0.8635103428862363,0.015947698893047486,-0.326621,-20.173513
11.185,2.0,1.0,1.0,33.0,34.5,34.5,1.5,2.5,2.6925,0.4144014874500838,-0.10027362046622937,0.867727065025279,0.014983176462535056,-0.340091,-19.880367
11.185,2.0,1.0,1.0,33.0,34.5,34.5,1.5,2.5,2.695,0.40199202856147265,-0.10400482834666247,0.8717898890481521,0.013900668862679922,-0.354504,-19.582035
11.185,2.0,1.0,1.0,33.0,34.5,34.5,1.5,2.5,2.6975,0.3892569104346391,-0.10792031784588473,0.8756837066298604,0.012687014369063703,-0.369951,-19.278327
11.185,2.0,1.0,1.0,33.0,34.5,34.5,1.5,2.5,2.7,0.37618195261364573,-0.11203127077050536,0.8793916524988944,0.01132739382741778,-0.386536,-18.969042
11.185,2.0,1.0,1.0,33.0,34.5,34.5,1.5,2.5,2.7025,0.36275220008098535,-0.11634954300282299,0.8828948609289509,0.009805093633076446,-0.404375,-18.653972
11.185,2.0,1.0,1.0,33.0,34.5,34.5,1.5,2.5,2.705,0.3489519102210058,-0.12088767280667627,0.886172184050867,0.00810123111527396,-0.423599,-18.332899
11.185,2.0,1.0,1.0,33.0,34.5,34.5,1.5,2.5,2.7075,0.33476455267107413,-0.12565887597553613,0.889199865547032,0.006194435961705878,-0.444355,-18.005596
11.185,2.0,1.0,1.0,33.0,34.5,34.5,1.5,2.5,2.71,0.3201728273848516,-0.13067702249068988,0.8919511622055246,0.004060480245566036,-0.466813,-17.671824
11.185,2.0,1.0,1.0,33.0,34.5,34.5,1.5,2.5,2.7125,0.3051587079940138,-0.13595658759968784,0.894395904575668,0.0016718483956697137,-0.491165,-17.331338
11.185,2.0,1.0,1.0,33.0,34.5,34.5,1.5,2.5,2.715,0.2897035198791225,-0.14151256790745964,0.896499986582325,-0.0010027629175679532,-0.51763,-16.983882
11.185,2.0,1.0,1.0,33.0,34.5,34.5,1.5,2.5,2.7175,0.2737880654257716,-0.14736035001680248,0.8982247724419178,-0.003999026502381285,-0.546458,-16.62919
11.185,2.0,1.0,1.0,33.0,34.5,34.5,1.5,2.5,2.72,0.2573928129833797,-0.1535155152278468,0.8995264076265952,-0.007357661067859209,-0.57794,-16.26699
11.185,2.0,1.0,1.0,33.0,34.5,34.5,1.5,2.5,2.7225,0.24049817136749643,-0.1599935585028586,0.9003550190398963,-0.011125217000229495,-0.612409,-15.897002
11.185,2.0,1.0,1.0,33.0,34.5,34.5,1.5,2.5,2.725,0.22308487875025812,-0.16680949292774608,0.9006537881704599,-0.015354987511346833,-0.65025,-15.51894
11.185,2.0,1.0,1.0,33.0,34.5,34.5,1.5,2.5,2.7275,0.20513454397845154,-0.1739773017472046,0.9003578800746604,-0.020108062058389952,-0.691913,-15.132517
11.185,2.0,1.0,1.0,33.0,34.5,34.5,1.5,2.5,2.73,0.18663039039207693,-0.18150918807353159,0.8993932110897948,-0.02545453884468053,-0.737918,-14.737445
11.185,2.0,1.0,1.0,33.0,34.5,34.5,1.5,2.5,2.7325,0.16755826788960912,-0.18941455677418959,0.8976750399753144,-0.031474911375473806,-0.78888,-14.33344
11.185,2.0,1.0,1.0,33.0,34.5,34.5,1.5,2.5,2.735,0.14790801925988842,-0.19769864287757288,0.8951063719462184,-0.03826163923701608,-0.845515,-13.92023
11.185,2.0,1.0,1.0,33.0,34.5,34.5,1.5,2.5,2.7375,0.12767531276218116,-0.20636067502266428,0.8915761746977986,-0.04592090360076578,-0.908672,-13.49756
11.185,2.0,1.0,1.0,33.0,34.5,34.5,1.5,2.5,2.74,0.1068640856980931,-0.21539142991665886,0.8869574229180526,-0.054574530544475655,-0.979354,-13.065206
11.185,2.0,1.0,1.0,33.0,34.5,34.5,1.5,2.5,2.7425,0.0854897841758541,-0.22476999357641572,0.881105017285661,-0.06436203580399139,-1.058753,-12.622984
11.185,2.0,1.0,1.0,33.0,34.5,34.5,1.5,2.5,2.745,0.06358363259795916,-0.23445949715329487,0.8738536719546091,-0.07544269665674526,-1.148293,-12.170771
11.185,2.0,1.0,1.0,33.0,34.5,34.5,1.5,2.5,2.7475,0.041198221123449195,-0.24440154087707888,0.865015940238863,-0.08799748113050372,-1.249678,-11.708528
11.185,2.0,1.0,1.0,33.0,34.5,34.5,1.5,2.5,2.75,0.0184147556166788,-0.25450896396266,0.854380664470209,-0.102230548864343,-1.364955,-11.236326
11.185,2.0,1.0,1.0,33.0,34.5,34.5,1.5,2.5,2.7525,-0.004647638742253834,-0.2646565723313995,0.8417123098936756,-0.1183698647494775,-1.496594,-10.754389
11.185,2.0,1.0,1.0,33.0,34.5,34.5,1.5,2.5,2.755,-0.027820154132721927,-0.27466942184412346,0.8267518950703319,-0.13666621502109133,-1.647581,-10.263137
11.185,2.0,1.0,1.0,33.0,34.5,34.5,1.5,2.5,2.7575,-0.050869728435799885,-0.2843083128142447,0.8092205851475025,-0.1573895634008123,-1.821533,-9.76325
11.185,2.0,1.0,1.0,33.0,34.5,34.5,1.5,2.5,2.76,-0.07348151537983308,-0.2932523505886591,0.7888274861359825,-0.1808212158564003,-2.022836,-9.25574
11.185,2.0,1.0,1.0,33.0,34.5,34.5,1.5,2.5,2.7625,-0.09523869612083173,-0.30107887582771525,0.7652837615996467,-0.20723968320589167,-2.256804,-8.74204
11.185,2.0,1.0,1.0,33.0,34.5,34.5,1.5,2.5,2.765,-0.11560079077239521,-0.30724192450609145,0.7383258249355509,-0.23689750423529,-2.529857,-8.224115
11.185,2.0,1.0,1.0,33.0,34.5,34.5,1.5,2.5,2.7675,-0.13388309716408103,-0.3110518406617888,0.7077508631502801,-0.2699857954397303,-2.849699,-7.704575
11.185,2.0,1.0,1.0,33.0,34.5,34.5,1.5,2.5,2.77,-0.14924215378715788,-0.3116609236769702,0.6734679446305758,-0.3065833027093417,-3.225461,-7.186806
11.185,2.0,1.0,1.0,33.0,34.5,34.5,1.5,2.5,2.7725,-0.16067523380308577,-0.3080630837745934,0.6355667850575873,-0.34658791095002867,-3.667723,-6.675089
11.185,2.0,1.0,1.0,33.0,34.5,34.5,1.5,2.5,2.775,-0.1670454252603632,-0.29911900194990787,0.5944029077601292,-0.38963189853050234,-4.188255,-6.174693
11.185,2.0,1.0,1.0,33.0,34.5,34.5,1.5,2.5,2.7775,-0.16714654832329345,-0.28362095616260385,0.5506913545312776,-0.434988778907868,-4.799111,-5.691898
11.185,2.0,1.0,1.0,33.0,34.5,34.5,1.5,2.5,2.78,-0.15982138764271725,-0.260410680017175,0.505590828676642,-0.481489794374564,-5.510388,-5.233913
11.185,2.0,1.0,1.0,33.0,34.5,34.5,1.5,2.5,2.7825,-0.1441386671497613,-0.2285555761114985,0.4607477953064509,-0.5274804029476783,-6.325239,-4.808637
11.185,2.0,1.0,1.0,33.0,34.5,34.5,1.5,2.5,2.785,-0.11961553106760353,-0.18757000946232913,0.4182610174377038,-0.5708560535400707,-7.229638,-4.424217
11.185,2.0,1.0,1.0,33.0,34.5,34.5,1.5,2.5,2.7875,-0.08644405704385182,-0.13764031475924224,0.38053070887389323,-0.6092127865482247,-8.17368,-4.088407
11.185,2.0,1.0,1.0,33.0,34.5,34.5,1.5,2.5,2.79,-0.045652590454945505,-0.07978461588486883,0.34998235852690135,-0.6401223763418955,-9.045802,-3.807791
11.185,2.0,1.0,1.0,33.0,34.5,34.5,1.5,2.5,2.7925,0.0008752512840823366,-0.01587077911531339,0.3287032982994561,-0.6614939265720285,-9.663888,-3.586984
11.185,2.0,1.0,1.0,33.0,34.5,34.5,1.5,2.5,2.795,0.05057114102310692,0.051554274865110924,0.3180818302101974,-0.6719324140072375,-9.84081,-3.427997
11.185,2.0,1.0,1.0,33.0,34.5,34.5,1.5,2.5,2.7975,0.10052339094319687,0.11960491993177415,0.31856152224244766,-0.6709821642287243,-9.523888,-3.329933
11.185,2.0,1.0,1.0,33.0,34.5,34.5,1.5,2.5,2.8,0.14789914041104532,0.18547710987603044,0.3295931332895919,-0.6591734288559497,-8.843702,-3.289092
11.185,2.0,1.0,1.0,33.0,34.5,34.5,1.5,2.5,2.8025,0.19032406443320465,0.24682585736078663,0.3497930939931517,-0.6378634956644189,-7.997558,-3.299464
11.185,2.0,1.0,1.0,33.0,34.5,34.5,1.5,2.5,2.805,0.22612131986769335,0.30200227151992626,0.3772419773750779,-0.60893882341606,-7.134484,-3.353469
11.185,2.0,1.0,1.0,33.0,34.5,34.5,1.5,2.5,2.8075,0.25437589491850904,0.35011674641537294,0.4098202544055921,-0.5744804896691815,-6.332788,-3.442763
11.185,2.0,1.0,1.0,33.0,34.5,34.5,1.5,2.5,2.81,0.2748539525829206,0.3909579730716589,0.4454923677046334,-0.5364814052441843,-5.622365,-3.558959
11.185,2.0,1.0,1.0,33.0,34.5,34.5,1.5,2.5,2.8125,0.287839755140709,0.424830173102901,0.482493030893033,-0.4966609983048,-5.007925,-3.694167
11.185,2.0,1.0,1.0,33.0,34.5,34.5,1.5,2.5,2.815,0.293952050190645,0.4523701380929173,0.5194126951956283,-0.4563802475093149,-4.483093,-3.841323
11.185,2.0,1.0,1.0,33.0,34.5,34.5,1.5,2.5,2.8175,0.293981779680019,0.4743856698928402,0.5552052069382394,-0.41663403874740007,-4.03757,-3.994347
11.185,2.0,1.0,1.0,33.0,34.5,34.5,1.5,2.5,2.82,0.28876988973570283,0.4917340254269975,0.5891482124602295,-0.3780903813844714,-3.660433,-4.148161
11.185,2.0,1.0,1.0,33.0,34.5,34.5,1.5,2.5,2.8225,0.27912709077681314,0.5052421329918817,0.6207826168609109,-0.3411502910170899,-3.341536,-4.298622
11.185,2.0,1.0,1.0,33.0,34.5,34.5,1.5,2.5,2.825,0.26578857385452703,0.5156615662852803,0.6498488685506763,-0.30601065952281997,-3.071997,-4.442415
11.185,2.0,1.0,1.0,33.0,34.5,34.5,1.5,2.5,2.8275,0.24939400108481966,0.5236486054542674,0.6762297486427175,-0.2727204917383872,-2.844278,-4.576921
11.185,2.0,1.0,1.0,33.0,34.5,34.5,1.5,2.5,2.83,0.23048381376669663,0.5297604481973562,0.699903528426304,-0.24122667167351225,-2.6521,-4.700099
11.185,2.0,1.0,1.0,33.0,34.5,34.5,1.5,2.5,2.8325,0.2095049391345001,0.5344606660209534,0.7209079073350175,-0.21140884767607002,-2.490286,-4.810363
