1,w,sub_t,h,l1,l2,l3,g1,g2,Freq,S11_re,S21_re,S11_img,S21_img,S11_dB,S21_dB
11.185,2.0,1.0,1.0,33.8,33.2,33.2,2.9,4.1,2.5,0.81087437928534,-0.00698151590909321,0.573940671063502,0.00418223099986294,-0.057158,-41.789281
11.185,2.0,1.0,1.0,33.8,33.2,33.2,2.9,4.1,2.5025,0.8067605932355146,-0.0071073893994255,0.5796059224417979,0.004179832261785674,-0.057684,-41.675806
11.185,2.0,1.0,1.0,33.8,33.2,33.2,2.9,4.1,2.505,0.802588029258389,-0.007235165420354915,0.5852663714689764,0.00417630560705567,-0.058218,-41.562121
11.185,2.0,1.0,1.0,33.8,33.2,33.2,2.9,4.1,2.5075,0.7983561148524124,-0.007364872587689414,0.5909216518213652,0.004171613958403241,-0.058761,-41.448219
11.185,2.0,1.0,1.0,33.8,33.2,33.2,2.9,4.1,2.51,0.7940642697415076,-0.007496539952695389,0.5965713866326491,0.004165719079025939,-0.059313,-41.334095
11.185,2.0,1.0,1.0,33.8,33.2,33.2,2.9,4.1,2.5125,0.7897119058045317,-0.007630197005612074,0.6022151881774012,0.004158581533557974,-0.059874,-41.219742
11.185,2.0,1.0,1.0,33.8,33.2,33.2,2.9,4.1,2.515,0.7852984270063962,-0.007765873678946431,0.6078526575452924,0.0041501606476329524,-0.060445,-41.105155
11.185,2.0,1.0,1.0,33.8,33.2,33.2,2.9,4.1,2.5175,0.7808232293310261,-0.007903600350527049,0.6134833843056942,0.004140414465985775,-0.061025,-40.990328
11.185,2.0,1.0,1.0,33.8,33.2,33.2,2.9,4.1,2.52,0.7762857007163262,-0.008043407846294806,0.6191069461624115,0.004129299709037134,-0.061615,-40.875254
11.185,2.0,1.0,1.0,33.8,33.2,33.2,2.9,4.1,2.5225,0.7716852209913557,-0.008185327442805644,0.6247229085982282,0.004116771727901639,-0.062214,-40.759928
11.185,2.0,1.0,1.0,33.8,33.2,33.2,2.9,4.1,2.525,0.767021161815895,-0.00832939086942022,0.6303308245089924,0.004102784457757984,-0.062824,-40.644343
11.185,2.0,1.0,1.0,33.8,33.2,33.2,2.9,4.1,2.5275,0.762292886622624,-0.008475630310153017,0.6359302338269264,0.004087290369517955,-0.063444,-40.528494
11.185,2.0,1.0,1.0,33.8,33.2,33.2,2.9,4.1,2.53,0.757499750562132,-0.008624078405151165,0.6415206631328416,0.0040702404197263025,-0.064074,-40.412375
11.185,2.0,1.0,1.0,33.8,33.2,33.2,2.9,4.1,2.5325,0.7526411004509936,-0.008774768251772534,0.6471016252569423,0.0040515839986236145,-0.064716,-40.295978
11.185,2.0,1.0,1.0,33.8,33.2,33.2,2.9,4.1,2.535,0.7477162747231532,-0.008927733405229493,0.6526726188678881,0.004031268876298487,-0.065368,-40.179299
11.185,2.0,1.0,1.0,33.8,33.2,33.2,2.9,4.1,2.5375,0.7427246033848898,-0.00908300787876307,0.6582331280497676,0.004009241146854639,-0.066031,-40.06233
11.185,2.0,1.0,1.0,33.8,33.2,33.2,2.9,4.1,2.54,0.7376654079736273,-0.009240626143309963,0.6637826218666385,0.003985445170513346,-0.066706,-39.945066
11.185,2.0,1.0,1.0,33.8,33.2,33.2,2.9,4.1,2.5425,0.7325380015208853,-0.009400623126622284,0.6693205539142788,0.003959823513570062,-0.067393,-39.827499
11.185,2.0,1.0,1.0,33.8,33.2,33.2,2.9,4.1,2.545,0.7273416885196758,-0.009563034211797437,0.6748463618587776,0.003932316886119322,-0.068092,-39.709624
11.185,2.0,1.0,1.0,33.8,33.2,33.2,2.9,4.1,2.5475,0.7220757648966737,-0.00972789523517233,0.6803594669615821,0.003902864077458558,-0.068803,-39.591434
11.185,2.0,1.0,1.0,33.8,33.2,33.2,2.9,4.1,2.55,0.7167395179894898,-0.009895242483534272,0.6858592735906347,0.0038714018890783513,-0.069526,-39.472923
11.185,2.0,1.0,1.0,33.8,33.2,33.2,2.9,4.1,2.5525,0.7113322265294248,-0.010065112690596132,0.6913451687171747,0.0038378650651417967,-0.070262,-39.354084
11.185,2.0,1.0,1.0,33.8,33.2,33.2,2.9,4.1,2.555,0.7058531606300643,-0.010237543032681746,0.6968165213978227,0.003802186220351674,-0.071012,-39.23491
11.185,2.0,1.0,1.0,33.8,33.2,33.2,2.9,4.1,2.5575,0.7003015817821195,-0.010412571123562862,0.7022726822415224,0.0037642957650999486,-0.071774,-39.115394
11.185,2.0,1.0,1.0,33.8,33.2,33.2,2.9,4.1,2.56,0.6946767428549389,-0.010590235008385464,0.707712982860908,0.0037241218277891935,-0.07255,-38.995531
11.185,2.0,1.0,1.0,33.8,33.2,33.2,2.9,4.1,2.5625,0.6889778881051285,-0.010770573156619686,0.713136735307671,0.0036815901742111006,-0.07334,-38.875312
11.185,2.0,1.0,1.0,33.8,33.2,33.2,2.9,4.1,2.565,0.6832042531927428,-0.010953624453962797,0.7185432314914729,0.003636624123861268,-0.074145,-38.754732
11.185,2.0,1.0,1.0,33.8,33.2,33.2,2.9,4.1,2.5675,0.6773550652055442,-0.011139428193120363,0.7239317425819439,0.003589144463065945,-0.074964,-38.633783
11.185,2.0,1.0,1.0,33.8,33.2,33.2,2.9,4.1,2.57,0.671429542691843,-0.011328024063386162,0.7293015183933081,0.003539069354788092,-0.075798,-38.512458
11.185,2.0,1.0,1.0,33.8,33.2,33.2,2.9,4.1,2.5725,0.6654268957024574,-0.01151945213893606,0.7346517867511478,0.0034863142449772207,-0.076647,-38.39075
11.185,2.0,1.0,1.0,33.8,33.2,33.2,2.9,4.1,2.575,0.6593463258423687,-0.011713752865745494,0.739981752840829,0.0034307917653192085,-0.077512,-38.268652
11.185,2.0,1.0,1.0,33.8,33.2,33.2,2.9,4.1,2.5775,0.6531870263326708,-0.011910967047034928,0.7452905985370709,0.0033724116322366078,-0.078393,-38.146157
11.185,2.0,1.0,1.0,33.8,33.2,33.2,2.9,4.1,2.58,0.6469481820834493,-0.012111135827140771,0.7505774817141684,0.0033110805419837796,-0.07929,-38.023257
11.185,2.0,1.0,1.0,33.8,33.2,33.2,2.9,4.1,2.5825,0.6406289697782468,-0.012314300673703446,0.7558415355363298,0.0032467020616724035,-0.080204,-37.899945
11.185,2.0,1.0,1.0,33.8,33.2,33.2,2.9,4.1,2.585,0.6342285579708196,-0.012520503358056696,0.7610818677276108,0.003179176516057771,-0.081135,-37.776213
11.185,2.0,1.0,1.0,33.8,33.2,33.2,2.9,4.1,2.5875,0.627746107194916,-0.012729785933695269,0.7662975598208926,0.0031084008699062485,-0.082083,-37.652054
11.185,2.0,1.0,1.0,33.8,33.2,33.2,2.9,4.1,2.59,0.6211807700878507,-0.012942190712689624,0.7714876663853609,0.0030342686057573945,-0.08305,-37.52746
11.185,2.0,1.0,1.0,33.8,33.2,33.2,2.9,4.1,2.5925,0.6145316915286817,-0.013157760239908571,0.7766512142319101,0.00295666959688503,-0.084035,-37.402424
11.185,2.0,1.0,1.0,33.8,33.2,33.2,2.9,4.1,2.595,0.6077980087918499,-0.013376537264900998,0.7817872015959075,0.0028754899752528283,-0.085038,-37.276937
11.185,2.0,1.0,1.0,33.8,33.2,33.2,2.9,4.1,2.5975,0.6009788517171678,-0.013598564711278873,0.7868945972967353,0.002790611994249932,-0.086061,-37.150992
11.185,2.0,1.0,1.0,33.8,33.2,33.2,2.9,4.1,2.6,0.5940733428970975,-0.013823885643433205,0.7919723398735105,0.0027019138859816706,-0.087104,-37.02458
11.185,2.0,1.0,1.0,33.8,33.2,33.2,2.9,4.1,2.6025,0.5870805978823179,-0.014052543230403428,0.7970193366963767,0.0026092697128818204,-0.088167,-36.897693
11.185,2.0,1.0,1.0,33.8,33.2,33.2,2.9,4.1,2.605,0.5799997254065994,-0.014284580706709805,0.8020344630527688,0.0025125492133982836,-0.089251,-36.770324
11.185,2.0,1.0,1.0,33.8,33.2,33.2,2.9,4.1,2.6075,0.5728298276320892,-0.01452004132994514,0.8070165612080137,0.002411617641495904,-0.090356,-36.642463
11.185,2.0,1.0,1.0,33.8,33.2,33.2,2.9,4.1,2.61,0.5655700004161455,-0.014758968334909256,0.8119644394396368,0.0023063355997045543,-0.091483,-36.514103
11.185,2.0,1.0,1.0,33.8,33.2,33.2,2.9,4.1,2.6125,0.5582193336009221,-0.015001404884055611,0.8168768710447445,0.0021965588654297625,-0.092632,-36.385233
11.185,2.0,1.0,1.0,33.8,33.2,33.2,2.9,4.1,2.615,0.550776911326952,-0.015247394014004203,0.8217525933198294,0.002082138210227781,-0.093804,-36.255847
11.185,2.0,1.0,1.0,33.8,33.2,33.2,2.9,4.1,2.6175,0.5432418123720708,-0.015496978577858117,0.8265903065123383,0.0019629192117333366,-0.094999,-36.125934
11.185,2.0,1.0,1.0,33.8,33.2,33.2,2.9,4.1,2.62,0.5356131105170515,-0.01575020118304494,0.8313886727433457,0.0018387420579122854,-0.096218,-35.995487
11.185,2.0,1.0,1.0,33.8,33.2,33.2,2.9,4.1,2.6225,0.5278898749394051,-0.01600710412438479,0.8361463149006686,0.001709441343295042,-0.097462,-35.864495
11.185,2.0,1.0,1.0,33.8,33.2,33.2,2.9,4.1,2.625,0.520071170636889,-0.0162677293120669,0.84086181550173,0.00157484585682975,-0.098732,-35.73295
11.185,2.0,1.0,1.0,33.8,33.2,33.2,2.9,4.1,2.6275,0.5121560588823023,-0.016532118194196494,0.8455337155255176,0.001434778360975626,-0.100027,-35.600841
11.185,2.0,1.0,1.0,33.8,33.2,33.2,2.9,4.1,2.63,0.5041435977112616,-0.01680031167354959,0.8501605132129303,0.001289055361637116,-0.101349,-35.46816
11.185,2.0,1.0,1.0,33.8,33.2,33.2,2.9,4.1,2.6325,0.496032842444712,-0.0170723500181503,0.8547406628348341,0.0011374868685200352,-0.102699,-35.334897
11.185,2.0,1.0,1.0,33.8,33.2,33.2,2.9,4.1,2.635,0.4878228462480198,-0.017348272765258188,0.8592725734271439,0.000979876145467763,-0.104076,-35.201042
11.185,2.0,1.0,1.0,33.8,33.2,33.2,2.9,4.1,2.6375,0.47951266072858906,-0.017628118618325618,0.863754607492219,0.0008160194503140701,-0.105482,-35.066584
11.185,2.0,1.0,1.0,33.8,33.2,33.2,2.9,4.1,2.64,0.47110133657401454,-0.017911925336455706,0.8681850796659026,0.000645705763762582,-0.106918,-34.931514
11.185,2.0,1.0,1.0,33.8,33.2,33.2,2.9,4.1,2.6425,0.462587924232914,-0.01819972961585795,0.8725622553495006,0.0004687165067794804,-0.108384,-34.795822
11.185,2.0,1.0,1.0,33.8,33.2,33.2,2.9,4.1,2.645,0.4539714746406635,-0.018491566962765205,0.8768843493060038,0.0002848252459562898,-0.109881,-34.659495
11.185,2.0,1.0,1.0,33.8,33.2,33.2,2.9,4.1,2.6475,0.4452510399923709,-0.018787471557237867,0.8811495242198779,9.379738627080051e-05,-0.111411,-34.522525
11.185,2.0,1.0,1.0,33.8,33.2,33.2,2.9,4.1,2.65,0.4364256745655273,-0.019087476107242003,0.8853558892197313,-0.00010461014935594301,-0.112973,-34.384899
11.185,2.0,1.0,1.0,33.8,33.2,33.2,2.9,4.1,2.6525,0.4274944355949289,-0.01939161169234361,0.8895014983631738,-0.0003106492543434344,-0.114569,-34.246607
11.185,2.0,1.0,1.0,33.8,33.2,33.2,2.9,4.1,2.655,0.4184563842025239,-0.019699907596317012,0.8935843490832122,-0.0005245809872480567,-0.1162,-34.107638
11.185,2.0,1.0,1.0,33.8,33.2,33.2,2.9,4.1,2.6575,0.4093105863850225,-0.020012391127913913,0.8976023805955026,-0.0007466759357805878,-0.117867,-33.967979
11.185,2.0,1.0,1.0,33.8,33.2,33.2,2.9,4.1,2.66,0.4000561140622146,-0.02032908742898714,0.9015534722658142,-0.000977214596794864,-0.11957,-33.827619
11.185,2.0,1.0,1.0,33.8,33.2,33.2,2.9,4.1,2.6625,0.39069204618909303,-0.020650019269103655,0.9054354419370615,-0.0012164877730405142,-0.121311,-33.686545
11.185,2.0,1.0,1.0,33.8,33.2,33.2,2.9,4.1,2.665,0.3812174699350047,-0.020975206825721564,0.9092460442152765,-0.0014647969875176932,-0.123091,-33.544746
11.185,2.0,1.0,1.0,33.8,33.2,33.2,2.9,4.1,2.6675,0.3716314819332497,-0.021304667448934902,0.9129829687139009,-0.0017224549163214204,-0.124911,-33.402209
11.185,2.0,1.0,1.0,33.8,33.2,33.2,2.9,4.1,2.67,0.36193318960466103,-0.021638415409720276,0.9166438382558125,-0.0019897858409160577,-0.126772,-33.258922
11.185,2.0,1.0,1.0,33.8,33.2,33.2,2.9,4.1,2.6725,0.3521217125588997,-0.021976461630538596,0.9202262070324924,-0.002267126120835475,-0.128676,-33.11487
11.185,2.0,1.0,1.0,33.8,33.2,33.2,2.9,4.1,2.675,0.3421961840773653,-0.02231881339706017,0.9237275587197961,-0.002554824687865746,-0.130623,-32.970041
11.185,2.0,1.0,1.0,33.8,33.2,33.2,2.9,4.1,2.6775,0.3321557526818228,-0.0226654740496891,0.9271453045497555,-0.0028532435628310705,-0.132615,-32.824421
11.185,2.0,1.0,1.0,33.8,33.2,33.2,2.9,4.1,2.68,0.32199958379300747,-0.0230164426534627,0.9304767813379449,-0.003162758396173469,-0.134653,-32.677996
11.185,2.0,1.0,1.0,33.8,33.2,33.2,2.9,4.1,2.6825,0.3117268614837271,-0.023371713644791986,0.9337192494658821,-0.003483759033589726,-0.136739,-32.530751
11.185,2.0,1.0,1.0,33.8,33.2,33.2,2.9,4.1,2.685,0.3013367903311503,-0.02373127645339213,0.936869890818023,-0.0038166501080710625,-0.138873,-32.382673
11.185,2.0,1.0,1.0,33.8,33.2,33.2,2.9,4.1,2.6875,0.290828597373217,-0.0240951150976223,0.939925806672918,-0.00416185165977524,-0.141059,-32.233747
11.185,2.0,1.0,1.0,33.8,33.2,33.2,2.9,4.1,2.69,0.28020153417436267,-0.02446320775131455,0.9428840155481191,-0.004519799785252814,-0.143297,-32.083956
11.185,2.0,1.0,1.0,33.8,33.2,33.2,2.9,4.1,2.6925,0.2694548790059556,-0.02483552628001976,0.9457414509984672,-0.004890947317650917,-0.145588,-31.933285
11.185,2.0,1.0,1.0,33.8,33.2,33.2,2.9,4.1,2.695,0.2585879391471789,-0.025212035744430854,0.9484949593674166,-0.005275764539621785,-0.147935,-31.781719
11.185,2.0,1.0,1.0,33.8,33.2,33.2,2.9,4.1,2.6975,0.24760005331228932,-0.025592693868564158,0.9511412974910934,-0.005674739930782747,-0.150339,-31.62924
11.185,2.0,1.0,1.0,33.8,33.2,33.2,2.9,4.1,2.7,0.23649059421056381,-0.02597745047007986,0.9536771303548063,-0.006088380951694628,-0.152802,-31.475833
11.185,2.0,1.0,1.0,33.8,33.2,33.2,2.9,4.1,2.7025,0.2252589712455022,-0.02636624684990712,0.9560990287017553,-0.006517214866463982,-0.155326,-31.321479
11.185,2.0,1.0,1.0,33.8,33.2,33.2,2.9,4.1,2.705,0.2139046333602068,-0.026759015138101427,0.9584034665937524,-0.006961789606217055,-0.157913,-31.16616
11.185,2.0,1.0,1.0,33.8,33.2,33.2,2.9,4.1,2.7075,0.20242707203623525,-0.02715567759260216,0.9605868189237289,-0.007422674675852505,-0.160564,-31.00986
11.185,2.0,1.0,1.0,33.8,33.2,33.2,2.9,4.1,2.71,0.19082582445356486,-0.027556145847272825,0.9626453588799139,-0.00790046210664799,-0.163284,-30.852558
11.185,2.0,1.0,1.0,33.8,33.2,33.2,2.9,4.1,2.7125,0.1791004768197443,-0.0279603201052937,0.9645752553615159,-0.008395767457481735,-0.166072,-30.694236
11.185,2.0,1.0,1.0,33.8,33.2,33.2,2.9,4.1,2.715,0.16725066787669818,-0.028368088273631478,0.9663725703458421,-0.008909230867627203,-0.168932,-30.534874
11.185,2.0,1.0,1.0,33.8,33.2,33.2,2.9,4.1,2.7175,0.15527609259417574,-0.028779325033931654,0.9680332562067012,-0.00944151816429676,-0.171867,-30.374451
11.185,2.0,1.0,1.0,33.8,33.2,33.2,2.9,4.1,2.72,0.1431765060592552,-0.029193890844761004,0.9695531529840741,-0.00999332202834172,-0.174878,-30.212947
11.185,2.0,1.0,1.0,33.8,33.2,33.2,2.9,4.1,2.7225,0.1309517275719056,-0.029611630869667126,0.9709279856049096,-0.010565363221773516,-0.177969,-30.050341
11.185,2.0,1.0,1.0,33.8,33.2,33.2,2.9,4.1,2.725,0.1186016449571579,-0.03003237382501036,0.9721533610550072,-0.011158391881040688,-0.181141,-29.886609
11.185,2.0,1.0,1.0,33.8,33.2,33.2,2.9,4.1,2.7275,0.1061262191050576,-0.03045593074096289,0.9732247655018474,-0.011773188880300402,-0.1844,-29.721729
11.185,2.0,1.0,1.0,33.8,33.2,33.2,2.9,4.1,2.73,0.09352548875025106,-0.03088209362844146,0.974137561368265,-0.012410567269243672,-0.187746,-29.555677
11.185,2.0,1.0,1.0,33.8,33.2,33.2,2.9,4.1,2.7325,0.0807995755037899,-0.03131063404405115,0.9748869843567606,-0.013071373790387142,-0.191184,-29.38843
11.185,2.0,1.0,1.0,33.8,33.2,33.2,2.9,4.1,2.735,0.06794868915053436,-0.03174130154434663,0.9754681404242296,-0.01375649048112566,-0.194716,-29.219961
11.185,2.0,1.0,1.0,33.8,33.2,33.2,2.9,4.1,2.7375,0.054973133226401974,-0.032173822019863296,0.9758760027067735,-0.014466836366257414,-0.198348,-29.050246
11.185,2.0,1.0,1.0,33.8,33.2,33.2,2.9,4.1,2.74,0.041873310890687146,-0.03260789589841882,0.9761054083941654,-0.01520336924714076,-0.202081,-28.879257
11.185,2.0,1.0,1.0,33.8,33.2,33.2,2.9,4.1,2.7425,0.028649731109682334,-0.03304319620612517,0.9761510555534157,-0.015967087594136446,-0.20592,-28.706967
11.185,2.0,1.0,1.0,33.8,33.2,33.2,2.9,4.1,2.745,0.015303015169050147,-0.03347936647336677,0.976007499900698,-0.016759032549518042,-0.209869,-28.533347
11.185,2.0,1.0,1.0,33.8,33.2,33.2,2.9,4.1,2.7475,0.0018339035336373242,-0.0339160184716775,0.9756691515207161,-0.017580290048612453,-0.213933,-28.358367
11.185,2.0,1.0,1.0,33.8,33.2,33.2,2.9,4.1,2.75,-0.0117567369251661,-0.0343527297659682,0.975130271532363,-0.0184319930675611,-0.218116,-28.181997
11.185,2.0,1.0,1.0,33.8,33.2,33.2,2.9,4.1,2.7525,-0.025467905312790792,-0.03478904106489666,0.9743849686992062,-0.019315324006771252,-0.222423,-28.004206
11.185,2.0,1.0,1.0,33.8,33.2,33.2,2.9,4.1,2.755,-0.039298458682118766,-0.035224453350309395,0.9734271959830451,-0.020231517219865873,-0.226858,-27.824959
11.185,2.0,1.0,1.0,33.8,33.2,33.2,2.9,4.1,2.7575,-0.05324710356597485,-0.03565842476459292,0.9722507470383822,-0.021181861698742345,-0.231428,-27.644224
11.185,2.0,1.0,1.0,33.8,33.2,33.2,2.9,4.1,2.76,-0.06731238704379504,-0.036090367232415044,0.9708492526451984,-0.02216770392621096,-0.236137,-27.461965
11.185,2.0,1.0,1.0,33.8,33.2,33.2,2.9,4.1,2.7625,-0.0814926873123696,-0.036519642790684904,0.9692161770769226,-0.023190450908625287,-0.240992,-27.278145
11.185,2.0,1.0,1.0,33.8,33.2,33.2,2.9,4.1,2.765,-0.09578620372776148,-0.03694555959756403,0.9673448143999204,-0.024251573401921998,-0.245999,-27.092726
11.185,2.0,1.0,1.0,33.8,33.2,33.2,2.9,4.1,2.7675,-0.11019094628227229,-0.03736736758797783,0.9652282847001151,-0.02535260934557466,-0.251165,-26.905668
11.185,2.0,1.0,1.0,33.8,33.2,33.2,2.9,4.1,2.77,-0.12470472447686437,-0.037784253739245745,0.9628595302316679,-0.02649516752013819,-0.256496,-26.71693
11.185,2.0,1.0,1.0,33.8,33.2,33.2,2.9,4.1,2.7725,-0.13932513554531076,-0.03819533690610871,0.9602313114817764,-0.027680931445306763,-0.262001,-26.52647
11.185,2.0,1.0,1.0,33.8,33.2,33.2,2.9,4.1,2.775,-0.1540495519817564,-0.038599662179505584,0.957336203144707,-0.02891166353674746,-0.267687,-26.334242
11.185,2.0,1.0,1.0,33.8,33.2,33.2,2.9,4.1,2.7775,-0.1688751083181765,-0.03899619471785126,0.9541665899972167,-0.03018920954139003,-0.273563,-26.140201
11.185,2.0,1.0,1.0,33.8,33.2,33.2,2.9,4.1,2.78,-0.18379868709216218,-0.03938381299319473,0.9507146626662935,-0.03151550327235778,-0.279637,-25.944297
11.185,2.0,1.0,1.0,33.8,33.2,33.2,2.9,4.1,2.7825,-0.19881690393863835,-0.03976130138736919,0.9469724132790225,-0.03289257166629597,-0.28592,-25.74648
11.185,2.0,1.0,1.0,33.8,33.2,33.2,2.9,4.1,2.785,-0.21392609173133983,-0.04012734206495072,0.942931630982984,-0.03432254018750627,-0.292421,-25.546698
11.185,2.0,1.0,1.0,33.8,33.2,33.2,2.9,4.1,2.7875,-0.22912228369077867,-0.040480506040353935,0.9385838973242595,-0.03580763860498161,-0.299151,-25.344895
11.185,2.0,1.0,1.0,33.8,33.2,33.2,2.9,4.1,2.79,-0.24440119536512322,-0.040819243345530935,0.9339205814685558,-0.037350207170164226,-0.306122,-25.141014
11.185,2.0,1.0,1.0,33.8,33.2,33.2,2.9,4.1,2.7925,-0.2597582053785913,-0.041141872192277176,0.9289328352495755,-0.03895270322496407,-0.313347,-24.934995
11.185,2.0,1.0,1.0,33.8,33.2,33.2,2.9,4.1,2.795,-0.27518833482808064,-0.041446567008834555,0.9236115880270924,-0.04061770827125163,-0.320839,-24.726774
11.185,2.0,1.0,1.0,33.8,33.2,33.2,2.9,4.1,2.7975,-0.2906862251930017,-0.04173134521401038,0.9179475413358347,-0.042347935534593595,-0.328612,-24.516287
11.185,2.0,1.0,1.0,33.8,33.2,33.2,2.9,4.1,2.8,-0.30624611460491796,-0.041994052573052006,0.9119311633048398,-0.044146238056386414,-0.336681,-24.303463
11.185,2.0,1.0,1.0,33.8,33.2,33.2,2.9,4.1,2.8025,-0.3218618123023592,-0.04223234695760902,0.9055526828258293,-0.04601561734961457,-0.345063,-24.088231
11.185,2.0,1.0,1.0,33.8,33.2,33.2,2.9,4.1,2.805,-0.3375266710714198,-0.042443680306787794,0.8988020834483312,-0.047959232654103755,-0.353777,-23.870516
11.185,2.0,1.0,1.0,33.8,33.2,33.2,2.9,4.1,2.8075,-0.3532335574442913,-0.042625278556978126,0.8916690969790169,-0.04998041082716086,-0.362841,-23.650236
11.185,2.0,1.0,1.0,33.8,33.2,33.2,2.9,4.1,2.81,-0.36897481939436877,-0.042774119274118144,0.8841431967631332,-0.05208265690464327,-0.372275,-23.42731
11.185,2.0,1.0,1.0,33.8,33.2,33.2,2.9,4.1,2.8125,-0.384742251227808,-0.0428869066825533,0.876213590627474,-0.0542696653654607,-0.382103,-23.20165
11.185,2.0,1.0,1.0,33.8,33.2,33.2,2.9,4.1,2.815,-0.4005270553261089,-0.04296004373867277,0.8678692134672881,-0.05654533212888776,-0.392349,-22.973162
11.185,2.0,1.0,1.0,33.8,33.2,33.2,2.9,4.1,2.8175,-0.41631980034132793,-0.04298960084393113,0.8590987194644558,-0.058913767308287124,-0.403039,-22.741751
11.185,2.0,1.0,1.0,33.8,33.2,33.2,2.9,4.1,2.82,-0.4321103753835115,-0.04297128072932684,0.8498904739318757,-0.06137930873624177,-0.414203,-22.507314
11.185,2.0,1.0,1.0,33.8,33.2,33.2,2.9,4.1,2.8225,-0.4478879396674376,-0.04290037897030054,0.8402325447901708,-0.06394653626374508,-0.42587,-22.269745
11.185,2.0,1.0,1.0,33.8,33.2,33.2,2.9,4.1,2.825,-0.463640867000465,-0.04277173950541665,0.8301126936986251,-0.06662028681883864,-0.438076,-22.028929
11.185,2.0,1.0,1.0,33.8,33.2,33.2,2.9,4.1,2.8275,-0.47935668439339124,-0.04257970443181733,0.8195183668843558,-0.06940567018638977,-0.450857,-21.784748
