1,w,sub_t,h,l1,l2,l3,g1,g2,Freq,S11_re,S21_re,S11_img,S21_img,S11_dB,S21_dB
11.185,2.0,1.0,1.0,34.9,34.3,34.3,2.6,4.2,2.5,0.616471542711173,-0.0141788213244278,0.77546580868851,0.00384252003785159,-0.081609,-36.659406
11.185,2.0,1.0,1.0,34.9,34.3,34.3,2.6,4.2,2.5025,0.6095064534276605,-0.01441835596642549,0.7808117184244714,0.0037601281608827175,-0.082579,-36.535931
11.185,2.0,1.0,1.0,34.9,34.3,34.3,2.6,4.2,2.505,0.6024527868479385,-0.014661479216978125,0.7861248106766263,0.0036737812815869275,-0.083569,-36.411981
11.185,2.0,1.0,1.0,34.9,34.3,34.3,2.6,4.2,2.5075,0.5953097236936823,-0.014908240322991638,0.7914039308101581,0.003583349041010473,-0.084577,-36.287547
11.185,2.0,1.0,1.0,34.9,34.3,34.3,2.6,4.2,2.51,0.5880764404462591,-0.015158688850152601,0.7966478924608409,0.003488696608760519,-0.085605,-36.162621
11.185,2.0,1.0,1.0,34.9,34.3,34.3,2.6,4.2,2.5125,0.5807521096459048,-0.01541287465569142,0.8018554766681997,0.003389684513485856,-0.086653,-36.037193
11.185,2.0,1.0,1.0,34.9,34.3,34.3,2.6,4.2,2.515,0.5733359002117442,-0.01567084785865792,0.8070254309861429,0.0032861684661203423,-0.087721,-35.911254
11.185,2.0,1.0,1.0,34.9,34.3,34.3,2.6,4.2,2.5175,0.5658269777836875,-0.0159326588075408,0.8121564685705162,0.0031779991755325927,-0.08881,-35.784795
11.185,2.0,1.0,1.0,34.9,34.3,34.3,2.6,4.2,2.52,0.558224505087257,-0.016198358045050324,0.8172472672430654,0.003065022156203216,-0.089921,-35.657806
11.185,2.0,1.0,1.0,34.9,34.3,34.3,2.6,4.2,2.5225,0.550527642322489,-0.01646799626986877,0.8222964685312355,0.0029470775275298898,-0.091055,-35.530279
11.185,2.0,1.0,1.0,34.9,34.3,34.3,2.6,4.2,2.525,0.5427355475780458,-0.01674162429516333,0.8273026766832628,0.0028239998043367233,-0.09221,-35.402202
11.185,2.0,1.0,1.0,34.9,34.3,34.3,2.6,4.2,2.5275,0.5348473772717705,-0.01701929300363895,0.8322644576579937,0.002695617678137008,-0.093389,-35.273566
11.185,2.0,1.0,1.0,34.9,34.3,34.3,2.6,4.2,2.53,0.5268622866189551,-0.017301053298894736,0.8371803380888367,0.002561753788674642,-0.094592,-35.144361
11.185,2.0,1.0,1.0,34.9,34.3,34.3,2.6,4.2,2.5325,0.5187794301296477,-0.017586956052830473,0.8420488042212643,0.0024222244852371523,-0.09582,-35.014576
11.185,2.0,1.0,1.0,34.9,34.3,34.3,2.6,4.2,2.535,0.5105979621363703,-0.01787705204883158,0.8468683008232607,0.0022768395772029388,-0.097072,-34.884201
11.185,2.0,1.0,1.0,34.9,34.3,34.3,2.6,4.2,2.5375,0.5023170373537131,-0.018171391920440965,0.8516372300680862,0.002125402073253228,-0.098351,-34.753225
11.185,2.0,1.0,1.0,34.9,34.3,34.3,2.6,4.2,2.54,0.49393581147129495,-0.01847002608520778,0.8563539503887443,0.0019677079086403756,-0.099656,-34.621636
11.185,2.0,1.0,1.0,34.9,34.3,34.3,2.6,4.2,2.5425,0.4854534417816673,-0.018773004673376538,0.8610167753034886,0.0018035456598681024,-0.100988,-34.489424
11.185,2.0,1.0,1.0,34.9,34.3,34.3,2.6,4.2,2.545,0.4768690878448053,-0.019080377451058936,0.8656239722117209,0.0016326962460953512,-0.102348,-34.356577
11.185,2.0,1.0,1.0,34.9,34.3,34.3,2.6,4.2,2.5475,0.46818191219090755,-0.01939219373750239,0.8701737611595869,0.001454932616532355,-0.103737,-34.223083
11.185,2.0,1.0,1.0,34.9,34.3,34.3,2.6,4.2,2.55,0.45939108106326576,-0.01970850231604157,0.8746643135745953,0.0012700194230477904,-0.105156,-34.088931
11.185,2.0,1.0,1.0,34.9,34.3,34.3,2.6,4.2,2.5525,0.4504957652031155,-0.020029351338286486,0.8790937509685157,0.001077712677154721,-0.106604,-33.954107
11.185,2.0,1.0,1.0,34.9,34.3,34.3,2.6,4.2,2.555,0.4414951406783733,-0.020354788221069165,0.883460143607847,0.0008777593904867905,-0.108084,-33.8186
11.185,2.0,1.0,1.0,34.9,34.3,34.3,2.6,4.2,2.5575,0.4323883897583164,-0.02068485953563216,0.887761509151074,0.000669897197814771,-0.109597,-33.682396
11.185,2.0,1.0,1.0,34.9,34.3,34.3,2.6,4.2,2.56,0.423174701836336,-0.021019610888502384,0.8919958112519459,0.0004538539615892835,-0.111142,-33.545482
11.185,2.0,1.0,1.0,34.9,34.3,34.3,2.6,4.2,2.5625,0.413853274402962,-0.021359086793452,0.896160958127941,0.000229347356923901,-0.112721,-33.407846
11.185,2.0,1.0,1.0,34.9,34.3,34.3,2.6,4.2,2.565,0.4044233140714948,-0.021703330533897915,0.9002548010931007,-3.915564142677499e-06,-0.114335,-33.269472
11.185,2.0,1.0,1.0,34.9,34.3,34.3,2.6,4.2,2.5675,0.3948840376586634,-0.02205238401504098,0.9042751330543344,-0.00024623883035119,-0.115985,-33.130348
11.185,2.0,1.0,1.0,34.9,34.3,34.3,2.6,4.2,2.57,0.3852346733228344,-0.022406287604989996,0.9082196869702875,-0.0004979380322256497,-0.117672,-32.990458
11.185,2.0,1.0,1.0,34.9,34.3,34.3,2.6,4.2,2.5725,0.37547446176242216,-0.02276507996405279,0.9120861342718217,-0.0007593408278097789,-0.119397,-32.849787
11.185,2.0,1.0,1.0,34.9,34.3,34.3,2.6,4.2,2.575,0.3656026574772641,-0.023128797861307993,0.9158720832430938,-0.0010307874746714166,-0.121162,-32.708321
11.185,2.0,1.0,1.0,34.9,34.3,34.3,2.6,4.2,2.5775,0.3556185300958665,-0.023497475977499627,0.919575077362189,-0.0013126313898261558,-0.122967,-32.566044
11.185,2.0,1.0,1.0,34.9,34.3,34.3,2.6,4.2,2.58,0.34552136577154463,-0.02387114669321189,0.9231925936001797,-0.0016052397393563611,-0.124814,-32.42294
11.185,2.0,1.0,1.0,34.9,34.3,34.3,2.6,4.2,2.5825,0.33531046865062897,-0.024249839861194427,0.9267220406774495,-0.0019089940596351477,-0.126704,-32.278992
11.185,2.0,1.0,1.0,34.9,34.3,34.3,2.6,4.2,2.585,0.32498516241607467,-0.02463358256160939,0.9301607572760168,-0.0022242909122122626,-0.128638,-32.134183
11.185,2.0,1.0,1.0,34.9,34.3,34.3,2.6,4.2,2.5875,0.31454479190995294,-0.02502239883886159,0.9335060102065287,-0.0025515425745808746,-0.130618,-31.988497
11.185,2.0,1.0,1.0,34.9,34.3,34.3,2.6,4.2,2.59,0.30398872483849415,-0.025416309418557884,0.9367549925284981,-0.002891177769213547,-0.132645,-31.841914
11.185,2.0,1.0,1.0,34.9,34.3,34.3,2.6,4.2,2.5925,0.29331635356352137,-0.025815331403004124,0.9399048216222589,-0.0032436424334527023,-0.134721,-31.694418
11.185,2.0,1.0,1.0,34.9,34.3,34.3,2.6,4.2,2.595,0.28252709698432926,-0.026219477943509293,0.9429525372109768,-0.003609400533040091,-0.136847,-31.545988
11.185,2.0,1.0,1.0,34.9,34.3,34.3,2.6,4.2,2.5975,0.27162040251425074,-0.026628757887600066,0.9458950993309622,-0.003988934922303914,-0.139025,-31.396606
11.185,2.0,1.0,1.0,34.9,34.3,34.3,2.6,4.2,2.6,0.26059574815639003,-0.027043175399074266,0.9487293862483378,-0.004382748254263462,-0.141257,-31.246251
11.185,2.0,1.0,1.0,34.9,34.3,34.3,2.6,4.2,2.6025,0.24945264468327746,-0.027462729548622864,0.9514521923199792,-0.0047913639441857035,-0.143545,-31.094903
11.185,2.0,1.0,1.0,34.9,34.3,34.3,2.6,4.2,2.605,0.23819063792539846,-0.027887413872531353,0.954060225796447,-0.0052153271904214985,-0.145889,-30.94254
11.185,2.0,1.0,1.0,34.9,34.3,34.3,2.6,4.2,2.6075,0.22680931117390637,-0.028317215896728337,0.9565501065644255,-0.005655206056675851,-0.148293,-30.789141
11.185,2.0,1.0,1.0,34.9,34.3,34.3,2.6,4.2,2.61,0.2153082877031089,-0.028752116623175446,0.95891836382593,-0.006111592620220391,-0.150759,-30.634683
11.185,2.0,1.0,1.0,34.9,34.3,34.3,2.6,4.2,2.6125,0.20368723341864464,-0.029192089975296497,0.9611614337113027,-0.006585104190945997,-0.153288,-30.479142
11.185,2.0,1.0,1.0,34.9,34.3,34.3,2.6,4.2,2.615,0.19194585963766989,-0.029637102198800124,0.9632756568226942,-0.007076384606583712,-0.155883,-30.322494
11.185,2.0,1.0,1.0,34.9,34.3,34.3,2.6,4.2,2.6175,0.18008392600776843,-0.030087111213878227,0.9652572757044006,-0.007586105609889571,-0.158546,-30.164715
11.185,2.0,1.0,1.0,34.9,34.3,34.3,2.6,4.2,2.62,0.1681012435717458,-0.030542065914341995,0.9671024322360461,-0.008114968314108094,-0.161279,-30.005778
11.185,2.0,1.0,1.0,34.9,34.3,34.3,2.6,4.2,2.6225,0.1559976779859603,-0.031001905408781835,0.968807164944167,-0.008663704763597877,-0.164086,-29.845657
11.185,2.0,1.0,1.0,34.9,34.3,34.3,2.6,4.2,2.625,0.14377315290042,-0.0314665581983157,0.970367406227278,-0.00923307959712773,-0.166969,-29.684324
11.185,2.0,1.0,1.0,34.9,34.3,34.3,2.6,4.2,2.6275,0.13142765350943117,-0.03193594128488968,0.9717789794889543,-0.009823891822045065,-0.169931,-29.52175
11.185,2.0,1.0,1.0,34.9,34.3,34.3,2.6,4.2,2.63,0.11896123028231144,-0.03240995920343273,0.9730375961728558,-0.010436976708277593,-0.172974,-29.357907
11.185,2.0,1.0,1.0,34.9,34.3,34.3,2.6,4.2,2.6325,0.10637400288440609,-0.03288850297041687,0.9741388526929422,-0.011073207811971297,-0.176103,-29.192763
11.185,2.0,1.0,1.0,34.9,34.3,34.3,2.6,4.2,2.635,0.09366616429949605,-0.03337144894051968,0.9750782272513351,-0.011733499139495635,-0.17932,-29.026286
11.185,2.0,1.0,1.0,34.9,34.3,34.3,2.6,4.2,2.6375,0.08083798516564983,-0.03385865756214099,0.9758510765354432,-0.012418807463573094,-0.182629,-28.858444
11.185,2.0,1.0,1.0,34.9,34.3,34.3,2.6,4.2,2.64,0.06788981833758971,-0.03434997202143468,0.9764526322849777,-0.013130134804428479,-0.186033,-28.689202
11.185,2.0,1.0,1.0,34.9,34.3,34.3,2.6,4.2,2.6425,0.05482210368990345,-0.034845216763298506,0.9768779977183845,-0.01386853109010724,-0.189537,-28.518525
11.185,2.0,1.0,1.0,34.9,34.3,34.3,2.6,4.2,2.645,0.04163537317674621,-0.035344195876375,0.977122143807007,-0.014635097011506715,-0.193145,-28.346375
11.185,2.0,1.0,1.0,34.9,34.3,34.3,2.6,4.2,2.6475,0.028330256165228405,-0.035846691327539336,0.9771799053838889,-0.015430987089211048,-0.196861,-28.172714
11.185,2.0,1.0,1.0,34.9,34.3,34.3,2.6,4.2,2.65,0.014907485061403424,-0.0363524610295607,0.9770459770725821,-0.016257412970931893,-0.200689,-27.997502
11.185,2.0,1.0,1.0,34.9,34.3,34.3,2.6,4.2,2.6525,0.0013679012498255903,-0.03686123672357883,0.9767149090195745,-0.01711564698026117,-0.204635,-27.820698
11.185,2.0,1.0,1.0,34.9,34.3,34.3,2.6,4.2,2.655,-0.01228753863020173,-0.03737272165571275,0.976181102411983,-0.018007025939559766,-0.208704,-27.642259
11.185,2.0,1.0,1.0,34.9,34.3,34.3,2.6,4.2,2.6575,-0.026057756045877758,-0.037886588024453584,0.9754388047599551,-0.018932955292155537,-0.212901,-27.462138
11.185,2.0,1.0,1.0,34.9,34.3,34.3,2.6,4.2,2.66,-0.039941543540961987,-0.038402474172454584,0.9744821049207224,-0.019894913551643197,-0.217233,-27.280289
11.185,2.0,1.0,1.0,34.9,34.3,34.3,2.6,4.2,2.6625,-0.05393755728248915,-0.038919981492837055,0.9733049278384932,-0.020894457108992022,-0.221705,-27.096663
11.185,2.0,1.0,1.0,34.9,34.3,34.3,2.6,4.2,2.665,-0.06804430914816052,-0.03943867101612864,0.9719010289711859,-0.021933225431417167,-0.226324,-26.911209
11.185,2.0,1.0,1.0,34.9,34.3,34.3,2.6,4.2,2.6675,-0.08226015831385172,-0.03995805963934043,0.970263988371537,-0.023012946690585043,-0.231097,-26.723873
11.185,2.0,1.0,1.0,34.9,34.3,34.3,2.6,4.2,2.67,-0.09658330229557059,-0.04047761595338663,0.9683872043861115,-0.02413544386176742,-0.236032,-26.534598
11.185,2.0,1.0,1.0,34.9,34.3,34.3,2.6,4.2,2.6725,-0.11101176739415271,-0.040996755618922215,0.966263886931317,-0.025302641340060373,-0.241137,-26.343328
11.185,2.0,1.0,1.0,34.9,34.3,34.3,2.6,4.2,2.675,-0.1255433984840415,-0.041514836233595996,0.9638870503005372,-0.02651657212481141,-0.24642,-26.15
11.185,2.0,1.0,1.0,34.9,34.3,34.3,2.6,4.2,2.6775,-0.14017584807945935,-0.042031151625517404,0.9612495054508521,-0.027779385629021682,-0.251891,-25.95455
11.185,2.0,1.0,1.0,34.9,34.3,34.3,2.6,4.2,2.68,-0.15490656460187766,-0.04254492549822041,0.9583438517115545,-0.02909335617675436,-0.25756,-25.756912
11.185,2.0,1.0,1.0,34.9,34.3,34.3,2.6,4.2,2.6825,-0.1697327797617816,-0.043055304341344934,0.9551624678495669,-0.03046089225859251,-0.263437,-25.557014
11.185,2.0,1.0,1.0,34.9,34.3,34.3,2.6,4.2,2.685,-0.18465149495499555,-0.04356134950837765,0.9516975024189479,-0.03188454662301391,-0.269533,-25.354783
11.185,2.0,1.0,1.0,34.9,34.3,34.3,2.6,4.2,2.6875,-0.1996594665589,-0.0440620283477479,0.947940863312773,-0.0333670272902893,-0.275862,-25.150143
11.185,2.0,1.0,1.0,34.9,34.3,34.3,2.6,4.2,2.69,-0.21475318999641752,-0.04455620425599602,0.9438842064257168,-0.034911209585262545,-0.282436,-24.94301
11.185,2.0,1.0,1.0,34.9,34.3,34.3,2.6,4.2,2.6925,-0.2299288824151681,-0.04504262550111283,0.9395189233245047,-0.03652014929625898,-0.289269,-24.7333
11.185,2.0,1.0,1.0,34.9,34.3,34.3,2.6,4.2,2.695,-0.24518246380499564,-0.04551991263994093,0.9348361278109542,-0.03819709707948008,-0.296378,-24.520924
11.185,2.0,1.0,1.0,34.9,34.3,34.3,2.6,4.2,2.6975,-0.2605095363487338,-0.04598654432503801,0.9298266412483932,-0.03994551424174746,-0.303778,-24.305785
11.185,2.0,1.0,1.0,34.9,34.3,34.3,2.6,4.2,2.7,-0.27590536176736524,-0.04644084126277601,0.924480976506792,-0.04176909004942865,-0.311488,-24.087786
11.185,2.0,1.0,1.0,34.9,34.3,34.3,2.6,4.2,2.7025,-0.2913648363810495,-0.04688094804470881,0.9187893203647158,-0.043671760727989145,-0.319528,-23.86682
11.185,2.0,1.0,1.0,34.9,34.3,34.3,2.6,4.2,2.705,-0.30688246356021803,-0.04730481252712491,0.9127415141871991,-0.04565773033493493,-0.32792,-23.642777
11.185,2.0,1.0,1.0,34.9,34.3,34.3,2.6,4.2,2.7075,-0.32245232318484895,-0.04771016237773182,0.906327032677652,-0.047731493709074195,-0.336685,-23.41554
11.185,2.0,1.0,1.0,34.9,34.3,34.3,2.6,4.2,2.71,-0.338068037663084,-0.04809447834176219,0.8995349604789206,-0.04989786172105673,-0.345851,-23.184987
11.185,2.0,1.0,1.0,34.9,34.3,34.3,2.6,4.2,2.7125,-0.35372273398042403,-0.048454963700202885,0.892353966373621,-0.05216198907407634,-0.355445,-22.950986
11.185,2.0,1.0,1.0,34.9,34.3,34.3,2.6,4.2,2.715,-0.36940900115493774,-0.048788509297585686,0.8847722748068853,-0.054529404929323906,-0.365498,-22.713399
11.185,2.0,1.0,1.0,34.9,34.3,34.3,2.6,4.2,2.7175,-0.3851188423589452,-0.049091653402452924,0.8767776344259809,-0.05700604665804367,-0.376044,-22.472081
11.185,2.0,1.0,1.0,34.9,34.3,34.3,2.6,4.2,2.72,-0.40084362082915975,-0.04936053552604153,0.868357283301262,-0.05959829705042256,-0.387118,-22.226878
11.185,2.0,1.0,1.0,34.9,34.3,34.3,2.6,4.2,2.7225,-0.41657399852023536,-0.04959084315875855,0.8594979104622941,-0.062313025340299096,-0.398763,-21.977625
11.185,2.0,1.0,1.0,34.9,34.3,34.3,2.6,4.2,2.725,-0.4322998662543712,-0.049777750183218936,0.8501856133530361,-0.06515763243261834,-0.411024,-21.724148
11.185,2.0,1.0,1.0,34.9,34.3,34.3,2.6,4.2,2.7275,-0.448010263874372,-0.04991584547902816,0.8404058507822032,-0.06814010074592605,-0.42395,-21.466264
11.185,2.0,1.0,1.0,34.9,34.3,34.3,2.6,4.2,2.73,-0.46369328860894077,-0.04999904993816531,0.8301433909223906,-0.07126904910222502,-0.437597,-21.203776
11.185,2.0,1.0,1.0,34.9,34.3,34.3,2.6,4.2,2.7325,-0.4793359894948917,-0.05002051974834073,0.8193822538977519,-0.07455379310732697,-0.452028,-20.936477
11.185,2.0,1.0,1.0,34.9,34.3,34.3,2.6,4.2,2.735,-0.49492424525538375,-0.0499725333595302,0.8081056485011398,-0.07800441146058648,-0.46731,-20.664144
11.185,2.0,1.0,1.0,34.9,34.3,34.3,2.6,4.2,2.7375,-0.510442622486898,-0.04984635900650675,0.7962959026056027,-0.08163181860532288,-0.483523,-20.386542
11.185,2.0,1.0,1.0,34.9,34.3,34.3,2.6,4.2,2.74,-0.5258742103355634,-0.04963209899312897,0.7839343868941804,-0.08544784406832727,-0.500751,-20.10342
11.185,2.0,1.0,1.0,34.9,34.3,34.3,2.6,4.2,2.7425,-0.5412004270148338,-0.04931850612158838,0.7710014316430419,-0.0894653187215188,-0.519094,-19.81451
11.185,2.0,1.0,1.0,34.9,34.3,34.3,2.6,4.2,2.745,-0.5564007924922101,-0.04889276663300086,0.7574762364806703,-0.09369816800656977,-0.538662,-19.519527
11.185,2.0,1.0,1.0,34.9,34.3,34.3,2.6,4.2,2.7475,-0.5714526604037894,-0.0483402427659211,0.7433367733450131,-0.09816151185926525,-0.559579,-19.218166
11.185,2.0,1.0,1.0,34.9,34.3,34.3,2.6,4.2,2.75,-0.58633090068018,-0.0476441664752547,0.728559683321122,-0.102871770604652,-0.581989,-18.910101
11.185,2.0,1.0,1.0,34.9,34.3,34.3,2.6,4.2,2.7525,-0.6010075224084698,-0.046785273908908014,0.7131201687352089,-0.10784677539545841,-0.606054,-18.594986
11.185,2.0,1.0,1.0,34.9,34.3,34.3,2.6,4.2,2.755,-0.6154512240161398,-0.04574136781748997,0.6969918829092454,-0.11310588073302051,-0.631959,-18.272449
11.185,2.0,1.0,1.0,34.9,34.3,34.3,2.6,4.2,2.7575,-0.6296268548246066,-0.0444867920548259,0.6801468214894172,-0.1186700750961654,-0.659918,-17.942095
11.185,2.0,1.0,1.0,34.9,34.3,34.3,2.6,4.2,2.76,-0.6434947682360512,-0.04299179856856339,0.6625552214619678,-0.12456208349974761,-0.690179,-17.6035
11.185,2.0,1.0,1.0,34.9,34.3,34.3,2.6,4.2,2.7625,-0.6570100421113586,-0.04122178260573193,0.6441854771630866,-0.13080645260969712,-0.723027,-17.256213
11.185,2.0,1.0,1.0,34.9,34.3,34.3,2.6,4.2,2.765,-0.6701215360626996,-0.03913635606285417,0.6250040872111118,-0.13742960442126284,-0.758795,-16.899751
11.185,2.0,1.0,1.0,34.9,34.3,34.3,2.6,4.2,2.7675,-0.6827707481908285,-0.036688221764996136,0.6049756529684402,-0.14445983783458885,-0.797872,-16.533601
11.185,2.0,1.0,1.0,34.9,34.3,34.3,2.6,4.2,2.77,-0.6948904250068704,-0.03382180272757797,0.5840629587871805,-0.15192724782962672,-0.840716,-16.157218
11.185,2.0,1.0,1.0,34.9,34.3,34.3,2.6,4.2,2.7725,-0.7064028676887731,-0.030471569939026777,0.5622271782251462,-0.15986351803697235,-0.887868,-15.770023
11.185,2.0,1.0,1.0,34.9,34.3,34.3,2.6,4.2,2.775,-0.7172178653524434,-0.02655999982292033,0.5394282705456742,-0.16830152242051016,-0.939968,-15.371405
11.185,2.0,1.0,1.0,34.9,34.3,34.3,2.6,4.2,2.7775,-0.7272301718741883,-0.021995078505336604,0.5156256608956745,-0.17727464278228222,-0.997785,-14.960721
11.185,2.0,1.0,1.0,34.9,34.3,34.3,2.6,4.2,2.78,-0.7363164277940731,-0.016667255138386062,0.4907793395643337,-0.18681566691157242,-1.062237,-14.537302
11.185,2.0,1.0,1.0,34.9,34.3,34.3,2.6,4.2,2.7825,-0.744331414945116,-0.010445732800206406,0.46485157633753493,-0.19695507177367527,-1.134437,-14.100458
11.185,2.0,1.0,1.0,34.9,34.3,34.3,2.6,4.2,2.785,-0.7511035228836921,-0.003173977092369582,0.43780953318551535,-0.20771840919661158,-1.215738,-13.649486
11.185,2.0,1.0,1.0,34.9,34.3,34.3,2.6,4.2,2.7875,-0.7564293111621356,0.005335672308031531,0.40962918339264986,-0.2191223870752143,-1.307792,-13.183691
11.185,2.0,1.0,1.0,34.9,34.3,34.3,2.6,4.2,2.79,-0.7600670853964955,0.015308367838723707,0.3803011224042488,-0.23116906259330006,-1.412638,-12.702402
11.185,2.0,1.0,1.0,34.9,34.3,34.3,2.6,4.2,2.7925,-0.7617294959247092,0.027014087819813473,0.3498391032429042,-0.24383731734277544,-1.5328,-12.205016
11.185,2.0,1.0,1.0,34.9,34.3,34.3,2.6,4.2,2.795,-0.7610753650748118,0.0407757306523994,0.3182924666597593,-0.257070448289431,-1.671426,-11.691043
11.185,2.0,1.0,1.0,34.9,34.3,34.3,2.6,4.2,2.7975,-0.7577013376260835,0.05697737452264547,0.2857640762303498,-0.2707582704383783,-1.832468,-11.160181
11.185,2.0,1.0,1.0,34.9,34.3,34.3,2.6,4.2,2.8,-0.7511346698608756,0.07607138868969487,0.25243589863687327,-0.2847115996367294,-2.020907,-10.612424
11.185,2.0,1.0,1.0,34.9,34.3,34.3,2.6,4.2,2.8025,-0.7408297477719967,0.0985818109618258,0.2186049067319708,-0.2986264498393512,-2.243045,-10.048207
11.185,2.0,1.0,1.0,34.9,34.3,34.3,2.6,4.2,2.805,-0.7261730760991296,0.12509926176429967,0.18473228317634174,-0.31203498235005017,-2.506863,-9.468614
11.185,2.0,1.0,1.0,34.9,34.3,34.3,2.6,4.2,2.8075,-0.7065049000410304,0.15625925707564764,0.15150838543014017,-0.3242407635730223,-2.82243,-8.875658
11.185,2.0,1.0,1.0,34.9,34.3,34.3,2.6,4.2,2.81,-0.6811705979282596,0.1926908254860521,0.11993339629163936,-0.33423842137386073,-3.202293,-8.272655
11.185,2.0,1.0,1.0,34.9,34.3,34.3,2.6,4.2,2.8125,-0.649621145794985,0.234916199907394,0.0914068438457365,-0.340624514910681,-3.661652,-7.664691
11.185,2.0,1.0,1.0,34.9,34.3,34.3,2.6,4.2,2.815,-0.6115869754082576,0.28317736638892477,0.0678049487777979,-0.34152061748995843,-4.217779,-7.059181
11.185,2.0,1.0,1.0,34.9,34.3,34.3,2.6,4.2,2.8175,-0.5673467827401055,0.33716803676356083,0.05149982522396094,-0.3345544593254867,-4.88739,-6.466436
11.185,2.0,1.0,1.0,34.9,34.3,34.3,2.6,4.2,2.82,-0.5180887658519132,0.3956736528034667,0.045240428444216246,-0.3169789714848398,-5.678927,-5.900106
11.185,2.0,1.0,1.0,34.9,34.3,34.3,2.6,4.2,2.8225,-0.46629787330809264,0.45618575688663116,0.051788677931113664,-0.28603537439164706,-6.573488,-5.377193
11.185,2.0,1.0,1.0,34.9,34.3,34.3,2.6,4.2,2.825,-0.4159929631495305,0.514666367784116,0.07323052931825234,-0.23964005175312714,-7.485739,-4.917278
11.185,2.0,1.0,1.0,34.9,34.3,34.3,2.6,4.2,2.8275,-0.3725309273133966,0.5657443222128469,0.11002555183404289,-0.17733146929812443,-8.213542,-4.540585
