1,w,sub_t,h,l1,l2,l3,g1,g2,Freq,S11_re,S21_re,S11_img,S21_img,S11_dB,S21_dB
11.185,2.0,1.0,1.0,33.5,33.6,33.6,3.8,2.8,2.5,0.850876692685431,-0.00613008407602297,0.513507968522283,0.0046974702679854,-0.05383,-42.244321
11.185,2.0,1.0,1.0,33.5,33.6,33.6,3.8,2.8,2.5025,0.8474226560302466,-0.006249842091637155,0.5190843283905179,0.00471288659988171,-0.054305,-42.127392
11.185,2.0,1.0,1.0,33.5,33.6,33.6,3.8,2.8,2.505,0.8439172783120673,-0.0063716173676176,0.524659586486796,0.0047275942364066285,-0.054787,-42.010204
11.185,2.0,1.0,1.0,33.5,33.6,33.6,3.8,2.8,2.5075,0.8403600722990007,-0.006495446749755555,0.530233494971174,0.004741565975980465,-0.055277,-41.892751
11.185,2.0,1.0,1.0,33.5,33.6,33.6,3.8,2.8,2.51,0.8367505434879413,-0.006621367950084757,0.5358057988164275,0.004754773696210578,-0.055776,-41.775025
11.185,2.0,1.0,1.0,33.5,33.6,33.6,3.8,2.8,2.5125,0.8330881900007842,-0.006749419571953402,0.5413762355837728,0.004767188318282605,-0.056282,-41.657017
11.185,2.0,1.0,1.0,33.5,33.6,33.6,3.8,2.8,2.515,0.8293725024797496,-0.0068796411359436545,0.5469445351915659,0.0047787797697948714,-0.056797,-41.538721
11.185,2.0,1.0,1.0,33.5,33.6,33.6,3.8,2.8,2.5175,0.8256029639818654,-0.007012073106673715,0.5525104196767379,0.004789516945958546,-0.057321,-41.420127
11.185,2.0,1.0,1.0,33.5,33.6,33.6,3.8,2.8,2.52,0.8217790498726159,-0.007146756920516907,0.5580736029487282,0.004799367669083231,-0.057854,-41.301228
11.185,2.0,1.0,1.0,33.5,33.6,33.6,3.8,2.8,2.5225,0.8179002277188128,-0.007283735014275481,0.5636337905356508,0.004808298646261272,-0.058396,-41.182016
11.185,2.0,1.0,1.0,33.5,33.6,33.6,3.8,2.8,2.525,0.8139659571807053,-0.007423050854848679,0.5691906793224408,0.004816275425161141,-0.058947,-41.062483
11.185,2.0,1.0,1.0,33.5,33.6,33.6,3.8,2.8,2.5275,0.8099756899033754,-0.007564748969934454,0.5747439572807093,0.004823262347833202,-0.059508,-40.942619
11.185,2.0,1.0,1.0,33.5,33.6,33.6,3.8,2.8,2.53,0.805928869407461,-0.007708874979809428,0.580293303190011,0.004829222502427441,-0.060078,-40.822417
11.185,2.0,1.0,1.0,33.5,33.6,33.6,3.8,2.8,2.5325,0.8018249309792497,-0.007855475630230665,0.585838386350242,0.004834117672715102,-0.060659,-40.701869
11.185,2.0,1.0,1.0,33.5,33.6,33.6,3.8,2.8,2.535,0.7976633015601862,-0.008004598826507399,0.5913788662848608,0.004837908285301231,-0.06125,-40.580964
11.185,2.0,1.0,1.0,33.5,33.6,33.6,3.8,2.8,2.5375,0.7934433996358567,-0.008156293668790983,0.5969143924346048,0.004840553354407664,-0.061851,-40.459695
11.185,2.0,1.0,1.0,33.5,33.6,33.6,3.8,2.8,2.54,0.7891646351244924,-0.008310610488636691,0.6024446038413852,0.004842010424099498,-0.062463,-40.338052
11.185,2.0,1.0,1.0,33.5,33.6,33.6,3.8,2.8,2.5425,0.7848264092650562,-0.008467600886889998,0.607969128822011,0.004842235507819487,-0.063086,-40.216026
11.185,2.0,1.0,1.0,33.5,33.6,33.6,3.8,2.8,2.545,0.7804281145049758,-0.008627317772955912,0.6134875846313869,0.004841183025087498,-0.06372,-40.093608
11.185,2.0,1.0,1.0,33.5,33.6,33.6,3.8,2.8,2.5475,0.7759691343875922,-0.008789815405510848,0.6189995771148086,0.004838805735213588,-0.064366,-39.970788
11.185,2.0,1.0,1.0,33.5,33.6,33.6,3.8,2.8,2.55,0.7714488434393825,-0.008955149434721078,0.6245047003489846,0.004835054667862653,-0.065023,-39.847557
11.185,2.0,1.0,1.0,33.5,33.6,33.6,3.8,2.8,2.5525,0.7668666070570531,-0.009123376946032465,0.6300025362713608,0.004829879050300501,-0.065692,-39.723906
11.185,2.0,1.0,1.0,33.5,33.6,33.6,3.8,2.8,2.555,0.7622217813945651,-0.009294556505603879,0.6354926542973479,0.004823226231138907,-0.066374,-39.599823
11.185,2.0,1.0,1.0,33.5,33.6,33.6,3.8,2.8,2.5575,0.7575137132501816,-0.009468748207455096,0.6409746109250111,0.004815041600386846,-0.067069,-39.475299
11.185,2.0,1.0,1.0,33.5,33.6,33.6,3.8,2.8,2.56,0.7527417399536351,-0.009646013722408983,0.6464479493267615,0.004805268505602336,-0.067776,-39.350324
11.185,2.0,1.0,1.0,33.5,33.6,33.6,3.8,2.8,2.5625,0.7479051892535018,-0.009826416348907569,0.6519121989275846,0.0047938481639266724,-0.068497,-39.224888
11.185,2.0,1.0,1.0,33.5,33.6,33.6,3.8,2.8,2.565,0.7430033792048825,-0.010010021065788539,0.6573668749693081,0.00478071956976792,-0.069232,-39.098979
11.185,2.0,1.0,1.0,33.5,33.6,33.6,3.8,2.8,2.5675,0.7380356180575084,-0.010196894587112643,0.6628114780603915,0.004765819397887068,-0.06998,-38.972587
11.185,2.0,1.0,1.0,33.5,33.6,33.6,3.8,2.8,2.57,0.7330012041443714,-0.010387105419136256,0.6682454937107056,0.004749081901622054,-0.070743,-38.845701
11.185,2.0,1.0,1.0,33.5,33.6,33.6,3.8,2.8,2.5725,0.727899425771004,-0.010580723919530317,0.6736683918507371,0.004730438805969038,-0.07152,-38.71831
11.185,2.0,1.0,1.0,33.5,33.6,33.6,3.8,2.8,2.575,0.7227295611055318,-0.010777822358950787,0.6790796263346335,0.004709819195221165,-0.072313,-38.590401
11.185,2.0,1.0,1.0,33.5,33.6,33.6,3.8,2.8,2.5775,0.7174908780696325,-0.010978474985072043,0.68447863442647,0.004687149394844434,-0.073121,-38.461965
11.185,2.0,1.0,1.0,33.5,33.6,33.6,3.8,2.8,2.58,0.7121826342305414,-0.011182758089200781,0.6898648362691012,0.004662352847249583,-0.073945,-38.332988
11.185,2.0,1.0,1.0,33.5,33.6,33.6,3.8,2.8,2.5825,0.7068040766942404,-0.011390750075594811,0.6952376343349268,0.0046353499810948655,-0.074786,-38.203458
11.185,2.0,1.0,1.0,33.5,33.6,33.6,3.8,2.8,2.585,0.701354441999998,-0.01160253153361671,0.7005964128578611,0.00460605807372975,-0.075643,-38.073364
11.185,2.0,1.0,1.0,33.5,33.6,33.6,3.8,2.8,2.5875,0.6958329560164036,-0.011818185312861969,0.7059405372457784,0.004574391106362871,-0.076517,-37.942692
11.185,2.0,1.0,1.0,33.5,33.6,33.6,3.8,2.8,2.59,0.6902388338390817,-0.012037796601405752,0.7112693534726505,0.004540259611507812,-0.077409,-37.81143
11.185,2.0,1.0,1.0,33.5,33.6,33.6,3.8,2.8,2.5925,0.6845712796902473,-0.01226145300732399,0.7165821874495764,0.004503570512229015,-0.07832,-37.679564
11.185,2.0,1.0,1.0,33.5,33.6,33.6,3.8,2.8,2.595,0.6788294868203028,-0.012489244643650466,0.7218783443738356,0.0044642269526763804,-0.079249,-37.547081
11.185,2.0,1.0,1.0,33.5,33.6,33.6,3.8,2.8,2.5975,0.6730126374116534,-0.012721264216942483,0.7271571080550869,0.004422128119359631,-0.080197,-37.413968
11.185,2.0,1.0,1.0,33.5,33.6,33.6,3.8,2.8,2.6,0.6671199024849531,-0.012957607119637332,0.7324177402177598,0.004377169052575103,-0.081165,-37.280209
11.185,2.0,1.0,1.0,33.5,33.6,33.6,3.8,2.8,2.6025,0.6611504418079949,-0.013198371526390737,0.7376594797786458,0.004329240447352194,-0.082153,-37.145792
11.185,2.0,1.0,1.0,33.5,33.6,33.6,3.8,2.8,2.605,0.655103403807453,-0.013443658494601966,0.7428815420986492,0.004278228443242976,-0.083162,-37.010701
11.185,2.0,1.0,1.0,33.5,33.6,33.6,3.8,2.8,2.6075,0.6489779254837184,-0.013693572069339268,0.7480831182075944,0.004224014402225154,-0.084192,-36.874922
11.185,2.0,1.0,1.0,33.5,33.6,33.6,3.8,2.8,2.61,0.6427731323290646,-0.013948219392894935,0.7532633740009206,0.004166474673936402,-0.085245,-36.738438
11.185,2.0,1.0,1.0,33.5,33.6,33.6,3.8,2.8,2.6125,0.6364881382493895,-0.014207710819208451,0.7584214494070397,0.004105480347395277,-0.08632,-36.601234
11.185,2.0,1.0,1.0,33.5,33.6,33.6,3.8,2.8,2.615,0.6301220454897902,-0.01447216003341448,0.7635564575240613,0.004040896988303126,-0.087419,-36.463294
11.185,2.0,1.0,1.0,33.5,33.6,33.6,3.8,2.8,2.6175,0.6236739445642513,-0.01474168417678434,0.7686674837244991,0.003972584360947154,-0.088542,-36.324602
11.185,2.0,1.0,1.0,33.5,33.6,33.6,3.8,2.8,2.62,0.6171429141897149,-0.015016403977346012,0.7737535847265058,0.003900396133652179,-0.08969,-36.18514
11.185,2.0,1.0,1.0,33.5,33.6,33.6,3.8,2.8,2.6225,0.6105280212248232,-0.015296443886485156,0.7788137876300961,0.0038241795666408003,-0.090863,-36.044892
11.185,2.0,1.0,1.0,33.5,33.6,33.6,3.8,2.8,2.625,0.603828320613651,-0.0155819322218471,0.7838470889167,0.00374377518107688,-0.092063,-35.903839
11.185,2.0,1.0,1.0,33.5,33.6,33.6,3.8,2.8,2.6275,0.5970428553347131,-0.01587300131687657,0.7888524534103178,0.0036590164079610523,-0.09329,-35.761963
11.185,2.0,1.0,1.0,33.5,33.6,33.6,3.8,2.8,2.63,0.5901706563555927,-0.016169787677355673,0.7938288131984055,0.0035697292154459105,-0.094544,-35.619246
11.185,2.0,1.0,1.0,33.5,33.6,33.6,3.8,2.8,2.6325,0.5832107425935128,-0.016472432145316997,0.798775066510519,0.003475731713015527,-0.095828,-35.475669
11.185,2.0,1.0,1.0,33.5,33.6,33.6,3.8,2.8,2.635,0.5761621208821986,-0.016781080070733936,0.8036900765525998,0.0033768337308473116,-0.097142,-35.33121
11.185,2.0,1.0,1.0,33.5,33.6,33.6,3.8,2.8,2.6375,0.5690237859453925,-0.017095881491412113,0.8085726702946399,0.003272836372532495,-0.098487,-35.185851
11.185,2.0,1.0,1.0,33.5,33.6,33.6,3.8,2.8,2.64,0.5617947203773784,-0.017416991321531097,0.8134216372093304,0.0031635315391766107,-0.099863,-35.039571
11.185,2.0,1.0,1.0,33.5,33.6,33.6,3.8,2.8,2.6425,0.5544738946309057,-0.01774456954931059,0.8182357279590856,0.0030487014227324827,-0.101272,-34.892348
11.185,2.0,1.0,1.0,33.5,33.6,33.6,3.8,2.8,2.645,0.5470602670129003,-0.01807878144430264,0.8230136530286891,0.0029281179662317925,-0.102715,-34.744159
11.185,2.0,1.0,1.0,33.5,33.6,33.6,3.8,2.8,2.6475,0.5395527836883679,-0.018419797774839486,0.8277540813005683,0.002801542288376929,-0.104194,-34.594984
11.185,2.0,1.0,1.0,33.5,33.6,33.6,3.8,2.8,2.65,0.5319503786928925,-0.018767795036196945,0.8324556385695187,0.0026687240697313742,-0.105708,-34.444797
11.185,2.0,1.0,1.0,33.5,33.6,33.6,3.8,2.8,2.6525,0.524251973954188,-0.019122955690063125,0.8371169059934004,0.002529400897498827,-0.107261,-34.293575
11.185,2.0,1.0,1.0,33.5,33.6,33.6,3.8,2.8,2.655,0.5164564793231069,-0.019485468415933623,0.8417364184761192,0.0023832975656099637,-0.108852,-34.141293
11.185,2.0,1.0,1.0,33.5,33.6,33.6,3.8,2.8,2.6575,0.5085627926145861,-0.019855528375090054,0.8463126629788598,0.0022301253265356565,-0.110483,-33.987926
11.185,2.0,1.0,1.0,33.5,33.6,33.6,3.8,2.8,2.66,0.5005697996589866,-0.020233337487849327,0.8508440767552381,0.0020695810909155503,-0.112156,-33.833448
11.185,2.0,1.0,1.0,33.5,33.6,33.6,3.8,2.8,2.6625,0.4924763743643181,-0.02061910472480705,0.8553290455056662,0.00190134657072391,-0.113872,-33.677831
11.185,2.0,1.0,1.0,33.5,33.6,33.6,3.8,2.8,2.665,0.4842813787898308,-0.02101304641283523,0.8597659014458392,0.001725087361292477,-0.115633,-33.521047
11.185,2.0,1.0,1.0,33.5,33.6,33.6,3.8,2.8,2.6675,0.475983663231514,-0.021415386556626784,0.8641529212837915,0.0015404519570618867,-0.11744,-33.363068
11.185,2.0,1.0,1.0,33.5,33.6,33.6,3.8,2.8,2.67,0.46758206632001886,-0.0218263571766163,0.8684883240995086,0.0013470706954377785,-0.119296,-33.203864
11.185,2.0,1.0,1.0,33.5,33.6,33.6,3.8,2.8,2.6725,0.4590754151315651,-0.02224619866414068,0.872770269120524,0.0011445546225783403,-0.121201,-33.043403
11.185,2.0,1.0,1.0,33.5,33.6,33.6,3.8,2.8,2.675,0.45046252531242104,-0.02267516015473553,0.8769968533863315,0.0009324942743302476,-0.123159,-32.881654
11.185,2.0,1.0,1.0,33.5,33.6,33.6,3.8,2.8,2.6775,0.4417422012175605,-0.023113499920493018,0.8811661092937875,0.000710458364849237,-0.12517,-32.718584
11.185,2.0,1.0,1.0,33.5,33.6,33.6,3.8,2.8,2.68,0.4329132360641403,-0.02356148578243592,0.8852760020149295,0.0004779923746896642,-0.127238,-32.55416
11.185,2.0,1.0,1.0,33.5,33.6,33.6,3.8,2.8,2.6825,0.4239744121004881,-0.02401939554388254,0.8893244267778074,0.00023461702930197185,-0.129363,-32.388344
11.185,2.0,1.0,1.0,33.5,33.6,33.6,3.8,2.8,2.685,0.4149245007913223,-0.02448751744579539,0.8933092060000136,-2.0173342059464603e-05,-0.13155,-32.221102
11.185,2.0,1.0,1.0,33.5,33.6,33.6,3.8,2.8,2.6875,0.40576226301999785,-0.024966150645111776,0.8972280862635595,-0.0002869125780665232,-0.1338,-32.052395
11.185,2.0,1.0,1.0,33.5,33.6,33.6,3.8,2.8,2.69,0.3964864493086379,-0.025455605717054516,0.9010787351185879,-0.0005661645999054786,-0.136115,-31.882183
11.185,2.0,1.0,1.0,33.5,33.6,33.6,3.8,2.8,2.6925,0.3870958000570786,-0.025956205182400518,0.9048587377021386,-0.0008585254822600086,-0.138499,-31.710427
11.185,2.0,1.0,1.0,33.5,33.6,33.6,3.8,2.8,2.695,0.3775890458016974,-0.026468284060652256,0.9085655931567078,-0.0011646256956973323,-0.140955,-31.537084
11.185,2.0,1.0,1.0,33.5,33.6,33.6,3.8,2.8,2.6975,0.36796490749526334,-0.0269921904499998,0.9121967108317396,-0.0014851325371218133,-0.143486,-31.36211
11.185,2.0,1.0,1.0,33.5,33.6,33.6,3.8,2.8,2.7,0.35822209680916217,-0.027528286134878614,0.9157494062493301,-0.001820752766820058,-0.146094,-31.185459
11.185,2.0,1.0,1.0,33.5,33.6,33.6,3.8,2.8,2.7025,0.34835931645949086,-0.028076947221803407,0.9192208968133796,-0.00217223547271933,-0.148785,-31.007084
11.185,2.0,1.0,1.0,33.5,33.6,33.6,3.8,2.8,2.705,0.33837526055878164,-0.028638564804003536,0.9226082972390784,-0.0025403751848393115,-0.15156,-30.826936
11.185,2.0,1.0,1.0,33.5,33.6,33.6,3.8,2.8,2.7075,0.3282686149953815,-0.02921354565516416,0.9259086146769918,-0.002926015265588819,-0.154425,-30.644964
11.185,2.0,1.0,1.0,33.5,33.6,33.6,3.8,2.8,2.71,0.31803805784287986,-0.029802312952297464,0.9291187435030063,-0.0033300516045733936,-0.157384,-30.461113
11.185,2.0,1.0,1.0,33.5,33.6,33.6,3.8,2.8,2.7125,0.3076822598023944,-0.030405307027407725,0.9322354597420401,-0.003753436649996789,-0.16044,-30.275329
11.185,2.0,1.0,1.0,33.5,33.6,33.6,3.8,2.8,2.715,0.2971998846810721,-0.03102298614714665,0.9352554150895592,-0.004197183812614592,-0.1636,-30.087553
11.185,2.0,1.0,1.0,33.5,33.6,33.6,3.8,2.8,2.7175,0.2865895899108053,-0.031655827319072634,0.9381751304905809,-0.004662372282600861,-0.166867,-29.897725
11.185,2.0,1.0,1.0,33.5,33.6,33.6,3.8,2.8,2.72,0.2758500271119807,-0.032304327122387254,0.9409909892308663,-0.005150152304696121,-0.170248,-29.705782
11.185,2.0,1.0,1.0,33.5,33.6,33.6,3.8,2.8,2.7225,0.26497984270803643,-0.032969002560096244,0.9436992294893402,-0.005661750962718121,-0.173749,-29.511658
11.185,2.0,1.0,1.0,33.5,33.6,33.6,3.8,2.8,2.725,0.2539776785978745,-0.03365039192838802,0.9462959362942597,-0.006198478531029742,-0.177375,-29.315284
11.185,2.0,1.0,1.0,33.5,33.6,33.6,3.8,2.8,2.7275,0.24284217289459478,-0.03434905569758334,0.9487770328182624,-0.006761735458014424,-0.181134,-29.116588
11.185,2.0,1.0,1.0,33.5,33.6,33.6,3.8,2.8,2.73,0.23157196074093753,-0.03506557739722076,0.9511382709388827,-0.007353020055145635,-0.185032,-28.915494
11.185,2.0,1.0,1.0,33.5,33.6,33.6,3.8,2.8,2.7325,0.22016567521400812,-0.03580056449562608,0.953375220981356,-0.00797393697503648,-0.189078,-28.711925
11.185,2.0,1.0,1.0,33.5,33.6,33.6,3.8,2.8,2.735,0.20862194833471526,-0.03655464926156342,0.9554832605492741,-0.008626206573112402,-0.19328,-28.505795
11.185,2.0,1.0,1.0,33.5,33.6,33.6,3.8,2.8,2.7375,0.19693941220073197,-0.037328489592164234,0.9574575623356899,-0.009311675260528098,-0.197647,-28.297021
11.185,2.0,1.0,1.0,33.5,33.6,33.6,3.8,2.8,2.74,0.1851167002660687,-0.038122769787111065,0.9592930807922743,-0.010032326970909382,-0.202189,-28.085509
11.185,2.0,1.0,1.0,33.5,33.6,33.6,3.8,2.8,2.7425,0.17315244879555053,-0.03893820124383965,0.960984537516817,-0.010790295880804926,-0.206916,-27.871165
11.185,2.0,1.0,1.0,33.5,33.6,33.6,3.8,2.8,2.745,0.1610452985289713,-0.03977552304205355,0.9625264051992602,-0.011587880543770189,-0.21184,-27.653888
11.185,2.0,1.0,1.0,33.5,33.6,33.6,3.8,2.8,2.7475,0.14879389659769374,-0.04063550237783563,0.9639128899431366,-0.012427559621256789,-0.216973,-27.433572
11.185,2.0,1.0,1.0,33.5,33.6,33.6,3.8,2.8,2.75,0.13639689874637,-0.0415189347976997,0.965137911752131,-0.0133120094205225,-0.222328,-27.210107
11.185,2.0,1.0,1.0,33.5,33.6,33.6,3.8,2.8,2.7525,0.12385297192476713,-0.04242664417057917,0.9661950829398525,-0.014244123481275371,-0.227921,-26.983374
11.185,2.0,1.0,1.0,33.5,33.6,33.6,3.8,2.8,2.755,0.11116079732997076,-0.04335948232039754,0.9670776841839255,-0.015227034489541312,-0.233768,-26.753252
11.185,2.0,1.0,1.0,33.5,33.6,33.6,3.8,2.8,2.7575,0.09831907399824413,-0.04431832822274215,0.9677786379022535,-0.016264138840266208,-0.239885,-26.519608
11.185,2.0,1.0,1.0,33.5,33.6,33.6,3.8,2.8,2.76,0.08532652306963553,-0.04530408664529671,0.9682904785785618,-0.01735912422058759,-0.246293,-26.282305
11.185,2.0,1.0,1.0,33.5,33.6,33.6,3.8,2.8,2.7625,0.07218189287804447,-0.04631768608186343,0.9686053196046902,-0.018516000644939048,-0.253011,-26.041199
11.185,2.0,1.0,1.0,33.5,33.6,33.6,3.8,2.8,2.765,0.05888396505672164,-0.04736007579242357,0.9687148161369001,-0.019739135442858435,-0.260064,-25.796134
11.185,2.0,1.0,1.0,33.5,33.6,33.6,3.8,2.8,2.7675,0.045431561895893646,-0.04843222171475573,0.9686101233806059,-0.0210332927825724,-0.267476,-25.546948
11.185,2.0,1.0,1.0,33.5,33.6,33.6,3.8,2.8,2.77,0.03182355524803395,-0.04953510095405083,0.9682818496200165,-0.02240367841056148,-0.275276,-25.293468
11.185,2.0,1.0,1.0,33.5,33.6,33.6,3.8,2.8,2.7725,0.018058877350649063,-0.05066969448238383,0.9677200031931835,-0.02385599040229188,-0.283494,-25.035511
11.185,2.0,1.0,1.0,33.5,33.6,33.6,3.8,2.8,2.775,0.0041365340305278475,-0.05183697758550622,0.966913932475333,-0.025396476855666768,-0.292164,-24.772881
11.185,2.0,1.0,1.0,33.5,33.6,33.6,3.8,2.8,2.7775,-0.009944379127061543,-0.053037907474576186,0.9658522577698098,-0.02703200162075279,-0.301326,-24.505371
11.185,2.0,1.0,1.0,33.5,33.6,33.6,3.8,2.8,2.78,-0.024184656908462852,-0.05427340732779938,0.9645227938112544,-0.028770119352083647,-0.31102,-24.232761
11.185,2.0,1.0,1.0,33.5,33.6,33.6,3.8,2.8,2.7825,-0.03858495997046728,-0.05554434583188898,0.9629124613535982,-0.030619161399471774,-0.321296,-23.954816
11.185,2.0,1.0,1.0,33.5,33.6,33.6,3.8,2.8,2.785,-0.053145784527622225,-0.056851511043106644,0.9610071860385537,-0.032588334327137536,-0.332205,-23.671285
11.185,2.0,1.0,1.0,33.5,33.6,33.6,3.8,2.8,2.7875,-0.06786742472593366,-0.058195577065671765,0.9587917824096606,-0.034687833177790346,-0.343808,-23.381901
11.185,2.0,1.0,1.0,33.5,33.6,33.6,3.8,2.8,2.79,-0.082749925785119,-0.059577061629340164,0.9562498205420684,-0.036928971988436955,-0.356172,-23.086377
11.185,2.0,1.0,1.0,33.5,33.6,33.6,3.8,2.8,2.7925,-0.09779302545178398,-0.060996272108298985,0.9533634722868096,-0.03932433453015062,-0.369372,-22.784409
11.185,2.0,1.0,1.0,33.5,33.6,33.6,3.8,2.8,2.795,-0.1129960806026333,-0.06245323682061544,0.9501133335661858,-0.04188794879864903,-0.383495,-22.475668
11.185,2.0,1.0,1.0,33.5,33.6,33.6,3.8,2.8,2.7975,-0.12835797491618411,-0.06394761752790559,0.9464782184882387,-0.04463548944167593,-0.398639,-22.159804
11.185,2.0,1.0,1.0,33.5,33.6,33.6,3.8,2.8,2.8,-0.1438770023214167,-0.06547859784664643,0.9424349202560338,-0.04758451308937584,-0.414915,-21.836438
11.185,2.0,1.0,1.0,33.5,33.6,33.6,3.8,2.8,2.8025,-0.15955071933369774,-0.06704474068773456,0.9379579329147053,-0.050754732471303736,-0.432451,-21.505167
11.185,2.0,1.0,1.0,33.5,33.6,33.6,3.8,2.8,2.805,-0.17537575726821847,-0.06864380572611709,0.9330191268913164,-0.054168336272065215,-0.451396,-21.165554
11.185,2.0,1.0,1.0,33.5,33.6,33.6,3.8,2.8,2.8075,-0.19134758249531725,-0.07027251508490814,0.9275873700320096,-0.057850362903155025,-0.47192,-20.817132
11.185,2.0,1.0,1.0,33.5,33.6,33.6,3.8,2.8,2.81,-0.2074601891175905,-0.07192625164718087,0.9216280844351815,-0.06182913774227719,-0.494219,-20.459395
11.185,2.0,1.0,1.0,33.5,33.6,33.6,3.8,2.8,2.8125,-0.2237057033566895,-0.0735986693371346,0.9151027278551924,-0.066136784874528,-0.518526,-20.091801
11.185,2.0,1.0,1.0,33.5,33.6,33.6,3.8,2.8,2.815,-0.24007387205517058,-0.07528118786118275,0.9079681868987204,-0.07080982586945393,-0.545109,-19.713763
11.185,2.0,1.0,1.0,33.5,33.6,33.6,3.8,2.8,2.8175,-0.2565513983553339,-0.07696233510403236,0.9001760678407323,-0.07588987945549631,-0.574287,-19.324651
11.185,2.0,1.0,1.0,33.5,33.6,33.6,3.8,2.8,2.82,-0.273121074882219,-0.07862688771318375,0.8916718700002946,-0.08142447675375576,-0.606436,-18.923786
11.185,2.0,1.0,1.0,33.5,33.6,33.6,3.8,2.8,2.8225,-0.2897606473416962,-0.08025474310033058,0.8823940268741967,-0.08746800636595006,-0.642004,-18.510435
11.185,2.0,1.0,1.0,33.5,33.6,33.6,3.8,2.8,2.825,-0.3064413175655557,-0.08181943237873715,0.8722728027512594,-0.09408280095010686,-0.681527,-18.083815
11.185,2.0,1.0,1.0,33.5,33.6,33.6,3.8,2.8,2.8275,-0.32312576225574474,-0.0832861512346391,0.8612290392711844,-0.10134037001037687,-0.725651,-17.643086
