1,w,sub_t,h,l1,l2,l3,g1,g2,Freq,S11_re,S21_re,S11_img,S21_img,S11_dB,S21_dB
11.185,2.0,1.0,1.0,33.1,33.2,33.2,1.6,2.0,2.5,0.885569946949414,-0.0108492261268106,0.449879265944296,0.013514757149633,-0.058477,-35.22366
11.185,2.0,1.0,1.0,33.1,33.2,33.2,1.6,2.0,2.5025,0.8826266493487862,-0.011096316108595673,0.45547920620706345,0.01362420386638308,-0.059068,-35.10397
11.185,2.0,1.0,1.0,33.1,33.2,33.2,1.6,2.0,2.505,0.879634660131146,-0.011348500284883786,0.4610825123482523,0.013733795736873035,-0.059671,-34.983854
11.185,2.0,1.0,1.0,33.1,33.2,33.2,1.6,2.0,2.5075,0.8765934605270927,-0.011605895650833503,0.46668903205406453,0.013843502553230205,-0.060285,-34.863305
11.185,2.0,1.0,1.0,33.1,33.2,33.2,1.6,2.0,2.51,0.873502521942359,-0.011868622409034186,0.47229860755941244,0.013953292521583317,-0.060911,-34.742317
11.185,2.0,1.0,1.0,33.1,33.2,33.2,1.6,2.0,2.5125,0.8703613057373326,-0.012136804074597133,0.47791107543733025,0.014063132185680546,-0.061549,-34.620881
11.185,2.0,1.0,1.0,33.1,33.2,33.2,1.6,2.0,2.515,0.8671692630007315,-0.01241056758420779,0.4835262663800313,0.014172986346550467,-0.062199,-34.498992
11.185,2.0,1.0,1.0,33.1,33.2,33.2,1.6,2.0,2.5175,0.8639258343172547,-0.012690043409302718,0.48914400497121807,0.01428281797798292,-0.062862,-34.376642
11.185,2.0,1.0,1.0,33.1,33.2,33.2,1.6,2.0,2.52,0.8606304495290102,-0.012975365673545451,0.4947641094492741,0.014392588137592253,-0.063538,-34.253823
11.185,2.0,1.0,1.0,33.1,33.2,33.2,1.6,2.0,2.5225,0.8572825274905339,-0.013266672274780586,0.5003863914608964,0.014502255873210516,-0.064228,-34.130528
11.185,2.0,1.0,1.0,33.1,33.2,33.2,1.6,2.0,2.525,0.8538814758171847,-0.013564105011655399,0.5060106558047562,0.014611778124343515,-0.064931,-34.006749
11.185,2.0,1.0,1.0,33.1,33.2,33.2,1.6,2.0,2.5275,0.8504266906267078,-0.01386780971510644,0.511636700164723,0.01472110961840477,-0.065648,-33.882478
11.185,2.0,1.0,1.0,33.1,33.2,33.2,1.6,2.0,2.53,0.8469175562737511,-0.014177936384916481,0.5172643148321604,0.014830202761424901,-0.06638,-33.757707
11.185,2.0,1.0,1.0,33.1,33.2,33.2,1.6,2.0,2.5325,0.8433534450770988,-0.014494639331557908,0.522893282416799,0.014939007522915779,-0.067126,-33.632429
11.185,2.0,1.0,1.0,33.1,33.2,33.2,1.6,2.0,2.535,0.8397337170393895,-0.014818077323548074,0.528523377545643,0.015047471314546321,-0.067888,-33.506634
11.185,2.0,1.0,1.0,33.1,33.2,33.2,1.6,2.0,2.5375,0.8360577195590797,-0.01514841374055139,0.5341543665493471,0.01515553886226717,-0.068666,-33.380314
11.185,2.0,1.0,1.0,33.1,33.2,33.2,1.6,2.0,2.54,0.8323247871343884,-0.015485816732475425,0.5397860071354689,0.015263152071496727,-0.06946,-33.253461
11.185,2.0,1.0,1.0,33.1,33.2,33.2,1.6,2.0,2.5425,0.8285342410589669,-0.015830459384817752,0.5454180480479737,0.015370249884956243,-0.07027,-33.126066
11.185,2.0,1.0,1.0,33.1,33.2,33.2,1.6,2.0,2.545,0.8246853891090162,-0.01618251989053389,0.5510502287123245,0.015476768132715276,-0.071098,-32.998119
11.185,2.0,1.0,1.0,33.1,33.2,33.2,1.6,2.0,2.5475,0.8207775252215759,-0.01654218172870643,0.5566822788654539,0.015582639373979705,-0.071943,-32.869613
11.185,2.0,1.0,1.0,33.1,33.2,33.2,1.6,2.0,2.55,0.8168099291636776,-0.016909633850311752,0.5623139181698968,0.015687792730123957,-0.072807,-32.740536
11.185,2.0,1.0,1.0,33.1,33.2,33.2,1.6,2.0,2.5525,0.8127818661920757,-0.01728507087139007,0.5679448558112761,0.01579215370843618,-0.073689,-32.610881
11.185,2.0,1.0,1.0,33.1,33.2,33.2,1.6,2.0,2.555,0.8086925867032234,-0.017668693273942555,0.5735747900783408,0.015895644016009264,-0.07459,-32.480636
11.185,2.0,1.0,1.0,33.1,33.2,33.2,1.6,2.0,2.5575,0.8045413258731754,-0.018060707614891328,0.5792034079246783,0.01599818136317389,-0.075511,-32.349793
11.185,2.0,1.0,1.0,33.1,33.2,33.2,1.6,2.0,2.56,0.8003273032870734,-0.01846132674345402,0.5848303845111654,0.01609967925582741,-0.076452,-32.218341
11.185,2.0,1.0,1.0,33.1,33.2,33.2,1.6,2.0,2.5625,0.7960497225578659,-0.018870770027301035,0.5904553827281966,0.016200046775970114,-0.077414,-32.08627
11.185,2.0,1.0,1.0,33.1,33.2,33.2,1.6,2.0,2.565,0.7917077709338908,-0.01928926358788036,0.5960780526966502,0.016299188349712636,-0.078398,-31.953569
11.185,2.0,1.0,1.0,33.1,33.2,33.2,1.6,2.0,2.5675,0.7873006188949484,-0.019717040545310874,0.6016980312464889,0.016397003501968422,-0.079404,-31.820227
11.185,2.0,1.0,1.0,33.1,33.2,33.2,1.6,2.0,2.57,0.7828274197364675,-0.020154341273265,0.6073149413718416,0.016493386596990126,-0.080432,-31.686235
11.185,2.0,1.0,1.0,33.1,33.2,33.2,1.6,2.0,2.5725,0.7782873091413598,-0.020601413664278864,0.6129283916613338,0.016588226563851467,-0.081485,-31.55158
11.185,2.0,1.0,1.0,33.1,33.2,33.2,1.6,2.0,2.575,0.773679404739139,-0.021058513405948515,0.6185379757023538,0.016681406605912667,-0.082562,-31.416251
11.185,2.0,1.0,1.0,33.1,33.2,33.2,1.6,2.0,2.5775,0.7690028056518693,-0.02152590426849092,0.6241432714578701,0.01677280389323947,-0.083663,-31.280236
11.185,2.0,1.0,1.0,33.1,33.2,33.2,1.6,2.0,2.58,0.7642565920264931,-0.022003858404168814,0.6297438406143229,0.016862289236874717,-0.084791,-31.143524
11.185,2.0,1.0,1.0,33.1,33.2,33.2,1.6,2.0,2.5825,0.7594398245530652,-0.022492656659101544,0.6353392278990307,0.01694972674378084,-0.085946,-31.006103
11.185,2.0,1.0,1.0,33.1,33.2,33.2,1.6,2.0,2.585,0.7545515439684153,-0.022992588898005817,0.6409289603654321,0.01703497345118904,-0.087128,-30.867959
11.185,2.0,1.0,1.0,33.1,33.2,33.2,1.6,2.0,2.5875,0.7495907705447279,-0.02350395434243354,0.6465125466444098,0.017117878938997806,-0.088338,-30.729081
11.185,2.0,1.0,1.0,33.1,33.2,33.2,1.6,2.0,2.59,0.7445565035625384,-0.024027061923098496,0.6520894761597892,0.017198284918766397,-0.089578,-30.589456
11.185,2.0,1.0,1.0,33.1,33.2,33.2,1.6,2.0,2.5925,0.7394477207675952,-0.024562230646908247,0.6576592183060282,0.01727602479774235,-0.090849,-30.44907
11.185,2.0,1.0,1.0,33.1,33.2,33.2,1.6,2.0,2.595,0.7342633778110498,-0.02510978997934187,0.6632212215859259,0.017350923216246646,-0.09215,-30.30791
11.185,2.0,1.0,1.0,33.1,33.2,33.2,1.6,2.0,2.5975,0.7290024076723962,-0.025670080242842893,0.6687749127061017,0.01742279555661659,-0.093485,-30.165962
11.185,2.0,1.0,1.0,33.1,33.2,33.2,1.6,2.0,2.6,0.7236637200645826,-0.02624345303192023,0.6743196956277895,0.017491447421772027,-0.094852,-30.023212
11.185,2.0,1.0,1.0,33.1,33.2,33.2,1.6,2.0,2.6025,0.7182462008206913,-0.026830271645678694,0.6798549505703511,0.017556674081326235,-0.096255,-29.879645
11.185,2.0,1.0,1.0,33.1,33.2,33.2,1.6,2.0,2.605,0.7127487112615687,-0.027430911538527846,0.6853800329647436,0.017618259883003824,-0.097693,-29.735248
11.185,2.0,1.0,1.0,33.1,33.2,33.2,1.6,2.0,2.6075,0.7071700875437698,-0.028045760789845175,0.6908942723539655,0.017675977626959417,-0.099168,-29.590004
11.185,2.0,1.0,1.0,33.1,33.2,33.2,1.6,2.0,2.61,0.7015091399871779,-0.028675220593396392,0.6963969712373145,0.01772958790040665,-0.100682,-29.443898
11.185,2.0,1.0,1.0,33.1,33.2,33.2,1.6,2.0,2.6125,0.6957646523816254,-0.029319705767344845,0.7018874038550589,0.017778838369765453,-0.102235,-29.296916
11.185,2.0,1.0,1.0,33.1,33.2,33.2,1.6,2.0,2.615,0.6899353812718476,-0.02997964528570759,0.7073648149099098,0.01782346302732018,-0.10383,-29.14904
11.185,2.0,1.0,1.0,33.1,33.2,33.2,1.6,2.0,2.6175,0.6840200552200836,-0.030655482832141617,0.7128284182213688,0.017863181389146186,-0.105467,-29.000254
11.185,2.0,1.0,1.0,33.1,33.2,33.2,1.6,2.0,2.62,0.6780173740456293,-0.031347677376970626,0.7182773953088114,0.017897697640804257,-0.107149,-28.850541
11.185,2.0,1.0,1.0,33.1,33.2,33.2,1.6,2.0,2.6225,0.6719260080406372,-0.032056703778385195,0.7237108938988212,0.017926699727028615,-0.108876,-28.699884
11.185,2.0,1.0,1.0,33.1,33.2,33.2,1.6,2.0,2.625,0.665744597161468,-0.0327830534087703,0.729128026351956,0.0179498583813287,-0.110651,-28.548266
11.185,2.0,1.0,1.0,33.1,33.2,33.2,1.6,2.0,2.6275,0.6594717501948812,-0.033527234807136395,0.7345278680038198,0.017966826091098488,-0.112475,-28.395668
11.185,2.0,1.0,1.0,33.1,33.2,33.2,1.6,2.0,2.63,0.6531060438983713,-0.034289774358643214,0.7399094554148625,0.017977235993469478,-0.11435,-28.242072
11.185,2.0,1.0,1.0,33.1,33.2,33.2,1.6,2.0,2.6325,0.6466460221139569,-0.03507121700221934,0.7452717845229718,0.017980700696754223,-0.116279,-28.087458
11.185,2.0,1.0,1.0,33.1,33.2,33.2,1.6,2.0,2.635,0.6400901948547548,-0.03587212696728805,0.7506138086924221,0.017976811021902416,-0.118262,-27.931808
11.185,2.0,1.0,1.0,33.1,33.2,33.2,1.6,2.0,2.6375,0.6334370373636964,-0.03669308854060972,0.7559344366522738,0.017965134657930606,-0.120303,-27.775101
11.185,2.0,1.0,1.0,33.1,33.2,33.2,1.6,2.0,2.64,0.6266849891437549,-0.037534706864248236,0.761232530316781,0.017945214724781063,-0.122403,-27.617318
11.185,2.0,1.0,1.0,33.1,33.2,33.2,1.6,2.0,2.6425,0.6198324529591321,-0.038397608765650786,0.7665069024797639,0.017916568236515225,-0.124566,-27.458437
11.185,2.0,1.0,1.0,33.1,33.2,33.2,1.6,2.0,2.645,0.6128777938068782,-0.039282443620807954,0.7717563143742834,0.017878684457145307,-0.126793,-27.298436
11.185,2.0,1.0,1.0,33.1,33.2,33.2,1.6,2.0,2.6475,0.6058193378585071,-0.04018988425142246,0.7769794730882508,0.017831023140751773,-0.129086,-27.137295
11.185,2.0,1.0,1.0,33.1,33.2,33.2,1.6,2.0,2.65,0.5986553713712339,-0.04112062785696432,0.7821750288258549,0.017773012646813118,-0.13145,-26.974989
11.185,2.0,1.0,1.0,33.1,33.2,33.2,1.6,2.0,2.6525,0.5913841395686179,-0.042075396982416205,0.7873415720038551,0.017704047920891433,-0.133886,-26.811497
11.185,2.0,1.0,1.0,33.1,33.2,33.2,1.6,2.0,2.655,0.5840038454904495,-0.043054940522428954,0.7924776301709048,0.017623488329952208,-0.136398,-26.646795
11.185,2.0,1.0,1.0,33.1,33.2,33.2,1.6,2.0,2.6575,0.5765126488119513,-0.04406003476248616,0.7975816647370635,0.017530655340657897,-0.138989,-26.480858
11.185,2.0,1.0,1.0,33.1,33.2,33.2,1.6,2.0,2.66,0.5689086646325008,-0.0450914844575369,0.8026520674995845,0.017424830027936548,-0.141662,-26.313661
11.185,2.0,1.0,1.0,33.1,33.2,33.2,1.6,2.0,2.6625,0.5611899622343389,-0.04615012394837542,0.8076871569499113,0.017305250399996343,-0.144421,-26.145178
11.185,2.0,1.0,1.0,33.1,33.2,33.2,1.6,2.0,2.665,0.5533545638119699,-0.047236818315833436,0.8126851743454697,0.01717110852470864,-0.147269,-25.975385
11.185,2.0,1.0,1.0,33.1,33.2,33.2,1.6,2.0,2.6675,0.5454004431733056,-0.04835246457258057,0.8176442795285014,0.017021547440919195,-0.150212,-25.804252
11.185,2.0,1.0,1.0,33.1,33.2,33.2,1.6,2.0,2.67,0.5373255244139618,-0.04949799289201663,0.8225625464725538,0.01685565783674005,-0.153252,-25.631754
11.185,2.0,1.0,1.0,33.1,33.2,33.2,1.6,2.0,2.6725,0.5291276805665579,-0.05067436787335314,0.827437958535616,0.016672474475228773,-0.156394,-25.45786
11.185,2.0,1.0,1.0,33.1,33.2,33.2,1.6,2.0,2.675,0.5208047322274162,-0.051882589841524114,0.8322684033969576,0.01647097234603917,-0.159643,-25.282543
11.185,2.0,1.0,1.0,33.1,33.2,33.2,1.6,2.0,2.6775,0.5123544461636436,-0.05312369618002333,0.8370516676527119,0.016250062519632374,-0.163004,-25.105771
11.185,2.0,1.0,1.0,33.1,33.2,33.2,1.6,2.0,2.68,0.5037745339043167,-0.05439876269411657,0.8417854310429789,0.01600858767843109,-0.166482,-24.927515
11.185,2.0,1.0,1.0,33.1,33.2,33.2,1.6,2.0,2.6825,0.49506265032033697,-0.05570890500110983,0.8464672602807247,0.015745317296874242,-0.170083,-24.747741
11.185,2.0,1.0,1.0,33.1,33.2,33.2,1.6,2.0,2.685,0.48621639219849966,-0.05705527994344894,0.8510946024500436,0.015458942439651274,-0.173813,-24.566418
11.185,2.0,1.0,1.0,33.1,33.2,33.2,1.6,2.0,2.6875,0.4772332968164962,-0.05843908701935347,0.855664777938315,0.015148070144444496,-0.177678,-24.383512
11.185,2.0,1.0,1.0,33.1,33.2,33.2,1.6,2.0,2.69,0.468110840526925,-0.059861569824424594,0.860174972863475,0.014811217352247214,-0.181684,-24.198988
11.185,2.0,1.0,1.0,33.1,33.2,33.2,1.6,2.0,2.6925,0.45884643735994884,-0.061324017496183485,0.8646222309539774,0.014446804344728151,-0.185839,-24.012811
11.185,2.0,1.0,1.0,33.1,33.2,33.2,1.6,2.0,2.695,0.44943743765613786,-0.06282776615174049,0.8690034448349415,0.014053147644136708,-0.19015,-23.824944
11.185,2.0,1.0,1.0,33.1,33.2,33.2,1.6,2.0,2.6975,0.43988112674314805,-0.06437420030674887,0.8733153466695817,0.013628452326850515,-0.194626,-23.635349
11.185,2.0,1.0,1.0,33.1,33.2,33.2,1.6,2.0,2.7,0.43017472367248294,-0.06596475426137152,0.8775544981000235,0.01317080369680904,-0.199274,-23.443988
11.185,2.0,1.0,1.0,33.1,33.2,33.2,1.6,2.0,2.7025,0.4203153800354886,-0.06760091343616048,0.8817172794262385,0.0126781582597063,-0.204105,-23.25082
11.185,2.0,1.0,1.0,33.1,33.2,33.2,1.6,2.0,2.705,0.4103001788812446,-0.06928421563741288,0.8857998779557793,0.012148333932871475,-0.209127,-23.055804
11.185,2.0,1.0,1.0,33.1,33.2,33.2,1.6,2.0,2.7075,0.40012613376303546,-0.07101625222766243,0.8897982754503604,0.011578999419194658,-0.214352,-22.858898
11.185,2.0,1.0,1.0,33.1,33.2,33.2,1.6,2.0,2.71,0.3897901879448357,-0.07279866917237302,0.8937082345880034,0.010967662666175547,-0.21979,-22.660059
11.185,2.0,1.0,1.0,33.1,33.2,33.2,1.6,2.0,2.7125,0.37928921380478825,-0.07463316792852015,0.8975252843513216,0.010311658323124724,-0.225453,-22.459239
11.185,2.0,1.0,1.0,33.1,33.2,33.2,1.6,2.0,2.715,0.3686200124791323,-0.07652150613441905,0.9012447042435687,0.009608134100635627,-0.231354,-22.256395
11.185,2.0,1.0,1.0,33.1,33.2,33.2,1.6,2.0,2.7175,0.35777931379764694,-0.0784654980527366,0.9048615072241308,0.008854035926589338,-0.237507,-22.051476
11.185,2.0,1.0,1.0,33.1,33.2,33.2,1.6,2.0,2.72,0.34676377657059465,-0.0804670147099014,0.908370421244185,0.0080460917820513,-0.243927,-21.844435
11.185,2.0,1.0,1.0,33.1,33.2,33.2,1.6,2.0,2.7225,0.3355699892975409,-0.08252798366488387,0.9117658692511311,0.0071807940883641865,-0.250629,-21.63522
11.185,2.0,1.0,1.0,33.1,33.2,33.2,1.6,2.0,2.725,0.3241944713807496,-0.0846503883282641,0.9150419475170067,0.006254380503428465,-0.25763,-21.423777
11.185,2.0,1.0,1.0,33.1,33.2,33.2,1.6,2.0,2.7275,0.3126336749401496,-0.0868362667383506,0.9181924021313737,0.005262812970456602,-0.264948,-21.210054
11.185,2.0,1.0,1.0,33.1,33.2,33.2,1.6,2.0,2.73,0.30088398734382055,-0.08908770968442757,0.9212106034828716,0.004201754846282509,-0.272603,-20.993994
11.185,2.0,1.0,1.0,33.1,33.2,33.2,1.6,2.0,2.7325,0.2889417345877713,-0.09140685804759377,0.9240895185357372,0.003066545918460762,-0.280617,-20.775539
11.185,2.0,1.0,1.0,33.1,33.2,33.2,1.6,2.0,2.735,0.2768031856821491,-0.09379589920651848,0.9268216806879508,0.0018521751007761326,-0.289012,-20.55463
11.185,2.0,1.0,1.0,33.1,33.2,33.2,1.6,2.0,2.7375,0.2644645582285199,-0.09625706232818775,0.92939915697611,0.0005532505752764266,-0.297813,-20.331204
11.185,2.0,1.0,1.0,33.1,33.2,33.2,1.6,2.0,2.74,0.2519220254052638,-0.09879261233154496,0.9318135123685705,-0.0008360328745700954,-0.307047,-20.1052
11.185,2.0,1.0,1.0,33.1,33.2,33.2,1.6,2.0,2.7425,0.23917172461632677,-0.10140484227397178,0.934055770862797,-0.002321929620617285,-0.316743,-19.87655
11.185,2.0,1.0,1.0,33.1,33.2,33.2,1.6,2.0,2.745,0.2262097681036842,-0.10409606386570293,0.9361163730749722,-0.003911182345495626,-0.326932,-19.645187
11.185,2.0,1.0,1.0,33.1,33.2,33.2,1.6,2.0,2.7475,0.21303225587709232,-0.10686859576425695,0.9379851299800164,-0.005611064935569411,-0.337649,-19.411042
11.185,2.0,1.0,1.0,33.1,33.2,33.2,1.6,2.0,2.75,0.199635291377636,-0.109724749238255,0.939651172428007,-0.00742942948229459,-0.348931,-19.174043
11.185,2.0,1.0,1.0,33.1,33.2,33.2,1.6,2.0,2.7525,0.18601500036606644,-0.11266681071577551,0.9411028960288931,-0.00937475779695635,-0.360818,-18.934115
11.185,2.0,1.0,1.0,33.1,33.2,33.2,1.6,2.0,2.755,0.1721675536149199,-0.11569702064447568,0.9423279009617609,-0.011456217879504921,-0.373355,-18.691182
11.185,2.0,1.0,1.0,33.1,33.2,33.2,1.6,2.0,2.7575,0.1580891940878257,-0.11881754798654595,0.9433129262278636,-0.01368372581912571,-0.386589,-18.445166
11.185,2.0,1.0,1.0,33.1,33.2,33.2,1.6,2.0,2.76,0.14377626941295116,-0.12203045954802885,0.9440437778295261,-0.016068013641446745,-0.400574,-18.195984
11.185,2.0,1.0,1.0,33.1,33.2,33.2,1.6,2.0,2.7625,0.1292252706041204,-0.1253376831955463,0.9445052503203814,-0.01862070365380157,-0.415368,-17.943555
11.185,2.0,1.0,1.0,33.1,33.2,33.2,1.6,2.0,2.765,0.1144328781568759,-0.12874096383964434,0.9446810411384566,-0.02135438987400749,-0.431033,-17.687791
11.185,2.0,1.0,1.0,33.1,33.2,33.2,1.6,2.0,2.7675,0.09939601685291345,-0.1322418108576961,0.9445536571042246,-0.02428272715736858,-0.44764,-17.428605
11.185,2.0,1.0,1.0,33.1,33.2,33.2,1.6,2.0,2.77,0.08411192085074132,-0.1358414353845335,0.944104312444535,-0.027420528657807346,-0.465265,-17.165906
11.185,2.0,1.0,1.0,33.1,33.2,33.2,1.6,2.0,2.7725,0.06857821093044772,-0.13954067560856712,0.9433128176944292,-0.030783872267666133,-0.483992,-16.899603
11.185,2.0,1.0,1.0,33.1,33.2,33.2,1.6,2.0,2.775,0.052792986104134604,-0.1433399078667788,0.9421574588385464,-0.03439021667074377,-0.503915,-16.629599
11.185,2.0,1.0,1.0,33.1,33.2,33.2,1.6,2.0,2.7775,0.036754932210738125,-0.14723894092390397,0.9406148660901796,-0.038258527606300975,-0.525137,-16.3558
11.185,2.0,1.0,1.0,33.1,33.2,33.2,1.6,2.0,2.78,0.020463450595774934,-0.15123689033816065,0.938659871779948,-0.042409414867062754,-0.547771,-16.078105
11.185,2.0,1.0,1.0,33.1,33.2,33.2,1.6,2.0,2.7825,0.00391881054567073,-0.1553320292452052,0.9362653569522758,-0.046865280426934094,-0.571945,-15.796416
11.185,2.0,1.0,1.0,33.1,33.2,33.2,1.6,2.0,2.785,-0.0128776701829201,-0.15952161121924566,0.9334020864657171,-0.051650477894699044,-0.597798,-15.510632
11.185,2.0,1.0,1.0,33.1,33.2,33.2,1.6,2.0,2.7875,-0.029923411609889823,-0.16380166007945907,0.9300385326883559,-0.05679148319245281,-0.625488,-15.220651
11.185,2.0,1.0,1.0,33.1,33.2,33.2,1.6,2.0,2.79,-0.04721431850289692,-0.16816672058413226,0.9261406883058911,-0.0623170759279072,-0.655188,-14.926372
11.185,2.0,1.0,1.0,33.1,33.2,33.2,1.6,2.0,2.7925,-0.06474448094658582,-0.17260956287678253,0.9216718693621091,-0.06825853032317962,-0.687095,-14.627693
11.185,2.0,1.0,1.0,33.1,33.2,33.2,1.6,2.0,2.795,-0.08250582014031371,-0.17712083230149445,0.9165925104870162,-0.07464981372087909,-0.721427,-14.324516
11.185,2.0,1.0,1.0,33.1,33.2,33.2,1.6,2.0,2.7975,-0.10048766962971029,-0.181688634775275,0.9108599554127453,-0.08152778953513057,-0.758429,-14.016742
11.185,2.0,1.0,1.0,33.1,33.2,33.2,1.6,2.0,2.8,-0.11867628056338984,-0.1862980462865104,0.9044282474286301,-0.08893241995256661,-0.798378,-13.70428
11.185,2.0,1.0,1.0,33.1,33.2,33.2,1.6,2.0,2.8025,-0.13705423776717007,-0.19093053328532664,0.8972479265100378,-0.09690696158997766,-0.841583,-13.38704
11.185,2.0,1.0,1.0,33.1,33.2,33.2,1.6,2.0,2.805,-0.15559977146876444,-0.19556326876860528,0.8892658426301319,-0.10549814452071987,-0.888397,-13.064942
11.185,2.0,1.0,1.0,33.1,33.2,33.2,1.6,2.0,2.8075,-0.1742859474414632,-0.20016832679615643,0.8804249984307932,-0.11475632138860298,-0.939216,-12.737915
11.185,2.0,1.0,1.0,33.1,33.2,33.2,1.6,2.0,2.81,-0.19307971627010959,-0.20471173611108767,0.8706644392389092,-0.12473556848389668,-0.994492,-12.405901
11.185,2.0,1.0,1.0,33.1,33.2,33.2,1.6,2.0,2.8125,-0.2119408005546938,-0.209152371657244,0.8599192146733124,-0.13549371435331123,-1.054735,-12.068856
11.185,2.0,1.0,1.0,33.1,33.2,33.2,1.6,2.0,2.815,-0.23082039744308736,-0.21344066138033738,0.8481204441615755,-0.14709226338680245,-1.12053,-11.726756
11.185,2.0,1.0,1.0,33.1,33.2,33.2,1.6,2.0,2.8175,-0.24965967336890735,-0.21751708521666582,0.8351955289973192,-0.15959617144459745,-1.192541,-11.379604
11.185,2.0,1.0,1.0,33.1,33.2,33.2,1.6,2.0,2.82,-0.268388028930597,-0.2213104442893631,0.8210685665811479,-0.17307341749351077,-1.271531,-11.027429
11.185,2.0,1.0,1.0,33.1,33.2,33.2,1.6,2.0,2.8225,-0.2869211154609393,-0.22473588203456324,0.8056610386689493,-0.1875942989463041,-1.358371,-10.670301
11.185,2.0,1.0,1.0,33.1,33.2,33.2,1.6,2.0,2.825,-0.30515859239707555,-0.22769264667827555,0.7888928651944519,-0.20323035855092114,-1.454063,-10.308334
11.185,2.0,1.0,1.0,33.1,33.2,33.2,1.6,2.0,2.8275,-0.3229816280129707,-0.23006159814009583,0.7706839387258448,-0.22005282708030652,-1.559761,-9.941695
11.185,2.0,1.0,1.0,33.1,33.2,33.2,1.6,2.0,2.83,-0.3402501680467445,-0.23170248470255725,0.7509562816116083,-0.23813043899379735,-1.676792,-9.570618
