1,w,sub_t,h,l1,l2,l3,g1,g2,Freq,S11_re,S21_re,S11_img,S21_img,S11_dB,S21_dB
11.185,2.0,1.0,1.0,33.9,33.6,33.6,2.4,3.0,2.5,0.797731260907029,-0.0112141421586353,0.590523741432182,0.00796944416550324,-0.065226,-37.229205
11.185,2.0,1.0,1.0,33.9,33.6,33.6,2.4,3.0,2.5025,0.7932975423424695,-0.011435801832640261,0.5963376361411223,0.007987151909365081,-0.065904,-37.109193
11.185,2.0,1.0,1.0,33.9,33.6,33.6,2.4,3.0,2.505,0.7887983708486399,-0.011661426423415354,0.6021461568229602,0.008003253968424209,-0.066595,-36.988811
11.185,2.0,1.0,1.0,33.9,33.6,33.6,2.4,3.0,2.5075,0.784233044593018,-0.011891092391586006,0.6079488568277541,0.008017682971931183,-0.067299,-36.868052
11.185,2.0,1.0,1.0,33.9,33.6,33.6,2.4,3.0,2.51,0.7796008514263774,-0.012124877868137679,0.6137452756466936,0.008030369016199017,-0.068016,-36.746907
11.185,2.0,1.0,1.0,33.9,33.6,33.6,2.4,3.0,2.5125,0.7749010687644035,-0.012362862691785088,0.619534938465575,0.00804123956288082,-0.068746,-36.625369
11.185,2.0,1.0,1.0,33.9,33.6,33.6,2.4,3.0,2.515,0.7701329634704569,-0.012605128447016823,0.6253173557036201,0.008050219332801898,-0.06949,-36.503432
11.185,2.0,1.0,1.0,33.9,33.6,33.6,2.4,3.0,2.5175,0.7652957917396858,-0.012851758502809847,0.6310920225371103,0.008057230195133028,-0.070249,-36.381086
11.185,2.0,1.0,1.0,33.9,33.6,33.6,2.4,3.0,2.52,0.7603887989846843,-0.013102838052008053,0.6368584184073286,0.008062191051679367,-0.071021,-36.258324
11.185,2.0,1.0,1.0,33.9,33.6,33.6,2.4,3.0,2.5225,0.7554112197229377,-0.01335845415135455,0.6426160065122323,0.008065017716049725,-0.071808,-36.135139
11.185,2.0,1.0,1.0,33.9,33.6,33.6,2.4,3.0,2.525,0.7503622774662749,-0.01361869576216752,0.648364233281312,0.00806562278745602,-0.072611,-36.011521
11.185,2.0,1.0,1.0,33.9,33.6,33.6,2.4,3.0,2.5275,0.7452411846125858,-0.013883653791645797,0.6541025278330298,0.008063915518880502,-0.073429,-35.887464
11.185,2.0,1.0,1.0,33.9,33.6,33.6,2.4,3.0,2.53,0.7400471423400793,-0.014153421134786575,0.6598303014142293,0.008059801679334186,-0.074262,-35.762959
11.185,2.0,1.0,1.0,33.9,33.6,33.6,2.4,3.0,2.5325,0.7347793405043601,-0.014428092716895562,0.6655469468208715,0.008053183409913891,-0.075112,-35.637998
11.185,2.0,1.0,1.0,33.9,33.6,33.6,2.4,3.0,2.535,0.7294369575386312,-0.014707765536666912,0.671251837799449,0.008043959073350907,-0.075979,-35.512571
11.185,2.0,1.0,1.0,33.9,33.6,33.6,2.4,3.0,2.5375,0.7240191603573527,-0.014992538709804755,0.6769443284283715,0.008032023096725998,-0.076863,-35.386672
11.185,2.0,1.0,1.0,33.9,33.6,33.6,2.4,3.0,2.54,0.7185251042636945,-0.015282513513155249,0.6826237524786254,0.00801726580700763,-0.077764,-35.26029
11.185,2.0,1.0,1.0,33.9,33.6,33.6,2.4,3.0,2.5425,0.7129539328611525,-0.015577793429313098,0.6882894227529555,0.007999573259052355,-0.078683,-35.133417
11.185,2.0,1.0,1.0,33.9,33.6,33.6,2.4,3.0,2.545,0.707304777969717,-0.015878484191661685,0.6939406304028037,0.007978827055685004,-0.079621,-35.006045
11.185,2.0,1.0,1.0,33.9,33.6,33.6,2.4,3.0,2.5475,0.7015767595470167,-0.016184693829799913,0.6995766442221937,0.007954904159454785,-0.080577,-34.878163
11.185,2.0,1.0,1.0,33.9,33.6,33.6,2.4,3.0,2.55,0.6957689856148607,-0.016496532715303224,0.7051967099177433,0.007927676695641466,-0.081553,-34.749764
11.185,2.0,1.0,1.0,33.9,33.6,33.6,2.4,3.0,2.5525,0.6898805521916715,-0.016814113607759536,0.7108000493539202,0.007897011746060454,-0.082549,-34.620837
11.185,2.0,1.0,1.0,33.9,33.6,33.6,2.4,3.0,2.555,0.6839105432312849,-0.01713755170101314,0.7163858597726538,0.007862771133190703,-0.083565,-34.491374
11.185,2.0,1.0,1.0,33.9,33.6,33.6,2.4,3.0,2.5575,0.6778580305686527,-0.01746696466954316,0.7219533129863637,0.007824811194121237,-0.084602,-34.361364
11.185,2.0,1.0,1.0,33.9,33.6,33.6,2.4,3.0,2.56,0.6717220738730162,-0.017802472714891795,0.7275015545434207,0.007782982543783146,-0.085661,-34.230798
11.185,2.0,1.0,1.0,33.9,33.6,33.6,2.4,3.0,2.5625,0.6655017206091368,-0.018144198612051007,0.7330297028650359,0.007737129826903181,-0.086742,-34.099665
11.185,2.0,1.0,1.0,33.9,33.6,33.6,2.4,3.0,2.565,0.6591960060072183,-0.018492267755703385,0.738536848352514,0.007687091458080594,-0.087845,-33.967957
11.185,2.0,1.0,1.0,33.9,33.6,33.6,2.4,3.0,2.5675,0.6528039530422003,-0.018846808206203103,0.7440220524637708,0.007632699349355633,-0.088972,-33.835662
11.185,2.0,1.0,1.0,33.9,33.6,33.6,2.4,3.0,2.57,0.6463245724231296,-0.01920795073517021,0.7494843467579715,0.00757377862459863,-0.090123,-33.70277
11.185,2.0,1.0,1.0,33.9,33.6,33.6,2.4,3.0,2.5725,0.6397568625933642,-0.019575828870556068,0.7549227319070902,0.007510147320009443,-0.091298,-33.569271
11.185,2.0,1.0,1.0,33.9,33.6,33.6,2.4,3.0,2.575,0.6330998097424223,-0.019950578941026007,0.7603361766731491,0.007441616069973758,-0.092499,-33.435154
11.185,2.0,1.0,1.0,33.9,33.6,33.6,2.4,3.0,2.5775,0.6263523878303244,-0.02033234011948544,0.765723616849834,0.007367987777477479,-0.093726,-33.300407
11.185,2.0,1.0,1.0,33.9,33.6,33.6,2.4,3.0,2.58,0.6195135586253413,-0.02072125446555974,0.7710839541671325,0.007289057268231742,-0.09498,-33.16502
11.185,2.0,1.0,1.0,33.9,33.6,33.6,2.4,3.0,2.5825,0.6125822717561007,-0.021117466966818387,0.7764160551575789,0.007204610927607584,-0.096261,-33.028981
11.185,2.0,1.0,1.0,33.9,33.6,33.6,2.4,3.0,2.585,0.6055574647790876,-0.021521125578511255,0.7817187499826346,0.007114426319426227,-0.097571,-32.89228
11.185,2.0,1.0,1.0,33.9,33.6,33.6,2.4,3.0,2.5875,0.5984380632626106,-0.021932381261562977,0.7869908312176523,0.007018271785588102,-0.098909,-32.754903
11.185,2.0,1.0,1.0,33.9,33.6,33.6,2.4,3.0,2.59,0.5912229808884009,-0.022351388018543077,0.7922310525938195,0.006915906025463187,-0.100278,-32.616839
11.185,2.0,1.0,1.0,33.9,33.6,33.6,2.4,3.0,2.5925,0.5839111195720561,-0.022778302927304133,0.7974381276953951,0.006807077653894645,-0.101678,-32.478075
11.185,2.0,1.0,1.0,33.9,33.6,33.6,2.4,3.0,2.595,0.5765013696036456,-0.02321328617194577,0.8026107286104684,0.006691524736596134,-0.103109,-32.3386
11.185,2.0,1.0,1.0,33.9,33.6,33.6,2.4,3.0,2.5975,0.5689926098098455,-0.02365650107073176,0.807747484533406,0.0065689743016439615,-0.104574,-32.198401
11.185,2.0,1.0,1.0,33.9,33.6,33.6,2.4,3.0,2.6,0.5613837077390785,-0.024108114100547168,0.8128469803170576,0.0064391418256823955,-0.106072,-32.057464
11.185,2.0,1.0,1.0,33.9,33.6,33.6,2.4,3.0,2.6025,0.5536735198712308,-0.024568294917442245,0.8179077549726775,0.006301730693369386,-0.107605,-31.915777
11.185,2.0,1.0,1.0,33.9,33.6,33.6,2.4,3.0,2.605,0.5458608918535911,-0.02503721637276569,0.8229283001154685,0.006156431628494847,-0.109174,-31.773326
11.185,2.0,1.0,1.0,33.9,33.6,33.6,2.4,3.0,2.6075,0.5379446587647904,-0.02551505452433901,0.8279070583535033,0.0060029220950982365,-0.11078,-31.630097
11.185,2.0,1.0,1.0,33.9,33.6,33.6,2.4,3.0,2.61,0.5299236454086257,-0.026001988642069047,0.8328424216176906,0.0058408656668030015,-0.112424,-31.486076
11.185,2.0,1.0,1.0,33.9,33.6,33.6,2.4,3.0,2.6125,0.5217966666397598,-0.026498201207337826,0.8377327294303514,0.005669911362463706,-0.114108,-31.34125
11.185,2.0,1.0,1.0,33.9,33.6,33.6,2.4,3.0,2.615,0.513562527723429,-0.027003877905440565,0.8425762671098062,0.005489692946095769,-0.115832,-31.195602
11.185,2.0,1.0,1.0,33.9,33.6,33.6,2.4,3.0,2.6175,0.5052200247314425,-0.02751920761027103,0.8473712639082721,0.0052998281889162354,-0.117598,-31.049119
11.185,2.0,1.0,1.0,33.9,33.6,33.6,2.4,3.0,2.62,0.49676794497687277,-0.02804438236037478,0.8521158910802353,0.0050999180911780765,-0.119408,-30.901785
11.185,2.0,1.0,1.0,33.9,33.6,33.6,2.4,3.0,2.6225,0.4882050674900269,-0.02857959732540048,0.8568082598782599,0.004889546061318476,-0.121262,-30.753584
11.185,2.0,1.0,1.0,33.9,33.6,33.6,2.4,3.0,2.625,0.479530163538454,-0.0291250507618844,0.861446419473101,0.00466827704976985,-0.123163,-30.604501
11.185,2.0,1.0,1.0,33.9,33.6,33.6,2.4,3.0,2.6275,0.4707419971939068,-0.02968094395719503,0.866028354794766,0.004435656634594768,-0.125111,-30.454519
11.185,2.0,1.0,1.0,33.9,33.6,33.6,2.4,3.0,2.63,0.46183932594940713,-0.030247481160348,0.8705519842910037,0.004191210055907349,-0.127109,-30.303622
11.185,2.0,1.0,1.0,33.9,33.6,33.6,2.4,3.0,2.6325,0.4528209013897528,-0.03082486949826864,0.8750151575994932,0.003934441195823638,-0.129157,-30.151792
11.185,2.0,1.0,1.0,33.9,33.6,33.6,2.4,3.0,2.635,0.44368546991904945,-0.03141331887593788,0.8794156531298005,0.0036648315004531836,-0.131259,-29.999012
11.185,2.0,1.0,1.0,33.9,33.6,33.6,2.4,3.0,2.6375,0.43443177354910456,-0.03201304185869581,0.8837511755509195,0.00338183884018806,-0.133415,-29.845264
11.185,2.0,1.0,1.0,33.9,33.6,33.6,2.4,3.0,2.64,0.4250585507527588,-0.03262425353480221,0.8880193531799957,0.0030848963042722096,-0.135628,-29.690529
11.185,2.0,1.0,1.0,33.9,33.6,33.6,2.4,3.0,2.6425,0.4155645373865701,-0.033247171356156756,0.8922177352675359,0.00277341092534152,-0.137899,-29.53479
11.185,2.0,1.0,1.0,33.9,33.6,33.6,2.4,3.0,2.645,0.4059484676875484,-0.03388201495486611,0.8963437891741357,0.0024467623292986464,-0.140231,-29.378026
11.185,2.0,1.0,1.0,33.9,33.6,33.6,2.4,3.0,2.6475,0.3962090753489986,-0.03452900593310176,0.900394897433429,0.002104301305546755,-0.142626,-29.220218
11.185,2.0,1.0,1.0,33.9,33.6,33.6,2.4,3.0,2.65,0.38634509468087874,-0.03518836762343314,0.9043683546956608,0.0017453482922238583,-0.145086,-29.061346
11.185,2.0,1.0,1.0,33.9,33.6,33.6,2.4,3.0,2.6525,0.37635526186055057,-0.03586032481651324,0.9082613645458668,0.0013691917706777621,-0.147613,-28.901389
11.185,2.0,1.0,1.0,33.9,33.6,33.6,2.4,3.0,2.655,0.36623831628015546,-0.03654510345267568,0.9120710361903038,0.0009750865629743179,-0.15021,-28.740325
11.185,2.0,1.0,1.0,33.9,33.6,33.6,2.4,3.0,2.6575,0.3559930019974073,-0.03724293027362769,0.9157943810043122,0.0005622520257558628,-0.15288,-28.578133
11.185,2.0,1.0,1.0,33.9,33.6,33.6,2.4,3.0,2.66,0.3456180692970854,-0.03795403243002012,0.9194283089343407,0.0001298701332429045,-0.155626,-28.414791
11.185,2.0,1.0,1.0,33.9,33.6,33.6,2.4,3.0,2.6625,0.33511227637112123,-0.038678637040216714,0.9229696247463499,-0.0003229165583929757,-0.15845,-28.250274
11.185,2.0,1.0,1.0,33.9,33.6,33.6,2.4,3.0,2.665,0.32447439112576043,-0.03941697069508116,0.9264150241122843,-0.0007970070736735978,-0.161355,-28.08456
11.185,2.0,1.0,1.0,33.9,33.6,33.6,2.4,3.0,2.6675,0.3137031931250508,-0.040169258903030955,0.9297610895256807,-0.0012933443165334686,-0.164344,-27.917624
11.185,2.0,1.0,1.0,33.9,33.6,33.6,2.4,3.0,2.67,0.3027974756806228,-0.040935725468972985,0.9330042860368392,-0.0018129175149021613,-0.167422,-27.749441
11.185,2.0,1.0,1.0,33.9,33.6,33.6,2.4,3.0,2.6725,0.29175604809859457,-0.041716591800031365,0.9361409567972908,-0.0023567648217300624,-0.170591,-27.579985
11.185,2.0,1.0,1.0,33.9,33.6,33.6,2.4,3.0,2.675,0.28057773809539127,-0.042512076130175984,0.9391673184025011,-0.00292597608390447,-0.173855,-27.409229
11.185,2.0,1.0,1.0,33.9,33.6,33.6,2.4,3.0,2.6775,0.26926139439528973,-0.04332239265497978,0.9420794560209101,-0.0035216957914441286,-0.177218,-27.237147
11.185,2.0,1.0,1.0,33.9,33.6,33.6,2.4,3.0,2.68,0.25780588952364336,-0.04414775056672686,0.9448733182965044,-0.004145126220390776,-0.180684,-27.06371
11.185,2.0,1.0,1.0,33.9,33.6,33.6,2.4,3.0,2.6825,0.24621012281104487,-0.04498835297897313,0.9475447120110896,-0.0047975307839347985,-0.184258,-26.888889
11.185,2.0,1.0,1.0,33.9,33.6,33.6,2.4,3.0,2.685,0.23447302362509173,-0.045844395728402744,0.9500892964913263,-0.005480237607539462,-0.187944,-26.712654
11.185,2.0,1.0,1.0,33.9,33.6,33.6,2.4,3.0,2.6875,0.222593554847982,-0.0467160660403998,0.952502577744428,-0.00619464334516217,-0.191747,-26.534975
11.185,2.0,1.0,1.0,33.9,33.6,33.6,2.4,3.0,2.69,0.21057071661999963,-0.04760354104315347,0.9547799023050206,-0.00694221725513129,-0.195672,-26.355819
11.185,2.0,1.0,1.0,33.9,33.6,33.6,2.4,3.0,2.6925,0.19840355037082621,-0.048506986113313215,0.9569164507743093,-0.007724505555833139,-0.199725,-26.175155
11.185,2.0,1.0,1.0,33.9,33.6,33.6,2.4,3.0,2.695,0.18609114316294248,-0.049426553034164225,0.95890723103103,-0.00854313608310157,-0.203911,-25.992947
11.185,2.0,1.0,1.0,33.9,33.6,33.6,2.4,3.0,2.6975,0.17363263237374912,-0.050362377944992744,0.9607470710919825,-0.009399823273112347,-0.208236,-25.809161
11.185,2.0,1.0,1.0,33.9,33.6,33.6,2.4,3.0,2.7,0.16102721074594256,-0.05131457905769337,0.9624306115979916,-0.010296373496658308,-0.212707,-25.62376
11.185,2.0,1.0,1.0,33.9,33.6,33.6,2.4,3.0,2.7025,0.14827413183870897,-0.05228325411371291,0.9639522978991026,-0.011234690772961398,-0.217331,-25.436709
11.185,2.0,1.0,1.0,33.9,33.6,33.6,2.4,3.0,2.705,0.13537271591595423,-0.053268477551064425,0.9653063717104602,-0.012216782893657492,-0.222114,-25.247967
11.185,2.0,1.0,1.0,33.9,33.6,33.6,2.4,3.0,2.7075,0.12232235631169815,-0.0542702973473245,0.966486862307873,-0.01324476799030955,-0.227065,-25.057495
11.185,2.0,1.0,1.0,33.9,33.6,33.6,2.4,3.0,2.71,0.10912252631736047,-0.05528873150018503,0.9674875772292747,-0.01432088158176565,-0.232192,-24.865252
11.185,2.0,1.0,1.0,33.9,33.6,33.6,2.4,3.0,2.7125,0.0957727866407769,-0.056323764102178306,0.9683020924452637,-0.015447484140921404,-0.237503,-24.671194
11.185,2.0,1.0,1.0,33.9,33.6,33.6,2.4,3.0,2.715,0.08227279349262243,-0.05737534096055127,0.9689237419586506,-0.016627069223975204,-0.243008,-24.475278
11.185,2.0,1.0,1.0,33.9,33.6,33.6,2.4,3.0,2.7175,0.0686223073625732,-0.058443364706811295,0.9693456067892753,-0.01786227220911825,-0.248716,-24.277457
11.185,2.0,1.0,1.0,33.9,33.6,33.6,2.4,3.0,2.72,0.05482120255512252,-0.05952768933309453,0.9695605032964384,-0.01915587969579464,-0.254639,-24.077684
11.185,2.0,1.0,1.0,33.9,33.6,33.6,2.4,3.0,2.7225,0.04086947756358154,-0.0606281140840582,0.9695609707869709,-0.020510839620231338,-0.260788,-23.87591
11.185,2.0,1.0,1.0,33.9,33.6,33.6,2.4,3.0,2.725,0.02676726637073297,-0.06174437662330783,0.9693392583522914,-0.021930272147885097,-0.267174,-23.672083
11.185,2.0,1.0,1.0,33.9,33.6,33.6,2.4,3.0,2.7275,0.01251485077590377,-0.0628761453822507,0.9688873108726571,-0.023417481408827174,-0.27381,-23.46615
11.185,2.0,1.0,1.0,33.9,33.6,33.6,2.4,3.0,2.73,-0.0018873261387563436,-0.06402301098646439,0.9681967541213622,-0.02497596814787761,-0.280711,-23.258055
11.185,2.0,1.0,1.0,33.9,33.6,33.6,2.4,3.0,2.7325,-0.016438645275029255,-0.06518447663993825,0.9672588788955614,-0.026609443367554282,-0.287891,-23.047742
11.185,2.0,1.0,1.0,33.9,33.6,33.6,2.4,3.0,2.735,-0.031138295373463423,-0.06635994733055021,0.966064624094076,-0.028321843048595585,-0.295367,-22.835151
11.185,2.0,1.0,1.0,33.9,33.6,33.6,2.4,3.0,2.7375,-0.0459852552914638,-0.06754871770051106,0.964604558655587,-0.03011734403997576,-0.303155,-22.620219
11.185,2.0,1.0,1.0,33.9,33.6,33.6,2.4,3.0,2.74,-0.06097827451681773,-0.06874995840280852,0.962868862263324,-0.03200038121791192,-0.311274,-22.402883
11.185,2.0,1.0,1.0,33.9,33.6,33.6,2.4,3.0,2.7425,-0.07611585170237707,-0.06996270073838477,0.9608473047146725,-0.03397566602135326,-0.319744,-22.183074
11.185,2.0,1.0,1.0,33.9,33.6,33.6,2.4,3.0,2.745,-0.09139621097671569,-0.07118581933828269,0.9585292238460111,-0.036048206479749455,-0.328586,-21.960724
11.185,2.0,1.0,1.0,33.9,33.6,33.6,2.4,3.0,2.7475,-0.10681727574992268,-0.07241801261955394,0.9559035018948405,-0.0382233288574428,-0.337825,-21.735759
11.185,2.0,1.0,1.0,33.9,33.6,33.6,2.4,3.0,2.75,-0.122376639692104,-0.0736577807025082,0.952958540172866,-0.0405067010476359,-0.347484,-21.508103
11.185,2.0,1.0,1.0,33.9,33.6,33.6,2.4,3.0,2.7525,-0.13807153451376675,-0.07490340042885003,0.9496822319154524,-0.042904357857351506,-0.357592,-21.277678
11.185,2.0,1.0,1.0,33.9,33.6,33.6,2.4,3.0,2.755,-0.15389879412081145,-0.07615289706422189,0.9460619331650755,-0.04542272833279085,-0.368178,-21.0444
11.185,2.0,1.0,1.0,33.9,33.6,33.6,2.4,3.0,2.7575,-0.16985481465094462,-0.07740401220321089,0.9420844315394438,-0.048068665281601655,-0.379274,-20.808184
11.185,2.0,1.0,1.0,33.9,33.6,33.6,2.4,3.0,2.76,-0.18593550982111026,-0.07865416731828684,0.9377359127295083,-0.050849477154156206,-0.390915,-20.568941
11.185,2.0,1.0,1.0,33.9,33.6,33.6,2.4,3.0,2.7625,-0.20213626092532985,-0.07990042230442249,0.9330019245693976,-0.05377296244925878,-0.40314,-20.326576
11.185,2.0,1.0,1.0,33.9,33.6,33.6,2.4,3.0,2.765,-0.21845186071615405,-0.081139428265901,0.9278673385203664,-0.056847446809623156,-0.415991,-20.080991
11.185,2.0,1.0,1.0,33.9,33.6,33.6,2.4,3.0,2.7675,-0.23487645027865417,-0.0823673736682246,0.9223163084158741,-0.0600818229675753,-0.429512,-19.832085
11.185,2.0,1.0,1.0,33.9,33.6,33.6,2.4,3.0,2.77,-0.25140344785935864,-0.08357992283271687,0.916332226326371,-0.06348559368981649,-0.443755,-19.579751
11.185,2.0,1.0,1.0,33.9,33.6,33.6,2.4,3.0,2.7725,-0.26802546844038955,-0.08477214558037748,0.9098976754233482,-0.06706891784915774,-0.458775,-19.323878
11.185,2.0,1.0,1.0,33.9,33.6,33.6,2.4,3.0,2.775,-0.2847342326459627,-0.08593843663007562,0.902994379755563,-0.07084265971757038,-0.474631,-19.064348
11.185,2.0,1.0,1.0,33.9,33.6,33.6,2.4,3.0,2.7775,-0.3015204633292429,-0.08707242311864916,0.8956031509009919,-0.07481844152419898,-0.49139,-18.801042
11.185,2.0,1.0,1.0,33.9,33.6,33.6,2.4,3.0,2.78,-0.3183737679050847,-0.08816685833033472,0.8877038315315184,-0.07900869924828832,-0.509127,-18.533831
11.185,2.0,1.0,1.0,33.9,33.6,33.6,2.4,3.0,2.7825,-0.3352825041612135,-0.08921349939241872,0.8792752360317624,-0.08342674151250358,-0.527922,-18.262583
11.185,2.0,1.0,1.0,33.9,33.6,33.6,2.4,3.0,2.785,-0.3522336268871866,-0.09020296630405653,0.8702950884586809,-0.08808681129669593,-0.547865,-17.987159
11.185,2.0,1.0,1.0,33.9,33.6,33.6,2.4,3.0,2.7875,-0.3692125121968545,-0.09112457920532023,0.8607399583285373,-0.09300414999223583,-0.569058,-17.707416
11.185,2.0,1.0,1.0,33.9,33.6,33.6,2.4,3.0,2.79,-0.3862027558735642,-0.09196617025169217,0.8505851949900031,-0.09819506304496131,-0.59161,-17.423203
11.185,2.0,1.0,1.0,33.9,33.6,33.6,2.4,3.0,2.7925,-0.40318594142437064,-0.09271386582175875,0.8398048617102641,-0.10367698606712342,-0.615648,-17.134362
11.185,2.0,1.0,1.0,33.9,33.6,33.6,2.4,3.0,2.795,-0.42014137277456537,-0.0933518340376391,0.8283716710957179,-0.10946854980479337,-0.641309,-16.840731
11.185,2.0,1.0,1.0,33.9,33.6,33.6,2.4,3.0,2.7975,-0.4370457656504327,-0.09386199170237969,0.8162569241311078,-0.11558964168645904,-0.668751,-16.54214
11.185,2.0,1.0,1.0,33.9,33.6,33.6,2.4,3.0,2.8,-0.4538728906693355,-0.09422366373935138,0.8034304560039895,-0.12206146079786946,-0.698148,-16.238411
11.185,2.0,1.0,1.0,33.9,33.6,33.6,2.4,3.0,2.8025,-0.47059315996531076,-0.09441318703960953,0.7898605930558787,-0.1289065619574723,-0.729698,-15.929364
11.185,2.0,1.0,1.0,33.9,33.6,33.6,2.4,3.0,2.805,-0.48717314781274756,-0.09440344927131253,0.7755141267597226,-0.1361488830142111,-0.763624,-15.614809
11.185,2.0,1.0,1.0,33.9,33.6,33.6,2.4,3.0,2.8075,-0.5035750341632749,-0.09416335167460035,0.7603563126865035,-0.1438137474345368,-0.800179,-15.294553
11.185,2.0,1.0,1.0,33.9,33.6,33.6,2.4,3.0,2.81,-0.5197559582889218,-0.09365718316265101,0.7443509051506223,-0.15192783153072315,-0.83965,-14.968397
11.185,2.0,1.0,1.0,33.9,33.6,33.6,2.4,3.0,2.8125,-0.535667267856227,-0.092843891204315,0.727460241820617,-0.160519082102797,-0.882365,-14.636137
11.185,2.0,1.0,1.0,33.9,33.6,33.6,2.4,3.0,2.815,-0.5512536468083628,-0.09167623304243395,0.7096453973165205,-0.16961656555577692,-0.928697,-14.297571
11.185,2.0,1.0,1.0,33.9,33.6,33.6,2.4,3.0,2.8175,-0.5664521035319329,-0.09009978893144245,0.6908664310324731,-0.1792502233702848,-0.979076,-13.952491
11.185,2.0,1.0,1.0,33.9,33.6,33.6,2.4,3.0,2.82,-0.5811907991535308,-0.0880518174794831,0.6710827625620301,-0.18945050071235586,-1.033995,-13.600693
11.185,2.0,1.0,1.0,33.9,33.6,33.6,2.4,3.0,2.8225,-0.5953876948176339,-0.08545993222152767,0.6502537187153962,-0.20024780442040185,-1.094022,-13.24198
11.185,2.0,1.0,1.0,33.9,33.6,33.6,2.4,3.0,2.825,-0.6089489970337872,-0.08224057882106657,0.6283393098808432,-0.21167173293123365,-1.159815,-12.87616
11.185,2.0,1.0,1.0,33.9,33.6,33.6,2.4,3.0,2.8275,-0.6217673825765739,-0.07829729472311515,0.6053013112059733,-0.22375000310111326,-1.23214,-12.50306
