1,w,sub_t,h,l1,l2,l3,g1,g2,Freq,S11_re,S21_re,S11_img,S21_img,S11_dB,S21_dB
11.185,2.0,1.0,1.0,34.5,34.9,34.9,4.2,1.5,2.5,0.700483833976727,-0.0153873056169937,0.701563963087175,0.00747474454864313,-0.075041,-35.336649
11.185,2.0,1.0,1.0,34.5,34.9,34.9,4.2,1.5,2.5025,0.6947160144773189,-0.015703602303784852,0.7071206548043286,0.007460986153700497,-0.076012,-35.196058
11.185,2.0,1.0,1.0,34.5,34.9,34.9,4.2,1.5,2.505,0.6888702727375429,-0.016027006132760386,0.7126589092153837,0.007444405644292437,-0.077006,-35.054501
11.185,2.0,1.0,1.0,34.5,34.9,34.9,4.2,1.5,2.5075,0.6829457324199608,-0.016357733554869473,0.718177950232007,0.0074248712498016485,-0.078025,-34.911954
11.185,2.0,1.0,1.0,34.5,34.9,34.9,4.2,1.5,2.51,0.6769415017809466,-0.01669601017211662,0.7236769777735679,0.007402244422233509,-0.07907,-34.768391
11.185,2.0,1.0,1.0,34.5,34.9,34.9,4.2,1.5,2.5125,0.6708566732205179,-0.01704207124045847,0.7291551668835288,0.0073763794112769255,-0.080142,-34.623784
11.185,2.0,1.0,1.0,34.5,34.9,34.9,4.2,1.5,2.515,0.6646903228051324,-0.017396162206565716,0.7346116668020396,0.007347122807120341,-0.081241,-34.478105
11.185,2.0,1.0,1.0,34.5,34.9,34.9,4.2,1.5,2.5175,0.6584415097610958,-0.017758539281128728,0.7400455999915528,0.007314313048136524,-0.082368,-34.331327
11.185,2.0,1.0,1.0,34.5,34.9,34.9,4.2,1.5,2.52,0.6521092759359679,-0.018129470051629886,0.7454560611120263,0.007277779890250913,-0.083526,-34.183418
11.185,2.0,1.0,1.0,34.5,34.9,34.9,4.2,1.5,2.5225,0.6456926452251365,-0.01850923413776953,0.750842115941883,0.007237343834476686,-0.084714,-34.034349
11.185,2.0,1.0,1.0,34.5,34.9,34.9,4.2,1.5,2.525,0.6391906229603892,-0.018898123893030323,0.756202800240569,0.00719281550872789,-0.085935,-33.884087
11.185,2.0,1.0,1.0,34.5,34.9,34.9,4.2,1.5,2.5275,0.6326021952570368,-0.019296445156186403,0.7615371185480962,0.007143994999605054,-0.087188,-33.7326
11.185,2.0,1.0,1.0,34.5,34.9,34.9,4.2,1.5,2.53,0.6259263283157795,-0.01970451805692447,0.7668440429164873,0.007090671129382425,-0.088477,-33.579852
11.185,2.0,1.0,1.0,34.5,34.9,34.9,4.2,1.5,2.5325,0.6191619676751052,-0.020122677880139724,0.772122511567504,0.007032620672901194,-0.089802,-33.425809
11.185,2.0,1.0,1.0,34.5,34.9,34.9,4.2,1.5,2.535,0.6123080374095856,-0.020551275993908442,0.777371427470455,0.006969607508484952,-0.091164,-33.270433
11.185,2.0,1.0,1.0,34.5,34.9,34.9,4.2,1.5,2.5375,0.6053634392689603,-0.020990680846625042,0.7825896568331747,0.006901381696330275,-0.092566,-33.113686
11.185,2.0,1.0,1.0,34.5,34.9,34.9,4.2,1.5,2.54,0.598327051752346,-0.02144127903933121,0.7877760274985326,0.006827678477079061,-0.094009,-32.955529
11.185,2.0,1.0,1.0,34.5,34.9,34.9,4.2,1.5,2.5425,0.5911977291113205,-0.021903476479861454,0.7929293272379586,0.00674821718243443,-0.095494,-32.79592
11.185,2.0,1.0,1.0,34.5,34.9,34.9,4.2,1.5,2.545,0.5839743002749699,-0.022377699626095655,0.7980483019324919,0.0066627000487289615,-0.097024,-32.634816
11.185,2.0,1.0,1.0,34.5,34.9,34.9,4.2,1.5,2.5475,0.5766555676892465,-0.02286439682634596,0.8031316536307702,0.006570810923272638,-0.098601,-32.472172
11.185,2.0,1.0,1.0,34.5,34.9,34.9,4.2,1.5,2.55,0.5692403060621316,-0.023364039765730437,0.8081780384721297,0.0064722138520824065,-0.100226,-32.307941
11.185,2.0,1.0,1.0,34.5,34.9,34.9,4.2,1.5,2.5525,0.5617272610052325,-0.023877125028299414,0.8131860644615415,0.0063665515362028,-0.101903,-32.142076
11.185,2.0,1.0,1.0,34.5,34.9,34.9,4.2,1.5,2.555,0.5541151475613336,-0.02440417578570542,0.8181542890815287,0.00625344364224031,-0.103633,-31.974525
11.185,2.0,1.0,1.0,34.5,34.9,34.9,4.2,1.5,2.5575,0.546402648606326,-0.02494574362434666,0.8230812167243342,0.006132484950927658,-0.105419,-31.805235
11.185,2.0,1.0,1.0,34.5,34.9,34.9,4.2,1.5,2.56,0.5385884131126226,-0.025502410524189695,0.8279652959255192,0.006003243325468143,-0.107264,-31.634152
11.185,2.0,1.0,1.0,34.5,34.9,34.9,4.2,1.5,2.5625,0.5306710542597121,-0.026074791003903475,0.8328049163777497,0.0058652574790477,-0.109171,-31.461218
11.185,2.0,1.0,1.0,34.5,34.9,34.9,4.2,1.5,2.565,0.5226491473758812,-0.02666353444853471,0.8375984057007736,0.005718034518192566,-0.111142,-31.286373
11.185,2.0,1.0,1.0,34.5,34.9,34.9,4.2,1.5,2.5675,0.5145212276933199,-0.027269327637742025,0.8423440259404024,0.005561047235538309,-0.113182,-31.109553
11.185,2.0,1.0,1.0,34.5,34.9,34.9,4.2,1.5,2.57,0.5062857878967497,-0.02789289749461758,0.8470399697656524,0.005393731121993856,-0.115293,-30.930694
11.185,2.0,1.0,1.0,34.5,34.9,34.9,4.2,1.5,2.5725,0.49794127544342476,-0.02853501407737634,0.8516843563289892,0.005215481064152146,-0.11748,-30.749726
11.185,2.0,1.0,1.0,34.5,34.9,34.9,4.2,1.5,2.575,0.48948608962974777,-0.029196493838728074,0.8562752267497246,0.005025647688023754,-0.119747,-30.566577
11.185,2.0,1.0,1.0,34.5,34.9,34.9,4.2,1.5,2.5775,0.48091857837682767,-0.0298782031805949,0.8608105391749614,0.004823533304639377,-0.122098,-30.381171
11.185,2.0,1.0,1.0,34.5,34.9,34.9,4.2,1.5,2.58,0.4722370347040045,-0.030581062335043832,0.8652881633659213,0.004608387406645973,-0.124538,-30.193429
11.185,2.0,1.0,1.0,34.5,34.9,34.9,4.2,1.5,2.5825,0.46343969285564107,-0.0313060496059156,0.8697058747498401,0.004379401657550808,-0.127071,-30.003268
11.185,2.0,1.0,1.0,34.5,34.9,34.9,4.2,1.5,2.585,0.45452472404231004,-0.03205420600969694,0.8740613478686945,0.004135704306555859,-0.129705,-29.810599
11.185,2.0,1.0,1.0,34.5,34.9,34.9,4.2,1.5,2.5875,0.4454902317527469,-0.03282664035877376,0.8783521491456142,0.003876353951740355,-0.132444,-29.615331
11.185,2.0,1.0,1.0,34.5,34.9,34.9,4.2,1.5,2.59,0.43633424658762315,-0.033624534835371166,0.8825757288775734,0.0036003325624126455,-0.135295,-29.417366
11.185,2.0,1.0,1.0,34.5,34.9,34.9,4.2,1.5,2.5925,0.42705472056013927,-0.0344491511103227,0.8867294123486342,0.00330653765742764,-0.138265,-29.216602
11.185,2.0,1.0,1.0,34.5,34.9,34.9,4.2,1.5,2.595,0.417649520801654,-0.03530183706738588,0.8908103899410355,0.002993773519745817,-0.141362,-29.012932
11.185,2.0,1.0,1.0,34.5,34.9,34.9,4.2,1.5,2.5975,0.40811642260285386,-0.03618403420123967,0.89481570610146,0.0026607413079893162,-0.144594,-28.80624
11.185,2.0,1.0,1.0,34.5,34.9,34.9,4.2,1.5,2.6,0.3984531017123292,-0.03709728576565124,0.8987422469960661,0.0023060279026339975,-0.14797,-28.596408
11.185,2.0,1.0,1.0,34.5,34.9,34.9,4.2,1.5,2.6025,0.38865712580465805,-0.03804324575769696,0.9025867266597412,0.0019280932970060268,-0.151501,-28.383308
11.185,2.0,1.0,1.0,34.5,34.9,34.9,4.2,1.5,2.605,0.378725945019112,-0.03902368883448578,0.9063456714114231,0.00152525631052314,-0.155196,-28.166804
11.185,2.0,1.0,1.0,34.5,34.9,34.9,4.2,1.5,2.6075,0.3686568814578005,-0.04004052127066187,0.9100154022672294,0.0010956783624980343,-0.159068,-27.946755
11.185,2.0,1.0,1.0,34.5,34.9,34.9,4.2,1.5,2.61,0.35844711751829733,-0.04109579307818456,0.9135920150349712,0.000637344997914285,-0.16313,-27.723008
11.185,2.0,1.0,1.0,34.5,34.9,34.9,4.2,1.5,2.6125,0.3480936829204443,-0.04219171142458484,0.9170713577157177,0.00014804480015164907,-0.167396,-27.495404
11.185,2.0,1.0,1.0,34.5,34.9,34.9,4.2,1.5,2.615,0.3375934402700413,-0.04333065550214901,0.920449004768155,-0.0003746547424790129,-0.171882,-27.26377
11.185,2.0,1.0,1.0,34.5,34.9,34.9,4.2,1.5,2.6175,0.3269430689835041,-0.04451519301829827,0.923720227706728,-0.0009334349320432108,-0.176605,-27.027926
11.185,2.0,1.0,1.0,34.5,34.9,34.9,4.2,1.5,2.62,0.3161390473772679,-0.0457480984967519,0.9268799614015661,-0.0015312577340923703,-0.181586,-26.787676
11.185,2.0,1.0,1.0,34.5,34.9,34.9,4.2,1.5,2.6225,0.30517763270401577,-0.047032373599673966,0.9299227653224676,-0.0021714025669352537,-0.186845,-26.542815
11.185,2.0,1.0,1.0,34.5,34.9,34.9,4.2,1.5,2.625,0.294054838895153,-0.0483712697024851,0.932842778815161,-0.00285750889535435,-0.192406,-26.293121
11.185,2.0,1.0,1.0,34.5,34.9,34.9,4.2,1.5,2.6275,0.28276641174587686,-0.04976831297465502,0.9356336693086527,-0.0035936257014314676,-0.198297,-26.038357
11.185,2.0,1.0,1.0,34.5,34.9,34.9,4.2,1.5,2.63,0.2713078012572218,-0.05122733224031201,0.9382885721184684,-0.004384269132815408,-0.204546,-25.77827
11.185,2.0,1.0,1.0,34.5,34.9,34.9,4.2,1.5,2.6325,0.2596741308302973,-0.05275248990999237,0.9408000202204376,-0.005234489911083284,-0.211189,-25.512589
11.185,2.0,1.0,1.0,34.5,34.9,34.9,4.2,1.5,2.635,0.2478601629948366,-0.054348316286226585,0.9431598620082281,-0.006149952434449458,-0.218262,-25.241021
11.185,2.0,1.0,1.0,34.5,34.9,34.9,4.2,1.5,2.6375,0.23586026135181615,-0.05601974754625428,0.9453591645956148,-0.007137027948926043,-0.22581,-24.963252
11.185,2.0,1.0,1.0,34.5,34.9,34.9,4.2,1.5,2.64,0.2236683484254338,-0.057772167687897696,0.9473880996560767,-0.008202904714810534,-0.233879,-24.678942
11.185,2.0,1.0,1.0,34.5,34.9,34.9,4.2,1.5,2.6425,0.21127785916420744,-0.05961145467878197,0.9492358080745334,-0.00935571879332729,-0.242526,-24.387728
11.185,2.0,1.0,1.0,34.5,34.9,34.9,4.2,1.5,2.645,0.1986816899204966,-0.06154403095865978,0.9508902387752227,-0.010604709963760846,-0.251814,-24.089212
11.185,2.0,1.0,1.0,34.5,34.9,34.9,4.2,1.5,2.6475,0.18587214289713394,-0.06357691828545121,0.9523379559283763,-0.011960408410392016,-0.261815,-23.782967
11.185,2.0,1.0,1.0,34.5,34.9,34.9,4.2,1.5,2.65,0.1728408663159127,-0.0657177966516314,0.9535639072500587,-0.013434859265086545,-0.272613,-23.468527
11.185,2.0,1.0,1.0,34.5,34.9,34.9,4.2,1.5,2.6525,0.15957879099101605,-0.06797506657440923,0.9545511441928857,-0.015041893954089898,-0.284304,-23.145388
11.185,2.0,1.0,1.0,34.5,34.9,34.9,4.2,1.5,2.655,0.14607606466493742,-0.07035791339881114,0.9552804823444201,-0.0167974597082115,-0.297001,-22.812998
11.185,2.0,1.0,1.0,34.5,34.9,34.9,4.2,1.5,2.6575,0.1323219865121603,-0.0728763712231445,0.9557300871232303,-0.01872002173066283,-0.310834,-22.470758
11.185,2.0,1.0,1.0,34.5,34.9,34.9,4.2,1.5,2.66,0.11830494583032233,-0.07554138247253579,0.9558749656451901,-0.020831056613590554,-0.325957,-22.11801
11.185,2.0,1.0,1.0,34.5,34.9,34.9,4.2,1.5,2.6625,0.10401237141617768,-0.07836484671919693,0.9556863400959317,-0.023155660971850962,-0.342552,-21.754034
11.185,2.0,1.0,1.0,34.5,34.9,34.9,4.2,1.5,2.665,0.08943070192090853,-0.08135964863253121,0.9551308706473579,-0.025723306349708642,-0.360834,-21.378041
11.185,2.0,1.0,1.0,34.5,34.9,34.9,4.2,1.5,2.6675,0.07454539330509642,-0.08453964924736725,0.9541696863042378,-0.028568780827383965,-0.38106,-20.989163
11.185,2.0,1.0,1.0,34.5,34.9,34.9,4.2,1.5,2.67,0.059340988475762455,-0.0879196159850195,0.9527571692738193,-0.03173337017335609,-0.403541,-20.586443
11.185,2.0,1.0,1.0,34.5,34.9,34.9,4.2,1.5,2.6725,0.04380128803246159,-0.09151505334874009,0.9508394214850866,-0.03526634785493866,-0.42865,-20.168827
11.185,2.0,1.0,1.0,34.5,34.9,34.9,4.2,1.5,2.675,0.027909682550584413,-0.09534187524133368,0.9483523194297139,-0.03922686500801498,-0.456846,-19.735149
11.185,2.0,1.0,1.0,34.5,34.9,34.9,4.2,1.5,2.6775,0.011649740430674307,-0.09941582709281827,0.9452190339597661,-0.04368636011934328,-0.488691,-19.284124
11.185,2.0,1.0,1.0,34.5,34.9,34.9,4.2,1.5,2.68,-0.004993801784512882,-0.1037515144589701,0.9413468533211032,-0.048731645369549194,-0.524884,-18.814327
11.185,2.0,1.0,1.0,34.5,34.9,34.9,4.2,1.5,2.6825,-0.022033415917663588,-0.10836081310966995,0.936623099104971,-0.05446887368712271,-0.5663,-18.324191
11.185,2.0,1.0,1.0,34.5,34.9,34.9,4.2,1.5,2.685,-0.03947616097918689,-0.11325030531960596,0.9309098660768171,-0.061028647438523154,-0.614045,-17.811987
11.185,2.0,1.0,1.0,34.5,34.9,34.9,4.2,1.5,2.6875,-0.05731948473815214,-0.11841717769112121,0.9240372525746277,-0.06857259183265331,-0.669531,-17.275822
11.185,2.0,1.0,1.0,34.5,34.9,34.9,4.2,1.5,2.69,-0.07554452100762357,-0.12384267760418663,0.9157946941613693,-0.07730176812615915,-0.734585,-16.713641
11.185,2.0,1.0,1.0,34.5,34.9,34.9,4.2,1.5,2.6925,-0.09410539283036333,-0.1294816776367999,0.9059200116001896,-0.08746730251927946,-0.811591,-16.123249
11.185,2.0,1.0,1.0,34.5,34.9,34.9,4.2,1.5,2.695,-0.11291212268534258,-0.13524601256236907,0.8940859366946419,-0.099383457183394,-0.903697,-15.502354
11.185,2.0,1.0,1.0,34.5,34.9,34.9,4.2,1.5,2.6975,-0.13180330001226112,-0.1409778414923846,0.879884419243202,-0.11344284314758027,-1.015114,-14.848679
11.185,2.0,1.0,1.0,34.5,34.9,34.9,4.2,1.5,2.7,-0.15050240929138137,-0.14640710041500746,0.8628104616789167,-0.1301320679674488,-1.151521,-14.160151
11.185,2.0,1.0,1.0,34.5,34.9,34.9,4.2,1.5,2.7025,-0.16854847066597048,-0.15108394450709522,0.8422506814525234,-0.1500427463936632,-1.320644,-13.435263
11.185,2.0,1.0,1.0,34.5,34.9,34.9,4.2,1.5,2.705,-0.18518767444667114,-0.154273210402232,0.8174895281484411,-0.1738652738677564,-1.53302,-12.673702
11.185,2.0,1.0,1.0,34.5,34.9,34.9,4.2,1.5,2.7075,-0.1992102289044321,-0.15479552218794135,0.7877623296978162,-0.2023369271683568,-1.802888,-11.877427
11.185,2.0,1.0,1.0,34.5,34.9,34.9,4.2,1.5,2.71,-0.20872388183429758,-0.1508067017647236,0.7524156325207364,-0.23608533681686233,-2.148874,-11.052468
11.185,2.0,1.0,1.0,34.5,34.9,34.9,4.2,1.5,2.7125,-0.2108958445275342,-0.13954637866645966,0.7112860426957689,-0.2752588161278168,-2.593177,-10.211778
11.185,2.0,1.0,1.0,34.5,34.9,34.9,4.2,1.5,2.715,-0.20181970915834185,-0.11720855229160375,0.6654581171559566,-0.3187866625723553,-3.155445,-9.379343
11.185,2.0,1.0,1.0,34.5,34.9,34.9,4.2,1.5,2.7175,-0.17693887434485167,-0.079355700193729,0.6184933221770513,-0.36317905465863876,-3.831661,-8.595034
11.185,2.0,1.0,1.0,34.5,34.9,34.9,4.2,1.5,2.72,-0.13279212778875285,-0.022625900458136332,0.5777247828456618,-0.4012621713072182,-4.541986,-7.917649
11.185,2.0,1.0,1.0,34.5,34.9,34.9,4.2,1.5,2.7225,-0.07051446726848629,0.05184138240374239,0.554019740517297,-0.4224133974099572,-5.059705,-7.420321
11.185,2.0,1.0,1.0,34.5,34.9,34.9,4.2,1.5,2.725,0.0007865499902699837,0.1351033185194028,0.5576961028728152,-0.4165663207950105,-5.072039,-7.171958
11.185,2.0,1.0,1.0,34.5,34.9,34.9,4.2,1.5,2.7275,0.06557465257377872,0.21194381433540252,0.591459681345006,-0.38113251680971955,-4.508439,-7.208302
11.185,2.0,1.0,1.0,34.5,34.9,34.9,4.2,1.5,2.73,0.10991157896708757,0.2687605105666634,0.6471771880156254,-0.3241397188257163,-3.656045,-7.512943
11.185,2.0,1.0,1.0,34.5,34.9,34.9,4.2,1.5,2.7325,0.1287084931354143,0.3006566825379033,0.7110591306502332,-0.2591097350244591,-2.821873,-8.026304
11.185,2.0,1.0,1.0,34.5,34.9,34.9,4.2,1.5,2.735,0.12541547867094843,0.3110874971146482,0.7715356872595077,-0.1973312021967291,-2.139614,-8.67372
11.185,2.0,1.0,1.0,34.5,34.9,34.9,4.2,1.5,2.7375,0.10700468931226605,0.30691353777680364,0.8226549016414971,-0.144563679551118,-1.622783,-9.389451
11.185,2.0,1.0,1.0,34.5,34.9,34.9,4.2,1.5,2.74,0.07994847613988948,0.2944674813581695,0.8630323890844773,-0.10210116206651326,-1.242348,-10.126209
11.185,2.0,1.0,1.0,34.5,34.9,34.9,4.2,1.5,2.7425,0.048804331960697604,0.278188619200109,0.893632717828415,-0.06895779206163175,-0.963885,-10.854237
11.185,2.0,1.0,1.0,34.5,34.9,34.9,4.2,1.5,2.745,0.016330768973939487,0.26075142310242705,0.9161836988872409,-0.04341827061569804,-0.758969,-11.556692
11.185,2.0,1.0,1.0,34.5,34.9,34.9,4.2,1.5,2.7475,-0.0159696240851081,0.2436039759867397,0.9324058226812864,-0.023785867000188577,-0.606627,-12.225104
11.185,2.0,1.0,1.0,34.5,34.9,34.9,4.2,1.5,2.75,-0.0473600513455949,0.22744942386931,0.943742673910924,-0.00864096736433188,-0.492005,-12.85604
11.185,2.0,1.0,1.0,34.5,34.9,34.9,4.2,1.5,2.7525,-0.07753574145137612,0.21257222862963826,0.9513201453151493,0.0031223623326188006,-0.404712,-13.448933
11.185,2.0,1.0,1.0,34.5,34.9,34.9,4.2,1.5,2.755,-0.10642193770141561,0.19903489175571462,0.9559874005480272,0.012338297418273338,-0.337468,-14.004758
11.185,2.0,1.0,1.0,34.5,34.9,34.9,4.2,1.5,2.7575,-0.13405886900387054,0.18678959061136033,0.9583757831102111,0.01962780959108164,-0.285127,-14.525256
11.185,2.0,1.0,1.0,34.5,34.9,34.9,4.2,1.5,2.76,-0.16053869564918943,0.17573915388457878,0.9589527084254162,0.02545180849698405,-0.244014,-15.012479
11.185,2.0,1.0,1.0,34.5,34.9,34.9,4.2,1.5,2.7625,-0.1859720360797927,0.16576929357818618,0.9580646407384905,0.030153348400388986,-0.211471,-15.468548
11.185,2.0,1.0,1.0,34.5,34.9,34.9,4.2,1.5,2.765,-0.21047088123820462,0.15676496178959642,0.9559694244422577,0.03398929887178396,-0.185549,-15.895513
11.185,2.0,1.0,1.0,34.5,34.9,34.9,4.2,1.5,2.7675,-0.2341404199213725,0.14861810351190533,0.9528599710003491,0.037153506698831405,-0.164802,-16.29529
11.185,2.0,1.0,1.0,34.5,34.9,34.9,4.2,1.5,2.77,-0.257075620493813,0.14123083508959167,0.9488814235653981,0.039793559304532974,-0.148144,-16.669625
11.185,2.0,1.0,1.0,34.5,34.9,34.9,4.2,1.5,2.7725,-0.27936028592381174,0.13451625656840108,0.944143562762541,0.04202289101372773,-0.134749,-17.020088
11.185,2.0,1.0,1.0,34.5,34.9,34.9,4.2,1.5,2.775,-0.30106733868689983,0.1283980969945379,0.9387297917271621,0.04392954836980177,-0.123985,-17.348076
11.185,2.0,1.0,1.0,34.5,34.9,34.9,4.2,1.5,2.7775,-0.32225966580192283,0.12280983612732371,0.9327036746622073,0.045582570476810365,-0.115358,-17.65482
11.185,2.0,1.0,1.0,34.5,34.9,34.9,4.2,1.5,2.78,-0.3429911697840675,0.11769364126469588,0.9261137247510395,0.0470366660252765,-0.108486,-17.941398
11.185,2.0,1.0,1.0,34.5,34.9,34.9,4.2,1.5,2.7825,-0.3633078441663301,0.1129992913868979,0.9189969344825801,0.04833566952839516,-0.103064,-18.208742
11.185,2.0,1.0,1.0,34.5,34.9,34.9,4.2,1.5,2.785,-0.3832487863089636,0.10868317053686857,0.9113813971996821,0.04951511800293983,-0.098852,-18.457654
11.185,2.0,1.0,1.0,34.5,34.9,34.9,4.2,1.5,2.7875,-0.4028471107392018,0.1047073640787982,0.9032882671375525,0.050604190090699774,-0.095655,-18.688815
11.185,2.0,1.0,1.0,34.5,34.9,34.9,4.2,1.5,2.79,-0.4221307527460213,0.10103886632711107,0.8947332339545323,0.05162718013725772,-0.093318,-18.902791
11.185,2.0,1.0,1.0,34.5,34.9,34.9,4.2,1.5,2.7925,-0.4411231652190632,0.09764889556161721,0.885727637674864,0.05260463106212303,-0.091716,-19.100047
11.185,2.0,1.0,1.0,34.5,34.9,34.9,4.2,1.5,2.795,-0.459843917785864,0.09451230683843269,0.8762793146162813,0.05355421563961483,-0.090745,-19.280948
11.185,2.0,1.0,1.0,34.5,34.9,34.9,4.2,1.5,2.7975,-0.4783092095170817,0.0916070910492808,0.8663932397700451,0.054491431666164554,-0.090324,-19.445767
11.185,2.0,1.0,1.0,34.5,34.9,34.9,4.2,1.5,2.8,-0.4965323066943766,0.08891394859022068,0.8560720131237238,0.05543015938355995,-0.090383,-19.594691
11.185,2.0,1.0,1.0,34.5,34.9,34.9,4.2,1.5,2.8025,-0.5145239163937182,0.08641592679443506,0.8453162244124253,0.056383117372115425,-0.090867,-19.727822
11.185,2.0,1.0,1.0,34.5,34.9,34.9,4.2,1.5,2.805,-0.5322925054832573,0.08409811143111899,0.8341247212544377,0.05736224448787578,-0.091732,-19.845179
11.185,2.0,1.0,1.0,34.5,34.9,34.9,4.2,1.5,2.8075,-0.5498445733609825,0.08194736379281677,0.8224947985237409,0.05837902930780659,-0.092942,-19.946701
11.185,2.0,1.0,1.0,34.5,34.9,34.9,4.2,1.5,2.81,-0.5671848855070023,0.07995209604391289,0.8104223213909161,0.05944480429167291,-0.094467,-20.032247
11.185,2.0,1.0,1.0,34.5,34.9,34.9,4.2,1.5,2.8125,-0.584316673759762,0.0781020785149567,0.797901790187764,0.0605710190125368,-0.096286,-20.101595
11.185,2.0,1.0,1.0,34.5,34.9,34.9,4.2,1.5,2.815,-0.601241808159664,0.07638827347055517,0.7849263517173481,0.06176950505014739,-0.098383,-20.154439
11.185,2.0,1.0,1.0,34.5,34.9,34.9,4.2,1.5,2.8175,-0.6179609442252637,0.07480269053867168,0.771487758524812,0.06305274430134493,-0.100747,-20.190386
11.185,2.0,1.0,1.0,34.5,34.9,34.9,4.2,1.5,2.82,-0.6344736486063943,0.0733382594553712,0.75757627469725,0.06443415245194276,-0.103373,-20.208952
11.185,2.0,1.0,1.0,34.5,34.9,34.9,4.2,1.5,2.8225,-0.650778505151185,0.07198871603392804,0.7431805237225237,0.06592839017253313,-0.106259,-20.20956
11.185,2.0,1.0,1.0,34.5,34.9,34.9,4.2,1.5,2.825,-0.6668732024684895,0.07074849727804336,0.7282872705428465,0.06755171632850256,-0.109409,-20.191523
11.185,2.0,1.0,1.0,34.5,34.9,34.9,4.2,1.5,2.8275,-0.6827546029790159,0.06961264126721067,0.7128811258795565,0.06932240031246942,-0.112835,-20.154045
11.185,2.0,1.0,1.0,34.5,34.9,34.9,4.2,1.5,2.83,-0.6984187921060631,0.06857668674866538,0.6969441557836863,0.07126121482129327,-0.116551,-20.096202
