1,w,sub_t,h,l1,l2,l3,g1,g2,Freq,S11_re,S21_re,S11_img,S21_img,S11_dB,S21_dB
11.185,2.0,1.0,1.0,33.0,33.0,33.0,2.5,3.5,2.5,0.89901590147415,-0.00521247522473579,0.424968315663733,0.00531314813111009,-0.048794,-42.564946
11.185,2.0,1.0,1.0,33.0,33.0,33.0,2.5,3.5,2.5025,0.8963589100086147,-0.005321857107372461,0.4304372456814128,0.005345767468521583,-0.049199,-42.448924
11.185,2.0,1.0,1.0,33.0,33.0,33.0,2.5,3.5,2.505,0.8936583519129931,-0.005433126151166517,0.43590898381041426,0.005378053390433603,-0.04961,-42.332726
11.185,2.0,1.0,1.0,33.0,33.0,33.0,2.5,3.5,2.5075,0.8909138287663877,-0.005546316959178829,0.4413833960773448,0.005409988112621493,-0.050028,-42.216345
11.185,2.0,1.0,1.0,33.0,33.0,33.0,2.5,3.5,2.51,0.8881249356243869,-0.0056614649176507876,0.4468603444172335,0.005441553209724859,-0.050453,-42.099776
11.185,2.0,1.0,1.0,33.0,33.0,33.0,2.5,3.5,2.5125,0.8852912609044763,-0.0057786062165751575,0.4523396865334679,0.005472729590663679,-0.050884,-41.98301
11.185,2.0,1.0,1.0,33.0,33.0,33.0,2.5,3.5,2.515,0.8824123862694736,-0.005897777870865375,0.45782127575311093,0.005503497473034925,-0.051323,-41.866041
11.185,2.0,1.0,1.0,33.0,33.0,33.0,2.5,3.5,2.5175,0.8794878865089641,-0.006019017742141626,0.46330496087741885,0.0055338363564433595,-0.051769,-41.748861
11.185,2.0,1.0,1.0,33.0,33.0,33.0,2.5,3.5,2.52,0.8765173294187052,-0.006142364561153847,0.4687905860274094,0.0055637249947182955,-0.052223,-41.631465
11.185,2.0,1.0,1.0,33.0,33.0,33.0,2.5,3.5,2.5225,0.8735002756779818,-0.006267857950861156,0.47427799048427893,0.005593141366964582,-0.052684,-41.513844
11.185,2.0,1.0,1.0,33.0,33.0,33.0,2.5,3.5,2.525,0.8704362787248796,-0.006395538450189033,0.4797670085245077,0.005622062647395254,-0.053153,-41.395991
11.185,2.0,1.0,1.0,33.0,33.0,33.0,2.5,3.5,2.5275,0.8673248846294535,-0.0065254475384854795,0.4852574692494538,0.005650465173888268,-0.05363,-41.2779
11.185,2.0,1.0,1.0,33.0,33.0,33.0,2.5,3.5,2.53,0.8641656319647666,-0.006657627660698507,0.4907491964092342,0.00567832441520922,-0.054114,-41.159562
11.185,2.0,1.0,1.0,33.0,33.0,33.0,2.5,3.5,2.5325,0.8609580516757775,-0.006792122253297529,0.49624200822069214,0.0057056149368368975,-0.054607,-41.040972
11.185,2.0,1.0,1.0,33.0,33.0,33.0,2.5,3.5,2.535,0.8577016669460464,-0.006928975770962786,0.5017357171792403,0.005732310365327115,-0.055109,-40.922121
11.185,2.0,1.0,1.0,33.0,33.0,33.0,2.5,3.5,2.5375,0.8543959930622463,-0.007068233714066794,0.5072301298643462,0.005758383351145011,-0.055619,-40.803002
11.185,2.0,1.0,1.0,33.0,33.0,33.0,2.5,3.5,2.54,0.8510405372764472,-0.007209942656973159,0.5127250467384397,0.005783805529894316,-0.056138,-40.683607
11.185,2.0,1.0,1.0,33.0,33.0,33.0,2.5,3.5,2.5425,0.8476347986661621,-0.007354150277178863,0.518220261939,0.005808547481866766,-0.056666,-40.56393
11.185,2.0,1.0,1.0,33.0,33.0,33.0,2.5,3.5,2.545,0.8441782679921263,-0.007500905385326693,0.5237155630635701,0.005832578689831897,-0.057203,-40.443962
11.185,2.0,1.0,1.0,33.0,33.0,33.0,2.5,3.5,2.5475,0.8406704275537985,-0.007650257956115363,0.5292107309474356,0.005855867494982313,-0.057749,-40.323695
11.185,2.0,1.0,1.0,33.0,33.0,33.0,2.5,3.5,2.55,0.837110751042558,-0.007802259160136288,0.5347055394337118,0.005878381050946142,-0.058305,-40.203123
11.185,2.0,1.0,1.0,33.0,33.0,33.0,2.5,3.5,2.5525,0.833498703392595,-0.007956961396665848,0.5401997551355348,0.005900085275772539,-0.058871,-40.082237
11.185,2.0,1.0,1.0,33.0,33.0,33.0,2.5,3.5,2.555,0.8298337406294635,-0.008114418327443943,0.5456931371900839,0.005920944801791632,-0.059447,-39.961029
11.185,2.0,1.0,1.0,33.0,33.0,33.0,2.5,3.5,2.5575,0.8261153097162945,-0.008274684911469937,0.5511854370041266,0.005940922923245447,-0.060033,-39.839492
11.185,2.0,1.0,1.0,33.0,33.0,33.0,2.5,3.5,2.56,0.8223428483976584,-0.008437817440848022,0.5566763979907587,0.005959981541579263,-0.06063,-39.717617
11.185,2.0,1.0,1.0,33.0,33.0,33.0,2.5,3.5,2.5625,0.8185157850410614,-0.00860387357771552,0.5621657552970186,0.005978081108278886,-0.061238,-39.595397
11.185,2.0,1.0,1.0,33.0,33.0,33.0,2.5,3.5,2.565,0.8146335384760736,-0.00877291239228796,0.5676532355220344,0.00599518056513122,-0.061856,-39.472823
11.185,2.0,1.0,1.0,33.0,33.0,33.0,2.5,3.5,2.5675,0.8106955178310871,-0.008944994402056266,0.5731385564253316,0.006011237281779497,-0.062486,-39.349886
11.185,2.0,1.0,1.0,33.0,33.0,33.0,2.5,3.5,2.57,0.806701122367696,-0.009120181612172122,0.578621426624943,0.006026206990438189,-0.063128,-39.22658
11.185,2.0,1.0,1.0,33.0,33.0,33.0,2.5,3.5,2.5725,0.8026497413127022,-0.009298537557058806,0.584101545284923,0.006040043717623363,-0.063781,-39.102894
11.185,2.0,1.0,1.0,33.0,33.0,33.0,2.5,3.5,2.575,0.7985407536877538,-0.009480127343285868,0.5895786017918656,0.0060526997127478555,-0.064446,-38.978821
11.185,2.0,1.0,1.0,33.0,33.0,33.0,2.5,3.5,2.5775,0.7943735281366185,-0.00966501769374652,0.5950522754199994,0.006064125373421131,-0.065124,-38.854351
11.185,2.0,1.0,1.0,33.0,33.0,33.0,2.5,3.5,2.58,0.7901474227501105,-0.009853276993178438,0.6005222349844158,0.006074269167285111,-0.065814,-38.729477
11.185,2.0,1.0,1.0,33.0,33.0,33.0,2.5,3.5,2.5825,0.7858617848886761,-0.010044975335069442,0.6059881384819825,0.006083077550207494,-0.066518,-38.604188
11.185,2.0,1.0,1.0,33.0,33.0,33.0,2.5,3.5,2.585,0.7815159510026665,-0.010240184569990077,0.6114496327194459,0.006090494880643733,-0.067235,-38.478478
11.185,2.0,1.0,1.0,33.0,33.0,33.0,2.5,3.5,2.5875,0.7771092464503158,-0.010438978355397317,0.6169063529282396,0.0060964633299685185,-0.067965,-38.352335
11.185,2.0,1.0,1.0,33.0,33.0,33.0,2.5,3.5,2.59,0.7726409853134549,-0.010641432206953032,0.622357922365457,0.006100922788565003,-0.06871,-38.225751
11.185,2.0,1.0,1.0,33.0,33.0,33.0,2.5,3.5,2.5925,0.768110470210994,-0.010847623551403786,0.6278039519004622,0.006103810767449336,-0.069469,-38.098716
11.185,2.0,1.0,1.0,33.0,33.0,33.0,2.5,3.5,2.595,0.7635169921102184,-0.011057631781067622,0.6332440395865487,0.006105062295192839,-0.070242,-37.971222
11.185,2.0,1.0,1.0,33.0,33.0,33.0,2.5,3.5,2.5975,0.7588598301359356,-0.01127153830997601,0.6386777702170696,0.006104609809892644,-0.071031,-37.843259
11.185,2.0,1.0,1.0,33.0,33.0,33.0,2.5,3.5,2.6,0.754138251377529,-0.011489426631719372,0.6441047148654065,0.006102383045924625,-0.071835,-37.714816
11.185,2.0,1.0,1.0,33.0,33.0,33.0,2.5,3.5,2.6025,0.7493515106939832,-0.011711382379045088,0.6495244304081257,0.006098308915197663,-0.072655,-37.585884
11.185,2.0,1.0,1.0,33.0,33.0,33.0,2.5,3.5,2.605,0.7444988505169392,-0.011937493385258728,0.6549364590306508,0.006092311382611863,-0.073492,-37.456453
11.185,2.0,1.0,1.0,33.0,33.0,33.0,2.5,3.5,2.6075,0.7395795006518604,-0.01216784974747919,0.6603403277147334,0.006084311335404155,-0.074345,-37.326513
11.185,2.0,1.0,1.0,33.0,33.0,33.0,2.5,3.5,2.61,0.7345926780773948,-0.012402543891799196,0.6657355477069788,0.006074226446045931,-0.075215,-37.196053
11.185,2.0,1.0,1.0,33.0,33.0,33.0,2.5,3.5,2.6125,0.7295375867430228,-0.012641670640403661,0.6711216139676515,0.006061971028338206,-0.076103,-37.065063
11.185,2.0,1.0,1.0,33.0,33.0,33.0,2.5,3.5,2.615,0.7244134173650953,-0.012885327280698265,0.6764980045989476,0.006047455886325045,-0.077009,-36.933533
11.185,2.0,1.0,1.0,33.0,33.0,33.0,2.5,3.5,2.6175,0.7192193472213831,-0.013133613636501331,0.6818641802518736,0.006030588155625917,-0.077933,-36.801451
11.185,2.0,1.0,1.0,33.0,33.0,33.0,2.5,3.5,2.62,0.7139545399442574,-0.01338663214135181,0.6872195835108459,0.006011271136759936,-0.078877,-36.668807
11.185,2.0,1.0,1.0,33.0,33.0,33.0,2.5,3.5,2.6225,0.7086181453126421,-0.013644487913986888,0.692563638255074,0.005989404120009803,-0.07984,-36.53559
11.185,2.0,1.0,1.0,33.0,33.0,33.0,2.5,3.5,2.625,0.703209299042902,-0.0139072888360411,0.697895748995738,0.00596488220134402,-0.080824,-36.401787
11.185,2.0,1.0,1.0,33.0,33.0,33.0,2.5,3.5,2.6275,0.6977271225788158,-0.014175145632020214,0.7032153001879419,0.005937596088885833,-0.081828,-36.267389
11.185,2.0,1.0,1.0,33.0,33.0,33.0,2.5,3.5,2.63,0.6921707228808371,-0.014448171951600641,0.7085216555163604,0.005907431899383493,-0.082853,-36.132382
11.185,2.0,1.0,1.0,33.0,33.0,33.0,2.5,3.5,2.6325,0.6865391922148327,-0.014726484454304892,0.713814157153443,0.005874270944103191,-0.0839,-35.996755
11.185,2.0,1.0,1.0,33.0,33.0,33.0,2.5,3.5,2.635,0.6808316079405213,-0.015010202896602076,0.7190921249889887,0.005837989503526295,-0.08497,-35.860496
11.185,2.0,1.0,1.0,33.0,33.0,33.0,2.5,3.5,2.6375,0.67504703229986,-0.015299450221479789,0.7243548558298417,0.005798458590193995,-0.086062,-35.723593
11.185,2.0,1.0,1.0,33.0,33.0,33.0,2.5,3.5,2.64,0.6691845122056189,-0.01559435265053283,0.7296016225683996,0.005755543698997938,-0.087179,-35.586032
11.185,2.0,1.0,1.0,33.0,33.0,33.0,2.5,3.5,2.6425,0.6632430790304548,-0.015895039778609548,0.7348316733185483,0.005709104544169875,-0.08832,-35.447802
11.185,2.0,1.0,1.0,33.0,33.0,33.0,2.5,3.5,2.645,0.6572217483967673,-0.016201644671054005,0.7400442305175778,0.005658994782172646,-0.089486,-35.308889
11.185,2.0,1.0,1.0,33.0,33.0,33.0,2.5,3.5,2.6475,0.6511195199676946,-0.01651430396357776,0.7452384899925505,0.005605061719642525,-0.090678,-35.16928
11.185,2.0,1.0,1.0,33.0,33.0,33.0,2.5,3.5,2.65,0.6449353772395859,-0.016833157964790277,0.7504136199895213,0.005547146005473757,-0.091897,-35.028961
11.185,2.0,1.0,1.0,33.0,33.0,33.0,2.5,3.5,2.6525,0.6386682873363825,-0.017158350761409612,0.7555687601639024,0.0054850813060758116,-0.093143,-34.887918
11.185,2.0,1.0,1.0,33.0,33.0,33.0,2.5,3.5,2.655,0.6323172008062967,-0.01749003032617028,0.7607030205302093,0.005418693962766283,-0.094418,-34.746138
11.185,2.0,1.0,1.0,33.0,33.0,33.0,2.5,3.5,2.6575,0.6258810514212801,-0.017828348628435048,0.7658154803692948,0.005347802630190876,-0.095721,-34.603607
11.185,2.0,1.0,1.0,33.0,33.0,33.0,2.5,3.5,2.66,0.6193587559797704,-0.018173461747509046,0.7709051870910963,0.0052722178945853624,-0.097055,-34.460309
11.185,2.0,1.0,1.0,33.0,33.0,33.0,2.5,3.5,2.6625,0.6127492141132765,-0.01852552998864308,0.7759711550507951,0.0051917418706099805,-0.09842,-34.316229
11.185,2.0,1.0,1.0,33.0,33.0,33.0,2.5,3.5,2.665,0.6060513080973667,-0.018884718001701342,0.7810123643161916,0.005106167775398501,-0.099817,-34.171353
11.185,2.0,1.0,1.0,33.0,33.0,33.0,2.5,3.5,2.6675,0.5992639026677361,-0.019251194902452716,0.7860277593839489,0.005015279478366336,-0.101246,-34.025664
11.185,2.0,1.0,1.0,33.0,33.0,33.0,2.5,3.5,2.67,0.5923858448420153,-0.01962513439642993,0.7910162478422417,0.004918851025217673,-0.10271,-33.879148
11.185,2.0,1.0,1.0,33.0,33.0,33.0,2.5,3.5,2.6725,0.5854159637480862,-0.020006714905280932,0.795976698977207,0.0048166461344802515,-0.104208,-33.731787
11.185,2.0,1.0,1.0,33.0,33.0,33.0,2.5,3.5,2.675,0.5783530704597187,-0.020396119695515136,0.8009079423204184,0.0047084176647725585,-0.105743,-33.583565
11.185,2.0,1.0,1.0,33.0,33.0,33.0,2.5,3.5,2.6775,0.571195957840409,-0.020793537009522935,0.8058087661344676,0.004593907050877279,-0.107315,-33.434465
11.185,2.0,1.0,1.0,33.0,33.0,33.0,2.5,3.5,2.68,0.5639434003963689,-0.021199160198718467,0.8106779158335518,0.004472843706553124,-0.108926,-33.28447
11.185,2.0,1.0,1.0,33.0,33.0,33.0,2.5,3.5,2.6825,0.5565941541397161,-0.021613187858623272,0.8155140923357598,0.0043449443918617174,-0.110576,-33.133562
11.185,2.0,1.0,1.0,33.0,33.0,33.0,2.5,3.5,2.685,0.5491469564629745,-0.022035823965673,0.8203159503435888,0.004209912542619121,-0.112268,-32.981723
11.185,2.0,1.0,1.0,33.0,33.0,33.0,2.5,3.5,2.6875,0.5416005260261085,-0.022467278015486775,0.8250820965489624,0.0040674375594015695,-0.114002,-32.828934
11.185,2.0,1.0,1.0,33.0,33.0,33.0,2.5,3.5,2.69,0.5339535626574208,-0.022907765162292402,0.8298110877588101,0.003917194053337081,-0.11578,-32.675177
11.185,2.0,1.0,1.0,33.0,33.0,33.0,2.5,3.5,2.6925,0.5262047472697317,-0.0233575063591481,0.8345014289370263,0.003758841045702598,-0.117604,-32.520431
11.185,2.0,1.0,1.0,33.0,33.0,33.0,2.5,3.5,2.695,0.5183527417934215,-0.02381672849853866,0.8391515711583226,0.0035920211181142024,-0.119475,-32.364678
11.185,2.0,1.0,1.0,33.0,33.0,33.0,2.5,3.5,2.6975,0.5103961891280068,-0.024285664552858854,0.8437599094692385,0.003416359509846936,-0.121394,-32.207896
11.185,2.0,1.0,1.0,33.0,33.0,33.0,2.5,3.5,2.7,0.5023337131141112,-0.02476455371421549,0.8483247806512222,0.0032314631585469746,-0.123364,-32.050065
11.185,2.0,1.0,1.0,33.0,33.0,33.0,2.5,3.5,2.7025,0.4941639185278235,-0.025253641532894704,0.8528444608803774,0.003036919680301809,-0.125386,-31.891163
11.185,2.0,1.0,1.0,33.0,33.0,33.0,2.5,3.5,2.705,0.48588539109963125,-0.025753180053738795,0.8573171632780974,0.0028322962847102313,-0.127462,-31.731169
11.185,2.0,1.0,1.0,33.0,33.0,33.0,2.5,3.5,2.7075,0.477496697560303,-0.02626342794956553,0.8617410353464051,0.002617138620240857,-0.129594,-31.570059
11.185,2.0,1.0,1.0,33.0,33.0,33.0,2.5,3.5,2.71,0.4689963857163217,-0.0267846506506336,0.8661141562813899,0.0023909695447848936,-0.131784,-31.407811
11.185,2.0,1.0,1.0,33.0,33.0,33.0,2.5,3.5,2.7125,0.46038298455768706,-0.02731712046901306,0.8704345341576718,0.0021532878158868765,-0.134035,-31.2444
11.185,2.0,1.0,1.0,33.0,33.0,33.0,2.5,3.5,2.715,0.45165500440118606,-0.027861116716554953,0.8747001029763025,0.001903566694682592,-0.136348,-31.079804
11.185,2.0,1.0,1.0,33.0,33.0,33.0,2.5,3.5,2.7175,0.44281093707251357,-0.028416925814966958,0.8789087195679758,0.0016412524570709368,-0.138725,-30.913995
11.185,2.0,1.0,1.0,33.0,33.0,33.0,2.5,3.5,2.72,0.433849256130943,-0.028984841396289894,0.8830581603428055,0.0013657628051012732,-0.141171,-30.74695
11.185,2.0,1.0,1.0,33.0,33.0,33.0,2.5,3.5,2.7225,0.42476841714059255,-0.029565164391830878,0.8871461178773007,0.001076485170959722,-0.143686,-30.57864
11.185,2.0,1.0,1.0,33.0,33.0,33.0,2.5,3.5,2.725,0.41556685799275817,-0.030158203107332436,0.8911701973284246,0.0007727749052847931,-0.146274,-30.40904
11.185,2.0,1.0,1.0,33.0,33.0,33.0,2.5,3.5,2.7275,0.40624299928416585,-0.030764273281851308,0.8951279126638888,0.0004539533408231854,-0.148937,-30.238121
11.185,2.0,1.0,1.0,33.0,33.0,33.0,2.5,3.5,2.73,0.39679524475654615,-0.03138369812746314,0.8990166826969492,0.00011930572165604324,-0.151679,-30.065855
11.185,2.0,1.0,1.0,33.0,33.0,33.0,2.5,3.5,2.7325,0.38722198180341555,-0.03201680834651276,0.9028338269130827,-0.0002319210126406776,-0.154503,-29.892211
11.185,2.0,1.0,1.0,33.0,33.0,33.0,2.5,3.5,2.735,0.37752158205060193,-0.03266394212267009,0.9065765610748894,-0.0006005205994786139,-0.157412,-29.71716
11.185,2.0,1.0,1.0,33.0,33.0,33.0,2.5,3.5,2.7375,0.3676924020176935,-0.03332544508153565,0.9102419925904711,-0.0009873299950021804,-0.160409,-29.54067
11.185,2.0,1.0,1.0,33.0,33.0,33.0,2.5,3.5,2.74,0.3577327838683693,-0.03400167021594467,0.9138271156293278,-0.0013932320988535017,-0.163499,-29.362709
11.185,2.0,1.0,1.0,33.0,33.0,33.0,2.5,3.5,2.7425,0.3476410562584007,-0.03469297777044815,0.9173288059684817,-0.0018191586769736084,-0.166686,-29.183244
11.185,2.0,1.0,1.0,33.0,33.0,33.0,2.5,3.5,2.745,0.33741553529108154,-0.03539973507867682,0.9207438155500867,-0.0022660934988350777,-0.169972,-29.002239
11.185,2.0,1.0,1.0,33.0,33.0,33.0,2.5,3.5,2.7475,0.32705452559090953,-0.036122316346416806,0.9240687667301776,-0.0027350757070260362,-0.173364,-28.819661
11.185,2.0,1.0,1.0,33.0,33.0,33.0,2.5,3.5,2.75,0.316556321507549,-0.0368611023722225,0.927300146196462,-0.00322720343878137,-0.176865,-28.635472
11.185,2.0,1.0,1.0,33.0,33.0,33.0,2.5,3.5,2.7525,0.30591920846347426,-0.037616480196242356,0.9304342985311082,-0.0037436377209079216,-0.18048,-28.449634
11.185,2.0,1.0,1.0,33.0,33.0,33.0,2.5,3.5,2.755,0.2951414644602463,-0.03838884266662,0.9334674193923707,-0.0042856066615934016,-0.184215,-28.262109
11.185,2.0,1.0,1.0,33.0,33.0,33.0,2.5,3.5,2.7575,0.2842213617600835,-0.039178587911328354,0.9363955482865292,-0.004854409964844233,-0.188075,-28.072857
11.185,2.0,1.0,1.0,33.0,33.0,33.0,2.5,3.5,2.76,0.27315716876143564,-0.03998611870156337,0.9392145608990314,-0.005451423795788812,-0.192066,-27.881835
11.185,2.0,1.0,1.0,33.0,33.0,33.0,2.5,3.5,2.7625,0.2619471520894559,-0.040811841690845486,0.9419201609508739,-0.006078106027841592,-0.196194,-27.689002
11.185,2.0,1.0,1.0,33.0,33.0,33.0,2.5,3.5,2.765,0.2505895789248839,-0.04165616651169387,0.9445078715430811,-0.006736001905771093,-0.200465,-27.494312
11.185,2.0,1.0,1.0,33.0,33.0,33.0,2.5,3.5,2.7675,0.2390827195977546,-0.04251950470911771,0.9469730259486647,-0.007426750162091062,-0.204887,-27.29772
11.185,2.0,1.0,1.0,33.0,33.0,33.0,2.5,3.5,2.77,0.22742485047568725,-0.043402268487149044,0.9493107578075636,-0.008152089627936565,-0.209468,-27.099178
11.185,2.0,1.0,1.0,33.0,33.0,33.0,2.5,3.5,2.7725,0.21561425718035332,-0.044304869241156584,0.9515159906757948,-0.008913866383727162,-0.214214,-26.898638
11.185,2.0,1.0,1.0,33.0,33.0,33.0,2.5,3.5,2.775,0.20364923817008437,-0.04522771584466007,0.9535834268753018,-0.009714041499515894,-0.219134,-26.696047
11.185,2.0,1.0,1.0,33.0,33.0,33.0,2.5,3.5,2.7775,0.1915281087316374,-0.04617121265471567,0.9555075355857278,-0.01055469942001845,-0.224238,-26.491354
11.185,2.0,1.0,1.0,33.0,33.0,33.0,2.5,3.5,2.78,0.1792492054298962,-0.04713575719456389,0.9572825401135272,-0.011438057054968436,-0.229534,-26.284503
11.185,2.0,1.0,1.0,33.0,33.0,33.0,2.5,3.5,2.7825,0.16681089107101638,-0.04812173746599495,0.9589024042673578,-0.012366473641717005,-0.235034,-26.075438
11.185,2.0,1.0,1.0,33.0,33.0,33.0,2.5,3.5,2.785,0.1542115602421366,-0.04912952883665616,0.9603608177615406,-0.013342461453959445,-0.240748,-25.864099
11.185,2.0,1.0,1.0,33.0,33.0,33.0,2.5,3.5,2.7875,0.1414496454997874,-0.05015949043911529,0.9616511805614157,-0.014368697438191145,-0.246689,-25.650426
11.185,2.0,1.0,1.0,33.0,33.0,33.0,2.5,3.5,2.79,0.12852362428935124,-0.051211961008718214,0.9627665860756068,-0.015448035868074628,-0.252867,-25.434356
11.185,2.0,1.0,1.0,33.0,33.0,33.0,2.5,3.5,2.7925,0.11543202668998713,-0.05228725407587846,0.9636998030904274,-0.01658352211640304,-0.259298,-25.215821
11.185,2.0,1.0,1.0,33.0,33.0,33.0,2.5,3.5,2.795,0.10217344409325872,-0.05338565241514412,0.9644432563308061,-0.017778407654897983,-0.265995,-24.994754
11.185,2.0,1.0,1.0,33.0,33.0,33.0,2.5,3.5,2.7975,0.0887465389400262,-0.0545074016378409,0.9649890055200974,-0.019036166403757444,-0.272975,-24.771083
11.185,2.0,1.0,1.0,33.0,33.0,33.0,2.5,3.5,2.8,0.0751500556589599,-0.055652702796910994,0.9653287227978239,-0.02036051256581426,-0.280254,-24.544735
11.185,2.0,1.0,1.0,33.0,33.0,33.0,2.5,3.5,2.8025,0.061382832972213204,-0.05682170385124656,0.965453668339682,-0.02175542009446379,-0.287851,-24.315631
11.185,2.0,1.0,1.0,33.0,33.0,33.0,2.5,3.5,2.805,0.04744381775965844,-0.0580144898117906,0.965354664007892,-0.0232251439603087,-0.295785,-24.083691
11.185,2.0,1.0,1.0,33.0,33.0,33.0,2.5,3.5,2.8075,0.03333208070343616,-0.059231071362256416,0.965022064842046,-0.024774243398860394,-0.304077,-23.848833
11.185,2.0,1.0,1.0,33.0,33.0,33.0,2.5,3.5,2.81,0.019046833970251982,-0.06047137171266239,0.9644457281809358,-0.026407607340736956,-0.312751,-23.610968
11.185,2.0,1.0,1.0,33.0,33.0,33.0,2.5,3.5,2.8125,0.00458745123089528,-0.061735211403,0.963614980184264,-0.0281304822467023,-0.321831,-23.370005
11.185,2.0,1.0,1.0,33.0,33.0,33.0,2.5,3.5,2.815,-0.010046509634049601,-0.0630222907260604,0.9625185794996247,-0.029948502592677142,-0.331344,-23.12585
11.185,2.0,1.0,1.0,33.0,33.0,33.0,2.5,3.5,2.8175,-0.024855280734734597,-0.06433216938128336,0.9611446777946058,-0.03186772427452901,-0.341321,-22.878404
11.185,2.0,1.0,1.0,33.0,33.0,33.0,2.5,3.5,2.82,-0.039838854801976964,-0.06566424290373718,0.9594807768464051,-0.03389466122899244,-0.351794,-22.627564
11.185,2.0,1.0,1.0,33.0,33.0,33.0,2.5,3.5,2.8225,-0.05499695168752614,-0.06701771533188554,0.9575136818519877,-0.03603632559533273,-0.362796,-22.373221
11.185,2.0,1.0,1.0,33.0,33.0,33.0,2.5,3.5,2.825,-0.07032898007796251,-0.06839156748210873,0.9552294505909285,-0.03830027177207925,-0.374368,-22.115264
11.185,2.0,1.0,1.0,33.0,33.0,33.0,2.5,3.5,2.8275,-0.08583399364934145,-0.06978452008396088,0.952613338041021,-0.04069464475384208,-0.38655,-21.853574
