1,w,sub_t,h,l1,l2,l3,g1,g2,Freq,S11_re,S21_re,S11_img,S21_img,S11_dB,S21_dB
11.185,2.0,1.0,1.0,34.5,34.7,34.7,4.2,2.9,2.5,0.700097977854027,-0.0115410443067937,0.702120665974374,0.00438597228871856,-0.073976,-38.169226
11.185,2.0,1.0,1.0,34.5,34.7,34.7,4.2,2.9,2.5025,0.6943277465477631,-0.011760001243202796,0.7076882338190955,0.004351740669833173,-0.074846,-38.0345
11.185,2.0,1.0,1.0,34.5,34.7,34.7,4.2,2.9,2.505,0.6884803790503594,-0.011983298220803192,0.7132369416640215,0.004314999027098644,-0.075737,-37.898992
11.185,2.0,1.0,1.0,34.5,34.7,34.7,4.2,2.9,2.5075,0.6825550736543837,-0.012211049937121958,0.7187660083667434,0.004275647854981786,-0.076648,-37.762681
11.185,2.0,1.0,1.0,34.5,34.7,34.7,4.2,2.9,2.51,0.6765510177954319,-0.01244337536805926,0.7242746300705787,0.004233583170262475,-0.077581,-37.625548
11.185,2.0,1.0,1.0,34.5,34.7,34.7,4.2,2.9,2.5125,0.6704673878839859,-0.012680397979971248,0.7297619794664617,0.00418869626445777,-0.078535,-37.487569
11.185,2.0,1.0,1.0,34.5,34.7,34.7,4.2,2.9,2.515,0.6643033491306225,-0.012922245954813703,0.7352272050252112,0.00414087343953834,-0.079513,-37.348724
11.185,2.0,1.0,1.0,34.5,34.7,34.7,4.2,2.9,2.5175,0.6580580553639302,-0.013169052429292522,0.740669430198478,0.004089995725596948,-0.080515,-37.208991
11.185,2.0,1.0,1.0,34.5,34.7,34.7,4.2,2.9,2.52,0.6517306488403928,-0.013420955749048528,0.7460877525865793,0.004035938579003189,-0.08154,-37.068345
11.185,2.0,1.0,1.0,34.5,34.7,34.7,4.2,2.9,2.5225,0.6453202600454527,-0.013678099738985913,0.7514812430712192,0.003978571559441657,-0.082591,-36.926763
11.185,2.0,1.0,1.0,34.5,34.7,34.7,4.2,2.9,2.525,0.6388260074848474,-0.01394063399095136,0.7568489449109933,0.00391775798407802,-0.083669,-36.784221
11.185,2.0,1.0,1.0,34.5,34.7,34.7,4.2,2.9,2.5275,0.6322469974652305,-0.014208714170069426,0.7621898727973471,0.0038533545569294347,-0.084773,-36.640691
11.185,2.0,1.0,1.0,34.5,34.7,34.7,4.2,2.9,2.53,0.6255823238629906,-0.014482502341153877,0.7675030118684714,0.003785210971327942,-0.085904,-36.496149
11.185,2.0,1.0,1.0,34.5,34.7,34.7,4.2,2.9,2.5325,0.6188310678800459,-0.014762167316736073,0.772787316678395,0.003713169483158442,-0.087065,-36.350567
11.185,2.0,1.0,1.0,34.5,34.7,34.7,4.2,2.9,2.535,0.6119922977852662,-0.015047885028387354,0.7780417101182912,0.003637064452321414,-0.088256,-36.203916
11.185,2.0,1.0,1.0,34.5,34.7,34.7,4.2,2.9,2.5375,0.6050650686400442,-0.015339838923157283,0.7832650822867151,0.0035567218496148855,-0.089477,-36.056167
11.185,2.0,1.0,1.0,34.5,34.7,34.7,4.2,2.9,2.54,0.5980484220063502,-0.015638220387114703,0.7884562893052157,0.0034719587259428907,-0.090731,-35.907291
11.185,2.0,1.0,1.0,34.5,34.7,34.7,4.2,2.9,2.5425,0.5909413856354463,-0.015943229198153313,0.7936141520753943,0.0033825826404392965,-0.092017,-35.757255
11.185,2.0,1.0,1.0,34.5,34.7,34.7,4.2,2.9,2.545,0.5837429731352272,-0.01625507401042089,0.7987374549731133,0.0032883910437392057,-0.093338,-35.606026
11.185,2.0,1.0,1.0,34.5,34.7,34.7,4.2,2.9,2.5475,0.5764521836139519,-0.01657397287294546,0.8038249444751214,0.0031891706122320713,-0.094695,-35.453573
11.185,2.0,1.0,1.0,34.5,34.7,34.7,4.2,2.9,2.55,0.5690680012978492,-0.016900153785269743,0.8088753277129006,0.003084696528684215,-0.096089,-35.299858
11.185,2.0,1.0,1.0,34.5,34.7,34.7,4.2,2.9,2.5525,0.5615893951198673,-0.017233855293163534,0.8138872709479688,0.0029747317041179796,-0.097521,-35.144847
11.185,2.0,1.0,1.0,34.5,34.7,34.7,4.2,2.9,2.555,0.5540153182764755,-0.01757532712777532,0.8188593979623129,0.002859025935273439,-0.098994,-34.988501
11.185,2.0,1.0,1.0,34.5,34.7,34.7,4.2,2.9,2.5575,0.5463447077491305,-0.0179248308918992,0.8237902883569116,0.0027373149913471027,-0.100508,-34.830782
11.185,2.0,1.0,1.0,34.5,34.7,34.7,4.2,2.9,2.56,0.5385764837866447,-0.01828264079738465,0.8286784757505624,0.002609319622990547,-0.102065,-34.671648
11.185,2.0,1.0,1.0,34.5,34.7,34.7,4.2,2.9,2.5625,0.5307095493442683,-0.018649044458105533,0.8335224458703571,0.0024747444857504478,-0.103668,-34.511057
11.185,2.0,1.0,1.0,34.5,34.7,34.7,4.2,2.9,2.565,0.5227427894748363,-0.019024343743332447,0.8383206345241926,0.0023332769692259417,-0.105317,-34.348965
11.185,2.0,1.0,1.0,34.5,34.7,34.7,4.2,2.9,2.5675,0.5146750706668476,-0.01940885569682774,0.843071425444571,0.0021845859221950583,-0.107016,-34.185327
11.185,2.0,1.0,1.0,34.5,34.7,34.7,4.2,2.9,2.57,0.5065052401237351,-0.019802913527508785,0.8477731479917338,0.0020283202628014452,-0.108765,-34.020094
11.185,2.0,1.0,1.0,34.5,34.7,34.7,4.2,2.9,2.5725,0.4982321249779743,-0.020206867678107126,0.8524240747027255,0.0018641074615758722,-0.110568,-33.853217
11.185,2.0,1.0,1.0,34.5,34.7,34.7,4.2,2.9,2.575,0.4898545314329738,-0.020621086978897682,0.8570224186713946,0.0016915518835709806,-0.112427,-33.684643
11.185,2.0,1.0,1.0,34.5,34.7,34.7,4.2,2.9,2.5775,0.4813712438248844,-0.021045959894290256,0.861566330742482,0.001510232974183538,-0.114344,-33.514319
11.185,2.0,1.0,1.0,34.5,34.7,34.7,4.2,2.9,2.58,0.47278102359561036,-0.02148189587087029,0.8660538965008714,0.001319703271294508,-0.116323,-33.342188
11.185,2.0,1.0,1.0,34.5,34.7,34.7,4.2,2.9,2.5825,0.46408260816729374,-0.02192932679636191,0.8704831330346743,0.0011194862241373183,-0.118365,-33.168191
11.185,2.0,1.0,1.0,34.5,34.7,34.7,4.2,2.9,2.585,0.4552747097074802,-0.022388708579968036,0.8748519854480742,0.0009090737967624259,-0.120474,-32.992265
11.185,2.0,1.0,1.0,34.5,34.7,34.7,4.2,2.9,2.5875,0.44635601377292583,-0.022860522865636328,0.8791583230967158,0.0006879238310496299,-0.122654,-32.814346
11.185,2.0,1.0,1.0,34.5,34.7,34.7,4.2,2.9,2.59,0.43732517781866626,-0.023345278891012598,0.8833999355148003,0.00045545714087058943,-0.124907,-32.634366
11.185,2.0,1.0,1.0,34.5,34.7,34.7,4.2,2.9,2.5925,0.4281808295574197,-0.02384351550619704,0.8875745279988811,0.00021105430514364014,-0.127238,-32.452254
11.185,2.0,1.0,1.0,34.5,34.7,34.7,4.2,2.9,2.595,0.4189215651527301,-0.024355803367916727,0.891679716808533,-4.5947876927162435e-05,-0.129651,-32.267935
11.185,2.0,1.0,1.0,34.5,34.7,34.7,4.2,2.9,2.5975,0.4095459472273192,-0.02488274732640332,0.895713023938514,-0.00031626031028665375,-0.13215,-32.081332
11.185,2.0,1.0,1.0,34.5,34.7,34.7,4.2,2.9,2.6,0.4000525026660316,-0.025424989024114858,0.8996718714105669,-0.0006006459559599859,-0.134739,-31.892361
11.185,2.0,1.0,1.0,34.5,34.7,34.7,4.2,2.9,2.6025,0.3904397201903966,-0.025983209727505046,0.9035535750255024,-0.0008999246652334005,-0.137425,-31.700937
11.185,2.0,1.0,1.0,34.5,34.7,34.7,4.2,2.9,2.605,0.3807060476791723,-0.02655813341532768,0.9073553375074865,-0.0012149785589052086,-0.140211,-31.506969
11.185,2.0,1.0,1.0,34.5,34.7,34.7,4.2,2.9,2.6075,0.3708498892063526,-0.02715053014949724,0.9110742409622217,-0.0015467580238406205,-0.143105,-31.310361
11.185,2.0,1.0,1.0,34.5,34.7,34.7,4.2,2.9,2.61,0.36086960176484173,-0.027761219757324485,0.9147072385587858,-0.0018962884100784374,-0.146112,-31.111013
11.185,2.0,1.0,1.0,34.5,34.7,34.7,4.2,2.9,2.6125,0.35076349164040765,-0.028391075857036072,0.9182511453308848,-0.0022646775246530186,-0.149239,-30.908817
11.185,2.0,1.0,1.0,34.5,34.7,34.7,4.2,2.9,2.615,0.3405298103965367,-0.02904103026188031,0.9217026279767764,-0.002653124033482956,-0.152494,-30.703663
11.185,2.0,1.0,1.0,34.5,34.7,34.7,4.2,2.9,2.6175,0.33016675042644167,-0.029712077801834363,0.9250581935176844,-0.00306292690058415,-0.155885,-30.495431
11.185,2.0,1.0,1.0,34.5,34.7,34.7,4.2,2.9,2.62,0.319672440023645,-0.030405281605972306,0.9283141766515367,-0.0034954960150356726,-0.15942,-30.283996
11.185,2.0,1.0,1.0,34.5,34.7,34.7,4.2,2.9,2.6225,0.3090449379173231,-0.031121778892915744,0.9314667256115741,-0.0039523641812300205,-0.16311,-30.069227
11.185,2.0,1.0,1.0,34.5,34.7,34.7,4.2,2.9,2.625,0.298282227212952,-0.0318627873214543,0.93451178630692,-0.00443520067778836,-0.166965,-29.850982
11.185,2.0,1.0,1.0,34.5,34.7,34.7,4.2,2.9,2.6275,0.28738220867269665,-0.032629611958342734,0.9374450844835056,-0.004945826626129285,-0.170996,-29.629112
11.185,2.0,1.0,1.0,34.5,34.7,34.7,4.2,2.9,2.63,0.27634269326365296,-0.03342365292536167,0.9402621055973714,-0.005486232452283224,-0.175216,-29.40346
11.185,2.0,1.0,1.0,34.5,34.7,34.7,4.2,2.9,2.6325,0.26516139389545024,-0.034246413792836404,0.9429580720367263,-0.006058597776689047,-0.179639,-29.173857
11.185,2.0,1.0,1.0,34.5,34.7,34.7,4.2,2.9,2.635,0.2538359162621688,-0.03509951079171422,0.9455279172620807,-0.0066653141283091,-0.184279,-28.940125
11.185,2.0,1.0,1.0,34.5,34.7,34.7,4.2,2.9,2.6375,0.2423637486973099,-0.03598468292066464,0.9479662563526933,-0.00730901095384844,-0.189156,-28.702073
11.185,2.0,1.0,1.0,34.5,34.7,34.7,4.2,2.9,2.64,0.23074225094510625,-0.036903803027993023,0.9502673523492015,-0.007992585483166535,-0.194285,-28.459499
11.185,2.0,1.0,1.0,34.5,34.7,34.7,4.2,2.9,2.6425,0.218968641747666,-0.03785888994969631,0.9524250776625074,-0.008719237121896177,-0.19969,-28.212185
11.185,2.0,1.0,1.0,34.5,34.7,34.7,4.2,2.9,2.645,0.2070399851461613,-0.03885212178368364,0.9544328696725402,-0.009492507176616469,-0.205392,-27.959899
11.185,2.0,1.0,1.0,34.5,34.7,34.7,4.2,2.9,2.6475,0.19495317539727608,-0.039885850374468554,0.9562836794608026,-0.010316324882714814,-0.211418,-27.702394
11.185,2.0,1.0,1.0,34.5,34.7,34.7,4.2,2.9,2.65,0.18270492041552686,-0.040962617070309196,0.9579699123991755,-0.011195060908043201,-0.217796,-27.439404
11.185,2.0,1.0,1.0,34.5,34.7,34.7,4.2,2.9,2.6525,0.1702917236713258,-0.042085169792606035,0.9594833590434477,-0.01213358975649805,-0.224558,-27.170641
11.185,2.0,1.0,1.0,34.5,34.7,34.7,4.2,2.9,2.655,0.15770986450826047,-0.04325648142081776,0.9608151144396129,-0.013137362807446486,-0.231742,-26.8958
11.185,2.0,1.0,1.0,34.5,34.7,34.7,4.2,2.9,2.6575,0.1449553768981871,-0.04447976943859827,0.9619554835260756,-0.014212494115868413,-0.239388,-26.614549
11.185,2.0,1.0,1.0,34.5,34.7,34.7,4.2,2.9,2.66,0.1320240267389611,-0.04575851669887476,0.9628938697822327,-0.015365861585465244,-0.247544,-26.326531
11.185,2.0,1.0,1.0,34.5,34.7,34.7,4.2,2.9,2.6625,0.11891128793150782,-0.047096493033489846,0.9636186436030579,-0.016605226740495735,-0.256261,-26.031361
11.185,2.0,1.0,1.0,34.5,34.7,34.7,4.2,2.9,2.665,0.10561231767108922,-0.04849777723711087,0.9641169860304376,-0.01793937709798974,-0.265602,-25.72862
11.185,2.0,1.0,1.0,34.5,34.7,34.7,4.2,2.9,2.6675,0.0921219316825177,-0.04996677866664307,0.9643747023927787,-0.019378296127848516,-0.275634,-25.417857
11.185,2.0,1.0,1.0,34.5,34.7,34.7,4.2,2.9,2.67,0.07843458056488929,-0.05150825727452953,0.9643759990257114,-0.02093336704697461,-0.286439,-25.098579
11.185,2.0,1.0,1.0,34.5,34.7,34.7,4.2,2.9,2.6725,0.06454432905358314,-0.05312734027557461,0.9641032144769544,-0.022617618308054234,-0.298108,-24.770252
11.185,2.0,1.0,1.0,34.5,34.7,34.7,4.2,2.9,2.675,0.050444840952351806,-0.054829532741554915,0.9635364943159346,-0.024446020724245787,-0.310749,-24.43229
11.185,2.0,1.0,1.0,34.5,34.7,34.7,4.2,2.9,2.6775,0.036129373880155455,-0.056620718090988086,0.9626533957113258,-0.026435848864552462,-0.324488,-24.084057
11.185,2.0,1.0,1.0,34.5,34.7,34.7,4.2,2.9,2.68,0.02159079003187933,-0.05850714249110992,0.9614284040910348,-0.028607122856466233,-0.339471,-23.724853
11.185,2.0,1.0,1.0,34.5,34.7,34.7,4.2,2.9,2.6825,0.0068215921952092355,-0.060495374310916575,0.9598323391707827,-0.030983151302554565,-0.355873,-23.353913
11.185,2.0,1.0,1.0,34.5,34.7,34.7,4.2,2.9,2.685,-0.008186001205715162,-0.06259222549520146,0.9578316210457453,-0.03359120200079297,-0.373899,-22.970394
11.185,2.0,1.0,1.0,34.5,34.7,34.7,4.2,2.9,2.6875,-0.023439921493143882,-0.0648046153603162,0.9553873583781541,-0.03646333500822455,-0.393797,-22.573367
11.185,2.0,1.0,1.0,34.5,34.7,34.7,4.2,2.9,2.69,-0.03894802479335119,-0.06713934774565128,0.952454209322066,-0.03963744289236512,-0.415862,-22.161808
11.185,2.0,1.0,1.0,34.5,34.7,34.7,4.2,2.9,2.6925,-0.05471773053760649,-0.06960275797839362,0.9489789508643142,-0.04315855651812831,-0.440454,-21.734584
11.185,2.0,1.0,1.0,34.5,34.7,34.7,4.2,2.9,2.695,-0.07075545350914965,-0.07220016402703598,0.9448986727044896,-0.04708049231482207,-0.468011,-21.290441
11.185,2.0,1.0,1.0,34.5,34.7,34.7,4.2,2.9,2.6975,-0.08706572305465633,-0.0749350222484175,0.9401384865057847,-0.05146793963346037,-0.499075,-20.827988
11.185,2.0,1.0,1.0,34.5,34.7,34.7,4.2,2.9,2.7,-0.10364982634173214,-0.0778076354115921,0.9346086093011958,-0.056399115359261294,-0.534315,-20.345684
11.185,2.0,1.0,1.0,34.5,34.7,34.7,4.2,2.9,2.7025,-0.12050372353356496,-0.0808131781329632,0.9282006407709176,-0.0619691474369947,-0.574574,-19.841817
11.185,2.0,1.0,1.0,34.5,34.7,34.7,4.2,2.9,2.705,-0.13761484191652978,-0.08393867450009666,0.9207828100435982,-0.06829438721213188,-0.620917,-19.314496
11.185,2.0,1.0,1.0,34.5,34.7,34.7,4.2,2.9,2.7075,-0.1549571314713316,-0.08715835523687177,0.9121939264578149,-0.07551788474110764,-0.674707,-18.761637
11.185,2.0,1.0,1.0,34.5,34.7,34.7,4.2,2.9,2.71,-0.1724834042601403,-0.09042648980524728,0.9022357518748163,-0.08381627078376308,-0.737708,-18.180959
11.185,2.0,1.0,1.0,34.5,34.7,34.7,4.2,2.9,2.7125,-0.1901134009850815,-0.09366625635679342,0.8906635721807651,-0.09340822424233426,-0.81223,-17.570001
11.185,2.0,1.0,1.0,34.5,34.7,34.7,4.2,2.9,2.715,-0.207715100333213,-0.09675236165315453,0.8771750037600519,-0.10456445035447225,-0.90133,-16.926164
11.185,2.0,1.0,1.0,34.5,34.7,34.7,4.2,2.9,2.7175,-0.2250753217971849,-0.09948378451147787,0.8613977978320171,-0.11761839974816199,-1.009103,-16.246819
11.185,2.0,1.0,1.0,34.5,34.7,34.7,4.2,2.9,2.72,-0.2418534424654953,-0.10154098932258684,0.8428791924089951,-0.13297527192869357,-1.141084,-15.529506
11.185,2.0,1.0,1.0,34.5,34.7,34.7,4.2,2.9,2.7225,-0.25750893231339,-0.10241915091207024,0.8210834610937423,-0.15111300883333867,-1.304814,-14.772321
11.185,2.0,1.0,1.0,34.5,34.7,34.7,4.2,2.9,2.725,-0.2711899692586017,-0.10132590945958135,0.795413256112702,-0.17256065888271033,-1.510561,-13.974612
11.185,2.0,1.0,1.0,34.5,34.7,34.7,4.2,2.9,2.7275,-0.2815696713397945,-0.09703183816216383,0.7652888076930541,-0.1978224138014089,-1.77212,-13.138207
11.185,2.0,1.0,1.0,34.5,34.7,34.7,4.2,2.9,2.73,-0.28662896350904693,-0.08767399376353831,0.7303537577011301,-0.2271837455138238,-2.107206,-12.269513
11.185,2.0,1.0,1.0,34.5,34.7,34.7,4.2,2.9,2.7325,-0.2834396917008975,-0.07056447597763318,0.6909295561224916,-0.26028793215487217,-2.535824,-11.382915
11.185,2.0,1.0,1.0,34.5,34.7,34.7,4.2,2.9,2.735,-0.26815928919467436,-0.04220273477934768,0.6488777278557996,-0.29533983717779566,-3.071956,-10.505773
11.185,2.0,1.0,1.0,34.5,34.7,34.7,4.2,2.9,2.7375,-0.23677045386114284,0.0010140765981725398,0.6088890682224084,-0.32793071221869513,-3.697693,-9.684317
11.185,2.0,1.0,1.0,34.5,34.7,34.7,4.2,2.9,2.74,-0.18739183144597082,0.060633364436186256,0.5795148262914475,-0.3501372846595269,-4.30681,-8.986911
11.185,2.0,1.0,1.0,34.5,34.7,34.7,4.2,2.9,2.7425,-0.12419905384284478,0.13255691319014307,0.5718508999203455,-0.3518308338269906,-4.65417,-8.496849
11.185,2.0,1.0,1.0,34.5,34.7,34.7,4.2,2.9,2.745,-0.0598096950421367,0.20498718837739577,0.5937482898862387,-0.3260817842689727,-4.484107,-8.287152
11.185,2.0,1.0,1.0,34.5,34.7,34.7,4.2,2.9,2.7475,-0.010776877668143597,0.2627745316270194,0.6426575752617324,-0.2756346910366859,-3.839186,-8.385573
11.185,2.0,1.0,1.0,34.5,34.7,34.7,4.2,2.9,2.75,0.0122902715589389,0.296507002708992,0.7057132005993,-0.212553288022982,-3.026118,-8.758373
11.185,2.0,1.0,1.0,34.5,34.7,34.7,4.2,2.9,2.7525,0.009635061742036462,0.3067744173692114,0.7682395143911103,-0.15026702512741558,-2.289384,-9.329637
11.185,2.0,1.0,1.0,34.5,34.7,34.7,4.2,2.9,2.755,-0.011562067289889507,0.300368656894352,0.8210812206587,-0.09696500554459603,-1.711417,-10.01638
11.185,2.0,1.0,1.0,34.5,34.7,34.7,4.2,2.9,2.7575,-0.04322444656790252,0.2847345012823211,0.8614152458502444,-0.05502460274740822,-1.284828,-10.751966
11.185,2.0,1.0,1.0,34.5,34.7,34.7,4.2,2.9,2.76,-0.07939889700204963,0.2652837778360711,0.8901300578355908,-0.02348809508325187,-0.976513,-11.491873
11.185,2.0,1.0,1.0,34.5,34.7,34.7,4.2,2.9,2.7625,-0.11654968446956383,0.2451912106580664,0.9094073781507579,-0.00027652490399088437,-0.754077,-12.209897
11.185,2.0,1.0,1.0,34.5,34.7,34.7,4.2,2.9,2.765,-0.1528721781315162,0.22605184705880338,0.9214694126088893,0.016685749189651485,-0.592466,-12.892241
11.185,2.0,1.0,1.0,34.5,34.7,34.7,4.2,2.9,2.7675,-0.18758617855368767,0.20853550202567045,0.9281460612958718,0.02909392064384991,-0.473801,-13.532679
11.185,2.0,1.0,1.0,34.5,34.7,34.7,4.2,2.9,2.77,-0.2204548365030494,0.19282635739644952,0.9308187568745928,0.03822287108312496,-0.385676,-14.129293
11.185,2.0,1.0,1.0,34.5,34.7,34.7,4.2,2.9,2.7725,-0.25150507405864614,0.17887608106577832,0.9304906003308824,0.04499743881590046,-0.319527,-14.682475
11.185,2.0,1.0,1.0,34.5,34.7,34.7,4.2,2.9,2.775,-0.2808779338189266,0.1665381623029611,0.9278781456720686,0.05007938802662714,-0.269413,-15.193765
11.185,2.0,1.0,1.0,34.5,34.7,34.7,4.2,2.9,2.7775,-0.308752841825339,0.155635234541707,0.9234906642663658,0.05394132669315428,-0.231168,-15.665183
11.185,2.0,1.0,1.0,34.5,34.7,34.7,4.2,2.9,2.78,-0.33531139541660915,0.14599082688631135,0.9176902757267543,0.056922349308083715,-0.201835,-16.09887
11.185,2.0,1.0,1.0,34.5,34.7,34.7,4.2,2.9,2.7825,-0.36072150372102957,0.13744294216124844,0.9107351587140803,0.05926784966600743,-0.179285,-16.496892
11.185,2.0,1.0,1.0,34.5,34.7,34.7,4.2,2.9,2.785,-0.38513167468334636,0.12984866309755114,0.9028098830378297,0.06115740778420325,-0.161969,-16.861137
11.185,2.0,1.0,1.0,34.5,34.7,34.7,4.2,2.9,2.7875,-0.40867015400114043,0.12308452888953016,0.8940465179183886,0.06272419505289824,-0.148743,-17.193277
11.185,2.0,1.0,1.0,34.5,34.7,34.7,4.2,2.9,2.79,-0.4314462215504747,0.11704507717871233,0.8845393050674499,0.06406849796150495,-0.138754,-17.494745
11.185,2.0,1.0,1.0,34.5,34.7,34.7,4.2,2.9,2.7925,-0.4535523036972937,0.1116407322722894,0.8743548844346445,0.06526720421868601,-0.13136,-17.766738
11.185,2.0,1.0,1.0,34.5,34.7,34.7,4.2,2.9,2.795,-0.4750662559356992,0.10679559949684969,0.8635394469540302,0.06638052342989063,-0.126071,-18.010221
11.185,2.0,1.0,1.0,34.5,34.7,34.7,4.2,2.9,2.7975,-0.49605352439586936,0.10244541199494736,0.8521237517496584,0.06745681122635877,-0.122515,-18.225938
11.185,2.0,1.0,1.0,34.5,34.7,34.7,4.2,2.9,2.8,-0.5165690718280689,0.09853572087631479,0.8401266439503189,0.06853609008362753,-0.120406,-18.41442
11.185,2.0,1.0,1.0,34.5,34.7,34.7,4.2,2.9,2.8025,-0.5366590394870369,0.09502034518893882,0.8275575039805794,0.06965267442257017,-0.119522,-18.575992
11.185,2.0,1.0,1.0,34.5,34.7,34.7,4.2,2.9,2.805,-0.5563621554499384,0.09186006472826497,0.8144179194046329,0.07083718349208001,-0.119696,-18.710783
11.185,2.0,1.0,1.0,34.5,34.7,34.7,4.2,2.9,2.8075,-0.575710915382467,0.08902152560052735,0.800702774372128,0.07211814308997283,-0.1208,-18.818723
11.185,2.0,1.0,1.0,34.5,34.7,34.7,4.2,2.9,2.81,-0.5947325655248634,0.08647632502088885,0.786400884489063,0.07352332302187224,-0.122742,-18.899549
11.185,2.0,1.0,1.0,34.5,34.7,34.7,4.2,2.9,2.8125,-0.613449915750722,0.0842002425310158,0.771495256275872,0.0750809225931134,-0.125457,-18.952799
11.185,2.0,1.0,1.0,34.5,34.7,34.7,4.2,2.9,2.815,-0.6318820059032962,0.08217258676715279,0.7559630131565527,0.07682069585309412,-0.128904,-18.977806
11.185,2.0,1.0,1.0,34.5,34.7,34.7,4.2,2.9,2.8175,-0.6500446424923889,0.08037562849464426,0.7397749989526125,0.07877509850063244,-0.133066,-18.973688
11.185,2.0,1.0,1.0,34.5,34.7,34.7,4.2,2.9,2.82,-0.667950815495996,0.07879409079247285,0.7228950409846955,0.08098053773441095,-0.137948,-18.93933
11.185,2.0,1.0,1.0,34.5,34.7,34.7,4.2,2.9,2.8225,-0.6856109959898389,0.07741466504657506,0.7052788242975955,0.08347881473415597,-0.143577,-18.873366
11.185,2.0,1.0,1.0,34.5,34.7,34.7,4.2,2.9,2.825,-0.703033303436584,0.07622551551671675,0.6868722920622868,0.08631886814725478,-0.150007,-18.774147
11.185,2.0,1.0,1.0,34.5,34.7,34.7,4.2,2.9,2.8275,-0.7202235145237968,0.07521572365400177,0.6676094395808586,0.08955895891421166,-0.157319,-18.639707
11.185,2.0,1.0,1.0,34.5,34.7,34.7,4.2,2.9,2.83,-0.7371848596364429,0.07437460260744959,0.647409303006336,0.09326948738971702,-0.16563,-18.467713
