1,w,sub_t,h,l1,l2,l3,g1,g2,Freq,S11_re,S21_re,S11_img,S21_img,S11_dB,S21_dB
11.185,2.0,1.0,1.0,33.9,34.6,34.6,3.8,1.8,2.5,0.798063202509419,-0.0109209793383777,0.590412368827634,0.00763052640920898,-0.063471,-37.508194
11.185,2.0,1.0,1.0,33.9,34.6,34.6,3.8,1.8,2.5025,0.7937329146214228,-0.01114804870957432,0.5960873879671359,0.007658365483452827,-0.064174,-37.377161
11.185,2.0,1.0,1.0,33.9,34.6,34.6,3.8,1.8,2.505,0.7893403749655842,-0.011379854951773436,0.6017566150180004,0.00768505640447153,-0.064892,-37.245477
11.185,2.0,1.0,1.0,33.9,34.6,34.6,3.8,1.8,2.5075,0.7848849125409055,-0.011616523330814293,0.607419647350787,0.007710541926950836,-0.065625,-37.113125
11.185,2.0,1.0,1.0,33.9,34.6,34.6,3.8,1.8,2.51,0.7803658446362779,-0.011858183578365692,0.6130760699844532,0.007734762145086366,-0.066374,-36.98009
11.185,2.0,1.0,1.0,33.9,34.6,34.6,3.8,1.8,2.5125,0.7757824765628352,-0.012104970095115523,0.6187254551626743,0.007757654349301567,-0.067139,-36.846354
11.185,2.0,1.0,1.0,33.9,34.6,34.6,3.8,1.8,2.515,0.771134101376311,-0.012357022165260337,0.624367361913229,0.007779152873894546,-0.06792,-36.7119
11.185,2.0,1.0,1.0,33.9,34.6,34.6,3.8,1.8,2.5175,0.7664199995887891,-0.012614484183039487,0.6300013355895392,0.007799188934941781,-0.068719,-36.57671
11.185,2.0,1.0,1.0,33.9,34.6,34.6,3.8,1.8,2.52,0.761639438869171,-0.012877505892109571,0.6356269073934411,0.007817690457731835,-0.069536,-36.440766
11.185,2.0,1.0,1.0,33.9,34.6,34.6,3.8,1.8,2.5225,0.756791673731657,-0.013146242638618223,0.6412435938781359,0.007834581892939356,-0.070371,-36.30405
11.185,2.0,1.0,1.0,33.9,34.6,34.6,3.8,1.8,2.525,0.7518759452114462,-0.01342085563890069,0.6468508964302584,0.007849784020681705,-0.071225,-36.166542
11.185,2.0,1.0,1.0,33.9,34.6,34.6,3.8,1.8,2.5275,0.74689148052682,-0.013701512262799906,0.6524483007298755,0.007863213741522487,-0.072099,-36.028223
11.185,2.0,1.0,1.0,33.9,34.6,34.6,3.8,1.8,2.53,0.7418374927266941,-0.013988386333677778,0.6580352761871486,0.007874783853409817,-0.072993,-35.889072
11.185,2.0,1.0,1.0,33.9,34.6,34.6,3.8,1.8,2.5325,0.7367131803226517,-0.014281658446279303,0.663611275354311,0.007884402813439297,-0.073907,-35.749069
11.185,2.0,1.0,1.0,33.9,34.6,34.6,3.8,1.8,2.535,0.7315177269043733,-0.014581516303700137,0.669175733311493,0.007891974483237106,-0.074843,-35.608191
11.185,2.0,1.0,1.0,33.9,34.6,34.6,3.8,1.8,2.5375,0.7262503007373103,-0.014888155074808012,0.6747280670248031,0.007897397856646457,-0.075802,-35.466418
11.185,2.0,1.0,1.0,33.9,34.6,34.6,3.8,1.8,2.54,0.7209100543413217,-0.015201777773578567,0.6802676746749707,0.007900566768277967,-0.076783,-35.323727
11.185,2.0,1.0,1.0,33.9,34.6,34.6,3.8,1.8,2.5425,0.7154961240489015,-0.015522595661925143,0.6857939349546913,0.007901369581353712,-0.077788,-35.180093
11.185,2.0,1.0,1.0,33.9,34.6,34.6,3.8,1.8,2.545,0.7100076295414949,-0.015850828677730106,0.6913062063326718,0.007899688853123244,-0.078818,-35.035494
11.185,2.0,1.0,1.0,33.9,34.6,34.6,3.8,1.8,2.5475,0.7044436733622751,-0.01618670588993588,0.6968038262821956,0.007895400975967474,-0.079874,-34.889904
11.185,2.0,1.0,1.0,33.9,34.6,34.6,3.8,1.8,2.55,0.6988033404035874,-0.016530465982697706,0.7022861104718554,0.007888375792124536,-0.080956,-34.743298
11.185,2.0,1.0,1.0,33.9,34.6,34.6,3.8,1.8,2.5525,0.6930856973671418,-0.016882357770776017,0.7077523519158613,0.007878476179771256,-0.082065,-34.595649
11.185,2.0,1.0,1.0,33.9,34.6,34.6,3.8,1.8,2.555,0.6872897921948194,-0.01724264074854059,0.7132018200811376,0.007865557607967106,-0.083203,-34.446931
11.185,2.0,1.0,1.0,33.9,34.6,34.6,3.8,1.8,2.5575,0.6814146534677855,-0.017611585675145876,0.7186337599481437,0.00784946765772373,-0.084371,-34.297115
11.185,2.0,1.0,1.0,33.9,34.6,34.6,3.8,1.8,2.56,0.6754592897713921,-0.017989475198677548,0.724047391022069,0.007830045506183464,-0.085569,-34.146173
11.185,2.0,1.0,1.0,33.9,34.6,34.6,3.8,1.8,2.5625,0.6694226890231,-0.018376604522305,0.72944190629075,0.00780712137058337,-0.086799,-33.994074
11.185,2.0,1.0,1.0,33.9,34.6,34.6,3.8,1.8,2.565,0.6633038177604011,-0.01877328211575544,0.7348164711252997,0.00778051590833777,-0.088062,-33.840788
11.185,2.0,1.0,1.0,33.9,34.6,34.6,3.8,1.8,2.5675,0.6571016203854415,-0.01917983047570727,0.740170222119036,0.007750039569191762,-0.089359,-33.686283
11.185,2.0,1.0,1.0,33.9,34.6,34.6,3.8,1.8,2.57,0.6508150183627114,-0.019596586939048238,0.7455022658598877,0.007715491894963031,-0.090692,-33.530525
11.185,2.0,1.0,1.0,33.9,34.6,34.6,3.8,1.8,2.5725,0.6444429093658293,-0.020023904553278668,0.7508116776309323,0.007676660761919777,-0.092063,-33.37348
11.185,2.0,1.0,1.0,33.9,34.6,34.6,3.8,1.8,2.575,0.6379841663690655,-0.020462153008769746,0.7560975000332092,0.007633321560292465,-0.093472,-33.215114
11.185,2.0,1.0,1.0,33.9,34.6,34.6,3.8,1.8,2.5775,0.6314376366788109,-0.020911719637982176,0.7613587415243064,0.007585236304828373,-0.094922,-33.055389
11.185,2.0,1.0,1.0,33.9,34.6,34.6,3.8,1.8,2.58,0.6248021408997338,-0.02137301048728504,0.7665943748655544,0.007532152669603426,-0.096413,-32.894267
11.185,2.0,1.0,1.0,33.9,34.6,34.6,3.8,1.8,2.5825,0.6180764718298305,-0.0218464514674971,0.7718033354698772,0.007473802939560146,-0.097949,-32.731708
11.185,2.0,1.0,1.0,33.9,34.6,34.6,3.8,1.8,2.585,0.6112593932780078,-0.02233248958990974,0.7769845196414804,0.007409902870364492,-0.09953,-32.567672
11.185,2.0,1.0,1.0,33.9,34.6,34.6,3.8,1.8,2.5875,0.6043496387971743,-0.022831594295170874,0.78213678269758,0.007340150447214021,-0.101159,-32.402117
11.185,2.0,1.0,1.0,33.9,34.6,34.6,3.8,1.8,2.59,0.5973459103251153,-0.023344258883152027,0.78725893696125,0.007264224532130231,-0.102838,-32.234998
11.185,2.0,1.0,1.0,33.9,34.6,34.6,3.8,1.8,2.5925,0.5902468767246118,-0.023871002052728366,0.7923497496132396,0.007181783388019341,-0.10457,-32.066268
11.185,2.0,1.0,1.0,33.9,34.6,34.6,3.8,1.8,2.595,0.5830511722134007,-0.02441236956126839,0.7974079403891485,0.007092463066388516,-0.106356,-31.895881
11.185,2.0,1.0,1.0,33.9,34.6,34.6,3.8,1.8,2.5975,0.5757573946735545,-0.024968936014654098,0.8024321791067822,0.00699587564399201,-0.108199,-31.723787
11.185,2.0,1.0,1.0,33.9,34.6,34.6,3.8,1.8,2.6,0.5683641038287857,-0.02554130679973,0.8074210830066245,0.0068916072918710995,-0.110103,-31.549934
11.185,2.0,1.0,1.0,33.9,34.6,34.6,3.8,1.8,2.6025,0.5608698192769549,-0.02613012017230877,0.812373213886305,0.006779216158170621,-0.112069,-31.374268
11.185,2.0,1.0,1.0,33.9,34.6,34.6,3.8,1.8,2.605,0.5532730183636675,-0.026736049515236934,0.8172870750075404,0.00665823004375141,-0.114102,-31.196733
11.185,2.0,1.0,1.0,33.9,34.6,34.6,3.8,1.8,2.6075,0.5455721338813546,-0.02735980578252541,0.8221611077512957,0.006528143846905596,-0.116204,-31.017271
11.185,2.0,1.0,1.0,33.9,34.6,34.6,3.8,1.8,2.61,0.5377655515765083,-0.028002140147256882,0.8269936879937841,0.006388416750384399,-0.118379,-30.83582
11.185,2.0,1.0,1.0,33.9,34.6,34.6,3.8,1.8,2.6125,0.5298516074458405,-0.028663846872866574,0.8317831221723472,0.006238469120380766,-0.120631,-30.652317
11.185,2.0,1.0,1.0,33.9,34.6,34.6,3.8,1.8,2.615,0.521828584800005,-0.029345766429501458,0.8365276430061147,0.006077679083018352,-0.122964,-30.466694
11.185,2.0,1.0,1.0,33.9,34.6,34.6,3.8,1.8,2.6175,0.5136947110711559,-0.030048788879521997,0.8412254048315949,0.005905378739176234,-0.125382,-30.278883
11.185,2.0,1.0,1.0,33.9,34.6,34.6,3.8,1.8,2.62,0.5054481543379332,-0.03077385755883263,0.8458744785078587,0.005720849973031582,-0.127891,-30.08881
11.185,2.0,1.0,1.0,33.9,34.6,34.6,3.8,1.8,2.6225,0.49708701953848256,-0.03152197308368851,0.8504728458396262,0.005523319803393638,-0.130494,-29.896399
11.185,2.0,1.0,1.0,33.9,34.6,34.6,3.8,1.8,2.625,0.488609344338811,-0.0322941977158899,0.855018393459193,0.00531195521959633,-0.133198,-29.70157
11.185,2.0,1.0,1.0,33.9,34.6,34.6,3.8,1.8,2.6275,0.48001309461998726,-0.033091660122968276,0.8595089060995847,0.005085857435217614,-0.136009,-29.504239
11.185,2.0,1.0,1.0,33.9,34.6,34.6,3.8,1.8,2.63,0.4712961595435586,-0.033915560574076735,0.8639420591813517,0.004844055482997705,-0.138932,-29.304317
11.185,2.0,1.0,1.0,33.9,34.6,34.6,3.8,1.8,2.6325,0.46245634614984754,-0.03476717661688351,0.8683154106237748,0.004585499062777303,-0.141975,-29.101714
11.185,2.0,1.0,1.0,33.9,34.6,34.6,3.8,1.8,2.635,0.45349137343855633,-0.035647869285903064,0.8726263917776313,0.004309050540759087,-0.145146,-28.89633
11.185,2.0,1.0,1.0,33.9,34.6,34.6,3.8,1.8,2.6375,0.4443988658752662,-0.0365590898984112,0.8768722973606922,0.004013475982537331,-0.148452,-28.688065
11.185,2.0,1.0,1.0,33.9,34.6,34.6,3.8,1.8,2.64,0.43517634626084867,-0.03750238750049778,0.8810502742583247,0.0036974350836822007,-0.151901,-28.47681
11.185,2.0,1.0,1.0,33.9,34.6,34.6,3.8,1.8,2.6425,0.42582122789357146,-0.03847941703285743,0.8851573090294013,0.0033594698396880486,-0.155505,-28.262453
11.185,2.0,1.0,1.0,33.9,34.6,34.6,3.8,1.8,2.645,0.41633080594555744,-0.03949194829383685,0.8891902139315148,0.0029979917710809515,-0.159272,-28.044873
11.185,2.0,1.0,1.0,33.9,34.6,34.6,3.8,1.8,2.6475,0.4067022479662997,-0.040541875785920826,0.8931456112484153,0.002611267488664295,-0.163215,-27.823944
11.185,2.0,1.0,1.0,33.9,34.6,34.6,3.8,1.8,2.65,0.39693258341602794,-0.04163122954145088,0.8970199156656486,0.0021974023472299603,-0.167346,-27.599533
11.185,2.0,1.0,1.0,33.9,34.6,34.6,3.8,1.8,2.6525,0.3870186921209172,-0.042762187033817275,0.900809314396284,0.0017543218923715257,-0.171678,-27.371499
11.185,2.0,1.0,1.0,33.9,34.6,34.6,3.8,1.8,2.655,0.3769572915302293,-0.04393708629178518,0.9045097447059428,0.0012797507527681621,-0.176226,-27.139692
11.185,2.0,1.0,1.0,33.9,34.6,34.6,3.8,1.8,2.6575,0.3667449226428072,-0.04515844034679752,0.9081168684230768,0.0007711885676263804,-0.181008,-26.903955
11.185,2.0,1.0,1.0,33.9,34.6,34.6,3.8,1.8,2.66,0.35637793445674026,-0.046428953156081886,0.9116260429443463,0.00022588246350526987,-0.18604,-26.664119
11.185,2.0,1.0,1.0,33.9,34.6,34.6,3.8,1.8,2.6625,0.3458524667819087,-0.0477515371577361,0.9150322881530107,-0.00035920449632583006,-0.191343,-26.420007
11.185,2.0,1.0,1.0,33.9,34.6,34.6,3.8,1.8,2.665,0.3351644312407519,-0.04912933262749574,0.9183302485568973,-0.0009874295772284644,-0.19694,-26.171429
11.185,2.0,1.0,1.0,33.9,34.6,34.6,3.8,1.8,2.6675,0.3243094902687474,-0.05056572901969994,0.9215141498170791,-0.0016625121745959843,-0.202855,-25.918182
11.185,2.0,1.0,1.0,33.9,34.6,34.6,3.8,1.8,2.67,0.31328303391356727,-0.052064388486268466,0.9245777486731921,-0.002388582136356433,-0.209115,-25.660053
11.185,2.0,1.0,1.0,33.9,34.6,34.6,3.8,1.8,2.6725,0.30208015422231366,-0.053629271775626965,0.9275142750689701,-0.0031702357919940497,-0.215752,-25.396812
11.185,2.0,1.0,1.0,33.9,34.6,34.6,3.8,1.8,2.675,0.29069561700179947,-0.05526466671624868,0.9303163650328816,-0.0040126011197721655,-0.222798,-25.128214
11.185,2.0,1.0,1.0,33.9,34.6,34.6,3.8,1.8,2.6775,0.2791238307407819,-0.05697521948349015,0.9329759825618593,-0.0049214137876509995,-0.230294,-24.853997
11.185,2.0,1.0,1.0,33.9,34.6,34.6,3.8,1.8,2.68,0.26735881250028737,-0.05876596882877429,0.9354843283759945,-0.005903106179624021,-0.238281,-24.573879
11.185,2.0,1.0,1.0,33.9,34.6,34.6,3.8,1.8,2.6825,0.255394150615703,-0.0606423834098124,0.9378317329392846,-0.0069649119870364845,-0.24681,-24.287561
11.185,2.0,1.0,1.0,33.9,34.6,34.6,3.8,1.8,2.685,0.24322296412241717,-0.06261040228908732,0.9400075305512154,-0.008114989528443672,-0.255935,-23.994719
11.185,2.0,1.0,1.0,33.9,34.6,34.6,3.8,1.8,2.6875,0.230837858930554,-0.0646764785501543,0.941999910573794,-0.00936256769363629,-0.26572,-23.695005
11.185,2.0,1.0,1.0,33.9,34.6,34.6,3.8,1.8,2.69,0.2182308809555737,-0.06684762579553011,0.9437957409268203,-0.010718119328824221,-0.276235,-23.388044
11.185,2.0,1.0,1.0,33.9,34.6,34.6,3.8,1.8,2.6925,0.20539346669210956,-0.06913146700405463,0.9453803578062431,-0.012193568044394589,-0.287564,-23.073432
11.185,2.0,1.0,1.0,33.9,34.6,34.6,3.8,1.8,2.695,0.19231639214528423,-0.07153628479277466,0.9467373140852591,-0.013802535904146387,-0.299801,-22.750732
11.185,2.0,1.0,1.0,33.9,34.6,34.6,3.8,1.8,2.6975,0.17898972167529226,-0.07407107148011031,0.9478480769525244,-0.015560641337067417,-0.313054,-22.419472
11.185,2.0,1.0,1.0,33.9,34.6,34.6,3.8,1.8,2.7,0.16540275926883447,-0.07674557638213333,0.9486916629046619,-0.017485859019337885,-0.327451,-22.079139
11.185,2.0,1.0,1.0,33.9,34.6,34.6,3.8,1.8,2.7025,0.1515440061746642,-0.07957034634269045,0.9492441950818719,-0.019598956562157523,-0.343139,-21.729178
11.185,2.0,1.0,1.0,33.9,34.6,34.6,3.8,1.8,2.705,0.13740113095372058,-0.08255675337825677,0.9494783639074351,-0.02192402681496983,-0.360289,-21.368985
11.185,2.0,1.0,1.0,33.9,34.6,34.6,3.8,1.8,2.7075,0.1229609611311763,-0.08571700017685432,0.9493627667929873,-0.024489139720093946,-0.379106,-20.997901
11.185,2.0,1.0,1.0,33.9,34.6,34.6,3.8,1.8,2.71,0.10820951030212199,-0.0890640895260473,0.9488610959512241,-0.027327144277226566,-0.399829,-20.615211
11.185,2.0,1.0,1.0,33.9,34.6,34.6,3.8,1.8,2.7125,0.09313206149775886,-0.09261173679893334,0.9479311346699633,-0.0304766597313541,-0.422745,-20.220131
11.185,2.0,1.0,1.0,33.9,34.6,34.6,3.8,1.8,2.715,0.07771333802950724,-0.09637419424242083,0.9465235111917152,-0.033983306126502334,-0.448194,-19.811809
11.185,2.0,1.0,1.0,33.9,34.6,34.6,3.8,1.8,2.7175,0.06193780868174951,-0.10036594021444861,0.9445801449512549,-0.03790123851177441,-0.476591,-19.389312
11.185,2.0,1.0,1.0,33.9,34.6,34.6,3.8,1.8,2.72,0.04579019778106843,-0.10460116296739114,0.9420323016277643,-0.042295067041702696,-0.508435,-18.951622
11.185,2.0,1.0,1.0,33.9,34.6,34.6,3.8,1.8,2.7225,0.02925630661857209,-0.10909293282361733,0.9387981506183405,-0.04724226759439253,-0.54434,-18.497626
11.185,2.0,1.0,1.0,33.9,34.6,34.6,3.8,1.8,2.725,0.012324307632271332,-0.11385190201004364,0.9347796908948682,-0.052836214531541845,-0.58506,-18.026113
11.185,2.0,1.0,1.0,33.9,34.6,34.6,3.8,1.8,2.7275,-0.005013242866609676,-0.118884287655676,0.9298588796910566,-0.05918999785791881,-0.631533,-17.53577
11.185,2.0,1.0,1.0,33.9,34.6,34.6,3.8,1.8,2.73,-0.022756297447211783,-0.1241887643268928,0.9238927668014486,-0.06644121750920567,-0.684935,-17.025178
11.185,2.0,1.0,1.0,33.9,34.6,34.6,3.8,1.8,2.7325,-0.04089253833761584,-0.12975169282596616,0.9167074153860598,-0.07475796780487512,-0.746752,-16.49282
11.185,2.0,1.0,1.0,33.9,34.6,34.6,3.8,1.8,2.735,-0.05939003689622288,-0.13553980323837791,0.9080904012063367,-0.08434621206645716,-0.818882,-15.937099
11.185,2.0,1.0,1.0,33.9,34.6,34.6,3.8,1.8,2.7375,-0.0781859817886819,-0.14148897492085846,0.8977817767358505,-0.09545865055813073,-0.90377,-15.356374
11.185,2.0,1.0,1.0,33.9,34.6,34.6,3.8,1.8,2.74,-0.09716937425445953,-0.14748703360724238,0.8854636709229134,-0.10840489841658123,-1.004597,-14.749027
11.185,2.0,1.0,1.0,33.9,34.6,34.6,3.8,1.8,2.7425,-0.11615450483876752,-0.1533474171343619,0.8707493869010147,-0.12356209818661631,-1.125535,-14.113583
11.185,2.0,1.0,1.0,33.9,34.6,34.6,3.8,1.8,2.745,-0.13484050720957555,-0.15876906781692798,0.8531743906610499,-0.1413835656538581,-1.272097,-13.448911
11.185,2.0,1.0,1.0,33.9,34.6,34.6,3.8,1.8,2.7475,-0.15275040658835518,-0.16327607147433373,0.8321947799853118,-0.16239989015231054,-1.451593,-12.754554
11.185,2.0,1.0,1.0,33.9,34.6,34.6,3.8,1.8,2.75,-0.169141482358916,-0.166129023675122,0.807205166028259,-0.187200619112663,-1.673704,-12.03128
11.185,2.0,1.0,1.0,33.9,34.6,34.6,3.8,1.8,2.7525,-0.18287969505630483,-0.16620110486888828,0.7775997162697648,-0.2163729629527991,-1.95107,-11.281932
11.185,2.0,1.0,1.0,33.9,34.6,34.6,3.8,1.8,2.755,-0.19228058073354254,-0.1618215371716987,0.74291993312003,-0.25035439123400094,-2.299571,-10.512764
11.185,2.0,1.0,1.0,33.9,34.6,34.6,3.8,1.8,2.7575,-0.194951593884035,-0.15062153107109152,0.7031593141688603,-0.28912990025161983,-2.7373,-9.735364
11.185,2.0,1.0,1.0,33.9,34.6,34.6,3.8,1.8,2.76,-0.1877513515672211,-0.12949760626283788,0.6593096961219832,-0.33169076055041724,-3.279577,-8.969205
11.185,2.0,1.0,1.0,33.9,34.6,34.6,3.8,1.8,2.7625,-0.16712918107207322,-0.09495323345782,0.6141702535806051,-0.3752357441513879,-3.923978,-8.244361
11.185,2.0,1.0,1.0,33.9,34.6,34.6,3.8,1.8,2.765,-0.13025475493534996,-0.0442228019930565,0.5731586445105225,-0.4143755104832597,-4.615807,-7.602934
11.185,2.0,1.0,1.0,33.9,34.6,34.6,3.8,1.8,2.7675,-0.0771595655691636,0.022608140607725855,0.5442806958946129,-0.44117692538849107,-5.197126,-7.096354
11.185,2.0,1.0,1.0,33.9,34.6,34.6,3.8,1.8,2.77,-0.013050250334727646,0.10032631130276028,0.5360229428808397,-0.4472652565893546,-5.413759,-6.7755
11.185,2.0,1.0,1.0,33.9,34.6,34.6,3.8,1.8,2.7725,0.05157824536925834,0.17850673953223758,0.553128437747777,-0.42800771815910593,-5.105881,-6.674499
11.185,2.0,1.0,1.0,33.9,34.6,34.6,3.8,1.8,2.775,0.10477809561006898,0.24533347291357324,0.5931657911238347,-0.38588538346954665,-4.403039,-6.796542
11.185,2.0,1.0,1.0,33.9,34.6,34.6,3.8,1.8,2.7775,0.13861814271036677,0.2930093717241937,0.6474886344670903,-0.3295067677753791,-3.580735,-7.112385
11.185,2.0,1.0,1.0,33.9,34.6,34.6,3.8,1.8,2.78,0.15166742235311334,0.32018456954650615,0.7058861668488585,-0.2689860724349238,-2.829304,-7.572806
11.185,2.0,1.0,1.0,33.9,34.6,34.6,3.8,1.8,2.7825,0.14732745897988445,0.3302777347472194,0.7606822613984613,-0.21189498726112185,-2.216006,-8.125276
11.185,2.0,1.0,1.0,33.9,34.6,34.6,3.8,1.8,2.785,0.13071626338935743,0.3283823569068426,0.8079284051185175,-0.1621020505738882,-1.740321,-8.725322
11.185,2.0,1.0,1.0,33.9,34.6,34.6,3.8,1.8,2.7875,0.10651599671915263,0.31914091722737375,0.8465557610786816,-0.1206267107102256,-1.378672,-9.340406
11.185,2.0,1.0,1.0,33.9,34.6,34.6,3.8,1.8,2.79,0.0781921185386122,0.30598026444321585,0.8770777031627758,-0.0869294341594642,-1.104858,-9.949025
11.185,2.0,1.0,1.0,33.9,34.6,34.6,3.8,1.8,2.7925,0.04801725613699053,0.2911416722172553,0.9006310302164188,-0.05986103753654672,-0.896735,-10.538091
11.185,2.0,1.0,1.0,33.9,34.6,34.6,3.8,1.8,2.795,0.017364330107589195,0.2759746354999072,0.9184531680607858,-0.03817844223938198,-0.737308,-11.100286
11.185,2.0,1.0,1.0,33.9,34.6,34.6,3.8,1.8,2.7975,-0.012993811610913147,0.26123511840669067,0.9316570041288522,-0.02076562623407237,-0.614034,-11.632013
11.185,2.0,1.0,1.0,33.9,34.6,34.6,3.8,1.8,2.8,-0.04265757590587132,0.24731063178749688,0.9411633553607869,-0.006698951717754476,-0.517787,-12.131959
11.185,2.0,1.0,1.0,33.9,34.6,34.6,3.8,1.8,2.8025,-0.07144896460671511,0.23437041024651534,0.947703274312288,0.004756168518020847,-0.441937,-12.600156
11.185,2.0,1.0,1.0,33.9,34.6,34.6,3.8,1.8,2.805,-0.09931642826651381,0.22245945528006927,0.9518451874486022,0.014172820327470907,-0.381647,-13.037391
11.185,2.0,1.0,1.0,33.9,34.6,34.6,3.8,1.8,2.8075,-0.12627734084239936,0.21155529022512007,0.9540267486600374,0.021994558116510268,-0.33336,-13.444832
11.185,2.0,1.0,1.0,33.9,34.6,34.6,3.8,1.8,2.81,-0.15238407854626776,0.20160136044519816,0.9545836803652554,0.02856423760255749,-0.294435,-13.823809
11.185,2.0,1.0,1.0,33.9,34.6,34.6,3.8,1.8,2.8125,-0.177704445952178,0.192526260973805,0.953773423318572,0.0341476169140687,-0.262892,-14.175682
11.185,2.0,1.0,1.0,33.9,34.6,34.6,3.8,1.8,2.815,-0.20231066290574168,0.1842545219072703,0.9517936410700396,0.038951811658242325,-0.237231,-14.501759
11.185,2.0,1.0,1.0,33.9,34.6,34.6,3.8,1.8,2.8175,-0.2262733954308393,0.17671242915485647,0.9487963614656771,0.043139403819335884,-0.216304,-14.803257
11.185,2.0,1.0,1.0,33.9,34.6,34.6,3.8,1.8,2.82,-0.24965872472201714,0.16983096006741158,0.9448986608024849,0.04683911712741631,-0.199225,-15.081278
11.185,2.0,1.0,1.0,33.9,34.6,34.6,3.8,1.8,2.8225,-0.27252680351862246,0.1635470671905142,0.9401906979215583,0.05015386870311528,-0.185305,-15.336804
11.185,2.0,1.0,1.0,33.9,34.6,34.6,3.8,1.8,2.825,-0.2949314611514591,0.15780403739055776,0.93474175003494,0.05316684973669443,-0.174001,-15.570685
11.185,2.0,1.0,1.0,33.9,34.6,34.6,3.8,1.8,2.8275,-0.3169203233344538,0.15255135277066395,0.9286047521717754,0.055946137930256816,-0.164886,-15.783651
11.185,2.0,1.0,1.0,33.9,34.6,34.6,3.8,1.8,2.83,-0.33853519376902813,0.14774430137195382,0.9218197172549919,0.058548220152772064,-0.157619,-15.976307
