1,w,sub_t,h,l1,l2,l3,g1,g2,Freq,S11_re,S21_re,S11_img,S21_img,S11_dB,S21_dB
11.185,2.0,1.0,1.0,34.7,34.1,34.1,1.8,2.2,2.5,0.648564853943302,-0.0264416746615095,0.747327521442227,0.0133774037716936,-0.091575,-30.564476
11.185,2.0,1.0,1.0,34.7,34.1,34.1,1.8,2.2,2.5025,0.64187548883323,-0.02695926989273815,0.7528943041081633,0.013327210737957612,-0.092821,-30.436314
11.185,2.0,1.0,1.0,34.7,34.1,34.1,1.8,2.2,2.505,0.635095260797266,-0.027486651091354137,0.75843362677788,0.013270831340154976,-0.094092,-30.307561
11.185,2.0,1.0,1.0,34.7,34.1,34.1,1.8,2.2,2.5075,0.6282231755748144,-0.028024010884647798,0.7639443703204409,0.013208007380260088,-0.095389,-30.178208
11.185,2.0,1.0,1.0,34.7,34.1,34.1,1.8,2.2,2.51,0.6212582283504982,-0.02857154565725575,0.7694253810170345,0.013138470267565911,-0.096713,-30.048245
11.185,2.0,1.0,1.0,34.7,34.1,34.1,1.8,2.2,2.5125,0.6141994038555241,-0.029129455595382107,0.7748754694422435,0.01306194056474947,-0.098064,-29.917664
11.185,2.0,1.0,1.0,34.7,34.1,34.1,1.8,2.2,2.515,0.607045676485728,-0.029697944728332527,0.7802934093066715,0.012978127512038041,-0.099444,-29.786454
11.185,2.0,1.0,1.0,34.7,34.1,34.1,1.8,2.2,2.5175,0.5997960104374622,-0.03027722096697825,0.7856779362594115,0.012886728528308286,-0.100854,-29.654606
11.185,2.0,1.0,1.0,34.7,34.1,34.1,1.8,2.2,2.52,0.592449359862479,-0.030867496138734896,0.7910277466488491,0.012787428687880967,-0.102294,-29.52211
11.185,2.0,1.0,1.0,34.7,34.1,34.1,1.8,2.2,2.5225,0.5850046690431324,-0.03146898601859556,0.7963414962401206,0.012679900171701335,-0.103766,-29.388956
11.185,2.0,1.0,1.0,34.7,34.1,34.1,1.8,2.2,2.525,0.5774608725891996,-0.03208191035571993,0.8016177988875974,0.012563801691516122,-0.10527,-29.255134
11.185,2.0,1.0,1.0,34.7,34.1,34.1,1.8,2.2,2.5275,0.569816895657788,-0.0327064928950303,0.8068552251605751,0.012438777885575566,-0.106807,-29.120632
11.185,2.0,1.0,1.0,34.7,34.1,34.1,1.8,2.2,2.53,0.5620716541978492,-0.03334296139321377,0.812052300920344,0.012304458684299606,-0.10838,-28.985441
11.185,2.0,1.0,1.0,34.7,34.1,34.1,1.8,2.2,2.5325,0.5542240552209189,-0.033991547628475616,0.8172075058466781,0.012160458644252808,-0.109988,-28.849549
11.185,2.0,1.0,1.0,34.7,34.1,34.1,1.8,2.2,2.535,0.5462729970998114,-0.03465248740332339,0.8223192719117279,0.012006376248671577,-0.111633,-28.712945
11.185,2.0,1.0,1.0,34.7,34.1,34.1,1.8,2.2,2.5375,0.5382173698971203,-0.0353260205395976,0.8273859817991682,0.01184179317267887,-0.113316,-28.575618
11.185,2.0,1.0,1.0,34.7,34.1,34.1,1.8,2.2,2.54,0.5300560557254703,-0.036012390864887334,0.8324059672663735,0.011666273511207475,-0.115039,-28.437556
11.185,2.0,1.0,1.0,34.7,34.1,34.1,1.8,2.2,2.5425,0.5217879291416144,-0.036711846189391016,0.8373775074472805,0.01147936296752827,-0.116802,-28.298746
11.185,2.0,1.0,1.0,34.7,34.1,34.1,1.8,2.2,2.545,0.5134118575766011,-0.03742463827219209,0.8422988270934627,0.01128058800014999,-0.118608,-28.159178
11.185,2.0,1.0,1.0,34.7,34.1,34.1,1.8,2.2,2.5475,0.5049267018043869,-0.03815102277582214,0.8471680947508339,0.011069454925715747,-0.120458,-28.018838
11.185,2.0,1.0,1.0,34.7,34.1,34.1,1.8,2.2,2.55,0.4963313164514125,-0.038891259207880745,0.8519834208692764,0.01084544897537098,-0.122352,-27.877714
11.185,2.0,1.0,1.0,34.7,34.1,34.1,1.8,2.2,2.5525,0.4876245505498685,-0.039645610848359325,0.8567428558423043,0.010608033301918111,-0.124294,-27.735793
11.185,2.0,1.0,1.0,34.7,34.1,34.1,1.8,2.2,2.555,0.4788052481375099,-0.040414344661193945,0.8614443879737846,0.01035664793489924,-0.126283,-27.593062
11.185,2.0,1.0,1.0,34.7,34.1,34.1,1.8,2.2,2.5575,0.46987224890711243,-0.041197731188429405,0.8660859413685289,0.010090708680566367,-0.128323,-27.449506
11.185,2.0,1.0,1.0,34.7,34.1,34.1,1.8,2.2,2.56,0.4608243889088752,-0.041996044425221216,0.8706653737434198,0.009809605963499557,-0.130415,-27.305113
11.185,2.0,1.0,1.0,34.7,34.1,34.1,1.8,2.2,2.5625,0.4516605013092829,-0.042809561673736146,0.875180474155557,0.009512703606424146,-0.13256,-27.159868
11.185,2.0,1.0,1.0,34.7,34.1,34.1,1.8,2.2,2.565,0.4423794172102099,-0.043638563373826274,0.8796289606437104,0.009199337544550342,-0.134761,-27.013757
11.185,2.0,1.0,1.0,34.7,34.1,34.1,1.8,2.2,2.5675,0.4329799665323102,-0.044483332908141916,0.8840084777791505,0.008868814470517364,-0.137019,-26.866765
11.185,2.0,1.0,1.0,34.7,34.1,34.1,1.8,2.2,2.57,0.4234609789670321,-0.045344156379133,0.8883165941217244,0.008520410405764013,-0.139338,-26.718876
11.185,2.0,1.0,1.0,34.7,34.1,34.1,1.8,2.2,2.5725,0.4138212850019001,-0.046221322355132204,0.8925507995768027,0.008153369193868292,-0.141718,-26.570076
11.185,2.0,1.0,1.0,34.7,34.1,34.1,1.8,2.2,2.575,0.4040597170240694,-0.04711512158244838,0.8967085026484507,0.007766900911100307,-0.144162,-26.420348
11.185,2.0,1.0,1.0,34.7,34.1,34.1,1.8,2.2,2.5775,0.39417511050751197,-0.04802584666009145,0.9007870275839405,0.007360180189111962,-0.146673,-26.269676
11.185,2.0,1.0,1.0,34.7,34.1,34.1,1.8,2.2,2.58,0.38416630528962303,-0.04895379167342551,0.9047836114043898,0.006932344444342053,-0.149253,-26.118044
11.185,2.0,1.0,1.0,34.7,34.1,34.1,1.8,2.2,2.5825,0.3740321469434366,-0.04989925178267757,0.9086954008160488,0.006482492008345388,-0.151904,-25.965435
11.185,2.0,1.0,1.0,34.7,34.1,34.1,1.8,2.2,2.585,0.36377148825216876,-0.05086252276182695,0.9125194489963645,0.0060096801528584445,-0.15463,-25.811831
11.185,2.0,1.0,1.0,34.7,34.1,34.1,1.8,2.2,2.5875,0.3533831907932889,-0.051843900482955875,0.9162527122486516,0.00551292300298636,-0.157434,-25.657214
11.185,2.0,1.0,1.0,34.7,34.1,34.1,1.8,2.2,2.59,0.34286612663993077,-0.05284368034064669,0.9198920465187637,0.004991189331438842,-0.160318,-25.501567
11.185,2.0,1.0,1.0,34.7,34.1,34.1,1.8,2.2,2.5925,0.3322191801880441,-0.053862156610469544,0.9234342037667806,0.004443400226249144,-0.163285,-25.344869
11.185,2.0,1.0,1.0,34.7,34.1,34.1,1.8,2.2,2.595,0.3214412501184191,-0.05489962173499561,0.92687582818625,0.003868426623883195,-0.166339,-25.187103
11.185,2.0,1.0,1.0,34.7,34.1,34.1,1.8,2.2,2.5975,0.3105312515034147,-0.055956365530108035,0.9302134522630788,0.003265086699073969,-0.169483,-25.028248
11.185,2.0,1.0,1.0,34.7,34.1,34.1,1.8,2.2,2.6,0.2994881180691067,-0.05703267430363593,0.9334434926656126,0.0026321431021085312,-0.172721,-24.868285
11.185,2.0,1.0,1.0,34.7,34.1,34.1,1.8,2.2,2.6025,0.28831080462444536,-0.05812882987751501,0.9365622459569272,0.0019683000336371873,-0.176058,-24.707192
11.185,2.0,1.0,1.0,34.7,34.1,34.1,1.8,2.2,2.605,0.2769982896700174,-0.05924510850376685,0.9395658841197263,0.0012722001463669973,-0.179495,-24.544948
11.185,2.0,1.0,1.0,34.7,34.1,34.1,1.8,2.2,2.6075,0.2655495782001278,-0.06038177966356672,0.9424504498836298,0.0005424212622460726,-0.183039,-24.381531
11.185,2.0,1.0,1.0,34.7,34.1,34.1,1.8,2.2,2.61,0.2539637047131274,-0.06153910473754551,0.9452118518439022,-0.00022252710707123467,-0.186694,-24.21692
11.185,2.0,1.0,1.0,34.7,34.1,34.1,1.8,2.2,2.6125,0.24223973644625363,-0.06271733553420719,0.9478458593599912,-0.0010242074495629126,-0.190464,-24.05109
11.185,2.0,1.0,1.0,34.7,34.1,34.1,1.8,2.2,2.615,0.2303767768527413,-0.06391671266194421,0.9503480972213806,-0.001864258166005512,-0.194354,-23.884018
11.185,2.0,1.0,1.0,34.7,34.1,34.1,1.8,2.2,2.6175,0.21837396934063832,-0.06513746372856787,0.9527140400674556,-0.0027443977219995283,-0.198369,-23.715681
11.185,2.0,1.0,1.0,34.7,34.1,34.1,1.8,2.2,2.62,0.2062305012945647,-0.06637980135052139,0.9549390065471264,-0.003666429054967092,-0.202516,-23.546052
11.185,2.0,1.0,1.0,34.7,34.1,34.1,1.8,2.2,2.6225,0.19394560840368466,-0.06764392095199943,0.9570181532029817,-0.004632244253394416,-0.206799,-23.375106
11.185,2.0,1.0,1.0,34.7,34.1,34.1,1.8,2.2,2.625,0.181518579321482,-0.0689299983320075,0.958946468063671,-0.00564382952682896,-0.211226,-23.202817
11.185,2.0,1.0,1.0,34.7,34.1,34.1,1.8,2.2,2.6275,0.16894876068536796,-0.070238186974962,0.9607187639270931,-0.0067032704864726945,-0.215801,-23.029157
11.185,2.0,1.0,1.0,34.7,34.1,34.1,1.8,2.2,2.63,0.15623556252704102,-0.07156861507769126,0.9623296713157287,-0.007812757757626283,-0.220534,-22.854099
11.185,2.0,1.0,1.0,34.7,34.1,34.1,1.8,2.2,2.6325,0.1433784641076085,-0.07292138226263174,0.9637736310841816,-0.008974592946752093,-0.22543,-22.677614
11.185,2.0,1.0,1.0,34.7,34.1,34.1,1.8,2.2,2.635,0.1303770202150278,-0.07429655594357566,0.9650448866575854,-0.010191194987533193,-0.230498,-22.499671
11.185,2.0,1.0,1.0,34.7,34.1,34.1,1.8,2.2,2.6375,0.11723086796533744,-0.07569416730645401,0.9661374758780716,-0.011465106892012753,-0.235745,-22.320242
11.185,2.0,1.0,1.0,34.7,34.1,34.1,1.8,2.2,2.64,0.10393973415354804,-0.07711420686330167,0.9670452224349415,-0.012799002934712811,-0.241181,-22.139293
11.185,2.0,1.0,1.0,34.7,34.1,34.1,1.8,2.2,2.6425,0.0905034432050571,-0.07855661953264688,0.9677617268525049,-0.014195696299537031,-0.246814,-21.956792
11.185,2.0,1.0,1.0,34.7,34.1,34.1,1.8,2.2,2.645,0.07692192578394258,-0.08002129919406639,0.9682803570078536,-0.015658147221278063,-0.252655,-21.772707
11.185,2.0,1.0,1.0,34.7,34.1,34.1,1.8,2.2,2.6475,0.06319522812081659,-0.08150808265842506,0.9685942381489996,-0.017189471655650997,-0.258714,-21.587003
11.185,2.0,1.0,1.0,34.7,34.1,34.1,1.8,2.2,2.65,0.04932352212989098,-0.08301674298831221,0.9686962423819083,-0.018792950513970043,-0.265003,-21.399643
11.185,2.0,1.0,1.0,34.7,34.1,34.1,1.8,2.2,2.6525,0.035307116392952136,-0.08454698209524777,0.9685789775930611,-0.020472039500840374,-0.271532,-21.210592
11.185,2.0,1.0,1.0,34.7,34.1,34.1,1.8,2.2,2.655,0.02114646809678492,-0.08609842253128523,0.9682347757721356,-0.02223037959556799,-0.278315,-21.019812
11.185,2.0,1.0,1.0,34.7,34.1,34.1,1.8,2.2,2.6575,0.006842196020852482,-0.08767059838247908,0.9676556806974419,-0.024071808220326684,-0.285366,-20.827264
11.185,2.0,1.0,1.0,34.7,34.1,34.1,1.8,2.2,2.66,-0.007604905316568423,-0.08926294516019542,0.966833434944762,-0.02600037114046903,-0.292698,-20.632906
11.185,2.0,1.0,1.0,34.7,34.1,34.1,1.8,2.2,2.6625,-0.022193850232555674,-0.09087478857320404,0.9657594661783211,-0.028020335144650934,-0.300328,-20.436699
11.185,2.0,1.0,1.0,34.7,34.1,34.1,1.8,2.2,2.665,-0.03692344503806146,-0.09250533204869307,0.9644248726808633,-0.03013620155461909,-0.308271,-20.238598
11.185,2.0,1.0,1.0,34.7,34.1,34.1,1.8,2.2,2.6675,-0.05179226962802706,-0.09415364285352776,0.962820408078236,-0.03235272061647738,-0.316546,-20.038559
11.185,2.0,1.0,1.0,34.7,34.1,34.1,1.8,2.2,2.67,-0.06679865733139428,-0.09581863664795501,0.9609364652126289,-0.03467490682693552,-0.325171,-19.836537
11.185,2.0,1.0,1.0,34.7,34.1,34.1,1.8,2.2,2.6725,-0.08194067282762385,-0.09749906028218924,0.9587630591178233,-0.037108055249282255,-0.334167,-19.632484
11.185,2.0,1.0,1.0,34.7,34.1,34.1,1.8,2.2,2.675,-0.097216087911667,-0.09919347262151447,0.9562898090496331,-0.03965775887446376,-0.343557,-19.426351
11.185,2.0,1.0,1.0,34.7,34.1,34.1,1.8,2.2,2.6775,-0.11262235486133072,-0.10090022315728016,0.9535059195253637,-0.042329927082470145,-0.353363,-19.218087
11.185,2.0,1.0,1.0,34.7,34.1,34.1,1.8,2.2,2.68,-0.1281565771288588,-0.1026174281289067,0.9504001603278868,-0.04513080525795347,-0.363611,-19.00764
11.185,2.0,1.0,1.0,34.7,34.1,34.1,1.8,2.2,2.6825,-0.14381547704204858,-0.10434294384520147,0.9469608454331528,-0.048066995611274727,-0.374329,-18.794956
11.185,2.0,1.0,1.0,34.7,34.1,34.1,1.8,2.2,2.685,-0.1595953601584529,-0.1060743368512228,0.943175810825084,-0.0511454792515777,-0.385546,-18.579979
11.185,2.0,1.0,1.0,34.7,34.1,34.1,1.8,2.2,2.6875,-0.17549207586846305,-0.1078088505388445,0.9390323911693398,-0.05437363955143889,-0.397294,-18.362651
11.185,2.0,1.0,1.0,34.7,34.1,34.1,1.8,2.2,2.69,-0.1915009737885251,-0.10954336774418841,0.9345173953281624,-0.05775928683246769,-0.409608,-18.142912
11.185,2.0,1.0,1.0,34.7,34.1,34.1,1.8,2.2,2.6925,-0.20761685542331734,-0.1112743688122069,0.9296170807131887,-0.06131068438706479,-0.422526,-17.9207
11.185,2.0,1.0,1.0,34.7,34.1,34.1,1.8,2.2,2.695,-0.22383392050423553,-0.11299788453670813,0.9243171264929491,-0.06503657583224663,-0.436088,-17.695951
11.185,2.0,1.0,1.0,34.7,34.1,34.1,1.8,2.2,2.6975,-0.24014570732991544,-0.11470944330179933,0.9186026056979733,-0.06894621376572364,-0.450339,-17.468599
11.185,2.0,1.0,1.0,34.7,34.1,34.1,1.8,2.2,2.7,-0.2565450263408925,-0.11640401165648832,0.9124579563009163,-0.07304938966044787,-0.465327,-17.238575
11.185,2.0,1.0,1.0,34.7,34.1,34.1,1.8,2.2,2.7025,-0.27302388605366246,-0.11807592744645776,0.9058669513938113,-0.07735646488958015,-0.481105,-17.00581
11.185,2.0,1.0,1.0,34.7,34.1,34.1,1.8,2.2,2.705,-0.28957341035712014,-0.11971882450387712,0.8988126686423253,-0.08187840271647046,-0.49773,-16.77023
11.185,2.0,1.0,1.0,34.7,34.1,34.1,1.8,2.2,2.7075,-0.3061837460348069,-0.12132554775551452,0.8912774592709738,-0.08662680101049766,-0.515264,-16.53176
11.185,2.0,1.0,1.0,34.7,34.1,34.1,1.8,2.2,2.71,-0.32284395921722747,-0.1228880574490891,0.8832429169279483,-0.09161392535519108,-0.533777,-16.290322
11.185,2.0,1.0,1.0,34.7,34.1,34.1,1.8,2.2,2.7125,-0.33954191928736993,-0.12439732101533381,0.8746898468986213,-0.09685274209471667,-0.553343,-16.045837
11.185,2.0,1.0,1.0,34.7,34.1,34.1,1.8,2.2,2.715,-0.3562641685568411,-0.12584319087607937,0.8655982362897156,-0.10235695071190205,-0.574045,-15.798221
11.185,2.0,1.0,1.0,34.7,34.1,34.1,1.8,2.2,2.7175,-0.37299577579727683,-0.1272142662742354,0.8559472259995375,-0.10814101473727375,-0.595973,-15.547392
11.185,2.0,1.0,1.0,34.7,34.1,34.1,1.8,2.2,2.72,-0.3897201714492982,-0.12849773693736918,0.8457150855339997,-0.11422019014373792,-0.619229,-15.293261
11.185,2.0,1.0,1.0,34.7,34.1,34.1,1.8,2.2,2.7225,-0.4064189620372492,-0.12967920609049077,0.8348791920360547,-0.12061054987272489,-0.643922,-15.035741
11.185,2.0,1.0,1.0,34.7,34.1,34.1,1.8,2.2,2.725,-0.4230717209905634,-0.13074249000417237,0.8234160152837504,-0.1273290027487256,-0.670173,-14.77474
11.185,2.0,1.0,1.0,34.7,34.1,34.1,1.8,2.2,2.7275,-0.43965575271180146,-0.13166939090088306,0.8113011108988877,-0.13439330455034973,-0.698119,-14.510165
11.185,2.0,1.0,1.0,34.7,34.1,34.1,1.8,2.2,2.73,-0.45614582633819584,-0.13243943964691643,0.7985091246193031,-0.14182205839240442,-0.727909,-14.241923
11.185,2.0,1.0,1.0,34.7,34.1,34.1,1.8,2.2,2.7325,-0.47251387522271543,-0.1330296042339263,0.7850138112529966,-0.14963470080455604,-0.75971,-13.969919
11.185,2.0,1.0,1.0,34.7,34.1,34.1,1.8,2.2,2.735,-0.4887286577204423,-0.13341395961159536,0.7707880728898033,-0.15785146892993768,-0.793707,-13.694057
11.185,2.0,1.0,1.0,34.7,34.1,34.1,1.8,2.2,2.7375,-0.5047553744216131,-0.13356331398653917,0.7558040221417036,-0.1664933430653521,-0.830106,-13.41424
11.185,2.0,1.0,1.0,34.7,34.1,34.1,1.8,2.2,2.74,-0.5205552365481664,-0.13344478627666545,0.7400330776727189,-0.17558195726679332,-0.869141,-13.130374
11.185,2.0,1.0,1.0,34.7,34.1,34.1,1.8,2.2,2.7425,-0.5360849798633622,-0.13302132904276004,0.7234461011316393,-0.18513946888155866,-0.91107,-12.842364
11.185,2.0,1.0,1.0,34.7,34.1,34.1,1.8,2.2,2.745,-0.5512963181902574,-0.13225119096683757,0.7060135868969547,-0.19518837555922816,-0.956184,-12.550121
11.185,2.0,1.0,1.0,34.7,34.1,34.1,1.8,2.2,2.7475,-0.5661353305767429,-0.1310873128931009,0.6877059188796316,-0.20575126544180813,-1.004812,-12.253556
11.185,2.0,1.0,1.0,34.7,34.1,34.1,1.8,2.2,2.75,-0.580541776401471,-0.129476651712403,0.668493712116882,-0.21685048272674,-1.057324,-11.952587
11.185,2.0,1.0,1.0,34.7,34.1,34.1,1.8,2.2,2.7525,-0.5944483334552182,-0.1273594271257464,0.6483482611538213,-0.22850768651008746,-1.114138,-11.647142
11.185,2.0,1.0,1.0,34.7,34.1,34.1,1.8,2.2,2.755,-0.6077797554934112,-0.12466828780643371,0.6272421223845142,-0.24074327561663966,-1.175729,-11.337156
11.185,2.0,1.0,1.0,34.7,34.1,34.1,1.8,2.2,2.7575,-0.6204519482669264,-0.12132739602649725,0.6051498637440419,-0.2535756458747698,-1.242635,-11.022578
11.185,2.0,1.0,1.0,34.7,34.1,34.1,1.8,2.2,2.76,-0.6323709670509369,-0.11725143387651857,0.5820490225268801,-0.26702023888058257,-1.315471,-10.703374
11.185,2.0,1.0,1.0,34.7,34.1,34.1,1.8,2.2,2.7625,-0.6434319448157629,-0.11234454040431725,0.5579213207242023,-0.28108833265114136,-1.394938,-10.379531
11.185,2.0,1.0,1.0,34.7,34.1,34.1,1.8,2.2,2.765,-0.653517969231939,-0.10649919814659892,0.5327541970974979,-0.2957855147226566,-1.481837,-10.051062
11.185,2.0,1.0,1.0,34.7,34.1,34.1,1.8,2.2,2.7675,-0.6624989397373982,-0.09959510069883298,0.5065427260354615,-0.31110976741861185,-1.577089,-9.718011
11.185,2.0,1.0,1.0,34.7,34.1,34.1,1.8,2.2,2.77,-0.6702304542765513,-0.09149805152878468,0.47929200457633897,-0.32704908370953145,-1.681752,-9.380464
11.185,2.0,1.0,1.0,34.7,34.1,34.1,1.8,2.2,2.7725,-0.6765528007339011,-0.08205896987851284,0.45102009984251873,-0.3435785213095705,-1.797047,-9.038555
11.185,2.0,1.0,1.0,34.7,34.1,34.1,1.8,2.2,2.775,-0.6812901625281278,-0.07111311431844705,0.421761657816885,-0.3606565941505383,-1.924385,-8.692474
11.185,2.0,1.0,1.0,34.7,34.1,34.1,1.8,2.2,2.7775,-0.6842501935257455,-0.05847968052495673,0.391572278087102,-0.3782208969919454,-2.065399,-8.342486
11.185,2.0,1.0,1.0,34.7,34.1,34.1,1.8,2.2,2.78,-0.6852241765661353,-0.04396198930966455,0.3605337535300344,-0.3961828650922902,-2.221987,-7.988938
11.185,2.0,1.0,1.0,34.7,34.1,34.1,1.8,2.2,2.7825,-0.6839880541087369,-0.02734855541798113,0.32876025240936835,-0.4144215931513386,-2.396356,-7.63228
11.185,2.0,1.0,1.0,34.7,34.1,34.1,1.8,2.2,2.785,-0.6803047089897634,-0.00841541719069912,0.29640547378086685,-0.43277668544952297,-2.59108,-7.273081
11.185,2.0,1.0,1.0,34.7,34.1,34.1,1.8,2.2,2.7875,-0.6739279751555615,0.013069791202818133,0.26367072298067395,-0.4510401947837079,-2.809165,-6.91205
11.185,2.0,1.0,1.0,34.7,34.1,34.1,1.8,2.2,2.79,-0.6646089642572118,0.03734143816204152,0.23081371658859934,-0.4689478471582375,-3.054123,-6.550059
11.185,2.0,1.0,1.0,34.7,34.1,34.1,1.8,2.2,2.7925,-0.6521053871059278,0.06462648577762393,0.19815771764327506,-0.48616996007665164,-3.330069,-6.188166
11.185,2.0,1.0,1.0,34.7,34.1,34.1,1.8,2.2,2.795,-0.6361945991623931,0.09513134920076155,0.16610030485276212,-0.5023027615038793,-3.641817,-5.827641
11.185,2.0,1.0,1.0,34.7,34.1,34.1,1.8,2.2,2.7975,-0.6166910590723522,0.12902434565546936,0.1351206840410495,-0.5168612134055933,-3.995003,-5.469986
11.185,2.0,1.0,1.0,34.7,34.1,34.1,1.8,2.2,2.8,-0.5934686913992981,0.16641326046592403,0.10578396430974413,-0.5292749286689729,-4.396207,-5.116957
11.185,2.0,1.0,1.0,34.7,34.1,34.1,1.8,2.2,2.8025,-0.5664882045487407,0.20731800777674636,0.0787402886116686,-0.5388892979567274,-4.853076,-4.770573
11.185,2.0,1.0,1.0,34.7,34.1,34.1,1.8,2.2,2.805,-0.5358286444091391,0.251639144630491,0.05471622795043699,-0.5449744119066615,-5.37443,-4.433124
11.185,2.0,1.0,1.0,34.7,34.1,34.1,1.8,2.2,2.8075,-0.5017213038135772,0.2991241646693981,0.03449559500636182,-0.5467445971657307,-5.970268,-4.107153
11.185,2.0,1.0,1.0,34.7,34.1,34.1,1.8,2.2,2.81,-0.4645825808950492,0.3493350224446104,0.018887061019134083,-0.5433911273541016,-6.65157,-3.795424
11.185,2.0,1.0,1.0,34.7,34.1,34.1,1.8,2.2,2.8125,-0.42504066496149595,0.4016220339860872,0.008676970416451286,-0.5341296248242713,-7.429581,-3.500864
11.185,2.0,1.0,1.0,34.7,34.1,34.1,1.8,2.2,2.815,-0.3839494287904166,0.4551107547342482,0.00456779503315039,-0.5182615922612387,-8.313905,-3.226478
11.185,2.0,1.0,1.0,34.7,34.1,34.1,1.8,2.2,2.8175,-0.34238225669701966,0.5087090158874423,0.007105796599908595,-0.4952463793571733,-9.307905,-2.975231
11.185,2.0,1.0,1.0,34.7,34.1,34.1,1.8,2.2,2.82,-0.3015994919403093,0.5611402631857293,0.016605304277882278,-0.46477608769372375,-10.398243,-2.749912
11.185,2.0,1.0,1.0,34.7,34.1,34.1,1.8,2.2,2.8225,-0.2629863290593468,0.6110061329653613,0.03308065152010823,-0.4268423717560131,-11.533157,-2.55298
11.185,2.0,1.0,1.0,34.7,34.1,34.1,1.8,2.2,2.825,-0.2279633056355103,0.656875860602178,0.05619888717434082,-0.3817821637505575,-12.586468,-2.386409
11.185,2.0,1.0,1.0,34.7,34.1,34.1,1.8,2.2,2.8275,-0.19787812506427047,0.6973936194666013,0.08526548710495342,-0.33029038736214766,-13.332391,-2.25155
11.185,2.0,1.0,1.0,34.7,34.1,34.1,1.8,2.2,2.83,-0.1738934949924012,0.7313891091089051,0.11925072873449527,-0.27339238223947354,-13.520336,-2.149027
