1,w,sub_t,h,l1,l2,l3,g1,g2,Freq,S11_re,S21_re,S11_img,S21_img,S11_dB,S21_dB
11.185,2.0,1.0,1.0,34.0,33.0,33.0,1.5,3.5,2.5,0.77922188757224,-0.0126602656381714,0.614443417868731,0.00874703017992486,-0.066839,-36.256314
11.185,2.0,1.0,1.0,34.0,33.0,33.0,1.5,3.5,2.5025,0.7745355364505415,-0.012901382467996785,0.6202144241856756,0.00875766691042045,-0.067529,-36.141393
11.185,2.0,1.0,1.0,34.0,33.0,33.0,1.5,3.5,2.505,0.7697817232835066,-0.013146550890545389,0.6259778296991568,0.00876630685250807,-0.06823,-36.026164
11.185,2.0,1.0,1.0,34.0,33.0,33.0,1.5,3.5,2.5075,0.7649597314051336,-0.013395839089045411,0.6317331425418946,0.008772871809904308,-0.068945,-35.91062
11.185,2.0,1.0,1.0,34.0,33.0,33.0,1.5,3.5,2.51,0.7600688340475182,-0.013649316334815835,0.6374798556620578,0.008777280847984079,-0.069673,-35.794758
11.185,2.0,1.0,1.0,34.0,33.0,33.0,1.5,3.5,2.5125,0.7551082942587504,-0.013907052993050272,0.6432174463417332,0.008779450194371248,-0.070414,-35.67857
11.185,2.0,1.0,1.0,34.0,33.0,33.0,1.5,3.5,2.515,0.750077364824314,-0.014169120527642489,0.6489453757002702,0.008779293135781909,-0.07117,-35.562053
11.185,2.0,1.0,1.0,34.0,33.0,33.0,1.5,3.5,2.5175,0.74497528819233,-0.014435591504964634,0.6546630881820029,0.008776719910976102,-0.071939,-35.4452
11.185,2.0,1.0,1.0,34.0,33.0,33.0,1.5,3.5,2.52,0.7398012964029753,-0.014706539596504606,0.6603700110278876,0.008771637599667544,-0.072722,-35.328006
11.185,2.0,1.0,1.0,34.0,33.0,33.0,1.5,3.5,2.5225,0.7345546110224654,-0.014982039580260254,0.6660655537305255,0.008763950007235977,-0.07352,-35.210465
11.185,2.0,1.0,1.0,34.0,33.0,33.0,1.5,3.5,2.525,0.7292344430819784,-0.015262167340783984,0.6717491074720717,0.008753557545080027,-0.074333,-35.092572
11.185,2.0,1.0,1.0,34.0,33.0,33.0,1.5,3.5,2.5275,0.7238399930219399,-0.015546999867761285,0.6774200445444997,0.008740357106443003,-0.075162,-34.974322
11.185,2.0,1.0,1.0,34.0,33.0,33.0,1.5,3.5,2.53,0.7183704506421146,-0.01583661525300044,0.6830777177516594,0.008724241937537807,-0.076006,-34.855708
11.185,2.0,1.0,1.0,34.0,33.0,33.0,1.5,3.5,2.5325,0.7128249950579676,-0.016131092685701558,0.6887214597925839,0.00870510150378969,-0.076866,-34.736724
11.185,2.0,1.0,1.0,34.0,33.0,33.0,1.5,3.5,2.535,0.7072027946637863,-0.016430512445864853,0.6943505826254596,0.008682821351010015,-0.077742,-34.617366
11.185,2.0,1.0,1.0,34.0,33.0,33.0,1.5,3.5,2.5375,0.7015030071030992,-0.016734955895687072,0.699964376811663,0.008657282961306547,-0.078635,-34.497627
11.185,2.0,1.0,1.0,34.0,33.0,33.0,1.5,3.5,2.54,0.6957247792469345,-0.017044505468787025,0.7055621108392667,0.008628363603528885,-0.079545,-34.377502
11.185,2.0,1.0,1.0,34.0,33.0,33.0,1.5,3.5,2.5425,0.6898672471805124,-0.01735924465708841,0.7111430304253815,0.008595936178040024,-0.080472,-34.256984
11.185,2.0,1.0,1.0,34.0,33.0,33.0,1.5,3.5,2.545,0.6839295361989902,-0.01767925799517796,0.7167063577966974,0.008559869055597885,-0.081417,-34.136068
11.185,2.0,1.0,1.0,34.0,33.0,33.0,1.5,3.5,2.5475,0.6779107608129271,-0.01800463104194369,0.7222512909475607,0.008520025910122178,-0.082381,-34.014748
11.185,2.0,1.0,1.0,34.0,33.0,33.0,1.5,3.5,2.55,0.6718100247641496,-0.018335450359286364,0.7277770028749282,0.008476265545114462,-0.083363,-33.893017
11.185,2.0,1.0,1.0,34.0,33.0,33.0,1.5,3.5,2.5525,0.665626421052777,-0.018671803487681635,0.7332826407894859,0.00842844171349118,-0.084364,-33.77087
11.185,2.0,1.0,1.0,34.0,33.0,33.0,1.5,3.5,2.555,0.659359031976165,-0.01901377891835761,0.7387673253022453,0.008376402930579684,-0.085385,-33.648301
11.185,2.0,1.0,1.0,34.0,33.0,33.0,1.5,3.5,2.5575,0.6530069291806033,-0.01936146606183548,0.7442301495858883,0.008319992280020443,-0.086425,-33.525303
11.185,2.0,1.0,1.0,34.0,33.0,33.0,1.5,3.5,2.56,0.6465691737266421,-0.019714955212564722,0.7496701785101136,0.008259047212308022,-0.087486,-33.401871
11.185,2.0,1.0,1.0,34.0,33.0,33.0,1.5,3.5,2.5625,0.6400448161689601,-0.020074337509366418,0.7550864477502375,0.00819339933569525,-0.088568,-33.277998
11.185,2.0,1.0,1.0,34.0,33.0,33.0,1.5,3.5,2.565,0.6334328966517526,-0.02043970489138024,0.760477962868275,0.008122874199175442,-0.089672,-33.153677
11.185,2.0,1.0,1.0,34.0,33.0,33.0,1.5,3.5,2.5675,0.6267324450206748,-0.020811150049188612,0.7658436983657038,0.008047291067247801,-0.090798,-33.028903
11.185,2.0,1.0,1.0,34.0,33.0,33.0,1.5,3.5,2.57,0.6199424809524201,-0.021188766370772827,0.7711825967071196,0.007966462686161774,-0.091946,-32.903669
11.185,2.0,1.0,1.0,34.0,33.0,33.0,1.5,3.5,2.5725,0.6130620141030839,-0.021572647881930914,0.7764935673139538,0.00788019504132571,-0.093117,-32.777968
11.185,2.0,1.0,1.0,34.0,33.0,33.0,1.5,3.5,2.575,0.6060900442765322,-0.021962889180764087,0.7817754855274217,0.007788287105555818,-0.094312,-32.651794
11.185,2.0,1.0,1.0,34.0,33.0,33.0,1.5,3.5,2.5775,0.5990255616140512,-0.0223595853658127,0.7870271915398512,0.007690530577830483,-0.095531,-32.525141
11.185,2.0,1.0,1.0,34.0,33.0,33.0,1.5,3.5,2.58,0.5918675468066376,-0.02276283195739457,0.7922474892935244,0.007586709612205743,-0.096775,-32.398002
11.185,2.0,1.0,1.0,34.0,33.0,33.0,1.5,3.5,2.5825,0.5846149713313528,-0.023172724811670858,0.7974351453461631,0.007476600536535558,-0.098044,-32.270371
11.185,2.0,1.0,1.0,34.0,33.0,33.0,1.5,3.5,2.585,0.5772667977132573,-0.02358936002693212,0.8025888877021603,0.00735997156063263,-0.099339,-32.142239
11.185,2.0,1.0,1.0,34.0,33.0,33.0,1.5,3.5,2.5875,0.5698219798145062,-0.02401283384156551,0.8077074046086641,0.007236582473492069,-0.100662,-32.013602
11.185,2.0,1.0,1.0,34.0,33.0,33.0,1.5,3.5,2.59,0.5622794631523026,-0.024443242523128253,0.812789343315597,0.007106184329191992,-0.102011,-31.884451
11.185,2.0,1.0,1.0,34.0,33.0,33.0,1.5,3.5,2.5925,0.5546381852474642,-0.024880682247915897,0.8178333087986958,0.006968519121073911,-0.103389,-31.754781
11.185,2.0,1.0,1.0,34.0,33.0,33.0,1.5,3.5,2.595,0.5468970760054963,-0.025325248970373266,0.8228378624446354,0.006823319443794732,-0.104796,-31.624583
11.185,2.0,1.0,1.0,34.0,33.0,33.0,1.5,3.5,2.5975,0.5390550581321201,-0.025777038281655496,0.827801520697313,0.0066703081428331305,-0.106233,-31.493852
11.185,2.0,1.0,1.0,34.0,33.0,33.0,1.5,3.5,2.6,0.5311110475853529,-0.026236145256600174,0.8327227536643521,0.006509197951021799,-0.1077,-31.362579
11.185,2.0,1.0,1.0,34.0,33.0,33.0,1.5,3.5,2.6025,0.5230639540663381,-0.02670266428832468,0.8375999836828735,0.0063396911116682985,-0.109198,-31.230759
11.185,2.0,1.0,1.0,34.0,33.0,33.0,1.5,3.5,2.605,0.5149126815512242,-0.027176688909612286,0.8424315838436143,0.0061614789878171395,-0.110729,-31.098383
11.185,2.0,1.0,1.0,34.0,33.0,33.0,1.5,3.5,2.6075,0.506656128866546,-0.027658311600196665,0.8472158764724385,0.0059742416571966816,-0.112292,-30.965444
11.185,2.0,1.0,1.0,34.0,33.0,33.0,1.5,3.5,2.61,0.4982931903106775,-0.028147623578996396,0.8519511315683143,0.005777647492386664,-0.11389,-30.831935
11.185,2.0,1.0,1.0,34.0,33.0,33.0,1.5,3.5,2.6125,0.489822756324062,-0.02864471458029166,0.8566355651968333,0.005571352725732732,-0.115522,-30.697849
11.185,2.0,1.0,1.0,34.0,33.0,33.0,1.5,3.5,2.615,0.48124371421107476,-0.029149672612769725,0.8612673378383627,0.005355000998528724,-0.117189,-30.563178
11.185,2.0,1.0,1.0,34.0,33.0,33.0,1.5,3.5,2.6175,0.47255494891653493,-0.02966258370029659,0.865844552689925,0.005128222893980194,-0.118894,-30.427915
11.185,2.0,1.0,1.0,34.0,33.0,33.0,1.5,3.5,2.62,0.46375534386003053,-0.03018353160320004,0.8703652539199364,0.0048906354534574235,-0.120636,-30.292052
11.185,2.0,1.0,1.0,34.0,33.0,33.0,1.5,3.5,2.6225,0.45484378183138835,-0.030712597518771673,0.8748274248749485,0.004641841675541705,-0.122418,-30.155581
11.185,2.0,1.0,1.0,34.0,33.0,33.0,1.5,3.5,2.625,0.445819145950824,-0.0312498597596111,0.879228986237567,0.00438142999736737,-0.124239,-30.018494
11.185,2.0,1.0,1.0,34.0,33.0,33.0,1.5,3.5,2.6275,0.43668032069744683,-0.031795393408350976,0.8835677941347647,0.004108973757757073,-0.126101,-29.880784
11.185,2.0,1.0,1.0,34.0,33.0,33.0,1.5,3.5,2.63,0.42742619301003537,-0.03234926994720493,0.8878416381958378,0.0038240306416526962,-0.128005,-29.742443
11.185,2.0,1.0,1.0,34.0,33.0,33.0,1.5,3.5,2.6325,0.41805565346417306,-0.032911556860684046,0.8920482395593053,0.003526142105342942,-0.129952,-29.603463
11.185,2.0,1.0,1.0,34.0,33.0,33.0,1.5,3.5,2.635,0.40856759753006305,-0.03348231720972062,0.896185248828107,0.0032148327819947107,-0.131945,-29.463836
11.185,2.0,1.0,1.0,34.0,33.0,33.0,1.5,3.5,2.6375,0.39896092691556717,-0.03406160917532657,0.9002502439725131,0.002889609867002649,-0.133983,-29.323553
11.185,2.0,1.0,1.0,34.0,33.0,33.0,1.5,3.5,2.64,0.38923455099922544,-0.03464948556979681,0.9042407281802446,0.0025499624826798364,-0.136068,-29.182607
11.185,2.0,1.0,1.0,34.0,33.0,33.0,1.5,3.5,2.6425,0.3793873883582995,-0.03524599331333833,0.908154127653358,0.002195361021826627,-0.138202,-29.040988
11.185,2.0,1.0,1.0,34.0,33.0,33.0,1.5,3.5,2.645,0.3694183683971051,-0.03585117287387603,0.9119877893515644,0.0018252564697312603,-0.140387,-28.89869
11.185,2.0,1.0,1.0,34.0,33.0,33.0,1.5,3.5,2.6475,0.3593264330811968,-0.036465057667640285,0.9157389786817393,0.001439079704175055,-0.142622,-28.755703
11.185,2.0,1.0,1.0,34.0,33.0,33.0,1.5,3.5,2.65,0.3491105387832145,-0.0370876734179944,0.9194048771334982,0.0010362407730410644,-0.144911,-28.612019
11.185,2.0,1.0,1.0,34.0,33.0,33.0,1.5,3.5,2.6525,0.33876965824655836,-0.03771903746979507,0.9229825798608373,0.0006161281491554204,-0.147255,-28.467629
11.185,2.0,1.0,1.0,34.0,33.0,33.0,1.5,3.5,2.655,0.32830278267329843,-0.03835915805641466,0.9264690932099838,0.00017810796202354562,-0.149655,-28.322525
11.185,2.0,1.0,1.0,34.0,33.0,33.0,1.5,3.5,2.6575,0.31770892394309586,-0.03900803351636878,0.9298613321937513,-0.00027847679383231655,-0.152113,-28.176698
11.185,2.0,1.0,1.0,34.0,33.0,33.0,1.5,3.5,2.66,0.30698711697023473,-0.03966565145630448,0.9331561179128723,-0.0007543070741816377,-0.15463,-28.030138
11.185,2.0,1.0,1.0,34.0,33.0,33.0,1.5,3.5,2.6625,0.2961364222062284,-0.04033198785690007,0.9363501749249651,-0.0012500886242308635,-0.15721,-27.882837
11.185,2.0,1.0,1.0,34.0,33.0,33.0,1.5,3.5,2.665,0.28515592829579667,-0.04100700611801276,0.9394401285620146,-0.0017665528417329167,-0.159853,-27.734786
11.185,2.0,1.0,1.0,34.0,33.0,33.0,1.5,3.5,2.6675,0.27404475489445873,-0.04169065603918207,0.9424225021974584,-0.0023044576641137733,-0.162562,-27.585976
11.185,2.0,1.0,1.0,34.0,33.0,33.0,1.5,3.5,2.67,0.2628020556563151,-0.042382872731354604,0.9452937144642444,-0.002864588479587446,-0.165338,-27.436398
11.185,2.0,1.0,1.0,34.0,33.0,33.0,1.5,3.5,2.6725,0.251427021401064,-0.04308357545544076,0.9480500764254901,-0.003447759062135177,-0.168184,-27.286042
11.185,2.0,1.0,1.0,34.0,33.0,33.0,1.5,3.5,2.675,0.23991888346970902,-0.04379266638303974,0.9506877886996852,-0.0040548125301168155,-0.171102,-27.134898
11.185,2.0,1.0,1.0,34.0,33.0,33.0,1.5,3.5,2.6775,0.22827691727887356,-0.04451002927438378,0.9532029385427089,-0.004686622328163214,-0.174094,-26.982958
11.185,2.0,1.0,1.0,34.0,33.0,33.0,1.5,3.5,2.68,0.21650044608409505,-0.04523552806824665,0.9555914968893062,-0.005344093231862352,-0.177163,-26.830212
11.185,2.0,1.0,1.0,34.0,33.0,33.0,1.5,3.5,2.6825,0.2045888449630007,-0.045969005378237254,0.9578493153570536,-0.0060281623745976065,-0.180311,-26.676649
11.185,2.0,1.0,1.0,34.0,33.0,33.0,1.5,3.5,2.685,0.1925415450297154,-0.046710280889560314,0.9599721232162888,-0.006739800295729635,-0.183541,-26.522261
11.185,2.0,1.0,1.0,34.0,33.0,33.0,1.5,3.5,2.6875,0.18035803789243182,-0.04745914964996155,0.9619555243299465,-0.007480012009118645,-0.186855,-26.367037
11.185,2.0,1.0,1.0,34.0,33.0,33.0,1.5,3.5,2.69,0.16803788036661058,-0.0482153802481924,0.9637949940677577,-0.00824983809077336,-0.190257,-26.210967
11.185,2.0,1.0,1.0,34.0,33.0,33.0,1.5,3.5,2.6925,0.15558069945679798,-0.04897871287292797,0.9654858761998341,-0.009050355784175386,-0.193748,-26.054042
11.185,2.0,1.0,1.0,34.0,33.0,33.0,1.5,3.5,2.695,0.1429861976207348,-0.04974885724463632,0.9670233797752499,-0.009882680121561866,-0.197333,-25.89625
11.185,2.0,1.0,1.0,34.0,33.0,33.0,1.5,3.5,2.6975,0.13025415832991036,-0.05052549041245446,0.9684025759919237,-0.010747965059158877,-0.201014,-25.737582
11.185,2.0,1.0,1.0,34.0,33.0,33.0,1.5,3.5,2.7,0.11738445194146965,-0.05130825440763925,0.9696183950647851,-0.011647404624029613,-0.204794,-25.578027
11.185,2.0,1.0,1.0,34.0,33.0,33.0,1.5,3.5,2.7025,0.1043770418969241,-0.052096753744663125,0.9706656231000079,-0.012582234069841297,-0.208678,-25.417574
11.185,2.0,1.0,1.0,34.0,33.0,33.0,1.5,3.5,2.705,0.09123199126386673,-0.05289055276048644,0.9715388989839285,-0.01355373103845502,-0.212668,-25.256214
11.185,2.0,1.0,1.0,34.0,33.0,33.0,1.5,3.5,2.7075,0.0779494696375202,-0.05368917278198039,0.9722327112961703,-0.014563216723798726,-0.216768,-25.093934
11.185,2.0,1.0,1.0,34.0,33.0,33.0,1.5,3.5,2.71,0.06452976041970007,-0.054492089110875296,0.9727413952574876,-0.015612057033994596,-0.220982,-24.930725
11.185,2.0,1.0,1.0,34.0,33.0,33.0,1.5,3.5,2.7125,0.05097326849346218,-0.05529872781498885,0.9730591297239076,-0.016701663747170643,-0.225314,-24.766575
11.185,2.0,1.0,1.0,34.0,33.0,33.0,1.5,3.5,2.715,0.03728052831248904,-0.05610846231382542,0.9731799342398891,-0.017833495655788723,-0.229768,-24.601472
11.185,2.0,1.0,1.0,34.0,33.0,33.0,1.5,3.5,2.7175,0.02345221242499752,-0.056920609745944324,0.9730976661644817,-0.019009059693660305,-0.23435,-24.435407
11.185,2.0,1.0,1.0,34.0,33.0,33.0,1.5,3.5,2.72,0.009489140452776284,-0.057734427104762426,0.9728060178857874,-0.02022991203909498,-0.239062,-24.268366
11.185,2.0,1.0,1.0,34.0,33.0,33.0,1.5,3.5,2.7225,-0.004607711453309193,-0.05854910712869037,0.9722985141404986,-0.021497659186824416,-0.24391,-24.10034
11.185,2.0,1.0,1.0,34.0,33.0,33.0,1.5,3.5,2.725,-0.018837200659085573,-0.05936377393068615,0.9715685094568399,-0.02281395898045647,-0.248899,-23.931315
11.185,2.0,1.0,1.0,34.0,33.0,33.0,1.5,3.5,2.7275,-0.033198007571166935,-0.060177478351467764,0.9706091857409361,-0.02418052159624708,-0.254034,-23.76128
11.185,2.0,1.0,1.0,34.0,33.0,33.0,1.5,3.5,2.73,-0.04768862461544508,-0.06098919301972635,0.969413550028448,-0.0255991104678954,-0.259321,-23.590223
11.185,2.0,1.0,1.0,34.0,33.0,33.0,1.5,3.5,2.7325,-0.062307344645315114,-0.061797807101751284,0.9679744324252826,-0.027071543140894796,-0.264765,-23.418133
11.185,2.0,1.0,1.0,34.0,33.0,33.0,1.5,3.5,2.735,-0.07705224875402387,-0.06260212072189181,0.9662844842633177,-0.028599692043664766,-0.270372,-23.244996
11.185,2.0,1.0,1.0,34.0,33.0,33.0,1.5,3.5,2.7375,-0.09192119346473636,-0.06340083903425614,0.9643361764993341,-0.0301854851612632,-0.276149,-23.0708
11.185,2.0,1.0,1.0,34.0,33.0,33.0,1.5,3.5,2.74,-0.10691179727098102,-0.06419256592497032,0.9621217983878496,-0.03183090659589712,-0.282101,-22.895533
11.185,2.0,1.0,1.0,34.0,33.0,33.0,1.5,3.5,2.7425,-0.12202142649933065,-0.06497579732319807,0.9596334564611845,-0.03353799699672317,-0.288236,-22.719181
11.185,2.0,1.0,1.0,34.0,33.0,33.0,1.5,3.5,2.745,-0.13724718046525708,-0.06574891409794759,0.9568630738529458,-0.03530885383951646,-0.294561,-22.541733
11.185,2.0,1.0,1.0,34.0,33.0,33.0,1.5,3.5,2.7475,-0.15258587589226408,-0.06651017451647061,0.9538023900042303,-0.03714563153468878,-0.301084,-22.363174
11.185,2.0,1.0,1.0,34.0,33.0,33.0,1.5,3.5,2.75,-0.168034030563556,-0.0672577062387861,0.950442960795152,-0.0390505413398299,-0.307811,-22.183492
11.185,2.0,1.0,1.0,34.0,33.0,33.0,1.5,3.5,2.7525,-0.1835878461746564,-0.06798949782153932,0.9467761591479016,-0.041025851050398625,-0.314752,-22.002672
11.185,2.0,1.0,1.0,34.0,33.0,33.0,1.5,3.5,2.755,-0.19924319035457552,-0.06870338970303674,0.9427931761514332,-0.043073884439393126,-0.321915,-21.820702
11.185,2.0,1.0,1.0,34.0,33.0,33.0,1.5,3.5,2.7575,-0.21499557782239334,-0.06939706463988092,0.9384850227620325,-0.04519702041375338,-0.329309,-21.637567
11.185,2.0,1.0,1.0,34.0,33.0,33.0,1.5,3.5,2.76,-0.23084015064528174,-0.07006803756416395,0.933842532138573,-0.047397691851842415,-0.336944,-21.453254
11.185,2.0,1.0,1.0,34.0,33.0,33.0,1.5,3.5,2.7625,-0.2467716575634,-0.07071364482867665,0.9288563626761176,-0.04967838408262622,-0.34483,-21.267747
11.185,2.0,1.0,1.0,34.0,33.0,33.0,1.5,3.5,2.765,-0.2627844323463406,-0.07133103280604511,0.9235170018068387,-0.05204163296303999,-0.352977,-21.081032
11.185,2.0,1.0,1.0,34.0,33.0,33.0,1.5,3.5,2.7675,-0.2788723711452777,-0.07191714580613115,0.9178147706429202,-0.054490022505486985,-0.361396,-20.893095
11.185,2.0,1.0,1.0,34.0,33.0,33.0,1.5,3.5,2.77,-0.2950289088044411,-0.07246871327443548,0.911739829542308,-0.05702618200240259,-0.370099,-20.703921
11.185,2.0,1.0,1.0,34.0,33.0,33.0,1.5,3.5,2.7725,-0.3112469940950855,-0.0729822362326214,0.9052821846848926,-0.059652782589277524,-0.379099,-20.513493
11.185,2.0,1.0,1.0,34.0,33.0,33.0,1.5,3.5,2.775,-0.3275190638348177,-0.07345397292065968,0.8984316957539812,-0.06237253318142258,-0.388409,-20.321798
11.185,2.0,1.0,1.0,34.0,33.0,33.0,1.5,3.5,2.7775,-0.3438370158549487,-0.07387992359848296,0.8911780848258565,-0.06518817571299958,-0.398041,-20.128818
11.185,2.0,1.0,1.0,34.0,33.0,33.0,1.5,3.5,2.78,-0.3601921807784576,-0.07425581446345733,0.8835109465788027,-0.06810247959937407,-0.408011,-19.934538
11.185,2.0,1.0,1.0,34.0,33.0,33.0,1.5,3.5,2.7825,-0.3765752925712378,-0.07457708063844784,0.8754197599424135,-0.07111823533556794,-0.418335,-19.738941
11.185,2.0,1.0,1.0,34.0,33.0,33.0,1.5,3.5,2.785,-0.3929764578296928,-0.07483884818380684,0.8668939013181862,-0.07423824713444493,-0.429027,-19.542011
11.185,2.0,1.0,1.0,34.0,33.0,33.0,1.5,3.5,2.7875,-0.409385123768146,-0.0750359150852775,0.8579226595136666,-0.07746532449809564,-0.440106,-19.34373
11.185,2.0,1.0,1.0,34.0,33.0,33.0,1.5,3.5,2.79,-0.4257900448704839,-0.0751627311686301,0.8484952525445963,-0.08080227260464165,-0.451589,-19.144082
11.185,2.0,1.0,1.0,34.0,33.0,33.0,1.5,3.5,2.7925,-0.44217924817147847,-0.07521337689088264,0.8386008464730663,-0.08425188138016308,-0.463496,-18.943048
11.185,2.0,1.0,1.0,34.0,33.0,33.0,1.5,3.5,2.795,-0.45853999713486815,-0.07518154095727016,0.8282285764643261,-0.08781691311157744,-0.475846,-18.740611
11.185,2.0,1.0,1.0,34.0,33.0,33.0,1.5,3.5,2.7975,-0.474858754097151,-0.07506049671279172,0.8173675702613359,-0.09150008844082691,-0.488663,-18.536752
11.185,2.0,1.0,1.0,34.0,33.0,33.0,1.5,3.5,2.8,-0.49112114124874295,-0.07484307725728971,0.8060069742939511,-0.0953040705635561,-0.501968,-18.331452
11.185,2.0,1.0,1.0,34.0,33.0,33.0,1.5,3.5,2.8025,-0.5073119001272482,-0.07452164923370659,0.7941359826596026,-0.09923144743628909,-0.515786,-18.124692
11.185,2.0,1.0,1.0,34.0,33.0,33.0,1.5,3.5,2.805,-0.5234148496016804,-0.0740880852405821,0.7817438692342941,-0.10328471177475403,-0.530142,-17.916453
11.185,2.0,1.0,1.0,34.0,33.0,33.0,1.5,3.5,2.8075,-0.5394128423314591,-0.07353373482216449,0.7688200231971627,-0.10746623860217172,-0.545066,-17.706714
11.185,2.0,1.0,1.0,34.0,33.0,33.0,1.5,3.5,2.81,-0.5552877196902197,-0.07284939399294046,0.7553539882790657,-0.11177826007970595,-0.560585,-17.495455
11.185,2.0,1.0,1.0,34.0,33.0,33.0,1.5,3.5,2.8125,-0.571020265152034,-0.072025273258202,0.741335506075977,-0.116222837321516,-0.576732,-17.282655
11.185,2.0,1.0,1.0,34.0,33.0,33.0,1.5,3.5,2.815,-0.5865901561471402,-0.07105096409878918,0.7267545638018287,-0.12080182886360759,-0.593539,-17.068293
11.185,2.0,1.0,1.0,34.0,33.0,33.0,1.5,3.5,2.8175,-0.6019759144057337,-0.06991540389677868,0.7116014468934271,-0.1255168554184549,-0.611044,-16.852347
11.185,2.0,1.0,1.0,34.0,33.0,33.0,1.5,3.5,2.82,-0.6171548548226777,-0.06860683929010579,0.6958667969226014,-0.13036926050572709,-0.629283,-16.634794
11.185,2.0,1.0,1.0,34.0,33.0,33.0,1.5,3.5,2.8225,-0.632103032893446,-0.06711278795851176,0.679541675318622,-0.1353600665028316,-0.648299,-16.415612
11.185,2.0,1.0,1.0,34.0,33.0,33.0,1.5,3.5,2.825,-0.6467951907932316,-0.06541999886151167,0.6626176334577875,-0.1404899256067894,-0.668134,-16.194777
11.185,2.0,1.0,1.0,34.0,33.0,33.0,1.5,3.5,2.8275,-0.6612047021978238,-0.06351441097216112,0.6450867897378015,-0.1457590651405434,-0.688837,-15.972266
