1,w,sub_t,h,l1,l2,l3,g1,g2,Freq,S11_re,S21_re,S11_img,S21_img,S11_dB,S21_dB
11.185,2.0,1.0,1.0,34.1,34.1,34.1,2.0,2.3,2.5,0.76002091520957,-0.0177044743452948,0.636446185318326,0.0124704191861949,-0.07581,-33.288644
11.185,2.0,1.0,1.0,34.1,34.1,34.1,2.0,2.3,2.5025,0.7550239301693346,-0.01807063819518515,0.6422031997982987,0.012506192718733856,-0.076736,-33.160953
11.185,2.0,1.0,1.0,34.1,34.1,34.1,2.0,2.3,2.505,0.7499548681083827,-0.01844425076488578,0.6479506539278532,0.01253951721050871,-0.077681,-33.032681
11.185,2.0,1.0,1.0,34.1,34.1,34.1,2.0,2.3,2.5075,0.744812893139783,-0.01882548479629295,0.6536879802654737,0.012570270978154973,-0.078645,-32.903819
11.185,2.0,1.0,1.0,34.1,34.1,34.1,2.0,2.3,2.51,0.7395971554432577,-0.019214517867256656,0.6594145928948447,0.012598327017869695,-0.07963,-32.774356
11.185,2.0,1.0,1.0,34.1,34.1,34.1,2.0,2.3,2.5125,0.7343067910263354,-0.019611532549421266,0.6651298867720615,0.01262355275093966,-0.080636,-32.64428
11.185,2.0,1.0,1.0,34.1,34.1,34.1,2.0,2.3,2.515,0.7289409214819901,-0.02001671657174713,0.6708332370472442,0.012645809755644383,-0.081663,-32.513582
11.185,2.0,1.0,1.0,34.1,34.1,34.1,2.0,2.3,2.5175,0.7234986537427861,-0.020430262989922537,0.676523998359363,0.012664953484715675,-0.082712,-32.382249
11.185,2.0,1.0,1.0,34.1,34.1,34.1,2.0,2.3,2.52,0.7179790798315239,-0.020852370361886467,0.6822015041030586,0.012680832967483182,-0.083784,-32.250272
11.185,2.0,1.0,1.0,34.1,34.1,34.1,2.0,2.3,2.5225,0.7123812766084159,-0.021283242929683484,0.687865065666104,0.012693290495774012,-0.08488,-32.117637
11.185,2.0,1.0,1.0,34.1,34.1,34.1,2.0,2.3,2.525,0.7067043055148043,-0.021723090807885592,0.6935139716361617,0.012702161292572685,-0.086,-31.984333
11.185,2.0,1.0,1.0,34.1,34.1,34.1,2.0,2.3,2.5275,0.7009472123134508,-0.022172130178817084,0.699147486975345,0.012707273162379339,-0.087145,-31.850348
11.185,2.0,1.0,1.0,34.1,34.1,34.1,2.0,2.3,2.53,0.6951090268254422,-0.02263058349482881,0.7047648521610368,0.012708446122130436,-0.088315,-31.71567
11.185,2.0,1.0,1.0,34.1,34.1,34.1,2.0,2.3,2.5325,0.6891887626637577,-0.023098679687871212,0.7103652822913296,0.012705492011467485,-0.089512,-31.580286
11.185,2.0,1.0,1.0,34.1,34.1,34.1,2.0,2.3,2.535,0.6831854169635501,-0.023576654386626573,0.7159479661533424,0.012698214081054813,-0.090737,-31.444183
11.185,2.0,1.0,1.0,34.1,34.1,34.1,2.0,2.3,2.5375,0.677097970109221,-0.02406475014146008,0.7215120652525738,0.012686406557554812,-0.09199,-31.307348
11.185,2.0,1.0,1.0,34.1,34.1,34.1,2.0,2.3,2.54,0.6709253854583672,-0.02456321665746179,0.7270567128013358,0.012669854183771243,-0.093272,-31.169767
11.185,2.0,1.0,1.0,34.1,34.1,34.1,2.0,2.3,2.5425,0.6646666090626927,-0.025072311035850718,0.732581012664199,0.012648331732363762,-0.094584,-31.031426
11.185,2.0,1.0,1.0,34.1,34.1,34.1,2.0,2.3,2.545,0.658320569386006,-0.025592298024019914,0.7380840382582453,0.012621603491422396,-0.095928,-30.892312
11.185,2.0,1.0,1.0,34.1,34.1,34.1,2.0,2.3,2.5475,0.6518861770194363,-0.026123450274502167,0.7435648314057836,0.012589422720065826,-0.097303,-30.752411
11.185,2.0,1.0,1.0,34.1,34.1,34.1,2.0,2.3,2.55,0.6453623243940035,-0.026666048613141504,0.7490224011370564,0.012551531072093152,-0.098712,-30.611706
11.185,2.0,1.0,1.0,34.1,34.1,34.1,2.0,2.3,2.5525,0.638747885490747,-0.027220382316751956,0.7544557224402698,0.012507657985573462,-0.100155,-30.470184
11.185,2.0,1.0,1.0,34.1,34.1,34.1,2.0,2.3,2.555,0.6320417155485805,-0.027786749400549413,0.7598637349561475,0.01245752003610025,-0.101634,-30.327829
11.185,2.0,1.0,1.0,34.1,34.1,34.1,2.0,2.3,2.5575,0.6252426507701184,-0.02836545691563777,0.7652453416140031,0.012400820251267031,-0.103149,-30.184625
11.185,2.0,1.0,1.0,34.1,34.1,34.1,2.0,2.3,2.56,0.6183495080257276,-0.02895682125682549,0.7705994072061189,0.012337247383736646,-0.104703,-30.040556
11.185,2.0,1.0,1.0,34.1,34.1,34.1,2.0,2.3,2.5625,0.6113610845561018,-0.02956116848104412,0.7759247568970282,0.01226647514007633,-0.106296,-29.895605
11.185,2.0,1.0,1.0,34.1,34.1,34.1,2.0,2.3,2.565,0.604276157673678,-0.030178834636630174,0.7812201746640494,0.01218816136231314,-0.107929,-29.749756
11.185,2.0,1.0,1.0,34.1,34.1,34.1,2.0,2.3,2.5675,0.5970934844632945,-0.030810166103716938,0.7864844016651636,0.012101947158930183,-0.109605,-29.60299
11.185,2.0,1.0,1.0,34.1,34.1,34.1,2.0,2.3,2.57,0.5898118014824949,-0.03145551994596961,0.7917161345300838,0.012007455981766729,-0.111324,-29.455292
11.185,2.0,1.0,1.0,34.1,34.1,34.1,2.0,2.3,2.5725,0.5824298244619713,-0.03211526427387216,0.7969140235700332,0.011904292645008427,-0.113089,-29.306641
11.185,2.0,1.0,1.0,34.1,34.1,34.1,2.0,2.3,2.575,0.5749462480066855,-0.032789778619751055,0.8020766709014692,0.011792042282151284,-0.1149,-29.15702
11.185,2.0,1.0,1.0,34.1,34.1,34.1,2.0,2.3,2.5775,0.5673597452982857,-0.03347945432468571,0.8072026284786091,0.011670269236493686,-0.11676,-29.006409
11.185,2.0,1.0,1.0,34.1,34.1,34.1,2.0,2.3,2.58,0.5596689677995144,-0.03418469493741643,0.8122903960292687,0.011538515880353283,-0.118671,-28.854788
11.185,2.0,1.0,1.0,34.1,34.1,34.1,2.0,2.3,2.5825,0.5518725449613796,-0.03490591662531495,0.8173384188881003,0.011396301357814888,-0.120633,-28.702139
11.185,2.0,1.0,1.0,34.1,34.1,34.1,2.0,2.3,2.585,0.5439690839339822,-0.03564354859742082,0.8223450857208823,0.011243120245390148,-0.12265,-28.548439
11.185,2.0,1.0,1.0,34.1,34.1,34.1,2.0,2.3,2.5875,0.5359571692819901,-0.03639803353948219,0.8273087261330293,0.011078441124505284,-0.124723,-28.393668
11.185,2.0,1.0,1.0,34.1,34.1,34.1,2.0,2.3,2.59,0.5278353627058875,-0.03716982806085679,0.8322276081549651,0.01090170505922705,-0.126855,-28.237804
11.185,2.0,1.0,1.0,34.1,34.1,34.1,2.0,2.3,2.5925,0.5196022027702615,-0.03795940315303216,0.8370999355964424,0.010712323972082025,-0.129048,-28.080825
11.185,2.0,1.0,1.0,34.1,34.1,34.1,2.0,2.3,2.595,0.5112562046405766,-0.03876724465941218,0.8419238452612455,0.010509678910220692,-0.131304,-27.922707
11.185,2.0,1.0,1.0,34.1,34.1,34.1,2.0,2.3,2.5975,0.5027958598300379,-0.0395938537558847,0.8466974040130664,0.010293118193513246,-0.133625,-27.763427
11.185,2.0,1.0,1.0,34.1,34.1,34.1,2.0,2.3,2.6,0.4942196359583854,-0.04043974744152816,0.8514186056825704,0.010061955435440592,-0.136015,-27.602962
11.185,2.0,1.0,1.0,34.1,34.1,34.1,2.0,2.3,2.6025,0.48552597652470125,-0.04130545903863436,0.8560853678048732,0.009815467426848785,-0.138476,-27.441285
11.185,2.0,1.0,1.0,34.1,34.1,34.1,2.0,2.3,2.605,0.4767133006965548,-0.04219153870101308,0.8606955281757664,0.009552891871763051,-0.141012,-27.278372
11.185,2.0,1.0,1.0,34.1,34.1,34.1,2.0,2.3,2.6075,0.46778000311816204,-0.043098553929296415,0.8652468412140291,0.009273424963503717,-0.143624,-27.114195
11.185,2.0,1.0,1.0,34.1,34.1,34.1,2.0,2.3,2.61,0.458724453740566,-0.04402709009167241,0.8697369741161379,0.008976218788294205,-0.146317,-26.948729
11.185,2.0,1.0,1.0,34.1,34.1,34.1,2.0,2.3,2.6125,0.44954499767725026,-0.04497775094814628,0.8741635027884646,0.008660378542400498,-0.149094,-26.781945
11.185,2.0,1.0,1.0,34.1,34.1,34.1,2.0,2.3,2.615,0.4402399550890621,-0.04595115917603524,0.8785239075408248,0.008324959547570532,-0.151958,-26.613814
11.185,2.0,1.0,1.0,34.1,34.1,34.1,2.0,2.3,2.6175,0.43080762110286125,-0.04694795689395535,0.8828155685237657,0.00796896404815009,-0.154913,-26.444307
11.185,2.0,1.0,1.0,34.1,34.1,34.1,2.0,2.3,2.62,0.4212462657688922,-0.04796880618103128,0.8870357608904783,0.007591337771710577,-0.157965,-26.273393
11.185,2.0,1.0,1.0,34.1,34.1,34.1,2.0,2.3,2.6225,0.41155413406257213,-0.04901438958745717,0.8911816496624718,0.007190966233334515,-0.161115,-26.101041
11.185,2.0,1.0,1.0,34.1,34.1,34.1,2.0,2.3,2.625,0.401729445937212,-0.0500854106318256,0.895250284276288,0.00676667076183496,-0.16437,-25.927219
11.185,2.0,1.0,1.0,34.1,34.1,34.1,2.0,2.3,2.6275,0.3917703964350285,-0.05118259427982988,0.89923859278643,0.006317204224123277,-0.167734,-25.751894
11.185,2.0,1.0,1.0,34.1,34.1,34.1,2.0,2.3,2.63,0.3816751558649218,-0.05230668739799125,0.9031433756974112,0.005841246421665167,-0.171212,-25.57503
11.185,2.0,1.0,1.0,34.1,34.1,34.1,2.0,2.3,2.6325,0.37144187005663426,-0.05345845917496289,0.9069612993952675,0.0053373991304469645,-0.17481,-25.396593
11.185,2.0,1.0,1.0,34.1,34.1,34.1,2.0,2.3,2.635,0.3610686607023234,-0.054638701501684685,0.9106888891461021,0.004804180753093295,-0.178533,-25.216546
11.185,2.0,1.0,1.0,34.1,34.1,34.1,2.0,2.3,2.6375,0.35055362579815613,-0.0558482293001762,0.9143225216260978,0.004240020548696424,-0.182387,-25.034851
11.185,2.0,1.0,1.0,34.1,34.1,34.1,2.0,2.3,2.64,0.339894840200351,-0.05708788078903678,0.9178584169440509,0.0036432524025070143,-0.186379,-24.85147
11.185,2.0,1.0,1.0,34.1,34.1,34.1,2.0,2.3,2.6425,0.32909035631224187,-0.05835851767171034,0.9212926301136297,0.003012108093857449,-0.190515,-24.666361
11.185,2.0,1.0,1.0,34.1,34.1,34.1,2.0,2.3,2.645,0.31813820492136846,-0.05966102523125108,0.9246210419283721,0.0023447100164957577,-0.194803,-24.479483
11.185,2.0,1.0,1.0,34.1,34.1,34.1,2.0,2.3,2.6475,0.30703639620843204,-0.06099631231261006,0.9278393491877666,0.0016390633008587783,-0.199251,-24.290794
11.185,2.0,1.0,1.0,34.1,34.1,34.1,2.0,2.3,2.65,0.29578292095321373,-0.062365311170314776,0.9309430542175587,0.0008930472826474346,-0.203868,-24.100248
11.185,2.0,1.0,1.0,34.1,34.1,34.1,2.0,2.3,2.6525,0.28437575196643305,-0.06376897715573009,0.9339274536216702,0.0001044062563348121,-0.208661,-23.907799
11.185,2.0,1.0,1.0,34.1,34.1,34.1,2.0,2.3,2.655,0.2728128457808445,-0.06520828821381237,0.9367876261967202,-0.0007292605541427274,-0.21364,-23.713401
11.185,2.0,1.0,1.0,34.1,34.1,34.1,2.0,2.3,2.6575,0.2610921446400958,-0.06668424415426231,0.939518419932997,-0.0016105098823450729,-0.218816,-23.517003
11.185,2.0,1.0,1.0,34.1,34.1,34.1,2.0,2.3,2.66,0.24921157882980427,-0.06819786565614462,0.9421144380178417,-0.0025420662466592026,-0.2242,-23.318554
11.185,2.0,1.0,1.0,34.1,34.1,34.1,2.0,2.3,2.6625,0.23716906940234644,-0.06975019295821237,0.9445700237485452,-0.003526834809494326,-0.229802,-23.118002
11.185,2.0,1.0,1.0,34.1,34.1,34.1,2.0,2.3,2.665,0.22496253135490962,-0.07134228417918935,0.946879244252124,-0.004567915369600139,-0.235636,-22.915292
11.185,2.0,1.0,1.0,34.1,34.1,34.1,2.0,2.3,2.6675,0.21258987732998572,-0.07297521320289375,0.9490358728983342,-0.005668617599631853,-0.241715,-22.710366
11.185,2.0,1.0,1.0,34.1,34.1,34.1,2.0,2.3,2.67,0.2000490219185413,-0.07465006705212222,0.9510333702802015,-0.006832477653186678,-0.248054,-22.503166
11.185,2.0,1.0,1.0,34.1,34.1,34.1,2.0,2.3,2.6725,0.1873378866592063,-0.07636794266231449,0.9528648636227763,-0.008063276278998843,-0.254667,-22.29363
11.185,2.0,1.0,1.0,34.1,34.1,34.1,2.0,2.3,2.675,0.17445440584213567,-0.0781299429508787,0.9545231244657739,-0.009365058594959752,-0.261572,-22.081696
11.185,2.0,1.0,1.0,34.1,34.1,34.1,2.0,2.3,2.6775,0.16139653324419367,-0.07993717206022523,0.9560005444490234,-0.010742155691291378,-0.268787,-21.867296
11.185,2.0,1.0,1.0,34.1,34.1,34.1,2.0,2.3,2.68,0.14816224994334118,-0.08179072963155522,0.957289109011001,-0.012199208250715165,-0.276331,-21.650363
11.185,2.0,1.0,1.0,34.1,34.1,34.1,2.0,2.3,2.6825,0.13474957338502042,-0.08369170394166223,0.9583803687900794,-0.013741192394009522,-0.284225,-21.430826
11.185,2.0,1.0,1.0,34.1,34.1,34.1,2.0,2.3,2.685,0.12115656790287245,-0.0856411637057337,0.9592654084951703,-0.015373447982142604,-0.292492,-21.20861
11.185,2.0,1.0,1.0,34.1,34.1,34.1,2.0,2.3,2.6875,0.1073813569308909,-0.08764014831450033,0.9599348129870486,-0.0171017096313817,-0.301157,-20.983639
11.185,2.0,1.0,1.0,34.1,34.1,34.1,2.0,2.3,2.69,0.09342213718542097,-0.0896896562330595,0.9603786302836059,-0.018932140725631617,-0.310248,-20.755832
11.185,2.0,1.0,1.0,34.1,34.1,34.1,2.0,2.3,2.6925,0.07927719514417388,-0.09179063124004087,0.9605863311713487,-0.02087137074091855,-0.319792,-20.525107
11.185,2.0,1.0,1.0,34.1,34.1,34.1,2.0,2.3,2.695,0.0649449262076021,-0.09394394612797137,0.9605467650715709,-0.022926536230557962,-0.329821,-20.291377
11.185,2.0,1.0,1.0,34.1,34.1,34.1,2.0,2.3,2.6975,0.050423856996745536,-0.09615038341695982,0.9602481117725479,-0.025105325856273713,-0.340372,-20.054553
11.185,2.0,1.0,1.0,34.1,34.1,34.1,2.0,2.3,2.7,0.035712671323965606,-0.09841061255191505,0.9596778285988621,-0.027416029890352696,-0.351481,-19.81454
11.185,2.0,1.0,1.0,34.1,34.1,34.1,2.0,2.3,2.7025,0.020810240470796763,-0.10072516295583898,0.9588225925455698,-0.029867594656809292,-0.36319,-19.571241
11.185,2.0,1.0,1.0,34.1,34.1,34.1,2.0,2.3,2.705,0.005715658524025898,-0.10309439219505921,0.9576682368587051,-0.03246968242519215,-0.375544,-19.324555
11.185,2.0,1.0,1.0,34.1,34.1,34.1,2.0,2.3,2.7075,-0.00957171633902768,-0.10551844837272384,0.9561996814948708,-0.03523273731864203,-0.388593,-19.074376
11.185,2.0,1.0,1.0,34.1,34.1,34.1,2.0,2.3,2.71,-0.02505221355770512,-0.1079972256997582,0.9544008568424112,-0.03816805784722072,-0.402392,-18.820595
11.185,2.0,1.0,1.0,34.1,34.1,34.1,2.0,2.3,2.7125,-0.040725793628754156,-0.1105303119920897,0.952254620036062,-0.04128787672706221,-0.417002,-18.563096
11.185,2.0,1.0,1.0,34.1,34.1,34.1,2.0,2.3,2.715,-0.05659198178075226,-0.11311692660237442,0.9497426631481072,-0.04460544869347732,-0.432488,-18.301762
11.185,2.0,1.0,1.0,34.1,34.1,34.1,2.0,2.3,2.7175,-0.07264979009295146,-0.11575584700533016,0.9468454124948792,-0.048135147058790406,-0.448925,-18.036467
11.185,2.0,1.0,1.0,34.1,34.1,34.1,2.0,2.3,2.72,-0.08889762592101871,-0.11844532190797487,0.9435419182621426,-0.05189256979903723,-0.466395,-17.767083
11.185,2.0,1.0,1.0,34.1,34.1,34.1,2.0,2.3,2.7225,-0.10533318407319771,-0.12118296833736143,0.9398097336326775,-0.05589465597155978,-0.484986,-17.493477
11.185,2.0,1.0,1.0,34.1,34.1,34.1,2.0,2.3,2.725,-0.12195331967516655,-0.12396564965398525,0.9356247826027889,-0.0601598132592562,-0.5048,-17.215508
11.185,2.0,1.0,1.0,34.1,34.1,34.1,2.0,2.3,2.7275,-0.13875389805369473,-0.12678933083127053,0.9309612157133923,-0.06470805739472953,-0.52595,-16.933034
11.185,2.0,1.0,1.0,34.1,34.1,34.1,2.0,2.3,2.73,-0.15572961723563022,-0.12964890660911532,0.925791253012665,-0.06956116412191705,-0.548559,-16.645904
11.185,2.0,1.0,1.0,34.1,34.1,34.1,2.0,2.3,2.7325,-0.1728737977754564,-0.13253799724729115,0.9200850137336792,-0.07474283418087248,-0.572769,-16.353963
11.185,2.0,1.0,1.0,34.1,34.1,34.1,2.0,2.3,2.735,-0.19017813356114796,-0.1354487055428042,0.9138103324438628,-0.08027887152125801,-0.598736,-16.057051
11.185,2.0,1.0,1.0,34.1,34.1,34.1,2.0,2.3,2.7375,-0.20763239597003,-0.13837132749967931,0.9069325618465438,-0.08619737451823846,-0.626637,-15.755004
11.185,2.0,1.0,1.0,34.1,34.1,34.1,2.0,2.3,2.74,-0.22522408221371798,-0.14129400751054916,0.8994143630476431,-0.09252893932125301,-0.656672,-15.447652
11.185,2.0,1.0,1.0,34.1,34.1,34.1,2.0,2.3,2.7425,-0.24293799687991255,-0.14420232708301056,0.8912154850229691,-0.09930687353063553,-0.689064,-15.134822
11.185,2.0,1.0,1.0,34.1,34.1,34.1,2.0,2.3,2.745,-0.2607557535008389,-0.14707881397289332,0.8822925363430134,-0.10656741705930797,-0.724071,-14.816336
11.185,2.0,1.0,1.0,34.1,34.1,34.1,2.0,2.3,2.7475,-0.27865518040531273,-0.14990235602417162,0.8725987540803561,-0.11434996514822462,-0.76198,-14.492016
11.185,2.0,1.0,1.0,34.1,34.1,34.1,2.0,2.3,2.75,-0.296609612100962,-0.152647501019502,0.862083777438906,-0.122697285864621,-0.803124,-14.16168
11.185,2.0,1.0,1.0,34.1,34.1,34.1,2.0,2.3,2.7525,-0.3145870439557831,-0.15528362038974408,0.8506934372720997,-0.13165572075285875,-0.847879,-13.82515
11.185,2.0,1.0,1.0,34.1,34.1,34.1,2.0,2.3,2.755,-0.33254912400688263,-0.15777391072052327,0.8383695776553814,-0.14127535227047608,-0.896678,-13.482247
11.185,2.0,1.0,1.0,34.1,34.1,34.1,2.0,2.3,2.7575,-0.3504499513779334,-0.16007420269256586,0.8250499325203688,-0.15161011475267475,-0.950019,-13.132799
11.185,2.0,1.0,1.0,34.1,34.1,34.1,2.0,2.3,2.76,-0.36823464619423346,-0.16213154256494544,0.8106680896646458,-0.1627178162847838,-1.008476,-12.776646
11.185,2.0,1.0,1.0,34.1,34.1,34.1,2.0,2.3,2.7625,-0.3858376513692436,-0.16388250688888892,0.7951535870271523,-0.1746600262195335,-1.072712,-12.413636
11.185,2.0,1.0,1.0,34.1,34.1,34.1,2.0,2.3,2.765,-0.4031807227883777,-0.16525120742621432,0.7784322029879868,-0.18750176613147604,-1.143497,-12.043641
11.185,2.0,1.0,1.0,34.1,34.1,34.1,2.0,2.3,2.7675,-0.4201705622425395,-0.1661469412653273,0.7604265248832218,-0.20131091948935567,-1.221728,-11.666559
11.185,2.0,1.0,1.0,34.1,34.1,34.1,2.0,2.3,2.77,-0.43669604861482175,-0.16646144255192064,0.7410569094340862,-0.2161572457439519,-1.308453,-11.282323
11.185,2.0,1.0,1.0,34.1,34.1,34.1,2.0,2.3,2.7725,-0.45262502991403913,-0.16606569972652951,0.7202429870728212,-0.23211084619669536,-1.404898,-10.890915
11.185,2.0,1.0,1.0,34.1,34.1,34.1,2.0,2.3,2.775,-0.4678006558072096,-0.16480631975520288,0.6979059108979095,-0.24923988027586214,-1.512506,-10.492378
11.185,2.0,1.0,1.0,34.1,34.1,34.1,2.0,2.3,2.7775,-0.48203726337038677,-0.16250145463964277,0.6739716114884853,-0.26760727048650035,-1.632977,-10.086836
11.185,2.0,1.0,1.0,34.1,34.1,34.1,2.0,2.3,2.78,-0.4951158866421026,-0.15893636433610803,0.6483753911119478,-0.2872660623635827,-1.768321,-9.674515
11.185,2.0,1.0,1.0,34.1,34.1,34.1,2.0,2.3,2.7825,-0.5067795555562195,-0.15385878646439927,0.6210682723583573,-0.3082530250278426,-1.920922,-9.255769
11.185,2.0,1.0,1.0,34.1,34.1,34.1,2.0,2.3,2.785,-0.5167286984335208,-0.14697443332205767,0.5920255991868328,-0.330579996428345,-2.09361,-8.831114
11.185,2.0,1.0,1.0,34.1,34.1,34.1,2.0,2.3,2.7875,-0.5246171849255681,-0.13794316112261065,0.5612584559860891,-0.35422241222772044,-2.289756,-8.401266
11.185,2.0,1.0,1.0,34.1,34.1,34.1,2.0,2.3,2.79,-0.5300498656917737,-0.12637667727889862,0.5288284909350318,-0.3791044406655019,-2.513373,-7.967189
11.185,2.0,1.0,1.0,34.1,34.1,34.1,2.0,2.3,2.7925,-0.5325829000198757,-0.11183908709806671,0.49486664965275057,-0.40508023229045,-2.769242,-7.530143
11.185,2.0,1.0,1.0,34.1,34.1,34.1,2.0,2.3,2.795,-0.5317287156712659,-0.09385213266573932,0.45959605900081196,-0.4319110685941603,-3.063047,-7.091746
11.185,2.0,1.0,1.0,34.1,34.1,34.1,2.0,2.3,2.7975,-0.5269680793422983,-0.07190760455253274,0.42335872803515,-0.4592387783056968,-3.401523,-6.654036
11.185,2.0,1.0,1.0,34.1,34.1,34.1,2.0,2.3,2.8,-0.517772356691553,-0.04548999324695959,0.3866447030978587,-0.48655683362843,-3.792579,-6.219531
11.185,2.0,1.0,1.0,34.1,34.1,34.1,2.0,2.3,2.8025,-0.503639364879272,-0.014112744665961918,0.3501206814229318,-0.5131821826295964,-4.245384,-5.791285
11.185,2.0,1.0,1.0,34.1,34.1,34.1,2.0,2.3,2.805,-0.484145847381812,0.022628931360551937,0.3146527974039812,-0.538233165040138,-4.770297,-5.372921
11.185,2.0,1.0,1.0,34.1,34.1,34.1,2.0,2.3,2.8075,-0.45901792702174116,0.06498748149858363,0.28131554137678083,-0.5606215893174235,-5.378478,-4.968634
11.185,2.0,1.0,1.0,34.1,34.1,34.1,2.0,2.3,2.81,-0.42821725165570396,0.11297714116577667,0.2513762170032342,-0.5790695360743807,-6.080773,-4.583142
11.185,2.0,1.0,1.0,34.1,34.1,34.1,2.0,2.3,2.8125,-0.3920345551171829,0.16628128523521385,0.2262433228293747,-0.5921623496456201,-6.885065,-4.221571
11.185,2.0,1.0,1.0,34.1,34.1,34.1,2.0,2.3,2.815,-0.3511745389122486,0.22416927421382699,0.20736970221320342,-0.5984466467995521,-7.790405,-3.889246
11.185,2.0,1.0,1.0,34.1,34.1,34.1,2.0,2.3,2.8175,-0.30680848714781866,0.28544638559859836,0.1961091588415016,-0.5965741466673309,-8.774884,-3.591407
11.185,2.0,1.0,1.0,34.1,34.1,34.1,2.0,2.3,2.82,-0.2605678537523867,0.3484632631583949,0.19353893372752454,-0.5854783669990645,-9.773534,-3.33284
11.185,2.0,1.0,1.0,34.1,34.1,34.1,2.0,2.3,2.8225,-0.21445789839521293,0.41120508074043344,0.20027718441532993,-0.5645546710877352,-10.64981,-3.117479
11.185,2.0,1.0,1.0,34.1,34.1,34.1,2.0,2.3,2.825,-0.17068775245779036,0.47146304820258794,0.21633764959042248,-0.5338015949452268,-11.195506,-2.948023
11.185,2.0,1.0,1.0,34.1,34.1,34.1,2.0,2.3,2.8275,-0.13143882801051776,0.5270654703030127,0.24106453124067764,-0.49388119840804307,-11.226962,-2.825653
11.185,2.0,1.0,1.0,34.1,34.1,34.1,2.0,2.3,2.83,-0.09861739816559906,0.5761222460312047,0.2731743276461544,-0.44607299246297527,-10.739169,-2.749889
