1,w,sub_t,h,l1,l2,l3,g1,g2,Freq,S11_re,S21_re,S11_img,S21_img,S11_dB,S21_dB
11.185,2.0,1.0,1.0,33.3,33.9,33.9,4.1,3.9,2.5,0.872258127183945,-0.00433236428001263,0.477158550348166,0.00299055503259359,-0.050169,-45.573196
11.185,2.0,1.0,1.0,33.3,33.9,33.9,4.1,3.9,2.5025,0.8691717508553851,-0.004415613085652284,0.48265782367327686,0.002997699408526543,-0.050593,-45.454015
11.185,2.0,1.0,1.0,33.3,33.9,33.9,4.1,3.9,2.505,0.8660382930903234,-0.004500193654002367,0.4881575955031414,0.0030043102268997985,-0.051023,-45.334642
11.185,2.0,1.0,1.0,33.3,33.9,33.9,4.1,3.9,2.5075,0.8628573209048463,-0.004586129893114255,0.4936576760086113,0.003010369248586481,-0.051461,-45.215069
11.185,2.0,1.0,1.0,33.3,33.9,33.9,4.1,3.9,2.51,0.8596283946441982,-0.004673446279026225,0.49915786982883176,0.0030158576383397862,-0.051905,-45.095289
11.185,2.0,1.0,1.0,33.3,33.9,33.9,4.1,3.9,2.5125,0.8563510678786608,-0.004762167872740724,0.5046579758955267,0.0030207559423982623,-0.052357,-44.975291
11.185,2.0,1.0,1.0,33.3,33.9,33.9,4.1,3.9,2.515,0.8530248872980375,-0.004852320337821654,0.5101577872517565,0.0030250440651231193,-0.052816,-44.855066
11.185,2.0,1.0,1.0,33.3,33.9,33.9,4.1,3.9,2.5175,0.8496493926047488,-0.0049439299586423,0.515657090864943,0.003028701244619958,-0.053282,-44.734608
11.185,2.0,1.0,1.0,33.3,33.9,33.9,4.1,3.9,2.52,0.8462241164055203,-0.005037023659310638,0.521155667433987,0.0030317060272937327,-0.053756,-44.613905
11.185,2.0,1.0,1.0,33.3,33.9,33.9,4.1,3.9,2.5225,0.8427485841016765,-0.005131629023304294,0.5266532911902522,0.0030340362412828734,-0.054238,-44.492949
11.185,2.0,1.0,1.0,33.3,33.9,33.9,4.1,3.9,2.525,0.8392223137780233,-0.005227774313845678,0.5321497296922263,0.0030356689687159647,-0.054728,-44.371731
11.185,2.0,1.0,1.0,33.3,33.9,33.9,4.1,3.9,2.5275,0.835644816090322,-0.0053254884950530235,0.5376447436136335,0.00303658051673008,-0.055227,-44.250242
11.185,2.0,1.0,1.0,33.3,33.9,33.9,4.1,3.9,2.53,0.8320155941513605,-0.005424801253900889,0.5431380865247682,0.00303674638718725,-0.055733,-44.128472
11.185,2.0,1.0,1.0,33.3,33.9,33.9,4.1,3.9,2.5325,0.8283341434156093,-0.0055257430230300905,0.5486295046668199,0.0030361412450211575,-0.056249,-44.006411
11.185,2.0,1.0,1.0,33.3,33.9,33.9,4.1,3.9,2.535,0.8245999515624716,-0.00562834500444477,0.554118736718946,0.0030347388851421583,-0.056773,-43.884051
11.185,2.0,1.0,1.0,33.3,33.9,33.9,4.1,3.9,2.5375,0.8208124983781298,-0.005732639194139505,0.5596055135578291,0.0030325121978246774,-0.057306,-43.761381
11.185,2.0,1.0,1.0,33.3,33.9,33.9,4.1,3.9,2.54,0.816971255635985,-0.005838658407700973,0.5650895580094666,0.0030294331324960933,-0.057848,-43.638392
11.185,2.0,1.0,1.0,33.3,33.9,33.9,4.1,3.9,2.5425,0.8130756869756989,-0.005946436306929415,0.5705705845929099,0.0030254726598414345,-0.0584,-43.515074
11.185,2.0,1.0,1.0,33.3,33.9,33.9,4.1,3.9,2.545,0.8091252477808396,-0.006056007427530853,0.5760482992556727,0.0030206007321326553,-0.058962,-43.391416
11.185,2.0,1.0,1.0,33.3,33.9,33.9,4.1,3.9,2.5475,0.8051193850551419,-0.006167407207931447,0.5815223991004989,0.003014786241686203,-0.059533,-43.267408
11.185,2.0,1.0,1.0,33.3,33.9,33.9,4.1,3.9,2.55,0.8010575372973804,-0.006280672019268002,0.586992572103203,0.0030079969773455454,-0.060115,-43.14304
11.185,2.0,1.0,1.0,33.3,33.9,33.9,4.1,3.9,2.5525,0.7969391343748777,-0.006395839196615493,0.5924584968212312,0.0030001995788800327,-0.060706,-43.018302
11.185,2.0,1.0,1.0,33.3,33.9,33.9,4.1,3.9,2.555,0.7927635973956448,-0.006512947071509508,0.59791984209263,0.0029913594891827788,-0.061309,-42.893182
11.185,2.0,1.0,1.0,33.3,33.9,33.9,4.1,3.9,2.5575,0.7885303385791669,-0.0066320350058325555,0.6033762667250651,0.0029814409041452345,-0.061922,-42.76767
11.185,2.0,1.0,1.0,33.3,33.9,33.9,4.1,3.9,2.56,0.7842387611258527,-0.006753143427130315,0.6088274191745181,0.002970406720075055,-0.062547,-42.641755
11.185,2.0,1.0,1.0,33.3,33.9,33.9,4.1,3.9,2.5625,0.7798882590851548,-0.006876313865432611,0.6142729372132876,0.0029582184785181074,-0.063183,-42.515426
11.185,2.0,1.0,1.0,33.3,33.9,33.9,4.1,3.9,2.565,0.7754782172223748,-0.00700158899165559,0.6197124475868991,0.0029448363083342073,-0.06383,-42.38867
11.185,2.0,1.0,1.0,33.3,33.9,33.9,4.1,3.9,2.5675,0.7710080108841745,-0.007129012657667602,0.6251455656594954,0.002930218864866859,-0.06449,-42.261477
11.185,2.0,1.0,1.0,33.3,33.9,33.9,4.1,3.9,2.57,0.7664770058628034,-0.007258629938105569,0.6305718950472862,0.0029143232660370985,-0.065162,-42.133835
11.185,2.0,1.0,1.0,33.3,33.9,33.9,4.1,3.9,2.5725,0.7618845582590651,-0.007390487174034149,0.6359910272396008,0.002897105025178767,-0.065846,-42.005732
11.185,2.0,1.0,1.0,33.3,33.9,33.9,4.1,3.9,2.575,0.7572300143440345,-0.007524632018546236,0.6414025412070669,0.0028785179804214807,-0.066544,-41.877155
11.185,2.0,1.0,1.0,33.3,33.9,33.9,4.1,3.9,2.5775,0.7525127104195561,-0.007661113484407041,0.6468060029964191,0.002858514220412663,-0.067254,-41.748092
11.185,2.0,1.0,1.0,33.3,33.9,33.9,4.1,3.9,2.58,0.7477319726775363,-0.007799981993854962,0.6522009653114202,0.002837044006157234,-0.067979,-41.61853
11.185,2.0,1.0,1.0,33.3,33.9,33.9,4.1,3.9,2.5825,0.7428871170580519,-0.007941289430673263,0.6575869670793526,0.0028140556887364995,-0.068717,-41.488457
11.185,2.0,1.0,1.0,33.3,33.9,33.9,4.1,3.9,2.585,0.7379774491063013,-0.008085089194660508,0.6629635330025034,0.0027894956226514303,-0.069469,-41.357859
11.185,2.0,1.0,1.0,33.3,33.9,33.9,4.1,3.9,2.5875,0.7330022638284146,-0.008231436258629748,0.6683301730940567,0.002763308074517862,-0.070236,-41.226723
11.185,2.0,1.0,1.0,33.3,33.9,33.9,4.1,3.9,2.59,0.727960845546156,-0.00838038722807949,0.6736863821977539,0.0027354351268206022,-0.071019,-41.095036
11.185,2.0,1.0,1.0,33.3,33.9,33.9,4.1,3.9,2.5925,0.7228524677505255,-0.008532000403685291,0.6790316394906739,0.0027058165764124414,-0.071816,-40.962782
11.185,2.0,1.0,1.0,33.3,33.9,33.9,4.1,3.9,2.595,0.7176763929543063,-0.008686335846772662,0.6843654079684302,0.002674389827421665,-0.07263,-40.829948
11.185,2.0,1.0,1.0,33.3,33.9,33.9,4.1,3.9,2.5975,0.7124318725435588,-0.00884345544794126,0.6896871339120693,0.0026410897782053115,-0.07346,-40.696519
11.185,2.0,1.0,1.0,33.3,33.9,33.9,4.1,3.9,2.6,0.7071181466280948,-0.009003422999022136,0.6949962463358998,0.002605848701959792,-0.074306,-40.56248
11.185,2.0,1.0,1.0,33.3,33.9,33.9,4.1,3.9,2.6025,0.7017344438909564,-0.00916630426856128,0.7002921564154395,0.0025685961205701986,-0.07517,-40.427816
11.185,2.0,1.0,1.0,33.3,33.9,33.9,4.1,3.9,2.605,0.6962799814369091,-0.009332167081035932,0.7055742568946431,0.0025292586712477552,-0.076052,-40.292511
11.185,2.0,1.0,1.0,33.3,33.9,33.9,4.1,3.9,2.6075,0.690753964639977,-0.009501081400023861,0.7108419214715048,0.0024877599654709753,-0.076952,-40.15655
11.185,2.0,1.0,1.0,33.3,33.9,33.9,4.1,3.9,2.61,0.6851555869900361,-0.009673119415560908,0.7160945041610919,0.0024440204397072687,-0.07787,-40.019916
11.185,2.0,1.0,1.0,33.3,33.9,33.9,4.1,3.9,2.6125,0.6794840299384711,-0.009848355635937481,0.7213313386350084,0.002397957197351903,-0.078808,-39.882591
11.185,2.0,1.0,1.0,33.3,33.9,33.9,4.1,3.9,2.615,0.6737384627429145,-0.010026866984202144,0.7265517375362376,0.0023494838412753782,-0.079766,-39.74456
11.185,2.0,1.0,1.0,33.3,33.9,33.9,4.1,3.9,2.6175,0.6679180423110668,-0.010208732899659626,0.7317549917682311,0.0022985102963226974,-0.080744,-39.605804
11.185,2.0,1.0,1.0,33.3,33.9,33.9,4.1,3.9,2.62,0.6620219130436075,-0.010394035444668562,0.7369403697570677,0.002244942621054359,-0.081742,-39.466306
11.185,2.0,1.0,1.0,33.3,33.9,33.9,4.1,3.9,2.6225,0.6560492066761754,-0.010582859417067596,0.7421071166854201,0.0021886828079606497,-0.082763,-39.326046
11.185,2.0,1.0,1.0,33.3,33.9,33.9,4.1,3.9,2.625,0.649999042120431,-0.0107752924685805,0.747254453696987,0.00212962857131865,-0.083806,-39.185006
11.185,2.0,1.0,1.0,33.3,33.9,33.9,4.1,3.9,2.6275,0.643870525304153,-0.010971425229575699,0.752381577069976,0.0020676731217905745,-0.084872,-39.043166
11.185,2.0,1.0,1.0,33.3,33.9,33.9,4.1,3.9,2.63,0.6376627490103582,-0.011171351440582745,0.7574876573581203,0.002002704926787852,-0.085961,-38.900507
11.185,2.0,1.0,1.0,33.3,33.9,33.9,4.1,3.9,2.6325,0.6313747927153976,-0.011375168090994906,0.7625718384976168,0.0019346074555412326,-0.087075,-38.757007
11.185,2.0,1.0,1.0,33.3,33.9,33.9,4.1,3.9,2.635,0.6250057224259733,-0.011582975565423221,0.7676332368782648,0.001863258907726887,-0.088214,-38.612646
11.185,2.0,1.0,1.0,33.3,33.9,33.9,4.1,3.9,2.6375,0.61855459051502,-0.011794877798193031,0.7726709403769638,0.0017885319243988833,-0.089379,-38.467402
11.185,2.0,1.0,1.0,33.3,33.9,33.9,4.1,3.9,2.64,0.6120204355563484,-0.012010982436516781,0.7776840073516176,0.0017102932798676851,-0.09057,-38.321252
11.185,2.0,1.0,1.0,33.3,33.9,33.9,4.1,3.9,2.6425,0.6054022821579705,-0.012231401012912263,0.7826714655933232,0.001628403553045617,-0.091789,-38.174174
11.185,2.0,1.0,1.0,33.3,33.9,33.9,4.1,3.9,2.645,0.5986991407939689,-0.012456249127477491,0.7876323112345992,0.0015427167766462614,-0.093037,-38.026143
11.185,2.0,1.0,1.0,33.3,33.9,33.9,4.1,3.9,2.6475,0.5919100076347767,-0.012685646640679286,0.7925655076112254,0.0014530800624796172,-0.094314,-37.877136
11.185,2.0,1.0,1.0,33.3,33.9,33.9,4.1,3.9,2.65,0.5850338643756792,-0.012919717877360863,0.7974699840750964,0.0013593332009233484,-0.095621,-37.727127
11.185,2.0,1.0,1.0,33.3,33.9,33.9,4.1,3.9,2.6525,0.5780696780633634,-0.01315859184272568,0.8023446347552691,0.0012613082324740219,-0.09696,-37.576091
11.185,2.0,1.0,1.0,33.3,33.9,33.9,4.1,3.9,2.655,0.5710164009202537,-0.013402402451113614,0.8071883172641982,0.0011588289890850222,-0.098332,-37.424
11.185,2.0,1.0,1.0,33.3,33.9,33.9,4.1,3.9,2.6575,0.5638729701663816,-0.013651288768442158,0.8119998513458827,0.0010517106027811442,-0.099737,-37.270826
11.185,2.0,1.0,1.0,33.3,33.9,33.9,4.1,3.9,2.66,0.5566383078384678,-0.013905395269256918,0.8167780174624036,0.0009397589788014027,-0.101176,-37.116543
11.185,2.0,1.0,1.0,33.3,33.9,33.9,4.1,3.9,2.6625,0.5493113206058728,-0.014164872109401382,0.8215215553150167,0.0008227702302533673,-0.102652,-36.961119
11.185,2.0,1.0,1.0,33.3,33.9,33.9,4.1,3.9,2.665,0.5418908995829851,-0.014429875415396778,0.8262291622956732,0.0007005300709692542,-0.104165,-36.804525
11.185,2.0,1.0,1.0,33.3,33.9,33.9,4.1,3.9,2.6675,0.5343759201376109,-0.014700567591701175,0.8308994918644522,0.0005728131629259713,-0.105717,-36.646729
11.185,2.0,1.0,1.0,33.3,33.9,33.9,4.1,3.9,2.67,0.526765241694821,-0.014977117647111788,0.835531151848012,0.0004393824142268097,-0.107309,-36.487699
11.185,2.0,1.0,1.0,33.3,33.9,33.9,4.1,3.9,2.6725,0.5190577075356575,-0.015259701541662535,0.8401227026537305,0.00029998822323770957,-0.108943,-36.327401
11.185,2.0,1.0,1.0,33.3,33.9,33.9,4.1,3.9,2.675,0.5112521445900462,-0.015548502555479665,0.8446726553937046,0.0001543676640193062,-0.110619,-36.165801
11.185,2.0,1.0,1.0,33.3,33.9,33.9,4.1,3.9,2.6775,0.503347363223144,-0.01584371168116323,0.8491794699122472,2.2436076921382175e-06,-0.11234,-36.002861
11.185,2.0,1.0,1.0,33.3,33.9,33.9,4.1,3.9,2.68,0.4953421570142783,-0.01614552804138596,0.8536415527099215,-0.0001566762261902292,-0.114108,-35.838546
11.185,2.0,1.0,1.0,33.3,33.9,33.9,4.1,3.9,2.6825,0.4872353025275428,-0.01645415933352223,0.858057254756464,-0.00032270029481542894,-0.115925,-35.672816
11.185,2.0,1.0,1.0,33.3,33.9,33.9,4.1,3.9,2.685,0.4790255590729742,-0.01676982230326651,0.8624248691842156,-0.0004961543410928234,-0.117791,-35.505631
11.185,2.0,1.0,1.0,33.3,33.9,33.9,4.1,3.9,2.6875,0.47071166845714296,-0.017092743249334536,0.8667426288528276,-0.000677382594491362,-0.11971,-35.336949
11.185,2.0,1.0,1.0,33.3,33.9,33.9,4.1,3.9,2.69,0.4622923547218576,-0.01742315856150971,0.871008703775067,-0.0008667490726716705,-0.121683,-35.166728
11.185,2.0,1.0,1.0,33.3,33.9,33.9,4.1,3.9,2.6925,0.45376632386950955,-0.01776131529445035,0.8752211983925057,-0.0010646389938486318,-0.123713,-34.994921
11.185,2.0,1.0,1.0,33.3,33.9,33.9,4.1,3.9,2.695,0.44513226357348984,-0.01810747177985807,0.8793781486886595,-0.001271460310943177,-0.125801,-34.821483
11.185,2.0,1.0,1.0,33.3,33.9,33.9,4.1,3.9,2.6975,0.4363888428718761,-0.018461898279792714,0.8834775191258467,-0.0014876453798501183,-0.127952,-34.646365
11.185,2.0,1.0,1.0,33.3,33.9,33.9,4.1,3.9,2.7,0.4275347118424789,-0.0188248776841077,0.8875171993904906,-0.0017136527755783756,-0.130167,-34.469516
11.185,2.0,1.0,1.0,33.3,33.9,33.9,4.1,3.9,2.7025,0.4185685012570927,-0.019196706255191515,0.891495000929918,-0.001949969271639513,-0.132449,-34.290884
11.185,2.0,1.0,1.0,33.3,33.9,33.9,4.1,3.9,2.705,0.40948882221264893,-0.019577694423410653,0.8954086532617569,-0.002197111999890877,-0.134801,-34.110413
11.185,2.0,1.0,1.0,33.3,33.9,33.9,4.1,3.9,2.7075,0.40029426573671867,-0.01996816763686287,0.8992558000348813,-0.002455630810121745,-0.137226,-33.928047
11.185,2.0,1.0,1.0,33.3,33.9,33.9,4.1,3.9,2.71,0.3909834023646378,-0.020368467269272116,0.9030339948183456,-0.0027261108510296794,-0.139728,-33.743726
11.185,2.0,1.0,1.0,33.3,33.9,33.9,4.1,3.9,2.7125,0.38155478168527945,-0.020778951590081206,0.9067406965919679,-0.0030091753969258943,-0.142311,-33.557387
11.185,2.0,1.0,1.0,33.3,33.9,33.9,4.1,3.9,2.715,0.3720069318523012,-0.02119999680100165,0.9103732649089896,-0.0033054889475709007,-0.144978,-33.368966
11.185,2.0,1.0,1.0,33.3,33.9,33.9,4.1,3.9,2.7175,0.3623383590574736,-0.021631998143495337,0.9139289546976009,-0.0036157606320440694,-0.147733,-33.178395
11.185,2.0,1.0,1.0,33.3,33.9,33.9,4.1,3.9,2.72,0.35254754696251467,-0.022075371081830945,0.9174049106639282,-0.003940747951552933,-0.150581,-32.985602
11.185,2.0,1.0,1.0,33.3,33.9,33.9,4.1,3.9,2.7225,0.3426329560856473,-0.02253055256651808,0.9207981612543059,-0.0042812609006789995,-0.153527,-32.790514
11.185,2.0,1.0,1.0,33.3,33.9,33.9,4.1,3.9,2.725,0.33259302313902067,-0.02299800238301358,0.9241056121291462,-0.004638166511824315,-0.156576,-32.593052
11.185,2.0,1.0,1.0,33.3,33.9,33.9,4.1,3.9,2.7275,0.32242616031298993,-0.023478204590634755,0.9273240390944308,-0.00501239387368671,-0.159732,-32.393136
11.185,2.0,1.0,1.0,33.3,33.9,33.9,4.1,3.9,2.73,0.3121307545033202,-0.023971669056545946,0.9304500804295477,-0.005404939681576598,-0.163002,-32.190678
11.185,2.0,1.0,1.0,33.3,33.9,33.9,4.1,3.9,2.7325,0.30170516647744466,-0.024478933089508926,0.933480228541838,-0.005816874385458411,-0.166393,-31.985591
11.185,2.0,1.0,1.0,33.3,33.9,33.9,4.1,3.9,2.735,0.29114772997622035,-0.025000563177715082,0.9364108208684786,-0.006249349010937536,-0.16991,-31.777779
11.185,2.0,1.0,1.0,33.3,33.9,33.9,4.1,3.9,2.7375,0.28045675074807347,-0.025537156834450746,0.9392380299351049,-0.006703602739244228,-0.173561,-31.567145
11.185,2.0,1.0,1.0,33.3,33.9,33.9,4.1,3.9,2.74,0.2696305055132129,-0.02608934455445356,0.9419578524674957,-0.0071809713448502425,-0.177355,-31.353583
11.185,2.0,1.0,1.0,33.3,33.9,33.9,4.1,3.9,2.7425,0.25866724085668774,-0.026657791882556955,0.944566097437445,-0.007682896604015899,-0.181298,-31.136984
11.185,2.0,1.0,1.0,33.3,33.9,33.9,4.1,3.9,2.745,0.24756517205070483,-0.027243201594432203,0.9470583729061961,-0.00821093680467712,-0.185402,-30.917233
11.185,2.0,1.0,1.0,33.3,33.9,33.9,4.1,3.9,2.7475,0.2363224818088451,-0.02784631598680508,0.9494300715080674,-0.00876677850810679,-0.189675,-30.694209
11.185,2.0,1.0,1.0,33.3,33.9,33.9,4.1,3.9,2.75,0.224937318977915,-0.0284679192712043,0.951676354392579,-0.00935224973626913,-0.194128,-30.467783
11.185,2.0,1.0,1.0,33.3,33.9,33.9,4.1,3.9,2.7525,0.21340779717732394,-0.02910884006088627,0.9537921334148105,-0.009969334786397444,-0.198774,-30.23782
11.185,2.0,1.0,1.0,33.3,33.9,33.9,4.1,3.9,2.755,0.20173199340148387,-0.029769953934684384,0.9557720513300527,-0.010620190906864621,-0.203624,-30.004177
11.185,2.0,1.0,1.0,33.3,33.9,33.9,4.1,3.9,2.7575,0.18990794660812105,-0.03045218605377365,0.9576104597090778,-0.011307167106870996,-0.208694,-29.766703
11.185,2.0,1.0,1.0,33.3,33.9,33.9,4.1,3.9,2.76,0.17793365632529984,-0.031156513797099824,0.9593013942432572,-0.012032825418016436,-0.213998,-29.525237
11.185,2.0,1.0,1.0,33.3,33.9,33.9,4.1,3.9,2.7625,0.16580708132288544,-0.03188396936781777,0.9608385470529021,-0.012799964979931388,-0.219553,-29.27961
11.185,2.0,1.0,1.0,33.3,33.9,33.9,4.1,3.9,2.765,0.15352613841133073,-0.03263564230549429,0.962215235545669,-0.01361164938656882,-0.225378,-29.029642
11.185,2.0,1.0,1.0,33.3,33.9,33.9,4.1,3.9,2.7675,0.14108870145312505,-0.03341268181583861,0.9634243672924803,-0.014471237806703405,-0.231493,-28.775141
11.185,2.0,1.0,1.0,33.3,33.9,33.9,4.1,3.9,2.77,0.12849260070176144,-0.034216298799638376,0.9644584002933726,-0.015382420484329772,-0.23792,-28.515905
11.185,2.0,1.0,1.0,33.3,33.9,33.9,4.1,3.9,2.7725,0.11573562262187392,-0.03504776742318933,0.9653092978916026,-0.016349259335301174,-0.244686,-28.251717
11.185,2.0,1.0,1.0,33.3,33.9,33.9,4.1,3.9,2.775,0.10281551039512118,-0.03590842602093924,0.9659684774569991,-0.01737623448980948,-0.251816,-27.982347
11.185,2.0,1.0,1.0,33.3,33.9,33.9,4.1,3.9,2.7775,0.0897299653834306,-0.03679967705338862,0.9664267517937599,-0.018468297791250962,-0.259343,-27.707549
11.185,2.0,1.0,1.0,33.3,33.9,33.9,4.1,3.9,2.78,0.07647664990949146,-0.037722985754371156,0.966674262027123,-0.019630934456950647,-0.2673,-27.427062
11.185,2.0,1.0,1.0,33.3,33.9,33.9,4.1,3.9,2.7825,0.06305319183101324,-0.038679876984691365,0.9667004004795856,-0.020870234342983247,-0.275725,-27.140604
11.185,2.0,1.0,1.0,33.3,33.9,33.9,4.1,3.9,2.785,0.049457191539465005,-0.03967192965439092,0.9664937217505088,-0.022192974543714855,-0.284662,-26.847877
11.185,2.0,1.0,1.0,33.3,33.9,33.9,4.1,3.9,2.7875,0.03568623221886323,-0.040700767870957694,0.9660418398504921,-0.02360671540888781,-0.294159,-26.548558
11.185,2.0,1.0,1.0,33.3,33.9,33.9,4.1,3.9,2.79,0.02173789447272191,-0.04176804769838131,0.9653313087981588,-0.02511991249234038,-0.30427,-26.242304
11.185,2.0,1.0,1.0,33.3,33.9,33.9,4.1,3.9,2.7925,0.007609776791613205,-0.042875438048503155,0.964347483542391,-0.0267420474757856,-0.315059,-25.928743
11.185,2.0,1.0,1.0,33.3,33.9,33.9,4.1,3.9,2.795,-0.006700476177653981,-0.04402459373928783,0.9630743574031727,-0.028483781762196236,-0.326593,-25.607477
11.185,2.0,1.0,1.0,33.3,33.9,33.9,4.1,3.9,2.7975,-0.021195134941946216,-0.045217118099686045,0.9614943713986964,-0.030357137235666968,-0.338955,-25.278078
11.185,2.0,1.0,1.0,33.3,33.9,33.9,4.1,3.9,2.8,-0.035876332540989354,-0.04645451161557044,0.9595881898077174,-0.032375709674577556,-0.352236,-24.940083
11.185,2.0,1.0,1.0,33.3,33.9,33.9,4.1,3.9,2.8025,-0.05074599327493763,-0.047738101908919944,0.9573344350582133,-0.0345549215269924,-0.366541,-24.592991
11.185,2.0,1.0,1.0,33.3,33.9,33.9,4.1,3.9,2.805,-0.06580573640443214,-0.04906894870091818,0.9547093734804468,-0.036912322265386543,-0.381992,-24.236263
11.185,2.0,1.0,1.0,33.3,33.9,33.9,4.1,3.9,2.8075,-0.08105674617315439,-0.050447715156208744,0.9516865415484221,-0.039467946395609396,-0.398731,-23.869312
11.185,2.0,1.0,1.0,33.3,33.9,33.9,4.1,3.9,2.81,-0.096499596360448,-0.05187449389441162,0.9482362998827679,-0.04224474147496496,-0.416922,-23.491505
11.185,2.0,1.0,1.0,33.3,33.9,33.9,4.1,3.9,2.8125,-0.112134013203754,-0.053348571634294,0.944325299418926,-0.0452690812737097,-0.436758,-23.102154
11.185,2.0,1.0,1.0,33.3,33.9,33.9,4.1,3.9,2.815,-0.1279585544229747,-0.054868110398864946,0.939915840679964,-0.04857138256514971,-0.458467,-22.700509
11.185,2.0,1.0,1.0,33.3,33.9,33.9,4.1,3.9,2.8175,-0.14397017348557964,-0.05642971472208761,0.934965102982425,-0.05218684799649332,-0.482317,-22.285757
11.185,2.0,1.0,1.0,33.3,33.9,33.9,4.1,3.9,2.82,-0.16016362608612267,-0.058027842291146374,0.9294242156655854,-0.05615636204870349,-0.50863,-21.857013
11.185,2.0,1.0,1.0,33.3,33.9,33.9,4.1,3.9,2.8225,-0.17653065848719612,-0.059653998369413104,0.9232371382454031,-0.06052757205417006,-0.537788,-21.413313
11.185,2.0,1.0,1.0,33.3,33.9,33.9,4.1,3.9,2.825,-0.19305889254720274,-0.061295629881885194,0.9163393112509102,-0.06535619110075849,-0.570254,-20.953609
11.185,2.0,1.0,1.0,33.3,33.9,33.9,4.1,3.9,2.8275,-0.2097302865137135,-0.0629345998396015,0.9086560355282255,-0.0707075632782963,-0.606592,-20.476763
