1,w,sub_t,h,l1,l2,l3,g1,g2,Freq,S11_re,S21_re,S11_img,S21_img,S11_dB,S21_dB
11.185,2.0,1.0,1.0,33.2,33.4,33.4,2.5,3.8,2.5,0.881495840325221,-0.00590901400747149,0.45921944303305,0.0053971800548766,-0.052794,-41.93508
11.185,2.0,1.0,1.0,33.2,33.4,33.4,2.5,3.8,2.5025,0.8784910612290224,-0.00603134635827051,0.4648265764490945,0.005426286095792005,-0.053265,-41.816308
11.185,2.0,1.0,1.0,33.2,33.4,33.4,2.5,3.8,2.505,0.8754378155775819,-0.00615583291758402,0.47043599325754165,0.005454909037779743,-0.053743,-41.697302
11.185,2.0,1.0,1.0,33.2,33.4,33.4,2.5,3.8,2.5075,0.8723356267348434,-0.006282514957188423,0.47604751253025474,0.005483025414686648,-0.05423,-41.578055
11.185,2.0,1.0,1.0,33.2,33.4,33.4,2.5,3.8,2.51,0.8691840102765056,-0.006411434718476875,0.4816609476250639,0.005510610893432407,-0.054725,-41.45856
11.185,2.0,1.0,1.0,33.2,33.4,33.4,2.5,3.8,2.5125,0.8659824738538012,-0.006542635439054527,0.48727610599305177,0.005537640239778746,-0.055229,-41.338809
11.185,2.0,1.0,1.0,33.2,33.4,33.4,2.5,3.8,2.515,0.8627305170549956,-0.006676161380152492,0.49289278897934374,0.005564087282616744,-0.055741,-41.218794
11.185,2.0,1.0,1.0,33.2,33.4,33.4,2.5,3.8,2.5175,0.8594276312645833,-0.006812057854887946,0.4985107916171486,0.005589924876701275,-0.056261,-41.098508
11.185,2.0,1.0,1.0,33.2,33.4,33.4,2.5,3.8,2.52,0.856073299520153,-0.0069503712573994155,0.5041299024148259,0.0056151248637582064,-0.056791,-40.977942
11.185,2.0,1.0,1.0,33.2,33.4,33.4,2.5,3.8,2.5225,0.8526669963669065,-0.007091149092886167,0.509749903135696,0.0056396580318852346,-0.05733,-40.85709
11.185,2.0,1.0,1.0,33.2,33.4,33.4,2.5,3.8,2.525,0.8492081877097992,-0.007234440008583177,0.5153705685703504,0.005663494073163796,-0.057879,-40.735943
11.185,2.0,1.0,1.0,33.2,33.4,33.4,2.5,3.8,2.5275,0.8456963306632855,-0.007380293825702917,0.5209916663011765,0.00568660153939489,-0.058437,-40.614494
11.185,2.0,1.0,1.0,33.2,33.4,33.4,2.5,3.8,2.53,0.8421308733986496,-0.007528761572377024,0.5266129564588043,0.005708947795866163,-0.059004,-40.492734
11.185,2.0,1.0,1.0,33.2,33.4,33.4,2.5,3.8,2.5325,0.8385112549888998,-0.007679895517631796,0.5322341914701788,0.0057304989730537345,-0.059582,-40.370655
11.185,2.0,1.0,1.0,33.2,33.4,33.4,2.5,3.8,2.535,0.8348369052512087,-0.007833749206433125,0.5378551157979481,0.005751219916156172,-0.06017,-40.248249
11.185,2.0,1.0,1.0,33.2,33.4,33.4,2.5,3.8,2.5375,0.8311072445868872,-0.007990377495836852,0.5434754656708342,0.005771074132352351,-0.060769,-40.125508
11.185,2.0,1.0,1.0,33.2,33.4,33.4,2.5,3.8,2.54,0.8273216838188723,-0.008149836592282723,0.5490949688046517,0.005790023735669596,-0.061379,-40.002424
11.185,2.0,1.0,1.0,33.2,33.4,33.4,2.5,3.8,2.5425,0.82347962402672,-0.008312184090070904,0.5547133441136255,0.005808029389341316,-0.061999,-39.878987
11.185,2.0,1.0,1.0,33.2,33.4,33.4,2.5,3.8,2.545,0.8195804563790875,-0.008477479011061781,0.5603303014116302,0.005825050245527281,-0.062631,-39.75519
11.185,2.0,1.0,1.0,33.2,33.4,33.4,2.5,3.8,2.5475,0.8156235619637063,-0.008645781845640303,0.56594554110297,0.005841043882262082,-0.063274,-39.631024
11.185,2.0,1.0,1.0,33.2,33.4,33.4,2.5,3.8,2.55,0.8116083116148256,-0.008817154594989053,0.5715587538623089,0.00585596623749006,-0.06393,-39.50648
11.185,2.0,1.0,1.0,33.2,33.4,33.4,2.5,3.8,2.5525,0.8075340657381376,-0.008991660814714024,0.5771696203033142,0.005869771540036274,-0.064597,-39.381549
11.185,2.0,1.0,1.0,33.2,33.4,33.4,2.5,3.8,2.555,0.803400174133174,-0.009169365659870065,0.5827778106355957,0.005882412237355683,-0.065277,-39.256223
11.185,2.0,1.0,1.0,33.2,33.4,33.4,2.5,3.8,2.5575,0.799205975813177,-0.009350335931433642,0.5883829843094828,0.005893838919891768,-0.06597,-39.130492
11.185,2.0,1.0,1.0,33.2,33.4,33.4,2.5,3.8,2.56,0.7949507988224559,-0.00953464012427238,0.593984789648157,0.005904000241868166,-0.066675,-39.004347
11.185,2.0,1.0,1.0,33.2,33.4,33.4,2.5,3.8,2.5625,0.7906339600512334,-0.009722348476662732,0.5995828634666538,0.005912842838324513,-0.067394,-38.87778
11.185,2.0,1.0,1.0,33.2,33.4,33.4,2.5,3.8,2.565,0.7862547650479954,-0.009913533021408754,0.6051768306772175,0.005920311238198399,-0.068127,-38.750779
11.185,2.0,1.0,1.0,33.2,33.4,33.4,2.5,3.8,2.5675,0.7818125078293646,-0.010108267638615711,0.6107663038804624,0.005926347773242063,-0.068874,-38.623337
11.185,2.0,1.0,1.0,33.2,33.4,33.4,2.5,3.8,2.57,0.7773064706875173,-0.010306628110176323,0.6163508829417831,0.005930892482551266,-0.069635,-38.495442
11.185,2.0,1.0,1.0,33.2,33.4,33.4,2.5,3.8,2.5725,0.77273592399517,-0.010508692176026365,0.6219301545524257,0.005933883012469361,-0.070411,-38.367087
11.185,2.0,1.0,1.0,33.2,33.4,33.4,2.5,3.8,2.575,0.768100126008166,-0.010714539592230322,0.6275036917746005,0.005935254511615936,-0.071202,-38.238259
11.185,2.0,1.0,1.0,33.2,33.4,33.4,2.5,3.8,2.5775,0.7633983226657056,-0.010924252190958805,0.6330710535699959,0.00593493952077397,-0.072009,-38.10895
11.185,2.0,1.0,1.0,33.2,33.4,33.4,2.5,3.8,2.58,0.7586297473882583,-0.011137913942420951,0.6386317843110154,0.005932867857353398,-0.072832,-37.97915
11.185,2.0,1.0,1.0,33.2,33.4,33.4,2.5,3.8,2.5825,0.7537936208732076,-0.011355611018817786,0.644185413274042,0.005928966494131138,-0.073671,-37.848847
11.185,2.0,1.0,1.0,33.2,33.4,33.4,2.5,3.8,2.585,0.7488891508882881,-0.011577431860383559,0.6497314541139828,0.005923159431950083,-0.074527,-37.718031
11.185,2.0,1.0,1.0,33.2,33.4,33.4,2.5,3.8,2.5875,0.7439155320628785,-0.011803467243584598,0.6552694043193358,0.005915367566038517,-0.0754,-37.586692
11.185,2.0,1.0,1.0,33.2,33.4,33.4,2.5,3.8,2.59,0.7388719456772231,-0.012033810351546152,0.6607987446469513,0.005905508545591212,-0.076291,-37.454818
11.185,2.0,1.0,1.0,33.2,33.4,33.4,2.5,3.8,2.5925,0.7337575594496636,-0.012268556846781088,0.666318938535665,0.005893496626230666,-0.0772,-37.322399
11.185,2.0,1.0,1.0,33.2,33.4,33.4,2.5,3.8,2.595,0.7285715273219784,-0.012507804946294183,0.6718294314978891,0.00587924251494223,-0.078128,-37.189424
11.185,2.0,1.0,1.0,33.2,33.4,33.4,2.5,3.8,2.5975,0.723312989242922,-0.012751655499138852,0.6773296504882567,0.005862653207051165,-0.079075,-37.05588
11.185,2.0,1.0,1.0,33.2,33.4,33.4,2.5,3.8,2.6,0.7179810709500812,-0.013000212066504738,0.6828190032483263,0.005843631814782304,-0.080041,-36.921756
11.185,2.0,1.0,1.0,33.2,33.4,33.4,2.5,3.8,2.6025,0.7125748837501786,-0.013253581004415312,0.6882968776263261,0.005822077386912662,-0.081028,-36.787041
11.185,2.0,1.0,1.0,33.2,33.4,33.4,2.5,3.8,2.605,0.7070935242979495,-0.013511871549116738,0.6937626408708694,0.005797884718995048,-0.082036,-36.651722
11.185,2.0,1.0,1.0,33.2,33.4,33.4,2.5,3.8,2.6075,0.7015360743737521,-0.0137751959052411,0.6992156388975046,0.005770944153597935,-0.083065,-36.515787
11.185,2.0,1.0,1.0,33.2,33.4,33.4,2.5,3.8,2.61,0.6959016006600769,-0.014043669336826539,0.704655195526917,0.005741141369968052,-0.084116,-36.379223
11.185,2.0,1.0,1.0,33.2,33.4,33.4,2.5,3.8,2.6125,0.6901891545171323,-0.014317410261280038,0.710080611693534,0.00570835716248432,-0.085189,-36.242019
11.185,2.0,1.0,1.0,33.2,33.4,33.4,2.5,3.8,2.615,0.6843977717577048,-0.014596540346367454,0.7154911646232293,0.005672467207228453,-0.086286,-36.10416
11.185,2.0,1.0,1.0,33.2,33.4,33.4,2.5,3.8,2.6175,0.6785264724215199,-0.014881184610316766,0.7208861069787353,0.0056333418159518,-0.087407,-35.965634
11.185,2.0,1.0,1.0,33.2,33.4,33.4,2.5,3.8,2.62,0.6725742605493351,-0.015171471525120522,0.7262646659713211,0.005590845676669864,-0.088553,-35.826427
11.185,2.0,1.0,1.0,33.2,33.4,33.4,2.5,3.8,2.6225,0.6665401239570179,-0.015467533123122818,0.7316260424372056,0.005544837580061784,-0.089723,-35.686526
11.185,2.0,1.0,1.0,33.2,33.4,33.4,2.5,3.8,2.625,0.66042303400991,-0.0157695051069757,0.736969409877087,0.00549517013079632,-0.09092,-35.545917
11.185,2.0,1.0,1.0,33.2,33.4,33.4,2.5,3.8,2.6275,0.6542219453977616,-0.016077526963048212,0.7422939134570995,0.005441689442844147,-0.092144,-35.404585
11.185,2.0,1.0,1.0,33.2,33.4,33.4,2.5,3.8,2.63,0.6479357959105884,-0.01639174207837064,0.747598668969403,0.005384234817770192,-0.093395,-35.262515
11.185,2.0,1.0,1.0,33.2,33.4,33.4,2.5,3.8,2.6325,0.6415635062158033,-0.01671229786119072,0.7528827617505095,0.005322638404928534,-0.094675,-35.119694
11.185,2.0,1.0,1.0,33.2,33.4,33.4,2.5,3.8,2.635,0.6351039796370246,-0.01703934586522009,0.7581452455553562,0.005256724842405902,-0.095984,-34.976105
11.185,2.0,1.0,1.0,33.2,33.4,33.4,2.5,3.8,2.6375,0.6285561019349921,-0.017373041917638835,0.7633851413850046,0.005186310877476601,-0.097324,-34.831733
11.185,2.0,1.0,1.0,33.2,33.4,33.4,2.5,3.8,2.64,0.6219187410910431,-0.017713546250926363,0.768601436265751,0.005111204965241625,-0.098694,-34.686563
11.185,2.0,1.0,1.0,33.2,33.4,33.4,2.5,3.8,2.6425,0.6151907470936729,-0.018061023638575164,0.7737930819772695,0.005031206844029047,-0.100097,-34.540578
11.185,2.0,1.0,1.0,33.2,33.4,33.4,2.5,3.8,2.645,0.608370951728718,-0.01841564353473839,0.7789589937272998,0.0049461070860265,-0.101533,-34.393762
11.185,2.0,1.0,1.0,33.2,33.4,33.4,2.5,3.8,2.6475,0.6014581683737653,-0.018777580217851957,0.7840980487702258,0.00485568662150464,-0.103003,-34.246098
11.185,2.0,1.0,1.0,33.2,33.4,33.4,2.5,3.8,2.65,0.594451191797421,-0.01914701293825901,0.7892090849667488,0.004759716234866234,-0.104509,-34.097569
11.185,2.0,1.0,1.0,33.2,33.4,33.4,2.5,3.8,2.6525,0.587348797964171,-0.019524126069851044,0.7942908992816582,0.004657956030624028,-0.106051,-33.948156
11.185,2.0,1.0,1.0,33.2,33.4,33.4,2.5,3.8,2.655,0.5801497438455661,-0.01990910926572418,0.7993422462165611,0.004550154867264873,-0.10763,-33.797842
11.185,2.0,1.0,1.0,33.2,33.4,33.4,2.5,3.8,2.6575,0.572852767238581,-0.020302157617827884,0.8043618361741974,0.004436049756802127,-0.109249,-33.646609
11.185,2.0,1.0,1.0,33.2,33.4,33.4,2.5,3.8,2.66,0.5654565865920423,-0.020703471820562626,0.8093483337507771,0.004315365227647621,-0.110908,-33.494437
11.185,2.0,1.0,1.0,33.2,33.4,33.4,2.5,3.8,2.6625,0.5579599008421102,-0.02111325833825467,0.8143003559525368,0.004187812648250861,-0.112608,-33.341307
11.185,2.0,1.0,1.0,33.2,33.4,33.4,2.5,3.8,2.665,0.5503613892578705,-0.02153172957640704,0.8192164703324792,0.004053089508751332,-0.114351,-33.187199
11.185,2.0,1.0,1.0,33.2,33.4,33.4,2.5,3.8,2.6675,0.5426597112982103,-0.021959104056588487,0.8240951930429722,0.003910878657672693,-0.116139,-33.032093
11.185,2.0,1.0,1.0,33.2,33.4,33.4,2.5,3.8,2.67,0.5348535064812309,-0.02239560659478287,0.828934986799622,0.0037608474904491664,-0.117972,-32.875968
11.185,2.0,1.0,1.0,33.2,33.4,33.4,2.5,3.8,2.6725,0.5269413942675694,-0.02284146848297111,0.8337342587515094,0.0036026470863160845,-0.119853,-32.718803
11.185,2.0,1.0,1.0,33.2,33.4,33.4,2.5,3.8,2.675,0.5189219739591394,-0.02329692767366625,0.8384913582525431,0.0034359112898144184,-0.121784,-32.560575
11.185,2.0,1.0,1.0,33.2,33.4,33.4,2.5,3.8,2.6775,0.5107938246149177,-0.023762228967055165,0.8432045745283282,0.003260255732851497,-0.123765,-32.401262
11.185,2.0,1.0,1.0,33.2,33.4,33.4,2.5,3.8,2.68,0.502555504985559,-0.024237624200331192,0.8478721342325505,0.0030752767929237692,-0.125799,-32.24084
11.185,2.0,1.0,1.0,33.2,33.4,33.4,2.5,3.8,2.6825,0.4942055534687996,-0.024723372438714957,0.8524921988864445,0.0028805504827415286,-0.127888,-32.079287
11.185,2.0,1.0,1.0,33.2,33.4,33.4,2.5,3.8,2.685,0.4857424880877691,-0.02521974016756733,0.8570628621944614,0.002675631266093629,-0.130033,-31.916578
11.185,2.0,1.0,1.0,33.2,33.4,33.4,2.5,3.8,2.6875,0.4771648064945483,-0.025727001484885777,0.8615821472287383,0.0024600507943513712,-0.132238,-31.752688
11.185,2.0,1.0,1.0,33.2,33.4,33.4,2.5,3.8,2.69,0.46847098600154097,-0.026245438293349042,0.8660480034744185,0.002233316557531623,-0.134503,-31.58759
11.185,2.0,1.0,1.0,33.2,33.4,33.4,2.5,3.8,2.6925,0.45965948364343884,-0.02677534049093127,0.8704583037272954,0.001994910443311518,-0.136832,-31.421259
11.185,2.0,1.0,1.0,33.2,33.4,33.4,2.5,3.8,2.695,0.4507287362728964,-0.02731700615893544,0.8748108408345643,0.0017442871968110232,-0.139226,-31.253667
11.185,2.0,1.0,1.0,33.2,33.4,33.4,2.5,3.8,2.6975,0.44167716069326246,-0.02787074174611085,0.8791033242687966,0.0014808727733264986,-0.141689,-31.084786
11.185,2.0,1.0,1.0,33.2,33.4,33.4,2.5,3.8,2.7,0.43250315383213134,-0.0284368622472915,0.8833333765244349,0.0012040625755025533,-0.144223,-30.914587
11.185,2.0,1.0,1.0,33.2,33.4,33.4,2.5,3.8,2.7025,0.42320509295979875,-0.0290156913747473,0.8874985293252897,0.0009132195656663615,-0.14683,-30.743042
11.185,2.0,1.0,1.0,33.2,33.4,33.4,2.5,3.8,2.705,0.4137813359571727,-0.02960756172014597,0.8915962196305521,0.0006076722432078415,-0.149515,-30.570118
11.185,2.0,1.0,1.0,33.2,33.4,33.4,2.5,3.8,2.7075,0.40423022163814604,-0.03021281490469219,0.895623785425856,0.00028671247596375837,-0.152279,-30.395785
11.185,2.0,1.0,1.0,33.2,33.4,33.4,2.5,3.8,2.71,0.39455007013198773,-0.030831801714628976,0.8995784612847657,-5.0406826453612995e-05,-0.155127,-30.22001
11.185,2.0,1.0,1.0,33.2,33.4,33.4,2.5,3.8,2.7125,0.3847391833318935,-0.03146488221884935,0.9034573736848618,-0.00040447421056802915,-0.158061,-30.04276
11.185,2.0,1.0,1.0,33.2,33.4,33.4,2.5,3.8,2.715,0.37479584541654154,-0.03211242586485863,0.9072575360612343,-0.0007763223626128682,-0.161085,-29.864
11.185,2.0,1.0,1.0,33.2,33.4,33.4,2.5,3.8,2.7175,0.3647183234522322,-0.032774811548752426,0.9109758435787068,-0.0011668309935593526,-0.164204,-29.683695
11.185,2.0,1.0,1.0,33.2,33.4,33.4,2.5,3.8,2.72,0.3545048680840928,-0.03345242765420507,0.9146090676024725,-0.0015769299429023872,-0.167421,-29.501807
11.185,2.0,1.0,1.0,33.2,33.4,33.4,2.5,3.8,2.7225,0.3441537143257594,-0.03414567205469996,0.9181538498450333,-0.0020076025201820305,-0.170741,-29.3183
11.185,2.0,1.0,1.0,33.2,33.4,33.4,2.5,3.8,2.725,0.3336630824581148,-0.034854952072342724,0.9216066961653094,-0.0024598891050681576,-0.174168,-29.133132
11.185,2.0,1.0,1.0,33.2,33.4,33.4,2.5,3.8,2.7275,0.32303117904885575,-0.035580684385587646,0.9249639699936215,-0.002934891028889792,-0.177706,-28.946265
11.185,2.0,1.0,1.0,33.2,33.4,33.4,2.5,3.8,2.73,0.3122561981061589,-0.03632329487702155,0.928221885353776,-0.003433774762762683,-0.181362,-28.757656
11.185,2.0,1.0,1.0,33.2,33.4,33.4,2.5,3.8,2.7325,0.30133632238129343,-0.03708321841100043,0.9313764994508191,-0.003957776439995267,-0.18514,-28.567262
11.185,2.0,1.0,1.0,33.2,33.4,33.4,2.5,3.8,2.735,0.2902697248369353,-0.03786089852935874,0.9344237047900145,-0.004508206743253335,-0.189047,-28.375038
11.185,2.0,1.0,1.0,33.2,33.4,33.4,2.5,3.8,2.7375,0.27905457030003605,-0.03865678705159722,0.9373592207893053,-0.005086456190081817,-0.193088,-28.180938
11.185,2.0,1.0,1.0,33.2,33.4,33.4,2.5,3.8,2.74,0.26768901732056927,-0.03947134356385413,0.9401785848438368,-0.005694000853843656,-0.19727,-27.984913
11.185,2.0,1.0,1.0,33.2,33.4,33.4,2.5,3.8,2.7425,0.25617122026025413,-0.04030503477852532,0.9428771427970344,-0.006332408560995989,-0.201599,-27.786914
11.185,2.0,1.0,1.0,33.2,33.4,33.4,2.5,3.8,2.745,0.24449933163859788,-0.04115833374357331,0.9454500387682004,-0.007003345609916414,-0.206084,-27.586888
11.185,2.0,1.0,1.0,33.2,33.4,33.4,2.5,3.8,2.7475,0.23267150476729825,-0.04203171887727787,0.9478922042815267,-0.00770858406128352,-0.210732,-27.384784
11.185,2.0,1.0,1.0,33.2,33.4,33.4,2.5,3.8,2.75,0.220685896708334,-0.0429256728003638,0.950198346635814,-0.00845000965535607,-0.215551,-27.180544
11.185,2.0,1.0,1.0,33.2,33.4,33.4,2.5,3.8,2.7525,0.20854067159600775,-0.04384068093299039,0.9523629364479117,-0.00922963041745854,-0.22055,-26.974112
11.185,2.0,1.0,1.0,33.2,33.4,33.4,2.5,3.8,2.755,0.196234004368967,-0.04477722981890208,0.954380194295901,-0.010049586019638542,-0.225739,-26.765428
11.185,2.0,1.0,1.0,33.2,33.4,33.4,2.5,3.8,2.7575,0.18376408496480814,-0.045735805132988035,0.9562440763802589,-0.010912157973906213,-0.231129,-26.554429
11.185,2.0,1.0,1.0,33.2,33.4,33.4,2.5,3.8,2.76,0.1711291230376771,-0.046716889321420485,0.9579482591125206,-0.011819780740781452,-0.236729,-26.341051
11.185,2.0,1.0,1.0,33.2,33.4,33.4,2.5,3.8,2.7625,0.15832735326818664,-0.04772095881525962,0.9594861225312455,-0.012775053846185148,-0.242553,-26.125226
11.185,2.0,1.0,1.0,33.2,33.4,33.4,2.5,3.8,2.765,0.14535704134551028,-0.04874848074870726,0.9608507324342197,-0.013780755110119286,-0.248611,-25.906886
11.185,2.0,1.0,1.0,33.2,33.4,33.4,2.5,3.8,2.7675,0.1322164907137358,-0.049799909101793736,0.9620348211036852,-0.014839855102235245,-0.254919,-25.685957
11.185,2.0,1.0,1.0,33.2,33.4,33.4,2.5,3.8,2.77,0.1189040501888939,-0.05087568017388803,0.9630307664878178,-0.015955532952432447,-0.26149,-25.462363
11.185,2.0,1.0,1.0,33.2,33.4,33.4,2.5,3.8,2.7725,0.10541812256990618,-0.05197620727864926,0.9638305696864952,-0.017131193659224997,-0.268341,-25.236026
11.185,2.0,1.0,1.0,33.2,33.4,33.4,2.5,3.8,2.775,0.09175717438643957,-0.05310187453243509,0.964425830572433,-0.018370487054949262,-0.275488,-25.006864
11.185,2.0,1.0,1.0,33.2,33.4,33.4,2.5,3.8,2.7775,0.07791974694991526,-0.05425302958621766,0.9648077213598389,-0.019677328605153865,-0.28295,-24.77479
11.185,2.0,1.0,1.0,33.2,33.4,33.4,2.5,3.8,2.78,0.0639044689013218,-0.05542997512506379,0.9649669579115631,-0.021055922239935288,-0.290746,-24.539716
11.185,2.0,1.0,1.0,33.2,33.4,33.4,2.5,3.8,2.7825,0.04971007048194528,-0.05663295892843229,0.9648937685521484,-0.022510785437780175,-0.298898,-24.301549
11.185,2.0,1.0,1.0,33.2,33.4,33.4,2.5,3.8,2.785,0.035335399791408026,-0.057862162247978646,0.9645778601279077,-0.024046776807909582,-0.30743,-24.06019
11.185,2.0,1.0,1.0,33.2,33.4,33.4,2.5,3.8,2.7875,0.020779441343016975,-0.059117686216068055,0.9640083810259488,-0.025669126445410903,-0.316366,-23.815539
11.185,2.0,1.0,1.0,33.2,33.4,33.4,2.5,3.8,2.79,0.006041337280436917,-0.06039953594639369,0.9631738808316789,-0.027383469364877486,-0.325735,-23.567489
11.185,2.0,1.0,1.0,33.2,33.4,33.4,2.5,3.8,2.7925,-0.008879588315798203,-0.06170760192626321,0.962062266268526,-0.02919588235304749,-0.335566,-23.315929
11.185,2.0,1.0,1.0,33.2,33.4,33.4,2.5,3.8,2.795,-0.023983801526633743,-0.06304163822619402,0.9606607530241958,-0.031112924619282972,-0.345893,-23.060742
11.185,2.0,1.0,1.0,33.2,33.4,33.4,2.5,3.8,2.7975,-0.03927152650037085,-0.06440123696389427,0.9589558130246599,-0.03314168266475466,-0.356751,-22.801808
11.185,2.0,1.0,1.0,33.2,33.4,33.4,2.5,3.8,2.8,-0.05474270845874262,-0.06578579835342832,0.9569331166701452,-0.035289819836979396,-0.368179,-22.538998
11.185,2.0,1.0,1.0,33.2,33.4,33.4,2.5,3.8,2.8025,-0.07039697096360628,-0.06719449554258602,0.9545774694969219,-0.03756563108572503,-0.380221,-22.272181
11.185,2.0,1.0,1.0,33.2,33.4,33.4,2.5,3.8,2.805,-0.08623356644570908,-0.06862623328754469,0.9518727426749768,-0.03997810348891055,-0.392924,-22.001215
11.185,2.0,1.0,1.0,33.2,33.4,33.4,2.5,3.8,2.8075,-0.10225131880544505,-0.07007959932816119,0.9488017966955591,-0.04253698317224548,-0.406341,-21.725955
11.185,2.0,1.0,1.0,33.2,33.4,33.4,2.5,3.8,2.81,-0.11844855666423144,-0.07155280710265838,0.9453463975453913,-0.045252849302709425,-0.420529,-21.446248
11.185,2.0,1.0,1.0,33.2,33.4,33.4,2.5,3.8,2.8125,-0.134823035565385,-0.0730436281684861,0.94148712460821,-0.0481371958915463,-0.435553,-21.161932
11.185,2.0,1.0,1.0,33.2,33.4,33.4,2.5,3.8,2.815,-0.15137184708449156,-0.07454931236617682,0.9372032694824184,-0.05120252219416169,-0.451483,-20.87284
11.185,2.0,1.0,1.0,33.2,33.4,33.4,2.5,3.8,2.8175,-0.16809131239789982,-0.07606649336207318,0.932472724860836,-0.054462432537505864,-0.468397,-20.578794
11.185,2.0,1.0,1.0,33.2,33.4,33.4,2.5,3.8,2.82,-0.1849768573579851,-0.07759107671787786,0.9272718625918857,-0.05793174643344261,-0.486384,-20.27961
11.185,2.0,1.0,1.0,33.2,33.4,33.4,2.5,3.8,2.8225,-0.20202286551527504,-0.07911810704041078,0.9215754000411247,-0.061626619839418875,-0.505541,-19.975093
11.185,2.0,1.0,1.0,33.2,33.4,33.4,2.5,3.8,2.825,-0.21922250478595737,-0.08064161003962834,0.9153562539123875,-0.06556467839142176,-0.525979,-19.66504
11.185,2.0,1.0,1.0,33.2,33.4,33.4,2.5,3.8,2.8275,-0.23656752255885302,-0.08215440443732559,0.9085853807894663,-0.06976516333876821,-0.547818,-19.349238
