1,w,sub_t,h,l1,l2,l3,g1,g2,Freq,S11_re,S21_re,S11_img,S21_img,S11_dB,S21_dB
11.185,2.0,1.0,1.0,33.3,33.3,33.3,4.2,3.1,2.5,0.871503525866517,-0.00467469804384829,0.478984172960456,0.003521652693954,-0.048282,-44.652781
11.185,2.0,1.0,1.0,33.3,33.3,33.3,4.2,3.1,2.5025,0.868416488996942,-0.004763940932391766,0.48446617688707827,0.003532303012842664,-0.048675,-44.537993
11.185,2.0,1.0,1.0,33.3,33.3,33.3,4.2,3.1,2.505,0.865282777197903,-0.004854574824832298,0.48994842002523775,0.0035424083608029612,-0.049075,-44.423057
11.185,2.0,1.0,1.0,33.3,33.3,33.3,4.2,3.1,2.5075,0.8621019701410392,-0.004946622791716281,0.4954307115391613,0.0035519498318496577,-0.04948,-44.307967
11.185,2.0,1.0,1.0,33.3,33.3,33.3,4.2,3.1,2.51,0.8588736412245017,-0.005040108382461402,0.5009128551377429,0.0035609079245790985,-0.049892,-44.192716
11.185,2.0,1.0,1.0,33.3,33.3,33.3,4.2,3.1,2.5125,0.8555973574833791,-0.005135055637101888,0.5063946489047043,0.0035692625212429235,-0.050311,-44.077296
11.185,2.0,1.0,1.0,33.3,33.3,33.3,4.2,3.1,2.515,0.8522726794993333,-0.005231489098364099,0.5118758851235922,0.0035769928659991706,-0.050736,-43.9617
11.185,2.0,1.0,1.0,33.3,33.3,33.3,4.2,3.1,2.5175,0.8488991613094893,-0.005329433824082898,0.5173563500974304,0.003584077542304389,-0.051168,-43.845921
11.185,2.0,1.0,1.0,33.3,33.3,33.3,4.2,3.1,2.52,0.8454763503145857,-0.005428915399970797,0.52283582396288,0.003590494449408592,-0.051606,-43.729951
11.185,2.0,1.0,1.0,33.3,33.3,33.3,4.2,3.1,2.5225,0.8420037871864317,-0.005529959952750596,0.5283140804987005,0.0035962207779128507,-0.052052,-43.613784
11.185,2.0,1.0,1.0,33.3,33.3,33.3,4.2,3.1,2.525,0.8384810057746898,-0.005632594163664292,0.5337908869283582,0.0036012329843470975,-0.052505,-43.497411
11.185,2.0,1.0,1.0,33.3,33.3,33.3,4.2,3.1,2.5275,0.8349075330130215,-0.005736845282370605,0.5392660037165793,0.00360550676472423,-0.052965,-43.380826
11.185,2.0,1.0,1.0,33.3,33.3,33.3,4.2,3.1,2.53,0.8312828888246384,-0.005842741141243989,0.5447391843596545,0.0036090170270234364,-0.053433,-43.26402
11.185,2.0,1.0,1.0,33.3,33.3,33.3,4.2,3.1,2.5325,0.8276065860272891,-0.005950310170089059,0.5502101751692935,0.0036117378625539222,-0.053908,-43.146987
11.185,2.0,1.0,1.0,33.3,33.3,33.3,4.2,3.1,2.535,0.8238781302377314,-0.006059581411284288,0.5556787150498291,0.003613642516147319,-0.054391,-43.029718
11.185,2.0,1.0,1.0,33.3,33.3,33.3,4.2,3.1,2.5375,0.8200970197757359,-0.006170584535369775,0.5611445352685397,0.0036147033551245287,-0.054883,-42.912206
11.185,2.0,1.0,1.0,33.3,33.3,33.3,4.2,3.1,2.54,0.8162627455676682,-0.006283349857094326,0.5666073592188826,0.0036148918369797436,-0.055382,-42.794444
11.185,2.0,1.0,1.0,33.3,33.3,33.3,4.2,3.1,2.5425,0.812374791049704,-0.006397908351937783,0.5720669021764,0.0036141784757214297,-0.05589,-42.676423
11.185,2.0,1.0,1.0,33.3,33.3,33.3,4.2,3.1,2.545,0.8084326320707351,-0.00651429167312517,0.5775228710470646,0.003612532806806847,-0.056406,-42.558135
11.185,2.0,1.0,1.0,33.3,33.3,33.3,4.2,3.1,2.5475,0.804435736795031,-0.006632532169149761,0.5829749641078038,0.0036099233506031564,-0.056931,-42.439573
11.185,2.0,1.0,1.0,33.3,33.3,33.3,4.2,3.1,2.55,0.8003835656047132,-0.006752662901823241,0.5884228707389735,0.003606317574304682,-0.057465,-42.320729
11.185,2.0,1.0,1.0,33.3,33.3,33.3,4.2,3.1,2.5525,0.7962755710021263,-0.006874717664871522,0.5938662711484844,0.003601681852231999,-0.058008,-42.201593
11.185,2.0,1.0,1.0,33.3,33.3,33.3,4.2,3.1,2.555,0.7921111975121702,-0.006998731003095597,0.599304836087334,0.0035959814244341673,-0.058561,-42.082159
11.185,2.0,1.0,1.0,33.3,33.3,33.3,4.2,3.1,2.5575,0.7878898815846742,-0.0071247382321180655,0.6047382265562492,0.003589180353511601,-0.059122,-41.962418
11.185,2.0,1.0,1.0,33.3,33.3,33.3,4.2,3.1,2.56,0.7836110514969097,-0.007252775458736181,0.610166093503146,0.0035812414795719726,-0.059694,-41.842361
11.185,2.0,1.0,1.0,33.3,33.3,33.3,4.2,3.1,2.5625,0.7792741272563201,-0.007382879601903613,0.6155880775111031,0.003572126373226747,-0.060276,-41.72198
11.185,2.0,1.0,1.0,33.3,33.3,33.3,4.2,3.1,2.565,0.7748785205035704,-0.0075150884143641425,0.6210038084765402,0.0035617952865310055,-0.060868,-41.601266
11.185,2.0,1.0,1.0,33.3,33.3,33.3,4.2,3.1,2.5675,0.7704236344160262,-0.007649440504960979,0.6264129052772646,0.003550207101762966,-0.06147,-41.48021
11.185,2.0,1.0,1.0,33.3,33.3,33.3,4.2,3.1,2.57,0.7659088636117606,-0.007785975361647041,0.631814975430055,0.0035373192779346477,-0.062083,-41.358804
11.185,2.0,1.0,1.0,33.3,33.3,33.3,4.2,3.1,2.5725,0.7613335940542131,-0.007924733375222322,0.6372096147374336,0.0035230877949177673,-0.062707,-41.237039
11.185,2.0,1.0,1.0,33.3,33.3,33.3,4.2,3.1,2.575,0.7566972029576253,-0.008065755863825706,0.64259640692326,0.0035074670950629412,-0.063342,-41.114906
11.185,2.0,1.0,1.0,33.3,33.3,33.3,4.2,3.1,2.5775,0.7519990586933801,-0.008209085098209693,0.6479749232567698,0.0034904100221827632,-0.063989,-40.992395
11.185,2.0,1.0,1.0,33.3,33.3,33.3,4.2,3.1,2.58,0.7472385206973908,-0.008354764327827854,0.6533447221646681,0.0034718677577617193,-0.064647,-40.869497
11.185,2.0,1.0,1.0,33.3,33.3,33.3,4.2,3.1,2.5825,0.7424149393786798,-0.008502837807766532,0.6587053488308778,0.003451789754247711,-0.065317,-40.746203
11.185,2.0,1.0,1.0,33.3,33.3,33.3,4.2,3.1,2.585,0.7375276560293121,-0.008653350826552731,0.6640563347835128,0.003430123665271113,-0.066,-40.622503
11.185,2.0,1.0,1.0,33.3,33.3,33.3,4.2,3.1,2.5875,0.7325760027358411,-0.008806349734872897,0.6693971974686518,0.0034068152726279247,-0.066695,-40.498388
11.185,2.0,1.0,1.0,33.3,33.3,33.3,4.2,3.1,2.59,0.7275593022924511,-0.008961881975237807,0.6747274398104489,0.003381808409853955,-0.067403,-40.373847
11.185,2.0,1.0,1.0,33.3,33.3,33.3,4.2,3.1,2.5925,0.7224768681159696,-0.00911999611263095,0.6800465497571201,0.0033550448822054274,-0.068125,-40.24887
11.185,2.0,1.0,1.0,33.3,33.3,33.3,4.2,3.1,2.595,0.7173280041629634,-0.009280741866179231,0.6853539998123058,0.0033264643828508802,-0.068859,-40.123447
11.185,2.0,1.0,1.0,33.3,33.3,33.3,4.2,3.1,2.5975,0.712112004849106,-0.009444170141886964,0.6906492465513173,0.0032960044050661416,-0.069608,-39.997569
11.185,2.0,1.0,1.0,33.3,33.3,33.3,4.2,3.1,2.6,0.7068281549710459,-0.009610333066475678,0.6959317301217265,0.0032636001502116055,-0.070371,-39.871224
11.185,2.0,1.0,1.0,33.3,33.3,33.3,4.2,3.1,2.6025,0.7014757296310101,-0.009779284022374147,0.7012008737277553,0.003229184431256333,-0.071149,-39.744401
11.185,2.0,1.0,1.0,33.3,33.3,33.3,4.2,3.1,2.605,0.6960539941643731,-0.009951077683906025,0.7064560830978954,0.0031926875715989817,-0.071941,-39.61709
11.185,2.0,1.0,1.0,33.3,33.3,33.3,4.2,3.1,2.6075,0.6905622040704594,-0.010125770054723076,0.7116967459351626,0.0031540372989185394,-0.072749,-39.489279
11.185,2.0,1.0,1.0,33.3,33.3,33.3,4.2,3.1,2.61,0.6849996049468505,-0.010303418506535877,0.7169222313493655,0.0031131586337710708,-0.073573,-39.360958
11.185,2.0,1.0,1.0,33.3,33.3,33.3,4.2,3.1,2.6125,0.6793654324274722,-0.010484081819195317,0.7221318892707476,0.0030699737726294003,-0.074412,-39.232114
11.185,2.0,1.0,1.0,33.3,33.3,33.3,4.2,3.1,2.615,0.6736589121247698,-0.010667820222181101,0.727325049844333,0.0030244019650425336,-0.075269,-39.102736
11.185,2.0,1.0,1.0,33.3,33.3,33.3,4.2,3.1,2.6175,0.66787925957629,-0.010854695437556018,0.7325010228042697,0.00297635938457007,-0.076142,-38.972812
11.185,2.0,1.0,1.0,33.3,33.3,33.3,4.2,3.1,2.62,0.6620256801959974,-0.011044770724447239,0.7376590968274439,0.0029257589931229585,-0.077033,-38.84233
11.185,2.0,1.0,1.0,33.3,33.3,33.3,4.2,3.1,2.6225,0.6560973692306735,-0.011238110925119602,0.7427985388656078,0.0028725103983172733,-0.077941,-38.711277
11.185,2.0,1.0,1.0,33.3,33.3,33.3,4.2,3.1,2.625,0.650093511721783,-0.0114347825127076,0.747918593455211,0.00281651970341972,-0.078868,-38.579641
11.185,2.0,1.0,1.0,33.3,33.3,33.3,4.2,3.1,2.6275,0.6440132824731754,-0.011634853640677316,0.753018482004121,0.0027576893494349842,-0.079814,-38.447409
11.185,2.0,1.0,1.0,33.3,33.3,33.3,4.2,3.1,2.63,0.637855846025043,-0.01183839419409188,0.75809740205435,0.0026959179488524453,-0.080779,-38.314567
11.185,2.0,1.0,1.0,33.3,33.3,33.3,4.2,3.1,2.6325,0.6316203566345584,-0.01204547584275765,0.7631545265198804,0.0026311001105360308,-0.081765,-38.181102
11.185,2.0,1.0,1.0,33.3,33.3,33.3,4.2,3.1,2.635,0.6253059582636478,-0.01225617209633217,0.768189002898641,0.002563126255203685,-0.08277,-38.047
11.185,2.0,1.0,1.0,33.3,33.3,33.3,4.2,3.1,2.6375,0.6189117845743722,-0.012470558361478255,0.7731999524576206,0.0024918824209027956,-0.083797,-37.912247
11.185,2.0,1.0,1.0,33.3,33.3,33.3,4.2,3.1,2.64,0.6124369589324061,-0.012688712001152883,0.7781864693900877,0.0024172500578442564,-0.084845,-37.776829
11.185,2.0,1.0,1.0,33.3,33.3,33.3,4.2,3.1,2.6425,0.6058805944191499,-0.012910712396122818,0.7831476199438028,0.0023391058119108647,-0.085916,-37.64073
11.185,2.0,1.0,1.0,33.3,33.3,33.3,4.2,3.1,2.645,0.5992417938530139,-0.013136641008803513,0.7880824415190689,0.0022573212961047853,-0.08701,-37.503936
11.185,2.0,1.0,1.0,33.3,33.3,33.3,4.2,3.1,2.6475,0.5925196498204596,-0.013366581449521913,0.7929899417354059,0.0021717628491429754,-0.088127,-37.366432
11.185,2.0,1.0,1.0,33.3,33.3,33.3,4.2,3.1,2.65,0.5857132447173848,-0.013600619545308125,0.7978690974655709,0.002082291280349461,-0.089268,-37.2282
11.185,2.0,1.0,1.0,33.3,33.3,33.3,4.2,3.1,2.6525,0.5788216508015179,-0.013838843411324266,0.8027188538355586,0.001988761599927791,-0.090434,-37.089226
11.185,2.0,1.0,1.0,33.3,33.3,33.3,4.2,3.1,2.655,0.5718439302564525,-0.014081343525045222,0.8075381231891811,0.0018910227336258161,-0.091626,-36.949493
11.185,2.0,1.0,1.0,33.3,33.3,33.3,4.2,3.1,2.6575,0.5647791352680465,-0.014328212803308323,0.8123257840157015,0.001788917220727414,-0.092845,-36.808983
11.185,2.0,1.0,1.0,33.3,33.3,33.3,4.2,3.1,2.66,0.5576263081139018,-0.014579546682354777,0.8170806798389456,0.0016822808942207185,-0.09409,-36.667679
11.185,2.0,1.0,1.0,33.3,33.3,33.3,4.2,3.1,2.6625,0.5503844812667099,-0.01483544320098894,0.8218016180661936,0.0015709425419016998,-0.095364,-36.525563
11.185,2.0,1.0,1.0,33.3,33.3,33.3,4.2,3.1,2.665,0.5430526775122467,-0.015096003086987183,0.826487368795086,0.0014547235470694243,-0.096667,-36.382617
11.185,2.0,1.0,1.0,33.3,33.3,33.3,4.2,3.1,2.6675,0.5356299100828879,-0.015361329846889987,0.8311366635766281,0.0013334375073612568,-0.097999,-36.238822
11.185,2.0,1.0,1.0,33.3,33.3,33.3,4.2,3.1,2.67,0.5281151828075112,-0.01563152985931704,0.8357481941322933,0.0012068898301553685,-0.099362,-36.094158
11.185,2.0,1.0,1.0,33.3,33.3,33.3,4.2,3.1,2.6725,0.5205074902787261,-0.015906712471946558,0.8403206110230875,0.0010748773028364132,-0.100758,-35.948606
11.185,2.0,1.0,1.0,33.3,33.3,33.3,4.2,3.1,2.675,0.5128058180384051,-0.01618699010230368,0.8448525222682763,0.0009371876360770889,-0.102185,-35.802144
11.185,2.0,1.0,1.0,33.3,33.3,33.3,4.2,3.1,2.6775,0.5050091427825422,-0.016472478342505533,0.8493424919113527,0.0007935989781301193,-0.103647,-35.654753
11.185,2.0,1.0,1.0,33.3,33.3,33.3,4.2,3.1,2.68,0.49711643258651,-0.016763296068110643,0.853789038530641,0.0006438793979523506,-0.105144,-35.506409
11.185,2.0,1.0,1.0,33.3,33.3,33.3,4.2,3.1,2.6825,0.48912664715185344,-0.01705956555122231,0.8581906336917442,0.0004877863347931636,-0.106677,-35.357091
11.185,2.0,1.0,1.0,33.3,33.3,33.3,4.2,3.1,2.685,0.4810387380757962,-0.017361412577993167,0.8625457003388577,0.0003250660116700144,-0.108247,-35.206777
11.185,2.0,1.0,1.0,33.3,33.3,33.3,4.2,3.1,2.6875,0.47285164914471145,-0.01766896657067725,0.8668526111217393,0.00015545280992493876,-0.109855,-35.055441
11.185,2.0,1.0,1.0,33.3,33.3,33.3,4.2,3.1,2.69,0.464564316652875,-0.01798236071436976,0.8711096866548864,-2.1331398197074184e-05,-0.111504,-34.90306
11.185,2.0,1.0,1.0,33.3,33.3,33.3,4.2,3.1,2.6925,0.45617566974786306,-0.018301732088570187,0.8753151937052156,-0.0002055779622859363,-0.113194,-34.749608
11.185,2.0,1.0,1.0,33.3,33.3,33.3,4.2,3.1,2.695,0.44768463080407706,-0.018627221803692032,0.8794673433042283,-0.00039759221546564044,-0.114926,-34.59506
11.185,2.0,1.0,1.0,33.3,33.3,33.3,4.2,3.1,2.6975,0.4390901158258927,-0.01895897514263274,0.883564288780345,-0.0005976942890398994,-0.116703,-34.439389
11.185,2.0,1.0,1.0,33.3,33.3,33.3,4.2,3.1,2.7,0.4303910348820873,-0.019297141707497557,0.8876041237067164,-0.0008062199844442919,-0.118526,-34.282566
11.185,2.0,1.0,1.0,33.3,33.3,33.3,4.2,3.1,2.7025,0.421586292573227,-0.01964187557154997,0.8915848797594361,-0.001023521707281301,-0.120396,-34.124564
11.185,2.0,1.0,1.0,33.3,33.3,33.3,4.2,3.1,2.705,0.4126747885338441,-0.01999333543643409,0.8955045244806316,-0.0012499694686742772,-0.122315,-33.965353
11.185,2.0,1.0,1.0,33.3,33.3,33.3,4.2,3.1,2.7075,0.40365541797131227,-0.02035168479467775,0.8993609589404398,-0.0014859519596875858,-0.124285,-33.804902
11.185,2.0,1.0,1.0,33.3,33.3,33.3,4.2,3.1,2.71,0.39452707224346956,-0.020717092097442175,0.903152015291313,-0.0017318777051270585,-0.126309,-33.643179
11.185,2.0,1.0,1.0,33.3,33.3,33.3,4.2,3.1,2.7125,0.385288639477151,-0.02108973092743023,0.9068754542075255,-0.0019881763036657583,-0.128387,-33.480153
11.185,2.0,1.0,1.0,33.3,33.3,33.3,4.2,3.1,2.715,0.37593900522995394,-0.021469780176798535,0.9105289622020561,-0.0022552997619411813,-0.130523,-33.315788
11.185,2.0,1.0,1.0,33.3,33.3,33.3,4.2,3.1,2.7175,0.36647705319771456,-0.021857424229838832,0.9141101488122974,-0.002533723931052235,-0.132718,-33.15005
11.185,2.0,1.0,1.0,33.3,33.3,33.3,4.2,3.1,2.72,0.35690166597036077,-0.022252853150094648,0.9176165436451892,-0.0028239500547568223,-0.134975,-32.982903
11.185,2.0,1.0,1.0,33.3,33.3,33.3,4.2,3.1,2.7225,0.3472117258389912,-0.02265626287146258,0.9210455932714573,-0.0031265064396451174,-0.137296,-32.814308
11.185,2.0,1.0,1.0,33.3,33.3,33.3,4.2,3.1,2.725,0.33740611565730183,-0.02306785539268182,0.9243946579575725,-0.003441950258652484,-0.139684,-32.644227
11.185,2.0,1.0,1.0,33.3,33.3,33.3,4.2,3.1,2.7275,0.3274837197606785,-0.023487838974444675,0.9276610082228911,-0.0037708695004984418,-0.142141,-32.472618
11.185,2.0,1.0,1.0,33.3,33.3,33.3,4.2,3.1,2.73,0.3174434249466417,-0.023916428338151496,0.9308418212080964,-0.004113885079003212,-0.144672,-32.29944
11.185,2.0,1.0,1.0,33.3,33.3,33.3,4.2,3.1,2.7325,0.30728412152060536,-0.024353844865083667,0.933934176839596,-0.004471653117772919,-0.147278,-32.124648
11.185,2.0,1.0,1.0,33.3,33.3,33.3,4.2,3.1,2.735,0.2970047044113508,-0.024800316794469437,0.9369350537728364,-0.0048448674274681885,-0.149963,-31.948197
11.185,2.0,1.0,1.0,33.3,33.3,33.3,4.2,3.1,2.7375,0.28660407436103263,-0.025256079418555295,0.9398413250956237,-0.005234262194818402,-0.152731,-31.77004
11.185,2.0,1.0,1.0,33.3,33.3,33.3,4.2,3.1,2.74,0.27608113919508165,-0.025721375272366027,0.9426497537703895,-0.005640614904732597,-0.155585,-31.590126
11.185,2.0,1.0,1.0,33.3,33.3,33.3,4.2,3.1,2.7425,0.26543481517795775,-0.02619645431531864,0.9453569877919383,-0.006064749519335458,-0.158529,-31.408404
11.185,2.0,1.0,1.0,33.3,33.3,33.3,4.2,3.1,2.745,0.25466402846142633,-0.02668157410123421,0.9479595550344616,-0.006507539940552732,-0.161568,-31.224821
11.185,2.0,1.0,1.0,33.3,33.3,33.3,4.2,3.1,2.7475,0.24376771663287006,-0.0271769999325507,0.9504538577585061,-0.0069699137860390935,-0.164706,-31.03932
11.185,2.0,1.0,1.0,33.3,33.3,33.3,4.2,3.1,2.75,0.232744830372108,-0.0276830049936455,0.952836166745041,-0.00745285651183459,-0.167947,-30.851843
11.185,2.0,1.0,1.0,33.3,33.3,33.3,4.2,3.1,2.7525,0.221594335226373,-0.028199870457110306,0.955102615019755,-0.007957415919215043,-0.171297,-30.662328
11.185,2.0,1.0,1.0,33.3,33.3,33.3,4.2,3.1,2.755,0.2103152135144591,-0.028727885555533694,0.9572491911261178,-0.008484707087844537,-0.174762,-30.470712
11.185,2.0,1.0,1.0,33.3,33.3,33.3,4.2,3.1,2.7575,0.19890646637265064,-0.029267347609807225,0.9592717319005174,-0.009035917782627086,-0.178346,-30.276928
11.185,2.0,1.0,1.0,33.3,33.3,33.3,4.2,3.1,2.76,0.18736711595703084,-0.029818562003114453,0.9611659146967759,-0.009612314387689233,-0.182057,-30.080906
11.185,2.0,1.0,1.0,33.3,33.3,33.3,4.2,3.1,2.7625,0.17569620781901654,-0.030381842087529375,0.9629272490005059,-0.010215248427827164,-0.1859,-29.882572
11.185,2.0,1.0,1.0,33.3,33.3,33.3,4.2,3.1,2.765,0.1638928134737727,-0.03095750900746047,0.9645510673658801,-0.010846163745652579,-0.189884,-29.681851
11.185,2.0,1.0,1.0,33.3,33.3,33.3,4.2,3.1,2.7675,0.15195603318445872,-0.03154589142092745,0.9660325155983431,-0.011506604411735314,-0.194015,-29.47866
11.185,2.0,1.0,1.0,33.3,33.3,33.3,4.2,3.1,2.77,0.13988499898922613,-0.03214732509573597,0.9673665420963858,-0.012198223455458011,-0.198303,-29.272917
11.185,2.0,1.0,1.0,33.3,33.3,33.3,4.2,3.1,2.7725,0.12767887800272806,-0.0327621523528611,0.9685478862534783,-0.012922792516286849,-0.202755,-29.064532
11.185,2.0,1.0,1.0,33.3,33.3,33.3,4.2,3.1,2.775,0.11533687602967661,-0.033390721323595475,0.969571065807386,-0.01368221252899241,-0.207382,-28.853412
11.185,2.0,1.0,1.0,33.3,33.3,33.3,4.2,3.1,2.7775,0.10285824153504734,-0.03403338498002024,0.9704303630080435,-0.014478525572332512,-0.212194,-28.63946
11.185,2.0,1.0,1.0,33.3,33.3,33.3,4.2,3.1,2.78,0.09024227002404414,-0.034690499889848375,0.9711198094565268,-0.015313928029205528,-0.217202,-28.422571
11.185,2.0,1.0,1.0,33.3,33.3,33.3,4.2,3.1,2.7825,0.0774883088954014,-0.03536242463630874,0.9716331694460619,-0.016190785227733255,-0.222419,-28.202637
11.185,2.0,1.0,1.0,33.3,33.3,33.3,4.2,3.1,2.785,0.06459576284422357,-0.0360495178310658,0.9719639216108461,-0.017111647757662638,-0.227857,-27.979543
11.185,2.0,1.0,1.0,33.3,33.3,33.3,4.2,3.1,2.7875,0.051564099906198445,-0.03675213563263364,0.9721052386591282,-0.018079269685494358,-0.233532,-27.753169
11.185,2.0,1.0,1.0,33.3,33.3,33.3,4.2,3.1,2.79,0.03839285825402355,-0.037470628663689894,0.9720499649327606,-0.019096628925604996,-0.239459,-27.523386
11.185,2.0,1.0,1.0,33.3,33.3,33.3,4.2,3.1,2.7925,0.02508165388042217,-0.03820533819723226,0.971790591495361,-0.020166950064194736,-0.245654,-27.29006
11.185,2.0,1.0,1.0,33.3,33.3,33.3,4.2,3.1,2.795,0.011630189331025656,-0.038956591452585954,0.9713192284042494,-0.021293729979235634,-0.252138,-27.053048
11.185,2.0,1.0,1.0,33.3,33.3,33.3,4.2,3.1,2.7975,-0.001961736313677181,-0.039724695806459875,0.970627573766187,-0.02248076665395601,-0.25893,-26.812198
11.185,2.0,1.0,1.0,33.3,33.3,33.3,4.2,3.1,2.8,-0.0156942159637287,-0.040509931679831364,0.969706879112007,-0.023732191645315343,-0.266053,-26.567349
11.185,2.0,1.0,1.0,33.3,33.3,33.3,4.2,3.1,2.8025,-0.029567221253399476,-0.04131254380614937,0.9685479105487834,-0.025052506744183772,-0.273532,-26.318332
11.185,2.0,1.0,1.0,33.3,33.3,33.3,4.2,3.1,2.805,-0.04358058711500414,-0.04213273051733765,0.9671409050578248,-0.026446625452737123,-0.281395,-26.064966
11.185,2.0,1.0,1.0,33.3,33.3,33.3,4.2,3.1,2.8075,-0.05773399373800581,-0.04297063059763699,0.9654755211999957,-0.027919920009513242,-0.289673,-25.807058
11.185,2.0,1.0,1.0,33.3,33.3,33.3,4.2,3.1,2.81,-0.07202694534959882,-0.0438263071467053,0.9635407833633498,-0.029478274816769845,-0.298398,-25.544403
11.185,2.0,1.0,1.0,33.3,33.3,33.3,4.2,3.1,2.8125,-0.0864587451154311,-0.0446997277563961,0.96132501853801,-0.0311281472719739,-0.307608,-25.276785
11.185,2.0,1.0,1.0,33.3,33.3,33.3,4.2,3.1,2.815,-0.10102846528502099,-0.04559074013222647,0.9588157844250714,-0.03287663717990748,-0.317345,-25.003969
11.185,2.0,1.0,1.0,33.3,33.3,33.3,4.2,3.1,2.8175,-0.11573491148496902,-0.046499042070195354,0.955999787474565,-0.03473156612926954,-0.327656,-24.725708
11.185,2.0,1.0,1.0,33.3,33.3,33.3,4.2,3.1,2.82,-0.13057657978045994,-0.047424144418507126,0.9528627891957908,-0.03670156846404967,-0.338593,-24.441737
11.185,2.0,1.0,1.0,33.3,33.3,33.3,4.2,3.1,2.8225,-0.1455516047633075,-0.04836532529365693,0.9493894987840418,-0.03879619577264649,-0.350215,-24.151771
11.185,2.0,1.0,1.0,33.3,33.3,33.3,4.2,3.1,2.825,-0.16065769645851083,-0.0493215733570821,0.945563449752189,-0.041026037165116255,-0.362588,-23.855507
11.185,2.0,1.0,1.0,33.3,33.3,33.3,4.2,3.1,2.8275,-0.17589206323851933,-0.0502915173599973,0.9413668578338956,-0.043402858020584315,-0.375788,-23.552617
