1,w,sub_t,h,l1,l2,l3,g1,g2,Freq,S11_re,S21_re,S11_img,S21_img,S11_dB,S21_dB
11.185,2.0,1.0,1.0,33.0,33.5,33.5,2.1,4.3,2.5,0.897764418253131,-0.0053179988175254,0.426725731819685,0.00526540668172681,-0.052097,-42.517684
11.185,2.0,1.0,1.0,33.0,33.5,33.5,2.1,4.3,2.5025,0.895037097987832,-0.005432995533965064,0.43229405950839067,0.0052987347374698415,-0.052564,-42.396225
11.185,2.0,1.0,1.0,33.0,33.5,33.5,2.1,4.3,2.505,0.89226373281555,-0.0055500829319539,0.43786638276322226,0.0053317242874193135,-0.053039,-42.274531
11.185,2.0,1.0,1.0,33.0,33.5,33.5,2.1,4.3,2.5075,0.8894438619275407,-0.005669302729988023,0.44344256614925154,0.005364355688335598,-0.053522,-42.152593
11.185,2.0,1.0,1.0,33.0,33.5,33.5,2.1,4.3,2.51,0.8865770164742316,-0.005790697680007604,0.4490224696031087,0.005396608529674601,-0.054013,-42.030404
11.185,2.0,1.0,1.0,33.0,33.5,33.5,2.1,4.3,2.5125,0.8836627194068434,-0.005914311597610957,0.45460594826532086,0.0054284616018583755,-0.054513,-41.907954
11.185,2.0,1.0,1.0,33.0,33.5,33.5,2.1,4.3,2.515,0.8807004853156177,-0.006040189393272809,0.4601928523066526,0.005459892863112056,-0.055021,-41.785237
11.185,2.0,1.0,1.0,33.0,33.5,33.5,2.1,4.3,2.5175,0.8776898202645801,-0.006168377104603294,0.46578302674819466,0.005490879404795807,-0.055538,-41.662243
11.185,2.0,1.0,1.0,33.0,33.5,33.5,2.1,4.3,2.52,0.8746302216227515,-0.00629892192968681,0.47137631127497936,0.00552139741515659,-0.056064,-41.538965
11.185,2.0,1.0,1.0,33.0,33.5,33.5,2.1,4.3,2.5225,0.871521177891741,-0.0064318722615406,0.4769725400428404,0.005551422141419816,-0.0566,-41.415394
11.185,2.0,1.0,1.0,33.0,33.5,33.5,2.1,4.3,2.525,0.8683621685296244,-0.006567277723734984,0.48257154147827447,0.005580927850137309,-0.057145,-41.291521
11.185,2.0,1.0,1.0,33.0,33.5,33.5,2.1,4.3,2.5275,0.8651526637710362,-0.006705189207218813,0.4881731380710191,0.005609887785702649,-0.057699,-41.167338
11.185,2.0,1.0,1.0,33.0,33.5,33.5,2.1,4.3,2.53,0.8618921244433825,-0.006845658908394691,0.49377714615904905,0.005638274126940346,-0.058264,-41.042837
11.185,2.0,1.0,1.0,33.0,33.5,33.5,2.1,4.3,2.5325,0.8585800017790969,-0.006988740368492418,0.49938337570569963,0.005666057941669826,-0.058838,-40.918008
11.185,2.0,1.0,1.0,33.0,33.5,33.5,2.1,4.3,2.535,0.8552157372238388,-0.007134488514287801,0.5049916300685956,0.0056932091391397426,-0.059423,-40.792843
11.185,2.0,1.0,1.0,33.0,33.5,33.5,2.1,4.3,2.5375,0.8517987622405586,-0.0072829597002191816,0.5106017057600517,0.005719696420221885,-0.060019,-40.667333
11.185,2.0,1.0,1.0,33.0,33.5,33.5,2.1,4.3,2.54,0.8483284981093258,-0.007434211751954092,0.516213392198602,0.005745487225247865,-0.060625,-40.541469
11.185,2.0,1.0,1.0,33.0,33.5,33.5,2.1,4.3,2.5425,0.8448043557228319,-0.007588304011460944,0.5218264714513009,0.005770547679364928,-0.061243,-40.415241
11.185,2.0,1.0,1.0,33.0,33.5,33.5,2.1,4.3,2.545,0.8412257353774735,-0.007745297383643552,0.5274407179664121,0.005794842535279807,-0.061872,-40.288642
11.185,2.0,1.0,1.0,33.0,33.5,33.5,2.1,4.3,2.5475,0.8375920265599169,-0.00790525438459777,0.5330558982960851,0.005818335113252347,-0.062513,-40.16166
11.185,2.0,1.0,1.0,33.0,33.5,33.5,2.1,4.3,2.55,0.8339026077290438,-0.00806823919155271,0.5386717708086262,0.005840987238191908,-0.063166,-40.034287
11.185,2.0,1.0,1.0,33.0,33.5,33.5,2.1,4.3,2.5525,0.8301568460931837,-0.008234317694560535,0.5442880853898988,0.005862759173701411,-0.063831,-39.906514
11.185,2.0,1.0,1.0,33.0,33.5,33.5,2.1,4.3,2.555,0.8263540973825253,-0.00840355755000243,0.5499045831334306,0.005883609552904252,-0.064508,-39.77833
11.185,2.0,1.0,1.0,33.0,33.5,33.5,2.1,4.3,2.5575,0.8224937056166005,-0.00857602823598071,0.5555209960187363,0.0059034953058796445,-0.065199,-39.649727
11.185,2.0,1.0,1.0,33.0,33.5,33.5,2.1,4.3,2.56,0.8185750028667472,-0.008751801109669229,0.5611370465773594,0.005922371583521373,-0.065903,-39.520693
11.185,2.0,1.0,1.0,33.0,33.5,33.5,2.1,4.3,2.5625,0.8145973090134323,-0.008930949466698103,0.5667524475461183,0.005940191677623848,-0.066621,-39.391219
11.185,2.0,1.0,1.0,33.0,33.5,33.5,2.1,4.3,2.565,0.8105599314983278,-0.009113548602651402,0.5723669015070053,0.0059569069369871394,-0.067352,-39.261296
11.185,2.0,1.0,1.0,33.0,33.5,33.5,2.1,4.3,2.5675,0.8064621650710403,-0.0092996758767589,0.5779801005131664,0.00597246667932017,-0.068098,-39.130911
11.185,2.0,1.0,1.0,33.0,33.5,33.5,2.1,4.3,2.57,0.8023032915303685,-0.009489410777867819,0.5835917257003623,0.005986818098707433,-0.068858,-39.000056
11.185,2.0,1.0,1.0,33.0,33.5,33.5,2.1,4.3,2.5725,0.7980825794599841,-0.009682834992781917,0.5892014468832839,0.005999906168390274,-0.069634,-38.86872
11.185,2.0,1.0,1.0,33.0,33.5,33.5,2.1,4.3,2.575,0.7937992839584201,-0.009880032477060752,0.5948089221360545,0.006011673538597856,-0.070424,-38.736891
11.185,2.0,1.0,1.0,33.0,33.5,33.5,2.1,4.3,2.5775,0.7894526463632524,-0.010081089528373176,0.6004137973562303,0.006022060429146489,-0.071231,-38.60456
11.185,2.0,1.0,1.0,33.0,33.5,33.5,2.1,4.3,2.58,0.785041893969356,-0.010286094862505445,0.6060157058115638,0.006031004516508512,-0.072054,-38.471714
11.185,2.0,1.0,1.0,33.0,33.5,33.5,2.1,4.3,2.5825,0.780566239741121,-0.010495139692126091,0.6116142676687735,0.006038440815032143,-0.072894,-38.338343
11.185,2.0,1.0,1.0,33.0,33.5,33.5,2.1,4.3,2.585,0.776024882018512,-0.010708317808414322,0.6172090895035048,0.0060443015519741515,-0.073751,-38.204435
11.185,2.0,1.0,1.0,33.0,33.5,33.5,2.1,4.3,2.5875,0.7714170042168443,-0.010925725665663376,0.6227997637906464,0.006048516035984684,-0.074625,-38.069978
11.185,2.0,1.0,1.0,33.0,33.5,33.5,2.1,4.3,2.59,0.7667417745201727,-0.011147462468973001,0.6283858683741015,0.006051010518660841,-0.075518,-37.934962
11.185,2.0,1.0,1.0,33.0,33.5,33.5,2.1,4.3,2.5925,0.7619983455681572,-0.011373630265151206,0.6339669659150905,0.006051708048759853,-0.076429,-37.799373
11.185,2.0,1.0,1.0,33.0,33.5,33.5,2.1,4.3,2.595,0.757185854136306,-0.011604334036947937,0.6395426033179825,0.006050528318636438,-0.077359,-37.663201
11.185,2.0,1.0,1.0,33.0,33.5,33.5,2.1,4.3,2.5975,0.7523034208094603,-0.011839681800749229,0.6451123111326376,0.006047387502439879,-0.078309,-37.526431
11.185,2.0,1.0,1.0,33.0,33.5,33.5,2.1,4.3,2.6,0.7473501496484115,-0.012079784707864463,0.6506756029321554,0.006042198085574999,-0.079279,-37.389053
11.185,2.0,1.0,1.0,33.0,33.5,33.5,2.1,4.3,2.6025,0.7423251278495399,-0.012324757149543274,0.6562319746648763,0.006034868684898911,-0.08027,-37.251052
11.185,2.0,1.0,1.0,33.0,33.5,33.5,2.1,4.3,2.605,0.7372274253973503,-0.012574716865864071,0.6617809039794336,0.006025303859088728,-0.081282,-37.112417
11.185,2.0,1.0,1.0,33.0,33.5,33.5,2.1,4.3,2.6075,0.7320560947097978,-0.012829785058640655,0.6673218495215629,0.006013403908577683,-0.082316,-36.973133
11.185,2.0,1.0,1.0,33.0,33.5,33.5,2.1,4.3,2.61,0.7268101702762984,-0.013090086508497464,0.672854250201327,0.005999064664415782,-0.083373,-36.833187
11.185,2.0,1.0,1.0,33.0,33.5,33.5,2.1,4.3,2.6125,0.7214886682883096,-0.013355749696269504,0.6783775244293224,0.005982177265366268,-0.084452,-36.692566
11.185,2.0,1.0,1.0,33.0,33.5,33.5,2.1,4.3,2.615,0.716090586262382,-0.013626906928886967,0.6838910693203725,0.0059626279225022324,-0.085556,-36.551255
11.185,2.0,1.0,1.0,33.0,33.5,33.5,2.1,4.3,2.6175,0.7106149026555889,-0.013903694469909017,0.6893942598631038,0.005940297670515323,-0.086685,-36.40924
11.185,2.0,1.0,1.0,33.0,33.5,33.5,2.1,4.3,2.62,0.7050605764732372,-0.01418625267487617,0.6948864480537311,0.005915062104893756,-0.087839,-36.266507
11.185,2.0,1.0,1.0,33.0,33.5,33.5,2.1,4.3,2.6225,0.6994265468687707,-0.014474726131654262,0.7003669619922719,0.005886791104066801,-0.089018,-36.123041
11.185,2.0,1.0,1.0,33.0,33.5,33.5,2.1,4.3,2.625,0.693711732735802,-0.0147692638059467,0.705835104939299,0.00585534853554849,-0.090225,-35.978827
11.185,2.0,1.0,1.0,33.0,33.5,33.5,2.1,4.3,2.6275,0.6879150322921843,-0.015070019192157056,0.7112901543312509,0.005820591945043561,-0.09146,-35.833848
11.185,2.0,1.0,1.0,33.0,33.5,33.5,2.1,4.3,2.63,0.6820353226560819,-0.015377150469784308,0.7167313607521806,0.00578237222740404,-0.092723,-35.68809
11.185,2.0,1.0,1.0,33.0,33.5,33.5,2.1,4.3,2.6325,0.6760714594139795,-0.015690820665539028,0.7221579468597079,0.005740533278243019,-0.094016,-35.541537
11.185,2.0,1.0,1.0,33.0,33.5,33.5,2.1,4.3,2.635,0.6700222761806018,-0.016011197821368273,0.7275691062627985,0.0056949116249251485,-0.095339,-35.394171
11.185,2.0,1.0,1.0,33.0,33.5,33.5,2.1,4.3,2.6375,0.6638865841507319,-0.01633845516857996,0.7329640023488558,0.005645336035558099,-0.096693,-35.245977
11.185,2.0,1.0,1.0,33.0,33.5,33.5,2.1,4.3,2.64,0.6576631716429063,-0.016672771308258054,0.7383417670574571,0.005591627104506678,-0.09808,-35.096937
11.185,2.0,1.0,1.0,33.0,33.5,33.5,2.1,4.3,2.6425,0.6513508036350288,-0.017014330398158126,0.7437014995978837,0.005533596812840286,-0.0995,-34.947033
11.185,2.0,1.0,1.0,33.0,33.5,33.5,2.1,4.3,2.645,0.644948221291927,-0.017363322346272945,0.749042265107439,0.005471048062003954,-0.100954,-34.796248
11.185,2.0,1.0,1.0,33.0,33.5,33.5,2.1,4.3,2.6475,0.6384541414849272,-0.017719943011252876,0.7543630932473347,0.005403774178872433,-0.102444,-34.644563
11.185,2.0,1.0,1.0,33.0,33.5,33.5,2.1,4.3,2.65,0.63186725630353,-0.018084394409863376,0.759662976732747,0.005331558390205682,-0.103971,-34.49196
11.185,2.0,1.0,1.0,33.0,33.5,33.5,2.1,4.3,2.6525,0.6251862325593354,-0.01845688493165176,0.7649408697933806,0.005254173264370342,-0.105536,-34.33842
11.185,2.0,1.0,1.0,33.0,33.5,33.5,2.1,4.3,2.655,0.6184097112823537,-0.018837629560990082,0.7701956865606917,0.005171380118024479,-0.10714,-34.183922
11.185,2.0,1.0,1.0,33.0,33.5,33.5,2.1,4.3,2.6575,0.6115363072099318,-0.019226850106645786,0.7754262993776245,0.00508292838528262,-0.108784,-34.028448
11.185,2.0,1.0,1.0,33.0,33.5,33.5,2.1,4.3,2.66,0.6045646082685266,-0.01962477543901995,0.7806315370264563,0.00498855494667967,-0.110471,-33.871976
11.185,2.0,1.0,1.0,33.0,33.5,33.5,2.1,4.3,2.6625,0.5974931750486506,-0.020031641735170774,0.7858101828700431,0.004887983415039443,-0.112201,-33.714486
11.185,2.0,1.0,1.0,33.0,33.5,33.5,2.1,4.3,2.665,0.5903205402733324,-0.02044769273172094,0.7909609729014484,0.0047809233751184505,-0.113975,-33.555955
11.185,2.0,1.0,1.0,33.0,33.5,33.5,2.1,4.3,2.6675,0.583045208260543,-0.020873179985716115,0.7960825936965631,0.004667069573642908,-0.115796,-33.396363
11.185,2.0,1.0,1.0,33.0,33.5,33.5,2.1,4.3,2.67,0.5756656543800868,-0.021308363143471114,0.801173680263978,0.004546101056078345,-0.117666,-33.235685
11.185,2.0,1.0,1.0,33.0,33.5,33.5,2.1,4.3,2.6725,0.5681803245055443,-0.02175351021739839,0.8062328137859482,0.004417680246169845,-0.119585,-33.0739
11.185,2.0,1.0,1.0,33.0,33.5,33.5,2.1,4.3,2.675,0.5605876344619725,-0.02220889787076635,0.8112585192438496,0.004281451963960441,-0.121555,-32.910983
11.185,2.0,1.0,1.0,33.0,33.5,33.5,2.1,4.3,2.6775,0.5528859694701496,-0.022674811710278707,0.8162492629210492,0.004137042377635223,-0.12358,-32.746911
11.185,2.0,1.0,1.0,33.0,33.5,33.5,2.1,4.3,2.68,0.5450736835882919,-0.02315154658629873,0.8212034497756062,0.003984057884143908,-0.125659,-32.581657
11.185,2.0,1.0,1.0,33.0,33.5,33.5,2.1,4.3,2.6825,0.5371490991523079,-0.023639406900463743,0.8261194206746364,0.003822083913125114,-0.127797,-32.415197
11.185,2.0,1.0,1.0,33.0,33.5,33.5,2.1,4.3,2.685,0.5291105062158064,-0.024138706920343703,0.8309954494815867,0.003650683648182798,-0.129994,-32.247503
11.185,2.0,1.0,1.0,33.0,33.5,33.5,2.1,4.3,2.6875,0.5209561619912559,-0.024649771100689773,0.835829739986988,0.0034693966590496265,-0.132253,-32.07855
11.185,2.0,1.0,1.0,33.0,33.5,33.5,2.1,4.3,2.69,0.5126842902939093,-0.025172934410691027,0.8406204226725276,0.003277737437606186,-0.134576,-31.908309
11.185,2.0,1.0,1.0,33.0,33.5,33.5,2.1,4.3,2.6925,0.5042930809903012,-0.02570854266651457,0.8453655512975242,0.0030751938301032144,-0.136966,-31.736751
11.185,2.0,1.0,1.0,33.0,33.5,33.5,2.1,4.3,2.695,0.49578068945343623,-0.026256952868228454,0.8500630992959878,0.002861225357254501,-0.139426,-31.563847
11.185,2.0,1.0,1.0,33.0,33.5,33.5,2.1,4.3,2.6975,0.4871452360270218,-0.026818533540012467,0.8547109559715584,0.0026352614131178605,-0.141958,-31.389567
11.185,2.0,1.0,1.0,33.0,33.5,33.5,2.1,4.3,2.7,0.47838480550148854,-0.027393665072328016,0.8593069224765543,0.0023966993328609983,-0.144566,-31.21388
11.185,2.0,1.0,1.0,33.0,33.5,33.5,2.1,4.3,2.7025,0.46949744660487613,-0.027982740064451353,0.8638487075602774,0.0021449023186029246,-0.147252,-31.036754
11.185,2.0,1.0,1.0,33.0,33.5,33.5,2.1,4.3,2.705,0.4604811715121226,-0.028586163665462606,0.8683339230704787,0.0018791972115274555,-0.150019,-30.858155
11.185,2.0,1.0,1.0,33.0,33.5,33.5,2.1,4.3,2.7075,0.4513339553767702,-0.029204353911423668,0.8727600791905655,0.001598872097367286,-0.152871,-30.67805
11.185,2.0,1.0,1.0,33.0,33.5,33.5,2.1,4.3,2.71,0.44205373588966457,-0.02983774205605751,0.877124579393653,0.0013031737311490219,-0.155811,-30.496404
11.185,2.0,1.0,1.0,33.0,33.5,33.5,2.1,4.3,2.7125,0.43263841286985827,-0.030486772891758794,0.8814247150929723,0.0009913047657555349,-0.158844,-30.313182
11.185,2.0,1.0,1.0,33.0,33.5,33.5,2.1,4.3,2.715,0.4230858478936549,-0.031151905057202316,0.8856576599663659,0.0006624207673899955,-0.161974,-30.128344
11.185,2.0,1.0,1.0,33.0,33.5,33.5,2.1,4.3,2.7175,0.4133938639685578,-0.03183361132716543,0.8898204639306746,0.00031562699939912845,-0.165203,-29.941855
11.185,2.0,1.0,1.0,33.0,33.5,33.5,2.1,4.3,2.72,0.403560245259849,-0.032532378879423896,0.8939100467396797,-5.002504588368906e-05,-0.168538,-29.753673
11.185,2.0,1.0,1.0,33.0,33.5,33.5,2.1,4.3,2.7225,0.39358273687856654,-0.03324870953270914,0.8979231911769288,-0.0004355413896067001,-0.171982,-29.563759
11.185,2.0,1.0,1.0,33.0,33.5,33.5,2.1,4.3,2.725,0.3834590447409565,-0.03398311994869468,0.9018565358121704,-0.0008419896077091711,-0.175542,-29.37207
11.185,2.0,1.0,1.0,33.0,33.5,33.5,2.1,4.3,2.7275,0.3731868355108208,-0.03473614178980649,0.9057065672872936,-0.001270503198046384,-0.179221,-29.178562
11.185,2.0,1.0,1.0,33.0,33.5,33.5,2.1,4.3,2.73,0.3627637366378905,-0.03550832182328304,0.9094696120945036,-0.0017222863030058313,-0.183025,-28.983192
11.185,2.0,1.0,1.0,33.0,33.5,33.5,2.1,4.3,2.7325,0.3521873365071689,-0.03630022196032446,0.9131418278060042,-0.002198618820295083,-0.186962,-28.785912
11.185,2.0,1.0,1.0,33.0,33.5,33.5,2.1,4.3,2.735,0.3414551847164022,-0.037112419217326005,0.916719193710607,-0.002700861937911359,-0.191036,-28.586674
11.185,2.0,1.0,1.0,33.0,33.5,33.5,2.1,4.3,2.7375,0.3305647925012833,-0.037945505584048536,0.9201975008084521,-0.0032304641330070413,-0.195255,-28.38543
11.185,2.0,1.0,1.0,33.0,33.5,33.5,2.1,4.3,2.74,0.3195136333308992,-0.038800087781083285,0.9235723411102996,-0.003788967678478157,-0.199626,-28.182127
11.185,2.0,1.0,1.0,33.0,33.5,33.5,2.1,4.3,2.7425,0.3082991436992242,-0.03967678688606599,0.9268390961826772,-0.0043780157056819684,-0.204156,-27.976713
11.185,2.0,1.0,1.0,33.0,33.5,33.5,2.1,4.3,2.745,0.2969187241423078,-0.04057623780471202,0.9299929248743503,-0.004999359876781642,-0.208854,-27.769132
11.185,2.0,1.0,1.0,33.0,33.5,33.5,2.1,4.3,2.7475,0.285369740515256,-0.04149908855879778,0.9330287501532118,-0.0056548687258885484,-0.213728,-27.559328
11.185,2.0,1.0,1.0,33.0,33.5,33.5,2.1,4.3,2.75,0.273649525568231,-0.0424459993586096,0.93594124497555,-0.0063465367344908,-0.218788,-27.347242
11.185,2.0,1.0,1.0,33.0,33.5,33.5,2.1,4.3,2.7525,0.2617553808666976,-0.04341764142199937,0.9387248171017695,-0.007076494213697212,-0.224043,-27.132812
11.185,2.0,1.0,1.0,33.0,33.5,33.5,2.1,4.3,2.755,0.24968457910809186,-0.04441469549589188,0.9413735927638509,-0.007847018073675431,-0.229505,-26.915976
11.185,2.0,1.0,1.0,33.0,33.5,33.5,2.1,4.3,2.7575,0.2374343668951481,-0.045437850028723956,0.9438813990801008,-0.008660543569417305,-0.235183,-26.696668
11.185,2.0,1.0,1.0,33.0,33.5,33.5,2.1,4.3,2.76,0.22500196803562325,-0.04648779893365231,0.946241745101864,-0.009519677121724683,-0.241092,-26.474818
11.185,2.0,1.0,1.0,33.0,33.5,33.5,2.1,4.3,2.7625,0.21238458744909863,-0.04756523887224061,0.9484478013648354,-0.010427210323199779,-0.247243,-26.250357
11.185,2.0,1.0,1.0,33.0,33.5,33.5,2.1,4.3,2.765,0.1995794157744892,-0.04867086597642179,0.9504923778041868,-0.011386135251166236,-0.25365,-26.023211
11.185,2.0,1.0,1.0,33.0,33.5,33.5,2.1,4.3,2.7675,0.1865836347869462,-0.04980537191253074,0.9523678998777807,-0.012399661222987175,-0.26033,-25.793304
11.185,2.0,1.0,1.0,33.0,33.5,33.5,2.1,4.3,2.77,0.17339442375053826,-0.050969439174706005,0.9540663827252027,-0.013471233144340147,-0.267297,-25.560555
11.185,2.0,1.0,1.0,33.0,33.5,33.5,2.1,4.3,2.7725,0.1600089668538999,-0.05216373547550514,0.9555794031718693,-0.014604551617814418,-0.274571,-25.324883
11.185,2.0,1.0,1.0,33.0,33.5,33.5,2.1,4.3,2.775,0.14642446190049307,-0.053388907078605975,0.9568980693670285,-0.01580359499790365,-0.282168,-25.086202
11.185,2.0,1.0,1.0,33.0,33.5,33.5,2.1,4.3,2.7775,0.13263813045394549,-0.05464557089130182,0.9580129878217775,-0.01707264359925479,-0.290111,-24.844422
11.185,2.0,1.0,1.0,33.0,33.5,33.5,2.1,4.3,2.78,0.11864722967295324,-0.05593430510233121,0.9589142275880767,-0.018416306288102105,-0.298421,-24.599451
11.185,2.0,1.0,1.0,33.0,33.5,33.5,2.1,4.3,2.7825,0.10444906611047665,-0.057255638112434414,0.9595912812919566,-0.019839549712353084,-0.307122,-24.351191
11.185,2.0,1.0,1.0,33.0,33.5,33.5,2.1,4.3,2.785,0.09004101179952008,-0.05861003545973263,0.9600330227034976,-0.021347730454000683,-0.316241,-24.099542
11.185,2.0,1.0,1.0,33.0,33.5,33.5,2.1,4.3,2.7875,0.07542052300434808,-0.05999788438814361,0.9602276604924859,-0.022946630418558444,-0.325805,-23.844398
11.185,2.0,1.0,1.0,33.0,33.5,33.5,2.1,4.3,2.79,0.060585162082997294,-0.061419475642883914,0.9601626877818211,-0.024642495810212838,-0.335847,-23.585651
11.185,2.0,1.0,1.0,33.0,33.5,33.5,2.1,4.3,2.7925,0.045532622986848896,-0.0628749820005571,0.9598248270706576,-0.02644208007839488,-0.346398,-23.323186
11.185,2.0,1.0,1.0,33.0,33.5,33.5,2.1,4.3,2.795,0.03026076101808087,-0.06436443294989869,0.959199970055929,-0.028352691261492702,-0.357497,-23.056883
11.185,2.0,1.0,1.0,33.0,33.5,33.5,2.1,4.3,2.7975,0.014767627579479435,-0.06588768482984278,0.9582731118345161,-0.030382244196237373,-0.369183,-22.78662
11.185,2.0,1.0,1.0,33.0,33.5,33.5,2.1,4.3,2.8,-0.0009484892132617365,-0.06744438560052805,0.9570282789192264,-0.032539318106545104,-0.3815,-22.512267
11.185,2.0,1.0,1.0,33.0,33.5,33.5,2.1,4.3,2.8025,-0.01688901702399457,-0.06903393326560048,0.9554484504507279,-0.034833220132520853,-0.394498,-22.233687
11.185,2.0,1.0,1.0,33.0,33.5,33.5,2.1,4.3,2.805,-0.03305504366566404,-0.07065542677525025,0.9535154719357204,-0.0372740554077944,-0.408229,-21.950742
11.185,2.0,1.0,1.0,33.0,33.5,33.5,2.1,4.3,2.8075,-0.049447251885253264,-0.0723076080121371,0.9512099607907822,-0.03987280433955358,-0.422752,-21.663283
11.185,2.0,1.0,1.0,33.0,33.5,33.5,2.1,4.3,2.81,-0.06606584282101266,-0.07398879318859573,0.9485112029241981,-0.04264140778787773,-0.438132,-21.371158
11.185,2.0,1.0,1.0,33.0,33.5,33.5,2.1,4.3,2.8125,-0.0829104460500639,-0.0756967916533898,0.945397039548559,-0.0455928608753357,-0.454441,-21.074205
11.185,2.0,1.0,1.0,33.0,33.5,33.5,2.1,4.3,2.815,-0.09998001373628794,-0.07742880970783006,0.9418437433907487,-0.048741316178700776,-0.471758,-20.77226
11.185,2.0,1.0,1.0,33.0,33.5,33.5,2.1,4.3,2.8175,-0.11727269589601222,-0.07918133654972222,0.9378258834610671,-0.05210219705405529,-0.490171,-20.465146
11.185,2.0,1.0,1.0,33.0,33.5,33.5,2.1,4.3,2.82,-0.13478569320483966,-0.08095000888183174,0.9333161775710321,-0.05569232181333981,-0.509779,-20.152685
11.185,2.0,1.0,1.0,33.0,33.5,33.5,2.1,4.3,2.8225,-0.15251508305161007,-0.08272945001816565,0.9282853318655578,-0.059530039388921326,-0.530692,-19.834686
11.185,2.0,1.0,1.0,33.0,33.5,33.5,2.1,4.3,2.825,-0.1704556136795689,-0.08451307847104456,0.9227018667816189,-0.06363537697132575,-0.553033,-19.510953
11.185,2.0,1.0,1.0,33.0,33.5,33.5,2.1,4.3,2.8275,-0.1886004602100205,-0.08629287997455119,0.9165319290924137,-0.06803019985394985,-0.576938,-19.181284
