1,w,sub_t,h,l1,l2,l3,g1,g2,Freq,S11_re,S21_re,S11_img,S21_img,S11_dB,S21_dB
11.185,2.0,1.0,1.0,34.3,34.2,34.2,2.6,2.8,2.5,0.726312856257669,-0.0155641987059472,0.674564751313378,0.00857067207779217,-0.076374,-35.007245
11.185,2.0,1.0,1.0,34.3,34.2,34.2,2.6,2.8,2.5025,0.7206465006490802,-0.015868511352710793,0.6804643334052906,0.008555321687087248,-0.07728,-34.881124
11.185,2.0,1.0,1.0,34.3,34.2,34.2,2.6,2.8,2.505,0.7148993569148047,-0.016178409463474045,0.6863476161181224,0.008536848082128009,-0.078203,-34.754498
11.185,2.0,1.0,1.0,34.3,34.2,34.2,2.6,2.8,2.5075,0.7090705692913419,-0.016494005115929473,0.6922138034941112,0.00851512615218675,-0.079146,-34.627357
11.185,2.0,1.0,1.0,34.3,34.2,34.2,2.6,2.8,2.51,0.7031592717786503,-0.016815412947770128,0.6980620758793061,0.008490025902925706,-0.080108,-34.499691
11.185,2.0,1.0,1.0,34.3,34.2,34.2,2.6,2.8,2.5125,0.6971645881212787,-0.017142750218247918,0.703891589190119,0.008461412246307577,-0.081089,-34.37149
11.185,2.0,1.0,1.0,34.3,34.2,34.2,2.6,2.8,2.515,0.6910856317963364,-0.017476136871043865,0.7097014741559675,0.008429144780340389,-0.08209,-34.242744
11.185,2.0,1.0,1.0,34.3,34.2,34.2,2.6,2.8,2.5175,0.684921506008776,-0.017815695598452853,0.7154908355371298,0.008393077558097522,-0.083112,-34.113443
11.185,2.0,1.0,1.0,34.3,34.2,34.2,2.6,2.8,2.52,0.6786713036944522,-0.018161551906883733,0.7212587513169139,0.00835305884541971,-0.084156,-33.983576
11.185,2.0,1.0,1.0,34.3,34.2,34.2,2.6,2.8,2.5225,0.6723341075314901,-0.018513834183669566,0.7270042718671662,0.008308930866665377,-0.085221,-33.853132
11.185,2.0,1.0,1.0,34.3,34.2,34.2,2.6,2.8,2.525,0.6659089899604818,-0.018872673765181324,0.7327264190861542,0.008260529537840365,-0.086309,-33.722101
11.185,2.0,1.0,1.0,34.3,34.2,34.2,2.6,2.8,2.5275,0.6593950132140767,-0.019238205006231583,0.7384241855077628,0.008207684186388611,-0.08742,-33.590471
11.185,2.0,1.0,1.0,34.3,34.2,34.2,2.6,2.8,2.53,0.6527912293565781,-0.01961056535074996,0.7440965333809231,0.008150217256885216,-0.088555,-33.458232
11.185,2.0,1.0,1.0,34.3,34.2,34.2,2.6,2.8,2.5325,0.6460966803341559,-0.019989895403706118,0.7497423937181302,0.008087944001819551,-0.089714,-33.32537
11.185,2.0,1.0,1.0,34.3,34.2,34.2,2.6,2.8,2.535,0.6393103980363464,-0.020376339004249233,0.7553606653118625,0.0080206721566037,-0.090898,-33.191875
11.185,2.0,1.0,1.0,34.3,34.2,34.2,2.6,2.8,2.5375,0.6324314043695404,-0.02077004330002442,0.7609502137176356,0.007948201597886211,-0.092108,-33.057735
11.185,2.0,1.0,1.0,34.3,34.2,34.2,2.6,2.8,2.54,0.6254587113431891,-0.021171158822619,0.7665098702023863,0.00787032398418544,-0.093344,-32.922936
11.185,2.0,1.0,1.0,34.3,34.2,34.2,2.6,2.8,2.5425,0.6183913211695066,-0.021579839564080636,0.7720384306568016,0.0077868223777949755,-0.094608,-32.787468
11.185,2.0,1.0,1.0,34.3,34.2,34.2,2.6,2.8,2.545,0.6112282263774879,-0.021996243054439122,0.7775346544701368,0.0076974708468388695,-0.095901,-32.651316
11.185,2.0,1.0,1.0,34.3,34.2,34.2,2.6,2.8,2.5475,0.6039684099421132,-0.02242053044014966,0.7829972633659931,0.007602034046278129,-0.097222,-32.514468
11.185,2.0,1.0,1.0,34.3,34.2,34.2,2.6,2.8,2.55,0.5966108454296336,-0.022852866563364823,0.788424940197452,0.007500266776589069,-0.098573,-32.37691
11.185,2.0,1.0,1.0,34.3,34.2,34.2,2.6,2.8,2.5525,0.5891544971599266,-0.023293420041921337,0.793816327699855,0.007391913518741777,-0.099955,-32.238629
11.185,2.0,1.0,1.0,34.3,34.2,34.2,2.6,2.8,2.555,0.5815983203869176,-0.02374236334991637,0.7991700271994513,0.007276707944012133,-0.101368,-32.099611
11.185,2.0,1.0,1.0,34.3,34.2,34.2,2.6,2.8,2.5575,0.5739412614981456,-0.02419987289872356,0.8044845972760174,0.00715437239705644,-0.102815,-31.959841
11.185,2.0,1.0,1.0,34.3,34.2,34.2,2.6,2.8,2.56,0.5661822582346231,-0.024666129118278757,0.8097585523774494,0.007024617350564492,-0.104295,-31.819304
11.185,2.0,1.0,1.0,34.3,34.2,34.2,2.6,2.8,2.5625,0.5583202399321777,-0.025141316538440466,0.8149903613842082,0.006887140829685771,-0.10581,-31.677987
11.185,2.0,1.0,1.0,34.3,34.2,34.2,2.6,2.8,2.565,0.5503541277855494,-0.02562562387020214,0.8201784461213949,0.006741627804291421,-0.107361,-31.535873
11.185,2.0,1.0,1.0,34.3,34.2,34.2,2.6,2.8,2.5675,0.5422828351366027,-0.026119244086500754,0.825321179816055,0.006587749546991267,-0.108949,-31.392947
11.185,2.0,1.0,1.0,34.3,34.2,34.2,2.6,2.8,2.57,0.5341052677880651,-0.0266223745023329,0.8304168854972187,0.00642516295467281,-0.110575,-31.249193
11.185,2.0,1.0,1.0,34.3,34.2,34.2,2.6,2.8,2.5725,0.5258203243443149,-0.02713521685384854,0.8354638343359797,0.006253509831157771,-0.11224,-31.104594
11.185,2.0,1.0,1.0,34.3,34.2,34.2,2.6,2.8,2.575,0.5174268965808188,-0.027657977376048484,0.8404602439227759,0.006072416128393834,-0.113947,-30.959134
11.185,2.0,1.0,1.0,34.3,34.2,34.2,2.6,2.8,2.5775,0.508923869843931,-0.02819086687866181,0.8454042764788327,0.005881491143399602,-0.115695,-30.812795
11.185,2.0,1.0,1.0,34.3,34.2,34.2,2.6,2.8,2.58,0.5003101234828659,-0.02873410081972267,0.8502940369985392,0.005680326667966352,-0.117487,-30.665559
11.185,2.0,1.0,1.0,34.3,34.2,34.2,2.6,2.8,2.5825,0.49158453131576674,-0.029287899376303994,0.8551275713193052,0.005468496087887261,-0.119325,-30.517409
11.185,2.0,1.0,1.0,34.3,34.2,34.2,2.6,2.8,2.585,0.4827459621319362,-0.029852487511792737,0.8599028641152118,0.00524555342823217,-0.121208,-30.368325
11.185,2.0,1.0,1.0,34.3,34.2,34.2,2.6,2.8,2.5875,0.4737932802324081,-0.030428095039013003,0.8646178368105147,0.005011032340907428,-0.12314,-30.218289
11.185,2.0,1.0,1.0,34.3,34.2,34.2,2.6,2.8,2.59,0.4647253460112144,-0.03101495667841139,0.8692703454087697,0.004764445030440468,-0.125122,-30.067281
11.185,2.0,1.0,1.0,34.3,34.2,34.2,2.6,2.8,2.5925,0.45554101657982937,-0.031613312110419706,0.8738581782330563,0.004505281113601928,-0.127156,-29.91528
11.185,2.0,1.0,1.0,34.3,34.2,34.2,2.6,2.8,2.595,0.4462391464374948,-0.032223406020992176,0.8783790535724233,0.004233006408116852,-0.129243,-29.762266
11.185,2.0,1.0,1.0,34.3,34.2,34.2,2.6,2.8,2.5975,0.43681858819026365,-0.03284548813918953,0.8828306172293491,0.003947061645327202,-0.131386,-29.608218
11.185,2.0,1.0,1.0,34.3,34.2,34.2,2.6,2.8,2.6,0.4272781933218638,-0.03347981326553239,0.8872104399625631,0.0036468611012411035,-0.133586,-29.453113
11.185,2.0,1.0,1.0,34.3,34.2,34.2,2.6,2.8,2.6025,0.4176168130196916,-0.03412664128968368,0.89151601481918,0.003331791139933946,-0.135845,-29.29693
11.185,2.0,1.0,1.0,34.3,34.2,34.2,2.6,2.8,2.605,0.40783329905948923,-0.0347862371958337,0.8957447543495994,0.003001208662756999,-0.138167,-29.139644
11.185,2.0,1.0,1.0,34.3,34.2,34.2,2.6,2.8,2.6075,0.3979265047525627,-0.035458871053949875,0.8998939876980995,0.0026544394562465923,-0.140552,-28.981232
11.185,2.0,1.0,1.0,34.3,34.2,34.2,2.6,2.8,2.61,0.3878952859597029,-0.03614481799481481,0.903960957561473,0.002290776431014911,-0.143005,-28.82167
11.185,2.0,1.0,1.0,34.3,34.2,34.2,2.6,2.8,2.6125,0.3777385021762973,-0.03684435816650687,0.9079428170074368,0.0019094777432229308,-0.145526,-28.660931
11.185,2.0,1.0,1.0,34.3,34.2,34.2,2.6,2.8,2.615,0.3674550176935224,-0.03755777666967093,0.9118366261438232,0.001509764789502791,-0.14812,-28.49899
11.185,2.0,1.0,1.0,34.3,34.2,34.2,2.6,2.8,2.6175,0.35704370284093245,-0.038285363468577936,0.915639348628812,0.0010908200653764045,-0.150788,-28.33582
11.185,2.0,1.0,1.0,34.3,34.2,34.2,2.6,2.8,2.62,0.3465034353162189,-0.039027413274578975,0.9193478480116053,0.0006517848763249133,-0.153534,-28.171394
11.185,2.0,1.0,1.0,34.3,34.2,34.2,2.6,2.8,2.6225,0.33583310160845026,-0.03978422539810971,0.9229588838920114,0.0001917568896759168,-0.156361,-28.005681
11.185,2.0,1.0,1.0,34.3,34.2,34.2,2.6,2.8,2.625,0.325031598521721,-0.0405561035648893,0.926469107886369,-0.000290212485609574,-0.159272,-27.838653
11.185,2.0,1.0,1.0,34.3,34.2,34.2,2.6,2.8,2.6275,0.3140978348067487,-0.041343355691378675,0.9298750593861244,-0.0007951209053667506,-0.162271,-27.670279
11.185,2.0,1.0,1.0,34.3,34.2,34.2,2.6,2.8,2.63,0.30303073290877286,-0.042146293613897226,0.933173161094065,-0.0013240180983121986,-0.165362,-27.500528
11.185,2.0,1.0,1.0,34.3,34.2,34.2,2.6,2.8,2.6325,0.29182923084090656,-0.042965232765041286,0.9363597143218603,-0.001878009092682035,-0.168548,-27.329367
11.185,2.0,1.0,1.0,34.3,34.2,34.2,2.6,2.8,2.635,0.2804922841930695,-0.04380049179018355,0.9394308940309827,-0.002458257679935228,-0.171834,-27.156762
11.185,2.0,1.0,1.0,34.3,34.2,34.2,2.6,2.8,2.6375,0.2690188682877191,-0.044652392095841265,0.9423827435973713,-0.0030659901358197953,-0.175224,-26.982678
11.185,2.0,1.0,1.0,34.3,34.2,34.2,2.6,2.8,2.64,0.25740798049478814,-0.045521257320573445,0.9452111692782903,-0.0037024992210778467,-0.178722,-26.807079
11.185,2.0,1.0,1.0,34.3,34.2,34.2,2.6,2.8,2.6425,0.24565864271967588,-0.04640741271776448,0.947911934357719,-0.00436914848625292,-0.182334,-26.629928
11.185,2.0,1.0,1.0,34.3,34.2,34.2,2.6,2.8,2.645,0.23376990407970696,-0.04731118443816595,0.9504806529442319,-0.005067376907499389,-0.186065,-26.451185
11.185,2.0,1.0,1.0,34.3,34.2,34.2,2.6,2.8,2.6475,0.22174084378627662,-0.0482328986983562,0.9529127833927449,-0.005798703882984813,-0.18992,-26.270811
11.185,2.0,1.0,1.0,34.3,34.2,34.2,2.6,2.8,2.65,0.20957057425198283,-0.04917288081931117,0.9552036213185232,-0.006564734622479287,-0.193905,-26.088764
11.185,2.0,1.0,1.0,34.3,34.2,34.2,2.6,2.8,2.6525,0.19725824444444226,-0.05013145411700928,0.9573482921686548,-0.007367165966053456,-0.198027,-25.905001
11.185,2.0,1.0,1.0,34.3,34.2,34.2,2.6,2.8,2.655,0.18480304351117152,-0.05110893862438585,0.9593417433124906,-0.00820779267151858,-0.202292,-25.719476
11.185,2.0,1.0,1.0,34.3,34.2,34.2,2.6,2.8,2.6575,0.17220420470306816,-0.05210564962092876,0.9611787356085835,-0.009088514214369455,-0.206707,-25.532144
11.185,2.0,1.0,1.0,34.3,34.2,34.2,2.6,2.8,2.66,0.15946100962764767,-0.053121895942720945,0.9628538344010471,-0.010011342148593854,-0.21128,-25.342956
11.185,2.0,1.0,1.0,34.3,34.2,34.2,2.6,2.8,2.6625,0.14657279286735936,-0.05415797804169198,0.964361399893252,-0.010978408081843884,-0.216019,-25.151861
11.185,2.0,1.0,1.0,34.3,34.2,34.2,2.6,2.8,2.665,0.13353894700308527,-0.05521418575815912,0.9656955768411043,-0.011991972324193611,-0.220933,-24.958808
11.185,2.0,1.0,1.0,34.3,34.2,34.2,2.6,2.8,2.6675,0.12035892808856394,-0.05629079576529236,0.9668502835018193,-0.013054433276103143,-0.22603,-24.763742
11.185,2.0,1.0,1.0,34.3,34.2,34.2,2.6,2.8,2.67,0.10703226162792008,-0.057388068637815426,0.9678191997670317,-0.014168337628355438,-0.231322,-24.566607
11.185,2.0,1.0,1.0,34.3,34.2,34.2,2.6,2.8,2.6725,0.09355854911601734,-0.058506245489881904,0.9685957544011271,-0.015336391454729112,-0.236817,-24.367343
11.185,2.0,1.0,1.0,34.3,34.2,34.2,2.6,2.8,2.675,0.07993747521014591,-0.05964554411846758,0.9691731112968259,-0.016561472287101375,-0.242528,-24.165889
11.185,2.0,1.0,1.0,34.3,34.2,34.2,2.6,2.8,2.6775,0.06616881561176619,-0.06080615457857608,0.9695441546500577,-0.017846642272684773,-0.248467,-23.962181
11.185,2.0,1.0,1.0,34.3,34.2,34.2,2.6,2.8,2.68,0.05225244574900392,-0.061988234104796064,0.9697014729450307,-0.019195162524295737,-0.254647,-23.756152
11.185,2.0,1.0,1.0,34.3,34.2,34.2,2.6,2.8,2.6825,0.03818835036463403,-0.06319190127996385,0.9696373416278545,-0.02061050878708637,-0.261082,-23.547734
11.185,2.0,1.0,1.0,34.3,34.2,34.2,2.6,2.8,2.685,0.023976634130692343,-0.06441722933550004,0.9693437043330831,-0.022096388559211973,-0.267788,-23.336852
11.185,2.0,1.0,1.0,34.3,34.2,34.2,2.6,2.8,2.6875,0.00961753343021467,-0.0656642384489448,0.968812152511799,-0.0236567598196124,-0.27478,-23.123431
11.185,2.0,1.0,1.0,34.3,34.2,34.2,2.6,2.8,2.69,-0.004888570530591475,-0.06693288688177251,0.9680339032922536,-0.025295851533673985,-0.282078,-22.907392
11.185,2.0,1.0,1.0,34.3,34.2,34.2,2.6,2.8,2.6925,-0.019541137089648334,-0.06822306077407354,0.9669997753843842,-0.027018186127207622,-0.289699,-22.688652
11.185,2.0,1.0,1.0,34.3,34.2,34.2,2.6,2.8,2.695,-0.034339449753773135,-0.06953456238133825,0.9657001628174499,-0.028828604141153676,-0.297666,-22.467124
11.185,2.0,1.0,1.0,34.3,34.2,34.2,2.6,2.8,2.6975,-0.04928259782139383,-0.07086709650144042,0.9641250062754346,-0.030732291303971954,-0.306,-22.242717
11.185,2.0,1.0,1.0,34.3,34.2,34.2,2.6,2.8,2.7,-0.06436945569885025,-0.07222025479579547,0.9622637617673838,-0.03273480828600158,-0.314727,-22.015335
11.185,2.0,1.0,1.0,34.3,34.2,34.2,2.6,2.8,2.7025,-0.07959865955287024,-0.07359349765619069,0.9601053663393143,-0.03484212343049158,-0.323873,-21.78488
11.185,2.0,1.0,1.0,34.3,34.2,34.2,2.6,2.8,2.705,-0.09496858087830408,-0.07498613320620631,0.9576382005004489,-0.03706064878970004,-0.333468,-21.551246
11.185,2.0,1.0,1.0,34.3,34.2,34.2,2.6,2.8,2.7075,-0.11047729648457681,-0.0763972929513985,0.9548500469991142,-0.039397279831692854,-0.343544,-21.314324
11.185,2.0,1.0,1.0,34.3,34.2,34.2,2.6,2.8,2.71,-0.1261225543136493,-0.07782590350292524,0.9517280455425196,-0.04185943922438249,-0.354136,-21.073999
11.185,2.0,1.0,1.0,34.3,34.2,34.2,2.6,2.8,2.7125,-0.14190173439358952,-0.07927065369195435,0.9482586430096969,-0.044455125148026096,-0.365283,-20.83015
11.185,2.0,1.0,1.0,34.3,34.2,34.2,2.6,2.8,2.715,-0.15781180410120368,-0.08072995626314575,0.9444275386583225,-0.04719296463575662,-0.377027,-20.582649
11.185,2.0,1.0,1.0,34.3,34.2,34.2,2.6,2.8,2.7175,-0.17384926674981435,-0.08220190318005491,0.9402196237741205,-0.050082272493473086,-0.389414,-20.331364
11.185,2.0,1.0,1.0,34.3,34.2,34.2,2.6,2.8,2.72,-0.19001010232827653,-0.08368421338764186,0.9356189151568461,-0.053133116404920654,-0.402497,-20.076155
11.185,2.0,1.0,1.0,34.3,34.2,34.2,2.6,2.8,2.7225,-0.20628969898765154,-0.08517417165006806,0.9306084817805634,-0.05635638888394164,-0.416332,-19.816873
11.185,2.0,1.0,1.0,34.3,34.2,34.2,2.6,2.8,2.725,-0.22268277359334462,-0.08666855680676758,0.925170363909924,-0.059763886791797005,-0.430982,-19.553364
11.185,2.0,1.0,1.0,34.3,34.2,34.2,2.6,2.8,2.7275,-0.23918327932239608,-0.08816355745552945,0.9192854839014023,-0.06336839919034758,-0.446517,-19.285464
11.185,2.0,1.0,1.0,34.3,34.2,34.2,2.6,2.8,2.73,-0.25578429787396934,-0.08965467266449653,0.9129335478733622,-0.06718380434733269,-0.463015,-19.013001
11.185,2.0,1.0,1.0,34.3,34.2,34.2,2.6,2.8,2.7325,-0.27247791335929006,-0.09113659481893946,0.9060929373978284,-0.07122517674166869,-0.480563,-18.735794
11.185,2.0,1.0,1.0,34.3,34.2,34.2,2.6,2.8,2.735,-0.2892550643244472,-0.09260307110271475,0.8987405903596413,-0.07550890492520135,-0.499258,-18.453654
11.185,2.0,1.0,1.0,34.3,34.2,34.2,2.6,2.8,2.7375,-0.306105369609818,-0.09404673937297704,0.8908518701587499,-0.08005282106924813,-0.519209,-18.166378
11.185,2.0,1.0,1.0,34.3,34.2,34.2,2.6,2.8,2.74,-0.32301692283149214,-0.09545893327842779,0.8824004225185574,-0.08487634294019,-0.540538,-17.873756
11.185,2.0,1.0,1.0,34.3,34.2,34.2,2.6,2.8,2.7425,-0.33997604914413154,-0.09682945035733748,0.8733580193354239,-0.09000062888081208,-0.563384,-17.575566
11.185,2.0,1.0,1.0,34.3,34.2,34.2,2.6,2.8,2.745,-0.35696701656254465,-0.09814627548408948,0.8636943893011956,-0.09544874608392685,-0.587901,-17.271573
11.185,2.0,1.0,1.0,34.3,34.2,34.2,2.6,2.8,2.7475,-0.3739716924229517,-0.09939525035392067,0.85337703550829,-0.10124585197672549,-0.614266,-16.961532
11.185,2.0,1.0,1.0,34.3,34.2,34.2,2.6,2.8,2.75,-0.390969133483083,-0.100559677634504,0.842371040984501,-0.10741938781016,-0.642682,-16.645186
11.185,2.0,1.0,1.0,34.3,34.2,34.2,2.6,2.8,2.7525,-0.4079350956085518,-0.10161984588594261,0.8306388642140355,-0.11399928245723302,-0.673376,-16.322262
11.185,2.0,1.0,1.0,34.3,34.2,34.2,2.6,2.8,2.755,-0.42484144587193434,-0.10255245825894668,0.8181401283395932,-0.12101816281220955,-0.70661,-15.992479
11.185,2.0,1.0,1.0,34.3,34.2,34.2,2.6,2.8,2.7575,-0.44165545608800194,-0.10332994421185145,0.804831410128573,-0.1285115648311293,-0.742687,-15.655541
11.185,2.0,1.0,1.0,34.3,34.2,34.2,2.6,2.8,2.76,-0.4583389521998825,-0.10391962891778787,0.7906660382353807,-0.13651813585578867,-0.781953,-15.31114
11.185,2.0,1.0,1.0,34.3,34.2,34.2,2.6,2.8,2.7625,-0.47484728839326823,-0.10428272953979349,0.7755939152365248,-0.14507981398838565,-0.824809,-14.958958
11.185,2.0,1.0,1.0,34.3,34.2,34.2,2.6,2.8,2.765,-0.4911281082442313,-0.10437314102802843,0.759561384965147,-0.1542419633299025,-0.871722,-14.598666
11.185,2.0,1.0,1.0,34.3,34.2,34.2,2.6,2.8,2.7675,-0.5071198475511276,-0.10413596648800559,0.7425111766760181,-0.16405343402203615,-0.923235,-14.22993
11.185,2.0,1.0,1.0,34.3,34.2,34.2,2.6,2.8,2.77,-0.5227499248368456,-0.1035057385501307,0.724382471709621,-0.17456650207381422,-0.979985,-13.852409
11.185,2.0,1.0,1.0,34.3,34.2,34.2,2.6,2.8,2.7725,-0.5379325561442501,-0.10240426884103214,0.7051111582184485,-0.1858366243025334,-1.042719,-13.465763
11.185,2.0,1.0,1.0,34.3,34.2,34.2,2.6,2.8,2.775,-0.5525661214324232,-0.10073805334606262,0.6846303673834246,-0.19792191618219926,-1.112321,-13.06966
11.185,2.0,1.0,1.0,34.3,34.2,34.2,2.6,2.8,2.7775,-0.5665300021208056,-0.09839515364070746,0.6628714233532644,-0.2108822220278833,-1.189837,-12.663781
11.185,2.0,1.0,1.0,34.3,34.2,34.2,2.6,2.8,2.78,-0.5796808059273739,-0.09524147041593642,0.6397653927755785,-0.22477759389220164,-1.276516,-12.247836
11.185,2.0,1.0,1.0,34.3,34.2,34.2,2.6,2.8,2.7825,-0.5918479010605721,-0.09111633131298219,0.6152454931654916,-0.2396659229357043,-1.373851,-11.821575
11.185,2.0,1.0,1.0,34.3,34.2,34.2,2.6,2.8,2.785,-0.6028282054976618,-0.08582733814835293,0.5892507182901208,-0.25559936907352804,-1.483636,-11.384813
11.185,2.0,1.0,1.0,34.3,34.2,34.2,2.6,2.8,2.7875,-0.6123802324710678,-0.07914447293360463,0.5617311693357067,-0.27261910531132755,-1.60804,-10.937457
11.185,2.0,1.0,1.0,34.3,34.2,34.2,2.6,2.8,2.79,-0.620217502782266,-0.070793569809529,0.5326557475525,-0.2907477276487996,-1.749688,-10.47954
11.185,2.0,1.0,1.0,34.3,34.2,34.2,2.6,2.8,2.7925,-0.6260016329142281,-0.060449455490189305,0.5020230667874578,-0.30997848016918794,-1.911781,-10.011272
11.185,2.0,1.0,1.0,34.3,34.2,34.2,2.6,2.8,2.795,-0.6293357467525376,-0.04772939517175618,0.46987666928571425,-0.33026022114228587,-2.098221,-9.533101
11.185,2.0,1.0,1.0,34.3,34.2,34.2,2.6,2.8,2.7975,-0.6297594101446666,-0.032188025563163566,0.43632583439550454,-0.3514768499098602,-2.313788,-9.045794
11.185,2.0,1.0,1.0,34.3,34.2,34.2,2.6,2.8,2.8,-0.6267471422866278,-0.013315801855205138,0.4015733639232813,-0.3734198180702622,-2.564329,-8.550534
11.185,2.0,1.0,1.0,34.3,34.2,34.2,2.6,2.8,2.8025,-0.6197138083536781,0.009455776936344225,0.3659515248413083,-0.3957525446932036,-2.85699,-8.049047
11.185,2.0,1.0,1.0,34.3,34.2,34.2,2.6,2.8,2.805,-0.6080318858573265,0.03673722701775523,0.32996650102256275,-0.41796636906233325,-3.200449,-7.54375
11.185,2.0,1.0,1.0,34.3,34.2,34.2,2.6,2.8,2.8075,-0.5910675955406334,0.06914550210185175,0.2943497299638334,-0.43932962125156555,-3.605109,-7.037921
11.185,2.0,1.0,1.0,34.3,34.2,34.2,2.6,2.8,2.81,-0.5682446742176619,0.1072410764587642,0.2601106784626974,-0.458835164569857,-4.083127,-6.535876
11.185,2.0,1.0,1.0,34.3,34.2,34.2,2.6,2.8,2.8125,-0.539144882591328,0.151428650511703,0.228579269884254,-0.475158034911558,-4.648,-6.043141
11.185,2.0,1.0,1.0,34.3,34.2,34.2,2.6,2.8,2.815,-0.5036508471353824,0.20181586350138989,0.20141729023182525,-0.4866436034897747,-5.313085,-5.566562
11.185,2.0,1.0,1.0,34.3,34.2,34.2,2.6,2.8,2.8175,-0.46212620606603816,0.25803487509525064,0.18056855088516052,-0.49135617412123717,-6.087726,-5.114311
11.185,2.0,1.0,1.0,34.3,34.2,34.2,2.6,2.8,2.82,-0.4156073899567248,0.31905207405965536,0.16811285512365332,-0.48722268248058265,-6.968224,-4.695695
11.185,2.0,1.0,1.0,34.3,34.2,34.2,2.6,2.8,2.8225,-0.3659521058218931,0.3830201510929478,0.16599869587279237,-0.47229650227290776,-7.918906,-4.320702
11.185,2.0,1.0,1.0,34.3,34.2,34.2,2.6,2.8,2.825,-0.3158629820606865,0.4472532257375659,0.1756646885437834,-0.445131770632368,-8.839654,-3.99923
11.185,2.0,1.0,1.0,34.3,34.2,34.2,2.6,2.8,2.8275,-0.2687043287589551,0.5084064454488917,0.1976206145322494,-0.4051984406088893,-9.536769,-3.740059
11.185,2.0,1.0,1.0,34.3,34.2,34.2,2.6,2.8,2.83,-0.22808055318705178,0.5628916833449807,0.23112216964640503,-0.3532055478466063,-9.77002,-3.549697
