1,w,sub_t,h,l1,l2,l3,g1,g2,Freq,S11_re,S21_re,S11_img,S21_img,S11_dB,S21_dB
11.185,2.0,1.0,1.0,33.1,34.6,34.6,3.9,4.3,2.5,0.888567253666963,-0.0043412529286252,0.446104150429224,0.00322486414930785,-0.049967,-45.339302
11.185,2.0,1.0,1.0,33.1,34.6,34.6,3.9,4.3,2.5025,0.8857715932872703,-0.004433260054824712,0.45151268315786675,0.0032422957595725933,-0.050431,-45.204783
11.185,2.0,1.0,1.0,33.1,34.6,34.6,3.9,4.3,2.505,0.8829318539878185,-0.004527105258250712,0.4569230697763969,0.003259459149845762,-0.050904,-45.069778
11.185,2.0,1.0,1.0,33.1,34.6,34.6,3.9,4.3,2.5075,0.8800476154597933,-0.004622837183659654,0.46233517366427496,0.003276341764240177,-0.051386,-44.934268
11.185,2.0,1.0,1.0,33.1,34.6,34.6,3.9,4.3,2.51,0.8771184495328316,-0.004720506317649014,0.46774885406740707,0.003292930505066436,-0.051878,-44.798235
11.185,2.0,1.0,1.0,33.1,34.6,34.6,3.9,4.3,2.5125,0.8741439199785315,-0.004820165078898382,0.4731639659519287,0.003309211703706025,-0.052379,-44.66166
11.185,2.0,1.0,1.0,33.1,34.6,34.6,3.9,4.3,2.515,0.8711235823064825,-0.004921867913815889,0.4785803598524673,0.003325171089575995,-0.05289,-44.524524
11.185,2.0,1.0,1.0,33.1,34.6,34.6,3.9,4.3,2.5175,0.8680569835523951,-0.0050256713979718,0.4839978817146157,0.0033407937570365475,-0.053411,-44.386806
11.185,2.0,1.0,1.0,33.1,34.6,34.6,3.9,4.3,2.52,0.8649436620578544,-0.005131634343732425,0.4894163727313372,0.0033560641300793897,-0.053943,-44.248487
11.185,2.0,1.0,1.0,33.1,34.6,34.6,3.9,4.3,2.5225,0.8617831472412119,-0.0052398179145405985,0.49483566917298966,0.0033709659246201774,-0.054486,-44.109545
11.185,2.0,1.0,1.0,33.1,34.6,34.6,3.9,4.3,2.525,0.858574959359057,-0.005350285746327256,0.5002556022106533,0.003385482108201855,-0.05504,-43.969959
11.185,2.0,1.0,1.0,33.1,34.6,34.6,3.9,4.3,2.5275,0.8553186092577009,-0.0054631040765779765,0.505675997732416,0.0033995948568979768,-0.055605,-43.829708
11.185,2.0,1.0,1.0,33.1,34.6,34.6,3.9,4.3,2.53,0.8520135981140338,-0.00557834188162334,0.5110966761522372,0.003413285509184937,-0.056182,-43.688768
11.185,2.0,1.0,1.0,33.1,34.6,34.6,3.9,4.3,2.5325,0.8486594171650821,-0.00569607102277037,0.5165174522110031,0.0034265345165305095,-0.056771,-43.547117
11.185,2.0,1.0,1.0,33.1,34.6,34.6,3.9,4.3,2.535,0.8452555474255181,-0.005816366401945753,0.5219381347693398,0.003439321390421225,-0.057373,-43.404731
11.185,2.0,1.0,1.0,33.1,34.6,34.6,3.9,4.3,2.5375,0.8418014593923403,-0.005939306127579684,0.5273585265917223,0.0034516246455246528,-0.057987,-43.261586
11.185,2.0,1.0,1.0,33.1,34.6,34.6,3.9,4.3,2.54,0.8382966127358398,-0.006064971691523948,0.5327784241213915,0.0034634217386523875,-0.058615,-43.117656
11.185,2.0,1.0,1.0,33.1,34.6,34.6,3.9,4.3,2.5425,0.8347404559759288,-0.0061934481578680796,0.5381976172455406,0.0034746890031563987,-0.059257,-42.972915
11.185,2.0,1.0,1.0,33.1,34.6,34.6,3.9,4.3,2.545,0.8311324261427975,-0.006324824364595645,0.5436158890501943,0.0034854015783544056,-0.059913,-42.827338
11.185,2.0,1.0,1.0,33.1,34.6,34.6,3.9,4.3,2.5475,0.8274719484208009,-0.006459193139107992,0.5490330155641537,0.0034955333335386844,-0.060583,-42.680896
11.185,2.0,1.0,1.0,33.1,34.6,34.6,3.9,4.3,2.55,0.8237584357743499,-0.006596651528738021,0.55444876549134,0.003505056786076749,-0.061269,-42.533562
11.185,2.0,1.0,1.0,33.1,34.6,34.6,3.9,4.3,2.5525,0.8199912885545081,-0.006737301047480119,0.5598628999307838,0.0035139430130611228,-0.06197,-42.385306
11.185,2.0,1.0,1.0,33.1,34.6,34.6,3.9,4.3,2.555,0.8161698940848331,-0.006881247940278802,0.5652751720834758,0.0035221615559078976,-0.062688,-42.236098
11.185,2.0,1.0,1.0,33.1,34.6,34.6,3.9,4.3,2.5575,0.8122936262249071,-0.007028603466345634,0.5706853269452068,0.0035296803172397803,-0.063422,-42.085907
11.185,2.0,1.0,1.0,33.1,34.6,34.6,3.9,4.3,2.56,0.808361844909827,-0.0071794842031157585,0.5760931009844354,0.003536465449317206,-0.064174,-41.934701
11.185,2.0,1.0,1.0,33.1,34.6,34.6,3.9,4.3,2.5625,0.804373895663777,-0.00733401237261236,0.581498221804155,0.00354248123320041,-0.064943,-41.782448
11.185,2.0,1.0,1.0,33.1,34.6,34.6,3.9,4.3,2.565,0.8003291090856149,-0.007492316192161698,0.5869004077866178,0.0035476899477347224,-0.065731,-41.629111
11.185,2.0,1.0,1.0,33.1,34.6,34.6,3.9,4.3,2.5675,0.7962268003042113,-0.007654530251594632,0.592299367719666,0.0035520517273489433,-0.066539,-41.474657
11.185,2.0,1.0,1.0,33.1,34.6,34.6,3.9,4.3,2.57,0.7920662684010502,-0.007820795919286824,0.5976948004032983,0.003555524407542005,-0.067366,-41.319048
11.185,2.0,1.0,1.0,33.1,34.6,34.6,3.9,4.3,2.5725,0.7878467957973555,-0.007991261779629444,0.6030863942349622,0.003558063356802892,-0.068214,-41.162246
11.185,2.0,1.0,1.0,33.1,34.6,34.6,3.9,4.3,2.575,0.7835676476027235,-0.00816608410479059,0.6084738267719004,0.003559621293562187,-0.069084,-41.004211
11.185,2.0,1.0,1.0,33.1,34.6,34.6,3.9,4.3,2.5775,0.779228070921943,-0.008345427363926744,0.6138567642687087,0.0035601480866074243,-0.069976,-40.844904
11.185,2.0,1.0,1.0,33.1,34.6,34.6,3.9,4.3,2.58,0.77482729411633,-0.008529464773338859,0.6192348611880604,0.0035595905372060557,-0.070891,-40.68428
11.185,2.0,1.0,1.0,33.1,34.6,34.6,3.9,4.3,2.5825,0.7703645260155121,-0.008718378891442662,0.6246077596823335,0.003557892140965822,-0.071831,-40.522295
11.185,2.0,1.0,1.0,33.1,34.6,34.6,3.9,4.3,2.585,0.7658389550751806,-0.008912362262843533,0.6299750890436131,0.003554992827219099,-0.072795,-40.358905
11.185,2.0,1.0,1.0,33.1,34.6,34.6,3.9,4.3,2.5875,0.7612497484758178,-0.009111618116279351,0.6353364651192667,0.0035508286734404443,-0.073786,-40.19406
11.185,2.0,1.0,1.0,33.1,34.6,34.6,3.9,4.3,2.59,0.7565960511568823,-0.009316361121725713,0.6406914896899383,0.003545331591890066,-0.074804,-40.027711
11.185,2.0,1.0,1.0,33.1,34.6,34.6,3.9,4.3,2.5925,0.7518769847802957,-0.009526818212557958,0.6460397498064686,0.0035384289853141954,-0.075851,-39.859806
11.185,2.0,1.0,1.0,33.1,34.6,34.6,3.9,4.3,2.595,0.747091646616405,-0.00974322947933888,0.6513808170817758,0.0035300433681187252,-0.076927,-39.690292
11.185,2.0,1.0,1.0,33.1,34.6,34.6,3.9,4.3,2.5975,0.7422391083447791,-0.009965849142566176,0.6567142469332882,0.003520091948956831,-0.078034,-39.519111
11.185,2.0,1.0,1.0,33.1,34.6,34.6,3.9,4.3,2.6,0.7373184147613342,-0.010194946612576783,0.6620395777709318,0.003508486170124194,-0.079173,-39.346204
11.185,2.0,1.0,1.0,33.1,34.6,34.6,3.9,4.3,2.6025,0.7323285823822733,-0.01043080764578522,0.6673563301250303,0.0034951311985253297,-0.080346,-39.171511
11.185,2.0,1.0,1.0,33.1,34.6,34.6,3.9,4.3,2.605,0.7272685979341644,-0.01067373560754626,0.6726640057077541,0.003479925362246754,-0.081555,-38.994967
11.185,2.0,1.0,1.0,33.1,34.6,34.6,3.9,4.3,2.6075,0.7221374167182149,-0.010924052853196784,0.6779620864008762,0.0034627595259308953,-0.082801,-38.816505
11.185,2.0,1.0,1.0,33.1,34.6,34.6,3.9,4.3,2.61,0.7169339608352977,-0.011182102240273883,0.6832500331616171,0.0034435163971687664,-0.084085,-38.636054
11.185,2.0,1.0,1.0,33.1,34.6,34.6,3.9,4.3,2.6125,0.7116571172566101,-0.011448248786552463,0.6885272848372007,0.003422069754995105,-0.08541,-38.45354
11.185,2.0,1.0,1.0,33.1,34.6,34.6,3.9,4.3,2.615,0.7063057357229179,-0.011722881490427441,0.6937932568774217,0.0033982835902486136,-0.086778,-38.268887
11.185,2.0,1.0,1.0,33.1,34.6,34.6,3.9,4.3,2.6175,0.700878626453135,-0.012006415332321973,0.699047339932946,0.003372011146018103,-0.088191,-38.082013
11.185,2.0,1.0,1.0,33.1,34.6,34.6,3.9,4.3,2.62,0.6953745576404561,-0.012299293478279351,0.7042888983252746,0.003343093844590419,-0.089651,-37.892832
11.185,2.0,1.0,1.0,33.1,34.6,34.6,3.9,4.3,2.6225,0.689792252711345,-0.012601989709743484,0.7095172683721402,0.0033113600851986972,-0.091161,-37.701256
11.185,2.0,1.0,1.0,33.1,34.6,34.6,3.9,4.3,2.625,0.684130387319352,-0.0129150111068143,0.71473175654962,0.00327662389437929,-0.092724,-37.50719
11.185,2.0,1.0,1.0,33.1,34.6,34.6,3.9,4.3,2.6275,0.6783875860418347,-0.013238901016056692,0.7199316374693026,0.003238683407808249,-0.094342,-37.310535
11.185,2.0,1.0,1.0,33.1,34.6,34.6,3.9,4.3,2.63,0.672562418743209,-0.013574242338327826,0.7251161516453393,0.003197319159014707,-0.096018,-37.111186
11.185,2.0,1.0,1.0,33.1,34.6,34.6,3.9,4.3,2.6325,0.6666533965631545,-0.013921661177178258,0.7302845030221066,0.0031522921462486314,-0.097756,-36.909032
11.185,2.0,1.0,1.0,33.1,34.6,34.6,3.9,4.3,2.635,0.6606589674821757,-0.014281830894299739,0.7354358562282796,0.0031033416438799276,-0.09956,-36.703959
11.185,2.0,1.0,1.0,33.1,34.6,34.6,3.9,4.3,2.6375,0.6545775114099007,-0.014655476625387735,0.7405693335172701,0.003050182718858774,-0.101434,-36.495841
11.185,2.0,1.0,1.0,33.1,34.6,34.6,3.9,4.3,2.64,0.6484073347332813,-0.015043380317842872,0.7456840113470012,0.002992503405768537,-0.103381,-36.284549
11.185,2.0,1.0,1.0,33.1,34.6,34.6,3.9,4.3,2.6425,0.6421466642522932,-0.01544638636116446,0.7507789165435595,0.002929961485599312,-0.105407,-36.069945
11.185,2.0,1.0,1.0,33.1,34.6,34.6,3.9,4.3,2.645,0.6357936404194442,-0.015865407891961225,0.7558530219831834,0.0028621808032440114,-0.107516,-35.851883
11.185,2.0,1.0,1.0,33.1,34.6,34.6,3.9,4.3,2.6475,0.6293463097861755,-0.016301433868530234,0.7609052417147995,0.0027887470464769684,-0.109715,-35.630207
11.185,2.0,1.0,1.0,33.1,34.6,34.6,3.9,4.3,2.65,0.6228026165435865,-0.01675553702532488,0.7659344254305209,0.002709202894317514,-0.112009,-35.404751
11.185,2.0,1.0,1.0,33.1,34.6,34.6,3.9,4.3,2.6525,0.6161603930264856,-0.01722888283581166,0.770939352173424,0.0026230424245851872,-0.114405,-35.175341
11.185,2.0,1.0,1.0,33.1,34.6,34.6,3.9,4.3,2.655,0.6094173490277988,-0.017722739633781508,0.775918723149901,0.002529704648322748,-0.116911,-34.941789
11.185,2.0,1.0,1.0,33.1,34.6,34.6,3.9,4.3,2.6575,0.6025710597443567,-0.0182384900688251,0.7808711534867574,0.0024285660115917346,-0.119534,-34.703894
11.185,2.0,1.0,1.0,33.1,34.6,34.6,3.9,4.3,2.66,0.5956189521439907,-0.018777644102269498,0.7857951627398367,0.0023189316716408616,-0.122283,-34.461444
11.185,2.0,1.0,1.0,33.1,34.6,34.6,3.9,4.3,2.6625,0.5885582895067234,-0.019341853786450945,0.7906891639195929,0.0022000253129533707,-0.125169,-34.21421
11.185,2.0,1.0,1.0,33.1,34.6,34.6,3.9,4.3,2.665,0.5813861538482583,-0.019932930114071355,0.7955514507475933,0.0020709772170534684,-0.128201,-33.961948
11.185,2.0,1.0,1.0,33.1,34.6,34.6,3.9,4.3,2.6675,0.5740994258804143,-0.020552862277143046,0.8003801827935919,0.0019308102354145392,-0.131394,-33.704394
11.185,2.0,1.0,1.0,33.1,34.6,34.6,3.9,4.3,2.67,0.5666947620984778,-0.021203839738662383,0.8051733680620452,0.0017784232337299543,-0.134759,-33.441266
11.185,2.0,1.0,1.0,33.1,34.6,34.6,3.9,4.3,2.6725,0.5591685685072788,-0.021888277597100988,0.8099288424948814,0.0016125714734124706,-0.138312,-33.17226
11.185,2.0,1.0,1.0,33.1,34.6,34.6,3.9,4.3,2.675,0.5515169704029796,-0.022608845817111062,0.8146442457277742,0.0014318432661748679,-0.142071,-32.897048
11.185,2.0,1.0,1.0,33.1,34.6,34.6,3.9,4.3,2.6775,0.5437357775122538,-0.023368503013263202,0.8193169922717142,0.001234632071527912,-0.146054,-32.615276
11.185,2.0,1.0,1.0,33.1,34.6,34.6,3.9,4.3,2.68,0.5358204436500008,-0.02417053561182829,0.8239442370791196,0.001019102993787483,-0.150284,-32.326561
11.185,2.0,1.0,1.0,33.1,34.6,34.6,3.9,4.3,2.6825,0.5277660198850852,-0.025018603384329027,0.8285228341789775,0.0007831523595758725,-0.154785,-32.030485
11.185,2.0,1.0,1.0,33.1,34.6,34.6,3.9,4.3,2.685,0.5195670999935109,-0.02591679255289645,0.8330492867080714,0.000524358698288659,-0.159585,-31.726598
11.185,2.0,1.0,1.0,33.1,34.6,34.6,3.9,4.3,2.6875,0.511217756721132,-0.0268696779200032,0.837519686197109,0.000239922978467731,-0.164717,-31.414405
11.185,2.0,1.0,1.0,33.1,34.6,34.6,3.9,4.3,2.69,0.5027114670626113,-0.02788239578432903,0.8419296383528712,-7.340466627353789e-05,-0.170217,-31.093368
11.185,2.0,1.0,1.0,33.1,34.6,34.6,3.9,4.3,2.6925,0.4940410243770796,-0.02896072978268759,0.8462741717565101,-0.00041941531105288806,-0.176127,-30.762899
11.185,2.0,1.0,1.0,33.1,34.6,34.6,3.9,4.3,2.695,0.48519843468906104,-0.03011121225924637,0.8505476247983362,-0.0008025534045806849,-0.182499,-30.422351
11.185,2.0,1.0,1.0,33.1,34.6,34.6,3.9,4.3,2.6975,0.47617479394924517,-0.031341244323094444,0.8547435046841909,-0.0012280569043719605,-0.189388,-30.071013
11.185,2.0,1.0,1.0,33.1,34.6,34.6,3.9,4.3,2.7,0.46696014233756966,-0.032659238428473285,0.858854310325212,-0.0017021335878548763,-0.196864,-29.708098
11.185,2.0,1.0,1.0,33.1,34.6,34.6,3.9,4.3,2.7025,0.457543290867789,-0.03407478810959051,0.8628713081419129,-0.0022321845290648075,-0.205004,-29.33274
11.185,2.0,1.0,1.0,33.1,34.6,34.6,3.9,4.3,2.705,0.4479116145964369,-0.035598870423161885,0.8667842459549735,-0.002827089592170059,-0.213905,-28.943972
11.185,2.0,1.0,1.0,33.1,34.6,34.6,3.9,4.3,2.7075,0.43805080567276605,-0.037244087669578825,0.8705809847286586,-0.0034975752017743565,-0.223679,-28.540721
11.185,2.0,1.0,1.0,33.1,34.6,34.6,3.9,4.3,2.71,0.4279445783663939,-0.03902495599560331,0.8742470202790918,-0.004256692303473832,-0.234463,-28.121786
11.185,2.0,1.0,1.0,33.1,34.6,34.6,3.9,4.3,2.7125,0.41757431725959765,-0.04095824933524886,0.877764856108807,-0.005120443373801409,-0.24642,-27.685821
11.185,2.0,1.0,1.0,33.1,34.6,34.6,3.9,4.3,2.715,0.40691865938671185,-0.04306340741275258,0.8811131726872352,-0.00610861316506145,-0.259753,-27.231312
11.185,2.0,1.0,1.0,33.1,34.6,34.6,3.9,4.3,2.7175,0.39595300205033623,-0.045363015385759944,0.8842657153201386,-0.007245881012046354,-0.27471,-26.756546
11.185,2.0,1.0,1.0,33.1,34.6,34.6,3.9,4.3,2.72,0.38464893194906224,-0.047883358511606064,0.8871897884554678,-0.008563326750338178,-0.291603,-26.259584
11.185,2.0,1.0,1.0,33.1,34.6,34.6,3.9,4.3,2.7225,0.37297358127819996,-0.050655044763901515,0.8898441929515543,-0.010100493473517385,-0.310821,-25.738217
11.185,2.0,1.0,1.0,33.1,34.6,34.6,3.9,4.3,2.725,0.3608889388386433,-0.053713665313333187,0.8921763652109549,-0.01190824770079166,-0.332861,-25.189927
11.185,2.0,1.0,1.0,33.1,34.6,34.6,3.9,4.3,2.7275,0.34835119121164915,-0.057100414802615664,0.8941183585784156,-0.014052795497805253,-0.358365,-24.611827
11.185,2.0,1.0,1.0,33.1,34.6,34.6,3.9,4.3,2.73,0.3353102652557634,-0.060862495697292775,0.8955811252499936,-0.0166213942219122,-0.38817,-24.000608
11.185,2.0,1.0,1.0,33.1,34.6,34.6,3.9,4.3,2.7325,0.32170993802077635,-0.06505293397529932,0.8964462764143745,-0.01973057811760764,-0.423385,-23.352471
11.185,2.0,1.0,1.0,33.1,34.6,34.6,3.9,4.3,2.735,0.30748927471645604,-0.06972903565019081,0.8965540694730024,-0.023538141026209682,-0.465501,-22.663067
11.185,2.0,1.0,1.0,33.1,34.6,34.6,3.9,4.3,2.7375,0.29258695873251767,-0.07494790569873322,0.8956857324459564,-0.028260750664570615,-0.516555,-21.927452
11.185,2.0,1.0,1.0,33.1,34.6,34.6,3.9,4.3,2.74,0.27695172663749534,-0.08075579627427114,0.8935373483102689,-0.034199941263269244,-0.579367,-21.140096
11.185,2.0,1.0,1.0,33.1,34.6,34.6,3.9,4.3,2.7425,0.2605655284810575,-0.08716463882565587,0.8896815139038363,-0.04178020933224519,-0.657907,-20.295016
11.185,2.0,1.0,1.0,33.1,34.6,34.6,3.9,4.3,2.745,0.24349307087802552,-0.09410208247542363,0.8835126596343232,-0.05160320540178236,-0.75781,-19.386194
11.185,2.0,1.0,1.0,33.1,34.6,34.6,3.9,4.3,2.7475,0.225985645475128,-0.10130716096297215,0.8741753833660465,-0.06451842987467721,-0.887081,-18.40861
11.185,2.0,1.0,1.0,33.1,34.6,34.6,3.9,4.3,2.75,0.208694037242515,-0.108116998403956,0.860492817420575,-0.0816929656892047,-1.056833,-17.360558
11.185,2.0,1.0,1.0,33.1,34.6,34.6,3.9,4.3,2.7525,0.19308579369677928,-0.11305005654826666,0.8409748493556629,-0.10459970203910537,-1.281232,-16.248594
11.185,2.0,1.0,1.0,33.1,34.6,34.6,3.9,4.3,2.755,0.18217270872638286,-0.11308242762026331,0.8141693650203842,-0.13466026419847496,-1.573542,-15.097462
11.185,2.0,1.0,1.0,33.1,34.6,34.6,3.9,4.3,2.7575,0.18139200355620436,-0.10277913212493835,0.7800147450384306,-0.17188646549448452,-1.929211,-13.967635
11.185,2.0,1.0,1.0,33.1,34.6,34.6,3.9,4.3,2.76,0.19824483435563237,-0.07468277528796305,0.7430720249256607,-0.2116547297974573,-2.280768,-12.977829
11.185,2.0,1.0,1.0,33.1,34.6,34.6,3.9,4.3,2.7625,0.23707557540949337,-0.024558946090885884,0.71608218894422,-0.24119720188987587,-2.449041,-12.307761
11.185,2.0,1.0,1.0,33.1,34.6,34.6,3.9,4.3,2.765,0.2890483000031606,0.03863163179073202,0.7152271588613127,-0.2444212077326828,-2.254109,-12.130064
11.185,2.0,1.0,1.0,33.1,34.6,34.6,3.9,4.3,2.7675,0.3331429864177916,0.09386827574141073,0.7437441610260431,-0.2182685360712952,-1.777406,-12.483175
11.185,2.0,1.0,1.0,33.1,34.6,34.6,3.9,4.3,2.77,0.3551381239762722,0.12707008984552673,0.7874997903521925,-0.1769742060856624,-1.270988,-13.236112
11.185,2.0,1.0,1.0,33.1,34.6,34.6,3.9,4.3,2.7725,0.35635680554943594,0.13969633202313989,0.8309065932174732,-0.1360925185845979,-0.875675,-14.198024
11.185,2.0,1.0,1.0,33.1,34.6,34.6,3.9,4.3,2.775,0.3446909787596713,0.13969551218451567,0.8668686377265926,-0.10263922907731528,-0.603444,-15.221606
11.185,2.0,1.0,1.0,33.1,34.6,34.6,3.9,4.3,2.7775,0.32676412548965705,0.13369548099537434,0.8945975219625742,-0.0773401341843275,-0.423546,-16.224028
11.185,2.0,1.0,1.0,33.1,34.6,34.6,3.9,4.3,2.78,0.30639823395626803,0.12550680782605406,0.9155591859869482,-0.058692824788827674,-0.305242,-17.16771
11.185,2.0,1.0,1.0,33.1,34.6,34.6,3.9,4.3,2.7825,0.28545298897794813,0.11697817434790064,0.9314734887807946,-0.04495766677636316,-0.22676,-18.039597
11.185,2.0,1.0,1.0,33.1,34.6,34.6,3.9,4.3,2.785,0.26473128108614374,0.10890590753178998,0.9437300827643262,-0.034733497004169014,-0.174081,-18.83827
11.185,2.0,1.0,1.0,33.1,34.6,34.6,3.9,4.3,2.7875,0.2445248364450057,0.10157951314687388,0.9533342987153237,-0.027006973315396244,-0.138382,-19.567252
11.185,2.0,1.0,1.0,33.1,34.6,34.6,3.9,4.3,2.79,0.2248929470559136,0.09505947334655208,0.960986845368707,-0.021070533749978897,-0.114087,-20.231793
11.185,2.0,1.0,1.0,33.1,34.6,34.6,3.9,4.3,2.7925,0.20579595810329665,0.0893099022211874,0.9671718565385813,-0.01643325021498839,-0.097618,-20.837403
11.185,2.0,1.0,1.0,33.1,34.6,34.6,3.9,4.3,2.795,0.18715712879752433,0.0842598370914073,0.9722249050427997,-0.012752294934950746,-0.086636,-21.389234
11.185,2.0,1.0,1.0,33.1,34.6,34.6,3.9,4.3,2.7975,0.1688904127393781,0.0798306764434186,0.9763803890341528,-0.00978529077589756,-0.079581,-21.891837
11.185,2.0,1.0,1.0,33.1,34.6,34.6,3.9,4.3,2.8,0.1509122557634619,0.07594780093957665,0.9798033949278141,-0.007358290032847812,-0.075396,-22.349119
11.185,2.0,1.0,1.0,33.1,34.6,34.6,3.9,4.3,2.8025,0.1331459834057961,0.07254490118443185,0.9826109259920063,-0.0053444219195144934,-0.073351,-22.764355
11.185,2.0,1.0,1.0,33.1,34.6,34.6,3.9,4.3,2.805,0.11552282280986265,0.06956502548266703,0.984886079028303,-0.003649592076930064,-0.072936,-23.140244
11.185,2.0,1.0,1.0,33.1,34.6,34.6,3.9,4.3,2.8075,0.09798146378139029,0.06696023393216224,0.9866875801941455,-0.002202804775439071,-0.07379,-23.478963
11.185,2.0,1.0,1.0,33.1,34.6,34.6,3.9,4.3,2.81,0.08046704825172182,0.0646907390550291,0.988056253054831,-0.0009495229148771583,-0.075657,-23.782222
11.185,2.0,1.0,1.0,33.1,34.6,34.6,3.9,4.3,2.8125,0.062929992938498,0.0627239352783333,0.989019435760301,0.000152961022024507,-0.078356,-24.051308
11.185,2.0,1.0,1.0,33.1,34.6,34.6,3.9,4.3,2.815,0.04532481817495491,0.06103349272967371,0.9895940048360237,0.0011388111073288318,-0.081758,-24.287124
11.185,2.0,1.0,1.0,33.1,34.6,34.6,3.9,4.3,2.8175,0.027609045242685263,0.05959858437909045,0.9897884321038161,0.0020360304840424588,-0.085775,-24.490216
11.185,2.0,1.0,1.0,33.1,34.6,34.6,3.9,4.3,2.82,0.009742172253798172,0.05840326732281235,0.9896041518391431,0.0028682337556572347,-0.090349,-24.660795
11.185,2.0,1.0,1.0,33.1,34.6,34.6,3.9,4.3,2.8225,-0.00831528573111838,0.057436019040665566,0.9890364170614724,0.0036560097160813045,-0.095447,-24.798752
11.185,2.0,1.0,1.0,33.1,34.6,34.6,3.9,4.3,2.825,-0.02660271801768965,0.056689423295442846,0.9880747575118666,0.004418015750570201,-0.101057,-24.903661
11.185,2.0,1.0,1.0,33.1,34.6,34.6,3.9,4.3,2.8275,-0.045160332488321416,0.05616000101851885,0.9867031050184443,0.005171908391339724,-0.107182,-24.974781
