1,w,sub_t,h,l1,l2,l3,g1,g2,Freq,S11_re,S21_re,S11_img,S21_img,S11_dB,S21_dB
11.185,2.0,1.0,1.0,33.0,33.6,33.6,4.0,2.6,2.5,0.90078032683924,-0.00451703063787412,0.421245599123875,0.00438879559663329,-0.048682,-44.015915
11.185,2.0,1.0,1.0,33.0,33.6,33.6,4.0,2.6,2.5025,0.8981724882375571,-0.0046125733749375515,0.4266720143137103,0.00441573661779803,-0.049079,-43.896107
11.185,2.0,1.0,1.0,33.0,33.6,33.6,4.0,2.6,2.505,0.8955220852850944,-0.004709804109905787,0.43210109201210267,0.004442392104790607,-0.049481,-43.776087
11.185,2.0,1.0,1.0,33.0,33.6,33.6,4.0,2.6,2.5075,0.8928287373778448,-0.004808755658245802,0.437532699635002,0.004468747529648742,-0.049891,-43.655849
11.185,2.0,1.0,1.0,33.0,33.6,33.6,4.0,2.6,2.51,0.8900920577960478,-0.004909461688524802,0.4429667007066082,0.004494787847932944,-0.050306,-43.535381
11.185,2.0,1.0,1.0,33.0,33.6,33.6,4.0,2.6,2.5125,0.8873116535948679,-0.005011956750407888,0.4484029547294145,0.004520497477653551,-0.050729,-43.414677
11.185,2.0,1.0,1.0,33.0,33.6,33.6,4.0,2.6,2.515,0.8844871254929548,-0.0051162763037531,0.4538413170500064,0.0045458602772245294,-0.051159,-43.293726
11.185,2.0,1.0,1.0,33.0,33.6,33.6,4.0,2.6,2.5175,0.8816180677588501,-0.005222456748854548,0.45928163872044836,0.004570859522393001,-0.051595,-43.172521
11.185,2.0,1.0,1.0,33.0,33.6,33.6,4.0,2.6,2.52,0.87870406809517,-0.005330535457887797,0.46472376635511736,0.004595477882091432,-0.052039,-43.051051
11.185,2.0,1.0,1.0,33.0,33.6,33.6,4.0,2.6,2.5225,0.8757447075205305,-0.005440550807614354,0.47016754198279614,0.004619697393154423,-0.052491,-42.929309
11.185,2.0,1.0,1.0,33.0,33.6,33.6,4.0,2.6,2.525,0.8727395602491496,-0.005552542213404468,0.47561280289387614,0.00464349943384019,-0.05295,-42.807283
11.185,2.0,1.0,1.0,33.0,33.6,33.6,4.0,2.6,2.5275,0.8696881935680697,-0.005666550164642081,0.48105938148248084,0.004666864696092526,-0.053417,-42.684965
11.185,2.0,1.0,1.0,33.0,33.6,33.6,4.0,2.6,2.53,0.8665901677119505,-0.005782616261578022,0.4865071050833217,0.0046897731564747,-0.053892,-42.562346
11.185,2.0,1.0,1.0,33.0,33.6,33.6,4.0,2.6,2.5325,0.8634450357353617,-0.005900783253702198,0.49195579580309606,0.004712204045703196,-0.054375,-42.439415
11.185,2.0,1.0,1.0,33.0,33.6,33.6,4.0,2.6,2.535,0.8602523433825183,-0.0060210950797087645,0.49740527034622734,0.0047341358167045395,-0.054866,-42.316163
11.185,2.0,1.0,1.0,33.0,33.6,33.6,4.0,2.6,2.5375,0.8570116289543926,-0.006143596909133329,0.5028553398347253,0.004755546111113084,-0.055366,-42.19258
11.185,2.0,1.0,1.0,33.0,33.6,33.6,4.0,2.6,2.54,0.8537224231731317,-0.006268335185744464,0.5083058096219568,0.004776411724123618,-0.055875,-42.068655
11.185,2.0,1.0,1.0,33.0,33.6,33.6,4.0,2.6,2.5425,0.8503842490437123,-0.006395357672778168,0.5137564791000921,0.004796708567605532,-0.056392,-41.944379
11.185,2.0,1.0,1.0,33.0,33.6,33.6,4.0,2.6,2.545,0.8469966217127549,-0.006524713500107782,0.5192071415009882,0.004816411631381166,-0.056919,-41.819741
11.185,2.0,1.0,1.0,33.0,33.6,33.6,4.0,2.6,2.5475,0.8435590483244261,-0.006656453213447566,0.5246575836902482,0.004835494942562874,-0.057456,-41.69473
11.185,2.0,1.0,1.0,33.0,33.6,33.6,4.0,2.6,2.55,0.8400710278733381,-0.006790628825694635,0.5301075859542133,0.0048539315228380755,-0.058002,-41.569337
11.185,2.0,1.0,1.0,33.0,33.6,33.6,4.0,2.6,2.5525,0.8365320510543742,-0.00692729387051871,0.5355569217795885,0.004871693343582716,-0.058558,-41.443549
11.185,2.0,1.0,1.0,33.0,33.6,33.6,4.0,2.6,2.555,0.8329416001093368,-0.007066503458317484,0.5410053576254306,0.004888751278677349,-0.059124,-41.317356
11.185,2.0,1.0,1.0,33.0,33.6,33.6,4.0,2.6,2.5575,0.8292991486703333,-0.007208314334661098,0.5464526526871969,0.004905075054889854,-0.0597,-41.190747
11.185,2.0,1.0,1.0,33.0,33.6,33.6,4.0,2.6,2.56,0.825604161599801,-0.00735278494135682,0.5518985586525283,0.004920633199681233,-0.060287,-41.063709
11.185,2.0,1.0,1.0,33.0,33.6,33.6,4.0,2.6,2.5625,0.8218560948270669,-0.007499975480274148,0.5573428194484435,0.004935392986280399,-0.060885,-40.936233
11.185,2.0,1.0,1.0,33.0,33.6,33.6,4.0,2.6,2.565,0.8180543951813319,-0.007649947980077798,0.5627851709796015,0.004949320375862904,-0.061495,-40.808305
11.185,2.0,1.0,1.0,33.0,33.6,33.6,4.0,2.6,2.5675,0.8141985002209697,-0.007802766366025967,0.5682253408572555,0.004962379956658569,-0.062115,-40.679913
11.185,2.0,1.0,1.0,33.0,33.6,33.6,4.0,2.6,2.57,0.8102878380590169,-0.00795849653300093,0.5736630481185283,0.004974534879799287,-0.062748,-40.551046
11.185,2.0,1.0,1.0,33.0,33.6,33.6,4.0,2.6,2.5725,0.806321827184728,-0.008117206421949394,0.5790980029356049,0.004985746791705876,-0.063392,-40.421691
11.185,2.0,1.0,1.0,33.0,33.6,33.6,4.0,2.6,2.575,0.8022998762810565,-0.008278966099921648,0.5845299063144168,0.0049959757627987015,-0.064049,-40.291835
11.185,2.0,1.0,1.0,33.0,33.6,33.6,4.0,2.6,2.5775,0.7982213840379286,-0.00844384784390987,0.5899584497823804,0.0050051802123007244,-0.064719,-40.161465
11.185,2.0,1.0,1.0,33.0,33.6,33.6,4.0,2.6,2.58,0.7940857389611504,-0.008611926228699988,0.5953833150647151,0.005013316828885764,-0.065402,-40.030568
11.185,2.0,1.0,1.0,33.0,33.6,33.6,4.0,2.6,2.5825,0.7898923191767905,-0.008783278218964031,0.6008041737488587,0.005020340486906397,-0.066098,-39.89913
11.185,2.0,1.0,1.0,33.0,33.6,33.6,4.0,2.6,2.585,0.7856404922308692,-0.008957983265836127,0.6062206869364553,0.005026204157916564,-0.066808,-39.767138
11.185,2.0,1.0,1.0,33.0,33.6,33.6,4.0,2.6,2.5875,0.7813296148841694,-0.00913612340823016,0.6116325048823751,0.0050308588171827685,-0.067533,-39.634578
11.185,2.0,1.0,1.0,33.0,33.6,33.6,4.0,2.6,2.59,0.7769590329019824,-0.009317783379174807,0.6170392666201846,0.005034253344855157,-0.068272,-39.501434
11.185,2.0,1.0,1.0,33.0,33.6,33.6,4.0,2.6,2.5925,0.7725280808385726,-0.00950305071746026,0.6224405995734652,0.0050363344214450255,-0.069025,-39.367694
11.185,2.0,1.0,1.0,33.0,33.6,33.6,4.0,2.6,2.595,0.768036081816155,-0.009692015884910121,0.6278361191523257,0.005037046417228147,-0.069795,-39.23334
11.185,2.0,1.0,1.0,33.0,33.6,33.6,4.0,2.6,2.5975,0.7634823472981381,-0.009884772389614046,0.6332254283344436,0.005036331275164507,-0.07058,-39.09836
11.185,2.0,1.0,1.0,33.0,33.6,33.6,4.0,2.6,2.6,0.7588661768563847,-0.010081416915479176,0.6386081172299057,0.005034128386893369,-0.071381,-38.962735
11.185,2.0,1.0,1.0,33.0,33.6,33.6,4.0,2.6,2.6025,0.7541868579322287,-0.0102820494584827,0.6439837626290807,0.005030374461327923,-0.072199,-38.826451
11.185,2.0,1.0,1.0,33.0,33.6,33.6,4.0,2.6,2.605,0.7494436655909473,-0.010486773470036624,0.6493519275327283,0.005025003385336086,-0.073035,-38.689492
11.185,2.0,1.0,1.0,33.0,33.6,33.6,4.0,2.6,2.6075,0.7446358622693875,-0.010695696007900855,0.6547121606634729,0.005017946075954494,-0.073888,-38.55184
11.185,2.0,1.0,1.0,33.0,33.6,33.6,4.0,2.6,2.61,0.7397626975164131,-0.01090892789511547,0.6600639959577337,0.005009130323536328,-0.074759,-38.413478
11.185,2.0,1.0,1.0,33.0,33.6,33.6,4.0,2.6,2.6125,0.7348234077258119,-0.011126583887454165,0.6654069520371405,0.00499848062518662,-0.07565,-38.274389
11.185,2.0,1.0,1.0,33.0,33.6,33.6,4.0,2.6,2.615,0.7298172158612773,-0.011348782849937605,0.6707405316584072,0.0049859180077851065,-0.076559,-38.134554
11.185,2.0,1.0,1.0,33.0,33.6,33.6,4.0,2.6,2.6175,0.7247433311730552,-0.011575647942984829,0.6760642211405496,0.004971359839839009,-0.077489,-37.993956
11.185,2.0,1.0,1.0,33.0,33.6,33.6,4.0,2.6,2.62,0.7196009489058018,-0.011807306818822007,0.6813774897682844,0.004954719631344785,-0.078439,-37.852575
11.185,2.0,1.0,1.0,33.0,33.6,33.6,4.0,2.6,2.6225,0.7143892499971709,-0.012043891828814761,0.6866797891703521,0.004935906820768859,-0.079411,-37.710392
11.185,2.0,1.0,1.0,33.0,33.6,33.6,4.0,2.6,2.625,0.709107400766616,-0.0122855402424385,0.691970552671415,0.00491482654818094,-0.080404,-37.567386
11.185,2.0,1.0,1.0,33.0,33.6,33.6,4.0,2.6,2.6275,0.7037545525938295,-0.012532394478655399,0.6972491946161095,0.004891379413491976,-0.08142,-37.423538
11.185,2.0,1.0,1.0,33.0,33.6,33.6,4.0,2.6,2.63,0.6983298415862189,-0.012784602350524216,0.7025151096637032,0.004865461218655135,-0.08246,-37.278826
11.185,2.0,1.0,1.0,33.0,33.6,33.6,4.0,2.6,2.6325,0.6928323882347541,-0.013042317323932366,0.7077676720517159,0.004836962692590661,-0.083523,-37.13323
11.185,2.0,1.0,1.0,33.0,33.6,33.6,4.0,2.6,2.635,0.6872612970574661,-0.01330569879140677,0.7130062348267263,0.004805769197484057,-0.084612,-36.986725
11.185,2.0,1.0,1.0,33.0,33.6,33.6,4.0,2.6,2.6375,0.6816156562298281,-0.013574912362035835,0.7182301290404627,0.004771760414985223,-0.085726,-36.839291
11.185,2.0,1.0,1.0,33.0,33.6,33.6,4.0,2.6,2.64,0.6758945372011591,-0.01385013016861291,0.7234386629091327,0.004734810010705464,-0.086867,-36.690903
11.185,2.0,1.0,1.0,33.0,33.6,33.6,4.0,2.6,2.6425,0.6700969942961446,-0.014131531193200882,0.728631120933773,0.004694785275259072,-0.088035,-36.541536
11.185,2.0,1.0,1.0,33.0,33.6,33.6,4.0,2.6,2.645,0.6642220643004708,-0.01441930161241138,0.73380676297924,0.0046515467399364215,-0.089232,-36.391168
11.185,2.0,1.0,1.0,33.0,33.6,33.6,4.0,2.6,2.6475,0.6582687660294867,-0.01471363516379484,0.7389648233092578,0.004604947764915436,-0.090458,-36.23977
11.185,2.0,1.0,1.0,33.0,33.6,33.6,4.0,2.6,2.65,0.6522360998787049,-0.015014733534852632,0.7441045095747468,0.004554834097719691,-0.091714,-36.087318
11.185,2.0,1.0,1.0,33.0,33.6,33.6,4.0,2.6,2.6525,0.6461230473548693,-0.01532280677630041,0.7492250017523865,0.004501043399413943,-0.093002,-35.933784
11.185,2.0,1.0,1.0,33.0,33.6,33.6,4.0,2.6,2.655,0.6399285705861621,-0.01563807374135015,0.7543254510301544,0.0044434047357825995,-0.094323,-35.77914
11.185,2.0,1.0,1.0,33.0,33.6,33.6,4.0,2.6,2.6575,0.6336516118100357,-0.01596076255292054,0.7594049786362652,0.004381738030469058,-0.095678,-35.623357
11.185,2.0,1.0,1.0,33.0,33.6,33.6,4.0,2.6,2.66,0.6272910928369793,-0.01629111110084473,0.7644626746076325,0.004315853476753939,-0.097068,-35.466405
11.185,2.0,1.0,1.0,33.0,33.6,33.6,4.0,2.6,2.6625,0.6208459144884122,-0.01662936757131906,0.7694975964936215,0.004245550904317325,-0.098494,-35.308254
11.185,2.0,1.0,1.0,33.0,33.6,33.6,4.0,2.6,2.665,0.6143149560066801,-0.01697579101102394,0.7745087679904887,0.004170619096960169,-0.099958,-35.148871
11.185,2.0,1.0,1.0,33.0,33.6,33.6,4.0,2.6,2.6675,0.6076970744349948,-0.017330651928555825,0.7794951775014538,0.004090835056847484,-0.101461,-34.988223
11.185,2.0,1.0,1.0,33.0,33.6,33.6,4.0,2.6,2.67,0.6009911039649095,-0.0176942329360351,0.7844557766168887,0.004005963210375305,-0.103005,-34.826278
11.185,2.0,1.0,1.0,33.0,33.6,33.6,4.0,2.6,2.6725,0.5941958552487124,-0.018066829434002236,0.7893894785085754,0.0039157545502490265,-0.104592,-34.662998
11.185,2.0,1.0,1.0,33.0,33.6,33.6,4.0,2.6,2.675,0.5873101146738834,-0.01844875034298495,0.7942951562313793,0.003819945707786187,-0.106223,-34.498348
11.185,2.0,1.0,1.0,33.0,33.6,33.6,4.0,2.6,2.6775,0.5803326435964588,-0.01884031888541564,0.7991716409250345,0.0037182579488115415,-0.1079,-34.33229
11.185,2.0,1.0,1.0,33.0,33.6,33.6,4.0,2.6,2.68,0.5732621775298654,-0.019241873421903203,0.8040177199079944,0.003610396085790304,-0.109624,-34.164786
11.185,2.0,1.0,1.0,33.0,33.6,33.6,4.0,2.6,2.6825,0.5660974252854449,-0.01965376834621891,0.8088321346544591,0.0034960472980345796,-0.111399,-33.995794
11.185,2.0,1.0,1.0,33.0,33.6,33.6,4.0,2.6,2.685,0.5588370680605195,-0.020076375043745785,0.8136135786447757,0.003374879850904405,-0.113225,-33.825272
11.185,2.0,1.0,1.0,33.0,33.6,33.6,4.0,2.6,2.6875,0.5514797584694446,-0.020510082918568866,0.8183606950783456,0.00324654170389906,-0.115105,-33.653177
11.185,2.0,1.0,1.0,33.0,33.6,33.6,4.0,2.6,2.69,0.5440241195126585,-0.020955300494851833,0.8230720744369946,0.0031106589963739687,-0.117042,-33.479464
11.185,2.0,1.0,1.0,33.0,33.6,33.6,4.0,2.6,2.6925,0.5364687434782172,-0.021412456598661155,0.8277462518854414,0.0029668343983117558,-0.119039,-33.304085
11.185,2.0,1.0,1.0,33.0,33.6,33.6,4.0,2.6,2.695,0.528812190769804,-0.021882001626960048,0.8323817044939741,0.002814645312094351,-0.121097,-33.126992
11.185,2.0,1.0,1.0,33.0,33.6,33.6,4.0,2.6,2.6975,0.521052988654549,-0.022364408911117604,0.836976848266772,0.0026536419095473324,-0.123219,-32.948134
11.185,2.0,1.0,1.0,33.0,33.6,33.6,4.0,2.6,2.7,0.5131896299233877,-0.022860176182951095,0.84153003495735,0.0024833449866253463,-0.125409,-32.767458
11.185,2.0,1.0,1.0,33.0,33.6,33.6,4.0,2.6,2.7025,0.505220571455919,-0.023369827152070043,0.8460395486504406,0.0023032436159440657,-0.12767,-32.584909
11.185,2.0,1.0,1.0,33.0,33.6,33.6,4.0,2.6,2.705,0.4971442326809448,-0.023893913204098786,0.8505036020871166,0.0021127925749041755,-0.130005,-32.40043
11.185,2.0,1.0,1.0,33.0,33.6,33.6,4.0,2.6,2.7075,0.4889589939229864,-0.024433015230252778,0.8549203327071344,0.0019114095243452354,-0.132418,-32.213961
11.185,2.0,1.0,1.0,33.0,33.6,33.6,4.0,2.6,2.71,0.480663194624102,-0.024987745599716497,0.8592877983792213,0.0016984719094618106,-0.134913,-32.025439
11.185,2.0,1.0,1.0,33.0,33.6,33.6,4.0,2.6,2.7125,0.4722551314292694,-0.02555875028734193,0.8636039727863508,0.0014733135510440112,-0.137494,-31.834801
11.185,2.0,1.0,1.0,33.0,33.6,33.6,4.0,2.6,2.715,0.4637330561224278,-0.02614671117034857,0.8678667404287669,0.0012352208908994419,-0.140165,-31.641977
11.185,2.0,1.0,1.0,33.0,33.6,33.6,4.0,2.6,2.7175,0.4550951733990021,-0.026752348508978566,0.8720738912026821,0.0009834288504809736,-0.142931,-31.446897
11.185,2.0,1.0,1.0,33.0,33.6,33.6,4.0,2.6,2.72,0.44633963845934277,-0.027376423627436638,0.8762231145069292,0.0007171162561851233,-0.145798,-31.249487
11.185,2.0,1.0,1.0,33.0,33.6,33.6,4.0,2.6,2.7225,0.4374645544059723,-0.0280197418129436,0.8803119928234174,0.0004354007783735908,-0.14877,-31.049669
11.185,2.0,1.0,1.0,33.0,33.6,33.6,4.0,2.6,2.725,0.42846796942593496,-0.02868315545234022,0.8843379947097355,0.00013733332376221274,-0.151854,-30.847362
11.185,2.0,1.0,1.0,33.0,33.6,33.6,4.0,2.6,2.7275,0.41934787373769605,-0.02936756742741789,0.8882984671336408,-0.0001781081877560275,-0.155056,-30.642481
11.185,2.0,1.0,1.0,33.0,33.6,33.6,4.0,2.6,2.73,0.4101021962802043,-0.030073934791996302,0.892190627069107,-0.0005120257407406597,-0.158383,-30.434936
11.185,2.0,1.0,1.0,33.0,33.6,33.6,4.0,2.6,2.7325,0.400728801119627,-0.0308032727557338,0.89601155226197,-0.0008656089267467089,-0.161842,-30.224635
11.185,2.0,1.0,1.0,33.0,33.6,33.6,4.0,2.6,2.735,0.39122548354716347,-0.03155665900170682,0.8997581710595972,-0.001240143535732103,-0.165442,-30.011478
11.185,2.0,1.0,1.0,33.0,33.6,33.6,4.0,2.6,2.7375,0.38158996583906857,-0.03233523836691895,0.9034272511831524,-0.0016370211560366168,-0.16919,-29.795362
11.185,2.0,1.0,1.0,33.0,33.6,33.6,4.0,2.6,2.74,0.3718198926477255,-0.033140227917054274,0.9070153873024214,-0.0020577499210942814,-0.173096,-29.576178
11.185,2.0,1.0,1.0,33.0,33.6,33.6,4.0,2.6,2.7425,0.3619128259902879,-0.03397292244891139,0.910518987251361,-0.0025039665626970407,-0.177171,-29.353813
11.185,2.0,1.0,1.0,33.0,33.6,33.6,4.0,2.6,2.745,0.3518662397991819,-0.03483470045596527,0.9139342566968468,-0.002977449956114492,-0.181426,-29.128145
11.185,2.0,1.0,1.0,33.0,33.6,33.6,4.0,2.6,2.7475,0.3416775139967004,-0.03572703059427349,0.9172571820428107,-0.0034801363724402947,-0.185872,-28.899048
11.185,2.0,1.0,1.0,33.0,33.6,33.6,4.0,2.6,2.75,0.331343928054217,-0.0366514786873118,0.92048351131613,-0.00401413668909895,-0.190524,-28.666386
11.185,2.0,1.0,1.0,33.0,33.6,33.6,4.0,2.6,2.7525,0.32086265399542346,-0.037609715309038935,0.9236087327381258,-0.004581755851621246,-0.195394,-28.430019
11.185,2.0,1.0,1.0,33.0,33.6,33.6,4.0,2.6,2.755,0.3102307488027543,-0.03860352398423666,0.9266280506349743,-0.005185514929958531,-0.2005,-28.189796
11.185,2.0,1.0,1.0,33.0,33.6,33.6,4.0,2.6,2.7575,0.2994451461872171,-0.03963481004349099,0.9295363582800625,-0.005828176172425509,-0.205858,-27.945559
11.185,2.0,1.0,1.0,33.0,33.6,33.6,4.0,2.6,2.76,0.28850264768490524,-0.040705610166447206,0.9323282071891581,-0.006512771531906793,-0.211488,-27.697139
11.185,2.0,1.0,1.0,33.0,33.6,33.6,4.0,2.6,2.7625,0.27739991304915573,-0.04181810264035382,0.9349977723027557,-0.007242635224796259,-0.217411,-27.444358
11.185,2.0,1.0,1.0,33.0,33.6,33.6,4.0,2.6,2.765,0.2661334499169873,-0.04297461835023383,0.9375388123857945,-0.008021440986402098,-0.223651,-27.187026
11.185,2.0,1.0,1.0,33.0,33.6,33.6,4.0,2.6,2.7675,0.2546996027434688,-0.04417765250071114,0.9399446248492207,-0.00885324481118745,-0.230232,-26.924944
11.185,2.0,1.0,1.0,33.0,33.6,33.6,4.0,2.6,2.77,0.2430945410202359,-0.04542987704541652,0.9422079940456295,-0.009742534117109186,-0.237184,-26.657895
11.185,2.0,1.0,1.0,33.0,33.6,33.6,4.0,2.6,2.7725,0.23131424682741475,-0.046734153765023524,0.94432113190624,-0.010694284456576022,-0.244539,-26.385652
11.185,2.0,1.0,1.0,33.0,33.6,33.6,4.0,2.6,2.775,0.21935450181563804,-0.048093547885277595,0.9462756095610257,-0.01171402511983696,-0.252333,-26.107971
11.185,2.0,1.0,1.0,33.0,33.6,33.6,4.0,2.6,2.7775,0.20721087378225564,-0.04951134205628234,0.948062278308163,-0.012807915249550819,-0.260605,-25.824593
11.185,2.0,1.0,1.0,33.0,33.6,33.6,4.0,2.6,2.78,0.19487870310073205,-0.050991050416105965,0.9496711779607608,-0.013982832420007996,-0.2694,-25.535239
11.185,2.0,1.0,1.0,33.0,33.6,33.6,4.0,2.6,2.7825,0.18235308939525613,-0.05253643232482542,0.9510914301825816,-0.015246476046284659,-0.27877,-25.239612
11.185,2.0,1.0,1.0,33.0,33.6,33.6,4.0,2.6,2.785,0.169628879038162,-0.05415150516466867,0.9523111139104361,-0.016607488496895875,-0.288771,-24.937394
11.185,2.0,1.0,1.0,33.0,33.6,33.6,4.0,2.6,2.7875,0.1567006543065744,-0.055840555337364685,0.9533171193241833,-0.018075597412828062,-0.299468,-24.62824
11.185,2.0,1.0,1.0,33.0,33.6,33.6,4.0,2.6,2.79,0.14356272539500115,-0.0576081462223902,0.9540949760340519,-0.01966178351734989,-0.310935,-24.311785
11.185,2.0,1.0,1.0,33.0,33.6,33.6,4.0,2.6,2.7925,0.13020912698291373,-0.059459121349032265,0.9546286501689973,-0.021378479174245447,-0.323256,-23.987631
11.185,2.0,1.0,1.0,33.0,33.6,33.6,4.0,2.6,2.795,0.11663362175732525,-0.06139860032393218,0.9549003038178921,-0.023239804167238004,-0.336527,-23.655352
11.185,2.0,1.0,1.0,33.0,33.6,33.6,4.0,2.6,2.7975,0.10282971427110273,-0.06343196406285943,0.9548900087326367,-0.025261846693680985,-0.350859,-23.314487
11.185,2.0,1.0,1.0,33.0,33.6,33.6,4.0,2.6,2.8,0.08879067989351073,-0.06556482448509054,0.95457540426716,-0.027462999470832725,-0.366382,-22.964539
11.185,2.0,1.0,1.0,33.0,33.6,33.6,4.0,2.6,2.8025,0.07450961554662743,-0.0678029718746245,0.9539312870964762,-0.029864363242494547,-0.383243,-22.60497
11.185,2.0,1.0,1.0,33.0,33.6,33.6,4.0,2.6,2.805,0.05997952165967827,-0.0701522903545173,0.9529291172095147,-0.03249023296963314,-0.401616,-22.235197
11.185,2.0,1.0,1.0,33.0,33.6,33.6,4.0,2.6,2.8075,0.045193428661952265,-0.07261862801028972,0.9515364208459003,-0.03536868573756213,-0.421706,-21.854588
11.185,2.0,1.0,1.0,33.0,33.6,33.6,4.0,2.6,2.81,0.030144586884195013,-0.07520760262649052,0.9497160662729102,-0.03853229408374869,-0.443751,-21.462458
11.185,2.0,1.0,1.0,33.0,33.6,33.6,4.0,2.6,2.8125,0.014826746698653885,-0.07792431601922441,0.9474253823808292,-0.04201899422663286,-0.468036,-21.058061
11.185,2.0,1.0,1.0,33.0,33.6,33.6,4.0,2.6,2.815,-0.0007654327910417034,-0.08077293845233102,0.9446150828286384,-0.04587314572500237,-0.4949,-20.64059
11.185,2.0,1.0,1.0,33.0,33.6,33.6,4.0,2.6,2.8175,-0.016635791548042254,-0.08375610797697797,0.9412279497815583,-0.050146827512018446,-0.524747,-20.209167
11.185,2.0,1.0,1.0,33.0,33.6,33.6,4.0,2.6,2.82,-0.032785813645388046,-0.08687406529220522,0.9371972212245642,-0.05490142491752773,-0.558069,-19.762839
11.185,2.0,1.0,1.0,33.0,33.6,33.6,4.0,2.6,2.8225,-0.049213394719724204,-0.09012340924143715,0.9324446149332258,-0.06020957264766566,-0.595458,-19.300574
11.185,2.0,1.0,1.0,33.0,33.6,33.6,4.0,2.6,2.825,-0.06591106459292588,-0.09349530589170557,0.9268779118953145,-0.06615752820490757,-0.637643,-18.821261
11.185,2.0,1.0,1.0,33.0,33.6,33.6,4.0,2.6,2.8275,-0.08286342037853237,-0.09697290718354014,0.9203880156572797,-0.07284805545866085,-0.685521,-18.323701
