1,w,sub_t,h,l1,l2,l3,g1,g2,Freq,S11_re,S21_re,S11_img,S21_img,S11_dB,S21_dB
11.185,2.0,1.0,1.0,33.3,34.7,34.7,2.0,3.7,2.5,0.863554782106372,-0.00886885386645566,0.490102415046834,0.00799714884657917,-0.061551,-38.458471
11.185,2.0,1.0,1.0,33.3,34.7,34.7,2.0,3.7,2.5025,0.8602387556390503,-0.009070470477594692,0.4957415930830467,0.008056660204345848,-0.062242,-38.321417
11.185,2.0,1.0,1.0,33.3,34.7,34.7,2.0,3.7,2.505,0.8568693906308543,-0.009276621855503788,0.5013832683224475,0.008115987004194856,-0.062948,-38.183709
11.185,2.0,1.0,1.0,33.3,34.7,34.7,2.0,3.7,2.5075,0.8534460510468798,-0.00948743513399845,0.507027265672758,0.008175100787209887,-0.063668,-38.045329
11.185,2.0,1.0,1.0,33.3,34.7,34.7,2.0,3.7,2.51,0.8499680867156862,-0.009703042077041183,0.5126734034967583,0.008233971443931168,-0.064404,-37.906263
11.185,2.0,1.0,1.0,33.3,34.7,34.7,2.0,3.7,2.5125,0.84643483290761,-0.00992357928648332,0.5183214933364848,0.008292567115373106,-0.065157,-37.766492
11.185,2.0,1.0,1.0,33.3,34.7,34.7,2.0,3.7,2.515,0.8428456098959878,-0.010149188420879564,0.523971339624387,0.008350854087464187,-0.065926,-37.626001
11.185,2.0,1.0,1.0,33.3,34.7,34.7,2.0,3.7,2.5175,0.8391997225004031,-0.010380016426057435,0.5296227393806655,0.008408796678419183,-0.066712,-37.484771
11.185,2.0,1.0,1.0,33.3,34.7,34.7,2.0,3.7,2.52,0.8354964596109745,-0.010616215778174624,0.5352754818959964,0.008466357118513575,-0.067516,-37.342786
11.185,2.0,1.0,1.0,33.3,34.7,34.7,2.0,3.7,2.5225,0.8317350936926888,-0.010857944740044822,0.5409293483987611,0.00852349542168456,-0.068338,-37.200026
11.185,2.0,1.0,1.0,33.3,34.7,34.7,2.0,3.7,2.525,0.8279148802686639,-0.011105367631572114,0.5465841117058529,0.008580169248335323,-0.069179,-37.056473
11.185,2.0,1.0,1.0,33.3,34.7,34.7,2.0,3.7,2.5275,0.8240350573811919,-0.011358655115192184,0.5522395358560694,0.00863633375866601,-0.070039,-36.912109
11.185,2.0,1.0,1.0,33.3,34.7,34.7,2.0,3.7,2.53,0.8200948450293217,-0.011617984497282633,0.5578953757250011,0.008691941455795596,-0.070919,-36.766914
11.185,2.0,1.0,1.0,33.3,34.7,34.7,2.0,3.7,2.5325,0.8160934445816513,-0.011883540046577214,0.5635513766202679,0.008746942017876572,-0.071821,-36.620867
11.185,2.0,1.0,1.0,33.3,34.7,34.7,2.0,3.7,2.535,0.8120300381629176,-0.012155513330692449,0.5692072738558669,0.008801282118333358,-0.072743,-36.473948
11.185,2.0,1.0,1.0,33.3,34.7,34.7,2.0,3.7,2.5375,0.8079037880128758,-0.012434103571957646,0.574862792304275,0.008854905233278781,-0.073688,-36.326137
11.185,2.0,1.0,1.0,33.3,34.7,34.7,2.0,3.7,2.54,0.8037138358158431,-0.012719518023828832,0.5805176459248802,0.008907751435079686,-0.074656,-36.177412
11.185,2.0,1.0,1.0,33.3,34.7,34.7,2.0,3.7,2.5425,0.7994593019991831,-0.013011972369261942,0.5861715372671737,0.008959757170948527,-0.075648,-36.027751
11.185,2.0,1.0,1.0,33.3,34.7,34.7,2.0,3.7,2.545,0.7951392849988687,-0.013311691142525738,0.5918241569470237,0.009010855025337857,-0.076664,-35.877132
11.185,2.0,1.0,1.0,33.3,34.7,34.7,2.0,3.7,2.5475,0.7907528604901526,-0.013618908176046744,0.5974751830942077,0.00906097346480089,-0.077706,-35.72553
11.185,2.0,1.0,1.0,33.3,34.7,34.7,2.0,3.7,2.55,0.7862990805811932,-0.01393386707400235,0.6031242807692444,0.009110036563859713,-0.078774,-35.572923
11.185,2.0,1.0,1.0,33.3,34.7,34.7,2.0,3.7,2.5525,0.7817769729673767,-0.014256821714508965,0.6087711013473794,0.009157963710284085,-0.079869,-35.419286
11.185,2.0,1.0,1.0,33.3,34.7,34.7,2.0,3.7,2.555,0.7771855400438615,-0.014588036782399085,0.6144152818674273,0.009204669288037145,-0.080993,-35.264594
11.185,2.0,1.0,1.0,33.3,34.7,34.7,2.0,3.7,2.5575,0.7725237579737172,-0.014927788334735355,0.6200564443429529,0.009250062335974786,-0.082146,-35.108821
11.185,2.0,1.0,1.0,33.3,34.7,34.7,2.0,3.7,2.56,0.7677905757088287,-0.01527636440138209,0.6256941950330689,0.009294046180204454,-0.083329,-34.951941
11.185,2.0,1.0,1.0,33.3,34.7,34.7,2.0,3.7,2.5625,0.7629849139605123,-0.015634065623138942,0.631328123669886,0.009336518037805835,-0.084544,-34.793926
11.185,2.0,1.0,1.0,33.3,34.7,34.7,2.0,3.7,2.565,0.7581056641165621,-0.01600120593014476,0.6369578026393934,0.009377368589389975,-0.085792,-34.634748
11.185,2.0,1.0,1.0,33.3,34.7,34.7,2.0,3.7,2.5675,0.7531516871012003,-0.016378113263477535,0.6425827861122427,0.00941648151772549,-0.087074,-34.47438
11.185,2.0,1.0,1.0,33.3,34.7,34.7,2.0,3.7,2.57,0.7481218121741136,-0.016765130343118478,0.648202609120609,0.009453733009383214,-0.088391,-34.31279
11.185,2.0,1.0,1.0,33.3,34.7,34.7,2.0,3.7,2.5725,0.74301483566447,-0.017162615485708077,0.6538167865769364,0.009488991216043815,-0.089745,-34.149949
11.185,2.0,1.0,1.0,33.3,34.7,34.7,2.0,3.7,2.575,0.7378295196354838,-0.017570943475808152,0.6594248122299872,0.009522115671770236,-0.091137,-33.985824
11.185,2.0,1.0,1.0,33.3,34.7,34.7,2.0,3.7,2.5775,0.7325645904747325,-0.017990506494694143,0.6650261575531746,0.009552956662167522,-0.092569,-33.820385
11.185,2.0,1.0,1.0,33.3,34.7,34.7,2.0,3.7,2.58,0.727218737405058,-0.018421715111044384,0.6706202705596865,0.009581354540928249,-0.094043,-33.653596
11.185,2.0,1.0,1.0,33.3,34.7,34.7,2.0,3.7,2.5825,0.7217906109104416,-0.018864999338262824,0.676206574538372,0.009607138988788188,-0.095559,-33.485424
11.185,2.0,1.0,1.0,33.3,34.7,34.7,2.0,3.7,2.585,0.7162788210708012,-0.019320809763580037,0.6817844667037616,0.009630128209389468,-0.09712,-33.315833
11.185,2.0,1.0,1.0,33.3,34.7,34.7,2.0,3.7,2.5875,0.7106819357991395,-0.019789618754521992,0.6873533167529347,0.009650128055957352,-0.098728,-33.144786
11.185,2.0,1.0,1.0,33.3,34.7,34.7,2.0,3.7,2.59,0.7049984789739381,-0.020271921748823286,0.6929124653212096,0.009666931082035172,-0.100385,-32.972246
11.185,2.0,1.0,1.0,33.3,34.7,34.7,2.0,3.7,2.5925,0.6992269284590714,-0.02076823863439663,0.698461222327814,0.009680315508782027,-0.102093,-32.798173
11.185,2.0,1.0,1.0,33.3,34.7,34.7,2.0,3.7,2.595,0.6933657140028834,-0.02127911522655421,0.7039988652017539,0.00969004410050461,-0.103854,-32.622528
11.185,2.0,1.0,1.0,33.3,34.7,34.7,2.0,3.7,2.5975,0.6874132150073146,-0.02180512485031991,0.7095246369770979,0.00969586293916193,-0.10567,-32.445267
11.185,2.0,1.0,1.0,33.3,34.7,34.7,2.0,3.7,2.6,0.6813677581572146,-0.022346870036375397,0.7150377442457153,0.009697500087529475,-0.107545,-32.266348
11.185,2.0,1.0,1.0,33.3,34.7,34.7,2.0,3.7,2.6025,0.67522761489909,-0.022904984339954308,0.7205373549542156,0.009694664129526563,-0.10948,-32.085727
11.185,2.0,1.0,1.0,33.3,34.7,34.7,2.0,3.7,2.605,0.6689909987575886,-0.023480134292850872,0.7260225960303947,0.009687042574875368,-0.111479,-31.903356
11.185,2.0,1.0,1.0,33.3,34.7,34.7,2.0,3.7,2.6075,0.6626560624770029,-0.02407302149963874,0.7314925508228313,0.00967430011375189,-0.113544,-31.719188
11.185,2.0,1.0,1.0,33.3,34.7,34.7,2.0,3.7,2.61,0.6562208949739119,-0.024684384890220883,0.7369462563354451,0.00965607670538554,-0.115679,-31.533174
11.185,2.0,1.0,1.0,33.3,34.7,34.7,2.0,3.7,2.6125,0.6496835180858461,-0.02531500314195937,0.7423827002367424,0.009631985482633056,-0.117886,-31.345262
11.185,2.0,1.0,1.0,33.3,34.7,34.7,2.0,3.7,2.615,0.6430418830994828,-0.025965697285868995,0.7478008176211028,0.009601610452361381,-0.120171,-31.155398
11.185,2.0,1.0,1.0,33.3,34.7,34.7,2.0,3.7,2.6175,0.6362938670403736,-0.026637333512721295,0.7531994874968092,0.009564503968992031,-0.122536,-30.963527
11.185,2.0,1.0,1.0,33.3,34.7,34.7,2.0,3.7,2.62,0.6294372687045475,-0.02733082619640109,0.7585775289724751,0.009520183955726055,-0.124986,-30.769592
11.185,2.0,1.0,1.0,33.3,34.7,34.7,2.0,3.7,2.6225,0.6224698044105165,-0.028047141153503912,0.7639336971101048,0.009468130844753484,-0.127524,-30.573533
11.185,2.0,1.0,1.0,33.3,34.7,34.7,2.0,3.7,2.625,0.615389103448232,-0.0287872991599681,0.769266678409079,0.00940778420407101,-0.130157,-30.375289
11.185,2.0,1.0,1.0,33.3,34.7,34.7,2.0,3.7,2.6275,0.6081927031993106,-0.02955237974752665,0.7745750858809294,0.00933853901433699,-0.132887,-30.174794
11.185,2.0,1.0,1.0,33.3,34.7,34.7,2.0,3.7,2.63,0.6008780439004897,-0.030343525304942158,0.7798574536696458,0.009259741554384913,-0.135722,-29.971982
11.185,2.0,1.0,1.0,33.3,34.7,34.7,2.0,3.7,2.6325,0.5934424630196073,-0.031161945511385316,0.7851122311664509,0.00917068484850727,-0.138667,-29.766783
11.185,2.0,1.0,1.0,33.3,34.7,34.7,2.0,3.7,2.635,0.5858831892105161,-0.032008922131943375,0.7903377765612881,0.00907060362229708,-0.141727,-29.559124
11.185,2.0,1.0,1.0,33.3,34.7,34.7,2.0,3.7,2.6375,0.5781973358101954,-0.032885814208118896,0.7955323497656284,0.00895866870655489,-0.14491,-29.348931
11.185,2.0,1.0,1.0,33.3,34.7,34.7,2.0,3.7,2.64,0.5703818938378326,-0.03379406367932684,0.8006941046323722,0.008833980820385102,-0.148222,-29.136124
11.185,2.0,1.0,1.0,33.3,34.7,34.7,2.0,3.7,2.6425,0.5624337244519131,-0.034735201474824784,0.8058210803884923,0.008695563654923594,-0.151671,-28.920622
11.185,2.0,1.0,1.0,33.3,34.7,34.7,2.0,3.7,2.645,0.5543495508172087,-0.03571085411924584,0.8109111921843332,0.008542356167942262,-0.155265,-28.702338
11.185,2.0,1.0,1.0,33.3,34.7,34.7,2.0,3.7,2.6475,0.5461259493291282,-0.036722750898954236,0.8159622206499509,0.008373203986603338,-0.159014,-28.481183
11.185,2.0,1.0,1.0,33.3,34.7,34.7,2.0,3.7,2.65,0.5377593401380327,-0.03777273164081721,0.8209718003331777,0.008186849800572977,-0.162926,-28.257065
11.185,2.0,1.0,1.0,33.3,34.7,34.7,2.0,3.7,2.6525,0.5292459769109602,-0.03886275515968439,0.8259374068758367,0.007981922610186197,-0.167013,-28.029884
11.185,2.0,1.0,1.0,33.3,34.7,34.7,2.0,3.7,2.655,0.520581935762602,-0.039994908435889404,0.8308563427633703,0.007756925673930317,-0.171285,-27.79954
11.185,2.0,1.0,1.0,33.3,34.7,34.7,2.0,3.7,2.6575,0.5117631032815022,-0.041171416589388145,0.8357257214583573,0.007510222975666643,-0.175755,-27.565926
11.185,2.0,1.0,1.0,33.3,34.7,34.7,2.0,3.7,2.66,0.5027851635712106,-0.04239465372270688,0.8405424496995174,0.007240024004092741,-0.180435,-27.328929
11.185,2.0,1.0,1.0,33.3,34.7,34.7,2.0,3.7,2.6625,0.49364358421971494,-0.04366715471058397,0.845303207713935,0.0069443666042090626,-0.185341,-27.088433
11.185,2.0,1.0,1.0,33.3,34.7,34.7,2.0,3.7,2.665,0.4843336011038541,-0.044991628019957895,0.8500044270504908,0.006621097622068155,-0.190488,-26.844315
11.185,2.0,1.0,1.0,33.3,34.7,34.7,2.0,3.7,2.6675,0.47485020192899496,-0.046370969649570284,0.8546422656957327,0.00626785101875187,-0.195893,-26.596446
11.185,2.0,1.0,1.0,33.3,34.7,34.7,2.0,3.7,2.67,0.46518810839796526,-0.04780827828369367,0.8592125800782942,0.005882023075998412,-0.201575,-26.34469
11.185,2.0,1.0,1.0,33.3,34.7,34.7,2.0,3.7,2.6725,0.45534175689775014,-0.049306871758952514,0.8637108935027983,0.005460744252566598,-0.207555,-26.088906
11.185,2.0,1.0,1.0,33.3,34.7,34.7,2.0,3.7,2.675,0.44530527758808264,-0.05087030494639176,0.8681323604769766,0.005000847175306506,-0.213856,-25.828944
11.185,2.0,1.0,1.0,33.3,34.7,34.7,2.0,3.7,2.6775,0.43507247177356195,-0.05250238915212949,0.872471726304066,0.004498830159605927,-0.220502,-25.564647
11.185,2.0,1.0,1.0,33.3,34.7,34.7,2.0,3.7,2.68,0.4246367874413114,-0.05420721313811685,0.8767232812033832,0.00395081554747406,-0.22752,-25.29585
11.185,2.0,1.0,1.0,33.3,34.7,34.7,2.0,3.7,2.6825,0.41399129285079433,-0.055989165858351925,0.880880808091755,0.0033525020244286126,-0.234942,-25.022377
11.185,2.0,1.0,1.0,33.3,34.7,34.7,2.0,3.7,2.685,0.403128648073036,-0.05785296099350111,0.8849375230026668,0.002699109924192524,-0.242801,-24.744045
11.185,2.0,1.0,1.0,33.3,34.7,34.7,2.0,3.7,2.6875,0.3920410743957828,-0.05980366334569915,0.8888860069331918,0.001985318347610377,-0.251133,-24.460661
11.185,2.0,1.0,1.0,33.3,34.7,34.7,2.0,3.7,2.69,0.3807203215424996,-0.06184671712186329,0.8927181276841947,0.001205192702558998,-0.259981,-24.172018
11.185,2.0,1.0,1.0,33.3,34.7,34.7,2.0,3.7,2.6925,0.36915763270122115,-0.06398797608342058,0.8964249499887962,0.0003521010068340727,-0.269391,-23.877901
11.185,2.0,1.0,1.0,33.3,34.7,34.7,2.0,3.7,2.695,0.357343707430828,-0.06623373546641342,0.8999966318973424,-0.0005813830239435211,-0.279414,-23.57808
11.185,2.0,1.0,1.0,33.3,34.7,34.7,2.0,3.7,2.6975,0.34526866261585554,-0.06859076546971565,0.9034223049918063,-0.0016035924687713547,-0.290108,-23.272314
11.185,2.0,1.0,1.0,33.3,34.7,34.7,2.0,3.7,2.7,0.33292199178890364,-0.07106634595842745,0.9066899355230192,-0.0027238981094667484,-0.301539,-22.960345
11.185,2.0,1.0,1.0,33.3,34.7,34.7,2.0,3.7,2.7025,0.3202925233484068,-0.07366830181793045,0.9097861629815478,-0.003952861161388659,-0.313778,-22.641901
11.185,2.0,1.0,1.0,33.3,34.7,34.7,2.0,3.7,2.705,0.3073683784919209,-0.07640503809884484,0.9126961119039808,-0.005302411929047687,-0.32691,-22.316694
11.185,2.0,1.0,1.0,33.3,34.7,34.7,2.0,3.7,2.7075,0.2941369300923993,-0.07928557368307622,0.9154031718522126,-0.006786059336947506,-0.341027,-21.984418
11.185,2.0,1.0,1.0,33.3,34.7,34.7,2.0,3.7,2.71,0.280584764310432,-0.08231957163326693,0.9178887394491616,-0.008419137320609461,-0.356237,-21.644747
11.185,2.0,1.0,1.0,33.3,34.7,34.7,2.0,3.7,2.7125,0.2666976475188188,-0.0855173636029103,0.9201319150679053,-0.010219095325460706,-0.37266,-21.297337
11.185,2.0,1.0,1.0,33.3,34.7,34.7,2.0,3.7,2.715,0.2524605021999149,-0.08888996459982927,0.9221091452017861,-0.012205841701724545,-0.390436,-20.941821
11.185,2.0,1.0,1.0,33.3,34.7,34.7,2.0,3.7,2.7175,0.23785739697608618,-0.09244907289738516,0.923793799630996,-0.014402150660041977,-0.409724,-20.577809
11.185,2.0,1.0,1.0,33.3,34.7,34.7,2.0,3.7,2.72,0.2228715580096861,-0.09620704781637078,0.9251556701778926,-0.01683414573218106,-0.430709,-20.204888
11.185,2.0,1.0,1.0,33.3,34.7,34.7,2.0,3.7,2.7225,0.20748541188541386,-0.10017685523362342,0.9261603750332136,-0.019531875437381573,-0.453604,-19.822617
11.185,2.0,1.0,1.0,33.3,34.7,34.7,2.0,3.7,2.725,0.1916806740789061,-0.10437196669948286,0.9267686492611406,-0.02253000016242551,-0.478657,-19.430529
11.185,2.0,1.0,1.0,33.3,34.7,34.7,2.0,3.7,2.7275,0.17543850266131011,-0.108806192528469,0.9269354980845103,-0.025868613187392513,-0.506158,-19.028131
11.185,2.0,1.0,1.0,33.3,34.7,34.7,2.0,3.7,2.73,0.15873974461018636,-0.11349342155226814,0.9266091848756317,-0.02959422336213971,-0.536446,-18.614897
11.185,2.0,1.0,1.0,33.3,34.7,34.7,2.0,3.7,2.7325,0.1415653128623728,-0.11844722952929626,0.9257300204682329,-0.03376093212111165,-0.569921,-18.190274
11.185,2.0,1.0,1.0,33.3,34.7,34.7,2.0,3.7,2.735,0.12389674727717975,-0.12368030328085886,0.9242289146426583,-0.03843184313008388,-0.607057,-17.753679
11.185,2.0,1.0,1.0,33.3,34.7,34.7,2.0,3.7,2.7375,0.1057170336891654,-0.1292036067779677,0.9220256448756087,-0.043680748426541065,-0.648418,-17.304502
11.185,2.0,1.0,1.0,33.3,34.7,34.7,2.0,3.7,2.74,0.08701178459953873,-0.13502518628231763,0.9190267926435975,-0.04959413948458805,-0.69468,-16.842106
11.185,2.0,1.0,1.0,33.3,34.7,34.7,2.0,3.7,2.7425,0.06777092606056524,-0.1411484710140267,0.9151232955692603,-0.0562735933608219,-0.746654,-16.365834
11.185,2.0,1.0,1.0,33.3,34.7,34.7,2.0,3.7,2.745,0.04799109237994761,-0.14756986930675536,0.9101875678880091,-0.06383857957905426,-0.805325,-15.87502
11.185,2.0,1.0,1.0,33.3,34.7,34.7,2.0,3.7,2.7475,0.02767900922832797,-0.15427538209017028,0.9040701581202756,-0.07242971668046318,-0.871888,-15.368994
11.185,2.0,1.0,1.0,33.3,34.7,34.7,2.0,3.7,2.75,0.00685625382098117,-0.161235848691102,0.896595951960421,-0.0822124679581136,-0.947811,-14.847106
11.185,2.0,1.0,1.0,33.3,34.7,34.7,2.0,3.7,2.7525,-0.014434073766256895,-0.16840029638073167,0.8875600081610716,-0.09338118600459619,-1.034897,-14.308754
11.185,2.0,1.0,1.0,33.3,34.7,34.7,2.0,3.7,2.755,-0.03611804418395831,-0.1756866778501028,0.876723265609728,-0.10616326555513005,-1.135385,-13.753421
11.185,2.0,1.0,1.0,33.3,34.7,34.7,2.0,3.7,2.7575,-0.05807799759234242,-0.18296904885524876,0.8638086299455606,-0.1208228950694792,-1.252061,-13.180731
11.185,2.0,1.0,1.0,33.3,34.7,34.7,2.0,3.7,2.76,-0.0801348222028339,-0.19005997782698625,0.8484984157122359,-0.1376634326195573,-1.388414,-12.590533
11.185,2.0,1.0,1.0,33.3,34.7,34.7,2.0,3.7,2.7625,-0.10202394826569613,-0.19668674735243205,0.8304349025309021,-0.1570266550403004,-1.548827,-11.98301
11.185,2.0,1.0,1.0,33.3,34.7,34.7,2.0,3.7,2.765,-0.12336352576062094,-0.20245984841016035,0.8092270240036424,-0.17928588051222877,-1.738818,-11.358841
11.185,2.0,1.0,1.0,33.3,34.7,34.7,2.0,3.7,2.7675,-0.14361367504333156,-0.20683269738814997,0.784468136823253,-0.20482805685826105,-1.965325,-10.719408
11.185,2.0,1.0,1.0,33.3,34.7,34.7,2.0,3.7,2.77,-0.16202723440598105,-0.20905304358365753,0.755772545940358,-0.23401721528327016,-2.237021,-10.067083
11.185,2.0,1.0,1.0,33.3,34.7,34.7,2.0,3.7,2.7725,-0.17759618223892676,-0.208110274746382,0.7228418052891311,-0.26712840244753144,-2.564583,-9.405598
11.185,2.0,1.0,1.0,33.3,34.7,34.7,2.0,3.7,2.775,-0.18900555293174445,-0.20269041533948481,0.6855746819274746,-0.30423841502623733,-2.960764,-8.740492
11.185,2.0,1.0,1.0,33.3,34.7,34.7,2.0,3.7,2.7775,-0.1946200115227584,-0.19116382284450661,0.6442339707635821,-0.34506044813699266,-3.439839,-8.079616
11.185,2.0,1.0,1.0,33.3,34.7,34.7,2.0,3.7,2.78,-0.19254741062460562,-0.17164947863074317,0.5996725706953447,-0.38872057693284445,-4.015578,-7.433611
11.185,2.0,1.0,1.0,33.3,34.7,34.7,2.0,3.7,2.7825,-0.18084236728426886,-0.14221806607324367,0.5535903396412829,-0.43350471233684706,-4.695874,-6.816188
11.185,2.0,1.0,1.0,33.3,34.7,34.7,2.0,3.7,2.785,-0.1579112472249665,-0.10129394518919689,0.5087344122990212,-0.4766628888585668,-5.470692,-6.24395
11.185,2.0,1.0,1.0,33.3,34.7,34.7,2.0,3.7,2.7875,-0.12312190860211936,-0.04825812569155046,0.46888144924565256,-0.5144307212538779,-6.289158,-5.735411
11.185,2.0,1.0,1.0,33.3,34.7,34.7,2.0,3.7,2.79,-0.0774782108973576,0.01588769530431524,0.4384102635255864,-0.5424564148449068,-7.028823,-5.308979
11.185,2.0,1.0,1.0,33.3,34.7,34.7,2.0,3.7,2.7925,-0.02403422072041436,0.08811802852025792,0.4213889628697864,-0.556705808575331,-7.492232,-4.980017
11.185,2.0,1.0,1.0,33.3,34.7,34.7,2.0,3.7,2.795,0.03233400930545405,0.16361733469989054,0.42040300969175604,-0.5546186938811869,-7.501069,-4.757694
11.185,2.0,1.0,1.0,33.3,34.7,34.7,2.0,3.7,2.7975,0.08592313760860087,0.23676899180471475,0.43566227317870737,-0.5359838297521605,-7.051274,-4.642778
11.185,2.0,1.0,1.0,33.3,34.7,34.7,2.0,3.7,2.8,0.13159685546437852,0.3025332168094962,0.46490539611954756,-0.5030235618059135,-6.317973,-4.627363
11.185,2.0,1.0,1.0,33.3,34.7,34.7,2.0,3.7,2.8025,0.16591186371400016,0.35755403439612565,0.5041644155829127,-0.45963089146533603,-5.502,-4.696652
11.185,2.0,1.0,1.0,33.3,34.7,34.7,2.0,3.7,2.805,0.18750882059779467,0.4005379872886513,0.5489378973305128,-0.41020817156152134,-4.730248,-4.831984
11.185,2.0,1.0,1.0,33.3,34.7,34.7,2.0,3.7,2.8075,0.19679542384808094,0.43193537556819256,0.5951961779489116,-0.3586759136556632,-4.056219,-5.013909
11.185,2.0,1.0,1.0,33.3,34.7,34.7,2.0,3.7,2.81,0.19528217928254835,0.45328169065457136,0.6399122258068676,-0.30795163062046627,-3.490878,-5.224468
11.185,2.0,1.0,1.0,33.3,34.7,34.7,2.0,3.7,2.8125,0.184931457961031,0.466554723766643,0.681144222281394,-0.25987069113063,-3.026337,-5.448412
11.185,2.0,1.0,1.0,33.3,34.7,34.7,2.0,3.7,2.815,0.1677017802347563,0.47372566595618315,0.717856132062909,-0.21536437637523287,-2.648473,-5.673548
11.185,2.0,1.0,1.0,33.3,34.7,34.7,2.0,3.7,2.8175,0.14530633260303794,0.47652193161379,0.7496543000927905,-0.17471940420744955,-2.342603,-5.890541
11.185,2.0,1.0,1.0,33.3,34.7,34.7,2.0,3.7,2.82,0.11912850861120945,0.47634470201179097,0.7765444938844347,-0.13781617925254566,-2.09565,-6.092458
11.185,2.0,1.0,1.0,33.3,34.7,34.7,2.0,3.7,2.8225,0.09022728718694704,0.4742746816040929,0.7987479318780875,-0.10430801733726787,-1.896739,-6.274256
11.185,2.0,1.0,1.0,33.3,34.7,34.7,2.0,3.7,2.825,0.0593826837400734,0.47111690437702874,0.8165776731372519,-0.07374013478020618,-1.737143,-6.43231
11.185,2.0,1.0,1.0,33.3,34.7,34.7,2.0,3.7,2.8275,0.027152105282973668,0.4674557783798445,0.8303625309597302,-0.045621090548036196,-1.610004,-6.56402
11.185,2.0,1.0,1.0,33.3,34.7,34.7,2.0,3.7,2.83,-0.006076470987227078,0.4637064081378489,0.8404036802098642,-0.01946124119126285,-1.510014,-6.667495
