1,w,sub_t,h,l1,l2,l3,g1,g2,Freq,S11_re,S21_re,S11_img,S21_img,S11_dB,S21_dB
11.185,2.0,1.0,1.0,34.7,34.9,34.9,2.1,2.9,2.5,0.648782349130059,-0.023030452261769,0.747049364549603,0.0102787313585519,-0.092167,-31.96506
11.185,2.0,1.0,1.0,34.7,34.9,34.9,2.1,2.9,2.5025,0.6420954940327654,-0.023509431788639658,0.7526057642507077,0.010231299134618687,-0.093495,-31.821882
11.185,2.0,1.0,1.0,34.7,34.9,34.9,2.1,2.9,2.505,0.6353157907858941,-0.023998945581697514,0.7581354077774636,0.010178339011706396,-0.094856,-31.677799
11.185,2.0,1.0,1.0,34.7,34.9,34.9,2.1,2.9,2.5075,0.628442104198167,-0.024499278029713308,0.7636371727056782,0.010119590414999281,-0.096251,-31.53279
11.185,2.0,1.0,1.0,34.7,34.9,34.9,2.1,2.9,2.51,0.621473280325481,-0.02501072310133701,0.7691098989734633,0.01005477991110768,-0.097681,-31.386838
11.185,2.0,1.0,1.0,34.7,34.9,34.9,2.1,2.9,2.5125,0.6144081461238263,-0.02553358473355744,0.7745523874285812,0.00998362048153139,-0.099149,-31.239921
11.185,2.0,1.0,1.0,34.7,34.9,34.9,2.1,2.9,2.515,0.6072455090935709,-0.026068177238319737,0.7799633983069147,0.009905810748582046,-0.100654,-31.092019
11.185,2.0,1.0,1.0,34.7,34.9,34.9,2.1,2.9,2.5175,0.5999841569147861,-0.026614825728216253,0.7853416496378631,0.009821034150183374,-0.102199,-30.943111
11.185,2.0,1.0,1.0,34.7,34.9,34.9,2.1,2.9,2.52,0.5926228570732116,-0.027173866562213256,0.7906858155721106,0.009728958059662132,-0.103785,-30.793176
11.185,2.0,1.0,1.0,34.7,34.9,34.9,2.1,2.9,2.5225,0.5851603564764966,-0.027745647812416334,0.7959945246268745,0.0096292328463066,-0.105413,-30.642192
11.185,2.0,1.0,1.0,34.7,34.9,34.9,2.1,2.9,2.525,0.5775953810602811,-0.028330529752926586,0.8012663578433576,0.009521490872098253,-0.107085,-30.490135
11.185,2.0,1.0,1.0,34.7,34.9,34.9,2.1,2.9,2.5275,0.5699266353837158,-0.02892888537188458,0.8064998468506873,0.009405345419622298,-0.108803,-30.336982
11.185,2.0,1.0,1.0,34.7,34.9,34.9,2.1,2.9,2.53,0.562152802213974,-0.029541100907843003,0.811693471830164,0.00928038954571131,-0.110568,-30.182709
11.185,2.0,1.0,1.0,34.7,34.9,34.9,2.1,2.9,2.5325,0.5542725420993078,-0.030167576411657012,0.8168456593731259,0.009146194854893602,-0.112383,-30.027292
11.185,2.0,1.0,1.0,34.7,34.9,34.9,2.1,2.9,2.535,0.5462844929301817,-0.03080872633512576,0.8219547802251872,0.009002310186173259,-0.114248,-29.870704
11.185,2.0,1.0,1.0,34.7,34.9,34.9,2.1,2.9,2.5375,0.5381872694880326,-0.0314649801476579,0.827019146908957,0.008848260206079529,-0.116167,-29.712919
11.185,2.0,1.0,1.0,34.7,34.9,34.9,2.1,2.9,2.54,0.5299794629811677,-0.03213678298227939,0.8320370112167036,0.00868354390026608,-0.11814,-29.55391
11.185,2.0,1.0,1.0,34.7,34.9,34.9,2.1,2.9,2.5425,0.5216596405673363,-0.03282459631233401,0.8370065615636486,0.008507632955219457,-0.120172,-29.393649
11.185,2.0,1.0,1.0,34.7,34.9,34.9,2.1,2.9,2.545,0.5132263448625266,-0.03352889866025937,0.8419259201917626,0.008319970020836086,-0.122263,-29.232107
11.185,2.0,1.0,1.0,34.7,34.9,34.9,2.1,2.9,2.5475,0.5046780934355386,-0.03425018633984567,0.8467931402130044,0.008119966843745685,-0.124416,-29.069255
11.185,2.0,1.0,1.0,34.7,34.9,34.9,2.1,2.9,2.55,0.4960133782879099,-0.03498897423340116,0.8516062024799789,0.007907002260280592,-0.126634,-28.905062
11.185,2.0,1.0,1.0,34.7,34.9,34.9,2.1,2.9,2.5525,0.4872306653188503,-0.035745796605248244,0.8563630122707864,0.007680420036906732,-0.12892,-28.739495
11.185,2.0,1.0,1.0,34.7,34.9,34.9,2.1,2.9,2.555,0.478328393774837,-0.036521207952969315,0.8610613957736989,0.0074395265447311665,-0.131276,-28.572524
11.185,2.0,1.0,1.0,34.7,34.9,34.9,2.1,2.9,2.5575,0.4693049756836586,-0.03731578389778968,0.8656990963558613,0.007183588253364838,-0.133706,-28.404113
11.185,2.0,1.0,1.0,34.7,34.9,34.9,2.1,2.9,2.56,0.4601587952727595,-0.03813012211543528,0.8702737705986914,0.006911829027938877,-0.136213,-28.234227
11.185,2.0,1.0,1.0,34.7,34.9,34.9,2.1,2.9,2.5625,0.4508882083718829,-0.03896484330872685,0.8747829840809999,0.006623427211419337,-0.1388,-28.062832
11.185,2.0,1.0,1.0,34.7,34.9,34.9,2.1,2.9,2.565,0.4414915418001689,-0.03982059222305864,0.8792242068889243,0.0063175124725261995,-0.141471,-27.889888
11.185,2.0,1.0,1.0,34.7,34.9,34.9,2.1,2.9,2.5675,0.4319670927380911,-0.040698038705759554,0.8835948088296919,0.005993162397517409,-0.144229,-27.715359
11.185,2.0,1.0,1.0,34.7,34.9,34.9,2.1,2.9,2.57,0.4223131280848497,-0.04159787881013036,0.8878920543238783,0.005649398801801613,-0.14708,-27.539203
11.185,2.0,1.0,1.0,34.7,34.9,34.9,2.1,2.9,2.5725,0.4125278838021888,-0.042520835944688674,0.892113096948214,0.005285183734791655,-0.150026,-27.36138
11.185,2.0,1.0,1.0,34.7,34.9,34.9,2.1,2.9,2.575,0.40260956424599986,-0.04346766206781226,0.896254973598069,0.004899415148545478,-0.153074,-27.181847
11.185,2.0,1.0,1.0,34.7,34.9,34.9,2.1,2.9,2.5775,0.3925563414875607,-0.04443913892754809,0.9003145982354609,0.004490922197535589,-0.156226,-27.000559
11.185,2.0,1.0,1.0,34.7,34.9,34.9,2.1,2.9,2.58,0.3823663546268934,-0.04543607934581098,0.9042887551847741,0.004058460133291955,-0.15949,-26.81747
11.185,2.0,1.0,1.0,34.7,34.9,34.9,2.1,2.9,2.5825,0.37203770910142564,-0.04645932854553355,0.9081740919342683,0.003600704753625972,-0.16287,-26.632533
11.185,2.0,1.0,1.0,34.7,34.9,34.9,2.1,2.9,2.585,0.3615684759940863,-0.04750976551849382,0.9119671113967958,0.0031162463616049726,-0.166373,-26.445698
11.185,2.0,1.0,1.0,34.7,34.9,34.9,2.1,2.9,2.5875,0.3509566913460281,-0.048588304430529666,0.9156641635779914,0.0026035831843366393,-0.170004,-26.256913
11.185,2.0,1.0,1.0,34.7,34.9,34.9,2.1,2.9,2.59,0.3402003554805668,-0.04969589605958888,0.9192614365942922,0.002061114195870574,-0.17377,-26.066125
11.185,2.0,1.0,1.0,34.7,34.9,34.9,2.1,2.9,2.5925,0.3292974323464638,-0.05083352926053146,0.922754946976576,0.0014871312820235224,-0.177679,-25.873279
11.185,2.0,1.0,1.0,34.7,34.9,34.9,2.1,2.9,2.595,0.31824584889076313,-0.05200223244871265,0.9261405291877114,0.0008798106776054362,-0.181738,-25.678317
11.185,2.0,1.0,1.0,34.7,34.9,34.9,2.1,2.9,2.5975,0.3070434944736574,-0.053203075092092204,0.9294138242738897,0.00023720359821964435,-0.185956,-25.481179
11.185,2.0,1.0,1.0,34.7,34.9,34.9,2.1,2.9,2.6,0.2956882203408675,-0.05443716919881407,0.932570267560076,-0.00044277402058393516,-0.190341,-25.281802
11.185,2.0,1.0,1.0,34.7,34.9,34.9,2.1,2.9,2.6025,0.2841778391724425,-0.055705670783804215,0.9356050752890436,-0.0011623527746790375,-0.194904,-25.080121
11.185,2.0,1.0,1.0,34.7,34.9,34.9,2.1,2.9,2.605,0.27251012473117525,-0.057009781293803054,0.9385132300912173,-0.0019239221432313185,-0.199653,-24.876069
11.185,2.0,1.0,1.0,34.7,34.9,34.9,2.1,2.9,2.6075,0.2606828116389585,-0.05835074896521896,0.9412894651585484,-0.0027300440647912345,-0.204601,-24.669575
11.185,2.0,1.0,1.0,34.7,34.9,34.9,2.1,2.9,2.61,0.2486935953156616,-0.05972987008308286,0.9439282469797828,-0.0035834678769881773,-0.209759,-24.460565
11.185,2.0,1.0,1.0,34.7,34.9,34.9,2.1,2.9,2.6125,0.23654013212263628,-0.061148490101957366,0.9464237564763499,-0.004487146777041726,-0.21514,-24.248962
11.185,2.0,1.0,1.0,34.7,34.9,34.9,2.1,2.9,2.615,0.22422003976216848,-0.06260800458062692,0.9487698683574811,-0.005444255980654866,-0.220758,-24.034686
11.185,2.0,1.0,1.0,34.7,34.9,34.9,2.1,2.9,2.6175,0.21173089799533182,-0.06410985987139897,0.9509601284895517,-0.006458212780102823,-0.226628,-23.817654
11.185,2.0,1.0,1.0,34.7,34.9,34.9,2.1,2.9,2.62,0.19907024975425036,-0.06565555349148024,0.9529877290476825,-0.007532698728920668,-0.232766,-23.597777
11.185,2.0,1.0,1.0,34.7,34.9,34.9,2.1,2.9,2.6225,0.18623560274124776,-0.0672466340875878,0.9548454811867562,-0.008671684211035735,-0.23919,-23.374964
11.185,2.0,1.0,1.0,34.7,34.9,34.9,2.1,2.9,2.625,0.173224431627511,-0.0688847008850659,0.956525784933622,-0.00987945568708634,-0.24592,-23.149119
11.185,2.0,1.0,1.0,34.7,34.9,34.9,2.1,2.9,2.6275,0.16003418098833344,-0.07057140248851616,0.9580205959616567,-0.011160645950708077,-0.252975,-22.920142
11.185,2.0,1.0,1.0,34.7,34.9,34.9,2.1,2.9,2.63,0.14666226914203487,-0.07230843487124874,0.9593213888622398,-0.01252026777355105,-0.260379,-22.687928
11.185,2.0,1.0,1.0,34.7,34.9,34.9,2.1,2.9,2.6325,0.13310609309624508,-0.07409753835452114,0.9604191164741129,-0.013963751370645584,-0.268157,-22.452366
11.185,2.0,1.0,1.0,34.7,34.9,34.9,2.1,2.9,2.635,0.11936303485019517,-0.07594049333296253,0.9613041647699696,-0.015496986178528472,-0.276336,-22.21334
11.185,2.0,1.0,1.0,34.7,34.9,34.9,2.1,2.9,2.6375,0.10543046935682532,-0.07783911444782432,0.9619663027287132,-0.01712636750850778,-0.284947,-21.970731
11.185,2.0,1.0,1.0,34.7,34.9,34.9,2.1,2.9,2.64,0.09130577451628645,-0.07979524284234885,0.962394626540153,-0.018858848718000493,-0.29402,-21.72441
11.185,2.0,1.0,1.0,34.7,34.9,34.9,2.1,2.9,2.6425,0.07698634365611268,-0.0818107360504964,0.9625774973949174,-0.020701999635620735,-0.303594,-21.474243
11.185,2.0,1.0,1.0,34.7,34.9,34.9,2.1,2.9,2.645,0.062469601056487335,-0.0838874549677168,0.9625024720041275,-0.02266407208247662,-0.313707,-21.22009
11.185,2.0,1.0,1.0,34.7,34.9,34.9,2.1,2.9,2.6475,0.047753021206820456,-0.08602724722551977,0.962156224868844,-0.024754073454984437,-0.324403,-20.961804
11.185,2.0,1.0,1.0,34.7,34.9,34.9,2.1,2.9,2.65,0.032834152638191935,-0.08823192613417169,0.961524461176143,-0.02698184947572333,-0.335732,-20.699228
11.185,2.0,1.0,1.0,34.7,34.9,34.9,2.1,2.9,2.6525,0.017710647373185253,-0.09050324416216637,0.9605918190343804,-0.029358177380879542,-0.347746,-20.4322
11.185,2.0,1.0,1.0,34.7,34.9,34.9,2.1,2.9,2.655,0.0023802972797430533,-0.09284285967736144,0.9593417595720921,-0.03189487099834968,-0.360506,-20.160546
11.185,2.0,1.0,1.0,34.7,34.9,34.9,2.1,2.9,2.6575,-0.013158921078021173,-0.0952522953702758,0.9577564432103035,-0.0346048993821881,-0.374079,-19.884085
11.185,2.0,1.0,1.0,34.7,34.9,34.9,2.1,2.9,2.66,-0.02890879111592073,-0.09773288639907549,0.955816590174128,-0.03750252090939612,-0.388538,-19.602625
11.185,2.0,1.0,1.0,34.7,34.9,34.9,2.1,2.9,2.6625,-0.04487078797573063,-0.10028571581778087,0.9535013230343775,-0.040603435016121944,-0.403967,-19.315965
11.185,2.0,1.0,1.0,34.7,34.9,34.9,2.1,2.9,2.665,-0.061045994279476906,-0.10291153424810662,0.9507879887620231,-0.0439249540533655,-0.42046,-19.023892
11.185,2.0,1.0,1.0,34.7,34.9,34.9,2.1,2.9,2.6675,-0.07743499606784965,-0.1056106599974766,0.9476519574382626,-0.0474861980767359,-0.438122,-18.726182
11.185,2.0,1.0,1.0,34.7,34.9,34.9,2.1,2.9,2.67,-0.09403775413521383,-0.10838285486811096,0.9440663943938911,-0.05130831574732519,-0.457071,-18.422596
11.185,2.0,1.0,1.0,34.7,34.9,34.9,2.1,2.9,2.6725,-0.11085344475322881,-0.11122716968911248,0.9400020021615216,-0.05541473490327342,-0.477442,-18.112887
11.185,2.0,1.0,1.0,34.7,34.9,34.9,2.1,2.9,2.675,-0.12788026222589077,-0.11414175206380876,0.9354267282283641,-0.059831446748585725,-0.499388,-17.79679
11.185,2.0,1.0,1.0,34.7,34.9,34.9,2.1,2.9,2.6775,-0.14511517374811234,-0.1171236068662742,0.9303054342026488,-0.06458732797017916,-0.523082,-17.474027
11.185,2.0,1.0,1.0,34.7,34.9,34.9,2.1,2.9,2.68,-0.1625536145285908,-0.12016829752564015,0.9245995216982192,-0.06971450539097189,-0.548723,-17.144307
11.185,2.0,1.0,1.0,34.7,34.9,34.9,2.1,2.9,2.6825,-0.18018910793269682,-0.12326957295265785,0.9182665100714713,-0.07524876792389536,-0.576538,-16.807322
11.185,2.0,1.0,1.0,34.7,34.9,34.9,2.1,2.9,2.685,-0.19801279130655522,-0.1264189008956744,0.9112595612262301,-0.08123003049546275,-0.606789,-16.46275
11.185,2.0,1.0,1.0,34.7,34.9,34.9,2.1,2.9,2.6875,-0.216012822910157,-0.12960488331567122,0.9035269472115033,-0.08770285408197115,-0.639779,-16.110251
11.185,2.0,1.0,1.0,34.7,34.9,34.9,2.1,2.9,2.69,-0.2341736387011654,-0.13281252273084157,0.8950114575446032,-0.09471702477689978,-0.675857,-15.749473
11.185,2.0,1.0,1.0,34.7,34.9,34.9,2.1,2.9,2.6925,-0.2524750191813622,-0.13602230001339136,0.8856497455089505,-0.10232819247448766,-0.715432,-15.380047
11.185,2.0,1.0,1.0,34.7,34.9,34.9,2.1,2.9,2.695,-0.2708909156683943,-0.13920901335384342,0.8753716167238444,-0.11059856569207517,-0.758979,-15.001591
11.185,2.0,1.0,1.0,34.7,34.9,34.9,2.1,2.9,2.6975,-0.2893879716268512,-0.14234031448740228,0.8640992699970776,-0.11959765233144719,-0.807059,-14.613714
11.185,2.0,1.0,1.0,34.7,34.9,34.9,2.1,2.9,2.7,-0.30792365746068595,-0.14537486118774218,0.85174651124882,-0.1294030254047055,-0.860331,-14.216016
11.185,2.0,1.0,1.0,34.7,34.9,34.9,2.1,2.9,2.7025,-0.32644391581145693,-0.1482599838640187,0.8382179782157594,-0.14010107585363668,-0.919575,-13.808092
11.185,2.0,1.0,1.0,34.7,34.9,34.9,2.1,2.9,2.705,-0.34488018844681756,-0.15092873838397722,0.8234084397795667,-0.1517876885171723,-0.985723,-13.389545
11.185,2.0,1.0,1.0,34.7,34.9,34.9,2.1,2.9,2.7075,-0.36314566522932945,-0.15329618697373315,0.8072022736094921,-0.16456873757813495,-1.059886,-12.959989
11.185,2.0,1.0,1.0,34.7,34.9,34.9,2.1,2.9,2.71,-0.3811305614094914,-0.15525471521407397,0.7894732858659906,-0.1785602379867019,-1.1434,-12.519067
11.185,2.0,1.0,1.0,34.7,34.9,34.9,2.1,2.9,2.7125,-0.39869619463740197,-0.15666815882947427,0.7700851262104241,-0.19388790024564095,-1.237881,-12.066467
11.185,2.0,1.0,1.0,34.7,34.9,34.9,2.1,2.9,2.715,-0.4156676046137343,-0.15736448613883838,0.7488926830573797,-0.21068570489418934,-1.34529,-11.60195
11.185,2.0,1.0,1.0,34.7,34.9,34.9,2.1,2.9,2.7175,-0.43182445032450123,-0.15712677481676063,0.7257450347609957,-0.22909292331711376,-1.468019,-11.12538
11.185,2.0,1.0,1.0,34.7,34.9,34.9,2.1,2.9,2.72,-0.44688995891479943,-0.1556822615309756,0.7004908029573199,-0.24924874263391517,-1.609005,-10.636778
11.185,2.0,1.0,1.0,34.7,34.9,34.9,2.1,2.9,2.7225,-0.46051783393599177,-0.15268937739676333,0.6729871264756664,-0.2712832828093455,-1.77186,-10.136374
11.185,2.0,1.0,1.0,34.7,34.9,34.9,2.1,2.9,2.725,-0.47227733971811403,-0.1477229914369937,0.6431139629617072,-0.29530330930025667,-1.961051,-9.624694
11.185,2.0,1.0,1.0,34.7,34.9,34.9,2.1,2.9,2.7275,-0.48163739309815784,-0.14025869776810926,0.6107960189070206,-0.3213703567215096,-2.182114,-9.102665
11.185,2.0,1.0,1.0,34.7,34.9,34.9,2.1,2.9,2.73,-0.48795160856654235,-0.12965809361282288,0.5760352278106791,-0.34946836796894415,-2.441912,-8.571747
11.185,2.0,1.0,1.0,34.7,34.9,34.9,2.1,2.9,2.7325,-0.49044811786209125,-0.11515886195015818,0.5389571168157267,-0.379457542930067,-2.748939,-8.034105
11.185,2.0,1.0,1.0,34.7,34.9,34.9,2.1,2.9,2.735,-0.4882308928370305,-0.095876363680918,0.499874129431508,-0.4110113751169243,-3.113635,-7.492809
11.185,2.0,1.0,1.0,34.7,34.9,34.9,2.1,2.9,2.7375,-0.48030334686270054,-0.07082746038236884,0.45936707188593334,-0.44353576321033233,-3.548633,-6.952069
11.185,2.0,1.0,1.0,34.7,34.9,34.9,2.1,2.9,2.74,-0.46562968462598325,-0.038991934304009754,0.4183808265276071,-0.4760741045746932,-4.068762,-6.417473
11.185,2.0,1.0,1.0,34.7,34.9,34.9,2.1,2.9,2.7425,-0.44325293144181765,0.0005697350151446163,0.3783204602622397,-0.5072122575089208,-4.690329,-5.8962
11.185,2.0,1.0,1.0,34.7,34.9,34.9,2.1,2.9,2.745,-0.4124864910278253,0.04852563388858844,0.34111769338491704,-0.5350133246386393,-5.428657,-5.397127
11.185,2.0,1.0,1.0,34.7,34.9,34.9,2.1,2.9,2.7475,-0.3731813330298933,0.10500689189196022,0.30921765557648323,-0.5570320598184517,-6.291542,-4.930742
11.185,2.0,1.0,1.0,34.7,34.9,34.9,2.1,2.9,2.75,-0.326036137119836,0.169300212333279,0.28542189412056,-0.57047238691165,-7.263848,-4.508725
11.185,2.0,1.0,1.0,34.7,34.9,34.9,2.1,2.9,2.7525,-0.27286383291904964,0.2395848072282898,0.27253580007602657,-0.5725390637601739,-8.276002,-4.143116
11.185,2.0,1.0,1.0,34.7,34.9,34.9,2.1,2.9,2.755,-0.2166774256689078,0.3128499660544647,0.27282941519256176,-0.560973763534158,-9.15835,-3.845059
11.185,2.0,1.0,1.0,34.7,34.9,34.9,2.1,2.9,2.7575,-0.16145899495058244,0.38512779171259354,0.28742937436704197,-0.5346577134260215,-9.638318,-3.623279
11.185,2.0,1.0,1.0,34.7,34.9,34.9,2.1,2.9,2.76,-0.1115735973828902,0.45207771456482015,0.31586347977786405,-0.49406059451641815,-9.499359,-3.482665
11.185,2.0,1.0,1.0,34.7,34.9,34.9,2.1,2.9,2.7625,-0.0709662143973003,0.5097841123224147,0.3559846850441133,-0.4413113677374606,-8.802121,-3.423366
11.185,2.0,1.0,1.0,34.7,34.9,34.9,2.1,2.9,2.765,-0.0424248706960661,0.5554853927919206,0.40435673910986175,-0.3798112264330881,-7.81716,-3.440738
11.185,2.0,1.0,1.0,34.7,34.9,34.9,2.1,2.9,2.7675,-0.027183017394211195,0.5879644092093846,0.4569626181772326,-0.3135283099405284,-6.787046,-3.526149
11.185,2.0,1.0,1.0,34.7,34.9,34.9,2.1,2.9,2.77,-0.024962193500470475,0.6075018260325581,0.5099559216789056,-0.24625247131820993,-5.838954,-3.668359
11.185,2.0,1.0,1.0,34.7,34.9,34.9,2.1,2.9,2.7725,-0.0343505204317343,0.6154976433825103,0.5602059627724646,-0.18105665199273235,-5.016747,-3.855047
11.185,2.0,1.0,1.0,34.7,34.9,34.9,2.1,2.9,2.775,-0.05330960851071044,0.6139671808939253,0.6055357873743079,-0.12006345519674286,-4.323673,-4.074114
11.185,2.0,1.0,1.0,34.7,34.9,34.9,2.1,2.9,2.7775,-0.0796292217551238,0.6050903201393871,0.644697126831151,-0.06447218012840876,-3.747131,-4.314569
11.185,2.0,1.0,1.0,34.7,34.9,34.9,2.1,2.9,2.78,-0.11124008898938861,0.590902146776533,0.6771934438187113,-0.014735617278275319,-3.270111,-4.566989
11.185,2.0,1.0,1.0,34.7,34.9,34.9,2.1,2.9,2.7825,-0.1463777314865114,0.5731314491414378,0.703056163096678,0.02921756864618579,-2.875907,-4.823643
11.185,2.0,1.0,1.0,34.7,34.9,34.9,2.1,2.9,2.785,-0.1836332696318415,0.5531510747137853,0.7226402608967886,0.067780232312514,-2.549798,-5.078401
11.185,2.0,1.0,1.0,34.7,34.9,34.9,2.1,2.9,2.7875,-0.22193599151302298,0.5319956288962144,0.736466866105445,0.10151107843929337,-2.279432,-5.326526
11.185,2.0,1.0,1.0,34.7,34.9,34.9,2.1,2.9,2.79,-0.26050379369731197,0.5104107241215751,0.7451156966406811,0.13102854710538653,-2.054704,-5.564435
11.185,2.0,1.0,1.0,34.7,34.9,34.9,2.1,2.9,2.7925,-0.2987846590376022,0.4889108652454404,0.7491587513832954,0.15694564658782176,-1.867453,-5.789462
11.185,2.0,1.0,1.0,34.7,34.9,34.9,2.1,2.9,2.795,-0.3364014748500302,0.46783382520979616,0.7491238419128299,0.17983437267959007,-1.71113,-5.99965
11.185,2.0,1.0,1.0,34.7,34.9,34.9,2.1,2.9,2.7975,-0.3731053131073484,0.4473864682601649,0.7454777713674776,0.20020959932227955,-1.580498,-6.193573
11.185,2.0,1.0,1.0,34.7,34.9,34.9,2.1,2.9,2.8,-0.4087382670676527,0.4276809511674532,0.7386214575321255,0.21852480974179284,-1.471367,-6.3702
11.185,2.0,1.0,1.0,34.7,34.9,34.9,2.1,2.9,2.8025,-0.44320502513679055,0.4087621127750828,0.7288917250000256,0.23517445000843104,-1.380394,-6.528779
11.185,2.0,1.0,1.0,34.7,34.9,34.9,2.1,2.9,2.805,-0.47645166585429666,0.3906275385342621,0.716566399970622,0.2504995799271164,-1.304904,-6.668755
11.185,2.0,1.0,1.0,34.7,34.9,34.9,2.1,2.9,2.8075,-0.5084500748413652,0.37324185616573297,0.7018706853384962,0.2647948268852376,-1.242768,-6.789699
11.185,2.0,1.0,1.0,34.7,34.9,34.9,2.1,2.9,2.81,-0.5391865635547487,0.35654662857489977,0.684983676203386,0.2783155200253551,-1.192294,-6.891262
11.185,2.0,1.0,1.0,34.7,34.9,34.9,2.1,2.9,2.8125,-0.568653526947945,0.340466941502903,0.666044426165072,0.291284423342326,-1.152148,-6.973134
11.185,2.0,1.0,1.0,34.7,34.9,34.9,2.1,2.9,2.815,-0.5968432273073151,0.3249155194329481,0.6451573032109635,0.3038978061316073,-1.121297,-7.035016
11.185,2.0,1.0,1.0,34.7,34.9,34.9,2.1,2.9,2.8175,-0.6237430015907844,0.30979497542417017,0.6223965621302531,0.3163307675210269,-1.098961,-7.076596
11.185,2.0,1.0,1.0,34.7,34.9,34.9,2.1,2.9,2.82,-0.6493313517914573,0.2949986151026477,0.5978101639068122,0.3287418224164223,-1.08458,-7.09753
11.185,2.0,1.0,1.0,34.7,34.9,34.9,2.1,2.9,2.8225,-0.6735744950994401,0.28041006749592107,0.5714229280128926,0.3412767931967093,-1.077792,-7.097435
11.185,2.0,1.0,1.0,34.7,34.9,34.9,2.1,2.9,2.825,-0.6964230292857981,0.2659018975815796,0.5432391346229006,0.35407205519954404,-1.07842,-7.07587
11.185,2.0,1.0,1.0,34.7,34.9,34.9,2.1,2.9,2.8275,-0.7178084152684227,0.25133325873219703,0.5132447162133534,0.36725716527072894,-1.086471,-7.032334
11.185,2.0,1.0,1.0,34.7,34.9,34.9,2.1,2.9,2.83,-0.7376389986456858,0.23654655996291366,0.48140920323328495,0.3809568655686386,-1.102132,-6.966259
