1,w,sub_t,h,l1,l2,l3,g1,g2,Freq,S11_re,S21_re,S11_img,S21_img,S11_dB,S21_dB
11.185,2.0,1.0,1.0,34.5,33.5,33.5,3.7,3.7,2.5,0.705937779274182,-0.0092239924292802,0.697235661671491,0.00328817936491443,-0.067906,-40.182078
11.185,2.0,1.0,1.0,34.5,33.5,33.5,3.7,3.7,2.5025,0.7001824124099418,-0.00937429469506457,0.7029055763882746,0.0032458805475138798,-0.068585,-40.069469
11.185,2.0,1.0,1.0,34.5,33.5,33.5,3.7,3.7,2.505,0.6943504333893595,-0.00952653661375075,0.708556690156933,0.0032014079659845878,-0.069276,-39.956618
11.185,2.0,1.0,1.0,34.5,33.5,33.5,3.7,3.7,2.5075,0.6884411299241959,-0.009680736036859526,0.7141882243452295,0.0031546986991674896,-0.069978,-39.84352
11.185,2.0,1.0,1.0,34.5,33.5,33.5,3.7,3.7,2.51,0.6824537843086651,-0.009836910631661897,0.7197993793146644,0.003105688047616642,-0.070692,-39.730171
11.185,2.0,1.0,1.0,34.5,33.5,33.5,3.7,3.7,2.5125,0.6763876735653246,-0.009995077856380655,0.7253893338688978,0.003054309481991336,-0.071418,-39.616565
11.185,2.0,1.0,1.0,34.5,33.5,33.5,3.7,3.7,2.515,0.6702420696032141,-0.01015525493396329,0.7309572446893009,0.0030004945899571164,-0.072155,-39.502698
11.185,2.0,1.0,1.0,34.5,33.5,33.5,3.7,3.7,2.5175,0.6640162393888679,-0.010317458824354598,0.7365022457574156,0.0029441730215554493,-0.072905,-39.388563
11.185,2.0,1.0,1.0,34.5,33.5,33.5,3.7,3.7,2.52,0.6577094451308133,-0.01048170619519604,0.7420234477641536,0.0028852724330000754,-0.073667,-39.274157
11.185,2.0,1.0,1.0,34.5,33.5,33.5,3.7,3.7,2.5225,0.6513209444782395,-0.010648013390873413,0.7475199375055107,0.0028237184288575712,-0.074443,-39.159474
11.185,2.0,1.0,1.0,34.5,33.5,33.5,3.7,3.7,2.525,0.644849990734498,-0.010816396399832805,0.7529907772646434,0.0027594345025682802,-0.075231,-39.044509
11.185,2.0,1.0,1.0,34.5,33.5,33.5,3.7,3.7,2.5275,0.6382958330861572,-0.010986870820079571,0.7584350041801137,0.002692341975263085,-0.076033,-38.929256
11.185,2.0,1.0,1.0,34.5,33.5,33.5,3.7,3.7,2.53,0.6316577168483614,-0.011159451822771867,0.7638516296001338,0.0026223599328301923,-0.076848,-38.813711
11.185,2.0,1.0,1.0,34.5,33.5,33.5,3.7,3.7,2.5325,0.6249348837272568,-0.011334154113815697,0.769239638422649,0.002549405161185307,-0.077677,-38.697868
11.185,2.0,1.0,1.0,34.5,33.5,33.5,3.7,3.7,2.535,0.6181265721002894,-0.011510991893365012,0.7745979884211132,0.002473392079697216,-0.07852,-38.581722
11.185,2.0,1.0,1.0,34.5,33.5,33.5,3.7,3.7,2.5375,0.6112320173152191,-0.011689978813124393,0.7799256095558008,0.00239423267271989,-0.079378,-38.465267
11.185,2.0,1.0,1.0,34.5,33.5,33.5,3.7,3.7,2.54,0.6042504520087099,-0.011871127931348903,0.7852214032705407,0.0023118364191809827,-0.080251,-38.348499
11.185,2.0,1.0,1.0,34.5,33.5,33.5,3.7,3.7,2.5425,0.5971811064454008,-0.01205445166542957,0.7904842417747441,0.002226110220175538,-0.081139,-38.231411
11.185,2.0,1.0,1.0,34.5,33.5,33.5,3.7,3.7,2.545,0.5900232088783967,-0.012239961741948276,0.7957129673106306,0.002136958324512322,-0.082042,-38.113998
11.185,2.0,1.0,1.0,34.5,33.5,33.5,3.7,3.7,2.5475,0.5827759859321597,-0.012427669144080172,0.8009063914055524,0.0020442822521594592,-0.082961,-37.996255
11.185,2.0,1.0,1.0,34.5,33.5,33.5,3.7,3.7,2.55,0.5754386630087924,-0.012617584056217138,0.8060632941093663,0.0019479807155338897,-0.083896,-37.878176
11.185,2.0,1.0,1.0,34.5,33.5,33.5,3.7,3.7,2.5525,0.5680104647187927,-0.012809715805678034,0.8111824232167735,0.001847949538578959,-0.084847,-37.759755
11.185,2.0,1.0,1.0,34.5,33.5,33.5,3.7,3.7,2.555,0.5604906153373426,-0.013004072801367516,0.8162624934746192,0.0017440815735723836,-0.085816,-37.640987
11.185,2.0,1.0,1.0,34.5,33.5,33.5,3.7,3.7,2.5575,0.55287833928727,-0.013200662469237396,0.8213021857741303,0.001636266615605309,-0.086801,-37.521866
11.185,2.0,1.0,1.0,34.5,33.5,33.5,3.7,3.7,2.56,0.5451728616498591,-0.013399491184398144,0.8263001463280993,0.0015243913146725217,-0.087804,-37.402386
11.185,2.0,1.0,1.0,34.5,33.5,33.5,3.7,3.7,2.5625,0.5373734087047168,-0.013600564199721091,0.8312549858330593,0.0014083390853115577,-0.088825,-37.282542
11.185,2.0,1.0,1.0,34.5,33.5,33.5,3.7,3.7,2.565,0.5294792084999494,-0.013803885570765216,0.8361652786165165,0.0012879900137271049,-0.089864,-37.162327
11.185,2.0,1.0,1.0,34.5,33.5,33.5,3.7,3.7,2.5675,0.5214894914539622,-0.014009458076853203,0.8410295617693224,0.0011632207623357672,-0.090922,-37.041735
11.185,2.0,1.0,1.0,34.5,33.5,33.5,3.7,3.7,2.57,0.5134034909902183,-0.014217283138115214,0.8458463342633283,0.0010339044716639626,-0.091999,-36.920761
11.185,2.0,1.0,1.0,34.5,33.5,33.5,3.7,3.7,2.5725,0.505220444206354,-0.014427360728308993,0.8506140560544688,0.0008999106595302029,-0.093096,-36.799398
11.185,2.0,1.0,1.0,34.5,33.5,33.5,3.7,3.7,2.575,0.4969395925790892,-0.014639689283217076,0.8553311471714794,0.0007611051174408411,-0.094213,-36.67764
11.185,2.0,1.0,1.0,34.5,33.5,33.5,3.7,3.7,2.5775,0.4885601827064298,-0.014854265604411467,0.8599959867904774,0.0006173498041265725,-0.09535,-36.555481
11.185,2.0,1.0,1.0,34.5,33.5,33.5,3.7,3.7,2.58,0.48008146708869726,-0.015071084758167923,0.8646069122956868,0.0004685027361445066,-0.096508,-36.432915
11.185,2.0,1.0,1.0,34.5,33.5,33.5,3.7,3.7,2.5825,0.4715027049499687,-0.01529013996930047,0.8691622183266273,0.00031441787546803427,-0.097687,-36.309935
11.185,2.0,1.0,1.0,34.5,33.5,33.5,3.7,3.7,2.585,0.4628231631015797,-0.01551142250967691,0.8736601558121355,0.00015494501398453098,-0.098889,-36.186534
11.185,2.0,1.0,1.0,34.5,33.5,33.5,3.7,3.7,2.5875,0.45404211684936835,-0.015734921581164574,0.8780989309916419,-1.007034518195246e-05,-0.100112,-36.062707
11.185,2.0,1.0,1.0,34.5,33.5,33.5,3.7,3.7,2.59,0.44515885094641794,-0.015960624192743553,0.882476704424168,-0.0001807871096092107,-0.101359,-35.938445
11.185,2.0,1.0,1.0,34.5,33.5,33.5,3.7,3.7,2.5925,0.43617266059308246,-0.016188515031512942,0.8867915899855857,-0.0003573687228655479,-0.102629,-35.813744
11.185,2.0,1.0,1.0,34.5,33.5,33.5,3.7,3.7,2.595,0.42708285248616407,-0.0164185763273014,0.891041653854713,-0.0005399832932414726,-0.103922,-35.688595
11.185,2.0,1.0,1.0,34.5,33.5,33.5,3.7,3.7,2.5975,0.417888745919125,-0.016650787710580983,0.8952249134889185,-0.0007288037260211223,-0.105241,-35.562992
11.185,2.0,1.0,1.0,34.5,33.5,33.5,3.7,3.7,2.6,0.40858967393530526,-0.016885126063367825,0.8993393365899444,-0.0009240078593943242,-0.106584,-35.436928
11.185,2.0,1.0,1.0,34.5,33.5,33.5,3.7,3.7,2.6025,0.39918498453616463,-0.017121565362777716,0.9033828400607443,-0.00112577860411461,-0.107953,-35.310395
11.185,2.0,1.0,1.0,34.5,33.5,33.5,3.7,3.7,2.605,0.38967404194660044,-0.01736007651688962,0.9073532889542104,-0.001334304087014214,-0.109349,-35.183387
11.185,2.0,1.0,1.0,34.5,33.5,33.5,3.7,3.7,2.6075,0.38005622793947386,-0.017600627192551944,0.9112484954147327,-0.0015497777984921212,-0.110771,-35.055895
11.185,2.0,1.0,1.0,34.5,33.5,33.5,3.7,3.7,2.61,0.3703309432215245,-0.017843181634748843,0.9150662176136259,-0.0017723987440975855,-0.112221,-34.927913
11.185,2.0,1.0,1.0,34.5,33.5,33.5,3.7,3.7,2.6125,0.36049760888289073,-0.018087700477124744,0.9188041586795486,-0.0020023716003385586,-0.113699,-34.799432
11.185,2.0,1.0,1.0,34.5,33.5,33.5,3.7,3.7,2.615,0.3505556679125231,-0.018334140543245045,0.9224599656251236,-0.002239906874852108,-0.115206,-34.670446
11.185,2.0,1.0,1.0,34.5,33.5,33.5,3.7,3.7,2.6175,0.3405045867818316,-0.01858245463814891,0.9260312282710755,-0.0024852210710814937,-0.116742,-34.540945
11.185,2.0,1.0,1.0,34.5,33.5,33.5,3.7,3.7,2.62,0.33034385709894903,-0.018832591329727654,0.9295154781692961,-0.0027385368576149987,-0.118309,-34.410922
11.185,2.0,1.0,1.0,34.5,33.5,33.5,3.7,3.7,2.6225,0.3200729973360402,-0.019084494719437878,0.9329101875263595,-0.0030000832423509234,-0.119907,-34.280369
11.185,2.0,1.0,1.0,34.5,33.5,33.5,3.7,3.7,2.625,0.309691554632163,-0.0193381042018317,0.936212768129114,-0.00327009575166464,-0.121536,-34.149277
11.185,2.0,1.0,1.0,34.5,33.5,33.5,3.7,3.7,2.6275,0.29919910667419014,-0.019593354212359908,0.9394205702741064,-0.0035488166147668483,-0.123198,-34.017638
11.185,2.0,1.0,1.0,34.5,33.5,33.5,3.7,3.7,2.63,0.2885952636583884,-0.019850173962872607,0.9425308817026974,-0.0038364949534553344,-0.124894,-33.885443
11.185,2.0,1.0,1.0,34.5,33.5,33.5,3.7,3.7,2.6325,0.2778796703352691,-0.020108487164211705,0.94554092654387,-0.004133386977478488,-0.126624,-33.752682
11.185,2.0,1.0,1.0,34.5,33.5,33.5,3.7,3.7,2.635,0.2670520081403771,-0.020368211735253532,0.9484478642668475,-0.004439756185746015,-0.128389,-33.619348
11.185,2.0,1.0,1.0,34.5,33.5,33.5,3.7,3.7,2.6375,0.2561119974137294,-0.020629259497724775,0.9512487886457841,-0.0047558735736408075,-0.13019,-33.48543
11.185,2.0,1.0,1.0,34.5,33.5,33.5,3.7,3.7,2.64,0.24505939971061788,-0.020891535856074315,0.9539407267389299,-0.005082017846708669,-0.132027,-33.350919
11.185,2.0,1.0,1.0,34.5,33.5,33.5,3.7,3.7,2.6425,0.23389402020657735,-0.021154939461641015,0.9565206378848001,-0.005418475641024013,-0.133903,-33.215806
11.185,2.0,1.0,1.0,34.5,33.5,33.5,3.7,3.7,2.645,0.22261571019929816,-0.021419361860311365,0.9589854127180534,-0.005765541750557465,-0.135818,-33.080079
11.185,2.0,1.0,1.0,34.5,33.5,33.5,3.7,3.7,2.6475,0.21122436971032948,-0.021684687122810638,0.9613318722079082,-0.006123519361899526,-0.137772,-32.94373
11.185,2.0,1.0,1.0,34.5,33.5,33.5,3.7,3.7,2.65,0.1997199501893908,-0.021950791456717567,0.9635567667221009,-0.006492720296727177,-0.139767,-32.806748
11.185,2.0,1.0,1.0,34.5,33.5,33.5,3.7,3.7,2.6525,0.18810245732421088,-0.022217542799232055,0.9656567751195376,-0.00687346526243475,-0.141805,-32.669121
11.185,2.0,1.0,1.0,34.5,33.5,33.5,3.7,3.7,2.655,0.1763719539587215,-0.022484800389663304,0.9676285038749566,-0.007266084111392004,-0.143885,-32.53084
11.185,2.0,1.0,1.0,34.5,33.5,33.5,3.7,3.7,2.6575,0.1645285631225307,-0.022752414320533536,0.9694684862390804,-0.007670916109334313,-0.14601,-32.391892
11.185,2.0,1.0,1.0,34.5,33.5,33.5,3.7,3.7,2.66,0.15257247117456005,-0.023020225066117426,0.9711731814379029,-0.008088310213439698,-0.14818,-32.252265
11.185,2.0,1.0,1.0,34.5,33.5,33.5,3.7,3.7,2.6625,0.14050393106375153,-0.02328806298715254,0.9727389739149165,-0.008518625360700909,-0.150397,-32.111949
11.185,2.0,1.0,1.0,34.5,33.5,33.5,3.7,3.7,2.665,0.12832326570971364,-0.02355574781036494,0.9741621726202625,-0.008962230767260907,-0.152663,-31.97093
11.185,2.0,1.0,1.0,34.5,33.5,33.5,3.7,3.7,2.6675,0.11603087150622222,-0.023823088081352074,0.9754390103509368,-0.009419506239445331,-0.154977,-31.829197
11.185,2.0,1.0,1.0,34.5,33.5,33.5,3.7,3.7,2.67,0.10362722195042201,-0.0240898805892552,0.9765656431463562,-0.009890842497300156,-0.157342,-31.686735
11.185,2.0,1.0,1.0,34.5,33.5,33.5,3.7,3.7,2.6725,0.09111287140058223,-0.024355909761530063,0.9775381497437494,-0.010376641511523111,-0.15976,-31.543532
11.185,2.0,1.0,1.0,34.5,33.5,33.5,3.7,3.7,2.675,0.07848845896525203,-0.024620947026989703,0.9783525310979856,-0.010877316854765956,-0.162231,-31.399574
11.185,2.0,1.0,1.0,34.5,33.5,33.5,3.7,3.7,2.6775,0.06575471252660918,-0.02488475014514414,0.9790047099706027,-0.011393294068386534,-0.164757,-31.254846
11.185,2.0,1.0,1.0,34.5,33.5,33.5,3.7,3.7,2.68,0.05291245290078168,-0.025147062499695668,0.979490530592951,-0.011925011045836677,-0.16734,-31.109334
11.185,2.0,1.0,1.0,34.5,33.5,33.5,3.7,3.7,2.6825,0.039962598137901345,-0.025407612353864937,0.9798057584084744,-0.01247291843399363,-0.169982,-30.963022
11.185,2.0,1.0,1.0,34.5,33.5,33.5,3.7,3.7,2.685,0.02690616796459916,-0.025666112065020247,0.9799460798992938,-0.013037480053878104,-0.172684,-30.815895
11.185,2.0,1.0,1.0,34.5,33.5,33.5,3.7,3.7,2.6875,0.013744288371634,-0.025922257255854,0.979907102502347,-0.0136191733423475,-0.175448,-30.667936
11.185,2.0,1.0,1.0,34.5,33.5,33.5,3.7,3.7,2.69,0.00047819634934179834,-0.02617572593909997,0.9796843546204349,-0.014218489816516525,-0.178276,-30.519128
11.185,2.0,1.0,1.0,34.5,33.5,33.5,3.7,3.7,2.6925,-0.01289075522648746,-0.02642617759250265,0.979273285733582,-0.014835935562839263,-0.181169,-30.369455
11.185,2.0,1.0,1.0,34.5,33.5,33.5,3.7,3.7,2.695,-0.026361092555620896,-0.02667325218043565,0.9786692666161755,-0.015472031752980455,-0.184131,-30.218897
11.185,2.0,1.0,1.0,34.5,33.5,33.5,3.7,3.7,2.6975,-0.0399312157187051,-0.026916569118216403,0.9778675896653605,-0.016127315188828515,-0.187163,-30.067437
11.185,2.0,1.0,1.0,34.5,33.5,33.5,3.7,3.7,2.7,-0.053599393324205755,-0.02715572617477086,0.9768634693461469,-0.016802338879237617,-0.190267,-29.915054
11.185,2.0,1.0,1.0,34.5,33.5,33.5,3.7,3.7,2.7025,-0.067363756994327,-0.02739029830886229,0.9756520427586556,-0.01749767265135618,-0.193446,-29.761728
11.185,2.0,1.0,1.0,34.5,33.5,33.5,3.7,3.7,2.705,-0.08122229568714516,-0.027619836433604838,0.9742283703328316,-0.018213903799688232,-0.196702,-29.607439
11.185,2.0,1.0,1.0,34.5,33.5,33.5,3.7,3.7,2.7075,-0.09517284985216087,-0.027843866103429177,0.9725874366558219,-0.018951637776357565,-0.200038,-29.452164
11.185,2.0,1.0,1.0,34.5,33.5,33.5,3.7,3.7,2.71,-0.10921310541629697,-0.028061886117044268,0.9707241514370486,-0.019711498926396547,-0.203456,-29.29588
11.185,2.0,1.0,1.0,34.5,33.5,33.5,3.7,3.7,2.7125,-0.12334058759723819,-0.0282733670292397,0.9686333506157565,-0.02049413127227262,-0.206959,-29.138564
11.185,2.0,1.0,1.0,34.5,33.5,33.5,3.7,3.7,2.715,-0.1375526545407445,-0.028477749563583753,0.9663097976155328,-0.021300199352290737,-0.210551,-28.980191
11.185,2.0,1.0,1.0,34.5,33.5,33.5,3.7,3.7,2.7175,-0.15184649077829632,-0.02867444291718256,0.9637481847499199,-0.02213038911798161,-0.214233,-28.820735
11.185,2.0,1.0,1.0,34.5,33.5,33.5,3.7,3.7,2.72,-0.16621910050100536,-0.0288628229476618,0.9609431347828087,-0.022985408896099013,-0.21801,-28.660169
11.185,2.0,1.0,1.0,34.5,33.5,33.5,3.7,3.7,2.7225,-0.18066730064530806,-0.029042230231398798,0.9578892026467749,-0.023865990421419563,-0.221884,-28.498466
11.185,2.0,1.0,1.0,34.5,33.5,33.5,3.7,3.7,2.725,-0.19518771378526406,-0.029211967980747447,0.9545808773218964,-0.024772889947152474,-0.22586,-28.335595
11.185,2.0,1.0,1.0,34.5,33.5,33.5,3.7,3.7,2.7275,-0.20977676082564348,-0.029371299806547336,0.9510125838768789,-0.0257068894404561,-0.229942,-28.171526
11.185,2.0,1.0,1.0,34.5,33.5,33.5,3.7,3.7,2.73,-0.2244306534889776,-0.029519447310559447,0.947178685673486,-0.026668797871294028,-0.234132,-28.006227
11.185,2.0,1.0,1.0,34.5,33.5,33.5,3.7,3.7,2.7325,-0.23914538658873497,-0.029655587490602597,0.9430734867343099,-0.027659452603688052,-0.238435,-27.839663
11.185,2.0,1.0,1.0,34.5,33.5,33.5,3.7,3.7,2.735,-0.2539167300793785,-0.02977884993903902,0.9386912342728527,-0.028679720899310607,-0.242857,-27.671801
11.185,2.0,1.0,1.0,34.5,33.5,33.5,3.7,3.7,2.7375,-0.26874022087250543,-0.029888313812843015,0.9340261213836356,-0.029730501544339642,-0.247401,-27.502603
11.185,2.0,1.0,1.0,34.5,33.5,33.5,3.7,3.7,2.74,-0.2836111544063328,-0.029983004550733633,0.9290722898886982,-0.030812726611557952,-0.252072,-27.332029
11.185,2.0,1.0,1.0,34.5,33.5,33.5,3.7,3.7,2.7425,-0.2985245759535117,-0.03006189030971574,0.9238238333352732,-0.03192736337084345,-0.256876,-27.160041
11.185,2.0,1.0,1.0,34.5,33.5,33.5,3.7,3.7,2.745,-0.3134752716495332,-0.030123878089791403,0.918274800137707,-0.03307541636245507,-0.261818,-26.986593
11.185,2.0,1.0,1.0,34.5,33.5,33.5,3.7,3.7,2.7475,-0.3284577592207576,-0.030167809511508964,0.9124191968547645,-0.034257929648891336,-0.266905,-26.811643
11.185,2.0,1.0,1.0,34.5,33.5,33.5,3.7,3.7,2.75,-0.343466278387299,-0.0301924562063295,0.906250991591321,-0.035475989262587,-0.272142,-26.635142
11.185,2.0,1.0,1.0,34.5,33.5,33.5,3.7,3.7,2.7525,-0.35849478091147885,-0.03019651477441804,0.8997641175111031,-0.0367307258683172,-0.277537,-26.457041
11.185,2.0,1.0,1.0,34.5,33.5,33.5,3.7,3.7,2.755,-0.3735369202572347,-0.03017860125829799,0.8929524764445556,-0.03802331766091514,-0.283096,-26.277287
11.185,2.0,1.0,1.0,34.5,33.5,33.5,3.7,3.7,2.7575,-0.38858604081967596,-0.03013724507371667,0.8858099425730823,-0.039354993520772374,-0.288827,-26.095826
11.185,2.0,1.0,1.0,34.5,33.5,33.5,3.7,3.7,2.76,-0.40363516667652355,-0.030070882330904467,0.8783303661678648,-0.040727036451580496,-0.294739,-25.9126
11.185,2.0,1.0,1.0,34.5,33.5,33.5,3.7,3.7,2.7625,-0.41867698980461476,-0.0299778484699928,0.8705075773581111,-0.042140787326897515,-0.30084,-25.727546
11.185,2.0,1.0,1.0,34.5,33.5,33.5,3.7,3.7,2.765,-0.4337038576944128,-0.02985637012347735,0.8623353899000485,-0.04359764897435996,-0.307139,-25.5406
11.185,2.0,1.0,1.0,34.5,33.5,33.5,3.7,3.7,2.7675,-0.4487077602835444,-0.029704556106025164,0.8538076049141297,-0.04509909062871154,-0.313648,-25.351695
11.185,2.0,1.0,1.0,34.5,33.5,33.5,3.7,3.7,2.77,-0.4636803161163874,-0.029520387417326738,0.8449180145538844,-0.046646652787252205,-0.320376,-25.160757
11.185,2.0,1.0,1.0,34.5,33.5,33.5,3.7,3.7,2.7725,-0.4786127576201731,-0.029301706126747994,0.8356604055655991,-0.04824195250379489,-0.327336,-24.967711
11.185,2.0,1.0,1.0,34.5,33.5,33.5,3.7,3.7,2.775,-0.49349591536875603,-0.029046202988809056,0.8260285626935866,-0.049886689159700244,-0.33454,-24.772476
11.185,2.0,1.0,1.0,34.5,33.5,33.5,3.7,3.7,2.7775,-0.5083202011823541,-0.028751403615521573,0.8160162718813113,-0.05158265075297483,-0.342002,-24.574966
11.185,2.0,1.0,1.0,34.5,33.5,33.5,3.7,3.7,2.78,-0.5230755898847805,-0.028414653004746944,0.8056173232141045,-0.053331720748659564,-0.349737,-24.375091
11.185,2.0,1.0,1.0,34.5,33.5,33.5,3.7,3.7,2.7825,-0.5377515995080058,-0.028033098192282512,0.7948255135448709,-0.05513588553566065,-0.35776,-24.172754
11.185,2.0,1.0,1.0,34.5,33.5,33.5,3.7,3.7,2.785,-0.5523372696966746,-0.027603668758471662,0.7836346487400493,-0.056997242536618434,-0.36609,-23.967854
11.185,2.0,1.0,1.0,34.5,33.5,33.5,3.7,3.7,2.7875,-0.5668211380210791,-0.027123054876736385,0.7720385454796839,-0.058918009018065716,-0.374745,-23.760283
11.185,2.0,1.0,1.0,34.5,33.5,33.5,3.7,3.7,2.79,-0.5811912138550391,-0.0265876825402741,0.7600310325427913,-0.06090053164770539,-0.383747,-23.549926
11.185,2.0,1.0,1.0,34.5,33.5,33.5,3.7,3.7,2.7925,-0.5954349494133588,-0.02599368554273681,0.747605951508068,-0.06294729684361465,-0.393117,-23.336661
11.185,2.0,1.0,1.0,34.5,33.5,33.5,3.7,3.7,2.795,-0.6095392074703274,-0.02533687371714414,0.7347571568007094,-0.06506094195596832,-0.402881,-23.120358
11.185,2.0,1.0,1.0,34.5,33.5,33.5,3.7,3.7,2.7975,-0.6234902251935,-0.02461269685234424,0.7214785150198283,-0.06724426731458948,-0.413065,-22.900879
11.185,2.0,1.0,1.0,34.5,33.5,33.5,3.7,3.7,2.8,-0.637273573423298,-0.023816203605241053,0.707763903488494,-0.06950024916417472,-0.4237,-22.678077
11.185,2.0,1.0,1.0,34.5,33.5,33.5,3.7,3.7,2.8025,-0.6508741106049214,-0.02294199460640955,0.6936072079815861,-0.07183205349186106,-0.434819,-22.451795
11.185,2.0,1.0,1.0,34.5,33.5,33.5,3.7,3.7,2.805,-0.664275930430739,-0.02198416881247303,0.6790023196073093,-0.07424305072686964,-0.446458,-22.221866
11.185,2.0,1.0,1.0,34.5,33.5,33.5,3.7,3.7,2.8075,-0.6774623020733939,-0.02093626198563819,0.6639431308491428,-0.07673683125655029,-0.458658,-21.988112
11.185,2.0,1.0,1.0,34.5,33.5,33.5,3.7,3.7,2.81,-0.6904156016759101,-0.019791175972824388,0.648423530819915,-0.07931722165356829,-0.471462,-21.750342
11.185,2.0,1.0,1.0,34.5,33.5,33.5,3.7,3.7,2.8125,-0.703117233507207,-0.0185410972061611,0.632437399843605,-0.0819883014402661,-0.48492,-21.508353
11.185,2.0,1.0,1.0,34.5,33.5,33.5,3.7,3.7,2.815,-0.7155475388799398,-0.01717740254371548,0.615978603569955,-0.08475442012172774,-0.499089,-21.261928
11.185,2.0,1.0,1.0,34.5,33.5,33.5,3.7,3.7,2.8175,-0.7276856905502582,-0.01569055020236331,0.5990409869513177,-0.08762021408969821,-0.514029,-21.010832
11.185,2.0,1.0,1.0,34.5,33.5,33.5,3.7,3.7,2.82,-0.7395095698610837,-0.014069953089104121,0.5816183685825828,-0.09059062282300336,-0.52981,-20.754817
11.185,2.0,1.0,1.0,34.5,33.5,33.5,3.7,3.7,2.8225,-0.7509956233332103,-0.012303831294755076,0.5637045361404065,-0.09367090356975533,-0.54651,-20.493615
11.185,2.0,1.0,1.0,34.5,33.5,33.5,3.7,3.7,2.825,-0.7621186947290319,-0.010379039852423243,0.5452932439802577,-0.09686664336958971,-0.564216,-20.226939
11.185,2.0,1.0,1.0,34.5,33.5,33.5,3.7,3.7,2.8275,-0.7728518277835899,-0.008280867054770687,0.526378214390588,-0.10018376682917891,-0.583028,-19.954482
