1,w,sub_t,h,l1,l2,l3,g1,g2,Freq,S11_re,S21_re,S11_img,S21_img,S11_dB,S21_dB
11.185,2.0,1.0,1.0,34.8,33.3,33.3,2.5,3.4,2.5,0.641778415017106,-0.0146127169071246,0.755730365020386,0.00529223864936159,-0.07443,-36.170122
11.185,2.0,1.0,1.0,34.8,33.3,33.3,2.5,3.4,2.5025,0.635188994701783,-0.014852952584541505,0.7611543528121021,0.005224064424953307,-0.075256,-36.057216
11.185,2.0,1.0,1.0,34.8,33.3,33.3,2.5,3.4,2.505,0.6285158344936685,-0.015096421478239305,0.7665500609935204,0.005152249134443793,-0.076095,-35.944016
11.185,2.0,1.0,1.0,34.8,33.3,33.3,2.5,3.4,2.5075,0.6217581816671446,-0.015343151653471786,0.7719164709256237,0.005076681710798615,-0.076947,-35.830518
11.185,2.0,1.0,1.0,34.8,33.3,33.3,2.5,3.4,2.51,0.6149152802366048,-0.01559317063721477,0.7772525369014819,0.004997247877672097,-0.077814,-35.716717
11.185,2.0,1.0,1.0,34.8,33.3,33.3,2.5,3.4,2.5125,0.6079863712511152,-0.015846505360936177,0.782557185459379,0.004913830056542265,-0.078694,-35.602609
11.185,2.0,1.0,1.0,34.8,33.3,33.3,2.5,3.4,2.515,0.6009706931084634,-0.016103182100030995,0.7878293146812215,0.004826307271361576,-0.079589,-35.488191
11.185,2.0,1.0,1.0,34.8,33.3,33.3,2.5,3.4,2.5175,0.5938674818895151,-0.01636322640975155,0.7930677934760868,0.004734555050677029,-0.080499,-35.373457
11.185,2.0,1.0,1.0,34.8,33.3,33.3,2.5,3.4,2.52,0.5866759717137998,-0.016626663057457025,0.7982714608488186,0.004638445327174844,-0.081424,-35.258404
11.185,2.0,1.0,1.0,34.8,33.3,33.3,2.5,3.4,2.5225,0.5793953951173312,-0.016893515950996765,0.8034391251535411,0.004537846334605473,-0.082365,-35.143028
11.185,2.0,1.0,1.0,34.8,33.3,33.3,2.5,3.4,2.525,0.5720249834536558,-0.017163808063034088,0.8085695633320371,0.004432622502045855,-0.083322,-35.027324
11.185,2.0,1.0,1.0,34.8,33.3,33.3,2.5,3.4,2.5275,0.5645639673191946,-0.01743756135110886,0.8136615201369106,0.004322634345457485,-0.084295,-34.911288
11.185,2.0,1.0,1.0,34.8,33.3,33.3,2.5,3.4,2.53,0.5570115770039791,-0.017714796673225466,0.8187137073394967,0.00420773835650033,-0.085285,-34.794915
11.185,2.0,1.0,1.0,34.8,33.3,33.3,2.5,3.4,2.5325,0.5493670429689187,-0.017995533698746492,0.8237248029224858,0.004087786888564409,-0.086292,-34.678201
11.185,2.0,1.0,1.0,34.8,33.3,33.3,2.5,3.4,2.535,0.5416295963507745,-0.018279790814359497,0.8286934502572876,0.003962628039983165,-0.087316,-34.561142
11.185,2.0,1.0,1.0,34.8,33.3,33.3,2.5,3.4,2.5375,0.5337984694960807,-0.01856758502487487,0.8336182572661283,0.003832105534395087,-0.088359,-34.443733
11.185,2.0,1.0,1.0,34.8,33.3,33.3,2.5,3.4,2.54,0.5258728965252726,-0.018858931848602302,0.8384977955689676,0.0036960585982223223,-0.08942,-34.32597
11.185,2.0,1.0,1.0,34.8,33.3,33.3,2.5,3.4,2.5425,0.5178521139283448,-0.01915384520704066,0.8433305996153025,0.003554321835238887,-0.0905,-34.207848
11.185,2.0,1.0,1.0,34.8,33.3,33.3,2.5,3.4,2.545,0.5097353611934056,-0.019452337308605974,0.848115165800985,0.0034067250982031797,-0.091599,-34.089363
11.185,2.0,1.0,1.0,34.8,33.3,33.3,2.5,3.4,2.5475,0.501521881469549,-0.0197544185261078,0.8528499515701912,0.003253093357534531,-0.092718,-33.97051
11.185,2.0,1.0,1.0,34.8,33.3,33.3,2.5,3.4,2.55,0.49321092226549224,-0.020060097267673837,0.8575333745027631,0.00309324656701623,-0.093857,-33.851284
11.185,2.0,1.0,1.0,34.8,33.3,33.3,2.5,3.4,2.5525,0.48480173618552397,-0.020369379840806966,0.8621638113871146,0.0029269995265133373,-0.095017,-33.731682
11.185,2.0,1.0,1.0,34.8,33.3,33.3,2.5,3.4,2.555,0.4762935817043079,-0.020682270309247134,0.8667395972790065,0.0027541617416970863,-0.096198,-33.611697
11.185,2.0,1.0,1.0,34.8,33.3,33.3,2.5,3.4,2.5575,0.4676857239821676,-0.020998770342295022,0.8712590245465018,0.002574537280774031,-0.097401,-33.491326
11.185,2.0,1.0,1.0,34.8,33.3,33.3,2.5,3.4,2.56,0.458977435722546,-0.02131887905623963,0.8757203419014676,0.002387924628223735,-0.098626,-33.370564
11.185,2.0,1.0,1.0,34.8,33.3,33.3,2.5,3.4,2.5625,0.45016799807335184,-0.021642592847517,0.8801217534180557,0.002194116535554676,-0.099874,-33.249406
11.185,2.0,1.0,1.0,34.8,33.3,33.3,2.5,3.4,2.565,0.4412567015739879,-0.021969905217210876,0.884461417538641,0.0019928998690956178,-0.101146,-33.127847
11.185,2.0,1.0,1.0,34.8,33.3,33.3,2.5,3.4,2.5675,0.4322428471499167,-0.022300806586489707,0.8887374460677548,0.0017840554548469193,-0.102441,-33.005883
11.185,2.0,1.0,1.0,34.8,33.3,33.3,2.5,3.4,2.57,0.42312574715664875,-0.02263528410255714,0.8929479031546292,0.0015673579204241936,-0.103761,-32.883508
11.185,2.0,1.0,1.0,34.8,33.3,33.3,2.5,3.4,2.5725,0.41390472647512483,-0.022973321434675457,0.8970908042650269,0.0013425755341355226,-0.105106,-32.760717
11.185,2.0,1.0,1.0,34.8,33.3,33.3,2.5,3.4,2.575,0.404579123660507,-0.023314898559803208,0.9011641151430976,0.0011094700412433856,-0.106476,-32.637506
11.185,2.0,1.0,1.0,34.8,33.3,33.3,2.5,3.4,2.5775,0.39514829214646013,-0.02365999153736844,0.9051657507641094,0.0008677964974716397,-0.107873,-32.51387
11.185,2.0,1.0,1.0,34.8,33.3,33.3,2.5,3.4,2.58,0.38561160150706586,-0.024008572272680044,0.9090935742789404,0.0006173030998302766,-0.109297,-32.389803
11.185,2.0,1.0,1.0,34.8,33.3,33.3,2.5,3.4,2.5825,0.375968438778551,-0.02436060826845961,0.9129453959513545,0.0003577310148402596,-0.110749,-32.265301
11.185,2.0,1.0,1.0,34.8,33.3,33.3,2.5,3.4,2.585,0.3662182098431086,-0.02471606236395341,0.9167189720891392,8.881420425572665e-05,-0.112229,-32.140358
11.185,2.0,1.0,1.0,34.8,33.3,33.3,2.5,3.4,2.5875,0.35636034087710394,-0.02507489246106479,0.9204120039703076,-0.00018972075160777387,-0.113737,-32.01497
11.185,2.0,1.0,1.0,34.8,33.3,33.3,2.5,3.4,2.59,0.34639427986606525,-0.025437051236922664,0.92402213676565,-0.0004781548328147243,-0.115276,-31.88913
11.185,2.0,1.0,1.0,34.8,33.3,33.3,2.5,3.4,2.5925,0.3363194981888645,-0.025802485842280013,0.9275469584590581,-0.0007767767608821375,-0.116845,-31.762835
11.185,2.0,1.0,1.0,34.8,33.3,33.3,2.5,3.4,2.595,0.32613549227361005,-0.026171137585110835,0.9309839987671262,-0.0010858831818269308,-0.118445,-31.636078
11.185,2.0,1.0,1.0,34.8,33.3,33.3,2.5,3.4,2.5975,0.3158417853277669,-0.026542941598751715,0.9343307280596975,-0.0014057788510166483,-0.120077,-31.508854
11.185,2.0,1.0,1.0,34.8,33.3,33.3,2.5,3.4,2.6,0.305437929145119,-0.026917826493905297,0.9375845562831211,-0.0017367768196317461,-0.121742,-31.381158
11.185,2.0,1.0,1.0,34.8,33.3,33.3,2.5,3.4,2.6025,0.29492350599223865,-0.02729571399379982,0.9407428318881237,-0.0020791986225289468,-0.12344,-31.252984
11.185,2.0,1.0,1.0,34.8,33.3,33.3,2.5,3.4,2.605,0.28429813057713876,-0.027676518551769762,0.9438028407643876,-0.0024333744672752518,-0.125173,-31.124328
11.185,2.0,1.0,1.0,34.8,33.3,33.3,2.5,3.4,2.6075,0.27356145210289373,-0.028060146950494982,0.9467618051839982,-0.00279964342409927,-0.126941,-30.995182
11.185,2.0,1.0,1.0,34.8,33.3,33.3,2.5,3.4,2.61,0.2627131564090087,-0.02844649788210712,0.9496168827561637,-0.0031783536164837565,-0.128745,-30.865543
11.185,2.0,1.0,1.0,34.8,33.3,33.3,2.5,3.4,2.6125,0.25175296820338633,-0.028835461508342444,0.9523651653957212,-0.0035698624121000377,-0.130586,-30.735404
11.185,2.0,1.0,1.0,34.8,33.3,33.3,2.5,3.4,2.615,0.2406806533877677,-0.029226918999889034,0.9550036783081451,-0.003974536613758377,-0.132465,-30.604759
11.185,2.0,1.0,1.0,34.8,33.3,33.3,2.5,3.4,2.6175,0.22949602147957765,-0.029620742054043893,0.9575293789939359,-0.00439275265002148,-0.134383,-30.473603
11.185,2.0,1.0,1.0,34.8,33.3,33.3,2.5,3.4,2.62,0.218198928133111,-0.030016792389765016,0.9599391562754777,-0.004824896765101389,-0.136341,-30.341929
11.185,2.0,1.0,1.0,34.8,33.3,33.3,2.5,3.4,2.6225,0.20678927776303352,-0.030414921219166738,0.9622298293496415,-0.005271365207629576,-0.13834,-30.209733
11.185,2.0,1.0,1.0,34.8,33.3,33.3,2.5,3.4,2.625,0.195267026273218,-0.0308149686944729,0.964398146869599,-0.0057325644178587,-0.140381,-30.077008
11.185,2.0,1.0,1.0,34.8,33.3,33.3,2.5,3.4,2.6275,0.18363218389388802,-0.031216763329407916,0.9664407860595724,-0.006208911212824648,-0.142464,-29.943747
11.185,2.0,1.0,1.0,34.8,33.3,33.3,2.5,3.4,2.63,0.17188481813012457,-0.03162012139396421,0.9683543518664188,-0.006700832968960959,-0.144592,-29.809946
11.185,2.0,1.0,1.0,34.8,33.3,33.3,2.5,3.4,2.6325,0.1600250568247313,-0.032024846281449734,0.9701353761522137,-0.007208767801625382,-0.146765,-29.675597
11.185,2.0,1.0,1.0,34.8,33.3,33.3,2.5,3.4,2.635,0.14805309133849134,-0.03243072784667593,0.9717803169322183,-0.007733164740960716,-0.148985,-29.540695
11.185,2.0,1.0,1.0,34.8,33.3,33.3,2.5,3.4,2.6375,0.13596917985081833,-0.032837541714106036,0.9732855576628799,-0.008274483903474678,-0.151252,-29.405232
11.185,2.0,1.0,1.0,34.8,33.3,33.3,2.5,3.4,2.64,0.12377365078374984,-0.0332450485547385,0.9746474065847581,-0.008833196658686126,-0.153568,-29.269203
11.185,2.0,1.0,1.0,34.8,33.3,33.3,2.5,3.4,2.6425,0.11146690635226889,-0.03365299333045613,0.9758620961255399,-0.009409785790142811,-0.155934,-29.132601
11.185,2.0,1.0,1.0,34.8,33.3,33.3,2.5,3.4,2.645,0.09904942624382683,-0.034061104504521,0.9769257823685794,-0.010004745650076434,-0.158352,-28.99542
11.185,2.0,1.0,1.0,34.8,33.3,33.3,2.5,3.4,2.6475,0.08652177142993142,-0.034469093216847685,0.977834544592676,-0.010618582306917729,-0.160823,-28.857652
11.185,2.0,1.0,1.0,34.8,33.3,33.3,2.5,3.4,2.65,0.07388458811256321,-0.034876652422631556,0.9785843848890908,-0.01125181368485162,-0.163348,-28.719291
11.185,2.0,1.0,1.0,34.8,33.3,33.3,2.5,3.4,2.6525,0.06113861180815845,-0.0352834559928549,0.9791712278620958,-0.011904969694546144,-0.165928,-28.58033
11.185,2.0,1.0,1.0,34.8,33.3,33.3,2.5,3.4,2.655,0.048284671571736264,-0.03568915777513176,0.9795909204196509,-0.01257859235414752,-0.168566,-28.440761
11.185,2.0,1.0,1.0,34.8,33.3,33.3,2.5,3.4,2.6575,0.03532369436371034,-0.03609339061329187,0.9798392316611111,-0.01327323589958398,-0.171263,-28.300578
11.185,2.0,1.0,1.0,34.8,33.3,33.3,2.5,3.4,2.66,0.022256709561751714,-0.03649576532403358,0.9799118528691582,-0.013989466883177152,-0.17402,-28.159773
11.185,2.0,1.0,1.0,34.8,33.3,33.3,2.5,3.4,2.6625,0.009084853620000643,-0.03689586962890504,0.9798043976134951,-0.014727864259511461,-0.176839,-28.018338
11.185,2.0,1.0,1.0,34.8,33.3,33.3,2.5,3.4,2.665,-0.004190625122304696,-0.03729326703979435,0.9795124019741245,-0.015489019457466361,-0.179722,-27.876266
11.185,2.0,1.0,1.0,34.8,33.3,33.3,2.5,3.4,2.6675,-0.017568361480788067,-0.037687495696023865,0.9790313248923792,-0.016273536437266308,-0.18267,-27.733549
11.185,2.0,1.0,1.0,34.8,33.3,33.3,2.5,3.4,2.67,-0.031046868312733927,-0.03807806715105424,0.9783565486581639,-0.017082031731359235,-0.185686,-27.590179
11.185,2.0,1.0,1.0,34.8,33.3,33.3,2.5,3.4,2.6725,-0.04462453124914793,-0.03846446510670318,0.977483379542217,-0.017915134467885296,-0.18877,-27.446148
11.185,2.0,1.0,1.0,34.8,33.3,33.3,2.5,3.4,2.675,-0.05829960327069203,-0.038846144092674305,0.9764070485824763,-0.0187734863754508,-0.191926,-27.301447
11.185,2.0,1.0,1.0,34.8,33.3,33.3,2.5,3.4,2.6775,-0.07207019912636015,-0.039222528089073,0.9751227125339865,-0.019657741767877292,-0.195156,-27.156068
11.185,2.0,1.0,1.0,34.8,33.3,33.3,2.5,3.4,2.68,-0.08593428959399621,-0.039593009089454796,0.9736254549920675,-0.0205685675075502,-0.19846,-27.010002
11.185,2.0,1.0,1.0,34.8,33.3,33.3,2.5,3.4,2.6825,-0.09988969558198,-0.03995694560180516,0.9719102876987503,-0.021506642945945745,-0.201842,-26.86324
11.185,2.0,1.0,1.0,34.8,33.3,33.3,2.5,3.4,2.685,-0.11393408207172681,-0.040313661084690755,0.9699721520428279,-0.02247265983987379,-0.205304,-26.715772
11.185,2.0,1.0,1.0,34.8,33.3,33.3,2.5,3.4,2.6875,-0.12806495190090328,-0.04066244231564237,0.9678059207640759,-0.023467322241930627,-0.208848,-26.56759
11.185,2.0,1.0,1.0,34.8,33.3,33.3,2.5,3.4,2.69,-0.14227963938750843,-0.041002537688630596,0.96540639987252,-0.024491346363614042,-0.212476,-26.418682
11.185,2.0,1.0,1.0,34.8,33.3,33.3,2.5,3.4,2.6925,-0.1565753037953943,-0.04133315543727552,0.9627683307938617,-0.025545460409517454,-0.216192,-26.26904
11.185,2.0,1.0,1.0,34.8,33.3,33.3,2.5,3.4,2.695,-0.1709489226419296,-0.041653461780180374,0.9598863927523632,-0.026630404380974557,-0.219997,-26.118652
11.185,2.0,1.0,1.0,34.8,33.3,33.3,2.5,3.4,2.6975,-0.185397284849026,-0.04196257898450649,0.9567552054027764,-0.027746929847497753,-0.223895,-25.967507
11.185,2.0,1.0,1.0,34.8,33.3,33.3,2.5,3.4,2.7,-0.1999169837388679,-0.04225958334358888,0.9533693317230094,-0.028895799684307864,-0.227888,-25.815596
11.185,2.0,1.0,1.0,34.8,33.3,33.3,2.5,3.4,2.7025,-0.21450440987615052,-0.04254350306404863,0.9497232811794353,-0.030077787774224055,-0.231979,-25.662905
11.185,2.0,1.0,1.0,34.8,33.3,33.3,2.5,3.4,2.705,-0.22915574375881234,-0.04281331605745991,0.9458115131768511,-0.031293678672141126,-0.236171,-25.509423
11.185,2.0,1.0,1.0,34.8,33.3,33.3,2.5,3.4,2.7075,-0.24386694835962827,-0.04306794763119075,0.9416284408052007,-0.03254426723028817,-0.240468,-25.355138
11.185,2.0,1.0,1.0,34.8,33.3,33.3,2.5,3.4,2.71,-0.25863376152120415,-0.0433062680725353,0.937168434895231,-0.033830358182417766,-0.244873,-25.200037
11.185,2.0,1.0,1.0,34.8,33.3,33.3,2.5,3.4,2.7125,-0.27345168820723975,-0.043527090119696216,0.9324258283952819,-0.035152765685037266,-0.249389,-25.044106
11.185,2.0,1.0,1.0,34.8,33.3,33.3,2.5,3.4,2.715,-0.28831599261303337,-0.043729166312542124,0.9273949210813949,-0.03651231281373913,-0.25402,-24.887332
11.185,2.0,1.0,1.0,34.8,33.3,33.3,2.5,3.4,2.7175,-0.30322169013842437,-0.04391118621535043,0.9220699846128668,-0.03790983101263369,-0.25877,-24.729701
11.185,2.0,1.0,1.0,34.8,33.3,33.3,2.5,3.4,2.72,-0.3181635392263858,-0.04407177350294243,0.9164452679452872,-0.03934615949481647,-0.263642,-24.571196
11.185,2.0,1.0,1.0,34.8,33.3,33.3,2.5,3.4,2.7225,-0.33313603307055467,-0.04420948290070812,0.9105150031129173,-0.04082214459172321,-0.268642,-24.411804
11.185,2.0,1.0,1.0,34.8,33.3,33.3,2.5,3.4,2.725,-0.348133391194836,-0.044322796967993794,0.9042734113921648,-0.04233863904911648,-0.273773,-24.251506
11.185,2.0,1.0,1.0,34.8,33.3,33.3,2.5,3.4,2.7275,-0.3631495509081127,-0.044410122713169964,0.8977147098575643,-0.04389650126733013,-0.27904,-24.090287
11.185,2.0,1.0,1.0,34.8,33.3,33.3,2.5,3.4,2.73,-0.37817815863667514,-0.04446978802739226,0.890833118341512,-0.04549659448322827,-0.284448,-23.928129
11.185,2.0,1.0,1.0,34.8,33.3,33.3,2.5,3.4,2.7325,-0.3932125611366055,-0.04450003792259721,0.883622866808621,-0.04713978589114598,-0.290001,-23.765013
11.185,2.0,1.0,1.0,34.8,33.3,33.3,2.5,3.4,2.735,-0.408245796587636,-0.044499030557614595,0.8760782031552354,-0.04882694569982305,-0.295705,-23.600919
11.185,2.0,1.0,1.0,34.8,33.3,33.3,2.5,3.4,2.7375,-0.4232705855692001,-0.044464833034406986,0.8681934014443157,-0.050558946122038,-0.301566,-23.435828
11.185,2.0,1.0,1.0,34.8,33.3,33.3,2.5,3.4,2.74,-0.43827932191823255,-0.04439541694433538,0.8599627705854282,-0.05233666029325719,-0.30759,-23.269718
11.185,2.0,1.0,1.0,34.8,33.3,33.3,2.5,3.4,2.7425,-0.45326406346702497,-0.04428865364197083,0.8513806634692794,-0.05416096111514318,-0.313782,-23.102567
11.185,2.0,1.0,1.0,34.8,33.3,33.3,2.5,3.4,2.745,-0.4682165226575673,-0.044142309221287375,0.8424414865657717,-0.05603272001916596,-0.32015,-22.93435
11.185,2.0,1.0,1.0,34.8,33.3,33.3,2.5,3.4,2.7475,-0.48312805702698847,-0.043954039166047704,0.8331397099942419,-0.0579528056448373,-0.326699,-22.765045
11.185,2.0,1.0,1.0,34.8,33.3,33.3,2.5,3.4,2.75,-0.497989659556024,-0.0437213826427838,0.823469878074236,-0.0599220824261908,-0.333438,-22.594624
11.185,2.0,1.0,1.0,34.8,33.3,33.3,2.5,3.4,2.7525,-0.5127919488696603,-0.043441756400931016,0.8134266203649437,-0.061941409079033796,-0.340374,-22.423061
11.185,2.0,1.0,1.0,34.8,33.3,33.3,2.5,3.4,2.755,-0.5275251592754941,-0.043112448240345595,0.80300466320136,-0.0640116369801571,-0.347516,-22.250327
11.185,2.0,1.0,1.0,34.8,33.3,33.3,2.5,3.4,2.7575,-0.5421791306213848,-0.04273061000155433,0.7921988417352516,-0.06613360842806847,-0.354871,-22.076392
11.185,2.0,1.0,1.0,34.8,33.3,33.3,2.5,3.4,2.76,-0.5567432979490554,-0.042293250028588865,0.7810041124893762,-0.06830815477282708,-0.36245,-21.901224
11.185,2.0,1.0,1.0,34.8,33.3,33.3,2.5,3.4,2.7625,-0.5712066809148169,-0.04179722504805523,0.7694155664339432,-0.07053609440017591,-0.370261,-21.72479
11.185,2.0,1.0,1.0,34.8,33.3,33.3,2.5,3.4,2.765,-0.5855578729420564,-0.04123923140111431,0.7574284425952986,-0.0728182305522673,-0.378316,-21.547054
11.185,2.0,1.0,1.0,34.8,33.3,33.3,2.5,3.4,2.7675,-0.5997850300626896,-0.040615795557171326,0.7450381422082424,-0.07515534896379121,-0.386625,-21.36798
11.185,2.0,1.0,1.0,34.8,33.3,33.3,2.5,3.4,2.77,-0.6138758593961341,-0.039923263829206655,0.7322402434254184,-0.07754821528811784,-0.3952,-21.187527
11.185,2.0,1.0,1.0,34.8,33.3,33.3,2.5,3.4,2.7725,-0.627817607204509,-0.03915779120068052,0.7190305165999773,-0.07999757228300464,-0.404054,-21.005656
11.185,2.0,1.0,1.0,34.8,33.3,33.3,2.5,3.4,2.775,-0.6415970464513117,-0.038315329162670025,0.7054049401614146,-0.08250413671935097,-0.413201,-20.822322
11.185,2.0,1.0,1.0,34.8,33.3,33.3,2.5,3.4,2.7775,-0.6552004637779709,-0.03739161244718743,0.691359717109201,-0.08506859596919149,-0.422654,-20.637478
11.185,2.0,1.0,1.0,34.8,33.3,33.3,2.5,3.4,2.78,-0.6686136457977566,-0.03638214452829037,0.6768912921550402,-0.08769160422037783,-0.43243,-20.451076
11.185,2.0,1.0,1.0,34.8,33.3,33.3,2.5,3.4,2.7825,-0.6818218645896897,-0.035282181746427506,0.6619963695523429,-0.09037377825490245,-0.442544,-20.263064
11.185,2.0,1.0,1.0,34.8,33.3,33.3,2.5,3.4,2.785,-0.6948098622558262,-0.03408671589321716,0.6466719316612994,-0.09311569271526543,-0.453016,-20.073389
11.185,2.0,1.0,1.0,34.8,33.3,33.3,2.5,3.4,2.7875,-0.7075618343835306,-0.032790455073273266,0.6309152583102612,-0.09591787476819344,-0.463863,-19.88199
11.185,2.0,1.0,1.0,34.8,33.3,33.3,2.5,3.4,2.79,-0.7200614122294315,-0.0313878026364669,0.6147239470292616,-0.0987807980569716,-0.475108,-19.688809
11.185,2.0,1.0,1.0,34.8,33.3,33.3,2.5,3.4,2.7925,-0.7322916434138207,-0.02987283394779851,0.5980959342504295,-0.10170487581196355,-0.486772,-19.493779
11.185,2.0,1.0,1.0,34.8,33.3,33.3,2.5,3.4,2.795,-0.7442349708822729,-0.028239270732475612,0.5810295175930639,-0.10469045296290529,-0.498879,-19.296833
11.185,2.0,1.0,1.0,34.8,33.3,33.3,2.5,3.4,2.7975,-0.7558732098553675,-0.026480452700427457,0.5635233793797456,-0.10773779706531524,-0.511457,-19.097897
11.185,2.0,1.0,1.0,34.8,33.3,33.3,2.5,3.4,2.8,-0.7671875224467714,-0.02458930611684214,0.5455766115645112,-0.11084708781585731,-0.524533,-18.896894
11.185,2.0,1.0,1.0,34.8,33.3,33.3,2.5,3.4,2.8025,-0.7781583895839818,-0.022558308942888437,0.5271887422966997,-0.11401840488633343,-0.538139,-18.693744
11.185,2.0,1.0,1.0,34.8,33.3,33.3,2.5,3.4,2.805,-0.7887655798144297,-0.020379452122998132,0.5083597643961464,-0.11725171375161561,-0.552308,-18.48836
11.185,2.0,1.0,1.0,34.8,33.3,33.3,2.5,3.4,2.8075,-0.7989881145214675,-0.01804419654131109,0.4890901660785724,-0.12054684912126708,-0.567077,-18.280649
11.185,2.0,1.0,1.0,34.8,33.3,33.3,2.5,3.4,2.81,-0.8088042290096411,-0.015543425109483382,0.46938096434738763,-0.12390349550542311,-0.582487,-18.070515
11.185,2.0,1.0,1.0,34.8,33.3,33.3,2.5,3.4,2.8125,-0.818191328845391,-0.012867389380354446,0.4492337415623261,-0.12732116434974894,-0.598582,-17.857856
11.185,2.0,1.0,1.0,34.8,33.3,33.3,2.5,3.4,2.815,-0.8271259407579612,-0.010005650006262726,0.4286506858100642,-0.13079916705831054,-0.61541,-17.642561
11.185,2.0,1.0,1.0,34.8,33.3,33.3,2.5,3.4,2.8175,-0.8355836573144889,-0.006947010276501852,0.40763463584220505,-0.1343365830824523,-0.633023,-17.424515
11.185,2.0,1.0,1.0,34.8,33.3,33.3,2.5,3.4,2.82,-0.8435390744828314,-0.00367944187497661,0.3861891315170071,-0.1379322220827109,-0.651481,-17.203596
11.185,2.0,1.0,1.0,34.8,33.3,33.3,2.5,3.4,2.8225,-0.8509657210854316,-0.00019000189623969956,0.36431847089037234,-0.14158457896247623,-0.670848,-16.979673
11.185,2.0,1.0,1.0,34.8,33.3,33.3,2.5,3.4,2.825,-0.8578359790270873,0.003535259954183585,0.34202777535734497,-0.14529178031795886,-0.691194,-16.752609
11.185,2.0,1.0,1.0,34.8,33.3,33.3,2.5,3.4,2.8275,-0.8641209930499907,0.007511405170384737,0.3193230645587079,-0.14905152053837503,-0.7126,-16.522256
