1,w,sub_t,h,l1,l2,l3,g1,g2,Freq,S11_re,S21_re,S11_img,S21_img,S11_dB,S21_dB
11.185,2.0,1.0,1.0,34.4,33.3,33.3,3.9,1.7,2.5,0.720987303568226,-0.0121681639952162,0.682239033438946,0.00629062017272618,-0.064435,-37.266836
11.185,2.0,1.0,1.0,34.4,33.3,33.3,3.9,1.7,2.5025,0.7155696294395546,-0.012382176008603639,0.6878105341520959,0.00626817835229749,-0.065094,-37.153249
11.185,2.0,1.0,1.0,34.4,33.3,33.3,3.9,1.7,2.505,0.710080694644404,-0.012599494840474372,0.6933660429157716,0.0062434027235763,-0.065765,-37.039333
11.185,2.0,1.0,1.0,34.4,33.3,33.3,3.9,1.7,2.5075,0.7045198263305393,-0.012820171058102708,0.6989049002652373,0.00621621502285742,-0.066448,-36.92508
11.185,2.0,1.0,1.0,34.4,33.3,33.3,3.9,1.7,2.51,0.6988863450059832,-0.013044255950951135,0.7044264286402158,0.006186534433669345,-0.067143,-36.810485
11.185,2.0,1.0,1.0,34.4,33.3,33.3,3.9,1.7,2.5125,0.6931795645959064,-0.013271801533003814,0.7099299318847004,0.006154277496823994,-0.06785,-36.695541
11.185,2.0,1.0,1.0,34.4,33.3,33.3,3.9,1.7,2.515,0.6873987925075359,-0.013502860544483937,0.7154146947335663,0.006119358017006374,-0.068569,-36.580241
11.185,2.0,1.0,1.0,34.4,33.3,33.3,3.9,1.7,2.5175,0.681543329703534,-0.013737486452904128,0.720879982285635,0.006081686965757035,-0.069302,-36.46458
11.185,2.0,1.0,1.0,34.4,33.3,33.3,3.9,1.7,2.52,0.6756124707842822,-0.013975733453398385,0.726325039462894,0.006041172380691373,-0.070048,-36.348549
11.185,2.0,1.0,1.0,34.4,33.3,33.3,3.9,1.7,2.5225,0.669605504079577,-0.014217656468277768,0.7317490904555127,0.005997719260793162,-0.070807,-36.232144
11.185,2.0,1.0,1.0,34.4,33.3,33.3,3.9,1.7,2.525,0.6635217117502104,-0.014463311145751861,0.7371513381523377,0.005951229457611015,-0.07158,-36.115356
11.185,2.0,1.0,1.0,34.4,33.3,33.3,3.9,1.7,2.5275,0.6573603698999647,-0.014712753857751127,0.7425309635565212,0.00590160156217813,-0.072367,-35.998178
11.185,2.0,1.0,1.0,34.4,33.3,33.3,3.9,1.7,2.53,0.651120748698574,-0.014966041696783266,0.7478871251859244,0.005848730787466855,-0.073169,-35.880605
11.185,2.0,1.0,1.0,34.4,33.3,33.3,3.9,1.7,2.5325,0.6448021125162103,-0.015223232471751447,0.7532189584579524,0.005792508846179261,-0.073985,-35.762628
11.185,2.0,1.0,1.0,34.4,33.3,33.3,3.9,1.7,2.535,0.6384037200700898,-0.015484384702658113,0.7585255750584593,0.005732823823665604,-0.074817,-35.644241
11.185,2.0,1.0,1.0,34.4,33.3,33.3,3.9,1.7,2.5375,0.631924824583829,-0.01574955761411289,0.7638060622943521,0.005669560045750709,-0.075664,-35.525435
11.185,2.0,1.0,1.0,34.4,33.3,33.3,3.9,1.7,2.54,0.6253646739601831,-0.016018811127558045,0.769059482429526,0.0056025979412379955,-0.076526,-35.406205
11.185,2.0,1.0,1.0,34.4,33.3,33.3,3.9,1.7,2.5425,0.6187225109678552,-0.016292205852119747,0.7742848720037634,0.005531813898847587,-0.077406,-35.286541
11.185,2.0,1.0,1.0,34.4,33.3,33.3,3.9,1.7,2.545,0.6119975734430692,-0.016569803073986998,0.7794812411341989,0.005457080118332447,-0.078301,-35.166437
11.185,2.0,1.0,1.0,34.4,33.3,33.3,3.9,1.7,2.5475,0.605189094506658,-0.01685166474421361,0.7846475727989735,0.005378264455502814,-0.079214,-35.045884
11.185,2.0,1.0,1.0,34.4,33.3,33.3,3.9,1.7,2.55,0.598296302797412,-0.01713785346483338,0.789782822102689,0.00529523026087418,-0.080144,-34.924875
11.185,2.0,1.0,1.0,34.4,33.3,33.3,3.9,1.7,2.5525,0.5913184227225156,-0.017428432473168852,0.7948859155232468,0.0052078362116387165,-0.081092,-34.803402
11.185,2.0,1.0,1.0,34.4,33.3,33.3,3.9,1.7,2.555,0.5842546747258816,-0.017723465624209254,0.7999557501396883,0.00511593613664293,-0.082058,-34.681457
11.185,2.0,1.0,1.0,34.4,33.3,33.3,3.9,1.7,2.5575,0.577104275575266,-0.01802301737092318,0.8049911928406203,0.00501937883403708,-0.083044,-34.55903
11.185,2.0,1.0,1.0,34.4,33.3,33.3,3.9,1.7,2.56,0.5698664386690688,-0.018327152742362733,0.809991079512803,0.00491800788124285,-0.084048,-34.436115
11.185,2.0,1.0,1.0,34.4,33.3,33.3,3.9,1.7,2.5625,0.5625403743637682,-0.01863593731940837,0.8149542142094918,0.004811661436865091,-0.085072,-34.312701
11.185,2.0,1.0,1.0,34.4,33.3,33.3,3.9,1.7,2.565,0.5551252903229627,-0.018949437207991134,0.8198793682981101,0.0047001720341517976,-0.086116,-34.188781
11.185,2.0,1.0,1.0,34.4,33.3,33.3,3.9,1.7,2.5675,0.5476203918890672,-0.01926771900962036,0.8247652795868021,0.004583366365584318,-0.087182,-34.064346
11.185,2.0,1.0,1.0,34.4,33.3,33.3,3.9,1.7,2.57,0.540024882478715,-0.01959084978903191,0.8296106514294572,0.0044610650581537546,-0.088268,-33.939386
11.185,2.0,1.0,1.0,34.4,33.3,33.3,3.9,1.7,2.5725,0.5323379640029849,-0.019918897038760663,0.8344141518087441,0.004333082438853709,-0.089376,-33.813892
11.185,2.0,1.0,1.0,34.4,33.3,33.3,3.9,1.7,2.575,0.524558837313619,-0.020251928640427456,0.8391744123967135,0.0041992262898906995,-0.090507,-33.687855
11.185,2.0,1.0,1.0,34.4,33.3,33.3,3.9,1.7,2.5775,0.5166867026764319,-0.0205900128225157,0.843890027592515,0.004059297593083943,-0.091661,-33.561265
11.185,2.0,1.0,1.0,34.4,33.3,33.3,3.9,1.7,2.58,0.5087207602731785,-0.020933218114398456,0.8485595535367646,0.0039130902628920945,-0.092838,-33.434113
11.185,2.0,1.0,1.0,34.4,33.3,33.3,3.9,1.7,2.5825,0.5006602107331787,-0.021281613296360257,0.8531815071020975,0.003760390867470484,-0.09404,-33.306389
11.185,2.0,1.0,1.0,34.4,33.3,33.3,3.9,1.7,2.585,0.4925042556960745,-0.021635267345338965,0.857754364859426,0.003600978337124574,-0.095266,-33.178081
11.185,2.0,1.0,1.0,34.4,33.3,33.3,3.9,1.7,2.5875,0.4842520984071239,-0.021994249376095593,0.8622765620194291,0.003434623659483936,-0.096518,-33.049181
11.185,2.0,1.0,1.0,34.4,33.3,33.3,3.9,1.7,2.59,0.47590294434652775,-0.02235862857749743,0.8667464913487665,0.003261089560678006,-0.097797,-32.919677
11.185,2.0,1.0,1.0,34.4,33.3,33.3,3.9,1.7,2.5925,0.46745600189430275,-0.022728474143579043,0.8711625020605243,0.0030801301717476403,-0.099102,-32.789559
11.185,2.0,1.0,1.0,34.4,33.3,33.3,3.9,1.7,2.595,0.4589104830323296,-0.023103855199019842,0.8755228986783756,0.002891490679475434,-0.100436,-32.658815
11.185,2.0,1.0,1.0,34.4,33.3,33.3,3.9,1.7,2.5975,0.4502656040852079,-0.02348484071865251,0.8798259398739294,0.002694906960763177,-0.101798,-32.527434
11.185,2.0,1.0,1.0,34.4,33.3,33.3,3.9,1.7,2.6,0.4415205865016716,-0.02387149944058659,0.8840698372767332,0.0024901051996252307,-0.103189,-32.395405
11.185,2.0,1.0,1.0,34.4,33.3,33.3,3.9,1.7,2.6025,0.43267465767836466,-0.024263899772501242,0.8882527542563649,0.0022768014858034354,-0.104611,-32.262716
11.185,2.0,1.0,1.0,34.4,33.3,33.3,3.9,1.7,2.605,0.42372705182783804,-0.024662109690628008,0.8923728046760515,0.0020547013939383697,-0.106063,-32.129354
11.185,2.0,1.0,1.0,34.4,33.3,33.3,3.9,1.7,2.6075,0.41467701089273223,-0.02506619663090699,0.8964280516172218,0.0018234995421592458,-0.107548,-31.995308
11.185,2.0,1.0,1.0,34.4,33.3,33.3,3.9,1.7,2.61,0.40552378550817486,-0.02547622737176116,0.9004165060743615,0.0015828791288704054,-0.109066,-31.860565
11.185,2.0,1.0,1.0,34.4,33.3,33.3,3.9,1.7,2.6125,0.39626663601449913,-0.02589226790788926,0.9043361256195589,0.0013325114464275173,-0.110617,-31.725111
11.185,2.0,1.0,1.0,34.4,33.3,33.3,3.9,1.7,2.615,0.38690483352248184,-0.02631438331443131,0.9081848130360479,0.0010720553702984752,-0.112204,-31.588934
11.185,2.0,1.0,1.0,34.4,33.3,33.3,3.9,1.7,2.6175,0.37743766103340176,-0.026742637600807754,0.9119604149200531,0.0008011568222021047,-0.113826,-31.452019
11.185,2.0,1.0,1.0,34.4,33.3,33.3,3.9,1.7,2.62,0.3678644146162981,-0.02717709355347821,0.9156607202501904,0.000519448205603449,-0.115486,-31.314354
11.185,2.0,1.0,1.0,34.4,33.3,33.3,3.9,1.7,2.6225,0.35818440464489604,-0.027617812566802808,0.9192834589236567,0.0002265478118227102,-0.117184,-31.175922
11.185,2.0,1.0,1.0,34.4,33.3,33.3,3.9,1.7,2.625,0.348396957096832,-0.0280648544611201,0.92282630025833,-7.79408051184576e-05,-0.118921,-31.036711
11.185,2.0,1.0,1.0,34.4,33.3,33.3,3.9,1.7,2.6275,0.33850141491782465,-0.028518277287083452,0.9262868514599336,-0.00039442948693656167,-0.1207,-30.896704
11.185,2.0,1.0,1.0,34.4,33.3,33.3,3.9,1.7,2.63,0.3284971394536493,-0.028978137115212285,0.9296626560532678,-0.0007233461649926092,-0.12252,-30.755886
11.185,2.0,1.0,1.0,34.4,33.3,33.3,3.9,1.7,2.6325,0.31838351195282877,-0.02944448780952592,0.9329511922764933,-0.0010651355920190462,-0.124383,-30.614241
11.185,2.0,1.0,1.0,34.4,33.3,33.3,3.9,1.7,2.635,0.30815993514312756,-0.02991738078402683,0.9361498714373309,-0.0014202601142120487,-0.126291,-30.471752
11.185,2.0,1.0,1.0,34.4,33.3,33.3,3.9,1.7,2.6375,0.29782583488505254,-0.030396864740689283,0.9392560362299656,-0.0017892004864384344,-0.128245,-30.328403
11.185,2.0,1.0,1.0,34.4,33.3,33.3,3.9,1.7,2.64,0.2873806619057086,-0.030882985387488106,0.9422669590113114,-0.0021724567335363212,-0.130247,-30.184177
11.185,2.0,1.0,1.0,34.4,33.3,33.3,3.9,1.7,2.6425,0.276823893616537,-0.031375785134864956,0.9451798400351857,-0.0025705490609322593,-0.132299,-30.039055
11.185,2.0,1.0,1.0,34.4,33.3,33.3,3.9,1.7,2.645,0.2661550360186201,-0.03187530276888046,0.9479918056427713,-0.002984018818074303,-0.134401,-29.893019
11.185,2.0,1.0,1.0,34.4,33.3,33.3,3.9,1.7,2.6475,0.2553736256994209,-0.03238157309913225,0.9506999064076009,-0.003413429518473724,-0.136556,-29.746049
11.185,2.0,1.0,1.0,34.4,33.3,33.3,3.9,1.7,2.65,0.24447923192501406,-0.03289462657933454,0.9533011152330896,-0.003859367920480838,-0.138766,-29.598127
11.185,2.0,1.0,1.0,34.4,33.3,33.3,3.9,1.7,2.6525,0.2334714588321255,-0.03341448889824437,0.9557923254004393,-0.004322445173274438,-0.141032,-29.449232
11.185,2.0,1.0,1.0,34.4,33.3,33.3,3.9,1.7,2.655,0.2223499477244586,-0.033941180538392075,0.9581703485644781,-0.004803298032945357,-0.143356,-29.299343
11.185,2.0,1.0,1.0,34.4,33.3,33.3,3.9,1.7,2.6575,0.21111437947810816,-0.03447471629981236,0.9604319126947376,-0.005302590153987478,-0.145741,-29.148438
11.185,2.0,1.0,1.0,34.4,33.3,33.3,3.9,1.7,2.66,0.19976447706110875,-0.03501510478568321,0.9625736599587318,-0.005821013461989695,-0.148189,-28.996495
11.185,2.0,1.0,1.0,34.4,33.3,33.3,3.9,1.7,2.6625,0.18830000817248707,-0.03556234784645573,0.9645921445440641,-0.006359289613852163,-0.150701,-28.843492
11.185,2.0,1.0,1.0,34.4,33.3,33.3,3.9,1.7,2.665,0.1767207880065147,-0.036116439978694896,0.9664838304155576,-0.006918171552435844,-0.153281,-28.689403
11.185,2.0,1.0,1.0,34.4,33.3,33.3,3.9,1.7,2.6675,0.1650266821482759,-0.036677367674438834,0.9682450890031516,-0.007498445163196216,-0.155932,-28.534205
11.185,2.0,1.0,1.0,34.4,33.3,33.3,3.9,1.7,2.67,0.1532176096070287,-0.037245108716426195,0.9698721968157947,-0.008100931041069948,-0.158654,-28.377872
11.185,2.0,1.0,1.0,34.4,33.3,33.3,3.9,1.7,2.6725,0.14129354599437127,-0.03781963141402012,0.9713613329759325,-0.008726486376670338,-0.161453,-28.220378
11.185,2.0,1.0,1.0,34.4,33.3,33.3,3.9,1.7,2.675,0.12925452685470742,-0.0384008937740698,0.9727085766685664,-0.009376006971723753,-0.164329,-28.061694
11.185,2.0,1.0,1.0,34.4,33.3,33.3,3.9,1.7,2.6775,0.11710065115614514,-0.03898884260028738,0.9739099044980347,-0.010050429394647958,-0.167288,-27.901792
11.185,2.0,1.0,1.0,34.4,33.3,33.3,3.9,1.7,2.68,0.10483208495058954,-0.03958341251396651,0.9749611877448682,-0.010750733288253121,-0.170331,-27.740643
11.185,2.0,1.0,1.0,34.4,33.3,33.3,3.9,1.7,2.6825,0.09244906521260608,-0.040184524888014,0.9758581895140221,-0.011477943842737258,-0.173462,-27.578217
11.185,2.0,1.0,1.0,34.4,33.3,33.3,3.9,1.7,2.685,0.07995190386744297,-0.040792086685299156,0.9765965617647526,-0.012233134448483148,-0.176685,-27.41448
11.185,2.0,1.0,1.0,34.4,33.3,33.3,3.9,1.7,2.6875,0.06734099201961546,-0.04140598919122026,0.9771718422110987,-0.013017429544639475,-0.180005,-27.2494
11.185,2.0,1.0,1.0,34.4,33.3,33.3,3.9,1.7,2.69,0.05461680439462255,-0.0420261066291315,0.9775794510805064,-0.013832007681118903,-0.183424,-27.082942
11.185,2.0,1.0,1.0,34.4,33.3,33.3,3.9,1.7,2.6925,0.041779904007527166,-0.04265229464583955,0.9778146877166028,-0.01467810481348623,-0.186947,-26.915071
11.185,2.0,1.0,1.0,34.4,33.3,33.3,3.9,1.7,2.695,0.028830947073791482,-0.04328438865273433,0.9778727270101897,-0.01555701785225522,-0.19058,-26.745748
11.185,2.0,1.0,1.0,34.4,33.3,33.3,3.9,1.7,2.6975,0.01577068817927045,-0.04392220200624483,0.9777486156405849,-0.016470108490413773,-0.194326,-26.574936
11.185,2.0,1.0,1.0,34.4,33.3,33.3,3.9,1.7,2.7,0.0025999857283898055,-0.04456552400914763,0.9774372681070344,-0.017418807335549787,-0.198191,-26.402592
11.185,2.0,1.0,1.0,34.4,33.3,33.3,3.9,1.7,2.7025,-0.010680192308345647,-0.04521411771178449,0.9769334625273294,-0.01840461837582787,-0.202181,-26.228675
11.185,2.0,1.0,1.0,34.4,33.3,33.3,3.9,1.7,2.705,-0.02406876232362031,-0.04586771748938725,0.976231836177734,-0.019429123812275243,-0.206302,-26.05314
11.185,2.0,1.0,1.0,34.4,33.3,33.3,3.9,1.7,2.7075,-0.037564518652535094,-0.04652602636842294,0.9753268807450087,-0.020493989293442552,-0.210559,-25.875941
11.185,2.0,1.0,1.0,34.4,33.3,33.3,3.9,1.7,2.71,-0.05116612677138864,-0.047188713071068394,0.9742129372574366,-0.021600969592549913,-0.214959,-25.697029
11.185,2.0,1.0,1.0,34.4,33.3,33.3,3.9,1.7,2.7125,-0.06487211608150834,-0.04785540874252838,0.9728841906574386,-0.022751914771777838,-0.21951,-25.516354
11.185,2.0,1.0,1.0,34.4,33.3,33.3,3.9,1.7,2.715,-0.07868087223889891,-0.04852570332080913,0.9713346639734876,-0.023948776883471818,-0.224219,-25.333862
11.185,2.0,1.0,1.0,34.4,33.3,33.3,3.9,1.7,2.7175,-0.09259062898481181,-0.04919914150263638,0.9695582120434004,-0.025193617263789644,-0.229095,-25.149499
11.185,2.0,1.0,1.0,34.4,33.3,33.3,3.9,1.7,2.72,-0.10659945942585304,-0.04987521825230937,0.9675485147348147,-0.02648861448080065,-0.234146,-24.963204
11.185,2.0,1.0,1.0,34.4,33.3,33.3,3.9,1.7,2.7225,-0.12070526670461763,-0.05055337379224272,0.9652990696015068,-0.027836073006364464,-0.239381,-24.774918
11.185,2.0,1.0,1.0,34.4,33.3,33.3,3.9,1.7,2.725,-0.1349057739927157,-0.05123298800454513,0.962803183906023,-0.029238432689363374,-0.244811,-24.584576
11.185,2.0,1.0,1.0,34.4,33.3,33.3,3.9,1.7,2.7275,-0.14919851372765167,-0.05191337416198184,0.9600539659299616,-0.030698279117189996,-0.250447,-24.39211
11.185,2.0,1.0,1.0,34.4,33.3,33.3,3.9,1.7,2.73,-0.16358081600232918,-0.052593771893746234,0.9570443154826842,-0.03221835496292011,-0.256299,-24.19745
11.185,2.0,1.0,1.0,34.4,33.3,33.3,3.9,1.7,2.7325,-0.17804979600142612,-0.05327333927627687,0.9537669135074479,-0.0338015724275209,-0.262382,-24.00052
11.185,2.0,1.0,1.0,34.4,33.3,33.3,3.9,1.7,2.735,-0.1926023403612055,-0.05395114392144449,0.9502142106703695,-0.0354510268999194,-0.268709,-23.801243
11.185,2.0,1.0,1.0,34.4,33.3,33.3,3.9,1.7,2.7375,-0.20723509230886192,-0.05462615291327703,0.9463784148023914,-0.037170011973020944,-0.275294,-23.599534
11.185,2.0,1.0,1.0,34.4,33.3,33.3,3.9,1.7,2.74,-0.22194443541270942,-0.05529722141932881,0.942251477046978,-0.03896203597104132,-0.282154,-23.395308
11.185,2.0,1.0,1.0,34.4,33.3,33.3,3.9,1.7,2.7425,-0.23672647574536662,-0.055963079773054834,0.937825076546549,-0.040830840163083734,-0.289305,-23.188471
11.185,2.0,1.0,1.0,34.4,33.3,33.3,3.9,1.7,2.745,-0.25157702222703915,-0.05662231878814213,0.9330906034782531,-0.042780418860040144,-0.296768,-22.978926
11.185,2.0,1.0,1.0,34.4,33.3,33.3,3.9,1.7,2.7475,-0.2664915648742275,-0.057273373023509676,0.9280391402243141,-0.044815041616964466,-0.304562,-22.76657
11.185,2.0,1.0,1.0,34.4,33.3,33.3,3.9,1.7,2.75,-0.28146525062896,-0.0579145016671492,0.922661440433368,-0.0469392777914085,-0.312711,-22.551295
11.185,2.0,1.0,1.0,34.4,33.3,33.3,3.9,1.7,2.7525,-0.29649285638339923,-0.058543766646361566,0.9169479056967392,-0.04915802374022722,-0.321239,-22.332984
11.185,2.0,1.0,1.0,34.4,33.3,33.3,3.9,1.7,2.755,-0.3115687587418985,-0.059159007499025605,0.910888559526835,-0.05147653297344517,-0.330172,-22.111516
11.185,2.0,1.0,1.0,34.4,33.3,33.3,3.9,1.7,2.7575,-0.32668689997482464,-0.05975781245258425,0.9044730182835027,-0.05390044962436897,-0.339542,-21.886761
11.185,2.0,1.0,1.0,34.4,33.3,33.3,3.9,1.7,2.76,-0.3418407495119164,-0.060337485051026485,0.8976904586478267,-0.05643584564060678,-0.349379,-21.658581
11.185,2.0,1.0,1.0,34.4,33.3,33.3,3.9,1.7,2.7625,-0.35702326019370534,-0.06089500554104045,0.8905295811910189,-0.05908926215139951,-0.359722,-21.42683
11.185,2.0,1.0,1.0,34.4,33.3,33.3,3.9,1.7,2.765,-0.3722268183418224,-0.061426986071382556,0.8829785695286064,-0.06186775552290161,-0.370608,-21.191353
11.185,2.0,1.0,1.0,34.4,33.3,33.3,3.9,1.7,2.7675,-0.3874431865164033,-0.061929618567678965,0.8750250444868912,-0.06477894867485565,-0.382083,-20.951985
11.185,2.0,1.0,1.0,34.4,33.3,33.3,3.9,1.7,2.77,-0.40266343759267487,-0.06239861390993844,0.8666560126399089,-0.06783108829921991,-0.394196,-20.708548
11.185,2.0,1.0,1.0,34.4,33.3,33.3,3.9,1.7,2.7725,-0.4178778784983337,-0.06282913075138882,0.857857808501606,-0.07103310869297974,-0.407,-20.460856
11.185,2.0,1.0,1.0,34.4,33.3,33.3,3.9,1.7,2.775,-0.4330759615951245,-0.06321569196140306,0.8486160295811825,-0.07439470299206878,-0.420558,-20.208708
11.185,2.0,1.0,1.0,34.4,33.3,33.3,3.9,1.7,2.7775,-0.448246181244555,-0.06355208623515683,0.8389154634322405,-0.07792640266831342,-0.434936,-19.951891
11.185,2.0,1.0,1.0,34.4,33.3,33.3,3.9,1.7,2.78,-0.46337595254722974,-0.06383125186646288,0.8287400057531081,-0.08163966622205736,-0.450211,-19.690174
11.185,2.0,1.0,1.0,34.4,33.3,33.3,3.9,1.7,2.7825,-0.47845146855932613,-0.06404513900010424,0.8180725685337217,-0.0855469780623731,-0.46647,-19.423314
11.185,2.0,1.0,1.0,34.4,33.3,33.3,3.9,1.7,2.785,-0.49345753143255766,-0.06418454583024516,0.8068949772049973,-0.08966195860329962,-0.483809,-19.151049
11.185,2.0,1.0,1.0,34.4,33.3,33.3,3.9,1.7,2.7875,-0.5083773518488823,-0.06423892314626738,0.7951878557472243,-0.09399948660104454,-0.502338,-18.873098
11.185,2.0,1.0,1.0,34.4,33.3,33.3,3.9,1.7,2.79,-0.5231923097688403,-0.06419614028765493,0.7829304987806887,-0.09857583468753908,-0.522182,-18.58916
11.185,2.0,1.0,1.0,34.4,33.3,33.3,3.9,1.7,2.7925,-0.5378816678055568,-0.06404220387925506,0.7701007298342593,-0.10340881888081004,-0.543484,-18.298913
11.185,2.0,1.0,1.0,34.4,33.3,33.3,3.9,1.7,2.795,-0.5524222263762708,-0.06376091857927296,0.7566747453249532,-0.10851796251371346,-0.566405,-18.002009
11.185,2.0,1.0,1.0,34.4,33.3,33.3,3.9,1.7,2.7975,-0.5667879070413275,-0.06333347635823036,0.7426269443720335,-0.11392467443196139,-0.591135,-17.698076
11.185,2.0,1.0,1.0,34.4,33.3,33.3,3.9,1.7,2.8,-0.5809492469528399,-0.06273795737503078,0.7279297455444326,-0.11965244033960447,-0.617887,-17.386715
11.185,2.0,1.0,1.0,34.4,33.3,33.3,3.9,1.7,2.8025,-0.5948727828900424,-0.06194872111748461,0.71255339319667,-0.12572702462043905,-0.646913,-17.067495
11.185,2.0,1.0,1.0,34.4,33.3,33.3,3.9,1.7,2.805,-0.6085202976867006,-0.0609356608632488,0.6964657584788463,-0.13217667754689782,-0.678503,-16.739955
11.185,2.0,1.0,1.0,34.4,33.3,33.3,3.9,1.7,2.8075,-0.6218478946190995,-0.05966328735807225,0.679632143848285,-0.13903233906997947,-0.712997,-16.403599
11.185,2.0,1.0,1.0,34.4,33.3,33.3,3.9,1.7,2.81,-0.6348048561003387,-0.058089598486753755,0.6620151056194922,-0.14632782471533373,-0.750795,-16.057895
11.185,2.0,1.0,1.0,34.4,33.3,33.3,3.9,1.7,2.8125,-0.647332231313344,-0.0561646801295502,0.643574317748021,-0.154099970517904,-0.792367,-15.702272
11.185,2.0,1.0,1.0,34.4,33.3,33.3,3.9,1.7,2.815,-0.6593610826319919,-0.0538289687824758,0.624266513129636,-0.16238870094755486,-0.838274,-15.336122
11.185,2.0,1.0,1.0,34.4,33.3,33.3,3.9,1.7,2.8175,-0.6708103022251086,-0.05101108828132337,0.6040455584313293,-0.1712369642097214,-0.889183,-14.958796
11.185,2.0,1.0,1.0,34.4,33.3,33.3,3.9,1.7,2.82,-0.6815838876131729,-0.047625150617863,0.5828627482009554,-0.18069044983557392,-0.945897,-14.569607
11.185,2.0,1.0,1.0,34.4,33.3,33.3,3.9,1.7,2.8225,-0.6915675380388077,-0.043567384268235504,0.5606674487585879,-0.1907969591247765,-1.009385,-14.167831
11.185,2.0,1.0,1.0,34.4,33.3,33.3,3.9,1.7,2.825,-0.7006244031734064,-0.03871192352482785,0.537408289694633,-0.2016052323084326,-1.080824,-13.752716
11.185,2.0,1.0,1.0,34.4,33.3,33.3,3.9,1.7,2.8275,-0.7085897848843667,-0.032905561992498965,0.5130352019031957,-0.21316293616184476,-1.161657,-13.32349
