1,w,sub_t,h,l1,l2,l3,g1,g2,Freq,S11_re,S21_re,S11_img,S21_img,S11_dB,S21_dB
11.185,2.0,1.0,1.0,34.9,34.6,34.6,2.9,3.3,2.5,0.618603507233976,-0.0166190622735949,0.773340437625158,0.00518028851731028,-0.084524,-35.185164
11.185,2.0,1.0,1.0,34.9,34.6,34.6,2.9,3.3,2.5025,0.6116710851068694,-0.016918420884173523,0.7786813438970958,0.005099258456968578,-0.085585,-35.055179
11.185,2.0,1.0,1.0,34.9,34.6,34.6,2.9,3.3,2.505,0.6046498109582489,-0.017223013435450015,0.7839899059165951,0.005013723180532409,-0.086669,-34.92455
11.185,2.0,1.0,1.0,34.9,34.6,34.6,2.9,3.3,2.5075,0.5975388251780475,-0.01753294295377654,0.7892649674595886,0.00492351637904618,-0.087775,-34.793264
11.185,2.0,1.0,1.0,34.9,34.6,34.6,2.9,3.3,2.51,0.5903372616946468,-0.017848314820256162,0.7945053395531307,0.004828465156120764,-0.088906,-34.661309
11.185,2.0,1.0,1.0,34.9,34.6,34.6,2.9,3.3,2.5125,0.5830442481586304,-0.01816923683113623,0.7997097995053861,0.004728389726401206,-0.09006,-34.52867
11.185,2.0,1.0,1.0,34.9,34.6,34.6,2.9,3.3,2.515,0.5756589061416137,-0.018495819259825692,0.8048770899044817,0.004623103097771752,-0.09124,-34.395333
11.185,2.0,1.0,1.0,34.9,34.6,34.6,2.9,3.3,2.5175,0.56818035135092,-0.018828174920565884,0.8100059175849806,0.004512410736262266,-0.092446,-34.261286
11.185,2.0,1.0,1.0,34.9,34.6,34.6,2.9,3.3,2.52,0.5606076938608416,-0.01916641923378309,0.8150949525607023,0.004396110212544448,-0.093678,-34.126512
11.185,2.0,1.0,1.0,34.9,34.6,34.6,2.9,3.3,2.5225,0.55294003836134,-0.01951067029314582,0.8201428269224968,0.004273990828821886,-0.094938,-33.990998
11.185,2.0,1.0,1.0,34.9,34.6,34.6,2.9,3.3,2.525,0.545176484424984,-0.01986104893434923,0.8251481336995402,0.004145833224828143,-0.096226,-33.854727
11.185,2.0,1.0,1.0,34.9,34.6,34.6,2.9,3.3,2.5275,0.5373161267930289,-0.020217678805641397,0.8301094256826074,0.004011408961548855,-0.097543,-33.717685
11.185,2.0,1.0,1.0,34.9,34.6,34.6,2.9,3.3,2.53,0.5293580556815572,-0.020580686440102237,0.8350252142076859,0.0038704800811763416,-0.09889,-33.579856
11.185,2.0,1.0,1.0,34.9,34.6,34.6,2.9,3.3,2.5325,0.5213013571086325,-0.02095020132967867,0.8398939678981944,0.0037227986416892627,-0.100268,-33.441222
11.185,2.0,1.0,1.0,34.9,34.6,34.6,2.9,3.3,2.535,0.51314511324347,-0.021326356000972643,0.8447141113639616,0.0035681062243233886,-0.101677,-33.301767
11.185,2.0,1.0,1.0,34.9,34.6,34.6,2.9,3.3,2.5375,0.5048884027786851,-0.021709286092765297,0.8494840238549829,0.003406133412061645,-0.10312,-33.161474
11.185,2.0,1.0,1.0,34.9,34.6,34.6,2.9,3.3,2.54,0.4965303013267028,-0.022099130435255087,0.8542020378678579,0.0032365992371207295,-0.104597,-33.020325
11.185,2.0,1.0,1.0,34.9,34.6,34.6,2.9,3.3,2.5425,0.4880698818414834,-0.022496031130969842,0.8588664377026509,0.00305921059524665,-0.106108,-32.878302
11.185,2.0,1.0,1.0,34.9,34.6,34.6,2.9,3.3,2.545,0.4795062150667638,-0.022900133637297995,0.863475457967764,0.0028736616244548845,-0.107656,-32.735385
11.185,2.0,1.0,1.0,34.9,34.6,34.6,2.9,3.3,2.5475,0.4708383700120871,-0.023311586850566807,0.8680272820302277,0.002679633045650329,-0.109241,-32.591555
11.185,2.0,1.0,1.0,34.9,34.6,34.6,2.9,3.3,2.55,0.4620654144579146,-0.023730543191573594,0.8725200404086413,0.0024767914623518273,-0.110864,-32.446793
11.185,2.0,1.0,1.0,34.9,34.6,34.6,2.9,3.3,2.5525,0.4531864154912522,-0.024157158692449478,0.8769518091057552,0.0022647886165074052,-0.112527,-32.301077
11.185,2.0,1.0,1.0,34.9,34.6,34.6,2.9,3.3,2.555,0.44420044007320747,-0.024591593084707188,0.8813206078774832,0.0020432605971320095,-0.114232,-32.154388
11.185,2.0,1.0,1.0,34.9,34.6,34.6,2.9,3.3,2.5575,0.43510655564003736,-0.025034009888289827,0.8856243984348658,0.0018118269982128172,-0.115979,-32.006702
11.185,2.0,1.0,1.0,34.9,34.6,34.6,2.9,3.3,2.56,0.4259038307393049,-0.025484576501397137,0.889861082575216,0.001570090022020714,-0.11777,-31.857998
11.185,2.0,1.0,1.0,34.9,34.6,34.6,2.9,3.3,2.5625,0.41659133570284773,-0.025943464290819274,0.8940285002383823,0.0013176335236224476,-0.119607,-31.708252
11.185,2.0,1.0,1.0,34.9,34.6,34.6,2.9,3.3,2.565,0.4071681433583643,-0.02641084868245546,0.898124427483725,0.0010540219920135761,-0.121491,-31.557441
11.185,2.0,1.0,1.0,34.9,34.6,34.6,2.9,3.3,2.5675,0.3976333297815458,-0.026886909251628798,0.9021465743829976,0.0007787994628792926,-0.123424,-31.40554
11.185,2.0,1.0,1.0,34.9,34.6,34.6,2.9,3.3,2.57,0.38798597509077115,-0.02737182981274082,0.9060925828239424,0.0004914883575341146,-0.125407,-31.252523
11.185,2.0,1.0,1.0,34.9,34.6,34.6,2.9,3.3,2.5725,0.3782251642865309,-0.02786579850771823,0.9099600242189195,0.00019158824208846307,-0.127443,-31.098365
11.185,2.0,1.0,1.0,34.9,34.6,34.6,2.9,3.3,2.575,0.36834998813789327,-0.02836900789261212,0.9137463971123863,-0.00012142549966374083,-0.129534,-30.943037
11.185,2.0,1.0,1.0,34.9,34.6,34.6,2.9,3.3,2.5775,0.3583595441184652,-0.028881655021591325,0.917449124680473,-0.00044810308675801526,-0.131681,-30.786513
11.185,2.0,1.0,1.0,34.9,34.6,34.6,2.9,3.3,2.58,0.3482529373945084,-0.029403941527439102,0.9210655521152669,-0.0007890218627698108,-0.133886,-30.628763
11.185,2.0,1.0,1.0,34.9,34.6,34.6,2.9,3.3,2.5825,0.33802928186803255,-0.02993607369751344,0.9245929438857113,-0.0011447879272766472,-0.136153,-30.469757
11.185,2.0,1.0,1.0,34.9,34.6,34.6,2.9,3.3,2.585,0.3276877012779473,-0.030478262543943327,0.9280284808662482,-0.0015160378864543535,-0.138483,-30.309464
11.185,2.0,1.0,1.0,34.9,34.6,34.6,2.9,3.3,2.5875,0.31722733036257816,-0.031030723866634483,0.9313692573234542,-0.0019034407331208394,-0.140879,-30.147852
11.185,2.0,1.0,1.0,34.9,34.6,34.6,2.9,3.3,2.59,0.306647316087162,-0.031593678307408835,0.9346122777499442,-0.002307699867564829,-0.143344,-29.984887
11.185,2.0,1.0,1.0,34.9,34.6,34.6,2.9,3.3,2.5925,0.2959468189402314,-0.032167351393326354,0.9377544535337462,-0.002729555271645391,-0.145879,-29.820535
11.185,2.0,1.0,1.0,34.9,34.6,34.6,2.9,3.3,2.595,0.2851250143032062,-0.032751973566904874,0.9407925994501012,-0.003169785849918186,-0.148489,-29.654761
11.185,2.0,1.0,1.0,34.9,34.6,34.6,2.9,3.3,2.5975,0.2741810938978834,-0.03334778020057882,0.9437234299613244,-0.0036292119529706076,-0.151177,-29.487527
11.185,2.0,1.0,1.0,34.9,34.6,34.6,2.9,3.3,2.6,0.2631142673170334,-0.033955011592286706,0.9465435553088045,-0.004108698099728067,-0.153945,-29.318794
11.185,2.0,1.0,1.0,34.9,34.6,34.6,2.9,3.3,2.6025,0.2519237636438708,-0.03457391293856352,0.9492494773795307,-0.0046091559172712964,-0.156797,-29.148523
11.185,2.0,1.0,1.0,34.9,34.6,34.6,2.9,3.3,2.605,0.24060883316675988,-0.03520473428090953,0.9518375853276062,-0.005131547318684348,-0.159737,-28.976671
11.185,2.0,1.0,1.0,34.9,34.6,34.6,2.9,3.3,2.6075,0.22916874919631372,-0.03584773042049637,0.9543041509290642,-0.005676887941676043,-0.162769,-28.803196
11.185,2.0,1.0,1.0,34.9,34.6,34.6,2.9,3.3,2.61,0.2176028099928606,-0.03650316079545035,0.956645323645859,-0.006246250873210499,-0.165897,-28.628053
11.185,2.0,1.0,1.0,34.9,34.6,34.6,2.9,3.3,2.6125,0.2059103408132561,-0.03717128931398203,0.9588571253721971,-0.006840770688177077,-0.169125,-28.451195
11.185,2.0,1.0,1.0,34.9,34.6,34.6,2.9,3.3,2.615,0.1940906960871665,-0.037852384135502175,0.9609354448332643,-0.00746164783328244,-0.172458,-28.272572
11.185,2.0,1.0,1.0,34.9,34.6,34.6,2.9,3.3,2.6175,0.18214326173432463,-0.038546717390530096,0.9628760316029599,-0.008110153390885548,-0.175902,-28.092135
11.185,2.0,1.0,1.0,34.9,34.6,34.6,2.9,3.3,2.62,0.17006745763579587,-0.03925456482864368,0.9646744897032782,-0.008787634261492481,-0.179461,-27.90983
11.185,2.0,1.0,1.0,34.9,34.6,34.6,2.9,3.3,2.6225,0.15786274027416003,-0.039976205381883484,0.9663262707435785,-0.009495518808138433,-0.183141,-27.725602
11.185,2.0,1.0,1.0,34.9,34.6,34.6,2.9,3.3,2.625,0.145528605559697,-0.0407119206288598,0.96782666655289,-0.0102353230109799,-0.186948,-27.539393
11.185,2.0,1.0,1.0,34.9,34.6,34.6,2.9,3.3,2.6275,0.13306459186215797,-0.04146199414226613,0.9691708012527323,-0.011008657186190464,-0.190889,-27.351143
11.185,2.0,1.0,1.0,34.9,34.6,34.6,2.9,3.3,2.63,0.12047028327077548,-0.042226710699487836,0.9703536227114019,-0.011817233329794967,-0.19497,-27.16079
11.185,2.0,1.0,1.0,34.9,34.6,34.6,2.9,3.3,2.6325,0.10774531310865991,-0.04300635533243871,0.9713698933133049,-0.012662873154501533,-0.1992,-26.968266
11.185,2.0,1.0,1.0,34.9,34.6,34.6,2.9,3.3,2.635,0.09488936773195501,-0.04380121218853648,0.9722141799685026,-0.01354751689602926,-0.203586,-26.773505
11.185,2.0,1.0,1.0,34.9,34.6,34.6,2.9,3.3,2.6375,0.08190219064911106,-0.044611563169725005,0.9728808432780528,-0.014473232975039333,-0.208136,-26.576432
11.185,2.0,1.0,1.0,34.9,34.6,34.6,2.9,3.3,2.64,0.06878358700149441,-0.045437686310501615,0.9733640257597648,-0.015442228611730766,-0.212861,-26.376974
11.185,2.0,1.0,1.0,34.9,34.6,34.6,2.9,3.3,2.6425,0.05553342845368204,-0.046279853848820676,0.9736576390264873,-0.01645686150266293,-0.217769,-26.175051
11.185,2.0,1.0,1.0,34.9,34.6,34.6,2.9,3.3,2.645,0.04215165855010076,-0.04713832993529363,0.9737553497947046,-0.01751965268367442,-0.222873,-25.97058
11.185,2.0,1.0,1.0,34.9,34.6,34.6,2.9,3.3,2.6475,0.02863829860479174,-0.04801336791599663,0.9736505645847898,-0.018633300719125525,-0.228182,-25.763473
11.185,2.0,1.0,1.0,34.9,34.6,34.6,2.9,3.3,2.65,0.014993454203039512,-0.048905207112095346,0.9733364129554043,-0.01980069737648058,-0.23371,-25.55364
11.185,2.0,1.0,1.0,34.9,34.6,34.6,2.9,3.3,2.6525,0.0012173224081569029,-0.049814069004958765,0.9728057290928683,-0.02102494496678809,-0.239471,-25.340984
11.185,2.0,1.0,1.0,34.9,34.6,34.6,2.9,3.3,2.655,-0.012689800216014561,-0.050740152717957,0.9720510315513448,-0.022309375556421585,-0.245479,-25.125404
11.185,2.0,1.0,1.0,34.9,34.6,34.6,2.9,3.3,2.6575,-0.02672750863522708,-0.05168362966505207,0.971064500910958,-0.02365757228398395,-0.25175,-24.906794
11.185,2.0,1.0,1.0,34.9,34.6,34.6,2.9,3.3,2.66,-0.040895279270630254,-0.05264463721081169,0.9698379550877546,-0.02507339304920638,-0.258301,-24.685041
11.185,2.0,1.0,1.0,34.9,34.6,34.6,2.9,3.3,2.6625,-0.05519245863248476,-0.05362327115560455,0.9683628219910779,-0.026560996878682235,-0.265153,-24.460027
11.185,2.0,1.0,1.0,34.9,34.6,34.6,2.9,3.3,2.665,-0.06961825043672024,-0.05461957682223519,0.9666301091795692,-0.028124873317234858,-0.272325,-24.231628
11.185,2.0,1.0,1.0,34.9,34.6,34.6,2.9,3.3,2.6675,-0.08417170093363668,-0.05563353847460362,0.9646303701156229,-0.02976987524457707,-0.27984,-23.999712
11.185,2.0,1.0,1.0,34.9,34.6,34.6,2.9,3.3,2.67,-0.09885168212248177,-0.05666506674320324,0.9623536665585825,-0.03150125557587605,-0.287723,-23.764139
11.185,2.0,1.0,1.0,34.9,34.6,34.6,2.9,3.3,2.6725,-0.11365687245745379,-0.05771398366397123,0.9597895265678295,-0.03332470837318583,-0.296002,-23.524762
11.185,2.0,1.0,1.0,34.9,34.6,34.6,2.9,3.3,2.675,-0.12858573456686243,-0.05878000485311591,0.9569268975067162,-0.03524641497404777,-0.304707,-23.281426
11.185,2.0,1.0,1.0,34.9,34.6,34.6,2.9,3.3,2.6775,-0.1436364894040374,-0.059862718237215104,0.9537540933450421,-0.03727309583567623,-0.313871,-23.033965
11.185,2.0,1.0,1.0,34.9,34.6,34.6,2.9,3.3,2.68,-0.158807086120917,-0.06096155863019174,0.9502587354495027,-0.03941206890013352,-0.323531,-22.782205
11.185,2.0,1.0,1.0,34.9,34.6,34.6,2.9,3.3,2.6825,-0.17409516679702372,-0.06207577729048575,0.9464276859257047,-0.041671315410111646,-0.333728,-22.525959
11.185,2.0,1.0,1.0,34.9,34.6,34.6,2.9,3.3,2.685,-0.18949802495969106,-0.06320440539489777,0.9422469724292816,-0.04405955424910166,-0.344508,-22.265031
11.185,2.0,1.0,1.0,34.9,34.6,34.6,2.9,3.3,2.6875,-0.20501255658564313,-0.06434621011992184,0.9377017031942931,-0.04658632604676932,-0.35592,-21.999211
11.185,2.0,1.0,1.0,34.9,34.6,34.6,2.9,3.3,2.69,-0.2206352019661889,-0.06549964171378062,0.9327759708310802,-0.04926208848354709,-0.368022,-21.728275
11.185,2.0,1.0,1.0,34.9,34.6,34.6,2.9,3.3,2.6925,-0.23636187643138545,-0.06666276955581216,0.9274527432197027,-0.05209832445115343,-0.380877,-21.451986
11.185,2.0,1.0,1.0,34.9,34.6,34.6,2.9,3.3,2.695,-0.2521878874402542,-0.06783320471229029,0.9217137395654552,-0.055107664981252254,-0.394555,-21.170091
11.185,2.0,1.0,1.0,34.9,34.6,34.6,2.9,3.3,2.6975,-0.2681078349260266,-0.06900800588053531,0.9155392893867554,-0.05830402914570275,-0.409137,-20.882319
11.185,2.0,1.0,1.0,34.9,34.6,34.6,2.9,3.3,2.7,-0.2841154909994653,-0.0701835648287984,0.9089081718709037,-0.061702783460566096,-0.424714,-20.588382
11.185,2.0,1.0,1.0,34.9,34.6,34.6,2.9,3.3,2.7025,-0.3002036541107656,-0.07135546643885027,0.9017974326597895,-0.0653209236920444,-0.441387,-20.287972
11.185,2.0,1.0,1.0,34.9,34.6,34.6,2.9,3.3,2.705,-0.31636397148603534,-0.07251831717687993,0.8941821747193347,-0.06917728236172727,-0.459274,-19.980759
11.185,2.0,1.0,1.0,34.9,34.6,34.6,2.9,3.3,2.7075,-0.33258672200293976,-0.07366553417109757,0.8860353195132862,-0.07329276567051492,-0.478508,-19.66639
11.185,2.0,1.0,1.0,34.9,34.6,34.6,2.9,3.3,2.71,-0.34886054953798196,-0.0747890849486555,0.8773273342645731,-0.07769062398421599,-0.49924,-19.344487
11.185,2.0,1.0,1.0,34.9,34.6,34.6,2.9,3.3,2.7125,-0.3651721340555045,-0.07587916513072956,0.868025920683582,-0.08239676041067598,-0.521647,-19.014645
11.185,2.0,1.0,1.0,34.9,34.6,34.6,2.9,3.3,2.715,-0.38150578411557856,-0.07692379780428935,0.8580956602378597,-0.08744008228203679,-0.545931,-18.67643
11.185,2.0,1.0,1.0,34.9,34.6,34.6,2.9,3.3,2.7175,-0.3978429297894218,-0.07790833361808804,0.8474976109416715,-0.09285290042574504,-0.572326,-18.329377
11.185,2.0,1.0,1.0,34.9,34.6,34.6,2.9,3.3,2.72,-0.4141614888327716,-0.07881482453746382,0.8361888509362227,-0.09867138078315749,-0.601107,-17.972987
11.185,2.0,1.0,1.0,34.9,34.6,34.6,2.9,3.3,2.7225,-0.4304350709106635,-0.07962123617134782,0.8241219651030307,-0.10493605192289439,-0.632594,-17.606726
11.185,2.0,1.0,1.0,34.9,34.6,34.6,2.9,3.3,2.725,-0.44663197406965244,-0.08030045303898539,0.8112444730701082,-0.11169236982966683,-0.667164,-17.23002
11.185,2.0,1.0,1.0,34.9,34.6,34.6,2.9,3.3,2.7275,-0.4627139137007783,-0.08081901726493841,0.797498200976031,-0.11899133728365555,-0.705261,-16.842258
11.185,2.0,1.0,1.0,34.9,34.6,34.6,2.9,3.3,2.73,-0.478634405871639,-0.08113552293280311,0.7828186064311057,-0.12689016799901517,-0.747416,-16.442787
11.185,2.0,1.0,1.0,34.9,34.6,34.6,2.9,3.3,2.7325,-0.4943367027906061,-0.08119856436731959,0.7671340781275349,-0.1354529735923415,-0.794262,-16.030911
11.185,2.0,1.0,1.0,34.9,34.6,34.6,2.9,3.3,2.735,-0.5097511466666299,-0.08094410533997723,0.7503652514611745,-0.1447514314457312,-0.84656,-15.605895
11.185,2.0,1.0,1.0,34.9,34.6,34.6,2.9,3.3,2.7375,-0.5247917674843288,-0.08029209577767414,0.7324244140100192,-0.15486535894764877,-0.905232,-15.166966
11.185,2.0,1.0,1.0,34.9,34.6,34.6,2.9,3.3,2.74,-0.5393518983980864,-0.0791421112178717,0.7132151271340926,-0.16588306709077572,-0.971401,-14.713318
11.185,2.0,1.0,1.0,34.9,34.6,34.6,2.9,3.3,2.7425,-0.5532985184387296,-0.07736772694485124,0.6926322738728453,-0.17790128246203488,-1.046445,-14.244123
11.185,2.0,1.0,1.0,34.9,34.6,34.6,2.9,3.3,2.745,-0.5664649571386063,-0.07480926467635991,0.6705628767148429,-0.1910242933567562,-1.132064,-13.758551
11.185,2.0,1.0,1.0,34.9,34.6,34.6,2.9,3.3,2.7475,-0.5786415161300716,-0.07126447159822064,0.6468882393670355,-0.20536176556632174,-1.230376,-13.255791
11.185,2.0,1.0,1.0,34.9,34.6,34.6,2.9,3.3,2.75,-0.589563497493356,-0.0664766283742907,0.621488295970951,-0.221024344988871,-1.344029,-12.735099
11.185,2.0,1.0,1.0,34.9,34.6,34.6,2.9,3.3,2.7525,-0.5988961214729938,-0.0601195785276565,0.5942495595406294,-0.23811565786204317,-1.476365,-12.19586
11.185,2.0,1.0,1.0,34.9,34.6,34.6,2.9,3.3,2.755,-0.6062159607004335,-0.05177931996477458,0.5650788299761956,-0.2567185547770295,-1.631622,-11.637676
11.185,2.0,1.0,1.0,34.9,34.6,34.6,2.9,3.3,2.7575,-0.610989001945484,-0.04093228789350186,0.5339259450968077,-0.2768723290096513,-1.815204,-11.060511
11.185,2.0,1.0,1.0,34.9,34.6,34.6,2.9,3.3,2.76,-0.6125466263150807,-0.02692164252275428,0.5008204039932653,-0.29853610739943853,-2.034018,-10.464888
11.185,2.0,1.0,1.0,34.9,34.6,34.6,2.9,3.3,2.7625,-0.6100633108163436,-0.008935387537352492,0.4659285852989123,-0.3215317421360544,-2.296881,-9.85217
11.185,2.0,1.0,1.0,34.9,34.6,34.6,2.9,3.3,2.765,-0.6025447311900749,0.014004988754212242,0.42964001172582744,-0.3454578408684153,-2.614964,-9.224967
11.185,2.0,1.0,1.0,34.9,34.6,34.6,2.9,3.3,2.7675,-0.5888435946557855,0.04302804898380828,0.39269109634421095,-0.3695666426583485,-3.002116,-8.587669
11.185,2.0,1.0,1.0,34.9,34.6,34.6,2.9,3.3,2.77,-0.5677341089174062,0.07933734120719275,0.35632926632795736,-0.392601047190593,-3.474708,-7.947144
11.185,2.0,1.0,1.0,34.9,34.6,34.6,2.9,3.3,2.7725,-0.5380931039258683,0.1240300496759419,0.3225019306166163,-0.4126075525090725,-4.049982,-7.313555
11.185,2.0,1.0,1.0,34.9,34.6,34.6,2.9,3.3,2.775,-0.4992468411688819,0.17775099483438817,0.29401276709915025,-0.4267826987372318,-4.740604,-6.701165
11.185,2.0,1.0,1.0,34.9,34.6,34.6,2.9,3.3,2.7775,-0.4515204906508214,0.24014602202730986,0.2745162008948282,-0.4314816755616526,-5.540381,-6.128834
11.185,2.0,1.0,1.0,34.9,34.6,34.6,2.9,3.3,2.78,-0.39692504161564807,0.30918094382508154,0.2681438316442831,-0.422593732785774,-6.393108,-5.619669
11.185,2.0,1.0,1.0,34.9,34.6,34.6,2.9,3.3,2.7825,-0.3397027503939263,0.38060445434259743,0.27856824231114335,-0.3964760206968156,-7.144467,-5.199169
11.185,2.0,1.0,1.0,34.9,34.6,34.6,2.9,3.3,2.785,-0.2862204817501017,0.44806199360248844,0.3075644735817603,-0.35138281458054377,-7.532108,-4.891476
11.185,2.0,1.0,1.0,34.9,34.6,34.6,2.9,3.3,2.7875,-0.2437609076091181,0.5043040633961853,0.35365114237850875,-0.28880941045683595,-7.340307,-4.714259
11.185,2.0,1.0,1.0,34.9,34.6,34.6,2.9,3.3,2.79,-0.21840364455437927,0.5432928018240818,0.411772066783665,-0.21379775903822826,-6.630274,-4.674029
11.185,2.0,1.0,1.0,34.9,34.6,34.6,2.9,3.3,2.7925,-0.2130638634118731,0.5621442567762627,0.4745611365446081,-0.1336708230862815,-5.67665,-4.764173
11.185,2.0,1.0,1.0,34.9,34.6,34.6,2.9,3.3,2.795,-0.22687703429972808,0.5617296513725648,0.5345965941281351,-0.05579088086315313,-4.720265,-4.966822
11.185,2.0,1.0,1.0,34.9,34.6,34.6,2.9,3.3,2.7975,-0.2561459251550497,0.5457271238839807,0.5863316482913488,0.014354281517041191,-3.878569,-5.257486
11.185,2.0,1.0,1.0,34.9,34.6,34.6,2.9,3.3,2.8,-0.29601149758181317,0.5189593341378036,0.6268388002976516,0.07388475383030321,-3.182617,-5.610184
11.185,2.0,1.0,1.0,34.9,34.6,34.6,2.9,3.3,2.8025,-0.34186623035485564,0.48599050368535396,0.6554709452084267,0.12218731216697075,-2.623982,-6.001247
11.185,2.0,1.0,1.0,34.9,34.6,34.6,2.9,3.3,2.805,-0.3900850157980306,0.45040256545345214,0.6730483650997219,0.16010557021913688,-2.181295,-6.411209
11.185,2.0,1.0,1.0,34.9,34.6,34.6,2.9,3.3,2.8075,-0.43817076647112013,0.41465250916586704,0.6810824794206377,0.1891683149843471,-1.831842,-6.825189
11.185,2.0,1.0,1.0,34.9,34.6,34.6,2.9,3.3,2.81,-0.4845880138292754,0.38023902122615044,0.6812459164184173,0.21106339227899987,-1.555716,-7.232408
11.185,2.0,1.0,1.0,34.9,34.6,34.6,2.9,3.3,2.8125,-0.528503760362769,0.347960648247415,0.6750882017226,0.227355917717891,-1.33677,-7.625384
11.185,2.0,1.0,1.0,34.9,34.6,34.6,2.9,3.3,2.815,-0.5695487405307247,0.31815323424468356,0.6639212217497306,0.23937521620438337,-1.16238,-7.999105
11.185,2.0,1.0,1.0,34.9,34.6,34.6,2.9,3.3,2.8175,-0.6076361353935029,0.29086997256822167,0.6487995046894744,0.24819592941291496,-1.022836,-8.350331
11.185,2.0,1.0,1.0,34.9,34.6,34.6,2.9,3.3,2.82,-0.6428376256255764,0.26600428354806094,0.6305441262071168,0.2546624144414671,-0.910723,-8.677044
11.185,2.0,1.0,1.0,34.9,34.6,34.6,2.9,3.3,2.8225,-0.6753042304915897,0.2433680428627072,0.6097813637759222,0.2594277590934659,-0.820383,-8.978039
11.185,2.0,1.0,1.0,34.9,34.6,34.6,2.9,3.3,2.825,-0.7052183113002084,0.2227387165495812,0.5869820786208143,0.2629935083500593,-0.747494,-9.252635
11.185,2.0,1.0,1.0,34.9,34.6,34.6,2.9,3.3,2.8275,-0.7327658373973112,0.20388623417091847,0.5624961518186128,0.26574449207809625,-0.68874,-9.500469
11.185,2.0,1.0,1.0,34.9,34.6,34.6,2.9,3.3,2.83,-0.7581212242160141,0.18658722392265584,0.5365804522459918,0.26797726739748157,-0.641571,-9.721344
