1,w,sub_t,h,l1,l2,l3,g1,g2,Freq,S11_re,S21_re,S11_img,S21_img,S11_dB,S21_dB
11.185,2.0,1.0,1.0,34.8,34.5,34.5,2.5,2.0,2.5,0.632013779103762,-0.0244065797898021,0.761712818808,0.0109434894557607,-0.0893,-31.454261
11.185,2.0,1.0,1.0,34.8,34.5,34.5,2.5,2.0,2.5025,0.6251464503547981,-0.024883867816480453,0.7671845487478443,0.010880544524568738,-0.090487,-31.321831
11.185,2.0,1.0,1.0,34.8,34.5,34.5,2.5,2.0,2.505,0.618187570623292,-0.02537051813627821,0.7726256190599358,0.010811595355324348,-0.091702,-31.188701
11.185,2.0,1.0,1.0,34.8,34.5,34.5,2.5,2.0,2.5075,0.6111361752754109,-0.025866733749997244,0.7780348554398302,0.010736389097765739,-0.092947,-31.054857
11.185,2.0,1.0,1.0,34.8,34.5,34.5,2.5,2.0,2.51,0.6039912894888473,-0.02637272270838498,0.7834110481532363,0.010654662242309793,-0.094222,-30.920288
11.185,2.0,1.0,1.0,34.8,34.5,34.5,2.5,2.0,2.5125,0.5967519283136786,-0.026888698252068455,0.7887529508768529,0.010566140112091213,-0.095528,-30.78498
11.185,2.0,1.0,1.0,34.8,34.5,34.5,2.5,2.0,2.515,0.5894170967448706,-0.02741487895523232,0.7940592794959916,0.010470536326931405,-0.096866,-30.648921
11.185,2.0,1.0,1.0,34.8,34.5,34.5,2.5,2.0,2.5175,0.58198578980716,-0.02795148887307244,0.7993287108569397,0.010367552237442249,-0.098238,-30.512097
11.185,2.0,1.0,1.0,34.8,34.5,34.5,2.5,2.0,2.52,0.5744569926530553,-0.028498757693048375,0.8045598814719422,0.010256876327336389,-0.099644,-30.374495
11.185,2.0,1.0,1.0,34.8,34.5,34.5,2.5,2.0,2.5225,0.5668296806747842,-0.029056920889941277,0.8097513861744903,0.010138183581874835,-0.101085,-30.236099
11.185,2.0,1.0,1.0,34.8,34.5,34.5,2.5,2.0,2.525,0.5591028196310268,-0.02962621988471212,0.8149017767225111,0.010011134820227394,-0.102562,-30.096897
11.185,2.0,1.0,1.0,34.8,34.5,34.5,2.5,2.0,2.5275,0.5512753657893299,-0.030206902207134085,0.8200095603468608,0.009875375989353521,-0.104077,-29.956872
11.185,2.0,1.0,1.0,34.8,34.5,34.5,2.5,2.0,2.53,0.5433462660851951,-0.030799221662152567,0.8250731982423576,0.009730537416830762,-0.105631,-29.81601
11.185,2.0,1.0,1.0,34.8,34.5,34.5,2.5,2.0,2.5325,0.5353144582988407,-0.03140343849990197,0.8300911039984133,0.009576233019859336,-0.107225,-29.674295
11.185,2.0,1.0,1.0,34.8,34.5,34.5,2.5,2.0,2.535,0.5271788712507298,-0.03201981958927956,0.8350616419661149,0.009412059467457693,-0.10886,-29.531711
11.185,2.0,1.0,1.0,34.8,34.5,34.5,2.5,2.0,2.5375,0.5189384250170438,-0.03264863859494216,0.8399831255583836,0.009237595292630775,-0.110539,-29.38824
11.185,2.0,1.0,1.0,34.8,34.5,34.5,2.5,2.0,2.54,0.5105920311663261,-0.0332901761575554,0.8448538154796094,0.009052399951038804,-0.112261,-29.243867
11.185,2.0,1.0,1.0,34.8,34.5,34.5,2.5,2.0,2.5425,0.5021385930186285,-0.03394472007707859,0.8496719178808942,0.008856012822418213,-0.114029,-29.098573
11.185,2.0,1.0,1.0,34.8,34.5,34.5,2.5,2.0,2.545,0.4935770059285782,-0.03461256549881856,0.8544355824367513,0.008647952150705667,-0.115845,-28.952341
11.185,2.0,1.0,1.0,34.8,34.5,34.5,2.5,2.0,2.5475,0.48490615759390715,-0.03529401510192477,0.8591429003388019,0.008427713918488065,-0.117709,-28.805152
11.185,2.0,1.0,1.0,34.8,34.5,34.5,2.5,2.0,2.55,0.4761249283910429,-0.035989379289934356,0.8637919022016846,0.008194770651042002,-0.119624,-28.656987
11.185,2.0,1.0,1.0,34.8,34.5,34.5,2.5,2.0,2.5525,0.4672321917395738,-0.03669897638289064,0.868380555875995,0.00794857014483725,-0.121592,-28.507825
11.185,2.0,1.0,1.0,34.8,34.5,34.5,2.5,2.0,2.555,0.4582268144974365,-0.03742313281047694,0.8729067641627072,0.007688534114948685,-0.123614,-28.357648
11.185,2.0,1.0,1.0,34.8,34.5,34.5,2.5,2.0,2.5575,0.44910765738891,-0.03816218330549819,0.8773683624230658,0.007414056755355602,-0.125693,-28.206434
11.185,2.0,1.0,1.0,34.8,34.5,34.5,2.5,2.0,2.56,0.4398735754676222,-0.03891647109692693,0.8817631160774551,0.007124503205593661,-0.12783,-28.054162
11.185,2.0,1.0,1.0,34.8,34.5,34.5,2.5,2.0,2.5625,0.4305234186169795,-0.03968634810159384,0.886088717986228,0.006819207916665701,-0.130028,-27.90081
11.185,2.0,1.0,1.0,34.8,34.5,34.5,2.5,2.0,2.565,0.42105603209062803,-0.0404721751134472,0.8903427857049018,0.006497472908500058,-0.13229,-27.746354
11.185,2.0,1.0,1.0,34.8,34.5,34.5,2.5,2.0,2.5675,0.41147025709580937,-0.04127432198912435,0.8945228586054697,0.006158565910572832,-0.134616,-27.590771
11.185,2.0,1.0,1.0,34.8,34.5,34.5,2.5,2.0,2.57,0.40176493142270525,-0.04209316782837488,0.8986263948548965,0.005801718376567595,-0.137011,-27.434038
11.185,2.0,1.0,1.0,34.8,34.5,34.5,2.5,2.0,2.5725,0.3919388901231774,-0.04292910114763664,0.9026507682410801,0.005426123363131495,-0.139477,-27.276128
11.185,2.0,1.0,1.0,34.8,34.5,34.5,2.5,2.0,2.575,0.38199096624264,-0.04378252004479461,0.906593264835713,0.005030933261890737,-0.142016,-27.117017
11.185,2.0,1.0,1.0,34.8,34.5,34.5,2.5,2.0,2.5775,0.37191999160915606,-0.044653832352840345,0.9104510794825343,0.004615257372901654,-0.144632,-26.956678
11.185,2.0,1.0,1.0,34.8,34.5,34.5,2.5,2.0,2.58,0.3617247976842916,-0.04554345577978964,0.9142213120984297,0.004178159306625677,-0.147328,-26.795082
11.185,2.0,1.0,1.0,34.8,34.5,34.5,2.5,2.0,2.5825,0.3514042164807021,-0.04645181803180578,0.9179009637736919,0.0037186542003162485,-0.150107,-26.632202
11.185,2.0,1.0,1.0,34.8,34.5,34.5,2.5,2.0,2.585,0.3409570815520017,-0.0473793569159974,0.921486932656477,0.003235705733383378,-0.152972,-26.468008
11.185,2.0,1.0,1.0,34.8,34.5,34.5,2.5,2.0,2.5875,0.33038222906103315,-0.04832652041881597,0.9249760096051033,0.0027282229248362694,-0.155928,-26.30247
11.185,2.0,1.0,1.0,34.8,34.5,34.5,2.5,2.0,2.59,0.31967849893338657,-0.04929376675534558,0.9283648735902699,0.002195056694288106,-0.158979,-26.135557
11.185,2.0,1.0,1.0,34.8,34.5,34.5,2.5,2.0,2.5925,0.308844736103776,-0.05028156438405436,0.9316500868275605,0.0016349961662150078,-0.162128,-25.967235
11.185,2.0,1.0,1.0,34.8,34.5,34.5,2.5,2.0,2.595,0.29787979186381236,-0.05129039198073597,0.9348280896186713,0.0010467646951781977,-0.165379,-25.797471
11.185,2.0,1.0,1.0,34.8,34.5,34.5,2.5,2.0,2.5975,0.2867825253207118,-0.052320738364406955,0.937895194877699,0.0004290155875167895,-0.168739,-25.626231
11.185,2.0,1.0,1.0,34.8,34.5,34.5,2.5,2.0,2.6,0.2755518049776836,-0.05337310236680556,0.9408475823164336,-0.00021967250742132658,-0.17221,-25.453477
11.185,2.0,1.0,1.0,34.8,34.5,34.5,2.5,2.0,2.6025,0.26418651044810465,-0.054447992635847146,0.9436812922599878,-0.0009008005661564078,-0.1758,-25.279174
11.185,2.0,1.0,1.0,34.8,34.5,34.5,2.5,2.0,2.605,0.2526855343171182,-0.055545927361898485,0.9463922190611721,-0.0016159545527234516,-0.179513,-25.103281
11.185,2.0,1.0,1.0,34.8,34.5,34.5,2.5,2.0,2.6075,0.24104778416613057,-0.056667433913999386,0.9489761040787353,-0.002366811209105752,-0.183355,-24.92576
11.185,2.0,1.0,1.0,34.8,34.5,34.5,2.5,2.0,2.61,0.2292721847777342,-0.057813048371152635,0.9514285281809697,-0.003155144314210676,-0.187333,-24.746567
11.185,2.0,1.0,1.0,34.8,34.5,34.5,2.5,2.0,2.6125,0.2173576805409829,-0.05898331493147515,0.9537449037321049,-0.003982831455311918,-0.191454,-24.565659
11.185,2.0,1.0,1.0,34.8,34.5,34.5,2.5,2.0,2.615,0.20530323807972564,-0.0601787851792911,0.9559204660143622,-0.004851861360531096,-0.195724,-24.382993
11.185,2.0,1.0,1.0,34.8,34.5,34.5,2.5,2.0,2.6175,0.1931078491299421,-0.06140001718709737,0.9579502640334633,-0.005764341846125344,-0.200151,-24.19852
11.185,2.0,1.0,1.0,34.8,34.5,34.5,2.5,2.0,2.62,0.18077053369573629,-0.06264757442566113,0.9598291506496883,-0.0067225084381521165,-0.204744,-24.012193
11.185,2.0,1.0,1.0,34.8,34.5,34.5,2.5,2.0,2.6225,0.16829034351800345,-0.06392202445122769,0.96155177197021,-0.007728733734577592,-0.209511,-23.82396
11.185,2.0,1.0,1.0,34.8,34.5,34.5,2.5,2.0,2.625,0.155666365894886,-0.0652239373338128,0.963112555931267,-0.00878553758116115,-0.214462,-23.63377
11.185,2.0,1.0,1.0,34.8,34.5,34.5,2.5,2.0,2.6275,0.1428977278989966,-0.06655388378471117,0.9645056999907398,-0.009895598142599372,-0.219606,-23.441567
11.185,2.0,1.0,1.0,34.8,34.5,34.5,2.5,2.0,2.63,0.12998360104335274,-0.06791243293449983,0.9657251578426641,-0.011061763959541119,-0.224955,-23.247294
11.185,2.0,1.0,1.0,34.8,34.5,34.5,2.5,2.0,2.6325,0.11692320645604815,-0.06930014970478732,0.9667646250551245,-0.012287067092336899,-0.23052,-23.050893
11.185,2.0,1.0,1.0,34.8,34.5,34.5,2.5,2.0,2.635,0.10371582063319608,-0.07071759170752626,0.9676175235215853,-0.013574737463888122,-0.236314,-22.852302
11.185,2.0,1.0,1.0,34.8,34.5,34.5,2.5,2.0,2.6375,0.09036078185085239,-0.07216530559461229,0.9682769846029471,-0.01492821852688757,-0.24235,-22.651455
11.185,2.0,1.0,1.0,34.8,34.5,34.5,2.5,2.0,2.64,0.0768574973297404,-0.07364382276742637,0.9687358308232221,-0.01635118439527066,-0.248642,-22.448287
11.185,2.0,1.0,1.0,34.8,34.5,34.5,2.5,2.0,2.6425,0.06320545126215424,-0.0751536543405487,0.9689865559655508,-0.017847558596023896,-0.255206,-22.242726
11.185,2.0,1.0,1.0,34.8,34.5,34.5,2.5,2.0,2.645,0.04940421382867569,-0.07669528523564995,0.969021303397061,-0.01942153461586798,-0.262059,-22.034699
11.185,2.0,1.0,1.0,34.8,34.5,34.5,2.5,2.0,2.6475,0.03545345135403444,-0.07826916725997805,0.9688318424305684,-0.02107759843798746,-0.26922,-21.82413
11.185,2.0,1.0,1.0,34.8,34.5,34.5,2.5,2.0,2.65,0.021352937777090176,-0.07987571099826843,0.9684095425080469,-0.022820553287216702,-0.276708,-21.610938
11.185,2.0,1.0,1.0,34.8,34.5,34.5,2.5,2.0,2.6525,0.007102567640495741,-0.08151527631647781,0.9677453449648384,-0.024655546828204086,-0.284544,-21.395041
11.185,2.0,1.0,1.0,34.8,34.5,34.5,2.5,2.0,2.655,-0.0072976291581997735,-0.08318816123955308,0.9668297321043781,-0.026588101090445293,-0.292753,-21.17635
11.185,2.0,1.0,1.0,34.8,34.5,34.5,2.5,2.0,2.6575,-0.02184747056887839,-0.08489458892225248,0.9656526932804206,-0.02862414542702521,-0.301358,-20.954774
11.185,2.0,1.0,1.0,34.8,34.5,34.5,2.5,2.0,2.66,-0.03654660320783525,-0.086634692380452,0.9642036876469721,-0.030770052850879047,-0.310389,-20.730217
11.185,2.0,1.0,1.0,34.8,34.5,34.5,2.5,2.0,2.6625,-0.05139448039469564,-0.08840849658859003,0.9624716031949122,-0.033032680133761885,-0.319876,-20.502578
11.185,2.0,1.0,1.0,34.8,34.5,34.5,2.5,2.0,2.665,-0.06639033693438756,-0.09021589747480638,0.9604447116482651,-0.03541941209934514,-0.329851,-20.271752
11.185,2.0,1.0,1.0,34.8,34.5,34.5,2.5,2.0,2.6675,-0.08153316008198055,-0.09205663725624316,0.9581106187417803,-0.037938210593320476,-0.34035,-20.037628
11.185,2.0,1.0,1.0,34.8,34.5,34.5,2.5,2.0,2.67,-0.09682165602084206,-0.0939302754496827,0.9554562093446092,-0.0405976686704873,-0.351414,-19.80009
11.185,2.0,1.0,1.0,34.8,34.5,34.5,2.5,2.0,2.6725,-0.11225421105485069,-0.09583615476317689,0.9524675868320641,-0.04340707060176906,-0.363087,-19.559017
11.185,2.0,1.0,1.0,34.8,34.5,34.5,2.5,2.0,2.675,-0.1278288465585662,-0.09777336091766026,0.9491300060386975,-0.04637645837308509,-0.375416,-19.31428
11.185,2.0,1.0,1.0,34.8,34.5,34.5,2.5,2.0,2.6775,-0.14354316653922525,-0.09974067525765146,0.9454277990512746,-0.049516705422864564,-0.388456,-19.065746
11.185,2.0,1.0,1.0,34.8,34.5,34.5,2.5,2.0,2.68,-0.1593942964336283,-0.10173651877949143,0.941344293020233,-0.05283959844518824,-0.402264,-18.813272
11.185,2.0,1.0,1.0,34.8,34.5,34.5,2.5,2.0,2.6825,-0.17537881148200832,-0.1037588859248153,0.9368617190840345,-0.05635792816995243,-0.416906,-18.556711
11.185,2.0,1.0,1.0,34.8,34.5,34.5,2.5,2.0,2.685,-0.1914926526785003,-0.1058052661445292,0.93196111141442,-0.060085590118059806,-0.432454,-18.295906
11.185,2.0,1.0,1.0,34.8,34.5,34.5,2.5,2.0,2.6875,-0.2077310278791673,-0.10787255082006378,0.9266221953053003,-0.06403769641510663,-0.44899,-18.030694
11.185,2.0,1.0,1.0,34.8,34.5,34.5,2.5,2.0,2.69,-0.22408829513607353,-0.10995692261622345,0.9208232631490774,-0.06823069982614291,-0.466603,-17.760901
11.185,2.0,1.0,1.0,34.8,34.5,34.5,2.5,2.0,2.6925,-0.2405578246973555,-0.11205372371131322,0.9145410370794793,-0.07268253123889849,-0.485394,-17.486347
11.185,2.0,1.0,1.0,34.8,34.5,34.5,2.5,2.0,2.695,-0.25713183534086553,-0.11415729857771625,0.9077505170213628,-0.0774127518614735,-0.505476,-17.206839
11.185,2.0,1.0,1.0,34.8,34.5,34.5,2.5,2.0,2.6975,-0.2738011997587901,-0.11626080603541591,0.9004248128926927,-0.08244272139551452,-0.526977,-16.922179
11.185,2.0,1.0,1.0,34.8,34.5,34.5,2.5,2.0,2.7,-0.29055521253972666,-0.11835599412946023,0.8925349597775085,-0.08779578337182443,-0.550039,-16.632153
11.185,2.0,1.0,1.0,34.8,34.5,34.5,2.5,2.0,2.7025,-0.30738131285092435,-0.12043292993745575,0.884049715067448,-0.09349746865555374,-0.574824,-16.336542
11.185,2.0,1.0,1.0,34.8,34.5,34.5,2.5,2.0,2.705,-0.3242647521417122,-0.12247967463003433,0.8749353369060823,-0.09957571778971251,-0.601517,-16.035113
11.185,2.0,1.0,1.0,34.8,34.5,34.5,2.5,2.0,2.7075,-0.34118819499079556,-0.12448189190672761,0.8651553438398709,-0.10606112227325329,-0.630325,-15.727622
11.185,2.0,1.0,1.0,34.8,34.5,34.5,2.5,2.0,2.71,-0.35813123850922074,-0.12642237521603691,0.8546702564893607,-0.11298718395552633,-0.661488,-15.413815
11.185,2.0,1.0,1.0,34.8,34.5,34.5,2.5,2.0,2.7125,-0.3750698323735568,-0.12828047582758853,0.8434373234566868,-0.1203905903191378,-0.695278,-15.093425
11.185,2.0,1.0,1.0,34.8,34.5,34.5,2.5,2.0,2.715,-0.39197557746692824,-0.13003140972306465,0.831410235797313,-0.12831150130018726,-0.732009,-14.766176
11.185,2.0,1.0,1.0,34.8,34.5,34.5,2.5,2.0,2.7175,-0.4088148760990639,-0.13164541626130083,0.8185388375120355,-0.1367938401497351,-0.772043,-14.431782
11.185,2.0,1.0,1.0,34.8,34.5,34.5,2.5,2.0,2.72,-0.42554790070034565,-0.13308673549225286,0.8047688440938451,-0.1458855762363729,-0.815797,-14.089946
11.185,2.0,1.0,1.0,34.8,34.5,34.5,2.5,2.0,2.7225,-0.4421273405857137,-0.13431236369257302,0.7900415878052085,-0.15563898101105933,-0.863756,-13.740366
11.185,2.0,1.0,1.0,34.8,34.5,34.5,2.5,2.0,2.725,-0.4584968777479241,-0.13527053806134254,0.774293817925224,-0.1661108287363032,-0.916489,-13.382732
11.185,2.0,1.0,1.0,34.8,34.5,34.5,2.5,2.0,2.7275,-0.4745893326535822,-0.13589889154075754,0.757457597895463,-0.17736249981236984,-0.974657,-13.016735
11.185,2.0,1.0,1.0,34.8,34.5,34.5,2.5,2.0,2.73,-0.49032440987672304,-0.1361222076207831,0.7394603607789935,-0.18945992493319688,-1.039041,-12.64207
11.185,2.0,1.0,1.0,34.8,34.5,34.5,2.5,2.0,2.7325,-0.505605961711665,-0.13584969336392155,0.7202252120252304,-0.20247328056585043,-1.110561,-12.25844
11.185,2.0,1.0,1.0,34.8,34.5,34.5,2.5,2.0,2.735,-0.5203186769768133,-0.13497167809300972,0.6996716073154726,-0.21647630724420408,-1.190311,-11.865568
11.185,2.0,1.0,1.0,34.8,34.5,34.5,2.5,2.0,2.7375,-0.5343240946203829,-0.13335563783545462,0.6777165873742401,-0.23154506776280692,-1.279592,-11.46321
11.185,2.0,1.0,1.0,34.8,34.5,34.5,2.5,2.0,2.74,-0.5474558421365865,-0.13084144645818643,0.6542768263553697,-0.24775588725865685,-1.379963,-11.051167
11.185,2.0,1.0,1.0,34.8,34.5,34.5,2.5,2.0,2.7425,-0.559514015317172,-0.1272357717009732,0.6292718521579757,-0.2651821149825871,-1.493299,-10.629312
11.185,2.0,1.0,1.0,34.8,34.5,34.5,2.5,2.0,2.745,-0.5702586621300167,-0.12230558183828602,0.6026289328184089,-0.2838892113295198,-1.621865,-10.197614
11.185,2.0,1.0,1.0,34.8,34.5,34.5,2.5,2.0,2.7475,-0.5794024316876695,-0.11577082889140379,0.5742902990548926,-0.303927487491843,-1.768412,-9.756178
11.185,2.0,1.0,1.0,34.8,34.5,34.5,2.5,2.0,2.75,-0.586602634115413,-0.10729656229636,0.54422359067264,-0.325321607733785,-1.936287,-9.305291
11.185,2.0,1.0,1.0,34.8,34.5,34.5,2.5,2.0,2.7525,-0.5914532809302769,-0.0964850553853813,0.5124366634409048,-0.3480557169299756,-2.129589,-8.845488
11.185,2.0,1.0,1.0,34.8,34.5,34.5,2.5,2.0,2.755,-0.5934782123098062,-0.08286907024627735,0.4789981366703785,-0.37205281660299266,-2.353341,-8.377625
11.185,2.0,1.0,1.0,34.8,34.5,34.5,2.5,2.0,2.7575,-0.5921272624953542,-0.06590823934323066,0.44406521263446475,-0.39714687099110074,-2.613711,-7.902986
11.185,2.0,1.0,1.0,34.8,34.5,34.5,2.5,2.0,2.76,-0.5867786687602601,-0.04499180415803569,0.4079201797478418,-0.4230462617125,-2.918273,-7.423397
11.185,2.0,1.0,1.0,34.8,34.5,34.5,2.5,2.0,2.7625,-0.5767526517286784,-0.01945267581570095,0.3710163013295525,-0.44928795069980765,-3.276281,-6.941371
11.185,2.0,1.0,1.0,34.8,34.5,34.5,2.5,2.0,2.765,-0.5613431882513991,0.011400138123854042,0.3340319751713864,-0.475183575790645,-3.698941,-6.460273
11.185,2.0,1.0,1.0,34.8,34.5,34.5,2.5,2.0,2.7675,-0.5398769913280115,0.04822175447870138,0.297928418691403,-0.49976239670394695,-4.199553,-5.984482
11.185,2.0,1.0,1.0,34.8,34.5,34.5,2.5,2.0,2.77,-0.5118094222388005,0.09153470396490476,0.26399997451720597,-0.5217222266174725,-4.793267,-5.519546
11.185,2.0,1.0,1.0,34.8,34.5,34.5,2.5,2.0,2.7725,-0.4768642429981155,0.14158873937927552,0.23389729673006782,-0.5394083149165426,-5.495854,-5.072275
11.185,2.0,1.0,1.0,34.8,34.5,34.5,2.5,2.0,2.775,-0.4352145003459336,0.19818052076940365,0.20959378686205382,-0.5508498641390509,-6.320085,-4.650718
11.185,2.0,1.0,1.0,34.8,34.5,34.5,2.5,2.0,2.7775,-0.38768239326807563,0.26045621815277603,0.19325973757251982,-0.5538892970406604,-7.266585,-4.263965
11.185,2.0,1.0,1.0,34.8,34.5,34.5,2.5,2.0,2.78,-0.3359074601293857,0.3267484713515106,0.18701599667147326,-0.5464312113541776,-8.302997,-3.921681
11.185,2.0,1.0,1.0,34.8,34.5,34.5,2.5,2.0,2.7825,-0.2824047034919063,0.39452596331305484,0.19257014617547324,-0.526805903473516,-9.324245,-3.633364
11.185,2.0,1.0,1.0,34.8,34.5,34.5,2.5,2.0,2.785,-0.23042903483940141,0.46053727291584245,0.21079529184960571,-0.4941851259478921,-10.10852,-3.407367
11.185,2.0,1.0,1.0,34.8,34.5,34.5,2.5,2.0,2.7875,-0.18360430755968332,0.5211868159096658,0.2413748022734163,-0.44892612239942,-10.363428,-3.249825
11.185,2.0,1.0,1.0,34.8,34.5,34.5,2.5,2.0,2.79,-0.14536752332560465,0.5730880606073517,0.28266212134017993,-0.39269756658301147,-9.955514,-3.163755
11.185,2.0,1.0,1.0,34.8,34.5,34.5,2.5,2.0,2.7925,-0.11838110015132265,0.613639731785441,0.33185254083974425,-0.32829640235156204,-9.060876,-3.148566
11.185,2.0,1.0,1.0,34.8,34.5,34.5,2.5,2.0,2.795,-0.10410826927113039,0.6414334737186022,0.38544106125579425,-0.25918727257796687,-7.975026,-3.200137
11.185,2.0,1.0,1.0,34.8,34.5,34.5,2.5,2.0,2.7975,-0.10268663644053763,0.6563649132975292,0.4398164987795295,-0.1889160511118391,-6.904058,-3.311445
11.185,2.0,1.0,1.0,34.8,34.5,34.5,2.5,2.0,2.8,-0.11310552288911105,0.6594485270026744,0.4917971334819835,-0.12058847176485823,-5.940439,-3.473535
11.185,2.0,1.0,1.0,34.8,34.5,34.5,2.5,2.0,2.8025,-0.13357754060235028,0.6524474234903155,0.5389683262055918,-0.05654708881220496,-5.109845,-3.676589
11.185,2.0,1.0,1.0,34.8,34.5,34.5,2.5,2.0,2.805,-0.16195547354277917,0.6374641921040285,0.579787187954279,0.0017234550059604793,-4.408325,-3.910852
11.185,2.0,1.0,1.0,34.8,34.5,34.5,2.5,2.0,2.8075,-0.19607979859988606,0.616603087617458,0.613505226605472,0.05351530203732332,-3.821236,-4.167295
11.185,2.0,1.0,1.0,34.8,34.5,34.5,2.5,2.0,2.81,-0.2340064019473933,0.5917505848311329,0.6399936188670973,0.09872377997181975,-3.331538,-4.437999
11.185,2.0,1.0,1.0,34.8,34.5,34.5,2.5,2.0,2.8125,-0.27411755150657724,0.5644697725436192,0.6595456819819789,0.13765360457080802,-2.923098,-4.716302
11.185,2.0,1.0,1.0,34.8,34.5,34.5,2.5,2.0,2.815,-0.31514622974611245,0.535978551571688,0.6727024833639909,0.17084884402535372,-2.581823,-4.99678
11.185,2.0,1.0,1.0,34.8,34.5,34.5,2.5,2.0,2.8175,-0.3561486849729965,0.5071775629904572,0.6801202575802303,0.19896415323755207,-2.295859,-5.27513
11.185,2.0,1.0,1.0,34.8,34.5,34.5,2.5,2.0,2.82,-0.39645321918387455,0.4787007004521054,0.6824805346204569,0.22267774887944494,-2.055434,-5.548011
11.185,2.0,1.0,1.0,34.8,34.5,34.5,2.5,2.0,2.8225,-0.43560341754052734,0.45097066989786083,0.6804355124014622,0.2426386669950992,-1.852579,-5.812877
11.185,2.0,1.0,1.0,34.8,34.5,34.5,2.5,2.0,2.825,-0.4733056352791306,0.4242501917449996,0.67457906013168,0.2594388876728654,-1.680822,-6.067816
11.185,2.0,1.0,1.0,34.8,34.5,34.5,2.5,2.0,2.8275,-0.5093848499965161,0.39868494284054395,0.665434699263529,0.2736019069173578,-1.53492,-6.311412
11.185,2.0,1.0,1.0,34.8,34.5,34.5,2.5,2.0,2.83,-0.5437496868109216,0.3743375039495183,0.6534539230431146,0.2855813163253163,-1.410625,-6.542632
