1,w,sub_t,h,l1,l2,l3,g1,g2,Freq,S11_re,S21_re,S11_img,S21_img,S11_dB,S21_dB
11.185,2.0,1.0,1.0,33.2,34.7,34.7,3.1,3.8,2.5,0.87757080650327,-0.00632952781854961,0.465928820003556,0.00533411783871284,-0.05586,-41.642097
11.185,2.0,1.0,1.0,33.2,34.7,34.7,3.1,3.8,2.5025,0.8745393640435776,-0.006473716664562867,0.4714514253831141,0.005373623125995705,-0.056452,-41.500598
11.185,2.0,1.0,1.0,33.2,34.7,34.7,3.1,3.8,2.505,0.8714595844964121,-0.006621207306705254,0.476976107867515,0.005413051684752739,-0.057057,-41.35836
11.185,2.0,1.0,1.0,33.2,34.7,34.7,3.1,3.8,2.5075,0.8683309465820941,-0.006772100393462393,0.48250271492914615,0.005452390285134301,-0.057676,-41.215362
11.185,2.0,1.0,1.0,33.2,34.7,34.7,3.1,3.8,2.51,0.8651529177113496,-0.0069265008165934365,0.48803108904757586,0.005491624906964299,-0.058308,-41.07158
11.185,2.0,1.0,1.0,33.2,34.7,34.7,3.1,3.8,2.5125,0.8619249536248866,-0.007084517938798081,0.4935610675171156,0.0055307406862921205,-0.058954,-40.926989
11.185,2.0,1.0,1.0,33.2,34.7,34.7,3.1,3.8,2.515,0.8586464980152845,-0.007246265836201194,0.4990924822457543,0.005569721857753191,-0.059614,-40.781566
11.185,2.0,1.0,1.0,33.2,34.7,34.7,3.1,3.8,2.5175,0.8553169821299936,-0.007411863556788638,0.5046251595449219,0.0056085516923593415,-0.06029,-40.635286
11.185,2.0,1.0,1.0,33.2,34.7,34.7,3.1,3.8,2.52,0.8519358243541312,-0.007581435396028523,0.51015891990953,0.0056472124303018605,-0.060981,-40.488123
11.185,2.0,1.0,1.0,33.2,34.7,34.7,3.1,3.8,2.5225,0.8485024297716515,-0.007755111191020752,0.5156935777876341,0.005685685208306007,-0.061688,-40.340049
11.185,2.0,1.0,1.0,33.2,34.7,34.7,3.1,3.8,2.525,0.8450161897033387,-0.007933026634639486,0.5212289413390748,0.005723949981028348,-0.062412,-40.191039
11.185,2.0,1.0,1.0,33.2,34.7,34.7,3.1,3.8,2.5275,0.8414764812199402,-0.008115323611265617,0.5267648121823354,0.0057619854359336085,-0.063152,-40.041063
11.185,2.0,1.0,1.0,33.2,34.7,34.7,3.1,3.8,2.53,0.8378826666286066,-0.008302150555852863,0.5323009851288198,0.005799768901027848,-0.063911,-39.890092
11.185,2.0,1.0,1.0,33.2,34.7,34.7,3.1,3.8,2.5325,0.8342340929306415,-0.00849366283823397,0.537837247903677,0.005837276244757735,-0.064688,-39.738096
11.185,2.0,1.0,1.0,33.2,34.7,34.7,3.1,3.8,2.535,0.8305300912483775,-0.00869002317475132,0.5433733808522058,0.005874481767308646,-0.065484,-39.585045
11.185,2.0,1.0,1.0,33.2,34.7,34.7,3.1,3.8,2.5375,0.8267699762187983,-0.008891402069495116,0.5489091566307849,0.005911358082450959,-0.0663,-39.430906
11.185,2.0,1.0,1.0,33.2,34.7,34.7,3.1,3.8,2.54,0.8229530453513042,-0.009097978287651473,0.5544443398811835,0.005947875988987185,-0.067136,-39.275647
11.185,2.0,1.0,1.0,33.2,34.7,34.7,3.1,3.8,2.5425,0.8190785783467629,-0.009309939363705545,0.5599786868869733,0.005984004330745941,-0.067993,-39.119232
11.185,2.0,1.0,1.0,33.2,34.7,34.7,3.1,3.8,2.545,0.8151458363747263,-0.009527482147515441,0.5655119452106449,0.006019709843946987,-0.068873,-38.961627
11.185,2.0,1.0,1.0,33.2,34.7,34.7,3.1,3.8,2.5475,0.8111540613053885,-0.00975081339157163,0.5710438533098877,0.00605495699062542,-0.069775,-38.802795
11.185,2.0,1.0,1.0,33.2,34.7,34.7,3.1,3.8,2.55,0.8071024748925043,-0.0099801503830918,0.5765741401313308,0.006089707776648066,-0.070702,-38.642698
11.185,2.0,1.0,1.0,33.2,34.7,34.7,3.1,3.8,2.5525,0.8029902779031467,-0.0102157216249711,0.5821025246798415,0.006123921552680874,-0.071653,-38.481297
11.185,2.0,1.0,1.0,33.2,34.7,34.7,3.1,3.8,2.555,0.7988166491897281,-0.010457767570024324,0.5876287155613094,0.006157554796267568,-0.072629,-38.318551
11.185,2.0,1.0,1.0,33.2,34.7,34.7,3.1,3.8,2.5575,0.7945807446992609,-0.010706541413418504,0.5931524104965671,0.006190560872954334,-0.073633,-38.154418
11.185,2.0,1.0,1.0,33.2,34.7,34.7,3.1,3.8,2.56,0.7902816964143156,-0.0109623099487128,0.5986732958038691,0.0062228897741414164,-0.074664,-37.988854
11.185,2.0,1.0,1.0,33.2,34.7,34.7,3.1,3.8,2.5625,0.785918611219536,-0.0112253544935024,0.604191045847026,0.00625448782904851,-0.075725,-37.821814
11.185,2.0,1.0,1.0,33.2,34.7,34.7,3.1,3.8,2.565,0.7814905696869275,-0.011495971891314148,0.6097053224459742,0.00628529738785074,-0.076815,-37.65325
11.185,2.0,1.0,1.0,33.2,34.7,34.7,3.1,3.8,2.5675,0.7769966247724015,-0.011774475597130568,0.6152157742461433,0.0063152564726622305,-0.077938,-37.483113
11.185,2.0,1.0,1.0,33.2,34.7,34.7,3.1,3.8,2.57,0.7724358004152264,-0.012061196854741501,0.6207220360425755,0.006344298392608583,-0.079093,-37.311353
11.185,2.0,1.0,1.0,33.2,34.7,34.7,3.1,3.8,2.5725,0.7678070900311156,-0.012356485975046147,0.6262237280542192,0.006372351318732618,-0.080283,-37.137915
11.185,2.0,1.0,1.0,33.2,34.7,34.7,3.1,3.8,2.575,0.7631094548886341,-0.012660713725471808,0.631720455143248,0.006399337813906771,-0.081509,-36.962745
11.185,2.0,1.0,1.0,33.2,34.7,34.7,3.1,3.8,2.5775,0.7583418223574282,-0.012974272841852706,0.6372118059736013,0.006425174312263923,-0.082773,-36.785784
11.185,2.0,1.0,1.0,33.2,34.7,34.7,3.1,3.8,2.58,0.7535030840154483,-0.013297579675445127,0.6426973521021532,0.006449770541904097,-0.084077,-36.606973
11.185,2.0,1.0,1.0,33.2,34.7,34.7,3.1,3.8,2.5825,0.7485920936008199,-0.013631075989264945,0.6481766469950704,0.006473028883754131,-0.085422,-36.426249
11.185,2.0,1.0,1.0,33.2,34.7,34.7,3.1,3.8,2.585,0.7436076647923161,-0.013975230919646243,0.6536492249608686,0.006494843658444995,-0.08681,-36.243545
11.185,2.0,1.0,1.0,33.2,34.7,34.7,3.1,3.8,2.5875,0.7385485688004242,-0.014330543120868311,0.6591145999905216,0.006515100331893945,-0.088244,-36.058794
11.185,2.0,1.0,1.0,33.2,34.7,34.7,3.1,3.8,2.59,0.733413531748806,-0.014697543112915629,0.6645722644935909,0.0065336746289107895,-0.089726,-35.871924
11.185,2.0,1.0,1.0,33.2,34.7,34.7,3.1,3.8,2.5925,0.728201231823397,-0.015076795854966551,0.6700216879177839,0.006550431542553983,-0.091259,-35.682858
11.185,2.0,1.0,1.0,33.2,34.7,34.7,3.1,3.8,2.595,0.722910296163547,-0.015468903570096828,0.6754623152374517,0.006565224225102523,-0.092845,-35.49152
11.185,2.0,1.0,1.0,33.2,34.7,34.7,3.1,3.8,2.5975,0.7175392974662571,-0.015874508849997013,0.6808935652944159,0.006577892744330886,-0.094486,-35.297826
11.185,2.0,1.0,1.0,33.2,34.7,34.7,3.1,3.8,2.6,0.712086750270828,-0.016294298072298773,0.6863148289719513,0.006588262686222659,-0.096187,-35.101689
11.185,2.0,1.0,1.0,33.2,34.7,34.7,3.1,3.8,2.6025,0.7065511068868678,-0.016729005167470893,0.6917254671797735,0.006596143582251812,-0.09795,-34.90302
11.185,2.0,1.0,1.0,33.2,34.7,34.7,3.1,3.8,2.605,0.7009307529236014,-0.017179415777273704,0.6971248086243822,0.0066013271358226185,-0.099779,-34.701722
11.185,2.0,1.0,1.0,33.2,34.7,34.7,3.1,3.8,2.6075,0.6952240023726728,-0.017646371852559226,0.7025121473349588,0.006603585218270839,-0.101678,-34.497695
11.185,2.0,1.0,1.0,33.2,34.7,34.7,3.1,3.8,2.61,0.6894290921899517,-0.01813077674491386,0.7078867399101023,0.006602667599867994,-0.103651,-34.290833
11.185,2.0,1.0,1.0,33.2,34.7,34.7,3.1,3.8,2.6125,0.6835441763141291,-0.01863360085441247,0.7132478024448838,0.0065982993753738945,-0.105702,-34.081025
11.185,2.0,1.0,1.0,33.2,34.7,34.7,3.1,3.8,2.615,0.6775673190509269,-0.019155887904779765,0.7185945070907359,0.006590178036649982,-0.107836,-33.868154
11.185,2.0,1.0,1.0,33.2,34.7,34.7,3.1,3.8,2.6175,0.6714964877413201,-0.019698761927759996,0.7239259781924015,0.0065779701364413485,-0.110059,-33.652096
11.185,2.0,1.0,1.0,33.2,34.7,34.7,3.1,3.8,2.62,0.6653295446199927,-0.020263435050753356,0.7292412879362355,0.006561307477352832,-0.112377,-33.432719
11.185,2.0,1.0,1.0,33.2,34.7,34.7,3.1,3.8,2.6225,0.6590642377560355,-0.020851216196106605,0.7345394514321996,0.006539782747912657,-0.114794,-33.209884
11.185,2.0,1.0,1.0,33.2,34.7,34.7,3.1,3.8,2.625,0.652698190951247,-0.0214635208172388,0.739819421137437,0.00651294451297147,-0.11732,-32.983447
11.185,2.0,1.0,1.0,33.2,34.7,34.7,3.1,3.8,2.6275,0.6462288924518049,-0.022101881816516934,0.7450800805118982,0.006480291447944866,-0.11996,-32.75325
11.185,2.0,1.0,1.0,33.2,34.7,34.7,3.1,3.8,2.63,0.6396536823060718,-0.022767961813028204,0.7503202367752096,0.006441265684836043,-0.122724,-32.519128
11.185,2.0,1.0,1.0,33.2,34.7,34.7,3.1,3.8,2.6325,0.6329697381740818,-0.023463566955831485,0.7555386126081322,0.006395245111659694,-0.12562,-32.280907
11.185,2.0,1.0,1.0,33.2,34.7,34.7,3.1,3.8,2.635,0.6261740593620966,-0.02419066251073629,0.7607338366102253,0.0063415344346481545,-0.128658,-32.038399
11.185,2.0,1.0,1.0,33.2,34.7,34.7,3.1,3.8,2.6375,0.6192634488174455,-0.02495139048718129,0.7659044322863652,0.006279354772976468,-0.131849,-31.791406
11.185,2.0,1.0,1.0,33.2,34.7,34.7,3.1,3.8,2.64,0.6122344927734547,-0.025748089617612217,0.7710488052866588,0.006207831506784198,-0.135206,-31.539715
11.185,2.0,1.0,1.0,33.2,34.7,34.7,3.1,3.8,2.6425,0.6050835376801561,-0.026583318056405077,0.7761652285646031,0.006125980038555348,-0.138741,-31.283101
11.185,2.0,1.0,1.0,33.2,34.7,34.7,3.1,3.8,2.645,0.5978066639917408,-0.02745987923071768,0.7812518250440496,0.006032689052277447,-0.14247,-31.02132
11.185,2.0,1.0,1.0,33.2,34.7,34.7,3.1,3.8,2.6475,0.5903996563041731,-0.028380851353953556,0.7863065472925113,0.005926700760136345,-0.14641,-30.754114
11.185,2.0,1.0,1.0,33.2,34.7,34.7,3.1,3.8,2.65,0.5828579692432057,-0.029349621206590425,0.7913271535814385,0.005806587507450714,-0.150579,-30.481203
11.185,2.0,1.0,1.0,33.2,34.7,34.7,3.1,3.8,2.6525,0.5751766883908878,-0.03036992290238147,0.796311179566245,0.005670723956071136,-0.154998,-30.202289
11.185,2.0,1.0,1.0,33.2,34.7,34.7,3.1,3.8,2.655,0.5673504854032513,-0.03144588249460032,0.8012559046311319,0.005517253875272065,-0.159691,-29.91705
11.185,2.0,1.0,1.0,33.2,34.7,34.7,3.1,3.8,2.6575,0.5593735663082596,-0.03258206944218498,0.8061583117038135,0.005344050324895642,-0.164684,-29.625137
11.185,2.0,1.0,1.0,33.2,34.7,34.7,3.1,3.8,2.66,0.5512396117749291,-0.03378355615562425,0.8110150390370366,0.005148667701650036,-0.170008,-29.326176
11.185,2.0,1.0,1.0,33.2,34.7,34.7,3.1,3.8,2.6625,0.5429417079043657,-0.0350559870847878,0.8158223220553398,0.004928283713794663,-0.175697,-29.019761
11.185,2.0,1.0,1.0,33.2,34.7,34.7,3.1,3.8,2.665,0.5344722658021349,-0.03640565910473999,0.8205759228473324,0.004679628821832398,-0.181789,-28.705451
11.185,2.0,1.0,1.0,33.2,34.7,34.7,3.1,3.8,2.6675,0.525822927838296,-0.03783961531163199,0.8252710442053611,0.004398899992163472,-0.188331,-28.382767
11.185,2.0,1.0,1.0,33.2,34.7,34.7,3.1,3.8,2.67,0.5169844580740046,-0.03936575477148186,0.8299022242203564,0.0040816547004100465,-0.195373,-28.051188
11.185,2.0,1.0,1.0,33.2,34.7,34.7,3.1,3.8,2.6725,0.5079466138181151,-0.0409929612837865,0.8344632062528183,0.0037226799129870176,-0.202975,-27.710145
11.185,2.0,1.0,1.0,33.2,34.7,34.7,3.1,3.8,2.675,0.49869799465918274,-0.04273125484374704,0.8389467775138977,0.003315829160136383,-0.211207,-27.359015
11.185,2.0,1.0,1.0,33.2,34.7,34.7,3.1,3.8,2.6775,0.4892258645846071,-0.04459197022413629,0.8433445673519808,0.0028538186371346148,-0.22015,-26.997115
11.185,2.0,1.0,1.0,33.2,34.7,34.7,3.1,3.8,2.68,0.4795159419417423,-0.04658796795746966,0.8476467934352403,0.002327970314260466,-0.229899,-26.623694
11.185,2.0,1.0,1.0,33.2,34.7,34.7,3.1,3.8,2.6825,0.46955215102122466,-0.048733883974282494,0.8518419400415765,0.0017278859875480338,-0.240566,-26.237923
11.185,2.0,1.0,1.0,33.2,34.7,34.7,3.1,3.8,2.685,0.45931632798427,-0.05104642520796271,0.8559163471698205,0.0010410306096174029,-0.252285,-25.838887
11.185,2.0,1.0,1.0,33.2,34.7,34.7,3.1,3.8,2.6875,0.448787872803102,-0.0535447195169802,0.859853681522264,0.00025219544476448,-0.265217,-25.425571
11.185,2.0,1.0,1.0,33.2,34.7,34.7,3.1,3.8,2.69,0.4379433380341297,-0.05625072909744161,0.8636342496263844,-0.000657199372347733,-0.279553,-24.996844
11.185,2.0,1.0,1.0,33.2,34.7,34.7,3.1,3.8,2.6925,0.42675594499663916,-0.05918973675093046,0.8672340980512957,-0.0017100188634651754,-0.295529,-24.551448
11.185,2.0,1.0,1.0,33.2,34.7,34.7,3.1,3.8,2.695,0.4151950190641693,-0.062390913135107286,0.8706238237221551,-0.002934622122219629,-0.31343,-24.087975
11.185,2.0,1.0,1.0,33.2,34.7,34.7,3.1,3.8,2.6975,0.40322533977659836,-0.06588796893521506,0.8737669855683962,-0.004366476704093235,-0.333611,-23.604846
11.185,2.0,1.0,1.0,33.2,34.7,34.7,3.1,3.8,2.7,0.39080641115781883,-0.06971988587887999,0.8766179623559065,-0.006050336200645244,-0.356514,-23.100283
11.185,2.0,1.0,1.0,33.2,34.7,34.7,3.1,3.8,2.7025,0.37789167827894404,-0.07393169925545244,0.8791190332664047,-0.008043208057756197,-0.382694,-22.572286
11.185,2.0,1.0,1.0,33.2,34.7,34.7,3.1,3.8,2.705,0.3644277577785635,-0.07857526184648121,0.8811963565885468,-0.0104184414304736,-0.412858,-22.018595
11.185,2.0,1.0,1.0,33.2,34.7,34.7,3.1,3.8,2.7075,0.3503538318597316,-0.08370983542252967,0.8827543713259132,-0.013271417634143877,-0.44792,-21.436659
11.185,2.0,1.0,1.0,33.2,34.7,34.7,3.1,3.8,2.71,0.3356015139495695,-0.08940219378593023,0.8836679227466091,-0.016727552672526638,-0.489067,-20.823599
11.185,2.0,1.0,1.0,33.2,34.7,34.7,3.1,3.8,2.7125,0.32009580089562767,-0.09572560825922696,0.8837710835456677,-0.020953655020161253,-0.537872,-20.17618
11.185,2.0,1.0,1.0,33.2,34.7,34.7,3.1,3.8,2.715,0.30375832033477745,-0.10275648101331349,0.8828411705102321,-0.026174159246565788,-0.596441,-19.490799
11.185,2.0,1.0,1.0,33.2,34.7,34.7,3.1,3.8,2.7175,0.2865152357368379,-0.110566216019193,0.8805758232354617,-0.032694395597292786,-0.667635,-18.763505
11.185,2.0,1.0,1.0,33.2,34.7,34.7,3.1,3.8,2.72,0.26831442015567786,-0.11920362848148842,0.8765602946255131,-0.040933775831520365,-0.755395,-17.990106
11.185,2.0,1.0,1.0,33.2,34.7,34.7,3.1,3.8,2.7225,0.24916087910676465,-0.1286587496323857,0.8702217263280941,-0.05147214168931784,-0.865215,-17.166432
11.185,2.0,1.0,1.0,33.2,34.7,34.7,3.1,3.8,2.725,0.2291877523187359,-0.13879040031892906,0.8607686394682089,-0.06511100851212208,-1.004806,-16.288911
11.185,2.0,1.0,1.0,33.2,34.7,34.7,3.1,3.8,2.7275,0.20879541082018585,-0.14918449639602135,0.8471217142010333,-0.0829434032684393,-1.184951,-15.355757
11.185,2.0,1.0,1.0,33.2,34.7,34.7,3.1,3.8,2.73,0.18891530279298113,-0.1588856126611645,0.8278687370017028,-0.10639864848458082,-1.420312,-14.369307
11.185,2.0,1.0,1.0,33.2,34.7,34.7,3.1,3.8,2.7325,0.17147871482542165,-0.16592072422379586,0.8013528061809464,-0.13715086604219728,-1.729079,-13.340435
11.185,2.0,1.0,1.0,33.2,34.7,34.7,3.1,3.8,2.735,0.16012900324875534,-0.1665770582452386,0.7661824739851831,-0.17659755172942082,-2.127685,-12.296296
11.185,2.0,1.0,1.0,33.2,34.7,34.7,3.1,3.8,2.7375,0.16087764559624954,-0.1547409573686207,0.7227361484291822,-0.22432753607902062,-2.610379,-11.292006
11.185,2.0,1.0,1.0,33.2,34.7,34.7,3.1,3.8,2.74,0.18133636189145577,-0.12269013595123315,0.6761330026089826,-0.2751036421472984,-3.097696,-10.422257
11.185,2.0,1.0,1.0,33.2,34.7,34.7,3.1,3.8,2.7425,0.2258981790731166,-0.06600311578816793,0.6389216185684508,-0.3161482812570069,-3.379501,-9.816901
11.185,2.0,1.0,1.0,33.2,34.7,34.7,3.1,3.8,2.745,0.28755695088215233,0.008140265043917072,0.6271518946237192,-0.3311685602239959,-3.223853,-9.596395
11.185,2.0,1.0,1.0,33.2,34.7,34.7,3.1,3.8,2.7475,0.3473816073024151,0.08047475342634813,0.6474511942652524,-0.31349552316459717,-2.677132,-9.798226
11.185,2.0,1.0,1.0,33.2,34.7,34.7,3.1,3.8,2.75,0.388323487828413,0.133710104258468,0.690380676401623,-0.272783936937114,-2.024412,-10.348479
11.185,2.0,1.0,1.0,33.2,34.7,34.7,3.1,3.8,2.7525,0.4061783989596756,0.16363559096870078,0.7403502164543284,-0.22489245312368597,-1.4685,-11.115216
11.185,2.0,1.0,1.0,33.2,34.7,34.7,3.1,3.8,2.755,0.406075568179382,0.17550937065836397,0.7867383095026245,-0.1805941659920472,-1.057645,-11.977889
11.185,2.0,1.0,1.0,33.2,34.7,34.7,3.1,3.8,2.7575,0.3949258576255838,0.17637623523588247,0.8255969944873403,-0.14387174515999054,-0.769753,-12.856061
11.185,2.0,1.0,1.0,33.2,34.7,34.7,3.1,3.8,2.76,0.37790769853834216,0.171506307827572,0.856784021547096,-0.11484537203304769,-0.570534,-13.705509
11.185,2.0,1.0,1.0,33.2,34.7,34.7,3.1,3.8,2.7625,0.35814878895916735,0.16408049290758053,0.8815077630472691,-0.09226941873983277,-0.431948,-14.505546
11.185,2.0,1.0,1.0,33.2,34.7,34.7,3.1,3.8,2.765,0.3373454734794601,0.15582434175933416,0.9011629549020113,-0.07471363779475385,-0.334375,-15.248614
11.185,2.0,1.0,1.0,33.2,34.7,34.7,3.1,3.8,2.7675,0.3163537405241506,0.14761026316221798,0.9169417185867479,-0.06095639045580307,-0.264742,-15.933837
11.185,2.0,1.0,1.0,33.2,34.7,34.7,3.1,3.8,2.77,0.29557211938575945,0.13984704485624175,0.9297651602760084,-0.050052752184331264,-0.214424,-16.563458
11.185,2.0,1.0,1.0,33.2,34.7,34.7,3.1,3.8,2.7725,0.2751598193221456,0.13270152897213164,0.9403174128383704,-0.041299070186855864,-0.177696,-17.140983
11.185,2.0,1.0,1.0,33.2,34.7,34.7,3.1,3.8,2.775,0.25515462494244023,0.12621831875437495,0.9490995852995155,-0.03417763867162906,-0.150706,-17.670248
11.185,2.0,1.0,1.0,33.2,34.7,34.7,3.1,3.8,2.7775,0.23553512709166283,0.12038292614589433,0.9564779525842102,-0.028307422052759528,-0.130819,-18.154971
11.185,2.0,1.0,1.0,33.2,34.7,34.7,3.1,3.8,2.78,0.21625311718327003,0.11515463577312625,0.9627211030434004,-0.023406101776650513,-0.116206,-18.598555
11.185,2.0,1.0,1.0,33.2,34.7,34.7,3.1,3.8,2.7825,0.19725019006124359,0.11048336086924126,0.9680270074690414,-0.019262414883527177,-0.105573,-19.004017
11.185,2.0,1.0,1.0,33.2,34.7,34.7,3.1,3.8,2.785,0.1784660209942387,0.1063180736756501,0.9725423093200862,-0.015716417525077256,-0.097994,-19.373978
11.185,2.0,1.0,1.0,33.2,34.7,34.7,3.1,3.8,2.7875,0.1598422629678553,0.10261081593450185,0.9763759772477542,-0.012645480117292935,-0.092796,-19.710675
11.185,2.0,1.0,1.0,33.2,34.7,34.7,3.1,3.8,2.79,0.14132415306732055,0.09931840897726942,0.9796089730367925,-0.009954322991153489,-0.089484,-20.015996
11.185,2.0,1.0,1.0,33.2,34.7,34.7,3.1,3.8,2.7925,0.12286093688637874,0.09640298884094824,0.9823011248955418,-0.007567875100481844,-0.087694,-20.291508
11.185,2.0,1.0,1.0,33.2,34.7,34.7,3.1,3.8,2.795,0.10440570019965893,0.09383196525998583,0.9844960375059976,-0.005426103810508535,-0.08715,-20.538485
11.185,2.0,1.0,1.0,33.2,34.7,34.7,3.1,3.8,2.7975,0.08591491948704859,0.09157772259513106,0.9862246127945743,-0.003480225399807682,-0.087649,-20.757936
11.185,2.0,1.0,1.0,33.2,34.7,34.7,3.1,3.8,2.8,0.06734789352386127,0.08961723021053755,0.9875075761952147,-0.0016898871855954864,-0.089038,-20.950626
11.185,2.0,1.0,1.0,33.2,34.7,34.7,3.1,3.8,2.8025,0.04866613745283298,0.08793164891556801,0.988357279831665,-2.1036033686338593e-05,-0.091204,-21.117095
11.185,2.0,1.0,1.0,33.2,34.7,34.7,3.1,3.8,2.805,0.029832776913405308,0.08650597679676897,0.9887789691089592,0.0015557278533777838,-0.094064,-21.257673
11.185,2.0,1.0,1.0,33.2,34.7,34.7,3.1,3.8,2.8075,0.010811955990803682,0.08532875494890951,0.9887716402014226,0.0030664560017821287,-0.097561,-21.372487
11.185,2.0,1.0,1.0,33.2,34.7,34.7,3.1,3.8,2.81,-0.008431740202877,0.08439184202800346,0.9883285742272454,0.004534921343517017,-0.101657,-21.461468
11.185,2.0,1.0,1.0,33.2,34.7,34.7,3.1,3.8,2.8125,-0.0279338546050494,0.0836902611652873,0.987437603590601,0.00598353280145843,-0.106333,-21.524358
11.185,2.0,1.0,1.0,33.2,34.7,34.7,3.1,3.8,2.815,-0.047730629248529464,0.08322212084846753,0.9860811429513883,0.007434158834083694,-0.111583,-21.560707
11.185,2.0,1.0,1.0,33.2,34.7,34.7,3.1,3.8,2.8175,-0.06785959107254624,0.08298861138541538,0.9842359986176648,0.008908914659959858,-0.117419,-21.569867
11.185,2.0,1.0,1.0,33.2,34.7,34.7,3.1,3.8,2.82,-0.08836016709457437,0.08299407968146587,0.9818729536159126,0.010430964168487811,-0.123865,-21.550992
11.185,2.0,1.0,1.0,33.2,34.7,34.7,3.1,3.8,2.8225,-0.10927434511402245,0.08324618680583504,0.9789561094025225,0.012025388925711325,-0.130958,-21.503019
11.185,2.0,1.0,1.0,33.2,34.7,34.7,3.1,3.8,2.825,-0.1306473976731256,0.08375615487528354,0.9754419473264644,0.013720183416251561,-0.138754,-21.424663
11.185,2.0,1.0,1.0,33.2,34.7,34.7,3.1,3.8,2.8275,-0.1525286885290334,0.08453911183367631,0.9712780515189234,0.015547448703966177,-0.147325,-21.314388
11.185,2.0,1.0,1.0,33.2,34.7,34.7,3.1,3.8,2.83,-0.17497258214587166,0.08561454429629979,0.9664014073222921,0.017544877983302294,-0.156766,-21.170389
