1,w,sub_t,h,l1,l2,l3,g1,g2,Freq,S11_re,S21_re,S11_img,S21_img,S11_dB,S21_dB
11.185,2.0,1.0,1.0,33.8,33.9,33.9,1.6,1.8,2.5,0.801336123300707,-0.0202398954002203,0.583188643788169,0.0182584965026507,-0.077786,-31.28996
11.185,2.0,1.0,1.0,33.8,33.9,33.9,1.6,1.8,2.5025,0.7968536247484655,-0.020693574069594135,0.5891086448063715,0.01836842760914799,-0.078776,-31.159849
11.185,2.0,1.0,1.0,33.8,33.9,33.9,1.6,1.8,2.505,0.7923010368164126,-0.021157212089810543,0.5950251184880279,0.018476753997761112,-0.079788,-31.029131
11.185,2.0,1.0,1.0,33.8,33.9,33.9,1.6,1.8,2.5075,0.7876774742111454,-0.02163106039106406,0.6009376143354556,0.01858335552305232,-0.080823,-30.897792
11.185,2.0,1.0,1.0,33.8,33.9,33.9,1.6,1.8,2.51,0.7829820343245832,-0.022115377503055048,0.6068456653766592,0.01868810600461238,-0.081882,-30.765823
11.185,2.0,1.0,1.0,33.8,33.9,33.9,1.6,1.8,2.5125,0.7782137968386831,-0.02261042982158217,0.6127487875141634,0.018790872912464108,-0.082966,-30.633212
11.185,2.0,1.0,1.0,33.8,33.9,33.9,1.6,1.8,2.515,0.7733718233197239,-0.02311649188549108,0.6186464788451934,0.018891517034573143,-0.084074,-30.499948
11.185,2.0,1.0,1.0,33.8,33.9,33.9,1.6,1.8,2.5175,0.7684551568018732,-0.023633846664401627,0.6245382189517124,0.018989892125339542,-0.085208,-30.366019
11.185,2.0,1.0,1.0,33.8,33.9,33.9,1.6,1.8,2.52,0.7634628213597054,-0.024162785857655352,0.6304234681587647,0.019085844533873606,-0.086369,-30.231414
11.185,2.0,1.0,1.0,33.8,33.9,33.9,1.6,1.8,2.5225,0.7583938216693811,-0.024703610204937897,0.6363016667594407,0.01917921281076799,-0.087558,-30.096121
11.185,2.0,1.0,1.0,33.8,33.9,33.9,1.6,1.8,2.525,0.7532471425581405,-0.025256629809052356,0.6421722342047195,0.01926982729199435,-0.088774,-29.960126
11.185,2.0,1.0,1.0,33.8,33.9,33.9,1.6,1.8,2.5275,0.7480217485417905,-0.025822164471333727,0.6480345682563036,0.01935750965845037,-0.090021,-29.823418
11.185,2.0,1.0,1.0,33.8,33.9,33.9,1.6,1.8,2.53,0.7427165833498504,-0.026400544040213077,0.6538880441004481,0.01944207246958224,-0.091297,-29.685984
11.185,2.0,1.0,1.0,33.8,33.9,33.9,1.6,1.8,2.5325,0.7373305694380105,-0.026992108773458284,0.6597320134206719,0.019523318669392428,-0.092605,-29.547811
11.185,2.0,1.0,1.0,33.8,33.9,33.9,1.6,1.8,2.535,0.7318626074875528,-0.027597209714635577,0.6655658034270943,0.019601041063020498,-0.093945,-29.408886
11.185,2.0,1.0,1.0,33.8,33.9,33.9,1.6,1.8,2.5375,0.7263115758913924,-0.028216209084353096,0.6713887158399842,0.01967502176195629,-0.095318,-29.269195
11.185,2.0,1.0,1.0,33.8,33.9,33.9,1.6,1.8,2.54,0.7206763302263711,-0.02884948068686619,0.6772000258249722,0.019745031595796724,-0.096726,-29.128724
11.185,2.0,1.0,1.0,33.8,33.9,33.9,1.6,1.8,2.5425,0.7149557027114561,-0.029497410332640743,0.6829989808771963,0.019810829488311487,-0.098169,-28.987458
11.185,2.0,1.0,1.0,33.8,33.9,33.9,1.6,1.8,2.545,0.7091485016514797,-0.030160396277487258,0.6887847996514658,0.019872161795409633,-0.099649,-28.845385
11.185,2.0,1.0,1.0,33.8,33.9,33.9,1.6,1.8,2.5475,0.7032535108660684,-0.03083884967889392,0.6945566707353337,0.019928761602425155,-0.101168,-28.702488
11.185,2.0,1.0,1.0,33.8,33.9,33.9,1.6,1.8,2.55,0.6972694891033961,-0.03153319507020325,0.7003137513617734,0.01998034797794156,-0.102726,-28.558754
11.185,2.0,1.0,1.0,33.8,33.9,33.9,1.6,1.8,2.5525,0.6911951694384334,-0.03224387085328696,0.7060551660578942,0.020026625181166945,-0.104324,-28.414165
11.185,2.0,1.0,1.0,33.8,33.9,33.9,1.6,1.8,2.555,0.6850292586553284,-0.03297132981038994,0.7117800052259168,0.020067281819643103,-0.105965,-28.268708
11.185,2.0,1.0,1.0,33.8,33.9,33.9,1.6,1.8,2.5575,0.6787704366136019,-0.03371603963582017,0.7174873236523489,0.02010198995382346,-0.10765,-28.122364
11.185,2.0,1.0,1.0,33.8,33.9,33.9,1.6,1.8,2.56,0.6724173555978449,-0.03447848348817019,0.7231761389410151,0.020130404144788668,-0.10938,-27.97512
11.185,2.0,1.0,1.0,33.8,33.9,33.9,1.6,1.8,2.5625,0.6659686396506164,-0.03525916056375945,0.7288454298652791,0.020152160441076976,-0.111157,-27.826956
11.185,2.0,1.0,1.0,33.8,33.9,33.9,1.6,1.8,2.565,0.6594228838882684,-0.03605858669198796,0.7344941346344815,0.02016687530028966,-0.112983,-27.677857
11.185,2.0,1.0,1.0,33.8,33.9,33.9,1.6,1.8,2.5675,0.6527786537994723,-0.03687729495328475,0.7401211490692218,0.02017414444079034,-0.11486,-27.527804
11.185,2.0,1.0,1.0,33.8,33.9,33.9,1.6,1.8,2.57,0.6460344845262256,-0.03771583632032904,0.7457253246797494,0.020173541618444077,-0.116788,-27.37678
11.185,2.0,1.0,1.0,33.8,33.9,33.9,1.6,1.8,2.5725,0.639188880127192,-0.03857478032320225,0.7513054666412747,0.02016461732293392,-0.118772,-27.224766
11.185,2.0,1.0,1.0,33.8,33.9,33.9,1.6,1.8,2.575,0.6322403128232671,-0.03945471573910829,0.7568603316595697,0.020146897387754433,-0.120812,-27.071744
11.185,2.0,1.0,1.0,33.8,33.9,33.9,1.6,1.8,2.5775,0.6251872222253303,-0.04035625130726455,0.7623886257197107,0.020119881507499462,-0.122911,-26.917694
11.185,2.0,1.0,1.0,33.8,33.9,33.9,1.6,1.8,2.58,0.6180280145442298,-0.041280016469525345,0.7678890017102599,0.020083041655537606,-0.125071,-26.762596
11.185,2.0,1.0,1.0,33.8,33.9,33.9,1.6,1.8,2.5825,0.6107610617831183,-0.04222666213724319,0.7733600569146221,0.020035820394597465,-0.127294,-26.60643
11.185,2.0,1.0,1.0,33.8,33.9,33.9,1.6,1.8,2.585,0.6033847009123874,-0.043196861484803624,0.7788003303606142,0.019977629072162904,-0.129583,-26.449175
11.185,2.0,1.0,1.0,33.8,33.9,33.9,1.6,1.8,2.5875,0.5958972330275609,-0.044191310770184206,0.7842083000186362,0.019907845891898947,-0.131942,-26.290811
11.185,2.0,1.0,1.0,33.8,33.9,33.9,1.6,1.8,2.59,0.5882969224906678,-0.045210730182779865,0.7895823798380045,0.019825813851584207,-0.134371,-26.131315
11.185,2.0,1.0,1.0,33.8,33.9,33.9,1.6,1.8,2.5925,0.5805819960557719,-0.04625586471861168,0.7949209166102276,0.01973083853721803,-0.136876,-25.970665
11.185,2.0,1.0,1.0,33.8,33.9,33.9,1.6,1.8,2.595,0.5727506419795685,-0.047327485082875285,0.8002221866470431,0.01962218576207864,-0.139457,-25.808838
11.185,2.0,1.0,1.0,33.8,33.9,33.9,1.6,1.8,2.5975,0.5648010091181555,-0.04842638861960573,0.8054843922600703,0.01949907903854367,-0.14212,-25.64581
11.185,2.0,1.0,1.0,33.8,33.9,33.9,1.6,1.8,2.6,0.5567312060114014,-0.04955340026800663,0.8107056580278168,0.019360696869416067,-0.144867,-25.481559
11.185,2.0,1.0,1.0,33.8,33.9,33.9,1.6,1.8,2.6025,0.5485392999566314,-0.050709373544730534,0.815884026834601,0.01920616984433948,-0.147702,-25.316058
11.185,2.0,1.0,1.0,33.8,33.9,33.9,1.6,1.8,2.605,0.5402233160737256,-0.05189519155108406,0.8210174556646382,0.019034577525606815,-0.150629,-25.149282
11.185,2.0,1.0,1.0,33.8,33.9,33.9,1.6,1.8,2.6075,0.5317812363641674,-0.05311176800376158,0.8261038111331115,0.018844945106271216,-0.153652,-24.981206
11.185,2.0,1.0,1.0,33.8,33.9,33.9,1.6,1.8,2.61,0.5232109987670795,-0.054360048287274684,0.8311408647344815,0.018636239821930283,-0.156776,-24.811803
11.185,2.0,1.0,1.0,33.8,33.9,33.9,1.6,1.8,2.6125,0.5145104962158579,-0.05564101052573594,0.8361262877865733,0.018407367095869296,-0.160004,-24.641045
11.185,2.0,1.0,1.0,33.8,33.9,33.9,1.6,1.8,2.615,0.5056775756996914,-0.05695566667105421,0.8410576460470967,0.01815716639539927,-0.163341,-24.468903
11.185,2.0,1.0,1.0,33.8,33.9,33.9,1.6,1.8,2.6175,0.49671003733505714,-0.05830506360389415,0.8459323939771762,0.017884406775187753,-0.166794,-24.29535
11.185,2.0,1.0,1.0,33.8,33.9,33.9,1.6,1.8,2.62,0.48760563345315827,-0.05969028424293341,0.8507478686242181,0.017587782081145104,-0.170366,-24.120355
11.185,2.0,1.0,1.0,33.8,33.9,33.9,1.6,1.8,2.6225,0.47836206771032946,-0.061112448656989345,0.8555012830939247,0.01726590578596272,-0.174065,-23.943887
11.185,2.0,1.0,1.0,33.8,33.9,33.9,1.6,1.8,2.625,0.468976994229683,-0.0625727151734601,0.860189719578527,0.0169173054246909,-0.177895,-23.765915
11.185,2.0,1.0,1.0,33.8,33.9,33.9,1.6,1.8,2.6275,0.4594480167836185,-0.06407228147522372,0.8648101219052868,0.016540416595756034,-0.181864,-23.586407
11.185,2.0,1.0,1.0,33.8,33.9,33.9,1.6,1.8,2.63,0.44977268802850867,-0.06561238567660188,0.8693592875660094,0.016133576489528,-0.185978,-23.405328
11.185,2.0,1.0,1.0,33.8,33.9,33.9,1.6,1.8,2.6325,0.43994850880473735,-0.06719430736721826,0.8738338591845994,0.015695016902918274,-0.190244,-23.222646
11.185,2.0,1.0,1.0,33.8,33.9,33.9,1.6,1.8,2.635,0.4299729275174707,-0.0688193686105011,0.8782303153757282,0.015222856694490737,-0.194671,-23.038323
11.185,2.0,1.0,1.0,33.8,33.9,33.9,1.6,1.8,2.6375,0.41984333961610343,-0.070488934881157,0.8825449609431385,0.01471509363015429,-0.199266,-22.852325
11.185,2.0,1.0,1.0,33.8,33.9,33.9,1.6,1.8,2.64,0.40955708719324097,-0.07220441592312256,0.8867739163613182,0.0141695955646306,-0.204038,-22.664613
11.185,2.0,1.0,1.0,33.8,33.9,33.9,1.6,1.8,2.6425,0.39911145872756376,-0.07396726650620225,0.8909131064787482,0.013584090898522413,-0.208998,-22.475149
11.185,2.0,1.0,1.0,33.8,33.9,33.9,1.6,1.8,2.645,0.38850368899887844,-0.07577898705576605,0.8949582483750522,0.012956158244864548,-0.214153,-22.283892
11.185,2.0,1.0,1.0,33.8,33.9,33.9,1.6,1.8,2.6475,0.3777309592083042,-0.07764112412539899,0.8989048382977182,0.0122832152324891,-0.219517,-22.090803
11.185,2.0,1.0,1.0,33.8,33.9,33.9,1.6,1.8,2.65,0.3667903973419292,-0.07955527067717506,0.9027481375968583,0.011562506366300787,-0.225099,-21.895838
11.185,2.0,1.0,1.0,33.8,33.9,33.9,1.6,1.8,2.6525,0.35567907882260363,-0.0815230661281179,0.9064831575683511,0.010791089856564602,-0.230912,-21.698954
11.185,2.0,1.0,1.0,33.8,33.9,33.9,1.6,1.8,2.655,0.3443940275017622,-0.08354619611430322,0.9101046431069888,0.009965823320490523,-0.236969,-21.500106
11.185,2.0,1.0,1.0,33.8,33.9,33.9,1.6,1.8,2.6575,0.3329322170517856,-0.0856263919157242,0.9136070550613462,0.009083348249663942,-0.243285,-21.299248
11.185,2.0,1.0,1.0,33.8,33.9,33.9,1.6,1.8,2.66,0.3212905728293049,-0.08776542947532147,0.9169845511714242,0.00814007312613204,-0.249874,-21.096331
11.185,2.0,1.0,1.0,33.8,33.9,33.9,1.6,1.8,2.6625,0.3094659742914876,-0.08996512793419524,0.9202309654582145,0.0071321550581227985,-0.256752,-20.891307
11.185,2.0,1.0,1.0,33.8,33.9,33.9,1.6,1.8,2.665,0.29745525806090334,-0.09222734759170666,0.9233397859212451,0.006055479793332785,-0.263938,-20.684123
11.185,2.0,1.0,1.0,33.8,33.9,33.9,1.6,1.8,2.6675,0.2852552217504723,-0.09455398718356696,0.9263041303858599,0.004905639953381554,-0.271449,-20.474729
11.185,2.0,1.0,1.0,33.8,33.9,33.9,1.6,1.8,2.67,0.27286262867850114,-0.09694698035273867,0.9291167203261588,0.0036779113172720717,-0.279306,-20.263068
11.185,2.0,1.0,1.0,33.8,33.9,33.9,1.6,1.8,2.6725,0.26027421362565933,-0.09940829116652362,0.9317698524722419,0.0023672269644206528,-0.28753,-20.049086
11.185,2.0,1.0,1.0,33.8,33.9,33.9,1.6,1.8,2.675,0.247486689811194,-0.10193990850803496,0.9342553679915148,0.0009681490689165465,-0.296146,-19.832724
11.185,2.0,1.0,1.0,33.8,33.9,33.9,1.6,1.8,2.6775,0.23449675729564712,-0.10454383914068202,0.936564619013147,-0.0005251618839514961,-0.305179,-19.613922
11.185,2.0,1.0,1.0,33.8,33.9,33.9,1.6,1.8,2.68,0.22130111305248876,-0.10722209920952198,0.9386884322423967,-0.0021189807102884035,-0.314656,-19.392618
11.185,2.0,1.0,1.0,33.8,33.9,33.9,1.6,1.8,2.6825,0.20789646299245138,-0.10997670390241847,0.9406170693872076,-0.003820054244957348,-0.324607,-19.168749
11.185,2.0,1.0,1.0,33.8,33.9,33.9,1.6,1.8,2.685,0.19427953627293662,-0.11280965494577327,0.9423401840934476,-0.005635641465503108,-0.335065,-18.942249
11.185,2.0,1.0,1.0,33.8,33.9,33.9,1.6,1.8,2.6875,0.18044710228217425,-0.11572292555281784,0.9438467750572123,-0.007573557352344086,-0.346064,-18.71305
11.185,2.0,1.0,1.0,33.8,33.9,33.9,1.6,1.8,2.69,0.16639599075533548,-0.11871844237548539,0.9451251349531321,-0.009642220844539844,-0.357644,-18.481082
11.185,2.0,1.0,1.0,33.8,33.9,33.9,1.6,1.8,2.6925,0.15212311555936525,-0.12179806393186596,0.946162794786653,-0.011850707281444774,-0.369845,-18.246271
11.185,2.0,1.0,1.0,33.8,33.9,33.9,1.6,1.8,2.695,0.13762550277737723,-0.12496355488788986,0.946946463246468,-0.0142088057525069,-0.382713,-18.008545
11.185,2.0,1.0,1.0,33.8,33.9,33.9,1.6,1.8,2.6975,0.12290032383432853,-0.12821655546160426,0.9474619606011261,-0.01672708180976609,-0.396298,-17.767824
11.185,2.0,1.0,1.0,33.8,33.9,33.9,1.6,1.8,2.7,0.10794493453705382,-0.13155854508796008,0.9476941466524049,-0.01941694602919338,-0.410654,-17.524031
11.185,2.0,1.0,1.0,33.8,33.9,33.9,1.6,1.8,2.7025,0.09275692105671832,-0.13499079932776128,0.9476268422287736,-0.0222907289365771,-0.425841,-17.277082
11.185,2.0,1.0,1.0,33.8,33.9,33.9,1.6,1.8,2.705,0.07733415406533187,-0.13851433882184278,0.9472427436770564,-0.02536176283918034,-0.441923,-17.026895
11.185,2.0,1.0,1.0,33.8,33.9,33.9,1.6,1.8,2.7075,0.06167485245505185,-0.14212986887547785,0.9465233297919393,-0.028644471123212452,-0.458974,-16.773383
11.185,2.0,1.0,1.0,33.8,33.9,33.9,1.6,1.8,2.71,0.045777658325811266,-0.14583770800226226,0.9454487606151728,-0.03215446558553124,-0.47707,-16.516455
11.185,2.0,1.0,1.0,33.8,33.9,33.9,1.6,1.8,2.7125,0.02964172523070481,-0.1496377034541258,0.9439977675439252,-0.0359086523609443,-0.496301,-16.256023
11.185,2.0,1.0,1.0,33.8,33.9,33.9,1.6,1.8,2.715,0.013266822027699125,-0.15352913140621827,0.9421475342178736,-0.0399253469772063,-0.516761,-15.991991
11.185,2.0,1.0,1.0,33.8,33.9,33.9,1.6,1.8,2.7175,-0.003346544889291581,-0.15751057904250235,0.9398735677160325,-0.04422439900930743,-0.538556,-15.724266
11.185,2.0,1.0,1.0,33.8,33.9,33.9,1.6,1.8,2.72,-0.020196987706315363,-0.16157980528874197,0.9371495596994724,-0.04882732670083192,-0.561805,-15.452749
11.185,2.0,1.0,1.0,33.8,33.9,33.9,1.6,1.8,2.7225,-0.03728206778884754,-0.16573357635153715,0.9339472373005892,-0.05375746175708441,-0.586638,-15.177342
11.185,2.0,1.0,1.0,33.8,33.9,33.9,1.6,1.8,2.725,-0.054598096208424714,-0.1699674715309088,0.9302362038051178,-0.05904010427115488,-0.6132,-14.897946
11.185,2.0,1.0,1.0,33.8,33.9,33.9,1.6,1.8,2.7275,-0.07213989882862298,-0.1742756539643114,0.9259837695270912,-0.06470268739240302,-0.641653,-14.614459
11.185,2.0,1.0,1.0,33.8,33.9,33.9,1.6,1.8,2.73,-0.08990053963601419,-0.1786506000154582,0.9211547737763252,-0.07077495085039204,-0.672178,-14.32678
11.185,2.0,1.0,1.0,33.8,33.9,33.9,1.6,1.8,2.7325,-0.10787099490436959,-0.18308277992582056,0.9157113995104597,-0.0772891217585488,-0.704975,-14.034808
11.185,2.0,1.0,1.0,33.8,33.9,33.9,1.6,1.8,2.735,-0.1260397695170173,-0.18756028108523315,0.9096129832111531,-0.08428010017861126,-0.740273,-13.738445
11.185,2.0,1.0,1.0,33.8,33.9,33.9,1.6,1.8,2.7375,-0.14439244533253026,-0.19206836383986922,0.9028158238075382,-0.09178564564898407,-0.778324,-13.437593
11.185,2.0,1.0,1.0,33.8,33.9,33.9,1.6,1.8,2.74,-0.1629111498593972,-0.19658893813767023,0.8952729961929481,-0.09984655916382285,-0.819415,-13.132159
11.185,2.0,1.0,1.0,33.8,33.9,33.9,1.6,1.8,2.7425,-0.18157393171710898,-0.20109994752344965,0.8869341771761445,-0.10850685280259702,-0.863867,-12.822053
11.185,2.0,1.0,1.0,33.8,33.9,33.9,1.6,1.8,2.745,-0.2003540274362997,-0.20557464507081208,0.8777454947441394,-0.11781389618372674,-0.912047,-12.507195
11.185,2.0,1.0,1.0,33.8,33.9,33.9,1.6,1.8,2.7475,-0.21921900215831927,-0.20998074384348822,0.8676494155018254,-0.12781852493945003,-0.964366,-12.187511
11.185,2.0,1.0,1.0,33.8,33.9,33.9,1.6,1.8,2.75,-0.238129744856512,-0.21427942253633,0.856584690355923,-0.138575091220445,-1.021294,-11.862941
11.185,2.0,1.0,1.0,33.8,33.9,33.9,1.6,1.8,2.7525,-0.25703929702154954,-0.21842416525861863,0.8444863852462331,-0.15014142951921336,-1.083363,-11.53344
11.185,2.0,1.0,1.0,33.8,33.9,33.9,1.6,1.8,2.755,-0.27589149265349777,-0.22235941331077153,0.8312860323739454,-0.16257870247248915,-1.151182,-11.198982
11.185,2.0,1.0,1.0,33.8,33.9,33.9,1.6,1.8,2.7575,-0.2946193873782847,-0.22601900676219402,0.8169119483678319,-0.17595108033181137,-1.225447,-10.859565
11.185,2.0,1.0,1.0,33.8,33.9,33.9,1.6,1.8,2.76,-0.3131434562901506,-0.22932439539632596,0.8012897796329588,-0.19032519400854708,-1.306954,-10.515217
11.185,2.0,1.0,1.0,33.8,33.9,33.9,1.6,1.8,2.7625,-0.33136954478495145,-0.2321826032155982,0.7843433522028589,-0.2057692845440362,-1.396618,-10.166003
11.185,2.0,1.0,1.0,33.8,33.9,33.9,1.6,1.8,2.765,-0.3491865657083401,-0.23448393970908432,0.7659959241307958,-0.2223519511586822,-1.495492,-9.812034
11.185,2.0,1.0,1.0,33.8,33.9,33.9,1.6,1.8,2.7675,-0.36646395170058593,-0.23609946657834985,0.7461719629292342,-0.24014037557157902,-1.604789,-9.453473
11.185,2.0,1.0,1.0,33.8,33.9,33.9,1.6,1.8,2.77,-0.3830488965048256,-0.23687825341866986,0.7247995984226024,-0.2591978724249906,-1.725914,-9.090551
11.185,2.0,1.0,1.0,33.8,33.9,33.9,1.6,1.8,2.7725,-0.39876345689232867,-0.23664449363646856,0.7018139313478124,-0.2795805856567548,-1.860489,-8.723578
11.185,2.0,1.0,1.0,33.8,33.9,33.9,1.6,1.8,2.775,-0.4134016422983729,-0.23519460720145968,0.6771614073611032,-0.3013331212855042,-2.010398,-8.352958
11.185,2.0,1.0,1.0,33.8,33.9,33.9,1.6,1.8,2.7775,-0.42672669751163417,-0.23229453494394264,0.6508054896957244,-0.3244828833875766,-2.17783,-7.979209
11.185,2.0,1.0,1.0,33.8,33.9,33.9,1.6,1.8,2.78,-0.43846889020978985,-0.2276775354169616,0.6227338730112112,-0.34903287058503285,-2.365327,-7.602977
11.185,2.0,1.0,1.0,33.8,33.9,33.9,1.6,1.8,2.7825,-0.44832425405444826,-0.22104293413901646,0.5929674626294154,-0.3749527084660773,-2.575852,-7.225065
11.185,2.0,1.0,1.0,33.8,33.9,33.9,1.6,1.8,2.785,-0.45595491024075585,-0.21205644714093969,0.5615712778761595,-0.4021677584978202,-2.812848,-6.846451
11.185,2.0,1.0,1.0,33.8,33.9,33.9,1.6,1.8,2.7875,-0.46099178924002293,-0.200352899606604,0.5286672992379584,-0.43054628256524985,-3.080327,-6.468315
11.185,2.0,1.0,1.0,33.8,33.9,33.9,1.6,1.8,2.79,-0.4630407801355384,-0.18554236624005707,0.49444903403640417,-0.459884886761907,-3.382946,-6.09206
11.185,2.0,1.0,1.0,33.8,33.9,33.9,1.6,1.8,2.7925,-0.4616935066883243,-0.16722093213417288,0.45919719004021314,-0.4898928527958676,-3.726106,-5.719335
11.185,2.0,1.0,1.0,33.8,33.9,33.9,1.6,1.8,2.795,-0.4565439972612888,-0.1449873415921908,0.4232952948875794,-0.5201765164436954,-4.116035,-5.352051
11.185,2.0,1.0,1.0,33.8,33.9,33.9,1.6,1.8,2.7975,-0.4472123759081987,-0.11846666350720549,0.3872433822403878,-0.5502255691651177,-4.559861,-4.992388
11.185,2.0,1.0,1.0,33.8,33.9,33.9,1.6,1.8,2.8,-0.43337622057052855,-0.08734162174147306,0.3516670390667409,-0.5794039856208225,-5.065633,-4.642787
11.185,2.0,1.0,1.0,33.8,33.9,33.9,1.6,1.8,2.8025,-0.4148092724759797,-0.05139127835045032,0.31731831724255144,-0.6069490716673914,-5.642231,-4.30593
11.185,2.0,1.0,1.0,33.8,33.9,33.9,1.6,1.8,2.805,-0.39142564927823364,-0.010535226972032727,0.28506451801652954,-0.6319826232399207,-6.299019,-3.984691
11.185,2.0,1.0,1.0,33.8,33.9,33.9,1.6,1.8,2.8075,-0.3633256624531395,0.0351205978134967,0.25586103247750736,-0.6535380135562048,-7.04498,-3.682059
11.185,2.0,1.0,1.0,33.8,33.9,33.9,1.6,1.8,2.81,-0.3308370595881372,0.08524266941403243,0.23070567724731658,-0.6706057717010264,-7.886705,-3.401043
11.185,2.0,1.0,1.0,33.8,33.9,33.9,1.6,1.8,2.8125,-0.2945436095417756,0.13924125414820288,0.21057458864136622,-0.6821975930211459,-8.824053,-3.144538
11.185,2.0,1.0,1.0,33.8,33.9,33.9,1.6,1.8,2.815,-0.2552922893594522,0.19626316990604642,0.19634364858872536,-0.6874248125690413,-9.841166,-2.915178
11.185,2.0,1.0,1.0,33.8,33.9,33.9,1.6,1.8,2.8175,-0.21417179426195593,0.25521319450550856,0.18870393763310644,-0.6855828513840743,-10.889557,-2.715183
11.185,2.0,1.0,1.0,33.8,33.9,33.9,1.6,1.8,2.82,-0.17245912465932445,0.31480736734714904,0.18808354652142703,-0.6762293102280819,-11.863018,-2.546209
11.185,2.0,1.0,1.0,33.8,33.9,33.9,1.6,1.8,2.8225,-0.13153716357589576,0.3736552692454545,0.1945896321499561,-0.659241833198434,-12.583194,-2.409232
11.185,2.0,1.0,1.0,33.8,33.9,33.9,1.6,1.8,2.825,-0.09279293495366159,0.4303615907718139,0.20798266089912165,-0.6348438091710658,-12.851062,-2.304471
11.185,2.0,1.0,1.0,33.8,33.9,33.9,1.6,1.8,2.8275,-0.05751143819253404,0.4836320998517238,0.22768925310762625,-0.6035915100686833,-12.584548,-2.231371
11.185,2.0,1.0,1.0,33.8,33.9,33.9,1.6,1.8,2.83,-0.026781622634262276,0.5323674582535107,0.25285229274788595,-0.5663240129153723,-11.894211,-2.188638
