1,w,sub_t,h,l1,l2,l3,g1,g2,Freq,S11_re,S21_re,S11_img,S21_img,S11_dB,S21_dB
11.185,2.0,1.0,1.0,33.4,34.6,34.6,1.5,3.9,2.5,0.850687247227217,-0.0108998909427761,0.510721554118092,0.00965379152984218,-0.067819,-36.736574
11.185,2.0,1.0,1.0,33.4,34.6,34.6,1.5,3.9,2.5025,0.8470509872508164,-0.011152191982344392,0.5165508358003029,0.009723815298095169,-0.068636,-36.597067
11.185,2.0,1.0,1.0,33.4,34.6,34.6,1.5,3.9,2.505,0.8433546351060776,-0.01141033204089271,0.5223828910163416,0.009793445028449832,-0.069471,-36.456855
11.185,2.0,1.0,1.0,33.4,34.6,34.6,1.5,3.9,2.5075,0.8395974079070077,-0.011674477385891934,0.5282174916501773,0.009862634317059513,-0.070325,-36.315923
11.185,2.0,1.0,1.0,33.4,34.6,34.6,1.5,3.9,2.51,0.8357785048279999,-0.011944800312358032,0.5340544003157066,0.009931334057155626,-0.071198,-36.174253
11.185,2.0,1.0,1.0,33.4,34.6,34.6,1.5,3.9,2.5125,0.8318971065620823,-0.012221479408739355,0.5398933699463693,0.009999492276712572,-0.07209,-36.03183
11.185,2.0,1.0,1.0,33.4,34.6,34.6,1.5,3.9,2.515,0.8279523747576485,-0.012504699836615804,0.5457341433643524,0.010067053965365053,-0.073003,-35.888635
11.185,2.0,1.0,1.0,33.4,34.6,34.6,1.5,3.9,2.5175,0.8239434514325991,-0.012794653625034035,0.5515764528281536,0.010133960889783451,-0.073937,-35.744653
11.185,2.0,1.0,1.0,33.4,34.6,34.6,1.5,3.9,2.52,0.8198694583647168,-0.013091539980359005,0.5574200195572103,0.010200151396648458,-0.074893,-35.599864
11.185,2.0,1.0,1.0,33.4,34.6,34.6,1.5,3.9,2.5225,0.8157294964570809,-0.01339556561258068,0.563264553232185,0.010265560202294063,-0.075872,-35.454251
11.185,2.0,1.0,1.0,33.4,34.6,34.6,1.5,3.9,2.525,0.8115226450771957,-0.013706945079079814,0.5691097514694267,0.010330118168010697,-0.076874,-35.307795
11.185,2.0,1.0,1.0,33.4,34.6,34.6,1.5,3.9,2.5275,0.8072479613684632,-0.014025901146924813,0.574955299267986,0.010393752059915351,-0.0779,-35.160478
11.185,2.0,1.0,1.0,33.4,34.6,34.6,1.5,3.9,2.53,0.802904479532533,-0.014352665174845436,0.5808008684274634,0.010456384292202026,-0.07895,-35.012279
11.185,2.0,1.0,1.0,33.4,34.6,34.6,1.5,3.9,2.5325,0.7984912100809615,-0.014687477516109252,0.5866461169348322,0.0105179326524849,-0.080027,-34.863178
11.185,2.0,1.0,1.0,33.4,34.6,34.6,1.5,3.9,2.535,0.794007139054524,-0.015030587943612323,0.5924906883182431,0.010578310007834671,-0.08113,-34.713156
11.185,2.0,1.0,1.0,33.4,34.6,34.6,1.5,3.9,2.5375,0.7894512272084071,-0.015382256098586936,0.5983342109656473,0.010637423989986782,-0.082261,-34.562192
11.185,2.0,1.0,1.0,33.4,34.6,34.6,1.5,3.9,2.54,0.7848224091614016,-0.015742751964429945,0.6041762974059359,0.010695176658066595,-0.08342,-34.410263
11.185,2.0,1.0,1.0,33.4,34.6,34.6,1.5,3.9,2.5425,0.780119592507076,-0.016112356367261393,0.6100165435500854,0.010751464137029142,-0.084608,-34.257348
11.185,2.0,1.0,1.0,33.4,34.6,34.6,1.5,3.9,2.545,0.7753416568848038,-0.01649136150493868,0.6158545278896157,0.010806176229850546,-0.085828,-34.103425
11.185,2.0,1.0,1.0,33.4,34.6,34.6,1.5,3.9,2.5475,0.770487453008351,-0.016880071506375872,0.6216898106494357,0.010859196001330436,-0.087078,-33.94847
11.185,2.0,1.0,1.0,33.4,34.6,34.6,1.5,3.9,2.55,0.7655558016495798,-0.017278803023153263,0.6275219328919427,0.010910399331169746,-0.088362,-33.792459
11.185,2.0,1.0,1.0,33.4,34.6,34.6,1.5,3.9,2.5525,0.7605454925746833,-0.017687885855544462,0.6333504155689376,0.010959654433773855,-0.08968,-33.635368
11.185,2.0,1.0,1.0,33.4,34.6,34.6,1.5,3.9,2.555,0.7554552834301451,-0.01810766361524804,0.6391747585176839,0.011006821341993545,-0.091033,-33.477173
11.185,2.0,1.0,1.0,33.4,34.6,34.6,1.5,3.9,2.5575,0.7502838985754643,-0.018538494427277532,0.6449944393970851,0.011051751351756395,-0.092423,-33.317847
11.185,2.0,1.0,1.0,33.4,34.6,34.6,1.5,3.9,2.56,0.7450300278594615,-0.018980751673646597,0.6508089125596428,0.011094286424252496,-0.09385,-33.157364
11.185,2.0,1.0,1.0,33.4,34.6,34.6,1.5,3.9,2.5625,0.7396923253367595,-0.01943482478168343,0.6566176078544561,0.011134258542019725,-0.095318,-32.995696
11.185,2.0,1.0,1.0,33.4,34.6,34.6,1.5,3.9,2.565,0.7342694079207965,-0.019901120060022075,0.6624199293561428,0.011171489014923014,-0.096826,-32.832817
11.185,2.0,1.0,1.0,33.4,34.6,34.6,1.5,3.9,2.5675,0.7287598539694699,-0.020380061585547653,0.6682152540140657,0.011205787731630489,-0.098377,-32.668697
11.185,2.0,1.0,1.0,33.4,34.6,34.6,1.5,3.9,2.57,0.723162201799227,-0.02087209214482279,0.6740029302157882,0.01123695235176029,-0.099972,-32.503307
11.185,2.0,1.0,1.0,33.4,34.6,34.6,1.5,3.9,2.5725,0.7174749481231188,-0.021377674233790896,0.6797822762581077,0.0112647674333901,-0.101613,-32.336616
11.185,2.0,1.0,1.0,33.4,34.6,34.6,1.5,3.9,2.575,0.7116965464080148,-0.02189729111984496,0.6855525787184059,0.011289003490092814,-0.103303,-32.168593
11.185,2.0,1.0,1.0,33.4,34.6,34.6,1.5,3.9,2.5775,0.7058254051458106,-0.022431447970662936,0.6913130907183823,0.011309415971069168,-0.105042,-31.999206
11.185,2.0,1.0,1.0,33.4,34.6,34.6,1.5,3.9,2.58,0.699859886033103,-0.022980673054555097,0.6970630300715007,0.011325744157292523,-0.106834,-31.828421
11.185,2.0,1.0,1.0,33.4,34.6,34.6,1.5,3.9,2.5825,0.6937983020533817,-0.023545519017435217,0.7028015773046349,0.01133770996584909,-0.108679,-31.656205
11.185,2.0,1.0,1.0,33.4,34.6,34.6,1.5,3.9,2.585,0.6876389154553502,-0.0241265642419272,0.7085278735434917,0.011345016653841734,-0.110582,-31.482523
11.185,2.0,1.0,1.0,33.4,34.6,34.6,1.5,3.9,2.5875,0.6813799356205201,-0.02472441429455065,0.7142410182503687,0.011347347412316359,-0.112543,-31.307337
11.185,2.0,1.0,1.0,33.4,34.6,34.6,1.5,3.9,2.59,0.6750195168127018,-0.025339703467394375,0.7199400668016686,0.011344363839653166,-0.114566,-31.13061
11.185,2.0,1.0,1.0,33.4,34.6,34.6,1.5,3.9,2.5925,0.6685557558014619,-0.025973096421192488,0.7256240278913288,0.011335704282729085,-0.116654,-30.952304
11.185,2.0,1.0,1.0,33.4,34.6,34.6,1.5,3.9,2.595,0.6619866893510322,-0.026625289937260203,0.7312918607449251,0.011320982032886416,-0.118808,-30.772379
11.185,2.0,1.0,1.0,33.4,34.6,34.6,1.5,3.9,2.5975,0.6553102915654881,-0.027297014786338142,0.7369424721276192,0.011299783362315532,-0.121033,-30.590792
11.185,2.0,1.0,1.0,33.4,34.6,34.6,1.5,3.9,2.6,0.6485244710803437,-0.02798903772302548,0.7425747131274008,0.011271665384861147,-0.123332,-30.407503
11.185,2.0,1.0,1.0,33.4,34.6,34.6,1.5,3.9,2.6025,0.6416270680899541,-0.028702163615167232,0.7481873756930657,0.011236153723463501,-0.125708,-30.222465
11.185,2.0,1.0,1.0,33.4,34.6,34.6,1.5,3.9,2.605,0.6346158511993181,-0.02943723771829951,0.7537791889042068,0.011192739964424115,-0.128164,-30.035635
11.185,2.0,1.0,1.0,33.4,34.6,34.6,1.5,3.9,2.6075,0.6274885140879991,-0.030195148106046486,0.7593488149480104,0.011140878876409091,-0.130705,-29.846964
11.185,2.0,1.0,1.0,33.4,34.6,34.6,1.5,3.9,2.61,0.6202426719729773,-0.030976828268213786,0.7648948447748715,0.01107998536953488,-0.133335,-29.656403
11.185,2.0,1.0,1.0,33.4,34.6,34.6,1.5,3.9,2.6125,0.6128758578562495,-0.031783259889235915,0.7704157934017427,0.011009431166982596,-0.136057,-29.463903
11.185,2.0,1.0,1.0,33.4,34.6,34.6,1.5,3.9,2.615,0.6053855185419147,-0.032615475820607524,0.7759100948285859,0.01092854115830905,-0.138878,-29.26941
11.185,2.0,1.0,1.0,33.4,34.6,34.6,1.5,3.9,2.6175,0.5977690104063996,-0.03347456326196566,0.7813760965293464,0.010836589399911542,-0.141801,-29.072871
11.185,2.0,1.0,1.0,33.4,34.6,34.6,1.5,3.9,2.62,0.5900235949042423,-0.03436166716659365,0.7868120534743874,0.010732794723897102,-0.144832,-28.874228
11.185,2.0,1.0,1.0,33.4,34.6,34.6,1.5,3.9,2.6225,0.5821464337906113,-0.0352779938882816,0.79221612163624,0.010616315911830515,-0.147978,-28.673424
11.185,2.0,1.0,1.0,33.4,34.6,34.6,1.5,3.9,2.625,0.574134584040403,-0.0362248150876996,0.797586350924769,0.0104862463844077,-0.151243,-28.470398
11.185,2.0,1.0,1.0,33.4,34.6,34.6,1.5,3.9,2.6275,0.5659849924423562,-0.03720347191772376,0.8029206774913537,0.010341608351918883,-0.154634,-28.265086
11.185,2.0,1.0,1.0,33.4,34.6,34.6,1.5,3.9,2.63,0.5576944898452038,-0.038215379508470676,0.8082169153342318,0.010181346363319336,-0.158159,-28.057424
11.185,2.0,1.0,1.0,33.4,34.6,34.6,1.5,3.9,2.6325,0.5492597850313751,-0.03926203177415703,0.8134727471287233,0.010004320183681676,-0.161824,-27.847344
11.185,2.0,1.0,1.0,33.4,34.6,34.6,1.5,3.9,2.635,0.5406774581922791,-0.04034500656525809,0.8186857141964146,0.009809296920598806,-0.165639,-27.634774
11.185,2.0,1.0,1.0,33.4,34.6,34.6,1.5,3.9,2.6375,0.5319439539777098,-0.04146597119079368,0.823853205516363,0.009594942309573678,-0.169611,-27.419641
11.185,2.0,1.0,1.0,33.4,34.6,34.6,1.5,3.9,2.64,0.5230555740904209,-0.042626688336862555,0.8289724456688103,0.009359811056339625,-0.173749,-27.20187
11.185,2.0,1.0,1.0,33.4,34.6,34.6,1.5,3.9,2.6425,0.5140084693956283,-0.04382902240873843,0.8340404815874348,0.009102336120172916,-0.178065,-26.981379
11.185,2.0,1.0,1.0,33.4,34.6,34.6,1.5,3.9,2.645,0.5047986315139381,-0.045074946324860414,0.8390541679796083,0.008820816806274593,-0.182568,-26.758086
11.185,2.0,1.0,1.0,33.4,34.6,34.6,1.5,3.9,2.6475,0.4954218838652875,-0.04636654879181441,0.8440101512550728,0.008513405516883104,-0.18727,-26.531905
11.185,2.0,1.0,1.0,33.4,34.6,34.6,1.5,3.9,2.65,0.48587387213084604,-0.04770604208979002,0.8489048517814812,0.008178092989512959,-0.192184,-26.302745
11.185,2.0,1.0,1.0,33.4,34.6,34.6,1.5,3.9,2.6525,0.47615005409981775,-0.04909577039784947,0.8537344442599104,0.007812691826126211,-0.197323,-26.070512
11.185,2.0,1.0,1.0,33.4,34.6,34.6,1.5,3.9,2.655,0.46624568886862505,-0.05053821868749175,0.8584948359841768,0.007414818088558228,-0.202703,-25.835108
11.185,2.0,1.0,1.0,33.4,34.6,34.6,1.5,3.9,2.6575,0.45615582536159327,-0.05203602221113559,0.8631816427138272,0.00698187070247168,-0.208339,-25.596429
11.185,2.0,1.0,1.0,33.4,34.6,34.6,1.5,3.9,2.66,0.4458752901451413,-0.05359197660898896,0.8677901618513574,0.006511008373698565,-0.214249,-25.35437
11.185,2.0,1.0,1.0,33.4,34.6,34.6,1.5,3.9,2.6625,0.43539867451204217,-0.05520904865285548,0.8723153425684229,0.005999123676112149,-0.220451,-25.108816
11.185,2.0,1.0,1.0,33.4,34.6,34.6,1.5,3.9,2.665,0.42472032081923666,-0.056890387638212116,0.8767517524725945,0.0054428139180144625,-0.226967,-24.859651
11.185,2.0,1.0,1.0,33.4,34.6,34.6,1.5,3.9,2.6675,0.4138343080725411,-0.058639337425633035,0.8810935403440353,0.004838348333104802,-0.23382,-24.606753
11.185,2.0,1.0,1.0,33.4,34.6,34.6,1.5,3.9,2.67,0.4027344367653904,-0.06045944911841585,0.8853343943989427,0.004181631070804749,-0.241033,-24.349991
11.185,2.0,1.0,1.0,33.4,34.6,34.6,1.5,3.9,2.6725,0.3914142129976911,-0.06235449434384971,0.8894674954516332,0.003468159377164164,-0.248636,-24.08923
11.185,2.0,1.0,1.0,33.4,34.6,34.6,1.5,3.9,2.675,0.37986683192651294,-0.06432847907939299,0.893485464247539,0.002692976259494274,-0.256656,-23.82433
11.185,2.0,1.0,1.0,33.4,34.6,34.6,1.5,3.9,2.6775,0.368085160634699,-0.06638565793004816,0.89738030212249,0.0018506168125574736,-0.265128,-23.555141
11.185,2.0,1.0,1.0,33.4,34.6,34.6,1.5,3.9,2.68,0.35606172054919416,-0.06853054871678049,0.9011433240060908,0.000935047248369153,-0.274088,-23.281507
11.185,2.0,1.0,1.0,33.4,34.6,34.6,1.5,3.9,2.6825,0.3437886696014553,-0.07076794717446558,0.9047650826250465,-6.0404488412555774e-05,-0.283575,-23.003265
11.185,2.0,1.0,1.0,33.4,34.6,34.6,1.5,3.9,2.685,0.331257784402077,-0.073102941477076,0.9082352825712983,-0.001143127826516895,-0.293635,-22.720241
11.185,2.0,1.0,1.0,33.4,34.6,34.6,1.5,3.9,2.6875,0.3184604428066941,-0.07554092620173748,0.911542682674301,-0.002321319925837021,-0.304317,-22.432255
11.185,2.0,1.0,1.0,33.4,34.6,34.6,1.5,3.9,2.69,0.30538760738792936,-0.07808761520421566,0.9146749848502944,-0.0036040890814296564,-0.315675,-22.139115
11.185,2.0,1.0,1.0,33.4,34.6,34.6,1.5,3.9,2.6925,0.29202981050850635,-0.08074905269626564,0.9176187072863103,-0.005001573280827881,-0.327772,-21.840621
11.185,2.0,1.0,1.0,33.4,34.6,34.6,1.5,3.9,2.695,0.2783771419271402,-0.0835316215768175,0.92035903944385,-0.0065250763918154936,-0.340674,-21.536562
11.185,2.0,1.0,1.0,33.4,34.6,34.6,1.5,3.9,2.6975,0.2644192401783066,-0.0864420477567954,0.9228796759263119,-0.008187224895816005,-0.35446,-21.226714
11.185,2.0,1.0,1.0,33.4,34.6,34.6,1.5,3.9,2.7,0.2501452893728067,-0.08948739880842166,0.9251626257330732,-0.010002148600040782,-0.369215,-20.910843
11.185,2.0,1.0,1.0,33.4,34.6,34.6,1.5,3.9,2.7025,0.23554402359802204,-0.0926750747337749,0.9271879928080438,-0.011985689373268436,-0.385037,-20.5887
11.185,2.0,1.0,1.0,33.4,34.6,34.6,1.5,3.9,2.705,0.22060374179522627,-0.09601278794381281,0.9289337230661886,-0.014155642670725591,-0.402034,-20.260027
11.185,2.0,1.0,1.0,33.4,34.6,34.6,1.5,3.9,2.7075,0.20531233690927764,-0.09950852861452393,0.9303753122316961,-0.016532037459257198,-0.420331,-19.924547
11.185,2.0,1.0,1.0,33.4,34.6,34.6,1.5,3.9,2.71,0.18965734431441925,-0.10317051037011103,0.9314854678298023,-0.01913746114104737,-0.440069,-19.58197
11.185,2.0,1.0,1.0,33.4,34.6,34.6,1.5,3.9,2.7125,0.1736260161129264,-0.10700708963923179,0.9322337175260407,-0.021997437217083325,-0.461409,-19.231992
11.185,2.0,1.0,1.0,33.4,34.6,34.6,1.5,3.9,2.715,0.15720543000701942,-0.11102664991264626,0.9325859546921237,-0.025140864739817307,-0.484536,-18.874292
11.185,2.0,1.0,1.0,33.4,34.6,34.6,1.5,3.9,2.7175,0.14038264422678862,-0.11523743933003097,0.9325039105973935,-0.028600530077006185,-0.50966,-18.50853
11.185,2.0,1.0,1.0,33.4,34.6,34.6,1.5,3.9,2.72,0.12314491368267642,-0.11964734631428318,0.9319445409988664,-0.032413703124717405,-0.537024,-18.134353
11.185,2.0,1.0,1.0,33.4,34.6,34.6,1.5,3.9,2.7225,0.1054799873996178,-0.12426359305195649,0.9308593131856263,-0.03662283181155495,-0.56691,-17.751389
11.185,2.0,1.0,1.0,33.4,34.6,34.6,1.5,3.9,2.725,0.08737651378105986,-0.12909232008714597,0.9291933778373808,-0.04127635041398141,-0.599644,-17.359248
11.185,2.0,1.0,1.0,33.4,34.6,34.6,1.5,3.9,2.7275,0.06882458887317314,-0.1341380266210981,0.9268846085911099,-0.04642961864266759,-0.635607,-16.957525
11.185,2.0,1.0,1.0,33.4,34.6,34.6,1.5,3.9,2.73,0.04981649425098606,-0.13940281959001324,0.923862491340157,-0.05214600929199034,-0.675244,-16.545801
11.185,2.0,1.0,1.0,33.4,34.6,34.6,1.5,3.9,2.7325,0.030347686337021194,-0.14488540931555718,0.920046845634908,-0.058498161844618875,-0.719079,-16.123643
11.185,2.0,1.0,1.0,33.4,34.6,34.6,1.5,3.9,2.735,0.010418119056286474,-0.150579769315216,0.9153463631337038,-0.06556941676108043,-0.767728,-15.690608
11.185,2.0,1.0,1.0,33.4,34.6,34.6,1.5,3.9,2.7375,-0.009965991814099543,-0.15647335125979547,0.9096569545194085,-0.0734554385930535,-0.821926,-15.246251
11.185,2.0,1.0,1.0,33.4,34.6,34.6,1.5,3.9,2.74,-0.03078981967905764,-0.1625447113209072,0.9028599092925601,-0.08226602287617045,-0.882545,-14.790126
11.185,2.0,1.0,1.0,33.4,34.6,34.6,1.5,3.9,2.7425,-0.052026806006929396,-0.16876035931643343,0.8948198965430294,-0.09212705778417309,-0.950631,-14.321805
11.185,2.0,1.0,1.0,33.4,34.6,34.6,1.5,3.9,2.745,-0.07363452300506204,-0.1750705852911331,0.8853828756793386,-0.10318257022326825,-1.027442,-13.840883
11.185,2.0,1.0,1.0,33.4,34.6,34.6,1.5,3.9,2.7475,-0.09554920654942956,-0.18140394841189142,0.8743740541203342,-0.11559671738294967,-1.114501,-13.347006
11.185,2.0,1.0,1.0,33.4,34.6,34.6,1.5,3.9,2.75,-0.117678564527271,-0.187660031516351,0.861596139133364,-0.129555473635956,-1.213655,-12.839891
11.185,2.0,1.0,1.0,33.4,34.6,34.6,1.5,3.9,2.7525,-0.1398923788608749,-0.19369997765412011,0.8468283053556805,-0.14526758694759456,-1.327164,-12.319368
11.185,2.0,1.0,1.0,33.4,34.6,34.6,1.5,3.9,2.755,-0.16201034358916153,-0.1993342492863817,0.8298265691379706,-0.1629641073789517,-1.457793,-11.785425
11.185,2.0,1.0,1.0,33.4,34.6,34.6,1.5,3.9,2.7575,-0.1837865528501543,-0.20430702317920418,0.8103266668688136,-0.1828953815159591,-1.608949,-11.238279
11.185,2.0,1.0,1.0,33.4,34.6,34.6,1.5,3.9,2.76,-0.20489014332847527,-0.20827672695162688,0.7880511254184697,-0.205323812084011,-1.784835,-10.678457
11.185,2.0,1.0,1.0,33.4,34.6,34.6,1.5,3.9,2.7625,-0.22488193755362626,-0.21079256956356862,0.7627230321079776,-0.23050985841975308,-1.990642,-10.106913
11.185,2.0,1.0,1.0,33.4,34.6,34.6,1.5,3.9,2.765,-0.24318775217331748,-0.21126774403553206,0.7340900626614455,-0.2586876980885682,-2.232781,-9.525172
11.185,2.0,1.0,1.0,33.4,34.6,34.6,1.5,3.9,2.7675,-0.2590706795023087,-0.20895163876377054,0.7019634941655856,-0.2900257989728764,-2.519125,-8.935516
11.185,2.0,1.0,1.0,33.4,34.6,34.6,1.5,3.9,2.77,-0.27160759729473627,-0.20290636160900707,0.6662778327542656,-0.32456675216494457,-2.859245,-8.341192
11.185,2.0,1.0,1.0,33.4,34.6,34.6,1.5,3.9,2.7725,-0.2796798957744473,-0.19199764308684344,0.6271764218610403,-0.36214099718390613,-3.264528,-7.746669
11.185,2.0,1.0,1.0,33.4,34.6,34.6,1.5,3.9,2.775,-0.2819950272321679,-0.17491682993216,0.5851252446972245,-0.4022522651722274,-3.747979,-7.157887
11.185,2.0,1.0,1.0,33.4,34.6,34.6,1.5,3.9,2.7775,-0.2771627699046674,-0.15025797752503572,0.5410484396493891,-0.443941338274798,-4.323237,-6.582463
11.185,2.0,1.0,1.0,33.4,34.6,34.6,1.5,3.9,2.78,-0.26385400972617606,-0.1166779182218616,0.4964619797171232,-0.48565190311425843,-5.001845,-6.02979
11.185,2.0,1.0,1.0,33.4,34.6,34.6,1.5,3.9,2.7825,-0.24106208321202904,-0.07315927661274302,0.4535563125736477,-0.5251480406609769,-5.786853,-5.510886
11.185,2.0,1.0,1.0,33.4,34.6,34.6,1.5,3.9,2.785,-0.20845603878908617,-0.019365445222993702,0.4151524642371587,-0.5595591988726408,-6.659375,-5.037881
11.185,2.0,1.0,1.0,33.4,34.6,34.6,1.5,3.9,2.7875,-0.16675587823198137,0.04398308147870432,0.38445082733336955,-0.5856335474402696,-7.554509,-4.623053
11.185,2.0,1.0,1.0,33.4,34.6,34.6,1.5,3.9,2.79,-0.11798888662818584,0.11485269951108497,0.36453850586997216,-0.6002334301553869,-8.332452,-4.277428
11.185,2.0,1.0,1.0,33.4,34.6,34.6,1.5,3.9,2.7925,-0.06545515833364392,0.18993333737486404,0.35773303365137477,-0.6009940545946921,-8.785803,-4.009158
11.185,2.0,1.0,1.0,33.4,34.6,34.6,1.5,3.9,2.795,-0.013301816077451172,0.2650677994488031,0.364973258554898,-0.586933362400752,-8.749014,-3.822118
11.185,2.0,1.0,1.0,33.4,34.6,34.6,1.5,3.9,2.7975,0.03421705812700991,0.3359954616194154,0.38551895110653883,-0.5587508485516103,-8.245007,-3.715135
11.185,2.0,1.0,1.0,33.4,34.6,34.6,1.5,3.9,2.8,0.07353757278591183,0.3991516478884525,0.4171106337847055,-0.518664296702847,-7.462041,-3.682168
11.185,2.0,1.0,1.0,33.4,34.6,34.6,1.5,3.9,2.8025,0.10234298049441748,0.45222472960064275,0.4565201567215963,-0.4698551964853794,-6.597845,-3.713341
11.185,2.0,1.0,1.0,33.4,34.6,34.6,1.5,3.9,2.805,0.11972039760504713,0.4943112702255281,0.5002485108669941,-0.4157675834587393,-5.774404,-3.796491
11.185,2.0,1.0,1.0,33.4,34.6,34.6,1.5,3.9,2.8075,0.12595989953623518,0.5257127270091668,0.5451143156768744,-0.35951739979495523,-5.044341,-3.918735
11.185,2.0,1.0,1.0,33.4,34.6,34.6,1.5,3.9,2.81,0.12216491389458087,0.547543424180209,0.5885950708247564,-0.3035501381877263,-4.420498,-4.067732
11.185,2.0,1.0,1.0,33.4,34.6,34.6,1.5,3.9,2.8125,0.109846855058863,0.56132312723581,0.628921772035956,-0.249545716263742,-3.897563,-4.232479
11.185,2.0,1.0,1.0,33.4,34.6,34.6,1.5,3.9,2.815,0.09060802237075395,0.5686582736572092,0.6650062090958643,-0.19849083254360397,-3.463601,-4.403676
11.185,2.0,1.0,1.0,33.4,34.6,34.6,1.5,3.9,2.8175,0.06594233714374317,0.5710412866578332,0.6962914583609329,-0.15082801013109443,-3.1054,-4.573772
11.185,2.0,1.0,1.0,33.4,34.6,34.6,1.5,3.9,2.82,0.03713783829603369,0.5697516919092317,0.7225909279021283,-0.10661583081438665,-2.810693,-4.736815
11.185,2.0,1.0,1.0,33.4,34.6,34.6,1.5,3.9,2.8225,0.005249119152282969,0.5658270284863501,0.7439499811024192,-0.06566628780387253,-2.568909,-4.888224
11.185,2.0,1.0,1.0,33.4,34.6,34.6,1.5,3.9,2.825,-0.028890133236576444,0.5600735456186001,0.7605411352029997,-0.027648264739827896,-2.371284,-5.024528
11.185,2.0,1.0,1.0,33.4,34.6,34.6,1.5,3.9,2.8275,-0.06463598320947267,0.5530950420836822,0.7725913117490304,0.00784130734914724,-2.210712,-5.143132
11.185,2.0,1.0,1.0,33.4,34.6,34.6,1.5,3.9,2.83,-0.10149753606443236,0.5453266311227728,0.7803347287642427,0.041232162168852005,-2.081522,-5.242108
