1,w,sub_t,h,l1,l2,l3,g1,g2,Freq,S11_re,S21_re,S11_img,S21_img,S11_dB,S21_dB
11.185,2.0,1.0,1.0,33.7,33.0,33.0,3.3,3.7,2.5,0.826021480580641,-0.00625128260938692,0.55251053280652,0.00404076986217554,-0.05428,-42.564404
11.185,2.0,1.0,1.0,33.7,33.0,33.0,3.3,3.7,2.5025,0.822180223202027,-0.006365062122712685,0.5581136411601225,0.004042256050879958,-0.054756,-42.452401
11.185,2.0,1.0,1.0,33.7,33.0,33.0,3.3,3.7,2.505,0.8182839083654029,-0.0064805359892469196,0.5637133035925648,0.004042793474584555,-0.055239,-42.340222
11.185,2.0,1.0,1.0,33.7,33.0,33.0,3.3,3.7,2.5075,0.8143320137818906,-0.006597729222363156,0.5693092087573864,0.0040423512642615445,-0.05573,-42.227861
11.185,2.0,1.0,1.0,33.7,33.0,33.0,3.3,3.7,2.51,0.810324009974866,-0.006716667217408751,0.5749010364296911,0.004040897609462054,-0.056229,-42.115313
11.185,2.0,1.0,1.0,33.7,33.0,33.0,3.3,3.7,2.5125,0.8062593602069423,-0.006837375755446552,0.5804884572408113,0.0040383997273868545,-0.056736,-42.002572
11.185,2.0,1.0,1.0,33.7,33.0,33.0,3.3,3.7,2.515,0.8021375204079346,-0.006959881006863915,0.5860711324052102,0.004034823830866066,-0.057251,-41.889632
11.185,2.0,1.0,1.0,33.7,33.0,33.0,3.3,3.7,2.5175,0.7979579391039414,-0.007084209534834354,0.5916487134393694,0.004030135095206235,-0.057774,-41.776487
11.185,2.0,1.0,1.0,33.7,33.0,33.0,3.3,3.7,2.52,0.7937200573476575,-0.007210388298616852,0.5972208418724517,0.004024297623862114,-0.058306,-41.663133
11.185,2.0,1.0,1.0,33.7,33.0,33.0,3.3,3.7,2.5225,0.7894233086500843,-0.0073384446566758564,0.6027871489484716,0.004017274412888423,-0.058846,-41.549562
11.185,2.0,1.0,1.0,33.7,33.0,33.0,3.3,3.7,2.525,0.7850671189137605,-0.0074684063696048774,0.6083472553197489,0.00400902731412494,-0.059396,-41.435769
11.185,2.0,1.0,1.0,33.7,33.0,33.0,3.3,3.7,2.5275,0.7806509063676839,-0.007600301602834921,0.6139007707313824,0.0039995169970667745,-0.059954,-41.321748
11.185,2.0,1.0,1.0,33.7,33.0,33.0,3.3,3.7,2.53,0.7761740815040878,-0.007734158929107718,0.6194472936964777,0.003988702909369234,-0.060521,-41.207494
11.185,2.0,1.0,1.0,33.7,33.0,33.0,3.3,3.7,2.5325,0.7716360470172448,-0.007870007330692633,0.6249864111618645,0.003976543235935023,-0.061098,-41.093001
11.185,2.0,1.0,1.0,33.7,33.0,33.0,3.3,3.7,2.535,0.7670361977444845,-0.00800787620132482,0.6305176981640366,0.003962994856528964,-0.061684,-40.978262
11.185,2.0,1.0,1.0,33.7,33.0,33.0,3.3,3.7,2.5375,0.7623739206096238,-0.008147795347840193,0.6360407174750107,0.003948013301863556,-0.06228,-40.863272
11.185,2.0,1.0,1.0,33.7,33.0,33.0,3.3,3.7,2.54,0.757648594569012,-0.00828979499148202,0.6415550192378336,0.003931552708095993,-0.062886,-40.748024
11.185,2.0,1.0,1.0,33.7,33.0,33.0,3.3,3.7,2.5425,0.7528595905604101,-0.00843390576885165,0.6470601405914309,0.00391356576967497,-0.063503,-40.632513
11.185,2.0,1.0,1.0,33.7,33.0,33.0,3.3,3.7,2.545,0.7480062714549361,-0.008580158732474424,0.6525556052844917,0.0038940036904731258,-0.064129,-40.516732
11.185,2.0,1.0,1.0,33.7,33.0,33.0,3.3,3.7,2.5475,0.7430879920123215,-0.008728585350949775,0.6580409232780702,0.0038728161331379025,-0.064766,-40.400675
11.185,2.0,1.0,1.0,33.7,33.0,33.0,3.3,3.7,2.55,0.7381040988397257,-0.008879217508653016,0.6635155903365987,0.00384995116659115,-0.065415,-40.284337
11.185,2.0,1.0,1.0,33.7,33.0,33.0,3.3,3.7,2.5525,0.7330539303543957,-0.009032087504953311,0.6689790876069561,0.0038253552116048533,-0.066074,-40.16771
11.185,2.0,1.0,1.0,33.7,33.0,33.0,3.3,3.7,2.555,0.7279368167504405,-0.009187228052911178,0.6744308811852765,0.0037989729843768702,-0.066744,-40.050789
11.185,2.0,1.0,1.0,33.7,33.0,33.0,3.3,3.7,2.5575,0.7227520799700271,-0.009344672277415785,0.6798704216711406,0.003770747438027767,-0.067427,-39.933567
11.185,2.0,1.0,1.0,33.7,33.0,33.0,3.3,3.7,2.56,0.7174990336793161,-0.009504453712719895,0.6852971437087909,0.0037406197019363777,-0.068121,-39.816038
11.185,2.0,1.0,1.0,33.7,33.0,33.0,3.3,3.7,2.5625,0.7121769832494719,-0.009666606299327883,0.6907104655150128,0.0037085290188279803,-0.068827,-39.698195
11.185,2.0,1.0,1.0,33.7,33.0,33.0,3.3,3.7,2.565,0.706785225743091,-0.009831164380189389,0.6961097883933098,0.0036744126795253858,-0.069545,-39.580033
11.185,2.0,1.0,1.0,33.7,33.0,33.0,3.3,3.7,2.5675,0.7013230499064323,-0.0099981626961477,0.7014944962339765,0.003638205955269587,-0.070276,-39.461543
11.185,2.0,1.0,1.0,33.7,33.0,33.0,3.3,3.7,2.57,0.6957897361678271,-0.01016763638058957,0.7068639549996976,0.0035998420275120723,-0.07102,-39.342721
11.185,2.0,1.0,1.0,33.7,33.0,33.0,3.3,3.7,2.5725,0.6901845566426861,-0.010339620953239106,0.7122175121962593,0.0035592519150771554,-0.071777,-39.223558
11.185,2.0,1.0,1.0,33.7,33.0,33.0,3.3,3.7,2.575,0.684506775145531,-0.01051415231303509,0.717554496327971,0.003516364398587813,-0.072548,-39.104049
11.185,2.0,1.0,1.0,33.7,33.0,33.0,3.3,3.7,2.5775,0.6787556472095118,-0.010691266730027219,0.7228742163373729,0.003471105942044126,-0.073332,-38.984187
11.185,2.0,1.0,1.0,33.7,33.0,33.0,3.3,3.7,2.58,0.6729304201138833,-0.01087100083622247,0.7281759610288049,0.003423400611438387,-0.074131,-38.863964
11.185,2.0,1.0,1.0,33.7,33.0,33.0,3.3,3.7,2.5825,0.667030332919945,-0.011053391615309103,0.7334589984754034,0.0033731699902856275,-0.074944,-38.743374
11.185,2.0,1.0,1.0,33.7,33.0,33.0,3.3,3.7,2.585,0.6610546165159739,-0.011238476391180275,0.73872257540907,0.00332033309194356,-0.075772,-38.62241
11.185,2.0,1.0,1.0,33.7,33.0,33.0,3.3,3.7,2.5875,0.655002493671707,-0.011426292815175366,0.7439659165929723,0.0032648062685891165,-0.076615,-38.501065
11.185,2.0,1.0,1.0,33.7,33.0,33.0,3.3,3.7,2.59,0.6488731791029585,-0.011616878851951102,0.7491882241760925,0.0032065031167141014,-0.077473,-38.379331
11.185,2.0,1.0,1.0,33.7,33.0,33.0,3.3,3.7,2.5925,0.6426658795469836,-0.01181027276388966,0.7543886770293721,0.003145334378995298,-0.078347,-38.257201
11.185,2.0,1.0,1.0,33.7,33.0,33.0,3.3,3.7,2.595,0.636379793849244,-0.01200651309394447,0.7595664300629452,0.0030812078423882077,-0.079237,-38.134669
11.185,2.0,1.0,1.0,33.7,33.0,33.0,3.3,3.7,2.5975,0.630014113062244,-0.012205638646819018,0.7647206135239949,0.003014028232286577,-0.080144,-38.011726
11.185,2.0,1.0,1.0,33.7,33.0,33.0,3.3,3.7,2.6,0.62356802055715,-0.012407688468366394,0.7698503322747116,0.0029436971025825543,-0.081068,-37.888365
11.185,2.0,1.0,1.0,33.7,33.0,33.0,3.3,3.7,2.6025,0.6170406921489583,-0.012612701823090934,0.7749546650498519,0.0028701127214549507,-0.082009,-37.764579
11.185,2.0,1.0,1.0,33.7,33.0,33.0,3.3,3.7,2.605,0.6104312962359755,-0.012820718169625473,0.7800326636933851,0.002793169952704547,-0.082968,-37.640359
11.185,2.0,1.0,1.0,33.7,33.0,33.0,3.3,3.7,2.6075,0.603738993954453,-0.013031777134049922,0.7850833523736894,0.002712760132447447,-0.083945,-37.515699
11.185,2.0,1.0,1.0,33.7,33.0,33.0,3.3,3.7,2.61,0.5969629393492419,-0.013245918480907944,0.7901057267767743,0.0026287709409681206,-0.08494,-37.39059
11.185,2.0,1.0,1.0,33.7,33.0,33.0,3.3,3.7,2.6125,0.5901022795613728,-0.01346318208177004,0.7950987532769795,0.0025410862695247087,-0.085955,-37.265024
11.185,2.0,1.0,1.0,33.7,33.0,33.0,3.3,3.7,2.615,0.5831561550335148,-0.013683607881181205,0.8000613680846091,0.0024495860818889814,-0.086989,-37.138994
11.185,2.0,1.0,1.0,33.7,33.0,33.0,3.3,3.7,2.6175,0.576123699734326,-0.01390723585982109,0.8049924763699337,0.002354146270392997,-0.088043,-37.01249
11.185,2.0,1.0,1.0,33.7,33.0,33.0,3.3,3.7,2.62,0.5690040414027402,-0.01413410599469363,0.809890951363005,0.002254638506243731,-0.089118,-36.885506
11.185,2.0,1.0,1.0,33.7,33.0,33.0,3.3,3.7,2.6225,0.5617963018132862,-0.014364258216151692,0.8147556334287139,0.0021509300838544244,-0.090214,-36.758031
11.185,2.0,1.0,1.0,33.7,33.0,33.0,3.3,3.7,2.625,0.554499597063621,-0.0145977323615488,0.819585329116506,0.00204288375893047,-0.091331,-36.630059
11.185,2.0,1.0,1.0,33.7,33.0,33.0,3.3,3.7,2.6275,0.5471130378854561,-0.01483456812529813,0.824378810184187,0.001930357580033212,-0.09247,-36.50158
11.185,2.0,1.0,1.0,33.7,33.0,33.0,3.3,3.7,2.63,0.5396357299801815,-0.015074805005103213,0.829134812595225,0.0018132047133322048,-0.093632,-36.372585
11.185,2.0,1.0,1.0,33.7,33.0,33.0,3.3,3.7,2.6325,0.5320667743804958,-0.015318482244110601,0.8338520354889611,0.0016912732602414422,-0.094817,-36.243066
11.185,2.0,1.0,1.0,33.7,33.0,33.0,3.3,3.7,2.635,0.5244052678394591,-0.015565638768717846,0.8385291401231376,0.001564406067620068,-0.096025,-36.113013
11.185,2.0,1.0,1.0,33.7,33.0,33.0,3.3,3.7,2.6375,0.5166503032484263,-0.01581631312175289,0.8431647487881414,0.0014324405302010145,-0.097258,-35.982418
11.185,2.0,1.0,1.0,33.7,33.0,33.0,3.3,3.7,2.64,0.5088009700853905,-0.01607054339072291,0.8477574436923805,0.0012952083848945244,-0.098516,-35.85127
11.185,2.0,1.0,1.0,33.7,33.0,33.0,3.3,3.7,2.6425,0.5008563548953547,-0.016328367130809585,0.8523057658181772,0.001152535496594445,-0.0998,-35.719561
11.185,2.0,1.0,1.0,33.7,33.0,33.0,3.3,3.7,2.645,0.49281554180441145,-0.01658982128226756,0.8568082137475952,0.0010042416350960173,-0.10111,-35.587281
11.185,2.0,1.0,1.0,33.7,33.0,33.0,3.3,3.7,2.6475,0.4846776130693006,-0.016854942081859347,0.8612632424575908,0.000850140242713089,-0.102447,-35.45442
11.185,2.0,1.0,1.0,33.7,33.0,33.0,3.3,3.7,2.65,0.4764416496642765,-0.017123764967936102,0.8656692620839127,0.0006900381921603112,-0.103812,-35.320968
11.185,2.0,1.0,1.0,33.7,33.0,33.0,3.3,3.7,2.6525,0.4681067319072524,-0.017396324478746155,0.8700246366531332,0.000523735534243189,-0.105205,-35.186915
11.185,2.0,1.0,1.0,33.7,33.0,33.0,3.3,3.7,2.655,0.45967194012721146,-0.01767265414352709,0.8743276827822484,0.0003510252348728476,-0.106627,-35.052251
11.185,2.0,1.0,1.0,33.7,33.0,33.0,3.3,3.7,2.6575,0.4511363553750318,-0.01795278636590491,0.8785766683452527,0.00017169290089675952,-0.108079,-34.916966
11.185,2.0,1.0,1.0,33.7,33.0,33.0,3.3,3.7,2.66,0.4424990601799314,-0.018236752299092905,0.8827698111061231,-1.4483505792551093e-05,-0.109562,-34.781047
11.185,2.0,1.0,1.0,33.7,33.0,33.0,3.3,3.7,2.6625,0.43375913935386906,-0.018524581712346833,0.8869052773176369,-0.00020773396643807175,-0.111077,-34.644486
11.185,2.0,1.0,1.0,33.7,33.0,33.0,3.3,3.7,2.665,0.4249156808463136,-0.01881630284809677,0.8909811802854849,-0.00040829671648888666,-0.112624,-34.50727
11.185,2.0,1.0,1.0,33.7,33.0,33.0,3.3,3.7,2.6675,0.4159677766519504,-0.019111942269134256,0.8949955788971221,-0.0006164185701948029,-0.114204,-34.369388
11.185,2.0,1.0,1.0,33.7,33.0,33.0,3.3,3.7,2.67,0.40691452377396764,-0.01941152469519129,0.8989464761148355,-0.000832355259396945,-0.115819,-34.230829
11.185,2.0,1.0,1.0,33.7,33.0,33.0,3.3,3.7,2.6725,0.39775502524570966,-0.01971507282819999,0.9028318174325143,-0.001056371787225105,-0.117469,-34.091581
11.185,2.0,1.0,1.0,33.7,33.0,33.0,3.3,3.7,2.675,0.3884883912136216,-0.020022607165471648,0.9066494892956227,-0.0012887427974553414,-0.119155,-33.951633
11.185,2.0,1.0,1.0,33.7,33.0,33.0,3.3,3.7,2.6775,0.3791137400845195,-0.020334145799979497,0.910397317483897,-0.0015297529603261904,-0.120878,-33.810971
11.185,2.0,1.0,1.0,33.7,33.0,33.0,3.3,3.7,2.68,0.3696301997403781,-0.020649704206870605,0.9140730654563107,-0.0017796973756612558,-0.12264,-33.669584
11.185,2.0,1.0,1.0,33.7,33.0,33.0,3.3,3.7,2.6825,0.360036908823972,-0.020969295015268473,0.9176744326578686,-0.002038881994196822,-0.124441,-33.527458
11.185,2.0,1.0,1.0,33.7,33.0,33.0,3.3,3.7,2.685,0.3503330180988473,-0.021292927764359884,0.9211990527878173,-0.002307624058071198,-0.126283,-33.384581
11.185,2.0,1.0,1.0,33.7,33.0,33.0,3.3,3.7,2.6875,0.3405176918872759,-0.0216206086426843,0.924644492028891,-0.0025862525614908194,-0.128167,-33.240939
11.185,2.0,1.0,1.0,33.7,33.0,33.0,3.3,3.7,2.69,0.330590109590008,-0.021952340209463583,0.9280082472372212,-0.002875108732654236,-0.130093,-33.09652
11.185,2.0,1.0,1.0,33.7,33.0,33.0,3.3,3.7,2.6925,0.32054946729179357,-0.022288121096722832,0.9312877440925933,-0.0031745465380851714,-0.132064,-32.951308
11.185,2.0,1.0,1.0,33.7,33.0,33.0,3.3,3.7,2.695,0.3103949794568716,-0.022627945690856997,0.9344803352087355,-0.0034849332105999476,-0.13408,-32.805289
11.185,2.0,1.0,1.0,33.7,33.0,33.0,3.3,3.7,2.6975,0.30012588071875446,-0.022971803792195985,0.9375832982033875,-0.0038066498022178317,-0.136144,-32.65845
11.185,2.0,1.0,1.0,33.7,33.0,33.0,3.3,3.7,2.7,0.2897414277689037,-0.023319680251006916,0.9405938337278926,-0.004140091763408953,-0.138256,-32.510775
11.185,2.0,1.0,1.0,33.7,33.0,33.0,3.3,3.7,2.7025,0.2792409013490469,-0.0236715545782518,0.9435090634561365,-0.004485669550170277,-0.140417,-32.362249
11.185,2.0,1.0,1.0,33.7,33.0,33.0,3.3,3.7,2.705,0.2686236083521492,-0.024027400529283073,0.9463260280326395,-0.004843809260522561,-0.14263,-32.212856
11.185,2.0,1.0,1.0,33.7,33.0,33.0,3.3,3.7,2.7075,0.2578888840372571,-0.0243871856585162,0.949041684979692,-0.005214953302132395,-0.144896,-32.062581
11.185,2.0,1.0,1.0,33.7,33.0,33.0,3.3,3.7,2.71,0.24703609436370383,-0.02475087084295735,0.9516529065634197,-0.005599561092883389,-0.147217,-31.911406
11.185,2.0,1.0,1.0,33.7,33.0,33.0,3.3,3.7,2.7125,0.23606463845039508,-0.025118409772291694,0.9541564776187235,-0.0059981097963516345,-0.149594,-31.759316
11.185,2.0,1.0,1.0,33.7,33.0,33.0,3.3,3.7,2.715,0.2249739511662007,-0.025489748403046086,0.9565490933330635,-0.006411095094281733,-0.15203,-31.606292
11.185,2.0,1.0,1.0,33.7,33.0,33.0,3.3,3.7,2.7175,0.21376350585773593,-0.025864824374132005,0.958827356989085,-0.00683903199831349,-0.154526,-31.452317
11.185,2.0,1.0,1.0,33.7,33.0,33.0,3.3,3.7,2.72,0.20243281722115802,-0.02624356638084388,0.9609877776661141,-0.007282455703375697,-0.157083,-31.297372
11.185,2.0,1.0,1.0,33.7,33.0,33.0,3.3,3.7,2.7225,0.19098144432488134,-0.0266258935041379,0.9630267679005855,-0.007741922485346783,-0.159705,-31.141439
11.185,2.0,1.0,1.0,33.7,33.0,33.0,3.3,3.7,2.725,0.17940899379053218,-0.0270117144917367,0.9649406413054669,-0.008218010645776624,-0.162393,-30.984499
11.185,2.0,1.0,1.0,33.7,33.0,33.0,3.3,3.7,2.7275,0.16771512313974646,-0.027400926987302256,0.9667256101487758,-0.008711321506682447,-0.16515,-30.826532
11.185,2.0,1.0,1.0,33.7,33.0,33.0,3.3,3.7,2.73,0.15589954431490188,-0.02779341670358015,0.9683777828912803,-0.009222480458662778,-0.167978,-30.667516
11.185,2.0,1.0,1.0,33.7,33.0,33.0,3.3,3.7,2.7325,0.1439620273822205,-0.02818905653504809,0.9698931616834786,-0.009752138065831084,-0.170878,-30.507432
11.185,2.0,1.0,1.0,33.7,33.0,33.0,3.3,3.7,2.735,0.1319024044261986,-0.028587705605188585,0.9712676398219408,-0.010300971231348348,-0.173855,-30.346257
11.185,2.0,1.0,1.0,33.7,33.0,33.0,3.3,3.7,2.7375,0.11972057364476635,-0.028989208243050915,0.9724969991650597,-0.010869684427638103,-0.17691,-30.183969
11.185,2.0,1.0,1.0,33.7,33.0,33.0,3.3,3.7,2.74,0.10741650365514858,-0.029393392883261725,0.9735769075082311,-0.011459010995700054,-0.180047,-30.020545
11.185,2.0,1.0,1.0,33.7,33.0,33.0,3.3,3.7,2.7425,0.09499023802094715,-0.02980007088308296,0.9745029159184173,-0.012069714518300937,-0.183268,-29.855961
11.185,2.0,1.0,1.0,33.7,33.0,33.0,3.3,3.7,2.745,0.08244190001161879,-0.030209035249491915,0.9752704560279581,-0.01270259027221825,-0.186576,-29.690193
11.185,2.0,1.0,1.0,33.7,33.0,33.0,3.3,3.7,2.7475,0.06977169760619482,-0.030620059268564034,0.9758748372874104,-0.013358466765146657,-0.189974,-29.523215
11.185,2.0,1.0,1.0,33.7,33.0,33.0,3.3,3.7,2.75,0.0569799287538522,-0.0310328950286653,0.976311244177039,-0.0140382073633517,-0.193466,-29.355001
11.185,2.0,1.0,1.0,33.7,33.0,33.0,3.3,3.7,2.7525,0.04406698690476337,-0.031447271828096375,0.9765747333764309,-0.01474271201667572,-0.197056,-29.185524
11.185,2.0,1.0,1.0,33.7,33.0,33.0,3.3,3.7,2.755,0.031033366825592355,-0.03186289445686532,0.9766602308915002,-0.015472919088068304,-0.200747,-29.014756
11.185,2.0,1.0,1.0,33.7,33.0,33.0,3.3,3.7,2.7575,0.017879670714957642,-0.032279441341184927,0.9765625291378901,-0.016229807295441486,-0.204543,-28.842667
11.185,2.0,1.0,1.0,33.7,33.0,33.0,3.3,3.7,2.76,0.0046066146353947995,-0.03269656253807684,0.9762762839795007,-0.017014397774327006,-0.208449,-28.669228
11.185,2.0,1.0,1.0,33.7,33.0,33.0,3.3,3.7,2.7625,-0.00878496472049813,-0.03311387756610574,0.9757960117205051,-0.017827756270567194,-0.212467,-28.494407
11.185,2.0,1.0,1.0,33.7,33.0,33.0,3.3,3.7,2.765,-0.02229410291056539,-0.033530973056735594,0.9751160860488065,-0.018670995473087242,-0.216604,-28.318172
11.185,2.0,1.0,1.0,33.7,33.0,33.0,3.3,3.7,2.7675,-0.03591970024956561,-0.03394740020907748,0.974230734928402,-0.01954527749769728,-0.220864,-28.14049
11.185,2.0,1.0,1.0,33.7,33.0,33.0,3.3,3.7,2.77,-0.0496605139191609,-0.034362672028856775,0.9731340374375543,-0.020451816533857633,-0.225251,-27.961325
11.185,2.0,1.0,1.0,33.7,33.0,33.0,3.3,3.7,2.7725,-0.06351514965697072,-0.034776260330233184,0.9718199205490065,-0.021391881667418698,-0.229773,-27.780642
11.185,2.0,1.0,1.0,33.7,33.0,33.0,3.3,3.7,2.775,-0.07748205299800914,-0.035187592476627096,0.9702821558477351,-0.02236679989352918,-0.234433,-27.598402
11.185,2.0,1.0,1.0,33.7,33.0,33.0,3.3,3.7,2.7775,-0.09155950003928041,-0.03559604783389593,0.9685143561808474,-0.02337795933519962,-0.239238,-27.414567
11.185,2.0,1.0,1.0,33.7,33.0,33.0,3.3,3.7,2.78,-0.10574558769541992,-0.03600095390601719,0.9665099722332512,-0.024426812684424436,-0.244195,-27.229095
11.185,2.0,1.0,1.0,33.7,33.0,33.0,3.3,3.7,2.7825,-0.12003822340995426,-0.036401582119813855,0.9642622890215901,-0.025514880884309935,-0.24931,-27.041945
11.185,2.0,1.0,1.0,33.7,33.0,33.0,3.3,3.7,2.785,-0.13443511428305424,-0.036797143221139354,0.961764422297645,-0.026643757072350473,-0.25459,-26.853072
11.185,2.0,1.0,1.0,33.7,33.0,33.0,3.3,3.7,2.7875,-0.1489337555722835,-0.03718678224024224,0.959009314850972,-0.027815110806832046,-0.260044,-26.662431
11.185,2.0,1.0,1.0,33.7,33.0,33.0,3.3,3.7,2.79,-0.16353141851799274,-0.037569572978673915,0.9559897326988979,-0.029030692600355398,-0.265678,-26.469972
11.185,2.0,1.0,1.0,33.7,33.0,33.0,3.3,3.7,2.7925,-0.17822513743927812,-0.03794451196397469,0.9526982611501861,-0.03029233878664732,-0.271503,-26.275646
11.185,2.0,1.0,1.0,33.7,33.0,33.0,3.3,3.7,2.795,-0.19301169603999688,-0.0383105118113592,0.9491273007266284,-0.031601976749201906,-0.277526,-26.0794
11.185,2.0,1.0,1.0,33.7,33.0,33.0,3.3,3.7,2.7975,-0.20788761285670615,-0.0386663939235736,0.9452690629245756,-0.03296163054284305,-0.283759,-25.881179
11.185,2.0,1.0,1.0,33.7,33.0,33.0,3.3,3.7,2.8,-0.2228491257718385,-0.03901088045085517,0.9411155657959085,-0.03437342694206675,-0.290211,-25.680927
11.185,2.0,1.0,1.0,33.7,33.0,33.0,3.3,3.7,2.8025,-0.237892175505303,-0.03934258542228304,0.9366586293251952,-0.03583960195297351,-0.296894,-25.478583
11.185,2.0,1.0,1.0,33.7,33.0,33.0,3.3,3.7,2.805,-0.25301238798608144,-0.03966000494754634,0.9318898705768058,-0.03736250782875812,-0.303819,-25.274084
11.185,2.0,1.0,1.0,33.7,33.0,33.0,3.3,3.7,2.8075,-0.26820505549188606,-0.03996150637399225,0.9268006985824839,-0.03894462063207097,-0.311,-25.067364
11.185,2.0,1.0,1.0,33.7,33.0,33.0,3.3,3.7,2.81,-0.28346511642923433,-0.040245316267433766,0.9213823089363882,-0.040588548391077804,-0.318451,-24.858355
11.185,2.0,1.0,1.0,33.7,33.0,33.0,3.3,3.7,2.8125,-0.298787133607936,-0.0405095070662095,0.915625678060932,-0.0422970398996889,-0.326186,-24.646983
11.185,2.0,1.0,1.0,33.7,33.0,33.0,3.3,3.7,2.815,-0.3141652708426948,-0.04075198223594717,0.9095215571028401,-0.04407299421616824,-0.334222,-24.433173
11.185,2.0,1.0,1.0,33.7,33.0,33.0,3.3,3.7,2.8175,-0.3295932676895012,-0.040970459726843676,0.9030604654148777,-0.04591947091806445,-0.342576,-24.216845
11.185,2.0,1.0,1.0,33.7,33.0,33.0,3.3,3.7,2.82,-0.3450644120952898,-0.04116245350540307,0.8962326835746888,-0.04783970117504499,-0.351266,-23.997914
11.185,2.0,1.0,1.0,33.7,33.0,33.0,3.3,3.7,2.8225,-0.36057151070505955,-0.0413252528976977,0.8890282458883317,-0.04983709970458995,-0.360314,-23.776292
11.185,2.0,1.0,1.0,33.7,33.0,33.0,3.3,3.7,2.825,-0.3761068565303973,-0.04145589944042728,0.881436932322549,-0.05191527767840732,-0.369741,-23.551886
11.185,2.0,1.0,1.0,33.7,33.0,33.0,3.3,3.7,2.8275,-0.3916621936360433,-0.041551160888248666,0.8734482598068865,-0.054078056649576725,-0.37957,-23.324597
