1,w,sub_t,h,l1,l2,l3,g1,g2,Freq,S11_re,S21_re,S11_img,S21_img,S11_dB,S21_dB
11.185,2.0,1.0,1.0,34.5,33.5,33.5,3.4,3.2,2.5,0.698563949914631,-0.0111731703426552,0.70434970544034,0.00458556790108184,-0.069607,-38.360424
11.185,2.0,1.0,1.0,34.5,33.5,33.5,3.4,3.2,2.5025,0.6926980448131596,-0.011362090856448424,0.7100044163865502,0.004544245130446524,-0.070328,-38.246411
11.185,2.0,1.0,1.0,34.5,33.5,33.5,3.4,3.2,2.505,0.686754247697316,-0.01155367369590324,0.715639227522159,0.004500357336871906,-0.07106,-38.132115
11.185,2.0,1.0,1.0,34.5,33.5,33.5,3.4,3.2,2.5075,0.6807318326873327,-0.011747948505110272,0.7212533243413424,0.004453825407429406,-0.071805,-38.017531
11.185,2.0,1.0,1.0,34.5,33.5,33.5,3.4,3.2,2.51,0.6746300685500406,-0.011944944931045209,0.7268458703891993,0.004404567893734161,-0.072563,-37.902654
11.185,2.0,1.0,1.0,34.5,33.5,33.5,3.4,3.2,2.5125,0.6684482188544778,-0.012144692600196488,0.7324160066833348,0.004352500938762563,-0.073333,-37.78748
11.185,2.0,1.0,1.0,34.5,33.5,33.5,3.4,3.2,2.515,0.6621855421403359,-0.01234722109357761,0.7379628511217144,0.004297538201275949,-0.074116,-37.672002
11.185,2.0,1.0,1.0,34.5,33.5,33.5,3.4,3.2,2.5175,0.6558412920998957,-0.012552559920033434,0.7434854978765433,0.0042395907777703625,-0.074913,-37.556217
11.185,2.0,1.0,1.0,34.5,33.5,33.5,3.4,3.2,2.52,0.6494147177740962,-0.01276073848774673,0.7489830167739646,0.004178567121870907,-0.075724,-37.440118
11.185,2.0,1.0,1.0,34.5,33.5,33.5,3.4,3.2,2.5225,0.6429050637634538,-0.012971786073844364,0.75445445265933,0.004114372961084999,-0.076549,-37.3237
11.185,2.0,1.0,1.0,34.5,33.5,33.5,3.4,3.2,2.525,0.636311570454533,-0.01318573179199951,0.7598988247478472,0.004046911210827525,-0.077388,-37.206958
11.185,2.0,1.0,1.0,34.5,33.5,33.5,3.4,3.2,2.5275,0.6296334742627256,-0.013402604557919057,0.7653151259603834,0.003976081885626446,-0.078241,-37.089887
11.185,2.0,1.0,1.0,34.5,33.5,33.5,3.4,3.2,2.53,0.6228700078921247,-0.013622433052600393,0.770702322244217,0.003901782007415553,-0.07911,-36.97248
11.185,2.0,1.0,1.0,34.5,33.5,33.5,3.4,3.2,2.5325,0.6160204006133043,-0.013845245683235547,0.7760593518785401,0.003823905510816745,-0.079994,-36.854732
11.185,2.0,1.0,1.0,34.5,33.5,33.5,3.4,3.2,2.535,0.6090838785598484,-0.014071070541634702,0.7813851247645295,0.003742343145312032,-0.080894,-36.736638
11.185,2.0,1.0,1.0,34.5,33.5,33.5,3.4,3.2,2.5375,0.6020596650445202,-0.014299935360033381,0.7866785216997892,0.0036569823742006874,-0.08181,-36.618192
11.185,2.0,1.0,1.0,34.5,33.5,33.5,3.4,3.2,2.54,0.5949469808959804,-0.014531867464141734,0.7919383936370021,0.0035677072702348313,-0.082742,-36.499387
11.185,2.0,1.0,1.0,34.5,33.5,33.5,3.4,3.2,2.5425,0.5877450448170091,-0.01476689372328622,0.7971635609266342,0.0034743984078213323,-0.083691,-36.380219
11.185,2.0,1.0,1.0,34.5,33.5,33.5,3.4,3.2,2.545,0.5804530737652251,-0.01500504049748667,0.8023528125435339,0.003376932751675823,-0.084657,-36.26068
11.185,2.0,1.0,1.0,34.5,33.5,33.5,3.4,3.2,2.5475,0.5730702833573379,-0.01524633358130215,0.8075049052972902,0.003275183541808698,-0.08564,-36.140766
11.185,2.0,1.0,1.0,34.5,33.5,33.5,3.4,3.2,2.55,0.5655958882979837,-0.015490798144273206,0.8126185630262479,0.0031690201747203253,-0.086642,-36.020469
11.185,2.0,1.0,1.0,34.5,33.5,33.5,3.4,3.2,2.5525,0.5580291028342887,-0.015738458667775086,0.8176924757750432,0.003058308080677143,-0.087662,-35.899785
11.185,2.0,1.0,1.0,34.5,33.5,33.5,3.4,3.2,2.555,0.5503691412372859,-0.01598933887809065,0.8227252989556092,0.0029429085969363035,-0.088701,-35.778705
11.185,2.0,1.0,1.0,34.5,33.5,33.5,3.4,3.2,2.5575,0.5426152183113941,-0.016243461675499046,0.8277156524915613,0.002822678836781097,-0.089758,-35.657225
11.185,2.0,1.0,1.0,34.5,33.5,33.5,3.4,3.2,2.56,0.5347665499332097,-0.016500849059166673,0.8326621199459202,0.0026974715542253517,-0.090836,-35.535337
11.185,2.0,1.0,1.0,34.5,33.5,33.5,3.4,3.2,2.5625,0.5268223536208941,-0.01676152204761518,0.8375632476321563,0.0025671350042381193,-0.091934,-35.413035
11.185,2.0,1.0,1.0,34.5,33.5,33.5,3.4,3.2,2.565,0.5187818491354923,-0.017025500594530264,0.84241754370855,0.002431512798335936,-0.093052,-35.290313
11.185,2.0,1.0,1.0,34.5,33.5,33.5,3.4,3.2,2.5675,0.5106442591155816,-0.017292803499660718,0.847223477255898,0.002290443755382847,-0.094191,-35.167163
11.185,2.0,1.0,1.0,34.5,33.5,33.5,3.4,3.2,2.57,0.5024088097466787,-0.0175634483145465,0.8519794773386166,0.0021437617474332963,-0.095352,-35.043579
11.185,2.0,1.0,1.0,34.5,33.5,33.5,3.4,3.2,2.5725,0.4940747314668939,-0.01783745124279811,0.8566839320493396,0.0019912955404448145,-0.096535,-34.919554
11.185,2.0,1.0,1.0,34.5,33.5,33.5,3.4,3.2,2.575,0.48564125971038036,-0.01811482703463682,0.8613351875371168,0.0018328686296829387,-0.097741,-34.795081
11.185,2.0,1.0,1.0,34.5,33.5,33.5,3.4,3.2,2.5775,0.47710763569017045,-0.018395588875388356,0.8659315470193781,0.0016682990696310867,-0.098969,-34.670153
11.185,2.0,1.0,1.0,34.5,33.5,33.5,3.4,3.2,2.58,0.46847310722205904,-0.018679748267606815,0.8704712697778478,0.001497399298212037,-0.100222,-34.544762
11.185,2.0,1.0,1.0,34.5,33.5,33.5,3.4,3.2,2.5825,0.459736929591228,-0.018967314906488602,0.8749525701386405,0.001319975955118903,-0.101499,-34.418901
11.185,2.0,1.0,1.0,34.5,33.5,33.5,3.4,3.2,2.585,0.4508983664633973,-0.01925829654821639,0.8793736164368227,0.0011358296940446341,-0.1028,-34.292562
11.185,2.0,1.0,1.0,34.5,33.5,33.5,3.4,3.2,2.5875,0.44195669084230704,-0.01955269887085565,0.8837325299657507,0.0009447549885905893,-0.104128,-34.165738
11.185,2.0,1.0,1.0,34.5,33.5,33.5,3.4,3.2,2.59,0.4329111860754389,-0.01985052532740337,0.8880273839115522,0.0007465399316240816,-0.105481,-34.038422
11.185,2.0,1.0,1.0,34.5,33.5,33.5,3.4,3.2,2.5925,0.42376114690990374,-0.02015177699056901,0.8922562022731836,0.0005409660278447126,-0.106861,-33.910604
11.185,2.0,1.0,1.0,34.5,33.5,33.5,3.4,3.2,2.595,0.4145058806005274,-0.020456452388842052,0.8964169587685159,0.000327807979308688,-0.108268,-33.782279
11.185,2.0,1.0,1.0,34.5,33.5,33.5,3.4,3.2,2.5975,0.4051447080721859,-0.020764547333378795,0.9005075757270041,0.00010683346364703908,-0.109704,-33.653436
11.185,2.0,1.0,1.0,34.5,33.5,33.5,3.4,3.2,2.6,0.39567696513854,-0.021076054735212065,0.9045259229695157,-0.00012219709529774183,-0.111168,-33.524068
11.185,2.0,1.0,1.0,34.5,33.5,33.5,3.4,3.2,2.6025,0.38610200377937676,-0.021390964412261668,0.9084698166759771,-0.00035953076470678406,-0.112662,-33.394166
11.185,2.0,1.0,1.0,34.5,33.5,33.5,3.4,3.2,2.605,0.37641919347881714,-0.02170926288559304,0.9123370182415663,-0.0006054223481957876,-0.114186,-33.263722
11.185,2.0,1.0,1.0,34.5,33.5,33.5,3.4,3.2,2.6075,0.3666279226267289,-0.02203093316434004,0.9161252331222464,-0.000860134639723062,-0.115742,-33.132727
11.185,2.0,1.0,1.0,34.5,33.5,33.5,3.4,3.2,2.61,0.3567275999857619,-0.02235595451867457,0.9198321096704978,-0.0011239386863313111,-0.117329,-33.001173
11.185,2.0,1.0,1.0,34.5,33.5,33.5,3.4,3.2,2.6125,0.34671765622646405,-0.022684302240169887,0.9234552379622079,-0.0013971140600800764,-0.118949,-32.869049
11.185,2.0,1.0,1.0,34.5,33.5,33.5,3.4,3.2,2.615,0.3365975455330199,-0.023015947388866344,0.9269921486157491,-0.0016799491395441915,-0.120602,-32.736347
11.185,2.0,1.0,1.0,34.5,33.5,33.5,3.4,3.2,2.6175,0.3263667472822415,-0.023350856526306443,0.9304403116043399,-0.001972741401276558,-0.12229,-32.603057
11.185,2.0,1.0,1.0,34.5,33.5,33.5,3.4,3.2,2.62,0.31602476779847744,-0.023688991433764312,0.9337971350629117,-0.0022757977216554905,-0.124013,-32.46917
11.185,2.0,1.0,1.0,34.5,33.5,33.5,3.4,3.2,2.6225,0.30557114218719,-0.024030308814846458,0.9370599640907763,-0.0025894346895645004,-0.125773,-32.334675
11.185,2.0,1.0,1.0,34.5,33.5,33.5,3.4,3.2,2.625,0.295005436250052,-0.0243747599815899,0.940226079551461,-0.00291397893037677,-0.127569,-32.199563
11.185,2.0,1.0,1.0,34.5,33.5,33.5,3.4,3.2,2.6275,0.28432724848441576,-0.024722290523132223,0.9432926968712422,-0.0032497674417508,-0.129404,-32.063824
11.185,2.0,1.0,1.0,34.5,33.5,33.5,3.4,3.2,2.63,0.2735362121701616,-0.025072839955967357,0.9462569648379265,-0.003597147941772057,-0.131279,-31.927446
11.185,2.0,1.0,1.0,34.5,33.5,33.5,3.4,3.2,2.6325,0.2626319975469292,-0.02542634135474035,0.949115964401627,-0.003956479230014755,-0.133193,-31.790419
11.185,2.0,1.0,1.0,34.5,33.5,33.5,3.4,3.2,2.635,0.25161431408486645,-0.025782720962466192,0.9518667074793012,-0.004328131562134583,-0.135149,-31.652733
11.185,2.0,1.0,1.0,34.5,33.5,33.5,3.4,3.2,2.6375,0.2404829128520729,-0.02614189777898476,0.9545061357650005,-0.004712487038646235,-0.137148,-31.514375
11.185,2.0,1.0,1.0,34.5,33.5,33.5,3.4,3.2,2.64,0.2292375889819663,-0.026503783126387185,0.9570311195478622,-0.005109940008587034,-0.13919,-31.375335
11.185,2.0,1.0,1.0,34.5,33.5,33.5,3.4,3.2,2.6425,0.21787818424393696,-0.02686828019006089,0.9594384565399828,-0.005520897488816895,-0.141278,-31.2356
11.185,2.0,1.0,1.0,34.5,33.5,33.5,3.4,3.2,2.645,0.20640458972065573,-0.027235283533911286,0.9617248707164668,-0.0059457795997623205,-0.143411,-31.095158
11.185,2.0,1.0,1.0,34.5,33.5,33.5,3.4,3.2,2.6475,0.19481674859552794,-0.02760467858821532,0.9638870111700251,-0.006385020018471604,-0.145593,-30.953998
11.185,2.0,1.0,1.0,34.5,33.5,33.5,3.4,3.2,2.65,0.18311465905381036,-0.027976341108455732,0.9659214509826439,-0.006839066449916345,-0.147823,-30.812106
11.185,2.0,1.0,1.0,34.5,33.5,33.5,3.4,3.2,2.6525,0.1712983773010589,-0.02835013660336272,0.9678246861169498,-0.007308381117546526,-0.150104,-30.669469
11.185,2.0,1.0,1.0,34.5,33.5,33.5,3.4,3.2,2.655,0.15936802070254785,-0.02872591973026408,0.9695931343300317,-0.007793441274187357,-0.152437,-30.526074
11.185,2.0,1.0,1.0,34.5,33.5,33.5,3.4,3.2,2.6575,0.14732377104746833,-0.029103533655700196,0.9712231341125857,-0.00829473973445446,-0.154823,-30.381906
11.185,2.0,1.0,1.0,34.5,33.5,33.5,3.4,3.2,2.66,0.13516587794174742,-0.02948280937910696,0.9727109436563673,-0.008812785429960127,-0.157264,-30.236953
11.185,2.0,1.0,1.0,34.5,33.5,33.5,3.4,3.2,2.6625,0.12289466233344035,-0.02986356501719909,0.9740527398530491,-0.009348103988690145,-0.159762,-30.091199
11.185,2.0,1.0,1.0,34.5,33.5,33.5,3.4,3.2,2.665,0.1105105201746875,-0.030245605046501332,0.9752446173276937,-0.009901238340048017,-0.162318,-29.94463
11.185,2.0,1.0,1.0,34.5,33.5,33.5,3.4,3.2,2.6675,0.09801392622439048,-0.030628719501267075,0.9762825875101456,-0.010472749347190722,-0.164935,-29.797229
11.185,2.0,1.0,1.0,34.5,33.5,33.5,3.4,3.2,2.67,0.08540543799580069,-0.03101268312380212,0.9771625777477362,-0.011063216468422907,-0.167614,-29.648981
11.185,2.0,1.0,1.0,34.5,33.5,33.5,3.4,3.2,2.6725,0.07268569985334364,-0.0313972544639592,0.9778804304627842,-0.011673238449571235,-0.170356,-29.49987
11.185,2.0,1.0,1.0,34.5,33.5,33.5,3.4,3.2,2.675,0.05985544726312641,-0.03178217492429467,0.978431902358452,-0.012303434049430715,-0.173165,-29.349878
11.185,2.0,1.0,1.0,34.5,33.5,33.5,3.4,3.2,2.6775,0.04691551120169164,-0.03216716774707548,0.9788126636765502,-0.01295444280056474,-0.176042,-29.198989
11.185,2.0,1.0,1.0,34.5,33.5,33.5,3.4,3.2,2.68,0.033866822727729756,-0.03255193693898613,0.979018297510953,-0.01362692580794546,-0.17899,-29.047184
11.185,2.0,1.0,1.0,34.5,33.5,33.5,3.4,3.2,2.6825,0.02071041772161553,-0.03293616612901138,0.9790442991802984,-0.014321566588150448,-0.18201,-28.894445
11.185,2.0,1.0,1.0,34.5,33.5,33.5,3.4,3.2,2.685,0.007447441797842441,-0.03331951735455528,0.9788860756636169,-0.015039071952080972,-0.185106,-28.740753
11.185,2.0,1.0,1.0,34.5,33.5,33.5,3.4,3.2,2.6875,-0.005920844604415548,-0.033701629770394405,0.9785389451025679,-0.015780172934443712,-0.188279,-28.586086
11.185,2.0,1.0,1.0,34.5,33.5,33.5,3.4,3.2,2.69,-0.01939306094706505,-0.03408211827454562,0.977998136373842,-0.01654562577353963,-0.191532,-28.430426
11.185,2.0,1.0,1.0,34.5,33.5,33.5,3.4,3.2,2.6925,-0.032967701129457294,-0.03446057204455679,0.977258788735241,-0.017336212945239318,-0.194869,-28.273751
11.185,2.0,1.0,1.0,34.5,33.5,33.5,3.4,3.2,2.695,-0.04664312782918813,-0.03483655297708096,0.9763159515487994,-0.018152744255388445,-0.198291,-28.116038
11.185,2.0,1.0,1.0,34.5,33.5,33.5,3.4,3.2,2.6975,-0.06041756664093054,-0.035209594022880264,0.9751645840841532,-0.018996057995293438,-0.201803,-27.957265
11.185,2.0,1.0,1.0,34.5,33.5,33.5,3.4,3.2,2.7,-0.07428910000634775,-0.035579197408592896,0.9737995554051325,-0.019867022165378077,-0.205407,-27.797408
11.185,2.0,1.0,1.0,34.5,33.5,33.5,3.4,3.2,2.7025,-0.08825566092771199,-0.03594483273569719,0.9722156443422997,-0.020766535772592517,-0.209106,-27.636442
11.185,2.0,1.0,1.0,34.5,33.5,33.5,3.4,3.2,2.705,-0.10231502645719691,-0.036305934946085576,0.9704075395537977,-0.021695530207689117,-0.212905,-27.474341
11.185,2.0,1.0,1.0,34.5,33.5,33.5,3.4,3.2,2.7075,-0.11646481095321556,-0.036661902142518625,0.9683698396765126,-0.02265497070907097,-0.216806,-27.311079
11.185,2.0,1.0,1.0,34.5,33.5,33.5,3.4,3.2,2.71,-0.13070245909423334,-0.03701209325094016,0.9660970535690337,-0.023645857920562903,-0.220814,-27.146629
11.185,2.0,1.0,1.0,34.5,33.5,33.5,3.4,3.2,2.7125,-0.14502523863971295,-0.03735582551017947,0.9635836006473991,-0.0246692295511668,-0.224933,-26.980961
11.185,2.0,1.0,1.0,34.5,33.5,33.5,3.4,3.2,2.715,-0.15943023292657063,-0.03769237177292425,0.960823811313905,-0.025726162145638436,-0.229167,-26.814045
11.185,2.0,1.0,1.0,34.5,33.5,33.5,3.4,3.2,2.7175,-0.17391433308840928,-0.038020957599990794,0.957811927478577,-0.02681777297557817,-0.233521,-26.64585
11.185,2.0,1.0,1.0,34.5,33.5,33.5,3.4,3.2,2.72,-0.188474229983105,-0.03834075812781207,0.9545421031719945,-0.027945222061659496,-0.237999,-26.476343
11.185,2.0,1.0,1.0,34.5,33.5,33.5,3.4,3.2,2.7225,-0.2031064058127753,-0.03865089468668136,0.9510084052472324,-0.02910971433864545,-0.242608,-26.30549
11.185,2.0,1.0,1.0,34.5,33.5,33.5,3.4,3.2,2.725,-0.21780712541787048,-0.03895043114457821,0.9472048141675428,-0.030312501975952942,-0.247351,-26.133256
11.185,2.0,1.0,1.0,34.5,33.5,33.5,3.4,3.2,2.7275,-0.23257242722495547,-0.03923836994832439,0.9431252248751923,-0.031554886867754026,-0.252235,-25.959603
11.185,2.0,1.0,1.0,34.5,33.5,33.5,3.4,3.2,2.73,-0.24739811382476623,-0.03951364783031244,0.9387634477354441,-0.032838223307923,-0.257266,-25.784492
11.185,2.0,1.0,1.0,34.5,33.5,33.5,3.4,3.2,2.7325,-0.2622797421539915,-0.03977513114505174,0.9341132095481501,-0.034163920866592735,-0.262451,-25.607882
11.185,2.0,1.0,1.0,34.5,33.5,33.5,3.4,3.2,2.735,-0.27721261325032087,-0.040021610795214366,0.9291681546176479,-0.03553344748664918,-0.267796,-25.429731
11.185,2.0,1.0,1.0,34.5,33.5,33.5,3.4,3.2,2.7375,-0.2921917615459174,-0.04025179670164862,0.923921845869767,-0.036948332820200096,-0.273309,-25.249994
11.185,2.0,1.0,1.0,34.5,33.5,33.5,3.4,3.2,2.74,-0.3072119436592467,-0.04046431176585631,0.9183677660026258,-0.03841017182689001,-0.278997,-25.068625
11.185,2.0,1.0,1.0,34.5,33.5,33.5,3.4,3.2,2.7425,-0.32226762663916797,-0.04065768526658523,0.9124993186555665,-0.039920628657918095,-0.284869,-24.885573
11.185,2.0,1.0,1.0,34.5,33.5,33.5,3.4,3.2,2.745,-0.33735297560813005,-0.04083034562432983,0.9063098295780767,-0.04148144085173711,-0.290934,-24.700788
11.185,2.0,1.0,1.0,34.5,33.5,33.5,3.4,3.2,2.7475,-0.3524618407430284,-0.04098061245849599,0.8997925477777419,-0.04309442386968143,-0.297201,-24.514214
11.185,2.0,1.0,1.0,34.5,33.5,33.5,3.4,3.2,2.75,-0.367587743522793,-0.0411066878515775,0.892940646623399,-0.0447614760021757,-0.30368,-24.325796
11.185,2.0,1.0,1.0,34.5,33.5,33.5,3.4,3.2,2.7525,-0.3827238621603793,-0.04120664672268889,0.8857472248763871,-0.046484583678707,-0.310383,-24.135473
11.185,2.0,1.0,1.0,34.5,33.5,33.5,3.4,3.2,2.755,-0.39786301612388325,-0.04127842619892663,0.8782053076195412,-0.04826582721737816,-0.317321,-23.943181
11.185,2.0,1.0,1.0,34.5,33.5,33.5,3.4,3.2,2.7575,-0.4129976496361042,-0.041319813856980775,0.8703078470499532,-0.050107387052580325,-0.324507,-23.748855
11.185,2.0,1.0,1.0,34.5,33.5,33.5,3.4,3.2,2.76,-0.4281198140239448,-0.041328434688807404,0.8620477230979542,-0.05201155048205508,-0.331954,-23.552424
11.185,2.0,1.0,1.0,34.5,33.5,33.5,3.4,3.2,2.7625,-0.4432211487681376,-0.04130173662356166,0.8534177438310283,-0.053980718977336625,-0.339678,-23.353814
11.185,2.0,1.0,1.0,34.5,33.5,33.5,3.4,3.2,2.765,-0.45829286107913847,-0.04123697441284674,0.8444106455977017,-0.05601741610413883,-0.347693,-23.152947
11.185,2.0,1.0,1.0,34.5,33.5,33.5,3.4,3.2,2.7675,-0.4733257037962257,-0.04113119165702513,0.8350190928629435,-0.05812429610158301,-0.356017,-22.949742
11.185,2.0,1.0,1.0,34.5,33.5,33.5,3.4,3.2,2.77,-0.4883099513730777,-0.04098120071611284,0.825235677683434,-0.0603041531710695,-0.364669,-22.74411
11.185,2.0,1.0,1.0,34.5,33.5,33.5,3.4,3.2,2.7725,-0.5032353736732204,-0.04078356020873283,0.8150529187684076,-0.0625599315268352,-0.373669,-22.535959
11.185,2.0,1.0,1.0,34.5,33.5,33.5,3.4,3.2,2.775,-0.5180912072519583,-0.040534549755650164,0.804463260070093,-0.0648947362605132,-0.383039,-22.325193
11.185,2.0,1.0,1.0,34.5,33.5,33.5,3.4,3.2,2.7775,-0.5328661237463017,-0.040230141569262606,0.7934590688473225,-0.06731184507088807,-0.392802,-22.111709
11.185,2.0,1.0,1.0,34.5,33.5,33.5,3.4,3.2,2.78,-0.5475481949290877,-0.039865968425492816,0.7820326331473602,-0.0698147209069633,-0.402986,-21.895396
11.185,2.0,1.0,1.0,34.5,33.5,33.5,3.4,3.2,2.7825,-0.5621248539065917,-0.03943728747794688,0.7701761586551339,-0.07240702556667523,-0.413617,-21.676139
11.185,2.0,1.0,1.0,34.5,33.5,33.5,3.4,3.2,2.785,-0.5765828518476511,-0.03893893928367146,0.7578817648668034,-0.0750926342841275,-0.424729,-21.453816
11.185,2.0,1.0,1.0,34.5,33.5,33.5,3.4,3.2,2.7875,-0.5909082095240062,-0.03836530130260259,0.7451414805574277,-0.077875651323725,-0.436354,-21.228295
11.185,2.0,1.0,1.0,34.5,33.5,33.5,3.4,3.2,2.79,-0.6050861628130648,-0.03771023500548643,0.7319472385320426,-0.08076042657835635,-0.448532,-20.999439
11.185,2.0,1.0,1.0,34.5,33.5,33.5,3.4,3.2,2.7925,-0.619101101160869,-0.03696702557359731,0.7182908696782504,-0.08375157313843379,-0.461302,-20.7671
11.185,2.0,1.0,1.0,34.5,33.5,33.5,3.4,3.2,2.795,-0.6329364978205548,-0.036128312993008053,0.7041640963794465,-0.08685398575610477,-0.474712,-20.531122
11.185,2.0,1.0,1.0,34.5,33.5,33.5,3.4,3.2,2.7975,-0.6465748304629076,-0.035186013130455614,0.6895585254055215,-0.09007286007012631,-0.488812,-20.291338
11.185,2.0,1.0,1.0,34.5,33.5,33.5,3.4,3.2,2.8,-0.6599974904943822,-0.03413122711959904,0.6744656404774856,-0.09341371237631864,-0.503658,-20.047571
11.185,2.0,1.0,1.0,34.5,33.5,33.5,3.4,3.2,2.8025,-0.6731846791040756,-0.03295413707673251,0.6588767948118639,-0.09688239961878321,-0.519314,-19.799631
11.185,2.0,1.0,1.0,34.5,33.5,33.5,3.4,3.2,2.805,-0.6861152876844033,-0.031643885792814484,0.64278320409968,-0.10048513912839602,-0.535849,-19.547319
11.185,2.0,1.0,1.0,34.5,33.5,33.5,3.4,3.2,2.8075,-0.6987667598167548,-0.03018843760067514,0.6261759405767124,-0.10422852743428279,-0.553341,-19.290418
11.185,2.0,1.0,1.0,34.5,33.5,33.5,3.4,3.2,2.81,-0.7111149314669771,-0.028574417076233868,0.609045929114824,-0.10811955720327893,-0.571879,-19.028699
11.185,2.0,1.0,1.0,34.5,33.5,33.5,3.4,3.2,2.8125,-0.7231338453764476,-0.026786921580828293,0.5913839466326024,-0.11216563099783647,-0.591562,-18.761919
11.185,2.0,1.0,1.0,34.5,33.5,33.5,3.4,3.2,2.815,-0.7347955348388889,-0.0248093028645739,0.5731806266203411,-0.11637457005206647,-0.612499,-18.489815
11.185,2.0,1.0,1.0,34.5,33.5,33.5,3.4,3.2,2.8175,-0.7460697710925611,-0.022622911999607524,0.5544264712442044,-0.12075461560456574,-0.634818,-18.212108
11.185,2.0,1.0,1.0,34.5,33.5,33.5,3.4,3.2,2.82,-0.7569237673980429,-0.020206800763386677,0.5351118743981685,-0.12531441943548258,-0.658662,-17.9285
11.185,2.0,1.0,1.0,34.5,33.5,33.5,3.4,3.2,2.8225,-0.767321831474767,-0.017537371206568175,0.5152271602927797,-0.1300630190520738,-0.684192,-17.638673
11.185,2.0,1.0,1.0,34.5,33.5,33.5,3.4,3.2,2.825,-0.777224956289551,-0.01458796347253958,0.49476264382099183,-0.1350097913396367,-0.711595,-17.342284
11.185,2.0,1.0,1.0,34.5,33.5,33.5,3.4,3.2,2.8275,-0.7865903371797012,-0.011328369937248258,0.4737087211791744,-0.140164376289051,-0.741084,-17.03897
