1,w,sub_t,h,l1,l2,l3,g1,g2,Freq,S11_re,S21_re,S11_img,S21_img,S11_dB,S21_dB
11.185,2.0,1.0,1.0,33.7,34.2,34.2,3.5,2.7,2.5,0.824984291587318,-0.00815790213760438,0.553235906861134,0.00584971210522942,-0.058285,-39.966666
11.185,2.0,1.0,1.0,33.7,34.2,34.2,3.5,2.7,2.5025,0.8210922376265009,-0.008320478791128757,0.5588780318523485,0.005868271241993518,-0.058866,-39.843596
11.185,2.0,1.0,1.0,33.7,34.2,34.2,3.5,2.7,2.505,0.8171433886783118,-0.008486058580044656,0.5645170277080587,0.005885901792139936,-0.059457,-39.720105
11.185,2.0,1.0,1.0,33.7,34.2,34.2,3.5,2.7,2.5075,0.81313716881805,-0.008654707066482362,0.5701525756325784,0.00590256387080603,-0.060059,-39.596184
11.185,2.0,1.0,1.0,33.7,34.2,34.2,3.5,2.7,2.51,0.8090729930514374,-0.008826491671584705,0.5757843472791856,0.005918216023135587,-0.060673,-39.471821
11.185,2.0,1.0,1.0,33.7,34.2,34.2,3.5,2.7,2.5125,0.8049502671641363,-0.009001481741567523,0.5814120044416867,0.005932815154615312,-0.061298,-39.347006
11.185,2.0,1.0,1.0,33.7,34.2,34.2,3.5,2.7,2.515,0.8007683875686251,-0.009179748616638934,0.5870351987354482,0.005946316457854471,-0.061934,-39.221727
11.185,2.0,1.0,1.0,33.7,34.2,34.2,3.5,2.7,2.5175,0.7965267411483782,-0.00936136570292413,0.5926535712674588,0.005958673335597568,-0.062583,-39.095975
11.185,2.0,1.0,1.0,33.7,34.2,34.2,3.5,2.7,2.52,0.7922247050992705,-0.009546408547552026,0.5982667522950088,0.005969837319747491,-0.063244,-38.969737
11.185,2.0,1.0,1.0,33.7,34.2,34.2,3.5,2.7,2.5225,0.7878616467681456,-0.00973495491706773,0.6038743608725049,0.005979757986159357,-0.063918,-38.843001
11.185,2.0,1.0,1.0,33.7,34.2,34.2,3.5,2.7,2.525,0.7834369234884607,-0.009927084879346668,0.6094760044859607,0.005988382864950713,-0.064604,-38.715757
11.185,2.0,1.0,1.0,33.7,34.2,34.2,3.5,2.7,2.5275,0.7789498824129271,-0.010122880889195683,0.6150712786746514,0.005995657346054904,-0.065304,-38.587992
11.185,2.0,1.0,1.0,33.7,34.2,34.2,3.5,2.7,2.53,0.7743998603430654,-0.010322427877837692,0.6206597666393999,0.006001524579726505,-0.066018,-38.459694
11.185,2.0,1.0,1.0,33.7,34.2,34.2,3.5,2.7,2.5325,0.769786183555576,-0.010525813346489112,0.6262410388369416,0.006005925371685493,-0.066746,-38.33085
11.185,2.0,1.0,1.0,33.7,34.2,34.2,3.5,2.7,2.535,0.765108167625425,-0.010733127464252253,0.6318146525597835,0.0060087980725671555,-0.067489,-38.201448
11.185,2.0,1.0,1.0,33.7,34.2,34.2,3.5,2.7,2.5375,0.7603651172455468,-0.010944463170557825,0.6373801515009334,0.006010078461318438,-0.068246,-38.071474
11.185,2.0,1.0,1.0,33.7,34.2,34.2,3.5,2.7,2.54,0.75555632604304,-0.011159916282409001,0.642937065302854,0.006009699622157115,-0.069019,-37.940916
11.185,2.0,1.0,1.0,33.7,34.2,34.2,3.5,2.7,2.5425,0.7506810763917411,-0.011379585606692765,0.648484909089958,0.006007591814681834,-0.069807,-37.80976
11.185,2.0,1.0,1.0,33.7,34.2,34.2,3.5,2.7,2.545,0.7457386392210382,-0.011603573057842612,0.6540231829839168,0.006003682336690321,-0.070612,-37.677993
11.185,2.0,1.0,1.0,33.7,34.2,34.2,3.5,2.7,2.5475,0.7407282738207975,-0.011831983781153963,0.6595513716010154,0.0059978953792315295,-0.071433,-37.545599
11.185,2.0,1.0,1.0,33.7,34.2,34.2,3.5,2.7,2.55,0.7356492276422276,-0.012064926282073495,0.6650689435307562,0.005990151873379859,-0.072272,-37.412565
11.185,2.0,1.0,1.0,33.7,34.2,34.2,3.5,2.7,2.5525,0.730500736094547,-0.012302512561804584,0.6705753507948401,0.005980369328184624,-0.073128,-37.278876
11.185,2.0,1.0,1.0,33.7,34.2,34.2,3.5,2.7,2.555,0.7252820223372546,-0.012544858259593322,0.6760700282856369,0.005968461659201347,-0.074002,-37.144517
11.185,2.0,1.0,1.0,33.7,34.2,34.2,3.5,2.7,2.5575,0.7199922970678205,-0.01279208280208386,0.6815523931831746,0.005954339006971383,-0.074895,-37.009472
11.185,2.0,1.0,1.0,33.7,34.2,34.2,3.5,2.7,2.56,0.7146307583045985,-0.01304430956015734,0.6870218443496329,0.005937907544762318,-0.075808,-36.873726
11.185,2.0,1.0,1.0,33.7,34.2,34.2,3.5,2.7,2.5625,0.7091965911647269,-0.013301666013696655,0.6924777617002588,0.005919069274831775,-0.07674,-36.737262
11.185,2.0,1.0,1.0,33.7,34.2,34.2,3.5,2.7,2.565,0.7036889676367782,-0.013564283924749341,0.6979195055495623,0.005897721812416022,-0.077692,-36.600064
11.185,2.0,1.0,1.0,33.7,34.2,34.2,3.5,2.7,2.5675,0.6981070463479052,-0.013832299519592217,0.7033464159315576,0.005873758156583488,-0.078666,-36.462115
11.185,2.0,1.0,1.0,33.7,34.2,34.2,3.5,2.7,2.57,0.6924499723251868,-0.014105853680236697,0.7087578118927622,0.005847066447021985,-0.079661,-36.323398
11.185,2.0,1.0,1.0,33.7,34.2,34.2,3.5,2.7,2.5725,0.6867168767508737,-0.014385092145950415,0.7141529907565606,0.0058175297057549225,-0.080679,-36.183895
11.185,2.0,1.0,1.0,33.7,34.2,34.2,3.5,2.7,2.575,0.6809068767111943,-0.014670165725410453,0.7195312273574541,0.005785025562697341,-0.081719,-36.043586
11.185,2.0,1.0,1.0,33.7,34.2,34.2,3.5,2.7,2.5775,0.6750190749383621,-0.014961230520146961,0.7248917732436144,0.005749425963873795,-0.082784,-35.902455
11.185,2.0,1.0,1.0,33.7,34.2,34.2,3.5,2.7,2.58,0.6690525595453868,-0.015258448159981553,0.7302338558460526,0.005710596861020912,-0.083873,-35.760481
11.185,2.0,1.0,1.0,33.7,34.2,34.2,3.5,2.7,2.5825,0.6630064037532544,-0.01556198605121565,0.7355566776125951,0.005668397881189652,-0.084988,-35.617645
11.185,2.0,1.0,1.0,33.7,34.2,34.2,3.5,2.7,2.585,0.6568796656100165,-0.015872017638376375,0.7408594151047208,0.005622681974844185,-0.086128,-35.473926
11.185,2.0,1.0,1.0,33.7,34.2,34.2,3.5,2.7,2.5875,0.6506713877012663,-0.016188722680387096,0.7461412180551923,0.005573295040824304,-0.087296,-35.329303
11.185,2.0,1.0,1.0,33.7,34.2,34.2,3.5,2.7,2.59,0.64438059685146,-0.016512287542090477,0.751401208384227,0.005520075526396778,-0.088492,-35.183756
11.185,2.0,1.0,1.0,33.7,34.2,34.2,3.5,2.7,2.5925,0.6380063038154589,-0.01684290550212095,0.7566384791718225,0.005462854000464222,-0.089717,-35.037261
11.185,2.0,1.0,1.0,33.7,34.2,34.2,3.5,2.7,2.595,0.6315475029596553,-0.017180777078194556,0.7618520935836283,0.005401452697828551,-0.090972,-34.889797
11.185,2.0,1.0,1.0,33.7,34.2,34.2,3.5,2.7,2.5975,0.6250031719319361,-0.01752611037096445,0.7670410837475921,0.005335685032216835,-0.092257,-34.741339
11.185,2.0,1.0,1.0,33.7,34.2,34.2,3.5,2.7,2.6,0.6183722713197138,-0.01787912142767362,0.772204449578354,0.005265355075570021,-0.093575,-34.591865
11.185,2.0,1.0,1.0,33.7,34.2,34.2,3.5,2.7,2.6025,0.6116537442951651,-0.018240034626928487,0.7773411575461324,0.005190257000864933,-0.094926,-34.441349
11.185,2.0,1.0,1.0,33.7,34.2,34.2,3.5,2.7,2.605,0.6048465162467339,-0.018609083086016446,0.7824501393865847,0.005110174485485865,-0.096312,-34.289765
11.185,2.0,1.0,1.0,33.7,34.2,34.2,3.5,2.7,2.6075,0.597949494395883,-0.01898650909229658,0.7875302907478127,0.005024880071885322,-0.097733,-34.137088
11.185,2.0,1.0,1.0,33.7,34.2,34.2,3.5,2.7,2.61,0.5909615673979788,-0.01937256456030818,0.7925804697703751,0.0049341344819594,-0.099191,-33.983289
11.185,2.0,1.0,1.0,33.7,34.2,34.2,3.5,2.7,2.6125,0.5838816049260879,-0.019767511516367745,0.7975994955957972,0.004837685881226492,-0.100687,-33.828342
11.185,2.0,1.0,1.0,33.7,34.2,34.2,3.5,2.7,2.615,0.5767084572363534,-0.020171622612558598,0.8025861467986843,0.004735269088513138,-0.102223,-33.672218
11.185,2.0,1.0,1.0,33.7,34.2,34.2,3.5,2.7,2.6175,0.5694409547135073,-0.020585181672163843,0.8075391597370856,0.004626604726434034,-0.1038,-33.514886
11.185,2.0,1.0,1.0,33.7,34.2,34.2,3.5,2.7,2.62,0.5620779073949252,-0.02100848426875093,0.8124572268153054,0.004511398307483705,-0.10542,-33.356315
11.185,2.0,1.0,1.0,33.7,34.2,34.2,3.5,2.7,2.6225,0.5546181044714934,-0.0214418383412866,0.8173389946527692,0.004389339250037853,-0.107085,-33.196475
11.185,2.0,1.0,1.0,33.7,34.2,34.2,3.5,2.7,2.625,0.547060313763408,-0.0218855648478438,0.822183062151999,0.00426009981798383,-0.108796,-33.035332
11.185,2.0,1.0,1.0,33.7,34.2,34.2,3.5,2.7,2.6275,0.5394032811688264,-0.022339998460663264,0.826987978458068,0.004123333977056231,-0.110555,-32.872851
11.185,2.0,1.0,1.0,33.7,34.2,34.2,3.5,2.7,2.63,0.5316457300831344,-0.022805488305544498,0.8317522408011426,0.003978676160232109,-0.112364,-32.708999
11.185,2.0,1.0,1.0,33.7,34.2,34.2,3.5,2.7,2.6325,0.5237863607863628,-0.023282398748774035,0.836474292212937,0.003825739933738069,-0.114226,-32.543738
11.185,2.0,1.0,1.0,33.7,34.2,34.2,3.5,2.7,2.635,0.5158238497960786,-0.02377111023504812,0.841152519106935,0.0036641165543234303,-0.116142,-32.377031
11.185,2.0,1.0,1.0,33.7,34.2,34.2,3.5,2.7,2.6375,0.5077568491828356,-0.02427202018011526,0.8457852487112161,0.0034933734074449026,-0.118114,-32.208838
11.185,2.0,1.0,1.0,33.7,34.2,34.2,3.5,2.7,2.64,0.4995839858449775,-0.024785543922155425,0.8503707463415919,0.0033130523148816736,-0.120146,-32.039119
11.185,2.0,1.0,1.0,33.7,34.2,34.2,3.5,2.7,2.6425,0.4913038607393512,-0.025312115736221257,0.8549072125014078,0.0031226676990309885,-0.122239,-31.867832
11.185,2.0,1.0,1.0,33.7,34.2,34.2,3.5,2.7,2.645,0.4829150480641366,-0.02585218991640298,0.8593927797929395,0.0029217045897098667,-0.124397,-31.694934
11.185,2.0,1.0,1.0,33.7,34.2,34.2,3.5,2.7,2.6475,0.4744160943896963,-0.026406241930734545,0.863825509623669,0.0027096164576838155,-0.126622,-31.520379
11.185,2.0,1.0,1.0,33.7,34.2,34.2,3.5,2.7,2.65,0.4658055177329582,-0.026974769654242635,0.8682033886888693,0.0024858228573341238,-0.128917,-31.344119
11.185,2.0,1.0,1.0,33.7,34.2,34.2,3.5,2.7,2.6525,0.45708180657052494,-0.02755829468594383,0.8725243252098209,0.0022497068588322442,-0.131287,-31.166107
11.185,2.0,1.0,1.0,33.7,34.2,34.2,3.5,2.7,2.655,0.4482434187852053,-0.02815736375603273,0.8767861449046701,0.002000612247880126,-0.133733,-30.986291
11.185,2.0,1.0,1.0,33.7,34.2,34.2,3.5,2.7,2.6575,0.43928878054031756,-0.02877255022995518,0.8809865866662021,0.0017378404684573376,-0.13626,-30.804618
11.185,2.0,1.0,1.0,33.7,34.2,34.2,3.5,2.7,2.66,0.4302162850755842,-0.02940445571654592,0.8851232979178483,0.0014606472810498295,-0.138872,-30.621034
11.185,2.0,1.0,1.0,33.7,34.2,34.2,3.5,2.7,2.6625,0.42102429141801045,-0.03005371178790789,0.8891938296157247,0.0011682391054607393,-0.141573,-30.43548
11.185,2.0,1.0,1.0,33.7,34.2,34.2,3.5,2.7,2.665,0.4117111230005775,-0.03072098181923457,0.8931956308606734,0.0008597690134691413,-0.144368,-30.247898
11.185,2.0,1.0,1.0,33.7,34.2,34.2,3.5,2.7,2.6675,0.40227506618112624,-0.031406962957304,0.8971260430797299,0.0005343323322253052,-0.147261,-30.058224
11.185,2.0,1.0,1.0,33.7,34.2,34.2,3.5,2.7,2.67,0.3927143686532161,-0.03211238822691595,0.9009822937314378,0.00019096181428123116,-0.150257,-29.866394
11.185,2.0,1.0,1.0,33.7,34.2,34.2,3.5,2.7,2.6725,0.38302723774025865,-0.03283802878507339,0.9047614894835336,-0.00017137767556079175,-0.153362,-29.67234
11.185,2.0,1.0,1.0,33.7,34.2,34.2,3.5,2.7,2.675,0.3732118385637013,-0.03358469633322312,0.9084606088049126,-0.0005537950129403665,-0.156583,-29.475991
11.185,2.0,1.0,1.0,33.7,34.2,34.2,3.5,2.7,2.6775,0.3632662920755423,-0.034353245698345525,0.9120764939061148,-0.0009574792700440861,-0.159924,-29.277272
11.185,2.0,1.0,1.0,33.7,34.2,34.2,3.5,2.7,2.68,0.3531886729450568,-0.035144577594094395,0.9156058419537638,-0.0013837068476351697,-0.163393,-29.076106
11.185,2.0,1.0,1.0,33.7,34.2,34.2,3.5,2.7,2.6825,0.342977007289276,-0.035959641573497084,0.9190451954742662,-0.0018338493654712067,-0.166998,-28.872413
11.185,2.0,1.0,1.0,33.7,34.2,34.2,3.5,2.7,2.685,0.3326292702365475,-0.036799439184898156,0.922390931850394,-0.002309382405065738,-0.170745,-28.666106
11.185,2.0,1.0,1.0,33.7,34.2,34.2,3.5,2.7,2.6875,0.32214338331252595,-0.037665027342792916,0.9256392518008034,-0.0028118952120395253,-0.174645,-28.457096
11.185,2.0,1.0,1.0,33.7,34.2,34.2,3.5,2.7,2.69,0.31151721163820345,-0.03855752192488686,0.9287861667168975,-0.0033431014807104834,-0.178705,-28.245291
11.185,2.0,1.0,1.0,33.7,34.2,34.2,3.5,2.7,2.6925,0.3007485609301809,-0.03947810160602748,0.9318274847132171,-0.003904851361467038,-0.182936,-28.030592
11.185,2.0,1.0,1.0,33.7,34.2,34.2,3.5,2.7,2.695,0.2898351742945837,-0.04042801193845139,0.9347587952263245,-0.004499144852287959,-0.187349,-27.812895
11.185,2.0,1.0,1.0,33.7,34.2,34.2,3.5,2.7,2.6975,0.27877472880771725,-0.041408569685916205,0.937575451972467,-0.005128146760068234,-0.191956,-27.592093
11.185,2.0,1.0,1.0,33.7,34.2,34.2,3.5,2.7,2.7,0.2675648318793173,-0.042421167416503085,0.940272554045359,-0.005794203445798765,-0.196769,-27.368072
11.185,2.0,1.0,1.0,33.7,34.2,34.2,3.5,2.7,2.7025,0.25620301739802825,-0.043467278354917586,0.9428449249015836,-0.006499861600920961,-0.201801,-27.14071
11.185,2.0,1.0,1.0,33.7,34.2,34.2,3.5,2.7,2.705,0.24468674166415832,-0.04454846148959087,0.9452870889413464,-0.007247889341241279,-0.20707,-26.909882
11.185,2.0,1.0,1.0,33.7,34.2,34.2,3.5,2.7,2.7075,0.23301337912211123,-0.04566636692232195,0.9475932453455268,-0.008041299950777294,-0.21259,-26.675455
11.185,2.0,1.0,1.0,33.7,34.2,34.2,3.5,2.7,2.71,0.22118021791501605,-0.04682274143795685,0.949757238774699,-0.008883378662159937,-0.21838,-26.437286
11.185,2.0,1.0,1.0,33.7,34.2,34.2,3.5,2.7,2.7125,0.20918445529752502,-0.048019434257862786,0.951772526470553,-0.009777712924387167,-0.22446,-26.195229
11.185,2.0,1.0,1.0,33.7,34.2,34.2,3.5,2.7,2.715,0.197023192960923,-0.049258402922627786,0.9536321412226271,-0.010728226684796466,-0.230852,-25.949124
11.185,2.0,1.0,1.0,33.7,34.2,34.2,3.5,2.7,2.7175,0.18469343234868615,-0.050541719225096024,0.9553286495713045,-0.011739219302544257,-0.23758,-25.698806
11.185,2.0,1.0,1.0,33.7,34.2,34.2,3.5,2.7,2.72,0.17219207007261192,-0.05187157508266764,0.9568541045082889,-0.01281540981860555,-0.244671,-25.444099
11.185,2.0,1.0,1.0,33.7,34.2,34.2,3.5,2.7,2.7225,0.15951589358179522,-0.05325028819530623,0.9581999918048125,-0.0139619874359861,-0.252155,-25.184814
11.185,2.0,1.0,1.0,33.7,34.2,34.2,3.5,2.7,2.725,0.14666157729256826,-0.05468030727965208,0.9593571689409386,-0.01518466921791169,-0.260064,-24.920753
11.185,2.0,1.0,1.0,33.7,34.2,34.2,3.5,2.7,2.7275,0.1336256794611029,-0.05616421659577121,0.9603157954209796,-0.016489766196715612,-0.268434,-24.651706
11.185,2.0,1.0,1.0,33.7,34.2,34.2,3.5,2.7,2.73,0.1204046401776765,-0.057704739385635216,0.9610652530334307,-0.017884259308688092,-0.277306,-24.377448
11.185,2.0,1.0,1.0,33.7,34.2,34.2,3.5,2.7,2.7325,0.10699478099008936,-0.05930473971384671,0.961594054340381,-0.01937588683859046,-0.286726,-24.097739
11.185,2.0,1.0,1.0,33.7,34.2,34.2,3.5,2.7,2.735,0.0933923068338511,-0.06096722203116735,0.9618897373507639,-0.02097324538203713,-0.296745,-23.812326
11.185,2.0,1.0,1.0,33.7,34.2,34.2,3.5,2.7,2.7375,0.07959331117210362,-0.0626953275563846,0.9619387439312641,-0.02268590672709265,-0.30742,-23.520936
11.185,2.0,1.0,1.0,33.7,34.2,34.2,3.5,2.7,2.74,0.06559378554776754,-0.06449232627343153,0.9617262790222734,-0.02452455353364486,-0.318815,-23.223279
11.185,2.0,1.0,1.0,33.7,34.2,34.2,3.5,2.7,2.7425,0.051389635149149876,-0.06636160294337254,0.9612361471347309,-0.026501137269383454,-0.331003,-22.919045
11.185,2.0,1.0,1.0,33.7,34.2,34.2,3.5,2.7,2.745,0.036976702522864835,-0.06830663500069604,0.9604505618831979,-0.028629062567702278,-0.344067,-22.607901
11.185,2.0,1.0,1.0,33.7,34.2,34.2,3.5,2.7,2.7475,0.02235080228154217,-0.07033095949356524,0.9593499234321534,-0.030923403033796145,-0.358102,-22.289492
11.185,2.0,1.0,1.0,33.7,34.2,34.2,3.5,2.7,2.75,0.00750777061341446,-0.0724381252740279,0.957912557661354,-0.0334011545746013,-0.373216,-21.963436
11.185,2.0,1.0,1.0,33.7,34.2,34.2,3.5,2.7,2.7525,-0.007556465304127698,-0.07463162535796126,0.9561144095508041,-0.03608153360644304,-0.389531,-21.629322
11.185,2.0,1.0,1.0,33.7,34.2,34.2,3.5,2.7,2.755,-0.022845791129611884,-0.07691480263265636,0.9539286816976336,-0.03898632904826968,-0.407192,-21.286711
11.185,2.0,1.0,1.0,33.7,34.2,34.2,3.5,2.7,2.7575,-0.038363773175267596,-0.07929071972089405,0.9513254069517522,-0.04214031889093511,-0.426361,-20.935128
11.185,2.0,1.0,1.0,33.7,34.2,34.2,3.5,2.7,2.76,-0.05411347770605102,-0.08176198057383298,0.9482709418361523,-0.045571764399868445,-0.447231,-20.574063
11.185,2.0,1.0,1.0,33.7,34.2,34.2,3.5,2.7,2.7625,-0.07009722472406328,-0.08433048692308147,0.9447273646459284,-0.049312997711958725,-0.470026,-20.202967
11.185,2.0,1.0,1.0,33.7,34.2,34.2,3.5,2.7,2.765,-0.08631625305530857,-0.0869971065974239,0.940651758858527,-0.0534011217630182,-0.495007,-19.821249
11.185,2.0,1.0,1.0,33.7,34.2,34.2,3.5,2.7,2.7675,-0.10277026497932923,-0.08976122222484188,0.935995358738744,-0.05787884512279851,-0.522483,-19.428271
11.185,2.0,1.0,1.0,33.7,34.2,34.2,3.5,2.7,2.77,-0.11945680670026208,-0.09262011703293926,0.930702529877843,-0.0627954783231382,-0.552819,-19.023347
11.185,2.0,1.0,1.0,33.7,34.2,34.2,3.5,2.7,2.7725,-0.13637042425765916,-0.09556813795910506,0.9247095531349923,-0.06820812236771231,-0.586453,-18.605738
11.185,2.0,1.0,1.0,33.7,34.2,34.2,3.5,2.7,2.775,-0.15350151103255688,-0.09859555313166202,0.9179431766518746,-0.07418308370385378,-0.623907,-18.174651
11.185,2.0,1.0,1.0,33.7,34.2,34.2,3.5,2.7,2.7775,-0.1708347299946725,-0.10168698820759024,0.9103188984978189,-0.08079755180608761,-0.66581,-17.729238
11.185,2.0,1.0,1.0,33.7,34.2,34.2,3.5,2.7,2.78,-0.18834684726904868,-0.10481928012894128,0.9017389443835185,-0.08814157336319456,-0.712931,-17.268593
11.185,2.0,1.0,1.0,33.7,34.2,34.2,3.5,2.7,2.7825,-0.20600374790037357,-0.10795852211832839,0.8920899150284183,-0.0963203466262848,-0.766202,-16.791758
11.185,2.0,1.0,1.0,33.7,34.2,34.2,3.5,2.7,2.785,-0.22375631224985154,-0.11105598271691024,0.8812401039234257,-0.10545683307888586,-0.826778,-16.297724
11.185,2.0,1.0,1.0,33.7,34.2,34.2,3.5,2.7,2.7875,-0.2415347022973363,-0.11404245462693982,0.8690365422337076,-0.1156946275210155,-0.896085,-15.785453
11.185,2.0,1.0,1.0,33.7,34.2,34.2,3.5,2.7,2.79,-0.2592404291712336,-0.11682041430830241,0.8553019378765495,-0.1272009177371279,-0.975908,-15.253892
11.185,2.0,1.0,1.0,33.7,34.2,34.2,3.5,2.7,2.7925,-0.2767353343494803,-0.11925313899498398,0.8398318830490435,-0.14016915899308965,-1.068488,-14.702014
11.185,2.0,1.0,1.0,33.7,34.2,34.2,3.5,2.7,2.795,-0.293826311435793,-0.12114962885914302,0.8223930820207541,-0.15482071431096162,-1.176666,-14.128877
11.185,2.0,1.0,1.0,33.7,34.2,34.2,3.5,2.7,2.7975,-0.31024424079595864,-0.12224383657840708,0.8027240221373529,-0.17140404734196604,-1.304061,-13.533718
11.185,2.0,1.0,1.0,33.7,34.2,34.2,3.5,2.7,2.8,-0.3256152864540864,-0.12216639550923128,0.7805406752976359,-0.19018890440756753,-1.455306,-12.916093
11.185,2.0,1.0,1.0,33.7,34.2,34.2,3.5,2.7,2.8025,-0.33942264537593947,-0.12040699157274183,0.7555517766020906,-0.21145098968112142,-1.63634,-12.276096
11.185,2.0,1.0,1.0,33.7,34.2,34.2,3.5,2.7,2.805,-0.35095760640678314,-0.11626630019141236,0.7274913783166912,-0.23543953479887203,-1.854761,-11.614681
11.185,2.0,1.0,1.0,33.7,34.2,34.2,3.5,2.7,2.8075,-0.3592615965987012,-0.10879921989361412,0.6961810680646437,-0.26231555673753165,-2.120177,-10.934133
11.185,2.0,1.0,1.0,33.7,34.2,34.2,3.5,2.7,2.81,-0.36306816904829153,-0.09675834533108411,0.6616402163164068,-0.29204275090389625,-2.444405,-10.238741
11.185,2.0,1.0,1.0,33.7,34.2,34.2,3.5,2.7,2.8125,-0.36076963986581,-0.078562183270577,0.624267488662167,-0.324208261876723,-2.841097,-9.535711
11.185,2.0,1.0,1.0,33.7,34.2,34.2,3.5,2.7,2.815,-0.35046209932744105,-0.0523411951647929,0.5851127257804815,-0.3577548250790281,-3.323784,-8.83631
11.185,2.0,1.0,1.0,33.7,34.2,34.2,3.5,2.7,2.8175,-0.33016458324925024,-0.016156020185065366,0.5462266656275105,-0.3906372028217927,-3.900086,-8.157106
11.185,2.0,1.0,1.0,33.7,34.2,34.2,3.5,2.7,2.82,-0.29834084571780545,0.03148610689047134,0.5109870711345099,-0.41950366813391826,-4.557892,-7.520888
11.185,2.0,1.0,1.0,33.7,34.2,34.2,3.5,2.7,2.8225,-0.2548020483877189,0.09074106963271167,0.4841384051795481,-0.43966209784765947,-5.238729,-6.956459
11.185,2.0,1.0,1.0,33.7,34.2,34.2,3.5,2.7,2.825,-0.20181461174968587,0.1593392923761516,0.471132898798572,-0.4457359405892326,-5.805476,-6.496172
11.185,2.0,1.0,1.0,33.7,34.2,34.2,3.5,2.7,2.8275,-0.14476586918727252,0.2319384550362841,0.47650431918531594,-0.4332713413792646,-6.055246,-6.170478
