1,w,sub_t,h,l1,l2,l3,g1,g2,Freq,S11_re,S21_re,S11_img,S21_img,S11_dB,S21_dB
11.185,2.0,1.0,1.0,33.5,34.0,34.0,2.5,1.5,2.5,0.8444495158287,-0.0131729796024807,0.521558233677695,0.013231217368727,-0.065118,-34.57682
11.185,2.0,1.0,1.0,33.5,34.0,34.0,2.5,1.5,2.5025,0.8407962734775536,-0.013470636327382499,0.5272691844248406,0.01332874007198222,-0.065853,-34.447684
11.185,2.0,1.0,1.0,33.5,34.0,34.0,2.5,1.5,2.505,0.8370860414574659,-0.013774832032288818,0.5329801029749088,0.013426006780393141,-0.066604,-34.31794
11.185,2.0,1.0,1.0,33.5,34.0,34.0,2.5,1.5,2.5075,0.8333181667723986,-0.014085738812393674,0.5386907262355735,0.013522970933618105,-0.067371,-34.187574
11.185,2.0,1.0,1.0,33.5,34.0,34.0,2.5,1.5,2.51,0.8294919833913186,-0.014403534501471341,0.5444007821102694,0.013619583441107391,-0.068155,-34.056573
11.185,2.0,1.0,1.0,33.5,34.0,34.0,2.5,1.5,2.5125,0.8256068119076224,-0.014728402908564028,0.5501099891537065,0.01371579254177121,-0.068956,-33.924926
11.185,2.0,1.0,1.0,33.5,34.0,34.0,2.5,1.5,2.515,0.8216619591861883,-0.015060534066267018,0.5558180562124583,0.013811543654973498,-0.069775,-33.792619
11.185,2.0,1.0,1.0,33.5,34.0,34.0,2.5,1.5,2.5175,0.8176567179974445,-0.01540012449127003,0.5615246820498174,0.013906779222250825,-0.070612,-33.65964
11.185,2.0,1.0,1.0,33.5,34.0,34.0,2.5,1.5,2.52,0.813590366637783,-0.01574737745785762,0.5672295549540819,0.014001438539109071,-0.071468,-33.525973
11.185,2.0,1.0,1.0,33.5,34.0,34.0,2.5,1.5,2.5225,0.8094621685356386,-0.01610250328510951,0.5729323523293419,0.014095457576199942,-0.072343,-33.391606
11.185,2.0,1.0,1.0,33.5,34.0,34.0,2.5,1.5,2.525,0.8052713718424688,-0.01646571963859824,0.5786327402678172,0.014188768789125238,-0.073238,-33.256523
11.185,2.0,1.0,1.0,33.5,34.0,34.0,2.5,1.5,2.5275,0.8010172090078528,-0.016837251847431352,0.5843303731027037,0.014281300916055796,-0.074153,-33.120712
11.185,2.0,1.0,1.0,33.5,34.0,34.0,2.5,1.5,2.53,0.79669889633786,-0.017217333237538313,0.5900248929404089,0.01437297876228833,-0.07509,-32.984155
11.185,2.0,1.0,1.0,33.5,34.0,34.0,2.5,1.5,2.5325,0.792315633535792,-0.017606205482165623,0.5957159291710031,0.014463722970791766,-0.076049,-32.846839
11.185,2.0,1.0,1.0,33.5,34.0,34.0,2.5,1.5,2.535,0.7878666032243277,-0.018004118970613256,0.6014030979556079,0.014553449777716745,-0.07703,-32.708748
11.185,2.0,1.0,1.0,33.5,34.0,34.0,2.5,1.5,2.5375,0.7833509704480559,-0.01841133319629844,0.6070860016893532,0.014642070751760933,-0.078035,-32.569864
11.185,2.0,1.0,1.0,33.5,34.0,34.0,2.5,1.5,2.54,0.778767882155293,-0.01882811716533411,0.6127642284384431,0.014729492516185796,-0.079065,-32.430172
11.185,2.0,1.0,1.0,33.5,34.0,34.0,2.5,1.5,2.5425,0.7741164666580155,-0.01925474982686343,0.6184373513497575,0.01481561645218546,-0.080119,-32.289656
11.185,2.0,1.0,1.0,33.5,34.0,34.0,2.5,1.5,2.545,0.769395833068656,-0.01969152052649403,0.6241049280312916,0.014900338382194333,-0.081199,-32.148296
11.185,2.0,1.0,1.0,33.5,34.0,34.0,2.5,1.5,2.5475,0.7646050707124272,-0.020138729484267794,0.6297664999016102,0.01498354823160266,-0.082306,-32.006077
11.185,2.0,1.0,1.0,33.5,34.0,34.0,2.5,1.5,2.55,0.7597432485137278,-0.02059668829869795,0.6354215915063659,0.015065129667216369,-0.083441,-31.862978
11.185,2.0,1.0,1.0,33.5,34.0,34.0,2.5,1.5,2.5525,0.7548094143551136,-0.021065720478514446,0.64106970979974,0.0151449597106539,-0.084604,-31.718982
11.185,2.0,1.0,1.0,33.5,34.0,34.0,2.5,1.5,2.555,0.7498025944071711,-0.021546162003880483,0.6467103433885456,0.015222908324715359,-0.085798,-31.57407
11.185,2.0,1.0,1.0,33.5,34.0,34.0,2.5,1.5,2.5575,0.7447217924275353,-0.02203836191896679,0.652342961736509,0.015298837970583642,-0.087022,-31.42822
11.185,2.0,1.0,1.0,33.5,34.0,34.0,2.5,1.5,2.56,0.7395659890271606,-0.02254268295789962,0.6579670143260565,0.01537260313353048,-0.088278,-31.281414
11.185,2.0,1.0,1.0,33.5,34.0,34.0,2.5,1.5,2.5625,0.7343341409018118,-0.023059502206260258,0.6635819297747232,0.015444049814585898,-0.089567,-31.13363
11.185,2.0,1.0,1.0,33.5,34.0,34.0,2.5,1.5,2.565,0.7290251800265872,-0.023589211800458913,0.6691871149030406,0.015513014985404331,-0.090891,-30.984847
11.185,2.0,1.0,1.0,33.5,34.0,34.0,2.5,1.5,2.5675,0.72363801281114,-0.024132219667484776,0.674781953750504,0.015579326003301178,-0.09225,-30.835042
11.185,2.0,1.0,1.0,33.5,34.0,34.0,2.5,1.5,2.57,0.7181715192130662,-0.02468895030771922,0.680365806535925,0.015642799983158942,-0.093646,-30.684194
11.185,2.0,1.0,1.0,33.5,34.0,34.0,2.5,1.5,2.5725,0.7126245518067498,-0.025259845623697676,0.6859380085581576,0.015703243122588712,-0.095081,-30.532277
11.185,2.0,1.0,1.0,33.5,34.0,34.0,2.5,1.5,2.575,0.7069959348047494,-0.02584536579792589,0.6914978690328163,0.015760449976393653,-0.096556,-30.379269
11.185,2.0,1.0,1.0,33.5,34.0,34.0,2.5,1.5,2.5775,0.701284463028578,-0.026445990223090035,0.697044669860232,0.015814202676004006,-0.098072,-30.225145
11.185,2.0,1.0,1.0,33.5,34.0,34.0,2.5,1.5,2.58,0.6954889008254975,-0.027062218488251435,0.7025776643194455,0.015864270089134287,-0.099631,-30.069878
11.185,2.0,1.0,1.0,33.5,34.0,34.0,2.5,1.5,2.5825,0.6896079809276664,-0.027694571424905536,0.7080960756825623,0.015910406914450725,-0.101236,-29.913443
11.185,2.0,1.0,1.0,33.5,34.0,34.0,2.5,1.5,2.585,0.6836404032497183,-0.028343592217061824,0.7135990957432693,0.015952352705526134,-0.102887,-29.755813
11.185,2.0,1.0,1.0,33.5,34.0,34.0,2.5,1.5,2.5875,0.6775848336205105,-0.029009847579848168,0.7190858832527248,0.015989830817786727,-0.104587,-29.59696
11.185,2.0,1.0,1.0,33.5,34.0,34.0,2.5,1.5,2.59,0.6714399024444756,-0.029693929011477296,0.7245555622553751,0.01602254727152506,-0.106337,-29.436855
11.185,2.0,1.0,1.0,33.5,34.0,34.0,2.5,1.5,2.5925,0.66520420328761,-0.030396454123804963,0.7300072203165412,0.016050189523346938,-0.108141,-29.275468
11.185,2.0,1.0,1.0,33.5,34.0,34.0,2.5,1.5,2.595,0.6588762913827738,-0.03111806805711184,0.7354399066328028,0.01607242513763974,-0.109999,-29.112769
11.185,2.0,1.0,1.0,33.5,34.0,34.0,2.5,1.5,2.5975,0.6524546820485057,-0.03185944498519868,0.7408526300153294,0.016088900348769863,-0.111915,-28.948725
11.185,2.0,1.0,1.0,33.5,34.0,34.0,2.5,1.5,2.6,0.6459378490151192,-0.03262128971736238,0.7462443567352918,0.016099238503748062,-0.113892,-28.783305
11.185,2.0,1.0,1.0,33.5,34.0,34.0,2.5,1.5,2.6025,0.6393242226513323,-0.03340433940434655,0.7516140082193871,0.016103038374003745,-0.115931,-28.616475
11.185,2.0,1.0,1.0,33.5,34.0,34.0,2.5,1.5,2.605,0.6326121880841135,-0.034209365355938534,0.756960458582268,0.01609987232369719,-0.118036,-28.448199
11.185,2.0,1.0,1.0,33.5,34.0,34.0,2.5,1.5,2.6075,0.6258000832038537,-0.03503717497849264,0.7622825319812689,0.01608928432062406,-0.120209,-28.278442
11.185,2.0,1.0,1.0,33.5,34.0,34.0,2.5,1.5,2.61,0.6188861965463127,-0.035888613841334314,0.767578999777266,0.016070787774242097,-0.122454,-28.107167
11.185,2.0,1.0,1.0,33.5,34.0,34.0,2.5,1.5,2.6125,0.6118687650420827,-0.03676456788172805,0.7728485774837621,0.01604386318362265,-0.124775,-27.934334
11.185,2.0,1.0,1.0,33.5,34.0,34.0,2.5,1.5,2.615,0.6047459716235498,-0.03766596575887036,0.7780899214843321,0.016007955576198787,-0.127174,-27.759905
11.185,2.0,1.0,1.0,33.5,34.0,34.0,2.5,1.5,2.6175,0.5975159426785251,-0.03859378136822711,0.7833016254963209,0.015962471716001,-0.129656,-27.583837
11.185,2.0,1.0,1.0,33.5,34.0,34.0,2.5,1.5,2.62,0.5901767453387982,-0.03954903652844337,0.7884822167562527,0.015906777057618195,-0.132225,-27.406088
11.185,2.0,1.0,1.0,33.5,34.0,34.0,2.5,1.5,2.6225,0.5827263845909183,-0.04053280385405637,0.7936301518995603,0.01584019241934712,-0.134885,-27.226613
11.185,2.0,1.0,1.0,33.5,34.0,34.0,2.5,1.5,2.625,0.575162800195481,-0.0415462098282971,0.798743812504071,0.0157619903458629,-0.137641,-27.045367
11.185,2.0,1.0,1.0,33.5,34.0,34.0,2.5,1.5,2.6275,0.5674838634000383,-0.042590438091428394,0.8038215002631444,0.015671391127192534,-0.140498,-26.862302
11.185,2.0,1.0,1.0,33.5,34.0,34.0,2.5,1.5,2.63,0.5596873734295945,-0.04366673296129104,0.8088614317502443,0.015567558436756796,-0.14346,-26.677368
11.185,2.0,1.0,1.0,33.5,34.0,34.0,2.5,1.5,2.6325,0.551771053737333,-0.044776403204058055,0.8138617327321321,0.015449594546677057,-0.146534,-26.490514
11.185,2.0,1.0,1.0,33.5,34.0,34.0,2.5,1.5,2.635,0.5437325479968539,-0.04592082607460176,0.8188204319826524,0.015316535073356513,-0.149725,-26.301687
11.185,2.0,1.0,1.0,33.5,34.0,34.0,2.5,1.5,2.6375,0.5355694158157525,-0.047101451647378015,0.8237354545430664,0.015167343200433692,-0.153041,-26.11083
11.185,2.0,1.0,1.0,33.5,34.0,34.0,2.5,1.5,2.64,0.5272791281487911,-0.04831980746032026,0.8286046143681594,0.01500090331946842,-0.156487,-25.917887
11.185,2.0,1.0,1.0,33.5,34.0,34.0,2.5,1.5,2.6425,0.5188590623873424,-0.04957750349589457,0.8334256062895278,0.014816014021020328,-0.160072,-25.722797
11.185,2.0,1.0,1.0,33.5,34.0,34.0,2.5,1.5,2.645,0.5103064971000548,-0.05087623752520516,0.8381959972185872,0.014611380359974363,-0.163804,-25.525499
11.185,2.0,1.0,1.0,33.5,34.0,34.0,2.5,1.5,2.6475,0.5016186063979653,-0.05221780084283271,0.8429132165017087,0.014385605308874656,-0.16769,-25.325925
11.185,2.0,1.0,1.0,33.5,34.0,34.0,2.5,1.5,2.65,0.4927924538955035,-0.05360408442190733,0.8475745453281818,0.014137180301443142,-0.17174,-25.12401
11.185,2.0,1.0,1.0,33.5,34.0,34.0,2.5,1.5,2.6525,0.48382498623710296,-0.0550370855207337,0.8521771050782937,0.01386447475514313,-0.175965,-24.919682
11.185,2.0,1.0,1.0,33.5,34.0,34.0,2.5,1.5,2.655,0.4747130261573654,-0.05651891477407201,0.8567178444833938,0.013565724446302722,-0.180374,-24.712868
11.185,2.0,1.0,1.0,33.5,34.0,34.0,2.5,1.5,2.6575,0.4654532650411833,-0.058051803803832173,0.8611935254519835,0.013239018593618273,-0.18498,-24.50349
11.185,2.0,1.0,1.0,33.5,34.0,34.0,2.5,1.5,2.66,0.4560422549487994,-0.0596381133854011,0.8656007073952737,0.0128822854854012,-0.189796,-24.291469
11.185,2.0,1.0,1.0,33.5,34.0,34.0,2.5,1.5,2.6625,0.4464764000697385,-0.06128034220699223,0.8699357298618451,0.012493276462243177,-0.194834,-24.07672
11.185,2.0,1.0,1.0,33.5,34.0,34.0,2.5,1.5,2.665,0.4367519475689041,-0.06298113626008467,0.8741946932633877,0.012069548039303692,-0.200109,-23.859155
11.185,2.0,1.0,1.0,33.5,34.0,34.0,2.5,1.5,2.6675,0.426864977788268,-0.06474329889904588,0.8783734374414031,0.011608441920495214,-0.205638,-23.638682
11.185,2.0,1.0,1.0,33.5,34.0,34.0,2.5,1.5,2.67,0.4168113937685595,-0.06656980160713286,0.882467517787338,0.011107062619666448,-0.211438,-23.415206
11.185,2.0,1.0,1.0,33.5,34.0,34.0,2.5,1.5,2.6725,0.40658691005769415,-0.06846379550386279,0.8864721785850792,0.010562252360526913,-0.217529,-23.188626
11.185,2.0,1.0,1.0,33.5,34.0,34.0,2.5,1.5,2.675,0.39618704077681116,-0.07042862362481087,0.8903823231936991,0.009970562876385017,-0.223931,-22.958835
11.185,2.0,1.0,1.0,33.5,34.0,34.0,2.5,1.5,2.6775,0.38560708692118534,-0.07246783399861476,0.8941924806288336,0.009328223671443548,-0.230666,-22.725724
11.185,2.0,1.0,1.0,33.5,34.0,34.0,2.5,1.5,2.68,0.3748421228829619,-0.07458519353653979,0.8978967680309861,0.008631106235798788,-0.237761,-22.489175
11.185,2.0,1.0,1.0,33.5,34.0,34.0,2.5,1.5,2.6825,0.36388698219647575,-0.07678470273637118,0.9014888484269425,0.007874683624506697,-0.245241,-22.249067
11.185,2.0,1.0,1.0,33.5,34.0,34.0,2.5,1.5,2.685,0.35273624252629343,-0.0790706111833026,0.904961883093678,0.007053984714765889,-0.253139,-22.005271
11.185,2.0,1.0,1.0,33.5,34.0,34.0,2.5,1.5,2.6875,0.341384209944903,-0.0814474338040849,0.908308477719965,0.00616354234167552,-0.261486,-21.757652
11.185,2.0,1.0,1.0,33.5,34.0,34.0,2.5,1.5,2.69,0.32982490258338254,-0.08391996779469786,0.9115206214260376,0.005197334378784237,-0.270319,-21.506068
11.185,2.0,1.0,1.0,33.5,34.0,34.0,2.5,1.5,2.6925,0.3180520337875248,-0.08649331009316086,0.9145896175420324,0.004148716670741778,-0.279679,-21.250369
11.185,2.0,1.0,1.0,33.5,34.0,34.0,2.5,1.5,2.695,0.30605899497790456,-0.08917287520378034,0.9175060048566204,0.003010346536961628,-0.289611,-20.990398
11.185,2.0,1.0,1.0,33.5,34.0,34.0,2.5,1.5,2.6975,0.29383883850027803,-0.09196441309193615,0.9202594678225537,0.0017740953414726813,-0.300165,-20.725988
11.185,2.0,1.0,1.0,33.5,34.0,34.0,2.5,1.5,2.7,0.28138426086984075,-0.09487402675240553,0.9228387339386205,0.0004309483581052747,-0.311397,-20.456964
11.185,2.0,1.0,1.0,33.5,34.0,34.0,2.5,1.5,2.7025,0.26868758696813283,-0.09790818890014756,0.9252314562094065,-0.001029110156559539,-0.323368,-20.18314
11.185,2.0,1.0,1.0,33.5,34.0,34.0,2.5,1.5,2.705,0.2557407559572074,-0.10107375702817248,0.9274240782052858,-0.0026172291474516334,-0.336148,-19.904321
11.185,2.0,1.0,1.0,33.5,34.0,34.0,2.5,1.5,2.7075,0.24253530994818495,-0.10437798580654895,0.9294016787931688,-0.004345843117456953,-0.349814,-19.6203
11.185,2.0,1.0,1.0,33.5,34.0,34.0,2.5,1.5,2.71,0.2290623868221163,-0.1078285354382473,0.9311477930697221,-0.006228848107665051,-0.364455,-19.330858
11.185,2.0,1.0,1.0,33.5,34.0,34.0,2.5,1.5,2.7125,0.21531271907890095,-0.11143347411280877,0.9326442053864544,-0.008281805392817209,-0.380169,-19.035764
11.185,2.0,1.0,1.0,33.5,34.0,34.0,2.5,1.5,2.715,0.20127664122340852,-0.11520127206943936,0.9338707095912111,-0.010522177745274029,-0.397068,-18.734774
11.185,2.0,1.0,1.0,33.5,34.0,34.0,2.5,1.5,2.7175,0.186944109038405,-0.11914078394579483,0.9348048307016665,-0.01296960402638114,-0.415278,-18.427628
11.185,2.0,1.0,1.0,33.5,34.0,34.0,2.5,1.5,2.72,0.17230473521080325,-0.12326121497847939,0.9354215011496996,-0.01564621893695867,-0.434943,-18.114053
11.185,2.0,1.0,1.0,33.5,34.0,34.0,2.5,1.5,2.7225,0.15734784726430395,-0.12757206514329106,0.9356926834664543,-0.018577026023369428,-0.456228,-17.793758
11.185,2.0,1.0,1.0,33.5,34.0,34.0,2.5,1.5,2.725,0.14206257573381612,-0.1320830433521713,0.9355869297930368,-0.02179033351565371,-0.479321,-17.466438
11.185,2.0,1.0,1.0,33.5,34.0,34.0,2.5,1.5,2.7275,0.1264379831650531,-0.13680394119037811,0.9350688668831311,-0.025318264287720382,-0.504439,-17.131769
11.185,2.0,1.0,1.0,33.5,34.0,34.0,2.5,1.5,2.73,0.11046324806701499,-0.14174445215224554,0.9340985933062459,-0.029197353181858322,-0.531832,-16.789409
11.185,2.0,1.0,1.0,33.5,34.0,34.0,2.5,1.5,2.7325,0.09412792269716037,-0.14691391760684977,0.932630973383989,-0.03346924711119026,-0.561788,-16.438997
11.185,2.0,1.0,1.0,33.5,34.0,34.0,2.5,1.5,2.735,0.07742228994113162,-0.15232097437592984,0.930614810063812,-0.038181525677758614,-0.594645,-16.080156
11.185,2.0,1.0,1.0,33.5,34.0,34.0,2.5,1.5,2.7375,0.06033785313022868,-0.15797307026842058,0.9279918766040933,-0.04338866237316352,-0.630795,-15.712488
11.185,2.0,1.0,1.0,33.5,34.0,34.0,2.5,1.5,2.74,0.04286800418732442,-0.16387580242587468,0.924695784899588,-0.04915314847671531,-0.670699,-15.335578
11.185,2.0,1.0,1.0,33.5,34.0,34.0,2.5,1.5,2.7425,0.025008931029178696,-0.17003201787105143,0.9206506670389701,-0.05554680301504621,-0.714899,-14.948998
11.185,2.0,1.0,1.0,33.5,34.0,34.0,2.5,1.5,2.745,0.00676084603451698,-0.1764405948696848,0.9157696471611354,-0.06265229169790727,-0.764038,-14.552303
11.185,2.0,1.0,1.0,33.5,34.0,34.0,2.5,1.5,2.7475,-0.011870354628210088,-0.18309479586032948,0.9099530843931791,-0.07056487407789165,-0.818881,-14.145042
11.185,2.0,1.0,1.0,33.5,34.0,34.0,2.5,1.5,2.75,-0.0308708537078807,-0.189980045563468,0.903086577144145,-0.0793943887780088,-0.88034,-13.726763
11.185,2.0,1.0,1.0,33.5,34.0,34.0,2.5,1.5,2.7525,-0.050215901184817266,-0.1970709387735444,0.8950387384304127,-0.08926746737787532,-0.949514,-13.297019
11.185,2.0,1.0,1.0,33.5,34.0,34.0,2.5,1.5,2.755,-0.06986576745656184,-0.20432721829876968,0.8856587878794885,-0.10032993182367919,-1.027729,-12.855386
11.185,2.0,1.0,1.0,33.5,34.0,34.0,2.5,1.5,2.7575,-0.08976031863689377,-0.21168838181498678,0.8747740691709496,-0.11274926751193241,-1.116595,-12.401481
11.185,2.0,1.0,1.0,33.5,34.0,34.0,2.5,1.5,2.76,-0.10981177027862905,-0.2190664758371937,0.8621877084360011,-0.1267169580646802,-1.218079,-11.934991
11.185,2.0,1.0,1.0,33.5,34.0,34.0,2.5,1.5,2.7625,-0.12989505912050048,-0.22633651867082513,0.8476768047792458,-0.1424502931566086,-1.334594,-11.455706
11.185,2.0,1.0,1.0,33.5,34.0,34.0,2.5,1.5,2.765,-0.149835152990383,-0.23332387500123,0.8309918259744107,-0.1601929803762542,-1.469117,-10.963576
11.185,2.0,1.0,1.0,33.5,34.0,34.0,2.5,1.5,2.7675,-0.16939053025159723,-0.23978781597006923,0.8118583232356668,-0.1802134535140534,-1.625334,-10.458777
11.185,2.0,1.0,1.0,33.5,34.0,34.0,2.5,1.5,2.77,-0.18823207503773473,-0.2454005126139605,0.7899827471737864,-0.20279910473532298,-1.807825,-9.94181
11.185,2.0,1.0,1.0,33.5,34.0,34.0,2.5,1.5,2.7725,-0.20591689697491405,-0.24972097058845724,0.765065117379275,-0.2282437022663928,-2.022296,-9.413624
11.185,2.0,1.0,1.0,33.5,34.0,34.0,2.5,1.5,2.775,-0.22185735701354536,-0.25216418166187,0.7368226177744276,-0.2568239412035654,-2.275842,-8.875783
11.185,2.0,1.0,1.0,33.5,34.0,34.0,2.5,1.5,2.7775,-0.23528730484244778,-0.251967480829561,0.7050297909939393,-0.288759479959197,-2.57725,-8.330679
11.185,2.0,1.0,1.0,33.5,34.0,34.0,2.5,1.5,2.78,-0.24523086263811586,-0.24815940863463093,0.6695825150307289,-0.3241493085963902,-2.93727,-7.781794
11.185,2.0,1.0,1.0,33.5,34.0,34.0,2.5,1.5,2.7825,-0.2504848045582908,-0.2395420634745303,0.6305933406856299,-0.36287689522543065,-3.368736,-7.234003
11.185,2.0,1.0,1.0,33.5,34.0,34.0,2.5,1.5,2.785,-0.24963413657681882,-0.22470644364289974,0.5885228780207654,-0.40447942186802144,-3.886205,-6.693903
11.185,2.0,1.0,1.0,33.5,34.0,34.0,2.5,1.5,2.7875,-0.24113079623405337,-0.20211055294759878,0.5443420548361334,-0.4479862228606618,-4.504422,-6.170103
11.185,2.0,1.0,1.0,33.5,34.0,34.0,2.5,1.5,2.79,-0.2234725525208794,-0.1702571944018603,0.49969872385156433,-0.4917527654798312,-5.23402,-5.67338
11.185,2.0,1.0,1.0,33.5,34.0,34.0,2.5,1.5,2.7925,-0.19551180522067838,-0.12800107933803254,0.4570276427546366,-0.5333507949183154,-6.071288,-5.216538
11.185,2.0,1.0,1.0,33.5,34.0,34.0,2.5,1.5,2.795,-0.15688505640212533,-0.0749762086219072,0.41950501242032967,-0.5696129590323873,-6.976748,-4.813803
11.185,2.0,1.0,1.0,33.5,34.0,34.0,2.5,1.5,2.7975,-0.10847287551197705,-0.012053973262534814,0.390738415577621,-0.5969406319234565,-7.839849,-4.479607
11.185,2.0,1.0,1.0,33.5,34.0,34.0,2.5,1.5,2.8,-0.05270059214471621,0.058356733946327705,0.3741471872922377,-0.6119199546209526,-8.453829,-4.226788
11.185,2.0,1.0,1.0,33.5,34.0,34.0,2.5,1.5,2.8025,0.0065500390949973526,0.13239613086198793,0.3721476287905613,-0.6121326388736698,-8.58435,-4.064535
11.185,2.0,1.0,1.0,33.5,34.0,34.0,2.5,1.5,2.805,0.06453466546446526,0.20534322696432242,0.38544063704600146,-0.5968657041097739,-8.160779,-3.996649
11.185,2.0,1.0,1.0,33.5,34.0,34.0,2.5,1.5,2.8075,0.11660212803398926,0.272566381032882,0.4127461110462449,-0.5673773292036542,-7.352874,-4.020752
11.185,2.0,1.0,1.0,33.5,34.0,34.0,2.5,1.5,2.81,0.159136442054722,0.3304611700941516,0.4511372188652746,-0.5265658554709574,-6.404506,-4.128773
11.185,2.0,1.0,1.0,33.5,34.0,34.0,2.5,1.5,2.8125,0.190109403007644,0.377001625809109,0.496811048701014,-0.478203889658684,-5.482707,-4.308495
11.185,2.0,1.0,1.0,33.5,34.0,34.0,2.5,1.5,2.815,0.20910586286852642,0.41176690184604936,0.5459377103712499,-0.4260933688455229,-4.662619,-4.545598
11.185,2.0,1.0,1.0,33.5,34.0,34.0,2.5,1.5,2.8175,0.2169538322148418,0.43557427320522757,0.5952808587500796,-0.3734473385858459,-3.963921,-4.825562
11.185,2.0,1.0,1.0,33.5,34.0,34.0,2.5,1.5,2.82,0.21520837882873986,0.44996599339263793,0.6424785646325867,-0.32260946098560894,-3.38099,-5.13504
11.185,2.0,1.0,1.0,33.5,34.0,34.0,2.5,1.5,2.8225,0.2056906489021051,0.45675047489736625,0.6860437327818086,-0.2750527393789984,-2.899126,-5.462613
11.185,2.0,1.0,1.0,33.5,34.0,34.0,2.5,1.5,2.825,0.19017208467545543,0.4576876831566291,0.7252089129252821,-0.23153339075827095,-2.501915,-5.799027
11.185,2.0,1.0,1.0,33.5,34.0,34.0,2.5,1.5,2.8275,0.17020546059047542,0.45432057372576146,0.7597242464965133,-0.19229164049063202,-2.174193,-6.137093
11.185,2.0,1.0,1.0,33.5,34.0,34.0,2.5,1.5,2.83,0.14706405202451803,0.4479141932064366,0.7896724863820095,-0.1572357245795077,-1.902986,-6.471421
11.185,2.0,1.0,1.0,33.5,34.0,34.0,2.5,1.5,2.8325,0.12174514191248256,0.439458900250443,0.8153260380328062,-0.12608418095713705,-1.677604,-6.798094
