1,w,sub_t,h,l1,l2,l3,g1,g2,Freq,S11_re,S21_re,S11_img,S21_img,S11_dB,S21_dB
11.185,2.0,1.0,1.0,34.1,34.6,34.6,2.1,3.7,2.5,0.760648118561505,-0.0129909497801279,0.636410781557933,0.00769009007075012,-0.071796,-36.422514
11.185,2.0,1.0,1.0,34.1,34.6,34.6,2.1,3.7,2.5025,0.7556975975700866,-0.013254698903392427,0.6421287931886065,0.007697802550347081,-0.072662,-36.290371
11.185,2.0,1.0,1.0,34.1,34.6,34.6,2.1,3.7,2.505,0.7506759496950322,-0.013523799120774813,0.6478377419087377,0.007703487521685097,-0.073545,-36.157598
11.185,2.0,1.0,1.0,34.1,34.6,34.6,2.1,3.7,2.5075,0.7455823384540212,-0.0137983815141084,0.6535370904664485,0.007707052477853295,-0.074448,-36.02418
11.185,2.0,1.0,1.0,34.1,34.6,34.6,2.1,3.7,2.51,0.7404159125360787,-0.014078581211138648,0.6592262839446479,0.007708400782493023,-0.075371,-35.890105
11.185,2.0,1.0,1.0,34.1,34.6,34.6,2.1,3.7,2.5125,0.7351758055038845,-0.01436453753622172,0.6649047491227329,0.007707431462962911,-0.076313,-35.755358
11.185,2.0,1.0,1.0,34.1,34.6,34.6,2.1,3.7,2.515,0.7298611354889294,-0.014656394167601687,0.6705718938123225,0.0077040389917091955,-0.077276,-35.619926
11.185,2.0,1.0,1.0,34.1,34.6,34.6,2.1,3.7,2.5175,0.7244710048793179,-0.014954299301592373,0.6762271061657409,0.007698113055076782,-0.07826,-35.483793
11.185,2.0,1.0,1.0,34.1,34.6,34.6,2.1,3.7,2.52,0.719004499999943,-0.015258405824009308,0.6818697539559158,0.007689538308737636,-0.079266,-35.346946
11.185,2.0,1.0,1.0,34.1,34.6,34.6,2.1,3.7,2.5225,0.7134606907848092,-0.01556887148921394,0.6874991838262476,0.0076781941188540665,-0.080295,-35.209368
11.185,2.0,1.0,1.0,34.1,34.6,34.6,2.1,3.7,2.525,0.7078386304412203,-0.015885859107154746,0.6931147205089577,0.007663954288027533,-0.081347,-35.071046
11.185,2.0,1.0,1.0,34.1,34.6,34.6,2.1,3.7,2.5275,0.7021373551055525,-0.016209536738808726,0.6987156660102919,0.007646686765012611,-0.082423,-34.931962
11.185,2.0,1.0,1.0,34.1,34.6,34.6,2.1,3.7,2.53,0.6963558834903363,-0.016540077900448837,0.7043012987608744,0.007626253337098404,-0.083523,-34.792101
11.185,2.0,1.0,1.0,34.1,34.6,34.6,2.1,3.7,2.5325,0.6904932165223266,-0.016877661777188364,0.7098708727293928,0.007602509303975065,-0.084649,-34.651447
11.185,2.0,1.0,1.0,34.1,34.6,34.6,2.1,3.7,2.535,0.6845483369712437,-0.017222473446274925,0.7154236164976814,0.007575303131812496,-0.085801,-34.509982
11.185,2.0,1.0,1.0,34.1,34.6,34.6,2.1,3.7,2.5375,0.6785202090688586,-0.01757470411063466,0.7209587322951386,0.0075444760861796195,-0.086981,-34.36769
11.185,2.0,1.0,1.0,34.1,34.6,34.6,2.1,3.7,2.54,0.6724077781180559,-0.017934551343194008,0.7264753949902826,0.007509861842322771,-0.088188,-34.224552
11.185,2.0,1.0,1.0,34.1,34.6,34.6,2.1,3.7,2.5425,0.6662099700915113,-0.018302219342534152,0.7319727510370965,0.007471286071207896,-0.089424,-34.080551
11.185,2.0,1.0,1.0,34.1,34.6,34.6,2.1,3.7,2.545,0.6599256912195907,-0.018677919200465267,0.737449917373664,0.00742856599960045,-0.09069,-33.935668
11.185,2.0,1.0,1.0,34.1,34.6,34.6,2.1,3.7,2.5475,0.6535538275670738,-0.019061869182136672,0.7429059802704161,0.007381509942319791,-0.091987,-33.789884
11.185,2.0,1.0,1.0,34.1,34.6,34.6,2.1,3.7,2.55,0.647093244598252,-0.019454295019335602,0.7483399941251284,0.007329916804653171,-0.093316,-33.64318
11.185,2.0,1.0,1.0,34.1,34.6,34.6,2.1,3.7,2.5525,0.6405427867299818,-0.01985543021765788,0.7537509802015989,0.007273575552748109,-0.094678,-33.495536
11.185,2.0,1.0,1.0,34.1,34.6,34.6,2.1,3.7,2.555,0.633901276872197,-0.020265516378274652,0.7591379253087362,0.007212264649622685,-0.096073,-33.346931
11.185,2.0,1.0,1.0,34.1,34.6,34.6,2.1,3.7,2.5575,0.627167515955392,-0.020684803535053538,0.7644997804165199,0.007145751454235103,-0.097504,-33.197344
11.185,2.0,1.0,1.0,34.1,34.6,34.6,2.1,3.7,2.56,0.6203402824445707,-0.02111355050783443,0.7698354592050715,0.007073791580839335,-0.098971,-33.046755
11.185,2.0,1.0,1.0,34.1,34.6,34.6,2.1,3.7,2.5625,0.613418331839107,-0.0215520252726997,0.775143836542759,0.00699612821561569,-0.100476,-32.89514
11.185,2.0,1.0,1.0,34.1,34.6,34.6,2.1,3.7,2.565,0.6064003961579506,-0.022000505350122917,0.7804237468889893,0.006912491387309518,-0.102021,-32.742478
11.185,2.0,1.0,1.0,34.1,34.6,34.6,2.1,3.7,2.5675,0.5992851834095961,-0.022459278211921785,0.7856739826169592,0.0068225971883253455,-0.103605,-32.588744
11.185,2.0,1.0,1.0,34.1,34.6,34.6,2.1,3.7,2.57,0.5920713770461908,-0.02292864170798857,0.7908932922513359,0.0067261469424146235,-0.105232,-32.433915
11.185,2.0,1.0,1.0,34.1,34.6,34.6,2.1,3.7,2.5725,0.5847576354011333,-0.0234089045138158,0.7960803786153801,0.00662282631475322,-0.106902,-32.277967
11.185,2.0,1.0,1.0,34.1,34.6,34.6,2.1,3.7,2.575,0.577342591109503,-0.023900386599883788,0.8012338968816232,0.006512304359830343,-0.108617,-32.120873
11.185,2.0,1.0,1.0,34.1,34.6,34.6,2.1,3.7,2.5775,0.569824850510622,-0.02440341972402156,0.8063524525197431,0.006394232502158107,-0.110379,-31.962609
11.185,2.0,1.0,1.0,34.1,34.6,34.6,2.1,3.7,2.58,0.5622029930320355,-0.024918347947903704,0.8114345991347143,0.006268243444357474,-0.112189,-31.803147
11.185,2.0,1.0,1.0,34.1,34.6,34.6,2.1,3.7,2.5825,0.5544755705541603,-0.02544552817889037,0.8164788361878061,0.006133949996675205,-0.11405,-31.642459
11.185,2.0,1.0,1.0,34.1,34.6,34.6,2.1,3.7,2.585,0.5466411067548572,-0.02598533073846511,0.8214836065923145,0.005990943821436985,-0.115963,-31.480517
11.185,2.0,1.0,1.0,34.1,34.6,34.6,2.1,3.7,2.5875,0.5386980964331328,-0.026538139958569837,0.8264472941752571,0.005838794085330748,-0.117931,-31.317293
11.185,2.0,1.0,1.0,34.1,34.6,34.6,2.1,3.7,2.59,0.5306450048111958,-0.027104354807176514,0.8313682209955008,0.005677046011745859,-0.119955,-31.152755
11.185,2.0,1.0,1.0,34.1,34.6,34.6,2.1,3.7,2.5925,0.5224802668140609,-0.027684389544474577,0.8362446445079379,0.005505219324645538,-0.122039,-30.986873
11.185,2.0,1.0,1.0,34.1,34.6,34.6,2.1,3.7,2.595,0.5142022863259167,-0.028278674411082658,0.8410747545624297,0.005322806574631721,-0.124183,-30.819614
11.185,2.0,1.0,1.0,34.1,34.6,34.6,2.1,3.7,2.5975,0.5058094354224529,-0.02888765634972168,0.8458566702252073,0.005129271336947039,-0.126391,-30.650947
11.185,2.0,1.0,1.0,34.1,34.6,34.6,2.1,3.7,2.6,0.4973000535783912,-0.02951179976179722,0.8505884364092986,0.004924046270149314,-0.128666,-30.480835
11.185,2.0,1.0,1.0,34.1,34.6,34.6,2.1,3.7,2.6025,0.4886724468494912,-0.03015158730034557,0.8552680202993111,0.004706531023070289,-0.131011,-30.309245
11.185,2.0,1.0,1.0,34.1,34.6,34.6,2.1,3.7,2.605,0.47992488702833613,-0.030807520700784536,0.8598933075545219,0.004476089976425205,-0.133427,-30.136141
11.185,2.0,1.0,1.0,34.1,34.6,34.6,2.1,3.7,2.6075,0.4710556107733043,-0.03148012165087871,0.8644620982727094,0.004232049804050353,-0.135919,-29.961483
11.185,2.0,1.0,1.0,34.1,34.6,34.6,2.1,3.7,2.61,0.46206281871021077,-0.03216993270127289,0.8689721026954456,0.00397369683720255,-0.13849,-29.785234
11.185,2.0,1.0,1.0,34.1,34.6,34.6,2.1,3.7,2.6125,0.4529446745062492,-0.03287751821786406,0.8734209366337293,0.0037002742136315473,-0.141143,-29.607353
11.185,2.0,1.0,1.0,34.1,34.6,34.6,2.1,3.7,2.615,0.4436993039160126,-0.03360346537716041,0.8778061165906916,0.00341097879121452,-0.143882,-29.4278
11.185,2.0,1.0,1.0,34.1,34.6,34.6,2.1,3.7,2.6175,0.4343247937996265,-0.03434838520560855,0.8821250545558214,0.0031049578037946387,-0.146712,-29.24653
11.185,2.0,1.0,1.0,34.1,34.6,34.6,2.1,3.7,2.62,0.42481919111326716,-0.03511291366365191,0.8863750524425258,0.0027813052344646885,-0.149635,-29.063499
11.185,2.0,1.0,1.0,34.1,34.6,34.6,2.1,3.7,2.6225,0.4151805018726981,-0.035897712774995004,0.8905532961379479,0.002439057878846402,-0.152657,-28.878661
11.185,2.0,1.0,1.0,34.1,34.6,34.6,2.1,3.7,2.625,0.405406690090909,-0.0367034718011787,0.894656849130709,0.00207719106790311,-0.155783,-28.691969
11.185,2.0,1.0,1.0,34.1,34.6,34.6,2.1,3.7,2.6275,0.3954956766914291,-0.03753090846110849,0.8986826456786086,0.0016946140164386335,-0.159016,-28.503373
11.185,2.0,1.0,1.0,34.1,34.6,34.6,2.1,3.7,2.63,0.3854453383995922,-0.03838077019458787,0.9026274834742276,0.0012901647596347933,-0.162364,-28.312822
11.185,2.0,1.0,1.0,34.1,34.6,34.6,2.1,3.7,2.6325,0.3752535066148074,-0.03925383546817878,0.9064880157618121,0.0008626046357021095,-0.165831,-28.120261
11.185,2.0,1.0,1.0,34.1,34.6,34.6,2.1,3.7,2.635,0.36491796626789585,-0.040150915120805375,0.9102607428536595,0.00041061226790199804,-0.169424,-27.925637
11.185,2.0,1.0,1.0,34.1,34.6,34.6,2.1,3.7,2.6375,0.3544364546687657,-0.041072853745392546,0.9139420029884331,-6.722300623416935e-05,-0.173149,-27.728891
11.185,2.0,1.0,1.0,34.1,34.6,34.6,2.1,3.7,2.64,0.34380666035114066,-0.04202053110145773,0.917527962467323,-0.0005724083167988228,-0.177014,-27.529963
11.185,2.0,1.0,1.0,34.1,34.6,34.6,2.1,3.7,2.6425,0.3330262219229097,-0.04299486355187683,0.9210146049965695,-0.001106555119756282,-0.181024,-27.328793
11.185,2.0,1.0,1.0,34.1,34.6,34.6,2.1,3.7,2.645,0.3220927269327988,-0.043996805514977526,0.9243977201565843,-0.0016713878046399427,-0.18519,-27.125314
11.185,2.0,1.0,1.0,34.1,34.6,34.6,2.1,3.7,2.6475,0.31100371076675964,-0.04502735092057906,0.9276728909084477,-0.002268753133686405,-0.189518,-26.91946
11.185,2.0,1.0,1.0,34.1,34.6,34.6,2.1,3.7,2.65,0.2997566555906581,-0.04608753465551077,0.9308354800379205,-0.0029006306044932076,-0.194019,-26.711162
11.185,2.0,1.0,1.0,34.1,34.6,34.6,2.1,3.7,2.6525,0.2883489893598318,-0.04717843398036772,0.9338806154249814,-0.003569143839754808,-0.198702,-26.500345
11.185,2.0,1.0,1.0,34.1,34.6,34.6,2.1,3.7,2.655,0.27677808492076017,-0.04830116989467599,0.9368031740131756,-0.004276573120686641,-0.203577,-26.286934
11.185,2.0,1.0,1.0,34.1,34.6,34.6,2.1,3.7,2.6575,0.2650412592359565,-0.049456908422039626,0.9395977643373923,-0.00502536919560926,-0.208657,-26.070851
11.185,2.0,1.0,1.0,34.1,34.6,34.6,2.1,3.7,2.66,0.25313577277016047,-0.050646861780027405,0.942258707450898,-0.0058181685121245705,-0.213954,-25.852011
11.185,2.0,1.0,1.0,34.1,34.6,34.6,2.1,3.7,2.6625,0.2410588290845054,-0.05187228939124946,0.9447800160721166,-0.006657810040676963,-0.21948,-25.63033
11.185,2.0,1.0,1.0,34.1,34.6,34.6,2.1,3.7,2.665,0.22880757469567148,-0.05313449868195308,0.9471553717484646,-0.00754735387943757,-0.225251,-25.405717
11.185,2.0,1.0,1.0,34.1,34.6,34.6,2.1,3.7,2.6675,0.2163790992697724,-0.054434845602112494,0.9493780998079964,-0.008490101855787337,-0.231281,-25.178078
11.185,2.0,1.0,1.0,34.1,34.6,34.6,2.1,3.7,2.67,0.20377043623608024,-0.05577473478592111,0.9514411418392686,-0.0094896203687312,-0.237589,-24.947314
11.185,2.0,1.0,1.0,34.1,34.6,34.6,2.1,3.7,2.6725,0.1909785639245582,-0.05715561925317933,0.9533370254050133,-0.010549765749900351,-0.244192,-24.713323
11.185,2.0,1.0,1.0,34.1,34.6,34.6,2.1,3.7,2.675,0.1780004073541832,-0.05857899952954868,0.9550578306552662,-0.011674712459078085,-0.25111,-24.475997
11.185,2.0,1.0,1.0,34.1,34.6,34.6,2.1,3.7,2.6775,0.16483284082714442,-0.060046422036074444,0.9565951534597238,-0.012868984474202339,-0.258365,-24.235223
11.185,2.0,1.0,1.0,34.1,34.6,34.6,2.1,3.7,2.68,0.15147269151849937,-0.06155947656456623,0.957940064626363,-0.014137490286440369,-0.265982,-23.990883
11.185,2.0,1.0,1.0,34.1,34.6,34.6,2.1,3.7,2.6825,0.1379167442931772,-0.06311979261391155,0.959083064712651,-0.015485561969255827,-0.273985,-23.742853
11.185,2.0,1.0,1.0,34.1,34.6,34.6,2.1,3.7,2.685,0.12416174803418299,-0.06472903431134303,0.9600140338657989,-0.01691899885760401,-0.282404,-23.491002
11.185,2.0,1.0,1.0,34.1,34.6,34.6,2.1,3.7,2.6875,0.110204423829906,-0.0663888935797748,0.960722176047985,-0.0184441164508715,-0.29127,-23.235194
11.185,2.0,1.0,1.0,34.1,34.6,34.6,2.1,3.7,2.69,0.09604147544742432,-0.06810108113469082,0.9611959569096877,-0.020067801242530693,-0.300617,-22.975286
11.185,2.0,1.0,1.0,34.1,34.6,34.6,2.1,3.7,2.6925,0.0816696026162758,-0.06986731479807001,0.9614230344673305,-0.021797572282510832,-0.310484,-22.711127
11.185,2.0,1.0,1.0,34.1,34.6,34.6,2.1,3.7,2.695,0.06708551776820176,-0.07168930449787593,0.9613901816182316,-0.023641650397029854,-0.320911,-22.442559
11.185,2.0,1.0,1.0,34.1,34.6,34.6,2.1,3.7,2.6975,0.052285967028362634,-0.07356873317394698,0.961083199384018,-0.02560903612740458,-0.331945,-22.169415
11.185,2.0,1.0,1.0,34.1,34.6,34.6,2.1,3.7,2.7,0.03726775644043149,-0.0755072326273179,0.9604868196105748,-0.027709597606623212,-0.343638,-21.891518
11.185,2.0,1.0,1.0,34.1,34.6,34.6,2.1,3.7,2.7025,0.022027784640758514,-0.07750635312078029,0.9595845956654658,-0.02995416977297098,-0.356047,-21.608686
11.185,2.0,1.0,1.0,34.1,34.6,34.6,2.1,3.7,2.705,0.006563083488006128,-0.07956752525191689,0.9583587794596472,-0.032354666526507626,-0.369234,-21.320722
11.185,2.0,1.0,1.0,34.1,34.6,34.6,2.1,3.7,2.7075,-0.009129131480676426,-0.08169201226076454,0.9567901828762889,-0.03492420766947577,-0.38327,-21.027422
11.185,2.0,1.0,1.0,34.1,34.6,34.6,2.1,3.7,2.71,-0.02505139843767027,-0.08388085048320461,0.954858021413078,-0.03767726273817864,-0.398236,-20.728569
11.185,2.0,1.0,1.0,34.1,34.6,34.6,2.1,3.7,2.7125,-0.04120593159106775,-0.08613477509323879,0.9525397375335661,-0.040629814133205974,-0.414218,-20.423936
11.185,2.0,1.0,1.0,34.1,34.6,34.6,2.1,3.7,2.715,-0.057594524814839586,-0.08845412756042444,0.949810800877569,-0.043799542287315515,-0.431318,-20.113281
11.185,2.0,1.0,1.0,34.1,34.6,34.6,2.1,3.7,2.7175,-0.0742184320276444,-0.09083874034169245,0.946644482102376,-0.04720603597354792,-0.449648,-19.796351
11.185,2.0,1.0,1.0,34.1,34.6,34.6,2.1,3.7,2.72,-0.0910782185964591,-0.09328779317639195,0.9430115967217542,-0.050871031243797535,-0.469336,-19.472878
11.185,2.0,1.0,1.0,34.1,34.6,34.6,2.1,3.7,2.7225,-0.10817357655605493,-0.09579963389114692,0.9388802148915064,-0.05481868288696302,-0.490525,-19.14258
11.185,2.0,1.0,1.0,34.1,34.6,34.6,2.1,3.7,2.725,-0.12550309454313863,-0.09837155475846644,0.934215332682139,-0.05907587268220473,-0.51338,-18.805158
11.185,2.0,1.0,1.0,34.1,34.6,34.6,2.1,3.7,2.7275,-0.14306397092918546,-0.1009995130759719,0.9289785000210974,-0.06367255905674736,-0.53809,-18.460298
11.185,2.0,1.0,1.0,34.1,34.6,34.6,2.1,3.7,2.73,-0.1608516555486054,-0.10367778159461145,0.923127400244547,-0.06864217297375248,-0.56487,-18.107672
11.185,2.0,1.0,1.0,34.1,34.6,34.6,2.1,3.7,2.7325,-0.17885940146749796,-0.10639851053583763,0.9166153761758032,-0.07402206487058392,-0.593966,-17.746931
11.185,2.0,1.0,1.0,34.1,34.6,34.6,2.1,3.7,2.735,-0.19707770317729523,-0.1091511779585947,0.909390898007348,-0.07985400707947278,-0.625667,-17.37771
11.185,2.0,1.0,1.0,34.1,34.6,34.6,2.1,3.7,2.7375,-0.2154935911167286,-0.11192189886224335,0.9013969692574052,-0.08618475514176642,-0.660301,-16.99963
11.185,2.0,1.0,1.0,34.1,34.6,34.6,2.1,3.7,2.74,-0.23408974413567038,-0.11469255525983515,0.892570469085715,-0.09306666939202497,-0.698255,-16.612291
11.185,2.0,1.0,1.0,34.1,34.6,34.6,2.1,3.7,2.7425,-0.2528433709382835,-0.11743969905962982,0.8828414328720826,-0.10055839455988487,-0.739979,-16.215281
11.185,2.0,1.0,1.0,34.1,34.6,34.6,2.1,3.7,2.745,-0.27172479811115297,-0.12013316639454236,0.8721322790706431,-0.10872558904091453,-0.786002,-15.808172
11.185,2.0,1.0,1.0,34.1,34.6,34.6,2.1,3.7,2.7475,-0.2906956854095882,-0.12273432540930432,0.8603570002829928,-0.11764168560870965,-0.836944,-15.390529
11.185,2.0,1.0,1.0,34.1,34.6,34.6,2.1,3.7,2.75,-0.309706767874157,-0.125193858804178,0.84742035223276,-0.127388649716691,-0.893545,-14.961907
11.185,2.0,1.0,1.0,34.1,34.6,34.6,2.1,3.7,2.7525,-0.3286949985191147,-0.12744895710234935,0.8332170988249569,-0.1380576772577669,-0.95668,-14.521864
11.185,2.0,1.0,1.0,34.1,34.6,34.6,2.1,3.7,2.755,-0.34757993459267766,-0.1294197684948955,0.8176314090810443,-0.14974973642999964,-1.027398,-14.06997
11.185,2.0,1.0,1.0,34.1,34.6,34.6,2.1,3.7,2.7575,-0.3662591754827272,-0.13100491696544816,0.8005365587764919,-0.1625758019701094,-1.106957,-13.605815
11.185,2.0,1.0,1.0,34.1,34.6,34.6,2.1,3.7,2.76,-0.38460262385324745,-0.13207586482928804,0.7817951751130069,-0.1766565455653376,-1.196879,-13.129031
11.185,2.0,1.0,1.0,34.1,34.6,34.6,2.1,3.7,2.7625,-0.40244530984143234,-0.13246986509440933,0.7612603893374549,-0.19212112134272283,-1.299008,-12.63932
11.185,2.0,1.0,1.0,34.1,34.6,34.6,2.1,3.7,2.765,-0.4195785041764951,-0.1319812360992392,0.7387784467570957,-0.20910450338046993,-1.415592,-12.13648
11.185,2.0,1.0,1.0,34.1,34.6,34.6,2.1,3.7,2.7675,-0.4357388748936673,-0.1303507204210473,0.7141935872198388,-0.2277425724770544,-1.549387,-11.620457
11.185,2.0,1.0,1.0,34.1,34.6,34.6,2.1,3.7,2.77,-0.45059555914970734,-0.12725280675507625,0.687356374979342,-0.24816378932511787,-1.703778,-11.091402
11.185,2.0,1.0,1.0,34.1,34.6,34.6,2.1,3.7,2.7725,-0.46373530442182836,-0.12228117419396005,0.6581371427418151,-0.27047581355781297,-1.882944,-10.549755
11.185,2.0,1.0,1.0,34.1,34.6,34.6,2.1,3.7,2.775,-0.4746464092835905,-0.11493298839756373,0.6264468147180304,-0.29474483918087296,-2.092049,-9.996349
11.185,2.0,1.0,1.0,34.1,34.6,34.6,2.1,3.7,2.7775,-0.4827032565315823,-0.10459382894890568,0.5922680188537843,-0.3209647852921239,-2.337479,-9.432542
11.185,2.0,1.0,1.0,34.1,34.6,34.6,2.1,3.7,2.78,-0.48715504459812853,-0.09052681593198002,0.5556998821115022,-0.34901301175009386,-2.6271,-8.860393
11.185,2.0,1.0,1.0,34.1,34.6,34.6,2.1,3.7,2.7825,-0.48712517693046226,-0.07187231524482496,0.5170197529320817,-0.3785893886543417,-2.970524,-8.282865
11.185,2.0,1.0,1.0,34.1,34.6,34.6,2.1,3.7,2.785,-0.48163181196804794,-0.04766857905877897,0.4767634004543049,-0.4091372347458682,-3.379295,-7.704063
11.185,2.0,1.0,1.0,34.1,34.6,34.6,2.1,3.7,2.7875,-0.46964489954516997,-0.016908411026942984,0.435820504039287,-0.4397493261390001,-3.866807,-7.12948
11.185,2.0,1.0,1.0,34.1,34.6,34.6,2.1,3.7,2.79,-0.4501988702848893,0.021349309459423794,0.3955325317989752,-0.46907176478921025,-4.447544,-6.566227
11.185,2.0,1.0,1.0,34.1,34.6,34.6,2.1,3.7,2.7925,-0.42257879407532023,0.06779580601722046,0.35776404783544447,-0.49523431375293214,-5.134732,-6.023149
11.185,2.0,1.0,1.0,34.1,34.6,34.6,2.1,3.7,2.795,-0.386584085179048,0.12261246983754931,0.3248979733736597,-0.5158559632093149,-5.934497,-5.510755
11.185,2.0,1.0,1.0,34.1,34.6,34.6,2.1,3.7,2.7975,-0.3428398401408339,0.18516454819884498,0.2996899087609312,-0.5281895436908468,-6.832893,-5.04081
11.185,2.0,1.0,1.0,34.1,34.6,34.6,2.1,3.7,2.8,-0.2930715307933605,0.25373172038790787,0.2849264866806677,-0.5294592618339962,-7.770911,-4.6255
11.185,2.0,1.0,1.0,34.1,34.6,34.6,2.1,3.7,2.8025,-0.24020552135059745,0.32541105587106856,0.28289160449200285,-0.5173868027198592,-8.60983,-4.276147
11.185,2.0,1.0,1.0,34.1,34.6,34.6,2.1,3.7,2.805,-0.18815455993122532,0.39633067308202985,0.2947540136249929,-0.49079360683365925,-9.126372,-4.001645
11.185,2.0,1.0,1.0,34.1,34.6,34.6,2.1,3.7,2.8075,-0.141242518840683,0.4622182469801947,0.32009826850833983,-0.450060381215355,-9.121748,-3.806979
11.185,2.0,1.0,1.0,34.1,34.6,34.6,2.1,3.7,2.81,-0.10340152705068498,0.5191922189358547,0.3568322692105318,-0.3972145594356623,-8.600544,-3.692265
11.185,2.0,1.0,1.0,34.1,34.6,34.6,2.1,3.7,2.8125,-0.0774264224262109,0.564494575789507,0.40156170357782,-0.33555787103195,-7.766426,-3.652677
11.185,2.0,1.0,1.0,34.1,34.6,34.6,2.1,3.7,2.815,-0.06456655423553066,0.5968897963053196,0.4502958298555726,-0.26896871930384525,-6.841657,-3.679259
11.185,2.0,1.0,1.0,34.1,34.6,34.6,2.1,3.7,2.8175,-0.06456179263171395,0.6166257925789566,0.4992017479899791,-0.201158508598561,-5.962438,-3.760356
11.185,2.0,1.0,1.0,34.1,34.6,34.6,2.1,3.7,2.82,-0.0760191130685192,0.6250599684967014,0.5451527602021294,-0.13513218045850242,-5.185997,-3.883185
11.185,2.0,1.0,1.0,34.1,34.6,34.6,2.1,3.7,2.8225,-0.09691963953065043,0.6241578363987995,0.5859673614883292,-0.07295405415274928,-4.525315,-4.03518
11.185,2.0,1.0,1.0,34.1,34.6,34.6,2.1,3.7,2.825,-0.12507289026241644,0.6160445656893536,0.6203832932795714,-0.015774439083240985,-3.973772,-4.204911
11.185,2.0,1.0,1.0,34.1,34.6,34.6,2.1,3.7,2.8275,-0.15842783617142514,0.6026980418648967,0.6478794026637581,0.035994454798947306,-3.517892,-4.382542
11.185,2.0,1.0,1.0,34.1,34.6,34.6,2.1,3.7,2.83,-0.19523419482450935,0.5857894380755142,0.6684514349091915,0.08245792739728112,-3.143087,-4.559958
