1,w,sub_t,h,l1,l2,l3,g1,g2,Freq,S11_re,S21_re,S11_img,S21_img,S11_dB,S21_dB
11.185,2.0,1.0,1.0,33.0,33.5,33.5,4.0,1.5,2.5,0.898659384773947,-0.00559503192485943,0.425913319351302,0.00606231045338864,-0.048077,-41.671336
11.185,2.0,1.0,1.0,33.0,33.5,33.5,4.0,1.5,2.5025,0.8960369720409789,-0.005716159812022101,0.431296687330374,0.006105790205546934,-0.04848,-41.551803
11.185,2.0,1.0,1.0,33.0,33.5,33.5,4.0,1.5,2.505,0.8933724641901228,-0.005839543449374867,0.4366822694983538,0.006149131162643023,-0.04889,-41.431981
11.185,2.0,1.0,1.0,33.0,33.5,33.5,4.0,1.5,2.5075,0.8906654858351515,-0.005965231115105927,0.44206993949819673,0.006192319698479439,-0.049307,-41.311863
11.185,2.0,1.0,1.0,33.0,33.5,33.5,4.0,1.5,2.51,0.8879156552521267,-0.006093272458040989,0.44745956725072916,0.0062353416173212,-0.049731,-41.191438
11.185,2.0,1.0,1.0,33.0,33.5,33.5,4.0,1.5,2.5125,0.8851225842557872,-0.006223718546466803,0.4528510188276953,0.0062781821283152996,-0.050163,-41.070697
11.185,2.0,1.0,1.0,33.0,33.5,33.5,4.0,1.5,2.515,0.8822858780729369,-0.006356621919060073,0.45824415632052795,0.006320825818624139,-0.050602,-40.949629
11.185,2.0,1.0,1.0,33.0,33.5,33.5,4.0,1.5,2.5175,0.8794051352127307,-0.00649203663802929,0.46363883770465575,0.006363256625199227,-0.051049,-40.828224
11.185,2.0,1.0,1.0,33.0,33.5,33.5,4.0,1.5,2.52,0.8764799473337416,-0.006630018344583485,0.469034916699201,0.006405457805116148,-0.051504,-40.706473
11.185,2.0,1.0,1.0,33.0,33.5,33.5,4.0,1.5,2.5225,0.8735098991077082,-0.006770624316848305,0.47443224262185596,0.006447411904387696,-0.051967,-40.584365
11.185,2.0,1.0,1.0,33.0,33.5,33.5,4.0,1.5,2.525,0.8704945680798294,-0.006913913530357585,0.4798306602387766,0.006489100725165355,-0.052438,-40.46189
11.185,2.0,1.0,1.0,33.0,33.5,33.5,4.0,1.5,2.5275,0.8674335245254822,-0.007059946721256189,0.4852300096092804,0.006530505291234249,-0.052918,-40.339036
11.185,2.0,1.0,1.0,33.0,33.5,33.5,4.0,1.5,2.53,0.8643263313032341,-0.007208786452357587,0.4906301259251429,0.006571605811699505,-0.053407,-40.215793
11.185,2.0,1.0,1.0,33.0,33.5,33.5,4.0,1.5,2.5325,0.8611725437040015,-0.007360497182209292,0.49603083934427344,0.006612381642755815,-0.053904,-40.09215
11.185,2.0,1.0,1.0,33.0,33.5,33.5,4.0,1.5,2.535,0.8579717092962083,-0.007515145337328128,0.5014319748185502,0.006652811247423783,-0.054411,-39.968097
11.185,2.0,1.0,1.0,33.0,33.5,33.5,4.0,1.5,2.5375,0.8547233677667884,-0.007672799387777563,0.5068333519155571,0.006692872153129331,-0.054928,-39.84362
11.185,2.0,1.0,1.0,33.0,33.5,33.5,4.0,1.5,2.54,0.8514270507578623,-0.00783352992627024,0.5122347846339861,0.006732540906993052,-0.055454,-39.71871
11.185,2.0,1.0,1.0,33.0,33.5,33.5,4.0,1.5,2.5425,0.8480822816989135,-0.007997409750990236,0.5176360812124318,0.006771793028687903,-0.05599,-39.593354
11.185,2.0,1.0,1.0,33.0,33.5,33.5,4.0,1.5,2.545,0.8446885756342739,-0.008164513952342278,0.5230370439312996,0.006810602960712863,-0.056536,-39.46754
11.185,2.0,1.0,1.0,33.0,33.5,33.5,4.0,1.5,2.5475,0.8412454390457311,-0.00833492000384779,0.5284374689075306,0.006848944015919447,-0.057092,-39.341257
11.185,2.0,1.0,1.0,33.0,33.5,33.5,4.0,1.5,2.55,0.8377523696700282,-0.008508707857422918,0.5338371458818434,0.006886788322116832,-0.05766,-39.214491
11.185,2.0,1.0,1.0,33.0,33.5,33.5,4.0,1.5,2.5525,0.8342088563110559,-0.008685960043287871,0.5392358579981463,0.006924106763567621,-0.058238,-39.08723
11.185,2.0,1.0,1.0,33.0,33.5,33.5,4.0,1.5,2.555,0.8306143786464819,-0.008866761774774117,0.5446333815747957,0.006960868919173371,-0.058828,-38.959462
11.185,2.0,1.0,1.0,33.0,33.5,33.5,4.0,1.5,2.5575,0.8269684070285728,-0.009051201058313512,0.550029485867327,0.006997042997133885,-0.059429,-38.831173
11.185,2.0,1.0,1.0,33.0,33.5,33.5,4.0,1.5,2.56,0.8232704022789404,-0.009239368808912041,0.5554239328222704,0.007032595765847781,-0.060042,-38.702349
11.185,2.0,1.0,1.0,33.0,33.5,33.5,4.0,1.5,2.5625,0.8195198154769274,-0.009431358971431431,0.5608164768216495,0.007067492480805003,-0.060668,-38.572978
11.185,2.0,1.0,1.0,33.0,33.5,33.5,4.0,1.5,2.565,0.8157160877413203,-0.009627268648024349,0.5662068644177327,0.007101696807202369,-0.061306,-38.443045
11.185,2.0,1.0,1.0,33.0,33.5,33.5,4.0,1.5,2.5675,0.8118586500050778,-0.009827198232091631,0.5715948340575765,0.007135170737993153,-0.061957,-38.312537
11.185,2.0,1.0,1.0,33.0,33.5,33.5,4.0,1.5,2.57,0.8079469227827146,-0.010031251549156076,0.5769801157968778,0.007167874507058962,-0.062622,-38.181437
11.185,2.0,1.0,1.0,33.0,33.5,33.5,4.0,1.5,2.5725,0.8039803159299763,-0.010239536005074983,0.5823624310026302,0.007199766497167823,-0.0633,-38.049733
11.185,2.0,1.0,1.0,33.0,33.5,33.5,4.0,1.5,2.575,0.799958228395407,-0.010452162742042297,0.5877414920440296,0.007230803142356457,-0.063992,-37.917408
11.185,2.0,1.0,1.0,33.0,33.5,33.5,4.0,1.5,2.5775,0.7958800479633843,-0.01066924680286454,0.5931170019710535,0.007260938824345127,-0.064699,-37.784448
11.185,2.0,1.0,1.0,33.0,33.5,33.5,4.0,1.5,2.58,0.7917451509881702,-0.010890907304027551,0.5984886541800993,0.007290125762562459,-0.065421,-37.650835
11.185,2.0,1.0,1.0,33.0,33.5,33.5,4.0,1.5,2.5825,0.7875529021184821,-0.011117267618110365,0.6038561320660228,0.007318313897323563,-0.066159,-37.516555
11.185,2.0,1.0,1.0,33.0,33.5,33.5,4.0,1.5,2.585,0.7833026540120693,-0.011348455566140905,0.6092191086598804,0.007345450765666556,-0.066912,-37.38159
11.185,2.0,1.0,1.0,33.0,33.5,33.5,4.0,1.5,2.5875,0.7789937470397242,-0.01158460362053324,0.6145772462516262,0.007371481369313163,-0.067682,-37.245924
11.185,2.0,1.0,1.0,33.0,33.5,33.5,4.0,1.5,2.59,0.7746255089781319,-0.011825849119292716,0.6199301959969693,0.007396348034172512,-0.068469,-37.109539
11.185,2.0,1.0,1.0,33.0,33.5,33.5,4.0,1.5,2.5925,0.7701972546908978,-0.012072334492226729,0.6252775975075362,0.007419990260760215,-0.069273,-36.972417
11.185,2.0,1.0,1.0,33.0,33.5,33.5,4.0,1.5,2.595,0.7657082857970672,-0.012324207499953799,0.6306190784234224,0.007442344564850032,-0.070095,-36.834539
11.185,2.0,1.0,1.0,33.0,33.5,33.5,4.0,1.5,2.5975,0.7611578903263672,-0.01258162148656508,0.6359542539671681,0.007463344307617472,-0.070936,-36.695888
11.185,2.0,1.0,1.0,33.0,33.5,33.5,4.0,1.5,2.6,0.7565453423603657,-0.01284473564685643,0.6412827264780949,0.007482919514469676,-0.071795,-36.556444
11.185,2.0,1.0,1.0,33.0,33.5,33.5,4.0,1.5,2.6025,0.7518699016586725,-0.01311371530912045,0.6466040849258803,0.0075009966816862615,-0.072675,-36.416187
11.185,2.0,1.0,1.0,33.0,33.5,33.5,4.0,1.5,2.605,0.747130813269226,-0.013388732234566067,0.651917904402167,0.007517498569916752,-0.073575,-36.275097
11.185,2.0,1.0,1.0,33.0,33.5,33.5,4.0,1.5,2.6075,0.7423273071216462,-0.013669964934515689,0.6572237455888902,0.007532343983496476,-0.074496,-36.133153
11.185,2.0,1.0,1.0,33.0,33.5,33.5,4.0,1.5,2.61,0.7374585976025461,-0.013957599006621938,0.6625211542019236,0.007545447534446935,-0.075439,-35.990334
11.185,2.0,1.0,1.0,33.0,33.5,33.5,4.0,1.5,2.6125,0.7325238831115986,-0.014251827491446266,0.6678096604085241,0.007556719389924625,-0.076405,-35.846617
11.185,2.0,1.0,1.0,33.0,33.5,33.5,4.0,1.5,2.615,0.7275223455970566,-0.01455285125084869,0.6730887782169424,0.00756606500176692,-0.077394,-35.70198
11.185,2.0,1.0,1.0,33.0,33.5,33.5,4.0,1.5,2.6175,0.7224531500693221,-0.014860879369757551,0.678358004836412,0.007573384816657555,-0.078407,-35.556399
11.185,2.0,1.0,1.0,33.0,33.5,33.5,4.0,1.5,2.62,0.7173154440910299,-0.015176129583016664,0.6836168200056071,0.007578573965294719,-0.079445,-35.409851
11.185,2.0,1.0,1.0,33.0,33.5,33.5,4.0,1.5,2.6225,0.7121083572419804,-0.015498828729149119,0.6888646852874811,0.007581521928790304,-0.080509,-35.262311
11.185,2.0,1.0,1.0,33.0,33.5,33.5,4.0,1.5,2.625,0.706831000557126,-0.0158292132330302,0.694101043328212,0.00758211218035747,-0.0816,-35.113754
11.185,2.0,1.0,1.0,33.0,33.5,33.5,4.0,1.5,2.6275,0.7014824659356322,-0.016167529619632418,0.6993253170778087,0.007580221800154228,-0.082719,-34.964152
11.185,2.0,1.0,1.0,33.0,33.5,33.5,4.0,1.5,2.63,0.6960618255188823,-0.01651403506118929,0.7045369089696777,0.00757572106093937,-0.083866,-34.81348
11.185,2.0,1.0,1.0,33.0,33.5,33.5,4.0,1.5,2.6325,0.6905681310350895,-0.016868997960328203,0.7097352000562376,0.007568472981963698,-0.085044,-34.661709
11.185,2.0,1.0,1.0,33.0,33.5,33.5,4.0,1.5,2.635,0.6850004131079774,-0.017232698571944663,0.714919549097375,0.00755833284825797,-0.086253,-34.508811
11.185,2.0,1.0,1.0,33.0,33.5,33.5,4.0,1.5,2.6375,0.6793576805267556,-0.017605429666834434,0.720089291598247,0.007545147692189274,-0.087494,-34.354755
11.185,2.0,1.0,1.0,33.0,33.5,33.5,4.0,1.5,2.64,0.6736389194743494,-0.017987497240369275,0.7252437387926096,0.0075287557338331555,-0.088768,-34.199511
11.185,2.0,1.0,1.0,33.0,33.5,33.5,4.0,1.5,2.6425,0.6678430927105842,-0.018379221269795843,0.7303821765674581,0.0075089857763472835,-0.090077,-34.043047
11.185,2.0,1.0,1.0,33.0,33.5,33.5,4.0,1.5,2.645,0.6619691387066894,-0.018780936524063034,0.7355038643243672,0.007485656552127906,-0.091423,-33.885331
11.185,2.0,1.0,1.0,33.0,33.5,33.5,4.0,1.5,2.6475,0.6560159707271629,-0.019192993430440203,0.7406080337724542,0.007458576015077284,-0.092807,-33.726328
11.185,2.0,1.0,1.0,33.0,33.5,33.5,4.0,1.5,2.65,0.6499824758546303,-0.01961575900258431,0.7456938876473691,0.007427540573802767,-0.094229,-33.566003
11.185,2.0,1.0,1.0,33.0,33.5,33.5,4.0,1.5,2.6525,0.6438675139529535,-0.020049617835146864,0.7507605983501192,0.007392334259997731,-0.095693,-33.40432
11.185,2.0,1.0,1.0,33.0,33.5,33.5,4.0,1.5,2.655,0.637669916563331,-0.02049497317049526,0.7558073064989166,0.007352727825614211,-0.097199,-33.241241
11.185,2.0,1.0,1.0,33.0,33.5,33.5,4.0,1.5,2.6575,0.6313884857276484,-0.020952248043652102,0.7608331193864712,0.007308477761715204,-0.09875,-33.076727
11.185,2.0,1.0,1.0,33.0,33.5,33.5,4.0,1.5,2.66,0.6250219927327516,-0.021421886512144713,0.765837109334351,0.007259325231081694,-0.100348,-32.910737
11.185,2.0,1.0,1.0,33.0,33.5,33.5,4.0,1.5,2.6625,0.6185691767686898,-0.02190435497810742,0.7708183119350795,0.007204994905730684,-0.101994,-32.74323
11.185,2.0,1.0,1.0,33.0,33.5,33.5,4.0,1.5,2.665,0.612028743493249,-0.022400143610701893,0.7757757241716199,0.007145193699463003,-0.10369,-32.574161
11.185,2.0,1.0,1.0,33.0,33.5,33.5,4.0,1.5,2.6675,0.6053993634943449,-0.02290976787771782,0.7807083024026696,0.007079609384382591,-0.10544,-32.403485
11.185,2.0,1.0,1.0,33.0,33.5,33.5,4.0,1.5,2.67,0.5986796706409412,-0.023433770196107893,0.7856149602008761,0.007007909078996756,-0.107246,-32.231156
11.185,2.0,1.0,1.0,33.0,33.5,33.5,4.0,1.5,2.6725,0.5918682603122009,-0.02397272171219479,0.7904945660295408,0.006929737593990062,-0.109109,-32.057123
11.185,2.0,1.0,1.0,33.0,33.5,33.5,4.0,1.5,2.675,0.5849636874935041,-0.02452722422338687,0.7953459407416343,0.006844715620041181,-0.111033,-31.881336
11.185,2.0,1.0,1.0,33.0,33.5,33.5,4.0,1.5,2.6775,0.5779644647267472,-0.025097912254459342,0.8001678548829814,0.006752437740086135,-0.113022,-31.703743
11.185,2.0,1.0,1.0,33.0,33.5,33.5,4.0,1.5,2.68,0.5708690599009906,-0.025685455302818624,0.8049590257792058,0.006652470246186568,-0.115077,-31.524286
11.185,2.0,1.0,1.0,33.0,33.5,33.5,4.0,1.5,2.6825,0.5636758938680387,-0.026290560268682605,0.8097181143834354,0.00654434873859405,-0.117203,-31.342909
11.185,2.0,1.0,1.0,33.0,33.5,33.5,4.0,1.5,2.685,0.5563833378658308,-0.02691397408780182,0.8144437218588312,0.006427575481659052,-0.119403,-31.159551
11.185,2.0,1.0,1.0,33.0,33.5,33.5,4.0,1.5,2.6875,0.548989710730659,-0.0275564865862329,0.819134385866576,0.00630161648785368,-0.121681,-30.97415
11.185,2.0,1.0,1.0,33.0,33.5,33.5,4.0,1.5,2.69,0.541493275877137,-0.028218933578784806,0.8237885765260793,0.006165898297291116,-0.124041,-30.78664
11.185,2.0,1.0,1.0,33.0,33.5,33.5,4.0,1.5,2.6925,0.5338922380224626,-0.028902200235115298,0.8284046920096438,0.00601980441564326,-0.126487,-30.596951
11.185,2.0,1.0,1.0,33.0,33.5,33.5,4.0,1.5,2.695,0.5261847396289274,-0.029607224740087864,0.8329810537286305,0.005862671368183596,-0.129025,-30.405013
11.185,2.0,1.0,1.0,33.0,33.5,33.5,4.0,1.5,2.6975,0.5183688570356313,-0.030335002277950388,0.8375159010621689,0.00569378432169114,-0.13166,-30.21075
11.185,2.0,1.0,1.0,33.0,33.5,33.5,4.0,1.5,2.7,0.5104425962470974,-0.031086589373190674,0.8420073855724551,0.005512372219004872,-0.134396,-30.014084
11.185,2.0,1.0,1.0,33.0,33.5,33.5,4.0,1.5,2.7025,0.5024038883427485,-0.03186310862461942,0.8464535646425945,0.00531760236293881,-0.13724,-29.814932
11.185,2.0,1.0,1.0,33.0,33.5,33.5,4.0,1.5,2.705,0.4942505844670764,-0.032665753873358176,0.8508523944634864,0.005108574376859032,-0.140199,-29.613206
11.185,2.0,1.0,1.0,33.0,33.5,33.5,4.0,1.5,2.7075,0.4859804503556695,-0.03349579585003603,0.8552017222852186,0.004884313458232663,-0.143279,-29.408818
11.185,2.0,1.0,1.0,33.0,33.5,33.5,4.0,1.5,2.71,0.47759116034707916,-0.034354588351664474,0.859499277835531,0.0046437628285933945,-0.146488,-29.20167
11.185,2.0,1.0,1.0,33.0,33.5,33.5,4.0,1.5,2.7125,0.46908029082464936,-0.035243575004441446,0.8637426637927504,0.004385775268271159,-0.149834,-28.991662
11.185,2.0,1.0,1.0,33.0,33.5,33.5,4.0,1.5,2.715,0.46044531302594477,-0.036164296675182075,0.8679293451827703,0.00410910360647084,-0.153326,-28.77869
11.185,2.0,1.0,1.0,33.0,33.5,33.5,4.0,1.5,2.7175,0.4516835851501311,-0.03711839960126441,0.8720566375486223,0.0038123900163346,-0.156974,-28.562641
11.185,2.0,1.0,1.0,33.0,33.5,33.5,4.0,1.5,2.72,0.44279234368557235,-0.038107644316970675,0.8761216937163109,0.0034941539398442314,-0.160787,-28.343398
11.185,2.0,1.0,1.0,33.0,33.5,33.5,4.0,1.5,2.7225,0.4337686938708976,-0.039133915462972596,0.8801214889510903,0.0031527784380334916,-0.164779,-28.120837
11.185,2.0,1.0,1.0,33.0,33.5,33.5,4.0,1.5,2.725,0.42460959919288505,-0.040199232575494306,0.8840528042632652,0.00278649472703363,-0.16896,-27.894827
11.185,2.0,1.0,1.0,33.0,33.5,33.5,4.0,1.5,2.7275,0.4153118698134998,-0.041305761962450824,0.8879122075807606,0.0023933646187877023,-0.173344,-27.665231
11.185,2.0,1.0,1.0,33.0,33.5,33.5,4.0,1.5,2.73,0.40587214980651776,-0.042455829785588976,0.8916960324556158,0.0019712605354022306,-0.177948,-27.431901
11.185,2.0,1.0,1.0,33.0,33.5,33.5,4.0,1.5,2.7325,0.3962869030711292,-0.04365193648034972,0.8954003539114722,0.0015178427062565159,-0.182787,-27.194682
11.185,2.0,1.0,1.0,33.0,33.5,33.5,4.0,1.5,2.735,0.38655239777609113,-0.044896772658701026,0.8990209609667622,0.00103053308494882,-0.18788,-26.95341
11.185,2.0,1.0,1.0,33.0,33.5,33.5,4.0,1.5,2.7375,0.3766646891733394,-0.046193236654376885,0.9025533252809167,0.0005064854361454727,-0.193247,-26.70791
11.185,2.0,1.0,1.0,33.0,33.5,33.5,4.0,1.5,2.74,0.3666196006050281,-0.047544453884428406,0.9059925652649705,-5.744906304055323e-05,-0.198909,-26.457996
11.185,2.0,1.0,1.0,33.0,33.5,33.5,4.0,1.5,2.7425,0.35641270251312096,-0.04895379821517955,0.9093334048691579,-0.0006647614907284285,-0.204893,-26.203471
11.185,2.0,1.0,1.0,33.0,33.5,33.5,4.0,1.5,2.745,0.346039289246967,-0.05042491553365176,0.9125701261028466,-0.0013193310570456538,-0.211225,-25.944124
11.185,2.0,1.0,1.0,33.0,33.5,33.5,4.0,1.5,2.7475,0.3354943534529876,-0.051961749735900294,0.9156965141496258,-0.0020254783216469415,-0.217937,-25.679731
11.185,2.0,1.0,1.0,33.0,33.5,33.5,4.0,1.5,2.75,0.324772557823842,-0.0535685713493797,0.918705793703608,-0.00278802711914893,-0.225062,-25.410051
11.185,2.0,1.0,1.0,33.0,33.5,33.5,4.0,1.5,2.7525,0.3138682039852331,-0.055250009004332065,0.921590554860861,-0.003612376850263973,-0.232639,-25.134827
11.185,2.0,1.0,1.0,33.0,33.5,33.5,4.0,1.5,2.755,0.30277519831144695,-0.05701108395468914,0.9243426665379468,-0.004504587156386534,-0.240711,-24.853785
11.185,2.0,1.0,1.0,33.0,33.5,33.5,4.0,1.5,2.7575,0.29148701449231235,-0.05885724781541915,0.926953174939385,-0.005471477443019801,-0.249328,-24.566631
11.185,2.0,1.0,1.0,33.0,33.5,33.5,4.0,1.5,2.76,0.27999665273443425,-0.06079442362083527,0.9294121840337255,-0.006520744276297968,-0.258545,-24.273047
11.185,2.0,1.0,1.0,33.0,33.5,33.5,4.0,1.5,2.7625,0.26829659558220637,-0.06282905020289771,0.9317087142931337,-0.007661100377424367,-0.268425,-23.972693
11.185,2.0,1.0,1.0,33.0,33.5,33.5,4.0,1.5,2.765,0.25637876051021663,-0.06496812971915625,0.9338305350641593,-0.008902439821576642,-0.279039,-23.665203
11.185,2.0,1.0,1.0,33.0,33.5,33.5,4.0,1.5,2.7675,0.24423444969831254,-0.06721927789634594,0.9357639648159296,-0.010256035162057208,-0.290469,-23.350181
11.185,2.0,1.0,1.0,33.0,33.5,33.5,4.0,1.5,2.77,0.23185429779827352,-0.06959077615327965,0.9374936320889354,-0.011734773614081016,-0.30281,-23.0272
11.185,2.0,1.0,1.0,33.0,33.5,33.5,4.0,1.5,2.7725,0.21922821910199689,-0.07209162416023951,0.9390021881546788,-0.013353441232941859,-0.316169,-22.695798
11.185,2.0,1.0,1.0,33.0,33.5,33.5,4.0,1.5,2.775,0.20634535642155089,-0.07473159048525081,0.9402699600785525,-0.015129066322545457,-0.330674,-22.355474
11.185,2.0,1.0,1.0,33.0,33.5,33.5,4.0,1.5,2.7775,0.19319403533412266,-0.07752125762776316,0.9412745299046686,-0.0170813362616249,-0.34647,-22.005686
11.185,2.0,1.0,1.0,33.0,33.5,33.5,4.0,1.5,2.78,0.17976172944221858,-0.0804720557350877,0.9419902218554572,-0.019233105730841953,-0.363728,-21.645844
11.185,2.0,1.0,1.0,33.0,33.5,33.5,4.0,1.5,2.7825,0.1660350452696028,-0.08359627631877131,0.9423874745054234,-0.021611019216752955,-0.382649,-21.275306
11.185,2.0,1.0,1.0,33.0,33.5,33.5,4.0,1.5,2.785,0.1519997398352437,-0.08690705285895658,0.9424320685190534,-0.024246276982683335,-0.403471,-20.893373
11.185,2.0,1.0,1.0,33.0,33.5,33.5,4.0,1.5,2.7875,0.13764079054670025,-0.09041828858094986,0.9420841723212489,-0.02717558184237746,-0.426477,-20.499284
11.185,2.0,1.0,1.0,33.0,33.5,33.5,4.0,1.5,2.79,0.12294254693619923,-0.09414450180757088,0.9412971574811443,-0.030442314555457126,-0.452004,-20.092208
11.185,2.0,1.0,1.0,33.0,33.5,33.5,4.0,1.5,2.7925,0.10788900862249816,-0.09810054444436984,0.9400161220321929,-0.03409799907733117,-0.480458,-19.671239
11.185,2.0,1.0,1.0,33.0,33.5,33.5,4.0,1.5,2.795,0.09246429633267174,-0.10230112673977108,0.9381760427742833,-0.038204135872713346,-0.512331,-19.235388
11.185,2.0,1.0,1.0,33.0,33.5,33.5,4.0,1.5,2.7975,0.07665341691091211,-0.10676004744710801,0.9356994562533171,-0.04283450257275656,-0.548224,-18.78358
11.185,2.0,1.0,1.0,33.0,33.5,33.5,4.0,1.5,2.8,0.06044347527738958,-0.11148897663187386,0.9324935424650812,-0.0480780465146444,-0.588875,-18.314645
11.185,2.0,1.0,1.0,33.0,33.5,33.5,4.0,1.5,2.8025,0.04382556610296255,-0.11649555884933151,0.9284464564319723,-0.054042522058405644,-0.635197,-17.827317
11.185,2.0,1.0,1.0,33.0,33.5,33.5,4.0,1.5,2.805,0.02679770082967984,-0.12178048207014526,0.9234227244580382,-0.06085905316956321,-0.688333,-17.320236
11.185,2.0,1.0,1.0,33.0,33.5,33.5,4.0,1.5,2.8075,0.009369315253015391,-0.12733296906871325,0.9172575039219536,-0.0686878186828971,-0.749721,-16.791955
11.185,2.0,1.0,1.0,33.0,33.5,33.5,4.0,1.5,2.81,-0.008431804770517377,-0.1331238572730023,0.9097495204804893,-0.0777250413049877,-0.82119,-16.240961
11.185,2.0,1.0,1.0,33.0,33.5,33.5,4.0,1.5,2.8125,-0.026548893641977,-0.13909498765215,0.900652593219174,-0.0882113630788168,-0.905082,-15.665717
11.185,2.0,1.0,1.0,33.0,33.5,33.5,4.0,1.5,2.815,-0.044879908801417664,-0.14514295048323758,0.8896659378954155,-0.10044140861098409,-1.004423,-15.064729
11.185,2.0,1.0,1.0,33.0,33.5,33.5,4.0,1.5,2.8175,-0.06325260790047595,-0.15109424989729078,0.876424105811064,-0.11477366867900331,-1.123151,-14.436677
11.185,2.0,1.0,1.0,33.0,33.5,33.5,4.0,1.5,2.82,-0.0813866694261545,-0.1566675906878768,0.8604888732446055,-0.13163838052325402,-1.266417,-13.780618
11.185,2.0,1.0,1.0,33.0,33.5,33.5,4.0,1.5,2.8225,-0.09883687434233719,-0.16141736288866768,0.841348401841601,-0.15153808365584776,-1.440959,-13.096324
11.185,2.0,1.0,1.0,33.0,33.5,33.5,4.0,1.5,2.825,-0.11491008070626173,-0.16465114967546843,0.8184348755596395,-0.1750296700238165,-1.655539,-12.384827
11.185,2.0,1.0,1.0,33.0,33.5,33.5,4.0,1.5,2.8275,-0.12854995014820844,-0.16531535729696256,0.791182607802351,-0.2026660231134438,-1.921302,-11.649269
11.185,2.0,1.0,1.0,33.0,33.5,33.5,4.0,1.5,2.83,-0.1381928403236399,-0.1618525569360981,0.7591663163005682,-0.23485777790244472,-2.251687,-10.896188
