1,w,sub_t,h,l1,l2,l3,g1,g2,Freq,S11_re,S21_re,S11_img,S21_img,S11_dB,S21_dB
11.185,2.0,1.0,1.0,33.3,33.4,33.4,4.0,2.0,2.5,0.870763290919808,-0.00604660063707562,0.479941869483924,0.00540447818053342,-0.049913,-41.819737
11.185,2.0,1.0,1.0,33.3,33.4,33.4,4.0,2.0,2.5025,0.8676602056228457,-0.006168714820878404,0.48542875577672046,0.005432062421035467,-0.050342,-41.703081
11.185,2.0,1.0,1.0,33.3,33.4,33.4,4.0,2.0,2.505,0.8645100866328714,-0.0062929568126521875,0.4909159563476526,0.005459161074083763,-0.050777,-41.586171
11.185,2.0,1.0,1.0,33.3,33.4,33.4,4.0,2.0,2.5075,0.8613125004975666,-0.006419367587355239,0.4964032801644242,0.005485752063589662,-0.05122,-41.468998
11.185,2.0,1.0,1.0,33.3,33.4,33.4,4.0,2.0,2.51,0.8580670070344617,-0.0065479891505353886,0.5018905306487439,0.0055118125272929875,-0.05167,-41.351554
11.185,2.0,1.0,1.0,33.3,33.4,33.4,4.0,2.0,2.5125,0.8547731592220419,-0.006678864570561404,0.5073775054995974,0.0055373187851657435,-0.052127,-41.233831
11.185,2.0,1.0,1.0,33.3,33.4,33.4,4.0,2.0,2.515,0.8514305030891899,-0.006812038012055401,0.5128639965108724,0.005562246306386428,-0.052592,-41.115821
11.185,2.0,1.0,1.0,33.3,33.4,33.4,4.0,2.0,2.5175,0.8480385776029475,-0.006947554770579256,0.5183497893831216,0.005586569674811235,-0.053064,-40.997516
11.185,2.0,1.0,1.0,33.3,33.4,33.4,4.0,2.0,2.52,0.8445969145545634,-0.007085461308631525,0.5238346635292769,0.00561026255286532,-0.053544,-40.878906
11.185,2.0,1.0,1.0,33.3,33.4,33.4,4.0,2.0,2.5225,0.8411050384438249,-0.007225805293013096,0.5293183918740765,0.0056332976437713485,-0.054032,-40.759984
11.185,2.0,1.0,1.0,33.3,33.4,33.4,4.0,2.0,2.525,0.8375624663616348,-0.007368635633624506,0.5348007406470061,0.005655646652029631,-0.054529,-40.640741
11.185,2.0,1.0,1.0,33.3,33.4,33.4,4.0,2.0,2.5275,0.8339687078708211,-0.0075140025237596135,0.5402814691685109,0.005677280242056534,-0.055034,-40.521168
11.185,2.0,1.0,1.0,33.3,33.4,33.4,4.0,2.0,2.53,0.8303232648851555,-0.007661957481964787,0.5457603296292349,0.005698167994884877,-0.055548,-40.401256
11.185,2.0,1.0,1.0,33.3,33.4,33.4,4.0,2.0,2.5325,0.8266256315465608,-0.007812553395536012,0.5512370668620447,0.0057182783628219845,-0.056071,-40.280996
11.185,2.0,1.0,1.0,33.3,33.4,33.4,4.0,2.0,2.535,0.822875294100478,-0.007965844565730653,0.5567114181065714,0.00573757862195639,-0.056603,-40.160379
11.185,2.0,1.0,1.0,33.3,33.4,33.4,4.0,2.0,2.5375,0.8190717307693801,-0.008121886754774037,0.562183112765997,0.005756034822396126,-0.057144,-40.039396
11.185,2.0,1.0,1.0,33.3,33.4,33.4,4.0,2.0,2.54,0.8152144116244001,-0.008280737234746365,0.567651872155801,0.0057736117361154695,-0.057695,-39.918036
11.185,2.0,1.0,1.0,33.3,33.4,33.4,4.0,2.0,2.5425,0.811302798455054,-0.008442454838439568,0.5731174092441779,0.005790272802278609,-0.058255,-39.796292
11.185,2.0,1.0,1.0,33.3,33.4,33.4,4.0,2.0,2.545,0.8073363446370311,-0.008607100012278903,0.5785794283838072,0.005805980069900701,-0.058826,-39.674152
11.185,2.0,1.0,1.0,33.3,33.4,33.4,4.0,2.0,2.5475,0.8033144949980313,-0.008774734871409187,0.5840376250346534,0.00582069413769761,-0.059407,-39.551607
11.185,2.0,1.0,1.0,33.3,33.4,33.4,4.0,2.0,2.55,0.7992366856816127,-0.008945423257051877,0.589491685477473,0.005834374090967008,-0.059999,-39.428647
11.185,2.0,1.0,1.0,33.3,33.4,33.4,4.0,2.0,2.5525,0.7951023440090377,-0.00911923079624415,0.5949412865176498,0.005846977435332261,-0.060602,-39.305261
11.185,2.0,1.0,1.0,33.3,33.4,33.4,4.0,2.0,2.555,0.7909108883390732,-0.009296224964078661,0.6003860951790145,0.005858460027170437,-0.061215,-39.18144
11.185,2.0,1.0,1.0,33.3,33.4,33.4,4.0,2.0,2.5575,0.7866617279257248,-0.009476475148568817,0.6058257683872575,0.005868776000533834,-0.061841,-39.057172
11.185,2.0,1.0,1.0,33.3,33.4,33.4,4.0,2.0,2.56,0.7823542627738712,-0.009660052718271729,0.611259952642521,0.005877877690361733,-0.062478,-38.932447
11.185,2.0,1.0,1.0,33.3,33.4,33.4,4.0,2.0,2.5625,0.7779878834927678,-0.009847031092808925,0.616688283680759,0.005885715551765535,-0.063127,-38.807254
11.185,2.0,1.0,1.0,33.3,33.4,33.4,4.0,2.0,2.565,0.7735619711473785,-0.010037485816433368,0.6221103861234265,0.005892238075156753,-0.063789,-38.681582
11.185,2.0,1.0,1.0,33.3,33.4,33.4,4.0,2.0,2.5675,0.769075897107511,-0.010231494634799304,0.627525873115019,0.005897391696970292,-0.064463,-38.555419
11.185,2.0,1.0,1.0,33.3,33.4,33.4,4.0,2.0,2.57,0.7645290228947061,-0.010429137575101997,0.632934345947993,0.00590112070571957,-0.06515,-38.428754
11.185,2.0,1.0,1.0,33.3,33.4,33.4,4.0,2.0,2.5725,0.7599207000268442,-0.010630497029763855,0.6383353936745516,0.0059033671431022935,-0.065851,-38.301575
11.185,2.0,1.0,1.0,33.3,33.4,33.4,4.0,2.0,2.575,0.7552502698604229,-0.010835657843853791,0.6437285927047592,0.0059040706998549864,-0.066566,-38.17387
11.185,2.0,1.0,1.0,33.3,33.4,33.4,4.0,2.0,2.5775,0.7505170634304622,-0.011044707406439423,0.6491135063904228,0.005903168606034451,-0.067295,-38.045627
11.185,2.0,1.0,1.0,33.3,33.4,33.4,4.0,2.0,2.58,0.7457204012879826,-0.011257735746081908,0.654489684594151,0.005900595515380482,-0.068038,-37.916832
11.185,2.0,1.0,1.0,33.3,33.4,33.4,4.0,2.0,2.5825,0.7408595933350018,-0.011474835630699107,0.6598566632429705,0.005896283383391547,-0.068797,-37.787475
11.185,2.0,1.0,1.0,33.3,33.4,33.4,4.0,2.0,2.585,0.7359339386569935,-0.01169610267203378,0.6652139638658389,0.005890161338715773,-0.069571,-37.657541
11.185,2.0,1.0,1.0,33.3,33.4,33.4,4.0,2.0,2.5875,0.7309427253527354,-0.011921635434981164,0.6705610931143735,0.005882155547433702,-0.07036,-37.527017
11.185,2.0,1.0,1.0,33.3,33.4,33.4,4.0,2.0,2.59,0.7258852303614893,-0.012151535552044433,0.6758975422660606,0.0058721890697766045,-0.071166,-37.395889
11.185,2.0,1.0,1.0,33.3,33.4,33.4,4.0,2.0,2.5925,0.7207607192874224,-0.012385907843205125,0.6812227867091846,0.005860181708790653,-0.071989,-37.264144
11.185,2.0,1.0,1.0,33.3,33.4,33.4,4.0,2.0,2.595,0.7155684462212025,-0.012624860441513076,0.6865362854086573,0.005846049850422163,-0.072829,-37.131768
11.185,2.0,1.0,1.0,33.3,33.4,33.4,4.0,2.0,2.5975,0.7103076535586591,-0.012868504924721042,0.6918374803519035,0.005829706294457178,-0.073687,-36.998745
11.185,2.0,1.0,1.0,33.3,33.4,33.4,4.0,2.0,2.6,0.7049775718164218,-0.013116956453310008,0.6971257959738875,0.005811060075708733,-0.074563,-36.865062
11.185,2.0,1.0,1.0,33.3,33.4,33.4,4.0,2.0,2.6025,0.6995774194444264,-0.01337033391527373,0.7024006385603201,0.005790016274796007,-0.075458,-36.730702
11.185,2.0,1.0,1.0,33.3,33.4,33.4,4.0,2.0,2.605,0.6941064026351617,-0.013628760078056539,0.7076613956280372,0.005766475817811031,-0.076372,-36.595651
11.185,2.0,1.0,1.0,33.3,33.4,33.4,4.0,2.0,2.6075,0.6885637151295307,-0.013892361748063301,0.7129074352814657,0.005740335264112074,-0.077307,-36.459893
11.185,2.0,1.0,1.0,33.3,33.4,33.4,4.0,2.0,2.61,0.6829485380191841,-0.014161269938189959,0.7181381055440259,0.005711486581423877,-0.078261,-36.32341
11.185,2.0,1.0,1.0,33.3,33.4,33.4,4.0,2.0,2.6125,0.6772600395451582,-0.01443562004385296,0.7233527336632629,0.005679816907359781,-0.079237,-36.186187
11.185,2.0,1.0,1.0,33.3,33.4,33.4,4.0,2.0,2.615,0.6714973748926469,-0.014715552028028475,0.7285506253884076,0.005645208296408752,-0.080235,-36.048207
11.185,2.0,1.0,1.0,33.3,33.4,33.4,4.0,2.0,2.6175,0.6656596859817163,-0.015001210615847445,0.7337310642189802,0.005607537451353935,-0.081256,-35.909451
11.185,2.0,1.0,1.0,33.3,33.4,33.4,4.0,2.0,2.62,0.6597461012537451,-0.015292745499330644,0.7388933106229719,0.005566675438003765,-0.0823,-35.769903
11.185,2.0,1.0,1.0,33.3,33.4,33.4,4.0,2.0,2.6225,0.6537557354533524,-0.015590311552888774,0.7440366012230345,0.005522487382024948,-0.083367,-35.629543
11.185,2.0,1.0,1.0,33.3,33.4,33.4,4.0,2.0,2.625,0.647687689405571,-0.0158940690602554,0.749160147948986,0.00547483214656431,-0.08446,-35.488352
11.185,2.0,1.0,1.0,33.3,33.4,33.4,4.0,2.0,2.6275,0.641541049787953,-0.01620418395356983,0.7542631371548512,0.005423561989236945,-0.085578,-35.346311
11.185,2.0,1.0,1.0,33.3,33.4,33.4,4.0,2.0,2.63,0.6353148888973181,-0.016520828065376025,0.7593447286985019,0.005368522196935508,-0.086723,-35.203401
11.185,2.0,1.0,1.0,33.3,33.4,33.4,4.0,2.0,2.6325,0.6290082644107802,-0.01684417939435979,0.7644040549818356,0.005309550696783529,-0.087895,-35.0596
11.185,2.0,1.0,1.0,33.3,33.4,33.4,4.0,2.0,2.635,0.6226202191406767,-0.017174422385705868,0.7694402199492745,0.005246477641408048,-0.089095,-34.914887
11.185,2.0,1.0,1.0,33.3,33.4,33.4,4.0,2.0,2.6375,0.6161497807829788,-0.017511748227019217,0.7744522980421952,0.0051791249665478385,-0.090324,-34.769241
11.185,2.0,1.0,1.0,33.3,33.4,33.4,4.0,2.0,2.64,0.609595961658704,-0.017856355160826082,0.7794393331067363,0.005107305918835216,-0.091584,-34.62264
11.185,2.0,1.0,1.0,33.3,33.4,33.4,4.0,2.0,2.6425,0.6029577584478307,-0.01820844881474307,0.7844003372522014,0.005030824551397079,-0.092874,-34.47506
11.185,2.0,1.0,1.0,33.3,33.4,33.4,4.0,2.0,2.645,0.5962341519151362,-0.018568242550483612,0.7893342896570766,0.0049494751847039215,-0.094197,-34.326478
11.185,2.0,1.0,1.0,33.3,33.4,33.4,4.0,2.0,2.6475,0.5894241066273403,-0.01893595783295897,0.7942401353194354,0.004863041829862005,-0.095554,-34.17687
11.185,2.0,1.0,1.0,33.3,33.4,33.4,4.0,2.0,2.65,0.5825265706608466,-0.019311824620824158,0.7991167837482371,0.004771297571281226,-0.096945,-34.026209
11.185,2.0,1.0,1.0,33.3,33.4,33.4,4.0,2.0,2.6525,0.5755404752993499,-0.019696081779920174,0.8039631075917215,0.004674003905363246,-0.098372,-33.874472
11.185,2.0,1.0,1.0,33.3,33.4,33.4,4.0,2.0,2.655,0.5684647347204391,-0.020088977521175926,0.8087779411988011,0.004570910031535727,-0.099837,-33.72163
11.185,2.0,1.0,1.0,33.3,33.4,33.4,4.0,2.0,2.6575,0.5612982456702905,-0.020490769864649344,0.813560079108973,0.004461752091605105,-0.10134,-33.567656
11.185,2.0,1.0,1.0,33.3,33.4,33.4,4.0,2.0,2.66,0.5540398871254267,-0.02090172713151719,0.8183082744658918,0.00434625235300767,-0.102883,-33.412523
11.185,2.0,1.0,1.0,33.3,33.4,33.4,4.0,2.0,2.6625,0.5466885199404267,-0.021322128465960502,0.8230212373492932,0.004224118331105094,-0.104468,-33.256199
11.185,2.0,1.0,1.0,33.3,33.4,33.4,4.0,2.0,2.665,0.539242986480337,-0.021752264389044176,0.8276976330194916,0.004095041845185703,-0.106096,-33.098656
11.185,2.0,1.0,1.0,33.3,33.4,33.4,4.0,2.0,2.6675,0.5317021102364529,-0.022192437386848434,0.8323360800681082,0.00395869800229603,-0.10777,-32.939862
11.185,2.0,1.0,1.0,33.3,33.4,33.4,4.0,2.0,2.67,0.5240646954239544,-0.022642962535287036,0.8369351484681088,0.0038147441024266684,-0.10949,-32.779784
11.185,2.0,1.0,1.0,33.3,33.4,33.4,4.0,2.0,2.6725,0.5163295265597659,-0.023104168164235113,0.841493357515552,0.0036628184579094716,-0.111258,-32.61839
11.185,2.0,1.0,1.0,33.3,33.4,33.4,4.0,2.0,2.675,0.5084953680188399,-0.023576396563792477,0.8460091736546931,0.0035025391191355537,-0.113077,-32.455643
11.185,2.0,1.0,1.0,33.3,33.4,33.4,4.0,2.0,2.6775,0.5005609635668872,-0.024060004735728537,0.850481008177269,0.0033335024978691182,-0.114949,-32.291509
11.185,2.0,1.0,1.0,33.3,33.4,33.4,4.0,2.0,2.68,0.49252503586737584,-0.024555365193391986,0.8549072147858443,0.0031552818784981737,-0.116876,-32.12595
11.185,2.0,1.0,1.0,33.3,33.4,33.4,4.0,2.0,2.6825,0.4843862859604354,-0.025062866813621576,0.8592860870100554,0.00296742580651513,-0.11886,-31.958927
11.185,2.0,1.0,1.0,33.3,33.4,33.4,4.0,2.0,2.685,0.4761433927110463,-0.025582915744470212,0.8636158554634181,0.002769456342343639,-0.120903,-31.7904
11.185,2.0,1.0,1.0,33.3,33.4,33.4,4.0,2.0,2.6875,0.4677950122236703,-0.026115936372846087,0.8678946849270381,0.0025608671673069193,-0.12301,-31.620329
11.185,2.0,1.0,1.0,33.3,33.4,33.4,4.0,2.0,2.69,0.45933977722021446,-0.026662372356490802,0.8721206712450796,0.002341121527043073,-0.125181,-31.448669
11.185,2.0,1.0,1.0,33.3,33.4,33.4,4.0,2.0,2.6925,0.4507762963779051,-0.027222687725050553,0.8762918380151761,0.0021096499959956687,-0.12742,-31.275376
11.185,2.0,1.0,1.0,33.3,33.4,33.4,4.0,2.0,2.695,0.4421031536233917,-0.027797368055352465,0.8804061330550663,0.0018658480447127953,-0.129731,-31.100403
11.185,2.0,1.0,1.0,33.3,33.4,33.4,4.0,2.0,2.6975,0.4333189073790112,-0.028386921726382974,0.8844614246246129,0.001609073389544695,-0.132116,-30.923702
11.185,2.0,1.0,1.0,33.3,33.4,33.4,4.0,2.0,2.7,0.4244220897568546,-0.028991881259861355,0.8884554973799199,0.001338643101904896,-0.134579,-30.745223
11.185,2.0,1.0,1.0,33.3,33.4,33.4,4.0,2.0,2.7025,0.41541120569585266,-0.029612804752729878,0.8923860480335364,0.0010538304515062082,-0.137124,-30.564913
11.185,2.0,1.0,1.0,33.3,33.4,33.4,4.0,2.0,2.705,0.40628473203675497,-0.030250277408318562,0.896250680691588,0.0007538614548563219,-0.139755,-30.382716
11.185,2.0,1.0,1.0,33.3,33.4,33.4,4.0,2.0,2.7075,0.39704111652943613,-0.030904913173403225,0.9000469018351385,0.0004379110967390521,-0.142476,-30.198578
11.185,2.0,1.0,1.0,33.3,33.4,33.4,4.0,2.0,2.71,0.38767877676657314,-0.03157735648884132,0.9037721149090154,0.000105099188351295,-0.145291,-30.012436
11.185,2.0,1.0,1.0,33.3,33.4,33.4,4.0,2.0,2.7125,0.37819609903729867,-0.03226828416194377,0.9074236144767067,-0.00024551417886841103,-0.148207,-29.824231
11.185,2.0,1.0,1.0,33.3,33.4,33.4,4.0,2.0,2.715,0.368591437094029,-0.032978407369207076,0.9109985798946263,-0.0006149336299813861,-0.151227,-29.633897
11.185,2.0,1.0,1.0,33.3,33.4,33.4,4.0,2.0,2.7175,0.35886311082525757,-0.03370847379848154,0.9144940684529733,-0.0010042340061959113,-0.154357,-29.441365
11.185,2.0,1.0,1.0,33.3,33.4,33.4,4.0,2.0,2.72,0.34900940482674786,-0.034459269940064485,0.9179070079234114,-0.0014145664267285673,-0.157604,-29.246566
11.185,2.0,1.0,1.0,33.3,33.4,33.4,4.0,2.0,2.7225,0.3390285668632201,-0.03523162353656644,0.921234188445779,-0.0018471649802086966,-0.160974,-29.049425
11.185,2.0,1.0,1.0,33.3,33.4,33.4,4.0,2.0,2.725,0.32891880621244207,-0.03602640620166366,0.9244722536767431,-0.0023033541222012084,-0.164474,-28.849865
11.185,2.0,1.0,1.0,33.3,33.4,33.4,4.0,2.0,2.7275,0.3186782918834713,-0.036844536217996084,0.9276176911126284,-0.0027845568660987887,-0.168112,-28.647803
11.185,2.0,1.0,1.0,33.3,33.4,33.4,4.0,2.0,2.73,0.30830515070092956,-0.03768698152442226,0.930666821486226,-0.003292303866990221,-0.171895,-28.443155
11.185,2.0,1.0,1.0,33.3,33.4,33.4,4.0,2.0,2.7325,0.29779746524745365,-0.03855476290255839,0.933615787123028,-0.0038282435124406457,-0.175832,-28.235831
11.185,2.0,1.0,1.0,33.3,33.4,33.4,4.0,2.0,2.735,0.2871532716571526,-0.03944895737189268,0.9364605391255794,-0.004394153150769557,-0.179933,-28.025736
11.185,2.0,1.0,1.0,33.3,33.4,33.4,4.0,2.0,2.7375,0.27637055725397064,-0.04037070180168119,0.9391968232351754,-0.004991951606805509,-0.184209,-27.812773
11.185,2.0,1.0,1.0,33.3,33.4,33.4,4.0,2.0,2.74,0.26544725803058034,-0.0413211967461325,0.9418201641973531,-0.0056237131577344225,-0.188669,-27.596836
11.185,2.0,1.0,1.0,33.3,33.4,33.4,4.0,2.0,2.7425,0.25438125596588773,-0.04230171050688299,0.944325848431,-0.0062916831681409996,-0.193327,-27.377815
11.185,2.0,1.0,1.0,33.3,33.4,33.4,4.0,2.0,2.745,0.24317037618281417,-0.04331358342319185,0.9467089047696484,-0.006998295614398427,-0.198195,-27.155596
11.185,2.0,1.0,1.0,33.3,33.4,33.4,4.0,2.0,2.7475,0.23181238395293305,-0.04435823238530775,0.9489640830067682,-0.00774619276507071,-0.203288,-26.930057
11.185,2.0,1.0,1.0,33.3,33.4,33.4,4.0,2.0,2.75,0.2203049815613,-0.0454371555596436,0.951085829933569,-0.00853824732700299,-0.208622,-26.701067
11.185,2.0,1.0,1.0,33.3,33.4,33.4,4.0,2.0,2.7525,0.20864580505398558,-0.04655193730515886,0.9530682625066063,-0.009377587417591014,-0.214214,-26.468492
11.185,2.0,1.0,1.0,33.3,33.4,33.4,4.0,2.0,2.755,0.19683242090311687,-0.047704253247952515,0.9549051377218682,-0.010267624783890103,-0.220082,-26.232187
11.185,2.0,1.0,1.0,33.3,33.4,33.4,4.0,2.0,2.7575,0.18486232264062752,-0.048895875464525056,0.9565898186999847,-0.011212086760667529,-0.226248,-25.992
11.185,2.0,1.0,1.0,33.3,33.4,33.4,4.0,2.0,2.76,0.1727329275338174,-0.050128677702184175,0.9581152364014339,-0.012215052544538087,-0.232735,-25.74777
11.185,2.0,1.0,1.0,33.3,33.4,33.4,4.0,2.0,2.7625,0.16044157340469592,-0.05140464053595488,0.9594738462882358,-0.013280994462816727,-0.239567,-25.499324
11.185,2.0,1.0,1.0,33.3,33.4,33.4,4.0,2.0,2.765,0.1479855157334408,-0.05272585632286202,0.9606575791260559,-0.014414825037172872,-0.246773,-25.24648
11.185,2.0,1.0,1.0,33.3,33.4,33.4,4.0,2.0,2.7675,0.13536192523689525,-0.05409453376361551,0.9616577849735223,-0.015621950787891432,-0.254383,-24.989046
11.185,2.0,1.0,1.0,33.3,33.4,33.4,4.0,2.0,2.77,0.12256788617991733,-0.055513001814607305,0.9624651692285425,-0.01690833389986336,-0.262433,-24.726814
11.185,2.0,1.0,1.0,33.3,33.4,33.4,4.0,2.0,2.7725,0.1096003957658448,-0.056983712604457774,0.9630697193877603,-0.018280563082892595,-0.27096,-24.459566
11.185,2.0,1.0,1.0,33.3,33.4,33.4,4.0,2.0,2.775,0.09645636506933937,-0.05850924289210171,0.9634606209168746,-0.019745935214669556,-0.280008,-24.187066
11.185,2.0,1.0,1.0,33.3,33.4,33.4,4.0,2.0,2.7775,0.08313262212997771,-0.06009229344813122,0.9636261603160767,-0.021312549664863175,-0.289625,-23.909065
11.185,2.0,1.0,1.0,33.3,33.4,33.4,4.0,2.0,2.78,0.06962591803085744,-0.06173568553506792,0.9635536130837103,-0.022989417575725472,-0.299865,-23.625295
11.185,2.0,1.0,1.0,33.3,33.4,33.4,4.0,2.0,2.7825,0.05593293706066072,-0.0634423533881585,0.9632291138167586,-0.024786588833821406,-0.310789,-23.335469
11.185,2.0,1.0,1.0,33.3,33.4,33.4,4.0,2.0,2.785,0.042050312423394215,-0.06521533123269815,0.9626375051194251,-0.026715300028176094,-0.322465,-23.03928
11.185,2.0,1.0,1.0,33.3,33.4,33.4,4.0,2.0,2.7875,0.027974649450020955,-0.06705773288465212,0.9617621612968644,-0.028788147375895135,-0.334973,-22.736399
11.185,2.0,1.0,1.0,33.3,33.4,33.4,4.0,2.0,2.79,0.013702558924351784,-0.06897272132439192,0.9605847819604239,-0.031019289436335817,-0.348402,-22.426471
11.185,2.0,1.0,1.0,33.3,33.4,33.4,4.0,2.0,2.7925,-0.0007692959765514619,-0.07096346474775103,0.9590851496272432,-0.0334246854647819,-0.362854,-22.109115
11.185,2.0,1.0,1.0,33.3,33.4,33.4,4.0,2.0,2.795,-0.015444134424888093,-0.07303307439987122,0.9572408441167609,-0.036022376519501534,-0.378445,-21.783921
11.185,2.0,1.0,1.0,33.3,33.4,33.4,4.0,2.0,2.7975,-0.030324968029299366,-0.07518451786751809,0.9550269049769423,-0.038832817983478034,-0.395311,-21.450446
11.185,2.0,1.0,1.0,33.3,33.4,33.4,4.0,2.0,2.8,-0.0454144776933998,-0.07742049927943415,0.9524154312525095,-0.041879274053959456,-0.413608,-21.108212
11.185,2.0,1.0,1.0,33.3,33.4,33.4,4.0,2.0,2.8025,-0.060714845602772474,-0.0797432948087618,0.9493751055672336,-0.045188287056174656,-0.433517,-20.756703
11.185,2.0,1.0,1.0,33.3,33.4,33.4,4.0,2.0,2.805,-0.07622752646107617,-0.08215452765638143,0.9458706266602702,-0.0487902372217236,-0.45525,-20.395362
11.185,2.0,1.0,1.0,33.3,33.4,33.4,4.0,2.0,2.8075,-0.09195293621830614,-0.08465486084884012,0.941862031127341,-0.052720011899179416,-0.479056,-20.023583
11.185,2.0,1.0,1.0,33.3,33.4,33.4,4.0,2.0,2.81,-0.10789002833696715,-0.08724357803646238,0.9373038811338855,-0.05701780706739548,-0.505227,-19.640713
11.185,2.0,1.0,1.0,33.3,33.4,33.4,4.0,2.0,2.8125,-0.12403571614950218,-0.08991801105953737,0.9321442903206243,-0.061730088463821275,-0.534113,-19.246044
11.185,2.0,1.0,1.0,33.3,33.4,33.4,4.0,2.0,2.815,-0.14038408366645255,-0.09267275697009289,0.9263237551900876,-0.06691074443601919,-0.566126,-18.83881
11.185,2.0,1.0,1.0,33.3,33.4,33.4,4.0,2.0,2.8175,-0.1569253042674319,-0.09549860444236251,0.9197737544130872,-0.07262246729866509,-0.601767,-18.418183
11.185,2.0,1.0,1.0,33.3,33.4,33.4,4.0,2.0,2.82,-0.17364415411104003,-0.09838105717357987,0.9124150747454894,-0.07893840350262843,-0.641636,-17.98327
11.185,2.0,1.0,1.0,33.3,33.4,33.4,4.0,2.0,2.8225,-0.19051796060899487,-0.10129829579187732,0.904155821641997,-0.08594411324447082,-0.686465,-17.53311
11.185,2.0,1.0,1.0,33.3,33.4,33.4,4.0,2.0,2.825,-0.20751375988748716,-0.10421835399159589,0.8948890791191304,-0.09373987333576606,-0.73715,-17.066677
11.185,2.0,1.0,1.0,33.3,33.4,33.4,4.0,2.0,2.8275,-0.22458434232012567,-0.1070951907460671,0.8844902042918117,-0.10244333588387394,-0.794796,-16.582882
