1,w,sub_t,h,l1,l2,l3,g1,g2,Freq,S11_re,S21_re,S11_img,S21_img,S11_dB,S21_dB
11.185,2.0,1.0,1.0,34.1,33.7,33.7,2.0,3.5,2.5,0.764908754280879,-0.0126951544324904,0.63153361084088,0.0078425825127053,-0.070402,-36.523323
11.185,2.0,1.0,1.0,34.1,33.7,33.7,2.0,3.5,2.5025,0.7599327210765124,-0.012939965879155017,0.6373754357252258,0.007842252720639712,-0.071174,-36.402714
11.185,2.0,1.0,1.0,34.1,33.7,33.7,2.0,3.5,2.505,0.7548845476002086,-0.013189053211531573,0.6432078320570189,0.007839687982004377,-0.071961,-36.281717
11.185,2.0,1.0,1.0,34.1,33.7,33.7,2.0,3.5,2.5075,0.7497634492440736,-0.013442494568254507,0.6490302203195818,0.007834800405599201,-0.072762,-36.160326
11.185,2.0,1.0,1.0,34.1,33.7,33.7,2.0,3.5,2.51,0.7445686305414917,-0.013700369575938905,0.6548420030721992,0.007827498868030304,-0.073579,-36.038532
11.185,2.0,1.0,1.0,34.1,33.7,33.7,2.0,3.5,2.5125,0.7392992850841398,-0.013962759370699157,0.6606425643784912,0.007817688887064028,-0.074412,-35.91633
11.185,2.0,1.0,1.0,34.1,33.7,33.7,2.0,3.5,2.515,0.7339545954431038,-0.014229746619302977,0.6664312692162979,0.007805272489634937,-0.07526,-35.793711
11.185,2.0,1.0,1.0,34.1,33.7,33.7,2.0,3.5,2.5175,0.7285337330944894,-0.014501415539890197,0.6722074628684425,0.0077901480742626344,-0.076125,-35.670668
11.185,2.0,1.0,1.0,34.1,33.7,33.7,2.0,3.5,2.52,0.7230358583498996,-0.01477785192218167,0.677970470293753,0.007772210267621669,-0.077007,-35.547194
11.185,2.0,1.0,1.0,34.1,33.7,33.7,2.0,3.5,2.5225,0.7174601202922233,-0.015059143147093942,0.68371959547765,0.007751349774995416,-0.077906,-35.423282
11.185,2.0,1.0,1.0,34.1,33.7,33.7,2.0,3.5,2.525,0.71180565671716,-0.015345378205671957,0.6894541207616435,0.007727453224331503,-0.078822,-35.298922
11.185,2.0,1.0,1.0,34.1,33.7,33.7,2.0,3.5,2.5275,0.7060715940809595,-0.015636647717241846,0.6951733061510141,0.007700403003601764,-0.079756,-35.174109
11.185,2.0,1.0,1.0,34.1,33.7,33.7,2.0,3.5,2.53,0.7002570474548829,-0.015933043946678462,0.7008763885999488,0.007670077091156102,-0.080709,-35.048833
11.185,2.0,1.0,1.0,34.1,33.7,33.7,2.0,3.5,2.5325,0.6943611204869077,-0.016234660820673756,0.7065625812733716,0.0076363488787417775,-0.081681,-34.923087
11.185,2.0,1.0,1.0,34.1,33.7,33.7,2.0,3.5,2.535,0.6883829053712422,-0.016541593942882637,0.7122310727846891,0.007599086986845326,-0.082672,-34.796862
11.185,2.0,1.0,1.0,34.1,33.7,33.7,2.0,3.5,2.5375,0.6823214828262532,-0.01685394060781164,0.7178810264086295,0.007558155071995284,-0.083683,-34.670151
11.185,2.0,1.0,1.0,34.1,33.7,33.7,2.0,3.5,2.54,0.6761759220814291,-0.017171799813306392,0.7235115792683455,0.007513411625645753,-0.084714,-34.542946
11.185,2.0,1.0,1.0,34.1,33.7,33.7,2.0,3.5,2.5425,0.6699452808740556,-0.01749527227148045,0.7291218414959056,0.007464709764241552,-0.085766,-34.415237
11.185,2.0,1.0,1.0,34.1,33.7,33.7,2.0,3.5,2.545,0.663628605456312,-0.01782446041791615,0.7347108953652813,0.0074118970100452925,-0.08684,-34.287017
11.185,2.0,1.0,1.0,34.1,33.7,33.7,2.0,3.5,2.5475,0.6572249306135477,-0.018159468418953467,0.7402777943968896,0.007354815062283936,-0.087935,-34.158276
11.185,2.0,1.0,1.0,34.1,33.7,33.7,2.0,3.5,2.55,0.6507332796945208,-0.018500402176869074,0.7458215624327451,0.007293299558150781,-0.089053,-34.029006
11.185,2.0,1.0,1.0,34.1,33.7,33.7,2.0,3.5,2.5525,0.6441526646544703,-0.018847369332730072,0.7513411926812079,0.007227179823173619,-0.090194,-33.899199
11.185,2.0,1.0,1.0,34.1,33.7,33.7,2.0,3.5,2.555,0.6374820861118919,-0.01920047926669111,0.7568356467303126,0.007156278610434257,-0.091359,-33.768844
11.185,2.0,1.0,1.0,34.1,33.7,33.7,2.0,3.5,2.5575,0.6307205334199779,-0.01955984309548376,0.7623038535286072,0.007080411828097631,-0.092548,-33.637933
11.185,2.0,1.0,1.0,34.1,33.7,33.7,2.0,3.5,2.56,0.6238669847537301,-0.01992557366682683,0.7677447083323997,0.0069993882546802505,-0.093762,-33.506457
11.185,2.0,1.0,1.0,34.1,33.7,33.7,2.0,3.5,2.5625,0.616920407213804,-0.020297785550464856,0.7731570716182713,0.006913009241456399,-0.095001,-33.374407
11.185,2.0,1.0,1.0,34.1,33.7,33.7,2.0,3.5,2.565,0.6098797569482083,-0.020676595025518187,0.778539767959679,0.0068210684013698475,-0.096267,-33.241772
11.185,2.0,1.0,1.0,34.1,33.7,33.7,2.0,3.5,2.5675,0.6027439792930724,-0.021062120063801894,0.7838915848664217,0.00672335128378345,-0.09756,-33.108543
11.185,2.0,1.0,1.0,34.1,33.7,33.7,2.0,3.5,2.57,0.5955120089337237,-0.021454480308744195,0.7892112715857096,0.006619635034363646,-0.098881,-32.97471
11.185,2.0,1.0,1.0,34.1,33.7,33.7,2.0,3.5,2.5725,0.5881827700874334,-0.021853797049504693,0.7944975378635276,0.006509688039359045,-0.100231,-32.840263
11.185,2.0,1.0,1.0,34.1,33.7,33.7,2.0,3.5,2.575,0.5807551767092376,-0.022260193189860264,0.7997490526649405,0.006393269553490904,-0.10161,-32.705192
11.185,2.0,1.0,1.0,34.1,33.7,33.7,2.0,3.5,2.5775,0.5732281327223497,-0.02267379321139192,0.804964442851933,0.006270129310631572,-0.103018,-32.569487
11.185,2.0,1.0,1.0,34.1,33.7,33.7,2.0,3.5,2.58,0.5656005322747513,-0.0230947231304678,0.8101422918173394,0.006140007116401057,-0.104459,-32.433138
11.185,2.0,1.0,1.0,34.1,33.7,33.7,2.0,3.5,2.5825,0.5578712600236477,-0.023523110448477727,0.8152811380733592,0.006002632421763849,-0.10593,-32.296132
11.185,2.0,1.0,1.0,34.1,33.7,33.7,2.0,3.5,2.585,0.5500391914495829,-0.02395908409472852,0.8203794737930994,0.0058577238766568725,-0.107435,-32.15846
11.185,2.0,1.0,1.0,34.1,33.7,33.7,2.0,3.5,2.5875,0.5421031932021017,-0.02440277436136399,0.8254357433035435,0.005704988862626192,-0.108974,-32.020111
11.185,2.0,1.0,1.0,34.1,33.7,33.7,2.0,3.5,2.59,0.5340621234789794,-0.02485431282961899,0.8304483415282649,0.005544123003391255,-0.110547,-31.881073
11.185,2.0,1.0,1.0,34.1,33.7,33.7,2.0,3.5,2.5925,0.5259148324411274,-0.025313832286663354,0.8354156123781709,0.005374809652196567,-0.112156,-31.741335
11.185,2.0,1.0,1.0,34.1,33.7,33.7,2.0,3.5,2.595,0.5176601626654633,-0.025781466632227818,0.8403358470884768,0.005196719354743189,-0.113802,-31.600886
11.185,2.0,1.0,1.0,34.1,33.7,33.7,2.0,3.5,2.5975,0.5092969496381035,-0.02625735077414113,0.845207282500062,0.0050095092864267474,-0.115486,-31.459712
11.185,2.0,1.0,1.0,34.1,33.7,33.7,2.0,3.5,2.6,0.5008240222904335,-0.026741620511833118,0.850028099283292,0.004812822662533211,-0.117209,-31.317803
11.185,2.0,1.0,1.0,34.1,33.7,33.7,2.0,3.5,2.6025,0.4922402035807506,-0.027234412406782017,0.8547964201022967,0.004606288119967204,-0.118973,-31.175147
11.185,2.0,1.0,1.0,34.1,33.7,33.7,2.0,3.5,2.605,0.4835443111243152,-0.027735863638800186,0.8595103077176653,0.004389519069005386,-0.120778,-31.03173
11.185,2.0,1.0,1.0,34.1,33.7,33.7,2.0,3.5,2.6075,0.474735157874852,-0.02824611184695958,0.8641677630253991,0.004162113013478591,-0.122625,-30.887539
11.185,2.0,1.0,1.0,34.1,33.7,33.7,2.0,3.5,2.61,0.4658115528607118,-0.02876529495385906,0.8687667230299079,0.003923650837694442,-0.124517,-30.742563
11.185,2.0,1.0,1.0,34.1,33.7,33.7,2.0,3.5,2.6125,0.4567723019791033,-0.029293550971827613,0.8733050587487524,0.0036736960583116356,-0.126454,-30.596787
11.185,2.0,1.0,1.0,34.1,33.7,33.7,2.0,3.5,2.615,0.44761620885200465,-0.029831017789539036,0.8777805730467392,0.0034117940392723468,-0.128438,-30.450198
11.185,2.0,1.0,1.0,34.1,33.7,33.7,2.0,3.5,2.6175,0.4383420757476206,-0.030377832937384698,0.8821909983968884,0.003137471167786411,-0.130471,-30.302783
11.185,2.0,1.0,1.0,34.1,33.7,33.7,2.0,3.5,2.62,0.42894870457145734,-0.0309341333298123,0.886533994565702,0.0028502339892406965,-0.132553,-30.154527
11.185,2.0,1.0,1.0,34.1,33.7,33.7,2.0,3.5,2.6225,0.41943489793135136,-0.031500054982685356,0.8908071462200625,0.002549568298780509,-0.134688,-30.005416
11.185,2.0,1.0,1.0,34.1,33.7,33.7,2.0,3.5,2.625,0.409799460281094,-0.0320757327035508,0.895007960452972,0.00223493818717308,-0.136875,-29.855435
11.185,2.0,1.0,1.0,34.1,33.7,33.7,2.0,3.5,2.6275,0.4000411991475253,-0.032661299752523375,0.8991338642252646,0.0019057850384183726,-0.139117,-29.704569
11.185,2.0,1.0,1.0,34.1,33.7,33.7,2.0,3.5,2.63,0.39015892644634603,-0.03325688747129486,0.9031822017202766,0.0015615264764186879,-0.141417,-29.552804
11.185,2.0,1.0,1.0,34.1,33.7,33.7,2.0,3.5,2.6325,0.3801514598922003,-0.03386262487756105,0.9071502316083598,0.0012015552578533435,-0.143775,-29.400123
11.185,2.0,1.0,1.0,34.1,33.7,33.7,2.0,3.5,2.635,0.3700176245089427,-0.03447863822192304,0.9110351242179889,0.0008252381082293313,-0.146193,-29.246511
11.185,2.0,1.0,1.0,34.1,33.7,33.7,2.0,3.5,2.6375,0.3597562542464156,-0.035105050504059654,0.9148339586100799,0.0004319144978917857,-0.148675,-29.091951
11.185,2.0,1.0,1.0,34.1,33.7,33.7,2.0,3.5,2.64,0.3493661937104375,-0.035741980944687245,0.9185437195520078,2.0895354578079184e-05,-0.151221,-28.936426
11.185,2.0,1.0,1.0,34.1,33.7,33.7,2.0,3.5,2.6425,0.3388463000131914,-0.03638954440951003,0.922161294387643,-0.000408538291113396,-0.153835,-28.77992
11.185,2.0,1.0,1.0,34.1,33.7,33.7,2.0,3.5,2.645,0.3281954447516645,-0.03704785078102692,0.9256834697995895,-0.000857136731195642,-0.156518,-28.622416
11.185,2.0,1.0,1.0,34.1,33.7,33.7,2.0,3.5,2.6475,0.3174125161223156,-0.037717004273686384,0.9291069284596327,-0.0013256830808065054,-0.159273,-28.463894
11.185,2.0,1.0,1.0,34.1,33.7,33.7,2.0,3.5,2.65,0.30649642118068066,-0.03839710268747476,0.9324282455632351,-0.00181499485812008,-0.162103,-28.304338
11.185,2.0,1.0,1.0,34.1,33.7,33.7,2.0,3.5,2.6525,0.2954460882553074,-0.03908823659456953,0.935643885243725,-0.0023259256482894507,-0.16501,-28.143728
11.185,2.0,1.0,1.0,34.1,33.7,33.7,2.0,3.5,2.655,0.2842604695259574,-0.039790488453201135,0.9387501968616451,-0.0028593668563509323,-0.167997,-27.982046
11.185,2.0,1.0,1.0,34.1,33.7,33.7,2.0,3.5,2.6575,0.27293854377681687,-0.04050393164231973,0.941743411164505,-0.0034162495543301136,-0.171067,-27.819271
11.185,2.0,1.0,1.0,34.1,33.7,33.7,2.0,3.5,2.66,0.2614793193361612,-0.04122862941006727,0.9446196363119644,-0.003997546428130232,-0.174223,-27.655383
11.185,2.0,1.0,1.0,34.1,33.7,33.7,2.0,3.5,2.6625,0.2498818372148078,-0.041964633728395845,0.9473748537612614,-0.004604273830136113,-0.177468,-27.490363
11.185,2.0,1.0,1.0,34.1,33.7,33.7,2.0,3.5,2.665,0.23814517445653008,-0.042711984045448986,0.9500049140074177,-0.005237493943852369,-0.180807,-27.324188
11.185,2.0,1.0,1.0,34.1,33.7,33.7,2.0,3.5,2.6675,0.22626844771466326,-0.04347070592651765,0.9525055321725309,-0.005898317067296615,-0.184241,-27.156838
11.185,2.0,1.0,1.0,34.1,33.7,33.7,2.0,3.5,2.67,0.21425081707014476,-0.044240809573501134,0.9548722834381577,-0.006587904022304464,-0.187775,-26.988289
11.185,2.0,1.0,1.0,34.1,33.7,33.7,2.0,3.5,2.6725,0.20209149010744293,-0.045022288211822636,0.9571005983145177,-0.007307468697361315,-0.191414,-26.81852
11.185,2.0,1.0,1.0,34.1,33.7,33.7,2.0,3.5,2.675,0.18978972626608115,-0.04581511633266655,0.9591857577399164,-0.00805828073206537,-0.19516,-26.647506
11.185,2.0,1.0,1.0,34.1,33.7,33.7,2.0,3.5,2.6775,0.17734484148689528,-0.0466192477772061,0.9611228880034826,-0.00884166835184754,-0.199019,-26.475224
11.185,2.0,1.0,1.0,34.1,33.7,33.7,2.0,3.5,2.68,0.16475621317364983,-0.04743461364816149,0.9629069554839413,-0.009659021362124718,-0.202994,-26.301648
11.185,2.0,1.0,1.0,34.1,33.7,33.7,2.0,3.5,2.6825,0.15202328549237445,-0.048261120032552424,0.9645327611967908,-0.010511794311648,-0.207091,-26.126754
11.185,2.0,1.0,1.0,34.1,33.7,33.7,2.0,3.5,2.685,0.1391455750325839,-0.04909864551787437,0.9659949351418591,-0.011401509835426035,-0.211315,-25.950515
11.185,2.0,1.0,1.0,34.1,33.7,33.7,2.0,3.5,2.6875,0.126122676856604,-0.0499470384821061,0.967287930442806,-0.0123297621882576,-0.215671,-25.772904
11.185,2.0,1.0,1.0,34.1,33.7,33.7,2.0,3.5,2.69,0.11295427096547855,-0.05080611413593143,0.9684060172697067,-0.013298220980593129,-0.220164,-25.593894
11.185,2.0,1.0,1.0,34.1,33.7,33.7,2.0,3.5,2.6925,0.0996401292123592,-0.05167565129330569,0.9693432765354091,-0.014308635129172902,-0.224801,-25.413455
11.185,2.0,1.0,1.0,34.1,33.7,33.7,2.0,3.5,2.695,0.0861801226971004,-0.05255538884398005,0.9700935933558915,-0.015362837035638517,-0.229587,-25.23156
11.185,2.0,1.0,1.0,34.1,33.7,33.7,2.0,3.5,2.6975,0.07257422967870365,-0.05344502189879705,0.9706506502643492,-0.01646274700711268,-0.23453,-25.048176
11.185,2.0,1.0,1.0,34.1,33.7,33.7,2.0,3.5,2.7,0.05882254404571559,-0.05434419757543413,0.9710079201682672,-0.017610377933552777,-0.239636,-24.863274
11.185,2.0,1.0,1.0,34.1,33.7,33.7,2.0,3.5,2.7025,0.044925284388350514,-0.0552525103887726,0.9711586590382155,-0.01880784023753436,-0.244913,-24.676821
11.185,2.0,1.0,1.0,34.1,33.7,33.7,2.0,3.5,2.705,0.030882803720283052,-0.056169497206148215,0.971095898316593,-0.02005734711298126,-0.250368,-24.488783
11.185,2.0,1.0,1.0,34.1,33.7,33.7,2.0,3.5,2.7075,0.016695599902672265,-0.05709463172334945,0.9708124370340611,-0.0213612200702395,-0.256009,-24.299128
11.185,2.0,1.0,1.0,34.1,33.7,33.7,2.0,3.5,2.71,0.0023643268281415184,-0.058027318412303935,0.9703008336209041,-0.022721894805767747,-0.261846,-24.107818
11.185,2.0,1.0,1.0,34.1,33.7,33.7,2.0,3.5,2.7125,-0.012110193571815564,-0.058966885885866974,0.9695533974001032,-0.024141927415588856,-0.267888,-23.914819
11.185,2.0,1.0,1.0,34.1,33.7,33.7,2.0,3.5,2.715,-0.026726958426066857,-0.05991257961891177,0.9685621797485053,-0.025624000972480954,-0.274144,-23.720091
11.185,2.0,1.0,1.0,34.1,33.7,33.7,2.0,3.5,2.7175,-0.04148477005258194,-0.06086355395793424,0.967318964912117,-0.02717093248767652,-0.280626,-23.523597
11.185,2.0,1.0,1.0,34.1,33.7,33.7,2.0,3.5,2.72,-0.056382221031394314,-0.06181886334351451,0.9658152604613267,-0.02878568027853749,-0.287343,-23.325296
11.185,2.0,1.0,1.0,34.1,33.7,33.7,2.0,3.5,2.7225,-0.07141767812749246,-0.06277745266111014,0.9640422873717364,-0.030471351764268448,-0.294309,-23.125146
11.185,2.0,1.0,1.0,34.1,33.7,33.7,2.0,3.5,2.725,-0.086589264958947,-0.06373814662564191,0.961990969716387,-0.03223121171213963,-0.301536,-22.923104
11.185,2.0,1.0,1.0,34.1,33.7,33.7,2.0,3.5,2.7275,-0.10189484329423988,-0.06469963809403702,0.9596519239554441,-0.034068690956901626,-0.309037,-22.719127
11.185,2.0,1.0,1.0,34.1,33.7,33.7,2.0,3.5,2.73,-0.11733199284952538,-0.06566047518710529,0.9570154478100759,-0.03598739561595984,-0.316827,-22.513166
11.185,2.0,1.0,1.0,34.1,33.7,33.7,2.0,3.5,2.7325,-0.1328979894420304,-0.06661904708766861,0.954071508708274,-0.037991116822395754,-0.324921,-22.305176
11.185,2.0,1.0,1.0,34.1,33.7,33.7,2.0,3.5,2.735,-0.14858978133902848,-0.06757356836547479,0.9508097317919206,-0.04008384099691906,-0.333336,-22.095107
11.185,2.0,1.0,1.0,34.1,33.7,33.7,2.0,3.5,2.7375,-0.16440396362307713,-0.06852206166085546,0.9472193874766516,-0.04226976067819392,-0.34209,-21.882906
11.185,2.0,1.0,1.0,34.1,33.7,33.7,2.0,3.5,2.74,-0.18033675037280802,-0.06946233853800611,0.9432893785590724,-0.04455328592850863,-0.351202,-21.668521
11.185,2.0,1.0,1.0,34.1,33.7,33.7,2.0,3.5,2.7425,-0.19638394443436422,-0.07039197829482596,0.9390082268700533,-0.04693905632823966,-0.360691,-21.451898
11.185,2.0,1.0,1.0,34.1,33.7,33.7,2.0,3.5,2.745,-0.21254090453103,-0.07130830448904052,0.9343640594782578,-0.04943195356771692,-0.370581,-21.232978
11.185,2.0,1.0,1.0,34.1,33.7,33.7,2.0,3.5,2.7475,-0.22880250942737287,-0.07220835890937147,0.9293445944551505,-0.05203711463858828,-0.380894,-21.011702
11.185,2.0,1.0,1.0,34.1,33.7,33.7,2.0,3.5,2.75,-0.245163118828546,-0.0730888726852787,0.923937126222033,-0.0547599456181845,-0.391656,-20.788009
11.185,2.0,1.0,1.0,34.1,33.7,33.7,2.0,3.5,2.7525,-0.2616165306549481,-0.07394623418865895,0.918128510511402,-0.05760613602917538,-0.402895,-20.561835
11.185,2.0,1.0,1.0,34.1,33.7,33.7,2.0,3.5,2.755,-0.27815593428619473,-0.07477645333513923,0.9119051489901121,-0.060581673742323705,-0.41464,-20.333113
11.185,2.0,1.0,1.0,34.1,33.7,33.7,2.0,3.5,2.7575,-0.2947738593157828,-0.07557512184045409,0.905252973610983,-0.06369286037160234,-0.426923,-20.101775
11.185,2.0,1.0,1.0,34.1,33.7,33.7,2.0,3.5,2.76,-0.31146211929771106,-0.07633736892791369,0.8981574307838122,-0.0669463270872877,-0.439779,-19.867748
11.185,2.0,1.0,1.0,34.1,33.7,33.7,2.0,3.5,2.7625,-0.3282117498979571,-0.07705781191513926,0.8906034654873155,-0.07034905074269811,-0.453246,-19.63096
11.185,2.0,1.0,1.0,34.1,33.7,33.7,2.0,3.5,2.765,-0.34501294078550837,-0.07773050103087321,0.8825755054821105,-0.0739083701723946,-0.467365,-19.391331
11.185,2.0,1.0,1.0,34.1,33.7,33.7,2.0,3.5,2.7675,-0.3618549605086617,-0.07834885772446243,0.8740574458331141,-0.07763200247202898,-0.48218,-19.148782
11.185,2.0,1.0,1.0,34.1,33.7,33.7,2.0,3.5,2.77,-0.37872607350078,-0.07890560563009534,0.86503263401031,-0.08152805901019257,-0.49774,-18.90323
11.185,2.0,1.0,1.0,34.1,33.7,33.7,2.0,3.5,2.7725,-0.39561344824408295,-0.07939269323342679,0.8554838559126078,-0.08560506084761406,-0.514097,-18.654587
11.185,2.0,1.0,1.0,34.1,33.7,33.7,2.0,3.5,2.775,-0.4125030554886251,-0.07980120715809061,0.8453933232541182,-0.08987195314518338,-0.53131,-18.402764
11.185,2.0,1.0,1.0,34.1,33.7,33.7,2.0,3.5,2.7775,-0.4293795552742657,-0.08012127484188063,0.8347426628705102,-0.09433811802492449,-0.549442,-18.147668
11.185,2.0,1.0,1.0,34.1,33.7,33.7,2.0,3.5,2.78,-0.4462261713344139,-0.0803419552051005,0.8235129086505327,-0.09901338520146899,-0.568562,-17.889201
11.185,2.0,1.0,1.0,34.1,33.7,33.7,2.0,3.5,2.7825,-0.4630245512692766,-0.0804511157247367,0.8116844969819557,-0.10390803951862744,-0.588746,-17.627262
11.185,2.0,1.0,1.0,34.1,33.7,33.7,2.0,3.5,2.785,-0.4797546106616671,-0.08043529411579119,0.7992372668305591,-0.10903282429746418,-0.610079,-17.361748
11.185,2.0,1.0,1.0,34.1,33.7,33.7,2.0,3.5,2.7875,-0.496394359068026,-0.08027954258366668,0.7861504658570008,-0.11439893911767854,-0.632652,-17.09255
11.185,2.0,1.0,1.0,34.1,33.7,33.7,2.0,3.5,2.79,-0.5129197055504262,-0.07996725234781772,0.7724027643329331,-0.1200180302993844,-0.656568,-16.819557
11.185,2.0,1.0,1.0,34.1,33.7,33.7,2.0,3.5,2.7925,-0.5293042411213875,-0.07947995584675172,0.757972279062044,-0.12590217191027972,-0.681939,-16.542653
11.185,2.0,1.0,1.0,34.1,33.7,33.7,2.0,3.5,2.795,-0.5455189951537739,-0.07879710371917396,0.7428366100653185,-0.13206383457247395,-0.708892,-16.261718
11.185,2.0,1.0,1.0,34.1,33.7,33.7,2.0,3.5,2.7975,-0.5615321624662695,-0.07789581331921598,0.726972893479172,-0.13851583865730493,-0.737564,-15.97663
11.185,2.0,1.0,1.0,34.1,33.7,33.7,2.0,3.5,2.8,-0.5773087974382225,-0.076750585172345,0.7103578749733557,-0.14527128760270053,-0.76811,-15.687263
11.185,2.0,1.0,1.0,34.1,33.7,33.7,2.0,3.5,2.8025,-0.5928104711479742,-0.07533298342499124,0.6929680090632095,-0.15234347602546952,-0.800704,-15.393488
11.185,2.0,1.0,1.0,34.1,33.7,33.7,2.0,3.5,2.805,-0.6079948871862559,-0.07361127600493733,0.6747795910180046,-0.1597457659807731,-0.835538,-15.095172
11.185,2.0,1.0,1.0,34.1,33.7,33.7,2.0,3.5,2.8075,-0.6228154515014566,-0.07155002992174812,0.6557689297146829,-0.16749142308229054,-0.872828,-14.792181
11.185,2.0,1.0,1.0,34.1,33.7,33.7,2.0,3.5,2.81,-0.6372207914328873,-0.06910965694313047,0.6359125718282281,-0.17559340216577177,-0.912817,-14.484379
11.185,2.0,1.0,1.0,34.1,33.7,33.7,2.0,3.5,2.8125,-0.651154219050027,-0.0662459048521742,0.615187590274789,-0.184064069667695,-0.955779,-14.171631
11.185,2.0,1.0,1.0,34.1,33.7,33.7,2.0,3.5,2.815,-0.6645531341394456,-0.06290928972074004,0.5935719529361378,-0.1929148467956666,-1.002022,-13.853799
11.185,2.0,1.0,1.0,34.1,33.7,33.7,2.0,3.5,2.8175,-0.6773483628089765,-0.05904446526749558,0.5710449915152641,-0.2021557537675166,-1.051894,-13.530751
11.185,2.0,1.0,1.0,34.1,33.7,33.7,2.0,3.5,2.82,-0.689463428912833,-0.05458952660604368,0.5475879950386783,-0.2117948307566428,-1.105793,-13.202355
11.185,2.0,1.0,1.0,34.1,33.7,33.7,2.0,3.5,2.8225,-0.700813757624986,-0.049475247811059164,0.5231849581774783,-0.2218374055570205,-1.164167,-12.868487
11.185,2.0,1.0,1.0,34.1,33.7,33.7,2.0,3.5,2.825,-0.7113058138952443,-0.04362425612995505,0.49782352135029917,-0.23228517122878237,-1.22753,-12.529031
11.185,2.0,1.0,1.0,34.1,33.7,33.7,2.0,3.5,2.8275,-0.720836183754759,-0.036950150882870327,0.47149614761917963,-0.2431350289830445,-1.296468,-12.183885
