1,w,sub_t,h,l1,l2,l3,g1,g2,Freq,S11_re,S21_re,S11_img,S21_img,S11_dB,S21_dB
11.185,2.0,1.0,1.0,34.0,33.2,33.2,3.8,1.7,2.5,0.784796560421553,-0.0101055252366749,0.608541356482059,0.00673648667170988,-0.060226,-38.312024
11.185,2.0,1.0,1.0,34.0,33.2,33.2,3.8,1.7,2.5025,0.780304211432351,-0.010293916731658127,0.614183716201496,0.006742805830013966,-0.060807,-38.197876
11.185,2.0,1.0,1.0,34.0,33.2,33.2,3.8,1.7,2.505,0.7757495883622784,-0.010485413945567033,0.6198182678237643,0.006747623263436895,-0.061398,-38.083413
11.185,2.0,1.0,1.0,34.0,33.2,33.2,3.8,1.7,2.5075,0.7711320853542448,-0.010680071195046189,0.6254445698633708,0.006750883685776586,-0.061999,-37.968628
11.185,2.0,1.0,1.0,34.0,33.2,33.2,3.8,1.7,2.51,0.7664510887249274,-0.01087794388481099,0.631062168255691,0.006752529916554306,-0.062611,-37.853513
11.185,2.0,1.0,1.0,34.0,33.2,33.2,3.8,1.7,2.5125,0.7617059769121783,-0.011079088530374386,0.6366705959856591,0.006752502810304342,-0.063233,-37.738062
11.185,2.0,1.0,1.0,34.0,33.2,33.2,3.8,1.7,2.515,0.7568961204250183,-0.011283562781191286,0.6422693727055664,0.006750741182950235,-0.063867,-37.622269
11.185,2.0,1.0,1.0,34.0,33.2,33.2,3.8,1.7,2.5175,0.7520208817964308,-0.011491425444222879,0.6478580043416243,0.006747181735135184,-0.064512,-37.506125
11.185,2.0,1.0,1.0,34.0,33.2,33.2,3.8,1.7,2.52,0.7470796155391556,-0.01170273650792294,0.6534359826889722,0.006741758972362776,-0.065168,-37.389624
11.185,2.0,1.0,1.0,34.0,33.2,33.2,3.8,1.7,2.5225,0.7420716681047255,-0.01191755716664688,0.6590027849947591,0.006734405121801601,-0.065836,-37.272759
11.185,2.0,1.0,1.0,34.0,33.2,33.2,3.8,1.7,2.525,0.7369963778459665,-0.012135949845485062,0.6645578735289572,0.006725050045595471,-0.066516,-37.155522
11.185,2.0,1.0,1.0,34.0,33.2,33.2,3.8,1.7,2.5275,0.7318530749832172,-0.012357978225520283,0.670100695142538,0.006713621150515663,-0.067208,-37.037905
11.185,2.0,1.0,1.0,34.0,33.2,33.2,3.8,1.7,2.53,0.7266410815745291,-0.012583707269508387,0.6756306808126079,0.0067000432937794055,-0.067913,-36.919902
11.185,2.0,1.0,1.0,34.0,33.2,33.2,3.8,1.7,2.5325,0.7213597114901256,-0.012813203247981308,0.6811472451741344,0.00668423868485391,-0.068631,-36.801505
11.185,2.0,1.0,1.0,34.0,33.2,33.2,3.8,1.7,2.535,0.7160082703913996,-0.013046533765770151,0.686649786037841,0.006666126783049763,-0.069362,-36.682705
11.185,2.0,1.0,1.0,34.0,33.2,33.2,3.8,1.7,2.5375,0.7105860557147663,-0.013283767788944316,0.6921376838938528,0.006645624190702401,-0.070106,-36.563496
11.185,2.0,1.0,1.0,34.0,33.2,33.2,3.8,1.7,2.54,0.705092356660682,-0.013524975672163842,0.6976103014006617,0.006622644541724267,-0.070864,-36.443868
11.185,2.0,1.0,1.0,34.0,33.2,33.2,3.8,1.7,2.5425,0.6995264541881636,-0.013770229186438407,0.7030669828589677,0.0065970983853021956,-0.071636,-36.323815
11.185,2.0,1.0,1.0,34.0,33.2,33.2,3.8,1.7,2.545,0.6938876210151658,-0.014019601547286814,0.7085070536699273,0.0065688930644982,-0.072423,-36.203327
11.185,2.0,1.0,1.0,34.0,33.2,33.2,3.8,1.7,2.5475,0.6881751216251853,-0.014273167443289039,0.7139298197773335,0.006537932589502316,-0.073224,-36.082397
11.185,2.0,1.0,1.0,34.0,33.2,33.2,3.8,1.7,2.55,0.6823882122804724,-0.01453100306502093,0.7193345670932477,0.0065041175052663715,-0.074041,-35.961015
11.185,2.0,1.0,1.0,34.0,33.2,33.2,3.8,1.7,2.5525,0.6765261410422692,-0.01479318613436052,0.7247205609065478,0.006467344753237869,-0.074873,-35.839174
11.185,2.0,1.0,1.0,34.0,33.2,33.2,3.8,1.7,2.555,0.6705881477984942,-0.015059795934152978,0.7300870452738961,0.006427507526892415,-0.075722,-35.716865
11.185,2.0,1.0,1.0,34.0,33.2,33.2,3.8,1.7,2.5575,0.6645734642993181,-0.01533091333821899,0.7354332423925686,0.006384495120746252,-0.076586,-35.594078
11.185,2.0,1.0,1.0,34.0,33.2,33.2,3.8,1.7,2.56,0.6584813142011103,-0.015606620841689374,0.7407583519545813,0.006338192772514748,-0.077468,-35.470805
11.185,2.0,1.0,1.0,34.0,33.2,33.2,3.8,1.7,2.5625,0.6523109131192455,-0.015887002591646417,0.7460615504815393,0.006288481498058497,-0.078366,-35.347036
11.185,2.0,1.0,1.0,34.0,33.2,33.2,3.8,1.7,2.565,0.6460614686902795,-0.01617214441804918,0.751341990639606,0.006235237918738336,-0.079282,-35.222763
11.185,2.0,1.0,1.0,34.0,33.2,33.2,3.8,1.7,2.5675,0.6397321806440529,-0.016462133864917905,0.756598800533963,0.006178334080780432,-0.080216,-35.097975
11.185,2.0,1.0,1.0,34.0,33.2,33.2,3.8,1.7,2.57,0.6333222408862764,-0.01675706022174937,0.7618310829821229,0.006117637266225172,-0.081169,-34.972663
11.185,2.0,1.0,1.0,34.0,33.2,33.2,3.8,1.7,2.5725,0.6268308335921973,-0.017057014555130517,0.7670379147654234,0.006053009795006926,-0.082141,-34.846817
11.185,2.0,1.0,1.0,34.0,33.2,33.2,3.8,1.7,2.575,0.6202571353119738,-0.017362089740515486,0.7722183458580091,0.005984308817685455,-0.083132,-34.720427
11.185,2.0,1.0,1.0,34.0,33.2,33.2,3.8,1.7,2.5775,0.6136003150884113,-0.017672380494125867,0.7773713986325809,0.005911386098320616,-0.084144,-34.593483
11.185,2.0,1.0,1.0,34.0,33.2,33.2,3.8,1.7,2.58,0.6068595345877442,-0.017987983404929093,0.7824960670421668,0.005834087786944385,-0.085176,-34.465975
11.185,2.0,1.0,1.0,34.0,33.2,33.2,3.8,1.7,2.5825,0.6000339482441804,-0.018308996966646257,0.7875913157771391,0.005752254181055745,-0.086229,-34.337891
11.185,2.0,1.0,1.0,34.0,33.2,33.2,3.8,1.7,2.585,0.5931227034189657,-0.01863552160973348,0.7926560793966705,0.005665719475522743,-0.087304,-34.209221
11.185,2.0,1.0,1.0,34.0,33.2,33.2,3.8,1.7,2.5875,0.5861249405747466,-0.018967659733276084,0.7976892614337913,0.005574311500237508,-0.088401,-34.079954
11.185,2.0,1.0,1.0,34.0,33.2,33.2,3.8,1.7,2.59,0.5790397934660694,-0.019305515736726803,0.8026897334731714,0.005477851444825416,-0.089522,-33.950078
11.185,2.0,1.0,1.0,34.0,33.2,33.2,3.8,1.7,2.5925,0.5718663893468671,-0.01964919605141309,0.8076563342007228,0.005376153569664249,-0.090665,-33.819583
11.185,2.0,1.0,1.0,34.0,33.2,33.2,3.8,1.7,2.595,0.5646038491958547,-0.019998809171729342,0.8125878684240626,0.005269024902421035,-0.091834,-33.688455
11.185,2.0,1.0,1.0,34.0,33.2,33.2,3.8,1.7,2.5975,0.5572512879607651,-0.020354465685921832,0.8174831060628561,0.005156264919254206,-0.093027,-33.556684
11.185,2.0,1.0,1.0,34.0,33.2,33.2,3.8,1.7,2.6,0.5498078148224269,-0.0207162783063632,0.8223407811080032,0.005037665209779441,-0.094245,-33.424257
11.185,2.0,1.0,1.0,34.0,33.2,33.2,3.8,1.7,2.6025,0.5422725334797307,-0.02108436189920236,0.8271595905485706,0.004913009124824545,-0.09549,-33.291162
11.185,2.0,1.0,1.0,34.0,33.2,33.2,3.8,1.7,2.605,0.5346445424565585,-0.021458833513265076,0.8319381932653568,0.004782071405942736,-0.096763,-33.157385
11.185,2.0,1.0,1.0,34.0,33.2,33.2,3.8,1.7,2.6075,0.5269229354318284,-0.02183981240806441,0.8366752088898826,0.004644617795566608,-0.098063,-33.022914
11.185,2.0,1.0,1.0,34.0,33.2,33.2,3.8,1.7,2.61,0.5191068015938541,-0.02222742008076762,0.8413692166275599,0.004500404626621301,-0.099392,-32.887735
11.185,2.0,1.0,1.0,34.0,33.2,33.2,3.8,1.7,2.6125,0.5111952260202582,-0.022621780291947984,0.8460187540437334,0.004349178390313235,-0.100751,-32.751834
11.185,2.0,1.0,1.0,34.0,33.2,33.2,3.8,1.7,2.615,0.5031872900847624,-0.023023019089933098,0.8506223158112034,0.004190675280732941,-0.10214,-32.615198
11.185,2.0,1.0,1.0,34.0,33.2,33.2,3.8,1.7,2.6175,0.4950820718922289,-0.023431264833539352,0.8551783524177758,0.004024620714798724,-0.103561,-32.477811
11.185,2.0,1.0,1.0,34.0,33.2,33.2,3.8,1.7,2.62,0.4868786467433962,-0.023846648212960616,0.8596852688322977,0.0038507288259638887,-0.105014,-32.33966
11.185,2.0,1.0,1.0,34.0,33.2,33.2,3.8,1.7,2.6225,0.4785760876308141,-0.02426930226855454,0.8641414231275494,0.003668701929991413,-0.106501,-32.200729
11.185,2.0,1.0,1.0,34.0,33.2,33.2,3.8,1.7,2.625,0.470173465767583,-0.0246993624072394,0.868545125058276,0.003478229960967,-0.108022,-32.061003
11.185,2.0,1.0,1.0,34.0,33.2,33.2,3.8,1.7,2.6275,0.46166985115053816,-0.02513696641618733,0.8728946345925158,0.003278989875587154,-0.109579,-31.920465
11.185,2.0,1.0,1.0,34.0,33.2,33.2,3.8,1.7,2.63,0.4530643131596489,-0.02558225447346081,0.8771881603942945,0.0030706450236010385,-0.111173,-31.7791
11.185,2.0,1.0,1.0,34.0,33.2,33.2,3.8,1.7,2.6325,0.4443559211954518,-0.026035369155203297,0.8814238582556135,0.002852844482120093,-0.112805,-31.636891
11.185,2.0,1.0,1.0,34.0,33.2,33.2,3.8,1.7,2.635,0.43554374535645723,-0.026496455438950198,0.8855998294755204,0.00262522235132961,-0.114475,-31.49382
11.185,2.0,1.0,1.0,34.0,33.2,33.2,3.8,1.7,2.6375,0.42662685715856313,-0.026965660702577988,0.8897141191839059,0.002387397008935985,-0.116187,-31.34987
11.185,2.0,1.0,1.0,34.0,33.2,33.2,3.8,1.7,2.64,0.41760433029858635,-0.027443134718355952,0.8937647146075193,0.0021389703204689656,-0.11794,-31.205022
11.185,2.0,1.0,1.0,34.0,33.2,33.2,3.8,1.7,2.6425,0.4084752414641884,-0.027929029641501513,0.8977495432754813,0.0018795268023192636,-0.119736,-31.059259
11.185,2.0,1.0,1.0,34.0,33.2,33.2,3.8,1.7,2.645,0.39923867119254763,-0.02842349999257565,0.9016664711614001,0.0016086327341383014,-0.121578,-30.912561
11.185,2.0,1.0,1.0,34.0,33.2,33.2,3.8,1.7,2.6475,0.3898937047802859,-0.028926702632973193,0.9055133007589644,0.0013258352169364914,-0.123465,-30.764907
11.185,2.0,1.0,1.0,34.0,33.2,33.2,3.8,1.7,2.65,0.380439433247271,-0.029438796732681956,0.9092877690876576,0.0010306611729136764,-0.1254,-30.616279
11.185,2.0,1.0,1.0,34.0,33.2,33.2,3.8,1.7,2.6525,0.37087495435712436,-0.029959943729380246,0.9129875456249296,0.0007226162827073802,-0.127385,-30.466654
11.185,2.0,1.0,1.0,34.0,33.2,33.2,3.8,1.7,2.655,0.36119937369734373,-0.030490307277840818,0.9166102301609305,0.0004011838553786352,-0.129421,-30.316012
11.185,2.0,1.0,1.0,34.0,33.2,33.2,3.8,1.7,2.6575,0.35141180582220855,-0.031030053188477097,0.9201533505715018,6.582362603366376e-05,-0.131511,-30.16433
11.185,2.0,1.0,1.0,34.0,33.2,33.2,3.8,1.7,2.66,0.3415113754617739,-0.03157934935373514,0.9236143605048304,-0.00028402952445896393,-0.133655,-30.011585
11.185,2.0,1.0,1.0,34.0,33.2,33.2,3.8,1.7,2.6625,0.33149721880051125,-0.032138365660868654,0.9269906369767023,-0.0006489669337080246,-0.135857,-29.857754
11.185,2.0,1.0,1.0,34.0,33.2,33.2,3.8,1.7,2.665,0.3213684848293427,-0.032707273889462915,0.9302794778688851,-0.001029607612587924,-0.138118,-29.702812
11.185,2.0,1.0,1.0,34.0,33.2,33.2,3.8,1.7,2.6675,0.31112433677512036,-0.03328624759186255,0.9334780993246395,-0.0014265997977742876,-0.14044,-29.546733
11.185,2.0,1.0,1.0,34.0,33.2,33.2,3.8,1.7,2.67,0.30076395361184893,-0.033875461954431994,0.9365836330348025,-0.00184062260989967,-0.142827,-29.389493
11.185,2.0,1.0,1.0,34.0,33.2,33.2,3.8,1.7,2.6725,0.29028653165825985,-0.03447509363731355,0.9395931234072874,-0.0022723878259347462,-0.145279,-29.231063
11.185,2.0,1.0,1.0,34.0,33.2,33.2,3.8,1.7,2.675,0.27969128626672746,-0.03508532059004685,0.9425035246121047,-0.002722641775221771,-0.147801,-29.071417
11.185,2.0,1.0,1.0,34.0,33.2,33.2,3.8,1.7,2.6775,0.2689774536088653,-0.035706321840074065,0.9453116974932633,-0.003192167369498295,-0.150395,-28.910525
11.185,2.0,1.0,1.0,34.0,33.2,33.2,3.8,1.7,2.68,0.2581442925635903,-0.03633827725076806,0.9480144063380305,-0.003681786278242363,-0.153063,-28.748357
11.185,2.0,1.0,1.0,34.0,33.2,33.2,3.8,1.7,2.6825,0.2471910867139302,-0.03698136724517113,0.9506083154930516,-0.004192361261801021,-0.155809,-28.584883
11.185,2.0,1.0,1.0,34.0,33.2,33.2,3.8,1.7,2.685,0.23611714645938384,-0.0376357724911279,0.953089985815745,-0.004724798675994382,-0.158636,-28.420071
11.185,2.0,1.0,1.0,34.0,33.2,33.2,3.8,1.7,2.6875,0.22492181125127061,-0.03830167354291015,0.9554558709481511,-0.005280051163271854,-0.161547,-28.253887
11.185,2.0,1.0,1.0,34.0,33.2,33.2,3.8,1.7,2.69,0.21360445195920286,-0.03897925043376274,0.9577023133990638,-0.005859120547032186,-0.164546,-28.086297
11.185,2.0,1.0,1.0,34.0,33.2,33.2,3.8,1.7,2.6925,0.20216447337758542,-0.0396686822130315,0.9598255404187074,-0.0064630609474382,-0.167637,-27.917265
11.185,2.0,1.0,1.0,34.0,33.2,33.2,3.8,1.7,2.695,0.19060131688200524,-0.04037014642064743,0.9618216596484951,-0.007092982138962074,-0.170824,-27.746754
11.185,2.0,1.0,1.0,34.0,33.2,33.2,3.8,1.7,2.6975,0.17891446324632684,-0.04108381849072615,0.9636866545264573,-0.007750053172043757,-0.174111,-27.574726
11.185,2.0,1.0,1.0,34.0,33.2,33.2,3.8,1.7,2.7,0.16710343563256788,-0.041809871074857716,0.9654163794267334,-0.008435506283633988,-0.177503,-27.40114
11.185,2.0,1.0,1.0,34.0,33.2,33.2,3.8,1.7,2.7025,0.1551678027669472,-0.04254847327431004,0.9670065545090112,-0.009150641124073022,-0.181005,-27.225955
11.185,2.0,1.0,1.0,34.0,33.2,33.2,3.8,1.7,2.705,0.14310718231706457,-0.043299789768786616,0.9684527602510559,-0.009896829330766499,-0.184621,-27.049128
11.185,2.0,1.0,1.0,34.0,33.2,33.2,3.8,1.7,2.7075,0.13092124448700043,-0.044063979827559434,0.9697504316342537,-0.01067551948248898,-0.188357,-26.870612
11.185,2.0,1.0,1.0,34.0,33.2,33.2,3.8,1.7,2.71,0.11860971584921201,-0.04484119618667326,0.9708948519485563,-0.011488242471947852,-0.192219,-26.690361
11.185,2.0,1.0,1.0,34.0,33.2,33.2,3.8,1.7,2.7125,0.1061723834345093,-0.04563158377345375,0.9718811461791714,-0.012336617338504377,-0.196214,-26.508326
11.185,2.0,1.0,1.0,34.0,33.2,33.2,3.8,1.7,2.715,0.09360909910425952,-0.04643527825667384,0.9727042739327447,-0.013222357607769514,-0.200347,-26.324455
11.185,2.0,1.0,1.0,34.0,33.2,33.2,3.8,1.7,2.7175,0.08091978423224107,-0.04725240439738126,0.9733590218556089,-0.014147278190216708,-0.204626,-26.138695
11.185,2.0,1.0,1.0,34.0,33.2,33.2,3.8,1.7,2.72,0.06810443472743812,-0.04808307417146088,0.9738399954907733,-0.015113302897094604,-0.209059,-25.950989
11.185,2.0,1.0,1.0,34.0,33.2,33.2,3.8,1.7,2.7225,0.055163126433556364,-0.048927384630415065,0.9741416105136368,-0.01612247263886547,-0.213654,-25.76128
11.185,2.0,1.0,1.0,34.0,33.2,33.2,3.8,1.7,2.725,0.04209602094639915,-0.04978541546144196,0.9742580832787882,-0.017176954379245074,-0.218419,-25.569506
11.185,2.0,1.0,1.0,34.0,33.2,33.2,3.8,1.7,2.7275,0.028903371896380817,-0.05065722620155286,0.9741834206016297,-0.0182790509268529,-0.223364,-25.375603
11.185,2.0,1.0,1.0,34.0,33.2,33.2,3.8,1.7,2.73,0.015585531750921455,-0.051542853052990355,0.9739114086886393,-0.01943121165658019,-0.228499,-25.179504
11.185,2.0,1.0,1.0,34.0,33.2,33.2,3.8,1.7,2.7325,0.0021429592000775204,-0.05244230523837968,0.9734356011188604,-0.020636044264307297,-0.233834,-24.981138
11.185,2.0,1.0,1.0,34.0,33.2,33.2,3.8,1.7,2.735,-0.011423772800918584,-0.053355560823606096,0.9727493057663731,-0.02189632767168064,-0.239382,-24.780431
11.185,2.0,1.0,1.0,34.0,33.2,33.2,3.8,1.7,2.7375,-0.025113968246306503,-0.054282561924024,0.9718455705387792,-0.02321502621258693,-0.245156,-24.577307
11.185,2.0,1.0,1.0,34.0,33.2,33.2,3.8,1.7,2.74,-0.038926798451212614,-0.05522320919488944,0.9707171677899746,-0.024595305249975843,-0.251168,-24.371682
11.185,2.0,1.0,1.0,34.0,33.2,33.2,3.8,1.7,2.7425,-0.0528612914620619,-0.05617735548938411,0.9693565772462425,-0.026040548391121646,-0.257433,-24.163473
11.185,2.0,1.0,1.0,34.0,33.2,33.2,3.8,1.7,2.745,-0.06691632036749762,-0.05714479854667754,0.9677559672626781,-0.027554376491624937,-0.263968,-23.952588
11.185,2.0,1.0,1.0,34.0,33.2,33.2,3.8,1.7,2.7475,-0.08109059034650844,-0.05812527254744159,0.9659071742017135,-0.029140668663883453,-0.27079,-23.738932
11.185,2.0,1.0,1.0,34.0,33.2,33.2,3.8,1.7,2.75,-0.0953826242606301,-0.0591184383442042,0.963801679696539,-0.0308035855348754,-0.277918,-23.522405
11.185,2.0,1.0,1.0,34.0,33.2,33.2,3.8,1.7,2.7525,-0.10979074656117753,-0.06012387213781986,0.9614305855289196,-0.03254759503146352,-0.285373,-23.302903
11.185,2.0,1.0,1.0,34.0,33.2,33.2,3.8,1.7,2.755,-0.12431306523916727,-0.061141052327791365,0.9587845858127727,-0.0343775010097058,-0.293177,-23.080313
11.185,2.0,1.0,1.0,34.0,33.2,33.2,3.8,1.7,2.7575,-0.13894745149311158,-0.06216934421155413,0.9558539361308975,-0.036298475088558844,-0.301355,-22.854518
11.185,2.0,1.0,1.0,34.0,33.2,33.2,3.8,1.7,2.76,-0.15369151672621215,-0.06320798214401548,0.9526284192218795,-0.03831609209875157,-0.309934,-22.625392
11.185,2.0,1.0,1.0,34.0,33.2,33.2,3.8,1.7,2.7625,-0.1685425864070894,-0.06425604869108689,0.9490973067562368,-0.040436369615415926,-0.318944,-22.392806
11.185,2.0,1.0,1.0,34.0,33.2,33.2,3.8,1.7,2.765,-0.18349767023359656,-0.06531245021637029,0.9452493166743596,-0.04266581210938091,-0.328417,-22.156618
11.185,2.0,1.0,1.0,34.0,33.2,33.2,3.8,1.7,2.7675,-0.19855342792364408,-0.06637588822452012,0.9410725654825148,-0.04501146032801147,-0.33839,-21.916681
11.185,2.0,1.0,1.0,34.0,33.2,33.2,3.8,1.7,2.77,-0.2137061298150184,-0.06744482564295672,0.9365545148158629,-0.04748094660343021,-0.348902,-21.672839
11.185,2.0,1.0,1.0,34.0,33.2,33.2,3.8,1.7,2.7725,-0.22895161128127248,-0.06851744704908046,0.9316819114775774,-0.05008255688520503,-0.359998,-21.424924
11.185,2.0,1.0,1.0,34.0,33.2,33.2,3.8,1.7,2.775,-0.24428521975489845,-0.06959161163469536,0.9264407200495616,-0.05282530040755369,-0.371726,-21.17276
11.185,2.0,1.0,1.0,34.0,33.2,33.2,3.8,1.7,2.7775,-0.25970175288142244,-0.07066479743255875,0.9208160470414168,-0.055718988029056726,-0.384141,-20.916158
11.185,2.0,1.0,1.0,34.0,33.2,33.2,3.8,1.7,2.78,-0.2751953859954483,-0.07173403499845502,0.9147920553992346,-0.05877432042690773,-0.397305,-20.654918
11.185,2.0,1.0,1.0,34.0,33.2,33.2,3.8,1.7,2.7825,-0.2907595866947085,-0.07279582832885173,0.908351868033817,-0.06200298748841762,-0.411284,-20.388826
11.185,2.0,1.0,1.0,34.0,33.2,33.2,3.8,1.7,2.785,-0.3063870137689413,-0.07384606027706668,0.9014774588493344,-0.06541778041955854,-0.426156,-20.117655
11.185,2.0,1.0,1.0,34.0,33.2,33.2,3.8,1.7,2.7875,-0.32206939708814575,-0.07487987908160373,0.8941495295600772,-0.06903271828195033,-0.442006,-19.84116
11.185,2.0,1.0,1.0,34.0,33.2,33.2,3.8,1.7,2.79,-0.33779739423275973,-0.07589156180228349,0.8863473703789657,-0.07286319087160022,-0.458932,-19.559083
11.185,2.0,1.0,1.0,34.0,33.2,33.2,3.8,1.7,2.7925,-0.3535604186086817,-0.07687434942548578,0.8780487024553335,-0.07692612005662182,-0.477044,-19.271146
11.185,2.0,1.0,1.0,34.0,33.2,33.2,3.8,1.7,2.795,-0.36934643247063487,-0.07782024708747283,0.8692294997453999,-0.08124014188268337,-0.496465,-18.977052
11.185,2.0,1.0,1.0,34.0,33.2,33.2,3.8,1.7,2.7975,-0.3851416965971773,-0.07871978119386376,0.859863787841362,-0.0858258119098616,-0.517338,-18.676483
11.185,2.0,1.0,1.0,34.0,33.2,33.2,3.8,1.7,2.8,-0.40093046621377043,-0.07956170307885514,0.84992341720291,-0.09070583632397179,-0.539827,-18.369098
11.185,2.0,1.0,1.0,34.0,33.2,33.2,3.8,1.7,2.8025,-0.41669462000883467,-0.08033262611239483,0.839377808290885,-0.09590533130729052,-0.564118,-18.054534
11.185,2.0,1.0,1.0,34.0,33.2,33.2,3.8,1.7,2.805,-0.43241320555049084,-0.08101657964783117,0.8281936663938346,-0.1014521128609293,-0.590425,-17.732399
11.185,2.0,1.0,1.0,34.0,33.2,33.2,3.8,1.7,2.8075,-0.44806187985349377,-0.08159445867243446,0.8163346646160827,-0.10737701859323963,-0.618999,-17.402275
11.185,2.0,1.0,1.0,34.0,33.2,33.2,3.8,1.7,2.81,-0.46361221795952534,-0.08204334217391278,0.8037610947945295,-0.1137142616927563,-0.650129,-17.063714
11.185,2.0,1.0,1.0,34.0,33.2,33.2,3.8,1.7,2.8125,-0.4790308547827,-0.0823356456736523,0.790429488391309,-0.120501815031727,-0.684154,-16.716235
11.185,2.0,1.0,1.0,34.0,33.2,33.2,3.8,1.7,2.815,-0.4942784156278306,-0.08243806359718737,0.7762922132246829,-0.12778181954632592,-0.72147,-16.359328
11.185,2.0,1.0,1.0,34.0,33.2,33.2,3.8,1.7,2.8175,-0.5093081780705317,-0.0823102445185733,0.7612970581024445,-0.1356010048657589,-0.762546,-15.992443
11.185,2.0,1.0,1.0,34.0,33.2,33.2,3.8,1.7,2.82,-0.5240643915102233,-0.08190312604787366,0.7453868273175333,-0.1440111003154995,-0.807937,-15.615001
11.185,2.0,1.0,1.0,34.0,33.2,33.2,3.8,1.7,2.8225,-0.5384801597474468,-0.08115683531600869,0.7284989825607505,-0.15306919890555035,-0.858306,-15.226383
11.185,2.0,1.0,1.0,34.0,33.2,33.2,3.8,1.7,2.825,-0.5524747654048693,-0.07999803466627786,0.7105653941782464,-0.16283801267398074,-0.914445,-14.825942
11.185,2.0,1.0,1.0,34.0,33.2,33.2,3.8,1.7,2.8275,-0.5659502820305577,-0.07833655942041517,0.6915123015656749,-0.17338592010449008,-0.977311,-14.412999
