1,w,sub_t,h,l1,l2,l3,g1,g2,Freq,S11_re,S21_re,S11_img,S21_img,S11_dB,S21_dB
11.185,2.0,1.0,1.0,33.4,34.1,34.1,1.7,3.6,2.5,0.855054603279849,-0.00988834039797721,0.50412875327514,0.0089105949400396,-0.064473,-37.515903
11.185,2.0,1.0,1.0,33.4,34.1,34.1,1.7,3.6,2.5025,0.8514980148937891,-0.010105455627172076,0.5099578105124459,0.008965959169573559,-0.065171,-37.387165
11.185,2.0,1.0,1.0,33.4,34.1,34.1,1.7,3.6,2.505,0.8478832769462965,-0.010327047462980037,0.5157890629676134,0.009020661946098556,-0.065883,-37.257954
11.185,2.0,1.0,1.0,33.4,34.1,34.1,1.7,3.6,2.5075,0.8442097021366003,-0.010553222668644138,0.5216222627780103,0.009074657093423427,-0.066609,-37.128257
11.185,2.0,1.0,1.0,33.4,34.1,34.1,1.7,3.6,2.51,0.8404765899008547,-0.010784091144227431,0.527457152927326,0.00912789626365271,-0.067349,-36.998066
11.185,2.0,1.0,1.0,33.4,34.1,34.1,1.7,3.6,2.5125,0.8366832261101441,-0.011019766035426336,0.5332934668922186,0.009180328830653822,-0.068104,-36.867368
11.185,2.0,1.0,1.0,33.4,34.1,34.1,1.7,3.6,2.515,0.8328288827603803,-0.011260363846706761,0.5391309282744864,0.009231901777805952,-0.068875,-36.736154
11.185,2.0,1.0,1.0,33.4,34.1,34.1,1.7,3.6,2.5175,0.8289128176538696,-0.01150600455895299,0.5449692504180852,0.009282559579691029,-0.069661,-36.604411
11.185,2.0,1.0,1.0,33.4,34.1,34.1,1.7,3.6,2.52,0.8249342740722504,-0.011756811751831377,0.5508081360102886,0.009332244077363905,-0.070463,-36.47213
11.185,2.0,1.0,1.0,33.4,34.1,34.1,1.7,3.6,2.5225,0.8208924804405536,-0.012012912731078391,0.5566472766662196,0.009380894346815776,-0.071282,-36.339298
11.185,2.0,1.0,1.0,33.4,34.1,34.1,1.7,3.6,2.525,0.8167866499820847,-0.012274438660933732,0.5624863524959892,0.009428446560218351,-0.072118,-36.205903
11.185,2.0,1.0,1.0,33.4,34.1,34.1,1.7,3.6,2.5275,0.8126159803638311,-0.012541524701949906,0.5683250316535889,0.009474833839509197,-0.072971,-36.071935
11.185,2.0,1.0,1.0,33.4,34.1,34.1,1.7,3.6,2.53,0.8083796533320992,-0.012814310154420394,0.5741629698666578,0.009519986101848257,-0.073843,-35.937381
11.185,2.0,1.0,1.0,33.4,34.1,34.1,1.7,3.6,2.5325,0.8040768343380492,-0.01309293860767973,0.5799998099461953,0.009563829896444526,-0.074733,-35.802228
11.185,2.0,1.0,1.0,33.4,34.1,34.1,1.7,3.6,2.535,0.7997066721528074,-0.013377558095542353,0.5858351812752396,0.009606288232216615,-0.075642,-35.666465
11.185,2.0,1.0,1.0,33.4,34.1,34.1,1.7,3.6,2.5375,0.7952682984718071,-0.013668321258158542,0.5916686992754574,0.009647280395714504,-0.07657,-35.530079
11.185,2.0,1.0,1.0,33.4,34.1,34.1,1.7,3.6,2.54,0.7907608275080078,-0.013965385510580035,0.5974999648505571,0.009686721758690283,-0.077519,-35.393057
11.185,2.0,1.0,1.0,33.4,34.1,34.1,1.7,3.6,2.5425,0.7861833555736177,-0.014268913218341513,0.6033285638053548,0.009724523574661833,-0.078489,-35.255386
11.185,2.0,1.0,1.0,33.4,34.1,34.1,1.7,3.6,2.545,0.7815349606499439,-0.014579071880378963,0.6091540662392626,0.009760592763768951,-0.07948,-35.117053
11.185,2.0,1.0,1.0,33.4,34.1,34.1,1.7,3.6,2.5475,0.7768147019449733,-0.014896034319621356,0.6149760259128864,0.009794831685170115,-0.080493,-34.978043
11.185,2.0,1.0,1.0,33.4,34.1,34.1,1.7,3.6,2.55,0.7720216194382621,-0.015219978881607662,0.6207939795863561,0.009827137896175491,-0.081528,-34.838344
11.185,2.0,1.0,1.0,33.4,34.1,34.1,1.7,3.6,2.5525,0.7671547334127303,-0.015551089641498981,0.6266074463279124,0.009857403897254,-0.082587,-34.697942
11.185,2.0,1.0,1.0,33.4,34.1,34.1,1.7,3.6,2.555,0.7622130439728954,-0.015889556619871584,0.6324159267911978,0.00988551686198954,-0.08367,-34.556821
11.185,2.0,1.0,1.0,33.4,34.1,34.1,1.7,3.6,2.5575,0.7571955305491,-0.01623557600769662,0.6382189024595953,0.009911358350994104,-0.084778,-34.414967
11.185,2.0,1.0,1.0,33.4,34.1,34.1,1.7,3.6,2.56,0.7521011513872601,-0.01658935040092941,0.6440158348558582,0.009934804008713632,-0.085911,-34.272365
11.185,2.0,1.0,1.0,33.4,34.1,34.1,1.7,3.6,2.5625,0.7469288430236367,-0.01695108904515234,0.6498061647151646,0.009955723241982224,-0.087071,-34.129001
11.185,2.0,1.0,1.0,33.4,34.1,34.1,1.7,3.6,2.565,0.7416775197441198,-0.017321008090735304,0.6555893111196103,0.009973978879097227,-0.088258,-33.984859
11.185,2.0,1.0,1.0,33.4,34.1,34.1,1.7,3.6,2.5675,0.7363460730275123,-0.017699330858998823,0.6613646705920297,0.00998942680809394,-0.089473,-33.839922
11.185,2.0,1.0,1.0,33.4,34.1,34.1,1.7,3.6,2.57,0.7309333709722509,-0.01808628811988692,0.6671316161468956,0.010001915592800212,-0.090717,-33.694174
11.185,2.0,1.0,1.0,33.4,34.1,34.1,1.7,3.6,2.5725,0.725438257706009,-0.018482118381680058,0.6728894962959017,0.010011286065142582,-0.091991,-33.5476
11.185,2.0,1.0,1.0,33.4,34.1,34.1,1.7,3.6,2.575,0.7198595527775968,-0.018887068193301052,0.6786376340056774,0.010017370892058456,-0.093296,-33.400182
11.185,2.0,1.0,1.0,33.4,34.1,34.1,1.7,3.6,2.5775,0.7141960505305625,-0.01930139245979194,0.6843753256049104,0.010019994115243456,-0.094633,-33.251902
11.185,2.0,1.0,1.0,33.4,34.1,34.1,1.7,3.6,2.58,0.7084465194578647,-0.01972535477156258,0.6901018396379703,0.01001897066182187,-0.096003,-33.102745
11.185,2.0,1.0,1.0,33.4,34.1,34.1,1.7,3.6,2.5825,0.7026097015369864,-0.020159227748039573,0.6958164156619369,0.01001410582388296,-0.097407,-32.95269
11.185,2.0,1.0,1.0,33.4,34.1,34.1,1.7,3.6,2.585,0.6966843115448221,-0.02060329339636702,0.701518262983703,0.010005194704659338,-0.098846,-32.80172
11.185,2.0,1.0,1.0,33.4,34.1,34.1,1.7,3.6,2.5875,0.6906690363516684,-0.021057843485838817,0.7072065593336279,0.009992021628949478,-0.100322,-32.649817
11.185,2.0,1.0,1.0,33.4,34.1,34.1,1.7,3.6,2.59,0.6845625341936233,-0.021523179938765413,0.712880449471924,0.009974359515192719,-0.101835,-32.49696
11.185,2.0,1.0,1.0,33.4,34.1,34.1,1.7,3.6,2.5925,0.6783634339226744,-0.02199961523850736,0.7185390437237367,0.009951969206396597,-0.103387,-32.34313
11.185,2.0,1.0,1.0,33.4,34.1,34.1,1.7,3.6,2.595,0.6720703342337639,-0.022487472855429815,0.7241814164385438,0.009924598756887733,-0.10498,-32.188307
11.185,2.0,1.0,1.0,33.4,34.1,34.1,1.7,3.6,2.5975,0.6656818028680708,-0.022987087691561013,0.7298066043692222,0.009891982671609461,-0.106615,-32.03247
11.185,2.0,1.0,1.0,33.4,34.1,34.1,1.7,3.6,2.6,0.6591963757917643,-0.02349880654475849,0.7354136049657711,0.009853841094418017,-0.108293,-31.875599
11.185,2.0,1.0,1.0,33.4,34.1,34.1,1.7,3.6,2.6025,0.65261255634947,-0.024022988593211978,0.741001374578305,0.009809878941532924,-0.110015,-31.717671
11.185,2.0,1.0,1.0,33.4,34.1,34.1,1.7,3.6,2.605,0.6459288143916607,-0.02456000590113266,0.7465688265635492,0.00975978497597527,-0.111785,-31.558664
11.185,2.0,1.0,1.0,33.4,34.1,34.1,1.7,3.6,2.6075,0.6391435853752102,-0.025110243946495723,0.7521148292886145,0.009703230818472925,-0.113602,-31.398555
11.185,2.0,1.0,1.0,33.4,34.1,34.1,1.7,3.6,2.61,0.6322552694363314,-0.02567410217172028,0.7576382040253606,0.009639869889926742,-0.11547,-31.237321
11.185,2.0,1.0,1.0,33.4,34.1,34.1,1.7,3.6,2.6125,0.6252622304351257,-0.026251994558182508,0.7631377227281521,0.009569336280108517,-0.11739,-31.074939
11.185,2.0,1.0,1.0,33.4,34.1,34.1,1.7,3.6,2.615,0.6181627949709925,-0.026844350225463713,0.7686121056872303,0.009491243536799188,-0.119363,-30.911383
11.185,2.0,1.0,1.0,33.4,34.1,34.1,1.7,3.6,2.6175,0.6109552513681578,-0.027451614056236973,0.7740600190493319,0.009405183369068244,-0.121393,-30.746628
11.185,2.0,1.0,1.0,33.4,34.1,34.1,1.7,3.6,2.62,0.603637848630624,-0.02807424734768899,0.7794800721964925,0.00931072425783872,-0.123481,-30.580649
11.185,2.0,1.0,1.0,33.4,34.1,34.1,1.7,3.6,2.6225,0.5962087953658624,-0.02871272849035938,0.7848708149732879,0.00920740996627311,-0.12563,-30.413419
11.185,2.0,1.0,1.0,33.4,34.1,34.1,1.7,3.6,2.625,0.588666258676651,-0.0293675536752523,0.790230734751903,0.00909475794184334,-0.127841,-30.244911
11.185,2.0,1.0,1.0,33.4,34.1,34.1,1.7,3.6,2.6275,0.5810083630204991,-0.03003923763003841,0.7955582533236254,0.008972257601212579,-0.130118,-30.075096
11.185,2.0,1.0,1.0,33.4,34.1,34.1,1.7,3.6,2.63,0.5732331890362131,-0.030728314385107293,0.8008517236043413,0.008839368488245744,-0.132463,-29.903946
11.185,2.0,1.0,1.0,33.4,34.1,34.1,1.7,3.6,2.6325,0.5653387723372486,-0.03143533807016155,0.8061094261406098,0.008695518294573362,-0.134879,-29.731431
11.185,2.0,1.0,1.0,33.4,34.1,34.1,1.7,3.6,2.635,0.5573231022716402,-0.032160883741944396,0.8113295654017222,0.008540100731151632,-0.137369,-29.557521
11.185,2.0,1.0,1.0,33.4,34.1,34.1,1.7,3.6,2.6375,0.5491841206484604,-0.03290554824357265,0.8165102658419156,0.0083724732381778,-0.139936,-29.382184
11.185,2.0,1.0,1.0,33.4,34.1,34.1,1.7,3.6,2.64,0.5409197204309485,-0.033669951095794876,0.8216495677155172,0.008191954519525278,-0.142583,-29.205388
11.185,2.0,1.0,1.0,33.4,34.1,34.1,1.7,3.6,2.6425,0.5325277443967105,-0.034454735420301155,0.8267454226262854,0.007997821886545114,-0.145314,-29.027101
11.185,2.0,1.0,1.0,33.4,34.1,34.1,1.7,3.6,2.645,0.5240059837656628,-0.03526056889497872,0.8317956887905475,0.0077893083946196625,-0.148133,-28.847287
11.185,2.0,1.0,1.0,33.4,34.1,34.1,1.7,3.6,2.6475,0.5153521767967557,-0.036088144740720265,0.8367981259918884,0.007565599754247513,-0.151043,-28.665912
11.185,2.0,1.0,1.0,33.4,34.1,34.1,1.7,3.6,2.65,0.5065640073548956,-0.036938182739043895,0.8417503902031345,0.007325830996650777,-0.154048,-28.48294
11.185,2.0,1.0,1.0,33.4,34.1,34.1,1.7,3.6,2.6525,0.4976391034500341,-0.03781143027935943,0.8466500278491204,0.0070690828719240555,-0.157154,-28.298333
11.185,2.0,1.0,1.0,33.4,34.1,34.1,1.7,3.6,2.655,0.48857503575091293,-0.03870866343421406,0.8514944696812895,0.0067943779555534,-0.160363,-28.112053
11.185,2.0,1.0,1.0,33.4,34.1,34.1,1.7,3.6,2.6575,0.4793693160766934,-0.03963068806023543,0.8562810242324254,0.006500676436707715,-0.163682,-27.92406
11.185,2.0,1.0,1.0,33.4,34.1,34.1,1.7,3.6,2.66,0.4700193958705092,-0.04057834092176475,0.8610068708168161,0.0061868715590071574,-0.167116,-27.734312
11.185,2.0,1.0,1.0,33.4,34.1,34.1,1.7,3.6,2.6625,0.4605226646599591,-0.0415524908332994,0.8656690520377996,0.005851784681482807,-0.17067,-27.542769
11.185,2.0,1.0,1.0,33.4,34.1,34.1,1.7,3.6,2.665,0.45087644851069075,-0.04255403981583007,0.8702644657609571,0.005494159924108945,-0.174349,-27.349386
11.185,2.0,1.0,1.0,33.4,34.1,34.1,1.7,3.6,2.6675,0.44107800848062345,-0.04358392426091561,0.8747898565071011,0.00511265835859061,-0.17816,-27.154119
11.185,2.0,1.0,1.0,33.4,34.1,34.1,1.7,3.6,2.67,0.4311245390839358,-0.044643116094876166,0.8792418062146655,0.004705851700961584,-0.18211,-26.95692
11.185,2.0,1.0,1.0,33.4,34.1,34.1,1.7,3.6,2.6725,0.4210131667758357,-0.04573262393373671,0.8836167243160418,0.0042722154579563154,-0.186206,-26.757742
11.185,2.0,1.0,1.0,33.4,34.1,34.1,1.7,3.6,2.675,0.41074094847141485,-0.04685349421748248,0.8879108370667784,0.003810121473995787,-0.190455,-26.556535
11.185,2.0,1.0,1.0,33.4,34.1,34.1,1.7,3.6,2.6775,0.40030487011447835,-0.04800681230973064,0.8921201760603086,0.0033178298199098596,-0.194865,-26.353248
11.185,2.0,1.0,1.0,33.4,34.1,34.1,1.7,3.6,2.68,0.3897018453153916,-0.04919370354601221,0.8962405658539049,0.002793479958138288,-0.199445,-26.147828
11.185,2.0,1.0,1.0,33.4,34.1,34.1,1.7,3.6,2.6825,0.37892871408067114,-0.05041533421039932,0.9002676106237738,0.00223508111202055,-0.204203,-25.94022
11.185,2.0,1.0,1.0,33.4,34.1,34.1,1.7,3.6,2.685,0.3679822416613752,-0.051672912416121174,0.9041966797585879,0.0016405017588120574,-0.20915,-25.730366
11.185,2.0,1.0,1.0,33.4,34.1,34.1,1.7,3.6,2.6875,0.356859117552505,-0.0529676888609555,0.908022892291031,0.00100745815714956,-0.214297,-25.518209
11.185,2.0,1.0,1.0,33.4,34.1,34.1,1.7,3.6,2.69,0.3455559546817105,-0.054300957422420304,0.911741100056193,0.0003335018097069947,-0.219653,-25.303686
11.185,2.0,1.0,1.0,33.4,34.1,34.1,1.7,3.6,2.6925,0.33406928883274245,-0.055674055550962775,0.915345869453567,-0.00038399424938989396,-0.225232,-25.086736
11.185,2.0,1.0,1.0,33.4,34.1,34.1,1.7,3.6,2.695,0.3223955783576627,-0.05708836441122503,0.9188314616759337,-0.0011478504653334902,-0.231046,-24.867293
11.185,2.0,1.0,1.0,33.4,34.1,34.1,1.7,3.6,2.6975,0.3105312042418058,-0.05854530871184299,0.9221918112533536,-0.0019610972085589372,-0.237109,-24.645288
11.185,2.0,1.0,1.0,33.4,34.1,34.1,1.7,3.6,2.7,0.29847247059753584,-0.060046356152781526,0.9254205027436365,-0.002826992808497325,-0.243436,-24.420651
11.185,2.0,1.0,1.0,33.4,34.1,34.1,1.7,3.6,2.7025,0.286215605676899,-0.06159301640560445,0.9285107453818008,-0.0037490433454464714,-0.250043,-24.19331
11.185,2.0,1.0,1.0,33.4,34.1,34.1,1.7,3.6,2.705,0.2737567635102027,-0.06318683952587582,0.9314553454799361,-0.004731024390571516,-0.256948,-23.963189
11.185,2.0,1.0,1.0,33.4,34.1,34.1,1.7,3.6,2.7075,0.26109202629746775,-0.06482941367759959,0.9342466763453168,-0.005777004906156061,-0.264169,-23.730208
11.185,2.0,1.0,1.0,33.4,34.1,34.1,1.7,3.6,2.71,0.2482174077035836,-0.06652236202659897,0.9368766454581926,-0.006891373542971949,-0.271727,-23.494287
11.185,2.0,1.0,1.0,33.4,34.1,34.1,1.7,3.6,2.7125,0.23512885723629076,-0.06826733863229331,0.9393366586212326,-0.008078867599335546,-0.279644,-23.255341
11.185,2.0,1.0,1.0,33.4,34.1,34.1,1.7,3.6,2.715,0.22182226592000714,-0.07006602313453461,0.941617580759657,-0.00934460493737837,-0.287943,-23.013281
11.185,2.0,1.0,1.0,33.4,34.1,34.1,1.7,3.6,2.7175,0.20829347351886437,-0.07192011399295642,0.9437096930143649,-0.01069411918662769,-0.296651,-22.768016
11.185,2.0,1.0,1.0,33.4,34.1,34.1,1.7,3.6,2.72,0.1945382776106734,-0.07383131998934044,0.9456026457295017,-0.01213339860351164,-0.305797,-22.519451
11.185,2.0,1.0,1.0,33.4,34.1,34.1,1.7,3.6,2.7225,0.18055244487130404,-0.07580134964724129,0.9472854068904496,-0.013668928998234492,-0.315409,-22.267488
11.185,2.0,1.0,1.0,33.4,34.1,34.1,1.7,3.6,2.725,0.1663317249983548,-0.07783189815557952,0.9487462055179076,-0.015307741187933646,-0.325524,-22.012022
11.185,2.0,1.0,1.0,33.4,34.1,34.1,1.7,3.6,2.7275,0.1518718677860827,-0.07992463130180417,0.9499724694681458,-0.017057463487457396,-0.336176,-21.752948
11.185,2.0,1.0,1.0,33.4,34.1,34.1,1.7,3.6,2.73,0.13716864396362308,-0.08208116582263465,0.9509507570284579,-0.018926379806680035,-0.347406,-21.490154
11.185,2.0,1.0,1.0,33.4,34.1,34.1,1.7,3.6,2.7325,0.12221787052873558,-0.08430304546287895,0.9516666816301406,-0.02092349398614727,-0.359259,-21.223525
11.185,2.0,1.0,1.0,33.4,34.1,34.1,1.7,3.6,2.735,0.10701544145429394,-0.08659171189112555,0.9521048289290762,-0.02305860107088146,-0.371782,-20.95294
11.185,2.0,1.0,1.0,33.4,34.1,34.1,1.7,3.6,2.7375,0.09155736481949188,-0.08894846945004829,0.952248665426506,-0.02534236629502199,-0.385028,-20.678274
11.185,2.0,1.0,1.0,33.4,34.1,34.1,1.7,3.6,2.74,0.07583980762890134,-0.09137444251233322,0.9520804377206804,-0.027786412626771454,-0.399057,-20.399398
11.185,2.0,1.0,1.0,33.4,34.1,34.1,1.7,3.6,2.7425,0.05985914983772505,-0.09387052396313585,0.9515810613951862,-0.030403417802422176,-0.413933,-20.116175
11.185,2.0,1.0,1.0,33.4,34.1,34.1,1.7,3.6,2.745,0.04361204941055079,-0.09643731302708274,0.9507299984641604,-0.03320722185764543,-0.429727,-19.828466
11.185,2.0,1.0,1.0,33.4,34.1,34.1,1.7,3.6,2.7475,0.02709552061516295,-0.09907504029071632,0.9495051222120504,-0.03621294624009241,-0.446519,-19.536125
11.185,2.0,1.0,1.0,33.4,34.1,34.1,1.7,3.6,2.75,0.0103070282066822,-0.101783477325982,0.947882568191438,-0.0394371256541779,-0.464396,-19.239
11.185,2.0,1.0,1.0,33.4,34.1,34.1,1.7,3.6,2.7525,-0.006755399292244869,-0.10456182777992357,0.9458365700847331,-0.04289785383868681,-0.483456,-18.936934
11.185,2.0,1.0,1.0,33.4,34.1,34.1,1.7,3.6,2.755,-0.024093033341528614,-0.10740859613968684,0.9433392791058955,-0.046614944499014904,-0.50381,-18.629765
11.185,2.0,1.0,1.0,33.4,34.1,34.1,1.7,3.6,2.7575,-0.04170628147975286,-0.1103214295854719,0.9403605656330517,-0.05061010859203516,-0.525577,-18.317324
11.185,2.0,1.0,1.0,33.4,34.1,34.1,1.7,3.6,2.76,-0.05959449009855943,-0.1132969273775317,0.9368678018453747,-0.05490714906960321,-0.548896,-17.999436
11.185,2.0,1.0,1.0,33.4,34.1,34.1,1.7,3.6,2.7625,-0.07775570703551904,-0.11633041105141025,0.9328256243201959,-0.05953217399428119,-0.57392,-17.675924
11.185,2.0,1.0,1.0,33.4,34.1,34.1,1.7,3.6,2.765,-0.09618639568258276,-0.11941564727675971,0.9281956758745221,-0.06451382860288642,-0.600821,-17.346601
11.185,2.0,1.0,1.0,33.4,34.1,34.1,1.7,3.6,2.7675,-0.11488109056434782,-0.12254451352115499,0.9229363264715178,-0.06988354634770823,-0.629793,-17.01128
11.185,2.0,1.0,1.0,33.4,34.1,34.1,1.7,3.6,2.77,-0.13383198224201925,-0.12570659459675218,0.9170023738436742,-0.07567581810582302,-0.661058,-16.669766
11.185,2.0,1.0,1.0,33.4,34.1,34.1,1.7,3.6,2.7725,-0.15302841688422375,-0.1288886956945368,0.9103447257290609,-0.08192847749606616,-0.694864,-16.321863
11.185,2.0,1.0,1.0,33.4,34.1,34.1,1.7,3.6,2.775,-0.1724562928511298,-0.13207425456603236,0.9029100674374926,-0.08868299842004257,-0.731496,-15.967373
11.185,2.0,1.0,1.0,33.4,34.1,34.1,1.7,3.6,2.7775,-0.19209733310332594,-0.13524263203669987,0.8946405210804766,-0.09598479832927348,-0.771277,-15.606097
11.185,2.0,1.0,1.0,33.4,34.1,34.1,1.7,3.6,2.78,-0.2119282081247886,-0.13836825598363495,0.8854733065109794,-0.10388353701938513,-0.814578,-15.237835
11.185,2.0,1.0,1.0,33.4,34.1,34.1,1.7,3.6,2.7825,-0.23191947932490267,-0.14141958926889978,0.8753404192278865,-0.11243339556666745,-0.861822,-14.862396
11.185,2.0,1.0,1.0,33.4,34.1,34.1,1.7,3.6,2.785,-0.25203432760448824,-0.14435788693653626,0.8641683477403498,-0.12169331282289851,-0.913497,-14.479592
11.185,2.0,1.0,1.0,33.4,34.1,34.1,1.7,3.6,2.7875,-0.272227026090511,-0.14713570241224713,0.8518778628647679,-0.13172714697275775,-0.970167,-14.089247
11.185,2.0,1.0,1.0,33.4,34.1,34.1,1.7,3.6,2.79,-0.2924411103048979,-0.1496950968299603,0.8383839250590851,-0.1426037161273078,-1.032482,-13.691203
11.185,2.0,1.0,1.0,33.4,34.1,34.1,1.7,3.6,2.7925,-0.31260719387624875,-0.15196550058769004,0.8235957743552479,-0.15439665362035282,-1.101197,-13.285324
11.185,2.0,1.0,1.0,33.4,34.1,34.1,1.7,3.6,2.795,-0.3326403744483665,-0.1538611729176913,0.8074172921811069,-0.16718398915905855,-1.17719,-12.871505
11.185,2.0,1.0,1.0,33.4,34.1,34.1,1.7,3.6,2.7975,-0.35243717454008616,-0.15527820548247676,0.7897477570929139,-0.18104733455266794,-1.261486,-12.449682
11.185,2.0,1.0,1.0,33.4,34.1,34.1,1.7,3.6,2.8,-0.37187196872649514,-0.1560910227130419,0.7704831590846801,-0.19607051051348368,-1.355286,-12.019847
11.185,2.0,1.0,1.0,33.4,34.1,34.1,1.7,3.6,2.8025,-0.39079286621651294,-0.15614834932136692,0.7495182915762209,-0.21233739714662644,-1.459998,-11.58206
11.185,2.0,1.0,1.0,33.4,34.1,34.1,1.7,3.6,2.805,-0.40901705355169166,-0.15526865093520684,0.7267499077337708,-0.22992872392148642,-1.577276,-11.136471
11.185,2.0,1.0,1.0,33.4,34.1,34.1,1.7,3.6,2.8075,-0.4263256656771961,-0.15323511694944378,0.7020813082493919,-0.24891743536392583,-1.709075,-10.683342
11.185,2.0,1.0,1.0,33.4,34.1,34.1,1.7,3.6,2.81,-0.44245835884406204,-0.14979035912270122,0.6754288176463612,-0.26936217986951316,-1.857701,-10.223078
11.185,2.0,1.0,1.0,33.4,34.1,34.1,1.7,3.6,2.8125,-0.457107923845619,-0.14463116311832,0.646730696003587,-0.291298380437933,-2.025882,-9.756255
11.185,2.0,1.0,1.0,33.4,34.1,34.1,1.7,3.6,2.815,-0.46991552491278776,-0.13740387476990187,0.6159591025280219,-0.31472627777988355,-2.21685,-9.283667
11.185,2.0,1.0,1.0,33.4,34.1,34.1,1.7,3.6,2.8175,-0.4804675009974843,-0.127701350836067,0.5831357395535189,-0.3395953249111848,-2.434428,-8.806365
11.185,2.0,1.0,1.0,33.4,34.1,34.1,1.7,3.6,2.82,-0.4882951382934426,-0.11506287123397181,0.5483516984088611,-0.3657844193154763,-2.683132,-8.325713
11.185,2.0,1.0,1.0,33.4,34.1,34.1,1.7,3.6,2.8225,-0.4928794097309553,-0.0989789901230542,0.5117917079662457,-0.39307777724688353,-2.968283,-7.84344
11.185,2.0,1.0,1.0,33.4,34.1,34.1,1.7,3.6,2.825,-0.4936633237934749,-0.07890394200905274,0.47376232404584756,-0.421136911813124,-3.296111,-7.361696
11.185,2.0,1.0,1.0,33.4,34.1,34.1,1.7,3.6,2.8275,-0.4900750866438688,-0.05427877274926458,0.4347224445226206,-0.44947031896198963,-3.673836,-6.883102
11.185,2.0,1.0,1.0,33.4,34.1,34.1,1.7,3.6,2.83,-0.4815654750661452,-0.024568553504727062,0.39531276973576684,-0.47740422274405997,-4.109696,-6.410788
