1,w,sub_t,h,l1,l2,l3,g1,g2,Freq,S11_re,S21_re,S11_img,S21_img,S11_dB,S21_dB
11.185,2.0,1.0,1.0,33.7,33.1,33.1,2.8,1.7,2.5,0.823493423102934,-0.011039454829107,0.555353673276298,0.00960034760453585,-0.058769,-36.695127
11.185,2.0,1.0,1.0,33.7,33.1,33.1,2.8,1.7,2.5025,0.819592586784209,-0.011260864565713326,0.560978561495619,0.009643384943135467,-0.059342,-36.579685
11.185,2.0,1.0,1.0,33.7,33.1,33.1,2.8,1.7,2.505,0.8156352114364471,-0.011486272300700292,0.5666000976789818,0.00968536961456218,-0.059925,-36.463899
11.185,2.0,1.0,1.0,33.7,33.1,33.1,2.8,1.7,2.5075,0.8116207306652725,-0.011715756870942201,0.5722179649722818,0.009726250864760226,-0.060519,-36.347762
11.185,2.0,1.0,1.0,33.7,33.1,33.1,2.8,1.7,2.51,0.8075485693964982,-0.011949398973517553,0.5778318369756172,0.009765976001649697,-0.061124,-36.231268
11.185,2.0,1.0,1.0,33.7,33.1,33.1,2.8,1.7,2.5125,0.8034181437539499,-0.012187281215585948,0.5834413774376498,0.009804490316174615,-0.061739,-36.114408
11.185,2.0,1.0,1.0,33.7,33.1,33.1,2.8,1.7,2.515,0.7992288609365007,-0.012429488165701413,0.5890462399399877,0.009841736999843687,-0.062366,-35.997177
11.185,2.0,1.0,1.0,33.7,33.1,33.1,2.8,1.7,2.5175,0.7949801190943816,-0.012676106406603091,0.5946460675712135,0.009877657058591912,-0.063005,-35.879567
11.185,2.0,1.0,1.0,33.7,33.1,33.1,2.8,1.7,2.52,0.7906713072048206,-0.012927224589527683,0.6002404925902113,0.009912189222781633,-0.063655,-35.76157
11.185,2.0,1.0,1.0,33.7,33.1,33.1,2.8,1.7,2.5225,0.7863018049470947,-0.01318293349008716,0.6058291360783824,0.009945269853152784,-0.064318,-35.643178
11.185,2.0,1.0,1.0,33.7,33.1,33.1,2.8,1.7,2.525,0.7818709825770526,-0.013443326065758139,0.6114116075803758,0.009976832842520713,-0.064992,-35.524386
11.185,2.0,1.0,1.0,33.7,33.1,33.1,2.8,1.7,2.5275,0.7773782008011922,-0.013708497515029441,0.6169875047329041,0.010006809513009488,-0.06568,-35.405183
11.185,2.0,1.0,1.0,33.7,33.1,33.1,2.8,1.7,2.53,0.7728228106503843,-0.013978545338254733,0.6225564128812138,0.010035128508595592,-0.06638,-35.285564
11.185,2.0,1.0,1.0,33.7,33.1,33.1,2.8,1.7,2.5325,0.7682041533533275,-0.014253569400260846,0.6281179046827634,0.010061715682726468,-0.067094,-35.16552
11.185,2.0,1.0,1.0,33.7,33.1,33.1,2.8,1.7,2.535,0.7635215602098326,-0.014533671994760097,0.6336715396976447,0.01008649398076318,-0.067822,-35.045043
11.185,2.0,1.0,1.0,33.7,33.1,33.1,2.8,1.7,2.5375,0.7587743524640522,-0.014818957910618458,0.6392168639652431,0.010109383316982407,-0.068563,-34.924124
11.185,2.0,1.0,1.0,33.7,33.1,33.1,2.8,1.7,2.54,0.7539618411777583,-0.015109534500032105,0.6447534095666491,0.010130300445859683,-0.069319,-34.802756
11.185,2.0,1.0,1.0,33.7,33.1,33.1,2.8,1.7,2.5425,0.7490833271037959,-0.015405511748664355,0.6502806941722808,0.010149158827338179,-0.07009,-34.680931
11.185,2.0,1.0,1.0,33.7,33.1,33.1,2.8,1.7,2.545,0.7441381005598413,-0.015707002347798156,0.6557982205741667,0.010165868485769725,-0.070875,-34.55864
11.185,2.0,1.0,1.0,33.7,33.1,33.1,2.8,1.7,2.5475,0.739125441302612,-0.016014121768558296,0.6613054762023085,0.01018033586219942,-0.071676,-34.435873
11.185,2.0,1.0,1.0,33.7,33.1,33.1,2.8,1.7,2.55,0.7340446184026629,-0.01632698833826046,0.6668019326245402,0.01019246365964341,-0.072493,-34.312624
11.185,2.0,1.0,1.0,33.7,33.1,33.1,2.8,1.7,2.5525,0.7288948901199521,-0.016645723318942048,0.6722870450292302,0.010202150680988622,-0.073327,-34.188881
11.185,2.0,1.0,1.0,33.7,33.1,33.1,2.8,1.7,2.555,0.7236755037803257,-0.016970450988133542,0.6777602516901953,0.01020929165912385,-0.074177,-34.064638
11.185,2.0,1.0,1.0,33.7,33.1,33.1,2.8,1.7,2.5575,0.7183856956531152,-0.017301298721927857,0.6832209734131377,0.01021377707888673,-0.075044,-33.939884
11.185,2.0,1.0,1.0,33.7,33.1,33.1,2.8,1.7,2.56,0.7130246908300464,-0.017638397080406806,0.6886686129628846,0.010215492990384656,-0.075929,-33.81461
11.185,2.0,1.0,1.0,33.7,33.1,33.1,2.8,1.7,2.5625,0.7075917031056601,-0.017981879895481712,0.6941025544706878,0.010214320813224488,-0.076832,-33.688807
11.185,2.0,1.0,1.0,33.7,33.1,33.1,2.8,1.7,2.565,0.7020859348594691,-0.018331884361209694,0.6995221628208144,0.010210137131155116,-0.077753,-33.562465
11.185,2.0,1.0,1.0,33.7,33.1,33.1,2.8,1.7,2.5675,0.6965065769400993,-0.018688551126642337,0.7049267830155931,0.010202813476597164,-0.078694,-33.435574
11.185,2.0,1.0,1.0,33.7,33.1,33.1,2.8,1.7,2.57,0.6908528085516512,-0.019052024391266596,0.710315739518081,0.010192216104502588,-0.079654,-33.308125
11.185,2.0,1.0,1.0,33.7,33.1,33.1,2.8,1.7,2.5725,0.6851237971425639,-0.019422452003096613,0.7156883355714485,0.010178205754950875,-0.080635,-33.180107
11.185,2.0,1.0,1.0,33.7,33.1,33.1,2.8,1.7,2.575,0.6793186982972625,-0.01979998555947293,0.7210438524941519,0.01016063740385362,-0.081636,-33.05151
11.185,2.0,1.0,1.0,33.7,33.1,33.1,2.8,1.7,2.5775,0.6734366556309004,-0.02018478051062635,0.7263815489499058,0.010139360001096344,-0.082659,-32.922323
11.185,2.0,1.0,1.0,33.7,33.1,33.1,2.8,1.7,2.58,0.6674768006875187,-0.020576996266060882,0.7317006601914374,0.010114216195409097,-0.083703,-32.792536
11.185,2.0,1.0,1.0,33.7,33.1,33.1,2.8,1.7,2.5825,0.661438252841971,-0.02097679630380966,0.7370003972769344,0.010085042045206058,-0.08477,-32.662139
11.185,2.0,1.0,1.0,33.7,33.1,33.1,2.8,1.7,2.585,0.6553201192059848,-0.02138434828261472,0.7422799462580656,0.010051666714590556,-0.085861,-32.531119
11.185,2.0,1.0,1.0,33.7,33.1,33.1,2.8,1.7,2.5875,0.6491214945387499,-0.02179982415707735,0.7475384673383765,0.010013912153667343,-0.086975,-32.399465
11.185,2.0,1.0,1.0,33.7,33.1,33.1,2.8,1.7,2.59,0.6428414611624601,-0.022223400295825674,0.7527750940008182,0.009971592762248018,-0.088114,-32.267167
11.185,2.0,1.0,1.0,33.7,33.1,33.1,2.8,1.7,2.5925,0.6364790888832442,-0.02265525760273789,0.7579889321030939,0.009924515035976907,-0.089278,-32.134213
11.185,2.0,1.0,1.0,33.7,33.1,33.1,2.8,1.7,2.595,0.6300334349179798,-0.023095581641258366,0.7631790589394388,0.009872477193838422,-0.090468,-32.00059
11.185,2.0,1.0,1.0,33.7,33.1,33.1,2.8,1.7,2.5975,0.6235035438274747,-0.023544562761834763,0.7683445222673898,0.009815268785938164,-0.091685,-31.866286
11.185,2.0,1.0,1.0,33.7,33.1,33.1,2.8,1.7,2.6,0.6168884474565721,-0.024002396232500514,0.773484339298003,0.009752670280377148,-0.09293,-31.731289
11.185,2.0,1.0,1.0,33.7,33.1,33.1,2.8,1.7,2.6025,0.6101871648817517,-0.02446928237261637,0.7785974956479068,0.009684452627954629,-0.094203,-31.595586
11.185,2.0,1.0,1.0,33.7,33.1,33.1,2.8,1.7,2.605,0.6033987023668342,-0.024945426689778227,0.7836829442515013,0.009610376803353778,-0.095506,-31.459165
11.185,2.0,1.0,1.0,33.7,33.1,33.1,2.8,1.7,2.6075,0.5965220533274489,-0.02543104001988548,0.7887396042314821,0.009530193321365631,-0.096839,-31.322012
11.185,2.0,1.0,1.0,33.7,33.1,33.1,2.8,1.7,2.61,0.5895561983049603,-0.0259263386703528,0.7937663597258122,0.009443641726612242,-0.098204,-31.184114
11.185,2.0,1.0,1.0,33.7,33.1,33.1,2.8,1.7,2.6125,0.5825001049505962,-0.026431544566435396,0.798762058669125,0.009350450055117638,-0.0996,-31.045457
11.185,2.0,1.0,1.0,33.7,33.1,33.1,2.8,1.7,2.615,0.5753527280205682,-0.026946885400619867,0.8037255115264352,0.009250334265961543,-0.10103,-30.906027
11.185,2.0,1.0,1.0,33.7,33.1,33.1,2.8,1.7,2.6175,0.5681130093830375,-0.027472594785015167,0.8086554899769102,0.009142997641122102,-0.102494,-30.765809
11.185,2.0,1.0,1.0,33.7,33.1,33.1,2.8,1.7,2.62,0.5607798780378296,-0.02800891240665784,0.8135507255453205,0.009028130151481779,-0.103994,-30.624789
11.185,2.0,1.0,1.0,33.7,33.1,33.1,2.8,1.7,2.6225,0.5533522501498549,-0.028556084185621035,0.8184099081786432,0.008905407786819199,-0.105531,-30.482953
11.185,2.0,1.0,1.0,33.7,33.1,33.1,2.8,1.7,2.625,0.545829029097292,-0.0291143624357872,0.823231684765124,0.00877449184745459,-0.107105,-30.340284
11.185,2.0,1.0,1.0,33.7,33.1,33.1,2.8,1.7,2.6275,0.5382091055356131,-0.029684006028121355,0.8280146575929699,0.008635028195041798,-0.108719,-30.196766
11.185,2.0,1.0,1.0,33.7,33.1,33.1,2.8,1.7,2.63,0.5304913574786575,-0.030265280556232937,0.8327573827456158,0.008486646459814931,-0.110373,-30.052385
11.185,2.0,1.0,1.0,33.7,33.1,33.1,2.8,1.7,2.6325,0.5226746503980082,-0.030858458503989387,0.837458368430369,0.008328959201394672,-0.112069,-29.907123
11.185,2.0,1.0,1.0,33.7,33.1,33.1,2.8,1.7,2.635,0.5147578373420463,-0.031463819414887795,0.8421160732369576,0.008161561020042077,-0.113808,-29.760964
11.185,2.0,1.0,1.0,33.7,33.1,33.1,2.8,1.7,2.6375,0.5067397590761396,-0.03208165006284214,0.8467289043223496,0.007984027615006035,-0.115592,-29.61389
11.185,2.0,1.0,1.0,33.7,33.1,33.1,2.8,1.7,2.64,0.49861924424552606,-0.032712244623989944,0.8512952155179161,0.007795914786357385,-0.117423,-29.465884
11.185,2.0,1.0,1.0,33.7,33.1,33.1,2.8,1.7,2.6425,0.4903951095625999,-0.03335590484904691,0.8558133053547592,0.0075967573764175594,-0.119301,-29.316927
11.185,2.0,1.0,1.0,33.7,33.1,33.1,2.8,1.7,2.645,0.48206616002040126,-0.03401294023567142,0.8602814150027297,0.0073860681465869795,-0.121229,-29.167002
11.185,2.0,1.0,1.0,33.7,33.1,33.1,2.8,1.7,2.6475,0.473631189134285,-0.03468366820020675,0.8646977261183559,0.0071633365850439275,-0.123209,-29.016089
11.185,2.0,1.0,1.0,33.7,33.1,33.1,2.8,1.7,2.65,0.46508897921386055,-0.03536841424808098,0.8690603585965437,0.0069280276404264695,-0.125243,-28.864168
11.185,2.0,1.0,1.0,33.7,33.1,33.1,2.8,1.7,2.6525,0.4564383016675189,-0.036067512142023146,0.8733673682205417,0.006679580376208139,-0.127331,-28.71122
11.185,2.0,1.0,1.0,33.7,33.1,33.1,2.8,1.7,2.655,0.4476779173419877,-0.036781304067141266,0.8776167442042702,0.00641740654005747,-0.129478,-28.557224
11.185,2.0,1.0,1.0,33.7,33.1,33.1,2.8,1.7,2.6575,0.43880657689961117,-0.03751014079175625,0.881806406620635,0.006140889041991553,-0.131684,-28.40216
11.185,2.0,1.0,1.0,33.7,33.1,33.1,2.8,1.7,2.66,0.4298230212362444,-0.03825438182272939,0.8859342037090058,0.005849380334627902,-0.133952,-28.246004
11.185,2.0,1.0,1.0,33.7,33.1,33.1,2.8,1.7,2.6625,0.4207259819429399,-0.039014395553839,0.8899979090544577,0.0055422006882724665,-0.136284,-28.088736
11.185,2.0,1.0,1.0,33.7,33.1,33.1,2.8,1.7,2.665,0.4115141818148259,-0.03979055940555024,0.8939952186308449,0.0052186363529706445,-0.138684,-27.930331
11.185,2.0,1.0,1.0,33.7,33.1,33.1,2.8,1.7,2.6675,0.4021863354109542,-0.04058325995428943,0.8979237476990949,0.0048779375989718805,-0.141153,-27.770768
11.185,2.0,1.0,1.0,33.7,33.1,33.1,2.8,1.7,2.67,0.3927411496691758,-0.04139289304906491,0.9017810275514433,0.004519316626325396,-0.143694,-27.61002
11.185,2.0,1.0,1.0,33.7,33.1,33.1,2.8,1.7,2.6725,0.38317732458051973,-0.04221986391297103,0.9055645020915514,0.004141945333509845,-0.14631,-27.448065
11.185,2.0,1.0,1.0,33.7,33.1,33.1,2.8,1.7,2.675,0.37349355392797384,-0.043064587226763006,0.9092715242396076,0.003744952934118434,-0.149005,-27.284875
11.185,2.0,1.0,1.0,33.7,33.1,33.1,2.8,1.7,2.6775,0.36368852609503116,-0.04392748719129602,0.9128993521505919,0.0033274234096380972,-0.151782,-27.120425
11.185,2.0,1.0,1.0,33.7,33.1,33.1,2.8,1.7,2.68,0.3537609249499075,-0.04480899756517227,0.9164451452328664,0.002888392785295383,-0.154644,-26.954687
11.185,2.0,1.0,1.0,33.7,33.1,33.1,2.8,1.7,2.6825,0.34370943081194216,-0.04570956167341717,0.9199059599531291,0.0024268462147555305,-0.157594,-26.787634
11.185,2.0,1.0,1.0,33.7,33.1,33.1,2.8,1.7,2.685,0.3335327215073512,-0.046629632382429946,0.92327874541254,0.0019417148581648295,-0.160637,-26.619236
11.185,2.0,1.0,1.0,33.7,33.1,33.1,2.8,1.7,2.6875,0.32322947352228487,-0.047569672035770005,0.9265603386774424,0.0014318725365887529,-0.163776,-26.449464
11.185,2.0,1.0,1.0,33.7,33.1,33.1,2.8,1.7,2.69,0.3127983632619914,-0.04853015234458097,0.9297474598466322,0.0008961321443221317,-0.167016,-26.278286
11.185,2.0,1.0,1.0,33.7,33.1,33.1,2.8,1.7,2.6925,0.30223806842584194,-0.049511554225571006,0.9328367068354239,0.00033324179879545856,-0.170362,-26.105672
11.185,2.0,1.0,1.0,33.7,33.1,33.1,2.8,1.7,2.695,0.29154726950912985,-0.050514367578461,0.9358245498549291,-0.0002581192941219701,-0.173817,-25.931588
11.185,2.0,1.0,1.0,33.7,33.1,33.1,2.8,1.7,2.6975,0.2807246514437258,-0.051539090993659435,0.9387073255629398,-0.0008793452837625364,-0.177388,-25.756001
11.185,2.0,1.0,1.0,33.7,33.1,33.1,2.8,1.7,2.7,0.2697689053911854,-0.052586231379592153,0.9414812308605007,-0.0015319084539400377,-0.18108,-25.578875
11.185,2.0,1.0,1.0,33.7,33.1,33.1,2.8,1.7,2.7025,0.25867873070345054,-0.05365630349759732,0.9441423163057837,-0.002217364367189243,-0.184897,-25.400175
11.185,2.0,1.0,1.0,33.7,33.1,33.1,2.8,1.7,2.705,0.24745283706820603,-0.05474982939053599,0.9466864791140407,-0.002937357406178969,-0.188847,-25.219862
11.185,2.0,1.0,1.0,33.7,33.1,33.1,2.8,1.7,2.7075,0.23608994685801468,-0.05586733768925783,0.9491094557093571,-0.003693626747741369,-0.192936,-25.037898
11.185,2.0,1.0,1.0,33.7,33.1,33.1,2.8,1.7,2.71,0.22458879770484463,-0.057009362778723545,0.9514068137904113,-0.004488012808527138,-0.19717,-24.854244
11.185,2.0,1.0,1.0,33.7,33.1,33.1,2.8,1.7,2.7125,0.21294814532434664,-0.05817644380290769,0.9535739438686613,-0.005322464205276753,-0.201557,-24.668857
11.185,2.0,1.0,1.0,33.7,33.1,33.1,2.8,1.7,2.715,0.20116676661747873,-0.05936912348449515,0.955606050233047,-0.006199045277112257,-0.206105,-24.481694
11.185,2.0,1.0,1.0,33.7,33.1,33.1,2.8,1.7,2.7175,0.1892434630807779,-0.06058794673178578,0.9574981412905392,-0.007119944222177096,-0.210822,-24.292711
11.185,2.0,1.0,1.0,33.7,33.1,33.1,2.8,1.7,2.72,0.17717706456083918,-0.06183345900106514,0.9592450192265433,-0.008087481906423749,-0.215717,-24.101862
11.185,2.0,1.0,1.0,33.7,33.1,33.1,2.8,1.7,2.7225,0.16496643339350098,-0.06310620437785644,0.9608412689231979,-0.009104121408462238,-0.220799,-23.909097
11.185,2.0,1.0,1.0,33.7,33.1,33.1,2.8,1.7,2.725,0.15261046897402247,-0.06440672333485664,0.9622812460669558,-0.010172478371179032,-0.226079,-23.714368
11.185,2.0,1.0,1.0,33.7,33.1,33.1,2.8,1.7,2.7275,0.14010811281107097,-0.0657355501178238,0.9635590643694313,-0.011295332238445265,-0.231567,-23.517623
11.185,2.0,1.0,1.0,33.7,33.1,33.1,2.8,1.7,2.73,0.12745835412519743,-0.06709320970306377,0.9646685818171693,-0.012475638463699437,-0.237275,-23.318807
11.185,2.0,1.0,1.0,33.7,33.1,33.1,2.8,1.7,2.7325,0.11466023606137993,-0.06848021426127889,0.9656033858566967,-0.013716541786667995,-0.243215,-23.117864
11.185,2.0,1.0,1.0,33.7,33.1,33.1,2.8,1.7,2.735,0.10171286259579805,-0.06989705905214925,0.9663567774108195,-0.015021390685059961,-0.249402,-22.914736
11.185,2.0,1.0,1.0,33.7,33.1,33.1,2.8,1.7,2.7375,0.08861540622920416,-0.07134421766185697,0.9669217536105269,-0.01639375311989196,-0.255849,-22.709363
11.185,2.0,1.0,1.0,33.7,33.1,33.1,2.8,1.7,2.74,0.07536711657375025,-0.07282213648149943,0.9672909891137729,-0.017837433706308154,-0.262571,-22.501681
11.185,2.0,1.0,1.0,33.7,33.1,33.1,2.8,1.7,2.7425,0.061967329956888986,-0.07433122830759561,0.9674568158679115,-0.019356492456512983,-0.269587,-22.291623
11.185,2.0,1.0,1.0,33.7,33.1,33.1,2.8,1.7,2.745,0.04841548018590146,-0.07587186492617673,0.9674112011562237,-0.02095526525791908,-0.276914,-22.079122
11.185,2.0,1.0,1.0,33.7,33.1,33.1,2.8,1.7,2.7475,0.03471111063993693,-0.07744436851874224,0.9671457237507464,-0.02263838626801847,-0.284571,-21.864106
11.185,2.0,1.0,1.0,33.7,33.1,33.1,2.8,1.7,2.75,0.020853887884009,-0.0790490017009458,0.966651547973294,-0.0244108124280134,-0.29258,-21.646499
11.185,2.0,1.0,1.0,33.7,33.1,33.1,2.8,1.7,2.7525,0.006843617031996563,-0.08068595597246772,0.9659193954438317,-0.026277850320130153,-0.300964,-21.426223
11.185,2.0,1.0,1.0,33.7,33.1,33.1,2.8,1.7,2.755,-0.007319740875683793,-0.08235533831812362,0.9649395142700572,-0.028245185618998758,-0.309748,-21.203198
11.185,2.0,1.0,1.0,33.7,33.1,33.1,2.8,1.7,2.7575,-0.021636049168323047,-0.08405715565468935,0.9637016454039264,-0.03031891541576801,-0.318959,-20.977337
11.185,2.0,1.0,1.0,33.7,33.1,33.1,2.8,1.7,2.76,-0.036104973149134204,-0.0857912967637195,0.9621949858596578,-0.0325055837249455,-0.328628,-20.748551
11.185,2.0,1.0,1.0,33.7,33.1,33.1,2.8,1.7,2.7625,-0.05072595457671149,-0.08755751128608265,0.9604081484532907,-0.034812220518543976,-0.338785,-20.516747
11.185,2.0,1.0,1.0,33.7,33.1,33.1,2.8,1.7,2.765,-0.06549818251549677,-0.08935538527686374,0.9583291176859277,-0.03724638467012341,-0.349467,-20.281826
11.185,2.0,1.0,1.0,33.7,33.1,33.1,2.8,1.7,2.7675,-0.08042055995446842,-0.0911843127271353,0.9559452013513303,-0.039816211232859,-0.360712,-20.043688
11.185,2.0,1.0,1.0,33.7,33.1,33.1,2.8,1.7,2.77,-0.09549166548235681,-0.09304346234867118,0.9532429774035089,-0.04253046352083042,-0.372563,-19.802223
11.185,2.0,1.0,1.0,33.7,33.1,33.1,2.8,1.7,2.7725,-0.11070970917435921,-0.0949317387851172,0.9502082355714931,-0.04539859051110557,-0.385066,-19.557321
11.185,2.0,1.0,1.0,33.7,33.1,33.1,2.8,1.7,2.775,-0.1260724816852513,-0.09684773725367621,0.9468259131572397,-0.04843079013547181,-0.398273,-19.308862
11.185,2.0,1.0,1.0,33.7,33.1,33.1,2.8,1.7,2.7775,-0.14157729535052596,-0.0987896904292249,0.9430800243991133,-0.05163807908397713,-0.41224,-19.056724
11.185,2.0,1.0,1.0,33.7,33.1,33.1,2.8,1.7,2.78,-0.1572209158640747,-0.10075540615075576,0.9389535827293147,-0.055032369796440814,-0.42703,-18.800776
11.185,2.0,1.0,1.0,33.7,33.1,33.1,2.8,1.7,2.7825,-0.1729994828187186,-0.10274219424941985,0.9344285152009216,-0.05862655537054222,-0.442711,-18.540882
11.185,2.0,1.0,1.0,33.7,33.1,33.1,2.8,1.7,2.785,-0.18890841705408337,-0.10474678045738618,0.9294855683123431,-0.06243460316277552,-0.459362,-18.2769
11.185,2.0,1.0,1.0,33.7,33.1,33.1,2.8,1.7,2.7875,-0.20494231234109947,-0.10676520494397292,0.9241042044187665,-0.06647165789647216,-0.477066,-18.008679
11.185,2.0,1.0,1.0,33.7,33.1,33.1,2.8,1.7,2.79,-0.22109480842791854,-0.10879270252373732,0.9182624878988144,-0.07075415511222159,-0.495919,-17.736063
11.185,2.0,1.0,1.0,33.7,33.1,33.1,2.8,1.7,2.7925,-0.23735844185735372,-0.11082356097033536,0.9119369602503596,-0.07529994579002465,-0.516027,-17.458885
11.185,2.0,1.0,1.0,33.7,33.1,33.1,2.8,1.7,2.795,-0.25372447021709527,-0.11285095312539799,0.905102503337012,-0.0801284329248396,-0.537509,-17.176974
11.185,2.0,1.0,1.0,33.7,33.1,33.1,2.8,1.7,2.7975,-0.270182664569673,-0.11486673758326502,0.8977321901169616,-0.08526072072702057,-0.560498,-16.890146
11.185,2.0,1.0,1.0,33.7,33.1,33.1,2.8,1.7,2.8,-0.28672106369337785,-0.11686122162346572,0.8897971223880776,-0.090719776917365,-0.585145,-16.598212
11.185,2.0,1.0,1.0,33.7,33.1,33.1,2.8,1.7,2.8025,-0.3033256824023499,-0.11882287870878576,0.8812662554186556,-0.0965306082518765,-0.611618,-16.300973
11.185,2.0,1.0,1.0,33.7,33.1,33.1,2.8,1.7,2.805,-0.3199801645504355,-0.12073801121408466,0.8721062098599344,-0.10272044888639884,-0.640111,-15.998221
11.185,2.0,1.0,1.0,33.7,33.1,33.1,2.8,1.7,2.8075,-0.33666536929472907,-0.12259034703608018,0.8622810721354119,-0.10931896039541843,-0.670839,-15.689737
11.185,2.0,1.0,1.0,33.7,33.1,33.1,2.8,1.7,2.81,-0.3533588767262224,-0.12436055628275101,0.8517521856862057,-0.11635844108011861,-0.704052,-15.375296
11.185,2.0,1.0,1.0,33.7,33.1,33.1,2.8,1.7,2.8125,-0.37003439598059307,-0.12602567126808947,0.8404779371787489,-0.12387404048148469,-0.740032,-15.054663
11.185,2.0,1.0,1.0,33.7,33.1,33.1,2.8,1.7,2.815,-0.38666105532937883,-0.12755838945100265,0.8284135442704883,-0.13190397253692587,-0.779102,-14.727595
11.185,2.0,1.0,1.0,33.7,33.1,33.1,2.8,1.7,2.8175,-0.4032025494232627,-0.12892623466137335,0.8155108550853493,-0.1404897172806586,-0.821636,-14.393841
11.185,2.0,1.0,1.0,33.7,33.1,33.1,2.8,1.7,2.82,-0.4196161137305899,-0.13009054686695376,0.801718174595799,-0.14967619596971177,-0.868064,-14.053145
11.185,2.0,1.0,1.0,33.7,33.1,33.1,2.8,1.7,2.8225,-0.43585129023150465,-0.13100526480007935,0.7869801402246815,-0.1595118974400379,-0.918883,-13.705249
11.185,2.0,1.0,1.0,33.7,33.1,33.1,2.8,1.7,2.825,-0.4518484416124072,-0.13161545900483912,0.7712376789680517,-0.1700489235657452,-0.97467,-13.349891
11.185,2.0,1.0,1.0,33.7,33.1,33.1,2.8,1.7,2.8275,-0.46753696372134707,-0.13185556544828056,0.7544280922921448,-0.1813429078241696,-1.036102,-12.986813
