1,w,sub_t,h,l1,l2,l3,g1,g2,Freq,S11_re,S21_re,S11_img,S21_img,S11_dB,S21_dB
11.185,2.0,1.0,1.0,33.8,34.7,34.7,2.1,1.7,2.5,0.800860625831748,-0.0201607765986155,0.583171497197029,0.0174608914664403,-0.081244,-31.47923
11.185,2.0,1.0,1.0,33.8,34.7,34.7,2.1,1.7,2.5025,0.7963436032265901,-0.020640014216326323,0.5891071859290843,0.017584046469216564,-0.082379,-31.335893
11.185,2.0,1.0,1.0,33.8,34.7,34.7,2.1,1.7,2.505,0.7917546381036304,-0.021131137337719777,0.5950396812506936,0.017706221615151556,-0.083542,-31.191663
11.185,2.0,1.0,1.0,33.8,34.7,34.7,2.1,1.7,2.5075,0.7870927354127808,-0.02163451298328653,0.6009685400439325,0.017827306114774052,-0.084735,-31.046521
11.185,2.0,1.0,1.0,33.8,34.7,34.7,2.1,1.7,2.51,0.7823568759534821,-0.022150522618438535,0.6068933021377227,0.017947182211809614,-0.085959,-30.900446
11.185,2.0,1.0,1.0,33.8,34.7,34.7,2.1,1.7,2.5125,0.7775460155315548,-0.022679562848773666,0.6128134895313534,0.018065724725488057,-0.087216,-30.753419
11.185,2.0,1.0,1.0,33.8,34.7,34.7,2.1,1.7,2.515,0.7726590840748143,-0.023222046154917714,0.6187286055742482,0.018182800559340417,-0.088505,-30.605418
11.185,2.0,1.0,1.0,33.8,34.7,34.7,2.1,1.7,2.5175,0.7676949847048917,-0.0237784016695372,0.6246381340988493,0.018298268173723594,-0.08983,-30.456422
11.185,2.0,1.0,1.0,33.8,34.7,34.7,2.1,1.7,2.52,0.7626525927624672,-0.02434907599930734,0.6305415385032588,0.018411977019055868,-0.09119,-30.306408
11.185,2.0,1.0,1.0,33.8,34.7,34.7,2.1,1.7,2.5225,0.7575307547829733,-0.02493453409482218,0.6364382607799319,0.018523766926466168,-0.092588,-30.155353
11.185,2.0,1.0,1.0,33.8,34.7,34.7,2.1,1.7,2.525,0.7523282874195506,-0.025535260171662917,0.6423277204864476,0.018633467452248663,-0.094024,-30.003234
11.185,2.0,1.0,1.0,33.8,34.7,34.7,2.1,1.7,2.5275,0.7470439763098315,-0.02615175868607512,0.6482093136539842,0.01874089717217144,-0.095501,-29.850027
11.185,2.0,1.0,1.0,33.8,34.7,34.7,2.1,1.7,2.53,0.7416765748828682,-0.02678455536897032,0.654082411628749,0.01884586292131003,-0.09702,-29.695707
11.185,2.0,1.0,1.0,33.8,34.7,34.7,2.1,1.7,2.5325,0.7362248031022217,-0.027434198322247194,0.6599463598411698,0.018948158974655363,-0.098583,-29.540249
11.185,2.0,1.0,1.0,33.8,34.7,34.7,2.1,1.7,2.535,0.7306873461409397,-0.02810125918173495,0.665800476497183,0.019047566163281904,-0.100191,-29.383626
11.185,2.0,1.0,1.0,33.8,34.7,34.7,2.1,1.7,2.5375,0.7250628529838244,-0.028786334351389758,0.6716440511854018,0.019143850920346442,-0.101846,-29.225812
11.185,2.0,1.0,1.0,33.8,34.7,34.7,2.1,1.7,2.54,0.7193499349520225,-0.02949004631373498,0.6774763433933797,0.019236764250614727,-0.103551,-29.066778
11.185,2.0,1.0,1.0,33.8,34.7,34.7,2.1,1.7,2.5425,0.713547164144587,-0.03021304502192377,0.683296580925512,0.01932604061657962,-0.105307,-28.906496
11.185,2.0,1.0,1.0,33.8,34.7,34.7,2.1,1.7,2.545,0.7076530717912518,-0.030956009379221744,0.6891039582143982,0.019411396733524003,-0.107117,-28.744937
11.185,2.0,1.0,1.0,33.8,34.7,34.7,2.1,1.7,2.5475,0.701666146510193,-0.03171964881216165,0.6948976345166686,0.019492530265099325,-0.108982,-28.58207
11.185,2.0,1.0,1.0,33.8,34.7,34.7,2.1,1.7,2.55,0.6955848324640522,-0.032504704944122116,0.7006767319834041,0.019569118410107368,-0.110907,-28.417864
11.185,2.0,1.0,1.0,33.8,34.7,34.7,2.1,1.7,2.5525,0.6894075274069958,-0.03331195337660617,0.7064403335942355,0.019640816370199148,-0.112892,-28.252287
11.185,2.0,1.0,1.0,33.8,34.7,34.7,2.1,1.7,2.555,0.6831325806149557,-0.034142205586085675,0.7121874809431267,0.019707255687108252,-0.11494,-28.085305
11.185,2.0,1.0,1.0,33.8,34.7,34.7,2.1,1.7,2.5575,0.676758290690603,-0.03499631094490044,0.7179171718625778,0.019768042436812214,-0.117056,-27.916884
11.185,2.0,1.0,1.0,33.8,34.7,34.7,2.1,1.7,2.56,0.6702829032339195,-0.035875158875380286,0.7236283578715835,0.01982275526664986,-0.119241,-27.746988
11.185,2.0,1.0,1.0,33.8,34.7,34.7,2.1,1.7,2.5625,0.6637046083684813,-0.03677968114709891,0.7293199414311321,0.01987094325988288,-0.1215,-27.575581
11.185,2.0,1.0,1.0,33.8,34.7,34.7,2.1,1.7,2.565,0.65702153811277,-0.03771085432796452,0.7349907729892651,0.01991212361047126,-0.123835,-27.402625
11.185,2.0,1.0,1.0,33.8,34.7,34.7,2.1,1.7,2.5675,0.6502317635849799,-0.03866970240071307,0.74063964779574,0.019945779088895017,-0.12625,-27.228081
11.185,2.0,1.0,1.0,33.8,34.7,34.7,2.1,1.7,2.57,0.6433332920288202,-0.03965729955730884,0.7462653024641559,0.01997135527767656,-0.128749,-27.051908
11.185,2.0,1.0,1.0,33.8,34.7,34.7,2.1,1.7,2.5725,0.6363240636468177,-0.04067477318475982,0.7518664112568793,0.01998825755280734,-0.131336,-26.874064
11.185,2.0,1.0,1.0,33.8,34.7,34.7,2.1,1.7,2.575,0.6292019482265253,-0.04172330705694793,0.7574415820653116,0.019995847784514784,-0.134016,-26.694506
11.185,2.0,1.0,1.0,33.8,34.7,34.7,2.1,1.7,2.5775,0.621964741543854,-0.04280414474824506,0.7629893520548839,0.019993440727681232,-0.136794,-26.513189
11.185,2.0,1.0,1.0,33.8,34.7,34.7,2.1,1.7,2.58,0.6146101615264841,-0.04391859328594617,0.7685081829405633,0.019980300068695795,-0.139674,-26.330067
11.185,2.0,1.0,1.0,33.8,34.7,34.7,2.1,1.7,2.5825,0.6071358441589235,-0.04506802705991159,0.7739964558546271,0.019955634091516013,-0.142662,-26.145091
11.185,2.0,1.0,1.0,33.8,34.7,34.7,2.1,1.7,2.585,0.5995393391093364,-0.046253892009254206,0.7794524657638544,0.019918590921183987,-0.145764,-25.958212
11.185,2.0,1.0,1.0,33.8,34.7,34.7,2.1,1.7,2.5875,0.5918181050566705,-0.04747771010746478,0.784874415388091,0.019868253297887387,-0.148986,-25.769376
11.185,2.0,1.0,1.0,33.8,34.7,34.7,2.1,1.7,2.59,0.5839695046949697,-0.04874108416901035,0.7902604085661966,0.019803632828800415,-0.152334,-25.578532
11.185,2.0,1.0,1.0,33.8,34.7,34.7,2.1,1.7,2.5925,0.5759907993899499,-0.05004570300219533,0.7956084430086929,0.01972366365826683,-0.155815,-25.385622
11.185,2.0,1.0,1.0,33.8,34.7,34.7,2.1,1.7,2.595,0.5678791434610828,-0.051393346934905694,0.8009164023686818,0.01962719548928154,-0.159438,-25.190589
11.185,2.0,1.0,1.0,33.8,34.7,34.7,2.1,1.7,2.5975,0.5596315780604318,-0.05278589374178598,0.8061820475539065,0.019512985880537227,-0.16321,-24.993372
11.185,2.0,1.0,1.0,33.8,34.7,34.7,2.1,1.7,2.6,0.5512450246174809,-0.05422532500339092,0.8114030071927368,0.019379691733360595,-0.167139,-24.793909
11.185,2.0,1.0,1.0,33.8,34.7,34.7,2.1,1.7,2.6025,0.542716277817092,-0.05571373292988855,0.816576767155411,0.019225859871474422,-0.171236,-24.592135
11.185,2.0,1.0,1.0,33.8,34.7,34.7,2.1,1.7,2.605,0.5340419980756038,-0.057253327683957085,0.8217006590186761,0.01904991660345466,-0.175511,-24.387981
11.185,2.0,1.0,1.0,33.8,34.7,34.7,2.1,1.7,2.6075,0.525218703478002,-0.0588464452395402,0.826771847346819,0.018850156142726573,-0.179974,-24.181376
11.185,2.0,1.0,1.0,33.8,34.7,34.7,2.1,1.7,2.61,0.5162427611370543,-0.060495555815071995,0.8317873156446904,0.01862472774265569,-0.184637,-23.972248
11.185,2.0,1.0,1.0,33.8,34.7,34.7,2.1,1.7,2.6125,0.5071103779334498,-0.062203272921553414,0.8367438508181668,0.018371621384346493,-0.189514,-23.760519
11.185,2.0,1.0,1.0,33.8,34.7,34.7,2.1,1.7,2.615,0.4978175905943621,-0.06397236306735689,0.8416380259543885,0.018088651831732402,-0.194617,-23.546109
11.185,2.0,1.0,1.0,33.8,34.7,34.7,2.1,1.7,2.6175,0.488360255066698,-0.0658057561626989,0.8464661812071835,0.01777344084189676,-0.199963,-23.328934
11.185,2.0,1.0,1.0,33.8,34.7,34.7,2.1,1.7,2.62,0.47873403514066426,-0.06770655666717755,0.8512244025420638,0.01742339728768455,-0.205567,-23.108908
11.185,2.0,1.0,1.0,33.8,34.7,34.7,2.1,1.7,2.6225,0.46893439027954903,-0.06967805552334275,0.8559084980590561,0.017035694913821498,-0.211447,-22.885938
11.185,2.0,1.0,1.0,33.8,34.7,34.7,2.1,1.7,2.625,0.458956562613085,-0.071723742917638,0.860513971569665,0.0166072474060786,-0.217622,-22.65993
11.185,2.0,1.0,1.0,33.8,34.7,34.7,2.1,1.7,2.6275,0.44879556305474405,-0.07384732190679266,0.8650359930554219,0.016134680404468187,-0.224114,-22.430784
11.185,2.0,1.0,1.0,33.8,34.7,34.7,2.1,1.7,2.63,0.43844615650859226,-0.0760527229422568,0.8694693655784196,0.015614300034816982,-0.230945,-22.198395
11.185,2.0,1.0,1.0,33.8,34.7,34.7,2.1,1.7,2.6325,0.4279028461394293,-0.07834411931684708,0.8738084881476079,0.0150420574668621,-0.238142,-21.962654
11.185,2.0,1.0,1.0,33.8,34.7,34.7,2.1,1.7,2.635,0.41715985669195715,-0.08072594354543107,0.8780473139666369,0.014413508929513815,-0.24573,-21.723447
11.185,2.0,1.0,1.0,33.8,34.7,34.7,2.1,1.7,2.6375,0.4062111168618405,-0.08320290467395848,0.8821793033975164,0.013723770523065861,-0.253742,-21.480653
11.185,2.0,1.0,1.0,33.8,34.7,34.7,2.1,1.7,2.64,0.39505024074538175,-0.08578000648682675,0.8861973708669892,0.012967467061410389,-0.26221,-21.234147
11.185,2.0,1.0,1.0,33.8,34.7,34.7,2.1,1.7,2.6425,0.3836705084273131,-0.08846256654928872,0.89009382481611,0.012138674051799326,-0.27117,-20.983797
11.185,2.0,1.0,1.0,33.8,34.7,34.7,2.1,1.7,2.645,0.3720648458106089,-0.09125623597660742,0.8938602996446983,0.011230851771846686,-0.280665,-20.729464
11.185,2.0,1.0,1.0,33.8,34.7,34.7,2.1,1.7,2.6475,0.3602258038519246,-0.09416701976128619,0.8974876784267415,0.010236770229088801,-0.290738,-20.471001
11.185,2.0,1.0,1.0,33.8,34.7,34.7,2.1,1.7,2.65,0.34814553744597565,-0.09720129740920105,0.9009660049654923,0.009148423582513011,-0.301439,-20.208257
11.185,2.0,1.0,1.0,33.8,34.7,34.7,2.1,1.7,2.6525,0.33581578430824,-0.10036584352858866,0.904284383511834,0.0079569323620722,-0.312825,-19.94107
11.185,2.0,1.0,1.0,33.8,34.7,34.7,2.1,1.7,2.655,0.32322784434564134,-0.1036678478744794,0.9074308641794755,0.00665243153426658,-0.324955,-19.669271
11.185,2.0,1.0,1.0,33.8,34.7,34.7,2.1,1.7,2.6575,0.3103725601905386,-0.10711493416450779,0.9103923117471286,0.0052239421210884375,-0.337901,-19.392682
11.185,2.0,1.0,1.0,33.8,34.7,34.7,2.1,1.7,2.66,0.29724029981805955,-0.11071517673602516,0.9131542551312949,0.00365922367620401,-0.351737,-19.111115
11.185,2.0,1.0,1.0,33.8,34.7,34.7,2.1,1.7,2.6625,0.28382094248957984,-0.11447711379041273,0.915700714331955,0.0019446044448478018,-0.366551,-18.824374
11.185,2.0,1.0,1.0,33.8,34.7,34.7,2.1,1.7,2.665,0.27010386969029593,-0.1184097555438839,0.9180140010842642,6.478546944276313e-05,-0.38244,-18.532249
11.185,2.0,1.0,1.0,33.8,34.7,34.7,2.1,1.7,2.6675,0.2560779632892395,-0.12252258504225348,0.9200744887771812,-0.0019973857632814224,-0.399514,-18.234523
11.185,2.0,1.0,1.0,33.8,34.7,34.7,2.1,1.7,2.67,0.2417316138887347,-0.1268255486570218,0.9218603464083095,-0.004261177322213954,-0.417895,-17.930965
11.185,2.0,1.0,1.0,33.8,34.7,34.7,2.1,1.7,2.6725,0.22705274330487232,-0.13132903230425594,0.9233472304155402,-0.0067482765869231074,-0.437725,-17.621333
11.185,2.0,1.0,1.0,33.8,34.7,34.7,2.1,1.7,2.675,0.21202884640749528,-0.13604381813985061,0.9245079271429192,-0.009483142937716791,-0.459162,-17.305372
11.185,2.0,1.0,1.0,33.8,34.7,34.7,2.1,1.7,2.6775,0.196647059249345,-0.1409810147832101,0.9253119374451481,-0.012493417799257627,-0.48239,-16.982815
11.185,2.0,1.0,1.0,33.8,34.7,34.7,2.1,1.7,2.68,0.18089426266537484,-0.14615195187067437,0.9257249935030634,-0.015810401870477674,-0.507615,-16.65338
11.185,2.0,1.0,1.0,33.8,34.7,34.7,2.1,1.7,2.6825,0.16475723350613006,-0.15156802675951586,0.925708496313892,-0.019469610959556894,-0.535079,-16.316772
11.185,2.0,1.0,1.0,33.8,34.7,34.7,2.1,1.7,2.685,0.1482228596250833,-0.15724048725237966,0.9252188605602377,-0.0235114235742277,-0.565055,-15.972683
11.185,2.0,1.0,1.0,33.8,34.7,34.7,2.1,1.7,2.6875,0.13127843999062325,-0.16318012897044837,0.9242067517150474,-0.027981835228885015,-0.597864,-15.620793
11.185,2.0,1.0,1.0,33.8,34.7,34.7,2.1,1.7,2.69,0.11391209826569913,-0.1693968790469339,0.922616198436146,-0.032933336188872654,-0.633874,-15.260767
11.185,2.0,1.0,1.0,33.8,34.7,34.7,2.1,1.7,2.6925,0.09611334745484651,-0.17589922858092422,0.9203835617823265,-0.03842593083808141,-0.673519,-14.89226
11.185,2.0,1.0,1.0,33.8,34.7,34.7,2.1,1.7,2.695,0.07787385549655772,-0.18269346405298326,0.917436341957515,-0.044528317611762305,-0.717303,-14.514918
11.185,2.0,1.0,1.0,33.8,34.7,34.7,2.1,1.7,2.6975,0.05918847793049097,-0.18978263171316417,0.9136918038549118,-0.051319247785124845,-0.765819,-14.12838
11.185,2.0,1.0,1.0,33.8,34.7,34.7,2.1,1.7,2.7,0.04005664520071634,-0.19716514761289106,0.9090554057666331,-0.058889078209755356,-0.819769,-13.732284
11.185,2.0,1.0,1.0,33.8,34.7,34.7,2.1,1.7,2.7025,0.02048422024944742,-0.20483293799741892,0.9034190230757195,-0.0673415255131578,-0.879983,-13.326272
11.185,2.0,1.0,1.0,33.8,34.7,34.7,2.1,1.7,2.705,0.00048597854034429744,-0.21276895849719693,0.8966589734565246,-0.0767956144224291,-0.947453,-12.909999
11.185,2.0,1.0,1.0,33.8,34.7,34.7,2.1,1.7,2.7075,-0.0199110906392942,-0.22094389414992255,0.8886338766097085,-0.08738778621319183,-1.023363,-12.483143
11.185,2.0,1.0,1.0,33.8,34.7,34.7,2.1,1.7,2.71,-0.0406634042466062,-0.22931178422741513,0.8791824268368585,-0.09927408784727342,-1.10914,-12.045424
11.185,2.0,1.0,1.0,33.8,34.7,34.7,2.1,1.7,2.7125,-0.061704998812442936,-0.23780424572460906,0.8681212314038489,-0.11263228759260308,-1.206506,-11.596624
11.185,2.0,1.0,1.0,33.8,34.7,34.7,2.1,1.7,2.715,-0.0829399282141005,-0.24632288957442286,0.8552429873462485,-0.12766364318541745,-1.317556,-11.136617
11.185,2.0,1.0,1.0,33.8,34.7,34.7,2.1,1.7,2.7175,-0.10423235467085173,-0.2547294425312886,0.8403154566930481,-0.14459386145638328,-1.444842,-10.665407
11.185,2.0,1.0,1.0,33.8,34.7,34.7,2.1,1.7,2.72,-0.12539377758333342,-0.26283302525790836,0.8230819859705175,-0.16367250305998526,-1.591492,-10.183178
11.185,2.0,1.0,1.0,33.8,34.7,34.7,2.1,1.7,2.7225,-0.14616684037542285,-0.2703740349843356,0.8032647395565787,-0.18516966360585987,-1.761354,-9.690365
11.185,2.0,1.0,1.0,33.8,34.7,34.7,2.1,1.7,2.725,-0.1662052894912225,-0.2770042179298761,0.7805724207514059,-0.20936816088334062,-1.959168,-9.187738
11.185,2.0,1.0,1.0,33.8,34.7,34.7,2.1,1.7,2.7275,-0.18505007128696524,-0.28226293135752956,0.7547150694708029,-0.23654864767879513,-2.190793,-8.676518
11.185,2.0,1.0,1.0,33.8,34.7,34.7,2.1,1.7,2.73,-0.2021024694492248,-0.2855505145708259,0.7254295292504385,-0.26696407407800377,-2.463454,-8.158513
11.185,2.0,1.0,1.0,33.8,34.7,34.7,2.1,1.7,2.7325,-0.21659694475764085,-0.2861014474997526,0.6925202121832081,-0.3007989000749253,-2.786029,-7.63629
11.185,2.0,1.0,1.0,33.8,34.7,34.7,2.1,1.7,2.735,-0.2275793625100368,-0.2829629931345751,0.6559204189010175,-0.3381078493930825,-3.169314,-7.113373
11.185,2.0,1.0,1.0,33.8,34.7,34.7,2.1,1.7,2.7375,-0.23390093402748005,-0.2749896430259857,0.6157787485767223,-0.3787297410808841,-3.626172,-6.594458
11.185,2.0,1.0,1.0,33.8,34.7,34.7,2.1,1.7,2.74,-0.23424431057154627,-0.26086975773111565,0.5725713940933121,-0.4221756982176133,-4.17132,-6.085614
11.185,2.0,1.0,1.0,33.8,34.7,34.7,2.1,1.7,2.7425,-0.22720432947851887,-0.23920678626839634,0.5272320258158681,-0.46750013213127134,-4.820188,-5.594431
11.185,2.0,1.0,1.0,33.8,34.7,34.7,2.1,1.7,2.745,-0.21144776914975844,-0.2086792058322359,0.4812744860971628,-0.51317934438207,-5.585636,-5.13003
11.185,2.0,1.0,1.0,33.8,34.7,34.7,2.1,1.7,2.7475,-0.1859665656910798,-0.1682933151609488,0.43686064938141983,-0.5570453327576611,-6.469868,-4.702846
11.185,2.0,1.0,1.0,33.8,34.7,34.7,2.1,1.7,2.75,-0.150408431735663,-0.117712468452034,0.396745195421243,-0.596342756529289,-7.446565,-4.32408
11.185,2.0,1.0,1.0,33.8,34.7,34.7,2.1,1.7,2.7525,-0.10541574408215149,-0.05759342032376299,0.3640302191151005,-0.6279755259869416,-8.427534,-4.004769
11.185,2.0,1.0,1.0,33.8,34.7,34.7,2.1,1.7,2.755,-0.05284624567879759,0.010196420852757024,0.3417094984452978,-0.6489623670094505,-9.22421,-3.754538
11.185,2.0,1.0,1.0,33.8,34.7,34.7,2.1,1.7,2.7575,0.004268318528706249,0.08262380540472232,0.3320797893827921,-0.6570233334642682,-9.574434,-3.580241
11.185,2.0,1.0,1.0,33.8,34.7,34.7,2.1,1.7,2.76,0.06210134045521433,0.15587084934991527,0.3362025429029218,-0.6511139494138684,-9.322274,-3.484845
11.185,2.0,1.0,1.0,33.8,34.7,34.7,2.1,1.7,2.7625,0.1166762993214433,0.22597951470333968,0.3536321997164336,-0.631691947431764,-8.580203,-3.466896
11.185,2.0,1.0,1.0,33.8,34.7,34.7,2.1,1.7,2.765,0.1645638573834071,0.28954557831089794,0.38253302212553103,-0.6005964085387662,-7.609189,-3.520768
11.185,2.0,1.0,1.0,33.8,34.7,34.7,2.1,1.7,2.7675,0.20338797069258985,0.3442200982389746,0.4201301978767869,-0.560594985704717,-6.617905,-3.637587
11.185,2.0,1.0,1.0,33.8,34.7,34.7,2.1,1.7,2.77,0.23200437433111099,0.38888346630116466,0.46330231517270615,-0.5147923739127594,-5.71096,-3.806546
11.185,2.0,1.0,1.0,33.8,34.7,34.7,2.1,1.7,2.7725,0.2503734345797531,0.42351535823605324,0.5091056939609384,-0.4661086768762709,-4.923121,-4.016226
11.185,2.0,1.0,1.0,33.8,34.7,34.7,2.1,1.7,2.775,0.2592546326433807,0.4488882191174522,0.5551074195944442,-0.4169495381052503,-4.255552,-4.255664
11.185,2.0,1.0,1.0,33.8,34.7,34.7,2.1,1.7,2.7775,0.2598632570013117,0.4662244466938921,0.5995124788563321,-0.36908164209299993,-3.69629,-4.515043
11.185,2.0,1.0,1.0,33.8,34.7,34.7,2.1,1.7,2.78,0.25358271590710385,0.47690997343845976,0.6411390064115627,-0.32365915485483976,-3.229742,-4.786025
11.185,2.0,1.0,1.0,33.8,34.7,34.7,2.1,1.7,2.7825,0.24176778773068897,0.4822989551119898,0.6793128206729497,-0.2813299619482861,-2.840655,-5.061812
11.185,2.0,1.0,1.0,33.8,34.7,34.7,2.1,1.7,2.785,0.22563415715729418,0.4836045557605684,0.7137379680079993,-0.2423652374594531,-2.515541,-5.337045
11.185,2.0,1.0,1.0,33.8,34.7,34.7,2.1,1.7,2.7875,0.20621232543966553,0.48185378434566173,0.7443766760324572,-0.20677922012398817,-2.243021,-5.607609
11.185,2.0,1.0,1.0,33.8,34.7,34.7,2.1,1.7,2.79,0.1843420753671601,0.4778825676650563,0.7713527939737375,-0.17442533064935029,-2.01372,-5.870425
11.185,2.0,1.0,1.0,33.8,34.7,34.7,2.1,1.7,2.7925,0.160688602852119,0.47235223402995236,0.7948809501916977,-0.14506653098056266,-1.820008,-6.123238
11.185,2.0,1.0,1.0,33.8,34.7,34.7,2.1,1.7,2.795,0.13576772269733928,0.46577488864891065,0.8152180573505909,-0.11842336102667403,-1.655708,-6.364438
11.185,2.0,1.0,1.0,33.8,34.7,34.7,2.1,1.7,2.7975,0.10997280118837546,0.4585403960063859,0.83263207098395,-0.09420477140340713,-1.515829,-6.592906
11.185,2.0,1.0,1.0,33.8,34.7,34.7,2.1,1.7,2.8,0.08359968751975923,0.4509412871997351,0.8473831056486606,-0.07212664940601995,-1.396338,-6.807892
11.185,2.0,1.0,1.0,33.8,34.7,34.7,2.1,1.7,2.8025,0.05686812369666949,0.4431941023631721,0.8597129303671678,-0.051922007326513815,-1.29397,-7.008919
11.185,2.0,1.0,1.0,33.8,34.7,34.7,2.1,1.7,2.805,0.029939323573427438,0.43545687735910266,0.8698398911562207,-0.033345772447584625,-1.206072,-7.195704
11.185,2.0,1.0,1.0,33.8,34.7,34.7,2.1,1.7,2.8075,0.0029299990697632485,0.4278430628580881,0.8779571936740239,-0.016176232504484033,-1.130485,-7.368106
11.185,2.0,1.0,1.0,33.8,34.7,34.7,2.1,1.7,2.81,-0.024076657279275094,0.42043238938836924,0.8842331582494615,-0.00021451220066450875,-1.065445,-7.526076
11.185,2.0,1.0,1.0,33.8,34.7,34.7,2.1,1.7,2.8125,-0.05102247946195,0.413279233037839,0.888812546669391,0.0147170294433936,-1.009508,-7.669625
11.185,2.0,1.0,1.0,33.8,34.7,34.7,2.1,1.7,2.815,-0.07786781285703678,0.40641899197788733,0.8918183942352849,0.028776924163250773,-0.961488,-7.798801
11.185,2.0,1.0,1.0,33.8,34.7,34.7,2.1,1.7,2.8175,-0.10458653953429883,0.39987290751165255,0.8933540024632791,0.04210690635357876,-0.920409,-7.91367
11.185,2.0,1.0,1.0,33.8,34.7,34.7,2.1,1.7,2.82,-0.13116228668418933,0.39365168187092925,0.8935048912414448,0.05483421937611858,-0.88547,-8.014297
11.185,2.0,1.0,1.0,33.8,34.7,34.7,2.1,1.7,2.8225,-0.15758553387115304,0.3877581705439492,0.8923405997015885,0.06707381444454479,-0.856013,-8.100739
11.185,2.0,1.0,1.0,33.8,34.7,34.7,2.1,1.7,2.825,-0.18385139637618195,0.38218936373685075,0.8899162805407762,0.07893039629220745,-0.831502,-8.173038
11.185,2.0,1.0,1.0,33.8,34.7,34.7,2.1,1.7,2.8275,-0.20995791145124004,0.3769378200633462,0.8862740653654955,0.09050030360518135,-0.811501,-8.231207
11.185,2.0,1.0,1.0,33.8,34.7,34.7,2.1,1.7,2.83,-0.2359046929274213,0.3719926744657454,0.8814441970432962,0.10187323192704346,-0.795663,-8.275234
11.185,2.0,1.0,1.0,33.8,34.7,34.7,2.1,1.7,2.8325,-0.2616918489189766,0.36734030987661576,0.8754459344039566,0.11313381778634443,-0.783717,-8.305073
