1,w,sub_t,h,l1,l2,l3,g1,g2,Freq,S11_re,S21_re,S11_img,S21_img,S11_dB,S21_dB
11.185,2.0,1.0,1.0,34.5,34.0,34.0,2.0,3.5,2.5,0.689143563862109,-0.0164438423249514,0.71167238429398,0.00780767381012948,-0.081555,-34.797003
11.185,2.0,1.0,1.0,34.5,34.0,34.0,2.0,3.5,2.5025,0.682968264045866,-0.01675047584810171,0.717450168819124,0.0077655457260635335,-0.082511,-34.673958
11.185,2.0,1.0,1.0,34.5,34.0,34.0,2.0,3.5,2.505,0.6767073393516442,-0.01706228905919855,0.7232063246827339,0.007719597857913609,-0.083486,-34.55047
11.185,2.0,1.0,1.0,34.5,34.0,34.0,2.0,3.5,2.5075,0.6703598997115663,-0.017379367939530554,0.7289399094761697,0.007669688741302525,-0.08448,-34.426534
11.185,2.0,1.0,1.0,34.5,34.0,34.0,2.0,3.5,2.51,0.6639250462372307,-0.017701799632340975,0.7346499530026713,0.00761567180492573,-0.085493,-34.30214
11.185,2.0,1.0,1.0,34.5,34.0,34.0,2.0,3.5,2.5125,0.6574018713297568,-0.018029672430766214,0.7403354564473548,0.007557395174391651,-0.086526,-34.177283
11.185,2.0,1.0,1.0,34.5,34.0,34.0,2.0,3.5,2.515,0.6507894588042271,-0.01836307576314822,0.7459953915226561,0.007494701467989625,-0.08758,-34.051953
11.185,2.0,1.0,1.0,34.5,34.0,34.0,2.0,3.5,2.5175,0.6440868840294064,-0.018702100175507937,0.7516286995884963,0.007427427584027859,-0.088654,-33.926144
11.185,2.0,1.0,1.0,34.5,34.0,34.0,2.0,3.5,2.52,0.6372932140836132,-0.01904683731095384,0.7572342907464614,0.007355404479368369,-0.08975,-33.799848
11.185,2.0,1.0,1.0,34.5,34.0,34.0,2.0,3.5,2.5225,0.6304075079277351,-0.01939737988578136,0.7628110429072378,0.007278456938765505,-0.090868,-33.673056
11.185,2.0,1.0,1.0,34.5,34.0,34.0,2.0,3.5,2.525,0.6234288165963627,-0.019753821662003717,0.7683578008305528,0.007196403334597716,-0.092008,-33.545761
11.185,2.0,1.0,1.0,34.5,34.0,34.0,2.0,3.5,2.5275,0.6163561834080975,-0.020116257416034886,0.7738733751368387,0.007109055376561396,-0.093172,-33.417954
11.185,2.0,1.0,1.0,34.5,34.0,34.0,2.0,3.5,2.53,0.6091886441961639,-0.02048478290322567,0.7793565412898164,0.007016217850875362,-0.094359,-33.289627
11.185,2.0,1.0,1.0,34.5,34.0,34.0,2.0,3.5,2.5325,0.6019252275604802,-0.020859494817932856,0.7848060385491746,0.00691768834852088,-0.09557,-33.160772
11.185,2.0,1.0,1.0,34.5,34.0,34.0,2.0,3.5,2.535,0.5945649551424087,-0.021240490748778536,0.790220568892521,0.006813256982021158,-0.096807,-33.03138
11.185,2.0,1.0,1.0,34.5,34.0,34.0,2.0,3.5,2.5375,0.5871068419235019,-0.021627869128731516,0.7955987959057232,0.0067027060902384505,-0.098069,-32.901443
11.185,2.0,1.0,1.0,34.5,34.0,34.0,2.0,3.5,2.54,0.579549896549588,-0.02202172917961738,0.8009393436407739,0.006585809930640396,-0.099357,-32.770952
11.185,2.0,1.0,1.0,34.5,34.0,34.0,2.0,3.5,2.5425,0.5718931216816232,-0.022422170850634845,0.8062407954402699,0.006462334358462408,-0.100672,-32.639897
11.185,2.0,1.0,1.0,34.5,34.0,34.0,2.0,3.5,2.545,0.5641355143748329,-0.022829294750425694,0.811501692727589,0.006332036492160783,-0.102015,-32.508271
11.185,2.0,1.0,1.0,34.5,34.0,34.0,2.0,3.5,2.5475,0.5562760664877158,-0.023243202072213063,0.8167205337618036,0.006194664364524975,-0.103387,-32.376063
11.185,2.0,1.0,1.0,34.5,34.0,34.0,2.0,3.5,2.55,0.5483137651225718,-0.02366399451148862,0.8218957723563913,0.006049956558781471,-0.104787,-32.243265
11.185,2.0,1.0,1.0,34.5,34.0,34.0,2.0,3.5,2.5525,0.5402475930993251,-0.02409177417568929,0.8270258165607144,0.005897641828991441,-0.106218,-32.109867
11.185,2.0,1.0,1.0,34.5,34.0,34.0,2.0,3.5,2.555,0.53207652946447,-0.02452664348526666,0.8321090273032874,0.005737438704006142,-0.107679,-31.975859
11.185,2.0,1.0,1.0,34.5,34.0,34.0,2.0,3.5,2.5575,0.5237995500370841,-0.024968705065506545,0.8371437169957897,0.005569055074207788,-0.109172,-31.841231
11.185,2.0,1.0,1.0,34.5,34.0,34.0,2.0,3.5,2.56,0.5154156279939619,-0.025418061628409726,0.8421281480967525,0.005392187760224217,-0.110697,-31.705974
11.185,2.0,1.0,1.0,34.5,34.0,34.0,2.0,3.5,2.5625,0.5069237344960041,-0.025874815843894866,0.8470605316338446,0.0052065220627619205,-0.112256,-31.570078
11.185,2.0,1.0,1.0,34.5,34.0,34.0,2.0,3.5,2.565,0.49832283935813204,-0.026339070199530464,0.8519390256836625,0.0050117312926596,-0.11385,-31.433532
11.185,2.0,1.0,1.0,34.5,34.0,34.0,2.0,3.5,2.5675,0.4896119117651113,-0.02681092684794257,0.8567617338078651,0.004807476280215804,-0.115478,-31.296326
11.185,2.0,1.0,1.0,34.5,34.0,34.0,2.0,3.5,2.57,0.4807899210357818,-0.027290487440984435,0.86152670344453,0.0045934048627965345,-0.117144,-31.158449
11.185,2.0,1.0,1.0,34.5,34.0,34.0,2.0,3.5,2.5725,0.47185583743833787,-0.02777785294968395,0.8662319242535225,0.0043691513496727195,-0.118846,-31.01989
11.185,2.0,1.0,1.0,34.5,34.0,34.0,2.0,3.5,2.575,0.4628086330594315,-0.02827312346891258,0.8708753264146883,0.004134335962986182,-0.120587,-30.880639
11.185,2.0,1.0,1.0,34.5,34.0,34.0,2.0,3.5,2.5775,0.45364728273003047,-0.028776398005639633,0.8754547788776336,0.003888564253679629,-0.122368,-30.740684
11.185,2.0,1.0,1.0,34.5,34.0,34.0,2.0,3.5,2.58,0.4443707650111085,-0.029287774249550518,0.8799680875618177,0.003631426491167275,-0.12419,-30.600013
11.185,2.0,1.0,1.0,34.5,34.0,34.0,2.0,3.5,2.5825,0.43497806324240723,-0.02980734832471492,0.8844129935056986,0.0033624970254529734,-0.126054,-30.458615
11.185,2.0,1.0,1.0,34.5,34.0,34.0,2.0,3.5,2.585,0.4254681666576991,-0.030335214520890653,0.8887871709635918,0.0030813336203356946,-0.127961,-30.316479
11.185,2.0,1.0,1.0,34.5,34.0,34.0,2.0,3.5,2.5875,0.41584007157013747,-0.030871465002941738,0.8930882254489143,0.002787476756266421,-0.129912,-30.173592
11.185,2.0,1.0,1.0,34.5,34.0,34.0,2.0,3.5,2.59,0.40609278263151805,-0.0314161894967303,0.8973136917224342,0.002480448901341011,-0.13191,-30.029941
11.185,2.0,1.0,1.0,34.5,34.0,34.0,2.0,3.5,2.5925,0.3962253141694199,-0.031969474949717434,0.9014610317241294,0.0021597537488307335,-0.133955,-29.885514
11.185,2.0,1.0,1.0,34.5,34.0,34.0,2.0,3.5,2.595,0.3862366916064938,-0.03253140516436801,0.9055276324472085,0.0018248754195634112,-0.136049,-29.740299
11.185,2.0,1.0,1.0,34.5,34.0,34.0,2.0,3.5,2.5975,0.37612595296631113,-0.033102060402308627,0.9095108037528494,0.0014752776273729627,-0.138194,-29.594282
11.185,2.0,1.0,1.0,34.5,34.0,34.0,2.0,3.5,2.6,0.3658921504704977,-0.03368151695702323,0.9134077761241416,0.0011104028057346376,-0.14039,-29.447449
11.185,2.0,1.0,1.0,34.5,34.0,34.0,2.0,3.5,2.6025,0.35553435223212515,-0.03426984669269692,0.9172156983576955,0.0007296711935991294,-0.142641,-29.299788
11.185,2.0,1.0,1.0,34.5,34.0,34.0,2.0,3.5,2.605,0.34505164405058014,-0.03486711654662766,0.9209316351913667,0.0003324798783214589,-0.144946,-29.151284
11.185,2.0,1.0,1.0,34.5,34.0,34.0,2.0,3.5,2.6075,0.33444313131347264,-0.035473387992417706,0.9245525648664681,-8.179820653589345e-05,-0.147309,-29.001924
11.185,2.0,1.0,1.0,34.5,34.0,34.0,2.0,3.5,2.61,0.3237079410114391,-0.036088716460931,0.9280753766228386,-0.0005138153308753506,-0.149731,-28.851691
11.185,2.0,1.0,1.0,34.5,34.0,34.0,2.0,3.5,2.6125,0.31284522387202807,-0.03671315071575731,0.9314968681250656,-0.0009642500676993404,-0.152214,-28.700572
11.185,2.0,1.0,1.0,34.5,34.0,34.0,2.0,3.5,2.615,0.3018541566192322,-0.037346732179656665,0.934813742818143,-0.001433808445337501,-0.15476,-28.548551
11.185,2.0,1.0,1.0,34.5,34.0,34.0,2.0,3.5,2.6175,0.29073394436561395,-0.03798949420816373,0.9380226072107716,-0.0019232251550505186,-0.157371,-28.395613
11.185,2.0,1.0,1.0,34.5,34.0,34.0,2.0,3.5,2.62,0.2794838231443781,-0.038641461306215444,0.9411199680844794,-0.0024332648169584567,-0.16005,-28.241742
11.185,2.0,1.0,1.0,34.5,34.0,34.0,2.0,3.5,2.6225,0.2681030625891916,-0.03930264828331621,0.9441022296266788,-0.0029647233074158188,-0.162798,-28.086922
11.185,2.0,1.0,1.0,34.5,34.0,34.0,2.0,3.5,2.625,0.256590968770042,-0.0399730593423735,0.946965690485711,-0.00351842915113917,-0.165618,-27.931135
11.185,2.0,1.0,1.0,34.5,34.0,34.0,2.0,3.5,2.6275,0.24494688719390606,-0.040652687096922824,0.9497065407458967,-0.004095244981592225,-0.168513,-27.774365
11.185,2.0,1.0,1.0,34.5,34.0,34.0,2.0,3.5,2.63,0.23317020597958216,-0.04134151151100339,0.9523208588204977,-0.0046960690733405825,-0.171486,-27.616594
11.185,2.0,1.0,1.0,34.5,34.0,34.0,2.0,3.5,2.6325,0.22126035921661663,-0.042039498755446915,0.9548046082604831,-0.00532183695031299,-0.174538,-27.457804
11.185,2.0,1.0,1.0,34.5,34.0,34.0,2.0,3.5,2.635,0.20921683051890907,-0.04274659997379521,0.9571536344768579,-0.0059735230741394625,-0.177673,-27.297977
11.185,2.0,1.0,1.0,34.5,34.0,34.0,2.0,3.5,2.6375,0.19703915678426714,-0.043462749950458526,0.9593636613742695,-0.006652142616991523,-0.180894,-27.137094
11.185,2.0,1.0,1.0,34.5,34.0,34.0,2.0,3.5,2.64,0.18472693217191888,-0.04418786567306977,0.9614302878935151,-0.0073587533236150705,-0.184205,-26.975135
11.185,2.0,1.0,1.0,34.5,34.0,34.0,2.0,3.5,2.6425,0.1722798123108455,-0.04492184478025869,0.9633489844604457,-0.008094457467528465,-0.187607,-26.812081
11.185,2.0,1.0,1.0,34.5,34.0,34.0,2.0,3.5,2.645,0.15969751875264432,-0.04566456388527303,0.9651150893386977,-0.008860403906661948,-0.191106,-26.647911
11.185,2.0,1.0,1.0,34.5,34.0,34.0,2.0,3.5,2.6475,0.1469798436836249,-0.04641587676499114,0.966723804883541,-0.009657790244029223,-0.194703,-26.482604
11.185,2.0,1.0,1.0,34.5,34.0,34.0,2.0,3.5,2.65,0.13412665491184583,-0.04717561240289929,0.9681701936940303,-0.010487865099363416,-0.198405,-26.316139
11.185,2.0,1.0,1.0,34.5,34.0,34.0,2.0,3.5,2.6525,0.12113790114605008,-0.04794357287353031,0.969449174660496,-0.011351930497998864,-0.202213,-26.148493
11.185,2.0,1.0,1.0,34.5,34.0,34.0,2.0,3.5,2.655,0.10801361758457241,-0.04871953105467907,0.9705555189042859,-0.012251344383664299,-0.206133,-25.979643
11.185,2.0,1.0,1.0,34.5,34.0,34.0,2.0,3.5,2.6575,0.09475393183379369,-0.04950322815239361,0.9714838456065131,-0.013187523262240135,-0.210169,-25.809567
11.185,2.0,1.0,1.0,34.5,34.0,34.0,2.0,3.5,2.66,0.08135907017715774,-0.05029437102228932,0.9722286177223948,-0.014161944983954568,-0.214325,-25.638239
11.185,2.0,1.0,1.0,34.5,34.0,34.0,2.0,3.5,2.6625,0.067829364217471,-0.05109262926912289,0.9727841375776097,-0.015176151671922447,-0.218607,-25.465636
11.185,2.0,1.0,1.0,34.5,34.0,34.0,2.0,3.5,2.665,0.05416525791698903,-0.05189763210477628,0.9731445423428993,-0.016231752805390243,-0.223019,-25.291731
11.185,2.0,1.0,1.0,34.5,34.0,34.0,2.0,3.5,2.6675,0.0403673150618818,-0.05270896494281209,0.9733037993829733,-0.017330428466518652,-0.227568,-25.116497
11.185,2.0,1.0,1.0,34.5,34.0,34.0,2.0,3.5,2.67,0.026436227179854947,-0.053526165705559646,0.9732557014755615,-0.01847393276002354,-0.232258,-24.939909
11.185,2.0,1.0,1.0,34.5,34.0,34.0,2.0,3.5,2.6725,0.012372821942174332,-0.05434872081722918,0.9729938618962439,-0.01966409741550064,-0.237096,-24.761937
11.185,2.0,1.0,1.0,34.5,34.0,34.0,2.0,3.5,2.675,-0.001821927915838597,-0.055176060853816475,0.9725117093645167,-0.02090283558276546,-0.242088,-24.582553
11.185,2.0,1.0,1.0,34.5,34.0,34.0,2.0,3.5,2.6775,-0.016146895118824136,-0.05600755581750459,0.9718024828463057,-0.022192145831063985,-0.247241,-24.401726
11.185,2.0,1.0,1.0,34.5,34.0,34.0,2.0,3.5,2.68,-0.0306007877794214,-0.056842509999860846,0.9708592262079677,-0.02353411636352162,-0.252562,-24.219427
11.185,2.0,1.0,1.0,34.5,34.0,34.0,2.0,3.5,2.6825,-0.04518213868607172,-0.057680156394312565,0.9696747827166204,-0.024930929458706154,-0.258059,-24.035622
11.185,2.0,1.0,1.0,34.5,34.0,34.0,2.0,3.5,2.685,-0.05988929390213224,-0.058519650614122946,0.9682417893814919,-0.026384866151669305,-0.26374,-23.850279
11.185,2.0,1.0,1.0,34.5,34.0,34.0,2.0,3.5,2.6875,-0.0747204006230781,-0.0593600642673058,0.966552671130835,-0.0278983111672846,-0.269612,-23.663364
11.185,2.0,1.0,1.0,34.5,34.0,34.0,2.0,3.5,2.69,-0.08967339423328985,-0.060200377734561175,0.9645996348189029,-0.029473758119100385,-0.275686,-23.474841
11.185,2.0,1.0,1.0,34.5,34.0,34.0,2.0,3.5,2.6925,-0.1047459844980239,-0.06103947229029807,0.9623746630574429,-0.031113814987264864,-0.28197,-23.284674
11.185,2.0,1.0,1.0,34.5,34.0,34.0,2.0,3.5,2.695,-0.11993564081941885,-0.06187612150004654,0.9598695078663005,-0.032821209889300616,-0.288476,-23.092825
11.185,2.0,1.0,1.0,34.5,34.0,34.0,2.0,3.5,2.6975,-0.13523957647800006,-0.0627089818199594,0.9570756841378895,-0.03459879715761809,-0.295213,-22.899255
11.185,2.0,1.0,1.0,34.5,34.0,34.0,2.0,3.5,2.7,-0.15065473177258362,-0.06353658231553258,0.9539844629107274,-0.03644956373756599,-0.302193,-22.703924
11.185,2.0,1.0,1.0,34.5,34.0,34.0,2.0,3.5,2.7025,-0.16617775596207587,-0.06435731340702079,0.9505868644477798,-0.038376635919521646,-0.309428,-22.506789
11.185,2.0,1.0,1.0,34.5,34.0,34.0,2.0,3.5,2.705,-0.18180498790182695,-0.06516941453812197,0.9468736511162941,-0.04038328641791552,-0.316932,-22.307806
11.185,2.0,1.0,1.0,34.5,34.0,34.0,2.0,3.5,2.7075,-0.19753243525510536,-0.06597096065219621,0.9428353200669817,-0.0424729418091153,-0.324719,-22.10693
11.185,2.0,1.0,1.0,34.5,34.0,34.0,2.0,3.5,2.71,-0.2133557521464771,-0.06675984734636034,0.9384620957121464,-0.0446491903386378,-0.332803,-21.904115
11.185,2.0,1.0,1.0,34.5,34.0,34.0,2.0,3.5,2.7125,-0.22927021510833942,-0.06753377455804332,0.9337439220045844,-0.04691579010611463,-0.341201,-21.699311
11.185,2.0,1.0,1.0,34.5,34.0,34.0,2.0,3.5,2.715,-0.2452706971541439,-0.06829022862073454,0.9286704545220609,-0.04927667763362819,-0.349929,-21.492468
11.185,2.0,1.0,1.0,34.5,34.0,34.0,2.0,3.5,2.7175,-0.26135163979184384,-0.06902646250541258,0.9232310523660603,-0.05173597681929863,-0.359006,-21.283533
11.185,2.0,1.0,1.0,34.5,34.0,34.0,2.0,3.5,2.72,-0.277507022768267,-0.06973947404116719,0.9174147698885042,-0.05429800827307667,-0.368452,-21.072451
11.185,2.0,1.0,1.0,34.5,34.0,34.0,2.0,3.5,2.7225,-0.29373033130926424,-0.07042598188243115,0.9112103482665432,-0.05696729902533065,-0.378288,-20.859165
11.185,2.0,1.0,1.0,34.5,34.0,34.0,2.0,3.5,2.725,-0.31001452059091045,-0.07108239896057054,0.9046062069537121,-0.05974859259060182,-0.388536,-20.643617
11.185,2.0,1.0,1.0,34.5,34.0,34.0,2.0,3.5,2.7275,-0.3263519771435433,-0.07170480312384357,0.8975904350460997,-0.06264685935847035,-0.399222,-20.425743
11.185,2.0,1.0,1.0,34.5,34.0,34.0,2.0,3.5,2.73,-0.34273447685203967,-0.07228890463132506,0.8901507826152393,-0.06566730727020313,-0.410372,-20.205481
11.185,2.0,1.0,1.0,34.5,34.0,34.0,2.0,3.5,2.7325,-0.3591531391721782,-0.0728300101226627,0.8822746520759273,-0.06881539272315423,-0.422014,-19.982763
11.185,2.0,1.0,1.0,34.5,34.0,34.0,2.0,3.5,2.735,-0.3755983771330478,-0.07332298263570039,0.8739490896777898,-0.07209683162386403,-0.434181,-19.757519
11.185,2.0,1.0,1.0,34.5,34.0,34.0,2.0,3.5,2.7375,-0.3920598426387425,-0.07376219718722775,0.8651607772353098,-0.07551761048448058,-0.446904,-19.529678
11.185,2.0,1.0,1.0,34.5,34.0,34.0,2.0,3.5,2.74,-0.40852636651766705,-0.07414149136740288,0.8558960242433418,-0.07908399742420358,-0.460221,-19.299163
11.185,2.0,1.0,1.0,34.5,34.0,34.0,2.0,3.5,2.7425,-0.42498589269389175,-0.07445411032465832,0.8461407605654789,-0.08280255289638412,-0.474172,-19.065896
11.185,2.0,1.0,1.0,34.5,34.0,34.0,2.0,3.5,2.745,-0.4414254057705713,-0.07469264543388934,0.835880529932945,-0.0866801399107369,-0.488799,-18.829795
11.185,2.0,1.0,1.0,34.5,34.0,34.0,2.0,3.5,2.7475,-0.45783085121931255,-0.07484896584507858,0.8251004845543164,-0.09072393345643101,-0.504149,-18.590774
11.185,2.0,1.0,1.0,34.5,34.0,34.0,2.0,3.5,2.75,-0.474187047259856,-0.0749141420007132,0.813785381214348,-0.0949414287526248,-0.520274,-18.348743
11.185,2.0,1.0,1.0,34.5,34.0,34.0,2.0,3.5,2.7525,-0.4904775873898866,-0.07487836008675165,0.8019195793371898,-0.09934044785456934,-0.53723,-18.103611
11.185,2.0,1.0,1.0,34.5,34.0,34.0,2.0,3.5,2.755,-0.5066847323833829,-0.07473082624175391,0.7894870416099451,-0.10392914402109284,-0.555078,-17.85528
11.185,2.0,1.0,1.0,34.5,34.0,34.0,2.0,3.5,2.7575,-0.5227892904158876,-0.07445965919026037,0.7764713379125113,-0.1087160030973592,-0.573886,-17.60365
11.185,2.0,1.0,1.0,34.5,34.0,34.0,2.0,3.5,2.76,-0.5387704837942294,-0.07405176978778062,0.7628556534862887,-0.11370984097804476,-0.593728,-17.348615
11.185,2.0,1.0,1.0,34.5,34.0,34.0,2.0,3.5,2.7625,-0.5546058005652226,-0.07349272576410709,0.7486228025062989,-0.11891979598164669,-0.614684,-17.090066
11.185,2.0,1.0,1.0,34.5,34.0,34.0,2.0,3.5,2.765,-0.5702708290507084,-0.07276659972768161,0.7337552485098393,-0.12435531467533842,-0.636846,-16.827889
11.185,2.0,1.0,1.0,34.5,34.0,34.0,2.0,3.5,2.7675,-0.585739073104324,-0.07185579824553362,0.7182351334937259,-0.13002612932783,-0.660311,-16.561967
11.185,2.0,1.0,1.0,34.5,34.0,34.0,2.0,3.5,2.77,-0.6009817456084131,-0.07074086954094404,0.7020443179386282,-0.13594222471783476,-0.685191,-16.292176
11.185,2.0,1.0,1.0,34.5,34.0,34.0,2.0,3.5,2.7725,-0.615967537428842,-0.06940028705605011,0.6851644345745395,-0.14211379146654277,-0.711607,-16.018389
11.185,2.0,1.0,1.0,34.5,34.0,34.0,2.0,3.5,2.775,-0.6306623587250458,-0.06781020581300906,0.6675769593925006,-0.1485511623673749,-0.739695,-15.740475
11.185,2.0,1.0,1.0,34.5,34.0,34.0,2.0,3.5,2.7775,-0.6450290491795094,-0.06594418818253722,0.6492633042674395,-0.15526472732222218,-0.769606,-15.458296
11.185,2.0,1.0,1.0,34.5,34.0,34.0,2.0,3.5,2.78,-0.6590270533774788,-0.06377289534529766,0.6302049366261361,-0.16226482141959264,-0.801508,-15.171714
11.185,2.0,1.0,1.0,34.5,34.0,34.0,2.0,3.5,2.7825,-0.6726120572539094,-0.06126374043002064,0.6103835329233762,-0.16956157935630625,-0.835592,-14.880582
11.185,2.0,1.0,1.0,34.5,34.0,34.0,2.0,3.5,2.785,-0.6857355812615116,-0.05838049906363482,0.5897811743395946,-0.1771647477491579,-0.872068,-14.584753
11.185,2.0,1.0,1.0,34.5,34.0,34.0,2.0,3.5,2.7875,-0.6983445257473624,-0.05508287292008253,0.5683805951603642,-0.18508344483126313,-0.911176,-14.284076
11.185,2.0,1.0,1.0,34.5,34.0,34.0,2.0,3.5,2.79,-0.7103806640249981,-0.05132600187506597,0.5461654968317678,-0.19332585448962097,-0.953183,-13.978396
11.185,2.0,1.0,1.0,34.5,34.0,34.0,2.0,3.5,2.7925,-0.7217800788937172,-0.04705992066439927,0.5231209438143012,-0.2018988384683799,-0.998394,-13.667561
11.185,2.0,1.0,1.0,34.5,34.0,34.0,2.0,3.5,2.795,-0.7324725390309695,-0.042228956648380965,0.4992338612063619,-0.21080744671152038,-1.047154,-13.351413
11.185,2.0,1.0,1.0,34.5,34.0,34.0,2.0,3.5,2.7975,-0.7423808129714891,-0.03677106660920961,0.47449365882018907,-0.22005430110714577,-1.099852,-13.029799
11.185,2.0,1.0,1.0,34.5,34.0,34.0,2.0,3.5,2.8,-0.7514199205769438,-0.030617112742380253,0.4488930121227492,-0.22963882216922585,-1.156937,-12.702571
11.185,2.0,1.0,1.0,34.5,34.0,34.0,2.0,3.5,2.8025,-0.7594963253951463,-0.023690081550616693,0.4224288373606747,-0.23955626129487967,-1.218916,-12.369584
11.185,2.0,1.0,1.0,34.5,34.0,34.0,2.0,3.5,2.805,-0.7665070766665812,-0.015904254769459763,0.39510350641157177,-0.2497964930281618,-1.286373,-12.030704
11.185,2.0,1.0,1.0,34.5,34.0,34.0,2.0,3.5,2.8075,-0.7723389177226146,-0.007164349512865328,0.3669263565306889,-0.2603425121615747,-1.359981,-11.685811
11.185,2.0,1.0,1.0,34.5,34.0,34.0,2.0,3.5,2.81,-0.7768673891687425,0.002635343439448533,0.33791556116211363,-0.27116856954842,-1.440511,-11.334803
11.185,2.0,1.0,1.0,34.5,34.0,34.0,2.0,3.5,2.8125,-0.779955971936444,0.0136117775046339,0.308100440109041,-0.282237868436891,-1.528858,-10.977605
11.185,2.0,1.0,1.0,34.5,34.0,34.0,2.0,3.5,2.815,-0.781455338819893,0.025893854960991496,0.2775242999782938,-0.2934997306081088,-1.626059,-10.614173
11.185,2.0,1.0,1.0,34.5,34.0,34.0,2.0,3.5,2.8175,-0.7812028157802053,0.03962291628374224,0.2462479076678516,-0.3048861298776756,-1.733319,-10.244509
11.185,2.0,1.0,1.0,34.5,34.0,34.0,2.0,3.5,2.82,-0.7790221989042039,0.05495286730098973,0.2143537084793435,-0.3163074818894918,-1.852045,-9.868667
11.185,2.0,1.0,1.0,34.5,34.0,34.0,2.0,3.5,2.8225,-0.7747241326813344,0.07204973743584935,0.18195090237992304,-0.32764757743702594,-1.98388,-9.486773
11.185,2.0,1.0,1.0,34.5,34.0,34.0,2.0,3.5,2.825,-0.768107333576953,0.09109038391140738,0.14918148086269498,-0.3387575579545782,-2.130755,-9.099038
11.185,2.0,1.0,1.0,34.5,34.0,34.0,2.0,3.5,2.8275,-0.7589610425315017,0.11225995713353468,0.11622729330813922,-0.3494488657992586,-2.294936,-8.705782
