1,w,sub_t,h,l1,l2,l3,g1,g2,Freq,S11_re,S21_re,S11_img,S21_img,S11_dB,S21_dB
11.185,2.0,1.0,1.0,33.4,34.9,34.9,2.3,3.8,2.5,0.853041029554813,-0.00941503981606499,0.5074093932803,0.0077721335666855,-0.065006,-38.266708
11.185,2.0,1.0,1.0,33.4,34.9,34.9,2.3,3.8,2.5025,0.8495076816869719,-0.009635036451772598,0.5131289809879632,0.00783106483120772,-0.065794,-38.120297
11.185,2.0,1.0,1.0,33.4,34.9,34.9,2.3,3.8,2.505,0.8459172752059909,-0.009860417783270316,0.5188504576367939,0.007889840081949356,-0.0666,-37.973008
11.185,2.0,1.0,1.0,33.4,34.9,34.9,2.3,3.8,2.5075,0.8422690884461634,-0.010091355761525806,0.5245736149332608,0.007948429492709774,-0.067425,-37.824819
11.185,2.0,1.0,1.0,33.4,34.9,34.9,2.3,3.8,2.51,0.8385623822022324,-0.010328029639506048,0.5302982367774834,0.00800680126116173,-0.06827,-37.675705
11.185,2.0,1.0,1.0,33.4,34.9,34.9,2.3,3.8,2.5125,0.8347963991089964,-0.010570626359496458,0.5360240989203354,0.008064921470664085,-0.069136,-37.525642
11.185,2.0,1.0,1.0,33.4,34.9,34.9,2.3,3.8,2.515,0.8309703629893667,-0.010819340965066345,0.5417509686023013,0.008122753941214452,-0.070023,-37.374605
11.185,2.0,1.0,1.0,33.4,34.9,34.9,2.3,3.8,2.5175,0.827083478168786,-0.01107437703950987,0.54747860417282,0.008180260068575309,-0.070932,-37.222568
11.185,2.0,1.0,1.0,33.4,34.9,34.9,2.3,3.8,2.52,0.8231349287537064,-0.011335947172747529,0.5532067546887378,0.008237398650512482,-0.071864,-37.069504
11.185,2.0,1.0,1.0,33.4,34.9,34.9,2.3,3.8,2.5225,0.8191238778716826,-0.011604273458842731,0.558935159490354,0.008294125698977101,-0.07282,-36.915387
11.185,2.0,1.0,1.0,33.4,34.9,34.9,2.3,3.8,2.525,0.8150494668703909,-0.0118795880264754,0.56466354775344,0.008350394236943197,-0.0738,-36.760188
11.185,2.0,1.0,1.0,33.4,34.9,34.9,2.3,3.8,2.5275,0.8109108144726906,-0.012162133604918825,0.5703916380154304,0.008406154078480143,-0.074805,-36.603878
11.185,2.0,1.0,1.0,33.4,34.9,34.9,2.3,3.8,2.53,0.806707015884586,-0.012452164128289811,0.5761191376738332,0.008461351590492277,-0.075837,-36.446426
11.185,2.0,1.0,1.0,33.4,34.9,34.9,2.3,3.8,2.5325,0.802437141852682,-0.012749945381090935,0.5818457424547191,0.008515929434391984,-0.076896,-36.287803
11.185,2.0,1.0,1.0,33.4,34.9,34.9,2.3,3.8,2.535,0.7981002376674294,-0.013055755688333384,0.587571135848947,0.008569826285788751,-0.077984,-36.127977
11.185,2.0,1.0,1.0,33.4,34.9,34.9,2.3,3.8,2.5375,0.7936953221081401,-0.013369886653830142,0.5932949885135446,0.008622976530070872,-0.079101,-35.966914
11.185,2.0,1.0,1.0,33.4,34.9,34.9,2.3,3.8,2.54,0.7892213863253811,-0.013692643950578459,0.5990169576354198,0.008675309931524862,-0.080249,-35.804581
11.185,2.0,1.0,1.0,33.4,34.9,34.9,2.3,3.8,2.5425,0.7846773926559776,-0.014024348167514116,0.6047366862542913,0.008726751273379636,-0.081429,-35.640943
11.185,2.0,1.0,1.0,33.4,34.9,34.9,2.3,3.8,2.545,0.7800622733654144,-0.014365335717322805,0.6104538025414046,0.008777219965871486,-0.082642,-35.475964
11.185,2.0,1.0,1.0,33.4,34.9,34.9,2.3,3.8,2.5475,0.7753749293119538,-0.014715959810438104,0.6161679190302378,0.008826629619099403,-0.083889,-35.309606
11.185,2.0,1.0,1.0,33.4,34.9,34.9,2.3,3.8,2.55,0.7706142285262477,-0.015076591500848174,0.6218786317950366,0.008874887577072959,-0.085173,-35.141832
11.185,2.0,1.0,1.0,33.4,34.9,34.9,2.3,3.8,2.5525,0.7657790046996608,-0.015447620809876201,0.6275855195725094,0.008921894408940732,-0.086494,-34.9726
11.185,2.0,1.0,1.0,33.4,34.9,34.9,2.3,3.8,2.555,0.7608680555738477,-0.015829457934707095,0.6332881428215822,0.008967543352919473,-0.087854,-34.80187
11.185,2.0,1.0,1.0,33.4,34.9,34.9,2.3,3.8,2.5575,0.755880141223433,-0.016222534549100335,0.6389860427154883,0.009011719707916567,-0.089255,-34.629599
11.185,2.0,1.0,1.0,33.4,34.9,34.9,2.3,3.8,2.56,0.7508139822228391,-0.01662730520447675,0.6446787400598615,0.009054300167240167,-0.090699,-34.455743
11.185,2.0,1.0,1.0,33.4,34.9,34.9,2.3,3.8,2.5625,0.7456682576874296,-0.017044248840394634,0.6503657341297664,0.009095152088114566,-0.092188,-34.280255
11.185,2.0,1.0,1.0,33.4,34.9,34.9,2.3,3.8,2.565,0.7404416031781436,-0.01747387041435505,0.6560465014177962,0.0091341326899486,-0.093723,-34.103089
11.185,2.0,1.0,1.0,33.4,34.9,34.9,2.3,3.8,2.5675,0.7351326084577277,-0.017916702661904847,0.6617204942844214,0.009171088173432021,-0.095306,-33.924194
11.185,2.0,1.0,1.0,33.4,34.9,34.9,2.3,3.8,2.57,0.729739815085425,-0.0183733079991553,0.6673871395007498,0.009205852751538828,-0.096941,-33.74352
11.185,2.0,1.0,1.0,33.4,34.9,34.9,2.3,3.8,2.5725,0.7242617138356494,-0.018844280581118755,0.6730458366726471,0.00923824758238218,-0.098629,-33.561013
11.185,2.0,1.0,1.0,33.4,34.9,34.9,2.3,3.8,2.575,0.718696741924641,-0.01933024853070114,0.6786959565338113,0.00926807959257057,-0.100373,-33.376617
11.185,2.0,1.0,1.0,33.4,34.9,34.9,2.3,3.8,2.5775,0.7130432800274027,-0.01983187635479826,0.6843368390938471,0.009295140178230596,-0.102176,-33.190276
11.185,2.0,1.0,1.0,33.4,34.9,34.9,2.3,3.8,2.58,0.7072996490653363,-0.02034986756574557,0.6899677916256011,0.009319203769163174,-0.104041,-33.001929
11.185,2.0,1.0,1.0,33.4,34.9,34.9,2.3,3.8,2.5825,0.7014641067428287,-0.02088496752840059,0.6955880864740062,0.00934002623964986,-0.10597,-32.811514
11.185,2.0,1.0,1.0,33.4,34.9,34.9,2.3,3.8,2.585,0.6955348438086872,-0.02143796655540874,0.7011969586663266,0.009357343147180173,-0.107968,-32.618965
11.185,2.0,1.0,1.0,33.4,34.9,34.9,2.3,3.8,2.5875,0.6895099800156057,-0.022009703275770388,0.7067936033010376,0.009370867777786708,-0.110038,-32.424216
11.185,2.0,1.0,1.0,33.4,34.9,34.9,2.3,3.8,2.59,0.6833875597478339,-0.02260106830471045,0.7123771726894625,0.009380288973687489,-0.112182,-32.227196
11.185,2.0,1.0,1.0,33.4,34.9,34.9,2.3,3.8,2.5925,0.677165547283794,-0.023213008246111,0.7179467732207377,0.009385268715483149,-0.114407,-32.02783
11.185,2.0,1.0,1.0,33.4,34.9,34.9,2.3,3.8,2.595,0.670841821656572,-0.02384653006244582,0.7235014619165308,0.009385439427151292,-0.116716,-31.826042
11.185,2.0,1.0,1.0,33.4,34.9,34.9,2.3,3.8,2.5975,0.6644141710708162,-0.024502705851317527,0.729040242637172,0.009380400967431072,-0.119113,-31.621752
11.185,2.0,1.0,1.0,33.4,34.9,34.9,2.3,3.8,2.6,0.6578802868297018,-0.025182678072409544,0.7345620618952685,0.009369717265778206,-0.121605,-31.414875
11.185,2.0,1.0,1.0,33.4,34.9,34.9,2.3,3.8,2.6025,0.6512377567200257,-0.025887665274005094,0.7400658042264077,0.009352912554753219,-0.124195,-31.205324
11.185,2.0,1.0,1.0,33.4,34.9,34.9,2.3,3.8,2.605,0.6444840577971754,-0.026618968374293846,0.7455502870589819,0.009329467143325955,-0.126891,-30.993006
11.185,2.0,1.0,1.0,33.4,34.9,34.9,2.3,3.8,2.6075,0.6376165485045557,-0.027377977559570946,0.7510142550163041,0.009298812666921837,-0.129699,-30.777825
11.185,2.0,1.0,1.0,33.4,34.9,34.9,2.3,3.8,2.61,0.6306324600538892,-0.028166179869278347,0.7564563735737929,0.00926032673987245,-0.132625,-30.55968
11.185,2.0,1.0,1.0,33.4,34.9,34.9,2.3,3.8,2.6125,0.6235288869835193,-0.028985167546764324,0.7618752219817878,0.009213326923961467,-0.135677,-30.338464
11.185,2.0,1.0,1.0,33.4,34.9,34.9,2.3,3.8,2.615,0.6163027768012792,-0.02983664724481956,0.7672692853501283,0.009157063912621393,-0.138864,-30.114066
11.185,2.0,1.0,1.0,33.4,34.9,34.9,2.3,3.8,2.6175,0.6089509186064161,-0.030722450186664852,0.7726369457735801,0.0090907138136105,-0.142193,-29.886368
11.185,2.0,1.0,1.0,33.4,34.9,34.9,2.3,3.8,2.62,0.6014699305712784,-0.03164454339634045,0.7779764723569862,0.009013369393139778,-0.145675,-29.655248
11.185,2.0,1.0,1.0,33.4,34.9,34.9,2.3,3.8,2.6225,0.593856246147743,-0.032605042127618805,0.7832860099749718,0.008924030120791085,-0.14932,-29.420575
11.185,2.0,1.0,1.0,33.4,34.9,34.9,2.3,3.8,2.625,0.58610609884536,-0.0336062236379152,0.788563566572358,0.00882159082636141,-0.153139,-29.182212
11.185,2.0,1.0,1.0,33.4,34.9,34.9,2.3,3.8,2.6275,0.5782155054075714,-0.03465054247354042,0.7938069987771698,0.008704828746005361,-0.157146,-28.940016
11.185,2.0,1.0,1.0,33.4,34.9,34.9,2.3,3.8,2.63,0.5701802471888323,-0.03574064745536858,0.799013995556945,0.00857238869451174,-0.161353,-28.693833
11.185,2.0,1.0,1.0,33.4,34.9,34.9,2.3,3.8,2.6325,0.5619958495084353,-0.03687940058002461,0.8041820595995494,0.008422766051725811,-0.165775,-28.443503
11.185,2.0,1.0,1.0,33.4,34.9,34.9,2.3,3.8,2.635,0.5536575587260045,-0.03806989808147056,0.8093084860398793,0.008254287192133659,-0.170431,-28.188855
11.185,2.0,1.0,1.0,33.4,34.9,34.9,2.3,3.8,2.6375,0.5451603167483128,-0.03931549393191335,0.8143903380813668,0.00806508691511374,-0.175337,-27.929709
11.185,2.0,1.0,1.0,33.4,34.9,34.9,2.3,3.8,2.64,0.536498732636743,-0.040619826099823626,0.8194244189730956,0.007853082346358752,-0.180513,-27.665873
11.185,2.0,1.0,1.0,33.4,34.9,34.9,2.3,3.8,2.6425,0.5276670509387835,-0.04198684592711715,0.8244072396957959,0.007615942674779926,-0.185983,-27.397144
11.185,2.0,1.0,1.0,33.4,34.9,34.9,2.3,3.8,2.645,0.5186591163147403,-0.0434208510378259,0.8293349815783219,0.007351053959093352,-0.191771,-27.123308
11.185,2.0,1.0,1.0,33.4,34.9,34.9,2.3,3.8,2.6475,0.5094683339717129,-0.04492652224740357,0.8342034529043102,0.007055478078291007,-0.197905,-26.844133
11.185,2.0,1.0,1.0,33.4,34.9,34.9,2.3,3.8,2.65,0.5000876253504031,-0.04650896500565097,0.8390080383689359,0.006725904702681694,-0.204416,-26.559377
11.185,2.0,1.0,1.0,33.4,34.9,34.9,2.3,3.8,2.6525,0.49050937843616954,-0.04817375597731052,0.8437436399980855,0.0063585949173890965,-0.211337,-26.268778
11.185,2.0,1.0,1.0,33.4,34.9,34.9,2.3,3.8,2.655,0.48072539198383823,-0.04992699544254851,0.8484046078342556,0.0059493148255531465,-0.21871,-25.972059
11.185,2.0,1.0,1.0,33.4,34.9,34.9,2.3,3.8,2.6575,0.47072681285710805,-0.05177536628393569,0.8529846583085754,0.00549325707779004,-0.226576,-25.668922
11.185,2.0,1.0,1.0,33.4,34.9,34.9,2.3,3.8,2.66,0.4605040655895335,-0.05372620041524275,0.8574767777353293,0.004984947796671804,-0.234985,-25.359049
11.185,2.0,1.0,1.0,33.4,34.9,34.9,2.3,3.8,2.6625,0.45004677317868724,-0.0557875535966579,0.8618731077565266,0.004418135762701798,-0.243994,-25.0421
11.185,2.0,1.0,1.0,33.4,34.9,34.9,2.3,3.8,2.665,0.4393436680344917,-0.05796828966440944,0.8661648087930903,0.0037856599655974404,-0.253666,-24.717708
11.185,2.0,1.0,1.0,33.4,34.9,34.9,2.3,3.8,2.6675,0.42838249192753364,-0.06027817526936725,0.8703418965785276,0.0030792906545485796,-0.264073,-24.385479
11.185,2.0,1.0,1.0,33.4,34.9,34.9,2.3,3.8,2.67,0.4171498837406815,-0.0627279862513728,0.8743930455974577,0.0022895377812487384,-0.2753,-24.044991
11.185,2.0,1.0,1.0,33.4,34.9,34.9,2.3,3.8,2.6725,0.40563125384551896,-0.06532962674568879,0.8783053516417743,0.0014054191375045982,-0.287441,-23.695787
11.185,2.0,1.0,1.0,33.4,34.9,34.9,2.3,3.8,2.675,0.3938106440478128,-0.06809626198072359,0.8820640436203667,0.0004141784354426623,-0.300607,-23.337374
11.185,2.0,1.0,1.0,33.4,34.9,34.9,2.3,3.8,2.6775,0.38167057234258195,-0.07104246541267993,0.8856521320660663,-0.0006990590835942499,-0.314927,-22.969219
11.185,2.0,1.0,1.0,33.4,34.9,34.9,2.3,3.8,2.68,0.369191862297389,-0.07418438024462509,0.8890499782772256,-0.0019517093912918098,-0.33055,-22.590746
11.185,2.0,1.0,1.0,33.4,34.9,34.9,2.3,3.8,2.6825,0.356353457910861,-0.07753989432581135,0.8922347634447532,-0.003364251178171008,-0.347651,-22.201328
11.185,2.0,1.0,1.0,33.4,34.9,34.9,2.3,3.8,2.685,0.3431322265357806,-0.0811288256584472,0.8951798310909033,-0.004960872487034151,-0.366435,-21.800288
11.185,2.0,1.0,1.0,33.4,34.9,34.9,2.3,3.8,2.6875,0.329502755324856,-0.0849731128416538,0.897853868203949,-0.00677027668117323,-0.387148,-21.386887
11.185,2.0,1.0,1.0,33.4,34.9,34.9,2.3,3.8,2.69,0.31543715130028877,-0.08909700011020562,0.9002198799521343,-0.008826692319312403,-0.41008,-20.960322
11.185,2.0,1.0,1.0,33.4,34.9,34.9,2.3,3.8,2.6925,0.30090486258635263,-0.09352719916186893,0.9022338989515298,-0.011171145230511726,-0.435579,-20.51972
11.185,2.0,1.0,1.0,33.4,34.9,34.9,2.3,3.8,2.695,0.2858725501943155,-0.09829299810296165,0.9038433516359189,-0.01385306924809185,-0.464066,-20.06413
11.185,2.0,1.0,1.0,33.4,34.9,34.9,2.3,3.8,2.6975,0.27030405858308315,-0.10342626901997144,0.9049849799209179,-0.016932356053222217,-0.496049,-19.592514
11.185,2.0,1.0,1.0,33.4,34.9,34.9,2.3,3.8,2.7,0.25416056315020774,-0.10896129582039728,0.9055821843570541,-0.020481976064428118,-0.532154,-19.103748
11.185,2.0,1.0,1.0,33.4,34.9,34.9,2.3,3.8,2.7025,0.23740102044105194,-0.11493429652368667,0.9055416134418631,-0.02459134311265081,-0.57315,-18.596608
11.185,2.0,1.0,1.0,33.4,34.9,34.9,2.3,3.8,2.705,0.21998312284318552,-0.1213824385694558,0.9047487710821378,-0.029370647303244235,-0.619995,-18.069775
11.185,2.0,1.0,1.0,33.4,34.9,34.9,2.3,3.8,2.7075,0.2018650810364996,-0.12834202492864932,0.9030623501249683,-0.034956443109255934,-0.673887,-17.521831
11.185,2.0,1.0,1.0,33.4,34.9,34.9,2.3,3.8,2.71,0.1830087521714751,-0.1358453354678168,0.9003069282178343,-0.04151884940874178,-0.736345,-16.951268
11.185,2.0,1.0,1.0,33.4,34.9,34.9,2.3,3.8,2.7125,0.16338494390250735,-0.14391529838530534,0.8962635968094544,-0.04927078091414367,-0.809308,-16.356512
11.185,2.0,1.0,1.0,33.4,34.9,34.9,2.3,3.8,2.715,0.1429822235692048,-0.15255667195612388,0.8906580714880123,-0.05847964950597308,-0.895273,-15.73596
11.185,2.0,1.0,1.0,33.4,34.9,34.9,2.3,3.8,2.7175,0.1218213535192067,-0.16174163334317412,0.8831459385868107,-0.06948186298218623,-0.997491,-15.088053
11.185,2.0,1.0,1.0,33.4,34.9,34.9,2.3,3.8,2.72,0.09997870650813896,-0.1713864528366721,0.8732951210394317,-0.08270001653500238,-1.120228,-14.411402
11.185,2.0,1.0,1.0,33.4,34.9,34.9,2.3,3.8,2.7225,0.07762386508197613,-0.18131410715824622,0.8605668032500319,-0.09866151415808845,-1.269116,-13.704997
11.185,2.0,1.0,1.0,33.4,34.9,34.9,2.3,3.8,2.725,0.05507917903306997,-0.19119515769273526,0.844298767648438,-0.11801465295224119,-1.451633,-12.968544
11.185,2.0,1.0,1.0,33.4,34.9,34.9,2.3,3.8,2.7275,0.03291203044960258,-0.20045631116976972,0.8237009468389435,-0.14153238783310243,-1.677681,-12.203014
11.185,2.0,1.0,1.0,33.4,34.9,34.9,2.3,3.8,2.73,0.01207222405822025,-0.2081445057066858,0.7978847073814527,-0.17008238209570795,-1.960203,-11.411492
11.185,2.0,1.0,1.0,33.4,34.9,34.9,2.3,3.8,2.7325,-0.0059182030282795605,-0.21273958115456218,0.7659686373969845,-0.20452092884899944,-2.315521,-10.60047
11.185,2.0,1.0,1.0,33.4,34.9,34.9,2.3,3.8,2.735,-0.018741245746770586,-0.21193435031126898,0.727335944919102,-0.24543647150979922,-2.762416,-9.781691
11.185,2.0,1.0,1.0,33.4,34.9,34.9,2.3,3.8,2.7375,-0.023117460238879742,-0.20247408716593937,0.6821489516068019,-0.29263885107641663,-3.317431,-8.974522
11.185,2.0,1.0,1.0,33.4,34.9,34.9,2.3,3.8,2.74,-0.01494320942213545,-0.18029806344068278,0.632195643747953,-0.34432165197409453,-3.980544,-8.208367
11.185,2.0,1.0,1.0,33.4,34.9,34.9,2.3,3.8,2.7425,0.009832863488163335,-0.14141445807781222,0.5819103257852316,-0.39605700339827904,-4.701639,-7.523723
11.185,2.0,1.0,1.0,33.4,34.9,34.9,2.3,3.8,2.745,0.05321429419757279,-0.083880028176788,0.5388383526965831,-0.44034846803639455,-5.328678,-6.969279
11.185,2.0,1.0,1.0,33.4,34.9,34.9,2.3,3.8,2.7475,0.11254165172197246,-0.010381174992510423,0.5122469811903908,-0.46802436540526765,-5.605685,-6.592495
11.185,2.0,1.0,1.0,33.4,34.9,34.9,2.3,3.8,2.75,0.179366659872362,0.0706761955539714,0.509328246394162,-0.472006339441343,-5.352309,-6.424747
11.185,2.0,1.0,1.0,33.4,34.9,34.9,2.3,3.8,2.7525,0.2420201890316043,0.14773735579407593,0.531155665833008,-0.4512971330631628,-4.676277,-6.468623
11.185,2.0,1.0,1.0,33.4,34.9,34.9,2.3,3.8,2.755,0.2907288839315747,0.2111709808368133,0.5720831447106277,-0.4115417313517397,-3.853111,-6.696679
11.185,2.0,1.0,1.0,33.4,34.9,34.9,2.3,3.8,2.7575,0.3211161416992557,0.2567141578918667,0.6231664844866104,-0.3616147709732831,-3.085189,-7.062676
11.185,2.0,1.0,1.0,33.4,34.9,34.9,2.3,3.8,2.76,0.3339325329258728,0.28517789371876046,0.6762831930891781,-0.30954145695550556,-2.44987,-7.516776
11.185,2.0,1.0,1.0,33.4,34.9,34.9,2.3,3.8,2.7625,0.33265410043497046,0.3000547724785073,0.7261514178040347,-0.2605136941517555,-1.952102,-8.016172
11.185,2.0,1.0,1.0,33.4,34.9,34.9,2.3,3.8,2.765,0.32128650060032216,0.3053445106679722,0.7702583618440322,-0.2169755105794244,-1.570646,-8.529001
11.185,2.0,1.0,1.0,33.4,34.9,34.9,2.3,3.8,2.7675,0.303234905291341,0.30444081513766696,0.8079461153961612,-0.17953590600264116,-1.280021,-9.033772
11.185,2.0,1.0,1.0,33.4,34.9,34.9,2.3,3.8,2.77,0.28100484327943165,0.2998410805671273,0.839530891460038,-0.14784301346200476,-1.058081,-9.517049
11.185,2.0,1.0,1.0,33.4,34.9,34.9,2.3,3.8,2.7725,0.25629411334196517,0.2932414398771181,0.8657234587846712,-0.1211572652431638,-0.887551,-9.971015
11.185,2.0,1.0,1.0,33.4,34.9,34.9,2.3,3.8,2.775,0.23019322682575394,0.2857375283330107,0.8873181733187602,-0.0986577383331076,-0.75554,-10.391522
11.185,2.0,1.0,1.0,33.4,34.9,34.9,2.3,3.8,2.7775,0.2033737121023499,0.2780121021666218,0.9050520348317568,-0.07958011537086694,-0.652592,-10.776705
11.185,2.0,1.0,1.0,33.4,34.9,34.9,2.3,3.8,2.78,0.17623116086073295,0.27047723847456157,0.919554559276989,-0.06326492795156273,-0.571797,-11.126056
11.185,2.0,1.0,1.0,33.4,34.9,34.9,2.3,3.8,2.7825,0.14898422656369192,0.26337263786949067,0.9313404724256419,-0.049163597982250604,-0.508094,-11.439832
11.185,2.0,1.0,1.0,33.4,34.9,34.9,2.3,3.8,2.785,0.12173995583555297,0.25683048250994933,0.9408198819516116,-0.03682729157496349,-0.457755,-11.718679
11.185,2.0,1.0,1.0,33.4,34.9,34.9,2.3,3.8,2.7875,0.0945357940967876,0.2509171743035165,0.9483137490766326,-0.02589055709407839,-0.418013,-11.963398
11.185,2.0,1.0,1.0,33.4,34.9,34.9,2.3,3.8,2.79,0.067366181642297,0.2456598291796307,0.9540693340823445,-0.016054941609308388,-0.386803,-12.174807
11.185,2.0,1.0,1.0,33.4,34.9,34.9,2.3,3.8,2.7925,0.040199213094190875,0.24106295957904258,0.9582736049680406,-0.0070745057542425495,-0.362574,-12.353652
11.185,2.0,1.0,1.0,33.4,34.9,34.9,2.3,3.8,2.795,0.012986966541556608,0.2371189160240969,0.9610640940737492,0.001256321070826314,-0.34416,-12.500554
11.185,2.0,1.0,1.0,33.4,34.9,34.9,2.3,3.8,2.7975,-0.014328176256372081,0.23381437808873742,0.9625372984257116,0.009112711706265219,-0.330686,-12.615984
11.185,2.0,1.0,1.0,33.4,34.9,34.9,2.3,3.8,2.8,-0.041809739013719385,0.2311343442022069,0.9627549207056256,0.016647614168833418,-0.321502,-12.700239
11.185,2.0,1.0,1.0,33.4,34.9,34.9,2.3,3.8,2.8025,-0.06952494686960735,0.22906452881617473,0.961748269598963,0.02399854061847624,-0.316135,-12.753434
11.185,2.0,1.0,1.0,33.4,34.9,34.9,2.3,3.8,2.805,-0.09754350321832585,0.2275927289347545,0.9595210882384586,0.031293361302718516,-0.314258,-12.775493
11.185,2.0,1.0,1.0,33.4,34.9,34.9,2.3,3.8,2.8075,-0.12593694813930978,0.2267094972745556,0.9560510048698835,0.03865545222969955,-0.315667,-12.766146
11.185,2.0,1.0,1.0,33.4,34.9,34.9,2.3,3.8,2.81,-0.154778320597967,0.22640830813849044,0.9512897194564518,0.04620851108745222,-0.320271,-12.724917
11.185,2.0,1.0,1.0,33.4,34.9,34.9,2.3,3.8,2.8125,-0.184141909531777,0.226685292051789,0.945161959054329,0.0540813363641556,-0.328081,-12.651121
11.185,2.0,1.0,1.0,33.4,34.9,34.9,2.3,3.8,2.815,-0.2141028973663115,0.22753852314050377,0.9375631526177584,0.062412863394192386,-0.339218,-12.543854
11.185,2.0,1.0,1.0,33.4,34.9,34.9,2.3,3.8,2.8175,-0.24473667772984997,0.22896675009734654,0.9283556888114749,0.0713577700934785,-0.353914,-12.401985
11.185,2.0,1.0,1.0,33.4,34.9,34.9,2.3,3.8,2.82,-0.27611756269390636,0.23096734818934933,0.9173635236894677,0.08109300593794475,-0.372535,-12.224138
11.185,2.0,1.0,1.0,33.4,34.9,34.9,2.3,3.8,2.8225,-0.30831646941057994,0.2335331123413138,0.9043647941691906,0.09182566122350691,-0.395603,-12.008686
11.185,2.0,1.0,1.0,33.4,34.9,34.9,2.3,3.8,2.825,-0.3413969637959666,0.2366472759012385,0.8890819656323041,0.10380267859297072,-0.423838,-11.753736
11.185,2.0,1.0,1.0,33.4,34.9,34.9,2.3,3.8,2.8275,-0.3754086920240942,0.24027577396092278,0.8711689016065705,0.11732300745780037,-0.458217,-11.457114
11.185,2.0,1.0,1.0,33.4,34.9,34.9,2.3,3.8,2.83,-0.41037666959655195,0.2443551910828616,0.850194110088789,0.13275288996322793,-0.500058,-11.116363
