1,w,sub_t,h,l1,l2,l3,g1,g2,Freq,S11_re,S21_re,S11_img,S21_img,S11_dB,S21_dB
11.185,2.0,1.0,1.0,34.3,34.1,34.1,2.5,2.7,2.5,0.731472744484097,-0.0149243812656338,0.669658335226644,0.00856278169241322,-0.07228,-35.286226
11.185,2.0,1.0,1.0,34.3,34.1,34.1,2.5,2.7,2.5025,0.726095907974868,-0.015212585139945315,0.6753448298557481,0.008556150471755623,-0.073114,-35.162267
11.185,2.0,1.0,1.0,34.3,34.1,34.1,2.5,2.7,2.505,0.7206447685429732,-0.015506070044601274,0.681017306280543,0.008546837944553107,-0.073964,-35.03781
11.185,2.0,1.0,1.0,34.3,34.1,34.1,2.5,2.7,2.5075,0.7151185334555705,-0.015804944114010996,0.6866750983089073,0.008534735555674727,-0.074831,-34.912845
11.185,2.0,1.0,1.0,34.3,34.1,34.1,2.5,2.7,2.51,0.7095163993362577,-0.016109318047354212,0.6923175196917526,0.008519730486332559,-0.075715,-34.787364
11.185,2.0,1.0,1.0,34.3,34.1,34.1,2.5,2.7,2.5125,0.7038375520863617,-0.016419305174499927,0.6979438634864307,0.008501705470305059,-0.076617,-34.661357
11.185,2.0,1.0,1.0,34.3,34.1,34.1,2.5,2.7,2.515,0.6980811668098731,-0.016735021523576147,0.7035534013987342,0.008480538601290149,-0.077538,-34.534814
11.185,2.0,1.0,1.0,34.3,34.1,34.1,2.5,2.7,2.5175,0.6922464077423548,-0.017056585890215407,0.7091453831026641,0.008456103130904615,-0.078477,-34.407725
11.185,2.0,1.0,1.0,34.3,34.1,34.1,2.5,2.7,2.52,0.6863324281841431,-0.01738411990850226,0.7147190355371487,0.008428267256816575,-0.079436,-34.28008
11.185,2.0,1.0,1.0,34.3,34.1,34.1,2.5,2.7,2.5225,0.6803383704382149,-0.01771774812364256,0.7202735621787977,0.008396893900465887,-0.080414,-34.151868
11.185,2.0,1.0,1.0,34.3,34.1,34.1,2.5,2.7,2.525,0.6742633657530781,-0.01805759806637676,0.7258081422898001,0.008361840473793201,-0.081413,-34.023079
11.185,2.0,1.0,1.0,34.3,34.1,34.1,2.5,2.7,2.5275,0.6681065342710908,-0.01840380032915339,0.7313219301399877,0.008322958634361948,-0.082433,-33.893702
11.185,2.0,1.0,1.0,34.3,34.1,34.1,2.5,2.7,2.53,0.6618669849826282,-0.018756488644076967,0.7368140542020535,0.008280094028218542,-0.083474,-33.763726
11.185,2.0,1.0,1.0,34.3,34.1,34.1,2.5,2.7,2.5325,0.6555438156865431,-0.019115799962641403,0.742283616318871,0.008233086019793967,-0.084538,-33.63314
11.185,2.0,1.0,1.0,34.3,34.1,34.1,2.5,2.7,2.535,0.6491361129573855,-0.019481874537254886,0.7477296908418096,0.008181767408105224,-0.085624,-33.501934
11.185,2.0,1.0,1.0,34.3,34.1,34.1,2.5,2.7,2.5375,0.6426429521198929,-0.019854856004557844,0.7531513237388748,0.008125964128466782,-0.086734,-33.370094
11.185,2.0,1.0,1.0,34.3,34.1,34.1,2.5,2.7,2.54,0.6360633972312648,-0.020234891470530494,0.7585475316714624,0.008065494938870656,-0.087868,-33.23761
11.185,2.0,1.0,1.0,34.3,34.1,34.1,2.5,2.7,2.5425,0.6293965010717903,-0.020622131597378985,0.7639173010384428,0.008000171090137967,-0.089026,-33.104469
11.185,2.0,1.0,1.0,34.3,34.1,34.1,2.5,2.7,2.545,0.6226413051444175,-0.021016730692183724,0.7692595869862359,0.007929795978885414,-0.090211,-32.97066
11.185,2.0,1.0,1.0,34.3,34.1,34.1,2.5,2.7,2.5475,0.6157968396839011,-0.021418846797283175,0.7745733123834462,0.007854164782285943,-0.091421,-32.836169
11.185,2.0,1.0,1.0,34.3,34.1,34.1,2.5,2.7,2.55,0.6088621236761762,-0.021828641782360464,0.7798573667586012,0.007773064073533519,-0.092658,-32.700984
11.185,2.0,1.0,1.0,34.3,34.1,34.1,2.5,2.7,2.5525,0.6018361648886899,-0.02224628143818395,0.7851106051993892,0.0076862714168484635,-0.093924,-32.565092
11.185,2.0,1.0,1.0,34.3,34.1,34.1,2.5,2.7,2.555,0.5947179599124147,-0.022671935571948458,0.7903318472117793,0.007593554940778963,-0.095218,-32.42848
11.185,2.0,1.0,1.0,34.3,34.1,34.1,2.5,2.7,2.5575,0.5875064942163498,-0.02310577810414429,0.795519875537266,0.0074946728884687465,-0.096541,-32.291133
11.185,2.0,1.0,1.0,34.3,34.1,34.1,2.5,2.7,2.56,0.5802007422153512,-0.023547987166868307,0.80067343492641,0.007389373143468136,-0.097896,-32.153039
11.185,2.0,1.0,1.0,34.3,34.1,34.1,2.5,2.7,2.5625,0.572799667352185,-0.023998745203474676,0.8057912308667301,0.007277392729564817,-0.099281,-32.014183
11.185,2.0,1.0,1.0,34.3,34.1,34.1,2.5,2.7,2.565,0.5653022221947455,-0.024458239069442955,0.8108719282629109,0.007158457283003245,-0.100699,-31.87455
11.185,2.0,1.0,1.0,34.3,34.1,34.1,2.5,2.7,2.5675,0.557707348549463,-0.024926660134318115,0.8159141500671374,0.007032280495344379,-0.102151,-31.734125
11.185,2.0,1.0,1.0,34.3,34.1,34.1,2.5,2.7,2.57,0.5500139775919565,-0.02540420438455492,0.8209164758572857,0.0068985635250910305,-0.103637,-31.592895
11.185,2.0,1.0,1.0,34.3,34.1,34.1,2.5,2.7,2.5725,0.5422210300160791,-0.025891072527068956,0.8258774403605175,0.006756994376067723,-0.105158,-31.450842
11.185,2.0,1.0,1.0,34.3,34.1,34.1,2.5,2.7,2.575,0.5343274162025724,-0.026387470093266436,0.8307955319197204,0.006607247240396203,-0.106717,-31.307951
11.185,2.0,1.0,1.0,34.3,34.1,34.1,2.5,2.7,2.5775,0.5263320364086137,-0.02689360754328997,0.8356691909000346,0.00644898180374727,-0.108313,-31.164206
11.185,2.0,1.0,1.0,34.3,34.1,34.1,2.5,2.7,2.58,0.5182337809796483,-0.02740970037017519,0.8404968080325652,0.006281842510376588,-0.109949,-31.01959
11.185,2.0,1.0,1.0,34.3,34.1,34.1,2.5,2.7,2.5825,0.5100315305849582,-0.02793596920357251,0.8452767226921931,0.006105457785263618,-0.111625,-30.874087
11.185,2.0,1.0,1.0,34.3,34.1,34.1,2.5,2.7,2.585,0.501724156478551,-0.02847263991263356,0.8500072211061754,0.005919439210468848,-0.113343,-30.727678
11.185,2.0,1.0,1.0,34.3,34.1,34.1,2.5,2.7,2.5875,0.4933105207870317,-0.029019943707607743,0.8546865344900303,0.005723380652602896,-0.115105,-30.580345
11.185,2.0,1.0,1.0,34.3,34.1,34.1,2.5,2.7,2.59,0.4847894768262653,-0.02957811723962839,0.8593128371069522,0.005516857338059992,-0.116911,-30.432071
11.185,2.0,1.0,1.0,34.3,34.1,34.1,2.5,2.7,2.5925,0.4761598694487257,-0.030147402698096612,0.86388424424677,0.0052994248724065685,-0.118764,-30.282837
11.185,2.0,1.0,1.0,34.3,34.1,34.1,2.5,2.7,2.595,0.4674205354236215,-0.030728047904988797,0.8683988101201381,0.005070618200030938,-0.120664,-30.132623
11.185,2.0,1.0,1.0,34.3,34.1,34.1,2.5,2.7,2.5975,0.4585703038519677,-0.03132030640532274,0.872854525663413,0.004829950499848865,-0.122615,-29.981409
11.185,2.0,1.0,1.0,34.3,34.1,34.1,2.5,2.7,2.6,0.44960799661899353,-0.03192443755291101,0.8772493162492886,0.004576912012522685,-0.124617,-29.829175
11.185,2.0,1.0,1.0,34.3,34.1,34.1,2.5,2.7,2.6025,0.44053242888644256,-0.03254070659041545,0.8815810392979153,0.004310968794282313,-0.126672,-29.6759
11.185,2.0,1.0,1.0,34.3,34.1,34.1,2.5,2.7,2.605,0.4313424096274886,-0.03316938472258335,0.885847481782877,0.004031561392033597,-0.128783,-29.521562
11.185,2.0,1.0,1.0,34.3,34.1,34.1,2.5,2.7,2.6075,0.422036742207248,-0.03381074918139492,0.8900463576259122,0.003738103434000897,-0.130951,-29.36614
11.185,2.0,1.0,1.0,34.3,34.1,34.1,2.5,2.7,2.61,0.4126142250120806,-0.03446508328168361,0.8941753049738662,0.003429980129669537,-0.133178,-29.209611
11.185,2.0,1.0,1.0,34.3,34.1,34.1,2.5,2.7,2.6125,0.40307365213114,-0.03513267646559933,0.8982318833507995,0.0031065466722686253,-0.135468,-29.051951
11.185,2.0,1.0,1.0,34.3,34.1,34.1,2.5,2.7,2.615,0.3934138140939177,-0.03581382433406738,0.9022135706776645,0.0027671265364592086,-0.137821,-28.893137
11.185,2.0,1.0,1.0,34.3,34.1,34.1,2.5,2.7,2.6175,0.38363349866786683,-0.03650882866314985,0.9061177601513234,0.0024110096632633513,-0.140241,-28.733143
11.185,2.0,1.0,1.0,34.3,34.1,34.1,2.5,2.7,2.62,0.373731491720512,-0.037217997402938144,0.909941756974032,0.0020374505235780513,-0.142731,-28.571944
11.185,2.0,1.0,1.0,34.3,34.1,34.1,2.5,2.7,2.6225,0.36370657815087565,-0.0379416446562908,0.9136827749237747,0.0016456660508601224,-0.145292,-28.409514
11.185,2.0,1.0,1.0,34.3,34.1,34.1,2.5,2.7,2.625,0.35355754289549,-0.0386800906343693,0.917337932755022,0.00123483343273689,-0.147928,-28.245826
11.185,2.0,1.0,1.0,34.3,34.1,34.1,2.5,2.7,2.6275,0.3432831720147177,-0.03943366158552033,0.9209042504186268,0.000804087750380961,-0.150642,-28.080853
11.185,2.0,1.0,1.0,34.3,34.1,34.1,2.5,2.7,2.63,0.3328822538657135,-0.04020268969358878,0.924378645088546,0.0003525194534833256,-0.153438,-27.914564
11.185,2.0,1.0,1.0,34.3,34.1,34.1,2.5,2.7,2.6325,0.3223535803689109,-0.04098751294121691,0.9277579269820707,-0.00012082834244934942,-0.156318,-27.746931
11.185,2.0,1.0,1.0,34.3,34.1,34.1,2.5,2.7,2.635,0.31169594837566367,-0.04178847493308926,0.9310387949589957,-0.0006169627509666038,-0.159286,-27.577923
11.185,2.0,1.0,1.0,34.3,34.1,34.1,2.5,2.7,2.6375,0.30090816114541274,-0.04260592467339264,0.9342178318838926,-0.0011369442175530175,-0.162345,-27.407509
11.185,2.0,1.0,1.0,34.3,34.1,34.1,2.5,2.7,2.64,0.2899890299416244,-0.04344021629098709,0.9372914997342007,-0.0016818898478364258,-0.165501,-27.235655
11.185,2.0,1.0,1.0,34.3,34.1,34.1,2.5,2.7,2.6425,0.27893737575676864,-0.04429170870488491,0.9402561344352283,-0.0022529769800851223,-0.168756,-27.062329
11.185,2.0,1.0,1.0,34.3,34.1,34.1,2.5,2.7,2.645,0.26775203117768176,-0.04516076522162004,0.9431079404014187,-0.0028514470227647606,-0.172117,-26.887495
11.185,2.0,1.0,1.0,34.3,34.1,34.1,2.5,2.7,2.6475,0.25643184240396316,-0.046047753054920405,0.9458429847612488,-0.003478609579928073,-0.175586,-26.711117
11.185,2.0,1.0,1.0,34.3,34.1,34.1,2.5,2.7,2.65,0.24497567143345353,-0.046953042756762216,0.9484571912409756,-0.004135846889428269,-0.179169,-26.533159
11.185,2.0,1.0,1.0,34.3,34.1,34.1,2.5,2.7,2.6525,0.23338239843055222,-0.04787700754734517,0.9509463336800164,-0.004824618601399433,-0.182873,-26.353581
11.185,2.0,1.0,1.0,34.3,34.1,34.1,2.5,2.7,2.655,0.22165092429491554,-0.04882002252977524,0.9533060291480878,-0.00554646692717427,-0.186701,-26.172343
11.185,2.0,1.0,1.0,34.3,34.1,34.1,2.5,2.7,2.6575,0.20978017345027983,-0.04978246377320826,0.9555317306312296,-0.006303022191825767,-0.19066,-25.989405
11.185,2.0,1.0,1.0,34.3,34.1,34.1,2.5,2.7,2.66,0.19776909687556657,-0.050764707245882924,0.9576187192505605,-0.007096008826876058,-0.194757,-25.804723
11.185,2.0,1.0,1.0,34.3,34.1,34.1,2.5,2.7,2.6625,0.18561667540325077,-0.05176712757678307,0.9595620959738915,-0.007927251843440255,-0.198998,-25.618254
11.185,2.0,1.0,1.0,34.3,34.1,34.1,2.5,2.7,2.665,0.17332192331315818,-0.052790096621570866,0.9613567727762451,-0.008798683830219554,-0.20339,-25.42995
11.185,2.0,1.0,1.0,34.3,34.1,34.1,2.5,2.7,2.6675,0.16088389225361155,-0.05383398180484829,0.9629974632007438,-0.009712352525365411,-0.207942,-25.239764
11.185,2.0,1.0,1.0,34.3,34.1,34.1,2.5,2.7,2.67,0.14830167552607973,-0.05489914420666474,0.9644786722662164,-0.010670429016374034,-0.212661,-25.047646
11.185,2.0,1.0,1.0,34.3,34.1,34.1,2.5,2.7,2.6725,0.13557441277442156,-0.05598593635638493,0.9657946856622005,-0.011675216627889,-0.217556,-24.853545
11.185,2.0,1.0,1.0,34.3,34.1,34.1,2.5,2.7,2.675,0.12270129512554595,-0.05709469969146064,0.9669395581656409,-0.012729160563665314,-0.222637,-24.657408
11.185,2.0,1.0,1.0,34.3,34.1,34.1,2.5,2.7,2.6775,0.1096815708349033,-0.05822576163217856,0.9679071012064827,-0.013834858376062516,-0.227914,-24.459178
11.185,2.0,1.0,1.0,34.3,34.1,34.1,2.5,2.7,2.68,0.09651455149790761,-0.05937943221592622,0.968690869501424,-0.01499507134436879,-0.233396,-24.258797
11.185,2.0,1.0,1.0,34.3,34.1,34.1,2.5,2.7,2.6825,0.08319961889733904,-0.06055600022573859,0.9692841466662176,-0.01621273685211546,-0.239097,-24.056205
11.185,2.0,1.0,1.0,34.3,34.1,34.1,2.5,2.7,2.685,0.06973623256718008,-0.06175572873764591,0.9696799297069703,-0.017490981863434747,-0.245028,-23.851339
11.185,2.0,1.0,1.0,34.3,34.1,34.1,2.5,2.7,2.6875,0.0561239381654637,-0.0629788499993667,0.969870912279827,-0.0188331376095561,-0.251203,-23.644135
11.185,2.0,1.0,1.0,34.3,34.1,34.1,2.5,2.7,2.69,0.042362376763020626,-0.06422555953886429,0.9698494665959551,-0.02024275560887127,-0.257635,-23.434522
11.185,2.0,1.0,1.0,34.3,34.1,34.1,2.5,2.7,2.6925,0.02845129517155153,-0.06549600938484197,0.9696076238349203,-0.021723625157775386,-0.264342,-23.222432
11.185,2.0,1.0,1.0,34.3,34.1,34.1,2.5,2.7,2.695,0.014390557454129229,-0.06679030026191966,0.9691370529139969,-0.02327979244485764,-0.271339,-23.007788
11.185,2.0,1.0,1.0,34.3,34.1,34.1,2.5,2.7,2.6975,0.0001801577841431518,-0.06810847260050257,0.9684290374436257,-0.02491558145817852,-0.278644,-22.790514
11.185,2.0,1.0,1.0,34.3,34.1,34.1,2.5,2.7,2.7,-0.014179765154119296,-0.06945049617452785,0.9674744506799031,-0.02663561687447915,-0.286277,-22.570529
11.185,2.0,1.0,1.0,34.3,34.1,34.1,2.5,2.7,2.7025,-0.028688911998095767,-0.07081625814861366,0.96626372826338,-0.028444849140466265,-0.29426,-22.347748
11.185,2.0,1.0,1.0,34.3,34.1,34.1,2.5,2.7,2.705,-0.043346804509751515,-0.07220554927865656,0.9647868385094946,-0.030348581979975253,-0.302615,-22.122082
11.185,2.0,1.0,1.0,34.3,34.1,34.1,2.5,2.7,2.7075,-0.058152765040633415,-0.07361804796550322,0.963033249989206,-0.032352502587071875,-0.311367,-21.893441
11.185,2.0,1.0,1.0,34.3,34.1,34.1,2.5,2.7,2.71,-0.07310589329801395,-0.07505330180855835,0.9609918961089592,-0.034462714794192176,-0.320545,-21.661725
11.185,2.0,1.0,1.0,34.3,34.1,34.1,2.5,2.7,2.7125,-0.08820503998751515,-0.07651070624340875,0.9586511363663803,-0.03668577553644067,-0.330177,-21.426835
11.185,2.0,1.0,1.0,34.3,34.1,34.1,2.5,2.7,2.715,-0.10344877683202407,-0.07798947977268417,0.9559987139223565,-0.03902873496829261,-0.340296,-21.188665
11.185,2.0,1.0,1.0,34.3,34.1,34.1,2.5,2.7,2.7175,-0.11883536237642603,-0.07948863520995857,0.9530217090909097,-0.04149918062726471,-0.350938,-20.947102
11.185,2.0,1.0,1.0,34.3,34.1,34.1,2.5,2.7,2.72,-0.1343627028795481,-0.08100694624945039,0.9497064883059004,-0.044105286080573625,-0.362142,-20.702031
11.185,2.0,1.0,1.0,34.3,34.1,34.1,2.5,2.7,2.7225,-0.150028307465104,-0.08254290854592837,0.9460386480779643,-0.04685586453520689,-0.373951,-20.453329
11.185,2.0,1.0,1.0,34.3,34.1,34.1,2.5,2.7,2.725,-0.16582923654758366,-0.0840946943349591,0.9420029534069303,-0.04976042793868203,-0.386411,-20.200868
11.185,2.0,1.0,1.0,34.3,34.1,34.1,2.5,2.7,2.7275,-0.18176204236143104,-0.08566009943792202,0.9375832700648364,-0.052829252146296926,-0.399576,-19.944513
11.185,2.0,1.0,1.0,34.3,34.1,34.1,2.5,2.7,2.73,-0.1978227001954774,-0.08723648127215758,0.9327624901141157,-0.05607344877943591,-0.413503,-19.684124
11.185,2.0,1.0,1.0,34.3,34.1,34.1,2.5,2.7,2.7325,-0.21400652866094036,-0.08882068621583063,0.9275224499764597,-0.05950504444644733,-0.428255,-19.419551
11.185,2.0,1.0,1.0,34.3,34.1,34.1,2.5,2.7,2.735,-0.23030809698991744,-0.09040896434919309,0.9218438403236668,-0.06313706803948502,-0.443902,-19.150639
11.185,2.0,1.0,1.0,34.3,34.1,34.1,2.5,2.7,2.7375,-0.24672111695923057,-0.0919968691962157,0.9157061070268918,-0.06698364685284953,-0.460524,-18.877224
11.185,2.0,1.0,1.0,34.3,34.1,34.1,2.5,2.7,2.74,-0.2632383165458505,-0.09357913960731541,0.9090873423822456,-0.07106011228389775,-0.478208,-18.599134
11.185,2.0,1.0,1.0,34.3,34.1,34.1,2.5,2.7,2.7425,-0.2798512918255326,-0.09514956033591922,0.9019641658381321,-0.07538311586674491,-0.497052,-18.316188
11.185,2.0,1.0,1.0,34.3,34.1,34.1,2.5,2.7,2.745,-0.2965503329014678,-0.09670079714515839,0.894311593497327,-0.07997075633775685,-0.517165,-18.028197
11.185,2.0,1.0,1.0,34.3,34.1,34.1,2.5,2.7,2.7475,-0.3133242187656806,-0.09822420140713325,0.8861028957742481,-0.08484271832050425,-0.53867,-17.73496
11.185,2.0,1.0,1.0,34.3,34.1,34.1,2.5,2.7,2.75,-0.330159974916176,-0.0997095780904846,0.877309442783068,-0.0900204230185712,-0.561705,-17.436268
11.185,2.0,1.0,1.0,34.3,34.1,34.1,2.5,2.7,2.7525,-0.34704258623428613,-0.10114490972945994,0.8679005373546796,-0.0955271909783069,-0.586427,-17.131903
11.185,2.0,1.0,1.0,34.3,34.1,34.1,2.5,2.7,2.755,-0.36395465601604954,-0.1025160273773495,0.8578432360849766,-0.10138841647552387,-0.613012,-16.821633
11.185,2.0,1.0,1.0,34.3,34.1,34.1,2.5,2.7,2.7575,-0.3808760000862648,-0.103806217607196,0.847102159580489,-0.10763175231376508,-0.641661,-16.505219
11.185,2.0,1.0,1.0,34.3,34.1,34.1,2.5,2.7,2.76,-0.39778316252961465,-0.10499575226026091,0.8356392941979462,-0.11428730269014081,-0.672602,-16.182408
11.185,2.0,1.0,1.0,34.3,34.1,34.1,2.5,2.7,2.7625,-0.4146488366650783,-0.1060613247743074,0.8234137892217098,-0.12138782013892828,-0.706097,-15.852939
11.185,2.0,1.0,1.0,34.3,34.1,34.1,2.5,2.7,2.765,-0.4314411713728902,-0.10697537345672789,0.8103817557967827,-0.12896890019550614,-0.742445,-15.516538
11.185,2.0,1.0,1.0,34.3,34.1,34.1,2.5,2.7,2.7675,-0.4481229386584246,-0.10770526790519547,0.7964960773262841,-0.13706916404523956,-0.78199,-15.172924
11.185,2.0,1.0,1.0,34.3,34.1,34.1,2.5,2.7,2.77,-0.46465053331163153,-0.10821232983061092,0.7817062458550218,-0.14573041463319475,-0.82513,-14.821807
11.185,2.0,1.0,1.0,34.3,34.1,34.1,2.5,2.7,2.7725,-0.4809727696267811,-0.10845065374018686,0.7659582457549071,-0.15499774495696358,-0.872324,-14.462887
11.185,2.0,1.0,1.0,34.3,34.1,34.1,2.5,2.7,2.775,-0.49702943338171945,-0.10836568629239635,0.7491945155748297,-0.16491956778295047,-0.924109,-14.095864
11.185,2.0,1.0,1.0,34.3,34.1,34.1,2.5,2.7,2.7775,-0.5127495397613956,-0.10789251576698096,0.7313540322750217,-0.1755475227701741,-0.98111,-13.720433
11.185,2.0,1.0,1.0,34.3,34.1,34.1,2.5,2.7,2.78,-0.5280492400052638,-0.10695381536338519,0.7123725806716691,-0.18693619853400903,-1.044058,-13.336294
11.185,2.0,1.0,1.0,34.3,34.1,34.1,2.5,2.7,2.7825,-0.5428293120345743,-0.10545737672330756,0.6921832967024453,-0.19914258162840762,-1.113817,-12.943156
11.185,2.0,1.0,1.0,34.3,34.1,34.1,2.5,2.7,2.785,-0.5569721646520931,-0.10329316464240147,0.6707176086343726,-0.21222510925602794,-1.191406,-12.540748
11.185,2.0,1.0,1.0,34.3,34.1,34.1,2.5,2.7,2.7875,-0.5703382837533331,-0.10032982303042313,0.647906748842018,-0.2262421545083862,-1.278036,-12.128827
11.185,2.0,1.0,1.0,34.3,34.1,34.1,2.5,2.7,2.79,-0.5827620568965284,-0.09641057032019994,0.6236840743073475,-0.24124970813529353,-1.375147,-11.707193
11.185,2.0,1.0,1.0,34.3,34.1,34.1,2.5,2.7,2.7925,-0.5940469371107252,-0.09134844721904838,0.5979885211280163,-0.257297934733268,-1.484469,-11.275712
11.185,2.0,1.0,1.0,34.3,34.1,34.1,2.5,2.7,2.795,-0.6039599601916854,-0.08492093304764903,0.5707696315975742,-0.2744261694019516,-1.608076,-10.83434
11.185,2.0,1.0,1.0,34.3,34.1,34.1,2.5,2.7,2.7975,-0.6122257310986187,-0.07686404788822458,0.5419947347352653,-0.2926557805706244,-1.748475,-10.383156
11.185,2.0,1.0,1.0,34.3,34.1,34.1,2.5,2.7,2.8,-0.6185201734628837,-0.06686623509152724,0.5116590304283314,-0.31198015802401297,-1.9087,-9.922407
11.185,2.0,1.0,1.0,34.3,34.1,34.1,2.5,2.7,2.8025,-0.6224646337676183,-0.054562613978691346,0.4797995101361542,-0.3323509056841181,-2.092436,-9.45256
11.185,2.0,1.0,1.0,34.3,34.1,34.1,2.5,2.7,2.805,-0.6236214056719505,-0.03953066226166819,0.4465138069091338,-0.35365916279987797,-2.304172,-8.974378
11.185,2.0,1.0,1.0,34.3,34.1,34.1,2.5,2.7,2.8075,-0.6214924598874719,-0.0212891003419494,0.41198512544657945,-0.3757109232041729,-2.549372,-8.489002
11.185,2.0,1.0,1.0,34.3,34.1,34.1,2.5,2.7,2.81,-0.6155241981265787,0.0006972290238627006,0.37651420866015894,-0.3981954193430325,-2.834683,-7.998061
11.185,2.0,1.0,1.0,34.3,34.1,34.1,2.5,2.7,2.8125,-0.605122419291814,0.0270023402855566,0.34055859158363,-0.420646342379674,-3.168149,-7.503799
11.185,2.0,1.0,1.0,34.3,34.1,34.1,2.5,2.7,2.815,-0.5896832819574664,0.0582082269914931,0.30477777717805293,-0.4423972763923672,-3.559399,-7.00921
11.185,2.0,1.0,1.0,34.3,34.1,34.1,2.5,2.7,2.8175,-0.5686474617178866,0.09485102380216216,0.2700799178782994,-0.46253574982642925,-4.019725,-6.518197
11.185,2.0,1.0,1.0,34.3,34.1,34.1,2.5,2.7,2.82,-0.5415849893194349,0.1373368454483484,0.23766060665063032,-0.4798652362244517,-4.561841,-6.035704
11.185,2.0,1.0,1.0,34.3,34.1,34.1,2.5,2.7,2.8225,-0.5083156968704636,0.1858225036165771,0.20901744444520426,-0.492891287922562,-5.198879,-5.567811
11.185,2.0,1.0,1.0,34.3,34.1,34.1,2.5,2.7,2.825,-0.4690623617103831,0.24006409336874113,0.18591646186278213,-0.49985545857034486,-5.941682,-5.121743
11.185,2.0,1.0,1.0,34.3,34.1,34.1,2.5,2.7,2.8275,-0.42461831225558655,0.2992516250873561,0.17028203930446403,-0.49884498510378716,-6.792377,-4.705724
11.185,2.0,1.0,1.0,34.3,34.1,34.1,2.5,2.7,2.83,-0.3764889643939738,0.3618699120440593,0.16398760036542862,-0.48800052391707416,-7.7305,-4.328626
