1,w,sub_t,h,l1,l2,l3,g1,g2,Freq,S11_re,S21_re,S11_img,S21_img,S11_dB,S21_dB
11.185,2.0,1.0,1.0,33.1,34.5,34.5,3.7,3.5,2.5,0.888763198008884,-0.00503570159229933,0.445310511249852,0.00430200729785078,-0.051545,-43.578763
11.185,2.0,1.0,1.0,33.1,34.5,34.5,3.7,3.5,2.5025,0.8859561533954098,-0.005145242647227057,0.45074828266448747,0.004330063604469267,-0.052025,-43.446409
11.185,2.0,1.0,1.0,33.1,34.5,34.5,3.7,3.5,2.505,0.8831044769868852,-0.005257001766957779,0.45618810666565196,0.004357916038809769,-0.052514,-43.313579
11.185,2.0,1.0,1.0,33.1,34.5,34.5,3.7,3.5,2.5075,0.8802077380897937,-0.0053710361134132485,0.4616298448541778,0.004385551366734912,-0.053012,-43.180257
11.185,2.0,1.0,1.0,33.1,34.5,34.5,3.7,3.5,2.51,0.8772654979578505,-0.0054874048950097325,0.4670733545789881,0.00441295574807173,-0.05352,-43.046428
11.185,2.0,1.0,1.0,33.1,34.5,34.5,3.7,3.5,2.5125,0.8742773095946863,-0.005606169460135556,0.47251848878572933,0.004440114704065815,-0.054037,-42.912074
11.185,2.0,1.0,1.0,33.1,34.5,34.5,3.7,3.5,2.515,0.8712427175494357,-0.005727393395815739,0.47796509585969077,0.004467013082783243,-0.054565,-42.777179
11.185,2.0,1.0,1.0,33.1,34.5,34.5,3.7,3.5,2.5175,0.8681612577048529,-0.005851142631901834,0.4834130194627215,0.004493635022309374,-0.055103,-42.641726
11.185,2.0,1.0,1.0,33.1,34.5,34.5,3.7,3.5,2.52,0.8650324570575446,-0.005977485551151283,0.4888620983638784,0.004519963911581436,-0.055652,-42.505698
11.185,2.0,1.0,1.0,33.1,34.5,34.5,3.7,3.5,2.5225,0.8618558334898976,-0.006106493105587104,0.4943121662634735,0.004545982348676667,-0.056213,-42.369075
11.185,2.0,1.0,1.0,33.1,34.5,34.5,3.7,3.5,2.525,0.8586308955332261,-0.006238238939559645,0.49976305161021783,0.004571672096364209,-0.056784,-42.23184
11.185,2.0,1.0,1.0,33.1,34.5,34.5,3.7,3.5,2.5275,0.8553571421216467,-0.00637279951996355,0.505214577411106,0.004597014034710515,-0.057367,-42.093974
11.185,2.0,1.0,1.0,33.1,34.5,34.5,3.7,3.5,2.53,0.8520340623361417,-0.006510254274099046,0.5106665610336659,0.004621988110511177,-0.057962,-41.955458
11.185,2.0,1.0,1.0,33.1,34.5,34.5,3.7,3.5,2.5325,0.848661135138244,-0.006650685735704501,0.516118814000186,0.0046465732833012,-0.05857,-41.816272
11.185,2.0,1.0,1.0,33.1,34.5,34.5,3.7,3.5,2.535,0.8452378290927147,-0.006794179699728907,0.5215711417734967,0.004670747467673635,-0.05919,-41.676395
11.185,2.0,1.0,1.0,33.1,34.5,34.5,3.7,3.5,2.5375,0.8417636020785579,-0.006940825386458808,0.5270233435338443,0.0046944874716124884,-0.059824,-41.535808
11.185,2.0,1.0,1.0,33.1,34.5,34.5,3.7,3.5,2.54,0.8382379009876536,-0.007090715615662906,0.5324752119463841,0.0047177689305188154,-0.060471,-41.394488
11.185,2.0,1.0,1.0,33.1,34.5,34.5,3.7,3.5,2.5425,0.8346601614102324,-0.007243946991472346,0.5379265329187645,0.004740566236579449,-0.061132,-41.252415
11.185,2.0,1.0,1.0,33.1,34.5,34.5,3.7,3.5,2.545,0.8310298073063629,-0.0074006200987729856,0.5433770853482469,0.0047628524630947385,-0.061807,-41.109565
11.185,2.0,1.0,1.0,33.1,34.5,34.5,3.7,3.5,2.5475,0.8273462506625552,-0.007560839711950904,0.5488266408577518,0.00478459928334698,-0.062497,-40.965915
11.185,2.0,1.0,1.0,33.1,34.5,34.5,3.7,3.5,2.55,0.823608891132497,-0.0077247150169022175,0.5542749635201976,0.004805776883549559,-0.063203,-40.821443
11.185,2.0,1.0,1.0,33.1,34.5,34.5,3.7,3.5,2.5525,0.8198171156608839,-0.007892359847295914,0.5597218095704122,0.004826353869374399,-0.063925,-40.676123
11.185,2.0,1.0,1.0,33.1,34.5,34.5,3.7,3.5,2.555,0.8159702980891934,-0.008063892936162524,0.5651669271038785,0.0048462971655056425,-0.064663,-40.529931
11.185,2.0,1.0,1.0,33.1,34.5,34.5,3.7,3.5,2.5575,0.8120677987421729,-0.008239438183974265,0.5706100557614959,0.004865571907613715,-0.065417,-40.382841
11.185,2.0,1.0,1.0,33.1,34.5,34.5,3.7,3.5,2.56,0.8081089639937016,-0.008419124944483328,0.5760509263994587,0.004884141326083435,-0.06619,-40.234827
11.185,2.0,1.0,1.0,33.1,34.5,34.5,3.7,3.5,2.5625,0.804093125810571,-0.00860308832969744,0.581489260743307,0.00490196662076405,-0.06698,-40.08586
11.185,2.0,1.0,1.0,33.1,34.5,34.5,3.7,3.5,2.565,0.8000196012726031,-0.008791469535493406,0.5869247710251022,0.004919006825933235,-0.06779,-39.935914
11.185,2.0,1.0,1.0,33.1,34.5,34.5,3.7,3.5,2.5675,0.7958876920673881,-0.00898441618950544,0.5923571596025858,0.004935218664586168,-0.068618,-39.78496
11.185,2.0,1.0,1.0,33.1,34.5,34.5,3.7,3.5,2.57,0.7916966839577678,-0.00918208272307255,0.5977861185590979,0.0049505563910668595,-0.069467,-39.632967
11.185,2.0,1.0,1.0,33.1,34.5,34.5,3.7,3.5,2.5725,0.7874458462200227,-0.009384630769194217,0.6032113292828964,0.0049649716209571974,-0.070336,-39.479904
11.185,2.0,1.0,1.0,33.1,34.5,34.5,3.7,3.5,2.575,0.7831344310505349,-0.00959222958862385,0.6086324620244112,0.0049784131470232505,-0.071228,-39.32574
11.185,2.0,1.0,1.0,33.1,34.5,34.5,3.7,3.5,2.5775,0.778761672938501,-0.009805056526429098,0.6140491754298156,0.004990826739889767,-0.072141,-39.170442
11.185,2.0,1.0,1.0,33.1,34.5,34.5,3.7,3.5,2.58,0.7743267880020284,-0.010023297501569915,0.6194611160491437,0.0050021549319694825,-0.073078,-39.013976
11.185,2.0,1.0,1.0,33.1,34.5,34.5,3.7,3.5,2.5825,0.7698289732847075,-0.010247147532288734,0.6248679178170219,0.005012336783011477,-0.074038,-38.856307
11.185,2.0,1.0,1.0,33.1,34.5,34.5,3.7,3.5,2.585,0.7652674060094763,-0.010476811300379271,0.630269201503868,0.005021307625451394,-0.075024,-38.697399
11.185,2.0,1.0,1.0,33.1,34.5,34.5,3.7,3.5,2.5875,0.7606412427862734,-0.010712503757700298,0.6356645741352147,0.005028998787540432,-0.076035,-38.537213
11.185,2.0,1.0,1.0,33.1,34.5,34.5,3.7,3.5,2.59,0.7559496187696475,-0.010954450778635019,0.6410536283765498,0.005035337292000563,-0.077074,-38.375712
11.185,2.0,1.0,1.0,33.1,34.5,34.5,3.7,3.5,2.5925,0.7511916467621016,-0.011202889862568413,0.6464359418808164,0.005040245527692027,-0.078141,-38.212854
11.185,2.0,1.0,1.0,33.1,34.5,34.5,3.7,3.5,2.595,0.7463664162585363,-0.011458070890867398,0.6518110765953777,0.0050436408914853546,-0.079237,-38.048598
11.185,2.0,1.0,1.0,33.1,34.5,34.5,3.7,3.5,2.5975,0.7414729924266696,-0.011720256943310421,0.657178578024936,0.0050454353971973905,-0.080363,-37.8829
11.185,2.0,1.0,1.0,33.1,34.5,34.5,3.7,3.5,2.6,0.7365104150178003,-0.01198972517942664,0.6625379744464807,0.005045535248073656,-0.081521,-37.715716
11.185,2.0,1.0,1.0,33.1,34.5,34.5,3.7,3.5,2.6025,0.7314776972016949,-0.012266767790778649,0.6678887760718956,0.005043840368870279,-0.082712,-37.546998
11.185,2.0,1.0,1.0,33.1,34.5,34.5,3.7,3.5,2.605,0.7263738243187051,-0.01255169303086694,0.6732304741533753,0.005040243893103948,-0.083938,-37.376698
11.185,2.0,1.0,1.0,33.1,34.5,34.5,3.7,3.5,2.6075,0.7211977525415074,-0.012844826330051807,0.6785625400261983,0.0050346316004816335,-0.085199,-37.204766
11.185,2.0,1.0,1.0,33.1,34.5,34.5,3.7,3.5,2.61,0.7159484074380262,-0.013146511503697101,0.6838844240827749,0.005026881298891836,-0.086498,-37.031149
11.185,2.0,1.0,1.0,33.1,34.5,34.5,3.7,3.5,2.6125,0.7106246824261697,-0.013457112062645942,0.6891955546711429,0.0050168621446150755,-0.087837,-36.855792
11.185,2.0,1.0,1.0,33.1,34.5,34.5,3.7,3.5,2.615,0.705225437109978,-0.013777012636158019,0.6944953369102373,0.005004433893585957,-0.089217,-36.678638
11.185,2.0,1.0,1.0,33.1,34.5,34.5,3.7,3.5,2.6175,0.6997494954856162,-0.014106620518585708,0.6997831514132852,0.004989446075590273,-0.090639,-36.499628
11.185,2.0,1.0,1.0,33.1,34.5,34.5,3.7,3.5,2.62,0.6941956440043113,-0.014446367352360589,0.7050583529095775,0.004971737082191333,-0.092107,-36.318699
11.185,2.0,1.0,1.0,33.1,34.5,34.5,3.7,3.5,2.6225,0.6885626294778607,-0.01479671096132451,0.7103202687535953,0.004951133157927498,-0.093622,-36.135788
11.185,2.0,1.0,1.0,33.1,34.5,34.5,3.7,3.5,2.625,0.682849156810655,-0.0151581373500907,0.715568197308981,0.00492744728287546,-0.095187,-35.950827
11.185,2.0,1.0,1.0,33.1,34.5,34.5,3.7,3.5,2.6275,0.677053886540236,-0.015531162886995657,0.7208014061931848,0.004900477933004637,-0.096804,-35.763746
11.185,2.0,1.0,1.0,33.1,34.5,34.5,3.7,3.5,2.63,0.671175432166283,-0.015916336690323718,0.7260191303666249,0.004870007702812784,-0.098476,-35.574469
11.185,2.0,1.0,1.0,33.1,34.5,34.5,3.7,3.5,2.6325,0.6652123572454353,-0.01631424323990191,0.7312205700479592,0.004835801772487874,-0.100205,-35.382922
11.185,2.0,1.0,1.0,33.1,34.5,34.5,3.7,3.5,2.635,0.6591631722265971,-0.01672550523890705,0.7364048884344113,0.0047976061992311995,-0.101996,-35.189021
11.185,2.0,1.0,1.0,33.1,34.5,34.5,3.7,3.5,2.6375,0.6530263309981829,-0.017150786753857804,0.7415712092030344,0.004755146009331811,-0.10385,-34.992684
11.185,2.0,1.0,1.0,33.1,34.5,34.5,3.7,3.5,2.64,0.6468002271151212,-0.017590796664337417,0.7467186137652294,0.004708123064027576,-0.105772,-34.793821
11.185,2.0,1.0,1.0,33.1,34.5,34.5,3.7,3.5,2.6425,0.6404831896693264,-0.018046292458077283,0.751846138242619,0.004656213668022913,-0.107766,-34.59234
11.185,2.0,1.0,1.0,33.1,34.5,34.5,3.7,3.5,2.645,0.6340734787625691,-0.018518084411711728,0.7569527701274914,0.0045990658846439825,-0.109835,-34.388141
11.185,2.0,1.0,1.0,33.1,34.5,34.5,3.7,3.5,2.6475,0.6275692805352581,-0.01900704020288217,0.7620374445852389,0.004536296515855515,-0.111984,-34.181123
11.185,2.0,1.0,1.0,33.1,34.5,34.5,3.7,3.5,2.65,0.6209687016983765,-0.019514090005539927,0.7670990403494201,0.00446748769857284,-0.114218,-33.971176
11.185,2.0,1.0,1.0,33.1,34.5,34.5,3.7,3.5,2.6525,0.6142697635086567,-0.020040232127395956,0.7721363751519869,0.004392183060662264,-0.116543,-33.758188
11.185,2.0,1.0,1.0,33.1,34.5,34.5,3.7,3.5,2.655,0.6074703951187382,-0.020586539256660832,0.7771482006217167,0.004309883370486034,-0.118963,-33.542038
11.185,2.0,1.0,1.0,33.1,34.5,34.5,3.7,3.5,2.6575,0.600568426224526,-0.021154165394674757,0.7821331965724877,0.0042200416024939895,-0.121485,-33.3226
11.185,2.0,1.0,1.0,33.1,34.5,34.5,3.7,3.5,2.66,0.5935615789208564,-0.021744353561978978,0.7870899645895101,0.004122057327813176,-0.124115,-33.099739
11.185,2.0,1.0,1.0,33.1,34.5,34.5,3.7,3.5,2.6625,0.5864474586637702,-0.022358444378066212,0.7920170208053942,0.004015270322561373,-0.126861,-32.873314
11.185,2.0,1.0,1.0,33.1,34.5,34.5,3.7,3.5,2.665,0.5792235442227643,-0.0229978856297831,0.7969127877384878,0.003898953267116772,-0.129732,-32.643176
11.185,2.0,1.0,1.0,33.1,34.5,34.5,3.7,3.5,2.6675,0.5718871764891107,-0.023664242960488628,0.801775585042432,0.0037723033860896727,-0.132735,-32.409166
11.185,2.0,1.0,1.0,33.1,34.5,34.5,3.7,3.5,2.67,0.5644355459861267,-0.024359211832029513,0.8066036189875628,0.0036344328503315933,-0.13588,-32.171117
11.185,2.0,1.0,1.0,33.1,34.5,34.5,3.7,3.5,2.6725,0.5568656789037686,-0.025084630934870608,0.8113949704603793,0.003484357727847908,-0.139178,-31.92885
11.185,2.0,1.0,1.0,33.1,34.5,34.5,3.7,3.5,2.675,0.5491744214524614,-0.025842497248907352,0.8161475812254186,0.003320985228487646,-0.14264,-31.682175
11.185,2.0,1.0,1.0,33.1,34.5,34.5,3.7,3.5,2.6775,0.541358422298912,-0.02663498298928741,0.8208592381427027,0.003143098935950401,-0.146279,-31.430891
11.185,2.0,1.0,1.0,33.1,34.5,34.5,3.7,3.5,2.68,0.5334141128090625,-0.027464454708795247,0.8255275549710981,0.0029493416576327554,-0.15011,-31.174784
11.185,2.0,1.0,1.0,33.1,34.5,34.5,3.7,3.5,2.6825,0.5253376847792595,-0.028333494871969667,0.8301499513105388,0.0027381954451789255,-0.154148,-30.913624
11.185,2.0,1.0,1.0,33.1,34.5,34.5,3.7,3.5,2.685,0.517125065285028,-0.029244926267252096,0.8347236281402873,0.002507958242479642,-0.15841,-30.647167
11.185,2.0,1.0,1.0,33.1,34.5,34.5,3.7,3.5,2.6875,0.508771888216273,-0.0302018396833901,0.839245539291368,0.00225671649838088,-0.162917,-30.375152
11.185,2.0,1.0,1.0,33.1,34.5,34.5,3.7,3.5,2.69,0.5002734619967306,-0.031207625346529957,0.8437123580426749,0.0019823129321610232,-0.167689,-30.097298
11.185,2.0,1.0,1.0,33.1,34.5,34.5,3.7,3.5,2.6925,0.49162473290237213,-0.032266008696575935,0.8481204378438172,0.0016823084526394801,-0.172752,-29.813305
11.185,2.0,1.0,1.0,33.1,34.5,34.5,3.7,3.5,2.695,0.4828202432964385,-0.033381091177268514,0.852465765932661,0.0013539369957679807,-0.178133,-29.522851
11.185,2.0,1.0,1.0,33.1,34.5,34.5,3.7,3.5,2.6975,0.47385408398576806,-0.034557396825934936,0.8567439083177161,0.0009940517464878949,-0.183862,-29.225588
11.185,2.0,1.0,1.0,33.1,34.5,34.5,3.7,3.5,2.7,0.46471983977240117,-0.035799925577766706,0.8609499442160448,0.0005990608296612389,-0.189976,-28.921142
11.185,2.0,1.0,1.0,33.1,34.5,34.5,3.7,3.5,2.7025,0.4554105271242765,-0.03711421434725969,0.8650783875514215,0.0001648500669241888,-0.196514,-28.609109
11.185,2.0,1.0,1.0,33.1,34.5,34.5,3.7,3.5,2.705,0.445918522718674,-0.038506407116687374,0.8691230924914428,-0.0003133102322289249,-0.203523,-28.289053
11.185,2.0,1.0,1.0,33.1,34.5,34.5,3.7,3.5,2.7075,0.4362354814225311,-0.03998333544711165,0.8730771391911764,-0.0008408782911871752,-0.211053,-27.960499
11.185,2.0,1.0,1.0,33.1,34.5,34.5,3.7,3.5,2.71,0.42635224206894645,-0.04155261102725034,0.8769326948535169,-0.0014241786063936,-0.219167,-27.622935
11.185,2.0,1.0,1.0,33.1,34.5,34.5,3.7,3.5,2.7125,0.41625871917815555,-0.0432227320798611,0.8806808438293152,-0.0020705707069789882,-0.227933,-27.275801
11.185,2.0,1.0,1.0,33.1,34.5,34.5,3.7,3.5,2.715,0.4059437785726883,-0.04500320563501448,0.8843113786488462,-0.0027886570721577463,-0.237431,-26.918487
11.185,2.0,1.0,1.0,33.1,34.5,34.5,3.7,3.5,2.7175,0.3953950946844558,-0.04690468781956987,0.8878125414419271,-0.003588540787652355,-0.247758,-26.550328
11.185,2.0,1.0,1.0,33.1,34.5,34.5,3.7,3.5,2.72,0.3845989873071189,-0.04893914434017636,0.8911707019464442,-0.004482146791047871,-0.259023,-26.170596
11.185,2.0,1.0,1.0,33.1,34.5,34.5,3.7,3.5,2.7225,0.37354023571574013,-0.05112003314582196,0.8943699539156434,-0.005483624959536179,-0.271356,-25.77849
11.185,2.0,1.0,1.0,33.1,34.5,34.5,3.7,3.5,2.725,0.3622018686381076,-0.05346251066202112,0.8973916057786849,-0.00660985926727838,-0.284913,-25.37313
11.185,2.0,1.0,1.0,33.1,34.5,34.5,3.7,3.5,2.7275,0.3505649298248748,-0.055983661681358626,0.9002135332715603,-0.00788111539952349,-0.29988,-24.953549
11.185,2.0,1.0,1.0,33.1,34.5,34.5,3.7,3.5,2.73,0.33860822144925823,-0.05870275044799512,0.9028093505622319,-0.009321870431724673,-0.316477,-24.518674
11.185,2.0,1.0,1.0,33.1,34.5,34.5,3.7,3.5,2.7325,0.32630803215415866,-0.06164148579492057,0.9051473408987233,-0.010961883710682196,-0.334975,-24.067321
11.185,2.0,1.0,1.0,33.1,34.5,34.5,3.7,3.5,2.735,0.3136378647593325,-0.06482428486441169,0.9071890662357975,-0.012837589686717082,-0.355703,-23.598176
11.185,2.0,1.0,1.0,33.1,34.5,34.5,3.7,3.5,2.7375,0.30056819301904225,-0.06827850536753553,0.9088875451231769,-0.014993923659949383,-0.379065,-23.109779
11.185,2.0,1.0,1.0,33.1,34.5,34.5,3.7,3.5,2.74,0.2870663018227508,-0.07203459104363814,0.9101848458232521,-0.017486733754784878,-0.405562,-22.600506
11.185,2.0,1.0,1.0,33.1,34.5,34.5,3.7,3.5,2.7425,0.2730963085755252,-0.07612603119683006,0.9110088823026171,-0.02038599177284292,-0.435824,-22.068552
11.185,2.0,1.0,1.0,33.1,34.5,34.5,3.7,3.5,2.745,0.2586195387030803,-0.08058895931229389,0.9112691180231861,-0.023780098242312666,-0.470645,-21.511908
11.185,2.0,1.0,1.0,33.1,34.5,34.5,3.7,3.5,2.7475,0.24359555917754533,-0.08546108378949725,0.9108507687557135,-0.0277816904869592,-0.511041,-20.928349
11.185,2.0,1.0,1.0,33.1,34.5,34.5,3.7,3.5,2.75,0.227984403100166,-0.0907794131397347,0.909606944093679,-0.0325355135653854,-0.558325,-20.315422
11.185,2.0,1.0,1.0,33.1,34.5,34.5,3.7,3.5,2.7525,0.2117509214284278,-0.0965758325862098,0.9073479782445166,-0.03822910184148855,-0.614208,-19.670447
11.185,2.0,1.0,1.0,33.1,34.5,34.5,3.7,3.5,2.755,0.1948729096863596,-0.10286887371801168,0.9038269995135803,-0.045107217525437636,-0.680955,-18.990554
11.185,2.0,1.0,1.0,33.1,34.5,34.5,3.7,3.5,2.7575,0.17735591469655657,-0.10964875653814721,0.8987206727827975,-0.05349110220793303,-0.761583,-18.27276
11.185,2.0,1.0,1.0,33.1,34.5,34.5,3.7,3.5,2.76,0.1592598302108372,-0.11685057262413621,0.8916043102282727,-0.0638033252856122,-0.860157,-17.514157
11.185,2.0,1.0,1.0,33.1,34.5,34.5,3.7,3.5,2.7625,0.14074616362657066,-0.12430669770083222,0.8819219540368483,-0.07659758207181099,-0.982171,-16.712261
11.185,2.0,1.0,1.0,33.1,34.5,34.5,3.7,3.5,2.765,0.12216095276932648,-0.13166342390918193,0.8689565135531419,-0.09258827137118855,-1.135044,-15.865687
11.185,2.0,1.0,1.0,33.1,34.5,34.5,3.7,3.5,2.7675,0.10417682025188257,-0.13823831858932298,0.8518170709753389,-0.112662568178228,-1.328596,-14.975362
11.185,2.0,1.0,1.0,33.1,34.5,34.5,3.7,3.5,2.77,0.0880246665244362,-0.1427879111892594,0.8294894384415146,-0.13782860275113828,-1.575149,-14.046679
11.185,2.0,1.0,1.0,33.1,34.5,34.5,3.7,3.5,2.7725,0.07583242875130236,-0.14316871108005264,0.8010572233049851,-0.16899202609092434,-1.887983,-13.093115
11.185,2.0,1.0,1.0,33.1,34.5,34.5,3.7,3.5,2.775,0.07099626405872282,-0.1359674082990012,0.7663003173118905,-0.20635365122512564,-2.274901,-12.141794
11.185,2.0,1.0,1.0,33.1,34.5,34.5,3.7,3.5,2.7775,0.07821341197016306,-0.11647350316607011,0.7269323763699334,-0.24816736050737878,-2.720133,-11.24053
11.185,2.0,1.0,1.0,33.1,34.5,34.5,3.7,3.5,2.78,0.10224763522723135,-0.0799262490311071,0.6883666443264864,-0.28897350291075363,-3.148826,-10.462698
11.185,2.0,1.0,1.0,33.1,34.5,34.5,3.7,3.5,2.7825,0.14440029439527802,-0.025059490448702232,0.6604449209832163,-0.3188830936164543,-3.400468,-9.900632
11.185,2.0,1.0,1.0,33.1,34.5,34.5,3.7,3.5,2.785,0.19815798610131394,0.04154574381498831,0.6539621650493719,-0.32708504020519885,-3.307453,-9.637278
11.185,2.0,1.0,1.0,33.1,34.5,34.5,3.7,3.5,2.7875,0.24983419420108824,0.10613876640782141,0.6730572620401581,-0.309480153385382,-2.87836,-9.704401
11.185,2.0,1.0,1.0,33.1,34.5,34.5,3.7,3.5,2.79,0.28670832771805055,0.15598478666395113,0.7114154549964578,-0.2724569952720952,-2.303911,-10.062814
11.185,2.0,1.0,1.0,33.1,34.5,34.5,3.7,3.5,2.7925,0.3041853866653509,0.1865281458235062,0.7575557825219522,-0.227553546410345,-1.762523,-10.626157
11.185,2.0,1.0,1.0,33.1,34.5,34.5,3.7,3.5,2.795,0.3049773461156415,0.20053843952615544,0.8022250508255829,-0.18403895529504624,-1.327823,-11.302638
11.185,2.0,1.0,1.0,33.1,34.5,34.5,3.7,3.5,2.7975,0.2943804588988967,0.20335893003737707,0.8409099736803507,-0.14641242822227943,-1.002947,-12.020995
11.185,2.0,1.0,1.0,33.1,34.5,34.5,3.7,3.5,2.8,0.2770894395734287,0.19971408552236827,0.8725772452779038,-0.11568192230600967,-0.766681,-12.735334
11.185,2.0,1.0,1.0,33.1,34.5,34.5,3.7,3.5,2.8025,0.2563115650486056,0.19282841792367417,0.897839782005119,-0.09120883809068239,-0.595772,-13.419709
11.185,2.0,1.0,1.0,33.1,34.5,34.5,3.7,3.5,2.805,0.23396957562420762,0.18463535261651096,0.9178070041714598,-0.07186122334031006,-0.471536,-14.061133
11.185,2.0,1.0,1.0,33.1,34.5,34.5,3.7,3.5,2.8075,0.2111260459610988,0.17620561809480967,0.9335736914528479,-0.05652492227812481,-0.38041,-14.65422
11.185,2.0,1.0,1.0,33.1,34.5,34.5,3.7,3.5,2.81,0.18832773257534507,0.16809377640741588,0.9460540706331062,-0.044268485503070824,-0.312903,-15.197743
11.185,2.0,1.0,1.0,33.1,34.5,34.5,3.7,3.5,2.8125,0.165829216748387,0.160562943456104,0.955961043456341,-0.0343628947617607,-0.262439,-15.692597
11.185,2.0,1.0,1.0,33.1,34.5,34.5,3.7,3.5,2.815,0.14372545305431014,0.15371785979240668,0.9638338486162518,-0.026253052097606068,-0.224443,-16.140649
11.185,2.0,1.0,1.0,33.1,34.5,34.5,3.7,3.5,2.8175,0.12202698008852572,0.1475803794161176,0.9700751212393205,-0.019520067076366297,-0.19571,-16.544106
11.185,2.0,1.0,1.0,33.1,34.5,34.5,3.7,3.5,2.82,0.10070159468798236,0.14213133506317108,0.9749841102173148,-0.013847520530064878,-0.173965,-16.905174
11.185,2.0,1.0,1.0,33.1,34.5,34.5,3.7,3.5,2.8225,0.07969703758959523,0.13733340421203935,0.9787829500930859,-0.00899474701276388,-0.157574,-17.225886
11.185,2.0,1.0,1.0,33.1,34.5,34.5,3.7,3.5,2.825,0.058953080197639396,0.13314340312726608,0.9816363635945953,-0.004776710785501557,-0.145352,-17.508021
11.185,2.0,1.0,1.0,33.1,34.5,34.5,3.7,3.5,2.8275,0.03840773213037039,0.12951874932109442,0.9836660765933789,-0.001049154780952457,-0.13643,-17.753062
11.185,2.0,1.0,1.0,33.1,34.5,34.5,3.7,3.5,2.83,0.018000198484481388,0.12642073580618404,0.9849612387470008,0.0023023036627910793,-0.130167,-17.962194
