1,w,sub_t,h,l1,l2,l3,g1,g2,Freq,S11_re,S21_re,S11_img,S21_img,S11_dB,S21_dB
11.185,2.0,1.0,1.0,33.0,34.0,34.0,4.0,4.0,2.5,0.898609011311074,-0.00365216364419629,0.426291857867337,0.00290574432292298,-0.047058,-46.619092
11.185,2.0,1.0,1.0,33.0,34.0,34.0,4.0,4.0,2.5025,0.8959989188264417,-0.003726195318388826,0.4316493472367317,0.00291908683820235,-0.047443,-46.496434
11.185,2.0,1.0,1.0,33.0,34.0,34.0,4.0,4.0,2.505,0.8933472580615841,-0.003801471855751141,0.43700892186987694,0.0029320987436384912,-0.047835,-46.373594
11.185,2.0,1.0,1.0,33.0,34.0,34.0,4.0,4.0,2.5075,0.8906536646190291,-0.0038780174717178645,0.4423704576252092,0.002944767522935184,-0.048232,-46.250561
11.185,2.0,1.0,1.0,33.0,34.0,34.0,4.0,4.0,2.51,0.8879177681052887,-0.0039558570327644085,0.4477338267254779,0.0029570802313485015,-0.048636,-46.127325
11.185,2.0,1.0,1.0,33.0,34.0,34.0,4.0,4.0,2.5125,0.8851391920217637,-0.004035016078659222,0.45309889763555017,0.002969023478462304,-0.049047,-46.003876
11.185,2.0,1.0,1.0,33.0,34.0,34.0,4.0,4.0,2.515,0.8823175536533794,-0.004115520845645488,0.45846553493623027,0.002980583410164818,-0.049465,-45.880204
11.185,2.0,1.0,1.0,33.0,34.0,34.0,4.0,4.0,2.5175,0.8794524639548973,-0.004197398290598402,0.46383359919392647,0.0029917456897831205,-0.04989,-45.756298
11.185,2.0,1.0,1.0,33.0,34.0,34.0,4.0,4.0,2.52,0.8765435274348263,-0.004280676116207414,0.4692029468260377,0.003002495478330025,-0.050321,-45.632147
11.185,2.0,1.0,1.0,33.0,34.0,34.0,4.0,4.0,2.5225,0.8735903420368866,-0.00436538279723494,0.47457342996187823,0.0030128174138146766,-0.05076,-45.507741
11.185,2.0,1.0,1.0,33.0,34.0,34.0,4.0,4.0,2.525,0.8705924990189383,-0.004451547607906789,0.47994489629899445,0.003022695589565498,-0.051207,-45.38307
11.185,2.0,1.0,1.0,33.0,34.0,34.0,4.0,4.0,2.5275,0.8675495828293156,-0.004539200650492375,0.4853171889546982,0.003032113531510449,-0.051661,-45.258121
11.185,2.0,1.0,1.0,33.0,34.0,34.0,4.0,4.0,2.53,0.8644611709804878,-0.004628372885136347,0.4906901463126314,0.0030410541743563584,-0.052123,-45.132884
11.185,2.0,1.0,1.0,33.0,34.0,34.0,4.0,4.0,2.5325,0.8613268339199681,-0.004719096161006932,0.49606360186418164,0.003049499836605248,-0.052593,-45.007348
11.185,2.0,1.0,1.0,33.0,34.0,34.0,4.0,4.0,2.535,0.8581461348983914,-0.004811403248830394,0.5014373840445562,0.003057432194341374,-0.053071,-44.881501
11.185,2.0,1.0,1.0,33.0,34.0,34.0,4.0,4.0,2.5375,0.854918629834672,-0.00490532787488493,0.5068113160632997,0.0030648322537186875,-0.053558,-44.755333
11.185,2.0,1.0,1.0,33.0,34.0,34.0,4.0,4.0,2.54,0.8516438671781577,-0.005000904756532039,0.5121852157290553,0.0030716803220733986,-0.054053,-44.62883
11.185,2.0,1.0,1.0,33.0,34.0,34.0,4.0,4.0,2.5425,0.8483213877676793,-0.005098169639368189,0.5175588952683418,0.0030779559775816626,-0.054557,-44.501982
11.185,2.0,1.0,1.0,33.0,34.0,34.0,4.0,4.0,2.545,0.8449507246874018,-0.005197159336084714,0.522932161138113,0.0030836380373767862,-0.05507,-44.374777
11.185,2.0,1.0,1.0,33.0,34.0,34.0,4.0,4.0,2.5475,0.8415314031193774,-0.005297911767129151,0.5283048138318541,0.0030887045240346406,-0.055592,-44.247202
11.185,2.0,1.0,1.0,33.0,34.0,34.0,4.0,4.0,2.55,0.8380629401926799,-0.005400466003267723,0.5336766476789706,0.003093132630329857,-0.056123,-44.119244
11.185,2.0,1.0,1.0,33.0,34.0,34.0,4.0,4.0,2.5525,0.8345448448290238,-0.0055048623101541716,0.5390474506371831,0.0030968986821583635,-0.056665,-43.990893
11.185,2.0,1.0,1.0,33.0,34.0,34.0,4.0,4.0,2.555,0.8309766175847327,-0.005611142195017608,0.5444170040776675,0.0030999780995149143,-0.057216,-43.862133
11.185,2.0,1.0,1.0,33.0,34.0,34.0,4.0,4.0,2.5575,0.8273577504889389,-0.005719348455588941,0.5497850825626398,0.003102345355406304,-0.057777,-43.732954
11.185,2.0,1.0,1.0,33.0,34.0,34.0,4.0,4.0,2.56,0.8236877268778753,-0.00582952523139323,0.5551514536150702,0.003103973932572398,-0.058349,-43.603341
11.185,2.0,1.0,1.0,33.0,34.0,34.0,4.0,4.0,2.5625,0.8199660212251275,-0.005941718057543728,0.5605158774802116,0.0031048362778783047,-0.058931,-43.473281
11.185,2.0,1.0,1.0,33.0,34.0,34.0,4.0,4.0,2.565,0.8161920989676845,-0.006055973921182488,0.5658781068786043,0.003104903754230908,-0.059524,-43.34276
11.185,2.0,1.0,1.0,33.0,34.0,34.0,4.0,4.0,2.5675,0.8123654163276407,-0.00617234132072149,0.5712378867501846,0.0031041465898624956,-0.060129,-43.211765
11.185,2.0,1.0,1.0,33.0,34.0,34.0,4.0,4.0,2.57,0.8084854201293781,-0.006290870328049407,0.5765949539891401,0.003102533824812661,-0.060745,-43.080281
11.185,2.0,1.0,1.0,33.0,34.0,34.0,4.0,4.0,2.5725,0.8045515476120497,-0.006411612653879498,0.5819490371691034,0.0031000332544271407,-0.061372,-42.948295
11.185,2.0,1.0,1.0,33.0,34.0,34.0,4.0,4.0,2.575,0.8005632262371778,-0.0065346217164265665,0.587299856258272,0.0030966113696788435,-0.062012,-42.81579
11.185,2.0,1.0,1.0,33.0,34.0,34.0,4.0,4.0,2.5775,0.7965198734911665,-0.00665995271361356,0.5926471223240131,0.0030922332941016547,-0.062665,-42.682753
11.185,2.0,1.0,1.0,33.0,34.0,34.0,4.0,4.0,2.58,0.7924208966825198,-0.006787662699022328,0.5979905372264879,0.00308686271711159,-0.06333,-42.549167
11.185,2.0,1.0,1.0,33.0,34.0,34.0,4.0,4.0,2.5825,0.7882656927335303,-0.006917810661818209,0.6033297933008129,0.0030804618234728117,-0.064008,-42.415018
11.185,2.0,1.0,1.0,33.0,34.0,34.0,4.0,4.0,2.585,0.784053647966205,-0.007050457610893792,0.6086645730272293,0.003072991218647174,-0.0647,-42.280289
11.185,2.0,1.0,1.0,33.0,34.0,34.0,4.0,4.0,2.5875,0.7797841378821656,-0.007185666663495249,0.6139945486887478,0.0030644098497454755,-0.065406,-42.144964
11.185,2.0,1.0,1.0,33.0,34.0,34.0,4.0,4.0,2.59,0.7754565269362519,-0.007323503138612715,0.6193193820156763,0.003054674921776714,-0.066126,-42.009026
11.185,2.0,1.0,1.0,33.0,34.0,34.0,4.0,4.0,2.5925,0.7710701683035287,-0.007464034655437186,0.624638723816429,0.0030437418088670705,-0.06686,-41.872458
11.185,2.0,1.0,1.0,33.0,34.0,34.0,4.0,4.0,2.595,0.766624403639392,-0.007607331237207609,0.6299522135939558,0.003031563960094413,-0.06761,-41.735243
11.185,2.0,1.0,1.0,33.0,34.0,34.0,4.0,4.0,2.5975,0.7621185628324241,-0.007753465420796364,0.6352594791471147,0.0030180927995551586,-0.068375,-41.597363
11.185,2.0,1.0,1.0,33.0,34.0,34.0,4.0,4.0,2.6,0.7575519637496428,-0.007902512372406497,0.6405601361562464,0.0030032776202489763,-0.069156,-41.4588
11.185,2.0,1.0,1.0,33.0,34.0,34.0,4.0,4.0,2.6025,0.7529239119737624,-0.008054550009781648,0.6458537877521742,0.0029870654713327815,-0.069954,-41.319534
11.185,2.0,1.0,1.0,33.0,34.0,34.0,4.0,4.0,2.605,0.7482337005320371,-0.00820965913136071,0.651140024067806,0.0029694010382577676,-0.070768,-41.179547
11.185,2.0,1.0,1.0,33.0,34.0,34.0,4.0,4.0,2.6075,0.7434806096162482,-0.008367923552840724,0.6564184217714505,0.0029502265152624133,-0.0716,-41.038819
11.185,2.0,1.0,1.0,33.0,34.0,34.0,4.0,4.0,2.61,0.7386639062933518,-0.008529430251647744,0.6616885435809079,0.002929481469649531,-0.07245,-40.89733
11.185,2.0,1.0,1.0,33.0,34.0,34.0,4.0,4.0,2.6125,0.7337828442062657,-0.008694269519853599,0.6669499377573356,0.0029071026972261253,-0.073319,-40.755059
11.185,2.0,1.0,1.0,33.0,34.0,34.0,4.0,4.0,2.615,0.728836663264231,-0.008862535126118459,0.6722021375778133,0.0028830240682309782,-0.074206,-40.611984
11.185,2.0,1.0,1.0,33.0,34.0,34.0,4.0,4.0,2.6175,0.7238245893221559,-0.009034324487283913,0.6774446607854608,0.0028571763630156274,-0.075113,-40.468084
11.185,2.0,1.0,1.0,33.0,34.0,34.0,4.0,4.0,2.62,0.7187458338482765,-0.009209738850291508,0.6826770090158761,0.0028294870966791637,-0.07604,-40.323337
11.185,2.0,1.0,1.0,33.0,34.0,34.0,4.0,4.0,2.6225,0.7135995935794343,-0.00938888348515499,0.6878986671985893,0.002799880331785742,-0.076988,-40.177719
11.185,2.0,1.0,1.0,33.0,34.0,34.0,4.0,4.0,2.625,0.708385050163211,-0.00957186788977268,0.693109102932097,0.00276827647821485,-0.077958,-40.031207
11.185,2.0,1.0,1.0,33.0,34.0,34.0,4.0,4.0,2.6275,0.7031013697860836,-0.00975880600743121,0.6983077658309805,0.0027345920791072022,-0.07895,-39.883776
11.185,2.0,1.0,1.0,33.0,34.0,34.0,4.0,4.0,2.63,0.697747702786713,-0.009949816457920514,0.7034940868434572,0.0026987395817734583,-0.079965,-39.735401
11.185,2.0,1.0,1.0,33.0,34.0,34.0,4.0,4.0,2.6325,0.692323183253386,-0.010145022783256281,0.7086674775376104,0.0026606270923268754,-0.081004,-39.586056
11.185,2.0,1.0,1.0,33.0,34.0,34.0,4.0,4.0,2.635,0.6868269286045606,-0.010344553709089205,0.7138273293543942,0.0026201581126838423,-0.082067,-39.435715
11.185,2.0,1.0,1.0,33.0,34.0,34.0,4.0,4.0,2.6375,0.6812580391513704,-0.010548543422970569,0.7189730128253592,0.0025772312584467264,-0.083156,-39.28435
11.185,2.0,1.0,1.0,33.0,34.0,34.0,4.0,4.0,2.64,0.6756155976408259,-0.01075713187074354,0.7241038767528831,0.002531739956039823,-0.084271,-39.131933
11.185,2.0,1.0,1.0,33.0,34.0,34.0,4.0,4.0,2.6425,0.6698986687783756,-0.010970465072437428,0.7292192473504967,0.002483572117309757,-0.085414,-38.978434
11.185,2.0,1.0,1.0,33.0,34.0,34.0,4.0,4.0,2.645,0.6641062987283299,-0.011188695459161414,0.7343184273406927,0.0024326097896252698,-0.086584,-38.823824
11.185,2.0,1.0,1.0,33.0,34.0,34.0,4.0,4.0,2.6475,0.6582375145905527,-0.011411982232624532,0.7394006950073899,0.0023787287793142586,-0.087783,-38.668071
11.185,2.0,1.0,1.0,33.0,34.0,34.0,4.0,4.0,2.65,0.6522913238516407,-0.01164049174905196,0.7444653031999697,0.002321798246057623,-0.089013,-38.511143
11.185,2.0,1.0,1.0,33.0,34.0,34.0,4.0,4.0,2.6525,0.6462667138086969,-0.011874397929423526,0.7495114782855101,0.0022616802656156344,-0.090274,-38.353007
11.185,2.0,1.0,1.0,33.0,34.0,34.0,4.0,4.0,2.655,0.6401626509635776,-0.0121138826981346,0.7545384190455757,0.002198229357990701,-0.091568,-38.193628
11.185,2.0,1.0,1.0,33.0,34.0,34.0,4.0,4.0,2.6575,0.6339780803853292,-0.012359136452367308,0.7595452955135397,0.00213129197782686,-0.092895,-38.032971
11.185,2.0,1.0,1.0,33.0,34.0,34.0,4.0,4.0,2.66,0.6277119250383018,-0.012610358564669962,0.7645312477480678,0.0020607059635070132,-0.094257,-37.870999
11.185,2.0,1.0,1.0,33.0,34.0,34.0,4.0,4.0,2.6625,0.6213630850731956,-0.012867757921471233,0.7694953845379497,0.0019862999410286326,-0.095656,-37.707673
11.185,2.0,1.0,1.0,33.0,34.0,34.0,4.0,4.0,2.665,0.614930437078009,-0.013131553500510066,0.7744367820330121,0.0019078926783126493,-0.097092,-37.542955
11.185,2.0,1.0,1.0,33.0,34.0,34.0,4.0,4.0,2.6675,0.6084128332856068,-0.013401974990439757,0.7793544822953111,0.0018252923851221849,-0.098568,-37.376803
11.185,2.0,1.0,1.0,33.0,34.0,34.0,4.0,4.0,2.67,0.6018091007342599,-0.01367926345617446,0.7842474917642114,0.001738295953229493,-0.100084,-37.209176
11.185,2.0,1.0,1.0,33.0,34.0,34.0,4.0,4.0,2.6725,0.5951180403771745,-0.013963672053885729,0.7891147796283189,0.0016466881308646758,-0.101643,-37.040027
11.185,2.0,1.0,1.0,33.0,34.0,34.0,4.0,4.0,2.675,0.5883384261366326,-0.014255466799932738,0.7939552760964625,0.0015502406247971284,-0.103246,-36.869313
11.185,2.0,1.0,1.0,33.0,34.0,34.0,4.0,4.0,2.6775,0.5814690038979176,-0.014554927398426584,0.7987678705591167,0.0014487111226301446,-0.104895,-36.696985
11.185,2.0,1.0,1.0,33.0,34.0,34.0,4.0,4.0,2.68,0.5745084904377125,-0.014862348132589017,0.8035514096307007,0.001341842227018239,-0.106593,-36.522994
11.185,2.0,1.0,1.0,33.0,34.0,34.0,4.0,4.0,2.6825,0.5674555722811288,-0.01517803882557626,0.8083046950621328,0.0012293602925301122,-0.10834,-36.347289
11.185,2.0,1.0,1.0,33.0,34.0,34.0,4.0,4.0,2.685,0.5603089044809055,-0.015502325877004178,0.8130264815118299,0.0011109741547612648,-0.11014,-36.169815
11.185,2.0,1.0,1.0,33.0,34.0,34.0,4.0,4.0,2.6875,0.553067109311663,-0.0158355533820382,0.817715474161969,0.000986373740029474,-0.111995,-35.990518
11.185,2.0,1.0,1.0,33.0,34.0,34.0,4.0,4.0,2.69,0.5457287748713627,-0.016178084340607,0.8223703261652998,0.0008552285425398133,-0.113907,-35.809338
11.185,2.0,1.0,1.0,33.0,34.0,34.0,4.0,4.0,2.6925,0.5382924535812647,-0.016530301965073324,0.8269896359060461,0.000717185954256906,-0.115879,-35.626217
11.185,2.0,1.0,1.0,33.0,34.0,34.0,4.0,4.0,2.695,0.5307566605748097,-0.01689261109555193,0.8315719440564241,0.0005718694308407096,-0.117914,-35.44109
11.185,2.0,1.0,1.0,33.0,34.0,34.0,4.0,4.0,2.6975,0.5231198719647698,-0.017265439733022317,0.8361157304080561,0.0004188764748472775,-0.120015,-35.253892
11.185,2.0,1.0,1.0,33.0,34.0,34.0,4.0,4.0,2.7,0.5153805229769322,-0.017649240701442803,0.8406194104549284,0.00025777641492978756,-0.122184,-35.064553
11.185,2.0,1.0,1.0,33.0,34.0,34.0,4.0,4.0,2.7025,0.5075370059372588,-0.018044493451256038,0.8450813317015802,8.810795694109592e-05,-0.124426,-34.873003
11.185,2.0,1.0,1.0,33.0,34.0,34.0,4.0,4.0,2.705,0.49958766809809846,-0.018451706017988418,0.8494997696667782,-9.062352041959567e-05,-0.126745,-34.679165
11.185,2.0,1.0,1.0,33.0,34.0,34.0,4.0,4.0,2.7075,0.49153080928741427,-0.018871417151109907,0.8538729235489954,-0.00027894895652978816,-0.129143,-34.482961
11.185,2.0,1.0,1.0,33.0,34.0,34.0,4.0,4.0,2.71,0.48336467936326416,-0.019304198629946943,0.8581989115154744,-0.00047743892178886535,-0.131626,-34.284309
11.185,2.0,1.0,1.0,33.0,34.0,34.0,4.0,4.0,2.7125,0.47508747545379226,-0.019750657785252382,0.8624757655714121,-0.0006867072930590149,-0.134197,-34.083122
11.185,2.0,1.0,1.0,33.0,34.0,34.0,4.0,4.0,2.715,0.46669733896083304,-0.020211440247049652,0.8667014259597247,-0.0009074153378996364,-0.136862,-33.87931
11.185,2.0,1.0,1.0,33.0,34.0,34.0,4.0,4.0,2.7175,0.4581923523027829,-0.020687232941605505,0.8708737350348054,-0.001140276260662837,-0.139626,-33.672777
11.185,2.0,1.0,1.0,33.0,34.0,34.0,4.0,4.0,2.72,0.4495705353697292,-0.021178767362869416,0.8749904305454889,-0.0013860602714049896,-0.142494,-33.463425
11.185,2.0,1.0,1.0,33.0,34.0,34.0,4.0,4.0,2.7225,0.4408298416607847,-0.021686823146472755,0.8790491382528719,-0.0016456002477809777,-0.145473,-33.251147
11.185,2.0,1.0,1.0,33.0,34.0,34.0,4.0,4.0,2.725,0.4319681540703177,-0.02221223197742579,0.8830473637974527,-0.001919798070868895,-0.14857,-33.035834
11.185,2.0,1.0,1.0,33.0,34.0,34.0,4.0,4.0,2.7275,0.42298328028601545,-0.0227558818660168,0.886982483716968,-0.002209631728527363,-0.15179,-32.81737
11.185,2.0,1.0,1.0,33.0,34.0,34.0,4.0,4.0,2.73,0.4138729477577478,-0.023318721830115574,0.8908517355008854,-0.0025161632947727406,-0.155143,-32.595632
11.185,2.0,1.0,1.0,33.0,34.0,34.0,4.0,4.0,2.7325,0.40463479819165965,-0.02390176702614017,0.8946522065493874,-0.0028405479112230516,-0.158636,-32.370491
11.185,2.0,1.0,1.0,33.0,34.0,34.0,4.0,4.0,2.735,0.39526638151910903,-0.02450610437536002,0.8983808218832404,-0.003184043917423333,-0.162278,-32.141811
11.185,2.0,1.0,1.0,33.0,34.0,34.0,4.0,4.0,2.7375,0.38576514928472216,-0.025132898736986733,0.9020343304255483,-0.003548024301498816,-0.16608,-31.909448
11.185,2.0,1.0,1.0,33.0,34.0,34.0,4.0,4.0,2.74,0.37612844739215656,-0.025783399684615724,0.9056092896462148,-0.00393398967187924,-0.170052,-31.673251
11.185,2.0,1.0,1.0,33.0,34.0,34.0,4.0,4.0,2.7425,0.3663535081400513,-0.02645894894798644,0.9091020483239741,-0.00434358298578815,-0.174206,-31.433057
11.185,2.0,1.0,1.0,33.0,34.0,34.0,4.0,4.0,2.745,0.356437441474284,-0.0271609885876287,0.9125087271378445,-0.004778606312008792,-0.178555,-31.188697
11.185,2.0,1.0,1.0,33.0,34.0,34.0,4.0,4.0,2.7475,0.346377225376098,-0.02789106997561429,0.9158251967482984,-0.005241039955633163,-0.183114,-30.93999
11.185,2.0,1.0,1.0,33.0,34.0,34.0,4.0,4.0,2.75,0.33616969529918,-0.0286508636610997,0.919047052966381,-0.00573306433294185,-0.187898,-30.686744
11.185,2.0,1.0,1.0,33.0,34.0,34.0,4.0,4.0,2.7525,0.32581153256267803,-0.029442170204270673,0.9221695885341016,-0.006257085057581808,-0.192924,-30.428754
11.185,2.0,1.0,1.0,33.0,34.0,34.0,4.0,4.0,2.755,0.315299251601965,-0.03026693206615375,0.9251877609486662,-0.0068157617877269,-0.198211,-30.165804
11.185,2.0,1.0,1.0,33.0,34.0,34.0,4.0,4.0,2.7575,0.30462918597538446,-0.03112724664376848,0.9280961556527838,-0.007412041491586355,-0.203781,-29.897663
11.185,2.0,1.0,1.0,33.0,34.0,34.0,4.0,4.0,2.76,0.29379747302448717,-0.032025380539119234,0.9308889437786374,-0.008049196920085157,-0.209658,-29.624084
11.185,2.0,1.0,1.0,33.0,34.0,34.0,4.0,4.0,2.7625,0.2828000370887872,-0.03296378514495291,0.9335598334682345,-0.008730871236629743,-0.215867,-29.344803
11.185,2.0,1.0,1.0,33.0,34.0,34.0,4.0,4.0,2.765,0.2716325711863293,-0.03394511361768364,0.9361020135901174,-0.009461129952006729,-0.222438,-29.05954
11.185,2.0,1.0,1.0,33.0,34.0,34.0,4.0,4.0,2.7675,0.2602905170915681,-0.034972239285065564,0.9385080884221848,-0.010244521557117553,-0.229404,-28.767994
11.185,2.0,1.0,1.0,33.0,34.0,34.0,4.0,4.0,2.77,0.24876904377699227,-0.03604827549827406,0.9407700015603153,-0.011086148549539048,-0.236802,-28.469841
11.185,2.0,1.0,1.0,33.0,34.0,34.0,4.0,4.0,2.7725,0.23706302424149328,-0.03717659687815308,0.9428789469266216,-0.011991750927390533,-0.244673,-28.164735
11.185,2.0,1.0,1.0,33.0,34.0,34.0,4.0,4.0,2.775,0.2251670108364523,-0.038360861813641546,0.9448252642691028,-0.012967804695768418,-0.253064,-27.852304
11.185,2.0,1.0,1.0,33.0,34.0,34.0,4.0,4.0,2.7775,0.21307520933409707,-0.03960503593261536,0.946598315939562,-0.014021638523069577,-0.26203,-27.532146
11.185,2.0,1.0,1.0,33.0,34.0,34.0,4.0,4.0,2.78,0.20078145218236806,-0.04091341606112925,0.9481863409745105,-0.015161572430636585,-0.271631,-27.20383
11.185,2.0,1.0,1.0,33.0,34.0,34.0,4.0,4.0,2.7825,0.1882791716859977,-0.04229065388671052,0.9495762815393869,-0.01639708334330643,-0.281936,-26.866889
11.185,2.0,1.0,1.0,33.0,34.0,34.0,4.0,4.0,2.785,0.17556137428787025,-0.04374177810195205,0.9507535755711081,-0.017739003528110458,-0.293026,-26.520818
11.185,2.0,1.0,1.0,33.0,34.0,34.0,4.0,4.0,2.7875,0.16262061776132708,-0.045272213163337904,0.9517019078907426,-0.019199759478757458,-0.304993,-26.165071
11.185,2.0,1.0,1.0,33.0,34.0,34.0,4.0,4.0,2.79,0.14944899405550266,-0.04688779186482029,0.9524029100561968,-0.020793660763214043,-0.317944,-25.799053
11.185,2.0,1.0,1.0,33.0,34.0,34.0,4.0,4.0,2.7925,0.1360381218995003,-0.048594757559933935,0.9528357966520125,-0.02253725086974138,-0.332003,-25.422122
11.185,2.0,1.0,1.0,33.0,34.0,34.0,4.0,4.0,2.795,0.12237915527114883,-0.050399749867820226,0.9529769223967754,-0.024449735331868918,-0.347316,-25.033575
11.185,2.0,1.0,1.0,33.0,34.0,34.0,4.0,4.0,2.7975,0.10846281677810295,-0.05230976476465103,0.9527992401632518,-0.02655350660422942,-0.364055,-24.632648
11.185,2.0,1.0,1.0,33.0,34.0,34.0,4.0,4.0,2.8,0.09427946934369019,-0.05433207563656362,0.9522716344620752,-0.028874790581221284,-0.382421,-24.218506
11.185,2.0,1.0,1.0,33.0,34.0,34.0,4.0,4.0,2.8025,0.07981924603708809,-0.05647409546137302,0.951358097768741,-0.031444446656115704,-0.402656,-23.790236
11.185,2.0,1.0,1.0,33.0,34.0,34.0,4.0,4.0,2.805,0.0650722675071823,-0.058743150736579444,0.9500167078227907,-0.034298962247789784,-0.425047,-23.346839
11.185,2.0,1.0,1.0,33.0,34.0,34.0,4.0,4.0,2.8075,0.0500289909203908,-0.0611461234527153,0.9481983521682079,-0.03748169428483211,-0.449943,-22.887222
11.185,2.0,1.0,1.0,33.0,34.0,34.0,4.0,4.0,2.81,0.034680756122566124,-0.06368889580056636,0.9458451311801009,-0.04104442476022986,-0.477764,-22.410185
11.185,2.0,1.0,1.0,33.0,34.0,34.0,4.0,4.0,2.8125,0.0190206279367597,-0.0663754994619518,0.942888352198527,-0.0450493155548592,-0.509028,-21.914415
11.185,2.0,1.0,1.0,33.0,34.0,34.0,4.0,4.0,2.815,0.003044684339131825,-0.06920682109385295,0.9392460051967073,-0.049571369198664166,-0.544367,-21.398474
11.185,2.0,1.0,1.0,33.0,34.0,34.0,4.0,4.0,2.8175,-0.013246021406053325,-0.0721786382628786,0.9348195859263194,-0.05470152576427009,-0.584572,-20.860796
11.185,2.0,1.0,1.0,33.0,34.0,34.0,4.0,4.0,2.82,-0.02984247517879183,-0.07527864033939653,0.9294901099124212,-0.06055054741505663,-0.63063,-20.299675
11.185,2.0,1.0,1.0,33.0,34.0,34.0,4.0,4.0,2.8225,-0.04672315471869853,-0.07848190279674633,0.9231131506826336,-0.06725385057667904,-0.683789,-19.713275
11.185,2.0,1.0,1.0,33.0,34.0,34.0,4.0,4.0,2.825,-0.06384708846295196,-0.08174399407523163,0.9155127626775418,-0.07497741689958735,-0.745641,-19.099645
11.185,2.0,1.0,1.0,33.0,34.0,34.0,4.0,4.0,2.8275,-0.08114323301694353,-0.08499044650396194,0.9064742667216664,-0.08392479521309498,-0.818229,-18.45675
