1,w,sub_t,h,l1,l2,l3,g1,g2,Freq,S11_re,S21_re,S11_img,S21_img,S11_dB,S21_dB
11.185,2.0,1.0,1.0,33.6,33.1,33.1,2.5,4.1,2.5,0.836468853235356,-0.00680826009068721,0.536367134593597,0.00480239257603319,-0.055201,-41.585443
11.185,2.0,1.0,1.0,33.6,33.1,33.1,2.5,4.1,2.5025,0.8327644924525586,-0.006936182159212046,0.5419962423544638,0.004811415616741596,-0.055699,-41.471521
11.185,2.0,1.0,1.0,33.6,33.1,33.1,2.5,4.1,2.505,0.829005612928137,-0.007066132376807323,0.547623292344837,0.00481951070511536,-0.056206,-41.357387
11.185,2.0,1.0,1.0,33.6,33.1,33.1,2.5,4.1,2.5075,0.8251916804222293,-0.0071981438611188045,0.5532479985809887,0.004826644549381738,-0.05672,-41.243036
11.185,2.0,1.0,1.0,33.6,33.1,33.1,2.5,4.1,2.51,0.8213221527984862,-0.007332250325584708,0.5588700665889447,0.004832782771720992,-0.057243,-41.12846
11.185,2.0,1.0,1.0,33.6,33.1,33.1,2.5,4.1,2.5125,0.817396479922579,-0.007468486089109199,0.5644891931388762,0.004837889870235871,-0.057774,-41.013655
11.185,2.0,1.0,1.0,33.6,33.1,33.1,2.5,4.1,2.515,0.8134141035606588,-0.007606886085761778,0.5701050659712401,0.004841929179485318,-0.058315,-40.898614
11.185,2.0,1.0,1.0,33.6,33.1,33.1,2.5,4.1,2.5175,0.8093744572778673,-0.007747485874490947,0.5757173635143814,0.004844862829523659,-0.058864,-40.783331
11.185,2.0,1.0,1.0,33.6,33.1,33.1,2.5,4.1,2.52,0.8052769663369848,-0.007890321648840225,0.5813257545933495,0.00484665170338433,-0.059423,-40.6678
11.185,2.0,1.0,1.0,33.6,33.1,33.1,2.5,4.1,2.5225,0.8011210475973375,-0.00803543024665252,0.5869298981296152,0.004847255392944601,-0.059991,-40.552015
11.185,2.0,1.0,1.0,33.6,33.1,33.1,2.5,4.1,2.525,0.7969061094140544,-0.008182849159748812,0.592529442831423,0.00484663215310436,-0.060568,-40.435969
11.185,2.0,1.0,1.0,33.6,33.1,33.1,2.5,4.1,2.5275,0.7926315515378061,-0.00833261654356496,0.5981240268744664,0.004844738854210058,-0.061155,-40.319656
11.185,2.0,1.0,1.0,33.6,33.1,33.1,2.5,4.1,2.53,0.788296765015147,-0.008484771226729429,0.6037132775725704,0.00484153093265075,-0.061753,-40.20307
11.185,2.0,1.0,1.0,33.6,33.1,33.1,2.5,4.1,2.5325,0.7839011320895999,-0.008639352720563388,0.6092968110380675,0.004836962339550772,-0.06236,-40.086205
11.185,2.0,1.0,1.0,33.6,33.1,33.1,2.5,4.1,2.535,0.7794440261036178,-0.008796401228482974,0.6148742318315344,0.004830985487479759,-0.062978,-39.969054
11.185,2.0,1.0,1.0,33.6,33.1,33.1,2.5,4.1,2.5375,0.7749248114015932,-0.008955957655281621,0.6204451326005402,0.004823551195097383,-0.063607,-39.851611
11.185,2.0,1.0,1.0,33.6,33.1,33.1,2.5,4.1,2.54,0.7703428432340607,-0.00911806361626913,0.6260090937070588,0.004814608629646127,-0.064247,-39.733869
11.185,2.0,1.0,1.0,33.6,33.1,33.1,2.5,4.1,2.5425,0.7656974676632801,-0.009282761446241742,0.6315656828431814,0.004804105247202144,-0.064898,-39.615822
11.185,2.0,1.0,1.0,33.6,33.1,33.1,2.5,4.1,2.545,0.7609880214703768,-0.009450094208255762,0.6371144546347468,0.004791986730589377,-0.06556,-39.497463
11.185,2.0,1.0,1.0,33.6,33.1,33.1,2.5,4.1,2.5475,0.7562138320642489,-0.009620105702174678,0.6426549502325013,0.004778196924858437,-0.066234,-39.378785
11.185,2.0,1.0,1.0,33.6,33.1,33.1,2.5,4.1,2.55,0.7513742173924299,-0.009792840472958218,0.6481866968903937,0.004762677770226924,-0.06692,-39.259782
11.185,2.0,1.0,1.0,33.6,33.1,33.1,2.5,4.1,2.5525,0.7464684858541608,-0.009968343818658066,0.6537092075305783,0.004745369232373308,-0.067618,-39.140447
11.185,2.0,1.0,1.0,33.6,33.1,33.1,2.5,4.1,2.555,0.7414959362158783,-0.010146661798083545,0.6592219802947088,0.004726209229971278,-0.068329,-39.020774
11.185,2.0,1.0,1.0,33.6,33.1,33.1,2.5,4.1,2.5575,0.7364558575293879,-0.01032784123809688,0.6647244980810785,0.004705133559346754,-0.069052,-38.900754
11.185,2.0,1.0,1.0,33.6,33.1,33.1,2.5,4.1,2.56,0.7313475290529877,-0.01051192974049472,0.6702162280671483,0.0046820758161334845,-0.069789,-38.780382
11.185,2.0,1.0,1.0,33.6,33.1,33.1,2.5,4.1,2.5625,0.7261702201758232,-0.010698975688429696,0.6756966212169947,0.004656967313798481,-0.070538,-38.65965
11.185,2.0,1.0,1.0,33.6,33.1,33.1,2.5,4.1,2.565,0.7209231903457721,-0.010889028252321764,0.6811651117731939,0.004629736998901487,-0.071302,-38.538552
11.185,2.0,1.0,1.0,33.6,33.1,33.1,2.5,4.1,2.5675,0.7156056890011888,-0.011082137395205567,0.6866211167326358,0.004600311362947122,-0.072079,-38.41708
11.185,2.0,1.0,1.0,33.6,33.1,33.1,2.5,4.1,2.57,0.710216955506835,-0.011278353877456165,0.6920640353057567,0.004568614350680977,-0.072871,-38.295226
11.185,2.0,1.0,1.0,33.6,33.1,33.1,2.5,4.1,2.5725,0.7047562190943626,-0.011477729260830748,0.6974932483586586,0.004534567264674851,-0.073678,-38.172985
11.185,2.0,1.0,1.0,33.6,33.1,33.1,2.5,4.1,2.575,0.6992226988077261,-0.011680315911759817,0.7029081178375608,0.004498088666038124,-0.074499,-38.050347
11.185,2.0,1.0,1.0,33.6,33.1,33.1,2.5,4.1,2.5775,0.6936156034539299,-0.011886167003815831,0.7083079861750203,0.004459094271084846,-0.075336,-37.927306
11.185,2.0,1.0,1.0,33.6,33.1,33.1,2.5,4.1,2.58,0.6879341315595388,-0.012095336519282344,0.7136921756773332,0.0044174968437784715,-0.076189,-37.803855
11.185,2.0,1.0,1.0,33.6,33.1,33.1,2.5,4.1,2.5825,0.6821774713333972,-0.012307879249741058,0.7190599878925193,0.004373206083766504,-0.077057,-37.679985
11.185,2.0,1.0,1.0,33.6,33.1,33.1,2.5,4.1,2.585,0.676344800636045,-0.012523850795587635,0.7244107029582607,0.004326128509809872,-0.077943,-37.555689
11.185,2.0,1.0,1.0,33.6,33.1,33.1,2.5,4.1,2.5875,0.6704352869563283,-0.012743307564381285,0.7297435789291653,0.004276167338400646,-0.078845,-37.430959
11.185,2.0,1.0,1.0,33.6,33.1,33.1,2.5,4.1,2.59,0.6644480873957488,-0.012966306767925245,0.7350578510826775,0.004223222357353604,-0.079764,-37.305788
11.185,2.0,1.0,1.0,33.6,33.1,33.1,2.5,4.1,2.5925,0.658382348661113,-0.01319290641796885,0.7403527312029751,0.004167189794144917,-0.080701,-37.180167
11.185,2.0,1.0,1.0,33.6,33.1,33.1,2.5,4.1,2.595,0.6522372070660906,-0.013423165320412447,0.7456274068421269,0.004107962178761787,-0.081656,-37.054087
11.185,2.0,1.0,1.0,33.6,33.1,33.1,2.5,4.1,2.5975,0.6460117885423087,-0.013657143067889559,0.7508810405578114,0.004045428200813713,-0.08263,-36.927542
11.185,2.0,1.0,1.0,33.6,33.1,33.1,2.5,4.1,2.6,0.6397052086606545,-0.013894900030589637,0.7561127691268358,0.003979472560645454,-0.083623,-36.800523
11.185,2.0,1.0,1.0,33.6,33.1,33.1,2.5,4.1,2.6025,0.63331657266351,-0.0141364973451759,0.7613217027336884,0.00390997581417738,-0.084636,-36.673021
11.185,2.0,1.0,1.0,33.6,33.1,33.1,2.5,4.1,2.605,0.6268449755086495,-0.01438199690164217,0.7665069241333416,0.003836814211186243,-0.085668,-36.545028
11.185,2.0,1.0,1.0,33.6,33.1,33.1,2.5,4.1,2.6075,0.6202895019256128,-0.014631461327940314,0.7716674877874822,0.0037598595267248954,-0.086721,-36.416535
11.185,2.0,1.0,1.0,33.6,33.1,33.1,2.5,4.1,2.61,0.6136492264853866,-0.014884953972198491,0.7768024189733307,0.0036789788853639122,-0.087795,-36.287534
11.185,2.0,1.0,1.0,33.6,33.1,33.1,2.5,4.1,2.6125,0.6069232136842826,-0.015142538882336904,0.7819107128641903,0.0035940345779230335,-0.088891,-36.158015
11.185,2.0,1.0,1.0,33.6,33.1,33.1,2.5,4.1,2.615,0.6001105180429469,-0.015404280782873581,0.7869913335808328,0.0035048838703423692,-0.090009,-36.02797
11.185,2.0,1.0,1.0,33.6,33.1,33.1,2.5,4.1,2.6175,0.593210184221503,-0.01567024504869761,0.7920432132128031,0.003411378804326834,-0.091149,-35.89739
11.185,2.0,1.0,1.0,33.6,33.1,33.1,2.5,4.1,2.62,0.5862212471518679,-0.015940497675570764,0.7970652508087037,0.0033133659893772823,-0.092313,-35.766265
11.185,2.0,1.0,1.0,33.6,33.1,33.1,2.5,4.1,2.6225,0.5791427321883457,-0.016215105247101493,0.8020563113344893,0.0032106863858031446,-0.093501,-35.634587
11.185,2.0,1.0,1.0,33.6,33.1,33.1,2.5,4.1,2.625,0.571973655277687,-0.0164941348979151,0.807015224598766,0.00310317507828961,-0.094714,-35.502345
11.185,2.0,1.0,1.0,33.6,33.1,33.1,2.5,4.1,2.6275,0.5647130231498257,-0.016777654272725755,0.8119407841440813,0.002990661039570748,-0.095951,-35.369529
11.185,2.0,1.0,1.0,33.6,33.1,33.1,2.5,4.1,2.63,0.5573598335306172,-0.017065731480991903,0.816831746103136,0.0028729668837365603,-0.097215,-35.236131
11.185,2.0,1.0,1.0,33.6,33.1,33.1,2.5,4.1,2.6325,0.5499130753779494,-0.017358435046815026,0.8216868280188454,0.0027499086086772134,-0.098505,-35.102141
11.185,2.0,1.0,1.0,33.6,33.1,33.1,2.5,4.1,2.635,0.542371729142686,-0.0176558338537154,0.8265047076271179,0.0026212953271412547,-0.099823,-34.967547
11.185,2.0,1.0,1.0,33.6,33.1,33.1,2.5,4.1,2.6375,0.5347347670559868,-0.017957997083891508,0.8312840216012172,0.002486928985857878,-0.101168,-34.83234
11.185,2.0,1.0,1.0,33.6,33.1,33.1,2.5,4.1,2.64,0.5270011534446162,-0.018264994151541362,0.8360233642565238,0.0023466040721428064,-0.102543,-34.69651
11.185,2.0,1.0,1.0,33.6,33.1,33.1,2.5,4.1,2.6425,0.5191698450759739,-0.018576894629791067,0.8407212862144815,0.0022001073073776027,-0.103946,-34.560046
11.185,2.0,1.0,1.0,33.6,33.1,33.1,2.5,4.1,2.645,0.5112397915346505,-0.018893768170743255,0.8453762930244895,0.0020472173267182306,-0.105381,-34.422937
11.185,2.0,1.0,1.0,33.6,33.1,33.1,2.5,4.1,2.6475,0.5032099356324331,-0.019215684418120563,0.8499868437424538,0.0018877043443552258,-0.106846,-34.285172
11.185,2.0,1.0,1.0,33.6,33.1,33.1,2.5,4.1,2.65,0.495079213853765,-0.019542712911940797,0.8545513494646982,0.0017213298036095007,-0.108344,-34.14674
11.185,2.0,1.0,1.0,33.6,33.1,33.1,2.5,4.1,2.6525,0.4868465568388304,-0.019874922984616135,0.8590681718158678,0.001547846011110214,-0.109875,-34.00763
11.185,2.0,1.0,1.0,33.6,33.1,33.1,2.5,4.1,2.655,0.47851088990648455,-0.02021238364782507,0.8635356213894585,0.0013669957542584484,-0.11144,-33.86783
11.185,2.0,1.0,1.0,33.6,33.1,33.1,2.5,4.1,2.6575,0.47007113361944136,-0.020555163469453974,0.8679519561395438,0.0011785119011371162,-0.11304,-33.727329
11.185,2.0,1.0,1.0,33.6,33.1,33.1,2.5,4.1,2.66,0.4615262043942179,-0.02090333043985296,0.8723153797222434,0.0009821169819806382,-0.114675,-33.586114
11.185,2.0,1.0,1.0,33.6,33.1,33.1,2.5,4.1,2.6625,0.45287501515851736,-0.02125695182659159,0.8766240397854337,0.0007775227512685559,-0.116348,-33.444174
11.185,2.0,1.0,1.0,33.6,33.1,33.1,2.5,4.1,2.665,0.44411647605883586,-0.021616094016838644,0.8808760262051794,0.0005644297294537022,-0.118059,-33.301496
11.185,2.0,1.0,1.0,33.6,33.1,33.1,2.5,4.1,2.6675,0.4352494952212893,-0.02198082234642037,0.8850693692672931,0.00034252672328107436,-0.119809,-33.158067
11.185,2.0,1.0,1.0,33.6,33.1,33.1,2.5,4.1,2.67,0.4262729795687833,-0.02235120091454033,0.88920203779243,0.00011149032359224285,-0.1216,-33.013875
11.185,2.0,1.0,1.0,33.6,33.1,33.1,2.5,4.1,2.6725,0.41718583569783885,-0.022727292383062557,0.8932719372030501,-0.00012901562055201896,-0.123432,-32.868906
11.185,2.0,1.0,1.0,33.6,33.1,33.1,2.5,4.1,2.675,0.40798697081859686,-0.02310915775917439,0.8972769075305571,-0.00037934055266586407,-0.125307,-32.723148
11.185,2.0,1.0,1.0,33.6,33.1,33.1,2.5,4.1,2.6775,0.39867529376168975,-0.023496856160151475,0.9012147213608765,-0.0006398477858564165,-0.127226,-32.576586
11.185,2.0,1.0,1.0,33.6,33.1,33.1,2.5,4.1,2.68,0.3892497160559047,-0.023890444558846324,0.9050830817166904,-0.0009109151074489685,-0.129191,-32.429206
11.185,2.0,1.0,1.0,33.6,33.1,33.1,2.5,4.1,2.6825,0.3797091530807835,-0.024289977508410637,0.9088796198744988,-0.0011929354126838819,-0.131203,-32.280995
11.185,2.0,1.0,1.0,33.6,33.1,33.1,2.5,4.1,2.685,0.37005252529853233,-0.02469550684464316,0.9126018931146455,-0.0014863173690372686,-0.133263,-32.131938
11.185,2.0,1.0,1.0,33.6,33.1,33.1,2.5,4.1,2.6875,0.3602787595698794,-0.025107081364223897,0.916247382402381,-0.0017914861128091374,-0.135373,-31.98202
11.185,2.0,1.0,1.0,33.6,33.1,33.1,2.5,4.1,2.69,0.35038679055879124,-0.02552474647695329,0.9198134899979984,-0.0021088839797220784,-0.137534,-31.831226
11.185,2.0,1.0,1.0,33.6,33.1,33.1,2.5,4.1,2.6925,0.34037556223121634,-0.025948543829962832,0.9232975369940353,-0.002438971271379516,-0.139749,-31.67954
11.185,2.0,1.0,1.0,33.6,33.1,33.1,2.5,4.1,2.695,0.33024402945338427,-0.026378510901692933,0.9266967607774589,-0.002782227059542806,-0.142018,-31.526948
11.185,2.0,1.0,1.0,33.6,33.1,33.1,2.5,4.1,2.6975,0.31999115969543773,-0.02681468056325359,0.930008312414738,-0.003139150030310167,-0.144344,-31.373432
11.185,2.0,1.0,1.0,33.6,33.1,33.1,2.5,4.1,2.7,0.3096159348465992,-0.027257080604581277,0.9332292539576074,-0.003510259370405526,-0.146729,-31.218976
11.185,2.0,1.0,1.0,33.6,33.1,33.1,2.5,4.1,2.7025,0.29911735314837634,-0.027705733222589467,0.936356555667314,-0.0038960956979248278,-0.149173,-31.063563
11.185,2.0,1.0,1.0,33.6,33.1,33.1,2.5,4.1,2.705,0.2884944312527503,-0.028160654468270492,0.9393870931550462,-0.0042972220400326975,-0.15168,-30.907176
11.185,2.0,1.0,1.0,33.6,33.1,33.1,2.5,4.1,2.7075,0.2777462064126782,-0.028621853649446978,0.9423176444362048,-0.004714224860260773,-0.154252,-30.749797
11.185,2.0,1.0,1.0,33.6,33.1,33.1,2.5,4.1,2.71,0.26687173881271997,-0.029089332685585365,0.9451448868960995,-0.0051477151382249295,-0.15689,-30.591409
11.185,2.0,1.0,1.0,33.6,33.1,33.1,2.5,4.1,2.7125,0.25587011404804916,-0.029563085410772728,0.947865394164596,-0.0055983295047609015,-0.159598,-30.431992
11.185,2.0,1.0,1.0,33.6,33.1,33.1,2.5,4.1,2.715,0.24474044576065013,-0.03004309682061484,0.9504756328971603,-0.006066731435667889,-0.162376,-30.271527
11.185,2.0,1.0,1.0,33.6,33.1,33.1,2.5,4.1,2.7175,0.23348187844203908,-0.030529342258439066,0.9529719594596796,-0.00655361250745741,-0.165229,-30.109996
11.185,2.0,1.0,1.0,33.6,33.1,33.1,2.5,4.1,2.72,0.22209359041245796,-0.031021786535772203,0.9553506165143518,-0.007059693718723635,-0.168157,-29.947377
11.185,2.0,1.0,1.0,33.6,33.1,33.1,2.5,4.1,2.7225,0.2105747969870991,-0.03152038298161197,0.9576077295038609,-0.007585726880990381,-0.171165,-29.783651
11.185,2.0,1.0,1.0,33.6,33.1,33.1,2.5,4.1,2.725,0.19892475384066022,-0.03202507241450988,0.9597393030309536,-0.008132496083139337,-0.174255,-29.618797
11.185,2.0,1.0,1.0,33.6,33.1,33.1,2.5,4.1,2.7275,0.18714276058219798,-0.032535782030937294,0.9617412171304511,-0.008700819233799688,-0.17743,-29.452792
11.185,2.0,1.0,1.0,33.6,33.1,33.1,2.5,4.1,2.73,0.17522816455313547,-0.03305242420279856,0.9636092234306052,-0.009291549686365277,-0.180693,-29.285615
11.185,2.0,1.0,1.0,33.6,33.1,33.1,2.5,4.1,2.7325,0.16318036486206813,-0.03357489517628966,0.9653389412006232,-0.009905577951621182,-0.184047,-29.117242
11.185,2.0,1.0,1.0,33.6,33.1,33.1,2.5,4.1,2.735,0.15099881667102355,-0.03410307366356208,0.9669258532810342,-0.010543833503290332,-0.187495,-28.947651
11.185,2.0,1.0,1.0,33.6,33.1,33.1,2.5,4.1,2.7375,0.13868303574879326,-0.03463681931783776,0.9683653018934707,-0.01120728668217172,-0.191042,-28.776817
11.185,2.0,1.0,1.0,33.6,33.1,33.1,2.5,4.1,2.74,0.12623260330811964,-0.035175971081717265,0.9696524843262684,-0.011896950704920757,-0.194692,-28.604715
11.185,2.0,1.0,1.0,33.6,33.1,33.1,2.5,4.1,2.7425,0.11364717114468721,-0.035720345397425975,0.9707824484921569,-0.012613883783932365,-0.198447,-28.43132
11.185,2.0,1.0,1.0,33.6,33.1,33.1,2.5,4.1,2.745,0.10092646709722257,-0.03626973426663286,0.9717500883541305,-0.0133591913652241,-0.202312,-28.256606
11.185,2.0,1.0,1.0,33.6,33.1,33.1,2.5,4.1,2.7475,0.08807030084943462,-0.036823903146246804,0.9725501392154188,-0.014134028491682613,-0.206291,-28.080544
11.185,2.0,1.0,1.0,33.6,33.1,33.1,2.5,4.1,2.75,0.07507857009612,-0.0373825886652274,0.973177172869269,-0.0149396022995355,-0.21039,-27.903109
11.185,2.0,1.0,1.0,33.6,33.1,33.1,2.5,4.1,2.7525,0.061951267097490346,-0.03794549614592512,0.9736255926040521,-0.015777174656440986,-0.214613,-27.724269
11.185,2.0,1.0,1.0,33.6,33.1,33.1,2.5,4.1,2.755,0.048688485647712935,-0.03851229691176943,0.9738896280589568,-0.016648064950152218,-0.218964,-27.543997
11.185,2.0,1.0,1.0,33.6,33.1,33.1,2.5,4.1,2.7575,0.03529042848570638,-0.03908262536123483,0.9739633299252994,-0.01755365303731559,-0.22345,-27.362261
11.185,2.0,1.0,1.0,33.6,33.1,33.1,2.5,4.1,2.76,0.021757415178648733,-0.03965607578589964,0.9738405644882014,-0.01849538236259486,-0.228076,-27.17903
11.185,2.0,1.0,1.0,33.6,33.1,33.1,2.5,4.1,2.7625,0.008089890511139237,-0.04023219890805524,0.9735150080030955,-0.01947476325898968,-0.232847,-26.994271
11.185,2.0,1.0,1.0,33.6,33.1,33.1,2.5,4.1,2.765,-0.0057115665841242684,-0.04081049811067988,0.9729801409012083,-0.020493376440922847,-0.237771,-26.80795
11.185,2.0,1.0,1.0,33.6,33.1,33.1,2.5,4.1,2.7675,-0.019646233515148197,-0.04139042532963034,0.9722292418178545,-0.021552876702416814,-0.242853,-26.620032
11.185,2.0,1.0,1.0,33.6,33.1,33.1,2.5,4.1,2.77,-0.033713233896393864,-0.04197137657458508,0.9712553814370016,-0.02265499683345765,-0.248102,-26.430481
11.185,2.0,1.0,1.0,33.6,33.1,33.1,2.5,4.1,2.7725,-0.04791152674500012,-0.04255268704153904,0.9700514161452305,-0.023801551768451872,-0.253523,-26.23926
11.185,2.0,1.0,1.0,33.6,33.1,33.1,2.5,4.1,2.775,-0.06223989495659775,-0.043133625775455715,0.968609981487817,-0.024994442981515444,-0.259126,-26.046331
11.185,2.0,1.0,1.0,33.6,33.1,33.1,2.5,4.1,2.7775,-0.07669693300491798,-0.043713389836954844,0.9669234854193005,-0.02623566314418558,-0.264919,-25.851652
11.185,2.0,1.0,1.0,33.6,33.1,33.1,2.5,4.1,2.78,-0.09128103380388482,-0.044291097921587044,0.9649841013405056,-0.027527301062007247,-0.270909,-25.655183
11.185,2.0,1.0,1.0,33.6,33.1,33.1,2.5,4.1,2.7825,-0.10599037466461624,-0.044865783374229015,0.9627837609136485,-0.02887154690729817,-0.277108,-25.456881
11.185,2.0,1.0,1.0,33.6,33.1,33.1,2.5,4.1,2.785,-0.12082290227285433,-0.04543638653433563,0.9603141466467892,-0.030270697766235363,-0.283525,-25.2567
11.185,2.0,1.0,1.0,33.6,33.1,33.1,2.5,4.1,2.7875,-0.13577631660435194,-0.04600174634008592,0.957566684238642,-0.031727163519186,-0.29017,-25.054595
11.185,2.0,1.0,1.0,33.6,33.1,33.1,2.5,4.1,2.79,-0.15084805368691678,-0.04656059111073967,0.9545325346745303,-0.03324347307392503,-0.297054,-24.850517
11.185,2.0,1.0,1.0,33.6,33.1,33.1,2.5,4.1,2.7925,-0.1660352671076293,-0.04711152841662178,0.9512025860641923,-0.03482228097197121,-0.304191,-24.644417
11.185,2.0,1.0,1.0,33.6,33.1,33.1,2.5,4.1,2.795,-0.18133480815239914,-0.047653033934908426,0.9475674452122045,-0.03646637438871426,-0.311593,-24.436241
11.185,2.0,1.0,1.0,33.6,33.1,33.1,2.5,4.1,2.7975,-0.19674320445188082,-0.048183439176592395,0.943617428912093,-0.038178680548197515,-0.319274,-24.225938
11.185,2.0,1.0,1.0,33.6,33.1,33.1,2.5,4.1,2.8,-0.21225663699310124,-0.04870091795543516,0.939342554955787,-0.039962274573327516,-0.327248,-24.013449
11.185,2.0,1.0,1.0,33.6,33.1,33.1,2.5,4.1,2.8025,-0.22787091533918108,-0.04920347145309026,0.934732532851032,-0.04182038779174981,-0.335532,-23.798716
11.185,2.0,1.0,1.0,33.6,33.1,33.1,2.5,4.1,2.805,-0.2435814508802857,-0.04968891171560237,0.929776754240938,-0.04375641651657141,-0.344142,-23.581679
11.185,2.0,1.0,1.0,33.6,33.1,33.1,2.5,4.1,2.8075,-0.25938322791693674,-0.050154843394783946,0.9244642830219624,-0.04577393131933313,-0.353097,-23.362274
11.185,2.0,1.0,1.0,33.6,33.1,33.1,2.5,4.1,2.81,-0.2752707723515844,-0.050598643523127394,0.9187838451597505,-0.04787668680994449,-0.362416,-23.140434
11.185,2.0,1.0,1.0,33.6,33.1,33.1,2.5,4.1,2.8125,-0.291238117735406,-0.0510174390824329,0.912723818206437,-0.0500686319344123,-0.37212,-22.916091
11.185,2.0,1.0,1.0,33.6,33.1,33.1,2.5,4.1,2.815,-0.30727876838414236,-0.05140808209365738,0.9062722205287054,-0.05235392079581347,-0.382233,-22.689172
11.185,2.0,1.0,1.0,33.6,33.1,33.1,2.5,4.1,2.8175,-0.3233856592386093,-0.05176712191794998,0.8994167002634325,-0.054736923996635656,-0.392778,-22.459602
11.185,2.0,1.0,1.0,33.6,33.1,33.1,2.5,4.1,2.82,-0.3395511121015961,-0.05209077441566745,0.8921445240277228,-0.057222240490835206,-0.403783,-22.227303
11.185,2.0,1.0,1.0,33.6,33.1,33.1,2.5,4.1,2.8225,-0.3557667878323022,-0.05237488756046209,0.8844425654231046,-0.059814709921062886,-0.415275,-21.992191
11.185,2.0,1.0,1.0,33.6,33.1,33.1,2.5,4.1,2.825,-0.3720236340210888,-0.052614903048260886,0.8762972933905542,-0.06251942539965212,-0.427287,-21.754182
11.185,2.0,1.0,1.0,33.6,33.1,33.1,2.5,4.1,2.8275,-0.38831182759999544,-0.0528058133748993,0.8676947604948088,-0.0653417466701082,-0.439852,-21.513185
