1,w,sub_t,h,l1,l2,l3,g1,g2,Freq,S11_re,S21_re,S11_img,S21_img,S11_dB,S21_dB
11.185,2.0,1.0,1.0,34.4,33.8,33.8,1.8,2.0,2.5,0.706523106337479,-0.0235314667176947,0.694098230946137,0.0148327264838931,-0.083543,-31.114051
11.185,2.0,1.0,1.0,34.4,33.8,33.8,1.8,2.0,2.5025,0.7006622336363343,-0.024005422987276072,0.6998365541384471,0.014839107931950216,-0.084644,-30.988363
11.185,2.0,1.0,1.0,34.4,33.8,33.8,1.8,2.0,2.505,0.6947188787059145,-0.024488555069762736,0.7055573622679872,0.01484112522994248,-0.085765,-30.862135
11.185,2.0,1.0,1.0,34.4,33.8,33.8,1.8,2.0,2.5075,0.6886920952729988,-0.024981052875731876,0.7112598263099287,0.014838582881965235,-0.086909,-30.735359
11.185,2.0,1.0,1.0,34.4,33.8,33.8,1.8,2.0,2.51,0.6825809241663924,-0.0254831105058471,0.7169430903823529,0.014831277366607807,-0.088076,-30.608025
11.185,2.0,1.0,1.0,34.4,33.8,33.8,1.8,2.0,2.5125,0.6763843932577606,-0.025994926332242194,0.722606270847639,0.014818996784803917,-0.089265,-30.480126
11.185,2.0,1.0,1.0,34.4,33.8,33.8,1.8,2.0,2.515,0.6701015174106525,-0.02651670307987179,0.7282484553819852,0.0148015204908468,-0.090479,-30.351652
11.185,2.0,1.0,1.0,34.4,33.8,33.8,1.8,2.0,2.5175,0.6637312984384109,-0.027048647907640274,0.7338687020118027,0.014778618705689967,-0.091718,-30.222595
11.185,2.0,1.0,1.0,34.4,33.8,33.8,1.8,2.0,2.52,0.657272725071698,-0.027590972489105137,0.7394660381157055,0.014750052111605341,-0.092983,-30.092946
11.185,2.0,1.0,1.0,34.4,33.8,33.8,1.8,2.0,2.5225,0.6507247729364432,-0.02814389309252207,0.7450394593907135,0.014715571427216084,-0.094274,-29.962695
11.185,2.0,1.0,1.0,34.4,33.8,33.8,1.8,2.0,2.525,0.6440864045430341,-0.028707630659980037,0.7505879287812747,0.014674916961864778,-0.095592,-29.831833
11.185,2.0,1.0,1.0,34.4,33.8,33.8,1.8,2.0,2.5275,0.6373565692876588,-0.029282410885342988,0.7561103753696219,0.014627818148219555,-0.096939,-29.700351
11.185,2.0,1.0,1.0,34.4,33.8,33.8,1.8,2.0,2.53,0.6305342034667553,-0.02986846429068681,0.7616056932259045,0.01457399305195299,-0.098314,-29.568239
11.185,2.0,1.0,1.0,34.4,33.8,33.8,1.8,2.0,2.5325,0.6236182303055914,-0.03046602630088675,0.7670727402164946,0.014513147857264699,-0.09972,-29.435486
11.185,2.0,1.0,1.0,34.4,33.8,33.8,1.8,2.0,2.535,0.61660756000206,-0.03107533731597605,0.7725103367687677,0.014444976326943491,-0.101156,-29.302084
11.185,2.0,1.0,1.0,34.4,33.8,33.8,1.8,2.0,2.5375,0.6095010897868633,-0.03169664278085449,0.777917264590585,0.01436915923558876,-0.102624,-29.168021
11.185,2.0,1.0,1.0,34.4,33.8,33.8,1.8,2.0,2.54,0.6022977040013279,-0.03233019325188642,0.7832922653426335,0.014285363774528695,-0.104126,-29.033287
11.185,2.0,1.0,1.0,34.4,33.8,33.8,1.8,2.0,2.5425,0.594996274194168,-0.03297624445987765,0.7886340392616773,0.01419324292688627,-0.105661,-28.897872
11.185,2.0,1.0,1.0,34.4,33.8,33.8,1.8,2.0,2.545,0.5875956592386288,-0.033635057368871416,0.7939412437326937,0.014092434811150299,-0.107232,-28.761765
11.185,2.0,1.0,1.0,34.4,33.8,33.8,1.8,2.0,2.5475,0.5800947054715276,-0.03430689823014508,0.7992124918077588,0.013982561991509117,-0.108838,-28.624955
11.185,2.0,1.0,1.0,34.4,33.8,33.8,1.8,2.0,2.55,0.5724922468557914,-0.03499203863073164,0.8044463506694614,0.013863230753101315,-0.110483,-28.48743
11.185,2.0,1.0,1.0,34.4,33.8,33.8,1.8,2.0,2.5525,0.5647871051682574,-0.03569075553571599,0.8096413400364907,0.013734030340222535,-0.112166,-28.349179
11.185,2.0,1.0,1.0,34.4,33.8,33.8,1.8,2.0,2.555,0.5569780902145595,-0.03640333132348961,0.8147959305089582,0.013594532155409622,-0.113889,-28.210191
11.185,2.0,1.0,1.0,34.4,33.8,33.8,1.8,2.0,2.5575,0.5490640000730919,-0.03713005381306128,0.8199085418508683,0.013444288917193249,-0.115653,-28.070453
11.185,2.0,1.0,1.0,34.4,33.8,33.8,1.8,2.0,2.56,0.541043621370179,-0.03787121628243272,0.8249775412070312,0.013282833774176384,-0.117461,-27.929954
11.185,2.0,1.0,1.0,34.4,33.8,33.8,1.8,2.0,2.5625,0.5329157295887118,-0.03862711747695317,0.8300012412515835,0.013109679372946553,-0.119312,-27.788681
11.185,2.0,1.0,1.0,34.4,33.8,33.8,1.8,2.0,2.565,0.524679089412681,-0.039398061606459006,0.8349778982651234,0.01292431687717811,-0.12121,-27.646622
11.185,2.0,1.0,1.0,34.4,33.8,33.8,1.8,2.0,2.5675,0.5163324551102257,-0.04018435832988543,0.8399057101373197,0.012726214935110327,-0.123155,-27.503763
11.185,2.0,1.0,1.0,34.4,33.8,33.8,1.8,2.0,2.57,0.5078745709579743,-0.040986322725910816,0.8447828142916946,0.012514818592413966,-0.125149,-27.360092
11.185,2.0,1.0,1.0,34.4,33.8,33.8,1.8,2.0,2.5725,0.4993041717096785,-0.041804275248053434,0.8496072855291033,0.012289548147264224,-0.127194,-27.215596
11.185,2.0,1.0,1.0,34.4,33.8,33.8,1.8,2.0,2.575,0.49061998311235616,-0.042638541662481516,0.8543771337862461,0.012049797944240007,-0.129292,-27.07026
11.185,2.0,1.0,1.0,34.4,33.8,33.8,1.8,2.0,2.5775,0.4818207224733861,-0.04348945296663179,0.8590903018053615,0.011794935103448242,-0.131444,-26.924071
11.185,2.0,1.0,1.0,34.4,33.8,33.8,1.8,2.0,2.58,0.47290509928226865,-0.04435734528653916,0.8637446627110233,0.011524298181043746,-0.133653,-26.777014
11.185,2.0,1.0,1.0,34.4,33.8,33.8,1.8,2.0,2.5825,0.4638718158910222,-0.04524255975057973,0.8683380174897735,0.011237195757062182,-0.13592,-26.629075
11.185,2.0,1.0,1.0,34.4,33.8,33.8,1.8,2.0,2.585,0.4547195682575078,-0.046145442337095444,0.87286809236805,0.010932904946224703,-0.138248,-26.48024
11.185,2.0,1.0,1.0,34.4,33.8,33.8,1.8,2.0,2.5875,0.44544704675627644,-0.04706634369312617,0.8773325360836441,0.01061066982708062,-0.140639,-26.330493
11.185,2.0,1.0,1.0,34.4,33.8,33.8,1.8,2.0,2.59,0.4360529370619164,-0.04800561892119262,0.8817289170456445,0.010269699784558104,-0.143095,-26.179818
11.185,2.0,1.0,1.0,34.4,33.8,33.8,1.8,2.0,2.5925,0.426535921110224,-0.04896362733077755,0.8860547203775304,0.009909167760660757,-0.145619,-26.028201
11.185,2.0,1.0,1.0,34.4,33.8,33.8,1.8,2.0,2.595,0.4168946781429869,-0.04994073215081028,0.8903073448377896,0.009528208407702467,-0.148214,-25.875624
11.185,2.0,1.0,1.0,34.4,33.8,33.8,1.8,2.0,2.5975,0.4071278858425708,-0.05093730019909851,0.8944840996120909,0.009125916138098879,-0.150881,-25.722071
11.185,2.0,1.0,1.0,34.4,33.8,33.8,1.8,2.0,2.6,0.39723422156303784,-0.051953701504239815,0.8985822009707115,0.00870134306433144,-0.153624,-25.567526
11.185,2.0,1.0,1.0,34.4,33.8,33.8,1.8,2.0,2.6025,0.38721236366506,-0.05299030887509308,0.9025987687845289,0.00825349682227516,-0.156447,-25.411971
11.185,2.0,1.0,1.0,34.4,33.8,33.8,1.8,2.0,2.605,0.3770609929624543,-0.054047497412401356,0.9065308228925056,0.007781338270615756,-0.159351,-25.255388
11.185,2.0,1.0,1.0,34.4,33.8,33.8,1.8,2.0,2.6075,0.36677879428884946,-0.055125643956599635,0.9103752793131621,0.007283779058597051,-0.16234,-25.09776
11.185,2.0,1.0,1.0,34.4,33.8,33.8,1.8,2.0,2.61,0.35636445819369245,-0.05622512646523577,0.9141289462920753,0.006759679053804499,-0.165418,-24.939067
11.185,2.0,1.0,1.0,34.4,33.8,33.8,1.8,2.0,2.6125,0.3458166827775552,-0.05734632331276212,0.9177885201769668,0.006207843621130521,-0.168588,-24.779292
11.185,2.0,1.0,1.0,34.4,33.8,33.8,1.8,2.0,2.615,0.3351341756775848,-0.05848961250470578,0.9213505811114195,0.005627020743462005,-0.171854,-24.618414
11.185,2.0,1.0,1.0,34.4,33.8,33.8,1.8,2.0,2.6175,0.32431565621486697,-0.059655370797399826,0.9248115885376933,0.005015897973975964,-0.17522,-24.456414
11.185,2.0,1.0,1.0,34.4,33.8,33.8,1.8,2.0,2.62,0.31335985771648894,-0.06084397271353963,0.9281678764985394,0.0043730992092436355,-0.17869,-24.293271
11.185,2.0,1.0,1.0,34.4,33.8,33.8,1.8,2.0,2.6225,0.30226553002622886,-0.062055789442812044,0.9314156487272636,0.0036971812715924208,-0.182269,-24.128966
11.185,2.0,1.0,1.0,34.4,33.8,33.8,1.8,2.0,2.625,0.291031442219065,-0.0632911876157074,0.934550973514613,0.00298663028838299,-0.18596,-23.963475
11.185,2.0,1.0,1.0,34.4,33.8,33.8,1.8,2.0,2.6275,0.27965638553602756,-0.06455052793737448,0.9375697783403298,0.002239857855006318,-0.18977,-23.796778
11.185,2.0,1.0,1.0,34.4,33.8,33.8,1.8,2.0,2.63,0.268139176557488,-0.06583416366697088,0.940467844256464,0.0014551969674958646,-0.193702,-23.628852
11.185,2.0,1.0,1.0,34.4,33.8,33.8,1.8,2.0,2.6325,0.25647866063462943,-0.0671424389264047,0.9432408000086723,0.0006308977096772876,-0.197763,-23.459674
11.185,2.0,1.0,1.0,34.4,33.8,33.8,1.8,2.0,2.635,0.24467371560071677,-0.0684756868206285,0.9458841158808872,-0.00023487732125852836,-0.201959,-23.289221
11.185,2.0,1.0,1.0,34.4,33.8,33.8,1.8,2.0,2.6375,0.23272325578585853,-0.06983422734970204,0.9483930972477764,-0.0011440578679823277,-0.206294,-23.117468
11.185,2.0,1.0,1.0,34.4,33.8,33.8,1.8,2.0,2.64,0.22062623636119272,-0.07121836509068838,0.9507628778184329,-0.002098671163453602,-0.210776,-22.94439
11.185,2.0,1.0,1.0,34.4,33.8,33.8,1.8,2.0,2.6425,0.20838165804105652,-0.07262838662501957,0.9529884125536519,-0.0031008473982025576,-0.215411,-22.769963
11.185,2.0,1.0,1.0,34.4,33.8,33.8,1.8,2.0,2.645,0.19598857217444593,-0.0740645576842786,0.9550644702380561,-0.0041528255254524105,-0.220206,-22.594159
11.185,2.0,1.0,1.0,34.4,33.8,33.8,1.8,2.0,2.6475,0.1834460862602874,-0.07552711998431567,0.9569856256871135,-0.005256959426479334,-0.225169,-22.416952
11.185,2.0,1.0,1.0,34.4,33.8,33.8,1.8,2.0,2.65,0.17075336992449058,-0.07701628771423832,0.9587462515678656,-0.006415724460097923,-0.230309,-22.238315
11.185,2.0,1.0,1.0,34.4,33.8,33.8,1.8,2.0,2.6525,0.157909661400762,-0.0785322436430186,0.9603405098108335,-0.007631724421729559,-0.235632,-22.058218
11.185,2.0,1.0,1.0,34.4,33.8,33.8,1.8,2.0,2.655,0.14491427456143063,-0.08007513480221465,0.9617623425892263,-0.008907698939166712,-0.241149,-21.876633
11.185,2.0,1.0,1.0,34.4,33.8,33.8,1.8,2.0,2.6575,0.13176660654953984,-0.08164506769852181,0.963005462840108,-0.01024653133386771,-0.246868,-21.693531
11.185,2.0,1.0,1.0,34.4,33.8,33.8,1.8,2.0,2.66,0.11846614606886166,-0.08324210300451518,0.9640633443007107,-0.011651256978420895,-0.2528,-21.508879
11.185,2.0,1.0,1.0,34.4,33.8,33.8,1.8,2.0,2.6625,0.1050124823947309,-0.08486624966990129,0.9649292110315397,-0.013125072182666715,-0.258956,-21.322646
11.185,2.0,1.0,1.0,34.4,33.8,33.8,1.8,2.0,2.665,0.09140531517538958,-0.08651745838882592,0.9655960263963711,-0.014671343642889837,-0.265347,-21.1348
11.185,2.0,1.0,1.0,34.4,33.8,33.8,1.8,2.0,2.6675,0.07764446510142108,-0.08819561435112194,0.9660564814676645,-0.016293618490417657,-0.271985,-20.945307
11.185,2.0,1.0,1.0,34.4,33.8,33.8,1.8,2.0,2.67,0.06372988552946746,-0.08990052919677947,0.9663029828243916,-0.017995634977928592,-0.278884,-20.754133
11.185,2.0,1.0,1.0,34.4,33.8,33.8,1.8,2.0,2.6725,0.049661675156301266,-0.09163193208318639,0.9663276397077286,-0.019781333843689772,-0.286057,-20.561242
11.185,2.0,1.0,1.0,34.4,33.8,33.8,1.8,2.0,2.675,0.03544009185040889,-0.09338945976371194,0.9661222504987373,-0.021654870395814887,-0.293518,-20.366597
11.185,2.0,1.0,1.0,34.4,33.8,33.8,1.8,2.0,2.6775,0.021065567760700617,-0.09517264556380073,0.9656782884808018,-0.023620627360375814,-0.301285,-20.170161
11.185,2.0,1.0,1.0,34.4,33.8,33.8,1.8,2.0,2.68,0.00653872583605851,-0.09698090712671201,0.9649868868486374,-0.02568322853877679,-0.309372,-19.971895
11.185,2.0,1.0,1.0,34.4,33.8,33.8,1.8,2.0,2.6825,-0.008139602094538732,-0.09881353278515488,0.9640388229248916,-0.027847553321077245,-0.3178,-19.771759
11.185,2.0,1.0,1.0,34.4,33.8,33.8,1.8,2.0,2.685,-0.022968355513683043,-0.10066966639709152,0.9628245015450553,-0.030118752102879544,-0.326587,-19.569711
11.185,2.0,1.0,1.0,34.4,33.8,33.8,1.8,2.0,2.6875,-0.0379462234908086,-0.10254829046358656,0.9613339375716856,-0.032502262653778216,-0.335753,-19.36571
11.185,2.0,1.0,1.0,34.4,33.8,33.8,1.8,2.0,2.69,-0.053071620829828,-0.10444820732346148,0.9595567374998574,-0.0350038274850687,-0.345322,-19.159711
11.185,2.0,1.0,1.0,34.4,33.8,33.8,1.8,2.0,2.6925,-0.06834266185168224,-0.1063680181932799,0.957482080117782,-0.037629512263203824,-0.355317,-18.95167
11.185,2.0,1.0,1.0,34.4,33.8,33.8,1.8,2.0,2.695,-0.08375713154447806,-0.10830609979138492,0.9550986961896637,-0.040385725313068,-0.365764,-18.741539
11.185,2.0,1.0,1.0,34.4,33.8,33.8,1.8,2.0,2.6975,-0.09931245378030817,-0.11026057825087879,0.9523948471326897,-0.04327923825122352,-0.376691,-18.529272
11.185,2.0,1.0,1.0,34.4,33.8,33.8,1.8,2.0,2.7,-0.11500565625928534,-0.11222929998795989,0.9493583026668139,-0.046317207783369396,-0.388127,-18.314819
11.185,2.0,1.0,1.0,34.4,33.8,33.8,1.8,2.0,2.7025,-0.1308333317978923,-0.11420979914831567,0.9459763174253758,-0.049507198691887626,-0.400106,-18.098129
11.185,2.0,1.0,1.0,34.4,33.8,33.8,1.8,2.0,2.705,-0.14679159552914833,-0.11619926120454736,0.9422356065271812,-0.05285720802780502,-0.412662,-17.879149
11.185,2.0,1.0,1.0,34.4,33.8,33.8,1.8,2.0,2.7075,-0.16287603752585528,-0.1181944822210776,0.9381223201273076,-0.05637569050600241,-0.425833,-17.657826
11.185,2.0,1.0,1.0,34.4,33.8,33.8,1.8,2.0,2.71,-0.17908167029419375,-0.12019182323871208,0.933622016985631,-0.0600715850819946,-0.43966,-17.434105
11.185,2.0,1.0,1.0,34.4,33.8,33.8,1.8,2.0,2.7125,-0.19540287051233896,-0.12218715915797437,0.9287196371201658,-0.06395434266185976,-0.454187,-17.207927
11.185,2.0,1.0,1.0,34.4,33.8,33.8,1.8,2.0,2.715,-0.21183331430621116,-0.12417582141733076,0.9233994736483253,-0.06803395486230533,-0.469462,-16.979235
11.185,2.0,1.0,1.0,34.4,33.8,33.8,1.8,2.0,2.7175,-0.22836590526090195,-0.12615253366820375,0.9176451439651421,-0.07232098369351356,-0.485539,-16.747967
11.185,2.0,1.0,1.0,34.4,33.8,33.8,1.8,2.0,2.72,-0.24499269426018452,-0.12811133954183238,0.9114395604657266,-0.07682659198087136,-0.502473,-16.514062
11.185,2.0,1.0,1.0,34.4,33.8,33.8,1.8,2.0,2.7225,-0.26170479012653375,-0.13004552148205725,0.9047649010927844,-0.08156257427001333,-0.520328,-16.277456
11.185,2.0,1.0,1.0,34.4,33.8,33.8,1.8,2.0,2.725,-0.2784922598983581,-0.13194750948138856,0.8976025800826002,-0.08654138786904327,-0.539172,-16.038084
11.185,2.0,1.0,1.0,34.4,33.8,33.8,1.8,2.0,2.7275,-0.2953440174284775,-0.13380877840360086,0.8899332193990327,-0.09177618356787419,-0.559078,-15.795878
11.185,2.0,1.0,1.0,34.4,33.8,33.8,1.8,2.0,2.73,-0.3122476988163182,-0.13561973240291136,0.8817366214905245,-0.09728083543158485,-0.580127,-15.55077
11.185,2.0,1.0,1.0,34.4,33.8,33.8,1.8,2.0,2.7325,-0.3291895229944508,-0.1373695747560176,0.8729917441867229,-0.10306996888568823,-0.60241,-15.30269
11.185,2.0,1.0,1.0,34.4,33.8,33.8,1.8,2.0,2.735,-0.34615413557692015,-0.13904616120755048,0.8636766787778474,-0.10915898608753766,-0.626024,-15.051567
11.185,2.0,1.0,1.0,34.4,33.8,33.8,1.8,2.0,2.7375,-0.36312443384117044,-0.14063583469100654,0.8537686326018353,-0.11556408729927899,-0.651077,-14.797327
11.185,2.0,1.0,1.0,34.4,33.8,33.8,1.8,2.0,2.74,-0.3800813704576361,-0.14212323902585644,0.8432439178146096,-0.12230228663068721,-0.677687,-14.539899
11.185,2.0,1.0,1.0,34.4,33.8,33.8,1.8,2.0,2.7425,-0.3970037333023198,-0.1434911089083766,0.8320779484536133,-0.12939142008903562,-0.705986,-14.279206
11.185,2.0,1.0,1.0,34.4,33.8,33.8,1.8,2.0,2.745,-0.41386789839093,-0.14472003321174665,0.8202452484433252,-0.13685014333820655,-0.736118,-14.015175
11.185,2.0,1.0,1.0,34.4,33.8,33.8,1.8,2.0,2.7475,-0.4306475526643223,-0.14578818829565787,0.8077194738577695,-0.1446979159068687,-0.768244,-13.747732
11.185,2.0,1.0,1.0,34.4,33.8,33.8,1.8,2.0,2.75,-0.447313383043732,-0.146671037706537,0.794473453577658,-0.152954967766773,-0.802541,-13.4768
11.185,2.0,1.0,1.0,34.4,33.8,33.8,1.8,2.0,2.7525,-0.4638327278756864,-0.14734099434142173,0.7804792534935978,-0.16164224319228535,-0.839207,-13.202308
11.185,2.0,1.0,1.0,34.4,33.8,33.8,1.8,2.0,2.755,-0.48016918662365904,-0.14776704087417333,0.7657082706530797,-0.17078131556949414,-0.878462,-12.924183
11.185,2.0,1.0,1.0,34.4,33.8,33.8,1.8,2.0,2.7575,-0.49628218347022346,-0.14791430403546565,0.7501313652768464,-0.180394265298306,-0.920552,-12.642356
11.185,2.0,1.0,1.0,34.4,33.8,33.8,1.8,2.0,2.76,-0.5121264804181459,-0.14774357824599654,0.7337190404370673,-0.1905035110660347,-0.965751,-12.356762
11.185,2.0,1.0,1.0,34.4,33.8,33.8,1.8,2.0,2.7625,-0.5276516355905825,-0.14721079419401437,0.7164416814610644,-0.2011315825000102,-1.014366,-12.067341
11.185,2.0,1.0,1.0,34.4,33.8,33.8,1.8,2.0,2.765,-0.5428014028253104,-0.14626642831922973,0.698269869873788,-0.21230081945524765,-1.066743,-11.774037
11.185,2.0,1.0,1.0,34.4,33.8,33.8,1.8,2.0,2.7675,-0.5575130694686106,-0.14485484994775708,0.6791747899986456,-0.22403297988121634,-1.123269,-11.476804
11.185,2.0,1.0,1.0,34.4,33.8,33.8,1.8,2.0,2.77,-0.5717167306822747,-0.14291360419776633,0.6591287502801099,-0.23634873425748526,-1.18438,-11.175607
11.185,2.0,1.0,1.0,34.4,33.8,33.8,1.8,2.0,2.7725,-0.5853345008268209,-0.14037263098732689,0.638105846045943,-0.2492670199163388,-1.250571,-10.870422
11.185,2.0,1.0,1.0,34.4,33.8,33.8,1.8,2.0,2.775,-0.5982796659015318,-0.13715342385072282,0.6160827958440662,-0.26280422312675034,-1.3224,-10.561242
11.185,2.0,1.0,1.0,34.4,33.8,33.8,1.8,2.0,2.7775,-0.6104557860366532,-0.13316813723705848,0.59303998967804,-0.27697315058643057,-1.400499,-10.248078
11.185,2.0,1.0,1.0,34.4,33.8,33.8,1.8,2.0,2.78,-0.6217557642011465,-0.12831865808269677,0.568962794356057,-0.2917817450231474,-1.485589,-9.930966
11.185,2.0,1.0,1.0,34.4,33.8,33.8,1.8,2.0,2.7825,-0.6320609073176084,-0.12249566742633809,0.5438431685599621,-0.3072314921398842,-1.578488,-9.609971
11.185,2.0,1.0,1.0,34.4,33.8,33.8,1.8,2.0,2.785,-0.6412400197413701,-0.11557773155343977,0.5176816477227147,-0.3233154585564672,-1.680132,-9.28519
11.185,2.0,1.0,1.0,34.4,33.8,33.8,1.8,2.0,2.7875,-0.6491485876158687,-0.10743048067433415,0.49048976564466396,-0.3400158934279778,-1.79159,-8.956764
11.185,2.0,1.0,1.0,34.4,33.8,33.8,1.8,2.0,2.79,-0.6556281371667008,-0.09790595767272778,0.46229298477761277,-0.3573013212563347,-1.914089,-8.624882
11.185,2.0,1.0,1.0,34.4,33.8,33.8,1.8,2.0,2.7925,-0.6605058818239933,-0.0868422513034893,0.43313420838365163,-0.37512305193005424,-2.049036,-8.289793
11.185,2.0,1.0,1.0,34.4,33.8,33.8,1.8,2.0,2.795,-0.6635948133576917,-0.07406356857907893,0.40307794252657264,-0.3934110390348644,-2.198052,-7.951812
11.185,2.0,1.0,1.0,34.4,33.8,33.8,1.8,2.0,2.7975,-0.6646944417586312,-0.059380950770639894,0.37221516005036914,-0.4120690330075712,-2.363004,-7.611338
11.185,2.0,1.0,1.0,34.4,33.8,33.8,1.8,2.0,2.8,-0.6635924472459794,-0.04259389633404051,0.34066888679781,-0.43096900731599647,-2.546049,-7.268863
11.185,2.0,1.0,1.0,34.4,33.8,33.8,1.8,2.0,2.8025,-0.6600675735899255,-0.023493220240779718,0.30860047505661353,-0.44994489083268624,-2.749681,-6.92499
11.185,2.0,1.0,1.0,34.4,33.8,33.8,1.8,2.0,2.805,-0.6538941599379299,-0.001865547700535311,0.27621644164692793,-0.4687857269179643,-2.976788,-6.580444
11.185,2.0,1.0,1.0,34.4,33.8,33.8,1.8,2.0,2.8075,-0.6448487688287088,0.02250009858084769,0.24377561814149923,-0.4872285095421261,-3.230719,-6.236094
11.185,2.0,1.0,1.0,34.4,33.8,33.8,1.8,2.0,2.81,-0.632719404579657,0.049803121166464265,0.2115961788446478,-0.5049511287303108,-3.515358,-5.89297
11.185,2.0,1.0,1.0,34.4,33.8,33.8,1.8,2.0,2.8125,-0.6173178033422935,0.0802190962553616,0.18006187227574266,-0.5215660978643863,-3.835208,-5.552274
11.185,2.0,1.0,1.0,34.4,33.8,33.8,1.8,2.0,2.815,-0.598495178174004,0.11388406034461986,0.149626486676083,-0.5366160313218004,-4.195488,-5.215398
11.185,2.0,1.0,1.0,34.4,33.8,33.8,1.8,2.0,2.8175,-0.576161574434151,0.1508751752937265,0.12081524865241962,-0.5495721734188737,-4.602235,-4.883935
11.185,2.0,1.0,1.0,34.4,33.8,33.8,1.8,2.0,2.82,-0.5503085837034429,0.19118801878098862,0.09422153202535213,-0.5598376030293724,-5.062392,-4.559679
11.185,2.0,1.0,1.0,34.4,33.8,33.8,1.8,2.0,2.8225,-0.5210345382248841,0.23471137366915518,0.0704970230875136,-0.5667569705271086,-5.583884,-4.244624
11.185,2.0,1.0,1.0,34.4,33.8,33.8,1.8,2.0,2.825,-0.48857045427051504,0.28120124427569687,0.050333471980335,-0.5696346413219673,-6.175605,-3.940943
11.185,2.0,1.0,1.0,34.4,33.8,33.8,1.8,2.0,2.8275,-0.4533039675942721,0.330256853960518,0.034434514404558046,-0.5677627662201898,-6.847221,-3.650955
11.185,2.0,1.0,1.0,34.4,33.8,33.8,1.8,2.0,2.83,-0.41579746225758113,0.3813024211835175,0.023476932245750867,-0.5604599141259748,-7.60854,-3.37708
