1,w,sub_t,h,l1,l2,l3,g1,g2,Freq,S11_re,S21_re,S11_img,S21_img,S11_dB,S21_dB
11.185,2.0,1.0,1.0,34.0,33.0,33.0,1.5,2.5,2.5,0.779982859193685,-0.0165745147716749,0.612713835971001,0.0128728977472419,-0.070969,-33.56127
11.185,2.0,1.0,1.0,34.0,33.0,33.0,1.5,2.5,2.5025,0.775259725330539,-0.016904330457901226,0.6185366503139197,0.012908766627034194,-0.071748,-33.444845
11.185,2.0,1.0,1.0,34.0,33.0,33.0,1.5,2.5,2.505,0.7704675913211821,-0.017240074413101648,0.6243519258531939,0.012942312903569203,-0.072541,-33.328052
11.185,2.0,1.0,1.0,34.0,33.0,33.0,1.5,2.5,2.5075,0.7656057059040902,-0.017581857216820637,0.6301591517355749,0.012973433161247936,-0.073349,-33.210888
11.185,2.0,1.0,1.0,34.0,33.0,33.0,1.5,2.5,2.51,0.7606733069070286,-0.01792979156153103,0.6359578009831128,0.013002020065229252,-0.074172,-33.093345
11.185,2.0,1.0,1.0,34.0,33.0,33.0,1.5,2.5,2.5125,0.7556696211459978,-0.01828399228224875,0.6417473299685467,0.013027962208505278,-0.075012,-32.975417
11.185,2.0,1.0,1.0,34.0,33.0,33.0,1.5,2.5,2.515,0.7505938643273805,-0.018644576385540824,0.6475271778735187,0.013051143952726343,-0.075867,-32.8571
11.185,2.0,1.0,1.0,34.0,33.0,33.0,1.5,2.5,2.5175,0.7454452409536494,-0.019011663077820484,0.6532967661290189,0.01307144526250961,-0.07674,-32.738386
11.185,2.0,1.0,1.0,34.0,33.0,33.0,1.5,2.5,2.52,0.7402229442329751,-0.019385373792819162,0.6590554978374874,0.013088741532952492,-0.077629,-32.61927
11.185,2.0,1.0,1.0,34.0,33.0,33.0,1.5,2.5,2.5225,0.7349261559931437,-0.01976583221811029,0.6648027571759266,0.013102903410059688,-0.078535,-32.499746
11.185,2.0,1.0,1.0,34.0,33.0,33.0,1.5,2.5,2.525,0.7295540466001722,-0.02015316432055674,0.6705379087794159,0.013113796603781128,-0.079459,-32.379807
11.185,2.0,1.0,1.0,34.0,33.0,33.0,1.5,2.5,2.5275,0.7241057748820684,-0.020547498370536033,0.6762602971043593,0.013121281693342455,-0.080402,-32.259448
11.185,2.0,1.0,1.0,34.0,33.0,33.0,1.5,2.5,2.53,0.7185804880582006,-0.020948964964791133,0.6819692457707827,0.01312521392453894,-0.081363,-32.138661
11.185,2.0,1.0,1.0,34.0,33.0,33.0,1.5,2.5,2.5325,0.7129773216747668,-0.02135769704773971,0.6876640568829867,0.013125442998645358,-0.082343,-32.017441
11.185,2.0,1.0,1.0,34.0,33.0,33.0,1.5,2.5,2.535,0.7072953995468837,-0.021773829931062635,0.6933440103278341,0.01312181285258294,-0.083342,-31.895782
11.185,2.0,1.0,1.0,34.0,33.0,33.0,1.5,2.5,2.5375,0.7015338337078686,-0.02219750131137737,0.69900836304991,0.013114161429965576,-0.084362,-31.773676
11.185,2.0,1.0,1.0,34.0,33.0,33.0,1.5,2.5,2.54,0.695691724366289,-0.02262885128578767,0.7046563483028002,0.013102320442633245,-0.085402,-31.651117
11.185,2.0,1.0,1.0,34.0,33.0,33.0,1.5,2.5,2.5425,0.6897681598714218,-0.023068022365084113,0.7102871748756822,0.013086115122261592,-0.086463,-31.528099
11.185,2.0,1.0,1.0,34.0,33.0,33.0,1.5,2.5,2.545,0.6837622166877821,-0.023515159484353017,0.7159000262944104,0.013065363961620093,-0.087546,-31.404616
11.185,2.0,1.0,1.0,34.0,33.0,33.0,1.5,2.5,2.5475,0.6776729593794482,-0.023970410010730976,0.7214940599962429,0.013039878445031626,-0.088651,-31.280659
11.185,2.0,1.0,1.0,34.0,33.0,33.0,1.5,2.5,2.55,0.6714994406049125,-0.024433923748024843,0.7270684064773506,0.01300946276756682,-0.089778,-31.156223
11.185,2.0,1.0,1.0,34.0,33.0,33.0,1.5,2.5,2.5525,0.6652407011232917,-0.024905852937891805,0.7326221684121813,0.012973913542486774,-0.090929,-31.0313
11.185,2.0,1.0,1.0,34.0,33.0,33.0,1.5,2.5,2.555,0.6588957698127194,-0.025386352257254996,0.7381544197437766,0.012933019496425766,-0.092104,-30.905885
11.185,2.0,1.0,1.0,34.0,33.0,33.0,1.5,2.5,2.5575,0.6524636637018377,-0.025875578811601647,0.7436642047440711,0.012886561151784172,-0.093303,-30.779969
11.185,2.0,1.0,1.0,34.0,33.0,33.0,1.5,2.5,2.56,0.6459433880153493,-0.026373692123786048,0.7491505370431811,0.012834310495778703,-0.094528,-30.653545
11.185,2.0,1.0,1.0,34.0,33.0,33.0,1.5,2.5,2.5625,0.6393339362346437,-0.026880854117930897,0.7546123986266798,0.012776030635572679,-0.095778,-30.526608
11.185,2.0,1.0,1.0,34.0,33.0,33.0,1.5,2.5,2.565,0.6326342901745718,-0.02739722909798902,0.760048738799803,0.012711475438885029,-0.097055,-30.399148
11.185,2.0,1.0,1.0,34.0,33.0,33.0,1.5,2.5,2.5675,0.6258434200775326,-0.02792298372049507,0.7654584731175066,0.012640389159450104,-0.098358,-30.271159
11.185,2.0,1.0,1.0,34.0,33.0,33.0,1.5,2.5,2.57,0.6189602847260701,-0.028458286961001545,0.7708404822792694,0.012562506046674192,-0.09969,-30.142635
11.185,2.0,1.0,1.0,34.0,33.0,33.0,1.5,2.5,2.5725,0.6119838315752814,-0.029003310073655718,0.7761936109875051,0.012477549938806093,-0.101051,-30.013566
11.185,2.0,1.0,1.0,34.0,33.0,33.0,1.5,2.5,2.575,0.604912996906398,-0.02955822654333235,0.7815166667683977,0.012385233838910529,-0.102441,-29.883946
11.185,2.0,1.0,1.0,34.0,33.0,33.0,1.5,2.5,2.5775,0.5977467060030002,-0.030123212029694854,0.7868084187539649,0.012285259472903058,-0.103862,-29.753766
11.185,2.0,1.0,1.0,34.0,33.0,33.0,1.5,2.5,2.58,0.590483873351401,-0.030698444302509603,0.7920675964240982,0.012177316828874043,-0.105314,-29.62302
11.185,2.0,1.0,1.0,34.0,33.0,33.0,1.5,2.5,2.5825,0.5831234028668267,-0.03128410316748834,0.7972928883073225,0.01206108367689691,-0.106798,-29.4917
11.185,2.0,1.0,1.0,34.0,33.0,33.0,1.5,2.5,2.585,0.5756641881471424,-0.0318803703818803,0.8024829406389508,0.011936225068481526,-0.108314,-29.359797
11.185,2.0,1.0,1.0,34.0,33.0,33.0,1.5,2.5,2.5875,0.5681051127559396,-0.032487429558976634,0.8076363559753069,0.011802392814801551,-0.109865,-29.227304
11.185,2.0,1.0,1.0,34.0,33.0,33.0,1.5,2.5,2.59,0.5604450505369518,-0.03310546606062747,0.8127516917626322,0.011659224942785148,-0.111451,-29.094212
11.185,2.0,1.0,1.0,34.0,33.0,33.0,1.5,2.5,2.5925,0.5526828659618519,-0.0337346668768088,0.8178274588592742,0.011506345128124545,-0.113073,-28.960514
11.185,2.0,1.0,1.0,34.0,33.0,33.0,1.5,2.5,2.595,0.5448174145136377,-0.03437522049119858,0.8228621200097062,0.011343362104220739,-0.114731,-28.826201
11.185,2.0,1.0,1.0,34.0,33.0,33.0,1.5,2.5,2.5975,0.5368475431079088,-0.035027316731650895,0.8278540882689129,0.01116986904603908,-0.116428,-28.691265
11.185,2.0,1.0,1.0,34.0,33.0,33.0,1.5,2.5,2.6,0.5287720905545134,-0.03569114660437101,0.8328017253756251,0.010985442927814034,-0.118164,-28.555697
11.185,2.0,1.0,1.0,34.0,33.0,33.0,1.5,2.5,2.6025,0.5205898880621763,-0.03636690211050745,0.8377033400728604,0.010789643853495939,-0.11994,-28.419489
11.185,2.0,1.0,1.0,34.0,33.0,33.0,1.5,2.5,2.605,0.5122997597888712,-0.03705477604378045,0.8425571863742038,0.010582014358793605,-0.121757,-28.282632
11.185,2.0,1.0,1.0,34.0,33.0,33.0,1.5,2.5,2.6075,0.5039005234408815,-0.037754961767666365,0.8473614617742204,0.010362078683620185,-0.123618,-28.145117
11.185,2.0,1.0,1.0,34.0,33.0,33.0,1.5,2.5,2.61,0.4953909909236648,-0.03846765297054656,0.8521143054013591,0.010129342013706173,-0.125523,-28.006936
11.185,2.0,1.0,1.0,34.0,33.0,33.0,1.5,2.5,2.6125,0.48676996904782144,-0.03919304339711251,0.8568137961116966,0.009883289690098612,-0.127473,-27.86808
11.185,2.0,1.0,1.0,34.0,33.0,33.0,1.5,2.5,2.615,0.4780362602936661,-0.039931326554193465,0.8614579505218304,0.00962338638521571,-0.12947,-27.728539
11.185,2.0,1.0,1.0,34.0,33.0,33.0,1.5,2.5,2.6175,0.4691886636381283,-0.040682695389033414,0.8660447209791965,0.009349075244083913,-0.131515,-27.588305
11.185,2.0,1.0,1.0,34.0,33.0,33.0,1.5,2.5,2.62,0.460225975447915,-0.04144734193790534,0.8705719934680918,0.009059776989331848,-0.13361,-27.447367
11.185,2.0,1.0,1.0,34.0,33.0,33.0,1.5,2.5,2.6225,0.4511469904431027,-0.04222545694278824,0.8750375854496396,0.008754888988470828,-0.135757,-27.305718
11.185,2.0,1.0,1.0,34.0,33.0,33.0,1.5,2.5,2.625,0.441950502735618,-0.043017229433665,0.879439243633918,0.00843378428194022,-0.137956,-27.163346
11.185,2.0,1.0,1.0,34.0,33.0,33.0,1.5,2.5,2.6275,0.43263530694727287,-0.04382284627382382,0.883774641682487,0.008095810570350338,-0.14021,-27.020243
11.185,2.0,1.0,1.0,34.0,33.0,33.0,1.5,2.5,2.63,0.4232001994123637,-0.04464249166534446,0.8880413778395049,0.007740289159304427,-0.142521,-26.876398
11.185,2.0,1.0,1.0,34.0,33.0,33.0,1.5,2.5,2.6325,0.41364397947010784,-0.04547634661174724,0.8922369724896445,0.007366513860135444,-0.14489,-26.731802
11.185,2.0,1.0,1.0,34.0,33.0,33.0,1.5,2.5,2.635,0.40396545085253405,-0.046324588334556334,0.8963588656410187,0.006973749844844942,-0.14732,-26.586445
11.185,2.0,1.0,1.0,34.0,33.0,33.0,1.5,2.5,2.6375,0.39416342317378156,-0.047187389640287423,0.9004044143313156,0.006561232453487092,-0.149811,-26.440316
11.185,2.0,1.0,1.0,34.0,33.0,33.0,1.5,2.5,2.64,0.38423671352710376,-0.04806491823411221,0.904370889955388,0.006128165952195014,-0.152367,-26.293406
11.185,2.0,1.0,1.0,34.0,33.0,33.0,1.5,2.5,2.6425,0.374184148196294,-0.048957335976173424,0.908255475512534,0.0056737222400057765,-0.154989,-26.145704
11.185,2.0,1.0,1.0,34.0,33.0,33.0,1.5,2.5,2.645,0.364004564488634,-0.04986479807622068,0.9120552627717586,0.005197039502601399,-0.15768,-25.997198
11.185,2.0,1.0,1.0,34.0,33.0,33.0,1.5,2.5,2.6475,0.3536968126969115,-0.050787452221921894,0.9157672493533244,0.00469722081104714,-0.160441,-25.84788
11.185,2.0,1.0,1.0,34.0,33.0,33.0,1.5,2.5,2.65,0.34325975819850196,-0.05172543763585245,0.9193883357249895,0.0041733326635760345,-0.163276,-25.697737
11.185,2.0,1.0,1.0,34.0,33.0,33.0,1.5,2.5,2.6525,0.3326922837000417,-0.05267888405579253,0.9229153221113354,0.003624403468445815,-0.166187,-25.546759
11.185,2.0,1.0,1.0,34.0,33.0,33.0,1.5,2.5,2.655,0.32199329163667956,-0.0536479106325657,0.9263449053147387,0.003049421965868104,-0.169177,-25.394935
11.185,2.0,1.0,1.0,34.0,33.0,33.0,1.5,2.5,2.6575,0.31116170673551624,-0.05463262473921395,0.9296736754465551,0.0024473355870041347,-0.172248,-25.242252
11.185,2.0,1.0,1.0,34.0,33.0,33.0,1.5,2.5,2.66,0.30019647875338007,-0.05563312068484523,0.9328981125672703,0.001817048748010392,-0.175402,-25.088701
11.185,2.0,1.0,1.0,34.0,33.0,33.0,1.5,2.5,2.6625,0.2890965853997661,-0.05664947832598519,0.9360145832344353,0.0011574210771281362,-0.178644,-24.934269
11.185,2.0,1.0,1.0,34.0,33.0,33.0,1.5,2.5,2.665,0.2778610354563791,-0.05768176156773088,0.939019336957405,0.0004672655728246328,-0.181977,-24.778945
11.185,2.0,1.0,1.0,34.0,33.0,33.0,1.5,2.5,2.6675,0.26648887210550937,-0.058730016746419186,0.9419085025580357,-0.00025465330897218456,-0.185402,-24.622716
11.185,2.0,1.0,1.0,34.0,33.0,33.0,1.5,2.5,2.67,0.2549791764801559,-0.0597942708849049,0.9446780844367281,-0.0010096216404597118,-0.188925,-24.465571
11.185,2.0,1.0,1.0,34.0,33.0,33.0,1.5,2.5,2.6725,0.2433310714496707,-0.06087452981086796,0.9473239587434115,-0.0017989780822150402,-0.192548,-24.307496
11.185,2.0,1.0,1.0,34.0,33.0,33.0,1.5,2.5,2.675,0.23154372565555545,-0.06197077612784505,0.9498418694533348,-0.0026241160198796367,-0.196275,-24.148481
11.185,2.0,1.0,1.0,34.0,33.0,33.0,1.5,2.5,2.6775,0.21961635781294525,-0.06308296702790596,0.9522274243478354,-0.0034864857789273086,-0.20011,-23.988512
11.185,2.0,1.0,1.0,34.0,33.0,33.0,1.5,2.5,2.68,0.20754824129430904,-0.06421103193405223,0.9544760909005889,-0.004387596919031002,-0.204057,-23.827577
11.185,2.0,1.0,1.0,34.0,33.0,33.0,1.5,2.5,2.6825,0.1953387090129452,-0.06535486995951173,0.956583192070237,-0.005329020609374169,-0.20812,-23.665661
11.185,2.0,1.0,1.0,34.0,33.0,33.0,1.5,2.5,2.685,0.18298715862496223,-0.0665143471701325,0.9585439020007164,-0.006312392086049404,-0.212305,-23.502754
11.185,2.0,1.0,1.0,34.0,33.0,33.0,1.5,2.5,2.6875,0.17049305806961518,-0.06768929363502682,0.9603532416311253,-0.007339413192439922,-0.216614,-23.33884
11.185,2.0,1.0,1.0,34.0,33.0,33.0,1.5,2.5,2.69,0.1578559514691804,-0.0688795002494863,0.9620060742174917,-0.008411855003188373,-0.221054,-23.173906
11.185,2.0,1.0,1.0,34.0,33.0,33.0,1.5,2.5,2.6925,0.14507546541083802,-0.07008471531297494,0.9634971007694697,-0.009531560532010196,-0.225629,-23.00794
11.185,2.0,1.0,1.0,34.0,33.0,33.0,1.5,2.5,2.695,0.1321513156345795,-0.07130464084368845,0.9648208554056575,-0.010700447523202617,-0.230344,-22.840926
11.185,2.0,1.0,1.0,34.0,33.0,33.0,1.5,2.5,2.6975,0.11908331415259182,-0.0725389286097617,0.9659717006320577,-0.011920511326228511,-0.235206,-22.672851
11.185,2.0,1.0,1.0,34.0,33.0,33.0,1.5,2.5,2.7,0.10587137682733165,-0.07378717585567604,0.9669438225490689,-0.013193827852194681,-0.240221,-22.5037
11.185,2.0,1.0,1.0,34.0,33.0,33.0,1.5,2.5,2.7025,0.09251553143718225,-0.07504892070078205,0.967731225993407,-0.014522556610409349,-0.245393,-22.333459
11.185,2.0,1.0,1.0,34.0,33.0,33.0,1.5,2.5,2.705,0.07901592626055136,-0.07632363718508232,0.9683277296224774,-0.015908943822453576,-0.25073,-22.162113
11.185,2.0,1.0,1.0,34.0,33.0,33.0,1.5,2.5,2.7075,0.06537283921120775,-0.07761072993551335,0.9687269609499688,-0.01735532561035097,-0.256239,-21.989647
11.185,2.0,1.0,1.0,34.0,33.0,33.0,1.5,2.5,2.71,0.05158668755989612,-0.07890952842391344,0.9689223513428661,-0.018864131254425667,-0.261927,-21.816046
11.185,2.0,1.0,1.0,34.0,33.0,33.0,1.5,2.5,2.7125,0.03765803827950325,-0.08021928078565635,0.9689071309916466,-0.020437886515312177,-0.267801,-21.641294
11.185,2.0,1.0,1.0,34.0,33.0,33.0,1.5,2.5,2.715,0.023587619053560188,-0.08153914716554342,0.9686743238672121,-0.022079217013273485,-0.27387,-21.465376
11.185,2.0,1.0,1.0,34.0,33.0,33.0,1.5,2.5,2.7175,0.009376329990488113,-0.08286819255499148,0.9682167426800885,-0.02379085165649732,-0.280141,-21.288276
11.185,2.0,1.0,1.0,34.0,33.0,33.0,1.5,2.5,2.72,-0.004974743911170907,-0.08420537908178798,0.967526983859662,-0.02557562610833447,-0.286623,-21.109977
11.185,2.0,1.0,1.0,34.0,33.0,33.0,1.5,2.5,2.7225,-0.019464319498326544,-0.08554955771072585,0.9665974225737224,-0.02743648628149855,-0.293327,-20.930464
11.185,2.0,1.0,1.0,34.0,33.0,33.0,1.5,2.5,2.725,-0.03409090134819543,-0.08689945931022812,0.9654202078113858,-0.029376491845017543,-0.30026,-20.74972
11.185,2.0,1.0,1.0,34.0,33.0,33.0,1.5,2.5,2.7275,-0.04885276674759185,-0.08825368503665315,0.963987257555625,-0.031398819727202626,-0.307435,-20.567727
11.185,2.0,1.0,1.0,34.0,33.0,33.0,1.5,2.5,2.73,-0.06374794970801236,-0.08961069598427435,0.9622902540751643,-0.0335067675949979,-0.314861,-20.38447
11.185,2.0,1.0,1.0,34.0,33.0,33.0,1.5,2.5,2.7325,-0.0787742239540357,-0.09096880204498088,0.9603206393694662,-0.035703757286795576,-0.32255,-20.199929
11.185,2.0,1.0,1.0,34.0,33.0,33.0,1.5,2.5,2.735,-0.0939290848183207,-0.0923261499174945,0.9580696108049953,-0.037993338172044776,-0.330514,-20.014089
11.185,2.0,1.0,1.0,34.0,33.0,33.0,1.5,2.5,2.7375,-0.10920972997204141,-0.09368071020135366,0.9555281169859446,-0.040379190406726446,-0.338767,-19.82693
11.185,2.0,1.0,1.0,34.0,33.0,33.0,1.5,2.5,2.74,-0.12461303891482403,-0.09503026350604603,0.9526868539082567,-0.042865128048908935,-0.347321,-19.638436
11.185,2.0,1.0,1.0,34.0,33.0,33.0,1.5,2.5,2.7425,-0.14013555114323883,-0.09637238550046708,0.9495362614520766,-0.04545510199309266,-0.356192,-19.448586
11.185,2.0,1.0,1.0,34.0,33.0,33.0,1.5,2.5,2.745,-0.15577344291145823,-0.09770443082232895,0.9460665202749261,-0.0481532026757704,-0.365393,-19.257364
11.185,2.0,1.0,1.0,34.0,33.0,33.0,1.5,2.5,2.7475,-0.17152250249207146,-0.09902351576122528,0.942267549175896,-0.05096366249750912,-0.374942,-19.06475
11.185,2.0,1.0,1.0,34.0,33.0,33.0,1.5,2.5,2.75,-0.187378103838971,-0.100326499622771,0.938129003010179,-0.0538908578987491,-0.384856,-18.870724
11.185,2.0,1.0,1.0,34.0,33.0,33.0,1.5,2.5,2.7525,-0.20333517854790162,-0.10160996467456512,0.9336402712434704,-0.0569393110173104,-0.395153,-18.675267
11.185,2.0,1.0,1.0,34.0,33.0,33.0,1.5,2.5,2.755,-0.21938818600355522,-0.10287019456767532,0.9287904772472303,-0.06011369084512089,-0.405851,-18.478361
11.185,2.0,1.0,1.0,34.0,33.0,33.0,1.5,2.5,2.7575,-0.23553108159515038,-0.10410315111992259,0.9235684784487435,-0.06341881378979522,-0.416972,-18.279984
11.185,2.0,1.0,1.0,34.0,33.0,33.0,1.5,2.5,2.76,-0.251757282875036,-0.1053044493394526,0.9179628674645688,-0.06685964353315682,-0.428538,-18.080116
11.185,2.0,1.0,1.0,34.0,33.0,33.0,1.5,2.5,2.7625,-0.26805963352742684,-0.10646933055895975,0.9119619743624255,-0.07044129006344302,-0.440571,-17.878738
11.185,2.0,1.0,1.0,34.0,33.0,33.0,1.5,2.5,2.765,-0.28443036500645597,-0.10759263354251013,0.9055538702152612,-0.07416900774045902,-0.453097,-17.675829
11.185,2.0,1.0,1.0,34.0,33.0,33.0,1.5,2.5,2.7675,-0.30086105569487404,-0.1086687634182477,0.8987263721322976,-0.07804819223309893,-0.466142,-17.471368
11.185,2.0,1.0,1.0,34.0,33.0,33.0,1.5,2.5,2.77,-0.31734258742668503,-0.10969165828144706,0.8914670499756839,-0.0820843761461008,-0.479733,-17.265333
11.185,2.0,1.0,1.0,34.0,33.0,33.0,1.5,2.5,2.7725,-0.33386509920902646,-0.11065475330350892,0.8837632349983519,-0.08628322312725582,-0.493901,-17.057704
11.185,2.0,1.0,1.0,34.0,33.0,33.0,1.5,2.5,2.775,-0.3504179379708638,-0.11155094217371735,0.8756020306691303,-0.09065052021716641,-0.508679,-16.848459
11.185,2.0,1.0,1.0,34.0,33.0,33.0,1.5,2.5,2.7775,-0.3669896061586967,-0.11237253569209306,0.8669703259857204,-0.09519216817053919,-0.5241,-16.637578
11.185,2.0,1.0,1.0,34.0,33.0,33.0,1.5,2.5,2.78,-0.3835677059928198,-0.11311121732372895,0.8578548116151183,-0.0999141694403962,-0.540201,-16.425037
11.185,2.0,1.0,1.0,34.0,33.0,33.0,1.5,2.5,2.7825,-0.40013888019192495,-0.11375799551789335,0.8482419992453181,-0.10482261347385634,-0.557021,-16.210816
11.185,2.0,1.0,1.0,34.0,33.0,33.0,1.5,2.5,2.785,-0.4166887489696487,-0.11430315258935572,0.8381182445820656,-0.10992365891965633,-0.574603,-15.994893
11.185,2.0,1.0,1.0,34.0,33.0,33.0,1.5,2.5,2.7875,-0.43320184310423565,-0.11473618995532281,0.8274697744810654,-0.11522351229249732,-0.592992,-15.777246
11.185,2.0,1.0,1.0,34.0,33.0,33.0,1.5,2.5,2.79,-0.4496615328828398,-0.1150457695197243,0.8162827187699713,-0.12072840257687277,-0.612237,-15.557853
11.185,2.0,1.0,1.0,34.0,33.0,33.0,1.5,2.5,2.7925,-0.46604995272558897,-0.11521965099816558,0.8045431473868818,-0.12644455118220294,-0.632389,-15.336694
11.185,2.0,1.0,1.0,34.0,33.0,33.0,1.5,2.5,2.795,-0.48234792130276916,-0.11524462498266656,0.7922371135437424,-0.13237813658092445,-0.653505,-15.113746
11.185,2.0,1.0,1.0,34.0,33.0,33.0,1.5,2.5,2.7975,-0.49853485697219185,-0.11510644155658935,0.7793507037153593,-0.13853525287039203,-0.675645,-14.88899
11.185,2.0,1.0,1.0,34.0,33.0,33.0,1.5,2.5,2.8,-0.514588688385057,-0.11478973428845969,0.7658700953587118,-0.14492186139692184,-0.698875,-14.662403
11.185,2.0,1.0,1.0,34.0,33.0,33.0,1.5,2.5,2.8025,-0.5304857601388278,-0.11427793946062235,0.7517816233843909,-0.15154373446454664,-0.723265,-14.433966
11.185,2.0,1.0,1.0,34.0,33.0,33.0,1.5,2.5,2.805,-0.5462007333975073,-0.11355321042717519,0.7370718565336978,-0.1584063900207084,-0.74889,-14.20366
11.185,2.0,1.0,1.0,34.0,33.0,33.0,1.5,2.5,2.8075,-0.5617064814560143,-0.11259632704828647,0.7217276849625229,-0.1655150160646557,-0.775834,-13.971465
11.185,2.0,1.0,1.0,34.0,33.0,33.0,1.5,2.5,2.81,-0.5769739802996415,-0.11138660021832292,0.7057364204983944,-0.17287438336017005,-0.804184,-13.737364
11.185,2.0,1.0,1.0,34.0,33.0,33.0,1.5,2.5,2.8125,-0.591972194306034,-0.109901771597493,0.689085911221266,-0.180488744850924,-0.834037,-13.501339
11.185,2.0,1.0,1.0,34.0,33.0,33.0,1.5,2.5,2.815,-0.6066679573612475,-0.10811790877615282,0.671764672223177,-0.18836171997287682,-0.865497,-13.263376
11.185,2.0,1.0,1.0,34.0,33.0,33.0,1.5,2.5,2.8175,-0.6210258498191779,-0.10600929625382743,0.6537620346280768,-0.19649616183241547,-0.898678,-13.023461
11.185,2.0,1.0,1.0,34.0,33.0,33.0,1.5,2.5,2.82,-0.635008071932924,-0.10354832280900274,0.6350683152015132,-0.2048940049706524,-0.933703,-12.78158
11.185,2.0,1.0,1.0,34.0,33.0,33.0,1.5,2.5,2.8225,-0.6485743146363661,-0.1007053660799535,0.6156750091508426,-0.21355609116319224,-0.970705,-12.537725
11.185,2.0,1.0,1.0,34.0,33.0,33.0,1.5,2.5,2.825,-0.6616816288655254,-0.09744867548225387,0.5955750090092755,-0.2224819704114486,-1.009831,-12.291887
11.185,2.0,1.0,1.0,34.0,33.0,33.0,1.5,2.5,2.8275,-0.6742842949949085,-0.0937442549681433,0.574762852809497,-0.23166967396822932,-1.051239,-12.044062
11.185,2.0,1.0,1.0,34.0,33.0,33.0,1.5,2.5,2.83,-0.6863336944395473,-0.08955574760195546,0.5532350050809688,-0.24111545591058606,-1.095103,-11.794249
