1,w,sub_t,h,l1,l2,l3,g1,g2,Freq,S11_re,S21_re,S11_img,S21_img,S11_dB,S21_dB
11.185,2.0,1.0,1.0,34.1,34.9,34.9,3.8,2.4,2.5,0.767395208360718,-0.0115599233804684,0.629066497920558,0.00675797617611669,-0.067313,-37.464147
11.185,2.0,1.0,1.0,34.1,34.9,34.9,3.8,2.4,2.5025,0.7626127686987341,-0.011804135394129382,0.6347095312240452,0.006771743032823515,-0.068132,-37.323728
11.185,2.0,1.0,1.0,34.1,34.9,34.9,3.8,2.4,2.505,0.7577630056163578,-0.012053872860123714,0.6403434548759087,0.0067840176048998176,-0.06897,-37.182425
11.185,2.0,1.0,1.0,34.1,34.9,34.9,3.8,2.4,2.5075,0.7528451538414928,-0.012309303957482668,0.645967771577561,0.006794725768614479,-0.069828,-37.040213
11.185,2.0,1.0,1.0,34.1,34.9,34.9,3.8,2.4,2.51,0.7478584333600781,-0.012570603922163732,0.6515819683695476,0.006803789568468861,-0.070705,-36.897069
11.185,2.0,1.0,1.0,34.1,34.9,34.9,3.8,2.4,2.5125,0.7428020489814687,-0.012837955426410719,0.6571855160552631,0.0068111269789819994,-0.071604,-36.752967
11.185,2.0,1.0,1.0,34.1,34.9,34.9,3.8,2.4,2.515,0.7376751898811232,-0.013111548982932797,0.6627778685976009,0.006816651648782964,-0.072525,-36.607882
11.185,2.0,1.0,1.0,34.1,34.9,34.9,3.8,2.4,2.5175,0.7324770291188818,-0.01339158337580708,0.6683584624867411,0.006820272625469687,-0.073468,-36.461787
11.185,2.0,1.0,1.0,34.1,34.9,34.9,3.8,2.4,2.52,0.7272067231309128,-0.01367826612018077,0.6739267160771412,0.0068218940595426,-0.074435,-36.314654
11.185,2.0,1.0,1.0,34.1,34.9,34.9,3.8,2.4,2.5225,0.721863411193279,-0.0139718139530301,0.679482028891586,0.0068214148855492126,-0.075425,-36.166456
11.185,2.0,1.0,1.0,34.1,34.9,34.9,3.8,2.4,2.525,0.716446214854836,-0.014272453357436914,0.6850237808900025,0.006818728478385308,-0.076441,-36.017162
11.185,2.0,1.0,1.0,34.1,34.9,34.9,3.8,2.4,2.5275,0.7109542373369884,-0.014580421123069232,0.6905513317004898,0.006813722282487297,-0.077483,-35.866743
11.185,2.0,1.0,1.0,34.1,34.9,34.9,3.8,2.4,2.53,0.7053865628975875,-0.014895964945794237,0.6960640198097865,0.006806277411412593,-0.078552,-35.715166
11.185,2.0,1.0,1.0,34.1,34.9,34.9,3.8,2.4,2.5325,0.6997422561559884,-0.015219344069626712,0.7015611617101342,0.006796268215040248,-0.079649,-35.562401
11.185,2.0,1.0,1.0,34.1,34.9,34.9,3.8,2.4,2.535,0.6940203613759925,-0.01555082997451487,0.7070420509991874,0.006783561811327455,-0.080775,-35.408413
11.185,2.0,1.0,1.0,34.1,34.9,34.9,3.8,2.4,2.5375,0.6882199017030967,-0.015890707113795807,0.7125059574292757,0.006768017579225937,-0.081932,-35.253167
11.185,2.0,1.0,1.0,34.1,34.9,34.9,3.8,2.4,2.54,0.6823398783520919,-0.016239273705520266,0.7179521259019696,0.006749486608988241,-0.08312,-35.096628
11.185,2.0,1.0,1.0,34.1,34.9,34.9,3.8,2.4,2.5425,0.6763792697406767,-0.016596842582252955,0.7233797754034538,0.0067278111056762735,-0.084341,-34.938758
11.185,2.0,1.0,1.0,34.1,34.9,34.9,3.8,2.4,2.545,0.6703370305643033,-0.016963742104403056,0.7287880978757538,0.0067028237412113945,-0.085596,-34.779519
11.185,2.0,1.0,1.0,34.1,34.9,34.9,3.8,2.4,2.5475,0.6642120908069993,-0.017340317142639988,0.7341762570183102,0.006674346949774864,-0.086886,-34.618871
11.185,2.0,1.0,1.0,34.1,34.9,34.9,3.8,2.4,2.55,0.6580033546823383,-0.017726930135505466,0.7395433870138207,0.006642192160767809,-0.088214,-34.456771
11.185,2.0,1.0,1.0,34.1,34.9,34.9,3.8,2.4,2.5525,0.6517096994981724,-0.01812396222894701,0.7448885911715455,0.0066061589628594874,-0.089581,-34.293178
11.185,2.0,1.0,1.0,34.1,34.9,34.9,3.8,2.4,2.555,0.6453299744380133,-0.01853181450518871,0.750210940480551,0.006566034191888999,-0.090988,-34.128045
11.185,2.0,1.0,1.0,34.1,34.9,34.9,3.8,2.4,2.5575,0.6388629992512387,-0.018950909309119884,0.7555094720644655,0.006521590934510994,-0.092437,-33.961326
11.185,2.0,1.0,1.0,34.1,34.9,34.9,3.8,2.4,2.56,0.6323075628434378,-0.01938169168123451,0.7607831875283317,0.006472587438489706,-0.093931,-33.792974
11.185,2.0,1.0,1.0,34.1,34.9,34.9,3.8,2.4,2.5625,0.625662421757279,-0.0198246309071137,0.766031051187037,0.00641876591942087,-0.09547,-33.622936
11.185,2.0,1.0,1.0,34.1,34.9,34.9,3.8,2.4,2.565,0.6189262985332138,-0.020280222194507442,0.7712519881635082,0.006359851252378889,-0.097058,-33.451161
11.185,2.0,1.0,1.0,34.1,34.9,34.9,3.8,2.4,2.5675,0.6120978799381783,-0.020748988490269654,0.7764448823433975,0.00629554953552357,-0.098697,-33.277594
11.185,2.0,1.0,1.0,34.1,34.9,34.9,3.8,2.4,2.57,0.6051758150490955,-0.021231482450741163,0.7816085741713338,0.006225546511029754,-0.100389,-33.102178
11.185,2.0,1.0,1.0,34.1,34.9,34.9,3.8,2.4,2.5725,0.5981587131765086,-0.02172828858067907,0.7867418582718906,0.0061495058267831745,-0.102136,-32.924852
11.185,2.0,1.0,1.0,34.1,34.9,34.9,3.8,2.4,2.575,0.5910451416120047,-0.022240025557522657,0.791843480876241,0.006067067120090556,-0.103943,-32.745555
11.185,2.0,1.0,1.0,34.1,34.9,34.9,3.8,2.4,2.5775,0.5838336231811855,-0.022767348759686452,0.7969121370329493,0.005977843902117811,-0.10581,-32.564222
11.185,2.0,1.0,1.0,34.1,34.9,34.9,3.8,2.4,2.58,0.5765226335818288,-0.02331095301971673,0.8019464675784512,0.005881421218858583,-0.107743,-32.380784
11.185,2.0,1.0,1.0,34.1,34.9,34.9,3.8,2.4,2.5825,0.5691105984844687,-0.02387157562555959,0.8069450558394362,0.00577735306106617,-0.109744,-32.195171
11.185,2.0,1.0,1.0,34.1,34.9,34.9,3.8,2.4,2.585,0.5615958903699194,-0.024449999595921822,0.8119064240354616,0.005665159491690393,-0.111816,-32.007308
11.185,2.0,1.0,1.0,34.1,34.9,34.9,3.8,2.4,2.5875,0.5539768250751873,-0.02504705725878526,0.8168290293456627,0.005544323454841512,-0.113965,-31.817117
11.185,2.0,1.0,1.0,34.1,34.9,34.9,3.8,2.4,2.59,0.5462516580157497,-0.02566363416562689,0.8217112595981874,0.005414287225056017,-0.116193,-31.624516
11.185,2.0,1.0,1.0,34.1,34.9,34.9,3.8,2.4,2.5925,0.5384185800482137,-0.026300673377853242,0.8265514285349411,0.005274448449524272,-0.118506,-31.429419
11.185,2.0,1.0,1.0,34.1,34.9,34.9,3.8,2.4,2.595,0.5304757129329289,-0.02695918016643797,0.8313477705971162,0.005124155728802478,-0.120909,-31.231737
11.185,2.0,1.0,1.0,34.1,34.9,34.9,3.8,2.4,2.5975,0.5224211043509894,-0.02764022717084835,0.8360984351687138,0.004962703673173739,-0.123407,-31.031374
11.185,2.0,1.0,1.0,34.1,34.9,34.9,3.8,2.4,2.6,0.5142527224243222,-0.02834496006913356,0.8408014802055281,0.004789327362021698,-0.126006,-30.828231
11.185,2.0,1.0,1.0,34.1,34.9,34.9,3.8,2.4,2.6025,0.5059684496809493,-0.029074603817632133,0.8454548651656133,0.004603196122046448,-0.128711,-30.622204
11.185,2.0,1.0,1.0,34.1,34.9,34.9,3.8,2.4,2.605,0.4975660764000032,-0.029830469526256873,0.8500564431437896,0.004403406526550668,-0.131531,-30.413182
11.185,2.0,1.0,1.0,34.1,34.9,34.9,3.8,2.4,2.6075,0.48904329326252466,-0.0306139620438618,0.8546039520967603,0.004188974501934866,-0.134471,-30.201048
11.185,2.0,1.0,1.0,34.1,34.9,34.9,3.8,2.4,2.61,0.4803976832243049,-0.03142658833793776,0.8590950050265039,0.003958826408462294,-0.137541,-29.98568
11.185,2.0,1.0,1.0,34.1,34.9,34.9,3.8,2.4,2.6125,0.47162671251587746,-0.03226996676400678,0.8635270789670977,0.003711788939654382,-0.140749,-29.766948
11.185,2.0,1.0,1.0,34.1,34.9,34.9,3.8,2.4,2.615,0.4627277206620294,-0.033145837332767686,0.8678975025932781,0.0034465776576030056,-0.144105,-29.544715
11.185,2.0,1.0,1.0,34.1,34.9,34.9,3.8,2.4,2.6175,0.453697909398682,-0.03405607309752414,0.8722034422368979,0.003161783949073189,-0.147619,-29.318836
11.185,2.0,1.0,1.0,34.1,34.9,34.9,3.8,2.4,2.62,0.44453433034836226,-0.03500269280094585,0.8764418860588693,0.0028558601483686945,-0.151303,-29.089156
11.185,2.0,1.0,1.0,34.1,34.9,34.9,3.8,2.4,2.6225,0.43523387129655805,-0.035987874939036275,0.8806096260777113,0.002527102526059579,-0.155169,-28.855514
11.185,2.0,1.0,1.0,34.1,34.9,34.9,3.8,2.4,2.625,0.425793240889684,-0.0370139734216164,0.88470323769962,0.00217363178602485,-0.159231,-28.617735
11.185,2.0,1.0,1.0,34.1,34.9,34.9,3.8,2.4,2.6275,0.41620895155079485,-0.0380835350329886,0.8887190563268806,0.001793370644549908,-0.163505,-28.375635
11.185,2.0,1.0,1.0,34.1,34.9,34.9,3.8,2.4,2.63,0.40647730038138,-0.03919931892403632,0.8926531505384395,0.0013840179815693243,-0.168008,-28.129019
11.185,2.0,1.0,1.0,34.1,34.9,34.9,3.8,2.4,2.6325,0.3965943477860745,-0.0403643183981458,0.8965012912351137,0.0009430189519258573,-0.172759,-27.877678
11.185,2.0,1.0,1.0,34.1,34.9,34.9,3.8,2.4,2.635,0.38655589352177505,-0.04158178528826959,0.900258916017523,0.00046753031912538363,-0.177778,-27.621388
11.185,2.0,1.0,1.0,34.1,34.9,34.9,3.8,2.4,2.6375,0.37635744983321723,-0.0428552572613202,0.9039210879116405,-4.5619880380901215e-05,-0.18309,-27.359913
11.185,2.0,1.0,1.0,34.1,34.9,34.9,3.8,2.4,2.64,0.3659942112935072,-0.04418858842887033,0.9074824473673769,-0.0005999794253718966,-0.18872,-27.092997
11.185,2.0,1.0,1.0,34.1,34.9,34.9,3.8,2.4,2.6425,0.35546102092086684,-0.04558598368946007,0.9109371562202115,-0.0011995270707376197,-0.194699,-26.820367
11.185,2.0,1.0,1.0,34.1,34.9,34.9,3.8,2.4,2.645,0.34475233209254724,-0.04705203727679067,0.9142788320121842,-0.0018487373973342497,-0.201058,-26.541732
11.185,2.0,1.0,1.0,34.1,34.9,34.9,3.8,2.4,2.6475,0.33386216572532906,-0.048591776037982905,0.9175004707004014,-0.002552657338086185,-0.207836,-26.256776
11.185,2.0,1.0,1.0,34.1,34.9,34.9,3.8,2.4,2.65,0.32278406214203675,-0.05021070801381562,0.92059435531755,-0.0033169968348036056,-0.215075,-25.965161
11.185,2.0,1.0,1.0,34.1,34.9,34.9,3.8,2.4,2.6525,0.3115110270001812,-0.05191487693328658,0.9235519475621173,-0.004148236671345089,-0.222822,-25.666523
11.185,2.0,1.0,1.0,34.1,34.9,34.9,3.8,2.4,2.655,0.3000354706300483,-0.053710923259615,0.9263637585497074,-0.0050537572805411865,-0.231133,-25.360468
11.185,2.0,1.0,1.0,34.1,34.9,34.9,3.8,2.4,2.6575,0.2883491401285754,-0.055606152420576566,0.9290191940027206,-0.006041993283209489,-0.24007,-25.046569
11.185,2.0,1.0,1.0,34.1,34.9,34.9,3.8,2.4,2.66,0.2764430436023439,-0.05760861080187897,0.9315063679295132,-0.007122619752280126,-0.249706,-24.724366
11.185,2.0,1.0,1.0,34.1,34.9,34.9,3.8,2.4,2.6625,0.26430736608030825,-0.05972716994534322,0.9338118772599504,-0.008306777789946667,-0.260123,-24.393358
11.185,2.0,1.0,1.0,34.1,34.9,34.9,3.8,2.4,2.665,0.2519313768743139,-0.061971619122902805,0.9359205278463637,-0.009607349077102425,-0.271417,-24.053
11.185,2.0,1.0,1.0,34.1,34.9,34.9,3.8,2.4,2.6675,0.23930332863134904,-0.06435276597336691,0.9378149995510855,-0.011039291759056965,-0.283702,-23.7027
11.185,2.0,1.0,1.0,34.1,34.9,34.9,3.8,2.4,2.67,0.22641034911716781,-0.06688254406781889,0.9394754346120908,-0.012620053582433998,-0.297109,-23.341808
11.185,2.0,1.0,1.0,34.1,34.9,34.9,3.8,2.4,2.6725,0.21323832808701268,-0.06957412491813875,0.9408789288184645,-0.014370082884653456,-0.311792,-22.969617
11.185,2.0,1.0,1.0,34.1,34.9,34.9,3.8,2.4,2.675,0.19977180373403808,-0.07244202975854636,0.941998898844098,-0.01631346425405658,-0.327935,-22.585351
11.185,2.0,1.0,1.0,34.1,34.9,34.9,3.8,2.4,2.6775,0.18599385663056825,-0.07550223293498785,0.9428042908444609,-0.018478713963745733,-0.345755,-22.188157
11.185,2.0,1.0,1.0,34.1,34.9,34.9,3.8,2.4,2.68,0.17188602453863303,-0.07877224317507958,0.9432585843857308,-0.020899781368482,-0.365515,-21.777098
11.185,2.0,1.0,1.0,34.1,34.9,34.9,3.8,2.4,2.6825,0.1574282601572224,-0.0822711401749787,0.9433185309564771,-0.023617317333914128,-0.387529,-21.351142
11.185,2.0,1.0,1.0,34.1,34.9,34.9,3.8,2.4,2.685,0.14259896771371142,-0.08601952988823812,0.9429325463801357,-0.026680290769464016,-0.412182,-20.90915
11.185,2.0,1.0,1.0,34.1,34.9,34.9,3.8,2.4,2.6875,0.127375176407698,-0.090039359491232,0.942038649658044,-0.0301480611998458,-0.439943,-20.449865
11.185,2.0,1.0,1.0,34.1,34.9,34.9,3.8,2.4,2.69,0.11173294416170076,-0.09435349709591462,0.9405618049304201,-0.03409305122088052,-0.471394,-19.971897
11.185,2.0,1.0,1.0,34.1,34.9,34.9,3.8,2.4,2.6925,0.09564814229777019,-0.09898492343508351,0.9384104757936779,-0.0386042101685791,-0.507258,-19.473715
11.185,2.0,1.0,1.0,34.1,34.9,34.9,3.8,2.4,2.695,0.07909786452480647,-0.10395528895955572,0.9354721397201408,-0.043791521764259586,-0.548444,-18.953627
11.185,2.0,1.0,1.0,34.1,34.9,34.9,3.8,2.4,2.6975,0.06206285513146824,-0.10928243674269081,0.9316074338696281,-0.049791884683107926,-0.596109,-18.40978
11.185,2.0,1.0,1.0,34.1,34.9,34.9,3.8,2.4,2.7,0.044531600210625626,-0.11497624034795206,0.9266425163416606,-0.05677678150457837,-0.651737,-17.840153
11.185,2.0,1.0,1.0,34.1,34.9,34.9,3.8,2.4,2.7025,0.026507136560790484,-0.12103169153802733,0.9203591467831849,-0.06496222996163842,-0.717252,-17.242566
11.185,2.0,1.0,1.0,34.1,34.9,34.9,3.8,2.4,2.705,0.008018311816364086,-0.12741748869786085,0.9124819687913056,-0.07462152829522316,-0.795179,-16.61472
11.185,2.0,1.0,1.0,34.1,34.9,34.9,3.8,2.4,2.7075,-0.010861653746810676,-0.1340572526849405,0.9026626440830466,-0.08610113159372135,-0.888862,-15.954271
11.185,2.0,1.0,1.0,34.1,34.9,34.9,3.8,2.4,2.71,-0.02998464400816793,-0.1407986779691607,0.8904611539829947,-0.09983931554244929,-1.002779,-15.258981
11.185,2.0,1.0,1.0,34.1,34.9,34.9,3.8,2.4,2.7125,-0.04907767811695059,-0.14736309201987877,0.875326449427988,-0.11638538907419169,-1.142968,-14.527
11.185,2.0,1.0,1.0,34.1,34.9,34.9,3.8,2.4,2.715,-0.06766196002493693,-0.15326384014769967,0.8565832259807923,-0.13641256607583208,-1.317595,-13.757365
11.185,2.0,1.0,1.0,34.1,34.9,34.9,3.8,2.4,2.7175,-0.08492476587541929,-0.15767729255325608,0.8334420625595576,-0.16070704196448035,-1.537632,-12.950873
11.185,2.0,1.0,1.0,34.1,34.9,34.9,3.8,2.4,2.72,-0.0995265805216828,-0.1592489746163699,0.8050722205220615,-0.19009359455494,-1.817432,-12.111545
11.185,2.0,1.0,1.0,34.1,34.9,34.9,3.8,2.4,2.7225,-0.10934104205360698,-0.1558328098230868,0.7708178046688704,-0.22521640734143655,-2.174446,-11.249023
11.185,2.0,1.0,1.0,34.1,34.9,34.9,3.8,2.4,2.725,-0.11119267188406129,-0.14422970944914626,0.7306985063201497,-0.26603323267241297,-2.625814,-10.382189
11.185,2.0,1.0,1.0,34.1,34.9,34.9,3.8,2.4,2.7275,-0.10084562111792257,-0.12018151672039137,0.6863651316403448,-0.31085287198676015,-3.17614,-9.543911
11.185,2.0,1.0,1.0,34.1,34.9,34.9,3.8,2.4,2.73,-0.0738448353032728,-0.07922583615234746,0.6424743861021879,-0.3549551068884364,-3.785886,-8.785391
11.185,2.0,1.0,1.0,34.1,34.9,34.9,3.8,2.4,2.7325,-0.028001831285428404,-0.01920481420842101,0.607620155704195,-0.3896664247878294,-4.318143,-8.175604
11.185,2.0,1.0,1.0,34.1,34.9,34.9,3.8,2.4,2.735,0.0328080535311888,0.05591957166692982,0.592671107745645,-0.4040551860905982,-4.530437,-7.788791
11.185,2.0,1.0,1.0,34.1,34.9,34.9,3.8,2.4,2.7375,0.0969753162943783,0.1344143845185365,0.6050817986165584,-0.3906702129071794,-4.253575,-7.677908
11.185,2.0,1.0,1.0,34.1,34.9,34.9,3.8,2.4,2.74,0.14980758784219347,0.20149220008090937,0.6429887769480307,-0.35146137278075346,-3.606362,-7.848274
11.185,2.0,1.0,1.0,34.1,34.9,34.9,3.8,2.4,2.7425,0.1817363433635053,0.24757185907555393,0.6959967469921925,-0.29694353894030995,-2.861404,-8.254538
11.185,2.0,1.0,1.0,34.1,34.9,34.9,3.8,2.4,2.745,0.19183987397775767,0.2717895138211085,0.752080893174303,-0.2392263574029296,-2.200947,-8.824013
11.185,2.0,1.0,1.0,34.1,34.9,34.9,3.8,2.4,2.7475,0.18486851354302164,0.2789732715917709,0.8031209589942203,-0.1864565775643575,-1.680153,-9.484919
11.185,2.0,1.0,1.0,34.1,34.9,34.9,3.8,2.4,2.75,0.166833858894997,0.275196524840674,0.845734946839446,-0.142001687497188,-1.289521,-10.181922
11.185,2.0,1.0,1.0,34.1,34.9,34.9,3.8,2.4,2.7525,0.1426102458159421,0.26537097928892517,0.8796186180489187,-0.10613491203173898,-1.001431,-10.878504
11.185,2.0,1.0,1.0,34.1,34.9,34.9,3.8,2.4,2.755,0.11544029872862373,0.2527576549381347,0.9058297685770504,-0.07776585314667397,-0.7891,-11.553119
11.185,2.0,1.0,1.0,34.1,34.9,34.9,3.8,2.4,2.7575,0.08724854523230208,0.23928808768849127,0.9257740071525633,-0.055460366631750045,-0.631497,-12.194333
11.185,2.0,1.0,1.0,34.1,34.9,34.9,3.8,2.4,2.76,0.05908599960300709,0.22601446153707364,0.9407620000465927,-0.03788416647471072,-0.513307,-12.796939
11.185,2.0,1.0,1.0,34.1,34.9,34.9,3.8,2.4,2.7625,0.03147845089733456,0.21346115337471352,0.951872573607257,-0.0239388584579668,-0.423677,-13.359343
11.185,2.0,1.0,1.0,34.1,34.9,34.9,3.8,2.4,2.765,0.004653536798344053,0.20185350685378842,0.9599457737777385,-0.012767703127337786,-0.354964,-13.881933
11.185,2.0,1.0,1.0,34.1,34.9,34.9,3.8,2.4,2.7675,-0.021323052533309822,0.19125485104451143,0.9656191892961888,-0.0037182707501191756,-0.301765,-14.36611
11.185,2.0,1.0,1.0,34.1,34.9,34.9,3.8,2.4,2.77,-0.046469388015298006,0.1816450427757921,0.9693715821752629,0.0037019663114895547,-0.260226,-14.813726
11.185,2.0,1.0,1.0,34.1,34.9,34.9,3.8,2.4,2.7725,-0.07084363664168897,0.17296426487436767,0.9715613836552296,0.009864695124387656,-0.227565,-15.226769
11.185,2.0,1.0,1.0,34.1,34.9,34.9,3.8,2.4,2.775,-0.09452023869133994,0.1651368818472148,0.9724571951865401,0.015051674254836887,-0.201754,-15.607188
11.185,2.0,1.0,1.0,34.1,34.9,34.9,3.8,2.4,2.7775,-0.11757727984361141,0.15808406102205533,0.9722608323163004,0.019478084903713614,-0.181291,-15.956801
11.185,2.0,1.0,1.0,34.1,34.9,34.9,3.8,2.4,2.78,-0.14009010252471865,0.15173014392699166,0.9711243572122321,0.023309805131413317,-0.165055,-16.277255
11.185,2.0,1.0,1.0,34.1,34.9,34.9,3.8,2.4,2.7825,-0.1621283531536617,0.14600558465517738,0.9691625535675722,0.02667608838031361,-0.1522,-16.570004
11.185,2.0,1.0,1.0,34.1,34.9,34.9,3.8,2.4,2.785,-0.18375488977354182,0.1408480365894851,0.9664620422072169,0.02967886424091698,-0.142078,-16.836311
11.185,2.0,1.0,1.0,34.1,34.9,34.9,3.8,2.4,2.7875,-0.2050256687031696,0.13620247122914375,0.963087950322301,0.032399588857910964,-0.134191,-17.077252
11.185,2.0,1.0,1.0,34.1,34.9,34.9,3.8,2.4,2.79,-0.22599012019119027,0.1320208200363281,0.9590888046221948,0.03490432661907613,-0.128153,-17.293722
11.185,2.0,1.0,1.0,34.1,34.9,34.9,3.8,2.4,2.7925,-0.24669174362603707,0.12826140914905207,0.9545001317738522,0.03724755622489981,-0.123662,-17.486448
11.185,2.0,1.0,1.0,34.1,34.9,34.9,3.8,2.4,2.795,-0.2671687771514308,0.12488833247700727,0.9493471117606737,0.03947505598098121,-0.120483,-17.655998
11.185,2.0,1.0,1.0,34.1,34.9,34.9,3.8,2.4,2.7975,-0.28745486644313684,0.12187083897565414,0.9436465303435899,0.04162612407095043,-0.118429,-17.802784
11.185,2.0,1.0,1.0,34.1,34.9,34.9,3.8,2.4,2.8,-0.3075796964982159,0.11918277108154897,0.93740820551537,0.04373531942676189,-0.117357,-17.927074
11.185,2.0,1.0,1.0,34.1,34.9,34.9,3.8,2.4,2.8025,-0.3275695718954206,0.11680207000708825,0.9306360116410732,0.04583385955871553,-0.117153,-18.028996
11.185,2.0,1.0,1.0,34.1,34.9,34.9,3.8,2.4,2.805,-0.34744794266617857,0.11471035224262191,0.9233285878492311,0.0479507774174708,-0.11773,-18.108539
11.185,2.0,1.0,1.0,34.1,34.9,34.9,3.8,2.4,2.8075,-0.36723587897517085,0.11289255586740124,0.9154797897935302,0.05011391585071955,-0.119026,-18.165555
11.185,2.0,1.0,1.0,34.1,34.9,34.9,3.8,2.4,2.81,-0.38695250070095516,0.11133665264279374,0.907078922958146,0.05235082262402885,-0.120995,-18.199757
11.185,2.0,1.0,1.0,34.1,34.9,34.9,3.8,2.4,2.8125,-0.406615369116539,0.110033420911314,0.898110778871751,0.0546895994179547,-0.12361,-18.210718
11.185,2.0,1.0,1.0,34.1,34.9,34.9,3.8,2.4,2.815,-0.4262408479579419,0.10897627419859131,0.8885554810930539,0.05715975355772916,-0.126859,-18.197862
11.185,2.0,1.0,1.0,34.1,34.9,34.9,3.8,2.4,2.8175,-0.4458444406112782,0.10816114057166863,0.8783881340871488,0.05979310094577978,-0.130747,-18.160459
11.185,2.0,1.0,1.0,34.1,34.9,34.9,3.8,2.4,2.82,-0.46544110905951974,0.10758638784639808,0.8675782536527152,0.06262477276170879,-0.135295,-18.09761
11.185,2.0,1.0,1.0,34.1,34.9,34.9,3.8,2.4,2.8225,-0.48504557850145696,0.10725278927215655,0.8560889407709064,0.06569438754624753,-0.14054,-18.008234
11.185,2.0,1.0,1.0,34.1,34.9,34.9,3.8,2.4,2.825,-0.5046726288313859,0.10716352285324734,0.8438757396203694,0.06904746555997619,-0.14654,-17.891046
11.185,2.0,1.0,1.0,34.1,34.9,34.9,3.8,2.4,2.8275,-0.5243373697352207,0.10732419421428568,0.8308850922939862,0.07273718600977248,-0.153378,-17.744534
11.185,2.0,1.0,1.0,34.1,34.9,34.9,3.8,2.4,2.83,-0.5440554887133165,0.10774286656009491,0.8170522634614134,0.07682662346383562,-0.161164,-17.566926
