1,w,sub_t,h,l1,l2,l3,g1,g2,Freq,S11_re,S21_re,S11_img,S21_img,S11_dB,S21_dB
11.185,2.0,1.0,1.0,34.5,34.1,34.1,2.1,3.9,2.5,0.694665908944133,-0.0140891502170531,0.706789021271816,0.00617853531620667,-0.078392,-36.258413
11.185,2.0,1.0,1.0,34.5,34.1,34.1,2.1,3.9,2.5025,0.6887126227464296,-0.014344904123551794,0.7124481541005596,0.006137811857077136,-0.079294,-36.13592
11.185,2.0,1.0,1.0,34.5,34.1,34.1,2.1,3.9,2.505,0.6826782867190951,-0.014604904222323512,0.7180877146636319,0.00609389368314477,-0.080214,-36.012984
11.185,2.0,1.0,1.0,34.5,34.1,34.1,2.1,3.9,2.5075,0.6765620524867315,-0.01486922203925458,0.7237068633404051,0.006046665960462675,-0.081151,-35.889599
11.185,2.0,1.0,1.0,34.5,34.1,34.1,2.1,3.9,2.51,0.6703630622574028,-0.015137930197370152,0.7293047356251704,0.005996009733028236,-0.082106,-35.765754
11.185,2.0,1.0,1.0,34.5,34.1,34.1,2.1,3.9,2.5125,0.6640804488683165,-0.015411102417332774,0.7348804413719547,0.005941801762453489,-0.083079,-35.641444
11.185,2.0,1.0,1.0,34.5,34.1,34.1,2.1,3.9,2.515,0.6577133358422977,-0.015688813516429038,0.7404330640162672,0.005883914360830942,-0.084072,-35.516658
11.185,2.0,1.0,1.0,34.5,34.1,34.1,2.1,3.9,2.5175,0.6512608374557535,-0.015971139405906908,0.7459616597730292,0.005822215216476693,-0.085083,-35.39139
11.185,2.0,1.0,1.0,34.5,34.1,34.1,2.1,3.9,2.52,0.6447220588188287,-0.016258157086519048,0.7514652568099868,0.005756567212217409,-0.086115,-35.26563
11.185,2.0,1.0,1.0,34.5,34.1,34.1,2.1,3.9,2.5225,0.6380960959685433,-0.016549944642112093,0.7569428543958074,0.005686828235869609,-0.087167,-35.139371
11.185,2.0,1.0,1.0,34.5,34.1,34.1,2.1,3.9,2.525,0.6313820359756855,-0.0168465812310949,0.762393422022113,0.0056128509825419766,-0.08824,-35.012603
11.185,2.0,1.0,1.0,34.5,34.1,34.1,2.1,3.9,2.5275,0.6245789570663124,-0.01714814707560192,0.767815898498626,0.005534482748371012,-0.089334,-34.885318
11.185,2.0,1.0,1.0,34.5,34.1,34.1,2.1,3.9,2.53,0.6176859287587569,-0.017454723448156732,0.7732091910205957,0.00545156521528103,-0.090451,-34.757507
11.185,2.0,1.0,1.0,34.5,34.1,34.1,2.1,3.9,2.5325,0.6107020120170704,-0.01776639265562429,0.7785721742076527,0.005363934226336892,-0.091589,-34.629161
11.185,2.0,1.0,1.0,34.5,34.1,34.1,2.1,3.9,2.535,0.6036262594218845,-0.018083238020226232,0.7839036891132118,0.005271419551234221,-0.092751,-34.50027
11.185,2.0,1.0,1.0,34.5,34.1,34.1,2.1,3.9,2.5375,0.5964577153597473,-0.01840534385737436,0.7892025422034942,0.005173844641449082,-0.093937,-34.370825
11.185,2.0,1.0,1.0,34.5,34.1,34.1,2.1,3.9,2.54,0.589195416232019,-0.01873279545006077,0.7944675043052519,0.005071026374541221,-0.095147,-34.240817
11.185,2.0,1.0,1.0,34.5,34.1,34.1,2.1,3.9,2.5425,0.5818383906844835,-0.01906567901952294,0.7996973095212081,0.004962774787078567,-0.096382,-34.110236
11.185,2.0,1.0,1.0,34.5,34.1,34.1,2.1,3.9,2.545,0.5743856598589001,-0.01940408169187926,0.8048906541122218,0.004848892795621427,-0.097642,-33.979073
11.185,2.0,1.0,1.0,34.5,34.1,34.1,2.1,3.9,2.5475,0.5668362376677762,-0.019748091460408807,0.8100461953451392,0.004729175905172304,-0.098929,-33.847317
11.185,2.0,1.0,1.0,34.5,34.1,34.1,2.1,3.9,2.55,0.5591891310937035,-0.02009779714312423,0.8151625503052786,0.004603411904466875,-0.100243,-33.714958
11.185,2.0,1.0,1.0,34.5,34.1,34.1,2.1,3.9,2.5525,0.5514433405147071,-0.02045328833525807,0.8202382946724319,0.004471380547444024,-0.101585,-33.581986
11.185,2.0,1.0,1.0,34.5,34.1,34.1,2.1,3.9,2.555,0.5435978600570825,-0.020814655356255655,0.825271961459272,0.004332853220196807,-0.102955,-33.44839
11.185,2.0,1.0,1.0,34.5,34.1,34.1,2.1,3.9,2.5575,0.5356516779773158,-0.02118198919083607,0.8302620397109775,0.004187592592666582,-0.104355,-33.31416
11.185,2.0,1.0,1.0,34.5,34.1,34.1,2.1,3.9,2.56,0.5276037770747606,-0.021555381423646287,0.8352069731648802,0.004035352254299809,-0.105785,-33.179285
11.185,2.0,1.0,1.0,34.5,34.1,34.1,2.1,3.9,2.5625,0.5194531351368247,-0.021934924167000557,0.8401051588688782,0.0038758763328426435,-0.107245,-33.043753
11.185,2.0,1.0,1.0,34.5,34.1,34.1,2.1,3.9,2.565,0.5111987254185117,-0.022320709981155113,0.8449549457573345,0.0037088990953996733,-0.108738,-32.907555
11.185,2.0,1.0,1.0,34.5,34.1,34.1,2.1,3.9,2.5675,0.5028395171582987,-0.022712831786524647,0.8497546331831203,0.0035341445308335597,-0.110263,-32.770677
11.185,2.0,1.0,1.0,34.5,34.1,34.1,2.1,3.9,2.57,0.49437447613238666,-0.02311138276720298,0.8545024694044385,0.003351325912526405,-0.111822,-32.633108
11.185,2.0,1.0,1.0,34.5,34.1,34.1,2.1,3.9,2.5725,0.4858025652495063,-0.023516456265097255,0.8591966500249919,0.0031601453404665894,-0.113416,-32.494837
11.185,2.0,1.0,1.0,34.5,34.1,34.1,2.1,3.9,2.575,0.477122745188582,-0.023928145663932497,0.8638353163860393,0.0029602932615627434,-0.115046,-32.355851
11.185,2.0,1.0,1.0,34.5,34.1,34.1,2.1,3.9,2.5775,0.4683339750816593,-0.024346544262321756,0.8684165539087959,0.00275144796702002,-0.116712,-32.216138
11.185,2.0,1.0,1.0,34.5,34.1,34.1,2.1,3.9,2.58,0.45943521324466924,-0.0247717451350344,0.872938390385622,0.0025332750655439776,-0.118416,-32.075685
11.185,2.0,1.0,1.0,34.5,34.1,34.1,2.1,3.9,2.5825,0.4504254179587095,-0.025203840981524915,0.8773987942183531,0.002305426931060818,-0.120159,-31.934479
11.185,2.0,1.0,1.0,34.5,34.1,34.1,2.1,3.9,2.585,0.4413035483046977,-0.02564292396070756,0.8817956726020767,0.0020675421235630096,-0.121942,-31.792507
11.185,2.0,1.0,1.0,34.5,34.1,34.1,2.1,3.9,2.5875,0.43206856505440033,-0.026089085510880645,0.8861268696526131,0.0018192447816023256,-0.123766,-31.649756
11.185,2.0,1.0,1.0,34.5,34.1,34.1,2.1,3.9,2.59,0.42271943162102144,-0.026542416153613354,0.8903901644758615,0.0015601439848604757,-0.125633,-31.506212
11.185,2.0,1.0,1.0,34.5,34.1,34.1,2.1,3.9,2.5925,0.4132551150726929,-0.0270030052803111,0.8945832691771314,0.0012898330851271883,-0.127544,-31.36186
11.185,2.0,1.0,1.0,34.5,34.1,34.1,2.1,3.9,2.595,0.40367458721244287,-0.027470940920066755,0.8987038268084789,0.0010078890039123328,-0.1295,-31.216687
11.185,2.0,1.0,1.0,34.5,34.1,34.1,2.1,3.9,2.5975,0.39397682572836373,-0.027946309487291876,0.9027494092520181,0.0007138714948010272,-0.131503,-31.070678
11.185,2.0,1.0,1.0,34.5,34.1,34.1,2.1,3.9,2.6,0.3841608154179702,-0.028429195507491387,0.9067175150370631,0.0004073223685425736,-0.133554,-30.923817
11.185,2.0,1.0,1.0,34.5,34.1,34.1,2.1,3.9,2.6025,0.3742255494909549,-0.028919681319408867,0.9106055670888888,8.776467873036786e-05,-0.135654,-30.77609
11.185,2.0,1.0,1.0,34.5,34.1,34.1,2.1,3.9,2.605,0.3641700309547786,-0.029417846751617766,0.9144109104067968,-0.0002452981342083946,-0.137806,-30.62748
11.185,2.0,1.0,1.0,34.5,34.1,34.1,2.1,3.9,2.6075,0.3539932740878247,-0.029923768771467026,0.9181308096690632,-0.0005923831431474194,-0.140011,-30.477973
11.185,2.0,1.0,1.0,34.5,34.1,34.1,2.1,3.9,2.61,0.3436943060051155,-0.03043752110410908,0.9217624467622446,-0.0009540288811143011,-0.14227,-30.32755
11.185,2.0,1.0,1.0,34.5,34.1,34.1,2.1,3.9,2.6125,0.3332721683218972,-0.030959173819139287,0.9253029182322078,-0.0013307963376324972,-0.144586,-30.176195
11.185,2.0,1.0,1.0,34.5,34.1,34.1,2.1,3.9,2.615,0.3227259189207144,-0.03148879288215804,0.9287492326540997,-0.001723270007509155,-0.146961,-30.023892
11.185,2.0,1.0,1.0,34.5,34.1,34.1,2.1,3.9,2.6175,0.3120546338279727,-0.03202643966832739,0.932098307918366,-0.002132058995226743,-0.149396,-29.870622
11.185,2.0,1.0,1.0,34.5,34.1,34.1,2.1,3.9,2.62,0.3012574092063379,-0.03257217043473122,0.9353469684297595,-0.0025577981783158647,-0.151893,-29.716367
11.185,2.0,1.0,1.0,34.5,34.1,34.1,2.1,3.9,2.6225,0.29033336346972705,-0.03312603574806141,0.9384919422161381,-0.00300114943331911,-0.154454,-29.561109
11.185,2.0,1.0,1.0,34.5,34.1,34.1,2.1,3.9,2.625,0.279281639528118,-0.0336880798638314,0.941529857943662,-0.00346280292820729,-0.157083,-29.404829
11.185,2.0,1.0,1.0,34.5,34.1,34.1,2.1,3.9,2.6275,0.2681014071698158,-0.034258340052973284,0.9444572418348451,-0.00394347848538422,-0.15978,-29.247506
11.185,2.0,1.0,1.0,34.5,34.1,34.1,2.1,3.9,2.63,0.2567918655893885,-0.03483684587128578,0.9472705144856834,-0.004443927019705448,-0.162549,-29.089121
11.185,2.0,1.0,1.0,34.5,34.1,34.1,2.1,3.9,2.6325,0.24535224606998754,-0.0354236183667778,0.949965987577879,-0.004964932056256518,-0.165392,-28.929654
11.185,2.0,1.0,1.0,34.5,34.1,34.1,2.1,3.9,2.635,0.2337818148294027,-0.03601866921948213,0.9525398604819669,-0.005507311332974637,-0.168312,-28.769082
11.185,2.0,1.0,1.0,34.5,34.1,34.1,2.1,3.9,2.6375,0.22207987603983903,-0.036621999807794826,0.9549882167468354,-0.006071918493567296,-0.171311,-28.607385
11.185,2.0,1.0,1.0,34.5,34.1,34.1,2.1,3.9,2.64,0.21024577503209518,-0.037233600194823975,0.9573070204709273,-0.006659644876580699,-0.174393,-28.444539
11.185,2.0,1.0,1.0,34.5,34.1,34.1,2.1,3.9,2.6425,0.19827890169563564,-0.0378534480275938,0.9594921125500326,-0.007271421406897959,-0.177561,-28.280522
11.185,2.0,1.0,1.0,34.5,34.1,34.1,2.1,3.9,2.645,0.18617869408686308,-0.03848150734124726,0.9615392067963121,-0.007908220596413789,-0.180817,-28.11531
11.185,2.0,1.0,1.0,34.5,34.1,34.1,2.1,3.9,2.6475,0.17394464225882994,-0.039117727259608194,0.9634438859227803,-0.008571058661131975,-0.184166,-27.948878
11.185,2.0,1.0,1.0,34.5,34.1,34.1,2.1,3.9,2.65,0.1615762923266279,-0.03976204058259726,0.9652015973871182,-0.009260997762477607,-0.18761,-27.781202
11.185,2.0,1.0,1.0,34.5,34.1,34.1,2.1,3.9,2.6525,0.1490732507838623,-0.04041436225002572,0.9668076490882257,-0.009979148381196356,-0.191154,-27.612255
11.185,2.0,1.0,1.0,34.5,34.1,34.1,2.1,3.9,2.655,0.13643518908674357,-0.041074587670223664,0.9682572049084754,-0.010726671832853238,-0.194801,-27.442011
11.185,2.0,1.0,1.0,34.5,34.1,34.1,2.1,3.9,2.6575,0.12366184852377352,-0.04174259090075468,0.9695452800940976,-0.011504782934620875,-0.198555,-27.270441
11.185,2.0,1.0,1.0,34.5,34.1,34.1,2.1,3.9,2.66,0.11075304539042843,-0.04241822266713571,0.9706667364655703,-0.012314752833792218,-0.202422,-27.097519
11.185,2.0,1.0,1.0,34.5,34.1,34.1,2.1,3.9,2.6625,0.09770867648992464,-0.04310130820398784,0.9716162774492739,-0.013157912009245949,-0.206405,-26.923214
11.185,2.0,1.0,1.0,34.5,34.1,34.1,2.1,3.9,2.665,0.08452872498294481,-0.04379164490137485,0.9723884429209979,-0.014035653457959896,-0.21051,-26.747496
11.185,2.0,1.0,1.0,34.5,34.1,34.1,2.1,3.9,2.6675,0.07121326661126219,-0.04448899973721569,0.9729776038511533,-0.014949436079592874,-0.21474,-26.570335
11.185,2.0,1.0,1.0,34.5,34.1,34.1,2.1,3.9,2.67,0.0577624763224251,-0.045193106474565994,0.9733779567407453,-0.015900788273163383,-0.219103,-26.391696
11.185,2.0,1.0,1.0,34.5,34.1,34.1,2.1,3.9,2.6725,0.044176635325175365,-0.04590366260021193,0.9735835178362972,-0.016891311760930283,-0.223603,-26.211548
11.185,2.0,1.0,1.0,34.5,34.1,34.1,2.1,3.9,2.675,0.030456138608103218,-0.046620325978379375,0.9735881171109656,-0.01792268565574672,-0.228247,-26.029856
11.185,2.0,1.0,1.0,34.5,34.1,34.1,2.1,3.9,2.6775,0.01660150295713748,-0.04734271119039435,0.973385391998049,-0.018996670789407137,-0.23304,-25.846584
11.185,2.0,1.0,1.0,34.5,34.1,34.1,2.1,3.9,2.68,0.0026133755109953617,-0.04807038552778366,0.9729687808619998,-0.02011511432085112,-0.237991,-25.661694
11.185,2.0,1.0,1.0,34.5,34.1,34.1,2.1,3.9,2.6825,-0.011507457102333925,-0.04880286460253828,0.9723315161908151,-0.021279954644522505,-0.243104,-25.475149
11.185,2.0,1.0,1.0,34.5,34.1,34.1,2.1,3.9,2.685,-0.025760059000600608,-0.049539607534002876,0.9714666174924037,-0.022493226620723377,-0.24839,-25.28691
11.185,2.0,1.0,1.0,34.5,34.1,34.1,2.1,3.9,2.6875,-0.0401433346013255,-0.0502800116670466,0.970366883876103,-0.0237570671514349,-0.253854,-25.096934
11.185,2.0,1.0,1.0,34.5,34.1,34.1,2.1,3.9,2.69,-0.05465601743673599,-0.05102340677072358,0.9690248862990297,-0.025073721126819083,-0.259507,-24.90518
11.185,2.0,1.0,1.0,34.5,34.1,34.1,2.1,3.9,2.6925,-0.06929665816519977,-0.0517690486604658,0.9674329594553372,-0.02644554776945574,-0.265357,-24.711602
11.185,2.0,1.0,1.0,34.5,34.1,34.1,2.1,3.9,2.695,-0.08406361170746042,-0.052516112179846315,0.9655831932847532,-0.02787502740530071,-0.271413,-24.516156
11.185,2.0,1.0,1.0,34.5,34.1,34.1,2.1,3.9,2.6975,-0.09895502342794438,-0.053263683470004375,0.9634674240749584,-0.029364768692381662,-0.277687,-24.318793
11.185,2.0,1.0,1.0,34.5,34.1,34.1,2.1,3.9,2.7,-0.11396881427203645,-0.05401075144577129,0.9610772251305191,-0.03091751634034065,-0.284188,-24.119464
11.185,2.0,1.0,1.0,34.5,34.1,34.1,2.1,3.9,2.7025,-0.1291026647597953,-0.05475619838723954,0.9584038969790997,-0.03253615935609438,-0.290929,-23.918118
11.185,2.0,1.0,1.0,34.5,34.1,34.1,2.1,3.9,2.705,-0.14435399772449828,-0.05549878954375551,0.9554384570837402,-0.03422373985306427,-0.297923,-23.714701
11.185,2.0,1.0,1.0,34.5,34.1,34.1,2.1,3.9,2.7075,-0.15971995967080677,-0.05623716163390597,0.9521716290279485,-0.035983462463606695,-0.305183,-23.509157
11.185,2.0,1.0,1.0,34.5,34.1,34.1,2.1,3.9,2.71,-0.17519740061163494,-0.05696981010971039,0.9485938311384536,-0.037818704396384344,-0.312722,-23.301428
11.185,2.0,1.0,1.0,34.5,34.1,34.1,2.1,3.9,2.7125,-0.19078285222498517,-0.05769507503566189,0.9446951645085961,-0.0397330261824058,-0.320558,-23.091454
11.185,2.0,1.0,1.0,34.5,34.1,34.1,2.1,3.9,2.715,-0.20647250415146073,-0.058411125413107265,0.9404654003837074,-0.04173018315521291,-0.328706,-22.879173
11.185,2.0,1.0,1.0,34.5,34.1,34.1,2.1,3.9,2.7175,-0.22226217822967773,-0.05911594175732098,0.9358939668685294,-0.04381413771210843,-0.337184,-22.664518
11.185,2.0,1.0,1.0,34.5,34.1,34.1,2.1,3.9,2.72,-0.23814730043972618,-0.0598072967080313,0.9309699349158539,-0.04598907240421233,-0.346011,-22.447422
11.185,2.0,1.0,1.0,34.5,34.1,34.1,2.1,3.9,2.7225,-0.25412287029376074,-0.06048273342354338,0.9256820035554161,-0.04825940390332863,-0.355209,-22.227812
11.185,2.0,1.0,1.0,34.5,34.1,34.1,2.1,3.9,2.725,-0.2701834273768689,-0.061139541473315115,0.9200184843228681,-0.05062979789278959,-0.364799,-22.005616
11.185,2.0,1.0,1.0,34.5,34.1,34.1,2.1,3.9,2.7275,-0.2863230147000729,-0.06177472990312623,0.9139672848506913,-0.05310518492732555,-0.374805,-21.780754
11.185,2.0,1.0,1.0,34.5,34.1,34.1,2.1,3.9,2.73,-0.3025351384794107,-0.06238499709992226,0.90751589158675,-0.05569077730307411,-0.385255,-21.553147
11.185,2.0,1.0,1.0,34.5,34.1,34.1,2.1,3.9,2.7325,-0.3188127238998094,-0.06296669702899232,0.9006513516122575,-0.05839208697257802,-0.396175,-21.322709
11.185,2.0,1.0,1.0,34.5,34.1,34.1,2.1,3.9,2.735,-0.33514806635833144,-0.06351580135309444,0.8933602535400849,-0.06121494453023945,-0.407598,-21.089352
11.185,2.0,1.0,1.0,34.5,34.1,34.1,2.1,3.9,2.7375,-0.3515327776071437,-0.06402785687005752,0.8856287074874585,-0.06416551928028506,-0.419555,-20.852983
11.185,2.0,1.0,1.0,34.5,34.1,34.1,2.1,3.9,2.74,-0.3679577261302845,-0.0644979376205542,0.8774423241354103,-0.06725034038060998,-0.432085,-20.613506
11.185,2.0,1.0,1.0,34.5,34.1,34.1,2.1,3.9,2.7425,-0.3844129709881895,-0.06492059091920281,0.868786192912421,-0.07047631903038282,-0.445226,-20.370819
11.185,2.0,1.0,1.0,34.5,34.1,34.1,2.1,3.9,2.745,-0.40088768824743093,-0.0652897764475755,0.8596448593734864,-0.07385077163498242,-0.459022,-20.124816
11.185,2.0,1.0,1.0,34.5,34.1,34.1,2.1,3.9,2.7475,-0.4173700889776294,-0.06559879741439832,0.8500023018909804,-0.07738144383617267,-0.47352,-19.875386
11.185,2.0,1.0,1.0,34.5,34.1,34.1,2.1,3.9,2.75,-0.433847327639776,-0.0658402226330604,0.839841907833359,-0.0810765352351148,-0.488773,-19.622414
11.185,2.0,1.0,1.0,34.5,34.1,34.1,2.1,3.9,2.7525,-0.45030539950648574,-0.06600579818587794,0.8291464494862716,-0.08494472455666911,-0.504837,-19.365776
11.185,2.0,1.0,1.0,34.5,34.1,34.1,2.1,3.9,2.755,-0.46672902554083795,-0.06608634713416074,0.8178980600733585,-0.0889951949000546,-0.521776,-19.105347
11.185,2.0,1.0,1.0,34.5,34.1,34.1,2.1,3.9,2.7575,-0.48310152291146274,-0.06607165548819527,0.8060782103678494,-0.09323765858640816,-0.539659,-18.840992
11.185,2.0,1.0,1.0,34.5,34.1,34.1,2.1,3.9,2.76,-0.4994046590317598,-0.06595034236627413,0.7936676865601606,-0.09768238093916158,-0.558563,-18.572573
11.185,2.0,1.0,1.0,34.5,34.1,34.1,2.1,3.9,2.7625,-0.5156184866745188,-0.06570971194071897,0.7806465702722016,-0.10234020210704661,-0.578572,-18.299941
11.185,2.0,1.0,1.0,34.5,34.1,34.1,2.1,3.9,2.765,-0.5317211573225459,-0.06533558438460543,0.7669942219012696,-0.10722255574711984,-0.599781,-18.022946
11.185,2.0,1.0,1.0,34.5,34.1,34.1,2.1,3.9,2.7675,-0.5476887094638908,-0.06481210258824888,0.7526892688540122,-0.11234148300750557,-0.622294,-17.741426
11.185,2.0,1.0,1.0,34.5,34.1,34.1,2.1,3.9,2.77,-0.5634948280189958,-0.06412151090173447,0.737709600718824,-0.11770963976206321,-0.646228,-17.455214
11.185,2.0,1.0,1.0,34.5,34.1,34.1,2.1,3.9,2.7725,-0.5791105704887742,-0.06324390157130293,0.7220323740549452,-0.12334029442024136,-0.671713,-17.164134
11.185,2.0,1.0,1.0,34.5,34.1,34.1,2.1,3.9,2.775,-0.5945040547305124,-0.062156923866500784,0.7056340302894615,-0.12924731282423618,-0.698896,-16.868005
11.185,2.0,1.0,1.0,34.5,34.1,34.1,2.1,3.9,2.7775,-0.6096401024976457,-0.060835450137034536,0.6884903312623613,-0.13544512569955203,-0.727939,-16.566636
11.185,2.0,1.0,1.0,34.5,34.1,34.1,2.1,3.9,2.78,-0.6244798320192296,-0.0592511921925822,0.670576418312919,-0.14194867277636875,-0.759028,-16.259829
11.185,2.0,1.0,1.0,34.5,34.1,34.1,2.1,3.9,2.7825,-0.638980191951433,-0.0573722604718327,0.6518669025459658,-0.148773315960356,-0.792371,-15.947377
11.185,2.0,1.0,1.0,34.5,34.1,34.1,2.1,3.9,2.785,-0.6530934280248776,-0.05516265747680127,0.6323359961666335,-0.15593471169062945,-0.828203,-15.629069
11.185,2.0,1.0,1.0,34.5,34.1,34.1,2.1,3.9,2.7875,-0.6667664726746345,-0.05258169593178303,0.6119576976719029,-0.16344862973556482,-0.866791,-15.304683
11.185,2.0,1.0,1.0,34.5,34.1,34.1,2.1,3.9,2.79,-0.679940246940671,-0.04958333114918445,0.5907060474204242,-0.17133070196117725,-0.90844,-14.973992
11.185,2.0,1.0,1.0,34.5,34.1,34.1,2.1,3.9,2.7925,-0.6925488630767471,-0.046115396257889824,0.5685554749024355,-0.1795960798296144,-0.953498,-14.636767
11.185,2.0,1.0,1.0,34.5,34.1,34.1,2.1,3.9,2.795,-0.7045187157853811,-0.042118728452970954,0.5454812651911216,-0.18825897325625485,-1.002362,-14.29277
11.185,2.0,1.0,1.0,34.5,34.1,34.1,2.1,3.9,2.7975,-0.7157674500882062,-0.03752617453989255,0.5214601799380199,-0.1973320356127634,-1.055489,-13.941764
11.185,2.0,1.0,1.0,34.5,34.1,34.1,2.1,3.9,2.8,-0.7262027949806805,-0.03226146520504385,0.4964712783165328,-0.20682554967361735,-1.113408,-13.583513
11.185,2.0,1.0,1.0,34.5,34.1,34.1,2.1,3.9,2.8025,-0.7357212548670689,-0.02623795030372012,0.4704969960371436,-0.21674635665014097,-1.176729,-13.217784
11.185,2.0,1.0,1.0,34.5,34.1,34.1,2.1,3.9,2.805,-0.7442066563122054,-0.01935719299695934,0.44352455653695017,-0.227096454560045,-1.24616,-12.844353
11.185,2.0,1.0,1.0,34.5,34.1,34.1,2.1,3.9,2.8075,-0.7515285573347464,-0.011507430236053095,0.4155478082881156,-0.23787117244075312,-1.322526,-12.463012
11.185,2.0,1.0,1.0,34.5,34.1,34.1,2.1,3.9,2.81,-0.7575405424193924,-0.0025619229931386355,0.3865696064044363,-0.24905680280326345,-1.406793,-12.073572
11.185,2.0,1.0,1.0,34.5,34.1,34.1,2.1,3.9,2.8125,-0.762078451678678,0.00762275521281409,0.356604885618709,-0.260627545972406,-1.500093,-11.67588
11.185,2.0,1.0,1.0,34.5,34.1,34.1,2.1,3.9,2.815,-0.7649586314251424,0.019208404289678477,0.3256846049124922,-0.2725415869067695,-1.603761,-11.269825
11.185,2.0,1.0,1.0,34.5,34.1,34.1,2.1,3.9,2.8175,-0.7659763517083283,0.0323767128247929,0.29386078004553573,-0.2847360892811356,-1.719372,-10.855358
11.185,2.0,1.0,1.0,34.5,34.1,34.1,2.1,3.9,2.82,-0.7649046219760005,0.04733037221195984,0.261212855166936,-0.2971208568037272,-1.848799,-10.432508
11.185,2.0,1.0,1.0,34.5,34.1,34.1,2.1,3.9,2.8225,-0.7614937589175667,0.0642934369615641,0.22785569094774133,-0.30957038552091837,-1.994266,-10.001413
11.185,2.0,1.0,1.0,34.5,34.1,34.1,2.1,3.9,2.825,-0.755472232508574,0.08351040739442513,0.19394945024664098,-0.3219140271473664,-2.158431,-9.562345
11.185,2.0,1.0,1.0,34.5,34.1,34.1,2.1,3.9,2.8275,-0.7465495493218453,0.10524327900576055,0.15971161920732457,-0.33392402609489197,-2.344476,-9.115754
