1,w,sub_t,h,l1,l2,l3,g1,g2,Freq,S11_re,S21_re,S11_img,S21_img,S11_dB,S21_dB
11.185,2.0,1.0,1.0,33.5,34.0,34.0,2.0,3.5,2.5,0.84224590034972,-0.00988774393908764,0.525115094491756,0.00828937995896321,-0.065091,-37.786345
11.185,2.0,1.0,1.0,33.5,34.0,34.0,2.0,3.5,2.5025,0.8384714178534072,-0.010098018490330296,0.5309725603475761,0.008331245251584903,-0.065787,-37.660408
11.185,2.0,1.0,1.0,33.5,34.0,34.0,2.0,3.5,2.505,0.8346366585767183,-0.010312439457277535,0.5368304896776157,0.008372180488019468,-0.066496,-37.534034
11.185,2.0,1.0,1.0,33.5,34.0,34.0,2.0,3.5,2.5075,0.8307409306445817,-0.010531099932090792,0.542688579708933,0.008412134665453963,-0.067219,-37.407214
11.185,2.0,1.0,1.0,33.5,34.0,34.0,2.0,3.5,2.51,0.826783529845002,-0.010754095561261152,0.5485465171674626,0.00845105458070215,-0.067956,-37.279938
11.185,2.0,1.0,1.0,33.5,34.0,34.0,2.0,3.5,2.5125,0.8227637393855072,-0.010981524627521383,0.5544039778976828,0.008488884729100851,-0.068708,-37.152196
11.185,2.0,1.0,1.0,33.5,34.0,34.0,2.0,3.5,2.515,0.8186808296445325,-0.01121348813472675,0.5602606264677932,0.008525567198297704,-0.069474,-37.023979
11.185,2.0,1.0,1.0,33.5,34.0,34.0,2.0,3.5,2.5175,0.8145340579176491,-0.01145008989582176,0.566116115759752,0.008561041556643176,-0.070256,-36.895276
11.185,2.0,1.0,1.0,33.5,34.0,34.0,2.0,3.5,2.52,0.8103226681585182,-0.011691436624016989,0.5719700865435451,0.00859524473588223,-0.071053,-36.766078
11.185,2.0,1.0,1.0,33.5,34.0,34.0,2.0,3.5,2.5225,0.8060458907144937,-0.011937638027303092,0.5778221670349819,0.00862811090782155,-0.071866,-36.636373
11.185,2.0,1.0,1.0,33.5,34.0,34.0,2.0,3.5,2.525,0.8017029420567422,-0.01218880690643656,0.5836719724363125,0.008659571354628514,-0.072695,-36.506152
11.185,2.0,1.0,1.0,33.5,34.0,34.0,2.0,3.5,2.5275,0.7972930245047867,-0.012445059256535758,0.589519104458908,0.008689554332395572,-0.073542,-36.375404
11.185,2.0,1.0,1.0,33.5,34.0,34.0,2.0,3.5,2.53,0.7928153259453736,-0.012706514372432134,0.595363150827207,0.008717984927579785,-0.074406,-36.244118
11.185,2.0,1.0,1.0,33.5,34.0,34.0,2.0,3.5,2.5325,0.7882690195455483,-0.012973294957927331,0.601203684763098,0.00874478490590402,-0.075287,-36.112282
11.185,2.0,1.0,1.0,33.5,34.0,34.0,2.0,3.5,2.535,0.7836532634598262,-0.013245527239113278,0.6070402644498578,0.00876987255327659,-0.076187,-35.979887
11.185,2.0,1.0,1.0,33.5,34.0,34.0,2.0,3.5,2.5375,0.7789672005313731,-0.013523341081918137,0.6128724324747243,0.0087931625082608,-0.077105,-35.846919
11.185,2.0,1.0,1.0,33.5,34.0,34.0,2.0,3.5,2.54,0.7742099579870604,-0.013806870114048317,0.6186997152491295,0.008814565585590984,-0.078043,-35.713369
11.185,2.0,1.0,1.0,33.5,34.0,34.0,2.0,3.5,2.5425,0.7693806471263116,-0.01409625185150302,0.6245216224055772,0.008833988590202515,-0.079001,-35.579223
11.185,2.0,1.0,1.0,33.5,34.0,34.0,2.0,3.5,2.545,0.7644783630036082,-0.014391627829844836,0.630337646170074,0.008851334121203966,-0.079979,-35.44447
11.185,2.0,1.0,1.0,33.5,34.0,34.0,2.0,3.5,2.5475,0.7595021841045795,-0.014693143740417296,0.6361472607089922,0.008866500365184578,-0.080978,-35.309098
11.185,2.0,1.0,1.0,33.5,34.0,34.0,2.0,3.5,2.55,0.7544511720155348,-0.01500094957170775,0.6419499214491619,0.008879380878206377,-0.081999,-35.173095
11.185,2.0,1.0,1.0,33.5,34.0,34.0,2.0,3.5,2.5525,0.7493243710863682,-0.015315199756060728,0.6477450643699136,0.00888986435578869,-0.083041,-35.036447
11.185,2.0,1.0,1.0,33.5,34.0,34.0,2.0,3.5,2.555,0.7441208080867109,-0.015636053321956053,0.653532105265767,0.008897834390143251,-0.084107,-34.899142
11.185,2.0,1.0,1.0,33.5,34.0,34.0,2.0,3.5,2.5575,0.7388394918552342,-0.01596367405207275,0.6593104389783304,0.008903169213868212,-0.085196,-34.761166
11.185,2.0,1.0,1.0,33.5,34.0,34.0,2.0,3.5,2.56,0.7334794129420167,-0.01629823064736812,0.665079438595937,0.008905741429253985,-0.086309,-34.622507
11.185,2.0,1.0,1.0,33.5,34.0,34.0,2.0,3.5,2.5625,0.7280395432438723,-0.016639896897409766,0.6708384546194385,0.0089054177222955,-0.087448,-34.483151
11.185,2.0,1.0,1.0,33.5,34.0,34.0,2.0,3.5,2.565,0.7225188356325499,-0.016988851857206368,0.6765868140925012,0.008902058560439727,-0.088612,-34.343083
11.185,2.0,1.0,1.0,33.5,34.0,34.0,2.0,3.5,2.5675,0.7169162235757255,-0.017345280030790944,0.6823238196946265,0.008895517873030912,-0.089802,-34.20229
11.185,2.0,1.0,1.0,33.5,34.0,34.0,2.0,3.5,2.57,0.7112306207507059,-0.017709371561819186,0.6880487487950524,0.008885642713340344,-0.09102,-34.060757
11.185,2.0,1.0,1.0,33.5,34.0,34.0,2.0,3.5,2.5725,0.705460920650764,-0.018081322431453405,0.6937608524655446,0.008872272900987669,-0.092265,-33.91847
11.185,2.0,1.0,1.0,33.5,34.0,34.0,2.0,3.5,2.575,0.6996059961840561,-0.01846133466381007,0.6994593544499967,0.00885524064347463,-0.09354,-33.775413
11.185,2.0,1.0,1.0,33.5,34.0,34.0,2.0,3.5,2.5775,0.6936646992650484,-0.018849616539257714,0.7051434500886061,0.008834370135458671,-0.094844,-33.631571
11.185,2.0,1.0,1.0,33.5,34.0,34.0,2.0,3.5,2.58,0.6876358603984319,-0.019246382815858266,0.71081230519428,0.008809477134292565,-0.09618,-33.486928
11.185,2.0,1.0,1.0,33.5,34.0,34.0,2.0,3.5,2.5825,0.6815182882554638,-0.019651854959253517,0.7164650548787633,0.008780368510247674,-0.097547,-33.341468
11.185,2.0,1.0,1.0,33.5,34.0,34.0,2.0,3.5,2.585,0.6753107692427456,-0.020066261381303088,0.7221008023258312,0.008746841769719392,-0.098947,-33.195176
11.185,2.0,1.0,1.0,33.5,34.0,34.0,2.0,3.5,2.5875,0.6690120670634125,-0.020489837687787824,0.7277186175087208,0.00870868454958628,-0.100381,-33.048033
11.185,2.0,1.0,1.0,33.5,34.0,34.0,2.0,3.5,2.59,0.6626209222707686,-0.020922826935495856,0.7333175358487917,0.008665674080755454,-0.10185,-32.900024
11.185,2.0,1.0,1.0,33.5,34.0,34.0,2.0,3.5,2.5925,0.6561360518143851,-0.021365479899014158,0.7388965568122152,0.008617576618775704,-0.103355,-32.75113
11.185,2.0,1.0,1.0,33.5,34.0,34.0,2.0,3.5,2.595,0.6495561485787484,-0.02181805534754858,0.7444546424412738,0.008564146839238283,-0.104897,-32.601334
11.185,2.0,1.0,1.0,33.5,34.0,34.0,2.0,3.5,2.5975,0.642879880914517,-0.022280820332099063,0.7499907158166454,0.008505127195506586,-0.106478,-32.450617
11.185,2.0,1.0,1.0,33.5,34.0,34.0,2.0,3.5,2.6,0.6361058921625258,-0.02275405048331359,0.7555036594467857,0.008440247236125997,-0.108099,-32.298961
11.185,2.0,1.0,1.0,33.5,34.0,34.0,2.0,3.5,2.6025,0.6292328001706858,-0.023238030320341222,0.7609923135802584,0.00836922287905269,-0.109761,-32.146346
11.185,2.0,1.0,1.0,33.5,34.0,34.0,2.0,3.5,2.605,0.6222591968039712,-0.0237330535710002,0.7664554744366016,0.008291755639616948,-0.111466,-31.992753
11.185,2.0,1.0,1.0,33.5,34.0,34.0,2.0,3.5,2.6075,0.6151836474477324,-0.024239423503565602,0.7718918923509905,0.008207531808887428,-0.113216,-31.838162
11.185,2.0,1.0,1.0,33.5,34.0,34.0,2.0,3.5,2.61,0.6080046905046365,-0.02475745327046898,0.777300269827628,0.00811622157883155,-0.115011,-31.682553
11.185,2.0,1.0,1.0,33.5,34.0,34.0,2.0,3.5,2.6125,0.6007208368855708,-0.02528746626418495,0.782679259496447,0.008017478110379074,-0.116853,-31.525903
11.185,2.0,1.0,1.0,33.5,34.0,34.0,2.0,3.5,2.615,0.5933305694949319,-0.025829796485556215,0.7880274619673215,0.00791093654017029,-0.118745,-31.368192
11.185,2.0,1.0,1.0,33.5,34.0,34.0,2.0,3.5,2.6175,0.5858323427107966,-0.026384788924779298,0.793343423575535,0.007796212921424796,-0.120687,-31.209397
11.185,2.0,1.0,1.0,33.5,34.0,34.0,2.0,3.5,2.62,0.5782245818605511,-0.026952799955236986,0.7986256340118347,0.007672903093985994,-0.122683,-31.049495
11.185,2.0,1.0,1.0,33.5,34.0,34.0,2.0,3.5,2.6225,0.5705056826926449,-0.02753419774031958,0.8038725238298813,0.007540581478177108,-0.124733,-30.888464
11.185,2.0,1.0,1.0,33.5,34.0,34.0,2.0,3.5,2.625,0.562674010845283,-0.0281293626533194,0.809082461823361,0.00739879978665338,-0.12684,-30.72628
11.185,2.0,1.0,1.0,33.5,34.0,34.0,2.0,3.5,2.6275,0.5547279013129436,-0.02873868771042108,0.8142537522644652,0.0072470856479338215,-0.129006,-30.562916
11.185,2.0,1.0,1.0,33.5,34.0,34.0,2.0,3.5,2.63,0.5466656579117959,-0.02936257901672646,0.8193846319947687,0.007084941134752881,-0.131233,-30.39835
11.185,2.0,1.0,1.0,33.5,34.0,34.0,2.0,3.5,2.6325,0.5384855527452421,-0.030001456225160428,0.8244732673588696,0.006911841189774681,-0.133524,-30.232554
11.185,2.0,1.0,1.0,33.5,34.0,34.0,2.0,3.5,2.635,0.5301858256709884,-0.030655753007989263,0.8295177509703772,0.006727231940556777,-0.135881,-30.065502
11.185,2.0,1.0,1.0,33.5,34.0,34.0,2.0,3.5,2.6375,0.5217646837712825,-0.03132591754054914,0.834516098299009,0.006530528894932585,-0.138306,-29.897166
11.185,2.0,1.0,1.0,33.5,34.0,34.0,2.0,3.5,2.64,0.5132203008281668,-0.0320124129966248,0.8394662440666583,0.006321115007193825,-0.140804,-29.727519
11.185,2.0,1.0,1.0,33.5,34.0,34.0,2.0,3.5,2.6425,0.5045508168059152,-0.03271571805472921,0.8443660384392867,0.006098338604584686,-0.143376,-29.556532
11.185,2.0,1.0,1.0,33.5,34.0,34.0,2.0,3.5,2.645,0.4957543373431006,-0.03343632741431661,0.8492132430004232,0.005861511162669269,-0.146025,-29.384174
11.185,2.0,1.0,1.0,33.5,34.0,34.0,2.0,3.5,2.6475,0.486828933257139,-0.03417475232070187,0.8540055264908522,0.005609904917083003,-0.148755,-29.210415
11.185,2.0,1.0,1.0,33.5,34.0,34.0,2.0,3.5,2.65,0.4777726400645213,-0.0349315210971585,0.8587404602977856,0.005342750298023975,-0.151569,-29.035224
11.185,2.0,1.0,1.0,33.5,34.0,34.0,2.0,3.5,2.6525,0.46858345752049824,-0.03570717968230806,0.8634155136753474,0.005059233172568062,-0.154471,-28.858567
11.185,2.0,1.0,1.0,33.5,34.0,34.0,2.0,3.5,2.655,0.4592593491824292,-0.03650229217050598,0.8680280486766611,0.004758491878485817,-0.157465,-28.680413
11.185,2.0,1.0,1.0,33.5,34.0,34.0,2.0,3.5,2.6575,0.4497982420017211,-0.037317441352438,0.8725753147760908,0.004439614031690555,-0.160554,-28.500725
11.185,2.0,1.0,1.0,33.5,34.0,34.0,2.0,3.5,2.66,0.44019802594993157,-0.03815322925257995,0.8770544431582606,0.00410163308773518,-0.163743,-28.31947
11.185,2.0,1.0,1.0,33.5,34.0,34.0,2.0,3.5,2.6625,0.43045655368549013,-0.03901027765950967,0.8814624406484032,0.003743524635881953,-0.167036,-28.136609
11.185,2.0,1.0,1.0,33.5,34.0,34.0,2.0,3.5,2.665,0.4205716402683759,-0.039889228644293576,0.8857961832562765,0.0033642024021760743,-0.170438,-27.952105
11.185,2.0,1.0,1.0,33.5,34.0,34.0,2.0,3.5,2.6675,0.41054106293124226,-0.040790745061266065,0.8900524093033055,0.0029625139356379737,-0.173954,-27.76592
11.185,2.0,1.0,1.0,33.5,34.0,34.0,2.0,3.5,2.67,0.40036256091668826,-0.04171551102447603,0.8942277120998253,0.0025372359491179896,-0.177589,-27.578012
11.185,2.0,1.0,1.0,33.5,34.0,34.0,2.0,3.5,2.6725,0.39003383539182707,-0.04266423235184922,0.8983185321361561,0.002087069283512494,-0.181349,-27.388341
11.185,2.0,1.0,1.0,33.5,34.0,34.0,2.0,3.5,2.675,0.3795525494530022,-0.04363763696768712,0.9023211487478064,0.0016106334608810412,-0.185241,-27.196863
11.185,2.0,1.0,1.0,33.5,34.0,34.0,2.0,3.5,2.6775,0.3689163282353908,-0.04463647525245915,0.9062316712112735,0.001106460788495397,-0.189269,-27.003534
11.185,2.0,1.0,1.0,33.5,34.0,34.0,2.0,3.5,2.68,0.3581227591444865,-0.04566152032689931,0.9100460292226946,0.0005729899719549986,-0.193442,-26.808309
11.185,2.0,1.0,1.0,33.5,34.0,34.0,2.0,3.5,2.6825,0.34716939222903814,-0.046713568255146345,0.9137599627068853,8.55919116868661e-06,-0.197766,-26.611139
11.185,2.0,1.0,1.0,33.5,34.0,34.0,2.0,3.5,2.685,0.3360537407179978,-0.047793438149015294,0.9173690108991202,-0.0005886014118172538,-0.20225,-26.411976
11.185,2.0,1.0,1.0,33.5,34.0,34.0,2.0,3.5,2.6875,0.324773281747524,-0.0489019721523824,0.920868500636206,-0.00122037788953626,-0.2069,-26.210769
11.185,2.0,1.0,1.0,33.5,34.0,34.0,2.0,3.5,2.69,0.31332545730813066,-0.05004003528103641,0.9242535337869727,-0.0018887813527284556,-0.211727,-26.007465
11.185,2.0,1.0,1.0,33.5,34.0,34.0,2.0,3.5,2.6925,0.30170767544673094,-0.05120851508910104,0.9275189737451747,-0.0025959576099177945,-0.216738,-25.80201
11.185,2.0,1.0,1.0,33.5,34.0,34.0,2.0,3.5,2.695,0.2899173117638748,-0.05240832112814863,0.9306594308997935,-0.003344197659399348,-0.221946,-25.594347
11.185,2.0,1.0,1.0,33.5,34.0,34.0,2.0,3.5,2.6975,0.2779517112527688,-0.05364038415929248,0.9336692469889345,-0.004135949118401628,-0.227359,-25.384419
11.185,2.0,1.0,1.0,33.5,34.0,34.0,2.0,3.5,2.7,0.26580819053421506,-0.0549056550716829,0.9365424782335788,-0.004973828683436984,-0.23299,-25.172164
11.185,2.0,1.0,1.0,33.5,34.0,34.0,2.0,3.5,2.7025,0.2534840405502635,-0.05620510345278693,0.9392728771364974,-0.005860635726188391,-0.23885,-24.95752
11.185,2.0,1.0,1.0,33.5,34.0,34.0,2.0,3.5,2.705,0.24097652978962747,-0.057539715746354254,0.9418538728193476,-0.00679936714082258,-0.244954,-24.740422
11.185,2.0,1.0,1.0,33.5,34.0,34.0,2.0,3.5,2.7075,0.22828290812984894,-0.05891049292282783,0.9442785497573148,-0.0077932335715042225,-0.251315,-24.520801
11.185,2.0,1.0,1.0,33.5,34.0,34.0,2.0,3.5,2.71,0.21540041139532062,-0.06031844757381121,0.9465396247554159,-0.008845677163281745,-0.257949,-24.298587
11.185,2.0,1.0,1.0,33.5,34.0,34.0,2.0,3.5,2.7125,0.20232626674674703,-0.06176460032670345,0.9486294219935896,-0.009960390995587055,-0.264871,-24.073708
11.185,2.0,1.0,1.0,33.5,34.0,34.0,2.0,3.5,2.715,0.1890576990371587,-0.06324997545728846,0.9505398459487617,-0.011141340375530114,-0.272101,-23.846088
11.185,2.0,1.0,1.0,33.5,34.0,34.0,2.0,3.5,2.7175,0.1755919382925365,-0.06477559555639986,0.9522623519809797,-0.012392786188186518,-0.279657,-23.615648
11.185,2.0,1.0,1.0,33.5,34.0,34.0,2.0,3.5,2.72,0.16192622850227015,-0.06634247508111416,0.9537879143472153,-0.01371931052338131,-0.287559,-23.382305
11.185,2.0,1.0,1.0,33.5,34.0,34.0,2.0,3.5,2.7225,0.1480578379367238,-0.06795161259049257,0.9551069913803564,-0.015125844823316586,-0.295832,-23.145975
11.185,2.0,1.0,1.0,33.5,34.0,34.0,2.0,3.5,2.725,0.13398407124729397,-0.06960398142973825,0.9562094875418794,-0.016617700822995737,-0.304498,-22.906569
11.185,2.0,1.0,1.0,33.5,34.0,34.0,2.0,3.5,2.7275,0.11970228364938644,-0.07130051858366011,0.957084712024626,-0.01820060458603957,-0.313584,-22.663995
11.185,2.0,1.0,1.0,33.5,34.0,34.0,2.0,3.5,2.73,0.10520989754246017,-0.07304211136913556,0.9577213335465714,-0.01988073397238008,-0.32312,-22.418155
11.185,2.0,1.0,1.0,33.5,34.0,34.0,2.0,3.5,2.7325,0.0905044219850583,-0.0748295815752262,0.958107330937406,-0.02166475991170567,-0.333136,-22.168952
11.185,2.0,1.0,1.0,33.5,34.0,34.0,2.0,3.5,2.735,0.07558347551891431,-0.07666366658668809,0.9582299390768484,-0.023559891897577446,-0.343668,-21.916279
11.185,2.0,1.0,1.0,33.5,34.0,34.0,2.0,3.5,2.7375,0.06044481292706356,-0.07854499693942574,0.9580755896968541,-0.025573928161964615,-0.354752,-21.660028
11.185,2.0,1.0,1.0,33.5,34.0,34.0,2.0,3.5,2.74,0.045086356619595765,-0.08047406965199855,0.9576298465092199,-0.027715311038538696,-0.36643,-21.400087
11.185,2.0,1.0,1.0,33.5,34.0,34.0,2.0,3.5,2.7425,0.029506233470839718,-0.08245121655202493,0.9568773340657389,-0.029993188075261672,-0.378747,-21.136337
11.185,2.0,1.0,1.0,33.5,34.0,34.0,2.0,3.5,2.745,0.013702818087917056,-0.08447656666586476,0.9558016597005158,-0.032417479512145166,-0.391752,-20.868655
11.185,2.0,1.0,1.0,33.5,34.0,34.0,2.0,3.5,2.7475,-0.002325216321844787,-0.08655000155898887,0.9543853278440798,-0.03499895279775117,-0.405499,-20.596913
11.185,2.0,1.0,1.0,33.5,34.0,34.0,2.0,3.5,2.75,-0.0185788380915304,-0.0886711022964859,0.952609645938026,-0.0377493048766947,-0.420049,-20.320977
11.185,2.0,1.0,1.0,33.5,34.0,34.0,2.0,3.5,2.7525,-0.03505858657841241,-0.09083908643032296,0.9504546211192287,-0.040681253037986254,-0.435467,-20.040708
11.185,2.0,1.0,1.0,33.5,34.0,34.0,2.0,3.5,2.755,-0.05176448899828678,-0.09305273310266482,0.9478988467874405,-0.04380863516733502,-0.451828,-19.755961
11.185,2.0,1.0,1.0,33.5,34.0,34.0,2.0,3.5,2.7575,-0.06869596222214651,-0.09531029397108468,0.9449193781242674,-0.04714652029087824,-0.469211,-19.466585
11.185,2.0,1.0,1.0,33.5,34.0,34.0,2.0,3.5,2.76,-0.08585169666879125,-0.09760938719764231,0.941491595601933,-0.050711330326423554,-0.487709,-19.172422
11.185,2.0,1.0,1.0,33.5,34.0,34.0,2.0,3.5,2.7625,-0.10322951884892674,-0.0999468711823794,0.9375890555168909,-0.05452097396164838,-0.50742,-18.873309
11.185,2.0,1.0,1.0,33.5,34.0,34.0,2.0,3.5,2.765,-0.12082622841681799,-0.10231869404192703,0.9331833266201689,-0.05859499354318526,-0.528457,-18.569075
11.185,2.0,1.0,1.0,33.5,34.0,34.0,2.0,3.5,2.7675,-0.13863740473932679,-0.1047197140106233,0.9282438120128698,-0.06295472576718074,-0.550946,-18.259543
11.185,2.0,1.0,1.0,33.5,34.0,34.0,2.0,3.5,2.77,-0.15665717696861628,-0.10714348494482183,0.9227375556587356,-0.06762347678430433,-0.575028,-17.94453
11.185,2.0,1.0,1.0,33.5,34.0,34.0,2.0,3.5,2.7725,-0.17487795036769274,-0.10958199990542578,0.9166290331738063,-0.07262671203360367,-0.60086,-17.623845
11.185,2.0,1.0,1.0,33.5,34.0,34.0,2.0,3.5,2.775,-0.19329008014519825,-0.11202538433750192,0.9098799270379603,-0.07799226064947246,-0.628621,-17.297293
11.185,2.0,1.0,1.0,33.5,34.0,34.0,2.0,3.5,2.7775,-0.2118814822587072,-0.11446152861121933,0.9024488871060821,-0.08375053357457989,-0.658513,-16.964672
11.185,2.0,1.0,1.0,33.5,34.0,34.0,2.0,3.5,2.78,-0.23063716848993437,-0.11687564758151049,0.8942912783758161,-0.08993475346334201,-0.690762,-16.625771
11.185,2.0,1.0,1.0,33.5,34.0,34.0,2.0,3.5,2.7825,-0.24953869052191072,-0.11924975230663899,0.8853589195284409,-0.09658119294456297,-0.725629,-16.28038
11.185,2.0,1.0,1.0,33.5,34.0,34.0,2.0,3.5,2.785,-0.26856347469849723,-0.12156201607934888,0.8755998179818378,-0.10372941565007733,-0.763409,-15.928282
11.185,2.0,1.0,1.0,33.5,34.0,34.0,2.0,3.5,2.7875,-0.2876840255676286,-0.12378601341548075,0.8649579103277923,-0.11142251136637431,-0.804438,-15.569256
11.185,2.0,1.0,1.0,33.5,34.0,34.0,2.0,3.5,2.79,-0.3068669721685984,-0.1258898065792367,0.8533728214044295,-0.11970731240126865,-0.849103,-15.203083
11.185,2.0,1.0,1.0,33.5,34.0,34.0,2.0,3.5,2.7925,-0.32607192632747667,-0.1278348496059165,0.8407796613279803,-0.12863457233791317,-0.897848,-14.829546
11.185,2.0,1.0,1.0,33.5,34.0,34.0,2.0,3.5,2.795,-0.3452501170574008,-0.12957467468971326,0.827108888174707,-0.13825908018782715,-0.951186,-14.44843
11.185,2.0,1.0,1.0,33.5,34.0,34.0,2.0,3.5,2.7975,-0.36434275973784014,-0.13105332044236087,0.8122862754531585,-0.14863967177934,-1.009708,-14.059532
11.185,2.0,1.0,1.0,33.5,34.0,34.0,2.0,3.5,2.8,-0.3832791135085115,-0.13220345632029407,0.7962330390647802,-0.1598390850214348,-1.074102,-13.662661
11.185,2.0,1.0,1.0,33.5,34.0,34.0,2.0,3.5,2.8025,-0.4019741760579329,-0.13294415323620695,0.7788661994248189,-0.17192358518060438,-1.145168,-13.257649
11.185,2.0,1.0,1.0,33.5,34.0,34.0,2.0,3.5,2.805,-0.4203259630832813,-0.1331782483433078,0.7600992824238343,-0.18496225890726167,-1.22384,-12.844355
11.185,2.0,1.0,1.0,33.5,34.0,34.0,2.0,3.5,2.8075,-0.4382123223957021,-0.1327892543931484,0.7398434998692325,-0.19902583955788855,-1.311215,-12.42268
11.185,2.0,1.0,1.0,33.5,34.0,34.0,2.0,3.5,2.81,-0.4554872435187436,-0.13163777440253538,0.7180095980623058,-0.21418487929342772,-1.408579,-11.992577
11.185,2.0,1.0,1.0,33.5,34.0,34.0,2.0,3.5,2.8125,-0.471976648198667,-0.129557406007857,0.694510624240723,-0.230507023495939,-1.51745,-11.554072
11.185,2.0,1.0,1.0,33.5,34.0,34.0,2.0,3.5,2.815,-0.48747369379714633,-0.12635016492840978,0.6692659360066361,-0.24805306894387832,-1.639625,-11.107281
11.185,2.0,1.0,1.0,33.5,34.0,34.0,2.0,3.5,2.8175,-0.5017337020931184,-0.12178153516884575,0.642206867846707,-0.2668713995379384,-1.777231,-10.652436
11.185,2.0,1.0,1.0,33.5,34.0,34.0,2.0,3.5,2.82,-0.5144689573306661,-0.11557538138113642,0.6132845665232579,-0.286990296852274,-1.9328,-10.189923
11.185,2.0,1.0,1.0,33.5,34.0,34.0,2.0,3.5,2.8225,-0.5253438214475882,-0.10740915781990693,0.5824806006702957,-0.308407529761309,-2.109344,-9.720313
11.185,2.0,1.0,1.0,33.5,34.0,34.0,2.0,3.5,2.825,-0.5339709178095572,-0.09691014467512107,0.5498210128568607,-0.33107656358720383,-2.310453,-9.244411
11.185,2.0,1.0,1.0,33.5,34.0,34.0,2.0,3.5,2.8275,-0.5399095644217348,-0.08365386297581488,0.5153944661488834,-0.3548887418894501,-2.540405,-8.763313
11.185,2.0,1.0,1.0,33.5,34.0,34.0,2.0,3.5,2.83,-0.5426682105696096,-0.0671663810185865,0.47937496083353665,-0.37965096223149236,-2.804291,-8.278463
