1,w,sub_t,h,l1,l2,l3,g1,g2,Freq,S11_re,S21_re,S11_img,S21_img,S11_dB,S21_dB
11.185,2.0,1.0,1.0,33.0,34.9,34.9,3.3,2.4,2.5,0.895617484850785,-0.00708747366682548,0.43021577598671,0.00751523671983434,-0.055877,-39.717905
11.185,2.0,1.0,1.0,33.0,34.9,34.9,3.3,2.4,2.5025,0.8928985927927132,-0.007260945754909336,0.4356699087229736,0.007589854222807204,-0.056493,-39.573173
11.185,2.0,1.0,1.0,33.0,34.9,34.9,3.3,2.4,2.505,0.8901345322848485,-0.007438707640082047,0.4411276143567324,0.0076650870683611086,-0.057123,-39.427603
11.185,2.0,1.0,1.0,33.0,34.9,34.9,3.3,2.4,2.5075,0.8873247994192976,-0.007620899310750126,0.44658880082264113,0.00774094098847344,-0.057766,-39.28117
11.185,2.0,1.0,1.0,33.0,34.9,34.9,3.3,2.4,2.51,0.884468877902134,-0.007807666950915758,0.45205337282733854,0.00781742157900911,-0.058424,-39.133849
11.185,2.0,1.0,1.0,33.0,34.9,34.9,3.3,2.4,2.5125,0.8815662385908263,-0.0079991632850772,0.45752123172004244,0.007894534271692007,-0.059096,-38.985613
11.185,2.0,1.0,1.0,33.0,34.9,34.9,3.3,2.4,2.515,0.8786163390056533,-0.008195547946237551,0.4629922753567589,0.0079722843028241,-0.059784,-38.836436
11.185,2.0,1.0,1.0,33.0,34.9,34.9,3.3,2.4,2.5175,0.8756186228132031,-0.008396987868832698,0.46846639795761447,0.008050676678386166,-0.060488,-38.68629
11.185,2.0,1.0,1.0,33.0,34.9,34.9,3.3,2.4,2.52,0.8725725192798627,-0.008603657708553756,0.4739434899568106,0.00812971613511036,-0.061208,-38.535147
11.185,2.0,1.0,1.0,33.0,34.9,34.9,3.3,2.4,2.5225,0.8694774426930522,-0.008815740291216656,0.47942343784460195,0.008209407097066643,-0.061945,-38.382977
11.185,2.0,1.0,1.0,33.0,34.9,34.9,3.3,2.4,2.525,0.8663327917477203,-0.009033427093031244,0.48490612400068617,0.008289753627249687,-0.0627,-38.229751
11.185,2.0,1.0,1.0,33.0,34.9,34.9,3.3,2.4,2.5275,0.863137948895416,-0.009256918754839263,0.4903914265182976,0.008370759373590416,-0.063474,-38.075436
11.185,2.0,1.0,1.0,33.0,34.9,34.9,3.3,2.4,2.53,0.8598922796529961,-0.009486425633132388,0.4958792190182238,0.0084524275087472,-0.064267,-37.920001
11.185,2.0,1.0,1.0,33.0,34.9,34.9,3.3,2.4,2.5325,0.8565951318677542,-0.009722168390928258,0.501369370451892,0.008534760662949668,-0.06508,-37.763413
11.185,2.0,1.0,1.0,33.0,34.9,34.9,3.3,2.4,2.535,0.8532458349354495,-0.009964378631878289,0.5068617448925704,0.008617760849081361,-0.065914,-37.605638
11.185,2.0,1.0,1.0,33.0,34.9,34.9,3.3,2.4,2.5375,0.8498436989673892,-0.01021329958130724,0.5123562013136114,0.008701429379081435,-0.06677,-37.446639
11.185,2.0,1.0,1.0,33.0,34.9,34.9,3.3,2.4,2.54,0.8463880139023322,-0.010469186818250096,0.5178525933525614,0.008785766770632418,-0.067649,-37.286381
11.185,2.0,1.0,1.0,33.0,34.9,34.9,3.3,2.4,2.5425,0.8428780485585756,-0.010732309062953704,0.5233507690598098,0.008870772642966885,-0.068551,-37.124825
11.185,2.0,1.0,1.0,33.0,34.9,34.9,3.3,2.4,2.545,0.8393130496211262,-0.011002949024760953,0.5288505706302956,0.008956445600475852,-0.069478,-36.961933
11.185,2.0,1.0,1.0,33.0,34.9,34.9,3.3,2.4,2.5475,0.835692240558347,-0.011281404315794906,0.5343518341166071,0.009042783102630599,-0.070431,-36.797664
11.185,2.0,1.0,1.0,33.0,34.9,34.9,3.3,2.4,2.55,0.8320148204618893,-0.01156798843641875,0.5398543891216266,0.009129781318532343,-0.071411,-36.631976
11.185,2.0,1.0,1.0,33.0,34.9,34.9,3.3,2.4,2.5525,0.8282799628031053,-0.011863031839068693,0.5453580584686042,0.009217434964181209,-0.072419,-36.464826
11.185,2.0,1.0,1.0,33.0,34.9,34.9,3.3,2.4,2.555,0.8244868140984013,-0.012166883077755122,0.5508626578463188,0.009305737120297945,-0.073457,-36.296169
11.185,2.0,1.0,1.0,33.0,34.9,34.9,3.3,2.4,2.5575,0.8206344924752127,-0.012479910051304373,0.5563679954266605,0.009394679028239445,-0.074525,-36.125957
11.185,2.0,1.0,1.0,33.0,34.9,34.9,3.3,2.4,2.56,0.8167220861293865,-0.01280250134928775,0.5618738714516168,0.009484249861207997,-0.075626,-35.954142
11.185,2.0,1.0,1.0,33.0,34.9,34.9,3.3,2.4,2.5625,0.8127486516637581,-0.013135067710563544,0.5673800777862648,0.009574436467568287,-0.076761,-35.780675
11.185,2.0,1.0,1.0,33.0,34.9,34.9,3.3,2.4,2.565,0.8087132122965837,-0.013478043605460404,0.5728863974339005,0.00966522308263606,-0.07793,-35.605501
11.185,2.0,1.0,1.0,33.0,34.9,34.9,3.3,2.4,2.5675,0.8046147559272357,-0.0138318889538676,0.5783926040089051,0.009756591004786392,-0.079138,-35.428569
11.185,2.0,1.0,1.0,33.0,34.9,34.9,3.3,2.4,2.57,0.800452233045138,-0.014197090992896885,0.583898461162356,0.009848518231131012,-0.080384,-35.249819
11.185,2.0,1.0,1.0,33.0,34.9,34.9,3.3,2.4,2.5725,0.7962245544663134,-0.014574166309355758,0.5894037219546667,0.009940979047322605,-0.081671,-35.069194
11.185,2.0,1.0,1.0,33.0,34.9,34.9,3.3,2.4,2.575,0.7919305888801137,-0.014963663054055318,0.594908128168739,0.01003394356524063,-0.083001,-34.886632
11.185,2.0,1.0,1.0,33.0,34.9,34.9,3.3,2.4,2.5775,0.7875691601866359,-0.015366163356992864,0.6004114095561474,0.01012737720138127,-0.084377,-34.702069
11.185,2.0,1.0,1.0,33.0,34.9,34.9,3.3,2.4,2.58,0.7831390446030176,-0.0157822859647386,0.6059132830077916,0.01022124008768519,-0.0858,-34.515439
11.185,2.0,1.0,1.0,33.0,34.9,34.9,3.3,2.4,2.5825,0.7786389675141483,-0.016212689123956094,0.6114134516391588,0.010315486405273301,-0.087274,-34.326671
11.185,2.0,1.0,1.0,33.0,34.9,34.9,3.3,2.4,2.585,0.7740676000403438,-0.016658073737940433,0.6169116037788325,0.010410063630074734,-0.0888,-34.135693
11.185,2.0,1.0,1.0,33.0,34.9,34.9,3.3,2.4,2.5875,0.7694235552911027,-0.0171191868264325,0.6224074118471499,0.01050491167760013,-0.090383,-33.942429
11.185,2.0,1.0,1.0,33.0,34.9,34.9,3.3,2.4,2.59,0.7647053842701623,-0.01759682532281182,0.6279005311098227,0.010599961932071952,-0.092025,-33.746799
11.185,2.0,1.0,1.0,33.0,34.9,34.9,3.3,2.4,2.5925,0.7599115713926019,-0.01809184024717417,0.6333905982889441,0.010695136142731253,-0.093729,-33.54872
11.185,2.0,1.0,1.0,33.0,34.9,34.9,3.3,2.4,2.595,0.755040529569643,-0.018605141298838807,0.6388772300109241,0.01079034516730978,-0.0955,-33.348105
11.185,2.0,1.0,1.0,33.0,34.9,34.9,3.3,2.4,2.5975,0.7500905948109093,-0.019137701917620736,0.644360021067559,0.010885487539319923,-0.097341,-33.144862
11.185,2.0,1.0,1.0,33.0,34.9,34.9,3.3,2.4,2.6,0.7450600202871781,-0.019690564869857517,0.6498385424624186,0.010980447831857334,-0.099256,-32.938896
11.185,2.0,1.0,1.0,33.0,34.9,34.9,3.3,2.4,2.6025,0.7399469697888886,-0.020264848422847474,0.6553123392100174,0.011075094785907683,-0.101251,-32.730107
11.185,2.0,1.0,1.0,33.0,34.9,34.9,3.3,2.4,2.605,0.7347495105066864,-0.0208617531802148,0.6607809278495989,0.011169279165560344,-0.10333,-32.518387
11.185,2.0,1.0,1.0,33.0,34.9,34.9,3.3,2.4,2.6075,0.7294656050499345,-0.021482569660953455,0.6662437936286235,0.011262831295840438,-0.105498,-32.303626
11.185,2.0,1.0,1.0,33.0,34.9,34.9,3.3,2.4,2.61,0.7240931026070893,-0.022128686716780404,0.6717003873030017,0.011355558230881977,-0.107762,-32.085708
11.185,2.0,1.0,1.0,33.0,34.9,34.9,3.3,2.4,2.6125,0.7186297291378806,-0.02280160089621764,0.6771501214914561,0.011447240490553463,-0.110128,-31.864508
11.185,2.0,1.0,1.0,33.0,34.9,34.9,3.3,2.4,2.615,0.7130730764709903,-0.023502926879878545,0.6825923665097537,0.01153762829208624,-0.112603,-31.639897
11.185,2.0,1.0,1.0,33.0,34.9,34.9,3.3,2.4,2.6175,0.7074205901619858,-0.024234409130164412,0.688026445596494,0.011626437189291941,-0.115194,-31.411738
11.185,2.0,1.0,1.0,33.0,34.9,34.9,3.3,2.4,2.62,0.7016695559441033,-0.02499793492047111,0.6934516294251301,0.011713343015027347,-0.117911,-31.179885
11.185,2.0,1.0,1.0,33.0,34.9,34.9,3.3,2.4,2.6225,0.6958170845785281,-0.02579554893466811,0.6988671297762136,0.011797976002004409,-0.120761,-30.944186
11.185,2.0,1.0,1.0,33.0,34.9,34.9,3.3,2.4,2.625,0.68986009488038,-0.0266294696577324,0.704272092218613,0.0118799139319489,-0.123757,-30.704477
11.185,2.0,1.0,1.0,33.0,34.9,34.9,3.3,2.4,2.6275,0.6837952946607233,-0.027502107813886723,0.7096655876176137,0.011958674132416126,-0.126908,-30.460588
11.185,2.0,1.0,1.0,33.0,34.9,34.9,3.3,2.4,2.63,0.6776191592826797,-0.0284160871504088,0.7150466022498729,0.0120337041028562,-0.130226,-30.212335
11.185,2.0,1.0,1.0,33.0,34.9,34.9,3.3,2.4,2.6325,0.6713279074797248,-0.029374267914726193,0.7204140262584761,0.012104370505028744,-0.133727,-29.959524
11.185,2.0,1.0,1.0,33.0,34.9,34.9,3.3,2.4,2.635,0.6649174740250563,-0.03037977343098447,0.7257666401234841,0.012169946195317574,-0.137424,-29.70195
11.185,2.0,1.0,1.0,33.0,34.9,34.9,3.3,2.4,2.6375,0.6583834787706465,-0.03143602025182366,0.7311030987514832,0.012229594904981472,-0.141334,-29.439393
11.185,2.0,1.0,1.0,33.0,34.9,34.9,3.3,2.4,2.64,0.6517211914909515,-0.03254675244384524,0.7364219126979498,0.01228235308513615,-0.145476,-29.171618
11.185,2.0,1.0,1.0,33.0,34.9,34.9,3.3,2.4,2.6425,0.6449254918666241,-0.03371608066387464,0.7417214259237971,0.012327108321400914,-0.149871,-28.898375
11.185,2.0,1.0,1.0,33.0,34.9,34.9,3.3,2.4,2.645,0.6379908238245154,-0.03494852680092531,0.7469997893459409,0.012362573582329667,-0.154542,-28.619397
11.185,2.0,1.0,1.0,33.0,34.9,34.9,3.3,2.4,2.6475,0.6309111433079186,-0.03624907509964992,0.7522549292626564,0.012387256387604649,-0.159516,-28.334398
11.185,2.0,1.0,1.0,33.0,34.9,34.9,3.3,2.4,2.65,0.6236798583804604,-0.03762323084981529,0.7574845095069325,0.012399421755562056,-0.164823,-28.04307
11.185,2.0,1.0,1.0,33.0,34.9,34.9,3.3,2.4,2.6525,0.6162897603626729,-0.039077087928614605,0.7626858858902389,0.012397047500364931,-0.170494,-27.745084
11.185,2.0,1.0,1.0,33.0,34.9,34.9,3.3,2.4,2.655,0.6087329444550365,-0.04061740672524164,0.7678560511257515,0.012377770077673376,-0.17657,-27.440084
11.185,2.0,1.0,1.0,33.0,34.9,34.9,3.3,2.4,2.6575,0.6010007180073486,-0.0422517042679978,0.7729915679378601,0.012338818698010394,-0.183092,-27.127688
11.185,2.0,1.0,1.0,33.0,34.9,34.9,3.3,2.4,2.66,0.5930834942421468,-0.04398835872248214,0.7780884874386136,0.012276934804153502,-0.19011,-26.807484
11.185,2.0,1.0,1.0,33.0,34.9,34.9,3.3,2.4,2.6625,0.5849706688193642,-0.045836730845335155,0.7831422490337574,0.012188273195282278,-0.197682,-26.479024
11.185,2.0,1.0,1.0,33.0,34.9,34.9,3.3,2.4,2.665,0.5766504761291766,-0.047807305472490194,0.7881475570459664,0.012068280011363019,-0.205872,-26.141826
11.185,2.0,1.0,1.0,33.0,34.9,34.9,3.3,2.4,2.6675,0.5681098216094833,-0.049911856704477134,0.7930982278209607,0.011911541377172114,-0.214755,-25.795362
11.185,2.0,1.0,1.0,33.0,34.9,34.9,3.3,2.4,2.67,0.5593340856949637,-0.05216364113222262,0.7979869991892995,0.011711594622937319,-0.22442,-25.439063
11.185,2.0,1.0,1.0,33.0,34.9,34.9,3.3,2.4,2.6725,0.5503068942139824,-0.054577624227011276,0.8028052916196228,0.011460691475847128,-0.234969,-25.072306
11.185,2.0,1.0,1.0,33.0,34.9,34.9,3.3,2.4,2.675,0.5410098491685652,-0.05717074588654662,0.8075429069751903,0.011149499212271811,-0.246522,-24.69441
11.185,2.0,1.0,1.0,33.0,34.9,34.9,3.3,2.4,2.6775,0.5314222128979433,-0.05996223204828262,0.812187646131814,0.010766721133686912,-0.259222,-24.304632
11.185,2.0,1.0,1.0,33.0,34.9,34.9,3.3,2.4,2.68,0.5215205377229609,-0.06297396016577457,0.8167248203440447,0.010298611395406368,-0.273237,-23.902156
11.185,2.0,1.0,1.0,33.0,34.9,34.9,3.3,2.4,2.6825,0.5112782324706492,-0.06623088701993453,0.8211366224601169,0.009728350483185029,-0.288769,-23.486085
11.185,2.0,1.0,1.0,33.0,34.9,34.9,3.3,2.4,2.685,0.5006650571180302,-0.06976154747227013,0.8254013118808995,0.009035235501217952,-0.306061,-23.055432
11.185,2.0,1.0,1.0,33.0,34.9,34.9,3.3,2.4,2.6875,0.489646537788782,-0.0735986317456714,0.829492150082679,0.00819362246450243,-0.325405,-22.609109
11.185,2.0,1.0,1.0,33.0,34.9,34.9,3.3,2.4,2.69,0.47818329760910516,-0.07777964551967875,0.8333759994734866,0.007171533888553728,-0.34716,-22.145916
11.185,2.0,1.0,1.0,33.0,34.9,34.9,3.3,2.4,2.6925,0.46623030650725716,-0.08234764953088498,0.8370114642733648,0.005928811106727272,-0.371768,-21.664522
11.185,2.0,1.0,1.0,33.0,34.9,34.9,3.3,2.4,2.695,0.4537360685701716,-0.08735205984375377,0.840346403581452,0.004414642532346173,-0.399773,-21.163459
11.185,2.0,1.0,1.0,33.0,34.9,34.9,3.3,2.4,2.6975,0.440641795605746,-0.09284945997458077,0.8433145774859131,0.0025642302348498555,-0.431861,-20.641101
11.185,2.0,1.0,1.0,33.0,34.9,34.9,3.3,2.4,2.7,0.42688067192035195,-0.09890431984564838,0.845831088106205,0.0002942589045866412,-0.468894,-20.095656
11.185,2.0,1.0,1.0,33.0,34.9,34.9,3.3,2.4,2.7025,0.41237741939480066,-0.10558941283246427,0.847786136905197,-0.0025033082871973576,-0.511977,-19.525152
11.185,2.0,1.0,1.0,33.0,34.9,34.9,3.3,2.4,2.705,0.3970485625743477,-0.11298553229299751,0.8490364228925514,-0.005969777709604522,-0.562531,-18.927436
11.185,2.0,1.0,1.0,33.0,34.9,34.9,3.3,2.4,2.7075,0.38080414138185736,-0.12117976259744505,0.8493932396229442,-0.010291552611158399,-0.622411,-18.300186
11.185,2.0,1.0,1.0,33.0,34.9,34.9,3.3,2.4,2.71,0.3635522526799789,-0.13026092903773803,0.8486059910626943,-0.015716510180414835,-0.694063,-17.64095
11.185,2.0,1.0,1.0,33.0,34.9,34.9,3.3,2.4,2.7125,0.3452089523973483,-0.1403097062182537,0.8463394838685508,-0.022576557535283776,-0.780745,-16.947236
11.185,2.0,1.0,1.0,33.0,34.9,34.9,3.3,2.4,2.715,0.3257181227929803,-0.1513788024418291,0.8421431529738945,-0.03131819235796423,-0.88684,-16.21668
11.185,2.0,1.0,1.0,33.0,34.9,34.9,3.3,2.4,2.7175,0.3050895754837496,-0.16345499143646128,0.8354108987879293,-0.04254236993363,-1.018284,-15.44738
11.185,2.0,1.0,1.0,33.0,34.9,34.9,3.3,2.4,2.72,0.2834698812847898,-0.17638857774898425,0.8253329486087503,-0.05705224923737518,-1.183132,-14.638471
11.185,2.0,1.0,1.0,33.0,34.9,34.9,3.3,2.4,2.7225,0.2612700245562978,-0.18976633441332183,0.8108497481424277,-0.0758988264897456,-1.392193,-13.791158
11.185,2.0,1.0,1.0,33.0,34.9,34.9,3.3,2.4,2.725,0.23938550223631513,-0.20269251371346875,0.7906404094627489,-0.10039203481559242,-1.659497,-12.910456
11.185,2.0,1.0,1.0,33.0,34.9,34.9,3.3,2.4,2.7275,0.21954655125568318,-0.21344054690911315,0.7632295330929084,-0.13199382462429246,-2.001634,-12.008026
11.185,2.0,1.0,1.0,33.0,34.9,34.9,3.3,2.4,2.73,0.20478739896556,-0.21898676465094208,0.7273918020655428,-0.17191463039900373,-2.43336,-11.106431
11.185,2.0,1.0,1.0,33.0,34.9,34.9,3.3,2.4,2.7325,0.1998211851967638,-0.21463908213278335,0.683141582678478,-0.22012751487247076,-2.953254,-10.244485
11.185,2.0,1.0,1.0,33.0,34.9,34.9,3.3,2.4,2.735,0.2106281801992567,-0.1944507051772474,0.6334804613872994,-0.2736289630878411,-3.509947,-9.481382
11.185,2.0,1.0,1.0,33.0,34.9,34.9,3.3,2.4,2.7375,0.24208401497915558,-0.15358649235738503,0.586154904304271,-0.3246939390011278,-3.955771,-8.893599
11.185,2.0,1.0,1.0,33.0,34.9,34.9,3.3,2.4,2.74,0.2934766190369961,-0.0927865876973005,0.5528643682061037,-0.36167693639787263,-4.069494,-8.556763
11.185,2.0,1.0,1.0,33.0,34.9,34.9,3.3,2.4,2.7425,0.35555593676827196,-0.021287900655367297,0.5436393070469898,-0.37462211781048155,-3.747249,-8.514131
11.185,2.0,1.0,1.0,33.0,34.9,34.9,3.3,2.4,2.745,0.4142718674795414,0.04692414839446079,0.560048971862567,-0.36201628312619827,-3.140112,-8.753078
11.185,2.0,1.0,1.0,33.0,34.9,34.9,3.3,2.4,2.7475,0.4588831179114737,0.1011939520053951,0.594825265430765,-0.3311307553410548,-2.484201,-9.21225
11.185,2.0,1.0,1.0,33.0,34.9,34.9,3.3,2.4,2.75,0.486084168892516,0.138278926117724,0.637826296147731,-0.292064841547201,-1.917214,-9.812041
11.185,2.0,1.0,1.0,33.0,34.9,34.9,3.3,2.4,2.7525,0.49806605513947155,0.16039463691990935,0.6812847660291289,-0.2525305942059341,-1.473866,-10.48186
11.185,2.0,1.0,1.0,33.0,34.9,34.9,3.3,2.4,2.755,0.4989131058022943,0.17162326190217767,0.7210997753175346,-0.216584835820943,-1.141306,-11.17114
11.185,2.0,1.0,1.0,33.0,34.9,34.9,3.3,2.4,2.7575,0.4924086348614356,0.17573585100152395,0.7558522219100842,-0.185619158321664,-0.894936,-11.848371
11.185,2.0,1.0,1.0,33.0,34.9,34.9,3.3,2.4,2.76,0.4813527433595536,0.17552013996135382,0.7855385995158994,-0.15962220110179,-0.712093,-12.495952
11.185,2.0,1.0,1.0,33.0,34.9,34.9,3.3,2.4,2.7625,0.4676101773467324,0.17283212929118189,0.81072909747473,-0.13801629632801993,-0.575252,-13.105185
11.185,2.0,1.0,1.0,33.0,34.9,34.9,3.3,2.4,2.765,0.4523551409671619,0.16884140073987386,0.8321374641629309,-0.12008381051805522,-0.471698,-13.67264
11.185,2.0,1.0,1.0,33.0,34.9,34.9,3.3,2.4,2.7675,0.43630252256294055,0.16426173590634804,0.8504385697723692,-0.10514737411712097,-0.392412,-14.197836
11.185,2.0,1.0,1.0,33.0,34.9,34.9,3.3,2.4,2.77,0.4198763494256725,0.1595187925308183,0.8662080590999529,-0.09262908386939937,-0.331018,-14.681841
11.185,2.0,1.0,1.0,33.0,34.9,34.9,3.3,2.4,2.7725,0.4033208300330982,0.1548605048585413,0.8799146096072601,-0.08205769621039388,-0.282987,-15.126461
11.185,2.0,1.0,1.0,33.0,34.9,34.9,3.3,2.4,2.775,0.3867703424015958,0.15042661976311592,0.8919315635054218,-0.07305675008412345,-0.24507,-15.533781
11.185,2.0,1.0,1.0,33.0,34.9,34.9,3.3,2.4,2.7775,0.3702926659055428,0.14629163976049628,0.9025535213985814,-0.0653278706421355,-0.21491,-15.905915
11.185,2.0,1.0,1.0,33.0,34.9,34.9,3.3,2.4,2.78,0.3539154651159551,0.14249114163882556,0.9120122815307875,-0.05863478687519651,-0.190778,-16.24487
11.185,2.0,1.0,1.0,33.0,34.9,34.9,3.3,2.4,2.7825,0.33764246670583065,0.13903787814952967,0.9204903372361732,-0.05278980942319461,-0.171388,-16.552483
11.185,2.0,1.0,1.0,33.0,34.9,34.9,3.3,2.4,2.785,0.3214633265158482,0.13593163598688016,0.928131689302593,-0.047642991783572945,-0.155775,-16.830392
11.185,2.0,1.0,1.0,33.0,34.9,34.9,3.3,2.4,2.7875,0.30535963058656457,0.13316527845813064,0.9350502769516721,-0.04307366131234818,-0.143205,-17.080026
11.185,2.0,1.0,1.0,33.0,34.9,34.9,3.3,2.4,2.79,0.2893085181198644,0.13072845178399242,0.9413364663089806,-0.03898387582370379,-0.133117,-17.302613
11.185,2.0,1.0,1.0,33.0,34.9,34.9,3.3,2.4,2.7925,0.27328483353024907,0.12860985780530534,0.947062014754473,-0.035293383825747135,-0.125076,-17.499188
11.185,2.0,1.0,1.0,33.0,34.9,34.9,3.3,2.4,2.795,0.2572623626994623,0.1267986472603923,0.9522838610456287,-0.03193573520421227,-0.118745,-17.670601
11.185,2.0,1.0,1.0,33.0,34.9,34.9,3.3,2.4,2.7975,0.24121449447029097,0.1252852764267704,0.9570470170280386,-0.028855262693235493,-0.11386,-17.817527
11.185,2.0,1.0,1.0,33.0,34.9,34.9,3.3,2.4,2.8,0.22511451736181345,0.12406204121334935,0.9613867717412201,-0.026004718374301773,-0.110216,-17.94048
11.185,2.0,1.0,1.0,33.0,34.9,34.9,3.3,2.4,2.8025,0.20893568050968747,0.12312342407898132,0.965330366135264,-0.023343400448114882,-0.107652,-18.039816
11.185,2.0,1.0,1.0,33.0,34.9,34.9,3.3,2.4,2.805,0.1926510971781944,0.12246634092243844,0.9688982555678737,-0.020835644447382427,-0.106044,-18.115742
11.185,2.0,1.0,1.0,33.0,34.9,34.9,3.3,2.4,2.8075,0.17623353695386462,0.12209034565283947,0.9721050456148383,-0.01844958189347325,-0.105295,-18.168316
11.185,2.0,1.0,1.0,33.0,34.9,34.9,3.3,2.4,2.81,0.15965513167094336,0.12199783249518839,0.974960162237122,-0.016156090171909627,-0.105337,-18.197453
11.185,2.0,1.0,1.0,33.0,34.9,34.9,3.3,2.4,2.8125,0.142887005761961,0.12219426600688,0.97746829798603,-0.0139278717747202,-0.106121,-18.202924
11.185,2.0,1.0,1.0,33.0,34.9,34.9,3.3,2.4,2.815,0.1258988312374904,0.12268846378204516,0.9796296599753603,-0.01173861023414982,-0.107617,-18.18435
11.185,2.0,1.0,1.0,33.0,34.9,34.9,3.3,2.4,2.8175,0.10865829900497574,0.12349295547428617,0.9814400313148636,-0.009562154788728247,-0.109815,-18.141196
11.185,2.0,1.0,1.0,33.0,34.9,34.9,3.3,2.4,2.82,0.09113049040644655,0.12462444334548486,0.9828906441946792,-0.007371686354515561,-0.112722,-18.072767
11.185,2.0,1.0,1.0,33.0,34.9,34.9,3.3,2.4,2.8225,0.07327712462954637,0.12610439381289645,0.9839678483910058,-0.0051388135045573975,-0.116363,-17.97819
11.185,2.0,1.0,1.0,33.0,34.9,34.9,3.3,2.4,2.825,0.05505564804757776,0.12795979657675807,0.9846525419206552,-0.0028325380804630055,-0.120783,-17.856402
11.185,2.0,1.0,1.0,33.0,34.9,34.9,3.3,2.4,2.8275,0.036418119524514965,0.1302241383922408,0.984919308643488,-0.000418014166798695,-0.126053,-17.706125
11.185,2.0,1.0,1.0,33.0,34.9,34.9,3.3,2.4,2.83,0.017309830024980884,0.13293865332574353,0.9847351775375139,0.002145001329330878,-0.132269,-17.525844
11.185,2.0,1.0,1.0,33.0,34.9,34.9,3.3,2.4,2.8325,-0.002332426105397612,0.1361539317980082,0.9840578751816859,0.004904147960646311,-0.139563,-17.313765
