1,w,sub_t,h,l1,l2,l3,g1,g2,Freq,S11_re,S21_re,S11_img,S21_img,S11_dB,S21_dB
11.185,2.0,1.0,1.0,34.0,33.0,33.0,4.0,3.5,2.5,0.785871526504138,-0.00651193516108897,0.60801357453305,0.00327491565912452,-0.055621,-42.746571
11.185,2.0,1.0,1.0,34.0,33.0,33.0,4.0,3.5,2.5025,0.7814374609108183,-0.006622420411538287,0.6136104061955805,0.0032616995643271677,-0.056115,-42.636423
11.185,2.0,1.0,1.0,34.0,33.0,33.0,4.0,3.5,2.505,0.776942847084734,-0.0067344048604888376,0.6191994696053735,0.003247292745502484,-0.056617,-42.526106
11.185,2.0,1.0,1.0,34.0,33.0,33.0,4.0,3.5,2.5075,0.7723871174565118,-0.006847906760569377,0.6247803413854524,0.003231660355937925,-0.057126,-42.415616
11.185,2.0,1.0,1.0,34.0,33.0,33.0,4.0,3.5,2.51,0.7677696976306455,-0.0069629445102587706,0.6303525864853665,0.003214766557522906,-0.057644,-42.304948
11.185,2.0,1.0,1.0,34.0,33.0,33.0,4.0,3.5,2.5125,0.7630900063605277,-0.007079536649012528,0.635915757851078,0.0031965744907644926,-0.05817,-42.194096
11.185,2.0,1.0,1.0,34.0,33.0,33.0,4.0,3.5,2.515,0.7583474555269248,-0.00719770185193651,0.6414693960859099,0.0031770462438558385,-0.058704,-42.083056
11.185,2.0,1.0,1.0,34.0,33.0,33.0,4.0,3.5,2.5175,0.7535414501201461,-0.007317458923981357,0.6470130291023182,0.0031561428207665543,-0.059247,-41.971822
11.185,2.0,1.0,1.0,34.0,33.0,33.0,4.0,3.5,2.52,0.7486713882261283,-0.00743882679363049,0.6525461717642741,0.003133824108322684,-0.059798,-41.860389
11.185,2.0,1.0,1.0,34.0,33.0,33.0,4.0,3.5,2.5225,0.7437366610167161,-0.007561824506052092,0.6580683255200009,0.003110048842244305,-0.060358,-41.748752
11.185,2.0,1.0,1.0,34.0,33.0,33.0,4.0,3.5,2.525,0.7387366527443832,-0.007686471215685075,0.6635789780248483,0.003084774572106241,-0.060927,-41.636906
11.185,2.0,1.0,1.0,34.0,33.0,33.0,4.0,3.5,2.5275,0.7336707407416871,-0.007812786178226677,0.669077602754055,0.0030579576251869786,-0.061506,-41.524845
11.185,2.0,1.0,1.0,34.0,33.0,33.0,4.0,3.5,2.53,0.7285382954257531,-0.007940788741987908,0.6745636586051496,0.003029553069169797,-0.062093,-41.412564
11.185,2.0,1.0,1.0,34.0,33.0,33.0,4.0,3.5,2.5325,0.7233386803080923,-0.008070498338581193,0.6800365894897454,0.002999514673658701,-0.062691,-41.300058
11.185,2.0,1.0,1.0,34.0,33.0,33.0,4.0,3.5,2.535,0.7180712520100797,-0.008201934472903351,0.6854958239144808,0.0029677948704704164,-0.063298,-41.187321
11.185,2.0,1.0,1.0,34.0,33.0,33.0,4.0,3.5,2.5375,0.712735360284434,-0.008335116712373638,0.6909407745508315,0.00293434471266284,-0.063915,-41.074349
11.185,2.0,1.0,1.0,34.0,33.0,33.0,4.0,3.5,2.54,0.7073303480430554,-0.008470064675386503,0.6963708377935537,0.0028991138322588157,-0.064542,-40.961135
11.185,2.0,1.0,1.0,34.0,33.0,33.0,4.0,3.5,2.5425,0.7018555513915906,-0.0086067980189349,0.7017853933074837,0.002862050396622462,-0.065179,-40.847675
11.185,2.0,1.0,1.0,34.0,33.0,33.0,4.0,3.5,2.545,0.6963102996711218,-0.008745336425358704,0.7071838035624318,0.0028231010634445016,-0.065827,-40.733962
11.185,2.0,1.0,1.0,34.0,33.0,33.0,4.0,3.5,2.5475,0.6906939155073913,-0.008885699588169857,0.7125654133558916,0.0027822109342911026,-0.066486,-40.619992
11.185,2.0,1.0,1.0,34.0,33.0,33.0,4.0,3.5,2.55,0.6850057148679771,-0.00902790719690409,0.7179295493233107,0.00273932350666952,-0.067156,-40.505758
11.185,2.0,1.0,1.0,34.0,33.0,33.0,4.0,3.5,2.5525,0.6792450071278928,-0.009171978920945444,0.7232755194356228,0.0026943806245621187,-0.067837,-40.391256
11.185,2.0,1.0,1.0,34.0,33.0,33.0,4.0,3.5,2.555,0.6734110951440618,-0.009317934392268072,0.7286026124837873,0.002647322427378868,-0.06853,-40.27648
11.185,2.0,1.0,1.0,34.0,33.0,33.0,4.0,3.5,2.5575,0.6675032753391634,-0.00946579318703647,0.733910097550045,0.002598087297276833,-0.069234,-40.161424
11.185,2.0,1.0,1.0,34.0,33.0,33.0,4.0,3.5,2.56,0.6615208377953742,-0.009615574806001951,0.7391972234656111,0.0025466118047931872,-0.06995,-40.046083
11.185,2.0,1.0,1.0,34.0,33.0,33.0,4.0,3.5,2.5625,0.6554630663585357,-0.00976729865363055,0.7444632182545249,0.002492830652737045,-0.070679,-39.930451
11.185,2.0,1.0,1.0,34.0,33.0,33.0,4.0,3.5,2.565,0.6493292387533118,-0.009920984015894209,0.7497072885633771,0.002436676618282773,-0.07142,-39.814521
11.185,2.0,1.0,1.0,34.0,33.0,33.0,4.0,3.5,2.5675,0.6431186267099351,-0.010076650036652634,0.7549286190766222,0.00237808049320674,-0.072173,-39.698289
11.185,2.0,1.0,1.0,34.0,33.0,33.0,4.0,3.5,2.57,0.6368304961031472,-0.010234315692551005,0.7601263719172056,0.0023169710222060796,-0.07294,-39.581749
11.185,2.0,1.0,1.0,34.0,33.0,33.0,4.0,3.5,2.5725,0.6304641071039822,-0.010393999766353457,0.7652996860322153,0.002253274839237385,-0.07372,-39.464895
11.185,2.0,1.0,1.0,34.0,33.0,33.0,4.0,3.5,2.575,0.6240187143450692,-0.01055572081862916,0.7704476765632847,0.002186916401809988,-0.074514,-39.34772
11.185,2.0,1.0,1.0,34.0,33.0,33.0,4.0,3.5,2.5775,0.6174935671001516,-0.010719497157702752,0.7755694342014585,0.0021178179231676093,-0.075321,-39.23022
11.185,2.0,1.0,1.0,34.0,33.0,33.0,4.0,3.5,2.58,0.6108879094785662,-0.010885346807776985,0.7806640245262544,0.0020458993022881692,-0.076142,-39.112387
11.185,2.0,1.0,1.0,34.0,33.0,33.0,4.0,3.5,2.5825,0.6042009806354394,-0.011053287475130362,0.7857304873286473,0.0019710780516311887,-0.076978,-38.994216
11.185,2.0,1.0,1.0,34.0,33.0,33.0,4.0,3.5,2.585,0.597432014998411,-0.011223336512287534,0.7907678359177017,0.0018932692225580904,-0.077829,-38.875701
11.185,2.0,1.0,1.0,34.0,33.0,33.0,4.0,3.5,2.5875,0.5905802425117125,-0.011395510880055111,0.7957750564105989,0.0018123853283492843,-0.078695,-38.756836
11.185,2.0,1.0,1.0,34.0,33.0,33.0,4.0,3.5,2.59,0.5836448888984835,-0.011569827107310093,0.8007511070057912,0.00172833626473862,-0.079576,-38.637614
11.185,2.0,1.0,1.0,34.0,33.0,33.0,4.0,3.5,2.5925,0.5766251759422222,-0.011746301248421818,0.8056949172390445,0.00164102922788365,-0.080474,-38.518029
11.185,2.0,1.0,1.0,34.0,33.0,33.0,4.0,3.5,2.595,0.5695203217883381,-0.01192494883818281,0.8106053872221128,0.0015503686296868663,-0.081387,-38.398075
11.185,2.0,1.0,1.0,34.0,33.0,33.0,4.0,3.5,2.5975,0.5623295412667786,-0.01210578484411709,0.8154813868638284,0.0014562560103798731,-0.082317,-38.277746
11.185,2.0,1.0,1.0,34.0,33.0,33.0,4.0,3.5,2.6,0.5550520462367677,-0.012288823616028094,0.8203217550733715,0.0013585899482804645,-0.083263,-38.157034
11.185,2.0,1.0,1.0,34.0,33.0,33.0,4.0,3.5,2.6025,0.5476870459547424,-0.012474078832640274,0.8251252989455152,0.0012572659666277657,-0.084227,-38.035934
11.185,2.0,1.0,1.0,34.0,33.0,33.0,4.0,3.5,2.605,0.5402337474665881,-0.012661563445182494,0.8298907929276477,0.0011521764373987591,-0.085209,-37.914439
11.185,2.0,1.0,1.0,34.0,33.0,33.0,4.0,3.5,2.6075,0.5326913560253559,-0.012851289617751872,0.8346169779683872,0.001043210482004509,-0.086208,-37.792542
11.185,2.0,1.0,1.0,34.0,33.0,33.0,4.0,3.5,2.61,0.525059075535671,-0.013043268664289122,0.8393025606476221,0.0009302538687622956,-0.087226,-37.670236
11.185,2.0,1.0,1.0,34.0,33.0,33.0,4.0,3.5,2.6125,0.5173361090260983,-0.013237510981987707,0.8439462122878291,0.0008131889070341408,-0.088263,-37.547515
11.185,2.0,1.0,1.0,34.0,33.0,33.0,4.0,3.5,2.615,0.5095216591507715,-0.013434025980949654,0.8485465680465405,0.000691894337919832,-0.089319,-37.424372
11.185,2.0,1.0,1.0,34.0,33.0,33.0,4.0,3.5,2.6175,0.5016149287216765,-0.013632822009890988,0.853102225989852,0.0005662452213870972,-0.090395,-37.300799
11.185,2.0,1.0,1.0,34.0,33.0,33.0,4.0,3.5,2.62,0.4936151212729914,-0.013833906277689465,0.8576117461468843,0.0004361128197173639,-0.091491,-37.176789
11.185,2.0,1.0,1.0,34.0,33.0,33.0,4.0,3.5,2.6225,0.4855214416589694,-0.014037284770556966,0.8620736495451486,0.00030136447714106406,-0.092608,-37.052337
11.185,2.0,1.0,1.0,34.0,33.0,33.0,4.0,3.5,2.625,0.477333096686919,-0.0142429621646061,0.866486417226771,0.000161863495530845,-0.093746,-36.927433
11.185,2.0,1.0,1.0,34.0,33.0,33.0,4.0,3.5,2.6275,0.4690492957868513,-0.01445094173357009,0.8708484892455954,1.7469006016109633e-05,-0.094905,-36.802071
11.185,2.0,1.0,1.0,34.0,33.0,33.0,4.0,3.5,2.63,0.46066925171947726,-0.014661225251420846,0.8751582636451807,-0.0001319641636237121,-0.096087,-36.676243
11.185,2.0,1.0,1.0,34.0,33.0,33.0,4.0,3.5,2.6325,0.4521921813242645,-0.014873812889617085,0.8794140954177729,-0.0002865856259354345,-0.097291,-36.549942
11.185,2.0,1.0,1.0,34.0,33.0,33.0,4.0,3.5,2.635,0.4436173063093497,-0.015088703108700235,0.8836142954443559,-0.0004465495752929535,-0.098519,-36.42316
11.185,2.0,1.0,1.0,34.0,33.0,33.0,4.0,3.5,2.6375,0.43494385408516095,-0.0153058925439399,0.8877571294159224,-0.0006120149340842161,-0.09977,-36.295889
11.185,2.0,1.0,1.0,34.0,33.0,33.0,4.0,3.5,2.64,0.42617105864366084,-0.015525375884715966,0.891840816736177,-0.000783145503753687,-0.101046,-36.168121
11.185,2.0,1.0,1.0,34.0,33.0,33.0,4.0,3.5,2.6425,0.41729816148522064,-0.015747145747305406,0.8958635294058941,-0.0009601101208764925,-0.102347,-36.039849
11.185,2.0,1.0,1.0,34.0,33.0,33.0,4.0,3.5,2.645,0.4083244125951773,-0.015971192540725956,0.8998233908892341,-0.001143082818450081,-0.103674,-35.911063
11.185,2.0,1.0,1.0,34.0,33.0,33.0,4.0,3.5,2.6475,0.3992490714722243,-0.016197504325267727,0.9037184749623624,-0.0013322429925969855,-0.105026,-35.781757
11.185,2.0,1.0,1.0,34.0,33.0,33.0,4.0,3.5,2.65,0.3900714082108232,-0.01642606666332509,0.9075468045447811,-0.001527775574882657,-0.106406,-35.65192
11.185,2.0,1.0,1.0,34.0,33.0,33.0,4.0,3.5,2.6525,0.3807907046399699,-0.01665686246211808,0.9113063505138368,-0.0017298712104622572,-0.107813,-35.521546
11.185,2.0,1.0,1.0,34.0,33.0,33.0,4.0,3.5,2.655,0.37140625552063683,-0.016889871807870858,0.9149950305029464,-0.0019387264422816275,-0.109248,-35.390624
11.185,2.0,1.0,1.0,34.0,33.0,33.0,4.0,3.5,2.6575,0.3619173698043677,-0.017125071790989207,0.9186107076841438,-0.0021545439015695713,-0.110712,-35.259147
11.185,2.0,1.0,1.0,34.0,33.0,33.0,4.0,3.5,2.66,0.35232337195554064,-0.017362436321754004,0.9221511895356344,-0.002377532504871659,-0.112206,-35.127105
11.185,2.0,1.0,1.0,34.0,33.0,33.0,4.0,3.5,2.6625,0.3426236033399213,-0.01760193593601834,0.9256142265951105,-0.0026079076578894153,-0.11373,-34.994489
11.185,2.0,1.0,1.0,34.0,33.0,33.0,4.0,3.5,2.665,0.33281742368217876,-0.01784353759036827,0.9289975111996904,-0.0028458914664049803,-0.115285,-34.861289
11.185,2.0,1.0,1.0,34.0,33.0,33.0,4.0,3.5,2.6675,0.3229042125951695,-0.018087204446172993,0.9322986762133966,-0.0030917129545860187,-0.116873,-34.727496
11.185,2.0,1.0,1.0,34.0,33.0,33.0,4.0,3.5,2.67,0.3128833711838331,-0.018332895641918603,0.9355152937432221,-0.003345608290985943,-0.118493,-34.5931
11.185,2.0,1.0,1.0,34.0,33.0,33.0,4.0,3.5,2.6725,0.3027543237266534,-0.018580566053181716,0.9386448738449064,-0.0036078210225716487,-0.120147,-34.458092
11.185,2.0,1.0,1.0,34.0,33.0,33.0,4.0,3.5,2.675,0.2925165194377322,-0.018830166039560458,0.9416848632196558,-0.0038786023171342833,-0.121835,-34.322461
11.185,2.0,1.0,1.0,34.0,33.0,33.0,4.0,3.5,2.6775,0.28216943431259156,-0.01908164117783908,0.9446326439031568,-0.004158211214459979,-0.123559,-34.186196
11.185,2.0,1.0,1.0,34.0,33.0,33.0,4.0,3.5,2.68,0.2717125730609196,-0.019334931980616536,0.9474855319483395,-0.0044469148866640605,-0.125319,-34.049287
11.185,2.0,1.0,1.0,34.0,33.0,33.0,4.0,3.5,2.6825,0.2611454711295733,-0.019589973599581357,0.9502407761034716,-0.004744988908119218,-0.127117,-33.911724
11.185,2.0,1.0,1.0,34.0,33.0,33.0,4.0,3.5,2.685,0.25046769681921643,-0.01984669551256294,0.9528955564872944,-0.005052717535438434,-0.128953,-33.773495
11.185,2.0,1.0,1.0,34.0,33.0,33.0,4.0,3.5,2.6875,0.239678853498081,-0.0201050211934326,0.955446983263037,-0.00537039399800667,-0.130828,-33.634589
11.185,2.0,1.0,1.0,34.0,33.0,33.0,4.0,3.5,2.69,0.22877858191643521,-0.020364867763866746,0.9578920953132787,-0.0056983207995913755,-0.132744,-33.494995
11.185,2.0,1.0,1.0,34.0,33.0,33.0,4.0,3.5,2.6925,0.2177665626253919,-0.020626145625918996,0.9602278589177882,-0.00603681003160179,-0.134702,-33.354699
11.185,2.0,1.0,1.0,34.0,33.0,33.0,4.0,3.5,2.695,0.20664251850384785,-0.02088875807427521,0.9624511664365929,-0.006386183698610216,-0.136702,-33.213691
11.185,2.0,1.0,1.0,34.0,33.0,33.0,4.0,3.5,2.6975,0.19540621739735087,-0.021152600886989444,0.9645588350007022,-0.00674677405679708,-0.138747,-33.071958
11.185,2.0,1.0,1.0,34.0,33.0,33.0,4.0,3.5,2.7,0.18405747487286328,-0.021417561893412294,0.9665476052130538,-0.0071189239660329265,-0.140836,-32.929487
11.185,2.0,1.0,1.0,34.0,33.0,33.0,4.0,3.5,2.7025,0.17259615709340986,-0.021683520517932108,0.9684141398624198,-0.007502987256369669,-0.142972,-32.786265
11.185,2.0,1.0,1.0,34.0,33.0,33.0,4.0,3.5,2.705,0.161022183816739,-0.021950347298048865,0.9701550226531643,-0.00789932910977573,-0.145156,-32.642278
11.185,2.0,1.0,1.0,34.0,33.0,33.0,4.0,3.5,2.7075,0.14933553152217477,-0.02221790337519015,0.9717667569539273,-0.00830832645802064,-0.14739,-32.497512
11.185,2.0,1.0,1.0,34.0,33.0,33.0,4.0,3.5,2.71,0.13753623666996187,-0.02248603995655877,0.9732457645684613,-0.008730368397690615,-0.149673,-32.351954
11.185,2.0,1.0,1.0,34.0,33.0,33.0,4.0,3.5,2.7125,0.12562439909745649,-0.02275459774616964,0.9745883845320379,-0.009165856623402371,-0.152009,-32.205589
11.185,2.0,1.0,1.0,34.0,33.0,33.0,4.0,3.5,2.715,0.11360018555663647,-0.02302340634308897,0.9757908719369961,-0.009615205880375515,-0.154399,-32.058401
11.185,2.0,1.0,1.0,34.0,33.0,33.0,4.0,3.5,2.7175,0.10146383339747361,-0.023292283604729156,0.9768493967911966,-0.010078844437626081,-0.156844,-31.910375
11.185,2.0,1.0,1.0,34.0,33.0,33.0,4.0,3.5,2.72,0.08921565440182473,-0.023561034972877683,0.9777600429132991,-0.010557214583157837,-0.159346,-31.761496
11.185,2.0,1.0,1.0,34.0,33.0,33.0,4.0,3.5,2.7225,0.07685603877254771,-0.02382945275994564,0.9785188068689623,-0.011050773142653738,-0.161907,-31.611746
11.185,2.0,1.0,1.0,34.0,33.0,33.0,4.0,3.5,2.725,0.06438545928271813,-0.024097315392705862,0.979121596952229,-0.011559992023305633,-0.164528,-31.461108
11.185,2.0,1.0,1.0,34.0,33.0,33.0,4.0,3.5,2.7275,0.05180447558982998,-0.02436438661055688,0.9795642322165088,-0.012085358784575345,-0.167212,-31.309566
11.185,2.0,1.0,1.0,34.0,33.0,33.0,4.0,3.5,2.73,0.03911373872006849,-0.02463041461508411,0.9798424415597349,-0.01262737723784543,-0.16996,-31.1571
11.185,2.0,1.0,1.0,34.0,33.0,33.0,4.0,3.5,2.7325,0.026313995727769778,-0.02489513116740088,0.9799518628683989,-0.013186568077104976,-0.172775,-31.003693
11.185,2.0,1.0,1.0,34.0,33.0,33.0,4.0,3.5,2.735,0.01340609453537879,-0.025158250629427177,0.9798880422253099,-0.013763469543019385,-0.175658,-30.849324
11.185,2.0,1.0,1.0,34.0,33.0,33.0,4.0,3.5,2.7375,0.0003909889592969996,-0.025419468944904638,0.9796464331860186,-0.014358638122958326,-0.178612,-30.693974
11.185,2.0,1.0,1.0,34.0,33.0,33.0,4.0,3.5,2.74,-0.012730256072788227,-0.025678462555544807,0.9792223961289547,-0.01497264928980573,-0.181639,-30.537622
11.185,2.0,1.0,1.0,34.0,33.0,33.0,4.0,3.5,2.7425,-0.02595645910737191,-0.025934887247259154,0.9786111976843878,-0.015606098282650152,-0.184742,-30.380246
11.185,2.0,1.0,1.0,34.0,33.0,33.0,4.0,3.5,2.745,-0.03928631654744532,-0.026188376920918865,0.9778080102473649,-0.01625960093275696,-0.187923,-30.221824
11.185,2.0,1.0,1.0,34.0,33.0,33.0,4.0,3.5,2.7475,-0.0527183968254965,-0.026438542281530725,0.9768079115797922,-0.016933794538558367,-0.191185,-30.062333
11.185,2.0,1.0,1.0,34.0,33.0,33.0,4.0,3.5,2.75,-0.0662511343607716,-0.0266849694390866,0.975605884506801,-0.0176293387937677,-0.194531,-29.901748
11.185,2.0,1.0,1.0,34.0,33.0,33.0,4.0,3.5,2.7525,-0.07988282329406285,-0.026927218413637457,0.9741968167124694,-0.018346916773131057,-0.197963,-29.740045
11.185,2.0,1.0,1.0,34.0,33.0,33.0,4.0,3.5,2.755,-0.09361161099292135,-0.027164821536348187,0.9725755006398609,-0.019087235980779712,-0.201484,-29.577199
11.185,2.0,1.0,1.0,34.0,33.0,33.0,4.0,3.5,2.7575,-0.10743549131981013,-0.02739728173739646,0.9707366335001608,-0.019851029466644493,-0.205099,-29.41318
11.185,2.0,1.0,1.0,34.0,33.0,33.0,4.0,3.5,2.76,-0.1213522976551424,-0.02762407071056826,0.9686748173954669,-0.020639057016939067,-0.20881,-29.247962
11.185,2.0,1.0,1.0,34.0,33.0,33.0,4.0,3.5,2.7625,-0.1353596956666431,-0.027844626943266827,0.9663845595594804,-0.021452106425325693,-0.212621,-29.081516
11.185,2.0,1.0,1.0,34.0,33.0,33.0,4.0,3.5,2.765,-0.1494551758157056,-0.028058353599362592,0.9638602727199589,-0.022290994852042084,-0.216535,-28.91381
11.185,2.0,1.0,1.0,34.0,33.0,33.0,4.0,3.5,2.7675,-0.16363604559062286,-0.028264616240856136,0.9610962755863239,-0.023156570279002888,-0.220557,-28.744812
11.185,2.0,1.0,1.0,34.0,33.0,33.0,4.0,3.5,2.77,-0.17789942145559753,-0.028462740372673986,0.9580867934652301,-0.024049713069701384,-0.224691,-28.57449
11.185,2.0,1.0,1.0,34.0,33.0,33.0,4.0,3.5,2.7725,-0.19224222050325535,-0.028652008793042284,0.9548259590062231,-0.02497133764362626,-0.228941,-28.402809
11.185,2.0,1.0,1.0,34.0,33.0,33.0,4.0,3.5,2.775,-0.2066611517970266,-0.02883165872975207,0.9513078130788005,-0.025922394275893636,-0.233312,-28.229731
11.185,2.0,1.0,1.0,34.0,33.0,33.0,4.0,3.5,2.7775,-0.22115270738813544,-0.029000878740204458,0.9475263057812287,-0.026903871033874625,-0.237809,-28.055219
11.185,2.0,1.0,1.0,34.0,33.0,33.0,4.0,3.5,2.78,-0.23571315299002113,-0.029158805350357794,0.9434752975803805,-0.027916795863789742,-0.242437,-27.879234
11.185,2.0,1.0,1.0,34.0,33.0,33.0,4.0,3.5,2.7825,-0.25033851829071424,-0.02930451940454286,0.9391485605805617,-0.028962238841545224,-0.247202,-27.701733
11.185,2.0,1.0,1.0,34.0,33.0,33.0,4.0,3.5,2.785,-0.2650245868810747,-0.029437042094502992,0.9345397799178531,-0.030041314603526947,-0.252109,-27.522672
11.185,2.0,1.0,1.0,34.0,33.0,33.0,4.0,3.5,2.7875,-0.27976688577354825,-0.02955533063188392,0.9296425552748232,-0.03115518497463526,-0.257164,-27.342007
11.185,2.0,1.0,1.0,34.0,33.0,33.0,4.0,3.5,2.79,-0.2945606744824448,-0.029658273523660985,0.9244504025085719,-0.03230506181257201,-0.262376,-27.159687
11.185,2.0,1.0,1.0,34.0,33.0,33.0,4.0,3.5,2.7925,-0.3094009336322607,-0.029744685404549793,0.918956755382966,-0.033492210089270814,-0.267749,-26.975664
11.185,2.0,1.0,1.0,34.0,33.0,33.0,4.0,3.5,2.795,-0.3242823530554567,-0.0298133013741891,0.913154967393497,-0.03471795123242195,-0.273293,-26.789883
11.185,2.0,1.0,1.0,34.0,33.0,33.0,4.0,3.5,2.7975,-0.3391993193348752,-0.029862770779673618,0.9070383136705812,-0.03598366675227244,-0.279015,-26.602288
11.185,2.0,1.0,1.0,34.0,33.0,33.0,4.0,3.5,2.8,-0.35414590273887475,-0.029891650375694752,0.9005999929441095,-0.03729080218131754,-0.284924,-26.412821
11.185,2.0,1.0,1.0,34.0,33.0,33.0,4.0,3.5,2.8025,-0.36911584348868404,-0.029898396784928265,0.8938331295488174,-0.0386408713571183,-0.291029,-26.221419
11.185,2.0,1.0,1.0,34.0,33.0,33.0,4.0,3.5,2.805,-0.3841025372874662,-0.02988135817016961,0.886730775446418,-0.04003546108130529,-0.297339,-26.028018
11.185,2.0,1.0,1.0,34.0,33.0,33.0,4.0,3.5,2.8075,-0.39909902002878006,-0.029838765016795738,0.879285912236536,-0.04147623619085264,-0.303867,-25.832547
11.185,2.0,1.0,1.0,34.0,33.0,33.0,4.0,3.5,2.81,-0.41409795158819523,-0.02976871990911343,0.8714914531241638,-0.04296494508091974,-0.310622,-25.634934
11.185,2.0,1.0,1.0,34.0,33.0,33.0,4.0,3.5,2.8125,-0.429091598585328,-0.0296691861666642,0.863340244806812,-0.0445034257219362,-0.317618,-25.435101
11.185,2.0,1.0,1.0,34.0,33.0,33.0,4.0,3.5,2.815,-0.4440718159842033,-0.02953797518614961,0.8548250692395681,-0.04609361221713264,-0.324868,-25.232969
11.185,2.0,1.0,1.0,34.0,33.0,33.0,4.0,3.5,2.8175,-0.45903002737686593,-0.029372732310780497,0.8459386452311273,-0.04773754195032036,-0.332386,-25.028449
11.185,2.0,1.0,1.0,34.0,33.0,33.0,4.0,3.5,2.82,-0.47395720376803224,-0.029170921020901294,0.8366736298184766,-0.04943736337733417,-0.340188,-24.821452
11.185,2.0,1.0,1.0,34.0,33.0,33.0,4.0,3.5,2.8225,-0.48884384064645103,-0.02892980520691773,0.8270226193624276,-0.05119534451805479,-0.34829,-24.61188
11.185,2.0,1.0,1.0,34.0,33.0,33.0,4.0,3.5,2.825,-0.5036799330905224,-0.02864642924693619,0.8169781503007914,-0.05301388220915109,-0.356712,-24.39963
11.185,2.0,1.0,1.0,34.0,33.0,33.0,4.0,3.5,2.8275,-0.518454948610565,-0.028317595565971555,0.8065326994908101,-0.054895512180408806,-0.365472,-24.184595
