1,w,sub_t,h,l1,l2,l3,g1,g2,Freq,S11_re,S21_re,S11_img,S21_img,S11_dB,S21_dB
11.185,2.0,1.0,1.0,34.0,34.6,34.6,3.0,2.6,2.5,0.779863243889612,-0.011983605890427,0.613382703174933,0.00773032385893514,-0.068174,-36.917244
11.185,2.0,1.0,1.0,34.0,34.6,34.6,3.0,2.6,2.5025,0.7752705229881637,-0.012228504964003335,0.6190344214682294,0.007750598840213631,-0.068955,-36.785919
11.185,2.0,1.0,1.0,34.0,34.6,34.6,3.0,2.6,2.505,0.7706126268227224,-0.012478460245629104,0.6246787173753175,0.007769390283676846,-0.069752,-36.653947
11.185,2.0,1.0,1.0,34.0,34.6,34.6,3.0,2.6,2.5075,0.7658888330500168,-0.012733601726295818,0.6303151379290207,0.0077866269129392655,-0.070566,-36.521313
11.185,2.0,1.0,1.0,34.0,34.6,34.6,3.0,2.6,2.51,0.7610984067621672,-0.012994063766648337,0.6359432159927031,0.007802234192641421,-0.071397,-36.388001
11.185,2.0,1.0,1.0,34.0,34.6,34.6,3.0,2.6,2.5125,0.7562406002173763,-0.013259985281183797,0.6415624697662554,0.007816134158824158,-0.072246,-36.253998
11.185,2.0,1.0,1.0,34.0,34.6,34.6,3.0,2.6,2.515,0.7513146525621358,-0.013531509931842059,0.6471724022722555,0.007828245239066098,-0.073114,-36.119287
11.185,2.0,1.0,1.0,34.0,34.6,34.6,3.0,2.6,2.5175,0.7463197895445327,-0.013808786331548192,0.6527725008212918,0.007838482061671771,-0.074,-35.983852
11.185,2.0,1.0,1.0,34.0,34.6,34.6,3.0,2.6,2.52,0.7412552232181601,-0.014091968258307098,0.6583622364553978,0.007846755253140426,-0.074906,-35.847676
11.185,2.0,1.0,1.0,34.0,34.6,34.6,3.0,2.6,2.5225,0.7361201516361603,-0.014381214880490708,0.6639410633684318,0.00785297122308411,-0.075832,-35.710743
11.185,2.0,1.0,1.0,34.0,34.6,34.6,3.0,2.6,2.525,0.7309137585348362,-0.014676690994002903,0.669508418302216,0.007857031935696415,-0.076779,-35.573036
11.185,2.0,1.0,1.0,34.0,34.6,34.6,3.0,2.6,2.5275,0.7256352130062614,-0.01497856727205525,0.6750637199171172,0.00785883466679981,-0.077747,-35.434537
11.185,2.0,1.0,1.0,34.0,34.6,34.6,3.0,2.6,2.53,0.720283669159269,-0.0152870205283372,0.680606368135687,0.007858271745419242,-0.078737,-35.295227
11.185,2.0,1.0,1.0,34.0,34.6,34.6,3.0,2.6,2.5325,0.7148582657681474,-0.0156022339944209,0.6861357434578708,0.007855230278742083,-0.079749,-35.155089
11.185,2.0,1.0,1.0,34.0,34.6,34.6,3.0,2.6,2.535,0.7093581259083162,-0.015924397612300533,0.6916512062462024,0.007849591859229111,-0.080786,-35.014103
11.185,2.0,1.0,1.0,34.0,34.6,34.6,3.0,2.6,2.5375,0.7037823565782232,-0.01625370834302917,0.6971520959792593,0.007841232252535616,-0.081846,-34.87225
11.185,2.0,1.0,1.0,34.0,34.6,34.6,3.0,2.6,2.54,0.6981300483066112,-0.016590370492488106,0.7026377304715598,0.007830021064787624,-0.082932,-34.729509
11.185,2.0,1.0,1.0,34.0,34.6,34.6,3.0,2.6,2.5425,0.6924002747442597,-0.016934596055397377,0.7081074050579167,0.007815821387631608,-0.084044,-34.58586
11.185,2.0,1.0,1.0,34.0,34.6,34.6,3.0,2.6,2.545,0.686592092239231,-0.01728660507875795,0.7135603917401366,0.007798489419338694,-0.085182,-34.441282
11.185,2.0,1.0,1.0,34.0,34.6,34.6,3.0,2.6,2.5475,0.6807045393945791,-0.017646626046003307,0.7189959382937622,0.007777874060091327,-0.086349,-34.295753
11.185,2.0,1.0,1.0,34.0,34.6,34.6,3.0,2.6,2.55,0.674736636607369,-0.018014896283235923,0.7244132673324102,0.007753816479415022,-0.087544,-34.149251
11.185,2.0,1.0,1.0,34.0,34.6,34.6,3.0,2.6,2.5525,0.668687385587813,-0.018391662389022505,0.7298115753270181,0.007726149653532731,-0.088769,-34.001752
11.185,2.0,1.0,1.0,34.0,34.6,34.6,3.0,2.6,2.555,0.6625557688571776,-0.018777180689338015,0.7351900315771397,0.007694697870218442,-0.090024,-33.853233
11.185,2.0,1.0,1.0,34.0,34.6,34.6,3.0,2.6,2.5575,0.656340749223038,-0.019171717719366477,0.7405477771311637,0.007659276198502384,-0.091312,-33.703669
11.185,2.0,1.0,1.0,34.0,34.6,34.6,3.0,2.6,2.56,0.6500412692303409,-0.01957555073399757,0.7458839236520771,0.007619689920335486,-0.092632,-33.553036
11.185,2.0,1.0,1.0,34.0,34.6,34.6,3.0,2.6,2.5625,0.6436562505865917,-0.01998896824900083,0.7511975522251075,0.007575733921048198,-0.093987,-33.401308
11.185,2.0,1.0,1.0,34.0,34.6,34.6,3.0,2.6,2.565,0.6371845935593512,-0.020412270615011902,0.7564877121032729,0.0075271920351385295,-0.095378,-33.248457
11.185,2.0,1.0,1.0,34.0,34.6,34.6,3.0,2.6,2.5675,0.6306251763440829,-0.020845770626632752,0.7617534193864924,0.007473836343591722,-0.096805,-33.094457
11.185,2.0,1.0,1.0,34.0,34.6,34.6,3.0,2.6,2.57,0.6239768544002136,-0.02128979416912828,0.7669936556295581,0.007415426418565715,-0.098271,-32.939278
11.185,2.0,1.0,1.0,34.0,34.6,34.6,3.0,2.6,2.5725,0.6172384597530899,-0.02174468090539823,0.7722073663738184,0.007351708510867792,-0.099776,-32.782893
11.185,2.0,1.0,1.0,34.0,34.6,34.6,3.0,2.6,2.575,0.6104088002593306,-0.022210785006117586,0.7773934595969615,0.007282414675193459,-0.101323,-32.62527
11.185,2.0,1.0,1.0,34.0,34.6,34.6,3.0,2.6,2.5775,0.6034866588328439,-0.02268847592616753,0.7825508040747609,0.007207261827596393,-0.102913,-32.466379
11.185,2.0,1.0,1.0,34.0,34.6,34.6,3.0,2.6,2.58,0.5964707926285562,-0.02317813923073454,0.7876782276480643,0.0071259507290940835,-0.104548,-32.306188
11.185,2.0,1.0,1.0,34.0,34.6,34.6,3.0,2.6,2.5825,0.5893599321806298,-0.023680177474725624,0.7927745153876642,0.0070381648886913275,-0.106229,-32.144662
11.185,2.0,1.0,1.0,34.0,34.6,34.6,3.0,2.6,2.585,0.5821527804916895,-0.024195011139446016,0.797838407648964,0.006943569378404899,-0.107959,-31.981768
11.185,2.0,1.0,1.0,34.0,34.6,34.6,3.0,2.6,2.5875,0.5748480120692432,-0.024723079630809795,0.8028685980075604,0.0068418095520939755,-0.109739,-31.81747
11.185,2.0,1.0,1.0,34.0,34.6,34.6,3.0,2.6,2.59,0.5674442719051885,-0.025264842343701632,0.8078637310659558,0.0067325096590314494,-0.111572,-31.651732
11.185,2.0,1.0,1.0,34.0,34.6,34.6,3.0,2.6,2.5925,0.5599401743938938,-0.025820779797495013,0.8128224001206323,0.006615271342174435,-0.11346,-31.484515
11.185,2.0,1.0,1.0,34.0,34.6,34.6,3.0,2.6,2.595,0.5523343021839922,-0.026391394848139887,0.8177431446775789,0.006489672010001952,-0.115405,-31.31578
11.185,2.0,1.0,1.0,34.0,34.6,34.6,3.0,2.6,2.5975,0.5446252049585489,-0.026977213982691293,0.8226244478031334,0.006355263069559267,-0.11741,-31.145486
11.185,2.0,1.0,1.0,34.0,34.6,34.6,3.0,2.6,2.6,0.5368113981378344,-0.0275787887026327,0.8274647332955773,0.006211568006972003,-0.119477,-30.973591
11.185,2.0,1.0,1.0,34.0,34.6,34.6,3.0,2.6,2.6025,0.5288913614984102,-0.02819669700288475,0.8322623626613437,0.006058080300140392,-0.12161,-30.800051
11.185,2.0,1.0,1.0,34.0,34.6,34.6,3.0,2.6,2.605,0.520863537701667,-0.028831544953962666,0.8370156318779223,0.005894261146577804,-0.123811,-30.62482
11.185,2.0,1.0,1.0,34.0,34.6,34.6,3.0,2.6,2.6075,0.5127263307243748,-0.029483968395373567,0.8417227679235436,0.005719536987382973,-0.126084,-30.44785
11.185,2.0,1.0,1.0,34.0,34.6,34.6,3.0,2.6,2.61,0.5044781041831362,-0.03015463474902096,0.8463819250514416,0.005533296806107527,-0.128432,-30.269094
11.185,2.0,1.0,1.0,34.0,34.6,34.6,3.0,2.6,2.6125,0.49611717954392326,-0.03084424496211339,0.8509911807839555,0.005334889178756401,-0.130858,-30.088499
11.185,2.0,1.0,1.0,34.0,34.6,34.6,3.0,2.6,2.615,0.4876418342071053,-0.03155353558987157,0.8555485315988194,0.00512361904829679,-0.133367,-29.906013
11.185,2.0,1.0,1.0,34.0,34.6,34.6,3.0,2.6,2.6175,0.4790502994575665,-0.03228328102917219,0.8600518882766938,0.004898744193805699,-0.135963,-29.721581
11.185,2.0,1.0,1.0,34.0,34.6,34.6,3.0,2.6,2.62,0.47034075826858873,-0.03303429591518899,0.8644990708752665,0.0046594713606914785,-0.138649,-29.535144
11.185,2.0,1.0,1.0,34.0,34.6,34.6,3.0,2.6,2.6225,0.46151134294722,-0.03380743769407364,0.868887803290988,0.004404952014217991,-0.141432,-29.346644
11.185,2.0,1.0,1.0,34.0,34.6,34.6,3.0,2.6,2.625,0.452560132607849,-0.0346036093857624,0.873215707364654,0.00413427767376322,-0.144315,-29.156018
11.185,2.0,1.0,1.0,34.0,34.6,34.6,3.0,2.6,2.6275,0.4434851504595543,-0.03542376255211881,0.87748029648152,0.0038464747797568887,-0.147304,-28.9632
11.185,2.0,1.0,1.0,34.0,34.6,34.6,3.0,2.6,2.63,0.434284360891688,-0.036268900486792946,0.8816789686102813,0.0035404990389664285,-0.150405,-28.768123
11.185,2.0,1.0,1.0,34.0,34.6,34.6,3.0,2.6,2.6325,0.42495566634089965,-0.037140081644418774,0.8858089987179938,0.003215229186599039,-0.153625,-28.570716
11.185,2.0,1.0,1.0,34.0,34.6,34.6,3.0,2.6,2.635,0.4154969039215492,-0.03803842332805752,0.8898675304896774,0.0028694600954167477,-0.156969,-28.370906
11.185,2.0,1.0,1.0,34.0,34.6,34.6,3.0,2.6,2.6375,0.4059058418001525,-0.03896510565510938,0.8938515672717302,0.002501895152541363,-0.160445,-28.168615
11.185,2.0,1.0,1.0,34.0,34.6,34.6,3.0,2.6,2.64,0.3961801752931439,-0.03992137582325513,0.8977579621472483,0.0021111378136459587,-0.164061,-27.963762
11.185,2.0,1.0,1.0,34.0,34.6,34.6,3.0,2.6,2.6425,0.3863175226659889,-0.040908552699299404,0.901583407038546,0.0016956822315460805,-0.167826,-27.756262
11.185,2.0,1.0,1.0,34.0,34.6,34.6,3.0,2.6,2.645,0.37631542061036516,-0.041928031755043435,0.9053244207174073,0.0012539028415178635,-0.171747,-27.546028
11.185,2.0,1.0,1.0,34.0,34.6,34.6,3.0,2.6,2.6475,0.36617131937502995,-0.04298129037545197,0.9089773355864518,0.0007840427686343908,-0.175835,-27.332966
11.185,2.0,1.0,1.0,34.0,34.6,34.6,3.0,2.6,2.65,0.3558825775250001,-0.04406989356532065,0.9125382830750915,0.00028420090260857124,-0.1801,-27.116979
11.185,2.0,1.0,1.0,34.0,34.6,34.6,3.0,2.6,2.6525,0.3454464563030797,-0.045195500081272745,0.9160031774703338,-0.0002476825374340869,-0.184554,-26.897966
11.185,2.0,1.0,1.0,34.0,34.6,34.6,3.0,2.6,2.655,0.33486011356747813,-0.04635986901611273,0.9193676979756585,-0.0008138421527637698,-0.18921,-26.675818
11.185,2.0,1.0,1.0,34.0,34.6,34.6,3.0,2.6,2.6575,0.32412059727974213,-0.04756486686209507,0.9226272687595028,-0.0014167054654470222,-0.19408,-26.450423
11.185,2.0,1.0,1.0,34.0,34.6,34.6,3.0,2.6,2.66,0.3132248385184902,-0.04881247507832108,0.9257770367177937,-0.002058913242299343,-0.19918,-26.221663
11.185,2.0,1.0,1.0,34.0,34.6,34.6,3.0,2.6,2.6625,0.3021696439969733,-0.05010479818488795,0.9288118466313557,-0.0027433423587618676,-0.204526,-25.989414
11.185,2.0,1.0,1.0,34.0,34.6,34.6,3.0,2.6,2.665,0.29095168806663685,-0.05144407240215245,0.9317262133476761,-0.003473131570224889,-0.210135,-25.753543
11.185,2.0,1.0,1.0,34.0,34.6,34.6,3.0,2.6,2.6675,0.2795675041953283,-0.05283267484692481,0.9345142905558647,-0.0042517106187053375,-0.216026,-25.513913
11.185,2.0,1.0,1.0,34.0,34.6,34.6,3.0,2.6,2.67,0.26801347591822156,-0.054273133287819485,0.9371698356519405,-0.005082833174266259,-0.222222,-25.270377
11.185,2.0,1.0,1.0,34.0,34.6,34.6,3.0,2.6,2.6725,0.2562858272730595,-0.055768136448297215,0.939686170106443,-0.005970614195367702,-0.228745,-25.022781
11.185,2.0,1.0,1.0,34.0,34.6,34.6,3.0,2.6,2.675,0.24438061275028783,-0.0573205448267684,0.9420561346452018,-0.006919572393199228,-0.235621,-24.770962
11.185,2.0,1.0,1.0,34.0,34.6,34.6,3.0,2.6,2.6775,0.2322937068148347,-0.0589334019766831,0.9442720384334384,-0.007934678605300451,-0.242879,-24.514748
11.185,2.0,1.0,1.0,34.0,34.6,34.6,3.0,2.6,2.68,0.2200207930921525,-0.060609946153359226,0.9463256013092368,-0.009021411027507415,-0.25055,-24.253957
11.185,2.0,1.0,1.0,34.0,34.6,34.6,3.0,2.6,2.6825,0.20755735335990375,-0.06235362218518588,0.9482078879396754,-0.010185818425478523,-0.258669,-23.988394
11.185,2.0,1.0,1.0,34.0,34.6,34.6,3.0,2.6,2.685,0.19489865655254268,-0.06416809336047982,0.9499092325655181,-0.011434592653906745,-0.267275,-23.717854
11.185,2.0,1.0,1.0,34.0,34.6,34.6,3.0,2.6,2.6875,0.18203974807489207,-0.06605725303189341,0.951419152750624,-0.012775152060573041,-0.276412,-23.44212
11.185,2.0,1.0,1.0,34.0,34.6,34.6,3.0,2.6,2.69,0.1689754398402727,-0.06802523552014654,0.9527262502508987,-0.014215737652956483,-0.286128,-23.16096
11.185,2.0,1.0,1.0,34.0,34.6,34.6,3.0,2.6,2.6925,0.15570030160913728,-0.07007642573758986,0.9538180967531454,-0.015765524268665364,-0.296478,-22.874128
11.185,2.0,1.0,1.0,34.0,34.6,34.6,3.0,2.6,2.695,0.14220865441971242,-0.07221546673561628,0.954681101792408,-0.017434749431602527,-0.307522,-22.581361
11.185,2.0,1.0,1.0,34.0,34.6,34.6,3.0,2.6,2.6975,0.12849456719154048,-0.07444726408922901,0.9553003596199079,-0.019234863110952436,-0.31933,-22.28238
11.185,2.0,1.0,1.0,34.0,34.6,34.6,3.0,2.6,2.7,0.11455185797225888,-0.07677698564119725,0.9556594711410502,-0.0211787022510908,-0.331981,-21.976887
11.185,2.0,1.0,1.0,34.0,34.6,34.6,3.0,2.6,2.7025,0.10037410182236702,-0.07921005460187185,0.9557403362479289,-0.023280694733568356,-0.345563,-21.664562
11.185,2.0,1.0,1.0,34.0,34.6,34.6,3.0,2.6,2.705,0.08595464804085055,-0.08175213329038507,0.9555229109014374,-0.02555709839918379,-0.360176,-21.345065
11.185,2.0,1.0,1.0,34.0,34.6,34.6,3.0,2.6,2.7075,0.07128665039266043,-0.08440909384193485,0.9549849221358462,-0.028026281937296005,-0.375937,-21.018033
11.185,2.0,1.0,1.0,34.0,34.6,34.6,3.0,2.6,2.71,0.05636311529955504,-0.08718697090189594,0.9541015327176318,-0.03070905588663903,-0.392978,-20.683076
11.185,2.0,1.0,1.0,34.0,34.6,34.6,3.0,2.6,2.7125,0.041176974726293135,-0.09009188955263288,0.9528449454366943,-0.03362906374044261,-0.411452,-20.339774
11.185,2.0,1.0,1.0,34.0,34.6,34.6,3.0,2.6,2.715,0.02572119291310839,-0.09312995929463562,0.951183934881125,-0.03681324526896545,-0.431535,-19.987682
11.185,2.0,1.0,1.0,34.0,34.6,34.6,3.0,2.6,2.7175,0.009988919422164535,-0.09630712158020367,0.9490832919811681,-0.040292386729233444,-0.453432,-19.626318
11.185,2.0,1.0,1.0,34.0,34.6,34.6,3.0,2.6,2.72,-0.006026294468977747,-0.0996289338244667,0.9465031635408806,-0.04410177568710619,-0.477383,-19.255167
11.185,2.0,1.0,1.0,34.0,34.6,34.6,3.0,2.6,2.7225,-0.02233019268547926,-0.10310026650021423,0.943398265359785,-0.048281981777028644,-0.503666,-18.873677
11.185,2.0,1.0,1.0,34.0,34.6,34.6,3.0,2.6,2.725,-0.038927392492512494,-0.10672488116009567,0.9397169433759252,-0.052879788873796706,-0.532613,-18.481256
11.185,2.0,1.0,1.0,34.0,34.6,34.6,3.0,2.6,2.7275,-0.05582079957455299,-0.11050484503074433,0.9354000526211701,-0.057949308760995855,-0.564614,-18.077269
11.185,2.0,1.0,1.0,34.0,34.6,34.6,3.0,2.6,2.73,-0.07301079875413982,-0.11443972078186605,0.9303796189331616,-0.06355331118493202,-0.600134,-17.661039
11.185,2.0,1.0,1.0,34.0,34.6,34.6,3.0,2.6,2.7325,-0.0904941351888512,-0.11852544619693137,0.924577243915908,-0.06976480957572162,-0.63973,-17.231842
11.185,2.0,1.0,1.0,34.0,34.6,34.6,3.0,2.6,2.735,-0.10826236737831893,-0.1227527849482443,0.9179022107967679,-0.07666894447696417,-0.684073,-16.788912
11.185,2.0,1.0,1.0,34.0,34.6,34.6,3.0,2.6,2.7375,-0.1262997262157044,-0.12710518256961936,0.9102492499054419,-0.0843652055268354,-0.733976,-16.331436
11.185,2.0,1.0,1.0,34.0,34.6,34.6,3.0,2.6,2.74,-0.1445801481866668,-0.1315557955902002,0.9014959317607439,-0.09297002340022355,-0.790432,-15.858567
11.185,2.0,1.0,1.0,34.0,34.6,34.6,3.0,2.6,2.7425,-0.16306315832948204,-0.13606336933612986,0.8914996808593834,-0.10261973776455538,-0.854658,-15.369428
11.185,2.0,1.0,1.0,34.0,34.6,34.6,3.0,2.6,2.745,-0.18168815031355354,-0.14056651174666568,0.8800944577889301,-0.11347389241807088,-0.928161,-14.863128
11.185,2.0,1.0,1.0,34.0,34.6,34.6,3.0,2.6,2.7475,-0.20036643593017794,-0.14497573570842534,0.8670872649274652,-0.12571870063370008,-1.012819,-14.33879
11.185,2.0,1.0,1.0,34.0,34.6,34.6,3.0,2.6,2.75,-0.218970203993935,-0.149162410571892,0.852254832520299,-0.139570321499665,-1.110985,-13.795589
11.185,2.0,1.0,1.0,34.0,34.6,34.6,3.0,2.6,2.7525,-0.2373172358963328,-0.15294347164809116,0.8353412062585189,-0.15527722276711986,-1.225628,-13.232815
11.185,2.0,1.0,1.0,34.0,34.6,34.6,3.0,2.6,2.755,-0.2551498921173425,-0.1560604052223297,0.8160575980899636,-0.17312026392470378,-1.36052,-12.649965
11.185,2.0,1.0,1.0,34.0,34.6,34.6,3.0,2.6,2.7575,-0.2721065916440924,-0.15815073731652607,0.7940869578971149,-0.19340803605164944,-1.520474,-12.046879
11.185,2.0,1.0,1.0,34.0,34.6,34.6,3.0,2.6,2.76,-0.2876839738021771,-0.1587102273558263,0.7690975367119336,-0.21646318118661154,-1.711642,-11.423947
11.185,2.0,1.0,1.0,34.0,34.6,34.6,3.0,2.6,2.7625,-0.30118867040556613,-0.15704471530416161,0.7407725692290467,-0.24259255807817187,-1.941876,-10.782397
11.185,2.0,1.0,1.0,34.0,34.6,34.6,3.0,2.6,2.765,-0.3116801966498625,-0.1522131653606155,0.7088673546327854,-0.27202997666626516,-2.221112,-10.124716
11.185,2.0,1.0,1.0,34.0,34.6,34.6,3.0,2.6,2.7675,-0.31791290487115403,-0.14296990383216318,0.6733101523986297,-0.30483510548272447,-2.561649,-9.455216
11.185,2.0,1.0,1.0,34.0,34.6,34.6,3.0,2.6,2.77,-0.3182984492259779,-0.12772756995623355,0.6343673263009459,-0.3407281844401014,-2.977972,-8.780791
11.185,2.0,1.0,1.0,34.0,34.6,34.6,3.0,2.6,2.7725,-0.31093435604944747,-0.10458643740837849,0.5928896199237755,-0.378843811462897,-3.485298,-8.111813
11.185,2.0,1.0,1.0,34.0,34.6,34.6,3.0,2.6,2.775,-0.2937785007128788,-0.07150988064475558,0.5506310368219345,-0.4174126100920965,-4.094922,-7.46306
11.185,2.0,1.0,1.0,34.0,34.6,34.6,3.0,2.6,2.7775,-0.26507645658065704,-0.02675265994406472,0.5105624760849822,-0.45344901071558114,-4.802513,-6.85434
11.185,2.0,1.0,1.0,34.0,34.6,34.6,3.0,2.6,2.78,-0.2241158532273273,0.030384617693106096,0.4769776057101399,-0.482647896104449,-5.563685,-6.310214
11.185,2.0,1.0,1.0,34.0,34.6,34.6,3.0,2.6,2.7825,-0.17220221381524772,0.09858161491372051,0.45506437759595214,-0.4998161626682185,-6.257335,-5.858049
11.185,2.0,1.0,1.0,34.0,34.6,34.6,3.0,2.6,2.785,-0.11340076296233424,0.17376121109680476,0.44968105657716523,-0.5000983546513932,-6.674145,-5.523903
11.185,2.0,1.0,1.0,34.0,34.6,34.6,3.0,2.6,2.7875,-0.05431675043078817,0.24931522607443282,0.463552703128597,-0.48077771112626844,-6.618795,-5.326801
11.185,2.0,1.0,1.0,34.0,34.6,34.6,3.0,2.6,2.79,-0.0025082992847202325,0.3176947135215398,0.49582206817819235,-0.4427181240410367,-6.093372,-5.27347
11.185,2.0,1.0,1.0,34.0,34.6,34.6,3.0,2.6,2.7925,0.03585624604547414,0.3727494405241365,0.5420448313867908,-0.3903610343938213,-5.300333,-5.356239
11.185,2.0,1.0,1.0,34.0,34.6,34.6,3.0,2.6,2.795,0.05771672184492493,0.41143857095007313,0.5957760717222671,-0.33013587635290054,-4.45777,-5.555314
11.185,2.0,1.0,1.0,34.0,34.6,34.6,3.0,2.6,2.7975,0.06330929375972433,0.43401209111397354,0.6507007042308691,-0.2683326183063767,-3.691457,-5.844109
11.185,2.0,1.0,1.0,34.0,34.6,34.6,3.0,2.6,2.8,0.05511865929279054,0.44296079268671956,0.7021005799648203,-0.20964015311389184,-3.04533,-6.194934
11.185,2.0,1.0,1.0,34.0,34.6,34.6,3.0,2.6,2.8025,0.03651888826271477,0.4416586032064596,0.7472546817691192,-0.15675026014279844,-2.520267,-6.583025
11.185,2.0,1.0,1.0,34.0,34.6,34.6,3.0,2.6,2.805,0.010774918137420252,0.4333667470054019,0.7851040993523475,-0.11069426223250488,-2.100637,-6.988398
11.185,2.0,1.0,1.0,34.0,34.6,34.6,3.0,2.6,2.8075,-0.01943958454211744,0.42075376281374605,0.8156750649688469,-0.07141984127936445,-1.76719,-7.396077
11.185,2.0,1.0,1.0,34.0,34.6,34.6,3.0,2.6,2.81,-0.05214847042976015,0.405790485224464,0.8395669699859425,-0.03830215007283231,-1.50217,-7.795442
11.185,2.0,1.0,1.0,34.0,34.6,34.6,3.0,2.6,2.8125,-0.0859912819946097,0.389832380571649,0.857603349707244,-0.0104918716865918,-1.290825,-8.179297
11.185,2.0,1.0,1.0,34.0,34.6,34.6,3.0,2.6,2.815,-0.12008248380765008,0.373760423050998,0.8706319341205285,0.012885642411782958,-1.121466,-8.542975
11.185,2.0,1.0,1.0,34.0,34.6,34.6,3.0,2.6,2.8175,-0.15387551118245685,0.3581169699701262,0.8794275136406917,0.03263388744466854,-0.985033,-8.883587
11.185,2.0,1.0,1.0,34.0,34.6,34.6,3.0,2.6,2.82,-0.18705385910937208,0.3432145322287303,0.8846553807806146,0.04944918751603931,-0.874568,-9.199458
11.185,2.0,1.0,1.0,34.0,34.6,34.6,3.0,2.6,2.8225,-0.21945152646780505,0.32921517557764296,0.8868663486278432,0.06391620628406966,-0.784743,-9.489714
11.185,2.0,1.0,1.0,34.0,34.6,34.6,3.0,2.6,2.825,-0.25099790439011826,0.31618547890398846,0.8865061106683902,0.07651780058544976,-0.71147,-9.753985
11.185,2.0,1.0,1.0,34.0,34.6,34.6,3.0,2.6,2.8275,-0.2816808475510875,0.30413330946498884,0.8839296659344218,0.08764997976374597,-0.651604,-9.992208
11.185,2.0,1.0,1.0,34.0,34.6,34.6,3.0,2.6,2.83,-0.31152248471922445,0.2930318501842389,0.879416257067387,0.0976374500458238,-0.602715,-10.204483
