1,w,sub_t,h,l1,l2,l3,g1,g2,Freq,S11_re,S21_re,S11_img,S21_img,S11_dB,S21_dB
11.185,2.0,1.0,1.0,34.8,34.0,34.0,2.3,2.8,2.5,0.635611393625704,-0.0195327809405317,0.759532290383494,0.00792311252058489,-0.083792,-33.523186
11.185,2.0,1.0,1.0,34.8,34.0,34.0,2.3,2.8,2.5025,0.6288260105145715,-0.019883697822130012,0.7650091280116765,0.007849215608547148,-0.08481,-33.401108
11.185,2.0,1.0,1.0,34.8,34.0,34.0,2.3,2.8,2.505,0.621951919031879,-0.020240326790630533,0.7704560222010319,0.007770402549223307,-0.085849,-33.27856
11.185,2.0,1.0,1.0,34.8,34.0,34.0,2.3,2.8,2.5075,0.6149882607417083,-0.020602756158711034,0.7758718541465566,0.007686497707641758,-0.086908,-33.155534
11.185,2.0,1.0,1.0,34.8,34.0,34.0,2.3,2.8,2.51,0.6079341715866808,-0.020971075110755785,0.7812554734547846,0.0075973192345438305,-0.087987,-33.032023
11.185,2.0,1.0,1.0,34.8,34.0,34.0,2.3,2.8,2.5125,0.6007887821480485,-0.02134537366935676,0.7866056972523569,0.007502678832104783,-0.089088,-32.90802
11.185,2.0,1.0,1.0,34.8,34.0,34.0,2.3,2.8,2.515,0.5935512179261624,-0.021725742657978348,0.7919213092703404,0.007402381510119138,-0.090211,-32.783516
11.185,2.0,1.0,1.0,34.8,34.0,34.0,2.3,2.8,2.5175,0.5862205996423933,-0.022112273659507624,0.7972010589036866,0.007296225332227245,-0.091356,-32.658505
11.185,2.0,1.0,1.0,34.8,34.0,34.0,2.3,2.8,2.52,0.5787960435636385,-0.02250505897039357,0.8024436602452472,0.007184001151738151,-0.092525,-32.532977
11.185,2.0,1.0,1.0,34.8,34.0,34.0,2.3,2.8,2.5225,0.5712766618505766,-0.02290419155005646,0.8076477910936765,0.007065492336582845,-0.093717,-32.406925
11.185,2.0,1.0,1.0,34.8,34.0,34.0,2.3,2.8,2.525,0.5636615629309131,-0.023309764965229764,0.8128120919346337,0.006940474482907246,-0.094934,-32.28034
11.185,2.0,1.0,1.0,34.8,34.0,34.0,2.3,2.8,2.5275,0.5559498518989012,-0.023721873328871507,0.8179351648946163,0.0068087151167911366,-0.096176,-32.153215
11.185,2.0,1.0,1.0,34.8,34.0,34.0,2.3,2.8,2.53,0.5481406309424943,-0.024140611233257673,0.8230155726667727,0.006669973383552042,-0.097443,-32.02554
11.185,2.0,1.0,1.0,34.8,34.0,34.0,2.3,2.8,2.5325,0.5402329997995524,-0.02456607367684404,0.8280518374080331,0.006523999724066259,-0.098737,-31.897308
11.185,2.0,1.0,1.0,34.8,34.0,34.0,2.3,2.8,2.535,0.5322260562445724,-0.02499835598445364,0.833042439606875,0.00637053553750942,-0.100058,-31.768509
11.185,2.0,1.0,1.0,34.8,34.0,34.0,2.3,2.8,2.5375,0.5241188966075148,-0.025437553720316045,0.837985816921037,0.0062093128298887764,-0.101406,-31.639135
11.185,2.0,1.0,1.0,34.8,34.0,34.0,2.3,2.8,2.54,0.5159106163263396,-0.025883762593453208,0.8428803629844686,0.006040053847706191,-0.102784,-31.509177
11.185,2.0,1.0,1.0,34.8,34.0,34.0,2.3,2.8,2.5425,0.5076003105349733,-0.02633707835486896,0.8477244261828317,0.005862470696056137,-0.10419,-31.378625
11.185,2.0,1.0,1.0,34.8,34.0,34.0,2.3,2.8,2.545,0.49918707468847384,-0.02679759668596332,0.8525163083967942,0.00567626494042631,-0.105627,-31.24747
11.185,2.0,1.0,1.0,34.8,34.0,34.0,2.3,2.8,2.5475,0.49067000522729215,-0.02726541307754997,0.857254263712405,0.005481127191430139,-0.107095,-31.115703
11.185,2.0,1.0,1.0,34.8,34.0,34.0,2.3,2.8,2.55,0.4820482002825599,-0.02774062269881382,0.8619364970977933,0.0052767366716570665,-0.108596,-30.983313
11.185,2.0,1.0,1.0,34.8,34.0,34.0,2.3,2.8,2.5525,0.4733207604245011,-0.02822332025549408,0.8665611630454325,0.005062760763785253,-0.110128,-30.850292
11.185,2.0,1.0,1.0,34.8,34.0,34.0,2.3,2.8,2.555,0.4644867894560736,-0.028713599836533252,0.8711263641791864,0.004838854539052059,-0.111695,-30.716629
11.185,2.0,1.0,1.0,34.8,34.0,34.0,2.3,2.8,2.5575,0.45554539525413307,-0.029211554748371473,0.8756301498253817,0.004604660265129132,-0.113297,-30.582313
11.185,2.0,1.0,1.0,34.8,34.0,34.0,2.3,2.8,2.56,0.44649569066047196,-0.02971727733601108,0.8800705145470676,0.0043598068923964,-0.114934,-30.447335
11.185,2.0,1.0,1.0,34.8,34.0,34.0,2.3,2.8,2.5625,0.4373367944252095,-0.030230858789909498,0.8844453966406813,0.004103909517551787,-0.116609,-30.311684
11.185,2.0,1.0,1.0,34.8,34.0,34.0,2.3,2.8,2.565,0.4280678322051371,-0.030752388937692287,0.8887526765942801,0.003836568823434135,-0.118321,-30.175349
11.185,2.0,1.0,1.0,34.8,34.0,34.0,2.3,2.8,2.5675,0.41868793761974904,-0.031281956019601015,0.8929901755064907,0.0035573704938733864,-0.120072,-30.038318
11.185,2.0,1.0,1.0,34.8,34.0,34.0,2.3,2.8,2.57,0.40919625336781046,-0.03181964644651291,0.8971556534653378,0.0032658846023126565,-0.121864,-29.900582
11.185,2.0,1.0,1.0,34.8,34.0,34.0,2.3,2.8,2.5725,0.39959193240745683,-0.03236554453928133,0.9012468078860492,0.0029616649728751126,-0.123697,-29.762127
11.185,2.0,1.0,1.0,34.8,34.0,34.0,2.3,2.8,2.575,0.3898741392029891,-0.032919732248051184,0.9052612718069803,0.0026442485124705812,-0.125573,-29.622944
11.185,2.0,1.0,1.0,34.8,34.0,34.0,2.3,2.8,2.5775,0.38004205104164823,-0.03348228885010397,0.9091966121427031,0.0023131545124538662,-0.127493,-29.483018
11.185,2.0,1.0,1.0,34.8,34.0,34.0,2.3,2.8,2.58,0.3700948594238528,-0.034053290624673604,0.9130503278933583,0.0019678839182580374,-0.129458,-29.342339
11.185,2.0,1.0,1.0,34.8,34.0,34.0,2.3,2.8,2.5825,0.3600317715305336,-0.03463281050305873,0.9168198483093056,0.0016079185653314072,-0.13147,-29.200894
11.185,2.0,1.0,1.0,34.8,34.0,34.0,2.3,2.8,2.585,0.3498520117713938,-0.03522091769222307,0.9205025310100717,0.0012327203796051228,-0.13353,-29.05867
11.185,2.0,1.0,1.0,34.8,34.0,34.0,2.3,2.8,2.5875,0.3395548234181213,-0.03581767726993807,0.9240956600566239,0.0008417305406099858,-0.135641,-28.915654
11.185,2.0,1.0,1.0,34.8,34.0,34.0,2.3,2.8,2.59,0.3291394703267848,-0.0364231497493659,0.9275964439758841,0.00043436860524491183,-0.137802,-28.771832
11.185,2.0,1.0,1.0,34.8,34.0,34.0,2.3,2.8,2.5925,0.31860523875385965,-0.03703739061081713,0.9310020137364466,1.0031590074113355e-05,-0.140017,-28.627192
11.185,2.0,1.0,1.0,34.8,34.0,34.0,2.3,2.8,2.595,0.30795143927058993,-0.03766044979823139,0.9343094206743613,-0.0004319069901022722,-0.142287,-28.481719
11.185,2.0,1.0,1.0,34.8,34.0,34.0,2.3,2.8,2.5975,0.2971774087806044,-0.038292371177736956,0.9375156343678492,-0.0008920981298047194,-0.144613,-28.335398
11.185,2.0,1.0,1.0,34.8,34.0,34.0,2.3,2.8,2.6,0.2862825126460075,-0.03893319195542508,0.9406175404597369,-0.0013712183891107987,-0.146997,-28.188216
11.185,2.0,1.0,1.0,34.8,34.0,34.0,2.3,2.8,2.6025,0.2752661469274326,-0.039582942051239654,0.9436119384263497,-0.0018699710012903866,-0.149442,-28.040157
11.185,2.0,1.0,1.0,34.8,34.0,34.0,2.3,2.8,2.605,0.2641277407438728,-0.04024164342562778,0.9464955392915811,-0.0023890870347368495,-0.15195,-27.891206
11.185,2.0,1.0,1.0,34.8,34.0,34.0,2.3,2.8,2.6075,0.2528667587583862,-0.040909309355311126,0.9492649632847159,-0.0029293266122813176,-0.154522,-27.741346
11.185,2.0,1.0,1.0,34.8,34.0,34.0,2.3,2.8,2.61,0.24148270379620485,-0.041585943654232065,0.9519167374406018,-0.003491480191182762,-0.157161,-27.590563
11.185,2.0,1.0,1.0,34.8,34.0,34.0,2.3,2.8,2.6125,0.22997511960207104,-0.042271539835389595,0.9544472931405933,-0.00407636990730847,-0.159869,-27.438839
11.185,2.0,1.0,1.0,34.8,34.0,34.0,2.3,2.8,2.615,0.21834359374409554,-0.04296608020890729,0.9568529635926767,-0.0046848509872571,-0.162648,-27.286157
11.185,2.0,1.0,1.0,34.8,34.0,34.0,2.3,2.8,2.6175,0.20658776067185197,-0.043669534911270666,0.9591299812490018,-0.0053178132324315465,-0.165502,-27.1325
11.185,2.0,1.0,1.0,34.8,34.0,34.0,2.3,2.8,2.62,0.19470730493691482,-0.044381860860219155,0.9612744751590052,-0.005976182579346729,-0.168432,-26.977851
11.185,2.0,1.0,1.0,34.8,34.0,34.0,2.3,2.8,2.6225,0.18270196458453852,-0.045103000629289555,0.9632824682561247,-0.006660922740753664,-0.171442,-26.822189
11.185,2.0,1.0,1.0,34.8,34.0,34.0,2.3,2.8,2.625,0.170571534725802,-0.0458328812354572,0.965149874575965,-0.00737303693248076,-0.174534,-26.665498
11.185,2.0,1.0,1.0,34.8,34.0,34.0,2.3,2.8,2.6275,0.15831587130008945,-0.04657141283273041,0.9668724964036398,-0.0081135696912413,-0.177711,-26.507756
11.185,2.0,1.0,1.0,34.8,34.0,34.0,2.3,2.8,2.63,0.14593489503850868,-0.04731848730388258,0.9684460213477808,-0.008883608789025351,-0.180978,-26.348945
11.185,2.0,1.0,1.0,34.8,34.0,34.0,2.3,2.8,2.6325,0.13342859563955908,-0.048073976741781856,0.9698660193385434,-0.009684287250098558,-0.184336,-26.189043
11.185,2.0,1.0,1.0,34.8,34.0,34.0,2.3,2.8,2.635,0.12079703616917792,-0.04883773181096369,0.9711279395466659,-0.01051678547706082,-0.187789,-26.02803
11.185,2.0,1.0,1.0,34.8,34.0,34.0,2.3,2.8,2.6375,0.10804035769819409,-0.049609579979196655,0.9722271072204173,-0.011382333492885793,-0.191342,-25.865882
11.185,2.0,1.0,1.0,34.8,34.0,34.0,2.3,2.8,2.64,0.09515878419115797,-0.05038932360779719,0.9731587204369422,-0.012282213306366339,-0.194998,-25.702579
11.185,2.0,1.0,1.0,34.8,34.0,34.0,2.3,2.8,2.6425,0.08215262766166097,-0.05117673788834239,0.9739178467642262,-0.013217761408930318,-0.198761,-25.538097
11.185,2.0,1.0,1.0,34.8,34.0,34.0,2.3,2.8,2.645,0.06902229361038469,-0.051971568612203506,0.9744994198295179,-0.014190371411377942,-0.202636,-25.372412
11.185,2.0,1.0,1.0,34.8,34.0,34.0,2.3,2.8,2.6475,0.05576828676351286,-0.05277352975795484,0.9748982357896686,-0.01520149682971936,-0.206626,-25.205498
11.185,2.0,1.0,1.0,34.8,34.0,34.0,2.3,2.8,2.65,0.04239121713050799,-0.05358230088019122,0.9751089496984054,-0.016252654029970174,-0.210737,-25.037331
11.185,2.0,1.0,1.0,34.8,34.0,34.0,2.3,2.8,2.6525,0.02889180640204263,-0.05439752428158512,0.9751260717650546,-0.01734542534248608,-0.214974,-24.867885
11.185,2.0,1.0,1.0,34.8,34.0,34.0,2.3,2.8,2.655,0.015270894710513181,-0.05521880194812147,0.9749439634987292,-0.018481462357206227,-0.219342,-24.697131
11.185,2.0,1.0,1.0,34.8,34.0,34.0,2.3,2.8,2.6575,0.0015294477777534736,-0.05604569222532132,0.9745568337313878,-0.019662489412008707,-0.223846,-24.525043
11.185,2.0,1.0,1.0,34.8,34.0,34.0,2.3,2.8,2.66,-0.01233143552327281,-0.05687770621089517,0.9739587345125031,-0.02089030728728416,-0.228493,-24.35159
11.185,2.0,1.0,1.0,34.8,34.0,34.0,2.3,2.8,2.6625,-0.026310515163377398,-0.057714303836596786,0.9731435568674472,-0.022166797120792742,-0.233288,-24.176743
11.185,2.0,1.0,1.0,34.8,34.0,34.0,2.3,2.8,2.665,-0.04040640147647751,-0.05855488960906784,0.9721050264108315,-0.02349392455790096,-0.238239,-24.000471
11.185,2.0,1.0,1.0,34.8,34.0,34.0,2.3,2.8,2.6675,-0.05461754616784712,-0.05939880797609723,0.9708366988053003,-0.024873744153381876,-0.243353,-23.822742
11.185,2.0,1.0,1.0,34.8,34.0,34.0,2.3,2.8,2.67,-0.06894223277226415,-0.060245338280946435,0.9693319550553009,-0.02630840404212937,-0.248636,-23.643521
11.185,2.0,1.0,1.0,34.8,34.0,34.0,2.3,2.8,2.6725,-0.0833785665188946,-0.06109368926313278,0.9675839966244241,-0.02780015089736159,-0.254097,-23.462775
11.185,2.0,1.0,1.0,34.8,34.0,34.0,2.3,2.8,2.675,-0.09792446355513329,-0.06194299305926094,0.9655858403638384,-0.029351335196180516,-0.259744,-23.280468
11.185,2.0,1.0,1.0,34.8,34.0,34.0,2.3,2.8,2.6775,-0.11257763947644697,-0.06279229865207349,0.963330313238246,-0.03096441681371119,-0.265585,-23.096561
11.185,2.0,1.0,1.0,34.8,34.0,34.0,2.3,2.8,2.68,-0.1273355971033157,-0.06364056470975915,0.9608100468346117,-0.032641970968450985,-0.271632,-22.911017
11.185,2.0,1.0,1.0,34.8,34.0,34.0,2.3,2.8,2.6825,-0.1421956134396589,-0.06448665175061574,0.958017471637699,-0.03438669454290999,-0.277893,-22.723796
11.185,2.0,1.0,1.0,34.8,34.0,34.0,2.3,2.8,2.685,-0.1571547257395392,-0.06532931356029895,0.9549448110551411,-0.03620141280510909,-0.284379,-22.534856
11.185,2.0,1.0,1.0,34.8,34.0,34.0,2.3,2.8,2.6875,-0.1722097166002367,-0.06616718777995316,0.9515840751735423,-0.0380890865579896,-0.291102,-22.344152
11.185,2.0,1.0,1.0,34.8,34.0,34.0,2.3,2.8,2.69,-0.18735709798987799,-0.06699878557337423,0.9479270542257756,-0.04005281974525902,-0.298073,-22.151641
11.185,2.0,1.0,1.0,34.8,34.0,34.0,2.3,2.8,2.6925,-0.20259309410661405,-0.06782248026979995,0.9439653117483751,-0.0420958675436172,-0.305307,-21.957276
11.185,2.0,1.0,1.0,34.8,34.0,34.0,2.3,2.8,2.695,-0.2179136229533187,-0.06863649486576497,0.939690177406815,-0.044221644972603925,-0.312818,-21.761007
11.185,2.0,1.0,1.0,34.8,34.0,34.0,2.3,2.8,2.6975,-0.23331427649720254,-0.06943888825444132,0.9350927394653704,-0.04643373605445784,-0.320619,-21.562783
11.185,2.0,1.0,1.0,34.8,34.0,34.0,2.3,2.8,2.7,-0.24879029926671622,-0.07022754003373302,0.9301638368775266,-0.04873590355724031,-0.328728,-21.362552
11.185,2.0,1.0,1.0,34.8,34.0,34.0,2.3,2.8,2.7025,-0.26433656521886734,-0.07100013372477534,0.9248940509723957,-0.05113209935500125,-0.337161,-21.160258
11.185,2.0,1.0,1.0,34.8,34.0,34.0,2.3,2.8,2.705,-0.27994755268780946,-0.07175413821002338,0.9192736967126476,-0.0536264754387579,-0.345938,-20.955844
11.185,2.0,1.0,1.0,34.8,34.0,34.0,2.3,2.8,2.7075,-0.29561731720003726,-0.07248678717435082,0.9132928135001116,-0.05622339561137717,-0.355078,-20.74925
11.185,2.0,1.0,1.0,34.8,34.0,34.0,2.3,2.8,2.71,-0.31133946191215534,-0.07319505630300709,0.9069411555067647,-0.058927447897840275,-0.364603,-20.540412
11.185,2.0,1.0,1.0,34.8,34.0,34.0,2.3,2.8,2.7125,-0.327107105393343,-0.07387563795628668,0.900208181511538,-0.06174345769955195,-0.374537,-20.329266
11.185,2.0,1.0,1.0,34.8,34.0,34.0,2.3,2.8,2.715,-0.34291284643561165,-0.07452491300164209,0.8930830442276414,-0.06467650171693434,-0.384904,-20.115743
11.185,2.0,1.0,1.0,34.8,34.0,34.0,2.3,2.8,2.7175,-0.358748725529916,-0.07513891943890245,0.8855545791114111,-0.06773192265806567,-0.395732,-19.899771
11.185,2.0,1.0,1.0,34.8,34.0,34.0,2.3,2.8,2.72,-0.3746061825941203,-0.07571331740228182,0.8776112926526304,-0.07091534474195489,-0.407051,-19.681275
11.185,2.0,1.0,1.0,34.8,34.0,34.0,2.3,2.8,2.7225,-0.3904760104786802,-0.0762433500628396,0.8692413501585788,-0.07423268999243801,-0.418893,-19.460178
11.185,2.0,1.0,1.0,34.8,34.0,34.0,2.3,2.8,2.725,-0.40634830370614516,-0.07672379988569993,0.8604325630608536,-0.07769019530161814,-0.431292,-19.236397
11.185,2.0,1.0,1.0,34.8,34.0,34.0,2.3,2.8,2.7275,-0.4222124018200158,-0.07714893961610887,0.8511723757963687,-0.08129443021906982,-0.444288,-19.009847
11.185,2.0,1.0,1.0,34.8,34.0,34.0,2.3,2.8,2.73,-0.43805682662480505,-0.0775124772755292,0.8414478523435874,-0.08505231539301528,-0.457921,-18.780438
11.185,2.0,1.0,1.0,34.8,34.0,34.0,2.3,2.8,2.7325,-0.4538692124907979,-0.07780749434139395,0.8312456625339327,-0.088971141550441,-0.472237,-18.548076
11.185,2.0,1.0,1.0,34.8,34.0,34.0,2.3,2.8,2.735,-0.46963622877101036,-0.07802637615944825,0.8205520683091734,-0.09305858885200653,-0.487286,-18.312664
11.185,2.0,1.0,1.0,34.8,34.0,34.0,2.3,2.8,2.7375,-0.48534349323185844,-0.07816073349304828,0.8093529101613828,-0.09732274639141646,-0.503122,-18.074098
11.185,2.0,1.0,1.0,34.8,34.0,34.0,2.3,2.8,2.74,-0.5009754752294632,-0.07820131394618021,0.7976335940775023,-0.1017721315234742,-0.519805,-17.83227
11.185,2.0,1.0,1.0,34.8,34.0,34.0,2.3,2.8,2.7425,-0.5165153871668491,-0.07813790180265764,0.7853790794203869,-0.10641570859506054,-0.537401,-17.587067
11.185,2.0,1.0,1.0,34.8,34.0,34.0,2.3,2.8,2.745,-0.5319450625392511,-0.07795920459883339,0.7725738683198351,-0.1112629065119857,-0.555983,-17.338372
11.185,2.0,1.0,1.0,34.8,34.0,34.0,2.3,2.8,2.7475,-0.5472448186105611,-0.0776527244865857,0.7592019973288502,-0.11632363439344809,-0.57563,-17.08606
11.185,2.0,1.0,1.0,34.8,34.0,34.0,2.3,2.8,2.75,-0.562393301458537,-0.0772046121421818,0.745247032333662,-0.121608294333642,-0.596432,-16.830001
11.185,2.0,1.0,1.0,34.8,34.0,34.0,2.3,2.8,2.7525,-0.577367310773898,-0.07659950062933257,0.7306920680050051,-0.12712778999276075,-0.618487,-16.57006
11.185,2.0,1.0,1.0,34.8,34.0,34.0,2.3,2.8,2.755,-0.5921416013930675,-0.07582031622551826,0.7155197334612896,-0.13289352935915688,-0.641905,-16.306095
11.185,2.0,1.0,1.0,34.8,34.0,34.0,2.3,2.8,2.7575,-0.6066886580801318,-0.07484806276364814,0.6997122063048514,-0.13891741953756884,-0.666806,-16.037957
11.185,2.0,1.0,1.0,34.8,34.0,34.0,2.3,2.8,2.76,-0.620978439544899,-0.07366157552102053,0.6832512378208495,-0.14521185079532048,-0.693329,-15.765492
11.185,2.0,1.0,1.0,34.8,34.0,34.0,2.3,2.8,2.7625,-0.634978087086942,-0.07223724010027863,0.6661181929329774,-0.15178966630122298,-0.721624,-15.488536
11.185,2.0,1.0,1.0,34.8,34.0,34.0,2.3,2.8,2.765,-0.6486515925881894,-0.0705486710911251,0.6482941095405267,-0.1586641129715767,-0.751864,-15.206923
11.185,2.0,1.0,1.0,34.8,34.0,34.0,2.3,2.8,2.7675,-0.6619594198421284,-0.06856634457987155,0.6297597831810604,-0.1658487675316832,-0.78424,-14.920476
11.185,2.0,1.0,1.0,34.8,34.0,34.0,2.3,2.8,2.77,-0.6748580724163045,-0.0662571777968281,0.610495884652912,-0.17335743022953184,-0.818969,-14.629014
11.185,2.0,1.0,1.0,34.8,34.0,34.0,2.3,2.8,2.7725,-0.687299600418826,-0.06358404838131923,0.5904831203956485,-0.18120397649864442,-0.856298,-14.332349
11.185,2.0,1.0,1.0,34.8,34.0,34.0,2.3,2.8,2.775,-0.6992310377204675,-0.06050524494156387,0.5697024481961922,-0.1894021541295717,-0.896505,-14.030286
11.185,2.0,1.0,1.0,34.8,34.0,34.0,2.3,2.8,2.7775,-0.710593760441367,-0.05697383986101938,0.5481353643297985,-0.19796531000985398,-0.939906,-13.722627
11.185,2.0,1.0,1.0,34.8,34.0,34.0,2.3,2.8,2.78,-0.7213227569591545,-0.052936974766346616,0.5257642827682444,-0.20690602602394287,-0.986863,-13.409168
11.185,2.0,1.0,1.0,34.8,34.0,34.0,2.3,2.8,2.7825,-0.7313457995119385,-0.048335048901535185,0.502573032852105,-0.21623563801097462,-1.03779,-13.089704
11.185,2.0,1.0,1.0,34.8,34.0,34.0,2.3,2.8,2.785,-0.7405825079304598,-0.04310080111969376,0.4785475091487396,-0.22596360444504013,-1.093163,-12.764029
11.185,2.0,1.0,1.0,34.8,34.0,34.0,2.3,2.8,2.7875,-0.7489432975551994,-0.037158277720234334,0.453676516485039,-0.23609668235251094,-1.153528,-12.431937
11.185,2.0,1.0,1.0,34.8,34.0,34.0,2.3,2.8,2.79,-0.7563282065991547,-0.030421681539287586,0.42795286479730993,-0.24663785647649633,-1.219518,-12.093229
11.185,2.0,1.0,1.0,34.8,34.0,34.0,2.3,2.8,2.7925,-0.7626256040237529,-0.022794103452480653,0.40137478296974305,-0.2575849533568023,-1.291869,-11.747714
11.185,2.0,1.0,1.0,34.8,34.0,34.0,2.3,2.8,2.795,-0.7677107887445397,-0.014166147094828198,0.3739477387288962,-0.2689288543301442,-1.371434,-11.395218
11.185,2.0,1.0,1.0,34.8,34.0,34.0,2.3,2.8,2.7975,-0.7714445066052464,-0.00441447304892976,0.3456867733273775,-0.28065120007264854,-1.459212,-11.035588
11.185,2.0,1.0,1.0,34.8,34.0,34.0,2.3,2.8,2.8,-0.7736714357966329,0.006599687292422817,0.3166194853233751,-0.29272145406902056,-1.556375,-10.668702
11.185,2.0,1.0,1.0,34.8,34.0,34.0,2.3,2.8,2.8025,-0.7742187280779518,0.019031961739878183,0.2867898268035974,-0.3050931637353451,-1.664303,-10.294483
11.185,2.0,1.0,1.0,34.8,34.0,34.0,2.3,2.8,2.805,-0.7728947475064605,0.03305607105997276,0.256262906344199,-0.31769922738666123,-1.784623,-9.912913
11.185,2.0,1.0,1.0,34.8,34.0,34.0,2.3,2.8,2.8075,-0.7694882272959793,0.04886464838045276,0.22513102228219925,-0.3304459463560843,-1.919268,-9.524048
11.185,2.0,1.0,1.0,34.8,34.0,34.0,2.3,2.8,2.81,-0.7637681776104334,0.06666931535934276,0.19352117046549228,-0.3432056212635204,-2.070537,-9.128048
11.185,2.0,1.0,1.0,34.8,34.0,34.0,2.3,2.8,2.8125,-0.755485032714674,0.0866995325314324,0.161604269943943,-0.355807452158527,-2.241176,-8.725202
11.185,2.0,1.0,1.0,34.8,34.0,34.0,2.3,2.8,2.815,-0.7443737352129461,0.10919953451331936,0.12960630671451054,-0.36802654509996946,-2.434475,-8.315966
11.185,2.0,1.0,1.0,34.8,34.0,34.0,2.3,2.8,2.8175,-0.7301597250854261,0.1344223940700694,0.09782147545438757,-0.37957094644959194,-2.654384,-7.901005
11.185,2.0,1.0,1.0,34.8,34.0,34.0,2.3,2.8,2.82,-0.712569128584872,0.16261993565671215,0.06662715046558351,-0.39006687182534644,-2.905656,-7.481248
11.185,2.0,1.0,1.0,34.8,34.0,34.0,2.3,2.8,2.8225,-0.6913448002691356,0.19402686509325623,0.036500067002167756,-0.39904274123719274,-3.194017,-7.05795
11.185,2.0,1.0,1.0,34.8,34.0,34.0,2.3,2.8,2.825,-0.6662701892973265,0.22883716782931957,0.008032350363808866,-0.4059133667620121,-3.526361,-6.632759
11.185,2.0,1.0,1.0,34.8,34.0,34.0,2.3,2.8,2.8275,-0.6372031310827734,0.26717069953036976,-0.018055104522676686,-0.4099667603238444,-3.910957,-6.207798
