1,w,sub_t,h,l1,l2,l3,g1,g2,Freq,S11_re,S21_re,S11_img,S21_img,S11_dB,S21_dB
11.185,2.0,1.0,1.0,34.9,34.9,34.9,2.6,2.3,2.5,0.60897768236902,-0.0252209310146213,0.779088946663236,0.00977688250613366,-0.097351,-31.356772
11.185,2.0,1.0,1.0,34.9,34.9,34.9,2.6,2.3,2.5025,0.6017722579703606,-0.02573318015951345,0.7844650508364038,0.009692572949220235,-0.098765,-31.213963
11.185,2.0,1.0,1.0,34.9,34.9,34.9,2.6,2.3,2.505,0.5944705586446485,-0.026256438165914373,0.7898062672927575,0.009601446139042371,-0.100213,-31.070219
11.185,2.0,1.0,1.0,34.9,34.9,34.9,2.6,2.3,2.5075,0.5870715020245207,-0.026790996931598688,0.7951112726010493,0.009503194041076161,-0.101699,-30.92552
11.185,2.0,1.0,1.0,34.9,34.9,34.9,2.6,2.3,2.51,0.5795739911082493,-0.027337158154703355,0.8003787011080403,0.00939749361425209,-0.103224,-30.779844
11.185,2.0,1.0,1.0,34.9,34.9,34.9,2.6,2.3,2.5125,0.5719769140822546,-0.02789523373815608,0.8056071433737264,0.009284005958637835,-0.104788,-30.63317
11.185,2.0,1.0,1.0,34.9,34.9,34.9,2.6,2.3,2.515,0.5642791441403229,-0.028465546213707123,0.8107951445327635,0.009162375406190885,-0.106393,-30.485476
11.185,2.0,1.0,1.0,34.9,34.9,34.9,2.6,2.3,2.5175,0.5564795392992758,-0.029048429186600076,0.8159412025773471,0.009032228550152106,-0.108041,-30.336741
11.185,2.0,1.0,1.0,34.9,34.9,34.9,2.6,2.3,2.52,0.5485769422107802,-0.029644227801974947,0.8210437665564635,0.008893173208259204,-0.109733,-30.18694
11.185,2.0,1.0,1.0,34.9,34.9,34.9,2.6,2.3,2.5225,0.540570179968993,-0.030253299234144066,0.8261012346859333,0.00874479731452198,-0.111471,-30.03605
11.185,2.0,1.0,1.0,34.9,34.9,34.9,2.6,2.3,2.525,0.5324580639136914,-0.030876013199941082,0.8311119523632602,0.008586667733825257,-0.113257,-29.884046
11.185,2.0,1.0,1.0,34.9,34.9,34.9,2.6,2.3,2.5275,0.5242393894285178,-0.031512752497394984,0.8360742100807218,0.008418328993096753,-0.115093,-29.730903
11.185,2.0,1.0,1.0,34.9,34.9,34.9,2.6,2.3,2.53,0.5159129357339688,-0.03216391357103656,0.8409862412295875,0.00823930192219633,-0.116979,-29.576594
11.185,2.0,1.0,1.0,34.9,34.9,34.9,2.6,2.3,2.5325,0.507477465674713,-0.03282990710520006,0.8458462197876998,0.008049082197039394,-0.11892,-29.421094
11.185,2.0,1.0,1.0,34.9,34.9,34.9,2.6,2.3,2.535,0.49893172550080517,-0.03351115864673354,0.850652257881964,0.007847138776757016,-0.120916,-29.264373
11.185,2.0,1.0,1.0,34.9,34.9,34.9,2.6,2.3,2.5375,0.490274444642383,-0.03420810925858368,0.8554024032164848,0.007632912225909907,-0.12297,-29.106404
11.185,2.0,1.0,1.0,34.9,34.9,34.9,2.6,2.3,2.54,0.4815043354773709,-0.03492121620576532,0.8600946363562523,0.007405812911897803,-0.125084,-28.947156
11.185,2.0,1.0,1.0,34.9,34.9,34.9,2.6,2.3,2.5425,0.4726200930917602,-0.0356509536752696,0.8647268678552996,0.007165219066746025,-0.127261,-28.786599
11.185,2.0,1.0,1.0,34.9,34.9,34.9,2.6,2.3,2.545,0.46362039503200103,-0.036397813531494363,0.8692969352171969,0.0069104747013697815,-0.129503,-28.624701
11.185,2.0,1.0,1.0,34.9,34.9,34.9,2.6,2.3,2.5475,0.4545039010490987,-0.03716230610880845,0.8738025996745565,0.006640887359230253,-0.131814,-28.46143
11.185,2.0,1.0,1.0,34.9,34.9,34.9,2.6,2.3,2.55,0.44526925283397367,-0.03794496104287018,0.8782415427729189,0.006355725694964589,-0.134195,-28.296751
11.185,2.0,1.0,1.0,34.9,34.9,34.9,2.6,2.3,2.5525,0.43591507374377914,-0.038746328142315115,0.8826113627428915,0.006054216862095994,-0.136651,-28.13063
11.185,2.0,1.0,1.0,34.9,34.9,34.9,2.6,2.3,2.555,0.4264399685188364,-0.039566978302404424,0.8869095706428084,0.005735543692279181,-0.139185,-27.963031
11.185,2.0,1.0,1.0,34.9,34.9,34.9,2.6,2.3,2.5575,0.41684252299001834,-0.04040750446217216,0.8911335862523173,0.005398841646694244,-0.141799,-27.793915
11.185,2.0,1.0,1.0,34.9,34.9,34.9,2.6,2.3,2.56,0.40712130377650535,-0.04126852260652413,0.8952807336952688,0.005043195518146116,-0.144499,-27.623244
11.185,2.0,1.0,1.0,34.9,34.9,34.9,2.6,2.3,2.5625,0.39727485797401185,-0.04215067281461952,0.8993482367679818,0.0046676358601192855,-0.147287,-27.450978
11.185,2.0,1.0,1.0,34.9,34.9,34.9,2.6,2.3,2.565,0.3873017128337825,-0.0430546203556907,0.9033332139463921,0.004271135116458457,-0.150168,-27.277074
11.185,2.0,1.0,1.0,34.9,34.9,34.9,2.6,2.3,2.5675,0.37720037543298623,-0.04398105683321876,0.907232673042704,0.0038526034224471237,-0.153146,-27.10149
11.185,2.0,1.0,1.0,34.9,34.9,34.9,2.6,2.3,2.57,0.3669693323374151,-0.04493070137807497,0.9110435054789129,0.0034108840448033024,-0.156227,-26.92418
11.185,2.0,1.0,1.0,34.9,34.9,34.9,2.6,2.3,2.5725,0.3566070492579146,-0.04590430189083092,0.9147624801409399,0.002944748424450088,-0.159414,-26.745097
11.185,2.0,1.0,1.0,34.9,34.9,34.9,2.6,2.3,2.575,0.34611197070248767,-0.046902636332924505,0.9183862367729732,0.0024528907817979334,-0.162715,-26.564193
11.185,2.0,1.0,1.0,34.9,34.9,34.9,2.6,2.3,2.5775,0.33548251962673314,-0.047926514065711044,0.9219112788669975,0.0019339222396249115,-0.166133,-26.381417
11.185,2.0,1.0,1.0,34.9,34.9,34.9,2.6,2.3,2.58,0.3247170970861546,-0.04897677723560469,0.9253339659972362,0.00138636441339259,-0.169675,-26.196717
11.185,2.0,1.0,1.0,34.9,34.9,34.9,2.6,2.3,2.5825,0.31381408189492366,-0.050054302202481665,0.9286505055433065,0.0008086424128978438,-0.173349,-26.010038
11.185,2.0,1.0,1.0,34.9,34.9,34.9,2.6,2.3,2.585,0.3027718302970386,-0.05116000100723152,0.9318569437391536,0.00019907719243869956,-0.17716,-25.821323
11.185,2.0,1.0,1.0,34.9,34.9,34.9,2.6,2.3,2.5875,0.2915886756574398,-0.052294822872750134,0.9349491559772347,-0.00044412282094966293,-0.181117,-25.630513
11.185,2.0,1.0,1.0,34.9,34.9,34.9,2.6,2.3,2.59,0.28026292818265386,-0.05345975573069709,0.9379228362887301,-0.0011228709002895354,-0.185227,-25.437545
11.185,2.0,1.0,1.0,34.9,34.9,34.9,2.6,2.3,2.5925,0.26879287468300217,-0.05465582776391205,0.9407734859107313,-0.0018392120814274503,-0.1895,-25.242355
11.185,2.0,1.0,1.0,34.9,34.9,34.9,2.6,2.3,2.595,0.25717677839146924,-0.05588410895139433,0.9434964008401278,-0.002595334215924806,-0.193943,-25.044877
11.185,2.0,1.0,1.0,34.9,34.9,34.9,2.6,2.3,2.5975,0.2454128788579684,-0.05714571259907512,0.9460866582610955,-0.003393580127007017,-0.198568,-24.845038
11.185,2.0,1.0,1.0,34.9,34.9,34.9,2.6,2.3,2.6,0.23349939194237196,-0.05844179683509466,0.9485391017184865,-0.004236460996105898,-0.203386,-24.642767
11.185,2.0,1.0,1.0,34.9,34.9,34.9,2.6,2.3,2.6025,0.22143450993520014,-0.059773566042755674,0.9508483248926528,-0.005126671124226726,-0.208407,-24.437986
11.185,2.0,1.0,1.0,34.9,34.9,34.9,2.6,2.3,2.605,0.20921640184170098,-0.061142272197521184,0.9530086538120768,-0.0060671042315040575,-0.213644,-24.230615
11.185,2.0,1.0,1.0,34.9,34.9,34.9,2.6,2.3,2.6075,0.19684321387343695,-0.06254921606607443,0.9550141273181587,-0.007060871480253463,-0.219112,-24.02057
11.185,2.0,1.0,1.0,34.9,34.9,34.9,2.6,2.3,2.61,0.18431307020179433,-0.06399574821520702,0.9568584755712185,-0.008111321432036071,-0.224824,-23.807763
11.185,2.0,1.0,1.0,34.9,34.9,34.9,2.6,2.3,2.6125,0.1716240740403971,-0.06548326976570812,0.9585350963576637,-0.009222062178264878,-0.230797,-23.592101
11.185,2.0,1.0,1.0,34.9,34.9,34.9,2.6,2.3,2.615,0.15877430913895077,-0.06701323281094404,0.9600370289247088,-0.010396985917305613,-0.237049,-23.373488
11.185,2.0,1.0,1.0,34.9,34.9,34.9,2.6,2.3,2.6175,0.1457618417901123,-0.0685871404007663,0.961356925030317,-0.011640296289590686,-0.243598,-23.151822
11.185,2.0,1.0,1.0,34.9,34.9,34.9,2.6,2.3,2.62,0.1325847234744498,-0.07020654596791708,0.9624870168512747,-0.012956538826834563,-0.250464,-22.926998
11.185,2.0,1.0,1.0,34.9,34.9,34.9,2.6,2.3,2.6225,0.11924099429752451,-0.07187305204514961,0.963419081340496,-0.01435063492300444,-0.257671,-22.698902
11.185,2.0,1.0,1.0,34.9,34.9,34.9,2.6,2.3,2.625,0.105728687408956,-0.073588308085514,0.964144400564662,-0.0158279197944364,-0.265244,-22.467417
11.185,2.0,1.0,1.0,34.9,34.9,34.9,2.6,2.3,2.6275,0.09204583463751415,-0.07535400715402213,0.9646537174836198,-0.017394184965790482,-0.273209,-22.232419
11.185,2.0,1.0,1.0,34.9,34.9,34.9,2.6,2.3,2.63,0.07819047363125009,-0.07717188120403932,0.9649371865521277,-0.019055725898999964,-0.281596,-21.993778
11.185,2.0,1.0,1.0,34.9,34.9,34.9,2.6,2.3,2.6325,0.06416065685975411,-0.0790436945836587,0.9649843184304774,-0.020819395475904477,-0.290438,-21.751356
11.185,2.0,1.0,1.0,34.9,34.9,34.9,2.6,2.3,2.635,0.049954462920470705,-0.08097123533254712,0.9647839179811382,-0.022692664154056828,-0.299771,-21.505009
11.185,2.0,1.0,1.0,34.9,34.9,34.9,2.6,2.3,2.6375,0.035570010696761745,-0.08295630372406698,0.9643240146012091,-0.024683687741837202,-0.309635,-21.254583
11.185,2.0,1.0,1.0,34.9,34.9,34.9,2.6,2.3,2.64,0.021005477047574335,-0.08500069737537538,0.9635917837921432,-0.02680138388646941,-0.320075,-20.999918
11.185,2.0,1.0,1.0,34.9,34.9,34.9,2.6,2.3,2.6425,0.006259118874286304,-0.08710619208268978,0.9625734586954829,-0.02905551854021914,-0.331139,-20.740842
11.185,2.0,1.0,1.0,34.9,34.9,34.9,2.6,2.3,2.645,-0.008670699381648368,-0.08927451733102709,0.9612542301222784,-0.03145680386988112,-0.342881,-20.477177
11.185,2.0,1.0,1.0,34.9,34.9,34.9,2.6,2.3,2.6475,-0.023785471494536144,-0.09150732516593267,0.9596181333700345,-0.03401700930699232,-0.355364,-20.20873
11.185,2.0,1.0,1.0,34.9,34.9,34.9,2.6,2.3,2.65,-0.03908650681706929,-0.09380615078414903,0.9576479198495489,-0.03674908770589287,-0.368654,-19.935301
11.185,2.0,1.0,1.0,34.9,34.9,34.9,2.6,2.3,2.6525,-0.054574877183854086,-0.09617236278158943,0.955324911229629,-0.03966731888894116,-0.382828,-19.656676
11.185,2.0,1.0,1.0,34.9,34.9,34.9,2.6,2.3,2.655,-0.0702513507577009,-0.09860710046545389,0.9526288334450163,-0.042787473218253574,-0.397971,-19.372628
11.185,2.0,1.0,1.0,34.9,34.9,34.9,2.6,2.3,2.6575,-0.08611630954237068,-0.10111119496034499,0.9495376274967599,-0.04612699824623459,-0.414181,-19.082918
11.185,2.0,1.0,1.0,34.9,34.9,34.9,2.6,2.3,2.66,-0.10216964641930965,-0.10368506997353583,0.946027233500621,-0.04970523196700541,-0.431566,-18.78729
11.185,2.0,1.0,1.0,34.9,34.9,34.9,2.6,2.3,2.6625,-0.11841063645589577,-0.10632861697666192,0.9420713439058297,-0.05354364671946508,-0.450249,-18.485475
11.185,2.0,1.0,1.0,34.9,34.9,34.9,2.6,2.3,2.665,-0.13483777580633877,-0.10904103813754482,0.9376411212156753,-0.05766612837792526,-0.470371,-18.177186
11.185,2.0,1.0,1.0,34.9,34.9,34.9,2.6,2.3,2.6675,-0.15144857968775047,-0.11182064850121534,0.9327048749023344,-0.062099296098567125,-0.492093,-17.862119
11.185,2.0,1.0,1.0,34.9,34.9,34.9,2.6,2.3,2.67,-0.16823932853755177,-0.11466462654817207,0.9272276915421089,-0.06687286854792368,-0.515598,-17.539952
11.185,2.0,1.0,1.0,34.9,34.9,34.9,2.6,2.3,2.6725,-0.18520474837848638,-0.11756869918541205,0.9211710115451355,-0.07202008318175582,-0.541097,-17.210341
11.185,2.0,1.0,1.0,34.9,34.9,34.9,2.6,2.3,2.675,-0.20233760741619122,-0.12052674323460762,0.9144921452883477,-0.07757817569592633,-0.568834,-16.872924
11.185,2.0,1.0,1.0,34.9,34.9,34.9,2.6,2.3,2.6775,-0.21962820568509783,-0.1235302802864676,0.9071437211055403,-0.08358892711132968,-0.599089,-16.527317
11.185,2.0,1.0,1.0,34.9,34.9,34.9,2.6,2.3,2.68,-0.23706372776550894,-0.12656783501662178,0.8990730576469548,-0.09009928587905143,-0.632191,-16.173113
11.185,2.0,1.0,1.0,34.9,34.9,34.9,2.6,2.3,2.6825,-0.25462741972856284,-0.12962411821861045,0.8902214539210492,-0.09716207157118259,-0.668523,-15.809885
11.185,2.0,1.0,1.0,34.9,34.9,34.9,2.6,2.3,2.685,-0.27229753989354066,-0.13267898427382896,0.880523392395924,-0.1048367646339451,-0.708533,-15.437181
11.185,2.0,1.0,1.0,34.9,34.9,34.9,2.6,2.3,2.6875,-0.29004601789749246,-0.13570609774438164,0.8699056546931336,-0.1131903824971985,-0.75275,-15.054529
11.185,2.0,1.0,1.0,34.9,34.9,34.9,2.6,2.3,2.69,-0.3078367369768392,-0.1386712242446557,0.8582863569467395,-0.12229843476411269,-0.801801,-14.661439
11.185,2.0,1.0,1.0,34.9,34.9,34.9,2.6,2.3,2.6925,-0.3256233290407838,-0.14153003552506188,0.8455739248429595,-0.13224593723112552,-0.856432,-14.257402
11.185,2.0,1.0,1.0,34.9,34.9,34.9,2.6,2.3,2.695,-0.34334633972613954,-0.1442252864468348,0.8316660498270518,-0.14312844298857524,-0.917536,-13.8419
11.185,2.0,1.0,1.0,34.9,34.9,34.9,2.6,2.3,2.6975,-0.36092957983919965,-0.14668318093128607,0.8164487027785751,-0.15505301401951746,-0.986187,-13.414411
11.185,2.0,1.0,1.0,34.9,34.9,34.9,2.6,2.3,2.7,-0.37827542953771265,-0.14880869417623085,0.799795336970683,-0.1681390012050977,-1.063687,-12.974424
11.185,2.0,1.0,1.0,34.9,34.9,34.9,2.6,2.3,2.7025,-0.39525880276661046,-0.1504795599549465,0.7815664994615519,-0.1825184133659254,-1.151618,-12.52145
11.185,2.0,1.0,1.0,34.9,34.9,34.9,2.6,2.3,2.705,-0.411719415493628,-0.1515385683428475,0.7616102057523141,-0.19833552042707356,-1.251919,-12.055056
11.185,2.0,1.0,1.0,34.9,34.9,34.9,2.6,2.3,2.7075,-0.42745194253022023,-0.1517837611306911,0.7397636405783963,-0.21574512807059826,-1.366977,-11.574889
11.185,2.0,1.0,1.0,34.9,34.9,34.9,2.6,2.3,2.71,-0.442193617642482,-0.15095608299815247,0.7158570615339296,-0.2349086480041632,-1.49975,-11.080735
11.185,2.0,1.0,1.0,34.9,34.9,34.9,2.6,2.3,2.7125,-0.45560887834970065,-0.14872409436204778,0.6897212453930048,-0.2559866259030556,-1.653919,-10.572579
11.185,2.0,1.0,1.0,34.9,34.9,34.9,2.6,2.3,2.715,-0.46727087239781556,-0.1446655687809425,0.6612004788463709,-0.27912572915204864,-1.834087,-10.050703
11.185,2.0,1.0,1.0,34.9,34.9,34.9,2.6,2.3,2.7175,-0.4766401940343832,-0.13824635038418967,0.6301739940572318,-0.3044373011124072,-2.046031,-9.51581
11.185,2.0,1.0,1.0,34.9,34.9,34.9,2.6,2.3,2.72,-0.48304238818495226,-0.12879801779888755,0.5965898656462756,-0.3319634778640761,-2.297008,-8.969195
11.185,2.0,1.0,1.0,34.9,34.9,34.9,2.6,2.3,2.7225,-0.4856479920491991,-0.11549813191651644,0.5605165371422035,-0.3616257205859323,-2.596114,-8.412969
11.185,2.0,1.0,1.0,34.9,34.9,34.9,2.6,2.3,2.725,-0.48346277716329056,-0.09736073373370589,0.5222177754769659,-0.39314999916810744,-2.954654,-7.850343
11.185,2.0,1.0,1.0,34.9,34.9,34.9,2.6,2.3,2.7275,-0.47534200141731225,-0.07325089136293897,0.48225567269726094,-0.42596405971592455,-3.386412,-7.285974
11.185,2.0,1.0,1.0,34.9,34.9,34.9,2.6,2.3,2.73,-0.4600508619155551,-0.04194544583011532,0.4416208415819492,-0.45906770063112917,-3.907517,-6.726358
11.185,2.0,1.0,1.0,34.9,34.9,34.9,2.6,2.3,2.7325,-0.436401884775858,-0.002270590686657367,0.40187532462150577,-0.4908906193828403,-4.535186,-6.180212
11.185,2.0,1.0,1.0,34.9,34.9,34.9,2.6,2.3,2.735,-0.4035020430703154,0.04665112199416244,0.365267965778332,-0.5191781342968843,-5.283642,-5.658748
11.185,2.0,1.0,1.0,34.9,34.9,34.9,2.6,2.3,2.7375,-0.3611242885044348,0.10502998278206753,0.33474486733963904,-0.5409820930816788,-6.153512,-5.175653
11.185,2.0,1.0,1.0,34.9,34.9,34.9,2.6,2.3,2.74,-0.310161912671474,0.17195649837677066,0.3137448047582376,-0.5528667538378605,-7.107764,-4.746562
11.185,2.0,1.0,1.0,34.9,34.9,34.9,2.6,2.3,2.7425,-0.253024630561634,0.24500824044441274,0.3056816839368516,-0.551426791412837,-8.028222,-4.387787
11.185,2.0,1.0,1.0,34.9,34.9,34.9,2.6,2.3,2.745,-0.1937346637893628,0.3201574340365406,0.3131263489314948,-0.534104040721619,-8.678004,-4.114281
11.185,2.0,1.0,1.0,34.9,34.9,34.9,2.6,2.3,2.7475,-0.13748670911919494,0.39221389998249745,0.33691210294334617,-0.5000778779086466,-8.780715,-3.937158
11.185,2.0,1.0,1.0,34.9,34.9,34.9,2.6,2.3,2.75,-0.0896484598105887,0.455824549254263,0.375577188579532,-0.450816681194439,-8.265367,-3.861458
11.185,2.0,1.0,1.0,34.9,34.9,34.9,2.6,2.3,2.7525,-0.054531240719653526,0.5066986581107642,0.4255092077838299,-0.3899279198117848,-7.351073,-3.885026
11.185,2.0,1.0,1.0,34.9,34.9,34.9,2.6,2.3,2.755,-0.03447270004212628,0.5425182342895886,0.4818029031879733,-0.3222984317114995,-6.320436,-3.998962
11.185,2.0,1.0,1.0,34.9,34.9,34.9,2.6,2.3,2.7575,-0.029614155816838534,0.563154136644142,0.5394335562065453,-0.2529236891379667,-5.348171,-4.189463
11.185,2.0,1.0,1.0,34.9,34.9,34.9,2.6,2.3,2.76,-0.038343676402779504,0.5702197105357206,0.5942282629907761,-0.18594205959276555,-4.502889,-4.440294
11.185,2.0,1.0,1.0,34.9,34.9,34.9,2.6,2.3,2.7625,-0.058063402627169886,0.5663039622001894,0.6433405884460505,-0.12416564012622455,-3.795948,-4.735092
11.185,2.0,1.0,1.0,34.9,34.9,34.9,2.6,2.3,2.765,-0.08591651885877875,0.5542474135653599,0.6852506402832297,-0.06908364699600943,-3.215271,-5.058973
11.185,2.0,1.0,1.0,34.9,34.9,34.9,2.6,2.3,2.7675,-0.11927827232992974,0.5366543745137483,0.7194882176273623,-0.021140392984193953,-2.741777,-5.399372
11.185,2.0,1.0,1.0,34.9,34.9,34.9,2.6,2.3,2.77,-0.1559911270097432,0.5156603761204558,0.7462791871310306,0.01991157754364414,-2.356252,-5.746254
11.185,2.0,1.0,1.0,34.9,34.9,34.9,2.6,2.3,2.7725,-0.19441453948800738,0.4928839465097416,0.7662358384130334,0.05470304986042669,-2.041795,-6.091938
11.185,2.0,1.0,1.0,34.9,34.9,34.9,2.6,2.3,2.775,-0.23337357399211775,0.46947867390591635,0.7801339587259977,0.08402651328880745,-1.784392,-6.430746
11.185,2.0,1.0,1.0,34.9,34.9,34.9,2.6,2.3,2.7775,-0.27206888307207105,0.4462233355642234,0.7887735270442787,0.10869795579120674,-1.572752,-6.758606
11.185,2.0,1.0,1.0,34.9,34.9,34.9,2.6,2.3,2.78,-0.30998373659703504,0.423614675013717,0.7929026966562067,0.12948167580370432,-1.39791,-7.07268
11.185,2.0,1.0,1.0,34.9,34.9,34.9,2.6,2.3,2.7825,-0.3468039443844352,0.40194715663127945,0.7931834013836182,0.14705647978792818,-1.252788,-7.371051
11.185,2.0,1.0,1.0,34.9,34.9,34.9,2.6,2.3,2.785,-0.3823550637961155,0.38137540100806266,0.7901815758715903,0.16200632141783525,-1.13181,-7.652468
11.185,2.0,1.0,1.0,34.9,34.9,34.9,2.6,2.3,2.7875,-0.4165558765649173,0.3619603586114069,0.7843704774218005,0.1748239332263792,-1.030574,-7.916159
11.185,2.0,1.0,1.0,34.9,34.9,34.9,2.6,2.3,2.79,-0.44938518807217903,0.34370218004851744,0.7761400355381112,0.18592042697189998,-0.945601,-8.161678
11.185,2.0,1.0,1.0,34.9,34.9,34.9,2.6,2.3,2.7925,-0.48085875779463444,0.3265629704275874,0.765808212472108,0.19563688225229545,-0.874127,-8.388802
11.185,2.0,1.0,1.0,34.9,34.9,34.9,2.6,2.3,2.795,-0.5110135957765124,0.3104821822181743,0.75363227566081,0.2042558496330918,-0.813949,-8.597446
11.185,2.0,1.0,1.0,34.9,34.9,34.9,2.6,2.3,2.7975,-0.5398974579246769,0.2953868001737796,0.7398190070391857,0.21201181124668303,-0.763305,-8.787608
11.185,2.0,1.0,1.0,34.9,34.9,34.9,2.6,2.3,2.8,-0.5675619326543817,0.2811979108289174,0.7245334944478999,0.21910025755055246,-0.72078,-8.959324
11.185,2.0,1.0,1.0,34.9,34.9,34.9,2.6,2.3,2.8025,-0.5940579652756222,0.2678347941324091,0.7079064697428143,0.22568535594629677,-0.685236,-9.112639
11.185,2.0,1.0,1.0,34.9,34.9,34.9,2.6,2.3,2.805,-0.6194330088128306,0.25521733090273785,0.6900403065342012,0.23190633441106742,-0.655759,-9.247581
11.185,2.0,1.0,1.0,34.9,34.9,34.9,2.6,2.3,2.8075,-0.643729237330995,0.24326726992938993,0.6710138460566071,0.23788275904087305,-0.631612,-9.364146
11.185,2.0,1.0,1.0,34.9,34.9,34.9,2.6,2.3,2.81,-0.6669824316400534,0.23190872103023683,0.6508862277816683,0.24371889343868297,-0.61221,-9.462282
11.185,2.0,1.0,1.0,34.9,34.9,34.9,2.6,2.3,2.8125,-0.689221266701894,0.221068115629148,0.629699887266024,0.249507315238909,-0.597087,-9.541882
11.185,2.0,1.0,1.0,34.9,34.9,34.9,2.6,2.3,2.815,-0.7104668103646039,0.2106737888003167,0.6074828608889247,0.25533194412972743,-0.585887,-9.602772
11.185,2.0,1.0,1.0,34.9,34.9,34.9,2.6,2.3,2.8175,-0.7307320953730146,0.20065527444148215,0.584250512466892,0.26127061329348955,-0.578341,-9.644707
11.185,2.0,1.0,1.0,34.9,34.9,34.9,2.6,2.3,2.82,-0.7500216587664814,0.19094235960205735,0.5600067734984528,0.2673972953591826,-0.574265,-9.667359
11.185,2.0,1.0,1.0,34.9,34.9,34.9,2.6,2.3,2.8225,-0.7683309599516397,0.1814639085931675,0.534744968364426,0.27378407589923576,-0.573548,-9.670314
11.185,2.0,1.0,1.0,34.9,34.9,34.9,2.6,2.3,2.825,-0.7856455940699164,0.17214643745723726,0.508448278670263,0.28050295228853506,-0.576156,-9.653062
11.185,2.0,1.0,1.0,34.9,34.9,34.9,2.6,2.3,2.8275,-0.8019402122829232,0.16291239067751703,0.4810898872479265,0.2876275228397406,-0.582126,-9.614989
11.185,2.0,1.0,1.0,34.9,34.9,34.9,2.6,2.3,2.83,-0.8171770453876424,0.15367804101075616,0.45263283241170094,0.29523461953458685,-0.591575,-9.55537
