1,w,sub_t,h,l1,l2,l3,g1,g2,Freq,S11_re,S21_re,S11_img,S21_img,S11_dB,S21_dB
11.185,2.0,1.0,1.0,33.1,34.8,34.8,2.4,4.1,2.5,0.884540992842494,-0.00683088675900165,0.451925394128851,0.00624342432293301,-0.058372,-40.673164
11.185,2.0,1.0,1.0,33.1,34.8,34.8,2.4,4.1,2.5025,0.8816027186320063,-0.00699136824020133,0.4574718404026127,0.006295992015159871,-0.059012,-40.529648
11.185,2.0,1.0,1.0,33.1,34.8,34.8,2.4,4.1,2.505,0.8786158893305747,-0.007155632108290052,0.4630218948143333,0.006348659478994508,-0.059667,-40.385383
11.185,2.0,1.0,1.0,33.1,34.8,34.8,2.4,4.1,2.5075,0.8755799459073527,-0.00732379420748281,0.4685754382568643,0.006401415265870535,-0.060336,-40.240351
11.185,2.0,1.0,1.0,33.1,34.8,34.8,2.4,4.1,2.51,0.8724943162313143,-0.007495975161206668,0.4741323472726751,0.006454247090660871,-0.06102,-40.094527
11.185,2.0,1.0,1.0,33.1,34.8,34.8,2.4,4.1,2.5125,0.8693584146325248,-0.0076723006193037836,0.47969249386681523,0.006507141771764893,-0.06172,-39.947891
11.185,2.0,1.0,1.0,33.1,34.8,34.8,2.4,4.1,2.515,0.8661716414423137,-0.007852901520610306,0.4852557453106738,0.006560085166484259,-0.062436,-39.800418
11.185,2.0,1.0,1.0,33.1,34.8,34.8,2.4,4.1,2.5175,0.862933382511015,-0.008037914372029067,0.4908219639359331,0.006613062101272949,-0.063168,-39.652085
11.185,2.0,1.0,1.0,33.1,34.8,34.8,2.4,4.1,2.52,0.8596430087018079,-0.008227481545308406,0.4963910069180807,0.006666056296403764,-0.063918,-39.502869
11.185,2.0,1.0,1.0,33.1,34.8,34.8,2.4,4.1,2.5225,0.8562998753591098,-0.008421751592840105,0.5019627260487665,0.006719050284550756,-0.064685,-39.352743
11.185,2.0,1.0,1.0,33.1,34.8,34.8,2.4,4.1,2.525,0.8529033217498085,-0.008620879583902315,0.5075369674962603,0.0067720253227337105,-0.065471,-39.201682
11.185,2.0,1.0,1.0,33.1,34.8,34.8,2.4,4.1,2.5275,0.8494526704755212,-0.008825027462894895,0.5131135715531797,0.006824961297017872,-0.066275,-39.04966
11.185,2.0,1.0,1.0,33.1,34.8,34.8,2.4,4.1,2.53,0.8459472268538929,-0.009034364431248998,0.5186923723705863,0.0068778366192967415,-0.0671,-38.89665
11.185,2.0,1.0,1.0,33.1,34.8,34.8,2.4,4.1,2.5325,0.8423862782667986,-0.009249067354840046,0.5242731976774758,0.006930628115417703,-0.067944,-38.742623
11.185,2.0,1.0,1.0,33.1,34.8,34.8,2.4,4.1,2.535,0.8387690934731195,-0.009469321198895212,0.5298558684845973,0.006983310903833291,-0.06881,-38.587551
11.185,2.0,1.0,1.0,33.1,34.8,34.8,2.4,4.1,2.5375,0.8350949218835886,-0.00969531949256425,0.5354401987714219,0.007035858263872473,-0.069697,-38.431405
11.185,2.0,1.0,1.0,33.1,34.8,34.8,2.4,4.1,2.54,0.8313629927949588,-0.009927264825518953,0.5410259951549976,0.0070882414926307655,-0.070607,-38.274153
11.185,2.0,1.0,1.0,33.1,34.8,34.8,2.4,4.1,2.5425,0.8275725145805325,-0.01016536937916202,0.5466130565392842,0.00714042974937035,-0.071541,-38.115765
11.185,2.0,1.0,1.0,33.1,34.8,34.8,2.4,4.1,2.545,0.823722673833813,-0.010409855495264651,0.5522011737434306,0.007192389886198122,-0.072498,-37.956207
11.185,2.0,1.0,1.0,33.1,34.8,34.8,2.4,4.1,2.5475,0.8198126344617731,-0.010660956285114813,0.5577901291073067,0.007244086263655321,-0.073482,-37.795447
11.185,2.0,1.0,1.0,33.1,34.8,34.8,2.4,4.1,2.55,0.8158415367238818,-0.010918916282549795,0.563379696072441,0.007295480549698222,-0.074491,-37.633449
11.185,2.0,1.0,1.0,33.1,34.8,34.8,2.4,4.1,2.5525,0.8118084962127349,-0.01118399214456618,0.5689696387362964,0.0073465315003800975,-0.075528,-37.470179
11.185,2.0,1.0,1.0,33.1,34.8,34.8,2.4,4.1,2.555,0.8077126027716901,-0.01145645340355942,0.5745597113776435,0.007397194720346688,-0.076593,-37.305599
11.185,2.0,1.0,1.0,33.1,34.8,34.8,2.4,4.1,2.5575,0.8035529193445252,-0.011736583275637785,0.5801496579505265,0.007447422401044659,-0.077687,-37.139671
11.185,2.0,1.0,1.0,33.1,34.8,34.8,2.4,4.1,2.56,0.799328480751644,-0.012024679529894838,0.5857392115440444,0.007497163034292965,-0.078812,-36.972355
11.185,2.0,1.0,1.0,33.1,34.8,34.8,2.4,4.1,2.5625,0.795038292386837,-0.0123210554240118,0.591328093804894,0.00754636109858989,-0.07997,-36.803611
11.185,2.0,1.0,1.0,33.1,34.8,34.8,2.4,4.1,2.565,0.7906813288280105,-0.012626040712102882,0.5969160143192566,0.007594956715213695,-0.08116,-36.633396
11.185,2.0,1.0,1.0,33.1,34.8,34.8,2.4,4.1,2.5675,0.7862565323546779,-0.012939982731320044,0.6025026699502357,0.007642885270818684,-0.082386,-36.461667
11.185,2.0,1.0,1.0,33.1,34.8,34.8,2.4,4.1,2.57,0.7817628113642544,-0.013263247574407491,0.608087744126627,0.007690077002821057,-0.083647,-36.288379
11.185,2.0,1.0,1.0,33.1,34.8,34.8,2.4,4.1,2.5725,0.7771990386784158,-0.013596221356146874,0.6136709060782929,0.007736456543412191,-0.084947,-36.113483
11.185,2.0,1.0,1.0,33.1,34.8,34.8,2.4,4.1,2.575,0.772564049729887,-0.013939311582475222,0.6192518100128784,0.007781942417507136,-0.086286,-35.936931
11.185,2.0,1.0,1.0,33.1,34.8,34.8,2.4,4.1,2.5775,0.7678566406190144,-0.014292948631996821,0.6248300942279492,0.007826446489344208,-0.087666,-35.758674
11.185,2.0,1.0,1.0,33.1,34.8,34.8,2.4,4.1,2.58,0.7630755660283804,-0.01465758736066493,0.6304053801519238,0.007869873351761623,-0.08909,-35.578656
11.185,2.0,1.0,1.0,33.1,34.8,34.8,2.4,4.1,2.5825,0.7582195369824412,-0.015033708841591885,0.6359772713063527,0.00791211965140131,-0.090559,-35.396825
11.185,2.0,1.0,1.0,33.1,34.8,34.8,2.4,4.1,2.585,0.7532872184377882,-0.0154218222532743,0.6415453521811453,0.007953073342188576,-0.092075,-35.213124
11.185,2.0,1.0,1.0,33.1,34.8,34.8,2.4,4.1,2.5875,0.7482772266880482,-0.01582246693101637,0.6471091870132781,0.007992612858411494,-0.093641,-35.027491
11.185,2.0,1.0,1.0,33.1,34.8,34.8,2.4,4.1,2.59,0.7431881265656636,-0.016236214598018175,0.652668318458273,0.008030606197536176,-0.095259,-34.839868
11.185,2.0,1.0,1.0,33.1,34.8,34.8,2.4,4.1,2.5925,0.7380184284208005,-0.016663671794498566,0.6582222661423323,0.008066909901533373,-0.096932,-34.650187
11.185,2.0,1.0,1.0,33.1,34.8,34.8,2.4,4.1,2.595,0.7327665848553887,-0.017105482525369003,0.6637705250813539,0.008101367923913798,-0.098663,-34.458384
11.185,2.0,1.0,1.0,33.1,34.8,34.8,2.4,4.1,2.5975,0.7274309871877291,-0.017562331149408358,0.6693125639511966,0.008133810367848935,-0.100454,-34.264388
11.185,2.0,1.0,1.0,33.1,34.8,34.8,2.4,4.1,2.6,0.7220099616202545,-0.018034945535643013,0.6748478231913546,0.008164052078641614,-0.102308,-34.068125
11.185,2.0,1.0,1.0,33.1,34.8,34.8,2.4,4.1,2.6025,0.7165017650797504,-0.01852410051576551,0.6803757129216816,0.008191891071354953,-0.10423,-33.869521
11.185,2.0,1.0,1.0,33.1,34.8,34.8,2.4,4.1,2.605,0.710904580695635,-0.01903062166498222,0.6858956106488705,0.008217106771554692,-0.106222,-33.668494
11.185,2.0,1.0,1.0,33.1,34.8,34.8,2.4,4.1,2.6075,0.705216512877701,-0.019555389447729984,0.6914068587359605,0.008239458043785355,-0.108289,-33.464962
11.185,2.0,1.0,1.0,33.1,34.8,34.8,2.4,4.1,2.61,0.6994355819499156,-0.020099343769320495,0.696908761604152,0.0082586809785051,-0.110435,-33.258837
11.185,2.0,1.0,1.0,33.1,34.8,34.8,2.4,4.1,2.6125,0.6935597182914011,-0.02066348897984971,0.7024005826315414,0.00827448640363811,-0.112664,-33.050029
11.185,2.0,1.0,1.0,33.1,34.8,34.8,2.4,4.1,2.615,0.6875867559294713,-0.021248899382746628,0.707881540707905,0.008286557081538318,-0.114982,-32.838441
11.185,2.0,1.0,1.0,33.1,34.8,34.8,2.4,4.1,2.6175,0.6815144255224447,-0.021856725307256967,0.7133508063981983,0.008294544545842041,-0.117393,-32.623972
11.185,2.0,1.0,1.0,33.1,34.8,34.8,2.4,4.1,2.62,0.6753403466617363,-0.02248819981210492,0.718807497659858,0.008298065525228025,-0.119904,-32.406517
11.185,2.0,1.0,1.0,33.1,34.8,34.8,2.4,4.1,2.6225,0.6690620194133036,-0.023144646096715238,0.7242506750500018,0.008296697892275174,-0.12252,-32.185966
11.185,2.0,1.0,1.0,33.1,34.8,34.8,2.4,4.1,2.625,0.662676815007692,-0.0238274857069054,0.729679336347956,0.00828997606513028,-0.125248,-31.962202
11.185,2.0,1.0,1.0,33.1,34.8,34.8,2.4,4.1,2.6275,0.6561819655753713,-0.02453824763411354,0.7350924105059011,0.008277385777225461,-0.128096,-31.735101
11.185,2.0,1.0,1.0,33.1,34.8,34.8,2.4,4.1,2.63,0.6495745528096559,-0.025278578421271524,0.7404887508253083,0.008258358115399118,-0.131071,-31.504534
11.185,2.0,1.0,1.0,33.1,34.8,34.8,2.4,4.1,2.6325,0.6428514954227519,-0.026050253404704748,0.7458671272387876,0.008232262708953322,-0.134182,-31.270366
11.185,2.0,1.0,1.0,33.1,34.8,34.8,2.4,4.1,2.635,0.6360095352411195,-0.0268551892403111,0.7512262175553104,0.008198399930777618,-0.137439,-31.032451
11.185,2.0,1.0,1.0,33.1,34.8,34.8,2.4,4.1,2.6375,0.6290452217638439,-0.027695457884201333,0.7565645975006672,0.008155991945891523,-0.140852,-30.790639
11.185,2.0,1.0,1.0,33.1,34.8,34.8,2.4,4.1,2.64,0.6219548949815346,-0.02857330222350905,0.7618807293535762,0.008104172411598129,-0.144432,-30.544767
11.185,2.0,1.0,1.0,33.1,34.8,34.8,2.4,4.1,2.6425,0.6147346662228299,-0.029491153582828982,0.7671729489396432,0.008041974595658108,-0.148192,-30.294665
11.185,2.0,1.0,1.0,33.1,34.8,34.8,2.4,4.1,2.645,0.6073803967600051,-0.030451651366482802,0.7724394506990058,0.007968317632913445,-0.152146,-30.040152
11.185,2.0,1.0,1.0,33.1,34.8,34.8,2.4,4.1,2.6475,0.5998876738636614,-0.03145766513742111,0.7776782704868264,0.007881990584632495,-0.156308,-29.781038
11.185,2.0,1.0,1.0,33.1,34.8,34.8,2.4,4.1,2.65,0.5922517839478516,-0.03251231948111035,0.7828872656964111,0.007781633896004141,-0.160696,-29.517118
11.185,2.0,1.0,1.0,33.1,34.8,34.8,2.4,4.1,2.6525,0.5844676823901178,-0.033619022058452526,0.7880640922093236,0.007665717762485485,-0.165327,-29.248175
11.185,2.0,1.0,1.0,33.1,34.8,34.8,2.4,4.1,2.655,0.5765299595441276,-0.03478149531711812,0.7932061775714747,0.0075325168110207535,-0.170223,-28.973978
11.185,2.0,1.0,1.0,33.1,34.8,34.8,2.4,4.1,2.6575,0.5684328023843763,-0.03600381240731067,0.7983106896633309,0.007380080372254949,-0.175407,-28.694282
11.185,2.0,1.0,1.0,33.1,34.8,34.8,2.4,4.1,2.66,0.5601699511305649,-0.03729043793791462,0.803374499969519,0.00720619745800729,-0.180904,-28.408824
11.185,2.0,1.0,1.0,33.1,34.8,34.8,2.4,4.1,2.6625,0.5517346500916128,-0.038646274314435854,0.8083941403492232,0.00700835535566261,-0.186743,-28.117322
11.185,2.0,1.0,1.0,33.1,34.8,34.8,2.4,4.1,2.665,0.543119591843116,-0.04007671452366569,0.8133657519525169,0.006783690496371482,-0.192956,-27.819475
11.185,2.0,1.0,1.0,33.1,34.8,34.8,2.4,4.1,2.6675,0.5343168537046925,-0.04158770237432678,0.8182850246040082,0.006528929932036221,-0.19958,-27.514961
11.185,2.0,1.0,1.0,33.1,34.8,34.8,2.4,4.1,2.67,0.5253178253119284,-0.0431858013710047,0.8231471245641793,0.00624032134729039,-0.206656,-27.203433
11.185,2.0,1.0,1.0,33.1,34.8,34.8,2.4,4.1,2.6725,0.5161131258787537,-0.04487827359321012,0.8279466080542817,0.005913549010955038,-0.214231,-26.884518
11.185,2.0,1.0,1.0,33.1,34.8,34.8,2.4,4.1,2.675,0.5066925095175067,-0.04667317017476103,0.8326773172576833,0.005543632401999108,-0.222358,-26.557813
11.185,2.0,1.0,1.0,33.1,34.8,34.8,2.4,4.1,2.6775,0.49704475672438964,-0.04857943523189778,0.8373322546424025,0.0051248033813060985,-0.231098,-26.222886
11.185,2.0,1.0,1.0,33.1,34.8,34.8,2.4,4.1,2.68,0.4871575498486628,-0.050607025370239166,0.8419034303231345,0.004650356659837517,-0.24052,-25.879266
11.185,2.0,1.0,1.0,33.1,34.8,34.8,2.4,4.1,2.6825,0.47701733005040253,-0.052767047204868855,0.846381675710986,0.004112466851116752,-0.250706,-25.526445
11.185,2.0,1.0,1.0,33.1,34.8,34.8,2.4,4.1,2.685,0.46660913292758044,-0.05507191564042862,0.8507564147689259,0.0035019634755168515,-0.261748,-25.163871
11.185,2.0,1.0,1.0,33.1,34.8,34.8,2.4,4.1,2.6875,0.455916399686238,-0.0575355359509827,0.855015381640939,0.00280805274681005,-0.273755,-24.790944
11.185,2.0,1.0,1.0,33.1,34.8,34.8,2.4,4.1,2.69,0.44492076048870505,-0.06017351292082226,0.8591442700327335,0.0020179715988201856,-0.286855,-24.407011
11.185,2.0,1.0,1.0,33.1,34.8,34.8,2.4,4.1,2.6925,0.4336017865350078,-0.06300339036557547,0.8631262951860534,0.0011165548980467354,-0.301195,-24.011358
11.185,2.0,1.0,1.0,33.1,34.8,34.8,2.4,4.1,2.695,0.4219367076695271,-0.06604492408939433,0.866941643180971,8.569071337597941e-05,-0.316953,-23.603204
11.185,2.0,1.0,1.0,33.1,34.8,34.8,2.4,4.1,2.6975,0.40990009312763875,-0.0693203904781976,0.8705667740240967,-0.0010963697166368458,-0.334338,-23.181694
11.185,2.0,1.0,1.0,33.1,34.8,34.8,2.4,4.1,2.7,0.3974634949025128,-0.07285493102292505,0.8739735336958444,-0.002455891898534816,-0.3536,-22.745889
11.185,2.0,1.0,1.0,33.1,34.8,34.8,2.4,4.1,2.7025,0.3845950568923882,-0.07667692933714526,0.8771280148538178,-0.004024787844297756,-0.375043,-22.294756
11.185,2.0,1.0,1.0,33.1,34.8,34.8,2.4,4.1,2.705,0.3712590997898264,-0.08081841037343919,0.8799890845548392,-0.00584207684239604,-0.399032,-21.82716
11.185,2.0,1.0,1.0,33.1,34.8,34.8,2.4,4.1,2.7075,0.35741570381077603,-0.0853154393393934,0.8825064678244935,-0.007955787744754545,-0.426017,-21.341845
11.185,2.0,1.0,1.0,33.1,34.8,34.8,2.4,4.1,2.71,0.3430203326032521,-0.09020847650104767,0.8846182349147845,-0.01042545397815102,-0.45655,-20.83743
11.185,2.0,1.0,1.0,33.1,34.8,34.8,2.4,4.1,2.7125,0.32802357847664587,-0.09554260719792496,0.8862474832075251,-0.013325408948332989,-0.49132,-20.31239
11.185,2.0,1.0,1.0,33.1,34.8,34.8,2.4,4.1,2.715,0.31237117256615704,-0.10136750289527309,0.8872979261147796,-0.016749167477480568,-0.531189,-19.765045
11.185,2.0,1.0,1.0,33.1,34.8,34.8,2.4,4.1,2.7175,0.296004512938535,-0.10773685978193978,0.887647993926173,-0.020815285361395233,-0.577252,-19.193552
11.185,2.0,1.0,1.0,33.1,34.8,34.8,2.4,4.1,2.72,0.27886215244574014,-0.11470687292542514,0.8871429082807425,-0.02567523095851351,-0.63091,-18.595899
11.185,2.0,1.0,1.0,33.1,34.8,34.8,2.4,4.1,2.7225,0.26088301475260484,-0.122332978173002,0.8855840099190199,-0.031523982557904964,-0.693978,-17.969911
11.185,2.0,1.0,1.0,33.1,34.8,34.8,2.4,4.1,2.725,0.24201267302709023,-0.13066352974891338,0.8827144115910943,-0.03861426977561264,-0.76883,-17.31328
11.185,2.0,1.0,1.0,33.1,34.8,34.8,2.4,4.1,2.7275,0.22221500610379374,-0.13972810509222305,0.878199873165887,-0.0472755472600085,-0.858608,-16.623627
11.185,2.0,1.0,1.0,33.1,34.8,34.8,2.4,4.1,2.73,0.2014932338238976,-0.14951644970447586,0.8716038312779911,-0.057938747028417614,-0.967511,-15.89863
11.185,2.0,1.0,1.0,33.1,34.8,34.8,2.4,4.1,2.7325,0.1799271849079598,-0.15994123951817754,0.8623562277866673,-0.07116713563822825,-1.101203,-15.136268
11.185,2.0,1.0,1.0,33.1,34.8,34.8,2.4,4.1,2.735,0.15773827915547128,-0.1707732420997757,0.8497183100888657,-0.087691066874899,-1.26736,-14.335245
11.185,2.0,1.0,1.0,33.1,34.8,34.8,2.4,4.1,2.7375,0.1354005537845287,-0.18153067087791666,0.8327525395163439,-0.10843746283140425,-1.476359,-13.495752
11.185,2.0,1.0,1.0,33.1,34.8,34.8,2.4,4.1,2.74,0.11382396543282294,-0.19129673149343132,0.8103236750108159,-0.13452797412292092,-1.741973,-12.620745
11.185,2.0,1.0,1.0,33.1,34.8,34.8,2.4,4.1,2.7425,0.09463764045039776,-0.1984380754340222,0.7811940026965939,-0.16718303785406854,-2.081548,-11.718053
11.185,2.0,1.0,1.0,33.1,34.8,34.8,2.4,4.1,2.745,0.08056945137292659,-0.20022829900994113,0.744344137865295,-0.20740105382962157,-2.513937,-10.803646
11.185,2.0,1.0,1.0,33.1,34.8,34.8,2.4,4.1,2.7475,0.07578746902116024,-0.19251117598609244,0.6997381459347983,-0.2551955366718361,-3.05064,-9.906115
11.185,2.0,1.0,1.0,33.1,34.8,34.8,2.4,4.1,2.75,0.0857363334138176,-0.169869103859353,0.649729139541735,-0.308196936778891,-3.670382,-9.07136
11.185,2.0,1.0,1.0,33.1,34.8,34.8,2.4,4.1,2.7525,0.11553472035064591,-0.12722467956164873,0.6007764787971684,-0.35995017405521995,-4.268026,-8.363907
11.185,2.0,1.0,1.0,33.1,34.8,34.8,2.4,4.1,2.755,0.16625894903320743,-0.06354001848028633,0.5637358660761121,-0.3996407399687701,-4.616272,-7.858185
11.185,2.0,1.0,1.0,33.1,34.8,34.8,2.4,4.1,2.7575,0.23100952073989667,0.014284232402652848,0.5500582965777966,-0.4158925917130944,-4.48636,-7.615256
11.185,2.0,1.0,1.0,33.1,34.8,34.8,2.4,4.1,2.76,0.29584563790110463,0.09236679080648062,0.5646778522879541,-0.403841559222074,-3.910616,-7.65433
11.185,2.0,1.0,1.0,33.1,34.8,34.8,2.4,4.1,2.7625,0.34715149217577446,0.15718960397426987,0.6024441590860734,-0.36865658796095174,-3.156456,-7.942105
11.185,2.0,1.0,1.0,33.1,34.8,34.8,2.4,4.1,2.765,0.3784527264745058,0.2023645910728773,0.6523374067457258,-0.32131920699329625,-2.450629,-8.410424
11.185,2.0,1.0,1.0,33.1,34.8,34.8,2.4,4.1,2.7675,0.3906819343347714,0.22887225495066285,0.7042128414122587,-0.2719110559963805,-1.880578,-8.985343
11.185,2.0,1.0,1.0,33.1,34.8,34.8,2.4,4.1,2.77,0.3883660687159733,0.2412557437718904,0.7519994540625118,-0.2264451152254234,-1.44886,-9.606584
11.185,2.0,1.0,1.0,33.1,34.8,34.8,2.4,4.1,2.7725,0.3763419906490142,0.24435396967277415,0.7933010009893796,-0.18727495488503382,-1.129683,-10.232798
11.185,2.0,1.0,1.0,33.1,34.8,34.8,2.4,4.1,2.775,0.3583762423445705,0.24193387253959941,0.8278760477375978,-0.15461237028237054,-0.894758,-10.838779
11.185,2.0,1.0,1.0,33.1,34.8,34.8,2.4,4.1,2.7775,0.3370052948860061,0.23653614464082107,0.8564201447314436,-0.12773977741649992,-0.721022,-11.410612
11.185,2.0,1.0,1.0,33.1,34.8,34.8,2.4,4.1,2.78,0.31380514535693027,0.22974623830456484,0.8798912197319444,-0.10568037502441363,-0.591439,-11.941481
11.185,2.0,1.0,1.0,33.1,34.8,34.8,2.4,4.1,2.7825,0.28970378112383594,0.22250665756077728,0.8992111128203323,-0.0874937658886398,-0.493874,-12.428746
11.185,2.0,1.0,1.0,33.1,34.8,34.8,2.4,4.1,2.785,0.2652213326602759,0.21535657728689517,0.9151632391568532,-0.07237660847062151,-0.419782,-12.872087
11.185,2.0,1.0,1.0,33.1,34.8,34.8,2.4,4.1,2.7875,0.2406302749755006,0.20859159762259794,0.9283766655451554,-0.05967750816193656,-0.363131,-13.272386
11.185,2.0,1.0,1.0,33.1,34.8,34.8,2.4,4.1,2.79,0.21605567663622038,0.2023637445759678,0.9393422161882654,-0.04888018770427016,-0.319638,-13.631075
11.185,2.0,1.0,1.0,33.1,34.8,34.8,2.4,4.1,2.7925,0.19153598332597718,0.19674220072973708,0.9484368065988993,-0.03957853328085337,-0.286228,-13.949757
11.185,2.0,1.0,1.0,33.1,34.8,34.8,2.4,4.1,2.795,0.16705925075782843,0.19174965076641873,0.9559467863401263,-0.03145261690046635,-0.260676,-14.230003
11.185,2.0,1.0,1.0,33.1,34.8,34.8,2.4,4.1,2.7975,0.14258448937267862,0.18738387608161725,0.9620874097489741,-0.024248501585937186,-0.241353,-14.473232
11.185,2.0,1.0,1.0,33.1,34.8,34.8,2.4,4.1,2.8,0.11805407207840438,0.18363053035869886,0.9670180699131625,-0.017762138761027602,-0.22706,-14.680658
11.185,2.0,1.0,1.0,33.1,34.8,34.8,2.4,4.1,2.8025,0.09340078854039585,0.1804706686828759,0.9708537912896389,-0.011826811200903599,-0.216913,-14.853256
11.185,2.0,1.0,1.0,33.1,34.8,34.8,2.4,4.1,2.805,0.06855168415568859,0.17788516366767546,0.9736736649494692,-0.006303380982361558,-0.210257,-14.991756
11.185,2.0,1.0,1.0,33.1,34.8,34.8,2.4,4.1,2.8075,0.04342995630410148,0.17585728034942189,0.9755268525328908,-0.001072647290820257,-0.206616,-15.096631
11.185,2.0,1.0,1.0,33.1,34.8,34.8,2.4,4.1,2.81,0.017955665921654408,0.17437416833673056,0.9764366545961641,0.00397077000188112,-0.20565,-15.168106
11.185,2.0,1.0,1.0,33.1,34.8,34.8,2.4,4.1,2.8125,-0.00795428265981181,0.173427722898286,0.976403001490137,0.00892349485163428,-0.20713,-15.206147
11.185,2.0,1.0,1.0,33.1,34.8,34.8,2.4,4.1,2.815,-0.034386620701067044,0.17301508084493944,0.975403600155449,0.013877794370007135,-0.210919,-15.210468
11.185,2.0,1.0,1.0,33.1,34.8,34.8,2.4,4.1,2.8175,-0.061432484065528446,0.17313890094548484,0.973393859927247,0.018925640969994256,-0.216964,-15.180523
11.185,2.0,1.0,1.0,33.1,34.8,34.8,2.4,4.1,2.82,-0.08918835926684528,0.1738075007625187,0.970305619260349,0.024162735069102624,-0.22529,-15.115496
11.185,2.0,1.0,1.0,33.1,34.8,34.8,2.4,4.1,2.8225,-0.11775711529952351,0.1750348615384495,0.9660445950647683,0.029692783859359438,-0.236001,-15.014294
11.185,2.0,1.0,1.0,33.1,34.8,34.8,2.4,4.1,2.825,-0.1472490224315036,0.17684045428716524,0.9604863673156729,0.03563235868200148,-0.249285,-14.875529
11.185,2.0,1.0,1.0,33.1,34.8,34.8,2.4,4.1,2.8275,-0.1777826189856209,0.17924876807465015,0.9534705822111511,0.04211671373652093,-0.265429,-14.697498
11.185,2.0,1.0,1.0,33.1,34.8,34.8,2.4,4.1,2.83,-0.20948520186070918,0.1822883159554306,0.9447928932601329,0.049307049466428825,-0.28484,-14.47816
