1,w,sub_t,h,l1,l2,l3,g1,g2,Freq,S11_re,S21_re,S11_img,S21_img,S11_dB,S21_dB
11.185,2.0,1.0,1.0,34.3,33.2,33.2,2.0,2.9,2.5,0.730548155037466,-0.0149245856154819,0.670696246330325,0.008755033171684,-0.072106,-35.237571
11.185,2.0,1.0,1.0,34.3,33.2,33.2,2.0,2.9,2.5025,0.7251740407596392,-0.01519905341922749,0.6763748384729463,0.008742689735490571,-0.072873,-35.122314
11.185,2.0,1.0,1.0,34.3,33.2,33.2,2.0,2.9,2.505,0.7197264048955204,-0.015478007784198411,0.6820390281264999,0.008727578561764704,-0.073655,-35.006713
11.185,2.0,1.0,1.0,34.3,33.2,33.2,2.0,2.9,2.5075,0.7142045003574549,-0.015761520555660304,0.687688152229473,0.008709598012149624,-0.074451,-34.890763
11.185,2.0,1.0,1.0,34.3,33.2,33.2,2.0,2.9,2.51,0.7086075713672564,-0.016049664545294412,0.6933215283664992,0.008688642965248032,-0.075263,-34.774459
11.185,2.0,1.0,1.0,34.3,33.2,33.2,2.0,2.9,2.5125,0.7029348534701882,-0.016342513525098894,0.698938454192405,0.008664604692567758,-0.076089,-34.657795
11.185,2.0,1.0,1.0,34.3,33.2,33.2,2.0,2.9,2.515,0.6971855735569183,-0.01664014221961569,0.7045382068395317,0.008637370729875882,-0.076932,-34.540765
11.185,2.0,1.0,1.0,34.3,33.2,33.2,2.0,2.9,2.5175,0.6913589498939762,-0.016942626296352934,0.7101200423078519,0.0086068247437856,-0.07779,-34.423364
11.185,2.0,1.0,1.0,34.3,33.2,33.2,2.0,2.9,2.52,0.6854541921632363,-0.017250042354266495,0.7156831948374304,0.008572846393403354,-0.078665,-34.305586
11.185,2.0,1.0,1.0,34.3,33.2,33.2,2.0,2.9,2.5225,0.6794705015110127,-0.017562467910158034,0.7212268762627154,0.008535311186838451,-0.079556,-34.187425
11.185,2.0,1.0,1.0,34.3,33.2,33.2,2.0,2.9,2.525,0.6734070706073442,-0.017879981382832956,0.7267502753481928,0.008494090332388014,-0.080464,-34.068876
11.185,2.0,1.0,1.0,34.3,33.2,33.2,2.0,2.9,2.5275,0.6672630837160997,-0.01820266207485572,0.7322525571048865,0.008449050584193842,-0.08139,-33.949932
11.185,2.0,1.0,1.0,34.3,33.2,33.2,2.0,2.9,2.53,0.6610377167765706,-0.018530590151728456,0.7377328620871851,0.008400054082156827,-0.082333,-33.830587
11.185,2.0,1.0,1.0,34.3,33.2,33.2,2.0,2.9,2.5325,0.6547301374972303,-0.01886384661830506,0.7431903056694786,0.00834695818590237,-0.083295,-33.710837
11.185,2.0,1.0,1.0,34.3,33.2,33.2,2.0,2.9,2.535,0.6483395054623855,-0.01920251329224599,0.7486239773020635,0.008289615302558648,-0.084275,-33.590674
11.185,2.0,1.0,1.0,34.3,33.2,33.2,2.0,2.9,2.5375,0.6418649722524896,-0.019546672774300614,0.7540329397457645,0.008227872708124594,-0.085275,-33.470092
11.185,2.0,1.0,1.0,34.3,33.2,33.2,2.0,2.9,2.54,0.6353056815789007,-0.019896408415196857,0.7594162282847213,0.008161572362178971,-0.086293,-33.349086
11.185,2.0,1.0,1.0,34.3,33.2,33.2,2.0,2.9,2.5425,0.6286607694339271,-0.02025180427889597,0.7647728499167776,0.008090550715685983,-0.087332,-33.227649
11.185,2.0,1.0,1.0,34.3,33.2,33.2,2.0,2.9,2.545,0.6219293642570259,-0.020612945101964774,0.770101782520883,0.00801463851162609,-0.088391,-33.105775
11.185,2.0,1.0,1.0,34.3,33.2,33.2,2.0,2.9,2.5475,0.6151105871180801,-0.02097991624879146,0.7754019740009284,0.00793366057819518,-0.089471,-32.983458
11.185,2.0,1.0,1.0,34.3,33.2,33.2,2.0,2.9,2.55,0.6082035519186834,-0.021352803662362047,0.7806723414054264,0.007847435614283369,-0.090573,-32.860691
11.185,2.0,1.0,1.0,34.3,33.2,33.2,2.0,2.9,2.5525,0.6012073656124577,-0.021731693810290685,0.7859117700224181,0.007755775966948814,-0.091696,-32.737468
11.185,2.0,1.0,1.0,34.3,33.2,33.2,2.0,2.9,2.555,0.594121128445411,-0.022116673625784063,0.7911191124490126,0.007658487400580892,-0.092841,-32.613782
11.185,2.0,1.0,1.0,34.3,33.2,33.2,2.0,2.9,2.5575,0.5869439342174216,-0.02250783044319118,0.7962931876349403,0.007555368857449229,-0.09401,-32.489627
11.185,2.0,1.0,1.0,34.3,33.2,33.2,2.0,2.9,2.56,0.5796748705659697,-0.02290525192777625,0.801432779899499,0.007446212209312358,-0.095202,-32.364996
11.185,2.0,1.0,1.0,34.3,33.2,33.2,2.0,2.9,2.5625,0.572313019273264,-0.023309025999324322,0.8065366379212825,0.0073308019997486195,-0.096418,-32.239883
11.185,2.0,1.0,1.0,34.3,33.2,33.2,2.0,2.9,2.565,0.5648574565979534,-0.023719240749165465,0.8116034737000788,0.007208915176880148,-0.097659,-32.114281
11.185,2.0,1.0,1.0,34.3,33.2,33.2,2.0,2.9,2.5675,0.5573072536326623,-0.024135984350180915,0.8166319614903345,0.007080320816108053,-0.098925,-31.988182
11.185,2.0,1.0,1.0,34.3,33.2,33.2,2.0,2.9,2.57,0.5496614766885886,-0.024559344959317497,0.8216207367056034,0.006944779832517782,-0.100217,-31.86158
11.185,2.0,1.0,1.0,34.3,33.2,33.2,2.0,2.9,2.5725,0.5419191877084543,-0.024989410612121232,0.8265683947934328,0.006802044682548206,-0.101536,-31.734468
11.185,2.0,1.0,1.0,34.3,33.2,33.2,2.0,2.9,2.575,0.5340794447091056,-0.025426269108754788,0.8314734900801706,0.00665185905454772,-0.102882,-31.606839
11.185,2.0,1.0,1.0,34.3,33.2,33.2,2.0,2.9,2.5775,0.5261413022550744,-0.025870007890940957,0.8363345345852607,0.006493957547798011,-0.104256,-31.478686
11.185,2.0,1.0,1.0,34.3,33.2,33.2,2.0,2.9,2.58,0.5181038119644243,-0.026320713909232338,0.841149996804676,0.006328065339591912,-0.105658,-31.350001
11.185,2.0,1.0,1.0,34.3,33.2,33.2,2.0,2.9,2.5825,0.5099660230481903,-0.0267784734799737,0.8459183004632841,0.006153897839923088,-0.10709,-31.220777
11.185,2.0,1.0,1.0,34.3,33.2,33.2,2.0,2.9,2.585,0.5017269828847426,-0.02724337213128115,0.8506378232361276,0.005971160333342976,-0.108552,-31.091007
11.185,2.0,1.0,1.0,34.3,33.2,33.2,2.0,2.9,2.5875,0.4933857376303914,-0.027715494437318747,0.8553068954388663,0.005779547607520022,-0.110046,-30.960684
11.185,2.0,1.0,1.0,34.3,33.2,33.2,2.0,2.9,2.59,0.4849413328676043,-0.02819492384011011,0.8599237986879876,0.0055787435680209295,-0.111571,-30.829799
11.185,2.0,1.0,1.0,34.3,33.2,33.2,2.0,2.9,2.5925,0.47639281429226316,-0.02868174245807364,0.8644867645318932,0.005368420838821282,-0.113129,-30.698346
11.185,2.0,1.0,1.0,34.3,33.2,33.2,2.0,2.9,2.595,0.46773922844160853,-0.02917603088041384,0.8689939730546049,0.0051482403480394194,-0.11472,-30.566316
11.185,2.0,1.0,1.0,34.3,33.2,33.2,2.0,2.9,2.5975,0.45897962346482657,-0.02967786794645606,0.8734435514547073,0.004917850898364829,-0.116346,-30.433701
11.185,2.0,1.0,1.0,34.3,33.2,33.2,2.0,2.9,2.6,0.450113049938921,-0.030187330508942914,0.8778335726032085,0.004676888721646135,-0.118008,-30.300494
11.185,2.0,1.0,1.0,34.3,33.2,33.2,2.0,2.9,2.6025,0.4411385617336197,-0.030704493180255348,0.8821620535853022,0.004424977017076915,-0.119706,-30.166686
11.185,2.0,1.0,1.0,34.3,33.2,33.2,2.0,2.9,2.605,0.4320552169308703,-0.031229428060452702,0.886426954232517,0.004161725472421727,-0.121441,-30.03227
11.185,2.0,1.0,1.0,34.3,33.2,33.2,2.0,2.9,2.6075,0.4228620788074039,-0.031762204445957405,0.8906261756531717,0.0038867297676753393,-0.123215,-29.897237
11.185,2.0,1.0,1.0,34.3,33.2,33.2,2.0,2.9,2.61,0.41355821689318195,-0.032302888517629566,0.894757558770149,0.0035995710605736812,-0.125029,-29.761578
11.185,2.0,1.0,1.0,34.3,33.2,33.2,2.0,2.9,2.6125,0.40414270812477143,-0.03285154300690574,0.8988188828748899,0.0032998154533214175,-0.126883,-29.625286
11.185,2.0,1.0,1.0,34.3,33.2,33.2,2.0,2.9,2.615,0.39461463812106173,-0.03340822683858086,0.9028078642040156,0.0029870134399136864,-0.128779,-29.488352
11.185,2.0,1.0,1.0,34.3,33.2,33.2,2.0,2.9,2.6175,0.3849731026188964,-0.033972994748729855,0.9067221545380676,0.0026606993333916054,-0.130719,-29.350766
11.185,2.0,1.0,1.0,34.3,33.2,33.2,2.0,2.9,2.62,0.3752172091165916,-0.034545896876160644,0.9105593398080594,0.002320390672380208,-0.132702,-29.212521
11.185,2.0,1.0,1.0,34.3,33.2,33.2,2.0,2.9,2.6225,0.36534607878025555,-0.035126978325696494,0.9143169386720322,0.001965587606210979,-0.134731,-29.073607
11.185,2.0,1.0,1.0,34.3,33.2,33.2,2.0,2.9,2.625,0.35535884866445,-0.0357162787014629,0.917992400989421,0.00159577225795363,-0.136807,-28.934015
11.185,2.0,1.0,1.0,34.3,33.2,33.2,2.0,2.9,2.6275,0.34525467427470513,-0.03631383160824917,0.9215831060787067,0.001210408064631873,-0.138931,-28.793736
11.185,2.0,1.0,1.0,34.3,33.2,33.2,2.0,2.9,2.63,0.33503273244364734,-0.03691966411887965,0.9250863606050487,0.0008089390939127041,-0.141104,-28.652761
11.185,2.0,1.0,1.0,34.3,33.2,33.2,2.0,2.9,2.6325,0.3246922243994637,-0.03753379620539984,0.9284993959327754,0.0003907893365291157,-0.143328,-28.511079
11.185,2.0,1.0,1.0,34.3,33.2,33.2,2.0,2.9,2.635,0.3142323787876366,-0.03815624013173816,0.9318193648256372,-4.46380263082604e-05,-0.145604,-28.368683
11.185,2.0,1.0,1.0,34.3,33.2,33.2,2.0,2.9,2.6375,0.3036524543064435,-0.03878699980535112,0.9350433375134326,-0.0004979613812698014,-0.147933,-28.22556
11.185,2.0,1.0,1.0,34.3,33.2,33.2,2.0,2.9,2.64,0.29295174160388177,-0.0394260700851947,0.9381682973612157,-0.0009698214677961347,-0.150317,-28.081703
11.185,2.0,1.0,1.0,34.3,33.2,33.2,2.0,2.9,2.6425,0.28212956422578117,-0.0400734360431911,0.941191136609442,-0.0014608821902964042,-0.152757,-27.937101
11.185,2.0,1.0,1.0,34.3,33.2,33.2,2.0,2.9,2.645,0.2711852787077879,-0.040729072176171804,0.944108652776985,-0.001971831458434258,-0.155255,-27.791742
11.185,2.0,1.0,1.0,34.3,33.2,33.2,2.0,2.9,2.6475,0.2601182742671139,-0.04139294156507628,0.9469175462187313,-0.0025033820562817685,-0.157814,-27.645618
11.185,2.0,1.0,1.0,34.3,33.2,33.2,2.0,2.9,2.65,0.24892797279347945,-0.042064994977974224,0.9496144189944227,-0.003056272541131011,-0.160434,-27.498718
11.185,2.0,1.0,1.0,34.3,33.2,33.2,2.0,2.9,2.6525,0.23761382981501172,-0.04274516991324335,0.9521957747723334,-0.0036312681727427073,-0.163119,-27.35103
11.185,2.0,1.0,1.0,34.3,33.2,33.2,2.0,2.9,2.655,0.22617533682309165,-0.043433389578993835,0.9546580191728223,-0.004229161873815865,-0.16587,-27.202543
11.185,2.0,1.0,1.0,34.3,33.2,33.2,2.0,2.9,2.6575,0.21461202493524442,-0.04412956180456292,0.956997459896923,-0.004850775222444219,-0.16869,-27.053248
11.185,2.0,1.0,1.0,34.3,33.2,33.2,2.0,2.9,2.66,0.20292346955523133,-0.04483357787962031,0.9592103061705475,-0.005496959477329868,-0.171581,-26.903132
11.185,2.0,1.0,1.0,34.3,33.2,33.2,2.0,2.9,2.6625,0.19110929556785664,-0.045545311316116506,0.9612926673299212,-0.00616859663648754,-0.174545,-26.752183
11.185,2.0,1.0,1.0,34.3,33.2,33.2,2.0,2.9,2.665,0.1791691826688453,-0.04626461652798871,0.9632405506305547,-0.006866600530172196,-0.177586,-26.60039
11.185,2.0,1.0,1.0,34.3,33.2,33.2,2.0,2.9,2.6675,0.16710287058774306,-0.04699132742317171,0.9650498585021929,-0.007591917948723592,-0.180706,-26.447742
11.185,2.0,1.0,1.0,34.3,33.2,33.2,2.0,2.9,2.67,0.15491016412264005,-0.04772525590210128,0.9667163854972687,-0.008345529805992524,-0.183908,-26.294225
11.185,2.0,1.0,1.0,34.3,33.2,33.2,2.0,2.9,2.6725,0.14259093801897813,-0.04846619025646998,0.9682358151344597,-0.009128452338968737,-0.187194,-26.139828
11.185,2.0,1.0,1.0,34.3,33.2,33.2,2.0,2.9,2.675,0.1301451417812402,-0.049213893461575606,0.9696037167691439,-0.009941738344195922,-0.190567,-25.984538
11.185,2.0,1.0,1.0,34.3,33.2,33.2,2.0,2.9,2.6775,0.11757280451971368,-0.04996810135511432,0.970815542559192,-0.010786478451477368,-0.19403,-25.828341
11.185,2.0,1.0,1.0,34.3,33.2,33.2,2.0,2.9,2.68,0.10487403992393997,-0.050728520694770636,0.9718666245497827,-0.011663802435334188,-0.197587,-25.671225
11.185,2.0,1.0,1.0,34.3,33.2,33.2,2.0,2.9,2.6825,0.0920490514350383,-0.051494827086398715,0.9727521718751025,-0.012574880564573074,-0.201241,-25.513177
11.185,2.0,1.0,1.0,34.3,33.2,33.2,2.0,2.9,2.685,0.07909813766970347,-0.05226666277400013,0.9734672680632535,-0.013520924990248295,-0.204994,-25.354181
11.185,2.0,1.0,1.0,34.3,33.2,33.2,2.0,2.9,2.6875,0.0660216981331992,-0.0530436342820559,0.974006868428051,-0.0145031911721793,-0.208851,-25.194226
11.185,2.0,1.0,1.0,34.3,33.2,33.2,2.0,2.9,2.69,0.052820239247890234,-0.05382530990007365,0.9743657975334687,-0.015522979344061692,-0.212815,-25.033295
11.185,2.0,1.0,1.0,34.3,33.2,33.2,2.0,2.9,2.6925,0.039494380717107126,-0.054611216998464836,0.974538746720453,-0.01658163601706996,-0.216891,-24.871375
11.185,2.0,1.0,1.0,34.3,33.2,33.2,2.0,2.9,2.695,0.02604486224061044,-0.05540083916403483,0.9745202716901701,-0.017680555521676935,-0.221082,-24.70845
11.185,2.0,1.0,1.0,34.3,33.2,33.2,2.0,2.9,2.6975,0.012472550596276468,-0.05619361314249956,0.9743047901417804,-0.018821181587220966,-0.225392,-24.544506
11.185,2.0,1.0,1.0,34.3,33.2,33.2,2.0,2.9,2.7,-0.0012215528974207563,-0.05698892557445966,0.9738865794662238,-0.020005008958531377,-0.229826,-24.379525
11.185,2.0,1.0,1.0,34.3,33.2,33.2,2.0,2.9,2.7025,-0.015036304523033735,-0.05778610951023785,0.9732597745002791,-0.02123358504867899,-0.234388,-24.213494
11.185,2.0,1.0,1.0,34.3,33.2,33.2,2.0,2.9,2.705,-0.028970409893601046,-0.05858444068781963,0.9724183653474736,-0.02250851162659993,-0.239084,-24.046394
11.185,2.0,1.0,1.0,34.3,33.2,33.2,2.0,2.9,2.7075,-0.043022415252357,-0.05938313355692555,0.9713561952742581,-0.023831446538044913,-0.243919,-23.878209
11.185,2.0,1.0,1.0,34.3,33.2,33.2,2.0,2.9,2.71,-0.05719069832357939,-0.060181337030858435,0.970066958691487,-0.025204105457885397,-0.248897,-23.708922
11.185,2.0,1.0,1.0,34.3,33.2,33.2,2.0,2.9,2.7125,-0.07147345869387088,-0.060978129946323886,0.9685441992326544,-0.026628263671407398,-0.254025,-23.538516
11.185,2.0,1.0,1.0,34.3,33.2,33.2,2.0,2.9,2.715,-0.08586870770151397,-0.06177251620977693,0.9667813079416594,-0.028105757881688093,-0.259309,-23.366971
11.185,2.0,1.0,1.0,34.3,33.2,33.2,2.0,2.9,2.7175,-0.10037425780977653,-0.06256341960711301,0.9647715215841548,-0.029638488039609844,-0.264754,-23.194269
11.185,2.0,1.0,1.0,34.3,33.2,33.2,2.0,2.9,2.72,-0.1149877114382304,-0.06334967825156242,0.9625079210978362,-0.03122841919238102,-0.270368,-23.020391
11.185,2.0,1.0,1.0,34.3,33.2,33.2,2.0,2.9,2.7225,-0.12970644922425048,-0.06413003864255133,0.9599834301983542,-0.032877583345701365,-0.276157,-22.845317
11.185,2.0,1.0,1.0,34.3,33.2,33.2,2.0,2.9,2.725,-0.14452761768470712,-0.06490314930595868,0.9571908141589723,-0.034588081333843675,-0.282129,-22.669028
11.185,2.0,1.0,1.0,34.3,33.2,33.2,2.0,2.9,2.7275,-0.1594481162457954,-0.06566755398364897,0.9541226787836151,-0.0363620846909083,-0.288291,-22.491501
11.185,2.0,1.0,1.0,34.3,33.2,33.2,2.0,2.9,2.73,-0.1744645836063992,-0.06642168433736474,0.950771469594616,-0.038201837515417475,-0.294652,-22.312716
11.185,2.0,1.0,1.0,34.3,33.2,33.2,2.0,2.9,2.7325,-0.18957338339789787,-0.0671638521289738,0.9471294712583024,-0.04010965831905731,-0.301219,-22.132651
11.185,2.0,1.0,1.0,34.3,33.2,33.2,2.0,2.9,2.735,-0.2047705891003809,-0.0678922408356709,0.9431888072735664,-0.042087941848909426,-0.308003,-21.951282
11.185,2.0,1.0,1.0,34.3,33.2,33.2,2.0,2.9,2.7375,-0.22005196817215106,-0.06860489665499786,0.9389414399508008,-0.04413916087076172,-0.315012,-21.768586
11.185,2.0,1.0,1.0,34.3,33.2,33.2,2.0,2.9,2.74,-0.23541296534588407,-0.06929971885041449,0.9343791707110697,-0.04626586789908817,-0.322257,-21.58454
11.185,2.0,1.0,1.0,34.3,33.2,33.2,2.0,2.9,2.7425,-0.2508486850410215,-0.0699744493835919,0.92949364073815,-0.048470696856997356,-0.329749,-21.399117
11.185,2.0,1.0,1.0,34.3,33.2,33.2,2.0,2.9,2.745,-0.2663538728376917,-0.07062666177457817,0.9242763320192136,-0.050756364646764696,-0.337498,-21.212293
11.185,2.0,1.0,1.0,34.3,33.2,33.2,2.0,2.9,2.7475,-0.28192289595273884,-0.07125374912540369,0.9187185688134244,-0.05312567260848417,-0.345517,-21.02404
11.185,2.0,1.0,1.0,34.3,33.2,33.2,2.0,2.9,2.75,-0.297549722653195,-0.0718529112365509,0.912811519591707,-0.0555815078408125,-0.353818,-20.834332
11.185,2.0,1.0,1.0,34.3,33.2,33.2,2.0,2.9,2.7525,-0.3132279005366733,-0.07242114073887844,0.9065461994954521,-0.05812684435362025,-0.362416,-20.643138
11.185,2.0,1.0,1.0,34.3,33.2,33.2,2.0,2.9,2.755,-0.3289505336016142,-0.07295520815605361,0.899913473367087,-0.060764744017544,-0.371324,-20.450431
11.185,2.0,1.0,1.0,34.3,33.2,33.2,2.0,2.9,2.7575,-0.3447102580230882,-0.07345164580416408,0.8929040594112945,-0.06349835726987792,-0.380558,-20.256179
11.185,2.0,1.0,1.0,34.3,33.2,33.2,2.0,2.9,2.76,-0.3604992165416503,-0.07390673042590729,0.8855085335524532,-0.06633092352966342,-0.390134,-20.060352
11.185,2.0,1.0,1.0,34.3,33.2,33.2,2.0,2.9,2.7625,-0.37630903136372584,-0.07431646444647366,0.8777173345616175,-0.0692657712673078,-0.40007,-19.862915
11.185,2.0,1.0,1.0,34.3,33.2,33.2,2.0,2.9,2.765,-0.3921307754618011,-0.07467655572681796,0.8695207700353541,-0.0723063176651525,-0.410384,-19.663836
11.185,2.0,1.0,1.0,34.3,33.2,33.2,2.0,2.9,2.7675,-0.4079549421513814,-0.07498239567737694,0.8609090233191571,-0.07545606779509151,-0.421095,-19.463079
11.185,2.0,1.0,1.0,34.3,33.2,33.2,2.0,2.9,2.77,-0.4237714128090065,-0.07522903558125102,0.8518721614802286,-0.07871861322720564,-0.432226,-19.260608
11.185,2.0,1.0,1.0,34.3,33.2,33.2,2.0,2.9,2.7725,-0.4395694225814574,-0.0754111609603358,0.8424001444485065,-0.0820976299692096,-0.443799,-19.056385
11.185,2.0,1.0,1.0,34.3,33.2,33.2,2.0,2.9,2.775,-0.4553375239205123,-0.07552306380065824,0.8324828354612488,-0.08559687561987998,-0.455838,-18.85037
11.185,2.0,1.0,1.0,34.3,33.2,33.2,2.0,2.9,2.7775,-0.4710635477600302,-0.07555861243412441,0.8221100129657046,-0.08922018560008989,-0.46837,-18.642523
11.185,2.0,1.0,1.0,34.3,33.2,33.2,2.0,2.9,2.78,-0.4867345621325792,-0.07551121885281675,0.8112713841569376,-0.0929714683021561,-0.481421,-18.432801
11.185,2.0,1.0,1.0,34.3,33.2,33.2,2.0,2.9,2.7825,-0.5023368280010441,-0.07537380320872346,0.7999566003543986,-0.09685469897119864,-0.495023,-18.221161
11.185,2.0,1.0,1.0,34.3,33.2,33.2,2.0,2.9,2.785,-0.517855752056613,-0.07513875522617275,0.7881552744519593,-0.10087391210041505,-0.509208,-18.007557
11.185,2.0,1.0,1.0,34.3,33.2,33.2,2.0,2.9,2.7875,-0.5332758362078429,-0.0747978922260809,0.7758570007129271,-0.10503319208468109,-0.52401,-17.79194
11.185,2.0,1.0,1.0,34.3,33.2,33.2,2.0,2.9,2.79,-0.5485806234561877,-0.07434241343027959,0.7630513772249103,-0.1093366618326693,-0.539468,-17.574263
11.185,2.0,1.0,1.0,34.3,33.2,33.2,2.0,2.9,2.7925,-0.5637526398211193,-0.07376285018051218,0.74972803138077,-0.11378846898533615,-0.555622,-17.354472
11.185,2.0,1.0,1.0,34.3,33.2,33.2,2.0,2.9,2.795,-0.5787733319428984,-0.07304901167010572,0.7358766488125472,-0.11839276932687952,-0.572515,-17.132516
11.185,2.0,1.0,1.0,34.3,33.2,33.2,2.0,2.9,2.7975,-0.5936229999527703,-0.07218992574683408,0.7214870062773521,-0.12315370690098168,-0.590197,-16.908337
11.185,2.0,1.0,1.0,34.3,33.2,33.2,2.0,2.9,2.8,-0.6082807251594731,-0.07117377430315543,0.7065490090795088,-0.12807539025852946,-0.608718,-16.681879
11.185,2.0,1.0,1.0,34.3,33.2,33.2,2.0,2.9,2.8025,-0.6227242920571379,-0.06998782272511488,0.6910527337147236,-0.133161864160109,-0.628135,-16.453082
11.185,2.0,1.0,1.0,34.3,33.2,33.2,2.0,2.9,2.805,-0.6369301041137404,-0.06861834282418927,0.6749884765425932,-0.1384170759345596,-0.648509,-16.221883
11.185,2.0,1.0,1.0,34.3,33.2,33.2,2.0,2.9,2.8075,-0.6508730927518754,-0.06705052862797302,0.6583468094371018,-0.14384483555000013,-0.669906,-15.988217
11.185,2.0,1.0,1.0,34.3,33.2,33.2,2.0,2.9,2.81,-0.6645266188858774,-0.06526840435706274,0.6411186435353334,-0.14944876828152617,-0.6924,-15.752017
11.185,2.0,1.0,1.0,34.3,33.2,33.2,2.0,2.9,2.8125,-0.677862366332936,-0.0632547238684811,0.623295302407788,-0.155232258655152,-0.71607,-15.513213
11.185,2.0,1.0,1.0,34.3,33.2,33.2,2.0,2.9,2.815,-0.6908502263734632,-0.06099086080300221,0.6048686062154389,-0.16119838410414752,-0.741003,-15.271733
11.185,2.0,1.0,1.0,34.3,33.2,33.2,2.0,2.9,2.8175,-0.7034581727008471,-0.05845668863831975,0.5858309687067426,-0.1673498364845352,-0.767294,-15.027503
11.185,2.0,1.0,1.0,34.3,33.2,33.2,2.0,2.9,2.82,-0.7156521259779507,-0.05563044982696814,0.5661755092507692,-0.17368882925215726,-0.795048,-14.780444
11.185,2.0,1.0,1.0,34.3,33.2,33.2,2.0,2.9,2.8225,-0.7273958072139373,-0.052488613194011234,0.545896182510898,-0.18021698769449077,-0.824381,-14.530477
11.185,2.0,1.0,1.0,34.3,33.2,33.2,2.0,2.9,2.825,-0.7386505791993865,-0.049005718793854104,0.524987928849192,-0.1869352191238473,-0.855421,-14.27752
11.185,2.0,1.0,1.0,34.3,33.2,33.2,2.0,2.9,2.8275,-0.7493752753026346,-0.04515420949045628,0.5034468491287629,-0.19384355936115477,-0.888307,-14.021488
