1,w,sub_t,h,l1,l2,l3,g1,g2,Freq,S11_re,S21_re,S11_img,S21_img,S11_dB,S21_dB
11.185,2.0,1.0,1.0,34.2,33.7,33.7,1.7,2.2,2.5,0.744987233575527,-0.0204268882939185,0.653445371413816,0.0143375866026734,-0.078899,-32.056346
11.185,2.0,1.0,1.0,34.2,33.7,33.7,1.7,2.2,2.5025,0.7397094437872028,-0.02084350464434066,0.6592471808949627,0.014367060262339493,-0.079872,-31.932341
11.185,2.0,1.0,1.0,34.2,33.7,33.7,1.7,2.2,2.505,0.7343553448772703,-0.021268176847942757,0.6650377165114747,0.014393317502672387,-0.080863,-31.807833
11.185,2.0,1.0,1.0,34.2,33.7,33.7,1.7,2.2,2.5075,0.7289240654626984,-0.02170107510168694,0.6708162756930934,0.014416208419487464,-0.081872,-31.682814
11.185,2.0,1.0,1.0,34.2,33.7,33.7,1.7,2.2,2.51,0.7234147210162063,-0.02214237355493578,0.6765821382109356,0.01443557687560273,-0.082902,-31.557275
11.185,2.0,1.0,1.0,34.2,33.7,33.7,1.7,2.2,2.5125,0.7178264137670641,-0.022592250397777677,0.6823345651035206,0.014451260227277801,-0.083951,-31.431209
11.185,2.0,1.0,1.0,34.2,33.7,33.7,1.7,2.2,2.515,0.7121582325962369,-0.02305088795045205,0.6880727976169947,0.014463089037667881,-0.085021,-31.304606
11.185,2.0,1.0,1.0,34.2,33.7,33.7,1.7,2.2,2.5175,0.7064092529279736,-0.023518472753788853,0.6937960561532283,0.014470886776623622,-0.086113,-31.177458
11.185,2.0,1.0,1.0,34.2,33.7,33.7,1.7,2.2,2.52,0.700578536619622,-0.023995195660572195,0.6995035392202257,0.014474469506125366,-0.087227,-31.049756
11.185,2.0,1.0,1.0,34.2,33.7,33.7,1.7,2.2,2.5225,0.6946651318512501,-0.024481251927716795,0.705194422379829,0.014473645550604878,-0.088365,-30.921491
11.185,2.0,1.0,1.0,34.2,33.7,33.7,1.7,2.2,2.525,0.6886680730164434,-0.024976841309138686,0.7108678571882381,0.014468215151360327,-0.089526,-30.792654
11.185,2.0,1.0,1.0,34.2,33.7,33.7,1.7,2.2,2.5275,0.6825863806155413,-0.025482168149179214,0.716522970125245,0.01445797010422881,-0.090712,-30.663236
11.185,2.0,1.0,1.0,34.2,33.7,33.7,1.7,2.2,2.53,0.6764190611524677,-0.025997441476429146,0.7221588615084118,0.014442693379630693,-0.091924,-30.533226
11.185,2.0,1.0,1.0,34.2,33.7,33.7,1.7,2.2,2.5325,0.6701651070362472,-0.02652287509777486,0.7277746043887109,0.014422158724048412,-0.093162,-30.402616
11.185,2.0,1.0,1.0,34.2,33.7,33.7,1.7,2.2,2.535,0.6638234964882416,-0.027058687692473597,0.7333692434243521,0.01439613024195058,-0.094427,-30.271397
11.185,2.0,1.0,1.0,34.2,33.7,33.7,1.7,2.2,2.5375,0.6573931934561421,-0.027605102906034275,0.738941793729695,0.01436436195711148,-0.09572,-30.139557
11.185,2.0,1.0,1.0,34.2,33.7,33.7,1.7,2.2,2.54,0.6508731475357179,-0.028162349443661836,0.7444912396962952,0.014326597352216352,-0.097042,-30.007088
11.185,2.0,1.0,1.0,34.2,33.7,33.7,1.7,2.2,2.5425,0.6442622939013427,-0.028730661162988634,0.7500165337832201,0.014282568885578014,-0.098394,-29.873978
11.185,2.0,1.0,1.0,34.2,33.7,33.7,1.7,2.2,2.545,0.6375595532463418,-0.0293102771657901,0.7555165952738694,0.0142319974837189,-0.099777,-29.740219
11.185,2.0,1.0,1.0,34.2,33.7,33.7,1.7,2.2,2.5475,0.6307638317342369,-0.029901441888345034,0.760990308996546,0.014174592008500537,-0.101191,-29.605798
11.185,2.0,1.0,1.0,34.2,33.7,33.7,1.7,2.2,2.55,0.6238740209619823,-0.03050440519006601,0.7664365240061067,0.014110048697403269,-0.102638,-29.470706
11.185,2.0,1.0,1.0,34.2,33.7,33.7,1.7,2.2,2.5525,0.6168889979363879,-0.031119422439980584,0.771854052223967,0.014038050575473578,-0.104119,-29.334932
11.185,2.0,1.0,1.0,34.2,33.7,33.7,1.7,2.2,2.555,0.6098076250649274,-0.03174675460060555,0.7772416670337843,0.013958266837370231,-0.105636,-29.198464
11.185,2.0,1.0,1.0,34.2,33.7,33.7,1.7,2.2,2.5575,0.6026287501622404,-0.032386668308699434,0.7825981018300677,0.013870352197841709,-0.107188,-29.061292
11.185,2.0,1.0,1.0,34.2,33.7,33.7,1.7,2.2,2.56,0.595351206473706,-0.03303943595233207,0.7879220485169567,0.013773946208869101,-0.108777,-28.923404
11.185,2.0,1.0,1.0,34.2,33.7,33.7,1.7,2.2,2.5625,0.587973812717546,-0.0337053357436435,0.7932121559543208,0.013668672541597381,-0.110405,-28.784788
11.185,2.0,1.0,1.0,34.2,33.7,33.7,1.7,2.2,2.565,0.5804953731470187,-0.03438465178660604,0.7984670283483025,0.013554138231066043,-0.112072,-28.645433
11.185,2.0,1.0,1.0,34.2,33.7,33.7,1.7,2.2,2.5675,0.5729146776343784,-0.035077674139025676,0.8036852235832929,0.013429932881623537,-0.113781,-28.505326
11.185,2.0,1.0,1.0,34.2,33.7,33.7,1.7,2.2,2.57,0.565230501778378,-0.035784698867945795,0.8088652514922765,0.013295627830781464,-0.115532,-28.364456
11.185,2.0,1.0,1.0,34.2,33.7,33.7,1.7,2.2,2.5725,0.5574416070372268,-0.03650602809752612,0.8140055720623485,0.013150775269122821,-0.117327,-28.222809
11.185,2.0,1.0,1.0,34.2,33.7,33.7,1.7,2.2,2.575,0.5495467408890625,-0.03724197004837568,0.8191045935720898,0.01299490731372867,-0.119166,-28.080373
11.185,2.0,1.0,1.0,34.2,33.7,33.7,1.7,2.2,2.5775,0.5415446370221338,-0.03799283906721705,0.8241606706573501,0.012827535032429406,-0.121053,-27.937136
11.185,2.0,1.0,1.0,34.2,33.7,33.7,1.7,2.2,2.58,0.5334340155570693,-0.038758955645639685,0.8291721023018422,0.01264814741601447,-0.122988,-27.793083
11.185,2.0,1.0,1.0,34.2,33.7,33.7,1.7,2.2,2.5825,0.5252135833037627,-0.039540646426578556,0.8341371297487936,0.012456210295352266,-0.124973,-27.648202
11.185,2.0,1.0,1.0,34.2,33.7,33.7,1.7,2.2,2.585,0.5168820340556349,-0.04033824419701393,0.8390539343297149,0.01225116520017799,-0.127009,-27.502478
11.185,2.0,1.0,1.0,34.2,33.7,33.7,1.7,2.2,2.5875,0.508438048924201,-0.041152087865235276,0.8439206352061686,0.012032428156097081,-0.129099,-27.355898
11.185,2.0,1.0,1.0,34.2,33.7,33.7,1.7,2.2,2.59,0.4998802967171376,-0.04198252242084416,0.8487352870202051,0.011799388416130941,-0.131245,-27.208448
11.185,2.0,1.0,1.0,34.2,33.7,33.7,1.7,2.2,2.5925,0.49120743436326114,-0.04282989887548915,0.8534958774489281,0.01155140712289144,-0.133447,-27.060113
11.185,2.0,1.0,1.0,34.2,33.7,33.7,1.7,2.2,2.595,0.48241810738813234,-0.04369457418211551,0.8582003246583909,0.011287815897216847,-0.135709,-26.910877
11.185,2.0,1.0,1.0,34.2,33.7,33.7,1.7,2.2,2.5975,0.47351095044425423,-0.044576911130297485,0.8628464746517999,0.011007915348828591,-0.138032,-26.760727
11.185,2.0,1.0,1.0,34.2,33.7,33.7,1.7,2.2,2.6,0.4644845879001802,-0.0454772782149637,0.8674320985067204,0.01071097350427569,-0.140419,-26.609646
11.185,2.0,1.0,1.0,34.2,33.7,33.7,1.7,2.2,2.6025,0.45533763449319936,-0.04639604947556118,0.8719548894956632,0.010396224147122136,-0.142872,-26.457619
11.185,2.0,1.0,1.0,34.2,33.7,33.7,1.7,2.2,2.605,0.44606869605061006,-0.047333604302397414,0.8764124600841672,0.010062865064997787,-0.145394,-26.304629
11.185,2.0,1.0,1.0,34.2,33.7,33.7,1.7,2.2,2.6075,0.4366763702850497,-0.04829032720656999,0.8808023388001072,0.009710056197772413,-0.147986,-26.150661
11.185,2.0,1.0,1.0,34.2,33.7,33.7,1.7,2.2,2.61,0.4271592476697724,-0.049266607549524305,0.8851219669676413,0.00933691768073403,-0.150652,-25.995697
11.185,2.0,1.0,1.0,34.2,33.7,33.7,1.7,2.2,2.6125,0.41751591240026276,-0.05026283922787718,0.8893686952988058,0.008942527776235948,-0.153394,-25.83972
11.185,2.0,1.0,1.0,34.2,33.7,33.7,1.7,2.2,2.615,0.407744943449116,-0.051279420308691245,0.8935397803353566,0.008525920686840915,-0.156216,-25.682712
11.185,2.0,1.0,1.0,34.2,33.7,33.7,1.7,2.2,2.6175,0.39784491572171554,-0.052316752609891756,0.897632380733031,0.008086084242518441,-0.159119,-25.524656
11.185,2.0,1.0,1.0,34.2,33.7,33.7,1.7,2.2,2.62,0.38781440132086337,-0.053375241219968506,0.9016435533799252,0.007621957453945144,-0.162109,-25.365534
11.185,2.0,1.0,1.0,34.2,33.7,33.7,1.7,2.2,2.6225,0.3776519709292387,-0.05445529395049362,0.9055702493401867,0.007132427923419542,-0.165187,-25.205326
11.185,2.0,1.0,1.0,34.2,33.7,33.7,1.7,2.2,2.625,0.367356195319354,-0.0555573207143146,0.90940930961368,0.00661632910432291,-0.168358,-25.044013
11.185,2.0,1.0,1.0,34.2,33.7,33.7,1.7,2.2,2.6275,0.3569256470014998,-0.056681732821535054,0.9131574607017189,0.006072437399437456,-0.171625,-24.881576
11.185,2.0,1.0,1.0,34.2,33.7,33.7,1.7,2.2,2.63,0.34635890202113556,-0.05782894218456347,0.916811309968333,0.005499469087771411,-0.174993,-24.717995
11.185,2.0,1.0,1.0,34.2,33.7,33.7,1.7,2.2,2.6325,0.3356545419182095,-0.05899936042258988,0.9203673407859134,0.004896077068828926,-0.178464,-24.553249
11.185,2.0,1.0,1.0,34.2,33.7,33.7,1.7,2.2,2.635,0.32481115586203413,-0.06019339785483092,0.9238219074533294,0.00426084741250525,-0.182044,-24.387316
11.185,2.0,1.0,1.0,34.2,33.7,33.7,1.7,2.2,2.6375,0.31382734297661163,-0.06141146237073934,0.927171229873918,0.003592295701975248,-0.185737,-24.220176
11.185,2.0,1.0,1.0,34.2,33.7,33.7,1.7,2.2,2.64,0.3027017148726575,-0.06265395816411777,0.9304113879799166,0.0028888631560745515,-0.189548,-24.051807
11.185,2.0,1.0,1.0,34.2,33.7,33.7,1.7,2.2,2.6425,0.29143289840416436,-0.06392128431666076,0.933538315889072,0.0021489125167486823,-0.193482,-23.882185
11.185,2.0,1.0,1.0,34.2,33.7,33.7,1.7,2.2,2.645,0.28001953866899737,-0.0652138332148843,0.9365477957782422,0.0013707236861564586,-0.197544,-23.711287
11.185,2.0,1.0,1.0,34.2,33.7,33.7,1.7,2.2,2.6475,0.2684603022749358,-0.0665319887826533,0.9394354514578578,0.0005524890969590143,-0.201741,-23.53909
11.185,2.0,1.0,1.0,34.2,33.7,33.7,1.7,2.2,2.65,0.2567538808946117,-0.06787612450956756,0.9421967416300799,-0.00030769120179386376,-0.206077,-23.36557
11.185,2.0,1.0,1.0,34.2,33.7,33.7,1.7,2.2,2.6525,0.24489899513521063,-0.06924660125328476,0.9448269528123711,-0.0012118147619606843,-0.210559,-23.190701
11.185,2.0,1.0,1.0,34.2,33.7,33.7,1.7,2.2,2.655,0.23289439875125412,-0.07064376479143578,0.9473211919070917,-0.00216198227683746,-0.215194,-23.014458
11.185,2.0,1.0,1.0,34.2,33.7,33.7,1.7,2.2,2.6575,0.22073888323175375,-0.07206794309605938,0.9496743783964745,-0.0031604034663061096,-0.21999,-22.836814
11.185,2.0,1.0,1.0,34.2,33.7,33.7,1.7,2.2,2.66,0.2084312827961732,-0.0735194433004487,0.9518812361410204,-0.004209403329409956,-0.224952,-22.657742
11.185,2.0,1.0,1.0,34.2,33.7,33.7,1.7,2.2,2.6625,0.19597047983720106,-0.07499854832489058,0.9539362847580594,-0.0053114287886533535,-0.23009,-22.477215
11.185,2.0,1.0,1.0,34.2,33.7,33.7,1.7,2.2,2.665,0.18335541085230472,-0.07650551312396665,0.9558338305557116,-0.006469055751902659,-0.235411,-22.295204
11.185,2.0,1.0,1.0,34.2,33.7,33.7,1.7,2.2,2.6675,0.17058507291050426,-0.07804056051380527,0.9575679569960538,-0.007684996619397355,-0.240925,-22.111681
11.185,2.0,1.0,1.0,34.2,33.7,33.7,1.7,2.2,2.67,0.15765853070573493,-0.07960387653286978,0.9591325146596946,-0.008962108265105493,-0.246641,-21.926614
11.185,2.0,1.0,1.0,34.2,33.7,33.7,1.7,2.2,2.6725,0.14457492425372365,-0.08119560528448098,0.9605211106823834,-0.01030340052342523,-0.252568,-21.739974
11.185,2.0,1.0,1.0,34.2,33.7,33.7,1.7,2.2,2.675,0.13133347729558026,-0.08281584320320572,0.9617270976326149,-0.011712045214064562,-0.258719,-21.551728
11.185,2.0,1.0,1.0,34.2,33.7,33.7,1.7,2.2,2.6775,0.11793350647821957,-0.08446463268043214,0.9627435617974966,-0.013191385739793131,-0.265103,-21.361844
11.185,2.0,1.0,1.0,34.2,33.7,33.7,1.7,2.2,2.68,0.10437443138962481,-0.0861419549767791,0.9635633108424901,-0.014744947293646483,-0.271734,-21.170289
11.185,2.0,1.0,1.0,34.2,33.7,33.7,1.7,2.2,2.6825,0.0906557855357711,-0.08784772234034259,0.9641788608089289,-0.016376447714026805,-0.278623,-20.977028
11.185,2.0,1.0,1.0,34.2,33.7,33.7,1.7,2.2,2.685,0.07677722835591243,-0.08958176924004727,0.964582422411622,-0.018089809027982563,-0.285785,-20.782025
11.185,2.0,1.0,1.0,34.2,33.7,33.7,1.7,2.2,2.6875,0.0627385583841176,-0.0913438426123752,0.964765886597329,-0.0198891697246832,-0.293234,-20.585245
11.185,2.0,1.0,1.0,34.2,33.7,33.7,1.7,2.2,2.69,0.04853972767756174,-0.09313359100734529,0.964720809323501,-0.021778897802699083,-0.300986,-20.38665
11.185,2.0,1.0,1.0,34.2,33.7,33.7,1.7,2.2,2.6925,0.034180857646191845,-0.0949505525056058,0.9644383955155424,-0.02376360463608032,-0.309059,-20.186202
11.185,2.0,1.0,1.0,34.2,33.7,33.7,1.7,2.2,2.695,0.019662256434481985,-0.09679414126265586,0.963909482160063,-0.02584815970527807,-0.317468,-19.98386
11.185,2.0,1.0,1.0,34.2,33.7,33.7,1.7,2.2,2.6975,0.004984438024024276,-0.09866363251831453,0.9631245204911184,-0.028037706239602504,-0.326235,-19.779584
11.185,2.0,1.0,1.0,34.2,33.7,33.7,1.7,2.2,2.7,-0.009851856753755129,-0.10055814588926885,0.9620735572266852,-0.030337677817959922,-0.335379,-19.573333
11.185,2.0,1.0,1.0,34.2,33.7,33.7,1.7,2.2,2.7025,-0.024845637082416043,-0.10247662673959065,0.9607462148135206,-0.03275381597392184,-0.344923,-19.365063
11.185,2.0,1.0,1.0,34.2,33.7,33.7,1.7,2.2,2.705,-0.03999563666424017,-0.10441782539810499,0.9591316706405103,-0.03529218884948981,-0.35489,-19.15473
11.185,2.0,1.0,1.0,34.2,33.7,33.7,1.7,2.2,2.7075,-0.05530028559463246,-0.10638027396203126,0.9572186351837693,-0.03795921093896844,-0.365306,-18.942288
11.185,2.0,1.0,1.0,34.2,33.7,33.7,1.7,2.2,2.71,-0.07075767930527589,-0.10836226039291108,0.9549953290516078,-0.040761663959775624,-0.376199,-18.727691
11.185,2.0,1.0,1.0,34.2,33.7,33.7,1.7,2.2,2.7125,-0.0863655442360757,-0.11036179957296298,0.9524494589043133,-0.04370671888037974,-0.387598,-18.510889
11.185,2.0,1.0,1.0,34.2,33.7,33.7,1.7,2.2,2.715,-0.10212119985264073,-0.11237660094704972,0.9495681922331756,-0.046801959126301085,-0.399535,-18.291833
11.185,2.0,1.0,1.0,34.2,33.7,33.7,1.7,2.2,2.7175,-0.11802151657714649,-0.11440403232673393,0.9463381309958993,-0.050055404972590076,-0.412045,-18.070473
11.185,2.0,1.0,1.0,34.2,33.7,33.7,1.7,2.2,2.72,-0.13406286914476914,-0.11644107937765663,0.9427452841223394,-0.05347553911455033,-0.425165,-17.846756
11.185,2.0,1.0,1.0,34.2,33.7,33.7,1.7,2.2,2.7225,-0.1502410848350515,-0.11848430024887967,0.9387750389264453,-0.05707133338671211,-0.438936,-17.620627
11.185,2.0,1.0,1.0,34.2,33.7,33.7,1.7,2.2,2.725,-0.16655138595608657,-0.12052977473187977,0.9344121314885637,-0.060852276571859557,-0.453401,-17.392032
11.185,2.0,1.0,1.0,34.2,33.7,33.7,1.7,2.2,2.7275,-0.18298832587875474,-0.12257304725661039,0.9296406161084716,-0.06482840320579328,-0.468608,-17.160913
11.185,2.0,1.0,1.0,34.2,33.7,33.7,1.7,2.2,2.73,-0.19954571782677907,-0.1246090629412177,0.9244438339756126,-0.0690103232374292,-0.48461,-16.927213
11.185,2.0,1.0,1.0,34.2,33.7,33.7,1.7,2.2,2.7325,-0.21621655552528865,-0.1266320958094832,0.9188043812612822,-0.07340925234553317,-0.501461,-16.690872
11.185,2.0,1.0,1.0,34.2,33.7,33.7,1.7,2.2,2.735,-0.23299292469407298,-0.12863566817447883,0.9127040769109774,-0.07803704263983738,-0.519225,-16.451828
11.185,2.0,1.0,1.0,34.2,33.7,33.7,1.7,2.2,2.7375,-0.2498659042409234,-0.13061246005697352,0.9061239305073129,-0.08290621338195672,-0.537966,-16.210019
11.185,2.0,1.0,1.0,34.2,33.7,33.7,1.7,2.2,2.74,-0.26682545586355894,-0.13255420736145426,0.8990441106893149,-0.08802998124592241,-0.557759,-15.965381
11.185,2.0,1.0,1.0,34.2,33.7,33.7,1.7,2.2,2.7425,-0.28386030060451833,-0.13445158736993745,0.8914439147578507,-0.0934222894938869,-0.578684,-15.717849
11.185,2.0,1.0,1.0,34.2,33.7,33.7,1.7,2.2,2.745,-0.30095778072095697,-0.13629408993298286,0.8833017402763154,-0.09909783526290045,-0.600828,-15.467358
11.185,2.0,1.0,1.0,34.2,33.7,33.7,1.7,2.2,2.7475,-0.31810370502950625,-0.13806987253766148,0.874595059698493,-0.10507209393545401,-0.624287,-15.21384
11.185,2.0,1.0,1.0,34.2,33.7,33.7,1.7,2.2,2.75,-0.335282175665022,-0.139765597213542,0.865300399331838,-0.111361339289707,-0.649167,-14.957226
11.185,2.0,1.0,1.0,34.2,33.7,33.7,1.7,2.2,2.7525,-0.3524753939518835,-0.1413662470006119,0.8553933242866262,-0.11798265778273698,-0.675584,-14.697449
11.185,2.0,1.0,1.0,34.2,33.7,33.7,1.7,2.2,2.755,-0.3696634428289158,-0.14285491944948628,0.8448484314842216,-0.12495395489689178,-0.703666,-14.43444
11.185,2.0,1.0,1.0,34.2,33.7,33.7,1.7,2.2,2.7575,-0.38682404299833706,-0.14421259435811956,0.8336393533194191,-0.13229395095739227,-0.733554,-14.16813
11.185,2.0,1.0,1.0,34.2,33.7,33.7,1.7,2.2,2.76,-0.40393227969122575,-0.14541787267715167,0.8217387752142017,-0.14002216318684338,-0.765405,-13.898451
11.185,2.0,1.0,1.0,34.2,33.7,33.7,1.7,2.2,2.7625,-0.42096029666760143,-0.1464466832485688,0.8091184710895969,-0.14815886997327302,-0.799392,-13.625335
11.185,2.0,1.0,1.0,34.2,33.7,33.7,1.7,2.2,2.765,-0.43787695381390795,-0.1472719537954344,0.7957493617500836,-0.15672505236139117,-0.835706,-13.348716
11.185,2.0,1.0,1.0,34.2,33.7,33.7,1.7,2.2,2.7675,-0.4546474444876214,-0.14786324237758797,0.7816016023582236,-0.16574230659525163,-0.874563,-13.068532
11.185,2.0,1.0,1.0,34.2,33.7,33.7,1.7,2.2,2.77,-0.47123286862140856,-0.14818632540314375,0.7666447066192106,-0.17523272010137092,-0.916198,-12.784722
11.185,2.0,1.0,1.0,34.2,33.7,33.7,1.7,2.2,2.7725,-0.4875897575850678,-0.1482027382860269,0.7508477170458757,-0.18521870155521142,-0.960878,-12.497229
11.185,2.0,1.0,1.0,34.2,33.7,33.7,1.7,2.2,2.775,-0.503669546978473,-0.14786926503214204,0.7341794327904179,-0.19572275356532728,-1.008898,-12.206004
11.185,2.0,1.0,1.0,34.2,33.7,33.7,1.7,2.2,2.7775,-0.5194179939839311,-0.1471373735124155,0.716608709071245,-0.2067671739778718,-1.060591,-11.911002
11.185,2.0,1.0,1.0,34.2,33.7,33.7,1.7,2.2,2.78,-0.5347745367657671,-0.1459525940641693,0.6981048452558463,-0.21837366878675654,-1.116328,-11.612188
11.185,2.0,1.0,1.0,34.2,33.7,33.7,1.7,2.2,2.7825,-0.5496715948354823,-0.14425384052023063,0.6786380822456842,-0.23056285607110139,-1.176528,-11.309538
11.185,2.0,1.0,1.0,34.2,33.7,33.7,1.7,2.2,2.785,-0.5640338115247794,-0.14197267502000563,0.6581802339980379,-0.24335363622230594,-1.241662,-11.00304
11.185,2.0,1.0,1.0,34.2,33.7,33.7,1.7,2.2,2.7875,-0.5777772430181628,-0.13903252130030497,0.6367054828408718,-0.25676239894264913,-1.31226,-10.692701
11.185,2.0,1.0,1.0,34.2,33.7,33.7,1.7,2.2,2.79,-0.5908085031707169,-0.13534783597376102,0.6141913736728528,-0.27080203211622117,-1.388925,-10.378544
11.185,2.0,1.0,1.0,34.2,33.7,33.7,1.7,2.2,2.7925,-0.6030238800577582,-0.13082325406033965,0.5906200480988288,-0.2854806917682291,-1.472335,-10.060616
11.185,2.0,1.0,1.0,34.2,33.7,33.7,1.7,2.2,2.795,-0.6143084494748352,-0.12535273434260458,0.5659797658148427,-0.3008002861616651,-1.563263,-9.738995
11.185,2.0,1.0,1.0,34.2,33.7,33.7,1.7,2.2,2.7975,-0.624535223162124,-0.11881874269629554,0.5402667667208563,-0.3167546210420536,-1.662587,-9.41379
11.185,2.0,1.0,1.0,34.2,33.7,33.7,1.7,2.2,2.8,-0.6335643862268433,-0.11109152825606618,0.5134875326156115,-0.33332714782575545,-1.771305,-9.085148
11.185,2.0,1.0,1.0,34.2,33.7,33.7,1.7,2.2,2.8025,-0.6412427000360317,-0.10202856905541796,0.48566151082346587,-0.35048825323441624,-1.890559,-8.753268
11.185,2.0,1.0,1.0,34.2,33.7,33.7,1.7,2.2,2.805,-0.6474031747233032,-0.09147429158587962,0.45682436205907145,-0.36819202917126914,-2.021653,-8.418399
11.185,2.0,1.0,1.0,34.2,33.7,33.7,1.7,2.2,2.8075,-0.6518651502331788,-0.07926020336567226,0.42703178883733917,-0.38637246793136204,-2.166079,-8.080857
11.185,2.0,1.0,1.0,34.2,33.7,33.7,1.7,2.2,2.81,-0.6544349669415662,-0.06520561948683289,0.3963639854006587,-0.40493904351633786,-2.32555,-7.741033
11.185,2.0,1.0,1.0,34.2,33.7,33.7,1.7,2.2,2.8125,-0.654907455912669,-0.0491192127529679,0.364930720919058,-0.423771669414724,-2.502033,-7.399402
11.185,2.0,1.0,1.0,34.2,33.7,33.7,1.7,2.2,2.815,-0.6530685328221858,-0.030801670419307172,0.3328770188155002,-0.4427150724859354,-2.697786,-7.056542
11.185,2.0,1.0,1.0,34.2,33.7,33.7,1.7,2.2,2.8175,-0.648699234044553,-0.010049794198681477,0.30038931953080417,-0.46157269844019005,-2.915413,-6.713139
11.185,2.0,1.0,1.0,34.2,33.7,33.7,1.7,2.2,2.82,-0.6415815801718288,0.013337574146306794,0.26770190433884533,-0.48010037427567664,-3.157911,-6.370009
11.185,2.0,1.0,1.0,34.2,33.7,33.7,1.7,2.2,2.8225,-0.6315066778961514,0.03955139508415649,0.23510320713031896,-0.4980001035994345,-3.428732,-6.028104
11.185,2.0,1.0,1.0,34.2,33.7,33.7,1.7,2.2,2.825,-0.6182854557356998,0.0687616521423083,0.202941445703028,-0.5149145655217695,-3.731854,-5.688532
11.185,2.0,1.0,1.0,34.2,33.7,33.7,1.7,2.2,2.8275,-0.6017623451881009,0.10110364783784526,0.17162876736109814,-0.5304231231920157,-4.071858,-5.352562
11.185,2.0,1.0,1.0,34.2,33.7,33.7,1.7,2.2,2.83,-0.5818320329307503,0.13666125920961417,0.14164284147332779,-0.544040407814513,-4.454004,-5.021636
