1,w,sub_t,h,l1,l2,l3,g1,g2,Freq,S11_re,S21_re,S11_img,S21_img,S11_dB,S21_dB
11.185,2.0,1.0,1.0,33.2,34.1,34.1,1.8,4.0,2.5,0.877446793548327,-0.007775623816025,0.465383768001144,0.00731303613278756,-0.059051,-39.433206
11.185,2.0,1.0,1.0,33.2,34.1,34.1,1.8,4.0,2.5025,0.8743032548420444,-0.007947770754009199,0.4711165464497342,0.007362526519181916,-0.059659,-39.304286
11.185,2.0,1.0,1.0,33.2,34.1,34.1,1.8,4.0,2.505,0.8711070712632754,-0.008123435031629411,0.4768530756044671,0.007411631799805177,-0.060278,-39.174929
11.185,2.0,1.0,1.0,33.2,34.1,34.1,1.8,4.0,2.5075,0.8678576461921704,-0.008302700229499827,0.4825931788570452,0.007460321449370203,-0.060909,-39.045125
11.185,2.0,1.0,1.0,33.2,34.1,34.1,1.8,4.0,2.51,0.8645543713503548,-0.008485652429111997,0.488336673021215,0.00750856350187028,-0.061553,-38.914863
11.185,2.0,1.0,1.0,33.2,34.1,34.1,1.8,4.0,2.5125,0.8611966265256048,-0.008672380302680013,0.4940833680751855,0.007556324479457398,-0.062209,-38.784132
11.185,2.0,1.0,1.0,33.2,34.1,34.1,1.8,4.0,2.515,0.8577837792885606,-0.008862975206743996,0.4998330668935223,0.007603569317473775,-0.062878,-38.65292
11.185,2.0,1.0,1.0,33.2,34.1,34.1,1.8,4.0,2.5175,0.8543151847012109,-0.00905753127971062,0.5055855649680189,0.007650261285404735,-0.063561,-38.521217
11.185,2.0,1.0,1.0,33.2,34.1,34.1,1.8,4.0,2.52,0.8507901850168276,-0.009256145543520947,0.511340650117039,0.007696361903506781,-0.064257,-38.38901
11.185,2.0,1.0,1.0,33.2,34.1,34.1,1.8,4.0,2.5225,0.8472081093710602,-0.009458918009643338,0.5170981021827611,0.0077418308548472875,-0.064967,-38.256288
11.185,2.0,1.0,1.0,33.2,34.1,34.1,1.8,4.0,2.525,0.8435682734638523,-0.00966595178960247,0.5228576927157726,0.00778662589247483,-0.065692,-38.12304
11.185,2.0,1.0,1.0,33.2,34.1,34.1,1.8,4.0,2.5275,0.8398699792318383,-0.009877353210265529,0.5286191846463912,0.007830702741420005,-0.066432,-37.989253
11.185,2.0,1.0,1.0,33.2,34.1,34.1,1.8,4.0,2.53,0.83611251451088,-0.010093231934118329,0.5343823319420756,0.007874014995205729,-0.067187,-37.854914
11.185,2.0,1.0,1.0,33.2,34.1,34.1,1.8,4.0,2.5325,0.8322951526883526,-0.010313701084778276,0.5401468792502389,0.00791651400652407,-0.067958,-37.720012
11.185,2.0,1.0,1.0,33.2,34.1,34.1,1.8,4.0,2.535,0.8284171523448031,-0.010538877378003247,0.5459125615257584,0.007958148771712777,-0.068745,-37.584533
11.185,2.0,1.0,1.0,33.2,34.1,34.1,1.8,4.0,2.5375,0.8244777568845753,-0.010768881258470071,0.5516791036424112,0.007998865808638855,-0.069549,-37.448466
11.185,2.0,1.0,1.0,33.2,34.1,34.1,1.8,4.0,2.54,0.8204761941549662,-0.011003837042612307,0.5574462199874328,0.008038609027568968,-0.070369,-37.311795
11.185,2.0,1.0,1.0,33.2,34.1,34.1,1.8,4.0,2.5425,0.8164116760534788,-0.011243873067821828,0.5632136140383562,0.00807731959457654,-0.071207,-37.174509
11.185,2.0,1.0,1.0,33.2,34.1,34.1,1.8,4.0,2.545,0.8122833981226926,-0.01148912184833673,0.5689809779212207,0.008114935787003041,-0.072064,-37.036593
11.185,2.0,1.0,1.0,33.2,34.1,34.1,1.8,4.0,2.5475,0.8080905391322798,-0.011739720238155083,0.5747479919491939,0.008151392840456797,-0.072938,-36.898034
11.185,2.0,1.0,1.0,33.2,34.1,34.1,1.8,4.0,2.55,0.8038322606476295,-0.011995809601335063,0.5805143241406046,0.008186622786794152,-0.073832,-36.758817
11.185,2.0,1.0,1.0,33.2,34.1,34.1,1.8,4.0,2.5525,0.7995077065845709,-0.012257535990059474,0.5862796297152917,0.008220554282488295,-0.074746,-36.618929
11.185,2.0,1.0,1.0,33.2,34.1,34.1,1.8,4.0,2.555,0.7951160027496073,-0.012525050330867264,0.5920435505681462,0.008253112426746317,-0.07568,-36.478353
11.185,2.0,1.0,1.0,33.2,34.1,34.1,1.8,4.0,2.5575,0.7906562563650824,-0.012798508619474895,0.5978057147186262,0.008284218568688658,-0.076635,-36.337076
11.185,2.0,1.0,1.0,33.2,34.1,34.1,1.8,4.0,2.56,0.7861275555786541,-0.013078072124636495,0.6035657357349493,0.008313790102852495,-0.077611,-36.195082
11.185,2.0,1.0,1.0,33.2,34.1,34.1,1.8,4.0,2.5625,0.7815289689564244,-0.013363907601515852,0.6093232121315998,0.00834174025222666,-0.07861,-36.052356
11.185,2.0,1.0,1.0,33.2,34.1,34.1,1.8,4.0,2.565,0.7768595449590383,-0.013656187515072317,0.6150777267386925,0.00836797783796372,-0.079631,-35.908881
11.185,2.0,1.0,1.0,33.2,34.1,34.1,1.8,4.0,2.5675,0.7721183114000382,-0.013955090273989106,0.620828846041628,0.00839240703485143,-0.080676,-35.764641
11.185,2.0,1.0,1.0,33.2,34.1,34.1,1.8,4.0,2.57,0.7673042748857126,-0.01426080047570606,0.6265761194893975,0.008414927111553347,-0.081745,-35.61962
11.185,2.0,1.0,1.0,33.2,34.1,34.1,1.8,4.0,2.5725,0.7624164202356463,-0.014573509163148769,0.6323190787697657,0.008435432154552754,-0.08284,-35.4738
11.185,2.0,1.0,1.0,33.2,34.1,34.1,1.8,4.0,2.575,0.7574537098831363,-0.014893414093782135,0.6380572370494512,0.008453810774649942,-0.08396,-35.327165
11.185,2.0,1.0,1.0,33.2,34.1,34.1,1.8,4.0,2.5775,0.7524150832545978,-0.015220720021652017,0.6437900881772931,0.008469945794772553,-0.085107,-35.179697
11.185,2.0,1.0,1.0,33.2,34.1,34.1,1.8,4.0,2.58,0.7472994561270367,-0.015555638993117531,0.6495171058482575,0.008483713917759853,-0.086282,-35.031377
11.185,2.0,1.0,1.0,33.2,34.1,34.1,1.8,4.0,2.5825,0.7421057199626081,-0.015898390657018088,0.6552377427259888,0.008494985372674676,-0.087485,-34.882187
11.185,2.0,1.0,1.0,33.2,34.1,34.1,1.8,4.0,2.585,0.7368327412192534,-0.01624920259006164,0.6609514295214515,0.00850362353808006,-0.088717,-34.732109
11.185,2.0,1.0,1.0,33.2,34.1,34.1,1.8,4.0,2.5875,0.7314793606363218,-0.016608310638267915,0.6666575740250363,0.008509484540589756,-0.089981,-34.581122
11.185,2.0,1.0,1.0,33.2,34.1,34.1,1.8,4.0,2.59,0.7260443924940576,-0.01697595927534768,0.6723555600893085,0.008512416826863736,-0.091275,-34.429208
11.185,2.0,1.0,1.0,33.2,34.1,34.1,1.8,4.0,2.5925,0.7205266238457507,-0.017352401978951965,0.6780447465593937,0.00851226070706802,-0.092602,-34.276345
11.185,2.0,1.0,1.0,33.2,34.1,34.1,1.8,4.0,2.595,0.7149248137213018,-0.01773790162577831,0.6837244661477415,0.00850884786765248,-0.093963,-34.122513
11.185,2.0,1.0,1.0,33.2,34.1,34.1,1.8,4.0,2.5975,0.7092376923008694,-0.018132730906580245,0.6893940242498183,0.00850200085112043,-0.095358,-33.96769
11.185,2.0,1.0,1.0,33.2,34.1,34.1,1.8,4.0,2.6,0.7034639600572113,-0.018537172762185215,0.6950526976969704,0.008491532500265709,-0.09679,-33.811856
11.185,2.0,1.0,1.0,33.2,34.1,34.1,1.8,4.0,2.6025,0.6976022868652574,-0.018951520841691653,0.7006997334424532,0.008477245364136791,-0.098259,-33.654987
11.185,2.0,1.0,1.0,33.2,34.1,34.1,1.8,4.0,2.605,0.6916513110773573,-0.019376079984082913,0.7063343471763033,0.008458931062751312,-0.099767,-33.497061
11.185,2.0,1.0,1.0,33.2,34.1,34.1,1.8,4.0,2.6075,0.6856096385625843,-0.019811166724566554,0.7119557218643944,0.008436369607324955,-0.101314,-33.338054
11.185,2.0,1.0,1.0,33.2,34.1,34.1,1.8,4.0,2.61,0.6794758417083817,-0.020257109827022897,0.7175630062066584,0.00840932867249361,-0.102904,-33.177942
11.185,2.0,1.0,1.0,33.2,34.1,34.1,1.8,4.0,2.6125,0.6732484583827473,-0.020714250844024267,0.723155313009061,0.008377562816697036,-0.104536,-33.0167
11.185,2.0,1.0,1.0,33.2,34.1,34.1,1.8,4.0,2.615,0.6669259908550512,-0.021182944705969653,0.728731717463488,0.00834081264654798,-0.106213,-32.854303
11.185,2.0,1.0,1.0,33.2,34.1,34.1,1.8,4.0,2.6175,0.6605069046735074,-0.021663560340963582,0.7342912553292161,0.008298803920635076,-0.107936,-32.690725
11.185,2.0,1.0,1.0,33.2,34.1,34.1,1.8,4.0,2.62,0.6539896274971825,-0.0221564813271588,0.73983292100914,0.00825124658779303,-0.109708,-32.525938
11.185,2.0,1.0,1.0,33.2,34.1,34.1,1.8,4.0,2.6225,0.6473725478803466,-0.022662106579374647,0.7453556655133659,0.008197833754417056,-0.11153,-32.359917
11.185,2.0,1.0,1.0,33.2,34.1,34.1,1.8,4.0,2.625,0.64065401400685,-0.0231808510718981,0.750858394302132,0.00813824057489628,-0.113403,-32.192631
11.185,2.0,1.0,1.0,33.2,34.1,34.1,1.8,4.0,2.6275,0.6338323323720875,-0.023713146599476088,0.7563399649993908,0.008072123058685656,-0.115331,-32.024053
11.185,2.0,1.0,1.0,33.2,34.1,34.1,1.8,4.0,2.63,0.6269057664100082,-0.024259442578605444,0.7617991849675889,0.0079991167869247,-0.117315,-31.854152
11.185,2.0,1.0,1.0,33.2,34.1,34.1,1.8,4.0,2.6325,0.6198725350625027,-0.024820206891333834,0.7672348087334042,0.00791883553083444,-0.119357,-31.682898
11.185,2.0,1.0,1.0,33.2,34.1,34.1,1.8,4.0,2.635,0.6127308112883704,-0.02539592677388681,0.7726455352532735,0.007830869763377149,-0.12146,-31.510258
11.185,2.0,1.0,1.0,33.2,34.1,34.1,1.8,4.0,2.6375,0.6054787205089699,-0.025987109752542283,0.7780300050065669,0.0077347850548352935,-0.123627,-31.3362
11.185,2.0,1.0,1.0,33.2,34.1,34.1,1.8,4.0,2.64,0.5981143389874923,-0.02659428462927684,0.7833867969031748,0.007630120342050626,-0.12586,-31.160692
11.185,2.0,1.0,1.0,33.2,34.1,34.1,1.8,4.0,2.6425,0.5906356921387222,-0.027218002519808788,0.7887144249910569,0.007516386060047484,-0.128161,-30.983697
11.185,2.0,1.0,1.0,33.2,34.1,34.1,1.8,4.0,2.645,0.5830407527660045,-0.027858837946758738,0.7940113349479911,0.0073930621236372555,-0.130535,-30.80518
11.185,2.0,1.0,1.0,33.2,34.1,34.1,1.8,4.0,2.6475,0.575327439222037,-0.02851738999073762,0.7992759003402681,0.007259595745348474,-0.132983,-30.625106
11.185,2.0,1.0,1.0,33.2,34.1,34.1,1.8,4.0,2.65,0.5674936134899906,-0.02919428350225051,0.8045064186294802,0.007115399074634359,-0.135509,-30.443435
11.185,2.0,1.0,1.0,33.2,34.1,34.1,1.8,4.0,2.6525,0.5595370791814136,-0.029890170377366836,0.8097011069067107,0.0069598466417600076,-0.138118,-30.260128
11.185,2.0,1.0,1.0,33.2,34.1,34.1,1.8,4.0,2.655,0.5514555794472492,-0.03060573090015566,0.8148580973314739,0.006792272588044717,-0.140811,-30.075146
11.185,2.0,1.0,1.0,33.2,34.1,34.1,1.8,4.0,2.6575,0.5432467947982972,-0.031341675154902875,0.8199754322505104,0.006611967662209913,-0.143594,-29.888447
11.185,2.0,1.0,1.0,33.2,34.1,34.1,1.8,4.0,2.66,0.5349083408314089,-0.03209874451111689,0.8250510589690677,0.006418175960433672,-0.146471,-29.699988
11.185,2.0,1.0,1.0,33.2,34.1,34.1,1.8,4.0,2.6625,0.5264377658577529,-0.03287771318427749,0.8300828241445865,0.006210091385312218,-0.149446,-29.509723
11.185,2.0,1.0,1.0,33.2,34.1,34.1,1.8,4.0,2.665,0.517832548429519,-0.03367938987518149,0.8350684677696094,0.00598685379624157,-0.152523,-29.317608
11.185,2.0,1.0,1.0,33.2,34.1,34.1,1.8,4.0,2.6675,0.5090900947616362,-0.034504619490570695,0.8400056167073516,0.005747544820726345,-0.155707,-29.123595
11.185,2.0,1.0,1.0,33.2,34.1,34.1,1.8,4.0,2.67,0.5002077360452222,-0.0353542849474857,0.8448917777395423,0.005491183292750282,-0.159005,-28.927634
11.185,2.0,1.0,1.0,33.2,34.1,34.1,1.8,4.0,2.6725,0.4911827256498415,-0.03622930906344523,0.8497243300818916,0.005216720280561143,-0.162421,-28.729675
11.185,2.0,1.0,1.0,33.2,34.1,34.1,1.8,4.0,2.675,0.4820122362120767,-0.037130656534087356,0.8545005173177811,0.004923033661973328,-0.165961,-28.529665
11.185,2.0,1.0,1.0,33.2,34.1,34.1,1.8,4.0,2.6775,0.47269335660848366,-0.03805933599929803,0.8592174386954063,0.004608922200513739,-0.169633,-28.32755
11.185,2.0,1.0,1.0,33.2,34.1,34.1,1.8,4.0,2.68,0.46322308881178575,-0.039016402198058915,0.8638720397276283,0.004273099070357467,-0.173442,-28.123273
11.185,2.0,1.0,1.0,33.2,34.1,34.1,1.8,4.0,2.6825,0.4535983446301424,-0.040002958211227804,0.8684611020270447,0.003914184771938826,-0.177396,-27.916776
11.185,2.0,1.0,1.0,33.2,34.1,34.1,1.8,4.0,2.685,0.44381594233059635,-0.041020157790177515,0.8729812323012236,0.0035306993732847547,-0.181502,-27.707998
11.185,2.0,1.0,1.0,33.2,34.1,34.1,1.8,4.0,2.6875,0.433872603149395,-0.0420692077675924,0.8774288504245,0.00312105400439466,-0.18577,-27.496876
11.185,2.0,1.0,1.0,33.2,34.1,34.1,1.8,4.0,2.69,0.4237649476939248,-0.04315137054469135,0.8818001764931372,0.0026835415232585747,-0.190208,-27.283344
11.185,2.0,1.0,1.0,33.2,34.1,34.1,1.8,4.0,2.6925,0.41348949224345954,-0.04426796664661772,0.8860912167597923,0.0022163262622213304,-0.194825,-27.067336
11.185,2.0,1.0,1.0,33.2,34.1,34.1,1.8,4.0,2.695,0.4030426449591237,-0.04542037733459602,0.8902977483309557,0.0017174327522032926,-0.199632,-26.84878
11.185,2.0,1.0,1.0,33.2,34.1,34.1,1.8,4.0,2.6975,0.39242070201727297,-0.04661004725958302,0.8944153024971715,0.0011847333095822464,-0.20464,-26.627604
11.185,2.0,1.0,1.0,33.2,34.1,34.1,1.8,4.0,2.7,0.38161984368535895,-0.047838487137352385,0.8984391465501221,0.0006159343561192926,-0.209861,-26.403731
11.185,2.0,1.0,1.0,33.2,34.1,34.1,1.8,4.0,2.7025,0.3706361303652068,-0.049107276419067994,0.9023642639228296,8.5613259146124e-06,-0.215308,-26.177083
11.185,2.0,1.0,1.0,33.2,34.1,34.1,1.8,4.0,2.705,0.3594654986359421,-0.05041806592416265,0.9061853324690051,-0.0006400580052765569,-0.220994,-25.947576
11.185,2.0,1.0,1.0,33.2,34.1,34.1,1.8,4.0,2.7075,0.34810375733774396,-0.051772580393452367,0.9098967006745876,-0.0013328119542832541,-0.226934,-25.715127
11.185,2.0,1.0,1.0,33.2,34.1,34.1,1.8,4.0,2.71,0.33654658374860663,-0.05317262090950908,0.9134923615683256,-0.0020728253384501884,-0.233145,-25.479644
11.185,2.0,1.0,1.0,33.2,34.1,34.1,1.8,4.0,2.7125,0.324789519919775,-0.05462006711794252,0.9169659240685111,-0.002863482095032627,-0.239644,-25.241036
11.185,2.0,1.0,1.0,33.2,34.1,34.1,1.8,4.0,2.715,0.3128279692521227,-0.05611687916682994,0.9203105814689909,-0.003708450381381371,-0.24645,-24.999205
11.185,2.0,1.0,1.0,33.2,34.1,34.1,1.8,4.0,2.7175,0.30065719341606345,-0.05766509926141322,0.9235190767288594,-0.00461171046130194,-0.253583,-24.754051
11.185,2.0,1.0,1.0,33.2,34.1,34.1,1.8,4.0,2.72,0.28827230974259094,-0.05926685270648792,0.9265836641860375,-0.005577585724199618,-0.261067,-24.505468
11.185,2.0,1.0,1.0,33.2,34.1,34.1,1.8,4.0,2.7225,0.2756682892436927,-0.06092434827860257,0.9294960672644261,-0.006610777230787862,-0.268925,-24.253347
11.185,2.0,1.0,1.0,33.2,34.1,34.1,1.8,4.0,2.725,0.26283995545815075,-0.06263987773294666,0.9322474316866213,-0.007716402233101851,-0.277184,-23.997573
11.185,2.0,1.0,1.0,33.2,34.1,34.1,1.8,4.0,2.7275,0.24978198436505514,-0.064415814204039,0.934828273638209,-0.008900037178336427,-0.285873,-23.738026
11.185,2.0,1.0,1.0,33.2,34.1,34.1,1.8,4.0,2.73,0.23648890566453776,-0.06625460920299003,0.9372284222542264,-0.010167765776710512,-0.295024,-23.474581
11.185,2.0,1.0,1.0,33.2,34.1,34.1,1.8,4.0,2.7325,0.22295510579553457,-0.06815878784472808,0.9394369557121975,-0.011526232794438393,-0.304672,-23.207107
11.185,2.0,1.0,1.0,33.2,34.1,34.1,1.8,4.0,2.735,0.20917483314727062,-0.07013094185298517,0.9414421301176615,-0.012982704325337702,-0.314856,-22.935468
11.185,2.0,1.0,1.0,33.2,34.1,34.1,1.8,4.0,2.7375,0.19514220602837243,-0.07217371978514878,0.943231300255737,-0.01454513540018391,-0.325617,-22.659521
11.185,2.0,1.0,1.0,33.2,34.1,34.1,1.8,4.0,2.74,0.18085122409023627,-0.07428981378836921,0.944790831154178,-0.016222245913279552,-0.337001,-22.379116
11.185,2.0,1.0,1.0,33.2,34.1,34.1,1.8,4.0,2.7425,0.1662957840656081,-0.07648194203643875,0.9461059992577359,-0.01802360598260287,-0.349061,-22.094096
11.185,2.0,1.0,1.0,33.2,34.1,34.1,1.8,4.0,2.745,0.15146970088729106,-0.07875282579616628,0.9471608818484519,-0.01995973201509429,-0.361854,-21.804298
11.185,2.0,1.0,1.0,33.2,34.1,34.1,1.8,4.0,2.7475,0.13636673550527095,-0.08110515982254675,0.9479382331599823,-0.022042194923822717,-0.375441,-21.509551
11.185,2.0,1.0,1.0,33.2,34.1,34.1,1.8,4.0,2.75,0.120980631035915,-0.0835415744716698,0.948419345424515,-0.0242837421403524,-0.389894,-21.209675
11.185,2.0,1.0,1.0,33.2,34.1,34.1,1.8,4.0,2.7525,0.10530515927003183,-0.08606458753354716,0.9485838928571821,-0.026698435284485147,-0.40529,-20.904483
11.185,2.0,1.0,1.0,33.2,34.1,34.1,1.8,4.0,2.755,0.08933418005738834,-0.08867654330427066,0.9484097563249232,-0.02930180559457593,-0.421717,-20.593777
11.185,2.0,1.0,1.0,33.2,34.1,34.1,1.8,4.0,2.7575,0.07306171669900001,-0.09137953581340769,0.9478728261659203,-0.03211102948312665,-0.439272,-20.277352
11.185,2.0,1.0,1.0,33.2,34.1,34.1,1.8,4.0,2.76,0.05648205124717601,-0.09417531236695792,0.9469467803258802,-0.03514512686005898,-0.458065,-19.954994
11.185,2.0,1.0,1.0,33.2,34.1,34.1,1.8,4.0,2.7625,0.039589844577074276,-0.09706515261898403,0.9456028346664929,-0.03842518515175548,-0.478219,-19.626477
11.185,2.0,1.0,1.0,33.2,34.1,34.1,1.8,4.0,2.765,0.022380287303734796,-0.10004971719612363,0.9438094619932335,-0.04197461222332045,-0.499872,-19.291566
11.185,2.0,1.0,1.0,33.2,34.1,34.1,1.8,4.0,2.7675,0.004849289139440823,-0.10312885840552269,0.9415320760671736,-0.04581942166121162,-0.523182,-18.950017
11.185,2.0,1.0,1.0,33.2,34.1,34.1,1.8,4.0,2.77,-0.01300628380096054,-0.10630138367892471,0.9387326766453034,-0.049988554056564806,-0.548328,-18.601574
11.185,2.0,1.0,1.0,33.2,34.1,34.1,1.8,4.0,2.7725,-0.03118831183279029,-0.10956476004430167,0.9353694514924075,-0.054514237989366575,-0.575511,-18.245972
11.185,2.0,1.0,1.0,33.2,34.1,34.1,1.8,4.0,2.775,-0.04969704973178769,-0.11291474494785599,0.9313963314108773,-0.05943239426413092,-0.604963,-17.882936
11.185,2.0,1.0,1.0,33.2,34.1,34.1,1.8,4.0,2.7775,-0.06853066121821604,-0.11634492502096638,0.926762494771929,-0.06478308646020951,-0.636948,-17.51218
11.185,2.0,1.0,1.0,33.2,34.1,34.1,1.8,4.0,2.78,-0.08768463638107052,-0.11984613971327876,0.9214118189941423,-0.07061101984370523,-0.671771,-17.133412
11.185,2.0,1.0,1.0,33.2,34.1,34.1,1.8,4.0,2.7825,-0.10715106256396054,-0.12340576087358691,0.9152822781852421,-0.07696608886292822,-0.709783,-16.746329
11.185,2.0,1.0,1.0,33.2,34.1,34.1,1.8,4.0,2.785,-0.12691771181144626,-0.12700679209893972,0.9083052891533202,-0.08390397040646908,-0.751386,-16.350627
11.185,2.0,1.0,1.0,33.2,34.1,34.1,1.8,4.0,2.7875,-0.1469668988017196,-0.1306267427083237,0.9004050128038991,-0.0914867551488127,-0.797053,-15.945995
11.185,2.0,1.0,1.0,33.2,34.1,34.1,1.8,4.0,2.79,-0.16727405197290166,-0.13423622024731716,0.8914976254345759,-0.09978360178821033,-0.847328,-15.532124
11.185,2.0,1.0,1.0,33.2,34.1,34.1,1.8,4.0,2.7925,-0.18780592703524077,-0.13779717225966723,0.8814905858587704,-0.1088713875724386,-0.902853,-15.10871
11.185,2.0,1.0,1.0,33.2,34.1,34.1,1.8,4.0,2.795,-0.20851837614344454,-0.14126069258212712,0.8702819413929415,-0.1188353114773535,-0.964377,-14.675461
11.185,2.0,1.0,1.0,33.2,34.1,34.1,1.8,4.0,2.7975,-0.22935356789618422,-0.1445642898639702,0.8577597409949664,-0.12976938132315366,-1.032783,-14.232105
11.185,2.0,1.0,1.0,33.2,34.1,34.1,1.8,4.0,2.8,-0.2502365338809886,-0.14762849724787835,0.84380166065226,-0.141776679636793,-1.109115,-13.778399
11.185,2.0,1.0,1.0,33.2,34.1,34.1,1.8,4.0,2.8025,-0.27107089869990986,-0.15035268419340655,0.8282749990907636,-0.154969250680951,-1.194614,-13.314147
11.185,2.0,1.0,1.0,33.2,34.1,34.1,1.8,4.0,2.805,-0.2917336363325235,-0.1526099183077703,0.811037277033073,-0.1694673768764594,-1.290755,-12.839217
11.185,2.0,1.0,1.0,33.2,34.1,34.1,1.8,4.0,2.8075,-0.3120686937689126,-0.15424072417418894,0.7919377780691479,-0.18539790953487922,-1.399303,-12.353563
11.185,2.0,1.0,1.0,33.2,34.1,34.1,1.8,4.0,2.81,-0.3318793460623145,-0.1550456103962804,0.7708205122654581,-0.2028911780896793,-1.522373,-11.85726
11.185,2.0,1.0,1.0,33.2,34.1,34.1,1.8,4.0,2.8125,-0.350919216918271,-0.154776306753451,0.747529273079744,-0.222075816034173,-1.662511,-11.350538
11.185,2.0,1.0,1.0,33.2,34.1,34.1,1.8,4.0,2.815,-0.36888205003568114,-0.15312580436909334,0.721915698191761,-0.2430706066880593,-1.822785,-10.833838
11.185,2.0,1.0,1.0,33.2,34.1,34.1,1.8,4.0,2.8175,-0.3853906006150143,-0.14971757422559231,0.6938515284418167,-0.2659721751325239,-2.006899,-10.307866
11.185,2.0,1.0,1.0,33.2,34.1,34.1,1.8,4.0,2.82,-0.3999855071511351,-0.14409482518377278,0.6632465540106729,-0.29083706649495056,-2.219324,-9.773674
11.185,2.0,1.0,1.0,33.2,34.1,34.1,1.8,4.0,2.8225,-0.41211579418234545,-0.13571144304883118,0.6300739623684457,-0.3176565356843916,-2.465452,-9.232749
11.185,2.0,1.0,1.0,33.2,34.1,34.1,1.8,4.0,2.825,-0.4211338441686977,-0.12392742127653984,0.5944047928209503,-0.3463223934675659,-2.751748,-8.687112
11.185,2.0,1.0,1.0,33.2,34.1,34.1,1.8,4.0,2.8275,-0.4262993138013516,-0.1080132008752721,0.5564526621603492,-0.3765827997549706,-3.085908,-8.139441
11.185,2.0,1.0,1.0,33.2,34.1,34.1,1.8,4.0,2.83,-0.4267984592562906,-0.08716928185510105,0.5166283931840823,-0.40798842076487507,-3.476939,-7.593184
