1,w,sub_t,h,l1,l2,l3,g1,g2,Freq,S11_re,S21_re,S11_img,S21_img,S11_dB,S21_dB
11.185,2.0,1.0,1.0,33.0,33.2,33.2,1.5,2.1,2.5,0.89528525034756,-0.0102432608126616,0.430372497620431,0.0133862039016878,-0.057902,-35.465061
11.185,2.0,1.0,1.0,33.0,33.2,33.2,1.5,2.1,2.5025,0.8925113572709232,-0.010480906434724479,0.4359448592384452,0.013500021945748779,-0.058481,-35.344685
11.185,2.0,1.0,1.0,33.0,33.2,33.2,1.5,2.1,2.505,0.8896904088999782,-0.01072345597663169,0.4415215010484351,0.0136140871476044,-0.059072,-35.223928
11.185,2.0,1.0,1.0,33.0,33.2,33.2,1.5,2.1,2.5075,0.8868219042037917,-0.010971021304998621,0.4471022962279397,0.013728376046995472,-0.059674,-35.102782
11.185,2.0,1.0,1.0,33.0,33.2,33.2,1.5,2.1,2.51,0.8839053324842914,-0.011223717485242675,0.4526871132103575,0.013842863847300213,-0.060287,-34.98124
11.185,2.0,1.0,1.0,33.0,33.2,33.2,1.5,2.1,2.5125,0.880940173153533,-0.011481662887168955,0.4582758154955139,0.013957524344991479,-0.060912,-34.859292
11.185,2.0,1.0,1.0,33.0,33.2,33.2,1.5,2.1,2.515,0.8779258955048542,-0.011744979294465737,0.4638682614525753,0.01407232985544019,-0.06155,-34.73693
11.185,2.0,1.0,1.0,33.0,33.2,33.2,1.5,2.1,2.5175,0.8748619584777247,-0.012013792018273899,0.46946430411494267,0.014187251134856497,-0.062199,-34.614146
11.185,2.0,1.0,1.0,33.0,33.2,33.2,1.5,2.1,2.52,0.8717478104160716,-0.012288230015005865,0.47506379096677986,0.0143022572981517,-0.062862,-34.49093
11.185,2.0,1.0,1.0,33.0,33.2,33.2,1.5,2.1,2.5225,0.8685828888198811,-0.012568426008594645,0.48066656372076527,0.014417315732487857,-0.063537,-34.367274
11.185,2.0,1.0,1.0,33.0,33.2,33.2,1.5,2.1,2.525,0.8653666200898398,-0.012854516617363497,0.4862724580866846,0.014532392006268846,-0.064226,-34.243169
11.185,2.0,1.0,1.0,33.0,33.2,33.2,1.5,2.1,2.5275,0.86209841926479,-0.013146642485715255,0.4918813035304279,0.014647449773310174,-0.064928,-34.118606
11.185,2.0,1.0,1.0,33.0,33.2,33.2,1.5,2.1,2.53,0.8587776897517599,-0.013444948420848585,0.49749292302293824,0.014762450671908811,-0.065645,-33.993575
11.185,2.0,1.0,1.0,33.0,33.2,33.2,1.5,2.1,2.5325,0.855403823048314,-0.013749583534719317,0.5031071327786413,0.014877354218515848,-0.066376,-33.868067
11.185,2.0,1.0,1.0,33.0,33.2,33.2,1.5,2.1,2.535,0.851976198456965,-0.014060701391473888,0.5087237419828606,0.014992117695697072,-0.067123,-33.742073
11.185,2.0,1.0,1.0,33.0,33.2,33.2,1.5,2.1,2.5375,0.848494182791385,-0.014378460160592911,0.5143425525076804,0.015106696034044301,-0.067884,-33.615583
11.185,2.0,1.0,1.0,33.0,33.2,33.2,1.5,2.1,2.54,0.8449571300741234,-0.01470302277599416,0.5199633586157092,0.01522104168768091,-0.068661,-33.488587
11.185,2.0,1.0,1.0,33.0,33.2,33.2,1.5,2.1,2.5425,0.8413643812255532,-0.01503455710135496,0.5255859466511574,0.01533510450297933,-0.069455,-33.361076
11.185,2.0,1.0,1.0,33.0,33.2,33.2,1.5,2.1,2.545,0.8377152637437295,-0.01537323610192747,0.5312100947176044,0.01544883158008631,-0.070265,-33.233038
11.185,2.0,1.0,1.0,33.0,33.2,33.2,1.5,2.1,2.5475,0.8340090913748636,-0.01571923802313081,0.5368355723417993,0.015562167126821399,-0.071093,-33.104465
11.185,2.0,1.0,1.0,33.0,33.2,33.2,1.5,2.1,2.55,0.8302451637740659,-0.016072746576219765,0.5424621401228193,0.015675052304489425,-0.071938,-32.975346
11.185,2.0,1.0,1.0,33.0,33.2,33.2,1.5,2.1,2.5525,0.8264227661560395,-0.0164339511313412,0.5480895493658307,0.01578742506511387,-0.072801,-32.84567
11.185,2.0,1.0,1.0,33.0,33.2,33.2,1.5,2.1,2.555,0.8225411689353531,-0.016803046918306176,0.5537175416996948,0.015899219979568183,-0.073682,-32.715427
11.185,2.0,1.0,1.0,33.0,33.2,33.2,1.5,2.1,2.5575,0.818599627355938,-0.017180235235418877,0.5593458486776087,0.016010368056043986,-0.074584,-32.584605
11.185,2.0,1.0,1.0,33.0,33.2,33.2,1.5,2.1,2.56,0.8145973811094256,-0.01756572366672076,0.5649741913598934,0.01612079654825946,-0.075504,-32.453194
11.185,2.0,1.0,1.0,33.0,33.2,33.2,1.5,2.1,2.5625,0.8105336539419283,-0.01795972630802388,0.5706022798780281,0.01623042875276986,-0.076446,-32.321183
11.185,2.0,1.0,1.0,33.0,33.2,33.2,1.5,2.1,2.565,0.8064076532488523,-0.018362464002126426,0.5762298129789605,0.016339183794699102,-0.077408,-32.188559
11.185,2.0,1.0,1.0,33.0,33.2,33.2,1.5,2.1,2.5675,0.8022185696573182,-0.018774164583618528,0.5818564775486518,0.01644697640116281,-0.078392,-32.055313
11.185,2.0,1.0,1.0,33.0,33.2,33.2,1.5,2.1,2.57,0.7979655765957411,-0.019195063133709164,0.5874819481137786,0.016553716661605593,-0.079398,-31.921431
11.185,2.0,1.0,1.0,33.0,33.2,33.2,1.5,2.1,2.5725,0.7936478298501087,-0.01962540224552199,0.5931058863204238,0.016659309774219044,-0.080427,-31.786902
11.185,2.0,1.0,1.0,33.0,33.2,33.2,1.5,2.1,2.575,0.7892644671064799,-0.020065432300329346,0.598727940388537,0.016763655777549992,-0.08148,-31.651714
11.185,2.0,1.0,1.0,33.0,33.2,33.2,1.5,2.1,2.5775,0.7848146074792045,-0.02051541175521566,0.6043477445408488,0.016866649266344538,-0.082557,-31.515855
11.185,2.0,1.0,1.0,33.0,33.2,33.2,1.5,2.1,2.58,0.7802973510243475,-0.020975607442682603,0.6099649184048596,0.016968179090607473,-0.083659,-31.379311
11.185,2.0,1.0,1.0,33.0,33.2,33.2,1.5,2.1,2.5825,0.7757117782377783,-0.02144629488273402,0.6155790663864288,0.01706812803678324,-0.084787,-31.242071
11.185,2.0,1.0,1.0,33.0,33.2,33.2,1.5,2.1,2.585,0.771056949537368,-0.02192775860799916,0.6211897770133913,0.01716637248988527,-0.085942,-31.104121
11.185,2.0,1.0,1.0,33.0,33.2,33.2,1.5,2.1,2.5875,0.7663319047287179,-0.022420292502482245,0.6267966222475432,0.01726278207531817,-0.087125,-30.965447
11.185,2.0,1.0,1.0,33.0,33.2,33.2,1.5,2.1,2.59,0.761535662453814,-0.022924200154547898,0.6323991567632098,0.01735721927904301,-0.088336,-30.826037
11.185,2.0,1.0,1.0,33.0,33.2,33.2,1.5,2.1,2.5925,0.7566672196219881,-0.02343979522478352,0.6379969171905142,0.017449539044641034,-0.089577,-30.685877
11.185,2.0,1.0,1.0,33.0,33.2,33.2,1.5,2.1,2.595,0.7517255508225437,-0.02396740182940257,0.6435894213213208,0.017539588345720863,-0.090848,-30.544952
11.185,2.0,1.0,1.0,33.0,33.2,33.2,1.5,2.1,2.5975,0.7467096077183674,-0.024507354939886598,0.6491761672757133,0.017627205732002844,-0.092151,-30.403249
11.185,2.0,1.0,1.0,33.0,33.2,33.2,1.5,2.1,2.6,0.7416183184198415,-0.025060000799588943,0.6547566326267108,0.017712220847287505,-0.093486,-30.260753
11.185,2.0,1.0,1.0,33.0,33.2,33.2,1.5,2.1,2.6025,0.7364505868383456,-0.0256256973580563,0.6603302734807663,0.017794453917381683,-0.094855,-30.117448
11.185,2.0,1.0,1.0,33.0,33.2,33.2,1.5,2.1,2.605,0.7312052920185936,-0.026204814723853657,0.6658965235114447,0.01787371520591001,-0.096259,-29.973321
11.185,2.0,1.0,1.0,33.0,33.2,33.2,1.5,2.1,2.6075,0.7258812874490559,-0.026797735636711388,0.6714547929434751,0.017949804435782573,-0.097699,-29.828355
11.185,2.0,1.0,1.0,33.0,33.2,33.2,1.5,2.1,2.61,0.7204774003496721,-0.02740485595984282,0.6770044674841893,0.01802251017391789,-0.099176,-29.682535
11.185,2.0,1.0,1.0,33.0,33.2,33.2,1.5,2.1,2.6125,0.714992430936045,-0.028026585193316415,0.6825449071991515,0.018091609176636488,-0.100691,-29.535845
11.185,2.0,1.0,1.0,33.0,33.2,33.2,1.5,2.1,2.615,0.7094251516592749,-0.028663347009397072,0.688075445328559,0.01815686569293858,-0.102246,-29.388269
11.185,2.0,1.0,1.0,33.0,33.2,33.2,1.5,2.1,2.6175,0.7037743064205866,-0.02931557981080416,0.6935953870407254,0.018218030722663186,-0.103843,-29.239789
11.185,2.0,1.0,1.0,33.0,33.2,33.2,1.5,2.1,2.62,0.6980386097598643,-0.02998373731286622,0.6991040081187379,0.018274841226287367,-0.105483,-29.090389
11.185,2.0,1.0,1.0,33.0,33.2,33.2,1.5,2.1,2.6225,0.6922167460171922,-0.03066828915058594,0.7046005535760551,0.01832701928287159,-0.107167,-28.940052
11.185,2.0,1.0,1.0,33.0,33.2,33.2,1.5,2.1,2.625,0.686307368466497,-0.0313697215116551,0.710084236196515,0.0183742711923725,-0.108896,-28.788759
11.185,2.0,1.0,1.0,33.0,33.2,33.2,1.5,2.1,2.6275,0.6803090984203454,-0.032088537796494995,0.715554234993903,0.018416286518247338,-0.110674,-28.636493
11.185,2.0,1.0,1.0,33.0,33.2,33.2,1.5,2.1,2.63,0.6742205243049577,-0.032825259306419066,0.72100969358584,0.018452737065938935,-0.112501,-28.483234
11.185,2.0,1.0,1.0,33.0,33.2,33.2,1.5,2.1,2.6325,0.6680402007044873,-0.03358042596104344,0.7264497184763778,0.0184832757924742,-0.11438,-28.328965
11.185,2.0,1.0,1.0,33.0,33.2,33.2,1.5,2.1,2.635,0.6617666473735961,-0.034354597046090875,0.7318733772412523,0.018507535642015887,-0.116312,-28.173665
11.185,2.0,1.0,1.0,33.0,33.2,33.2,1.5,2.1,2.6375,0.6553983482173886,-0.03514835199274985,0.7372796966092697,0.018525128301781754,-0.118299,-28.017315
11.185,2.0,1.0,1.0,33.0,33.2,33.2,1.5,2.1,2.64,0.6489337502377254,-0.03596229118976608,0.7426676604328306,0.018535642872279413,-0.120344,-27.859894
11.185,2.0,1.0,1.0,33.0,33.2,33.2,1.5,2.1,2.6425,0.6423712624450091,-0.03679703682944462,0.7480362075400071,0.01853864444529731,-0.122448,-27.701382
11.185,2.0,1.0,1.0,33.0,33.2,33.2,1.5,2.1,2.645,0.6357092547345156,-0.03765323378874237,0.753384229460005,0.018533672582539545,-0.124615,-27.541758
11.185,2.0,1.0,1.0,33.0,33.2,33.2,1.5,2.1,2.6475,0.6289460567264064,-0.0385315505466155,0.7587105680132087,0.01852023968718392,-0.126847,-27.380999
11.185,2.0,1.0,1.0,33.0,33.2,33.2,1.5,2.1,2.65,0.6220799565685842,-0.039432680138767974,0.764014012756273,0.018497829259984663,-0.129146,-27.219084
11.185,2.0,1.0,1.0,33.0,33.2,33.2,1.5,2.1,2.6525,0.6151091997016555,-0.040357341150902476,0.7692932982719591,0.01846589403081265,-0.131515,-27.05599
11.185,2.0,1.0,1.0,33.0,33.2,33.2,1.5,2.1,2.655,0.6080319875852958,-0.04130627875152984,0.7745471012925794,0.018423853955738426,-0.133957,-26.891693
11.185,2.0,1.0,1.0,33.0,33.2,33.2,1.5,2.1,2.6575,0.6008464763854686,-0.04228026576531463,0.7797740376449683,0.018371094068891734,-0.136475,-26.72617
11.185,2.0,1.0,1.0,33.0,33.2,33.2,1.5,2.1,2.66,0.5935507756220445,-0.04328010378783932,0.7849726590039208,0.01830696217738417,-0.139073,-26.559395
11.185,2.0,1.0,1.0,33.0,33.2,33.2,1.5,2.1,2.6625,0.5861429467765503,-0.044306624342546945,0.7901414494398978,0.018230766386537065,-0.141753,-26.391345
11.185,2.0,1.0,1.0,33.0,33.2,33.2,1.5,2.1,2.665,0.5786210018599504,-0.045360690080465206,0.7952788217456361,0.018141772441513524,-0.14452,-26.221992
11.185,2.0,1.0,1.0,33.0,33.2,33.2,1.5,2.1,2.6675,0.5709829019406332,-0.04644319602312001,0.8003831135249289,0.018039200870201496,-0.147377,-26.051312
11.185,2.0,1.0,1.0,33.0,33.2,33.2,1.5,2.1,2.67,0.5632265556330215,-0.047555070848808306,0.8054525830254401,0.01792222391081251,-0.150328,-25.879276
11.185,2.0,1.0,1.0,33.0,33.2,33.2,1.5,2.1,2.6725,0.555349817547591,-0.04869727822210924,0.8104854046958007,0.01778996220615042,-0.153377,-25.705857
11.185,2.0,1.0,1.0,33.0,33.2,33.2,1.5,2.1,2.675,0.5473504867034901,-0.04987081816615336,0.8154796644454926,0.017641481244835125,-0.156529,-25.531026
11.185,2.0,1.0,1.0,33.0,33.2,33.2,1.5,2.1,2.6775,0.539226304905419,-0.05107672847674992,0.8204333545841295,0.0174757875279389,-0.159789,-25.354754
11.185,2.0,1.0,1.0,33.0,33.2,33.2,1.5,2.1,2.68,0.5309749550870156,-0.052316086176954595,0.8253443684146212,0.017291824437471234,-0.163161,-25.177011
11.185,2.0,1.0,1.0,33.0,33.2,33.2,1.5,2.1,2.6825,0.5225940596236681,-0.05359000901004934,0.830210494452409,0.01708846778093194,-0.166651,-24.997766
11.185,2.0,1.0,1.0,33.0,33.2,33.2,1.5,2.1,2.685,0.5140811786184714,-0.05489965696817721,0.8350294102404061,0.016864520983700438,-0.170265,-24.816987
11.185,2.0,1.0,1.0,33.0,33.2,33.2,1.5,2.1,2.6875,0.505433808165987,-0.056246233853007685,0.839798675726494,0.016618709898334017,-0.174008,-24.634642
11.185,2.0,1.0,1.0,33.0,33.2,33.2,1.5,2.1,2.69,0.49664937859958996,-0.057630988863777786,0.8445157261673277,0.016349677196868435,-0.177888,-24.450698
11.185,2.0,1.0,1.0,33.0,33.2,33.2,1.5,2.1,2.6925,0.4877252527294517,-0.05905521820684397,0.8491778645188074,0.016055976308930676,-0.181909,-24.265119
11.185,2.0,1.0,1.0,33.0,33.2,33.2,1.5,2.1,2.695,0.47865872407980603,-0.06052026671943384,0.8537822532698291,0.015736064864847535,-0.186081,-24.07787
11.185,2.0,1.0,1.0,33.0,33.2,33.2,1.5,2.1,2.6975,0.46944701513585396,-0.06202752949860106,0.8583259056718152,0.015388297598923259,-0.190409,-23.888915
11.185,2.0,1.0,1.0,33.0,33.2,33.2,1.5,2.1,2.7,0.4600872756128654,-0.0635784535243799,0.8628056763119213,0.015010918663638514,-0.194904,-23.698216
11.185,2.0,1.0,1.0,33.0,33.2,33.2,1.5,2.1,2.7025,0.45057658076242607,-0.0651745392637887,0.8672182509728315,0.014602053300624834,-0.199572,-23.505736
11.185,2.0,1.0,1.0,33.0,33.2,33.2,1.5,2.1,2.705,0.4409119297337358,-0.06681734223955678,0.871560135716471,0.014159698808861393,-0.204423,-23.311433
11.185,2.0,1.0,1.0,33.0,33.2,33.2,1.5,2.1,2.7075,0.43109024401122875,-0.06850847454419497,0.8758276451228075,0.01368171474455632,-0.209468,-23.115267
11.185,2.0,1.0,1.0,33.0,33.2,33.2,1.5,2.1,2.71,0.42110836595378004,-0.07024960627619634,0.8800168896081706,0.013165812280558896,-0.214716,-22.917197
11.185,2.0,1.0,1.0,33.0,33.2,33.2,1.5,2.1,2.7125,0.41096305746542505,-0.07204246687065173,0.8841237617399796,0.012609542645824466,-0.22018,-22.717179
11.185,2.0,1.0,1.0,33.0,33.2,33.2,1.5,2.1,2.715,0.40065099883298716,-0.07388884629127093,0.8881439214565131,0.012010284557360713,-0.22587,-22.515167
11.185,2.0,1.0,1.0,33.0,33.2,33.2,1.5,2.1,2.7175,0.39016878777243574,-0.07579059604457662,0.8920727800911614,0.011365230548122131,-0.2318,-22.311117
11.185,2.0,1.0,1.0,33.0,33.2,33.2,1.5,2.1,2.72,0.3795129387333126,-0.07774962996972391,0.8959054830905225,0.010671372084417817,-0.237983,-22.10498
11.185,2.0,1.0,1.0,33.0,33.2,33.2,1.5,2.1,2.7225,0.3686798825193806,-0.07976792474880358,0.8996368913044849,0.009925483355444166,-0.244435,-21.896709
11.185,2.0,1.0,1.0,33.0,33.2,33.2,1.5,2.1,2.725,0.3576659662940481,-0.08184752007236251,0.9032615607141339,0.009124103605460187,-0.251171,-21.686252
11.185,2.0,1.0,1.0,33.0,33.2,33.2,1.5,2.1,2.7275,0.3464674540512373,-0.08399051838299575,0.9067737204496734,0.008263517865760742,-0.258208,-21.473558
11.185,2.0,1.0,1.0,33.0,33.2,33.2,1.5,2.1,2.73,0.3350805276467315,-0.08619908410584541,0.9101672489355468,0.007339735928871778,-0.265565,-21.258573
11.185,2.0,1.0,1.0,33.0,33.2,33.2,1.5,2.1,2.7325,0.3235012885017762,-0.088475442258379,0.9134356479834242,0.006348469391157304,-0.273262,-21.041242
11.185,2.0,1.0,1.0,33.0,33.2,33.2,1.5,2.1,2.735,0.3117257601105498,-0.09082187631239325,0.9165720146355183,0.005285106572169609,-0.281319,-20.821509
11.185,2.0,1.0,1.0,33.0,33.2,33.2,1.5,2.1,2.7375,0.2997498915063342,-0.0932407251583251,0.9195690105407771,0.00414468509946727,-0.289761,-20.599314
11.185,2.0,1.0,1.0,33.0,33.2,33.2,1.5,2.1,2.74,0.28756956186869953,-0.09573437899497281,0.9224188286246073,0.0029218619261523067,-0.298611,-20.374598
11.185,2.0,1.0,1.0,33.0,33.2,33.2,1.5,2.1,2.7425,0.275180586486235,-0.09830527393592255,0.9251131567890006,0.00161088052491831,-0.307898,-20.147298
11.185,2.0,1.0,1.0,33.0,33.2,33.2,1.5,2.1,2.745,0.26257872432755647,-0.10095588508640954,0.9276431383539305,0.00020553497688945748,-0.317649,-19.917349
11.185,2.0,1.0,1.0,33.0,33.2,33.2,1.5,2.1,2.7475,0.24975968751822042,-0.10368871779999934,0.9299993289228277,-0.001300869354112713,-0.327897,-19.684686
11.185,2.0,1.0,1.0,33.0,33.2,33.2,1.5,2.1,2.75,0.236719153074296,-0.106506296772052,0.932171649324687,-0.00291555890099603,-0.338677,-19.449241
11.185,2.0,1.0,1.0,33.0,33.2,33.2,1.5,2.1,2.7525,0.2234527773060825,-0.10941115256496395,0.9341493342530333,-0.004646339097451864,-0.350025,-19.210943
11.185,2.0,1.0,1.0,33.0,33.2,33.2,1.5,2.1,2.755,0.2099562133796628,-0.11240580508685856,0.9359208761877057,-0.006501646111256149,-0.361982,-18.96972
11.185,2.0,1.0,1.0,33.0,33.2,33.2,1.5,2.1,2.7575,0.19622513261167934,-0.11549274345863526,0.9374739641496025,-0.008490603546675156,-0.374594,-18.725497
11.185,2.0,1.0,1.0,33.0,33.2,33.2,1.5,2.1,2.76,0.18225525017665473,-0.11867440160151137,0.9387954168016511,-0.01062308459208556,-0.387907,-18.478198
11.185,2.0,1.0,1.0,33.0,33.2,33.2,1.5,2.1,2.7625,0.1680423560290783,-0.12195312875549523,0.9398711093720891,-0.01290978012539065,-0.401976,-18.227745
11.185,2.0,1.0,1.0,33.0,33.2,33.2,1.5,2.1,2.765,0.15358235198820264,-0.12533115399498893,0.9406858938399664,-0.015362273325305922,-0.416858,-17.974055
11.185,2.0,1.0,1.0,33.0,33.2,33.2,1.5,2.1,2.7675,0.13887129610602167,-0.1288105436368142,0.9412235117892024,-0.017993121369413355,-0.432617,-17.717047
11.185,2.0,1.0,1.0,33.0,33.2,33.2,1.5,2.1,2.77,0.12390545564330582,-0.13239315023339973,0.9414664993089643,-0.020815944827679463,-0.449323,-17.456634
11.185,2.0,1.0,1.0,33.0,33.2,33.2,1.5,2.1,2.7725,0.10868137022082064,-0.13608055160385804,0.9413960832978848,-0.02384552537959848,-0.467052,-17.192731
11.185,2.0,1.0,1.0,33.0,33.2,33.2,1.5,2.1,2.775,0.09319592699957159,-0.1398739780714006,0.9409920685221516,-0.02709791248981785,-0.485889,-16.925248
11.185,2.0,1.0,1.0,33.0,33.2,33.2,1.5,2.1,2.7775,0.07744645008335685,-0.1437742257390381,0.9402327147889046,-0.030590539664941203,-0.505927,-16.654094
11.185,2.0,1.0,1.0,33.0,33.2,33.2,1.5,2.1,2.78,0.06143080673815841,-0.14778155323758133,0.9390946036348321,-0.03434235087507817,-0.527269,-16.379176
11.185,2.0,1.0,1.0,33.0,33.2,33.2,1.5,2.1,2.7825,0.04514753349678138,-0.15189555891004372,0.9375524940062118,-0.03837393764669921,-0.550029,-16.100402
11.185,2.0,1.0,1.0,33.0,33.2,33.2,1.5,2.1,2.785,0.028595985775461838,-0.15611503484269076,0.9355791665355772,-0.042707687204075924,-0.574334,-15.817675
11.185,2.0,1.0,1.0,33.0,33.2,33.2,1.5,2.1,2.7875,0.011776515285702848,-0.1604377935017928,0.9331452562207445,-0.04736794183582916,-0.600323,-15.530901
11.185,2.0,1.0,1.0,33.0,33.2,33.2,1.5,2.1,2.79,-0.005309319706257299,-0.16486046197211993,0.9302190736094915,-0.05238116936579568,-0.628154,-15.239984
11.185,2.0,1.0,1.0,33.0,33.2,33.2,1.5,2.1,2.7925,-0.022658505322537766,-0.16937823790296164,0.9267664150210025,-0.0577761441804346,-0.657999,-14.944828
11.185,2.0,1.0,1.0,33.0,33.2,33.2,1.5,2.1,2.795,-0.04026627722833933,-0.17398460023466303,0.9227503629364041,-0.06358413766530675,-0.690053,-14.645339
11.185,2.0,1.0,1.0,33.0,33.2,33.2,1.5,2.1,2.7975,-0.05812577180822596,-0.17867096658923304,0.9181310785219181,-0.06983911607465564,-0.724534,-14.341425
11.185,2.0,1.0,1.0,33.0,33.2,33.2,1.5,2.1,2.8,-0.07622761380640083,-0.18342628785206982,0.9128655893819867,-0.07657794272845955,-0.761686,-14.032997
11.185,2.0,1.0,1.0,33.0,33.2,33.2,1.5,2.1,2.8025,-0.09455942933316626,-0.18823656894455407,0.9069075771697783,-0.08384057990736336,-0.80178,-13.71997
11.185,2.0,1.0,1.0,33.0,33.2,33.2,1.5,2.1,2.805,-0.11310527143582093,-0.19308430309779057,0.9002071717283241,-0.09167028377893982,-0.845127,-13.402265
11.185,2.0,1.0,1.0,33.0,33.2,33.2,1.5,2.1,2.8075,-0.13184494359274176,-0.1979478051145301,0.8927107611480326,-0.10011378298867184,-0.892072,-13.07981
11.185,2.0,1.0,1.0,33.0,33.2,33.2,1.5,2.1,2.81,-0.15075320457392394,-0.20280042720908922,0.8843608306943453,-0.10922142799810373,-0.943009,-12.752546
11.185,2.0,1.0,1.0,33.0,33.2,33.2,1.5,2.1,2.8125,-0.169798836228299,-0.207609639151424,0.875095848215917,-0.119047293619351,-0.998381,-12.420423
11.185,2.0,1.0,1.0,33.0,33.2,33.2,1.5,2.1,2.815,-0.18894355408639554,-0.21233595279020828,0.864850219670401,-0.12964921119967973,-1.058692,-12.083411
11.185,2.0,1.0,1.0,33.0,33.2,33.2,1.5,2.1,2.8175,-0.2081407394903628,-0.21693166987308893,0.8535543461340936,-0.14108869922214817,-1.124516,-11.741497
11.185,2.0,1.0,1.0,33.0,33.2,33.2,1.5,2.1,2.82,-0.22733397171418313,-0.22133943185072774,0.8411348234704394,-0.15343075133385187,-1.196504,-11.394695
11.185,2.0,1.0,1.0,33.0,33.2,33.2,1.5,2.1,2.8225,-0.24645533985538118,-0.22549055168217216,0.8275148381248585,-0.16674342859097838,-1.275401,-11.043048
11.185,2.0,1.0,1.0,33.0,33.2,33.2,1.5,2.1,2.825,-0.2654235180913154,-0.2293031114730838,0.8126148276812545,-0.18109718763137966,-1.362059,-10.686636
11.185,2.0,1.0,1.0,33.0,33.2,33.2,1.5,2.1,2.8275,-0.28414159550168333,-0.23267981737253987,0.796353493162844,-0.19656385824999917,-1.457454,-10.325585
11.185,2.0,1.0,1.0,33.0,33.2,33.2,1.5,2.1,2.83,-0.30249466485565685,-0.23550561630970554,0.7786492716735048,-0.21321516237600768,-1.562705,-9.960073
