1,w,sub_t,h,l1,l2,l3,g1,g2,Freq,S11_re,S21_re,S11_img,S21_img,S11_dB,S21_dB
11.185,2.0,1.0,1.0,33.0,33.1,33.1,3.0,2.7,2.5,0.898049539752985,-0.0053862096777372,0.427086777344389,0.00569166729666854,-0.048493,-42.117868
11.185,2.0,1.0,1.0,33.0,33.1,33.1,3.0,2.7,2.5025,0.8954045085336501,-0.005500092185512014,0.43249981101923524,0.005728550050194373,-0.048892,-42.001958
11.185,2.0,1.0,1.0,33.0,33.1,33.1,3.0,2.7,2.505,0.8927168238948868,-0.005615971859712837,0.43791522574707015,0.005765159233180893,-0.049297,-41.885845
11.185,2.0,1.0,1.0,33.0,33.1,33.1,3.0,2.7,2.5075,0.8899861036923585,-0.0057338866682042815,0.44333289147075977,0.005801478231229059,-0.049709,-41.769524
11.185,2.0,1.0,1.0,33.0,33.1,33.1,3.0,2.7,2.51,0.8872119595139762,-0.005853875490147331,0.44875267423116044,0.0058374898102365215,-0.050128,-41.652987
11.185,2.0,1.0,1.0,33.0,33.1,33.1,3.0,2.7,2.5125,0.884393996569166,-0.005975978142122219,0.4541744360345268,0.005873176091773932,-0.050553,-41.536226
11.185,2.0,1.0,1.0,33.0,33.1,33.1,3.0,2.7,2.515,0.8815318135761208,-0.0061002354051164906,0.45959803471557137,0.005908518527396332,-0.050986,-41.419234
11.185,2.0,1.0,1.0,33.0,33.1,33.1,3.0,2.7,2.5175,0.878625002647006,-0.006226689052409294,0.46502332379599753,0.0059434978718377615,-0.051426,-41.302004
11.185,2.0,1.0,1.0,33.0,33.1,33.1,3.0,2.7,2.52,0.8756731491710747,-0.006355381878387607,0.47045015233837056,0.005978094155036471,-0.051873,-41.184528
11.185,2.0,1.0,1.0,33.0,33.1,33.1,3.0,2.7,2.5225,0.8726758316956689,-0.00648635772832955,0.4758783647951306,0.006012286652933025,-0.052328,-41.066798
11.185,2.0,1.0,1.0,33.0,33.1,33.1,3.0,2.7,2.525,0.8696326218050567,-0.006619661529191656,0.48130780085259667,0.0060460538569825145,-0.052791,-40.948807
11.185,2.0,1.0,1.0,33.0,33.1,33.1,3.0,2.7,2.5275,0.866543083997077,-0.006755339321440083,0.4867382952697711,0.006079373442317819,-0.053261,-40.830547
11.185,2.0,1.0,1.0,33.0,33.1,33.1,3.0,2.7,2.53,0.8634067755575502,-0.006893438291965484,0.4921696777117511,0.006112222234497137,-0.05374,-40.71201
11.185,2.0,1.0,1.0,33.0,33.1,33.1,3.0,2.7,2.5325,0.8602232464324199,-0.007034006808123932,0.49760177257755905,0.006144576174766869,-0.054226,-40.593189
11.185,2.0,1.0,1.0,33.0,33.1,33.1,3.0,2.7,2.535,0.8569920390975808,-0.007177094452949212,0.5030343988221858,0.006176410283765006,-0.054721,-40.474074
11.185,2.0,1.0,1.0,33.0,33.1,33.1,3.0,2.7,2.5375,0.8537126884263655,-0.007322752061581263,0.508467369772627,0.006207698623588071,-0.055225,-40.354659
11.185,2.0,1.0,1.0,33.0,33.1,33.1,3.0,2.7,2.54,0.8503847215546375,-0.007471031758960526,0.5139004929376997,0.006238414258138724,-0.055738,-40.234935
11.185,2.0,1.0,1.0,33.0,33.1,33.1,3.0,2.7,2.5425,0.8470076577434595,-0.007621986998837264,0.5193335698114049,0.006268529211667958,-0.056259,-40.114895
11.185,2.0,1.0,1.0,33.0,33.1,33.1,3.0,2.7,2.545,0.8435810082392949,-0.0077756726041502255,0.5247663956695983,0.006298014425419173,-0.05679,-39.994528
11.185,2.0,1.0,1.0,33.0,33.1,33.1,3.0,2.7,2.5475,0.840104276131703,-0.007932144808828177,0.5301987593597093,0.0063268397122783525,-0.05733,-39.873828
11.185,2.0,1.0,1.0,33.0,33.1,33.1,3.0,2.7,2.55,0.836576956208481,-0.008091461301073315,0.535630443083267,0.006354973709327101,-0.05788,-39.752786
11.185,2.0,1.0,1.0,33.0,33.1,33.1,3.0,2.7,2.5525,0.8329985348082253,-0.008253681268185976,0.5410612221709342,0.006382383828190203,-0.05844,-39.631393
11.185,2.0,1.0,1.0,33.0,33.1,33.1,3.0,2.7,2.555,0.8293684896702546,-0.008418865442994276,0.5464908648497896,0.006409036203063798,-0.05901,-39.509641
11.185,2.0,1.0,1.0,33.0,33.1,33.1,3.0,2.7,2.5575,0.8256862897818649,-0.00858707615195428,0.5519191320025533,0.006434895636302121,-0.05959,-39.387521
11.185,2.0,1.0,1.0,33.0,33.1,33.1,3.0,2.7,2.56,0.8219513952228686,-0.008758377364989908,0.5573457769184418,0.006459925541434703,-0.060181,-39.265023
11.185,2.0,1.0,1.0,33.0,33.1,33.1,3.0,2.7,2.5625,0.8181632570073796,-0.00893283474714493,0.5627705450353369,0.006484087883478247,-0.060782,-39.142139
11.185,2.0,1.0,1.0,33.0,33.1,33.1,3.0,2.7,2.565,0.814321316922795,-0.009110515712123015,0.5681931736729343,0.006507343116398647,-0.061395,-39.01886
11.185,2.0,1.0,1.0,33.0,33.1,33.1,3.0,2.7,2.5675,0.8104250073659411,-0.009291489477793652,0.5736133917565097,0.006529650117571561,-0.062019,-38.895177
11.185,2.0,1.0,1.0,33.0,33.1,33.1,3.0,2.7,2.57,0.8064737511763314,-0.009475827123748832,0.5790309195309459,0.006550966119078045,-0.062655,-38.771079
11.185,2.0,1.0,1.0,33.0,33.1,33.1,3.0,2.7,2.5725,0.8024669614664968,-0.009663601650996168,0.5844454682646341,0.006571246635665512,-0.063303,-38.646559
11.185,2.0,1.0,1.0,33.0,33.1,33.1,3.0,2.7,2.575,0.7984040414493447,-0.009854888043879064,0.5898567399428492,0.006590445389190829,-0.063963,-38.521605
11.185,2.0,1.0,1.0,33.0,33.1,33.1,3.0,2.7,2.5775,0.7942843842625066,-0.010049763334321286,0.5952644269501773,0.006608514229352285,-0.064635,-38.396209
11.185,2.0,1.0,1.0,33.0,33.1,33.1,3.0,2.7,2.58,0.7901073727896241,-0.010248306668493088,0.6006682117415576,0.006625403050506194,-0.06532,-38.27036
11.185,2.0,1.0,1.0,33.0,33.1,33.1,3.0,2.7,2.5825,0.7858723794785332,-0.010450599376006212,0.6060677665014822,0.006641059704349227,-0.066019,-38.144049
11.185,2.0,1.0,1.0,33.0,33.1,33.1,3.0,2.7,2.585,0.7815787661563073,-0.010656725041745967,0.6114627527908734,0.006655429908235449,-0.066731,-38.017264
11.185,2.0,1.0,1.0,33.0,33.1,33.1,3.0,2.7,2.5875,0.7772258838411042,-0.01086676958045608,0.6168528211811325,0.006668457148882277,-0.067457,-37.889997
11.185,2.0,1.0,1.0,33.0,33.1,33.1,3.0,2.7,2.59,0.7728130725507855,-0.011080821314198134,0.622237610874834,0.0066800825812021875,-0.068197,-37.762235
11.185,2.0,1.0,1.0,33.0,33.1,33.1,3.0,2.7,2.5925,0.7683396611082507,-0.011298971052809716,0.6276167493125168,0.006690244921984166,-0.068952,-37.633969
11.185,2.0,1.0,1.0,33.0,33.1,33.1,3.0,2.7,2.595,0.7638049669434623,-0.011521312177497727,0.6329898517649845,0.006698880338125364,-0.069722,-37.505188
11.185,2.0,1.0,1.0,33.0,33.1,33.1,3.0,2.7,2.5975,0.7592082958920938,-0.011747940727703087,0.6383565209105161,0.006705922329100432,-0.070507,-37.375881
11.185,2.0,1.0,1.0,33.0,33.1,33.1,3.0,2.7,2.6,0.7545489419907727,-0.011978955491386,0.6437163463963476,0.006711301603329805,-0.071308,-37.246035
11.185,2.0,1.0,1.0,33.0,33.1,33.1,3.0,2.7,2.6025,0.749826187268875,-0.012214458098883649,0.6490689043837458,0.00671494594808987,-0.072125,-37.115641
11.185,2.0,1.0,1.0,33.0,33.1,33.1,3.0,2.7,2.605,0.7450393015368166,-0.012454553120502268,0.6544137570759863,0.006716780092582804,-0.072959,-36.984686
11.185,2.0,1.0,1.0,33.0,33.1,33.1,3.0,2.7,2.6075,0.7401875421708086,-0.012699348168014244,0.6597504522284839,0.006716725563757671,-0.07381,-36.853159
11.185,2.0,1.0,1.0,33.0,33.1,33.1,3.0,2.7,2.61,0.7352701538940314,-0.012948954000235739,0.6650785226403022,0.006714700534448739,-0.074678,-36.721047
11.185,2.0,1.0,1.0,33.0,33.1,33.1,3.0,2.7,2.6125,0.7302863685541797,-0.013203484632874594,0.6703974856262233,0.00671061966336526,-0.075565,-36.588338
11.185,2.0,1.0,1.0,33.0,33.1,33.1,3.0,2.7,2.615,0.7252354048973415,-0.013463057452842661,0.6757068424685232,0.006704393926437679,-0.076471,-36.45502
11.185,2.0,1.0,1.0,33.0,33.1,33.1,3.0,2.7,2.6175,0.7201164683381642,-0.01372779333724053,0.6810060778475354,0.0066959304389884846,-0.077395,-36.32108
11.185,2.0,1.0,1.0,33.0,33.1,33.1,3.0,2.7,2.62,0.7149287507262726,-0.013997816777229966,0.6862946592500531,0.006685132268160935,-0.078339,-36.186505
11.185,2.0,1.0,1.0,33.0,33.1,33.1,3.0,2.7,2.6225,0.7096714301088867,-0.014273256007023241,0.6915720363545651,0.006671898234999285,-0.079303,-36.051281
11.185,2.0,1.0,1.0,33.0,33.1,33.1,3.0,2.7,2.625,0.704343670489611,-0.0145542431382268,0.696837640392252,0.00665612270552965,-0.080289,-35.915396
11.185,2.0,1.0,1.0,33.0,33.1,33.1,3.0,2.7,2.6275,0.6989446215833446,-0.014840914299793935,0.7020908834826322,0.006637695370145493,-0.081295,-35.778836
11.185,2.0,1.0,1.0,33.0,33.1,33.1,3.0,2.7,2.63,0.6934734185672781,-0.015133409783845886,0.7073311579426637,0.006616501010554155,-0.082324,-35.641585
11.185,2.0,1.0,1.0,33.0,33.1,33.1,3.0,2.7,2.6325,0.6879291818279332,-0.015431874197644994,0.71255783556805,0.006592419253480455,-0.083375,-35.503631
11.185,2.0,1.0,1.0,33.0,33.1,33.1,3.0,2.7,2.635,0.6823110167042117,-0.015736456622006696,0.7177702668854272,0.0065653243102747946,-0.08445,-35.364959
11.185,2.0,1.0,1.0,33.0,33.1,33.1,3.0,2.7,2.6375,0.6766180132264185,-0.016047310776459673,0.7229677803740193,0.006535084701499517,-0.085549,-35.225553
11.185,2.0,1.0,1.0,33.0,33.1,33.1,3.0,2.7,2.64,0.6708492458512095,-0.01636459519147606,0.7281496816552876,0.006501562965509145,-0.086673,-35.085398
11.185,2.0,1.0,1.0,33.0,33.1,33.1,3.0,2.7,2.6425,0.6650037731924449,-0.01668847338811046,0.7333152526489868,0.006464615349958183,-0.087822,-34.944479
11.185,2.0,1.0,1.0,33.0,33.1,33.1,3.0,2.7,2.645,0.6590806377479,-0.01701911406540209,0.738463750693959,0.0064240914850953465,-0.088998,-34.80278
11.185,2.0,1.0,1.0,33.0,33.1,33.1,3.0,2.7,2.6475,0.6530788656218179,-0.017356691295915598,0.7435944076318893,0.006379834037613615,-0.090201,-34.660285
11.185,2.0,1.0,1.0,33.0,33.1,33.1,3.0,2.7,2.65,0.6469974662432441,-0.017701384729811944,0.748706428852143,0.006331678343733287,-0.091432,-34.516976
11.185,2.0,1.0,1.0,33.0,33.1,33.1,3.0,2.7,2.6525,0.6408354320801541,-0.018053379807860846,0.7537989922956599,0.006279452020090129,-0.092692,-34.372837
11.185,2.0,1.0,1.0,33.0,33.1,33.1,3.0,2.7,2.655,0.6345917383493084,-0.01841286798382739,0.7588712474157917,0.006222974550892426,-0.093982,-34.22785
11.185,2.0,1.0,1.0,33.0,33.1,33.1,3.0,2.7,2.6575,0.6282653427218354,-0.018780046956686287,0.7639223140937941,0.006162056849688914,-0.095303,-34.081998
11.185,2.0,1.0,1.0,33.0,33.1,33.1,3.0,2.7,2.66,0.6218551850245081,-0.019155120913139964,0.7689512815065505,0.0060965007939562214,-0.096656,-33.935262
11.185,2.0,1.0,1.0,33.0,33.1,33.1,3.0,2.7,2.6625,0.6153601869367066,-0.019538300780936598,0.7739572069439447,0.0060260987305736985,-0.098042,-33.787624
11.185,2.0,1.0,1.0,33.0,33.1,33.1,3.0,2.7,2.665,0.6087792516830391,-0.019929804493512737,0.7789391145731145,0.005950632950096252,-0.099462,-33.639063
11.185,2.0,1.0,1.0,33.0,33.1,33.1,3.0,2.7,2.6675,0.6021112637216277,-0.020329857266504985,0.7838959941466306,0.005869875127564313,-0.100917,-33.489561
11.185,2.0,1.0,1.0,33.0,33.1,33.1,3.0,2.7,2.67,0.5953550884280437,-0.020738691886702167,0.7888267996514429,0.005783585727406831,-0.102409,-33.339098
11.185,2.0,1.0,1.0,33.0,33.1,33.1,3.0,2.7,2.6725,0.5885095717748972,-0.02115654901403593,0.7937304478952107,0.005691513369786187,-0.103938,-33.187652
11.185,2.0,1.0,1.0,33.0,33.1,33.1,3.0,2.7,2.675,0.5815735400070955,-0.0215836774972312,0.7986058170263777,0.0055933941555153695,-0.105506,-33.035203
11.185,2.0,1.0,1.0,33.0,33.1,33.1,3.0,2.7,2.6775,0.5745457993127885,-0.022020334703767047,0.8034517449841062,0.005488950946433433,-0.107115,-32.881728
11.185,2.0,1.0,1.0,33.0,33.1,33.1,3.0,2.7,2.68,0.5674251354900262,-0.022466786864822015,0.8082670278738809,0.005377892597856646,-0.108765,-32.727205
11.185,2.0,1.0,1.0,33.0,33.1,33.1,3.0,2.7,2.6825,0.5602103136091817,-0.022923309435907632,0.8130504182642808,0.005259913139436126,-0.110459,-32.571612
11.185,2.0,1.0,1.0,33.0,33.1,33.1,3.0,2.7,2.685,0.5529000776711874,-0.0233901874739164,0.8178006234000798,0.0051346909004273845,-0.112198,-32.414924
11.185,2.0,1.0,1.0,33.0,33.1,33.1,3.0,2.7,2.6875,0.5454931502616662,-0.02386771603133764,0.8225163033264489,0.005001887575029829,-0.113983,-32.257117
11.185,2.0,1.0,1.0,33.0,33.1,33.1,3.0,2.7,2.69,0.5379882322010593,-0.02435620056841872,0.8271960689186327,0.004861147223065648,-0.115817,-32.098167
11.185,2.0,1.0,1.0,33.0,33.1,33.1,3.0,2.7,2.6925,0.5303840021908578,-0.02485595738406892,0.8318384798110164,0.004712095200844215,-0.1177,-31.938048
11.185,2.0,1.0,1.0,33.0,33.1,33.1,3.0,2.7,2.695,0.5226791164561194,-0.025367314066325343,0.8364420422189971,0.004554337016591709,-0.119636,-31.776733
11.185,2.0,1.0,1.0,33.0,33.1,33.1,3.0,2.7,2.6975,0.5148722083844254,-0.025890609963214996,0.8410052066465535,0.004387457104307135,-0.121626,-31.614195
11.185,2.0,1.0,1.0,33.0,33.1,33.1,3.0,2.7,2.7,0.5069618881615394,-0.02642619667486056,0.8455263654717838,0.004211017509342867,-0.123672,-31.450406
11.185,2.0,1.0,1.0,33.0,33.1,33.1,3.0,2.7,2.7025,0.4989467424040282,-0.026974438567682234,0.8500038504020461,0.004024556478376846,-0.125776,-31.285337
11.185,2.0,1.0,1.0,33.0,33.1,33.1,3.0,2.7,2.705,0.4908253337892045,-0.027535713311549047,0.854435929789602,0.003827586945753242,-0.127941,-31.118958
11.185,2.0,1.0,1.0,33.0,33.1,33.1,3.0,2.7,2.7075,0.4825962006827897,-0.02811041244072598,0.8588208057978702,0.003619594907401957,-0.130169,-30.95124
11.185,2.0,1.0,1.0,33.0,33.1,33.1,3.0,2.7,2.71,0.47425785676481347,-0.028698941939439074,0.8631566114075143,0.0034000376726979675,-0.132462,-30.78215
11.185,2.0,1.0,1.0,33.0,33.1,33.1,3.0,2.7,2.7125,0.46580879065433073,-0.029301722852855077,0.8674414072506241,0.0031683419836838066,-0.134825,-30.611655
11.185,2.0,1.0,1.0,33.0,33.1,33.1,3.0,2.7,2.715,0.4572474655336967,-0.02991919192421946,0.8716731782601563,0.0029239019900334723,-0.137258,-30.439722
11.185,2.0,1.0,1.0,33.0,33.1,33.1,3.0,2.7,2.7175,0.44857231877324416,-0.030551802258829863,0.8758498301206232,0.0026660770669802688,-0.139766,-30.266317
11.185,2.0,1.0,1.0,33.0,33.1,33.1,3.0,2.7,2.72,0.43978176155741955,-0.031200024015433554,0.8799691855046825,0.0023941894621411276,-0.142351,-30.091403
11.185,2.0,1.0,1.0,33.0,33.1,33.1,3.0,2.7,2.7225,0.4308741785135859,-0.03186434512551528,0.884028980078818,0.0021075217557413413,-0.145018,-29.914943
11.185,2.0,1.0,1.0,33.0,33.1,33.1,3.0,2.7,2.725,0.4218479273450025,-0.03254527204078831,0.888026858259651,0.001805314117143662,-0.147769,-29.736899
11.185,2.0,1.0,1.0,33.0,33.1,33.1,3.0,2.7,2.7275,0.41270133846971013,-0.03324333050900859,0.8919603687006195,0.001486761338808235,-0.150608,-29.557231
11.185,2.0,1.0,1.0,33.0,33.1,33.1,3.0,2.7,2.73,0.4034327146674585,-0.033959066377980476,0.8958269594867098,0.001151009626821163,-0.153539,-29.375899
11.185,2.0,1.0,1.0,33.0,33.1,33.1,3.0,2.7,2.7325,0.3940403307371562,-0.0346930464273229,0.899623973012668,0.0007971531249076361,-0.156568,-29.192859
11.185,2.0,1.0,1.0,33.0,33.1,33.1,3.0,2.7,2.735,0.3845224331678593,-0.035445859227178425,0.9033486405175764,0.0004242301463609326,-0.159697,-29.008068
11.185,2.0,1.0,1.0,33.0,33.1,33.1,3.0,2.7,2.7375,0.37487723982685034,-0.03621811602258719,0.9069980762458442,3.1219085528374754e-05,-0.162932,-28.82148
11.185,2.0,1.0,1.0,33.0,33.1,33.1,3.0,2.7,2.74,0.36510293966907437,-0.037010451641669634,0.9105692712014711,-0.0003829660226251185,-0.166279,-28.633047
11.185,2.0,1.0,1.0,33.0,33.1,33.1,3.0,2.7,2.7425,0.35519769247298977,-0.037823525425067984,0.9140590864588843,-0.0008194803298690766,-0.169742,-28.442722
11.185,2.0,1.0,1.0,33.0,33.1,33.1,3.0,2.7,2.745,0.34515962860889093,-0.038658022173241116,0.9174642459896161,-0.001279553427914738,-0.173327,-28.250452
11.185,2.0,1.0,1.0,33.0,33.1,33.1,3.0,2.7,2.7475,0.3349868488469111,-0.03951465310717555,0.9207813289595909,-0.0017644950708613832,-0.177041,-28.056185
11.185,2.0,1.0,1.0,33.0,33.1,33.1,3.0,2.7,2.75,0.324677424213301,-0.0403941568368186,0.924006761446688,-0.00227570141527495,-0.180891,-27.859867
11.185,2.0,1.0,1.0,33.0,33.1,33.1,3.0,2.7,2.7525,0.3142293959052592,-0.041297300330021595,0.9271368075225133,-0.002814661831949419,-0.184882,-27.661439
11.185,2.0,1.0,1.0,33.0,33.1,33.1,3.0,2.7,2.755,0.3036407752765637,-0.042224879872936834,0.9301675596358142,-0.003382966349792146,-0.189023,-27.460844
11.185,2.0,1.0,1.0,33.0,33.1,33.1,3.0,2.7,2.7575,0.2929095439086307,-0.04317772201059365,0.9330949282276544,-0.003982313799505343,-0.193322,-27.258018
11.185,2.0,1.0,1.0,33.0,33.1,33.1,3.0,2.7,2.76,0.28203365378451417,-0.04415668445367974,0.935914630500124,-0.004614520732933171,-0.197788,-27.052899
11.185,2.0,1.0,1.0,33.0,33.1,33.1,3.0,2.7,2.7625,0.27101102758674084,-0.04516265693431192,0.9386221782509581,-0.0052815312032426604,-0.202429,-26.845418
11.185,2.0,1.0,1.0,33.0,33.1,33.1,3.0,2.7,2.765,0.25983955914402934,-0.04619656198963911,0.941212864675708,-0.005985427501664483,-0.207256,-26.635507
11.185,2.0,1.0,1.0,33.0,33.1,33.1,3.0,2.7,2.7675,0.24851711405687252,-0.0472593556473748,0.943681750026933,-0.006728441958541665,-0.21228,-26.423093
11.185,2.0,1.0,1.0,33.0,33.1,33.1,3.0,2.7,2.77,0.23704153053790958,-0.04835202798160209,0.9460236460060115,-0.007512969930113823,-0.217512,-26.208099
11.185,2.0,1.0,1.0,33.0,33.1,33.1,3.0,2.7,2.7725,0.2254106205102215,-0.04947560350023365,0.9482330987473411,-0.008341584108073003,-0.222965,-25.990448
11.185,2.0,1.0,1.0,33.0,33.1,33.1,3.0,2.7,2.775,0.21362217101532818,-0.050631141317075676,0.9503043702366334,-0.009217050306751504,-0.228652,-25.770055
11.185,2.0,1.0,1.0,33.0,33.1,33.1,3.0,2.7,2.7775,0.20167394599315958,-0.05181973505122171,0.9522314179843568,-0.010142344903172508,-0.234588,-25.546835
11.185,2.0,1.0,1.0,33.0,33.1,33.1,3.0,2.7,2.78,0.18956368850894692,-0.05304251238408561,0.9540078727517315,-0.011120674128527169,-0.240788,-25.320698
11.185,2.0,1.0,1.0,33.0,33.1,33.1,3.0,2.7,2.7825,0.17728912351739634,-0.05430063418930174,0.9556270140995639,-0.012155495436368199,-0.24727,-25.091549
11.185,2.0,1.0,1.0,33.0,33.1,33.1,3.0,2.7,2.785,0.1648479612731384,-0.05559529313235807,0.9570817434991364,-0.013250541203488004,-0.254053,-24.859288
11.185,2.0,1.0,1.0,33.0,33.1,33.1,3.0,2.7,2.7875,0.1522379015192549,-0.05692771161445655,0.9583645547086064,-0.014409845054684785,-0.261156,-24.623814
11.185,2.0,1.0,1.0,33.0,33.1,33.1,3.0,2.7,2.79,0.1394566386133314,-0.058299138907784986,0.9594675010772988,-0.015637771143131418,-0.268601,-24.385016
11.185,2.0,1.0,1.0,33.0,33.1,33.1,3.0,2.7,2.7925,0.1265018677844063,-0.05971084729598805,0.9603821593929827,-0.01693904676468638,-0.276413,-24.14278
11.185,2.0,1.0,1.0,33.0,33.1,33.1,3.0,2.7,2.795,0.11337129275553133,-0.06116412699273204,0.9610995898327388,-0.018318798738193223,-0.284619,-23.896988
11.185,2.0,1.0,1.0,33.0,33.1,33.1,3.0,2.7,2.7975,0.10006263501754487,-0.06266027956105331,0.9616102915152319,-0.019782594045700933,-0.293246,-23.647514
11.185,2.0,1.0,1.0,33.0,33.1,33.1,3.0,2.7,2.8,0.08657364510199037,-0.06420060949447427,0.9619041530797691,-0.021336485297905244,-0.302326,-23.394225
11.185,2.0,1.0,1.0,33.0,33.1,33.1,3.0,2.7,2.8025,0.07290211627803284,-0.06578641354481218,0.9619703976340005,-0.022987061672418586,-0.311895,-23.136983
11.185,2.0,1.0,1.0,33.0,33.1,33.1,3.0,2.7,2.805,0.0590459011931239,-0.06741896728768954,0.9617975213157344,-0.02474150606737438,-0.32199,-22.875642
11.185,2.0,1.0,1.0,33.0,33.1,33.1,3.0,2.7,2.8075,0.045002932094531996,-0.0690995083005363,0.9613732246032435,-0.026607659322296483,-0.332653,-22.610048
11.185,2.0,1.0,1.0,33.0,33.1,33.1,3.0,2.7,2.81,0.030771245414490653,-0.07082921518365715,0.960684335380442,-0.028594092484141537,-0.343932,-22.340038
11.185,2.0,1.0,1.0,33.0,33.1,33.1,3.0,2.7,2.8125,0.0163490116827876,-0.0726091814756251,0.959716722616068,-0.0307101882413223,-0.355879,-22.065443
11.185,2.0,1.0,1.0,33.0,33.1,33.1,3.0,2.7,2.815,0.001734571956274752,-0.07444038329069602,0.9584551993470164,-0.03296623281474709,-0.368549,-21.786081
11.185,2.0,1.0,1.0,33.0,33.1,33.1,3.0,2.7,2.8175,-0.013073517763129766,-0.07632363922650343,0.9568834134625981,-0.0353735197850258,-0.382009,-21.501763
11.185,2.0,1.0,1.0,33.0,33.1,33.1,3.0,2.7,2.82,-0.028076432296900277,-0.07825956074013819,0.954983724566283,-0.03794446755140296,-0.396328,-21.212289
11.185,2.0,1.0,1.0,33.0,33.1,33.1,3.0,2.7,2.8225,-0.04327501097567375,-0.08024849075073219,0.9527370649421565,-0.0406927523627894,-0.411588,-20.917445
11.185,2.0,1.0,1.0,33.0,33.1,33.1,3.0,2.7,2.825,-0.05866967641362533,-0.08229042767239698,0.9501227823736208,-0.04363345913574119,-0.427877,-20.617008
11.185,2.0,1.0,1.0,33.0,33.1,33.1,3.0,2.7,2.8275,-0.07426033483593093,-0.08438493138120642,0.9471184622517419,-0.04678325257816054,-0.445297,-20.310741
