1,w,sub_t,h,l1,l2,l3,g1,g2,Freq,S11_re,S21_re,S11_img,S21_img,S11_dB,S21_dB
11.185,2.0,1.0,1.0,34.7,33.4,33.4,4.2,2.0,2.5,0.667565056316657,-0.0122739151232812,0.733937572833757,0.00463405429517501,-0.068692,-37.6416
11.185,2.0,1.0,1.0,34.7,33.4,33.4,4.2,2.0,2.5025,0.6613997720873159,-0.012475572530013775,0.7393894475188293,0.004582479564101077,-0.069403,-37.529133
11.185,2.0,1.0,1.0,34.7,33.4,33.4,4.2,2.0,2.505,0.6551562773154477,-0.012680007217046015,0.7448173694763668,0.004528054702379638,-0.070126,-37.416361
11.185,2.0,1.0,1.0,34.7,33.4,33.4,4.2,2.0,2.5075,0.6488338782016033,-0.012887249479784672,0.750220466746511,0.004470693421244926,-0.070861,-37.303276
11.185,2.0,1.0,1.0,34.7,33.4,33.4,4.2,2.0,2.51,0.6424318769569521,-0.013097329607261331,0.7555978445610219,0.004410306883733608,-0.071608,-37.189874
11.185,2.0,1.0,1.0,34.7,33.4,33.4,4.2,2.0,2.5125,0.6359495720076008,-0.013310277858345806,0.7609485847627179,0.00434680362373166,-0.072368,-37.07615
11.185,2.0,1.0,1.0,34.7,33.4,33.4,4.2,2.0,2.515,0.62938625821319,-0.013526124436360178,0.7662717452119469,0.004280089462261141,-0.073142,-36.962097
11.185,2.0,1.0,1.0,34.7,33.4,33.4,4.2,2.0,2.5175,0.6227412271004533,-0.013744899462005878,0.7715663591798944,0.004210067420905181,-0.073929,-36.84771
11.185,2.0,1.0,1.0,34.7,33.4,33.4,4.2,2.0,2.52,0.6160137671124037,-0.013966632944512935,0.7768314347285754,0.004136637632264416,-0.07473,-36.732984
11.185,2.0,1.0,1.0,34.7,33.4,33.4,4.2,2.0,2.5225,0.6092031638738982,-0.01419135475091489,0.7820659540773188,0.004059697247334421,-0.075545,-36.617912
11.185,2.0,1.0,1.0,34.7,33.4,33.4,4.2,2.0,2.525,0.6023087004743006,-0.014419094573348433,0.7872688729556049,0.003979140339688033,-0.076374,-36.502489
11.185,2.0,1.0,1.0,34.7,33.4,33.4,4.2,2.0,2.5275,0.5953296577680256,-0.01464988189427179,0.7924391199420975,0.0038948578063417462,-0.077217,-36.386708
11.185,2.0,1.0,1.0,34.7,33.4,33.4,4.2,2.0,2.53,0.5882653146937763,-0.014883745949489382,0.7975755957897184,0.0038067372651800534,-0.078076,-36.270565
11.185,2.0,1.0,1.0,34.7,33.4,33.4,4.2,2.0,2.5325,0.5811149486133043,-0.015120715688865558,0.8026771727366369,0.0037146629488057623,-0.07895,-36.154051
11.185,2.0,1.0,1.0,34.7,33.4,33.4,4.2,2.0,2.535,0.5738778356705561,-0.01536081973460357,0.8077426938030536,0.003618515594677937,-0.07984,-36.037162
11.185,2.0,1.0,1.0,34.7,33.4,33.4,4.2,2.0,2.5375,0.5665532511721191,-0.01560408633695945,0.8127709720736476,0.0035181723313937215,-0.080746,-35.91989
11.185,2.0,1.0,1.0,34.7,33.4,33.4,4.2,2.0,2.54,0.5591404699898883,-0.015850543327253677,0.8177607899656032,0.0034135065609623367,-0.081669,-35.80223
11.185,2.0,1.0,1.0,34.7,33.4,33.4,4.2,2.0,2.5425,0.5516387669869258,-0.016100218068036704,0.8227108984821192,0.003304387836913103,-0.082608,-35.684175
11.185,2.0,1.0,1.0,34.7,33.4,33.4,4.2,2.0,2.545,0.544047417467516,-0.016353137400256307,0.8276200164513255,0.0031906817380714615,-0.083565,-35.565719
11.185,2.0,1.0,1.0,34.7,33.4,33.4,4.2,2.0,2.5475,0.5363656976524648,-0.016609327587266548,0.8324868297505467,0.0030722497378290465,-0.084539,-35.446853
11.185,2.0,1.0,1.0,34.7,33.4,33.4,4.2,2.0,2.55,0.5285928851806987,-0.01686881425551091,0.837309990515876,0.002948949068724552,-0.085531,-35.327572
11.185,2.0,1.0,1.0,34.7,33.4,33.4,4.2,2.0,2.5525,0.5207282596383124,-0.017131622331701114,0.8420881163370243,0.0028206325821440643,-0.086541,-35.207869
11.185,2.0,1.0,1.0,34.7,33.4,33.4,4.2,2.0,2.555,0.5127711031161879,-0.017397775976305648,0.8468197894374443,0.002687148602938481,-0.087571,-35.087737
11.185,2.0,1.0,1.0,34.7,33.4,33.4,4.2,2.0,2.5575,0.5047207007973957,-0.01766729851315122,0.8515035558397446,0.0025483407787459667,-0.08862,-34.967168
11.185,2.0,1.0,1.0,34.7,33.4,33.4,4.2,2.0,2.56,0.49657634157561636,-0.017940212354928684,0.8561379245164252,0.0024040479237957715,-0.089689,-34.846155
11.185,2.0,1.0,1.0,34.7,33.4,33.4,4.2,2.0,2.5625,0.48833731870585795,-0.01821653892438568,0.8607213665259921,0.002254103856958096,-0.090778,-34.72469
11.185,2.0,1.0,1.0,34.7,33.4,33.4,4.2,2.0,2.565,0.48000293048878473,-0.018496298570974817,0.8652523141345392,0.00209833723379124,-0.091887,-34.602766
11.185,2.0,1.0,1.0,34.7,33.4,33.4,4.2,2.0,2.5675,0.4715724809900381,-0.018779510482713552,0.8697291599229044,0.0019365713723243473,-0.093019,-34.480375
11.185,2.0,1.0,1.0,34.7,33.4,33.4,4.2,2.0,2.57,0.4630452807959494,-0.019066192592999347,0.8741502558795299,0.001768624072298275,-0.094172,-34.35751
11.185,2.0,1.0,1.0,34.7,33.4,33.4,4.2,2.0,2.5725,0.4544206478071011,-0.01935636148210848,0.8785139124792055,0.0015943074275722236,-0.095347,-34.234162
11.185,2.0,1.0,1.0,34.7,33.4,33.4,4.2,2.0,2.575,0.44569790807124693,-0.01965003227309173,0.882818397747879,0.0014134276313857816,-0.096545,-34.110322
11.185,2.0,1.0,1.0,34.7,33.4,33.4,4.2,2.0,2.5775,0.43687639665713834,-0.019947218521764284,0.8870619363137713,0.0012257847741484345,-0.097767,-33.985984
11.185,2.0,1.0,1.0,34.7,33.4,33.4,4.2,2.0,2.58,0.4279554585708615,-0.020247932100469105,0.8912427084450502,0.0010311726334084617,-0.099013,-33.861137
11.185,2.0,1.0,1.0,34.7,33.4,33.4,4.2,2.0,2.5825,0.4189344497163269,-0.020552183075275253,0.8953588490743705,0.000829378455631419,-0.100283,-33.735774
11.185,2.0,1.0,1.0,34.7,33.4,33.4,4.2,2.0,2.585,0.40981273790162026,-0.02085997957625212,0.8994084468106083,0.0006201827293961271,-0.101579,-33.609885
11.185,2.0,1.0,1.0,34.7,33.4,33.4,4.2,2.0,2.5875,0.4005897038929541,-0.021171327660440303,0.9033895429381663,0.0004033589495905158,-0.1029,-33.483462
11.185,2.0,1.0,1.0,34.7,33.4,33.4,4.2,2.0,2.59,0.3912647425180377,-0.021486231167115198,0.9073001304042673,0.00017867337216328426,-0.104249,-33.356495
11.185,2.0,1.0,1.0,34.7,33.4,33.4,4.2,2.0,2.5925,0.38183726382070104,-0.021804691564918002,0.9111381527946851,-5.411524104254922e-05,-0.105625,-33.228974
11.185,2.0,1.0,1.0,34.7,33.4,33.4,4.2,2.0,2.595,0.3723066942687045,-0.02212670779039907,0.9149015032984176,-0.0002952558878785951,-0.107028,-33.100891
11.185,2.0,1.0,1.0,34.7,33.4,33.4,4.2,2.0,2.5975,0.3626724780166716,-0.022452276077494004,0.9185880236618431,-0.0005450056024424679,-0.108461,-32.972234
11.185,2.0,1.0,1.0,34.7,33.4,33.4,4.2,2.0,2.6,0.35293407822617223,-0.022781389777419944,0.9221955031329523,-0.0008036297431678311,-0.109923,-32.842995
11.185,2.0,1.0,1.0,34.7,33.4,33.4,4.2,2.0,2.6025,0.3430909784450378,-0.02311403916844781,0.9257216773962867,-0.001071402293069606,-0.111415,-32.713162
11.185,2.0,1.0,1.0,34.7,33.4,33.4,4.2,2.0,2.605,0.3331426840480118,-0.023450211254971664,0.9291642274992695,-0.0013486061728058773,-0.112938,-32.582725
11.185,2.0,1.0,1.0,34.7,33.4,33.4,4.2,2.0,2.6075,0.3230887237409388,-0.023789889555256984,0.9325207787706655,-0.0016355335672643115,-0.114494,-32.451673
11.185,2.0,1.0,1.0,34.7,33.4,33.4,4.2,2.0,2.61,0.31292865113072615,-0.024133053877209546,0.9357888997319396,-0.0019324862664339287,-0.116082,-32.319995
11.185,2.0,1.0,1.0,34.7,33.4,33.4,4.2,2.0,2.6125,0.30266204636337724,-0.024479680081460755,0.938966101002353,-0.00223977602137947,-0.117704,-32.18768
11.185,2.0,1.0,1.0,34.7,33.4,33.4,4.2,2.0,2.615,0.29228851783244253,-0.024829739831018723,0.9420498341986719,-0.002557724916197751,-0.119361,-32.054716
11.185,2.0,1.0,1.0,34.7,33.4,33.4,4.2,2.0,2.6175,0.281807703960324,-0.025183200326678763,0.9450374908304089,-0.0028866657569019947,-0.121053,-31.92109
11.185,2.0,1.0,1.0,34.7,33.4,33.4,4.2,2.0,2.62,0.2712192750548938,-0.02554002402733175,0.9479264011915767,-0.003226942478255012,-0.122782,-31.786791
11.185,2.0,1.0,1.0,34.7,33.4,33.4,4.2,2.0,2.6225,0.26052293524396364,-0.02590016835424575,0.9507138332499617,-0.003578910569652221,-0.124548,-31.651806
11.185,2.0,1.0,1.0,34.7,33.4,33.4,4.2,2.0,2.625,0.249718424490221,-0.0262635853783263,0.953396991534991,-0.00394293752124311,-0.126354,-31.516122
11.185,2.0,1.0,1.0,34.7,33.4,33.4,4.2,2.0,2.6275,0.23880552068927544,-0.026630221489287894,0.9559730160252682,-0.004319403291577692,-0.128199,-31.379725
11.185,2.0,1.0,1.0,34.7,33.4,33.4,4.2,2.0,2.63,0.2277840418535547,-0.027000017045585557,0.9584389810369359,-0.004708700798168628,-0.130086,-31.242602
11.185,2.0,1.0,1.0,34.7,33.4,33.4,4.2,2.0,2.6325,0.21665384838484114,-0.02737290600386534,0.9607918941140249,-0.005111236432477205,-0.132014,-31.104738
11.185,2.0,1.0,1.0,34.7,33.4,33.4,4.2,2.0,2.635,0.20541484543832567,-0.02774881552659445,0.9630286949219548,-0.005527430600957217,-0.133986,-30.966119
11.185,2.0,1.0,1.0,34.7,33.4,33.4,4.2,2.0,2.6375,0.19406698538111375,-0.02812766556642056,0.965146254145433,-0.005957718293930938,-0.136004,-30.826731
11.185,2.0,1.0,1.0,34.7,33.4,33.4,4.2,2.0,2.64,0.18261027034818503,-0.028509368425692145,0.9671413723919371,-0.006402549684225546,-0.138067,-30.686557
11.185,2.0,1.0,1.0,34.7,33.4,33.4,4.2,2.0,2.6425,0.17104475489893387,-0.028893828289435035,0.9690107791020138,-0.006862390757665307,-0.140178,-30.545581
11.185,2.0,1.0,1.0,34.7,33.4,33.4,4.2,2.0,2.645,0.15937054877744783,-0.02928094072993692,0.9707511314675802,-0.007337723977701704,-0.142338,-30.403788
11.185,2.0,1.0,1.0,34.7,33.4,33.4,4.2,2.0,2.6475,0.14758781977982388,-0.029670592180924837,0.9723590133594255,-0.007829048986666526,-0.144549,-30.26116
11.185,2.0,1.0,1.0,34.7,33.4,33.4,4.2,2.0,2.65,0.13569679673186938,-0.030062659379142678,0.9738309342650294,-0.008336883346359394,-0.146812,-30.11768
11.185,2.0,1.0,1.0,34.7,33.4,33.4,4.2,2.0,2.6525,0.12369777258072467,-0.030457008770931555,0.975163328237772,-0.008861763320925893,-0.149129,-29.973329
11.185,2.0,1.0,1.0,34.7,33.4,33.4,4.2,2.0,2.655,0.1115911076039635,-0.030853495881193706,0.9763525528585374,-0.009404244705259033,-0.151502,-29.828088
11.185,2.0,1.0,1.0,34.7,33.4,33.4,4.2,2.0,2.6575,0.09937723273996078,-0.03125196464186989,0.9773948882105761,-0.009964903702455155,-0.153932,-29.681939
11.185,2.0,1.0,1.0,34.7,33.4,33.4,4.2,2.0,2.66,0.08705665304338969,-0.03165224667678131,0.9782865358683878,-0.010544337854189602,-0.156422,-29.534862
11.185,2.0,1.0,1.0,34.7,33.4,33.4,4.2,2.0,2.6625,0.07462995126994695,-0.03205416053937402,0.979023617901204,-0.01114316702824352,-0.158973,-29.386835
11.185,2.0,1.0,1.0,34.7,33.4,33.4,4.2,2.0,2.665,0.06209779159452547,-0.032457510899556515,0.9796021758914467,-0.011762034467821295,-0.161588,-29.237837
11.185,2.0,1.0,1.0,34.7,33.4,33.4,4.2,2.0,2.6675,0.04946092346736716,-0.03286208767542567,0.9800181699682836,-0.012401607907744529,-0.164269,-29.087846
11.185,2.0,1.0,1.0,34.7,33.4,33.4,4.2,2.0,2.67,0.036720185612868037,-0.033267665105239035,0.9802674778561551,-0.013062580763108176,-0.167018,-28.936838
11.185,2.0,1.0,1.0,34.7,33.4,33.4,4.2,2.0,2.6725,0.023876510176107993,-0.03367400075449426,0.9803458939377218,-0.013745673396534052,-0.169838,-28.784789
11.185,2.0,1.0,1.0,34.7,33.4,33.4,4.2,2.0,2.675,0.01093092702242265,-0.034080834452418086,0.9802491283303595,-0.014451634470766188,-0.172731,-28.631675
11.185,2.0,1.0,1.0,34.7,33.4,33.4,4.2,2.0,2.6775,-0.0021154318042109856,-0.03448788715153883,0.9799728059748032,-0.015181242394030908,-0.175699,-28.47747
11.185,2.0,1.0,1.0,34.7,33.4,33.4,4.2,2.0,2.68,-0.015261327457808997,-0.034894859703304075,0.9795124657339913,-0.015935306866334566,-0.178747,-28.322146
11.185,2.0,1.0,1.0,34.7,33.4,33.4,4.2,2.0,2.6825,-0.028505409495287244,-0.035301431541900165,0.9788635594995505,-0.016714670535704898,-0.181875,-28.165675
11.185,2.0,1.0,1.0,34.7,33.4,33.4,4.2,2.0,2.685,-0.041846210902362506,-0.03570725926751941,0.9780214513026013,-0.01752021077431024,-0.185089,-28.008028
11.185,2.0,1.0,1.0,34.7,33.4,33.4,4.2,2.0,2.6875,-0.055282142932382296,-0.03611197511928453,0.9769814164247145,-0.018352841585419864,-0.188391,-27.849175
11.185,2.0,1.0,1.0,34.7,33.4,33.4,4.2,2.0,2.69,-0.06881148974922677,-0.036515185326864694,0.9757386405038863,-0.019213515653314507,-0.191784,-27.689083
11.185,2.0,1.0,1.0,34.7,33.4,33.4,4.2,2.0,2.6925,-0.08243240286449452,-0.03691646832848014,0.9742882186292837,-0.020103226549534916,-0.195273,-27.52772
11.185,2.0,1.0,1.0,34.7,33.4,33.4,4.2,2.0,2.695,-0.09614289535796205,-0.037315372841464536,0.9726251544172219,-0.02102301111027477,-0.198861,-27.36505
11.185,2.0,1.0,1.0,34.7,33.4,33.4,4.2,2.0,2.6975,-0.10994083586909728,-0.037711415769817035,0.9707443590594016,-0.021973952001315036,-0.202552,-27.201038
11.185,2.0,1.0,1.0,34.7,33.4,33.4,4.2,2.0,2.7,-0.12382394234576423,-0.03810407993118143,0.9686406503327707,-0.022957180488661272,-0.206351,-27.035645
11.185,2.0,1.0,1.0,34.7,33.4,33.4,4.2,2.0,2.7025,-0.13778977553453,-0.03849281158341394,0.9663087515584953,-0.02397387943502619,-0.210262,-26.868832
11.185,2.0,1.0,1.0,34.7,33.4,33.4,4.2,2.0,2.705,-0.15183573219477825,-0.0388770177282859,0.9637432904953774,-0.02502528654450426,-0.214291,-26.700558
11.185,2.0,1.0,1.0,34.7,33.4,33.4,4.2,2.0,2.7075,-0.16595903801644518,-0.03925606316686534,0.960938798150658,-0.026112697880257125,-0.218442,-26.530778
11.185,2.0,1.0,1.0,34.7,33.4,33.4,4.2,2.0,2.71,-0.18015674021819025,-0.03962926727766762,0.9578897074883651,-0.027237471682789748,-0.222722,-26.359448
11.185,2.0,1.0,1.0,34.7,33.4,33.4,4.2,2.0,2.7125,-0.19442569979948787,-0.03999590048468223,0.9545903520122819,-0.028401032519493264,-0.227136,-26.186519
11.185,2.0,1.0,1.0,34.7,33.4,33.4,4.2,2.0,2.715,-0.20876258341602572,-0.040355180377787694,0.951034964197058,-0.02960487579959702,-0.231691,-26.011941
11.185,2.0,1.0,1.0,34.7,33.4,33.4,4.2,2.0,2.7175,-0.2231638548431908,-0.040706267442748,0.9472176737370342,-0.0308505726925607,-0.236393,-25.835662
11.185,2.0,1.0,1.0,34.7,33.4,33.4,4.2,2.0,2.72,-0.2376257659867808,-0.041048260351821624,0.9431325055778165,-0.03213977549229884,-0.24125,-25.657626
11.185,2.0,1.0,1.0,34.7,33.4,33.4,4.2,2.0,2.7225,-0.2521443473936994,-0.04138019075886545,0.9387733776905566,-0.033474223474531446,-0.246269,-25.477774
11.185,2.0,1.0,1.0,34.7,33.4,33.4,4.2,2.0,2.725,-0.26671539820758355,-0.041701017534490015,0.9341340985431419,-0.034855749300048915,-0.25146,-25.296045
11.185,2.0,1.0,1.0,34.7,33.4,33.4,4.2,2.0,2.7275,-0.2813344755054612,-0.04200962036713014,0.9292083642159897,-0.036286286022871116,-0.25683,-25.112374
11.185,2.0,1.0,1.0,34.7,33.4,33.4,4.2,2.0,2.73,-0.2959968829407349,-0.04230479264456644,0.9239897551028458,-0.03776787476922126,-0.262391,-24.926694
11.185,2.0,1.0,1.0,34.7,33.4,33.4,4.2,2.0,2.7325,-0.31069765860529175,-0.042585233517178876,0.918471732128638,-0.03930267316105895,-0.268152,-24.738932
11.185,2.0,1.0,1.0,34.7,33.4,33.4,4.2,2.0,2.735,-0.3254315620086839,-0.04284953902866617,0.9126476324071899,-0.04089296456670086,-0.274124,-24.549011
11.185,2.0,1.0,1.0,34.7,33.4,33.4,4.2,2.0,2.7375,-0.3401930600546381,-0.04309619218168531,0.9065106642510286,-0.04254116827094827,-0.28032,-24.356852
11.185,2.0,1.0,1.0,34.7,33.4,33.4,4.2,2.0,2.74,-0.35497631187433093,-0.04332355178433112,0.9000539014336739,-0.04424985066825045,-0.286753,-24.16237
11.185,2.0,1.0,1.0,34.7,33.4,33.4,4.2,2.0,2.7425,-0.36977515235098013,-0.04352983989793451,0.893270276591482,-0.04602173759493142,-0.293438,-23.965474
11.185,2.0,1.0,1.0,34.7,33.4,33.4,4.2,2.0,2.745,-0.38458307414082005,-0.04371312767653811,0.886152573637118,-0.04785972793052811,-0.30039,-23.766069
11.185,2.0,1.0,1.0,34.7,33.4,33.4,4.2,2.0,2.7475,-0.3993932079601612,-0.04387131935265389,0.878693419039887,-0.04976690861402579,-0.307626,-23.564054
11.185,2.0,1.0,1.0,34.7,33.4,33.4,4.2,2.0,2.75,-0.414198300866244,-0.0440021340813472,0.870885271809324,-0.0517465712383893,-0.315164,-23.359323
11.185,2.0,1.0,1.0,34.7,33.4,33.4,4.2,2.0,2.7525,-0.4289906922090141,-0.04410308530390554,0.8627204119973432,-0.053802230406466124,-0.323025,-23.15176
11.185,2.0,1.0,1.0,34.7,33.4,33.4,4.2,2.0,2.755,-0.4437622868704109,-0.04417145723156646,0.8541909275107683,-0.055937644053244,-0.331231,-22.941245
11.185,2.0,1.0,1.0,34.7,33.4,33.4,4.2,2.0,2.7575,-0.45850452533484193,-0.04420427797683146,0.8452886989999981,-0.058156835963741715,-0.339806,-22.72765
11.185,2.0,1.0,1.0,34.7,33.4,33.4,4.2,2.0,2.76,-0.47320835004649425,-0.04419828877207359,0.8360053825608007,-0.060464120742577385,-0.348778,-22.510837
11.185,2.0,1.0,1.0,34.7,33.4,33.4,4.2,2.0,2.7625,-0.4878641674027175,-0.04414990860912255,0.8263323899547167,-0.06286413152055534,-0.358174,-22.29066
11.185,2.0,1.0,1.0,34.7,33.4,33.4,4.2,2.0,2.765,-0.502461804603472,-0.044055193505086646,0.8162608660193443,-0.06536185071530093,-0.368028,-22.066964
11.185,2.0,1.0,1.0,34.7,33.4,33.4,4.2,2.0,2.7675,-0.5169904604197156,-0.04390978944363109,0.8057816629032211,-0.06796264419678003,-0.378376,-21.839583
11.185,2.0,1.0,1.0,34.7,33.4,33.4,4.2,2.0,2.77,-0.5314386487516738,-0.04370887785070226,0.7948853107215369,-0.07067229924384436,-0.389257,-21.608338
11.185,2.0,1.0,1.0,34.7,33.4,33.4,4.2,2.0,2.7725,-0.5457941336129996,-0.043447112231005676,0.7835619841897689,-0.0734970667136674,-0.400715,-21.37304
11.185,2.0,1.0,1.0,34.7,33.4,33.4,4.2,2.0,2.775,-0.560043853888198,-0.04311854430594575,0.7718014647539747,-0.07644370788033071,-0.412801,-21.133486
11.185,2.0,1.0,1.0,34.7,33.4,33.4,4.2,2.0,2.7775,-0.5741738358548004,-0.042716537641961747,0.7595930977019141,-0.07951954642909426,-0.425569,-20.889457
11.185,2.0,1.0,1.0,34.7,33.4,33.4,4.2,2.0,2.78,-0.588169091021791,-0.04223366632336159,0.7469257437123881,-0.08273252611476656,-0.43908,-20.640721
11.185,2.0,1.0,1.0,34.7,33.4,33.4,4.2,2.0,2.7825,-0.6020134962892932,-0.04166159568430796,0.7337877242878436,-0.08609127459959028,-0.453404,-20.387025
11.185,2.0,1.0,1.0,34.7,33.4,33.4,4.2,2.0,2.785,-0.6156896527541268,-0.0409909414429241,0.720166760526792,-0.08960517396852238,-0.46862,-20.128101
11.185,2.0,1.0,1.0,34.7,33.4,33.4,4.2,2.0,2.7875,-0.6291787186348123,-0.04021110274110303,0.7060499047425808,-0.09328443836325849,-0.484816,-19.863658
11.185,2.0,1.0,1.0,34.7,33.4,33.4,4.2,2.0,2.79,-0.64246021072202,-0.03931006354077609,0.6914234645445384,-0.09714019905960994,-0.502093,-19.593384
11.185,2.0,1.0,1.0,34.7,33.4,33.4,4.2,2.0,2.7925,-0.6555117674158814,-0.03827415550213687,0.6762729191982618,-0.10118459710440862,-0.520564,-19.316941
11.185,2.0,1.0,1.0,34.7,33.4,33.4,4.2,2.0,2.795,-0.6683088647126704,-0.03708777379522048,0.6605828284199002,-0.10543088328176617,-0.540361,-19.033967
11.185,2.0,1.0,1.0,34.7,33.4,33.4,4.2,2.0,2.7975,-0.6808244743489875,-0.03573303517442324,0.6443367343037628,-0.10989352462590868,-0.561634,-18.74407
11.185,2.0,1.0,1.0,34.7,33.4,33.4,4.2,2.0,2.8,-0.6930286505716978,-0.0341893649478725,0.6275170579341749,-0.11458831583827402,-0.584556,-18.446823
11.185,2.0,1.0,1.0,34.7,33.4,33.4,4.2,2.0,2.8025,-0.7048880285070918,-0.0324329960342625,0.6101049935419426,-0.11953249265086141,-0.609326,-18.14177
11.185,2.0,1.0,1.0,34.7,33.4,33.4,4.2,2.0,2.805,-0.7163652126349989,-0.030436358905118636,0.5920804050556321,-0.12474484218474206,-0.636178,-17.828413
11.185,2.0,1.0,1.0,34.7,33.4,33.4,4.2,2.0,2.8075,-0.7274180281534054,-0.028167335586446757,0.5734217329005571,-0.1302458023526307,-0.665383,-17.506214
11.185,2.0,1.0,1.0,34.7,33.4,33.4,4.2,2.0,2.81,-0.737998600690202,-0.025588343692987625,0.5541059234110896,-0.1360575378549508,-0.697259,-17.174591
11.185,2.0,1.0,1.0,34.7,33.4,33.4,4.2,2.0,2.8125,-0.7480522204382417,-0.022655207257924623,0.5341083999912947,-0.14220397358076078,-0.732184,-16.832912
11.185,2.0,1.0,1.0,34.7,33.4,33.4,4.2,2.0,2.815,-0.7575159348186783,-0.01931575937719291,0.5134031053109313,-0.14871075613450482,-0.770602,-16.480494
11.185,2.0,1.0,1.0,34.7,33.4,33.4,4.2,2.0,2.8175,-0.7663167985951933,-0.015508106809150659,0.49196265906350994,-0.15560509908182507,-0.813047,-16.116599
11.185,2.0,1.0,1.0,34.7,33.4,33.4,4.2,2.0,2.82,-0.7743696913185858,-0.011158468033864626,0.4697586987307553,-0.16291544478472497,-0.860158,-15.740429
11.185,2.0,1.0,1.0,34.7,33.4,33.4,4.2,2.0,2.8225,-0.7815745885456369,-0.006178473382820561,0.44676250533996614,-0.17067084148443984,-0.912708,-15.351126
11.185,2.0,1.0,1.0,34.7,33.4,33.4,4.2,2.0,2.825,-0.7878131453664712,-0.0004617886580682808,0.42294606838817744,-0.17889988265466483,-0.971636,-14.94777
11.185,2.0,1.0,1.0,34.7,33.4,33.4,4.2,2.0,2.8275,-0.7929444194667687,0.006120106710483649,0.3982838231170913,-0.18762897755099664,-1.038096,-14.529384
