1,w,sub_t,h,l1,l2,l3,g1,g2,Freq,S11_re,S21_re,S11_img,S21_img,S11_dB,S21_dB
11.185,2.0,1.0,1.0,34.2,33.1,33.1,2.5,3.4,2.5,0.750826576345209,-0.0108027959949915,0.64933922068971,0.00598399151176645,-0.063954,-38.167058
11.185,2.0,1.0,1.0,34.2,33.1,33.1,2.5,3.4,2.5025,0.7457979266269382,-0.010994617560215657,0.6549975698099492,0.005969433705774307,-0.064596,-38.054419
11.185,2.0,1.0,1.0,34.2,33.1,33.1,2.5,3.4,2.505,0.7407007317726648,-0.011189351934031186,0.6606441860159381,0.005952876413307034,-0.065248,-37.941508
11.185,2.0,1.0,1.0,34.2,33.1,33.1,2.5,3.4,2.5075,0.7355343165220207,-0.011387040920488596,0.666278501215701,0.005934252537430231,-0.065912,-37.828319
11.185,2.0,1.0,1.0,34.2,33.1,33.1,2.5,3.4,2.51,0.7302979978386585,-0.011587726775083835,0.6718999312085607,0.00591349285225407,-0.066587,-37.714846
11.185,2.0,1.0,1.0,34.2,33.1,33.1,2.5,3.4,2.5125,0.7249910849109583,-0.011791452196786262,0.6775078752207371,0.005890525932445573,-0.067274,-37.601086
11.185,2.0,1.0,1.0,34.2,33.1,33.1,2.5,3.4,2.515,0.719612879158782,-0.011998260318997998,0.6831017154279931,0.005865278080321211,-0.067972,-37.487032
11.185,2.0,1.0,1.0,34.2,33.1,33.1,2.5,3.4,2.5175,0.7141626742466733,-0.012208194699374411,0.6886808164649795,0.00583767325043669,-0.068683,-37.372679
11.185,2.0,1.0,1.0,34.2,33.1,33.1,2.5,3.4,2.52,0.7086397561038932,-0.012421299308430247,0.6942445249209583,0.005807632971585298,-0.069406,-37.258022
11.185,2.0,1.0,1.0,34.2,33.1,33.1,2.5,3.4,2.5225,0.7030434029517337,-0.012637618516851206,0.699792168821531,0.005775076266116235,-0.070141,-37.143057
11.185,2.0,1.0,1.0,34.2,33.1,33.1,2.5,3.4,2.525,0.6973728853385457,-0.012857197081427331,0.7053230570960386,0.005739919566478296,-0.07089,-37.027776
11.185,2.0,1.0,1.0,34.2,33.1,33.1,2.5,3.4,2.5275,0.6916274661829461,-0.013080080129517902,0.7108364790302706,0.005702076628893932,-0.071651,-36.912176
11.185,2.0,1.0,1.0,34.2,33.1,33.1,2.5,3.4,2.53,0.6858064008257131,-0.013306313141954452,0.7163317037041084,0.005661458444063308,-0.072426,-36.79625
11.185,2.0,1.0,1.0,34.2,33.1,33.1,2.5,3.4,2.5325,0.6799089370908721,-0.013535941934280779,0.7218079794137398,0.005617973144795635,-0.073215,-36.679994
11.185,2.0,1.0,1.0,34.2,33.1,33.1,2.5,3.4,2.535,0.6739343153565207,-0.013769012636224523,0.7272645330780724,0.005571525910462289,-0.074018,-36.563401
11.185,2.0,1.0,1.0,34.2,33.1,33.1,2.5,3.4,2.5375,0.6678817686359666,-0.014005571669288588,0.7327005696289506,0.005522018868160979,-0.074835,-36.446467
11.185,2.0,1.0,1.0,34.2,33.1,33.1,2.5,3.4,2.54,0.6617505226697721,-0.014245665722343417,0.738115271384804,0.005469350990477947,-0.075667,-36.329186
11.185,2.0,1.0,1.0,34.2,33.1,33.1,2.5,3.4,2.5425,0.6555397960293313,-0.014489341725095283,0.7435077974073302,0.0054134179897315435,-0.076514,-36.211551
11.185,2.0,1.0,1.0,34.2,33.1,33.1,2.5,3.4,2.545,0.6492488002326394,-0.014736646819297252,0.748877282840816,0.005354112208575763,-0.077376,-36.093558
11.185,2.0,1.0,1.0,34.2,33.1,33.1,2.5,3.4,2.5475,0.6428767398729531,-0.014987628327563722,0.7542228382336971,0.00529132250683911,-0.078255,-35.975201
11.185,2.0,1.0,1.0,34.2,33.1,33.1,2.5,3.4,2.55,0.6364228127610435,-0.015242333719638951,0.759543548841962,0.0052249341444702896,-0.079149,-35.856473
11.185,2.0,1.0,1.0,34.2,33.1,33.1,2.5,3.4,2.5525,0.6298862100818318,-0.015500810575963763,0.764838473913979,0.005154828660456871,-0.080059,-35.73737
11.185,2.0,1.0,1.0,34.2,33.1,33.1,2.5,3.4,2.555,0.6232661165661728,-0.015763106548373478,0.7701066459563517,0.0050808837475815275,-0.080987,-35.617886
11.185,2.0,1.0,1.0,34.2,33.1,33.1,2.5,3.4,2.5575,0.6165617106786362,-0.016029269317752743,0.7753470699803916,0.005002973122872246,-0.081931,-35.498014
11.185,2.0,1.0,1.0,34.2,33.1,33.1,2.5,3.4,2.56,0.6097721648221538,-0.016299346548460956,0.7805587227287856,0.0049209663936023145,-0.082894,-35.377748
11.185,2.0,1.0,1.0,34.2,33.1,33.1,2.5,3.4,2.5625,0.6028966455604501,-0.01657338583933193,0.7857405518820589,0.004834728918689083,-0.083874,-35.257084
11.185,2.0,1.0,1.0,34.2,33.1,33.1,2.5,3.4,2.565,0.5959343138592067,-0.016851434671041506,0.7908914752444183,0.004744121665335999,-0.084873,-35.136013
11.185,2.0,1.0,1.0,34.2,33.1,33.1,2.5,3.4,2.5675,0.5888843253469738,-0.017133540349621997,0.7960103799085573,0.0046490010607589186,-0.08589,-35.014532
11.185,2.0,1.0,1.0,34.2,33.1,33.1,2.5,3.4,2.57,0.5817458305968709,-0.017419749945893095,0.8010961213990236,0.004549218838831888,-0.086927,-34.892632
11.185,2.0,1.0,1.0,34.2,33.1,33.1,2.5,3.4,2.5725,0.5745179754301772,-0.0177101102305632,0.8061475227937432,0.004444621881482332,-0.087984,-34.770309
11.185,2.0,1.0,1.0,34.2,33.1,33.1,2.5,3.4,2.575,0.5671999012429609,-0.018004667604742255,0.8111633738232906,0.004335052054661692,-0.089061,-34.647556
11.185,2.0,1.0,1.0,34.2,33.1,33.1,2.5,3.4,2.5775,0.559790745356956,-0.01830346802559126,0.8161424299475186,0.004220346038711799,-0.090159,-34.524366
11.185,2.0,1.0,1.0,34.2,33.1,33.1,2.5,3.4,2.58,0.5522896413959415,-0.018606556926819732,0.8210834114091466,0.004100335152941811,-0.091278,-34.400734
11.185,2.0,1.0,1.0,34.2,33.1,33.1,2.5,3.4,2.5825,0.5446957196889366,-0.018913979133723835,0.825985002263939,0.003974845174225281,-0.092419,-34.276652
11.185,2.0,1.0,1.0,34.2,33.1,33.1,2.5,3.4,2.585,0.5370081077015976,-0.01922577877244136,0.8308458493870832,0.003843696149422962,-0.093582,-34.152115
11.185,2.0,1.0,1.0,34.2,33.1,33.1,2.5,3.4,2.5875,0.5292259304972428,-0.019541999173081366,0.8356645614554236,0.0037067022014285905,-0.094767,-34.027115
11.185,2.0,1.0,1.0,34.2,33.1,33.1,2.5,3.4,2.59,0.5213483112290254,-0.019862682766365963,0.8404397079051865,0.0035636713286325995,-0.095977,-33.901646
11.185,2.0,1.0,1.0,34.2,33.1,33.1,2.5,3.4,2.5925,0.5133743716648105,-0.020187870973402057,0.8451698178648706,0.003414405197590579,-0.09721,-33.775701
11.185,2.0,1.0,1.0,34.2,33.1,33.1,2.5,3.4,2.595,0.5053032327464172,-0.02051760408817674,0.8498533790629756,0.0032586989286791327,-0.098467,-33.649274
11.185,2.0,1.0,1.0,34.2,33.1,33.1,2.5,3.4,2.5975,0.4971340151849235,-0.02085192115235037,0.8544888367102802,0.003096340874515218,-0.09975,-33.522358
11.185,2.0,1.0,1.0,34.2,33.1,33.1,2.5,3.4,2.6,0.48886584009383205,-0.021190859821893296,0.8590745923563808,0.0029271123909099246,-0.101059,-33.394945
11.185,2.0,1.0,1.0,34.2,33.1,33.1,2.5,3.4,2.6025,0.48049782966197996,-0.021534456225088466,0.8636090027202362,0.00275078760012081,-0.102394,-33.267029
11.185,2.0,1.0,1.0,34.2,33.1,33.1,2.5,3.4,2.605,0.4720291078681228,-0.021882744811393674,0.8680903784944966,0.0025671331461625062,-0.103756,-33.138602
11.185,2.0,1.0,1.0,34.2,33.1,33.1,2.5,3.4,2.6075,0.46345880123924804,-0.022235758190628712,0.8725169831234024,0.0023759079419284766,-0.105146,-33.009658
11.185,2.0,1.0,1.0,34.2,33.1,33.1,2.5,3.4,2.61,0.45478603965473985,-0.02259352696192142,0.8768870315540974,0.0021768629078700113,-0.106565,-32.880189
11.185,2.0,1.0,1.0,34.2,33.1,33.1,2.5,3.4,2.6125,0.4460099571986107,-0.022956079531814617,0.881198688961209,0.001969740701975548,-0.108012,-32.750188
11.185,2.0,1.0,1.0,34.2,33.1,33.1,2.5,3.4,2.615,0.43712969306210725,-0.023323441920901074,0.8854500694446125,0.0017542754407840388,-0.10949,-32.619647
11.185,2.0,1.0,1.0,34.2,33.1,33.1,2.5,3.4,2.6175,0.42814439249911473,-0.023695637558317193,0.8896392347003145,0.0015301924111621773,-0.110998,-32.488559
11.185,2.0,1.0,1.0,34.2,33.1,33.1,2.5,3.4,2.62,0.41905320783686134,-0.024072687063387607,0.8937641926644537,0.001297207772570432,-0.112538,-32.356916
11.185,2.0,1.0,1.0,34.2,33.1,33.1,2.5,3.4,2.6225,0.40985529954453825,-0.024454608013671976,0.897822896130463,0.001055028249533462,-0.11411,-32.22471
11.185,2.0,1.0,1.0,34.2,33.1,33.1,2.5,3.4,2.625,0.40054983736258,-0.0248414146986214,0.901813241339478,0.000803350814029221,-0.115716,-32.091934
11.185,2.0,1.0,1.0,34.2,33.1,33.1,2.5,3.4,2.6275,0.39113600149541816,-0.025233117858006658,0.9057330665441635,0.0005418623575021267,-0.117355,-31.958579
11.185,2.0,1.0,1.0,34.2,33.1,33.1,2.5,3.4,2.63,0.38161298387068743,-0.025629724404231276,0.9095801505461661,0.0002702393522009483,-0.11903,-31.824638
11.185,2.0,1.0,1.0,34.2,33.1,33.1,2.5,3.4,2.6325,0.3719799894679462,-0.02603123712759052,0.9133522112074843,-1.185249846128129e-05,-0.120741,-31.690103
11.185,2.0,1.0,1.0,34.2,33.1,33.1,2.5,3.4,2.635,0.36223623772011737,-0.026437654383483,0.9170469039361225,-0.0003047586208373299,-0.122488,-31.554965
11.185,2.0,1.0,1.0,34.2,33.1,33.1,2.5,3.4,2.6375,0.3523809639909887,-0.026848969760522763,0.9206618201464628,-0.0006088359435782481,-0.124273,-31.419215
11.185,2.0,1.0,1.0,34.2,33.1,33.1,2.5,3.4,2.64,0.3424134211322073,-0.027265171728439164,0.9241944856949008,-0.0009244532820896976,-0.126098,-31.282845
11.185,2.0,1.0,1.0,34.2,33.1,33.1,2.5,3.4,2.6425,0.33233288112339754,-0.027686243264584527,0.9276423592913501,-0.0012519917352356701,-0.127962,-31.145848
11.185,2.0,1.0,1.0,34.2,33.1,33.1,2.5,3.4,2.645,0.3221386367991183,-0.028112161457801058,0.9310028308873518,-0.001591845094618646,-0.129868,-31.008212
11.185,2.0,1.0,1.0,34.2,33.1,33.1,2.5,3.4,2.6475,0.3118300036665604,-0.02854289708832349,0.934273220041607,-0.0019444202667684603,-0.131815,-30.869931
11.185,2.0,1.0,1.0,34.2,33.1,33.1,2.5,3.4,2.65,0.3014063218179933,-0.02897841418231645,0.9374507742638936,-0.002310137708578724,-0.133806,-30.730995
11.185,2.0,1.0,1.0,34.2,33.1,33.1,2.5,3.4,2.6525,0.29086695794218476,-0.029418669539559513,0.9405326673384056,-0.0026894318763290253,-0.135842,-30.591394
11.185,2.0,1.0,1.0,34.2,33.1,33.1,2.5,3.4,2.655,0.28021130743909933,-0.02986361223270508,0.9435159976277383,-0.0030827516886382253,-0.137924,-30.45112
11.185,2.0,1.0,1.0,34.2,33.1,33.1,2.5,3.4,2.6575,0.2694387966424087,-0.03031318307643968,0.9463977863588389,-0.0034905610036951406,-0.140053,-30.310162
11.185,2.0,1.0,1.0,34.2,33.1,33.1,2.5,3.4,2.66,0.2585488851544764,-0.030767314064775394,0.9491749758924074,-0.003913339111116197,-0.142231,-30.168512
11.185,2.0,1.0,1.0,34.2,33.1,33.1,2.5,3.4,2.6625,0.24754106829867348,-0.031225927774591357,0.9518444279773899,-0.0043515812387795024,-0.144458,-30.026159
11.185,2.0,1.0,1.0,34.2,33.1,33.1,2.5,3.4,2.665,0.23641487969403038,-0.031688936733431504,0.9544029219923732,-0.004805799074991451,-0.146737,-29.883093
11.185,2.0,1.0,1.0,34.2,33.1,33.1,2.5,3.4,2.6675,0.22516989395745235,-0.032156242749436785,0.9568471531758569,-0.005276521306335607,-0.149069,-29.739304
11.185,2.0,1.0,1.0,34.2,33.1,33.1,2.5,3.4,2.67,0.21380572953886942,-0.03262773620116275,0.9591737308475847,-0.005764294171561133,-0.151456,-29.594783
11.185,2.0,1.0,1.0,34.2,33.1,33.1,2.5,3.4,2.6725,0.20232205169490616,-0.033103295284890116,0.9613791766232963,-0.006269682031864268,-0.153898,-29.449517
11.185,2.0,1.0,1.0,34.2,33.1,33.1,2.5,3.4,2.675,0.19071857560685587,-0.03358278521688348,0.9634599226254827,-0.006793267957915277,-0.156399,-29.303497
11.185,2.0,1.0,1.0,34.2,33.1,33.1,2.5,3.4,2.6775,0.1789950696489301,-0.03406605738789505,0.9654123096929521,-0.007335654333983947,-0.158959,-29.156711
11.185,2.0,1.0,1.0,34.2,33.1,33.1,2.5,3.4,2.68,0.16715135881297297,-0.03455294846703175,0.9672325855922289,-0.007897463479512994,-0.16158,-29.009149
11.185,2.0,1.0,1.0,34.2,33.1,33.1,2.5,3.4,2.6825,0.15518732829603912,-0.03504327945192202,0.9689169032340759,-0.008479338288485867,-0.164264,-28.860798
11.185,2.0,1.0,1.0,34.2,33.1,33.1,2.5,3.4,2.685,0.14310292725744947,-0.03553685466191354,0.9704613188986755,-0.009081942886932474,-0.167014,-28.711648
11.185,2.0,1.0,1.0,34.2,33.1,33.1,2.5,3.4,2.6875,0.13089817275216908,-0.03603346067082172,0.9718617904732784,-0.009705963308911185,-0.169831,-28.561686
11.185,2.0,1.0,1.0,34.2,33.1,33.1,2.5,3.4,2.69,0.11857315384759058,-0.03653286517551188,0.9731141757064147,-0.01035210819129726,-0.172717,-28.4109
11.185,2.0,1.0,1.0,34.2,33.1,33.1,2.5,3.4,2.6925,0.10612803593101369,-0.03703481579634981,0.9742142304830658,-0.011021109487706352,-0.175675,-28.259278
11.185,2.0,1.0,1.0,34.2,33.1,33.1,2.5,3.4,2.695,0.09356306521542314,-0.03753903880528439,0.9751576071254892,-0.011713723201866337,-0.178707,-28.106808
11.185,2.0,1.0,1.0,34.2,33.1,33.1,2.5,3.4,2.6975,0.08087857345133366,-0.038045237777031546,0.975939852724741,-0.012430730140748527,-0.181814,-27.953475
11.185,2.0,1.0,1.0,34.2,33.1,33.1,2.5,3.4,2.7,0.06807498285283506,-0.03855309215851334,0.9765564075082556,-0.0131729366877502,-0.185,-27.799267
11.185,2.0,1.0,1.0,34.2,33.1,33.1,2.5,3.4,2.7025,0.05515281124616186,-0.03906225575136181,0.9770026032492097,-0.0139411755962157,-0.188268,-27.64417
11.185,2.0,1.0,1.0,34.2,33.1,33.1,2.5,3.4,2.705,0.04211267744946656,-0.0395723551019236,0.9772736617237683,-0.014736306803560965,-0.191619,-27.48817
11.185,2.0,1.0,1.0,34.2,33.1,33.1,2.5,3.4,2.7075,0.028955306892729165,-0.04008298779279883,0.9773646932226764,-0.0155592182662538,-0.195057,-27.331253
11.185,2.0,1.0,1.0,34.2,33.1,33.1,2.5,3.4,2.71,0.015681537487099145,-0.04059372062950195,0.9772706951240796,-0.016410826815880505,-0.198584,-27.173404
11.185,2.0,1.0,1.0,34.2,33.1,33.1,2.5,3.4,2.7125,0.0022923257532603924,-0.04110408771535771,0.9769865505348528,-0.017292079036505526,-0.202204,-27.014609
11.185,2.0,1.0,1.0,34.2,33.1,33.1,2.5,3.4,2.715,-0.011211246781200898,-0.041613588407216524,0.9765070270081423,-0.018203952163507092,-0.20592,-26.854851
11.185,2.0,1.0,1.0,34.2,33.1,33.1,2.5,3.4,2.7175,-0.02482796690508041,-0.04212168514400278,0.9758267753452751,-0.019147455004037313,-0.209735,-26.694114
11.185,2.0,1.0,1.0,34.2,33.1,33.1,2.5,3.4,2.72,-0.03855648275672279,-0.04262780113948229,0.9749403284906369,-0.020123628879221988,-0.213652,-26.532384
11.185,2.0,1.0,1.0,34.2,33.1,33.1,2.5,3.4,2.7225,-0.05239529655590212,-0.04313131792994891,0.9738421005285877,-0.021133548588172645,-0.217676,-26.369642
11.185,2.0,1.0,1.0,34.2,33.1,33.1,2.5,3.4,2.725,-0.06634275702268853,-0.04363157276677434,0.9725263857919669,-0.02217832339383311,-0.221809,-26.205871
11.185,2.0,1.0,1.0,34.2,33.1,33.1,2.5,3.4,2.7275,-0.08039705147117733,-0.04412785584294031,0.9709873580922435,-0.023259098030629016,-0.226056,-26.041054
11.185,2.0,1.0,1.0,34.2,33.1,33.1,2.5,3.4,2.73,-0.09455619756524009,-0.04461940734175682,0.9692190700818565,-0.0243770537338171,-0.230421,-25.875172
11.185,2.0,1.0,1.0,34.2,33.1,33.1,2.5,3.4,2.7325,-0.1088180347229786,-0.0451054142949687,0.9672154527598441,-0.02553340929035447,-0.234909,-25.708207
11.185,2.0,1.0,1.0,34.2,33.1,33.1,2.5,3.4,2.735,-0.12318021515575256,-0.045585007236341145,0.9649703151323686,-0.026729422111011026,-0.239523,-25.540138
11.185,2.0,1.0,1.0,34.2,33.1,33.1,2.5,3.4,2.7375,-0.13764019452696055,-0.046057256635591404,0.9624773440403349,-0.02796638932333995,-0.244269,-25.370947
11.185,2.0,1.0,1.0,34.2,33.1,33.1,2.5,3.4,2.74,-0.15219522221484275,-0.046521169096177484,0.9597301041668256,-0.029245648884982472,-0.249152,-25.200611
11.185,2.0,1.0,1.0,34.2,33.1,33.1,2.5,3.4,2.7425,-0.16684233116267358,-0.04697568329894922,0.9567220382377123,-0.03056858071662811,-0.254177,-25.029109
11.185,2.0,1.0,1.0,34.2,33.1,33.1,2.5,3.4,2.745,-0.18157832729855253,-0.047419665672004264,0.9534464674293851,-0.03193660785376129,-0.259349,-24.85642
11.185,2.0,1.0,1.0,34.2,33.1,33.1,2.5,3.4,2.7475,-0.19639977850585238,-0.04785190576523283,0.9498965919981802,-0.033351197616093106,-0.264674,-24.68252
11.185,2.0,1.0,1.0,34.2,33.1,33.1,2.5,3.4,2.75,-0.21130300312397,-0.048271111305977,0.946065492146751,-0.0348138627933082,-0.270159,-24.507385
11.185,2.0,1.0,1.0,34.2,33.1,33.1,2.5,3.4,2.7525,-0.226284057957453,-0.04867590290993325,0.941946129143327,-0.03632616284542681,-0.27581,-24.330992
11.185,2.0,1.0,1.0,34.2,33.1,33.1,2.5,3.4,2.755,-0.241338725769795,-0.049064808418863404,0.9375313467105224,-0.03788970511568468,-0.281634,-24.153313
11.185,2.0,1.0,1.0,34.2,33.1,33.1,2.5,3.4,2.7575,-0.2564625022362014,-0.04943625683381957,0.9328138727011548,-0.039506146053366595,-0.287637,-23.974323
11.185,2.0,1.0,1.0,34.2,33.1,33.1,2.5,3.4,2.76,-0.27165058232723793,-0.04978857180939163,0.9277863210793704,-0.0411771924434464,-0.293828,-23.793994
11.185,2.0,1.0,1.0,34.2,33.1,33.1,2.5,3.4,2.7625,-0.2868978460926866,-0.050119964670902725,0.9224411942262899,-0.04290460263920879,-0.300215,-23.612297
11.185,2.0,1.0,1.0,34.2,33.1,33.1,2.5,3.4,2.765,-0.3021988438118824,-0.05042852691246957,0.9167708855903912,-0.04469018779319413,-0.306806,-23.429203
11.185,2.0,1.0,1.0,34.2,33.1,33.1,2.5,3.4,2.7675,-0.3175477804733038,-0.05071222212934123,0.9107676827039975,-0.04653581308080424,-0.313609,-23.244681
11.185,2.0,1.0,1.0,34.2,33.1,33.1,2.5,3.4,2.77,-0.3329384995422866,-0.050968877332879255,0.904423770588465,-0.04844339890971028,-0.320636,-23.058698
11.185,2.0,1.0,1.0,34.2,33.1,33.1,2.5,3.4,2.7725,-0.3483644659710802,-0.051196173590856674,0.8977312355721571,-0.05041492210674458,-0.327895,-22.871221
11.185,2.0,1.0,1.0,34.2,33.1,33.1,2.5,3.4,2.775,-0.3638187484003107,-0.05139163592936646,0.8906820695469365,-0.052452417072204674,-0.335398,-22.682214
11.185,2.0,1.0,1.0,34.2,33.1,33.1,2.5,3.4,2.7775,-0.37929400049487216,-0.05155262242542062,0.8832681746908786,-0.054557976889388675,-0.343155,-22.491642
11.185,2.0,1.0,1.0,34.2,33.1,33.1,2.5,3.4,2.78,-0.3947824413503992,-0.05167631241121172,0.87548136868717,-0.05673375437462674,-0.35118,-22.299466
11.185,2.0,1.0,1.0,34.2,33.1,33.1,2.5,3.4,2.7825,-0.4102758348985448,-0.051759693701843315,0.8673133904719412,-0.05898196304999131,-0.359485,-22.105647
11.185,2.0,1.0,1.0,34.2,33.1,33.1,2.5,3.4,2.785,-0.42576546823027844,-0.051799548747989935,0.8587559065469546,-0.06130487801716771,-0.368083,-21.910142
11.185,2.0,1.0,1.0,34.2,33.1,33.1,2.5,3.4,2.7875,-0.44124212874592855,-0.05179243960325827,0.849800517897055,-0.06370483670646584,-0.376991,-21.712909
11.185,2.0,1.0,1.0,34.2,33.1,33.1,2.5,3.4,2.79,-0.4566960800288273,-0.05173469158278656,0.840438767556925,-0.06618423946955541,-0.386223,-21.513902
11.185,2.0,1.0,1.0,34.2,33.1,33.1,2.5,3.4,2.7925,-0.4721170363256581,-0.05162237547465703,0.830662148877467,-0.06874554997795977,-0.395796,-21.313074
11.185,2.0,1.0,1.0,34.2,33.1,33.1,2.5,3.4,2.795,-0.4874941355009354,-0.05145128814872419,0.8204621145489752,-0.071391295381458,-0.405729,-21.110373
11.185,2.0,1.0,1.0,34.2,33.1,33.1,2.5,3.4,2.7975,-0.5028159103149705,-0.05121693138824946,0.8098300864467625,-0.07412406617098108,-0.41604,-20.90575
11.185,2.0,1.0,1.0,34.2,33.1,33.1,2.5,3.4,2.8,-0.5180702578540747,-0.05091448874792446,0.7987574663751151,-0.07694651567907512,-0.426752,-20.699147
11.185,2.0,1.0,1.0,34.2,33.1,33.1,2.5,3.4,2.8025,-0.5332444069180525,-0.05053880021713565,0.7872356477980077,-0.0798613591370249,-0.437885,-20.490509
11.185,2.0,1.0,1.0,34.2,33.1,33.1,2.5,3.4,2.805,-0.5483248831428842,-0.05008433443924638,0.7752560286602999,-0.08287137219084549,-0.449466,-20.279775
11.185,2.0,1.0,1.0,34.2,33.1,33.1,2.5,3.4,2.8075,-0.5632974716054971,-0.04954515820580083,0.7628100254218598,-0.0859793887578895,-0.461518,-20.066882
11.185,2.0,1.0,1.0,34.2,33.1,33.1,2.5,3.4,2.81,-0.5781471766219793,-0.04891490290835786,0.7498890884499235,-0.08918829808101492,-0.474072,-19.851763
11.185,2.0,1.0,1.0,34.2,33.1,33.1,2.5,3.4,2.8125,-0.592858178409914,-0.0481867275895675,0.736484718943019,-0.0925010408071788,-0.487156,-19.634348
11.185,2.0,1.0,1.0,34.2,33.1,33.1,2.5,3.4,2.815,-0.6074137862391827,-0.047353278188436494,0.7225884875940739,-0.09592060388081444,-0.500806,-19.414565
11.185,2.0,1.0,1.0,34.2,33.1,33.1,2.5,3.4,2.8175,-0.621796387642511,-0.046406642521773366,0.7081920552423153,-0.09945001399797009,-0.515055,-19.192335
11.185,2.0,1.0,1.0,34.2,33.1,33.1,2.5,3.4,2.82,-0.6359873931966842,-0.045338300483736244,0.6932871958150604,-0.10309232931323553,-0.529944,-18.967578
11.185,2.0,1.0,1.0,34.2,33.1,33.1,2.5,3.4,2.8225,-0.6499671763165707,-0.04413906887734039,0.6778658219236026,-0.10685062902576903,-0.545514,-18.740208
11.185,2.0,1.0,1.0,34.2,33.1,33.1,2.5,3.4,2.825,-0.6637150074259573,-0.042799040214753475,0.6619200135548567,-0.11072800039065545,-0.561813,-18.510136
11.185,2.0,1.0,1.0,34.2,33.1,33.1,2.5,3.4,2.8275,-0.6772089817806258,-0.04130751473619641,0.6454420503954095,-0.11472752260410088,-0.57889,-18.277266
