1,w,sub_t,h,l1,l2,l3,g1,g2,Freq,S11_re,S21_re,S11_img,S21_img,S11_dB,S21_dB
11.185,2.0,1.0,1.0,33.0,33.5,33.5,4.0,2.8,2.5,0.901641525281471,-0.00443117751391083,0.419521867069341,0.00418944196567886,-0.04823,-44.296117
11.185,2.0,1.0,1.0,33.0,33.5,33.5,4.0,2.8,2.5025,0.8990116033481917,-0.004523999702388315,0.42502413322054294,0.004213554463630833,-0.04862,-44.177023
11.185,2.0,1.0,1.0,33.0,33.5,33.5,4.0,2.8,2.505,0.8963380177347842,-0.00461841642531757,0.43052928282180575,0.004237339530989839,-0.049015,-44.057753
11.185,2.0,1.0,1.0,33.0,33.5,33.5,4.0,2.8,2.5075,0.8936203756632491,-0.004714457731157817,0.43603717461518976,0.004260782040191034,-0.049417,-43.938296
11.185,2.0,1.0,1.0,33.0,33.5,33.5,4.0,2.8,2.51,0.8908582781620856,-0.004812154408740152,0.44154766314196314,0.004283866333153375,-0.049826,-43.818646
11.185,2.0,1.0,1.0,33.0,33.5,33.5,4.0,2.8,2.5125,0.8880513199618633,-0.00491153800987463,0.4470605986045375,0.004306576200592057,-0.050241,-43.698794
11.185,2.0,1.0,1.0,33.0,33.5,33.5,4.0,2.8,2.515,0.8851990893890328,-0.005012640872788331,0.45257582672399504,0.0043288948604254295,-0.050662,-43.57873
11.185,2.0,1.0,1.0,33.0,33.5,33.5,4.0,2.8,2.5175,0.8823011682579445,-0.005115496146430473,0.45809318859303294,0.004350804935231786,-0.051091,-43.458446
11.185,2.0,1.0,1.0,33.0,33.5,33.5,4.0,2.8,2.52,0.8793571317610438,-0.005220137815683239,0.46361252052419005,0.0043722884287082184,-0.051527,-43.337934
11.185,2.0,1.0,1.0,33.0,33.5,33.5,4.0,2.8,2.5225,0.8763665483572234,-0.005326600727518023,0.46913365389316514,0.004393326701082004,-0.05197,-43.217185
11.185,2.0,1.0,1.0,33.0,33.5,33.5,4.0,2.8,2.525,0.8733289796582894,-0.005434920618140238,0.4746564149770759,0.004413900443419472,-0.052421,-43.096189
11.185,2.0,1.0,1.0,33.0,33.5,33.5,4.0,2.8,2.5275,0.8702439803135206,-0.005545134141166605,0.4801806247874749,0.0044339896507789404,-0.052879,-42.974938
11.185,2.0,1.0,1.0,33.0,33.5,33.5,4.0,2.8,2.53,0.8671110978922847,-0.005657278896882121,0.48570609889793026,0.0044535735941451295,-0.053345,-42.853424
11.185,2.0,1.0,1.0,33.0,33.5,33.5,4.0,2.8,2.5325,0.863929872764685,-0.0057713934626261705,0.49123264726598703,0.004472630791084601,-0.053818,-42.731635
11.185,2.0,1.0,1.0,33.0,33.5,33.5,4.0,2.8,2.535,0.8606998379801966,-0.005887517424359605,0.49676007404930805,0.00449113897505417,-0.0543,-42.609565
11.185,2.0,1.0,1.0,33.0,33.5,33.5,4.0,2.8,2.5375,0.8574205191442698,-0.006005691409467864,0.5022881774157784,0.00450907506329131,-0.05479,-42.487202
11.185,2.0,1.0,1.0,33.0,33.5,33.5,4.0,2.8,2.54,0.8540914342928597,-0.006125957120857729,0.5078167493473654,0.004526415123212582,-0.055289,-42.364538
11.185,2.0,1.0,1.0,33.0,33.5,33.5,4.0,2.8,2.5425,0.8507120937648495,-0.006248357372408783,0.5133455754375056,0.004543134337240129,-0.055796,-42.241563
11.185,2.0,1.0,1.0,33.0,33.5,33.5,4.0,2.8,2.545,0.8472820000723313,-0.006372936125843872,0.5188744346817828,0.004559206965971636,-0.056312,-42.118268
11.185,2.0,1.0,1.0,33.0,33.5,33.5,4.0,2.8,2.5475,0.8438006477687156,-0.006499738529086272,0.5244030992616475,0.004574606309604519,-0.056837,-41.994642
11.185,2.0,1.0,1.0,33.0,33.5,33.5,4.0,2.8,2.55,0.8402675233146155,-0.006628810956175383,0.5299313343209375,0.004589304667519546,-0.057371,-41.870676
11.185,2.0,1.0,1.0,33.0,33.5,33.5,4.0,2.8,2.5525,0.8366821049414918,-0.00676020104881634,0.5354588977349098,0.004603273295922455,-0.057915,-41.746359
11.185,2.0,1.0,1.0,33.0,33.5,33.5,4.0,2.8,2.555,0.8330438625129971,-0.006893957759643514,0.5409855398715288,0.004616482363436228,-0.058468,-41.621682
11.185,2.0,1.0,1.0,33.0,33.5,33.5,4.0,2.8,2.5575,0.829352257383991,-0.007030131397282563,0.5465110033447099,0.00462890090453101,-0.059032,-41.496634
11.185,2.0,1.0,1.0,33.0,33.5,33.5,4.0,2.8,2.56,0.8256067422571822,-0.00716877367329989,0.5520350227592172,0.0046404967706682185,-0.059605,-41.371204
11.185,2.0,1.0,1.0,33.0,33.5,33.5,4.0,2.8,2.5625,0.8218067610373553,-0.007309937751134053,0.5575573244468988,0.00465123657903254,-0.060189,-41.245383
11.185,2.0,1.0,1.0,33.0,33.5,33.5,4.0,2.8,2.565,0.8179517486831326,-0.0074536782971093675,0.5630776261939375,0.0046610856587109275,-0.060784,-41.119158
11.185,2.0,1.0,1.0,33.0,33.5,33.5,4.0,2.8,2.5675,0.8140411310562324,-0.007600051533636701,0.568595636958759,0.004670007994175602,-0.06139,-40.99252
11.185,2.0,1.0,1.0,33.0,33.5,33.5,4.0,2.8,2.57,0.8100743247681714,-0.007749115294714188,0.5741110565802493,0.004677966165911468,-0.062006,-40.865456
11.185,2.0,1.0,1.0,33.0,33.5,33.5,4.0,2.8,2.5725,0.8060507370243589,-0.007900929083845853,0.5796235754759007,0.0046849212880244375,-0.062635,-40.737956
11.185,2.0,1.0,1.0,33.0,33.5,33.5,4.0,2.8,2.575,0.801969765465533,-0.008055554134504216,0.5851328743294889,0.004690832942650891,-0.063275,-40.610009
11.185,2.0,1.0,1.0,33.0,33.5,33.5,4.0,2.8,2.5775,0.7978307980064857,-0.00821305347326991,0.5906386237678747,0.004695659110979384,-0.063927,-40.481602
11.185,2.0,1.0,1.0,33.0,33.5,33.5,4.0,2.8,2.58,0.7936332126720174,-0.008373491985789665,0.5961404840264879,0.0046993561006822724,-0.064592,-40.352723
11.185,2.0,1.0,1.0,33.0,33.5,33.5,4.0,2.8,2.5825,0.789376377430056,-0.008536936485702739,0.6016381046030521,0.004701878469540357,-0.06527,-40.223361
11.185,2.0,1.0,1.0,33.0,33.5,33.5,4.0,2.8,2.585,0.7850596500218875,-0.008703455786694849,0.6071311238990649,0.00470317894502889,-0.06596,-40.093503
11.185,2.0,1.0,1.0,33.0,33.5,33.5,4.0,2.8,2.5875,0.7806823777894176,-0.008873120777848732,0.6126191688485426,0.0047032083396182775,-0.066664,-39.963136
11.185,2.0,1.0,1.0,33.0,33.5,33.5,4.0,2.8,2.59,0.7762438974994038,-0.009046004502470839,0.6181018545334962,0.0047019154615229024,-0.067382,-39.832248
11.185,2.0,1.0,1.0,33.0,33.5,33.5,4.0,2.8,2.5925,0.7717435351645752,-0.009222182240585453,0.623578783785602,0.004699247020616071,-0.068114,-39.700825
11.185,2.0,1.0,1.0,33.0,33.5,33.5,4.0,2.8,2.595,0.767180605861567,-0.009401731595298524,0.6290495467734687,0.004695147529204766,-0.06886,-39.568855
11.185,2.0,1.0,1.0,33.0,33.5,33.5,4.0,2.8,2.5975,0.7625544135455756,-0.00958473258324793,0.6345137205749128,0.0046895591973397785,-0.069621,-39.436324
11.185,2.0,1.0,1.0,33.0,33.5,33.5,4.0,2.8,2.6,0.7578642508616453,-0.009771267729369825,0.6399708687335902,0.0046824218223099215,-0.070398,-39.303217
11.185,2.0,1.0,1.0,33.0,33.5,33.5,4.0,2.8,2.6025,0.753109398952497,-0.009961422166225364,0.6454205407993059,0.004673672671945607,-0.07119,-39.169522
11.185,2.0,1.0,1.0,33.0,33.5,33.5,4.0,2.8,2.605,0.7482891272627797,-0.010155283738149312,0.6508622718513012,0.004663246361326715,-0.071999,-39.035222
11.185,2.0,1.0,1.0,33.0,33.5,33.5,4.0,2.8,2.6075,0.7434026933396434,-0.01035294311049787,0.6562955820037581,0.004651074722462536,-0.072824,-38.900304
11.185,2.0,1.0,1.0,33.0,33.5,33.5,4.0,2.8,2.61,0.7384493426295089,-0.01055449388429233,0.6617199758927301,0.0046370866664750664,-0.073666,-38.764753
11.185,2.0,1.0,1.0,33.0,33.5,33.5,4.0,2.8,2.6125,0.7334283082709036,-0.01076003271657423,0.6671349421436609,0.0046212080377852965,-0.074526,-38.628553
11.185,2.0,1.0,1.0,33.0,33.5,33.5,4.0,2.8,2.615,0.7283388108832168,-0.010969659446810135,0.6725399528186086,0.004603361459759399,-0.075404,-38.491688
11.185,2.0,1.0,1.0,33.0,33.5,33.5,4.0,2.8,2.6175,0.7231800583512351,-0.011183477229705193,0.6779344628422326,0.004583466171233141,-0.076301,-38.354142
11.185,2.0,1.0,1.0,33.0,33.5,33.5,4.0,2.8,2.62,0.7179512456052797,-0.011401592674811247,0.683317909405546,0.004561437853284424,-0.077217,-38.215899
11.185,2.0,1.0,1.0,33.0,33.5,33.5,4.0,2.8,2.6225,0.7126515543967706,-0.011624115993340062,0.6886897113463903,0.004537188445575595,-0.078152,-38.076942
11.185,2.0,1.0,1.0,33.0,33.5,33.5,4.0,2.8,2.625,0.707280153069032,-0.0118511611526215,0.694049268505494,0.00451062595153234,-0.079108,-37.937254
11.185,2.0,1.0,1.0,33.0,33.5,33.5,4.0,2.8,2.6275,0.7018361963231102,-0.012082846038677387,0.6993959610569449,0.004481654231566679,-0.080085,-37.796816
11.185,2.0,1.0,1.0,33.0,33.5,33.5,4.0,2.8,2.63,0.6963188249783908,-0.012319292627414059,0.7047291488117982,0.004450172783486026,-0.081083,-37.655612
11.185,2.0,1.0,1.0,33.0,33.5,33.5,4.0,2.8,2.6325,0.6907271657277541,-0.012560627164973125,0.7100481704934767,0.0044160765091613065,-0.082104,-37.513621
11.185,2.0,1.0,1.0,33.0,33.5,33.5,4.0,2.8,2.635,0.685060330886998,-0.012806980357817523,0.7153523429835259,0.004379255466449364,-0.083148,-37.370825
11.185,2.0,1.0,1.0,33.0,33.5,33.5,4.0,2.8,2.6375,0.6793174181382381,-0.013058487573172331,0.7206409605361865,0.0043395946052787295,-0.084215,-37.227205
11.185,2.0,1.0,1.0,33.0,33.5,33.5,4.0,2.8,2.64,0.6734975102669436,-0.013315289050483953,0.7259132939601591,0.004296973486717524,-0.085307,-37.08274
11.185,2.0,1.0,1.0,33.0,33.5,33.5,4.0,2.8,2.6425,0.667599674892266,-0.013577530124609981,0.7311685897657929,0.004251265983739319,-0.086424,-36.93741
11.185,2.0,1.0,1.0,33.0,33.5,33.5,4.0,2.8,2.645,0.6616229641902683,-0.01384536146150414,0.7364060692758363,0.0042023399622923,-0.087567,-36.791194
11.185,2.0,1.0,1.0,33.0,33.5,33.5,4.0,2.8,2.6475,0.6555664146096276,-0.014118939307217105,0.7416249276977269,0.004150056941154095,-0.088737,-36.644069
11.185,2.0,1.0,1.0,33.0,33.5,33.5,4.0,2.8,2.65,0.6494290465793359,-0.014398425751096122,0.7468243331552781,0.004094271728920706,-0.089935,-36.496013
11.185,2.0,1.0,1.0,33.0,33.5,33.5,4.0,2.8,2.6525,0.6432098642079107,-0.01468398900413025,0.7520034256774182,0.004034832036330045,-0.091161,-36.347004
11.185,2.0,1.0,1.0,33.0,33.5,33.5,4.0,2.8,2.655,0.6369078549735304,-0.014975803693462408,0.7571613161415113,0.003971578061958495,-0.092418,-36.197017
11.185,2.0,1.0,1.0,33.0,33.5,33.5,4.0,2.8,2.6575,0.6305219894044923,-0.0152740511741644,0.7622970851685531,0.003904342049148299,-0.093705,-36.046028
11.185,2.0,1.0,1.0,33.0,33.5,33.5,4.0,2.8,2.66,0.6240512207493168,-0.015578919859456915,0.7674097819673433,0.0038329478118258203,-0.095023,-35.894012
11.185,2.0,1.0,1.0,33.0,33.5,33.5,4.0,2.8,2.6625,0.6174944846357651,-0.01589060557064552,0.7724984231244987,0.0037572102266539838,-0.096375,-35.740943
11.185,2.0,1.0,1.0,33.0,33.5,33.5,4.0,2.8,2.665,0.6108506987179412,-0.01620931190814464,0.7775619913369171,0.0036769346887174726,-0.097761,-35.586794
11.185,2.0,1.0,1.0,33.0,33.5,33.5,4.0,2.8,2.6675,0.6041187623106108,-0.016535250645065523,0.7825994340830084,0.0035919165276748414,-0.099182,-35.431538
11.185,2.0,1.0,1.0,33.0,33.5,33.5,4.0,2.8,2.67,0.597297556009742,-0.01686864214496251,0.7876096622287111,0.0035019403810122515,-0.100639,-35.275146
11.185,2.0,1.0,1.0,33.0,33.5,33.5,4.0,2.8,2.6725,0.5903859412981957,-0.017209715805456296,0.7925915485639611,0.0034067795207081554,-0.102135,-35.117589
11.185,2.0,1.0,1.0,33.0,33.5,33.5,4.0,2.8,2.675,0.5833827601353954,-0.017558710529589194,0.7975439262648905,0.003306195129249645,-0.10367,-34.958837
11.185,2.0,1.0,1.0,33.0,33.5,33.5,4.0,2.8,2.6775,0.5762868345296718,-0.017915875226916247,0.8024655872766266,0.0031999355205390755,-0.105246,-34.798858
11.185,2.0,1.0,1.0,33.0,33.5,33.5,4.0,2.8,2.68,0.569096966091862,-0.01828146934649577,0.8073552806110781,0.003087735300774736,-0.106864,-34.637621
11.185,2.0,1.0,1.0,33.0,33.5,33.5,4.0,2.8,2.6825,0.5618119355686051,-0.018655763444117263,0.81221171055358,0.0029693144638878884,-0.108526,-34.47509
11.185,2.0,1.0,1.0,33.0,33.5,33.5,4.0,2.8,2.685,0.5544305023536092,-0.019039039786294534,0.8170335347716904,0.0028443774155575614,-0.110235,-34.311233
11.185,2.0,1.0,1.0,33.0,33.5,33.5,4.0,2.8,2.6875,0.54695140397501,-0.0194315929937563,0.82181936231878,0.00271261191919477,-0.11199,-34.146012
11.185,2.0,1.0,1.0,33.0,33.5,33.5,4.0,2.8,2.69,0.5393733555567558,-0.01983373072738936,0.826567751524337,0.0025736879565906,-0.113796,-33.979392
11.185,2.0,1.0,1.0,33.0,33.5,33.5,4.0,2.8,2.6925,0.5316950492517315,-0.020245774419832035,0.831277207762106,0.0024272564951323627,-0.115653,-33.811333
11.185,2.0,1.0,1.0,33.0,33.5,33.5,4.0,2.8,2.695,0.5239151536441524,-0.020668060056175556,0.835946181086263,0.0022729481526161037,-0.117564,-33.641796
11.185,2.0,1.0,1.0,33.0,33.5,33.5,4.0,2.8,2.6975,0.5160323131184595,-0.021100939007517666,0.8405730637248443,0.002110371749690792,-0.11953,-33.470739
11.185,2.0,1.0,1.0,33.0,33.5,33.5,4.0,2.8,2.7,0.5080451471917469,-0.021544778921417658,0.8451561874184726,0.0019391127388601829,-0.121556,-33.29812
11.185,2.0,1.0,1.0,33.0,33.5,33.5,4.0,2.8,2.7025,0.4999522498064026,-0.021999964673636702,0.8496938205911837,0.001758731497716269,-0.123642,-33.123894
11.185,2.0,1.0,1.0,33.0,33.5,33.5,4.0,2.8,2.705,0.49175218857937825,-0.022466899385906014,0.8541841653386858,0.0015687614726638188,-0.125792,-32.948014
11.185,2.0,1.0,1.0,33.0,33.5,33.5,4.0,2.8,2.7075,0.48344350400412267,-0.02294600551485429,0.8586253542177847,0.0013687071578056722,-0.128008,-32.770433
11.185,2.0,1.0,1.0,33.0,33.5,33.5,4.0,2.8,2.71,0.47502470860087065,-0.023437726017643566,0.8630154468188536,0.0011580418918515519,-0.130295,-32.591101
11.185,2.0,1.0,1.0,33.0,33.5,33.5,4.0,2.8,2.7125,0.46649428601055104,-0.023942525600313992,0.8673524261011644,0.0009362054538731095,-0.132654,-32.409966
11.185,2.0,1.0,1.0,33.0,33.5,33.5,4.0,2.8,2.715,0.45785069002716405,-0.024460892055319254,0.8716341944685341,0.0007026014364113475,-0.135089,-32.226973
11.185,2.0,1.0,1.0,33.0,33.5,33.5,4.0,2.8,2.7175,0.4490923435629893,-0.02499333769525209,0.8758585695600692,0.0004565943718075144,-0.137604,-32.042066
11.185,2.0,1.0,1.0,33.0,33.5,33.5,4.0,2.8,2.72,0.4402176375405113,-0.02554040089030793,0.8800232797277495,0.0001975065846357003,-0.140203,-31.855186
11.185,2.0,1.0,1.0,33.0,33.5,33.5,4.0,2.8,2.7225,0.4312249297043714,-0.026102647717619797,0.8841259591691282,-7.538526030400627e-05,-0.14289,-31.666273
11.185,2.0,1.0,1.0,33.0,33.5,33.5,4.0,2.8,2.725,0.42211254334614823,-0.02668067373120921,0.88816414267946,-0.0003628539488723543,-0.14567,-31.475261
11.185,2.0,1.0,1.0,33.0,33.5,33.5,4.0,2.8,2.7275,0.4128787659341054,-0.027275105861944565,0.8921352599830605,-0.0006657258862638917,-0.148547,-31.282085
11.185,2.0,1.0,1.0,33.0,33.5,33.5,4.0,2.8,2.73,0.40352184763949006,-0.027886604457559777,0.8960366295984886,-0.000984885687487968,-0.151526,-31.086674
11.185,2.0,1.0,1.0,33.0,33.5,33.5,4.0,2.8,2.7325,0.39403999975028065,-0.028515865473471052,0.8998654521862137,-0.0013212812395540043,-0.154613,-30.888955
11.185,2.0,1.0,1.0,33.0,33.5,33.5,4.0,2.8,2.735,0.3844313929626769,-0.029163622825810726,0.9036188033205637,-0.0016759292920185056,-0.157813,-30.688852
11.185,2.0,1.0,1.0,33.0,33.5,33.5,4.0,2.8,2.7375,0.374694155539974,-0.029830650918770855,0.9072936256198614,-0.0020499216403439403,-0.161134,-30.486285
11.185,2.0,1.0,1.0,33.0,33.5,33.5,4.0,2.8,2.74,0.36482637132787976,-0.03051776735898456,0.9108867201595405,-0.0024444319755168083,-0.164581,-30.28117
11.185,2.0,1.0,1.0,33.0,33.5,33.5,4.0,2.8,2.7425,0.35482607761479196,-0.03122583587024403,0.9143947370824742,-0.0028607234837947364,-0.168162,-30.07342
11.185,2.0,1.0,1.0,33.0,33.5,33.5,4.0,2.8,2.745,0.344691262825128,-0.031955769422316475,0.9178141653085164,-0.0033001572925299345,-0.171885,-29.862941
11.185,2.0,1.0,1.0,33.0,33.5,33.5,4.0,2.8,2.7475,0.33441986403353113,-0.03270853358791848,0.9211413212310255,-0.0037642018720661025,-0.175759,-29.649638
11.185,2.0,1.0,1.0,33.0,33.5,33.5,4.0,2.8,2.75,0.324009764287735,-0.0334851501419707,0.924372336271569,-0.00425444352006343,-0.179792,-29.433407
11.185,2.0,1.0,1.0,33.0,33.5,33.5,4.0,2.8,2.7525,0.3134587897281747,-0.034286700916979565,0.9275031431446682,-0.004772598073707382,-0.183995,-29.214143
11.185,2.0,1.0,1.0,33.0,33.5,33.5,4.0,2.8,2.755,0.3027647064931858,-0.03511433192764925,0.9305294606617801,-0.005320524017616773,-0.188378,-28.991732
11.185,2.0,1.0,1.0,33.0,33.5,33.5,4.0,2.8,2.7575,0.2919252174000014,-0.035969257776446426,0.9334467768771815,-0.005900237181482765,-0.192954,-28.766057
11.185,2.0,1.0,1.0,33.0,33.5,33.5,4.0,2.8,2.76,0.28093795839406444,-0.0368527663495854,0.936250330347158,-0.006513927252305464,-0.197735,-28.53699
11.185,2.0,1.0,1.0,33.0,33.5,33.5,4.0,2.8,2.7625,0.26980049476252244,-0.037766223809485716,0.9389350892371154,-0.007163976362441913,-0.202735,-28.304401
11.185,2.0,1.0,1.0,33.0,33.5,33.5,4.0,2.8,2.765,0.2585103171128012,-0.038711079884764195,0.9414957279676928,-0.00785298005762784,-0.207969,-28.06815
11.185,2.0,1.0,1.0,33.0,33.5,33.5,4.0,2.8,2.7675,0.2470648371241904,-0.039688873451750366,0.9439266010394269,-0.008583771000025374,-0.213455,-27.828089
11.185,2.0,1.0,1.0,33.0,33.5,33.5,4.0,2.8,2.77,0.23546138309020007,-0.04070123839165759,0.9462217136142733,-0.009359445821800302,-0.219211,-27.584062
11.185,2.0,1.0,1.0,33.0,33.5,33.5,4.0,2.8,2.7725,0.22369719528301302,-0.04174990969398805,0.9483746883593246,-0.010183395616735853,-0.225256,-27.335904
11.185,2.0,1.0,1.0,33.0,33.5,33.5,4.0,2.8,2.775,0.21176942118977496,-0.042836729758286694,0.9503787279709649,-0.0110593406433933,-0.231614,-27.083438
11.185,2.0,1.0,1.0,33.0,33.5,33.5,4.0,2.8,2.7775,0.1996751106954681,-0.043963654821374605,0.9522265726933088,-0.011991369916323278,-0.238309,-26.82648
11.185,2.0,1.0,1.0,33.0,33.5,33.5,4.0,2.8,2.78,0.18741121132076283,-0.04513276140353982,0.9539104520194618,-0.012983986485543763,-0.245369,-26.564831
11.185,2.0,1.0,1.0,33.0,33.5,33.5,4.0,2.8,2.7825,0.17497456366852854,-0.04634625262197353,0.9554220296131275,-0.01404215935348974,-0.252823,-26.29828
11.185,2.0,1.0,1.0,33.0,33.5,33.5,4.0,2.8,2.785,0.1623618972932894,-0.04760646415918827,0.9567523403057614,-0.015171383158603724,-0.260706,-26.026604
11.185,2.0,1.0,1.0,33.0,33.5,33.5,4.0,2.8,2.7875,0.14956982728930285,-0.04891586959305641,0.957891717803515,-0.016377746972727977,-0.269056,-25.749563
11.185,2.0,1.0,1.0,33.0,33.5,33.5,4.0,2.8,2.79,0.1365948520017751,-0.05027708468654178,0.9588297114698769,-0.017668013824246303,-0.277913,-25.466902
11.185,2.0,1.0,1.0,33.0,33.5,33.5,4.0,2.8,2.7925,0.12343335241186043,-0.051692870089710186,0.9595549902229874,-0.01904971288146254,-0.287327,-25.17835
11.185,2.0,1.0,1.0,33.0,33.5,33.5,4.0,2.8,2.795,0.11008159394204446,-0.05316613171142721,0.9600552311872779,-0.02053124662465397,-0.29735,-24.883613
11.185,2.0,1.0,1.0,33.0,33.5,33.5,4.0,2.8,2.7975,0.09653573169230699,-0.05469991775577391,0.9603169902500311,-0.022122015817623856,-0.308041,-24.58238
11.185,2.0,1.0,1.0,33.0,33.5,33.5,4.0,2.8,2.8,0.08279182047281343,-0.05629741106469864,0.9603255510731156,-0.023832565681725267,-0.319471,-24.274316
11.185,2.0,1.0,1.0,33.0,33.5,33.5,4.0,2.8,2.8025,0.06884583147951864,-0.05796191493071061,0.9600647483714805,-0.025674757403738178,-0.331714,-23.959061
11.185,2.0,1.0,1.0,33.0,33.5,33.5,4.0,2.8,2.805,0.05469367811086946,-0.059696829895791954,0.9595167603595939,-0.0276619700066539,-0.344861,-23.636228
11.185,2.0,1.0,1.0,33.0,33.5,33.5,4.0,2.8,2.8075,0.04033125431103789,-0.06150561817148811,0.9586618641432997,-0.02980933872017384,-0.359011,-23.305401
11.185,2.0,1.0,1.0,33.0,33.5,33.5,4.0,2.8,2.81,0.025754490037804178,-0.06339175111123198,0.9574781464466754,-0.032134037355627094,-0.374282,-22.966131
11.185,2.0,1.0,1.0,33.0,33.5,33.5,4.0,2.8,2.8125,0.0109594301178221,-0.0653586335140305,0.955941160349561,-0.0346556138787226,-0.390806,-22.617934
11.185,2.0,1.0,1.0,33.0,33.5,33.5,4.0,2.8,2.815,-0.004057654952482171,-0.06740949626138598,0.9540235165981648,-0.03739639045513429,-0.40874,-22.260286
11.185,2.0,1.0,1.0,33.0,33.5,33.5,4.0,2.8,2.8175,-0.019300114520815037,-0.06954724563450057,0.951694395453898,-0.04038194180106951,-0.428264,-21.892622
11.185,2.0,1.0,1.0,33.0,33.5,33.5,4.0,2.8,2.82,-0.03477070343671701,-0.07177425326570072,0.948918961872604,-0.043641668793410145,-0.44959,-21.514329
11.185,2.0,1.0,1.0,33.0,33.5,33.5,4.0,2.8,2.8225,-0.05047128547629613,-0.07409206452794807,0.9456576629681516,-0.04720948806840887,-0.472968,-21.124744
11.185,2.0,1.0,1.0,33.0,33.5,33.5,4.0,2.8,2.825,-0.06640242341960241,-0.07650099450984521,0.9418653821460569,-0.0511246628260738,-0.498691,-20.723149
11.185,2.0,1.0,1.0,33.0,33.5,33.5,4.0,2.8,2.8275,-0.08256281229705226,-0.07899956847308184,0.9374904189983772,-0.055432805251778135,-0.52711,-20.308765
