1,w,sub_t,h,l1,l2,l3,g1,g2,Freq,S11_re,S21_re,S11_img,S21_img,S11_dB,S21_dB
11.185,2.0,1.0,1.0,34.5,33.0,33.0,3.9,4.1,2.5,0.706079795262607,-0.00771196442136892,0.697815273625797,0.00234922783578061,-0.063456,-41.871316
11.185,2.0,1.0,1.0,34.5,33.0,33.0,3.9,4.1,2.5025,0.7004789444167129,-0.007829474030612571,0.7033391194644143,0.002308757557047234,-0.064065,-41.763235
11.185,2.0,1.0,1.0,34.5,33.0,33.0,3.9,4.1,2.505,0.6948058412296826,-0.00794831144148184,0.7088449844904389,0.0022665113975141246,-0.064684,-41.654984
11.185,2.0,1.0,1.0,34.5,33.0,33.0,3.9,4.1,2.5075,0.689059831433829,-0.008068483936938842,0.7143321665485378,0.002222442600345837,-0.065312,-41.546558
11.185,2.0,1.0,1.0,34.5,33.0,33.0,3.9,4.1,2.51,0.6832402555887507,-0.008189998471754003,0.719799944906289,0.0021765032185148653,-0.06595,-41.437955
11.185,2.0,1.0,1.0,34.5,33.0,33.0,3.9,4.1,2.5125,0.677346449200911,-0.008312861648802076,0.7252475797724525,0.002128644085140469,-0.066598,-41.329169
11.185,2.0,1.0,1.0,34.5,33.0,33.0,3.9,4.1,2.515,0.6713777428536262,-0.008437079694194943,0.7306743118042052,0.002078814783196934,-0.067256,-41.220198
11.185,2.0,1.0,1.0,34.5,33.0,33.0,3.9,4.1,2.5175,0.6653334623479948,-0.008562658431200557,0.7360793616031639,0.002026963614586533,-0.067925,-41.111036
11.185,2.0,1.0,1.0,34.5,33.0,33.0,3.9,4.1,2.52,0.6592129288552867,-0.008689603252895582,0.7414619292000544,0.0019730375685729595,-0.068604,-41.001681
11.185,2.0,1.0,1.0,34.5,33.0,33.0,3.9,4.1,2.5225,0.6530154590813729,-0.008817919093496362,0.7468211935278504,0.001916982289571552,-0.069294,-40.892128
11.185,2.0,1.0,1.0,34.5,33.0,33.0,3.9,4.1,2.525,0.6467403654437585,-0.008947610398312095,0.7521563118832566,0.00185874204429364,-0.069995,-40.782373
11.185,2.0,1.0,1.0,34.5,33.0,33.0,3.9,4.1,2.5275,0.6403869562618306,-0.009078681092260486,0.7574664193763887,0.0017982596882430602,-0.070707,-40.672413
11.185,2.0,1.0,1.0,34.5,33.0,33.0,3.9,4.1,2.53,0.6339545359609579,-0.009211134546884787,0.7627506283685066,0.0017354766315639128,-0.071431,-40.562242
11.185,2.0,1.0,1.0,34.5,33.0,33.0,3.9,4.1,2.5325,0.6274424052910887,-0.009344973545808067,0.768008027897692,0.0016703328042395591,-0.072167,-40.451858
11.185,2.0,1.0,1.0,34.5,33.0,33.0,3.9,4.1,2.535,0.6208498615605296,-0.009480200248559093,0.773237683092342,0.001602766620643903,-0.072914,-40.341257
11.185,2.0,1.0,1.0,34.5,33.0,33.0,3.9,4.1,2.5375,0.6141761988856226,-0.009616816152700287,0.7784386345723802,0.0015327149434475147,-0.073674,-40.230434
11.185,2.0,1.0,1.0,34.5,33.0,33.0,3.9,4.1,2.54,0.6074207084570452,-0.00975482205418697,0.7836098978380803,0.0014601130468817189,-0.074445,-40.119386
11.185,2.0,1.0,1.0,34.5,33.0,33.0,3.9,4.1,2.5425,0.6005826788235038,-0.009894218005883783,0.7887504626464392,0.0013848945793662676,-0.07523,-40.008108
11.185,2.0,1.0,1.0,34.5,33.0,33.0,3.9,4.1,2.545,0.5936613961936138,-0.01003500327416118,0.7938592923750082,0.0013069915255063732,-0.076027,-39.896597
11.185,2.0,1.0,1.0,34.5,33.0,33.0,3.9,4.1,2.5475,0.5866561447567981,-0.010177176293492757,0.7989353233731401,0.0012263341674676694,-0.076838,-39.784848
11.185,2.0,1.0,1.0,34.5,33.0,33.0,3.9,4.1,2.55,0.5795662070240404,-0.010320734618970782,0.8039774643006204,0.0011428510457385257,-0.077661,-39.672859
11.185,2.0,1.0,1.0,34.5,33.0,33.0,3.9,4.1,2.5525,0.5723908641894117,-0.01046567487665408,0.8089845954536398,0.0010564689192915588,-0.078499,-39.560624
11.185,2.0,1.0,1.0,34.5,33.0,33.0,3.9,4.1,2.555,0.5651293965132637,-0.010611992711660356,0.8139555680781311,0.0009671127251579704,-0.07935,-39.44814
11.185,2.0,1.0,1.0,34.5,33.0,33.0,3.9,4.1,2.5575,0.557781083728055,-0.010759682733910576,0.8188892036704757,0.0008747055374298473,-0.080215,-39.335403
11.185,2.0,1.0,1.0,34.5,33.0,33.0,3.9,4.1,2.56,0.5503452054678042,-0.010908738461430806,0.8237842932656241,0.0007791685257093915,-0.081095,-39.222409
11.185,2.0,1.0,1.0,34.5,33.0,33.0,3.9,4.1,2.5625,0.5428210417221876,-0.011059152261113168,0.8286395967126919,0.0006804209130243872,-0.08199,-39.109155
11.185,2.0,1.0,1.0,34.5,33.0,33.0,3.9,4.1,2.565,0.5352078733163433,-0.01121091528683426,0.8334538419381351,0.0005783799332334222,-0.082899,-38.995635
11.185,2.0,1.0,1.0,34.5,33.0,33.0,3.9,4.1,2.5675,0.5275049824174888,-0.011364017414825841,0.8382257241966078,0.0004729607879466629,-0.083824,-38.881846
11.185,2.0,1.0,1.0,34.5,33.0,33.0,3.9,4.1,2.57,0.5197116530694792,-0.011518447176189318,0.8429539053096613,0.0003640766029900081,-0.084765,-38.767785
11.185,2.0,1.0,1.0,34.5,33.0,33.0,3.9,4.1,2.5725,0.5118271717564847,-0.011674191686441687,0.8476370128924705,0.00025163838444527584,-0.085721,-38.653446
11.185,2.0,1.0,1.0,34.5,33.0,33.0,3.9,4.1,2.575,0.5038508279970005,-0.011831236571977106,0.8522736395687945,0.00013555497430034976,-0.086693,-38.538827
11.185,2.0,1.0,1.0,34.5,33.0,33.0,3.9,4.1,2.5775,0.4957819149694486,-0.011989565893324325,0.8568623421744327,1.5733005748454694e-05,-0.087683,-38.423923
11.185,2.0,1.0,1.0,34.5,33.0,33.0,3.9,4.1,2.58,0.48761973017066423,-0.012149162065076491,0.8614016409494671,-0.00010792314182165451,-0.088689,-38.308731
11.185,2.0,1.0,1.0,34.5,33.0,33.0,3.9,4.1,2.5825,0.47936357610859814,-0.012310005772366267,0.8658900187196342,-0.000235511388098671,-0.089712,-38.193246
11.185,2.0,1.0,1.0,34.5,33.0,33.0,3.9,4.1,2.585,0.4710127610306265,-0.01247207588375479,0.8703259200671951,-0.00036713199733474786,-0.090753,-38.077464
11.185,2.0,1.0,1.0,34.5,33.0,33.0,3.9,4.1,2.5875,0.4625665996888702,-0.01263534936039926,0.8747077504917582,-0.0005028876239900528,-0.091812,-37.961381
11.185,2.0,1.0,1.0,34.5,33.0,33.0,3.9,4.1,2.59,0.45402441414400885,-0.012799801161359937,0.8790338755615082,-0.0006428833584769125,-0.092889,-37.844994
11.185,2.0,1.0,1.0,34.5,33.0,33.0,3.9,4.1,2.5925,0.4453855346090704,-0.012965404144903598,0.883302620055414,-0.0007872267729397389,-0.093984,-37.728298
11.185,2.0,1.0,1.0,34.5,33.0,33.0,3.9,4.1,2.595,0.4366493003347797,-0.01313212896565511,0.8875122670969742,-0.0009360279670018472,-0.095099,-37.611289
11.185,2.0,1.0,1.0,34.5,33.0,33.0,3.9,4.1,2.5975,0.4278150605380165,-0.013299943967446961,0.8916610572802023,-0.0010893996134049395,-0.096233,-37.493963
11.185,2.0,1.0,1.0,34.5,33.0,33.0,3.9,4.1,2.6,0.4188821753750534,-0.013468815071709765,0.8957471877885407,-0.0012474570034615032,-0.097387,-37.376317
11.185,2.0,1.0,1.0,34.5,33.0,33.0,3.9,4.1,2.6025,0.4098500169612349,-0.013638705661244793,0.8997688115075289,-0.001410318092234408,-0.098562,-37.258346
11.185,2.0,1.0,1.0,34.5,33.0,33.0,3.9,4.1,2.605,0.4007179704388195,-0.013809576459213995,0.9037240361320746,-0.0015781035433521772,-0.099756,-37.140045
11.185,2.0,1.0,1.0,34.5,33.0,33.0,3.9,4.1,2.6075,0.39148543509475003,-0.013981385403179739,0.9076109232693037,-0.0017509367733613763,-0.100972,-37.021412
11.185,2.0,1.0,1.0,34.5,33.0,33.0,3.9,4.1,2.61,0.38215182553015903,-0.014154087514021427,0.911427487537995,-0.0019289439955114571,-0.10221,-36.902442
11.185,2.0,1.0,1.0,34.5,33.0,33.0,3.9,4.1,2.6125,0.3727165728834495,-0.014327634759552956,0.9151716956657473,-0.0021122542628605767,-0.103469,-36.783131
11.185,2.0,1.0,1.0,34.5,33.0,33.0,3.9,4.1,2.615,0.3631791261088286,-0.014501975912660232,0.9188414655850861,-0.0023009995105827477,-0.104751,-36.663474
11.185,2.0,1.0,1.0,34.5,33.0,33.0,3.9,4.1,2.6175,0.3535389533122308,-0.014677056403773961,0.9224346655298183,-0.0024953145973502524,-0.106056,-36.543468
11.185,2.0,1.0,1.0,34.5,33.0,33.0,3.9,4.1,2.62,0.3437955431465761,-0.014852818167489179,0.92594911313307,-0.0026953373456565935,-0.107384,-36.423108
11.185,2.0,1.0,1.0,34.5,33.0,33.0,3.9,4.1,2.6225,0.33394840626835787,-0.015029199483138791,0.9293825745285174,-0.0029012085809380045,-0.108736,-36.302391
11.185,2.0,1.0,1.0,34.5,33.0,33.0,3.9,4.1,2.625,0.323997076857597,-0.0152061348091245,0.932732763456466,-0.00311307216934212,-0.110112,-36.181312
11.185,2.0,1.0,1.0,34.5,33.0,33.0,3.9,4.1,2.6275,0.3139411142031941,-0.015383554610804756,0.9359973403765471,-0.003331075053984882,-0.111513,-36.059867
11.185,2.0,1.0,1.0,34.5,33.0,33.0,3.9,4.1,2.63,0.3037801043557876,-0.015561385181735804,0.9391739115889041,-0.0035553672895274127,-0.112939,-35.938051
11.185,2.0,1.0,1.0,34.5,33.0,33.0,3.9,4.1,2.6325,0.29351366185020145,-0.015739548458057806,0.942260028365913,-0.003786102074895325,-0.114392,-35.815861
11.185,2.0,1.0,1.0,34.5,33.0,33.0,3.9,4.1,2.635,0.28314143149962445,-0.015917961825814956,0.9452531860965915,-0.004023435783954111,-0.11587,-35.693292
11.185,2.0,1.0,1.0,34.5,33.0,33.0,3.9,4.1,2.6375,0.27266309026366164,-0.016096537920994823,0.9481508234460052,-0.004267527993944044,-0.117376,-35.57034
11.185,2.0,1.0,1.0,34.5,33.0,33.0,3.9,4.1,2.64,0.2620783491924023,-0.016275184422069235,0.9509503215321382,-0.004518541511469625,-0.118909,-35.447
11.185,2.0,1.0,1.0,34.5,33.0,33.0,3.9,4.1,2.6425,0.25138695544867834,-0.016453803834815213,0.9536490031228474,-0.004776642395827132,-0.120471,-35.323268
11.185,2.0,1.0,1.0,34.5,33.0,33.0,3.9,4.1,2.645,0.24058869441067204,-0.01663229326919219,0.9562441318556874,-0.005041999979445395,-0.122061,-35.199141
11.185,2.0,1.0,1.0,34.5,33.0,33.0,3.9,4.1,2.6475,0.22968339185703643,-0.01681054420804812,0.9587329114835671,-0.0053147868852039095,-0.12368,-35.074612
11.185,2.0,1.0,1.0,34.5,33.0,33.0,3.9,4.1,2.65,0.21867091623666618,-0.01698844226742524,0.9611124851493781,-0.005595179040383329,-0.12533,-34.949678
11.185,2.0,1.0,1.0,34.5,33.0,33.0,3.9,4.1,2.6525,0.20755118102527073,-0.017165866948232206,0.9633799346929228,-0.005883355686992211,-0.12701,-34.824335
11.185,2.0,1.0,1.0,34.5,33.0,33.0,3.9,4.1,2.655,0.1963241471708348,-0.01734269137904832,0.9655322799936595,-0.006179499388205208,-0.128721,-34.698578
11.185,2.0,1.0,1.0,34.5,33.0,33.0,3.9,4.1,2.6575,0.18498982563005192,-0.017518782049821855,0.9675664783529904,-0.00648379603063743,-0.130465,-34.572401
11.185,2.0,1.0,1.0,34.5,33.0,33.0,3.9,4.1,2.66,0.17354827999774908,-0.01769399853622286,0.9694794239200175,-0.006796434822170436,-0.132241,-34.445801
11.185,2.0,1.0,1.0,34.5,33.0,33.0,3.9,4.1,2.6625,0.16199962923130545,-0.01786819321440785,0.9712679471649018,-0.007117608285035722,-0.13405,-34.318773
11.185,2.0,1.0,1.0,34.5,33.0,33.0,3.9,4.1,2.665,0.15034405047192578,-0.018041210965951772,0.9729288144042126,-0.007447512243853754,-0.135894,-34.191312
11.185,2.0,1.0,1.0,34.5,33.0,33.0,3.9,4.1,2.6675,0.13858178196467824,-0.018212888872700218,0.9744587273828189,-0.007786345808316371,-0.137772,-34.063413
11.185,2.0,1.0,1.0,34.5,33.0,33.0,3.9,4.1,2.67,0.12671312607899443,-0.018383055901291627,0.9758543229171748,-0.008134311350195173,-0.139686,-33.935071
11.185,2.0,1.0,1.0,34.5,33.0,33.0,3.9,4.1,2.6725,0.11473845243129778,-0.018551532577097497,0.9771121726050498,-0.008491614474349162,-0.141636,-33.806281
11.185,2.0,1.0,1.0,34.5,33.0,33.0,3.9,4.1,2.675,0.10265820111132017,-0.018718130647324322,0.9782287826070041,-0.008858463983400037,-0.143624,-33.677039
11.185,2.0,1.0,1.0,34.5,33.0,33.0,3.9,4.1,2.6775,0.09047288601350197,-0.01888265273301807,0.979200593505153,-0.009235071835738032,-0.145649,-33.547339
11.185,2.0,1.0,1.0,34.5,33.0,33.0,3.9,4.1,2.68,0.07818309827473802,-0.019044891969708457,0.9800239802450473,-0.00962165309651727,-0.147714,-33.417175
11.185,2.0,1.0,1.0,34.5,33.0,33.0,3.9,4.1,2.6825,0.06578950981960839,-0.019204631636423792,0.9806952521666968,-0.010018425881296322,-0.149818,-33.286543
11.185,2.0,1.0,1.0,34.5,33.0,33.0,3.9,4.1,2.685,0.05329287701398479,-0.019361644772803836,0.9812106531310808,-0.010425611291979643,-0.151962,-33.155437
11.185,2.0,1.0,1.0,34.5,33.0,33.0,3.9,4.1,2.6875,0.0406940444277874,-0.0195156937840293,0.981566361748703,-0.0108434333447149,-0.154148,-33.023851
11.185,2.0,1.0,1.0,34.5,33.0,33.0,3.9,4.1,2.69,0.027993948707397395,-0.019666530033279617,0.9817584917170353,-0.01127211888940399,-0.156377,-32.89178
11.185,2.0,1.0,1.0,34.5,33.0,33.0,3.9,4.1,2.6925,0.01519362255800337,-0.01981389342142083,0.9817830922739452,-0.011711897520490878,-0.158649,-32.759217
11.185,2.0,1.0,1.0,34.5,33.0,33.0,3.9,4.1,2.695,0.0022941988359440695,-0.019957511953613005,0.9816361487744654,-0.012163001478694481,-0.160965,-32.626158
11.185,2.0,1.0,1.0,34.5,33.0,33.0,3.9,4.1,2.6975,-0.010703085249226096,-0.020097101292513932,0.9813135833985014,-0.012625665543367312,-0.163327,-32.492595
11.185,2.0,1.0,1.0,34.5,33.0,33.0,3.9,4.1,2.7,-0.023796883823470713,-0.020232364297737254,0.9808112559973604,-0.01310012691516969,-0.165735,-32.358524
11.185,2.0,1.0,1.0,34.5,33.0,33.0,3.9,4.1,2.7025,-0.036985737928686625,-0.020362990551205194,0.9801249650871814,-0.01358662508876864,-0.168191,-32.223936
11.185,2.0,1.0,1.0,34.5,33.0,33.0,3.9,4.1,2.705,-0.05026807099599057,-0.0204886558680103,0.9792504489976327,-0.014085401715286387,-0.170695,-32.088825
11.185,2.0,1.0,1.0,34.5,33.0,33.0,3.9,4.1,2.7075,-0.06364218421347564,-0.020609021792373623,0.978183387184416,-0.014596700454250234,-0.173249,-31.953186
11.185,2.0,1.0,1.0,34.5,33.0,33.0,3.9,4.1,2.71,-0.07710625179039872,-0.020723735078252557,0.9769194017143843,-0.015120766814819164,-0.175854,-31.81701
11.185,2.0,1.0,1.0,34.5,33.0,33.0,3.9,4.1,2.7125,-0.09065831612020488,-0.02083242715411253,0.9754540589322375,-0.015657847986097952,-0.178511,-31.68029
11.185,2.0,1.0,1.0,34.5,33.0,33.0,3.9,4.1,2.715,-0.10429628284521375,-0.020934713571329724,0.9737828713179587,-0.016208192656383697,-0.181222,-31.54302
11.185,2.0,1.0,1.0,34.5,33.0,33.0,3.9,4.1,2.7175,-0.11801791582628698,-0.021030193435638264,0.9719012995443183,-0.01677205082123407,-0.183987,-31.40519
11.185,2.0,1.0,1.0,34.5,33.0,33.0,3.9,4.1,2.72,-0.13182083202125536,-0.02111844882097089,0.9698047547439054,-0.017349673580291665,-0.186807,-31.266794
11.185,2.0,1.0,1.0,34.5,33.0,33.0,3.9,4.1,2.7225,-0.14570249627644838,-0.021199044164969198,0.9674886009952532,-0.017941312922856854,-0.189685,-31.127822
11.185,2.0,1.0,1.0,34.5,33.0,33.0,3.9,4.1,2.725,-0.15966021603614552,-0.02127152564535194,0.9649481580377286,-0.018547221502256912,-0.192622,-30.988266
11.185,2.0,1.0,1.0,34.5,33.0,33.0,3.9,4.1,2.7275,-0.17369113597539465,-0.02133542053623133,0.9621787042248683,-0.01916765239913165,-0.195619,-30.848118
11.185,2.0,1.0,1.0,34.5,33.0,33.0,3.9,4.1,2.73,-0.1877922325621661,-0.021390236543351298,0.9591754797259013,-0.019802858873825283,-0.198677,-30.707367
11.185,2.0,1.0,1.0,34.5,33.0,33.0,3.9,4.1,2.7325,-0.20196030855545496,-0.021435461117088443,0.9559336899851335,-0.02045309410816154,-0.201799,-30.566004
11.185,2.0,1.0,1.0,34.5,33.0,33.0,3.9,4.1,2.735,-0.21619198744651416,-0.021470560741903153,0.9524485094488033,-0.021118610936963957,-0.204985,-30.42402
11.185,2.0,1.0,1.0,34.5,33.0,33.0,3.9,4.1,2.7375,-0.2304837078510496,-0.02149498020075267,0.9487150855689082,-0.02179966156978644,-0.208237,-30.281402
11.185,2.0,1.0,1.0,34.5,33.0,33.0,3.9,4.1,2.74,-0.24483171786085517,-0.021508141812775237,0.9447285430933162,-0.022496497303422354,-0.211557,-30.13814
11.185,2.0,1.0,1.0,34.5,33.0,33.0,3.9,4.1,2.7425,-0.259232069363953,-0.021509444642323586,0.9404839886512255,-0.023209368225879188,-0.214947,-29.994223
11.185,2.0,1.0,1.0,34.5,33.0,33.0,3.9,4.1,2.745,-0.2736806123429901,-0.021498263677162142,0.9359765156427589,-0.02393852291262837,-0.218409,-29.849639
11.185,2.0,1.0,1.0,34.5,33.0,33.0,3.9,4.1,2.7475,-0.28817298916222805,-0.021473948973340314,0.9312012094411016,-0.024684208116075367,-0.221944,-29.704374
11.185,2.0,1.0,1.0,34.5,33.0,33.0,3.9,4.1,2.75,-0.302704628854106,-0.021435824763911,0.926153152915138,-0.0254466684493371,-0.225555,-29.558416
11.185,2.0,1.0,1.0,34.5,33.0,33.0,3.9,4.1,2.7525,-0.3172707414169181,-0.021383188528272735,0.9208274322800474,-0.026226146065565694,-0.229243,-29.41175
11.185,2.0,1.0,1.0,34.5,33.0,33.0,3.9,4.1,2.755,-0.33186631213570666,-0.02131531001846944,0.9152191432827015,-0.027022880334217864,-0.23301,-29.264362
11.185,2.0,1.0,1.0,34.5,33.0,33.0,3.9,4.1,2.7575,-0.34648609593901913,-0.021231430238277633,0.9093233977280021,-0.02783710751584011,-0.23686,-29.116235
11.185,2.0,1.0,1.0,34.5,33.0,33.0,3.9,4.1,2.76,-0.3611246118045657,-0.021130760370338793,0.903135330351556,-0.028669060437111316,-0.240793,-28.967355
11.185,2.0,1.0,1.0,34.5,33.0,33.0,3.9,4.1,2.7625,-0.37577613722728714,-0.021012480645946418,0.8966501060431514,-0.02951896816807279,-0.244813,-28.817704
11.185,2.0,1.0,1.0,34.5,33.0,33.0,3.9,4.1,2.765,-0.39043470276357145,-0.02087573915136402,0.8898629274245727,-0.030387055703660067,-0.248922,-28.667263
11.185,2.0,1.0,1.0,34.5,33.0,33.0,3.9,4.1,2.7675,-0.4050940866656093,-0.020719650563718814,0.8827690427841625,-0.031273543651843407,-0.253122,-28.516014
11.185,2.0,1.0,1.0,34.5,33.0,33.0,3.9,4.1,2.77,-0.4197478096199579,-0.02054329480857796,0.8753637543693761,-0.032178647930880024,-0.257417,-28.363937
11.185,2.0,1.0,1.0,34.5,33.0,33.0,3.9,4.1,2.7725,-0.4343891296043053,-0.020345715630252115,0.8676424270372567,-0.03310257947837173,-0.261809,-28.21101
11.185,2.0,1.0,1.0,34.5,33.0,33.0,3.9,4.1,2.775,-0.44901103687622834,-0.020125919064671406,0.8596004972613626,-0.034045543975011645,-0.266302,-28.057211
11.185,2.0,1.0,1.0,34.5,33.0,33.0,3.9,4.1,2.7775,-0.4636062491072851,-0.019882871803325212,0.851233482492136,-0.035007741586086744,-0.270897,-27.902517
11.185,2.0,1.0,1.0,34.5,33.0,33.0,3.9,4.1,2.78,-0.47816720667522555,-0.01961549943522482,0.8425369908660814,-0.03598936672397231,-0.2756,-27.746901
11.185,2.0,1.0,1.0,34.5,33.0,33.0,3.9,4.1,2.7825,-0.49268606812604654,-0.01932268455212166,0.8335067312573949,-0.03699060783500325,-0.280412,-27.590338
11.185,2.0,1.0,1.0,34.5,33.0,33.0,3.9,4.1,2.785,-0.5071547058166467,-0.019003264700258968,0.8241385236637964,-0.038011647214241384,-0.285339,-27.4328
11.185,2.0,1.0,1.0,34.5,33.0,33.0,3.9,4.1,2.7875,-0.5215647017470947,-0.018656030159730386,0.81442830991644,-0.039052660851743186,-0.290383,-27.274256
11.185,2.0,1.0,1.0,34.5,33.0,33.0,3.9,4.1,2.79,-0.5359073435897289,-0.018279721530024596,0.8043721647016818,-0.040113818313993556,-0.295549,-27.114676
11.185,2.0,1.0,1.0,34.5,33.0,33.0,3.9,4.1,2.7925,-0.550173620919919,-0.017873027097516477,0.7939663068804479,-0.04119528266415901,-0.300841,-26.954025
11.185,2.0,1.0,1.0,34.5,33.0,33.0,3.9,4.1,2.795,-0.5643542216505057,-0.017434579957474758,0.7832071110887111,-0.04229721042474962,-0.306265,-26.792269
11.185,2.0,1.0,1.0,34.5,33.0,33.0,3.9,4.1,2.7975,-0.5784395286683586,-0.016962954859547876,0.7720911196004538,-0.04341975158611168,-0.311824,-26.629369
11.185,2.0,1.0,1.0,34.5,33.0,33.0,3.9,4.1,2.8,-0.5924196166676845,-0.01645666474159629,0.7606150544322079,-0.0445630496639147,-0.317524,-26.465286
11.185,2.0,1.0,1.0,34.5,33.0,33.0,3.9,4.1,2.8025,-0.6062842491696908,-0.015914156912101816,0.7487758296660894,-0.045727241808389676,-0.32337,-26.299977
11.185,2.0,1.0,1.0,34.5,33.0,33.0,3.9,4.1,2.805,-0.6200228757126819,-0.015333808836119654,0.7365705639661014,-0.04691245896751596,-0.329369,-26.133397
11.185,2.0,1.0,1.0,34.5,33.0,33.0,3.9,4.1,2.8075,-0.633624629190142,-0.0147139234737526,0.7239965932603927,-0.04811882610558746,-0.335526,-25.965499
11.185,2.0,1.0,1.0,34.5,33.0,33.0,3.9,4.1,2.81,-0.6470783233066885,-0.014052724113318094,0.711051483560254,-0.04934646247757976,-0.341849,-25.79623
11.185,2.0,1.0,1.0,34.5,33.0,33.0,3.9,4.1,2.8125,-0.660372450112876,-0.0133483486336205,0.697733043885003,-0.0505954819584245,-0.348344,-25.625537
11.185,2.0,1.0,1.0,34.5,33.0,33.0,3.9,4.1,2.815,-0.6734951775698145,-0.012598843120885413,0.684039339260427,-0.05186599342462101,-0.35502,-25.453362
11.185,2.0,1.0,1.0,34.5,33.0,33.0,3.9,4.1,2.8175,-0.6864343470825668,-0.011802154755794226,0.669968703757546,-0.05315810118347945,-0.361885,-25.279644
11.185,2.0,1.0,1.0,34.5,33.0,33.0,3.9,4.1,2.82,-0.6991774709278753,-0.010956123874472113,0.6555197535379403,-0.05447190544260894,-0.368947,-25.104317
11.185,2.0,1.0,1.0,34.5,33.0,33.0,3.9,4.1,2.8225,-0.7117117294860067,-0.010058475093995935,0.640691399872108,-0.05580750280890475,-0.376216,-24.927312
11.185,2.0,1.0,1.0,34.5,33.0,33.0,3.9,4.1,2.825,-0.7240239681687469,-0.009106807377723318,0.6254828620982824,-0.05716498680210216,-0.383703,-24.748554
