1,w,sub_t,h,l1,l2,l3,g1,g2,Freq,S11_re,S21_re,S11_img,S21_img,S11_dB,S21_dB
11.185,2.0,1.0,1.0,34.9,34.9,34.9,3.8,1.7,2.5,0.621094312033021,-0.0195750394517323,0.771298250081106,0.00718502597922064,-0.084819,-33.617037
11.185,2.0,1.0,1.0,34.9,34.9,34.9,3.8,1.7,2.5025,0.614221085459979,-0.0199577087678887,0.7766170449569344,0.007115204194000951,-0.08596,-33.478153
11.185,2.0,1.0,1.0,34.9,34.9,34.9,3.8,1.7,2.505,0.6072592327750771,-0.020348358754377797,0.7819040680423514,0.00704039771711969,-0.087129,-33.338351
11.185,2.0,1.0,1.0,34.9,34.9,34.9,3.8,1.7,2.5075,0.6002078362006723,-0.020747206034962752,0.7871581719937455,0.006960393605540539,-0.088327,-33.197609
11.185,2.0,1.0,1.0,34.9,34.9,34.9,3.8,1.7,2.51,0.5930659666820777,-0.021154475272589297,0.792378175309655,0.006874968714417312,-0.089555,-33.055905
11.185,2.0,1.0,1.0,34.9,34.9,34.9,3.8,1.7,2.5125,0.5858326837363386,-0.021570399561529525,0.7975628611527512,0.006783889105247221,-0.090814,-32.913214
11.185,2.0,1.0,1.0,34.9,34.9,34.9,3.8,1.7,2.515,0.5785070352925499,-0.021995220843231626,0.8027109761183033,0.0066869094124704705,-0.092105,-32.769513
11.185,2.0,1.0,1.0,34.9,34.9,34.9,3.8,1.7,2.5175,0.5710880575227161,-0.022429190347553845,0.8078212289455612,0.0065837721650608486,-0.09343,-32.624777
11.185,2.0,1.0,1.0,34.9,34.9,34.9,3.8,1.7,2.52,0.5635747746619817,-0.022872569061195294,0.8128922891681837,0.006474207059318928,-0.094789,-32.478979
11.185,2.0,1.0,1.0,34.9,34.9,34.9,3.8,1.7,2.5225,0.5559661988170146,-0.02332562822528122,0.8179227856994704,0.00635793017871281,-0.096185,-32.332094
11.185,2.0,1.0,1.0,34.9,34.9,34.9,3.8,1.7,2.525,0.5482613297611071,-0.023788649864218376,0.8229113053477668,0.0062346431562014136,-0.097617,-32.184093
11.185,2.0,1.0,1.0,34.9,34.9,34.9,3.8,1.7,2.5275,0.5404591547144681,-0.024261927348107268,0.8278563912569683,0.006104032274021722,-0.099089,-32.034948
11.185,2.0,1.0,1.0,34.9,34.9,34.9,3.8,1.7,2.53,0.5325586481079984,-0.024745765991184186,0.832756541266547,0.0059657674954159,-0.1006,-31.88463
11.185,2.0,1.0,1.0,34.9,34.9,34.9,3.8,1.7,2.5325,0.5245587713286544,-0.0252404836889688,0.8376102061849824,0.005819501422210415,-0.102154,-31.733107
11.185,2.0,1.0,1.0,34.9,34.9,34.9,3.8,1.7,2.535,0.516458472444311,-0.025746411597014258,0.8424157879698695,0.005664868171532575,-0.10375,-31.580349
11.185,2.0,1.0,1.0,34.9,34.9,34.9,3.8,1.7,2.5375,0.5082566859058305,-0.02626389485439423,0.8471716378072711,0.005501482164247112,-0.105392,-31.426322
11.185,2.0,1.0,1.0,34.9,34.9,34.9,3.8,1.7,2.54,0.499952332223783,-0.026793293355326164,0.8518760540821364,0.0053289368169125145,-0.107081,-31.270993
11.185,2.0,1.0,1.0,34.9,34.9,34.9,3.8,1.7,2.5425,0.49154431761701917,-0.02733498257260917,0.8565272802307283,0.0051468031281774965,-0.108819,-31.114325
11.185,2.0,1.0,1.0,34.9,34.9,34.9,3.8,1.7,2.545,0.4830315336299991,-0.027889354436867093,0.8611235024650484,0.0049546281495544044,-0.110608,-30.956283
11.185,2.0,1.0,1.0,34.9,34.9,34.9,3.8,1.7,2.5475,0.47441285671548833,-0.02845681827592094,0.8656628473581389,0.004751933329401194,-0.11245,-30.796829
11.185,2.0,1.0,1.0,34.9,34.9,34.9,3.8,1.7,2.55,0.46568714777883674,-0.02903780181898106,0.870143379277957,0.004538212717700096,-0.114348,-30.635922
11.185,2.0,1.0,1.0,34.9,34.9,34.9,3.8,1.7,2.5525,0.45685325167975993,-0.02963275227074293,0.8745630976560856,0.004312931017823727,-0.116304,-30.473522
11.185,2.0,1.0,1.0,34.9,34.9,34.9,3.8,1.7,2.555,0.44790999668704357,-0.030242137460905354,0.8789199340760301,0.0040755214699013135,-0.11832,-30.309585
11.185,2.0,1.0,1.0,34.9,34.9,34.9,3.8,1.7,2.5575,0.4388561938811991,-0.030866447075091633,0.8832117491640775,0.0038253835486165492,-0.120399,-30.144069
11.185,2.0,1.0,1.0,34.9,34.9,34.9,3.8,1.7,2.56,0.4296906364995987,-0.03150619397366332,0.8874363292636778,0.003561880456256492,-0.122545,-29.976925
11.185,2.0,1.0,1.0,34.9,34.9,34.9,3.8,1.7,2.5625,0.42041209921806727,-0.03216191560546173,0.8915913828720838,0.003284336389547207,-0.124761,-29.808107
11.185,2.0,1.0,1.0,34.9,34.9,34.9,3.8,1.7,2.565,0.41101933736233864,-0.03283417552410617,0.8956745368153949,0.002992033556227281,-0.127048,-29.637563
11.185,2.0,1.0,1.0,34.9,34.9,34.9,3.8,1.7,2.5675,0.4015110860421677,-0.03352356501511095,0.8996833321352223,0.002684208914367215,-0.129413,-29.465242
11.185,2.0,1.0,1.0,34.9,34.9,34.9,3.8,1.7,2.57,0.3918860592001868,-0.03423070484277393,0.9036152196568927,0.0023600506040977413,-0.131857,-29.291088
11.185,2.0,1.0,1.0,34.9,34.9,34.9,3.8,1.7,2.5725,0.38214294856687675,-0.0349562471265206,0.9074675552052778,0.002018694037593562,-0.134385,-29.115045
11.185,2.0,1.0,1.0,34.9,34.9,34.9,3.8,1.7,2.575,0.3722804225122311,-0.035700877357173574,0.9112375944300165,0.0016592176088001606,-0.137001,-28.937052
11.185,2.0,1.0,1.0,34.9,34.9,34.9,3.8,1.7,2.5775,0.36229712478386633,-0.03646531656445108,0.9149224871968981,0.0012806379794051267,-0.139711,-28.757047
11.185,2.0,1.0,1.0,34.9,34.9,34.9,3.8,1.7,2.58,0.35219167312041666,-0.03725032364787553,0.918519271496492,0.000881904891837541,-0.142518,-28.574965
11.185,2.0,1.0,1.0,34.9,34.9,34.9,3.8,1.7,2.5825,0.34196265772813034,-0.03805669788420029,0.9220248668145221,0.00046189545351332827,-0.145428,-28.390738
11.185,2.0,1.0,1.0,34.9,34.9,34.9,3.8,1.7,2.585,0.33160863960759823,-0.03888528162540916,0.9254360669009403,1.940782898678386e-05,-0.148448,-28.204294
11.185,2.0,1.0,1.0,34.9,34.9,34.9,3.8,1.7,2.5875,0.321128148716534,-0.03973696320232965,0.9287495318659288,-0.0004468457320422051,-0.151582,-28.015557
11.185,2.0,1.0,1.0,34.9,34.9,34.9,3.8,1.7,2.59,0.3105196819535197,-0.04061268004987146,0.9319617795209562,-0.0009382466129858083,-0.154838,-27.82445
11.185,2.0,1.0,1.0,34.9,34.9,34.9,3.8,1.7,2.5925,0.29978170094658074,-0.041513422070867056,0.9350691758713644,-0.0014562783886660107,-0.158223,-27.630888
11.185,2.0,1.0,1.0,34.9,34.9,34.9,3.8,1.7,2.595,0.2889126296295651,-0.04244023525638458,0.9380679246533327,-0.0020025363309545906,-0.161745,-27.434786
11.185,2.0,1.0,1.0,34.9,34.9,34.9,3.8,1.7,2.5975,0.27791085158833156,-0.04339422558118282,0.9409540557923413,-0.002578737984787049,-0.165411,-27.236051
11.185,2.0,1.0,1.0,34.9,34.9,34.9,3.8,1.7,2.6,0.26677470715812307,-0.04437656319359056,0.9437234126417825,-0.003186734955916866,-0.169231,-27.034588
11.185,2.0,1.0,1.0,34.9,34.9,34.9,3.8,1.7,2.6025,0.2555024902530137,-0.045388486919450195,0.9463716378388585,-0.003828526073193709,-0.173214,-26.830295
11.185,2.0,1.0,1.0,34.9,34.9,34.9,3.8,1.7,2.605,0.24409244490818657,-0.04643130909973555,0.9488941575897033,-0.0045062721132354735,-0.177373,-26.623066
11.185,2.0,1.0,1.0,34.9,34.9,34.9,3.8,1.7,2.6075,0.23254276151627112,-0.04750642078086951,0.951286164165987,-0.005222312304807703,-0.181717,-26.412787
11.185,2.0,1.0,1.0,34.9,34.9,34.9,3.8,1.7,2.61,0.2208515727401248,-0.04861529727542372,0.953542596360425,-0.005979182864880196,-0.186259,-26.19934
11.185,2.0,1.0,1.0,34.9,34.9,34.9,3.8,1.7,2.6125,0.20901694908661558,-0.049759504108480276,0.9556581176074144,-0.006779637859219033,-0.191014,-25.982598
11.185,2.0,1.0,1.0,34.9,34.9,34.9,3.8,1.7,2.615,0.1970368941295875,-0.05094070336109627,0.9576270914262933,-0.007626672728746182,-0.195997,-25.762429
11.185,2.0,1.0,1.0,34.9,34.9,34.9,3.8,1.7,2.6175,0.1849093393757139,-0.05216066041651166,0.9594435537868844,-0.008523550880277135,-0.201224,-25.538691
11.185,2.0,1.0,1.0,34.9,34.9,34.9,3.8,1.7,2.62,0.1726321387750388,-0.05342125110631865,0.961101181928186,-0.009473833808502972,-0.206714,-25.311236
11.185,2.0,1.0,1.0,34.9,34.9,34.9,3.8,1.7,2.6225,0.16020306288960387,-0.054724469241833516,0.9625932590789743,-0.010481415297496861,-0.212487,-25.079905
11.185,2.0,1.0,1.0,34.9,34.9,34.9,3.8,1.7,2.625,0.14761979274994,-0.0560724344991812,0.963912634430787,-0.0115505603474228,-0.218564,-24.844529
11.185,2.0,1.0,1.0,34.9,34.9,34.9,3.8,1.7,2.6275,0.1348799134517318,-0.05746740060350442,0.9650516775959351,-0.012685949588983607,-0.224971,-24.604929
11.185,2.0,1.0,1.0,34.9,34.9,34.9,3.8,1.7,2.63,0.12198090757620146,-0.05891176372604814,0.9660022266411274,-0.013892730088769782,-0.231735,-24.360915
11.185,2.0,1.0,1.0,34.9,34.9,34.9,3.8,1.7,2.6325,0.10892014856016827,-0.06040807096476442,0.966755528616041,-0.015176573618421759,-0.238886,-24.112283
11.185,2.0,1.0,1.0,34.9,34.9,34.9,3.8,1.7,2.635,0.09569489419967762,-0.06195902872058182,0.96730217128855,-0.01654374366604533,-0.246459,-23.858818
11.185,2.0,1.0,1.0,34.9,34.9,34.9,3.8,1.7,2.6375,0.08230228054948653,-0.06356751070230263,0.9676320045462021,-0.018001172717949224,-0.25449,-23.600286
11.185,2.0,1.0,1.0,34.9,34.9,34.9,3.8,1.7,2.64,0.06873931658696714,-0.06523656518604233,0.9677340496162651,-0.019556551642924226,-0.263023,-23.336441
11.185,2.0,1.0,1.0,34.9,34.9,34.9,3.8,1.7,2.6425,0.05500288015291643,-0.06696942101041718,0.9675963938810318,-0.021218433382999904,-0.272104,-23.067018
11.185,2.0,1.0,1.0,34.9,34.9,34.9,3.8,1.7,2.645,0.04108971587659673,-0.06876949159298006,0.9672060686044016,-0.022996353610354882,-0.281789,-22.791732
11.185,2.0,1.0,1.0,34.9,34.9,34.9,3.8,1.7,2.6475,0.0269964360565791,-0.07064037598834233,0.9665489063191968,-0.02490097157049771,-0.292137,-22.510278
11.185,2.0,1.0,1.0,34.9,34.9,34.9,3.8,1.7,2.65,0.012719525828005925,-0.07258585564873776,0.9656093739255883,-0.02694423502308233,-0.303217,-22.222327
11.185,2.0,1.0,1.0,34.9,34.9,34.9,3.8,1.7,2.6525,-0.0017446455642411624,-0.07460988505843205,0.9643703766862252,-0.029139574046698747,-0.315109,-21.927526
11.185,2.0,1.0,1.0,34.9,34.9,34.9,3.8,1.7,2.655,-0.016399804899228494,-0.0767165737456133,0.9628130272308567,-0.03150212953424007,-0.327901,-21.625494
11.185,2.0,1.0,1.0,34.9,34.9,34.9,3.8,1.7,2.6575,-0.031249743117943977,-0.07891015626085796,0.9609163723494973,-0.03404902352324291,-0.341697,-21.315819
11.185,2.0,1.0,1.0,34.9,34.9,34.9,3.8,1.7,2.66,-0.04629826680367387,-0.08119494545381797,0.9586570686918355,-0.0367996801465222,-0.356617,-20.998058
11.185,2.0,1.0,1.0,34.9,34.9,34.9,3.8,1.7,2.6625,-0.06154912660226451,-0.08357526264315437,0.9560089964185654,-0.039776208034172124,-0.372796,-20.671727
11.185,2.0,1.0,1.0,34.9,34.9,34.9,3.8,1.7,2.665,-0.07700591376312545,-0.0860553358648936,0.9529427972651923,-0.04300385754928951,-0.390396,-20.336305
11.185,2.0,1.0,1.0,34.9,34.9,34.9,3.8,1.7,2.6675,-0.09267191260869226,-0.08863915402301739,0.9494253202562494,-0.04651156941856587,-0.409603,-19.991225
11.185,2.0,1.0,1.0,34.9,34.9,34.9,3.8,1.7,2.67,-0.10854989200712933,-0.09133026005193853,0.9454189543009693,-0.05033263526884474,-0.430635,-19.635871
11.185,2.0,1.0,1.0,34.9,34.9,34.9,3.8,1.7,2.6725,-0.12464181224342069,-0.09413145955104459,0.9408808219454728,-0.05450549546264834,-0.453753,-19.269572
11.185,2.0,1.0,1.0,34.9,34.9,34.9,3.8,1.7,2.675,-0.14094841420145002,-0.09704441191627523,0.9357618024821285,-0.05907470560336583,-0.479264,-18.891599
11.185,2.0,1.0,1.0,34.9,34.9,34.9,3.8,1.7,2.6775,-0.1574686442260325,-0.10006905752384297,0.9300053452847947,-0.0640921102864949,-0.507533,-18.501156
11.185,2.0,1.0,1.0,34.9,34.9,34.9,3.8,1.7,2.68,-0.17419884857091997,-0.10320281517310981,0.9235460256134798,-0.06961827113384708,-0.539004,-18.097377
11.185,2.0,1.0,1.0,34.9,34.9,34.9,3.8,1.7,2.6825,-0.19113164320102094,-0.10643945603602517,0.9163077854305404,-0.07572420563492624,-0.574209,-17.679315
11.185,2.0,1.0,1.0,34.9,34.9,34.9,3.8,1.7,2.685,-0.2082543238051627,-0.10976751972507595,0.9082017917564128,-0.08249350305766005,-0.6138,-17.245945
11.185,2.0,1.0,1.0,34.9,34.9,34.9,3.8,1.7,2.6875,-0.2255466210861132,-0.11316807873204143,0.8991238366417074,-0.09002489179029725,-0.658577,-16.796149
11.185,2.0,1.0,1.0,34.9,34.9,34.9,3.8,1.7,2.69,-0.24297751866422715,-0.11661157042882207,0.8889512000126059,-0.09843533485971256,-0.70953,-16.32872
11.185,2.0,1.0,1.0,34.9,34.9,34.9,3.8,1.7,2.6925,-0.26050072190855594,-0.12005328784370228,0.8775389077638199,-0.10786371873539162,-0.767896,-15.842361
11.185,2.0,1.0,1.0,34.9,34.9,34.9,3.8,1.7,2.695,-0.27804817636615287,-0.12342693241566897,0.8647153589255324,-0.11847515851127566,-0.835232,-15.335688
11.185,2.0,1.0,1.0,34.9,34.9,34.9,3.8,1.7,2.6975,-0.2955207571593974,-0.12663535717892507,0.8502773992214258,-0.13046583856704938,-0.913519,-14.807254
11.185,2.0,1.0,1.0,34.9,34.9,34.9,3.8,1.7,2.7,-0.31277485047376846,-0.12953723255636554,0.8339851442600347,-0.14406808172622595,-1.005301,-14.255577
11.185,2.0,1.0,1.0,34.9,34.9,34.9,3.8,1.7,2.7025,-0.3296029858368605,-0.13192781066270284,0.8155573174655597,-0.15955487886297332,-1.113871,-13.679204
11.185,2.0,1.0,1.0,34.9,34.9,34.9,3.8,1.7,2.705,-0.3457059290471118,-0.1335112245222185,0.7946687754472381,-0.17724220638081736,-1.243537,-13.076815
11.185,2.0,1.0,1.0,34.9,34.9,34.9,3.8,1.7,2.7075,-0.36065275894925924,-0.13386088572821028,0.7709536246899787,-0.19748573579358886,-1.399976,-12.4474
11.185,2.0,1.0,1.0,34.9,34.9,34.9,3.8,1.7,2.71,-0.3738247021013777,-0.1323638140508136,0.7440205384057703,-0.22066535281031777,-1.590716,-11.790543
11.185,2.0,1.0,1.0,34.9,34.9,34.9,3.8,1.7,2.7125,-0.38433876337337547,-0.12814501981784118,0.7134925835250375,-0.24714524016254516,-1.825748,-11.106876
11.185,2.0,1.0,1.0,34.9,34.9,34.9,3.8,1.7,2.715,-0.39095076930907646,-0.11997165819434268,0.6790933628972996,-0.2771878578870459,-2.118243,-10.398799
11.185,2.0,1.0,1.0,34.9,34.9,34.9,3.8,1.7,2.7175,-0.39194964018030437,-0.10614886297529105,0.6408151788257012,-0.31078638966461847,-2.485141,-9.671567
11.185,2.0,1.0,1.0,34.9,34.9,34.9,3.8,1.7,2.72,-0.38508598373583747,-0.0844503356860487,0.5992195014413696,-0.3473658677852738,-2.946879,-8.934865
11.185,2.0,1.0,1.0,34.9,34.9,34.9,3.8,1.7,2.7225,-0.3676437192117507,-0.05219202713898292,0.5559171908808022,-0.3853063108017785,-3.524157,-8.204914
11.185,2.0,1.0,1.0,34.9,34.9,34.9,3.8,1.7,2.725,-0.3368680583497327,-0.006661022955250325,0.5142044888493731,-0.4213127994393906,-4.226388,-7.506822
11.185,2.0,1.0,1.0,34.9,34.9,34.9,3.8,1.7,2.7275,-0.2910418672603831,0.05381107899038067,0.47959881405132043,-0.4498887810394809,-5.020751,-6.876205
11.185,2.0,1.0,1.0,34.9,34.9,34.9,3.8,1.7,2.73,-0.23131303964395566,0.12803198907993588,0.4595911590109203,-0.463593400136602,-5.771972,-6.358037
11.185,2.0,1.0,1.0,34.9,34.9,34.9,3.8,1.7,2.7325,-0.1635537861749987,0.2101117348671156,0.46167561859151557,-0.45501407806830296,-6.199802,-6.000067
11.185,2.0,1.0,1.0,34.9,34.9,34.9,3.8,1.7,2.735,-0.09835126768131065,0.28949836652479016,0.4896268750031378,-0.42047047738465804,-6.030906,-5.840177
11.185,2.0,1.0,1.0,34.9,34.9,34.9,3.8,1.7,2.7375,-0.047568618586841964,0.35442413739586853,0.5403378716423832,-0.3631345371479089,-5.313163,-5.892512
11.185,2.0,1.0,1.0,34.9,34.9,34.9,3.8,1.7,2.74,-0.019130961732087216,0.39708703379465754,0.6044741167963725,-0.2923361630955257,-4.368098,-6.141462
11.185,2.0,1.0,1.0,34.9,34.9,34.9,3.8,1.7,2.7425,-0.014228770928702103,0.41639260996697247,0.670907359409171,-0.21912921044122483,-3.464796,-6.548216
11.185,2.0,1.0,1.0,34.9,34.9,34.9,3.8,1.7,2.745,-0.028708106599302417,0.4165308355092646,0.7311410702355804,-0.1519054557545834,-2.713286,-7.064757
11.185,2.0,1.0,1.0,34.9,34.9,34.9,3.8,1.7,2.7475,-0.05639490059424093,0.40365830356491217,0.7808914264591028,-0.09485589860491354,-2.125595,-7.64629
11.185,2.0,1.0,1.0,34.9,34.9,34.9,3.8,1.7,2.75,-0.0916366064831473,0.3833825888327,0.819267630685333,-0.0488094478515071,-1.677487,-8.257524
11.185,2.0,1.0,1.0,34.9,34.9,34.9,3.8,1.7,2.7525,-0.13029986989407488,0.3597869768351867,0.8472571301026179,-0.01274592302453435,-1.338174,-8.873644
11.185,2.0,1.0,1.0,34.9,34.9,34.9,3.8,1.7,2.755,-0.16975775704081533,0.33545457050585065,0.8665445743675664,0.01503256628198607,-1.080629,-9.478613
11.185,2.0,1.0,1.0,34.9,34.9,34.9,3.8,1.7,2.7575,-0.20851295924022334,0.3118481075021137,0.8788602817909155,0.03625919414410682,-0.883774,-10.062818
11.185,2.0,1.0,1.0,34.9,34.9,34.9,3.8,1.7,2.76,-0.24580568518814994,0.289701162026443,0.88570914355576,0.05243736982186618,-0.731941,-10.620989
11.185,2.0,1.0,1.0,34.9,34.9,34.9,3.8,1.7,2.7625,-0.28131804756927276,0.26931171466821946,0.8883026933686331,0.0647761315469831,-0.613695,-11.150645
11.185,2.0,1.0,1.0,34.9,34.9,34.9,3.8,1.7,2.765,-0.3149798459861847,0.25073440677816805,0.8875786153050077,0.07421122404594573,-0.520724,-11.651024
11.185,2.0,1.0,1.0,34.9,34.9,34.9,3.8,1.7,2.7675,-0.34685021035054364,0.23389737269502303,0.884248234201839,0.08145319606952948,-0.446972,-12.122378
11.185,2.0,1.0,1.0,34.9,34.9,34.9,3.8,1.7,2.77,-0.37704891771001475,0.21866984372148884,0.8788461639583329,0.08703718576978388,-0.38799,-12.565532
11.185,2.0,1.0,1.0,34.9,34.9,34.9,3.8,1.7,2.7725,-0.405718099662185,0.2048997113972791,0.8717729605765254,0.09136550916646273,-0.340483,-12.981597
11.185,2.0,1.0,1.0,34.9,34.9,34.9,3.8,1.7,2.775,-0.43300181582472896,0.1924334726982288,0.8633288745303632,0.09474128037710874,-0.301987,-13.371803
11.185,2.0,1.0,1.0,34.9,34.9,34.9,3.8,1.7,2.7775,-0.4590358441231027,0.1811261254046108,0.8537395102069365,0.09739393317905691,-0.270639,-13.737392
11.185,2.0,1.0,1.0,34.9,34.9,34.9,3.8,1.7,2.78,-0.48394317220337246,0.17084547168577882,0.8431749448715085,0.09949822194501313,-0.245016,-14.079558
11.185,2.0,1.0,1.0,34.9,34.9,34.9,3.8,1.7,2.7825,-0.5078325793869243,0.16147340150713158,0.8317638420496646,0.1011882453760977,-0.224021,-14.399412
11.185,2.0,1.0,1.0,34.9,34.9,34.9,3.8,1.7,2.785,-0.5307988231663244,0.15290561613068837,0.8196038371128851,0.10256777196042981,-0.206803,-14.697968
11.185,2.0,1.0,1.0,34.9,34.9,34.9,3.8,1.7,2.7875,-0.5529235970724713,0.14505060803337122,0.8067691833685923,0.10371785388412937,-0.192692,-14.976129
11.185,2.0,1.0,1.0,34.9,34.9,34.9,3.8,1.7,2.79,-0.5742768017160534,0.13782834436950012,0.7933163956627863,0.10470246427233823,-0.181158,-15.234689
11.185,2.0,1.0,1.0,34.9,34.9,34.9,3.8,1.7,2.7925,-0.594917884345045,0.13116889124256595,0.7792884308944693,0.10557269541362498,-0.171782,-15.474336
11.185,2.0,1.0,1.0,34.9,34.9,34.9,3.8,1.7,2.795,-0.6148971227021389,0.12501109790319653,0.7647177966058046,0.10636990814733559,-0.164225,-15.695648
11.185,2.0,1.0,1.0,34.9,34.9,34.9,3.8,1.7,2.7975,-0.6342567959666316,0.1193013943743729,0.7496288702575071,0.10712811493462063,-0.158216,-15.899105
11.185,2.0,1.0,1.0,34.9,34.9,34.9,3.8,1.7,2.8,-0.6530322220117882,0.11399272033747623,0.7340396332348073,0.10787580151462686,-0.153533,-16.085086
11.185,2.0,1.0,1.0,34.9,34.9,34.9,3.8,1.7,2.8025,-0.6712526592757219,0.10904358440525244,0.7179629670241569,0.10863733642597082,-0.15,-16.253878
11.185,2.0,1.0,1.0,34.9,34.9,34.9,3.8,1.7,2.805,-0.6889420808039808,0.10441724369694362,0.7014076181985173,0.10943407792249216,-0.14747,-16.405672
11.185,2.0,1.0,1.0,34.9,34.9,34.9,3.8,1.7,2.8075,-0.7061198318150198,0.10008098963180377,0.6843789093106644,0.11028525944180112,-0.145826,-16.540572
11.185,2.0,1.0,1.0,34.9,34.9,34.9,3.8,1.7,2.81,-0.7228011829390403,0.09600552461256287,0.6668792512357574,0.11120871457761893,-0.144974,-16.658592
11.185,2.0,1.0,1.0,34.9,34.9,34.9,3.8,1.7,2.8125,-0.738997790477845,0.0921644143718529,0.648908496568884,0.112221488188177,-0.144837,-16.759658
11.185,2.0,1.0,1.0,34.9,34.9,34.9,3.8,1.7,2.815,-0.7547180733905001,0.08853360139261125,0.630464161674962,0.11334037025393297,-0.145356,-16.843605
11.185,2.0,1.0,1.0,34.9,34.9,34.9,3.8,1.7,2.8175,-0.7699675146166549,0.085090965514628,0.611541535675322,0.11458238228427158,-0.146485,-16.910176
11.185,2.0,1.0,1.0,34.9,34.9,34.9,3.8,1.7,2.82,-0.7847488919717847,0.08181591831038035,0.5921336871209146,0.11596524173090303,-0.148192,-16.959021
11.185,2.0,1.0,1.0,34.9,34.9,34.9,3.8,1.7,2.8225,-0.799062441205324,0.07868901784501053,0.5722313726362407,0.1175078275314544,-0.150456,-16.989689
11.185,2.0,1.0,1.0,34.9,34.9,34.9,3.8,1.7,2.825,-0.812905950813974,0.07569158983848887,0.5518228458325801,0.11923066932937201,-0.153267,-17.001623
11.185,2.0,1.0,1.0,34.9,34.9,34.9,3.8,1.7,2.8275,-0.826274784657473,0.07280533980257621,0.5308935587488172,0.12115648402809104,-0.156627,-16.994151
11.185,2.0,1.0,1.0,34.9,34.9,34.9,3.8,1.7,2.83,-0.8391618240245579,0.07001193812994233,0.5094257414371542,0.1233107862483107,-0.160549,-16.966479
