1,w,sub_t,h,l1,l2,l3,g1,g2,Freq,S11_re,S21_re,S11_img,S21_img,S11_dB,S21_dB
11.185,2.0,1.0,1.0,33.3,34.9,34.9,2.9,3.1,2.5,0.867047500950595,-0.00834748217763728,0.484250287362873,0.00744423639014344,-0.060043,-39.027527
11.185,2.0,1.0,1.0,33.3,34.9,34.9,2.9,3.1,2.5025,0.8638134379119005,-0.008544135147319184,0.4898364732253754,0.007506724238893923,-0.060731,-38.88223
11.185,2.0,1.0,1.0,33.3,34.9,34.9,2.9,3.1,2.505,0.8605277018529978,-0.00874560778302504,0.4954246594340512,0.007569366306474243,-0.061436,-38.736057
11.185,2.0,1.0,1.0,33.3,34.9,34.9,2.9,3.1,2.5075,0.8571896851266387,-0.008952056520731475,0.5010146792987326,0.00763214906751175,-0.062157,-38.588984
11.185,2.0,1.0,1.0,33.3,34.9,34.9,2.9,3.1,2.51,0.8537987655040613,-0.00916364465399899,0.5066063603794032,0.007695057899461633,-0.062895,-38.440985
11.185,2.0,1.0,1.0,33.3,34.9,34.9,2.9,3.1,2.5125,0.8503543056454641,-0.00938054271208311,0.5121995242465147,0.007758076997021859,-0.063651,-38.292036
11.185,2.0,1.0,1.0,33.3,34.9,34.9,2.9,3.1,2.515,0.8468556525418274,-0.009602928863147394,0.5177939862289879,0.007821189279215298,-0.064425,-38.142108
11.185,2.0,1.0,1.0,33.3,34.9,34.9,2.9,3.1,2.5175,0.843302136926029,-0.00983098934452818,0.5233895551490089,0.00788437628843699,-0.065218,-37.991174
11.185,2.0,1.0,1.0,33.3,34.9,34.9,2.9,3.1,2.52,0.8396930726510097,-0.010064918922174369,0.5289860330426719,0.007947618080687934,-0.066032,-37.839206
11.185,2.0,1.0,1.0,33.3,34.9,34.9,2.9,3.1,2.5225,0.8360277560325675,-0.010304921381575597,0.5345832148654132,0.008010893106134157,-0.066865,-37.686175
11.185,2.0,1.0,1.0,33.3,34.9,34.9,2.9,3.1,2.525,0.8323054651541243,-0.010551210052704036,0.5401808881810887,0.008074178079034166,-0.06772,-37.532051
11.185,2.0,1.0,1.0,33.3,34.9,34.9,2.9,3.1,2.5275,0.8285254591305816,-0.010804008371725824,0.5457788328334396,0.008137447835974511,-0.068597,-37.376803
11.185,2.0,1.0,1.0,33.3,34.9,34.9,2.9,3.1,2.53,0.8246869773281266,-0.011063550482494777,0.5513768205985506,0.008200675181232527,-0.069497,-37.220398
11.185,2.0,1.0,1.0,33.3,34.9,34.9,2.9,3.1,2.5325,0.8207892385365452,-0.011330081881122896,0.5569746148167727,0.008263830717954477,-0.070421,-37.062803
11.185,2.0,1.0,1.0,33.3,34.9,34.9,2.9,3.1,2.535,0.8168314400902945,-0.011603860107236467,0.562571970002439,0.00832688266368605,-0.07137,-36.903985
11.185,2.0,1.0,1.0,33.3,34.9,34.9,2.9,3.1,2.5375,0.8128127569342286,-0.011885155485871513,0.5681686314294849,0.00838979664862492,-0.072344,-36.743907
11.185,2.0,1.0,1.0,33.3,34.9,34.9,2.9,3.1,2.54,0.8087323406294782,-0.012174251924346928,0.5737643346909395,0.008452535494774536,-0.073345,-36.582534
11.185,2.0,1.0,1.0,33.3,34.9,34.9,2.9,3.1,2.5425,0.8045893182945564,-0.01247144776887908,0.5793588052299877,0.008515058973962849,-0.074374,-36.419828
11.185,2.0,1.0,1.0,33.3,34.9,34.9,2.9,3.1,2.545,0.8003827914762819,-0.012777056726175429,0.5849517578400746,0.008577323542448868,-0.075432,-36.255749
11.185,2.0,1.0,1.0,33.3,34.9,34.9,2.9,3.1,2.5475,0.7961118349445776,-0.013091408855769654,0.590542896131228,0.008639282049563012,-0.07652,-36.090257
11.185,2.0,1.0,1.0,33.3,34.9,34.9,2.9,3.1,2.55,0.7917754954046,-0.013414851639447898,0.5961319119594687,0.008700883417516247,-0.07764,-35.923311
11.185,2.0,1.0,1.0,33.3,34.9,34.9,2.9,3.1,2.5525,0.7873727901190112,-0.013747751134767856,0.6017184848157874,0.008762072289159754,-0.078792,-35.754866
11.185,2.0,1.0,1.0,33.3,34.9,34.9,2.9,3.1,2.555,0.7829027054324518,-0.014090493220400693,0.6073022811707922,0.008822788640072096,-0.079979,-35.584877
11.185,2.0,1.0,1.0,33.3,34.9,34.9,2.9,3.1,2.5575,0.7783641951894494,-0.01444348494184212,0.6128829537706334,0.008882967350894002,-0.081202,-35.413299
11.185,2.0,1.0,1.0,33.3,34.9,34.9,2.9,3.1,2.56,0.7737561790360962,-0.014807155966947868,0.618460140879284,0.008942537735306117,-0.082462,-35.240081
11.185,2.0,1.0,1.0,33.3,34.9,34.9,2.9,3.1,2.5625,0.7690775405947696,-0.015181960161770479,0.6240334654616618,0.00900142301844659,-0.083761,-35.065175
11.185,2.0,1.0,1.0,33.3,34.9,34.9,2.9,3.1,2.565,0.7643271255000406,-0.015568377298320127,0.6296025343013705,0.00905953975988217,-0.085102,-34.888527
11.185,2.0,1.0,1.0,33.3,34.9,34.9,2.9,3.1,2.5675,0.7595037392825975,-0.015966914907157462,0.6351669370460381,0.00911679721445841,-0.086485,-34.710083
11.185,2.0,1.0,1.0,33.3,34.9,34.9,2.9,3.1,2.57,0.7546061450865733,-0.0163781102891737,0.640726245172348,0.009173096623454844,-0.087914,-34.529786
11.185,2.0,1.0,1.0,33.3,34.9,34.9,2.9,3.1,2.5725,0.7496330612040025,-0.016802532702543997,0.6462800108617817,0.009228330427432574,-0.08939,-34.347578
11.185,2.0,1.0,1.0,33.3,34.9,34.9,2.9,3.1,2.575,0.7445831584083024,-0.017240785742677203,0.6518277657769009,0.009282381390963884,-0.090916,-34.163396
11.185,2.0,1.0,1.0,33.3,34.9,34.9,2.9,3.1,2.5775,0.7394550570665742,-0.0176935099350629,0.6573690197266204,0.009335121628052917,-0.092493,-33.977177
11.185,2.0,1.0,1.0,33.3,34.9,34.9,2.9,3.1,2.58,0.7342473240081658,-0.01816138556326678,0.6629032592072971,0.0093864115154569,-0.094126,-33.788854
11.185,2.0,1.0,1.0,33.3,34.9,34.9,2.9,3.1,2.5825,0.728958469124247,-0.018645135756987577,0.668429945804629,0.009436098479263518,-0.095816,-33.598357
11.185,2.0,1.0,1.0,33.3,34.9,34.9,2.9,3.1,2.585,0.7235869416701438,-0.01914552986810969,0.6739485144391828,0.009484015637924541,-0.097568,-33.405612
11.185,2.0,1.0,1.0,33.3,34.9,34.9,2.9,3.1,2.5875,0.7181311262386928,-0.01966338716612195,0.6794583714358832,0.009529980282439818,-0.099383,-33.210545
11.185,2.0,1.0,1.0,33.3,34.9,34.9,2.9,3.1,2.59,0.7125893383690028,-0.020199580888179698,0.6849588923948572,0.009573792171457516,-0.101267,-33.013075
11.185,2.0,1.0,1.0,33.3,34.9,34.9,2.9,3.1,2.5925,0.7069598197504975,-0.02075504268354932,0.6904494198376456,0.00961523161563538,-0.103222,-32.813119
11.185,2.0,1.0,1.0,33.3,34.9,34.9,2.9,3.1,2.595,0.7012407329770466,-0.021330767497261482,0.6959292605987577,0.00965405732159606,-0.105252,-32.61059
11.185,2.0,1.0,1.0,33.3,34.9,34.9,2.9,3.1,2.5975,0.6954301558001377,-0.021927818943631935,0.7013976829279155,0.009690003961098884,-0.107363,-32.405396
11.185,2.0,1.0,1.0,33.3,34.9,34.9,2.9,3.1,2.6,0.6895260748233624,-0.02254733522697784,0.7068539132627628,0.009722779425499,-0.109559,-32.197441
11.185,2.0,1.0,1.0,33.3,34.9,34.9,2.9,3.1,2.6025,0.6835263785728379,-0.02319053567452878,0.7122971326253473,0.009752061719015244,-0.111845,-31.986624
11.185,2.0,1.0,1.0,33.3,34.9,34.9,2.9,3.1,2.605,0.6774288498693398,-0.023858727955343714,0.7177264725879642,0.009777495436571429,-0.114227,-31.77284
11.185,2.0,1.0,1.0,33.3,34.9,34.9,2.9,3.1,2.6075,0.6712311574177929,-0.024553316069201737,0.7231410107448419,0.00979868776277316,-0.116711,-31.555976
11.185,2.0,1.0,1.0,33.3,34.9,34.9,2.9,3.1,2.61,0.6649308465180483,-0.025275809201156716,0.7285397656152658,0.00981520391762799,-0.119304,-31.335917
11.185,2.0,1.0,1.0,33.3,34.9,34.9,2.9,3.1,2.6125,0.6585253287873215,-0.026027831550997298,0.7339216908908143,0.009826561961544779,-0.122012,-31.112538
11.185,2.0,1.0,1.0,33.3,34.9,34.9,2.9,3.1,2.615,0.652011870769001,-0.02681113326255284,0.7392856689238696,0.00983222685650155,-0.124844,-30.885709
11.185,2.0,1.0,1.0,33.3,34.9,34.9,2.9,3.1,2.6175,0.6453875812843496,-0.027627602596002023,0.7446305033359653,0.009831603661486114,-0.127809,-30.655294
11.185,2.0,1.0,1.0,33.3,34.9,34.9,2.9,3.1,2.62,0.6386493973624687,-0.02847927950751387,0.7499549106021649,0.009824029717689226,-0.130915,-30.421146
11.185,2.0,1.0,1.0,33.3,34.9,34.9,2.9,3.1,2.6225,0.6317940685592985,-0.029368370825214308,0.7552575104406187,0.00980876565159888,-0.134174,-30.183113
11.185,2.0,1.0,1.0,33.3,34.9,34.9,2.9,3.1,2.625,0.62481813944772,-0.0302972672392313,0.760536814803662,0.00978498499100763,-0.137596,-29.941033
11.185,2.0,1.0,1.0,33.3,34.9,34.9,2.9,3.1,2.6275,0.6177179300272808,-0.03126856235719004,0.7657912152270099,0.009751762148640099,-0.141194,-29.694732
11.185,2.0,1.0,1.0,33.3,34.9,34.9,2.9,3.1,2.63,0.6104895137628339,-0.032285074115862594,0.7710189682449284,0.0097080584789029,-0.144982,-29.444029
11.185,2.0,1.0,1.0,33.3,34.9,34.9,2.9,3.1,2.6325,0.6031286929153833,-0.03334986888578906,0.7762181785197053,0.009652706052971914,-0.148975,-29.18873
11.185,2.0,1.0,1.0,33.3,34.9,34.9,2.9,3.1,2.635,0.5956309707744376,-0.03446628865980279,0.7813867792604634,0.009584388723273989,-0.15319,-28.928628
11.185,2.0,1.0,1.0,33.3,34.9,34.9,2.9,3.1,2.6375,0.5879915203377726,-0.03563798177998644,0.7865225094158971,0.009501619956854668,-0.157646,-28.663504
11.185,2.0,1.0,1.0,33.3,34.9,34.9,2.9,3.1,2.64,0.580205148909838,-0.036868937732384616,0.7916228870133545,0.009402716803580687,-0.162363,-28.393125
11.185,2.0,1.0,1.0,33.3,34.9,34.9,2.9,3.1,2.6425,0.5722662580022899,-0.03816352662682484,0.7966851778770377,0.009285769223748337,-0.167365,-28.117241
11.185,2.0,1.0,1.0,33.3,34.9,34.9,2.9,3.1,2.645,0.5641687978166849,-0.039526544082825917,0.8017063587834348,0.009148603822846232,-0.172678,-27.835584
11.185,2.0,1.0,1.0,33.3,34.9,34.9,2.9,3.1,2.6475,0.5559062154677127,-0.04096326236450757,0.8066830738926981,0.00898874081906096,-0.178331,-27.547869
11.185,2.0,1.0,1.0,33.3,34.9,34.9,2.9,3.1,2.65,0.5474713959622155,-0.042479488750754836,0.8116115830176883,0.008803342788671424,-0.184358,-27.25379
11.185,2.0,1.0,1.0,33.3,34.9,34.9,2.9,3.1,2.6525,0.5388565947813683,-0.044081632295013856,0.8164876999410411,0.008589153378724396,-0.190796,-26.953019
11.185,2.0,1.0,1.0,33.3,34.9,34.9,2.9,3.1,2.655,0.5300533607169026,-0.04577678032566292,0.8213067185426355,0.008342423722802878,-0.197687,-26.645201
11.185,2.0,1.0,1.0,33.3,34.9,34.9,2.9,3.1,2.6575,0.5210524473837455,-0.047572786266447,0.8260633239256387,0.008058823714357568,-0.20508,-26.329956
11.185,2.0,1.0,1.0,33.3,34.9,34.9,2.9,3.1,2.66,0.5118437115674592,-0.04947837062011514,0.8307514849893086,0.007733334542917629,-0.213028,-26.006874
11.185,2.0,1.0,1.0,33.3,34.9,34.9,2.9,3.1,2.6625,0.5024159962636814,-0.051503237258873354,0.8353643239377371,0.00736011792768346,-0.221597,-25.675511
11.185,2.0,1.0,1.0,33.3,34.9,34.9,2.9,3.1,2.665,0.49275699592899447,-0.053658207501507925,0.8398939569636389,0.006932356217640161,-0.230857,-25.335386
11.185,2.0,1.0,1.0,33.3,34.9,34.9,2.9,3.1,2.6675,0.48285310109443164,-0.0559553748225971,0.8443312987070308,0.006442055868218955,-0.240894,-24.985978
11.185,2.0,1.0,1.0,33.3,34.9,34.9,2.9,3.1,2.67,0.47268921910933615,-0.05840828341813473,0.8486658209259134,0.00587980461581538,-0.251804,-24.626722
11.185,2.0,1.0,1.0,33.3,34.9,34.9,2.9,3.1,2.6725,0.46224856741629045,-0.06103213421129935,0.8528852529446552,0.0052344697660152316,-0.263702,-24.257
11.185,2.0,1.0,1.0,33.3,34.9,34.9,2.9,3.1,2.675,0.4515124354673236,-0.0638440221604647,0.8569752076092261,0.00449282112987839,-0.276722,-23.876141
11.185,2.0,1.0,1.0,33.3,34.9,34.9,2.9,3.1,2.6775,0.4404599112851772,-0.0668632088184236,0.8609187113191881,0.003639056923835535,-0.29102,-23.48341
11.185,2.0,1.0,1.0,33.3,34.9,34.9,2.9,3.1,2.68,0.4290675689402436,-0.0701114337940989,0.8646956097236599,0.0026542038868041734,-0.306785,-23.078003
11.185,2.0,1.0,1.0,33.3,34.9,34.9,2.9,3.1,2.6825,0.4173091141798585,-0.07361326775319138,0.8682818111578972,0.001515353251608488,-0.324239,-22.659038
11.185,2.0,1.0,1.0,33.3,34.9,34.9,2.9,3.1,2.685,0.4051549876698935,-0.07739650729396008,0.8716483168644463,0.00019468103301623798,-0.34365,-22.225545
11.185,2.0,1.0,1.0,33.3,34.9,34.9,2.9,3.1,2.6875,0.39257192974099,-0.0814926074803983,0.874759969082741,-0.00134181705630509,-0.365344,-21.776458
11.185,2.0,1.0,1.0,33.3,34.9,34.9,2.9,3.1,2.69,0.37952251879628746,-0.08593713935791884,0.8775738232199704,-0.0031359708784691564,-0.389715,-21.310603
11.185,2.0,1.0,1.0,33.3,34.9,34.9,2.9,3.1,2.6925,0.3659647104085068,-0.090770244598984,0.8800370157494593,-0.005239591059307131,-0.417251,-20.826683
11.185,2.0,1.0,1.0,33.3,34.9,34.9,2.9,3.1,2.695,0.3518514303731062,-0.0960370326965691,0.882083951362292,-0.007717312400866358,-0.448553,-20.323272
11.185,2.0,1.0,1.0,33.3,34.9,34.9,2.9,3.1,2.6975,0.3371303208022161,-0.10178781951488984,0.883632566011927,-0.010650371314159966,-0.484374,-19.798795
11.185,2.0,1.0,1.0,33.3,34.9,34.9,2.9,3.1,2.7,0.3217438179807369,-0.10807802508893787,0.8845793301501773,-0.014141656181872884,-0.525664,-19.251526
11.185,2.0,1.0,1.0,33.3,34.9,34.9,2.9,3.1,2.7025,0.3056298789733134,-0.11496740820630436,0.884792530962047,-0.01832249598726941,-0.573633,-18.679576
11.185,2.0,1.0,1.0,33.3,34.9,34.9,2.9,3.1,2.705,0.2887239142500684,-0.12251807159551688,0.8841032072968754,-0.023361818666334463,-0.629839,-18.080894
11.185,2.0,1.0,1.0,33.3,34.9,34.9,2.9,3.1,2.7075,0.270962901726798,-0.13079024776964762,0.8822929078519073,-0.02947851456200653,-0.696309,-17.453294
11.185,2.0,1.0,1.0,33.3,34.9,34.9,2.9,3.1,2.71,0.2522933853003419,-0.1398341385941136,0.8790772299207249,-0.03695805332939373,-0.775711,-16.79449
11.185,2.0,1.0,1.0,33.3,34.9,34.9,2.9,3.1,2.7125,0.2326863226893122,-0.1496748047375998,0.87408397274451,-0.04617452257246319,-0.871587,-16.102204
11.185,2.0,1.0,1.0,33.3,34.9,34.9,2.9,3.1,2.715,0.21216390960761763,-0.16028491467607553,0.8668249883515123,-0.057618996559043956,-0.988692,-15.374343
11.185,2.0,1.0,1.0,33.3,34.9,34.9,2.9,3.1,2.7175,0.19084711142924543,-0.17153652182505447,0.8566621514743139,-0.07193377541498701,-1.133442,-14.609334
11.185,2.0,1.0,1.0,33.3,34.9,34.9,2.9,3.1,2.72,0.1690382830883973,-0.18311733853746393,0.8427720045192673,-0.08994783124971592,-1.314504,-13.806711
11.185,2.0,1.0,1.0,33.3,34.9,34.9,2.9,3.1,2.7225,0.1473609078246797,-0.1943892770765101,0.8241243405329106,-0.11269793694213444,-1.543463,-12.968117
11.185,2.0,1.0,1.0,33.3,34.9,34.9,2.9,3.1,2.725,0.1269847994826266,-0.20416073339395818,0.7995147421254962,-0.14139488576606488,-1.835274,-12.09897
11.185,2.0,1.0,1.0,33.3,34.9,34.9,2.9,3.1,2.7275,0.10995572175205014,-0.2103537802292986,0.7677414032650408,-0.17724334972540812,-2.20752,-11.211112
11.185,2.0,1.0,1.0,33.3,34.9,34.9,2.9,3.1,2.73,0.09958076030668468,-0.20961614711648968,0.7280973887797804,-0.2209424085923754,-2.675724,-10.326651
11.185,2.0,1.0,1.0,33.3,34.9,34.9,2.9,3.1,2.7325,0.1006074872918731,-0.19714387114187815,0.6814080483156524,-0.27163534031267905,-3.238198,-9.482632
11.185,2.0,1.0,1.0,33.3,34.9,34.9,2.9,3.1,2.735,0.11851505211176126,-0.16740454641952668,0.631640756624985,-0.3252837547514903,-3.840333,-8.734342
11.185,2.0,1.0,1.0,33.3,34.9,34.9,2.9,3.1,2.7375,0.15697077325900055,-0.11671525747770722,0.5871872006694951,-0.3733799260225366,-4.324694,-8.152092
11.185,2.0,1.0,1.0,33.3,34.9,34.9,2.9,3.1,2.74,0.21372515918041077,-0.047390218352231034,0.559468182220477,-0.4043737819564383,-4.452891,-7.805098
11.185,2.0,1.0,1.0,33.3,34.9,34.9,2.9,3.1,2.7425,0.2785382305867211,0.03018261087301724,0.5573080689184192,-0.40937201445296395,-4.109715,-7.734093
11.185,2.0,1.0,1.0,33.3,34.9,34.9,2.9,3.1,2.745,0.3373515921187616,0.10178509586124242,0.5809366717946581,-0.3881905049359729,-3.455409,-7.930337
11.185,2.0,1.0,1.0,33.3,34.9,34.9,2.9,3.1,2.7475,0.37997488582578703,0.1571443317382198,0.6222406808730515,-0.3490707901662991,-2.744441,-8.340297
11.185,2.0,1.0,1.0,33.3,34.9,34.9,2.9,3.1,2.75,0.4037167000826,0.19358352805872,0.670695219037011,-0.302665333318366,-2.126676,-8.891381
11.185,2.0,1.0,1.0,33.3,34.9,34.9,2.9,3.1,2.7525,0.4112992052762133,0.2138931112002287,0.7184097855004898,-0.2569404680303864,-1.641322,-9.516799
11.185,2.0,1.0,1.0,33.3,34.9,34.9,2.9,3.1,2.755,0.4072374189009577,0.22266315366148368,0.7613205931473422,-0.21598386423448143,-1.275807,-10.166989
11.185,2.0,1.0,1.0,33.3,34.9,34.9,2.9,3.1,2.7575,0.39562947491777395,0.224051841373937,0.7981440034091315,-0.18107170543643175,-1.004221,-10.809942
11.185,2.0,1.0,1.0,33.3,34.9,34.9,2.9,3.1,2.76,0.3794764750401742,0.22110247788272788,0.8290508885429517,-0.1520123655420256,-0.802277,-11.427033
11.185,2.0,1.0,1.0,33.3,34.9,34.9,2.9,3.1,2.7625,0.3607534321603588,0.21581868487062628,0.8547819128564621,-0.128041140566723,-0.651002,-12.008509
11.185,2.0,1.0,1.0,33.3,34.9,34.9,2.9,3.1,2.765,0.34068314084025975,0.20944325285002913,0.8761965230681088,-0.10827542043342638,-0.536532,-12.55003
11.185,2.0,1.0,1.0,33.3,34.9,34.9,2.9,3.1,2.7675,0.31999175510279076,0.20271748864866332,0.8940851140372343,-0.09190367137884121,-0.44898,-13.050382
11.185,2.0,1.0,1.0,33.3,34.9,34.9,2.9,3.1,2.77,0.2990940948670813,0.1960689844544794,0.9091109470791864,-0.07824340778865492,-0.38133,-13.510053
11.185,2.0,1.0,1.0,33.3,34.9,34.9,2.9,3.1,2.7725,0.27821513185625396,0.1897346207349551,0.9218072911964573,-0.06674352722505637,-0.328583,-13.930393
11.185,2.0,1.0,1.0,33.3,34.9,34.9,2.9,3.1,2.775,0.25746597776044633,0.18383747778489903,0.9325941112830755,-0.056967028904512815,-0.287146,-14.313119
11.185,2.0,1.0,1.0,33.3,34.9,34.9,2.9,3.1,2.7775,0.23689033750570912,0.17843386569624392,0.9417989754842101,-0.04856955854967757,-0.254412,-14.660038
11.185,2.0,1.0,1.0,33.3,34.9,34.9,2.9,3.1,2.78,0.21649258093229742,0.17354178081839866,0.9496763709514622,-0.04127961204806049,-0.228463,-14.972895
11.185,2.0,1.0,1.0,33.3,34.9,34.9,2.9,3.1,2.7825,0.19625458795959252,0.16915803659986586,0.9564237259625569,-0.03488208809211469,-0.207876,-15.253293
11.185,2.0,1.0,1.0,33.3,34.9,34.9,2.9,3.1,2.785,0.17614578624585378,0.16526854301818172,0.9621940580502953,-0.029205248771815854,-0.191585,-15.50265
11.185,2.0,1.0,1.0,33.3,34.9,34.9,2.9,3.1,2.7875,0.15612906572978416,0.16185445249110003,0.967105711746473,-0.02411060207483023,-0.178782,-15.722189
11.185,2.0,1.0,1.0,33.3,34.9,34.9,2.9,3.1,2.79,0.13616419116964568,0.15889581484037446,0.9712497561306301,-0.019485114778797212,-0.168851,-15.912929
11.185,2.0,1.0,1.0,33.3,34.9,34.9,2.9,3.1,2.7925,0.11620969107406781,0.15637373478557548,0.9746955598884328,-0.015235217578672145,-0.16132,-16.075694
11.185,2.0,1.0,1.0,33.3,34.9,34.9,2.9,3.1,2.795,0.09622381433247584,0.15427163533347268,0.9774949651548717,-0.011282160481019196,-0.155828,-16.211113
11.185,2.0,1.0,1.0,33.3,34.9,34.9,2.9,3.1,2.7975,0.07616491224190189,0.1525759958163508,0.9796853849854924,-0.007558371233477349,-0.152097,-16.319631
11.185,2.0,1.0,1.0,33.3,34.9,34.9,2.9,3.1,2.8,0.0559914618526509,0.15127679185360043,0.9812920668650277,-0.004004548611953224,-0.149918,-16.401512
11.185,2.0,1.0,1.0,33.3,34.9,34.9,2.9,3.1,2.8025,0.035661859815495876,0.15036777897128364,0.9823296983183158,-0.0005672833677127678,-0.149135,-16.456842
11.185,2.0,1.0,1.0,33.3,34.9,34.9,2.9,3.1,2.805,0.015134062274976746,0.1498467098784449,0.9828034782696432,0.002802955771403474,-0.149637,-16.485536
11.185,2.0,1.0,1.0,33.3,34.9,34.9,2.9,3.1,2.8075,-0.005634887285681349,0.1497155442547202,0.9827097359750746,0.0061536028570927746,-0.151352,-16.487331
11.185,2.0,1.0,1.0,33.3,34.9,34.9,2.9,3.1,2.81,-0.026689421840129148,0.14998069141115947,0.982036144749025,0.009531654782546868,-0.154244,-16.461787
11.185,2.0,1.0,1.0,33.3,34.9,34.9,2.9,3.1,2.8125,-0.0480760999155912,0.150653315509875,0.980761547166919,0.0129853139622734,-0.158308,-16.40828
11.185,2.0,1.0,1.0,33.3,34.9,34.9,2.9,3.1,2.815,-0.06984434307127323,0.15174972713453816,0.9788553789335588,0.016565717153420794,-0.163574,-16.325993
11.185,2.0,1.0,1.0,33.3,34.9,34.9,2.9,3.1,2.8175,-0.09204727112671637,0.15329188184113793,0.9762766470225187,0.02032886407963031,-0.170106,-16.213902
11.185,2.0,1.0,1.0,33.3,34.9,34.9,2.9,3.1,2.82,-0.1147426482282963,0.15530800423835098,0.9729723803617469,0.024337881335297663,-0.178006,-16.070761
11.185,2.0,1.0,1.0,33.3,34.9,34.9,2.9,3.1,2.8225,-0.13799395362738703,0.15783335338760762,0.9688754235415935,0.02866579398452888,-0.187424,-15.89508
11.185,2.0,1.0,1.0,33.3,34.9,34.9,2.9,3.1,2.825,-0.16187158730214196,0.16091113936768459,0.9639013791463957,0.03339903517407033,-0.198565,-15.685093
11.185,2.0,1.0,1.0,33.3,34.9,34.9,2.9,3.1,2.8275,-0.1864542087071566,0.16459358747267647,0.9579444126171033,0.03864201243310887,-0.211703,-15.438731
11.185,2.0,1.0,1.0,33.3,34.9,34.9,2.9,3.1,2.83,-0.21183017982351082,0.1689431179398284,0.9508715001907299,0.044523183274450574,-0.227207,-15.153573
11.185,2.0,1.0,1.0,33.3,34.9,34.9,2.9,3.1,2.8325,-0.23809902739375283,0.17403355064549011,0.9425145023097085,0.0512032963777644,-0.245568,-14.826793
