1,w,sub_t,h,l1,l2,l3,g1,g2,Freq,S11_re,S21_re,S11_img,S21_img,S11_dB,S21_dB
11.185,2.0,1.0,1.0,34.1,34.0,34.0,4.4,3.7,2.5,0.772088154950908,-0.00664681334583087,0.625012275406887,0.00280521880991114,-0.057883,-42.835844
11.185,2.0,1.0,1.0,34.1,34.0,34.0,4.4,3.7,2.5025,0.7674515763718394,-0.006760009308229253,0.6305956509043316,0.0027869357264331705,-0.058445,-42.719326
11.185,2.0,1.0,1.0,34.1,34.0,34.0,4.4,3.7,2.505,0.7627522927337143,-0.0068748691756789475,0.6361697358216316,0.0027673784209824403,-0.059016,-42.60252
11.185,2.0,1.0,1.0,34.1,34.0,34.0,4.4,3.7,2.5075,0.7579897060524777,-0.006991418981922288,0.6417340649577575,0.0027465080494652313,-0.059597,-42.485419
11.185,2.0,1.0,1.0,34.1,34.0,34.0,4.4,3.7,2.51,0.7531632110433377,-0.00710968524595348,0.6472881601573622,0.0027242845326664634,-0.060188,-42.368016
11.185,2.0,1.0,1.0,34.1,34.0,34.0,4.4,3.7,2.5125,0.7482721950883833,-0.0072296949819587696,0.6528315299387288,0.002700666511303053,-0.060789,-42.250301
11.185,2.0,1.0,1.0,34.1,34.0,34.0,4.4,3.7,2.515,0.7433160382074518,-0.007351475709481384,0.6583636691111665,0.002675611299196378,-0.061401,-42.132266
11.185,2.0,1.0,1.0,34.1,34.0,34.0,4.4,3.7,2.5175,0.7382941130324796,-0.007475055463817834,0.663884058381529,0.0026490748344720687,-0.062023,-42.013904
11.185,2.0,1.0,1.0,34.1,34.0,34.0,4.4,3.7,2.52,0.7332057847855508,-0.007600462806652475,0.6693921639495736,0.002621011628689336,-0.062656,-41.895206
11.185,2.0,1.0,1.0,34.1,34.0,34.0,4.4,3.7,2.5225,0.7280504112609074,-0.007727726836937455,0.6748874370918049,0.0025913747137971325,-0.0633,-41.776162
11.185,2.0,1.0,1.0,34.1,34.0,34.0,4.4,3.7,2.525,0.72282734281116,-0.007856877202025698,0.6803693137335074,0.002560115586807762,-0.063955,-41.656765
11.185,2.0,1.0,1.0,34.1,34.0,34.0,4.4,3.7,2.5275,0.7175359223379674,-0.007987944109064804,0.6858372140086078,0.0025271841520724597,-0.064622,-41.537006
11.185,2.0,1.0,1.0,34.1,34.0,34.0,4.4,3.7,2.53,0.7121754852874717,-0.008120958336660065,0.6912905418070231,0.0024925286610364664,-0.0653,-41.416874
11.185,2.0,1.0,1.0,34.1,34.0,34.0,4.4,3.7,2.5325,0.7067453596507769,-0.00825595124681514,0.6967286843091355,0.0024560956493437365,-0.065991,-41.296363
11.185,2.0,1.0,1.0,34.1,34.0,34.0,4.4,3.7,2.535,0.701244865969772,-0.008392954797159622,0.702151011507025,0.002417829871153396,-0.066694,-41.175461
11.185,2.0,1.0,1.0,34.1,34.0,34.0,4.4,3.7,2.5375,0.6956733173486349,-0.00853200155347274,0.7075568757120754,0.002377674230521898,-0.06741,-41.05416
11.185,2.0,1.0,1.0,34.1,34.0,34.0,4.4,3.7,2.54,0.6900300194713345,-0.008673124702513184,0.7129456110485624,0.0023355697096954283,-0.068139,-40.93245
11.185,2.0,1.0,1.0,34.1,34.0,34.0,4.4,3.7,2.5425,0.6843142706254933,-0.008816358065165385,0.7183165329328204,0.002291455294147559,-0.068881,-40.810321
11.185,2.0,1.0,1.0,34.1,34.0,34.0,4.4,3.7,2.545,0.6785253617329745,-0.00896173610991322,0.7236689375375724,0.0022452678941867767,-0.069637,-40.687764
11.185,2.0,1.0,1.0,34.1,34.0,34.0,4.4,3.7,2.5475,0.672662576387582,-0.0091092939666522,0.7290021012409821,0.0021969422629471353,-0.070407,-40.564768
11.185,2.0,1.0,1.0,34.1,34.0,34.0,4.4,3.7,2.55,0.6667251909002614,-0.009259067440852434,0.7343152800600057,0.0021464109105634142,-0.07119,-40.441324
11.185,2.0,1.0,1.0,34.1,34.0,34.0,4.4,3.7,2.5525,0.6607124743522463,-0.00941109302808443,0.7396077090675592,0.0020936040143192556,-0.071989,-40.31742
11.185,2.0,1.0,1.0,34.1,34.0,34.0,4.4,3.7,2.555,0.6546236886565634,-0.009565407928921108,0.7448786017930503,0.002038449324542677,-0.072803,-40.193046
11.185,2.0,1.0,1.0,34.1,34.0,34.0,4.4,3.7,2.5575,0.6484580886283667,-0.009722050064229597,0.7501271496057806,0.00198087206600858,-0.073632,-40.068191
11.185,2.0,1.0,1.0,34.1,34.0,34.0,4.4,3.7,2.56,0.6422149220645822,-0.009881058090866871,0.7553525210807072,0.001920794834591719,-0.074476,-39.942844
11.185,2.0,1.0,1.0,34.1,34.0,34.0,4.4,3.7,2.5625,0.6358934298333574,-0.010042471417794331,0.7605538613460523,0.0018581374888962316,-0.075337,-39.816994
11.185,2.0,1.0,1.0,34.1,34.0,34.0,4.4,3.7,2.565,0.6294928459738348,-0.010206330222627215,0.765730291412219,0.001792817036569057,-0.076214,-39.69063
11.185,2.0,1.0,1.0,34.1,34.0,34.0,4.4,3.7,2.5675,0.6230123978068072,-0.010372675468634409,0.7708809074814509,0.0017247475149845546,-0.077108,-39.563739
11.185,2.0,1.0,1.0,34.1,34.0,34.0,4.4,3.7,2.57,0.6164513060568062,-0.010541548922206198,0.7760047802376625,0.0016538398659656337,-0.07802,-39.43631
11.185,2.0,1.0,1.0,34.1,34.0,34.0,4.4,3.7,2.5725,0.6098087849862305,-0.010712993170807672,0.7811009541158453,0.0015800018041832499,-0.078949,-39.30833
11.185,2.0,1.0,1.0,34.1,34.0,34.0,4.4,3.7,2.575,0.6030840425421202,-0.010887051641435668,0.7861684465504207,0.0015031376788505965,-0.079897,-39.179787
11.185,2.0,1.0,1.0,34.1,34.0,34.0,4.4,3.7,2.5775,0.5962762805162329,-0.011063768619598926,0.7912062472018995,0.0014231483283009014,-0.080864,-39.050668
11.185,2.0,1.0,1.0,34.1,34.0,34.0,4.4,3.7,2.58,0.5893846947190893,-0.01124318926884054,0.7962133171611774,0.001339930927007679,-0.081849,-38.92096
11.185,2.0,1.0,1.0,34.1,34.0,34.0,4.4,3.7,2.5825,0.5824084751686842,-0.011425359650824066,0.8011885881307704,0.0012533788245740816,-0.082855,-38.79065
11.185,2.0,1.0,1.0,34.1,34.0,34.0,4.4,3.7,2.585,0.5753468062945998,-0.011610326746003336,0.8061309615822624,0.0011633813761828913,-0.083881,-38.659723
11.185,2.0,1.0,1.0,34.1,34.0,34.0,4.4,3.7,2.5875,0.5681988671582731,-0.011798138474898317,0.8110393078892131,0.001069823763960576,-0.084927,-38.528167
11.185,2.0,1.0,1.0,34.1,34.0,34.0,4.4,3.7,2.59,0.5609638316902201,-0.011988843719998973,0.8159124654347286,0.0009725868086676883,-0.085995,-38.395966
11.185,2.0,1.0,1.0,34.1,34.0,34.0,4.4,3.7,2.5925,0.553640868945024,-0.012182492348319493,0.8207492396928797,0.0008715467710824746,-0.087086,-38.263106
11.185,2.0,1.0,1.0,34.1,34.0,34.0,4.4,3.7,2.595,0.5462291433749701,-0.012379135234625858,0.8255484022830913,0.0007665751423965455,-0.088198,-38.129572
11.185,2.0,1.0,1.0,34.1,34.0,34.0,4.4,3.7,2.5975,0.5387278151231915,-0.012578824285359818,0.8303086899966092,0.0006575384228871574,-0.089334,-37.995348
11.185,2.0,1.0,1.0,34.1,34.0,34.0,4.4,3.7,2.6,0.5311360403372736,-0.012781612463282348,0.835028803794091,0.000544297888073605,-0.090494,-37.860419
11.185,2.0,1.0,1.0,34.1,34.0,34.0,4.4,3.7,2.6025,0.5234529715042829,-0.01298755381285846,0.8397074077733109,0.0004267093415016309,-0.091678,-37.724767
11.185,2.0,1.0,1.0,34.1,34.0,34.0,4.4,3.7,2.605,0.5156777578082125,-0.013196703486406837,0.8443431281059429,0.0003046228532307352,-0.092888,-37.588377
11.185,2.0,1.0,1.0,34.1,34.0,34.0,4.4,3.7,2.6075,0.5078095455109033,-0.013409117771034176,0.8489345519422986,0.00017788248302409918,-0.094124,-37.451232
11.185,2.0,1.0,1.0,34.1,34.0,34.0,4.4,3.7,2.61,0.4998474783575231,-0.013624854116375163,0.8534802262828461,4.63259871585828e-05,-0.095386,-37.313313
11.185,2.0,1.0,1.0,34.1,34.0,34.0,4.4,3.7,2.6125,0.49179069800773195,-0.013843971163155232,0.8579786568152736,-9.021549231816859e-05,-0.096676,-37.174602
11.185,2.0,1.0,1.0,34.1,34.0,34.0,4.4,3.7,2.615,0.4836383444937069,-0.014066528772592981,0.8624283067157704,-0.00023191775715460032,-0.097994,-37.035081
11.185,2.0,1.0,1.0,34.1,34.0,34.0,4.4,3.7,2.6175,0.47538955670625666,-0.014292588056653422,0.866827595413125,-0.0003789639026656767,-0.099342,-36.89473
11.185,2.0,1.0,1.0,34.1,34.0,34.0,4.4,3.7,2.62,0.46704347291028653,-0.014522211409161673,0.8711748973141418,-0.0005315446892046498,-0.10072,-36.75353
11.185,2.0,1.0,1.0,34.1,34.0,34.0,4.4,3.7,2.6225,0.45859923129093383,-0.014755462537780473,0.875468540488784,-0.0006898589369644659,-0.102128,-36.611461
11.185,2.0,1.0,1.0,34.1,34.0,34.0,4.4,3.7,2.625,0.45005597053176,-0.0149924064968479,0.879706805313323,-0.000854113945879344,-0.103569,-36.468501
11.185,2.0,1.0,1.0,34.1,34.0,34.0,4.4,3.7,2.6275,0.4414128304264053,-0.015233109721066345,0.8838879230696771,-0.0010245259425554988,-0.105043,-36.324628
11.185,2.0,1.0,1.0,34.1,34.0,34.0,4.4,3.7,2.63,0.43266895252520593,-0.015477640060022156,0.8880100744989494,-0.001201320556331915,-0.106551,-36.17982
11.185,2.0,1.0,1.0,34.1,34.0,34.0,4.4,3.7,2.6325,0.4238234808183123,-0.015726066813504982,0.8920713883070626,-0.0013847333267636426,-0.108094,-36.034055
11.185,2.0,1.0,1.0,34.1,34.0,34.0,4.4,3.7,2.635,0.4148755624569114,-0.015978460767582348,0.896069939620178,-0.001575010245030185,-0.109673,-35.887308
11.185,2.0,1.0,1.0,34.1,34.0,34.0,4.4,3.7,2.6375,0.40582434851424254,-0.016234894231367526,0.9000037483874339,-0.0017724083320039064,-0.11129,-35.739555
11.185,2.0,1.0,1.0,34.1,34.0,34.0,4.4,3.7,2.64,0.39666899478812045,-0.016495441074400076,0.903870777728307,-0.0019771962559705304,-0.112945,-35.590769
11.185,2.0,1.0,1.0,34.1,34.0,34.0,4.4,3.7,2.6425,0.38740866264681373,-0.016760176764533716,0.9076689322216767,-0.002189654993277314,-0.114641,-35.440926
11.185,2.0,1.0,1.0,34.1,34.0,34.0,4.4,3.7,2.645,0.3780425199201517,-0.017029178406198293,0.9113960561334024,-0.002410078535499738,-0.116378,-35.289998
11.185,2.0,1.0,1.0,34.1,34.0,34.0,4.4,3.7,2.6475,0.3685697418378596,-0.01730252477886847,0.9150499315789434,-0.0026387746470659837,-0.118157,-35.137956
11.185,2.0,1.0,1.0,34.1,34.0,34.0,4.4,3.7,2.65,0.3589895120171643,-0.01758029637553251,0.9186282766172238,-0.0028760656776662882,-0.119981,-34.984771
11.185,2.0,1.0,1.0,34.1,34.0,34.0,4.4,3.7,2.6525,0.34930102350188286,-0.017862575440905203,0.9221287432715575,-0.0031222894342034582,-0.121851,-34.830414
11.185,2.0,1.0,1.0,34.1,34.0,34.0,4.4,3.7,2.655,0.33950347985522533,-0.018149446009074026,0.9255489154730799,-0.0033778001175208423,-0.123769,-34.674852
11.185,2.0,1.0,1.0,34.1,34.0,34.0,4.4,3.7,2.6575,0.3295960963087313,-0.018440993940199938,0.9288863069216285,-0.0036429693296760146,-0.125736,-34.518054
11.185,2.0,1.0,1.0,34.1,34.0,34.0,4.4,3.7,2.66,0.3195781009698469,-0.01873730695581404,0.9321383588585285,-0.003918187158123295,-0.127754,-34.359985
11.185,2.0,1.0,1.0,34.1,34.0,34.0,4.4,3.7,2.6625,0.30944873609081375,-0.019038474672159036,0.9353024377451389,-0.004203863343831286,-0.129825,-34.20061
11.185,2.0,1.0,1.0,34.1,34.0,34.0,4.4,3.7,2.665,0.2992072594016655,-0.019344588630911475,0.9383758328403744,-0.004500428541103986,-0.131951,-34.039894
11.185,2.0,1.0,1.0,34.1,34.0,34.0,4.4,3.7,2.6675,0.2888529455103503,-0.01965574232648994,0.9413557536696578,-0.0048083356777025845,-0.134134,-33.877797
11.185,2.0,1.0,1.0,34.1,34.0,34.0,4.4,3.7,2.67,0.2783850873731486,-0.019972031228999612,0.944239327376943,-0.005128061424796295,-0.136376,-33.714281
11.185,2.0,1.0,1.0,34.1,34.0,34.0,4.4,3.7,2.6725,0.2678029978387989,-0.02029355280167708,0.9470235959504962,-0.005460107787313108,-0.13868,-33.549306
11.185,2.0,1.0,1.0,34.1,34.0,34.0,4.4,3.7,2.675,0.2571060112700081,-0.020620406511484484,0.9497055133120502,-0.00580500382643334,-0.141049,-33.382827
11.185,2.0,1.0,1.0,34.1,34.0,34.0,4.4,3.7,2.6775,0.2462934852462926,-0.020952693831241136,0.9522819422577449,-0.006163307527288034,-0.143484,-33.2148
11.185,2.0,1.0,1.0,34.1,34.0,34.0,4.4,3.7,2.68,0.23536480235243648,-0.021290518231377654,0.9547496512378957,-0.006535607826409396,-0.145989,-33.04518
11.185,2.0,1.0,1.0,34.1,34.0,34.0,4.4,3.7,2.6825,0.22431937205725633,-0.021633985159034308,0.9571053109610641,-0.006922526815156103,-0.148567,-32.873918
11.185,2.0,1.0,1.0,34.1,34.0,34.0,4.4,3.7,2.685,0.2131566326877761,-0.021983202001795994,0.9593454908061547,-0.00732472213723048,-0.15122,-32.700963
11.185,2.0,1.0,1.0,34.1,34.0,34.0,4.4,3.7,2.6875,0.20187605350447,-0.0223382780328488,0.96146665502423,-0.00774288960054621,-0.153953,-32.526263
11.185,2.0,1.0,1.0,34.1,34.0,34.0,4.4,3.7,2.69,0.1904771368838298,-0.02269932433373487,0.9634651587094477,-0.008177766026132894,-0.156768,-32.349762
11.185,2.0,1.0,1.0,34.1,34.0,34.0,4.4,3.7,2.6925,0.17895942061521647,-0.023066453690166147,0.9653372435159211,-0.008630132359520435,-0.159669,-32.171402
11.185,2.0,1.0,1.0,34.1,34.0,34.0,4.4,3.7,2.695,0.16732248031984615,-0.023439780455499905,0.9670790330942863,-0.009100817073176172,-0.162661,-31.991124
11.185,2.0,1.0,1.0,34.1,34.0,34.0,4.4,3.7,2.6975,0.15556593200069418,-0.02381942037545874,0.9686865282183803,-0.009590699892137199,-0.165747,-31.808864
11.185,2.0,1.0,1.0,34.1,34.0,34.0,4.4,3.7,2.7,0.14368943473337087,-0.024205490366462124,0.9701556015684768,-0.010100715879045109,-0.168933,-31.624556
11.185,2.0,1.0,1.0,34.1,34.0,34.0,4.4,3.7,2.7025,0.13169269350935878,-0.024598108238480118,0.971481992133077,-0.010631859919440033,-0.172223,-31.43813
11.185,2.0,1.0,1.0,34.1,34.0,34.0,4.4,3.7,2.705,0.1195754622447524,-0.024997392351582368,0.9726612991860656,-0.011185191653487846,-0.175622,-31.249514
11.185,2.0,1.0,1.0,34.1,34.0,34.0,4.4,3.7,2.7075,0.1073375469696125,-0.025403461193268678,0.9736889757901278,-0.011761840906413676,-0.179136,-31.05863
11.185,2.0,1.0,1.0,34.1,34.0,34.0,4.4,3.7,2.71,0.09497880921550586,-0.02581643286116478,0.9745603217704819,-0.012363013676917953,-0.182771,-30.865399
11.185,2.0,1.0,1.0,34.1,34.0,34.0,4.4,3.7,2.7125,0.08249916962167372,-0.02623642443265858,0.975270476095098,-0.012989998750912678,-0.186533,-30.669736
11.185,2.0,1.0,1.0,34.1,34.0,34.0,4.4,3.7,2.715,0.06989861178381648,-0.026663551199422972,0.9758144085884598,-0.013644175017207648,-0.190429,-30.47155
11.185,2.0,1.0,1.0,34.1,34.0,34.0,4.4,3.7,2.7175,0.05717718637368503,-0.027097925740397294,0.9761869108953618,-0.014327019572512732,-0.194467,-30.27075
11.185,2.0,1.0,1.0,34.1,34.0,34.0,4.4,3.7,2.72,0.04433501556283381,-0.027539656801500965,0.9763825865990101,-0.01504011671554793,-0.198654,-30.067235
11.185,2.0,1.0,1.0,34.1,34.0,34.0,4.4,3.7,2.7225,0.031372297790063744,-0.027988847943938768,0.9763958403834533,-0.01578516794446851,-0.203,-29.860901
11.185,2.0,1.0,1.0,34.1,34.0,34.0,4.4,3.7,2.725,0.018289312919733656,-0.028445595915149745,0.9762208661138185,-0.016564003088561298,-0.207514,-29.651638
11.185,2.0,1.0,1.0,34.1,34.0,34.0,4.4,3.7,2.7275,0.005086427847266063,-0.02890998868696195,0.97585163368851,-0.01737859272468592,-0.212206,-29.43933
11.185,2.0,1.0,1.0,34.1,34.0,34.0,4.4,3.7,2.73,-0.008235897380440999,-0.02938210309390615,0.9752818744949503,-0.018231062051706024,-0.217087,-29.223852
11.185,2.0,1.0,1.0,34.1,34.0,34.0,4.4,3.7,2.7325,-0.021677102848201606,-0.0298620019904469,0.9745050652740166,-0.01912370642280413,-0.22217,-29.005074
11.185,2.0,1.0,1.0,34.1,34.0,34.0,4.4,3.7,2.735,-0.03523652136075904,-0.030349730828453787,0.9735144101672862,-0.020059008766809834,-0.227466,-28.782859
11.185,2.0,1.0,1.0,34.1,34.0,34.0,4.4,3.7,2.7375,-0.04891337021649593,-0.030845313534770467,0.972302820684742,-0.021039659166380724,-0.232992,-28.557059
11.185,2.0,1.0,1.0,34.1,34.0,34.0,4.4,3.7,2.74,-0.0627067420211134,-0.03134874754223712,0.970862893287584,-0.022068576904107105,-0.238762,-28.327518
11.185,2.0,1.0,1.0,34.1,34.0,34.0,4.4,3.7,2.7425,-0.07661559436358974,-0.03185999779468677,0.9691868842300218,-0.023148935338648008,-0.244794,-28.094071
11.185,2.0,1.0,1.0,34.1,34.0,34.0,4.4,3.7,2.745,-0.0906387381366277,-0.0323789895056297,0.9672666812438266,-0.02428419003338738,-0.251107,-27.856541
11.185,2.0,1.0,1.0,34.1,34.0,34.0,4.4,3.7,2.7475,-0.1047748242338057,-0.03290559939945646,0.9650937715781193,-0.025478110631709953,-0.257722,-27.61474
11.185,2.0,1.0,1.0,34.1,34.0,34.0,4.4,3.7,2.75,-0.119022328292992,-0.0334396451002981,0.962659205822124,-0.02673481705811,-0.264662,-27.368469
11.185,2.0,1.0,1.0,34.1,34.0,34.0,4.4,3.7,2.7525,-0.1333795330767948,-0.03398087225368736,0.9599535568376385,-0.02805882072574307,-0.271952,-27.117514
11.185,2.0,1.0,1.0,34.1,34.0,34.0,4.4,3.7,2.755,-0.14784450798140086,-0.03452893886527149,0.9569668730073899,-0.029455071552084683,-0.279622,-26.861646
11.185,2.0,1.0,1.0,34.1,34.0,34.0,4.4,3.7,2.7575,-0.16241508503923952,-0.03508339621309958,0.9536886248612169,-0.030929011729194565,-0.287702,-26.600622
11.185,2.0,1.0,1.0,34.1,34.0,34.0,4.4,3.7,2.76,-0.17708883062057823,-0.0356436655275873,0.9501076439691047,-0.03248663736869439,-0.296229,-26.334178
11.185,2.0,1.0,1.0,34.1,34.0,34.0,4.4,3.7,2.7625,-0.19186301183449414,-0.03620900942585569,0.9462120527824639,-0.034134569350067465,-0.305241,-26.062035
11.185,2.0,1.0,1.0,34.1,34.0,34.0,4.4,3.7,2.765,-0.20673455636679774,-0.03677849682105953,0.9419891838553501,-0.03588013495165103,-0.314784,-25.783892
11.185,2.0,1.0,1.0,34.1,34.0,34.0,4.4,3.7,2.7675,-0.22170000415366214,-0.03735095968434347,0.9374254865766722,-0.03773146214566616,-0.324907,-25.499423
11.185,2.0,1.0,1.0,34.1,34.0,34.0,4.4,3.7,2.77,-0.2367554488506404,-0.03792493959281003,0.932506419182135,-0.03969758880254538,-0.335666,-25.20828
11.185,2.0,1.0,1.0,34.1,34.0,34.0,4.4,3.7,2.7725,-0.2518964664848961,-0.03849862141845053,0.927216323378098,-0.041788589488430374,-0.347127,-24.910086
11.185,2.0,1.0,1.0,34.1,34.0,34.0,4.4,3.7,2.775,-0.2671180279298534,-0.039069750755894715,0.921538278383708,-0.04401572306800213,-0.359362,-24.604435
11.185,2.0,1.0,1.0,34.1,34.0,34.0,4.4,3.7,2.7775,-0.2824143908559503,-0.03963553069037809,0.9154539305656293,-0.04639160495991759,-0.372454,-24.290887
11.185,2.0,1.0,1.0,34.1,34.0,34.0,4.4,3.7,2.78,-0.2977789655065359,-0.04019249218836695,0.9089432940824792,-0.048930408653015615,-0.3865,-23.968966
11.185,2.0,1.0,1.0,34.1,34.0,34.0,4.4,3.7,2.7825,-0.31320414691053633,-0.040736330637128046,0.9019845170542283,-0.051648101997745964,-0.40161,-23.638156
11.185,2.0,1.0,1.0,34.1,34.0,34.0,4.4,3.7,2.785,-0.32868110381606314,-0.04126169870706809,0.8945536067073312,-0.05456272485686146,-0.41791,-23.297895
11.185,2.0,1.0,1.0,34.1,34.0,34.0,4.4,3.7,2.7875,-0.34419951149145306,-0.0417619425397505,0.8866241057080625,-0.05769471594346772,-0.435551,-22.947574
11.185,2.0,1.0,1.0,34.1,34.0,34.0,4.4,3.7,2.79,-0.35974721128386855,-0.042228763963191675,0.8781667104885265,-0.0610672980885056,-0.454706,-22.586527
11.185,2.0,1.0,1.0,34.1,34.0,34.0,4.4,3.7,2.7925,-0.3753097740140631,-0.04265178556367934,0.8691488208287199,-0.06470693272635386,-0.475577,-22.21403
11.185,2.0,1.0,1.0,34.1,34.0,34.0,4.4,3.7,2.795,-0.39086993630004213,-0.04301798737418937,0.8595340083821443,-0.06864385596649637,-0.498406,-21.829289
11.185,2.0,1.0,1.0,34.1,34.0,34.0,4.4,3.7,2.7975,-0.4064068678577754,-0.043310972780480204,0.8492813904358032,-0.0729127100143714,-0.52348,-21.431441
11.185,2.0,1.0,1.0,34.1,34.0,34.0,4.4,3.7,2.8,-0.4218952124578321,-0.04351000571791399,0.8383448944008333,-0.07755328448711657,-0.55114,-21.019535
11.185,2.0,1.0,1.0,34.1,34.0,34.0,4.4,3.7,2.8025,-0.43730382370381593,-0.04358873949811879,0.8266723991374922,-0.08261138153061058,-0.581797,-20.592536
11.185,2.0,1.0,1.0,34.1,34.0,34.0,4.4,3.7,2.805,-0.4525940865303903,-0.04351352702701026,0.8142047426992358,-0.08813981509420475,-0.61595,-20.149305
11.185,2.0,1.0,1.0,34.1,34.0,34.0,4.4,3.7,2.8075,-0.4677176725578016,-0.043241158979716275,0.8008745951043833,-0.09419954555947983,-0.654208,-19.688602
11.185,2.0,1.0,1.0,34.1,34.0,34.0,4.4,3.7,2.81,-0.4826135168864722,-0.042715815332020284,0.7866052141122628,-0.10086093129407984,-0.697319,-19.209068
11.185,2.0,1.0,1.0,34.1,34.0,34.0,4.4,3.7,2.8125,-0.497203718198079,-0.0418649290691746,0.771309140298805,-0.108205039912151,-0.746212,-18.709226
11.185,2.0,1.0,1.0,34.1,34.0,34.0,4.4,3.7,2.815,-0.5113879432723641,-0.04059353893150395,0.7548869603885962,-0.1163248885088542,-0.802046,-18.187478
11.185,2.0,1.0,1.0,34.1,34.0,34.0,4.4,3.7,2.8175,-0.5250357489724594,-0.03877653834087814,0.7372264023203172,-0.12532634609090795,-0.866284,-17.642112
11.185,2.0,1.0,1.0,34.1,34.0,34.0,4.4,3.7,2.82,-0.5379760067268446,-0.03624799740879887,0.7182022709764184,-0.13532818325433804,-0.940786,-17.07132
11.185,2.0,1.0,1.0,34.1,34.0,34.0,4.4,3.7,2.8225,-0.5499823205739407,-0.032786438169649566,0.6976781769763079,-0.14646030587446382,-1.027934,-16.473242
11.185,2.0,1.0,1.0,34.1,34.0,34.0,4.4,3.7,2.825,-0.5607529908708481,-0.028094601141410463,0.6755118050827988,-0.15885840692453107,-1.130808,-15.846043
11.185,2.0,1.0,1.0,34.1,34.0,34.0,4.4,3.7,2.8275,-0.5698837915347481,-0.021771954889742446,0.6515668745910773,-0.17265184986884022,-1.253403,-15.188057
