1,w,sub_t,h,l1,l2,l3,g1,g2,Freq,S11_re,S21_re,S11_img,S21_img,S11_dB,S21_dB
11.185,2.0,1.0,1.0,34.8,33.8,33.8,3.5,1.5,2.5,0.635919474412236,-0.0189600267732328,0.759843268510239,0.00805576610495118,-0.079967,-33.722472
11.185,2.0,1.0,1.0,34.8,33.8,33.8,3.5,1.5,2.5025,0.6291075300994373,-0.01930145125022852,0.7653541482644391,0.007987845575917028,-0.080906,-33.601633
11.185,2.0,1.0,1.0,34.8,33.8,33.8,3.5,1.5,2.505,0.622207397275853,-0.019648414359955145,0.7708339836551599,0.00791524662061986,-0.081862,-33.48033
11.185,2.0,1.0,1.0,34.8,33.8,33.8,3.5,1.5,2.5075,0.6152182800197428,-0.0200010037036787,0.7762816462013384,0.00783780434637559,-0.082837,-33.358553
11.185,2.0,1.0,1.0,34.8,33.8,33.8,3.5,1.5,2.51,0.608139378929148,-0.020359308036439858,0.781695976940427,0.00775534806172095,-0.083832,-33.236294
11.185,2.0,1.0,1.0,34.8,33.8,33.8,3.5,1.5,2.5125,0.600969891428797,-0.020723417260465195,0.7870757856215588,0.007667701053340913,-0.084846,-33.113545
11.185,2.0,1.0,1.0,34.8,33.8,33.8,3.5,1.5,2.515,0.5937090120967803,-0.021093422416726966,0.7924198498786844,0.007574680353327148,-0.08588,-32.990297
11.185,2.0,1.0,1.0,34.8,33.8,33.8,3.5,1.5,2.5175,0.5863559330119247,-0.02146941567450928,0.7977269143832123,0.007476096496281901,-0.086935,-32.866541
11.185,2.0,1.0,1.0,34.8,33.8,33.8,3.5,1.5,2.52,0.5789098441227737,-0.02185149031883131,0.8029956899757075,0.007371753265748367,-0.088011,-32.742269
11.185,2.0,1.0,1.0,34.8,33.8,33.8,3.5,1.5,2.5225,0.5713699336391883,-0.02223974073556347,0.808224852776152,0.007261447429420398,-0.089109,-32.61747
11.185,2.0,1.0,1.0,34.8,33.8,33.8,3.5,1.5,2.525,0.5637353884475481,-0.02263426239406495,0.813413043272302,0.007144968462547784,-0.090229,-32.492137
11.185,2.0,1.0,1.0,34.8,33.8,33.8,3.5,1.5,2.5275,0.556005394550626,-0.023035151827157405,0.8185588653856337,0.007022098258919994,-0.091372,-32.366259
11.185,2.0,1.0,1.0,34.8,33.8,33.8,3.5,1.5,2.53,0.5481791375332302,-0.023442506608234735,0.8236608855143613,0.006892610828769497,-0.092539,-32.239826
11.185,2.0,1.0,1.0,34.8,33.8,33.8,3.5,1.5,2.5325,0.5402558030547497,-0.02385642532529772,0.8287176315530043,0.0067562719828971225,-0.093729,-32.112829
11.185,2.0,1.0,1.0,34.8,33.8,33.8,3.5,1.5,2.535,0.5322345773697821,-0.024277007551684326,0.8337275918879612,0.00661283900227293,-0.094945,-31.985258
11.185,2.0,1.0,1.0,34.8,33.8,33.8,3.5,1.5,2.5375,0.5241146478780866,-0.024704353813251156,0.8386892143685141,0.006462060292322484,-0.096186,-31.857102
11.185,2.0,1.0,1.0,34.8,33.8,33.8,3.5,1.5,2.54,0.5158952037051259,-0.02513856555174268,0.8436009052526972,0.006303675021051938,-0.097454,-31.728351
11.185,2.0,1.0,1.0,34.8,33.8,33.8,3.5,1.5,2.5425,0.5075754363145265,-0.025579745084066307,0.8484610281274169,0.006137412740112058,-0.098748,-31.598994
11.185,2.0,1.0,1.0,34.8,33.8,33.8,3.5,1.5,2.545,0.4991545401538392,-0.026027995557169045,0.8532679028021963,0.005962992987838574,-0.10007,-31.46902
11.185,2.0,1.0,1.0,34.8,33.8,33.8,3.5,1.5,2.5475,0.49063171333503447,-0.026483420898188368,0.8580198041758846,0.005780124873243214,-0.101421,-31.338418
11.185,2.0,1.0,1.0,34.8,33.8,33.8,3.5,1.5,2.55,0.48200615835120075,-0.026946125759526724,0.862714961075665,0.005588506639856415,-0.102801,-31.207176
11.185,2.0,1.0,1.0,34.8,33.8,33.8,3.5,1.5,2.5525,0.4732770828310273,-0.027416215458467952,0.8673515550676161,0.005387825208248329,-0.104212,-31.075283
11.185,2.0,1.0,1.0,34.8,33.8,33.8,3.5,1.5,2.555,0.464443700332639,-0.027893795910928502,0.8719277192381027,0.005177755695970538,-0.105654,-30.942726
11.185,2.0,1.0,1.0,34.8,33.8,33.8,3.5,1.5,2.5575,0.45550523117847225,-0.028378973558900566,0.8764415369451941,0.004957960913572517,-0.107127,-30.809494
11.185,2.0,1.0,1.0,34.8,33.8,33.8,3.5,1.5,2.56,0.4464609033329265,-0.028871855291109,0.8808910405392606,0.0047280908352485196,-0.108634,-30.675573
11.185,2.0,1.0,1.0,34.8,33.8,33.8,3.5,1.5,2.5625,0.4373099533245905,-0.029372548356366324,0.8852742100518851,0.004487782042566506,-0.110175,-30.54095
11.185,2.0,1.0,1.0,34.8,33.8,33.8,3.5,1.5,2.565,0.42805162721491496,-0.029881160269066016,0.8895889718521272,0.0042366571396146345,-0.11175,-30.405612
11.185,2.0,1.0,1.0,34.8,33.8,33.8,3.5,1.5,2.5675,0.418685181615297,-0.030397798706206663,0.8938331972691449,0.003974324137778873,-0.113362,-30.269547
11.185,2.0,1.0,1.0,34.8,33.8,33.8,3.5,1.5,2.57,0.4092098847545929,-0.030922571395291153,0.8980047011800999,0.0037003758082280857,-0.115012,-30.132738
11.185,2.0,1.0,1.0,34.8,33.8,33.8,3.5,1.5,2.5725,0.39962501759918184,-0.03145558599238295,0.9021012405621917,0.003414389000036651,-0.116699,-29.995174
11.185,2.0,1.0,1.0,34.8,33.8,33.8,3.5,1.5,2.575,0.38992987502778215,-0.03199694994954455,0.9061205130075782,0.0031159239217157337,-0.118427,-29.856837
11.185,2.0,1.0,1.0,34.8,33.8,33.8,3.5,1.5,2.5775,0.38012376706332035,-0.03254677037080939,0.9100601551998543,0.002804523383746873,-0.120195,-29.717714
11.185,2.0,1.0,1.0,34.8,33.8,33.8,3.5,1.5,2.58,0.37020602016425447,-0.03310515385576419,0.9139177413506251,0.0024797119995257494,-0.122005,-29.577789
11.185,2.0,1.0,1.0,34.8,33.8,33.8,3.5,1.5,2.5825,0.36017597857784567,-0.03367220632973464,0.9176907815946184,0.0021409953419105855,-0.12386,-29.437046
11.185,2.0,1.0,1.0,34.8,33.8,33.8,3.5,1.5,2.585,0.35003300575801055,-0.0342480328594726,0.9213767203416163,0.001787859052348217,-0.125759,-29.295468
11.185,2.0,1.0,1.0,34.8,33.8,33.8,3.5,1.5,2.5875,0.33977648585048126,-0.034832737453137426,0.9249729345833383,0.0014197678992972956,-0.127705,-29.153039
11.185,2.0,1.0,1.0,34.8,33.8,33.8,3.5,1.5,2.59,0.3294058252481583,-0.03542642284325194,0.9284767321532498,0.001036164782401092,-0.129699,-29.00974
11.185,2.0,1.0,1.0,34.8,33.8,33.8,3.5,1.5,2.5925,0.31892045421965903,-0.03602919025118228,0.9318853499370394,0.0006364696785609561,-0.131743,-28.865555
11.185,2.0,1.0,1.0,34.8,33.8,33.8,3.5,1.5,2.595,0.30831982861424273,-0.03664113913154673,0.9351959520313251,0.00022007852573740325,-0.133838,-28.720464
11.185,2.0,1.0,1.0,34.8,33.8,33.8,3.5,1.5,2.5975,0.29760343164643743,-0.03726236689480059,0.9384056278478733,-0.00021363796005357966,-0.135987,-28.574448
11.185,2.0,1.0,1.0,34.8,33.8,33.8,3.5,1.5,2.6,0.2867707757638804,-0.03789296860606525,0.9415113901603626,-0.0006653355394738927,-0.138191,-28.427489
11.185,2.0,1.0,1.0,34.8,33.8,33.8,3.5,1.5,2.6025,0.275821404602116,-0.03853303665806559,0.9445101730903851,-0.0011356977816837474,-0.140453,-28.279564
11.185,2.0,1.0,1.0,34.8,33.8,33.8,3.5,1.5,2.605,0.2647548950302576,-0.03918266041582012,0.9473988300290508,-0.0016254374790820793,-0.142773,-28.130654
11.185,2.0,1.0,1.0,34.8,33.8,33.8,3.5,1.5,2.6075,0.2535708592917174,-0.03984192583047405,0.9501741314901597,-0.0021352981513238795,-0.145156,-27.980737
11.185,2.0,1.0,1.0,34.8,33.8,33.8,3.5,1.5,2.61,0.24226894724444792,-0.0405109150193801,0.9528327628904532,-0.002666055645546939,-0.147602,-27.82979
11.185,2.0,1.0,1.0,34.8,33.8,33.8,3.5,1.5,2.6125,0.23084884870545136,-0.041189705809217964,0.9553713222519816,-0.003218519840379192,-0.150114,-27.67779
11.185,2.0,1.0,1.0,34.8,33.8,33.8,3.5,1.5,2.615,0.2193102959046234,-0.04187837123857871,0.957786317821053,-0.003793536461998398,-0.152695,-27.524713
11.185,2.0,1.0,1.0,34.8,33.8,33.8,3.5,1.5,2.6175,0.20765306605341796,-0.042576979016039754,0.9600741655975995,-0.004391989021293353,-0.155347,-27.370535
11.185,2.0,1.0,1.0,34.8,33.8,33.8,3.5,1.5,2.62,0.19587698403420098,-0.04328559092929177,0.9622311867681058,-0.005014800882034724,-0.158074,-27.215229
11.185,2.0,1.0,1.0,34.8,33.8,33.8,3.5,1.5,2.6225,0.18398192521663492,-0.04400426220036631,0.9642536050344482,-0.005662937470913992,-0.160877,-27.058769
11.185,2.0,1.0,1.0,34.8,33.8,33.8,3.5,1.5,2.625,0.171967818408022,-0.0447330407814185,0.966137543830089,-0.00633740864136198,-0.163761,-26.901128
11.185,2.0,1.0,1.0,34.8,33.8,33.8,3.5,1.5,2.6275,0.15983464894505459,-0.045471966584855604,0.9678790234141078,-0.007039271204228827,-0.166729,-26.742276
11.185,2.0,1.0,1.0,34.8,33.8,33.8,3.5,1.5,2.63,0.14758246193521146,-0.04622107064083974,0.9694739578323764,-0.007769631639701755,-0.169783,-26.582185
11.185,2.0,1.0,1.0,34.8,33.8,33.8,3.5,1.5,2.6325,0.13521136565673073,-0.04698037417433072,0.9709181517339757,-0.008529649006281267,-0.172928,-26.420822
11.185,2.0,1.0,1.0,34.8,33.8,33.8,3.5,1.5,2.635,0.12272153512705884,-0.04774988759284661,0.9722072970294797,-0.009320538064237929,-0.176168,-26.258157
11.185,2.0,1.0,1.0,34.8,33.8,33.8,3.5,1.5,2.6375,0.11011321585068606,-0.048529609374993544,0.9733369693761609,-0.010143572632758368,-0.179506,-26.094155
11.185,2.0,1.0,1.0,34.8,33.8,33.8,3.5,1.5,2.64,0.09738672775840014,-0.04931952484853247,0.9743026244733733,-0.011000089201979266,-0.182947,-25.928782
11.185,2.0,1.0,1.0,34.8,33.8,33.8,3.5,1.5,2.6425,0.08454246935145111,-0.050119604845267035,0.9750995941493028,-0.011891490823327211,-0.186496,-25.762002
11.185,2.0,1.0,1.0,34.8,33.8,33.8,3.5,1.5,2.645,0.07158092206558238,-0.050929804218351984,0.9757230822180393,-0.012819251304062588,-0.190157,-25.593777
11.185,2.0,1.0,1.0,34.8,33.8,33.8,3.5,1.5,2.6475,0.05850265487174974,-0.05175006020567031,0.976168160083301,-0.013784919734695056,-0.193937,-25.424068
11.185,2.0,1.0,1.0,34.8,33.8,33.8,3.5,1.5,2.65,0.04530832913237955,-0.05258029062069337,0.9764297620622662,-0.01479012538104444,-0.197839,-25.252835
11.185,2.0,1.0,1.0,34.8,33.8,33.8,3.5,1.5,2.6525,0.0319987037344976,-0.05342039184964814,0.9765026803996784,-0.015836582976186203,-0.20187,-25.080034
11.185,2.0,1.0,1.0,34.8,33.8,33.8,3.5,1.5,2.655,0.018574640523789973,-0.05427023663084809,0.9763815599386803,-0.016926098451425477,-0.206037,-24.905621
11.185,2.0,1.0,1.0,34.8,33.8,33.8,3.5,1.5,2.6575,0.005037110066938587,-0.05512967158858083,0.9760608924106806,-0.018060575149808158,-0.210346,-24.729549
11.185,2.0,1.0,1.0,34.8,33.8,33.8,3.5,1.5,2.66,-0.008612802226623702,-0.05599851448996269,0.9755350103018056,-0.0192420205705938,-0.214804,-24.551771
11.185,2.0,1.0,1.0,34.8,33.8,33.8,3.5,1.5,2.6625,-0.02237388958799252,-0.05687655118852253,0.9747980802481799,-0.020472553698637208,-0.219419,-24.372234
11.185,2.0,1.0,1.0,34.8,33.8,33.8,3.5,1.5,2.665,-0.03624481693642963,-0.057763532212889365,0.9738440959062243,-0.02175441297884779,-0.2242,-24.190887
11.185,2.0,1.0,1.0,34.8,33.8,33.8,3.5,1.5,2.6675,-0.05022411344457322,-0.05865916895266613,0.9726668702373457,-0.023089965002901395,-0.229154,-24.007673
11.185,2.0,1.0,1.0,34.8,33.8,33.8,3.5,1.5,2.67,-0.0643101645674368,-0.059563129386247755,0.9712600271386461,-0.024481713983288324,-0.234291,-23.822533
11.185,2.0,1.0,1.0,34.8,33.8,33.8,3.5,1.5,2.6725,-0.07850120347307332,-0.06047503328674562,0.9696169923425431,-0.0259323120987072,-0.239622,-23.635407
11.185,2.0,1.0,1.0,34.8,33.8,33.8,3.5,1.5,2.675,-0.0927953018029733,-0.06139444683214102,0.9677309834982218,-0.02744457080489898,-0.245157,-23.446231
11.185,2.0,1.0,1.0,34.8,33.8,33.8,3.5,1.5,2.6775,-0.10719035967881793,-0.062320876533969914,0.9655949993366353,-0.02902147321642907,-0.250908,-23.254936
11.185,2.0,1.0,1.0,34.8,33.8,33.8,3.5,1.5,2.68,-0.12168409485854234,-0.06325376238495727,0.9632018078079344,-0.0306661876778378,-0.256888,-23.061453
11.185,2.0,1.0,1.0,34.8,33.8,33.8,3.5,1.5,2.6825,-0.13627403092863388,-0.06419247010962839,0.9605439330657556,-0.03238208265720977,-0.26311,-22.865706
11.185,2.0,1.0,1.0,34.8,33.8,33.8,3.5,1.5,2.685,-0.15095748440046636,-0.0651362823825612,0.957613641156287,-0.034172743111798805,-0.26959,-22.667617
11.185,2.0,1.0,1.0,34.8,33.8,33.8,3.5,1.5,2.6875,-0.165731550555906,-0.066084388856008,0.954402924251342,-0.0360419884941526,-0.276343,-22.467103
11.185,2.0,1.0,1.0,34.8,33.8,33.8,3.5,1.5,2.69,-0.18059308786038272,-0.06703587481138029,0.9509034832434394,-0.03799389258852091,-0.283386,-22.264078
11.185,2.0,1.0,1.0,34.8,33.8,33.8,3.5,1.5,2.6925,-0.19553870072957816,-0.06798970821667903,0.9471067084966791,-0.040032805391560025,-0.290739,-22.058449
11.185,2.0,1.0,1.0,34.8,33.8,33.8,3.5,1.5,2.695,-0.21056472039737617,-0.06894472493328738,0.9430036585198713,-0.04216337727882665,-0.298422,-21.85012
11.185,2.0,1.0,1.0,34.8,33.8,33.8,3.5,1.5,2.6975,-0.22566718358676102,-0.06989961176930014,0.9385850362971245,-0.044390585729768846,-0.306458,-21.638988
11.185,2.0,1.0,1.0,34.8,33.8,33.8,3.5,1.5,2.7,-0.2408418086300056,-0.07085288702110636,0.9338411629758571,-0.04671976491929474,-0.314871,-21.424945
11.185,2.0,1.0,1.0,34.8,33.8,33.8,3.5,1.5,2.7025,-0.25608396861801713,-0.07180287807828126,0.9287619485720645,-0.049156638524120895,-0.323688,-21.207878
11.185,2.0,1.0,1.0,34.8,33.8,33.8,3.5,1.5,2.705,-0.2713886610782712,-0.07274769558646874,0.9233368593073766,-0.05170735613748444,-0.332939,-20.987664
11.185,2.0,1.0,1.0,34.8,33.8,33.8,3.5,1.5,2.7075,-0.2867504735836723,-0.07368520356578256,0.9175548811412154,-0.05437853373709056,-0.342656,-20.764175
11.185,2.0,1.0,1.0,34.8,33.8,33.8,3.5,1.5,2.71,-0.3021635445766312,-0.07461298476447076,0.9114044790036898,-0.057177298708925205,-0.352875,-20.537275
11.185,2.0,1.0,1.0,34.8,33.8,33.8,3.5,1.5,2.7125,-0.31762151854920573,-0.07552830038438528,0.9048735511701824,-0.06011133999440819,-0.363635,-20.306821
11.185,2.0,1.0,1.0,34.8,33.8,33.8,3.5,1.5,2.715,-0.3331174945449328,-0.07642804314016163,0.8979493781463953,-0.06318896400075294,-0.374979,-20.072658
11.185,2.0,1.0,1.0,34.8,33.8,33.8,3.5,1.5,2.7175,-0.34864396673377446,-0.07730868240041351,0.8906185653526846,-0.0664191569946916,-0.386957,-19.834623
11.185,2.0,1.0,1.0,34.8,33.8,33.8,3.5,1.5,2.72,-0.3641927555483815,-0.07816619989716429,0.8828669788087609,-0.06981165478791303,-0.399621,-19.592544
11.185,2.0,1.0,1.0,34.8,33.8,33.8,3.5,1.5,2.7225,-0.37975492754615864,-0.07899601416716139,0.8746796729249662,-0.07337702061817611,-0.413032,-19.346236
11.185,2.0,1.0,1.0,34.8,33.8,33.8,3.5,1.5,2.725,-0.3953207017613572,-0.07979289149042308,0.8660408094055985,-0.07712673223176282,-0.427256,-19.095501
11.185,2.0,1.0,1.0,34.8,33.8,33.8,3.5,1.5,2.7275,-0.4108793398160798,-0.08055084059799174,0.856933566165916,-0.08107327927819794,-0.442368,-18.840131
11.185,2.0,1.0,1.0,34.8,33.8,33.8,3.5,1.5,2.73,-0.4264190164428852,-0.08126298780771359,0.8473400350621909,-0.08523027223239021,-0.458452,-18.579902
11.185,2.0,1.0,1.0,34.8,33.8,33.8,3.5,1.5,2.7325,-0.44192666630381566,-0.08192142848240243,0.8372411071410921,-0.0896125641551512,-0.475602,-18.314574
11.185,2.0,1.0,1.0,34.8,33.8,33.8,3.5,1.5,2.735,-0.45738780203002394,-0.08251704974853949,0.8266163440430678,-0.09423638667844175,-0.493927,-18.043892
11.185,2.0,1.0,1.0,34.8,33.8,33.8,3.5,1.5,2.7375,-0.472786297200872,-0.08303931821381902,0.815443834162948,-0.09911950163823845,-0.513545,-17.767584
11.185,2.0,1.0,1.0,34.8,33.8,33.8,3.5,1.5,2.74,-0.48810412646457246,-0.0834760249116408,0.8037000322088194,-0.10428136974715707,-0.534596,-17.485358
11.185,2.0,1.0,1.0,34.8,33.8,33.8,3.5,1.5,2.7425,-0.5033210530878173,-0.08381297779416366,0.7913595809507608,-0.10974333755793438,-0.557236,-17.1969
11.185,2.0,1.0,1.0,34.8,33.8,33.8,3.5,1.5,2.745,-0.5184142517988434,-0.08403362968220984,0.778395114280292,-0.11552884365265516,-0.581646,-16.901875
11.185,2.0,1.0,1.0,34.8,33.8,33.8,3.5,1.5,2.7475,-0.5333578517143034,-0.08411862651785108,0.7647770413076793,-0.12166364440397745,-0.608031,-16.599927
11.185,2.0,1.0,1.0,34.8,33.8,33.8,3.5,1.5,2.75,-0.548122380232704,-0.084045256871459,0.750473312254854,-0.128176058648017,-0.636631,-16.290669
11.185,2.0,1.0,1.0,34.8,33.8,33.8,3.5,1.5,2.7525,-0.5626740838027744,-0.08378677869624142,0.7354491685765042,-0.1350972289664701,-0.667721,-15.973692
11.185,2.0,1.0,1.0,34.8,33.8,33.8,3.5,1.5,2.755,-0.5769740951389822,-0.08331159300453538,0.7196668823889295,-0.14246139467304453,-0.701626,-15.648556
11.185,2.0,1.0,1.0,34.8,33.8,33.8,3.5,1.5,2.7575,-0.5909774083896514,-0.08258222609195226,0.7030854943956902,-0.15030616755056053,-0.738719,-15.314789
11.185,2.0,1.0,1.0,34.8,33.8,33.8,3.5,1.5,2.76,-0.6046316135146927,-0.08155407170512573,0.6856605658037378,-0.15867279516341373,-0.779445,-14.97189
11.185,2.0,1.0,1.0,34.8,33.8,33.8,3.5,1.5,2.7625,-0.6178753281662926,-0.08017383159974831,0.6673439693198459,-0.1676063870873605,-0.824326,-14.619324
11.185,2.0,1.0,1.0,34.8,33.8,33.8,3.5,1.5,2.765,-0.6306362490929985,-0.07837757666842612,0.648083758847009,-0.17715606502399553,-0.873982,-14.256525
11.185,2.0,1.0,1.0,34.8,33.8,33.8,3.5,1.5,2.7675,-0.6428287249201382,-0.076088330637046,0.6278241794232291,-0.18737497605693765,-0.929156,-13.882893
11.185,2.0,1.0,1.0,34.8,33.8,33.8,3.5,1.5,2.77,-0.6543507276817698,-0.07321305380149633,0.6065059119407517,-0.19832007560124787,-0.990737,-13.497799
11.185,2.0,1.0,1.0,34.8,33.8,33.8,3.5,1.5,2.7725,-0.6650800717910046,-0.0696388754740768,0.5840666967436304,-0.21005153743283975,-1.059802,-13.100591
11.185,2.0,1.0,1.0,34.8,33.8,33.8,3.5,1.5,2.775,-0.6748696975404235,-0.06522839198574548,0.5604425544726577,-0.22263157444750162,-1.13766,-12.690598
11.185,2.0,1.0,1.0,34.8,33.8,33.8,3.5,1.5,2.7775,-0.6835418055630219,-0.05981381600523919,0.5355699334748527,-0.23612234356413134,-1.225915,-12.26715
11.185,2.0,1.0,1.0,34.8,33.8,33.8,3.5,1.5,2.78,-0.6908806078377281,-0.05318974133590132,0.5093892779879028,-0.25058244422671166,-1.326542,-11.829591
11.185,2.0,1.0,1.0,34.8,33.8,33.8,3.5,1.5,2.7825,-0.696623468318865,-0.045104293542690924,0.4818507543306117,-0.2660612781171682,-1.441996,-11.377314
11.185,2.0,1.0,1.0,34.8,33.8,33.8,3.5,1.5,2.785,-0.7004502785361485,-0.03524850682426171,0.45292322558489667,-0.2825901858324044,-1.575343,-10.909809
11.185,2.0,1.0,1.0,34.8,33.8,33.8,3.5,1.5,2.7875,-0.7019711192553973,-0.023243969635360472,0.42260806713907073,-0.3001687758433938,-1.730439,-10.426726
11.185,2.0,1.0,1.0,34.8,33.8,33.8,3.5,1.5,2.79,-0.7007127233895739,-0.008629239744832866,0.3909601013805281,-0.318744176164669,-1.912166,-9.927973
11.185,2.0,1.0,1.0,34.8,33.8,33.8,3.5,1.5,2.7925,-0.6961051957074487,0.00915353954035731,0.35811880402692603,-0.338180064453568,-2.126731,-9.413859
11.185,2.0,1.0,1.0,34.8,33.8,33.8,3.5,1.5,2.795,-0.6874722213046607,0.03076862786191574,0.32435389978900536,-0.3582113626330325,-2.382048,-8.885288
11.185,2.0,1.0,1.0,34.8,33.8,33.8,3.5,1.5,2.7975,-0.6740311510167422,0.05698695031561338,0.29013016636853484,-0.37837976783182864,-2.688195,-8.344033
11.185,2.0,1.0,1.0,34.8,33.8,33.8,3.5,1.5,2.8,-0.6549145787669566,0.08866510042337568,0.2561957814139517,-0.3979457459343815,-3.057903,-7.793107
11.185,2.0,1.0,1.0,34.8,33.8,33.8,3.5,1.5,2.8025,-0.6292328443739184,0.1266837518330583,0.22369486414265402,-0.41577623714595296,-3.506911,-7.237252
11.185,2.0,1.0,1.0,34.8,33.8,33.8,3.5,1.5,2.805,-0.5962066130110222,0.17181642278690212,0.1942942338753572,-0.4302178471822769,-4.053726,-6.683535
11.185,2.0,1.0,1.0,34.8,33.8,33.8,3.5,1.5,2.8075,-0.555405897466645,0.22449223715771593,0.17029129369170143,-0.4389882558449877,-4.717586,-6.142017
11.185,2.0,1.0,1.0,34.8,33.8,33.8,3.5,1.5,2.81,-0.5071241740694589,0.28442378916140254,0.1546298043876775,-0.4391585537548359,-5.511619,-5.626346
11.185,2.0,1.0,1.0,34.8,33.8,33.8,3.5,1.5,2.8125,-0.45286968680114,0.350117267926582,0.15069962831869,-0.427349892018686,-6.424437,-5.154012
11.185,2.0,1.0,1.0,34.8,33.8,33.8,3.5,1.5,2.815,-0.3958440142259303,0.41839331860368567,0.1617728154761553,-0.40029201327153546,-7.378743,-4.745837
11.185,2.0,1.0,1.0,34.8,33.8,33.8,3.5,1.5,2.8175,-0.34111301171276,0.484211696257597,0.19001447227069074,-0.3558064887043566,-8.168339,-4.424216
11.185,2.0,1.0,1.0,34.8,33.8,33.8,3.5,1.5,2.82,-0.29508114320564344,0.5411878701307374,0.23528249743442148,-0.29400375755960356,-8.463963,-4.209914
11.185,2.0,1.0,1.0,34.8,33.8,33.8,3.5,1.5,2.8225,-0.2640880225953021,0.5829850434756217,0.2943096565550621,-0.21810449062172563,-8.058725,-4.117943
11.185,2.0,1.0,1.0,34.8,33.8,33.8,3.5,1.5,2.825,-0.2525368374711568,0.6051777844248583,0.3609672178880109,-0.13418737442700707,-7.120367,-4.153902
11.185,2.0,1.0,1.0,34.8,33.8,33.8,3.5,1.5,2.8275,-0.2615168984024625,0.6066307880438777,0.42777677942186637,-0.0496922867803215,-5.996623,-4.312467
11.185,2.0,1.0,1.0,34.8,33.8,33.8,3.5,1.5,2.83,-0.28872507969950023,0.589588147414252,0.48795667060971254,0.02861550122158047,-4.928678,-4.578807
