1,w,sub_t,h,l1,l2,l3,g1,g2,Freq,S11_re,S21_re,S11_img,S21_img,S11_dB,S21_dB
11.185,2.0,1.0,1.0,34.2,34.6,34.6,2.2,3.3,2.5,0.744108413630892,-0.0146599385989692,0.655069995709493,0.00851642999863764,-0.075287,-35.414477
11.185,2.0,1.0,1.0,34.2,34.6,34.6,2.2,3.3,2.5025,0.7388923627261703,-0.014959475168411372,0.6607892677899706,0.008522113193932711,-0.076213,-35.281038
11.185,2.0,1.0,1.0,34.2,34.6,34.6,2.2,3.3,2.505,0.7336020124528372,-0.015265186529334757,0.6664970526144627,0.008525394584610355,-0.07716,-35.146928
11.185,2.0,1.0,1.0,34.2,34.6,34.6,2.2,3.3,2.5075,0.7282364908333188,-0.015577226700548303,0.6721927356143879,0.008526163194201424,-0.078127,-35.012134
11.185,2.0,1.0,1.0,34.2,34.6,34.6,2.2,3.3,2.51,0.7227949108426428,-0.015895754535216463,0.6778756822093196,0.008524303008073759,-0.079115,-34.876642
11.185,2.0,1.0,1.0,34.2,34.6,34.6,2.2,3.3,2.5125,0.7172763701171858,-0.01622093390458394,0.6835452370872771,0.008519692716334855,-0.080126,-34.740437
11.185,2.0,1.0,1.0,34.2,34.6,34.6,2.2,3.3,2.515,0.7116799506565789,-0.016552933889905346,0.6892007234554609,0.008512205441744086,-0.081159,-34.603503
11.185,2.0,1.0,1.0,34.2,34.6,34.6,2.2,3.3,2.5175,0.7060047185185692,-0.01689192898299456,0.6948414422599523,0.008501708451637661,-0.082215,-34.465827
11.185,2.0,1.0,1.0,34.2,34.6,34.6,2.2,3.3,2.52,0.7002497235065549,-0.017238099295835325,0.7004666713727975,0.008488062852792732,-0.083296,-34.327392
11.185,2.0,1.0,1.0,34.2,34.6,34.6,2.2,3.3,2.5225,0.6944139988495749,-0.01759163077971765,0.7060756647448037,0.008471123268075248,-0.084401,-34.188182
11.185,2.0,1.0,1.0,34.2,34.6,34.6,2.2,3.3,2.525,0.688496560874445,-0.017952715454390263,0.7116676515222742,0.008450737493629179,-0.085531,-34.048181
11.185,2.0,1.0,1.0,34.2,34.6,34.6,2.2,3.3,2.5275,0.682496408669769,-0.018321551647747444,0.71724183512578,0.00842674613526656,-0.086688,-33.907372
11.185,2.0,1.0,1.0,34.2,34.6,34.6,2.2,3.3,2.53,0.676412523741525,-0.018698344246596308,0.7227973922889501,0.008398982222615195,-0.087872,-33.765739
11.185,2.0,1.0,1.0,34.2,34.6,34.6,2.2,3.3,2.5325,0.6702438696598942,-0.019083304959082715,0.7283334720551198,0.00836727079946546,-0.089084,-33.623264
11.185,2.0,1.0,1.0,34.2,34.6,34.6,2.2,3.3,2.535,0.6639893916970044,-0.019476652589384715,0.7338491947295529,0.008331428488635214,-0.090326,-33.479929
11.185,2.0,1.0,1.0,34.2,34.6,34.6,2.2,3.3,2.5375,0.6576480164552291,-0.01987861332531655,0.7393436507847564,0.008291263029536464,-0.091597,-33.335716
11.185,2.0,1.0,1.0,34.2,34.6,34.6,2.2,3.3,2.54,0.6512186514856664,-0.020289421039522186,0.7448158997162789,0.008246572786481254,-0.092899,-33.190605
11.185,2.0,1.0,1.0,34.2,34.6,34.6,2.2,3.3,2.5425,0.6447001848964001,-0.020709317604974783,0.7502649688461703,0.008197146225603351,-0.094233,-33.044579
11.185,2.0,1.0,1.0,34.2,34.6,34.6,2.2,3.3,2.545,0.6380914849501207,-0.0211385532255381,0.755689852071092,0.008142761358098414,-0.0956,-32.897616
11.185,2.0,1.0,1.0,34.2,34.6,34.6,2.2,3.3,2.5475,0.6313913996506827,-0.021577386782386233,0.7610895085518427,0.008083185147293654,-0.097001,-32.749697
11.185,2.0,1.0,1.0,34.2,34.6,34.6,2.2,3.3,2.55,0.6245987563181005,-0.022026086197122555,0.766462861340838,0.008018172876850593,-0.098437,-32.600801
11.185,2.0,1.0,1.0,34.2,34.6,34.6,2.2,3.3,2.5525,0.6177123611515332,-0.02248492881248347,0.7718087959438079,0.007947467477174973,-0.09991,-32.450906
11.185,2.0,1.0,1.0,34.2,34.6,34.6,2.2,3.3,2.555,0.61073099877971,-0.022954201791559836,0.7771261588117155,0.00787079880685928,-0.101421,-32.299991
11.185,2.0,1.0,1.0,34.2,34.6,34.6,2.2,3.3,2.5575,0.6036534317982599,-0.02343420253651867,0.7824137557585786,0.007787882885708895,-0.102972,-32.148033
11.185,2.0,1.0,1.0,34.2,34.6,34.6,2.2,3.3,2.56,0.5964784002933893,-0.023925239127857836,0.7876703503005488,0.007698421075603108,-0.104563,-31.99501
11.185,2.0,1.0,1.0,34.2,34.6,34.6,2.2,3.3,2.5625,0.5892046213512929,-0.02442763078528119,0.792894661911236,0.007602099205112529,-0.106196,-31.840896
11.185,2.0,1.0,1.0,34.2,34.6,34.6,2.2,3.3,2.565,0.5818307885526672,-0.024941708351334413,0.7980853641878689,0.007498586633433126,-0.107873,-31.685669
11.185,2.0,1.0,1.0,34.2,34.6,34.6,2.2,3.3,2.5675,0.5743555714516881,-0.025467814798998494,0.8032410829224416,0.007387535248799034,-0.109595,-31.529302
11.185,2.0,1.0,1.0,34.2,34.6,34.6,2.2,3.3,2.57,0.5667776150387415,-0.026006305764496453,0.8083603940715186,0.007268578396098121,-0.111364,-31.371771
11.185,2.0,1.0,1.0,34.2,34.6,34.6,2.2,3.3,2.5725,0.5590955391862059,-0.026557550106624056,0.8134418216178537,0.007141329727933841,-0.113183,-31.213047
11.185,2.0,1.0,1.0,34.2,34.6,34.6,2.2,3.3,2.575,0.5513079380765372,-0.027121930493977816,0.8184838353163849,0.007005381972842862,-0.115052,-31.053105
11.185,2.0,1.0,1.0,34.2,34.6,34.6,2.2,3.3,2.5775,0.5434133796118872,-0.027699844021507214,0.8234848483165419,0.0068603056137954786,-0.116973,-30.891915
11.185,2.0,1.0,1.0,34.2,34.6,34.6,2.2,3.3,2.58,0.5354104048044678,-0.028291702857878746,0.8284432146521133,0.006705647469454152,-0.11895,-30.729449
11.185,2.0,1.0,1.0,34.2,34.6,34.6,2.2,3.3,2.5825,0.5272975271468335,-0.0288979349251944,0.8333572265891328,0.006540929169953722,-0.120984,-30.565676
11.185,2.0,1.0,1.0,34.2,34.6,34.6,2.2,3.3,2.585,0.5190732319612725,-0.02951898461265649,0.8382251118214067,0.006365645518172059,-0.123077,-30.400566
11.185,2.0,1.0,1.0,34.2,34.6,34.6,2.2,3.3,2.5875,0.5107359757274438,-0.030155313525823835,0.8430450305023678,0.0061792627265846636,-0.125232,-30.234088
11.185,2.0,1.0,1.0,34.2,34.6,34.6,2.2,3.3,2.59,0.5022841853874485,-0.030807401273139388,0.8478150721009026,0.005981216518823439,-0.127451,-30.066207
11.185,2.0,1.0,1.0,34.2,34.6,34.6,2.2,3.3,2.5925,0.49371625762747806,-0.031475746291448704,0.852533252067646,0.0057709100839815446,-0.129737,-29.89689
11.185,2.0,1.0,1.0,34.2,34.6,34.6,2.2,3.3,2.595,0.4850305581352563,-0.032160866712245564,0.8571975082969714,0.0055477118705060365,-0.132094,-29.726102
11.185,2.0,1.0,1.0,34.2,34.6,34.6,2.2,3.3,2.5975,0.4762254208324866,-0.0328633012703919,0.8618056973685067,0.0053109532051892425,-0.134523,-29.553808
11.185,2.0,1.0,1.0,34.2,34.6,34.6,2.2,3.3,2.6,0.46729914708159503,-0.03358361025704854,0.866355590550412,0.005059925721282027,-0.137029,-29.379968
11.185,2.0,1.0,1.0,34.2,34.6,34.6,2.2,3.3,2.6025,0.45825000486616285,-0.034322376518516426,0.8708448695449407,0.0047938785781020815,-0.139614,-29.204545
11.185,2.0,1.0,1.0,34.2,34.6,34.6,2.2,3.3,2.605,0.44907622794450575,-0.03508020650263164,0.8752711219548502,0.004512015452660958,-0.142283,-29.027499
11.185,2.0,1.0,1.0,34.2,34.6,34.6,2.2,3.3,2.6075,0.4397760149760651,-0.035857731354253644,0.8796318364470781,0.004213491281775111,-0.145039,-28.848788
11.185,2.0,1.0,1.0,34.2,34.6,34.6,2.2,3.3,2.61,0.4303475286204489,-0.03665560806124699,0.8839243975876718,0.0038974087308200032,-0.147886,-28.66837
11.185,2.0,1.0,1.0,34.2,34.6,34.6,2.2,3.3,2.6125,0.42078889460921404,-0.03747452065216072,0.8881460803192834,0.0035628143627047353,-0.150828,-28.486199
11.185,2.0,1.0,1.0,34.2,34.6,34.6,2.2,3.3,2.615,0.41109820079082204,-0.03831518144654423,0.8922940440495143,0.003208694477754955,-0.15387,-28.302231
11.185,2.0,1.0,1.0,34.2,34.6,34.6,2.2,3.3,2.6175,0.40127349614960867,-0.03917833235849205,0.8963653263150093,0.0028339705919441503,-0.157017,-28.116416
11.185,2.0,1.0,1.0,34.2,34.6,34.6,2.2,3.3,2.62,0.3913127898001298,-0.040064746253566985,0.9003568359824261,0.0024374945172680814,-0.160274,-27.928707
11.185,2.0,1.0,1.0,34.2,34.6,34.6,2.2,3.3,2.6225,0.38121404995885766,-0.040975228358679054,0.9042653459431365,0.002018043003956615,-0.163647,-27.739051
11.185,2.0,1.0,1.0,34.2,34.6,34.6,2.2,3.3,2.625,0.370975202896062,-0.0419106177237827,0.908087485253726,0.00157431189959634,-0.167141,-27.547395
11.185,2.0,1.0,1.0,34.2,34.6,34.6,2.2,3.3,2.6275,0.36059413187160727,-0.04287178873335223,0.9118197306689858,0.0011049097750315724,-0.170763,-27.353684
11.185,2.0,1.0,1.0,34.2,34.6,34.6,2.2,3.3,2.63,0.3500686760596762,-0.04385965266447814,0.9154583975079874,0.0006083509610280458,-0.174519,-27.157861
11.185,2.0,1.0,1.0,34.2,34.6,34.6,2.2,3.3,2.6325,0.3393966294688694,-0.04487515928703327,0.9189996297869848,8.304793303826105e-05,-0.178417,-26.959865
11.185,2.0,1.0,1.0,34.2,34.6,34.6,2.2,3.3,2.635,0.3285757398659609,-0.04591929849964149,0.9224393895451202,-0.00047269702611809093,-0.182464,-26.759635
11.185,2.0,1.0,1.0,34.2,34.6,34.6,2.2,3.3,2.6375,0.3176037077138098,-0.04699310199306387,0.9257734452801268,-0.00106070096437477,-0.186669,-26.557106
11.185,2.0,1.0,1.0,34.2,34.6,34.6,2.2,3.3,2.64,0.3064781851366129,-0.04809764493001664,0.9289973594012575,-0.001682910287732729,-0.19104,-26.35221
11.185,2.0,1.0,1.0,34.2,34.6,34.6,2.2,3.3,2.6425,0.295196774929033,-0.04923404762723926,0.9321064745953754,-0.002341411776160848,-0.195586,-26.144878
11.185,2.0,1.0,1.0,34.2,34.6,34.6,2.2,3.3,2.645,0.28375702962973365,-0.05040347722171892,0.9350958989892644,-0.0030384446999886534,-0.200319,-25.935036
11.185,2.0,1.0,1.0,34.2,34.6,34.6,2.2,3.3,2.6475,0.2721564506848054,-0.05160714929818235,0.9379604899766119,-0.003776414162956219,-0.205249,-25.722609
11.185,2.0,1.0,1.0,34.2,34.6,34.6,2.2,3.3,2.65,0.2603924877325319,-0.052846329449105424,0.940694836561427,-0.004557905814353937,-0.210388,-25.507517
11.185,2.0,1.0,1.0,34.2,34.6,34.6,2.2,3.3,2.6525,0.24846253804834756,-0.05412233473130691,0.9432932400506142,-0.005385702091263004,-0.215749,-25.289676
11.185,2.0,1.0,1.0,34.2,34.6,34.6,2.2,3.3,2.655,0.2363639461976781,-0.05543653497441972,0.9457496929066871,-0.006262800173165589,-0.221345,-25.069001
11.185,2.0,1.0,1.0,34.2,34.6,34.6,2.2,3.3,2.6575,0.22409400395537218,-0.056790353885784316,0.9480578555466904,-0.007192431855533831,-0.227192,-24.845401
11.185,2.0,1.0,1.0,34.2,34.6,34.6,2.2,3.3,2.66,0.21164995056371866,-0.05818526988315317,0.950211030844872,-0.008178085576918683,-0.233306,-24.61878
11.185,2.0,1.0,1.0,34.2,34.6,34.6,2.2,3.3,2.6625,0.1990289734174245,-0.059622816570476876,0.9522021360639144,-0.009223530866107624,-0.239705,-24.389041
11.185,2.0,1.0,1.0,34.2,34.6,34.6,2.2,3.3,2.665,0.18622820928386052,-0.06110458275228464,0.9540236719019346,-0.010332845512758383,-0.246408,-24.15608
11.185,2.0,1.0,1.0,34.2,34.6,34.6,2.2,3.3,2.6675,0.17324474619149455,-0.06263221185790598,0.9556676882991968,-0.011510445807299131,-0.253435,-23.919787
11.185,2.0,1.0,1.0,34.2,34.6,34.6,2.2,3.3,2.67,0.16007562614943668,-0.0642074006169786,0.9571257465987223,-0.012761120244718706,-0.26081,-23.680049
11.185,2.0,1.0,1.0,34.2,34.6,34.6,2.2,3.3,2.6725,0.14671784889809997,-0.06583189679101051,0.9583888775975684,-0.0140900671431683,-0.268558,-23.436748
11.185,2.0,1.0,1.0,34.2,34.6,34.6,2.2,3.3,2.675,0.13316837693653447,-0.06750749572056149,0.9594475349593937,-0.015502936693260121,-0.276706,-23.189757
11.185,2.0,1.0,1.0,34.2,34.6,34.6,2.2,3.3,2.6775,0.11942414212819873,-0.06923603539183885,0.9602915433825201,-0.01700587802897636,-0.285284,-22.938945
11.185,2.0,1.0,1.0,34.2,34.6,34.6,2.2,3.3,2.68,0.10548205425640839,-0.07101938965753193,0.9609100408294852,-0.018605591997769826,-0.294325,-22.684175
11.185,2.0,1.0,1.0,34.2,34.6,34.6,2.2,3.3,2.6825,0.0913390119867148,-0.07285945916130239,0.9612914140221579,-0.020309390407606022,-0.303866,-22.425302
11.185,2.0,1.0,1.0,34.2,34.6,34.6,2.2,3.3,2.685,0.07699191680012436,-0.07475815940935006,0.9614232262887401,-0.022125262644450604,-0.313945,-22.162172
11.185,2.0,1.0,1.0,34.2,34.6,34.6,2.2,3.3,2.6875,0.0624376905937296,-0.0767174053006732,0.961292136713003,-0.0240619506874292,-0.324609,-21.894625
11.185,2.0,1.0,1.0,34.2,34.6,34.6,2.2,3.3,2.69,0.04767329781055418,-0.07873909126338936,0.9608838093791449,-0.026129033703232465,-0.335905,-21.622493
11.185,2.0,1.0,1.0,34.2,34.6,34.6,2.2,3.3,2.6925,0.03269577316669832,-0.08082506593935694,0.9601828113248241,-0.028337023579266075,-0.347889,-21.345597
11.185,2.0,1.0,1.0,34.2,34.6,34.6,2.2,3.3,2.695,0.017502256302192102,-0.08297710010254197,0.9591724976068312,-0.030697472959678722,-0.36062,-21.06375
11.185,2.0,1.0,1.0,34.2,34.6,34.6,2.2,3.3,2.6975,0.0020900350058387232,-0.08519684617438039,0.9578348816453865,-0.03322309758308251,-0.374166,-20.776755
11.185,2.0,1.0,1.0,34.2,34.6,34.6,2.2,3.3,2.7,-0.013543400928084483,-0.08748578729409498,0.9561504887405877,-0.03592791498868836,-0.388604,-20.484401
11.185,2.0,1.0,1.0,34.2,34.6,34.6,2.2,3.3,2.7025,-0.029400292639729073,-0.08984517339091543,0.9540981903453873,-0.03882740196163077,-0.404017,-20.186471
11.185,2.0,1.0,1.0,34.2,34.6,34.6,2.2,3.3,2.705,-0.04548252871921017,-0.09227594105918269,0.9516550163314117,-0.041938673430372955,-0.4205,-19.882731
11.185,2.0,1.0,1.0,34.2,34.6,34.6,2.2,3.3,2.7075,-0.06179154125394938,-0.09477861321876155,0.9487959420966104,-0.045280685909542845,-0.438162,-19.572935
11.185,2.0,1.0,1.0,34.2,34.6,34.6,2.2,3.3,2.71,-0.0783281763186579,-0.09735317350334201,0.9454936469398803,-0.04887446899749862,-0.457124,-19.256827
11.185,2.0,1.0,1.0,34.2,34.6,34.6,2.2,3.3,2.7125,-0.09509253248776323,-0.09999890899512529,0.9417182396750958,-0.05274338888150392,-0.477522,-18.934132
11.185,2.0,1.0,1.0,34.2,34.6,34.6,2.2,3.3,2.715,-0.11208375925115625,-0.10271421323448383,0.937436946991402,-0.05691344825843687,-0.499513,-18.604562
11.185,2.0,1.0,1.0,34.2,34.6,34.6,2.2,3.3,2.7175,-0.12929980504125388,-0.10549633927182694,0.9326137596172225,-0.06141362751632383,-0.523277,-18.267813
11.185,2.0,1.0,1.0,34.2,34.6,34.6,2.2,3.3,2.72,-0.14673710179479169,-0.10834108975936096,0.9272090309614479,-0.06627627239215284,-0.549017,-17.923566
11.185,2.0,1.0,1.0,34.2,34.6,34.6,2.2,3.3,2.7225,-0.1643901693989468,-0.11124242752609809,0.9211790226676555,-0.07153753354347663,-0.576968,-17.571482
11.185,2.0,1.0,1.0,34.2,34.6,34.6,2.2,3.3,2.725,-0.18225111877923245,-0.11419198551295476,0.9144753915549744,-0.0772378634161046,-0.6074,-17.211208
11.185,2.0,1.0,1.0,34.2,34.6,34.6,2.2,3.3,2.7275,-0.20030902648365498,-0.11717844907526218,0.9070446129351174,-0.08342257525523002,-0.640629,-16.842371
11.185,2.0,1.0,1.0,34.2,34.6,34.6,2.2,3.3,2.73,-0.21854914603188375,-0.12018677611857985,0.8988273366038488,-0.09014246777846496,-0.677017,-16.464583
11.185,2.0,1.0,1.0,34.2,34.6,34.6,2.2,3.3,2.7325,-0.23695191156573173,-0.12319721085949217,0.8897576743902943,-0.09745451642392282,-0.716989,-16.07744
11.185,2.0,1.0,1.0,34.2,34.6,34.6,2.2,3.3,2.735,-0.25549167688937746,-0.1261840346324081,0.8797624227481169,-0.10542262746788558,-0.761046,-15.680521
11.185,2.0,1.0,1.0,34.2,34.6,34.6,2.2,3.3,2.7375,-0.27413511715368644,-0.12911398143129724,0.8687602316097893,-0.11411844355710013,-0.809772,-15.273395
11.185,2.0,1.0,1.0,34.2,34.6,34.6,2.2,3.3,2.74,-0.2928392004720605,-0.13194422604315223,0.856660743291878,-0.12362217663385452,-0.863862,-14.855622
11.185,2.0,1.0,1.0,34.2,34.6,34.6,2.2,3.3,2.7425,-0.31154861191718264,-0.1346198279692566,0.8433637451744526,-0.1340234243190057,-0.92414,-14.42676
11.185,2.0,1.0,1.0,34.2,34.6,34.6,2.2,3.3,2.745,-0.33019248210007235,-0.13707048431429916,0.8287584109622818,-0.14542189479499076,-0.991592,-13.986371
11.185,2.0,1.0,1.0,34.2,34.6,34.6,2.2,3.3,2.7475,-0.34868023693153727,-0.13920640952181126,0.8127227531439298,-0.15792791755019048,-1.067398,-13.534037
11.185,2.0,1.0,1.0,34.2,34.6,34.6,2.2,3.3,2.75,-0.366896345627199,-0.140913120676068,0.795123481903123,-0.171662544944166,-1.152985,-13.06937
11.185,2.0,1.0,1.0,34.2,34.6,34.6,2.2,3.3,2.7525,-0.3846937047329226,-0.14204486827530458,0.7758165747561542,-0.18675694094514753,-1.250079,-12.59204
11.185,2.0,1.0,1.0,34.2,34.6,34.6,2.2,3.3,2.755,-0.40188536642000205,-0.14241642340366742,0.7546490225462751,-0.20335059271989372,-1.360785,-12.101803
11.185,2.0,1.0,1.0,34.2,34.6,34.6,2.2,3.3,2.7575,-0.41823431872070826,-0.1417929322389965,0.7314624520806515,-0.22158764720987859,-1.487678,-11.598542
11.185,2.0,1.0,1.0,34.2,34.6,34.6,2.2,3.3,2.76,-0.43344108989468205,-0.13987761386546926,0.7060996588072143,-0.24161034345580826,-1.633924,-11.082323
11.185,2.0,1.0,1.0,34.2,34.6,34.6,2.2,3.3,2.7625,-0.4471291432670219,-0.13629727169182723,0.6784155393434426,-0.2635480576644497,-1.803428,-10.55347
11.185,2.0,1.0,1.0,34.2,34.6,34.6,2.2,3.3,2.765,-0.458828462039578,-0.13058602128336078,0.6482945049859234,-0.2874998905674839,-2.001019,-10.012661
11.185,2.0,1.0,1.0,34.2,34.6,34.6,2.2,3.3,2.7675,-0.46795857012636244,-0.12216848155149967,0.6156771517750079,-0.3135080375387451,-2.232672,-9.461059
11.185,2.0,1.0,1.0,34.2,34.6,34.6,2.2,3.3,2.77,-0.473813749809416,-0.11034518524491234,0.5805996233566817,-0.3415185280647682,-2.505765,-8.900472
11.185,2.0,1.0,1.0,34.2,34.6,34.6,2.2,3.3,2.7725,-0.4755557202053904,-0.09428545638794682,0.5432493753131633,-0.3713256560053391,-2.829347,-8.333553
11.185,2.0,1.0,1.0,34.2,34.6,34.6,2.2,3.3,2.775,-0.47222281148914025,-0.07303675286769676,0.5040401869091665,-0.40249728957559816,-3.214353,-7.764043
11.185,2.0,1.0,1.0,34.2,34.6,34.6,2.2,3.3,2.7775,-0.46276963218497513,-0.045564402568718916,0.4637059274713405,-0.43428158424453656,-3.673616,-7.197026
11.185,2.0,1.0,1.0,34.2,34.6,34.6,2.2,3.3,2.78,-0.4461562620919858,-0.010840653467420363,0.4234047876344506,-0.4655033926356686,-4.221326,-6.639188
11.185,2.0,1.0,1.0,34.2,34.6,34.6,2.2,3.3,2.7825,-0.4215078222111569,0.03199626623197885,0.3848113968870621,-0.49447288871163897,-4.871174,-6.099004
11.185,2.0,1.0,1.0,34.2,34.6,34.6,2.2,3.3,2.785,-0.3883573197710565,0.08340034602598251,0.35015347123173896,-0.5189495802191375,-5.631556,-5.586753
11.185,2.0,1.0,1.0,34.2,34.6,34.6,2.2,3.3,2.7875,-0.3469579056652725,0.14310719720927728,0.3221286748635539,-0.5362256761330071,-6.494677,-5.114244
11.185,2.0,1.0,1.0,34.2,34.6,34.6,2.2,3.3,2.79,-0.2985998206097925,0.2098192317441069,0.30363367499698335,-0.5433963399681545,-7.414698,-4.694114
11.185,2.0,1.0,1.0,34.2,34.6,34.6,2.2,3.3,2.7925,-0.24580464063802024,0.28101344595136163,0.297277611779203,-0.5378441635136003,-8.274149,-4.338633
11.185,2.0,1.0,1.0,34.2,34.6,34.6,2.2,3.3,2.795,-0.1922378906135096,0.35302978576244076,0.3047522223006611,-0.5178655932364589,-8.866272,-4.058122
11.185,2.0,1.0,1.0,34.2,34.6,34.6,2.2,3.3,2.7975,-0.14224070711978384,0.42153844348096015,0.3262586316674743,-0.4832400376985319,-8.973018,-3.859304
11.185,2.0,1.0,1.0,34.2,34.6,34.6,2.2,3.3,2.8,-0.10004960316706644,0.48231674431054616,0.3602523734911933,-0.43548154012977525,-8.545186,-3.744061
11.185,2.0,1.0,1.0,34.2,34.6,34.6,2.2,3.3,2.8025,-0.06896426716827977,0.5320765685578248,0.4036719945323119,-0.37760909073789445,-7.754484,-3.709024
11.185,2.0,1.0,1.0,34.2,34.6,34.6,2.2,3.3,2.805,-0.050785165333933104,0.5690222689085185,0.45258731229271404,-0.3134999586254083,-6.831611,-3.74617
11.185,2.0,1.0,1.0,34.2,34.6,34.6,2.2,3.3,2.8075,-0.04570681746053019,0.5929547565025296,0.5029997335465283,-0.24709275810054945,-5.932932,-3.84418
11.185,2.0,1.0,1.0,34.2,34.6,34.6,2.2,3.3,2.81,-0.05262066648418442,0.6049683096875138,0.5514963017790951,-0.18173700146981836,-5.129789,-3.990108
11.185,2.0,1.0,1.0,34.2,34.6,34.6,2.2,3.3,2.8125,-0.0696233501378524,0.606943673022534,0.595593699955004,-0.119851618492353,-4.442054,-4.170904
11.185,2.0,1.0,1.0,34.2,34.6,34.6,2.2,3.3,2.815,-0.094516873170113,0.6010498702969734,0.6337800236061338,-0.06288415520840814,-3.865699,-4.37451
11.185,2.0,1.0,1.0,34.2,34.6,34.6,2.2,3.3,2.8175,-0.125175460801632,0.589379067807669,0.6653623957551862,-0.011462808780456852,-3.387781,-4.590463
11.185,2.0,1.0,1.0,34.2,34.6,34.6,2.2,3.3,2.82,-0.1597516006241824,0.5737415476800964,0.6902398583537862,0.03437762289102479,-2.993381,-4.81011
11.185,2.0,1.0,1.0,34.2,34.6,34.6,2.2,3.3,2.8225,-0.19675217762531494,0.5555898239669426,0.7086836341401588,0.07497750405885788,-2.668478,-5.026533
11.185,2.0,1.0,1.0,34.2,34.6,34.6,2.2,3.3,2.825,-0.23503259945612534,0.5360241232935956,0.7211628402154997,0.11087962811686879,-2.400934,-5.234348
11.185,2.0,1.0,1.0,34.2,34.6,34.6,2.2,3.3,2.8275,-0.2737501828637669,0.5158381105021378,0.7282231271330816,0.14270933919635415,-2.180666,-5.429437
11.185,2.0,1.0,1.0,34.2,34.6,34.6,2.2,3.3,2.83,-0.312304222307613,0.49557754816964855,0.7304106787948266,0.17109992708480976,-1.999475,-5.60869
