1,w,sub_t,h,l1,l2,l3,g1,g2,Freq,S11_re,S21_re,S11_img,S21_img,S11_dB,S21_dB
11.185,2.0,1.0,1.0,34.4,34.7,34.7,1.7,2.4,2.5,0.70232804884047,-0.0259724900787753,0.69687775652956,0.0156234528890688,-0.092602,-30.36844
11.185,2.0,1.0,1.0,34.4,34.7,34.7,1.7,2.4,2.5025,0.6962464399925975,-0.026542033519250607,0.70273558830335,0.015640564795399117,-0.093964,-30.226849
11.185,2.0,1.0,1.0,34.4,34.7,34.7,1.7,2.4,2.505,0.6900743612338087,-0.027124522350704183,0.7085755813514385,0.01565279047152685,-0.095359,-30.084419
11.185,2.0,1.0,1.0,34.4,34.7,34.7,1.7,2.4,2.5075,0.6838106107530666,-0.027720307539430413,0.7143967979403838,0.015659868802516318,-0.09679,-29.941133
11.185,2.0,1.0,1.0,34.4,34.7,34.7,1.7,2.4,2.51,0.6774539638730543,-0.02832975151933806,0.7201982665115183,0.015661525384470493,-0.098257,-29.796975
11.185,2.0,1.0,1.0,34.4,34.7,34.7,1.7,2.4,2.5125,0.6710031725410177,-0.02895322862444538,0.7259789802974895,0.01565747178009052,-0.099762,-29.651928
11.185,2.0,1.0,1.0,34.4,34.7,34.7,1.7,2.4,2.515,0.6644569648064361,-0.029591125539182236,0.7317378958715388,0.015647404727235557,-0.101306,-29.505974
11.185,2.0,1.0,1.0,34.4,34.7,34.7,1.7,2.4,2.5175,0.6578140442852153,-0.030243841767214254,0.7374739316254874,0.015631005297135132,-0.10289,-29.359097
11.185,2.0,1.0,1.0,34.4,34.7,34.7,1.7,2.4,2.52,0.6510730896100523,-0.030911790119528413,0.7431859661721466,0.015607937998639396,-0.104516,-29.211278
11.185,2.0,1.0,1.0,34.4,34.7,34.7,1.7,2.4,2.5225,0.6442327538666652,-0.03159539722252867,0.748872836667504,0.015577849824601555,-0.106186,-29.062497
11.185,2.0,1.0,1.0,34.4,34.7,34.7,1.7,2.4,2.525,0.6372916640155648,-0.032295104046911806,0.7545333370477508,0.015540369236169957,-0.1079,-28.912737
11.185,2.0,1.0,1.0,34.4,34.7,34.7,1.7,2.4,2.5275,0.6302484202990672,-0.033011366458100294,0.7601662161758069,0.015495105080422053,-0.109661,-28.761978
11.185,2.0,1.0,1.0,34.4,34.7,34.7,1.7,2.4,2.53,0.6231015956332753,-0.03374465578901805,0.7657701758916063,0.015441645436395512,-0.111471,-28.610199
11.185,2.0,1.0,1.0,34.4,34.7,34.7,1.7,2.4,2.5325,0.6158497349847741,-0.034495459435999944,0.7713438689599748,0.01537955638416087,-0.11333,-28.457381
11.185,2.0,1.0,1.0,34.4,34.7,34.7,1.7,2.4,2.535,0.608491354731797,-0.03526428147862381,0.7768858969094462,0.01530838069113076,-0.115242,-28.303502
11.185,2.0,1.0,1.0,34.4,34.7,34.7,1.7,2.4,2.5375,0.6010249420097106,-0.03605164332424429,0.7823948077548403,0.015227636409309972,-0.117209,-28.148541
11.185,2.0,1.0,1.0,34.4,34.7,34.7,1.7,2.4,2.54,0.5934489540406479,-0.03685808437799587,0.7878690935958677,0.015136815376653753,-0.119232,-27.992475
11.185,2.0,1.0,1.0,34.4,34.7,34.7,1.7,2.4,2.5425,0.5857618174472302,-0.037684162739004656,0.793307188083397,0.015035381615114014,-0.121313,-27.835283
11.185,2.0,1.0,1.0,34.4,34.7,34.7,1.7,2.4,2.545,0.5779619275503688,-0.038530455923515415,0.7987074637443509,0.014922769617309328,-0.123455,-27.67694
11.185,2.0,1.0,1.0,34.4,34.7,34.7,1.7,2.4,2.5475,0.5700476476512297,-0.039397561615588855,0.8040682291554414,0.01479838251304973,-0.125661,-27.517422
11.185,2.0,1.0,1.0,34.4,34.7,34.7,1.7,2.4,2.55,0.5620173082975284,-0.040286098445965646,0.809387725955172,0.014661590106172073,-0.127933,-27.356706
11.185,2.0,1.0,1.0,34.4,34.7,34.7,1.7,2.4,2.5525,0.5538692065345003,-0.04119670679960329,0.8146641256826074,0.014511726771294102,-0.130274,-27.194765
11.185,2.0,1.0,1.0,34.4,34.7,34.7,1.7,2.4,2.555,0.5456016051409699,-0.04213004965229672,0.8198955264304808,0.014348089199160207,-0.132687,-27.031575
11.185,2.0,1.0,1.0,34.4,34.7,34.7,1.7,2.4,2.5575,0.5372127318511655,-0.043086813436657934,0.8250799492991091,0.014169933978227698,-0.135174,-26.867107
11.185,2.0,1.0,1.0,34.4,34.7,34.7,1.7,2.4,2.56,0.5287007785631341,-0.04406770893757213,0.8302153346364257,0.013976474999012426,-0.137739,-26.701335
11.185,2.0,1.0,1.0,34.4,34.7,34.7,1.7,2.4,2.5625,0.5200639005348359,-0.04507347221705273,0.8352995380481533,0.013766880666471049,-0.140386,-26.534231
11.185,2.0,1.0,1.0,34.4,34.7,34.7,1.7,2.4,2.565,0.5113002155692942,-0.046104865568181295,0.8403303261607209,0.013540270904326943,-0.143118,-26.365765
11.185,2.0,1.0,1.0,34.4,34.7,34.7,1.7,2.4,2.5675,0.5024078031905528,-0.04716267849752874,0.8453053721179625,0.01329571393373891,-0.145938,-26.195908
11.185,2.0,1.0,1.0,34.4,34.7,34.7,1.7,2.4,2.57,0.4933847038125512,-0.04824772873511498,0.8502222507909257,0.013032222807043458,-0.148852,-26.024628
11.185,2.0,1.0,1.0,34.4,34.7,34.7,1.7,2.4,2.5725,0.4842289179035235,-0.04936086327054745,0.8550784336782166,0.012748751675463736,-0.151862,-25.851895
11.185,2.0,1.0,1.0,34.4,34.7,34.7,1.7,2.4,2.575,0.4749384051491062,-0.050502959413490346,0.8598712834722144,0.012444191767643631,-0.154974,-25.677674
11.185,2.0,1.0,1.0,34.4,34.7,34.7,1.7,2.4,2.5775,0.4655110836179584,-0.05167492587602735,0.8645980482641802,0.012117367053617939,-0.158192,-25.501933
11.185,2.0,1.0,1.0,34.4,34.7,34.7,1.7,2.4,2.58,0.45594482893451005,-0.05287770387378787,0.869255855358727,0.011767029566337914,-0.161521,-25.324637
11.185,2.0,1.0,1.0,34.4,34.7,34.7,1.7,2.4,2.5825,0.44623747346430925,-0.05411226824187983,0.8738417046652925,0.011391854350117239,-0.164968,-25.14575
11.185,2.0,1.0,1.0,34.4,34.7,34.7,1.7,2.4,2.585,0.4363868055185567,-0.05537962856069445,0.8783524616311245,0.010990434002303325,-0.168536,-24.965235
11.185,2.0,1.0,1.0,34.4,34.7,34.7,1.7,2.4,2.5875,0.426390568585603,-0.056680830285493755,0.8827848496768194,0.010561272771090728,-0.172233,-24.783054
11.185,2.0,1.0,1.0,34.4,34.7,34.7,1.7,2.4,2.59,0.41624646059868864,-0.0580169558723235,0.8871354420915977,0.010102780168626254,-0.176065,-24.599167
11.185,2.0,1.0,1.0,34.4,34.7,34.7,1.7,2.4,2.5925,0.40595213325088936,-0.05938912589118382,0.8914006533412471,0.009613264054373474,-0.180038,-24.413534
11.185,2.0,1.0,1.0,34.4,34.7,34.7,1.7,2.4,2.595,0.39550519137025786,-0.06079850011548078,0.8955767297368897,0.00909092313905517,-0.18416,-24.226113
11.185,2.0,1.0,1.0,34.4,34.7,34.7,1.7,2.4,2.5975,0.38490319237048354,-0.06224627857454258,0.8996597394074803,0.008533838854315114,-0.188439,-24.03686
11.185,2.0,1.0,1.0,34.4,34.7,34.7,1.7,2.4,2.6,0.3741436457951765,-0.06373370255332741,0.9036455615130571,0.007939966527484014,-0.192883,-23.845731
11.185,2.0,1.0,1.0,34.4,34.7,34.7,1.7,2.4,2.6025,0.36322401297715173,-0.06526205552032559,0.9075298746292298,0.007307125794415456,-0.197501,-23.652679
11.185,2.0,1.0,1.0,34.4,34.7,34.7,1.7,2.4,2.605,0.35214170683784346,-0.06683266396097291,0.9113081442261229,0.006632990176205672,-0.202303,-23.457655
11.185,2.0,1.0,1.0,34.4,34.7,34.7,1.7,2.4,2.6075,0.3408940918565559,-0.06844689808953709,0.9149756091568619,0.005915075737632768,-0.207298,-23.260611
11.185,2.0,1.0,1.0,34.4,34.7,34.7,1.7,2.4,2.61,0.3294784842444763,-0.07010617240730184,0.9185272670616416,0.005150728736250291,-0.212497,-23.061495
11.185,2.0,1.0,1.0,34.4,34.7,34.7,1.7,2.4,2.6125,0.31789215236462637,-0.0718119460688132,0.9219578585833254,0.0043371121611294125,-0.217913,-22.860254
11.185,2.0,1.0,1.0,34.4,34.7,34.7,1.7,2.4,2.615,0.30613231744626307,-0.07356572301078088,0.9252618502792384,0.0034711910491458412,-0.223557,-22.656831
11.185,2.0,1.0,1.0,34.4,34.7,34.7,1.7,2.4,2.6175,0.2941961546508965,-0.07536905178976125,0.928433416101224,0.0025497164543063764,-0.229444,-22.451172
11.185,2.0,1.0,1.0,34.4,34.7,34.7,1.7,2.4,2.62,0.2820807945572914,-0.07722352506472743,0.9314664173019692,0.0015692079317523302,-0.235586,-22.243215
11.185,2.0,1.0,1.0,34.4,34.7,34.7,1.7,2.4,2.6225,0.2697833251448982,-0.0791307786487763,0.934354380609894,0.0005259343825891582,-0.242002,-22.032899
11.185,2.0,1.0,1.0,34.4,34.7,34.7,1.7,2.4,2.625,0.25730079436946,-0.0810924900401634,0.937090474497318,-0.000584106911612675,-0.248706,-21.820162
11.185,2.0,1.0,1.0,34.4,34.7,34.7,1.7,2.4,2.6275,0.24463021344139532,-0.08311037632621088,0.9396674833470289,-0.001765213255146932,-0.255717,-21.604936
11.185,2.0,1.0,1.0,34.4,34.7,34.7,1.7,2.4,2.63,0.23176856093766116,-0.08518619133384825,0.9420777793004491,-0.003022001717428672,-0.263055,-21.387154
11.185,2.0,1.0,1.0,34.4,34.7,34.7,1.7,2.4,2.6325,0.21871278790152968,-0.0873217218770684,0.9443132915461363,-0.004359436761399208,-0.270742,-21.166743
11.185,2.0,1.0,1.0,34.4,34.7,34.7,1.7,2.4,2.635,0.205459824113005,-0.08951878292364233,0.9463654727800973,-0.005782860584198724,-0.278799,-20.943631
11.185,2.0,1.0,1.0,34.4,34.7,34.7,1.7,2.4,2.6375,0.1920065857462144,-0.09177921147018567,0.9482252625389886,-0.007298026463201352,-0.287252,-20.71774
11.185,2.0,1.0,1.0,34.4,34.7,34.7,1.7,2.4,2.64,0.17834998467008473,-0.09410485887504273,0.9498830470734637,-0.008911135433857891,-0.296129,-20.48899
11.185,2.0,1.0,1.0,34.4,34.7,34.7,1.7,2.4,2.6425,0.16448693969642314,-0.09649758135115966,0.9513286153914069,-0.01062887666281175,-0.305458,-20.257299
11.185,2.0,1.0,1.0,34.4,34.7,34.7,1.7,2.4,2.645,0.1504143901364379,-0.0989592282646357,0.9525511110591875,-0.012458471920760487,-0.315273,-20.02258
11.185,2.0,1.0,1.0,34.4,34.7,34.7,1.7,2.4,2.6475,0.1361293120948901,-0.10149162781707831,0.9535389793031969,-0.014407724604791903,-0.325607,-19.784744
11.185,2.0,1.0,1.0,34.4,34.7,34.7,1.7,2.4,2.65,0.12162873801254961,-0.10409656960899251,0.9542799089034463,-0.01648507380967018,-0.3365,-19.543699
11.185,2.0,1.0,1.0,34.4,34.7,34.7,1.7,2.4,2.6525,0.10690978006543092,-0.10677578348442748,0.9547607683158339,-0.018699654001910985,-0.347993,-19.299346
11.185,2.0,1.0,1.0,34.4,34.7,34.7,1.7,2.4,2.655,0.09196965814641572,-0.10953091394069685,0.9549675353997711,-0.021061360909517247,-0.360133,-19.051586
11.185,2.0,1.0,1.0,34.4,34.7,34.7,1.7,2.4,2.6575,0.07680573329583898,-0.11236348924705004,0.9548852200633726,-0.02358092430370121,-0.372969,-18.800314
11.185,2.0,1.0,1.0,34.4,34.7,34.7,1.7,2.4,2.66,0.06141554761700688,-0.11527488424783157,0.954497779069858,-0.026269988416346673,-0.386559,-18.545422
11.185,2.0,1.0,1.0,34.4,34.7,34.7,1.7,2.4,2.6625,0.04579687191672876,-0.1182662756228751,0.9537880221770986,-0.029141200807389932,-0.400962,-18.286796
11.185,2.0,1.0,1.0,34.4,34.7,34.7,1.7,2.4,2.665,0.029947762556914975,-0.12133858813337489,0.9527375087089637,-0.032208310568168766,-0.416246,-18.02432
11.185,2.0,1.0,1.0,34.4,34.7,34.7,1.7,2.4,2.6675,0.01386662930025494,-0.1244924300863468,0.9513264335846731,-0.03548627681759375,-0.432486,-17.757871
11.185,2.0,1.0,1.0,34.4,34.7,34.7,1.7,2.4,2.67,-0.0024476837084469838,-0.12772801589432067,0.949533501764561,-0.038991388514043185,-0.449765,-17.487324
11.185,2.0,1.0,1.0,34.4,34.7,34.7,1.7,2.4,2.6725,-0.01899580125025453,-0.13104507317597286,0.947335790012862,-0.04274139666163086,-0.468175,-17.212547
11.185,2.0,1.0,1.0,34.4,34.7,34.7,1.7,2.4,2.675,-0.03577770153012949,-0.13444273132224763,0.9447085948384122,-0.04675566002703256,-0.487818,-16.933404
11.185,2.0,1.0,1.0,34.4,34.7,34.7,1.7,2.4,2.6775,-0.05279257813166621,-0.1379193878220613,0.9416252654636269,-0.05105530549109733,-0.508808,-16.649756
11.185,2.0,1.0,1.0,34.4,34.7,34.7,1.7,2.4,2.68,-0.07003867492809442,-0.14147254787903082,0.9380570207068611,-0.055663404122073976,-0.531272,-16.361456
11.185,2.0,1.0,1.0,34.4,34.7,34.7,1.7,2.4,2.6825,-0.0875130885215341,-0.14509863192850198,0.9339727487653874,-0.060605163952217614,-0.555353,-16.068356
11.185,2.0,1.0,1.0,34.4,34.7,34.7,1.7,2.4,2.685,-0.10521153166192675,-0.14879274455014124,0.9293387890867837,-0.06590814023591765,-0.58121,-15.770301
11.185,2.0,1.0,1.0,34.4,34.7,34.7,1.7,2.4,2.6875,-0.12312804974527468,-0.15254839692760744,0.9241186958582142,-0.07160246362258112,-0.609023,-15.467134
11.185,2.0,1.0,1.0,34.4,34.7,34.7,1.7,2.4,2.69,-0.14125468086382104,-0.15635717338974095,0.9182729831847193,-0.07772108613263314,-0.638996,-15.158692
11.185,2.0,1.0,1.0,34.4,34.7,34.7,1.7,2.4,2.6925,-0.15958104792927402,-0.1602083306282002,0.9117588528498575,-0.08430004399975806,-0.671356,-14.844811
11.185,2.0,1.0,1.0,34.4,34.7,34.7,1.7,2.4,2.695,-0.17809386905967162,-0.16408831587106135,0.9045299067648066,-0.09137873522715831,-0.706364,-14.525324
11.185,2.0,1.0,1.0,34.4,34.7,34.7,1.7,2.4,2.6975,-0.19677636965606632,-0.16798018754566363,0.8965358479646717,-0.0990002079512815,-0.744314,-14.200063
11.185,2.0,1.0,1.0,34.4,34.7,34.7,1.7,2.4,2.7,-0.21560757634402525,-0.17186291873560153,0.8877221765056635,-0.1072114532115069,-0.785543,-13.868862
11.185,2.0,1.0,1.0,34.4,34.7,34.7,1.7,2.4,2.7025,-0.23456146917898943,-0.17571055998845725,0.8780298901256547,-0.11606369221781364,-0.830433,-13.531555
11.185,2.0,1.0,1.0,34.4,34.7,34.7,1.7,2.4,2.705,-0.253605964203724,-0.17949123375415713,0.8673952044175364,-0.1256126433280043,-0.879425,-13.187982
11.185,2.0,1.0,1.0,34.4,34.7,34.7,1.7,2.4,2.7075,-0.2727016936473369,-0.18316592797649037,0.855749314011853,-0.13591874721127709,-0.933024,-12.837991
11.185,2.0,1.0,1.0,34.4,34.7,34.7,1.7,2.4,2.71,-0.2918005459131997,-0.18668705126833332,0.8430182255061865,-0.14704731945522395,-0.991812,-12.48144
11.185,2.0,1.0,1.0,34.4,34.7,34.7,1.7,2.4,2.7125,-0.3108439223271005,-0.18999670698498375,0.829122705433531,-0.15906858735263588,-1.05646,-12.118206
11.185,2.0,1.0,1.0,34.4,34.7,34.7,1.7,2.4,2.715,-0.3297606629820325,-0.19302463894563343,0.8139784034727507,-0.1720575507463231,-1.12775,-11.748186
11.185,2.0,1.0,1.0,34.4,34.7,34.7,1.7,2.4,2.7175,-0.34846459091549287,-0.19568579853335305,0.7974962336600856,-0.18609358433338524,-1.206588,-11.37131
11.185,2.0,1.0,1.0,34.4,34.7,34.7,1.7,2.4,2.72,-0.3668516239225558,-0.19787748306102532,0.7795831260931929,-0.20125966921373978,-1.29403,-10.987545
11.185,2.0,1.0,1.0,34.4,34.7,34.7,1.7,2.4,2.7225,-0.38479640913636903,-0.19947600121237438,0.7601433002348994,-0.21764110301895928,-1.391315,-10.596911
11.185,2.0,1.0,1.0,34.4,34.7,34.7,1.7,2.4,2.725,-0.4021484510863122,-0.20033283703309102,0.7390802601108741,-0.23532348900634584,-1.499894,-10.199494
11.185,2.0,1.0,1.0,34.4,34.7,34.7,1.7,2.4,2.7275,-0.4187277352324929,-0.2002703152976711,0.7162997727039476,-0.25438974382183455,-1.621476,-9.795461
11.185,2.0,1.0,1.0,34.4,34.7,34.7,1.7,2.4,2.73,-0.4343199045916539,-0.19907682669959953,0.6917141636850144,-0.2749157912427021,-1.758076,-9.385088
11.185,2.0,1.0,1.0,34.4,34.7,34.7,1.7,2.4,2.7325,-0.44867113900556915,-0.1965017631446176,0.6652483466158214,-0.2969645278040641,-1.912078,-8.968778
11.185,2.0,1.0,1.0,34.4,34.7,34.7,1.7,2.4,2.735,-0.461483030702148,-0.19225045723110115,0.6368480851830908,-0.3205775635418725,-2.086308,-8.547097
11.185,2.0,1.0,1.0,34.4,34.7,34.7,1.7,2.4,2.7375,-0.4724079654557567,-0.18597963504933857,0.6064910563743954,-0.34576417365242745,-2.28412,-8.12081
11.185,2.0,1.0,1.0,34.4,34.7,34.7,1.7,2.4,2.74,-0.48104582666904444,-0.17729419835236357,0.5742013051777032,-0.3724868752362489,-2.509503,-7.690922
11.185,2.0,1.0,1.0,34.4,34.7,34.7,1.7,2.4,2.7425,-0.48694325651310033,-0.1657465671572941,0.5400676068567778,-0.40064311885316306,-2.767194,-7.258726
11.185,2.0,1.0,1.0,34.4,34.7,34.7,1.7,2.4,2.745,-0.4895972338640612,-0.15084033665218727,0.5042660017125519,-0.4300428364936236,-3.062821,-6.825851
11.185,2.0,1.0,1.0,34.4,34.7,34.7,1.7,2.4,2.7475,-0.4884653250335151,-0.13204059453913658,0.4670862288223946,-0.4603821259111596,-3.403044,-6.394323
11.185,2.0,1.0,1.0,34.4,34.7,34.7,1.7,2.4,2.75,-0.482985520391205,-0.108793796745722,0.428960825937387,-0.491214308827055,-3.795699,-5.966605
11.185,2.0,1.0,1.0,34.4,34.7,34.7,1.7,2.4,2.7525,-0.47260886349974895,-0.08056038671149048,0.39049415978548185,-0.5219210988073862,-4.249914,-5.545646
11.185,2.0,1.0,1.0,34.4,34.7,34.7,1.7,2.4,2.755,-0.45684773297902215,-0.04686299105255965,0.3524865705697539,-0.5516886860341377,-4.776123,-5.134894
11.185,2.0,1.0,1.0,34.4,34.7,34.7,1.7,2.4,2.7575,-0.435341128595688,-0.007351512473515765,0.31594634752609696,-0.579495998389447,-5.385855,-4.738292
11.185,2.0,1.0,1.0,34.4,34.7,34.7,1.7,2.4,2.76,-0.40793508854014876,0.03811677991507821,0.28207999528124356,-0.6041246349256972,-6.090999,-4.360215
11.185,2.0,1.0,1.0,34.4,34.7,34.7,1.7,2.4,2.7625,-0.37477114045274856,0.0893892707089462,0.25225034701924204,-0.624200848210113,-6.901918,-4.005349
11.185,2.0,1.0,1.0,34.4,34.7,34.7,1.7,2.4,2.765,-0.33636895394936406,0.14593593754957718,0.22789414098795593,-0.6382778730697203,-7.82306,-3.678506
11.185,2.0,1.0,1.0,34.4,34.7,34.7,1.7,2.4,2.7675,-0.2936829193236526,0.20679341030976955,0.21039722981355696,-0.6449603458514733,-8.843341,-3.384359
11.185,2.0,1.0,1.0,34.4,34.7,34.7,1.7,2.4,2.77,-0.2481094529584103,0.2705582166715902,0.20093695165313855,-0.6430612313695316,-9.916811,-3.127123
11.185,2.0,1.0,1.0,34.4,34.7,34.7,1.7,2.4,2.7725,-0.20142613434548431,0.33544793487191155,0.20031512552104686,-0.631767815288785,-10.931338,-2.91022
11.185,2.0,1.0,1.0,34.4,34.7,34.7,1.7,2.4,2.775,-0.15565728187290404,0.3994354789746562,0.20881639911036567,-0.6107821577844185,-11.685559,-2.735959
11.185,2.0,1.0,1.0,34.4,34.7,34.7,1.7,2.4,2.7775,-0.11288096205305762,0.4604414312092044,0.2261286921510006,-0.5803994871739672,-11.946603,-2.605306
11.185,2.0,1.0,1.0,34.4,34.7,34.7,1.7,2.4,2.78,-0.07501242239990484,0.516549476831874,0.2513511526958017,-0.5414993777352949,-11.623846,-2.517771
11.185,2.0,1.0,1.0,34.4,34.7,34.7,1.7,2.4,2.7825,-0.04360924153572557,0.5661998403222065,0.2830925382675981,-0.495447007653323,-10.859577,-2.471452
11.185,2.0,1.0,1.0,34.4,34.7,34.7,1.7,2.4,2.785,-0.019738319996478654,0.6083208813244724,0.31963790892731786,-0.443926679919662,-9.890305,-2.463211
11.185,2.0,1.0,1.0,34.4,34.7,34.7,1.7,2.4,2.7875,-0.003926052485988626,0.6423777795226022,0.3591446207178913,-0.38874652246782576,-8.894094,-2.488957
11.185,2.0,1.0,1.0,34.4,34.7,34.7,1.7,2.4,2.79,0.0038107839116471223,0.6683409391812436,0.3998261582663753,-0.3316556132672717,-7.962181,-2.543982
11.185,2.0,1.0,1.0,34.4,34.7,34.7,1.7,2.4,2.7925,0.0038747862488439622,0.6865954958625234,0.4400931082532595,-0.27420398118829703,-7.128772,-2.623294
11.185,2.0,1.0,1.0,34.4,34.7,34.7,1.7,2.4,2.795,-0.0030320912436489597,0.697821409340883,0.4786377024578911,-0.21765885709939461,-6.399688,-2.721904
11.185,2.0,1.0,1.0,34.4,34.7,34.7,1.7,2.4,2.7975,-0.016030959824843215,0.7028713531724441,0.5144642130957374,-0.1629747885751748,-5.768682,-2.835051
11.185,2.0,1.0,1.0,34.4,34.7,34.7,1.7,2.4,2.8,-0.034171890928863136,0.7026651779668878,0.5468774515673909,-0.11080535360334902,-5.225276,-2.958356
11.185,2.0,1.0,1.0,34.4,34.7,34.7,1.7,2.4,2.8025,-0.05651414166950205,0.6981099709257187,0.5754449834367233,-0.061540907733825985,-4.758236,-3.087904
11.185,2.0,1.0,1.0,34.4,34.7,34.7,1.7,2.4,2.805,-0.08217945478735168,0.6900468981505067,0.599947239543398,-0.015358257769351295,-4.357008,-3.220277
11.185,2.0,1.0,1.0,34.4,34.7,34.7,1.7,2.4,2.8075,-0.11038197434574103,0.6792212598832651,0.6203259662636786,0.027728108681997408,-4.012221,-3.352543
11.185,2.0,1.0,1.0,34.4,34.7,34.7,1.7,2.4,2.81,-0.1404403183465772,0.6662702156387352,0.6366373793831401,0.06781954444772212,-3.715798,-3.482226
11.185,2.0,1.0,1.0,34.4,34.7,34.7,1.7,2.4,2.8125,-0.171777454083921,0.651722543976599,0.649013035197629,0.105094488784072,-3.46088,-3.607256
11.185,2.0,1.0,1.0,34.4,34.7,34.7,1.7,2.4,2.815,-0.20391314481501355,0.6360056809634467,0.657629141738556,0.1397781371808835,-3.241697,-3.72592
11.185,2.0,1.0,1.0,34.4,34.7,34.7,1.7,2.4,2.8175,-0.23645253813568806,0.6194564754882013,0.6626837103914135,0.1721199225723953,-3.053426,-3.836804
11.185,2.0,1.0,1.0,34.4,34.7,34.7,1.7,2.4,2.82,-0.26907332403563805,0.6023332350016788,0.664380339401341,0.20237759312627754,-2.892045,-3.938745
11.185,2.0,1.0,1.0,34.4,34.7,34.7,1.7,2.4,2.8225,-0.3015129656397592,0.5848275522316831,0.6629172636300458,0.2308065169692571,-2.754216,-4.030788
11.185,2.0,1.0,1.0,34.4,34.7,34.7,1.7,2.4,2.825,-0.3335568306246419,0.5670750703833563,0.658480393704979,0.2576529321779232,-2.637178,-4.11214
11.185,2.0,1.0,1.0,34.4,34.7,34.7,1.7,2.4,2.8275,-0.3650275965876131,0.5491647911683443,0.6512392647127495,0.28315005413298594,-2.53866,-4.182142
11.185,2.0,1.0,1.0,34.4,34.7,34.7,1.7,2.4,2.83,-0.39577601889519026,0.5311468069551323,0.6413450388301478,0.30751617123512953,-2.456806,-4.240238
