1,w,sub_t,h,l1,l2,l3,g1,g2,Freq,S11_re,S21_re,S11_img,S21_img,S11_dB,S21_dB
11.185,2.0,1.0,1.0,33.6,33.5,33.5,1.9,4.0,2.5,0.83509100623173,-0.00875936760487572,0.537026639213853,0.00674298496951146,-0.062224,-39.129488
11.185,2.0,1.0,1.0,33.6,33.5,33.5,1.9,4.0,2.5025,0.8312507574288572,-0.008934730198420362,0.5428215427847323,0.006765746009335422,-0.062847,-39.00994
11.185,2.0,1.0,1.0,33.6,33.5,33.5,1.9,4.0,2.505,0.8273512439775759,-0.009113208967685645,0.5486154785897792,0.0067874247043985085,-0.063482,-38.890075
11.185,2.0,1.0,1.0,33.6,33.5,33.5,1.9,4.0,2.5075,0.823391824796861,-0.009294863585214717,0.5544081276522479,0.006807974060098629,-0.064128,-38.769884
11.185,2.0,1.0,1.0,33.6,33.5,33.5,1.9,4.0,2.51,0.8193718485108354,-0.009479755032658436,0.5601991606580449,0.006827345325226333,-0.064785,-38.649361
11.185,2.0,1.0,1.0,33.6,33.5,33.5,1.9,4.0,2.5125,0.8152906532884688,-0.009667945630867153,0.5659882376083789,0.006845487922237706,-0.065455,-38.528499
11.185,2.0,1.0,1.0,33.6,33.5,33.5,1.9,4.0,2.515,0.8111475666818635,-0.0098594990705822,0.5717750074604876,0.006862349374525501,-0.066136,-38.40729
11.185,2.0,1.0,1.0,33.6,33.5,33.5,1.9,4.0,2.5175,0.8069419054632044,-0.010054480443727094,0.5775591077559887,0.006877875230547853,-0.066829,-38.285727
11.185,2.0,1.0,1.0,33.6,33.5,33.5,1.9,4.0,2.52,0.802672975460442,-0.010252956275299357,0.5833401642364232,0.006892008984666325,-0.067536,-38.163803
11.185,2.0,1.0,1.0,33.6,33.5,33.5,1.9,4.0,2.5225,0.7983400713918071,-0.010454994555860337,0.5891177904454866,0.006904691994537888,-0.068255,-38.04151
11.185,2.0,1.0,1.0,33.6,33.5,33.5,1.9,4.0,2.525,0.7939424766992397,-0.010660664774620646,0.5948915873174883,0.006915863394897333,-0.068987,-37.918841
11.185,2.0,1.0,1.0,33.6,33.5,33.5,1.9,4.0,2.5275,0.7894794633808401,-0.01087003795311653,0.6006611427515104,0.006925460007557655,-0.069733,-37.795788
11.185,2.0,1.0,1.0,33.6,33.5,33.5,1.9,4.0,2.53,0.7849502918224549,-0.011083186679470296,0.6064260311707377,0.00693341624744796,-0.070493,-37.672343
11.185,2.0,1.0,1.0,33.6,33.5,33.5,1.9,4.0,2.5325,0.7803542106285236,-0.011300185143226464,0.6121858130664068,0.006939664024497991,-0.071267,-37.548499
11.185,2.0,1.0,1.0,33.6,33.5,33.5,1.9,4.0,2.535,0.7756904564523115,-0.011521109170753373,0.6179400345258046,0.00694413264116891,-0.072055,-37.424248
11.185,2.0,1.0,1.0,33.6,33.5,33.5,1.9,4.0,2.5375,0.770958253825687,-0.011746036261196262,0.6236882267437066,0.006946748685419678,-0.072859,-37.299581
11.185,2.0,1.0,1.0,33.6,33.5,33.5,1.9,4.0,2.54,0.7661568149885895,-0.011975045622966859,0.629429905516644,0.006947435918886238,-0.073677,-37.174491
11.185,2.0,1.0,1.0,33.6,33.5,33.5,1.9,4.0,2.5425,0.7612853397183686,-0.01220821821075015,0.6351645707193477,0.006946115160040198,-0.074512,-37.048969
11.185,2.0,1.0,1.0,33.6,33.5,33.5,1.9,4.0,2.545,0.7563430151591745,-0.01244563676300686,0.6408917057626974,0.006942704162080242,-0.075362,-36.923007
11.185,2.0,1.0,1.0,33.6,33.5,33.5,1.9,4.0,2.5475,0.7513290156516054,-0.012687385839945152,0.6466107770324652,0.006937117485296453,-0.076229,-36.796598
11.185,2.0,1.0,1.0,33.6,33.5,33.5,1.9,4.0,2.55,0.7462425025628243,-0.01293355186193395,0.6523212333081442,0.006929266363634269,-0.077113,-36.669731
11.185,2.0,1.0,1.0,33.6,33.5,33.5,1.9,4.0,2.5525,0.7410826241173887,-0.013184223148321676,0.6580225051610733,0.006919058565169411,-0.078014,-36.5424
11.185,2.0,1.0,1.0,33.6,33.5,33.5,1.9,4.0,2.555,0.7358485152290386,-0.013439489956624421,0.6637140043310914,0.006906398246189624,-0.078932,-36.414594
11.185,2.0,1.0,1.0,33.6,33.5,33.5,1.9,4.0,2.5575,0.7305392973337167,-0.013699444522038515,0.6693951230808879,0.00689118579856268,-0.079869,-36.286306
11.185,2.0,1.0,1.0,33.6,33.5,33.5,1.9,4.0,2.56,0.7251540782241235,-0.013964181097229227,0.6750652335271832,0.006873317690052233,-0.080825,-36.157526
11.185,2.0,1.0,1.0,33.6,33.5,33.5,1.9,4.0,2.5625,0.719691951886115,-0.014233795992339673,0.6807236869478572,0.006852686297224501,-0.081799,-36.028246
11.185,2.0,1.0,1.0,33.6,33.5,33.5,1.9,4.0,2.565,0.7141519983372889,-0.014508387615158698,0.6863698130640852,0.006829179730569064,-0.082794,-35.898455
11.185,2.0,1.0,1.0,33.6,33.5,33.5,1.9,4.0,2.5675,0.7085332834681305,-0.01478805651137801,0.6920029192965104,0.006802681651436474,-0.083808,-35.768146
11.185,2.0,1.0,1.0,33.6,33.5,33.5,1.9,4.0,2.57,0.7028348588861064,-0.015072905404860826,0.6976222899944433,0.006773071080372096,-0.084843,-35.637308
11.185,2.0,1.0,1.0,33.6,33.5,33.5,1.9,4.0,2.5725,0.6970557617631334,-0.015363039237837326,0.7032271856370319,0.006740222196403305,-0.0859,-35.505932
11.185,2.0,1.0,1.0,33.6,33.5,33.5,1.9,4.0,2.575,0.6911950146868795,-0.015658565210929287,0.7088168420052994,0.006704004126811239,-0.086978,-35.374009
11.185,2.0,1.0,1.0,33.6,33.5,33.5,1.9,4.0,2.5775,0.6852516255163849,-0.015959592822899285,0.7143904693239059,0.006664280726892252,-0.088078,-35.241527
11.185,2.0,1.0,1.0,33.6,33.5,33.5,1.9,4.0,2.58,0.6792245872425332,-0.016266233910006003,0.7199472513714279,0.006620910349185473,-0.089202,-35.108479
11.185,2.0,1.0,1.0,33.6,33.5,33.5,1.9,4.0,2.5825,0.6731128778539298,-0.016578602684835405,0.7254863445579208,0.006573745601613666,-0.090349,-34.974852
11.185,2.0,1.0,1.0,33.6,33.5,33.5,1.9,4.0,2.585,0.6669154602087984,-0.01689681577446442,0.7310068769684454,0.00652263309395199,-0.09152,-34.840638
11.185,2.0,1.0,1.0,33.6,33.5,33.5,1.9,4.0,2.5875,0.6606312819135406,-0.017220992257797888,0.7365079473712138,0.006467413172005903,-0.092716,-34.705825
11.185,2.0,1.0,1.0,33.6,33.5,33.5,1.9,4.0,2.59,0.6542592752086589,-0.017551253701903316,0.7419886241889203,0.006407919638843605,-0.093938,-34.570403
11.185,2.0,1.0,1.0,33.6,33.5,33.5,1.9,4.0,2.5925,0.6477983568627842,-0.017887724197151584,0.7474479444317879,0.006343979462389381,-0.095186,-34.434361
11.185,2.0,1.0,1.0,33.6,33.5,33.5,1.9,4.0,2.595,0.641247428075617,-0.018230530390949132,0.7528849125907703,0.00627541246864481,-0.096461,-34.297688
11.185,2.0,1.0,1.0,33.6,33.5,33.5,1.9,4.0,2.5975,0.6346053743906259,-0.018579801519829894,0.7582984994893034,0.006202031019760236,-0.097764,-34.160374
11.185,2.0,1.0,1.0,33.6,33.5,33.5,1.9,4.0,2.6,0.6278710656184344,-0.018935669439648212,0.7636876410919134,0.006123639676133543,-0.099095,-34.022406
11.185,2.0,1.0,1.0,33.6,33.5,33.5,1.9,4.0,2.6025,0.621043355771877,-0.019298268653590845,0.7690512372679122,0.0060400348416645225,-0.100456,-33.883774
11.185,2.0,1.0,1.0,33.6,33.5,33.5,1.9,4.0,2.605,0.6141210830137755,-0.019667736337697833,0.7743881505083425,0.005951004391239649,-0.101847,-33.744465
11.185,2.0,1.0,1.0,33.6,33.5,33.5,1.9,4.0,2.6075,0.6071030696185736,-0.02004421236355062,0.7796972045942397,0.005856327279468145,-0.103269,-33.604468
11.185,2.0,1.0,1.0,33.6,33.5,33.5,1.9,4.0,2.61,0.5999881219490372,-0.02042783931775377,0.7849771832141932,0.005755773129629371,-0.104724,-33.46377
11.185,2.0,1.0,1.0,33.6,33.5,33.5,1.9,4.0,2.6125,0.5927750304493208,-0.020818762517799873,0.7902268285291003,0.005649101801729301,-0.106211,-33.322359
11.185,2.0,1.0,1.0,33.6,33.5,33.5,1.9,4.0,2.615,0.5854625696557855,-0.021217130023867086,0.7954448396819083,0.0055360629384962395,-0.107732,-33.180224
11.185,2.0,1.0,1.0,33.6,33.5,33.5,1.9,4.0,2.6175,0.5780494982270693,-0.021623092646055476,0.8006298712500248,0.00541639548807386,-0.109288,-33.03735
11.185,2.0,1.0,1.0,33.6,33.5,33.5,1.9,4.0,2.62,0.570534558995001,-0.022036803946520533,0.80578053163799,0.005289827202092917,-0.110881,-32.893724
11.185,2.0,1.0,1.0,33.6,33.5,33.5,1.9,4.0,2.6225,0.562916479038066,-0.022458420235910402,0.8108953814078774,0.005156074107721635,-0.11251,-32.749335
11.185,2.0,1.0,1.0,33.6,33.5,33.5,1.9,4.0,2.625,0.555193969779278,-0.0228881005634557,0.815972931544759,0.0050148399522068,-0.114178,-32.604168
11.185,2.0,1.0,1.0,33.6,33.5,33.5,1.9,4.0,2.6275,0.5473657271104001,-0.02332600669999881,0.8210116416544774,0.004865815618324228,-0.115885,-32.458209
11.185,2.0,1.0,1.0,33.6,33.5,33.5,1.9,4.0,2.63,0.5394304315446452,-0.02377230311318015,0.8260099180907963,0.004708678509058041,-0.117633,-32.311444
11.185,2.0,1.0,1.0,33.6,33.5,33.5,1.9,4.0,2.6325,0.5313867484001076,-0.02422715693392511,0.8309661120088858,0.0045430918997213295,-0.119423,-32.163859
11.185,2.0,1.0,1.0,33.6,33.5,33.5,1.9,4.0,2.635,0.5232333280163596,-0.024690737913290864,0.8358785173419434,0.0043687042556168135,-0.121256,-32.01544
11.185,2.0,1.0,1.0,33.6,33.5,33.5,1.9,4.0,2.6375,0.5149688060068248,-0.025163218368644276,0.8407453686975769,0.004185148513214343,-0.123133,-31.866172
11.185,2.0,1.0,1.0,33.6,33.5,33.5,1.9,4.0,2.64,0.5065918035496997,-0.025644773118041087,0.8455648391704542,0.003992041322691937,-0.125057,-31.716039
11.185,2.0,1.0,1.0,33.6,33.5,33.5,1.9,4.0,2.6425,0.4981009277204558,-0.02613557940156856,0.8503350380674946,0.003788982249547502,-0.127029,-31.565026
11.185,2.0,1.0,1.0,33.6,33.5,33.5,1.9,4.0,2.645,0.48949477186912216,-0.026635816788293784,0.8550540085417305,0.0035755529328396363,-0.129049,-31.413117
11.185,2.0,1.0,1.0,33.6,33.5,33.5,1.9,4.0,2.6475,0.4807719160458271,-0.027145667067328946,0.859719725130759,0.003351316197455312,-0.13112,-31.260296
11.185,2.0,1.0,1.0,33.6,33.5,33.5,1.9,4.0,2.65,0.4719309274782932,-0.027665314121380274,0.8643300911954935,0.003115815117632205,-0.133244,-31.106546
11.185,2.0,1.0,1.0,33.6,33.5,33.5,1.9,4.0,2.6525,0.46297036110532586,-0.028194943780987834,0.8688829362547067,0.002868572028780377,-0.135422,-30.951852
11.185,2.0,1.0,1.0,33.6,33.5,33.5,1.9,4.0,2.655,0.45388876017055063,-0.02873474365749018,0.8733760132106272,0.0026090874844503305,-0.137656,-30.796195
11.185,2.0,1.0,1.0,33.6,33.5,33.5,1.9,4.0,2.6575,0.44468465688105735,-0.029284902952554297,0.8778069954606035,0.002336839155086156,-0.139947,-30.639558
11.185,2.0,1.0,1.0,33.6,33.5,33.5,1.9,4.0,2.66,0.43535657313590687,-0.029845612241899955,0.8821734738895834,0.002051280664975771,-0.142299,-30.481923
11.185,2.0,1.0,1.0,33.6,33.5,33.5,1.9,4.0,2.6625,0.4259030213298887,-0.030417063230613987,0.8864729537378833,0.0017518403635691097,-0.144713,-30.323272
11.185,2.0,1.0,1.0,33.6,33.5,33.5,1.9,4.0,2.665,0.4163225052382657,-0.030999448477193905,0.8907028513384296,0.0014379200270760737,-0.147191,-30.163586
11.185,2.0,1.0,1.0,33.6,33.5,33.5,1.9,4.0,2.6675,0.4066135209887726,-0.03159296108317383,0.8948604907173291,0.0011088934859780873,-0.149735,-30.002846
11.185,2.0,1.0,1.0,33.6,33.5,33.5,1.9,4.0,2.67,0.396774558127551,-0.032197794344875665,0.8989431000513105,0.0007641051737883104,-0.152348,-29.841032
11.185,2.0,1.0,1.0,33.6,33.5,33.5,1.9,4.0,2.6725,0.3868041007862692,-0.03281414136348057,0.9029478079752152,0.00040286859207794415,-0.155032,-29.678125
11.185,2.0,1.0,1.0,33.6,33.5,33.5,1.9,4.0,2.675,0.3767006289582617,-0.033442194609233394,0.9068716397323322,2.446468643889432e-05,-0.15779,-29.514102
11.185,2.0,1.0,1.0,33.6,33.5,33.5,1.9,4.0,2.6775,0.36646261989211815,-0.03408214543517107,0.9107115131599935,-0.0003718598723099633,-0.160625,-29.348945
11.185,2.0,1.0,1.0,33.6,33.5,33.5,1.9,4.0,2.68,0.35608854961186415,-0.03473418353529779,0.9144642345023988,-0.0007868945077661322,-0.163539,-29.18263
11.185,2.0,1.0,1.0,33.6,33.5,33.5,1.9,4.0,2.6825,0.3455768945736194,-0.035398496341611026,0.9181264940421991,-0.0012214666649496423,-0.166536,-29.015136
11.185,2.0,1.0,1.0,33.6,33.5,33.5,1.9,4.0,2.685,0.3349261334694124,-0.036075268353810544,0.9216948615418857,-0.0016764438516431927,-0.169618,-28.84644
11.185,2.0,1.0,1.0,33.6,33.5,33.5,1.9,4.0,2.6875,0.3241347491897506,-0.036764680394885084,0.925165781485512,-0.0021527358015237686,-0.172788,-28.676519
11.185,2.0,1.0,1.0,33.6,33.5,33.5,1.9,4.0,2.69,0.31320123095751495,-0.0374669087850655,0.9285355681107291,-0.002651296767069175,-0.176051,-28.50535
11.185,2.0,1.0,1.0,33.6,33.5,33.5,1.9,4.0,2.6925,0.30212407664678,-0.03818212442585158,0.9318004002205486,-0.003173127950783801,-0.17941,-28.332907
11.185,2.0,1.0,1.0,33.6,33.5,33.5,1.9,4.0,2.695,0.29090179530140337,-0.03891049178494562,0.9349563157636014,-0.0037192800838906875,-0.182868,-28.159166
11.185,2.0,1.0,1.0,33.6,33.5,33.5,1.9,4.0,2.6975,0.2795329098694277,-0.03965216777196283,0.9379992061710267,-0.004290856162285817,-0.18643,-27.984101
11.185,2.0,1.0,1.0,33.6,33.5,33.5,1.9,4.0,2.7,0.26801596017082785,-0.040407300493706805,0.9409248104373987,-0.004889014350239326,-0.1901,-27.807686
11.185,2.0,1.0,1.0,33.6,33.5,33.5,1.9,4.0,2.7025,0.2563495061176307,-0.04117602787660295,0.9437287089323733,-0.005514971063075047,-0.193882,-27.629894
11.185,2.0,1.0,1.0,33.6,33.5,33.5,1.9,4.0,2.705,0.24453213120719508,-0.041958476142542625,0.9464063169289162,-0.006170004240850145,-0.19778,-27.450696
11.185,2.0,1.0,1.0,33.6,33.5,33.5,1.9,4.0,2.7075,0.23256244631127515,-0.042754758122903816,0.9489528778331517,-0.006855456825909548,-0.2018,-27.270065
11.185,2.0,1.0,1.0,33.6,33.5,33.5,1.9,4.0,2.71,0.2204390937856301,-0.0435649713938471,0.9513634560999457,-0.007572740458095605,-0.205947,-27.08797
11.185,2.0,1.0,1.0,33.6,33.5,33.5,1.9,4.0,2.7125,0.20816075192719002,-0.044389196214128436,0.9536329298173997,-0.00832333940236537,-0.210226,-26.904382
11.185,2.0,1.0,1.0,33.6,33.5,33.5,1.9,4.0,2.715,0.19572613980837678,-0.045227493244591396,0.9557559829424137,-0.00910881472459836,-0.214642,-26.71927
11.185,2.0,1.0,1.0,33.6,33.5,33.5,1.9,4.0,2.7175,0.18313402252097044,-0.04607990102617669,0.9577270971683889,-0.009930808732481079,-0.219203,-26.532602
11.185,2.0,1.0,1.0,33.6,33.5,33.5,1.9,4.0,2.72,0.17038321686508479,-0.046946433190679725,0.9595405434050274,-0.010791049699520107,-0.223914,-26.344345
11.185,2.0,1.0,1.0,33.6,33.5,33.5,1.9,4.0,2.7225,0.1574725975222229,-0.04782707537557001,0.9611903728489645,-0.01169135689147822,-0.228782,-26.154464
11.185,2.0,1.0,1.0,33.6,33.5,33.5,1.9,4.0,2.725,0.14440110375534368,-0.04872178181090745,0.9626704076227294,-0.012633645915833517,-0.233814,-25.962926
11.185,2.0,1.0,1.0,33.6,33.5,33.5,1.9,4.0,2.7275,0.13116774668307948,-0.04963047154271483,0.9639742309581879,-0.013619934416247684,-0.239017,-25.769695
11.185,2.0,1.0,1.0,33.6,33.5,33.5,1.9,4.0,2.73,0.11777161718013766,-0.05055302425302698,0.9650951768992578,-0.014652348135474108,-0.244401,-25.574733
11.185,2.0,1.0,1.0,33.6,33.5,33.5,1.9,4.0,2.7325,0.10421189446119151,-0.05148927563219124,0.9660263194972326,-0.015733127371656143,-0.249972,-25.378002
11.185,2.0,1.0,1.0,33.6,33.5,33.5,1.9,4.0,2.735,0.09048785541164561,-0.052439012253749404,0.9667604614705791,-0.01686463385453726,-0.255741,-25.179464
11.185,2.0,1.0,1.0,33.6,33.5,33.5,1.9,4.0,2.7375,0.07659888473528018,-0.05340196589633618,0.9672901222995401,-0.01804935806973343,-0.261716,-24.979077
11.185,2.0,1.0,1.0,33.6,33.5,33.5,1.9,4.0,2.74,0.06254448599637005,-0.05437780725036355,0.9676075257243376,-0.019289927060879605,-0.267908,-24.7768
11.185,2.0,1.0,1.0,33.6,33.5,33.5,1.9,4.0,2.7425,0.048324293642240106,-0.055366138939747164,0.9677045866141966,-0.020589112741147882,-0.274327,-24.572591
11.185,2.0,1.0,1.0,33.6,33.5,33.5,1.9,4.0,2.745,0.03393808610173104,-0.05636648778043194,0.9675728971729122,-0.021949840747314375,-0.280986,-24.366404
11.185,2.0,1.0,1.0,33.6,33.5,33.5,1.9,4.0,2.7475,0.019385800065699038,-0.057378296187864074,0.9672037124451504,-0.023375199871198103,-0.287897,-24.158194
11.185,2.0,1.0,1.0,33.6,33.5,33.5,1.9,4.0,2.75,0.00466754606764258,-0.0584009126346735,0.966587935086336,-0.0248684521048644,-0.295071,-23.947913
11.185,2.0,1.0,1.0,33.6,33.5,33.5,1.9,4.0,2.7525,-0.010216374503891462,-0.05943358104750305,0.9657160993577094,-0.026433043337424158,-0.302525,-23.735512
11.185,2.0,1.0,1.0,33.6,33.5,33.5,1.9,4.0,2.755,-0.025265450814191626,-0.06047542901792959,0.9645783543071411,-0.02807261474249912,-0.310271,-23.520941
11.185,2.0,1.0,1.0,33.6,33.5,33.5,1.9,4.0,2.7575,-0.040478942248429274,-0.06152545468655171,0.9631644460955756,-0.029791014896381782,-0.318327,-23.304148
11.185,2.0,1.0,1.0,33.6,33.5,33.5,1.9,4.0,2.76,-0.055855856151112604,-0.0625825121412721,0.961463699428714,-0.03159231266746351,-0.326709,-23.085078
11.185,2.0,1.0,1.0,33.6,33.5,33.5,1.9,4.0,2.7625,-0.07139492343316428,-0.06364529515029657,0.9594649980538421,-0.03348081091752798,-0.335437,-22.863677
11.185,2.0,1.0,1.0,33.6,33.5,33.5,1.9,4.0,2.765,-0.08709457181569448,-0.06471231902702355,0.9571567642827441,-0.03546106105479203,-0.344528,-22.639885
11.185,2.0,1.0,1.0,33.6,33.5,33.5,1.9,4.0,2.7675,-0.10295289645109242,-0.06578190039741293,0.954526937503723,-0.03753787847692937,-0.354005,-22.413643
11.185,2.0,1.0,1.0,33.6,33.5,33.5,1.9,4.0,2.77,-0.1189676276297252,-0.06685213461012512,0.9515629516490118,-0.0397163589394335,-0.363891,-22.18489
11.185,2.0,1.0,1.0,33.6,33.5,33.5,1.9,4.0,2.7725,-0.1351360952437354,-0.06792087049516501,0.9482517115888499,-0.04200189588021342,-0.374209,-21.953561
11.185,2.0,1.0,1.0,33.6,33.5,33.5,1.9,4.0,2.775,-0.1514551896375795,-0.06898568213733372,0.9445795684305152,-0.04440019872482952,-0.384986,-21.71959
11.185,2.0,1.0,1.0,33.6,33.5,33.5,1.9,4.0,2.7775,-0.1679213184272895,-0.07004383728577739,0.9405322937103031,-0.04691731218770996,-0.396251,-21.482909
11.185,2.0,1.0,1.0,33.6,33.5,33.5,1.9,4.0,2.78,-0.18453035881614133,-0.07109226196950114,0.9360950524794849,-0.04955963657234485,-0.408033,-21.243446
11.185,2.0,1.0,1.0,33.6,33.5,33.5,1.9,4.0,2.7825,-0.2012776048724351,-0.07212750082997674,0.9312523753026009,-0.052333949056966686,-0.420368,-21.001128
11.185,2.0,1.0,1.0,33.6,33.5,33.5,1.9,4.0,2.785,-0.21815770916460292,-0.07314567261484721,0.9259881292090513,-0.05524742593052979,-0.43329,-20.75588
11.185,2.0,1.0,1.0,33.6,33.5,33.5,1.9,4.0,2.7875,-0.23516461806816027,-0.07414242020002898,0.9202854876683351,-0.058307665715505747,-0.446838,-20.507622
11.185,2.0,1.0,1.0,33.6,33.5,33.5,1.9,4.0,2.79,-0.25229149996732464,-0.07511285441988479,0.9141268996970746,-0.06152271307748904,-0.461056,-20.256272
11.185,2.0,1.0,1.0,33.6,33.5,33.5,1.9,4.0,2.7925,-0.2695306654692449,-0.0760514908850696,0.9074940582543283,-0.06490108337469383,-0.475988,-20.001746
11.185,2.0,1.0,1.0,33.6,33.5,33.5,1.9,4.0,2.795,-0.28687347862954315,-0.07695217885345794,0.9003678681433107,-0.06845178764056079,-0.491686,-19.743958
11.185,2.0,1.0,1.0,33.6,33.5,33.5,1.9,4.0,2.7975,-0.3043102580518604,-0.07780802108937244,0.8927284137158304,-0.07218435771653284,-0.508205,-19.482815
11.185,2.0,1.0,1.0,33.6,33.5,33.5,1.9,4.0,2.8,-0.32183016656967545,-0.07861128349814939,0.8845549267746484,-0.07610887115561552,-0.525604,-19.218226
11.185,2.0,1.0,1.0,33.6,33.5,33.5,1.9,4.0,2.8025,-0.33942108804322696,-0.07935329315471355,0.8758257551937705,-0.0802359753954194,-0.543948,-18.950093
11.185,2.0,1.0,1.0,33.6,33.5,33.5,1.9,4.0,2.805,-0.35706948960580104,-0.08002432315405936,0.8665183329338856,-0.08457691054571237,-0.563311,-18.678317
11.185,2.0,1.0,1.0,33.6,33.5,33.5,1.9,4.0,2.8075,-0.37476026746958135,-0.08061346249608882,0.8566091523277107,-0.08914352994214118,-0.58377,-18.402795
11.185,2.0,1.0,1.0,33.6,33.5,33.5,1.9,4.0,2.81,-0.39247657414945386,-0.08110846897501565,0.8460737397580499,-0.09394831737485644,-0.605413,-18.12342
11.185,2.0,1.0,1.0,33.6,33.5,33.5,1.9,4.0,2.8125,-0.410199624681699,-0.0814956027727305,0.834886636162359,-0.0990043995959884,-0.628336,-17.840083
11.185,2.0,1.0,1.0,33.6,33.5,33.5,1.9,4.0,2.815,-0.4279084791023688,-0.08175943815501674,0.8230213841869971,-0.10432555232804143,-0.652643,-17.552671
11.185,2.0,1.0,1.0,33.6,33.5,33.5,1.9,4.0,2.8175,-0.44557979810703957,-0.08188265033930393,0.8104505243016056,-0.10992619751725265,-0.678453,-17.26107
11.185,2.0,1.0,1.0,33.6,33.5,33.5,1.9,4.0,2.82,-0.4631875684414711,-0.08184577424456319,0.7971456027929034,-0.11582138897831118,-0.705893,-16.965161
11.185,2.0,1.0,1.0,33.6,33.5,33.5,1.9,4.0,2.8225,-0.480702794175985,-0.08162693145256096,0.7830771953173917,-0.12202678283042528,-0.735109,-16.664824
11.185,2.0,1.0,1.0,33.6,33.5,33.5,1.9,4.0,2.825,-0.49809314960391177,-0.08120152131373683,0.7682149506403295,-0.12855858819368887,-0.766259,-16.359934
11.185,2.0,1.0,1.0,33.6,33.5,33.5,1.9,4.0,2.8275,-0.5153225890912374,-0.08054187173531452,0.7525276603686389,-0.1354334924550279,-0.799522,-16.050369
