1,w,sub_t,h,l1,l2,l3,g1,g2,Freq,S11_re,S21_re,S11_img,S21_img,S11_dB,S21_dB
11.185,2.0,1.0,1.0,34.4,33.6,33.6,3.6,2.2,2.5,0.723606985966897,-0.0125130573216789,0.678635879378926,0.00638631579281119,-0.069371,-37.047373
11.185,2.0,1.0,1.0,34.4,33.6,33.6,3.6,2.2,2.5025,0.7181003713269773,-0.012738870785904133,0.6843385634856805,0.006362184197000464,-0.070105,-36.930258
11.185,2.0,1.0,1.0,34.4,33.6,33.6,3.6,2.2,2.505,0.7125190440466068,-0.012968298773512986,0.6900251865441884,0.006335535612796108,-0.070852,-36.812778
11.185,2.0,1.0,1.0,34.4,33.6,33.6,3.6,2.2,2.5075,0.7068622775446826,-0.013201399620060906,0.6956950348671744,0.00630628288785921,-0.071612,-36.694926
11.185,2.0,1.0,1.0,34.4,33.6,33.6,3.6,2.2,2.51,0.7011293381064438,-0.013438232584239868,0.7013473748119042,0.0062743359223703605,-0.072387,-36.576693
11.185,2.0,1.0,1.0,34.4,33.6,33.6,3.6,2.2,2.5125,0.6953194849475643,-0.01367885785552904,0.7069814522202439,0.006239601560750818,-0.073175,-36.458074
11.185,2.0,1.0,1.0,34.4,33.6,33.6,3.6,2.2,2.515,0.6894319702871796,-0.013923336561359766,0.7125964918435321,0.006201983478987986,-0.073978,-36.339061
11.185,2.0,1.0,1.0,34.4,33.6,33.6,3.6,2.2,2.5175,0.6834660394303534,-0.014171730773746031,0.7181916967518616,0.0061613820673641784,-0.074796,-36.219646
11.185,2.0,1.0,1.0,34.4,33.6,33.6,3.6,2.2,2.52,0.6774209308604784,-0.014424103515328955,0.7237662477273942,0.00611769430837617,-0.075628,-36.099822
11.185,2.0,1.0,1.0,34.4,33.6,33.6,3.6,2.2,2.5225,0.6712958763421687,-0.014680518764780312,0.7293193026412781,0.0060708136496221855,-0.076476,-35.979581
11.185,2.0,1.0,1.0,34.4,33.6,33.6,3.6,2.2,2.525,0.6650901010351816,-0.014941041461506033,0.7348499958137719,0.0060206298714207815,-0.07734,-35.858916
11.185,2.0,1.0,1.0,34.4,33.6,33.6,3.6,2.2,2.5275,0.6588028236199637,-0.015205737509586838,0.7403574373571433,0.005967028948913164,-0.07822,-35.737818
11.185,2.0,1.0,1.0,34.4,33.6,33.6,3.6,2.2,2.53,0.6524332564354333,-0.015474673780888118,0.7458407125009082,0.005909892908386947,-0.079117,-35.61628
11.185,2.0,1.0,1.0,34.4,33.6,33.6,3.6,2.2,2.5325,0.6459806056296358,-0.0157479181172669,0.7512988808989655,0.005849099677545023,-0.080031,-35.494293
11.185,2.0,1.0,1.0,34.4,33.6,33.6,3.6,2.2,2.535,0.6394440713239327,-0.016025539331799045,0.7567309759181817,0.005784522929427386,-0.080962,-35.37185
11.185,2.0,1.0,1.0,34.4,33.6,33.6,3.6,2.2,2.5375,0.6328228477914329,-0.016307607208943132,0.7621360039079538,0.005716031919677769,-0.081911,-35.248941
11.185,2.0,1.0,1.0,34.4,33.6,33.6,3.6,2.2,2.54,0.6261161236503858,-0.016594192503553564,0.7675129434502785,0.005643491316828737,-0.082878,-35.125559
11.185,2.0,1.0,1.0,34.4,33.6,33.6,3.6,2.2,2.5425,0.6193230820732919,-0.01688536693864728,0.7728607445898517,0.005566761025261108,-0.083864,-35.001694
11.185,2.0,1.0,1.0,34.4,33.6,33.6,3.6,2.2,2.545,0.6124429010125308,-0.017181203201823123,0.7781783280436938,0.005485696000472343,-0.084869,-34.877338
11.185,2.0,1.0,1.0,34.4,33.6,33.6,3.6,2.2,2.5475,0.6054747534433369,-0.017481774940224737,0.7834645843897954,0.005400146056268567,-0.085894,-34.752482
11.185,2.0,1.0,1.0,34.4,33.6,33.6,3.6,2.2,2.55,0.5984178076249687,-0.01778715675393171,0.7887183732342771,0.00530995566347052,-0.086939,-34.627117
11.185,2.0,1.0,1.0,34.4,33.6,33.6,3.6,2.2,2.5525,0.5912712273810015,-0.018097424187652398,0.7939385223565126,0.0052149637397008305,-0.088005,-34.501234
11.185,2.0,1.0,1.0,34.4,33.6,33.6,3.6,2.2,2.555,0.5840341723996566,-0.018412653720587056,0.7991238268316907,0.005115003429792492,-0.089092,-34.374822
11.185,2.0,1.0,1.0,34.4,33.6,33.6,3.6,2.2,2.5575,0.5767057985551595,-0.018732922754316036,0.8042730481302557,0.005009901876331303,-0.090201,-34.247873
11.185,2.0,1.0,1.0,34.4,33.6,33.6,3.6,2.2,2.56,0.5692852582511536,-0.019058309598560575,0.8093849131936482,0.0048994799798144474,-0.091332,-34.120377
11.185,2.0,1.0,1.0,34.4,33.6,33.6,3.6,2.2,2.5625,0.5617717007872334,-0.019388893454650842,0.8144581134857726,0.004783552147875476,-0.092486,-33.992323
11.185,2.0,1.0,1.0,34.4,33.6,33.6,3.6,2.2,2.565,0.5541642727497008,-0.019724754396523946,0.8194913040195844,0.004661926032991118,-0.093664,-33.863701
11.185,2.0,1.0,1.0,34.4,33.6,33.6,3.6,2.2,2.5675,0.5464621184277257,-0.020065973349062557,0.8244831023581823,0.00453440225804828,-0.094866,-33.734501
11.185,2.0,1.0,1.0,34.4,33.6,33.6,3.6,2.2,2.57,0.5386643802561012,-0.020412632063568626,0.8294320875897769,0.004400774129109474,-0.096092,-33.604713
11.185,2.0,1.0,1.0,34.4,33.6,33.6,3.6,2.2,2.5725,0.5307701992858622,-0.020764813090153787,0.8343367992758726,0.004260827334672225,-0.097345,-33.474325
11.185,2.0,1.0,1.0,34.4,33.6,33.6,3.6,2.2,2.575,0.5227787156840852,-0.0211225997468092,0.839195736372004,0.0041143396306710925,-0.098623,-33.343327
11.185,2.0,1.0,1.0,34.4,33.6,33.6,3.6,2.2,2.5775,0.5146890692642349,-0.021486076084901086,0.8440073561203245,0.003961080510421867,-0.099929,-33.211707
11.185,2.0,1.0,1.0,34.4,33.6,33.6,3.6,2.2,2.58,0.5065004000484952,-0.021855326850817133,0.8487700729133311,0.003800810858653145,-0.101262,-33.079453
11.185,2.0,1.0,1.0,34.4,33.6,33.6,3.6,2.2,2.5825,0.49821184886356057,-0.02223043744346933,0.8534822571279875,0.003633282588712223,-0.102624,-32.946555
11.185,2.0,1.0,1.0,34.4,33.6,33.6,3.6,2.2,2.585,0.4898225579714584,-0.022611493867334263,0.8581422339294722,0.00345823826197055,-0.104015,-32.812998
11.185,2.0,1.0,1.0,34.4,33.6,33.6,3.6,2.2,2.5875,0.48133167173700114,-0.022998582680686684,0.8627482820437588,0.0032754106883851465,-0.105436,-32.678773
11.185,2.0,1.0,1.0,34.4,33.6,33.6,3.6,2.2,2.59,0.47273833733357684,-0.0233917909386558,0.8672986324981885,0.003084522507099735,-0.106888,-32.543865
11.185,2.0,1.0,1.0,34.4,33.6,33.6,3.6,2.2,2.5925,0.4640417054890166,-0.02379120613070166,0.8717914673291804,0.002885285745890193,-0.108373,-32.408261
11.185,2.0,1.0,1.0,34.4,33.6,33.6,3.6,2.2,2.595,0.4552409312733969,-0.0241969161120776,0.8762249182561573,0.0026774013581724243,-0.10989,-32.271949
11.185,2.0,1.0,1.0,34.4,33.6,33.6,3.6,2.2,2.5975,0.44633517493066976,-0.024609009028808238,0.8805970653207479,0.0024605587361984736,-0.111441,-32.134916
11.185,2.0,1.0,1.0,34.4,33.6,33.6,3.6,2.2,2.6,0.43732360275612264,-0.025027573235672826,0.8849059354902727,0.00223443519896478,-0.113026,-31.997146
11.185,2.0,1.0,1.0,34.4,33.6,33.6,3.6,2.2,2.6025,0.4282053880217621,-0.025452697206639813,0.8891495012244419,0.0019986954532480745,-0.114648,-31.858626
11.185,2.0,1.0,1.0,34.4,33.6,33.6,3.6,2.2,2.605,0.41897971195177514,-0.025884469437152453,0.8933256790041805,0.0017529910260638522,-0.116307,-31.719341
11.185,2.0,1.0,1.0,34.4,33.6,33.6,3.6,2.2,2.6075,0.40964576475035197,-0.026322978337611023,0.8974323278213844,0.0014969596667140297,-0.118004,-31.579277
11.185,2.0,1.0,1.0,34.4,33.6,33.6,3.6,2.2,2.61,0.4002027466842328,-0.026768312117340577,0.9014672476283735,0.0012302247164487038,-0.11974,-31.438417
11.185,2.0,1.0,1.0,34.4,33.6,33.6,3.6,2.2,2.6125,0.3906498692224627,-0.02722055865826915,0.9054281777456911,0.000952394443613721,-0.121517,-31.296746
11.185,2.0,1.0,1.0,34.4,33.6,33.6,3.6,2.2,2.615,0.38098635623592136,-0.02767980537747171,0.909312795226858,0.0006630613419877524,-0.123336,-31.154248
11.185,2.0,1.0,1.0,34.4,33.6,33.6,3.6,2.2,2.6175,0.37121144525936794,-0.028146139077655348,0.9131187131785211,0.00036180138983101125,-0.125198,-31.010906
11.185,2.0,1.0,1.0,34.4,33.6,33.6,3.6,2.2,2.62,0.36132438881880563,-0.02861964578457808,0.9168434790343911,4.817326696731348e-05,-0.127104,-30.866703
11.185,2.0,1.0,1.0,34.4,33.6,33.6,3.6,2.2,2.6225,0.35132445582714955,-0.0291004105702964,0.9204845727811763,-0.0002782824729967806,-0.129057,-30.721621
11.185,2.0,1.0,1.0,34.4,33.6,33.6,3.6,2.2,2.625,0.341210933051317,-0.0295885173610302,0.924039405134622,-0.000618044278449087,-0.131057,-30.575641
11.185,2.0,1.0,1.0,34.4,33.6,33.6,3.6,2.2,2.6275,0.33098312665399077,-0.030084048728317863,0.9275053156635743,-0.0009716105269412972,-0.133107,-30.428747
11.185,2.0,1.0,1.0,34.4,33.6,33.6,3.6,2.2,2.63,0.32064036381350536,-0.030587085662002918,0.9308795708598177,-0.001339500507431793,-0.135207,-30.280917
11.185,2.0,1.0,1.0,34.4,33.6,33.6,3.6,2.2,2.6325,0.3101819944254546,-0.031097707323445842,0.9341593621512493,-0.0017222554615964206,-0.13736,-30.132132
11.185,2.0,1.0,1.0,34.4,33.6,33.6,3.6,2.2,2.635,0.29960739288984084,-0.03161599077719365,0.937341803855678,-0.0021204396885458475,-0.139568,-29.982372
11.185,2.0,1.0,1.0,34.4,33.6,33.6,3.6,2.2,2.6375,0.28891595998777936,-0.0321420106991573,0.9404239310723428,-0.0025346417176665393,-0.141831,-29.831616
11.185,2.0,1.0,1.0,34.4,33.6,33.6,3.6,2.2,2.64,0.27810712485197997,-0.032675839059142654,0.9434026975079118,-0.002965475554718,-0.144154,-29.679841
11.185,2.0,1.0,1.0,34.4,33.6,33.6,3.6,2.2,2.6425,0.26718034703553717,-0.03321754477535288,0.9462749732334118,-0.0034135820067752536,-0.146536,-29.527026
11.185,2.0,1.0,1.0,34.4,33.6,33.6,3.6,2.2,2.645,0.2561351186837557,-0.03376719333822398,0.9490375423681986,-0.003879630092110873,-0.148982,-29.373147
11.185,2.0,1.0,1.0,34.4,33.6,33.6,3.6,2.2,2.6475,0.24497096681411284,-0.03432484640066588,0.9516871006866203,-0.00436431854166448,-0.151492,-29.218179
11.185,2.0,1.0,1.0,34.4,33.6,33.6,3.6,2.2,2.65,0.2336874557097214,-0.0348905613314608,0.9542202531426284,-0.0048683773993622404,-0.154069,-29.062099
11.185,2.0,1.0,1.0,34.4,33.6,33.6,3.6,2.2,2.6525,0.22228418943210212,-0.03546439072819992,0.9566335113070125,-0.005392569729222757,-0.156717,-28.90488
11.185,2.0,1.0,1.0,34.4,33.6,33.6,3.6,2.2,2.655,0.2107608144593957,-0.03604638188573314,0.9589232907114081,-0.005937693437937706,-0.159437,-28.746496
11.185,2.0,1.0,1.0,34.4,33.6,33.6,3.6,2.2,2.6575,0.19911702245667734,-0.036636576215637366,0.9610859080925233,-0.006504583222439929,-0.162232,-28.586919
11.185,2.0,1.0,1.0,34.4,33.6,33.6,3.6,2.2,2.66,0.1873525531854993,-0.0372350086116813,0.9631175785293292,-0.00709411265288969,-0.165106,-28.426121
11.185,2.0,1.0,1.0,34.4,33.6,33.6,3.6,2.2,2.6625,0.1754671975603886,-0.037841706755670834,0.9650144124651027,-0.007707196402527254,-0.168062,-28.264071
11.185,2.0,1.0,1.0,34.4,33.6,33.6,3.6,2.2,2.665,0.16346080086063136,-0.03845669035737566,0.9667724126052945,-0.008344792636965585,-0.171102,-28.10074
11.185,2.0,1.0,1.0,34.4,33.6,33.6,3.6,2.2,2.6675,0.15133326610647788,-0.03907997032147182,0.9683874706811048,-0.009007905576751445,-0.17423,-27.936096
11.185,2.0,1.0,1.0,34.4,33.6,33.6,3.6,2.2,2.67,0.13908455760963742,-0.03971154783355363,0.9698553640675128,-0.009697588248414957,-0.177451,-27.770105
11.185,2.0,1.0,1.0,34.4,33.6,33.6,3.6,2.2,2.6725,0.12671470470894033,-0.04035141335627019,0.9711717522431058,-0.010414945440778757,-0.180767,-27.602733
11.185,2.0,1.0,1.0,34.4,33.6,33.6,3.6,2.2,2.675,0.11422380570309715,-0.04099954552549528,0.972332173077581,-0.011161136885022998,-0.184183,-27.433944
11.185,2.0,1.0,1.0,34.4,33.6,33.6,3.6,2.2,2.6775,0.10161203199368565,-0.041655909935138354,0.9733320389310581,-0.011937380678930335,-0.187704,-27.263701
11.185,2.0,1.0,1.0,34.4,33.6,33.6,3.6,2.2,2.68,0.0888796324529163,-0.0423204577976992,0.9741666325474445,-0.012744956977883304,-0.191333,-27.091966
11.185,2.0,1.0,1.0,34.4,33.6,33.6,3.6,2.2,2.6825,0.07602693803235415,-0.042993124465957946,0.974831102721861,-0.013585211977588031,-0.195077,-26.918697
11.185,2.0,1.0,1.0,34.4,33.6,33.6,3.6,2.2,2.685,0.06305436663057622,-0.04367382779921402,0.9753204597197392,-0.01445956221618773,-0.198939,-26.743854
11.185,2.0,1.0,1.0,34.4,33.6,33.6,3.6,2.2,2.6875,0.0499624282399023,-0.0443624663552147,0.975629570422389,-0.0153694992264343,-0.202926,-26.567392
11.185,2.0,1.0,1.0,34.4,33.6,33.6,3.6,2.2,2.69,0.03675173039485255,-0.04505891738629561,0.975753153170667,-0.01631659457196162,-0.207044,-26.389265
11.185,2.0,1.0,1.0,34.4,33.6,33.6,3.6,2.2,2.6925,0.023422983947733275,-0.04576303461522674,0.975685772274876,-0.01730250530548596,-0.211298,-26.209426
11.185,2.0,1.0,1.0,34.4,33.6,33.6,3.6,2.2,2.695,0.009977009200193704,-0.04647464576275424,0.9754218321549486,-0.0183289798910084,-0.215696,-26.027825
11.185,2.0,1.0,1.0,34.4,33.6,33.6,3.6,2.2,2.6975,-0.003585257576654559,-0.04719354979477259,0.9749555710704452,-0.019397864636874075,-0.220245,-25.84441
11.185,2.0,1.0,1.0,34.4,33.6,33.6,3.6,2.2,2.7,-0.01726275719638222,-0.047919513852340806,0.9742810543947107,-0.020511110691917158,-0.224952,-25.659127
11.185,2.0,1.0,1.0,34.4,33.6,33.6,3.6,2.2,2.7025,-0.03105430014329721,-0.048652269822279264,0.9733921673816968,-0.021670781662981583,-0.229825,-25.471918
11.185,2.0,1.0,1.0,34.4,33.6,33.6,3.6,2.2,2.705,-0.04495855864186183,-0.04939151049968108,0.9722826073673214,-0.02287906191893614,-0.234874,-25.282723
11.185,2.0,1.0,1.0,34.4,33.6,33.6,3.6,2.2,2.7075,-0.05897405815375816,-0.05013688528621581,0.9709458753396852,-0.024138265654017197,-0.240107,-25.091481
11.185,2.0,1.0,1.0,34.4,33.6,33.6,3.6,2.2,2.71,-0.07309916823843023,-0.05088799535935428,0.9693752668039697,-0.025450846792039728,-0.245535,-24.898125
11.185,2.0,1.0,1.0,34.4,33.6,33.6,3.6,2.2,2.7125,-0.08733209270298187,-0.05164438823740533,0.9675638618580761,-0.026819409822876422,-0.251169,-24.702587
11.185,2.0,1.0,1.0,34.4,33.6,33.6,3.6,2.2,2.715,-0.10167085895558074,-0.05240555165320933,0.9655045143840891,-0.028246721673748185,-0.257021,-24.504794
11.185,2.0,1.0,1.0,34.4,33.6,33.6,3.6,2.2,2.7175,-0.1161133064626605,-0.05317090663515624,0.9631898402480806,-0.02973572473050633,-0.263103,-24.304671
11.185,2.0,1.0,1.0,34.4,33.6,33.6,3.6,2.2,2.72,-0.13065707419380593,-0.053939799677459335,0.9606122043865415,-0.03128955113839685,-0.269428,-24.102137
11.185,2.0,1.0,1.0,34.4,33.6,33.6,3.6,2.2,2.7225,-0.14529958691879682,-0.05471149386182143,0.9577637066415132,-0.03291153852804279,-0.276012,-23.897107
11.185,2.0,1.0,1.0,34.4,33.6,33.6,3.6,2.2,2.725,-0.16003804019802553,-0.055485158769156454,0.9546361661880338,-0.03460524733079477,-0.282871,-23.689495
11.185,2.0,1.0,1.0,34.4,33.6,33.6,3.6,2.2,2.7275,-0.17486938388011816,-0.056259858992140026,0.9512211043765706,-0.03637447986853038,-0.290022,-23.479206
11.185,2.0,1.0,1.0,34.4,33.6,33.6,3.6,2.2,2.73,-0.18979030388746027,-0.057034541026122515,0.9475097257891952,-0.038223301426716455,-0.297484,-23.266141
11.185,2.0,1.0,1.0,34.4,33.6,33.6,3.6,2.2,2.7325,-0.20479720203112334,-0.05780801827625189,0.9434928972811647,-0.040156063546520494,-0.305278,-23.050198
11.185,2.0,1.0,1.0,34.4,33.6,33.6,3.6,2.2,2.735,-0.219886173549211,-0.058578953871114385,0.9391611247486522,-0.04217742980234797,-0.313426,-22.831265
11.185,2.0,1.0,1.0,34.4,33.6,33.6,3.6,2.2,2.7375,-0.23505298200592645,-0.05934584091614558,0.934504527328388,-0.04429240436590087,-0.321954,-22.609227
11.185,2.0,1.0,1.0,34.4,33.6,33.6,3.6,2.2,2.74,-0.25029303111996737,-0.06010697975134806,0.929512808695169,-0.04650636369716593,-0.330886,-22.383961
11.185,2.0,1.0,1.0,34.4,33.6,33.6,3.6,2.2,2.7425,-0.26560133300793654,-0.06086045169492182,0.9241752250781645,-0.048825091747234976,-0.340255,-22.155336
11.185,2.0,1.0,1.0,34.4,33.6,33.6,3.6,2.2,2.745,-0.2809724722280005,-0.0616040886539924,0.9184805495661529,-0.05125481910805963,-0.350091,-21.923216
11.185,2.0,1.0,1.0,34.4,33.6,33.6,3.6,2.2,2.7475,-0.29640056488665095,-0.06233543786169197,0.91241703221447,-0.053802266600723125,-0.360431,-21.687453
11.185,2.0,1.0,1.0,34.4,33.6,33.6,3.6,2.2,2.75,-0.311879211922536,-0.0630517208513607,0.905972355402336,-0.0564746938570772,-0.371315,-21.447892
11.185,2.0,1.0,1.0,34.4,33.6,33.6,3.6,2.2,2.7525,-0.3274014454990522,-0.06374978559723068,0.8991335838176817,-0.059279953520027295,-0.382786,-21.204369
11.185,2.0,1.0,1.0,34.4,33.6,33.6,3.6,2.2,2.755,-0.34295966721388904,-0.06442605052867811,0.8918871083675568,-0.06222655176554341,-0.394893,-20.956708
11.185,2.0,1.0,1.0,34.4,33.6,33.6,3.6,2.2,2.7575,-0.35854557655889896,-0.06507643885186727,0.8842185832258268,-0.06532371593443405,-0.40769,-20.704722
11.185,2.0,1.0,1.0,34.4,33.6,33.6,3.6,2.2,2.76,-0.37415008772428515,-0.0656963012756111,0.8761128551369767,-0.06858147015323056,-0.421237,-20.448213
11.185,2.0,1.0,1.0,34.4,33.6,33.6,3.6,2.2,2.7625,-0.38976323242119343,-0.06628032482130364,0.8675538839970662,-0.07201071991948055,-0.435602,-20.186968
11.185,2.0,1.0,1.0,34.4,33.6,33.6,3.6,2.2,2.765,-0.40537404587511094,-0.06682242487913874,0.8585246536336782,-0.07562334672406928,-0.45086,-19.920762
11.185,2.0,1.0,1.0,34.4,33.6,33.6,3.6,2.2,2.7675,-0.4209704324925227,-0.06731561702808661,0.8490070716113384,-0.07943231387643927,-0.467096,-19.649353
11.185,2.0,1.0,1.0,34.4,33.6,33.6,3.6,2.2,2.77,-0.43653900689074043,-0.06775186433138464,0.8389818568064619,-0.08345178477888988,-0.484406,-19.372483
11.185,2.0,1.0,1.0,34.4,33.6,33.6,3.6,2.2,2.7725,-0.45206490496171686,-0.06812189480905909,0.8284284134403774,-0.08769725494953053,-0.502898,-19.089876
11.185,2.0,1.0,1.0,34.4,33.6,33.6,3.6,2.2,2.775,-0.4675315583585675,-0.0684149825182445,0.8173246902521825,-0.09218569909839212,-0.522696,-18.801237
11.185,2.0,1.0,1.0,34.4,33.6,33.6,3.6,2.2,2.7775,-0.4829204241752366,-0.06861868406858752,0.8056470235682462,-0.0969357344847461,-0.543939,-18.50625
11.185,2.0,1.0,1.0,34.4,33.6,33.6,3.6,2.2,2.78,-0.49821065954145655,-0.06871852037063775,0.7933699632323639,-0.10196780157601024,-0.566788,-18.204578
11.185,2.0,1.0,1.0,34.4,33.6,33.6,3.6,2.2,2.7825,-0.5133787282551565,-0.06869759083967407,0.7804660807756371,-0.10730436261472304,-0.591425,-17.895856
11.185,2.0,1.0,1.0,34.4,33.6,33.6,3.6,2.2,2.785,-0.528397923266754,-0.06853610400102297,0.7669057599414436,-0.1129701179674363,-0.618062,-17.579696
11.185,2.0,1.0,1.0,34.4,33.6,33.6,3.6,2.2,2.7875,-0.5432377846127651,-0.06821080426667506,0.7526569709089292,-0.11899223890924404,-0.646944,-17.255681
11.185,2.0,1.0,1.0,34.4,33.6,33.6,3.6,2.2,2.79,-0.5578633870138144,-0.06769426932285606,0.7376850315327861,-0.1254006135376177,-0.678354,-16.923365
11.185,2.0,1.0,1.0,34.4,33.6,33.6,3.6,2.2,2.7925,-0.5722344644793655,-0.06695404576259714,0.7219523620199031,-0.1322280994307742,-0.712624,-16.58227
11.185,2.0,1.0,1.0,34.4,33.6,33.6,3.6,2.2,2.795,-0.5863043304929455,-0.06595158191550585,0.7054182442671099,-0.13951077190177397,-0.750142,-16.231883
11.185,2.0,1.0,1.0,34.4,33.6,33.6,3.6,2.2,2.7975,-0.600018541195216,-0.06464090578131047,0.6880386044487067,-0.1472881493981966,-0.791364,-15.871659
11.185,2.0,1.0,1.0,34.4,33.6,33.6,3.6,2.2,2.8,-0.6133132348621826,-0.0629669819950783,0.6697658486595333,-0.15560336647873618,-0.836832,-15.501014
11.185,2.0,1.0,1.0,34.4,33.6,33.6,3.6,2.2,2.8025,-0.6261130632685865,-0.06086366422378727,0.6505487984332462,-0.16450324793692053,-0.887192,-15.119331
11.185,2.0,1.0,1.0,34.4,33.6,33.6,3.6,2.2,2.805,-0.6383286086575553,-0.058251137748289515,0.6303327986902832,-0.17403821214209741,-0.943213,-14.725958
11.185,2.0,1.0,1.0,34.4,33.6,33.6,3.6,2.2,2.8075,-0.649853153702642,-0.055032720922355505,0.6090601095197103,-0.18426189317728142,-1.005826,-14.320208
11.185,2.0,1.0,1.0,34.4,33.6,33.6,3.6,2.2,2.81,-0.6605586414781857,-0.051090864151061045,0.5866707517429723,-0.19523031335694027,-1.076158,-13.901373
11.185,2.0,1.0,1.0,34.4,33.6,33.6,3.6,2.2,2.8125,-0.670290630140051,-0.0462821530697461,0.563104064229614,-0.207000350516777,-1.155583,-13.468726
11.185,2.0,1.0,1.0,34.4,33.6,33.6,3.6,2.2,2.815,-0.6788620182983455,-0.04043109422197144,0.5383013628070408,-0.2196271138516659,-1.245787,-13.021542
11.185,2.0,1.0,1.0,34.4,33.6,33.6,3.6,2.2,2.8175,-0.6860453042780789,-0.0333224489608043,0.5122102869942148,-0.23315964757639238,-1.348856,-12.55912
11.185,2.0,1.0,1.0,34.4,33.6,33.6,3.6,2.2,2.82,-0.6915631709324236,-0.024691909618897234,0.48479171032505014,-0.2476340949522454,-1.467384,-12.080825
11.185,2.0,1.0,1.0,34.4,33.6,33.6,3.6,2.2,2.8225,-0.6950773067566357,-0.014215030105975267,0.4560305097580437,-0.2630630395924602,-1.604614,-11.586141
11.185,2.0,1.0,1.0,34.4,33.6,33.6,3.6,2.2,2.825,-0.6961756762810721,-0.0014946226499354595,0.42595208108744437,-0.27941915537622825,-1.764633,-11.074752
11.185,2.0,1.0,1.0,34.4,33.6,33.6,3.6,2.2,2.8275,-0.694359105137451,0.013952521169935735,0.3946472802650934,-0.29661051123044957,-1.952603,-10.54667
