1,w,sub_t,h,l1,l2,l3,g1,g2,Freq,S11_re,S21_re,S11_img,S21_img,S11_dB,S21_dB
11.185,2.0,1.0,1.0,33.7,33.6,33.6,2.9,2.0,2.5,0.826000909964778,-0.0110604951730462,0.55090131635591,0.00928716854155225,-0.062245,-36.807147
11.185,2.0,1.0,1.0,33.7,33.6,33.6,2.9,2.0,2.5025,0.8220441567590927,-0.011288293945712236,0.5566583278203514,0.009329467468362792,-0.062882,-36.686445
11.185,2.0,1.0,1.0,33.7,33.6,33.6,2.9,2.0,2.505,0.8180280801177118,-0.011520407367365995,0.5624124687101844,0.009370691818010975,-0.063532,-36.56533
11.185,2.0,1.0,1.0,33.7,33.6,33.6,2.9,2.0,2.5075,0.8139520644032167,-0.011756928069780318,0.5681633926344066,0.009410787535870655,-0.064194,-36.443794
11.185,2.0,1.0,1.0,33.7,33.6,33.6,2.9,2.0,2.51,0.809815484354758,-0.011997951136948435,0.5739107426385225,0.0094496983668934,-0.064868,-36.321828
11.185,2.0,1.0,1.0,33.7,33.6,33.6,2.9,2.0,2.5125,0.8056177049358484,-0.012243574182456033,0.5796541508602875,0.009487365759220552,-0.065555,-36.199422
11.185,2.0,1.0,1.0,33.7,33.6,33.6,2.9,2.0,2.515,0.801358081180089,-0.012493897429703157,0.5853932381736515,0.009523728763099723,-0.066255,-36.076568
11.185,2.0,1.0,1.0,33.7,33.6,33.6,2.9,2.0,2.5175,0.7970359580348302,-0.01274902379509645,0.5911276138204218,0.009558723924848713,-0.066969,-35.953256
11.185,2.0,1.0,1.0,33.7,33.6,33.6,2.9,2.0,2.52,0.7926506702027423,-0.013009058974339818,0.5968568750291897,0.009592285175592852,-0.067696,-35.829478
11.185,2.0,1.0,1.0,33.7,33.6,33.6,2.9,2.0,2.5225,0.7882015419813065,-0.01327411153195567,0.6025806066209919,0.009624343714485516,-0.068438,-35.705222
11.185,2.0,1.0,1.0,33.7,33.6,33.6,2.9,2.0,2.525,0.783687887100198,-0.013544292994176565,0.6082983806012002,0.00965482788610264,-0.069195,-35.58048
11.185,2.0,1.0,1.0,33.7,33.6,33.6,2.9,2.0,2.5275,0.7791090085565644,-0.01381971794535441,0.6140097557370833,0.009683663051682972,-0.069966,-35.455242
11.185,2.0,1.0,1.0,33.7,33.6,33.6,2.9,2.0,2.53,0.7744641984481897,-0.014100504128040316,0.6197142771204529,0.00971077145386486,-0.070753,-35.329497
11.185,2.0,1.0,1.0,33.7,33.6,33.6,2.9,2.0,2.5325,0.7697527378045387,-0.014386772546895925,0.6254114757148028,0.009736072074547549,-0.071555,-35.203235
11.185,2.0,1.0,1.0,33.7,33.6,33.6,2.9,2.0,2.535,0.7649738964156683,-0.014678647576607003,0.6311008678862942,0.00975948048548123,-0.072374,-35.076446
11.185,2.0,1.0,1.0,33.7,33.6,33.6,2.9,2.0,2.5375,0.7601269326590144,-0.014976257073974325,0.6367819549179202,0.009780908691164396,-0.073209,-34.949118
11.185,2.0,1.0,1.0,33.7,33.6,33.6,2.9,2.0,2.54,0.7552110933240367,-0.01527973249437093,0.6424542225061551,0.009800264963598804,-0.074062,-34.821243
11.185,2.0,1.0,1.0,33.7,33.6,33.6,2.9,2.0,2.5425,0.7502256134347227,-0.015589209012759493,0.6481171402393455,0.009817453668423202,-0.074932,-34.692807
11.185,2.0,1.0,1.0,33.7,33.6,33.6,2.9,2.0,2.545,0.7451697160699475,-0.015904825649476446,0.6537701610570704,0.009832375081914754,-0.07582,-34.5638
11.185,2.0,1.0,1.0,33.7,33.6,33.6,2.9,2.0,2.5475,0.7400426121816877,-0.016226725400998485,0.6594127206896461,0.00984492519831249,-0.076727,-34.434211
11.185,2.0,1.0,1.0,33.7,33.6,33.6,2.9,2.0,2.55,0.7348435004110793,-0.01655505537591812,0.6650442370769399,0.009854995526880624,-0.077652,-34.304028
11.185,2.0,1.0,1.0,33.7,33.6,33.6,2.9,2.0,2.5525,0.7295715669023358,-0.016889966936366192,0.6706641097655545,0.00986247287808943,-0.078598,-34.173239
11.185,2.0,1.0,1.0,33.7,33.6,33.6,2.9,2.0,2.555,0.724225985114501,-0.01723161584513271,0.6762717192834545,0.00986723913824854,-0.079563,-34.041831
11.185,2.0,1.0,1.0,33.7,33.6,33.6,2.9,2.0,2.5575,0.7188059156310529,-0.017580162418748255,0.6818664264910237,0.009869171031881434,-0.080549,-33.909794
11.185,2.0,1.0,1.0,33.7,33.6,33.6,2.9,2.0,2.56,0.7133105059673525,-0.017935771686802385,0.6874475719074801,0.009868139871080064,-0.081557,-33.777113
11.185,2.0,1.0,1.0,33.7,33.6,33.6,2.9,2.0,2.5625,0.7077388903759382,-0.018298613557790368,0.6930144750115345,0.009864011291024951,-0.082587,-33.643776
11.185,2.0,1.0,1.0,33.7,33.6,33.6,2.9,2.0,2.565,0.7020901896496575,-0.01866886299179271,0.6985664335151057,0.009856644970797513,-0.083639,-33.50977
11.185,2.0,1.0,1.0,33.7,33.6,33.6,2.9,2.0,2.5675,0.6963635109226523,-0.019046700180309652,0.7041027226088301,0.009845894338549797,-0.084714,-33.375081
11.185,2.0,1.0,1.0,33.7,33.6,33.6,2.9,2.0,2.57,0.6905579474691805,-0.01943231073358652,0.7096225941780375,0.0098316062600277,-0.085814,-33.239696
11.185,2.0,1.0,1.0,33.7,33.6,33.6,2.9,2.0,2.5725,0.6846725785002814,-0.019825885875786833,0.7151252759877889,0.009813620709371666,-0.086939,-33.103601
11.185,2.0,1.0,1.0,33.7,33.6,33.6,2.9,2.0,2.575,0.6787064689582837,-0.020227622648383726,0.7206099708354727,0.009791770421039176,-0.088088,-32.966781
11.185,2.0,1.0,1.0,33.7,33.6,33.6,2.9,2.0,2.5775,0.672658669309152,-0.020637724122163345,0.7260758556693787,0.009765880521606556,-0.089265,-32.829222
11.185,2.0,1.0,1.0,33.7,33.6,33.6,2.9,2.0,2.58,0.6665282153326783,-0.021056399618251242,0.7315220806715534,0.009735768140116542,-0.090468,-32.690909
11.185,2.0,1.0,1.0,33.7,33.6,33.6,2.9,2.0,2.5825,0.6603141279105016,-0.02148386493859426,0.7369477683031561,0.009701241995534784,-0.0917,-32.551826
11.185,2.0,1.0,1.0,33.7,33.6,33.6,2.9,2.0,2.585,0.6540154128119705,-0.02192034260635359,0.7423520123103965,0.009662101959770675,-0.09296,-32.411958
11.185,2.0,1.0,1.0,33.7,33.6,33.6,2.9,2.0,2.5875,0.6476310604778277,-0.022366062116685636,0.7477338766890265,0.009618138594597932,-0.09425,-32.271289
11.185,2.0,1.0,1.0,33.7,33.6,33.6,2.9,2.0,2.59,0.6411600458017284,-0.022821260198412404,0.7530923946052128,0.009569132660681516,-0.095571,-32.129803
11.185,2.0,1.0,1.0,33.7,33.6,33.6,2.9,2.0,2.5925,0.6346013279095708,-0.023286181087108074,0.7584265672704879,0.009514854596776262,-0.096924,-31.987482
11.185,2.0,1.0,1.0,33.7,33.6,33.6,2.9,2.0,2.595,0.6279538499366537,-0.023761076810153686,0.76373536276828,0.009455063967010166,-0.098309,-31.844309
11.185,2.0,1.0,1.0,33.7,33.6,33.6,2.9,2.0,2.5975,0.6212165388026313,-0.024246207484339307,0.7690177148294154,0.009389508873997936,-0.099729,-31.700267
11.185,2.0,1.0,1.0,33.7,33.6,33.6,2.9,2.0,2.6,0.614388304984272,-0.02474184162662113,0.7742725215537368,0.009317925335348896,-0.101184,-31.555337
11.185,2.0,1.0,1.0,33.7,33.6,33.6,2.9,2.0,2.6025,0.6074680422860144,-0.0252482564786694,0.7794986440748127,0.009240036620934948,-0.102675,-31.409502
11.185,2.0,1.0,1.0,33.7,33.6,33.6,2.9,2.0,2.605,0.6004546276083005,-0.025765738345872286,0.7846949051644827,0.009155552548067547,-0.104203,-31.262741
11.185,2.0,1.0,1.0,33.7,33.6,33.6,2.9,2.0,2.6075,0.5933469207136928,-0.02629458295149296,0.7898600877737566,0.009064168731496156,-0.105771,-31.115036
11.185,2.0,1.0,1.0,33.7,33.6,33.6,2.9,2.0,2.61,0.586143763990757,-0.026835095806705612,0.7949929335063048,0.008965565784882262,-0.107379,-30.966366
11.185,2.0,1.0,1.0,33.7,33.6,33.6,2.9,2.0,2.6125,0.5788439822157136,-0.02738759259727046,0.8000921410204908,0.00885940847011894,-0.109028,-30.816711
11.185,2.0,1.0,1.0,33.7,33.6,33.6,2.9,2.0,2.615,0.5714463823118452,-0.02795239958763772,0.8051563643556245,0.008745344790556529,-0.110721,-30.66605
11.185,2.0,1.0,1.0,33.7,33.6,33.6,2.9,2.0,2.6175,0.5639497531066736,-0.028529854043302563,0.8101842111777079,0.008623005023854387,-0.112459,-30.51436
11.185,2.0,1.0,1.0,33.7,33.6,33.6,2.9,2.0,2.62,0.5563528650869042,-0.02912030467226507,0.8151742409396328,0.008492000689805618,-0.114243,-30.36162
11.185,2.0,1.0,1.0,33.7,33.6,33.6,2.9,2.0,2.6225,0.5486544701511505,-0.02972411208648044,0.8201249629503486,0.008351923448072061,-0.116075,-30.207807
11.185,2.0,1.0,1.0,33.7,33.6,33.6,2.9,2.0,2.625,0.540853301360483,-0.0303416492842105,0.825034834347058,0.00820234392031547,-0.117958,-30.052896
11.185,2.0,1.0,1.0,33.7,33.6,33.6,2.9,2.0,2.6275,0.5329480726868107,-0.03097330215422229,0.8299022579640528,0.008042810430715823,-0.119892,-29.896864
11.185,2.0,1.0,1.0,33.7,33.6,33.6,2.9,2.0,2.63,0.5249374787591775,-0.03161947000279533,0.8347255800911999,0.007872847658321766,-0.12188,-29.739685
11.185,2.0,1.0,1.0,33.7,33.6,33.6,2.9,2.0,2.6325,0.5168201946080414,-0.03228056610452872,0.8395030881145281,0.0076919551940754964,-0.123925,-29.581334
11.185,2.0,1.0,1.0,33.7,33.6,33.6,2.9,2.0,2.635,0.5085948754076455,-0.03295701827795014,0.844233008030699,0.007499605994691571,-0.126027,-29.421783
11.185,2.0,1.0,1.0,33.7,33.6,33.6,2.9,2.0,2.6375,0.5002601562166338,-0.033649269486941795,0.8489135018264059,0.007295244724835198,-0.128191,-29.261007
11.185,2.0,1.0,1.0,33.7,33.6,33.6,2.9,2.0,2.64,0.49181465171708527,-0.03435777846900208,0.8535426647129608,0.0070782859782345465,-0.130417,-29.098975
11.185,2.0,1.0,1.0,33.7,33.6,33.6,2.9,2.0,2.6425,0.48325695595223533,-0.03508302039135308,0.8581185222054106,0.0068481123674653055,-0.132709,-28.93566
11.185,2.0,1.0,1.0,33.7,33.6,33.6,2.9,2.0,2.645,0.47458564206317955,-0.03582548753588537,0.8626390270345927,0.006604072471151416,-0.13507,-28.771031
11.185,2.0,1.0,1.0,33.7,33.6,33.6,2.9,2.0,2.6475,0.4657992620249868,-0.03658569001390069,0.8671020558793676,0.006345478626223697,-0.137502,-28.605057
11.185,2.0,1.0,1.0,33.7,33.6,33.6,2.9,2.0,2.65,0.4568963463827005,-0.0373641565115585,0.8715054059051461,0.006071604551654885,-0.140009,-28.437706
11.185,2.0,1.0,1.0,33.7,33.6,33.6,2.9,2.0,2.6525,0.4478754039879066,-0.03816143506685772,0.8758467910934064,0.0057816827887312745,-0.142593,-28.268945
11.185,2.0,1.0,1.0,33.7,33.6,33.6,2.9,2.0,2.655,0.438734921736629,-0.03897809387888859,0.8801238383454522,0.005474901941406765,-0.145258,-28.098739
11.185,2.0,1.0,1.0,33.7,33.6,33.6,2.9,2.0,2.6575,0.42947336430956173,-0.03981472214994839,0.8843340833419648,0.005150403698603193,-0.148008,-27.927054
11.185,2.0,1.0,1.0,33.7,33.6,33.6,2.9,2.0,2.66,0.42008917391585643,-0.0406719309609452,0.8884749661380544,0.004807279618441346,-0.150846,-27.753851
11.185,2.0,1.0,1.0,33.7,33.6,33.6,2.9,2.0,2.6625,0.410580770041981,-0.041550354180288636,0.8925438264714299,0.004444567652293027,-0.153777,-27.579095
11.185,2.0,1.0,1.0,33.7,33.6,33.6,2.9,2.0,2.665,0.400946549207475,-0.042450649406183545,0.8965378987590211,0.004061248384200318,-0.156805,-27.402744
11.185,2.0,1.0,1.0,33.7,33.6,33.6,2.9,2.0,2.6675,0.3911848847298977,-0.04337349894189202,0.9004543067547341,0.003656240958590821,-0.159934,-27.224759
11.185,2.0,1.0,1.0,33.7,33.6,33.6,2.9,2.0,2.67,0.3812941265017224,-0.04431961080308662,0.9042900578381424,0.0032283986662797557,-0.16317,-27.045098
11.185,2.0,1.0,1.0,33.7,33.6,33.6,2.9,2.0,2.6725,0.3712726007825343,-0.04528971975588021,0.9080420369006714,0.002776504155461104,-0.166517,-26.863716
11.185,2.0,1.0,1.0,33.7,33.6,33.6,2.9,2.0,2.675,0.36111861001065565,-0.04628458838344537,0.9117069997921292,0.002299264230693479,-0.169982,-26.680568
11.185,2.0,1.0,1.0,33.7,33.6,33.6,2.9,2.0,2.6775,0.3508304326391741,-0.047305008178323865,0.9152815662863026,0.001795304198731838,-0.173569,-26.495607
11.185,2.0,1.0,1.0,33.7,33.6,33.6,2.9,2.0,2.68,0.34040632300239954,-0.048351800656528124,0.9187622125197622,0.001263161715380897,-0.177286,-26.308784
11.185,2.0,1.0,1.0,33.7,33.6,33.6,2.9,2.0,2.6825,0.32984451122009245,-0.04942581848831525,0.9221452628526822,0.000701280082275769,-0.181138,-26.120048
11.185,2.0,1.0,1.0,33.7,33.6,33.6,2.9,2.0,2.685,0.31914320314830297,-0.05052794663904603,0.9254268810946534,0.00010800093654836429,-0.185133,-25.929347
11.185,2.0,1.0,1.0,33.7,33.6,33.6,2.9,2.0,2.6875,0.308300580387541,-0.051659103511732,0.928603061031711,-0.000518443730381169,-0.189279,-25.736625
11.185,2.0,1.0,1.0,33.7,33.6,33.6,2.9,2.0,2.69,0.29731480036123703,-0.05282024208070382,0.9316696161832745,-0.0011799402962499178,-0.193585,-25.541826
11.185,2.0,1.0,1.0,33.7,33.6,33.6,2.9,2.0,2.6925,0.28618399648011167,-0.05401235100318549,0.9346221687090949,-0.0018785030536104625,-0.198057,-25.344888
11.185,2.0,1.0,1.0,33.7,33.6,33.6,2.9,2.0,2.695,0.2749062784113978,-0.05523645569236131,0.9374561373765465,-0.0026162846674429364,-0.202707,-25.145752
11.185,2.0,1.0,1.0,33.7,33.6,33.6,2.9,2.0,2.6975,0.26347973247569,-0.056493619331635776,0.9401667244875678,-0.003395587645562686,-0.207544,-24.944351
11.185,2.0,1.0,1.0,33.7,33.6,33.6,2.9,2.0,2.7,0.25190242219903336,-0.05778494380509063,0.9427489016519143,-0.004218876935279785,-0.21258,-24.740618
11.185,2.0,1.0,1.0,33.7,33.6,33.6,2.9,2.0,2.7025,0.24017238905352326,-0.05911157051344082,0.9451973942790538,-0.005088793774141892,-0.217825,-24.534483
11.185,2.0,1.0,1.0,33.7,33.6,33.6,2.9,2.0,2.705,0.22828765342668456,-0.06047468103787781,0.9475066646446343,-0.006008170938978098,-0.223294,-24.325872
11.185,2.0,1.0,1.0,33.7,33.6,33.6,2.9,2.0,2.7075,0.216246215868251,-0.06187549760581194,0.9496708933687469,-0.006980049556176615,-0.228998,-24.114708
11.185,2.0,1.0,1.0,33.7,33.6,33.6,2.9,2.0,2.71,0.2040460586732141,-0.06331528330233148,0.9516839591217727,-0.008007697657520128,-0.234954,-23.900911
11.185,2.0,1.0,1.0,33.7,33.6,33.6,2.9,2.0,2.7125,0.19168514787232915,-0.06479534195883137,0.9535394163491034,-0.009094630690397612,-0.241178,-23.684397
11.185,2.0,1.0,1.0,33.7,33.6,33.6,2.9,2.0,2.715,0.17916143571635393,-0.06631701763519803,0.9552304707778638,-0.010244634219279562,-0.247686,-23.465078
11.185,2.0,1.0,1.0,33.7,33.6,33.6,2.9,2.0,2.7175,0.16647286375860995,-0.06788169359359418,0.9567499524364624,-0.01146178908755671,-0.254498,-23.242861
11.185,2.0,1.0,1.0,33.7,33.6,33.6,2.9,2.0,2.72,0.15361736666277073,-0.06949079063950658,0.9580902858807094,-0.012750499345847974,-0.261634,-23.01765
11.185,2.0,1.0,1.0,33.7,33.6,33.6,2.9,2.0,2.7225,0.14059287689008,-0.07114576467837852,0.9592434572774644,-0.01411552329544734,-0.269117,-22.789344
11.185,2.0,1.0,1.0,33.7,33.6,33.6,2.9,2.0,2.725,0.12739733045361615,-0.0728481033026877,0.9602009779475794,-0.015562008044568252,-0.276972,-22.557835
11.185,2.0,1.0,1.0,33.7,33.6,33.6,2.9,2.0,2.7275,0.11402867396805462,-0.07459932118332074,0.9609538439131899,-0.01709552803150644,-0.285224,-22.323014
11.185,2.0,1.0,1.0,33.7,33.6,33.6,2.9,2.0,2.73,0.10048487327371278,-0.0764009539887304,0.961492490928915,-0.01872212803392953,-0.293905,-22.084761
11.185,2.0,1.0,1.0,33.7,33.6,33.6,2.9,2.0,2.7325,0.08676392397541767,-0.07825455049340023,0.961806744400982,-0.02044837125861059,-0.303045,-21.842954
11.185,2.0,1.0,1.0,33.7,33.6,33.6,2.9,2.0,2.735,0.07286386431303278,-0.08016166246073908,0.9618857635110116,-0.02228139319259731,-0.312681,-21.597463
11.185,2.0,1.0,1.0,33.7,33.6,33.6,2.9,2.0,2.7375,0.05878279087458604,-0.08212383179115025,0.9617179787604669,-0.02422896199686656,-0.32285,-21.348151
11.185,2.0,1.0,1.0,33.7,33.6,33.6,2.9,2.0,2.74,0.044518877779760116,-0.0841425743091465,0.9612910220352877,-0.026299546338967406,-0.333598,-21.094874
11.185,2.0,1.0,1.0,33.7,33.6,33.6,2.9,2.0,2.7425,0.03007040010615783,-0.08621935941833082,0.9605916481560763,-0.028502391694319455,-0.34497,-20.83748
11.185,2.0,1.0,1.0,33.7,33.6,33.6,2.9,2.0,2.745,0.01543576251114665,-0.08835558467262818,0.9596056467242617,-0.03084760629921131,-0.357021,-20.57581
11.185,2.0,1.0,1.0,33.7,33.6,33.6,2.9,2.0,2.7475,0.0006135342268400055,-0.09055254408710349,0.9583177428966337,-0.03334625811490415,-0.369808,-20.309693
11.185,2.0,1.0,1.0,33.7,33.6,33.6,2.9,2.0,2.75,-0.0143975081130331,-0.0928113887303512,0.956711485516183,-0.0360104843644663,-0.383397,-20.038953
11.185,2.0,1.0,1.0,33.7,33.6,33.6,2.9,2.0,2.7525,-0.02959832800296992,-0.09513307778775426,0.9547691207935023,-0.03885361543493843,-0.397861,-19.7634
11.185,2.0,1.0,1.0,33.7,33.6,33.6,2.9,2.0,2.755,-0.04498956469761936,-0.09751831784164748,0.9524714494672528,-0.04189031519981591,-0.413282,-19.482834
11.185,2.0,1.0,1.0,33.7,33.6,33.6,2.9,2.0,2.7575,-0.060571454132320394,-0.09996748755585018,0.949797665072169,-0.04513674011266261,-0.429751,-19.197046
11.185,2.0,1.0,1.0,33.7,33.6,33.6,2.9,2.0,2.76,-0.07634373161243778,-0.1024805442462461,0.9467251706079111,-0.048610719752653055,-0.447372,-18.905813
11.185,2.0,1.0,1.0,33.7,33.6,33.6,2.9,2.0,2.7625,-0.09230551185661241,-0.10505690792494661,0.9432293705330319,-0.05233196186546226,-0.46626,-18.608899
11.185,2.0,1.0,1.0,33.7,33.6,33.6,2.9,2.0,2.765,-0.10845514084151549,-0.10769531726980595,0.9392834346105587,-0.056322285332690084,-0.486548,-18.306054
11.185,2.0,1.0,1.0,33.7,33.6,33.6,2.9,2.0,2.7675,-0.12479001244673482,-0.11039365052473221,0.9348580297165894,-0.060605884908189016,-0.508384,-17.997014
11.185,2.0,1.0,1.0,33.7,33.6,33.6,2.9,2.0,2.77,-0.14130634104802003,-0.11314870248996503,0.9299210153122967,-0.06520963195839094,-0.531939,-17.681502
11.185,2.0,1.0,1.0,33.7,33.6,33.6,2.9,2.0,2.7725,-0.1579988788388957,-0.11595590639944275,0.9244370979098676,-0.07016341579836091,-0.557407,-17.359221
11.185,2.0,1.0,1.0,33.7,33.6,33.6,2.9,2.0,2.775,-0.17486056362360033,-0.11880898645454405,0.9183674395955612,-0.07550053046376642,-0.58501,-17.029861
11.185,2.0,1.0,1.0,33.7,33.6,33.6,2.9,2.0,2.7775,-0.19188207892347664,-0.12169952289608975,0.9116692156071566,-0.0812581118015291,-0.615005,-16.693092
11.185,2.0,1.0,1.0,33.7,33.6,33.6,2.9,2.0,2.78,-0.20905130322313803,-0.12461640650013465,0.9042951162549204,-0.0874776294414351,-0.647689,-16.348569
11.185,2.0,1.0,1.0,33.7,33.6,33.6,2.9,2.0,2.7825,-0.22635261873043638,-0.12754515295911692,0.8961927893683116,-0.0942054372826834,-0.683403,-15.995927
11.185,2.0,1.0,1.0,33.7,33.6,33.6,2.9,2.0,2.785,-0.2437660417293303,-0.13046703935541007,0.8873042213215944,-0.10149338421581469,-0.722547,-15.634787
11.185,2.0,1.0,1.0,33.7,33.6,33.6,2.9,2.0,2.7875,-0.2612661259599925,-0.13335801434791641,0.8775650581176132,-0.10939948332321577,-0.765589,-15.26475
11.185,2.0,1.0,1.0,33.7,33.6,33.6,2.9,2.0,2.79,-0.2788205768516715,-0.13618732016656507,0.8669038738708594,-0.11798863187940718,-0.813076,-14.885404
11.185,2.0,1.0,1.0,33.7,33.6,33.6,2.9,2.0,2.7925,-0.29638849714385535,-0.1389157473385375,0.8552414036651812,-0.12733336476943444,-0.865655,-14.496326
11.185,2.0,1.0,1.0,33.7,33.6,33.6,2.9,2.0,2.795,-0.31391816268621475,-0.1414934214939932,0.8424897731860674,-0.13751460844451835,-0.924094,-14.097083
11.185,2.0,1.0,1.0,33.7,33.6,33.6,2.9,2.0,2.7975,-0.33134420029012907,-0.14385699492157664,0.8285517817723002,-0.14862237821525406,-0.989304,-13.687242
11.185,2.0,1.0,1.0,33.7,33.6,33.6,2.9,2.0,2.8,-0.34858400701339565,-0.1459260833920384,0.8133203331114965,-0.16075632404324025,-1.062378,-13.266379
11.185,2.0,1.0,1.0,33.7,33.6,33.6,2.9,2.0,2.8025,-0.3655332126312968,-0.1475987516168267,0.7966781653775434,-0.17402597239951126,-1.144632,-12.834088
11.185,2.0,1.0,1.0,33.7,33.6,33.6,2.9,2.0,2.805,-0.38205994656142195,-0.14874581088647362,0.7784981198500032,-0.18855042458597135,-1.237653,-12.390005
11.185,2.0,1.0,1.0,33.7,33.6,33.6,2.9,2.0,2.8075,-0.3979976331427305,-0.14920365597823568,0.7586443177097627,-0.20445714150536806,-1.343375,-11.933829
11.185,2.0,1.0,1.0,33.7,33.6,33.6,2.9,2.0,2.81,-0.4131360179075325,-0.14876534838568448,0.7369748076140721,-0.22187925251870694,-1.464154,-11.465358
11.185,2.0,1.0,1.0,33.7,33.6,33.6,2.9,2.0,2.8125,-0.427210148035798,-0.147169675065804,0.713346526155122,-0.240950547649748,-1.602884,-10.984541
11.185,2.0,1.0,1.0,33.7,33.6,33.6,2.9,2.0,2.815,-0.4398871404130761,-0.14408802408591417,0.6876238074895327,-0.261796920281025,-1.763125,-10.491535
11.185,2.0,1.0,1.0,33.7,33.6,33.6,2.9,2.0,2.8175,-0.4507508553253079,-0.1391092053259154,0.6596922119347584,-0.28452249758666714,-1.949274,-9.986799
11.185,2.0,1.0,1.0,33.7,33.6,33.6,2.9,2.0,2.82,-0.4592851949425687,-0.13172294737683538,0.6294801179951294,-0.3091880272883416,-2.166767,-9.471208
11.185,2.0,1.0,1.0,33.7,33.6,33.6,2.9,2.0,2.8225,-0.46485788631554004,-0.1213039427297161,0.5969912733057958,-0.33577834780246263,-2.42231,-8.946201
11.185,2.0,1.0,1.0,33.7,33.6,33.6,2.9,2.0,2.825,-0.46670860418946464,-0.10710030537263224,0.5623521080678919,-0.36415517486735427,-2.724125,-8.413979
11.185,2.0,1.0,1.0,33.7,33.6,33.6,2.9,2.0,2.8275,-0.4639485066486884,-0.08823351062832648,0.5258775506647233,-0.3939915206132492,-3.082155,-7.877738
11.185,2.0,1.0,1.0,33.7,33.6,33.6,2.9,2.0,2.83,-0.45558292761467606,-0.06372153041305176,0.48815728315870627,-0.4246858844256225,-3.50808,-7.341954
