1,w,sub_t,h,l1,l2,l3,g1,g2,Freq,S11_re,S21_re,S11_img,S21_img,S11_dB,S21_dB
11.185,2.0,1.0,1.0,34.9,34.2,34.2,4.3,3.0,2.5,-0.418011313070094,0.320677104187412,-0.660575143359776,-0.0959555472642172,-2.138927,-9.50622
11.185,2.0,1.0,1.0,34.9,34.2,34.2,4.3,3.0,2.5025,-0.38066698812097416,0.34141143630561843,-0.6669673605974706,-0.08211605230178108,-2.2933,-9.0902
11.185,2.0,1.0,1.0,34.9,34.2,34.2,4.3,3.0,2.505,-0.3417258765137548,0.36414513881208066,-0.6690830876709929,-0.0651725158604805,-2.483755,-8.637579
11.185,2.0,1.0,1.0,34.9,34.2,34.2,4.3,3.0,2.5075,-0.30132216004389795,0.3890264543331947,-0.6659427798128734,-0.04407865765631713,-2.722353,-8.145017
11.185,2.0,1.0,1.0,34.9,34.2,34.2,4.3,3.0,2.51,-0.25982153254118895,0.41604225263581707,-0.6562302332846432,-0.017381530406614946,-3.026439,-7.609678
11.185,2.0,1.0,1.0,34.9,34.2,34.2,4.3,3.0,2.5125,-0.21803562310586896,0.4448175988394882,-0.6382029705254005,0.01692197050481804,-3.421389,-7.03008
11.185,2.0,1.0,1.0,34.9,34.2,34.2,4.3,3.0,2.515,-0.17760487261032618,0.4742315340166294,-0.6096443718708805,0.061525576432770734,-3.94469,-6.4077
11.185,2.0,1.0,1.0,34.9,34.2,34.2,4.3,3.0,2.5175,-0.14164552289351348,0.5017178611376275,-0.5679950200489579,0.11983217072418705,-4.65109,-5.749869
11.185,2.0,1.0,1.0,34.9,34.2,34.2,4.3,3.0,2.52,-0.1157130228825747,0.5221167676338649,-0.5110011203507207,0.19551510301538624,-5.614392,-5.074742
11.185,2.0,1.0,1.0,34.9,34.2,34.2,4.3,3.0,2.5225,-0.10880418451186671,0.5262044492553113,-0.4385436173925282,0.29087406121562626,-6.900318,-4.418931
11.185,2.0,1.0,1.0,34.9,34.2,34.2,4.3,3.0,2.525,-0.13305291779208345,0.5001024817501419,-0.3563947216506351,0.4028971196176614,-8.394706,-3.846512
11.185,2.0,1.0,1.0,34.9,34.2,34.2,4.3,3.0,2.5275,-0.19900488226287072,0.4289917224462173,-0.2809359767434939,0.5172684221199857,-9.261792,-3.452456
11.185,2.0,1.0,1.0,34.9,34.2,34.2,4.3,3.0,2.53,-0.30446849412777677,0.3087071564418918,-0.2385563290835526,0.6062653424938742,-8.250388,-3.345524
11.185,2.0,1.0,1.0,34.9,34.2,34.2,4.3,3.0,2.5325,-0.4256901849489129,0.15832663816219983,-0.2513281276666534,0.6412887174315371,-6.11938,-3.601963
11.185,2.0,1.0,1.0,34.9,34.2,34.2,4.3,3.0,2.535,-0.528040641343803,0.013944852052416037,-0.31792238952607893,0.615123884780549,-4.203289,-4.218517
11.185,2.0,1.0,1.0,34.9,34.2,34.2,4.3,3.0,2.5375,-0.5897919272236755,-0.09610250856977245,-0.4149029601200542,0.5465814005089356,-2.839975,-5.114677
11.185,2.0,1.0,1.0,34.9,34.2,34.2,4.3,3.0,2.54,-0.610573547429349,-0.16494935757427204,-0.5164887510270129,0.4622770172515892,-1.941182,-6.181482
11.185,2.0,1.0,1.0,34.9,34.2,34.2,4.3,3.0,2.5425,-0.6015083074065761,-0.2003065679194433,-0.6075066895085025,0.38075158590967023,-1.361559,-7.326065
11.185,2.0,1.0,1.0,34.9,34.2,34.2,4.3,3.0,2.545,-0.5745394534846678,-0.21332587518613808,-0.683030791979702,0.310127831729429,-0.987452,-8.486694
11.185,2.0,1.0,1.0,34.9,34.2,34.2,4.3,3.0,2.5475,-0.5382934158667656,-0.21308816303229802,-0.7435778711435143,0.252039897769529,-0.743436,-9.628498
11.185,2.0,1.0,1.0,34.9,34.2,34.2,4.3,3.0,2.55,-0.4980163304389185,-0.2056331437049372,-0.7915412553189789,0.20532129412846717,-0.582115,-10.734424
11.185,2.0,1.0,1.0,34.9,34.2,34.2,4.3,3.0,2.5525,-0.4566113253746284,-0.19461390822550256,-0.8295120891187908,0.16801265670517537,-0.474089,-11.7978
11.185,2.0,1.0,1.0,34.9,34.2,34.2,4.3,3.0,2.555,-0.41557714116591316,-0.18212933080743904,-0.8597050274653204,0.13819568009655095,-0.401018,-12.817547
11.185,2.0,1.0,1.0,34.9,34.2,34.2,4.3,3.0,2.5575,-0.3756267159733376,-0.16934259632201046,-0.8838557088339376,0.11425493490554728,-0.351295,-13.795401
11.185,2.0,1.0,1.0,34.9,34.2,34.2,4.3,3.0,2.56,-0.3370502274848332,-0.15687358704973398,-0.9032772915303283,0.09490961010454986,-0.317447,-14.73439
11.185,2.0,1.0,1.0,34.9,34.2,34.2,4.3,3.0,2.5625,-0.299917535554342,-0.145032471266638,-0.91895111828924,0.0791693782410955,-0.294571,-15.638022
11.185,2.0,1.0,1.0,34.9,34.2,34.2,4.3,3.0,2.565,-0.264188272661773,-0.13395512853275232,-0.9316097766322908,0.06627507960971543,-0.279397,-16.509875
11.185,2.0,1.0,1.0,34.9,34.2,34.2,4.3,3.0,2.5675,-0.22977076581201186,-0.12368087631120621,-0.9418026684857784,0.05564487166136193,-0.269706,-17.353401
11.185,2.0,1.0,1.0,34.9,34.2,34.2,4.3,3.0,2.57,-0.19655304179545263,-0.11419692944739264,-0.9499448038612004,0.04683091537403311,-0.263973,-18.17184
11.185,2.0,1.0,1.0,34.9,34.2,34.2,4.3,3.0,2.5725,-0.1644186991063573,-0.1054637757133376,-0.9563522112420958,0.039486247906325524,-0.261137,-18.968201
11.185,2.0,1.0,1.0,34.9,34.2,34.2,4.3,3.0,2.575,-0.13325461067886044,-0.09742958912742483,-0.9612673940093741,0.03333999503536817,-0.260451,-19.74527
11.185,2.0,1.0,1.0,34.9,34.2,34.2,4.3,3.0,2.5775,-0.10295424558701818,-0.09003832402654795,-0.9648775990201058,0.02817897482875493,-0.261389,-20.505634
11.185,2.0,1.0,1.0,34.9,34.2,34.2,4.3,3.0,2.58,-0.07341867171878103,-0.08323415489648887,-0.967327950165636,0.023834056996197284,-0.263579,-21.251712
11.185,2.0,1.0,1.0,34.9,34.2,34.2,4.3,3.0,2.5825,-0.0445563610871693,-0.07696380141439431,-0.9687309150960044,0.02017001707845748,-0.266759,-21.985787
11.185,2.0,1.0,1.0,34.9,34.2,34.2,4.3,3.0,2.585,-0.01628240458737233,-0.07117763396164628,-0.9691731372947391,0.017077949873332963,-0.270747,-22.710044
11.185,2.0,1.0,1.0,34.9,34.2,34.2,4.3,3.0,2.5875,0.01148254044401793,-0.06583008320770954,-0.9687203532092283,0.01446955984626933,-0.275421,-23.426603
11.185,2.0,1.0,1.0,34.9,34.2,34.2,4.3,3.0,2.59,0.038813403312350045,-0.060879661088531455,-0.9674208935366887,0.012272834443592928,-0.280706,-24.137554
11.185,2.0,1.0,1.0,34.9,34.2,34.2,4.3,3.0,2.5925,0.06578187418045278,-0.056288773609530496,-0.9653081120742728,0.010428742920037126,-0.286559,-24.844991
11.185,2.0,1.0,1.0,34.9,34.2,34.2,4.3,3.0,2.595,0.0924575683536779,-0.05202343092795323,-0.9624019743636836,0.008888701669421382,-0.292971,-25.551052
11.185,2.0,1.0,1.0,34.9,34.2,34.2,4.3,3.0,2.5975,0.11890917663386191,-0.04805291564194923,-0.9587099569159999,0.007612617712214875,-0.299954,-26.257954
11.185,2.0,1.0,1.0,34.9,34.2,34.2,4.3,3.0,2.6,0.14520561298644713,-0.04434944370645036,-0.9542273454399003,0.006567372903840863,-0.307544,-26.968032
11.185,2.0,1.0,1.0,34.9,34.2,34.2,4.3,3.0,2.6025,0.17141717951162602,-0.04088783664581473,-0.9489369693254952,0.0057256483626974275,-0.3158,-27.68378
11.185,2.0,1.0,1.0,34.9,34.2,34.2,4.3,3.0,2.605,0.1976167738455378,-0.037645214461609254,-0.9428083634069132,0.005065015720299378,-0.324801,-28.407889
11.185,2.0,1.0,1.0,34.9,34.2,34.2,4.3,3.0,2.6075,0.22388116704253122,-0.03460071331020844,-0.9357963012001974,0.004567242038454519,-0.334652,-29.143281
11.185,2.0,1.0,1.0,34.9,34.2,34.2,4.3,3.0,2.61,0.2502923810417728,-0.031735229161672256,-0.9278385907040806,0.004217770779208413,-0.345487,-29.893124
11.185,2.0,1.0,1.0,34.9,34.2,34.2,4.3,3.0,2.6125,0.2769391933194524,-0.02903118740528702,-0.9188529577023975,0.004005353673363318,-0.357469,-30.660813
11.185,2.0,1.0,1.0,34.9,34.2,34.2,4.3,3.0,2.615,0.303918790238085,-0.026472338322349208,-0.9087327533110735,0.003921819006188159,-0.370808,-31.449867
11.185,2.0,1.0,1.0,34.9,34.2,34.2,4.3,3.0,2.6175,0.3313385756801227,-0.0240435794186691,-0.8973410993215005,0.0039619718656610245,-0.385759,-32.263664
11.185,2.0,1.0,1.0,34.9,34.2,34.2,4.3,3.0,2.62,0.35931810955649024,-0.02173080804613897,-0.8845029072151198,0.004123632433613339,-0.402648,-33.104848
11.185,2.0,1.0,1.0,34.9,34.2,34.2,4.3,3.0,2.6225,0.3879910859715326,-0.0195208122372505,-0.869993944369864,0.004407830795270423,-0.421885,-33.974071
11.185,2.0,1.0,1.0,34.9,34.2,34.2,4.3,3.0,2.625,0.417507133021208,-0.0174012156449998,-0.853525726289512,0.00481919278305032,-0.443996,-34.867465
11.185,2.0,1.0,1.0,34.9,34.2,34.2,4.3,3.0,2.6275,0.44803296685794963,-0.015360506646801554,-0.8347244104701937,0.005366573602272204,-0.469663,-35.771718
11.185,2.0,1.0,1.0,34.9,34.2,34.2,4.3,3.0,2.63,0.47975194641785285,-0.013388207249200116,-0.8131009331251035,0.006064028174737481,-0.499785,-36.65513
11.185,2.0,1.0,1.0,34.9,34.2,34.2,4.3,3.0,2.6325,0.512860120457533,-0.011475284540863726,-0.7880081672478543,0.006932254846654978,-0.535564,-37.453593
11.185,2.0,1.0,1.0,34.9,34.2,34.2,4.3,3.0,2.635,0.5475549602921685,-0.009614996129947092,-0.7585785776234529,0.00800072019286758,-0.57864,-38.055976
11.185,2.0,1.0,1.0,34.9,34.2,34.2,4.3,3.0,2.6375,0.5840091333511966,-0.007804531869741406,-0.7236322362120178,0.009310776636253822,-0.631294,-38.309099
11.185,2.0,1.0,1.0,34.9,34.2,34.2,4.3,3.0,2.64,0.6223137549114156,-0.006048151275093999,-0.6815395265785562,0.010920227277599821,-0.696774,-38.073448
11.185,2.0,1.0,1.0,34.9,34.2,34.2,4.3,3.0,2.6425,0.6623588666572888,-0.004363196501120362,-0.6300149687219383,0.012909952841551341,-0.779818,-37.311779
11.185,2.0,1.0,1.0,34.9,34.2,34.2,4.3,3.0,2.645,0.7035829939520832,-0.0027917606761074915,-0.5658096278119751,0.015393263500399131,-0.88752,-36.112835
11.185,2.0,1.0,1.0,34.9,34.2,34.2,4.3,3.0,2.6475,0.7444453823210927,-0.0014236943608746855,-0.4842687619138345,0.018528048585424558,-1.030798,-34.617839
11.185,2.0,1.0,1.0,34.9,34.2,34.2,4.3,3.0,2.65,0.7813050637538721,-0.00044252930660449146,-0.3787687994151406,0.022528699439543453,-1.226843,-32.943602
11.185,2.0,1.0,1.0,34.9,34.2,34.2,4.3,3.0,2.6525,0.8060462411293985,-0.00021670134279886747,-0.24029455926010637,0.027662915892085218,-1.50303,-31.161774
11.185,2.0,1.0,1.0,34.9,34.2,34.2,4.3,3.0,2.655,0.8012499959657755,-0.0014708186846906736,-0.05837815001717959,0.03417868524088397,-1.901646,-29.316858
11.185,2.0,1.0,1.0,34.9,34.2,34.2,4.3,3.0,2.6575,0.7318649430896883,-0.005541619296956845,0.17228824913258667,0.04199353441594606,-2.477137,-27.461373
11.185,2.0,1.0,1.0,34.9,34.2,34.2,4.3,3.0,2.66,0.5388734643595233,-0.014428874880118733,0.4286551384432591,0.049785677218368726,-3.241027,-25.707637
11.185,2.0,1.0,1.0,34.9,34.2,34.2,4.3,3.0,2.6625,0.16875133417948804,-0.029341931629739294,0.6134321719747218,0.05352830697886755,-3.927852,-24.287305
11.185,2.0,1.0,1.0,34.9,34.2,34.2,4.3,3.0,2.665,-0.31246003760006763,-0.0465425947235303,0.5635002684360356,0.047702612488408944,-3.817805,-23.524457
11.185,2.0,1.0,1.0,34.9,34.2,34.2,4.3,3.0,2.6675,-0.678270199567744,-0.05738186874982936,0.24617523715650028,0.03288883590062465,-2.834519,-23.59086
11.185,2.0,1.0,1.0,34.9,34.2,34.2,4.3,3.0,2.67,-0.7971906797693481,-0.05846954614273652,-0.15119898743313048,0.017066221359580077,-1.815273,-24.306327
11.185,2.0,1.0,1.0,34.9,34.2,34.2,4.3,3.0,2.6725,-0.7427907527369924,-0.05379576224787981,-0.4686502347462462,0.005578000035292541,-1.127366,-25.338596
11.185,2.0,1.0,1.0,34.9,34.2,34.2,4.3,3.0,2.675,-0.6226991762180355,-0.04756551324074662,-0.6784997750905789,-0.001403659096383703,-0.715446,-26.450376
11.185,2.0,1.0,1.0,34.9,34.2,34.2,4.3,3.0,2.6775,-0.4941815832162562,-0.04168273764744451,-0.8080014011101944,-0.0053429081097986905,-0.47168,-27.5301
11.185,2.0,1.0,1.0,34.9,34.2,34.2,4.3,3.0,2.68,-0.37738402063788884,-0.03666060898611511,-0.8863740707812438,-0.0074824283049257255,-0.324157,-28.53876
11.185,2.0,1.0,1.0,34.9,34.2,34.2,4.3,3.0,2.6825,-0.27660006815221605,-0.03249905600448859,-0.9335099899041533,-0.008593599566552956,-0.232153,-29.469067
11.185,2.0,1.0,1.0,34.9,34.2,34.2,4.3,3.0,2.685,-0.1908075012619073,-0.029062917029811893,-0.9615178184999952,-0.009117239742080556,-0.17311,-30.325563
11.185,2.0,1.0,1.0,34.9,34.2,34.2,4.3,3.0,2.6875,-0.117663214065681,-0.0262070981314328,-0.977602537338857,-0.00930199605651444,-0.134292,-31.1163
11.185,2.0,1.0,1.0,34.9,34.2,34.2,4.3,3.0,2.69,-0.054822034649228434,-0.023809377530010147,-0.9860881814295767,-0.0092897501176684,-0.108282,-31.849632
11.185,2.0,1.0,1.0,34.9,34.2,34.2,4.3,3.0,2.6925,-0.0002938575117801499,-0.021774077979929734,-0.9896217031822845,-0.00916305415842057,-0.090615,-32.533097
11.185,2.0,1.0,1.0,34.9,34.2,34.2,4.3,3.0,2.695,0.0475176447701093,-0.020028034536944374,-0.9898612179445575,-0.008970938130062032,-0.078517,-33.173136
11.185,2.0,1.0,1.0,34.9,34.2,34.2,4.3,3.0,2.6975,0.08986796593218843,-0.01851550627740786,-0.9878695209061562,-0.00874307081599626,-0.070215,-33.775111
11.185,2.0,1.0,1.0,34.9,34.2,34.2,4.3,3.0,2.7,0.12774038447211158,-0.017193817512837866,-0.9843425849102141,-0.008497683372694678,-0.064545,-34.343434
11.185,2.0,1.0,1.0,34.9,34.2,34.2,4.3,3.0,2.7025,0.16190731328493574,-0.016030006736054273,-0.9797450736492175,-0.008246106003894811,-0.060727,-34.881709
11.185,2.0,1.0,1.0,34.9,34.2,34.2,4.3,3.0,2.705,0.1929794891745042,-0.014998349511026795,-0.9743925571444413,-0.007995426828432796,-0.058228,-35.392865
11.185,2.0,1.0,1.0,34.9,34.2,34.2,4.3,3.0,2.7075,0.22144378063303627,-0.014078551110703155,-0.9685025245221561,-0.0077500853028795265,-0.056677,-35.87927
11.185,2.0,1.0,1.0,34.9,34.2,34.2,4.3,3.0,2.71,0.24769177676151677,-0.013254429387269777,-0.962226718765093,-0.007512847047918708,-0.05581,-36.342823
11.185,2.0,1.0,1.0,34.9,34.2,34.2,4.3,3.0,2.7125,0.2720413132100213,-0.012512950497505884,-0.9556720429158091,-0.007285411577698998,-0.05544,-36.785027
11.185,2.0,1.0,1.0,34.9,34.2,34.2,4.3,3.0,2.715,0.2947527108227387,-0.01184351771049076,-0.948914325163193,-0.007068797736452069,-0.055431,-37.207054
11.185,2.0,1.0,1.0,34.9,34.2,34.2,4.3,3.0,2.7175,0.3160410895446632,-0.011237442316077999,-0.9420075325241462,-0.00686359205167041,-0.055684,-37.609784
11.185,2.0,1.0,1.0,34.9,34.2,34.2,4.3,3.0,2.72,0.3360857719438499,-0.010687546452819068,-0.9349900291819034,-0.0066701111876052805,-0.056125,-37.993847
11.185,2.0,1.0,1.0,34.9,34.2,34.2,4.3,3.0,2.7225,0.35503752223396706,-0.010187862349099573,-0.9278888819046549,-0.006488509846977575,-0.056699,-38.359647
11.185,2.0,1.0,1.0,34.9,34.2,34.2,4.3,3.0,2.725,0.3730241675396478,-0.009733402742150768,-0.9207228532251505,-0.006318853679071913,-0.057367,-38.707387
11.185,2.0,1.0,1.0,34.9,34.2,34.2,4.3,3.0,2.7275,0.39015500296772804,-0.009319984429328436,-0.9135044984142234,-0.0061611696211963645,-0.058099,-39.037084
11.185,2.0,1.0,1.0,34.9,34.2,34.2,4.3,3.0,2.73,0.40652427693327237,-0.008944091964024639,-0.906241640209085,-0.006015481721374327,-0.058871,-39.348582
11.185,2.0,1.0,1.0,34.9,34.2,34.2,4.3,3.0,2.7325,0.4222139771996786,-0.00860277209634187,-0.898938403791662,-0.005881837769527898,-0.059668,-39.641554
11.185,2.0,1.0,1.0,34.9,34.2,34.2,4.3,3.0,2.735,0.4372960831045664,-0.008293552132175993,-0.8915959345476642,-0.00576033036428704,-0.060477,-39.915514
11.185,2.0,1.0,1.0,34.9,34.2,34.2,4.3,3.0,2.7375,0.45183440960056587,-0.008014377257698895,-0.8842128810356542,-0.005651114985594104,-0.061289,-40.169814
11.185,2.0,1.0,1.0,34.9,34.2,34.2,4.3,3.0,2.74,0.4658861398842351,-0.0077635632674212095,-0.8767856981247252,-0.005554427004792299,-0.062098,-40.403645
11.185,2.0,1.0,1.0,34.9,34.2,34.2,4.3,3.0,2.7425,0.4795031226005495,-0.007539762196875624,-0.8693088058178577,-0.005470599211153115,-0.0629,-40.61603
11.185,2.0,1.0,1.0,34.9,34.2,34.2,4.3,3.0,2.745,0.4927329948782062,-0.007341939207313201,-0.8617746248431579,-0.005400081291833102,-0.063692,-40.805822
11.185,2.0,1.0,1.0,34.9,34.2,34.2,4.3,3.0,2.7475,0.5056201824202975,-0.007169359785178412,-0.8541734985801489,-0.005343462735098548,-0.064473,-40.97169
11.185,2.0,1.0,1.0,34.9,34.2,34.2,4.3,3.0,2.75,0.518206821702846,-0.00702158697462109,-0.846493500727359,-0.00530150082827966,-0.065243,-41.112108
11.185,2.0,1.0,1.0,34.9,34.2,34.2,4.3,3.0,2.7525,0.5305336466009597,-0.00689848902351521,-0.8387201179715262,-0.005275155813981376,-0.066002,-41.225341
11.185,2.0,1.0,1.0,34.9,34.2,34.2,4.3,3.0,2.755,0.5426408824482793,-0.006800258564363834,-0.8308357854282998,-0.005265635903956517,-0.066752,-41.309418
11.185,2.0,1.0,1.0,34.9,34.2,34.2,4.3,3.0,2.7575,0.5545691950590447,-0.006727445360229384,-0.822819238147364,-0.005274455826170968,-0.067497,-41.362109
11.185,2.0,1.0,1.0,34.9,34.2,34.2,4.3,3.0,2.76,0.5663607515877956,-0.006681005845263184,-0.8146446222411952,-0.005303514058630074,-0.068238,-41.380888
11.185,2.0,1.0,1.0,34.9,34.2,34.2,4.3,3.0,2.7625,0.5780604660724556,-0.0066623743615894645,-0.8062802807734167,-0.005355196150580542,-0.068982,-41.362885
11.185,2.0,1.0,1.0,34.9,34.2,34.2,4.3,3.0,2.765,0.5897175281861926,-0.006673563422854525,-0.797687086935058,-0.005432514992485279,-0.069734,-41.304827
11.185,2.0,1.0,1.0,34.9,34.2,34.2,4.3,3.0,2.7675,0.6013873543103934,-0.0067173039778166965,-0.7888161310845199,-0.0055393043248389345,-0.070501,-41.20296
11.185,2.0,1.0,1.0,34.9,34.2,34.2,4.3,3.0,2.77,0.6131341643567452,-0.006797242267684637,-0.7796054631329877,-0.005680490482499782,-0.071293,-41.052937
11.185,2.0,1.0,1.0,34.9,34.2,34.2,4.3,3.0,2.7725,0.6250344910461032,-0.006918218775009948,-0.7699754193782811,-0.005862481697092983,-0.072123,-40.849674
11.185,2.0,1.0,1.0,34.9,34.2,34.2,4.3,3.0,2.775,0.6371820975422635,-0.007086669253130782,-0.7598217713450103,-0.0060937385475060045,-0.073006,-40.587146
11.185,2.0,1.0,1.0,34.9,34.2,34.2,4.3,3.0,2.7775,0.6496950634596887,-0.0073112120900965145,-0.7490054241917863,-0.006385631635047232,-0.073966,-40.258103
11.185,2.0,1.0,1.0,34.9,34.2,34.2,4.3,3.0,2.78,0.6627262903653205,-0.007603528164412036,-0.7373364656690915,-0.006753769790921785,-0.075034,-39.853659
11.185,2.0,1.0,1.0,34.9,34.2,34.2,4.3,3.0,2.7825,0.6764795549725896,-0.007979714202873545,-0.7245486088077848,-0.007220128696789897,-0.076253,-39.362686
11.185,2.0,1.0,1.0,34.9,34.2,34.2,4.3,3.0,2.785,0.6912348627260345,-0.008462429426756258,-0.7102565658412376,-0.007816602225794455,-0.077691,-38.770899
11.185,2.0,1.0,1.0,34.9,34.2,34.2,4.3,3.0,2.7875,0.707389985475231,-0.009084423194241036,-0.6938814773072903,-0.008591217456476615,-0.079451,-38.059417
11.185,2.0,1.0,1.0,34.9,34.2,34.2,4.3,3.0,2.79,0.7255313591448268,-0.009894571180172984,-0.674512709851419,-0.00961965772576895,-0.081703,-37.20241
11.185,2.0,1.0,1.0,34.9,34.2,34.2,4.3,3.0,2.7925,0.7465606678000968,-0.010968680632895545,-0.65063285472651,-0.011028202967579502,-0.084745,-36.163045
11.185,2.0,1.0,1.0,34.9,34.2,34.2,4.3,3.0,2.795,0.7719314958868424,-0.012429761409626268,-0.6195190886843038,-0.013043697312937983,-0.089148,-34.88602
11.185,2.0,1.0,1.0,34.9,34.2,34.2,4.3,3.0,2.7975,0.8041064013678293,-0.014487417407061132,-0.5757780602345747,-0.01611593295641136,-0.096134,-33.28264
11.185,2.0,1.0,1.0,34.9,34.2,34.2,4.3,3.0,2.8,0.8473915126185843,-0.017510935193405328,-0.5071416208630265,-0.021269202517882467,-0.108774,-31.197515
11.185,2.0,1.0,1.0,34.9,34.2,34.2,4.3,3.0,2.8025,0.9083378972271355,-0.022074355425223426,-0.37932614278689575,-0.03137030278890868,-0.136914,-28.322772
11.185,2.0,1.0,1.0,34.9,34.2,34.2,4.3,3.0,2.805,0.9722017167259712,-0.02704178498271246,-0.060405765664710113,-0.057481456301956044,-0.228139,-23.94116
11.185,2.0,1.0,1.0,34.9,34.2,34.2,4.3,3.0,2.8075,0.2224022743269324,0.0356572916083547,0.8904730328847474,-0.13714963612484316,-0.744791,-16.972046
11.185,2.0,1.0,1.0,34.9,34.2,34.2,4.3,3.0,2.81,-0.4720924593639981,0.09574125981367743,-0.8440860746850561,0.008174192404717144,-0.290246,-20.346475
11.185,2.0,1.0,1.0,34.9,34.2,34.2,4.3,3.0,2.8125,0.163255515285416,0.043199857673612,-0.974466017727601,0.0201219785375273,-0.10445,-26.437596
11.185,2.0,1.0,1.0,34.9,34.2,34.2,4.3,3.0,2.815,0.37259794040127037,0.02619021573124318,-0.9185349541985265,0.016137149098557794,-0.076517,-30.239551
11.185,2.0,1.0,1.0,34.9,34.2,34.2,4.3,3.0,2.8175,0.4707782716929128,0.01848800725689522,-0.8732243015084056,0.012954630395316096,-0.069374,-32.92746
11.185,2.0,1.0,1.0,34.9,34.2,34.2,4.3,3.0,2.82,0.5282864016126153,0.014189959858565068,-0.8399843157837663,0.010749343058083588,-0.067136,-34.990732
11.185,2.0,1.0,1.0,34.9,34.2,34.2,4.3,3.0,2.8225,0.5668255242441166,0.01147523678557852,-0.8145689265674756,0.009182114137573581,-0.066459,-36.655618
11.185,2.0,1.0,1.0,34.9,34.2,34.2,4.3,3.0,2.825,0.5950531448200892,0.00961690000741138,-0.7941958184578515,0.00802651134637024,-0.066364,-38.043503
11.185,2.0,1.0,1.0,34.9,34.2,34.2,4.3,3.0,2.8275,0.617060163711332,0.008271372850273028,-0.7772004833952764,0.007146280211680864,-0.066503,-39.226869
