1,w,sub_t,h,l1,l2,l3,g1,g2,Freq,S11_re,S21_re,S11_img,S21_img,S11_dB,S21_dB
11.185,2.0,1.0,1.0,33.8,33.4,33.4,1.9,3.6,2.5,0.804281172487624,-0.0104633254920965,0.58192597914732,0.00756919562759259,-0.063407,-37.778719
11.185,2.0,1.0,1.0,33.8,33.4,33.4,1.9,3.6,2.5025,0.7999826106493743,-0.010667857276867445,0.5876961921861868,0.007586653422788795,-0.064055,-37.660893
11.185,2.0,1.0,1.0,33.8,33.4,33.4,1.9,3.6,2.505,0.7956208207195881,-0.010875950776498382,0.5934617494172416,0.007602650322976881,-0.064715,-37.542737
11.185,2.0,1.0,1.0,33.8,33.4,33.4,1.9,3.6,2.5075,0.791195130259346,-0.011087671772080891,0.5992222428715984,0.007617126235240867,-0.065386,-37.424244
11.185,2.0,1.0,1.0,33.8,33.4,33.4,1.9,3.6,2.51,0.7867048567794307,-0.011303087378364248,0.6049772519462695,0.00763001887144559,-0.06607,-37.305408
11.185,2.0,1.0,1.0,33.8,33.4,33.4,1.9,3.6,2.5125,0.7821493076161922,-0.011522266069177976,0.6107263429965952,0.007641263663362193,-0.066766,-37.186222
11.185,2.0,1.0,1.0,33.8,33.4,33.4,1.9,3.6,2.515,0.7775277798080483,-0.011745277703062048,0.6164690689152752,0.007650793674259477,-0.067474,-37.06668
11.185,2.0,1.0,1.0,33.8,33.4,33.4,1.9,3.6,2.5175,0.7728395599728138,-0.011972193549078835,0.6222049686975188,0.007658539506802403,-0.068196,-36.946773
11.185,2.0,1.0,1.0,33.8,33.4,33.4,1.9,3.6,2.52,0.7680839241860203,-0.0122030863127809,0.6279335669918568,0.007664429207090895,-0.06893,-36.826497
11.185,2.0,1.0,1.0,33.8,33.4,33.4,1.9,3.6,2.5225,0.7632601378604513,-0.012438030162303037,0.6336543736360888,0.007668388164664346,-0.069679,-36.705843
11.185,2.0,1.0,1.0,33.8,33.4,33.4,1.9,3.6,2.525,0.7583674556270819,-0.012677100754545364,0.639366883177879,0.007670339008288439,-0.070441,-36.584804
11.185,2.0,1.0,1.0,33.8,33.4,33.4,1.9,3.6,2.5275,0.7534051212176609,-0.01292037526141063,0.6450705743794514,0.007670201497332198,-0.071217,-36.463374
11.185,2.0,1.0,1.0,33.8,33.4,33.4,1.9,3.6,2.53,0.748372367349179,-0.013167932396053956,0.6507649097058316,0.007667892408533548,-0.072008,-36.341546
11.185,2.0,1.0,1.0,33.8,33.4,33.4,1.9,3.6,2.5325,0.7432684156104781,-0.013419852439100235,0.6564493347960663,0.007663325417941417,-0.072814,-36.219311
11.185,2.0,1.0,1.0,33.8,33.4,33.4,1.9,3.6,2.535,0.7380924763512768,-0.01367621726477988,0.6621232779168263,0.007656410977812687,-0.073635,-36.096664
11.185,2.0,1.0,1.0,33.8,33.4,33.4,1.9,3.6,2.5375,0.7328437485739173,-0.013937110366927486,0.6677861493977708,0.007647056188230538,-0.074472,-35.973595
11.185,2.0,1.0,1.0,33.8,33.4,33.4,1.9,3.6,2.54,0.727521419828135,-0.01420261688478446,0.6734373410480397,0.0076351646631992965,-0.075325,-35.850098
11.185,2.0,1.0,1.0,33.8,33.4,33.4,1.9,3.6,2.5425,0.7221246661091976,-0.014472823628539947,0.6790762255532158,0.007620636390958906,-0.076195,-35.726166
11.185,2.0,1.0,1.0,33.8,33.4,33.4,1.9,3.6,2.545,0.7166526517597644,-0.014747819104538377,0.6847021558520641,0.007603367588248945,-0.077081,-35.60179
11.185,2.0,1.0,1.0,33.8,33.4,33.4,1.9,3.6,2.5475,0.7111045293758583,-0.01502769354007523,0.690314464492336,0.0075832505482383745,-0.077984,-35.476963
11.185,2.0,1.0,1.0,33.8,33.4,33.4,1.9,3.6,2.55,0.7054794397173376,-0.015312538907696637,0.6959124629649165,0.007560173481823297,-0.078905,-35.351677
11.185,2.0,1.0,1.0,33.8,33.4,33.4,1.9,3.6,2.5525,0.6997765116233287,-0.015602448948907935,0.7014954410155245,0.007534020351979517,-0.079845,-35.225924
11.185,2.0,1.0,1.0,33.8,33.4,33.4,1.9,3.6,2.555,0.693994861933057,-0.01589751919719153,0.7070626659331994,0.0075046707008405685,-0.080803,-35.099696
11.185,2.0,1.0,1.0,33.8,33.4,33.4,1.9,3.6,2.5575,0.6881335954125753,-0.016197847000222317,0.7126133818147398,0.007471999469155772,-0.08178,-34.972984
11.185,2.0,1.0,1.0,33.8,33.4,33.4,1.9,3.6,2.56,0.6821918046879216,-0.01650353154116081,0.7181468088042446,0.007435876807763889,-0.082777,-34.845781
11.185,2.0,1.0,1.0,33.8,33.4,33.4,1.9,3.6,2.5625,0.6761685701852496,-0.01681467385889267,0.7236621423068718,0.007396167880700731,-0.083793,-34.718079
11.185,2.0,1.0,1.0,33.8,33.4,33.4,1.9,3.6,2.565,0.6700629600785304,-0.017131376867072837,0.7291585521759097,0.007352732659537604,-0.084831,-34.589868
11.185,2.0,1.0,1.0,33.8,33.4,33.4,1.9,3.6,2.5675,0.6638740302454623,-0.01745374537181885,0.7346351818721953,0.007305425708527992,-0.085889,-34.46114
11.185,2.0,1.0,1.0,33.8,33.4,33.4,1.9,3.6,2.57,0.6576008242322458,-0.01778188608788567,0.7400911475949058,0.007254095960117154,-0.086969,-34.331886
11.185,2.0,1.0,1.0,33.8,33.4,33.4,1.9,3.6,2.5725,0.651242373227948,-0.01811590765313923,0.7455255373827062,0.007198586480345642,-0.088072,-34.202098
11.185,2.0,1.0,1.0,33.8,33.4,33.4,1.9,3.6,2.575,0.6447976960492091,-0.018455920641130757,0.7509374101841818,0.007138734223654096,-0.089197,-34.071767
11.185,2.0,1.0,1.0,33.8,33.4,33.4,1.9,3.6,2.5775,0.6382657991361003,-0.018802037571556372,0.7563257948964698,0.007074369776569721,-0.090346,-33.940883
11.185,2.0,1.0,1.0,33.8,33.4,33.4,1.9,3.6,2.58,0.6316456765599944,-0.01915437291836851,0.7616896893709415,0.007005317089727883,-0.091519,-33.809438
11.185,2.0,1.0,1.0,33.8,33.4,33.4,1.9,3.6,2.5825,0.6249363100443516,-0.019513043115286594,0.7670280593847605,0.006931393197653186,-0.092717,-33.677421
11.185,2.0,1.0,1.0,33.8,33.4,33.4,1.9,3.6,2.585,0.6181366689994005,-0.019878166558431273,0.7723398375770892,0.006852407925693074,-0.09394,-33.544824
11.185,2.0,1.0,1.0,33.8,33.4,33.4,1.9,3.6,2.5875,0.611245710571737,-0.02024986360578588,0.7776239223486753,0.006768163583465416,-0.095189,-33.411637
11.185,2.0,1.0,1.0,33.8,33.4,33.4,1.9,3.6,2.59,0.6042623797099466,-0.020628256573160468,0.7828791767234923,0.006678454644146752,-0.096466,-33.277851
11.185,2.0,1.0,1.0,33.8,33.4,33.4,1.9,3.6,2.5925,0.5971856092474005,-0.02101346972631039,0.7881044271710782,0.00658306740889073,-0.09777,-33.143454
11.185,2.0,1.0,1.0,33.8,33.4,33.4,1.9,3.6,2.595,0.5900143200034867,-0.02140562926882806,0.7932984623881392,0.006481779655629684,-0.099102,-33.008438
11.185,2.0,1.0,1.0,33.8,33.4,33.4,1.9,3.6,2.5975,0.5827474209045704,-0.02180486332539853,0.7984600320379585,0.00637436027146962,-0.100463,-32.872792
11.185,2.0,1.0,1.0,33.8,33.4,33.4,1.9,3.6,2.6,0.5753838091260918,-0.02221130191997225,0.8035878454460784,0.006260568867846622,-0.101855,-32.736505
11.185,2.0,1.0,1.0,33.8,33.4,33.4,1.9,3.6,2.6025,0.5679223702573029,-0.022625076948371733,0.8086805702506631,0.006140155377567934,-0.103277,-32.599567
11.185,2.0,1.0,1.0,33.8,33.4,33.4,1.9,3.6,2.605,0.5603619784901996,-0.02304632214481005,0.8137368310059103,0.006012859632810613,-0.104731,-32.461968
11.185,2.0,1.0,1.0,33.8,33.4,33.4,1.9,3.6,2.6075,0.5527014968343569,-0.02347517304175239,0.8187552077367954,0.005878410923101596,-0.106218,-32.323697
11.185,2.0,1.0,1.0,33.8,33.4,33.4,1.9,3.6,2.61,0.5449397773594414,-0.023911766922506714,0.823734234443376,0.005736527532247531,-0.107739,-32.184741
11.185,2.0,1.0,1.0,33.8,33.4,33.4,1.9,3.6,2.6125,0.5370756614673117,-0.024356242765876907,0.828672397552824,0.00558691625312565,-0.109294,-32.045091
11.185,2.0,1.0,1.0,33.8,33.4,33.4,1.9,3.6,2.615,0.5291079801957204,-0.024808741182156376,0.8335681343172712,0.005429271879186179,-0.110884,-31.904735
11.185,2.0,1.0,1.0,33.8,33.4,33.4,1.9,3.6,2.6175,0.5210355545557819,-0.02526940433967845,0.83841983115549,0.005263276671452452,-0.112512,-31.763661
11.185,2.0,1.0,1.0,33.8,33.4,33.4,1.9,3.6,2.62,0.5128571959054905,-0.025738375881075345,0.8432258219363474,0.005088599799735654,-0.114177,-31.621857
11.185,2.0,1.0,1.0,33.8,33.4,33.4,1.9,3.6,2.6225,0.5045717063617161,-0.02621580082832508,0.847984386201904,0.004904896756709972,-0.115882,-31.479312
11.185,2.0,1.0,1.0,33.8,33.4,33.4,1.9,3.6,2.625,0.496177879253292,-0.0267018254755875,0.852693747327931,0.00471180874341579,-0.117626,-31.336012
11.185,2.0,1.0,1.0,33.8,33.4,33.4,1.9,3.6,2.6275,0.48767449961792514,-0.027196597268747763,0.8573520706195522,0.004508962024677726,-0.119412,-31.191946
11.185,2.0,1.0,1.0,33.8,33.4,33.4,1.9,3.6,2.63,0.479060344745889,-0.02770026467049223,0.8619574613396125,0.004295967252837621,-0.12124,-31.047101
11.185,2.0,1.0,1.0,33.8,33.4,33.4,1.9,3.6,2.6325,0.4703341847736084,-0.028212977009642502,0.8665079626672936,0.004072418758110384,-0.123113,-30.901463
11.185,2.0,1.0,1.0,33.8,33.4,33.4,1.9,3.6,2.635,0.4614947833304769,-0.028734884313364684,0.8710015535843934,0.003837893803774077,-0.12503,-30.755021
11.185,2.0,1.0,1.0,33.8,33.4,33.4,1.9,3.6,2.6375,0.4525408982424525,-0.029266137120752458,0.8754361466865911,0.0035919518043016677,-0.126995,-30.607759
11.185,2.0,1.0,1.0,33.8,33.4,33.4,1.9,3.6,2.64,0.4434712822961982,-0.029806886276154732,0.8798095859169179,0.0033341335044315187,-0.129008,-30.459665
11.185,2.0,1.0,1.0,33.8,33.4,33.4,1.9,3.6,2.6425,0.43428468406780607,-0.03035728270047695,0.8841196442185348,0.0030639601170590006,-0.131071,-30.310725
11.185,2.0,1.0,1.0,33.8,33.4,33.4,1.9,3.6,2.645,0.4249798488203915,-0.03091747713853325,0.888364021103817,0.0027809324177060393,-0.133185,-30.160924
11.185,2.0,1.0,1.0,33.8,33.4,33.4,1.9,3.6,2.6475,0.4155555194751416,-0.03148761988036034,0.8925403401366119,0.002484529793195798,-0.135352,-30.010248
11.185,2.0,1.0,1.0,33.8,33.4,33.4,1.9,3.6,2.65,0.4060104376606747,-0.032067860454221546,0.8966461463244485,0.002174209242018503,-0.137574,-29.858682
11.185,2.0,1.0,1.0,33.8,33.4,33.4,1.9,3.6,2.6525,0.39634334484596495,-0.032658347288830485,0.9006789034172895,0.0018494043237290507,-0.139853,-29.706211
11.185,2.0,1.0,1.0,33.8,33.4,33.4,1.9,3.6,2.655,0.38655298356234546,-0.03325922734210972,0.9046359911093488,0.0015095240545571252,-0.142191,-29.55282
11.185,2.0,1.0,1.0,33.8,33.4,33.4,1.9,3.6,2.6575,0.3766380987205565,-0.033870645693559985,0.9085147021403133,0.0011539517462460288,-0.144589,-29.398492
11.185,2.0,1.0,1.0,33.8,33.4,33.4,1.9,3.6,2.66,0.3665974390291671,-0.03449274509705967,0.9123122392921813,0.00078204378495771,-0.14705,-29.243213
11.185,2.0,1.0,1.0,33.8,33.4,33.4,1.9,3.6,2.6625,0.3564297585211652,-0.035125665490628934,0.9160257122777727,0.0003931283468959021,-0.149576,-29.086965
11.185,2.0,1.0,1.0,33.8,33.4,33.4,1.9,3.6,2.665,0.3461338181959357,-0.03576954345938649,0.9196521345168165,-1.3495952903927923e-05,-0.152168,-28.929731
11.185,2.0,1.0,1.0,33.8,33.4,33.4,1.9,3.6,2.6675,0.3357083877844118,-0.036424511647583944,0.9231884197953415,-0.0004385614823761797,-0.15483,-28.771496
11.185,2.0,1.0,1.0,33.8,33.4,33.4,1.9,3.6,2.67,0.3251522476456766,-0.037090698115236215,0.9266313788039464,-0.000882833088804866,-0.157564,-28.61224
11.185,2.0,1.0,1.0,33.8,33.4,33.4,1.9,3.6,2.6725,0.3144641908038958,-0.03776822563445585,0.9299777155503282,-0.0013471096740045121,-0.160373,-28.451947
11.185,2.0,1.0,1.0,33.8,33.4,33.4,1.9,3.6,2.675,0.30364302513512137,-0.03845721092015451,0.9332240236412679,-0.0018322258527776363,-0.163258,-28.290598
11.185,2.0,1.0,1.0,33.8,33.4,33.4,1.9,3.6,2.6775,0.2926875757141518,-0.039157763789284775,0.9363667824290859,-0.0023390536993920675,-0.166224,-28.128174
11.185,2.0,1.0,1.0,33.8,33.4,33.4,1.9,3.6,2.68,0.28159668733239873,-0.03986998624225782,0.9394023530173722,-0.002868504587105255,-0.169272,-27.964656
11.185,2.0,1.0,1.0,33.8,33.4,33.4,1.9,3.6,2.6825,0.2703692271985217,-0.04059397145958004,0.9423269741205763,-0.003421531126060918,-0.172406,-27.800025
11.185,2.0,1.0,1.0,33.8,33.4,33.4,1.9,3.6,2.685,0.2590040878344298,-0.0413298027061039,0.945136757771855,-0.003999129205203048,-0.175629,-27.634261
11.185,2.0,1.0,1.0,33.8,33.4,33.4,1.9,3.6,2.6875,0.24750019018022404,-0.04207755213457127,0.9478276848733136,-0.004602340144185425,-0.178945,-27.467342
11.185,2.0,1.0,1.0,33.8,33.4,33.4,1.9,3.6,2.69,0.2358564869226751,-0.0428372794793394,0.9503956005825673,-0.0052322529616092,-0.182357,-27.299249
11.185,2.0,1.0,1.0,33.8,33.4,33.4,1.9,3.6,2.6925,0.22407196606291346,-0.04360903063031481,0.9528362095293023,-0.005890006766296364,-0.185869,-27.12996
11.185,2.0,1.0,1.0,33.8,33.4,33.4,1.9,3.6,2.695,0.21214565474028485,-0.04439283607615815,0.955145070855254,-0.006576793278695598,-0.189484,-26.959453
11.185,2.0,1.0,1.0,33.8,33.4,33.4,1.9,3.6,2.6975,0.20007662333055898,-0.04518870920477295,0.9573175930707879,-0.007293859489935514,-0.193206,-26.787704
11.185,2.0,1.0,1.0,33.8,33.4,33.4,1.9,3.6,2.7,0.18786398983821462,-0.04599664444791915,0.9593490287209728,-0.008042510466469217,-0.197041,-26.614691
11.185,2.0,1.0,1.0,33.8,33.4,33.4,1.9,3.6,2.7025,0.1755069246040107,-0.046816615255507205,0.961234468853799,-0.008824112308711564,-0.200992,-26.440391
11.185,2.0,1.0,1.0,33.8,33.4,33.4,1.9,3.6,2.705,0.16300465535083955,-0.047648571883700516,0.9629688372828906,-0.00964009527254175,-0.205065,-26.264779
11.185,2.0,1.0,1.0,33.8,33.4,33.4,1.9,3.6,2.7075,0.1503564725926977,-0.04849243897937716,0.9645468846368129,-0.010491957063039941,-0.209263,-26.087829
11.185,2.0,1.0,1.0,33.8,33.4,33.4,1.9,3.6,2.71,0.13756173543370054,-0.04934811294175244,0.965963182186764,-0.011381266310336131,-0.213594,-25.909517
11.185,2.0,1.0,1.0,33.8,33.4,33.4,1.9,3.6,2.7125,0.12461987778630121,-0.05021545904002696,0.9672121154442038,-0.01230966623798054,-0.218061,-25.729815
11.185,2.0,1.0,1.0,33.8,33.4,33.4,1.9,3.6,2.715,0.11153041504039377,-0.05109430826377392,0.9682878775196657,-0.013278878534785427,-0.22267,-25.548697
11.185,2.0,1.0,1.0,33.8,33.4,33.4,1.9,3.6,2.7175,0.09829295121768054,-0.05198445388039156,0.9691844622337588,-0.01429070744164427,-0.227429,-25.366136
11.185,2.0,1.0,1.0,33.8,33.4,33.4,1.9,3.6,2.72,0.08490718664873267,-0.0528856476712927,0.9698956569711192,-0.01534704406539335,-0.232344,-25.182101
11.185,2.0,1.0,1.0,33.8,33.4,33.4,1.9,3.6,2.7225,0.07137292621343877,-0.053797595815553934,0.9704150352678389,-0.01644987093234673,-0.23742,-24.996565
11.185,2.0,1.0,1.0,33.8,33.4,33.4,1.9,3.6,2.725,0.05769008818927624,-0.05471995438645762,0.9707359491227149,-0.01760126679468506,-0.242666,-24.809497
11.185,2.0,1.0,1.0,33.8,33.4,33.4,1.9,3.6,2.7275,0.043858713755802935,-0.055652324422704666,0.9708515210225162,-0.01880341170343003,-0.24809,-24.620866
11.185,2.0,1.0,1.0,33.8,33.4,33.4,1.9,3.6,2.73,0.029878977208340155,-0.056594246531989564,0.9707546356713544,-0.02005859236223953,-0.253698,-24.430639
11.185,2.0,1.0,1.0,33.8,33.4,33.4,1.9,3.6,2.7325,0.01575119693870574,-0.05754519498007933,0.9704379314142413,-0.021369207776742134,-0.259501,-24.238784
11.185,2.0,1.0,1.0,33.8,33.4,33.4,1.9,3.6,2.735,0.0014758472464377862,-0.05850457121344647,0.969893791344967,-0.02273777521453474,-0.265506,-24.045268
11.185,2.0,1.0,1.0,33.8,33.4,33.4,1.9,3.6,2.7375,-0.0129464289499717,-0.05947169675782394,0.969114334088617,-0.02416693649130644,-0.271725,-23.850054
11.185,2.0,1.0,1.0,33.8,33.4,33.4,1.9,3.6,2.74,-0.02751480642547821,-0.060445805428684336,0.9680914042493861,-0.025659464598766307,-0.278166,-23.653108
11.185,2.0,1.0,1.0,33.8,33.4,33.4,1.9,3.6,2.7425,-0.042228262900583055,-0.06142603478252636,0.9668165625148364,-0.027218270690137287,-0.284841,-23.454392
11.185,2.0,1.0,1.0,33.8,33.4,33.4,1.9,3.6,2.745,-0.05708556314073803,-0.062411416729866456,0.9652810754085024,-0.028846411438863056,-0.291762,-23.253868
11.185,2.0,1.0,1.0,33.8,33.4,33.4,1.9,3.6,2.7475,-0.07208524180120153,-0.06340086722188353,0.9634759046837446,-0.03054709678583074,-0.29894,-23.051496
11.185,2.0,1.0,1.0,33.8,33.4,33.4,1.9,3.6,2.75,-0.0872255849049681,-0.0643931749126179,0.961391696353133,-0.0323236980897586,-0.306389,-22.847237
11.185,2.0,1.0,1.0,33.8,33.4,33.4,1.9,3.6,2.7525,-0.10250460982955477,-0.06538698868734023,0.9590187693494202,-0.03417975669436847,-0.314124,-22.641047
11.185,2.0,1.0,1.0,33.8,33.4,33.4,1.9,3.6,2.755,-0.11792004366521881,-0.06638080393502084,0.9563471038164919,-0.03611899292445038,-0.322158,-22.432884
11.185,2.0,1.0,1.0,33.8,33.4,33.4,1.9,3.6,2.7575,-0.13346929979237812,-0.06737294742856609,0.9533663290316495,-0.03814531552083259,-0.330508,-22.222703
11.185,2.0,1.0,1.0,33.8,33.4,33.4,1.9,3.6,2.76,-0.14914945250932501,-0.06836156066042312,0.9500657109643338,-0.04026283152142222,-0.339191,-22.010458
11.185,2.0,1.0,1.0,33.8,33.4,33.4,1.9,3.6,2.7625,-0.1649572095226916,-0.06934458146307368,0.9464341394811339,-0.04247585659174273,-0.348225,-21.796101
11.185,2.0,1.0,1.0,33.8,33.4,33.4,1.9,3.6,2.765,-0.18088888209209092,-0.07031972372354997,0.9424601152128598,-0.04478892580351737,-0.357631,-21.579582
11.185,2.0,1.0,1.0,33.8,33.4,33.4,1.9,3.6,2.7675,-0.1969403525967589,-0.07128445497812765,0.9381317361068239,-0.047206804853591515,-0.367428,-21.360852
11.185,2.0,1.0,1.0,33.8,33.4,33.4,1.9,3.6,2.77,-0.21310703926542268,-0.07223597164743001,0.9334366836966408,-0.04973450170753888,-0.377639,-21.139858
11.185,2.0,1.0,1.0,33.8,33.4,33.4,1.9,3.6,2.7725,-0.22938385778069353,-0.0731711716429268,0.928362209133189,-0.05237727864224534,-0.388289,-20.916544
11.185,2.0,1.0,1.0,33.8,33.4,33.4,1.9,3.6,2.775,-0.24576517943552725,-0.07408662404280195,0.9228951190343664,-0.05514066464916809,-0.399404,-20.690856
11.185,2.0,1.0,1.0,33.8,33.4,33.4,1.9,3.6,2.7775,-0.26224478548129326,-0.07497853549790306,0.9170217612284943,-0.05803046814422552,-0.411012,-20.462734
11.185,2.0,1.0,1.0,33.8,33.4,33.4,1.9,3.6,2.78,-0.27881581726413496,-0.07584271298642677,0.9107280104874267,-0.061052789910695966,-0.423143,-20.232118
11.185,2.0,1.0,1.0,33.8,33.4,33.4,1.9,3.6,2.7825,-0.29547072169797806,-0.07667452248852684,0.9039992543714267,-0.06421403617721172,-0.43583,-19.998947
11.185,2.0,1.0,1.0,33.8,33.4,33.4,1.9,3.6,2.785,-0.31220119156817716,-0.07746884309849175,0.89682037933981,-0.06752093170291001,-0.449108,-19.763156
11.185,2.0,1.0,1.0,33.8,33.4,33.4,1.9,3.6,2.7875,-0.32899810009842106,-0.07822001603176362,0.8891757573204773,-0.07098053270470162,-0.463015,-19.524679
11.185,2.0,1.0,1.0,33.8,33.4,33.4,1.9,3.6,2.79,-0.3458514291446083,-0.0789217879160796,0.881049232979422,-0.07460023941593742,-0.477594,-19.283446
11.185,2.0,1.0,1.0,33.8,33.4,33.4,1.9,3.6,2.7925,-0.36275019030183325,-0.07956724767951384,0.872424111989975,-0.07838780800949069,-0.492889,-19.039387
11.185,2.0,1.0,1.0,33.8,33.4,33.4,1.9,3.6,2.795,-0.3796823381236828,-0.08014875626228943,0.8632831506734129,-0.08235136154914885,-0.508948,-18.792429
11.185,2.0,1.0,1.0,33.8,33.4,33.4,1.9,3.6,2.7975,-0.39663467455554063,-0.08065786828293782,0.853608547470517,-0.0864993995482476,-0.525826,-18.542494
11.185,2.0,1.0,1.0,33.8,33.4,33.4,1.9,3.6,2.8,-0.4135927435749434,-0.08108524468178659,0.8433819368112278,-0.09084080561025516,-0.543581,-18.289506
11.185,2.0,1.0,1.0,33.8,33.4,33.4,1.9,3.6,2.8025,-0.43054071491091955,-0.08142055524492786,0.8325843860811675,-0.09538485249808958,-0.562276,-18.033382
11.185,2.0,1.0,1.0,33.8,33.4,33.4,1.9,3.6,2.805,-0.44746125558022004,-0.08165236977900123,0.8211963965448958,-0.10014120382211189,-0.581979,-17.774039
11.185,2.0,1.0,1.0,33.8,33.4,33.4,1.9,3.6,2.8075,-0.46433538783082046,-0.08176803656076337,0.8091979092826704,-0.1051199113444755,-0.602768,-17.511392
11.185,2.0,1.0,1.0,33.8,33.4,33.4,1.9,3.6,2.81,-0.48114233192183575,-0.08175354652535273,0.7965683174385094,-0.11033140666190182,-0.624726,-17.245352
11.185,2.0,1.0,1.0,33.8,33.4,33.4,1.9,3.6,2.8125,-0.497859331994633,-0.0815933814838403,0.783286486372037,-0.115786485740317,-0.647943,-16.975827
11.185,2.0,1.0,1.0,33.8,33.4,33.4,1.9,3.6,2.815,-0.5144614631039229,-0.08127034447544948,0.7693307836669712,-0.12149628442135539,-0.672521,-16.702724
11.185,2.0,1.0,1.0,33.8,33.4,33.4,1.9,3.6,2.8175,-0.5309214172826736,-0.08076537016544356,0.754679121389723,-0.12747224258809248,-0.698571,-16.425947
11.185,2.0,1.0,1.0,33.8,33.4,33.4,1.9,3.6,2.82,-0.54720926631576,-0.08005731300076473,0.7393090135299054,-0.13372605414811,-0.726215,-16.145398
11.185,2.0,1.0,1.0,33.8,33.4,33.4,1.9,3.6,2.8225,-0.56329219870189,-0.07912271063949938,0.7231976522121029,-0.14026959934498195,-0.755589,-15.860976
11.185,2.0,1.0,1.0,33.8,33.4,33.4,1.9,3.6,2.825,-0.5791342281032018,-0.07793551998844025,0.7063220070703745,-0.14711485511906547,-0.786844,-15.572581
11.185,2.0,1.0,1.0,33.8,33.4,33.4,1.9,3.6,2.8275,-0.5946958704341097,-0.0764668230321489,0.688658953154705,-0.15427377827462097,-0.820146,-15.280108
