1,w,sub_t,h,l1,l2,l3,g1,g2,Freq,S11_re,S21_re,S11_img,S21_img,S11_dB,S21_dB
11.185,2.0,1.0,1.0,33.1,34.3,34.3,3.6,1.8,2.5,0.887898972599733,-0.00684879248114671,0.446769876744411,0.00715606053253614,-0.052572,-40.082639
11.185,2.0,1.0,1.0,33.1,34.3,34.3,3.6,1.8,2.5025,0.8850787151180062,-0.00700305200487663,0.45220502569117493,0.007213693113389487,-0.053074,-39.953343
11.185,2.0,1.0,1.0,33.1,34.3,34.3,3.6,1.8,2.505,0.8822135967624147,-0.007160571980327381,0.45764231213360274,0.007271398073269575,-0.053585,-39.823531
11.185,2.0,1.0,1.0,33.1,34.3,34.3,3.6,1.8,2.5075,0.8793031750498742,-0.0073214378426796406,0.4630816005184389,0.007329163969481136,-0.054107,-39.693189
11.185,2.0,1.0,1.0,33.1,34.3,34.3,3.6,1.8,2.51,0.8763469989230511,-0.0074857380315707985,0.468522751079649,0.0073869786923766575,-0.054639,-39.562302
11.185,2.0,1.0,1.0,33.1,34.3,34.3,3.6,1.8,2.5125,0.8733446085268316,-0.00765356412441578,0.4739656196850575,0.007444829426287955,-0.055182,-39.430855
11.185,2.0,1.0,1.0,33.1,34.3,34.3,3.6,1.8,2.515,0.8702955349762638,-0.007825010976874745,0.47941005767696293,0.007502702607901744,-0.055736,-39.298833
11.185,2.0,1.0,1.0,33.1,34.3,34.3,3.6,1.8,2.5175,0.8671993001155146,-0.008000176870916781,0.48485591170641434,0.007560583881889799,-0.056301,-39.166219
11.185,2.0,1.0,1.0,33.1,34.3,34.3,3.6,1.8,2.52,0.8640554162673353,-0.00817916367096205,0.49030302356084954,0.007618458053587784,-0.056878,-39.032998
11.185,2.0,1.0,1.0,33.1,34.3,34.3,3.6,1.8,2.5225,0.8608633859725154,-0.008362076988618733,0.4957512299847286,0.007676309038500113,-0.057466,-38.899154
11.185,2.0,1.0,1.0,33.1,34.3,34.3,3.6,1.8,2.525,0.8576227017187465,-0.008549026356570441,0.5012003624928238,0.0077341198083888205,-0.058067,-38.76467
11.185,2.0,1.0,1.0,33.1,34.3,34.3,3.6,1.8,2.5275,0.8543328456582838,-0.008740125412209853,0.5066502471757657,0.0077918723336839356,-0.058681,-38.629528
11.185,2.0,1.0,1.0,33.1,34.3,34.3,3.6,1.8,2.53,0.8509932893137574,-0.008935492091659258,0.5121007044974271,0.007849547521929595,-0.059308,-38.493712
11.185,2.0,1.0,1.0,33.1,34.3,34.3,3.6,1.8,2.5325,0.8476034932714261,-0.009135248834867157,0.5175515490837078,0.007907125151955751,-0.059948,-38.357203
11.185,2.0,1.0,1.0,33.1,34.3,34.3,3.6,1.8,2.535,0.8441629068611118,-0.009339522802521967,0.5230025895022397,0.007964583803437206,-0.060602,-38.219983
11.185,2.0,1.0,1.0,33.1,34.3,34.3,3.6,1.8,2.5375,0.840670967822015,-0.009548446105581615,0.5284536280324965,0.008021900781472193,-0.061271,-38.082034
11.185,2.0,1.0,1.0,33.1,34.3,34.3,3.6,1.8,2.54,0.8371271019535251,-0.009762156048278604,0.5339044604257644,0.008079052035779036,-0.061954,-37.943335
11.185,2.0,1.0,1.0,33.1,34.3,34.3,3.6,1.8,2.5425,0.8335307227500898,-0.009980795385528452,0.5393548756543807,0.008136012074073393,-0.062653,-37.803867
11.185,2.0,1.0,1.0,33.1,34.3,34.3,3.6,1.8,2.545,0.8298812310191254,-0.010204512595741847,0.5448046556496013,0.008192753869147869,-0.063368,-37.663611
11.185,2.0,1.0,1.0,33.1,34.3,34.3,3.6,1.8,2.5475,0.8261780144808824,-0.010433462170120488,0.5502535750274079,0.008249248759131857,-0.064099,-37.522544
11.185,2.0,1.0,1.0,33.1,34.3,34.3,3.6,1.8,2.55,0.8224204473490705,-0.010667804919604675,0.5557014008015269,0.00830546634036056,-0.064847,-37.380646
11.185,2.0,1.0,1.0,33.1,34.3,34.3,3.6,1.8,2.5525,0.8186078898909852,-0.010907708300733173,0.5611478920828344,0.008361374352227577,-0.065612,-37.237895
11.185,2.0,1.0,1.0,33.1,34.3,34.3,3.6,1.8,2.555,0.8147396879657439,-0.011153346761781776,0.5665927997643051,0.00841693855333666,-0.066395,-37.094268
11.185,2.0,1.0,1.0,33.1,34.3,34.3,3.6,1.8,2.5575,0.81081517253914,-0.011404902110658461,0.5720358661905515,0.008472122588200888,-0.067198,-36.949741
11.185,2.0,1.0,1.0,33.1,34.3,34.3,3.6,1.8,2.56,0.8068336591735105,-0.01166256390615663,0.5774768248109357,0.008526887843665426,-0.068019,-36.804292
11.185,2.0,1.0,1.0,33.1,34.3,34.3,3.6,1.8,2.5625,0.8027944474908526,-0.011926529874303588,0.5829153998151457,0.008581193294147907,-0.068861,-36.657896
11.185,2.0,1.0,1.0,33.1,34.3,34.3,3.6,1.8,2.565,0.7986968206072983,-0.012197006351689568,0.5883513057500391,0.008634995334700872,-0.069723,-36.510527
11.185,2.0,1.0,1.0,33.1,34.3,34.3,3.6,1.8,2.5675,0.794540044536883,-0.012474208757823343,0.5937842471164235,0.00868824760079972,-0.070607,-36.36216
11.185,2.0,1.0,1.0,33.1,34.3,34.3,3.6,1.8,2.57,0.7903233675623683,-0.012758362098741382,0.5992139179443599,0.008740900773649507,-0.071513,-36.212767
11.185,2.0,1.0,1.0,33.1,34.3,34.3,3.6,1.8,2.5725,0.7860460195706802,-0.01304970150428946,0.6046400013454143,0.008792902369677787,-0.072442,-36.062321
11.185,2.0,1.0,1.0,33.1,34.3,34.3,3.6,1.8,2.575,0.7817072113503146,-0.013348472801713062,0.6100621690401505,0.008844196512743846,-0.073396,-35.910794
11.185,2.0,1.0,1.0,33.1,34.3,34.3,3.6,1.8,2.5775,0.7773061338478177,-0.01365493312842862,0.6154800808589835,0.008894723687439213,-0.074374,-35.758156
11.185,2.0,1.0,1.0,33.1,34.3,34.3,3.6,1.8,2.58,0.7728419573801957,-0.013969351587106108,0.6208933842143401,0.008944420471682106,-0.075378,-35.604377
11.185,2.0,1.0,1.0,33.1,34.3,34.3,3.6,1.8,2.5825,0.7683138307998094,-0.01429200994648336,0.6263017135418695,0.008993219246614292,-0.076409,-35.449426
11.185,2.0,1.0,1.0,33.1,34.3,34.3,3.6,1.8,2.585,0.7637208806080024,-0.014623203391645901,0.6317046897082095,0.009041047881593278,-0.077468,-35.29327
11.185,2.0,1.0,1.0,33.1,34.3,34.3,3.6,1.8,2.5875,0.7590622100133506,-0.014963241327856933,0.6371019193825772,0.009087829391829332,-0.078557,-35.135876
11.185,2.0,1.0,1.0,33.1,34.3,34.3,3.6,1.8,2.59,0.754336897930043,-0.015312448242408287,0.6424929943691505,0.009133481565943726,-0.079675,-34.97721
11.185,2.0,1.0,1.0,33.1,34.3,34.3,3.6,1.8,2.5925,0.7495439979114605,-0.015671164629389712,0.6478774908969088,0.009177916560418165,-0.080825,-34.817236
11.185,2.0,1.0,1.0,33.1,34.3,34.3,3.6,1.8,2.595,0.7446825370135577,-0.016039747982746985,0.6532549688632137,0.00922104045755963,-0.082008,-34.655917
11.185,2.0,1.0,1.0,33.1,34.3,34.3,3.6,1.8,2.5975,0.7397515145821106,-0.016418573863526353,0.6586249710270521,0.00926275278321545,-0.083225,-34.493215
11.185,2.0,1.0,1.0,33.1,34.3,34.3,3.6,1.8,2.6,0.734749900957312,-0.016808037047781662,0.6639870221473642,0.009302945980032467,-0.084478,-34.32909
11.185,2.0,1.0,1.0,33.1,34.3,34.3,3.6,1.8,2.6025,0.7296766360885518,-0.017208552762271307,0.6693406280613924,0.009341504831558394,-0.085768,-34.163502
11.185,2.0,1.0,1.0,33.1,34.3,34.3,3.6,1.8,2.605,0.7245306280514738,-0.01762055801579004,0.6746852746974105,0.009378305831917436,-0.087097,-33.996407
11.185,2.0,1.0,1.0,33.1,34.3,34.3,3.6,1.8,2.6075,0.7193107514586111,-0.01804451303478419,0.6800204270155237,0.009413216495155776,-0.088467,-33.827762
11.185,2.0,1.0,1.0,33.1,34.3,34.3,3.6,1.8,2.61,0.7140158457539922,-0.01848090281279194,0.6853455278694911,0.009446094597623739,-0.08988,-33.657521
11.185,2.0,1.0,1.0,33.1,34.3,34.3,3.6,1.8,2.6125,0.7086447133810984,-0.018930238784249553,0.6906599967816871,0.009476787345937914,-0.091337,-33.485636
11.185,2.0,1.0,1.0,33.1,34.3,34.3,3.6,1.8,2.615,0.7031961178124259,-0.019393060634320267,0.6959632286223463,0.009505130462122969,-0.09284,-33.312058
11.185,2.0,1.0,1.0,33.1,34.3,34.3,3.6,1.8,2.6175,0.6976687814276635,-0.019869938257650023,0.7012545921831442,0.009530947176459616,-0.094393,-33.136736
11.185,2.0,1.0,1.0,33.1,34.3,34.3,3.6,1.8,2.62,0.6920613832260523,-0.020361473880354274,0.7065334286339146,0.009554047117335885,-0.095997,-32.959616
11.185,2.0,1.0,1.0,33.1,34.3,34.3,3.6,1.8,2.6225,0.6863725563569322,-0.02086830436110877,0.71179904984988,0.009574225085991444,-0.097654,-32.780642
11.185,2.0,1.0,1.0,33.1,34.3,34.3,3.6,1.8,2.625,0.6806008854507,-0.0213911036889782,0.717050736595114,0.00959125970243018,-0.099369,-32.599757
11.185,2.0,1.0,1.0,33.1,34.3,34.3,3.6,1.8,2.6275,0.6747449037303723,-0.021930585697601635,0.7222877365460901,0.009604911906918904,-0.101142,-32.416901
11.185,2.0,1.0,1.0,33.1,34.3,34.3,3.6,1.8,2.63,0.6688030898817232,-0.02248750701758082,0.7275092621369844,0.009614923299353352,-0.102978,-32.23201
11.185,2.0,1.0,1.0,33.1,34.3,34.3,3.6,1.8,2.6325,0.6627738646574008,-0.0230626702914373,0.7327144882059139,0.009621014296302731,-0.10488,-32.045019
11.185,2.0,1.0,1.0,33.1,34.3,34.3,3.6,1.8,2.635,0.6566555871875577,-0.023656927678341797,0.7379025494183887,0.009622882082694934,-0.106851,-31.855859
11.185,2.0,1.0,1.0,33.1,34.3,34.3,3.6,1.8,2.6375,0.6504465509662863,-0.02427118467903122,0.7430725374409136,0.009620198331794646,-0.108896,-31.664458
11.185,2.0,1.0,1.0,33.1,34.3,34.3,3.6,1.8,2.64,0.6441449794794555,-0.024906404314963892,0.7482234978338115,0.009612606663293112,-0.111018,-31.470742
11.185,2.0,1.0,1.0,33.1,34.3,34.3,3.6,1.8,2.6425,0.6377490214353903,-0.025563611699880112,0.7533544266277855,0.009599719804859748,-0.113221,-31.274633
11.185,2.0,1.0,1.0,33.1,34.3,34.3,3.6,1.8,2.645,0.6312567455550944,-0.02624389904661319,0.7584642665435174,0.00958111641730079,-0.115511,-31.076048
11.185,2.0,1.0,1.0,33.1,34.3,34.3,3.6,1.8,2.6475,0.624666134873331,-0.026948431157305903,0.7635519028074131,0.009556337537383365,-0.117893,-30.874902
11.185,2.0,1.0,1.0,33.1,34.3,34.3,3.6,1.8,2.65,0.617975080495745,-0.0276784514512366,0.768616158509444,0.009524882585252506,-0.120372,-30.671104
11.185,2.0,1.0,1.0,33.1,34.3,34.3,3.6,1.8,2.6525,0.6111813747502566,-0.028435288591341985,0.7736557894405311,0.009486204874999024,-0.122953,-30.46456
11.185,2.0,1.0,1.0,33.1,34.3,34.3,3.6,1.8,2.655,0.6042827036629447,-0.029220363778388634,0.7786694783370232,0.009439706557074308,-0.125645,-30.25517
11.185,2.0,1.0,1.0,33.1,34.3,34.3,3.6,1.8,2.6575,0.5972766386795767,-0.030035198790717484,0.7836558284480346,0.009384732909618068,-0.128453,-30.042831
11.185,2.0,1.0,1.0,33.1,34.3,34.3,3.6,1.8,2.66,0.5901606275435017,-0.030881424857752495,0.7886133563275494,0.009320565881994583,-0.131385,-29.827432
11.185,2.0,1.0,1.0,33.1,34.3,34.3,3.6,1.8,2.6625,0.5829319842287266,-0.031760792467221154,0.7935404837366993,0.009246416777497135,-0.134449,-29.608858
11.185,2.0,1.0,1.0,33.1,34.3,34.3,3.6,1.8,2.665,0.5755878778132816,-0.03267518221950566,0.7984355285220376,0.009161417942739482,-0.137656,-29.386987
11.185,2.0,1.0,1.0,33.1,34.3,34.3,3.6,1.8,2.6675,0.5681253201623492,-0.03362661685799991,0.8032966943122147,0.00906461330805549,-0.141013,-29.161691
11.185,2.0,1.0,1.0,33.1,34.3,34.3,3.6,1.8,2.67,0.5605411522725618,-0.03461727462209923,0.8081220588474876,0.008954947595458502,-0.144533,-28.932834
11.185,2.0,1.0,1.0,33.1,34.3,34.3,3.6,1.8,2.6725,0.5528320291081831,-0.0356495040898426,0.8129095607228743,0.008831253977378285,-0.148228,-28.700273
11.185,2.0,1.0,1.0,33.1,34.3,34.3,3.6,1.8,2.675,0.5449944027360811,-0.03672584070067399,0.8176569842852927,0.00869223992923836,-0.152109,-28.463856
11.185,2.0,1.0,1.0,33.1,34.3,34.3,3.6,1.8,2.6775,0.5370245035389813,-0.03784902517575201,0.822361942376114,0.008536470970424983,-0.156192,-28.223423
11.185,2.0,1.0,1.0,33.1,34.3,34.3,3.6,1.8,2.68,0.5289183192549793,-0.03902202408423974,0.8270218565512841,0.008362351929375665,-0.160492,-27.978804
11.185,2.0,1.0,1.0,33.1,34.3,34.3,3.6,1.8,2.6825,0.5206715715550748,-0.040248052839635465,0.8316339343390198,0.008168105296956224,-0.165028,-27.729818
11.185,2.0,1.0,1.0,33.1,34.3,34.3,3.6,1.8,2.685,0.512279689828832,-0.041530601451118344,0.8361951430070287,0.007951746144916911,-0.169817,-27.476274
11.185,2.0,1.0,1.0,33.1,34.3,34.3,3.6,1.8,2.6875,0.503737781800553,-0.04287346340177738,0.8407021792032657,0.007711052979141245,-0.174882,-27.217967
11.185,2.0,1.0,1.0,33.1,34.3,34.3,3.6,1.8,2.69,0.4950406005437334,-0.04428076807920498,0.8451514337014487,0.007443533765668326,-0.180247,-26.95468
11.185,2.0,1.0,1.0,33.1,34.3,34.3,3.6,1.8,2.6925,0.4861825073992763,-0.04575701724502162,0.849538950318587,0.00714638620478128,-0.185938,-26.686182
11.185,2.0,1.0,1.0,33.1,34.3,34.3,3.6,1.8,2.695,0.47715743023236734,-0.047307126099090754,0.8538603778683564,0.006816451126699202,-0.191985,-26.412225
11.185,2.0,1.0,1.0,33.1,34.3,34.3,3.6,1.8,2.6975,0.46795881638334685,-0.04893646957201698,0.858110913760935,0.006450157631177787,-0.198421,-26.132545
11.185,2.0,1.0,1.0,33.1,34.3,34.3,3.6,1.8,2.7,0.45857957957939544,-0.05065093456609193,0.8622852375430735,0.006043458279111088,-0.205285,-25.846859
11.185,2.0,1.0,1.0,33.1,34.3,34.3,3.6,1.8,2.7025,0.4490120399765534,-0.05245697895969678,0.8663774322742472,0.005591752249509566,-0.212619,-25.554864
11.185,2.0,1.0,1.0,33.1,34.3,34.3,3.6,1.8,2.705,0.4392478563972928,-0.05436169829166945,0.8703808911324132,0.005089793877106226,-0.220472,-25.256234
11.185,2.0,1.0,1.0,33.1,34.3,34.3,3.6,1.8,2.7075,0.42927794972062305,-0.056372901146951475,0.8742882060060192,0.0045315833542759415,-0.228897,-24.950619
11.185,2.0,1.0,1.0,33.1,34.3,34.3,3.6,1.8,2.71,0.41909241627588006,-0.05849919436664308,0.8780910340174007,0.003910235576345021,-0.237957,-24.637642
11.185,2.0,1.0,1.0,33.1,34.3,34.3,3.6,1.8,2.7125,0.408680429998566,-0.06075007929357192,0.881779936883663,0.003217822079265687,-0.247725,-24.316895
11.185,2.0,1.0,1.0,33.1,34.3,34.3,3.6,1.8,2.715,0.39803013204502574,-0.06313606032043799,0.8853441866840858,0.002445179693255382,-0.258282,-23.987941
11.185,2.0,1.0,1.0,33.1,34.3,34.3,3.6,1.8,2.7175,0.3871285065617949,-0.06566876700192674,0.888771529873806,0.001581677822074797,-0.269723,-23.650304
11.185,2.0,1.0,1.0,33.1,34.3,34.3,3.6,1.8,2.72,0.3759612414128147,-0.06836109087724276,0.8920478991355472,0.0006149340299515185,-0.282158,-23.303469
11.185,2.0,1.0,1.0,33.1,34.3,34.3,3.6,1.8,2.7225,0.3645125729591878,-0.07122733784936405,0.8951570597240328,-0.0004695352919441114,-0.295715,-22.946877
11.185,2.0,1.0,1.0,33.1,34.3,34.3,3.6,1.8,2.725,0.35276511458271087,-0.07428339636139358,0.8980801731009102,-0.0016887462281130975,-0.310544,-22.579921
11.185,2.0,1.0,1.0,33.1,34.3,34.3,3.6,1.8,2.7275,0.3406996697371435,-0.07754692050779273,0.9007952555691289,-0.003062782699101588,-0.326822,-22.201939
11.185,2.0,1.0,1.0,33.1,34.3,34.3,3.6,1.8,2.73,0.32829503220410894,-0.08103752531634445,0.9032765028706676,-0.0046154646469758085,-0.344756,-21.812212
11.185,2.0,1.0,1.0,33.1,34.3,34.3,3.6,1.8,2.7325,0.3155277794058162,-0.08477698825492141,0.9054934427352093,-0.006375186698901342,-0.364595,-21.40995
11.185,2.0,1.0,1.0,33.1,34.3,34.3,3.6,1.8,2.735,0.3023720698542033,-0.08878944578980212,0.907409865382374,-0.008375976822160739,-0.386636,-20.994296
11.185,2.0,1.0,1.0,33.1,34.3,34.3,3.6,1.8,2.7375,0.2887994643272285,-0.09310156532421074,0.9089824659438533,-0.010658840347888273,-0.411236,-20.564307
11.185,2.0,1.0,1.0,33.1,34.3,34.3,3.6,1.8,2.74,0.274778804140357,-0.09774265910659949,0.9101591113063394,-0.013273475966696922,-0.43883,-20.118955
11.185,2.0,1.0,1.0,33.1,34.3,34.3,3.6,1.8,2.7425,0.26027620213113223,-0.10274468453236782,0.9108766152090909,-0.01628047863205942,-0.469946,-19.657116
11.185,2.0,1.0,1.0,33.1,34.3,34.3,3.6,1.8,2.745,0.24525523791204099,-0.10814203949212499,0.911057867393416,-0.019754181875923302,-0.505238,-19.177559
11.185,2.0,1.0,1.0,33.1,34.3,34.3,3.6,1.8,2.7475,0.22967750709382875,-0.11397100358631422,0.9106081128047576,-0.023786341182689307,-0.545517,-18.678947
11.185,2.0,1.0,1.0,33.1,34.3,34.3,3.6,1.8,2.75,0.213503768517543,-0.120268582263255,0.909410113290983,-0.0284909227114757,-0.591795,-18.159828
11.185,2.0,1.0,1.0,33.1,34.3,34.3,3.6,1.8,2.7525,0.19669608702526284,-0.127070358476817,0.9073178469582743,-0.03401033767845661,-0.645355,-17.618641
11.185,2.0,1.0,1.0,33.1,34.3,34.3,3.6,1.8,2.755,0.179221619590015,-0.13440670800469723,0.9041483153867569,-0.04052354596802744,-0.707832,-17.053724
11.185,2.0,1.0,1.0,33.1,34.3,34.3,3.6,1.8,2.7575,0.16105910085964004,-0.1422963295814906,0.8996709574427929,-0.048256521804982015,-0.781326,-16.46335
11.185,2.0,1.0,1.0,33.1,34.3,34.3,3.6,1.8,2.76,0.14220974759291302,-0.15073538329243968,0.8935941669275234,-0.05749557321662294,-0.868571,-15.845776
11.185,2.0,1.0,1.0,33.1,34.3,34.3,3.6,1.8,2.7625,0.12271536801060962,-0.15967947411404448,0.8855486150775294,-0.06860380080962308,-0.973144,-15.199353
11.185,2.0,1.0,1.0,33.1,34.3,34.3,3.6,1.8,2.765,0.10268813594842299,-0.16901406084032938,0.8750677932569972,-0.08204026660053867,-1.099768,-14.522701
11.185,2.0,1.0,1.0,33.1,34.3,34.3,3.6,1.8,2.7675,0.08235898800180544,-0.1785064012771979,0.8615680737733162,-0.09837956728505626,-1.254703,-13.815014
11.185,2.0,1.0,1.0,33.1,34.3,34.3,3.6,1.8,2.77,0.06215494095136257,-0.18772885177401308,0.8443349842973212,-0.11832513312359386,-1.446233,-13.076559
11.185,2.0,1.0,1.0,33.1,34.3,34.3,3.6,1.8,2.7725,0.04281891137722492,-0.1959401210219415,0.8225318546422449,-0.1427001781609024,-1.685192,-12.309487
11.185,2.0,1.0,1.0,33.1,34.3,34.3,3.6,1.8,2.775,0.025585075778057114,-0.20191169347019203,0.7952656663127492,-0.1723817180020414,-1.985263,-11.519108
11.185,2.0,1.0,1.0,33.1,34.3,34.3,3.6,1.8,2.7775,0.012407257634573085,-0.2037021900275612,0.7617771344763326,-0.208111212431221,-2.362289,-10.715793
11.185,2.0,1.0,1.0,33.1,34.3,34.3,3.6,1.8,2.78,0.0061812794024195955,-0.19843867146494493,0.721863342913325,-0.25007469129692306,-2.830582,-9.917608
11.185,2.0,1.0,1.0,33.1,34.3,34.3,3.6,1.8,2.7825,0.010763198507920875,-0.18230174974536786,0.6766493270327709,-0.2971378120872697,-3.391628,-9.153351
11.185,2.0,1.0,1.0,33.1,34.3,34.3,3.6,1.8,2.785,0.03035772456379811,-0.15113633816428437,0.6296655682896852,-0.34578034718520195,-4.007718,-8.46471
11.185,2.0,1.0,1.0,33.1,34.3,34.3,3.6,1.8,2.7875,0.06775218497251673,-0.10220556073239101,0.587650992936672,-0.38930775002541196,-4.560262,-7.904676
11.185,2.0,1.0,1.0,33.1,34.3,34.3,3.6,1.8,2.79,0.12154605011522565,-0.036933070312514645,0.5597194783902051,-0.4186891668780076,-4.840476,-7.528503
11.185,2.0,1.0,1.0,33.1,34.3,34.3,3.6,1.8,2.7925,0.18432577420523455,0.037303566587038296,0.5538026954032378,-0.42609064107651784,-4.676618,-7.3768
11.185,2.0,1.0,1.0,33.1,34.3,34.3,3.6,1.8,2.795,0.2446033210248725,0.10911381779800824,0.5720557415702916,-0.4094194323327292,-4.122009,-7.458627
11.185,2.0,1.0,1.0,33.1,34.3,34.3,3.6,1.8,2.7975,0.2921391020302886,0.16837440948616048,0.6094630844149254,-0.3736822333515361,-3.402829,-7.747208
11.185,2.0,1.0,1.0,33.1,34.3,34.3,3.6,1.8,2.8,0.3221200494645491,0.21035459082891197,0.6571346706378494,-0.327701634491043,-2.711697,-8.191936
11.185,2.0,1.0,1.0,33.1,34.3,34.3,3.6,1.8,2.8025,0.3351812381475568,0.23571843711021548,0.7068314842217189,-0.27963271328902983,-2.132789,-8.736814
11.185,2.0,1.0,1.0,33.1,34.3,34.3,3.6,1.8,2.805,0.3348553307625771,0.24798871787506463,0.753267128331906,-0.2346936345558134,-1.677853,-9.333778
11.185,2.0,1.0,1.0,33.1,34.3,34.3,3.6,1.8,2.8075,0.3251893977001342,0.2511864677234477,0.7940394636504067,-0.1952430321190645,-1.329766,-9.947573
11.185,2.0,1.0,1.0,33.1,34.3,34.3,3.6,1.8,2.81,0.3095575475596274,0.24865882651468535,0.8286268166899176,-0.16177903591141513,-1.065444,-10.554992
11.185,2.0,1.0,1.0,33.1,34.3,34.3,3.6,1.8,2.8125,0.290384732348529,0.242809124534453,0.85744978726372,-0.13386967598007,-0.86428,-11.142015
11.185,2.0,1.0,1.0,33.1,34.3,34.3,3.6,1.8,2.815,0.26927450062938174,0.235225721040872,0.8812788313830427,-0.11073920993031507,-0.710099,-11.700898
11.185,2.0,1.0,1.0,33.1,34.3,34.3,3.6,1.8,2.8175,0.24723247039470478,0.22690453486817053,0.900932388329603,-0.09156628959555214,-0.590837,-12.227904
11.185,2.0,1.0,1.0,33.1,34.3,34.3,3.6,1.8,2.82,0.2248640533218529,0.21844540616410313,0.917149739466662,-0.07560914364678745,-0.497678,-12.721731
11.185,2.0,1.0,1.0,33.1,34.3,34.3,3.6,1.8,2.8225,0.20251878711236435,0.2101952380728532,0.9305523389014839,-0.06224332046097178,-0.424207,-13.182499
11.185,2.0,1.0,1.0,33.1,34.3,34.3,3.6,1.8,2.825,0.18038706943020164,0.2023438432709713,0.9416442514985699,-0.05096086546297401,-0.365742,-13.611112
11.185,2.0,1.0,1.0,33.1,34.3,34.3,3.6,1.8,2.8275,0.1585622541599615,0.1949854260826561,0.9508270181724913,-0.04135533089778605,-0.318843,-14.00886
11.185,2.0,1.0,1.0,33.1,34.3,34.3,3.6,1.8,2.83,0.13707960614852643,0.18815712977167987,0.9584177912506724,-0.033103626926730856,-0.280957,-14.377196
