1,w,sub_t,h,l1,l2,l3,g1,g2,Freq,S11_re,S21_re,S11_img,S21_img,S11_dB,S21_dB
11.185,2.0,1.0,1.0,33.2,34.7,34.7,2.5,2.0,2.5,0.875678975058323,-0.010601237265089,0.467923896811902,0.0115779718854769,-0.06226,-36.082964
11.185,2.0,1.0,1.0,33.2,34.7,34.7,2.5,2.0,2.5025,0.8725677464447644,-0.010858444662199478,0.47352682903086907,0.011687460156048173,-0.062984,-35.943079
11.185,2.0,1.0,1.0,33.2,34.7,34.7,2.5,2.0,2.505,0.8694052871753425,-0.011121916124996847,0.4791330781515566,0.011797627411094068,-0.063724,-35.802408
11.185,2.0,1.0,1.0,33.2,34.7,34.7,2.5,2.0,2.5075,0.866190978012315,-0.011391844731167626,0.48474250269669694,0.011908464934672588,-0.064482,-35.660932
11.185,2.0,1.0,1.0,33.2,34.7,34.7,2.5,2.0,2.51,0.8629241846748739,-0.011668431340528862,0.4903549559140114,0.012019962837394775,-0.065258,-35.518631
11.185,2.0,1.0,1.0,33.2,34.7,34.7,2.5,2.0,2.5125,0.8596042573091633,-0.011951884983824042,0.4959702855423771,0.012132109961498706,-0.066052,-35.375486
11.185,2.0,1.0,1.0,33.2,34.7,34.7,2.5,2.0,2.515,0.8562305299318788,-0.012242423274717973,0.5015883335656616,0.012244893778171577,-0.066865,-35.231476
11.185,2.0,1.0,1.0,33.2,34.7,34.7,2.5,2.0,2.5175,0.8528023198457418,-0.012540272846600873,0.5072089359533506,0.01235830027643251,-0.067699,-35.086579
11.185,2.0,1.0,1.0,33.2,34.7,34.7,2.5,2.0,2.52,0.8493189270250102,-0.012845669815941652,0.5128319223870718,0.01247231384282356,-0.068552,-34.940773
11.185,2.0,1.0,1.0,33.2,34.7,34.7,2.5,2.0,2.5225,0.8457796334690469,-0.013158860274066929,0.5184571159719767,0.01258691713108118,-0.069427,-34.794037
11.185,2.0,1.0,1.0,33.2,34.7,34.7,2.5,2.0,2.525,0.8421837025218085,-0.01348010080939593,0.5240843329319116,0.012702090920879443,-0.070324,-34.646347
11.185,2.0,1.0,1.0,33.2,34.7,34.7,2.5,2.0,2.5275,0.8385303781549427,-0.013809659062326082,0.5297133822871721,0.01281781396464441,-0.071243,-34.497679
11.185,2.0,1.0,1.0,33.2,34.7,34.7,2.5,2.0,2.53,0.8348188842120099,-0.014147814315143916,0.5353440655135391,0.01293406282133911,-0.072186,-34.34801
11.185,2.0,1.0,1.0,33.2,34.7,34.7,2.5,2.0,2.5325,0.8310484236111305,-0.014494858119533455,0.5409761761811721,0.013050811676005981,-0.073154,-34.197314
11.185,2.0,1.0,1.0,33.2,34.7,34.7,2.5,2.0,2.535,0.8272181775031382,-0.014851094964470731,0.5466094995718104,0.013168032143728328,-0.074147,-34.045566
11.185,2.0,1.0,1.0,33.2,34.7,34.7,2.5,2.0,2.5375,0.8233273043820903,-0.015216842987526236,0.5522438122725628,0.013285693056535182,-0.075167,-33.892739
11.185,2.0,1.0,1.0,33.2,34.7,34.7,2.5,2.0,2.54,0.8193749391447049,-0.01559243473285817,0.5578788817444288,0.013403760231617145,-0.076214,-33.738806
11.185,2.0,1.0,1.0,33.2,34.7,34.7,2.5,2.0,2.5425,0.8153601920950175,-0.01597821795946046,0.5635144658634952,0.013522196219049628,-0.07729,-33.58374
11.185,2.0,1.0,1.0,33.2,34.7,34.7,2.5,2.0,2.545,0.8112821478902232,-0.01637455650353976,0.5691503124325489,0.013640960027027024,-0.078395,-33.427511
11.185,2.0,1.0,1.0,33.2,34.7,34.7,2.5,2.0,2.5475,0.8071398644233342,-0.016781831199236787,0.5747861586606211,0.013760006822394732,-0.079531,-33.270089
11.185,2.0,1.0,1.0,33.2,34.7,34.7,2.5,2.0,2.55,0.8029323716378793,-0.01720044086228181,0.5804217306077394,0.013879287604026284,-0.0807,-33.111445
11.185,2.0,1.0,1.0,33.2,34.7,34.7,2.5,2.0,2.5525,0.7986586702694813,-0.01763080334158351,0.5860567425918439,0.013998748846321218,-0.081902,-32.951547
11.185,2.0,1.0,1.0,33.2,34.7,34.7,2.5,2.0,2.555,0.7943177305086536,-0.018073356644205636,0.5916908965545561,0.014118332109797299,-0.083138,-32.790361
11.185,2.0,1.0,1.0,33.2,34.7,34.7,2.5,2.0,2.5575,0.7899084905786702,-0.01852856013968315,0.5973238813820994,0.014237973615409252,-0.084411,-32.627855
11.185,2.0,1.0,1.0,33.2,34.7,34.7,2.5,2.0,2.56,0.7854298552217961,-0.018996895850179194,0.6029553721772756,0.01435760377884421,-0.085722,-32.463994
11.185,2.0,1.0,1.0,33.2,34.7,34.7,2.5,2.0,2.5625,0.7808806940865436,-0.019478869833591317,0.6085850294779758,0.014477146700612448,-0.087073,-32.298743
11.185,2.0,1.0,1.0,33.2,34.7,34.7,2.5,2.0,2.565,0.7762598400079395,-0.019975013667385907,0.6142124984171803,0.014596519607266998,-0.088465,-32.132063
11.185,2.0,1.0,1.0,33.2,34.7,34.7,2.5,2.0,2.5675,0.7715660871720339,-0.020485886041679082,0.6198374078188394,0.014715632238536273,-0.0899,-31.963918
11.185,2.0,1.0,1.0,33.2,34.7,34.7,2.5,2.0,2.57,0.7667981891550447,-0.021012074470903933,0.625459369223405,0.014834386174536033,-0.09138,-31.794266
11.185,2.0,1.0,1.0,33.2,34.7,34.7,2.5,2.0,2.5725,0.7619548568266038,-0.021554197134310938,0.631077975836037,0.014952674096523979,-0.092907,-31.623069
11.185,2.0,1.0,1.0,33.2,34.7,34.7,2.5,2.0,2.575,0.7570347561055569,-0.022112904856554916,0.6366928013897161,0.015070378973867756,-0.094483,-31.450282
11.185,2.0,1.0,1.0,33.2,34.7,34.7,2.5,2.0,2.5775,0.7520365055556189,-0.02268888324074052,0.6423033989145518,0.015187373168993917,-0.096112,-31.275863
11.185,2.0,1.0,1.0,33.2,34.7,34.7,2.5,2.0,2.58,0.7469586738069385,-0.0232828549675372,0.6479092994035354,0.015303517451062,-0.097794,-31.099766
11.185,2.0,1.0,1.0,33.2,34.7,34.7,2.5,2.0,2.5825,0.7417997767882059,-0.02389558227535817,0.6535100103637985,0.015418659907942401,-0.099533,-30.921943
11.185,2.0,1.0,1.0,33.2,34.7,34.7,2.5,2.0,2.585,0.7365582747523943,-0.024527869638130344,0.6591050142410717,0.015532634744746357,-0.101332,-30.742347
11.185,2.0,1.0,1.0,33.2,34.7,34.7,2.5,2.0,2.5875,0.7312325690774676,-0.025180566658898264,0.6646937667035047,0.015645260955641626,-0.103194,-30.560926
11.185,2.0,1.0,1.0,33.2,34.7,34.7,2.5,2.0,2.59,0.725820998821469,-0.025854571199410335,0.6702756947692255,0.015756340853951518,-0.105121,-30.377628
11.185,2.0,1.0,1.0,33.2,34.7,34.7,2.5,2.0,2.5925,0.7203218370092165,-0.026550832767971527,0.6758501947600202,0.015865658443550423,-0.107117,-30.192397
11.185,2.0,1.0,1.0,33.2,34.7,34.7,2.5,2.0,2.595,0.7147332866254407,-0.02727035619022484,0.6814166300611711,0.015972977612290523,-0.109186,-30.005178
11.185,2.0,1.0,1.0,33.2,34.7,34.7,2.5,2.0,2.5975,0.7090534762864672,-0.028014205590194578,0.6869743286648679,0.016078040125576686,-0.111332,-29.815912
11.185,2.0,1.0,1.0,33.2,34.7,34.7,2.5,2.0,2.6,0.7032804555595374,-0.028783508711904302,0.6925225804715242,0.016180563395195764,-0.113559,-29.624536
11.185,2.0,1.0,1.0,33.2,34.7,34.7,2.5,2.0,2.6025,0.6974121898954664,-0.029579461615231395,0.6980606343198211,0.016280237995031248,-0.115871,-29.430987
11.185,2.0,1.0,1.0,33.2,34.7,34.7,2.5,2.0,2.605,0.6914465551365182,-0.03040333378341432,0.703587694712249,0.016376724891283015,-0.118274,-29.235198
11.185,2.0,1.0,1.0,33.2,34.7,34.7,2.5,2.0,2.6075,0.6853813315571177,-0.03125647368384484,0.7091029181981972,0.016469652350168472,-0.120771,-29.0371
11.185,2.0,1.0,1.0,33.2,34.7,34.7,2.5,2.0,2.61,0.6792141973902098,-0.032140314828517286,0.7146054093712264,0.01655861248069719,-0.123369,-28.836621
11.185,2.0,1.0,1.0,33.2,34.7,34.7,2.5,2.0,2.6125,0.6729427217866676,-0.03305638238584367,0.7200942164308033,0.01664315736385472,-0.126075,-28.633685
11.185,2.0,1.0,1.0,33.2,34.7,34.7,2.5,2.0,2.615,0.6665643571490671,-0.03400630040154861,0.7255683262514742,0.01672279471225076,-0.128893,-28.428213
11.185,2.0,1.0,1.0,33.2,34.7,34.7,2.5,2.0,2.6175,0.6600764307743004,-0.03499179969312793,0.7310266588938205,0.01679698299578935,-0.131831,-28.220122
11.185,2.0,1.0,1.0,33.2,34.7,34.7,2.5,2.0,2.62,0.6534761357317463,-0.03601472648999483,0.7364680614815597,0.016865125958988033,-0.134897,-28.009327
11.185,2.0,1.0,1.0,33.2,34.7,34.7,2.5,2.0,2.6225,0.6467605208950002,-0.03707705190005593,0.7418913013574324,0.01692656644393625,-0.138099,-27.795738
11.185,2.0,1.0,1.0,33.2,34.7,34.7,2.5,2.0,2.625,0.639926480035317,-0.0381808822931923,0.7472950584167,0.016980579419218,-0.141445,-27.57926
11.185,2.0,1.0,1.0,33.2,34.7,34.7,2.5,2.0,2.6275,0.6329707398737622,-0.03932847070312648,0.7526779165009272,0.01702636409904368,-0.144945,-27.359793
11.185,2.0,1.0,1.0,33.2,34.7,34.7,2.5,2.0,2.63,0.625889846976507,-0.040522229361583284,0.7580383537155808,0.0170630350178601,-0.148609,-27.137236
11.185,2.0,1.0,1.0,33.2,34.7,34.7,2.5,2.0,2.6325,0.6186801533634606,-0.04176474349271009,0.7633747315124175,0.017089611903272066,-0.15245,-26.911479
11.185,2.0,1.0,1.0,33.2,34.7,34.7,2.5,2.0,2.635,0.6113378006843633,-0.04305878651160918,0.7686852823508367,0.017105008163506675,-0.156478,-26.682407
11.185,2.0,1.0,1.0,33.2,34.7,34.7,2.5,2.0,2.6375,0.6038587027982916,-0.04440733678878547,0.7739680957205757,0.017108017774032078,-0.160708,-26.449901
11.185,2.0,1.0,1.0,33.2,34.7,34.7,2.5,2.0,2.64,0.5962385265719954,-0.04581359616259115,0.7792211022702429,0.017097300310265046,-0.165154,-26.213835
11.185,2.0,1.0,1.0,33.2,34.7,34.7,2.5,2.0,2.6425,0.5884726706893568,-0.047281010404615215,0.7844420557408691,0.017071363828272137,-0.169832,-25.974076
11.185,2.0,1.0,1.0,33.2,34.7,34.7,2.5,2.0,2.645,0.5805562422381625,-0.04881329186873032,0.7896285123494505,0.01702854524142174,-0.174761,-25.730484
11.185,2.0,1.0,1.0,33.2,34.7,34.7,2.5,2.0,2.6475,0.5724840308110856,-0.05041444458345754,0.7947778072022557,0.016966987776111872,-0.179959,-25.482911
11.185,2.0,1.0,1.0,33.2,34.7,34.7,2.5,2.0,2.65,0.5642504798248938,-0.0520887920797526,0.7998870272391994,0.01688461501157091,-0.185448,-25.231202
11.185,2.0,1.0,1.0,33.2,34.7,34.7,2.5,2.0,2.6525,0.5558496547252865,-0.05384100828249835,0.8049529801155887,0.01677910091428989,-0.191252,-24.975193
11.185,2.0,1.0,1.0,33.2,34.7,34.7,2.5,2.0,2.655,0.5472752077039974,-0.055676151834157174,0.809972158312639,0.01664783516314772,-0.197397,-24.71471
11.185,2.0,1.0,1.0,33.2,34.7,34.7,2.5,2.0,2.6575,0.5385203385100318,-0.05759970426323387,0.8149406976280945,0.0164878829220389,-0.203913,-24.449568
11.185,2.0,1.0,1.0,33.2,34.7,34.7,2.5,2.0,2.66,0.5295777508879691,-0.05961761245837879,0.819854329027751,0.016295938046905618,-0.210832,-24.179574
11.185,2.0,1.0,1.0,33.2,34.7,34.7,2.5,2.0,2.6625,0.5204396041237608,-0.06173633596067222,0.8247083226296487,0.016068268506109862,-0.218189,-23.904521
11.185,2.0,1.0,1.0,33.2,34.7,34.7,2.5,2.0,2.665,0.511097459123069,-0.06396289964101891,0.8294974223362205,0.015800652537652643,-0.226027,-23.624189
11.185,2.0,1.0,1.0,33.2,34.7,34.7,2.5,2.0,2.6675,0.5015422183907501,-0.06630495238497172,0.8342157693135053,0.015488303752003076,-0.234389,-23.338346
11.185,2.0,1.0,1.0,33.2,34.7,34.7,2.5,2.0,2.67,0.49176405922508615,-0.06877083246098942,0.8388568121256309,0.015125783000102378,-0.243327,-23.046745
11.185,2.0,1.0,1.0,33.2,34.7,34.7,2.5,2.0,2.6725,0.4817523593914182,-0.07136964029564286,0.8434132008477871,0.014706894343204841,-0.252898,-22.749122
11.185,2.0,1.0,1.0,33.2,34.7,34.7,2.5,2.0,2.675,0.4714956145037121,-0.07411131941371331,0.8478766618769831,0.014224561859948066,-0.263167,-22.445196
11.185,2.0,1.0,1.0,33.2,34.7,34.7,2.5,2.0,2.6775,0.46098134632991805,-0.0770067463118546,0.852237849405387,0.013670683274792258,-0.274208,-22.134667
11.185,2.0,1.0,1.0,33.2,34.7,34.7,2.5,2.0,2.68,0.45019600126385345,-0.08006783000540757,0.8564861685749859,0.013035955450072833,-0.286105,-21.817217
11.185,2.0,1.0,1.0,33.2,34.7,34.7,2.5,2.0,2.6825,0.4391248382969058,-0.08330762189488375,0.8606095641421675,0.012309665598981832,-0.298952,-21.492504
11.185,2.0,1.0,1.0,33.2,34.7,34.7,2.5,2.0,2.685,0.4277518060132234,-0.08674043640543473,0.8645942669785878,0.011479440581211527,-0.31286,-21.160162
11.185,2.0,1.0,1.0,33.2,34.7,34.7,2.5,2.0,2.6875,0.41605940847618395,-0.09038198250540065,0.8684244888325356,0.01053094474940822,-0.327954,-20.8198
11.185,2.0,1.0,1.0,33.2,34.7,34.7,2.5,2.0,2.69,0.404028560452006,-0.09424950562864734,0.8720820533595978,0.00944751441017727,-0.344379,-20.470999
11.185,2.0,1.0,1.0,33.2,34.7,34.7,2.5,2.0,2.6925,0.3916384333477183,-0.09836193859058973,0.8755459483564171,0.008209713902630852,-0.362304,-20.113309
11.185,2.0,1.0,1.0,33.2,34.7,34.7,2.5,2.0,2.695,0.3788662947033997,-0.1027400586219101,0.8787917802085877,0.00679479439334648,-0.381924,-19.746249
11.185,2.0,1.0,1.0,33.2,34.7,34.7,2.5,2.0,2.6975,0.36568734633777855,-0.10740664538218979,0.8817911065529156,0.0051760315001620275,-0.403468,-19.369303
11.185,2.0,1.0,1.0,33.2,34.7,34.7,2.5,2.0,2.7,0.35207456969896744,-0.11238663136190935,0.8845106167514392,0.0033219114864496036,-0.427206,-18.981914
11.185,2.0,1.0,1.0,33.2,34.7,34.7,2.5,2.0,2.7025,0.33799859221279893,-0.11770723084233345,0.8869111216016646,0.001195127636962485,-0.453454,-18.583489
11.185,2.0,1.0,1.0,33.2,34.7,34.7,2.5,2.0,2.705,0.32342759634379514,-0.12339802566720695,0.8889463033074297,-0.0012486619175175466,-0.48259,-18.173391
11.185,2.0,1.0,1.0,33.2,34.7,34.7,2.5,2.0,2.7075,0.3083273050342735,-0.12949097414558944,0.8905611635808595,-0.004062376738814607,-0.515064,-17.750938
11.185,2.0,1.0,1.0,33.2,34.7,34.7,2.5,2.0,2.71,0.29266109519773775,-0.13602029142553537,0.8916900912843448,-0.00730943515762969,-0.551416,-17.315403
11.185,2.0,1.0,1.0,33.2,34.7,34.7,2.5,2.0,2.7125,0.27639031808433956,-0.14302212259276134,0.8922544507843607,-0.011066152167071826,-0.592298,-16.866013
11.185,2.0,1.0,1.0,33.2,34.7,34.7,2.5,2.0,2.715,0.25947494624890355,-0.15053388893317401,0.8921595680479512,-0.015424736379638197,-0.638504,-16.401954
11.185,2.0,1.0,1.0,33.2,34.7,34.7,2.5,2.0,2.7175,0.24187472852784464,-0.15859312628707212,0.891290964209748,-0.020497035368124986,-0.691004,-15.922369
11.185,2.0,1.0,1.0,33.2,34.7,34.7,2.5,2.0,2.72,0.22355112734287924,-0.16723554178565816,0.889509658546392,-0.026419206206821314,-0.750994,-15.426374
11.185,2.0,1.0,1.0,33.2,34.7,34.7,2.5,2.0,2.7225,0.20447045229322794,-0.17649187606805306,0.8866463411886325,-0.03335750926558855,-0.819959,-14.913073
11.185,2.0,1.0,1.0,33.2,34.7,34.7,2.5,2.0,2.725,0.1846088128110021,-0.18638294999968763,0.882494215084996,-0.04151542368427966,-0.899755,-14.381579
11.185,2.0,1.0,1.0,33.2,34.7,34.7,2.5,2.0,2.7275,0.16395982186731764,-0.19691196688830984,0.8768003565814314,-0.051142232628678515,-0.992716,-13.831061
11.185,2.0,1.0,1.0,33.2,34.7,34.7,2.5,2.0,2.73,0.14254643265544403,-0.2080526931535675,0.8692556030055604,-0.06254306700834446,-1.101804,-13.260805
11.185,2.0,1.0,1.0,33.2,34.7,34.7,2.5,2.0,2.7325,0.12043892489894999,-0.2197315086716632,0.859483354474758,-0.07609001746525908,-1.230798,-12.670306
11.185,2.0,1.0,1.0,33.2,34.7,34.7,2.5,2.0,2.735,0.09778190354523104,-0.23180047649367333,0.8470284776378115,-0.09223312487468378,-1.384545,-12.059415
11.185,2.0,1.0,1.0,33.2,34.7,34.7,2.5,2.0,2.7375,0.0748341791708682,-0.24399758184587644,0.8313490729374071,-0.11150848885982317,-1.569284,-11.428548
11.185,2.0,1.0,1.0,33.2,34.7,34.7,2.5,2.0,2.74,0.05202629090671424,-0.2558894081505048,0.8118167848833077,-0.13453782369110348,-1.793039,-10.778986
11.185,2.0,1.0,1.0,33.2,34.7,34.7,2.5,2.0,2.7425,0.0300403876147013,-0.2667915739181161,0.7877364075588591,-0.1620087349641848,-2.06607,-10.113315
11.185,2.0,1.0,1.0,33.2,34.7,34.7,2.5,2.0,2.745,0.009914220096344096,-0.27566522579194613,0.7584035910344699,-0.19461696971180795,-2.40125,-9.436018
11.185,2.0,1.0,1.0,33.2,34.7,34.7,2.5,2.0,2.7475,-0.0068389509320096326,-0.28099782429508097,0.7232303359579061,-0.23294106848778792,-2.814079,-8.754263
11.185,2.0,1.0,1.0,33.2,34.7,34.7,2.5,2.0,2.75,-0.0181264449720393,-0.280700125986631,0.681977734043064,-0.277210163928479,-3.321529,-8.078843
11.185,2.0,1.0,1.0,33.2,34.7,34.7,2.5,2.0,2.7525,-0.021264882705767606,-0.27209583469086257,0.6351305806737829,-0.32693059526534624,-3.937874,-7.42514
11.185,2.0,1.0,1.0,33.2,34.7,34.7,2.5,2.0,2.755,-0.013199885661078246,-0.2521417980631981,0.5843993208565,-0.38038617844347855,-4.663591,-6.813751
11.185,2.0,1.0,1.0,33.2,34.7,34.7,2.5,2.0,2.7575,0.008869766219637655,-0.218051304639517,0.5332022923181734,-0.4341591614340623,-5.460958,-6.270134
11.185,2.0,1.0,1.0,33.2,34.7,34.7,2.5,2.0,2.76,0.04639312897395331,-0.1683896860483424,0.48677263544943783,-0.48302658146450467,-6.214206,-5.822465
11.185,2.0,1.0,1.0,33.2,34.7,34.7,2.5,2.0,2.7625,0.09818416713940065,-0.10435086279122163,0.4514176576596405,-0.5207019381675142,-6.707689,-5.497207
11.185,2.0,1.0,1.0,33.2,34.7,34.7,2.5,2.0,2.765,0.15973917047260358,-0.0304325690565244,0.4327723826363847,-0.5415776238060251,-6.72011,-5.313094
11.185,2.0,1.0,1.0,33.2,34.7,34.7,2.5,2.0,2.7675,0.22398366656074656,0.046314139099690434,0.43372253262183286,-0.5427924665019441,-6.229053,-5.27582
11.185,2.0,1.0,1.0,33.2,34.7,34.7,2.5,2.0,2.77,0.2833913906725455,0.11839966121786288,0.4532998479367679,-0.525325973885966,-5.439508,-5.376232
11.185,2.0,1.0,1.0,33.2,34.7,34.7,2.5,2.0,2.7725,0.3322629981237435,0.18016420673021763,0.4873186189658632,-0.49335703931532726,-4.585729,-5.593108
11.185,2.0,1.0,1.0,33.2,34.7,34.7,2.5,2.0,2.775,0.36786084438485994,0.22890257130794575,0.5301945174053356,-0.45244843839298454,-3.804603,-5.898878
11.185,2.0,1.0,1.0,33.2,34.7,34.7,2.5,2.0,2.7775,0.39013849116492644,0.26458916805190874,0.5767142795376032,-0.4077849033490834,-3.144308,-6.265437
11.185,2.0,1.0,1.0,33.2,34.7,34.7,2.5,2.0,2.78,0.40072581409254643,0.2888642709733807,0.6229919637201129,-0.3632238509811537,-2.606649,-6.668065
11.185,2.0,1.0,1.0,33.2,34.7,34.7,2.5,2.0,2.7825,0.40191193946953163,0.30402071493434657,0.6666205880551743,-0.3211474609683057,-2.175874,-7.087105
11.185,2.0,1.0,1.0,33.2,34.7,34.7,2.5,2.0,2.785,0.39597346228240154,0.3123358341083154,0.7063885673022489,-0.282747030085468,-1.83242,-7.508027
11.185,2.0,1.0,1.0,33.2,34.7,34.7,2.5,2.0,2.7875,0.3848557235466802,0.31575529942235026,0.7418888534740407,-0.2484130516186573,-1.558255,-7.920683
11.185,2.0,1.0,1.0,33.2,34.7,34.7,2.5,2.0,2.79,0.37008642864046265,0.3158081215603883,0.7731856531035064,-0.21806724519772583,-1.338427,-8.318324
11.185,2.0,1.0,1.0,33.2,34.7,34.7,2.5,2.0,2.7925,0.3528048804054952,0.3136364655107884,0.800582152248749,-0.191393663516845,-1.161098,-8.696683
11.185,2.0,1.0,1.0,33.2,34.7,34.7,2.5,2.0,2.795,0.3338325665909079,0.3100663809754294,0.824477385470823,-0.16798091533040882,-1.017098,-9.053237
11.185,2.0,1.0,1.0,33.2,34.7,34.7,2.5,2.0,2.7975,0.31374792457002576,0.3056825161777471,0.8452861633770795,-0.14740158465225128,-0.899381,-9.386643
11.185,2.0,1.0,1.0,33.2,34.7,34.7,2.5,2.0,2.8,0.2929506250392187,0.30089229208242413,0.8633986537185874,-0.12925218782344966,-0.802541,-9.696339
11.185,2.0,1.0,1.0,33.2,34.7,34.7,2.5,2.0,2.8025,0.2717118830323488,0.2959761099132893,0.8791629948140691,-0.1131702228442878,-0.722423,-9.982258
11.185,2.0,1.0,1.0,33.2,34.7,34.7,2.5,2.0,2.805,0.25021190461039433,0.29112472622125446,0.8928804064666714,-0.09883879244565469,-0.655816,-10.244638
11.185,2.0,1.0,1.0,33.2,34.7,34.7,2.5,2.0,2.8075,0.22856696920432243,0.2864663027446799,0.904806571004463,-0.0859849898005612,-0.600228,-10.483888
11.185,2.0,1.0,1.0,33.2,34.7,34.7,2.5,2.0,2.81,0.20684868792619343,0.2820856708533133,0.9151557898168944,-0.07437551455993731,-0.55371,-10.700498
11.185,2.0,1.0,1.0,33.2,34.7,34.7,2.5,2.0,2.8125,0.185097560615273,0.278037930336872,0.924106048042365,-0.0638113672230396,-0.51473,-10.894984
11.185,2.0,1.0,1.0,33.2,34.7,34.7,2.5,2.0,2.815,0.16333245979423097,0.2743580075779352,0.9318040478294625,-0.054122546484153475,-0.482079,-11.067845
11.185,2.0,1.0,1.0,33.2,34.7,34.7,2.5,2.0,2.8175,0.14155723584516683,0.27106736505256906,0.9383697806055284,-0.0451631662133896,-0.454795,-11.21954
11.185,2.0,1.0,1.0,33.2,34.7,34.7,2.5,2.0,2.82,0.1197652979902087,0.2681787153792166,0.9439004784084202,-0.036807139401566845,-0.432114,-11.350466
11.185,2.0,1.0,1.0,33.2,34.7,34.7,2.5,2.0,2.8225,0.09794277411392745,0.2656993425409941,0.9484739194108215,-0.02894444028097471,-0.413427,-11.460955
11.185,2.0,1.0,1.0,33.2,34.7,34.7,2.5,2.0,2.825,0.07607067178178577,0.26363345301227564,0.9521511243739031,-0.02147789202535289,-0.39825,-11.55126
11.185,2.0,1.0,1.0,33.2,34.7,34.7,2.5,2.0,2.8275,0.054126335221911015,0.2619838525073507,0.9549785033166399,-0.0143204015379129,-0.386199,-11.621553
11.185,2.0,1.0,1.0,33.2,34.7,34.7,2.5,2.0,2.83,0.03208440380575811,0.26075315514878394,0.9569895141410119,-0.007392555760291021,-0.376978,-11.671919
11.185,2.0,1.0,1.0,33.2,34.7,34.7,2.5,2.0,2.8325,0.009917415511749995,0.259944669774901,0.9582058874889775,-0.0006204952270297033,-0.370358,-11.702357
