1,w,sub_t,h,l1,l2,l3,g1,g2,Freq,S11_re,S21_re,S11_img,S21_img,S11_dB,S21_dB
11.185,2.0,1.0,1.0,33.4,33.1,33.1,2.5,1.8,2.5,0.857060189544886,-0.00981989188285974,0.502694951062872,0.0100245511096949,-0.055709,-37.05706
11.185,2.0,1.0,1.0,33.4,33.1,33.1,2.5,1.8,2.5025,0.8537068741773045,-0.010026148612149245,0.5082506207866274,0.010086609189127498,-0.056238,-36.940828
11.185,2.0,1.0,1.0,33.4,33.1,33.1,2.5,1.8,2.505,0.8503028422669284,-0.01023626654149888,0.5138061526959466,0.010148139101583397,-0.056777,-36.824258
11.185,2.0,1.0,1.0,33.4,33.1,33.1,2.5,1.8,2.5075,0.8468475899208845,-0.010450325691398366,0.5193613279276768,0.010209104871193269,-0.057326,-36.707341
11.185,2.0,1.0,1.0,33.4,33.1,33.1,2.5,1.8,2.51,0.8433406048298933,-0.010668408115511254,0.5249159208070104,0.010269469036119102,-0.057884,-36.590071
11.185,2.0,1.0,1.0,33.4,33.1,33.1,2.5,1.8,2.5125,0.839781366118679,-0.010890597961224298,0.5304696986168407,0.010329192584622138,-0.058453,-36.472439
11.185,2.0,1.0,1.0,33.4,33.1,33.1,2.5,1.8,2.515,0.8361693441937075,-0.011116981532232093,0.5360224213591488,0.010388234888153049,-0.059033,-36.354439
11.185,2.0,1.0,1.0,33.4,33.1,33.1,2.5,1.8,2.5175,0.8325040005882183,-0.01134764735323086,0.5415738415081063,0.010446553631313183,-0.059623,-36.236063
11.185,2.0,1.0,1.0,33.4,33.1,33.1,2.5,1.8,2.52,0.8287847878045044,-0.011582686236803077,0.5471237037545917,0.010504104738524702,-0.060224,-36.117303
11.185,2.0,1.0,1.0,33.4,33.1,33.1,2.5,1.8,2.5225,0.8250111491534077,-0.011822191352573053,0.552671744741765,0.010560842297240667,-0.060837,-35.998151
11.185,2.0,1.0,1.0,33.4,33.1,33.1,2.5,1.8,2.525,0.8211825185909766,-0.012066258298720501,0.5582176927913683,0.010616718477514378,-0.061461,-35.8786
11.185,2.0,1.0,1.0,33.4,33.1,33.1,2.5,1.8,2.5275,0.8172983205522548,-0.012314985175940606,0.5637612676203918,0.010671683447738566,-0.062097,-35.75864
11.185,2.0,1.0,1.0,33.4,33.1,33.1,2.5,1.8,2.53,0.8133579697821558,-0.012568472663944287,0.5693021800477106,0.010725685286352746,-0.062746,-35.638265
11.185,2.0,1.0,1.0,33.4,33.1,33.1,2.5,1.8,2.5325,0.8093608711633838,-0.012826824100593454,0.5748401316903076,0.0107786698893062,-0.063406,-35.517465
11.185,2.0,1.0,1.0,33.4,33.1,33.1,2.5,1.8,2.535,0.80530641954136,-0.013090145563774342,0.5803748146486688,0.010830580873050775,-0.06408,-35.396233
11.185,2.0,1.0,1.0,33.4,33.1,33.1,2.5,1.8,2.5375,0.8011939995461158,-0.013358545956111132,0.5859059111809065,0.01088135947282553,-0.064767,-35.27456
11.185,2.0,1.0,1.0,33.4,33.1,33.1,2.5,1.8,2.54,0.7970229854111127,-0.013632137092630506,0.5914330933651665,0.01093094443597975,-0.065467,-35.152437
11.185,2.0,1.0,1.0,33.4,33.1,33.1,2.5,1.8,2.5425,0.7927927407889466,-0.013911033791489733,0.596956022749843,0.010979271910067189,-0.066181,-35.029856
11.185,2.0,1.0,1.0,33.4,33.1,33.1,2.5,1.8,2.545,0.788502618563903,-0.014195353967886709,0.6024743499911023,0.011026275325426745,-0.066909,-34.906808
11.185,2.0,1.0,1.0,33.4,33.1,33.1,2.5,1.8,2.5475,0.7841519606613258,-0.01448521873127438,0.6079877144771907,0.011071885271949192,-0.067652,-34.783283
11.185,2.0,1.0,1.0,33.4,33.1,33.1,2.5,1.8,2.55,0.7797400978537514,-0.014780752486008374,0.613495743938994,0.01111602936971039,-0.068409,-34.659272
11.185,2.0,1.0,1.0,33.4,33.1,33.1,2.5,1.8,2.5525,0.7752663495637931,-0.015082083035559118,0.618998054046257,0.011158632133131681,-0.069182,-34.534767
11.185,2.0,1.0,1.0,33.4,33.1,33.1,2.5,1.8,2.555,0.7707300236637203,-0.015389341690429268,0.624494247988884,0.01119961482830829,-0.06997,-34.409758
11.185,2.0,1.0,1.0,33.4,33.1,33.1,2.5,1.8,2.5575,0.7661304162717076,-0.01570266337991879,0.6299839160426782,0.011238895323122841,-0.070775,-34.284234
11.185,2.0,1.0,1.0,33.4,33.1,33.1,2.5,1.8,2.56,0.761466811544727,-0.01602218676788928,0.6354666351188655,0.011276387929739456,-0.071596,-34.158188
11.185,2.0,1.0,1.0,33.4,33.1,33.1,2.5,1.8,2.5625,0.7567384814680392,-0.016348054372680956,0.6409419682967069,0.011312003239045194,-0.072434,-34.031608
11.185,2.0,1.0,1.0,33.4,33.1,33.1,2.5,1.8,2.565,0.7519446856412673,-0.016680412691348387,0.646409464338476,0.011345647946582138,-0.07329,-33.904484
11.185,2.0,1.0,1.0,33.4,33.1,33.1,2.5,1.8,2.5675,0.7470846710610208,-0.017019412328380636,0.6518686571860323,0.01137722466948103,-0.074163,-33.776806
11.185,2.0,1.0,1.0,33.4,33.1,33.1,2.5,1.8,2.57,0.7421576719000446,-0.017365208129082692,0.6573190654381886,0.011406631753877822,-0.075055,-33.648565
11.185,2.0,1.0,1.0,33.4,33.1,33.1,2.5,1.8,2.5725,0.7371629092828693,-0.01771795931780109,0.6627601918080288,0.011433763072261367,-0.075966,-33.519748
11.185,2.0,1.0,1.0,33.4,33.1,33.1,2.5,1.8,2.575,0.7320995910579482,-0.018077829641182933,0.6681915225592855,0.01145850781016273,-0.076897,-33.390347
11.185,2.0,1.0,1.0,33.4,33.1,33.1,2.5,1.8,2.5775,0.7269669115662568,-0.018444987516664936,0.6736125269208373,0.011480750241560488,-0.077847,-33.260348
11.185,2.0,1.0,1.0,33.4,33.1,33.1,2.5,1.8,2.58,0.7217640514063528,-0.018819606186399288,0.6790226564783443,0.01150036949233399,-0.078818,-33.129742
11.185,2.0,1.0,1.0,33.4,33.1,33.1,2.5,1.8,2.5825,0.7164901771958713,-0.019201863876826476,0.6844213445419818,0.011517239291051345,-0.079811,-32.998517
11.185,2.0,1.0,1.0,33.4,33.1,33.1,2.5,1.8,2.585,0.7111444413294644,-0.01959194396411763,0.6898080054891661,0.011531227706333585,-0.080825,-32.866662
11.185,2.0,1.0,1.0,33.4,33.1,33.1,2.5,1.8,2.5875,0.7057259817331726,-0.019990035145714447,0.6951820340811388,0.011542196869984025,-0.081862,-32.734164
11.185,2.0,1.0,1.0,33.4,33.1,33.1,2.5,1.8,2.59,0.7002339216152408,-0.020396331618205657,0.7005428047521576,0.011550002685016795,-0.082921,-32.601011
11.185,2.0,1.0,1.0,33.4,33.1,33.1,2.5,1.8,2.5925,0.6946673692133793,-0.020811033261783206,0.7058896708700331,0.01155449451765957,-0.084005,-32.467193
11.185,2.0,1.0,1.0,33.4,33.1,33.1,2.5,1.8,2.595,0.6890254175384967,-0.021234345831536793,0.711221963966626,0.01155551487234395,-0.085113,-32.332695
11.185,2.0,1.0,1.0,33.4,33.1,33.1,2.5,1.8,2.5975,0.6833071441149148,-0.02166648115584631,0.7165389929368812,0.011552899048624506,-0.086247,-32.197505
11.185,2.0,1.0,1.0,33.4,33.1,33.1,2.5,1.8,2.6,0.6775116107171009,-0.022107657342149974,0.7218400432048625,0.011546474778898797,-0.087407,-32.06161
11.185,2.0,1.0,1.0,33.4,33.1,33.1,2.5,1.8,2.6025,0.6716378631029611,-0.022558098990363477,0.7271243758551753,0.0115360618457167,-0.088593,-31.924998
11.185,2.0,1.0,1.0,33.4,33.1,33.1,2.5,1.8,2.605,0.6656849307437279,-0.023018037414247034,0.7323912267280751,0.01152147167738528,-0.089808,-31.787654
11.185,2.0,1.0,1.0,33.4,33.1,33.1,2.5,1.8,2.6075,0.6596518265505139,-0.023487710871015734,0.7376398054764309,0.01150250692048116,-0.091051,-31.649565
11.185,2.0,1.0,1.0,33.4,33.1,33.1,2.5,1.8,2.61,0.6535375465975928,-0.023967364799502063,0.7428692945826414,0.011478960987782656,-0.092323,-31.510716
11.185,2.0,1.0,1.0,33.4,33.1,33.1,2.5,1.8,2.6125,0.6473410698424906,-0.024457252067189655,0.7480788483334392,0.011450617580027663,-0.093626,-31.371094
11.185,2.0,1.0,1.0,33.4,33.1,33.1,2.5,1.8,2.615,0.6410613578429815,-0.024957633226440016,0.7532675917504329,0.01141725017978521,-0.094961,-31.230683
11.185,2.0,1.0,1.0,33.4,33.1,33.1,2.5,1.8,2.6175,0.6346973544711016,-0.02546877678024654,0.7584346194740662,0.011378621515602866,-0.096328,-31.089469
11.185,2.0,1.0,1.0,33.4,33.1,33.1,2.5,1.8,2.62,0.6282479856243096,-0.02599095945785539,0.7635789945985431,0.01133448299445752,-0.097729,-30.947437
11.185,2.0,1.0,1.0,33.4,33.1,33.1,2.5,1.8,2.6225,0.6217121589339323,-0.0265244665005993,0.7686997474551158,0.011284574100387048,-0.099164,-30.80457
11.185,2.0,1.0,1.0,33.4,33.1,33.1,2.5,1.8,2.625,0.615088763471087,-0.0270695919582941,0.773795874340931,0.0112286217570224,-0.100635,-30.660853
11.185,2.0,1.0,1.0,33.4,33.1,33.1,2.5,1.8,2.6275,0.6083766694502446,-0.027626638996555968,0.7788663361904868,0.011166339651565289,-0.102144,-30.51627
11.185,2.0,1.0,1.0,33.4,33.1,33.1,2.5,1.8,2.63,0.6015747279306776,-0.028195920215395392,0.7839100571865217,0.01109742751756832,-0.103691,-30.370803
11.185,2.0,1.0,1.0,33.4,33.1,33.1,2.5,1.8,2.6325,0.5946817705160298,-0.02877775797944824,0.7889259233069439,0.011021570373671026,-0.105277,-30.224436
11.185,2.0,1.0,1.0,33.4,33.1,33.1,2.5,1.8,2.635,0.5876966090522986,-0.029372484760202582,0.7939127808042071,0.01093843771522354,-0.106905,-30.077151
11.185,2.0,1.0,1.0,33.4,33.1,33.1,2.5,1.8,2.6375,0.5806180353245558,-0.029980443490572186,0.7988694346132309,0.010847682655485174,-0.108575,-29.92893
11.185,2.0,1.0,1.0,33.4,33.1,33.1,2.5,1.8,2.64,0.5734448207527536,-0.03060198793216959,0.8037946466837601,0.010748941012828764,-0.110289,-29.779754
11.185,2.0,1.0,1.0,33.4,33.1,33.1,2.5,1.8,2.6425,0.5661757160870546,-0.03123748305561142,0.8086871342326913,0.010641830340090261,-0.112049,-29.629606
11.185,2.0,1.0,1.0,33.4,33.1,33.1,2.5,1.8,2.645,0.5588094511031307,-0.03188730543418219,0.8135455679116176,0.0105259488918944,-0.113856,-29.478465
11.185,2.0,1.0,1.0,33.4,33.1,33.1,2.5,1.8,2.6475,0.5513447342979737,-0.03255184365115732,0.8183685698844909,0.010400874525447742,-0.115712,-29.326313
11.185,2.0,1.0,1.0,33.4,33.1,33.1,2.5,1.8,2.65,0.5437802525867963,-0.0332314987210672,0.8231547118098902,0.010266163529921503,-0.117619,-29.173128
11.185,2.0,1.0,1.0,33.4,33.1,33.1,2.5,1.8,2.6525,0.5361146710017239,-0.03392668452514441,0.8279025127219958,0.010121349379138217,-0.119579,-29.01889
11.185,2.0,1.0,1.0,33.4,33.1,33.1,2.5,1.8,2.655,0.5283466323930074,-0.03463782826116358,0.8326104368039285,0.009965941401840709,-0.121594,-28.863577
11.185,2.0,1.0,1.0,33.4,33.1,33.1,2.5,1.8,2.6575,0.5204747571336437,-0.03536537090782919,0.8372768910465734,0.009799423363334718,-0.123665,-28.707168
11.185,2.0,1.0,1.0,33.4,33.1,33.1,2.5,1.8,2.66,0.5124976428283559,-0.03610976770380757,0.841900222785536,0.009621251951769457,-0.125796,-28.549641
11.185,2.0,1.0,1.0,33.4,33.1,33.1,2.5,1.8,2.6625,0.5044138640280599,-0.03687148864142689,0.8464787171082172,0.009430855161743246,-0.127989,-28.390972
11.185,2.0,1.0,1.0,33.4,33.1,33.1,2.5,1.8,2.665,0.4962219719510274,-0.03765101897498008,0.8510105941224387,0.009227630567286559,-0.130245,-28.231137
11.185,2.0,1.0,1.0,33.4,33.1,33.1,2.5,1.8,2.6675,0.4879204942121983,-0.0384488597434593,0.8554940060772526,0.009010943475578485,-0.132567,-28.070113
11.185,2.0,1.0,1.0,33.4,33.1,33.1,2.5,1.8,2.67,0.47950793456221164,-0.03926552830742979,0.8599270343258777,0.008780124951992757,-0.134959,-27.907874
11.185,2.0,1.0,1.0,33.4,33.1,33.1,2.5,1.8,2.6725,0.4709827726379777,-0.04010155889959292,0.8643076861198228,0.008534469706228358,-0.137423,-27.744395
11.185,2.0,1.0,1.0,33.4,33.1,33.1,2.5,1.8,2.675,0.4623434637268594,-0.04095750318842212,0.8686338912223324,0.008273233828358812,-0.139962,-27.579648
11.185,2.0,1.0,1.0,33.4,33.1,33.1,2.5,1.8,2.6775,0.4535884385467952,-0.041833930854038866,0.8729034983282701,0.007995632362623226,-0.142579,-27.413608
11.185,2.0,1.0,1.0,33.4,33.1,33.1,2.5,1.8,2.68,0.44471610304501763,-0.04273143017525443,0.8771142712764703,0.0077008367056612525,-0.145278,-27.246246
11.185,2.0,1.0,1.0,33.4,33.1,33.1,2.5,1.8,2.6825,0.4357248382184189,-0.04365060862641246,0.8812638850392733,0.0073879718146668575,-0.148062,-27.077533
11.185,2.0,1.0,1.0,33.4,33.1,33.1,2.5,1.8,2.685,0.42661299995898255,-0.044592093482330494,0.8853499214727106,0.007056113209579293,-0.150934,-26.907439
11.185,2.0,1.0,1.0,33.4,33.1,33.1,2.5,1.8,2.6875,0.4173789189282336,-0.04555653242923639,0.889369864809209,0.006704283751926216,-0.153899,-26.735935
11.185,2.0,1.0,1.0,33.4,33.1,33.1,2.5,1.8,2.69,0.40802090046519907,-0.046544594179134986,0.8933210968730756,0.006331450181286996,-0.156961,-26.562987
11.185,2.0,1.0,1.0,33.4,33.1,33.1,2.5,1.8,2.6925,0.39853722453298884,-0.04755696908448755,0.8972008919971979,0.005936519388505348,-0.160125,-26.388565
11.185,2.0,1.0,1.0,33.4,33.1,33.1,2.5,1.8,2.695,0.3889261457098941,-0.0485943697494519,0.901006411617349,0.005518334402757735,-0.163394,-26.212634
11.185,2.0,1.0,1.0,33.4,33.1,33.1,2.5,1.8,2.6975,0.3791858932316894,-0.0496575316331822,0.90473469851825,0.005075670067343176,-0.166774,-26.035159
11.185,2.0,1.0,1.0,33.4,33.1,33.1,2.5,1.8,2.7,0.3693146710928718,-0.05074721363980785,0.9083826707030848,0.004607228376562911,-0.17027,-25.856106
11.185,2.0,1.0,1.0,33.4,33.1,33.1,2.5,1.8,2.7025,0.35931065821564356,-0.05186419868869468,0.911947114855362,0.004111633443307804,-0.173888,-25.675437
11.185,2.0,1.0,1.0,33.4,33.1,33.1,2.5,1.8,2.705,0.34917200869682397,-0.0530092942573851,0.9154246793589967,0.0035874260638948806,-0.177634,-25.493114
11.185,2.0,1.0,1.0,33.4,33.1,33.1,2.5,1.8,2.7075,0.33889685214434423,-0.05418333288821912,0.9188118668390636,0.003033057843293408,-0.181514,-25.309098
11.185,2.0,1.0,1.0,33.4,33.1,33.1,2.5,1.8,2.71,0.3284832941167884,-0.05538717264799493,0.9221050261819002,0.002446884840083068,-0.185534,-25.123348
11.185,2.0,1.0,1.0,33.4,33.1,33.1,2.5,1.8,2.7125,0.3179294166814795,-0.056621697528107806,0.9253003439890136,0.0018271606862694798,-0.189702,-24.935822
11.185,2.0,1.0,1.0,33.4,33.1,33.1,2.5,1.8,2.715,0.3072332791090113,-0.0578878177703569,0.9283938354145582,0.0011720291323715796,-0.194025,-24.746477
11.185,2.0,1.0,1.0,33.4,33.1,33.1,2.5,1.8,2.7175,0.2963929187248931,-0.059186470100976364,0.9313813343309322,0.00047951596295408596,-0.198512,-24.555266
11.185,2.0,1.0,1.0,33.4,33.1,33.1,2.5,1.8,2.72,0.28540635194227293,-0.06051861785235001,0.9342584827611383,-0.0002524797780838875,-0.20317,-24.362144
11.185,2.0,1.0,1.0,33.4,33.1,33.1,2.5,1.8,2.7225,0.27427157550340997,-0.06188525094825053,0.9370207195101077,-0.001026195319693704,-0.208011,-24.167063
11.185,2.0,1.0,1.0,33.4,33.1,33.1,2.5,1.8,2.725,0.2629865679621269,-0.06328738572417343,0.9396632679197843,-0.0018440145278746309,-0.213042,-23.969971
11.185,2.0,1.0,1.0,33.4,33.1,33.1,2.5,1.8,2.7275,0.25154929144451726,-0.06472606454934142,0.9421811226647083,-0.0027084791846118486,-0.218276,-23.770818
11.185,2.0,1.0,1.0,33.4,33.1,33.1,2.5,1.8,2.73,0.23995769373141645,-0.06620235521104803,0.9445690354955768,-0.0036223012734308223,-0.223722,-23.569549
11.185,2.0,1.0,1.0,33.4,33.1,33.1,2.5,1.8,2.7325,0.22820971071318696,-0.06771735001508958,0.9468214998280837,-0.004588376373708914,-0.229395,-23.366108
11.185,2.0,1.0,1.0,33.4,33.1,33.1,2.5,1.8,2.735,0.21630326927583016,-0.06927216454783264,0.9489327340628325,-0.005609798277375623,-0.235306,-23.160436
11.185,2.0,1.0,1.0,33.4,33.1,33.1,2.5,1.8,2.7375,0.20423629068730625,-0.07086793603583372,0.9508966635092013,-0.006689874954520192,-0.24147,-22.952475
11.185,2.0,1.0,1.0,33.4,33.1,33.1,2.5,1.8,2.74,0.19200669456462585,-0.07250582122749603,0.9527069007716084,-0.007832146008886567,-0.247902,-22.74216
11.185,2.0,1.0,1.0,33.4,33.1,33.1,2.5,1.8,2.7425,0.1796124035160332,-0.07418699370776938,0.9543567244403806,-0.009040401780452798,-0.254619,-22.529427
11.185,2.0,1.0,1.0,33.4,33.1,33.1,2.5,1.8,2.745,0.167051348568921,-0.07591264054089726,0.9558390559111879,-0.010318704270494233,-0.261638,-22.314207
11.185,2.0,1.0,1.0,33.4,33.1,33.1,2.5,1.8,2.7475,0.15432147551339115,-0.07768395811725261,0.9571464341365811,-0.011671410084961725,-0.268978,-22.096431
11.185,2.0,1.0,1.0,33.4,33.1,33.1,2.5,1.8,2.75,0.141420752314274,-0.0795021470577711,0.958270988090182,-0.0131031956149241,-0.276661,-21.876024
11.185,2.0,1.0,1.0,33.4,33.1,33.1,2.5,1.8,2.7525,0.12834717777164964,-0.08136840600268817,0.9592044066982872,-0.01461908469853834,-0.284708,-21.65291
11.185,2.0,1.0,1.0,33.4,33.1,33.1,2.5,1.8,2.755,0.1150987916422479,-0.0832839240793502,0.959937905964815,-0.016224479037829816,-0.293145,-21.427009
11.185,2.0,1.0,1.0,33.4,33.1,33.1,2.5,1.8,2.7575,0.10167368647273675,-0.08524987180577741,0.9604621929830622,-0.01792519167585028,-0.301997,-21.198239
11.185,2.0,1.0,1.0,33.4,33.1,33.1,2.5,1.8,2.76,0.08807002144199523,-0.08726739014111803,0.960767426491583,-0.019727483875878513,-0.311295,-20.966511
11.185,2.0,1.0,1.0,33.4,33.1,33.1,2.5,1.8,2.7625,0.07428603856458611,-0.08933757733963611,0.9608431735910083,-0.021638105784652167,-0.321068,-20.731736
11.185,2.0,1.0,1.0,33.4,33.1,33.1,2.5,1.8,2.765,0.06032008167373742,-0.09146147319954763,0.9606783621935341,-0.023664341306513327,-0.331352,-20.493819
11.185,2.0,1.0,1.0,33.4,33.1,33.1,2.5,1.8,2.7675,0.046170618681418,-0.09364004021954402,0.960261228726752,-0.025814057665224276,-0.342184,-20.252663
11.185,2.0,1.0,1.0,33.4,33.1,33.1,2.5,1.8,2.77,0.031836267708452666,-0.09587414108148272,0.9595792605580571,-0.02809576018536217,-0.353605,-20.008163
11.185,2.0,1.0,1.0,33.4,33.1,33.1,2.5,1.8,2.7725,0.01731582779247067,-0.09816451176399589,0.9586191325449035,-0.030518652885877615,-0.365661,-19.760212
11.185,2.0,1.0,1.0,33.4,33.1,33.1,2.5,1.8,2.775,0.002608315020050331,-0.10051172945453192,0.9573666370495337,-0.033092705544706905,-0.378402,-19.508698
11.185,2.0,1.0,1.0,33.4,33.1,33.1,2.5,1.8,2.7775,-0.012286994903044605,-0.10291617426141887,0.9558066066845947,-0.03582872796511537,-0.391882,-19.253504
11.185,2.0,1.0,1.0,33.4,33.1,33.1,2.5,1.8,2.78,-0.027370516426932855,-0.10537798352661389,0.9539228289788718,-0.038738452251235324,-0.406161,-18.994507
11.185,2.0,1.0,1.0,33.4,33.1,33.1,2.5,1.8,2.7825,-0.04264229481531992,-0.10789699729609256,0.9516979520710757,-0.041834623981004376,-0.421307,-18.731579
11.185,2.0,1.0,1.0,33.4,33.1,33.1,2.5,1.8,2.785,-0.05810193592455202,-0.11047269320876597,0.9491133804562021,-0.04513110324765072,-0.437393,-18.464585
11.185,2.0,1.0,1.0,33.4,33.1,33.1,2.5,1.8,2.7875,-0.0737485229791961,-0.11310410870458898,0.946149159726268,-0.04864297662300948,-0.454502,-18.193387
11.185,2.0,1.0,1.0,33.4,33.1,33.1,2.5,1.8,2.79,-0.0895805177766128,-0.11578974801363763,0.9427838491698377,-0.052386681172826986,-0.472724,-17.917836
11.185,2.0,1.0,1.0,33.4,33.1,33.1,2.5,1.8,2.7925,-0.10559564321276663,-0.11852747085251496,0.9389943810295883,-0.05638014171888725,-0.492162,-17.637782
11.185,2.0,1.0,1.0,33.4,33.1,33.1,2.5,1.8,2.795,-0.12179074336198012,-0.12131435910055773,0.9347559051743434,-0.060642922585258593,-0.512929,-17.353064
11.185,2.0,1.0,1.0,33.4,33.1,33.1,2.5,1.8,2.7975,-0.13816161653686906,-0.12414655692899838,0.9300416179364273,-0.06519639507143855,-0.535153,-17.063516
11.185,2.0,1.0,1.0,33.4,33.1,33.1,2.5,1.8,2.8,-0.15470281576869988,-0.1270190788786508,0.9248225739179894,-0.07006392184265998,-0.558976,-16.768965
11.185,2.0,1.0,1.0,33.4,33.1,33.1,2.5,1.8,2.8025,-0.171407409941717,-0.12992557918567554,0.9190674797115621,-0.07527105928687605,-0.58456,-16.46923
11.185,2.0,1.0,1.0,33.4,33.1,33.1,2.5,1.8,2.805,-0.18826669733950127,-0.13285807419221582,0.9127424687536801,-0.08084577861632644,-0.612086,-16.164125
11.185,2.0,1.0,1.0,33.4,33.1,33.1,2.5,1.8,2.8075,-0.20526986155795363,-0.135806607891094,0.9058108569963822,-0.08681870602882376,-0.641759,-15.853454
11.185,2.0,1.0,1.0,33.4,33.1,33.1,2.5,1.8,2.81,-0.22240355753923188,-0.1387588484728183,0.8982328798254701,-0.09322338150530032,-0.673813,-15.537018
11.185,2.0,1.0,1.0,33.4,33.1,33.1,2.5,1.8,2.8125,-0.23965141280358288,-0.14169960108933005,0.8899654117959493,-0.1000965346871422,-0.708513,-15.21461
11.185,2.0,1.0,1.0,33.4,33.1,33.1,2.5,1.8,2.815,-0.25699342571095224,-0.1446102188327565,0.8809616724608208,-0.107478374584,-0.746162,-14.886018
11.185,2.0,1.0,1.0,33.4,33.1,33.1,2.5,1.8,2.8175,-0.2744052386743524,-0.1474678900525176,0.8711709240716758,-0.11541288737979076,-0.787105,-14.551025
11.185,2.0,1.0,1.0,33.4,33.1,33.1,2.5,1.8,2.82,-0.2918572595756136,-0.15024477550488066,0.860538170550029,-0.12394813301247888,-0.831742,-14.209412
11.185,2.0,1.0,1.0,33.4,33.1,33.1,2.5,1.8,2.8225,-0.3093135991196719,-0.15290696336505555,0.8490038723111366,-0.13313652606143764,-0.880531,-13.860961
11.185,2.0,1.0,1.0,33.4,33.1,33.1,2.5,1.8,2.825,-0.3267307854673254,-0.15541320379484913,0.8365036988771656,-0.14303507918006417,-0.934002,-13.505454
11.185,2.0,1.0,1.0,33.4,33.1,33.1,2.5,1.8,2.8275,-0.3440562102578938,-0.15771337759874207,0.8229683515754357,-0.15370557703641619,-0.992771,-13.14268
11.185,2.0,1.0,1.0,33.4,33.1,33.1,2.5,1.8,2.83,-0.36122625229023164,-0.15974664573425829,0.8083235031033379,-0.16521463435741252,-1.057552,-12.772438
