1,w,sub_t,h,l1,l2,l3,g1,g2,Freq,S11_re,S21_re,S11_img,S21_img,S11_dB,S21_dB
11.185,2.0,1.0,1.0,33.0,33.0,33.0,3.0,2.5,2.5,0.898098465826672,-0.00551918728341026,0.42692523442521,0.00598645390399365,-0.048713,-41.784926
11.185,2.0,1.0,1.0,33.0,33.0,33.0,3.0,2.5,2.5025,0.8954577777483006,-0.0056363585108547085,0.4323315143617906,0.006026170514505379,-0.049112,-41.669596
11.185,2.0,1.0,1.0,33.0,33.0,33.0,3.0,2.5,2.505,0.892774565705477,-0.005755592218733179,0.4377401443336625,0.006065634577693161,-0.049518,-41.554063
11.185,2.0,1.0,1.0,33.0,33.0,33.0,3.0,2.5,2.5075,0.8900484498527161,-0.005876927666542755,0.4431509948017044,0.006104829503777618,-0.04993,-41.438319
11.185,2.0,1.0,1.0,33.0,33.0,33.0,3.0,2.5,2.51,0.8872790441222334,-0.0060004050531877766,0.44856393235551967,0.006143738077156525,-0.050349,-41.322357
11.185,2.0,1.0,1.0,33.0,33.0,33.0,3.0,2.5,2.5125,0.8844659561143212,-0.006126065543750801,0.4539788195818355,0.006182342431482362,-0.050775,-41.206172
11.185,2.0,1.0,1.0,33.0,33.0,33.0,3.0,2.5,2.515,0.8816087869857482,-0.006253951297141882,0.45939551492858977,0.006220624023663541,-0.051207,-41.089754
11.185,2.0,1.0,1.0,33.0,33.0,33.0,3.0,2.5,2.5175,0.878707131336152,-0.0063841054946587854,0.4648138725645368,0.006258563606737798,-0.051647,-40.973096
11.185,2.0,1.0,1.0,33.0,33.0,33.0,3.0,2.5,2.52,0.8757605770923799,-0.006516572369492809,0.4702337422342325,0.00629614120156357,-0.052095,-40.856192
11.185,2.0,1.0,1.0,33.0,33.0,33.0,3.0,2.5,2.5225,0.8727687053907591,-0.006651397237215676,0.47565496910820687,0.006333336067272918,-0.05255,-40.739034
11.185,2.0,1.0,1.0,33.0,33.0,33.0,3.0,2.5,2.525,0.869731090457247,-0.006788626527285257,0.4810773936281757,0.006370126670425221,-0.053012,-40.621615
11.185,2.0,1.0,1.0,33.0,33.0,33.0,3.0,2.5,2.5275,0.8666472994854322,-0.006928307815608851,0.48650085134710225,0.006406490652799644,-0.053483,-40.503926
11.185,2.0,1.0,1.0,33.0,33.0,33.0,3.0,2.5,2.53,0.8635168925123514,-0.007070489858204752,0.49192517276391795,0.006442404797758553,-0.053961,-40.38596
11.185,2.0,1.0,1.0,33.0,33.0,33.0,3.0,2.5,2.5325,0.8603394222920857,-0.007215222626004489,0.49735018315271673,0.006477844995112681,-0.054448,-40.267709
11.185,2.0,1.0,1.0,33.0,33.0,33.0,3.0,2.5,2.535,0.8571144341670953,-0.007362557340840217,0.5027757023862204,0.00651278620441338,-0.054943,-40.149166
11.185,2.0,1.0,1.0,33.0,33.0,33.0,3.0,2.5,2.5375,0.8538414659372646,-0.007512546512662984,0.5082015447532954,0.0065472024165940815,-0.055447,-40.030323
11.185,2.0,1.0,1.0,33.0,33.0,33.0,3.0,2.5,2.54,0.8505200477266133,-0.007665243978040635,0.513627518770314,0.006581066613878412,-0.055959,-39.911172
11.185,2.0,1.0,1.0,33.0,33.0,33.0,3.0,2.5,2.5425,0.8471497018476395,-0.00782070493998538,0.5190534269861296,0.006614350727867771,-0.056481,-39.791704
11.185,2.0,1.0,1.0,33.0,33.0,33.0,3.0,2.5,2.545,0.8437299426632558,-0.00797898600916387,0.5244790657804251,0.006647025595717035,-0.057011,-39.671913
11.185,2.0,1.0,1.0,33.0,33.0,33.0,3.0,2.5,2.5475,0.8402602764462856,-0.008140145246544387,0.5299042251551871,0.006679060914300389,-0.057551,-39.551788
11.185,2.0,1.0,1.0,33.0,33.0,33.0,3.0,2.5,2.55,0.8367402012364721,-0.008304242207538975,0.5353286885190609,0.0067104251922651325,-0.0581,-39.431323
11.185,2.0,1.0,1.0,33.0,33.0,33.0,3.0,2.5,2.5525,0.8331692066949746,-0.008471337987699931,0.5407522324642954,0.006741085699865427,-0.05866,-39.310509
11.185,2.0,1.0,1.0,33.0,33.0,33.0,3.0,2.5,2.555,0.8295467739563037,-0.008641495270033987,0.5461746265360213,0.006771008416460214,-0.059229,-39.189337
11.185,2.0,1.0,1.0,33.0,33.0,33.0,3.0,2.5,2.5575,0.8258723754776601,-0.008814778373999218,0.5515956329935608,0.006800157975554865,-0.059809,-39.067799
11.185,2.0,1.0,1.0,33.0,33.0,33.0,3.0,2.5,2.56,0.8221454748856418,-0.008991253306253399,0.5570150065634607,0.006828497607257808,-0.060399,-38.945886
11.185,2.0,1.0,1.0,33.0,33.0,33.0,3.0,2.5,2.5625,0.8183655268202777,-0.009170987813225345,0.5624324941839398,0.006855989078016395,-0.061,-38.823589
11.185,2.0,1.0,1.0,33.0,33.0,33.0,3.0,2.5,2.565,0.8145319767763474,-0.009354051435584421,0.5678478347404183,0.006882592627487831,-0.061612,-38.700899
11.185,2.0,1.0,1.0,33.0,33.0,33.0,3.0,2.5,2.5675,0.8106442609419576,-0.009540515564686132,0.5732607587917748,0.006908266902393247,-0.062235,-38.577808
11.185,2.0,1.0,1.0,33.0,33.0,33.0,3.0,2.5,2.57,0.8067018060343256,-0.009730453501076285,0.5786709882869825,0.006932968887192768,-0.06287,-38.454306
11.185,2.0,1.0,1.0,33.0,33.0,33.0,3.0,2.5,2.5725,0.8027040291327368,-0.009923940515139406,0.5840782362717375,0.006956653831410684,-0.063517,-38.330384
11.185,2.0,1.0,1.0,33.0,33.0,33.0,3.0,2.5,2.575,0.7986503375086378,-0.010121053909981149,0.5894822065846926,0.006979275173430383,-0.064176,-38.206033
11.185,2.0,1.0,1.0,33.0,33.0,33.0,3.0,2.5,2.5775,0.7945401284528281,-0.010321873086638884,0.5948825935428801,0.007000784460563249,-0.064847,-38.081243
11.185,2.0,1.0,1.0,33.0,33.0,33.0,3.0,2.5,2.58,0.7903727890997083,-0.010526479611718882,0.6002790816158892,0.007021131265191487,-0.065531,-37.956004
11.185,2.0,1.0,1.0,33.0,33.0,33.0,3.0,2.5,2.5825,0.7861476962485505,-0.010734957287563296,0.6056713450883585,0.00704026309676437,-0.066229,-37.830306
11.185,2.0,1.0,1.0,33.0,33.0,33.0,3.0,2.5,2.585,0.7818642161817541,-0.010947392225054772,0.6110590477103011,0.007058125309419299,-0.066939,-37.704141
11.185,2.0,1.0,1.0,33.0,33.0,33.0,3.0,2.5,2.5875,0.777521704480043,-0.01116387291917253,0.6164418423347751,0.0070746610049826,-0.067664,-37.577496
11.185,2.0,1.0,1.0,33.0,33.0,33.0,3.0,2.5,2.59,0.7731195058345778,-0.011384490327417287,0.6218193705423776,0.007089810931089604,-0.068403,-37.450363
11.185,2.0,1.0,1.0,33.0,33.0,33.0,3.0,2.5,2.5925,0.768656953855936,-0.011609337951230944,0.627191262252028,0.007103513374147871,-0.069156,-37.322731
11.185,2.0,1.0,1.0,33.0,33.0,33.0,3.0,2.5,2.595,0.7641333708799353,-0.011838511920539573,0.6325571353174597,0.007115704046848434,-0.069924,-37.194589
11.185,2.0,1.0,1.0,33.0,33.0,33.0,3.0,2.5,2.5975,0.7595480677702529,-0.012072111081557622,0.6379165951088397,0.007126315969913225,-0.070707,-37.065927
11.185,2.0,1.0,1.0,33.0,33.0,33.0,3.0,2.5,2.6,0.7549003437178139,-0.012310237087995876,0.6432692340788841,0.0071352793477431455,-0.071506,-36.936733
11.185,2.0,1.0,1.0,33.0,33.0,33.0,3.0,2.5,2.6025,0.7501894860369147,-0.012552994495823287,0.6486146313128086,0.007142521437614416,-0.072322,-36.806997
11.185,2.0,1.0,1.0,33.0,33.0,33.0,3.0,2.5,2.605,0.7454147699580413,-0.012800490861740507,0.6539523520614391,0.007147966412042135,-0.073153,-36.676707
11.185,2.0,1.0,1.0,33.0,33.0,33.0,3.0,2.5,2.6075,0.7405754584173573,-0.01305283684552996,0.6592819472567469,0.007151535213909169,-0.074002,-36.545851
11.185,2.0,1.0,1.0,33.0,33.0,33.0,3.0,2.5,2.61,0.7356708018428281,-0.01331014631645552,0.6646029530090539,0.00715314540392919,-0.074869,-36.414418
11.185,2.0,1.0,1.0,33.0,33.0,33.0,3.0,2.5,2.6125,0.7307000379369482,-0.013572536463894135,0.6699148900851067,0.007152710999985167,-0.075753,-36.282396
11.185,2.0,1.0,1.0,33.0,33.0,33.0,3.0,2.5,2.615,0.7256623914560417,-0.013840127912389475,0.6752172633661846,0.0071501423078528265,-0.076656,-36.149773
11.185,2.0,1.0,1.0,33.0,33.0,33.0,3.0,2.5,2.6175,0.7205570739861141,-0.014113044841328267,0.680509561285345,0.007145345742785352,-0.077577,-36.016537
11.185,2.0,1.0,1.0,33.0,33.0,33.0,3.0,2.5,2.62,0.7153832837152201,-0.01439141510944825,0.6857912552428844,0.007138223641399504,-0.078519,-35.882674
11.185,2.0,1.0,1.0,33.0,33.0,33.0,3.0,2.5,2.6225,0.7101402052023241,-0.014675370384399797,0.6910617989990293,0.007128674063265191,-0.07948,-35.748173
11.185,2.0,1.0,1.0,33.0,33.0,33.0,3.0,2.5,2.625,0.704827009142638,-0.0149650462775902,0.696320628042812,0.00711659058155891,-0.080462,-35.613019
11.185,2.0,1.0,1.0,33.0,33.0,33.0,3.0,2.5,2.6275,0.6994428521293978,-0.01526058248455564,0.7015671589360565,0.007101862062094445,-0.081465,-35.4772
11.185,2.0,1.0,1.0,33.0,33.0,33.0,3.0,2.5,2.63,0.6939868764120729,-0.01556212293111342,0.7068007886313,0.007084372429998902,-0.08249,-35.340702
11.185,2.0,1.0,1.0,33.0,33.0,33.0,3.0,2.5,2.6325,0.6884582096509798,-0.0158698159255631,0.7120208937624468,0.007064000423247642,-0.083538,-35.203511
11.185,2.0,1.0,1.0,33.0,33.0,33.0,3.0,2.5,2.635,0.6828559646682897,-0.016183814317216483,0.7172268299068554,0.007040619332215063,-0.084609,-35.065612
11.185,2.0,1.0,1.0,33.0,33.0,33.0,3.0,2.5,2.6375,0.6771792391954171,-0.016504275661550574,0.7224179308174933,0.007014096724338692,-0.085704,-34.926993
11.185,2.0,1.0,1.0,33.0,33.0,33.0,3.0,2.5,2.64,0.6714271156167675,-0.016831362392292458,0.7275935076237305,0.006984294152925694,-0.086823,-34.787637
11.185,2.0,1.0,1.0,33.0,33.0,33.0,3.0,2.5,2.6425,0.665598660709849,-0.017165242000760136,0.7327528479992241,0.006951066849061283,-0.087968,-34.647529
11.185,2.0,1.0,1.0,33.0,33.0,33.0,3.0,2.5,2.645,0.6596929253817335,-0.017506087222798804,0.7378952152952838,0.006914263395500754,-0.089139,-34.506655
11.185,2.0,1.0,1.0,33.0,33.0,33.0,3.0,2.5,2.6475,0.6537089444018722,-0.0178540762336686,0.7430198476379911,0.006873725381340461,-0.090337,-34.364998
11.185,2.0,1.0,1.0,33.0,33.0,33.0,3.0,2.5,2.65,0.6476457361312521,-0.01820939285125813,0.7481259569872603,0.006829287036176781,-0.091563,-34.222542
11.185,2.0,1.0,1.0,33.0,33.0,33.0,3.0,2.5,2.6525,0.6415023022479264,-0.01857222674801358,0.7532127281558724,0.006780774842357889,-0.092818,-34.079271
11.185,2.0,1.0,1.0,33.0,33.0,33.0,3.0,2.5,2.655,0.6352776274689026,-0.018942773671995598,0.7582793177864521,0.0067280071238318044,-0.094102,-33.935168
11.185,2.0,1.0,1.0,33.0,33.0,33.0,3.0,2.5,2.6575,0.6289706792684174,-0.019321235677490965,0.763324853284164,0.006670793609971207,-0.095417,-33.790215
11.185,2.0,1.0,1.0,33.0,33.0,33.0,3.0,2.5,2.66,0.6225804075926183,-0.019707821365630245,0.7683484317028059,0.006608934972634658,-0.096764,-33.644396
11.185,2.0,1.0,1.0,33.0,33.0,33.0,3.0,2.5,2.6625,0.6161057445706821,-0.02010274613548017,0.7733491185817893,0.006542222334583728,-0.098143,-33.497692
11.185,2.0,1.0,1.0,33.0,33.0,33.0,3.0,2.5,2.665,0.6095456042223969,-0.02050623244610293,0.7783259467313652,0.006470436747223537,-0.099556,-33.350084
11.185,2.0,1.0,1.0,33.0,33.0,33.0,3.0,2.5,2.6675,0.6028988821622638,-0.020918510090094686,0.7832779149632294,0.006393348635475762,-0.101004,-33.201553
11.185,2.0,1.0,1.0,33.0,33.0,33.0,3.0,2.5,2.67,0.5961644553001643,-0.021339816479138803,0.7882039867634838,0.006310717207408284,-0.102488,-33.05208
11.185,2.0,1.0,1.0,33.0,33.0,33.0,3.0,2.5,2.6725,0.5893411815386517,-0.021770396942132345,0.7931030889047009,0.006222289826059118,-0.104009,-32.901646
11.185,2.0,1.0,1.0,33.0,33.0,33.0,3.0,2.5,2.675,0.5824278994669561,-0.02221050503646597,0.7979741099935991,0.006127801340672146,-0.105569,-32.750229
11.185,2.0,1.0,1.0,33.0,33.0,33.0,3.0,2.5,2.6775,0.5754234280517797,-0.022660402873061355,0.8028158989506025,0.006026973374334685,-0.107169,-32.597808
11.185,2.0,1.0,1.0,33.0,33.0,33.0,3.0,2.5,2.68,0.5683265663249933,-0.02312036145579295,0.8076272634172769,0.00591951356475282,-0.10881,-32.444363
11.185,2.0,1.0,1.0,33.0,33.0,33.0,3.0,2.5,2.6825,0.5611360930683587,-0.023590661035942404,0.8124069680873314,0.005805114754620018,-0.110494,-32.289871
11.185,2.0,1.0,1.0,33.0,33.0,33.0,3.0,2.5,2.685,0.5538507664954165,-0.024071591482358226,0.8171537329565627,0.005683454127732556,-0.112222,-32.134309
11.185,2.0,1.0,1.0,33.0,33.0,33.0,3.0,2.5,2.6875,0.5464693239307075,-0.024563452668010397,0.8218662314867557,0.005554192286670152,-0.113997,-31.977654
11.185,2.0,1.0,1.0,33.0,33.0,33.0,3.0,2.5,2.69,0.5389904814865351,-0.025066554873651985,0.8265430886781646,0.005416972267493442,-0.115819,-31.819882
11.185,2.0,1.0,1.0,33.0,33.0,33.0,3.0,2.5,2.6925,0.5314129337374718,-0.02558121920931582,0.8311828790447889,0.0052714184865082945,-0.11769,-31.660968
11.185,2.0,1.0,1.0,33.0,33.0,33.0,3.0,2.5,2.695,0.5237353533929109,-0.02610777805438796,0.8357841244861758,0.00511713561370464,-0.119613,-31.500887
11.185,2.0,1.0,1.0,33.0,33.0,33.0,3.0,2.5,2.6975,0.5159563909679327,-0.026646575517012702,0.8403452920489899,0.004953707366988541,-0.12159,-31.339614
11.185,2.0,1.0,1.0,33.0,33.0,33.0,3.0,2.5,2.7,0.5080746744528808,-0.02719796791358798,0.8448647915710208,0.00478069522079231,-0.123622,-31.17712
11.185,2.0,1.0,1.0,33.0,33.0,33.0,3.0,2.5,2.7025,0.5000888089820386,-0.027762324269113434,0.8493409731996923,0.00459763702205554,-0.125711,-31.013379
11.185,2.0,1.0,1.0,33.0,33.0,33.0,3.0,2.5,2.705,0.49199737650191183,-0.028340026839144675,0.853772124776455,0.004404045505916147,-0.12786,-30.848362
11.185,2.0,1.0,1.0,33.0,33.0,33.0,3.0,2.5,2.7075,0.4837989354396762,-0.028931471654096035,0.8581564690777121,0.004199406702731963,-0.130072,-30.68204
11.185,2.0,1.0,1.0,33.0,33.0,33.0,3.0,2.5,2.71,0.4754920203724584,-0.02953706908660518,0.8624921609020954,0.003983178227256511,-0.132348,-30.514383
11.185,2.0,1.0,1.0,33.0,33.0,33.0,3.0,2.5,2.7125,0.46707514169821424,-0.030157244442638353,0.8667772839930121,0.003754787439908621,-0.134692,-30.345359
11.185,2.0,1.0,1.0,33.0,33.0,33.0,3.0,2.5,2.715,0.45854678530911874,-0.03079243857696015,0.8710098477843841,0.003513629469104553,-0.137106,-30.174936
11.185,2.0,1.0,1.0,33.0,33.0,33.0,3.0,2.5,2.7175,0.44990541226850916,-0.03144310853351791,0.8751877839563835,0.003259065082530536,-0.139593,-30.003082
11.185,2.0,1.0,1.0,33.0,33.0,33.0,3.0,2.5,2.72,0.4411494584926348,-0.03210972821119787,0.8793089427867515,0.0029904183940412713,-0.142157,-29.829762
11.185,2.0,1.0,1.0,33.0,33.0,33.0,3.0,2.5,2.7225,0.43227733443862987,-0.03279278905528667,0.8833710892819315,0.0027069743915251426,-0.1448,-29.65494
11.185,2.0,1.0,1.0,33.0,33.0,33.0,3.0,2.5,2.725,0.42328742480043824,-0.03349280077481345,0.8873718990707095,0.00240797626959936,-0.147527,-29.47858
11.185,2.0,1.0,1.0,33.0,33.0,33.0,3.0,2.5,2.7275,0.4141780882146418,-0.034210292085756176,0.8913089540414202,0.0020926225493372967,-0.150341,-29.300645
11.185,2.0,1.0,1.0,33.0,33.0,33.0,3.0,2.5,2.73,0.40494765697854723,-0.034945811479848904,0.8951797377018543,0.00176006396539355,-0.153245,-29.121095
11.185,2.0,1.0,1.0,33.0,33.0,33.0,3.0,2.5,2.7325,0.3955944367832546,-0.0356999280184263,0.8989816302389578,0.0014094000988251424,-0.156244,-28.93989
11.185,2.0,1.0,1.0,33.0,33.0,33.0,3.0,2.5,2.735,0.38611670646493595,-0.03647323215037437,0.9027119032530618,0.0010396757316193327,-0.159343,-28.756988
11.185,2.0,1.0,1.0,33.0,33.0,33.0,3.0,2.5,2.7375,0.3765127177781055,-0.03726633655280139,0.9063677141387928,0.0006498768963555296,-0.162546,-28.572345
11.185,2.0,1.0,1.0,33.0,33.0,33.0,3.0,2.5,2.74,0.3667806951953507,-0.03807987699249467,0.909946100081888,0.000238926591558493,-0.165857,-28.385918
11.185,2.0,1.0,1.0,33.0,33.0,33.0,3.0,2.5,2.7425,0.35691883573877153,-0.03891451320556051,0.9134439716378976,-0.00019431986993612626,-0.169283,-28.19766
11.185,2.0,1.0,1.0,33.0,33.0,33.0,3.0,2.5,2.745,0.3469253088493453,-0.039770929791833214,0.9168581058550765,-0.0006510799159005461,-0.17283,-28.007521
11.185,2.0,1.0,1.0,33.0,33.0,33.0,3.0,2.5,2.7475,0.3367982563015336,-0.04064983711966269,0.9201851388996701,-0.001132649213292121,-0.176502,-27.815453
11.185,2.0,1.0,1.0,33.0,33.0,33.0,3.0,2.5,2.75,0.326535792171795,-0.0415519722355039,0.923421558137174,-0.00164040765544343,-0.180306,-27.621404
11.185,2.0,1.0,1.0,33.0,33.0,33.0,3.0,2.5,2.7525,0.3161360028712451,-0.042478099771310555,0.9265636936179349,-0.0021758258879808487,-0.18425,-27.425319
11.185,2.0,1.0,1.0,33.0,33.0,33.0,3.0,2.5,2.755,0.3055969472546017,-0.043429012841011125,0.9296077089095938,-0.002740472429412235,-0.18834,-27.227142
11.185,2.0,1.0,1.0,33.0,33.0,33.0,3.0,2.5,2.7575,0.29491665681976814,-0.04440553391528197,0.9325495912122499,-0.0033360214488983965,-0.192585,-27.026816
11.185,2.0,1.0,1.0,33.0,33.0,33.0,3.0,2.5,2.76,0.284093136015136,-0.045408515661333235,0.9353851406847118,-0.003964261271158327,-0.196992,-26.824279
11.185,2.0,1.0,1.0,33.0,33.0,33.0,3.0,2.5,2.7625,0.2731243626748397,-0.04643884173142946,0.9381099589017426,-0.004627103686875053,-0.201571,-26.619469
11.185,2.0,1.0,1.0,33.0,33.0,33.0,3.0,2.5,2.765,0.26200828860604586,-0.047497427480245304,0.9407194363525662,-0.0053265941565156455,-0.206331,-26.41232
11.185,2.0,1.0,1.0,33.0,33.0,33.0,3.0,2.5,2.7675,0.250742840356945,-0.04858522058681002,0.9432087388800043,-0.0060649230063007774,-0.211283,-26.202764
11.185,2.0,1.0,1.0,33.0,33.0,33.0,3.0,2.5,2.77,0.23932592019956286,-0.04970320155154429,0.9455727929472051,-0.006844437727375256,-0.216438,-25.990729
11.185,2.0,1.0,1.0,33.0,33.0,33.0,3.0,2.5,2.7725,0.22775540736813793,-0.050852384032564375,0.9478062696048105,-0.007667656503231021,-0.221807,-25.776141
11.185,2.0,1.0,1.0,33.0,33.0,33.0,3.0,2.5,2.775,0.21602915960169505,-0.05203381497779377,0.9499035670153315,-0.008537283106386868,-0.227405,-25.558922
11.185,2.0,1.0,1.0,33.0,33.0,33.0,3.0,2.5,2.7775,0.20414501504898602,-0.05324857450019244,0.9518587913731633,-0.009456223323527661,-0.233244,-25.338992
11.185,2.0,1.0,1.0,33.0,33.0,33.0,3.0,2.5,2.78,0.1921007946054392,-0.054497775432257714,0.953665736037721,-0.01042760308908712,-0.23934,-25.116266
11.185,2.0,1.0,1.0,33.0,33.0,33.0,3.0,2.5,2.7825,0.17989430476566168,-0.055782562482434066,0.9553178586732292,-0.011454788531009001,-0.245709,-24.890656
11.185,2.0,1.0,1.0,33.0,33.0,33.0,3.0,2.5,2.785,0.16752334109174402,-0.0571041108996931,0.9568082561612922,-0.012541408159620876,-0.252369,-24.662068
11.185,2.0,1.0,1.0,33.0,33.0,33.0,3.0,2.5,2.7875,0.15498569241802534,-0.0584636245326476,0.9581296370209433,-0.013691377461697256,-0.259339,-24.430406
11.185,2.0,1.0,1.0,33.0,33.0,33.0,3.0,2.5,2.79,0.1422791459375668,-0.059862333145382696,0.9592742910348637,-0.014908926197522633,-0.26664,-24.195569
11.185,2.0,1.0,1.0,33.0,33.0,33.0,3.0,2.5,2.7925,0.1294014933456416,-0.061301488822722475,0.9602340557390832,-0.016198628739767122,-0.274296,-23.95745
11.185,2.0,1.0,1.0,33.0,33.0,33.0,3.0,2.5,2.795,0.11635053825204504,-0.0627823612617145,0.9610002793859715,-0.017565437840097287,-0.282331,-23.715938
11.185,2.0,1.0,1.0,33.0,33.0,33.0,3.0,2.5,2.7975,0.10312410511873543,-0.0643062317021692,0.9615637799356971,-0.019014722263582334,-0.290772,-23.470915
11.185,2.0,1.0,1.0,33.0,33.0,33.0,3.0,2.5,2.8,0.0897200500338329,-0.06587438519529905,0.9619147995685128,-0.020552308793226892,-0.299649,-23.222259
11.185,2.0,1.0,1.0,33.0,33.0,33.0,3.0,2.5,2.8025,0.07613627370001749,-0.06748810084346586,0.9620429541379638,-0.02218452917856484,-0.308995,-22.969842
11.185,2.0,1.0,1.0,33.0,33.0,33.0,3.0,2.5,2.805,0.0623707370976342,-0.06914863956284979,0.9619371769019844,-0.023918272684617204,-0.318846,-22.713526
11.185,2.0,1.0,1.0,33.0,33.0,33.0,3.0,2.5,2.8075,0.04842148038413391,-0.0708572288207891,0.9615856557732756,-0.025761044992208295,-0.329242,-22.45317
11.185,2.0,1.0,1.0,33.0,33.0,33.0,3.0,2.5,2.81,0.03428664571659367,-0.07261504367593515,0.9609757632205466,-0.027721034309412234,-0.340226,-22.188624
11.185,2.0,1.0,1.0,33.0,33.0,33.0,3.0,2.5,2.8125,0.0199645048389246,-0.07442318329633,0.960093977826224,-0.0298071856786826,-0.351848,-21.919729
11.185,2.0,1.0,1.0,33.0,33.0,33.0,3.0,2.5,2.815,0.005453492467416452,-0.0762826419405949,0.9589257963619883,-0.03202928460708346,-0.36416,-21.646318
11.185,2.0,1.0,1.0,33.0,33.0,33.0,3.0,2.5,2.8175,-0.009247753252782143,-0.07819427315112121,0.9574556350788361,-0.03439805131009517,-0.377222,-21.368217
11.185,2.0,1.0,1.0,33.0,33.0,33.0,3.0,2.5,2.82,-0.024140341649745902,-0.08015874561344577,0.9556667187211872,-0.0369252470448216,-0.391101,-21.08524
11.185,2.0,1.0,1.0,33.0,33.0,33.0,3.0,2.5,2.8225,-0.03922506984248376,-0.08217648876746703,0.9535409555629751,-0.03962379421790424,-0.40587,-20.79719
11.185,2.0,1.0,1.0,33.0,33.0,33.0,3.0,2.5,2.825,-0.054502350064489544,-0.08424762579416499,0.951058796526417,-0.0425079121883182,-0.421613,-20.503863
11.185,2.0,1.0,1.0,33.0,33.0,33.0,3.0,2.5,2.8275,-0.06997212099671289,-0.08637189102080488,0.948199076181042,-0.045593270945675626,-0.438423,-20.20504
11.185,2.0,1.0,1.0,33.0,33.0,33.0,3.0,2.5,2.83,-0.08563373937429729,-0.08854852805587655,0.944938833133326,-0.048897165128954825,-0.456405,-19.90049
