1,w,sub_t,h,l1,l2,l3,g1,g2,Freq,S11_re,S21_re,S11_img,S21_img,S11_dB,S21_dB
11.185,2.0,1.0,1.0,33.7,33.3,33.3,4.2,2.2,2.5,0.826685150347328,-0.00695504494325338,0.551600460442546,0.00481334408859401,-0.053875,-41.454454
11.185,2.0,1.0,1.0,33.7,33.3,33.3,4.2,2.2,2.5025,0.8228740699811191,-0.007084313694842242,0.5571712950410422,0.004821937672266478,-0.054358,-41.340757
11.185,2.0,1.0,1.0,33.7,33.3,33.3,4.2,2.2,2.505,0.8190087348802325,-0.0072156579851009066,0.5627386140055735,0.004829607679496655,-0.054849,-41.226815
11.185,2.0,1.0,1.0,33.7,33.3,33.3,4.2,2.2,2.5075,0.8150886334884863,-0.0073491130559140555,0.5683021130753038,0.004836321441918126,-0.055347,-41.11262
11.185,2.0,1.0,1.0,33.7,33.3,33.3,4.2,2.2,2.51,0.811113247136729,-0.007484714885054559,0.5738614793673459,0.004842045228117944,-0.055853,-40.998167
11.185,2.0,1.0,1.0,33.7,33.3,33.3,4.2,2.2,2.5125,0.8070820499637898,-0.007622500204015547,0.5794163911187203,0.004846744204694478,-0.056367,-40.883448
11.185,2.0,1.0,1.0,33.7,33.3,33.3,4.2,2.2,2.515,0.8029945088378768,-0.007762506516312779,0.584966517420625,0.004850382395721634,-0.05689,-40.768456
11.185,2.0,1.0,1.0,33.7,33.3,33.3,4.2,2.2,2.5175,0.7988500832785246,-0.007904772116270681,0.590511517944763,0.004852922640546004,-0.057421,-40.653184
11.185,2.0,1.0,1.0,33.7,33.3,33.3,4.2,2.2,2.52,0.7946482253791805,-0.008049336108306649,0.5960510426615053,0.004854326549840087,-0.057961,-40.537625
11.185,2.0,1.0,1.0,33.7,33.3,33.3,4.2,2.2,2.5225,0.7903883797305411,-0.00819623842672801,0.6015847315496038,0.00485455445983056,-0.05851,-40.421772
11.185,2.0,1.0,1.0,33.7,33.3,33.3,4.2,2.2,2.525,0.7860699833447402,-0.00834551985605691,0.6071122142972193,0.004853565384615799,-0.059068,-40.305617
11.185,2.0,1.0,1.0,33.7,33.3,33.3,4.2,2.2,2.5275,0.7816924655805023,-0.00849722205189907,0.6126331099939828,0.004851316966483399,-0.059635,-40.189154
11.185,2.0,1.0,1.0,33.7,33.3,33.3,4.2,2.2,2.53,0.7772552480693903,-0.008651387562372216,0.618147026813809,0.004847765424132214,-0.060211,-40.072374
11.185,2.0,1.0,1.0,33.7,33.3,33.3,4.2,2.2,2.5325,0.7727577446432683,-0.008808059850111221,0.6236535616881707,0.004842865498699496,-0.060798,-39.95527
11.185,2.0,1.0,1.0,33.7,33.3,33.3,4.2,2.2,2.535,0.7681993612631179,-0.008967283314867335,0.6291522999695505,0.004836570397487581,-0.061394,-39.837835
11.185,2.0,1.0,1.0,33.7,33.3,33.3,4.2,2.2,2.5375,0.7635794959493551,-0.009129103316719258,0.6346428150847382,0.004828831735279095,-0.062001,-39.72006
11.185,2.0,1.0,1.0,33.7,33.3,33.3,4.2,2.2,2.54,0.7588975387137893,-0.009293566199914694,0.6401246681776745,0.00481959947312332,-0.062618,-39.601938
11.185,2.0,1.0,1.0,33.7,33.3,33.3,4.2,2.2,2.5425,0.7541528714933935,-0.009460719317361622,0.6455974077415031,0.004808821854469902,-0.063246,-39.48346
11.185,2.0,1.0,1.0,33.7,33.3,33.3,4.2,2.2,2.545,0.7493448680860443,-0.009630611055789122,0.651060569239493,0.00479644533851938,-0.063885,-39.364619
11.185,2.0,1.0,1.0,33.7,33.3,33.3,4.2,2.2,2.5475,0.744472894088422,-0.00980329086159803,0.6565136747144705,0.004782414530652019,-0.064535,-39.245406
11.185,2.0,1.0,1.0,33.7,33.3,33.3,4.2,2.2,2.55,0.7395363068362374,-0.009978809267423134,0.6619562323864191,0.004766672109789036,-0.065197,-39.125814
11.185,2.0,1.0,1.0,33.7,33.3,33.3,4.2,2.2,2.5525,0.7345344553470059,-0.010157217919428274,0.6673877362378352,0.004749158752532226,-0.06587,-39.005832
11.185,2.0,1.0,1.0,33.7,33.3,33.3,4.2,2.2,2.555,0.729466680265557,-0.010338569605357586,0.6728076655864843,0.0047298130539177655,-0.066556,-38.885454
11.185,2.0,1.0,1.0,33.7,33.3,33.3,4.2,2.2,2.5575,0.7243323138125023,-0.010522918283366111,0.6782154846451359,0.004708571444612096,-0.067254,-38.76467
11.185,2.0,1.0,1.0,33.7,33.3,33.3,4.2,2.2,2.56,0.7191306797358958,-0.01071031911165416,0.6836106420678624,0.004685368104366398,-0.067964,-38.643471
11.185,2.0,1.0,1.0,33.7,33.3,33.3,4.2,2.2,2.5625,0.7138610932663252,-0.010900828478930456,0.6889925704824705,0.004660134871535823,-0.068688,-38.521849
11.185,2.0,1.0,1.0,33.7,33.3,33.3,4.2,2.2,2.565,0.7085228610756813,-0.011094504035730444,0.6943606860086219,0.004632801148457734,-0.069425,-38.399793
11.185,2.0,1.0,1.0,33.7,33.3,33.3,4.2,2.2,2.5675,0.7031152812398851,-0.011291404726616041,0.6997143877611699,0.004603293802471627,-0.070176,-38.277295
11.185,2.0,1.0,1.0,33.7,33.3,33.3,4.2,2.2,2.57,0.6976376432058424,-0.011491590823285177,0.7050530573382392,0.004571537062348526,-0.07094,-38.154346
11.185,2.0,1.0,1.0,33.7,33.3,33.3,4.2,2.2,2.5725,0.6920892277629227,-0.011695123958619796,0.710376058293551,0.004537452409885555,-0.071719,-38.030935
11.185,2.0,1.0,1.0,33.7,33.3,33.3,4.2,2.2,2.575,0.6864693070192726,-0.011902067161701788,0.7156827355924711,0.004500958466404291,-0.072513,-37.907053
11.185,2.0,1.0,1.0,33.7,33.3,33.3,4.2,2.2,2.5775,0.6807771443832902,-0.012112484893827876,0.7209724150512509,0.004461970873876532,-0.073322,-37.78269
11.185,2.0,1.0,1.0,33.7,33.3,33.3,4.2,2.2,2.58,0.6750119945506001,-0.012326443085554946,0.726244402758898,0.004420402170382966,-0.074146,-37.657836
11.185,2.0,1.0,1.0,33.7,33.3,33.3,4.2,2.2,2.5825,0.6691731034968847,-0.012544009174808787,0.7314979844811083,0.004376161659591967,-0.074986,-37.53248
11.185,2.0,1.0,1.0,33.7,33.3,33.3,4.2,2.2,2.585,0.6632597084769513,-0.012765252146089968,0.73673242504565,0.0043291552739255015,-0.075843,-37.406612
11.185,2.0,1.0,1.0,33.7,33.3,33.3,4.2,2.2,2.5875,0.6572710380304247,-0.012990242570811815,0.7419469677085848,0.0042792854310573746,-0.076716,-37.280221
11.185,2.0,1.0,1.0,33.7,33.3,33.3,4.2,2.2,2.59,0.6512063119944845,-0.013219052648806316,0.7471408335006688,0.004226450883366393,-0.077607,-37.153296
11.185,2.0,1.0,1.0,33.7,33.3,33.3,4.2,2.2,2.5925,0.6450647415240713,-0.013451756251035412,0.7523132205532684,0.0041705465599419555,-0.078515,-37.025827
11.185,2.0,1.0,1.0,33.7,33.3,33.3,4.2,2.2,2.595,0.6388455291200297,-0.013688428963545014,0.7574633034030752,0.004111463400712364,-0.079441,-36.897801
11.185,2.0,1.0,1.0,33.7,33.3,33.3,4.2,2.2,2.5975,0.6325478686656495,-0.013929148132702115,0.7625902322749024,0.004049088182238418,-0.080386,-36.769207
11.185,2.0,1.0,1.0,33.7,33.3,33.3,4.2,2.2,2.6,0.6261709454721105,-0.014173992911754264,0.7676931323417926,0.003983303334682384,-0.08135,-36.640033
11.185,2.0,1.0,1.0,33.7,33.3,33.3,4.2,2.2,2.6025,0.6197139363333604,-0.014423044308753255,0.772771102961636,0.003913986749430541,-0.082334,-36.510267
11.185,2.0,1.0,1.0,33.7,33.3,33.3,4.2,2.2,2.605,0.6131760095909574,-0.01467638523588527,0.7778232168894785,0.003841011576810279,-0.083337,-36.379897
11.185,2.0,1.0,1.0,33.7,33.3,33.3,4.2,2.2,2.6075,0.606556325209467,-0.01493410056025075,0.7828485194646448,0.0037642460133041687,-0.084362,-36.24891
11.185,2.0,1.0,1.0,33.7,33.3,33.3,4.2,2.2,2.61,0.5998540348630034,-0.015196277156137902,0.7878460277717633,0.0036835530776218647,-0.085408,-36.117293
11.185,2.0,1.0,1.0,33.7,33.3,33.3,4.2,2.2,2.6125,0.5930682820335481,-0.015463003958834922,0.7928147297747528,0.0035987903749442112,-0.086476,-35.985033
11.185,2.0,1.0,1.0,33.7,33.3,33.3,4.2,2.2,2.615,0.5861982021216998,-0.01573437202002682,0.7977535834227683,0.0035098098486059767,-0.087566,-35.852117
11.185,2.0,1.0,1.0,33.7,33.3,33.3,4.2,2.2,2.6175,0.5792429225705498,-0.016010474564822078,0.8026615157270581,0.0034164575184294876,-0.088679,-35.718531
11.185,2.0,1.0,1.0,33.7,33.3,33.3,4.2,2.2,2.62,0.5722015630033984,-0.01629140705045637,0.80753742180764,0.00331857320486417,-0.089817,-35.58426
11.185,2.0,1.0,1.0,33.7,33.3,33.3,4.2,2.2,2.6225,0.5650732353760647,-0.01657726722671945,0.8123801639086421,0.0032159902380247754,-0.090979,-35.449291
11.185,2.0,1.0,1.0,33.7,33.3,33.3,4.2,2.2,2.625,0.557857044144592,-0.0168681551981513,0.817188570381088,0.00310853515065298,-0.092166,-35.313608
11.185,2.0,1.0,1.0,33.7,33.3,33.3,4.2,2.2,2.6275,0.5505520864491509,-0.017164173488053974,0.8219614346318601,0.0029960273539530163,-0.093379,-35.177196
11.185,2.0,1.0,1.0,33.7,33.3,33.3,4.2,2.2,2.63,0.543157452315024,-0.017465427104363645,0.8266975140374774,0.0028782787951735526,-0.094619,-35.040041
11.185,2.0,1.0,1.0,33.7,33.3,33.3,4.2,2.2,2.6325,0.535672224871563,-0.017772023607426555,0.8313955288212754,0.002755093595718777,-0.095887,-34.902125
11.185,2.0,1.0,1.0,33.7,33.3,33.3,4.2,2.2,2.635,0.5280954805900673,-0.018084073179720786,0.8360541608924728,0.002626267668479632,-0.097183,-34.763433
11.185,2.0,1.0,1.0,33.7,33.3,33.3,4.2,2.2,2.6375,0.5204262895415768,-0.01840168869756256,0.8406720526455264,0.0024915883129707174,-0.098508,-34.623948
11.185,2.0,1.0,1.0,33.7,33.3,33.3,4.2,2.2,2.64,0.5126637156755977,-0.018724985804833692,0.8452478057180967,0.002350833786747481,-0.099863,-34.483652
11.185,2.0,1.0,1.0,33.7,33.3,33.3,4.2,2.2,2.6425,0.5048068171208603,-0.01905408298876107,0.8497799797058012,0.0022037728514553963,-0.10125,-34.342529
11.185,2.0,1.0,1.0,33.7,33.3,33.3,4.2,2.2,2.645,0.49685464650922906,-0.019389101657774934,0.8542670908318664,0.002050164291728431,-0.102669,-34.200559
11.185,2.0,1.0,1.0,33.7,33.3,33.3,4.2,2.2,2.6475,0.4888062513239581,-0.019730166221465527,0.8587076105696151,0.0018897564050087306,-0.104121,-34.057725
11.185,2.0,1.0,1.0,33.7,33.3,33.3,4.2,2.2,2.65,0.48066067427351644,-0.020077404172650165,0.8630999642156412,0.0017222864601983243,-0.105608,-33.914008
11.185,2.0,1.0,1.0,33.7,33.3,33.3,4.2,2.2,2.6525,0.4724169536923123,-0.020430946171551813,0.8674425294113142,0.0015474801228796795,-0.107129,-33.769387
11.185,2.0,1.0,1.0,33.7,33.3,33.3,4.2,2.2,2.655,0.46407412396964237,-0.02079092613208038,0.8717336346101477,0.0013650508446484215,-0.108688,-33.623842
11.185,2.0,1.0,1.0,33.7,33.3,33.3,4.2,2.2,2.6575,0.4556312160083205,-0.02115748131019161,0.8759715574883487,0.0011746992138924944,-0.110284,-33.477353
11.185,2.0,1.0,1.0,33.7,33.3,33.3,4.2,2.2,2.66,0.4470872577144644,-0.02153075239428306,0.880154523295676,0.0009761122651194953,-0.111919,-33.329899
11.185,2.0,1.0,1.0,33.7,33.3,33.3,4.2,2.2,2.6625,0.43844127452003046,-0.02191088359756504,0.8842807031435238,0.0007689627436806395,-0.113594,-33.181456
11.185,2.0,1.0,1.0,33.7,33.3,33.3,4.2,2.2,2.665,0.42969228993972136,-0.0222980227523216,0.8883482122268974,0.0005529083224594724,-0.115311,-33.032003
11.185,2.0,1.0,1.0,33.7,33.3,33.3,4.2,2.2,2.6675,0.42083932616403197,-0.022692321405946417,0.8923551079766777,0.0003275907667870054,-0.117072,-32.881516
11.185,2.0,1.0,1.0,33.7,33.3,33.3,4.2,2.2,2.67,0.41188140469023843,-0.023093934918606066,0.8962993881382899,9.263504350393545e-05,-0.118877,-32.729971
11.185,2.0,1.0,1.0,33.7,33.3,33.3,4.2,2.2,2.6725,0.40281754699325784,-0.023503022562342372,0.9001789887725525,-0.00015235163028215107,-0.120728,-32.577343
11.185,2.0,1.0,1.0,33.7,33.3,33.3,4.2,2.2,2.675,0.3936467752384237,-0.02391974762137769,0.9039917821741261,-0.0004077808036110155,-0.122627,-32.423606
11.185,2.0,1.0,1.0,33.7,33.3,33.3,4.2,2.2,2.6775,0.3843681130383103,-0.024344277493332726,0.9077355747025735,-0.0006740838785781733,-0.124576,-32.268734
11.185,2.0,1.0,1.0,33.7,33.3,33.3,4.2,2.2,2.68,0.37498058625588115,-0.024776783790999842,0.9114081045206104,-0.0009517132735666973,-0.126577,-32.112698
11.185,2.0,1.0,1.0,33.7,33.3,33.3,4.2,2.2,2.6825,0.3654832238563859,-0.025217442444237986,0.9150070392336055,-0.0012411436691914803,-0.128631,-31.955472
11.185,2.0,1.0,1.0,33.7,33.3,33.3,4.2,2.2,2.685,0.3558750588105481,-0.025666433801464876,0.9185299734238573,-0.0015428733439669304,-0.130741,-31.797024
11.185,2.0,1.0,1.0,33.7,33.3,33.3,4.2,2.2,2.6875,0.34615512905179247,-0.026123942730115965,0.9219744260725401,-0.0018574256073993392,-0.132909,-31.637326
11.185,2.0,1.0,1.0,33.7,33.3,33.3,4.2,2.2,2.69,0.33632247849042635,-0.026590158715313183,0.9253378378615228,-0.0021853503389718323,-0.135136,-31.476345
11.185,2.0,1.0,1.0,33.7,33.3,33.3,4.2,2.2,2.6925,0.3263761580878893,-0.027065275955841853,0.9286175683465038,-0.002527225642345302,-0.137426,-31.314049
11.185,2.0,1.0,1.0,33.7,33.3,33.3,4.2,2.2,2.695,0.31631522699445946,-0.027549493456358435,0.931810892992014,-0.0028836596250481736,-0.13978,-31.150404
11.185,2.0,1.0,1.0,33.7,33.3,33.3,4.2,2.2,2.6975,0.306138753754001,-0.028043015114552476,0.9349150000578984,-0.003255292314991744,-0.142202,-30.985375
11.185,2.0,1.0,1.0,33.7,33.3,33.3,4.2,2.2,2.7,0.2958458175797123,-0.02854604980174395,0.9379269873257668,-0.003642797726331858,-0.144694,-30.818926
11.185,2.0,1.0,1.0,33.7,33.3,33.3,4.2,2.2,2.7025,0.2854355097050987,-0.02905881143512061,0.9408438586527038,-0.004046886088525101,-0.14726,-30.651019
11.185,2.0,1.0,1.0,33.7,33.3,33.3,4.2,2.2,2.705,0.274906934814842,-0.02958151903948695,0.9436625203381308,-0.004468306253911991,-0.149902,-30.481614
11.185,2.0,1.0,1.0,33.7,33.3,33.3,4.2,2.2,2.7075,0.26425921256063006,-0.0301143967960111,0.9463797772881678,-0.004907848300825241,-0.152623,-30.310672
11.185,2.0,1.0,1.0,33.7,33.3,33.3,4.2,2.2,2.71,0.25349147916755516,-0.0306576740749976,0.948992328960083,-0.005366346351090297,-0.155427,-30.138149
11.185,2.0,1.0,1.0,33.7,33.3,33.3,4.2,2.2,2.7125,0.2426028891372464,-0.03121158544917618,0.9514967650674466,-0.005844681622887543,-0.158319,-29.964002
11.185,2.0,1.0,1.0,33.7,33.3,33.3,4.2,2.2,2.715,0.23159261705460732,-0.03177637068336203,0.9538895610243533,-0.0063437857423109985,-0.161301,-29.788184
11.185,2.0,1.0,1.0,33.7,33.3,33.3,4.2,2.2,2.7175,0.22045985950578867,-0.03235227469559341,0.9561670731045511,-0.0068646443396258635,-0.164377,-29.610649
11.185,2.0,1.0,1.0,33.7,33.3,33.3,4.2,2.2,2.72,0.2092038371159882,-0.03293954748396621,0.958325533288428,-0.007408300959238029,-0.167554,-29.431345
11.185,2.0,1.0,1.0,33.7,33.3,33.3,4.2,2.2,2.7225,0.1978237967166882,-0.03353844401233967,0.9603610437675599,-0.007975861315793848,-0.170834,-29.250222
11.185,2.0,1.0,1.0,33.7,33.3,33.3,4.2,2.2,2.725,0.1863190136532798,-0.03414922404684398,0.9622695710727828,-0.008568497932680615,-0.174224,-29.067224
11.185,2.0,1.0,1.0,33.7,33.3,33.3,4.2,2.2,2.7275,0.1746887942454221,-0.03477215193365342,0.9640469397875563,-0.009187455203571082,-0.177728,-28.882296
11.185,2.0,1.0,1.0,33.7,33.3,33.3,4.2,2.2,2.73,0.16293247841432934,-0.03540749630673951,0.9656888258035515,-0.0098340549226159,-0.181352,-28.695378
11.185,2.0,1.0,1.0,33.7,33.3,33.3,4.2,2.2,2.7325,0.1510494424931691,-0.036055529712244974,0.967190749069897,-0.010509702334534778,-0.185103,-28.506407
11.185,2.0,1.0,1.0,33.7,33.3,33.3,4.2,2.2,2.735,0.1390391022392897,-0.03671652813364737,0.9685480657812439,-0.011215892762285896,-0.188988,-28.315321
11.185,2.0,1.0,1.0,33.7,33.3,33.3,4.2,2.2,2.7375,0.1269009160698587,-0.03739077039893485,0.969755959942605,-0.011954218877332301,-0.193012,-28.12205
11.185,2.0,1.0,1.0,33.7,33.3,33.3,4.2,2.2,2.74,0.11463438854603404,-0.03807853744749556,0.9708094342406777,-0.012726378685907438,-0.197184,-27.926523
11.185,2.0,1.0,1.0,33.7,33.3,33.3,4.2,2.2,2.7425,0.10223907413490588,-0.038780111430214384,0.9717033001419029,-0.013534184314284556,-0.201512,-27.728666
11.185,2.0,1.0,1.0,33.7,33.3,33.3,4.2,2.2,2.745,0.08971458128347458,-0.039495774611220974,0.9724321671265994,-0.014379571687058973,-0.206005,-27.528401
11.185,2.0,1.0,1.0,33.7,33.3,33.3,4.2,2.2,2.7475,0.07706057684489764,-0.040225808033673933,0.9729904309560085,-0.015264611205100132,-0.210672,-27.325645
11.185,2.0,1.0,1.0,33.7,33.3,33.3,4.2,2.2,2.75,0.0642767909044344,-0.0409704899046755,0.973372260854587,-0.0161915195443753,-0.215524,-27.120312
11.185,2.0,1.0,1.0,33.7,33.3,33.3,4.2,2.2,2.7525,0.05136302206121998,-0.04173009364561831,0.9735715854732038,-0.017162672713619664,-0.220571,-26.912312
11.185,2.0,1.0,1.0,33.7,33.3,33.3,4.2,2.2,2.755,0.038319143232493136,-0.042504885543644996,0.9735820774795545,-0.018180620528186843,-0.225826,-26.701548
11.185,2.0,1.0,1.0,33.7,33.3,33.3,4.2,2.2,2.7575,0.025145108059596487,-0.043295121927040464,0.9733971365996952,-0.019248102679816335,-0.231302,-26.48792
11.185,2.0,1.0,1.0,33.7,33.3,33.3,4.2,2.2,2.76,0.011840958010574729,-0.044101045771761056,0.9730098709085977,-0.02036806660800188,-0.237012,-26.271321
11.185,2.0,1.0,1.0,33.7,33.3,33.3,4.2,2.2,2.7625,-0.001593169707044766,-0.04492288262731263,0.9724130761373657,-0.021543687408778895,-0.242973,-26.05164
11.185,2.0,1.0,1.0,33.7,33.3,33.3,4.2,2.2,2.765,-0.015157033286674323,-0.04576083572701485,0.9715992127295283,-0.022778390051779306,-0.2492,-25.828757
11.185,2.0,1.0,1.0,33.7,33.3,33.3,4.2,2.2,2.7675,-0.028850276351569056,-0.04661508011934754,0.9705603803377248,-0.02407587421721976,-0.255713,-25.602548
11.185,2.0,1.0,1.0,33.7,33.3,33.3,4.2,2.2,2.77,-0.04267241667294832,-0.04748575562231905,0.9692882894040449,-0.025440142112117592,-0.262532,-25.37288
11.185,2.0,1.0,1.0,33.7,33.3,33.3,4.2,2.2,2.7725,-0.056622833335534105,-0.04837295836004224,0.9677742294110846,-0.026875529680701286,-0.269677,-25.139612
11.185,2.0,1.0,1.0,33.7,33.3,33.3,4.2,2.2,2.775,-0.07070075205618517,-0.04927673058796894,0.966009033324859,-0.02838674168916989,-0.277175,-24.902595
11.185,2.0,1.0,1.0,33.7,33.3,33.3,4.2,2.2,2.7775,-0.08490522829626881,-0.05019704844797471,0.9639830376733413,-0.02997889124139367,-0.285051,-24.661673
11.185,2.0,1.0,1.0,33.7,33.3,33.3,4.2,2.2,2.78,-0.09923512772756937,-0.051133807213478856,0.9616860376134281,-0.0316575443719145,-0.293335,-24.416675
11.185,2.0,1.0,1.0,33.7,33.3,33.3,4.2,2.2,2.7825,-0.11368910351073394,-0.052086803483886064,0.9591072362320774,-0.03342877046815046,-0.302059,-24.167425
11.185,2.0,1.0,1.0,33.7,33.3,33.3,4.2,2.2,2.785,-0.128265569719252,-0.05305571366154081,0.9562351872011735,-0.035299199397962513,-0.31126,-23.913732
11.185,2.0,1.0,1.0,33.7,33.3,33.3,4.2,2.2,2.7875,-0.14296267008361907,-0.05404006788622075,0.9530577297569165,-0.037276086365109644,-0.320977,-23.655393
11.185,2.0,1.0,1.0,33.7,33.3,33.3,4.2,2.2,2.79,-0.15777824103102928,-0.055039218403089694,0.9495619147989486,-0.03936738568767441,-0.331256,-23.392192
11.185,2.0,1.0,1.0,33.7,33.3,33.3,4.2,2.2,2.7925,-0.17270976774366348,-0.05605230108840865,0.9457339206972958,-0.04158183489793489,-0.342146,-23.123899
11.185,2.0,1.0,1.0,33.7,33.3,33.3,4.2,2.2,2.795,-0.18775433163852737,-0.057078188538074295,0.9415589571508077,-0.043929050801851985,-0.353704,-22.850267
11.185,2.0,1.0,1.0,33.7,33.3,33.3,4.2,2.2,2.7975,-0.2029085472634952,-0.058115432717371476,0.9370211551528908,-0.0464196394184028,-0.365992,-22.571032
11.185,2.0,1.0,1.0,33.7,33.3,33.3,4.2,2.2,2.8,-0.21816848608174896,-0.05916219465008686,0.9321034407817997,-0.04906532205026454,-0.379081,-22.28591
11.185,2.0,1.0,1.0,33.7,33.3,33.3,4.2,2.2,2.8025,-0.2335295839448957,-0.06021615795670246,0.9267873901360687,-0.05187908012497705,-0.393053,-21.994599
11.185,2.0,1.0,1.0,33.7,33.3,33.3,4.2,2.2,2.805,-0.24898652818746808,-0.06127442218876971,0.9210530622732439,-0.05487532189687676,-0.407997,-21.696773
11.185,2.0,1.0,1.0,33.7,33.3,33.3,4.2,2.2,2.8075,-0.264533119150097,-0.062333370788259984,0.9148788064751298,-0.0580700746209975,-0.424018,-21.39208
11.185,2.0,1.0,1.0,33.7,33.3,33.3,4.2,2.2,2.81,-0.2801620994719601,-0.0633885070441812,0.908241039551003,-0.06148120640439305,-0.441235,-21.080145
11.185,2.0,1.0,1.0,33.7,33.3,33.3,4.2,2.2,2.8125,-0.2958649425727183,-0.06443424951281768,0.9011139882025505,-0.0651286826061905,-0.459783,-20.76056
11.185,2.0,1.0,1.0,33.7,33.3,33.3,4.2,2.2,2.815,-0.31163158921787243,-0.06546367586207798,0.8934693907215252,-0.06903486238325754,-0.47982,-20.432888
11.185,2.0,1.0,1.0,33.7,33.3,33.3,4.2,2.2,2.8175,-0.3274501177221441,-0.06646820079010449,0.8852761515020284,-0.07322484173357648,-0.501528,-20.096656
11.185,2.0,1.0,1.0,33.7,33.3,33.3,4.2,2.2,2.82,-0.34330632891089247,-0.06743716927472848,0.8764999410837788,-0.0777268501129219,-0.525117,-19.751354
11.185,2.0,1.0,1.0,33.7,33.3,33.3,4.2,2.2,2.8225,-0.3591832210433961,-0.06835734055245533,0.8671027338136055,-0.0825727082776192,-0.550834,-19.39643
11.185,2.0,1.0,1.0,33.7,33.3,33.3,4.2,2.2,2.825,-0.37506032197479433,-0.06921223038158879,0.8570422749215767,-0.08779835523325956,-0.578968,-19.031288
11.185,2.0,1.0,1.0,33.7,33.3,33.3,4.2,2.2,2.8275,-0.3909128351698904,-0.06998126859898154,0.8462714692062341,-0.09344445169402472,-0.609861,-18.655282
