1,w,sub_t,h,l1,l2,l3,g1,g2,Freq,S11_re,S21_re,S11_img,S21_img,S11_dB,S21_dB
11.185,2.0,1.0,1.0,33.4,33.9,33.9,3.1,3.2,2.5,0.858665305945176,-0.00665753634441665,0.500061619723719,0.0053696999503675,-0.055211,-41.357473
11.185,2.0,1.0,1.0,33.4,33.9,33.9,3.1,3.2,2.5025,0.85532471707664,-0.0067916464303143485,0.5056384509234454,0.005393668014160699,-0.055726,-41.236775
11.185,2.0,1.0,1.0,33.4,33.9,33.9,3.1,3.2,2.505,0.8519333915266946,-0.006928167919995953,0.5112151931368906,0.00541702249951334,-0.05625,-41.115754
11.185,2.0,1.0,1.0,33.4,33.9,33.9,3.1,3.2,2.5075,0.848490830677237,-0.0070671505498302485,0.5167916238852596,0.005439735831403923,-0.056783,-40.994398
11.185,2.0,1.0,1.0,33.4,33.9,33.9,3.1,3.2,2.51,0.8449965277726604,-0.007208645370497578,0.5223675139175902,0.005461779382803416,-0.057326,-40.8727
11.185,2.0,1.0,1.0,33.4,33.9,33.9,3.1,3.2,2.5125,0.841449967777188,-0.007352704789464574,0.5279426269869039,0.005483123430357251,-0.057878,-40.750651
11.185,2.0,1.0,1.0,33.4,33.9,33.9,3.1,3.2,2.515,0.837850627229593,-0.0074993826150964935,0.533516719618786,0.005503737107964767,-0.05844,-40.62824
11.185,2.0,1.0,1.0,33.4,33.9,33.9,3.1,3.2,2.5175,0.8341979740952686,-0.007648734102481027,0.5390895408720839,0.005523588358142525,-0.059012,-40.505458
11.185,2.0,1.0,1.0,33.4,33.9,33.9,3.1,3.2,2.52,0.8304914676155795,-0.007800816001041928,0.5446608320914511,0.005542643881051427,-0.059595,-40.382296
11.185,2.0,1.0,1.0,33.4,33.9,33.9,3.1,3.2,2.5225,0.8267305581544574,-0.007955686604023912,0.5502303266513966,0.005560869081060225,-0.060188,-40.258744
11.185,2.0,1.0,1.0,33.4,33.9,33.9,3.1,3.2,2.525,0.8229146870421697,-0.008113405799935816,0.5557977496915343,0.005578228010709884,-0.060792,-40.134791
11.185,2.0,1.0,1.0,33.4,33.9,33.9,3.1,3.2,2.5275,0.81904328641621,-0.008274035126042582,0.5613628178426866,0.005594683311934928,-0.061407,-40.01043
11.185,2.0,1.0,1.0,33.4,33.9,33.9,3.1,3.2,2.53,0.8151157790592535,-0.008437637824002047,0.566925238943478,0.005610196154389207,-0.062033,-39.885648
11.185,2.0,1.0,1.0,33.4,33.9,33.9,3.1,3.2,2.5325,0.8111315782341081,-0.00860427889774722,0.5724847117470512,0.005624726170713067,-0.062671,-39.760435
11.185,2.0,1.0,1.0,33.4,33.9,33.9,3.1,3.2,2.535,0.8070900875156051,-0.008774025173720888,0.5780409256175222,0.005638231388569565,-0.06332,-39.634782
11.185,2.0,1.0,1.0,33.4,33.9,33.9,3.1,3.2,2.5375,0.8029907006193617,-0.008946945363574092,0.5835935602157499,0.005650668159265326,-0.063982,-39.508678
11.185,2.0,1.0,1.0,33.4,33.9,33.9,3.1,3.2,2.54,0.7988328012273442,-0.009123110129447332,0.5891422851740068,0.005661991082760613,-0.064657,-39.382111
11.185,2.0,1.0,1.0,33.4,33.9,33.9,3.1,3.2,2.5425,0.7946157628101652,-0.009302592151958965,0.5946867597590986,0.005672152928859588,-0.065344,-39.255071
11.185,2.0,1.0,1.0,33.4,33.9,33.9,3.1,3.2,2.545,0.7903389484460361,-0.009485466201032668,0.600226632523461,0.005681104554358976,-0.066045,-39.127546
11.185,2.0,1.0,1.0,33.4,33.9,33.9,3.1,3.2,2.5475,0.7860017106363112,-0.009671809209702701,0.6057615409437399,0.005688794815917575,-0.066759,-38.999526
11.185,2.0,1.0,1.0,33.4,33.9,33.9,3.1,3.2,2.55,0.781603391117525,-0.009861700351044283,0.61129111104635,0.005695170478394495,-0.067487,-38.870999
11.185,2.0,1.0,1.0,33.4,33.9,33.9,3.1,3.2,2.5525,0.7771433206698607,-0.010055221118383634,0.6168149570194466,0.005700176118385915,-0.068229,-38.741952
11.185,2.0,1.0,1.0,33.4,33.9,33.9,3.1,3.2,2.555,0.7726208189219493,-0.010252455408951762,0.6223326808107652,0.005703754022672521,-0.068986,-38.612375
11.185,2.0,1.0,1.0,33.4,33.9,33.9,3.1,3.2,2.5575,0.7680351941519142,-0.010453489611155586,0.6278438717107196,0.005705844081270226,-0.069758,-38.482255
11.185,2.0,1.0,1.0,33.4,33.9,33.9,3.1,3.2,2.56,0.7633857430845705,-0.010658412695648755,0.6333481059201234,0.005706383674755035,-0.070545,-38.351579
11.185,2.0,1.0,1.0,33.4,33.9,33.9,3.1,3.2,2.5625,0.7586717506846764,-0.010867316310396703,0.6388449461018831,0.005705307555510803,-0.071348,-38.220335
11.185,2.0,1.0,1.0,33.4,33.9,33.9,3.1,3.2,2.565,0.7538924899461309,-0.011080294879940509,0.6443339409159634,0.005702547722523764,-0.072168,-38.08851
11.185,2.0,1.0,1.0,33.4,33.9,33.9,3.1,3.2,2.5675,0.7490472216770214,-0.011297445709076334,0.6498146245368828,0.005698033289320822,-0.073004,-37.95609
11.185,2.0,1.0,1.0,33.4,33.9,33.9,3.1,3.2,2.57,0.7441351942803933,-0.011518869091180635,0.6552865161529745,0.005691690344621349,-0.073857,-37.823064
11.185,2.0,1.0,1.0,33.4,33.9,33.9,3.1,3.2,2.5725,0.7391556435306277,-0.01174466842142404,0.6607491194465961,0.0056834418052390916,-0.074728,-37.689416
11.185,2.0,1.0,1.0,33.4,33.9,33.9,3.1,3.2,2.575,0.7341077923453,-0.011974950315131792,0.6662019220544197,0.005673207260740119,-0.075617,-37.555133
11.185,2.0,1.0,1.0,33.4,33.9,33.9,3.1,3.2,2.5775,0.7289908505523874,-0.012209824731563753,0.6716443950069023,0.0056609028093243035,-0.076525,-37.420201
11.185,2.0,1.0,1.0,33.4,33.9,33.9,3.1,3.2,2.58,0.7238040146526803,-0.012449405103403578,0.6770759921459637,0.005646440884360362,-0.077452,-37.284605
11.185,2.0,1.0,1.0,33.4,33.9,33.9,3.1,3.2,2.5825,0.7185464675772494,-0.012693808472264064,0.6824961495198688,0.005629730070961208,-0.078399,-37.14833
11.185,2.0,1.0,1.0,33.4,33.9,33.9,3.1,3.2,2.585,0.7132173784398106,-0.012943155630534551,0.6879042847542253,0.0056106749119415825,-0.079366,-37.011361
11.185,2.0,1.0,1.0,33.4,33.9,33.9,3.1,3.2,2.5875,0.7078159022838141,-0.013197571269915635,0.6932997963979675,0.005589175702449053,-0.080354,-36.873683
11.185,2.0,1.0,1.0,33.4,33.9,33.9,3.1,3.2,2.59,0.7023411798240865,-0.01345718413700832,0.6986820632431103,0.005565128272507198,-0.081364,-36.73528
11.185,2.0,1.0,1.0,33.4,33.9,33.9,3.1,3.2,2.5925,0.696792337182823,-0.01372212719634696,0.7040504436169993,0.005538423756649215,-0.082395,-36.596136
11.185,2.0,1.0,1.0,33.4,33.9,33.9,3.1,3.2,2.595,0.6911684856197434,-0.013992537801289276,0.7094042746456837,0.005508948349759239,-0.08345,-36.456233
11.185,2.0,1.0,1.0,33.4,33.9,33.9,3.1,3.2,2.5975,0.6854687212561752,-0.01426855787320352,0.7147428714869811,0.005476583048167276,-0.084529,-36.315556
11.185,2.0,1.0,1.0,33.4,33.9,33.9,3.1,3.2,2.6,0.6796921247928424,-0.01455033408941917,0.7200655265316882,0.0054412033749702115,-0.085631,-36.174086
11.185,2.0,1.0,1.0,33.4,33.9,33.9,3.1,3.2,2.6025,0.6738377612211167,-0.014838018080437386,0.7253715085712944,0.0054026790884683104,-0.086759,-36.031807
11.185,2.0,1.0,1.0,33.4,33.9,33.9,3.1,3.2,2.605,0.6679046795274525,-0.015131766636929372,0.7306600619304686,0.005360873872519255,-0.087913,-35.888699
11.185,2.0,1.0,1.0,33.4,33.9,33.9,3.1,3.2,2.6075,0.6618919123907311,-0.015431741927083234,0.7359304055624438,0.005315645007511977,-0.089093,-35.744744
11.185,2.0,1.0,1.0,33.4,33.9,33.9,3.1,3.2,2.61,0.6557984758722101,-0.015738111724896246,0.7411817321053213,0.005266843020559508,-0.090301,-35.599922
11.185,2.0,1.0,1.0,33.4,33.9,33.9,3.1,3.2,2.6125,0.6496233690977474,-0.01605104965004794,0.7464132068971696,0.005214311313392608,-0.091538,-35.454215
11.185,2.0,1.0,1.0,33.4,33.9,33.9,3.1,3.2,2.615,0.6433655739319455,-0.016370735420029255,0.7516239669476521,0.005157885766308962,-0.092804,-35.307602
11.185,2.0,1.0,1.0,33.4,33.9,33.9,3.1,3.2,2.6175,0.6370240546438526,-0.016697355115246962,0.7568131198637473,0.005097394316396055,-0.0941,-35.160063
11.185,2.0,1.0,1.0,33.4,33.9,33.9,3.1,3.2,2.62,0.6305977575638028,-0.017031101457869346,0.7619797427269599,0.005032656508093634,-0.095427,-35.011575
11.185,2.0,1.0,1.0,33.4,33.9,33.9,3.1,3.2,2.6225,0.6240856107309655,-0.01737217410522787,0.7671228809192309,0.004963483013994395,-0.096787,-34.862118
11.185,2.0,1.0,1.0,33.4,33.9,33.9,3.1,3.2,2.625,0.617486523531144,-0.0177207799586424,0.772241546894538,0.00488967512360213,-0.098181,-34.711669
11.185,2.0,1.0,1.0,33.4,33.9,33.9,3.1,3.2,2.6275,0.610799386324304,-0.01807713348859497,0.7773347188929669,0.0048110241975645425,-0.099609,-34.560204
11.185,2.0,1.0,1.0,33.4,33.9,33.9,3.1,3.2,2.63,0.6040230700613071,-0.01844145707723542,0.7824013395937772,0.004727311084680165,-0.101073,-34.407701
11.185,2.0,1.0,1.0,33.4,33.9,33.9,3.1,3.2,2.6325,0.5971564258892543,-0.018813981379267528,0.787440314703717,0.004638305498736418,-0.102575,-34.254135
11.185,2.0,1.0,1.0,33.4,33.9,33.9,3.1,3.2,2.635,0.5901982847448237,-0.019194945702331344,0.7924505114765521,0.004543765351971715,-0.104114,-34.09948
11.185,2.0,1.0,1.0,33.4,33.9,33.9,3.1,3.2,2.6375,0.5831474569349239,-0.019584598408070236,0.7974307571594422,0.004443436041660898,-0.105694,-33.943711
11.185,2.0,1.0,1.0,33.4,33.9,33.9,3.1,3.2,2.64,0.5760027317039298,-0.019983197335148598,0.8023798373614572,0.004337049686002539,-0.107315,-33.786802
11.185,2.0,1.0,1.0,33.4,33.9,33.9,3.1,3.2,2.6425,0.568762876786735,-0.02039101024556633,0.8072964943391153,0.00422432430512899,-0.108979,-33.628725
11.185,2.0,1.0,1.0,33.4,33.9,33.9,3.1,3.2,2.645,0.5614266379467704,-0.020808315295704354,0.8121794251934175,0.004104962942669655,-0.110688,-33.469451
11.185,2.0,1.0,1.0,33.4,33.9,33.9,3.1,3.2,2.6475,0.5539927384980968,-0.021235401533625877,0.81702727997236,0.003978652722861398,-0.112442,-33.308952
11.185,2.0,1.0,1.0,33.4,33.9,33.9,3.1,3.2,2.65,0.5464598788105859,-0.02167256942425612,0.8218386596724153,0.003845063837720457,-0.114245,-33.147199
11.185,2.0,1.0,1.0,33.4,33.9,33.9,3.1,3.2,2.6525,0.5388267357971794,-0.022120131404163326,0.8266121141318469,0.003703848458257615,-0.116097,-32.984159
11.185,2.0,1.0,1.0,33.4,33.9,33.9,3.1,3.2,2.655,0.5310919623820823,-0.022578412467773784,0.8313461398081534,0.0035546395631261564,-0.118001,-32.819801
11.185,2.0,1.0,1.0,33.4,33.9,33.9,3.1,3.2,2.6575,0.5232541869487186,-0.023047750786963885,0.8360391774311753,0.00339704967743844,-0.119959,-32.654092
11.185,2.0,1.0,1.0,33.4,33.9,33.9,3.1,3.2,2.66,0.5153120127661597,-0.023528498366091315,0.8406896095226549,0.003230669513755045,-0.121973,-32.486998
11.185,2.0,1.0,1.0,33.4,33.9,33.9,3.1,3.2,2.6625,0.5072640173926816,-0.02402102173464835,0.8452957577721569,0.0030550665064414755,-0.124045,-32.318483
11.185,2.0,1.0,1.0,33.4,33.9,33.9,3.1,3.2,2.665,0.4991087520549743,-0.02452570267984942,0.8498558802583093,0.0028697832296816386,-0.126177,-32.148512
11.185,2.0,1.0,1.0,33.4,33.9,33.9,3.1,3.2,2.6675,0.4908447410014933,-0.025042939021590757,0.8543681685032416,0.0026743356884293464,-0.128373,-31.977047
11.185,2.0,1.0,1.0,33.4,33.9,33.9,3.1,3.2,2.67,0.4824704808282921,-0.02557314543235815,0.8588307443469191,0.0024682114704552166,-0.130635,-31.804049
11.185,2.0,1.0,1.0,33.4,33.9,33.9,3.1,3.2,2.6725,0.47398443977562005,-0.02611675430478857,0.86324165662674,0.0022508677463844886,-0.132966,-31.629477
11.185,2.0,1.0,1.0,33.4,33.9,33.9,3.1,3.2,2.675,0.465385056993471,-0.02667421666972623,0.8675988776462774,0.002021729103214504,-0.135368,-31.453289
11.185,2.0,1.0,1.0,33.4,33.9,33.9,3.1,3.2,2.6775,0.4566707417741723,-0.027246003167745808,0.871900299415387,0.0017801851952223818,-0.137846,-31.275443
11.185,2.0,1.0,1.0,33.4,33.9,33.9,3.1,3.2,2.68,0.4478398727500318,-0.02783260507723912,0.8761437296420552,0.001525588194398814,-0.140401,-31.095894
11.185,2.0,1.0,1.0,33.4,33.9,33.9,3.1,3.2,2.6825,0.4388907970539946,-0.02843453540227733,0.880326887454262,0.0012572500205561988,-0.143039,-30.914595
11.185,2.0,1.0,1.0,33.4,33.9,33.9,3.1,3.2,2.685,0.42982182944119957,-0.029052330023564468,0.8844473988278084,0.0009744393290177236,-0.145762,-30.731498
11.185,2.0,1.0,1.0,33.4,33.9,33.9,3.1,3.2,2.6875,0.420631251369296,-0.0296865489158764,0.888502791693417,0.000676378231270921,-0.148575,-30.546552
11.185,2.0,1.0,1.0,33.4,33.9,33.9,3.1,3.2,2.69,0.4113173100353964,-0.030337777435435285,0.8924904906934452,0.00036223872112337913,-0.151482,-30.359706
11.185,2.0,1.0,1.0,33.4,33.9,33.9,3.1,3.2,2.6925,0.4018782173675374,-0.031006627680685055,0.8964078115552251,3.1138775681439096e-05,-0.154488,-30.170905
11.185,2.0,1.0,1.0,33.4,33.9,33.9,3.1,3.2,2.695,0.3923121489686699,-0.03169373992989805,0.9002519550442308,-0.000317861903164367,-0.157597,-29.980093
11.185,2.0,1.0,1.0,33.4,33.9,33.9,3.1,3.2,2.6975,0.38261724301128097,-0.032399784158949736,0.9040200004560397,-0.0006857665451865248,-0.160815,-29.787212
11.185,2.0,1.0,1.0,33.4,33.9,33.9,3.1,3.2,2.7,0.3727915990810627,-0.033125461642410474,0.9077088986011665,-0.0010736464093150037,-0.164147,-29.592201
11.185,2.0,1.0,1.0,33.4,33.9,33.9,3.1,3.2,2.7025,0.3628332769683291,-0.03387150664082255,0.9113154642313811,-0.0014826463706091447,-0.1676,-29.394996
11.185,2.0,1.0,1.0,33.4,33.9,33.9,3.1,3.2,2.705,0.35274029540641333,-0.03463868817660006,0.9148363678498412,-0.0019139910511843572,-0.171179,-29.195532
11.185,2.0,1.0,1.0,33.4,33.9,33.9,3.1,3.2,2.7075,0.3425106307569103,-0.0354278119003983,0.9182681268402725,-0.002368991556465272,-0.174891,-28.993738
11.185,2.0,1.0,1.0,33.4,33.9,33.9,3.1,3.2,2.71,0.33214221564253077,-0.03623972204898056,0.9216070958422822,-0.002849052886007165,-0.178744,-28.789543
11.185,2.0,1.0,1.0,33.4,33.9,33.9,3.1,3.2,2.7125,0.32163293752947286,-0.03707530349452531,0.9248494562906338,-0.0033556820971269584,-0.182746,-28.582873
11.185,2.0,1.0,1.0,33.4,33.9,33.9,3.1,3.2,2.715,0.3109806372627433,-0.03793548388387912,0.9279912050256751,-0.0038904973098942163,-0.186904,-28.373648
11.185,2.0,1.0,1.0,33.4,33.9,33.9,3.1,3.2,2.7175,0.30018310755978933,-0.03882123586439644,0.9310281418699443,-0.00445523765385739,-0.191229,-28.161787
11.185,2.0,1.0,1.0,33.4,33.9,33.9,3.1,3.2,2.72,0.28923809147032215,-0.039733579390593105,0.9339558560519904,-0.005051774270471908,-0.195729,-27.947204
11.185,2.0,1.0,1.0,33.4,33.9,33.9,3.1,3.2,2.7225,0.2781432808133489,-0.04067358410275051,0.9367697113423751,-0.005682122500845124,-0.200416,-27.72981
11.185,2.0,1.0,1.0,33.4,33.9,33.9,3.1,3.2,2.725,0.266896314606545,-0.041642371764656606,0.939464829748265,-0.0063484554064522115,-0.2053,-27.509509
11.185,2.0,1.0,1.0,33.4,33.9,33.9,3.1,3.2,2.7275,0.25549477750813976,-0.04264111874265583,0.9420360735916501,-0.007053118791324641,-0.210395,-27.286205
11.185,2.0,1.0,1.0,33.4,33.9,33.9,3.1,3.2,2.73,0.2439361982980535,-0.04367105850181282,0.9444780257714562,-0.007798647918334837,-0.215713,-27.059793
11.185,2.0,1.0,1.0,33.4,33.9,33.9,3.1,3.2,2.7325,0.23221804843313817,-0.04473348408695078,0.9467849679811542,-0.008587786140167978,-0.221269,-26.830165
11.185,2.0,1.0,1.0,33.4,33.9,33.9,3.1,3.2,2.735,0.22033774072174958,-0.04582975054615658,0.9489508566201732,-0.00942350569805411,-0.22708,-26.597208
11.185,2.0,1.0,1.0,33.4,33.9,33.9,3.1,3.2,2.7375,0.20829262817584382,-0.046961277241514776,0.950969296098724,-0.010309030979133467,-0.233161,-26.360802
11.185,2.0,1.0,1.0,33.4,33.9,33.9,3.1,3.2,2.74,0.19608000311523452,-0.04812954997564486,0.9528335091905228,-0.011247864567383734,-0.239532,-26.120822
11.185,2.0,1.0,1.0,33.4,33.9,33.9,3.1,3.2,2.7425,0.1836970966192799,-0.04933612284219779,0.9545363040352821,-0.012243816474493763,-0.246214,-25.877135
11.185,2.0,1.0,1.0,33.4,33.9,33.9,3.1,3.2,2.745,0.17114107844737042,-0.05058261968269825,0.9560700373312525,-0.013301036997257501,-0.253229,-25.629603
11.185,2.0,1.0,1.0,33.4,33.9,33.9,3.1,3.2,2.7475,0.158409057582501,-0.05187073499957366,0.957426573186015,-0.01442405371860881,-0.260602,-25.378077
11.185,2.0,1.0,1.0,33.4,33.9,33.9,3.1,3.2,2.75,0.145498083593798,-0.0532022341340777,0.958597237009089,-0.0156178132522304,-0.268359,-25.122405
11.185,2.0,1.0,1.0,33.4,33.9,33.9,3.1,3.2,2.7525,0.13240514906653034,-0.0545789524657418,0.9595727637304634,-0.01688772842805614,-0.276532,-24.862422
11.185,2.0,1.0,1.0,33.4,33.9,33.9,3.1,3.2,2.755,0.11912719341485756,-0.05600279332398946,0.960343239512057,-0.01823973173067909,-0.285152,-24.597956
11.185,2.0,1.0,1.0,33.4,33.9,33.9,3.1,3.2,2.7575,0.10566110847725235,-0.05747572421873218,0.9608980359810485,-0.019680335937971437,-0.294257,-24.328825
11.185,2.0,1.0,1.0,33.4,33.9,33.9,3.1,3.2,2.76,0.09200374640239609,-0.058999770890120685,0.9612257358509869,-0.021216703066996474,-0.303886,-24.054835
11.185,2.0,1.0,1.0,33.4,33.9,33.9,3.1,3.2,2.7625,0.07815193047071722,-0.06057700854164794,0.9613140486038968,-0.022856722923241347,-0.314085,-23.775783
11.185,2.0,1.0,1.0,33.4,33.9,33.9,3.1,3.2,2.765,0.0641024696724939,-0.062209549446986694,0.961149714678603,-0.024609102772796397,-0.324904,-23.491452
11.185,2.0,1.0,1.0,33.4,33.9,33.9,3.1,3.2,2.7675,0.04985217808855023,-0.06389952589822318,0.9607183963405526,-0.026483469921915945,-0.3364,-23.201613
11.185,2.0,1.0,1.0,33.4,33.9,33.9,3.1,3.2,2.77,0.035397900408870135,-0.06564906717696532,0.9600045530887789,-0.028490489302036483,-0.348634,-22.906021
11.185,2.0,1.0,1.0,33.4,33.9,33.9,3.1,3.2,2.7725,0.02073654529732284,-0.06746026886100337,0.9589912990772441,-0.030641998529695742,-0.361677,-22.604419
11.185,2.0,1.0,1.0,33.4,33.9,33.9,3.1,3.2,2.775,0.005865128792620786,-0.06933515230251161,0.9576602395802736,-0.03295116335006739,-0.375608,-22.296531
11.185,2.0,1.0,1.0,33.4,33.9,33.9,3.1,3.2,2.7775,-0.009219169439366659,-0.07127561149564464,0.9559912830035363,-0.03543265689140187,-0.390517,-21.982064
11.185,2.0,1.0,1.0,33.4,33.9,33.9,3.1,3.2,2.78,-0.02451893337367287,-0.07328334374721979,0.9539624243204036,-0.03810286676792362,-0.406507,-21.660707
11.185,2.0,1.0,1.0,33.4,33.9,33.9,3.1,3.2,2.7825,-0.0400364167247842,-0.07535975951441075,0.9515494950855361,-0.040980134783391055,-0.423691,-21.332128
11.185,2.0,1.0,1.0,33.4,33.9,33.9,3.1,3.2,2.785,-0.05577342179516263,-0.07750586539825931,0.9487258743311042,-0.04408503481842504,-0.442202,-20.995974
11.185,2.0,1.0,1.0,33.4,33.9,33.9,3.1,3.2,2.7875,-0.07173114316481245,-0.07972211247412402,0.9454621536771841,-0.04744069544042583,-0.46219,-20.651868
11.185,2.0,1.0,1.0,33.4,33.9,33.9,3.1,3.2,2.79,-0.08790996590094616,-0.08200819975549356,0.9417257488849363,-0.05107317485693731,-0.48383,-20.299409
11.185,2.0,1.0,1.0,33.4,33.9,33.9,3.1,3.2,2.7925,-0.1043092047733187,-0.08436281943071412,0.9374804488615558,-0.05501189702896423,-0.50732,-19.938167
11.185,2.0,1.0,1.0,33.4,33.9,33.9,3.1,3.2,2.795,-0.12092676671882098,-0.08678332631900999,0.9326858918278896,-0.059290159031970636,-0.532893,-19.567687
11.185,2.0,1.0,1.0,33.4,33.9,33.9,3.1,3.2,2.7975,-0.13775871314581944,-0.08926530840476705,0.9272969570660875,-0.06394572101636634,-0.560817,-19.187481
11.185,2.0,1.0,1.0,33.4,33.9,33.9,3.1,3.2,2.8,-0.15479869111408462,-0.09180202784262279,0.921263059535089,-0.06902149121804045,-0.591409,-18.797032
11.185,2.0,1.0,1.0,33.4,33.9,33.9,3.1,3.2,2.8025,-0.17203719230568468,-0.09438369182471137,0.9145273339635089,-0.0745663191179718,-0.625037,-18.39579
11.185,2.0,1.0,1.0,33.4,33.9,33.9,3.1,3.2,2.805,-0.18946058512203892,-0.09699649928249719,0.9070256953014906,-0.08063590955387855,-0.662137,-17.98317
11.185,2.0,1.0,1.0,33.4,33.9,33.9,3.1,3.2,2.8075,-0.20704984700728332,-0.09962139137895629,0.8986857644817692,-0.08729386850810453,-0.703227,-17.558555
11.185,2.0,1.0,1.0,33.4,33.9,33.9,3.1,3.2,2.81,-0.22477889963148318,-0.10223240957610838,0.8894256537195802,-0.09461288603502853,-0.748924,-17.121297
11.185,2.0,1.0,1.0,33.4,33.9,33.9,3.1,3.2,2.8125,-0.242612416834136,-0.104794532729829,0.879152616406821,-0.102676051037286,-0.799967,-16.670717
11.185,2.0,1.0,1.0,33.4,33.9,33.9,3.1,3.2,2.815,-0.26050293169791694,-0.10726082167190229,0.8677615868535228,-0.1115782725691881,-0.857246,-16.206112
11.185,2.0,1.0,1.0,33.4,33.9,33.9,3.1,3.2,2.8175,-0.27838701185133774,-0.10956864318711175,0.8551336709173518,-0.12142774688908005,-0.921841,-15.726765
11.185,2.0,1.0,1.0,33.4,33.9,33.9,3.1,3.2,2.82,-0.29618019811308594,-0.1116346722537853,0.8411347099655297,-0.13234734868788728,-0.995071,-15.231956
11.185,2.0,1.0,1.0,33.4,33.9,33.9,3.1,3.2,2.8225,-0.313770308929583,-0.11334827997092595,0.8256141436386064,-0.14447572296880562,-1.07855,-14.720987
11.185,2.0,1.0,1.0,33.4,33.9,33.9,3.1,3.2,2.825,-0.3310086032048574,-0.11456280624014983,0.8084045667251469,-0.15796768604711273,-1.174273,-14.19321
11.185,2.0,1.0,1.0,33.4,33.9,33.9,3.1,3.2,2.8275,-0.34769817722349283,-0.11508410107783242,0.7893226509269822,-0.17299327173058088,-1.284713,-13.648077
