1,w,sub_t,h,l1,l2,l3,g1,g2,Freq,S11_re,S21_re,S11_img,S21_img,S11_dB,S21_dB
11.185,2.0,1.0,1.0,34.7,33.2,33.2,4.1,3.1,2.5,0.669632547959322,-0.00981912038919217,0.732574304594507,0.00301911800777478,-0.065316,-39.766232
11.185,2.0,1.0,1.0,34.7,33.2,33.2,4.1,3.1,2.5025,0.663528698001934,-0.009970488542670691,0.7380071273273974,0.002967087507373135,-0.065969,-39.657155
11.185,2.0,1.0,1.0,34.7,33.2,33.2,4.1,3.1,2.505,0.6573479477108232,-0.010123649739940297,0.7434165481624654,0.00291272034898016,-0.066632,-39.547857
11.185,2.0,1.0,1.0,34.7,33.2,33.2,4.1,3.1,2.5075,0.6510896233274788,-0.010278615362141735,0.7488017249940736,0.002855952235666409,-0.067306,-39.438333
11.185,2.0,1.0,1.0,34.7,33.2,33.2,4.1,3.1,2.51,0.6447530473445847,-0.010435396372261308,0.7541617938712427,0.0027967171639907825,-0.067991,-39.32858
11.185,2.0,1.0,1.0,34.7,33.2,33.2,4.1,3.1,2.5125,0.6383375387122591,-0.010594003282621589,0.7594958684524512,0.00273494737932424,-0.068686,-39.218593
11.185,2.0,1.0,1.0,34.7,33.2,33.2,4.1,3.1,2.515,0.6318424130584245,-0.010754446120727726,0.7648030394489711,0.0026705733301223716,-0.069394,-39.108367
11.185,2.0,1.0,1.0,34.7,33.2,33.2,4.1,3.1,2.5175,0.6252669829239772,-0.010916734393395546,0.7700823740566216,0.002603523621131008,-0.070112,-38.9979
11.185,2.0,1.0,1.0,34.7,33.2,33.2,4.1,3.1,2.52,0.6186105580134097,-0.011080877049085102,0.7753329153758635,0.0025337249655097522,-0.070843,-38.887187
11.185,2.0,1.0,1.0,34.7,33.2,33.2,4.1,3.1,2.5225,0.6118724454616136,-0.011246882438360008,0.7805536818201239,0.0024611021358591353,-0.071585,-38.776223
11.185,2.0,1.0,1.0,34.7,33.2,33.2,4.1,3.1,2.525,0.6050519501175678,-0.011414758272389788,0.7857436665123042,0.0023855779141369444,-0.07234,-38.665004
11.185,2.0,1.0,1.0,34.7,33.2,33.2,4.1,3.1,2.5275,0.598148374845678,-0.011584511579409304,0.7909018366693991,0.0023070730404502744,-0.073108,-38.553527
11.185,2.0,1.0,1.0,34.7,33.2,33.2,4.1,3.1,2.53,0.5911610208455522,-0.011756148659045298,0.7960271329751784,0.002225506160710822,-0.073888,-38.441786
11.185,2.0,1.0,1.0,34.7,33.2,33.2,4.1,3.1,2.5325,0.584089187991024,-0.011929675034416885,0.8011184689409039,0.0021407937731409156,-0.074681,-38.329778
11.185,2.0,1.0,1.0,34.7,33.2,33.2,4.1,3.1,2.535,0.5769321751892599,-0.012105095401913436,0.8061747302540715,0.002052850173619328,-0.075488,-38.217498
11.185,2.0,1.0,1.0,34.7,33.2,33.2,4.1,3.1,2.5375,0.5696892807608367,-0.012282413578548673,0.8111947741151654,0.001961587399856589,-0.076308,-38.104942
11.185,2.0,1.0,1.0,34.7,33.2,33.2,4.1,3.1,2.54,0.5623598028416837,-0.012461632446786233,0.8161774285624664,0.0018669151743901068,-0.077142,-37.992106
11.185,2.0,1.0,1.0,34.7,33.2,33.2,4.1,3.1,2.5425,0.5549430398078274,-0.012642753896728422,0.8211214917849408,0.0017687408463912023,-0.077991,-37.878985
11.185,2.0,1.0,1.0,34.7,33.2,33.2,4.1,3.1,2.545,0.54743829072391,-0.012825778765554288,0.8260257314232853,0.0016669693322766545,-0.078853,-37.765576
11.185,2.0,1.0,1.0,34.7,33.2,33.2,4.1,3.1,2.5475,0.5398448558164904,-0.013010706774090091,0.8308888838592057,0.0015615030551189798,-0.079731,-37.651873
11.185,2.0,1.0,1.0,34.7,33.2,33.2,4.1,3.1,2.55,0.532162036973151,-0.013197536460389882,0.8357096534930597,0.0014522418828507586,-0.080623,-37.537872
11.185,2.0,1.0,1.0,34.7,33.2,33.2,4.1,3.1,2.5525,0.5243891382685035,-0.013386265110199752,0.8404867120099867,0.0013390830652603163,-0.081531,-37.423568
11.185,2.0,1.0,1.0,34.7,33.2,33.2,4.1,3.1,2.555,0.5165254665181851,-0.013576888684173786,0.8452186976347128,0.0012219211697765534,-0.082455,-37.308959
11.185,2.0,1.0,1.0,34.7,33.2,33.2,4.1,3.1,2.5575,0.5085703318619917,-0.01376940174170586,0.8499042143752266,0.0011006480160435457,-0.083394,-37.194038
11.185,2.0,1.0,1.0,34.7,33.2,33.2,4.1,3.1,2.56,0.5005230483773425,-0.013963797361235026,0.8545418312555668,0.0009751526092865243,-0.08435,-37.078801
11.185,2.0,1.0,1.0,34.7,33.2,33.2,4.1,3.1,2.5625,0.492382934724283,-0.014160067056877716,0.8591300815379931,0.000845321072472985,-0.085323,-36.963244
11.185,2.0,1.0,1.0,34.7,33.2,33.2,4.1,3.1,2.565,0.48414931482328377,-0.01435820069123473,0.8636674619348547,0.0007110365772745236,-0.086312,-36.847362
11.185,2.0,1.0,1.0,34.7,33.2,33.2,4.1,3.1,2.5675,0.4758215185671453,-0.014558186384214087,0.8681524318105089,0.0005721792738373866,-0.087319,-36.731151
11.185,2.0,1.0,1.0,34.7,33.2,33.2,4.1,3.1,2.57,0.4673988825683252,-0.014760010417706741,0.8725834123736955,0.0004286262193714112,-0.088344,-36.614606
11.185,2.0,1.0,1.0,34.7,33.2,33.2,4.1,3.1,2.5725,0.45888075094307446,-0.0149636571359445,0.8769587858607972,0.00028025130556983823,-0.089387,-36.497722
11.185,2.0,1.0,1.0,34.7,33.2,33.2,4.1,3.1,2.575,0.4502664761337895,-0.015169108841364746,0.8812768947105007,0.0001269251848746739,-0.090448,-36.380495
11.185,2.0,1.0,1.0,34.7,33.2,33.2,4.1,3.1,2.5775,0.4415554197710397,-0.015376345685798928,0.8855360407303873,-3.148480439526017e-05,-0.091529,-36.262919
11.185,2.0,1.0,1.0,34.7,33.2,33.2,4.1,3.1,2.58,0.4327469535767611,-0.015585345556796054,0.8897344842560692,-0.0001951147140334601,-0.092628,-36.144991
11.185,2.0,1.0,1.0,34.7,33.2,33.2,4.1,3.1,2.5825,0.42384046031014433,-0.01579608395888551,0.8938704433035294,-0.00036410406302965113,-0.093748,-36.026704
11.185,2.0,1.0,1.0,34.7,33.2,33.2,4.1,3.1,2.585,0.41483533475780165,-0.01600853388957616,0.8979420927153953,-0.0005385959157228322,-0.094887,-35.908056
11.185,2.0,1.0,1.0,34.7,33.2,33.2,4.1,3.1,2.5875,0.4057309847698074,-0.01622266570988211,0.9019475633019328,-0.0007187369609950488,-0.096047,-35.789039
11.185,2.0,1.0,1.0,34.7,33.2,33.2,4.1,3.1,2.59,0.3965268323432806,-0.016438447009157375,0.9058849409776335,-0.0009046775924743109,-0.097229,-35.66965
11.185,2.0,1.0,1.0,34.7,33.2,33.2,4.1,3.1,2.5925,0.38722231475518454,-0.016655842464015018,0.9097522658943168,-0.0010965719897122865,-0.098431,-35.549884
11.185,2.0,1.0,1.0,34.7,33.2,33.2,4.1,3.1,2.595,0.3778168857460869,-0.016874813691097133,0.9135475315717825,-0.0012945782002985323,-0.099656,-35.429735
11.185,2.0,1.0,1.0,34.7,33.2,33.2,4.1,3.1,2.5975,0.36831001675662267,-0.017095319093455345,0.917268684027091,-0.0014988582228708434,-0.100903,-35.309198
11.185,2.0,1.0,1.0,34.7,33.2,33.2,4.1,3.1,2.6,0.3587011982184737,-0.017317313700292245,0.9209136209036776,-0.0017095780909770395,-0.102173,-35.188269
11.185,2.0,1.0,1.0,34.7,33.2,33.2,4.1,3.1,2.6025,0.3489899409017047,-0.017540748999805088,0.9244801906015473,-0.00192690795774069,-0.103466,-35.066942
11.185,2.0,1.0,1.0,34.7,33.2,33.2,4.1,3.1,2.605,0.3391757773202988,-0.017765572764865716,0.9279661914099592,-0.0021510221812801496,-0.104783,-34.945211
11.185,2.0,1.0,1.0,34.7,33.2,33.2,4.1,3.1,2.6075,0.32925826319781304,-0.01799172887125947,0.9313693706440391,-0.002382099410826757,-0.106125,-34.823071
11.185,2.0,1.0,1.0,34.7,33.2,33.2,4.1,3.1,2.61,0.3192369789950777,-0.018219157108197378,0.9346874237869117,-0.0026203226734849033,-0.107492,-34.700518
11.185,2.0,1.0,1.0,34.7,33.2,33.2,4.1,3.1,2.6125,0.3091115315018798,-0.018447792980805712,0.937917993639044,-0.0028658794615738174,-0.108884,-34.577544
11.185,2.0,1.0,1.0,34.7,33.2,33.2,4.1,3.1,2.615,0.2988815554946188,-0.018677567504286494,0.9410586694765928,-0.003118961820487996,-0.110303,-34.454146
11.185,2.0,1.0,1.0,34.7,33.2,33.2,4.1,3.1,2.6175,0.2885467154619377,-0.018908406989431508,0.9441069862206891,-0.0033797664370100256,-0.111748,-34.330317
11.185,2.0,1.0,1.0,34.7,33.2,33.2,4.1,3.1,2.62,0.2781067074003417,-0.019140232819161506,0.9470604236196934,-0.0036484947280075787,-0.113221,-34.206051
11.185,2.0,1.0,1.0,34.7,33.2,33.2,4.1,3.1,2.6225,0.2675612606818296,-0.01937296121575047,0.9499164054466236,-0.003925352929444179,-0.114722,-34.081343
11.185,2.0,1.0,1.0,34.7,33.2,33.2,4.1,3.1,2.625,0.256910139995607,-0.0196065029983815,0.952672298714042,-0.00421055218563041,-0.116251,-33.956187
11.185,2.0,1.0,1.0,34.7,33.2,33.2,4.1,3.1,2.6275,0.24615314736589594,-0.019840763330669517,0.9553254129088893,-0.004504308638642794,-0.117809,-33.830577
11.185,2.0,1.0,1.0,34.7,33.2,33.2,4.1,3.1,2.63,0.23529012424792478,-0.020075641457771007,0.9578729992498397,-0.0048068435178345225,-0.119398,-33.704506
11.185,2.0,1.0,1.0,34.7,33.2,33.2,4.1,3.1,2.6325,0.22432095370411984,-0.020311030432686828,0.9603122499699586,-0.005118383229363452,-0.121017,-33.577969
11.185,2.0,1.0,1.0,34.7,33.2,33.2,4.1,3.1,2.635,0.21324556266256275,-0.020546816831349367,0.9626402976275485,-0.005439159445662404,-0.122667,-33.450959
11.185,2.0,1.0,1.0,34.7,33.2,33.2,4.1,3.1,2.6375,0.20206392425972614,-0.02078288045606789,0.964854214448283,-0.005769409194777874,-0.12435,-33.32347
11.185,2.0,1.0,1.0,34.7,33.2,33.2,4.1,3.1,2.64,0.19077606026947883,-0.021019094026890388,0.9669510117018573,-0.006109374949506421,-0.126065,-33.195496
11.185,2.0,1.0,1.0,34.7,33.2,33.2,4.1,3.1,2.6425,0.17938204362036478,-0.021255322860419576,0.9689276391165633,-0.0064593047162595455,-0.127814,-33.067028
11.185,2.0,1.0,1.0,34.7,33.2,33.2,4.1,3.1,2.645,0.16788200100307096,-0.021491424535602304,0.9707809843353944,-0.006819452123593916,-0.129597,-32.938062
11.185,2.0,1.0,1.0,34.7,33.2,33.2,4.1,3.1,2.6475,0.15627611556998797,-0.021727248545989616,0.9725078724174463,-0.007190076510347976,-0.131415,-32.808589
11.185,2.0,1.0,1.0,34.7,33.2,33.2,4.1,3.1,2.65,0.14456462972870357,-0.021962635937941316,0.9741050653885553,-0.007571443013335373,-0.13327,-32.678604
11.185,2.0,1.0,1.0,34.7,33.2,33.2,4.1,3.1,2.6525,0.13274784803122494,-0.02219741893422392,0.9755692618453444,-0.00796382265455175,-0.135161,-32.548097
11.185,2.0,1.0,1.0,34.7,33.2,33.2,4.1,3.1,2.655,0.1208261401606196,-0.022431420542423874,0.976897096616989,-0.008367492427865929,-0.13709,-32.417063
11.185,2.0,1.0,1.0,34.7,33.2,33.2,4.1,3.1,2.6575,0.10879994401672398,-0.022664454147566952,0.9780851404892467,-0.00878273538517693,-0.139058,-32.285493
11.185,2.0,1.0,1.0,34.7,33.2,33.2,4.1,3.1,2.66,0.09666976890243793,-0.02289632308830331,0.979129899995482,-0.009209840722035898,-0.141065,-32.153379
11.185,2.0,1.0,1.0,34.7,33.2,33.2,4.1,3.1,2.6625,0.0844361988120756,-0.02312682021598034,0.9800278172795843,-0.009649103862749017,-0.143113,-32.020715
11.185,2.0,1.0,1.0,34.7,33.2,33.2,4.1,3.1,2.665,0.07209989582305483,-0.023355727435887045,0.9807752700359389,-0.0101008265450009,-0.145203,-31.88749
11.185,2.0,1.0,1.0,34.7,33.2,33.2,4.1,3.1,2.6675,0.059661603592157074,-0.023582815229908943,0.9813685715317334,-0.010565316904060613,-0.147335,-31.753698
11.185,2.0,1.0,1.0,34.7,33.2,33.2,4.1,3.1,2.67,0.047122150957395297,-0.0238078421597842,0.981803970717149,-0.011042889556663358,-0.149512,-31.619329
11.185,2.0,1.0,1.0,34.7,33.2,33.2,4.1,3.1,2.6725,0.0344824556463976,-0.02403055435009852,0.9820776524291254,-0.01153386568469283,-0.151733,-31.484374
11.185,2.0,1.0,1.0,34.7,33.2,33.2,4.1,3.1,2.675,0.02174352809207746,-0.024250684950095146,0.9821857376945982,-0.012038573118826211,-0.154,-31.348824
11.185,2.0,1.0,1.0,34.7,33.2,33.2,4.1,3.1,2.6775,0.008906475356113358,-0.02446795357331085,0.9821242841393218,-0.012557346422347597,-0.156314,-31.21267
11.185,2.0,1.0,1.0,34.7,33.2,33.2,4.1,3.1,2.68,-0.004027494839337559,-0.024682065713973658,0.9818892865085038,-0.013090526975383165,-0.158677,-31.075902
11.185,2.0,1.0,1.0,34.7,33.2,33.2,4.1,3.1,2.6825,-0.017057069971558952,-0.024892712139014655,0.9814766773057197,-0.013638463059865205,-0.161089,-30.93851
11.185,2.0,1.0,1.0,34.7,33.2,33.2,4.1,3.1,2.685,-0.030180828468826783,-0.025099568254453322,0.9808823275566816,-0.014201509945594586,-0.163552,-30.800483
11.185,2.0,1.0,1.0,34.7,33.2,33.2,4.1,3.1,2.6875,-0.043397235353912454,-0.02530229344481136,0.9801020477046141,-0.014780029977838267,-0.166068,-30.661811
11.185,2.0,1.0,1.0,34.7,33.2,33.2,4.1,3.1,2.69,-0.0567046377799945,-0.025500530384091828,0.9791315886441126,-0.015374392666975115,-0.168637,-30.522483
11.185,2.0,1.0,1.0,34.7,33.2,33.2,4.1,3.1,2.6925,-0.07010126045979183,-0.025693904316730177,0.9779666429004872,-0.015984974780790095,-0.171262,-30.382486
11.185,2.0,1.0,1.0,34.7,33.2,33.2,4.1,3.1,2.695,-0.08358520098889607,-0.025882022306773722,0.9766028459616678,-0.01661216044010834,-0.173943,-30.24181
11.185,2.0,1.0,1.0,34.7,33.2,33.2,4.1,3.1,2.6975,-0.0971544250646394,-0.026064472453381293,0.9750357777698626,-0.017256341218570424,-0.176683,-30.100441
11.185,2.0,1.0,1.0,34.7,33.2,33.2,4.1,3.1,2.7,-0.11080676160203003,-0.026240823070545368,0.9732609643801778,-0.01791791624746204,-0.179482,-29.958367
11.185,2.0,1.0,1.0,34.7,33.2,33.2,4.1,3.1,2.7025,-0.12453989774865938,-0.026410621828729303,0.9712738797934557,-0.018597292326643936,-0.182343,-29.815574
11.185,2.0,1.0,1.0,34.7,33.2,33.2,4.1,3.1,2.705,-0.13835137380065604,-0.026573394855872477,0.9690699479705531,-0.019294884042767704,-0.185268,-29.672049
11.185,2.0,1.0,1.0,34.7,33.2,33.2,4.1,3.1,2.7075,-0.15223857802219104,-0.026728645794948692,0.9666445450352804,-0.020011113896121115,-0.188257,-29.527776
11.185,2.0,1.0,1.0,34.7,33.2,33.2,4.1,3.1,2.71,-0.16619874137115725,-0.026875854814959178,0.9639930016730871,-0.02074641243761768,-0.191314,-29.382742
11.185,2.0,1.0,1.0,34.7,33.2,33.2,4.1,3.1,2.7125,-0.1802289321340656,-0.02701447757190065,0.9611106057325057,-0.021501218417635998,-0.19444,-29.23693
11.185,2.0,1.0,1.0,34.7,33.2,33.2,4.1,3.1,2.715,-0.19432605047335602,-0.027143944115860977,0.9579926050361565,-0.022275978948619532,-0.197637,-29.090324
11.185,2.0,1.0,1.0,34.7,33.2,33.2,4.1,3.1,2.7175,-0.20848682289061457,-0.027263657739961908,0.9546342104079079,-0.023071149683576285,-0.200907,-28.942906
11.185,2.0,1.0,1.0,34.7,33.2,33.2,4.1,3.1,2.72,-0.22270779660934964,-0.027372993766372027,0.9510305989225023,-0.023887195012863346,-0.204252,-28.794659
11.185,2.0,1.0,1.0,34.7,33.2,33.2,4.1,3.1,2.7225,-0.23698533388123022,-0.027471298264060414,0.9471769173836059,-0.024724588281914636,-0.207676,-28.645565
11.185,2.0,1.0,1.0,34.7,33.2,33.2,4.1,3.1,2.725,-0.251315606219732,-0.027557886692329225,0.9430682860358521,-0.02558381203285985,-0.21118,-28.495602
11.185,2.0,1.0,1.0,34.7,33.2,33.2,4.1,3.1,2.7275,-0.2656945885652868,-0.027632042463454527,0.93869980251592,-0.02646535827330832,-0.214767,-28.344753
11.185,2.0,1.0,1.0,34.7,33.2,33.2,4.1,3.1,2.73,-0.28011805338597606,-0.027693015416957536,0.9340665460471759,-0.027369728775912504,-0.218439,-28.192993
11.185,2.0,1.0,1.0,34.7,33.2,33.2,4.1,3.1,2.7325,-0.2945815647178115,-0.02774002019712051,0.9291635818817258,-0.028297435412707846,-0.2222,-28.040302
11.185,2.0,1.0,1.0,34.7,33.2,33.2,4.1,3.1,2.735,-0.30908047214835754,-0.027772234524327623,0.9239859659929853,-0.02924900052862805,-0.226053,-27.886656
11.185,2.0,1.0,1.0,34.7,33.2,33.2,4.1,3.1,2.7375,-0.32360990474729523,-0.027788797349646007,0.9185287500210665,-0.030224957359037758,-0.23,-27.732029
11.185,2.0,1.0,1.0,34.7,33.2,33.2,4.1,3.1,2.74,-0.33816476494695813,-0.027788806880736264,0.9127869864723058,-0.031225850496595202,-0.234045,-27.576396
11.185,2.0,1.0,1.0,34.7,33.2,33.2,4.1,3.1,2.7425,-0.35273972237536383,-0.027771318465683568,0.9067557341732374,-0.032252236413269304,-0.238192,-27.41973
11.185,2.0,1.0,1.0,34.7,33.2,33.2,4.1,3.1,2.745,-0.3673292076434536,-0.02773534231963564,0.9004300639781369,-0.033304684043879124,-0.242443,-27.262001
11.185,2.0,1.0,1.0,34.7,33.2,33.2,4.1,3.1,2.7475,-0.3819274060871664,-0.027679841077202373,0.893805064727979,-0.034383775438109644,-0.246803,-27.10318
11.185,2.0,1.0,1.0,34.7,33.2,33.2,4.1,3.1,2.75,-0.396528251463773,-0.0276037271513748,0.886875849457247,-0.0354901064885804,-0.251277,-26.943234
11.185,2.0,1.0,1.0,34.7,33.2,33.2,4.1,3.1,2.7525,-0.4111254196002623,-0.02750585987722395,0.8796375618434882,-0.0366242877432059,-0.255867,-26.78213
11.185,2.0,1.0,1.0,34.7,33.2,33.2,4.1,3.1,2.755,-0.42571232198954734,-0.027385042415799116,0.8720853828928352,-0.03778694531078834,-0.26058,-26.619832
11.185,2.0,1.0,1.0,34.7,33.2,33.2,4.1,3.1,2.7575,-0.44028209932801826,-0.027240018390404807,0.8642145378528784,-0.038978721869525536,-0.265419,-26.456304
11.185,2.0,1.0,1.0,34.7,33.2,33.2,4.1,3.1,2.76,-0.45482761498496477,-0.027069468223748068,0.8560203033423605,-0.040200277788888336,-0.27039,-26.291506
11.185,2.0,1.0,1.0,34.7,33.2,33.2,4.1,3.1,2.7625,-0.4693414483910735,-0.02687200514023068,0.8474980146850203,-0.04145229237613579,-0.275499,-26.125395
11.185,2.0,1.0,1.0,34.7,33.2,33.2,4.1,3.1,2.765,-0.4838158883290421,-0.026646170792846605,0.8386430734327156,-0.04273546525956757,-0.28075,-25.957928
11.185,2.0,1.0,1.0,34.7,33.2,33.2,4.1,3.1,2.7675,-0.49824292610461046,-0.02639043046863559,0.8294509550605756,-0.04405051792147024,-0.286152,-25.789059
11.185,2.0,1.0,1.0,34.7,33.2,33.2,4.1,3.1,2.77,-0.512614248570515,-0.026103167820329475,0.8199172168144342,-0.045398195394578206,-0.291709,-25.618737
11.185,2.0,1.0,1.0,34.7,33.2,33.2,4.1,3.1,2.7725,-0.5269212309692515,-0.02578267906458512,0.8100375056881977,-0.04677926813672513,-0.29743,-25.446912
11.185,2.0,1.0,1.0,34.7,33.2,33.2,4.1,3.1,2.775,-0.5411549295525229,-0.025427166578875796,0.7998075665061142,-0.048194534099192735,-0.303322,-25.273527
11.185,2.0,1.0,1.0,34.7,33.2,33.2,4.1,3.1,2.7775,-0.5553060739261167,-0.025034731819533657,0.7892232500821346,-0.04964482100503985,-0.309392,-25.098524
11.185,2.0,1.0,1.0,34.7,33.2,33.2,4.1,3.1,2.78,-0.569365059058032,-0.024603367472395853,0.7782805214257567,-0.05113098885438239,-0.315651,-24.921841
11.185,2.0,1.0,1.0,34.7,33.2,33.2,4.1,3.1,2.7825,-0.5833219368749384,-0.024130948734756567,0.7669754679610175,-0.05265393267413948,-0.322107,-24.743412
11.185,2.0,1.0,1.0,34.7,33.2,33.2,4.1,3.1,2.785,-0.5971664073573714,-0.023615223612578413,0.7553043077225188,-0.05421458553012139,-0.32877,-24.563168
11.185,2.0,1.0,1.0,34.7,33.2,33.2,4.1,3.1,2.7875,-0.610887809026466,-0.023053802099821386,0.7432633974899457,-0.055813921819394714,-0.335652,-24.381033
11.185,2.0,1.0,1.0,34.7,33.2,33.2,4.1,3.1,2.79,-0.6244751086948784,-0.022444144086894866,0.7308492408201939,-0.057452960860558684,-0.342764,-24.19693
11.185,2.0,1.0,1.0,34.7,33.2,33.2,4.1,3.1,2.7925,-0.637916890330669,-0.021783545822134456,0.7180584959344619,-0.0591327707987211,-0.35012,-24.010774
11.185,2.0,1.0,1.0,34.7,33.2,33.2,4.1,3.1,2.795,-0.65120134285509,-0.02106912472326148,0.7048879834163537,-0.06085447284043883,-0.357733,-23.822477
11.185,2.0,1.0,1.0,34.7,33.2,33.2,4.1,3.1,2.7975,-0.664316246662433,-0.020297802304293462,0.69133469367675,-0.06261924583140828,-0.365618,-23.631942
11.185,2.0,1.0,1.0,34.7,33.2,33.2,4.1,3.1,2.8,-0.6772489586119551,-0.01946628494648077,0.6773957941418319,-0.06442833118600333,-0.373792,-23.43907
11.185,2.0,1.0,1.0,34.7,33.2,33.2,4.1,3.1,2.8025,-0.6899863951964774,-0.018571042198529553,0.6630686361230778,-0.06628303817242373,-0.382272,-23.243752
11.185,2.0,1.0,1.0,34.7,33.2,33.2,4.1,3.1,2.805,-0.7025150135394387,-0.017608282240386484,0.6483507613323765,-0.06818474954975039,-0.39108,-23.045874
11.185,2.0,1.0,1.0,34.7,33.2,33.2,4.1,3.1,2.8075,-0.7148207898092765,-0.016573924084699217,0.6332399080125864,-0.07013492754293217,-0.400235,-22.845312
11.185,2.0,1.0,1.0,34.7,33.2,33.2,4.1,3.1,2.81,-0.7268891945660586,-0.015463566018905686,0.6177340166646546,-0.07213512012777,-0.409762,-22.641938
11.185,2.0,1.0,1.0,34.7,33.2,33.2,4.1,3.1,2.8125,-0.738705164467426,-0.0142724497065089,0.601831235368085,-0.0741869675791711,-0.419686,-22.43561
11.185,2.0,1.0,1.0,34.7,33.2,33.2,4.1,3.1,2.815,-0.7502530696567428,-0.012995419265743212,0.5855299247134395,-0.07629220921082816,-0.430037,-22.22618
11.185,2.0,1.0,1.0,34.7,33.2,33.2,4.1,3.1,2.8175,-0.7615166760321501,-0.01162687452420151,0.5688286623959278,-0.07845269020102975,-0.440845,-22.013487
11.185,2.0,1.0,1.0,34.7,33.2,33.2,4.1,3.1,2.82,-0.7724791014472461,-0.010160717504985832,0.551726247560406,-0.08067036835492648,-0.452146,-21.797362
11.185,2.0,1.0,1.0,34.7,33.2,33.2,4.1,3.1,2.8225,-0.7831227647168769,-0.008590291028540073,0.5342217050438949,-0.08294732059479173,-0.463978,-21.577621
11.185,2.0,1.0,1.0,34.7,33.2,33.2,4.1,3.1,2.825,-0.793429326088905,-0.006908308108339771,0.5163142897366502,-0.08528574889201396,-0.476384,-21.354068
