1,w,sub_t,h,l1,l2,l3,g1,g2,Freq,S11_re,S21_re,S11_img,S21_img,S11_dB,S21_dB
11.185,2.0,1.0,1.0,34.7,33.1,33.1,3.5,4.0,2.5,0.666307609122352,-0.00942923926215332,0.735382220333547,0.00266482631455499,-0.066728,-40.176752
11.185,2.0,1.0,1.0,34.7,33.1,33.1,3.5,4.0,2.5025,0.6601361438244628,-0.009572435203501706,0.7408247354110481,0.0026106446538998727,-0.067397,-40.067976
11.185,2.0,1.0,1.0,34.7,33.1,33.1,3.5,4.0,2.505,0.6538867082993373,-0.00971724491421732,0.7462432375686138,0.002554155077126221,-0.068077,-39.958999
11.185,2.0,1.0,1.0,34.7,33.1,33.1,3.5,4.0,2.5075,0.6475586178521854,-0.009863675287538084,0.7516368606794029,0.0024952956472135118,-0.068769,-39.849816
11.185,2.0,1.0,1.0,34.7,33.1,33.1,3.5,4.0,2.51,0.6411511841469045,-0.010011732671349836,0.7570047161013759,0.002434002843540719,-0.069471,-39.740425
11.185,2.0,1.0,1.0,34.7,33.1,33.1,3.5,4.0,2.5125,0.6346637154268605,-0.010161422831975457,0.7623458921164283,0.002370211523493814,-0.070185,-39.630821
11.185,2.0,1.0,1.0,34.7,33.1,33.1,3.5,4.0,2.515,0.6280955167506006,-0.01031275091622816,0.7676594533578857,0.002303854883351363,-0.07091,-39.521001
11.185,2.0,1.0,1.0,34.7,33.1,33.1,3.5,4.0,2.5175,0.6214458902431998,-0.010465721411654685,0.7729444402262435,0.0022348644184506956,-0.071647,-39.410961
11.185,2.0,1.0,1.0,34.7,33.1,33.1,3.5,4.0,2.52,0.6147141353639327,-0.010620338104892189,0.7781998682931007,0.0021631698826379137,-0.072395,-39.300698
11.185,2.0,1.0,1.0,34.7,33.1,33.1,3.5,4.0,2.5225,0.6078995491910355,-0.01077660403805923,0.783424727693188,0.002088699247007472,-0.073157,-39.190207
11.185,2.0,1.0,1.0,34.7,33.1,33.1,3.5,4.0,2.525,0.6010014267243041,-0.010934521463098505,0.7886179825044621,0.0020113786579376044,-0.07393,-39.079485
11.185,2.0,1.0,1.0,34.7,33.1,33.1,3.5,4.0,2.5275,0.5940190612063283,-0.011094091793986034,0.7937785701162154,0.0019311323944305478,-0.074716,-38.968529
11.185,2.0,1.0,1.0,34.7,33.1,33.1,3.5,4.0,2.53,0.5869517444631985,-0.011255315556718264,0.7989054005851778,0.0018478828247681144,-0.075516,-38.857334
11.185,2.0,1.0,1.0,34.7,33.1,33.1,3.5,4.0,2.5325,0.5797987672655313,-0.011418192336985128,0.8039973559796028,0.0017615503624948733,-0.076328,-38.745897
11.185,2.0,1.0,1.0,34.7,33.1,33.1,3.5,4.0,2.535,0.5725594197106966,-0.01158272072543454,0.8090532897113589,0.0016720534217439412,-0.077154,-38.634215
11.185,2.0,1.0,1.0,34.7,33.1,33.1,3.5,4.0,2.5375,0.5652329916271827,-0.011748898260429373,0.8140720258560464,0.0015793083719224865,-0.077994,-38.522284
11.185,2.0,1.0,1.0,34.7,33.1,33.1,3.5,4.0,2.54,0.557818773002033,-0.011916721368195722,0.8190523584612042,0.001483229491776512,-0.078847,-38.4101
11.185,2.0,1.0,1.0,34.7,33.1,33.1,3.5,4.0,2.5425,0.5503160544323473,-0.012086185300256585,0.8239930508426786,0.001383728922857072,-0.079715,-38.297659
11.185,2.0,1.0,1.0,34.7,33.1,33.1,3.5,4.0,2.545,0.5427241276018668,-0.012257284068042475,0.8288928348692678,0.0012807166224134525,-0.080598,-38.184958
11.185,2.0,1.0,1.0,34.7,33.1,33.1,3.5,4.0,2.5475,0.5350422857837012,-0.012430010374565918,0.8337504102357529,0.0011741003157412424,-0.081495,-38.071994
11.185,2.0,1.0,1.0,34.7,33.1,33.1,3.5,4.0,2.55,0.5272698243702704,-0.012604355543043903,0.8385644437245062,0.0010637854480168058,-0.082408,-37.958762
11.185,2.0,1.0,1.0,34.7,33.1,33.1,3.5,4.0,2.5525,0.5194060414316195,-0.01278030944234755,0.8433335684558328,0.0009496751356534882,-0.083336,-37.845258
11.185,2.0,1.0,1.0,34.7,33.1,33.1,3.5,4.0,2.555,0.5114502383032374,-0.012957860409155409,0.8480563831273056,0.0008316701172175843,-0.08428,-37.73148
11.185,2.0,1.0,1.0,34.7,33.1,33.1,3.5,4.0,2.5575,0.503401720204593,-0.013136995166682082,0.8527314512423337,0.000709668703947127,-0.08524,-37.617424
11.185,2.0,1.0,1.0,34.7,33.1,33.1,3.5,4.0,2.56,0.49525979688963384,-0.013317698739850049,0.857357300328274,0.0005835667299199696,-0.086216,-37.503085
11.185,2.0,1.0,1.0,34.7,33.1,33.1,3.5,4.0,2.5625,0.48702378333051943,-0.013499954366768527,0.8619324211444223,0.0004532575019222319,-0.087209,-37.388461
11.185,2.0,1.0,1.0,34.7,33.1,33.1,3.5,4.0,2.565,0.4786930004358946,-0.013683743406379253,0.8664552668802833,0.00031863174907286894,-0.088219,-37.273547
11.185,2.0,1.0,1.0,34.7,33.1,33.1,3.5,4.0,2.5675,0.470266775805083,-0.013869045242124487,0.8709242523445343,0.000179577572265171,-0.089247,-37.158341
11.185,2.0,1.0,1.0,34.7,33.1,33.1,3.5,4.0,2.57,0.4617444445195739,-0.014055837181488567,0.8753377531451773,3.5980393490722784e-05,-0.090292,-37.042837
11.185,2.0,1.0,1.0,34.7,33.1,33.1,3.5,4.0,2.5725,0.45312534997324583,-0.01424409435126033,0.8796941048614216,-0.00011227709488258815,-0.091356,-36.927033
11.185,2.0,1.0,1.0,34.7,33.1,33.1,3.5,4.0,2.575,0.4444088447428019,-0.014433789588358868,0.8839916022078753,-0.00026531498080167425,-0.092438,-36.810925
11.185,2.0,1.0,1.0,34.7,33.1,33.1,3.5,4.0,2.5775,0.4355942914999341,-0.01462489332606146,0.8882284981917103,-0.00042325618310502084,-0.093538,-36.69451
11.185,2.0,1.0,1.0,34.7,33.1,33.1,3.5,4.0,2.58,0.42668106396676736,-0.014817373475467339,0.8924030032635148,-0.0005862265018958306,-0.094659,-36.577783
11.185,2.0,1.0,1.0,34.7,33.1,33.1,3.5,4.0,2.5825,0.4176685479161809,-0.015011195302028187,0.8965132844626154,-0.0007543546686151318,-0.095799,-36.460741
11.185,2.0,1.0,1.0,34.7,33.1,33.1,3.5,4.0,2.585,0.40855614221863695,-0.015206321296969859,0.9005574645577307,-0.0009277723957115982,-0.096958,-36.34338
11.185,2.0,1.0,1.0,34.7,33.1,33.1,3.5,4.0,2.5875,0.39934325993719005,-0.015402711043427992,0.9045336211838849,-0.0011066144257975035,-0.098139,-36.225697
11.185,2.0,1.0,1.0,34.7,33.1,33.1,3.5,4.0,2.59,0.3900293294723915,-0.015600321077113458,0.9084397859765921,-0.0012910185801721593,-0.09934,-36.107688
11.185,2.0,1.0,1.0,34.7,33.1,33.1,3.5,4.0,2.5925,0.38061379575882404,-0.015799104741322175,0.9122739437044105,-0.0014811258065866983,-0.100563,-35.989349
11.185,2.0,1.0,1.0,34.7,33.1,33.1,3.5,4.0,2.595,0.37109612151506843,-0.015999012036096577,0.9160340314010527,-0.0016770802261148491,-0.101807,-35.870676
11.185,2.0,1.0,1.0,34.7,33.1,33.1,3.5,4.0,2.5975,0.36147578854890233,-0.016199989461345623,0.9197179374983219,-0.001879029178986515,-0.103074,-35.751667
11.185,2.0,1.0,1.0,34.7,33.1,33.1,3.5,4.0,2.6,0.3517522991195788,-0.016401979853722874,0.9233235009612774,-0.0020871232692310205,-0.104363,-35.632316
11.185,2.0,1.0,1.0,34.7,33.1,33.1,3.5,4.0,2.6025,0.34192517735909234,-0.016604922217060947,0.9268485104270751,-0.002301516407967617,-0.105675,-35.512621
11.185,2.0,1.0,1.0,34.7,33.1,33.1,3.5,4.0,2.605,0.33199397075430803,-0.016808751546155614,0.9302907033491088,-0.002522365855171362,-0.107011,-35.392578
11.185,2.0,1.0,1.0,34.7,33.1,33.1,3.5,4.0,2.6075,0.3219582516919142,-0.017013398643689774,0.9336477651481415,-0.002749832259731583,-0.108372,-35.272182
11.185,2.0,1.0,1.0,34.7,33.1,33.1,3.5,4.0,2.61,0.31181761906815364,-0.017218789930084313,0.936917328372252,-0.0029840796976100693,-0.109756,-35.151431
11.185,2.0,1.0,1.0,34.7,33.1,33.1,3.5,4.0,2.6125,0.3015716999653146,-0.01742484724605913,0.9400969718675631,-0.0032252757078950586,-0.111166,-35.03032
11.185,2.0,1.0,1.0,34.7,33.1,33.1,3.5,4.0,2.615,0.2912201513969705,-0.01763148764768576,0.9431842199618247,-0.003473591326535919,-0.112602,-34.908846
11.185,2.0,1.0,1.0,34.7,33.1,33.1,3.5,4.0,2.6175,0.2807626621239999,-0.01783862319370881,0.9461765416630836,-0.003729201117531489,-0.114064,-34.787005
11.185,2.0,1.0,1.0,34.7,33.1,33.1,3.5,4.0,2.62,0.2701989545433988,-0.018046160724912347,0.949071349875802,-0.003992283201333775,-0.115552,-34.664793
11.185,2.0,1.0,1.0,34.7,33.1,33.1,3.5,4.0,2.6225,0.2595287866519003,-0.018254001635304277,0.9518660006369453,-0.004263019280216188,-0.117068,-34.542206
11.185,2.0,1.0,1.0,34.7,33.1,33.1,3.5,4.0,2.625,0.24875195408646,-0.0184620416348899,0.954557792374719,-0.00454159466034271,-0.118612,-34.419241
11.185,2.0,1.0,1.0,34.7,33.1,33.1,3.5,4.0,2.6275,0.23786829224358752,-0.018670170503804706,0.9571439651927871,-0.004828198270262927,-0.120185,-34.295893
11.185,2.0,1.0,1.0,34.7,33.1,33.1,3.5,4.0,2.63,0.2268776784795639,-0.01887827183757418,0.9596217001829839,-0.005123022675543793,-0.121786,-34.172159
11.185,2.0,1.0,1.0,34.7,33.1,33.1,3.5,4.0,2.6325,0.21578003439351387,-0.01908622278326828,0.9619881187697032,-0.005426264089236744,-0.123417,-34.048034
11.185,2.0,1.0,1.0,34.7,33.1,33.1,3.5,4.0,2.635,0.20457532819530433,-0.019293893766316933,0.9642402820893351,-0.0057381223778656286,-0.125079,-33.923516
11.185,2.0,1.0,1.0,34.7,33.1,33.1,3.5,4.0,2.6375,0.1932635771602071,-0.019501148207751933,0.9663751904082993,-0.006058801062607452,-0.126771,-33.798599
11.185,2.0,1.0,1.0,34.7,33.1,33.1,3.5,4.0,2.64,0.18184485017218255,-0.01970784223164242,0.968389782583433,-0.0063885073153257385,-0.128495,-33.673281
11.185,2.0,1.0,1.0,34.7,33.1,33.1,3.5,4.0,2.6425,0.17031927035764632,-0.019913824362488907,0.9702809355686917,-0.006727451949102145,-0.130252,-33.547556
11.185,2.0,1.0,1.0,34.7,33.1,33.1,3.5,4.0,2.645,0.15868701781148004,-0.02011893521234297,0.9720454639723073,-0.007075849402900138,-0.132041,-33.421421
11.185,2.0,1.0,1.0,34.7,33.1,33.1,3.5,4.0,2.6475,0.14694833241698937,-0.020323007157420137,0.9736801196687921,-0.007433917719981261,-0.133864,-33.294872
11.185,2.0,1.0,1.0,34.7,33.1,33.1,3.5,4.0,2.65,0.1351035167613964,-0.02052586400397417,0.9751815914703864,-0.00780187851968323,-0.135722,-33.167904
11.185,2.0,1.0,1.0,34.7,33.1,33.1,3.5,4.0,2.6525,0.12315293914844767,-0.020727320643202596,0.9765465048627439,-0.00817995696215551,-0.137615,-33.040514
11.185,2.0,1.0,1.0,34.7,33.1,33.1,3.5,4.0,2.655,0.11109703670947445,-0.020927182694954673,0.9777714218099307,-0.00856838170563936,-0.139544,-32.912697
11.185,2.0,1.0,1.0,34.7,33.1,33.1,3.5,4.0,2.6575,0.09893631861424487,-0.021125246140014518,0.9788528406339978,-0.008967384855866402,-0.14151,-32.784449
11.185,2.0,1.0,1.0,34.7,33.1,33.1,3.5,4.0,2.66,0.08667136938272567,-0.021321296940733616,0.9797871959746549,-0.00937720190714177,-0.143513,-32.655765
11.185,2.0,1.0,1.0,34.7,33.1,33.1,3.5,4.0,2.6625,0.0743028522987767,-0.021515110649788557,0.9805708588348035,-0.009798071674667765,-0.145555,-32.526642
11.185,2.0,1.0,1.0,34.7,33.1,33.1,3.5,4.0,2.665,0.061831512926569535,-0.021706452006840907,0.9812001367179249,-0.010230236217658421,-0.147636,-32.397074
11.185,2.0,1.0,1.0,34.7,33.1,33.1,3.5,4.0,2.6675,0.04925818273040718,-0.021895074522877516,0.9816712738635814,-0.010673940752786272,-0.149757,-32.267057
11.185,2.0,1.0,1.0,34.7,33.1,33.1,3.5,4.0,2.67,0.036583782798353164,-0.022080720052009516,0.9819804515875149,-0.011129433557500835,-0.15192,-32.136586
11.185,2.0,1.0,1.0,34.7,33.1,33.1,3.5,4.0,2.6725,0.023809327669885805,-0.02226311835050868,0.9821237887330851,-0.011596965862753578,-0.154124,-32.005657
11.185,2.0,1.0,1.0,34.7,33.1,33.1,3.5,4.0,2.675,0.010935929267558524,-0.02244198662285789,0.9820973422410338,-0.012076791734663321,-0.156371,-31.874264
11.185,2.0,1.0,1.0,34.7,33.1,33.1,3.5,4.0,2.6775,-0.002035199067646716,-0.02261702905459102,0.9818971078448018,-0.012569167944657561,-0.158662,-31.742403
11.185,2.0,1.0,1.0,34.7,33.1,33.1,3.5,4.0,2.68,-0.015102738437843958,-0.022787936331693036,0.981519020898855,-0.013074353827628888,-0.160997,-31.610069
11.185,2.0,1.0,1.0,34.7,33.1,33.1,3.5,4.0,2.6825,-0.02826526014753107,-0.02295438514632569,0.9809589573477306,-0.013592611127650936,-0.163379,-31.477257
11.185,2.0,1.0,1.0,34.7,33.1,33.1,3.5,4.0,2.685,-0.04152122136187835,-0.023116037688636442,0.9802127348437232,-0.01412420383080905,-0.165808,-31.343961
11.185,2.0,1.0,1.0,34.7,33.1,33.1,3.5,4.0,2.6875,-0.05486896066556376,-0.02327254112439708,0.9792761140213417,-0.014669397984712241,-0.168284,-31.210175
11.185,2.0,1.0,1.0,34.7,33.1,33.1,3.5,4.0,2.69,-0.06830669352410855,-0.023423527058205055,0.9781447999369073,-0.01522846150426897,-0.17081,-31.075894
11.185,2.0,1.0,1.0,34.7,33.1,33.1,3.5,4.0,2.6925,-0.08183250765009337,-0.023568610981962355,0.976814443681815,-0.01580166396333108,-0.173385,-30.941113
11.185,2.0,1.0,1.0,34.7,33.1,33.1,3.5,4.0,2.695,-0.09544435827695329,-0.02370739170832427,0.9752806441781875,-0.016389276371830984,-0.176012,-30.805826
11.185,2.0,1.0,1.0,34.7,33.1,33.1,3.5,4.0,2.6975,-0.10914006334366634,-0.023839450788782836,0.9735389501658089,-0.016991570938070445,-0.178692,-30.670025
11.185,2.0,1.0,1.0,34.7,33.1,33.1,3.5,4.0,2.7,-0.12291729859395531,-0.023964351916015588,0.9715848623893575,-0.017608820815848598,-0.181425,-30.533705
11.185,2.0,1.0,1.0,34.7,33.1,33.1,3.5,4.0,2.7025,-0.1367735925942225,-0.02408164031008812,0.969413835995066,-0.018241299836159193,-0.184214,-30.39686
11.185,2.0,1.0,1.0,34.7,33.1,33.1,3.5,4.0,2.705,-0.15070632167494263,-0.02419084208805069,0.9670212831460752,-0.01888928222322912,-0.187059,-30.259483
11.185,2.0,1.0,1.0,34.7,33.1,33.1,3.5,4.0,2.7075,-0.1647127048007291,-0.024291463616407855,0.9644025758657342,-0.019553042294722697,-0.189961,-30.121565
11.185,2.0,1.0,1.0,34.7,33.1,33.1,3.5,4.0,2.71,-0.17878979837491837,-0.024382990845870534,0.9615530491182117,-0.02023285414599124,-0.192923,-29.983101
11.185,2.0,1.0,1.0,34.7,33.1,33.1,3.5,4.0,2.7125,-0.192934490985071,-0.02446488862771621,0.958468004135713,-0.020928991318312353,-0.195945,-29.844083
11.185,2.0,1.0,1.0,34.7,33.1,33.1,3.5,4.0,2.715,-0.20714349809637098,-0.02453660001098519,0.9551427120015868,-0.021641726451132447,-0.199029,-29.704502
11.185,2.0,1.0,1.0,34.7,33.1,33.1,3.5,4.0,2.7175,-0.22141335670054252,-0.024597545519625667,0.9515724174984992,-0.022371330918404368,-0.202177,-29.564351
11.185,2.0,1.0,1.0,34.7,33.1,33.1,3.5,4.0,2.72,-0.23574041992854192,-0.024647122408568214,0.9477523432307384,-0.02311807444919554,-0.20539,-29.42362
11.185,2.0,1.0,1.0,34.7,33.1,33.1,3.5,4.0,2.7225,-0.25012085163589687,-0.024684703897553905,0.9436776940294819,-0.023882224732836934,-0.20867,-29.282302
11.185,2.0,1.0,1.0,34.7,33.1,33.1,3.5,4.0,2.725,-0.2645506209701887,-0.024709638381363294,0.9393436616496658,-0.024664047008979534,-0.212018,-29.140385
11.185,2.0,1.0,1.0,34.7,33.1,33.1,3.5,4.0,2.7275,-0.27902549693090073,-0.0247212486148859,0.9347454297667426,-0.025463803643037596,-0.215436,-28.997862
11.185,2.0,1.0,1.0,34.7,33.1,33.1,3.5,4.0,2.73,-0.2935410429323798,-0.024718830871233163,0.9298781792812851,-0.02628175368760862,-0.218927,-28.85472
11.185,2.0,1.0,1.0,34.7,33.1,33.1,3.5,4.0,2.7325,-0.3080926113813618,-0.024701654070827153,0.9247370939389121,-0.02711815243058799,-0.222491,-28.71095
11.185,2.0,1.0,1.0,34.7,33.1,33.1,3.5,4.0,2.735,-0.3226753382811077,-0.024668958879084612,0.9193173662725408,-0.027973250930822063,-0.226131,-28.56654
11.185,2.0,1.0,1.0,34.7,33.1,33.1,3.5,4.0,2.7375,-0.3372841378747527,-0.024619956769963404,0.9136142038733555,-0.028847295542284893,-0.229849,-28.421479
11.185,2.0,1.0,1.0,34.7,33.1,33.1,3.5,4.0,2.74,-0.35191369734104727,-0.02455382905223245,0.9076228359962144,-0.0297405274279034,-0.233647,-28.275753
11.185,2.0,1.0,1.0,34.7,33.1,33.1,3.5,4.0,2.7425,-0.36655847155613885,-0.02446972585486924,0.9013385205044606,-0.03065318206430827,-0.237526,-28.129349
11.185,2.0,1.0,1.0,34.7,33.1,33.1,3.5,4.0,2.745,-0.3812126779355225,-0.024366765067464043,0.8947565511582573,-0.031585488738937316,-0.241491,-27.982255
11.185,2.0,1.0,1.0,34.7,33.1,33.1,3.5,4.0,2.7475,-0.3958702913706272,-0.024244031230923238,0.8878722652496278,-0.03253767004107615,-0.245542,-27.834454
11.185,2.0,1.0,1.0,34.7,33.1,33.1,3.5,4.0,2.75,-0.410525039274794,-0.0241005743730915,0.880681051586333,-0.0335099413485771,-0.249682,-27.685931
11.185,2.0,1.0,1.0,34.7,33.1,33.1,3.5,4.0,2.7525,-0.42517039675364376,-0.023935408783157818,0.8731783588256192,-0.03450251031215227,-0.253915,-27.536671
11.185,2.0,1.0,1.0,34.7,33.1,33.1,3.5,4.0,2.755,-0.43979958191478385,-0.02374751171785622,0.8653597041575909,-0.03551557633928834,-0.258241,-27.386656
11.185,2.0,1.0,1.0,34.7,33.1,33.1,3.5,4.0,2.7575,-0.45440555133187327,-0.023535822031507253,0.8572206823366685,-0.036549330079978085,-0.262665,-27.235868
11.185,2.0,1.0,1.0,34.7,33.1,33.1,3.5,4.0,2.76,-0.4689809956777081,-0.023299238720860038,0.8487569750581383,-0.03760395291659195,-0.26719,-27.084287
11.185,2.0,1.0,1.0,34.7,33.1,33.1,3.5,4.0,2.7625,-0.48351833554061757,-0.023036619374470203,0.8399643606752966,-0.03867961646033742,-0.271818,-26.931894
11.185,2.0,1.0,1.0,34.7,33.1,33.1,3.5,4.0,2.765,-0.49800971743787426,-0.02274677851496987,0.8308387242510323,-0.03977648205684558,-0.276552,-26.778667
11.185,2.0,1.0,1.0,34.7,33.1,33.1,3.5,4.0,2.7675,-0.5124470100388377,-0.022428485821034898,0.8213760679360192,-0.040894700303496435,-0.281396,-26.624582
11.185,2.0,1.0,1.0,34.7,33.1,33.1,3.5,4.0,2.77,-0.5268218006094856,-0.02208046421410646,0.8115725216638565,-0.04203441058112815,-0.286355,-26.469616
11.185,2.0,1.0,1.0,34.7,33.1,33.1,3.5,4.0,2.7725,-0.5411253916884553,-0.021701387792960575,0.8014243541516559,-0.04319574060276229,-0.29143,-26.313743
11.185,2.0,1.0,1.0,34.7,33.1,33.1,3.5,4.0,2.775,-0.5553487980029689,-0.021289879597008836,0.7909279841926345,-0.04437880598191204,-0.296627,-26.156937
11.185,2.0,1.0,1.0,34.7,33.1,33.1,3.5,4.0,2.7775,-0.5694827436306742,-0.020844509176725503,0.780079992225278,-0.04558370982290281,-0.30195,-25.999167
11.185,2.0,1.0,1.0,34.7,33.1,33.1,3.5,4.0,2.78,-0.5835176594108848,-0.02036378994679709,0.7688771321616604,-0.046810542335415956,-0.307403,-25.840405
11.185,2.0,1.0,1.0,34.7,33.1,33.1,3.5,4.0,2.7825,-0.5974436806053803,-0.019846176294441832,0.7573163434554981,-0.04805938047513972,-0.31299,-25.680616
11.185,2.0,1.0,1.0,34.7,33.1,33.1,3.5,4.0,2.785,-0.6112506448053495,-0.01929006041179437,0.74539476338846,-0.04933028761197047,-0.318718,-25.519768
11.185,2.0,1.0,1.0,34.7,33.1,33.1,3.5,4.0,2.7875,-0.6249280900764269,-0.01869376881725305,0.7331097395514503,-0.05062331322660147,-0.32459,-25.357823
11.185,2.0,1.0,1.0,34.7,33.1,33.1,3.5,4.0,2.79,-0.6384652533289521,-0.01805555852617746,0.7204588424955878,-0.05193849263556669,-0.330614,-25.194742
11.185,2.0,1.0,1.0,34.7,33.1,33.1,3.5,4.0,2.7925,-0.6518510688943888,-0.017373612826229755,0.707439878526067,-0.053275846743802605,-0.336794,-25.030485
11.185,2.0,1.0,1.0,34.7,33.1,33.1,3.5,4.0,2.795,-0.6650741672822378,-0.016646036606902948,0.6940509026104313,-0.05463538182254375,-0.343138,-24.865007
11.185,2.0,1.0,1.0,34.7,33.1,33.1,3.5,4.0,2.7975,-0.678122874083825,-0.015870851186272343,0.6802902313717234,-0.05601708930878524,-0.349652,-24.698262
11.185,2.0,1.0,1.0,34.7,33.1,33.1,3.5,4.0,2.8,-0.6909852089804537,-0.015045988570636168,0.666156456135959,-0.05742094562061025,-0.356343,-24.5302
11.185,2.0,1.0,1.0,34.7,33.1,33.1,3.5,4.0,2.8025,-0.7036488848031466,-0.014169285074357179,0.6516484560029903,-0.05884691198027281,-0.36322,-24.360768
11.185,2.0,1.0,1.0,34.7,33.1,33.1,3.5,4.0,2.805,-0.7161013065795157,-0.013238474217730074,0.636765410909949,-0.060294934233984646,-0.37029,-24.189911
11.185,2.0,1.0,1.0,34.7,33.1,33.1,3.5,4.0,2.8075,-0.7283295704900057,-0.012251178809906808,0.6215068146572293,-0.06176494265375758,-0.377563,-24.017569
11.185,2.0,1.0,1.0,34.7,33.1,33.1,3.5,4.0,2.81,-0.740320462640616,-0.01120490211162145,0.6058724878686226,-0.06325685170226458,-0.385049,-23.843677
11.185,2.0,1.0,1.0,34.7,33.1,33.1,3.5,4.0,2.8125,-0.752060457541943,-0.0100970179584326,0.589862590859927,-0.0647705597363376,-0.392759,-23.668169
11.185,2.0,1.0,1.0,34.7,33.1,33.1,3.5,4.0,2.815,-0.7635357161648881,-0.008924759709167989,0.5734776363942644,-0.06630594861822917,-0.400702,-23.490973
11.185,2.0,1.0,1.0,34.7,33.1,33.1,3.5,4.0,2.8175,-0.7747320834208592,-0.007685207865899508,0.5567185023079039,-0.06786288319586443,-0.408893,-23.312011
11.185,2.0,1.0,1.0,34.7,33.1,33.1,3.5,4.0,2.82,-0.7856350848891864,-0.006375276190714497,0.5395864439976872,-0.06944121060371182,-0.417343,-23.131202
11.185,2.0,1.0,1.0,34.7,33.1,33.1,3.5,4.0,2.8225,-0.7962299225852536,-0.004991696120338659,0.5220831067709192,-0.07104075932422595,-0.426069,-22.948459
11.185,2.0,1.0,1.0,34.7,33.1,33.1,3.5,4.0,2.825,-0.8065014695300418,-0.0035309992517816393,0.5042105380709606,-0.07266133793560368,-0.435084,-22.763688
