1,w,sub_t,h,l1,l2,l3,g1,g2,Freq,S11_re,S21_re,S11_img,S21_img,S11_dB,S21_dB
11.185,2.0,1.0,1.0,34.9,33.3,33.3,2.0,2.1,2.5,0.615365089579065,-0.0245220998880463,0.775815612952432,0.0107405823318085,-0.08524,-31.446665
11.185,2.0,1.0,1.0,34.9,33.3,33.3,2.0,2.1,2.5025,0.6083771650236108,-0.02495418768978126,0.7811583599097255,0.010652453006109347,-0.086272,-31.330123
11.185,2.0,1.0,1.0,34.9,33.3,33.3,2.0,2.1,2.505,0.6013003123583813,-0.025392932846225545,0.7864678941512493,0.010558262723789614,-0.087324,-31.213186
11.185,2.0,1.0,1.0,34.9,33.3,33.3,2.0,2.1,2.5075,0.594133717816981,-0.025838420469965952,0.7917430461379426,0.01045780133366256,-0.088395,-31.095848
11.185,2.0,1.0,1.0,34.9,33.3,33.3,2.0,2.1,2.51,0.5868765642651032,-0.02629073558996037,0.7969826141529961,0.010350851746717838,-0.089488,-30.978105
11.185,2.0,1.0,1.0,34.9,33.3,33.3,2.0,2.1,2.5125,0.5795280315669115,-0.02674996305831117,0.8021853634419639,0.010237189705595028,-0.090603,-30.859952
11.185,2.0,1.0,1.0,34.9,33.3,33.3,2.0,2.1,2.515,0.5720872969761396,-0.02721618745023072,0.8073500253327327,0.010116583546574014,-0.091739,-30.741384
11.185,2.0,1.0,1.0,34.9,33.3,33.3,2.0,2.1,2.5175,0.564553535553138,-0.027689492956795753,0.8124752963350562,0.009988793953863274,-0.092897,-30.622394
11.185,2.0,1.0,1.0,34.9,33.3,33.3,2.0,2.1,2.52,0.5569259206091253,-0.028169963270067357,0.8175598372194084,0.009853573705965133,-0.094079,-30.502979
11.185,2.0,1.0,1.0,34.9,33.3,33.3,2.0,2.1,2.5225,0.5492036241789964,-0.028657681460127114,0.8226022720748887,0.009710667413891726,-0.095283,-30.383133
11.185,2.0,1.0,1.0,34.9,33.3,33.3,2.0,2.1,2.525,0.5413858175240399,-0.02915272984355828,0.8276011873459587,0.009559811251002134,-0.096512,-30.26285
11.185,2.0,1.0,1.0,34.9,33.3,33.3,2.0,2.1,2.5275,0.5334716716660256,-0.029655189842873107,0.8325551308477903,0.009400732674227436,-0.097766,-30.142126
11.185,2.0,1.0,1.0,34.9,33.3,33.3,2.0,2.1,2.53,0.5254603579541672,-0.03016514183635999,0.837462610760023,0.009233150136447722,-0.099045,-30.020954
11.185,2.0,1.0,1.0,34.9,33.3,33.3,2.0,2.1,2.5325,0.5173510486665209,-0.030682664997796014,0.8423220945987557,0.009056772789780974,-0.100349,-29.899329
11.185,2.0,1.0,1.0,34.9,33.3,33.3,2.0,2.1,2.535,0.5091429176474582,-0.03120783712544011,0.847132008166626,0.008871300179542145,-0.101681,-29.777246
11.185,2.0,1.0,1.0,34.9,33.3,33.3,2.0,2.1,2.5375,0.5008351409829197,-0.031740734459688794,0.8518907344808363,0.00867642192862691,-0.103039,-29.6547
11.185,2.0,1.0,1.0,34.9,33.3,33.3,2.0,2.1,2.54,0.4924268977152198,-0.03228143148874495,0.8565966126790415,0.00847181741207445,-0.104425,-29.531684
11.185,2.0,1.0,1.0,34.9,33.3,33.3,2.0,2.1,2.5425,0.48391737059925266,-0.032830000741612055,0.8612479369030192,0.008257155421559215,-0.10584,-29.408193
11.185,2.0,1.0,1.0,34.9,33.3,33.3,2.0,2.1,2.545,0.4753057469020148,-0.033386512567691505,0.8658429551600971,0.008032093819563097,-0.107284,-29.284222
11.185,2.0,1.0,1.0,34.9,33.3,33.3,2.0,2.1,2.5475,0.46659121924747493,-0.03395103490221821,0.8703798681623279,0.007796279182976773,-0.108758,-29.159764
11.185,2.0,1.0,1.0,34.9,33.3,33.3,2.0,2.1,2.55,0.4577729865088282,-0.034523633016732676,0.8748568281434699,0.007549346435879879,-0.110263,-29.034814
11.185,2.0,1.0,1.0,34.9,33.3,33.3,2.0,2.1,2.5525,0.44885025475036083,-0.035104369253737826,0.8792719376538408,0.007290918471249649,-0.1118,-28.909366
11.185,2.0,1.0,1.0,34.9,33.3,33.3,2.0,2.1,2.555,0.4398222382211345,-0.035693302744649484,0.8836232483331932,0.00702060576134855,-0.113369,-28.783414
11.185,2.0,1.0,1.0,34.9,33.3,33.3,2.0,2.1,2.5575,0.43068816040285657,-0.03629048911009685,0.88790875966179,0.00673800595654379,-0.114971,-28.656953
11.185,2.0,1.0,1.0,34.9,33.3,33.3,2.0,2.1,2.56,0.42144725511437364,-0.03689598014157854,0.8921264176899151,0.006442703472314226,-0.116608,-28.529975
11.185,2.0,1.0,1.0,34.9,33.3,33.3,2.0,2.1,2.5625,0.41209876767532505,-0.03750982346342808,0.8962741137461242,0.006134269064203428,-0.118279,-28.402475
11.185,2.0,1.0,1.0,34.9,33.3,33.3,2.0,2.1,2.565,0.4026419561315748,-0.0381320621739844,0.9003496831245964,0.005812259390481727,-0.119987,-28.274448
11.185,2.0,1.0,1.0,34.9,33.3,33.3,2.0,2.1,2.5675,0.3930760925451784,-0.03876273446480365,0.9043509037520145,0.005476216562288045,-0.121732,-28.145886
11.185,2.0,1.0,1.0,34.9,33.3,33.3,2.0,2.1,2.57,0.3834004643517082,-0.039401873216686464,0.9082754948344849,0.005125667681025422,-0.123515,-28.016784
11.185,2.0,1.0,1.0,34.9,33.3,33.3,2.0,2.1,2.5725,0.3736143757878871,-0.04004950557122797,0.9121211154850781,0.004760124362795517,-0.125337,-27.887134
11.185,2.0,1.0,1.0,34.9,33.3,33.3,2.0,2.1,2.575,0.3637171493925901,-0.04070565247652866,0.9158853633326672,0.004379082249664899,-0.127199,-27.756932
11.185,2.0,1.0,1.0,34.9,33.3,33.3,2.0,2.1,2.5775,0.35370812758438896,-0.04137032820563013,0.9195657731128135,0.003982020507567698,-0.129102,-27.62617
11.185,2.0,1.0,1.0,34.9,33.3,33.3,2.0,2.1,2.58,0.34358667431892576,-0.04204353984616347,0.9231598152415696,0.003568401310661664,-0.131048,-27.494842
11.185,2.0,1.0,1.0,34.9,33.3,33.3,2.0,2.1,2.5825,0.33335217682952684,-0.04272528675961552,0.9266648943731579,0.003137669311968809,-0.133037,-27.362941
11.185,2.0,1.0,1.0,34.9,33.3,33.3,2.0,2.1,2.585,0.3230040474545884,-0.043415560008532056,0.9300783479425972,0.0026892511001477696,-0.135071,-27.230461
11.185,2.0,1.0,1.0,34.9,33.3,33.3,2.0,2.1,2.5875,0.312541725555394,-0.0441143417498887,0.9333974446944814,0.0022225546422645092,-0.137152,-27.097394
11.185,2.0,1.0,1.0,34.9,33.3,33.3,2.0,2.1,2.59,0.30196467952815814,-0.04482160459276037,0.9366193831992078,0.0017369687124469796,-0.139279,-26.963735
11.185,2.0,1.0,1.0,34.9,33.3,33.3,2.0,2.1,2.5925,0.29127240891421124,-0.04553731091832495,0.9397412903581365,0.0012318623063335733,-0.141456,-26.829475
11.185,2.0,1.0,1.0,34.9,33.3,33.3,2.0,2.1,2.595,0.28046444661240516,-0.0462614121601241,0.9427602198992517,0.0007065840412502849,-0.143683,-26.694609
11.185,2.0,1.0,1.0,34.9,33.3,33.3,2.0,2.1,2.5975,0.26954036119790853,-0.04699384804239861,0.9456731508650902,0.00016046154207917287,-0.145961,-26.559129
11.185,2.0,1.0,1.0,34.9,33.3,33.3,2.0,2.1,2.6,0.25849975935175656,-0.047734545774191665,0.9484769860948414,-0.00040719918718666614,-0.148293,-26.423028
11.185,2.0,1.0,1.0,34.9,33.3,33.3,2.0,2.1,2.6025,0.24734228840564854,-0.048483419196791194,0.9511685507026948,-0.0009971144061724085,-0.150679,-26.286299
11.185,2.0,1.0,1.0,34.9,33.3,33.3,2.0,2.1,2.605,0.23606763900660452,-0.04924036788194941,0.953744590554705,-0.0016100232950685461,-0.153122,-26.148934
11.185,2.0,1.0,1.0,34.9,33.3,33.3,2.0,2.1,2.6075,0.22467554790630015,-0.05000527617817892,0.9562017707466195,-0.002246688625685516,-0.155623,-26.010925
11.185,2.0,1.0,1.0,34.9,33.3,33.3,2.0,2.1,2.61,0.2131658008800135,-0.05077801220227418,0.9585366740853263,-0.002907897446461253,-0.158184,-25.872267
11.185,2.0,1.0,1.0,34.9,33.3,33.3,2.0,2.1,2.6125,0.20153823578029215,-0.05155842677305466,0.9607457995767934,-0.0035944617812161597,-0.160806,-25.73295
11.185,2.0,1.0,1.0,34.9,33.3,33.3,2.0,2.1,2.615,0.189792745730601,-0.052346352284158106,0.9628255609235975,-0.00430721934139548,-0.163492,-25.592967
11.185,2.0,1.0,1.0,34.9,33.3,33.3,2.0,2.1,2.6175,0.17792928246440465,-0.05314160151253651,0.9647722850353633,-0.005047034251477416,-0.166244,-25.45231
11.185,2.0,1.0,1.0,34.9,33.3,33.3,2.0,2.1,2.62,0.1659478598152736,-0.053943966359123685,0.966582210555715,-0.00581479778716227,-0.169063,-25.310971
11.185,2.0,1.0,1.0,34.9,33.3,33.3,2.0,2.1,2.6225,0.15384855736378772,-0.054753216517945485,0.9682514864095817,-0.006611429125884394,-0.171951,-25.168942
11.185,2.0,1.0,1.0,34.9,33.3,33.3,2.0,2.1,2.625,0.141631524247218,-0.0555690980697317,0.96977617037498,-0.00743787610911166,-0.174912,-25.026215
11.185,2.0,1.0,1.0,34.9,33.3,33.3,2.0,2.1,2.6275,0.12929698313809207,-0.05639133199587239,0.97115222768371,-0.008295116015813309,-0.177947,-24.882782
11.185,2.0,1.0,1.0,34.9,33.3,33.3,2.0,2.1,2.63,0.11684523439797778,-0.05721961260831915,0.9723755296556759,-0.009184156346384342,-0.181058,-24.738633
11.185,2.0,1.0,1.0,34.9,33.3,33.3,2.0,2.1,2.6325,0.10427666041299762,-0.058053605890783636,0.9734418523719,-0.010106035616214868,-0.184248,-24.593761
11.185,2.0,1.0,1.0,34.9,33.3,33.3,2.0,2.1,2.635,0.09159173011777871,-0.05889294774631704,0.9743468753916114,-0.011061824157984615,-0.18752,-24.448156
11.185,2.0,1.0,1.0,34.9,33.3,33.3,2.0,2.1,2.6375,0.07879100371474529,-0.059737242146068334,0.9750861805191634,-0.01205262493164377,-0.190876,-24.30181
11.185,2.0,1.0,1.0,34.9,33.3,33.3,2.0,2.1,2.64,0.0658751375958541,-0.06058605917371492,0.9756552506268956,-0.013079574340917364,-0.194319,-24.154714
11.185,2.0,1.0,1.0,34.9,33.3,33.3,2.0,2.1,2.6425,0.0528448894741136,-0.06143893295973281,0.9760494685404579,-0.014143843055025106,-0.197852,-24.006857
11.185,2.0,1.0,1.0,34.9,33.3,33.3,2.0,2.1,2.645,0.03970112373241993,-0.06229535949932507,0.9762641159935131,-0.015246636834164107,-0.201477,-23.858232
11.185,2.0,1.0,1.0,34.9,33.3,33.3,2.0,2.1,2.6475,0.026444816997501615,-0.06315479434745418,0.9762943726591665,-0.01638919735713382,-0.205199,-23.708827
11.185,2.0,1.0,1.0,34.9,33.3,33.3,2.0,2.1,2.65,0.013077063946939929,-0.06401665018402447,0.9761353152659213,-0.017572803049308004,-0.20902,-23.558634
11.185,2.0,1.0,1.0,34.9,33.3,33.3,2.0,2.1,2.6525,-0.0004009166423993283,-0.0648802942418269,0.9757819168064263,-0.01879876990896031,-0.212944,-23.407642
11.185,2.0,1.0,1.0,34.9,33.3,33.3,2.0,2.1,2.655,-0.013987775596072855,-0.0657450455894021,0.9752290458477668,-0.0200684523297454,-0.216974,-23.255841
11.185,2.0,1.0,1.0,34.9,33.3,33.3,2.0,2.1,2.6575,-0.027682026785056744,-0.06661017226047432,0.9744714659525685,-0.02138324391690313,-0.221114,-23.10322
11.185,2.0,1.0,1.0,34.9,33.3,33.3,2.0,2.1,2.66,-0.0414820403009622,-0.06747488822107474,0.9735038352207149,-0.02274457829450722,-0.225368,-22.949769
11.185,2.0,1.0,1.0,34.9,33.3,33.3,2.0,2.1,2.6625,-0.05538603535403458,-0.06833835016489122,0.9723207059620468,-0.02415392990080251,-0.22974,-22.795478
11.185,2.0,1.0,1.0,34.9,33.3,33.3,2.0,2.1,2.665,-0.06939207288422844,-0.06919965412675663,0.9709165245109889,-0.025612814768383722,-0.234235,-22.640334
11.185,2.0,1.0,1.0,34.9,33.3,33.3,2.0,2.1,2.6675,-0.08349804787520608,-0.07005783190350538,0.9692856311946652,-0.027122791285633448,-0.238855,-22.484326
11.185,2.0,1.0,1.0,34.9,33.3,33.3,2.0,2.1,2.67,-0.09770168136077778,-0.07091184727069472,0.9674222604667168,-0.028685460935487968,-0.243608,-22.327442
11.185,2.0,1.0,1.0,34.9,33.3,33.3,2.0,2.1,2.6725,-0.11200051211286681,-0.07176059198288443,0.9653205412197037,-0.03030246900720259,-0.248496,-22.169672
11.185,2.0,1.0,1.0,34.9,33.3,33.3,2.0,2.1,2.675,-0.1263918879995577,-0.07260288154429947,0.9629744972896805,-0.03197550527635428,-0.253526,-22.011001
11.185,2.0,1.0,1.0,34.9,33.3,33.3,2.0,2.1,2.6775,-0.14087295700132962,-0.07343745073575193,0.9603780481672931,-0.03370630464784828,-0.258702,-21.851417
11.185,2.0,1.0,1.0,34.9,33.3,33.3,2.0,2.1,2.68,-0.1554406578729899,-0.0742629488826637,0.9575250099305187,-0.03549664775616545,-0.26403,-21.690909
11.185,2.0,1.0,1.0,34.9,33.3,33.3,2.0,2.1,2.6825,-0.17009171043814808,-0.07507793484790107,0.954409096415028,-0.037348361516504815,-0.269517,-21.529461
11.185,2.0,1.0,1.0,34.9,33.3,33.3,2.0,2.1,2.685,-0.1848226055024216,-0.07588087173189734,0.9510239206390069,-0.0392633196198308,-0.275167,-21.36706
11.185,2.0,1.0,1.0,34.9,33.3,33.3,2.0,2.1,2.6875,-0.199629594370733,-0.076670121261185,0.947362996500243,-0.0412434429641145,-0.280989,-21.203692
11.185,2.0,1.0,1.0,34.9,33.3,33.3,2.0,2.1,2.69,-0.21450867795316456,-0.07744393784497215,0.943419740764281,-0.04329070001325367,-0.286987,-21.039343
11.185,2.0,1.0,1.0,34.9,33.3,33.3,2.0,2.1,2.6925,-0.22945559544289656,-0.07820046227777064,0.9391874753635244,-0.0454071070742652,-0.293171,-20.873998
11.185,2.0,1.0,1.0,34.9,33.3,33.3,2.0,2.1,2.695,-0.24446581254853422,-0.07893771506428623,0.9346594300283568,-0.047594728482328014,-0.299546,-20.70764
11.185,2.0,1.0,1.0,34.9,33.3,33.3,2.0,2.1,2.6975,-0.25953450926197275,-0.07965358934081117,0.9298287452725753,-0.049855676682136495,-0.306122,-20.540254
11.185,2.0,1.0,1.0,34.9,33.3,33.3,2.0,2.1,2.7,-0.2746565671414255,-0.08034584336518237,0.9246884757568682,-0.052192112192737526,-0.312906,-20.371823
11.185,2.0,1.0,1.0,34.9,33.3,33.3,2.0,2.1,2.7025,-0.2898265560876849,-0.08101209254497371,0.9192315940555107,-0.05460624344159789,-0.319908,-20.202331
11.185,2.0,1.0,1.0,34.9,33.3,33.3,2.0,2.1,2.705,-0.3050387205898126,-0.08164980097093909,0.9134509948531713,-0.05710032645200706,-0.327135,-20.03176
11.185,2.0,1.0,1.0,34.9,33.3,33.3,2.0,2.1,2.7075,-0.32028696541441953,-0.08225627241980546,0.9073394996005372,-0.059676664366080365,-0.3346,-19.860091
11.185,2.0,1.0,1.0,34.9,33.3,33.3,2.0,2.1,2.71,-0.33556484071032344,-0.0828286407872756,0.9008898616595159,-0.06233760678351257,-0.342311,-19.687305
11.185,2.0,1.0,1.0,34.9,33.3,33.3,2.0,2.1,2.7125,-0.35086552649773595,-0.08336385990852789,0.8940947719710761,-0.06508554889383766,-0.350279,-19.513383
11.185,2.0,1.0,1.0,34.9,33.3,33.3,2.0,2.1,2.715,-0.366181816508115,-0.08385869271954227,0.8869468652813935,-0.06792293037719578,-0.358517,-19.338305
11.185,2.0,1.0,1.0,34.9,33.3,33.3,2.0,2.1,2.7175,-0.3815061013374348,-0.08430969970819399,0.8794387269648584,-0.0708522340454684,-0.367037,-19.162049
11.185,2.0,1.0,1.0,34.9,33.3,33.3,2.0,2.1,2.72,-0.3968303508717456,-0.08471322659920665,0.8715629004858875,-0.0738759841920199,-0.375851,-18.984594
11.185,2.0,1.0,1.0,34.9,33.3,33.3,2.0,2.1,2.7225,-0.41214609593963847,-0.08506539121166959,0.8633118955452419,-0.07699674461413816,-0.384974,-18.805917
11.185,2.0,1.0,1.0,34.9,33.3,33.3,2.0,2.1,2.725,-0.42744440914118714,-0.08536206942186801,0.8546781969609778,-0.08021711626745755,-0.394419,-18.625994
11.185,2.0,1.0,1.0,34.9,33.3,33.3,2.0,2.1,2.7275,-0.44271588479759033,-0.08559888015756159,0.8456542743391348,-0.08353973450613379,-0.404204,-18.444801
11.185,2.0,1.0,1.0,34.9,33.3,33.3,2.0,2.1,2.73,-0.4579506179593345,-0.08577116934253212,0.8362325925951611,-0.08696726585611661,-0.414343,-18.262312
11.185,2.0,1.0,1.0,34.9,33.3,33.3,2.0,2.1,2.7325,-0.4731381824038535,-0.08587399270210724,0.826405623393755,-0.0905024042614712,-0.424856,-18.078501
11.185,2.0,1.0,1.0,34.9,33.3,33.3,2.0,2.1,2.735,-0.48826760754564014,-0.08590209733139353,0.8161658575827268,-0.0941478667350754,-0.435761,-17.89334
11.185,2.0,1.0,1.0,34.9,33.3,33.3,2.0,2.1,2.7375,-0.5033273541730862,-0.08584990191801502,0.8055058187055719,-0.09790638833503396,-0.447077,-17.7068
11.185,2.0,1.0,1.0,34.9,33.3,33.3,2.0,2.1,2.74,-0.5183052889163096,-0.08571147550017717,0.7944180776882145,-0.10178071637650361,-0.458828,-17.518852
11.185,2.0,1.0,1.0,34.9,33.3,33.3,2.0,2.1,2.7425,-0.5331886573393176,-0.0854805146287468,0.7828952688078105,-0.10577360377507808,-0.471034,-17.329463
11.185,2.0,1.0,1.0,34.9,33.3,33.3,2.0,2.1,2.745,-0.5479640555374219,-0.0851503187886677,0.7709301070662627,-0.1098878014020542,-0.483722,-17.138601
11.185,2.0,1.0,1.0,34.9,33.3,33.3,2.0,2.1,2.7475,-0.5626174001072463,-0.08471376392031288,0.7585154071082446,-0.11412604931343921,-0.496916,-16.946233
11.185,2.0,1.0,1.0,34.9,33.3,33.3,2.0,2.1,2.75,-0.577133896341414,-0.084163273865201,0.745644103843824,-0.118491066692958,-0.510647,-16.752323
11.185,2.0,1.0,1.0,34.9,33.3,33.3,2.0,2.1,2.7525,-0.5914980044832793,-0.08349078954278688,0.7323092749595744,-0.12298554032404298,-0.524943,-16.556833
11.185,2.0,1.0,1.0,34.9,33.3,33.3,2.0,2.1,2.755,-0.6056934038585693,-0.08268773564568016,0.7185041655301384,-0.12761211137616651,-0.539839,-16.359725
11.185,2.0,1.0,1.0,34.9,33.3,33.3,2.0,2.1,2.7575,-0.6197029546806182,-0.08174498461958246,0.7042222149752276,-0.13237336025615576,-0.555367,-16.160958
11.185,2.0,1.0,1.0,34.9,33.3,33.3,2.0,2.1,2.76,-0.6335086573037819,-0.08065281767142485,0.6894570866461127,-0.13727178923433495,-0.571568,-15.960491
11.185,2.0,1.0,1.0,34.9,33.3,33.3,2.0,2.1,2.7625,-0.647091608675758,-0.07940088252462095,0.6742027003716301,-0.1423098025074567,-0.588481,-15.758279
11.185,2.0,1.0,1.0,34.9,33.3,33.3,2.0,2.1,2.765,-0.6604319557138473,-0.07797814761409746,0.6584532683481638,-0.1474896833040377,-0.60615,-15.554275
11.185,2.0,1.0,1.0,34.9,33.3,33.3,2.0,2.1,2.7675,-0.6735088453028808,-0.07637285238595234,0.6422033348222692,-0.1528135675714343,-0.624624,-15.348433
11.185,2.0,1.0,1.0,34.9,33.3,33.3,2.0,2.1,2.77,-0.6863003705838414,-0.0745724533374837,0.6254478200905303,-0.158283413705932,-0.643954,-15.140701
11.185,2.0,1.0,1.0,34.9,33.3,33.3,2.0,2.1,2.7725,-0.6987835131724495,-0.07256356540335097,0.608182069431088,-0.16390096769512255,-0.664197,-14.931028
11.185,2.0,1.0,1.0,34.9,33.3,33.3,2.0,2.1,2.775,-0.7109340809169574,-0.07033189826339746,0.590401907687472,-0.16966772293337687,-0.685413,-14.719359
11.185,2.0,1.0,1.0,34.9,33.3,33.3,2.0,2.1,2.7775,-0.7227266407748747,-0.06786218711810921,0.5721037003510245,-0.17558487384324456,-0.707669,-14.505636
11.185,2.0,1.0,1.0,34.9,33.3,33.3,2.0,2.1,2.78,-0.7341344463607472,-0.06513811745011981,0.5532844221369297,-0.18165326228457843,-0.731037,-14.2898
11.185,2.0,1.0,1.0,34.9,33.3,33.3,2.0,2.1,2.7825,-0.7451293596931615,-0.062142243266434,0.533941734224875,-0.18787331555483242,-0.755597,-14.07179
11.185,2.0,1.0,1.0,34.9,33.3,33.3,2.0,2.1,2.785,-0.7556817666515457,-0.058855898298620306,0.5140740715434595,-0.19424497457343107,-0.781434,-13.851542
11.185,2.0,1.0,1.0,34.9,33.3,33.3,2.0,2.1,2.7875,-0.7657604856452964,-0.055259099630598725,0.4936807417239508,-0.2007676105943836,-0.808645,-13.628987
11.185,2.0,1.0,1.0,34.9,33.3,33.3,2.0,2.1,2.79,-0.7753326690041717,-0.05133044323036444,0.47276203764011465,-0.20743992849771875,-0.837331,-13.404057
11.185,2.0,1.0,1.0,34.9,33.3,33.3,2.0,2.1,2.7925,-0.7843636966257319,-0.04704699088932285,0.4513193657951863,-0.21425985436372205,-0.867609,-13.17668
11.185,2.0,1.0,1.0,34.9,33.3,33.3,2.0,2.1,2.795,-0.7928170614714175,-0.04238414812902745,0.4293553932233769,-0.22122440462523663,-0.899602,-12.946782
11.185,2.0,1.0,1.0,34.9,33.3,33.3,2.0,2.1,2.7975,-0.8006542465983519,-0.037315532731056936,0.4068742160527656,-0.22832953361161493,-0.933451,-12.714285
11.185,2.0,1.0,1.0,34.9,33.3,33.3,2.0,2.1,2.8,-0.8078345935640163,-0.031812833695905034,0.3838815534405678,-0.23556995573134448,-0.969308,-12.479111
11.185,2.0,1.0,1.0,34.9,33.3,33.3,2.0,2.1,2.8025,-0.8143151622642664,-0.025845660660242742,0.3603849712548412,-0.24293893787503906,-1.007342,-12.241179
11.185,2.0,1.0,1.0,34.9,33.3,33.3,2.0,2.1,2.805,-0.820050582587278,-0.019381384123686608,0.33639414065324486,-0.25042805684145863,-1.047742,-12.000405
11.185,2.0,1.0,1.0,34.9,33.3,33.3,2.0,2.1,2.8075,-0.8249928987193649,-0.012384967289017229,0.31192113761578777,-0.2580269156802775,-1.090717,-11.756706
11.185,2.0,1.0,1.0,34.9,33.3,33.3,2.0,2.1,2.81,-0.8290914075662478,-0.004818790946320268,0.28698079054120684,-0.26572281178971935,-1.1365,-11.509995
11.185,2.0,1.0,1.0,34.9,33.3,33.3,2.0,2.1,2.8125,-0.832292493610623,0.00335752631275787,0.261591084231695,-0.273500348388801,-1.185351,-11.260188
11.185,2.0,1.0,1.0,34.9,33.3,33.3,2.0,2.1,2.815,-0.8345394636859308,0.012187309107763077,0.2357736299814776,-0.2813409795890864,-1.23756,-11.007198
11.185,2.0,1.0,1.0,34.9,33.3,33.3,2.0,2.1,2.8175,-0.8357723866994649,0.021717002516031002,0.2095542130597127,-0.28922247771100074,-1.293454,-10.750942
11.185,2.0,1.0,1.0,34.9,33.3,33.3,2.0,2.1,2.82,-0.8359279454043254,0.03199633849746206,0.1829634306353417,-0.2971183097263616,-1.353399,-10.491337
11.185,2.0,1.0,1.0,34.9,33.3,33.3,2.0,2.1,2.8225,-0.8349393100502582,0.043078481715895296,0.15603743511244939,-0.3049969077798768,-1.417809,-10.228305
11.185,2.0,1.0,1.0,34.9,33.3,33.3,2.0,2.1,2.825,-0.8327360473290328,0.05502014139523725,0.12881879988390416,-0.31282081669290074,-1.48715,-9.961774
11.185,2.0,1.0,1.0,34.9,33.3,33.3,2.0,2.1,2.8275,-0.8292440827091714,0.06788163117522505,0.10135752658084793,-0.3205456992696346,-1.561949,-9.691678
11.185,2.0,1.0,1.0,34.9,33.3,33.3,2.0,2.1,2.83,-0.8243857403214286,0.08172685287110056,0.07371221484501952,-0.3281191782595976,-1.642807,-9.417962
