1,w,sub_t,h,l1,l2,l3,g1,g2,Freq,S11_re,S21_re,S11_img,S21_img,S11_dB,S21_dB
11.185,2.0,1.0,1.0,34.0,33.9,33.9,3.9,3.1,2.5,0.784614828589177,-0.0077101714300596,0.608873339377556,0.0041288164309441,-0.059702,-41.163734
11.185,2.0,1.0,1.0,34.0,33.9,33.9,3.9,3.1,2.5025,0.7801574367074438,-0.007848284417525183,0.614467393064332,0.004120703509268786,-0.06028,-41.047114
11.185,2.0,1.0,1.0,34.0,33.9,33.9,3.9,3.1,2.505,0.7756388408132732,-0.00798858022311475,0.6200537247631291,0.004111293801890398,-0.060869,-40.93018
11.185,2.0,1.0,1.0,34.0,33.9,33.9,3.9,3.1,2.5075,0.7710584476643653,-0.008131096452105267,0.625631906820362,0.004100543926551065,-0.061467,-40.812926
11.185,2.0,1.0,1.0,34.0,33.9,33.9,3.9,3.1,2.51,0.7664156562731704,-0.008275871484128323,0.6312014994849091,0.004088409053244721,-0.062075,-40.695342
11.185,2.0,1.0,1.0,34.0,33.9,33.9,3.9,3.1,2.5125,0.7617098578470277,-0.008422944491329644,0.6367620505508792,0.0040748428499984045,-0.062694,-40.577422
11.185,2.0,1.0,1.0,34.0,33.9,33.9,3.9,3.1,2.515,0.7569404357303626,-0.008572355457002792,0.6423130949897916,0.004059797426344688,-0.063324,-40.459156
11.185,2.0,1.0,1.0,34.0,33.9,33.9,3.9,3.1,2.5175,0.7521067653491307,-0.008724145194710388,0.647854154571833,0.004043223274371773,-0.063964,-40.340538
11.185,2.0,1.0,1.0,34.0,33.9,33.9,3.9,3.1,2.52,0.7472082141576714,-0.008878355367908314,0.6533847374758681,0.004025069207232432,-0.064616,-40.221558
11.185,2.0,1.0,1.0,34.0,33.9,33.9,3.9,3.1,2.5225,0.74224414158819,-0.009035028510086491,0.6589043378878333,0.004005282294985379,-0.065279,-40.102209
11.185,2.0,1.0,1.0,34.0,33.9,33.9,3.9,3.1,2.525,0.7372138990030483,-0.009194208045442636,0.6644124355871776,0.003983807797635877,-0.065954,-39.982482
11.185,2.0,1.0,1.0,34.0,33.9,33.9,3.9,3.1,2.5275,0.7321168296500838,-0.00935593831010436,0.6699084955209649,0.0039605890952345395,-0.066641,-39.862368
11.185,2.0,1.0,1.0,34.0,33.9,33.9,3.9,3.1,2.53,0.7269522686211909,-0.009520264573915938,0.6753919673652565,0.00393556761488509,-0.06734,-39.741859
11.185,2.0,1.0,1.0,34.0,33.9,33.9,3.9,3.1,2.5325,0.7217195428143852,-0.00968723306280692,0.6808622850733738,0.003908682754503059,-0.068052,-39.620945
11.185,2.0,1.0,1.0,34.0,33.9,33.9,3.9,3.1,2.535,0.7164179708996089,-0.009856890981759917,0.6863188664106403,0.0038798718031581637,-0.068777,-39.499618
11.185,2.0,1.0,1.0,34.0,33.9,33.9,3.9,3.1,2.5375,0.7110468632885318,-0.010029286538395504,0.6917611124751587,0.0038490698578229105,-0.069515,-39.377869
11.185,2.0,1.0,1.0,34.0,33.9,33.9,3.9,3.1,2.54,0.7056055221086257,-0.010204468967192943,0.6971884072042059,0.00381620973633945,-0.070266,-39.255689
11.185,2.0,1.0,1.0,34.0,33.9,33.9,3.9,3.1,2.5425,0.70009324118179,-0.010382488554365956,0.7026001168657727,0.0037812218864053853,-0.071031,-39.133067
11.185,2.0,1.0,1.0,34.0,33.9,33.9,3.9,3.1,2.545,0.6945093060078383,-0.010563396663413278,0.7079955895347874,0.003744034290366615,-0.071811,-39.009995
11.185,2.0,1.0,1.0,34.0,33.9,33.9,3.9,3.1,2.5475,0.6888529937531588,-0.010747245761364245,0.7133741545535267,0.0037045723655928704,-0.072605,-38.886462
11.185,2.0,1.0,1.0,34.0,33.9,33.9,3.9,3.1,2.55,0.6831235732448709,-0.010934089445740822,0.718735121975722,0.0036627588601968616,-0.073413,-38.76246
11.185,2.0,1.0,1.0,34.0,33.9,33.9,3.9,3.1,2.5525,0.677320304970844,-0.011123982472257155,0.7240777819938145,0.003618513743843678,-0.074238,-38.637976
11.185,2.0,1.0,1.0,34.0,33.9,33.9,3.9,3.1,2.555,0.6714424410859208,-0.011316980783279492,0.7294014043488382,0.003571754093380488,-0.075077,-38.513003
11.185,2.0,1.0,1.0,34.0,33.9,33.9,3.9,3.1,2.5575,0.6654892254247395,-0.011513141537068864,0.734705237722356,0.003522393972999371,-0.075933,-38.387528
11.185,2.0,1.0,1.0,34.0,33.9,33.9,3.9,3.1,2.56,0.6594598935215501,-0.011712523137830402,0.7399885091098611,0.0034703443086279906,-0.076805,-38.261541
11.185,2.0,1.0,1.0,34.0,33.9,33.9,3.9,3.1,2.5625,0.653353672637447,-0.011915185266593133,0.7452504231750431,0.003415512756222408,-0.077695,-38.135031
11.185,2.0,1.0,1.0,34.0,33.9,33.9,3.9,3.1,2.565,0.6471697817954484,-0.01212118891294517,0.7504901615842832,0.0033578035636153422,-0.078601,-38.007988
11.185,2.0,1.0,1.0,34.0,33.9,33.9,3.9,3.1,2.5675,0.6409074318238928,-0.012330596407649216,0.7557068823207211,0.0032971174255499005,-0.079525,-37.8804
11.185,2.0,1.0,1.0,34.0,33.9,33.9,3.9,3.1,2.57,0.6345658254086255,-0.012543471456164572,0.7608997189772112,0.003233351331504127,-0.080468,-37.752255
11.185,2.0,1.0,1.0,34.0,33.9,33.9,3.9,3.1,2.5725,0.6281441571544797,-0.01275987917310187,0.7660677800274638,0.0031663984058852516,-0.081429,-37.623542
11.185,2.0,1.0,1.0,34.0,33.9,33.9,3.9,3.1,2.575,0.6216416136565789,-0.012979886117636938,0.7712101480746182,0.0030961477401434145,-0.08241,-37.494249
11.185,2.0,1.0,1.0,34.0,33.9,33.9,3.9,3.1,2.5775,0.6150573735820158,-0.013203560329911166,0.7763258790764901,0.003022484216323985,-0.08341,-37.364363
11.185,2.0,1.0,1.0,34.0,33.9,33.9,3.9,3.1,2.58,0.6083906077624827,-0.013430971368445822,0.7814140015466711,0.002945288321544031,-0.08443,-37.233872
11.185,2.0,1.0,1.0,34.0,33.9,33.9,3.9,3.1,2.5825,0.6016404792984508,-0.013662190348597636,0.786473515730658,0.0028644359528423842,-0.085472,-37.102763
11.185,2.0,1.0,1.0,34.0,33.9,33.9,3.9,3.1,2.585,0.594806143675542,-0.013897289982083267,0.7915033927561181,0.0027797982118136716,-0.086534,-36.971023
11.185,2.0,1.0,1.0,34.0,33.9,33.9,3.9,3.1,2.5875,0.5878867488937398,-0.014136344617600655,0.7965025737563811,0.002691241188394918,-0.087619,-36.838639
11.185,2.0,1.0,1.0,34.0,33.9,33.9,3.9,3.1,2.59,0.58088143561014,-0.014379430282573833,0.8014699689661874,0.0025986257331267874,-0.088726,-36.705597
11.185,2.0,1.0,1.0,34.0,33.9,33.9,3.9,3.1,2.5925,0.5737893372959549,-0.01462662472604858,0.8064044567886958,0.0025018072171634023,-0.089856,-36.571882
11.185,2.0,1.0,1.0,34.0,33.9,33.9,3.9,3.1,2.595,0.566609580408538,-0.014878007462764346,0.8113048828326704,0.002400635279249898,-0.091011,-36.437481
11.185,2.0,1.0,1.0,34.0,33.9,33.9,3.9,3.1,2.5975,0.5593412845792027,-0.01513365981842814,0.8161700589187616,0.002294953558829617,-0.09219,-36.30238
11.185,2.0,1.0,1.0,34.0,33.9,33.9,3.9,3.1,2.6,0.5519835628176658,-0.015393664976213568,0.8209987620536998,0.00218459941437951,-0.093394,-36.166562
11.185,2.0,1.0,1.0,34.0,33.9,33.9,3.9,3.1,2.6025,0.5445355217339871,-0.015658108024506567,0.8257897333711559,0.002069403626003987,-0.094624,-36.030012
11.185,2.0,1.0,1.0,34.0,33.9,33.9,3.9,3.1,2.605,0.5369962617788889,-0.015927076005918275,0.8305416770380044,0.001949190081242909,-0.095881,-35.892715
11.185,2.0,1.0,1.0,34.0,33.9,33.9,3.9,3.1,2.6075,0.5293648775034097,-0.016200657967580696,0.8352532591245869,0.0018237754429690487,-0.097166,-35.754655
11.185,2.0,1.0,1.0,34.0,33.9,33.9,3.9,3.1,2.61,0.5216404578388761,-0.016478945012738607,0.8399231064375428,0.0016929687981615139,-0.098479,-35.615814
11.185,2.0,1.0,1.0,34.0,33.9,33.9,3.9,3.1,2.6125,0.5138220863982152,-0.016762030353646845,0.8445498053136746,0.0015565712862465875,-0.099821,-35.476177
11.185,2.0,1.0,1.0,34.0,33.9,33.9,3.9,3.1,2.615,0.5059088417996861,-0.017050009365776154,0.8491319003732197,0.0014143757055919898,-0.101193,-35.335724
11.185,2.0,1.0,1.0,34.0,33.9,33.9,3.9,3.1,2.6175,0.4978997980141615,-0.017342979643324853,0.853667893230799,0.0012661660966273112,-0.102597,-35.194439
11.185,2.0,1.0,1.0,34.0,33.9,33.9,3.9,3.1,2.62,0.4897940247371292,-0.017641041056026308,0.8581562411622111,0.0011117172999382586,-0.104032,-35.052303
11.185,2.0,1.0,1.0,34.0,33.9,33.9,3.9,3.1,2.6225,0.4815905877866422,-0.01794429580723301,0.8625953557251216,0.0009507944875461627,-0.105501,-34.909296
11.185,2.0,1.0,1.0,34.0,33.9,33.9,3.9,3.1,2.625,0.473288549528525,-0.0182528484932468,0.866983601331547,0.000783152665435501,-0.107003,-34.765399
11.185,2.0,1.0,1.0,34.0,33.9,33.9,3.9,3.1,2.6275,0.46488696933015383,-0.018566806163853682,0.8713192937699253,0.0006085361452292002,-0.108541,-34.620593
11.185,2.0,1.0,1.0,34.0,33.9,33.9,3.9,3.1,2.63,0.45638490404425197,-0.018886278384005167,0.8756006986743695,0.00042667798273185285,-0.110115,-34.474856
11.185,2.0,1.0,1.0,34.0,33.9,33.9,3.9,3.1,2.6325,0.44778140852416315,-0.01921137729657163,0.879826029938558,0.00023729938086629828,-0.111727,-34.328167
11.185,2.0,1.0,1.0,34.0,33.9,33.9,3.9,3.1,2.635,0.43907553617216344,-0.01954221768607221,0.8839934480715088,4.01090543129517e-05,-0.113377,-34.180505
11.185,2.0,1.0,1.0,34.0,33.9,33.9,3.9,3.1,2.6375,0.43026633952244403,-0.019878917043261446,0.8881010584922836,-0.0001651974470750469,-0.115068,-34.031846
11.185,2.0,1.0,1.0,34.0,33.9,33.9,3.9,3.1,2.64,0.4213528708604592,-0.020221595630425575,0.8921469097604394,-0.0003789384592675345,-0.116799,-33.882167
11.185,2.0,1.0,1.0,34.0,33.9,33.9,3.9,3.1,2.6425,0.41233418288046103,-0.020570376547206577,0.8961289917387825,-0.0006014469729372393,-0.118574,-33.731444
11.185,2.0,1.0,1.0,34.0,33.9,33.9,3.9,3.1,2.645,0.4032093293830945,-0.020925385796735238,0.9000452336847079,-0.0008330714540122786,-0.120393,-33.579653
11.185,2.0,1.0,1.0,34.0,33.9,33.9,3.9,3.1,2.6475,0.3939773660150662,-0.02128675235180772,0.9038935022660898,-0.0010741767200373546,-0.122258,-33.426767
11.185,2.0,1.0,1.0,34.0,33.9,33.9,3.9,3.1,2.65,0.38463735105296243,-0.021654608220788917,0.907671599497356,-0.0013251448768653966,-0.12417,-33.27276
11.185,2.0,1.0,1.0,34.0,33.9,33.9,3.9,3.1,2.6525,0.37518834623348346,-0.02202908851286224,0.9113772605909732,-0.001586376320622894,-0.126132,-33.117606
11.185,2.0,1.0,1.0,34.0,33.9,33.9,3.9,3.1,2.655,0.3656294176324078,-0.0224103315021757,0.9150081517191815,-0.0018582908103655926,-0.128144,-32.961275
11.185,2.0,1.0,1.0,34.0,33.9,33.9,3.9,3.1,2.6575,0.35595963659481233,-0.02279847869034875,0.9185618676802936,-0.0021413286173579734,-0.130209,-32.803738
11.185,2.0,1.0,1.0,34.0,33.9,33.9,3.9,3.1,2.66,0.34617808071918255,-0.023193674866707214,0.9220359294634163,-0.0024359517574890576,-0.13233,-32.644966
11.185,2.0,1.0,1.0,34.0,33.9,33.9,3.9,3.1,2.6625,0.33628383489827307,-0.023596068165498817,0.9254277817047786,-0.002742645313975706,-0.134507,-32.484926
11.185,2.0,1.0,1.0,34.0,33.9,33.9,3.9,3.1,2.665,0.3262759924196977,-0.02400581011920977,0.9287347900282926,-0.0030619188582160124,-0.136743,-32.323587
11.185,2.0,1.0,1.0,34.0,33.9,33.9,3.9,3.1,2.6675,0.31615365612953167,-0.024423055706945196,0.9319542382621457,-0.003394307977446822,-0.13904,-32.160914
11.185,2.0,1.0,1.0,34.0,33.9,33.9,3.9,3.1,2.67,0.30591593966237507,-0.02484796339665709,0.9350833255224814,-0.00374037591873963,-0.141402,-31.996874
11.185,2.0,1.0,1.0,34.0,33.9,33.9,3.9,3.1,2.6725,0.2955619687416347,-0.025280695179789904,0.9381191631542574,-0.004100715359851411,-0.143829,-31.831429
11.185,2.0,1.0,1.0,34.0,33.9,33.9,3.9,3.1,2.675,0.2850908825540853,-0.02572141659666502,0.9410587715183681,-0.004475950318543604,-0.146326,-31.664542
11.185,2.0,1.0,1.0,34.0,33.9,33.9,3.9,3.1,2.6775,0.2745018352031096,-0.026170296750638478,0.943899076612946,-0.004866738213205918,-0.148895,-31.496175
11.185,2.0,1.0,1.0,34.0,33.9,33.9,3.9,3.1,2.68,0.26379399724541164,-0.026627508308723596,0.9466369065154623,-0.005273772088994133,-0.151539,-31.326287
11.185,2.0,1.0,1.0,34.0,33.9,33.9,3.9,3.1,2.6825,0.25296655731646445,-0.02709322748597514,0.9492689876307934,-0.0056977830252254134,-0.15426,-31.154835
11.185,2.0,1.0,1.0,34.0,33.9,33.9,3.9,3.1,2.685,0.24201872385044013,-0.02756763401046556,0.9517919407287608,-0.006139542741497659,-0.157063,-30.981776
11.185,2.0,1.0,1.0,34.0,33.9,33.9,3.9,3.1,2.6875,0.23094972690099935,-0.0280509110651377,0.9542022767527972,-0.00659986642193347,-0.159952,-30.807065
11.185,2.0,1.0,1.0,34.0,33.9,33.9,3.9,3.1,2.69,0.21975882006999864,-0.028543245202176926,0.9564963923792853,-0.0070796157791256295,-0.162929,-30.630653
11.185,2.0,1.0,1.0,34.0,33.9,33.9,3.9,3.1,2.6925,0.20844528255193845,-0.029044826224793298,0.9586705653047627,-0.007579702381812059,-0.165999,-30.452493
11.185,2.0,1.0,1.0,34.0,33.9,33.9,3.9,3.1,2.695,0.1970084213029685,-0.029555847030416124,0.9607209492354751,-0.008101091273068784,-0.169166,-30.272531
11.185,2.0,1.0,1.0,34.0,33.9,33.9,3.9,3.1,2.6975,0.1854475733442712,-0.030076503408261637,0.9626435685507189,-0.008644804908934368,-0.172434,-30.090715
11.185,2.0,1.0,1.0,34.0,33.9,33.9,3.9,3.1,2.7,0.17376210821097904,-0.03060699378300041,0.964434312607981,-0.009211927450903202,-0.175809,-29.906988
11.185,2.0,1.0,1.0,34.0,33.9,33.9,3.9,3.1,2.7025,0.16195143055921646,-0.03114751889479914,0.9660889296539055,-0.009803609449726799,-0.179296,-29.721293
11.185,2.0,1.0,1.0,34.0,33.9,33.9,3.9,3.1,2.705,0.15001498294563026,-0.03169828140429095,0.9676030203007021,-0.010421072962490511,-0.1829,-29.533567
11.185,2.0,1.0,1.0,34.0,33.9,33.9,3.9,3.1,2.7075,0.13795224879580179,-0.03225948540899274,0.968972030522478,-0.011065617150085867,-0.186628,-29.343746
11.185,2.0,1.0,1.0,34.0,33.9,33.9,3.9,3.1,2.71,0.1257627555804076,-0.03283133585527228,0.970191244120167,-0.011738624408053582,-0.190484,-29.151765
11.185,2.0,1.0,1.0,34.0,33.9,33.9,3.9,3.1,2.7125,0.11344607822080897,-0.03341403782710105,0.9712557745971188,-0.012441567090447534,-0.194477,-28.957552
11.185,2.0,1.0,1.0,34.0,33.9,33.9,3.9,3.1,2.715,0.10100184274922741,-0.03400779568941452,0.972160556379771,-0.0131760148939859,-0.198613,-28.761035
11.185,2.0,1.0,1.0,34.0,33.9,33.9,3.9,3.1,2.7175,0.08842973025269771,-0.034612812059833534,0.9729003353091532,-0.013943642978460093,-0.202901,-28.562135
11.185,2.0,1.0,1.0,34.0,33.9,33.9,3.9,3.1,2.72,0.07572948113484831,-0.03522928657764371,0.9734696583189778,-0.014746240909337354,-0.207348,-28.360774
11.185,2.0,1.0,1.0,34.0,33.9,33.9,3.9,3.1,2.7225,0.06290089973533612,-0.035857414433119114,0.973862862204592,-0.015585722519923548,-0.211964,-28.156866
11.185,2.0,1.0,1.0,34.0,33.9,33.9,3.9,3.1,2.725,0.049943859353772,-0.0364973846133077,0.9740740613738643,-0.016464136803573563,-0.216758,-27.950321
11.185,2.0,1.0,1.0,34.0,33.9,33.9,3.9,3.1,2.7275,0.03685830773324738,-0.03714937781203401,0.9740971344558347,-0.01738367996154463,-0.221741,-27.741047
11.185,2.0,1.0,1.0,34.0,33.9,33.9,3.9,3.1,2.73,0.02364427306865757,-0.0378135639417965,0.9739257096254478,-0.018346708749487503,-0.226924,-27.528944
11.185,2.0,1.0,1.0,34.0,33.9,33.9,3.9,3.1,2.7325,0.010301870617181375,-0.03849009917309006,0.9735531484822814,-0.01935575528566578,-0.23232,-27.313909
11.185,2.0,1.0,1.0,34.0,33.9,33.9,3.9,3.1,2.735,-0.0031686899971217646,-0.039179122411987025,0.9729725282977574,-0.02041354350722637,-0.237942,-27.095833
11.185,2.0,1.0,1.0,34.0,33.9,33.9,3.9,3.1,2.7375,-0.016767096674753974,-0.039880751108998795,0.9721766224179693,-0.02152300748775964,-0.243805,-26.8746
11.185,2.0,1.0,1.0,34.0,33.9,33.9,3.9,3.1,2.74,-0.030492925796811465,-0.04059507627059378,0.9711578785776125,-0.022687311860612666,-0.249924,-26.650089
11.185,2.0,1.0,1.0,34.0,33.9,33.9,3.9,3.1,2.7425,-0.04434563208773678,-0.04132215651837277,0.9699083948436167,-0.023909874628719224,-0.256316,-26.42217
11.185,2.0,1.0,1.0,34.0,33.9,33.9,3.9,3.1,2.745,-0.058324537194662164,-0.04206201100868158,0.9684198928641556,-0.02519439268395524,-0.263002,-26.190709
11.185,2.0,1.0,1.0,34.0,33.9,33.9,3.9,3.1,2.7475,-0.07242881675358982,-0.042814610985964556,0.9666836880485304,-0.02654487040830111,-0.27,-25.955561
11.185,2.0,1.0,1.0,34.0,33.9,33.9,3.9,3.1,2.75,-0.0866574856640368,-0.0435798696946542,0.964690656244903,-0.0279656517866194,-0.277335,-25.716574
11.185,2.0,1.0,1.0,34.0,33.9,33.9,3.9,3.1,2.7525,-0.10100938123371662,-0.04435763031461244,0.962431196414283,-0.029461456528140254,-0.28503,-25.473586
11.185,2.0,1.0,1.0,34.0,33.9,33.9,3.9,3.1,2.755,-0.11548314378053552,-0.04514765151122284,0.9598951887188414,-0.031037420772529998,-0.293114,-25.226426
11.185,2.0,1.0,1.0,34.0,33.9,33.9,3.9,3.1,2.7575,-0.13007719418706623,-0.045949590099561,0.9570719473484353,-0.03269914304879377,-0.301617,-24.974911
11.185,2.0,1.0,1.0,34.0,33.9,33.9,3.9,3.1,2.76,-0.144789707787766,-0.046762980207967444,0.9539501672986054,-0.034452736263650786,-0.310573,-24.718849
11.185,2.0,1.0,1.0,34.0,33.9,33.9,3.9,3.1,2.7625,-0.15961858382580155,-0.04758720818385497,0.9505178641833115,-0.036304886623332394,-0.320019,-24.458032
11.185,2.0,1.0,1.0,34.0,33.9,33.9,3.9,3.1,2.765,-0.17456140953641558,-0.048421482305975205,0.9467623060129678,-0.03826292054230284,-0.329997,-24.192243
11.185,2.0,1.0,1.0,34.0,33.9,33.9,3.9,3.1,2.7675,-0.18961541768723125,-0.04926479614266514,0.9426699356887218,-0.040334880768109885,-0.340552,-23.921245
11.185,2.0,1.0,1.0,34.0,33.9,33.9,3.9,3.1,2.77,-0.20477743611981528,-0.05011588411181373,0.9382262827530732,-0.0425296131578702,-0.351738,-23.644791
11.185,2.0,1.0,1.0,34.0,33.9,33.9,3.9,3.1,2.7725,-0.22004382747366227,-0.05097316743845496,0.9334158626894398,-0.04485686578377705,-0.363612,-23.362612
11.185,2.0,1.0,1.0,34.0,33.9,33.9,3.9,3.1,2.775,-0.2354104168115223,-0.05183468824777617,0.9282220617737312,-0.04732740232799494,-0.376239,-23.074423
11.185,2.0,1.0,1.0,34.0,33.9,33.9,3.9,3.1,2.7775,-0.250872404273453,-0.05269802894561936,0.9226270051431398,-0.04995313205711246,-0.389694,-22.779918
11.185,2.0,1.0,1.0,34.0,33.9,33.9,3.9,3.1,2.78,-0.2664242591274114,-0.053560213286470176,0.916611405355527,-0.05274725904863578,-0.404061,-22.47877
11.185,2.0,1.0,1.0,34.0,33.9,33.9,3.9,3.1,2.7825,-0.2820595906040084,-0.05441758455895382,0.9101543882617829,-0.055724453781545245,-0.419435,-22.170626
11.185,2.0,1.0,1.0,34.0,33.9,33.9,3.9,3.1,2.785,-0.2977709896329554,-0.05526565506223105,0.9032332925004528,-0.05890105070229662,-0.435924,-21.855109
11.185,2.0,1.0,1.0,34.0,33.9,33.9,3.9,3.1,2.7875,-0.31354983394501207,-0.05609891941122443,0.8958234383504139,-0.06229527593481319,-0.453653,-21.531812
11.185,2.0,1.0,1.0,34.0,33.9,33.9,3.9,3.1,2.79,-0.32938604684065964,-0.056910622070304395,0.8878978610531895,-0.0659275099077735,-0.472764,-21.200298
11.185,2.0,1.0,1.0,34.0,33.9,33.9,3.9,3.1,2.7925,-0.3452677970850227,-0.05769246670638054,0.8794270030661854,-0.0698205902998738,-0.493423,-20.860095
11.185,2.0,1.0,1.0,34.0,33.9,33.9,3.9,3.1,2.795,-0.36118112363809796,-0.058434251246236905,0.8703783590811904,-0.07400016130384905,-0.51582,-20.510696
11.185,2.0,1.0,1.0,34.0,33.9,33.9,3.9,3.1,2.7975,-0.37710946395660205,-0.059123407610846675,0.8607160671308586,-0.07849507569086425,-0.540178,-20.151553
11.185,2.0,1.0,1.0,34.0,33.9,33.9,3.9,3.1,2.8,-0.39303305798332266,-0.05974441856117025,0.8504004388712775,-0.08333785635688006,-0.566757,-19.782075
11.185,2.0,1.0,1.0,34.0,33.9,33.9,3.9,3.1,2.8025,-0.40892819108994094,-0.06027807535314374,0.8393874224489121,-0.08856522367515901,-0.595864,-19.401623
11.185,2.0,1.0,1.0,34.0,33.9,33.9,3.9,3.1,2.805,-0.4247662273699593,-0.06070052818523932,0.82762799270296,-0.09421869359913548,-0.627859,-19.00951
11.185,2.0,1.0,1.0,34.0,33.9,33.9,3.9,3.1,2.8075,-0.4405123687162584,-0.06098206567413502,0.8150674665992239,-0.10034524828313529,-0.663173,-18.604993
11.185,2.0,1.0,1.0,34.0,33.9,33.9,3.9,3.1,2.81,-0.45612405362007313,-0.06108553839262479,0.8016447480303925,-0.1069980747341102,-0.70232,-18.187273
11.185,2.0,1.0,1.0,34.0,33.9,33.9,3.9,3.1,2.8125,-0.471548880679608,-0.0609643129665908,0.787291517580333,-0.114237355564858,-0.745918,-17.755493
11.185,2.0,1.0,1.0,34.0,33.9,33.9,3.9,3.1,2.815,-0.4867219029302834,-0.060559604922334066,0.7719314030425923,-0.12213107581679755,-0.794716,-17.308733
11.185,2.0,1.0,1.0,34.0,33.9,33.9,3.9,3.1,2.8175,-0.5015620872407903,-0.059796987398965024,0.7554792011680951,-0.13075577535717042,-0.849627,-16.846017
11.185,2.0,1.0,1.0,34.0,33.9,33.9,3.9,3.1,2.82,-0.5159676646903144,-0.05858180560276597,0.737840279748313,-0.1401971181837908,-0.911768,-16.366314
11.185,2.0,1.0,1.0,34.0,33.9,33.9,3.9,3.1,2.8225,-0.5298100098681995,-0.056793140395309645,0.7189103871861169,-0.1505500528060974,-0.982525,-15.868549
11.185,2.0,1.0,1.0,34.0,33.9,33.9,3.9,3.1,2.825,-0.5429255783870176,-0.05427585774912921,0.6985762593353838,-0.1619181768615058,-1.06362,-15.351624
11.185,2.0,1.0,1.0,34.0,33.9,33.9,3.9,3.1,2.8275,-0.5551053081315511,-0.05083015960790276,0.6767176811328429,-0.1744116542748743,-1.157209,-14.814449
