1,w,sub_t,h,l1,l2,l3,g1,g2,Freq,S11_re,S21_re,S11_img,S21_img,S11_dB,S21_dB
11.185,2.0,1.0,1.0,33.5,33.4,33.4,4.4,2.6,2.5,0.851728619340451,-0.00557739045492678,0.512695546080158,0.00400866332765182,-0.051119,-43.262728
11.185,2.0,1.0,1.0,33.5,33.4,33.4,4.4,2.6,2.5025,0.8482975063992466,-0.005683147089286663,0.5182573528376985,0.004018080006966376,-0.051554,-43.147678
11.185,2.0,1.0,1.0,33.5,33.4,33.4,4.4,2.6,2.505,0.8448156871366387,-0.005790582594366798,0.5238178992636203,0.004026791508061341,-0.051997,-43.032427
11.185,2.0,1.0,1.0,33.5,33.4,33.4,4.4,2.6,2.5075,0.8412826915048911,-0.005899725623572666,0.5293769408740098,0.004034773192297265,-0.052446,-42.916968
11.185,2.0,1.0,1.0,33.5,33.4,33.4,4.4,2.6,2.51,0.8376980426423893,-0.006010605442948869,0.5349342261900493,0.004041999623241268,-0.052903,-42.801292
11.185,2.0,1.0,1.0,33.5,33.4,33.4,4.4,2.6,2.5125,0.8340612567858425,-0.006123251946723691,0.5404894965242799,0.004048444537770738,-0.053367,-42.685392
11.185,2.0,1.0,1.0,33.5,33.4,33.4,4.4,2.6,2.515,0.8303718431821778,-0.006237695673316065,0.5460424857604256,0.004054080816002793,-0.053838,-42.569262
11.185,2.0,1.0,1.0,33.5,33.4,33.4,4.4,2.6,2.5175,0.8266293040001913,-0.006353967821821376,0.5515929201265602,0.004058880449995458,-0.054318,-42.452893
11.185,2.0,1.0,1.0,33.5,33.4,33.4,4.4,2.6,2.52,0.8228331342419959,-0.006472100268993564,0.5571405179614258,0.0040628145111633535,-0.054805,-42.336277
11.185,2.0,1.0,1.0,33.5,33.4,33.4,4.4,2.6,2.5225,0.8189828216543401,-0.006592125586741354,0.5626849894736607,0.004065853116347613,-0.055301,-42.219408
11.185,2.0,1.0,1.0,33.5,33.4,33.4,4.4,2.6,2.525,0.8150778466398486,-0.006714077060157885,0.5682260364937336,0.004067965392477,-0.055805,-42.102278
11.185,2.0,1.0,1.0,33.5,33.4,33.4,4.4,2.6,2.5275,0.8111176821682505,-0.006837988706103224,0.5737633522183441,0.004069119439753106,-0.056317,-41.984877
11.185,2.0,1.0,1.0,33.5,33.4,33.4,4.4,2.6,2.53,0.8071017936876761,-0.006963895292360426,0.5792966209470447,0.00406928229328925,-0.056838,-41.8672
11.185,2.0,1.0,1.0,33.5,33.4,33.4,4.4,2.6,2.5325,0.803029639036086,-0.007091832357386719,0.5848255178108391,0.004068419883128871,-0.057368,-41.749238
11.185,2.0,1.0,1.0,33.5,33.4,33.4,4.4,2.6,2.535,0.7989006683529163,-0.007221836230682535,0.590349708492506,0.004066496992565138,-0.057906,-41.630982
11.185,2.0,1.0,1.0,33.5,33.4,33.4,4.4,2.6,2.5375,0.7947143239910294,-0.007353944053801528,0.5958688489383688,0.004063477214678531,-0.058454,-41.512424
11.185,2.0,1.0,1.0,33.5,33.4,33.4,4.4,2.6,2.54,0.7904700404290524,-0.007488193802026814,0.6013825850612482,0.004059322907005514,-0.059012,-41.393557
11.185,2.0,1.0,1.0,33.5,33.4,33.4,4.4,2.6,2.5425,0.7861672441842025,-0.007624624306738939,0.6068905524343076,0.004053995144245757,-0.059579,-41.274372
11.185,2.0,1.0,1.0,33.5,33.4,33.4,4.4,2.6,2.545,0.7818053537256986,-0.0077632752785027,0.6123923759755014,0.004047453668910121,-0.060156,-41.15486
11.185,2.0,1.0,1.0,33.5,33.4,33.4,4.4,2.6,2.5475,0.7773837793888708,-0.0079041873309011,0.6178876696223077,0.00403965683980662,-0.060743,-41.035013
11.185,2.0,1.0,1.0,33.5,33.4,33.4,4.4,2.6,2.55,0.7729019232900708,-0.008047402005146483,0.6233760359964535,0.0040305615782546085,-0.061341,-40.914822
11.185,2.0,1.0,1.0,33.5,33.4,33.4,4.4,2.6,2.5525,0.7683591792425168,-0.00819296179549944,0.6288570660582762,0.004020123311912404,-0.061949,-40.794279
11.185,2.0,1.0,1.0,33.5,33.4,33.4,4.4,2.6,2.555,0.7637549326731864,-0.008340910175528566,0.6343303387504061,0.004008295916095187,-0.062568,-40.673374
11.185,2.0,1.0,1.0,33.5,33.4,33.4,4.4,2.6,2.5575,0.7590885605408968,-0.008491291625245357,0.6397954206304113,0.003995031652454284,-0.063197,-40.552099
11.185,2.0,1.0,1.0,33.5,33.4,33.4,4.4,2.6,2.56,0.7543594312557163,-0.008644151659149762,0.6452518654920346,0.003980281104880172,-0.063839,-40.430444
11.185,2.0,1.0,1.0,33.5,33.4,33.4,4.4,2.6,2.5625,0.7495669045998494,-0.00879953685522462,0.650699213974654,0.0039639931124837375,-0.064491,-40.3084
11.185,2.0,1.0,1.0,33.5,33.4,33.4,4.4,2.6,2.565,0.7447103316501553,-0.00895749488491849,0.6561369931605758,0.003946114699501213,-0.065156,-40.185958
11.185,2.0,1.0,1.0,33.5,33.4,33.4,4.4,2.6,2.5675,0.7397890547024697,-0.00911807454415819,0.6615647161597444,0.003926591001959115,-0.065833,-40.063108
11.185,2.0,1.0,1.0,33.5,33.4,33.4,4.4,2.6,2.57,0.7348024071978972,-0.009281325785435291,0.6669818816814602,0.0039053651909252834,-0.066522,-39.93984
11.185,2.0,1.0,1.0,33.5,33.4,33.4,4.4,2.6,2.5725,0.7297497136512624,-0.009447299751012193,0.6723879735926644,0.00388237839216049,-0.067224,-39.816144
11.185,2.0,1.0,1.0,33.5,33.4,33.4,4.4,2.6,2.575,0.7246302895819089,-0.009616048807296442,0.6777824604623349,0.003857569601975172,-0.067939,-39.69201
11.185,2.0,1.0,1.0,33.5,33.4,33.4,4.4,2.6,2.5775,0.7194434414470564,-0.00978762658043392,0.683164795091527,0.003830875599081675,-0.068668,-39.567429
11.185,2.0,1.0,1.0,33.5,33.4,33.4,4.4,2.6,2.58,0.7141884665779245,-0.009962087993174535,0.6885344140285627,0.0038022308522198817,-0.06941,-39.442389
11.185,2.0,1.0,1.0,33.5,33.4,33.4,4.4,2.6,2.5825,0.7088646531188496,-0.010139489303066806,0.6938907370688698,0.0037715674233197737,-0.070166,-39.316881
11.185,2.0,1.0,1.0,33.5,33.4,33.4,4.4,2.6,2.585,0.7034712799696315,-0.010319888142040727,0.6992331667389311,0.0037388148659490625,-0.070937,-39.190893
11.185,2.0,1.0,1.0,33.5,33.4,33.4,4.4,2.6,2.5875,0.6980076167313565,-0.010503343557441263,0.7045610877638043,0.003703900118776783,-0.071722,-39.064414
11.185,2.0,1.0,1.0,33.5,33.4,33.4,4.4,2.6,2.59,0.692472923655962,-0.01068991605457839,0.70987386651763,0.0036667473937672906,-0.072523,-38.937433
11.185,2.0,1.0,1.0,33.5,33.4,33.4,4.4,2.6,2.5925,0.6868664515998086,-0.01087966764086316,0.7151708504565395,0.003627278058798616,-0.073339,-38.80994
11.185,2.0,1.0,1.0,33.5,33.4,33.4,4.4,2.6,2.595,0.6811874419815583,-0.011072661871602631,0.7204513675333303,0.00358541051437941,-0.074171,-38.681921
11.185,2.0,1.0,1.0,33.5,33.4,33.4,4.4,2.6,2.5975,0.6754351267446481,-0.01126896389753113,0.725714725593275,0.0035410600641160857,-0.075019,-38.553366
11.185,2.0,1.0,1.0,33.5,33.4,33.4,4.4,2.6,2.6,0.6696087283246775,-0.011468640514159014,0.730960211750376,0.003494138778558002,-0.075885,-38.424262
11.185,2.0,1.0,1.0,33.5,33.4,33.4,4.4,2.6,2.6025,0.66370745962205,-0.011671760213024494,0.7361870917433622,0.0034445553520225172,-0.076767,-38.294598
11.185,2.0,1.0,1.0,33.5,33.4,33.4,4.4,2.6,2.605,0.6577305239802,-0.011878393234939522,0.7413946092706958,0.0033922149519743,-0.077667,-38.164359
11.185,2.0,1.0,1.0,33.5,33.4,33.4,4.4,2.6,2.6075,0.6516771151697763,-0.012088611625324682,0.746581985303811,0.0033370190605023593,-0.078586,-38.033535
11.185,2.0,1.0,1.0,33.5,33.4,33.4,4.4,2.6,2.61,0.6455464173791663,-0.01230248929173424,0.7517484173777791,0.0032788653074068605,-0.079523,-37.902111
11.185,2.0,1.0,1.0,33.5,33.4,33.4,4.4,2.6,2.6125,0.6393376052117447,-0.012520102063677567,0.7568930788585577,0.0032176472943711712,-0.080479,-37.770074
11.185,2.0,1.0,1.0,33.5,33.4,33.4,4.4,2.6,2.615,0.6330498436902711,-0.01274152775484939,0.7620151181859386,0.0031532544096579173,-0.081455,-37.637411
11.185,2.0,1.0,1.0,33.5,33.4,33.4,4.4,2.6,2.6175,0.62668228826887,-0.012966846227887312,0.7671136580912599,0.0030855716327252408,-0.082451,-37.504107
11.185,2.0,1.0,1.0,33.5,33.4,33.4,4.4,2.6,2.62,0.6202340848530449,-0.013196139461781711,0.7721877947889119,0.003014479328115591,-0.083468,-37.370148
11.185,2.0,1.0,1.0,33.5,33.4,33.4,4.4,2.6,2.6225,0.6137043698281944,-0.013429491622070548,0.777236597140613,0.002939853027920209,-0.084506,-37.23552
11.185,2.0,1.0,1.0,33.5,33.4,33.4,4.4,2.6,2.625,0.607092270097141,-0.013666989133958,0.782259105791368,0.00286156320207009,-0.085567,-37.100208
11.185,2.0,1.0,1.0,33.5,33.4,33.4,4.4,2.6,2.6275,0.6003969031271682,-0.013908720758505015,0.787254332275985,0.002779475015646879,-0.08665,-36.964195
11.185,2.0,1.0,1.0,33.5,33.4,33.4,4.4,2.6,2.63,0.5936173770071201,-0.014154777672046419,0.7922212580949438,0.0026934480723440108,-0.087756,-36.827467
11.185,2.0,1.0,1.0,33.5,33.4,33.4,4.4,2.6,2.6325,0.5867527905151166,-0.014405253548999769,0.7971588337583586,0.0026033361431424527,-0.088887,-36.690008
11.185,2.0,1.0,1.0,33.5,33.4,33.4,4.4,2.6,2.635,0.5798022331974705,-0.014660244648237885,0.8020659777966928,0.0025089868791888814,-0.090042,-36.5518
11.185,2.0,1.0,1.0,33.5,33.4,33.4,4.4,2.6,2.6375,0.5727647854594281,-0.014919849903208599,0.8069415757368129,0.002410241507786243,-0.091223,-36.412826
11.185,2.0,1.0,1.0,33.5,33.4,33.4,4.4,2.6,2.64,0.5656395186683465,-0.015184171015994235,0.8117844790418917,0.002306934510316813,-0.09243,-36.27307
11.185,2.0,1.0,1.0,33.5,33.4,33.4,4.4,2.6,2.6425,0.5584254952699917,-0.015453312555513419,0.8165935040135601,0.002198893280822841,-0.093664,-36.132514
11.185,2.0,1.0,1.0,33.5,33.4,33.4,4.4,2.6,2.645,0.5511217689186345,-0.01572738206007951,0.821367430654627,0.0020859377638649825,-0.094926,-35.991139
11.185,2.0,1.0,1.0,33.5,33.4,33.4,4.4,2.6,2.6475,0.543727384621669,-0.016006490144540347,0.8261050014905653,0.0019678800701637468,-0.096217,-35.848926
11.185,2.0,1.0,1.0,33.5,33.4,33.4,4.4,2.6,2.65,0.5362413788994872,-0.01629075061223673,0.8308049203478627,0.0018445240684033869,-0.097537,-35.705856
11.185,2.0,1.0,1.0,33.5,33.4,33.4,4.4,2.6,2.6525,0.5286627799614115,-0.01658028057202763,0.8354658510871728,0.001715664951441658,-0.098888,-35.561908
11.185,2.0,1.0,1.0,33.5,33.4,33.4,4.4,2.6,2.655,0.5209906078984656,-0.016875200560644173,0.8400864162891069,0.001581088775015126,-0.10027,-35.417063
11.185,2.0,1.0,1.0,33.5,33.4,33.4,4.4,2.6,2.6575,0.5132238748938431,-0.01717563467064574,0.844665195890319,0.0014405719668671066,-0.101685,-35.2713
11.185,2.0,1.0,1.0,33.5,33.4,33.4,4.4,2.6,2.66,0.505361585451938,-0.01748171068426548,0.8492007257673796,0.0012938808040415717,-0.103134,-35.124596
11.185,2.0,1.0,1.0,33.5,33.4,33.4,4.4,2.6,2.6625,0.49740273664686013,-0.017793560213444033,0.853691496265753,0.0011407708558861334,-0.104618,-34.976929
11.185,2.0,1.0,1.0,33.5,33.4,33.4,4.4,2.6,2.665,0.48934631839135645,-0.018111318846365396,0.8581359506709845,0.0009809863900882313,-0.106138,-34.828276
11.185,2.0,1.0,1.0,33.5,33.4,33.4,4.4,2.6,2.6675,0.48119131372715385,-0.018435126300818696,0.862532483618978,0.0008142597388243365,-0.107694,-34.678613
11.185,2.0,1.0,1.0,33.5,33.4,33.4,4.4,2.6,2.67,0.4729366991377224,-0.018765126584724394,0.8668794394420062,0.0006403106218348357,-0.10929,-34.527916
11.185,2.0,1.0,1.0,33.5,33.4,33.4,4.4,2.6,2.6725,0.46458144488453146,-0.01910146816417395,0.871175110446812,0.0004588454229417657,-0.110925,-34.37616
11.185,2.0,1.0,1.0,33.5,33.4,33.4,4.4,2.6,2.675,0.4561245153679187,-0.019444304139341884,0.8754177351208684,0.00026955641619869037,-0.112601,-34.223317
11.185,2.0,1.0,1.0,33.5,33.4,33.4,4.4,2.6,2.6775,0.44756486951371616,-0.01979379242863976,0.87960549626252,7.212093750165433e-05,-0.114321,-34.069362
11.185,2.0,1.0,1.0,33.5,33.4,33.4,4.4,2.6,2.68,0.4389014611868464,-0.020150095961487945,0.8837365190303688,-0.000133799502912353,-0.116084,-33.914266
11.185,2.0,1.0,1.0,33.5,33.4,33.4,4.4,2.6,2.6825,0.43013323963315475,-0.02051338288008533,0.8878088689068427,-0.00034856017209584694,-0.117893,-33.758001
11.185,2.0,1.0,1.0,33.5,33.4,33.4,4.4,2.6,2.685,0.4212591499507889,-0.02088382675056033,0.8918205495704451,-0.0005725341356607914,-0.11975,-33.600535
11.185,2.0,1.0,1.0,33.5,33.4,33.4,4.4,2.6,2.6875,0.41227813359251,-0.0212616067838822,0.895769500670653,-0.000806113354747472,-0.121657,-33.44184
11.185,2.0,1.0,1.0,33.5,33.4,33.4,4.4,2.6,2.69,0.40318912890040015,-0.021646908066904832,0.8996535954988756,-0.0010497098653605532,-0.123614,-33.281882
11.185,2.0,1.0,1.0,33.5,33.4,33.4,4.4,2.6,2.6925,0.393991071674471,-0.022039921803901144,0.9034706385482526,-0.0013037570474227907,-0.125625,-33.120629
11.185,2.0,1.0,1.0,33.5,33.4,33.4,4.4,2.6,2.695,0.38468289577681863,-0.022440845568922937,0.9072183629543392,-0.0015687109916523573,-0.127691,-32.958045
11.185,2.0,1.0,1.0,33.5,33.4,33.4,4.4,2.6,2.6975,0.3752635337730024,-0.022849883569290255,0.9108944278079634,-0.0018450519732203527,-0.129815,-32.794096
11.185,2.0,1.0,1.0,33.5,33.4,33.4,4.4,2.6,2.7,0.3657319176124952,-0.0232672469204682,0.9144964153306105,-0.0021332860420885664,-0.131998,-32.628744
11.185,2.0,1.0,1.0,33.5,33.4,33.4,4.4,2.6,2.7025,0.3560869793501235,-0.023693153932531,0.9180218279017163,-0.0024339467409917087,-0.134244,-32.461951
11.185,2.0,1.0,1.0,33.5,33.4,33.4,4.4,2.6,2.705,0.34632765191059767,-0.0241278304083337,0.9214680849261062,-0.0027475969632144953,-0.136555,-32.293678
11.185,2.0,1.0,1.0,33.5,33.4,33.4,4.4,2.6,2.7075,0.3364528698983663,-0.02457150995341181,0.9248325195285515,-0.003074830963651766,-0.138933,-32.123882
11.185,2.0,1.0,1.0,33.5,33.4,33.4,4.4,2.6,2.71,0.32646157045524515,-0.025024434297500963,0.9281123750609848,-0.0034162765381379467,-0.141382,-31.95252
11.185,2.0,1.0,1.0,33.5,33.4,33.4,4.4,2.6,2.7125,0.31635269416846584,-0.025486853627406336,0.9313048014062931,-0.00377259738772495,-0.143905,-31.779548
11.185,2.0,1.0,1.0,33.5,33.4,33.4,4.4,2.6,2.715,0.30612518603207906,-0.025959026930749068,0.9344068510607821,-0.0041444956864894475,-0.146504,-31.604918
11.185,2.0,1.0,1.0,33.5,33.4,33.4,4.4,2.6,2.7175,0.2957779964649311,-0.026441222349863697,0.9374154749753303,-0.004532714873604587,-0.149184,-31.428583
11.185,2.0,1.0,1.0,33.5,33.4,33.4,4.4,2.6,2.72,0.2853100823888316,-0.026933717544807684,0.9403275181328976,-0.004938042692840095,-0.151948,-31.250491
11.185,2.0,1.0,1.0,33.5,33.4,33.4,4.4,2.6,2.7225,0.2747204083709213,-0.02743680006405727,0.943139714837396,-0.005361314505412293,-0.1548,-31.07059
11.185,2.0,1.0,1.0,33.5,33.4,33.4,4.4,2.6,2.725,0.26400794783483655,-0.02795076772098519,0.9458486836858725,-0.005803416905226568,-0.157744,-30.888823
11.185,2.0,1.0,1.0,33.5,33.4,33.4,4.4,2.6,2.7275,0.2531716843458191,-0.02847592897363311,0.9484509221925127,-0.006265291669106494,-0.160784,-30.705134
11.185,2.0,1.0,1.0,33.5,33.4,33.4,4.4,2.6,2.73,0.2422106129757553,-0.029012603304567987,0.9509428010290147,-0.006747940078640408,-0.163926,-30.519462
11.185,2.0,1.0,1.0,33.5,33.4,33.4,4.4,2.6,2.7325,0.23112374175496841,-0.029561121596734387,0.9533205578413706,-0.00725242765488036,-0.167174,-30.331744
11.185,2.0,1.0,1.0,33.5,33.4,33.4,4.4,2.6,2.735,0.2199100932187447,-0.03012182650013193,0.9555802905979293,-0.007779889352383997,-0.170534,-30.141914
11.185,2.0,1.0,1.0,33.5,33.4,33.4,4.4,2.6,2.7375,0.20856870605787323,-0.03069507278282896,0.957717950417689,-0.008331535265099506,-0.174011,-29.949903
11.185,2.0,1.0,1.0,33.5,33.4,33.4,4.4,2.6,2.74,0.19709863688412071,-0.031281227658205256,0.9597293338209653,-0.00890865690348206,-0.177612,-29.755639
11.185,2.0,1.0,1.0,33.5,33.4,33.4,4.4,2.6,2.7425,0.18549896212351874,-0.031880671078339924,0.9616100743367507,-0.009512634110135209,-0.181344,-29.559044
11.185,2.0,1.0,1.0,33.5,33.4,33.4,4.4,2.6,2.745,0.17376878005274854,-0.03249379598103927,0.963355633392066,-0.010144942690359489,-0.185213,-29.36004
11.185,2.0,1.0,1.0,33.5,33.4,33.4,4.4,2.6,2.7475,0.16190721299684288,-0.03312100847503275,0.9649612903981807,-0.010807162844467404,-0.189228,-29.158543
11.185,2.0,1.0,1.0,33.5,33.4,33.4,4.4,2.6,2.75,0.149913409709996,-0.0337627279442315,0.966422131936544,-0.0115009885008111,-0.193397,-28.954465
11.185,2.0,1.0,1.0,33.5,33.4,33.4,4.4,2.6,2.7525,0.13778654796567413,-0.034419387047481376,0.967733039933292,-0.012228237662456518,-0.197728,-28.747713
11.185,2.0,1.0,1.0,33.5,33.4,33.4,4.4,2.6,2.755,0.12552583738761655,-0.035091431584762,0.9688886786950065,-0.012990863896643862,-0.202232,-28.538189
11.185,2.0,1.0,1.0,33.5,33.4,33.4,4.4,2.6,2.7575,0.11313052255990144,-0.03577932019404385,0.9698834806595301,-0.013790969115000024,-0.206918,-28.325791
11.185,2.0,1.0,1.0,33.5,33.4,33.4,4.4,2.6,2.76,0.10059988646248731,-0.03648352383470372,0.9707116306936775,-0.014630817814371493,-0.2118,-28.110411
11.185,2.0,1.0,1.0,33.5,33.4,33.4,4.4,2.6,2.7625,0.08793325428864927,-0.037204525003149906,0.9713670487440023,-0.015512852973699835,-0.216888,-27.891933
11.185,2.0,1.0,1.0,33.5,33.4,33.4,4.4,2.6,2.765,0.07512999771326398,-0.03794281661362631,0.9718433706167439,-0.016439713832218508,-0.222197,-27.670238
11.185,2.0,1.0,1.0,33.5,33.4,33.4,4.4,2.6,2.7675,0.06218953969634537,-0.038698900461452974,0.9721339266278504,-0.017414255809228864,-0.227741,-27.445198
11.185,2.0,1.0,1.0,33.5,33.4,33.4,4.4,2.6,2.77,0.04911135992545703,-0.03947328516644991,0.9722317178225323,-0.01843957286677502,-0.233537,-27.216676
11.185,2.0,1.0,1.0,33.5,33.4,33.4,4.4,2.6,2.7725,0.035895001024630224,-0.040266483469997554,0.9721293894150663,-0.01951902266484557,-0.239601,-26.984531
11.185,2.0,1.0,1.0,33.5,33.4,33.4,4.4,2.6,2.775,0.022540075687339074,-0.04107900872887247,0.9718192010419445,-0.020656254915699366,-0.245955,-26.74861
11.185,2.0,1.0,1.0,33.5,33.4,33.4,4.4,2.6,2.7775,0.009046274928629154,-0.04191137041105666,0.9712929933533637,-0.021855243411240906,-0.252618,-26.508751
11.185,2.0,1.0,1.0,33.5,33.4,33.4,4.4,2.6,2.78,-0.004586622301377783,-0.04276406835110648,0.970542150387285,-0.023120322277122945,-0.259615,-26.264784
11.185,2.0,1.0,1.0,33.5,33.4,33.4,4.4,2.6,2.7825,-0.018358737840907434,-0.04363758546272402,0.9695575570743106,-0.024456227101930936,-0.266971,-26.016527
11.185,2.0,1.0,1.0,33.5,33.4,33.4,4.4,2.6,2.785,-0.032270081000134364,-0.044532378530483696,0.9683295511073495,-0.025868141702456455,-0.274716,-25.763784
11.185,2.0,1.0,1.0,33.5,33.4,33.4,4.4,2.6,2.7875,-0.04632053273280955,-0.04544886660674386,0.9668478682736775,-0.02736175142037121,-0.28288,-25.50635
11.185,2.0,1.0,1.0,33.5,33.4,33.4,4.4,2.6,2.79,-0.060509826702518955,-0.0463874164178084,0.9651015801839257,-0.02894330400609009,-0.291501,-25.244004
11.185,2.0,1.0,1.0,33.5,33.4,33.4,4.4,2.6,2.7925,-0.07483752649507369,-0.04734832402772232,0.9630790231371785,-0.030619679337698397,-0.300616,-24.976509
11.185,2.0,1.0,1.0,33.5,33.4,33.4,4.4,2.6,2.795,-0.0893029980297786,-0.04833179180861691,0.9607677166269145,-0.03239846945317923,-0.310272,-24.703614
11.185,2.0,1.0,1.0,33.5,33.4,33.4,4.4,2.6,2.7975,-0.10390537596617057,-0.04933789950988834,0.9581542697107279,-0.034288070650812685,-0.320516,-24.425048
11.185,2.0,1.0,1.0,33.5,33.4,33.4,4.4,2.6,2.8,-0.11864352257176618,-0.05036656788693315,0.9552242731275989,-0.036297789745288724,-0.331407,-24.140522
11.185,2.0,1.0,1.0,33.5,33.4,33.4,4.4,2.6,2.8025,-0.13351597708618881,-0.05141751291988052,0.9519621746380197,-0.038437966967372526,-0.343005,-23.849723
11.185,2.0,1.0,1.0,33.5,33.4,33.4,4.4,2.6,2.805,-0.1485208930557998,-0.05249018809179375,0.948351134570088,-0.04072011847679284,-0.355384,-23.552318
11.185,2.0,1.0,1.0,33.5,33.4,33.4,4.4,2.6,2.8075,-0.1636559603771693,-0.05358371146096789,0.9443728579619752,-0.043157102037649324,-0.368625,-23.247947
11.185,2.0,1.0,1.0,33.5,33.4,33.4,4.4,2.6,2.81,-0.17891830781823886,-0.054696773294536316,0.9400073989783616,-0.04576331010178292,-0.38282,-22.936221
11.185,2.0,1.0,1.0,33.5,33.4,33.4,4.4,2.6,2.8125,-0.194304380502146,-0.0558275187504685,0.935232932423732,-0.0485548953790897,-0.398077,-22.616722
11.185,2.0,1.0,1.0,33.5,33.4,33.4,4.4,2.6,2.815,-0.20980978512957152,-0.056973398392136866,0.930025486155382,-0.051550034966689265,-0.414516,-22.288997
11.185,2.0,1.0,1.0,33.5,33.4,33.4,4.4,2.6,2.8175,-0.22542909342769699,-0.058130977041973717,0.924358626991115,-0.054769240282050116,-0.43228,-21.952556
11.185,2.0,1.0,1.0,33.5,33.4,33.4,4.4,2.6,2.82,-0.24115559123473182,-0.05929568841740499,0.9182030912932946,-0.0582357214138809,-0.451533,-21.606868
11.185,2.0,1.0,1.0,33.5,33.4,33.4,4.4,2.6,2.8225,-0.2569809564611925,-0.06046151884892116,0.9115263497881503,-0.06197581606992347,-0.472465,-21.251358
11.185,2.0,1.0,1.0,33.5,33.4,33.4,4.4,2.6,2.825,-0.27289484349573684,-0.06162059774418678,0.9042920943716247,-0.06601949503419972,-0.495301,-20.885403
11.185,2.0,1.0,1.0,33.5,33.4,33.4,4.4,2.6,2.8275,-0.2888843438567387,-0.06276266475241482,0.8964596327414942,-0.07040095786198362,-0.520303,-20.508322
