1,w,sub_t,h,l1,l2,l3,g1,g2,Freq,S11_re,S21_re,S11_img,S21_img,S11_dB,S21_dB
11.185,2.0,1.0,1.0,34.5,34.5,34.5,3.5,3.5,2.5,0.701659468520763,-0.0113653186826196,0.700919891521097,0.00443486307184472,-0.07175,-38.272848
11.185,2.0,1.0,1.0,34.5,34.5,34.5,3.5,3.5,2.5025,0.6959291188586842,-0.011575085006917497,0.7064763090670106,0.004400149540664982,-0.072583,-38.143335
11.185,2.0,1.0,1.0,34.5,34.5,34.5,3.5,3.5,2.505,0.6901227119495124,-0.011788682564574028,0.7120143042456228,0.004362949327245894,-0.073432,-38.013199
11.185,2.0,1.0,1.0,34.5,34.5,34.5,3.5,3.5,2.5075,0.6842394730753419,-0.012006198113516262,0.7175331228540143,0.004323169873887325,-0.074299,-37.882427
11.185,2.0,1.0,1.0,34.5,34.5,34.5,3.5,3.5,2.51,0.6782786180498043,-0.012227721074320925,0.7230319888895382,0.004280714855982363,-0.075184,-37.751002
11.185,2.0,1.0,1.0,34.5,34.5,34.5,3.5,3.5,2.5125,0.672239353163195,-0.01245334363851081,0.7285101038762055,0.004235483999197709,-0.076088,-37.618909
11.185,2.0,1.0,1.0,34.5,34.5,34.5,3.5,3.5,2.515,0.6661208751298572,-0.01268316088247031,0.7339666461678829,0.004187372885986555,-0.07701,-37.486133
11.185,2.0,1.0,1.0,34.5,34.5,34.5,3.5,3.5,2.5175,0.6599223710379137,-0.012917270887331968,0.7394007702273001,0.004136272750692837,-0.077952,-37.352656
11.185,2.0,1.0,1.0,34.5,34.5,34.5,3.5,3.5,2.52,0.6536430183013825,-0.013155774865212373,0.7448116058797888,0.004082070262446301,-0.078914,-37.218463
11.185,2.0,1.0,1.0,34.5,34.5,34.5,3.5,3.5,2.5225,0.6472819846147679,-0.01339877729220159,0.750198257540605,0.0040246472949824015,-0.079896,-37.083537
11.185,2.0,1.0,1.0,34.5,34.5,34.5,3.5,3.5,2.525,0.6408384279101413,-0.013646386048541598,0.7555598034146339,0.003963880682449096,-0.0809,-36.947858
11.185,2.0,1.0,1.0,34.5,34.5,34.5,3.5,3.5,2.5275,0.6343114963167584,-0.013898712566460109,0.7608952946671769,0.0038996419601846416,-0.081926,-36.81141
11.185,2.0,1.0,1.0,34.5,34.5,34.5,3.5,3.5,2.53,0.627700328123235,-0.014155871986160936,0.7662037545644325,0.0038317970893645657,-0.082974,-36.674174
11.185,2.0,1.0,1.0,34.5,34.5,34.5,3.5,3.5,2.5325,0.6210040517422856,-0.014417983320509786,0.7714841775822066,0.0037602061643222727,-0.084045,-36.53613
11.185,2.0,1.0,1.0,34.5,34.5,34.5,3.5,3.5,2.535,0.614221785678005,-0.014685169628994929,0.7767355284812719,0.003684723101244303,-0.085141,-36.397259
11.185,2.0,1.0,1.0,34.5,34.5,34.5,3.5,3.5,2.5375,0.6073526384956714,-0.014957558201585262,0.7819567413476674,0.0036051953068283378,-0.086261,-36.257541
11.185,2.0,1.0,1.0,34.5,34.5,34.5,3.5,3.5,2.54,0.6003957087940054,-0.015235280753157178,0.7871467185961426,0.003521463325367483,-0.087407,-36.116954
11.185,2.0,1.0,1.0,34.5,34.5,34.5,3.5,3.5,2.5425,0.593350085179798,-0.01551847362921197,0.7923043299347787,0.0034333604625874157,-0.088579,-35.975478
11.185,2.0,1.0,1.0,34.5,34.5,34.5,3.5,3.5,2.545,0.5862148462448072,-0.015807278023661935,0.7974284112886938,0.00334071238441256,-0.089779,-35.833089
11.185,2.0,1.0,1.0,34.5,34.5,34.5,3.5,3.5,2.5475,0.5789890605447661,-0.016101840209523596,0.8025177636805526,0.0032433366886705306,-0.091006,-35.689766
11.185,2.0,1.0,1.0,34.5,34.5,34.5,3.5,3.5,2.55,0.5716717865803059,-0.016402311783422958,0.8075711520654472,0.0031410424475616394,-0.092263,-35.545484
11.185,2.0,1.0,1.0,34.5,34.5,34.5,3.5,3.5,2.5525,0.5642620727795957,-0.01670884992488756,0.8125873041174887,0.0030336297185167773,-0.093549,-35.400219
11.185,2.0,1.0,1.0,34.5,34.5,34.5,3.5,3.5,2.555,0.5567589574823837,-0.017021617671479278,0.817564908965246,0.0029208890208435867,-0.094867,-35.253947
11.185,2.0,1.0,1.0,34.5,34.5,34.5,3.5,3.5,2.5575,0.5491614689251254,-0.017340784210904955,0.8225026158729247,0.0028026007753124225,-0.096217,-35.106641
11.185,2.0,1.0,1.0,34.5,34.5,34.5,3.5,3.5,2.56,0.5414686252268054,-0.01766652519133335,0.8273990328638965,0.0026785347035586152,-0.0976,-34.958274
11.185,2.0,1.0,1.0,34.5,34.5,34.5,3.5,3.5,2.5625,0.533679434374985,-0.0179990230512466,0.832252725282896,0.00254844918387365,-0.099017,-34.808819
11.185,2.0,1.0,1.0,34.5,34.5,34.5,3.5,3.5,2.565,0.5257928942115285,-0.018338467370262696,0.8370622142928826,0.0024120905596168884,-0.100471,-34.658246
11.185,2.0,1.0,1.0,34.5,34.5,34.5,3.5,3.5,2.5675,0.5178079924174046,-0.018685055242481832,0.8418259753021728,0.0022691923961056532,-0.101961,-34.506527
11.185,2.0,1.0,1.0,34.5,34.5,34.5,3.5,3.5,2.57,0.5097237064958197,-0.01903899167403836,0.8465424363170456,0.0021194746814193898,-0.103489,-34.353631
11.185,2.0,1.0,1.0,34.5,34.5,34.5,3.5,3.5,2.5725,0.5015390037528739,-0.019400490006678747,0.8512099762145863,0.001962642966087197,-0.105058,-34.199525
11.185,2.0,1.0,1.0,34.5,34.5,34.5,3.5,3.5,2.575,0.4932528412747868,-0.019769772369336507,0.8558269229299749,0.0017983874361066497,-0.106667,-34.044177
11.185,2.0,1.0,1.0,34.5,34.5,34.5,3.5,3.5,2.5775,0.4848641659006305,-0.020147070159839978,0.8603915515519075,0.0016263819131567935,-0.10832,-33.887553
11.185,2.0,1.0,1.0,34.5,34.5,34.5,3.5,3.5,2.58,0.4763719141893494,-0.020532624559067323,0.8649020823191464,0.0014462827752176291,-0.110017,-33.729616
11.185,2.0,1.0,1.0,34.5,34.5,34.5,3.5,3.5,2.5825,0.46777501237969055,-0.020926687080058057,0.8693566785105221,0.0012577277900742293,-0.11176,-33.570331
11.185,2.0,1.0,1.0,34.5,34.5,34.5,3.5,3.5,2.585,0.45907237634149456,-0.02132952015480086,0.8737534442198589,0.0010603348533655558,-0.113552,-33.409659
11.185,2.0,1.0,1.0,34.5,34.5,34.5,3.5,3.5,2.5875,0.45026291151659914,-0.021741397761648157,0.8780904220064321,0.0008537006219136974,-0.115394,-33.24756
11.185,2.0,1.0,1.0,34.5,34.5,34.5,3.5,3.5,2.59,0.44134551284740237,-0.022162606096556375,0.8823655904104986,0.0006373990320319812,-0.117288,-33.083993
11.185,2.0,1.0,1.0,34.5,34.5,34.5,3.5,3.5,2.5925,0.43231906469087755,-0.022593444291622966,0.8865768613223266,0.00041097969134156403,-0.119236,-32.918914
11.185,2.0,1.0,1.0,34.5,34.5,34.5,3.5,3.5,2.595,0.4231824407156103,-0.023034225184682743,0.8907220771918215,0.00017396613130490242,-0.121241,-32.75228
11.185,2.0,1.0,1.0,34.5,34.5,34.5,3.5,3.5,2.5975,0.41393450377908436,-0.023485276144047114,0.8947990080643844,-7.414609380749323e-05,-0.123306,-32.584043
11.185,2.0,1.0,1.0,34.5,34.5,34.5,3.5,3.5,2.6,0.40457410578219644,-0.02394693995281126,0.8988053484269635,-0.00033389147748875514,-0.125432,-32.414155
11.185,2.0,1.0,1.0,34.5,34.5,34.5,3.5,3.5,2.6025,0.395100087497607,-0.024419575757526856,0.9027387138463672,-0.0006058368189941688,-0.127623,-32.242565
11.185,2.0,1.0,1.0,34.5,34.5,34.5,3.5,3.5,2.605,0.3855112783681529,-0.024903560086438653,0.906596637379741,-0.0008905836888310166,-0.129882,-32.069221
11.185,2.0,1.0,1.0,34.5,34.5,34.5,3.5,3.5,2.6075,0.3758064962711833,-0.025399287942912522,0.9103765657346737,-0.0011887711242781227,-0.132211,-31.894066
11.185,2.0,1.0,1.0,34.5,34.5,34.5,3.5,3.5,2.61,0.3659845472442216,-0.025907173980143142,0.9140758551535731,-0.00150107858029671,-0.134614,-31.717044
11.185,2.0,1.0,1.0,34.5,34.5,34.5,3.5,3.5,2.6125,0.3560442251668863,-0.0264276537637216,0.9176917669937754,-0.0018282291644143285,-0.137095,-31.538093
11.185,2.0,1.0,1.0,34.5,34.5,34.5,3.5,3.5,2.615,0.3459843113935157,-0.026961185129163682,0.9212214629711689,-0.002170993187849627,-0.139658,-31.357152
11.185,2.0,1.0,1.0,34.5,34.5,34.5,3.5,3.5,2.6175,0.3358035743304112,-0.027508249642048652,0.9246620000309131,-0.002530192069367206,-0.142306,-31.174153
11.185,2.0,1.0,1.0,34.5,34.5,34.5,3.5,3.5,2.62,0.3255007689510367,-0.028069354168993508,0.928010324804015,-0.002906702633202453,-0.145044,-30.989028
11.185,2.0,1.0,1.0,34.5,34.5,34.5,3.5,3.5,2.6225,0.3150746362419347,-0.02864503256828115,0.9312632676029414,-0.003301461847973415,-0.147877,-30.801704
11.185,2.0,1.0,1.0,34.5,34.5,34.5,3.5,3.5,2.625,0.30452390257153,-0.0292358475095648,0.934417535903047,-0.00371547205992853,-0.150809,-30.612104
11.185,2.0,1.0,1.0,34.5,34.5,34.5,3.5,3.5,2.6275,0.29384727897333823,-0.029842392432678853,0.9374697072491655,-0.004149806781309576,-0.153846,-30.420149
11.185,2.0,1.0,1.0,34.5,34.5,34.5,3.5,3.5,2.63,0.2830434603345449,-0.030465293656170282,0.9404162215181284,-0.0046056171032096875,-0.156994,-30.225756
11.185,2.0,1.0,1.0,34.5,34.5,34.5,3.5,3.5,2.6325,0.2721111244803089,-0.03110521264671487,0.9432533724579755,-0.005084138812287799,-0.16026,-30.028834
11.185,2.0,1.0,1.0,34.5,34.5,34.5,3.5,3.5,2.635,0.2610489311436502,-0.031762848461055045,0.9459772984130372,-0.005586700302307407,-0.163649,-29.829292
11.185,2.0,1.0,1.0,34.5,34.5,34.5,3.5,3.5,2.6375,0.24985552081038329,-0.03243894037245525,0.9485839721304871,-0.006114731384995891,-0.167169,-29.627031
11.185,2.0,1.0,1.0,34.5,34.5,34.5,3.5,3.5,2.64,0.23852951342825304,-0.03313427069385595,0.9510691895281715,-0.006669773120531161,-0.170828,-29.421948
11.185,2.0,1.0,1.0,34.5,34.5,34.5,3.5,3.5,2.6425,0.22706950696949096,-0.03384966780983466,0.9534285572849234,-0.007253488806476448,-0.174635,-29.213934
11.185,2.0,1.0,1.0,34.5,34.5,34.5,3.5,3.5,2.645,0.21547407583625974,-0.03458600942905592,0.9556574790928003,-0.007867676285730797,-0.178598,-29.002875
11.185,2.0,1.0,1.0,34.5,34.5,34.5,3.5,3.5,2.6475,0.20374176909929254,-0.035344226067962115,0.9577511403849847,-0.008514281759662057,-0.182729,-28.788647
11.185,2.0,1.0,1.0,34.5,34.5,34.5,3.5,3.5,2.65,0.19187110856142872,-0.036125304774843055,0.9597044913227738,-0.009195415322815917,-0.187038,-28.571123
11.185,2.0,1.0,1.0,34.5,34.5,34.5,3.5,3.5,2.6525,0.17986058664018567,-0.036930293100865944,0.9615122277891563,-0.009913368471368438,-0.191536,-28.350166
11.185,2.0,1.0,1.0,34.5,34.5,34.5,3.5,3.5,2.655,0.16770866406695722,-0.03776030332083273,0.9631687700938413,-0.010670633879971336,-0.196238,-28.125631
11.185,2.0,1.0,1.0,34.5,34.5,34.5,3.5,3.5,2.6575,0.1554137674057718,-0.038616516900894925,0.9646682390437853,-0.011469927792208508,-0.201157,-27.897364
11.185,2.0,1.0,1.0,34.5,34.5,34.5,3.5,3.5,2.66,0.14297428640194157,-0.03950018920262881,0.9660044289726109,-0.012314215430281184,-0.206309,-27.665204
11.185,2.0,1.0,1.0,34.5,34.5,34.5,3.5,3.5,2.6625,0.1303885711814619,-0.040412654401953796,0.9671707772495689,-0.01320673990188898,-0.211713,-27.428975
11.185,2.0,1.0,1.0,34.5,34.5,34.5,3.5,3.5,2.665,0.11765492933650842,-0.04135533058632332,0.968160329701328,-0.01415105516922058,-0.217386,-27.188494
11.185,2.0,1.0,1.0,34.5,34.5,34.5,3.5,3.5,2.6675,0.10477162295243396,-0.04232972497300561,0.9689657012744692,-0.015151063749789567,-0.223351,-26.943563
11.185,2.0,1.0,1.0,34.5,34.5,34.5,3.5,3.5,2.67,0.09173686565889852,-0.04333743916322045,0.9695790311390396,-0.01621105994565757,-0.229631,-26.693971
11.185,2.0,1.0,1.0,34.5,34.5,34.5,3.5,3.5,2.6725,0.07854881982498574,-0.044380174308830116,0.96999193127872,-0.017335779551498974,-0.236251,-26.439494
11.185,2.0,1.0,1.0,34.5,34.5,34.5,3.5,3.5,2.675,0.06520559406861247,-0.04545973601674196,0.970195427424533,-0.018530457179438315,-0.243243,-26.179892
11.185,2.0,1.0,1.0,34.5,34.5,34.5,3.5,3.5,2.6775,0.05170524131896706,-0.046578038746458585,0.9701798909584232,-0.01980089256776799,-0.250637,-25.914905
11.185,2.0,1.0,1.0,34.5,34.5,34.5,3.5,3.5,2.68,0.03804575776348906,-0.04773710936187808,0.9699349601300542,-0.021153527521818254,-0.258471,-25.644258
11.185,2.0,1.0,1.0,34.5,34.5,34.5,3.5,3.5,2.6825,0.02422508313680267,-0.048939089370700135,0.9694494485816195,-0.022595535481479898,-0.266786,-25.367653
11.185,2.0,1.0,1.0,34.5,34.5,34.5,3.5,3.5,2.685,0.01024110298002737,-0.05018623521151461,0.9687112387445986,-0.02413492613782128,-0.275628,-25.084768
11.185,2.0,1.0,1.0,34.5,34.5,34.5,3.5,3.5,2.6875,-0.00390834626820034,-0.0514809157130482,0.967707157137672,-0.0257806680521632,-0.28505,-24.79526
11.185,2.0,1.0,1.0,34.5,34.5,34.5,3.5,3.5,2.69,-0.018225468169645855,-0.052825605528780184,0.966422827928967,-0.027542832892139622,-0.295112,-24.498754
11.185,2.0,1.0,1.0,34.5,34.5,34.5,3.5,3.5,2.6925,-0.03271249155834775,-0.054222872910538344,0.9648425002930957,-0.02943276572568781,-0.305882,-24.194847
11.185,2.0,1.0,1.0,34.5,34.5,34.5,3.5,3.5,2.695,-0.047371647972148594,-0.055675359580725656,0.9629488440485074,-0.031463286850602186,-0.317438,-23.883102
11.185,2.0,1.0,1.0,34.5,34.5,34.5,3.5,3.5,2.6975,-0.062205138201856636,-0.057185749629350344,0.9607227067448677,-0.03364893194229887,-0.32987,-23.563045
11.185,2.0,1.0,1.0,34.5,34.5,34.5,3.5,3.5,2.7,-0.07721508376665397,-0.058756723206015125,0.958142823707918,-0.03600623895043504,-0.343281,-23.23416
11.185,2.0,1.0,1.0,34.5,34.5,34.5,3.5,3.5,2.7025,-0.09240345752036143,-0.06039088916494365,0.9551854704432083,-0.03855409226210644,-0.357792,-22.895883
11.185,2.0,1.0,1.0,34.5,34.5,34.5,3.5,3.5,2.705,-0.10777198534103877,-0.06209068855971345,0.9518240441256006,-0.0413141372984352,-0.373543,-22.547603
11.185,2.0,1.0,1.0,34.5,34.5,34.5,3.5,3.5,2.7075,-0.12332200767472573,-0.06385825769195622,0.9480285574997596,-0.04431128207871917,-0.390697,-22.188648
11.185,2.0,1.0,1.0,34.5,34.5,34.5,3.5,3.5,2.71,-0.13905428517864865,-0.0656952348810068,0.9437650241887793,-0.04757430656775915,-0.40945,-21.818283
11.185,2.0,1.0,1.0,34.5,34.5,34.5,3.5,3.5,2.7125,-0.15496872622659416,-0.0676024886264997,0.9389947089085652,-0.05113660605752819,-0.43003,-21.435703
11.185,2.0,1.0,1.0,34.5,34.5,34.5,3.5,3.5,2.715,-0.17106400468285285,-0.069579735468287,0.9336732091251349,-0.05503710170653971,-0.452711,-21.04002
11.185,2.0,1.0,1.0,34.5,34.5,34.5,3.5,3.5,2.7175,-0.18733702274138467,-0.07162500223084674,0.9277493259514779,-0.05932135997779296,-0.477822,-20.630258
11.185,2.0,1.0,1.0,34.5,34.5,34.5,3.5,3.5,2.72,-0.20378215366898006,-0.07373386738371376,0.9211636712608928,-0.06404297336353605,-0.50576,-20.205342
11.185,2.0,1.0,1.0,34.5,34.5,34.5,3.5,3.5,2.7225,-0.22039016978185075,-0.07589838676260866,0.9138469449337637,-0.06926526760145824,-0.53701,-19.764084
11.185,2.0,1.0,1.0,34.5,34.5,34.5,3.5,3.5,2.725,-0.23714671699086354,-0.078105564964284,0.9057178010981412,-0.07506341529735766,-0.572167,-19.305171
11.185,2.0,1.0,1.0,34.5,34.5,34.5,3.5,3.5,2.7275,-0.2540301311324756,-0.08033516774822548,0.8966802063824834,-0.08152705121677767,-0.611968,-18.827155
11.185,2.0,1.0,1.0,34.5,34.5,34.5,3.5,3.5,2.73,-0.27100829118932324,-0.08255657094494341,0.8866201799199713,-0.08876349707835311,-0.657335,-18.328438
11.185,2.0,1.0,1.0,34.5,34.5,34.5,3.5,3.5,2.7325,-0.2880340519541094,-0.08472418936022606,0.8754018020042181,-0.09690170550601411,-0.70943,-17.807265
11.185,2.0,1.0,1.0,34.5,34.5,34.5,3.5,3.5,2.735,-0.30503856522683254,-0.08677079671905943,0.8628624031584468,-0.10609700648924215,-0.769737,-17.261716
11.185,2.0,1.0,1.0,34.5,34.5,34.5,3.5,3.5,2.7375,-0.32192144103012277,-0.0885976919809303,0.8488069344217546,-0.11653664863188964,-0.840166,-16.689709
11.185,2.0,1.0,1.0,34.5,34.5,34.5,3.5,3.5,2.74,-0.3385361553687914,-0.09006012589557046,0.8330017483735869,-0.12844589600415454,-0.923207,-16.08903
11.185,2.0,1.0,1.0,34.5,34.5,34.5,3.5,3.5,2.7425,-0.35466829366773533,-0.09094559069874993,0.8151685429057083,-0.14209391545729835,-1.022139,-15.457379
11.185,2.0,1.0,1.0,34.5,34.5,34.5,3.5,3.5,2.745,-0.370003037013728,-0.09094140556737373,0.7949803464426947,-0.15779755891010713,-1.141324,-14.792492
11.185,2.0,1.0,1.0,34.5,34.5,34.5,3.5,3.5,2.7475,-0.38407672387717645,-0.08958647718039202,0.7720637680627579,-0.17591879857079065,-1.286621,-14.092344
11.185,2.0,1.0,1.0,34.5,34.5,34.5,3.5,3.5,2.75,-0.396205629040474,-0.0862004611316264,0.746016472190772,-0.196846843005956,-1.465942,-13.355536
11.185,2.0,1.0,1.0,34.5,34.5,34.5,3.5,3.5,2.7525,-0.40538456784246857,-0.07978307899473577,0.7164580577376144,-0.220946771926426,-1.689953,-12.581961
11.185,2.0,1.0,1.0,34.5,34.5,34.5,3.5,3.5,2.755,-0.4101526388177771,-0.06888114482399563,0.6831493937112796,-0.24843974804524532,-1.972822,-11.773944
11.185,2.0,1.0,1.0,34.5,34.5,34.5,3.5,3.5,2.7575,-0.4084443590646228,-0.05144189897178025,0.6462426512561005,-0.27915291390602165,-2.332479,-10.938125
11.185,2.0,1.0,1.0,34.5,34.5,34.5,3.5,3.5,2.76,-0.3975064946661856,-0.024733272917049083,0.606755256576997,-0.31204662007657125,-2.788794,-10.088412
11.185,2.0,1.0,1.0,34.5,34.5,34.5,3.5,3.5,2.7625,-0.37410443080910916,0.0144453404514536,0.5673509299777267,-0.34443760258653605,-3.355073,-9.250157
11.185,2.0,1.0,1.0,34.5,34.5,34.5,3.5,3.5,2.765,-0.3354737548047267,0.06880855420421796,0.5333150548034495,-0.37103346615008337,-4.01245,-8.464886
11.185,2.0,1.0,1.0,34.5,34.5,34.5,3.5,3.5,2.7675,-0.2815505104923517,0.13836014684115294,0.5129763620292815,-0.3835272724549316,-4.654467,-7.792731
11.185,2.0,1.0,1.0,34.5,34.5,34.5,3.5,3.5,2.77,-0.2181127042839095,0.21727528914469924,0.5158691597914019,-0.3724492863733776,-5.034936,-7.306575
11.185,2.0,1.0,1.0,34.5,34.5,34.5,3.5,3.5,2.7725,-0.15796830725238847,0.2927520455044029,0.5474249095455478,-0.33246359482135146,-4.88614,-7.072218
11.185,2.0,1.0,1.0,34.5,34.5,34.5,3.5,3.5,2.775,-0.11627922964900014,0.34970731001532956,0.6033356135326806,-0.26795283197548636,-4.230431,-7.119881
11.185,2.0,1.0,1.0,34.5,34.5,34.5,3.5,3.5,2.7775,-0.10197248633061133,0.37932804280258864,0.6703969964782418,-0.19212133119527924,-3.374022,-7.428007
11.185,2.0,1.0,1.0,34.5,34.5,34.5,3.5,3.5,2.78,-0.11376312938249666,0.38298196475549506,0.7343046293474844,-0.11920185945678108,-2.579466,-7.934864
11.185,2.0,1.0,1.0,34.5,34.5,34.5,3.5,3.5,2.7825,-0.1438913741637117,0.36845058076747356,0.7863026716676981,-0.05785641321690223,-1.94515,-8.566629
11.185,2.0,1.0,1.0,34.5,34.5,34.5,3.5,3.5,2.785,-0.18386589240811801,0.3442024149565541,0.8239463644132866,-0.010454363424960974,-1.470967,-9.259717
11.185,2.0,1.0,1.0,34.5,34.5,34.5,3.5,3.5,2.7875,-0.22745917054244655,0.31642572070868624,0.8485405856208288,0.024356077079862985,-1.125184,-9.968909
11.185,2.0,1.0,1.0,34.5,34.5,34.5,3.5,3.5,2.79,-0.2710234795064789,0.28872983909872324,0.8626767090684226,0.04919193346613622,-0.874247,-10.665898
11.185,2.0,1.0,1.0,34.5,34.5,34.5,3.5,3.5,2.7925,-0.3127699982925282,0.2628719538983329,0.8689193718653262,0.06663193661632785,-0.691294,-11.334676
11.185,2.0,1.0,1.0,34.5,34.5,34.5,3.5,3.5,2.795,-0.3520053034051358,0.23952069615897145,0.8693514415625964,0.07876824894132552,-0.556754,-11.967164
11.185,2.0,1.0,1.0,34.5,34.5,34.5,3.5,3.5,2.7975,-0.38860510678319005,0.21878072720268885,0.8655257611112328,0.08716189625628795,-0.456857,-12.560029
11.185,2.0,1.0,1.0,34.5,34.5,34.5,3.5,3.5,2.8,-0.4227084311251402,0.20049681015186352,0.8585541945550476,0.09293355442731228,-0.382004,-13.112633
11.185,2.0,1.0,1.0,34.5,34.5,34.5,3.5,3.5,2.8025,-0.4545559646006767,0.18441409762529876,0.8492181566154292,0.096874809441115,-0.325491,-13.625774
11.185,2.0,1.0,1.0,34.5,34.5,34.5,3.5,3.5,2.805,-0.48441054969497477,0.17025669527419468,0.8380626205581551,0.09954243526934445,-0.282592,-14.100946
11.185,2.0,1.0,1.0,34.5,34.5,34.5,3.5,3.5,2.8075,-0.51252119104822,0.15776301548409524,0.8254666932414001,0.10132905889926903,-0.249943,-14.539913
11.185,2.0,1.0,1.0,34.5,34.5,34.5,3.5,3.5,2.81,-0.5391090182662056,0.14669938303296423,0.8116938239183756,0.10251341130410707,-0.225117,-14.94447
11.185,2.0,1.0,1.0,34.5,34.5,34.5,3.5,3.5,2.8125,-0.564363807136429,0.136863211981098,0.796926673999649,0.103295250653037,-0.206344,-15.316313
11.185,2.0,1.0,1.0,34.5,34.5,34.5,3.5,3.5,2.815,-0.5884452391945156,0.12808152068617468,0.7812911032557489,0.10381943882448959,-0.192317,-15.65697
11.185,2.0,1.0,1.0,34.5,34.5,34.5,3.5,3.5,2.8175,-0.6114860131990616,0.12020763571080534,0.7648726341922469,0.10419254439134831,-0.182062,-15.967771
11.185,2.0,1.0,1.0,34.5,34.5,34.5,3.5,3.5,2.82,-0.6335954282313239,0.11311744049815256,0.747727768968062,0.1044943528649859,-0.174846,-16.249837
11.185,2.0,1.0,1.0,34.5,34.5,34.5,3.5,3.5,2.8225,-0.6548628169164933,0.10670577257442818,0.7298917860095133,0.10478591699557151,-0.170113,-16.504076
11.185,2.0,1.0,1.0,34.5,34.5,34.5,3.5,3.5,2.825,-0.6753605812134686,0.10088320255306656,0.7113841165045894,0.10511525422275625,-0.16744,-16.731188
11.185,2.0,1.0,1.0,34.5,34.5,34.5,3.5,3.5,2.8275,-0.6951467612022332,0.0955732514443635,0.692212040847461,0.1055214406249423,-0.166505,-16.931672
