1,w,sub_t,h,l1,l2,l3,g1,g2,Freq,S11_re,S21_re,S11_img,S21_img,S11_dB,S21_dB
11.185,2.0,1.0,1.0,34.8,34.1,34.1,4.0,1.5,2.5,0.635612627472544,-0.0176136222715798,0.759813532280474,0.00668182320538185,-0.081893,-34.499106
11.185,2.0,1.0,1.0,34.8,34.1,34.1,4.0,1.5,2.5025,0.6288453984631531,-0.017932027479721304,0.7652789488232834,0.00661137413434848,-0.082874,-34.373885
11.185,2.0,1.0,1.0,34.8,34.1,34.1,4.0,1.5,2.505,0.6219910051622144,-0.018255870310517976,0.7707136858173255,0.006536485714481012,-0.083875,-34.248093
11.185,2.0,1.0,1.0,34.8,34.1,34.1,4.0,1.5,2.5075,0.6150486477810019,-0.01858525256116371,0.776116634529445,0.0064569970747915695,-0.084896,-34.121719
11.185,2.0,1.0,1.0,34.8,34.1,34.1,4.0,1.5,2.51,0.6080175219053546,-0.01892027824323455,0.781486656033356,0.006372741236879912,-0.085937,-33.99475
11.185,2.0,1.0,1.0,34.8,34.1,34.1,4.0,1.5,2.5125,0.6008968187212794,-0.01926105363957524,0.7868225803728863,0.006283544847686872,-0.087,-33.867174
11.185,2.0,1.0,1.0,34.8,34.1,34.1,4.0,1.5,2.515,0.5936857252556801,-0.019607687363017334,0.7921232057010164,0.00618922789834986,-0.088085,-33.738979
11.185,2.0,1.0,1.0,34.8,34.1,34.1,4.0,1.5,2.5175,0.5863834246328727,-0.019960290417001925,0.7973872973938493,0.006089603428295449,-0.089193,-33.610154
11.185,2.0,1.0,1.0,34.8,34.1,34.1,4.0,1.5,2.52,0.5789890963475317,-0.020318976258186166,0.8026135871386311,0.005984477213636952,-0.090324,-33.480684
11.185,2.0,1.0,1.0,34.8,34.1,34.1,4.0,1.5,2.5225,0.5715019165547838,-0.02068386086111227,0.8078007719948511,0.005873647438878614,-0.091479,-33.350556
11.185,2.0,1.0,1.0,34.8,34.1,34.1,4.0,1.5,2.525,0.5639210583781334,-0.021055062785024198,0.8129475134274359,0.005756904350850465,-0.092658,-33.219757
11.185,2.0,1.0,1.0,34.8,34.1,34.1,4.0,1.5,2.5275,0.5562456922359625,-0.02143270324291814,0.8180524363109626,0.005634029893717248,-0.093863,-33.088274
11.185,2.0,1.0,1.0,34.8,34.1,34.1,4.0,1.5,2.53,0.5484749861873653,-0.021816906172916293,0.8231141279037609,0.005504797323815224,-0.095094,-32.956091
11.185,2.0,1.0,1.0,34.8,34.1,34.1,4.0,1.5,2.5325,0.5406081062980922,-0.02220779831205639,0.8281311367906952,0.00536897080297404,-0.096353,-32.823194
11.185,2.0,1.0,1.0,34.8,34.1,34.1,4.0,1.5,2.535,0.5326442170274046,-0.022605509272591955,0.833101971793348,0.005226304968874496,-0.097638,-32.689568
11.185,2.0,1.0,1.0,34.8,34.1,34.1,4.0,1.5,2.5375,0.5245824816366824,-0.023010171620900344,0.8380251008462227,0.005076544480879341,-0.098953,-32.555198
11.185,2.0,1.0,1.0,34.8,34.1,34.1,4.0,1.5,2.54,0.516422062620625,-0.023421920959097835,0.8428989498375042,0.004919423539646936,-0.100297,-32.420068
11.185,2.0,1.0,1.0,34.8,34.1,34.1,4.0,1.5,2.5425,0.5081621221619325,-0.023840896009462133,0.8477219014127975,0.004754665378701346,-0.101672,-32.284161
11.185,2.0,1.0,1.0,34.8,34.1,34.1,4.0,1.5,2.545,0.4998018226103763,-0.024267238701764077,0.8524922937401535,0.004581981725982287,-0.103078,-32.14746
11.185,2.0,1.0,1.0,34.8,34.1,34.1,4.0,1.5,2.5475,0.4913403269872027,-0.024701094263608885,0.8572084192345562,0.004401072233233986,-0.104516,-32.00995
11.185,2.0,1.0,1.0,34.8,34.1,34.1,4.0,1.5,2.55,0.4827767995158079,-0.025142611313889056,0.8618685232399173,0.0042116238709123816,-0.105988,-31.87161
11.185,2.0,1.0,1.0,34.8,34.1,34.1,4.0,1.5,2.5525,0.4741104061797215,-0.025591941959445523,0.8664708026664413,0.004013310286093545,-0.107494,-31.732424
11.185,2.0,1.0,1.0,34.8,34.1,34.1,4.0,1.5,2.555,0.4653403153088874,-0.0260492418950333,0.8710134045810847,0.0038057911206492495,-0.109037,-31.592373
11.185,2.0,1.0,1.0,34.8,34.1,34.1,4.0,1.5,2.5575,0.4564656981953159,-0.026514670506681208,0.8754944247486087,0.003588711286719338,-0.110616,-31.451436
11.185,2.0,1.0,1.0,34.8,34.1,34.1,4.0,1.5,2.56,0.4474857297392047,-0.026988390978527288,0.879911906120528,0.003361700196249234,-0.112233,-31.309595
11.185,2.0,1.0,1.0,34.8,34.1,34.1,4.0,1.5,2.5625,0.43839958912665217,-0.02747057040320317,0.8842638372690216,0.003124370941074211,-0.11389,-31.166828
11.185,2.0,1.0,1.0,34.8,34.1,34.1,4.0,1.5,2.565,0.4292064605401289,-0.027961379895827625,0.8885481507625961,0.0028763194197168346,-0.115588,-31.023114
11.185,2.0,1.0,1.0,34.8,34.1,34.1,4.0,1.5,2.5675,0.4199055339029307,-0.028460994711650624,0.8927627214800149,0.0026171234067147945,-0.117328,-30.87843
11.185,2.0,1.0,1.0,34.8,34.1,34.1,4.0,1.5,2.57,0.4104960056588547,-0.02896959436737258,0.8969053648586747,0.0023463415599136975,-0.119112,-30.732755
11.185,2.0,1.0,1.0,34.8,34.1,34.1,4.0,1.5,2.5725,0.40097707958840845,-0.029487362766134218,0.9009738350732366,0.0020635123607341257,-0.120941,-30.586065
11.185,2.0,1.0,1.0,34.8,34.1,34.1,4.0,1.5,2.575,0.39134796766291163,-0.03001448832614135,0.9049658231399442,0.0017681529819543662,-0.122817,-30.438336
11.185,2.0,1.0,1.0,34.8,34.1,34.1,4.0,1.5,2.5775,0.3816078909379077,-0.03055116411284975,0.9088789549415734,0.001459758077030658,-0.124743,-30.289541
11.185,2.0,1.0,1.0,34.8,34.1,34.1,4.0,1.5,2.58,0.3717560804873766,-0.031097587974586796,0.9127107891674818,0.0011377984844029702,-0.126718,-30.139656
11.185,2.0,1.0,1.0,34.8,34.1,34.1,4.0,1.5,2.5825,0.36179177838029397,-0.031653962681428505,0.9164588151626599,0.0008017198395955283,-0.128747,-29.988653
11.185,2.0,1.0,1.0,34.8,34.1,34.1,4.0,1.5,2.585,0.35171423870120583,-0.032220496067078955,0.920120450679036,0.00045094108721503874,-0.13083,-29.836505
11.185,2.0,1.0,1.0,34.8,34.1,34.1,4.0,1.5,2.5875,0.341522728616533,-0.032797401173415376,0.9236930395216135,8.485288416143736e-05,-0.132969,-29.683182
11.185,2.0,1.0,1.0,34.8,34.1,34.1,4.0,1.5,2.59,0.33121652948849295,-0.033384896397257856,0.9271738490811972,-0.0002971841155073693,-0.135168,-29.528655
11.185,2.0,1.0,1.0,34.8,34.1,34.1,4.0,1.5,2.5925,0.3207949380385865,-0.03398320563880085,0.9305600677446059,-0.0006958411045935457,-0.137428,-29.372893
11.185,2.0,1.0,1.0,34.8,34.1,34.1,4.0,1.5,2.595,0.310257267562829,-0.03459255845099556,0.9338488021722451,-0.001111823107281044,-0.139752,-29.215862
11.185,2.0,1.0,1.0,34.8,34.1,34.1,4.0,1.5,2.5975,0.29960284920098346,-0.0352131901889972,0.9370370744318276,-0.0015458711169998032,-0.142142,-29.057531
11.185,2.0,1.0,1.0,34.8,34.1,34.1,4.0,1.5,2.6,0.28883103326234755,-0.03584534215857985,0.9401218189757339,-0.0019987644018278636,-0.144602,-28.897863
11.185,2.0,1.0,1.0,34.8,34.1,34.1,4.0,1.5,2.6025,0.2779411906108364,-0.036489261762170065,0.9430998794481228,-0.0024713229931472686,-0.147134,-28.736823
11.185,2.0,1.0,1.0,34.8,34.1,34.1,4.0,1.5,2.605,0.26693271411238845,-0.03714520264085342,0.9459680053062677,-0.0029644103749751753,-0.149741,-28.574373
11.185,2.0,1.0,1.0,34.8,34.1,34.1,4.0,1.5,2.6075,0.25580502014808715,-0.03781342481034903,0.948722848238819,-0.003478936393303957,-0.152427,-28.410474
11.185,2.0,1.0,1.0,34.8,34.1,34.1,4.0,1.5,2.61,0.24455755019674913,-0.038494194788522465,0.9513609583616432,-0.004015860406934248,-0.155195,-28.245084
11.185,2.0,1.0,1.0,34.8,34.1,34.1,4.0,1.5,2.6125,0.2331897724912398,-0.039187785711503074,0.9538787801695744,-0.004576194703705801,-0.158049,-28.078162
11.185,2.0,1.0,1.0,34.8,34.1,34.1,4.0,1.5,2.615,0.22170118375329495,-0.03989447743486606,0.9562726482198176,-0.0051610082087575485,-0.160992,-27.909664
11.185,2.0,1.0,1.0,34.8,34.1,34.1,4.0,1.5,2.6175,0.21009131101234368,-0.04061455661562084,0.958538782519781,-0.005771430514526648,-0.16403,-27.739542
11.185,2.0,1.0,1.0,34.8,34.1,34.1,4.0,1.5,2.62,0.19835971351458512,-0.041348316769890814,0.9606732835887445,-0.006408656265675684,-0.167167,-27.567748
11.185,2.0,1.0,1.0,34.8,34.1,34.1,4.0,1.5,2.6225,0.18650598472954036,-0.04209605830014651,0.9626721271589632,-0.007073949936075431,-0.170407,-27.394233
11.185,2.0,1.0,1.0,34.8,34.1,34.1,4.0,1.5,2.625,0.174529754462457,-0.0428580884846304,0.964531158477466,-0.00776865103943306,-0.173756,-27.218943
11.185,2.0,1.0,1.0,34.8,34.1,34.1,4.0,1.5,2.6275,0.16243069108227293,-0.043634721420157306,0.9662460861648399,-0.008494179820227746,-0.177219,-27.041823
11.185,2.0,1.0,1.0,34.8,34.1,34.1,4.0,1.5,2.63,0.15020850387651352,-0.04442627790772516,0.9678124755816775,-0.009252043477375188,-0.180802,-26.862815
11.185,2.0,1.0,1.0,34.8,34.1,34.1,4.0,1.5,2.6325,0.13786294554646017,-0.04523308526828628,0.9692257416468768,-0.010043842979610224,-0.184511,-26.68186
11.185,2.0,1.0,1.0,34.8,34.1,34.1,4.0,1.5,2.635,0.12539381485828358,-0.04605547707352303,0.9704811410446428,-0.010871280539064106,-0.188352,-26.498893
11.185,2.0,1.0,1.0,34.8,34.1,34.1,4.0,1.5,2.6375,0.11280095946871281,-0.04689379277347231,0.9715737637485461,-0.011736167818070126,-0.192335,-26.313849
11.185,2.0,1.0,1.0,34.8,34.1,34.1,4.0,1.5,2.64,0.10008427894718916,-0.04774837719923397,0.9724985237813368,-0.012640434954029502,-0.196465,-26.126657
11.185,2.0,1.0,1.0,34.8,34.1,34.1,4.0,1.5,2.6425,0.08724372802069151,-0.048619579914655375,0.9732501491180234,-0.01358614049839737,-0.200752,-25.937244
11.185,2.0,1.0,1.0,34.8,34.1,34.1,4.0,1.5,2.645,0.07427932007235552,-0.049507754385655016,0.9738231706269245,-0.014575482378752246,-0.205204,-25.745534
11.185,2.0,1.0,1.0,34.8,34.1,34.1,4.0,1.5,2.6475,0.061191130931161665,-0.050413256929526994,0.9742119099285906,-0.015610810007755889,-0.209831,-25.551446
11.185,2.0,1.0,1.0,34.8,34.1,34.1,4.0,1.5,2.65,0.04797930299725473,-0.05133644539893512,0.9744104660354339,-0.016694637679924677,-0.214644,-25.354894
11.185,2.0,1.0,1.0,34.8,34.1,34.1,4.0,1.5,2.6525,0.03464404975655975,-0.05227767754603901,0.9744127006151108,-0.017829659416891158,-0.219655,-25.155788
11.185,2.0,1.0,1.0,34.8,34.1,34.1,4.0,1.5,2.655,0.021185660749118814,-0.05323730900096558,0.9742122216978382,-0.019018765444707052,-0.224875,-24.954035
11.185,2.0,1.0,1.0,34.8,34.1,34.1,4.0,1.5,2.6575,0.007604507069028742,-0.054215690785154605,0.9738023656212375,-0.020265060513238037,-0.230319,-24.749534
11.185,2.0,1.0,1.0,34.8,34.1,34.1,4.0,1.5,2.66,-0.006098952509951167,-0.055213166263435975,0.9731761769753957,-0.021571884298486665,-0.236,-24.54218
11.185,2.0,1.0,1.0,34.8,34.1,34.1,4.0,1.5,2.6625,-0.019924164668996838,-0.056230067418305475,0.9723263862748268,-0.022942834164496606,-0.241935,-24.331862
11.185,2.0,1.0,1.0,34.8,34.1,34.1,4.0,1.5,2.665,-0.03387047380052803,-0.05726671030489245,0.9712453850420331,-0.024381790603252244,-0.248142,-24.118462
11.185,2.0,1.0,1.0,34.8,34.1,34.1,4.0,1.5,2.6675,-0.0479371132174102,-0.05832338951441895,0.9699251979382102,-0.025892945719757608,-0.25464,-23.901856
11.185,2.0,1.0,1.0,34.8,34.1,34.1,4.0,1.5,2.67,-0.06212319510912651,-0.05940037143614931,0.9683574515191364,-0.027480835186562656,-0.261449,-23.68191
11.185,2.0,1.0,1.0,34.8,34.1,34.1,4.0,1.5,2.6725,-0.07642769899286021,-0.060497886061129824,0.9665333391267658,-0.02915037415892433,-0.268593,-23.458486
11.185,2.0,1.0,1.0,34.8,34.1,34.1,4.0,1.5,2.675,-0.09084945835025046,-0.061616117013155204,0.9644435813476915,-0.030906897720392585,-0.276097,-23.231435
11.185,2.0,1.0,1.0,34.8,34.1,34.1,4.0,1.5,2.6775,-0.10538714506944491,-0.0627551894204915,0.9620783813762115,-0.03275620652110602,-0.283989,-23.000597
11.185,2.0,1.0,1.0,34.8,34.1,34.1,4.0,1.5,2.68,-0.12003925122323185,-0.06391515515222893,0.9594273745094981,-0.03470461838009392,-0.292301,-22.765806
11.185,2.0,1.0,1.0,34.8,34.1,34.1,4.0,1.5,2.6825,-0.13480406760269856,-0.06509597483098342,0.956479570872217,-0.03675902675156946,-0.301066,-22.526883
11.185,2.0,1.0,1.0,34.8,34.1,34.1,4.0,1.5,2.685,-0.1496796582861114,-0.06629749589288192,0.9532232903138754,-0.038926967107336403,-0.310323,-22.283635
11.185,2.0,1.0,1.0,34.8,34.1,34.1,4.0,1.5,2.6875,-0.16466383034627124,-0.06751942578839423,0.9496460882398247,-0.04121669246749235,-0.320115,-22.035861
11.185,2.0,1.0,1.0,34.8,34.1,34.1,4.0,1.5,2.69,-0.17975409757636945,-0.06876129919328385,0.9457346709205392,-0.043637259524940346,-0.330488,-21.783341
11.185,2.0,1.0,1.0,34.8,34.1,34.1,4.0,1.5,2.6925,-0.19494763683078847,-0.07002243781422189,0.9414747985672496,-0.046198627062112446,-0.341498,-21.525844
11.185,2.0,1.0,1.0,34.8,34.1,34.1,4.0,1.5,2.695,-0.21024123521532428,-0.0713019010106748,0.9368511741576266,-0.048911768658120656,-0.353202,-21.26312
11.185,2.0,1.0,1.0,34.8,34.1,34.1,4.0,1.5,2.6975,-0.22563122589798829,-0.0725984249901783,0.9318473156341187,-0.051788802039868194,-0.365669,-20.994902
11.185,2.0,1.0,1.0,34.8,34.1,34.1,4.0,1.5,2.7,-0.24111340971518205,-0.07391034773699236,0.9264454086698601,-0.05484313785114427,-0.378975,-20.720905
11.185,2.0,1.0,1.0,34.8,34.1,34.1,4.0,1.5,2.7025,-0.25668295897782956,-0.07523551606317865,0.9206261366914462,-0.05808965111022976,-0.393206,-20.440819
11.185,2.0,1.0,1.0,34.8,34.1,34.1,4.0,1.5,2.705,-0.2723342988821503,-0.07657117017112715,0.9143684842524916,-0.061544879210454775,-0.408461,-20.154315
11.185,2.0,1.0,1.0,34.8,34.1,34.1,4.0,1.5,2.7075,-0.2880609606260218,-0.07791379981335952,0.9076495091546416,-0.06522725100079214,-0.424853,-19.861034
11.185,2.0,1.0,1.0,34.8,34.1,34.1,4.0,1.5,2.71,-0.3038553986235721,-0.07925896442893002,0.9004440779034035,-0.06915735227437295,-0.442509,-19.560595
11.185,2.0,1.0,1.0,34.8,34.1,34.1,4.0,1.5,2.7125,-0.3197087619614851,-0.08060106739016758,0.8927245581588001,-0.07335823389649947,-0.461578,-19.25258
11.185,2.0,1.0,1.0,34.8,34.1,34.1,4.0,1.5,2.715,-0.3356106072642919,-0.08193307152387173,0.8844604607993435,-0.07785576981494724,-0.482232,-18.936544
11.185,2.0,1.0,1.0,34.8,34.1,34.1,4.0,1.5,2.7175,-0.3515485361783285,-0.08324613912430824,0.875618023084413,-0.08267907328982232,-0.504669,-18.612002
11.185,2.0,1.0,1.0,34.8,34.1,34.1,4.0,1.5,2.72,-0.3675077353948388,-0.08452917440386025,0.8661597232307886,-0.08786098079938244,-0.529122,-18.278429
11.185,2.0,1.0,1.0,34.8,34.1,34.1,4.0,1.5,2.7225,-0.38347039002985767,-0.0857682392520267,0.8560437156289168,-0.0934386141035986,-0.555862,-17.935259
11.185,2.0,1.0,1.0,34.8,34.1,34.1,4.0,1.5,2.725,-0.3994149315947585,-0.08694580363306288,0.8452231751305392,-0.09945403165726341,-0.585211,-17.581877
11.185,2.0,1.0,1.0,34.8,34.1,34.1,4.0,1.5,2.7275,-0.415315068804171,-0.0880397790322194,0.8336455387325004,-0.1059549805626807,-0.617548,-17.217619
11.185,2.0,1.0,1.0,34.8,34.1,34.1,4.0,1.5,2.73,-0.43113853180094036,-0.08902226579621744,0.8212516342471814,-0.1129957588460195,-0.653326,-16.841764
11.185,2.0,1.0,1.0,34.8,34.1,34.1,4.0,1.5,2.7325,-0.44684543627123496,-0.08985792126498433,0.807974689369054,-0.1206381938416536,-0.693087,-16.453534
11.185,2.0,1.0,1.0,34.8,34.1,34.1,4.0,1.5,2.735,-0.46238614097003916,-0.09050182288098357,0.793739222935653,-0.12895273384944064,-0.737487,-16.052089
11.185,2.0,1.0,1.0,34.8,34.1,34.1,4.0,1.5,2.7375,-0.47769842713090044,-0.09089665578849966,0.7784598365593854,-0.1380196335617906,-0.787322,-15.636525
11.185,2.0,1.0,1.0,34.8,34.1,34.1,4.0,1.5,2.74,-0.49270376682530953,-0.09096899360018638,0.7620399549536142,-0.1479301832552188,-0.843565,-15.205874
11.185,2.0,1.0,1.0,34.8,34.1,34.1,4.0,1.5,2.7425,-0.5073023642121681,-0.09062435876758196,0.744370616934005,-0.15878787766875463,-0.907418,-14.759109
11.185,2.0,1.0,1.0,34.8,34.1,34.1,4.0,1.5,2.745,-0.5213665426603356,-0.08974063940078837,0.7253295126217483,-0.1707093265051076,-0.980374,-14.295148
11.185,2.0,1.0,1.0,34.8,34.1,34.1,4.0,1.5,2.7475,-0.5347319064050104,-0.08815929716907801,0.7047806232312046,-0.18382454726318023,-1.064302,-13.812876
11.185,2.0,1.0,1.0,34.8,34.1,34.1,4.0,1.5,2.75,-0.547185526532977,-0.0856736252948804,0.682575093578251,-0.198276007282129,-1.161565,-13.311172
11.185,2.0,1.0,1.0,34.8,34.1,34.1,4.0,1.5,2.7525,-0.5584502000943542,-0.08201311961492265,0.6585544288890292,-0.21421532115067307,-1.275171,-12.788957
11.185,2.0,1.0,1.0,34.8,34.1,34.1,4.0,1.5,2.755,-0.5681636550690472,-0.07682285706783064,0.6325578764151185,-0.231795743244828,-1.408981,-12.245278
11.185,2.0,1.0,1.0,34.8,34.1,34.1,4.0,1.5,2.7575,-0.5758515501484895,-0.06963676307125095,0.6044371122695216,-0.2511573416571235,-1.567989,-11.679429
11.185,2.0,1.0,1.0,34.8,34.1,34.1,4.0,1.5,2.76,-0.5808935489370621,-0.05984409483922351,0.5740833620353515,-0.2723997458831702,-1.758683,-11.091157
11.185,2.0,1.0,1.0,34.8,34.1,34.1,4.0,1.5,2.7625,-0.5824832937198163,-0.04665003134787441,0.5414751320265354,-0.2955343416580346,-1.989518,-10.480956
11.185,2.0,1.0,1.0,34.8,34.1,34.1,4.0,1.5,2.765,-0.5795871061646802,-0.029035278223845273,0.5067589395638367,-0.3204036317321688,-2.271461,-9.850532
11.185,2.0,1.0,1.0,34.8,34.1,34.1,4.0,1.5,2.7675,-0.5709151820580933,-0.005728528917650513,0.47038010451890294,-0.346550910121863,-2.618527,-9.203473
11.185,2.0,1.0,1.0,34.8,34.1,34.1,4.0,1.5,2.77,-0.5549368184147537,0.024776683076061963,0.4332825791638177,-0.3730216486000635,-3.04791,-8.546201
11.185,2.0,1.0,1.0,34.8,34.1,34.1,4.0,1.5,2.7725,-0.5300018154413515,0.06409885580151532,0.3971866409807157,-0.39808836234252126,-3.578728,-7.889248
11.185,2.0,1.0,1.0,34.8,34.1,34.1,4.0,1.5,2.775,-0.4946708462077882,0.11363717862712207,0.3649105551348431,-0.41893356987666813,-4.226703,-7.248759
11.185,2.0,1.0,1.0,34.8,34.1,34.1,4.0,1.5,2.7775,-0.44837902555452813,0.17390967664699528,0.3405958917233867,-0.43143149304420353,-4.988732,-6.647875
11.185,2.0,1.0,1.0,34.8,34.1,34.1,4.0,1.5,2.78,-0.3924713183880652,0.24352527188314865,0.3295164714374931,-0.4303470826247251,-5.806807,-6.117155
11.185,2.0,1.0,1.0,34.8,34.1,34.1,4.0,1.5,2.7825,-0.33131765479484593,0.3180843374268071,0.3370135502501588,-0.4104045404242575,-6.51015,-5.692648
11.185,2.0,1.0,1.0,34.8,34.1,34.1,4.0,1.5,2.785,-0.27265233657931726,0.3898599726615871,0.36636022919154937,-0.3684135133897784,-6.807708,-5.41031
11.185,2.0,1.0,1.0,34.8,34.1,34.1,4.0,1.5,2.7875,-0.2260628995070849,0.44932133626966997,0.41634695493293006,-0.3056561160110891,-6.488819,-5.29714
11.185,2.0,1.0,1.0,34.8,34.1,34.1,4.0,1.5,2.79,-0.19963125236104518,0.488479470258749,0.4804562150701175,-0.22867803342758858,-5.675265,-5.362476
11.185,2.0,1.0,1.0,34.8,34.1,34.1,4.0,1.5,2.7925,-0.19671054686753323,0.5040730648585795,0.5489040032465062,-0.14723173401282505,-4.68533,-5.59458
11.185,2.0,1.0,1.0,34.8,34.1,34.1,4.0,1.5,2.795,-0.21521098267643596,0.49824640327449166,0.6123650058903821,-0.07056831847246607,-3.754017,-5.964859
11.185,2.0,1.0,1.0,34.8,34.1,34.1,4.0,1.5,2.7975,-0.2495570359267457,0.47658095741551015,0.6647531317704446,-0.004690928511878028,-2.974183,-6.436846
11.185,2.0,1.0,1.0,34.8,34.1,34.1,4.0,1.5,2.8,-0.2934092685894569,0.44538632325828914,0.7037505494547113,0.048148315029440655,-2.355595,-6.974802
11.185,2.0,1.0,1.0,34.8,34.1,34.1,4.0,1.5,2.8025,-0.3414787129573716,0.4099057550394291,0.7297737022875634,0.08840594746703645,-1.876366,-7.548864
11.185,2.0,1.0,1.0,34.8,34.1,34.1,4.0,1.5,2.805,-0.3901166480122376,0.3737411022761912,0.7446153561935408,0.11789294911418825,-1.507999,-8.136621
11.185,2.0,1.0,1.0,34.8,34.1,34.1,4.0,1.5,2.8075,-0.43715193546435566,0.3390224349662566,0.7504505421209903,0.13878819158834943,-1.224687,-8.722527
11.185,2.0,1.0,1.0,34.8,34.1,34.1,4.0,1.5,2.81,-0.48147840223546845,0.30682229851963444,0.7493097855637652,0.15311820636668474,-1.005699,-9.296477
11.185,2.0,1.0,1.0,34.8,34.1,34.1,4.0,1.5,2.8125,-0.522662224196003,0.277547492684346,0.742880444299721,0.162562839586692,-0.835212,-9.852305
11.185,2.0,1.0,1.0,34.8,34.1,34.1,4.0,1.5,2.815,-0.5606537258897357,0.25122572168354224,0.7324813411265356,0.16843230061719966,-0.701411,-10.386558
11.185,2.0,1.0,1.0,34.8,34.1,34.1,4.0,1.5,2.8175,-0.595601518728057,0.22768997863448018,0.7191088736145483,0.171714446012989,-0.595539,-10.897568
11.185,2.0,1.0,1.0,34.8,34.1,34.1,4.0,1.5,2.82,-0.6277420502216376,0.20668783372419222,0.7035019778501871,0.1731402151991649,-0.511104,-11.384812
11.185,2.0,1.0,1.0,34.8,34.1,34.1,4.0,1.5,2.8225,-0.6573380818952232,0.187942118763678,0.6862034940210054,0.17324511079586133,-0.443274,-11.848467
11.185,2.0,1.0,1.0,34.8,34.1,34.1,4.0,1.5,2.825,-0.6846466911128922,0.17118234985021308,0.6676106709171872,0.1724196557967986,-0.388424,-12.28913
11.185,2.0,1.0,1.0,34.8,34.1,34.1,4.0,1.5,2.8275,-0.7099042243825175,0.15615938917331873,0.6480141153879411,0.17094823527884923,-0.343815,-12.707619
11.185,2.0,1.0,1.0,34.8,34.1,34.1,4.0,1.5,2.83,-0.7333205771104109,0.14265091200105626,0.6276268292210603,0.1690380142652356,-0.307358,-13.104857
