1,w,sub_t,h,l1,l2,l3,g1,g2,Freq,S11_re,S21_re,S11_img,S21_img,S11_dB,S21_dB
11.185,2.0,1.0,1.0,33.1,34.2,34.2,2.1,2.7,2.5,0.888188914517119,-0.00888885254665914,0.444291837881855,0.00986267844288804,-0.060021,-37.537868
11.185,2.0,1.0,1.0,33.1,34.2,34.2,2.1,2.7,2.5025,0.8852563830220715,-0.00909554006161079,0.44994795268756216,0.009945091376020879,-0.060649,-37.408036
11.185,2.0,1.0,1.0,33.1,34.2,34.2,2.1,2.7,2.505,0.8822740903506952,-0.009306708893527154,0.4556082467544638,0.010027613319331158,-0.061291,-37.277687
11.185,2.0,1.0,1.0,33.1,34.2,34.2,2.1,2.7,2.5075,0.8792414805831259,-0.00952247455631255,0.461272575508638,0.010110222915888414,-0.061945,-37.14681
11.185,2.0,1.0,1.0,33.1,34.2,34.2,2.1,2.7,2.51,0.8761579864500447,-0.009742956356734635,0.46694078903085084,0.010192897522214138,-0.062612,-37.015391
11.185,2.0,1.0,1.0,33.1,34.2,34.2,2.1,2.7,2.5125,0.8730230290336252,-0.009968277546277998,0.47261273184101227,0.010275613135381955,-0.063293,-36.883419
11.185,2.0,1.0,1.0,33.1,34.2,34.2,2.1,2.7,2.515,0.8698360174580978,-0.010198565480175161,0.478288242673334,0.010358344315683242,-0.063988,-36.750881
11.185,2.0,1.0,1.0,33.1,34.2,34.2,2.1,2.7,2.5175,0.8665963485694617,-0.010433951784005215,0.483967154241692,0.010441064104559895,-0.064697,-36.617763
11.185,2.0,1.0,1.0,33.1,34.2,34.2,2.1,2.7,2.52,0.8633034066038408,-0.010674572528278302,0.4896492929947119,0.01052374393748481,-0.065421,-36.484053
11.185,2.0,1.0,1.0,33.1,34.2,34.2,2.1,2.7,2.5225,0.8599565628439656,-0.010920568411444675,0.49533447886000664,0.01060635355144488,-0.06616,-36.349736
11.185,2.0,1.0,1.0,33.1,34.2,34.2,2.1,2.7,2.525,0.8565551752632159,-0.011172084951800054,0.5010225249770225,0.010688860886657289,-0.066915,-36.2148
11.185,2.0,1.0,1.0,33.1,34.2,34.2,2.1,2.7,2.5275,0.8530985881566377,-0.011429272688784534,0.506713237417869,0.010771231982120101,-0.067686,-36.079229
11.185,2.0,1.0,1.0,33.1,34.2,34.2,2.1,2.7,2.53,0.8495861317583154,-0.011692287394206668,0.5124064148954872,0.010853430864568584,-0.068474,-35.94301
11.185,2.0,1.0,1.0,33.1,34.2,34.2,2.1,2.7,2.5325,0.8460171218444319,-0.011961290293955915,0.5181018484584621,0.0109354194303745,-0.069279,-35.806129
11.185,2.0,1.0,1.0,33.1,34.2,34.2,2.1,2.7,2.535,0.8423908593213205,-0.012236448300805397,0.5237993211717531,0.011017157319891023,-0.070102,-35.66857
11.185,2.0,1.0,1.0,33.1,34.2,34.2,2.1,2.7,2.5375,0.8387066297977712,-0.012517934258943748,0.5294986077825398,0.011098601783705564,-0.070942,-35.530318
11.185,2.0,1.0,1.0,33.1,34.2,34.2,2.1,2.7,2.54,0.8349637031407945,-0.012805927200917002,0.5351994743703566,0.011179707540220634,-0.071802,-35.391358
11.185,2.0,1.0,1.0,33.1,34.2,34.2,2.1,2.7,2.5425,0.8311613330140187,-0.01310061261770762,0.5409016779806197,0.0112604266239373,-0.072681,-35.251673
11.185,2.0,1.0,1.0,33.1,34.2,34.2,2.1,2.7,2.545,0.8272987563978255,-0.013402182742723413,0.5466049662405804,0.011340708223764423,-0.07358,-35.111249
11.185,2.0,1.0,1.0,33.1,34.2,34.2,2.1,2.7,2.5475,0.8233751930902907,-0.013710836850522082,0.5523090769566812,0.011420498510622873,-0.0745,-34.970067
11.185,2.0,1.0,1.0,33.1,34.2,34.2,2.1,2.7,2.55,0.8193898451879216,-0.014026781571152348,0.5580137376922294,0.011499740453554008,-0.075441,-34.828112
11.185,2.0,1.0,1.0,33.1,34.2,34.2,2.1,2.7,2.5525,0.8153418965451321,-0.014350231221050733,0.5637186653241866,0.01157837362347641,-0.076404,-34.685366
11.185,2.0,1.0,1.0,33.1,34.2,34.2,2.1,2.7,2.555,0.8112305122113246,-0.01468140815149888,0.5694235655778369,0.011656333983664339,-0.07739,-34.541811
11.185,2.0,1.0,1.0,33.1,34.2,34.2,2.1,2.7,2.5575,0.8070548378443619,-0.015020543115712857,0.575128132537969,0.011733553665942907,-0.078399,-34.39743
11.185,2.0,1.0,1.0,33.1,34.2,34.2,2.1,2.7,2.56,0.8028139990991641,-0.015367875655710952,0.5808320481351158,0.011809960731511514,-0.079433,-34.252203
11.185,2.0,1.0,1.0,33.1,34.2,34.2,2.1,2.7,2.5625,0.7985071009900453,-0.01572365451018511,0.5865349816052905,0.011885478915213165,-0.080491,-34.106113
11.185,2.0,1.0,1.0,33.1,34.2,34.2,2.1,2.7,2.565,0.7941332272253375,-0.016088138044687672,0.5922365889215409,0.011960027351966518,-0.081576,-33.959139
11.185,2.0,1.0,1.0,33.1,34.2,34.2,2.1,2.7,2.5675,0.7896914395127512,-0.01646159470553485,0.5979365121955005,0.012033520283966826,-0.082687,-33.811263
11.185,2.0,1.0,1.0,33.1,34.2,34.2,2.1,2.7,2.57,0.7851807768338007,-0.016844303498930874,0.6036343790469927,0.012105866747139026,-0.083827,-33.662462
11.185,2.0,1.0,1.0,33.1,34.2,34.2,2.1,2.7,2.5725,0.7806002546855267,-0.017236554496920017,0.6093298019395776,0.012176970235193867,-0.084994,-33.512718
11.185,2.0,1.0,1.0,33.1,34.2,34.2,2.1,2.7,2.575,0.7759488642876183,-0.017638649371891715,0.6150223774797707,0.012246728339491315,-0.086192,-33.362008
11.185,2.0,1.0,1.0,33.1,34.2,34.2,2.1,2.7,2.5775,0.7712255717529061,-0.018050901961486673,0.6207116856774694,0.012315032362753303,-0.087421,-33.210311
11.185,2.0,1.0,1.0,33.1,34.2,34.2,2.1,2.7,2.58,0.7664293172190639,-0.018473638865886318,0.626397289164934,0.012381766904493188,-0.088681,-33.057604
11.185,2.0,1.0,1.0,33.1,34.2,34.2,2.1,2.7,2.5825,0.7615590139391888,-0.018907200079613176,0.6320787323714454,0.012446809415831556,-0.089975,-32.903864
11.185,2.0,1.0,1.0,33.1,34.2,34.2,2.1,2.7,2.585,0.756613547328783,-0.0193519396601258,0.6377555406505142,0.012510029721156817,-0.091303,-32.749068
11.185,2.0,1.0,1.0,33.1,34.2,34.2,2.1,2.7,2.5875,0.7515917739664689,-0.01980822643566045,0.6434272193562698,0.01257128950384963,-0.092666,-32.593191
11.185,2.0,1.0,1.0,33.1,34.2,34.2,2.1,2.7,2.59,0.7464925205455888,-0.020276444754954825,0.6490932528653388,0.01263044175303199,-0.094067,-32.436208
11.185,2.0,1.0,1.0,33.1,34.2,34.2,2.1,2.7,2.5925,0.7413145827736198,-0.020756995281686536,0.6547531035402381,0.012687330168011851,-0.095506,-32.278095
11.185,2.0,1.0,1.0,33.1,34.2,34.2,2.1,2.7,2.595,0.7360567242161332,-0.02125029583667153,0.6604062106299178,0.012741788516777437,-0.096985,-32.118824
11.185,2.0,1.0,1.0,33.1,34.2,34.2,2.1,2.7,2.5975,0.7307176750817557,-0.02175678229109999,0.6660519891027429,0.012793639944542492,-0.098505,-31.958368
11.185,2.0,1.0,1.0,33.1,34.2,34.2,2.1,2.7,2.6,0.7252961309443521,-0.022276909514336283,0.6716898284067424,0.012842696227954819,-0.100069,-31.796701
11.185,2.0,1.0,1.0,33.1,34.2,34.2,2.1,2.7,2.6025,0.7197907513983642,-0.022811152380079348,0.6773190911514942,0.012888756970147694,-0.101677,-31.633792
11.185,2.0,1.0,1.0,33.1,34.2,34.2,2.1,2.7,2.605,0.7142001586429186,-0.023360006834974748,0.6829391117055081,0.012931608731335533,-0.103332,-31.469614
11.185,2.0,1.0,1.0,33.1,34.2,34.2,2.1,2.7,2.6075,0.7085229359899999,-0.0239239910340844,0.6885491947023648,0.01297102408912276,-0.105036,-31.304135
11.185,2.0,1.0,1.0,33.1,34.2,34.2,2.1,2.7,2.61,0.7027576262916312,-0.02450364654796451,0.6941486134482504,0.013006760622103413,-0.10679,-31.137324
11.185,2.0,1.0,1.0,33.1,34.2,34.2,2.1,2.7,2.6125,0.6969027302805944,-0.025099539646474774,0.6997366082228154,0.013038559809671781,-0.108597,-30.969149
11.185,2.0,1.0,1.0,33.1,34.2,34.2,2.1,2.7,2.615,0.690956704818823,-0.025712262664843725,0.7053123844644928,0.013066145840230746,-0.110458,-30.799578
11.185,2.0,1.0,1.0,33.1,34.2,34.2,2.1,2.7,2.6175,0.6849179610471405,-0.026342435457952354,0.7108751108305397,0.0130892243191682,-0.112377,-30.628575
11.185,2.0,1.0,1.0,33.1,34.2,34.2,2.1,2.7,2.62,0.6787848624295217,-0.026990706949270644,0.7164239171210958,0.013107480867059483,-0.114356,-30.456107
11.185,2.0,1.0,1.0,33.1,34.2,34.2,2.1,2.7,2.6225,0.6725557226845138,-0.027657756781394417,0.7219578920554712,0.013120579597534756,-0.116398,-30.282135
11.185,2.0,1.0,1.0,33.1,34.2,34.2,2.1,2.7,2.625,0.666228803595903,-0.0283442970756834,0.727476080887647,0.0131281614631109,-0.118504,-30.106624
11.185,2.0,1.0,1.0,33.1,34.2,34.2,2.1,2.7,2.6275,0.65980231269405,-0.029051074309103447,0.7329774828466549,0.013129842456009183,-0.120679,-29.929534
11.185,2.0,1.0,1.0,33.1,34.2,34.2,2.1,2.7,2.63,0.6532744007986752,-0.029778871317024724,0.738461048385958,0.013125211649550904,-0.122926,-29.750826
11.185,2.0,1.0,1.0,33.1,34.2,34.2,2.1,2.7,2.6325,0.646643159413121,-0.030528509431430324,0.7439256762242819,0.013113829064113274,-0.125247,-29.570457
11.185,2.0,1.0,1.0,33.1,34.2,34.2,2.1,2.7,2.635,0.6399066179593423,-0.03130085076475033,0.7493702101584409,0.013095223339823638,-0.127646,-29.388386
11.185,2.0,1.0,1.0,33.1,34.2,34.2,2.1,2.7,2.6375,0.633062740842021,-0.03209680065035554,0.7547934356265723,0.013068889196137625,-0.130127,-29.204568
11.185,2.0,1.0,1.0,33.1,34.2,34.2,2.1,2.7,2.64,0.626109424329258,-0.032917310251632706,0.7601940759978093,0.013034284656154178,-0.132694,-29.018958
11.185,2.0,1.0,1.0,33.1,34.2,34.2,2.1,2.7,2.6425,0.6190444932363469,-0.03376337935251254,0.7655707885616988,0.012990828010940484,-0.135352,-28.831508
11.185,2.0,1.0,1.0,33.1,34.2,34.2,2.1,2.7,2.645,0.6118656973980258,-0.034636059343352406,0.7709221601876631,0.012937894496218006,-0.138104,-28.64217
11.185,2.0,1.0,1.0,33.1,34.2,34.2,2.1,2.7,2.6475,0.6045707079134779,-0.035536456417172374,0.7762467026213393,0.012874812650460872,-0.140956,-28.450892
11.185,2.0,1.0,1.0,33.1,34.2,34.2,2.1,2.7,2.65,0.5971571131471126,-0.03646573499242736,0.7815428473807864,0.012800860319718969,-0.143913,-28.257622
11.185,2.0,1.0,1.0,33.1,34.2,34.2,2.1,2.7,2.6525,0.58962241446687,-0.03742512137975188,0.7868089402111044,0.012715260270235885,-0.14698,-28.062307
11.185,2.0,1.0,1.0,33.1,34.2,34.2,2.1,2.7,2.655,0.5819640217003531,-0.03841590771146083,0.7920432350510863,0.01261717536511643,-0.150163,-27.864889
11.185,2.0,1.0,1.0,33.1,34.2,34.2,2.1,2.7,2.6575,0.5741792482876475,-0.0394394561540052,0.7972438874598159,0.01250570325581749,-0.153469,-27.665309
11.185,2.0,1.0,1.0,33.1,34.2,34.2,2.1,2.7,2.66,0.5662653061081014,-0.04049720342508063,0.8024089474447169,0.012379870532998154,-0.156903,-27.463508
11.185,2.0,1.0,1.0,33.1,34.2,34.2,2.1,2.7,2.6625,0.5582192999567173,-0.04159066563865101,0.8075363516252143,0.01223862627414414,-0.160474,-27.259421
11.185,2.0,1.0,1.0,33.1,34.2,34.2,2.1,2.7,2.665,0.5500382216440638,-0.04272144350277953,0.8126239146578184,0.012080834917249428,-0.16419,-27.052983
11.185,2.0,1.0,1.0,33.1,34.2,34.2,2.1,2.7,2.6675,0.5417189436919161,-0.043891227896822156,0.8176693198388666,0.011905268380534536,-0.168057,-26.844127
11.185,2.0,1.0,1.0,33.1,34.2,34.2,2.1,2.7,2.67,0.5332582125949937,-0.04510180585623246,0.8226701087902415,0.011710597337515751,-0.172086,-26.63278
11.185,2.0,1.0,1.0,33.1,34.2,34.2,2.1,2.7,2.6725,0.5246526416174188,-0.046355066994898025,0.8276236701208329,0.011495381544503896,-0.176286,-26.418869
11.185,2.0,1.0,1.0,33.1,34.2,34.2,2.1,2.7,2.675,0.5158987030907807,-0.047653010396543016,0.8325272269421137,0.011258059103543128,-0.180668,-26.202317
11.185,2.0,1.0,1.0,33.1,34.2,34.2,2.1,2.7,2.6775,0.5069927201790763,-0.048997752008226605,0.8373778230996509,0.010996934527602236,-0.185242,-25.983045
11.185,2.0,1.0,1.0,33.1,34.2,34.2,2.1,2.7,2.68,0.49793085807436227,-0.05039153257025648,0.8421723079632851,0.010710165456152174,-0.190021,-25.760968
11.185,2.0,1.0,1.0,33.1,34.2,34.2,2.1,2.7,2.6825,0.4887091145858494,-0.05183672611780674,0.8469073195966997,0.010395747847686296,-0.195019,-25.535999
11.185,2.0,1.0,1.0,33.1,34.2,34.2,2.1,2.7,2.685,0.4793233100844741,-0.05333584909004918,0.8515792661016546,0.01005149945077138,-0.200248,-25.308048
11.185,2.0,1.0,1.0,33.1,34.2,34.2,2.1,2.7,2.6875,0.46976907676495533,-0.05489157008246507,0.8561843049026818,0.009675041326282661,-0.205725,-25.07702
11.185,2.0,1.0,1.0,33.1,34.2,34.2,2.1,2.7,2.69,0.4600418471882008,-0.05650672027696346,0.86071831970384,0.009263777159880806,-0.211466,-24.842815
11.185,2.0,1.0,1.0,33.1,34.2,34.2,2.1,2.7,2.6925,0.45013684206894766,-0.05818430458216654,0.8651768948094268,0.008814870064721472,-0.217491,-24.605331
11.185,2.0,1.0,1.0,33.1,34.2,34.2,2.1,2.7,2.695,0.4400490572772881,-0.05992751351228732,0.8695552864542566,0.008325216528881157,-0.223817,-24.364458
11.185,2.0,1.0,1.0,33.1,34.2,34.2,2.1,2.7,2.6975,0.42977325002853195,-0.0617397358268982,0.8738483907352272,0.007791417108880381,-0.230469,-24.120084
11.185,2.0,1.0,1.0,33.1,34.2,34.2,2.1,2.7,2.7,0.41930392424474316,-0.0636245719448076,0.8780507076728756,0.007209743408624264,-0.237469,-23.872091
11.185,2.0,1.0,1.0,33.1,34.2,34.2,2.1,2.7,2.7025,0.408635315083866,-0.0655858481323304,0.8821563008579367,0.006576100810421228,-0.244843,-23.620354
11.185,2.0,1.0,1.0,33.1,34.2,34.2,2.1,2.7,2.705,0.39776137265011857,-0.06762763144819937,0.8861587520515462,0.005885986339545863,-0.25262,-23.364742
11.185,2.0,1.0,1.0,33.1,34.2,34.2,2.1,2.7,2.7075,0.38667574492366785,-0.0697542454026658,0.8900511100063233,0.005134440943752663,-0.260832,-23.10512
11.185,2.0,1.0,1.0,33.1,34.2,34.2,2.1,2.7,2.71,0.3753717599807111,-0.07197028625488605,0.8938258326563806,0.004315995351463036,-0.269514,-22.841345
11.185,2.0,1.0,1.0,33.1,34.2,34.2,2.1,2.7,2.7125,0.36384240761955106,-0.07428063982782529,0.8974747216839553,0.003424608533731408,-0.278702,-22.573266
11.185,2.0,1.0,1.0,33.1,34.2,34.2,2.1,2.7,2.715,0.35208032056769023,-0.07669049866009989,0.9009888483048979,0.0024535976316156787,-0.288441,-22.300726
11.185,2.0,1.0,1.0,33.1,34.2,34.2,2.1,2.7,2.7175,0.3400777555238646,-0.0792053792348644,0.9043584689199473,0.0013955580175438423,-0.298777,-22.023558
11.185,2.0,1.0,1.0,33.1,34.2,34.2,2.1,2.7,2.72,0.32782657439338136,-0.08183113892102732,0.9075729290479536,0.000242271931120077,-0.309762,-21.74159
11.185,2.0,1.0,1.0,33.1,34.2,34.2,2.1,2.7,2.7225,0.3153182262128762,-0.08457399212391167,0.9106205536843157,-0.0010153961400488306,-0.321454,-21.454637
11.185,2.0,1.0,1.0,33.1,34.2,34.2,2.1,2.7,2.725,0.30254373044217103,-0.08744052496063195,0.9134885219050216,-0.002387619483266119,-0.333918,-21.162508
11.185,2.0,1.0,1.0,33.1,34.2,34.2,2.1,2.7,2.7275,0.2894936625396251,-0.09043770753643261,0.9161627231546524,-0.0038857471141026147,-0.347227,-20.864999
11.185,2.0,1.0,1.0,33.1,34.2,34.2,2.1,2.7,2.73,0.27615814305145164,-0.09357290258409062,0.9186275922047556,-0.005522462634013322,-0.361461,-20.561897
11.185,2.0,1.0,1.0,33.1,34.2,34.2,2.1,2.7,2.7325,0.2625268318582928,-0.09685386881570604,0.9208659192349281,-0.007311967494463932,-0.376712,-20.252978
11.185,2.0,1.0,1.0,33.1,34.2,34.2,2.1,2.7,2.735,0.24858892976546831,-0.10028875679351566,0.9228586308588529,-0.009270192793226628,-0.393083,-19.938006
11.185,2.0,1.0,1.0,33.1,34.2,34.2,2.1,2.7,2.7375,0.23433319033808603,-0.10388609441242426,0.9245845371762639,-0.011415044461895547,-0.410691,-19.61673
11.185,2.0,1.0,1.0,33.1,34.2,34.2,2.1,2.7,2.74,0.21974794582393414,-0.10765475814676534,0.9260200390633382,-0.013766687562764399,-0.429666,-19.28889
11.185,2.0,1.0,1.0,33.1,34.2,34.2,2.1,2.7,2.7425,0.20482115224904052,-0.1116039249743088,0.9271387889027228,-0.01634787641337442,-0.450159,-18.954211
11.185,2.0,1.0,1.0,33.1,34.2,34.2,2.1,2.7,2.745,0.18954046041086225,-0.11574299825432764,0.9279112967870089,-0.019184338411126985,-0.472342,-18.612402
11.185,2.0,1.0,1.0,33.1,34.2,34.2,2.1,2.7,2.7475,0.17389332166252439,-0.12008149867389585,0.9283044728988794,-0.02230522074510521,-0.496409,-18.263159
11.185,2.0,1.0,1.0,33.1,34.2,34.2,2.1,2.7,2.75,0.157867140252216,-0.124628908514464,0.928281095282339,-0.025743610652123,-0.522586,-17.906164
11.185,2.0,1.0,1.0,33.1,34.2,34.2,2.1,2.7,2.7525,0.1414494877864645,-0.12939445369864422,0.9277991905998318,-0.02953714147111262,-0.551132,-17.541083
11.185,2.0,1.0,1.0,33.1,34.2,34.2,2.1,2.7,2.755,0.12462840043275562,-0.1343868030483731,0.9268113137855363,-0.033728698407684415,-0.582345,-17.167567
11.185,2.0,1.0,1.0,33.1,34.2,34.2,2.1,2.7,2.7575,0.10739278617459874,-0.13961365751366822,0.9252637108866978,-0.03836723950762699,-0.616574,-16.785255
11.185,2.0,1.0,1.0,33.1,34.2,34.2,2.1,2.7,2.76,0.08973297832014829,-0.1450811932798543,0.9230953480697083,-0.04350874861648588,-0.654223,-16.39377
11.185,2.0,1.0,1.0,33.1,34.2,34.2,2.1,2.7,2.7625,0.07164148324888982,-0.1507933109295014,0.9202367891649267,-0.049217337662975875,-0.695766,-15.992726
11.185,2.0,1.0,1.0,33.1,34.2,34.2,2.1,2.7,2.765,0.05311398597071908,-0.15675062731870915,0.9166089049173495,-0.055566514764089504,-0.74176,-15.58173
11.185,2.0,1.0,1.0,33.1,34.2,34.2,2.1,2.7,2.7675,0.03415069761990179,-0.16294912638204367,0.9121214004149113,-0.06264063129547183,-0.792863,-15.160382
11.185,2.0,1.0,1.0,33.1,34.2,34.2,2.1,2.7,2.77,0.014758155924975813,-0.1693783583058202,0.9066711547744889,-0.07053651341444031,-0.849854,-14.728288
11.185,2.0,1.0,1.0,33.1,34.2,34.2,2.1,2.7,2.7725,-0.005048375375265317,-0.17601904178078287,0.9001403819143695,-0.07936526873667511,-0.913658,-14.285061
11.185,2.0,1.0,1.0,33.1,34.2,34.2,2.1,2.7,2.775,-0.025241717536405802,-0.18283987965901974,0.8923946475632075,-0.08925423253501603,-0.985388,-13.830339
11.185,2.0,1.0,1.0,33.1,34.2,34.2,2.1,2.7,2.7775,-0.04577855177280864,-0.1897933428910346,0.8832808223762654,-0.10034897315100272,-1.066374,-13.363798
11.185,2.0,1.0,1.0,33.1,34.2,34.2,2.1,2.7,2.78,-0.06659384442027264,-0.1968101108280009,0.87262512449042,-0.11281520299426351,-1.158226,-12.885176
11.185,2.0,1.0,1.0,33.1,34.2,34.2,2.1,2.7,2.7825,-0.08759353224082254,-0.20379178035012444,0.8602315223698278,-0.12684032431087103,-1.262895,-12.394301
11.185,2.0,1.0,1.0,33.1,34.2,34.2,2.1,2.7,2.785,-0.10864500095195581,-0.2106013802709064,0.8458809523717984,-0.1426341559592585,-1.382755,-11.891129
11.185,2.0,1.0,1.0,33.1,34.2,34.2,2.1,2.7,2.7875,-0.12956483270909458,-0.21705117112913813,0.8293320852075967,-0.16042810882901898,-1.520705,-11.3758
11.185,2.0,1.0,1.0,33.1,34.2,34.2,2.1,2.7,2.79,-0.1501033019158028,-0.22288721520950197,0.8103247894076845,-0.18047166554672733,-1.680296,-10.848708
11.185,2.0,1.0,1.0,33.1,34.2,34.2,2.1,2.7,2.7925,-0.16992524196766856,-0.2277703457444821,0.788588028931706,-0.2030244342369573,-1.865887,-10.310585
11.185,2.0,1.0,1.0,33.1,34.2,34.2,2.1,2.7,2.795,-0.18858732685356963,-0.23125358564364282,0.7638547235001626,-0.22834125954172454,-2.082818,-9.762623
11.185,2.0,1.0,1.0,33.1,34.2,34.2,2.1,2.7,2.7975,-0.20551273697120553,-0.23275698961948726,0.7358870675696451,-0.25664691382157306,-2.337618,-9.206615
11.185,2.0,1.0,1.0,33.1,34.2,34.2,2.1,2.7,2.8,-0.21996594086080057,-0.23154263994631383,0.7045167833590327,-0.2880959213147891,-2.638196,-8.645135
11.185,2.0,1.0,1.0,33.1,34.2,34.2,2.1,2.7,2.8025,-0.23103333554788152,-0.22669552377410415,0.6697053243005155,-0.32271253752967666,-2.993987,-8.08174
11.185,2.0,1.0,1.0,33.1,34.2,34.2,2.1,2.7,2.805,-0.23762007667355925,-0.21712058359512754,0.6316281900442879,-0.36030676904435244,-3.415903,-7.521192
11.185,2.0,1.0,1.0,33.1,34.2,34.2,2.1,2.7,2.8075,-0.23847939518139202,-0.20157215833413966,0.590783585869184,-0.40036624299691287,-3.915834,-6.969672
11.185,2.0,1.0,1.0,33.1,34.2,34.2,2.1,2.7,2.81,-0.2322964168048519,-0.17873769965763214,0.5481163498124078,-0.44193301309680344,-4.505147,-6.434924
11.185,2.0,1.0,1.0,33.1,34.2,34.2,2.1,2.7,2.8125,-0.217849671906893,-0.147398771665876,0.505131480449837,-0.483490898732847,-5.191077,-5.926264
11.185,2.0,1.0,1.0,33.1,34.2,34.2,2.1,2.7,2.815,-0.19426245725775043,-0.10668131616628612,0.46394910319333316,-0.5229113073329636,-5.969024,-5.454339
11.185,2.0,1.0,1.0,33.1,34.2,34.2,2.1,2.7,2.8175,-0.16132441882073822,-0.05637548874770994,0.42723361492371353,-0.557524413182123,-6.807812,-5.030542
11.185,2.0,1.0,1.0,33.1,34.2,34.2,2.1,2.7,2.82,-0.11981036404313143,0.0027477058144908893,0.39793412913292386,-0.5843780786649934,-7.626923,-4.666026
11.185,2.0,1.0,1.0,33.1,34.2,34.2,2.1,2.7,2.8225,-0.07166878513530142,0.06874987824389475,0.3788244251789144,-0.6006959583965322,-8.278516,-4.370387
11.185,2.0,1.0,1.0,33.1,34.2,34.2,2.1,2.7,2.825,-0.019942397806263903,0.1386056195283805,0.37192997028983565,-0.6044473505805366,-8.578309,-4.150267
11.185,2.0,1.0,1.0,33.1,34.2,34.2,2.1,2.7,2.8275,0.03163987154324827,0.2086096150749913,0.37803022383303325,-0.5948414057366991,-8.419153,-4.008221
11.185,2.0,1.0,1.0,33.1,34.2,34.2,2.1,2.7,2.83,0.07930962058464773,0.2750206934355507,0.3964438258194858,-0.5725393269413723,-7.865946,-3.942236
