1,w,sub_t,h,l1,l2,l3,g1,g2,Freq,S11_re,S21_re,S11_img,S21_img,S11_dB,S21_dB
11.185,2.0,1.0,1.0,34.3,34.7,34.7,4.3,1.9,2.5,0.738243723742766,-0.0115444821954673,0.663111632448517,0.00591093373332936,-0.066869,-37.741373
11.185,2.0,1.0,1.0,34.3,34.7,34.7,4.3,1.9,2.5025,0.7330820593742616,-0.011768126782196993,0.6686832104678628,0.0059020019359169035,-0.067637,-37.611452
11.185,2.0,1.0,1.0,34.3,34.7,34.7,4.3,1.9,2.505,0.7278509684060551,-0.011996171073290209,0.6742415592426044,0.005891109479456499,-0.068422,-37.480862
11.185,2.0,1.0,1.0,34.3,34.7,34.7,4.3,1.9,2.5075,0.7225497316006283,-0.012228726349892537,0.6797860875197851,0.005878176515902906,-0.069223,-37.349587
11.185,2.0,1.0,1.0,34.3,34.7,34.7,4.3,1.9,2.51,0.7171776191685852,-0.012465907778190817,0.6853161867212322,0.00586311972734411,-0.07004,-37.217609
11.185,2.0,1.0,1.0,34.3,34.7,34.7,4.3,1.9,2.5125,0.7117338905979151,-0.012707834587146952,0.6908312303842187,0.005845852144945154,-0.070875,-37.084912
11.185,2.0,1.0,1.0,34.3,34.7,34.7,4.3,1.9,2.515,0.7062177944781501,-0.012954630256326184,0.69633057358105,0.005826282956516831,-0.071727,-36.951477
11.185,2.0,1.0,1.0,34.3,34.7,34.7,4.3,1.9,2.5175,0.7006285683190489,-0.013206422714498999,0.7018135523165009,0.00580431730186215,-0.072598,-36.817285
11.185,2.0,1.0,1.0,34.3,34.7,34.7,4.3,1.9,2.52,0.6949654383633501,-0.013463344549749854,0.7072794829019791,0.005779856054982083,-0.073488,-36.682319
11.185,2.0,1.0,1.0,34.3,34.7,34.7,4.3,1.9,2.5225,0.6892276193931481,-0.013725533231880676,0.7127276613051732,0.005752795592141136,-0.074397,-36.546558
11.185,2.0,1.0,1.0,34.3,34.7,34.7,4.3,1.9,2.525,0.6834143145293421,-0.013993131347961608,0.7181573624738976,0.005723027544706062,-0.075326,-36.409983
11.185,2.0,1.0,1.0,34.3,34.7,34.7,4.3,1.9,2.5275,0.6775247150235936,-0.014266286851947195,0.7235678396327138,0.005690438535573721,-0.076276,-36.272573
11.185,2.0,1.0,1.0,34.3,34.7,34.7,4.3,1.9,2.53,0.6715580000421605,-0.014545153329349953,0.7289583235508085,0.005654909897898559,-0.077247,-36.134306
11.185,2.0,1.0,1.0,34.3,34.7,34.7,4.3,1.9,2.5325,0.6655133364409002,-0.014829890278043737,0.7343280217794991,0.005616317374711845,-0.078241,-35.995161
11.185,2.0,1.0,1.0,34.3,34.7,34.7,4.3,1.9,2.535,0.6593898785306708,-0.015120663406356353,0.7396761178576022,0.005574530797896937,-0.079258,-35.855116
11.185,2.0,1.0,1.0,34.3,34.7,34.7,4.3,1.9,2.5375,0.6531867678322906,-0.015417644949705303,0.7450017704827451,0.005529413744840555,-0.080298,-35.714146
11.185,2.0,1.0,1.0,34.3,34.7,34.7,4.3,1.9,2.54,0.6469031328201064,-0.015721014007135718,0.7503041126465599,0.0054808231709233355,-0.081363,-35.572229
11.185,2.0,1.0,1.0,34.3,34.7,34.7,4.3,1.9,2.5425,0.6405380886531444,-0.016030956899231938,0.75558225073152,0.0054286090158380445,-0.082453,-35.429339
11.185,2.0,1.0,1.0,34.3,34.7,34.7,4.3,1.9,2.545,0.6340907368927011,-0.016347667548998912,0.7608352635669762,0.005372613781530152,-0.08357,-35.285451
11.185,2.0,1.0,1.0,34.3,34.7,34.7,4.3,1.9,2.5475,0.6275601652051304,-0.01667134788744462,0.7660622014417408,0.005312672079341599,-0.084713,-35.140539
11.185,2.0,1.0,1.0,34.3,34.7,34.7,4.3,1.9,2.55,0.6209454470484151,-0.017002208285744804,0.7712620850703468,0.005248610143699782,-0.085885,-34.994575
11.185,2.0,1.0,1.0,34.3,34.7,34.7,4.3,1.9,2.5525,0.6142456413410313,-0.017340468016031924,0.7764339045098072,0.005180245309430193,-0.087086,-34.847532
11.185,2.0,1.0,1.0,34.3,34.7,34.7,4.3,1.9,2.555,0.6074597921113852,-0.01768635574303128,0.7815766180234559,0.005107385449475564,-0.088318,-34.69938
11.185,2.0,1.0,1.0,34.3,34.7,34.7,4.3,1.9,2.5575,0.6005869281259765,-0.01804011004896172,0.786689150888087,0.005029828369477559,-0.089581,-34.550088
11.185,2.0,1.0,1.0,34.3,34.7,34.7,4.3,1.9,2.56,0.5936260624942329,-0.018401979994333593,0.7917703941402668,0.0049473611553103964,-0.090877,-34.399627
11.185,2.0,1.0,1.0,34.3,34.7,34.7,4.3,1.9,2.5625,0.5865761922477429,-0.018772225717513847,0.7968192032572771,0.004859759469247358,-0.092206,-34.247963
11.185,2.0,1.0,1.0,34.3,34.7,34.7,4.3,1.9,2.565,0.5794362978913707,-0.01915111907618816,0.8018343967677095,0.004766786789984754,-0.093571,-34.095063
11.185,2.0,1.0,1.0,34.3,34.7,34.7,4.3,1.9,2.5675,0.5722053429234996,-0.019538944334135222,0.8068147547861988,0.004668193591235436,-0.094973,-33.940893
11.185,2.0,1.0,1.0,34.3,34.7,34.7,4.3,1.9,2.57,0.5648822733223217,-0.019935998897045448,0.8117590174662496,0.004563716453031128,-0.096413,-33.785417
11.185,2.0,1.0,1.0,34.3,34.7,34.7,4.3,1.9,2.5725,0.5574660169947943,-0.0203425941014626,0.8166658833644433,0.004453077099228196,-0.097893,-33.628596
11.185,2.0,1.0,1.0,34.3,34.7,34.7,4.3,1.9,2.575,0.5499554831845145,-0.02075905606131084,0.8215340077086059,0.004335981353987527,-0.099414,-33.470393
11.185,2.0,1.0,1.0,34.3,34.7,34.7,4.3,1.9,2.5775,0.5423495618343622,-0.021185726576892952,0.8263620005617182,0.004212118009183817,-0.100978,-33.310767
11.185,2.0,1.0,1.0,34.3,34.7,34.7,4.3,1.9,2.58,0.5346471228993309,-0.02162296411171274,0.8311484248724154,0.004081157593780125,-0.102587,-33.149677
11.185,2.0,1.0,1.0,34.3,34.7,34.7,4.3,1.9,2.5825,0.5268470156044468,-0.02207114484299258,0.8358917944019346,0.003942751035164706,-0.104243,-32.987078
11.185,2.0,1.0,1.0,34.3,34.7,34.7,4.3,1.9,2.585,0.5189480676421636,-0.02253066379232729,0.8405905715161498,0.0037965282012732914,-0.105949,-32.822925
11.185,2.0,1.0,1.0,34.3,34.7,34.7,4.3,1.9,2.5875,0.5109490843029791,-0.023001936043550403,0.8452431648300747,0.0036420963109886142,-0.107705,-32.657172
11.185,2.0,1.0,1.0,34.3,34.7,34.7,4.3,1.9,2.59,0.5028488475323691,-0.023485398055588046,0.8498479266906657,0.003479038198799762,-0.109515,-32.489769
11.185,2.0,1.0,1.0,34.3,34.7,34.7,4.3,1.9,2.5925,0.49464611490635774,-0.0239815090788549,0.8544031504820874,0.0033069104179872548,-0.111382,-32.320665
11.185,2.0,1.0,1.0,34.3,34.7,34.7,4.3,1.9,2.595,0.4863396185172292,-0.02449075268460581,0.8589070677356498,0.003125241164646211,-0.113307,-32.149806
11.185,2.0,1.0,1.0,34.3,34.7,34.7,4.3,1.9,2.5975,0.4779280637599234,-0.025013638417615756,0.8633578450244142,0.0029335280026311257,-0.115293,-31.977137
11.185,2.0,1.0,1.0,34.3,34.7,34.7,4.3,1.9,2.6,0.469410128008634,-0.025550703583619574,0.8677535806199446,0.0027312353669593117,-0.117345,-31.8026
11.185,2.0,1.0,1.0,34.3,34.7,34.7,4.3,1.9,2.6025,0.46078445917198296,-0.026102515184122113,0.8720923008857661,0.002517791820296149,-0.119464,-31.626132
11.185,2.0,1.0,1.0,34.3,34.7,34.7,4.3,1.9,2.605,0.4520496741138071,-0.02666967201249888,0.8763719563787965,0.0022925870338005782,-0.121655,-31.447672
11.185,2.0,1.0,1.0,34.3,34.7,34.7,4.3,1.9,2.6075,0.44320435692521043,-0.027252806926760204,0.8805904176261575,0.002054968459770147,-0.12392,-31.267152
11.185,2.0,1.0,1.0,34.3,34.7,34.7,4.3,1.9,2.61,0.4342470570318926,-0.027852589315967242,0.8847454705404129,0.0018042376590995913,-0.126265,-31.084503
11.185,2.0,1.0,1.0,34.3,34.7,34.7,4.3,1.9,2.6125,0.42517628711899275,-0.028469727779083204,0.888834811431159,0.001539646241465895,-0.128692,-30.899651
11.185,2.0,1.0,1.0,34.3,34.7,34.7,4.3,1.9,2.615,0.4159905208536962,-0.02910497303703466,0.8928560415650474,0.0012603913702506663,-0.131208,-30.712519
11.185,2.0,1.0,1.0,34.3,34.7,34.7,4.3,1.9,2.6175,0.4066881903836499,-0.029759121100969056,0.8968066612194844,0.0009656107773756636,-0.133817,-30.523028
11.185,2.0,1.0,1.0,34.3,34.7,34.7,4.3,1.9,2.62,0.39726768358676007,-0.030433016722147554,0.9006840631673436,0.0006543772252861396,-0.136523,-30.331092
11.185,2.0,1.0,1.0,34.3,34.7,34.7,4.3,1.9,2.6225,0.38772734104521417,-0.031127557151628637,0.904485525520814,0.0003256923440767884,-0.139333,-30.136624
11.185,2.0,1.0,1.0,34.3,34.7,34.7,4.3,1.9,2.625,0.378065452713575,-0.0318436962409012,0.908208203851725,-2.15202390273745e-05,-0.142253,-29.939529
11.185,2.0,1.0,1.0,34.3,34.7,34.7,4.3,1.9,2.6275,0.3682802542473881,-0.032582448917944304,0.911849122493132,-0.00038842257323394894,-0.14529,-29.739708
11.185,2.0,1.0,1.0,34.3,34.7,34.7,4.3,1.9,2.63,0.3583699229551056,-0.033344896076837695,0.9154051649121512,-0.0007762709709714594,-0.14845,-29.53706
11.185,2.0,1.0,1.0,34.3,34.7,34.7,4.3,1.9,2.6325,0.34833257333203776,-0.03413218992305152,0.9188730630266809,-0.001186425635467262,-0.151743,-29.331473
11.185,2.0,1.0,1.0,34.3,34.7,34.7,4.3,1.9,2.635,0.33816625213061036,-0.034945559820910944,0.9222493853181619,-0.00162036147716129,-0.155175,-29.122833
11.185,2.0,1.0,1.0,34.3,34.7,34.7,4.3,1.9,2.6375,0.3278689329163754,-0.035786318694470076,0.9255305235683409,-0.002079680291211292,-0.158758,-28.911017
11.185,2.0,1.0,1.0,34.3,34.7,34.7,4.3,1.9,2.64,0.31743851005397694,-0.0366558700381287,0.9287126780192847,-0.0025661244970392807,-0.1625,-28.695897
11.185,2.0,1.0,1.0,34.3,34.7,34.7,4.3,1.9,2.6425,0.3068727920617531,-0.03755571559874619,0.9317918407217819,-0.0030815926749686836,-0.166413,-28.477337
11.185,2.0,1.0,1.0,34.3,34.7,34.7,4.3,1.9,2.645,0.29616949426773054,-0.038487463796692815,0.934763776796588,-0.0036281571756613612,-0.170509,-28.255191
11.185,2.0,1.0,1.0,34.3,34.7,34.7,4.3,1.9,2.6475,0.28532623069376933,-0.039452838959106104,0.9376240032842695,-0.004208084126679559,-0.174801,-28.029306
11.185,2.0,1.0,1.0,34.3,34.7,34.7,4.3,1.9,2.65,0.2743405050884822,-0.0404536914444127,0.9403677652010505,-0.0048238562188246,-0.179305,-27.799519
11.185,2.0,1.0,1.0,34.3,34.7,34.7,4.3,1.9,2.6525,0.26320970102384555,-0.04149200874264126,0.9429900083476922,-0.005478198725094128,-0.184036,-27.565657
11.185,2.0,1.0,1.0,34.3,34.7,34.7,4.3,1.9,2.655,0.2519310709651768,-0.04256992764078195,0.9454853483335774,-0.006174109289873344,-0.189012,-27.327535
11.185,2.0,1.0,1.0,34.3,34.7,34.7,4.3,1.9,2.6575,0.24050172422038896,-0.04368974754579391,0.947848035175193,-0.006914892128691256,-0.194254,-27.084958
11.185,2.0,1.0,1.0,34.3,34.7,34.7,4.3,1.9,2.66,0.22891861367274433,-0.04485394505893558,0.9500719127029909,-0.007704197403794922,-0.199783,-26.837715
11.185,2.0,1.0,1.0,34.3,34.7,34.7,4.3,1.9,2.6625,0.21717852120310677,-0.04606518989255992,0.9521503718577823,-0.00854606669326723,-0.205623,-26.585582
11.185,2.0,1.0,1.0,34.3,34.7,34.7,4.3,1.9,2.665,0.2052780417148495,-0.0473263622125045,0.9540762967704411,-0.00944498565822718,-0.211803,-26.328319
11.185,2.0,1.0,1.0,34.3,34.7,34.7,4.3,1.9,2.6675,0.19321356568971146,-0.04864057147298917,0.9558420022882702,-0.01040594524241506,-0.218353,-26.065671
11.185,2.0,1.0,1.0,34.3,34.7,34.7,4.3,1.9,2.67,0.18098126022985803,-0.05001117678267245,0.95743916132671,-0.011434513022194287,-0.225307,-25.797362
11.185,2.0,1.0,1.0,34.3,34.7,34.7,4.3,1.9,2.6725,0.16857704858563516,-0.0514418087946611,0.9588587200721099,-0.012536916676787276,-0.232703,-25.523097
11.185,2.0,1.0,1.0,34.3,34.7,34.7,4.3,1.9,2.675,0.1559965882379781,-0.052936393041932116,0.9600907986216273,-0.013720141986549486,-0.240587,-25.242556
11.185,2.0,1.0,1.0,34.3,34.7,34.7,4.3,1.9,2.6775,0.143235247710152,-0.054499174531494096,0.96112457409658,-0.014992048314723304,-0.249007,-24.955398
11.185,2.0,1.0,1.0,34.3,34.7,34.7,4.3,1.9,2.68,0.1302880824418287,-0.056134743249425474,0.961948142575048,-0.016361505215784715,-0.25802,-24.661253
11.185,2.0,1.0,1.0,34.3,34.7,34.7,4.3,1.9,2.6825,0.11714981029274844,-0.05784805999125726,0.9625483553183479,-0.017838554680794,-0.267689,-24.35972
11.185,2.0,1.0,1.0,34.3,34.7,34.7,4.3,1.9,2.685,0.10381478758687228,-0.059644481584135274,0.9629106236623459,-0.0194346046287771,-0.27809,-24.050367
11.185,2.0,1.0,1.0,34.3,34.7,34.7,4.3,1.9,2.6875,0.09027698711056711,-0.061529784059519206,0.9630186855398742,-0.021162660650852705,-0.289307,-23.732725
11.185,2.0,1.0,1.0,34.3,34.7,34.7,4.3,1.9,2.69,0.07652998021135649,-0.06351018159588745,0.9628543248054161,-0.023037604799600823,-0.301438,-23.406283
11.185,2.0,1.0,1.0,34.3,34.7,34.7,4.3,1.9,2.6925,0.06256692621294241,-0.06559233797424359,0.962397032229375,-0.02507653250721545,-0.314598,-23.070485
11.185,2.0,1.0,1.0,34.3,34.7,34.7,4.3,1.9,2.695,0.04838057392385608,-0.06778336571875082,0.9616235940611345,-0.027299161666601384,-0.328919,-22.724727
11.185,2.0,1.0,1.0,34.3,34.7,34.7,4.3,1.9,2.6975,0.03396328230366923,-0.0700908057978119,0.9605075902227052,-0.0297283317228509,-0.344557,-22.368346
11.185,2.0,1.0,1.0,34.3,34.7,34.7,4.3,1.9,2.7,0.01930707071158311,-0.07252257738837574,0.9590187792192093,-0.03239061556466992,-0.361698,-22.000618
11.185,2.0,1.0,1.0,34.3,34.7,34.7,4.3,1.9,2.7025,0.004403714124510585,-0.07508688223130675,0.9571223403881659,-0.035317073422956105,-0.380559,-21.620749
11.185,2.0,1.0,1.0,34.3,34.7,34.7,4.3,1.9,2.705,-0.01075509392119788,-0.077792040726328,0.9547779357058412,-0.03854418632205239,-0.401401,-21.227867
11.185,2.0,1.0,1.0,34.3,34.7,34.7,4.3,1.9,2.7075,-0.026177476905923633,-0.08064622590131715,0.9519385424587855,-0.042115017447018885,-0.424539,-20.821014
11.185,2.0,1.0,1.0,34.3,34.7,34.7,4.3,1.9,2.71,-0.041870959113773365,-0.08365704484059881,0.9485489939881634,-0.04608066375991467,-0.450351,-20.399133
11.185,2.0,1.0,1.0,34.3,34.7,34.7,4.3,1.9,2.7125,-0.05784182225660085,-0.0868308921063535,0.9445441476611229,-0.05050207806495861,-0.479299,-19.961061
11.185,2.0,1.0,1.0,34.3,34.7,34.7,4.3,1.9,2.715,-0.07409412130494394,-0.09017196148267381,0.939846576512421,-0.055452364167150776,-0.511952,-19.505514
11.185,2.0,1.0,1.0,34.3,34.7,34.7,4.3,1.9,2.7175,-0.09062818706137252,-0.09368074365832706,0.9343636533355134,-0.06101967505214446,-0.549014,-19.03108
11.185,2.0,1.0,1.0,34.3,34.7,34.7,4.3,1.9,2.72,-0.10743835185560244,-0.09735174655867036,0.9279838643244304,-0.06731087515052511,-0.591365,-18.536203
11.185,2.0,1.0,1.0,34.3,34.7,34.7,4.3,1.9,2.7225,-0.1245094925462628,-0.10117003333385732,0.920572157678145,-0.07445615867307742,-0.640115,-18.019179
11.185,2.0,1.0,1.0,34.3,34.7,34.7,4.3,1.9,2.725,-0.1418117620064088,-0.10510595093507599,0.9119641118958116,-0.08261483562625965,-0.696679,-17.478154
11.185,2.0,1.0,1.0,34.3,34.7,34.7,4.3,1.9,2.7275,-0.1592925295183493,-0.10910707319395745,0.9019587252458476,-0.09198247895084254,-0.762879,-16.911128
11.185,2.0,1.0,1.0,34.3,34.7,34.7,4.3,1.9,2.73,-0.17686399971237432,-0.11308583471143153,0.8903097415814377,-0.10279951080714263,-0.841085,-16.315988
11.185,2.0,1.0,1.0,34.3,34.7,34.7,4.3,1.9,2.7325,-0.1943841229421439,-0.1169004808728914,0.876715767533868,-0.11536096444491385,-0.93441,-15.690567
11.185,2.0,1.0,1.0,34.3,34.7,34.7,4.3,1.9,2.735,-0.2116271090908387,-0.1203256686091274,0.8608102760057992,-0.13002631759219643,-1.046988,-15.032763
11.185,2.0,1.0,1.0,34.3,34.7,34.7,4.3,1.9,2.7375,-0.22823798484211147,-0.12300719807595145,0.8421544973981521,-0.14722639036156304,-1.184346,-14.340769
11.185,2.0,1.0,1.0,34.3,34.7,34.7,4.3,1.9,2.74,-0.24366325938383196,-0.12439300863993412,0.8202403065927909,-0.16746020947832818,-1.353905,-13.613456
11.185,2.0,1.0,1.0,34.3,34.7,34.7,4.3,1.9,2.7425,-0.257047738093297,-0.12363058713144379,0.7945186552404144,-0.19126634359835767,-1.565595,-12.851061
11.185,2.0,1.0,1.0,34.3,34.7,34.7,4.3,1.9,2.745,-0.2670891317372904,-0.11942258258529613,0.7644854111917667,-0.21913701036138908,-1.832454,-12.05632
11.185,2.0,1.0,1.0,34.3,34.7,34.7,4.3,1.9,2.7475,-0.27185704698243934,-0.10984733381524434,0.7298846949778166,-0.2513152533340217,-2.170704,-11.236332
11.185,2.0,1.0,1.0,34.3,34.7,34.7,4.3,1.9,2.75,-0.268634783558437,-0.0922025765657434,0.691127499281611,-0.287378159772959,-2.59778,-10.405411
11.185,2.0,1.0,1.0,34.3,34.7,34.7,4.3,1.9,2.7525,-0.2539736486231944,-0.06306096088960275,0.6500354994343032,-0.3254972500142268,-3.124276,-9.58903
11.185,2.0,1.0,1.0,34.3,34.7,34.7,4.3,1.9,2.755,-0.2243852365934985,-0.018959912638880253,0.6108779734735519,-0.36140829464193414,-3.731254,-8.828102
11.185,2.0,1.0,1.0,34.3,34.7,34.7,4.3,1.9,2.7575,-0.17825589773595554,0.04169395745496114,0.5811190834363301,-0.38766940145912226,-4.324155,-8.180823
11.185,2.0,1.0,1.0,34.3,34.7,34.7,4.3,1.9,2.76,-0.11891793879854566,0.11556962783540042,0.5703303435715448,-0.3947423908307937,-4.692649,-7.716564
11.185,2.0,1.0,1.0,34.3,34.7,34.7,4.3,1.9,2.7625,-0.05659687024275455,0.19246957225354677,0.5857868859599822,-0.3753737752483829,-4.604855,-7.49702
11.185,2.0,1.0,1.0,34.3,34.7,34.7,4.3,1.9,2.765,-0.00541446675106488,0.258305533537534,0.6267894716327389,-0.3302547964805693,-4.057242,-7.550059
11.185,2.0,1.0,1.0,34.3,34.7,34.7,4.3,1.9,2.7675,0.02407031535612133,0.30253280116961123,0.6837458323597406,-0.2689527977210095,-3.296727,-7.855225
11.185,2.0,1.0,1.0,34.3,34.7,34.7,4.3,1.9,2.77,0.029799738980637546,0.32309185158250103,0.7439486544715875,-0.20415615164411127,-2.562178,-8.354447
11.185,2.0,1.0,1.0,34.3,34.7,34.7,4.3,1.9,2.7725,0.016502192734371316,0.32470891583629313,0.7979840732320543,-0.14526814519751782,-1.958259,-8.977766
11.185,2.0,1.0,1.0,34.3,34.7,34.7,4.3,1.9,2.775,-0.008982060462138909,0.3142253114605989,0.8416864084667521,-0.0964437252168203,-1.496499,-9.664197
11.185,2.0,1.0,1.0,34.3,34.7,34.7,4.3,1.9,2.7775,-0.04085569480849864,0.297438394671981,0.8746814722644255,-0.05804331972412072,-1.153537,-10.369746
11.185,2.0,1.0,1.0,34.3,34.7,34.7,4.3,1.9,2.78,-0.07524556119958171,0.2782179739524295,0.8983591707622971,-0.028662344215496228,-0.900638,-11.066446
11.185,2.0,1.0,1.0,34.3,34.7,34.7,4.3,1.9,2.7825,-0.10991526025623505,0.2587943219235886,0.9145578932543996,-0.006448916845322192,-0.713494,-11.738209
11.185,2.0,1.0,1.0,34.3,34.7,34.7,4.3,1.9,2.785,-0.14371893277459577,0.24030578571398076,0.9249715342297078,0.010302514687527523,-0.573831,-12.37674
11.185,2.0,1.0,1.0,34.3,34.7,34.7,4.3,1.9,2.7875,-0.1761527182445635,0.22324837108953732,0.9309699493963188,0.022971891553569677,-0.468519,-12.978492
11.185,2.0,1.0,1.0,34.3,34.7,34.7,4.3,1.9,2.79,-0.20706160015897207,0.20776941803441137,0.9335974231200838,0.032612538913212044,-0.388264,-13.542663
11.185,2.0,1.0,1.0,34.3,34.7,34.7,4.3,1.9,2.7925,-0.23646694548994518,0.19384023076944257,0.9336284064196692,0.04000738761504458,-0.326493,-14.069951
11.185,2.0,1.0,1.0,34.3,34.7,34.7,4.3,1.9,2.795,-0.26447093826587165,0.18135163711768693,0.9316305877371122,0.04573240344993357,-0.278525,-14.561818
11.185,2.0,1.0,1.0,34.3,34.7,34.7,4.3,1.9,2.7975,-0.2912058776365412,0.17016461483140016,0.9280187682882642,0.0502107064399444,-0.240998,-15.020051
11.185,2.0,1.0,1.0,34.3,34.7,34.7,4.3,1.9,2.8,-0.3168084654595632,0.16013591353098783,0.9230964196897639,0.05375429088088853,-0.211466,-15.44652
11.185,2.0,1.0,1.0,34.3,34.7,34.7,4.3,1.9,2.8025,-0.34140761077679876,0.15113016725019024,0.9170863153800747,0.05659476815773545,-0.188129,-15.843041
11.185,2.0,1.0,1.0,34.3,34.7,34.7,4.3,1.9,2.805,-0.3651193651874169,0.1430248905955123,0.9101526471163167,0.05890556606139476,-0.169649,-16.211302
11.185,2.0,1.0,1.0,34.3,34.7,34.7,4.3,1.9,2.8075,-0.38804550691142164,0.13571184112684492,0.9024168656751097,0.06081783894495268,-0.155017,-16.552833
11.185,2.0,1.0,1.0,34.3,34.7,34.7,4.3,1.9,2.81,-0.4102739024848784,0.12909661702672753,0.8939690132314666,0.06243186630017844,-0.143467,-16.868993
11.185,2.0,1.0,1.0,34.3,34.7,34.7,4.3,1.9,2.8125,-0.431879656037895,0.123097477571483,0.884875851638845,0.0638252508834383,-0.134408,-17.160963
11.185,2.0,1.0,1.0,34.3,34.7,34.7,4.3,1.9,2.815,-0.45292653373540676,0.11764389645460194,0.8751867191249563,0.06505885399262262,-0.127386,-17.42976
11.185,2.0,1.0,1.0,34.3,34.7,34.7,4.3,1.9,2.8175,-0.4734684079787231,0.11267510136415738,0.8649377725107835,0.0661811292101111,-0.122043,-17.676235
11.185,2.0,1.0,1.0,34.3,34.7,34.7,4.3,1.9,2.82,-0.49355060287701263,0.10813871666913466,0.8541550753899926,0.06723131901690674,-0.118099,-17.90109
11.185,2.0,1.0,1.0,34.3,34.7,34.7,4.3,1.9,2.8225,-0.5132110941940277,0.10398955465601721,0.8428568546320162,0.06824184083152962,-0.115332,-18.104879
11.185,2.0,1.0,1.0,34.3,34.7,34.7,4.3,1.9,2.825,-0.5324815533838307,0.10018856452749193,0.8310551512395471,0.06924009329068219,-0.113567,-18.288021
11.185,2.0,1.0,1.0,34.3,34.7,34.7,4.3,1.9,2.8275,-0.5513882427673651,0.09670193100698646,0.8187570243508472,0.07024984729440564,-0.112663,-18.450801
11.185,2.0,1.0,1.0,34.3,34.7,34.7,4.3,1.9,2.83,-0.5699527762654762,0.09350030698589877,0.805965419988704,0.07129234047285402,-0.112509,-18.593378
