1,w,sub_t,h,l1,l2,l3,g1,g2,Freq,S11_re,S21_re,S11_img,S21_img,S11_dB,S21_dB
11.185,2.0,1.0,1.0,33.1,33.6,33.6,4.2,3.1,2.5,0.891398644012967,-0.00411601246738481,0.441147639065722,0.00351070202331721,-0.047147,-45.336279
11.185,2.0,1.0,1.0,33.1,33.6,33.6,4.2,3.1,2.5025,0.8886485295579547,-0.004199463470339027,0.44656511781246666,0.003527089551382057,-0.047525,-45.21782
11.185,2.0,1.0,1.0,33.1,33.6,33.6,4.2,3.1,2.505,0.8858551210026099,-0.004284290708446354,0.45198428484503284,0.003543094941150133,-0.047909,-45.099197
11.185,2.0,1.0,1.0,33.1,33.6,33.6,4.2,3.1,2.5075,0.8830180357078191,-0.0043705193050220855,0.4574049946178198,0.0035587033413834804,-0.0483,-44.980401
11.185,2.0,1.0,1.0,33.1,33.6,33.6,4.2,3.1,2.51,0.8801368850110124,-0.004458174990033973,0.46282709735799255,0.003573899403852451,-0.048696,-44.861423
11.185,2.0,1.0,1.0,33.1,33.6,33.6,4.2,3.1,2.5125,0.8772112741268552,-0.004547284118361942,0.4682504389280164,0.003588667264524653,-0.049099,-44.742256
11.185,2.0,1.0,1.0,33.1,33.6,33.6,4.2,3.1,2.515,0.8742408020463479,-0.004637873688725486,0.4736748606838489,0.0036029905239453493,-0.049509,-44.62289
11.185,2.0,1.0,1.0,33.1,33.6,33.6,4.2,3.1,2.5175,0.8712250614343221,-0.0047299713633075875,0.47910019932862524,0.0036168522267702374,-0.049925,-44.503317
11.185,2.0,1.0,1.0,33.1,33.6,33.6,4.2,3.1,2.52,0.8681636385253025,-0.004823605488106509,0.4845262867617057,0.0036302348404080756,-0.050348,-44.383528
11.185,2.0,1.0,1.0,33.1,33.6,33.6,4.2,3.1,2.5225,0.8650561130177225,-0.004918805114046688,0.4899529499228961,0.0036431202327290736,-0.050778,-44.263514
11.185,2.0,1.0,1.0,33.1,33.6,33.6,4.2,3.1,2.525,0.8619020579664605,-0.005015600018884244,0.4953800106316993,0.003655489648792129,-0.051215,-44.143267
11.185,2.0,1.0,1.0,33.1,33.6,33.6,4.2,3.1,2.5275,0.8587010396736859,-0.0051140207299416865,0.5008072854214186,0.0036673236865411222,-0.05166,-44.022777
11.185,2.0,1.0,1.0,33.1,33.6,33.6,4.2,3.1,2.53,0.8554526175779837,-0.005214098547709992,0.5062345853679269,0.00367860227141807,-0.052111,-43.902036
11.185,2.0,1.0,1.0,33.1,33.6,33.6,4.2,3.1,2.5325,0.8521563441417439,-0.00531586557035791,0.5116617159129228,0.003689304629837409,-0.052571,-43.781033
11.185,2.0,1.0,1.0,33.1,33.6,33.6,4.2,3.1,2.535,0.8488117647367828,-0.005419354719189928,0.5170884766814814,0.00369940926146256,-0.053038,-43.659761
11.185,2.0,1.0,1.0,33.1,33.6,33.6,4.2,3.1,2.5375,0.8454184175281869,-0.005524599765097543,0.5225146612936896,0.0037088939102229825,-0.053513,-43.538209
11.185,2.0,1.0,1.0,33.1,33.6,33.6,4.2,3.1,2.54,0.8419758333563434,-0.005631635356049454,0.5279400571701668,0.0037177355340051285,-0.053996,-43.416368
11.185,2.0,1.0,1.0,33.1,33.6,33.6,4.2,3.1,2.5425,0.8384835356171447,-0.005740497045670822,0.5333644453312476,0.003725910272947619,-0.054487,-43.294229
11.185,2.0,1.0,1.0,33.1,33.6,33.6,4.2,3.1,2.545,0.8349410401403352,-0.005851221322961973,0.538787600189606,0.0037333934162666928,-0.054987,-43.171781
11.185,2.0,1.0,1.0,33.1,33.6,33.6,4.2,3.1,2.5475,0.8313478550659862,-0.005963845643212565,0.5442092893360725,0.003740159367532891,-0.055495,-43.049016
11.185,2.0,1.0,1.0,33.1,33.6,33.6,4.2,3.1,2.55,0.8277034807190627,-0.006078408460167514,0.5496292733184197,0.003746181608315702,-0.056013,-42.925923
11.185,2.0,1.0,1.0,33.1,33.6,33.6,4.2,3.1,2.5525,0.8240074094820752,-0.006194949259506549,0.5550473054128373,0.003751432660107307,-0.056539,-42.802492
11.185,2.0,1.0,1.0,33.1,33.6,33.6,4.2,3.1,2.555,0.8202591256657741,-0.006313508593700907,0.5604631313878474,0.003755884044431252,-0.057075,-42.678713
11.185,2.0,1.0,1.0,33.1,33.6,33.6,4.2,3.1,2.5575,0.8164581053778726,-0.006434128118315966,0.5658764892603798,0.0037595062410360164,-0.05762,-42.554575
11.185,2.0,1.0,1.0,33.1,33.6,33.6,4.2,3.1,2.56,0.8126038163897701,-0.006556850629831043,0.5712871090437086,0.003762268644066642,-0.058175,-42.430069
11.185,2.0,1.0,1.0,33.1,33.6,33.6,4.2,3.1,2.5625,0.8086957180012514,-0.006681720105052496,0.5766947124869596,0.003764139516101537,-0.058741,-42.305183
11.185,2.0,1.0,1.0,33.1,33.6,33.6,4.2,3.1,2.565,0.8047332609031296,-0.006808781742201169,0.5820990128058701,0.003765085939933572,-0.059316,-42.179907
11.185,2.0,1.0,1.0,33.1,33.6,33.6,4.2,3.1,2.5675,0.8007158870378138,-0.006938082003758584,0.5874997144044662,0.003765073767966784,-0.059902,-42.05423
11.185,2.0,1.0,1.0,33.1,33.6,33.6,4.2,3.1,2.57,0.7966430294577692,-0.007069668661162663,0.5928965125873236,0.003764067569092521,-0.060498,-41.92814
11.185,2.0,1.0,1.0,33.1,33.6,33.6,4.2,3.1,2.5725,0.7925141121818366,-0.007203590841448618,0.5982890932620488,0.003762030572898295,-0.061106,-41.801627
11.185,2.0,1.0,1.0,33.1,33.6,33.6,4.2,3.1,2.575,0.7883285500493893,-0.007339899075935941,0.6036771326316069,0.003758924611054394,-0.061724,-41.674679
11.185,2.0,1.0,1.0,33.1,33.6,33.6,4.2,3.1,2.5775,0.784085748572288,-0.007478645351069742,0.6090602968761023,0.0037547100557116736,-0.062355,-41.547284
11.185,2.0,1.0,1.0,33.1,33.6,33.6,4.2,3.1,2.58,0.7797851037846106,-0.0076198831615294695,0.6144382418236027,0.0037493457547336114,-0.062997,-41.41943
11.185,2.0,1.0,1.0,33.1,33.6,33.6,4.2,3.1,2.5825,0.7754260020901113,-0.00776366756572718,0.6198106126095799,0.0037427889635728673,-0.063651,-41.291105
11.185,2.0,1.0,1.0,33.1,33.6,33.6,4.2,3.1,2.585,0.7710078201073834,-0.007910055243822798,0.6251770433245137,0.003734995273589818,-0.064318,-41.162298
11.185,2.0,1.0,1.0,33.1,33.6,33.6,4.2,3.1,2.5875,0.7665299245126794,-0.00805910455839429,0.6305371566491913,0.003725918536597329,-0.064997,-41.032995
11.185,2.0,1.0,1.0,33.1,33.6,33.6,4.2,3.1,2.59,0.7619916718803555,-0.008210875617905993,0.6358905634772042,0.0037155107853983856,-0.06569,-40.903183
11.185,2.0,1.0,1.0,33.1,33.6,33.6,4.2,3.1,2.5925,0.7573924085208905,-0.008365430343131414,0.6412368625241298,0.003703722150070305,-0.066396,-40.77285
11.185,2.0,1.0,1.0,33.1,33.6,33.6,4.2,3.1,2.595,0.7527314703164442,-0.008522832536692858,0.6465756399228436,0.0036905007697284036,-0.067116,-40.641982
11.185,2.0,1.0,1.0,33.1,33.6,33.6,4.2,3.1,2.5975,0.7480081825538936,-0.008683147955893693,0.651906468804401,0.003675792699484437,-0.06785,-40.510567
11.185,2.0,1.0,1.0,33.1,33.6,33.6,4.2,3.1,2.6,0.7432218597553025,-0.00884644438902889,0.6572289088638846,0.0036595418122947723,-0.068599,-40.378589
11.185,2.0,1.0,1.0,33.1,33.6,33.6,4.2,3.1,2.6025,0.7383718055057715,-0.009012791735371247,0.6625425059105753,0.0036416896953691486,-0.069363,-40.246035
11.185,2.0,1.0,1.0,33.1,33.6,33.6,4.2,3.1,2.605,0.7334573122785961,-0.00918226208904526,0.6678467914017975,0.003622175540788535,-0.070142,-40.112891
11.185,2.0,1.0,1.0,33.1,33.6,33.6,4.2,3.1,2.6075,0.7284776612576771,-0.009354929827013135,0.6731412819597224,0.003600936029953129,-0.070937,-39.979141
11.185,2.0,1.0,1.0,33.1,33.6,33.6,4.2,3.1,2.61,0.7234321221571125,-0.009530871701412497,0.6784254788703976,0.003577905211453169,-0.071748,-39.844771
11.185,2.0,1.0,1.0,33.1,33.6,33.6,4.2,3.1,2.6125,0.7183199530378839,-0.0097101669365028,0.6836988675642206,0.0035530143719247347,-0.072576,-39.709766
11.185,2.0,1.0,1.0,33.1,33.6,33.6,4.2,3.1,2.615,0.713140400121559,-0.009892897330492794,0.6889609170770338,0.0035261918994184023,-0.073421,-39.574109
11.185,2.0,1.0,1.0,33.1,33.6,33.6,4.2,3.1,2.6175,0.7078926976009198,-0.01007914736254158,0.6942110794909654,0.0034973631387727627,-0.074283,-39.437785
11.185,2.0,1.0,1.0,33.1,33.6,33.6,4.2,3.1,2.62,0.7025760674474084,-0.010269004305244704,0.6994487893540986,0.0034664502384441874,-0.075164,-39.300777
11.185,2.0,1.0,1.0,33.1,33.6,33.6,4.2,3.1,2.6225,0.697189719215283,-0.01046255834293985,0.7046734630779952,0.003433371988202036,-0.076064,-39.163069
11.185,2.0,1.0,1.0,33.1,33.6,33.6,4.2,3.1,2.625,0.691732849842364,-0.0106599026961871,0.709884498312028,0.00339804364705008,-0.076982,-39.024643
11.185,2.0,1.0,1.0,33.1,33.6,33.6,4.2,3.1,2.6275,0.6862046434472291,-0.010861133752806729,0.7150812732934411,0.0033603767606844625,-0.077921,-38.885481
11.185,2.0,1.0,1.0,33.1,33.6,33.6,4.2,3.1,2.63,0.6806042711227154,-0.011066351205883625,0.7202631461719591,0.0033202789677418145,-0.07888,-38.745565
11.185,2.0,1.0,1.0,33.1,33.6,33.6,4.2,3.1,2.6325,0.6749308907255627,-0.01127565819917384,0.7254294543077147,0.003277653794030085,-0.07986,-38.604878
11.185,2.0,1.0,1.0,33.1,33.6,33.6,4.2,3.1,2.635,0.6691836466620165,-0.011489161480385366,0.7305795135411708,0.003232400433867522,-0.080862,-38.463399
11.185,2.0,1.0,1.0,33.1,33.6,33.6,4.2,3.1,2.6375,0.6633616696692011,-0.011706971562833112,0.7357126174336333,0.003184413517582041,-0.081886,-38.321109
11.185,2.0,1.0,1.0,33.1,33.6,33.6,4.2,3.1,2.64,0.6574640765920275,-0.011929202896009593,0.7408280364768617,0.003133582864142582,-0.082933,-38.177988
11.185,2.0,1.0,1.0,33.1,33.6,33.6,4.2,3.1,2.6425,0.6514899701554082,-0.012155974045649488,0.7459250172701705,0.003079793217806718,-0.084004,-38.034015
11.185,2.0,1.0,1.0,33.1,33.6,33.6,4.2,3.1,2.645,0.6454384387315054,-0.01238740788390908,0.7510027816633151,0.0030229239675715106,-0.085099,-37.88917
11.185,2.0,1.0,1.0,33.1,33.6,33.6,4.2,3.1,2.6475,0.6393085561017205,-0.012623631790329989,0.7560605258633286,0.002962848848109694,-0.08622,-37.74343
11.185,2.0,1.0,1.0,33.1,33.6,33.6,4.2,3.1,2.65,0.6330993812130827,-0.012864777864302825,0.7610974195033574,0.0028994356207554376,-0.087367,-37.596774
11.185,2.0,1.0,1.0,33.1,33.6,33.6,4.2,3.1,2.6525,0.626809957928703,-0.01311098314980344,0.7661126046713713,0.002832545732977522,-0.08854,-37.449177
11.185,2.0,1.0,1.0,33.1,33.6,33.6,4.2,3.1,2.655,0.6204393147718628,-0.01336238987323231,0.7711051948965069,0.0027620339546353878,-0.089742,-37.300616
11.185,2.0,1.0,1.0,33.1,33.6,33.6,4.2,3.1,2.6575,0.6139864646633151,-0.013619145695249444,0.7760742740905983,0.002687747989159124,-0.090973,-37.151067
11.185,2.0,1.0,1.0,33.1,33.6,33.6,4.2,3.1,2.66,0.6074504046512952,-0.01388140397756765,0.7810188954422794,0.0026095280576231587,-0.092233,-37.000505
11.185,2.0,1.0,1.0,33.1,33.6,33.6,4.2,3.1,2.6625,0.6008301156337106,-0.014149324065739,0.7859380802608238,0.0025272064534925137,-0.093524,-36.848904
11.185,2.0,1.0,1.0,33.1,33.6,33.6,4.2,3.1,2.665,0.5941245620718951,-0.014423071589054568,0.7908308167666772,0.0024406070656144453,-0.094847,-36.696237
11.185,2.0,1.0,1.0,33.1,33.6,33.6,4.2,3.1,2.6675,0.5873326916952799,-0.0147028187787576,0.7956960588253658,0.0023495448667938813,-0.096203,-36.542475
11.185,2.0,1.0,1.0,33.1,33.6,33.6,4.2,3.1,2.67,0.580453435196237,-0.014988744805872603,0.8005327246212107,0.0022538253650364374,-0.097594,-36.387592
11.185,2.0,1.0,1.0,33.1,33.6,33.6,4.2,3.1,2.6725,0.5734857059142814,-0.01528103614005037,0.8053396952669573,0.0021532440142576063,-0.099019,-36.231558
11.185,2.0,1.0,1.0,33.1,33.6,33.6,4.2,3.1,2.675,0.5664283995087438,-0.015579886930943587,0.8101158133451017,0.002047585580942386,-0.100482,-36.074341
11.185,2.0,1.0,1.0,33.1,33.6,33.6,4.2,3.1,2.6775,0.5592803936189171,-0.01588549941374666,0.8148598813763176,0.0019366234628872688,-0.101983,-35.915911
11.185,2.0,1.0,1.0,33.1,33.6,33.6,4.2,3.1,2.68,0.5520405475105737,-0.016198084340667142,0.8195706602099845,0.0018201189557677036,-0.103523,-35.756235
11.185,2.0,1.0,1.0,33.1,33.6,33.6,4.2,3.1,2.6825,0.5447077017076539,-0.016517861440236502,0.8242468673313414,0.0016978204628380453,-0.105104,-35.59528
11.185,2.0,1.0,1.0,33.1,33.6,33.6,4.2,3.1,2.685,0.5372806776077768,-0.016845059906525288,0.8288871750793043,0.0015694626425879436,-0.106728,-35.433012
11.185,2.0,1.0,1.0,33.1,33.6,33.6,4.2,3.1,2.6875,0.529758277080095,-0.0171799189204941,0.833490208768395,0.00143476548863539,-0.108396,-35.269393
11.185,2.0,1.0,1.0,33.1,33.6,33.6,4.2,3.1,2.69,0.5221392820438747,-0.01752268820589552,0.8380545447076088,0.0012934333355328123,-0.11011,-35.104387
11.185,2.0,1.0,1.0,33.1,33.6,33.6,4.2,3.1,2.6925,0.5144224540259736,-0.017873628622339616,0.8425787081083443,0.0011451537834843983,-0.111873,-34.937955
11.185,2.0,1.0,1.0,33.1,33.6,33.6,4.2,3.1,2.695,0.5066065336952642,-0.01823301279835155,0.8470611708727054,0.0009895965342122297,-0.113685,-34.770057
11.185,2.0,1.0,1.0,33.1,33.6,33.6,4.2,3.1,2.6975,0.49869024037177445,-0.01860112580748092,0.8515003492526354,0.0008264121293561746,-0.115548,-34.600652
11.185,2.0,1.0,1.0,33.1,33.6,33.6,4.2,3.1,2.7,0.4906722715081651,-0.018978265890777557,0.8558946013693064,0.0006552305818340867,-0.117467,-34.429696
11.185,2.0,1.0,1.0,33.1,33.6,33.6,4.2,3.1,2.7025,0.48255130214085623,-0.019364745229219636,0.8602422245811042,0.00047565988950748505,-0.119441,-34.257145
11.185,2.0,1.0,1.0,33.1,33.6,33.6,4.2,3.1,2.705,0.4743259843078984,-0.019760890769976155,0.8645414526872667,0.0002872844192837549,-0.121474,-34.082952
11.185,2.0,1.0,1.0,33.1,33.6,33.6,4.2,3.1,2.7075,0.46599494643035216,-0.020167045110705956,0.8687904529528256,8.966314840871145e-05,-0.123569,-33.907069
11.185,2.0,1.0,1.0,33.1,33.6,33.6,4.2,3.1,2.71,0.45755679265365085,-0.020583567446438106,0.8729873229388927,-0.00011767225184713858,-0.125728,-33.729445
11.185,2.0,1.0,1.0,33.1,33.6,33.6,4.2,3.1,2.7125,0.4490101021450509,-0.021010834583950484,0.8771300871205195,-0.00033521950666643384,-0.127954,-33.550029
11.185,2.0,1.0,1.0,33.1,33.6,33.6,4.2,3.1,2.715,0.4403534283429183,-0.02144924202896011,0.8812166932723043,-0.000563508020878918,-0.13025,-33.368765
11.185,2.0,1.0,1.0,33.1,33.6,33.6,4.2,3.1,2.7175,0.43158529815317764,-0.02189920515186432,0.8852450085995858,-0.0008031013756915532,-0.13262,-33.185596
11.185,2.0,1.0,1.0,33.1,33.6,33.6,4.2,3.1,2.72,0.42270421108782835,-0.022361160438226665,0.889212815590403,-0.0010546000623505906,-0.135067,-33.000464
11.185,2.0,1.0,1.0,33.1,33.6,33.6,4.2,3.1,2.7225,0.41370863833993843,-0.02283556683068326,0.8931178075603934,-0.001318644479078348,-0.137595,-32.813307
11.185,2.0,1.0,1.0,33.1,33.6,33.6,4.2,3.1,2.725,0.4045970217890675,-0.023322907169451176,0.8969575838593258,-0.0015959182209749657,-0.140207,-32.624059
11.185,2.0,1.0,1.0,33.1,33.6,33.6,4.2,3.1,2.7275,0.39536777293048275,-0.023823689739158403,0.9007296447040499,-0.0018871516964246771,-0.142909,-32.432654
11.185,2.0,1.0,1.0,33.1,33.6,33.6,4.2,3.1,2.73,0.386019271721036,-0.024338449930263156,0.9044313855980936,-0.00219312610793925,-0.145704,-32.239021
11.185,2.0,1.0,1.0,33.1,33.6,33.6,4.2,3.1,2.7325,0.3765498653339412,-0.024867752023899625,0.908060091292977,-0.0025146778404282148,-0.148597,-32.043085
11.185,2.0,1.0,1.0,33.1,33.6,33.6,4.2,3.1,2.735,0.36695786681413467,-0.02541219110956032,0.9116129292403301,-0.0028527033056928103,-0.151595,-31.844771
11.185,2.0,1.0,1.0,33.1,33.6,33.6,4.2,3.1,2.7375,0.3572415536252803,-0.025972395145589057,0.9150869424770357,-0.0032081642986410077,-0.154701,-31.643997
11.185,2.0,1.0,1.0,33.1,33.6,33.6,4.2,3.1,2.74,0.3473991660789257,-0.026549027172996884,0.9184790418776771,-0.003582093928454613,-0.157924,-31.440678
11.185,2.0,1.0,1.0,33.1,33.6,33.6,4.2,3.1,2.7425,0.3374289056357421,-0.027142787693605647,0.9217859976993864,-0.003975603196890385,-0.161268,-31.234725
11.185,2.0,1.0,1.0,33.1,33.6,33.6,4.2,3.1,2.745,0.32732893306832994,-0.027754417223927092,0.9250044303335412,-0.004389888306279076,-0.164741,-31.026045
11.185,2.0,1.0,1.0,33.1,33.6,33.6,4.2,3.1,2.7475,0.31709736647468234,-0.028384699036467096,0.9281308001663737,-0.004826238791849537,-0.168351,-30.81454
11.185,2.0,1.0,1.0,33.1,33.6,33.6,4.2,3.1,2.75,0.306732279131214,-0.0290344621002367,0.931161396436147,-0.00528604658706011,-0.172105,-30.600106
11.185,2.0,1.0,1.0,33.1,33.6,33.6,4.2,3.1,2.7525,0.2962316971742777,-0.02970458423207899,0.9340923249577104,-0.005770816147024679,-0.176014,-30.382636
11.185,2.0,1.0,1.0,33.1,33.6,33.6,4.2,3.1,2.755,0.2855935970995054,-0.03039599546987936,0.9369194945655612,-0.006282175774321084,-0.180085,-30.162013
11.185,2.0,1.0,1.0,33.1,33.6,33.6,4.2,3.1,2.7575,0.27481590306911524,-0.031109681677677022,0.9396386021034289,-0.006821890313992603,-0.18433,-29.93812
11.185,2.0,1.0,1.0,33.1,33.6,33.6,4.2,3.1,2.76,0.2638964840189015,-0.03184668839095467,0.9422451157612248,-0.007391875411032827,-0.188761,-29.710827
11.185,2.0,1.0,1.0,33.1,33.6,33.6,4.2,3.1,2.7625,0.252833150558959,-0.032608124907714246,0.9447342565281739,-0.007994213554870015,-0.193389,-29.480001
11.185,2.0,1.0,1.0,33.1,33.6,33.6,4.2,3.1,2.765,0.2416236516658525,-0.03339516862702523,0.9471009774930819,-0.00863117217226307,-0.198228,-29.2455
11.185,2.0,1.0,1.0,33.1,33.6,33.6,4.2,3.1,2.7675,0.2302656711691327,-0.034209069631143944,0.9493399406778109,-0.009305224073752531,-0.203294,-29.007174
11.185,2.0,1.0,1.0,33.1,33.6,33.6,4.2,3.1,2.77,0.21875682404248833,-0.035051155499493676,0.951445491036729,-0.010019070610771279,-0.208601,-28.764864
11.185,2.0,1.0,1.0,33.1,33.6,33.6,4.2,3.1,2.7725,0.2070946525201221,-0.03592283633202097,0.9534116271913443,-0.010775667962431486,-0.214169,-28.518401
11.185,2.0,1.0,1.0,33.1,33.6,33.6,4.2,3.1,2.775,0.1952766220730744,-0.03682560994474357,0.9552319683933955,-0.011578257044986504,-0.220017,-28.267608
11.185,2.0,1.0,1.0,33.1,33.6,33.6,4.2,3.1,2.7775,0.18330011729952084,-0.037761067180374065,0.956899717118671,-0.012430397625618378,-0.226166,-28.012294
11.185,2.0,1.0,1.0,33.1,33.6,33.6,4.2,3.1,2.78,0.17116243780924764,-0.038730897250018964,0.9584076165844317,-0.01333600732874805,-0.232642,-27.752258
11.185,2.0,1.0,1.0,33.1,33.6,33.6,4.2,3.1,2.7825,0.15886079421789565,-0.039736892985802144,0.9597479023514153,-0.014299406351496421,-0.239469,-27.487284
11.185,2.0,1.0,1.0,33.1,33.6,33.6,4.2,3.1,2.785,0.14639230441415413,-0.04078095583577245,0.9609122470119353,-0.01532536886020232,-0.246679,-27.217145
11.185,2.0,1.0,1.0,33.1,33.6,33.6,4.2,3.1,2.7875,0.13375399032725166,-0.041865100367436535,0.9618916967721234,-0.016419182228200373,-0.254304,-26.941595
11.185,2.0,1.0,1.0,33.1,33.6,33.6,4.2,3.1,2.79,0.1209427755081998,-0.04299145795913375,0.9626765985010156,-0.017586715504112425,-0.262381,-26.660375
11.185,2.0,1.0,1.0,33.1,33.6,33.6,4.2,3.1,2.7925,0.10795548395424233,-0.04416227924160571,0.9632565155319524,-0.01883449877934729,-0.270951,-26.373205
11.185,2.0,1.0,1.0,33.1,33.6,33.6,4.2,3.1,2.795,0.09478884076194889,-0.04537993469517455,0.963620130150152,-0.020169815465474666,-0.280062,-26.079788
11.185,2.0,1.0,1.0,33.1,33.6,33.6,4.2,3.1,2.7975,0.08143947540500882,-0.04664691259677068,0.9637551302686533,-0.021600809911836445,-0.289765,-25.779802
11.185,2.0,1.0,1.0,33.1,33.6,33.6,4.2,3.1,2.8,0.06790392871720008,-0.04796581322621933,0.9636480772632793,-0.02313661331032517,-0.30012,-25.472904
11.185,2.0,1.0,1.0,33.1,33.6,33.6,4.2,3.1,2.8025,0.05417866504674896,-0.04933933785587814,0.9632842512810599,-0.024787491471736735,-0.311194,-25.158725
11.185,2.0,1.0,1.0,33.1,33.6,33.6,4.2,3.1,2.805,0.04026009157269625,-0.05077027052470649,0.9626474695242594,-0.026565018846718174,-0.323065,-24.836867
11.185,2.0,1.0,1.0,33.1,33.6,33.6,4.2,3.1,2.8075,0.026144587489575953,-0.05226144988523853,0.9617198720046151,-0.02848228414195484,-0.33582,-24.506902
11.185,2.0,1.0,1.0,33.1,33.6,33.6,4.2,3.1,2.81,0.011828546747478477,-0.05381572743692197,0.9604816680103919,-0.030554134096151916,-0.34956,-24.168366
11.185,2.0,1.0,1.0,33.1,33.6,33.6,4.2,3.1,2.8125,-0.00269156061544197,-0.0554359071191537,0.958910834971477,-0.0327974634891065,-0.364401,-23.820761
11.185,2.0,1.0,1.0,33.1,33.6,33.6,4.2,3.1,2.815,-0.01741910164386167,-0.057124659386322885,0.9569827594700188,-0.03523156133245086,-0.380479,-23.463544
11.185,2.0,1.0,1.0,33.1,33.6,33.6,4.2,3.1,2.8175,-0.03235715863964904,-0.058884400317096366,0.9546698077358328,-0.0378785255185122,-0.39795,-23.096129
11.185,2.0,1.0,1.0,33.1,33.6,33.6,4.2,3.1,2.82,-0.047508359211332105,-0.060717122722048954,0.9519408099811782,-0.04076376108432244,-0.416998,-22.71788
11.185,2.0,1.0,1.0,33.1,33.6,33.6,4.2,3.1,2.8225,-0.06287463996936768,-0.06262416117533111,0.9487604392511519,-0.043916580791257986,-0.437837,-22.328106
11.185,2.0,1.0,1.0,33.1,33.6,33.6,4.2,3.1,2.825,-0.07845691842431499,-0.06460586577902823,0.9450884609756492,-0.04737093103565236,-0.460724,-21.926055
11.185,2.0,1.0,1.0,33.1,33.6,33.6,4.2,3.1,2.8275,-0.0942546373819439,-0.06666114935439346,0.9408788240140943,-0.05116627127223014,-0.48596,-21.51091
