1,w,sub_t,h,l1,l2,l3,g1,g2,Freq,S11_re,S21_re,S11_img,S21_img,S11_dB,S21_dB
11.185,2.0,1.0,1.0,34.0,33.9,33.9,2.8,4.4,2.5,0.783497483916265,-0.00802394594537365,0.609655031366991,0.00416471946338919,-0.063224,-40.87626
11.185,2.0,1.0,1.0,34.0,33.9,33.9,2.8,4.4,2.5025,0.7789142131764626,-0.008169284420813976,0.615382173454657,0.004153770929193949,-0.063863,-40.757671
11.185,2.0,1.0,1.0,34.0,33.9,33.9,2.8,4.4,2.505,0.7742658763729788,-0.008316936481111082,0.621101813449808,0.004141368741044847,-0.064513,-40.638767
11.185,2.0,1.0,1.0,34.0,33.9,33.9,2.8,4.4,2.5075,0.769551807576935,-0.008466941007473729,0.6268134821653736,0.004127463398470581,-0.065174,-40.519538
11.185,2.0,1.0,1.0,34.0,33.9,33.9,2.8,4.4,2.51,0.7647713318615192,-0.008619337597547648,0.6325166965662709,0.004112003733471758,-0.065847,-40.399978
11.185,2.0,1.0,1.0,34.0,33.9,33.9,2.8,4.4,2.5125,0.759923765226503,-0.008774166577326223,0.638210959347025,0.004094936848692166,-0.066531,-40.280078
11.185,2.0,1.0,1.0,34.0,33.9,33.9,2.8,4.4,2.515,0.7550084145251764,-0.008931469013093964,0.6438957584964146,0.004076208053043149,-0.067228,-40.159833
11.185,2.0,1.0,1.0,34.0,33.9,33.9,2.8,4.4,2.5175,0.7500245773939361,-0.009091286723387219,0.6495705668487025,0.004055760794664109,-0.067936,-40.039233
11.185,2.0,1.0,1.0,34.0,33.9,33.9,2.8,4.4,2.52,0.7449715421847525,-0.009253662290956092,0.6552348416210554,0.004033536591095082,-0.068658,-39.918272
11.185,2.0,1.0,1.0,34.0,33.9,33.9,2.8,4.4,2.5225,0.7398485879007843,-0.009418639074708576,0.66088802393668,0.004009474956532257,-0.069392,-39.79694
11.185,2.0,1.0,1.0,34.0,33.9,33.9,2.8,4.4,2.525,0.7346549841353929,-0.009586261221617876,0.6665295383332462,0.00398351332602928,-0.070139,-39.675231
11.185,2.0,1.0,1.0,34.0,33.9,33.9,2.8,4.4,2.5275,0.729389991014841,-0.009756573678570541,0.6721587922561214,0.00395558697650039,-0.0709,-39.553137
11.185,2.0,1.0,1.0,34.0,33.9,33.9,2.8,4.4,2.53,0.72405285914498,-0.009929622204131953,0.6777751755359208,0.003925628944374323,-0.071675,-39.430648
11.185,2.0,1.0,1.0,34.0,33.9,33.9,2.8,4.4,2.5325,0.7186428295622346,-0.010105453380203102,0.6833780598498835,0.0038935699397386935,-0.072464,-39.307758
11.185,2.0,1.0,1.0,34.0,33.9,33.9,2.8,4.4,2.535,0.7131591336892132,-0.010284114623540907,0.6889667981665558,0.003859338256807132,-0.073267,-39.184457
11.185,2.0,1.0,1.0,34.0,33.9,33.9,2.8,4.4,2.5375,0.7076009932953048,-0.010465654197110298,0.6945407241732355,0.003822859680531132,-0.074085,-39.060737
11.185,2.0,1.0,1.0,34.0,33.9,33.9,2.8,4.4,2.54,0.7019676204626215,-0.01065012122123606,0.7000991516856387,0.003784057389170237,-0.074918,-38.936589
11.185,2.0,1.0,1.0,34.0,33.9,33.9,2.8,4.4,2.5425,0.6962582175576821,-0.01083756568451666,0.7056413740392058,0.0037428518526224446,-0.075767,-38.812005
11.185,2.0,1.0,1.0,34.0,33.9,33.9,2.8,4.4,2.545,0.6904719772092464,-0.01102803845446154,0.711166663461466,0.0036991607263067204,-0.076632,-38.686976
11.185,2.0,1.0,1.0,34.0,33.9,33.9,2.8,4.4,2.5475,0.6846080822927386,-0.011221591287808034,0.7166742704248332,0.003652898740377973,-0.077513,-38.561493
11.185,2.0,1.0,1.0,34.0,33.9,33.9,2.8,4.4,2.55,0.6786657059217078,-0.011418276840472114,0.7221634229792272,0.0036039775840412966,-0.078411,-38.435547
11.185,2.0,1.0,1.0,34.0,33.9,33.9,2.8,4.4,2.5525,0.6726440114468244,-0.011618148677081174,0.7276333260638326,0.003552305784720747,-0.079326,-38.309129
11.185,2.0,1.0,1.0,34.0,33.9,33.9,2.8,4.4,2.555,0.6665421524629075,-0.011821261280034863,0.7330831607973498,0.003497788581822668,-0.080259,-38.182229
11.185,2.0,1.0,1.0,34.0,33.9,33.9,2.8,4.4,2.5575,0.6603592728245224,-0.012027670058033325,0.7385120837460281,0.003440327794818988,-0.08121,-38.054837
11.185,2.0,1.0,1.0,34.0,33.9,33.9,2.8,4.4,2.56,0.6540945066707242,-0.012237431354008656,0.7439192261687472,0.003379821685360466,-0.082179,-37.926945
11.185,2.0,1.0,1.0,34.0,33.9,33.9,2.8,4.4,2.5625,0.6477469784595322,-0.012450602452388477,0.7493036932384154,0.0033161648131121903,-0.083167,-37.798541
11.185,2.0,1.0,1.0,34.0,33.9,33.9,2.8,4.4,2.565,0.6413158030127679,-0.012667241585616159,0.7546645632389,0.0032492478849859186,-0.084175,-37.669617
11.185,2.0,1.0,1.0,34.0,33.9,33.9,2.8,4.4,2.5675,0.6348000855719262,-0.012887407939844107,0.7600008867366836,0.0031789575974248046,-0.085203,-37.540161
11.185,2.0,1.0,1.0,34.0,33.9,33.9,2.8,4.4,2.57,0.6281989218657661,-0.013111161659710463,0.7653116857264272,0.003105176471374736,-0.086251,-37.410165
11.185,2.0,1.0,1.0,34.0,33.9,33.9,2.8,4.4,2.5725,0.6215113981903635,-0.013338563852102088,0.7705959527495663,0.0030277826795553444,-0.08732,-37.279616
11.185,2.0,1.0,1.0,34.0,33.9,33.9,2.8,4.4,2.575,0.6147365915024018,-0.01356967658879763,0.7758526499850581,0.0029466498656194207,-0.088411,-37.148505
11.185,2.0,1.0,1.0,34.0,33.9,33.9,2.8,4.4,2.5775,0.6078735695265114,-0.013804562907876227,0.7810807083113506,0.002861646954764797,-0.089524,-37.01682
11.185,2.0,1.0,1.0,34.0,33.9,33.9,2.8,4.4,2.58,0.6009213908775292,-0.014043286813767058,0.786279026338606,0.002772637955335968,-0.09066,-36.88455
11.185,2.0,1.0,1.0,34.0,33.9,33.9,2.8,4.4,2.5825,0.5938791051985697,-0.014285913275805195,0.7914464694102051,0.002679481750923112,-0.091819,-36.751685
11.185,2.0,1.0,1.0,34.0,33.9,33.9,2.8,4.4,2.585,0.5867457533158765,-0.014532508225146446,0.7965818685724699,0.002582031882436444,-0.093002,-36.618211
11.185,2.0,1.0,1.0,34.0,33.9,33.9,2.8,4.4,2.5875,0.5795203674114484,-0.014783138549882564,0.8016840195115699,0.0024801363195994025,-0.094209,-36.484119
11.185,2.0,1.0,1.0,34.0,33.9,33.9,2.8,4.4,2.59,0.5722019712145106,-0.015037872088183721,0.8067516814564567,0.002373637221270114,-0.095442,-36.349395
11.185,2.0,1.0,1.0,34.0,33.9,33.9,2.8,4.4,2.5925,0.5647895802129336,-0.015296777619280635,0.8117835760467128,0.0022623706839610892,-0.096701,-36.214028
11.185,2.0,1.0,1.0,34.0,33.9,33.9,2.8,4.4,2.595,0.5572822018857976,-0.01555992485208204,0.8167783861640658,0.0021461664778875335,-0.097987,-36.078004
11.185,2.0,1.0,1.0,34.0,33.9,33.9,2.8,4.4,2.5975,0.5496788359583147,-0.01582738441120657,0.8217347547263657,0.002024847769829273,-0.0993,-35.941312
11.185,2.0,1.0,1.0,34.0,33.9,33.9,2.8,4.4,2.6,0.5419784746804334,-0.016099227820187478,0.8266512834426811,0.0018982308320457247,-0.100641,-35.803938
11.185,2.0,1.0,1.0,34.0,33.9,33.9,2.8,4.4,2.6025,0.5341801031305007,-0.016375527481588166,0.8315265315281793,0.0017661247364308638,-0.102011,-35.665869
11.185,2.0,1.0,1.0,34.0,33.9,33.9,2.8,4.4,2.605,0.5262826995454181,-0.016656356653743917,0.8363590143773748,0.0016283310330417894,-0.103411,-35.527091
11.185,2.0,1.0,1.0,34.0,33.9,33.9,2.8,4.4,2.6075,0.5182852356788347,-0.01694178942381896,0.8411472021942583,0.0014846434120746154,-0.104842,-35.387591
11.185,2.0,1.0,1.0,34.0,33.9,33.9,2.8,4.4,2.61,0.5101866771889854,-0.017231900676841157,0.8458895185777873,0.0013348473482987235,-0.106305,-35.247354
11.185,2.0,1.0,1.0,34.0,33.9,33.9,2.8,4.4,2.6125,0.5019859840578684,-0.0175267660603463,0.8505843390611061,0.0011787197268913405,-0.1078,-35.106366
11.185,2.0,1.0,1.0,34.0,33.9,33.9,2.8,4.4,2.615,0.4936821110435545,-0.017826461944230685,0.8552299896028317,0.0010160284495407616,-0.109329,-34.964612
11.185,2.0,1.0,1.0,34.0,33.9,33.9,2.8,4.4,2.6175,0.48527400816752553,-0.01813106537537445,0.8598247450286411,0.0008465320196068396,-0.110892,-34.822077
11.185,2.0,1.0,1.0,34.0,33.9,33.9,2.8,4.4,2.62,0.4767606212390321,-0.01844065402655788,0.8643668274213074,0.0006699791050410155,-0.11249,-34.678745
11.185,2.0,1.0,1.0,34.0,33.9,33.9,2.8,4.4,2.6225,0.4681408924185675,-0.018755306139150302,0.8688544044572629,0.00048610807767500967,-0.114126,-34.5346
11.185,2.0,1.0,1.0,34.0,33.9,33.9,2.8,4.4,2.625,0.459413760822703,-0.0190751004590008,0.873285587687655,0.000294646527386522,-0.115799,-34.389627
11.185,2.0,1.0,1.0,34.0,33.9,33.9,2.8,4.4,2.6275,0.4505781631726041,-0.0194001161649097,0.8776584307617611,9.531074954081313e-05,-0.11751,-34.243809
11.185,2.0,1.0,1.0,34.0,33.9,33.9,2.8,4.4,2.63,0.4416330344887284,-0.019730432788999032,0.8819709275905264,-0.00011219479601110983,-0.119262,-34.097127
11.185,2.0,1.0,1.0,34.0,33.9,33.9,2.8,4.4,2.6325,0.43257730883431794,-0.020066130128237495,0.8862210104478495,-0.0003281780562252827,-0.121056,-33.949566
11.185,2.0,1.0,1.0,34.0,33.9,33.9,2.8,4.4,2.635,0.4234099201104599,-0.020407288146302927,0.8904065480071417,-0.000552959988435201,-0.122892,-33.801107
11.185,2.0,1.0,1.0,34.0,33.9,33.9,2.8,4.4,2.6375,0.41412980290565743,-0.020753986864888482,0.894525343310511,-0.0007868751983384212,-0.124771,-33.651731
11.185,2.0,1.0,1.0,34.0,33.9,33.9,2.8,4.4,2.64,0.4047358934029983,-0.021106306243470718,0.8985751316678025,-0.0010302726147010607,-0.126697,-33.501419
11.185,2.0,1.0,1.0,34.0,33.9,33.9,2.8,4.4,2.6425,0.3952271303482336,-0.021464326046462714,0.9025535784825427,-0.001283516203261648,-0.128669,-33.350153
11.185,2.0,1.0,1.0,34.0,33.9,33.9,2.8,4.4,2.645,0.38560245608223453,-0.021828125696568394,0.9064582770016756,-0.001546985722509566,-0.13069,-33.197912
11.185,2.0,1.0,1.0,34.0,33.9,33.9,2.8,4.4,2.6475,0.3758608176415516,-0.02219778411303732,0.9102867459857494,-0.0018210775242247298,-0.13276,-33.044676
11.185,2.0,1.0,1.0,34.0,33.9,33.9,2.8,4.4,2.65,0.36600116793096427,-0.022573379533388265,0.9140364272960704,-0.0021062054018975633,-0.134883,-32.890423
11.185,2.0,1.0,1.0,34.0,33.9,33.9,2.8,4.4,2.6525,0.35602246697225226,-0.022954989317023604,0.9177046833950165,-0.002402801490396946,-0.137059,-32.735132
11.185,2.0,1.0,1.0,34.0,33.9,33.9,2.8,4.4,2.655,0.34592368323357076,-0.023342689728997546,0.9212887947555506,-0.0027113172205322196,-0.13929,-32.578781
11.185,2.0,1.0,1.0,34.0,33.9,33.9,2.8,4.4,2.6575,0.3357037950441949,-0.023736555702019435,0.9247859571756211,-0.003032224332452257,-0.141578,-32.421347
11.185,2.0,1.0,1.0,34.0,33.9,33.9,2.8,4.4,2.66,0.32536179209964305,-0.024136660574574212,0.9281932789928932,-0.00336601595215424,-0.143925,-32.262805
11.185,2.0,1.0,1.0,34.0,33.9,33.9,2.8,4.4,2.6625,0.3148966770625837,-0.024543075802818566,0.931507778194872,-0.003713207735733277,-0.146334,-32.103132
11.185,2.0,1.0,1.0,34.0,33.9,33.9,2.8,4.4,2.665,0.3043074672652191,-0.024955870643662448,0.9347263794191875,-0.00407433908639699,-0.148806,-31.942303
11.185,2.0,1.0,1.0,34.0,33.9,33.9,2.8,4.4,2.6675,0.2935931965193382,-0.025375111806165876,0.9378459108383226,-0.004449974449699168,-0.151344,-31.780291
11.185,2.0,1.0,1.0,34.0,33.9,33.9,2.8,4.4,2.67,0.2827529170405705,-0.025800863068070196,0.9408631009227245,-0.004840704692919296,-0.15395,-31.617071
11.185,2.0,1.0,1.0,34.0,33.9,33.9,2.8,4.4,2.6725,0.2717857014939053,-0.026233184853932983,0.9437745750756856,-0.005247148575032704,-0.156627,-31.452614
11.185,2.0,1.0,1.0,34.0,33.9,33.9,2.8,4.4,2.675,0.2606906451680627,-0.026672133770942824,0.9465768521328773,-0.005669954314284645,-0.159377,-31.286892
11.185,2.0,1.0,1.0,34.0,33.9,33.9,2.8,4.4,2.6775,0.24946686828684939,-0.0271177620980514,0.9492663407188374,-0.006109801261007684,-0.162203,-31.119876
11.185,2.0,1.0,1.0,34.0,33.9,33.9,2.8,4.4,2.68,0.23811351846629025,-0.027570117223563766,0.951839335452047,-0.00656740168400927,-0.165108,-30.951535
11.185,2.0,1.0,1.0,34.0,33.9,33.9,2.8,4.4,2.6825,0.22662977332701434,-0.028029241025770597,0.9542920129895384,-0.007043502679613895,-0.168094,-30.781839
11.185,2.0,1.0,1.0,34.0,33.9,33.9,2.8,4.4,2.685,0.21501484327216283,-0.028495169190578106,0.9566204279011428,-0.007538888213279494,-0.171167,-30.610754
11.185,2.0,1.0,1.0,34.0,33.9,33.9,2.8,4.4,2.6875,0.2032679744419102,-0.028967930459381626,0.9588205083626566,-0.008054381304626974,-0.174327,-30.438248
11.185,2.0,1.0,1.0,34.0,33.9,33.9,2.8,4.4,2.69,0.19138845185672207,-0.029447545799626447,0.9608880516561622,-0.008590846367737638,-0.17758,-30.264286
11.185,2.0,1.0,1.0,34.0,33.9,33.9,2.8,4.4,2.6925,0.17937560276242,-0.029934027489594638,0.9628187194647351,-0.009149191719696291,-0.180929,-30.088831
11.185,2.0,1.0,1.0,34.0,33.9,33.9,2.8,4.4,2.695,0.16722880019145614,-0.030427378107925358,0.9646080329474777,-0.009730372271594102,-0.184377,-29.911847
11.185,2.0,1.0,1.0,34.0,33.9,33.9,2.8,4.4,2.6975,0.15494746675601484,-0.030927589417213828,0.9662513675795349,-0.010335392417581716,-0.18793,-29.733294
11.185,2.0,1.0,1.0,34.0,33.9,33.9,2.8,4.4,2.7,0.14253107869013165,-0.031434641129705204,0.9677439477402433,-0.010965309139075582,-0.191591,-29.553134
11.185,2.0,1.0,1.0,34.0,33.9,33.9,2.8,4.4,2.7025,0.12997917015967678,-0.03194849954159571,0.9690808410308834,-0.011621235342907156,-0.195365,-29.371324
11.185,2.0,1.0,1.0,34.0,33.9,33.9,2.8,4.4,2.705,0.11729133786097419,-0.03246911602073287,0.9702569523016621,-0.012304343454065893,-0.199258,-29.187822
11.185,2.0,1.0,1.0,34.0,33.9,33.9,2.8,4.4,2.7075,0.10446724593095265,-0.032996425330549244,0.9712670173655007,-0.013015869285757535,-0.203274,-29.002583
11.185,2.0,1.0,1.0,34.0,33.9,33.9,2.8,4.4,2.71,0.09150663119421358,-0.03353034377082251,0.9721055963738671,-0.01375711621179534,-0.207418,-28.81556
11.185,2.0,1.0,1.0,34.0,33.9,33.9,2.8,4.4,2.7125,0.0784093087751141,-0.034070767113294834,0.9727670668273463,-0.014529459668894013,-0.211698,-28.626705
11.185,2.0,1.0,1.0,34.0,33.9,33.9,2.8,4.4,2.715,0.06517517810619457,-0.03461756830724498,0.9732456161907337,-0.015334352019274269,-0.216118,-28.435967
11.185,2.0,1.0,1.0,34.0,33.9,33.9,2.8,4.4,2.7175,0.05180422936781871,-0.03517059492673689,0.9735352340792639,-0.016173327807141327,-0.220687,-28.243296
11.185,2.0,1.0,1.0,34.0,33.9,33.9,2.8,4.4,2.72,0.0382965503980749,-0.03572966632739155,0.9736297039789493,-0.017048009446114305,-0.22541,-28.048635
11.185,2.0,1.0,1.0,34.0,33.9,33.9,2.8,4.4,2.7225,0.024652334116661873,-0.03629457047606741,0.9735225944600197,-0.01796011337859967,-0.230295,-27.851928
11.185,2.0,1.0,1.0,34.0,33.9,33.9,2.8,4.4,2.725,0.010871886512001036,-0.03686506041168328,0.9732072498379233,-0.018911456752457697,-0.235351,-27.653117
11.185,2.0,1.0,1.0,34.0,33.9,33.9,2.8,4.4,2.7275,-0.003044364753072087,-0.03744085028947462,0.9726767802313683,-0.019903964665178627,-0.240586,-27.452139
11.185,2.0,1.0,1.0,34.0,33.9,33.9,2.8,4.4,2.73,-0.017095861054277097,-0.038021610954085835,0.9719240509611693,-0.020939678031201454,-0.24601,-27.248931
11.185,2.0,1.0,1.0,34.0,33.9,33.9,2.8,4.4,2.7325,-0.031281902766613176,-0.03860696497892505,0.9709416712274622,-0.022020762134059423,-0.251632,-27.043424
11.185,2.0,1.0,1.0,34.0,33.9,33.9,2.8,4.4,2.735,-0.04560163839211117,-0.039196481099937286,0.9697219819956997,-0.023149515931781432,-0.257462,-26.835549
11.185,2.0,1.0,1.0,34.0,33.9,33.9,2.8,4.4,2.7375,-0.0600540527627355,-0.03978966796117064,0.9682570430139924,-0.024328382191508444,-0.263512,-26.625232
11.185,2.0,1.0,1.0,34.0,33.9,33.9,2.8,4.4,2.74,-0.07463795421349201,-0.04038596707693939,0.966538618875519,-0.025559958537678163,-0.269795,-26.412397
11.185,2.0,1.0,1.0,34.0,33.9,33.9,2.8,4.4,2.7425,-0.08935196060554587,-0.04098474490071223,0.9645581640298256,-0.02684700950750028,-0.276323,-26.196963
11.185,2.0,1.0,1.0,34.0,33.9,33.9,2.8,4.4,2.745,-0.10419448406138182,-0.04158528387367556,0.9623068066358129,-0.028192479717880137,-0.28311,-25.978845
11.185,2.0,1.0,1.0,34.0,33.9,33.9,2.8,4.4,2.7475,-0.1191637142531499,-0.042186772305790814,0.959775331136848,-0.029599508259573443,-0.290172,-25.757957
11.185,2.0,1.0,1.0,34.0,33.9,33.9,2.8,4.4,2.75,-0.134257600060966,-0.0427882929185091,0.95695415942472,-0.0310714444472892,-0.297525,-25.534205
11.185,2.0,1.0,1.0,34.0,33.9,33.9,2.8,4.4,2.7525,-0.1494738293890726,-0.04338880985046811,0.9538333304438011,-0.0326118650688201,-0.305186,-25.307492
11.185,2.0,1.0,1.0,34.0,33.9,33.9,2.8,4.4,2.755,-0.16480980689392116,-0.04398715389465301,0.9504024780697925,-0.0342245932922018,-0.313176,-25.077716
11.185,2.0,1.0,1.0,34.0,33.9,33.9,2.8,4.4,2.7575,-0.18026262933822132,-0.04458200569668997,0.94665080707856,-0.03591371940750865,-0.321515,-24.844771
11.185,2.0,1.0,1.0,34.0,33.9,33.9,2.8,4.4,2.76,-0.1958290582374669,-0.04517187659795086,0.9425670669997165,-0.037683623599279056,-0.330226,-24.608544
11.185,2.0,1.0,1.0,34.0,33.9,33.9,2.8,4.4,2.7625,-0.21150548940935887,-0.04575508675256355,0.9381395236267362,-0.039539000966838114,-0.339332,-24.368916
11.185,2.0,1.0,1.0,34.0,33.9,33.9,2.8,4.4,2.765,-0.22728791896950906,-0.04632974008246234,0.9333559279302968,-0.04148488903296841,-0.348863,-24.125763
11.185,2.0,1.0,1.0,34.0,33.9,33.9,2.8,4.4,2.7675,-0.24317190523715929,-0.04689369555715566,0.9282034820943726,-0.04352669800646906,-0.358846,-23.878954
11.185,2.0,1.0,1.0,34.0,33.9,33.9,2.8,4.4,2.77,-0.25915252591935223,-0.04744453419230336,0.9226688023653115,-0.045670244091013876,-0.369314,-23.628351
11.185,2.0,1.0,1.0,34.0,33.9,33.9,2.8,4.4,2.7725,-0.2752243298279511,-0.04797952105027292,0.9167378783731096,-0.04792178616108896,-0.380302,-23.373808
11.185,2.0,1.0,1.0,34.0,33.9,33.9,2.8,4.4,2.775,-0.2913812822469596,-0.04849556139264624,0.9103960285516532,-0.05028806615519539,-0.39185,-23.115171
11.185,2.0,1.0,1.0,34.0,33.9,33.9,2.8,4.4,2.7775,-0.3076167029029331,-0.048989149974317345,0.9036278512517519,-0.052776353566108776,-0.404,-22.852278
11.185,2.0,1.0,1.0,34.0,33.9,33.9,2.8,4.4,2.78,-0.32392319529257346,-0.04945631227537955,0.8964171711084475,-0.0553944944365758,-0.416799,-22.584957
11.185,2.0,1.0,1.0,34.0,33.9,33.9,2.8,4.4,2.7825,-0.34029256588151596,-0.04989253623304991,0.8887469801943733,-0.0581509652944625,-0.430299,-22.313027
11.185,2.0,1.0,1.0,34.0,33.9,33.9,2.8,4.4,2.785,-0.3567157313974551,-0.05029269275228355,0.8805993734664512,-0.06105493248130587,-0.444559,-22.036297
11.185,2.0,1.0,1.0,34.0,33.9,33.9,2.8,4.4,2.7875,-0.3731826120873389,-0.050650942929143086,0.8719554779982702,-0.06411631733831794,-0.459643,-21.754563
11.185,2.0,1.0,1.0,34.0,33.9,33.9,2.8,4.4,2.79,-0.38968200837849626,-0.050960629501359433,0.86279537549076,-0.0673458677083583,-0.475621,-21.467612
11.185,2.0,1.0,1.0,34.0,33.9,33.9,2.8,4.4,2.7925,-0.4062014578588942,-0.05121414952837756,0.8530980175778745,-0.07075523618276718,-0.492576,-21.175214
11.185,2.0,1.0,1.0,34.0,33.9,33.9,2.8,4.4,2.795,-0.4227270688507288,-0.051402804676832045,0.842841133503844,-0.07435706545639219,-0.510595,-20.87713
11.185,2.0,1.0,1.0,34.0,33.9,33.9,2.8,4.4,2.7975,-0.4392433260661639,-0.051516624719904265,0.8320011298613132,-0.0781650810356782,-0.529779,-20.573104
11.185,2.0,1.0,1.0,34.0,33.9,33.9,2.8,4.4,2.8,-0.45573286287105125,-0.051544158916946047,0.8205529822693719,-0.08219419134955694,-0.550243,-20.262865
11.185,2.0,1.0,1.0,34.0,33.9,33.9,2.8,4.4,2.8025,-0.47217619349880247,-0.051472228781728836,0.8084701191712522,-0.0864605950073084,-0.572113,-19.946125
11.185,2.0,1.0,1.0,34.0,33.9,33.9,2.8,4.4,2.805,-0.48855139710134277,-0.05128563432265202,0.7957242983914649,-0.09098189448414504,-0.595534,-19.62258
11.185,2.0,1.0,1.0,34.0,33.9,33.9,2.8,4.4,2.8075,-0.5048337437330083,-0.05096680408357845,0.782285477779026,-0.0957772148270263,-0.620672,-19.291907
11.185,2.0,1.0,1.0,34.0,33.9,33.9,2.8,4.4,2.81,-0.5209952501592067,-0.05049537715349205,0.7681216822730804,-0.10086732496567284,-0.647715,-18.953763
11.185,2.0,1.0,1.0,34.0,33.9,33.9,2.8,4.4,2.8125,-0.537004150671997,-0.0498477026553692,0.753198871194719,-0.106274757753597,-0.676876,-18.607786
11.185,2.0,1.0,1.0,34.0,33.9,33.9,2.8,4.4,2.815,-0.5528242647699623,-0.04899623896166497,0.737480811684917,-0.11202392276289146,-0.708404,-18.253591
11.185,2.0,1.0,1.0,34.0,33.9,33.9,2.8,4.4,2.8175,-0.568414239495146,-0.04790883089224124,0.7209289672432899,-0.11814120284820037,-0.742583,-17.890772
11.185,2.0,1.0,1.0,34.0,33.9,33.9,2.8,4.4,2.82,-0.5837266392795195,-0.046547838295924536,0.7035024146573186,-0.12465502120315874,-0.779743,-17.5189
11.185,2.0,1.0,1.0,34.0,33.9,33.9,2.8,4.4,2.8225,-0.5987068502023953,-0.04486908356517068,0.6851578087867615,-0.13159585952375133,-0.820268,-17.137523
11.185,2.0,1.0,1.0,34.0,33.9,33.9,2.8,4.4,2.825,-0.6132917584894158,-0.04282057867530681,0.665849423446365,-0.1389961992140702,-0.864605,-16.746168
11.185,2.0,1.0,1.0,34.0,33.9,33.9,2.8,4.4,2.8275,-0.6274081548575732,-0.040340984238245246,0.6455293090888581,-0.1468903452570922,-0.913279,-16.34434
