1,w,sub_t,h,l1,l2,l3,g1,g2,Freq,S11_re,S21_re,S11_img,S21_img,S11_dB,S21_dB
11.185,2.0,1.0,1.0,34.0,34.0,34.0,4.0,2.0,2.5,0.784747185310772,-0.00962033404288799,0.608465919690734,0.00599265605644234,-0.060971,-38.912228
11.185,2.0,1.0,1.0,34.0,34.0,34.0,4.0,2.0,2.5025,0.780274822463349,-0.009803150486333309,0.614076812782012,0.005998001269577618,-0.061587,-38.791702
11.185,2.0,1.0,1.0,34.0,34.0,34.0,4.0,2.0,2.505,0.7757405526354462,-0.009989210389775257,0.6196800682605617,0.006001965508353793,-0.062214,-38.670749
11.185,2.0,1.0,1.0,34.0,34.0,34.0,4.0,2.0,2.5075,0.7711437596916975,-0.010178581074868447,0.625275254328747,0.006004495325442089,-0.062853,-38.549358
11.185,2.0,1.0,1.0,34.0,34.0,34.0,4.0,2.0,2.51,0.7664838188347435,-0.010371331663042757,0.6308619267184457,0.006005535253961208,-0.063503,-38.427519
11.185,2.0,1.0,1.0,34.0,34.0,34.0,4.0,2.0,2.5125,0.7617600965046492,-0.010567533135908552,0.6364396283079794,0.006005027720810667,-0.064166,-38.305221
11.185,2.0,1.0,1.0,34.0,34.0,34.0,4.0,2.0,2.515,0.7569719502783246,-0.01076725839817127,0.6420078887267081,0.006002912955700021,-0.064841,-38.182455
11.185,2.0,1.0,1.0,34.0,34.0,34.0,4.0,2.0,2.5175,0.7521187287690251,-0.01097058234317988,0.6475662239468108,0.0059991288956252106,-0.065529,-38.059209
11.185,2.0,1.0,1.0,34.0,34.0,34.0,4.0,2.0,2.52,0.7471997715259715,-0.011177581921244035,0.653114135861805,0.005993611084525977,-0.06623,-37.935473
11.185,2.0,1.0,1.0,34.0,34.0,34.0,4.0,2.0,2.5225,0.7422144089341777,-0.011388336210861128,0.6586511118512821,0.005986292567841871,-0.066945,-37.811235
11.185,2.0,1.0,1.0,34.0,34.0,34.0,4.0,2.0,2.525,0.7371619621145244,-0.011602926493003094,0.6641766243313609,0.005977103781664426,-0.067674,-37.686485
11.185,2.0,1.0,1.0,34.0,34.0,34.0,4.0,2.0,2.5275,0.7320417428241559,-0.011821436328622441,0.6696901302903069,0.005965972436161372,-0.068416,-37.56121
11.185,2.0,1.0,1.0,34.0,34.0,34.0,4.0,2.0,2.53,0.726853053357268,-0.012043951639546833,0.6751910708087436,0.005952823392929143,-0.069174,-37.435399
11.185,2.0,1.0,1.0,34.0,34.0,34.0,4.0,2.0,2.5325,0.7215951864463519,-0.012270560792939821,0.6806788705638648,0.005937578535902022,-0.069946,-37.30904
11.185,2.0,1.0,1.0,34.0,34.0,34.0,4.0,2.0,2.535,0.7162674251639567,-0.012501354689519543,0.6861529373170165,0.005920156635423702,-0.070734,-37.182121
11.185,2.0,1.0,1.0,34.0,34.0,34.0,4.0,2.0,2.5375,0.7108690428250569,-0.012736426855736204,0.6916126613839869,0.005900473205057115,-0.071537,-37.054629
11.185,2.0,1.0,1.0,34.0,34.0,34.0,4.0,2.0,2.54,0.7053993028900762,-0.012975873540123086,0.6970574150873116,0.005878440350677532,-0.072357,-36.926551
11.185,2.0,1.0,1.0,34.0,34.0,34.0,4.0,2.0,2.5425,0.6998574588686486,-0.013219793814049708,0.7024865521898673,0.005853966611363446,-0.073193,-36.797875
11.185,2.0,1.0,1.0,34.0,34.0,34.0,4.0,2.0,2.545,0.694242754224183,-0.013468289677118444,0.7078994073089804,0.0058269567915603705,-0.074047,-36.668586
11.185,2.0,1.0,1.0,34.0,34.0,34.0,4.0,2.0,2.5475,0.6885544222793081,-0.013721466167463418,0.7132952953102358,0.005797311783958555,-0.074918,-36.538672
11.185,2.0,1.0,1.0,34.0,34.0,34.0,4.0,2.0,2.55,0.6827916861222478,-0.013979431477225836,0.718673510680144,0.005764928382479503,-0.075808,-36.408119
11.185,2.0,1.0,1.0,34.0,34.0,34.0,4.0,2.0,2.5525,0.6769537585142218,-0.014242297073497648,0.7240333268767386,0.0057296990847246695,-0.076716,-36.276911
11.185,2.0,1.0,1.0,34.0,34.0,34.0,4.0,2.0,2.555,0.6710398417979079,-0.01451017782504425,0.7293739956571679,0.005691511883186464,-0.077643,-36.145035
11.185,2.0,1.0,1.0,34.0,34.0,34.0,4.0,2.0,2.5575,0.6650491278070432,-0.01478319213513978,0.7346947463812626,0.005650250044473434,-0.07859,-36.012476
11.185,2.0,1.0,1.0,34.0,34.0,34.0,4.0,2.0,2.56,0.6589807977772196,-0.015061462080864875,0.7399947852899983,0.005605791875736159,-0.079558,-35.879218
11.185,2.0,1.0,1.0,34.0,34.0,34.0,4.0,2.0,2.5625,0.652834022257926,-0.0153451135592472,0.745273294757721,0.00555801047742563,-0.080546,-35.745245
11.185,2.0,1.0,1.0,34.0,34.0,34.0,4.0,2.0,2.565,0.6466079610258779,-0.015634276440644,0.7505294325169302,0.005506773481439186,-0.081556,-35.610542
11.185,2.0,1.0,1.0,34.0,34.0,34.0,4.0,2.0,2.5675,0.6403017629996912,-0.015929084729796872,0.7557623308543198,0.00545194277363858,-0.082588,-35.475091
11.185,2.0,1.0,1.0,34.0,34.0,34.0,4.0,2.0,2.57,0.6339145661559175,-0.01622967673501579,0.7609710957767211,0.005393374199642132,-0.083643,-35.338877
11.185,2.0,1.0,1.0,34.0,34.0,34.0,4.0,2.0,2.5725,0.62744549744647,-0.01653619524598229,0.7661548061454831,0.00533091725270148,-0.084722,-35.201881
11.185,2.0,1.0,1.0,34.0,34.0,34.0,4.0,2.0,2.575,0.6208936727174564,-0.01684878772069305,0.7713125127777334,0.005264414742378682,-0.085825,-35.064085
11.185,2.0,1.0,1.0,34.0,34.0,34.0,4.0,2.0,2.5775,0.6142581966294143,-0.017167606482102367,0.7764432375128525,0.005193702442629717,-0.086954,-34.925472
11.185,2.0,1.0,1.0,34.0,34.0,34.0,4.0,2.0,2.58,0.6075381625789411,-0.01749280892506074,0.7815459722423844,0.005118608717785734,-0.088108,-34.786023
11.185,2.0,1.0,1.0,34.0,34.0,34.0,4.0,2.0,2.5825,0.6007326526216843,-0.01782455773418751,0.7866196779014772,0.005038954124794482,-0.08929,-34.645718
11.185,2.0,1.0,1.0,34.0,34.0,34.0,4.0,2.0,2.585,0.5938407373966458,-0.018163021113359615,0.7916632834198003,0.004954550989942743,-0.090498,-34.504537
11.185,2.0,1.0,1.0,34.0,34.0,34.0,4.0,2.0,2.5875,0.58686147605173,-0.018508373027549013,0.7966756846297501,0.004865202958129262,-0.091736,-34.36246
11.185,2.0,1.0,1.0,34.0,34.0,34.0,4.0,2.0,2.59,0.579793916170447,-0.018860793457788107,0.8016557431295666,0.004770704512585328,-0.093003,-34.219466
11.185,2.0,1.0,1.0,34.0,34.0,34.0,4.0,2.0,2.5925,0.5726370936996462,-0.019220468670104476,0.8066022850988299,0.0046708404627568,-0.094301,-34.075532
11.185,2.0,1.0,1.0,34.0,34.0,34.0,4.0,2.0,2.595,0.5653900328781438,-0.019587591499317474,0.8115141000635683,0.004565385397853606,-0.09563,-33.930638
11.185,2.0,1.0,1.0,34.0,34.0,34.0,4.0,2.0,2.5975,0.558051746166045,-0.01996236164866221,0.8163899396080283,0.004454103103351487,-0.096992,-33.784759
11.185,2.0,1.0,1.0,34.0,34.0,34.0,4.0,2.0,2.6,0.5506212341745554,-0.02034498600626782,0.8212285160298871,0.004336745937476307,-0.098388,-33.637872
11.185,2.0,1.0,1.0,34.0,34.0,34.0,4.0,2.0,2.6025,0.5430974855960228,-0.02073567897959531,0.8260285009354241,0.004213054164432444,-0.099819,-33.489952
11.185,2.0,1.0,1.0,34.0,34.0,34.0,4.0,2.0,2.605,0.535479477133893,-0.02113466284901734,0.8307885237708862,0.004082755240829268,-0.101286,-33.340975
11.185,2.0,1.0,1.0,34.0,34.0,34.0,4.0,2.0,2.6075,0.5277661734322349,-0.021542168141809807,0.8355071702859371,0.003945563051426598,-0.102791,-33.190914
11.185,2.0,1.0,1.0,34.0,34.0,34.0,4.0,2.0,2.61,0.5199565270044181,-0.02195843402791438,0.8401829809247306,0.0038011770899461913,-0.104335,-33.039742
11.185,2.0,1.0,1.0,34.0,34.0,34.0,4.0,2.0,2.6125,0.5120494781604717,-0.02238370873893098,0.8448144491397417,0.003649281580288764,-0.10592,-32.887432
11.185,2.0,1.0,1.0,34.0,34.0,34.0,4.0,2.0,2.615,0.5040439549325753,-0.022818250011904913,0.8494000196230485,0.0034895445330322436,-0.107546,-32.733955
11.185,2.0,1.0,1.0,34.0,34.0,34.0,4.0,2.0,2.6175,0.4959388729980794,-0.023262325559584105,0.8539380864492557,0.0033216167315867234,-0.109216,-32.57928
11.185,2.0,1.0,1.0,34.0,34.0,34.0,4.0,2.0,2.62,0.487733135599349,-0.023716213568945453,0.8584269911237074,0.0031451306418104094,-0.110932,-32.423378
11.185,2.0,1.0,1.0,34.0,34.0,34.0,4.0,2.0,2.6225,0.4794256334596403,-0.024180203229918304,0.8628650205290231,0.002959699238267838,-0.112694,-32.266217
11.185,2.0,1.0,1.0,34.0,34.0,34.0,4.0,2.0,2.625,0.471015244694144,-0.0246545952963658,0.867250404762295,0.00276491473960271,-0.114506,-32.107763
11.185,2.0,1.0,1.0,34.0,34.0,34.0,4.0,2.0,2.6275,0.4625008347151859,-0.0251397026815422,0.8715813148545415,0.002560347244725047,-0.116368,-31.947983
11.185,2.0,1.0,1.0,34.0,34.0,34.0,4.0,2.0,2.63,0.453881256130496,-0.02563585109038855,0.8758558603631357,0.0023455432606265506,-0.118284,-31.786841
11.185,2.0,1.0,1.0,34.0,34.0,34.0,4.0,2.0,2.6325,0.4451553486333161,-0.026143379691203308,0.8800720868269796,0.0021200241116677183,-0.120255,-31.6243
11.185,2.0,1.0,1.0,34.0,34.0,34.0,4.0,2.0,2.635,0.4363219388829892,-0.0266626418293964,0.8842279730731214,0.001883284219076858,-0.122283,-31.460323
11.185,2.0,1.0,1.0,34.0,34.0,34.0,4.0,2.0,2.6375,0.4273798403745435,-0.02719400578621814,0.8883214283622933,0.0016347892381735284,-0.124372,-31.29487
11.185,2.0,1.0,1.0,34.0,34.0,34.0,4.0,2.0,2.64,0.4183278532956026,-0.027737855585551002,0.8923502893595118,0.0013739740394414423,-0.126523,-31.127899
11.185,2.0,1.0,1.0,34.0,34.0,34.0,4.0,2.0,2.6425,0.40916476436884236,-0.02829459185205098,0.8963123169143228,0.001100240518023039,-0.12874,-30.95937
11.185,2.0,1.0,1.0,34.0,34.0,34.0,4.0,2.0,2.645,0.3998893466780112,-0.028864632724133726,0.9002051926335711,0.0008129552144474986,-0.131025,-30.789236
11.185,2.0,1.0,1.0,34.0,34.0,34.0,4.0,2.0,2.6475,0.39050035947538947,-0.029448414825516727,0.9040265152276066,0.0005114467274302218,-0.133382,-30.617452
11.185,2.0,1.0,1.0,34.0,34.0,34.0,4.0,2.0,2.65,0.38099654796835347,-0.030046394299243613,0.9077737966086457,0.00019500289733576356,-0.135814,-30.44397
11.185,2.0,1.0,1.0,34.0,34.0,34.0,4.0,2.0,2.6525,0.37137664308259716,-0.030659047908331197,0.9114444577174808,-0.00013713226363032386,-0.138324,-30.26874
11.185,2.0,1.0,1.0,34.0,34.0,34.0,4.0,2.0,2.655,0.36163936119931855,-0.03128687420739898,0.9150358240519189,-0.00048576192131407925,-0.140916,-30.09171
11.185,2.0,1.0,1.0,34.0,34.0,34.0,4.0,2.0,2.6575,0.35178340386358065,-0.03193039478983276,0.9185451208670716,-0.0008517400796625556,-0.143595,-29.912825
11.185,2.0,1.0,1.0,34.0,34.0,34.0,4.0,2.0,2.66,0.3418074574608741,-0.032590155615225914,0.9219694680139644,-0.0012359755847133936,-0.146364,-29.732029
11.185,2.0,1.0,1.0,34.0,34.0,34.0,4.0,2.0,2.6625,0.3317101928588157,-0.03326672842199249,0.9253058743787069,-0.0016394365105380977,-0.149228,-29.549263
11.185,2.0,1.0,1.0,34.0,34.0,34.0,4.0,2.0,2.665,0.3214902650108034,-0.03396071223016318,0.9285512318797081,-0.002063154969975986,-0.152192,-29.364465
11.185,2.0,1.0,1.0,34.0,34.0,34.0,4.0,2.0,2.6675,0.3111463125184741,-0.034672734939430704,0.9317023089748933,-0.0025082323985124505,-0.155261,-29.17757
11.185,2.0,1.0,1.0,34.0,34.0,34.0,4.0,2.0,2.67,0.30067695714980586,-0.0354034550274908,0.9347557436246116,-0.0029758453659781865,-0.158442,-28.988511
11.185,2.0,1.0,1.0,34.0,34.0,34.0,4.0,2.0,2.6725,0.29008080330989433,-0.03615356335359606,0.9377080356486819,-0.0034672519779925786,-0.161739,-28.797216
11.185,2.0,1.0,1.0,34.0,34.0,34.0,4.0,2.0,2.675,0.27935643746172195,-0.0369237850719671,0.940555538407707,-0.003983798937415886,-0.165159,-28.603612
11.185,2.0,1.0,1.0,34.0,34.0,34.0,4.0,2.0,2.6775,0.2685024274946948,-0.037714881659250514,0.9432944497291862,-0.004526929345674977,-0.16871,-28.407621
11.185,2.0,1.0,1.0,34.0,34.0,34.0,4.0,2.0,2.68,0.2575173220394466,-0.0385276530595105,0.945920801987885,-0.00509819133491487,-0.172399,-28.209162
11.185,2.0,1.0,1.0,34.0,34.0,34.0,4.0,2.0,2.6825,0.24639964972843356,-0.039362939949217114,0.9484304512370761,-0.00569924763474269,-0.176233,-28.008148
11.185,2.0,1.0,1.0,34.0,34.0,34.0,4.0,2.0,2.685,0.2351479184032579,-0.040221626123264964,0.9508190652723977,-0.006331886192192986,-0.180223,-27.80449
11.185,2.0,1.0,1.0,34.0,34.0,34.0,4.0,2.0,2.6875,0.223760614271625,-0.0411046410010864,0.953082110492768,-0.00699803198079069,-0.184376,-27.598093
11.185,2.0,1.0,1.0,34.0,34.0,34.0,4.0,2.0,2.69,0.212236201019473,-0.04201296224927095,0.9552148374026613,-0.007699760154673688,-0.188705,-27.388858
11.185,2.0,1.0,1.0,34.0,34.0,34.0,4.0,2.0,2.6925,0.200573118887281,-0.04294761851356558,0.9572122645765199,-0.00843931072716119,-0.193219,-27.17668
11.185,2.0,1.0,1.0,34.0,34.0,34.0,4.0,2.0,2.695,0.18876978372425965,-0.04390969224845286,0.9590691608785784,-0.009219104980535207,-0.197931,-26.961448
11.185,2.0,1.0,1.0,34.0,34.0,34.0,4.0,2.0,2.6975,0.17682458604011927,-0.0449003226263714,0.9607800256991152,-0.01004176384590166,-0.202854,-26.743046
11.185,2.0,1.0,1.0,34.0,34.0,34.0,4.0,2.0,2.7,0.1647358900821422,-0.04592070850062035,0.962339066930227,-0.010910128529681377,-0.208003,-26.52135
11.185,2.0,1.0,1.0,34.0,34.0,34.0,4.0,2.0,2.7025,0.15250203297556386,-0.04697211138555579,0.9637401763595723,-0.011827283707672123,-0.213393,-26.296231
11.185,2.0,1.0,1.0,34.0,34.0,34.0,4.0,2.0,2.705,0.14012132397877985,-0.04805585840413082,0.9649769021077866,-0.012796583659995425,-0.219042,-26.067551
11.185,2.0,1.0,1.0,34.0,34.0,34.0,4.0,2.0,2.7075,0.1275920439223026,-0.0491733451352587,0.966042417672831,-0.013821681782229834,-0.224969,-25.835165
11.185,2.0,1.0,1.0,34.0,34.0,34.0,4.0,2.0,2.71,0.1149124449230766,-0.050326038270706676,0.9669294870704608,-0.014906563981545601,-0.231195,-25.598917
11.185,2.0,1.0,1.0,34.0,34.0,34.0,4.0,2.0,2.7125,0.10208075049506633,-0.05151547796173923,0.9676304254718352,-0.01605558655410124,-0.237743,-25.358644
11.185,2.0,1.0,1.0,34.0,34.0,34.0,4.0,2.0,2.715,0.08909515621513395,-0.05274327969750935,0.9681370546341608,-0.01727351924420297,-0.244637,-25.114171
11.185,2.0,1.0,1.0,34.0,34.0,34.0,4.0,2.0,2.7175,0.0759538311526044,-0.05401113550763719,0.9684406522945102,-0.01856559431036272,-0.251908,-24.865315
11.185,2.0,1.0,1.0,34.0,34.0,34.0,4.0,2.0,2.72,0.06265492033515548,-0.05532081421704742,0.9685318945462207,-0.019937562572748663,-0.259585,-24.611877
11.185,2.0,1.0,1.0,34.0,34.0,34.0,4.0,2.0,2.7225,0.0491965486072257,-0.05667416039742063,0.9684007900360516,-0.021395757596018965,-0.267703,-24.353648
11.185,2.0,1.0,1.0,34.0,34.0,34.0,4.0,2.0,2.725,0.035576826346243345,-0.058073091550473646,0.9680366046019122,-0.022947169377751504,-0.276302,-24.090405
11.185,2.0,1.0,1.0,34.0,34.0,34.0,4.0,2.0,2.7275,0.021793857644480656,-0.05951959291569273,0.9674277747071254,-0.024599529173854464,-0.285426,-23.821907
11.185,2.0,1.0,1.0,34.0,34.0,34.0,4.0,2.0,2.73,0.007845751751361344,-0.06101570910830293,0.9665618077076834,-0.026361407408512255,-0.295121,-23.5479
11.185,2.0,1.0,1.0,34.0,34.0,34.0,4.0,2.0,2.7325,-0.006269361183182448,-0.06256353154771772,0.9654251666010932,-0.028242326999919663,-0.305445,-23.268109
11.185,2.0,1.0,1.0,34.0,34.0,34.0,4.0,2.0,2.735,-0.020553308699304804,-0.06416518031292712,0.9640031364336007,-0.03025289489962973,-0.316457,-22.982242
11.185,2.0,1.0,1.0,34.0,34.0,34.0,4.0,2.0,2.7375,-0.03500784715733339,-0.06582277863278255,0.9622796689675833,-0.032404955211821414,-0.32823,-22.689983
11.185,2.0,1.0,1.0,34.0,34.0,34.0,4.0,2.0,2.74,-0.04963462304192887,-0.06753841764982971,0.9602372015090088,-0.034711767952438,-0.340841,-22.390994
11.185,2.0,1.0,1.0,34.0,34.0,34.0,4.0,2.0,2.7425,-0.06443512131285632,-0.06931410833679368,0.9578564449371596,-0.03718821835548316,-0.354383,-22.084912
11.185,2.0,1.0,1.0,34.0,34.0,34.0,4.0,2.0,2.745,-0.07941059665315339,-0.07115171642697297,0.9551161349302512,-0.03985106266924375,-0.368958,-21.771343
11.185,2.0,1.0,1.0,34.0,34.0,34.0,4.0,2.0,2.7475,-0.09456198208930737,-0.07305287484942666,0.9519927390990925,-0.042719217650080424,-0.384687,-21.449867
11.185,2.0,1.0,1.0,34.0,34.0,34.0,4.0,2.0,2.75,-0.109889767595343,-0.0750188663058015,0.948460111177374,-0.0458141025039389,-0.401707,-21.120024
11.185,2.0,1.0,1.0,34.0,34.0,34.0,4.0,2.0,2.7525,-0.12539383875862636,-0.07705046610437638,0.9444890815156001,-0.049160043900488504,-0.420178,-20.781323
11.185,2.0,1.0,1.0,34.0,34.0,34.0,4.0,2.0,2.755,-0.14107326211952995,-0.07914773192014445,0.9400469708262603,-0.0527847569500614,-0.440286,-20.433229
11.185,2.0,1.0,1.0,34.0,34.0,34.0,4.0,2.0,2.7575,-0.15692599903166995,-0.0813097224120875,0.9350970113730638,-0.05671991774475691,-0.462248,-20.075163
11.185,2.0,1.0,1.0,34.0,34.0,34.0,4.0,2.0,2.76,-0.17294852330026805,-0.0835341200806433,0.9295976565456964,-0.06100184626082456,-0.486319,-19.706497
11.185,2.0,1.0,1.0,34.0,34.0,34.0,4.0,2.0,2.7625,-0.18913530869496525,-0.08581672464739763,0.9235017560154605,-0.06567232209476594,-0.512802,-19.326552
11.185,2.0,1.0,1.0,34.0,34.0,34.0,4.0,2.0,2.765,-0.20547813962552117,-0.08815077052032234,0.916755569522493,-0.07077955956040954,-0.542056,-18.934588
11.185,2.0,1.0,1.0,34.0,34.0,34.0,4.0,2.0,2.7675,-0.22196518026781462,-0.09052600403895536,0.9092975880871444,-0.07637937281930801,-0.57451,-18.529805
11.185,2.0,1.0,1.0,34.0,34.0,34.0,4.0,2.0,2.77,-0.23857971200299613,-0.09292743096586462,0.9010571277128848,-0.08253656530155556,-0.610681,-18.111336
11.185,2.0,1.0,1.0,34.0,34.0,34.0,4.0,2.0,2.7725,-0.25529841296967054,-0.09533360892129387,0.8919526587758132,-0.08932657937589898,-0.651195,-17.678241
11.185,2.0,1.0,1.0,34.0,34.0,34.0,4.0,2.0,2.775,-0.2720890022124544,-0.09771430858139671,0.8818898368316828,-0.09683743949320553,-0.696817,-17.229509
11.185,2.0,1.0,1.0,34.0,34.0,34.0,4.0,2.0,2.7775,-0.28890699777582507,-0.10002729498815498,0.87075921231416,-0.10517201006922401,-0.748484,-16.764053
11.185,2.0,1.0,1.0,34.0,34.0,34.0,4.0,2.0,2.78,-0.30569123397495696,-0.10221387720057766,0.858433626394245,-0.11445055937957314,-0.80736,-16.280717
11.185,2.0,1.0,1.0,34.0,34.0,34.0,4.0,2.0,2.7825,-0.3223576356163658,-0.10419272856570137,0.8447653642291556,-0.12481355668529091,-0.874894,-15.778281
11.185,2.0,1.0,1.0,34.0,34.0,34.0,4.0,2.0,2.785,-0.33879054057208563,-0.10585127579014848,0.8295832640073888,-0.1364245028099682,-0.952913,-15.255486
11.185,2.0,1.0,1.0,34.0,34.0,34.0,4.0,2.0,2.7875,-0.35483057999934975,-0.10703367627947444,0.8126902225274213,-0.14947235288013336,-1.04373,-14.711065
11.185,2.0,1.0,1.0,34.0,34.0,34.0,4.0,2.0,2.79,-0.37025775688610596,-0.10752403960779067,0.7938619872260877,-0.16417264294568565,-1.150305,-14.143805
11.185,2.0,1.0,1.0,34.0,34.0,34.0,4.0,2.0,2.7925,-0.38476792457136993,-0.10702311710933875,0.7728489394540498,-0.180765622261204,-1.276445,-13.552645
11.185,2.0,1.0,1.0,34.0,34.0,34.0,4.0,2.0,2.795,-0.3979404525127452,-0.10511627886273976,0.7493840206580294,-0.19950825649090326,-1.427079,-12.936836
11.185,2.0,1.0,1.0,34.0,34.0,34.0,4.0,2.0,2.7975,-0.40919477235396423,-0.10123051458932543,0.7232024517040821,-0.2206544890482614,-1.608601,-12.296192
11.185,2.0,1.0,1.0,34.0,34.0,34.0,4.0,2.0,2.8,-0.4177344826141773,-0.09457918966383441,0.6940830273992243,-0.24441405477826555,-1.829285,-11.631479
11.185,2.0,1.0,1.0,34.0,34.0,34.0,4.0,2.0,2.8025,-0.42248149764850934,-0.08409708989874469,0.6619270926270672,-0.2708738850843032,-2.099697,-10.94501
11.185,2.0,1.0,1.0,34.0,34.0,34.0,4.0,2.0,2.805,-0.42201294107391824,-0.06837845291684863,0.6268995406565634,-0.2998580220968958,-2.432894,-10.241527
11.185,2.0,1.0,1.0,34.0,34.0,34.0,4.0,2.0,2.8075,-0.41453638705302887,-0.045653423097119006,0.5896626994865252,-0.33069558671730215,-2.843789,-9.529441
11.185,2.0,1.0,1.0,34.0,34.0,34.0,4.0,2.0,2.81,-0.3979823262383355,-0.01388124365136055,0.5517259665580163,-0.3618744686829286,-3.346147,-8.822455
11.185,2.0,1.0,1.0,34.0,34.0,34.0,4.0,2.0,2.8125,-0.370354994700092,0.0288999909513927,0.515880191958594,-0.390612081537656,-3.94377,-8.141378
11.185,2.0,1.0,1.0,34.0,34.0,34.0,4.0,2.0,2.815,-0.3305204709339527,0.08379038838820618,0.48653601631712695,-0.4125232250364648,-4.609728,-7.515455
11.185,2.0,1.0,1.0,34.0,34.0,34.0,4.0,2.0,2.8175,-0.2794851538701651,0.14976132209752627,0.4695275501878304,-0.42182021883747856,-5.249566,-6.981873
11.185,2.0,1.0,1.0,34.0,34.0,34.0,4.0,2.0,2.82,-0.22172614171499444,0.2223418733792288,0.470780659890486,-0.4126391367322881,-5.673563,-6.581562
11.185,2.0,1.0,1.0,34.0,34.0,34.0,4.0,2.0,2.8225,-0.16539224370730551,0.29343050947488,0.49373098076202276,-0.38160101988152373,-5.668306,-6.35035
11.185,2.0,1.0,1.0,34.0,34.0,34.0,4.0,2.0,2.825,-0.12019548849066783,0.3533967169060799,0.5367882431709092,-0.33031731927584806,-5.191475,-6.307864
11.185,2.0,1.0,1.0,34.0,34.0,34.0,4.0,2.0,2.8275,-0.09360178767492439,0.39485938485088207,0.5931111168940678,-0.2655969279493228,-4.43044,-6.450168
11.185,2.0,1.0,1.0,34.0,34.0,34.0,4.0,2.0,2.83,-0.08801766072070842,0.41546461086519354,0.6534008331187772,-0.1966639631254587,-3.618306,-6.751261
