1,w,sub_t,h,l1,l2,l3,g1,g2,Freq,S11_re,S21_re,S11_img,S21_img,S11_dB,S21_dB
11.185,2.0,1.0,1.0,33.1,33.5,33.5,3.6,2.2,2.5,0.890990726626979,-0.00575300496023829,0.441175944870418,0.00584151898359788,-0.05023,-41.724988
11.185,2.0,1.0,1.0,33.1,33.5,33.5,3.6,2.2,2.5025,0.8881978240733696,-0.0058756504042582975,0.44666292885788095,0.005879279420440202,-0.050659,-41.605899
11.185,2.0,1.0,1.0,33.1,33.5,33.5,3.6,2.2,2.505,0.885360110823023,-0.006000529766389579,0.4521520097579895,0.00591675209637814,-0.051095,-41.486541
11.185,2.0,1.0,1.0,33.1,33.5,33.5,3.6,2.2,2.5075,0.8824771737393876,-0.006127688856599213,0.45764303529395384,0.0059539190665048956,-0.051538,-41.366907
11.185,2.0,1.0,1.0,33.1,33.5,33.5,3.6,2.2,2.51,0.8795485929183796,-0.006257174704399185,0.4631358486204033,0.005990761682889496,-0.051989,-41.246987
11.185,2.0,1.0,1.0,33.1,33.5,33.5,3.6,2.2,2.5125,0.8765739415655368,-0.006389035598976289,0.46863028817066515,0.006027260564766884,-0.052447,-41.126773
11.185,2.0,1.0,1.0,33.1,33.5,33.5,3.6,2.2,2.515,0.8735527858706705,-0.0065233211309056495,0.474126187498971,0.006063395567318552,-0.052914,-41.006256
11.185,2.0,1.0,1.0,33.1,33.5,33.5,3.6,2.2,2.5175,0.8704846848799537,-0.006660082235522211,0.47962337511738107,0.0060991457489691005,-0.053388,-40.885426
11.185,2.0,1.0,1.0,33.1,33.5,33.5,3.6,2.2,2.52,0.8673691903653714,-0.006799371238027613,0.48512167432725395,0.006134489337118627,-0.053871,-40.764275
11.185,2.0,1.0,1.0,33.1,33.5,33.5,3.6,2.2,2.5225,0.8642058466914755,-0.006941241900414802,0.4906209030450291,0.006169403692225593,-0.054362,-40.642793
11.185,2.0,1.0,1.0,33.1,33.5,33.5,3.6,2.2,2.525,0.8609941906793598,-0.007085749470296921,0.49612087362213136,0.006203865270150753,-0.054862,-40.52097
11.185,2.0,1.0,1.0,33.1,33.5,33.5,3.6,2.2,2.5275,0.8577337514677876,-0.007232950731732055,0.5016213926587676,0.00623784958266628,-0.055371,-40.398797
11.185,2.0,1.0,1.0,33.1,33.5,33.5,3.6,2.2,2.53,0.8544240503713907,-0.007382904058139762,0.5071222608113733,0.006271331156028239,-0.055889,-40.276265
11.185,2.0,1.0,1.0,33.1,33.5,33.5,3.6,2.2,2.5325,0.8510646007358617,-0.00753566946741195,0.5126232725934776,0.006304283487504772,-0.056417,-40.153363
11.185,2.0,1.0,1.0,33.1,33.5,33.5,3.6,2.2,2.535,0.8476549077900454,-0.007691308679324989,0.5181242161697264,0.006336678999744894,-0.056954,-40.030082
11.185,2.0,1.0,1.0,33.1,33.5,33.5,3.6,2.2,2.5375,0.8441944684948534,-0.007849885175367102,0.5236248731427943,0.006368488992865815,-0.0575,-39.906411
11.185,2.0,1.0,1.0,33.1,33.5,33.5,3.6,2.2,2.54,0.8406827713888979,-0.00801146426110084,0.5291250183329116,0.006399683594128719,-0.058057,-39.782341
11.185,2.0,1.0,1.0,33.1,33.5,33.5,3.6,2.2,2.5425,0.8371192964307519,-0.008176113131188394,0.5346244195497136,0.006430231705064623,-0.058624,-39.65786
11.185,2.0,1.0,1.0,33.1,33.5,33.5,3.6,2.2,2.545,0.8335035148377327,-0.008343900937212856,0.5401228373561056,0.0064601009459025385,-0.059202,-39.532958
11.185,2.0,1.0,1.0,33.1,33.5,33.5,3.6,2.2,2.5475,0.829834888921103,-0.008514898858438959,0.545620024823817,0.006489257597143004,-0.05979,-39.407625
11.185,2.0,1.0,1.0,33.1,33.5,33.5,3.6,2.2,2.55,0.8261128719175732,-0.008689180175663145,0.5511157272803282,0.006517666538109207,-0.06039,-39.281849
11.185,2.0,1.0,1.0,33.1,33.5,33.5,3.6,2.2,2.5525,0.822336907816994,-0.008866820348312213,0.5566096820467868,0.006545291182296674,-0.061,-39.155619
11.185,2.0,1.0,1.0,33.1,33.5,33.5,3.6,2.2,2.555,0.8185064311861081,-0.00904789709496025,0.5621016181665748,0.006572093409330893,-0.061623,-39.028925
11.185,2.0,1.0,1.0,33.1,33.5,33.5,3.6,2.2,2.5575,0.814620866988232,-0.009232490477441953,0.5675912561241219,0.0065980334933286,-0.062257,-38.901754
11.185,2.0,1.0,1.0,33.1,33.5,33.5,3.6,2.2,2.56,0.810679630398733,-0.009420682988753135,0.5730783075535574,0.006623070027445212,-0.062904,-38.774096
11.185,2.0,1.0,1.0,33.1,33.5,33.5,3.6,2.2,2.5625,0.8066821266161528,-0.009612559644939164,0.5785624749367768,0.006647159844375227,-0.063563,-38.645937
11.185,2.0,1.0,1.0,33.1,33.5,33.5,3.6,2.2,2.565,0.8026277506688231,-0.009808208081185451,0.5840434512904734,0.006670257932556513,-0.064236,-38.517266
11.185,2.0,1.0,1.0,33.1,33.5,33.5,3.6,2.2,2.5675,0.7985158872168172,-0.010007718652336794,0.5895209198416512,0.006692317347811993,-0.064921,-38.388071
11.185,2.0,1.0,1.0,33.1,33.5,33.5,3.6,2.2,2.57,0.7943459103490584,-0.010211184538086655,0.5949945536911295,0.00671328912014281,-0.06562,-38.258339
11.185,2.0,1.0,1.0,33.1,33.5,33.5,3.6,2.2,2.5725,0.7901171833754056,-0.010418701853092686,0.6004640154645072,0.006733122155367784,-0.066334,-38.128057
11.185,2.0,1.0,1.0,33.1,33.5,33.5,3.6,2.2,2.575,0.7858290586135239,-0.01063036976229067,0.6059289569500347,0.006751763131280339,-0.067061,-37.997213
11.185,2.0,1.0,1.0,33.1,33.5,33.5,3.6,2.2,2.5775,0.7814808771703343,-0.01084629060169694,0.6113890187228007,0.006769156387972113,-0.067804,-37.865792
11.185,2.0,1.0,1.0,33.1,33.5,33.5,3.6,2.2,2.58,0.7770719687178285,-0.011066570005006235,0.6168438297546228,0.006785243811944705,-0.068561,-37.733782
11.185,2.0,1.0,1.0,33.1,33.5,33.5,3.6,2.2,2.5825,0.7726016512630072,-0.011291317036315402,0.6222930070089802,0.006799964713605474,-0.069335,-37.601168
11.185,2.0,1.0,1.0,33.1,33.5,33.5,3.6,2.2,2.585,0.7680692309117085,-0.01152064432931957,0.6277361550203014,0.006813255697710197,-0.070124,-37.467936
11.185,2.0,1.0,1.0,33.1,33.5,33.5,3.6,2.2,2.5875,0.7634740016260504,-0.011754668233355602,0.6331728654568753,0.006825050526285648,-0.07093,-37.334072
11.185,2.0,1.0,1.0,33.1,33.5,33.5,3.6,2.2,2.59,0.7588152449752186,-0.011993508966687822,0.6386027166666018,0.006835279973527634,-0.071753,-37.199562
11.185,2.0,1.0,1.0,33.1,33.5,33.5,3.6,2.2,2.5925,0.7540922298792884,-0.012237290777460871,0.6440252732047714,0.006843871672131304,-0.072594,-37.064389
11.185,2.0,1.0,1.0,33.1,33.5,33.5,3.6,2.2,2.595,0.7493042123457756,-0.012486142112769837,0.6494400853429839,0.006850749950470795,-0.073452,-36.928538
11.185,2.0,1.0,1.0,33.1,33.5,33.5,3.6,2.2,2.5975,0.7444504351985555,-0.012740195796330877,0.6548466885582961,0.006855835659996759,-0.074329,-36.791995
11.185,2.0,1.0,1.0,33.1,33.5,33.5,3.6,2.2,2.6,0.7395301277987985,-0.012999589215267173,0.6602446030016058,0.006859045992173268,-0.075226,-36.654742
11.185,2.0,1.0,1.0,33.1,33.5,33.5,3.6,2.2,2.6025,0.7345425057575228,-0.013264464516559443,0.6656333329442153,0.006860294284220236,-0.076142,-36.516763
11.185,2.0,1.0,1.0,33.1,33.5,33.5,3.6,2.2,2.605,0.729486770639341,-0.013534968813750766,0.6710123662014728,0.006859489812868538,-0.077079,-36.378042
11.185,2.0,1.0,1.0,33.1,33.5,33.5,3.6,2.2,2.6075,0.7243621096569514,-0.013811254404533638,0.6763811735322892,0.006856537575272405,-0.078036,-36.23856
11.185,2.0,1.0,1.0,33.1,33.5,33.5,3.6,2.2,2.61,0.7191676953558873,-0.014093478999892856,0.6817392080132629,0.006851338056151621,-0.079015,-36.0983
11.185,2.0,1.0,1.0,33.1,33.5,33.5,3.6,2.2,2.6125,0.7139026852889995,-0.01438180596552559,0.687085904386057,0.006843786980161231,-0.080017,-35.957244
11.185,2.0,1.0,1.0,33.1,33.5,33.5,3.6,2.2,2.615,0.7085662216801054,-0.014676404576310182,0.6924206783765812,0.006833775048401925,-0.081042,-35.815374
11.185,2.0,1.0,1.0,33.1,33.5,33.5,3.6,2.2,2.6175,0.7031574310762089,-0.014977450284651538,0.6977429259844157,0.006821187657894111,-0.08209,-35.67267
11.185,2.0,1.0,1.0,33.1,33.5,33.5,3.6,2.2,2.62,0.6976754239876252,-0.015285125003590465,0.7030520227408225,0.006805904602735966,-0.083163,-35.529112
11.185,2.0,1.0,1.0,33.1,33.5,33.5,3.6,2.2,2.6225,0.6921192945153094,-0.015599617405628867,0.708347322933558,0.006787799755559941,-0.084262,-35.38468
11.185,2.0,1.0,1.0,33.1,33.5,33.5,3.6,2.2,2.625,0.686488119964636,-0.0159211232382928,0.713628158796562,0.00676674072777855,-0.085386,-35.239354
11.185,2.0,1.0,1.0,33.1,33.5,33.5,3.6,2.2,2.6275,0.6807809604447886,-0.016249845657530848,0.7188938396624751,0.006742588506979347,-0.086538,-35.093113
11.185,2.0,1.0,1.0,33.1,33.5,33.5,3.6,2.2,2.63,0.6749968584528875,-0.016585995580126793,0.7241436510757592,0.006715197069684981,-0.087718,-34.945934
11.185,2.0,1.0,1.0,33.1,33.5,33.5,3.6,2.2,2.6325,0.6691348384418812,-0.016929792056394402,0.7293768538640342,0.006684412967532526,-0.088927,-34.797796
11.185,2.0,1.0,1.0,33.1,33.5,33.5,3.6,2.2,2.635,0.6631939063711647,-0.017281462664518358,0.7345926831650514,0.006650074884752716,-0.090166,-34.648674
11.185,2.0,1.0,1.0,33.1,33.5,33.5,3.6,2.2,2.6375,0.6571730492388035,-0.01764124392800755,0.73979034740652,0.006612013164634565,-0.091436,-34.498546
11.185,2.0,1.0,1.0,33.1,33.5,33.5,3.6,2.2,2.64,0.6510712345941181,-0.018009381757842037,0.7449690272357774,0.006570049302447868,-0.092738,-34.347387
11.185,2.0,1.0,1.0,33.1,33.5,33.5,3.6,2.2,2.6425,0.644887410029328,-0.018386131921014903,0.7501278743960408,0.00652399540206075,-0.094074,-34.195171
11.185,2.0,1.0,1.0,33.1,33.5,33.5,3.6,2.2,2.645,0.6386205026487976,-0.018771760537304207,0.755266010545704,0.0064736535932283555,-0.095444,-34.041873
11.185,2.0,1.0,1.0,33.1,33.5,33.5,3.6,2.2,2.6475,0.6322694185143308,-0.019166544606252646,0.76038252601684,0.006418815406240387,-0.09685,-33.887467
11.185,2.0,1.0,1.0,33.1,33.5,33.5,3.6,2.2,2.65,0.6258330420648014,-0.01957077256649122,0.765476478508748,0.00635926110029699,-0.098294,-33.731924
11.185,2.0,1.0,1.0,33.1,33.5,33.5,3.6,2.2,2.6525,0.6193102355082964,-0.019984744889708916,0.7705468917119822,0.006294758941626996,-0.099776,-33.575216
11.185,2.0,1.0,1.0,33.1,33.5,33.5,3.6,2.2,2.655,0.6126998381847402,-0.020408774711758833,0.7755927538579355,0.006225064426970999,-0.101298,-33.417314
11.185,2.0,1.0,1.0,33.1,33.5,33.5,3.6,2.2,2.6575,0.606000665896828,-0.020843188503589745,0.7806130161885604,0.006149919447614812,-0.102862,-33.258188
11.185,2.0,1.0,1.0,33.1,33.5,33.5,3.6,2.2,2.66,0.599211510206886,-0.021288326784909432,0.7856065913403284,0.006069051388672701,-0.104469,-33.097807
11.185,2.0,1.0,1.0,33.1,33.5,33.5,3.6,2.2,2.6625,0.5923311376970738,-0.021744544883724782,0.7905723516359592,0.005982172157780283,-0.106121,-32.936137
11.185,2.0,1.0,1.0,33.1,33.5,33.5,3.6,2.2,2.665,0.5853582891900936,-0.022212213745161392,0.7955091272768454,0.005888977136752411,-0.10782,-32.773147
11.185,2.0,1.0,1.0,33.1,33.5,33.5,3.6,2.2,2.6675,0.5782916789273493,-0.022691720793244528,0.8004157044283852,0.0057891440490893354,-0.109568,-32.608801
11.185,2.0,1.0,1.0,33.1,33.5,33.5,3.6,2.2,2.67,0.5711299937011916,-0.023183470849631693,0.8052908231896817,0.00568233173546118,-0.111367,-32.443064
11.185,2.0,1.0,1.0,33.1,33.5,33.5,3.6,2.2,2.6725,0.5638718919375868,-0.023687887113617384,0.8101331754382022,0.005568178828459119,-0.113219,-32.275898
11.185,2.0,1.0,1.0,33.1,33.5,33.5,3.6,2.2,2.675,0.5565160027252379,-0.02420541220809436,0.8149414025390118,0.005446302316957124,-0.115126,-32.107267
11.185,2.0,1.0,1.0,33.1,33.5,33.5,3.6,2.2,2.6775,0.5490609247867918,-0.024736509296548196,0.8197140929071366,0.0053162959893700325,-0.117091,-31.937129
11.185,2.0,1.0,1.0,33.1,33.5,33.5,3.6,2.2,2.68,0.5415052253873843,-0.025281663276593386,0.8244497794103812,0.0051777287439014625,-0.119116,-31.765444
11.185,2.0,1.0,1.0,33.1,33.5,33.5,3.6,2.2,2.6825,0.5338474391753499,-0.025841382056022787,0.8291469365985671,0.005030142752539888,-0.121203,-31.59217
11.185,2.0,1.0,1.0,33.1,33.5,33.5,3.6,2.2,2.685,0.5260860669494234,-0.02641619791785309,0.8338039777436302,0.0048730514640473776,-0.123357,-31.417263
11.185,2.0,1.0,1.0,33.1,33.5,33.5,3.6,2.2,2.6875,0.518219574346261,-0.0270066689813983,0.838419251673276,0.00470593742948709,-0.125579,-31.240675
11.185,2.0,1.0,1.0,33.1,33.5,33.5,3.6,2.2,2.69,0.5102463904415527,-0.027613380767002333,0.8429910393789394,0.004528249931908932,-0.127874,-31.062361
11.185,2.0,1.0,1.0,33.1,33.5,33.5,3.6,2.2,2.6925,0.5021649062573398,-0.0282369478727155,0.8475175503765989,0.004339402399636527,-0.130243,-30.88227
11.185,2.0,1.0,1.0,33.1,33.5,33.5,3.6,2.2,2.695,0.4939734731675475,-0.028878015771898417,0.851996918796472,0.004138769580129201,-0.132692,-30.700351
11.185,2.0,1.0,1.0,33.1,33.5,33.5,3.6,2.2,2.6975,0.4856704011929395,-0.029537262741505893,0.8564271991747993,0.003925684448590974,-0.135224,-30.516551
11.185,2.0,1.0,1.0,33.1,33.5,33.5,3.6,2.2,2.7,0.47725395717598396,-0.03021540193162153,0.860806361917683,0.0036994348223109035,-0.137843,-30.330813
11.185,2.0,1.0,1.0,33.1,33.5,33.5,3.6,2.2,2.7025,0.46872236282520896,-0.030913183587705964,0.8651322884032863,0.0034592596480903866,-0.140553,-30.14308
11.185,2.0,1.0,1.0,33.1,33.5,33.5,3.6,2.2,2.705,0.4600737926177492,-0.0316313974379718,0.8694027656844899,0.0032043449259714883,-0.14336,-29.953291
11.185,2.0,1.0,1.0,33.1,33.5,33.5,3.6,2.2,2.7075,0.4513063715477698,-0.032370875259321606,0.8736154807493427,0.0029338192277441407,-0.146268,-29.761384
11.185,2.0,1.0,1.0,33.1,33.5,33.5,3.6,2.2,2.71,0.44241817270741157,-0.03313249363637286,0.8777680142911346,0.00264674876329633,-0.149282,-29.567291
11.185,2.0,1.0,1.0,33.1,33.5,33.5,3.6,2.2,2.7125,0.43340721468577265,-0.033917176929247096,0.8818578339336597,0.00234213194164958,-0.15241,-29.370946
11.185,2.0,1.0,1.0,33.1,33.5,33.5,3.6,2.2,2.715,0.4242714587702587,-0.03472590046701582,0.8858822868500058,0.0020188933663825336,-0.155655,-29.172275
11.185,2.0,1.0,1.0,33.1,33.5,33.5,3.6,2.2,2.7175,0.4150088059333932,-0.035559693984957556,0.889838591704906,0.001675877196919181,-0.159027,-28.971204
11.185,2.0,1.0,1.0,33.1,33.5,33.5,3.6,2.2,2.72,0.4056170935869066,-0.036419645325088575,0.8937238298410872,0.0013118397976737985,-0.162531,-28.767655
11.185,2.0,1.0,1.0,33.1,33.5,33.5,3.6,2.2,2.7225,0.396094092083595,-0.03730690442074864,0.8975349356189991,0.0009254415860762714,-0.166175,-28.561544
11.185,2.0,1.0,1.0,33.1,33.5,33.5,3.6,2.2,2.725,0.3864375009461924,-0.038222687587332056,0.9012686858064465,0.0005152379778050273,-0.169969,-28.352787
11.185,2.0,1.0,1.0,33.1,33.5,33.5,3.6,2.2,2.7275,0.37664494480118943,-0.03916828214251318,0.904921687899792,7.966931281009555e-05,-0.17392,-28.141292
11.185,2.0,1.0,1.0,33.1,33.5,33.5,3.6,2.2,2.73,0.3667139689944553,-0.040145051380457264,0.9084903672410473,-0.0003829503714283381,-0.178039,-27.926964
11.185,2.0,1.0,1.0,33.1,33.5,33.5,3.6,2.2,2.7325,0.35664203486450546,-0.04115443992546514,0.9119709527750166,-0.0008744458729498444,-0.182337,-27.709706
11.185,2.0,1.0,1.0,33.1,33.5,33.5,3.6,2.2,2.735,0.34642651464862917,-0.04219797949115139,0.9153594612670493,-0.0013967948415560282,-0.186824,-27.489411
11.185,2.0,1.0,1.0,33.1,33.5,33.5,3.6,2.2,2.7375,0.3360646859968273,-0.04327729507147615,0.9186516797743728,-0.001952143482462954,-0.191514,-27.26597
11.185,2.0,1.0,1.0,33.1,33.5,33.5,3.6,2.2,2.74,0.3255537260689257,-0.0443941115895174,0.9218431461315469,-0.002542824183661533,-0.196421,-27.039268
11.185,2.0,1.0,1.0,33.1,33.5,33.5,3.6,2.2,2.7425,0.3148907051914797,-0.04555026102855421,0.9249291271724845,-0.003171375341017479,-0.201558,-26.809181
11.185,2.0,1.0,1.0,33.1,33.5,33.5,3.6,2.2,2.745,0.304072580053625,-0.046747690067458,0.9279045943664999,-0.0038405636996437084,-0.206943,-26.575583
11.185,2.0,1.0,1.0,33.1,33.5,33.5,3.6,2.2,2.7475,0.29309618642521085,-0.047988468238111655,0.9307641964927118,-0.004553409582684175,-0.212593,-26.338337
11.185,2.0,1.0,1.0,33.1,33.5,33.5,3.6,2.2,2.75,0.281958231387084,-0.0492747966159711,0.933502228914118,-0.00531321544099389,-0.218529,-26.097299
11.185,2.0,1.0,1.0,33.1,33.5,33.5,3.6,2.2,2.7525,0.27065528507302805,-0.05060901704513172,0.9361125989378103,-0.006123598231273008,-0.224771,-25.85232
11.185,2.0,1.0,1.0,33.1,33.5,33.5,3.6,2.2,2.755,0.25918377193675407,-0.05199362188526837,0.9385887866585975,-0.006988526218459939,-0.231343,-25.603238
11.185,2.0,1.0,1.0,33.1,33.5,33.5,3.6,2.2,2.7575,0.2475399615768623,-0.0534312642481235,0.9409238005767957,-0.007912360903582475,-0.238272,-25.349883
11.185,2.0,1.0,1.0,33.1,33.5,33.5,3.6,2.2,2.76,0.23571995917995847,-0.05492476866387305,0.9431101271533286,-0.00889990490448264,-0.245587,-25.092077
11.185,2.0,1.0,1.0,33.1,33.5,33.5,3.6,2.2,2.7625,0.22371969567948793,-0.05647714208010269,0.9451396733120683,-0.009956456768390836,-0.25332,-24.829627
11.185,2.0,1.0,1.0,33.1,33.5,33.5,3.6,2.2,2.765,0.21153491777913286,-0.05809158504477483,0.9470037007148381,-0.011087873877795343,-0.261506,-24.562332
11.185,2.0,1.0,1.0,33.1,33.5,33.5,3.6,2.2,2.7675,0.1991611780592616,-0.059771502854768385,0.9486927504117265,-0.012300644831331033,-0.270186,-24.289975
11.185,2.0,1.0,1.0,33.1,33.5,33.5,3.6,2.2,2.77,0.18659382547944955,-0.06152051635699694,0.9501965561996987,-0.013601972948041125,-0.279404,-24.012327
11.185,2.0,1.0,1.0,33.1,33.5,33.5,3.6,2.2,2.7725,0.17382799671805366,-0.06334247196118845,0.95150394469517,-0.014999872866915948,-0.28921,-23.729144
11.185,2.0,1.0,1.0,33.1,33.5,33.5,3.6,2.2,2.775,0.1608586089628761,-0.0652414502505336,0.9526027197279499,-0.016503282607254297,-0.29966,-23.440164
11.185,2.0,1.0,1.0,33.1,33.5,33.5,3.6,2.2,2.7775,0.14768035500102208,-0.06722177234276278,0.9534795281781775,-0.018122193935419622,-0.310817,-23.145108
11.185,2.0,1.0,1.0,33.1,33.5,33.5,3.6,2.2,2.78,0.13428770177286714,-0.06928800283818766,0.9541197037840619,-0.019867804470255376,-0.322753,-22.843679
11.185,2.0,1.0,1.0,33.1,33.5,33.5,3.6,2.2,2.7825,0.12067489398450355,-0.07144494776315792,0.9545070847208613,-0.021752695677880116,-0.33555,-22.535557
11.185,2.0,1.0,1.0,33.1,33.5,33.5,3.6,2.2,2.785,0.10683596495612559,-0.07369764533640207,0.9546237998591567,-0.02379104178783813,-0.349298,-22.220401
11.185,2.0,1.0,1.0,33.1,33.5,33.5,3.6,2.2,2.7875,0.09276475767779992,-0.07605134659519329,0.9544500175142545,-0.025998855744789984,-0.364104,-21.897844
11.185,2.0,1.0,1.0,33.1,33.5,33.5,3.6,2.2,2.79,0.07845496012788086,-0.07851148183958835,0.9539636491512348,-0.028394279639646892,-0.380088,-21.567493
11.185,2.0,1.0,1.0,33.1,33.5,33.5,3.6,2.2,2.7925,0.06390016039409495,-0.08108360737610722,0.9531399988545787,-0.03099792869735808,-0.39739,-21.228924
11.185,2.0,1.0,1.0,33.1,33.5,33.5,3.6,2.2,2.795,0.04909392917826991,-0.08377332501291358,0.9519513473399296,-0.03383329990178335,-0.41617,-20.881682
11.185,2.0,1.0,1.0,33.1,33.5,33.5,3.6,2.2,2.7975,0.034029940082665806,-0.08658616395906461,0.9503664568007147,-0.03692725878715239,-0.436613,-20.525277
11.185,2.0,1.0,1.0,33.1,33.5,33.5,3.6,2.2,2.8,0.01870214197950501,-0.08952741090243355,0.9483499798594422,-0.04031062090317111,-0.458939,-20.159183
11.185,2.0,1.0,1.0,33.1,33.5,33.5,3.6,2.2,2.8025,0.003105003198899965,-0.09260186864547956,0.9458617522487259,-0.04401884804794566,-0.4834,-19.78283
11.185,2.0,1.0,1.0,33.1,33.5,33.5,3.6,2.2,2.805,-0.01276614513334223,-0.09581351613807236,0.9428559445152305,-0.04809288362172596,-0.510297,-19.395607
11.185,2.0,1.0,1.0,33.1,33.5,33.5,3.6,2.2,2.8075,-0.028914628609484523,-0.09916503216275788,0.9392800430086834,-0.05258015639324757,-0.539984,-18.996854
11.185,2.0,1.0,1.0,33.1,33.5,33.5,3.6,2.2,2.81,-0.04534175886279073,-0.10265713000740866,0.935073624796089,-0.05753578747676228,-0.572884,-18.585862
11.185,2.0,1.0,1.0,33.1,33.5,33.5,3.6,2.2,2.8125,-0.0620458983561183,-0.106287629342245,0.930166885280943,-0.0630240410349289,-0.609502,-18.161868
11.185,2.0,1.0,1.0,33.1,33.5,33.5,3.6,2.2,2.815,-0.07902115602829111,-0.11005016152630231,0.9244788720328247,-0.06912006432341662,-0.650445,-17.724058
11.185,2.0,1.0,1.0,33.1,33.5,33.5,3.6,2.2,2.8175,-0.09625556608316631,-0.11393236186760707,0.9179153753512164,-0.07591196547132402,-0.696451,-17.27156
11.185,2.0,1.0,1.0,33.1,33.5,33.5,3.6,2.2,2.82,-0.11372854074165176,-0.1179133415039427,0.910366428725296,-0.08350327453095317,-0.74842,-16.803454
11.185,2.0,1.0,1.0,33.1,33.5,33.5,3.6,2.2,2.8225,-0.13140730024113625,-0.12196014494348591,0.9017033868681508,-0.09201581860148106,-0.807457,-16.31877
11.185,2.0,1.0,1.0,33.1,33.5,33.5,3.6,2.2,2.825,-0.14924185928260855,-0.12602277657782793,0.8917755869141823,-0.10159300378851448,-0.874927,-15.81651
11.185,2.0,1.0,1.0,33.1,33.5,33.5,3.6,2.2,2.8275,-0.16715797502250387,-0.13002720739795962,0.8804066805106259,-0.11240341471569569,-0.952532,-15.29566
11.185,2.0,1.0,1.0,33.1,33.5,33.5,3.6,2.2,2.83,-0.1850472221213706,-0.13386553654411468,0.867390888083914,-0.1246444793788298,-1.042409,-14.75523
