1,w,sub_t,h,l1,l2,l3,g1,g2,Freq,S11_re,S21_re,S11_img,S21_img,S11_dB,S21_dB
11.185,2.0,1.0,1.0,34.4,34.4,34.4,3.5,2.9,2.5,0.719007012653543,-0.0115164719720496,0.683733809775039,0.00535908193112322,-0.068006,-37.92234
11.185,2.0,1.0,1.0,34.4,34.4,34.4,3.5,2.9,2.5025,0.7135609697141354,-0.011728429543612912,0.6892916078247283,0.00533555309925966,-0.06876,-37.798286
11.185,2.0,1.0,1.0,34.4,34.4,34.4,3.5,2.9,2.505,0.708042578914133,-0.011944097346255586,0.6948336289363733,0.005309751893537285,-0.069528,-37.673725
11.185,2.0,1.0,1.0,34.4,34.4,34.4,3.5,2.9,2.5075,0.7024511126388383,-0.012163551113161867,0.7003592069456476,0.005281595103189915,-0.070311,-37.548645
11.185,2.0,1.0,1.0,34.4,34.4,34.4,3.5,2.9,2.51,0.6967858343890633,-0.012386868530685975,0.7058676566028498,0.005250996346096038,-0.07111,-37.423035
11.185,2.0,1.0,1.0,34.4,34.4,34.4,3.5,2.9,2.5125,0.6910459987419824,-0.012614129300971366,0.7113582729966118,0.005217865929824189,-0.071924,-37.296884
11.185,2.0,1.0,1.0,34.4,34.4,34.4,3.5,2.9,2.515,0.6852308513157562,-0.012845415207057658,0.7168303309591487,0.005182110705569848,-0.072755,-37.170179
11.185,2.0,1.0,1.0,34.4,34.4,34.4,3.5,2.9,2.5175,0.6793396287381803,-0.013080810180595561,0.7222830844523518,0.005143633914558702,-0.073603,-37.042909
11.185,2.0,1.0,1.0,34.4,34.4,34.4,3.5,2.9,2.52,0.6733715586195796,-0.01332040037229525,0.7277157659340259,0.00510233502646057,-0.074467,-36.915063
11.185,2.0,1.0,1.0,34.4,34.4,34.4,3.5,2.9,2.5225,0.667325859530231,-0.013564274225242987,0.733127585703494,0.0050581095693274245,-0.075349,-36.786626
11.185,2.0,1.0,1.0,34.4,34.4,34.4,3.5,2.9,2.525,0.6612017409825526,-0.013812522551227894,0.7385177312258044,0.0050108489505332745,-0.076249,-36.657586
11.185,2.0,1.0,1.0,34.4,34.4,34.4,3.5,2.9,2.5275,0.6549984034183448,-0.014065238610225867,0.7438853664337,0.004960440268157621,-0.077168,-36.527932
11.185,2.0,1.0,1.0,34.4,34.4,34.4,3.5,2.9,2.53,0.648715038201369,-0.014322518193201406,0.7492296310064734,0.004906766112213143,-0.078106,-36.397648
11.185,2.0,1.0,1.0,34.4,34.4,34.4,3.5,2.9,2.5325,0.6423508276155546,-0.014584459708391919,0.7545496396247994,0.004849704355074643,-0.079063,-36.266721
11.185,2.0,1.0,1.0,34.4,34.4,34.4,3.5,2.9,2.535,0.635904944869137,-0.01485116427125132,0.759844481200576,0.004789127930420056,-0.080041,-36.135138
11.185,2.0,1.0,1.0,34.4,34.4,34.4,3.5,2.9,2.5375,0.629376554105053,-0.01512273579823953,0.7651132180807464,0.004724904599942163,-0.081039,-36.002885
11.185,2.0,1.0,1.0,34.4,34.4,34.4,3.5,2.9,2.54,0.6227648104179098,-0.01539928110465355,0.770354885224037,0.004656896707034038,-0.082059,-35.869945
11.185,2.0,1.0,1.0,34.4,34.4,34.4,3.5,2.9,2.5425,0.6160688598778702,-0.015680910006710416,0.7755684893494664,0.004584960916592233,-0.0831,-35.736306
11.185,2.0,1.0,1.0,34.4,34.4,34.4,3.5,2.9,2.545,0.6092878395618039,-0.015967735428100052,0.7807530080554266,0.0045089479400155594,-0.084165,-35.601951
11.185,2.0,1.0,1.0,34.4,34.4,34.4,3.5,2.9,2.5475,0.6024208775920714,-0.016259873511240475,0.7859073889080533,0.0044287022444060116,-0.085252,-35.466864
11.185,2.0,1.0,1.0,34.4,34.4,34.4,3.5,2.9,2.55,0.5954670931832962,-0.016557443733484216,0.7910305484975493,0.0043440617449013634,-0.086364,-35.33103
11.185,2.0,1.0,1.0,34.4,34.4,34.4,3.5,2.9,2.5525,0.5884255966975352,-0.016860569028531527,0.7961213714610037,0.004254857478985627,-0.0875,-35.194432
11.185,2.0,1.0,1.0,34.4,34.4,34.4,3.5,2.9,2.555,0.581295489708225,-0.017169375913329628,0.8011787094701988,0.004160913261530325,-0.088662,-35.057053
11.185,2.0,1.0,1.0,34.4,34.4,34.4,3.5,2.9,2.5575,0.5740758650733122,-0.017483994620744656,0.8062013801827764,0.004062045319220763,-0.08985,-34.918876
11.185,2.0,1.0,1.0,34.4,34.4,34.4,3.5,2.9,2.56,0.5667658070180006,-0.017804559238315306,0.8111881661550279,0.003958061902912916,-0.091065,-34.779882
11.185,2.0,1.0,1.0,34.4,34.4,34.4,3.5,2.9,2.5625,0.559364391227539,-0.0181312078534121,0.816137813714459,0.00384876287634496,-0.092309,-34.640054
11.185,2.0,1.0,1.0,34.4,34.4,34.4,3.5,2.9,2.565,0.5518706849504899,-0.0184640827051437,0.8210490317901713,0.0037339392795010546,-0.093581,-34.499373
11.185,2.0,1.0,1.0,34.4,34.4,34.4,3.5,2.9,2.5675,0.5442837471129486,-0.01880333034337132,0.8259204906989218,0.003613372864779229,-0.094882,-34.357818
11.185,2.0,1.0,1.0,34.4,34.4,34.4,3.5,2.9,2.57,0.5366026284441705,-0.019149101795213605,0.8307508208846209,0.0034868356039617606,-0.096215,-34.215372
11.185,2.0,1.0,1.0,34.4,34.4,34.4,3.5,2.9,2.5725,0.5288263716140902,-0.019501552739442034,0.8355386116088285,0.003354089163813817,-0.097579,-34.072012
11.185,2.0,1.0,1.0,34.4,34.4,34.4,3.5,2.9,2.575,0.5209540113832261,-0.01986084368919068,0.8402824095896393,0.003214884347950938,-0.098976,-33.927717
11.185,2.0,1.0,1.0,34.4,34.4,34.4,3.5,2.9,2.5775,0.5129845747654771,-0.020227140183427278,0.8449807175861519,0.0030689605024069298,-0.100407,-33.782467
11.185,2.0,1.0,1.0,34.4,34.4,34.4,3.5,2.9,2.58,0.5049170812043355,-0.020600612987648623,0.8496319929254875,0.0029160448821132614,-0.101873,-33.636239
11.185,2.0,1.0,1.0,34.4,34.4,34.4,3.5,2.9,2.5825,0.4967505427630348,-0.020981438304300062,0.8542346459691044,0.0027558519752459236,-0.103376,-33.489009
11.185,2.0,1.0,1.0,34.4,34.4,34.4,3.5,2.9,2.585,0.4884839643291921,-0.021369797993427187,0.8587870385148632,0.0025880827821277872,-0.104916,-33.340754
11.185,2.0,1.0,1.0,34.4,34.4,34.4,3.5,2.9,2.5875,0.4801163438344912,-0.021765879804105406,0.8632874821310369,0.0024124240450699853,-0.106494,-33.19145
11.185,2.0,1.0,1.0,34.4,34.4,34.4,3.5,2.9,2.59,0.47164667248999637,-0.02216987761720822,0.8677342364181067,0.002228547425204883,-0.108113,-33.041071
11.185,2.0,1.0,1.0,34.4,34.4,34.4,3.5,2.9,2.5925,0.46307393503766553,-0.022581991700105292,0.8721255071938627,0.0020361086219947764,-0.109774,-32.889591
11.185,2.0,1.0,1.0,34.4,34.4,34.4,3.5,2.9,2.595,0.4543971100186998,-0.023002428973901232,0.8764594445969056,0.0018347464306969767,-0.111478,-32.736983
11.185,2.0,1.0,1.0,34.4,34.4,34.4,3.5,2.9,2.5975,0.44561517005932355,-0.023431403293849334,0.880734141103237,0.001624081732614453,-0.113227,-32.58322
11.185,2.0,1.0,1.0,34.4,34.4,34.4,3.5,2.9,2.6,0.43672708217465916,-0.023869135743599303,0.8849476294501265,0.0014037164124667482,-0.115022,-32.428272
11.185,2.0,1.0,1.0,34.4,34.4,34.4,3.5,2.9,2.6025,0.4277318080913753,-0.024315854943948643,0.8890978804609121,0.0011732321966631673,-0.116866,-32.27211
11.185,2.0,1.0,1.0,34.4,34.4,34.4,3.5,2.9,2.605,0.4186283045897849,-0.024771797376793206,0.8931828007638074,0.0009321894056486783,-0.118759,-32.114704
11.185,2.0,1.0,1.0,34.4,34.4,34.4,3.5,2.9,2.6075,0.40941552386614216,-0.02523720772497633,0.8972002303971099,0.0006801256128148479,-0.120705,-31.956021
11.185,2.0,1.0,1.0,34.4,34.4,34.4,3.5,2.9,2.61,0.40009241391590283,-0.02571233922874331,0.9011479402924749,0.0004165542017095815,-0.122705,-31.796029
11.185,2.0,1.0,1.0,34.4,34.4,34.4,3.5,2.9,2.6125,0.39065791893876045,-0.026197454059513618,0.905023629627107,0.00014096281244002512,-0.124761,-31.634693
11.185,2.0,1.0,1.0,34.4,34.4,34.4,3.5,2.9,2.615,0.38111097976631786,-0.026692823711663618,0.9088249230347815,-0.00014718833277849568,-0.126876,-31.471978
11.185,2.0,1.0,1.0,34.4,34.4,34.4,3.5,2.9,2.6175,0.3714505343133461,-0.027198729413001107,0.9125493676645969,-0.0004484682360205007,-0.129052,-31.307847
11.185,2.0,1.0,1.0,34.4,34.4,34.4,3.5,2.9,2.62,0.3616755180536281,-0.027715462554570976,0.9161944300752008,-0.0007634770742618522,-0.131291,-31.142263
11.185,2.0,1.0,1.0,34.4,34.4,34.4,3.5,2.9,2.6225,0.35178486452149216,-0.028243325140387552,0.9197574929509464,-0.0010928483077821153,-0.133597,-30.975186
11.185,2.0,1.0,1.0,34.4,34.4,34.4,3.5,2.9,2.625,0.341777505840285,-0.0287826302576059,0.923235851624974,-0.00143725096140269,-0.135972,-30.806575
11.185,2.0,1.0,1.0,34.4,34.4,34.4,3.5,2.9,2.6275,0.3316523732791192,-0.029333702567553053,0.926626710392607,-0.0017973920952585095,-0.138419,-30.636387
11.185,2.0,1.0,1.0,34.4,34.4,34.4,3.5,2.9,2.63,0.3214083978394649,-0.029896878817904933,0.9299271785965926,-0.0021740194836498278,-0.140942,-30.464579
11.185,2.0,1.0,1.0,34.4,34.4,34.4,3.5,2.9,2.6325,0.31104451087332824,-0.03047250837611725,0.9331342664636709,-0.0025679245226064413,-0.143543,-30.291104
11.185,2.0,1.0,1.0,34.4,34.4,34.4,3.5,2.9,2.635,0.3005596447350431,-0.031060953784008586,0.9362448806696085,-0.0029799453891467733,-0.146227,-30.115914
11.185,2.0,1.0,1.0,34.4,34.4,34.4,3.5,2.9,2.6375,0.2899527334690195,-0.03166259133309651,0.9392558196072017,-0.0034109704778591842,-0.148997,-29.938959
11.185,2.0,1.0,1.0,34.4,34.4,34.4,3.5,2.9,2.64,0.2792227135361607,-0.03227781165995028,0.9421637683287832,-0.0038619421434333383,-0.151857,-29.760188
11.185,2.0,1.0,1.0,34.4,34.4,34.4,3.5,2.9,2.6425,0.26836852458218413,-0.032907020360361604,0.944965293131357,-0.00433386078114943,-0.154812,-29.579547
11.185,2.0,1.0,1.0,34.4,34.4,34.4,3.5,2.9,2.645,0.25738911025162753,-0.03355063862059642,0.947656835748675,-0.0048277892811791605,-0.157866,-29.396978
11.185,2.0,1.0,1.0,34.4,34.4,34.4,3.5,2.9,2.6475,0.24628341905206924,-0.03420910386328817,0.9502347071101845,-0.005344857896903727,-0.161025,-29.212423
11.185,2.0,1.0,1.0,34.4,34.4,34.4,3.5,2.9,2.65,0.2350504052739315,-0.03488287040469685,0.9526950806218294,-0.005886269572412209,-0.164294,-29.02582
11.185,2.0,1.0,1.0,34.4,34.4,34.4,3.5,2.9,2.6525,0.22368902997238008,-0.0355724101189909,0.9550339849179947,-0.006453305779979689,-0.167677,-28.837106
11.185,2.0,1.0,1.0,34.4,34.4,34.4,3.5,2.9,2.655,0.2121982620190593,-0.03627821310392924,0.9572472960274492,-0.007047332924759673,-0.171182,-28.646213
11.185,2.0,1.0,1.0,34.4,34.4,34.4,3.5,2.9,2.6575,0.2005770792330873,-0.03700078834071682,0.9593307288887183,-0.0076698093812721385,-0.174816,-28.45307
11.185,2.0,1.0,1.0,34.4,34.4,34.4,3.5,2.9,2.66,0.1888244696026638,-0.03774066433885223,0.9612798281418552,-0.008322293234675612,-0.178584,-28.257604
11.185,2.0,1.0,1.0,34.4,34.4,34.4,3.5,2.9,2.6625,0.17693943261109066,-0.03849838975438033,0.9630899581138449,-0.00900645080945374,-0.182494,-28.059737
11.185,2.0,1.0,1.0,34.4,34.4,34.4,3.5,2.9,2.665,0.16492098068392105,-0.03927453396700336,0.9647562919037097,-0.009724066079212312,-0.186555,-27.85939
11.185,2.0,1.0,1.0,34.4,34.4,34.4,3.5,2.9,2.6675,0.15276814077765152,-0.040069687597870385,0.9662737994604857,-0.010477051064015423,-0.190776,-27.656476
11.185,2.0,1.0,1.0,34.4,34.4,34.4,3.5,2.9,2.67,0.14047995613476755,-0.04088446294541072,0.967637234532419,-0.011267457336369885,-0.195165,-27.450908
11.185,2.0,1.0,1.0,34.4,34.4,34.4,3.5,2.9,2.6725,0.1280554882354729,-0.04171949431106827,0.9688411203485395,-0.012097488773903022,-0.199733,-27.242591
11.185,2.0,1.0,1.0,34.4,34.4,34.4,3.5,2.9,2.675,0.11549381898317973,-0.04257543818006074,0.9698797338739275,-0.012969515716389489,-0.204491,-27.031426
11.185,2.0,1.0,1.0,34.4,34.4,34.4,3.5,2.9,2.6775,0.1027940531691322,-0.043452973213947074,0.9707470884569216,-0.013886090707501198,-0.209451,-26.817312
11.185,2.0,1.0,1.0,34.4,34.4,34.4,3.5,2.9,2.68,0.089955321271802,-0.044352800001524466,0.9714369146597496,-0.014849966028035384,-0.214627,-26.600138
11.185,2.0,1.0,1.0,34.4,34.4,34.4,3.5,2.9,2.6825,0.07697678265938043,-0.04527564050190098,0.97194263903288,-0.015864113258091082,-0.220031,-26.379789
11.185,2.0,1.0,1.0,34.4,34.4,34.4,3.5,2.9,2.685,0.063857629279355,-0.04622223709788485,0.9722573605570176,-0.01693174514145011,-0.225681,-26.156145
11.185,2.0,1.0,1.0,34.4,34.4,34.4,3.5,2.9,2.6875,0.0505970899386402,-0.0471933511583993,0.972373824434146,-0.0180563400672554,-0.231592,-25.929077
11.185,2.0,1.0,1.0,34.4,34.4,34.4,3.5,2.9,2.69,0.03719443530191937,-0.04818976098446054,0.9722843928592412,-0.019241669533026234,-0.237783,-25.698451
11.185,2.0,1.0,1.0,34.4,34.4,34.4,3.5,2.9,2.6925,0.023648983765920235,-0.049212258983211875,0.9719810123458292,-0.02049182901049358,-0.244274,-25.464124
11.185,2.0,1.0,1.0,34.4,34.4,34.4,3.5,2.9,2.695,0.009960108405028993,-0.05026164787700106,0.9714551771098753,-0.021811272703228444,-0.251088,-25.225944
11.185,2.0,1.0,1.0,34.4,34.4,34.4,3.5,2.9,2.6975,-0.003872754769442321,-0.0513387357076013,0.9706978879355415,-0.023204852764539458,-0.258249,-24.983752
11.185,2.0,1.0,1.0,34.4,34.4,34.4,3.5,2.9,2.7,-0.0178500969348805,-0.05244432933689956,0.9696996058508208,-0.024677863637917595,-0.265784,-24.737377
11.185,2.0,1.0,1.0,34.4,34.4,34.4,3.5,2.9,2.7025,-0.0319723245923187,-0.0535792260714603,0.9684501998280552,-0.026236092293204376,-0.273723,-24.48664
11.185,2.0,1.0,1.0,34.4,34.4,34.4,3.5,2.9,2.705,-0.04623974524138559,-0.05474420294520311,0.9669388875905068,-0.027885875263006264,-0.282099,-24.231348
11.185,2.0,1.0,1.0,34.4,34.4,34.4,3.5,2.9,2.7075,-0.060652550007486934,-0.05594000307656249,0.9651541684472806,-0.02963416353971616,-0.290949,-23.9713
11.185,2.0,1.0,1.0,34.4,34.4,34.4,3.5,2.9,2.71,-0.07521079248289761,-0.057167318366951735,0.9630837468900826,-0.03148859657866333,-0.300313,-23.706277
11.185,2.0,1.0,1.0,34.4,34.4,34.4,3.5,2.9,2.7125,-0.08991436285179487,-0.05842676761694063,0.9607144454605485,-0.03345758687326215,-0.310238,-23.43605
11.185,2.0,1.0,1.0,34.4,34.4,34.4,3.5,2.9,2.715,-0.10476295612411357,-0.05971886889323573,0.958032105129067,-0.03555041683049423,-0.320774,-23.160371
11.185,2.0,1.0,1.0,34.4,34.4,34.4,3.5,2.9,2.7175,-0.11975603298865514,-0.061044004667494996,0.9550214711066428,-0.03777734998796435,-0.331979,-22.878978
11.185,2.0,1.0,1.0,34.4,34.4,34.4,3.5,2.9,2.72,-0.13489277139068173,-0.06240237784620304,0.9516660616303299,-0.04014975898691986,-0.343918,-22.591591
11.185,2.0,1.0,1.0,34.4,34.4,34.4,3.5,2.9,2.7225,-0.15017200641533565,-0.06379395629140208,0.94794801680831,-0.04268027316049073,-0.356663,-22.297907
11.185,2.0,1.0,1.0,34.4,34.4,34.4,3.5,2.9,2.725,-0.16559215537758787,-0.06521840275774218,0.943847924069242,-0.04538294912619129,-0.370298,-21.997606
11.185,2.0,1.0,1.0,34.4,34.4,34.4,3.5,2.9,2.7275,-0.18115112413189158,-0.06667498629211521,0.9393446161166307,-0.04827346840130201,-0.384916,-21.690342
11.185,2.0,1.0,1.0,34.4,34.4,34.4,3.5,2.9,2.73,-0.19684618945159787,-0.06816246999067556,0.9344149365261639,-0.05136936680513183,-0.400625,-21.375744
11.185,2.0,1.0,1.0,34.4,34.4,34.4,3.5,2.9,2.7325,-0.21267385079755977,-0.06967896849308827,0.9290334672250875,-0.05469030128963468,-0.417547,-21.053413
11.185,2.0,1.0,1.0,34.4,34.4,34.4,3.5,2.9,2.735,-0.22862964277105335,-0.07122176659127002,0.9231722110426661,-0.05825836086373634,-0.435826,-20.722922
11.185,2.0,1.0,1.0,34.4,34.4,34.4,3.5,2.9,2.7375,-0.24470789685667,-0.07278708767009978,0.9168002213098353,-0.0620984294556592,-0.455623,-20.383808
11.185,2.0,1.0,1.0,34.4,34.4,34.4,3.5,2.9,2.74,-0.26090143746999483,-0.07436979714783845,0.9098831691172521,-0.06623860988735746,-0.477129,-20.035575
11.185,2.0,1.0,1.0,34.4,34.4,34.4,3.5,2.9,2.7425,-0.27720119250785263,-0.07596302132378659,0.9023828373416606,-0.07071071958698896,-0.500564,-19.677687
11.185,2.0,1.0,1.0,34.4,34.4,34.4,3.5,2.9,2.745,-0.2935956921060149,-0.0775576556269799,0.8942565289942169,-0.07555087016436035,-0.526186,-19.309566
11.185,2.0,1.0,1.0,34.4,34.4,34.4,3.5,2.9,2.7475,-0.3100704205176672,-0.07914172757860179,0.8854563759860369,-0.08080014436434349,-0.554302,-18.93059
11.185,2.0,1.0,1.0,34.4,34.4,34.4,3.5,2.9,2.75,-0.326606974070684,-0.0806995679806219,0.875928533343313,-0.0865053848963689,-0.585269,-18.540084
11.185,2.0,1.0,1.0,34.4,34.4,34.4,3.5,2.9,2.7525,-0.3431819618424259,-0.08221072774242523,0.8656122437797669,-0.09272010967225665,-0.619516,-18.137326
11.185,2.0,1.0,1.0,34.4,34.4,34.4,3.5,2.9,2.755,-0.35976556334579707,-0.08364855572156252,0.8544387593103774,-0.09950556611171292,-0.657557,-17.721534
11.185,2.0,1.0,1.0,34.4,34.4,34.4,3.5,2.9,2.7575,-0.3763196268641889,-0.0849783227381013,0.8423301119424087,-0.10693193173011456,-0.700008,-17.291872
11.185,2.0,1.0,1.0,34.4,34.4,34.4,3.5,2.9,2.76,-0.3927951500002157,-0.0861547354756643,0.8291977372910658,-0.11507965634592786,-0.747617,-16.847443
11.185,2.0,1.0,1.0,34.4,34.4,34.4,3.5,2.9,2.7625,-0.4091289263868412,-0.08711862725980415,0.8149409781623383,-0.12404091805495557,-0.801298,-16.387293
11.185,2.0,1.0,1.0,34.4,34.4,34.4,3.5,2.9,2.765,-0.4252390640767095,-0.08779253554736847,0.7994455380932397,-0.13392112233190856,-0.862172,-15.910414
11.185,2.0,1.0,1.0,34.4,34.4,34.4,3.5,2.9,2.7675,-0.4410189756350078,-0.0880747722847281,0.7825820316907881,-0.14484029724256522,-0.931629,-15.415755
11.185,2.0,1.0,1.0,34.4,34.4,34.4,3.5,2.9,2.77,-0.45632930119754767,-0.08783145708959306,0.7642049131647687,-0.15693410426967735,-1.011402,-14.90224
11.185,2.0,1.0,1.0,34.4,34.4,34.4,3.5,2.9,2.7725,-0.47098705050993367,-0.08688581152061713,0.7441522963986285,-0.17035395449498375,-1.10367,-14.368796
11.185,2.0,1.0,1.0,34.4,34.4,34.4,3.5,2.9,2.775,-0.48475104551663833,-0.08500381304329192,0.7222475745508732,-0.18526532944826984,-1.211192,-13.814406
11.185,2.0,1.0,1.0,34.4,34.4,34.4,3.5,2.9,2.7775,-0.49730254643966343,-0.08187511477361038,0.6983044094533564,-0.2018427514932687,-1.337488,-13.238184
11.185,2.0,1.0,1.0,34.4,34.4,34.4,3.5,2.9,2.78,-0.5082198517825632,-0.07708805148355181,0.6721377525773203,-0.22025877125185434,-1.48707,-12.639503
11.185,2.0,1.0,1.0,34.4,34.4,34.4,3.5,2.9,2.7825,-0.5169459195781271,-0.07009781487387597,0.6435853095105044,-0.24066261417322504,-1.665755,-12.018178
11.185,2.0,1.0,1.0,34.4,34.4,34.4,3.5,2.9,2.785,-0.5227492005997945,-0.06018802309489708,0.6125465396409885,-0.2631414904405493,-1.881034,-11.374748
11.185,2.0,1.0,1.0,34.4,34.4,34.4,3.5,2.9,2.7875,-0.5246810009403358,-0.04642901379861751,0.579050050314875,-0.28765387154619143,-2.142509,-10.710902
11.185,2.0,1.0,1.0,34.4,34.4,34.4,3.5,2.9,2.79,-0.5215398403517164,-0.02764326593180587,0.5433646415227193,-0.313919736085644,-2.462263,-10.030081
11.185,2.0,1.0,1.0,34.4,34.4,34.4,3.5,2.9,2.7925,-0.5118676947874983,-0.002402597791198484,0.506171896411625,-0.34125025822593574,-2.854871,-9.338325
11.185,2.0,1.0,1.0,34.4,34.4,34.4,3.5,2.9,2.795,-0.49402830375369333,0.030893290389209224,0.4688120097843291,-0.36830566333226794,-3.336237,-8.645383
11.185,2.0,1.0,1.0,34.4,34.4,34.4,3.5,2.9,2.7975,-0.46645289087016145,0.07377282542299944,0.43358360984414773,-0.39280067938584906,-3.919309,-7.966004
11.185,2.0,1.0,1.0,34.4,34.4,34.4,3.5,2.9,2.8,-0.4281636856909306,0.1271747338129913,0.40399736668444497,-0.411257018050572,-4.602491,-7.321111
11.185,2.0,1.0,1.0,34.4,34.4,34.4,3.5,2.9,2.8025,-0.3796366324938809,0.19059708459197772,0.3847385242822201,-0.41904478083273394,-5.343975,-6.738162
11.185,2.0,1.0,1.0,34.4,34.4,34.4,3.5,2.9,2.805,-0.32383171362637014,0.26108445263510693,0.3809560621227647,-0.4110890649903526,-6.020695,-6.249598
11.185,2.0,1.0,1.0,34.4,34.4,34.4,3.5,2.9,2.8075,-0.2667731573129885,0.3326639895403862,0.3966183357653142,-0.38349522930295665,-6.411632,-5.888284
11.185,2.0,1.0,1.0,34.4,34.4,34.4,3.5,2.9,2.81,-0.21676003020499954,0.3971353608552831,0.43236031033595257,-0.33566865111235017,-6.30932,-5.680095
11.185,2.0,1.0,1.0,34.4,34.4,34.4,3.5,2.9,2.8125,-0.181880449895757,0.446529793487183,0.484201649352973,-0.27156653208954,-5.726247,-5.636191
11.185,2.0,1.0,1.0,34.4,34.4,34.4,3.5,2.9,2.815,-0.16703371032586015,0.4760431665938796,0.5444771916292722,-0.19876444984532712,-4.889785,-5.749153
11.185,2.0,1.0,1.0,34.4,34.4,34.4,3.5,2.9,2.8175,-0.17248799042421784,0.48544442061491516,0.6046442366759214,-0.12567920778639824,-4.030218,-5.995457
11.185,2.0,1.0,1.0,34.4,34.4,34.4,3.5,2.9,2.82,-0.19476217551070826,0.4781912973870673,0.6580377552513353,-0.0588550543289969,-3.270289,-6.342672
11.185,2.0,1.0,1.0,34.4,34.4,34.4,3.5,2.9,2.8225,-0.228739402876477,0.4593390255012204,0.701046555302685,-0.001814112748816295,-2.645704,-6.757265
11.185,2.0,1.0,1.0,34.4,34.4,34.4,3.5,2.9,2.825,-0.2695002214275874,0.43373357734187484,0.7327487983108161,0.044574664144834394,-2.149898,-7.209911
11.185,2.0,1.0,1.0,34.4,34.4,34.4,3.5,2.9,2.8275,-0.31322959736128386,0.4051219858635199,0.7539017893930355,0.081094269644444,-1.762124,-7.677662
