1,w,sub_t,h,l1,l2,l3,g1,g2,Freq,S11_re,S21_re,S11_img,S21_img,S11_dB,S21_dB
11.185,2.0,1.0,1.0,33.0,34.9,34.9,2.5,3.1,2.5,0.893967925388412,-0.00774266647522034,0.433026102233625,0.00825557315883992,-0.058192,-38.924394
11.185,2.0,1.0,1.0,33.0,34.9,34.9,2.5,3.1,2.5025,0.8911877141291001,-0.00793443570097738,0.4385491665401252,0.008338700397801374,-0.058849,-38.778195
11.185,2.0,1.0,1.0,33.0,34.9,34.9,2.5,3.1,2.505,0.8883602230011042,-0.00813099955991092,0.44407682324364517,0.008422492565540514,-0.059522,-38.631161
11.185,2.0,1.0,1.0,33.0,34.9,34.9,2.5,3.1,2.5075,0.8854848915117982,-0.008332513182101934,0.44960898530408827,0.00850695227017814,-0.06021,-38.483268
11.185,2.0,1.0,1.0,33.0,34.9,34.9,2.5,3.1,2.51,0.8825611449860326,-0.008539138375447855,0.455145562381242,0.008592081695931645,-0.060915,-38.334493
11.185,2.0,1.0,1.0,33.0,34.9,34.9,2.5,3.1,2.5125,0.87958839403833,-0.008751043983596314,0.46068646068180114,0.008677882554225773,-0.061637,-38.184811
11.185,2.0,1.0,1.0,33.0,34.9,34.9,2.5,3.1,2.515,0.8765660340171738,-0.008968406266833654,0.4662315827980724,0.008764356030036644,-0.062377,-38.034197
11.185,2.0,1.0,1.0,33.0,34.9,34.9,2.5,3.1,2.5175,0.8734934444194807,-0.00919140930764352,0.4717808275377289,0.00885150272298829,-0.063134,-37.882626
11.185,2.0,1.0,1.0,33.0,34.9,34.9,2.5,3.1,2.52,0.8703699882731916,-0.009420245442797775,0.4773340897439609,0.008939322582669974,-0.063911,-37.730072
11.185,2.0,1.0,1.0,33.0,34.9,34.9,2.5,3.1,2.5225,0.8671950114857504,-0.009655115724001835,0.4828912601052642,0.009027814837582838,-0.064707,-37.576507
11.185,2.0,1.0,1.0,33.0,34.9,34.9,2.5,3.1,2.525,0.8639678421560405,-0.009896230409294134,0.48845222495407614,0.009116977917061503,-0.065523,-37.421903
11.185,2.0,1.0,1.0,33.0,34.9,34.9,2.5,3.1,2.5275,0.8606877898471532,-0.010143809487591577,0.49401686605336603,0.009206809365441134,-0.06636,-37.266232
11.185,2.0,1.0,1.0,33.0,34.9,34.9,2.5,3.1,2.53,0.8573541448171357,-0.010398083238986314,0.4995850603701965,0.00929730574766025,-0.067219,-37.109464
11.185,2.0,1.0,1.0,33.0,34.9,34.9,2.5,3.1,2.5325,0.85396617720462,-0.010659292833632723,0.5051566798351891,0.009388462545396985,-0.068101,-36.951569
11.185,2.0,1.0,1.0,33.0,34.9,34.9,2.5,3.1,2.535,0.8505231361659532,-0.010927690972322235,0.510731591086705,0.009480274042734686,-0.069006,-36.792515
11.185,2.0,1.0,1.0,33.0,34.9,34.9,2.5,3.1,2.5375,0.8470242489601675,-0.011203542572125535,0.516309655198424,0.009572733200234733,-0.069935,-36.63227
11.185,2.0,1.0,1.0,33.0,34.9,34.9,2.5,3.1,2.54,0.8434687199777816,-0.011487125500797715,0.521890727388883,0.00966583151616681,-0.07089,-36.470801
11.185,2.0,1.0,1.0,33.0,34.9,34.9,2.5,3.1,2.5425,0.8398557297090744,-0.011778731363985924,0.5274746567113598,0.009759558873497123,-0.071871,-36.308073
11.185,2.0,1.0,1.0,33.0,34.9,34.9,2.5,3.1,2.545,0.8361844336470631,-0.012078666349662853,0.5330612857223258,0.009853903371070722,-0.07288,-36.144052
11.185,2.0,1.0,1.0,33.0,34.9,34.9,2.5,3.1,2.5475,0.8324539611199843,-0.012387252134631715,0.5386504501264818,0.009948851137236635,-0.073917,-35.9787
11.185,2.0,1.0,1.0,33.0,34.9,34.9,2.5,3.1,2.55,0.8286634140475728,-0.012704826858419544,0.5442419783961913,0.010044386123951227,-0.074984,-35.811979
11.185,2.0,1.0,1.0,33.0,34.9,34.9,2.5,3.1,2.5525,0.8248118656149133,-0.01303174617039228,0.549835691362834,0.010140489879155931,-0.076083,-35.64385
11.185,2.0,1.0,1.0,33.0,34.9,34.9,2.5,3.1,2.555,0.8208983588570055,-0.013368384356506719,0.5554314017773658,0.010237141294952661,-0.077213,-35.474274
11.185,2.0,1.0,1.0,33.0,34.9,34.9,2.5,3.1,2.5575,0.8169219051465566,-0.013715135552753065,0.5610289138370178,0.010334316328791657,-0.078377,-35.303208
11.185,2.0,1.0,1.0,33.0,34.9,34.9,2.5,3.1,2.56,0.8128814825767373,-0.014072415053057515,0.566628022674705,0.010431987694531554,-0.079577,-35.130608
11.185,2.0,1.0,1.0,33.0,34.9,34.9,2.5,3.1,2.5625,0.8087760342298389,-0.014440660720209355,0.5722285138073154,0.010530124519836096,-0.080813,-34.956431
11.185,2.0,1.0,1.0,33.0,34.9,34.9,2.5,3.1,2.565,0.8046044663218344,-0.014820334509264869,0.5778301625385721,0.010628691965908625,-0.082088,-34.780629
11.185,2.0,1.0,1.0,33.0,34.9,34.9,2.5,3.1,2.5675,0.8003656462118379,-0.015211924113870012,0.5834327333116088,0.010727650805048915,-0.083403,-34.603154
11.185,2.0,1.0,1.0,33.0,34.9,34.9,2.5,3.1,2.57,0.7960584002642956,-0.015615944747052763,0.589035979005816,0.01082695695091648,-0.084761,-34.423957
11.185,2.0,1.0,1.0,33.0,34.9,34.9,2.5,3.1,2.5725,0.7916815115504794,-0.016032941069274626,0.5946396401717924,0.010926560935702222,-0.086162,-34.242985
11.185,2.0,1.0,1.0,33.0,34.9,34.9,2.5,3.1,2.575,0.7872337173744167,-0.016463489277921375,0.6002434441974382,0.011026407327625054,-0.08761,-34.060186
11.185,2.0,1.0,1.0,33.0,34.9,34.9,2.5,3.1,2.5775,0.7827137066067845,-0.016908199373971297,0.6058471043973153,0.011126434081269277,-0.089107,-33.875502
11.185,2.0,1.0,1.0,33.0,34.9,34.9,2.5,3.1,2.58,0.7781201168085101,-0.017367717623332106,0.6114503190163283,0.01122657181223864,-0.090654,-33.688876
11.185,2.0,1.0,1.0,33.0,34.9,34.9,2.5,3.1,2.5825,0.7734515311237707,-0.017842729232309423,0.6170527701375844,0.011326742986408891,-0.092256,-33.500248
11.185,2.0,1.0,1.0,33.0,34.9,34.9,2.5,3.1,2.585,0.7687064749198447,-0.018333961258889846,0.6226541224828649,0.011426861012675944,-0.093913,-33.309554
11.185,2.0,1.0,1.0,33.0,34.9,34.9,2.5,3.1,2.5875,0.7638834121486676,-0.01884218578402955,0.6282540220925347,0.011526829226497656,-0.09563,-33.11673
11.185,2.0,1.0,1.0,33.0,34.9,34.9,2.5,3.1,2.59,0.7589807414020793,-0.019368223369968858,0.6338520948698341,0.011626539749673086,-0.09741,-32.921706
11.185,2.0,1.0,1.0,33.0,34.9,34.9,2.5,3.1,2.5925,0.7539967916294497,-0.019912946835799243,0.6394479449723235,0.011725872209648715,-0.099255,-32.724412
11.185,2.0,1.0,1.0,33.0,34.9,34.9,2.5,3.1,2.595,0.7489298174826986,-0.020477285384136793,0.6450411530307087,0.011824692299132984,-0.10117,-32.524774
11.185,2.0,1.0,1.0,33.0,34.9,34.9,2.5,3.1,2.5975,0.7437779942494865,-0.021062229116878554,0.6506312741723531,0.01192285015387785,-0.103159,-32.322715
11.185,2.0,1.0,1.0,33.0,34.9,34.9,2.5,3.1,2.6,0.7385394123306235,-0.021668833982697134,0.6562178358233117,0.012020178523070166,-0.105225,-32.118153
11.185,2.0,1.0,1.0,33.0,34.9,34.9,2.5,3.1,2.6025,0.7332120712122935,-0.02229822720425787,0.6618003352587172,0.012116490702771996,-0.107373,-31.911005
11.185,2.0,1.0,1.0,33.0,34.9,34.9,2.5,3.1,2.605,0.7277938728775292,-0.022951613239217298,0.6673782368666222,0.0122115781981574,-0.109608,-31.701181
11.185,2.0,1.0,1.0,33.0,34.9,34.9,2.5,3.1,2.6075,0.7222826145943291,-0.02363028033599489,0.6729509690848566,0.0123052080747659,-0.111936,-31.488589
11.185,2.0,1.0,1.0,33.0,34.9,34.9,2.5,3.1,2.61,0.7166759810097542,-0.02433560775323838,0.6785179209639166,0.012397119952483514,-0.114361,-31.273133
11.185,2.0,1.0,1.0,33.0,34.9,34.9,2.5,3.1,2.6125,0.7109715354701295,-0.025069073720984117,0.6840784383011989,0.012487022588265093,-0.116891,-31.054712
11.185,2.0,1.0,1.0,33.0,34.9,34.9,2.5,3.1,2.615,0.7051667104769297,-0.025832264231928578,0.6896318192827503,0.012574589984493328,-0.119532,-30.833218
11.185,2.0,1.0,1.0,33.0,34.9,34.9,2.5,3.1,2.6175,0.6992587971757961,-0.026626882763191945,0.6951773095578535,0.012659456949041302,-0.12229,-30.608539
11.185,2.0,1.0,1.0,33.0,34.9,34.9,2.5,3.1,2.62,0.6932449337622036,-0.027454761042722393,0.7007140966588662,0.012741214020204271,-0.125175,-30.38056
11.185,2.0,1.0,1.0,33.0,34.9,34.9,2.5,3.1,2.6225,0.6871220926712288,-0.028317870990358405,0.7062413036633418,0.012819401654272089,-0.128194,-30.149155
11.185,2.0,1.0,1.0,33.0,34.9,34.9,2.5,3.1,2.625,0.68088706640039,-0.0292183379818738,0.711757981976988,0.0128935035550652,-0.131358,-29.914195
11.185,2.0,1.0,1.0,33.0,34.9,34.9,2.5,3.1,2.6275,0.6745364517930794,-0.030158455605506184,0.7172631030939352,0.012962939002617442,-0.134675,-29.675544
11.185,2.0,1.0,1.0,33.0,34.9,34.9,2.5,3.1,2.63,0.6680666325854185,-0.031140702104967735,0.7227555491641071,0.013027054011512289,-0.138158,-29.433057
11.185,2.0,1.0,1.0,33.0,34.9,34.9,2.5,3.1,2.6325,0.6614737599906308,-0.03216775873134939,0.7282341021653331,0.013085111117156193,-0.141819,-29.186582
11.185,2.0,1.0,1.0,33.0,34.9,34.9,2.5,3.1,2.635,0.6547537310617884,-0.033242530259300934,0.7336974314388489,0.013136277549217949,-0.145671,-28.935957
11.185,2.0,1.0,1.0,33.0,34.9,34.9,2.5,3.1,2.6375,0.647902164535108,-0.03436816796119115,0.739144079299452,0.013179611503975166,-0.149729,-28.681014
11.185,2.0,1.0,1.0,33.0,34.9,34.9,2.5,3.1,2.64,0.640914373810999,-0.03554809537753688,0.7445724443737892,0.01321404616937557,-0.15401,-28.421571
11.185,2.0,1.0,1.0,33.0,34.9,34.9,2.5,3.1,2.6425,0.6337853366777435,-0.03678603727389799,0.7499807622495058,0.013238371085691458,-0.158531,-28.157439
11.185,2.0,1.0,1.0,33.0,34.9,34.9,2.5,3.1,2.645,0.6265096613217125,-0.038086052234924284,0.7553670829311003,0.013251210337500745,-0.163314,-27.888415
11.185,2.0,1.0,1.0,33.0,34.9,34.9,2.5,3.1,2.6475,0.6190815480969406,-0.039452569416737,0.7607292444911752,0.013250996965254077,-0.16838,-27.614285
11.185,2.0,1.0,1.0,33.0,34.9,34.9,2.5,3.1,2.65,0.6114947464440981,-0.04089043006099472,0.7660648421731789,0.013235942851640283,-0.173755,-27.33482
11.185,2.0,1.0,1.0,33.0,34.9,34.9,2.5,3.1,2.6525,0.6037425062524547,-0.042404934469689015,0.7713711920368799,0.013204003172598105,-0.179466,-27.049777
11.185,2.0,1.0,1.0,33.0,34.9,34.9,2.5,3.1,2.655,0.5958175228461834,-0.044001895251061636,0.7766452880322184,0.013152834296456743,-0.185545,-26.758897
11.185,2.0,1.0,1.0,33.0,34.9,34.9,2.5,3.1,2.6575,0.5877118746461012,-0.04568769777626624,0.7818837511294221,0.013079743756057948,-0.192027,-26.461904
11.185,2.0,1.0,1.0,33.0,34.9,34.9,2.5,3.1,2.66,0.5794169524071605,-0.0474693689359277,0.7870827688089389,0.012981630593179725,-0.198951,-26.158503
11.185,2.0,1.0,1.0,33.0,34.9,34.9,2.5,3.1,2.6625,0.5709233787583832,-0.04935465545787231,0.7922380228046432,0.0128549139629936,-0.206362,-25.848378
11.185,2.0,1.0,1.0,33.0,34.9,34.9,2.5,3.1,2.665,0.5622209165733197,-0.0513521132440021,0.797344602472906,0.012695447363491227,-0.214311,-25.531191
11.185,2.0,1.0,1.0,33.0,34.9,34.9,2.5,3.1,2.6675,0.5532983644745304,-0.05347120940664693,0.8023969004953566,0.012498415187610001,-0.222856,-25.206579
11.185,2.0,1.0,1.0,33.0,34.9,34.9,2.5,3.1,2.67,0.5441434375250842,-0.05572243893218973,0.807388486770651,0.01225820744013147,-0.232062,-24.874151
11.185,2.0,1.0,1.0,33.0,34.9,34.9,2.5,3.1,2.6725,0.5347426308876115,-0.058117458168583054,0.8123119552517558,0.01196826735860987,-0.242005,-24.53349
11.185,2.0,1.0,1.0,33.0,34.9,34.9,2.5,3.1,2.675,0.5250810639454383,-0.06066923761446858,0.8171587370617789,0.011620905248987474,-0.252772,-24.184142
11.185,2.0,1.0,1.0,33.0,34.9,34.9,2.5,3.1,2.6775,0.5151423020988378,-0.06339223676275813,0.8219188713677194,0.011207069986346513,-0.264463,-23.82562
11.185,2.0,1.0,1.0,33.0,34.9,34.9,2.5,3.1,2.68,0.5049081532051297,-0.06630260398737192,0.8265807230650397,0.010716067196378088,-0.277194,-23.457397
11.185,2.0,1.0,1.0,33.0,34.9,34.9,2.5,3.1,2.6825,0.4943584354815899,-0.06941840460018364,0.8311306331329016,0.010135209929396219,-0.291102,-23.078904
11.185,2.0,1.0,1.0,33.0,34.9,34.9,2.5,3.1,2.685,0.48347071373240236,-0.07275988014740233,0.8355524832962666,0.009449383401398139,-0.306345,-22.689521
11.185,2.0,1.0,1.0,33.0,34.9,34.9,2.5,3.1,2.6875,0.472220001158133,-0.0763497415959441,0.839827151015742,0.00864049974395128,-0.32311,-22.28858
11.185,2.0,1.0,1.0,33.0,34.9,34.9,2.5,3.1,2.69,0.4605784250278285,-0.08021349800886475,0.8439318233243296,0.007686811180898476,-0.34162,-21.87535
11.185,2.0,1.0,1.0,33.0,34.9,34.9,2.5,3.1,2.6925,0.44851485658281803,-0.08437982017787123,0.8478391279638627,0.0065620399557432835,-0.362137,-21.449042
11.185,2.0,1.0,1.0,33.0,34.9,34.9,2.5,3.1,2.695,0.43599450942453016,-0.08888093473790713,0.8515160267144855,0.005234269739663986,-0.384979,-21.008792
11.185,2.0,1.0,1.0,33.0,34.9,34.9,2.5,3.1,2.6975,0.42297851750808113,-0.09375303733344097,0.854922397494006,0.0036645248914771856,-0.410526,-20.553663
11.185,2.0,1.0,1.0,33.0,34.9,34.9,2.5,3.1,2.7,0.4094235156778865,-0.09903670146725749,0.858009207026989,0.0018049391143149349,-0.439241,-20.082634
11.185,2.0,1.0,1.0,33.0,34.9,34.9,2.5,3.1,2.7025,0.3952812656665978,-0.10477723949577306,0.8607161423961215,-0.0004036184887820827,-0.47169,-19.594597
11.185,2.0,1.0,1.0,33.0,34.9,34.9,2.5,3.1,2.705,0.38049840396421275,-0.11102493848218183,0.8629685247237463,-0.003034637077289907,-0.508571,-19.088346
11.185,2.0,1.0,1.0,33.0,34.9,34.9,2.5,3.1,2.7075,0.3650164437811262,-0.11783503740633826,0.864673268183495,-0.0061800146570514455,-0.550749,-18.562582
11.185,2.0,1.0,1.0,33.0,34.9,34.9,2.5,3.1,2.71,0.3487722561413879,-0.1252672188302185,0.8657135690542413,-0.009955381265846856,-0.59931,-18.015908
11.185,2.0,1.0,1.0,33.0,34.9,34.9,2.5,3.1,2.7125,0.3316994093019554,-0.1333842330839772,0.8659419105969871,-0.01450710924383075,-0.655622,-17.446838
11.185,2.0,1.0,1.0,33.0,34.9,34.9,2.5,3.1,2.715,0.3137310014973328,-0.142249015937405,0.8651708534634638,-0.020021540759313144,-0.721434,-16.85382
11.185,2.0,1.0,1.0,33.0,34.9,34.9,2.5,3.1,2.7175,0.29480504547635833,-0.15191923535130678,0.8631609658700335,-0.02673707732546241,-0.798992,-16.235266
11.185,2.0,1.0,1.0,33.0,34.9,34.9,2.5,3.1,2.72,0.27487416028218453,-0.1624375031906503,0.8596051856606267,-0.03495983619653853,-0.891212,-15.58963
11.185,2.0,1.0,1.0,33.0,34.9,34.9,2.5,3.1,2.7225,0.25392245866627344,-0.17381435111251853,0.8541090303250894,-0.04508345059957409,-1.001911,-14.915518
11.185,2.0,1.0,1.0,33.0,34.9,34.9,2.5,3.1,2.725,0.2319943145565356,-0.18599926921545912,0.8461666879467358,-0.05761296600721618,-1.136111,-14.211891
11.185,2.0,1.0,1.0,33.0,34.9,34.9,2.5,3.1,2.7275,0.20924240413356035,-0.19883239261582694,0.8351348013548312,-0.0731909904555856,-1.300455,-13.478384
11.185,2.0,1.0,1.0,33.0,34.9,34.9,2.5,3.1,2.73,0.1860060929891374,-0.21196574229616752,0.8202100750141315,-0.09261991253471245,-1.5037,-12.715819
11.185,2.0,1.0,1.0,33.0,34.9,34.9,2.5,3.1,2.7325,0.16293503476208956,-0.22473914931757663,0.8004262845018506,-0.11686450427480888,-1.757244,-11.927018
11.185,2.0,1.0,1.0,33.0,34.9,34.9,2.5,3.1,2.735,0.14117302706364793,-0.23599586878362616,0.7747050149882765,-0.14700041103167186,-2.075399,-11.118027
11.185,2.0,1.0,1.0,33.0,34.9,34.9,2.5,3.1,2.7375,0.12260276995308758,-0.2438374431934759,0.7420267174213383,-0.18404169599782533,-2.474637,-10.299878
11.185,2.0,1.0,1.0,33.0,34.9,34.9,2.5,3.1,2.74,0.11009826840233747,-0.2453716027194115,0.7018299185444528,-0.22853937774320732,-2.96978,-9.490889
11.185,2.0,1.0,1.0,33.0,34.9,34.9,2.5,3.1,2.7425,0.10760005608128498,-0.2366390624316371,0.6547562812580664,-0.2798334129042872,-3.562675,-8.719085
11.185,2.0,1.0,1.0,33.0,34.9,34.9,2.5,3.1,2.745,0.11961634890602134,-0.2131174670144629,0.6037152337346096,-0.3349857382718371,-4.216128,-8.023487
11.185,2.0,1.0,1.0,33.0,34.9,34.9,2.5,3.1,2.7475,0.14965627259315717,-0.1712965555418841,0.5547626189670806,-0.38790329777943494,-4.812774,-7.451826
11.185,2.0,1.0,1.0,33.0,34.9,34.9,2.5,3.1,2.75,0.197667132609738,-0.111248573809936,0.51659472426857,-0.42985382706672,-5.143603,-7.05202
11.185,2.0,1.0,1.0,33.0,34.9,34.9,2.5,3.1,2.7525,0.25806731029935015,-0.038593323191399825,0.49762114491832504,-0.4524097373538431,-5.027585,-6.857871
11.185,2.0,1.0,1.0,33.0,34.9,34.9,2.5,3.1,2.755,0.3208334528283164,0.03660610757660835,0.501785950618986,-0.4516386856346568,-4.501104,-6.87574
11.185,2.0,1.0,1.0,33.0,34.9,34.9,2.5,3.1,2.7575,0.37577709620721383,0.10414174405870506,0.5265913646096011,-0.43007363320764075,-3.782974,-7.081677
11.185,2.0,1.0,1.0,33.0,34.9,34.9,2.5,3.1,2.76,0.416622567019609,0.1577472076514867,0.5651037898712296,-0.39468670420757773,-3.072265,-7.431337
11.185,2.0,1.0,1.0,33.0,34.9,34.9,2.5,3.1,2.7625,0.4419630597978759,0.1960455110214429,0.6097231405954039,-0.3531031225257766,-2.463452,-7.875043
11.185,2.0,1.0,1.0,33.0,34.9,34.9,2.5,3.1,2.765,0.4536602199649607,0.22093498470402245,0.6547116513048191,-0.3110681914489948,-1.975992,-8.369112
11.185,2.0,1.0,1.0,33.0,34.9,34.9,2.5,3.1,2.7675,0.45480237695494535,0.2355384564700425,0.6967513003264234,-0.271894185176607,-1.597009,-8.880496
11.185,2.0,1.0,1.0,33.0,34.9,34.9,2.5,3.1,2.77,0.4484006084279548,0.24289638647987957,0.7344070133543146,-0.23700309577259515,-1.305238,-9.386639
11.185,2.0,1.0,1.0,33.0,34.9,34.9,2.5,3.1,2.7725,0.4368713926721347,0.24545010548858526,0.7673825607320254,-0.2066749513471748,-1.080543,-9.873302
11.185,2.0,1.0,1.0,33.0,34.9,34.9,2.5,3.1,2.775,0.42197148718623617,0.24497838370673858,0.7959513063834719,-0.18061921173423476,-0.906588,-10.332122
11.185,2.0,1.0,1.0,33.0,34.9,34.9,2.5,3.1,2.7775,0.40490798710455694,0.24270912631568473,0.8206119087037455,-0.1583198275154427,-0.770907,-10.758609
11.185,2.0,1.0,1.0,33.0,34.9,34.9,2.5,3.1,2.78,0.3864813650061678,0.2394636757512935,0.8419085813923323,-0.1392150156147366,-0.664227,-11.150706
11.185,2.0,1.0,1.0,33.0,34.9,34.9,2.5,3.1,2.7825,0.36720861555959106,0.23578086646041613,0.8603491956468611,-0.1227788722493408,-0.579707,-11.507817
11.185,2.0,1.0,1.0,33.0,34.9,34.9,2.5,3.1,2.785,0.34741515680158835,0.23200959253297315,0.8763750418557613,-0.10855120120522221,-0.512299,-11.83018
11.185,2.0,1.0,1.0,33.0,34.9,34.9,2.5,3.1,2.7875,0.3272989833434094,0.2283734859005668,0.890355396503542,-0.09614248968298406,-0.458263,-12.11847
11.185,2.0,1.0,1.0,33.0,34.9,34.9,2.5,3.1,2.79,0.30697393642597837,0.225014645867311,0.9025927026400825,-0.0852282428850253,-0.414808,-12.373556
11.185,2.0,1.0,1.0,33.0,34.9,34.9,2.5,3.1,2.7925,0.2864983564312596,0.2220227379236029,0.9133313682301314,-0.07553966573458885,-0.379834,-12.596346
11.185,2.0,1.0,1.0,33.0,34.9,34.9,2.5,3.1,2.795,0.2658938573747608,0.21945423783440998,0.9227669725272749,-0.06685388189670334,-0.351756,-12.787699
11.185,2.0,1.0,1.0,33.0,34.9,34.9,2.5,3.1,2.7975,0.24515753572130192,0.2173451605588211,0.9310545582213026,-0.05898498573482556,-0.329368,-12.948366
11.185,2.0,1.0,1.0,33.0,34.9,34.9,2.5,3.1,2.8,0.2242698406521493,0.21571952380430776,0.9383155808897552,-0.05177632317464315,-0.311748,-13.078963
11.185,2.0,1.0,1.0,33.0,34.9,34.9,2.5,3.1,2.8025,0.2031995739761577,0.2145950356975107,0.9446434812551596,-0.04509399638494788,-0.298199,-13.179949
11.185,2.0,1.0,1.0,33.0,34.9,34.9,2.5,3.1,2.805,0.1819069776935896,0.2139869865877348,0.9501079966869231,-0.03882142652565761,-0.288191,-13.251615
11.185,2.0,1.0,1.0,33.0,34.9,34.9,2.5,3.1,2.8075,0.16034553059656437,0.21391099052571505,0.9547583653699808,-0.03285475820457567,-0.281333,-13.294077
11.185,2.0,1.0,1.0,33.0,34.9,34.9,2.5,3.1,2.81,0.13846285478784112,0.21438500457224013,0.9586255624652387,-0.027098884322053506,-0.277347,-13.30727
11.185,2.0,1.0,1.0,33.0,34.9,34.9,2.5,3.1,2.8125,0.1162009886659,0.215430913393941,0.96172367165293,-0.0214638793083301,-0.27605,-13.290941
11.185,2.0,1.0,1.0,33.0,34.9,34.9,2.5,3.1,2.815,0.09349618826497125,0.21707587549527804,0.9640504499548188,-0.01586163703702521,-0.277348,-13.244643
11.185,2.0,1.0,1.0,33.0,34.9,34.9,2.5,3.1,2.8175,0.07027835688079301,0.21935356789627394,0.9655870922399915,-0.010202508865838643,-0.281226,-13.167721
11.185,2.0,1.0,1.0,33.0,34.9,34.9,2.5,3.1,2.82,0.046470163312195445,0.2223054258144492,0.9662971430545777,-0.004391721914594032,-0.287754,-13.059304
11.185,2.0,1.0,1.0,33.0,34.9,34.9,2.5,3.1,2.8225,0.021985886320591536,0.2259819438455408,0.9661244327722578,0.001674677534804381,-0.29709,-12.918287
11.185,2.0,1.0,1.0,33.0,34.9,34.9,2.5,3.1,2.825,-0.0032699842846593704,0.2304440771785686,0.9649898247368199,0.00811467297872775,-0.309495,-12.743307
11.185,2.0,1.0,1.0,33.0,34.9,34.9,2.5,3.1,2.8275,-0.029404347971871303,0.2357647461835868,0.962786438177232,0.015066336837567574,-0.325352,-12.532723
11.185,2.0,1.0,1.0,33.0,34.9,34.9,2.5,3.1,2.83,-0.0565372132619692,0.24203039152903347,0.9593728403801028,0.022695673091913487,-0.345195,-12.284581
11.185,2.0,1.0,1.0,33.0,34.9,34.9,2.5,3.1,2.8325,-0.08480336594125516,0.24934242642193954,0.9545634540231668,0.03120705343560935,-0.369762,-11.996574
