1,w,sub_t,h,l1,l2,l3,g1,g2,Freq,S11_re,S21_re,S11_img,S21_img,S11_dB,S21_dB
11.185,2.0,1.0,1.0,33.5,34.0,34.0,2.8,4.2,2.5,0.847814794524436,-0.00633341533882829,0.518043977024816,0.00449390279027977,-0.056127,-42.1963
11.185,2.0,1.0,1.0,33.5,34.0,34.0,2.8,4.2,2.5025,0.844295632853254,-0.006457921440186456,0.5236443264015751,0.004507024966632872,-0.056659,-42.074821
11.185,2.0,1.0,1.0,33.5,34.0,34.0,2.8,4.2,2.505,0.8407236885030094,-0.006584603339614638,0.5292438805210894,0.0045193955059220185,-0.057201,-41.953023
11.185,2.0,1.0,1.0,33.5,34.0,34.0,2.8,4.2,2.5075,0.8370984309220791,-0.006713504506266769,0.53484239218605,0.004530984545224242,-0.057752,-41.830898
11.185,2.0,1.0,1.0,33.5,34.0,34.0,2.8,4.2,2.51,0.8334193208951992,-0.006844669515367473,0.5404396065982828,0.004541761122075565,-0.058313,-41.708436
11.185,2.0,1.0,1.0,33.5,34.0,34.0,2.8,4.2,2.5125,0.8296858103942989,-0.006978144082283176,0.54603526110714,0.004551693129234156,-0.058884,-41.585629
11.185,2.0,1.0,1.0,33.5,34.0,34.0,2.8,4.2,2.515,0.825897342426818,-0.007113975097833886,0.5516290849493437,0.004560747267341617,-0.059465,-41.462467
11.185,2.0,1.0,1.0,33.5,34.0,34.0,2.8,4.2,2.5175,0.8220533508814766,-0.007252210664898223,0.5572207989799389,0.004568888995372011,-0.060056,-41.338941
11.185,2.0,1.0,1.0,33.5,34.0,34.0,2.8,4.2,2.52,0.8181532603714582,-0.007392900136367111,0.5628101153940439,0.004576082478750477,-0.060658,-41.21504
11.185,2.0,1.0,1.0,33.5,34.0,34.0,2.8,4.2,2.5225,0.8141964860749761,-0.007536094154503669,0.5683967374390191,0.004582290535017582,-0.061272,-41.090757
11.185,2.0,1.0,1.0,33.5,34.0,34.0,2.8,4.2,2.525,0.81018243357318,-0.007681844691770491,0.5739803591167091,0.004587474576907067,-0.061896,-40.96608
11.185,2.0,1.0,1.0,33.5,34.0,34.0,2.8,4.2,2.5275,0.8061104986853697,-0.007830205093187855,0.5795606648753702,0.004591594552696645,-0.062532,-40.840999
11.185,2.0,1.0,1.0,33.5,34.0,34.0,2.8,4.2,2.53,0.801980067301481,-0.007981230120289678,0.585137329290874,0.00459460888368365,-0.063179,-40.715506
11.185,2.0,1.0,1.0,33.5,34.0,34.0,2.8,4.2,2.5325,0.7977905152118071,-0.008134975996747706,0.5907100167367815,0.004596474398627362,-0.063839,-40.589588
11.185,2.0,1.0,1.0,33.5,34.0,34.0,2.8,4.2,2.535,0.7935412079339149,-0.008291500455737578,0.5962783810428457,0.004597146264990167,-0.064511,-40.463237
11.185,2.0,1.0,1.0,33.5,34.0,34.0,2.8,4.2,2.5375,0.7892315005367255,-0.008450862789123794,0.601842065141481,0.0045965779167995045,-0.065196,-40.336442
11.185,2.0,1.0,1.0,33.5,34.0,34.0,2.8,4.2,2.54,0.78486073746172,-0.008613123898545847,0.6074007007017311,0.004594720978941241,-0.065893,-40.209191
11.185,2.0,1.0,1.0,33.5,34.0,34.0,2.8,4.2,2.5425,0.7804282523412301,-0.008778346348490102,0.6129539077502285,0.004591525187682386,-0.066604,-40.081474
11.185,2.0,1.0,1.0,33.5,34.0,34.0,2.8,4.2,2.545,0.7759333678137816,-0.008946594421437753,0.6185012942786272,0.004586938307209228,-0.067329,-39.953281
11.185,2.0,1.0,1.0,33.5,34.0,34.0,2.8,4.2,2.5475,0.771375395336453,-0.009117934175183065,0.6240424558369497,0.004580906041952073,-0.068068,-39.824599
11.185,2.0,1.0,1.0,33.5,34.0,34.0,2.8,4.2,2.55,0.766753634994205,-0.009292433502421357,0.6295769751122932,0.004573371944453793,-0.068821,-39.695418
11.185,2.0,1.0,1.0,33.5,34.0,34.0,2.8,4.2,2.5525,0.7620673753061591,-0.00947016219271104,0.635104421492267,0.00456427731852262,-0.069589,-39.565725
11.185,2.0,1.0,1.0,33.5,34.0,34.0,2.8,4.2,2.555,0.7573158930287698,-0.009651191996919292,0.6406243506125499,0.0045535611173932065,-0.070372,-39.435509
11.185,2.0,1.0,1.0,33.5,34.0,34.0,2.8,4.2,2.5575,0.752498452955863,-0.009835596694267633,0.6461363038878996,0.004541159836601016,-0.07117,-39.304758
11.185,2.0,1.0,1.0,33.5,34.0,34.0,2.8,4.2,2.56,0.747614307715502,-0.010023452162097964,0.6516398080259092,0.004527007401255649,-0.071984,-39.173461
11.185,2.0,1.0,1.0,33.5,34.0,34.0,2.8,4.2,2.5625,0.742662697563642,-0.010214836448488012,0.657134374522791,0.004511035047377408,-0.072815,-39.041603
11.185,2.0,1.0,1.0,33.5,34.0,34.0,2.8,4.2,2.565,0.7376428501745301,-0.010409829847850135,0.6626194991404144,0.004493171196938237,-0.073663,-38.909173
11.185,2.0,1.0,1.0,33.5,34.0,34.0,2.8,4.2,2.5675,0.732553980427824,-0.01060851497965576,0.6680946613637863,0.004473341326224056,-0.074528,-38.776158
11.185,2.0,1.0,1.0,33.5,34.0,34.0,2.8,4.2,2.57,0.7273952901923777,-0.010810976870434554,0.6735593238381302,0.004451467827108144,-0.07541,-38.642544
11.185,2.0,1.0,1.0,33.5,34.0,34.0,2.8,4.2,2.5725,0.7221659681066598,-0.011017303039205915,0.6790129317846669,0.0044274698607973785,-0.076311,-38.508318
11.185,2.0,1.0,1.0,33.5,34.0,34.0,2.8,4.2,2.575,0.7168651893557684,-0.01122758358650796,0.6844549123941551,0.00440126320358194,-0.07723,-38.373467
11.185,2.0,1.0,1.0,33.5,34.0,34.0,2.8,4.2,2.5775,0.7114921154449955,-0.011441911287199258,0.6898846741971955,0.004372760084085439,-0.078169,-38.237977
11.185,2.0,1.0,1.0,33.5,34.0,34.0,2.8,4.2,2.58,0.7060458939699075,-0.011660381687216538,0.6953016064102531,0.004341869011477184,-0.079128,-38.101832
11.185,2.0,1.0,1.0,33.5,34.0,34.0,2.8,4.2,2.5825,0.7005256583828914,-0.011883093204482676,0.7007050782562937,0.004308494594068258,-0.080107,-37.96502
11.185,2.0,1.0,1.0,33.5,34.0,34.0,2.8,4.2,2.585,0.6949305277561346,-0.01211014723416871,0.706094438258863,0.004272537347672476,-0.081107,-37.827524
11.185,2.0,1.0,1.0,33.5,34.0,34.0,2.8,4.2,2.5875,0.6892596065409847,-0.012341648258525887,0.7114690135083834,0.004233893493066425,-0.082128,-37.689329
11.185,2.0,1.0,1.0,33.5,34.0,34.0,2.8,4.2,2.59,0.6835119843236561,-0.012577703961513602,0.7168281088993516,0.004192454741834287,-0.083172,-37.550421
11.185,2.0,1.0,1.0,33.5,34.0,34.0,2.8,4.2,2.5925,0.6776867355772247,-0.012818425348463544,0.7221710063370703,0.004148108069829514,-0.084238,-37.410783
11.185,2.0,1.0,1.0,33.5,34.0,34.0,2.8,4.2,2.595,0.6717829194098859,-0.013063926871030465,0.7274969639124397,0.004100735477427703,-0.085329,-37.270399
11.185,2.0,1.0,1.0,33.5,34.0,34.0,2.8,4.2,2.5975,0.6657995793094024,-0.013314326557697046,0.7328052150432721,0.0040502137356818405,-0.086443,-37.129253
11.185,2.0,1.0,1.0,33.5,34.0,34.0,2.8,4.2,2.6,0.6597357428837103,-0.013569746150111325,0.7380949675804813,0.003996414117423815,-0.087582,-36.987326
11.185,2.0,1.0,1.0,33.5,34.0,34.0,2.8,4.2,2.6025,0.653590421597633,-0.013830311245552581,0.7433654028773987,0.0039392021122803865,-0.088747,-36.844603
11.185,2.0,1.0,1.0,33.5,34.0,34.0,2.8,4.2,2.605,0.6473626105056393,-0.014096151445835979,0.7486156748203767,0.003878437124493823,-0.089939,-36.701066
11.185,2.0,1.0,1.0,33.5,34.0,34.0,2.8,4.2,2.6075,0.6410512879806004,-0.014367400512983788,0.7538449088187003,0.0038139721523470864,-0.091158,-36.556695
11.185,2.0,1.0,1.0,33.5,34.0,34.0,2.8,4.2,2.61,0.634655415438495,-0.014644196532008097,0.759052200751713,0.0037456534479003993,-0.092405,-36.411472
11.185,2.0,1.0,1.0,33.5,34.0,34.0,2.8,4.2,2.6125,0.62817393705899,-0.014926682081167712,0.7642366158709335,0.003673320155640795,-0.093681,-36.265379
11.185,2.0,1.0,1.0,33.5,34.0,34.0,2.8,4.2,2.615,0.6216057795018449,-0.015215004410082535,0.7693971876547768,0.0035968039285334498,-0.094987,-36.118395
11.185,2.0,1.0,1.0,33.5,34.0,34.0,2.8,4.2,2.6175,0.6149498516190837,-0.01550931562610647,0.7745329166133509,0.0035159285198405306,-0.096325,-35.970501
11.185,2.0,1.0,1.0,33.5,34.0,34.0,2.8,4.2,2.62,0.6082050441628569,-0.015809772889382966,0.7796427690406085,0.0034305093489375464,-0.097694,-35.821675
11.185,2.0,1.0,1.0,33.5,34.0,34.0,2.8,4.2,2.6225,0.6013702294889314,-0.01611653861702734,0.7847256757109758,0.003340353039210158,-0.099097,-35.671898
11.185,2.0,1.0,1.0,33.5,34.0,34.0,2.8,4.2,2.625,0.59444426125575,-0.0164297806969027,0.789780530517338,0.00324525692595372,-0.100533,-35.521145
11.185,2.0,1.0,1.0,33.5,34.0,34.0,2.8,4.2,2.6275,0.5874259741189665,-0.016749672711480798,0.7948061890470832,0.0031450085320202815,-0.102005,-35.369397
11.185,2.0,1.0,1.0,33.5,34.0,34.0,2.8,4.2,2.63,0.5803141834214043,-0.017076394172300585,0.799801467092637,0.003039385008765175,-0.103514,-35.216628
11.185,2.0,1.0,1.0,33.5,34.0,34.0,2.8,4.2,2.6325,0.5731076848783474,-0.017410130765564243,0.8047651390926719,0.002928152539633446,-0.10506,-35.062817
11.185,2.0,1.0,1.0,33.5,34.0,34.0,2.8,4.2,2.635,0.5658052542580986,-0.017751074609433426,0.809695936499893,0.0028110657034932495,-0.106645,-34.907938
11.185,2.0,1.0,1.0,33.5,34.0,34.0,2.8,4.2,2.6375,0.5584056470577229,-0.018099424523614564,0.8145925460709816,0.002687866794568232,-0.108271,-34.751967
11.185,2.0,1.0,1.0,33.5,34.0,34.0,2.8,4.2,2.64,0.5509075981738936,-0.018455386311848104,0.8194536080739613,0.002558285095540356,-0.109939,-34.594877
11.185,2.0,1.0,1.0,33.5,34.0,34.0,2.8,4.2,2.6425,0.5433098215687754,-0.01881917305794025,0.8242777144078545,0.002422036100084982,-0.11165,-34.436643
11.185,2.0,1.0,1.0,33.5,34.0,34.0,2.8,4.2,2.645,0.5356110099308652,-0.019191005436002086,0.8290634066291167,0.0022788206807606392,-0.113406,-34.277237
11.185,2.0,1.0,1.0,33.5,34.0,34.0,2.8,4.2,2.6475,0.5278098343307248,-0.019571112035583735,0.8338091738788738,0.002128324197800126,-0.115209,-34.116631
11.185,2.0,1.0,1.0,33.5,34.0,34.0,2.8,4.2,2.65,0.519904943871533,-0.019959729702415878,0.8385134507045247,0.001970215543936746,-0.11706,-33.954796
11.185,2.0,1.0,1.0,33.5,34.0,34.0,2.8,4.2,2.6525,0.5118949653344317,-0.02035710389548835,0.8431746147686991,0.001804146119941526,-0.118961,-33.791702
11.185,2.0,1.0,1.0,33.5,34.0,34.0,2.8,4.2,2.655,0.5037785028185965,-0.020763489061218256,0.8477909844380234,0.0016297487350433232,-0.120915,-33.627319
11.185,2.0,1.0,1.0,33.5,34.0,34.0,2.8,4.2,2.6575,0.49555413737603354,-0.021179149025470037,0.8523608162434521,0.001446636425843859,-0.122922,-33.461615
11.185,2.0,1.0,1.0,33.5,34.0,34.0,2.8,4.2,2.66,0.4872204266410929,-0.021604357404204477,0.8568823022032471,0.001254401186721582,-0.124986,-33.294556
11.185,2.0,1.0,1.0,33.5,34.0,34.0,2.8,4.2,2.6625,0.47877590445475077,-0.022039398033533594,0.8613535669988678,0.0010526126040313016,-0.127109,-33.12611
11.185,2.0,1.0,1.0,33.5,34.0,34.0,2.8,4.2,2.665,0.47021908048370753,-0.022484565419959662,0.8657726649932019,0.0008408163856454093,-0.129292,-32.956241
11.185,2.0,1.0,1.0,33.5,34.0,34.0,2.8,4.2,2.6675,0.4615484398344534,-0.022940165211559397,0.8701375770795606,0.000618532776535389,-0.131538,-32.784913
11.185,2.0,1.0,1.0,33.5,34.0,34.0,2.8,4.2,2.67,0.4527624426624711,-0.023406514690854717,0.8744462073488403,0.00038525485015224084,-0.13385,-32.612089
11.185,2.0,1.0,1.0,33.5,34.0,34.0,2.8,4.2,2.6725,0.44385952377683696,-0.023883943290069588,0.8786963795610369,0.00014044666431412925,-0.136231,-32.437729
11.185,2.0,1.0,1.0,33.5,34.0,34.0,2.8,4.2,2.675,0.4348380922405968,-0.02437279312941759,0.8828858334060065,-0.00011645873085611412,-0.138683,-32.261795
11.185,2.0,1.0,1.0,33.5,34.0,34.0,2.8,4.2,2.6775,0.42569653096738075,-0.024873419578986467,0.8870122205368872,-0.0003860614467075124,-0.14121,-32.084244
11.185,2.0,1.0,1.0,33.5,34.0,34.0,2.8,4.2,2.68,0.41643319631489084,-0.02538619184468217,0.8910731003579984,-0.0006689970867709466,-0.143814,-31.905034
11.185,2.0,1.0,1.0,33.5,34.0,34.0,2.8,4.2,2.6825,0.40704641767607314,-0.025911493578555236,0.8950659355471833,-0.0009659392712519855,-0.1465,-31.72412
11.185,2.0,1.0,1.0,33.5,34.0,34.0,2.8,4.2,2.685,0.39753449706899596,-0.026449723513658985,0.8989880872905769,-0.001277602373981349,-0.14927,-31.541456
11.185,2.0,1.0,1.0,33.5,34.0,34.0,2.8,4.2,2.6875,0.387895708726732,-0.0270012961233616,0.902836810205487,-0.00160474449254456,-0.152129,-31.356995
11.185,2.0,1.0,1.0,33.5,34.0,34.0,2.8,4.2,2.69,0.37812829868888925,-0.027566642304752517,0.9066092469245571,-0.001948170674608468,-0.155081,-31.170686
11.185,2.0,1.0,1.0,33.5,34.0,34.0,2.8,4.2,2.6925,0.368230484396787,-0.02814621008543069,0.9103024223115446,-0.0023087364260478086,-0.15813,-30.982478
11.185,2.0,1.0,1.0,33.5,34.0,34.0,2.8,4.2,2.695,0.3582004542948366,-0.028740465352519954,0.913913237275846,-0.0026873515293781413,-0.16128,-30.792319
11.185,2.0,1.0,1.0,33.5,34.0,34.0,2.8,4.2,2.6975,0.3480363674411867,-0.02934989260221982,0.9174384621493356,-0.0030849842042813213,-0.164537,-30.600151
11.185,2.0,1.0,1.0,33.5,34.0,34.0,2.8,4.2,2.7,0.3377363531314995,-0.029974995707525823,0.9208747295850347,-0.003502665645702797,-0.167906,-30.405917
11.185,2.0,1.0,1.0,33.5,34.0,34.0,2.8,4.2,2.7025,0.3272985105405197,-0.030616298700938335,0.9242185269325948,-0.0039414949791799206,-0.171392,-30.209558
11.185,2.0,1.0,1.0,33.5,34.0,34.0,2.8,4.2,2.705,0.3167209083872124,-0.03127434656797262,0.9274661880404383,-0.004402644677785206,-0.175001,-30.01101
11.185,2.0,1.0,1.0,33.5,34.0,34.0,2.8,4.2,2.7075,0.30600158463047794,-0.03194970604605821,0.9306138844285987,-0.0048873664904247995,-0.178739,-29.810208
11.185,2.0,1.0,1.0,33.5,34.0,34.0,2.8,4.2,2.71,0.29513854620403995,-0.03264296642191811,0.9336576157697356,-0.005396997937308307,-0.182614,-29.607085
11.185,2.0,1.0,1.0,33.5,34.0,34.0,2.8,4.2,2.7125,0.2841297688009449,-0.03335474031869668,0.9365931996083448,-0.005932969435310564,-0.186633,-29.401569
11.185,2.0,1.0,1.0,33.5,34.0,34.0,2.8,4.2,2.715,0.2729731967204209,-0.03408566446188258,0.9394162602397258,-0.006496812123801854,-0.190802,-29.193587
11.185,2.0,1.0,1.0,33.5,34.0,34.0,2.8,4.2,2.7175,0.2616667427925784,-0.03483640041037056,0.9421222166606505,-0.007090166470476632,-0.195131,-28.983061
11.185,2.0,1.0,1.0,33.5,34.0,34.0,2.8,4.2,2.72,0.2502082883998161,-0.03560763523571406,0.9447062694926989,-0.007714791746924569,-0.199629,-28.769911
11.185,2.0,1.0,1.0,33.5,34.0,34.0,2.8,4.2,2.7225,0.23859568361782232,-0.03640008212861606,0.9471633867667494,-0.008372576475367755,-0.204305,-28.554052
11.185,2.0,1.0,1.0,33.5,34.0,34.0,2.8,4.2,2.725,0.22682674750407117,-0.03721448090682305,0.9494882884427909,-0.009065549961347882,-0.20917,-28.335398
11.185,2.0,1.0,1.0,33.5,34.0,34.0,2.8,4.2,2.7275,0.21489926856765393,-0.038051598392647976,0.9516754295228947,-0.009795895042470814,-0.214234,-28.113854
11.185,2.0,1.0,1.0,33.5,34.0,34.0,2.8,4.2,2.73,0.202811005461694,-0.03891222862109425,0.9537189815964282,-0.010565962200900062,-0.219509,-27.889326
11.185,2.0,1.0,1.0,33.5,34.0,34.0,2.8,4.2,2.7325,0.19055968794845782,-0.03979719283071166,0.9556128126350732,-0.011378285207514143,-0.22501,-27.661712
11.185,2.0,1.0,1.0,33.5,34.0,34.0,2.8,4.2,2.735,0.17814301819824038,-0.04070733917850715,0.9573504648304724,-0.012235598488924476,-0.230749,-27.430906
11.185,2.0,1.0,1.0,33.5,34.0,34.0,2.8,4.2,2.7375,0.16555867249639333,-0.04164354210701616,0.9589251302388386,-0.013140856435403392,-0.236743,-27.196797
11.185,2.0,1.0,1.0,33.5,34.0,34.0,2.8,4.2,2.74,0.152804303449235,-0.04260670127544998,0.9603296239639874,-0.014097254898779926,-0.243007,-26.959268
11.185,2.0,1.0,1.0,33.5,34.0,34.0,2.8,4.2,2.7425,0.139877542799562,-0.04359773994697793,0.9615563545723124,-0.015108255165227987,-0.249561,-26.718198
11.185,2.0,1.0,1.0,33.5,34.0,34.0,2.8,4.2,2.745,0.12677600498712407,-0.04461760269979947,0.9625972913892975,-0.016177610729405253,-0.256423,-26.473457
11.185,2.0,1.0,1.0,33.5,34.0,34.0,2.8,4.2,2.7475,0.11349729161968318,-0.04566725229962955,0.9634439282763084,-0.0173093972445804,-0.263615,-26.22491
11.185,2.0,1.0,1.0,33.5,34.0,34.0,2.8,4.2,2.75,0.100038997057633,-0.0467476655341811,0.964087243427393,-0.0185080460793237,-0.271162,-25.972415
11.185,2.0,1.0,1.0,33.5,34.0,34.0,2.8,4.2,2.7525,0.08639871536130776,-0.047859827764458227,0.9645176546573013,-0.019778381976380197,-0.279087,-25.715821
11.185,2.0,1.0,1.0,33.5,34.0,34.0,2.8,4.2,2.755,0.07257404890729469,-0.049004725890990676,0.9647249695722302,-0.02112566538504394,-0.287421,-25.454971
11.185,2.0,1.0,1.0,33.5,34.0,34.0,2.8,4.2,2.7575,0.05856261905099324,-0.05018333936279316,0.9646983299220597,-0.022555640126551414,-0.296194,-25.189697
11.185,2.0,1.0,1.0,33.5,34.0,34.0,2.8,4.2,2.76,0.04436207930105622,-0.051396628769290194,0.9644261493247646,-0.02407458715483089,-0.305441,-24.919824
11.185,2.0,1.0,1.0,33.5,34.0,34.0,2.8,4.2,2.7625,0.029970131581467465,-0.05264552144627517,0.9638960434277142,-0.02568938529490545,-0.3152,-24.645166
11.185,2.0,1.0,1.0,33.5,34.0,34.0,2.8,4.2,2.765,0.015384546294907386,-0.053930893390432534,0.9630947514236574,-0.027407579981196337,-0.325512,-24.365525
11.185,2.0,1.0,1.0,33.5,34.0,34.0,2.8,4.2,2.7675,0.0006031870739299155,-0.05525354660573259,0.9620080476678775,-0.029237461181263646,-0.336424,-24.080695
11.185,2.0,1.0,1.0,33.5,34.0,34.0,2.8,4.2,2.77,-0.014375958676056705,-0.0566141807897071,0.9606206419432909,-0.031188151880899653,-0.347989,-23.790455
11.185,2.0,1.0,1.0,33.5,34.0,34.0,2.8,4.2,2.7725,-0.02955474206361762,-0.05801335799605769,0.9589160666877571,-0.03326970872818322,-0.360265,-23.494571
11.185,2.0,1.0,1.0,33.5,34.0,34.0,2.8,4.2,2.775,-0.0449348061023729,-0.05945145856653806,0.9568765492276243,-0.03549323669174253,-0.373315,-23.192797
11.185,2.0,1.0,1.0,33.5,34.0,34.0,2.8,4.2,2.7775,-0.060517528040096025,-0.06092862618915014,0.9544828667483326,-0.03787101988695186,-0.387214,-22.88487
11.185,2.0,1.0,1.0,33.5,34.0,34.0,2.8,4.2,2.78,-0.07630394789844701,-0.06244469938480981,0.9517141813714769,-0.04041667106800286,-0.402042,-22.570513
11.185,2.0,1.0,1.0,33.5,34.0,34.0,2.8,4.2,2.7825,-0.09229467977909393,-0.0639991260160005,0.9485478522931745,-0.04314530267817033,-0.417892,-22.249429
11.185,2.0,1.0,1.0,33.5,34.0,34.0,2.8,4.2,2.785,-0.10848980157329004,-0.06559085650300357,0.9449592214672093,-0.046073722798261996,-0.434868,-21.921304
11.185,2.0,1.0,1.0,33.5,34.0,34.0,2.8,4.2,2.7875,-0.12488871753051017,-0.06721821026616394,0.9409213687872465,-0.04922065983456646,-0.453088,-21.585804
11.185,2.0,1.0,1.0,33.5,34.0,34.0,2.8,4.2,2.79,-0.14148998661772838,-0.06887870840745361,0.9364048321391615,-0.05260702033809142,-0.472688,-21.242574
11.185,2.0,1.0,1.0,33.5,34.0,34.0,2.8,4.2,2.7925,-0.15829110762825038,-0.07056886369712226,0.9313772870695451,-0.05625618493327794,-0.493822,-20.891237
11.185,2.0,1.0,1.0,33.5,34.0,34.0,2.8,4.2,2.795,-0.17528824943807844,-0.07228391640370735,0.9258031801763487,-0.06019434792917961,-0.516665,-20.53139
11.185,2.0,1.0,1.0,33.5,34.0,34.0,2.8,4.2,2.7975,-0.19247591147274423,-0.07401750121563172,0.9196433097224769,-0.06445090673810204,-0.541422,-20.162605
11.185,2.0,1.0,1.0,33.5,34.0,34.0,2.8,4.2,2.8,-0.2098464950933277,-0.07576122620856429,0.9128543464909845,-0.0690589076469359,-0.568328,-19.784429
11.185,2.0,1.0,1.0,33.5,34.0,34.0,2.8,4.2,2.8025,-0.22738976091148402,-0.07750413919524632,0.9053882876901316,-0.07405555462514445,-0.597655,-19.396378
11.185,2.0,1.0,1.0,33.5,34.0,34.0,2.8,4.2,2.805,-0.2450921395714951,-0.07923204943273827,0.8971918370230685,-0.07948278746508954,-0.629722,-18.997939
11.185,2.0,1.0,1.0,33.5,34.0,34.0,2.8,4.2,2.8075,-0.2629358537304324,-0.08092666300453075,0.8882057052576579,-0.08538793423822445,-0.664901,-18.588569
11.185,2.0,1.0,1.0,33.5,34.0,34.0,2.8,4.2,2.81,-0.2808977960953407,-0.0825644775263187,0.8783638284039004,-0.09182444018005309,-0.703632,-18.167694
11.185,2.0,1.0,1.0,33.5,34.0,34.0,2.8,4.2,2.8125,-0.298948091505564,-0.0841153652311369,0.867592505942282,-0.0988526696806634,-0.746432,-17.734711
11.185,2.0,1.0,1.0,33.5,34.0,34.0,2.8,4.2,2.815,-0.3170482490156787,-0.08554075183628637,0.8558094710465193,-0.10654076846730927,-0.793918,-17.288986
11.185,2.0,1.0,1.0,33.5,34.0,34.0,2.8,4.2,2.8175,-0.33514878135153897,-0.08679127052990543,0.8429229209249803,-0.11496555682655371,-0.846826,-16.82986
11.185,2.0,1.0,1.0,33.5,34.0,34.0,2.8,4.2,2.82,-0.3531861324485882,-0.08780373445850938,0.8288305622025836,-0.12421339792922184,-0.906042,-16.356655
11.185,2.0,1.0,1.0,33.5,34.0,34.0,2.8,4.2,2.8225,-0.37107870762200507,-0.0884972258963682,0.8134187697995282,-0.13438094194031844,-0.972633,-15.86868
11.185,2.0,1.0,1.0,33.5,34.0,34.0,2.8,4.2,2.825,-0.38872174457471426,-0.08876804522391747,0.7965620274750093,-0.1455755772954923,-1.047899,-15.365249
11.185,2.0,1.0,1.0,33.5,34.0,34.0,2.8,4.2,2.8275,-0.4059806982839146,-0.08848319938464029,0.7781229284835268,-0.15791531111234003,-1.133426,-14.845697
