1,w,sub_t,h,l1,l2,l3,g1,g2,Freq,S11_re,S21_re,S11_img,S21_img,S11_dB,S21_dB
11.185,2.0,1.0,1.0,34.4,33.8,33.8,2.8,4.4,2.5,0.721342916529676,-0.00975729288724768,0.680902419295388,0.00389585073245841,-0.070209,-39.571001
11.185,2.0,1.0,1.0,34.4,33.8,33.8,2.8,4.4,2.5025,0.7157928345779321,-0.009924026765416146,0.6866139678075767,0.0038596866361062026,-0.07094,-39.454502
11.185,2.0,1.0,1.0,34.4,33.8,33.8,2.8,4.4,2.505,0.7101672247641527,-0.010093156056888274,0.692309339855815,0.0038213079941131992,-0.071684,-39.337703
11.185,2.0,1.0,1.0,34.4,33.8,33.8,2.8,4.4,2.5075,0.7044653437098499,-0.010264711270229522,0.6979878129360608,0.00378064552795051,-0.07244,-39.220598
11.185,2.0,1.0,1.0,34.4,33.8,33.8,2.8,4.4,2.51,0.6986864406562044,-0.010438723092240849,0.7036486441756504,0.003737627805622277,-0.07321,-39.103181
11.185,2.0,1.0,1.0,34.4,33.8,33.8,2.8,4.4,2.5125,0.6928297575330464,-0.010615222372615151,0.709291069759688,0.0036921811702794265,-0.073993,-38.985446
11.185,2.0,1.0,1.0,34.4,33.8,33.8,2.8,4.4,2.515,0.6868945290375602,-0.010794240107315075,0.7149143043420719,0.0036442296663275406,-0.074789,-38.867386
11.185,2.0,1.0,1.0,34.4,33.8,33.8,2.8,4.4,2.5175,0.680879982723277,-0.010975807420594499,0.7205175404407762,0.0035936949629356034,-0.0756,-38.748995
11.185,2.0,1.0,1.0,34.4,33.8,33.8,2.8,4.4,2.52,0.6747853390999088,-0.011159955545582119,0.7260999478170433,0.003540496274848276,-0.076425,-38.630268
11.185,2.0,1.0,1.0,34.4,33.8,33.8,2.8,4.4,2.5225,0.6686098117446524,-0.01134671580334035,0.7316606728380863,0.0034845502804010937,-0.077265,-38.511197
11.185,2.0,1.0,1.0,34.4,33.8,33.8,2.8,4.4,2.525,0.6623526074255668,-0.011536119580308523,0.7371988378229476,0.0034257710366329473,-0.07812,-38.391776
11.185,2.0,1.0,1.0,34.4,33.8,33.8,2.8,4.4,2.5275,0.6560129262376921,-0.011728198304033778,0.7427135403711219,0.003364069891386875,-0.07899,-38.271998
11.185,2.0,1.0,1.0,34.4,33.8,33.8,2.8,4.4,2.53,0.6495899617526064,-0.011922983417087123,0.7482038526735586,0.0032993553922848833,-0.079875,-38.151857
11.185,2.0,1.0,1.0,34.4,33.8,33.8,2.8,4.4,2.5325,0.6430829011821309,-0.012120506349057251,0.7536688208056546,0.00323153319245863,-0.080777,-38.031347
11.185,2.0,1.0,1.0,34.4,33.8,33.8,2.8,4.4,2.535,0.6364909255569415,-0.012320798486507585,0.7591074640018529,0.0031605059529120276,-0.081695,-37.91046
11.185,2.0,1.0,1.0,34.4,33.8,33.8,2.8,4.4,2.5375,0.6298132099208824,-0.012523891140776037,0.7645187739114412,0.0030861732413875074,-0.08263,-37.789189
11.185,2.0,1.0,1.0,34.4,33.8,33.8,2.8,4.4,2.54,0.6230489235417985,-0.012729815513489742,0.7699017138351625,0.0030084314276016474,-0.083582,-37.667529
11.185,2.0,1.0,1.0,34.4,33.8,33.8,2.8,4.4,2.5425,0.6161972301397542,-0.012938602659660035,0.775255217942241,0.002927173574710572,-0.084551,-37.545471
11.185,2.0,1.0,1.0,34.4,33.8,33.8,2.8,4.4,2.545,0.6092572881335384,-0.013150283448214723,0.780578190467417,0.0028422893268594497,-0.085538,-37.423009
11.185,2.0,1.0,1.0,34.4,33.8,33.8,2.8,4.4,2.5475,0.6022282509064096,-0.013364888519816572,0.7858695048875957,0.0027536647926643966,-0.086544,-37.300135
11.185,2.0,1.0,1.0,34.4,33.8,33.8,2.8,4.4,2.55,0.5951092670920431,-0.013582448241808764,0.7911280030777138,0.0026611824244680057,-0.087568,-37.176843
11.185,2.0,1.0,1.0,34.4,33.8,33.8,2.8,4.4,2.5525,0.5878994808817473,-0.013802992660117488,0.7963524944454149,0.0025647208932037093,-0.088612,-37.053125
11.185,2.0,1.0,1.0,34.4,33.8,33.8,2.8,4.4,2.555,0.5805980323539882,-0.014026551447933711,0.8015417550441462,0.002464154958696153,-0.089675,-36.928973
11.185,2.0,1.0,1.0,34.4,33.8,33.8,2.8,4.4,2.5575,0.5732040578273678,-0.014253153850984331,0.8066945266642833,0.002359355335217431,-0.090758,-36.804381
11.185,2.0,1.0,1.0,34.4,33.8,33.8,2.8,4.4,2.56,0.5657166902382276,-0.014482828629192418,0.8118095159018816,0.0022501885521114475,-0.091862,-36.67934
11.185,2.0,1.0,1.0,34.4,33.8,33.8,2.8,4.4,2.5625,0.5581350595440989,-0.014715603994514556,0.8168853932046741,0.002136516809289268,-0.092987,-36.553843
11.185,2.0,1.0,1.0,34.4,33.8,33.8,2.8,4.4,2.565,0.5504582931542795,-0.014951507544730699,0.8219207918949382,0.0020181978273906332,-0.094134,-36.427882
11.185,2.0,1.0,1.0,34.4,33.8,33.8,2.8,4.4,2.5675,0.5426855163888793,-0.015190566192948465,0.8269143071688413,0.0018950846923962593,-0.095302,-36.30145
11.185,2.0,1.0,1.0,34.4,33.8,33.8,2.8,4.4,2.57,0.5348158529677229,-0.015432806092570028,0.831864495071913,0.00176702569446674,-0.096494,-36.174537
11.185,2.0,1.0,1.0,34.4,33.8,33.8,2.8,4.4,2.5725,0.5268484255305609,-0.015678252557454746,0.8367698714502747,0.0016338641607721626,-0.097708,-36.047136
11.185,2.0,1.0,1.0,34.4,33.8,33.8,2.8,4.4,2.575,0.5187823561901118,-0.015926929976994256,0.8416289108772806,0.001495438282066931,-0.098946,-35.919239
11.185,2.0,1.0,1.0,34.4,33.8,33.8,2.8,4.4,2.5775,0.510616767119516,-0.016178861725800388,0.8464400455552292,0.001351580932751225,-0.100209,-35.790837
11.185,2.0,1.0,1.0,34.4,33.8,33.8,2.8,4.4,2.58,0.5023507811758519,-0.016434070067687465,0.8512016641918188,0.0012021194841490572,-0.101496,-35.661922
11.185,2.0,1.0,1.0,34.4,33.8,33.8,2.8,4.4,2.5825,0.4939835225614273,-0.016692576053612126,0.8559121108510404,0.001046875610719389,-0.102809,-35.532485
11.185,2.0,1.0,1.0,34.4,33.8,33.8,2.8,4.4,2.585,0.4855141175246504,-0.016954399413212255,0.8605696837782044,0.0008856650889027243,-0.104149,-35.402517
11.185,2.0,1.0,1.0,34.4,33.8,33.8,2.8,4.4,2.5875,0.4769416951023319,-0.017219558439565696,0.8651726341988306,0.000718297588291043,-0.105515,-35.272009
11.185,2.0,1.0,1.0,34.4,33.8,33.8,2.8,4.4,2.59,0.4682653879053841,-0.017488069866764898,0.869719165091134,0.0005445764547933334,-0.106909,-35.140953
11.185,2.0,1.0,1.0,34.4,33.8,33.8,2.8,4.4,2.5925,0.4594843329499218,-0.017759948739879895,0.8742074299318755,0.0003642984854515098,-0.108331,-35.009339
11.185,2.0,1.0,1.0,34.4,33.8,33.8,2.8,4.4,2.595,0.45059767253590355,-0.01803520827685391,0.8786355314153539,0.00017725369454516156,-0.109782,-34.877157
11.185,2.0,1.0,1.0,34.4,33.8,33.8,2.8,4.4,2.5975,0.44160455517548475,-0.018313859721848666,0.8830015201453574,-1.6774929397131438e-05,-0.111262,-34.744399
11.185,2.0,1.0,1.0,34.4,33.8,33.8,2.8,4.4,2.6,0.4325041365733841,-0.018595912189525096,0.8873033932999055,-0.00021801167608099696,-0.112774,-34.611053
11.185,2.0,1.0,1.0,34.4,33.8,33.8,2.8,4.4,2.6025,0.4232955806616546,-0.018881372499712206,0.8915390932686473,-0.0004266883758469856,-0.114316,-34.477111
11.185,2.0,1.0,1.0,34.4,33.8,33.8,2.8,4.4,2.605,0.4139780606913192,-0.019170245001882788,0.8957065062628178,-0.0006430446724354232,-0.115891,-34.342563
11.185,2.0,1.0,1.0,34.4,33.8,33.8,2.8,4.4,2.6075,0.4045507603834663,-0.01946253138881602,0.8998034608976772,-0.0008673283065855959,-0.117499,-34.207397
11.185,2.0,1.0,1.0,34.4,33.8,33.8,2.8,4.4,2.61,0.3950128751424871,-0.019758230498786847,0.9038277267474024,-0.0010997954109666214,-0.119141,-34.071604
11.185,2.0,1.0,1.0,34.4,33.8,33.8,2.8,4.4,2.6125,0.3853636133342437,-0.020057338105579404,0.907777012872441,-0.001340710816965092,-0.120817,-33.935173
11.185,2.0,1.0,1.0,34.4,33.8,33.8,2.8,4.4,2.615,0.37560219763206837,-0.020359846695573995,0.9116489663193666,-0.0015903483738851855,-0.122529,-33.798092
11.185,2.0,1.0,1.0,34.4,33.8,33.8,2.8,4.4,2.6175,0.3657278664336263,-0.02066574523110798,0.9154411705933312,-0.0018489912811485635,-0.124278,-33.660351
11.185,2.0,1.0,1.0,34.4,33.8,33.8,2.8,4.4,2.62,0.3557398753517742,-0.02097501889925591,0.9191511441032488,-0.002116932434117348,-0.126065,-33.521939
11.185,2.0,1.0,1.0,34.4,33.8,33.8,2.8,4.4,2.6225,0.34563749878267186,-0.021287648845117354,0.9227763385798977,-0.002394474784199809,-0.127891,-33.382843
11.185,2.0,1.0,1.0,34.4,33.8,33.8,2.8,4.4,2.625,0.335420031554566,-0.0216036118886363,0.92631413746717,-0.00268193171393887,-0.129756,-33.243052
11.185,2.0,1.0,1.0,34.4,33.8,33.8,2.8,4.4,2.6275,0.32508679066074286,-0.02192288022391009,0.9297618542867678,-0.0029796274278275758,-0.131662,-33.102554
11.185,2.0,1.0,1.0,34.4,33.8,33.8,2.8,4.4,2.63,0.31463711708034003,-0.022245421099871033,0.9331167309766862,-0.0032878973596411837,-0.133611,-32.961336
11.185,2.0,1.0,1.0,34.4,33.8,33.8,2.8,4.4,2.6325,0.3040703776908172,-0.02257119648114508,0.9363759362038869,-0.003607088597126637,-0.135603,-32.819386
11.185,2.0,1.0,1.0,34.4,33.8,33.8,2.8,4.4,2.635,0.2933859672760538,-0.02290016268780631,0.9395365636516309,-0.003937560324944179,-0.13764,-32.676691
11.185,2.0,1.0,1.0,34.4,33.8,33.8,2.8,4.4,2.6375,0.2825833106341978,-0.02323227001265163,0.9425956302819888,-0.004279684286814153,-0.139722,-32.533237
11.185,2.0,1.0,1.0,34.4,33.8,33.8,2.8,4.4,2.64,0.27166186478952375,-0.023567462314520986,0.945550074574137,-0.0046338452678866176,-0.141852,-32.389011
11.185,2.0,1.0,1.0,34.4,33.8,33.8,2.8,4.4,2.6425,0.2606211213127809,-0.02390567658607593,0.9483967547390798,-0.005000441598417964,-0.14403,-32.243999
11.185,2.0,1.0,1.0,34.4,33.8,33.8,2.8,4.4,2.645,0.24946060875463627,-0.02424684249433197,0.9511324469115381,-0.005379885679914852,-0.146258,-32.098186
11.185,2.0,1.0,1.0,34.4,33.8,33.8,2.8,4.4,2.6475,0.23817989519704624,-0.024590881892108233,0.9537538433197886,-0.005772604534984565,-0.148538,-31.951559
11.185,2.0,1.0,1.0,34.4,33.8,33.8,2.8,4.4,2.65,0.22677859092752975,-0.024937708298417717,0.9562575504343295,-0.00617904038221962,-0.150872,-31.804101
11.185,2.0,1.0,1.0,34.4,33.8,33.8,2.8,4.4,2.6525,0.21525635124160747,-0.025287226345663997,0.9586400870962909,-0.006599651237536372,-0.153259,-31.655798
11.185,2.0,1.0,1.0,34.4,33.8,33.8,2.8,4.4,2.655,0.20361287937877787,-0.025639331191343182,0.9608978826266077,-0.007034911543493276,-0.155704,-31.506633
11.185,2.0,1.0,1.0,34.4,33.8,33.8,2.8,4.4,2.6575,0.19184792959771335,-0.025993907891763063,0.9630272749170151,-0.007485312828222014,-0.158206,-31.356591
11.185,2.0,1.0,1.0,34.4,33.8,33.8,2.8,4.4,2.66,0.17996131039654895,-0.026350830735088576,0.9650245085040081,-0.007951364395729372,-0.160769,-31.205655
11.185,2.0,1.0,1.0,34.4,33.8,33.8,2.8,4.4,2.6625,0.16795288788442067,-0.026709962530799707,0.9668857326269594,-0.008433594049455121,-0.163394,-31.053807
11.185,2.0,1.0,1.0,34.4,33.8,33.8,2.8,4.4,2.665,0.15582258931063683,-0.027071153852404033,0.9686069992716607,-0.00893254885111864,-0.166082,-30.90103
11.185,2.0,1.0,1.0,34.4,33.8,33.8,2.8,4.4,2.6675,0.14357040675820498,-0.0274342422299754,0.9701842612005941,-0.009448795917037855,-0.168836,-30.747305
11.185,2.0,1.0,1.0,34.4,33.8,33.8,2.8,4.4,2.67,0.13119640100869392,-0.027799051288795656,0.9716133699712984,-0.00998292325427744,-0.171659,-30.592614
11.185,2.0,1.0,1.0,34.4,33.8,33.8,2.8,4.4,2.6725,0.11870070558575535,-0.028165389830048453,0.9728900739442325,-0.010535540639165173,-0.174552,-30.436938
11.185,2.0,1.0,1.0,34.4,33.8,33.8,2.8,4.4,2.675,0.1060835309849996,-0.028533050849154064,0.9740100162815631,-0.011107280540916798,-0.177517,-30.280256
11.185,2.0,1.0,1.0,34.4,33.8,33.8,2.8,4.4,2.6775,0.09334516909827145,-0.028901810486935738,0.9749687329383374,-0.011698799093328842,-0.180558,-30.122549
11.185,2.0,1.0,1.0,34.4,33.8,33.8,2.8,4.4,2.68,0.08048599784079137,-0.02927142690836693,0.9757616506474884,-0.012310777117737676,-0.183677,-29.963794
11.185,2.0,1.0,1.0,34.4,33.8,33.8,2.8,4.4,2.6825,0.06750648599010083,-0.02964163910316008,0.9763840849001367,-0.012943921200701583,-0.186875,-29.80397
11.185,2.0,1.0,1.0,34.4,33.8,33.8,2.8,4.4,2.685,0.05440719824619663,-0.03001216560191625,0.9768312379225954,-0.013598964830148845,-0.190157,-29.643054
11.185,2.0,1.0,1.0,34.4,33.8,33.8,2.8,4.4,2.6875,0.0411888005228109,-0.0303827031009518,0.977098196651458,-0.0142766695940418,-0.193525,-29.481023
11.185,2.0,1.0,1.0,34.4,33.8,33.8,2.8,4.4,2.69,0.027852065480379714,-0.03075292498824928,0.977179930708078,-0.014977826445944628,-0.196982,-29.317853
11.185,2.0,1.0,1.0,34.4,33.8,33.8,2.8,4.4,2.6925,0.014397878311863023,-0.03112247976223396,0.9770712903736212,-0.01570325704225217,-0.200532,-29.153519
11.185,2.0,1.0,1.0,34.4,33.8,33.8,2.8,4.4,2.695,0.0008272427933632712,-0.03149098933424446,0.9767670045657739,-0.016453815156234574,-0.204177,-28.987994
11.185,2.0,1.0,1.0,34.4,33.8,33.8,2.8,4.4,2.6975,-0.012858712387787291,-0.0318580472046394,0.9762616788179966,-0.017230388174494755,-0.207922,-28.821253
11.185,2.0,1.0,1.0,34.4,33.8,33.8,2.8,4.4,2.7,-0.02665872701382267,-0.03222321650144115,0.9755497932620133,-0.018033898681907468,-0.211769,-28.653266
11.185,2.0,1.0,1.0,34.4,33.8,33.8,2.8,4.4,2.7025,-0.040571402411640686,-0.03258602786925764,0.9746257006139751,-0.018865306141632225,-0.215724,-28.484007
11.185,2.0,1.0,1.0,34.4,33.8,33.8,2.8,4.4,2.705,-0.054595194206447144,-0.03294597719491842,0.9734836241644178,-0.01972560867735588,-0.219789,-28.313443
11.185,2.0,1.0,1.0,34.4,33.8,33.8,2.8,4.4,2.7075,-0.06872840473695675,-0.03330252315479993,0.9721176557717901,-0.020615844965537835,-0.223969,-28.141545
11.185,2.0,1.0,1.0,34.4,33.8,33.8,2.8,4.4,2.71,-0.08296917511371094,-0.033655084567170444,0.97052175385888,-0.021537096246100555,-0.22827,-27.96828
11.185,2.0,1.0,1.0,34.4,33.8,33.8,2.8,4.4,2.7125,-0.09731547690048341,-0.034003037531035944,0.9686897414109893,-0.022490488460737618,-0.232695,-27.793615
11.185,2.0,1.0,1.0,34.4,33.8,33.8,2.8,4.4,2.715,-0.11176510339689011,-0.03434571233088358,0.9666153039741249,-0.023477194528801527,-0.23725,-27.617515
11.185,2.0,1.0,1.0,34.4,33.8,33.8,2.8,4.4,2.7175,-0.12631566049825962,-0.034682390084367146,0.9642919876508079,-0.024498436771593232,-0.241939,-27.439943
11.185,2.0,1.0,1.0,34.4,33.8,33.8,2.8,4.4,2.72,-0.14096455710643507,-0.03501229910732145,0.9617131970903752,-0.025555489496802607,-0.24677,-27.260861
11.185,2.0,1.0,1.0,34.4,33.8,33.8,2.8,4.4,2.7225,-0.15570899506252467,-0.03533461096748646,0.9588721934697585,-0.026649681755857746,-0.251747,-27.080231
11.185,2.0,1.0,1.0,34.4,33.8,33.8,2.8,4.4,2.725,-0.17054595856946947,-0.03564843619491387,0.9557620924598101,-0.02778240028802018,-0.256877,-26.898012
11.185,2.0,1.0,1.0,34.4,33.8,33.8,2.8,4.4,2.7275,-0.18547220306885956,-0.03595281961316547,0.952375862171119,-0.02895509266623597,-0.262167,-26.71416
11.185,2.0,1.0,1.0,34.4,33.8,33.8,2.8,4.4,2.73,-0.20048424353231295,-0.036246735251020214,0.9487063210720992,-0.030169270660998913,-0.267624,-26.528631
11.185,2.0,1.0,1.0,34.4,33.8,33.8,2.8,4.4,2.7325,-0.21557834212317312,-0.03652908078941201,0.9447461358707755,-0.03142651383982635,-0.273255,-26.341379
11.185,2.0,1.0,1.0,34.4,33.8,33.8,2.8,4.4,2.735,-0.23075049517890425,-0.03679867149262749,0.9404878193502266,-0.03272847342136794,-0.279068,-26.152354
11.185,2.0,1.0,1.0,34.4,33.8,33.8,2.8,4.4,2.7375,-0.24599641945849743,-0.03705423356629917,0.9359237281460385,-0.034076876404681315,-0.285073,-25.961506
11.185,2.0,1.0,1.0,34.4,33.8,33.8,2.8,4.4,2.74,-0.2613115375921121,-0.037294396877308095,0.9310460604523663,-0.03547352999579027,-0.291278,-25.768781
11.185,2.0,1.0,1.0,34.4,33.8,33.8,2.8,4.4,2.7425,-0.2766909626620951,-0.037517686962217835,0.9258468536413069,-0.03692032635530136,-0.297693,-25.574125
11.185,2.0,1.0,1.0,34.4,33.8,33.8,2.8,4.4,2.745,-0.29212948183510706,-0.037722516241129704,0.9203179817782748,-0.03841924769255647,-0.304328,-25.377478
11.185,2.0,1.0,1.0,34.4,33.8,33.8,2.8,4.4,2.7475,-0.3076215389542708,-0.037907174342677326,0.9144511530139106,-0.0399723717335401,-0.311194,-25.178779
11.185,2.0,1.0,1.0,34.4,33.8,33.8,2.8,4.4,2.75,-0.323161215987705,-0.0380698174330372,0.908237906830845,-0.0415818775914927,-0.318304,-24.977964
11.185,2.0,1.0,1.0,34.4,33.8,33.8,2.8,4.4,2.7525,-0.3387422132152692,-0.03820845642704575,0.9016696111213357,-0.04325005207086714,-0.32567,-24.774967
11.185,2.0,1.0,1.0,34.4,33.8,33.8,2.8,4.4,2.755,-0.35435782801850396,-0.03832094394246178,0.8947374590694939,-0.04497929643684269,-0.333306,-24.569716
11.185,2.0,1.0,1.0,34.4,33.8,33.8,2.8,4.4,2.7575,-0.37000093211918567,-0.03840495983871881,0.887432465809594,-0.04677213368399914,-0.341226,-24.362137
11.185,2.0,1.0,1.0,34.4,33.8,33.8,2.8,4.4,2.76,-0.38566394708912866,-0.038457995158724535,0.8797454648299137,-0.04863121633882784,-0.349448,-24.152152
11.185,2.0,1.0,1.0,34.4,33.8,33.8,2.8,4.4,2.7625,-0.40133881792743215,-0.03847733426585911,0.8716671040897445,-0.050559334831397476,-0.357987,-23.93968
11.185,2.0,1.0,1.0,34.4,33.8,33.8,2.8,4.4,2.765,-0.4170169844704489,-0.03846003493767252,0.8631878418159974,-0.052559426471475705,-0.366862,-23.724634
11.185,2.0,1.0,1.0,34.4,33.8,33.8,2.8,4.4,2.7675,-0.4326893503637659,-0.03840290614214004,0.8542979419452283,-0.0546345850635036,-0.376093,-23.506923
11.185,2.0,1.0,1.0,34.4,33.8,33.8,2.8,4.4,2.77,-0.4483462492833789,-0.03830248318082509,0.8449874691774356,-0.056788071192686806,-0.385703,-23.286452
11.185,2.0,1.0,1.0,34.4,33.8,33.8,2.8,4.4,2.7725,-0.46397740804399923,-0.03815499983486556,0.8352462836099293,-0.05902332321066953,-0.395714,-23.06312
11.185,2.0,1.0,1.0,34.4,33.8,33.8,2.8,4.4,2.775,-0.47957190617472784,-0.037956357093097894,0.8250640349235898,-0.0613439689432373,-0.406152,-22.836821
11.185,2.0,1.0,1.0,34.4,33.8,33.8,2.8,4.4,2.7775,-0.4951181314746324,-0.03770208797536539,0.8144301561005375,-0.06375383813351101,-0.417045,-22.607443
11.185,2.0,1.0,1.0,34.4,33.8,33.8,2.8,4.4,2.78,-0.5106037309812702,-0.037387317886343543,0.8033338566627014,-0.06625697562119658,-0.428423,-22.374866
11.185,2.0,1.0,1.0,34.4,33.8,33.8,2.8,4.4,2.7825,-0.5260155566915731,-0.0370067198439255,0.7917641154361686,-0.06885765524037524,-0.440321,-22.138967
11.185,2.0,1.0,1.0,34.4,33.8,33.8,2.8,4.4,2.785,-0.5413396052643928,-0.036554463818786936,0.7797096728680954,-0.07156039439347506,-0.452773,-21.899612
11.185,2.0,1.0,1.0,34.4,33.8,33.8,2.8,4.4,2.7875,-0.5565609508038838,-0.03602415929514837,0.7671590229536613,-0.07436996922527206,-0.46582,-21.656663
11.185,2.0,1.0,1.0,34.4,33.8,33.8,2.8,4.4,2.79,-0.5716636696694157,-0.03540879001329762,0.7541004048725659,-0.07729143027533751,-0.479505,-21.40997
11.185,2.0,1.0,1.0,34.4,33.8,33.8,2.8,4.4,2.7925,-0.5866307560759746,-0.034700639677758334,0.7405217944918387,-0.08033011842659057,-0.493878,-21.159378
11.185,2.0,1.0,1.0,34.4,33.8,33.8,2.8,4.4,2.795,-0.6014440270340038,-0.03389120720582123,0.7264108959686468,-0.083491680886867,-0.508991,-20.904721
11.185,2.0,1.0,1.0,34.4,33.8,33.8,2.8,4.4,2.7975,-0.6160840149225524,-0.032971109843233176,0.7117551337900301,-0.08678208683340215,-0.524904,-20.645822
11.185,2.0,1.0,1.0,34.4,33.8,33.8,2.8,4.4,2.8,-0.6305298456871417,-0.031929972179638895,0.6965416457237905,-0.09020764220878402,-0.541681,-20.382495
11.185,2.0,1.0,1.0,34.4,33.8,33.8,2.8,4.4,2.8025,-0.6447591002944565,-0.0307562987469904,0.6807572773373408,-0.09377500297044773,-0.559396,-20.114544
11.185,2.0,1.0,1.0,34.4,33.8,33.8,2.8,4.4,2.805,-0.6587476566491931,-0.029437327468972797,0.6643885789831955,-0.09749118585007491,-0.57813,-19.841757
11.185,2.0,1.0,1.0,34.4,33.8,33.8,2.8,4.4,2.8075,-0.6724695086713932,-0.027958860736083405,0.6474218064698883,-0.10136357535559225,-0.597973,-19.563913
11.185,2.0,1.0,1.0,34.4,33.8,33.8,2.8,4.4,2.81,-0.6858965586304288,-0.026305070294775648,0.6298429270604321,-0.1053999253220608,-0.619027,-19.280775
11.185,2.0,1.0,1.0,34.4,33.8,33.8,2.8,4.4,2.8125,-0.698998378117313,-0.0244582714432442,0.6116376330003,-0.109608352755675,-0.641405,-18.992092
11.185,2.0,1.0,1.0,34.4,33.8,33.8,2.8,4.4,2.815,-0.7117419321909592,-0.022398661201945436,0.592791365517281,-0.11399732097356237,-0.665238,-18.697599
11.185,2.0,1.0,1.0,34.4,33.8,33.8,2.8,4.4,2.8175,-0.724091260234714,-0.02010401415286745,0.5732893532157516,-0.11857560806257521,-0.690668,-18.397012
11.185,2.0,1.0,1.0,34.4,33.8,33.8,2.8,4.4,2.82,-0.7360071058846422,-0.017549328495751932,0.5531166700865888,-0.12335225538466016,-0.717862,-18.090031
11.185,2.0,1.0,1.0,34.4,33.8,33.8,2.8,4.4,2.8225,-0.7474464870183659,-0.01470641353031641,0.5322583200768725,-0.12833648913993573,-0.747007,-17.776339
11.185,2.0,1.0,1.0,34.4,33.8,33.8,2.8,4.4,2.825,-0.7583621952043477,-0.011543408222982929,0.5106993574524975,-0.13353760572081205,-0.778316,-17.455597
11.185,2.0,1.0,1.0,34.4,33.8,33.8,2.8,4.4,2.8275,-0.7687022121969674,-0.00802421874568205,0.4884250552322207,-0.13896480856261573,-0.812034,-17.127447
