1,w,sub_t,h,l1,l2,l3,g1,g2,Freq,S11_re,S21_re,S11_img,S21_img,S11_dB,S21_dB
11.185,2.0,1.0,1.0,33.4,33.0,33.0,1.5,2.4,2.5,0.852877811371893,-0.0130680258157723,0.507576507058637,0.0135775984479922,-0.065486,-34.496194
11.185,2.0,1.0,1.0,33.4,33.0,33.0,1.5,2.4,2.5025,0.8492373017736933,-0.013353736613323768,0.513491095572771,0.013661896547515588,-0.06618,-34.377432
11.185,2.0,1.0,1.0,33.4,33.0,33.0,1.5,2.4,2.505,0.8455374995818833,-0.01364502364056713,0.5194066369126467,0.01374531395794216,-0.066886,-34.258294
11.185,2.0,1.0,1.0,33.4,33.0,33.0,1.5,2.4,2.5075,0.8417777478076995,-0.013942003686576344,0.525322829595768,0.013827787330507438,-0.067605,-34.138774
11.185,2.0,1.0,1.0,33.4,33.0,33.0,1.5,2.4,2.51,0.8379573785675151,-0.014244796306181568,0.5312393620849569,0.013909250635430886,-0.068338,-34.018867
11.185,2.0,1.0,1.0,33.4,33.0,33.0,1.5,2.4,2.5125,0.8340757128938379,-0.014553523892019042,0.5371559124385413,0.013989635047907706,-0.069084,-33.898565
11.185,2.0,1.0,1.0,33.4,33.0,33.0,1.5,2.4,2.515,0.8301320605437449,-0.01486831174843159,0.5430721479478958,0.014068868828882608,-0.069843,-33.777862
11.185,2.0,1.0,1.0,33.4,33.0,33.0,1.5,2.4,2.5175,0.8261257198047999,-0.015189288167251565,0.5489877247618157,0.014146877200347881,-0.070617,-33.656753
11.185,2.0,1.0,1.0,33.4,33.0,33.0,1.5,2.4,2.52,0.8220559772984716,-0.015516584505499025,0.554902287497233,0.014223582214895347,-0.071406,-33.535231
11.185,2.0,1.0,1.0,33.4,33.0,33.0,1.5,2.4,2.5225,0.8179221077811178,-0.015850335265024273,0.5608154688357054,0.014298902619235922,-0.07221,-33.413288
11.185,2.0,1.0,1.0,33.4,33.0,33.0,1.5,2.4,2.525,0.8137233739425662,-0.016190678174124916,0.5667268891051425,0.014372753711387184,-0.073029,-33.29092
11.185,2.0,1.0,1.0,33.4,33.0,33.0,1.5,2.4,2.5275,0.8094590262023583,-0.01653775427116464,0.5726361558461681,0.014445047191212089,-0.073864,-33.168118
11.185,2.0,1.0,1.0,33.4,33.0,33.0,1.5,2.4,2.53,0.8051283025037275,-0.01689170799021798,0.5785428633625075,0.014515691003974863,-0.074715,-33.044876
11.185,2.0,1.0,1.0,33.4,33.0,33.0,1.5,2.4,2.5325,0.8007304281053794,-0.01725268724876487,0.5844465922547618,0.01458458917656316,-0.075583,-32.921187
11.185,2.0,1.0,1.0,33.4,33.0,33.0,1.5,2.4,2.535,0.7962646153711648,-0.017620843537455043,0.5903469089369047,0.014651641646005409,-0.076467,-32.797044
11.185,2.0,1.0,1.0,33.4,33.0,33.0,1.5,2.4,2.5375,0.7917300635577459,-0.017996332011958726,0.5962433651347958,0.014716744079893727,-0.07737,-32.672441
11.185,2.0,1.0,1.0,33.4,33.0,33.0,1.5,2.4,2.54,0.7871259586003583,-0.018379311586917985,0.6021354973659911,0.014779787688298775,-0.078291,-32.547368
11.185,2.0,1.0,1.0,33.4,33.0,33.0,1.5,2.4,2.5425,0.7824514728967952,-0.01876994503200784,0.6080228264000896,0.01484065902674502,-0.07923,-32.42182
11.185,2.0,1.0,1.0,33.4,33.0,33.0,1.5,2.4,2.545,0.7777057650897445,-0.019168399070112824,0.6139048566988151,0.014899239789785185,-0.080188,-32.295789
11.185,2.0,1.0,1.0,33.4,33.0,33.0,1.5,2.4,2.5475,0.7728879798476403,-0.019574844477617988,0.619781075835008,0.014955406594693027,-0.081166,-32.169267
11.185,2.0,1.0,1.0,33.4,33.0,33.0,1.5,2.4,2.55,0.7679972476441757,-0.019989456186810736,0.6256509538896646,0.015009030754763484,-0.082164,-32.042247
11.185,2.0,1.0,1.0,33.4,33.0,33.0,1.5,2.4,2.5525,0.7630326845366839,-0.02041241339037911,0.6315139428261001,0.015059978041681788,-0.083183,-31.91472
11.185,2.0,1.0,1.0,33.4,33.0,33.0,1.5,2.4,2.555,0.7579933919435735,-0.020843899647989675,0.6373694758403065,0.015108108436394123,-0.084223,-31.786679
11.185,2.0,1.0,1.0,33.4,33.0,33.0,1.5,2.4,2.5575,0.7528784564210408,-0.021284102994917533,0.6432169666865041,0.015153275867879417,-0.085285,-31.658116
11.185,2.0,1.0,1.0,33.4,33.0,33.0,1.5,2.4,2.56,0.7476869494393156,-0.021733216052692007,0.6490558089768487,0.015195327939188924,-0.086369,-31.529022
11.185,2.0,1.0,1.0,33.4,33.0,33.0,1.5,2.4,2.5625,0.7424179271586961,-0.022191436141713747,0.6548853754542114,0.015234105640085331,-0.087477,-31.399389
11.185,2.0,1.0,1.0,33.4,33.0,33.0,1.5,2.4,2.565,0.7370704302056692,-0.022658965395786455,0.6607050172369004,0.015269443045573136,-0.088608,-31.26921
11.185,2.0,1.0,1.0,33.4,33.0,33.0,1.5,2.4,2.5675,0.7316434834494403,-0.023136010878494703,0.6665140630341236,0.015301166999575259,-0.089764,-31.138474
11.185,2.0,1.0,1.0,33.4,33.0,33.0,1.5,2.4,2.57,0.7261360957792192,-0.02362278470134644,0.6723118183309612,0.015329096782964962,-0.090945,-31.007174
11.185,2.0,1.0,1.0,33.4,33.0,33.0,1.5,2.4,2.5725,0.7205472598826417,-0.024119504143584124,0.6780975645415408,0.015353043765120807,-0.092152,-30.875301
11.185,2.0,1.0,1.0,33.4,33.0,33.0,1.5,2.4,2.575,0.7148759520257459,-0.024626391773550894,0.6838705581290511,0.015372811038120198,-0.093386,-30.742845
11.185,2.0,1.0,1.0,33.4,33.0,33.0,1.5,2.4,2.5775,0.7091211318349547,-0.02514367557148168,0.6896300296911629,0.015388193032641532,-0.094648,-30.609798
11.185,2.0,1.0,1.0,33.4,33.0,33.0,1.5,2.4,2.58,0.7032817420815612,-0.025671589053567798,0.6953751830093621,0.015398975114585966,-0.095937,-30.47615
11.185,2.0,1.0,1.0,33.4,33.0,33.0,1.5,2.4,2.5825,0.6973567084692462,-0.026210371397122754,0.7011051940606301,0.015404933161377171,-0.097256,-30.341891
11.185,2.0,1.0,1.0,33.4,33.0,33.0,1.5,2.4,2.585,0.6913449394252162,-0.02676026756665194,0.7068192099898177,0.01540583311683397,-0.098605,-30.207013
11.185,2.0,1.0,1.0,33.4,33.0,33.0,1.5,2.4,2.5875,0.6852453258955905,-0.02732152844060216,0.7125163480410001,0.015401430523447017,-0.099985,-30.071506
11.185,2.0,1.0,1.0,33.4,33.0,33.0,1.5,2.4,2.59,0.6790567411457319,-0.02789441093853775,0.718195694445991,0.015391470030823955,-0.101396,-29.935359
11.185,2.0,1.0,1.0,33.4,33.0,33.0,1.5,2.4,2.5925,0.6727780405662563,-0.028479178148457362,0.7238563032681367,0.015375684878991396,-0.102841,-29.798562
11.185,2.0,1.0,1.0,33.4,33.0,33.0,1.5,2.4,2.595,0.6664080614855458,-0.029076099453928732,0.7294971951993775,0.015353796355169156,-0.104319,-29.661106
11.185,2.0,1.0,1.0,33.4,33.0,33.0,1.5,2.4,2.5975,0.6599456229896296,-0.029685450660681685,0.7351173563085122,0.015325513222546366,-0.105832,-29.522979
11.185,2.0,1.0,1.0,33.4,33.0,33.0,1.5,2.4,2.6,0.6533895257503893,-0.03030751412225324,0.7407157367384585,0.015290531119504456,-0.107381,-29.384172
11.185,2.0,1.0,1.0,33.4,33.0,33.0,1.5,2.4,2.6025,0.6467385518631315,-0.03094257886423272,0.7462912493502118,0.015248531927638006,-0.108968,-29.244673
11.185,2.0,1.0,1.0,33.4,33.0,33.0,1.5,2.4,2.605,0.6399914646946305,-0.03159094070660201,0.7518427683110879,0.015199183106826837,-0.110593,-29.104472
11.185,2.0,1.0,1.0,33.4,33.0,33.0,1.5,2.4,2.6075,0.6331470087428674,-0.03225290238360747,0.7573691276247096,0.015142136995506653,-0.112257,-28.963557
11.185,2.0,1.0,1.0,33.4,33.0,33.0,1.5,2.4,2.61,0.6262039095097791,-0.03292877366053661,0.7628691196000708,0.015077030074176639,-0.113962,-28.821916
11.185,2.0,1.0,1.0,33.4,33.0,33.0,1.5,2.4,2.6125,0.6191608733884391,-0.033618871446702996,0.7683414932568712,0.015003482190059885,-0.115709,-28.67954
11.185,2.0,1.0,1.0,33.4,33.0,33.0,1.5,2.4,2.615,0.6120165875662122,-0.034323519903865785,0.7737849526641875,0.0149210957407119,-0.117499,-28.536415
11.185,2.0,1.0,1.0,33.4,33.0,33.0,1.5,2.4,2.6175,0.6047697199455689,-0.03504305054922439,0.7791981552093692,0.014829454814232689,-0.119335,-28.39253
11.185,2.0,1.0,1.0,33.4,33.0,33.0,1.5,2.4,2.62,0.5974189190843636,-0.03577780235203675,0.784579709793908,0.014728124283599774,-0.121217,-28.247873
11.185,2.0,1.0,1.0,33.4,33.0,33.0,1.5,2.4,2.6225,0.5899628141575384,-0.036528121822807215,0.7899281749528636,0.014616648852484985,-0.123147,-28.10243
11.185,2.0,1.0,1.0,33.4,33.0,33.0,1.5,2.4,2.625,0.582400014942405,-0.037294363093875,0.795242056894217,0.0144945520497574,-0.125126,-27.956191
11.185,2.0,1.0,1.0,33.4,33.0,33.0,1.5,2.4,2.6275,0.574729111829786,-0.03807688799011396,0.8005198074543878,0.014361335169703286,-0.127157,-27.809141
11.185,2.0,1.0,1.0,33.4,33.0,33.0,1.5,2.4,2.63,0.5669486758635428,-0.03887606608831352,0.8057598219658972,0.014216476154809067,-0.129241,-27.661269
11.185,2.0,1.0,1.0,33.4,33.0,33.0,1.5,2.4,2.6325,0.5590572588111887,-0.039692274763663486,0.8109604370329885,0.014059428417761631,-0.131379,-27.512559
11.185,2.0,1.0,1.0,33.4,33.0,33.0,1.5,2.4,2.635,0.5510533932685435,-0.04052589922159845,0.8161199282107687,0.013889619599109618,-0.133574,-27.363
11.185,2.0,1.0,1.0,33.4,33.0,33.0,1.5,2.4,2.6375,0.5429355928016227,-0.041377332513074634,0.8212365075832098,0.01370645025681187,-0.135828,-27.212577
11.185,2.0,1.0,1.0,33.4,33.0,33.0,1.5,2.4,2.64,0.5347023521292112,-0.04224697553115522,0.8263083212351026,0.013509292483661764,-0.138143,-27.061277
11.185,2.0,1.0,1.0,33.4,33.0,33.0,1.5,2.4,2.6425,0.5263521473499025,-0.04313523698655388,0.8313334466127803,0.013297488448328905,-0.14052,-26.909084
11.185,2.0,1.0,1.0,33.4,33.0,33.0,1.5,2.4,2.645,0.5178834362176709,-0.04404253335954747,0.8363098897681566,0.013070348855490781,-0.142963,-26.755984
11.185,2.0,1.0,1.0,33.4,33.0,33.0,1.5,2.4,2.6475,0.5092946584704162,-0.04496928882539903,0.8412355824803335,0.012827151320247782,-0.145473,-26.601963
11.185,2.0,1.0,1.0,33.4,33.0,33.0,1.5,2.4,2.65,0.5005842362162813,-0.045915935150138386,0.8461083792487114,0.012567138651710068,-0.148053,-26.447006
11.185,2.0,1.0,1.0,33.4,33.0,33.0,1.5,2.4,2.6525,0.4917505743829993,-0.0468829115532185,0.8509260541512059,0.012289517040328816,-0.150706,-26.291097
11.185,2.0,1.0,1.0,33.4,33.0,33.0,1.5,2.4,2.655,0.48279206123592283,-0.047870664533212745,0.8556862975608412,0.01199345414319983,-0.153434,-26.134219
11.185,2.0,1.0,1.0,33.4,33.0,33.0,1.5,2.4,2.6575,0.47370706897093917,-0.04887964765231728,0.8603867127136001,0.011678077061208747,-0.156241,-25.976359
11.185,2.0,1.0,1.0,33.4,33.0,33.0,1.5,2.4,2.66,0.4644939543889793,-0.04991032127499017,0.8650248121200363,0.011342470201502987,-0.159128,-25.817498
11.185,2.0,1.0,1.0,33.4,33.0,33.0,1.5,2.4,2.6625,0.4551510596594558,-0.05096315225557305,0.8695980138127355,0.010985673018363373,-0.1621,-25.657621
11.185,2.0,1.0,1.0,33.4,33.0,33.0,1.5,2.4,2.665,0.4456767131805608,-0.052038613569214555,0.8741036374212885,0.010606677625118714,-0.165158,-25.49671
11.185,2.0,1.0,1.0,33.4,33.0,33.0,1.5,2.4,2.6675,0.43606923054513824,-0.0531371838798213,0.8785389000659587,0.010204426269285291,-0.168308,-25.334748
11.185,2.0,1.0,1.0,33.4,33.0,33.0,1.5,2.4,2.67,0.4263269156215478,-0.05425934703811983,0.8829009120607745,0.009777808662624612,-0.171552,-25.171718
11.185,2.0,1.0,1.0,33.4,33.0,33.0,1.5,2.4,2.6725,0.4164480617598353,-0.05540559150219116,0.8871866724162402,0.009325659157295716,-0.174894,-25.007602
11.185,2.0,1.0,1.0,33.4,33.0,33.0,1.5,2.4,2.675,0.4064309531344508,-0.05657640967204879,0.8913930641313336,0.00884675375873236,-0.178339,-24.84238
11.185,2.0,1.0,1.0,33.4,33.0,33.0,1.5,2.4,2.6775,0.39627386623577043,-0.057772297128955014,0.8955168492639021,0.008339806965294823,-0.181889,-24.676036
11.185,2.0,1.0,1.0,33.4,33.0,33.0,1.5,2.4,2.68,0.3859750715238032,-0.058993751769200214,0.8995546637679619,0.007803468424135275,-0.18555,-24.508548
11.185,2.0,1.0,1.0,33.4,33.0,33.0,1.5,2.4,2.6825,0.37553283525872344,-0.060241272820994965,0.9035030120857869,0.0072363193920708824,-0.189326,-24.339899
11.185,2.0,1.0,1.0,33.4,33.0,33.0,1.5,2.4,2.685,0.3649454215241948,-0.06151535973193905,0.9073582614820366,0.0066368689895759435,-0.193222,-24.170068
11.185,2.0,1.0,1.0,33.4,33.0,33.0,1.5,2.4,2.6875,0.35421109446096777,-0.06281651091321254,0.911116636106473,0.006003550235294342,-0.197243,-23.999035
11.185,2.0,1.0,1.0,33.4,33.0,33.0,1.5,2.4,2.69,0.34332812072989444,-0.06414522232517555,0.9147742107711054,0.005334715847719843,-0.201394,-23.826779
11.185,2.0,1.0,1.0,33.4,33.0,33.0,1.5,2.4,2.6925,0.332294772225269,-0.06550198588744734,0.9183269044268929,0.004628633799904256,-0.205681,-23.653279
11.185,2.0,1.0,1.0,33.4,33.0,33.0,1.5,2.4,2.695,0.3211093290614749,-0.06688728769473684,0.921770473324321,0.0038834826122413732,-0.21011,-23.478513
11.185,2.0,1.0,1.0,33.4,33.0,33.0,1.5,2.4,2.6975,0.3097700828580424,-0.06830160601771268,0.9251005038414158,0.0030973463675094287,-0.214687,-23.30246
11.185,2.0,1.0,1.0,33.4,33.0,33.0,1.5,2.4,2.7,0.29827534035074255,-0.06974540906598188,0.9283124049619279,0.002268209431479501,-0.219418,-23.125097
11.185,2.0,1.0,1.0,33.4,33.0,33.0,1.5,2.4,2.7025,0.2866234273589511,-0.07121915248780111,0.9314014003855824,0.001393950861479777,-0.224311,-22.946401
11.185,2.0,1.0,1.0,33.4,33.0,33.0,1.5,2.4,2.705,0.27481269314257034,-0.07272327657840674,0.9343625202514415,0.00047233848436451604,-0.229373,-22.766348
11.185,2.0,1.0,1.0,33.4,33.0,33.0,1.5,2.4,2.7075,0.26284151518500676,-0.07425820316582869,0.9371905924545861,-0.0004989773756118297,-0.234612,-22.584915
11.185,2.0,1.0,1.0,33.4,33.0,33.0,1.5,2.4,2.71,0.2507083044424198,-0.07582433213967214,0.9398802335354399,-0.0015224705394923175,-0.240035,-22.402078
11.185,2.0,1.0,1.0,33.4,33.0,33.0,1.5,2.4,2.7125,0.2384115111034221,-0.07742203758460722,0.9424258391202428,-0.0026007460083264464,-0.245652,-22.21781
11.185,2.0,1.0,1.0,33.4,33.0,33.0,1.5,2.4,2.715,0.2259496309079288,-0.07905166347612894,0.9448215738903328,-0.0037365474122921217,-0.251472,-22.032088
11.185,2.0,1.0,1.0,33.4,33.0,33.0,1.5,2.4,2.7175,0.21332121207877458,-0.08071351889150254,0.947061361057149,-0.004932764897566793,-0.257504,-21.844884
11.185,2.0,1.0,1.0,33.4,33.0,33.0,1.5,2.4,2.72,0.20052486292524563,-0.08240787268363133,0.9491388713191163,-0.006192443475166836,-0.263758,-21.656172
11.185,2.0,1.0,1.0,33.4,33.0,33.0,1.5,2.4,2.7225,0.18755926018372543,-0.08413494755981907,0.9510475112759643,-0.007518791856802156,-0.270247,-21.465925
11.185,2.0,1.0,1.0,33.4,33.0,33.0,1.5,2.4,2.725,0.17442315816750206,-0.08589491350096255,0.9527804112755225,-0.008915191803501414,-0.276981,-21.274116
11.185,2.0,1.0,1.0,33.4,33.0,33.0,1.5,2.4,2.7275,0.1611153988052256,-0.08768788044955056,0.954330412667663,-0.010385208013360703,-0.283973,-21.080715
11.185,2.0,1.0,1.0,33.4,33.0,33.0,1.5,2.4,2.73,0.14763492265596828,-0.0895138901868388,0.9556900544399186,-0.011932598575161633,-0.291236,-20.885695
11.185,2.0,1.0,1.0,33.4,33.0,33.0,1.5,2.4,2.7325,0.13398078099806032,-0.09137290731066089,0.9568515592094166,-0.01356132601478501,-0.298783,-20.689024
11.185,2.0,1.0,1.0,33.4,33.0,33.0,1.5,2.4,2.735,0.12015214909931456,-0.09326480921537349,0.9578068185461909,-0.015275568961206895,-0.306631,-20.490674
11.185,2.0,1.0,1.0,33.4,33.0,33.0,1.5,2.4,2.7375,0.10614834078770967,-0.09518937496433358,0.9585473776037885,-0.017079734458357174,-0.314794,-20.290614
11.185,2.0,1.0,1.0,33.4,33.0,33.0,1.5,2.4,2.74,0.09196882445450262,-0.0971462729328998,0.9590644190344437,-0.01897847094812555,-0.32329,-20.088812
11.185,2.0,1.0,1.0,33.4,33.0,33.0,1.5,2.4,2.7425,0.07761324063596475,-0.09913504708611977,0.959348746168079,-0.020976681948208273,-0.332137,-19.885235
11.185,2.0,1.0,1.0,33.4,33.0,33.0,1.5,2.4,2.745,0.06308142133590948,-0.10115510173981121,0.9593907654371671,-0.023079540446158717,-0.341354,-19.679852
11.185,2.0,1.0,1.0,33.4,33.0,33.0,1.5,2.4,2.7475,0.04837341126887541,-0.10320568463650806,0.9591804680331998,-0.025292504027754254,-0.350962,-19.472628
11.185,2.0,1.0,1.0,33.4,33.0,33.0,1.5,2.4,2.75,0.0334894912235527,-0.105285868148506,0.958707410785413,-0.0276213307534258,-0.360982,-19.263531
11.185,2.0,1.0,1.0,33.4,33.0,33.0,1.5,2.4,2.7525,0.01843020376805128,-0.10739452839878214,0.957960696258727,-0.030072095790749025,-0.371439,-19.052524
11.185,2.0,1.0,1.0,33.4,33.0,33.0,1.5,2.4,2.755,0.003196381543055577,-0.10953032206663171,0.9569289520758804,-0.03265120880357627,-0.382358,-18.839573
11.185,2.0,1.0,1.0,33.4,33.0,33.0,1.5,2.4,2.7575,-0.01221082158391518,-0.11169166061820879,0.9556003094789024,-0.03536543208893789,-0.393765,-18.624642
11.185,2.0,1.0,1.0,33.4,33.0,33.0,1.5,2.4,2.76,-0.027789896199595494,-0.11387668167245321,0.9539623811577062,-0.038221899440895254,-0.405691,-18.407694
11.185,2.0,1.0,1.0,33.4,33.0,33.0,1.5,2.4,2.7625,-0.04353893952432824,-0.11608321717986513,0.9520022383893358,-0.04122813570561655,-0.418166,-18.188692
11.185,2.0,1.0,1.0,33.4,33.0,33.0,1.5,2.4,2.765,-0.059455613715268175,-0.11830875805487495,0.9497063875508197,-0.0443920769733794,-0.431225,-17.967598
11.185,2.0,1.0,1.0,33.4,33.0,33.0,1.5,2.4,2.7675,-0.07553709987770231,-0.12055041486183832,0.9470607460924656,-0.04772209133028721,-0.444903,-17.744374
11.185,2.0,1.0,1.0,33.4,33.0,33.0,1.5,2.4,2.77,-0.09178004732306849,-0.12280487410958421,0.9440506180876757,-0.051227000064288104,-0.459239,-17.518981
11.185,2.0,1.0,1.0,33.4,33.0,33.0,1.5,2.4,2.7725,-0.10818051756177184,-0.1250683496595997,0.9406606695110314,-0.05491609918553718,-0.474277,-17.291379
11.185,2.0,1.0,1.0,33.4,33.0,33.0,1.5,2.4,2.775,-0.12473392246336659,-0.12733652869801249,0.9368749034398273,-0.05879918107896968,-0.49006,-17.061529
11.185,2.0,1.0,1.0,33.4,33.0,33.0,1.5,2.4,2.7775,-0.14143495595572322,-0.1296045116611895,0.9326766354269161,-0.06288655605561869,-0.506639,-16.82939
11.185,2.0,1.0,1.0,33.4,33.0,33.0,1.5,2.4,2.78,-0.15827751856817218,-0.13186674543876037,0.9280484693565233,-0.06718907350688876,-0.524066,-16.594922
11.185,2.0,1.0,1.0,33.4,33.0,33.0,1.5,2.4,2.7825,-0.17525463405111227,-0.13411694910599672,0.9229722741718059,-0.07171814229050717,-0.5424,-16.358084
11.185,2.0,1.0,1.0,33.4,33.0,33.0,1.5,2.4,2.785,-0.1923583572263176,-0.13634803135971324,0.9174291619558891,-0.07648574988568131,-0.561702,-16.118836
11.185,2.0,1.0,1.0,33.4,33.0,33.0,1.5,2.4,2.7875,-0.2095796721379699,-0.13855199874832425,0.9113994679600899,-0.08150447974495233,-0.582041,-15.877136
11.185,2.0,1.0,1.0,33.4,33.0,33.0,1.5,2.4,2.79,-0.22690837948524195,-0.14071985369784953,0.9048627333075344,-0.0867875261378445,-0.60349,-15.632944
11.185,2.0,1.0,1.0,33.4,33.0,33.0,1.5,2.4,2.7925,-0.24433297222331138,-0.14284148124231014,0.8977976912618167,-0.09234870562230452,-0.626129,-15.38622
11.185,2.0,1.0,1.0,33.4,33.0,33.0,1.5,2.4,2.795,-0.26184049812299154,-0.14490552327046496,0.890182258143608,-0.09820246408919385,-0.650045,-15.136923
11.185,2.0,1.0,1.0,33.4,33.0,33.0,1.5,2.4,2.7975,-0.279416407981133,-0.14689923900323923,0.8819935302092116,-0.10436387809678307,-0.675333,-14.885016
11.185,2.0,1.0,1.0,33.4,33.0,33.0,1.5,2.4,2.8,-0.29704438807833994,-0.14880835032058046,0.8732077880807116,-0.11084864893961756,-0.702097,-14.63046
11.185,2.0,1.0,1.0,33.4,33.0,33.0,1.5,2.4,2.8025,-0.31470617539110374,-0.15061687046706956,0.8638005106455107,-0.1176730875712763,-0.73045,-14.373218
11.185,2.0,1.0,1.0,33.4,33.0,33.0,1.5,2.4,2.805,-0.3323813539885419,-0.15230691458844367,0.8537464007327875,-0.12485408811448209,-0.760516,-14.113257
11.185,2.0,1.0,1.0,33.4,33.0,33.0,1.5,2.4,2.8075,-0.3500471309876383,-0.1538584904943765,0.8430194253359389,-0.1324090872344671,-0.792431,-13.850543
11.185,2.0,1.0,1.0,33.4,33.0,33.0,1.5,2.4,2.81,-0.3676780904162731,-0.15524926801736957,0.8315928736949408,-0.14035600611094703,-0.826343,-13.585046
11.185,2.0,1.0,1.0,33.4,33.0,33.0,1.5,2.4,2.8125,-0.385245923354953,-0.156454325358027,0.819439437193568,-0.14871317110781,-0.862415,-13.316741
11.185,2.0,1.0,1.0,33.4,33.0,33.0,1.5,2.4,2.815,-0.4027191328155473,-0.15744587089251197,0.8065313157769947,-0.15749920849409343,-0.900829,-13.045603
11.185,2.0,1.0,1.0,33.4,33.0,33.0,1.5,2.4,2.8175,-0.42006271199336415,-0.15819293909364932,0.7928403564700364,-0.16673290770063354,-0.941779,-12.771616
11.185,2.0,1.0,1.0,33.4,33.0,33.0,1.5,2.4,2.82,-0.43723779483030223,-0.15866105951530005,0.7783382305890892,-0.17643304658980064,-0.985486,-12.494765
11.185,2.0,1.0,1.0,33.4,33.0,33.0,1.5,2.4,2.8225,-0.4542012782930607,-0.1588118982517431,0.7629966574049065,-0.18661817105789127,-1.032188,-12.215046
11.185,2.0,1.0,1.0,33.4,33.0,33.0,1.5,2.4,2.825,-0.47090541645431716,-0.15860287196245537,0.7467876833387742,-0.1973063199707652,-1.082152,-11.93246
11.185,2.0,1.0,1.0,33.4,33.0,33.0,1.5,2.4,2.8275,-0.48729738743277273,-0.15798673551394699,0.7296840272664235,-0.20851468494823427,-1.135671,-11.647015
11.185,2.0,1.0,1.0,33.4,33.0,33.0,1.5,2.4,2.83,-0.5033188355821695,-0.1569111456163216,0.7116595041580541,-0.22025919286523102,-1.193069,-11.358734
