1,w,sub_t,h,l1,l2,l3,g1,g2,Freq,S11_re,S21_re,S11_img,S21_img,S11_dB,S21_dB
11.185,2.0,1.0,1.0,33.3,34.8,34.8,2.1,3.9,2.5,0.863411739611141,-0.00895696339079835,0.489521919760371,0.00779277124087062,-0.065146,-38.509211
11.185,2.0,1.0,1.0,33.3,34.8,34.8,2.1,3.9,2.5025,0.8600741193762763,-0.009167942715399544,0.4951859506065191,0.00785629933443018,-0.065917,-38.363241
11.185,2.0,1.0,1.0,33.3,34.8,34.8,2.1,3.9,2.505,0.8566820793613429,-0.009384093144135392,0.5008528050068249,0.007919866009424502,-0.066706,-38.216405
11.185,2.0,1.0,1.0,33.3,34.8,34.8,2.1,3.9,2.5075,0.8532349361700968,-0.009605580227482726,0.5065223125457005,0.007983449699494277,-0.067513,-38.068681
11.185,2.0,1.0,1.0,33.3,34.8,34.8,2.1,3.9,2.51,0.8497319896083367,-0.009832576572461112,0.5121942962953767,0.008047027284887183,-0.068339,-37.920044
11.185,2.0,1.0,1.0,33.3,34.8,34.8,2.1,3.9,2.5125,0.8461725220829552,-0.010065262219544437,0.5178685725250733,0.00811057398023906,-0.069185,-37.770472
11.185,2.0,1.0,1.0,33.3,34.8,34.8,2.1,3.9,2.515,0.8425557979702012,-0.01030382504379363,0.5235449503946045,0.008174063213343312,-0.070051,-37.619938
11.185,2.0,1.0,1.0,33.3,34.8,34.8,2.1,3.9,2.5175,0.8388810629510983,-0.01054846118203044,0.5292232316313177,0.008237466494092526,-0.070938,-37.468416
11.185,2.0,1.0,1.0,33.3,34.8,34.8,2.1,3.9,2.52,0.8351475433117498,-0.010799375488031362,0.5349032101892045,0.008300753272695055,-0.071846,-37.315882
11.185,2.0,1.0,1.0,33.3,34.8,34.8,2.1,3.9,2.5225,0.831354445206125,-0.011056782017890333,0.5405846718888588,0.008363890786175264,-0.072777,-37.162306
11.185,2.0,1.0,1.0,33.3,34.8,34.8,2.1,3.9,2.525,0.8275009538786741,-0.011320904547890726,0.5462673940369074,0.008426843892065486,-0.073732,-37.007661
11.185,2.0,1.0,1.0,33.3,34.8,34.8,2.1,3.9,2.5275,0.8235862328439212,-0.011591977127432864,0.5519511450233536,0.00848957488808191,-0.074711,-36.851918
11.185,2.0,1.0,1.0,33.3,34.8,34.8,2.1,3.9,2.53,0.8196094230199368,-0.011870244669792805,0.5576356838951553,0.008552043316449568,-0.075715,-36.695047
11.185,2.0,1.0,1.0,33.3,34.8,34.8,2.1,3.9,2.5325,0.8155696418123101,-0.012155963583740038,0.5633207599041945,0.008614205751398245,-0.076745,-36.537018
11.185,2.0,1.0,1.0,33.3,34.8,34.8,2.1,3.9,2.535,0.811465982144957,-0.0124494024493194,0.5690061120276154,0.008676015568191323,-0.077802,-36.377799
11.185,2.0,1.0,1.0,33.3,34.8,34.8,2.1,3.9,2.5375,0.8072975114337743,-0.012750842741408508,0.5746914684583038,0.008737422691871145,-0.078887,-36.217356
11.185,2.0,1.0,1.0,33.3,34.8,34.8,2.1,3.9,2.54,0.8030632704987796,-0.013060579605000415,0.5803765460630667,0.00879837332370135,-0.080002,-36.055656
11.185,2.0,1.0,1.0,33.3,34.8,34.8,2.1,3.9,2.5425,0.798762272409986,-0.013378922686536699,0.5860610498058202,0.008858809643064201,-0.081147,-35.892665
11.185,2.0,1.0,1.0,33.3,34.8,34.8,2.1,3.9,2.545,0.794393501261829,-0.013706197026027963,0.5917446721328098,0.008918669482312543,-0.082324,-35.728345
11.185,2.0,1.0,1.0,33.3,34.8,34.8,2.1,3.9,2.5475,0.7899559108704706,-0.014042744015159479,0.5974270923165731,0.008977885971794018,-0.083534,-35.56266
11.185,2.0,1.0,1.0,33.3,34.8,34.8,2.1,3.9,2.55,0.7854484233877612,-0.014388922427089093,0.6031079757550318,0.00903638715193967,-0.084778,-35.395572
11.185,2.0,1.0,1.0,33.3,34.8,34.8,2.1,3.9,2.5525,0.7808699278250699,-0.014745109524206988,0.6087869732216522,0.009094095548945542,-0.086058,-35.227039
11.185,2.0,1.0,1.0,33.3,34.8,34.8,2.1,3.9,2.555,0.7762192784795054,-0.015111702250759538,0.6144637200622314,0.009150927710164049,-0.087376,-35.05702
11.185,2.0,1.0,1.0,33.3,34.8,34.8,2.1,3.9,2.5575,0.7714952932543279,-0.015489118517934867,0.6201378353333225,0.009206793694853995,-0.088732,-34.885473
11.185,2.0,1.0,1.0,33.3,34.8,34.8,2.1,3.9,2.56,0.7666967518645512,-0.01587779858979032,0.6258089208767614,0.00926159651541018,-0.09013,-34.712354
11.185,2.0,1.0,1.0,33.3,34.8,34.8,2.1,3.9,2.5625,0.7618223939177935,-0.016278206579268803,0.6314765603241188,0.009315231523589844,-0.09157,-34.537615
11.185,2.0,1.0,1.0,33.3,34.8,34.8,2.1,3.9,2.565,0.7568709168594481,-0.01669083206452513,0.6371403180241781,0.009367585735570757,-0.093054,-34.361209
11.185,2.0,1.0,1.0,33.3,34.8,34.8,2.1,3.9,2.5675,0.7518409737701113,-0.017116191836866104,0.6427997378856999,0.009418537088894582,-0.094585,-34.183087
11.185,2.0,1.0,1.0,33.3,34.8,34.8,2.1,3.9,2.57,0.7467311710019167,-0.017554831792827727,0.6484543421268174,0.009467953623459643,-0.096165,-34.003196
11.185,2.0,1.0,1.0,33.3,34.8,34.8,2.1,3.9,2.5725,0.7415400656390407,-0.018007328984274592,0.6541036299213269,0.009515692577708975,-0.097796,-33.821484
11.185,2.0,1.0,1.0,33.3,34.8,34.8,2.1,3.9,2.575,0.7362661627660309,-0.018474293841937054,0.6597470759309136,0.009561599389993538,-0.099481,-33.637893
11.185,2.0,1.0,1.0,33.3,34.8,34.8,2.1,3.9,2.5775,0.7309079125258373,-0.018956372589524095,0.6653841287109663,0.009605506593754391,-0.101221,-33.452366
11.185,2.0,1.0,1.0,33.3,34.8,34.8,2.1,3.9,2.58,0.7254637069474237,-0.019454249867485306,0.6710142089760169,0.009647232593628756,-0.103021,-33.264843
11.185,2.0,1.0,1.0,33.3,34.8,34.8,2.1,3.9,2.5825,0.7199318765205741,-0.01996865158768043,0.6766367077090325,0.009686580307815993,-0.104883,-33.07526
11.185,2.0,1.0,1.0,33.3,34.8,34.8,2.1,3.9,2.585,0.7143106864929699,-0.02050034804267773,0.6822509840966277,0.00972333565999709,-0.10681,-32.883551
11.185,2.0,1.0,1.0,33.3,34.8,34.8,2.1,3.9,2.5875,0.7085983328617379,-0.021050157296190194,0.6878563632698698,0.009757265901740503,-0.108805,-32.689648
11.185,2.0,1.0,1.0,33.3,34.8,34.8,2.1,3.9,2.59,0.7027929380284368,-0.021618948884310468,0.6934521338274843,0.009788117743592633,-0.110873,-32.49348
11.185,2.0,1.0,1.0,33.3,34.8,34.8,2.1,3.9,2.5925,0.6968925460827422,-0.022207647860782116,0.699037545115037,0.009815615269879086,-0.113016,-32.294971
11.185,2.0,1.0,1.0,33.3,34.8,34.8,2.1,3.9,2.595,0.6908951176759746,-0.022817239223601356,0.7046118042298426,0.009839457608548681,-0.11524,-32.094043
11.185,2.0,1.0,1.0,33.3,34.8,34.8,2.1,3.9,2.5975,0.6847985244408084,-0.02344877276486157,0.710174072716961,0.009859316323092197,-0.11755,-31.890614
11.185,2.0,1.0,1.0,33.3,34.8,34.8,2.1,3.9,2.6,0.6786005429081786,-0.02410336839100515,0.7157234629164704,0.00987483248853846,-0.119948,-31.6846
11.185,2.0,1.0,1.0,33.3,34.8,34.8,2.1,3.9,2.6025,0.6722988478662313,-0.024782221966641364,0.7212590339161965,0.009885613407643488,-0.122442,-31.475908
11.185,2.0,1.0,1.0,33.3,34.8,34.8,2.1,3.9,2.605,0.6658910050991607,-0.025486611741936442,0.7267797870570177,0.00989122891647823,-0.125037,-31.264447
11.185,2.0,1.0,1.0,33.3,34.8,34.8,2.1,3.9,2.6075,0.6593744634357747,-0.02621790543141159,0.7322846609295688,0.009891207220489046,-0.127738,-31.050117
11.185,2.0,1.0,1.0,33.3,34.8,34.8,2.1,3.9,2.61,0.6527465460284847,-0.02697756802095868,0.7377725257913944,0.009885030192510075,-0.130553,-30.832813
11.185,2.0,1.0,1.0,33.3,34.8,34.8,2.1,3.9,2.6125,0.6460044407728649,-0.027767170390181187,0.7432421773220612,0.009872128052862899,-0.133489,-30.612428
11.185,2.0,1.0,1.0,33.3,34.8,34.8,2.1,3.9,2.615,0.6391451897659068,-0.0285883988490029,0.7486923296200759,0.009851873338220286,-0.136553,-30.388847
11.185,2.0,1.0,1.0,33.3,34.8,34.8,2.1,3.9,2.6175,0.6321656776871789,-0.029443065701107864,0.7541216073291774,0.009823574049909049,-0.139753,-30.161948
11.185,2.0,1.0,1.0,33.3,34.8,34.8,2.1,3.9,2.62,0.6250626189711355,-0.030333120962481815,0.7595285367622588,0.009786465853239694,-0.1431,-29.931605
11.185,2.0,1.0,1.0,33.3,34.8,34.8,2.1,3.9,2.6225,0.6178325436203423,-0.031260665381454125,0.76491153586801,0.009739703176619702,-0.146603,-29.697683
11.185,2.0,1.0,1.0,33.3,34.8,34.8,2.1,3.9,2.625,0.610471781488132,-0.0322279649276001,0.770268902857655,0.00968234903181499,-0.150274,-29.460041
11.185,2.0,1.0,1.0,33.3,34.8,34.8,2.1,3.9,2.6275,0.6029764448344441,-0.0332374669411298,0.7755988032758055,0.009613363343749268,-0.154123,-29.218529
11.185,2.0,1.0,1.0,33.3,34.8,34.8,2.1,3.9,2.63,0.5953424089301442,-0.03429181816251436,0.7808992552592045,0.009531589538420095,-0.158166,-28.972988
11.185,2.0,1.0,1.0,33.3,34.8,34.8,2.1,3.9,2.6325,0.587565290451912,-0.03539388489474023,0.7861681126784087,0.009435739089264842,-0.162415,-28.723251
11.185,2.0,1.0,1.0,33.3,34.8,34.8,2.1,3.9,2.635,0.5796404233713466,-0.0365467755884878,0.7914030457982517,0.009324373663661943,-0.166887,-28.469139
11.185,2.0,1.0,1.0,33.3,34.8,34.8,2.1,3.9,2.6375,0.571562831997254,-0.03775386618459998,0.7966015190207028,0.009195884439681258,-0.1716,-28.210464
11.185,2.0,1.0,1.0,33.3,34.8,34.8,2.1,3.9,2.64,0.5633272007780896,-0.03901882859945199,0.8017607651853877,0.009048468075544581,-0.176574,-27.947026
11.185,2.0,1.0,1.0,33.3,34.8,34.8,2.1,3.9,2.6425,0.5549278404111703,-0.04034566279844049,0.8068777557943712,0.008880098706493025,-0.181829,-27.67861
11.185,2.0,1.0,1.0,33.3,34.8,34.8,2.1,3.9,2.645,0.5463586497349939,-0.04173873297212457,0.8119491663938144,0.008688495210733317,-0.187391,-27.404989
11.185,2.0,1.0,1.0,33.3,34.8,34.8,2.1,3.9,2.6475,0.537613072799466,-0.0432028084100754,0.8169713361790445,0.008471082821265798,-0.193287,-27.12592
11.185,2.0,1.0,1.0,33.3,34.8,34.8,2.1,3.9,2.65,0.5286840504142476,-0.04474310976089652,0.8219402206830154,0.008224947955174223,-0.199545,-26.841145
11.185,2.0,1.0,1.0,33.3,34.8,34.8,2.1,3.9,2.6525,0.5195639653660159,-0.04636536147491519,0.826851336149825,0.007946784875394493,-0.206202,-26.550386
11.185,2.0,1.0,1.0,33.3,34.8,34.8,2.1,3.9,2.655,0.5102445803694211,-0.04807585135054164,0.8316996938708574,0.007632832477758543,-0.213293,-26.253346
11.185,2.0,1.0,1.0,33.3,34.8,34.8,2.1,3.9,2.6575,0.500716967672146,-0.04988149824784867,0.8364797223520165,0.007278799089526345,-0.220863,-25.949706
11.185,2.0,1.0,1.0,33.3,34.8,34.8,2.1,3.9,2.66,0.49097142907062546,-0.05178992919479225,0.8411851746621251,0.006879772650099216,-0.228961,-25.639124
11.185,2.0,1.0,1.0,33.3,34.8,34.8,2.1,3.9,2.6625,0.4809974049091623,-0.05380956729291687,0.8458090176519246,0.006430112987661908,-0.23764,-25.321233
11.185,2.0,1.0,1.0,33.3,34.8,34.8,2.1,3.9,2.665,0.4707833704330662,-0.05594973202891823,0.8503432988872066,0.00592332206402207,-0.246966,-24.995634
11.185,2.0,1.0,1.0,33.3,34.8,34.8,2.1,3.9,2.6675,0.46031671765034116,-0.05822075381145871,0.8547789860502494,0.005351886976305009,-0.257009,-24.6619
11.185,2.0,1.0,1.0,33.3,34.8,34.8,2.1,3.9,2.67,0.44958362063640095,-0.060634104769310394,0.8591057721536745,0.004707089101122845,-0.267852,-24.319566
11.185,2.0,1.0,1.0,33.3,34.8,34.8,2.1,3.9,2.6725,0.4385688820109169,-0.06320254804850385,0.8633118380748864,0.0039787709400286335,-0.279592,-23.968131
11.185,2.0,1.0,1.0,33.3,34.8,34.8,2.1,3.9,2.675,0.4272557581585321,-0.0659403079994242,0.8673835615154676,0.0031550498328834506,-0.29234,-23.607049
11.185,2.0,1.0,1.0,33.3,34.8,34.8,2.1,3.9,2.6775,0.4156257607130308,-0.06886326369264381,0.8713051583241513,0.002221964555081921,-0.306226,-23.235729
11.185,2.0,1.0,1.0,33.3,34.8,34.8,2.1,3.9,2.68,0.4036584319738432,-0.0719891680487622,0.8750582379284042,0.0011630366406283127,-0.3214,-22.853524
11.185,2.0,1.0,1.0,33.3,34.8,34.8,2.1,3.9,2.6825,0.3913310924342017,-0.07533789435346473,0.8786212490321703,-4.1277288673233244e-05,-0.338041,-22.459729
11.185,2.0,1.0,1.0,33.3,34.8,34.8,2.1,3.9,2.685,0.3786185597350487,-0.0789317107920303,0.8819687842499259,-0.0014142733609653988,-0.356362,-22.053576
11.185,2.0,1.0,1.0,33.3,34.8,34.8,2.1,3.9,2.6875,0.36549284055098435,-0.08279558144633241,0.8850707022589918,-0.0029838696750731438,-0.376614,-21.63422
11.185,2.0,1.0,1.0,33.3,34.8,34.8,2.1,3.9,2.69,0.35192280087537237,-0.08695748824322688,0.8878910123904649,-0.004783711721384633,-0.399099,-21.200737
11.185,2.0,1.0,1.0,33.3,34.8,34.8,2.1,3.9,2.6925,0.33787382707347524,-0.09144876145866973,0.8903864479976391,-0.006854587320716143,-0.424182,-20.752112
11.185,2.0,1.0,1.0,33.3,34.8,34.8,2.1,3.9,2.695,0.32330750185265006,-0.09630439463701516,0.8925046295837575,-0.009246249647560404,-0.452307,-20.287228
11.185,2.0,1.0,1.0,33.3,34.8,34.8,2.1,3.9,2.6975,0.3081813391760833,-0.10156329997376115,0.894181684012269,-0.012019781417898182,-0.484019,-19.804858
11.185,2.0,1.0,1.0,33.3,34.8,34.8,2.1,3.9,2.7,0.29244865549868837,-0.10726842697669445,0.8953391387992924,-0.015250680452838547,-0.519988,-19.303652
11.185,2.0,1.0,1.0,33.3,34.8,34.8,2.1,3.9,2.7025,0.27605871056553116,-0.11346661156541685,0.8958798462121162,-0.019032910853685588,-0.561054,-18.782129
11.185,2.0,1.0,1.0,33.3,34.8,34.8,2.1,3.9,2.705,0.2589573446508011,-0.12020792948524844,0.8956826056667033,-0.023484249935350233,-0.608272,-18.238666
11.185,2.0,1.0,1.0,33.3,34.8,34.8,2.1,3.9,2.7075,0.241088496435803,-0.12754417118703637,0.894595040064359,-0.028753373533006513,-0.662982,-17.671494
11.185,2.0,1.0,1.0,33.3,34.8,34.8,2.1,3.9,2.71,0.2223972507855708,-0.13552579125574185,0.8924241410920604,-0.03502926249961911,-0.726905,-17.078705
11.185,2.0,1.0,1.0,33.3,34.8,34.8,2.1,3.9,2.7125,0.20283551323513138,-0.1441962395467615,0.8889237408487259,-0.04255367055055954,-0.802278,-16.458268
11.185,2.0,1.0,1.0,33.3,34.8,34.8,2.1,3.9,2.715,0.18237216357422747,-0.15358182822347266,0.8837780353504205,-0.05163752548658061,-0.892032,-15.808076
11.185,2.0,1.0,1.0,33.3,34.8,34.8,2.1,3.9,2.7175,0.16101081014028906,-0.16367402371391152,0.8765803021829769,-0.06268212024907453,-1.000059,-15.126038
11.185,2.0,1.0,1.0,33.3,34.8,34.8,2.1,3.9,2.72,0.13882036797842093,-0.17439895692297946,0.8668064301770014,-0.07620547830696779,-1.131572,-14.410243
11.185,2.0,1.0,1.0,33.3,34.8,34.8,2.1,3.9,2.7225,0.11598705182873395,-0.18556558465238157,0.8537845474026426,-0.09287261842073224,-1.293614,-13.659269
11.185,2.0,1.0,1.0,33.3,34.8,34.8,2.1,3.9,2.725,0.09290139884046493,-0.19677891752945378,0.8366665385348369,-0.11352395816754796,-1.495734,-12.872692
11.185,2.0,1.0,1.0,33.3,34.8,34.8,2.1,3.9,2.7275,0.07030022915038336,-0.20729843237300513,0.8144180268109525,-0.13918534686527365,-1.750813,-12.05197
11.185,2.0,1.0,1.0,33.3,34.8,34.8,2.1,3.9,2.73,0.049487421566670936,-0.21581777960327764,0.785866888453666,-0.17101977864805118,-2.075833,-11.201871
11.185,2.0,1.0,1.0,33.3,34.8,34.8,2.1,3.9,2.7325,0.03264563170644328,-0.22015353029254167,0.7498957118993547,-0.21013553286483905,-2.49176,-10.33274
11.185,2.0,1.0,1.0,33.3,34.8,34.8,2.1,3.9,2.735,0.02318678794973916,-0.21689477614315594,0.7059329727617207,-0.25709604123570695,-3.020048,-9.463772
11.185,2.0,1.0,1.0,33.3,34.8,34.8,2.1,3.9,2.7375,0.02590017337593908,-0.20125425958259816,0.6549442069228978,-0.3109298075704302,-3.669127,-8.627072
11.185,2.0,1.0,1.0,33.3,34.8,34.8,2.1,3.9,2.74,0.04629292512333271,-0.16772632200783522,0.6009509689895615,-0.36761137345940337,-4.397524,-7.87093
11.185,2.0,1.0,1.0,33.3,34.8,34.8,2.1,3.9,2.7425,0.08825766682027644,-0.112419306573997,0.5523241581248256,-0.41876601553718423,-5.046619,-7.25835
11.185,2.0,1.0,1.0,33.3,34.8,34.8,2.1,3.9,2.745,0.15012594776566507,-0.03700659715145246,0.5207780530944297,-0.45267606416005784,-5.320257,-6.855321
11.185,2.0,1.0,1.0,33.3,34.8,34.8,2.1,3.9,2.7475,0.22207478403311945,0.04867797084206477,0.5162789650454225,-0.4593823404558253,-5.005037,-6.708022
11.185,2.0,1.0,1.0,33.3,34.8,34.8,2.1,3.9,2.75,0.289255909163862,0.129785096345904,0.540619728533272,-0.437119492577508,-4.24883,-6.821087
11.185,2.0,1.0,1.0,33.3,34.8,34.8,2.1,3.9,2.7525,0.33950623705307953,0.19418196547289338,0.5862491044640044,-0.3934711110301286,-3.382323,-7.155103
11.185,2.0,1.0,1.0,33.3,34.8,34.8,2.1,3.9,2.755,0.3683665236438889,0.23746454852414053,0.6416538120752059,-0.3399579149496282,-2.616845,-7.645706
11.185,2.0,1.0,1.0,33.3,34.8,34.8,2.1,3.9,2.7575,0.3779681591941074,0.26181645779575424,0.6972950095663438,-0.2860939770223766,-2.012939,-8.22759
11.185,2.0,1.0,1.0,33.3,34.8,34.8,2.1,3.9,2.76,0.3732137477864463,0.2721727738451375,0.7477861971690016,-0.237225005481967,-1.558506,-8.848766
11.185,2.0,1.0,1.0,33.3,34.8,34.8,2.1,3.9,2.7625,0.3589520906669339,0.2733969808638322,0.7911485732218346,-0.19528951042562076,-1.221896,-9.47368
11.185,2.0,1.0,1.0,33.3,34.8,34.8,2.1,3.9,2.765,0.33888902393377235,0.26920055651507874,0.8273413008276145,-0.16029515394400892,-0.972688,-10.080501
11.185,2.0,1.0,1.0,33.3,34.8,34.8,2.1,3.9,2.7675,0.31551978099037564,0.2620822732703421,0.857152764455787,-0.1314271942390343,-0.786967,-10.657025
11.185,2.0,1.0,1.0,33.3,34.8,34.8,2.1,3.9,2.77,0.29040589173384496,0.25360863237800824,0.8815919308975187,-0.10765458689953869,-0.647246,-11.19719
11.185,2.0,1.0,1.0,33.3,34.8,34.8,2.1,3.9,2.7725,0.2644763320357239,0.24471627184986308,0.901617608368797,-0.08799827516295632,-0.541072,-11.698622
11.185,2.0,1.0,1.0,33.3,34.8,34.8,2.1,3.9,2.775,0.23825827987878043,0.2359429087568484,0.9180451145679928,-0.07162274807775706,-0.459632,-12.161045
11.185,2.0,1.0,1.0,33.3,34.8,34.8,2.1,3.9,2.7775,0.21203249517153985,0.22758253144475923,0.9315324556388387,-0.05784868767572785,-0.39667,-12.58531
11.185,2.0,1.0,1.0,33.3,34.8,34.8,2.1,3.9,2.78,0.18593182714251247,0.21978365882280027,0.9425966395333538,-0.04613587082463741,-0.347705,-12.97282
11.185,2.0,1.0,1.0,33.3,34.8,34.8,2.1,3.9,2.7825,0.16000179472948997,0.21260972483116897,0.9516380049272264,-0.03605826714282276,-0.309498,-13.325182
11.185,2.0,1.0,1.0,33.3,34.8,34.8,2.1,3.9,2.785,0.13423723785938252,0.2060756124080923,0.958963754935375,-0.0272800240055176,-0.27968,-13.644021
11.185,2.0,1.0,1.0,33.3,34.8,34.8,2.1,3.9,2.7875,0.10860426196007043,0.2001695544074806,0.9648078290582327,-0.019535129543629355,-0.2565,-13.930871
11.185,2.0,1.0,1.0,33.3,34.8,34.8,2.1,3.9,2.79,0.08305325093209115,0.19486616331063697,0.9693466828822032,-0.012611135429838449,-0.238652,-14.18712
11.185,2.0,1.0,1.0,33.3,34.8,34.8,2.1,3.9,2.7925,0.05752648180246722,0.1901341092201525,0.9727114175465256,-0.006336463142218066,-0.225156,-14.413979
11.185,2.0,1.0,1.0,33.3,34.8,34.8,2.1,3.9,2.795,0.031962481857273045,0.18594057494163865,0.9749969194829239,-0.0005706051511477612,-0.21527,-14.612476
11.185,2.0,1.0,1.0,33.3,34.8,34.8,2.1,3.9,2.7975,0.006298422250604007,0.182253771702593,0.9762686401471125,0.004803435634017707,-0.208432,-14.783454
11.185,2.0,1.0,1.0,33.3,34.8,34.8,2.1,3.9,2.8,-0.0195286684391759,0.179044289056036,0.9765675369430854,0.009885018657946373,-0.204218,-14.927573
11.185,2.0,1.0,1.0,33.3,34.8,34.8,2.1,3.9,2.8025,-0.045581394166891526,0.17628574476088896,0.9759135781037896,0.014760487823786831,-0.202309,-15.045315
11.185,2.0,1.0,1.0,33.3,34.8,34.8,2.1,3.9,2.805,-0.07192189263911974,0.17395501370681585,0.9743081092215534,0.019506882346062043,-0.202472,-15.13699
11.185,2.0,1.0,1.0,33.3,34.8,34.8,2.1,3.9,2.8075,-0.09861196566925909,0.17203220037763128,0.9717352925172638,0.024194999198494518,-0.204544,-15.202739
11.185,2.0,1.0,1.0,33.3,34.8,34.8,2.1,3.9,2.81,-0.12571332125052326,0.17050044754446175,0.9681627600940632,0.028892013196038603,-0.20842,-15.24254
11.185,2.0,1.0,1.0,33.3,34.8,34.8,2.1,3.9,2.8125,-0.153287846036428,0.169345627005845,0.963541565557034,0.0336638206423927,-0.214043,-15.256206
11.185,2.0,1.0,1.0,33.3,34.8,34.8,2.1,3.9,2.815,-0.18139784399708378,0.1685559251139082,0.957805470453552,0.038577245974888284,-0.221409,-15.243389
11.185,2.0,1.0,1.0,33.3,34.8,34.8,2.1,3.9,2.8175,-0.2101061800604951,0.16812130918216014,0.9508695592852975,0.04370223544995865,-0.230554,-15.203576
11.185,2.0,1.0,1.0,33.3,34.8,34.8,2.1,3.9,2.82,-0.23947625841401823,0.16803283522221427,0.9426281360793737,0.04911415583000493,-0.241563,-15.136087
11.185,2.0,1.0,1.0,33.3,34.8,34.8,2.1,3.9,2.8225,-0.26957174321724164,0.16828172801935343,0.9329518137752993,0.05489631803977447,-0.25457,-15.040071
11.185,2.0,1.0,1.0,33.3,34.8,34.8,2.1,3.9,2.825,-0.3004558917380935,0.16885812617847992,0.9216836624131072,0.06114285500707756,-0.269763,-14.914499
11.185,2.0,1.0,1.0,33.3,34.8,34.8,2.1,3.9,2.8275,-0.3321903104826276,0.1697493309115515,0.9086342311442592,0.0679620985418512,-0.287397,-14.758158
11.185,2.0,1.0,1.0,33.3,34.8,34.8,2.1,3.9,2.83,-0.36483285397497145,0.17093731882128604,0.8935752010807428,0.07548062066163265,-0.3078,-14.569644
