1,w,sub_t,h,l1,l2,l3,g1,g2,Freq,S11_re,S21_re,S11_img,S21_img,S11_dB,S21_dB
11.185,2.0,1.0,1.0,33.0,34.5,34.5,2.6,2.9,2.5,0.895203484735845,-0.00687715812482236,0.431428506705625,0.0074017132183943,-0.054542,-39.910565
11.185,2.0,1.0,1.0,33.0,34.5,34.5,2.6,2.9,2.5025,0.8924821556500362,-0.007036538161534464,0.4368884881478816,0.007465524578078067,-0.055087,-39.777906
11.185,2.0,1.0,1.0,33.0,34.5,34.5,2.6,2.9,2.505,0.8897158700204169,-0.007199392351618961,0.4423519963746624,0.007529519631302862,-0.055642,-39.644705
11.185,2.0,1.0,1.0,33.0,34.5,34.5,2.6,2.9,2.5075,0.8869041576128136,-0.007365813837956879,0.4478189223222961,0.0075936881758521,-0.056209,-39.51095
11.185,2.0,1.0,1.0,33.0,34.5,34.5,2.6,2.9,2.51,0.8840465383918126,-0.007535899049592943,0.4532891531717199,0.00765801930960307,-0.056787,-39.376624
11.185,2.0,1.0,1.0,33.0,34.5,34.5,2.6,2.9,2.5125,0.881142522247055,-0.00770974784572854,0.45876257219787636,0.00772250138703606,-0.057377,-39.241712
11.185,2.0,1.0,1.0,33.0,34.5,34.5,2.6,2.9,2.515,0.87819160870893,-0.007887463667250459,0.4642390586126531,0.007787121972840731,-0.05798,-39.106201
11.185,2.0,1.0,1.0,33.0,34.5,34.5,2.6,2.9,2.5175,0.8751932866531241,-0.008069153696253885,0.4697184874010093,0.007851867792404583,-0.058594,-38.970073
11.185,2.0,1.0,1.0,33.0,34.5,34.5,2.6,2.9,2.52,0.8721470339934319,-0.008254929024051033,0.47520072914994366,0.007916724678950937,-0.059222,-38.833312
11.185,2.0,1.0,1.0,33.0,34.5,34.5,2.6,2.9,2.5225,0.8690523173622137,-0.008444904828189635,0.48068564986988477,0.007981677517074862,-0.059863,-38.695903
11.185,2.0,1.0,1.0,33.0,34.5,34.5,2.6,2.9,2.525,0.8659085917778239,-0.008639200559044803,0.4861731108081118,0.008046710182403664,-0.060517,-38.557829
11.185,2.0,1.0,1.0,33.0,34.5,34.5,2.6,2.9,2.5275,0.8627153002983056,-0.008837940136585981,0.4916629682537465,0.008111805477086315,-0.061186,-38.419073
11.185,2.0,1.0,1.0,33.0,34.5,34.5,2.6,2.9,2.53,0.8594718736605935,-0.009041252157963689,0.497155073333839,0.008176945060790804,-0.061869,-38.279617
11.185,2.0,1.0,1.0,33.0,34.5,34.5,2.6,2.9,2.5325,0.8561777299044139,-0.009249270116609594,0.5026492718000343,0.008242109376860176,-0.062567,-38.139443
11.185,2.0,1.0,1.0,33.0,34.5,34.5,2.6,2.9,2.535,0.852832273980018,-0.0094621326335918,0.5081454038052814,0.008307277573249262,-0.063281,-37.998534
11.185,2.0,1.0,1.0,33.0,34.5,34.5,2.6,2.9,2.5375,0.8494348973388257,-0.009679983702022141,0.5136433036699751,0.008372427417829235,-0.064011,-37.856871
11.185,2.0,1.0,1.0,33.0,34.5,34.5,2.6,2.9,2.54,0.8459849775059851,-0.009902972945372674,0.5191427996369163,0.008437535207613124,-0.064757,-37.714434
11.185,2.0,1.0,1.0,33.0,34.5,34.5,2.6,2.9,2.5425,0.8424818776337955,-0.010131255890621383,0.5246437136144001,0.008502575671413206,-0.06552,-37.571205
11.185,2.0,1.0,1.0,33.0,34.5,34.5,2.6,2.9,2.545,0.8389249460348496,-0.01036499425721647,0.5301458609067029,0.008567521865399741,-0.0663,-37.427162
11.185,2.0,1.0,1.0,33.0,34.5,34.5,2.6,2.9,2.5475,0.8353135156936914,-0.0106043562629244,0.5356490499311716,0.008632345060980689,-0.067099,-37.282286
11.185,2.0,1.0,1.0,33.0,34.5,34.5,2.6,2.9,2.55,0.8316469037556646,-0.010849516947708998,0.5411530819210747,0.008697014624370768,-0.067917,-37.136556
11.185,2.0,1.0,1.0,33.0,34.5,34.5,2.6,2.9,2.5525,0.8279244109915719,-0.011100658516875849,0.546657750613283,0.00876149788715865,-0.068754,-36.989951
11.185,2.0,1.0,1.0,33.0,34.5,34.5,2.6,2.9,2.555,0.8241453212366205,-0.011357970704814311,0.5521628419197941,0.008825760007118443,-0.069611,-36.842447
11.185,2.0,1.0,1.0,33.0,34.5,34.5,2.6,2.9,2.5575,0.8203089008020406,-0.011621651160774144,0.5576681335820237,0.008889763818439235,-0.070488,-36.694022
11.185,2.0,1.0,1.0,33.0,34.5,34.5,2.6,2.9,2.56,0.816414397857638,-0.01189190585822654,0.5631733948066964,0.008953469670470445,-0.071388,-36.544654
11.185,2.0,1.0,1.0,33.0,34.5,34.5,2.6,2.9,2.5625,0.8124610417833975,-0.01216894952948524,0.5686783858820729,0.009016835253992501,-0.072309,-36.394319
11.185,2.0,1.0,1.0,33.0,34.5,34.5,2.6,2.9,2.565,0.8084480424881163,-0.01245300612739771,0.5741828577731498,0.00907981541392867,-0.073254,-36.242991
11.185,2.0,1.0,1.0,33.0,34.5,34.5,2.6,2.9,2.5675,0.8043745896928924,-0.012744309316064108,0.5796865516943295,0.009142361947307059,-0.074222,-36.090645
11.185,2.0,1.0,1.0,33.0,34.5,34.5,2.6,2.9,2.57,0.8002398521771033,-0.013043102992703552,0.5851891986579463,0.009204423385165946,-0.075215,-35.937257
11.185,2.0,1.0,1.0,33.0,34.5,34.5,2.6,2.9,2.5725,0.7960429769843446,-0.013349641842962662,0.5906905189968906,0.009265944756964985,-0.076234,-35.782798
11.185,2.0,1.0,1.0,33.0,34.5,34.5,2.6,2.9,2.575,0.7917830885855687,-0.013664191932154146,0.5961902218593893,0.009326867335921467,-0.077279,-35.627243
11.185,2.0,1.0,1.0,33.0,34.5,34.5,2.6,2.9,2.5775,0.7874592879964644,-0.013987031335122847,0.601688004673858,0.009387128363530603,-0.078352,-35.470561
11.185,2.0,1.0,1.0,33.0,34.5,34.5,2.6,2.9,2.58,0.7830706518458472,-0.014318450807667804,0.6071835525815096,0.009446660751350389,-0.079453,-35.312726
11.185,2.0,1.0,1.0,33.0,34.5,34.5,2.6,2.9,2.5825,0.778616231391582,-0.014658754502701498,0.6126765378342229,0.00950539275793448,-0.080585,-35.153705
11.185,2.0,1.0,1.0,33.0,34.5,34.5,2.6,2.9,2.585,0.7740950514802558,-0.015008260734602987,0.6181666191549066,0.009563247638573876,-0.081747,-34.99347
11.185,2.0,1.0,1.0,33.0,34.5,34.5,2.6,2.9,2.5875,0.7695061094464934,-0.015367302795526637,0.6236534410573323,0.009620143265263505,-0.082941,-34.831988
11.185,2.0,1.0,1.0,33.0,34.5,34.5,2.6,2.9,2.59,0.7648483739474659,-0.01573622982776045,0.629136633122127,0.009675991714032488,-0.084169,-34.669226
11.185,2.0,1.0,1.0,33.0,34.5,34.5,2.6,2.9,2.5925,0.7601207837277443,-0.016115407756595666,0.6346158092252665,0.009730698816469633,-0.085432,-34.50515
11.185,2.0,1.0,1.0,33.0,34.5,34.5,2.6,2.9,2.595,0.7553222463092313,-0.016505220288571435,0.6400905667150415,0.009784163671930647,-0.086731,-34.339727
11.185,2.0,1.0,1.0,33.0,34.5,34.5,2.6,2.9,2.5975,0.750451636600429,-0.01690606998040203,0.6455604855330721,0.009836278116525817,-0.088067,-34.172918
11.185,2.0,1.0,1.0,33.0,34.5,34.5,2.6,2.9,2.6,0.7455077954187861,-0.017318379384386483,0.6510251272744653,0.009886926144553375,-0.089443,-34.004689
11.185,2.0,1.0,1.0,33.0,34.5,34.5,2.6,2.9,2.6025,0.7404895279193132,-0.017742592276632742,0.6564840341816925,0.009935983277554664,-0.09086,-33.835
11.185,2.0,1.0,1.0,33.0,34.5,34.5,2.6,2.9,2.605,0.7353956019220028,-0.018179174975033227,0.6619367280661989,0.009983315875618811,-0.09232,-33.663811
11.185,2.0,1.0,1.0,33.0,34.5,34.5,2.6,2.9,2.6075,0.7302247461299256,-0.018628617754577224,0.6673827091510789,0.010028780384944364,-0.093824,-33.491081
11.185,2.0,1.0,1.0,33.0,34.5,34.5,2.6,2.9,2.61,0.7249756482290981,-0.019091436368320013,0.672821454827442,0.010072222514967782,-0.095375,-33.316769
11.185,2.0,1.0,1.0,33.0,34.5,34.5,2.6,2.9,2.6125,0.7196469528603732,-0.019568173683127764,0.6782524183162324,0.010113476337578526,-0.096975,-33.140829
11.185,2.0,1.0,1.0,33.0,34.5,34.5,2.6,2.9,2.615,0.7142372594526739,-0.020059401440214196,0.6836750272263736,0.010152363300048546,-0.098626,-32.963217
11.185,2.0,1.0,1.0,33.0,34.5,34.5,2.6,2.9,2.6175,0.7087451199058631,-0.020565722151467743,0.6890886819990087,0.010188691142291078,-0.10033,-32.783886
11.185,2.0,1.0,1.0,33.0,34.5,34.5,2.6,2.9,2.62,0.7031690361103867,-0.021087771143668263,0.6944927542264304,0.010222252707916555,-0.102091,-32.602785
11.185,2.0,1.0,1.0,33.0,34.5,34.5,2.6,2.9,2.6225,0.6975074572895573,-0.02162621876391021,0.6998865848329561,0.010252824637248548,-0.10391,-32.419866
11.185,2.0,1.0,1.0,33.0,34.5,34.5,2.6,2.9,2.625,0.691758777148952,-0.0221817727608995,0.705269482103414,0.010280165928978,-0.10579,-32.235074
11.185,2.0,1.0,1.0,33.0,34.5,34.5,2.6,2.9,2.6275,0.6859213308157934,-0.0227551808583033,0.7106407195432111,0.010304016355442263,-0.107735,-32.048356
11.185,2.0,1.0,1.0,33.0,34.5,34.5,2.6,2.9,2.63,0.6799933915494789,-0.023347233538003463,0.7159995335519104,0.010324094714582573,-0.109747,-31.859654
11.185,2.0,1.0,1.0,33.0,34.5,34.5,2.6,2.9,2.6325,0.6739731672024474,-0.023958767052978377,0.7213451208899916,0.010340096899426268,-0.111831,-31.668911
11.185,2.0,1.0,1.0,33.0,34.5,34.5,2.6,2.9,2.635,0.6678587964084238,-0.024590666691619467,0.726676635915854,0.010351693763407045,-0.11399,-31.476064
11.185,2.0,1.0,1.0,33.0,34.5,34.5,2.6,2.9,2.6375,0.6616483444726706,-0.02524387031761983,0.7319931875671328,0.010358528756935846,-0.116228,-31.281049
11.185,2.0,1.0,1.0,33.0,34.5,34.5,2.6,2.9,2.64,0.6553397989361501,-0.02591937221217119,0.7372938360569836,0.010360215307296482,-0.118548,-31.083801
11.185,2.0,1.0,1.0,33.0,34.5,34.5,2.6,2.9,2.6425,0.6489310647825307,-0.02661822724811515,0.742577589252042,0.010356333910097567,-0.120957,-30.88425
11.185,2.0,1.0,1.0,33.0,34.5,34.5,2.6,2.9,2.645,0.6424199592535668,-0.027341555428947426,0.7478433986942269,0.01034642889608047,-0.123457,-30.682324
11.185,2.0,1.0,1.0,33.0,34.5,34.5,2.6,2.9,2.6475,0.635804206234633,-0.028090546829219482,0.7530901552233257,0.010330004831960123,-0.126056,-30.477948
11.185,2.0,1.0,1.0,33.0,34.5,34.5,2.6,2.9,2.65,0.6290814301679543,-0.02886646697696491,0.7583166841512515,0.01030652250804143,-0.128758,-30.271045
11.185,2.0,1.0,1.0,33.0,34.5,34.5,2.6,2.9,2.6525,0.6222491494463824,-0.02967066272335322,0.7635217399318075,0.010275394458473806,-0.131569,-30.061531
11.185,2.0,1.0,1.0,33.0,34.5,34.5,2.6,2.9,2.655,0.6153047692352168,-0.030504568649911,0.768704000261698,0.010235979952000183,-0.134496,-29.849321
11.185,2.0,1.0,1.0,33.0,34.5,34.5,2.6,2.9,2.6575,0.6082455736636748,-0.03136971406940864,0.7738620595389889,0.010187579381735602,-0.137546,-29.634327
11.185,2.0,1.0,1.0,33.0,34.5,34.5,2.6,2.9,2.66,0.6010687173209186,-0.03226773068297967,0.7789944215941915,0.010129427971622307,-0.140726,-29.416454
11.185,2.0,1.0,1.0,33.0,34.5,34.5,2.6,2.9,2.6625,0.5937712159840883,-0.033200360963291535,0.7840994915961846,0.010060688704470034,-0.144046,-29.195606
11.185,2.0,1.0,1.0,33.0,34.5,34.5,2.6,2.9,2.665,0.5863499364973799,-0.034169467341740985,0.7891755670200616,0.009980444361550345,-0.147513,-28.971679
11.185,2.0,1.0,1.0,33.0,34.5,34.5,2.6,2.9,2.6675,0.5788015857118254,-0.035177042286775026,0.7942208275461584,0.00988768854615153,-0.151137,-28.744567
11.185,2.0,1.0,1.0,33.0,34.5,34.5,2.6,2.9,2.67,0.5711226983848565,-0.03622521937070073,0.7992333237385965,0.009781315542808483,-0.154929,-28.514157
11.185,2.0,1.0,1.0,33.0,34.5,34.5,2.6,2.9,2.6725,0.5633096239269361,-0.037316285433815134,0.8042109643269182,0.009660108839478744,-0.158901,-28.28033
11.185,2.0,1.0,1.0,33.0,34.5,34.5,2.6,2.9,2.675,0.5553585118693225,-0.03845269396754654,0.809151501885135,0.009522728110995062,-0.163064,-28.042962
11.185,2.0,1.0,1.0,33.0,34.5,34.5,2.6,2.9,2.6775,0.5472652959122759,-0.039637079852632665,0.8140525166677924,0.00936769442776514,-0.167433,-27.801924
11.185,2.0,1.0,1.0,33.0,34.5,34.5,2.6,2.9,2.68,0.5390256763965628,-0.04087227560435427,0.8189113983213567,0.009193373412793712,-0.172023,-27.557078
11.185,2.0,1.0,1.0,33.0,34.5,34.5,2.6,2.9,2.6825,0.5306351010228848,-0.04216132929457058,0.8237253251399553,0.00899795602129214,-0.176849,-27.308279
11.185,2.0,1.0,1.0,33.0,34.5,34.5,2.6,2.9,2.685,0.5220887436236524,-0.04350752433992102,0.8284912404755973,0.008779436558726528,-0.18193,-27.055375
11.185,2.0,1.0,1.0,33.0,34.5,34.5,2.6,2.9,2.6875,0.5133814807693546,-0.04491440136708068,0.8332058258423048,0.008535587483048961,-0.187286,-26.798205
11.185,2.0,1.0,1.0,33.0,34.5,34.5,2.6,2.9,2.69,0.5045078659675974,-0.04638578238942534,0.8378654701685512,0.008263930452469804,-0.192938,-26.536601
11.185,2.0,1.0,1.0,33.0,34.5,34.5,2.6,2.9,2.6925,0.4954621011867401,-0.047925797554750696,0.8424662345497914,0.007961702978259542,-0.198911,-26.270382
11.185,2.0,1.0,1.0,33.0,34.5,34.5,2.6,2.9,2.695,0.48623800540836026,-0.049538914750506494,0.8470038117286427,0.007625819918712366,-0.205232,-25.999359
11.185,2.0,1.0,1.0,33.0,34.5,34.5,2.6,2.9,2.6975,0.47682897988377915,-0.051229972380893815,0.8514734793795031,0.007252828900574482,-0.211929,-25.723332
11.185,2.0,1.0,1.0,33.0,34.5,34.5,2.6,2.9,2.7,0.46722796974075737,-0.05300421565816126,0.855870046090639,0.006838858571676909,-0.219037,-25.442088
11.185,2.0,1.0,1.0,33.0,34.5,34.5,2.6,2.9,2.7025,0.457427421558314,-0.05486733677717409,0.8601877887123488,0.006379558365353875,-0.226593,-25.155402
11.185,2.0,1.0,1.0,33.0,34.5,34.5,2.6,2.9,2.705,0.4474192365028967,-0.05682551936554006,0.8644203794645372,0.005870028183555301,-0.234636,-24.863035
11.185,2.0,1.0,1.0,33.0,34.5,34.5,2.6,2.9,2.7075,0.43719471860097175,-0.058885487617922255,0.8685608008585274,0.005304736068837444,-0.243214,-24.564732
11.185,2.0,1.0,1.0,33.0,34.5,34.5,2.6,2.9,2.71,0.42674451771667865,-0.06105456052757231,0.8726012460700376,0.004677421519733733,-0.252379,-24.260223
11.185,2.0,1.0,1.0,33.0,34.5,34.5,2.6,2.9,2.7125,0.4160585668157959,-0.0633407116131391,0.876533001882845,0.003980981589149305,-0.26219,-23.94922
11.185,2.0,1.0,1.0,33.0,34.5,34.5,2.6,2.9,2.715,0.4051260131399618,-0.06575263449342802,0.8803463106796545,0.0032073362655961513,-0.272712,-23.631416
11.185,2.0,1.0,1.0,33.0,34.5,34.5,2.6,2.9,2.7175,0.3939351430037941,-0.0682998145709494,0.8840302071551834,0.002347268839364665,-0.284021,-23.306483
11.185,2.0,1.0,1.0,33.0,34.5,34.5,2.6,2.9,2.72,0.3824733000857487,-0.07099260692330998,0.8875723244240158,0.0013902359579407403,-0.296204,-22.974072
11.185,2.0,1.0,1.0,33.0,34.5,34.5,2.6,2.9,2.7225,0.370726797345352,-0.07384232023554019,0.8909586629381345,0.00032414082311201946,-0.309357,-22.63381
11.185,2.0,1.0,1.0,33.0,34.5,34.5,2.6,2.9,2.725,0.35868082311480404,-0.0768613061863547,0.8941733140466412,-0.0008649385929782223,-0.323594,-22.285295
11.185,2.0,1.0,1.0,33.0,34.5,34.5,2.6,2.9,2.7275,0.3463193425545227,-0.08006305305424306,0.8971981280338899,-0.0021930764227948533,-0.339045,-21.9281
11.185,2.0,1.0,1.0,33.0,34.5,34.5,2.6,2.9,2.73,0.3336249966368378,-0.08346228132850034,0.900012313948103,-0.003678893491963589,-0.355858,-21.561765
11.185,2.0,1.0,1.0,33.0,34.5,34.5,2.6,2.9,2.7325,0.32057900228573444,-0.08707503763955927,0.902591955335489,-0.005344035426257313,-0.374208,-21.185799
11.185,2.0,1.0,1.0,33.0,34.5,34.5,2.6,2.9,2.735,0.3071610594834126,-0.0909187811324535,0.9049094219416365,-0.007213754115968436,-0.394298,-20.799674
11.185,2.0,1.0,1.0,33.0,34.5,34.5,2.6,2.9,2.7375,0.29334927439533304,-0.09501245315805787,0.9069326523037907,-0.009317617489809983,-0.416365,-20.402822
11.185,2.0,1.0,1.0,33.0,34.5,34.5,2.6,2.9,2.74,0.27912011236632567,-0.0993765163475514,0.9086242756546875,-0.011690379020561201,-0.440689,-19.994637
11.185,2.0,1.0,1.0,33.0,34.5,34.5,2.6,2.9,2.7425,0.26444840174614637,-0.10403294202215119,0.9099405333595955,-0.014373046540102888,-0.467601,-19.574466
11.185,2.0,1.0,1.0,33.0,34.5,34.5,2.6,2.9,2.745,0.24930742002342318,-0.10900511436455955,0.910829949843004,-0.01741420014845493,-0.497494,-19.141613
11.185,2.0,1.0,1.0,33.0,34.5,34.5,2.6,2.9,2.7475,0.23366910933887275,-0.11431760418687868,0.9112316902618103,-0.020871621622721666,-0.53084,-18.695331
11.185,2.0,1.0,1.0,33.0,34.5,34.5,2.6,2.9,2.75,0.217504491590115,-0.119995741999147,0.911073526779494,-0.024814313028438,-0.568206,-18.234825
11.185,2.0,1.0,1.0,33.0,34.5,34.5,2.6,2.9,2.7525,0.2007843877384091,-0.1260648857150008,0.9102693172323478,-0.029325000155921755,-0.610279,-17.759253
11.185,2.0,1.0,1.0,33.0,34.5,34.5,2.6,2.9,2.755,0.1834805971170773,-0.1325492272066932,0.9087158800324,-0.03450323615632757,-0.657897,-17.267725
11.185,2.0,1.0,1.0,33.0,34.5,34.5,2.6,2.9,2.7575,0.16556776874108375,-0.1394699058480726,0.906289129672519,-0.04046923996874214,-0.712086,-16.759314
11.185,2.0,1.0,1.0,33.0,34.5,34.5,2.6,2.9,2.76,0.14702630989815976,-0.14684208413457067,0.902839323709091,-0.04736861726828973,-0.774118,-16.233066
11.185,2.0,1.0,1.0,33.0,34.5,34.5,2.6,2.9,2.7625,0.1278468450367128,-0.15467047314551563,0.8981852762977452,-0.05537810700359072,-0.845571,-15.688021
11.185,2.0,1.0,1.0,33.0,34.5,34.5,2.6,2.9,2.765,0.10803698426042478,-0.16294255003528937,0.892107438684188,-0.06471245068063496,-0.928426,-15.123247
11.185,2.0,1.0,1.0,33.0,34.5,34.5,2.6,2.9,2.7675,0.08763151679707147,-0.17161835490891414,0.8843398787302746,-0.075632349182317,-1.025179,-14.537892
11.185,2.0,1.0,1.0,33.0,34.5,34.5,2.6,2.9,2.77,0.06670764534791433,-0.18061525596933242,0.8745614942573374,-0.08845316851777534,-1.138999,-13.931262
11.185,2.0,1.0,1.0,33.0,34.5,34.5,2.6,2.9,2.7725,0.0454075458120043,-0.18978540666705646,0.8623874224024153,-0.1035534280867227,-1.273928,-13.302944
11.185,2.0,1.0,1.0,33.0,34.5,34.5,2.6,2.9,2.775,0.023971343841943556,-0.1988828171569846,0.8473628273754281,-0.1213808854967168,-1.435138,-12.652986
11.185,2.0,1.0,1.0,33.0,34.5,34.5,2.6,2.9,2.7775,0.00278435800339535,-0.20751621259960543,0.8289635018038237,-0.14245178251718776,-1.629243,-11.982158
11.185,2.0,1.0,1.0,33.0,34.5,34.5,2.6,2.9,2.78,-0.017557406851340253,-0.21508372918675384,0.806611648434566,-0.16733489463756174,-1.864653,-11.292335
11.185,2.0,1.0,1.0,33.0,34.5,34.5,2.6,2.9,2.7825,-0.03616144535242498,-0.22068742637012662,0.7797215553842335,-0.19660570231321128,-2.151878,-10.587036
11.185,2.0,1.0,1.0,33.0,34.5,34.5,2.6,2.9,2.785,-0.05173752375656317,-0.22303258170183213,0.7477988397910764,-0.23074708542874667,-2.503565,-9.872144
11.185,2.0,1.0,1.0,33.0,34.5,34.5,2.6,2.9,2.7875,-0.06250335213697325,-0.22033412502258976,0.7106262555918009,-0.2699637021266191,-2.933707,-9.156828
11.185,2.0,1.0,1.0,33.0,34.5,34.5,2.6,2.9,2.79,-0.06615415007125137,-0.21028715652428098,0.6685696774793086,-0.31387671223732766,-3.454752,-8.454565
11.185,2.0,1.0,1.0,33.0,34.5,34.5,2.6,2.9,2.7925,-0.06000618916791108,-0.19021133284680275,0.6230074554162417,-0.3610960160977177,-4.070032,-7.784014
11.185,2.0,1.0,1.0,33.0,34.5,34.5,2.6,2.9,2.795,-0.041470197095043904,-0.15752424229806536,0.5767891778659173,-0.4087642107120691,-4.757265,-7.169203
11.185,2.0,1.0,1.0,33.0,34.5,34.5,2.6,2.9,2.7975,-0.008965035466640495,-0.11065293245519489,0.5344502005765017,-0.4523454464169356,-5.440633,-6.638196
11.185,2.0,1.0,1.0,33.0,34.5,34.5,2.6,2.9,2.8,0.03688146238109318,-0.050229491941552726,0.5017459004752587,-0.48609332905123337,-5.966921,-6.21948
11.185,2.0,1.0,1.0,33.0,34.5,34.5,2.6,2.9,2.8025,0.09236705329704069,0.02005078972174892,0.4842150075240138,-0.5044854562041695,-6.144012,-5.936172
11.185,2.0,1.0,1.0,33.0,34.5,34.5,2.6,2.9,2.805,0.15105130067517444,0.09377061898752374,0.485167174249098,-0.5042279112051622,-5.880376,-5.799803
11.185,2.0,1.0,1.0,33.0,34.5,34.5,2.6,2.9,2.8075,0.20555976738070633,0.16359275966934478,0.504274583959229,-0.48565331531472866,-5.279055,-5.806693
11.185,2.0,1.0,1.0,33.0,34.5,34.5,2.6,2.9,2.81,0.24992161230263452,0.22358864719214358,0.5377964587318778,-0.45249040218808667,-4.538451,-5.939038
11.185,2.0,1.0,1.0,33.0,34.5,34.5,2.6,2.9,2.8125,0.281021682526059,0.270680777764639,0.580231198716888,-0.410213892028257,-3.812812,-6.170046
11.185,2.0,1.0,1.0,33.0,34.5,34.5,2.6,2.9,2.815,0.298584795699629,0.30462231632377096,0.6262061077767093,-0.3641616648007126,-3.175959,-6.470298
11.185,2.0,1.0,1.0,33.0,34.5,34.5,2.6,2.9,2.8175,0.30421065758390914,0.3270329350071556,0.6716323881781692,-0.3183862182572442,-2.646932,-6.812684
11.185,2.0,1.0,1.0,33.0,34.5,34.5,2.6,2.9,2.82,0.3002789460150192,0.3403074886555045,0.7139738908853656,-0.27538920420233853,-2.219022,-7.174948
11.185,2.0,1.0,1.0,33.0,34.5,34.5,2.6,2.9,2.8225,0.28918667649957286,0.34685692902872195,0.7519832258586024,-0.2363857448679147,-1.876832,-7.540238
11.185,2.0,1.0,1.0,33.0,34.5,34.5,2.6,2.9,2.825,0.272976304420855,0.3487388261516674,0.7852824328713253,-0.2017226947850554,-1.60406,-7.896525
11.185,2.0,1.0,1.0,33.0,34.5,34.5,2.6,2.9,2.8275,0.25323265317813065,0.34755562623995057,0.8139944389005352,-0.1712456853331404,-1.386366,-8.235614
11.185,2.0,1.0,1.0,33.0,34.5,34.5,2.6,2.9,2.83,0.23111538648626231,0.3444877599376467,0.8384855840605163,-0.14455516291482937,-1.212069,-8.552141
