1,w,sub_t,h,l1,l2,l3,g1,g2,Freq,S11_re,S21_re,S11_img,S21_img,S11_dB,S21_dB
11.185,2.0,1.0,1.0,33.4,34.7,34.7,3.8,4.0,2.5,0.859141286459876,-0.00574732646291712,0.499381928501607,0.00394435688395291,-0.054602,-43.134557
11.185,2.0,1.0,1.0,33.4,34.7,34.7,3.8,4.0,2.5025,0.8558249119079606,-0.005869030805038917,0.5049192038306809,0.003962350082905716,-0.055158,-42.997659
11.185,2.0,1.0,1.0,33.4,34.7,34.7,3.8,4.0,2.505,0.8524581059546643,-0.005993301767970628,0.5104566120319592,0.003979907676526702,-0.055725,-42.860113
11.185,2.0,1.0,1.0,33.4,34.7,34.7,3.8,4.0,2.5075,0.8490403464429201,-0.0061202125213082005,0.5159939454592496,0.003997008557459105,-0.056304,-42.721898
11.185,2.0,1.0,1.0,33.4,34.7,34.7,3.8,4.0,2.51,0.845571101186432,-0.00624983918579874,0.5215309900377194,0.004013630629240707,-0.056894,-42.582992
11.185,2.0,1.0,1.0,33.4,34.7,34.7,3.8,4.0,2.5125,0.8420498276967303,-0.006382260987420961,0.5270675250361383,0.004029750749115724,-0.057497,-42.443374
11.185,2.0,1.0,1.0,33.4,34.7,34.7,3.8,4.0,2.515,0.838475972898278,-0.006517560421296332,0.532603322829848,0.004045344666817765,-0.058112,-42.303022
11.185,2.0,1.0,1.0,33.4,34.7,34.7,3.8,4.0,2.5175,0.8348489728308505,-0.006655823426170149,0.5381381486539355,0.004060386958988913,-0.058741,-42.161912
11.185,2.0,1.0,1.0,33.4,34.7,34.7,3.8,4.0,2.52,0.8311682523383204,-0.00679713957026561,0.5436717603460921,0.004074850958865194,-0.059383,-42.020022
11.185,2.0,1.0,1.0,33.4,34.7,34.7,3.8,4.0,2.5225,0.8274332247429339,-0.006941602249383792,0.549203908078528,0.004088708680825399,-0.060039,-41.877327
11.185,2.0,1.0,1.0,33.4,34.7,34.7,3.8,4.0,2.525,0.8236432915040656,-0.007089308898200332,0.5547343340783559,0.004101930739358202,-0.060709,-41.733802
11.185,2.0,1.0,1.0,33.4,34.7,34.7,3.8,4.0,2.5275,0.8197978418603501,-0.007240361215793665,0.5602627723357229,0.004114486261960418,-0.061394,-41.589421
11.185,2.0,1.0,1.0,33.4,34.7,34.7,3.8,4.0,2.53,0.8158962524540119,-0.007394865406533443,0.5657889482989674,0.0041263427954278545,-0.062095,-41.444158
11.185,2.0,1.0,1.0,33.4,34.7,34.7,3.8,4.0,2.5325,0.8119378869360827,-0.007552932437560503,0.5713125785559886,0.0041374662049472434,-0.062812,-41.297986
11.185,2.0,1.0,1.0,33.4,34.7,34.7,3.8,4.0,2.535,0.807922095551094,-0.007714678314203782,0.5768333705009626,0.0041478205653362665,-0.063545,-41.150876
11.185,2.0,1.0,1.0,33.4,34.7,34.7,3.8,4.0,2.5375,0.8038482146997025,-0.007880224374803886,0.5823510219854514,0.004157368043709117,-0.064295,-41.002799
11.185,2.0,1.0,1.0,33.4,34.7,34.7,3.8,4.0,2.54,0.7997155664775496,-0.008049697606553151,0.5878652209528719,0.004166068772771302,-0.065062,-40.853726
11.185,2.0,1.0,1.0,33.4,34.7,34.7,3.8,4.0,2.5425,0.7955234581885123,-0.008223230984114153,0.5933756450552002,0.004173880713859308,-0.065848,-40.703624
11.185,2.0,1.0,1.0,33.4,34.7,34.7,3.8,4.0,2.545,0.791271181830317,-0.008400963832949335,0.5988819612506814,0.0041807595087476,-0.066653,-40.552463
11.185,2.0,1.0,1.0,33.4,34.7,34.7,3.8,4.0,2.5475,0.7869580135502972,-0.008583042219482653,0.6043838253811803,0.0041866583191362645,-0.067478,-40.400208
11.185,2.0,1.0,1.0,33.4,34.7,34.7,3.8,4.0,2.55,0.7825832130688519,-0.00876961937042395,0.6098808817277156,0.004191527652612606,-0.068323,-40.246825
11.185,2.0,1.0,1.0,33.4,34.7,34.7,3.8,4.0,2.5525,0.7781460230679396,-0.008960856123818675,0.6153727625425314,0.004195315173744856,-0.069189,-40.092279
11.185,2.0,1.0,1.0,33.4,34.7,34.7,3.8,4.0,2.555,0.7736456685416422,-0.009156921414645962,0.6208590875559259,0.004197965498812205,-0.070077,-39.936532
11.185,2.0,1.0,1.0,33.4,34.7,34.7,3.8,4.0,2.5575,0.7690813561055635,-0.00935799279807566,0.6263394634558614,0.004199419972502874,-0.070988,-39.779547
11.185,2.0,1.0,1.0,33.4,34.7,34.7,3.8,4.0,2.56,0.764452273261484,-0.009564257013817964,0.6318134833381704,0.004199616424717322,-0.071923,-39.621283
11.185,2.0,1.0,1.0,33.4,34.7,34.7,3.8,4.0,2.5625,0.7597575876133127,-0.00977591059535872,0.6372807261249408,0.004198488905391778,-0.072882,-39.461699
11.185,2.0,1.0,1.0,33.4,34.7,34.7,3.8,4.0,2.565,0.7549964460299673,-0.009993160528277277,0.6427407559484096,0.004195967395007958,-0.073867,-39.300753
11.185,2.0,1.0,1.0,33.4,34.7,34.7,3.8,4.0,2.5675,0.750167973750354,-0.010216224962293574,0.6481931214973699,0.004191977488168064,-0.074879,-39.138398
11.185,2.0,1.0,1.0,33.4,34.7,34.7,3.8,4.0,2.57,0.7452712734250762,-0.010445333982198907,0.6536373553227871,0.004186440047293033,-0.075918,-38.97459
11.185,2.0,1.0,1.0,33.4,34.7,34.7,3.8,4.0,2.5725,0.7403054240889274,-0.01068073044339263,0.659072973098917,0.0041792708231306415,-0.076987,-38.809279
11.185,2.0,1.0,1.0,33.4,34.7,34.7,3.8,4.0,2.575,0.7352694800575617,-0.010922670878387143,0.664499472835782,0.004170380038340166,-0.078086,-38.642416
11.185,2.0,1.0,1.0,33.4,34.7,34.7,3.8,4.0,2.5775,0.7301624697409778,-0.011171426481364488,0.6699163340383696,0.004159671929938146,-0.079216,-38.473948
11.185,2.0,1.0,1.0,33.4,34.7,34.7,3.8,4.0,2.58,0.7249833943656313,-0.011427284178680833,0.6753230168073376,0.004147044245837583,-0.08038,-38.30382
11.185,2.0,1.0,1.0,33.4,34.7,34.7,3.8,4.0,2.5825,0.7197312265960158,-0.011690547794135479,0.6807189608753644,0.004132387690079434,-0.081578,-38.131975
11.185,2.0,1.0,1.0,33.4,34.7,34.7,3.8,4.0,2.585,0.7144049090455016,-0.011961539318859996,0.6861035845725272,0.0041155853106268295,-0.082812,-37.958353
11.185,2.0,1.0,1.0,33.4,34.7,34.7,3.8,4.0,2.5875,0.7090033526649812,-0.012240600296864327,0.6914762837132302,0.0040965118227517016,-0.084084,-37.782893
11.185,2.0,1.0,1.0,33.4,34.7,34.7,3.8,4.0,2.59,0.7035254349965103,-0.012528093338615005,0.6968364303962099,0.004075032860074406,-0.085395,-37.605528
11.185,2.0,1.0,1.0,33.4,34.7,34.7,3.8,4.0,2.5925,0.6979699982775301,-0.012824403776545692,0.7021833717079995,0.004051004144194171,-0.086748,-37.426191
11.185,2.0,1.0,1.0,33.4,34.7,34.7,3.8,4.0,2.595,0.6923358473794992,-0.013129941478135438,0.7075164283188883,0.004024270562545906,-0.088145,-37.244811
11.185,2.0,1.0,1.0,33.4,34.7,34.7,3.8,4.0,2.5975,0.6866217475626798,-0.013445142834173942,0.7128348929588973,0.003994665142606349,-0.089588,-37.061311
11.185,2.0,1.0,1.0,33.4,34.7,34.7,3.8,4.0,2.6,0.6808264220265158,-0.013770472942098867,0.7181380287594666,0.003962007908809128,-0.091078,-36.875615
11.185,2.0,1.0,1.0,33.4,34.7,34.7,3.8,4.0,2.6025,0.6749485492323423,-0.01410642800688799,0.7234250674444681,0.003926104606469112,-0.092619,-36.687639
11.185,2.0,1.0,1.0,33.4,34.7,34.7,3.8,4.0,2.605,0.668986759972094,-0.014453537984971482,0.728695207351707,0.0038867452746062,-0.094214,-36.497296
11.185,2.0,1.0,1.0,33.4,34.7,34.7,3.8,4.0,2.6075,0.6629396341531468,-0.01481236950005849,0.7339476112631991,0.003843702646729261,-0.095865,-36.304496
11.185,2.0,1.0,1.0,33.4,34.7,34.7,3.8,4.0,2.61,0.6568056972653511,-0.015183529063725111,0.7391814040191307,0.003796730355311245,-0.097576,-36.109142
11.185,2.0,1.0,1.0,33.4,34.7,34.7,3.8,4.0,2.6125,0.6505834164916044,-0.015567666638176856,0.7443956698864319,0.0037455609117588167,-0.099349,-35.911134
11.185,2.0,1.0,1.0,33.4,34.7,34.7,3.8,4.0,2.615,0.6442711964178701,-0.015965479583880813,0.7495894496481817,0.003689903429030711,-0.101189,-35.710364
11.185,2.0,1.0,1.0,33.4,34.7,34.7,3.8,4.0,2.6175,0.6378673742922362,-0.01637771704089102,0.7547617373744743,0.003629441048543719,-0.103099,-35.506721
11.185,2.0,1.0,1.0,33.4,34.7,34.7,3.8,4.0,2.62,0.6313702147752703,-0.016805184799813088,0.7599114768287399,0.0035638280264403905,-0.105084,-35.300086
11.185,2.0,1.0,1.0,33.4,34.7,34.7,3.8,4.0,2.6225,0.6247779041153688,-0.017248750726652072,0.7650375574555938,0.0034926864264549617,-0.107149,-35.090332
11.185,2.0,1.0,1.0,33.4,34.7,34.7,3.8,4.0,2.625,0.618088543672844,-0.0177093508154754,0.770138809886774,0.00341560235722822,-0.109298,-34.877327
11.185,2.0,1.0,1.0,33.4,34.7,34.7,3.8,4.0,2.6275,0.6113001427047805,-0.018187995954164968,0.7752140008903721,0.0033321216806436577,-0.111537,-34.66093
11.185,2.0,1.0,1.0,33.4,34.7,34.7,3.8,4.0,2.63,0.6044106103090232,-0.018685779501834195,0.7802618276747799,0.0032417451041574395,-0.113872,-34.440991
11.185,2.0,1.0,1.0,33.4,34.7,34.7,3.8,4.0,2.6325,0.5974177464095296,-0.019203885792134185,0.7852809114422029,0.0031439225536432102,-0.11631,-34.217351
11.185,2.0,1.0,1.0,33.4,34.7,34.7,3.8,4.0,2.635,0.5903192316463349,-0.01974359969511848,0.7902697900663754,0.003038046703287752,-0.118858,-33.989842
11.185,2.0,1.0,1.0,33.4,34.7,34.7,3.8,4.0,2.6375,0.5831126160109332,-0.020306317392138527,0.7952269097445548,0.002923445514716518,-0.121523,-33.758282
11.185,2.0,1.0,1.0,33.4,34.7,34.7,3.8,4.0,2.64,0.5757953060412607,-0.02089355854407675,0.800150615443761,0.002799373607711341,-0.124315,-33.522482
11.185,2.0,1.0,1.0,33.4,34.7,34.7,3.8,4.0,2.6425,0.5683645503588989,-0.021506980063910358,0.8050391399242558,0.0026650022482473776,-0.127243,-33.282234
11.185,2.0,1.0,1.0,33.4,34.7,34.7,3.8,4.0,2.645,0.5608174232934522,-0.0221483917411496,0.8098905910776156,0.0025194076943517653,-0.130318,-33.037322
11.185,2.0,1.0,1.0,33.4,34.7,34.7,3.8,4.0,2.6475,0.5531508062941336,-0.022819774009330766,0.8147029372601785,0.002361557584230521,-0.133551,-32.787509
11.185,2.0,1.0,1.0,33.4,34.7,34.7,3.8,4.0,2.65,0.545361366774762,-0.023523298199980846,0.8194739902321855,0.002190294981290398,-0.136957,-32.532546
11.185,2.0,1.0,1.0,33.4,34.7,34.7,3.8,4.0,2.6525,0.5374455339738491,-0.024261349689142186,0.8242013852247306,0.0020043196033061148,-0.140548,-32.272161
11.185,2.0,1.0,1.0,33.4,34.7,34.7,3.8,4.0,2.655,0.5293994713337067,-0.02503655441793494,0.8288825575457346,0.0018021656530869386,-0.144343,-32.006065
11.185,2.0,1.0,1.0,33.4,34.7,34.7,3.8,4.0,2.6575,0.5212190448088769,-0.025851809359497255,0.8335147149958543,0.0015821755290465478,-0.148359,-31.733944
11.185,2.0,1.0,1.0,33.4,34.7,34.7,3.8,4.0,2.66,0.5128997864009723,-0.02671031761439942,0.83809480518691,0.0013424685174331095,-0.152616,-31.455462
11.185,2.0,1.0,1.0,33.4,34.7,34.7,3.8,4.0,2.6625,0.5044368520799941,-0.027615628949419543,0.842619476627338,0.0010809033421253994,-0.157139,-31.170253
11.185,2.0,1.0,1.0,33.4,34.7,34.7,3.8,4.0,2.665,0.4958249730860627,-0.02857168675545512,0.8470850321457759,0.0007950331574050927,-0.161954,-30.877921
11.185,2.0,1.0,1.0,33.4,34.7,34.7,3.8,4.0,2.6675,0.4870583994039555,-0.02958288259541289,0.8514873728440759,0.0004820511931526194,-0.167091,-30.578037
11.185,2.0,1.0,1.0,33.4,34.7,34.7,3.8,4.0,2.67,0.47813083395817374,-0.030654119749448355,0.8558219302761823,0.00013872477213998689,-0.172584,-30.270134
11.185,2.0,1.0,1.0,33.4,34.7,34.7,3.8,4.0,2.6725,0.4690353557796302,-0.031790887451411516,0.8600835839000371,-0.00023868522328579213,-0.178473,-29.953702
11.185,2.0,1.0,1.0,33.4,34.7,34.7,3.8,4.0,2.675,0.4597643300361467,-0.032999347856459416,0.8642665599918355,-0.0006545232064088829,-0.184804,-29.628185
11.185,2.0,1.0,1.0,33.4,34.7,34.7,3.8,4.0,2.6775,0.4503093023866351,-0.034286438195916216,0.8683643070699323,-0.0011138609638655797,-0.191629,-29.292971
11.185,2.0,1.0,1.0,33.4,34.7,34.7,3.8,4.0,2.68,0.440660874602041,-0.03565999107171091,0.8723693413434696,-0.0016226493712933096,-0.19901,-28.947392
11.185,2.0,1.0,1.0,33.4,34.7,34.7,3.8,4.0,2.6825,0.4308085577859785,-0.037128876426705634,0.8762730536281457,-0.0021879082107682476,-0.207019,-28.590709
11.185,2.0,1.0,1.0,33.4,34.7,34.7,3.8,4.0,2.685,0.4207405988220748,-0.03870316939965651,0.8800654663437679,-0.0028179653477546354,-0.215739,-28.222107
11.185,2.0,1.0,1.0,33.4,34.7,34.7,3.8,4.0,2.6875,0.4104437748860633,-0.040394349019729665,0.8837349253156778,-0.003522760369928798,-0.225272,-27.840683
11.185,2.0,1.0,1.0,33.4,34.7,34.7,3.8,4.0,2.69,0.39990315003186006,-0.04221553346944486,0.8872677056937054,-0.0043142331302501785,-0.235737,-27.445432
11.185,2.0,1.0,1.0,33.4,34.7,34.7,3.8,4.0,2.6925,0.3891017870959534,-0.04418175833969619,0.8906475037148185,-0.0052068251255991465,-0.247276,-27.035237
11.185,2.0,1.0,1.0,33.4,34.7,34.7,3.8,4.0,2.695,0.378020407682814,-0.04631030469304862,0.893854775283973,-0.006218132250416121,-0.260064,-26.608847
11.185,2.0,1.0,1.0,33.4,34.7,34.7,3.8,4.0,2.6975,0.36663699323312415,-0.048621083400280214,0.8968658669550302,-0.007369762646338381,-0.274311,-26.164857
11.185,2.0,1.0,1.0,33.4,34.7,34.7,3.8,4.0,2.7,0.3549263219857209,-0.05113708026807644,0.8996518626246572,-0.008688475323861971,-0.290276,-25.701685
11.185,2.0,1.0,1.0,33.4,34.7,34.7,3.8,4.0,2.7025,0.3428594416475773,-0.05388486130865032,0.9021770366954233,-0.01020770731702283,-0.308283,-25.217546
11.185,2.0,1.0,1.0,33.4,34.7,34.7,3.8,4.0,2.705,0.33040308888027387,-0.05689512602815832,0.9043967563766173,-0.011969644503116274,-0.328736,-24.710412
11.185,2.0,1.0,1.0,33.4,34.7,34.7,3.8,4.0,2.7075,0.3175190902080148,-0.06020327294896016,0.9062546040801479,-0.014028061830650812,-0.352145,-24.177979
11.185,2.0,1.0,1.0,33.4,34.7,34.7,3.8,4.0,2.71,0.3041638260130452,-0.06384989444810776,0.907678383050125,-0.016452264812885115,-0.37917,-23.617618
11.185,2.0,1.0,1.0,33.4,34.7,34.7,3.8,4.0,2.7125,0.29028793195278396,-0.06788102552992234,0.9085745063551207,-0.019332624491623304,-0.410661,-23.026325
11.185,2.0,1.0,1.0,33.4,34.7,34.7,3.8,4.0,2.715,0.2758365936796208,-0.07234779048951116,0.9088200227466737,-0.022788440523065064,-0.447744,-22.400667
11.185,2.0,1.0,1.0,33.4,34.7,34.7,3.8,4.0,2.7175,0.26075114718470344,-0.07730473743199698,0.9082511628785316,-0.026979230493271326,-0.491917,-21.736724
11.185,2.0,1.0,1.0,33.4,34.7,34.7,3.8,4.0,2.72,0.24497340148114835,-0.08280545211734926,0.9066467488287,-0.032121073954492665,-0.545214,-21.030052
11.185,2.0,1.0,1.0,33.4,34.7,34.7,3.8,4.0,2.7225,0.22845550400181933,-0.08889265229158151,0.9037040719018412,-0.03851036233353966,-0.610437,-20.27568
11.185,2.0,1.0,1.0,33.4,34.7,34.7,3.8,4.0,2.725,0.2111809859801339,-0.09557717590586354,0.8990040096554206,-0.04655811851261557,-0.691499,-19.468195
11.185,2.0,1.0,1.0,33.4,34.7,34.7,3.8,4.0,2.7275,0.19320828249633876,-0.10279468088624077,0.8919618136509526,-0.056838364867511044,-0.793939,-18.602044
11.185,2.0,1.0,1.0,33.4,34.7,34.7,3.8,4.0,2.73,0.17475921168719208,-0.11031780966293943,0.8817623594677209,-0.07015164874921974,-0.925641,-17.672256
11.185,2.0,1.0,1.0,33.4,34.7,34.7,3.8,4.0,2.7325,0.15639585565931532,-0.11758084984642642,0.8672908284897515,-0.08759272377475061,-1.09773,-16.676072
11.185,2.0,1.0,1.0,33.4,34.7,34.7,3.8,4.0,2.735,0.13936251456050763,-0.12334106830670133,0.8471125641882487,-0.11056893020002437,-1.325198,-15.616395
11.185,2.0,1.0,1.0,33.4,34.7,34.7,3.8,4.0,2.7375,0.12619369557342117,-0.12507694771406586,0.8196812935279302,-0.14059130071471854,-1.625364,-14.508722
11.185,2.0,1.0,1.0,33.4,34.7,34.7,3.8,4.0,2.74,0.1215687446328792,-0.11814339215512744,0.7842482275655446,-0.1783689660435269,-2.007806,-13.393873
11.185,2.0,1.0,1.0,33.4,34.7,34.7,3.8,4.0,2.7425,0.13266162996611713,-0.09543326118284233,0.74330475579004,-0.22137907166229892,-2.440481,-12.357028
11.185,2.0,1.0,1.0,33.4,34.7,34.7,3.8,4.0,2.745,0.1663281183035035,-0.05019687539293683,0.7064845210428333,-0.25999131485149485,-2.783663,-11.541878
11.185,2.0,1.0,1.0,33.4,34.7,34.7,3.8,4.0,2.7475,0.22034197717618137,0.015207828640295266,0.6906375043325779,-0.27744377560970845,-2.794019,-11.123471
11.185,2.0,1.0,1.0,33.4,34.7,34.7,3.8,4.0,2.75,0.276922214799603,0.0829386423360919,0.707435465236301,-0.262289181751184,-2.387107,-11.210508
11.185,2.0,1.0,1.0,33.4,34.7,34.7,3.8,4.0,2.7525,0.3150834200216913,0.13217632854259612,0.7496872650874995,-0.2219645112828757,-1.795959,-11.756214
11.185,2.0,1.0,1.0,33.4,34.7,34.7,3.8,4.0,2.755,0.32825001706051865,0.15665004964255153,0.7994450940845782,-0.1744392079972729,-1.267605,-12.598879
11.185,2.0,1.0,1.0,33.4,34.7,34.7,3.8,4.0,2.7575,0.322522845389984,0.16264321396061943,0.8440831087282896,-0.13216018093702425,-0.880453,-13.573463
11.185,2.0,1.0,1.0,33.4,34.7,34.7,3.8,4.0,2.76,0.30625257141195167,0.15852002400254017,0.8796121372036313,-0.09893396957982604,-0.617264,-14.569689
11.185,2.0,1.0,1.0,33.4,34.7,34.7,3.8,4.0,2.7625,0.28522476077440395,0.15000856579461672,0.9066041921825652,-0.07408397827997092,-0.441755,-15.529815
11.185,2.0,1.0,1.0,33.4,34.7,34.7,3.8,4.0,2.765,0.26256574220391876,0.14017527728715679,0.9268870798202552,-0.055739102655125605,-0.324237,-16.429049
11.185,2.0,1.0,1.0,33.4,34.7,34.7,3.8,4.0,2.7675,0.23975202751020824,0.13045429278186596,0.9422093484533803,-0.04213786854137403,-0.244581,-17.259826
11.185,2.0,1.0,1.0,33.4,34.7,34.7,3.8,4.0,2.77,0.21740025772083937,0.12143677873364206,0.953918898647437,-0.031930864120906996,-0.189864,-18.022655
11.185,2.0,1.0,1.0,33.4,34.7,34.7,3.8,4.0,2.7725,0.19571418435272667,0.11331302322731658,0.9629814384701085,-0.02415359686749371,-0.15186,-18.721427
11.185,2.0,1.0,1.0,33.4,34.7,34.7,3.8,4.0,2.775,0.1747105932956725,0.10609413744286951,0.9700721410642199,-0.018131460899932426,-0.125287,-19.361146
11.185,2.0,1.0,1.0,33.4,34.7,34.7,3.8,4.0,2.7775,0.1543280411463258,0.0997179660936928,0.9756611149565773,-0.013393182016478399,-0.106696,-19.946886
11.185,2.0,1.0,1.0,33.4,34.7,34.7,3.8,4.0,2.78,0.13447763381910052,0.09409813755142486,0.9800771999643076,-0.009606815118022236,-0.09379,-20.483347
11.185,2.0,1.0,1.0,33.4,34.7,34.7,3.8,4.0,2.7825,0.11506590414497275,0.08914592869301348,0.9835522097878265,-0.006535581680294405,-0.085014,-20.97469
11.185,2.0,1.0,1.0,33.4,34.7,34.7,3.8,4.0,2.785,0.09600443363995152,0.0847793140130441,0.986250839773841,-0.00400809841444227,-0.079294,-21.424506
11.185,2.0,1.0,1.0,33.4,34.7,34.7,3.8,4.0,2.7875,0.07721326359434284,0.08092607180155473,0.9882907736337948,-0.0018983808270024553,-0.075876,-21.835842
11.185,2.0,1.0,1.0,33.4,34.7,34.7,3.8,4.0,2.79,0.05862147323652331,0.07752422311240481,0.9897562507625995,-0.0001123348726383072,-0.074227,-22.211242
11.185,2.0,1.0,1.0,33.4,34.7,34.7,3.8,4.0,2.7925,0.040166538697674795,0.07452135841637658,0.9907072912450202,0.001421465159829268,-0.07396,-22.552805
11.185,2.0,1.0,1.0,33.4,34.7,34.7,3.8,4.0,2.795,0.021793235128785216,0.07187358115587754,0.9911860229032257,0.002758155924604638,-0.074798,-22.862223
11.185,2.0,1.0,1.0,33.4,34.7,34.7,3.8,4.0,2.7975,0.0034524318644725788,0.06954440026525727,0.9912210536508395,0.0039410636852723795,-0.076537,-23.140832
11.185,2.0,1.0,1.0,33.4,34.7,34.7,3.8,4.0,2.8,-0.014900069297886726,0.06750371324335988,0.9908305061238121,0.0050049003409015375,-0.079031,-23.389638
11.185,2.0,1.0,1.0,33.4,34.7,34.7,3.8,4.0,2.8025,-0.03330459872021838,0.0657269312982037,0.9900241200193267,0.0059780861307954436,-0.082173,-23.609354
11.185,2.0,1.0,1.0,33.4,34.7,34.7,3.8,4.0,2.805,-0.05179857775699299,0.06419425701518122,0.9888046896842799,0.006884473835507944,-0.085888,-23.800412
11.185,2.0,1.0,1.0,33.4,34.7,34.7,3.8,4.0,2.8075,-0.070417383636725,0.06289010782235555,0.9871690134751748,0.007744662214511747,-0.090127,-23.962987
11.185,2.0,1.0,1.0,33.4,34.7,34.7,3.8,4.0,2.81,-0.08919514090343156,0.06180267290243562,0.9851084701131814,0.008577029875075576,-0.09486,-24.097004
11.185,2.0,1.0,1.0,33.4,34.7,34.7,3.8,4.0,2.8125,-0.108165463210992,0.0609235910705452,0.982609294691651,0.00939858416809306,-0.100073,-24.202144
11.185,2.0,1.0,1.0,33.4,34.7,34.7,3.8,4.0,2.815,-0.12736217040748787,0.06024773955979107,0.9796525960029685,0.010225696472056255,-0.105767,-24.277844
11.185,2.0,1.0,1.0,33.4,34.7,34.7,3.8,4.0,2.8175,-0.14682000651770624,0.05977312726050775,0.9762141326099757,0.011074781334094504,-0.111958,-24.323294
11.185,2.0,1.0,1.0,33.4,34.7,34.7,3.8,4.0,2.82,-0.16657538531147673,0.05950089016868261,0.9722638441125528,0.011962970057243422,-0.118674,-24.33743
11.185,2.0,1.0,1.0,33.4,34.7,34.7,3.8,4.0,2.8225,-0.18666719214182728,0.059435391451461275,0.9677651135414201,0.012908828325745438,-0.125957,-24.318918
11.185,2.0,1.0,1.0,33.4,34.7,34.7,3.8,4.0,2.825,-0.20713767399347718,0.05958443368771316,0.9626737140894959,0.013933172182886604,-0.133865,-24.266134
11.185,2.0,1.0,1.0,33.4,34.7,34.7,3.8,4.0,2.8275,-0.22803345447407572,0.05995959665837697,0.9569363654747809,0.015060047900203894,-0.142474,-24.177141
11.185,2.0,1.0,1.0,33.4,34.7,34.7,3.8,4.0,2.83,-0.24940671703691275,0.06057672075578418,0.9504887882327293,0.01631796091283154,-0.151881,-24.049653
