1,w,sub_t,h,l1,l2,l3,g1,g2,Freq,S11_re,S21_re,S11_img,S21_img,S11_dB,S21_dB
11.185,2.0,1.0,1.0,33.3,33.5,33.5,2.5,2.3,2.5,0.874591119482366,-0.00883494788692878,0.471098159690235,0.00916734903569722,-0.057519,-37.902261
11.185,2.0,1.0,1.0,33.3,33.5,33.5,2.5,2.3,2.5025,0.8714483046454514,-0.009027036603345865,0.4767527973831308,0.009229917642840908,-0.058081,-37.781197
11.185,2.0,1.0,1.0,33.3,33.5,33.5,2.5,2.3,2.505,0.8682548129600589,-0.009222888133356364,0.48240957334708956,0.009292120632084936,-0.058653,-37.659761
11.185,2.0,1.0,1.0,33.3,33.5,33.5,2.5,2.3,2.5075,0.8650101190737255,-0.009422585018201793,0.48806829108029226,0.009353926634770443,-0.059235,-37.537944
11.185,2.0,1.0,1.0,33.3,33.5,33.5,2.5,2.3,2.51,0.8617136885268787,-0.009626212060189173,0.49372874758893287,0.009415302907043666,-0.059828,-37.415737
11.185,2.0,1.0,1.0,33.3,33.5,33.5,2.5,2.3,2.5125,0.8583649775727996,-0.009833856397145884,0.4993907331596337,0.009476215266968065,-0.060431,-37.293133
11.185,2.0,1.0,1.0,33.3,33.5,33.5,2.5,2.3,2.515,0.8549634329935055,-0.010045607579713112,0.5050540311235937,0.00953662802849771,-0.061046,-37.170122
11.185,2.0,1.0,1.0,33.3,33.5,33.5,2.5,2.3,2.5175,0.851508491911451,-0.010261557651600159,0.5107184176121206,0.009596503932137039,-0.061671,-37.046695
11.185,2.0,1.0,1.0,33.3,33.5,33.5,2.5,2.3,2.52,0.8479995815969181,-0.01048180123293107,0.5163836613032058,0.009655804072104411,-0.062308,-36.922843
11.185,2.0,1.0,1.0,33.3,33.5,33.5,2.5,2.3,2.5225,0.8444361192709964,-0.010706435606817687,0.52204952315875,0.009714487819803368,-0.062958,-36.798557
11.185,2.0,1.0,1.0,33.3,33.5,33.5,2.5,2.3,2.525,0.8408175119040089,-0.010935560809304117,0.5277157561520681,0.00977251274339455,-0.063619,-36.673828
11.185,2.0,1.0,1.0,33.3,33.5,33.5,2.5,2.3,2.5275,0.83714315600927,-0.011169279722830614,0.5333821049852568,0.009829834523247809,-0.064293,-36.548646
11.185,2.0,1.0,1.0,33.3,33.5,33.5,2.5,2.3,2.53,0.8334124374320391,-0.011407698173376031,0.5390483057959932,0.009886406863039971,-0.064979,-36.423002
11.185,2.0,1.0,1.0,33.3,33.5,33.5,2.5,2.3,2.5325,0.8296247311335266,-0.011650925031442709,0.5447140858533143,0.009942181396249708,-0.065679,-36.296886
11.185,2.0,1.0,1.0,33.3,33.5,33.5,2.5,2.3,2.535,0.8257794009698204,-0.011899072317058949,0.5503791632419143,0.009997107587783986,-0.066392,-36.170288
11.185,2.0,1.0,1.0,33.3,33.5,33.5,2.5,2.3,2.5375,0.8218757994655741,-0.012152255308979893,0.5560432465344426,0.010051132630453872,-0.06712,-36.043197
11.185,2.0,1.0,1.0,33.3,33.5,33.5,2.5,2.3,2.54,0.81791326758231,-0.01241059265828044,0.5617060344512983,0.010104201336000115,-0.067861,-35.915604
11.185,2.0,1.0,1.0,33.3,33.5,33.5,2.5,2.3,2.5425,0.8138911344811713,-0.0126742065065402,0.5673672155073632,0.010156256020347832,-0.068618,-35.787498
11.185,2.0,1.0,1.0,33.3,33.5,33.5,2.5,2.3,2.545,0.8098087172799614,-0.012943222608833693,0.5730264676450991,0.01020723638275001,-0.069389,-35.658869
11.185,2.0,1.0,1.0,33.3,33.5,33.5,2.5,2.3,2.5475,0.8056653208042956,-0.013217770461747212,0.5786834578533895,0.010257079378456341,-0.070176,-35.529705
11.185,2.0,1.0,1.0,33.3,33.5,33.5,2.5,2.3,2.55,0.8014602373326791,-0.013497983436658723,0.5843378417715048,0.010305719084519376,-0.070979,-35.399996
11.185,2.0,1.0,1.0,33.3,33.5,33.5,2.5,2.3,2.5525,0.7971927463353378,-0.013783998918525171,0.5899892632774943,0.010353086558325597,-0.071799,-35.269731
11.185,2.0,1.0,1.0,33.3,33.5,33.5,2.5,2.3,2.555,0.7928621142065889,-0.01407595845043856,0.595637354060305,0.01039910968840905,-0.072635,-35.138897
11.185,2.0,1.0,1.0,33.3,33.5,33.5,2.5,2.3,2.5575,0.788467593990558,-0.01437400788422258,0.6012817331748795,0.010443713037076757,-0.073489,-35.007485
11.185,2.0,1.0,1.0,33.3,33.5,33.5,2.5,2.3,2.56,0.784008425100026,-0.014678297537358453,0.6069220065794264,0.01048681767434237,-0.074361,-34.875481
11.185,2.0,1.0,1.0,33.3,33.5,33.5,2.5,2.3,2.5625,0.7794838330281882,-0.01498898235654079,0.6125577666540406,0.010528341002629657,-0.075251,-34.742873
11.185,2.0,1.0,1.0,33.3,33.5,33.5,2.5,2.3,2.565,0.7748930290530819,-0.0153062220881849,0.6181885916997825,0.010568196571670543,-0.07616,-34.609651
11.185,2.0,1.0,1.0,33.3,33.5,33.5,2.5,2.3,2.5675,0.7702352099344563,-0.015630181456218046,0.6238140454172797,0.01060629388298126,-0.077089,-34.4758
11.185,2.0,1.0,1.0,33.3,33.5,33.5,2.5,2.3,2.57,0.7655095576028214,-0.015961030347510674,0.6294336763638668,0.010642538183258271,-0.078038,-34.341308
11.185,2.0,1.0,1.0,33.3,33.5,33.5,2.5,2.3,2.5725,0.7607152388404077,-0.016298944005319213,0.6350470173882172,0.01067683024598745,-0.079007,-34.206163
11.185,2.0,1.0,1.0,33.3,33.5,33.5,2.5,2.3,2.575,0.7558514049537719,-0.016644103231132898,0.6406535850413538,0.010709066140509819,-0.079998,-34.07035
11.185,2.0,1.0,1.0,33.3,33.5,33.5,2.5,2.3,2.5775,0.750917191437745,-0.016996694595338653,0.646252878962872,0.010739136987733681,-0.081011,-33.933858
11.185,2.0,1.0,1.0,33.3,33.5,33.5,2.5,2.3,2.58,0.7459117176304323,-0.017356910657139613,0.6518443812411157,0.010766928701622524,-0.082047,-33.79667
11.185,2.0,1.0,1.0,33.3,33.5,33.5,2.5,2.3,2.5825,0.7408340863589362,-0.017724950194187676,0.6574275557460055,0.010792321715525337,-0.083106,-33.658775
11.185,2.0,1.0,1.0,33.3,33.5,33.5,2.5,2.3,2.585,0.7356833835754748,-0.018101018442414185,0.6630018474330939,0.010815190692347182,-0.084189,-33.520157
11.185,2.0,1.0,1.0,33.3,33.5,33.5,2.5,2.3,2.5875,0.7304586779835445,-0.018485327346570206,0.6685666816173759,0.010835404217483127,-0.085297,-33.380801
11.185,2.0,1.0,1.0,33.3,33.5,33.5,2.5,2.3,2.59,0.7251590206537615,-0.018878095822014794,0.6741214632152521,0.01085282447335753,-0.086431,-33.240693
11.185,2.0,1.0,1.0,33.3,33.5,33.5,2.5,2.3,2.5925,0.7197834446289944,-0.01927955002832017,0.6796655759529746,0.010867306894323876,-0.087591,-33.099817
11.185,2.0,1.0,1.0,33.3,33.5,33.5,2.5,2.3,2.595,0.7143309645183943,-0.019689923655292072,0.6851983815397595,0.010878699800585286,-0.088778,-32.958158
11.185,2.0,1.0,1.0,33.3,33.5,33.5,2.5,2.3,2.5975,0.7088005760798833,-0.02010945822203904,0.6907192188036674,0.010886844009692698,-0.089994,-32.8157
11.185,2.0,1.0,1.0,33.3,33.5,33.5,2.5,2.3,2.6,0.7031912557906691,-0.020538403389755468,0.6962274027882104,0.010891572424066694,-0.091239,-32.672426
11.185,2.0,1.0,1.0,33.3,33.5,33.5,2.5,2.3,2.6025,0.6975019604053163,-0.020977017288922643,0.7017222238074847,0.010892709592866213,-0.092514,-32.528319
11.185,2.0,1.0,1.0,33.3,33.5,33.5,2.5,2.3,2.605,0.6917316265008802,-0.021425566861668476,0.7072029464575331,0.010890071246396965,-0.093821,-32.383363
11.185,2.0,1.0,1.0,33.3,33.5,33.5,2.5,2.3,2.6075,0.6858791700085877,-0.021884328220068246,0.7126688085814179,0.010883463801108249,-0.095159,-32.23754
11.185,2.0,1.0,1.0,33.3,33.5,33.5,2.5,2.3,2.61,0.6799434857315342,-0.022353587021210028,0.7181190201853631,0.01087268383306949,-0.096531,-32.090831
11.185,2.0,1.0,1.0,33.3,33.5,33.5,2.5,2.3,2.6125,0.6739234468478131,-0.02283363885989399,0.7235527623031011,0.01085751751765003,-0.097938,-31.94322
11.185,2.0,1.0,1.0,33.3,33.5,33.5,2.5,2.3,2.615,0.6678179043984902,-0.023324789679881122,0.7289691858053747,0.010837740032936716,-0.09938,-31.794686
11.185,2.0,1.0,1.0,33.3,33.5,33.5,2.5,2.3,2.6175,0.6616256867597936,-0.02382735620465692,0.7343674101513183,0.010813114924225117,-0.100859,-31.64521
11.185,2.0,1.0,1.0,33.3,33.5,33.5,2.5,2.3,2.62,0.655345599098863,-0.024341666388724776,0.7397465220781847,0.010783393426695143,-0.102376,-31.494773
11.185,2.0,1.0,1.0,33.3,33.5,33.5,2.5,2.3,2.6225,0.6489764228123581,-0.024868059890500938,0.7451055742256567,0.01074831374314298,-0.103933,-31.343355
11.185,2.0,1.0,1.0,33.3,33.5,33.5,2.5,2.3,2.625,0.642516914947221,-0.0254068885679364,0.750443583690653,0.010707600273377,-0.10553,-31.190934
11.185,2.0,1.0,1.0,33.3,33.5,33.5,2.5,2.3,2.6275,0.6359658076028093,-0.025958516998049387,0.7557595305082694,0.010660962791593152,-0.107171,-31.03749
11.185,2.0,1.0,1.0,33.3,33.5,33.5,2.5,2.3,2.63,0.6293218073136235,-0.026523323021616026,0.7610523560541174,0.0106080955677331,-0.108855,-30.883001
11.185,2.0,1.0,1.0,33.3,33.5,33.5,2.5,2.3,2.6325,0.6225835944117825,-0.027101698314324702,0.7663209613629934,0.010548676428476999,-0.110586,-30.727443
11.185,2.0,1.0,1.0,33.3,33.5,33.5,2.5,2.3,2.635,0.6157498223683893,-0.02769404898576795,0.7715642053583524,0.010482365753145114,-0.112364,-30.570795
11.185,2.0,1.0,1.0,33.3,33.5,33.5,2.5,2.3,2.6375,0.608819117112876,-0.028300796207710824,0.77678090298667,0.010408805399363234,-0.114191,-30.413032
11.185,2.0,1.0,1.0,33.3,33.5,33.5,2.5,2.3,2.64,0.6017900763293706,-0.028922376873143214,0.7819698232502678,0.010327617552886106,-0.116069,-30.25413
11.185,2.0,1.0,1.0,33.3,33.5,33.5,2.5,2.3,2.6425,0.5946612687291224,-0.029559244287691494,0.7871296871316268,0.010238403495471388,-0.118001,-30.094064
11.185,2.0,1.0,1.0,33.3,33.5,33.5,2.5,2.3,2.645,0.587431233297951,-0.03021186889503487,0.7922591654016657,0.01014074228413663,-0.119987,-29.932809
11.185,2.0,1.0,1.0,33.3,33.5,33.5,2.5,2.3,2.6475,0.5800984785176763,-0.030880739038042625,0.7973568763037857,0.010034189334522011,-0.122032,-29.770337
11.185,2.0,1.0,1.0,33.3,33.5,33.5,2.5,2.3,2.65,0.5726614815604253,-0.03156636175741453,0.8024213831048059,0.009918274900404367,-0.124136,-29.606623
11.185,2.0,1.0,1.0,33.3,33.5,33.5,2.5,2.3,2.6525,0.5651186874547304,-0.032269263629673625,0.8074511915031068,0.009792502440664647,-0.126303,-29.441637
11.185,2.0,1.0,1.0,33.3,33.5,33.5,2.5,2.3,2.655,0.5574685082222479,-0.03298999164642719,0.812444746883472,0.009656346864183924,-0.128534,-29.275352
11.185,2.0,1.0,1.0,33.3,33.5,33.5,2.5,2.3,2.6575,0.5497093219839672,-0.03372911413686448,0.8174004314071478,0.009509252642237159,-0.130833,-29.107737
11.185,2.0,1.0,1.0,33.3,33.5,33.5,2.5,2.3,2.66,0.5418394720347298,-0.03448722173551771,0.8223165609246237,0.009350631776941716,-0.133203,-28.938762
11.185,2.0,1.0,1.0,33.3,33.5,33.5,2.5,2.3,2.6625,0.5338572658849177,-0.035264928397349654,0.8271913816974495,0.009179861613204767,-0.135646,-28.768395
11.185,2.0,1.0,1.0,33.3,33.5,33.5,2.5,2.3,2.665,0.5257609742681405,-0.03606287246226897,0.8320230669141654,0.008996282480373792,-0.138165,-28.596605
11.185,2.0,1.0,1.0,33.3,33.5,33.5,2.5,2.3,2.6675,0.5175488301138431,-0.0368817177711814,0.836809712983973,0.008799195148420483,-0.140765,-28.423357
11.185,2.0,1.0,1.0,33.3,33.5,33.5,2.5,2.3,2.67,0.5092190274837608,-0.037722154835689414,0.8415493355902339,0.00858785808196396,-0.143449,-28.248617
11.185,2.0,1.0,1.0,33.3,33.5,33.5,2.5,2.3,2.6725,0.500769720471253,-0.038584902063518965,0.8462398654841228,0.008361484473737439,-0.146219,-28.072349
11.185,2.0,1.0,1.0,33.3,33.5,33.5,2.5,2.3,2.675,0.49219902206267907,-0.03947070704169283,0.8508791439968212,0.00811923903721541,-0.149082,-27.894517
11.185,2.0,1.0,1.0,33.3,33.5,33.5,2.5,2.3,2.6775,0.48350500296010485,-0.04038034787937266,0.8554649182465005,0.007860234536009451,-0.15204,-27.715083
11.185,2.0,1.0,1.0,33.3,33.5,33.5,2.5,2.3,2.68,0.47468569036485936,-0.04131463461214815,0.8599948360139281,0.0075835280252916646,-0.155098,-27.534008
11.185,2.0,1.0,1.0,33.3,33.5,33.5,2.5,2.3,2.6825,0.4657390667217257,-0.04227441066934247,0.8644664402578403,0.00728811677787672,-0.158261,-27.35125
11.185,2.0,1.0,1.0,33.3,33.5,33.5,2.5,2.3,2.685,0.45666306842388715,-0.043260554405633686,0.8688771632382482,0.006972933864660935,-0.161534,-27.166767
11.185,2.0,1.0,1.0,33.3,33.5,33.5,2.5,2.3,2.6875,0.44745558447917844,-0.04427398069792439,0.873224320212495,0.006636843355827521,-0.164922,-26.980518
11.185,2.0,1.0,1.0,33.3,33.5,33.5,2.5,2.3,2.69,0.4381144551387685,-0.04531564260792103,0.8775051026650971,0.006278635105548909,-0.168432,-26.792456
11.185,2.0,1.0,1.0,33.3,33.5,33.5,2.5,2.3,2.6925,0.4286374704900099,-0.04638653311029027,0.8817165710282765,0.005897019078781181,-0.172069,-26.602534
11.185,2.0,1.0,1.0,33.3,33.5,33.5,2.5,2.3,2.695,0.41902236901611933,-0.04748768688549014,0.8858556468452682,0.00549061917411204,-0.17584,-26.410706
11.185,2.0,1.0,1.0,33.3,33.5,33.5,2.5,2.3,2.6975,0.4092668361262876,-0.048620182175436205,0.8899191043232981,0.005057966491403193,-0.179752,-26.21692
11.185,2.0,1.0,1.0,33.3,33.5,33.5,2.5,2.3,2.7,0.39936850266117746,-0.04978514269896285,0.8939035612170726,0.004597491987097812,-0.183813,-26.021126
11.185,2.0,1.0,1.0,33.3,33.5,33.5,2.5,2.3,2.7025,0.3893249433802498,-0.05098373962258824,0.897805468976975,0.004107518453448017,-0.188029,-25.823268
11.185,2.0,1.0,1.0,33.3,33.5,33.5,2.5,2.3,2.705,0.37913367543931936,-0.05221719358026279,0.9016211020885394,0.003586251750450243,-0.19241,-25.623292
11.185,2.0,1.0,1.0,33.3,33.5,33.5,2.5,2.3,2.7075,0.36879215686902606,-0.05348677673356617,0.9053465465212578,0.003031771210843524,-0.196966,-25.42114
11.185,2.0,1.0,1.0,33.3,33.5,33.5,2.5,2.3,2.71,0.3582977850677646,-0.054793814861070836,0.9089776871950916,0.0024420191289913273,-0.201705,-25.216752
11.185,2.0,1.0,1.0,33.3,33.5,33.5,2.5,2.3,2.7125,0.3476478953260601,-0.05613968946224763,0.9125101943621229,0.0018147892336694098,-0.206639,-25.010064
11.185,2.0,1.0,1.0,33.3,33.5,33.5,2.5,2.3,2.715,0.3368397594035738,-0.05752583985718971,0.9159395087883871,0.0011477140325470052,-0.211778,-24.801012
11.185,2.0,1.0,1.0,33.3,33.5,33.5,2.5,2.3,2.7175,0.32587058418504383,-0.05895376525842802,0.9192608256068738,0.00043825090226142855,-0.217135,-24.589529
11.185,2.0,1.0,1.0,33.3,33.5,33.5,2.5,2.3,2.72,0.3147375104476966,-0.06042502678500295,0.9224690766966857,-0.00031633321778408636,-0.222723,-24.375544
11.185,2.0,1.0,1.0,33.3,33.5,33.5,2.5,2.3,2.7225,0.30343761178019524,-0.06194124938151937,0.9255589114252091,-0.0011189786877124725,-0.228557,-24.158984
11.185,2.0,1.0,1.0,33.3,33.5,33.5,2.5,2.3,2.725,0.2919678937024619,-0.06350412359581173,0.928524675569462,-0.0019728517657818974,-0.234651,-23.939772
11.185,2.0,1.0,1.0,33.3,33.5,33.5,2.5,2.3,2.7275,0.2803252930468354,-0.06511540715778798,0.9313603882092464,-0.002881365146815859,-0.241022,-23.717829
11.185,2.0,1.0,1.0,33.3,33.5,33.5,2.5,2.3,2.73,0.268506677674779,-0.06677692628849051,0.9340597163578185,-0.0038482006705002933,-0.247689,-23.493073
11.185,2.0,1.0,1.0,33.3,33.5,33.5,2.5,2.3,2.7325,0.25650884661988926,-0.06849057665193219,0.9366159470651785,-0.004877334459900358,-0.25467,-23.265416
11.185,2.0,1.0,1.0,33.3,33.5,33.5,2.5,2.3,2.735,0.24432853076834488,-0.07025832384211908,0.9390219566939608,-0.005973064785179897,-0.261987,-23.034768
11.185,2.0,1.0,1.0,33.3,33.5,33.5,2.5,2.3,2.7375,0.23196239421265497,-0.07208220327306221,0.9412701770278491,-0.00714004298711063,-0.269664,-22.801035
11.185,2.0,1.0,1.0,33.3,33.5,33.5,2.5,2.3,2.74,0.21940703644490867,-0.07396431930946833,0.9433525578265496,-0.008383307840265643,-0.277724,-22.564118
11.185,2.0,1.0,1.0,33.3,33.5,33.5,2.5,2.3,2.7425,0.20665899559275072,-0.07590684343893782,0.9452605253888565,-0.009708323787670598,-0.286196,-22.323915
11.185,2.0,1.0,1.0,33.3,33.5,33.5,2.5,2.3,2.745,0.19371475294681587,-0.0779120112412903,0.9469849366251073,-0.011121023538086574,-0.295109,-22.080317
11.185,2.0,1.0,1.0,33.3,33.5,33.5,2.5,2.3,2.7475,0.18057073908404567,-0.07998211785514875,0.9485160280715094,-0.012627855585134865,-0.304497,-21.833212
11.185,2.0,1.0,1.0,33.3,33.5,33.5,2.5,2.3,2.75,0.167223341959882,-0.0821195115737009,0.949843359199775,-0.0142358372853779,-0.314395,-21.582481
11.185,2.0,1.0,1.0,33.3,33.5,33.5,2.5,2.3,2.7525,0.15366891742667918,-0.08432658511756108,0.9509557492852048,-0.01595261422164155,-0.324843,-21.328002
11.185,2.0,1.0,1.0,33.3,33.5,33.5,2.5,2.3,2.755,0.13990380273970918,-0.08660576402908109,0.9518412069929186,-0.01778652667982926,-0.335885,-21.069644
11.185,2.0,1.0,1.0,33.3,33.5,33.5,2.5,2.3,2.7575,0.12592433374060719,-0.08895949150451726,0.9524868517238071,-0.01974668418393799,-0.347568,-20.807272
11.185,2.0,1.0,1.0,33.3,33.5,33.5,2.5,2.3,2.76,0.11172686656710473,-0.09139020882212719,0.952878825627152,-0.021843049166688597,-0.359946,-20.540743
11.185,2.0,1.0,1.0,33.3,33.5,33.5,2.5,2.3,2.7625,0.09730780493505585,-0.09390033032800287,0.9530021950335757,-0.02408653100403607,-0.373078,-20.269908
11.185,2.0,1.0,1.0,33.3,33.5,33.5,2.5,2.3,2.765,0.08266363428355397,-0.09649221169766076,0.9528408398885799,-0.02648909181256694,-0.387028,-19.99461
11.185,2.0,1.0,1.0,33.3,33.5,33.5,2.5,2.3,2.7675,0.06779096437873079,-0.09916810988806592,0.9523773295712521,-0.029063865601103505,-0.40187,-19.714685
11.185,2.0,1.0,1.0,33.3,33.5,33.5,2.5,2.3,2.77,0.05268658235170997,-0.10193013281656123,0.951592783263882,-0.03182529258284281,-0.417684,-19.429961
11.185,2.0,1.0,1.0,33.3,33.5,33.5,2.5,2.3,2.7725,0.03734751862100233,-0.10478017633074452,0.9504667127954638,-0.03478927069242049,-0.434561,-19.140256
11.185,2.0,1.0,1.0,33.3,33.5,33.5,2.5,2.3,2.775,0.021771128743818736,-0.10771984544209044,0.9489768456165641,-0.03797332661231855,-0.452602,-18.84538
11.185,2.0,1.0,1.0,33.3,33.5,33.5,2.5,2.3,2.7775,0.005955194986027564,-0.11075035605481401,0.9470989252778209,-0.041396808891625975,-0.471921,-18.545134
11.185,2.0,1.0,1.0,33.3,33.5,33.5,2.5,2.3,2.78,-0.010101947663323993,-0.11387241249043153,0.944806486486459,-0.04508110603025422,-0.492646,-18.23931
11.185,2.0,1.0,1.0,33.3,33.5,33.5,2.5,2.3,2.7825,-0.026401255128838157,-0.1170860549372102,0.9420706015169519,-0.04904989269060358,-0.514921,-17.927687
11.185,2.0,1.0,1.0,33.3,33.5,33.5,2.5,2.3,2.785,-0.04294278014841118,-0.12039046947822023,0.9388595944744934,-0.05332940746513616,-0.538911,-17.610037
11.185,2.0,1.0,1.0,33.3,33.5,33.5,2.5,2.3,2.7875,-0.059725431174080516,-0.12378375149077793,0.935138719687013,-0.0579487658381356,-0.5648,-17.28612
11.185,2.0,1.0,1.0,33.3,33.5,33.5,2.5,2.3,2.79,-0.07674667264760976,-0.12726261086120041,0.9308698003862111,-0.06294031207982023,-0.5928,-16.955686
11.185,2.0,1.0,1.0,33.3,33.5,33.5,2.5,2.3,2.7925,-0.09400215203708485,-0.13082200449303666,0.9260108239121052,-0.06834001371901428,-0.623154,-16.618473
11.185,2.0,1.0,1.0,33.3,33.5,33.5,2.5,2.3,2.795,-0.1114852352486259,-0.13445467784343657,0.9205154900624374,-0.07418790183296001,-0.656138,-16.274211
11.185,2.0,1.0,1.0,33.3,33.5,33.5,2.5,2.3,2.7975,-0.12918642726891813,-0.13815059250241243,0.9143327100937524,-0.08052855948392065,-0.692071,-15.922619
11.185,2.0,1.0,1.0,33.3,33.5,33.5,2.5,2.3,2.8,-0.14709264890516768,-0.14189621089225357,0.9074060555408195,-0.08741165894624675,-0.73132,-15.563407
11.185,2.0,1.0,1.0,33.3,33.5,33.5,2.5,2.3,2.8025,-0.16518633297858318,-0.14567360172317376,0.8996731588639085,-0.09489254549712194,-0.774311,-15.19628
11.185,2.0,1.0,1.0,33.3,33.5,33.5,2.5,2.3,2.805,-0.18344429396336362,-0.14945932057023434,0.8910650725587842,-0.10303286089137599,-0.821539,-14.820937
11.185,2.0,1.0,1.0,33.3,33.5,33.5,2.5,2.3,2.8075,-0.20183631348878617,-0.15322300848715015,0.8815056006485151,-0.11190119233286909,-0.873582,-14.437075
11.185,2.0,1.0,1.0,33.3,33.5,33.5,2.5,2.3,2.81,-0.2203233699997076,-0.15692563761758258,0.8709106276911365,-0.12157372152644917,-0.931116,-14.044396
11.185,2.0,1.0,1.0,33.3,33.5,33.5,2.5,2.3,2.8125,-0.23885542397086293,-0.16051731608801859,0.8591874874149199,-0.13213483142410667,-0.994936,-13.642608
11.185,2.0,1.0,1.0,33.3,33.5,33.5,2.5,2.3,2.815,-0.2573686504432746,-0.16393454513556385,0.8462344384467891,-0.14367760297130736,-1.065982,-13.231438
11.185,2.0,1.0,1.0,33.3,33.5,33.5,2.5,2.3,2.8175,-0.2757819889381118,-0.16709680010082326,0.8319403520086376,-0.15630409686432944,-1.145367,-12.810641
11.185,2.0,1.0,1.0,33.3,33.5,33.5,2.5,2.3,2.82,-0.29399285878490283,-0.16990228540326016,0.8161847710062071,-0.1701252610080013,-1.234419,-12.380016
11.185,2.0,1.0,1.0,33.3,33.5,33.5,2.5,2.3,2.8225,-0.31187186942645634,-0.17222269578408486,0.7988385784671014,-0.1852602262471103,-1.334722,-11.939421
11.185,2.0,1.0,1.0,33.3,33.5,33.5,2.5,2.3,2.825,-0.32925634778520874,-0.17389680941341387,0.7797656246265056,-0.20183464231771814,-1.448176,-11.488804
11.185,2.0,1.0,1.0,33.3,33.5,33.5,2.5,2.3,2.8275,-0.34594252179718704,-0.17472275639812584,0.7588258167383188,-0.21997755236746586,-1.577073,-11.02823
11.185,2.0,1.0,1.0,33.3,33.5,33.5,2.5,2.3,2.83,-0.3616762640131228,-0.17444887198662776,0.7358803850982477,-0.23981609687685285,-1.724177,-10.557929
