1,w,sub_t,h,l1,l2,l3,g1,g2,Freq,S11_re,S21_re,S11_img,S21_img,S11_dB,S21_dB
11.185,2.0,1.0,1.0,34.6,33.5,33.5,1.9,3.8,2.5,0.675639355682109,-0.0151884651532269,0.7251014981253,0.00645233531322877,-0.077732,-35.649171
11.185,2.0,1.0,1.0,34.6,33.5,33.5,1.9,3.8,2.5025,0.6694130163517549,-0.015453357343204795,0.7307182864588656,0.006398319300539254,-0.078607,-35.532381
11.185,2.0,1.0,1.0,34.6,33.5,33.5,1.9,3.8,2.505,0.6631032002530937,-0.015722217385680155,0.7363123775587118,0.006340682200704181,-0.079496,-35.415248
11.185,2.0,1.0,1.0,34.6,33.5,33.5,1.9,3.8,2.5075,0.6567090730307995,-0.015995094902285678,0.7418828409373238,0.006279302801507838,-0.080403,-35.297767
11.185,2.0,1.0,1.0,34.6,33.5,33.5,1.9,3.8,2.51,0.6502297933868729,-0.0162720395121066,0.7474287194877292,0.006214055999673946,-0.081325,-35.179934
11.185,2.0,1.0,1.0,34.6,33.5,33.5,1.9,3.8,2.5125,0.6436645132551737,-0.01655310078315456,0.752949028731769,0.006144812673984592,-0.082264,-35.061742
11.185,2.0,1.0,1.0,34.6,33.5,33.5,1.9,3.8,2.515,0.637012377992394,-0.01683832818030325,0.7584427560486315,0.006071439554315986,-0.083221,-34.943188
11.185,2.0,1.0,1.0,34.6,33.5,33.5,1.9,3.8,2.5175,0.6302725265863989,-0.017127771009477533,0.7639088598832192,0.005993799086471168,-0.084195,-34.824265
11.185,2.0,1.0,1.0,34.6,33.5,33.5,1.9,3.8,2.52,0.623444091882848,-0.01742147835787721,0.7693462689339677,0.005911749292688711,-0.085186,-34.704969
11.185,2.0,1.0,1.0,34.6,33.5,33.5,1.9,3.8,2.5225,0.6165262008311214,-0.017719499030003957,0.7747538813196907,0.005825143627703521,-0.086197,-34.585294
11.185,2.0,1.0,1.0,34.6,33.5,33.5,1.9,3.8,2.525,0.6095179747505456,-0.01802188147924734,0.7801305637250537,0.005733830830233595,-0.087226,-34.465235
11.185,2.0,1.0,1.0,34.6,33.5,33.5,1.9,3.8,2.5275,0.6024185296180304,-0.018328673734773926,0.7854751505242906,0.005637654769765326,-0.088274,-34.344787
11.185,2.0,1.0,1.0,34.6,33.5,33.5,1.9,3.8,2.53,0.5952269763782352,-0.01863992332344639,0.790786442882746,0.005536454288507069,-0.089342,-34.223944
11.185,2.0,1.0,1.0,34.6,33.5,33.5,1.9,3.8,2.5325,0.5879424212774607,-0.018955677186488037,0.7960632078358736,0.0054300630383796854,-0.09043,-34.102701
11.185,2.0,1.0,1.0,34.6,33.5,33.5,1.9,3.8,2.535,0.5805639662224866,-0.019275981590591396,0.8013041773452992,0.0053183093129109925,-0.091539,-33.981052
11.185,2.0,1.0,1.0,34.6,33.5,33.5,1.9,3.8,2.5375,0.5730907091656837,-0.019600882033151263,0.8065080473315805,0.005201015873898776,-0.092669,-33.858992
11.185,2.0,1.0,1.0,34.6,33.5,33.5,1.9,3.8,2.54,0.5655217445177282,-0.019930423141289483,0.8116734766832999,0.005077999772707585,-0.093821,-33.736516
11.185,2.0,1.0,1.0,34.6,33.5,33.5,1.9,3.8,2.5425,0.5578561635893512,-0.020264648564316277,0.8167990862421437,0.004949072166061139,-0.094994,-33.613617
11.185,2.0,1.0,1.0,34.6,33.5,33.5,1.9,3.8,2.545,0.5500930550635991,-0.0206036008592574,0.82188345776363,0.004814038126193514,-0.096191,-33.490291
11.185,2.0,1.0,1.0,34.6,33.5,33.5,1.9,3.8,2.5475,0.5422315055001682,-0.020947321369053588,0.8269251328531612,0.0046726964452203324,-0.09741,-33.366531
11.185,2.0,1.0,1.0,34.6,33.5,33.5,1.9,3.8,2.55,0.5342705998734065,-0.02129585009301997,0.8319226118771149,0.004524839433591748,-0.098653,-33.242332
11.185,2.0,1.0,1.0,34.6,33.5,33.5,1.9,3.8,2.5525,0.5262094221457067,-0.02164922554912911,0.8368743528486692,0.004370252712488792,-0.099921,-33.117688
11.185,2.0,1.0,1.0,34.6,33.5,33.5,1.9,3.8,2.555,0.5180470558780299,-0.022007484627659217,0.8417787702881265,0.0042087150000252324,-0.101213,-32.992594
11.185,2.0,1.0,1.0,34.6,33.5,33.5,1.9,3.8,2.5575,0.5097825848794085,-0.022370662435724307,0.8466342340574944,0.004039997891117927,-0.102531,-32.867043
11.185,2.0,1.0,1.0,34.6,33.5,33.5,1.9,3.8,2.56,0.5014150938973657,-0.022738792132176663,0.8514390681691161,0.0038638656308903996,-0.103875,-32.74103
11.185,2.0,1.0,1.0,34.6,33.5,33.5,1.9,3.8,2.5625,0.492943669351245,-0.023111904752345442,0.856191549568188,0.0036800748814759103,-0.105246,-32.614548
11.185,2.0,1.0,1.0,34.6,33.5,33.5,1.9,3.8,2.565,0.4843674001105458,-0.023490029022046967,0.8608899068890217,0.0034883744820880845,-0.106645,-32.487592
11.185,2.0,1.0,1.0,34.6,33.5,33.5,1.9,3.8,2.5675,0.4756853783204592,-0.023873191160271517,0.8655323191849514,0.0032885052022323478,-0.108071,-32.360156
11.185,2.0,1.0,1.0,34.6,33.5,33.5,1.9,3.8,2.57,0.4668967002768719,-0.02426141466992021,0.8701169146318366,0.0030801994879322415,-0.109526,-32.232234
11.185,2.0,1.0,1.0,34.6,33.5,33.5,1.9,3.8,2.5725,0.4580004673532112,-0.024654720115933643,0.8746417692051477,0.002863181200851195,-0.111011,-32.103819
11.185,2.0,1.0,1.0,34.6,33.5,33.5,1.9,3.8,2.575,0.4489957869816042,-0.02505312489011653,0.8791049053306711,0.002637165350194778,-0.112526,-31.974906
11.185,2.0,1.0,1.0,34.6,33.5,33.5,1.9,3.8,2.5775,0.4398817736909311,-0.02545664296192948,0.8835042905089425,0.0024018578172844626,-0.114072,-31.845487
11.185,2.0,1.0,1.0,34.6,33.5,33.5,1.9,3.8,2.58,0.43065755020445523,-0.025865284614476902,0.8878378359135508,0.002156955072701038,-0.11565,-31.715558
11.185,2.0,1.0,1.0,34.6,33.5,33.5,1.9,3.8,2.5825,0.4213222485998045,-0.02627905616488325,0.8921033949635442,0.0019021438859039316,-0.117261,-31.58511
11.185,2.0,1.0,1.0,34.6,33.5,33.5,1.9,3.8,2.585,0.4118750115342356,-0.026697959668205047,0.8962987618702339,0.0016371010272412765,-0.118905,-31.454139
11.185,2.0,1.0,1.0,34.6,33.5,33.5,1.9,3.8,2.5875,0.40231499353817207,-0.027121992603982372,0.9004216701587587,0.0013614929622763302,-0.120584,-31.322638
11.185,2.0,1.0,1.0,34.6,33.5,33.5,1.9,3.8,2.59,0.3926413623801779,-0.02755114754448684,0.9044697911648644,0.0010749755383671956,-0.122297,-31.1906
11.185,2.0,1.0,1.0,34.6,33.5,33.5,1.9,3.8,2.5925,0.3828533005066199,-0.027985411803674237,0.9084407325074547,0.0007771936634496487,-0.124047,-31.058018
11.185,2.0,1.0,1.0,34.6,33.5,33.5,1.9,3.8,2.595,0.3729500065594198,-0.028424767065797385,0.9123320365375328,0.00046778097698723135,-0.125834,-30.924886
11.185,2.0,1.0,1.0,34.6,33.5,33.5,1.9,3.8,2.5975,0.362930696975401,-0.02886918899258217,0.9161411787642988,0.00014635951306925872,-0.127659,-30.791197
11.185,2.0,1.0,1.0,34.6,33.5,33.5,1.9,3.8,2.6,0.35279460767089627,-0.029318646807811544,0.9198655662592511,-0.00018746064434617987,-0.129522,-30.656944
11.185,2.0,1.0,1.0,34.6,33.5,33.5,1.9,3.8,2.6025,0.34254099581541375,-0.029773102858103005,0.9235025360392678,-0.0005340817140252067,-0.131426,-30.522121
11.185,2.0,1.0,1.0,34.6,33.5,33.5,1.9,3.8,2.605,0.3321691416982748,-0.030232512148602706,0.9270493534297874,-0.0008939185778492985,-0.133371,-30.38672
11.185,2.0,1.0,1.0,34.6,33.5,33.5,1.9,3.8,2.6075,0.3216783506923171,-0.030696821852253184,0.9305032104093264,-0.0012673991489409668,-0.135359,-30.250735
11.185,2.0,1.0,1.0,34.6,33.5,33.5,1.9,3.8,2.61,0.3110679553188843,-0.031165970791222127,0.9338612239367297,-0.0016549647474343658,-0.137389,-30.114158
11.185,2.0,1.0,1.0,34.6,33.5,33.5,1.9,3.8,2.6125,0.30033731741846803,-0.03163988888900776,0.9371204342627227,-0.002057070483774132,-0.139465,-29.976982
11.185,2.0,1.0,1.0,34.6,33.5,33.5,1.9,3.8,2.615,0.2894858304315274,-0.0321184965916603,0.940277803227476,-0.0024741856493931836,-0.141586,-29.839201
11.185,2.0,1.0,1.0,34.6,33.5,33.5,1.9,3.8,2.6175,0.2785129217941804,-0.032601704256477244,0.9433302125461015,-0.0029067941145855996,-0.143754,-29.700806
11.185,2.0,1.0,1.0,34.6,33.5,33.5,1.9,3.8,2.62,0.26741805545359615,-0.03308941150644782,0.9462744620841806,-0.0033553947333558915,-0.14597,-29.56179
11.185,2.0,1.0,1.0,34.6,33.5,33.5,1.9,3.8,2.6225,0.2562007345080838,-0.03358150654863312,0.9491072681256325,-0.0038205017549824134,-0.148236,-29.422146
11.185,2.0,1.0,1.0,34.6,33.5,33.5,1.9,3.8,2.625,0.244860503977066,-0.0340778654545741,0.951825261635454,-0.00430264524199098,-0.150552,-29.281866
11.185,2.0,1.0,1.0,34.6,33.5,33.5,1.9,3.8,2.6275,0.2333969537062303,-0.034578351400724426,0.9544249865200969,-0.004802371494186178,-0.152922,-29.140942
11.185,2.0,1.0,1.0,34.6,33.5,33.5,1.9,3.8,2.63,0.22180972141337804,-0.035082813866799706,0.9569028978884968,-0.005320243478335804,-0.155345,-28.999367
11.185,2.0,1.0,1.0,34.6,33.5,33.5,1.9,3.8,2.6325,0.21009849588062338,-0.03559108778982885,0.959255360317027,-0.005856841263048457,-0.157823,-28.857133
11.185,2.0,1.0,1.0,34.6,33.5,33.5,1.9,3.8,2.635,0.198263020298771,-0.036102992671578016,0.9614786461219444,-0.006412762458322926,-0.160359,-28.714232
11.185,2.0,1.0,1.0,34.6,33.5,33.5,1.9,3.8,2.6375,0.18630309576988716,-0.03661833163689853,0.9635689336431775,-0.006988622659182433,-0.162953,-28.570655
11.185,2.0,1.0,1.0,34.6,33.5,33.5,1.9,3.8,2.64,0.17421858497420395,-0.03713689044042435,0.9655223055436274,-0.007585055892737352,-0.165607,-28.426394
11.185,2.0,1.0,1.0,34.6,33.5,33.5,1.9,3.8,2.6425,0.1620094160077288,-0.037658436418911326,0.9673347471284905,-0.008202715067941112,-0.168323,-28.281442
11.185,2.0,1.0,1.0,34.6,33.5,33.5,1.9,3.8,2.645,0.14967558639704426,-0.03818271738637065,0.9690021446894513,-0.008842272427223715,-0.171104,-28.135789
11.185,2.0,1.0,1.0,34.6,33.5,33.5,1.9,3.8,2.6475,0.13721716729799377,-0.038709460469000895,0.9705202838789765,-0.009504419999097376,-0.17395,-27.989427
11.185,2.0,1.0,1.0,34.6,33.5,33.5,1.9,3.8,2.65,0.12463430788506086,-0.03923837087676762,0.9718848481203313,-0.010189870050733628,-0.176863,-27.842347
11.185,2.0,1.0,1.0,34.6,33.5,33.5,1.9,3.8,2.6525,0.1119272399385061,-0.03976913060831327,0.9730914170593337,-0.010899355539407097,-0.179846,-27.694541
11.185,2.0,1.0,1.0,34.6,33.5,33.5,1.9,3.8,2.655,0.09909628263637242,-0.04030139708570767,0.9741354650643337,-0.011633630561592377,-0.182901,-27.545999
11.185,2.0,1.0,1.0,34.6,33.5,33.5,1.9,3.8,2.6575,0.08614184755872897,-0.040834801715362586,0.9750123597813158,-0.012393470798379576,-0.18603,-27.396712
11.185,2.0,1.0,1.0,34.6,33.5,33.5,1.9,3.8,2.66,0.07306444391161214,-0.04136894837124016,0.9757173607515458,-0.013179673955746535,-0.189235,-27.246671
11.185,2.0,1.0,1.0,34.6,33.5,33.5,1.9,3.8,2.6625,0.05986468397833145,-0.04190341179627485,0.9762456180996444,-0.013993060198087605,-0.192518,-27.095866
11.185,2.0,1.0,1.0,34.6,33.5,33.5,1.9,3.8,2.665,0.04654328880588072,-0.04243773591771133,0.9765921713005419,-0.014834472573253096,-0.195882,-26.944287
11.185,2.0,1.0,1.0,34.6,33.5,33.5,1.9,3.8,2.6675,0.03310109413443435,-0.042971432071822205,0.9767519480342728,-0.015704777427189783,-0.199329,-26.791926
11.185,2.0,1.0,1.0,34.6,33.5,33.5,1.9,3.8,2.67,0.019539056577955925,-0.04350397713322259,0.9767197631381958,-0.01660486480610756,-0.202863,-26.638771
11.185,2.0,1.0,1.0,34.6,33.5,33.5,1.9,3.8,2.6725,0.00585826006412696,-0.0440348115437306,0.9764903176667861,-0.01753564884391003,-0.206485,-26.484813
11.185,2.0,1.0,1.0,34.6,33.5,33.5,1.9,3.8,2.675,-0.007940077458062435,-0.04456333723543724,0.9760581980698078,-0.018498068132429657,-0.210198,-26.33004
11.185,2.0,1.0,1.0,34.6,33.5,33.5,1.9,3.8,2.6775,-0.021854597034633834,-0.04508891544234569,0.9754178755003137,-0.019493086071796947,-0.214006,-26.174444
11.185,2.0,1.0,1.0,34.6,33.5,33.5,1.9,3.8,2.68,-0.035883791438286884,-0.04561086439461223,0.9745637052646213,-0.020521691198043965,-0.217911,-26.018011
11.185,2.0,1.0,1.0,34.6,33.5,33.5,1.9,3.8,2.6825,-0.050025997606720635,-0.04612845688906993,0.9734899264271089,-0.02158489748479565,-0.221917,-25.860732
11.185,2.0,1.0,1.0,34.6,33.5,33.5,1.9,3.8,2.685,-0.06427938877885928,-0.04664091772933948,0.9721906615834349,-0.02268374461563814,-0.226027,-25.702594
11.185,2.0,1.0,1.0,34.6,33.5,33.5,1.9,3.8,2.6875,-0.07864196632009103,-0.047147421028424244,0.9706599168165505,-0.023819298223467286,-0.230244,-25.543587
11.185,2.0,1.0,1.0,34.6,33.5,33.5,1.9,3.8,2.69,-0.09311155122752891,-0.04764708736624551,0.9688915818506697,-0.02499265009280879,-0.234571,-25.383698
11.185,2.0,1.0,1.0,34.6,33.5,33.5,1.9,3.8,2.6925,-0.10768577530627091,-0.04813898079410328,0.9668794304192014,-0.026204918320772923,-0.239014,-25.222915
11.185,2.0,1.0,1.0,34.6,33.5,33.5,1.9,3.8,2.695,-0.12236207200741984,-0.048622105677525625,0.9646171208635183,-0.027457247431937015,-0.243575,-25.061226
11.185,2.0,1.0,1.0,34.6,33.5,33.5,1.9,3.8,2.6975,-0.13713766691868443,-0.049095403368417785,0.9620981969802963,-0.02875080844206466,-0.248258,-24.898616
11.185,2.0,1.0,1.0,34.6,33.5,33.5,1.9,3.8,2.7,-0.15200956789812564,-0.049557748696807395,0.9593160891361485,-0.030086798865137685,-0.253068,-24.735075
11.185,2.0,1.0,1.0,34.6,33.5,33.5,1.9,3.8,2.7025,-0.16697455484161897,-0.0500079462718218,0.9562641156691644,-0.031466442657716046,-0.258009,-24.570586
11.185,2.0,1.0,1.0,34.6,33.5,33.5,1.9,3.8,2.705,-0.18202916907441385,-0.05044472658080774,0.9529354845980194,-0.03289099009413255,-0.263086,-24.405138
11.185,2.0,1.0,1.0,34.6,33.5,33.5,1.9,3.8,2.7075,-0.1971697023570651,-0.05086674187471112,0.9493232956603291,-0.03436171756547654,-0.268303,-24.238715
11.185,2.0,1.0,1.0,34.6,33.5,33.5,1.9,3.8,2.71,-0.2123921854958218,-0.05127256182696434,0.9454205427029806,-0.03587992729471111,-0.273666,-24.071302
11.185,2.0,1.0,1.0,34.6,33.5,33.5,1.9,3.8,2.7125,-0.22769237654739435,-0.05166066895217657,0.9412201164483179,-0.037446946959603246,-0.27918,-23.902884
11.185,2.0,1.0,1.0,34.6,33.5,33.5,1.9,3.8,2.715,-0.24306574860775484,-0.05202945376987137,0.9367148076611923,-0.039064129214408466,-0.28485,-23.733445
11.185,2.0,1.0,1.0,34.6,33.5,33.5,1.9,3.8,2.7175,-0.2585074771743709,-0.05237720969736142,0.9318973107430985,-0.04073285110043833,-0.290682,-23.56297
11.185,2.0,1.0,1.0,34.6,33.5,33.5,1.9,3.8,2.72,-0.27401242707088524,-0.05270212765457489,0.9267602277808921,-0.04245451333473697,-0.296683,-23.39144
11.185,2.0,1.0,1.0,34.6,33.5,33.5,1.9,3.8,2.7225,-0.2895751389229065,-0.053002290362242716,0.921296073078902,-0.044230539465092145,-0.302859,-23.218839
11.185,2.0,1.0,1.0,34.6,33.5,33.5,1.9,3.8,2.725,-0.3051898151729579,-0.05327566631329522,0.9154972782046302,-0.04606237487848221,-0.309215,-23.045149
11.185,2.0,1.0,1.0,34.6,33.5,33.5,1.9,3.8,2.7275,-0.3208503056221353,-0.05352010339559958,0.9093561975797443,-0.047951485648817356,-0.315761,-22.870351
11.185,2.0,1.0,1.0,34.6,33.5,33.5,1.9,3.8,2.73,-0.3365500924851534,-0.053733322142253084,0.9028651146495945,-0.04989935720841901,-0.322502,-22.694425
11.185,2.0,1.0,1.0,34.6,33.5,33.5,1.9,3.8,2.7325,-0.3522822749446683,-0.053912908583534834,0.8960162486662001,-0.05190749282610907,-0.329447,-22.517352
11.185,2.0,1.0,1.0,34.6,33.5,33.5,1.9,3.8,2.735,-0.3680395531895769,-0.05405630667226335,0.8888017621214457,-0.05397741187298933,-0.336603,-22.339111
11.185,2.0,1.0,1.0,34.6,33.5,33.5,1.9,3.8,2.7375,-0.3838142119207872,-0.05416081025169527,0.8812137688691837,-0.056110647854972905,-0.34398,-22.15968
11.185,2.0,1.0,1.0,34.6,33.5,33.5,1.9,3.8,2.74,-0.39959810330635226,-0.05422355453219789,0.8732443429771216,-0.058308746188832715,-0.351587,-21.979036
11.185,2.0,1.0,1.0,34.6,33.5,33.5,1.9,3.8,2.7425,-0.4153826293660682,-0.05424150703969468,0.8648855283516813,-0.06057326169591828,-0.359433,-21.797157
11.185,2.0,1.0,1.0,34.6,33.5,33.5,1.9,3.8,2.745,-0.4311587237634647,-0.05421145799529335,0.8561293491817137,-0.06290575578470745,-0.367529,-21.614017
11.185,2.0,1.0,1.0,34.6,33.5,33.5,1.9,3.8,2.7475,-0.4469168329805973,-0.054130010081502235,0.846967821249838,-0.06530779328994067,-0.375884,-21.429592
11.185,2.0,1.0,1.0,34.6,33.5,33.5,1.9,3.8,2.75,-0.462646896848071,-0.0539935675459932,0.837392964163533,-0.0677809389321696,-0.384512,-21.243854
11.185,2.0,1.0,1.0,34.6,33.5,33.5,1.9,3.8,2.7525,-0.47833832839928125,-0.05379832458891482,0.8273968145618644,-0.07032675335703868,-0.393423,-21.056777
11.185,2.0,1.0,1.0,34.6,33.5,33.5,1.9,3.8,2.755,-0.49397999301380296,-0.05354025297424477,0.8169714403580624,-0.07294678870842378,-0.402631,-20.868332
11.185,2.0,1.0,1.0,34.6,33.5,33.5,1.9,3.8,2.7575,-0.5095601868102719,-0.0532150887995419,0.8061089560830932,-0.07564258368355768,-0.412149,-20.678487
11.185,2.0,1.0,1.0,34.6,33.5,33.5,1.9,3.8,2.76,-0.5250666142436158,-0.052818318351638215,0.7948015394011914,-0.07841565801131885,-0.421991,-20.487213
11.185,2.0,1.0,1.0,34.6,33.5,33.5,1.9,3.8,2.7625,-0.5404863648554293,-0.05234516296823319,0.7830414488749139,-0.08126750628682715,-0.432174,-20.294475
11.185,2.0,1.0,1.0,34.6,33.5,33.5,1.9,3.8,2.765,-0.5558058891190956,-0.0517905628169421,0.7708210430651632,-0.0841995910861401,-0.442712,-20.100239
11.185,2.0,1.0,1.0,34.6,33.5,33.5,1.9,3.8,2.7675,-0.5710109733132122,-0.051149159494016556,0.7581328010607257,-0.08721333527398352,-0.453625,-19.90447
11.185,2.0,1.0,1.0,34.6,33.5,33.5,1.9,3.8,2.77,-0.5860867133476573,-0.05041527733461701,0.7449693445426362,-0.0903101134048102,-0.464931,-19.70713
11.185,2.0,1.0,1.0,34.6,33.5,33.5,1.9,3.8,2.7725,-0.6010174874561564,-0.04958290331508194,0.731323461501354,-0.09349124210272022,-0.476648,-19.508178
11.185,2.0,1.0,1.0,34.6,33.5,33.5,1.9,3.8,2.775,-0.6157869276573865,-0.048645665415010385,0.717188131739677,-0.09675796928856625,-0.4888,-19.307573
11.185,2.0,1.0,1.0,34.6,33.5,33.5,1.9,3.8,2.7775,-0.6303778898733807,-0.04759680929306155,0.702556554312028,-0.10011146210242758,-0.501408,-19.105272
11.185,2.0,1.0,1.0,34.6,33.5,33.5,1.9,3.8,2.78,-0.6447724225790458,-0.046429173115087936,0.6874221770716599,-0.10355279334608067,-0.514498,-18.901229
11.185,2.0,1.0,1.0,34.6,33.5,33.5,1.9,3.8,2.7825,-0.6589517338399734,-0.04513516035647532,0.6717787285222033,-0.10708292624247005,-0.528094,-18.695396
11.185,2.0,1.0,1.0,34.6,33.5,33.5,1.9,3.8,2.785,-0.6728961565772624,-0.04370671038228334,0.6556202521993604,-0.11070269727681206,-0.542227,-18.487723
11.185,2.0,1.0,1.0,34.6,33.5,33.5,1.9,3.8,2.7875,-0.686585111877612,-0.04213526658894393,0.6389411438436098,-0.11441279684591014,-0.556926,-18.278155
11.185,2.0,1.0,1.0,34.6,33.5,33.5,1.9,3.8,2.79,-0.6999970701446158,-0.040411741869836065,0.621736191666233,-0.1182137473975715,-0.572224,-18.066639
11.185,2.0,1.0,1.0,34.6,33.5,33.5,1.9,3.8,2.7925,-0.7131095098627326,-0.03852648114408401,0.6040006200604238,-0.1221058786893968,-0.588157,-17.853115
11.185,2.0,1.0,1.0,34.6,33.5,33.5,1.9,3.8,2.795,-0.7258988737191837,-0.0364692206635067,0.5857301371677828,-0.1260892997342896,-0.604763,-17.637521
11.185,2.0,1.0,1.0,34.6,33.5,33.5,1.9,3.8,2.7975,-0.73834052180083,-0.034229043787012144,0.5669209867804298,-0.1301638669269835,-0.622083,-17.419794
11.185,2.0,1.0,1.0,34.6,33.5,33.5,1.9,3.8,2.8,-0.750408681553632,-0.031794332885199124,0.547570005141731,-0.13432914775977223,-0.640163,-17.199865
11.185,2.0,1.0,1.0,34.6,33.5,33.5,1.9,3.8,2.8025,-0.7620763941616729,-0.029152717011067406,0.5276746833074298,-0.13858437943389698,-0.659052,-16.977663
11.185,2.0,1.0,1.0,34.6,33.5,33.5,1.9,3.8,2.805,-0.7733154569719055,-0.02629101494631376,0.5072332358462884,-0.1429284215528615,-0.678803,-16.753112
11.185,2.0,1.0,1.0,34.6,33.5,33.5,1.9,3.8,2.8075,-0.7840963615608203,-0.02319517320783844,0.4862446767989491,-0.14735970194184,-0.699475,-16.526134
11.185,2.0,1.0,1.0,34.6,33.5,33.5,1.9,3.8,2.81,-0.7943882270115984,-0.01985019857740609,0.46470890397982867,-0.15187615446918848,-0.72113,-16.296646
11.185,2.0,1.0,1.0,34.6,33.5,33.5,1.9,3.8,2.8125,-0.804158727947148,-0.0162400847010957,0.442626792904455,-0.156475147546994,-0.743838,-16.064562
11.185,2.0,1.0,1.0,34.6,33.5,33.5,1.9,3.8,2.815,-0.8133740168488951,-0.012347732297240593,0.4200003018596915,-0.1611534017518381,-0.767676,-15.829789
11.185,2.0,1.0,1.0,34.6,33.5,33.5,1.9,3.8,2.8175,-0.8219986401871087,-0.008154862516130146,0.39683258991377024,-0.16590689472761663,-0.792727,-15.592231
11.185,2.0,1.0,1.0,34.6,33.5,33.5,1.9,3.8,2.82,-0.8299954479016344,-0.0036419230173340947,0.3731281499954028,-0.1707307512012886,-0.819083,-15.351789
11.185,2.0,1.0,1.0,34.6,33.5,33.5,1.9,3.8,2.8225,-0.8373254958095248,0.0012120136214336813,0.3488929595661138,-0.17561911555031362,-0.846845,-15.108357
11.185,2.0,1.0,1.0,34.6,33.5,33.5,1.9,3.8,2.825,-0.8439479405882194,0.006429359466534747,0.32413465187876717,-0.18056500389612118,-0.876124,-14.861826
11.185,2.0,1.0,1.0,34.6,33.5,33.5,1.9,3.8,2.8275,-0.8498199271029253,0.01203412893221418,0.2988627113714159,-0.18556013214833564,-0.907046,-14.612079
