1,w,sub_t,h,l1,l2,l3,g1,g2,Freq,S11_re,S21_re,S11_img,S21_img,S11_dB,S21_dB
11.185,2.0,1.0,1.0,34.6,34.1,34.1,3.3,1.5,2.5,0.681958914187851,-0.0181870625247521,0.719226383196233,0.00923554777350417,-0.077317,-33.808392
11.185,2.0,1.0,1.0,34.6,34.1,34.1,3.3,1.5,2.5025,0.6759343945168812,-0.018532919127823382,0.7247466629654372,0.00920648785137511,-0.078244,-33.683244
11.185,2.0,1.0,1.0,34.6,34.1,34.1,3.3,1.5,2.505,0.6698305085998614,-0.018885155314506467,0.7302453856951002,0.009173739998642147,-0.079189,-33.557519
11.185,2.0,1.0,1.0,34.6,34.1,34.1,3.3,1.5,2.5075,0.6636464530060576,-0.019243906054913704,0.7357217036215111,0.00913715789390327,-0.080154,-33.431206
11.185,2.0,1.0,1.0,34.6,34.1,34.1,3.3,1.5,2.51,0.6573814153242995,-0.019609309772054762,0.7411747444895802,0.009096589344762363,-0.08114,-33.304293
11.185,2.0,1.0,1.0,34.6,34.1,34.1,3.3,1.5,2.5125,0.6510345741663585,-0.01998150844683967,0.7466036108021941,0.009051876021932297,-0.082146,-33.17677
11.185,2.0,1.0,1.0,34.6,34.1,34.1,3.3,1.5,2.515,0.6446050991765329,-0.02036064772685548,0.7520073790444224,0.00900285317941843,-0.083173,-33.048623
11.185,2.0,1.0,1.0,34.6,34.1,34.1,3.3,1.5,2.5175,0.6380921510477962,-0.020746877039074085,0.7573850988815307,0.008949349359931852,-0.084223,-32.91984
11.185,2.0,1.0,1.0,34.6,34.1,34.1,3.3,1.5,2.52,0.631494881544843,-0.0211403497066537,0.7627357923297439,0.008891186084626248,-0.085295,-32.79041
11.185,2.0,1.0,1.0,34.6,34.1,34.1,3.3,1.5,2.5225,0.6248124335344276,-0.021541223070005118,0.7680584528985844,0.008828177526183756,-0.086391,-32.66032
11.185,2.0,1.0,1.0,34.6,34.1,34.1,3.3,1.5,2.525,0.6180439410233531,-0.021949658612301665,0.7733520447036146,0.008760130164205116,-0.08751,-32.529555
11.185,2.0,1.0,1.0,34.6,34.1,34.1,3.3,1.5,2.5275,0.6111885292045176,-0.02236582208961716,0.7786155015482822,0.008686842421787359,-0.088654,-32.398104
11.185,2.0,1.0,1.0,34.6,34.1,34.1,3.3,1.5,2.53,0.6042453145114383,-0.02278988366588622,0.7838477259735244,0.008608104282085107,-0.089824,-32.265952
11.185,2.0,1.0,1.0,34.6,34.1,34.1,3.3,1.5,2.5325,0.5972134046816732,-0.023222018052887775,0.789047588273692,0.008523696883567166,-0.09102,-32.133085
11.185,2.0,1.0,1.0,34.6,34.1,34.1,3.3,1.5,2.535,0.5900918988295907,-0.023662404655462002,0.7942139254772794,0.008433392092579926,-0.092243,-31.99949
11.185,2.0,1.0,1.0,34.6,34.1,34.1,3.3,1.5,2.5375,0.5828798875289569,-0.024111227722177348,0.7993455402908226,0.008336952051726304,-0.093494,-31.86515
11.185,2.0,1.0,1.0,34.6,34.1,34.1,3.3,1.5,2.54,0.5755764529058142,-0.024568676501674273,0.8044412000042581,0.008234128702455696,-0.094774,-31.730052
11.185,2.0,1.0,1.0,34.6,34.1,34.1,3.3,1.5,2.5425,0.5681806687421592,-0.025034945404920017,0.8094996353558997,0.00812466328013432,-0.096083,-31.59418
11.185,2.0,1.0,1.0,34.6,34.1,34.1,3.3,1.5,2.545,0.5606916005909364,-0.025510234173616673,0.8145195393550714,0.008008285779732706,-0.097423,-31.457519
11.185,2.0,1.0,1.0,34.6,34.1,34.1,3.3,1.5,2.5475,0.5531083059029016,-0.02599474805501207,0.8194995660603002,0.007884714390121568,-0.098795,-31.320051
11.185,2.0,1.0,1.0,34.6,34.1,34.1,3.3,1.5,2.55,0.545429834165899,-0.02648869798337481,0.8244383293108419,0.007753654894803488,-0.1002,-31.18176
11.185,2.0,1.0,1.0,34.6,34.1,34.1,3.3,1.5,2.5525,0.537655227057167,-0.026992300768393453,0.8293344014091216,0.007614800036738969,-0.101638,-31.042629
11.185,2.0,1.0,1.0,34.6,34.1,34.1,3.3,1.5,2.555,0.5297835186092603,-0.027505779290779093,0.8341863117515368,0.007467828844732368,-0.103111,-30.902641
11.185,2.0,1.0,1.0,34.6,34.1,34.1,3.3,1.5,2.5575,0.5218137353902368,-0.028029362705344986,0.8389925454048528,0.007312405918635116,-0.104621,-30.761778
11.185,2.0,1.0,1.0,34.6,34.1,34.1,3.3,1.5,2.56,0.5137448966987782,-0.028563286651847264,0.8437515416252218,0.007148180670399821,-0.106167,-30.62002
11.185,2.0,1.0,1.0,34.6,34.1,34.1,3.3,1.5,2.5625,0.505576014774936,-0.0291077934738767,0.848461692316631,0.00697478651776871,-0.107752,-30.47735
11.185,2.0,1.0,1.0,34.6,34.1,34.1,3.3,1.5,2.565,0.49730609502722506,-0.029663132446089112,0.8531213404253402,0.006791840027106247,-0.109378,-30.333747
11.185,2.0,1.0,1.0,34.6,34.1,34.1,3.3,1.5,2.5675,0.4889341362768423,-0.03022956001006381,0.8577287782665836,0.006598940001593349,-0.111044,-30.189191
11.185,2.0,1.0,1.0,34.6,34.1,34.1,3.3,1.5,2.57,0.4804591310197945,-0.030807340019079563,0.8622822457795232,0.006395666510666969,-0.112754,-30.043662
11.185,2.0,1.0,1.0,34.6,34.1,34.1,3.3,1.5,2.5725,0.4718800657077853,-0.031396743992090186,0.8667799287061005,0.00618157985623609,-0.114507,-29.897138
11.185,2.0,1.0,1.0,34.6,34.1,34.1,3.3,1.5,2.575,0.4631959210487429,-0.03199805137717275,0.8712199566890831,0.005956219470805208,-0.116307,-29.749598
11.185,2.0,1.0,1.0,34.6,34.1,34.1,3.3,1.5,2.5775,0.45440567232793394,-0.032611549824710546,0.8756004012841789,0.005719102742209189,-0.118155,-29.601018
11.185,2.0,1.0,1.0,34.6,34.1,34.1,3.3,1.5,2.58,0.44550828975065027,-0.03323753547055273,0.8799192738806704,0.005469723759177401,-0.120052,-29.451375
11.185,2.0,1.0,1.0,34.6,34.1,34.1,3.3,1.5,2.5825,0.4365027388075264,-0.03387631322936791,0.8841745235245186,0.0052075519714252245,-0.122001,-29.300645
11.185,2.0,1.0,1.0,34.6,34.1,34.1,3.3,1.5,2.585,0.42738798066361694,-0.03452819709837844,0.8883640346373489,0.004932030757387678,-0.124002,-29.148803
11.185,2.0,1.0,1.0,34.6,34.1,34.1,3.3,1.5,2.5875,0.41816297257243745,-0.03519351047161775,0.8924856246241333,0.004642575892065094,-0.12606,-28.995823
11.185,2.0,1.0,1.0,34.6,34.1,34.1,3.3,1.5,2.59,0.40882666831627457,-0.035872586464802625,0.8965370413617108,0.0043385739067475304,-0.128175,-28.84168
11.185,2.0,1.0,1.0,34.6,34.1,34.1,3.3,1.5,2.5925,0.3993780186741581,-0.036565768250849034,0.9005159605595584,0.004019380331592437,-0.13035,-28.686345
11.185,2.0,1.0,1.0,34.6,34.1,34.1,3.3,1.5,2.595,0.38981597191903783,-0.03727340940597086,0.9044199829834033,0.0036843178111663527,-0.132587,-28.529791
11.185,2.0,1.0,1.0,34.6,34.1,34.1,3.3,1.5,2.5975,0.38013947434579903,-0.03799587426621423,0.908246631531351,0.003332674082090739,-0.134889,-28.371987
11.185,2.0,1.0,1.0,34.6,34.1,34.1,3.3,1.5,2.6,0.3703474708319583,-0.038733538294146906,0.9119933481511932,0.0029636998008663357,-0.137259,-28.212905
11.185,2.0,1.0,1.0,34.6,34.1,34.1,3.3,1.5,2.6025,0.3604389054330444,-0.03948678845528314,0.9156574905864284,0.0025766062087550735,-0.1397,-28.052511
11.185,2.0,1.0,1.0,34.6,34.1,34.1,3.3,1.5,2.605,0.35041272201487045,-0.04025602360363829,0.9192363289372615,0.0021705626192761716,-0.142213,-27.890775
11.185,2.0,1.0,1.0,34.6,34.1,34.1,3.3,1.5,2.6075,0.3402678649251906,-0.041041654875603344,0.9227270420214383,0.001744693712395899,-0.144804,-27.727662
11.185,2.0,1.0,1.0,34.6,34.1,34.1,3.3,1.5,2.61,0.33000327970750004,-0.041844106091055426,0.9261267135181948,0.0012980766178455549,-0.147474,-27.563137
11.185,2.0,1.0,1.0,34.6,34.1,34.1,3.3,1.5,2.6125,0.3196179138600893,-0.042663814160323506,0.929432327876845,0.0008297377681601941,-0.150228,-27.397164
11.185,2.0,1.0,1.0,34.6,34.1,34.1,3.3,1.5,2.615,0.3091107176438707,-0.043501229495245826,0.9326407659695276,0.00033864949998052,-0.15307,-27.229706
11.185,2.0,1.0,1.0,34.6,34.1,34.1,3.3,1.5,2.6175,0.2984806449429879,-0.04435681642211315,0.9357488004654234,-0.000176273620145695,-0.156003,-27.060724
11.185,2.0,1.0,1.0,34.6,34.1,34.1,3.3,1.5,2.62,0.2877266541827483,-0.045231053593754754,0.9387530909012697,-0.0007161787718009113,-0.159031,-26.890177
11.185,2.0,1.0,1.0,34.6,34.1,34.1,3.3,1.5,2.6225,0.2768477093101088,-0.04612443439738945,0.9416501784201662,-0.0012822791878078714,-0.16216,-26.718024
11.185,2.0,1.0,1.0,34.6,34.1,34.1,3.3,1.5,2.625,0.265842780842743,-0.0470374673540947,0.944436480147517,-0.0018758588248958,-0.165394,-26.54422
11.185,2.0,1.0,1.0,34.6,34.1,34.1,3.3,1.5,2.6275,0.2547108469936043,-0.04797067650484039,0.9471082831693808,-0.0024982774340666465,-0.168738,-26.36872
11.185,2.0,1.0,1.0,34.6,34.1,34.1,3.3,1.5,2.63,0.2434508948790524,-0.048924601776943355,0.9496617380744833,-0.003150976070924529,-0.172198,-26.191477
11.185,2.0,1.0,1.0,34.6,34.1,34.1,3.3,1.5,2.6325,0.23206192181989949,-0.04989979932349859,0.9520928520165765,-0.0038354830908779794,-0.175779,-26.012441
11.185,2.0,1.0,1.0,34.6,34.1,34.1,3.3,1.5,2.635,0.22054293674630476,-0.05089684182678811,0.9543974812486785,-0.004553420679380887,-0.179488,-25.831562
11.185,2.0,1.0,1.0,34.6,34.1,34.1,3.3,1.5,2.6375,0.20889296171929553,-0.0519163187548161,0.9565713230749093,-0.005306511973312927,-0.183331,-25.648785
11.185,2.0,1.0,1.0,34.6,34.1,34.1,3.3,1.5,2.64,0.19711103358391913,-0.05295883655789293,0.9586099071589609,-0.006096588836331224,-0.187316,-25.464055
11.185,2.0,1.0,1.0,34.6,34.1,34.1,3.3,1.5,2.6425,0.1851962057716816,-0.054025018789542856,0.9605085861207624,-0.00692560035865823,-0.191451,-25.277313
11.185,2.0,1.0,1.0,34.6,34.1,34.1,3.3,1.5,2.645,0.17314755027309925,-0.05511550613281547,0.9622625253442693,-0.007795622160437756,-0.195743,-25.088498
11.185,2.0,1.0,1.0,34.6,34.1,34.1,3.3,1.5,2.6475,0.16096415980497286,-0.05623095630928099,0.9638666919095911,-0.008708866587657935,-0.200201,-24.897547
11.185,2.0,1.0,1.0,34.6,34.1,34.1,3.3,1.5,2.65,0.1486451502015481,-0.057372043843403095,0.9653158425514815,-0.009667693900879617,-0.204835,-24.704393
11.185,2.0,1.0,1.0,34.6,34.1,34.1,3.3,1.5,2.6525,0.13618966306421615,-0.05853945964948224,0.9666045105335066,-0.010674624569822337,-0.209655,-24.508966
11.185,2.0,1.0,1.0,34.6,34.1,34.1,3.3,1.5,2.655,0.12359686871094362,-0.05973391040175637,0.9677269913126092,-0.011732352801523753,-0.214672,-24.311194
11.185,2.0,1.0,1.0,34.6,34.1,34.1,3.3,1.5,2.6575,0.11086596947455656,-0.06095611764026471,0.9686773268521205,-0.012843761446543986,-0.219898,-24.110999
11.185,2.0,1.0,1.0,34.6,34.1,34.1,3.3,1.5,2.66,0.09799620340857372,-0.0622068165554681,0.9694492884220712,-0.014011938446911622,-0.225347,-23.908302
11.185,2.0,1.0,1.0,34.6,34.1,34.1,3.3,1.5,2.6625,0.0849868484708312,-0.06348675438300128,0.9700363577036618,-0.015240195011557909,-0.231031,-23.703018
11.185,2.0,1.0,1.0,34.6,34.1,34.1,3.3,1.5,2.665,0.07183722726910508,-0.06479668832585896,0.9704317059894078,-0.016532085730343458,-0.236967,-23.495059
11.185,2.0,1.0,1.0,34.6,34.1,34.1,3.3,1.5,2.6675,0.058546712469957116,-0.06613738290426209,0.9706281712412853,-0.017891430866968313,-0.24317,-23.284332
11.185,2.0,1.0,1.0,34.6,34.1,34.1,3.3,1.5,2.67,0.045114732992639885,-0.06750960661271954,0.9706182327355036,-0.019322341104698843,-0.249659,-23.070738
11.185,2.0,1.0,1.0,34.6,34.1,34.1,3.3,1.5,2.6725,0.03154078113502337,-0.06891412773856524,0.9703939829836244,-0.020829245057701114,-0.256452,-22.854176
11.185,2.0,1.0,1.0,34.6,34.1,34.1,3.3,1.5,2.675,0.017824420809225604,-0.07035170916545569,0.9699470965747048,-0.022416919905660308,-0.263573,-22.634536
11.185,2.0,1.0,1.0,34.6,34.1,34.1,3.3,1.5,2.6775,0.003965297102161326,-0.071823101947664,0.9692687955309722,-0.02409052556135946,-0.271043,-22.411705
11.185,2.0,1.0,1.0,34.6,34.1,34.1,3.3,1.5,2.68,-0.010036852577770572,-0.0733290373948647,0.9683498107090716,-0.02585564284112894,-0.278888,-22.185561
11.185,2.0,1.0,1.0,34.6,34.1,34.1,3.3,1.5,2.6825,-0.02418218544996697,-0.0748702173503908,0.9671803387086366,-0.027718316177965007,-0.287137,-21.955979
11.185,2.0,1.0,1.0,34.6,34.1,34.1,3.3,1.5,2.685,-0.03847073801930802,-0.07644730227614271,0.9657499936683801,-0.0296851014983034,-0.29582,-21.722822
11.185,2.0,1.0,1.0,34.6,34.1,34.1,3.3,1.5,2.6875,-0.052902407968462,-0.0780608966710626,0.964047753234922,-0.0317631199777744,-0.304971,-21.485949
11.185,2.0,1.0,1.0,34.6,34.1,34.1,3.3,1.5,2.69,-0.06747693270426425,-0.0797115312433205,0.9620618978791561,-0.03396011850099147,-0.314628,-21.24521
11.185,2.0,1.0,1.0,34.6,34.1,34.1,3.3,1.5,2.6925,-0.08219386384501072,-0.08139964112375128,0.9597799426063623,-0.036284537778096516,-0.324832,-21.000445
11.185,2.0,1.0,1.0,34.6,34.1,34.1,3.3,1.5,2.695,-0.09705253677019732,-0.0831255392429251,0.9571885599566545,-0.038745589219273034,-0.33563,-20.751484
11.185,2.0,1.0,1.0,34.6,34.1,34.1,3.3,1.5,2.6975,-0.11205203414774946,-0.08488938378794715,0.9542734930181938,-0.041353341841146175,-0.347072,-20.49815
11.185,2.0,1.0,1.0,34.6,34.1,34.1,3.3,1.5,2.7,-0.12719114209485033,-0.08669113839656577,0.9510194569733375,-0.04411882067955793,-0.359217,-20.240251
11.185,2.0,1.0,1.0,34.6,34.1,34.1,3.3,1.5,2.7025,-0.14246829730292423,-0.08853052342121315,0.9474100274630758,-0.047054118415804966,-0.372127,-19.977586
11.185,2.0,1.0,1.0,34.6,34.1,34.1,3.3,1.5,2.705,-0.1578815230465272,-0.09040695618574887,0.9434275137835743,-0.0501725221923424,-0.385874,-19.709939
11.185,2.0,1.0,1.0,34.6,34.1,34.1,3.3,1.5,2.7075,-0.17342835147596503,-0.09231947763905028,0.9390528146156693,-0.0534886579036623,-0.400539,-19.437081
11.185,2.0,1.0,1.0,34.6,34.1,34.1,3.3,1.5,2.71,-0.18910572893292288,-0.09426666215101139,0.9342652536296668,-0.05701865460254656,-0.416213,-19.158768
11.185,2.0,1.0,1.0,34.6,34.1,34.1,3.3,1.5,2.7125,-0.2049099001865941,-0.09624650635737748,0.9290423919004709,-0.06078033206434641,-0.432997,-18.874741
11.185,2.0,1.0,1.0,34.6,34.1,34.1,3.3,1.5,2.715,-0.22083626641100904,-0.09825629188681244,0.9233598136108199,-0.06479341500321631,-0.451008,-18.584723
11.185,2.0,1.0,1.0,34.6,34.1,34.1,3.3,1.5,2.7175,-0.23687921034216158,-0.10029241542667913,0.9171908810159043,-0.06907977793146007,-0.470377,-18.288417
11.185,2.0,1.0,1.0,34.6,34.1,34.1,3.3,1.5,2.72,-0.253031880273227,-0.10235017781092953,0.9105064541004267,-0.07366372518649404,-0.491256,-17.985509
11.185,2.0,1.0,1.0,34.6,34.1,34.1,3.3,1.5,2.7225,-0.26928592224521986,-0.10442352152234008,0.9032745698001755,-0.07857231119819975,-0.513817,-17.67566
11.185,2.0,1.0,1.0,34.6,34.1,34.1,3.3,1.5,2.725,-0.28563114680633817,-0.10650470303085695,0.8954600751240904,-0.08383570659258592,-0.538259,-17.358512
11.185,2.0,1.0,1.0,34.6,34.1,34.1,3.3,1.5,2.7275,-0.3020551128311184,-0.10858388252631894,0.8870242080693441,-0.08948761615556151,-0.564811,-17.033679
11.185,2.0,1.0,1.0,34.6,34.1,34.1,3.3,1.5,2.73,-0.3185426058253792,-0.11064860856435828,0.8779241199895454,-0.0955657548946301,-0.593739,-16.70075
11.185,2.0,1.0,1.0,34.6,34.1,34.1,3.3,1.5,2.7325,-0.3350749815176313,-0.11268316855429539,0.868112333249264,-0.10211238824157658,-0.625351,-16.359288
11.185,2.0,1.0,1.0,34.6,34.1,34.1,3.3,1.5,2.735,-0.3516293368546339,-0.11466776738362769,0.8575361288926557,-0.10917494151991951,-0.660011,-16.008827
11.185,2.0,1.0,1.0,34.6,34.1,34.1,3.3,1.5,2.7375,-0.3681774591257616,-0.11657748514803547,0.8461368611759468,-0.11680668165146219,-0.698142,-15.648868
11.185,2.0,1.0,1.0,34.6,34.1,34.1,3.3,1.5,2.74,-0.38468448899116303,-0.11838095009936872,0.8338491999684702,-0.12506746989272025,-0.740248,-15.278886
11.185,2.0,1.0,1.0,34.6,34.1,34.1,3.3,1.5,2.7425,-0.40110721360221246,-0.12003864346672467,0.820600309489279,-0.13402457690294906,-0.786924,-14.898323
11.185,2.0,1.0,1.0,34.6,34.1,34.1,3.3,1.5,2.745,-0.41739188043930725,-0.1215007274213173,0.8063089846255708,-0.1437535386477067,-0.838883,-14.506594
11.185,2.0,1.0,1.0,34.6,34.1,34.1,3.3,1.5,2.7475,-0.43347138936767265,-0.12270425457951159,0.7908847873317576,-0.15433901039032202,-0.896979,-14.103088
11.185,2.0,1.0,1.0,34.6,34.1,34.1,3.3,1.5,2.75,-0.449261678018511,-0.123569575387915,0.774227260274783,-0.165875541398182,-0.962244,-13.687172
11.185,2.0,1.0,1.0,34.6,34.1,34.1,3.3,1.5,2.7525,-0.4646570624570692,-0.12399570706043052,0.7562253506675166,-0.17846813733215083,-1.035934,-13.258206
11.185,2.0,1.0,1.0,34.6,34.1,34.1,3.3,1.5,2.755,-0.479524230765064,-0.12385436404593049,0.7367572660183018,-0.1922323887572927,-1.119583,-12.815548
11.185,2.0,1.0,1.0,34.6,34.1,34.1,3.3,1.5,2.7575,-0.49369451401822934,-0.12298227772180204,0.7156911235193618,-0.20729380471818942,-1.21508,-12.358585
11.185,2.0,1.0,1.0,34.6,34.1,34.1,3.3,1.5,2.76,-0.5069539859545088,-0.1211713609522635,0.6928869733358866,-0.2237857727022655,-1.324767,-11.886759
11.185,2.0,1.0,1.0,34.6,34.1,34.1,3.3,1.5,2.7625,-0.5190308915687023,-0.11815622350138945,0.668201113010014,-0.24184523098862293,-1.451563,-11.399616
11.185,2.0,1.0,1.0,34.6,34.1,34.1,3.3,1.5,2.765,-0.5295799246387211,-0.11359856567989735,0.6414941208304804,-0.26160463153727914,-1.59913,-10.896872
11.185,2.0,1.0,1.0,34.6,34.1,34.1,3.3,1.5,2.7675,-0.5381630637620924,-0.10706816871265128,0.612644789946266,-0.28317802231387434,-1.77209,-10.378515
11.185,2.0,1.0,1.0,34.6,34.1,34.1,3.3,1.5,2.77,-0.5442272255597441,-0.09802075006529103,0.58157321232278,-0.3066380181824984,-1.976295,-9.844938
11.185,2.0,1.0,1.0,34.6,34.1,34.1,3.3,1.5,2.7725,-0.5470802455686786,-0.08577420188898523,0.5482776658358071,-0.3319790370365933,-2.219174,-9.297135
11.185,2.0,1.0,1.0,34.6,34.1,34.1,3.3,1.5,2.775,-0.5458692297123983,-0.06948725496623111,0.5128915526495768,-0.35906060006913804,-2.510132,-8.736965
11.185,2.0,1.0,1.0,34.6,34.1,34.1,3.3,1.5,2.7775,-0.5395699995068864,-0.048149269827526646,0.4757678303225431,-0.387523323984928,-2.860974,-8.16751
11.185,2.0,1.0,1.0,34.6,34.1,34.1,3.3,1.5,2.78,-0.5270042144786992,-0.02059767236703039,0.4375975954651624,-0.4166710369721766,-3.286188,-7.593534
11.185,2.0,1.0,1.0,34.6,34.1,34.1,3.3,1.5,2.7825,-0.5069122855940591,0.014409000802701891,0.39956333781958514,-0.4453185983533041,-3.802693,-7.022039
11.185,2.0,1.0,1.0,34.6,34.1,34.1,3.3,1.5,2.785,-0.47812326579766196,0.05802153852185943,0.3635099612295193,-0.4716223742867412,-4.428041,-6.462873
11.185,2.0,1.0,1.0,34.6,34.1,34.1,3.3,1.5,2.7875,-0.4398684497690693,0.11098766945127811,0.33208066169949146,-0.49294615436300404,-5.174668,-5.929251
11.185,2.0,1.0,1.0,34.6,34.1,34.1,3.3,1.5,2.79,-0.3922619198030504,0.17317411020497306,0.3087087553906873,-0.5058709123324306,-6.035034,-5.43794
11.185,2.0,1.0,1.0,34.6,34.1,34.1,3.3,1.5,2.7925,-0.33688651373490647,0.24298478968359016,0.2973035224340641,-0.5065092708786618,-6.949026,-5.008723
11.185,2.0,1.0,1.0,34.6,34.1,34.1,3.3,1.5,2.795,-0.27726414583138326,0.3168956164322135,0.301487938088348,-0.49126529121087636,-7.752847,-4.662732
11.185,2.0,1.0,1.0,34.6,34.1,34.1,3.3,1.5,2.7975,-0.2188297460017574,0.389484320319851,0.3234374309603469,-0.4579894238375681,-8.167352,-4.419489
11.185,2.0,1.0,1.0,34.6,34.1,34.1,3.3,1.5,2.8,-0.16807305247284968,0.45428794043813425,0.36273279477415293,-0.40711657036778875,-7.96359,-4.293153
11.185,2.0,1.0,1.0,34.6,34.1,34.1,3.3,1.5,2.8025,-0.130938215809563,0.5053961674759072,0.4159126317170682,-0.3421058507339604,-7.209536,-4.289184
11.185,2.0,1.0,1.0,34.6,34.1,34.1,3.3,1.5,2.805,-0.11117310782855545,0.539090801017705,0.4771842636761376,-0.26872793292216113,-6.196725,-4.402925
11.185,2.0,1.0,1.0,34.6,34.1,34.1,3.3,1.5,2.8075,-0.10950273519128376,0.5546625028756816,0.5400266390832495,-0.19346792274339616,-5.176702,-4.620798
11.185,2.0,1.0,1.0,34.6,34.1,34.1,3.3,1.5,2.81,-0.12397043273487249,0.5540658839611831,0.5988340244871646,-0.12189162691257656,-4.271622,-4.923511
11.185,2.0,1.0,1.0,34.6,34.1,34.1,3.3,1.5,2.8125,-0.151044266531318,0.540815828968331,0.649862467792646,-0.0577078931412118,-3.515077,-5.289843
11.185,2.0,1.0,1.0,34.6,34.1,34.1,3.3,1.5,2.815,-0.1867994342632736,0.5188110858769781,0.6913294538780604,-0.002673481521043484,-2.900262,-5.6997
11.185,2.0,1.0,1.0,34.6,34.1,34.1,3.3,1.5,2.8175,-0.22772651013947773,0.49153181715229427,0.7229770829867097,0.04296971954164098,-2.406682,-6.135904
11.185,2.0,1.0,1.0,34.6,34.1,34.1,3.3,1.5,2.82,-0.2710859763487086,0.4616889359852855,0.7454871223570828,0.079911672897968,-2.011846,-6.584813
11.185,2.0,1.0,1.0,34.6,34.1,34.1,3.3,1.5,2.8225,-0.3149404889254189,0.4311936787981375,0.7599866475682825,0.10928236389990416,-1.695607,-7.036187
11.185,2.0,1.0,1.0,34.6,34.1,34.1,3.3,1.5,2.825,-0.35802896876666046,0.4012839508336046,0.767718603429578,0.1323245427668125,-1.441317,-7.482679
11.185,2.0,1.0,1.0,34.6,34.1,34.1,3.3,1.5,2.8275,-0.39959716128705464,0.37269347439046163,0.7698595338375972,0.15021299645513111,-1.235734,-7.919233
11.185,2.0,1.0,1.0,34.6,34.1,34.1,3.3,1.5,2.83,-0.43924225902730524,0.3458066077343315,0.767438647770198,0.16397456855350007,-1.068511,-8.342517
