1,w,sub_t,h,l1,l2,l3,g1,g2,Freq,S11_re,S21_re,S11_img,S21_img,S11_dB,S21_dB
11.185,2.0,1.0,1.0,34.4,33.6,33.6,3.1,3.7,2.5,0.721739211524715,-0.0100861495292469,0.680997762775958,0.0044189492841045,-0.067113,-39.162913
11.185,2.0,1.0,1.0,34.4,33.6,33.6,3.1,3.7,2.5025,0.7162275081561708,-0.010260194357152159,0.6866789286863151,0.00438693609036552,-0.0678,-39.047721
11.185,2.0,1.0,1.0,34.4,33.6,33.6,3.1,3.7,2.505,0.7106414561220303,-0.010436761741056955,0.692344006702139,0.004352721772763225,-0.068498,-38.932239
11.185,2.0,1.0,1.0,34.4,33.6,33.6,3.1,3.7,2.5075,0.7049803355874441,-0.01061588427158057,0.6979922913125213,0.004316236811810196,-0.069208,-38.816463
11.185,2.0,1.0,1.0,34.4,33.6,33.6,3.1,3.7,2.51,0.6992434197732125,-0.010797594753613117,0.7036230573439793,0.004277409536416338,-0.069931,-38.700386
11.185,2.0,1.0,1.0,34.4,33.6,33.6,3.1,3.7,2.5125,0.6934299750311225,-0.010981926191792937,0.7092355594146383,0.004236166053430459,-0.070666,-38.584003
11.185,2.0,1.0,1.0,34.4,33.6,33.6,3.1,3.7,2.515,0.687539260928911,-0.011168911774744121,0.7148290313741742,0.004192430174759066,-0.071414,-38.467308
11.185,2.0,1.0,1.0,34.4,33.6,33.6,3.1,3.7,2.5175,0.6815705303454009,-0.011358584857999577,0.720402685729184,0.00414612334197513,-0.072175,-38.350295
11.185,2.0,1.0,1.0,34.4,33.6,33.6,3.1,3.7,2.52,0.6755230295763454,-0.01155097894553186,0.7259557130536869,0.004097164548325606,-0.072949,-38.232957
11.185,2.0,1.0,1.0,34.4,33.6,33.6,3.1,3.7,2.5225,0.6693959984515842,-0.011746127669808171,0.7314872813844052,0.004045470258043933,-0.073737,-38.11529
11.185,2.0,1.0,1.0,34.4,33.6,33.6,3.1,3.7,2.525,0.6631886704640936,-0.011944064770283246,0.7369965356005226,0.003990954322869148,-0.074539,-37.997286
11.185,2.0,1.0,1.0,34.4,33.6,33.6,3.1,3.7,2.5275,0.6569002729115756,-0.012144824070237339,0.7424825967875862,0.003933527895669857,-0.075356,-37.87894
11.185,2.0,1.0,1.0,34.4,33.6,33.6,3.1,3.7,2.53,0.6505300270512505,-0.012348439451862226,0.7479445615852234,0.003873099341067663,-0.076187,-37.760245
11.185,2.0,1.0,1.0,34.4,33.6,33.6,3.1,3.7,2.5325,0.6440771482685398,-0.012554944829492676,0.7533815015183408,0.0038095741429495763,-0.077032,-37.641195
11.185,2.0,1.0,1.0,34.4,33.6,33.6,3.1,3.7,2.535,0.637540846260361,-0.012764374120874836,0.758792462311488,0.0037428548087555394,-0.077893,-37.521784
11.185,2.0,1.0,1.0,34.4,33.6,33.6,3.1,3.7,2.5375,0.6309203252338015,-0.012976761216357175,0.76417646318604,0.0036728407704222765,-0.07877,-37.402005
11.185,2.0,1.0,1.0,34.4,33.6,33.6,3.1,3.7,2.54,0.6242147841209477,-0.013192139945883296,0.7695324961398836,0.0035994282818596107,-0.079662,-37.281852
11.185,2.0,1.0,1.0,34.4,33.6,33.6,3.1,3.7,2.5425,0.6174234168106999,-0.013410544043659009,0.7748595252092713,0.0035225103128308957,-0.080571,-37.161319
11.185,2.0,1.0,1.0,34.4,33.6,33.6,3.1,3.7,2.545,0.6105454123984331,-0.013632007110359102,0.7801564857125244,0.0034419764391039388,-0.081496,-37.040399
11.185,2.0,1.0,1.0,34.4,33.6,33.6,3.1,3.7,2.5475,0.603579955454407,-0.01385656257273147,0.7854222834752481,0.0033577127287330523,-0.082438,-36.919084
11.185,2.0,1.0,1.0,34.4,33.6,33.6,3.1,3.7,2.55,0.5965262263118485,-0.014084243640448838,0.7906557940367616,0.0032696016243272613,-0.083398,-36.797369
11.185,2.0,1.0,1.0,34.4,33.6,33.6,3.1,3.7,2.5525,0.5893834013757082,-0.01431508326004893,0.7958558618373976,0.0031775218211542197,-0.084375,-36.675247
11.185,2.0,1.0,1.0,34.4,33.6,33.6,3.1,3.7,2.555,0.5821506534530919,-0.014549114065796405,0.8010212993863859,0.003081348140921909,-0.085371,-36.55271
11.185,2.0,1.0,1.0,34.4,33.6,33.6,3.1,3.7,2.5575,0.5748271521064366,-0.014786368327289098,0.8061508864100068,0.002980951401075078,-0.086386,-36.429752
11.185,2.0,1.0,1.0,34.4,33.6,33.6,3.1,3.7,2.56,0.5674120640305508,-0.01502687789362199,0.8112433689797104,0.0028761982794351503,-0.087419,-36.306365
11.185,2.0,1.0,1.0,34.4,33.6,33.6,3.1,3.7,2.5625,0.5599045534546665,-0.015270674133911392,0.8162974586199221,0.002766951174005736,-0.088472,-36.182542
11.185,2.0,1.0,1.0,34.4,33.6,33.6,3.1,3.7,2.565,0.5523037825707093,-0.015517787873971029,0.8213118313952488,0.002653068057757925,-0.089545,-36.058277
11.185,2.0,1.0,1.0,34.4,33.6,33.6,3.1,3.7,2.5675,0.5446089119890569,-0.015768249328918984,0.8262851269768151,0.002534402328201825,-0.090639,-35.933561
11.185,2.0,1.0,1.0,34.4,33.6,33.6,3.1,3.7,2.57,0.536819101223078,-0.016022088031483195,0.8312159476874704,0.002410802651541363,-0.091753,-35.808388
11.185,2.0,1.0,1.0,34.4,33.6,33.6,3.1,3.7,2.5725,0.5289335092038296,-0.016279332755758835,0.8361028575256289,0.002282112801201575,-0.092889,-35.682749
11.185,2.0,1.0,1.0,34.4,33.6,33.6,3.1,3.7,2.575,0.5209512948263235,-0.01654001143615701,0.8409443811675044,0.0021481714905068425,-0.094047,-35.556638
11.185,2.0,1.0,1.0,34.4,33.6,33.6,3.1,3.7,2.5775,0.5128716175288501,-0.016804151081269748,0.8457390029475277,0.0020088121992797524,-0.095227,-35.430045
11.185,2.0,1.0,1.0,34.4,33.6,33.6,3.1,3.7,2.58,0.5046936379068946,-0.01707177768235924,0.8504851658167496,0.0018638629941183967,-0.096431,-35.302964
11.185,2.0,1.0,1.0,34.4,33.6,33.6,3.1,3.7,2.5825,0.49641651836324396,-0.017342916116163867,0.8551812702790542,0.001713146342099477,-0.097658,-35.175386
11.185,2.0,1.0,1.0,34.4,33.6,33.6,3.1,3.7,2.585,0.48803942379595966,-0.017617590041694064,0.8598256733050265,0.0015564789176422606,-0.098909,-35.047303
11.185,2.0,1.0,1.0,34.4,33.6,33.6,3.1,3.7,2.5875,0.47956152232593574,-0.01789582179067319,0.8644166872233405,0.0013936714022560299,-0.100186,-34.918707
11.185,2.0,1.0,1.0,34.4,33.6,33.6,3.1,3.7,2.59,0.47098198606586034,-0.01817763225125728,0.8689525785895598,0.0012245282768797705,-0.101487,-34.78959
11.185,2.0,1.0,1.0,34.4,33.6,33.6,3.1,3.7,2.5925,0.462299991932436,-0.01846304074464683,0.8734315670322773,0.0010488476065089523,-0.102815,-34.659943
11.185,2.0,1.0,1.0,34.4,33.6,33.6,3.1,3.7,2.595,0.4535147225038254,-0.018752064894179528,0.877851824076529,0.0008664208167890503,-0.10417,-34.529757
11.185,2.0,1.0,1.0,34.4,33.6,33.6,3.1,3.7,2.5975,0.4446253669243226,-0.019044720486469935,0.8822114719444807,0.0006770324622386636,-0.105552,-34.399023
11.185,2.0,1.0,1.0,34.4,33.6,33.6,3.1,3.7,2.6,0.43563112185836145,-0.01934102132413429,0.8865085823333936,0.0004804599857484609,-0.106962,-34.267733
11.185,2.0,1.0,1.0,34.4,33.6,33.6,3.1,3.7,2.6025,0.4265311924960468,-0.019640979069611285,0.8907411751709166,0.00027647346898347316,-0.108401,-34.135877
11.185,2.0,1.0,1.0,34.4,33.6,33.6,3.1,3.7,2.605,0.4173247936124567,-0.019944603079560502,0.8949072173478099,6.483537329634937e-05,-0.10987,-34.003446
11.185,2.0,1.0,1.0,34.4,33.6,33.6,3.1,3.7,2.6075,0.4080111506830756,-0.020251900229287002,0.8990046214282194,-0.00015469972926171498,-0.111369,-33.870431
11.185,2.0,1.0,1.0,34.4,33.6,33.6,3.1,3.7,2.61,0.3985895010577959,-0.020562874726607033,0.9030312443376841,-0.00038238543526808525,-0.112899,-33.736822
11.185,2.0,1.0,1.0,34.4,33.6,33.6,3.1,3.7,2.6125,0.3890590951960114,-0.020877527914533744,0.9069848860291059,-0.0006184838000542613,-0.114461,-33.602609
11.185,2.0,1.0,1.0,34.4,33.6,33.6,3.1,3.7,2.615,0.3794191979654177,-0.021195858062121743,0.9108632881269478,-0.0008632656391158219,-0.116057,-33.467782
11.185,2.0,1.0,1.0,34.4,33.6,33.6,3.1,3.7,2.6175,0.3696690900072524,-0.02151786014276778,0.9146641325499961,-0.001117010841320869,-0.117686,-33.332331
11.185,2.0,1.0,1.0,34.4,33.6,33.6,3.1,3.7,2.62,0.35980806917077884,-0.0218435255992196,0.9183850401130619,-0.0013800086944607214,-0.11935,-33.196246
11.185,2.0,1.0,1.0,34.4,33.6,33.6,3.1,3.7,2.6225,0.34983545201992966,-0.022172842094497148,0.9220235691080753,-0.0016525582237195528,-0.121049,-33.059515
11.185,2.0,1.0,1.0,34.4,33.6,33.6,3.1,3.7,2.625,0.33975057541515,-0.0225057932478767,0.92557721386506,-0.0019349685436734,-0.122785,-32.922129
11.185,2.0,1.0,1.0,34.4,33.6,33.6,3.1,3.7,2.6275,0.3295527981735463,-0.022842358355034485,0.9290434032935762,-0.0022275592244677513,-0.124559,-32.784075
11.185,2.0,1.0,1.0,34.4,33.6,33.6,3.1,3.7,2.63,0.31924150281060326,-0.023182512091383955,0.932419499405253,-0.0025306606728622517,-0.126371,-32.645344
11.185,2.0,1.0,1.0,34.4,33.6,33.6,3.1,3.7,2.6325,0.3088160973668095,-0.02352622419757702,0.9357027958181277,-0.00284461452887543,-0.128223,-32.505922
11.185,2.0,1.0,1.0,34.4,33.6,33.6,3.1,3.7,2.635,0.29827601732267683,-0.0238734591460682,0.9388905162435631,-0.003169774078809271,-0.130116,-32.365799
11.185,2.0,1.0,1.0,34.4,33.6,33.6,3.1,3.7,2.6375,0.2876207276057492,-0.024224175787564844,0.941979812956608,-0.0035065046854848157,-0.132051,-32.224961
11.185,2.0,1.0,1.0,34.4,33.6,33.6,3.1,3.7,2.64,0.27684972469330366,-0.024578326976104434,0.9449677652507301,-0.003855184236575582,-0.13403,-32.083398
11.185,2.0,1.0,1.0,34.4,33.6,33.6,3.1,3.7,2.6425,0.26596253881461573,-0.024935859171409884,0.9478513778779406,-0.004216203611984968,-0.136053,-31.941096
11.185,2.0,1.0,1.0,34.4,33.6,33.6,3.1,3.7,2.645,0.2549587362567592,-0.025296712017077273,0.950627579475404,-0.004589967171279684,-0.138122,-31.798042
11.185,2.0,1.0,1.0,34.4,33.6,33.6,3.1,3.7,2.6475,0.24383792177806954,-0.02566081789304474,0.9532932209797237,-0.0049768932622615385,-0.140238,-31.654222
11.185,2.0,1.0,1.0,34.4,33.6,33.6,3.1,3.7,2.65,0.2325997411335144,-0.026028101440677638,0.9558450740301659,-0.005377414751837715,-0.142402,-31.509624
11.185,2.0,1.0,1.0,34.4,33.6,33.6,3.1,3.7,2.6525,0.2212438837164264,-0.026398479058677912,0.9582798293621805,-0.005791979580431132,-0.144617,-31.364233
11.185,2.0,1.0,1.0,34.4,33.6,33.6,3.1,3.7,2.655,0.2097700853211215,-0.026771858367892698,0.9605940951926599,-0.006221051341266461,-0.146883,-31.218035
11.185,2.0,1.0,1.0,34.4,33.6,33.6,3.1,3.7,2.6575,0.19817813103115917,-0.027148137642945575,0.9627843955984726,-0.006665109885964246,-0.149202,-31.071015
11.185,2.0,1.0,1.0,34.4,33.6,33.6,3.1,3.7,2.66,0.18646785823813053,-0.027527205208453264,0.9648471688898776,-0.007124651957983856,-0.151576,-30.923158
11.185,2.0,1.0,1.0,34.4,33.6,33.6,3.1,3.7,2.6625,0.17463915979606598,-0.02790893879741118,0.9667787659805298,-0.007600191855574734,-0.154007,-30.774449
11.185,2.0,1.0,1.0,34.4,33.6,33.6,3.1,3.7,2.665,0.16269198731669174,-0.028293204869137917,0.9685754487558499,-0.008092262126022914,-0.156496,-30.62487
11.185,2.0,1.0,1.0,34.4,33.6,33.6,3.1,3.7,2.6675,0.15062635461103357,-0.028679857883952022,0.9702333884416284,-0.008601414293119935,-0.159044,-30.474407
11.185,2.0,1.0,1.0,34.4,33.6,33.6,3.1,3.7,2.67,0.13844234128300473,-0.029068739531521493,0.9717486639747861,-0.009128219619934694,-0.161655,-30.323042
11.185,2.0,1.0,1.0,34.4,33.6,33.6,3.1,3.7,2.6725,0.12614009648087077,-0.029459677909565635,0.9731172603783008,-0.009673269909136455,-0.16433,-30.170757
11.185,2.0,1.0,1.0,34.4,33.6,33.6,3.1,3.7,2.675,0.1137198428127297,-0.029852486649303744,0.9743350671423454,-0.01023717834329871,-0.167071,-30.017534
11.185,2.0,1.0,1.0,34.4,33.6,33.6,3.1,3.7,2.6775,0.10118188043237815,-0.030246963983729246,0.975397876613759,-0.010820580367814716,-0.16988,-29.863355
11.185,2.0,1.0,1.0,34.4,33.6,33.6,3.1,3.7,2.68,0.08852659130221478,-0.030642891754440696,0.9763013823959764,-0.011424134619274063,-0.17276,-29.708202
11.185,2.0,1.0,1.0,34.4,33.6,33.6,3.1,3.7,2.6825,0.0757544436401553,-0.031040034352373062,0.9770411777615978,-0.012048523902388095,-0.175713,-29.552053
11.185,2.0,1.0,1.0,34.4,33.6,33.6,3.1,3.7,2.685,0.06286599655781307,-0.03143813758734761,0.9776127540797551,-0.01269445621881528,-0.178741,-29.394889
11.185,2.0,1.0,1.0,34.4,33.6,33.6,3.1,3.7,2.6875,0.0498619048975963,-0.0318369274808824,0.978011499260445,-0.0133626658515239,-0.181847,-29.236688
11.185,2.0,1.0,1.0,34.4,33.6,33.6,3.1,3.7,2.69,0.036742924276760916,-0.03223610897617865,0.9782326962179432,-0.014053914508642533,-0.185034,-29.077429
11.185,2.0,1.0,1.0,34.4,33.6,33.6,3.1,3.7,2.6925,0.023509916346845097,-0.03263536455861234,0.9782715213553613,-0.014768992531096264,-0.188304,-28.91709
11.185,2.0,1.0,1.0,34.4,33.6,33.6,3.1,3.7,2.695,0.010163854277482613,-0.033034352779404454,0.9781230430723121,-0.015508720168698845,-0.191661,-28.755646
11.185,2.0,1.0,1.0,34.4,33.6,33.6,3.1,3.7,2.6975,-0.0032941715259809682,-0.033432706674416515,0.9777822202975315,-0.016273948929789995,-0.195108,-28.593074
11.185,2.0,1.0,1.0,34.4,33.6,33.6,3.1,3.7,2.7,-0.016862947460933773,-0.0338300320691998,0.9772439010481169,-0.01706556300995402,-0.198648,-28.429349
11.185,2.0,1.0,1.0,34.4,33.6,33.6,3.1,3.7,2.7025,-0.030541130511289632,-0.034225905760517344,0.9765028210168661,-0.017884480805857864,-0.202284,-28.264445
11.185,2.0,1.0,1.0,34.4,33.6,33.6,3.1,3.7,2.705,-0.044327241765069324,-0.03461987356353353,0.9755536021889079,-0.01873165652078559,-0.20602,-28.098335
11.185,2.0,1.0,1.0,34.4,33.6,33.6,3.1,3.7,2.7075,-0.058219659653410805,-0.03501144821272157,0.9743907514885193,-0.019608081869046057,-0.20986,-27.93099
11.185,2.0,1.0,1.0,34.4,33.6,33.6,3.1,3.7,2.71,-0.07221661289762392,-0.03540010710324997,0.9730086594566415,-0.020514787887080353,-0.213808,-27.762383
11.185,2.0,1.0,1.0,34.4,33.6,33.6,3.1,3.7,2.7125,-0.086316173149827,-0.03578528985816097,0.9714015989591528,-0.021452846859813045,-0.217868,-27.592482
11.185,2.0,1.0,1.0,34.4,33.6,33.6,3.1,3.7,2.715,-0.10051624731140188,-0.036166395705022114,0.9695637239254244,-0.022423374371572276,-0.222045,-27.421257
11.185,2.0,1.0,1.0,34.4,33.6,33.6,3.1,3.7,2.7175,-0.11481456951207274,-0.03654278064389079,0.9674890681160857,-0.023427531491761234,-0.226343,-27.248675
11.185,2.0,1.0,1.0,34.4,33.6,33.6,3.1,3.7,2.72,-0.1292086927307308,-0.03691375438635267,0.965171543918193,-0.024466527106399454,-0.230767,-27.074701
11.185,2.0,1.0,1.0,34.4,33.6,33.6,3.1,3.7,2.7225,-0.143695980037248,-0.03727857704304392,0.9626049411651832,-0.025541620407679776,-0.235323,-26.899301
11.185,2.0,1.0,1.0,34.4,33.6,33.6,3.1,3.7,2.725,-0.15827359543227748,-0.03763645553440175,0.9597829259780611,-0.026654123554799097,-0.240015,-26.722437
11.185,2.0,1.0,1.0,34.4,33.6,33.6,3.1,3.7,2.7275,-0.17293849425959273,-0.03798653969636914,0.9566990396231907,-0.02780540452054996,-0.244851,-26.544072
11.185,2.0,1.0,1.0,34.4,33.6,33.6,3.1,3.7,2.73,-0.18768741316252296,-0.03832791804934557,0.9533466973808641,-0.028996890139480806,-0.249836,-26.364164
11.185,2.0,1.0,1.0,34.4,33.6,33.6,3.1,3.7,2.7325,-0.2025168595527651,-0.03865961319477465,0.9497191874174474,-0.03023006937488809,-0.254977,-26.182673
11.185,2.0,1.0,1.0,34.4,33.6,33.6,3.1,3.7,2.735,-0.21742310055592387,-0.038980576799311856,0.9458096696523867,-0.031506496823468365,-0.260281,-25.999553
11.185,2.0,1.0,1.0,34.4,33.6,33.6,3.1,3.7,2.7375,-0.23240215139369594,-0.03928968412144561,0.9416111746096439,-0.03282779647816778,-0.265755,-25.814761
11.185,2.0,1.0,1.0,34.4,33.6,33.6,3.1,3.7,2.74,-0.24744976315740244,-0.03958572802964921,0.9371166022412416,-0.03419566577160472,-0.271407,-25.628246
11.185,2.0,1.0,1.0,34.4,33.6,33.6,3.1,3.7,2.7425,-0.2625614099215945,-0.0398674124545132,0.9323187207084902,-0.03561187992443011,-0.277246,-25.43996
11.185,2.0,1.0,1.0,34.4,33.6,33.6,3.1,3.7,2.745,-0.27773227513950355,-0.04013334520971096,0.9272101651041672,-0.03707829662512069,-0.283281,-25.24985
11.185,2.0,1.0,1.0,34.4,33.6,33.6,3.1,3.7,2.7475,-0.29295723725401007,-0.04038203010793155,0.9217834360963962,-0.038596861069980525,-0.289522,-25.057861
11.185,2.0,1.0,1.0,34.4,33.6,33.6,3.1,3.7,2.75,-0.308230854448465,-0.0406118582878934,0.916030898472206,-0.0401696113945509,-0.295979,-24.863935
11.185,2.0,1.0,1.0,34.4,33.6,33.6,3.1,3.7,2.7525,-0.32354734845076794,-0.04082109865701343,0.9099447795557948,-0.04179868453018547,-0.302662,-24.668011
11.185,2.0,1.0,1.0,34.4,33.6,33.6,3.1,3.7,2.755,-0.33890058729142924,-0.04100788734100064,0.9035171674733499,-0.04348632252222252,-0.309585,-24.470026
11.185,2.0,1.0,1.0,34.4,33.6,33.6,3.1,3.7,2.7575,-0.3542840669015868,-0.04117021601627319,0.8967400092328566,-0.04523487934895932,-0.316759,-24.269913
11.185,2.0,1.0,1.0,34.4,33.6,33.6,3.1,3.7,2.76,-0.369690891419675,-0.04130591898331246,0.8896051085838532,-0.047046828283442574,-0.324199,-24.067601
11.185,2.0,1.0,1.0,34.4,33.6,33.6,3.1,3.7,2.7625,-0.38511375205535353,-0.041412658818452665,0.8821041236183803,-0.0489247698429091,-0.331919,-23.863018
11.185,2.0,1.0,1.0,34.4,33.6,33.6,3.1,3.7,2.765,-0.4005449043357806,-0.04148791041766795,0.8742285640707312,-0.050871440373422665,-0.339936,-23.656084
11.185,2.0,1.0,1.0,34.4,33.6,33.6,3.1,3.7,2.7675,-0.41597614353177786,-0.04152894321807388,0.8659697882699651,-0.05288972131977016,-0.348266,-23.446718
11.185,2.0,1.0,1.0,34.4,33.6,33.6,3.1,3.7,2.77,-0.43139877802923365,-0.041532801350410854,0.8573189996957574,-0.05498264923283131,-0.356929,-23.234833
11.185,2.0,1.0,1.0,34.4,33.6,33.6,3.1,3.7,2.7725,-0.44680360037321687,-0.041496281437892225,0.8482672430851809,-0.05715342656820564,-0.365943,-23.020339
11.185,2.0,1.0,1.0,34.4,33.6,33.6,3.1,3.7,2.775,-0.46218085566787453,-0.04141590771248298,0.8388054000357329,-0.05940543333059472,-0.375333,-22.803139
11.185,2.0,1.0,1.0,34.4,33.6,33.6,3.1,3.7,2.7775,-0.4775202069628878,-0.04128790406773887,0.828924184048735,-0.06174223961789444,-0.385121,-22.583131
11.185,2.0,1.0,1.0,34.4,33.6,33.6,3.1,3.7,2.78,-0.49281069719569276,-0.04110816260634924,0.8186141349576161,-0.06416761911666093,-0.395333,-22.360209
11.185,2.0,1.0,1.0,34.4,33.6,33.6,3.1,3.7,2.7825,-0.508040707185941,-0.04087220816877518,0.8078656126882471,-0.0666855635958658,-0.405998,-22.134259
11.185,2.0,1.0,1.0,34.4,33.6,33.6,3.1,3.7,2.785,-0.523197909092886,-0.0405751582447905,0.796668790304301,-0.0693002984377927,-0.417146,-21.905161
11.185,2.0,1.0,1.0,34.4,33.6,33.6,3.1,3.7,2.7875,-0.5382692146445883,-0.040211677569825716,0.7850136463008132,-0.07201629923229544,-0.428813,-21.672787
11.185,2.0,1.0,1.0,34.4,33.6,33.6,3.1,3.7,2.79,-0.5532407173274068,-0.039775926589776286,0.7728899561252288,-0.07483830944191965,-0.441035,-21.437004
11.185,2.0,1.0,1.0,34.4,33.6,33.6,3.1,3.7,2.7925,-0.5680976275809834,-0.03926150283772963,0.7602872829294477,-0.07777135911843172,-0.453853,-21.197668
11.185,2.0,1.0,1.0,34.4,33.6,33.6,3.1,3.7,2.795,-0.582824199873732,-0.03866137409948748,0.7471949675914046,-0.08082078461337903,-0.467312,-20.954629
11.185,2.0,1.0,1.0,34.4,33.6,33.6,3.1,3.7,2.7975,-0.5974036503308146,-0.03796780204648602,0.7336021180944524,-0.08399224917268985,-0.481463,-20.707726
11.185,2.0,1.0,1.0,34.4,33.6,33.6,3.1,3.7,2.8,-0.61181806334455,-0.03717225477827558,0.7194975984219023,-0.08729176423319226,-0.496361,-20.456789
11.185,2.0,1.0,1.0,34.4,33.6,33.6,3.1,3.7,2.8025,-0.6260482853076546,-0.03626530643429776,0.7048700172194348,-0.0907257111407343,-0.512066,-20.201637
11.185,2.0,1.0,1.0,34.4,33.6,33.6,3.1,3.7,2.805,-0.6400738032632904,-0.03523652169680463,0.689707716608233,-0.09430086287671659,-0.528648,-19.942077
11.185,2.0,1.0,1.0,34.4,33.6,33.6,3.1,3.7,2.8075,-0.6538726058506563,-0.034074322601933646,0.673998761708405,-0.09802440520076543,-0.546182,-19.677906
11.185,2.0,1.0,1.0,34.4,33.6,33.6,3.1,3.7,2.81,-0.6674210234266108,-0.03276583459035213,0.657730931671203,-0.1019039563765384,-0.564754,-19.408906
11.185,2.0,1.0,1.0,34.4,33.6,33.6,3.1,3.7,2.8125,-0.680693543645543,-0.0312967081458787,0.640891713340767,-0.105947584324591,-0.584459,-19.134845
11.185,2.0,1.0,1.0,34.4,33.6,33.6,3.1,3.7,2.815,-0.6936625980609857,-0.029650911670174838,0.6234682990996596,-0.1101638196130737,-0.605404,-18.855477
11.185,2.0,1.0,1.0,34.4,33.6,33.6,3.1,3.7,2.8175,-0.7062983144490037,-0.027810490400387907,0.6054475910355961,-0.1145616621163013,-0.62771,-18.57054
11.185,2.0,1.0,1.0,34.4,33.6,33.6,3.1,3.7,2.82,-0.7185682285168478,-0.025755285166832675,0.586816214350739,-0.11915057839238595,-0.651514,-18.279755
11.185,2.0,1.0,1.0,34.4,33.6,33.6,3.1,3.7,2.8225,-0.7304369474179102,-0.02346260357752411,0.5675605439894016,-0.12394048578564104,-0.676972,-17.982824
11.185,2.0,1.0,1.0,34.4,33.6,33.6,3.1,3.7,2.825,-0.7418657560087503,-0.020906834769802384,0.5476667498796267,-0.1289417178543075,-0.704259,-17.67943
11.185,2.0,1.0,1.0,34.4,33.6,33.6,3.1,3.7,2.8275,-0.7528121550162018,-0.018058997147834693,0.5271208680975921,-0.13416496383268958,-0.733579,-17.369237
