1,w,sub_t,h,l1,l2,l3,g1,g2,Freq,S11_re,S21_re,S11_img,S21_img,S11_dB,S21_dB
11.185,2.0,1.0,1.0,33.8,33.3,33.3,1.8,3.0,2.5,0.805840535612442,-0.012050697995131,0.579593702463753,0.00947111863031854,-0.064281,-36.290774
11.185,2.0,1.0,1.0,33.8,33.3,33.3,1.8,3.0,2.5025,0.8015808077324278,-0.01229047264365708,0.5853408473391832,0.009502804317462796,-0.064951,-36.173365
11.185,2.0,1.0,1.0,33.8,33.3,33.3,1.8,3.0,2.505,0.7972585631098692,-0.012534553401468397,0.5910834774516043,0.009533008318944094,-0.065634,-36.055601
11.185,2.0,1.0,1.0,33.8,33.3,33.3,1.8,3.0,2.5075,0.7928731334185787,-0.01278302340963599,0.5968211973935341,0.009561664322951567,-0.066328,-35.937476
11.185,2.0,1.0,1.0,33.8,33.3,33.3,1.8,3.0,2.51,0.7884238401651713,-0.013035967609603075,0.6025535993719344,0.009588703491656523,-0.067036,-35.818982
11.185,2.0,1.0,1.0,33.8,33.3,33.3,1.8,3.0,2.5125,0.7839099945538307,-0.013293472782086304,0.6082802628062781,0.009614054360146018,-0.067756,-35.700113
11.185,2.0,1.0,1.0,33.8,33.3,33.3,1.8,3.0,2.515,0.7793308973511331,-0.013555627586576392,0.6140007539130607,0.009637642731018407,-0.068489,-35.580863
11.185,2.0,1.0,1.0,33.8,33.3,33.3,1.8,3.0,2.5175,0.7746858387510809,-0.01382252260142179,0.6197146252762472,0.009659391564439972,-0.069235,-35.461224
11.185,2.0,1.0,1.0,33.8,33.3,33.3,1.8,3.0,2.52,0.7699740982405018,-0.014094250364479307,0.6254214154031799,0.009679220863451176,-0.069996,-35.341189
11.185,2.0,1.0,1.0,33.8,33.3,33.3,1.8,3.0,2.5225,0.765194944465001,-0.014370905414309689,0.6311206482653927,0.009697047554300774,-0.07077,-35.220751
11.185,2.0,1.0,1.0,33.8,33.3,33.3,1.8,3.0,2.525,0.7603476350956421,-0.014652584331895563,0.6368118328238207,0.009712785361575313,-0.071559,-35.099903
11.185,2.0,1.0,1.0,33.8,33.3,33.3,1.8,3.0,2.5275,0.7554314166965607,-0.01493938578285372,0.6424944625378302,0.009726344677878947,-0.072363,-34.978638
11.185,2.0,1.0,1.0,33.8,33.3,33.3,1.8,3.0,2.53,0.7504455245937326,-0.015231410560110585,0.6481680148574824,0.009737632427806255,-0.073183,-34.856949
11.185,2.0,1.0,1.0,33.8,33.3,33.3,1.8,3.0,2.5325,0.745389182745123,-0.015528761627004867,0.653831950698431,0.009746551925938474,-0.074018,-34.734828
11.185,2.0,1.0,1.0,33.8,33.3,33.3,1.8,3.0,2.535,0.7402616036124632,-0.015831544160777863,0.6594857138988285,0.009753002728578342,-0.074868,-34.612267
11.185,2.0,1.0,1.0,33.8,33.3,33.3,1.8,3.0,2.5375,0.7350619880349318,-0.016139865596405227,0.6651287306575743,0.009756880478925263,-0.075736,-34.489259
11.185,2.0,1.0,1.0,33.8,33.3,33.3,1.8,3.0,2.54,0.7297895251050123,-0.016453835670719612,0.6707604089532396,0.009758076745376782,-0.07662,-34.365797
11.185,2.0,1.0,1.0,33.8,33.3,33.3,1.8,3.0,2.5425,0.7244433920468404,-0.01677356646676761,0.6763801379429601,0.009756478852625752,-0.077522,-34.241873
11.185,2.0,1.0,1.0,33.8,33.3,33.3,1.8,3.0,2.545,0.7190227540973618,-0.017099172458336684,0.6819872873405632,0.009751969705206098,-0.078441,-34.117478
11.185,2.0,1.0,1.0,33.8,33.3,33.3,1.8,3.0,2.5475,0.7135267643906613,-0.01743077055458175,0.6875812067731633,0.009744427603120956,-0.079379,-33.992605
11.185,2.0,1.0,1.0,33.8,33.3,33.3,1.8,3.0,2.55,0.7079545638458143,-0.01776848014467351,0.6931612251154521,0.009733726049169219,-0.080335,-33.867246
11.185,2.0,1.0,1.0,33.8,33.3,33.3,1.8,3.0,2.5525,0.7023052810586904,-0.01811242314238013,0.6987266498008388,0.009719733547564889,-0.081311,-33.741393
11.185,2.0,1.0,1.0,33.8,33.3,33.3,1.8,3.0,2.555,0.6965780321981059,-0.01846272403048749,0.7042767661086033,0.009702313393423227,-0.082306,-33.615037
11.185,2.0,1.0,1.0,33.8,33.3,33.3,1.8,3.0,2.5575,0.6907719209067972,-0.018819509904951143,0.7098108364261737,0.009681323452664694,-0.083322,-33.48817
11.185,2.0,1.0,1.0,33.8,33.3,33.3,1.8,3.0,2.56,0.6848860382076999,-0.01918291051866284,0.7153280994855946,0.009656615931863755,-0.084358,-33.360784
11.185,2.0,1.0,1.0,33.8,33.3,33.3,1.8,3.0,2.5625,0.6789194624160484,-0.01955305832470254,0.7208277695732358,0.009628037137545092,-0.085416,-33.23287
11.185,2.0,1.0,1.0,33.8,33.3,33.3,1.8,3.0,2.565,0.6728712590578505,-0.019930088518934692,0.7263090357117451,0.009595427224401742,-0.086496,-33.10442
11.185,2.0,1.0,1.0,33.8,33.3,33.3,1.8,3.0,2.5675,0.6667404807953391,-0.02031413908179196,0.7317710608131998,0.009558619931882966,-0.087599,-32.975424
11.185,2.0,1.0,1.0,33.8,33.3,33.3,1.8,3.0,2.57,0.6605261673600166,-0.020705350819075635,0.7372129808023818,0.009517442308568684,-0.088724,-32.845873
11.185,2.0,1.0,1.0,33.8,33.3,33.3,1.8,3.0,2.5725,0.6542273454939797,-0.021103867401585555,0.7426339037090595,0.009471714423716306,-0.089873,-32.715759
11.185,2.0,1.0,1.0,33.8,33.3,33.3,1.8,3.0,2.575,0.6478430289002326,-0.02150983540337318,0.7480329087280996,0.009421249065332241,-0.091047,-32.585073
11.185,2.0,1.0,1.0,33.8,33.3,33.3,1.8,3.0,2.5775,0.6413722182027666,-0.021923404338392752,0.7534090452461996,0.009365851424084462,-0.092246,-32.453804
11.185,2.0,1.0,1.0,33.8,33.3,33.3,1.8,3.0,2.58,0.6348139009172192,-0.022344726695304008,0.7587613318339734,0.009305318762336586,-0.093471,-32.321945
11.185,2.0,1.0,1.0,33.8,33.3,33.3,1.8,3.0,2.5825,0.628167051432983,-0.02277395797015689,0.7640887552020794,0.009239440067541528,-0.094723,-32.189484
11.185,2.0,1.0,1.0,33.8,33.3,33.3,1.8,3.0,2.585,0.6214306310077033,-0.02321125669666376,0.7693902691200115,0.009167995689194214,-0.096001,-32.056412
11.185,2.0,1.0,1.0,33.8,33.3,33.3,1.8,3.0,2.5875,0.6146035877751486,-0.023656784473735922,0.7746647932961436,0.00909075695849504,-0.097308,-31.92272
11.185,2.0,1.0,1.0,33.8,33.3,33.3,1.8,3.0,2.59,0.6076848567675233,-0.02411070598993422,0.779911212217522,0.009007485789830655,-0.098644,-31.788397
11.185,2.0,1.0,1.0,33.8,33.3,33.3,1.8,3.0,2.5925,0.6006733599533445,-0.024573189044448177,0.785128373947883,0.008917934263128082,-0.10001,-31.653433
11.185,2.0,1.0,1.0,33.8,33.3,33.3,1.8,3.0,2.595,0.593568006292099,-0.02504440456418502,0.790315088882259,0.008821844186085072,-0.101406,-31.517818
11.185,2.0,1.0,1.0,33.8,33.3,33.3,1.8,3.0,2.5975,0.5863676918069539,-0.02552452661651062,0.7954701284565232,0.008718946635222838,-0.102834,-31.381542
11.185,2.0,1.0,1.0,33.8,33.3,33.3,1.8,3.0,2.6,0.579071299676901,-0.026013732417144577,0.8005922238101074,0.008608961474649374,-0.104294,-31.244593
11.185,2.0,1.0,1.0,33.8,33.3,33.3,1.8,3.0,2.6025,0.5716777003498033,-0.026512202332662337,0.8056800644000762,0.008491596851356064,-0.105788,-31.10696
11.185,2.0,1.0,1.0,33.8,33.3,33.3,1.8,3.0,2.605,0.5641857516778925,-0.027020119877013755,0.8107322965646636,0.008366548665805301,-0.107316,-30.968633
11.185,2.0,1.0,1.0,33.8,33.3,33.3,1.8,3.0,2.6075,0.556594299077396,-0.02753767170140882,0.8157475220342932,0.008233500016494002,-0.108879,-30.829601
11.185,2.0,1.0,1.0,33.8,33.3,33.3,1.8,3.0,2.61,0.5489021757140712,-0.0280650475768645,0.8207242963880138,0.008092120617103698,-0.11048,-30.689851
11.185,2.0,1.0,1.0,33.8,33.3,33.3,1.8,3.0,2.6125,0.5411082027165413,-0.028602440368645624,0.8256611274532081,0.007942066184766327,-0.112117,-30.549373
11.185,2.0,1.0,1.0,33.8,33.3,33.3,1.8,3.0,2.615,0.5332111894194591,-0.029150046001758374,0.8305564736463321,0.007782977797891237,-0.113794,-30.408155
11.185,2.0,1.0,1.0,33.8,33.3,33.3,1.8,3.0,2.6175,0.5252099336386732,-0.029708063416584454,0.8354087422523376,0.007614481221907019,-0.115511,-30.266184
11.185,2.0,1.0,1.0,33.8,33.3,33.3,1.8,3.0,2.62,0.5171032219806998,-0.03027669451365788,0.8402162876403468,0.007436186201176439,-0.117269,-30.123449
11.185,2.0,1.0,1.0,33.8,33.3,33.3,1.8,3.0,2.6225,0.5088898301889648,-0.030856144086499383,0.8449774094130289,0.007247685715241115,-0.119069,-29.979936
11.185,2.0,1.0,1.0,33.8,33.3,33.3,1.8,3.0,2.625,0.500568523529476,-0.031446619741323,0.849690350487019,0.00704855519744334,-0.120914,-29.835634
11.185,2.0,1.0,1.0,33.8,33.3,33.3,1.8,3.0,2.6275,0.49213805721871706,-0.032048331802325476,0.8543532951016076,0.006838351713858074,-0.122804,-29.690529
11.185,2.0,1.0,1.0,33.8,33.3,33.3,1.8,3.0,2.63,0.4835971768967972,-0.03266149320114946,0.8589643667528061,0.006616613100344732,-0.12474,-29.544608
11.185,2.0,1.0,1.0,33.8,33.3,33.3,1.8,3.0,2.6325,0.47494461914906994,-0.03328631934898675,0.8635216260497559,0.00638285705539986,-0.126725,-29.397858
11.185,2.0,1.0,1.0,33.8,33.3,33.3,1.8,3.0,2.635,0.4661791120796709,-0.033923027989647955,0.8680230684903304,0.006136580186352016,-0.12876,-29.250266
11.185,2.0,1.0,1.0,33.8,33.3,33.3,1.8,3.0,2.6375,0.4572993759406678,-0.034571839031770885,0.8724666221526148,0.00587725700629381,-0.130847,-29.101817
11.185,2.0,1.0,1.0,33.8,33.3,33.3,1.8,3.0,2.64,0.4483041238207551,-0.03523297435817983,0.8768501452988319,0.005604338878990646,-0.132987,-28.952497
11.185,2.0,1.0,1.0,33.8,33.3,33.3,1.8,3.0,2.6425,0.4391920623977322,-0.03590665761021849,0.8811714238880901,0.005317252908837497,-0.135182,-28.802292
11.185,2.0,1.0,1.0,33.8,33.3,33.3,1.8,3.0,2.645,0.4299618927592894,-0.03659311394468795,0.8854281689941964,0.005015400772760749,-0.137433,-28.651187
11.185,2.0,1.0,1.0,33.8,33.3,33.3,1.8,3.0,2.6475,0.4206123112969484,-0.03729256976079821,0.8896180141245814,0.004698157490773091,-0.139744,-28.499167
11.185,2.0,1.0,1.0,33.8,33.3,33.3,1.8,3.0,2.65,0.4111420106783454,-0.038005252394308964,0.8937385124362253,0.004364870131689596,-0.142116,-28.346217
11.185,2.0,1.0,1.0,33.8,33.3,33.3,1.8,3.0,2.6525,0.40154968090346227,-0.03873138977576875,0.8977871338442596,0.004014856450301807,-0.14455,-28.192322
11.185,2.0,1.0,1.0,33.8,33.3,33.3,1.8,3.0,2.655,0.3918340104507475,-0.03947121004948199,0.9017612620187365,0.003647403452080203,-0.14705,-28.037464
11.185,2.0,1.0,1.0,33.8,33.3,33.3,1.8,3.0,2.6575,0.3819936875195755,-0.040224941149515754,0.90565819126485,0.00326176588123595,-0.149618,-27.881629
11.185,2.0,1.0,1.0,33.8,33.3,33.3,1.8,3.0,2.66,0.37202740137592166,-0.04099281032871706,0.9094751232816501,0.0028571646277174077,-0.152255,-27.724799
11.185,2.0,1.0,1.0,33.8,33.3,33.3,1.8,3.0,2.6625,0.3619338438086771,-0.0417750436363318,0.9132091637940857,0.002432785048446924,-0.154965,-27.566958
11.185,2.0,1.0,1.0,33.8,33.3,33.3,1.8,3.0,2.665,0.3517117107045418,-0.042571865339406954,0.9168573190529564,0.0019877751978144525,-0.15775,-27.408088
11.185,2.0,1.0,1.0,33.8,33.3,33.3,1.8,3.0,2.6675,0.3413597037500951,-0.04338349728269568,0.9204164921970888,0.0015212439621400489,-0.160613,-27.248172
11.185,2.0,1.0,1.0,33.8,33.3,33.3,1.8,3.0,2.67,0.33087653227023917,-0.04421015818129199,0.9238834794718023,0.0010322590924915205,-0.163557,-27.087192
11.185,2.0,1.0,1.0,33.8,33.3,33.3,1.8,3.0,2.6725,0.32026091521294936,-0.045052062839666486,0.9272549662974338,0.0005198451299005785,-0.166585,-26.925128
11.185,2.0,1.0,1.0,33.8,33.3,33.3,1.8,3.0,2.675,0.30951158329104733,-0.045909421290170366,0.9305275231813954,-1.701878334535118e-05,-0.169699,-26.761963
11.185,2.0,1.0,1.0,33.8,33.3,33.3,1.8,3.0,2.6775,0.29862728129252464,-0.04678243784340908,0.9336976014669345,-0.0005794012130457067,-0.172904,-26.597677
11.185,2.0,1.0,1.0,33.8,33.3,33.3,1.8,3.0,2.68,0.28760677057187173,-0.04767131004215023,0.9367615289114334,-0.0011684208701828779,-0.176203,-26.43225
11.185,2.0,1.0,1.0,33.8,33.3,33.3,1.8,3.0,2.6825,0.2764488317358778,-0.04857622750962199,0.9397155050867466,-0.0017852491833260848,-0.179599,-26.265662
11.185,2.0,1.0,1.0,33.8,33.3,33.3,1.8,3.0,2.685,0.2651522675384142,-0.04949737068216212,0.942555596593721,-0.002431113014354921,-0.183097,-26.097893
11.185,2.0,1.0,1.0,33.8,33.3,33.3,1.8,3.0,2.6875,0.253715905999939,-0.0504349094151929,0.94527773208266,-0.00310729752600092,-0.1867,-25.928921
11.185,2.0,1.0,1.0,33.8,33.3,33.3,1.8,3.0,2.69,0.24213860376874283,-0.051389001450404856,0.9478776970711186,-0.003815149210212928,-0.190412,-25.758725
11.185,2.0,1.0,1.0,33.8,33.3,33.3,1.8,3.0,2.6925,0.23041924974234768,-0.052359790730829435,0.9503511285500018,-0.004556079086895647,-0.194239,-25.587283
11.185,2.0,1.0,1.0,33.8,33.3,33.3,1.8,3.0,2.695,0.21855676896908416,-0.053347405549143655,0.9526935093685175,-0.005331566083129022,-0.198184,-25.414571
11.185,2.0,1.0,1.0,33.8,33.3,33.3,1.8,3.0,2.6975,0.20655012685149307,-0.05435195651307923,0.9549001623881116,-0.006143160603577374,-0.202253,-25.240568
11.185,2.0,1.0,1.0,33.8,33.3,33.3,1.8,3.0,2.7,0.1943983336751435,-0.05537353431016875,0.9569662443950471,-0.006992488303410208,-0.206451,-25.065248
11.185,2.0,1.0,1.0,33.8,33.3,33.3,1.8,3.0,2.7025,0.1821004494884503,-0.05641220725225374,0.9588867397608507,-0.00788125407570982,-0.210783,-24.888587
11.185,2.0,1.0,1.0,33.8,33.3,33.3,1.8,3.0,2.705,0.1696555893613796,-0.05746801857816585,0.9606564538393517,-0.008811246266008894,-0.215256,-24.710562
11.185,2.0,1.0,1.0,33.8,33.3,33.3,1.8,3.0,2.7075,0.1570629290533644,-0.05854098349076505,0.9622700060885913,-0.009784341127302022,-0.219874,-24.531145
11.185,2.0,1.0,1.0,33.8,33.3,33.3,1.8,3.0,2.71,0.14432171112354739,-0.059631085902036654,0.9637218229053695,-0.010802507529588237,-0.224645,-24.35031
11.185,2.0,1.0,1.0,33.8,33.3,33.3,1.8,3.0,2.7125,0.13143125151943452,-0.060738274857198404,0.9650061301597455,-0.011867811938739472,-0.229576,-24.168032
11.185,2.0,1.0,1.0,33.8,33.3,33.3,1.8,3.0,2.715,0.11839094668342166,-0.06186246060569893,0.9661169454163104,-0.01298242368023294,-0.234674,-23.984281
11.185,2.0,1.0,1.0,33.8,33.3,33.3,1.8,3.0,2.7175,0.10520028122031735,-0.06300351028358298,0.9670480698286212,-0.014148620504039307,-0.239945,-23.799029
11.185,2.0,1.0,1.0,33.8,33.3,33.3,1.8,3.0,2.72,0.0918588361731021,-0.06416124316789175,0.9677930796927302,-0.015368794467702182,-0.245399,-23.612248
11.185,2.0,1.0,1.0,33.8,33.3,33.3,1.8,3.0,2.7225,0.07836629795863921,-0.06533542545953616,0.9683453176453751,-0.016645458155381616,-0.251044,-23.423907
11.185,2.0,1.0,1.0,33.8,33.3,33.3,1.8,3.0,2.725,0.06472246802014807,-0.06652576454634483,0.9686978834920583,-0.017981251251328583,-0.256889,-23.233976
11.185,2.0,1.0,1.0,33.8,33.3,33.3,1.8,3.0,2.7275,0.05092727325874024,-0.06773190269271931,0.9688436246499554,-0.019378947486923922,-0.262943,-23.042422
11.185,2.0,1.0,1.0,33.8,33.3,33.3,1.8,3.0,2.73,0.03698077731260046,-0.06895341009642135,0.9687751261904763,-0.020841461980986572,-0.269217,-22.849214
11.185,2.0,1.0,1.0,33.8,33.3,33.3,1.8,3.0,2.7325,0.022883192759226994,-0.07018977724643251,0.9684847004662224,-0.022371858993555045,-0.275721,-22.654318
11.185,2.0,1.0,1.0,33.8,33.3,33.3,1.8,3.0,2.735,0.008634894323887508,-0.07144040650843811,0.9679643763072368,-0.023973360113689134,-0.282467,-22.457699
11.185,2.0,1.0,1.0,33.8,33.3,33.3,1.8,3.0,2.7375,-0.005763566814043924,-0.07270460285623512,0.9672058877717782,-0.025649352902026173,-0.289467,-22.259323
11.185,2.0,1.0,1.0,33.8,33.3,33.3,1.8,3.0,2.74,-0.02031144751556754,-0.07398156365809903,0.9662006624374445,-0.027403400008767623,-0.296735,-22.059152
11.185,2.0,1.0,1.0,33.8,33.3,33.3,1.8,3.0,2.7425,-0.035007795865442295,-0.07527036741677404,0.9649398092194015,-0.02923924878743402,-0.304283,-21.85715
11.185,2.0,1.0,1.0,33.8,33.3,33.3,1.8,3.0,2.745,-0.049851432920555966,-0.07656996135010247,0.9634141057038216,-0.031160841424007477,-0.312127,-21.653278
11.185,2.0,1.0,1.0,33.8,33.3,33.3,1.8,3.0,2.7475,-0.06484093288601764,-0.07787914768624571,0.9616139849864852,-0.03317232559989274,-0.320283,-21.447496
11.185,2.0,1.0,1.0,33.8,33.3,33.3,1.8,3.0,2.75,-0.0799746015667262,-0.0791965685327669,0.959529522008968,-0.0352780657053587,-0.328768,-21.239763
11.185,2.0,1.0,1.0,33.8,33.3,33.3,1.8,3.0,2.7525,-0.09525045292538865,-0.0805206891623544,0.9571504193881244,-0.037482654617607365,-0.337599,-21.030039
11.185,2.0,1.0,1.0,33.8,33.3,33.3,1.8,3.0,2.755,-0.11066618355910225,-0.08184977953941973,0.954465992738772,-0.039790926054201294,-0.346796,-20.818278
11.185,2.0,1.0,1.0,33.8,33.3,33.3,1.8,3.0,2.7575,-0.12621914488555439,-0.08318189389095447,0.9514651554948826,-0.04220796750803865,-0.35638,-20.604438
11.185,2.0,1.0,1.0,33.8,33.3,33.3,1.8,3.0,2.76,-0.14190631280607766,-0.08451484810155899,0.9481364032414407,-0.044739133764121475,-0.366372,-20.388472
11.185,2.0,1.0,1.0,33.8,33.3,33.3,1.8,3.0,2.7625,-0.15772425458622272,-0.08584619468616494,0.9444677975776965,-0.04739006099072959,-0.376798,-20.170332
11.185,2.0,1.0,1.0,33.8,33.3,33.3,1.8,3.0,2.765,-0.17366909266451847,-0.08717319506424966,0.9404469495433311,-0.05016668138785811,-0.387681,-19.949971
11.185,2.0,1.0,1.0,33.8,33.3,33.3,1.8,3.0,2.7675,-0.18973646506643632,-0.08849278882590023,0.9360610026524304,-0.05307523836346319,-0.399051,-19.727338
11.185,2.0,1.0,1.0,33.8,33.3,33.3,1.8,3.0,2.77,-0.2059214820627787,-0.089801559642452,0.9312966155967785,-0.056122302192588035,-0.410937,-19.502382
11.185,2.0,1.0,1.0,33.8,33.3,33.3,1.8,3.0,2.7725,-0.22221867866915979,-0.09109569743207702,0.9261399447005306,-0.059314786095104044,-0.42337,-19.275049
11.185,2.0,1.0,1.0,33.8,33.3,33.3,1.8,3.0,2.775,-0.23862196253552378,-0.09237095634308602,0.9205766262336372,-0.0626599626437589,-0.436386,-19.045285
11.185,2.0,1.0,1.0,33.8,33.3,33.3,1.8,3.0,2.7775,-0.25512455672102835,-0.09362260806420054,0.914591758722585,-0.06616548038440916,-0.450022,-18.813034
11.185,2.0,1.0,1.0,33.8,33.3,33.3,1.8,3.0,2.78,-0.2717189367894997,-0.09484538991097165,0.9081698854352711,-0.06983938051347428,-0.464318,-18.578238
11.185,2.0,1.0,1.0,33.8,33.3,33.3,1.8,3.0,2.7825,-0.28839676159325256,-0.09603344707017292,0.9012949772638252,-0.0736901134122109,-0.479318,-18.340837
11.185,2.0,1.0,1.0,33.8,33.3,33.3,1.8,3.0,2.785,-0.30514879703780096,-0.09718026830859623,0.8939504162866567,-0.07772655478152395,-0.495071,-18.10077
11.185,2.0,1.0,1.0,33.8,33.3,33.3,1.8,3.0,2.7875,-0.32196483203576914,-0.09827861436846355,0.8861189803614499,-0.08195802105234144,-0.511626,-17.857974
11.185,2.0,1.0,1.0,33.8,33.3,33.3,1.8,3.0,2.79,-0.33883358576479355,-0.09932043817786236,0.8777828291868436,-0.08639428366236893,-0.529042,-17.612385
11.185,2.0,1.0,1.0,33.8,33.3,33.3,1.8,3.0,2.7925,-0.35574260524022805,-0.1002967959004762,0.8689234923756988,-0.09104558168682347,-0.547379,-17.363936
11.185,2.0,1.0,1.0,33.8,33.3,33.3,1.8,3.0,2.795,-0.37267815209887933,-0.10119774773379726,0.8595218602111954,-0.09592263218446327,-0.566703,-17.11256
11.185,2.0,1.0,1.0,33.8,33.3,33.3,1.8,3.0,2.7975,-0.3896250773638397,-0.10201224723850365,0.8495581779136901,-0.10103663746577274,-0.587089,-16.858188
11.185,2.0,1.0,1.0,33.8,33.3,33.3,1.8,3.0,2.8,-0.4065666828232347,-0.10272801784363517,0.8390120444371975,-0.10639928830151806,-0.608615,-16.600747
11.185,2.0,1.0,1.0,33.8,33.3,33.3,1.8,3.0,2.8025,-0.42348456750711994,-0.10333141502290648,0.8278624170472324,-0.1120227618595704,-0.631369,-16.340166
11.185,2.0,1.0,1.0,33.8,33.3,33.3,1.8,3.0,2.805,-0.4403584575883051,-0.10380727247796154,0.8160876232152767,-0.11791971287699872,-0.655447,-16.076371
11.185,2.0,1.0,1.0,33.8,33.3,33.3,1.8,3.0,2.8075,-0.4571660178664338,-0.10413873049661962,0.8036653817102628,-0.12410325623214759,-0.680954,-15.809287
11.185,2.0,1.0,1.0,33.8,33.3,33.3,1.8,3.0,2.81,-0.4738826428237425,-0.10430704448162151,0.7905728351872358,-0.13058693866468934,-0.708007,-15.538838
11.185,2.0,1.0,1.0,33.8,33.3,33.3,1.8,3.0,2.8125,-0.49048122507103,-0.10429137147352,0.776786597083306,-0.137384696884873,-0.736734,-15.264949
11.185,2.0,1.0,1.0,33.8,33.3,33.3,1.8,3.0,2.815,-0.5069318988419944,-0.10406853232840468,0.7622828162498594,-0.14451079869775965,-0.767275,-14.98754
11.185,2.0,1.0,1.0,33.8,33.3,33.3,1.8,3.0,2.8175,-0.5232017560552293,-0.10361274706922106,0.747037263499804,-0.15197976302196972,-0.799786,-14.706537
11.185,2.0,1.0,1.0,33.8,33.3,33.3,1.8,3.0,2.82,-0.5392545323634587,-0.10289534082586417,0.7310254451554908,-0.15980625377934485,-0.834441,-14.421863
11.185,2.0,1.0,1.0,33.8,33.3,33.3,1.8,3.0,2.8225,-0.5550502605735727,-0.10188441773843099,0.7142227497770782,-0.16800494154159773,-0.871432,-14.133441
11.185,2.0,1.0,1.0,33.8,33.3,33.3,1.8,3.0,2.825,-0.5705448888829429,-0.10054450025402688,0.6966046355674359,-0.17659032550754555,-0.910972,-13.8412
11.185,2.0,1.0,1.0,33.8,33.3,33.3,1.8,3.0,2.8275,-0.58568986158436,-0.09883613144705575,0.6781468675273157,-0.18557650681055407,-0.9533,-13.545068
