1,w,sub_t,h,l1,l2,l3,g1,g2,Freq,S11_re,S21_re,S11_img,S21_img,S11_dB,S21_dB
11.185,2.0,1.0,1.0,33.0,34.0,34.0,3.0,3.5,2.5,0.898225219091035,-0.005143585074405,0.425900811209805,0.00497072049657514,-0.051551,-42.91031
11.185,2.0,1.0,1.0,33.0,34.0,34.0,3.0,3.5,2.5025,0.8955407000154322,-0.005254614126629071,0.4313974746167254,0.005003143150700843,-0.052005,-42.786642
11.185,2.0,1.0,1.0,33.0,34.0,34.0,3.0,3.5,2.505,0.8928117359414747,-0.005367713124772262,0.4368972853396627,0.005035302337515873,-0.052466,-42.662683
11.185,2.0,1.0,1.0,33.0,34.0,34.0,3.0,3.5,2.5075,0.890037902533347,-0.0054829264344840945,0.44240011110551414,0.005067181792869265,-0.052935,-42.538423
11.185,2.0,1.0,1.0,33.0,34.0,34.0,3.0,3.5,2.51,0.8872187680612335,-0.005600299669893451,0.4479058154379789,0.005098764593563581,-0.053412,-42.413851
11.185,2.0,1.0,1.0,33.0,34.0,34.0,3.0,3.5,2.5125,0.8843538932509849,-0.005719879737099244,0.45341425750906755,0.00513003312808212,-0.053898,-42.288958
11.185,2.0,1.0,1.0,33.0,34.0,34.0,3.0,3.5,2.515,0.8814428311300807,-0.0058417148794726636,0.4589252919853718,0.005160969065861116,-0.054392,-42.163734
11.185,2.0,1.0,1.0,33.0,34.0,34.0,3.0,3.5,2.5175,0.8784851268697679,-0.005965854724858766,0.4644387688688723,0.005191553325023962,-0.054895,-42.038168
11.185,2.0,1.0,1.0,33.0,34.0,34.0,3.0,3.5,2.52,0.8754803176232451,-0.00609235033477178,0.4699545333320817,0.005221766038491894,-0.055407,-41.912249
11.185,2.0,1.0,1.0,33.0,34.0,34.0,3.0,3.5,2.5225,0.872427932359772,-0.006221254255682068,0.4754724255472711,0.005251586518377259,-0.055929,-41.785968
11.185,2.0,1.0,1.0,33.0,34.0,34.0,3.0,3.5,2.525,0.869327491694557,-0.006352620572499521,0.4809922805095607,0.005280993218561288,-0.056459,-41.659312
11.185,2.0,1.0,1.0,33.0,34.0,34.0,3.0,3.5,2.5275,0.8661785077142824,-0.006486504964363806,0.4865139278536136,0.005309963695350852,-0.057,-41.532272
11.185,2.0,1.0,1.0,33.0,34.0,34.0,3.0,3.5,2.53,0.8629804837981182,-0.006622964762857789,0.4920371916636635,0.0053384745661027785,-0.057551,-41.404836
11.185,2.0,1.0,1.0,33.0,34.0,34.0,3.0,3.5,2.5325,0.8597329144340691,-0.006762059012767779,0.4975618902766087,0.0053665014656958535,-0.058111,-41.276993
11.185,2.0,1.0,1.0,33.0,34.0,34.0,3.0,3.5,2.535,0.8564352850304817,-0.006903848535521395,0.503087836077876,0.005394019000723767,-0.058682,-41.148731
11.185,2.0,1.0,1.0,33.0,34.0,34.0,3.0,3.5,2.5375,0.8530870717225532,-0.0070483959954408945,0.5086148352897473,0.005421000701272515,-0.059264,-41.02004
11.185,2.0,1.0,1.0,33.0,34.0,34.0,3.0,3.5,2.54,0.8496877411736445,-0.007195765968959013,0.514142687751831,0.005447418970138087,-0.059857,-40.890907
11.185,2.0,1.0,1.0,33.0,34.0,34.0,3.0,3.5,2.5425,0.8462367503712197,-0.007346025016951997,0.5196711866933419,0.005473245029328717,-0.060461,-40.76132
11.185,2.0,1.0,1.0,33.0,34.0,34.0,3.0,3.5,2.545,0.8427335464172023,-0.007499241760355061,0.5252001184968317,0.00549844886368739,-0.061077,-40.631267
11.185,2.0,1.0,1.0,33.0,34.0,34.0,3.0,3.5,2.5475,0.8391775663125491,-0.00765548695923369,0.5307292624529925,0.005522999161456805,-0.061704,-40.500736
11.185,2.0,1.0,1.0,33.0,34.0,34.0,3.0,3.5,2.55,0.8355682367358063,-0.007814833595497098,0.5362583905061566,0.005546863251598025,-0.062344,-40.369714
11.185,2.0,1.0,1.0,33.0,34.0,34.0,3.0,3.5,2.5525,0.8319049738154297,-0.007977356959449131,0.5417872669900519,0.005570007037661062,-0.062996,-40.238188
11.185,2.0,1.0,1.0,33.0,34.0,34.0,3.0,3.5,2.555,0.8281871828956127,-0.008143134740385688,0.5473156483534012,0.005592394927989062,-0.063661,-40.106146
11.185,2.0,1.0,1.0,33.0,34.0,34.0,3.0,3.5,2.5575,0.8244142582953671,-0.00831224712146019,0.5528432828748951,0.00561398976202607,-0.064339,-39.973574
11.185,2.0,1.0,1.0,33.0,34.0,34.0,3.0,3.5,2.56,0.8205855830605866,-0.008484776879051944,0.5583699103670472,0.0056347527324778065,-0.065031,-39.840459
11.185,2.0,1.0,1.0,33.0,34.0,34.0,3.0,3.5,2.5625,0.8167005287088004,-0.00866080948688793,0.5638952618684278,0.005654643303060061,-0.065736,-39.706787
11.185,2.0,1.0,1.0,33.0,34.0,34.0,3.0,3.5,2.565,0.8127584549663139,-0.008840433225183821,0.5694190593237318,0.00567361912154777,-0.066456,-39.572544
11.185,2.0,1.0,1.0,33.0,34.0,34.0,3.0,3.5,2.5675,0.8087587094974193,-0.009023739295086961,0.5749410152511023,0.0056916359278169175,-0.067191,-39.437715
11.185,2.0,1.0,1.0,33.0,34.0,34.0,3.0,3.5,2.57,0.8047006276253301,-0.00921082193872282,0.5804608323961098,0.005708647456550615,-0.06794,-39.302287
11.185,2.0,1.0,1.0,33.0,34.0,34.0,3.0,3.5,2.5725,0.800583532044481,-0.0094017785651655,0.5859782033717454,0.005724605334253982,-0.068706,-39.166244
11.185,2.0,1.0,1.0,33.0,34.0,34.0,3.0,3.5,2.575,0.7964067325238128,-0.009596709882673572,0.5914928102837451,0.005739458970195306,-0.069487,-39.029572
11.185,2.0,1.0,1.0,33.0,34.0,34.0,3.0,3.5,2.5775,0.7921695256006387,-0.009795720037555584,0.5970043243405264,0.005753155440864512,-0.070284,-38.892254
11.185,2.0,1.0,1.0,33.0,34.0,34.0,3.0,3.5,2.58,0.7878711942646602,-0.009998916760053166,0.6025124054469683,0.005765639367505821,-0.071099,-38.754275
11.185,2.0,1.0,1.0,33.0,34.0,34.0,3.0,3.5,2.5825,0.783511007631681,-0.010206411517655983,0.6080167017812337,0.005776852786249769,-0.07193,-38.615619
11.185,2.0,1.0,1.0,33.0,34.0,34.0,3.0,3.5,2.585,0.7790882206065299,-0.010418319676289678,0.6135168493537574,0.005786735010328348,-0.07278,-38.47627
11.185,2.0,1.0,1.0,33.0,34.0,34.0,3.0,3.5,2.5875,0.7746020735346821,-0.01063476066984959,0.619012471547497,0.00579522248382362,-0.073648,-38.33621
11.185,2.0,1.0,1.0,33.0,34.0,34.0,3.0,3.5,2.59,0.7700517918420344,-0.010855858178582454,0.6245031786384576,0.005802248626347423,-0.074536,-38.195422
11.185,2.0,1.0,1.0,33.0,34.0,34.0,3.0,3.5,2.5925,0.7654365856622414,-0.011081740316856414,0.6299885672954646,0.005807743668011309,-0.075442,-38.053889
11.185,2.0,1.0,1.0,33.0,34.0,34.0,3.0,3.5,2.595,0.7607556494510078,-0.011312539830892835,0.6354682200580588,0.005811634473984217,-0.076369,-37.911593
11.185,2.0,1.0,1.0,33.0,34.0,34.0,3.0,3.5,2.5975,0.7560081615866588,-0.011548394307077206,0.6409417047913507,0.005813844357885946,-0.077317,-37.768515
11.185,2.0,1.0,1.0,33.0,34.0,34.0,3.0,3.5,2.6,0.7511932839562938,-0.011789446391507289,0.6464085741165604,0.005814292883199039,-0.078286,-37.624637
11.185,2.0,1.0,1.0,33.0,34.0,34.0,3.0,3.5,2.6025,0.7463101615267677,-0.012035844021483739,0.6518683648158945,0.005812895651813408,-0.079278,-37.479938
11.185,2.0,1.0,1.0,33.0,34.0,34.0,3.0,3.5,2.605,0.7413579218996884,-0.012287740669699317,0.6573205972103222,0.005809564078745578,-0.080292,-37.3344
11.185,2.0,1.0,1.0,33.0,34.0,34.0,3.0,3.5,2.6075,0.7363356748495794,-0.012545295601935938,0.6627647745087009,0.005804205151991326,-0.08133,-37.188001
11.185,2.0,1.0,1.0,33.0,34.0,34.0,3.0,3.5,2.61,0.7312425118442787,-0.012808674149137866,0.6682003821265955,0.005796721176383276,-0.082392,-37.040722
11.185,2.0,1.0,1.0,33.0,34.0,34.0,3.0,3.5,2.6125,0.726077505546593,-0.013078047994792693,0.6736268869730162,0.005787009500226713,-0.083479,-36.89254
11.185,2.0,1.0,1.0,33.0,34.0,34.0,3.0,3.5,2.615,0.7208397092961444,-0.013353595478619544,0.6790437367031702,0.0057749622233806445,-0.084593,-36.743434
11.185,2.0,1.0,1.0,33.0,34.0,34.0,3.0,3.5,2.6175,0.7155281565702857,-0.013635501917637741,0.6844503589351683,0.005760465885332869,-0.085733,-36.59338
11.185,2.0,1.0,1.0,33.0,34.0,34.0,3.0,3.5,2.62,0.7101418604228632,-0.013923959945769117,0.6898461604284869,0.0057434011316895685,-0.086901,-36.442357
11.185,2.0,1.0,1.0,33.0,34.0,34.0,3.0,3.5,2.6225,0.7046798128995192,-0.01421916987321376,0.6952305262218093,0.005723642357359089,-0.088098,-36.29034
11.185,2.0,1.0,1.0,33.0,34.0,34.0,3.0,3.5,2.625,0.699140984428147,-0.0145213400669316,0.700602818727672,0.00570105732455259,-0.089324,-36.137305
11.185,2.0,1.0,1.0,33.0,34.0,34.0,3.0,3.5,2.6275,0.6935243231829744,-0.01483068735366413,0.7059623767811675,0.0056755067535516745,-0.090581,-35.983227
11.185,2.0,1.0,1.0,33.0,34.0,34.0,3.0,3.5,2.63,0.687828754420666,-0.015147437447040545,0.7113085146396982,0.005646843884007622,-0.091871,-35.828079
11.185,2.0,1.0,1.0,33.0,34.0,34.0,3.0,3.5,2.6325,0.6820531797866979,-0.01547182540043009,0.7166405209305556,0.005614914004322001,-0.093193,-35.671836
11.185,2.0,1.0,1.0,33.0,34.0,34.0,3.0,3.5,2.635,0.6761964765901228,-0.015804096087333016,0.72195765754282,0.005579553946433231,-0.094549,-35.514469
11.185,2.0,1.0,1.0,33.0,34.0,34.0,3.0,3.5,2.6375,0.6702574970447107,-0.01614450471124076,0.727259158459775,0.005540591543074941,-0.095941,-35.355951
11.185,2.0,1.0,1.0,33.0,34.0,34.0,3.0,3.5,2.64,0.664235067474266,-0.01649331734704957,0.7325442285277294,0.0054978450442901,-0.09737,-35.196253
11.185,2.0,1.0,1.0,33.0,34.0,34.0,3.0,3.5,2.6425,0.658127987479778,-0.016850811516274728,0.7378120421567458,0.005451122489673598,-0.098837,-35.035345
11.185,2.0,1.0,1.0,33.0,34.0,34.0,3.0,3.5,2.645,0.6519350290658574,-0.017217276798492887,0.74306174194841,0.005400221032465304,-0.100343,-34.873196
11.185,2.0,1.0,1.0,33.0,34.0,34.0,3.0,3.5,2.6475,0.6456549357237095,-0.017593015481633934,0.7482924372453198,0.0053449262112338315,-0.101891,-34.709774
11.185,2.0,1.0,1.0,33.0,34.0,34.0,3.0,3.5,2.65,0.6392864214676671,-0.01797834325395579,0.7535032025965066,0.005285011164460206,-0.103481,-34.545046
11.185,2.0,1.0,1.0,33.0,34.0,34.0,3.0,3.5,2.6525,0.6328281698220908,-0.018373589940763855,0.7586930761324354,0.005220235782854488,-0.105116,-34.378979
11.185,2.0,1.0,1.0,33.0,34.0,34.0,3.0,3.5,2.655,0.6262788327551331,-0.018779100289189034,0.7638610578426772,0.00515034579370684,-0.106797,-34.211538
11.185,2.0,1.0,1.0,33.0,34.0,34.0,3.0,3.5,2.6575,0.619637029555623,-0.0191952348046084,0.7690061077486552,0.005075071770983705,-0.108527,-34.042686
11.185,2.0,1.0,1.0,33.0,34.0,34.0,3.0,3.5,2.66,0.6129013456489836,-0.01962237064258856,0.7741271439631512,0.004994128064215691,-0.110306,-33.872387
11.185,2.0,1.0,1.0,33.0,34.0,34.0,3.0,3.5,2.6625,0.6060703313477703,-0.020060902560553723,0.7792230406274259,0.004907211638485115,-0.112138,-33.700601
11.185,2.0,1.0,1.0,33.0,34.0,34.0,3.0,3.5,2.665,0.5991425005320334,-0.020511243933731747,0.784292625715923,0.004814000816995731,-0.114024,-33.527288
11.185,2.0,1.0,1.0,33.0,34.0,34.0,3.0,3.5,2.6675,0.5921163292543165,-0.02097382784030885,0.7893346786974755,0.0047141539167748795,-0.115967,-33.352408
11.185,2.0,1.0,1.0,33.0,34.0,34.0,3.0,3.5,2.67,0.5849902542636519,-0.021449108221142814,0.794347928040828,0.0046073077670228816,-0.117969,-33.175918
11.185,2.0,1.0,1.0,33.0,34.0,34.0,3.0,3.5,2.6725,0.577762671442428,-0.021937561119830824,0.7993310485509976,0.004493076098449167,-0.120033,-32.997773
11.185,2.0,1.0,1.0,33.0,34.0,34.0,3.0,3.5,2.675,0.570431934149497,-0.022439686009421207,0.8042826585215759,0.004371047790624727,-0.122162,-32.817927
11.185,2.0,1.0,1.0,33.0,34.0,34.0,3.0,3.5,2.6775,0.5629963514623062,-0.02295600721258912,0.8092013166864644,0.004240784962894197,-0.124358,-32.636334
11.185,2.0,1.0,1.0,33.0,34.0,34.0,3.0,3.5,2.68,0.5554541863102148,-0.02348707542267609,0.8140855189527518,0.004101820892720606,-0.126624,-32.452942
11.185,2.0,1.0,1.0,33.0,34.0,34.0,3.0,3.5,2.6825,0.547803653490494,-0.024033469333620057,0.8189336948943795,0.0039536577434467705,-0.128965,-32.267703
11.185,2.0,1.0,1.0,33.0,34.0,34.0,3.0,3.5,2.685,0.5400429175577613,-0.02459579738748499,0.8237442039839864,0.003795764081320733,-0.131383,-32.080561
11.185,2.0,1.0,1.0,33.0,34.0,34.0,3.0,3.5,2.6875,0.53217009057681,-0.0251746996490355,0.828515331537712,0.00362757215921061,-0.133883,-31.891462
11.185,2.0,1.0,1.0,33.0,34.0,34.0,3.0,3.5,2.69,0.5241832297279352,-0.025770849817599768,0.8332452843448074,0.0034484749416897414,-0.136468,-31.700349
11.185,2.0,1.0,1.0,33.0,34.0,34.0,3.0,3.5,2.6925,0.5160803347529054,-0.026384957387326026,0.8379321859506031,0.0032578228430485833,-0.139142,-31.507161
11.185,2.0,1.0,1.0,33.0,34.0,34.0,3.0,3.5,2.695,0.5078593452287492,-0.027017769967861028,0.8425740715575755,0.0030549201462374293,-0.14191,-31.311837
11.185,2.0,1.0,1.0,33.0,34.0,34.0,3.0,3.5,2.6975,0.4995181376554027,-0.027670075778481015,0.8471688825050091,0.0028390210666977703,-0.144777,-31.114313
11.185,2.0,1.0,1.0,33.0,34.0,34.0,3.0,3.5,2.7,0.49105452234213004,-0.02834270632976196,0.8517144602828133,0.0026093254204062524,-0.147747,-30.914519
11.185,2.0,1.0,1.0,33.0,34.0,34.0,3.0,3.5,2.7025,0.48246624007635064,-0.029036539308017147,0.8562085400295166,0.002364973850175792,-0.150828,-30.712388
11.185,2.0,1.0,1.0,33.0,34.0,34.0,3.0,3.5,2.705,0.4737509585572039,-0.02975250167892717,0.8606487434580454,0.0021050425581871693,-0.154024,-30.507844
11.185,2.0,1.0,1.0,33.0,34.0,34.0,3.0,3.5,2.7075,0.4649062685747528,-0.030491573028052665,0.8650325711456093,0.001828537485776145,-0.157342,-30.300813
11.185,2.0,1.0,1.0,33.0,34.0,34.0,3.0,3.5,2.71,0.455929679914266,-0.03125478915723589,0.8693573941156025,0.001534387873496371,-0.160788,-30.091214
11.185,2.0,1.0,1.0,33.0,34.0,34.0,3.0,3.5,2.7125,0.44681861696347125,-0.032043245957256355,0.8736204446298027,0.0012214391252679715,-0.164371,-29.878964
11.185,2.0,1.0,1.0,33.0,34.0,34.0,3.0,3.5,2.715,0.4375704139991054,-0.03285810357847796,0.877818806098007,0.0008884448897852708,-0.168097,-29.663976
11.185,2.0,1.0,1.0,33.0,34.0,34.0,3.0,3.5,2.7175,0.4281823101274897,-0.03370059092259635,0.8819494019994345,0.0005340582600671268,-0.171976,-29.446159
11.185,2.0,1.0,1.0,33.0,34.0,34.0,3.0,3.5,2.72,0.41865144385231245,-0.03457201047990161,0.8860089836953473,0.00015682197778255481,-0.176017,-29.225418
11.185,2.0,1.0,1.0,33.0,34.0,34.0,3.0,3.5,2.7225,0.40897484724128086,-0.03547374353768682,0.8899941169951614,-0.0002448424875413306,-0.180229,-29.001653
11.185,2.0,1.0,1.0,33.0,34.0,34.0,3.0,3.5,2.725,0.3991494396620365,-0.03640725578643639,0.8939011673182875,-0.0006726471335652167,-0.184625,-28.774759
11.185,2.0,1.0,1.0,33.0,34.0,34.0,3.0,3.5,2.7275,0.3891720210565863,-0.037374103351165824,0.8977262832707039,-0.001128451065979491,-0.189214,-28.544627
11.185,2.0,1.0,1.0,33.0,34.0,34.0,3.0,3.5,2.73,0.3790392647229017,-0.03837593927556035,0.9014653784280708,-0.001614275782874741,-0.19401,-28.311142
11.185,2.0,1.0,1.0,33.0,34.0,34.0,3.0,3.5,2.7325,0.3687477095721794,-0.03941452048622717,0.905114111085472,-0.002132322331026496,-0.199028,-28.074183
11.185,2.0,1.0,1.0,33.0,34.0,34.0,3.0,3.5,2.735,0.3582937518310589,-0.040491715263154704,0.9086678616966429,-0.002684990598425695,-0.204281,-27.833623
11.185,2.0,1.0,1.0,33.0,34.0,34.0,3.0,3.5,2.7375,0.34767363615994584,-0.041609511240037554,0.912121707681852,-0.0032749010496752403,-0.209787,-27.589328
11.185,2.0,1.0,1.0,33.0,34.0,34.0,3.0,3.5,2.74,0.3368834461621368,-0.04277002395402606,0.9154703952321367,-0.0039049192606797002,-0.215563,-27.341158
11.185,2.0,1.0,1.0,33.0,34.0,34.0,3.0,3.5,2.7425,0.3259190942641115,-0.04397550595810861,0.9187083076768966,-0.004578183667902875,-0.221629,-27.088966
11.185,2.0,1.0,1.0,33.0,34.0,34.0,3.0,3.5,2.745,0.31477631095605263,-0.04522835649994063,0.9218294299100136,-0.005298137017122716,-0.228008,-26.832594
11.185,2.0,1.0,1.0,33.0,34.0,34.0,3.0,3.5,2.7475,0.30345063339431566,-0.046531131757471034,0.9248273082845169,-0.006068562079269158,-0.234722,-26.571879
11.185,2.0,1.0,1.0,33.0,34.0,34.0,3.0,3.5,2.75,0.29193739338562,-0.0478865556027947,0.927695005284607,-0.00689362229925252,-0.241798,-26.306646
11.185,2.0,1.0,1.0,33.0,34.0,34.0,3.0,3.5,2.7525,0.2802317047980042,-0.049297530839463574,0.9304250481632477,-0.007777908160901313,-0.249265,-26.036712
11.185,2.0,1.0,1.0,33.0,34.0,34.0,3.0,3.5,2.755,0.26832845047846954,-0.05076715082258333,0.933009370589525,-0.008726490191209867,-0.257156,-25.761882
11.185,2.0,1.0,1.0,33.0,34.0,34.0,3.0,3.5,2.7575,0.2562222688049789,-0.05229871132218303,0.9354392461775449,-0.0097449796949017,-0.265505,-25.481952
11.185,2.0,1.0,1.0,33.0,34.0,34.0,3.0,3.5,2.76,0.2439075400655018,-0.05389572242423404,0.9377052125617128,-0.010839598511775314,-0.274353,-25.196702
11.185,2.0,1.0,1.0,33.0,34.0,34.0,3.0,3.5,2.7625,0.23137837294470787,-0.05556192017457869,0.9397969844343717,-0.012017259331738073,-0.283743,-24.905903
11.185,2.0,1.0,1.0,33.0,34.0,34.0,3.0,3.5,2.765,0.2186285915177308,-0.05730127755111107,0.9417033536617315,-0.013285658394804821,-0.293725,-24.609308
11.185,2.0,1.0,1.0,33.0,34.0,34.0,3.0,3.5,2.7675,0.20565172331045023,-0.059118014188459765,0.9434120742315787,-0.01465338275664586,-0.304355,-24.306657
11.185,2.0,1.0,1.0,33.0,34.0,34.0,3.0,3.5,2.77,0.1924409892012225,-0.06101660406306514,0.9449097293475368,-0.016130034728032525,-0.315694,-23.997675
11.185,2.0,1.0,1.0,33.0,34.0,34.0,3.0,3.5,2.7725,0.17898929622913612,-0.06300178005587893,0.9461815774527096,-0.017726376615290945,-0.327813,-23.682064
11.185,2.0,1.0,1.0,33.0,34.0,34.0,3.0,3.5,2.775,0.16528923476472035,-0.06507853391908702,0.9472113733196244,-0.019454499518841036,-0.34079,-23.359513
11.185,2.0,1.0,1.0,33.0,34.0,34.0,3.0,3.5,2.7775,0.15133308202624204,-0.06725210964694975,0.9479811595582941,-0.0213280207126604,-0.354717,-23.029686
11.185,2.0,1.0,1.0,33.0,34.0,34.0,3.0,3.5,2.78,0.13711281463707947,-0.0695279875407887,0.9484710229394571,-0.023362315058697077,-0.369694,-22.692227
11.185,2.0,1.0,1.0,33.0,34.0,34.0,3.0,3.5,2.7825,0.12262013388425803,-0.07191185529790675,0.9486588087691726,-0.025574787042252408,-0.38584,-22.346754
11.185,2.0,1.0,1.0,33.0,34.0,34.0,3.0,3.5,2.785,0.10784650864756451,-0.07440956115226934,0.948519785141204,-0.027985191388679023,-0.403288,-21.992861
11.185,2.0,1.0,1.0,33.0,34.0,34.0,3.0,3.5,2.7875,0.09278324275126215,-0.07702704232421573,0.9480262471858691,-0.0306160118857899,-0.422192,-21.630113
11.185,2.0,1.0,1.0,33.0,34.0,34.0,3.0,3.5,2.79,0.07742157592448401,-0.07977021962104708,0.9471470493743563,-0.0334929100420741,-0.44273,-21.258045
11.185,2.0,1.0,1.0,33.0,34.0,34.0,3.0,3.5,2.7925,0.061752830891331864,-0.08264484572402303,0.9458470514708125,-0.03664525761067995,-0.465109,-20.876161
11.185,2.0,1.0,1.0,33.0,34.0,34.0,3.0,3.5,2.795,0.04576862369615101,-0.0856562901558181,0.9440864608026398,-0.04010676984821656,-0.48957,-20.483928
11.185,2.0,1.0,1.0,33.0,34.0,34.0,3.0,3.5,2.7975,0.029461160693801298,-0.08880923766250433,0.9418200501170577,-0.04391625967727279,-0.516394,-20.080779
11.185,2.0,1.0,1.0,33.0,34.0,34.0,3.0,3.5,2.8,0.012823654388268251,-0.09210726808590518,0.9389962264363063,-0.04811853665076067,-0.545913,-19.666107
11.185,2.0,1.0,1.0,33.0,34.0,34.0,3.0,3.5,2.8025,-0.0041490975422114745,-0.09555227378852402,0.9355559221482073,-0.0527654786366586,-0.57852,-19.239266
11.185,2.0,1.0,1.0,33.0,34.0,34.0,3.0,3.5,2.805,-0.02145990877106958,-0.09914365397732257,0.931431275408082,-0.05791730811422979,-0.614679,-18.799568
11.185,2.0,1.0,1.0,33.0,34.0,34.0,3.0,3.5,2.8075,-0.03910809152244272,-0.10287720196436943,0.9265440634858751,-0.06364410819093035,-0.654948,-18.346283
11.185,2.0,1.0,1.0,33.0,34.0,34.0,3.0,3.5,2.81,-0.05708791657622526,-0.10674356886607911,0.9208038513313638,-0.07002761455203739,-0.699996,-17.878642
11.185,2.0,1.0,1.0,33.0,34.0,34.0,3.0,3.5,2.8125,-0.0753864821473436,-0.110726141845074,0.914105820872624,-0.0771633160319636,-0.750633,-17.395838
11.185,2.0,1.0,1.0,33.0,34.0,34.0,3.0,3.5,2.815,-0.09398076355852035,-0.11479811183080726,0.9063282589463066,-0.08516288384119487,-0.807842,-16.897035
11.185,2.0,1.0,1.0,33.0,34.0,34.0,3.0,3.5,2.8175,-0.11283352684547099,-0.11891841831375168,0.8973297112894959,-0.09415691976002998,-0.872828,-16.381378
11.185,2.0,1.0,1.0,33.0,34.0,34.0,3.0,3.5,2.82,-0.13188766798907353,-0.12302613946302283,0.8869458706143535,-0.10429795305280144,-0.947076,-15.848013
11.185,2.0,1.0,1.0,33.0,34.0,34.0,3.0,3.5,2.8225,-0.15105837672446976,-0.12703273610677673,0.8749863822700863,-0.1157635009146421,-1.032425,-15.296115
11.185,2.0,1.0,1.0,33.0,34.0,34.0,3.0,3.5,2.825,-0.17022231352604655,-0.1308113520772793,0.8612319615434852,-0.12875879829481826,-1.131168,-14.724933
11.185,2.0,1.0,1.0,33.0,34.0,34.0,3.0,3.5,2.8275,-0.18920273401733867,-0.13418212503527158,0.8454325885370055,-0.1435184346319499,-1.246181,-14.133859
11.185,2.0,1.0,1.0,33.0,34.0,34.0,3.0,3.5,2.83,-0.20774922773908608,-0.13689220241461694,0.827308185669828,-0.1603055032100959,-1.381082,-13.52252
