1,w,sub_t,h,l1,l2,l3,g1,g2,Freq,S11_re,S21_re,S11_img,S21_img,S11_dB,S21_dB
11.185,2.0,1.0,1.0,33.6,33.2,33.2,4.0,1.5,2.5,0.838253096042723,-0.00790289979411676,0.533862811592506,0.00641977051038511,-0.053847,-39.843499
11.185,2.0,1.0,1.0,33.6,33.2,33.2,4.0,1.5,2.5025,0.834623467435474,-0.008056851622729507,0.5394160912376539,0.00644467740406874,-0.054338,-39.728677
11.185,2.0,1.0,1.0,33.6,33.2,33.2,4.0,1.5,2.505,0.8309413741303598,-0.008213455692270426,0.5449669939660508,0.0064687761554295025,-0.054837,-39.613563
11.185,2.0,1.0,1.0,33.6,33.2,33.2,4.0,1.5,2.5075,0.8272063167086291,-0.008372762107390632,0.5505152497827154,0.006492032901430687,-0.055344,-39.498151
11.185,2.0,1.0,1.0,33.6,33.2,33.2,4.0,1.5,2.51,0.8234177883856828,-0.008534822162941276,0.5560605808561987,0.006514412577794243,-0.05586,-39.382432
11.185,2.0,1.0,1.0,33.6,33.2,33.2,4.0,1.5,2.5125,0.8195752749104231,-0.008699688378128758,0.561602701277281,0.006535878871715544,-0.056383,-39.266399
11.185,2.0,1.0,1.0,33.6,33.2,33.2,4.0,1.5,2.515,0.8156782544638923,-0.008867414531817141,0.5671413168101336,0.0065563941724967965,-0.056915,-39.150045
11.185,2.0,1.0,1.0,33.6,33.2,33.2,4.0,1.5,2.5175,0.8117261975572497,-0.009038055699024146,0.57267612463567,0.006575919519994846,-0.057456,-39.033362
11.185,2.0,1.0,1.0,33.6,33.2,33.2,4.0,1.5,2.52,0.8077185669291111,-0.009211668288657974,0.5782068130868452,0.006594414550775512,-0.058006,-38.916341
11.185,2.0,1.0,1.0,33.6,33.2,33.2,4.0,1.5,2.5225,0.8036548174423035,-0.00938831008254527,0.5837330613756031,0.0066118374418575225,-0.058565,-38.798976
11.185,2.0,1.0,1.0,33.6,33.2,33.2,4.0,1.5,2.525,0.7995343959800687,-0.009568040275802535,0.5892545393112059,0.0066281448519257,-0.059134,-38.681258
11.185,2.0,1.0,1.0,33.6,33.2,33.2,4.0,1.5,2.5275,0.7953567413417643,-0.009750919518606389,0.5947709070096473,0.006643291859883326,-0.059713,-38.563178
11.185,2.0,1.0,1.0,33.6,33.2,33.2,4.0,1.5,2.53,0.791121284138114,-0.009937009959419244,0.6002818145938315,0.0066572319006070226,-0.060301,-38.44473
11.185,2.0,1.0,1.0,33.6,33.2,33.2,4.0,1.5,2.5325,0.786827446686058,-0.010126375289732273,0.6057869018842073,0.00666991669776093,-0.0609,-38.325903
11.185,2.0,1.0,1.0,33.6,33.2,33.2,4.0,1.5,2.535,0.7824746429032551,-0.010319080790387779,0.6112857980795273,0.006681296193515632,-0.061509,-38.20669
11.185,2.0,1.0,1.0,33.6,33.2,33.2,4.0,1.5,2.5375,0.7780622782023053,-0.010515193379547913,0.6167781214273739,0.006691318475010906,-0.062129,-38.087082
11.185,2.0,1.0,1.0,33.6,33.2,33.2,4.0,1.5,2.54,0.7735897493847466,-0.010714781662379895,0.6222634788841048,0.00669992969738936,-0.06276,-37.96707
11.185,2.0,1.0,1.0,33.6,33.2,33.2,4.0,1.5,2.5425,0.7690564445348982,-0.010917915982530097,0.6277414657638409,0.0067070740032203705,-0.063402,-37.846646
11.185,2.0,1.0,1.0,33.6,33.2,33.2,4.0,1.5,2.545,0.764461742913617,-0.011124668475465073,0.6332116653761051,0.006712693438119486,-0.064056,-37.7258
11.185,2.0,1.0,1.0,33.6,33.2,33.2,4.0,1.5,2.5475,0.7598050148520499,-0.011335113123759162,0.6386736486517,0.006716727862358969,-0.064722,-37.604522
11.185,2.0,1.0,1.0,33.6,33.2,33.2,4.0,1.5,2.55,0.7550856216454487,-0.011549325814414846,0.644126973756422,0.00671911485825199,-0.0654,-37.482804
11.185,2.0,1.0,1.0,33.6,33.2,33.2,4.0,1.5,2.5525,0.7503029154471468,-0.011767384398304007,0.64957118569214,0.006719789633078339,-0.066091,-37.360637
11.185,2.0,1.0,1.0,33.6,33.2,33.2,4.0,1.5,2.555,0.7454562391627736,-0.011989368751824873,0.6550058158848076,0.006718684917306919,-0.066795,-37.238009
11.185,2.0,1.0,1.0,33.6,33.2,33.2,4.0,1.5,2.5575,0.7405449263448033,-0.012215360840873239,0.6604303817589146,0.006715730857852567,-0.067512,-37.114913
11.185,2.0,1.0,1.0,33.6,33.2,33.2,4.0,1.5,2.56,0.7355683010875386,-0.012445444787231624,0.6658443862978773,0.006710854906090167,-0.068242,-36.991336
11.185,2.0,1.0,1.0,33.6,33.2,33.2,4.0,1.5,2.5625,0.7305256779226325,-0.012679706937486336,0.6712473175898472,0.0067039817003293,-0.068987,-36.86727
11.185,2.0,1.0,1.0,33.6,33.2,33.2,4.0,1.5,2.565,0.7254163617152481,-0.012918235934587444,0.676638648358394,0.006695032942434917,-0.069746,-36.742703
11.185,2.0,1.0,1.0,33.6,33.2,33.2,4.0,1.5,2.5675,0.7202396475609868,-0.013161122792172759,0.6820178354774821,0.006683927268258084,-0.070519,-36.617626
11.185,2.0,1.0,1.0,33.6,33.2,33.2,4.0,1.5,2.57,0.7149948206836858,-0.013408460971784924,0.6873843194701516,0.006670580111518845,-0.071308,-36.492027
11.185,2.0,1.0,1.0,33.6,33.2,33.2,4.0,1.5,2.5725,0.7096811563342218,-0.013660346463114967,0.6927375239902736,0.006654903560759641,-0.072112,-36.365896
11.185,2.0,1.0,1.0,33.6,33.2,33.2,4.0,1.5,2.575,0.7042979196904473,-0.013916877867415332,0.6980768552867255,0.006636806208962669,-0.072933,-36.239221
11.185,2.0,1.0,1.0,33.6,33.2,33.2,4.0,1.5,2.5775,0.6988443657583963,-0.014178156484233042,0.7034017016492953,0.006616192995394314,-0.073769,-36.11199
11.185,2.0,1.0,1.0,33.6,33.2,33.2,4.0,1.5,2.58,0.6933197392749063,-0.014444286401619438,0.7087114328355945,0.006592965039214782,-0.074623,-35.984192
11.185,2.0,1.0,1.0,33.6,33.2,33.2,4.0,1.5,2.5825,0.6877232746117996,-0.014715374589985713,0.714005399478228,0.006567019464354559,-0.075494,-35.855816
11.185,2.0,1.0,1.0,33.6,33.2,33.2,4.0,1.5,2.585,0.6820541956817848,-0.014991530999778482,0.7192829324714148,0.006538249215126373,-0.076383,-35.726848
11.185,2.0,1.0,1.0,33.6,33.2,33.2,4.0,1.5,2.5875,0.6763117158462352,-0.01527286866316326,0.7245433423362355,0.006506542862005999,-0.077291,-35.597277
11.185,2.0,1.0,1.0,33.6,33.2,33.2,4.0,1.5,2.59,0.6704950378250205,-0.015559503799911377,0.7297859185636169,0.006471784396971468,-0.078217,-35.46709
11.185,2.0,1.0,1.0,33.6,33.2,33.2,4.0,1.5,2.5925,0.664603353608557,-0.015851555927699018,0.7350099289341326,0.006433853017749694,-0.079163,-35.336273
11.185,2.0,1.0,1.0,33.6,33.2,33.2,4.0,1.5,2.595,0.6586358443722723,-0.016149147977037166,0.7402146188136394,0.006392622900270658,-0.080129,-35.204814
11.185,2.0,1.0,1.0,33.6,33.2,33.2,4.0,1.5,2.5975,0.6525916803936569,-0.016452406411065636,0.7453992104237219,0.0063479629585788625,-0.081115,-35.072699
11.185,2.0,1.0,1.0,33.6,33.2,33.2,4.0,1.5,2.6,0.6464700209721104,-0.01676146135045537,0.750562902085863,0.006299736591398162,-0.082123,-34.939914
11.185,2.0,1.0,1.0,33.6,33.2,33.2,4.0,1.5,2.6025,0.6402700143517837,-0.01707644670368059,0.755704867438173,0.006247801414483034,-0.083153,-34.806445
11.185,2.0,1.0,1.0,33.6,33.2,33.2,4.0,1.5,2.605,0.6339907976476208,-0.017397500302933123,0.7608242546234887,0.006192008977827941,-0.084205,-34.672278
11.185,2.0,1.0,1.0,33.6,33.2,33.2,4.0,1.5,2.6075,0.6276314967748206,-0.01772476404597232,0.7659201854475294,0.006132204466733319,-0.08528,-34.537397
11.185,2.0,1.0,1.0,33.6,33.2,33.2,4.0,1.5,2.61,0.6211912263819459,-0.018058384044215187,0.7709917545057591,0.00606822638565242,-0.08638,-34.401788
11.185,2.0,1.0,1.0,33.6,33.2,33.2,4.0,1.5,2.6125,0.614669089787902,-0.018398510777394534,0.7760380282775036,0.005999906223658995,-0.087504,-34.265435
11.185,2.0,1.0,1.0,33.6,33.2,33.2,4.0,1.5,2.615,0.6080641789230222,-0.01874529925512964,0.7810580441857862,0.0059270681002854195,-0.088654,-34.128321
11.185,2.0,1.0,1.0,33.6,33.2,33.2,4.0,1.5,2.6175,0.6013755742745119,-0.019098909185772096,0.7860508096212413,0.0058495283903822765,-0.089829,-33.990431
11.185,2.0,1.0,1.0,33.6,33.2,33.2,4.0,1.5,2.62,0.5946023448364901,-0.019459505152915897,0.7910153009283645,0.005767095326544098,-0.091032,-33.851748
11.185,2.0,1.0,1.0,33.6,33.2,33.2,4.0,1.5,2.6225,0.5877435480648863,-0.019827256799979882,0.7959504623522519,0.005679568577528233,-0.092264,-33.712254
11.185,2.0,1.0,1.0,33.6,33.2,33.2,4.0,1.5,2.625,0.580798229837463,-0.0202023390232933,0.800855204943828,0.00558673880096583,-0.093523,-33.571932
11.185,2.0,1.0,1.0,33.6,33.2,33.2,4.0,1.5,2.6275,0.573765424419216,-0.02058493217414705,0.8057284054214652,0.0054883871685247505,-0.094813,-33.430763
11.185,2.0,1.0,1.0,33.6,33.2,33.2,4.0,1.5,2.63,0.5666441544334349,-0.020975222270292044,0.8105689049867139,0.005384284861531822,-0.096134,-33.28873
11.185,2.0,1.0,1.0,33.6,33.2,33.2,4.0,1.5,2.6325,0.559433430838696,-0.02137340121740093,0.8153755080917223,0.005274192534895542,-0.097486,-33.145813
11.185,2.0,1.0,1.0,33.6,33.2,33.2,4.0,1.5,2.635,0.55213225291207,-0.02177966704103591,0.8201469811557432,0.005157859746984408,-0.098872,-33.001992
11.185,2.0,1.0,1.0,33.6,33.2,33.2,4.0,1.5,2.6375,0.5447396082388378,-0.02219422412969662,0.8248820512279198,0.005035024352921131,-0.100291,-32.857247
11.185,2.0,1.0,1.0,33.6,33.2,33.2,4.0,1.5,2.64,0.5372544727089851,-0.022617283489558923,0.8295794045933591,0.004905411858526006,-0.101746,-32.711557
11.185,2.0,1.0,1.0,33.6,33.2,33.2,4.0,1.5,2.6425,0.5296758105207895,-0.023049063011545235,0.8342376853192385,0.004768734731907428,-0.103238,-32.564901
11.185,2.0,1.0,1.0,33.6,33.2,33.2,4.0,1.5,2.645,0.5220025741917831,-0.02348978775140634,0.8388554937374563,0.004624691669428087,-0.104767,-32.417257
11.185,2.0,1.0,1.0,33.6,33.2,33.2,4.0,1.5,2.6475,0.5142337045773955,-0.023939690223532446,0.8434313848600443,0.004472966812484045,-0.106335,-32.268602
11.185,2.0,1.0,1.0,33.6,33.2,33.2,4.0,1.5,2.65,0.5063681308975659,-0.024399010709249994,0.8479638667232786,0.004313228911210778,-0.107944,-32.118913
11.185,2.0,1.0,1.0,33.6,33.2,33.2,4.0,1.5,2.6525,0.498404770771653,-0.024867997580401327,0.8524513986560325,0.004145130430877418,-0.109594,-31.968165
11.185,2.0,1.0,1.0,33.6,33.2,33.2,4.0,1.5,2.655,0.4903425302619181,-0.02534690763904726,0.8568923894676084,0.003968306596336375,-0.111289,-31.816334
11.185,2.0,1.0,1.0,33.6,33.2,33.2,4.0,1.5,2.6575,0.4821803039259095,-0.02583600647417574,0.8612851955498121,0.0037823743694608922,-0.113028,-31.663394
11.185,2.0,1.0,1.0,33.6,33.2,33.2,4.0,1.5,2.66,0.4739169748780481,-0.026335568836343207,0.8656281188876149,0.003586931354027927,-0.114815,-31.509319
11.185,2.0,1.0,1.0,33.6,33.2,33.2,4.0,1.5,2.6625,0.4655514148607385,-0.0268458790312201,0.8699194049722083,0.003381554621968966,-0.11665,-31.354082
11.185,2.0,1.0,1.0,33.6,33.2,33.2,4.0,1.5,2.665,0.45708248432530807,-0.027367231333056578,0.874157240609732,0.003165799454323869,-0.118536,-31.197653
11.185,2.0,1.0,1.0,33.6,33.2,33.2,4.0,1.5,2.6675,0.4485090325231194,-0.027899930419126907,0.8783397516182846,0.002939197989582017,-0.120474,-31.040004
11.185,2.0,1.0,1.0,33.6,33.2,33.2,4.0,1.5,2.67,0.43982989760717556,-0.02844429182625532,0.8824650004051694,0.0027012577713640845,-0.122467,-30.881106
11.185,2.0,1.0,1.0,33.6,33.2,33.2,4.0,1.5,2.6725,0.43104390674456466,-0.02900064243056277,0.8865309834155323,0.002451460186597609,-0.124517,-30.720925
11.185,2.0,1.0,1.0,33.6,33.2,33.2,4.0,1.5,2.675,0.42214987624012057,-0.029569320951613583,0.8905356284426854,0.002189258784433177,-0.126626,-30.559431
11.185,2.0,1.0,1.0,33.6,33.2,33.2,4.0,1.5,2.6775,0.4131466116716732,-0.030150678482167646,0.894476791789452,0.0019140774651485064,-0.128797,-30.396591
11.185,2.0,1.0,1.0,33.6,33.2,33.2,4.0,1.5,2.68,0.40403290803731157,-0.030745079044769554,0.8983522552687846,0.0016253085271707836,-0.131032,-30.232368
11.185,2.0,1.0,1.0,33.6,33.2,33.2,4.0,1.5,2.6825,0.39480754991512235,-0.03135290017642014,0.9021597230306982,0.0013223105590888429,-0.133334,-30.066728
11.185,2.0,1.0,1.0,33.6,33.2,33.2,4.0,1.5,2.685,0.3854693116359107,-0.03197453354257381,0.9058968182012106,0.0010044061621334237,-0.135706,-29.899632
11.185,2.0,1.0,1.0,33.6,33.2,33.2,4.0,1.5,2.6875,0.37601695746949004,-0.032610385581692644,0.9095610793174581,0.0006708794870282362,-0.138151,-29.731044
11.185,2.0,1.0,1.0,33.6,33.2,33.2,4.0,1.5,2.69,0.36644924182522337,-0.033260878181550414,0.9131499565414415,0.0003209735673544641,-0.140673,-29.560921
11.185,2.0,1.0,1.0,33.6,33.2,33.2,4.0,1.5,2.6925,0.35676490946759093,-0.033926449388417594,0.9166608076329432,-4.611257041126347e-05,-0.143274,-29.389224
11.185,2.0,1.0,1.0,33.6,33.2,33.2,4.0,1.5,2.695,0.3469626957477574,-0.03460755415015965,0.9200908936599709,-0.0004312270422485776,-0.145958,-29.215908
11.185,2.0,1.0,1.0,33.6,33.2,33.2,4.0,1.5,2.6975,0.33704132685223614,-0.035304665094149874,0.9234373744226474,-0.0008352685119223127,-0.14873,-29.040928
11.185,2.0,1.0,1.0,33.6,33.2,33.2,4.0,1.5,2.7,0.3269995200700614,-0.03601827334069745,0.9266973035636895,-0.0012591898936951604,-0.151593,-28.864238
11.185,2.0,1.0,1.0,33.6,33.2,33.2,4.0,1.5,2.7025,0.3168359840801204,-0.03674888935245082,0.9298676233354797,-0.0017040023830521697,-0.154552,-28.685788
11.185,2.0,1.0,1.0,33.6,33.2,33.2,4.0,1.5,2.705,0.306549419260729,-0.03749704381988593,0.9329451589901869,-0.002170779849676771,-0.157612,-28.505528
11.185,2.0,1.0,1.0,33.6,33.2,33.2,4.0,1.5,2.7075,0.29613851802397584,-0.03826328858257073,0.9359266127553415,-0.0026606636310468673,-0.160777,-28.323406
11.185,2.0,1.0,1.0,33.6,33.2,33.2,4.0,1.5,2.71,0.2856019651779901,-0.03904819758532806,0.9388085573526868,-0.003174867769678359,-0.164053,-28.139365
11.185,2.0,1.0,1.0,33.6,33.2,33.2,4.0,1.5,2.7125,0.27493843832100257,-0.039852367867718064,0.941587429012888,-0.0037146847423579596,-0.167446,-27.953347
11.185,2.0,1.0,1.0,33.6,33.2,33.2,4.0,1.5,2.715,0.2641466082720245,-0.040676420584363,0.9442595199327098,-0.004281491735765474,-0.170961,-27.765294
11.185,2.0,1.0,1.0,33.6,33.2,33.2,4.0,1.5,2.7175,0.25322513954410203,-0.04152100205251099,0.946820970114449,-0.004876757529781475,-0.174606,-27.575141
11.185,2.0,1.0,1.0,33.6,33.2,33.2,4.0,1.5,2.72,0.2421726908675594,-0.042386784821824175,0.9492677585195913,-0.0055020500576754205,-0.178388,-27.382824
11.185,2.0,1.0,1.0,33.6,33.2,33.2,4.0,1.5,2.7225,0.2309879157723779,-0.04327446875961155,0.9515956934597116,-0.006159044721403175,-0.182313,-27.188272
11.185,2.0,1.0,1.0,33.6,33.2,33.2,4.0,1.5,2.725,0.21966946324112377,-0.04418478214252996,0.9538004021373268,-0.0068495335506151035,-0.186391,-26.991413
11.185,2.0,1.0,1.0,33.6,33.2,33.2,4.0,1.5,2.7275,0.2082159784464883,-0.04511848274304059,0.9558773192375909,-0.007575435305878645,-0.190629,-26.792173
11.185,2.0,1.0,1.0,33.6,33.2,33.2,4.0,1.5,2.73,0.1966261035909629,-0.04607635889550366,0.9578216744580548,-0.008338806640341315,-0.195039,-26.590472
11.185,2.0,1.0,1.0,33.6,33.2,33.2,4.0,1.5,2.7325,0.18489847887029948,-0.04705923052257974,0.959628478847953,-0.009141854449869967,-0.199629,-26.386226
11.185,2.0,1.0,1.0,33.6,33.2,33.2,4.0,1.5,2.735,0.1730317435876495,-0.04806795009734167,0.9612925098102508,-0.009986949559977363,-0.20441,-26.179348
11.185,2.0,1.0,1.0,33.6,33.2,33.2,4.0,1.5,2.7375,0.16102453745169518,-0.04910340351001033,0.9628082945985391,-0.010876641919011486,-0.209396,-25.969747
11.185,2.0,1.0,1.0,33.6,33.2,33.2,4.0,1.5,2.74,0.1488755021001155,-0.050166510800107915,0.9641700921163213,-0.011813677491609423,-0.214598,-25.757324
11.185,2.0,1.0,1.0,33.6,33.2,33.2,4.0,1.5,2.7425,0.13658328289966204,-0.05125822670478532,0.9653718727976836,-0.012801017074968052,-0.220032,-25.541979
11.185,2.0,1.0,1.0,33.6,33.2,33.2,4.0,1.5,2.745,0.1241465310865206,-0.05237954096154191,0.9664072963150421,-0.013841857293676978,-0.225712,-25.323603
11.185,2.0,1.0,1.0,33.6,33.2,33.2,4.0,1.5,2.7475,0.1115639063260693,-0.05353147828797025,0.9672696868207776,-0.014939654067644843,-0.231655,-25.102085
11.185,2.0,1.0,1.0,33.6,33.2,33.2,4.0,1.5,2.75,0.0988340797903823,-0.0547150979417097,0.967952005384058,-0.0160981488929748,-0.23788,-24.877303
11.185,2.0,1.0,1.0,33.6,33.2,33.2,4.0,1.5,2.7525,0.08595573787593377,-0.05593149273947738,0.9684468192307826,-0.017321398328749796,-0.244406,-24.649132
11.185,2.0,1.0,1.0,33.6,33.2,33.2,4.0,1.5,2.755,0.07292758671409905,-0.05718178738363546,0.9687462673318734,-0.01861380714506267,-0.251257,-24.417439
11.185,2.0,1.0,1.0,33.6,33.2,33.2,4.0,1.5,2.7575,0.059748357664868815,-0.05846713590660351,0.9688420218113083,-0.01998016566096892,-0.258455,-24.182081
11.185,2.0,1.0,1.0,33.6,33.2,33.2,4.0,1.5,2.76,0.04641681403184214,-0.05978871799547069,0.9687252445581931,-0.02142569188753539,-0.266028,-23.942909
11.185,2.0,1.0,1.0,33.6,33.2,33.2,4.0,1.5,2.7625,0.032931759296522416,-0.06114773389876026,0.9683865383242359,-0.022956079193284344,-0.274006,-23.699764
11.185,2.0,1.0,1.0,33.6,33.2,33.2,4.0,1.5,2.765,0.019292047245829464,-0.06254539754100201,0.9678158914660769,-0.02457755033021857,-0.28242,-23.452477
11.185,2.0,1.0,1.0,33.6,33.2,33.2,4.0,1.5,2.7675,0.005496594462880557,-0.06398292737412885,0.9670026153473184,-0.026296918801888648,-0.291307,-23.200869
11.185,2.0,1.0,1.0,33.6,33.2,33.2,4.0,1.5,2.77,-0.008455604226722483,-0.06546153437198149,0.9659352732432539,-0.028121658725149566,-0.300707,-22.944749
11.185,2.0,1.0,1.0,33.6,33.2,33.2,4.0,1.5,2.7725,-0.02256545660500477,-0.06698240641781564,0.96460159938676,-0.030059984539635307,-0.310664,-22.683915
11.185,2.0,1.0,1.0,33.6,33.2,33.2,4.0,1.5,2.775,-0.036833749260733996,-0.06854668813480176,0.9629884065500729,-0.032120942160038274,-0.32123,-22.418148
11.185,2.0,1.0,1.0,33.6,33.2,33.2,4.0,1.5,2.7775,-0.05126111793430727,-0.07015545495312163,0.9610814802663447,-0.034314513453673666,-0.332458,-22.147219
11.185,2.0,1.0,1.0,33.6,33.2,33.2,4.0,1.5,2.78,-0.06584801047566077,-0.07180967987721477,0.958865457447654,-0.036651736268715235,-0.344414,-21.87088
11.185,2.0,1.0,1.0,33.6,33.2,33.2,4.0,1.5,2.7825,-0.08059464045636094,-0.07351019099030315,0.9563236867414386,-0.03914484264771237,-0.357166,-21.588867
11.185,2.0,1.0,1.0,33.6,33.2,33.2,4.0,1.5,2.785,-0.09550092892413951,-0.07525761718019097,0.9534380674721938,-0.04180741834919376,-0.370795,-21.300898
11.185,2.0,1.0,1.0,33.6,33.2,33.2,4.0,1.5,2.7875,-0.11056643106742646,-0.07705231884996021,0.9501888634247885,-0.04465458738185657,-0.385391,-21.00667
11.185,2.0,1.0,1.0,33.6,33.2,33.2,4.0,1.5,2.79,-0.12579024361448965,-0.078894299435022,0.9465544870231355,-0.04770322594728524,-0.401059,-20.705858
11.185,2.0,1.0,1.0,33.6,33.2,33.2,4.0,1.5,2.7925,-0.1411708875523328,-0.08078309231044482,0.9425112486250223,-0.05097221100585578,-0.417914,-20.398112
11.185,2.0,1.0,1.0,33.6,33.2,33.2,4.0,1.5,2.795,-0.15670615911443433,-0.0827176160396944,0.9380330646723177,-0.054482709643918444,-0.436093,-20.083058
11.185,2.0,1.0,1.0,33.6,33.2,33.2,4.0,1.5,2.7975,-0.17239293981659434,-0.0846959887518672,0.9330911172894133,-0.05825851654355691,-0.45575,-19.760292
11.185,2.0,1.0,1.0,33.6,33.2,33.2,4.0,1.5,2.8,-0.18822695342979062,-0.08671528955313651,0.9276534566020277,-0.06232644814723326,-0.477064,-19.429379
11.185,2.0,1.0,1.0,33.6,33.2,33.2,4.0,1.5,2.8025,-0.20420245391030273,-0.08877125102388385,0.921684535558707,-0.06671680356134234,-0.500243,-19.089853
11.185,2.0,1.0,1.0,33.6,33.2,33.2,4.0,1.5,2.805,-0.2203118231060364,-0.09085786167375426,0.915144665412376,-0.07146390381875983,-0.52553,-18.741207
11.185,2.0,1.0,1.0,33.6,33.2,33.2,4.0,1.5,2.8075,-0.2365450500333078,-0.09296685023600525,0.9079893783459951,-0.07660672273082214,-0.553208,-18.382899
11.185,2.0,1.0,1.0,33.6,33.2,33.2,4.0,1.5,2.81,-0.25288905399062683,-0.09508701420610742,0.900168682185952,-0.08218962401880492,-0.583611,-18.014343
11.185,2.0,1.0,1.0,33.6,33.2,33.2,4.0,1.5,2.8125,-0.2693268008027653,-0.09720334213405324,0.8916261910845941,-0.0882632203735084,-0.617134,-17.634908
11.185,2.0,1.0,1.0,33.6,33.2,33.2,4.0,1.5,2.815,-0.2858361437647028,-0.09929586157350109,0.8822981160970856,-0.09488536991549736,-0.654247,-17.243915
11.185,2.0,1.0,1.0,33.6,33.2,33.2,4.0,1.5,2.8175,-0.30238829658082844,-0.10133812049419538,0.8721121018372192,-0.10212232310160846,-0.695511,-16.840636
11.185,2.0,1.0,1.0,33.6,33.2,33.2,4.0,1.5,2.82,-0.31894581230915325,-0.10329517694699636,0.8609859017987569,-0.11005002651245836,-0.741605,-16.424291
11.185,2.0,1.0,1.0,33.6,33.2,33.2,4.0,1.5,2.8225,-0.33545989670976806,-0.10512092656728605,0.8488258987816963,-0.11875557584843441,-0.793348,-15.994051
11.185,2.0,1.0,1.0,33.6,33.2,33.2,4.0,1.5,2.825,-0.3518668221217762,-0.10675453584516086,0.8355255038023771,-0.12833878322533634,-0.851741,-15.54904
11.185,2.0,1.0,1.0,33.6,33.2,33.2,4.0,1.5,2.8275,-0.36808312364684836,-0.1081156656833393,0.8209635164355807,-0.13891377397252594,-0.918012,-15.08834
