1,w,sub_t,h,l1,l2,l3,g1,g2,Freq,S11_re,S21_re,S11_img,S21_img,S11_dB,S21_dB
11.185,2.0,1.0,1.0,33.4,33.6,33.6,2.7,1.9,2.5,0.863433864671594,-0.00984429342941139,0.490922516072326,0.0100661433517118,-0.058928,-37.028145
11.185,2.0,1.0,1.0,33.4,33.6,33.6,2.7,1.9,2.5025,0.8600954652760054,-0.010059537901716141,0.496611912746137,0.010134508600894597,-0.059524,-36.905773
11.185,2.0,1.0,1.0,33.4,33.6,33.6,2.7,1.9,2.505,0.8567042082099323,-0.010279095466779265,0.502302396254914,0.010202471309148423,-0.060131,-36.782976
11.185,2.0,1.0,1.0,33.4,33.6,33.6,2.7,1.9,2.5075,0.8532595392116434,-0.010503064639255601,0.5079937375073239,0.010269995914360293,-0.060749,-36.659744
11.185,2.0,1.0,1.0,33.4,33.6,33.6,2.7,1.9,2.51,0.8497608943983502,-0.010731546776838925,0.5136857000308169,0.01033704524310123,-0.061378,-36.536067
11.185,2.0,1.0,1.0,33.4,33.6,33.6,2.7,1.9,2.5125,0.8462077000700727,-0.01096464618024653,0.5193780397149196,0.010403580433912776,-0.062019,-36.411937
11.185,2.0,1.0,1.0,33.4,33.6,33.6,2.7,1.9,2.515,0.8425993725086252,-0.011202470197335865,0.5250705045450436,0.01046956085656748,-0.062673,-36.287344
11.185,2.0,1.0,1.0,33.4,33.6,33.6,2.7,1.9,2.5175,0.8389353177715744,-0.011445129331551429,0.5307628343263939,0.010534944027067412,-0.063338,-36.162277
11.185,2.0,1.0,1.0,33.4,33.6,33.6,2.7,1.9,2.52,0.8352149314809831,-0.011692737354911364,0.5364547603975656,0.01059968551813026,-0.064017,-36.036726
11.185,2.0,1.0,1.0,33.4,33.6,33.6,2.7,1.9,2.5225,0.8314375986067765,-0.0119454114257523,0.5421460053333556,0.010663738864894242,-0.064708,-35.910681
11.185,2.0,1.0,1.0,33.4,33.6,33.6,2.7,1.9,2.525,0.8276026932445306,-0.012203272211466373,0.5478362826363431,0.010727055465557259,-0.065414,-35.784132
11.185,2.0,1.0,1.0,33.4,33.6,33.6,2.7,1.9,2.5275,0.8237095783874908,-0.012466444016474803,0.5535252964167288,0.010789584476645088,-0.066133,-35.657068
11.185,2.0,1.0,1.0,33.4,33.6,33.6,2.7,1.9,2.53,0.8197576056926174,-0.012735054915696712,0.5592127410599067,0.010851272702583414,-0.066866,-35.529479
11.185,2.0,1.0,1.0,33.4,33.6,33.6,2.7,1.9,2.5325,0.8157461152404339,-0.013009236893786842,0.5648983008812226,0.010912064479226552,-0.067614,-35.401352
11.185,2.0,1.0,1.0,33.4,33.6,33.6,2.7,1.9,2.535,0.8116744352884565,-0.013289125990431949,0.5705816497673379,0.010971901550971313,-0.068377,-35.272677
11.185,2.0,1.0,1.0,33.4,33.6,33.6,2.7,1.9,2.5375,0.8075418820179593,-0.013574862452009187,0.5762624508035735,0.011030722941059681,-0.069156,-35.143442
11.185,2.0,1.0,1.0,33.4,33.6,33.6,2.7,1.9,2.54,0.8033477592738276,-0.013866590889931247,0.581940355886597,0.011088464814645507,-0.069951,-35.013636
11.185,2.0,1.0,1.0,33.4,33.6,33.6,2.7,1.9,2.5425,0.7990913582972288,-0.014164460446019125,0.5876150053217635,0.011145060334171331,-0.070762,-34.883247
11.185,2.0,1.0,1.0,33.4,33.6,33.6,2.7,1.9,2.545,0.7947719574508183,-0.014468624965262918,0.5932860274043811,0.011200439506569274,-0.071591,-34.752263
11.185,2.0,1.0,1.0,33.4,33.6,33.6,2.7,1.9,2.5475,0.7903888219361968,-0.014779243176353927,0.5989530379841357,0.011254529021764487,-0.072436,-34.620671
11.185,2.0,1.0,1.0,33.4,33.6,33.6,2.7,1.9,2.55,0.7859412035032846,-0.015096478880392292,0.6046156400118712,0.01130725208192421,-0.0733,-34.488458
11.185,2.0,1.0,1.0,33.4,33.6,33.6,2.7,1.9,2.5525,0.7814283401513102,-0.015420501148198604,0.6102734230678465,0.011358528220852836,-0.074183,-34.355612
11.185,2.0,1.0,1.0,33.4,33.6,33.6,2.7,1.9,2.555,0.7768494558210394,-0.015751484526683478,0.6159259628705748,0.011408273112891441,-0.075084,-34.222119
11.185,2.0,1.0,1.0,33.4,33.6,33.6,2.7,1.9,2.5575,0.7722037600778896,-0.016089609254756675,0.6215728207652722,0.011456398370632179,-0.076005,-34.087967
11.185,2.0,1.0,1.0,33.4,33.6,33.6,2.7,1.9,2.56,0.7674904477855381,-0.01643506148928501,0.6272135431908801,0.01150281133070787,-0.076947,-33.953141
11.185,2.0,1.0,1.0,33.4,33.6,33.6,2.7,1.9,2.5625,0.7627086987696082,-0.016788033541639963,0.6328476611245825,0.011547414826860104,-0.077909,-33.817627
11.185,2.0,1.0,1.0,33.4,33.6,33.6,2.7,1.9,2.565,0.7578576774709935,-0.017148724125409267,0.6384746895026497,0.01159010694943152,-0.078893,-33.681411
11.185,2.0,1.0,1.0,33.4,33.6,33.6,2.7,1.9,2.5675,0.7529365325883629,-0.017517338615879747,0.6440941266163722,0.011630780790360921,-0.079899,-33.544478
11.185,2.0,1.0,1.0,33.4,33.6,33.6,2.7,1.9,2.57,0.747944396709348,-0.017894089321938932,0.6497054534817758,0.011669324172690966,-0.080929,-33.406814
11.185,2.0,1.0,1.0,33.4,33.6,33.6,2.7,1.9,2.5725,0.7428803859298915,-0.01827919577108016,0.6553081331817134,0.011705619363520565,-0.081982,-33.268403
11.185,2.0,1.0,1.0,33.4,33.6,33.6,2.7,1.9,2.575,0.7377435994612012,-0.018672885008240686,0.6609016101788383,0.011739542769251963,-0.08306,-33.12923
11.185,2.0,1.0,1.0,33.4,33.6,33.6,2.7,1.9,2.5775,0.7325331192237197,-0.019075391909245527,0.6664853095978629,0.011770964611891102,-0.084162,-32.989277
11.185,2.0,1.0,1.0,33.4,33.6,33.6,2.7,1.9,2.58,0.7272480094274876,-0.019486959509681268,0.6720586364753971,0.011799748585062613,-0.085292,-32.84853
11.185,2.0,1.0,1.0,33.4,33.6,33.6,2.7,1.9,2.5825,0.7218873161382214,-0.019907839350072887,0.677620974975551,0.011825751488293094,-0.086448,-32.706971
11.185,2.0,1.0,1.0,33.4,33.6,33.6,2.7,1.9,2.585,0.7164500668284068,-0.020338291838294144,0.6831716875693339,0.011848822837999616,-0.087632,-32.564583
11.185,2.0,1.0,1.0,33.4,33.6,33.6,2.7,1.9,2.5875,0.7109352699126429,-0.02077858663020161,0.6887101141757831,0.01186880445349371,-0.088845,-32.421349
11.185,2.0,1.0,1.0,33.4,33.6,33.6,2.7,1.9,2.59,0.7053419142664383,-0.02122900302954264,0.6942355712625589,0.011885530016172452,-0.090088,-32.27725
11.185,2.0,1.0,1.0,33.4,33.6,33.6,2.7,1.9,2.5925,0.6996689687275893,-0.02168983040826079,0.6997473509036174,0.011898824599915757,-0.091361,-32.132267
11.185,2.0,1.0,1.0,33.4,33.6,33.6,2.7,1.9,2.595,0.6939153815792409,-0.022161368648387674,0.7052447197913644,0.011908504170544659,-0.092667,-31.986383
11.185,2.0,1.0,1.0,33.4,33.6,33.6,2.7,1.9,2.5975,0.6880800800136325,-0.022643928606795042,0.710726918200529,0.011914375052013901,-0.094006,-31.839578
11.185,2.0,1.0,1.0,33.4,33.6,33.6,2.7,1.9,2.6,0.6821619695754957,-0.02313783260415699,0.7161931589007531,0.011916233356812961,-0.095379,-31.691831
11.185,2.0,1.0,1.0,33.4,33.6,33.6,2.7,1.9,2.6025,0.6761599335839954,-0.023643414939564785,0.7216426260146828,0.011913864377834265,-0.096788,-31.543122
11.185,2.0,1.0,1.0,33.4,33.6,33.6,2.7,1.9,2.605,0.6700728325320081,-0.024161022432330148,0.7270744738180899,0.011907041938727932,-0.098233,-31.39343
11.185,2.0,1.0,1.0,33.4,33.6,33.6,2.7,1.9,2.6075,0.66389950346148,-0.024691014992613624,0.7324878254782782,0.011895527699501484,-0.099717,-31.242734
11.185,2.0,1.0,1.0,33.4,33.6,33.6,2.7,1.9,2.61,0.657638759313499,-0.02523376622262242,0.7378817717267113,0.011879070413836243,-0.10124,-31.091012
11.185,2.0,1.0,1.0,33.4,33.6,33.6,2.7,1.9,2.6125,0.6512893882516327,-0.02578966405023872,0.7432553694614945,0.011857405134277004,-0.102804,-30.93824
11.185,2.0,1.0,1.0,33.4,33.6,33.6,2.7,1.9,2.615,0.6448501529569681,-0.026359111397061374,0.7486076402749653,0.011830252361103872,-0.104411,-30.784396
11.185,2.0,1.0,1.0,33.4,33.6,33.6,2.7,1.9,2.6175,0.638319789893208,-0.026942526882976218,0.7539375689012395,0.011797317130313538,-0.106062,-30.629455
11.185,2.0,1.0,1.0,33.4,33.6,33.6,2.7,1.9,2.62,0.6316970085400383,-0.027540345569510575,0.7592441015781392,0.011758288035716536,-0.10776,-30.473393
11.185,2.0,1.0,1.0,33.4,33.6,33.6,2.7,1.9,2.6225,0.6249804905928622,-0.028153019744376763,0.7645261443174469,0.011712836179691644,-0.109505,-30.316184
11.185,2.0,1.0,1.0,33.4,33.6,33.6,2.7,1.9,2.625,0.618168889126889,-0.0287810197497696,0.769782561076874,0.0116606140466256,-0.111299,-30.157802
11.185,2.0,1.0,1.0,33.4,33.6,33.6,2.7,1.9,2.6275,0.6112608277233832,-0.02942483485715274,0.7750121718265802,0.01160125429250069,-0.113146,-29.99822
11.185,2.0,1.0,1.0,33.4,33.6,33.6,2.7,1.9,2.63,0.6042548995557647,-0.030084974191449256,0.7802137505024136,0.011534368443462211,-0.115046,-29.83741
11.185,2.0,1.0,1.0,33.4,33.6,33.6,2.7,1.9,2.6325,0.5971496664330777,-0.030761967707743813,0.785386022837332,0.011459545495506786,-0.117002,-29.675344
11.185,2.0,1.0,1.0,33.4,33.6,33.6,2.7,1.9,2.635,0.5899436577981715,-0.03145636722380825,0.7905276640616632,0.011376350406657984,-0.119017,-29.511993
11.185,2.0,1.0,1.0,33.4,33.6,33.6,2.7,1.9,2.6375,0.5826353696777731,-0.032168747511975446,0.7956372964620109,0.011284322472144045,-0.121092,-29.347325
11.185,2.0,1.0,1.0,33.4,33.6,33.6,2.7,1.9,2.64,0.5752232635814098,-0.03289970745411921,0.8007134867876293,0.011182973572139439,-0.123231,-29.18131
11.185,2.0,1.0,1.0,33.4,33.6,33.6,2.7,1.9,2.6425,0.5677057653459813,-0.033649871263732686,0.805754743491988,0.011071786280577424,-0.125435,-29.013915
11.185,2.0,1.0,1.0,33.4,33.6,33.6,2.7,1.9,2.645,0.5600812639225301,-0.03441988977935431,0.8107595137960877,0.010950211822362992,-0.127709,-28.845107
11.185,2.0,1.0,1.0,33.4,33.6,33.6,2.7,1.9,2.6475,0.5523481101015684,-0.035210441833851865,0.8157261805587251,0.010817667865004005,-0.130055,-28.674851
11.185,2.0,1.0,1.0,33.4,33.6,33.6,2.7,1.9,2.65,0.5445046151730585,-0.03602223570435463,0.8206530589374278,0.010673536129215054,-0.132476,-28.503112
11.185,2.0,1.0,1.0,33.4,33.6,33.6,2.7,1.9,2.6525,0.5365490495169517,-0.036856010647903406,0.8255383928221006,0.010517159801412952,-0.134976,-28.329852
11.185,2.0,1.0,1.0,33.4,33.6,33.6,2.7,1.9,2.655,0.528479641119889,-0.037712538528191994,0.8303803510216085,0.010347840729193434,-0.137559,-28.155035
11.185,2.0,1.0,1.0,33.4,33.6,33.6,2.7,1.9,2.6575,0.5202945740134682,-0.03859262553906585,0.8351770231813826,0.010164836378830111,-0.140228,-27.97862
11.185,2.0,1.0,1.0,33.4,33.6,33.6,2.7,1.9,2.66,0.5119919866292041,-0.03949711403075617,0.8399264154078822,0.009967356531539916,-0.142987,-27.800567
11.185,2.0,1.0,1.0,33.4,33.6,33.6,2.7,1.9,2.6625,0.5035699700650792,-0.04042688444512837,0.8446264455730526,0.009754559692680062,-0.145841,-27.620833
11.185,2.0,1.0,1.0,33.4,33.6,33.6,2.7,1.9,2.665,0.4950265662583237,-0.04138285736652624,0.849274938269073,0.009525549185142127,-0.148794,-27.439376
11.185,2.0,1.0,1.0,33.4,33.6,33.6,2.7,1.9,2.6675,0.4863597660588745,-0.04236599569507896,0.8538696193803167,0.00927936889494824,-0.151851,-27.256148
11.185,2.0,1.0,1.0,33.4,33.6,33.6,2.7,1.9,2.67,0.4775675071977356,-0.04337730694960584,0.8584081102357677,0.009014998633374275,-0.155018,-27.071105
11.185,2.0,1.0,1.0,33.4,33.6,33.6,2.7,1.9,2.6725,0.4686476721443087,-0.044417845707489266,0.862887921300954,0.008731349075777271,-0.158301,-26.884196
11.185,2.0,1.0,1.0,33.4,33.6,33.6,2.7,1.9,2.675,0.45959808584667206,-0.04548871618907166,0.867306445363698,0.008427256232614703,-0.161704,-26.695371
11.185,2.0,1.0,1.0,33.4,33.6,33.6,2.7,1.9,2.6775,0.4504165133487165,-0.04659107499426018,0.8716609501626549,0.00810147540283709,-0.165235,-26.504579
11.185,2.0,1.0,1.0,33.4,33.6,33.6,2.7,1.9,2.68,0.44110065727811487,-0.04772613399905798,0.8759485704015397,0.007752674553821358,-0.168901,-26.311763
11.185,2.0,1.0,1.0,33.4,33.6,33.6,2.7,1.9,2.6825,0.4316481551992801,-0.04889516341965939,0.88016629908506,0.0073794270651929665,-0.172708,-26.116869
11.185,2.0,1.0,1.0,33.4,33.6,33.6,2.7,1.9,2.685,0.4220565768257752,-0.05009949505152076,0.8843109781047787,0.006980203766127571,-0.176665,-25.919836
11.185,2.0,1.0,1.0,33.4,33.6,33.6,2.7,1.9,2.6875,0.4123234210871985,-0.05134052569038176,0.8883792879942166,0.006553364186901181,-0.18078,-25.720603
11.185,2.0,1.0,1.0,33.4,33.6,33.6,2.7,1.9,2.69,0.40244611304636624,-0.052619720741534017,0.8923677367623998,0.0060971469354039265,-0.185062,-25.519108
11.185,2.0,1.0,1.0,33.4,33.6,33.6,2.7,1.9,2.6925,0.39242200066371585,-0.053938618022620906,0.8962726477035021,0.005609659097849749,-0.189521,-25.315282
11.185,2.0,1.0,1.0,33.4,33.6,33.6,2.7,1.9,2.695,0.3822483514074768,-0.05529883176382038,0.9000901460669987,0.005088864549798789,-0.194167,-25.109057
11.185,2.0,1.0,1.0,33.4,33.6,33.6,2.7,1.9,2.6975,0.3719223487101795,-0.05670205680731894,0.9038161444576676,0.004532571048583251,-0.199012,-24.900361
11.185,2.0,1.0,1.0,33.4,33.6,33.6,2.7,1.9,2.7,0.3614410882749275,-0.05815007300534491,0.9074463268174274,0.0039384159610083265,-0.204068,-24.689119
11.185,2.0,1.0,1.0,33.4,33.6,33.6,2.7,1.9,2.7025,0.3508015742384405,-0.05964474981256734,0.910976130821102,0.0033038504604155448,-0.209348,-24.475251
11.185,2.0,1.0,1.0,33.4,33.6,33.6,2.7,1.9,2.705,0.3400007152026662,-0.061188051064125656,0.9144007284953147,0.0026261220044507118,-0.214866,-24.258675
11.185,2.0,1.0,1.0,33.4,33.6,33.6,2.7,1.9,2.7075,0.32903532015277986,-0.06278203992466602,0.9177150048433911,0.001902254878668711,-0.220638,-24.039306
11.185,2.0,1.0,1.0,33.4,33.6,33.6,2.7,1.9,2.71,0.3179020942872834,-0.06442888398618117,0.9209135342286953,0.0011290285608731442,-0.226681,-23.817054
11.185,2.0,1.0,1.0,33.4,33.6,33.6,2.7,1.9,2.7125,0.306597634795818,-0.06613086048273305,0.9239905542337509,0.000302953626149699,-0.233013,-23.591825
11.185,2.0,1.0,1.0,33.4,33.6,33.6,2.7,1.9,2.715,0.2951184266330585,-0.06789036157772411,0.926939936671803,-0.0005797551278814722,-0.239654,-23.363521
11.185,2.0,1.0,1.0,33.4,33.6,33.6,2.7,1.9,2.7175,0.28346083835315733,-0.06970989966358311,0.9297551553803949,-0.0015232087029362538,-0.246626,-23.132038
11.185,2.0,1.0,1.0,33.4,33.6,33.6,2.7,1.9,2.72,0.2716211180896717,-0.07159211259364931,0.9324292503718604,-0.002531877490798684,-0.253951,-22.897268
11.185,2.0,1.0,1.0,33.4,33.6,33.6,2.7,1.9,2.7225,0.2595953897917962,-0.0735397687405603,0.9349547878520466,-0.0036106289178948364,-0.261657,-22.659098
11.185,2.0,1.0,1.0,33.4,33.6,33.6,2.7,1.9,2.725,0.2473796498605648,-0.07555577174313512,0.9373238155446548,-0.004764769702291654,-0.269772,-22.41741
11.185,2.0,1.0,1.0,33.4,33.6,33.6,2.7,1.9,2.7275,0.2349697643701175,-0.07764316476281016,0.9395278126723515,-0.006000093367507567,-0.278327,-22.172077
11.185,2.0,1.0,1.0,33.4,33.6,33.6,2.7,1.9,2.73,0.22236146711176855,-0.07980513401879222,0.9415576338452293,-0.007322933757634198,-0.287356,-21.922969
11.185,2.0,1.0,1.0,33.4,33.6,33.6,2.7,1.9,2.7325,0.2095503587650955,-0.08204501130530911,0.9434034459896734,-0.008740225415238735,-0.296897,-21.669948
11.185,2.0,1.0,1.0,33.4,33.6,33.6,2.7,1.9,2.735,0.19653190758470085,-0.08436627511089356,0.9450546573133509,-0.010259571820273455,-0.306992,-21.412868
11.185,2.0,1.0,1.0,33.4,33.6,33.6,2.7,1.9,2.7375,0.18330145209830348,-0.08677254985366202,0.9464998371412661,-0.011889322648258469,-0.317687,-21.151576
11.185,2.0,1.0,1.0,33.4,33.6,33.6,2.7,1.9,2.74,0.1698542064478835,-0.08926760261183964,0.9477266252697383,-0.01363866139334524,-0.329033,-20.885911
11.185,2.0,1.0,1.0,33.4,33.6,33.6,2.7,1.9,2.7425,0.15618526917865103,-0.09185533655727711,0.9487216292648201,-0.01551770492123559,-0.341088,-20.615702
11.185,2.0,1.0,1.0,33.4,33.6,33.6,2.7,1.9,2.745,0.14228963650121662,-0.09453978008101557,0.9494703078739674,-0.0175376167736941,-0.353915,-20.340772
11.185,2.0,1.0,1.0,33.4,33.6,33.6,2.7,1.9,2.7475,0.12816222133400934,-0.09732507032059749,0.9499568384182284,-0.019710736346726303,-0.367584,-20.06093
11.185,2.0,1.0,1.0,33.4,33.6,33.6,2.7,1.9,2.75,0.113797879793328,-0.10021542944128,0.950163965680222,-0.0220507264152518,-0.382176,-19.775977
11.185,2.0,1.0,1.0,33.4,33.6,33.6,2.7,1.9,2.7525,0.09919144726047617,-0.10321513156474943,0.950072829393027,-0.024572741885809355,-0.397779,-19.485703
11.185,2.0,1.0,1.0,33.4,33.6,33.6,2.7,1.9,2.755,0.08433778674908579,-0.10632845764953477,0.9496627669590023,-0.027293623133378152,-0.414494,-19.189883
11.185,2.0,1.0,1.0,33.4,33.6,33.6,2.7,1.9,2.7575,0.06923185306024915,-0.10955963486803291,0.9489110874777357,-0.03023211782661379,-0.432433,-18.888284
11.185,2.0,1.0,1.0,33.4,33.6,33.6,2.7,1.9,2.76,0.05386877720017476,-0.11291275604463757,0.9477928125318194,-0.03340913577450677,-0.451725,-18.580657
11.185,2.0,1.0,1.0,33.4,33.6,33.6,2.7,1.9,2.7625,0.038243976812068446,-0.11639167345054638,0.9462803784638827,-0.03684804204109798,-0.472515,-18.266739
11.185,2.0,1.0,1.0,33.4,33.6,33.6,2.7,1.9,2.765,0.02235330003040021,-0.11999985960469288,0.9443432940787266,-0.040574994372858636,-0.494969,-17.946252
11.185,2.0,1.0,1.0,33.4,33.6,33.6,2.7,1.9,2.7675,0.006193212318799879,-0.12374022558995489,0.9419477468303734,-0.04461933185618503,-0.519276,-17.618904
11.185,2.0,1.0,1.0,33.4,33.6,33.6,2.7,1.9,2.77,-0.010238961342310528,-0.1276148846050999,0.9390561496304792,-0.04901402264527938,-0.545652,-17.284387
11.185,2.0,1.0,1.0,33.4,33.6,33.6,2.7,1.9,2.7725,-0.026944722891387326,-0.13162484483247333,0.9356266194928526,-0.05379617952300399,-0.574348,-16.942376
11.185,2.0,1.0,1.0,33.4,33.6,33.6,2.7,1.9,2.775,-0.04392399543222594,-0.13576961094155174,0.931612378401629,-0.059007652887091526,-0.605651,-16.592528
11.185,2.0,1.0,1.0,33.4,33.6,33.6,2.7,1.9,2.7775,-0.06117459821561706,-0.14004666731796894,0.9269610662176385,-0.06469571133270725,-0.639896,-16.234485
11.185,2.0,1.0,1.0,33.4,33.6,33.6,2.7,1.9,2.78,-0.07869156708014735,-0.1444508079482173,0.9216139553845872,-0.07091382006571843,-0.677472,-15.867873
11.185,2.0,1.0,1.0,33.4,33.6,33.6,2.7,1.9,2.7825,-0.09646627434312065,-0.14897326720924078,0.9155050580961054,-0.07772252649932183,-0.718832,-15.492303
11.185,2.0,1.0,1.0,33.4,33.6,33.6,2.7,1.9,2.785,-0.11448528810872656,-0.15360059185366942,0.9085601191284419,-0.08519045987176048,-0.764512,-15.10737
11.185,2.0,1.0,1.0,33.4,33.6,33.6,2.7,1.9,2.7875,-0.13272889269880944,-0.15831317630188546,0.9006954928263985,-0.09339544648557932,-0.815139,-14.712662
11.185,2.0,1.0,1.0,33.4,33.6,33.6,2.7,1.9,2.79,-0.15116916827161392,-0.16308335981460476,0.8918169124663375,-0.10242573250289787,-0.871461,-14.307758
11.185,2.0,1.0,1.0,33.4,33.6,33.6,2.7,1.9,2.7925,-0.16976749738189828,-0.1678729539341369,0.881818177073025,-0.11238128948564802,-0.934364,-13.89224
11.185,2.0,1.0,1.0,33.4,33.6,33.6,2.7,1.9,2.795,-0.18847132794814778,-0.17263003044850445,0.8705798088347526,-0.12337514996392906,-1.00491,-13.465699
11.185,2.0,1.0,1.0,33.4,33.6,33.6,2.7,1.9,2.7975,-0.2072099748650315,-0.17728475308714833,0.8579677797877552,-0.13553467503159722,-1.084376,-13.027747
11.185,2.0,1.0,1.0,33.4,33.6,33.6,2.7,1.9,2.8,-0.2258891864557254,-0.1817439803205766,0.8438324788128513,-0.1490025839568008,-1.174304,-12.578042
11.185,2.0,1.0,1.0,33.4,33.6,33.6,2.7,1.9,2.8025,-0.2443841397992971,-0.1858843046968003,0.8280082030611916,-0.1639374632537198,-1.276565,-12.116303
11.185,2.0,1.0,1.0,33.4,33.6,33.6,2.7,1.9,2.805,-0.262530468788675,-0.18954313416874805,0.8103136316137514,-0.18051329975545874,-1.393444,-11.642356
11.185,2.0,1.0,1.0,33.4,33.6,33.6,2.7,1.9,2.8075,-0.2801128891756539,-0.19250738138535456,0.7905540009167565,-0.1989173216276092,-1.527736,-11.156171
11.185,2.0,1.0,1.0,33.4,33.6,33.6,2.7,1.9,2.81,-0.2968510038287359,-0.19449934579444844,0.7685260865304807,-0.21934504790475998,-1.682883,-10.657933
11.185,2.0,1.0,1.0,33.4,33.6,33.6,2.7,1.9,2.8125,-0.312382020948933,-0.19515952238107098,0.7440276432905101,-0.2419909018947649,-1.863125,-10.148124
11.185,2.0,1.0,1.0,33.4,33.6,33.6,2.7,1.9,2.815,-0.3262405262248357,-0.19402647767366338,0.7168736960852542,-0.26703200691469103,-2.073697,-9.627633
11.185,2.0,1.0,1.0,33.4,33.6,33.6,2.7,1.9,2.8175,-0.337836330466957,-0.1905148111301518,0.6869229920723876,-0.2946018685099604,-2.321049,-9.097908
11.185,2.0,1.0,1.0,33.4,33.6,33.6,2.7,1.9,2.82,-0.3464330933885808,-0.18389389309122012,0.654118888445695,-0.32474968939152643,-2.613087,-8.561133
11.185,2.0,1.0,1.0,33.4,33.6,33.6,2.7,1.9,2.8225,-0.3511333340712339,-0.17327296916166587,0.6185495592670107,-0.3573804597130794,-2.959369,-8.020463
11.185,2.0,1.0,1.0,33.4,33.6,33.6,2.7,1.9,2.825,-0.35087999616691085,-0.15760275876991656,0.5805317618743431,-0.3921716122606961,-3.371158,-7.480281
11.185,2.0,1.0,1.0,33.4,33.6,33.6,2.7,1.9,2.8275,-0.3444909460681013,-0.13570985368112617,0.5407188249108137,-0.42846560681778995,-3.861044,-6.946488
11.185,2.0,1.0,1.0,33.4,33.6,33.6,2.7,1.9,2.83,-0.3307493353939347,-0.10638672809266059,0.5002244464155308,-0.46514685719866977,-4.441566,-6.426756
