1,w,sub_t,h,l1,l2,l3,g1,g2,Freq,S11_re,S21_re,S11_img,S21_img,S11_dB,S21_dB
11.185,2.0,1.0,1.0,33.1,34.9,34.9,4.4,1.9,2.5,0.887908968198357,-0.00620884371416972,0.446502365534565,0.00594911229367798,-0.053544,-41.311107
11.185,2.0,1.0,1.0,33.1,34.9,34.9,4.4,1.9,2.5025,0.8850831974218635,-0.006355527351523186,0.45194008880117076,0.006001715984848773,-0.054092,-41.168309
11.185,2.0,1.0,1.0,33.1,34.9,34.9,4.4,1.9,2.505,0.882212120188418,-0.00650571449989026,0.4573801217027772,0.006054591037104275,-0.054652,-41.024697
11.185,2.0,1.0,1.0,33.1,34.9,34.9,4.4,1.9,2.5075,0.8792952635134436,-0.006659518546439818,0.46282233639838344,0.00610773643639055,-0.055224,-40.880245
11.185,2.0,1.0,1.0,33.1,34.9,34.9,4.4,1.9,2.51,0.876332143719632,-0.00681705798311628,0.4682666011847342,0.0061611508964023835,-0.055809,-40.734926
11.185,2.0,1.0,1.0,33.1,34.9,34.9,4.4,1.9,2.5125,0.8733222660526155,-0.006978456699678956,0.47371278035351483,0.006214832829667185,-0.056408,-40.588713
11.185,2.0,1.0,1.0,33.1,34.9,34.9,4.4,1.9,2.515,0.870265124274786,-0.007143844297110875,0.4791607340421458,0.006268780315616915,-0.05702,-40.441578
11.185,2.0,1.0,1.0,33.1,34.9,34.9,4.4,1.9,2.5175,0.8671602002355852,-0.0073133564230593,0.48461031807772065,0.006322991065314109,-0.057647,-40.293491
11.185,2.0,1.0,1.0,33.1,34.9,34.9,4.4,1.9,2.52,0.8640069634164116,-0.0074871351311264316,0.4900613838136261,0.006377462382458754,-0.058289,-40.144423
11.185,2.0,1.0,1.0,33.1,34.9,34.9,4.4,1.9,2.5225,0.860804870448143,-0.007665329266000309,0.4955137779582903,0.006432191120256982,-0.058946,-39.994342
11.185,2.0,1.0,1.0,33.1,34.9,34.9,4.4,1.9,2.525,0.8575533645990567,-0.007848094876608754,0.5009673423954992,0.006487173633682096,-0.059619,-39.843217
11.185,2.0,1.0,1.0,33.1,34.9,34.9,4.4,1.9,2.5275,0.8542518752307291,-0.008035595659689145,0.5064219139956211,0.006542405726599738,-0.060309,-39.691014
11.185,2.0,1.0,1.0,33.1,34.9,34.9,4.4,1.9,2.53,0.850899817219266,-0.008228003436403243,0.5118773244170282,0.006597882593163647,-0.061015,-39.537699
11.185,2.0,1.0,1.0,33.1,34.9,34.9,4.4,1.9,2.5325,0.8474965903389396,-0.008425498664886842,0.5173333998969207,0.006653598752814139,-0.06174,-39.383236
11.185,2.0,1.0,1.0,33.1,34.9,34.9,4.4,1.9,2.535,0.8440415786050243,-0.008628270991915519,0.5227899610306751,0.006709547978125406,-0.062484,-39.22759
11.185,2.0,1.0,1.0,33.1,34.9,34.9,4.4,1.9,2.5375,0.8405341495722999,-0.00883651984719012,0.5282468225387262,0.006765723214651964,-0.063247,-39.070721
11.185,2.0,1.0,1.0,33.1,34.9,34.9,4.4,1.9,2.54,0.8369736535853278,-0.009050455084109081,0.5337037930198925,0.006822116491813776,-0.06403,-38.912591
11.185,2.0,1.0,1.0,33.1,34.9,34.9,4.4,1.9,2.5425,0.8333594229761924,-0.009270297671295682,0.5391606746899159,0.006878718823733335,-0.064835,-38.753159
11.185,2.0,1.0,1.0,33.1,34.9,34.9,4.4,1.9,2.545,0.8296907712049607,-0.009496280439601466,0.5446172631038385,0.00693552009879441,-0.065661,-38.592382
11.185,2.0,1.0,1.0,33.1,34.9,34.9,4.4,1.9,2.5475,0.8259669919376055,-0.009728648889810367,0.5500733468606671,0.0069925089565256405,-0.06651,-38.430216
11.185,2.0,1.0,1.0,33.1,34.9,34.9,4.4,1.9,2.55,0.8221873580555508,-0.009967662066836431,0.5555287072885997,0.0070496726502243725,-0.067383,-38.266617
11.185,2.0,1.0,1.0,33.1,34.9,34.9,4.4,1.9,2.5525,0.8183511205903924,-0.01021359350684183,0.5609831181088308,0.0071069968935165775,-0.068281,-38.101536
11.185,2.0,1.0,1.0,33.1,34.9,34.9,4.4,1.9,2.555,0.8144575075766017,-0.010466732264419134,0.5664363450757387,0.007164465688799083,-0.069205,-37.934924
11.185,2.0,1.0,1.0,33.1,34.9,34.9,4.4,1.9,2.5575,0.8105057228142217,-0.010727384027785872,0.5718881455909364,0.007222061135220909,-0.070157,-37.76673
11.185,2.0,1.0,1.0,33.1,34.9,34.9,4.4,1.9,2.56,0.8064949445326667,-0.01099587233084784,0.577338268288331,0.007279763213526223,-0.071137,-37.5969
11.185,2.0,1.0,1.0,33.1,34.9,34.9,4.4,1.9,2.5625,0.8024243239456891,-0.011272539872014138,0.5827864525869632,0.0073375495446956355,-0.072147,-37.425379
11.185,2.0,1.0,1.0,33.1,34.9,34.9,4.4,1.9,2.565,0.7982929836864244,-0.011557749950808006,0.5882324282079266,0.007395395118875544,-0.073188,-37.252109
11.185,2.0,1.0,1.0,33.1,34.9,34.9,4.4,1.9,2.5675,0.7941000161101087,-0.011851888034631141,0.5936759146511505,0.0074532719905622685,-0.074262,-37.077029
11.185,2.0,1.0,1.0,33.1,34.9,34.9,4.4,1.9,2.57,0.7898444814505565,-0.01215536346953528,0.5991166206272215,0.007511148935407591,-0.07537,-36.900076
11.185,2.0,1.0,1.0,33.1,34.9,34.9,4.4,1.9,2.5725,0.7855254058147974,-0.012468611350550326,0.6045542434387099,0.007568991063302755,-0.076515,-36.721184
11.185,2.0,1.0,1.0,33.1,34.9,34.9,4.4,1.9,2.575,0.7811417789983204,-0.012792094569052437,0.6099884683046329,0.007626759381576316,-0.077698,-36.540284
11.185,2.0,1.0,1.0,33.1,34.9,34.9,4.4,1.9,2.5775,0.7766925521011756,-0.01312630605686339,0.6154189676207236,0.007684410301177128,-0.078921,-36.357304
11.185,2.0,1.0,1.0,33.1,34.9,34.9,4.4,1.9,2.58,0.7721766349226474,-0.013471771249292726,0.6208454001470345,0.007741895077580706,-0.080187,-36.172168
11.185,2.0,1.0,1.0,33.1,34.9,34.9,4.4,1.9,2.5825,0.7675928931093159,-0.013829050792225583,0.6262674101130808,0.007799159176829378,-0.081496,-35.984796
11.185,2.0,1.0,1.0,33.1,34.9,34.9,4.4,1.9,2.585,0.7629401450280144,-0.014198743521672278,0.6316846262291402,0.007856141555546915,-0.082853,-35.795107
11.185,2.0,1.0,1.0,33.1,34.9,34.9,4.4,1.9,2.5875,0.7582171583313561,-0.014581489748008231,0.6370966605904952,0.007912773841917587,-0.08426,-35.603013
11.185,2.0,1.0,1.0,33.1,34.9,34.9,4.4,1.9,2.59,0.7534226461791185,-0.014977974881524301,0.6425031074591787,0.007968979402426277,-0.085719,-35.408423
11.185,2.0,1.0,1.0,33.1,34.9,34.9,4.4,1.9,2.5925,0.7485552630736768,-0.01538893344097837,0.6479035419052128,0.008024672276553176,-0.087234,-35.211239
11.185,2.0,1.0,1.0,33.1,34.9,34.9,4.4,1.9,2.595,0.7436136002618263,-0.01581515349270334,0.6532975182861945,0.008079755958516335,-0.088808,-35.011362
11.185,2.0,1.0,1.0,33.1,34.9,34.9,4.4,1.9,2.5975,0.7385961806484869,-0.016257481574632197,0.6586845685404206,0.008134122001457585,-0.090445,-34.808684
11.185,2.0,1.0,1.0,33.1,34.9,34.9,4.4,1.9,2.6,0.7335014531598886,-0.016716828167503646,0.6640642002642884,0.008187648415039415,-0.092148,-34.603094
11.185,2.0,1.0,1.0,33.1,34.9,34.9,4.4,1.9,2.6025,0.7283277864846113,-0.017194173784721007,0.6694358945394137,0.008240197822105257,-0.093922,-34.394472
11.185,2.0,1.0,1.0,33.1,34.9,34.9,4.4,1.9,2.605,0.7230734621100592,-0.017690575763090736,0.6747991034685131,0.008291615333657647,-0.095772,-34.182695
11.185,2.0,1.0,1.0,33.1,34.9,34.9,4.4,1.9,2.6075,0.7177366665593733,-0.018207175849250145,0.6801532473713723,0.00834172609368029,-0.097702,-33.967629
11.185,2.0,1.0,1.0,33.1,34.9,34.9,4.4,1.9,2.61,0.7123154827189767,-0.018745208691361145,0.6854977115828709,0.008390332435965597,-0.099719,-33.749135
11.185,2.0,1.0,1.0,33.1,34.9,34.9,4.4,1.9,2.6125,0.7068078801295521,-0.019306011363019505,0.6908318427836737,0.008437210583728944,-0.101828,-33.527064
11.185,2.0,1.0,1.0,33.1,34.9,34.9,4.4,1.9,2.615,0.7012117040927256,-0.019891034066815957,0.6961549447803216,0.008482106808900406,-0.104036,-33.301261
11.185,2.0,1.0,1.0,33.1,34.9,34.9,4.4,1.9,2.6175,0.6955246634214801,-0.0205018521892136,0.7014662736344822,0.00852473295098867,-0.10635,-33.071557
11.185,2.0,1.0,1.0,33.1,34.9,34.9,4.4,1.9,2.62,0.68974431663352,-0.021140179907139893,0.7067650320202605,0.008564761174519611,-0.108778,-32.837776
11.185,2.0,1.0,1.0,33.1,34.9,34.9,4.4,1.9,2.6225,0.6838680563526077,-0.021807885580853788,0.7120503626627454,0.008601817818280984,-0.111329,-32.599729
11.185,2.0,1.0,1.0,33.1,34.9,34.9,4.4,1.9,2.625,0.677893091642093,-0.0225070092083882,0.717321340679074,0.00863547615769013,-0.114014,-32.357215
11.185,2.0,1.0,1.0,33.1,34.9,34.9,4.4,1.9,2.6275,0.6718164279460326,-0.02323978226559066,0.7225769646036908,0.008665247861900439,-0.116842,-32.11002
11.185,2.0,1.0,1.0,33.1,34.9,34.9,4.4,1.9,2.63,0.6656348442547982,-0.024008650314219927,0.7278161458299262,0.00869057287768004,-0.119826,-31.857915
11.185,2.0,1.0,1.0,33.1,34.9,34.9,4.4,1.9,2.6325,0.659344867041647,-0.02481629883085002,0.7330376961379103,0.008710807409871076,-0.12298,-31.600654
11.185,2.0,1.0,1.0,33.1,34.9,34.9,4.4,1.9,2.635,0.652942740431787,-0.02566568279413984,0.7382403129004798,0.008725209589796315,-0.126319,-31.337974
11.185,2.0,1.0,1.0,33.1,34.9,34.9,4.4,1.9,2.6375,0.6464243919626939,-0.026560060670645456,0.7434225614594784,0.008732922323597543,-0.129858,-31.069595
11.185,2.0,1.0,1.0,33.1,34.9,34.9,4.4,1.9,2.64,0.6397853931696594,-0.027503033563890566,0.7485828540384715,0.008732952685940315,-0.133619,-30.795212
11.185,2.0,1.0,1.0,33.1,34.9,34.9,4.4,1.9,2.6425,0.6330209140787724,-0.028498590442968853,0.7537194243960207,0.008724147062505253,-0.137621,-30.514499
11.185,2.0,1.0,1.0,33.1,34.9,34.9,4.4,1.9,2.645,0.6261256705042026,-0.02955116055192348,0.7588302972153468,0.00870516103612416,-0.141889,-30.227105
11.185,2.0,1.0,1.0,33.1,34.9,34.9,4.4,1.9,2.6475,0.6190938628199589,-0.03066567432746059,0.7639132509563671,0.008674422741359487,-0.146451,-29.932648
11.185,2.0,1.0,1.0,33.1,34.9,34.9,4.4,1.9,2.65,0.6119191045981883,-0.031847634430117365,0.7689657725446037,0.008630088060518893,-0.151338,-29.630717
11.185,2.0,1.0,1.0,33.1,34.9,34.9,4.4,1.9,2.6525,0.6045943391643743,-0.03310319883508684,0.7739850018105202,0.008569985572880575,-0.156586,-29.320865
11.185,2.0,1.0,1.0,33.1,34.9,34.9,4.4,1.9,2.655,0.5971117416991002,-0.03443927834870843,0.7789676629845906,0.008491548560233854,-0.162235,-29.002606
11.185,2.0,1.0,1.0,33.1,34.9,34.9,4.4,1.9,2.6575,0.5894626039979043,-0.035863651433712694,0.7839099797449238,0.008391730563002964,-0.168335,-28.675409
11.185,2.0,1.0,1.0,33.1,34.9,34.9,4.4,1.9,2.66,0.58163719836251,-0.03738509986313752,0.7888075692320273,0.008266899898575025,-0.174939,-28.338698
11.185,2.0,1.0,1.0,33.1,34.9,34.9,4.4,1.9,2.6625,0.5736246163118635,-0.039013569505869365,0.7936553089855342,0.008112707093319623,-0.182113,-27.991838
11.185,2.0,1.0,1.0,33.1,34.9,34.9,4.4,1.9,2.665,0.5654125768397085,-0.0407603615060824,0.7984471687731128,0.007923917194930973,-0.189931,-27.634135
11.185,2.0,1.0,1.0,33.1,34.9,34.9,4.4,1.9,2.6675,0.5569871977750566,-0.042638360286193194,0.8031759965613048,0.007694196211240063,-0.198482,-27.264824
11.185,2.0,1.0,1.0,33.1,34.9,34.9,4.4,1.9,2.67,0.5483327223937414,-0.04466230620708287,0.8078332441166722,0.007415837160724583,-0.207871,-26.883063
11.185,2.0,1.0,1.0,33.1,34.9,34.9,4.4,1.9,2.6725,0.5394311917678226,-0.046849122375661946,0.8124086124784452,0.007079405974023018,-0.218223,-26.487917
11.185,2.0,1.0,1.0,33.1,34.9,34.9,4.4,1.9,2.675,0.5302620514435366,-0.049218306979349355,0.8168895901556651,0.006673280100356631,-0.229689,-26.078354
11.185,2.0,1.0,1.0,33.1,34.9,34.9,4.4,1.9,2.6775,0.5208016790028086,-0.05179240455447537,0.8212608463992896,0.00618304217543744,-0.242449,-25.65322
11.185,2.0,1.0,1.0,33.1,34.9,34.9,4.4,1.9,2.68,0.5110228171407113,-0.05459757150825545,0.8255034268228969,0.005590676039993464,-0.256725,-25.211233
11.185,2.0,1.0,1.0,33.1,34.9,34.9,4.4,1.9,2.6825,0.5008938956492319,-0.05766425244462239,0.8295936767859466,0.004873490554686058,-0.272787,-24.750956
11.185,2.0,1.0,1.0,33.1,34.9,34.9,4.4,1.9,2.685,0.4903782263222484,-0.061027983208257516,0.8335017859436817,0.004002664674809627,-0.290973,-24.270778
11.185,2.0,1.0,1.0,33.1,34.9,34.9,4.4,1.9,2.6875,0.4794330596800038,-0.06473033167030202,0.8371898000397069,0.002941259965911077,-0.311703,-23.768886
11.185,2.0,1.0,1.0,33.1,34.9,34.9,4.4,1.9,2.69,0.46800850629695845,-0.06881997339907049,0.8406088754101118,0.001641476209162746,-0.335507,-23.24324
11.185,2.0,1.0,1.0,33.1,34.9,34.9,4.4,1.9,2.6925,0.4560463577496153,-0.07335386716483724,0.8436954455251728,4.081972256126217e-05,-0.363065,-22.691538
11.185,2.0,1.0,1.0,33.1,34.9,34.9,4.4,1.9,2.695,0.4434789111908283,-0.07839842635250281,0.8463658085061734,-0.0019433061770612046,-0.395251,-22.111186
11.185,2.0,1.0,1.0,33.1,34.9,34.9,4.4,1.9,2.6975,0.4302280437172644,-0.08403044047693274,0.848508402019723,-0.004421321402630223,-0.433213,-21.499261
11.185,2.0,1.0,1.0,33.1,34.9,34.9,4.4,1.9,2.7,0.4162050704826232,-0.09033721384443118,0.8499726678765299,-0.007542596546171309,-0.47847,-20.852496
11.185,2.0,1.0,1.0,33.1,34.9,34.9,4.4,1.9,2.7025,0.40131249894515564,-0.09741481133352048,0.8505528744918326,-0.0115116178536042,-0.533061,-20.167273
11.185,2.0,1.0,1.0,33.1,34.9,34.9,4.4,1.9,2.705,0.3854499518494873,-0.1053621438915943,0.8499645244148814,-0.01661156093949296,-0.599762,-19.439675
11.185,2.0,1.0,1.0,33.1,34.9,34.9,4.4,1.9,2.7075,0.36852885504255156,-0.11426630848893901,0.8478100846659716,-0.023238535509889587,-0.682394,-18.665627
11.185,2.0,1.0,1.0,33.1,34.9,34.9,4.4,1.9,2.71,0.3505051086317888,-0.12416998534489301,0.8435301652180309,-0.03195038276990733,-0.786273,-17.841243
11.185,2.0,1.0,1.0,33.1,34.9,34.9,4.4,1.9,2.7125,0.3314479628124688,-0.1350027090507822,0.8363375462909507,-0.04353265473979476,-0.918807,-16.963542
11.185,2.0,1.0,1.0,33.1,34.9,34.9,4.4,1.9,2.715,0.31167989136554464,-0.14644127341573432,0.8251396952141871,-0.05907622931201909,-1.090205,-16.031898
11.185,2.0,1.0,1.0,33.1,34.9,34.9,4.4,1.9,2.7175,0.29204846562222575,-0.157638281008083,0.8084848440927032,-0.08003174304075203,-1.313908,-15.050818
11.185,2.0,1.0,1.0,33.1,34.9,34.9,4.4,1.9,2.72,0.27441448441559446,-0.16673429524498248,0.7846513823637951,-0.10812163637564755,-1.605338,-14.035061
11.185,2.0,1.0,1.0,33.1,34.9,34.9,4.4,1.9,2.7225,0.2623821336015294,-0.1701264093674834,0.7521957112645503,-0.1447953441075879,-1.974707,-13.018239
11.185,2.0,1.0,1.0,33.1,34.9,34.9,4.4,1.9,2.725,0.26189325939330443,-0.16186731115854622,0.7115477098786656,-0.18963718506484115,-2.404166,-12.06466
11.185,2.0,1.0,1.0,33.1,34.9,34.9,4.4,1.9,2.7275,0.28016790161661065,-0.13470954557989492,0.6679651560524184,-0.23740572727374223,-2.801125,-11.277963
11.185,2.0,1.0,1.0,33.1,34.9,34.9,4.4,1.9,2.73,0.32060499407482984,-0.08519922287636912,0.6335740373219936,-0.2759603281759074,-2.97394,-10.787662
11.185,2.0,1.0,1.0,33.1,34.9,34.9,4.4,1.9,2.7325,0.3756627715187965,-0.020846510171068124,0.6224288807490461,-0.29116826721057887,-2.76922,-10.694914
11.185,2.0,1.0,1.0,33.1,34.9,34.9,4.4,1.9,2.735,0.4284468693511877,0.04139442687738507,0.6389006837394973,-0.27857637497909976,-2.278538,-11.006266
11.185,2.0,1.0,1.0,33.1,34.9,34.9,4.4,1.9,2.7375,0.4653429122232399,0.08781020688156461,0.6741663350731861,-0.24701717291107245,-1.732488,-11.628656
11.185,2.0,1.0,1.0,33.1,34.9,34.9,4.4,1.9,2.74,0.4834942659897568,0.11550612711112566,0.7155552335056993,-0.209233384890044,-1.273858,-12.432097
11.185,2.0,1.0,1.0,33.1,34.9,34.9,4.4,1.9,2.7425,0.48700564435965576,0.1286099884782311,0.7547266653661917,-0.17362033903897886,-0.932412,-13.308268
11.185,2.0,1.0,1.0,33.1,34.9,34.9,4.4,1.9,2.745,0.4812016854100773,0.1324834470390935,0.7884519456707041,-0.1434235453710673,-0.689433,-14.188223
11.185,2.0,1.0,1.0,33.1,34.9,34.9,4.4,1.9,2.7475,0.4701296013973427,0.13120092969164338,0.8163980731091829,-0.11897150561026786,-0.518181,-15.035145
11.185,2.0,1.0,1.0,33.1,34.9,34.9,4.4,1.9,2.75,0.456324794219639,0.127313473435073,0.839325671688109,-0.0994927619837422,-0.39672,-15.832342
11.185,2.0,1.0,1.0,33.1,34.9,34.9,4.4,1.9,2.7525,0.4412379309055222,0.12227999296140407,0.8582134890114996,-0.08399786460403198,-0.309471,-16.574187
11.185,2.0,1.0,1.0,33.1,34.9,34.9,4.4,1.9,2.755,0.4256574308157775,0.11689337616620361,0.8739410971681961,-0.07159833259032704,-0.245878,-17.260644
11.185,2.0,1.0,1.0,33.1,34.9,34.9,4.4,1.9,2.7575,0.4099938063957214,0.1115669317803067,0.887213486874777,-0.06158200040884542,-0.198863,-17.894267
11.185,2.0,1.0,1.0,33.1,34.9,34.9,4.4,1.9,2.76,0.3944485009749356,0.10650429440148308,0.8985707150410451,-0.05340291257504728,-0.163652,-18.478635
11.185,2.0,1.0,1.0,33.1,34.9,34.9,4.4,1.9,2.7625,0.3791093045518938,0.10179534392927661,0.9084195185909701,-0.04664927299978134,-0.136987,-19.017563
11.185,2.0,1.0,1.0,33.1,34.9,34.9,4.4,1.9,2.765,0.3640032485513482,0.09746932738312603,0.9170650898162719,-0.041011341424875954,-0.11661,-19.514727
11.185,2.0,1.0,1.0,33.1,34.9,34.9,4.4,1.9,2.7675,0.34912572708784906,0.09352407905125801,0.9247370785963365,-0.036255202768249846,-0.100932,-19.973505
11.185,2.0,1.0,1.0,33.1,34.9,34.9,4.4,1.9,2.77,0.33445647398038136,0.08994204030605096,0.9316093319044824,-0.032202871751523955,-0.088816,-20.396912
11.185,2.0,1.0,1.0,33.1,34.9,34.9,4.4,1.9,2.7725,0.31996827741054074,0.0866989949815985,0.9378144216697014,-0.02871765759878748,-0.079435,-20.7876
11.185,2.0,1.0,1.0,33.1,34.9,34.9,4.4,1.9,2.775,0.3056316693408735,0.08376877322270555,0.9434542141432676,-0.02569351820587934,-0.072183,-21.147879
11.185,2.0,1.0,1.0,33.1,34.9,34.9,4.4,1.9,2.7775,0.29141737669515844,0.08112571809727717,0.948607545140625,-0.023047327638138482,-0.066606,-21.47974
11.185,2.0,1.0,1.0,33.1,34.9,34.9,4.4,1.9,2.78,0.27729752719117745,0.07874591127817995,0.9533358118654677,-0.020713238464579436,-0.062363,-21.784893
11.185,2.0,1.0,1.0,33.1,34.9,34.9,4.4,1.9,2.7825,0.26324616536091705,0.07660771505976739,0.9576870712484638,-0.018638543805778843,-0.059192,-22.064794
11.185,2.0,1.0,1.0,33.1,34.9,34.9,4.4,1.9,2.785,0.24923939130945255,0.07469194434416351,0.9616990656753495,-0.016780614650898272,-0.056893,-22.320671
11.185,2.0,1.0,1.0,33.1,34.9,34.9,4.4,1.9,2.7875,0.23525529846519902,0.07298184578849153,0.9654014742211354,-0.015104611731505771,-0.05531,-22.553551
11.185,2.0,1.0,1.0,33.1,34.9,34.9,4.4,1.9,2.79,0.2212738094095576,0.07146298424845088,0.9688176004460304,-0.013581758850137404,-0.054323,-22.764276
11.185,2.0,1.0,1.0,33.1,34.9,34.9,4.4,1.9,2.7925,0.20727646483093604,0.07012309286496507,0.9719656466336967,-0.012188025999071773,-0.053834,-22.953523
11.185,2.0,1.0,1.0,33.1,34.9,34.9,4.4,1.9,2.795,0.19324619533966927,0.06895191819177683,0.974859681428402,-0.010903113586154787,-0.053769,-23.121818
11.185,2.0,1.0,1.0,33.1,34.9,34.9,4.4,1.9,2.7975,0.17916709125551683,0.06794107759586296,0.9775103776093013,-0.009709659197920335,-0.054069,-23.269544
11.185,2.0,1.0,1.0,33.1,34.9,34.9,4.4,1.9,2.8,0.16502417697626898,0.06708393823299492,0.9799255753246515,-0.00859260949464561,-0.054686,-23.396955
11.185,2.0,1.0,1.0,33.1,34.9,34.9,4.4,1.9,2.8025,0.15080319153787092,0.06637552262081117,0.9821107107859794,-0.007538714753285369,-0.055583,-23.504177
11.185,2.0,1.0,1.0,33.1,34.9,34.9,4.4,1.9,2.805,0.13649037395962696,0.06581244372305407,0.9840691393154528,-0.006536114106216751,-0.056733,-23.591214
11.185,2.0,1.0,1.0,33.1,34.9,34.9,4.4,1.9,2.8075,0.12207225002868444,0.06539287167993015,0.9858023734436062,-0.00557398692983463,-0.058114,-23.657952
11.185,2.0,1.0,1.0,33.1,34.9,34.9,4.4,1.9,2.81,0.10753541576268372,0.06511653440348465,0.9873102505489215,-0.004642250971708958,-0.05971,-23.704157
11.185,2.0,1.0,1.0,33.1,34.9,34.9,4.4,1.9,2.8125,0.0928663115392237,0.0649847549629066,0.988591039651266,-0.00373129123572563,-0.061511,-23.729476
11.185,2.0,1.0,1.0,33.1,34.9,34.9,4.4,1.9,2.815,0.07805097953712634,0.06500052991870223,0.9896414929168634,-0.002831705731102682,-0.063512,-23.733428
11.185,2.0,1.0,1.0,33.1,34.9,34.9,4.4,1.9,2.8175,0.0630747954788362,0.06516865453848025,0.9904568437977529,-0.0019340551335501317,-0.065712,-23.715401
11.185,2.0,1.0,1.0,33.1,34.9,34.9,4.4,1.9,2.82,0.04792216347172364,0.06549590324362159,0.9910307501478615,-0.0010286032694308664,-0.068114,-23.674646
11.185,2.0,1.0,1.0,33.1,34.9,34.9,4.4,1.9,2.8225,0.032576159749248726,0.06599127689469014,0.9913551767534847,-0.00010503404743686414,-0.070727,-23.610258
11.185,2.0,1.0,1.0,33.1,34.9,34.9,4.4,1.9,2.825,0.01701810695051255,0.06666633294416975,0.9914202070407244,0.0008478721962512633,-0.073565,-23.521166
11.185,2.0,1.0,1.0,33.1,34.9,34.9,4.4,1.9,2.8275,0.0012270547365534421,0.06753562055662544,0.9912137676824917,0.001842624431987945,-0.076647,-23.40611
11.185,2.0,1.0,1.0,33.1,34.9,34.9,4.4,1.9,2.83,-0.014820865729139788,0.06861725125730062,0.990721241568489,0.0028934972287230306,-0.079999,-23.263618
