1,w,sub_t,h,l1,l2,l3,g1,g2,Freq,S11_re,S21_re,S11_img,S21_img,S11_dB,S21_dB
11.185,2.0,1.0,1.0,33.2,34.8,34.8,2.8,2.2,2.5,0.875802477156956,-0.00931984832985199,0.468309186392999,0.00966649216014666,-0.059718,-37.440027
11.185,2.0,1.0,1.0,33.2,34.8,34.8,2.8,2.2,2.5025,0.8727227515159168,-0.009542522338024634,0.47386266915864167,0.009755974571990844,-0.06039,-37.299299
11.185,2.0,1.0,1.0,33.2,34.8,34.8,2.8,2.2,2.505,0.869593138098224,-0.009770581705733167,0.4794188997462167,0.009845966073268146,-0.061078,-37.157784
11.185,2.0,1.0,1.0,33.2,34.8,34.8,2.8,2.2,2.5075,0.866413055799962,-0.010004193425600931,0.4849777380262301,0.00993645941033172,-0.061782,-37.015462
11.185,2.0,1.0,1.0,33.2,34.8,34.8,2.8,2.2,2.51,0.8631819096270893,-0.010243531356636281,0.4905390389257684,0.01002744640742582,-0.062502,-36.872313
11.185,2.0,1.0,1.0,33.2,34.8,34.8,2.8,2.2,2.5125,0.8598990902089988,-0.01048877657595087,0.4961026522182574,0.010118917891009434,-0.063239,-36.728313
11.185,2.0,1.0,1.0,33.2,34.8,34.8,2.8,2.2,2.515,0.8565639732874257,-0.010740117752062175,0.5016684223025477,0.010210863607759097,-0.063993,-36.583442
11.185,2.0,1.0,1.0,33.2,34.8,34.8,2.8,2.2,2.5175,0.8531759191790721,-0.010997751541323616,0.5072361879705791,0.010303272135676724,-0.064766,-36.437677
11.185,2.0,1.0,1.0,33.2,34.8,34.8,2.8,2.2,2.52,0.8497342722101701,-0.011261883009156317,0.5128057821628514,0.01039613078766929,-0.065558,-36.290993
11.185,2.0,1.0,1.0,33.2,34.8,34.8,2.8,2.2,2.5225,0.8462383601210883,-0.011532726077888715,0.5183770317108161,0.010489425506904917,-0.066369,-36.143369
11.185,2.0,1.0,1.0,33.2,34.8,34.8,2.8,2.2,2.525,0.842687493438902,-0.011810504003168618,0.5239497570652651,0.010583140753176781,-0.067201,-35.994778
11.185,2.0,1.0,1.0,33.2,34.8,34.8,2.8,2.2,2.5275,0.839080964815694,-0.012095449881070707,0.5295237720096877,0.010677259379429605,-0.068053,-35.845195
11.185,2.0,1.0,1.0,33.2,34.8,34.8,2.8,2.2,2.53,0.8354180483301716,-0.012387807188207145,0.5350988833574623,0.010771762497513491,-0.068928,-35.694595
11.185,2.0,1.0,1.0,33.2,34.8,34.8,2.8,2.2,2.5325,0.8316979987499653,-0.01268783035734573,0.5406748906316656,0.010866629332133051,-0.069824,-35.542951
11.185,2.0,1.0,1.0,33.2,34.8,34.8,2.8,2.2,2.535,0.8279200507517638,-0.012995785391258594,0.5462515857261541,0.01096183706184962,-0.070745,-35.390236
11.185,2.0,1.0,1.0,33.2,34.8,34.8,2.8,2.2,2.5375,0.8240834180961955,-0.013311950517759802,0.5518287525464284,0.01105736064587273,-0.071689,-35.23642
11.185,2.0,1.0,1.0,33.2,34.8,34.8,2.8,2.2,2.54,0.8201872927540887,-0.013636616889156794,0.5574061666286735,0.011153172635239532,-0.072659,-35.081474
11.185,2.0,1.0,1.0,33.2,34.8,34.8,2.8,2.2,2.5425,0.8162308439804554,-0.013970089329624577,0.5629835947351833,0.011249242966829458,-0.073655,-34.92537
11.185,2.0,1.0,1.0,33.2,34.8,34.8,2.8,2.2,2.545,0.8122132173322167,-0.014312687134330992,0.5685607944242048,0.011345538738487647,-0.074678,-34.768075
11.185,2.0,1.0,1.0,33.2,34.8,34.8,2.8,2.2,2.5475,0.8081335336253338,-0.014664744924489952,0.574137513592028,0.01144202396334119,-0.07573,-34.609557
11.185,2.0,1.0,1.0,33.2,34.8,34.8,2.8,2.2,2.55,0.803990887826599,-0.015026613562905394,0.579713489984941,0.0115386593011737,-0.076811,-34.449784
11.185,2.0,1.0,1.0,33.2,34.8,34.8,2.8,2.2,2.5525,0.799784347874937,-0.015398661134991954,0.5852884506783783,0.011635401764482854,-0.077923,-34.288722
11.185,2.0,1.0,1.0,33.2,34.8,34.8,2.8,2.2,2.555,0.795512953426551,-0.015781274000730976,0.5908621115203456,0.011732204396570974,-0.079067,-34.126334
11.185,2.0,1.0,1.0,33.2,34.8,34.8,2.8,2.2,2.5575,0.7911757145177427,-0.01617485792353808,0.5964341765358574,0.011829015918711073,-0.080244,-33.962586
11.185,2.0,1.0,1.0,33.2,34.8,34.8,2.8,2.2,2.56,0.7867716101386416,-0.016579839282593482,0.6020043372887677,0.011925780343082499,-0.081456,-33.797439
11.185,2.0,1.0,1.0,33.2,34.8,34.8,2.8,2.2,2.5625,0.782299586710425,-0.0169966663758244,0.607572272196966,0.012022436547778,-0.082705,-33.630854
11.185,2.0,1.0,1.0,33.2,34.8,34.8,2.8,2.2,2.565,0.7777585564578919,-0.017425810821436634,0.6131376457964635,0.012118917809737622,-0.083991,-33.462791
11.185,2.0,1.0,1.0,33.2,34.8,34.8,2.8,2.2,2.5675,0.7731473956684595,-0.017867769066675192,0.6187001079493462,0.012215151290962085,-0.085317,-33.293209
11.185,2.0,1.0,1.0,33.2,34.8,34.8,2.8,2.2,2.57,0.7684649428277486,-0.018323064013369382,0.624259292990011,0.012311057472785061,-0.086685,-33.122064
11.185,2.0,1.0,1.0,33.2,34.8,34.8,2.8,2.2,2.5725,0.7637099966209516,-0.018792246770788633,0.629814818803419,0.012406549532333966,-0.088095,-32.949312
11.185,2.0,1.0,1.0,33.2,34.8,34.8,2.8,2.2,2.575,0.7588813137880588,-0.01927589854741626,0.6353662858283361,0.012501532654567812,-0.089551,-32.774906
11.185,2.0,1.0,1.0,33.2,34.8,34.8,2.8,2.2,2.5775,0.7539776068198071,-0.019774632694459508,0.6409132759776772,0.012595903272437963,-0.091055,-32.598799
11.185,2.0,1.0,1.0,33.2,34.8,34.8,2.8,2.2,2.58,0.7489975414798339,-0.020289096915258067,0.6464553514670741,0.012689548226753543,-0.092609,-32.42094
11.185,2.0,1.0,1.0,33.2,34.8,34.8,2.8,2.2,2.5825,0.743939734136984,-0.02081997565626653,0.651992053541676,0.012782343836231072,-0.094214,-32.241277
11.185,2.0,1.0,1.0,33.2,34.8,34.8,2.8,2.2,2.585,0.7388027488900187,-0.021367992696969144,0.6575229010898894,0.01287415486694846,-0.095875,-32.059758
11.185,2.0,1.0,1.0,33.2,34.8,34.8,2.8,2.2,2.5875,0.733585094465035,-0.021933913957981496,0.6630473891313033,0.012964833388973527,-0.097593,-31.876325
11.185,2.0,1.0,1.0,33.2,34.8,34.8,2.8,2.2,2.59,0.7282852208637698,-0.022518550548711658,0.6685649871643395,0.013054217506274703,-0.099372,-31.690922
11.185,2.0,1.0,1.0,33.2,34.8,34.8,2.8,2.2,2.5925,0.7229015157385232,-0.023122762078343906,0.6740751373572431,0.013142129944107753,-0.101215,-31.503486
11.185,2.0,1.0,1.0,33.2,34.8,34.8,2.8,2.2,2.595,0.7174323004667448,-0.023747460256583856,0.6795772525637563,0.013228376475862579,-0.103125,-31.313956
11.185,2.0,1.0,1.0,33.2,34.8,34.8,2.8,2.2,2.5975,0.7118758258952229,-0.024393612813634023,0.6850707141422667,0.013312744168802055,-0.105105,-31.122266
11.185,2.0,1.0,1.0,33.2,34.8,34.8,2.8,2.2,2.6,0.7062302677204052,-0.02506224777226763,0.6905548695542001,0.013394999425172957,-0.107161,-30.928347
11.185,2.0,1.0,1.0,33.2,34.8,34.8,2.8,2.2,2.6025,0.7004937214674578,-0.025754458108722282,0.6960290297139705,0.013474885791741067,-0.109295,-30.732129
11.185,2.0,1.0,1.0,33.2,34.8,34.8,2.8,2.2,2.605,0.6946641970262711,-0.026471406843482655,0.7014924660587845,0.013552121506820163,-0.111513,-30.533535
11.185,2.0,1.0,1.0,33.2,34.8,34.8,2.8,2.2,2.6075,0.6887396126976363,-0.027214332607946343,0.7069444073018871,0.013626396749230711,-0.113819,-30.33249
11.185,2.0,1.0,1.0,33.2,34.8,34.8,2.8,2.2,2.61,0.6827177886971737,-0.027984555738549792,0.7123840358273912,0.013697370548206904,-0.116218,-30.128911
11.185,2.0,1.0,1.0,33.2,34.8,34.8,2.8,2.2,2.6125,0.6765964400581724,-0.028783484956265953,0.717810483678437,0.013764667306946908,-0.118717,-29.922714
11.185,2.0,1.0,1.0,33.2,34.8,34.8,2.8,2.2,2.615,0.6703731688672284,-0.029612624696586994,0.72322282808295,0.013827872885076524,-0.121321,-29.713809
11.185,2.0,1.0,1.0,33.2,34.8,34.8,2.8,2.2,2.6175,0.6640454557582891,-0.030473583163294987,0.7286200864524646,0.01388653017658225,-0.124036,-29.502104
11.185,2.0,1.0,1.0,33.2,34.8,34.8,2.8,2.2,2.62,0.6576106505812674,-0.03136808118865787,0.7340012107791576,0.01394013410950351,-0.126871,-29.287501
11.185,2.0,1.0,1.0,33.2,34.8,34.8,2.8,2.2,2.6225,0.6510659621506377,-0.03229796199333457,0.7393650813440206,0.013988125981553403,-0.129832,-29.069897
11.185,2.0,1.0,1.0,33.2,34.8,34.8,2.8,2.2,2.625,0.644408446967157,-0.0332652019514247,0.744710499634655,0.0140298870314958,-0.132928,-28.849185
11.185,2.0,1.0,1.0,33.2,34.8,34.8,2.8,2.2,2.6275,0.6376349967917843,-0.03427192247999926,0.7500361803540736,0.014064731129088084,-0.136168,-28.625252
11.185,2.0,1.0,1.0,33.2,34.8,34.8,2.8,2.2,2.63,0.630742324934853,-0.035320403188348164,0.7553407423815027,0.014091896446151882,-0.139562,-28.397979
11.185,2.0,1.0,1.0,33.2,34.8,34.8,2.8,2.2,2.6325,0.6237269511051301,-0.03641309644039563,0.7606226985219156,0.014110535947184165,-0.143121,-28.167242
11.185,2.0,1.0,1.0,33.2,34.8,34.8,2.8,2.2,2.635,0.6165851846423211,-0.03755264350461529,0.765880443851965,0.014119706509027151,-0.146858,-27.932909
11.185,2.0,1.0,1.0,33.2,34.8,34.8,2.8,2.2,2.6375,0.6093131059324214,-0.038741892489730666,0.7711122424351701,0.014118356444451911,-0.150784,-27.694841
11.185,2.0,1.0,1.0,33.2,34.8,34.8,2.8,2.2,2.64,0.601906545777519,-0.03998391829197998,0.7763162121372988,0.014105311162801176,-0.154914,-27.452892
11.185,2.0,1.0,1.0,33.2,34.8,34.8,2.8,2.2,2.6425,0.5943610624598649,-0.04128204481128102,0.7814903072223071,0.014079256650490767,-0.159265,-27.206907
11.185,2.0,1.0,1.0,33.2,34.8,34.8,2.8,2.2,2.645,0.5866719162034028,-0.04263986972986739,0.7866322983480003,0.014038720393207417,-0.163853,-26.956723
11.185,2.0,1.0,1.0,33.2,34.8,34.8,2.8,2.2,2.6475,0.5788340406940474,-0.04406129218854248,0.7917397495062101,0.013982049287590491,-0.168698,-26.702168
11.185,2.0,1.0,1.0,33.2,34.8,34.8,2.8,2.2,2.65,0.5708420112718375,-0.04555054374336842,0.7968099913616827,0.01390738399992318,-0.17382,-26.443058
11.185,2.0,1.0,1.0,33.2,34.8,34.8,2.8,2.2,2.6525,0.5626900093530934,-0.047112223040177474,0.8018400903330478,0.01381262911896514,-0.179244,-26.179198
11.185,2.0,1.0,1.0,33.2,34.8,34.8,2.8,2.2,2.655,0.5543717825777073,-0.048751334706639386,0.8068268126232699,0.013695418314559275,-0.184996,-25.910384
11.185,2.0,1.0,1.0,33.2,34.8,34.8,2.8,2.2,2.6575,0.5458806001051268,-0.050473333032582654,0.8117665822394519,0.013553073546719465,-0.191105,-25.636396
11.185,2.0,1.0,1.0,33.2,34.8,34.8,2.8,2.2,2.66,0.5372092024013605,-0.05228417108969587,0.8166554318347455,0.013382557163494789,-0.197603,-25.357002
11.185,2.0,1.0,1.0,33.2,34.8,34.8,2.8,2.2,2.6625,0.5283497447679277,-0.05419035603225858,0.821488944948039,0.013180415469681073,-0.204527,-25.071952
11.185,2.0,1.0,1.0,33.2,34.8,34.8,2.8,2.2,2.665,0.5192937337616532,-0.056199011421516676,0.8262621878967147,0.012942712029121778,-0.211919,-24.780983
11.185,2.0,1.0,1.0,33.2,34.8,34.8,2.8,2.2,2.6675,0.510031955541919,-0.058317947527405004,0.8309696291768757,0.012664948563755126,-0.219825,-24.483812
11.185,2.0,1.0,1.0,33.2,34.8,34.8,2.8,2.2,2.67,0.5005543950606337,-0.06055574068123425,0.8356050437217342,0.012341970810457164,-0.228297,-24.180137
11.185,2.0,1.0,1.0,33.2,34.8,34.8,2.8,2.2,2.6725,0.4908501448828669,-0.06292182287860182,0.8401613987332277,0.011967856063125367,-0.237394,-23.869635
11.185,2.0,1.0,1.0,33.2,34.8,34.8,2.8,2.2,2.675,0.48090730229859574,-0.06542658295735315,0.8446307169963458,0.011535778324424343,-0.247186,-23.55196
11.185,2.0,1.0,1.0,33.2,34.8,34.8,2.8,2.2,2.6775,0.4707128532684616,-0.06808148079066922,0.8490039125602328,0.01103784596941358,-0.257748,-23.22674
11.185,2.0,1.0,1.0,33.2,34.8,34.8,2.8,2.2,2.68,0.4602525416559673,-0.07089917602315808,0.8532705923589741,0.010464905516288564,-0.269169,-22.893574
11.185,2.0,1.0,1.0,33.2,34.8,34.8,2.8,2.2,2.6825,0.44951072216302235,-0.07389367291027205,0.8574188156610609,0.009806303420909074,-0.281552,-22.552035
11.185,2.0,1.0,1.0,33.2,34.8,34.8,2.8,2.2,2.685,0.43847019544969784,-0.07708048275381232,0.8614348010642479,0.009049595646474621,-0.295016,-22.201658
11.185,2.0,1.0,1.0,33.2,34.8,34.8,2.8,2.2,2.6875,0.427112024153304,-0.0804768051879764,0.865302567938007,0.00818019195435143,-0.309695,-21.841944
11.185,2.0,1.0,1.0,33.2,34.8,34.8,2.8,2.2,2.69,0.41541532903757555,-0.08410172905016661,0.8690034955538506,0.007180918212192498,-0.325751,-21.472355
11.185,2.0,1.0,1.0,33.2,34.8,34.8,2.8,2.2,2.6925,0.4033570654742555,-0.08797645259429314,0.8725157783604378,0.006031475248190867,-0.343371,-21.092306
11.185,2.0,1.0,1.0,33.2,34.8,34.8,2.8,2.2,2.695,0.3909117821599167,-0.09212452109872475,0.875813749589889,0.0047077665313337335,-0.362774,-20.701169
11.185,2.0,1.0,1.0,33.2,34.8,34.8,2.8,2.2,2.6975,0.37805136682796775,-0.09657207705915234,0.8788670371373875,0.003181058742168464,-0.384223,-20.298259
11.185,2.0,1.0,1.0,33.2,34.8,34.8,2.8,2.2,2.7,0.36474478840096725,-0.10134811346820115,0.8816395047937579,0.0014169284755486773,-0.408026,-19.882838
11.185,2.0,1.0,1.0,33.2,34.8,34.8,2.8,2.2,2.7025,0.35095785259698514,-0.10648471311481171,0.8840879175871873,-0.0006260659530274429,-0.434556,-19.454105
11.185,2.0,1.0,1.0,33.2,34.8,34.8,2.8,2.2,2.705,0.33665300012198723,-0.11201724472450206,0.8861602511230227,-0.002998067419520115,-0.464262,-19.011192
11.185,2.0,1.0,1.0,33.2,34.8,34.8,2.8,2.2,2.7075,0.32178919588517224,-0.11798446747500904,0.8877935400556917,-0.005760062097579577,-0.497687,-18.553164
11.185,2.0,1.0,1.0,33.2,34.8,34.8,2.8,2.2,2.71,0.306321988354903,-0.12442846478140279,0.888911128617031,-0.008986617304769509,-0.535496,-18.07901
11.185,2.0,1.0,1.0,33.2,34.8,34.8,2.8,2.2,2.7125,0.2902038668987531,-0.1313942795980183,0.8894191448600695,-0.012769392707559366,-0.578507,-17.587646
11.185,2.0,1.0,1.0,33.2,34.8,34.8,2.8,2.2,2.715,0.27338512235382434,-0.13892904622919058,0.889201968861685,-0.01722165365564927,-0.627733,-17.077912
11.185,2.0,1.0,1.0,33.2,34.8,34.8,2.8,2.2,2.7175,0.2558155390760059,-0.14708029090370223,0.8881164042729955,-0.02248407591263248,-0.684443,-16.548588
11.185,2.0,1.0,1.0,33.2,34.8,34.8,2.8,2.2,2.72,0.23744744210930807,-0.15589287844480826,0.8859841977433994,-0.028732195436930973,-0.750237,-15.998399
11.185,2.0,1.0,1.0,33.2,34.8,34.8,2.8,2.2,2.7225,0.2182409327761255,-0.16540377352709493,0.8825824982692139,-0.036185908734014734,-0.827146,-15.426052
11.185,2.0,1.0,1.0,33.2,34.8,34.8,2.8,2.2,2.725,0.19817263375804797,-0.17563329865680688,0.8776318487950656,-0.04512142830717625,-0.917778,-14.830286
11.185,2.0,1.0,1.0,33.2,34.8,34.8,2.8,2.2,2.7275,0.17725002329584955,-0.18657081486606206,0.8707814461064319,-0.055885953325863616,-1.0255,-14.209953
11.185,2.0,1.0,1.0,33.2,34.8,34.8,2.8,2.2,2.73,0.15553458896460345,-0.19815160433542262,0.8615918849358878,-0.06891483544896725,-1.154699,-13.564159
11.185,2.0,1.0,1.0,33.2,34.8,34.8,2.8,2.2,2.7325,0.1331786963527478,-0.21022007591322628,0.8495168100154392,-0.08474981299698532,-1.311115,-12.892481
11.185,2.0,1.0,1.0,33.2,34.8,34.8,2.8,2.2,2.735,0.11048325351634262,-0.22247223930749635,0.8338875934062924,-0.10405419770545841,-1.502275,-12.195302
11.185,2.0,1.0,1.0,33.2,34.8,34.8,2.8,2.2,2.7375,0.08798550454495505,-0.23436815603921426,0.8139106979969309,-0.12761536761705283,-1.738007,-11.474339
11.185,2.0,1.0,1.0,33.2,34.8,34.8,2.8,2.2,2.74,0.06658681175560865,-0.24500456622207575,0.7886979330752686,-0.1563144047915054,-2.03094,-10.733416
11.185,2.0,1.0,1.0,33.2,34.8,34.8,2.8,2.2,2.7425,0.04772404454749532,-0.2529441400527735,0.7573677923263795,-0.19102479420141383,-2.396653,-9.979584
11.185,2.0,1.0,1.0,33.2,34.8,34.8,2.8,2.2,2.745,0.03356372595980785,-0.25602223490010395,0.7192810727278862,-0.23237720218683408,-2.852581,-9.22463
11.185,2.0,1.0,1.0,33.2,34.8,34.8,2.8,2.2,2.7475,0.027135574280127677,-0.25121439525462147,0.6744925956200012,-0.2803088781973509,-3.413433,-8.486861
11.185,2.0,1.0,1.0,33.2,34.8,34.8,2.8,2.2,2.75,0.0322049418973162,-0.234764566979498,0.624465354013022,-0.333351789633118,-4.078298,-7.792702
11.185,2.0,1.0,1.0,33.2,34.8,34.8,2.8,2.2,2.7525,0.05255366372406378,-0.2029033199155723,0.5729056406591959,-0.3878010018090205,-4.801946,-7.176966
11.185,2.0,1.0,1.0,33.2,34.8,34.8,2.8,2.2,2.755,0.09040561482477126,-0.15341817637393082,0.5261664173370233,-0.43731477632502275,-5.451182,-6.680034
11.185,2.0,1.0,1.0,33.2,34.8,34.8,2.8,2.2,2.7575,0.14435611541767443,-0.08771662687241301,0.49228954697001176,-0.4738724465752043,-5.797344,-6.340456
11.185,2.0,1.0,1.0,33.2,34.8,34.8,2.8,2.2,2.76,0.20825000986072942,-0.011940720479566968,0.47824097306537167,-0.4905325427200722,-5.652994,-6.184071
11.185,2.0,1.0,1.0,33.2,34.8,34.8,2.8,2.2,2.7625,0.2726343101960493,0.06448584708245234,0.4866546413625187,-0.4846770209937059,-5.070132,-6.214745
11.185,2.0,1.0,1.0,33.2,34.8,34.8,2.8,2.2,2.765,0.3284064144709676,0.13249667937032863,0.5146434632194633,-0.45919160058365166,-4.286305,-6.412805
11.185,2.0,1.0,1.0,33.2,34.8,34.8,2.8,2.2,2.7675,0.370011500522135,0.18656793413294184,0.5556535833591392,-0.4206126148712241,-3.509969,-6.742329
11.185,2.0,1.0,1.0,33.2,34.8,34.8,2.8,2.2,2.77,0.39616294651806333,0.2254323526153885,0.6025791151823741,-0.3760205960505545,-2.839577,-7.162212
11.185,2.0,1.0,1.0,33.2,34.8,34.8,2.8,2.2,2.7725,0.40854151299705493,0.25077944819206976,0.649911911545042,-0.33089865816279124,-2.296697,-7.635024
11.185,2.0,1.0,1.0,33.2,34.8,34.8,2.8,2.2,2.775,0.4100599679959079,0.26552456398806257,0.6943150759906608,-0.2885629898149299,-1.869379,-8.13123
11.185,2.0,1.0,1.0,33.2,34.8,34.8,2.8,2.2,2.7775,0.40366815925446703,0.27261805068799094,0.7342339764708311,-0.25055224188915093,-1.536335,-8.62972
11.185,2.0,1.0,1.0,33.2,34.8,34.8,2.8,2.2,2.78,0.39181738044548214,0.2745121127072614,0.7692574578474147,-0.21726509191788793,-1.276818,-9.116476
11.185,2.0,1.0,1.0,33.2,34.8,34.8,2.8,2.2,2.7825,0.376346403850662,0.2730479335466505,0.799587021902647,-0.18848959584925093,-1.073623,-9.582778
11.185,2.0,1.0,1.0,33.2,34.8,34.8,2.8,2.2,2.785,0.3585547028642804,0.2695291974323199,0.8256928031939943,-0.1637460399804085,-0.91338,-10.02357
11.185,2.0,1.0,1.0,33.2,34.8,34.8,2.8,2.2,2.7875,0.3393266716167412,0.26484626419371105,0.8481214674845143,-0.1424782406221854,-0.785983,-10.436222
11.185,2.0,1.0,1.0,33.2,34.8,34.8,2.8,2.2,2.79,0.3192483410784976,0.25959274182877184,0.8674015888666188,-0.12414765008739011,-0.68387,-10.819643
11.185,2.0,1.0,1.0,33.2,34.8,34.8,2.8,2.2,2.7925,0.2986992121173519,0.254157185422387,0.8840040661217767,-0.10827260460409756,-0.601392,-11.173683
11.185,2.0,1.0,1.0,33.2,34.8,34.8,2.8,2.2,2.795,0.27791886787633996,0.24878962248905298,0.898330857560188,-0.09443935461393171,-0.534312,-11.498743
11.185,2.0,1.0,1.0,33.2,34.8,34.8,2.8,2.2,2.7975,0.2570532875475021,0.243647834087819,0.9107169538008547,-0.08229990445102277,-0.479433,-11.79552
11.185,2.0,1.0,1.0,33.2,34.8,34.8,2.8,2.2,2.8,0.23618631161810585,0.23882883840662752,0.9214376753100219,-0.07156454068551678,-0.434324,-12.064841
11.185,2.0,1.0,1.0,33.2,34.8,34.8,2.8,2.2,2.8025,0.21536074711297803,0.23439005984244599,0.9307174032986726,-0.06199291884041558,-0.397123,-12.30757
11.185,2.0,1.0,1.0,33.2,34.8,34.8,2.8,2.2,2.805,0.19459241980485964,0.23036348613006247,0.9387379804180161,-0.05338545709744104,-0.366395,-12.524535
11.185,2.0,1.0,1.0,33.2,34.8,34.8,2.8,2.2,2.8075,0.17387948330217753,0.2267651210207305,0.9456460908448956,-0.045575715605023506,-0.341022,-12.716497
11.185,2.0,1.0,1.0,33.2,34.8,34.8,2.8,2.2,2.81,0.15320855456546925,0.22360130175622675,0.951559442536722,-0.03842392763855667,-0.320132,-12.884126
11.185,2.0,1.0,1.0,33.2,34.8,34.8,2.8,2.2,2.8125,0.132558727175817,0.220872934312603,0.956571800814977,-0.0318116217147225,-0.303039,-13.027983
11.185,2.0,1.0,1.0,33.2,34.8,34.8,2.8,2.2,2.815,0.11190416160315582,0.2185783491175065,0.9607570070155343,-0.025637187167781964,-0.289207,-13.148518
11.185,2.0,1.0,1.0,33.2,34.8,34.8,2.8,2.2,2.8175,0.0912157160582776,0.21671524600415243,0.9641721335269029,-0.01981221493415321,-0.278211,-13.246064
11.185,2.0,1.0,1.0,33.2,34.8,34.8,2.8,2.2,2.82,0.07046192475046686,0.21528204212765367,0.9668599146672601,-0.014258452702275506,-0.269724,-13.320835
11.185,2.0,1.0,1.0,33.2,34.8,34.8,2.8,2.2,2.8225,0.04960952617945468,0.21427883417402452,0.9688505697046929,-0.008905230698445751,-0.263492,-13.37292
11.185,2.0,1.0,1.0,33.2,34.8,34.8,2.8,2.2,2.825,0.028623674631707882,0.21370811865405487,0.9701631081725799,-0.00368723244487617,-0.259326,-13.402287
11.185,2.0,1.0,1.0,33.2,34.8,34.8,2.8,2.2,2.8275,0.007467921479349263,0.21357536956003462,0.9708061817380206,0.0014575001373531944,-0.257092,-13.408774
11.185,2.0,1.0,1.0,33.2,34.8,34.8,2.8,2.2,2.83,-0.013895978585062725,0.21388954334924806,0.9707785219876244,0.006589427680249201,-0.256707,-13.392089
