1,w,sub_t,h,l1,l2,l3,g1,g2,Freq,S11_re,S21_re,S11_img,S21_img,S11_dB,S21_dB
11.185,2.0,1.0,1.0,34.2,33.2,33.2,4.2,1.6,2.5,0.756096248321529,-0.0103066102379645,0.643815018914338,0.00587312825388038,-0.060441,-38.516446
11.185,2.0,1.0,1.0,34.2,33.2,33.2,4.2,1.6,2.5025,0.751196564538618,-0.010490517371597589,0.6494217002012992,0.0058634824580617575,-0.061033,-38.403384
11.185,2.0,1.0,1.0,34.2,33.2,33.2,4.2,1.6,2.505,0.7462310071884141,-0.010677297169345262,0.6550170484563667,0.005852053257212232,-0.061636,-38.290018
11.185,2.0,1.0,1.0,34.2,33.2,33.2,4.2,1.6,2.5075,0.7411989482536533,-0.010866995397505847,0.660600534025258,0.005838780185118514,-0.062249,-38.17634
11.185,2.0,1.0,1.0,34.2,33.2,33.2,4.2,1.6,2.51,0.7360997525432849,-0.011059658589662305,0.666171612538746,0.00582360080107519,-0.062872,-38.062345
11.185,2.0,1.0,1.0,34.2,33.2,33.2,4.2,1.6,2.5125,0.7309327776896011,-0.011255334056713967,0.6717297244958534,0.005806450619635741,-0.063506,-37.948026
11.185,2.0,1.0,1.0,34.2,33.2,33.2,4.2,1.6,2.515,0.7256973741502949,-0.011454069896799864,0.6772742948355751,0.005787263037613399,-0.064151,-37.833377
11.185,2.0,1.0,1.0,34.2,33.2,33.2,4.2,1.6,2.5175,0.7203928852157597,-0.011655915005092306,0.6828047324968055,0.005765969258211195,-0.064808,-37.71839
11.185,2.0,1.0,1.0,34.2,33.2,33.2,4.2,1.6,2.52,0.715018647021924,-0.011860919083439852,0.6883204299661766,0.005742498212154706,-0.065476,-37.60306
11.185,2.0,1.0,1.0,34.2,33.2,33.2,4.2,1.6,2.5225,0.7095739885689796,-0.0120691326498352,0.6938207628134622,0.005716776475693988,-0.066156,-37.487379
11.185,2.0,1.0,1.0,34.2,33.2,33.2,4.2,1.6,2.525,0.7040582317463249,-0.012280607047683398,0.6993050892142415,0.005688728185335239,-0.066848,-37.371339
11.185,2.0,1.0,1.0,34.2,33.2,33.2,4.2,1.6,2.5275,0.6984706913640947,-0.012495394454843899,0.7047727494594752,0.005658274949154906,-0.067552,-37.254936
11.185,2.0,1.0,1.0,34.2,33.2,33.2,4.2,1.6,2.53,0.6928106751916587,-0.012713547892416301,0.710223065451649,0.005625335754541458,-0.068269,-37.13816
11.185,2.0,1.0,1.0,34.2,33.2,33.2,4.2,1.6,2.5325,0.6870774840034817,-0.012935121233240086,0.7156553401871353,0.005589826872202403,-0.068999,-37.021005
11.185,2.0,1.0,1.0,34.2,33.2,33.2,4.2,1.6,2.535,0.681270411632757,-0.013160169210074618,0.7210688572244138,0.005551661756264922,-0.069742,-36.903464
11.185,2.0,1.0,1.0,34.2,33.2,33.2,4.2,1.6,2.5375,0.6753887450332567,-0.013388747423423596,0.7264628801377754,0.005510750940289563,-0.070498,-36.785529
11.185,2.0,1.0,1.0,34.2,33.2,33.2,4.2,1.6,2.54,0.6694317643498495,-0.013620912348966868,0.7318366519561378,0.005467001929007357,-0.071268,-36.667193
11.185,2.0,1.0,1.0,34.2,33.2,33.2,4.2,1.6,2.5425,0.6633987429981557,-0.013856721344557921,0.7371893945865879,0.005420319085579172,-0.072053,-36.548448
11.185,2.0,1.0,1.0,34.2,33.2,33.2,4.2,1.6,2.545,0.657288947753843,-0.014096232656744452,0.7425203082222492,0.0053706035141669805,-0.072852,-36.429286
11.185,2.0,1.0,1.0,34.2,33.2,33.2,4.2,1.6,2.5475,0.6511016388520876,-0.01433950542676434,0.7478285707340708,0.00531775293759302,-0.073666,-36.309699
11.185,2.0,1.0,1.0,34.2,33.2,33.2,4.2,1.6,2.55,0.6448360700977276,-0.014586599695968334,0.7531133370461376,0.005261661569852413,-0.074495,-36.18968
11.185,2.0,1.0,1.0,34.2,33.2,33.2,4.2,1.6,2.5525,0.6384914889867009,-0.014837576410614733,0.7583737384940499,0.005202219983229942,-0.075339,-36.069221
11.185,2.0,1.0,1.0,34.2,33.2,33.2,4.2,1.6,2.555,0.6320671368393391,-0.015092497425980173,0.7636088821659707,0.005139314969759074,-0.0762,-35.948312
11.185,2.0,1.0,1.0,34.2,33.2,33.2,4.2,1.6,2.5575,0.6255622489461466,-0.015351425509724454,0.7688178502258777,0.005072829396744584,-0.077077,-35.826946
11.185,2.0,1.0,1.0,34.2,33.2,33.2,4.2,1.6,2.56,0.6189760547267197,-0.015614424344444421,0.7739996992185716,0.005002642056056897,-0.07797,-35.705115
11.185,2.0,1.0,1.0,34.2,33.2,33.2,4.2,1.6,2.5625,0.6123077779024714,-0.01588155852934624,0.7791534593559774,0.004928627506885074,-0.078881,-35.582809
11.185,2.0,1.0,1.0,34.2,33.2,33.2,4.2,1.6,2.565,0.605556636683871,-0.01615289358096175,0.7842781337842615,0.004850655911621556,-0.079809,-35.460019
11.185,2.0,1.0,1.0,34.2,33.2,33.2,4.2,1.6,2.5675,0.598721843972947,-0.016428495932827643,0.7893726978312791,0.004768592864528892,-0.080756,-35.336738
11.185,2.0,1.0,1.0,34.2,33.2,33.2,4.2,1.6,2.57,0.5918026075818086,-0.01670843293404202,0.7944360982338486,0.004682299212819403,-0.081721,-35.212955
11.185,2.0,1.0,1.0,34.2,33.2,33.2,4.2,1.6,2.5725,0.5847981304680002,-0.016992772846605175,0.7994672523443515,0.0045916308697550945,-0.082705,-35.088662
11.185,2.0,1.0,1.0,34.2,33.2,33.2,4.2,1.6,2.575,0.5777076109875229,-0.017281584841446658,0.8044650473161234,0.004496438619353881,-0.083708,-34.963848
11.185,2.0,1.0,1.0,34.2,33.2,33.2,4.2,1.6,2.5775,0.5705302431663998,-0.017574938993031777,0.8094283392671082,0.004396567912257668,-0.084731,-34.838505
11.185,2.0,1.0,1.0,34.2,33.2,33.2,4.2,1.6,2.58,0.563265216991705,-0.017872906272433414,0.8143559524212097,0.004291858652295558,-0.085775,-34.712622
11.185,2.0,1.0,1.0,34.2,33.2,33.2,4.2,1.6,2.5825,0.5559117187229953,-0.018175558538748113,0.8192466782267948,0.004182144973241634,-0.08684,-34.586189
11.185,2.0,1.0,1.0,34.2,33.2,33.2,4.2,1.6,2.585,0.5484689312251544,-0.018482968528723748,0.8240992744517469,0.004067255005236871,-0.087926,-34.459197
11.185,2.0,1.0,1.0,34.2,33.2,33.2,4.2,1.6,2.5875,0.5409360343236682,-0.018795209844459412,0.828912464254484,0.003947010630310522,-0.089035,-34.331634
11.185,2.0,1.0,1.0,34.2,33.2,33.2,4.2,1.6,2.59,0.5333122051834324,-0.019112356939024803,0.8336849352303203,0.003821227226398083,-0.090166,-34.20349
11.185,2.0,1.0,1.0,34.2,33.2,33.2,4.2,1.6,2.5925,0.5255966187121955,-0.01943448509983714,0.8384153384325371,0.00368971339921469,-0.091321,-34.074755
11.185,2.0,1.0,1.0,34.2,33.2,33.2,4.2,1.6,2.595,0.517788447989839,-0.0197616704296194,0.8431022873675069,0.00355227070129917,-0.0925,-33.945417
11.185,2.0,1.0,1.0,34.2,33.2,33.2,4.2,1.6,2.5975,0.5098868647246901,-0.020093989824752523,0.847744356963198,0.0034086933374972792,-0.093703,-33.815465
11.185,2.0,1.0,1.0,34.2,33.2,33.2,4.2,1.6,2.6,0.5018910397381621,-0.02043152095081727,0.8523400825103581,0.003258767856104044,-0.094932,-33.684886
11.185,2.0,1.0,1.0,34.2,33.2,33.2,4.2,1.6,2.6025,0.4938001434790481,-0.020774342215106593,0.8568879585756531,0.003102272824830589,-0.096187,-33.553671
11.185,2.0,1.0,1.0,34.2,33.2,33.2,4.2,1.6,2.605,0.4856133465688472,-0.02112253273587312,0.8613864378860083,0.002938978490701901,-0.097469,-33.421805
11.185,2.0,1.0,1.0,34.2,33.2,33.2,4.2,1.6,2.6075,0.4773298203795745,-0.021476172308054507,0.8658339301833694,0.002768646422929535,-0.098778,-33.289278
11.185,2.0,1.0,1.0,34.2,33.2,33.2,4.2,1.6,2.61,0.46894873764555856,-0.021835341365202755,0.8702288010490734,0.0025910291377359562,-0.100116,-33.156075
11.185,2.0,1.0,1.0,34.2,33.2,33.2,4.2,1.6,2.6125,0.4604692731107902,-0.022200120937316926,0.874569370696981,0.002405869704031088,-0.101483,-33.022185
11.185,2.0,1.0,1.0,34.2,33.2,33.2,4.2,1.6,2.615,0.45189060421345917,-0.022570592604257943,0.8788539127344753,0.002212901328762949,-0.10288,-32.887593
11.185,2.0,1.0,1.0,34.2,33.2,33.2,4.2,1.6,2.6175,0.4432119118093835,-0.022946838444393314,0.883080652890403,0.0020118469206771646,-0.104308,-32.752287
11.185,2.0,1.0,1.0,34.2,33.2,33.2,4.2,1.6,2.62,0.4344323809361084,-0.023328940978093026,0.8872477677089778,0.001802418631124102,-0.105768,-32.616252
11.185,2.0,1.0,1.0,34.2,33.2,33.2,4.2,1.6,2.6225,0.42555120161951143,-0.023716983105663617,0.8913533832086183,0.0015843173704513061,-0.107261,-32.479474
11.185,2.0,1.0,1.0,34.2,33.2,33.2,4.2,1.6,2.625,0.416567569724873,-0.024111048039271,0.895395573504624,0.00135723229840575,-0.108788,-32.341939
11.185,2.0,1.0,1.0,34.2,33.2,33.2,4.2,1.6,2.6275,0.407480687854391,-0.024511219228364956,0.8993723593945451,0.0011208402868483458,-0.11035,-32.20363
11.185,2.0,1.0,1.0,34.2,33.2,33.2,4.2,1.6,2.63,0.39828976629325985,-0.024917580278072532,0.9032817069050237,0.0008748053529513204,-0.111947,-32.064533
11.185,2.0,1.0,1.0,34.2,33.2,33.2,4.2,1.6,2.6325,0.38899402400650057,-0.025330214859980226,0.9071215257987923,0.0006187780609029135,-0.113582,-31.924632
11.185,2.0,1.0,1.0,34.2,33.2,33.2,4.2,1.6,2.635,0.3795926896888264,-0.02574920661467121,0.910889668040444,0.00035239488998572977,-0.115255,-31.78391
11.185,2.0,1.0,1.0,34.2,33.2,33.2,4.2,1.6,2.6375,0.37008500286994234,-0.026174639045324383,0.9145839262194788,7.527756672296842e-05,-0.116968,-31.64235
11.185,2.0,1.0,1.0,34.2,33.2,33.2,4.2,1.6,2.64,0.36047021507775534,-0.0266065954016168,0.9182020319290323,-0.00021296764140406335,-0.118721,-31.499936
11.185,2.0,1.0,1.0,34.2,33.2,33.2,4.2,1.6,2.6425,0.35074759106213244,-0.027045158553097103,0.9217416540985397,-0.0005127506733698981,-0.120516,-31.356649
11.185,2.0,1.0,1.0,34.2,33.2,33.2,4.2,1.6,2.645,0.34091641008191975,-0.027490410851117086,0.9252003972784862,-0.0008244984660804299,-0.122356,-31.212471
11.185,2.0,1.0,1.0,34.2,33.2,33.2,4.2,1.6,2.6475,0.3309759672581007,-0.027942433978317346,0.9285757998752096,-0.0011486557930887684,-0.12424,-31.067383
11.185,2.0,1.0,1.0,34.2,33.2,33.2,4.2,1.6,2.65,0.32092557499606916,-0.02840130878456184,0.9318653323335632,-0.0014856861540054388,-0.12617,-30.921365
11.185,2.0,1.0,1.0,34.2,33.2,33.2,4.2,1.6,2.6525,0.31076456448021256,-0.028867115108103067,0.9350663952650281,-0.0018360727183533833,-0.128149,-30.774398
11.185,2.0,1.0,1.0,34.2,33.2,33.2,4.2,1.6,2.655,0.30049228724406457,-0.029339931580633017,0.93817631751868,-0.0022003193279537024,-0.130177,-30.626461
11.185,2.0,1.0,1.0,34.2,33.2,33.2,4.2,1.6,2.6575,0.2901081168195507,-0.029819835414733334,0.94119235419212,-0.002578951562286837,-0.132257,-30.477533
11.185,2.0,1.0,1.0,34.2,33.2,33.2,4.2,1.6,2.66,0.27961145046897795,-0.030306902172078105,0.9441116845792361,-0.002972517871678299,-0.13439,-30.32759
11.185,2.0,1.0,1.0,34.2,33.2,33.2,4.2,1.6,2.6625,0.26900171100365927,-0.030801205510563878,0.9469314100513316,-0.00338159078359715,-0.136578,-30.176612
11.185,2.0,1.0,1.0,34.2,33.2,33.2,4.2,1.6,2.665,0.2582783486932572,-0.03130281690834021,0.9496485518677985,-0.003806768187845963,-0.138824,-30.024573
11.185,2.0,1.0,1.0,34.2,33.2,33.2,4.2,1.6,2.6675,0.24744084327021734,-0.031811805362485644,0.952260048912114,-0.004248674706956557,-0.141129,-29.87145
11.185,2.0,1.0,1.0,34.2,33.2,33.2,4.2,1.6,2.67,0.2364887060338873,-0.03232823705981716,0.9547627553485087,-0.004707963158706307,-0.143496,-29.717217
11.185,2.0,1.0,1.0,34.2,33.2,33.2,4.2,1.6,2.6725,0.22542148205924226,-0.03285217501703251,0.9571534381941145,-0.00518531611832686,-0.145926,-29.561848
11.185,2.0,1.0,1.0,34.2,33.2,33.2,4.2,1.6,2.675,0.214238752515481,-0.033383678687052325,0.9594287748008419,-0.005681447588709568,-0.148423,-29.405317
11.185,2.0,1.0,1.0,34.2,33.2,33.2,4.2,1.6,2.6775,0.20294013710009137,-0.033922803528057856,0.9615853502406067,-0.006197104787725229,-0.150988,-29.247594
11.185,2.0,1.0,1.0,34.2,33.2,33.2,4.2,1.6,2.68,0.1915252965944343,-0.034469600531297336,0.963619654586759,-0.006733070062675569,-0.153625,-29.088652
11.185,2.0,1.0,1.0,34.2,33.2,33.2,4.2,1.6,2.6825,0.17999393554734133,-0.03502411570324595,0.9655280800837849,-0.0072901629428993855,-0.156337,-28.92846
11.185,2.0,1.0,1.0,34.2,33.2,33.2,4.2,1.6,2.685,0.16834580509374636,-0.035586389497162405,0.9673069181963831,-0.007869242342666985,-0.159126,-28.766986
11.185,2.0,1.0,1.0,34.2,33.2,33.2,4.2,1.6,2.6875,0.1565807059159756,-0.036156456188449565,0.9689523565279982,-0.008471208927748474,-0.161996,-28.604198
11.185,2.0,1.0,1.0,34.2,33.2,33.2,4.2,1.6,2.69,0.14469849135599325,-0.03673434318751456,0.9704604755976776,-0.009097007660418594,-0.16495,-28.440062
11.185,2.0,1.0,1.0,34.2,33.2,33.2,4.2,1.6,2.6925,0.13269907068764267,-0.03732007028300021,0.9718272454627936,-0.00974763053921968,-0.167991,-28.274543
11.185,2.0,1.0,1.0,34.2,33.2,33.2,4.2,1.6,2.695,0.12058241255885943,-0.037913648807316964,0.9730485221736364,-0.010424119551526265,-0.171124,-28.107604
11.185,2.0,1.0,1.0,34.2,33.2,33.2,4.2,1.6,2.6975,0.10834854861474863,-0.03851508071532451,0.9741200440441646,-0.011127569858903417,-0.174351,-27.939208
11.185,2.0,1.0,1.0,34.2,33.2,33.2,4.2,1.6,2.7,0.09599757731367334,-0.03912435756576532,0.9750374277212522,-0.01185913323741362,-0.177679,-27.769315
11.185,2.0,1.0,1.0,34.2,33.2,33.2,4.2,1.6,2.7025,0.08352966794973557,-0.0397414593936194,0.9757961640325495,-0.012620021797469747,-0.18111,-27.597882
11.185,2.0,1.0,1.0,34.2,33.2,33.2,4.2,1.6,2.705,0.0709450648966576,-0.04036635345989222,0.9763916135905631,-0.013411512010566538,-0.184651,-27.424867
11.185,2.0,1.0,1.0,34.2,33.2,33.2,4.2,1.6,2.7075,0.05824409208976501,-0.04099899286343326,0.9768190021277281,-0.01423494907330111,-0.188305,-27.250226
11.185,2.0,1.0,1.0,34.2,33.2,33.2,4.2,1.6,2.71,0.045427157764922434,-0.04163931499716483,0.9770734155339746,-0.015091751642558254,-0.192078,-27.07391
11.185,2.0,1.0,1.0,34.2,33.2,33.2,4.2,1.6,2.7125,0.0324947594755916,-0.04228723982852447,0.9771497945646698,-0.015983416979644054,-0.195977,-26.89587
11.185,2.0,1.0,1.0,34.2,33.2,33.2,4.2,1.6,2.715,0.01944748941206457,-0.042942667980932554,0.9770429291825546,-0.01691152654556274,-0.200007,-26.716056
11.185,2.0,1.0,1.0,34.2,33.2,33.2,4.2,1.6,2.7175,0.006286040050136098,-0.04360547858961023,0.976747452492626,-0.01787775209461157,-0.204174,-26.534413
11.185,2.0,1.0,1.0,34.2,33.2,33.2,4.2,1.6,2.72,-0.00698878983963672,-0.04427552690100116,0.9762578342234122,-0.018883862319112866,-0.208487,-26.350885
11.185,2.0,1.0,1.0,34.2,33.2,33.2,4.2,1.6,2.7225,-0.02037608878646724,-0.04495264158029616,0.9755683737019553,-0.019931730104493096,-0.212952,-26.165412
11.185,2.0,1.0,1.0,34.2,33.2,33.2,4.2,1.6,2.725,-0.033874825776728304,-0.04563662168598004,0.974673192262763,-0.02102334046116465,-0.217577,-25.977933
11.185,2.0,1.0,1.0,34.2,33.2,33.2,4.2,1.6,2.7275,-0.047483842927032956,-0.04632723326377834,0.9735662250229054,-0.022160799207907755,-0.222371,-25.788382
11.185,2.0,1.0,1.0,34.2,33.2,33.2,4.2,1.6,2.73,-0.061201847618442454,-0.04702420550467489,0.9722412119462824,-0.023346342490815245,-0.227344,-25.596692
11.185,2.0,1.0,1.0,34.2,33.2,33.2,4.2,1.6,2.7325,-0.0750274040285324,-0.0477272264025916,0.9706916881095099,-0.02458234723253346,-0.232506,-25.402789
11.185,2.0,1.0,1.0,34.2,33.2,33.2,4.2,1.6,2.735,-0.08895892398767513,-0.04843593783658606,0.9689109730698702,-0.025871342618697144,-0.237866,-25.206599
11.185,2.0,1.0,1.0,34.2,33.2,33.2,4.2,1.6,2.7375,-0.10299465707360382,-0.049149929989709386,0.9668921592219343,-0.0272160227423524,-0.243438,-25.008042
11.185,2.0,1.0,1.0,34.2,33.2,33.2,4.2,1.6,2.74,-0.1171326798436058,-0.0498687350015671,0.9646280990136268,-0.028619260543037824,-0.249234,-24.807034
11.185,2.0,1.0,1.0,34.2,33.2,33.2,4.2,1.6,2.7425,-0.13137088408625938,-0.05059181973366225,0.9621113908743509,-0.030084123195370516,-0.255267,-24.603486
11.185,2.0,1.0,1.0,34.2,33.2,33.2,4.2,1.6,2.745,-0.14570696395357438,-0.05131857750515392,0.9593343636868689,-0.03161388912281172,-0.261553,-24.397305
11.185,2.0,1.0,1.0,34.2,33.2,33.2,4.2,1.6,2.7475,-0.16013840180929173,-0.052048318631022994,0.9562890596106306,-0.033212066836168334,-0.268107,-24.188393
11.185,2.0,1.0,1.0,34.2,33.2,33.2,4.2,1.6,2.75,-0.174662452598846,-0.0527802595638674,0.952967215036617,-0.0348824158238227,-0.274947,-23.976645
11.185,2.0,1.0,1.0,34.2,33.2,33.2,4.2,1.6,2.7525,-0.1892761265099775,-0.05351351040355491,0.9493602394219024,-0.03662896975219003,-0.282093,-23.76195
11.185,2.0,1.0,1.0,34.2,33.2,33.2,4.2,1.6,2.755,-0.20397616964889714,-0.054247060494334226,0.9454591917155142,-0.038456062271156874,-0.289565,-23.544193
11.185,2.0,1.0,1.0,34.2,33.2,33.2,4.2,1.6,2.7575,-0.2187590424034619,-0.054979761775026385,0.9412547540448533,-0.04036835576096419,-0.297387,-23.32325
11.185,2.0,1.0,1.0,34.2,33.2,33.2,4.2,1.6,2.76,-0.23362089509975487,-0.055710309482434835,0.9367372022832586,-0.04237087340499911,-0.305583,-23.098988
11.185,2.0,1.0,1.0,34.2,33.2,33.2,4.2,1.6,2.7625,-0.24855754047934564,-0.05643721972841783,0.9318963730630972,-0.044469035028237264,-0.314182,-22.871269
11.185,2.0,1.0,1.0,34.2,33.2,33.2,4.2,1.6,2.765,-0.26356442242744005,-0.05715880337378189,0.9267216267340141,-0.04666869720467782,-0.323214,-22.639945
11.185,2.0,1.0,1.0,34.2,33.2,33.2,4.2,1.6,2.7675,-0.27863658026345567,-0.057873135503004304,0.9212018056914761,-0.048976198210259926,-0.332713,-22.404857
11.185,2.0,1.0,1.0,34.2,33.2,33.2,4.2,1.6,2.77,-0.29376860775916347,-0.05857801965737056,0.9153251874149525,-0.05139840848177495,-0.342715,-22.165838
11.185,2.0,1.0,1.0,34.2,33.2,33.2,4.2,1.6,2.7725,-0.30895460586907125,-0.05927094580356653,0.9090794314567407,-0.05394278733857801,-0.353264,-21.922709
11.185,2.0,1.0,1.0,34.2,33.2,33.2,4.2,1.6,2.775,-0.3241881279339416,-0.059949040791347524,0.9024515195098101,-0.05661744683396088,-0.364404,-21.67528
11.185,2.0,1.0,1.0,34.2,33.2,33.2,4.2,1.6,2.7775,-0.33946211584034364,-0.060609009776429544,0.8954276875547711,-0.05943122372826747,-0.376187,-21.423345
11.185,2.0,1.0,1.0,34.2,33.2,33.2,4.2,1.6,2.78,-0.3547688252720968,-0.06124706673886829,0.8879933489407111,-0.0623937607174458,-0.388671,-21.166688
11.185,2.0,1.0,1.0,34.2,33.2,33.2,4.2,1.6,2.7825,-0.3700997377549375,-0.06185885179437725,0.8801330070913953,-0.06551559820950426,-0.401919,-20.905076
11.185,2.0,1.0,1.0,34.2,33.2,33.2,4.2,1.6,2.785,-0.38544545664960134,-0.06243933245235405,0.8718301563470225,-0.0688082781171987,-0.416005,-20.638257
11.185,2.0,1.0,1.0,34.2,33.2,33.2,4.2,1.6,2.7875,-0.4007955835590135,-0.06298268528872034,0.8630671692539199,-0.07228446132657444,-0.43101,-20.365965
11.185,2.0,1.0,1.0,34.2,33.2,33.2,4.2,1.6,2.79,-0.41613857074201754,-0.06348215363347467,0.8538251684039676,-0.07595806070366333,-0.447026,-20.087912
11.185,2.0,1.0,1.0,34.2,33.2,33.2,4.2,1.6,2.7925,-0.43146154401488424,-0.06392987576905892,0.8440838807103748,-0.07984439170736243,-0.464159,-19.803788
11.185,2.0,1.0,1.0,34.2,33.2,33.2,4.2,1.6,2.795,-0.4467500892029302,-0.0643166767265665,0.833821471800927,-0.08396034287058898,-0.482527,-19.513262
11.185,2.0,1.0,1.0,34.2,33.2,33.2,4.2,1.6,2.7975,-0.46198799338458607,-0.06463181496074304,0.8230143580390685,-0.08832456856892323,-0.502268,-19.215975
11.185,2.0,1.0,1.0,34.2,33.2,33.2,4.2,1.6,2.8,-0.47715692982727753,-0.06486267286043824,0.8116369935879167,-0.09295770657481572,-0.523539,-18.911543
11.185,2.0,1.0,1.0,34.2,33.2,33.2,4.2,1.6,2.8025,-0.49223607248590456,-0.06499437704829249,0.7996616299791912,-0.09788262282916159,-0.54652,-18.599549
11.185,2.0,1.0,1.0,34.2,33.2,33.2,4.2,1.6,2.805,-0.5072016220053138,-0.06500933052935125,0.7870580459436519,-0.1031246855444295,-0.571421,-18.279545
11.185,2.0,1.0,1.0,34.2,33.2,33.2,4.2,1.6,2.8075,-0.5220262200528797,-0.06488663368104663,0.7737932459696056,-0.10871207001688298,-0.598486,-17.951047
11.185,2.0,1.0,1.0,34.2,33.2,33.2,4.2,1.6,2.81,-0.5366782221272324,-0.06460136446315436,0.7598311274444858,-0.1146760941063906,-0.627997,-17.613533
11.185,2.0,1.0,1.0,34.2,33.2,33.2,4.2,1.6,2.8125,-0.551120790244745,-0.064123679573052,0.74513211871472,-0.121051581828351,-0.660291,-17.266438
11.185,2.0,1.0,1.0,34.2,33.2,33.2,4.2,1.6,2.815,-0.5653107554408439,-0.06341768693267427,0.7296527946180827,-0.12787724824781838,-0.69576,-16.909153
11.185,2.0,1.0,1.0,34.2,33.2,33.2,4.2,1.6,2.8175,-0.579197184987174,-0.06244002503197688,0.7133454830152348,-0.13519609186009665,-0.734872,-16.541023
11.185,2.0,1.0,1.0,34.2,33.2,33.2,4.2,1.6,2.82,-0.5927195695368396,-0.06113806520686322,0.6961578871643254,-0.14305576930095668,-0.778185,-16.161341
11.185,2.0,1.0,1.0,34.2,33.2,33.2,4.2,1.6,2.8225,-0.6058055197381651,-0.05944762759485459,0.6780327669441537,-0.151508909067337,-0.82637,-15.769349
11.185,2.0,1.0,1.0,34.2,33.2,33.2,4.2,1.6,2.825,-0.6183678286669727,-0.057290068791205885,0.6589077508680102,-0.1606132920405585,-0.880235,-15.364238
11.185,2.0,1.0,1.0,34.2,33.2,33.2,4.2,1.6,2.8275,-0.6303007141593013,-0.05456855761460783,0.6387153967253273,-0.17043178085019448,-0.940766,-14.945147
