1,w,sub_t,h,l1,l2,l3,g1,g2,Freq,S11_re,S21_re,S11_img,S21_img,S11_dB,S21_dB
11.185,2.0,1.0,1.0,34.8,34.8,34.8,1.6,3.4,2.5,0.624557944858144,-0.0237902362974602,0.76716004033014,0.00962841488737308,-0.093916,-31.813244
11.185,2.0,1.0,1.0,34.8,34.8,34.8,1.6,3.4,2.5025,0.6175099020874903,-0.024264167733261996,0.77264949357556,0.009551501121200926,-0.095254,-31.675032
11.185,2.0,1.0,1.0,34.8,34.8,34.8,1.6,3.4,2.505,0.6103649683729857,-0.02474765632084532,0.7781079046219106,0.009468213125959461,-0.096623,-31.53605
11.185,2.0,1.0,1.0,34.8,34.8,34.8,1.6,3.4,2.5075,0.6031219964442942,-0.025240921382041565,0.7835340145380038,0.00937827395048325,-0.098025,-31.396284
11.185,2.0,1.0,1.0,34.8,34.8,34.8,1.6,3.4,2.51,0.5957798235391116,-0.025744187842035627,0.7889265229830439,0.00928139420497499,-0.09946,-31.255718
11.185,2.0,1.0,1.0,34.8,34.8,34.8,1.6,3.4,2.5125,0.5883372713397319,-0.026257686367924013,0.7942840867105686,0.009177271437237223,-0.10093,-31.114339
11.185,2.0,1.0,1.0,34.8,34.8,34.8,1.6,3.4,2.515,0.580793145921116,-0.02678165350883816,0.7996053180106242,0.009065589473497965,-0.102436,-30.972131
11.185,2.0,1.0,1.0,34.8,34.8,34.8,1.6,3.4,2.5175,0.5731462377115184,-0.027316331837382867,0.8048887830870828,0.008946017721555434,-0.103978,-30.829079
11.185,2.0,1.0,1.0,34.8,34.8,34.8,1.6,3.4,2.52,0.5653953214667901,-0.027861970092100737,0.8101330003668746,0.008818210433801842,-0.105558,-30.685166
11.185,2.0,1.0,1.0,34.8,34.8,34.8,1.6,3.4,2.5225,0.5575391562596078,-0.02841882332062306,0.8153364387376649,0.00868180592750977,-0.107178,-30.540377
11.185,2.0,1.0,1.0,34.8,34.8,34.8,1.6,3.4,2.525,0.5495764854849282,-0.02898715302311867,0.820497515710298,0.008536425759571024,-0.108838,-30.394695
11.185,2.0,1.0,1.0,34.8,34.8,34.8,1.6,3.4,2.5275,0.5415060368831057,-0.029567227295589693,0.8256145955021282,0.008381673852670794,-0.110541,-30.248103
11.185,2.0,1.0,1.0,34.8,34.8,34.8,1.6,3.4,2.53,0.533326522582235,-0.030159320972496836,0.8306859870370552,0.008217135569655665,-0.112287,-30.100583
11.185,2.0,1.0,1.0,34.8,34.8,34.8,1.6,3.4,2.5325,0.5250366391613788,-0.030763715768121622,0.8357099418578532,0.008042376732608474,-0.114078,-29.952119
11.185,2.0,1.0,1.0,34.8,34.8,34.8,1.6,3.4,2.535,0.5166350677365055,-0.0313807004159882,0.8406846519460881,0.007856942582881351,-0.115916,-29.802691
11.185,2.0,1.0,1.0,34.8,34.8,34.8,1.6,3.4,2.5375,0.5081204740711284,-0.032010570805569995,0.845608247444566,0.007660356678049863,-0.117802,-29.652281
11.185,2.0,1.0,1.0,34.8,34.8,34.8,1.6,3.4,2.54,0.4994915087137585,-0.032653630115400505,0.8504787942769834,0.007452119721442583,-0.119738,-29.50087
11.185,2.0,1.0,1.0,34.8,34.8,34.8,1.6,3.4,2.5425,0.490746807164526,-0.03331018894158535,0.8552942916590047,0.0072317083195614935,-0.121726,-29.348438
11.185,2.0,1.0,1.0,34.8,34.8,34.8,1.6,3.4,2.545,0.48188499007349433,-0.033980565420575405,0.860052669494681,0.006998573662343744,-0.123767,-29.194966
11.185,2.0,1.0,1.0,34.8,34.8,34.8,1.6,3.4,2.5475,0.4729046634734345,-0.034665085344906726,0.864751785651605,0.006752140120817152,-0.125865,-29.040432
11.185,2.0,1.0,1.0,34.8,34.8,34.8,1.6,3.4,2.55,0.46380441905005065,-0.03536408227044181,0.869389423107826,0.006491803756267947,-0.12802,-28.884815
11.185,2.0,1.0,1.0,34.8,34.8,34.8,1.6,3.4,2.5525,0.4545828344529729,-0.03607789761344559,0.8739632869629523,0.006216930734570442,-0.130235,-28.728093
11.185,2.0,1.0,1.0,34.8,34.8,34.8,1.6,3.4,2.555,0.44523847365107616,-0.03680688073561532,0.8784710013054098,0.0059268556388129365,-0.132513,-28.570245
11.185,2.0,1.0,1.0,34.8,34.8,34.8,1.6,3.4,2.5575,0.43576988733605565,-0.03755138901492986,0.8829101059271571,0.005620879672797629,-0.134855,-28.411248
11.185,2.0,1.0,1.0,34.8,34.8,34.8,1.6,3.4,2.56,0.42617561337856635,-0.0383117878999041,0.887278052876568,0.0052982687473824,-0.137264,-28.251077
11.185,2.0,1.0,1.0,34.8,34.8,34.8,1.6,3.4,2.5625,0.41645417734162554,-0.03908845094451754,0.8915722028394505,0.004958251440968104,-0.139743,-28.089708
11.185,2.0,1.0,1.0,34.8,34.8,34.8,1.6,3.4,2.565,0.40660409305644807,-0.03988175982072748,0.8957898213374372,0.004600016824709461,-0.142295,-27.927118
11.185,2.0,1.0,1.0,34.8,34.8,34.8,1.6,3.4,2.5675,0.39662386326640364,-0.04069210430507018,0.8999280747321243,0.0042227121422371726,-0.144922,-27.763279
11.185,2.0,1.0,1.0,34.8,34.8,34.8,1.6,3.4,2.57,0.3865119803453381,-0.041519882235397786,0.9039840260224595,0.003825440332811302,-0.147628,-27.598167
11.185,2.0,1.0,1.0,34.8,34.8,34.8,1.6,3.4,2.5725,0.37626692709715137,-0.04236549943327813,0.9079546304218483,0.0034072573858816915,-0.150416,-27.431753
11.185,2.0,1.0,1.0,34.8,34.8,34.8,1.6,3.4,2.575,0.36588717764423,-0.0432293695869975,0.9118367307004124,0.00296716951399454,-0.153289,-27.26401
11.185,2.0,1.0,1.0,34.8,34.8,34.8,1.6,3.4,2.5775,0.35537119841312287,-0.04411191408944075,0.9156270522766127,0.0025041301298509826,-0.15625,-27.094909
11.185,2.0,1.0,1.0,34.8,34.8,34.8,1.6,3.4,2.58,0.3447174492267695,-0.045013561824367686,0.9193221980411856,0.0020170366120829913,-0.159304,-26.924421
11.185,2.0,1.0,1.0,34.8,34.8,34.8,1.6,3.4,2.5825,0.3339243845135337,-0.0459347488937493,0.9229186428949104,0.0015047268429484182,-0.162455,-26.752515
11.185,2.0,1.0,1.0,34.8,34.8,34.8,1.6,3.4,2.585,0.32299045464449483,-0.046875918277851716,0.9264127279801898,0.0009659754996580978,-0.165707,-26.57916
11.185,2.0,1.0,1.0,34.8,34.8,34.8,1.6,3.4,2.5875,0.3119141074116452,-0.04783751941865169,0.9298006545847205,0.00039949007940669727,-0.169063,-26.404324
11.185,2.0,1.0,1.0,34.8,34.8,34.8,1.6,3.4,2.59,0.300693789661136,-0.04882000771590732,0.9330784776936736,-0.0001960933636155965,-0.17253,-26.227973
11.185,2.0,1.0,1.0,34.8,34.8,34.8,1.6,3.4,2.5925,0.2893279490972584,-0.049823843923775556,0.9362420991647661,-0.0008222147929309838,-0.176112,-26.050073
11.185,2.0,1.0,1.0,34.8,34.8,34.8,1.6,3.4,2.595,0.2778150362747447,-0.05084949343423291,0.9392872604983666,-0.0014803951020690874,-0.179814,-25.870588
11.185,2.0,1.0,1.0,34.8,34.8,34.8,1.6,3.4,2.5975,0.2661535067989672,-0.05189742543169617,0.9422095351722988,-0.002172241392705739,-0.183642,-25.689482
11.185,2.0,1.0,1.0,34.8,34.8,34.8,1.6,3.4,2.6,0.254341823755988,-0.05296811190110838,0.9450043205083445,-0.00289945264952382,-0.187601,-25.506716
11.185,2.0,1.0,1.0,34.8,34.8,34.8,1.6,3.4,2.6025,0.2423784603970923,-0.054062026469325675,0.9476668290344112,-0.0036638258455626285,-0.191699,-25.322253
11.185,2.0,1.0,1.0,34.8,34.8,34.8,1.6,3.4,2.605,0.23026190310538946,-0.055179643056859747,0.9501920793031284,-0.004467262515001842,-0.195941,-25.13605
11.185,2.0,1.0,1.0,34.8,34.8,34.8,1.6,3.4,2.6075,0.21799065467557793,-0.05632143431384215,0.9525748861239755,-0.005311775833823687,-0.200335,-24.948067
11.185,2.0,1.0,1.0,34.8,34.8,34.8,1.6,3.4,2.61,0.20556323794185655,-0.05748786981042478,0.9548098501621177,-0.006199498252651573,-0.204889,-24.758261
11.185,2.0,1.0,1.0,34.8,34.8,34.8,1.6,3.4,2.6125,0.19297819979343686,-0.05867941394763898,0.9568913468527672,-0.0071326897303095336,-0.20961,-24.566586
11.185,2.0,1.0,1.0,34.8,34.8,34.8,1.6,3.4,2.615,0.18023411562225708,-0.05989652354991701,0.9588135145750379,-0.008113746621322034,-0.214508,-24.372996
11.185,2.0,1.0,1.0,34.8,34.8,34.8,1.6,3.4,2.6175,0.16732959425336788,-0.061139645094936815,0.9605702420240334,-0.00914521127572406,-0.219591,-24.177444
11.185,2.0,1.0,1.0,34.8,34.8,34.8,1.6,3.4,2.62,0.15426328341516268,-0.06240921153006993,0.9621551547140236,-0.010229782415227675,-0.224869,-23.97988
11.185,2.0,1.0,1.0,34.8,34.8,34.8,1.6,3.4,2.6225,0.1410338758143884,-0.06370563861735147,0.9635616005391953,-0.011370326356037507,-0.230352,-23.780252
11.185,2.0,1.0,1.0,34.8,34.8,34.8,1.6,3.4,2.625,0.127640115889791,-0.0650293207403914,0.96478263431135,-0.0125698891554837,-0.236053,-23.578507
11.185,2.0,1.0,1.0,34.8,34.8,34.8,1.6,3.4,2.6275,0.1140808073284311,-0.06638062609682907,0.9658110011862099,-0.013831709767211074,-0.241982,-23.37459
11.185,2.0,1.0,1.0,34.8,34.8,34.8,1.6,3.4,2.63,0.10035482144063979,-0.06775989118855928,0.9666391188813899,-0.01515923429797623,-0.248154,-23.168444
11.185,2.0,1.0,1.0,34.8,34.8,34.8,1.6,3.4,2.6325,0.08646110650318332,-0.0691674145087853,0.9672590585797612,-0.016556131468240164,-0.254581,-22.960009
11.185,2.0,1.0,1.0,34.8,34.8,34.8,1.6,3.4,2.635,0.07239869819609701,-0.07060344930966564,0.9676625244016036,-0.018026309388760462,-0.261279,-22.749223
11.185,2.0,1.0,1.0,34.8,34.8,34.8,1.6,3.4,2.6375,0.05816673127699681,-0.0720681953165528,0.9678408313176821,-0.019573933776352064,-0.268263,-22.536022
11.185,2.0,1.0,1.0,34.8,34.8,34.8,1.6,3.4,2.64,0.043764452657964276,-0.0735617892341584,0.9677848813630656,-0.021203447743973324,-0.275551,-22.32034
11.185,2.0,1.0,1.0,34.8,34.8,34.8,1.6,3.4,2.6425,0.029191236074960044,-0.07508429386588492,0.9674851379980536,-0.022919593313341195,-0.283162,-22.102107
11.185,2.0,1.0,1.0,34.8,34.8,34.8,1.6,3.4,2.645,0.014446598568556346,-0.07663568563947235,0.9669315984479906,-0.024727434812465095,-0.291116,-21.881252
11.185,2.0,1.0,1.0,34.8,34.8,34.8,1.6,3.4,2.6475,-0.00046978097151431387,-0.07821584029926991,0.9661137638379252,-0.02663238433581727,-0.299434,-21.6577
11.185,2.0,1.0,1.0,34.8,34.8,34.8,1.6,3.4,2.65,-0.015558040906143392,-0.07982451648703705,0.9650206069210696,-0.028640229461357657,-0.30814,-21.431373
11.185,2.0,1.0,1.0,34.8,34.8,34.8,1.6,3.4,2.6525,-0.03081811325300033,-0.08146133688815904,0.9636405371817698,-0.03075716343624513,-0.317259,-21.202189
11.185,2.0,1.0,1.0,34.8,34.8,34.8,1.6,3.4,2.655,-0.04624969700720113,-0.0831257665673708,0.961961363074403,-0.03298981806175185,-0.32682,-20.970066
11.185,2.0,1.0,1.0,34.8,34.8,34.8,1.6,3.4,2.6575,-0.061852227921193215,-0.08481708805602778,0.9599702511392987,-0.035345299527439825,-0.336853,-20.734915
11.185,2.0,1.0,1.0,34.8,34.8,34.8,1.6,3.4,2.66,-0.07762484421414678,-0.086534372679972,0.9576536817157919,-0.03783122746484373,-0.347389,-20.496644
11.185,2.0,1.0,1.0,34.8,34.8,34.8,1.6,3.4,2.6625,-0.09356634759342636,-0.08827644753103547,0.9549974009512175,-0.040455777511282445,-0.358466,-20.255159
11.185,2.0,1.0,1.0,34.8,34.8,34.8,1.6,3.4,2.665,-0.10967515886746014,-0.09004185738377263,0.9519863687836203,-0.04322772769442502,-0.370123,-20.01036
11.185,2.0,1.0,1.0,34.8,34.8,34.8,1.6,3.4,2.6675,-0.12594926730723804,-0.09182882073915792,0.9486047025561093,-0.04615650896694903,-0.382401,-19.762145
11.185,2.0,1.0,1.0,34.8,34.8,34.8,1.6,3.4,2.67,-0.14238617276959173,-0.09363517903525403,0.9448356159032606,-0.04925226023687271,-0.395349,-19.510406
11.185,2.0,1.0,1.0,34.8,34.8,34.8,1.6,3.4,2.6725,-0.15898281942473114,-0.09545833789701857,0.9406613525365553,-0.05252588825115653,-0.409017,-19.255031
11.185,2.0,1.0,1.0,34.8,34.8,34.8,1.6,3.4,2.675,-0.17573551972835538,-0.09729519909848028,0.9360631145488234,-0.05598913269562153,-0.423462,-18.995902
11.185,2.0,1.0,1.0,34.8,34.8,34.8,1.6,3.4,2.6775,-0.19263986703894528,-0.09914208167448081,0.9310209848602821,-0.059654636869895535,-0.438747,-18.732899
11.185,2.0,1.0,1.0,34.8,34.8,34.8,1.6,3.4,2.68,-0.20969063499620977,-0.10099463033889733,0.9255138434453826,-0.0635360242775803,-0.454941,-18.465894
11.185,2.0,1.0,1.0,34.8,34.8,34.8,1.6,3.4,2.6825,-0.2268816614386106,-0.10284770903322443,0.9195192770162577,-0.06764798143321311,-0.472119,-18.194756
11.185,2.0,1.0,1.0,34.8,34.8,34.8,1.6,3.4,2.685,-0.24420571423615067,-0.10469527703352043,0.9130134819030363,-0.07200634712090942,-0.490367,-17.919346
11.185,2.0,1.0,1.0,34.8,34.8,34.8,1.6,3.4,2.6875,-0.2616543359370005,-0.10653024457306569,0.9059711599744296,-0.07662820823406764,-0.509777,-17.639523
11.185,2.0,1.0,1.0,34.8,34.8,34.8,1.6,3.4,2.69,-0.2792176635589671,-0.10834430437864528,0.8983654075982209,-0.08153200216684758,-0.530455,-17.355138
11.185,2.0,1.0,1.0,34.8,34.8,34.8,1.6,3.4,2.6925,-0.296884219182623,-0.11012773485382035,0.8901675978698327,-0.08673762549708292,-0.552516,-17.066036
11.185,2.0,1.0,1.0,34.8,34.8,34.8,1.6,3.4,2.695,-0.3146406662028875,-0.11186916985405546,0.8813472566638416,-0.09226654837113135,-0.576091,-16.772056
11.185,2.0,1.0,1.0,34.8,34.8,34.8,1.6,3.4,2.6975,-0.33247152514847866,-0.11355532906478,0.8718719335224946,-0.09814193353974604,-0.601325,-16.473034
11.185,2.0,1.0,1.0,34.8,34.8,34.8,1.6,3.4,2.7,-0.3503588418593581,-0.11517070189059352,0.8617070690328724,-0.10438875835462526,-0.628381,-16.168796
11.185,2.0,1.0,1.0,34.8,34.8,34.8,1.6,3.4,2.7025,-0.3682817994953843,-0.11669717646639505,0.8508158612212976,-0.11103393715730352,-0.657445,-15.859168
11.185,2.0,1.0,1.0,34.8,34.8,34.8,1.6,3.4,2.705,-0.38621626430777034,-0.11811360388312245,0.8391591346910282,-0.11810644029476337,-0.688723,-15.543965
11.185,2.0,1.0,1.0,34.8,34.8,34.8,1.6,3.4,2.7075,-0.40413425331379726,-0.11939528595781611,0.8266952178547384,-0.12563740437282703,-0.722451,-15.223002
11.185,2.0,1.0,1.0,34.8,34.8,34.8,1.6,3.4,2.71,-0.42200330995512947,-0.12051337285149702,0.8133798358090403,-0.13366022616766512,-0.758895,-14.896088
11.185,2.0,1.0,1.0,34.8,34.8,34.8,1.6,3.4,2.7125,-0.4397857714842872,-0.12143415454320622,0.7991660293518972,-0.1422106296715283,-0.79836,-14.563029
11.185,2.0,1.0,1.0,34.8,34.8,34.8,1.6,3.4,2.715,-0.45743790922888217,-0.12211822762238451,0.7840041146016118,-0.15132669180665703,-0.841192,-14.223631
11.185,2.0,1.0,1.0,34.8,34.8,34.8,1.6,3.4,2.7175,-0.47490892008669716,-0.12251951612334315,0.7678417029595032,-0.16104880708262662,-0.887788,-13.8777
11.185,2.0,1.0,1.0,34.8,34.8,34.8,1.6,3.4,2.72,-0.4921397447313175,-0.1225841223212176,0.7506238081838508,-0.17141956448459075,-0.938603,-13.525042
11.185,2.0,1.0,1.0,34.8,34.8,34.8,1.6,3.4,2.7225,-0.5090616852916455,-0.12224898077332097,0.7322930766433919,-0.18248350063512925,-0.994161,-13.165473
11.185,2.0,1.0,1.0,34.8,34.8,34.8,1.6,3.4,2.725,-0.5255947931130945,-0.12144028682807773,0.7127901890677902,-0.19428668110489486,-1.055069,-12.798816
11.185,2.0,1.0,1.0,34.8,34.8,34.8,1.6,3.4,2.7275,-0.5416459962808435,-0.12007167000216064,0.6920544981408812,-0.20687604583614114,-1.122028,-12.424908
11.185,2.0,1.0,1.0,34.8,34.8,34.8,1.6,3.4,2.73,-0.5571069379499497,-0.11804208410679494,0.6700249870848003,-0.22029843400751195,-1.195857,-12.043609
11.185,2.0,1.0,1.0,34.8,34.8,34.8,1.6,3.4,2.7325,-0.5718515018388728,-0.11523339143524582,0.6466416610902114,-0.23459917719520218,-1.277507,-11.654807
11.185,2.0,1.0,1.0,34.8,34.8,34.8,1.6,3.4,2.735,-0.5857330130183768,-0.11150763020935826,0.6218475172402105,-0.24982011621776007,-1.368095,-11.258428
11.185,2.0,1.0,1.0,34.8,34.8,34.8,1.6,3.4,2.7375,-0.5985811241116386,-0.10670397654533663,0.5955912804781167,-0.2659968555938951,-1.468932,-10.85445
11.185,2.0,1.0,1.0,34.8,34.8,34.8,1.6,3.4,2.74,-0.6101984346575158,-0.10063544984219008,0.5678311436462972,-0.2831550196658393,-1.581562,-10.442918
11.185,2.0,1.0,1.0,34.8,34.8,34.8,1.6,3.4,2.7425,-0.6203569523782446,-0.09308547135629965,0.5385398078299329,-0.3013052170285387,-1.707812,-10.023964
11.185,2.0,1.0,1.0,34.8,34.8,34.8,1.6,3.4,2.745,-0.6287945999538784,-0.0838044802177857,0.507711181731627,-0.32043635843758145,-1.849849,-9.597829
11.185,2.0,1.0,1.0,34.8,34.8,34.8,1.6,3.4,2.7475,-0.6352121133202898,-0.07250695279271449,0.4753691574158011,-0.34050691602901956,-2.010248,-9.164894
11.185,2.0,1.0,1.0,34.8,34.8,34.8,1.6,3.4,2.75,-0.639270883980628,-0.0588693763732317,0.441578918329005,-0.361433674612009,-2.192082,-8.725715
11.185,2.0,1.0,1.0,34.8,34.8,34.8,1.6,3.4,2.7525,-0.6405925857496089,-0.04253001376158018,0.406461225112019,-0.3830775377783357,-2.399022,-8.281063
11.185,2.0,1.0,1.0,34.8,34.8,34.8,1.6,3.4,2.755,-0.6387618089295084,-0.023091674183836088,0.37021001754674904,-0.40522606013186996,-2.63546,-7.831973
11.185,2.0,1.0,1.0,34.8,34.8,34.8,1.6,3.4,2.7575,-0.6333334004170358,-0.00012917593163766695,0.3331133936518881,-0.4275726548336703,-2.906658,-7.379801
11.185,2.0,1.0,1.0,34.8,34.8,34.8,1.6,3.4,2.76,-0.623846740434271,0.0267962894239269,0.29557747648554744,-0.4496929747559247,-3.218908,-6.926285
11.185,2.0,1.0,1.0,34.8,34.8,34.8,1.6,3.4,2.7625,-0.6098496733306044,0.05811320460400151,0.2581517285341152,-0.4710199111688797,-3.57972,-6.473605
11.185,2.0,1.0,1.0,34.8,34.8,34.8,1.6,3.4,2.765,-0.5909350403876431,0.09420328005421362,0.22155279932716723,-0.49082011687064064,-3.998007,-6.024447
11.185,2.0,1.0,1.0,34.8,34.8,34.8,1.6,3.4,2.7675,-0.5667923738596303,0.13535000563775285,0.1866819441412471,-0.5081769879970127,-4.484235,-5.582052
11.185,2.0,1.0,1.0,34.8,34.8,34.8,1.6,3.4,2.77,-0.5372757769355165,0.18167122978021996,0.15462858498809523,-0.5219874733791418,-5.050454,-5.150238
11.185,2.0,1.0,1.0,34.8,34.8,34.8,1.6,3.4,2.7725,-0.502485728787085,0.23303806610855302,0.12665025204718813,-0.530982370361815,-5.710036,-4.73339
11.185,2.0,1.0,1.0,34.8,34.8,34.8,1.6,3.4,2.775,-0.46285710904036353,0.28898782861783945,0.10411808857663153,-0.533780774836214,-6.476683,-4.336381
11.185,2.0,1.0,1.0,34.8,34.8,34.8,1.6,3.4,2.7775,-0.4192384516813208,0.3486458976947869,0.08841907865580623,-0.5289873465006727,-7.361774,-3.964426
11.185,2.0,1.0,1.0,34.8,34.8,34.8,1.6,3.4,2.78,-0.37294005121124785,0.41067868702666027,0.08081306826532171,-0.5153341564293464,-8.367938,-3.622839
11.185,2.0,1.0,1.0,34.8,34.8,34.8,1.6,3.4,2.7825,-0.3257246053205625,0.47330369345284723,0.08225534859680803,-0.4918562859874024,-9.474505,-3.316709
11.185,2.0,1.0,1.0,34.8,34.8,34.8,1.6,3.4,2.785,-0.27971824878259743,0.5343783710925958,0.09321210759995188,-0.45807400750591865,-10.608263,-3.05051
11.185,2.0,1.0,1.0,34.8,34.8,34.8,1.6,3.4,2.7875,-0.23723541435241957,0.5915740559920801,0.11351051013159855,-0.4141401808374073,-11.601119,-2.82769
11.185,2.0,1.0,1.0,34.8,34.8,34.8,1.6,3.4,2.79,-0.20053629201988044,0.6426160804376772,0.14226891184926985,-0.36090796515652673,-12.18566,-2.650323
11.185,2.0,1.0,1.0,34.8,34.8,34.8,1.6,3.4,2.7925,-0.17156207254917666,0.6855451828503509,0.17793909579009187,-0.29988758410126143,-12.139882,-2.518858
11.185,2.0,1.0,1.0,34.8,34.8,34.8,1.6,3.4,2.795,-0.15170770901218603,0.7189411253948378,0.21846270526171313,-0.23309035408491555,-11.503277,-2.432061
11.185,2.0,1.0,1.0,34.8,34.8,34.8,1.6,3.4,2.7975,-0.14168507484024473,0.7420564202057872,0.2615094733315481,-0.16279231692143,-10.532439,-2.38712
11.185,2.0,1.0,1.0,34.8,34.8,34.8,1.6,3.4,2.8,-0.14150239559045372,0.7548348876933639,0.3047412352311664,-0.09127299359480552,-9.47344,-2.379922
11.185,2.0,1.0,1.0,34.8,34.8,34.8,1.6,3.4,2.8025,-0.1505510426002505,0.7578241543338256,0.34604352046178954,-0.02058674221856122,-8.464542,-2.405427
11.185,2.0,1.0,1.0,34.8,34.8,34.8,1.6,3.4,2.805,-0.16776380637764518,0.7520177425609194,0.3836844200926956,0.04759362362955308,-7.560734,-2.458078
11.185,2.0,1.0,1.0,34.8,34.8,34.8,1.6,3.4,2.8075,-0.1917989281530415,0.7386719838632954,0.4163874682531969,0.11204806206833044,-6.774389,-2.532171
11.185,2.0,1.0,1.0,34.8,34.8,34.8,1.6,3.4,2.81,-0.22121069499304344,0.7191364221911677,0.4433289610990084,0.17200584094734667,-6.099932,-2.622166
11.185,2.0,1.0,1.0,34.8,34.8,34.8,1.6,3.4,2.8125,-0.25458277836392,0.69472112676815,0.464083260048193,0.227090740671486,-5.525541,-2.722899
11.185,2.0,1.0,1.0,34.8,34.8,34.8,1.6,3.4,2.815,-0.29061644424219074,0.6666085687483396,0.4785418298585098,0.27724037933840634,-5.038176,-2.829713
11.185,2.0,1.0,1.0,34.8,34.8,34.8,1.6,3.4,2.8175,-0.32817723222994566,0.6358064039372411,0.48682686707826617,0.32262023018977337,-4.625578,-2.938512
11.185,2.0,1.0,1.0,34.8,34.8,34.8,1.6,3.4,2.82,-0.36630946347417875,0.60313183696182,0.48921290016661917,0.3635454883276273,-4.276956,-3.045767
11.185,2.0,1.0,1.0,34.8,34.8,34.8,1.6,3.4,2.8225,-0.4042291704324517,0.5692170457635801,0.48606284115643444,0.4004171110617089,-3.983112,-3.14848
11.185,2.0,1.0,1.0,34.8,34.8,34.8,1.6,3.4,2.825,-0.44130465898344085,0.5345265254904716,0.4777800245613197,0.43367346301449466,-3.736355,-3.244129
11.185,2.0,1.0,1.0,34.8,34.8,34.8,1.6,3.4,2.8275,-0.4770315376577818,0.4993795658381819,0.46477490597942284,0.4637561588415256,-3.530331,-3.330613
11.185,2.0,1.0,1.0,34.8,34.8,34.8,1.6,3.4,2.83,-0.511006681269493,0.46397341908842404,0.4474438412772551,0.49108744548342886,-3.359847,-3.40618
