1,w,sub_t,h,l1,l2,l3,g1,g2,Freq,S11_re,S21_re,S11_img,S21_img,S11_dB,S21_dB
11.185,2.0,1.0,1.0,34.5,33.2,33.2,2.4,3.1,2.5,0.699946552154744,-0.0138419565797125,0.702618628724957,0.00658871984073675,-0.071823,-36.289118
11.185,2.0,1.0,1.0,34.5,33.2,33.2,2.4,3.1,2.5025,0.694166711986199,-0.014081914438431316,0.7082045136132386,0.006552307825588872,-0.072605,-36.175632
11.185,2.0,1.0,1.0,34.5,33.2,33.2,2.4,3.1,2.505,0.6883106485389586,-0.01432546332854638,0.713771518243235,0.006512951498614209,-0.073399,-36.061837
11.185,2.0,1.0,1.0,34.5,33.2,33.2,2.4,3.1,2.5075,0.6823776201896095,-0.01457264976613867,0.7193188745655813,0.006470553683223622,-0.074205,-35.947729
11.185,2.0,1.0,1.0,34.5,33.2,33.2,2.4,3.1,2.51,0.6763668786777656,-0.01482352050087881,0.724845792967545,0.006425014163334558,-0.075023,-35.833303
11.185,2.0,1.0,1.0,34.5,33.2,33.2,2.4,3.1,2.5125,0.6702776692169881,-0.01507812248915065,0.7303514616799037,0.0063762295845687,-0.075855,-35.718554
11.185,2.0,1.0,1.0,34.5,33.2,33.2,2.4,3.1,2.515,0.6641092306173195,-0.015336502864972245,0.7358350461685194,0.006324093352198751,-0.0767,-35.603477
11.185,2.0,1.0,1.0,34.5,33.2,33.2,2.4,3.1,2.5175,0.6578607954200825,-0.015598708908580708,0.7412956885102671,0.006268495525741737,-0.077558,-35.488067
11.185,2.0,1.0,1.0,34.5,33.2,33.2,2.4,3.1,2.52,0.6515315900455814,-0.015864788012541604,0.7467325067530226,0.0062093227100939305,-0.07843,-35.37232
11.185,2.0,1.0,1.0,34.5,33.2,33.2,2.4,3.1,2.5225,0.6451208349544225,-0.016134787645234863,0.7521445942593564,0.006146457943099258,-0.079317,-35.25623
11.185,2.0,1.0,1.0,34.5,33.2,33.2,2.4,3.1,2.525,0.6386277448231568,-0.01640875531156284,0.7575310190336393,0.006079780579440852,-0.080218,-35.139792
11.185,2.0,1.0,1.0,34.5,33.2,33.2,2.4,3.1,2.5275,0.6320515287350045,-0.016686738510715112,0.7628908230322275,0.006009166170741747,-0.081134,-35.023002
11.185,2.0,1.0,1.0,34.5,33.2,33.2,2.4,3.1,2.53,0.6253913903864602,-0.016968784690817477,0.7682230214564069,0.005934486341759,-0.082066,-34.905854
11.185,2.0,1.0,1.0,34.5,33.2,33.2,2.4,3.1,2.5325,0.6186465283105966,-0.017254941200283008,0.7735266020277816,0.005855608662551717,-0.083014,-34.788343
11.185,2.0,1.0,1.0,34.5,33.2,33.2,2.4,3.1,2.535,0.6118161361179285,-0.017545255235671846,0.7788005242457994,0.005772396516501229,-0.083977,-34.670463
11.185,2.0,1.0,1.0,34.5,33.2,33.2,2.4,3.1,2.5375,0.6048994027557507,-0.01783977378585705,0.784043718627095,0.005684708964058671,-0.084958,-34.55221
11.185,2.0,1.0,1.0,34.5,33.2,33.2,2.4,3.1,2.54,0.5978955127868789,-0.018138543572282645,0.789255085926351,0.005592400602092421,-0.085955,-34.433578
11.185,2.0,1.0,1.0,34.5,33.2,33.2,2.4,3.1,2.5425,0.5908036466887835,-0.018441610985087592,0.794433496338382,0.00549532141870485,-0.08697,-34.314562
11.185,2.0,1.0,1.0,34.5,33.2,33.2,2.4,3.1,2.545,0.5836229811741442,-0.018749022014858334,0.7995777886811477,0.005393316643385695,-0.088003,-34.195156
11.185,2.0,1.0,1.0,34.5,33.2,33.2,2.4,3.1,2.5475,0.5763526895339028,-0.01906082217975821,0.8046867695594053,0.005286226592365781,-0.089055,-34.075355
11.185,2.0,1.0,1.0,34.5,33.2,33.2,2.4,3.1,2.55,0.5689919420039168,-0.01937705644777058,0.809759212508745,0.005173886509032664,-0.090125,-33.955154
11.185,2.0,1.0,1.0,34.5,33.2,33.2,2.4,3.1,2.5525,0.5615399061564115,-0.019697769153774893,0.8147938571197246,0.005056126399267594,-0.091215,-33.834546
11.185,2.0,1.0,1.0,34.5,33.2,33.2,2.4,3.1,2.555,0.5539957473174222,-0.02002300391116406,0.8197894081418704,0.00493277086155932,-0.092324,-33.713527
11.185,2.0,1.0,1.0,34.5,33.2,33.2,2.4,3.1,2.5575,0.5463586290115093,-0.02035280351769207,0.8247445345673053,0.004803638911749035,-0.093454,-33.59209
11.185,2.0,1.0,1.0,34.5,33.2,33.2,2.4,3.1,2.56,0.5386277134350763,-0.02068720985522596,0.8296578686937753,0.004668543802257973,-0.094605,-33.470231
11.185,2.0,1.0,1.0,34.5,33.2,33.2,2.4,3.1,2.5625,0.5308021619596677,-0.021026263783058545,0.8345280051668823,0.004527292835646805,-0.095777,-33.347942
11.185,2.0,1.0,1.0,34.5,33.2,33.2,2.4,3.1,2.565,0.5228811356666814,-0.02137000502441929,0.8393535000013364,0.004379687172353838,-0.096971,-33.225219
11.185,2.0,1.0,1.0,34.5,33.2,33.2,2.4,3.1,2.5675,0.5148637959150172,-0.021718472045801365,0.8441328695810643,0.004225521632457418,-0.098188,-33.102056
11.185,2.0,1.0,1.0,34.5,33.2,33.2,2.4,3.1,2.57,0.5067493049431997,-0.02207170192870392,0.8488645896380388,0.004064584491305797,-0.099428,-32.978445
11.185,2.0,1.0,1.0,34.5,33.2,33.2,2.4,3.1,2.5725,0.49853682650761966,-0.022429730233364063,0.8535470942097181,0.0038966572688557016,-0.100692,-32.854383
11.185,2.0,1.0,1.0,34.5,33.2,33.2,2.4,3.1,2.575,0.4902255265585838,-0.02279259085403457,0.8581787745750146,0.003721514512560908,-0.10198,-32.729862
11.185,2.0,1.0,1.0,34.5,33.2,33.2,2.4,3.1,2.5775,0.4818145739559385,-0.023160315865334822,0.8627579781687352,0.0035389235736487095,-0.103293,-32.604876
11.185,2.0,1.0,1.0,34.5,33.2,33.2,2.4,3.1,2.58,0.4733031412261049,-0.02353293535918206,0.8672830074744817,0.0033486443766238545,-0.104631,-32.47942
11.185,2.0,1.0,1.0,34.5,33.2,33.2,2.4,3.1,2.5825,0.4646904053624282,-0.023910477271779775,0.871752118896032,0.0031504291818361518,-0.105996,-32.353486
11.185,2.0,1.0,1.0,34.5,33.2,33.2,2.4,3.1,2.585,0.45597554867083473,-0.0242929672001153,0.8761635216072606,0.0029440223409501463,-0.107388,-32.22707
11.185,2.0,1.0,1.0,34.5,33.2,33.2,2.4,3.1,2.5875,0.44715775966285076,-0.024680428207387334,0.8805153763807042,0.0027291600451533117,-0.108808,-32.100163
11.185,2.0,1.0,1.0,34.5,33.2,33.2,2.4,3.1,2.59,0.4382362339981375,-0.02507288061675531,0.8848057943949258,0.0025055700659411587,-0.110255,-31.972761
11.185,2.0,1.0,1.0,34.5,33.2,33.2,2.4,3.1,2.5925,0.4292101754787577,-0.02547034179276793,0.8890328360208813,0.0022729714883168877,-0.111733,-31.844855
11.185,2.0,1.0,1.0,34.5,33.2,33.2,2.4,3.1,2.595,0.42007879709750584,-0.025872825909796917,0.8931945095875434,0.0020310744362465353,-0.11324,-31.716441
11.185,2.0,1.0,1.0,34.5,33.2,33.2,2.4,3.1,2.5975,0.410841322142676,-0.02628034370676358,0.8972887701271096,0.0017795797902096819,-0.114777,-31.587511
11.185,2.0,1.0,1.0,34.5,33.2,33.2,2.4,3.1,2.6,0.40149698536177725,-0.026692902227410924,0.9013135181001752,0.001518178896690647,-0.116347,-31.458058
11.185,2.0,1.0,1.0,34.5,33.2,33.2,2.4,3.1,2.6025,0.3920450341867817,-0.027110504545331066,0.9052665981013145,0.0012465532694561849,-0.117948,-31.328076
11.185,2.0,1.0,1.0,34.5,33.2,33.2,2.4,3.1,2.605,0.3824847300235665,-0.02753314947291945,0.9091457975456158,0.0009643742824697229,-0.119583,-31.197557
11.185,2.0,1.0,1.0,34.5,33.2,33.2,2.4,3.1,2.6075,0.37281534960834073,-0.027960831253381224,0.9129488453367601,0.0006713028542963441,-0.121252,-31.066496
11.185,2.0,1.0,1.0,34.5,33.2,33.2,2.4,3.1,2.61,0.36303618643393415,-0.02839353923486876,0.9166734105173366,0.0003669891238576,-0.122956,-30.934884
11.185,2.0,1.0,1.0,34.5,33.2,33.2,2.4,3.1,2.6125,0.3531465522489133,-0.028831257525782635,0.9203171009021853,5.107211740024756e-05,-0.124696,-30.802715
11.185,2.0,1.0,1.0,34.5,33.2,33.2,2.4,3.1,2.615,0.34314577863261353,-0.029273964630215317,0.9238774616956407,-0.00027682059344987664,-0.126472,-30.669981
11.185,2.0,1.0,1.0,34.5,33.2,33.2,2.4,3.1,2.6175,0.3330332186492801,-0.029721633062462047,0.9273519740936564,-0.0006170732426711619,-0.128287,-30.536675
11.185,2.0,1.0,1.0,34.5,33.2,33.2,2.4,3.1,2.62,0.32280824858460994,-0.03017422893946954,0.9307380538719057,-0.00097008222997987,-0.130141,-30.40279
11.185,2.0,1.0,1.0,34.5,33.2,33.2,2.4,3.1,2.6225,0.3124702697680959,-0.030631711550029462,0.9340330499610735,-0.0013362564902195252,-0.132035,-30.268318
11.185,2.0,1.0,1.0,34.5,33.2,33.2,2.4,3.1,2.625,0.302018710484716,-0.0310940328994623,0.937234243010659,-0.00171601787209957,-0.133969,-30.133252
11.185,2.0,1.0,1.0,34.5,33.2,33.2,2.4,3.1,2.6275,0.29145302797957134,-0.03156113722847059,0.9403388439427782,-0.0021098015263672472,-0.135947,-29.997583
11.185,2.0,1.0,1.0,34.5,33.2,33.2,2.4,3.1,2.63,0.2807727105592506,-0.032032960504768435,0.9433439924975501,-0.0025180563034827423,-0.137967,-29.861305
11.185,2.0,1.0,1.0,34.5,33.2,33.2,2.4,3.1,2.6325,0.2699772797937725,-0.032509429886021284,0.9462467557718441,-0.002941245160854846,-0.140032,-29.724409
11.185,2.0,1.0,1.0,34.5,33.2,33.2,2.4,3.1,2.635,0.25906629282310284,-0.03299046315255013,0.9490441267532854,-0.003379845579678761,-0.142143,-29.586886
11.185,2.0,1.0,1.0,34.5,33.2,33.2,2.4,3.1,2.6375,0.24803934477236325,-0.03347596810817126,0.9517330228516062,-0.003834349991401106,-0.144302,-29.44873
11.185,2.0,1.0,1.0,34.5,33.2,33.2,2.4,3.1,2.64,0.23689607127993698,-0.03396584194745634,0.9543102844296024,-0.004305266213820621,-0.146508,-29.309932
11.185,2.0,1.0,1.0,34.5,33.2,33.2,2.4,3.1,2.6425,0.22563615114285665,-0.03445997058760106,0.9567726733361235,-0.004793117896811309,-0.148765,-29.170483
11.185,2.0,1.0,1.0,34.5,33.2,33.2,2.4,3.1,2.645,0.21425930908393073,-0.034958227962995726,0.9591168714437488,-0.005298444977635578,-0.151073,-29.030375
11.185,2.0,1.0,1.0,34.5,33.2,33.2,2.4,3.1,2.6475,0.20276531864523012,-0.035460475280483156,0.9613394791939783,-0.005821804145791061,-0.153434,-28.889598
11.185,2.0,1.0,1.0,34.5,33.2,33.2,2.4,3.1,2.65,0.19115400521263556,-0.035966560233182315,0.9634370141530054,-0.006363769317311293,-0.155849,-28.748145
11.185,2.0,1.0,1.0,34.5,33.2,33.2,2.4,3.1,2.6525,0.17942524917634614,-0.03647631617063356,0.9654059095813486,-0.006924932118411277,-0.15832,-28.606007
11.185,2.0,1.0,1.0,34.5,33.2,33.2,2.4,3.1,2.655,0.16757898923228295,-0.0369895612228997,0.967242513020876,-0.007505902378344584,-0.160848,-28.463174
11.185,2.0,1.0,1.0,34.5,33.2,33.2,2.4,3.1,2.6575,0.15561522582952972,-0.037506097376123766,0.9689430849029812,-0.008107308631303923,-0.163436,-28.319636
11.185,2.0,1.0,1.0,34.5,33.2,33.2,2.4,3.1,2.66,0.14353402476902724,-0.03802570949690028,0.9705037971819599,-0.008729798627167221,-0.166085,-28.175386
11.185,2.0,1.0,1.0,34.5,33.2,33.2,2.4,3.1,2.6625,0.1313355209589007,-0.038548164302667165,0.9719207319978772,-0.009374039850854027,-0.168796,-28.030412
11.185,2.0,1.0,1.0,34.5,33.2,33.2,2.4,3.1,2.665,0.11901992233188428,-0.039073209275165395,0.9731898803735293,-0.0100407200500223,-0.171572,-27.884705
11.185,2.0,1.0,1.0,34.5,33.2,33.2,2.4,3.1,2.6675,0.10658751393048993,-0.03960057151383635,0.9743071409503785,-0.010730547770791984,-0.174415,-27.738256
11.185,2.0,1.0,1.0,34.5,33.2,33.2,2.4,3.1,2.67,0.09403866216563886,-0.04012995652584813,0.9752683187686587,-0.011444252901142631,-0.177326,-27.591054
11.185,2.0,1.0,1.0,34.5,33.2,33.2,2.4,3.1,2.6725,0.08137381925463028,-0.040661046949239305,0.9760691240971698,-0.012182587221585222,-0.180308,-27.443088
11.185,2.0,1.0,1.0,34.5,33.2,33.2,2.4,3.1,2.675,0.0685935278444531,-0.04119350120545797,0.9767051713186078,-0.012946324962659532,-0.183363,-27.294348
11.185,2.0,1.0,1.0,34.5,33.2,33.2,2.4,3.1,2.6775,0.055698425826556826,-0.041726952077345995,0.9771719778766264,-0.013736263368758115,-0.186493,-27.144824
11.185,2.0,1.0,1.0,34.5,33.2,33.2,2.4,3.1,2.68,0.04268925134933432,-0.04226100520837072,0.9774649632911742,-0.014553223267722813,-0.1897,-26.994504
11.185,2.0,1.0,1.0,34.5,33.2,33.2,2.4,3.1,2.6825,0.029566848034711303,-0.042795237518642906,0.9775794482490405,-0.015398049645600124,-0.192988,-26.843377
11.185,2.0,1.0,1.0,34.5,33.2,33.2,2.4,3.1,2.685,0.01633217040534157,-0.04332919553297147,0.9775106537768947,-0.016271612225882442,-0.196358,-26.691431
11.185,2.0,1.0,1.0,34.5,33.2,33.2,2.4,3.1,2.6875,0.002986289529061499,-0.04386239361589653,0.977253700504516,-0.01717480605249306,-0.199813,-26.538655
11.185,2.0,1.0,1.0,34.5,33.2,33.2,2.4,3.1,2.69,-0.0104696011125746,-0.044394312108305085,0.9768036080263175,-0.018108552075703273,-0.203356,-26.385036
11.185,2.0,1.0,1.0,34.5,33.2,33.2,2.4,3.1,2.6925,-0.024034179524803134,-0.044924395359870424,0.9761552943696499,-0.01907379774009684,-0.20699,-26.230562
11.185,2.0,1.0,1.0,34.5,33.2,33.2,2.4,3.1,2.695,-0.03770598886203852,-0.04545204965115653,0.9753035755788397,-0.020071517573610566,-0.210717,-26.075221
11.185,2.0,1.0,1.0,34.5,33.2,33.2,2.4,3.1,2.6975,-0.051483430844960806,-0.04597664099879872,0.9742431654243091,-0.02110271377660068,-0.214542,-25.918998
11.185,2.0,1.0,1.0,34.5,33.2,33.2,2.4,3.1,2.7,-0.06536475892482049,-0.046497492836698434,0.9729686752465921,-0.022168416809784066,-0.218466,-25.761882
11.185,2.0,1.0,1.0,34.5,33.2,33.2,2.4,3.1,2.7025,-0.07934807118738664,-0.047013883565653385,0.9714746139455019,-0.02326968597980868,-0.222494,-25.603857
11.185,2.0,1.0,1.0,34.5,33.2,33.2,2.4,3.1,2.705,-0.09343130298868338,-0.047525043963279334,0.9697553881251701,-0.02440761002109345,-0.226629,-25.444911
11.185,2.0,1.0,1.0,34.5,33.2,33.2,2.4,3.1,2.7075,-0.10761221931449275,-0.048030154445459286,0.9678053024061395,-0.025583307672463133,-0.230875,-25.285027
11.185,2.0,1.0,1.0,34.5,33.2,33.2,2.4,3.1,2.71,-0.12188840685527993,-0.048528342169873444,0.965618559916172,-0.026797928246970068,-0.235235,-25.124192
11.185,2.0,1.0,1.0,34.5,33.2,33.2,2.4,3.1,2.7125,-0.13625726578796601,-0.04901867797141251,0.9631892629719098,-0.028052652193154847,-0.239713,-24.96239
11.185,2.0,1.0,1.0,34.5,33.2,33.2,2.4,3.1,2.715,-0.15071600125559803,-0.04950017311845051,0.9605114139640264,-0.029348691645837536,-0.244315,-24.799604
11.185,2.0,1.0,1.0,34.5,33.2,33.2,2.4,3.1,2.7175,-0.16526161453560548,-0.04997177587803695,0.9575789164589805,-0.030687290964356843,-0.249044,-24.635819
11.185,2.0,1.0,1.0,34.5,33.2,33.2,2.4,3.1,2.72,-0.17989089388687396,-0.05043236787705978,0.9543855765310134,-0.032069727255976184,-0.253904,-24.471018
11.185,2.0,1.0,1.0,34.5,33.2,33.2,2.4,3.1,2.7225,-0.19460040506540888,-0.050880760245308874,0.9509251043385137,-0.03349731088195865,-0.258901,-24.305182
11.185,2.0,1.0,1.0,34.5,33.2,33.2,2.4,3.1,2.725,-0.20938648149768818,-0.051315689525128924,0.9471911159594186,-0.034971385943555235,-0.26404,-24.138294
11.185,2.0,1.0,1.0,34.5,33.2,33.2,2.4,3.1,2.7275,-0.2242452141002271,-0.05173581333097214,0.9431771355008258,-0.03649333074487599,-0.269327,-23.970335
11.185,2.0,1.0,1.0,34.5,33.2,33.2,2.4,3.1,2.73,-0.2391724407329851,-0.0521397057406252,0.9388765974985572,-0.038064558229277366,-0.274765,-23.801286
11.185,2.0,1.0,1.0,34.5,33.2,33.2,2.4,3.1,2.7325,-0.2541637352733858,-0.052525852398180944,0.9342828496229542,-0.03968651638553332,-0.280363,-23.631126
11.185,2.0,1.0,1.0,34.5,33.2,33.2,2.4,3.1,2.735,-0.2692143962966109,-0.052892645306917056,0.9293891557077949,-0.04136068861961722,-0.286125,-23.459835
11.185,2.0,1.0,1.0,34.5,33.2,33.2,2.4,3.1,2.7375,-0.284319435346593,-0.053238377288124986,0.9241886991197965,-0.043088594087424534,-0.292059,-23.28739
11.185,2.0,1.0,1.0,34.5,33.2,33.2,2.4,3.1,2.74,-0.29947356478064235,-0.05356123607955412,0.9186745864868661,-0.04487178798317419,-0.298171,-23.11377
11.185,2.0,1.0,1.0,34.5,33.2,33.2,2.4,3.1,2.7425,-0.31467118516898834,-0.05385929804448758,0.9128398518039038,-0.04671186177754585,-0.304469,-22.938951
11.185,2.0,1.0,1.0,34.5,33.2,33.2,2.4,3.1,2.745,-0.3299063722284892,-0.054130521459492924,0.9066774609357792,-0.0486104433988007,-0.310959,-22.762908
11.185,2.0,1.0,1.0,34.5,33.2,33.2,2.4,3.1,2.7475,-0.3451728632675151,-0.05437273934556212,0.9001803165378924,-0.05056919734918676,-0.317651,-22.585617
11.185,2.0,1.0,1.0,34.5,33.2,33.2,2.4,3.1,2.75,-0.360464043116314,-0.0545836518036296,0.893341263415705,-0.0525898247478115,-0.324553,-22.407051
11.185,2.0,1.0,1.0,34.5,33.2,33.2,2.4,3.1,2.7525,-0.3757729295141077,-0.05476081781126551,0.8861530943456789,-0.05467406328984105,-0.331674,-22.227182
11.185,2.0,1.0,1.0,34.5,33.2,33.2,2.4,3.1,2.755,-0.3910921579205725,-0.054901646432640075,0.878608556381312,-0.056823687110313784,-0.339024,-22.045982
11.185,2.0,1.0,1.0,34.5,33.2,33.2,2.4,3.1,2.7575,-0.406413965715281,-0.05500338738857737,0.8707003576693507,-0.05904050653900548,-0.346612,-21.86342
11.185,2.0,1.0,1.0,34.5,33.2,33.2,2.4,3.1,2.76,-0.42173017574383764,-0.05506312092756731,0.8624211748030245,-0.06132636773055823,-0.35445,-21.679467
11.185,2.0,1.0,1.0,34.5,33.2,33.2,2.4,3.1,2.7625,-0.43703217916403386,-0.055077746931928365,0.853763660741066,-0.06368315215146915,-0.362549,-21.494088
11.185,2.0,1.0,1.0,34.5,33.2,33.2,2.4,3.1,2.765,-0.45231091753895736,-0.05504397318578139,0.8447204533237515,-0.06611277590239137,-0.370921,-21.30725
11.185,2.0,1.0,1.0,34.5,33.2,33.2,2.4,3.1,2.7675,-0.4675568641167075,-0.05495830272302151,0.8352841844200364,-0.06861718885046941,-0.37958,-21.118917
11.185,2.0,1.0,1.0,34.5,33.2,33.2,2.4,3.1,2.77,-0.4827600042280474,-0.05481702016392346,0.825447489743351,-0.07119837354197905,-0.388539,-20.929051
11.185,2.0,1.0,1.0,34.5,33.2,33.2,2.4,3.1,2.7725,-0.4979098147236371,-0.05461617693824055,0.8152030193778335,-0.07385834386021586,-0.397813,-20.737614
11.185,2.0,1.0,1.0,34.5,33.2,33.2,2.4,3.1,2.775,-0.51299524236153,-0.05435157528051759,0.8045434490618875,-0.07659914338722683,-0.407419,-20.544565
11.185,2.0,1.0,1.0,34.5,33.2,33.2,2.4,3.1,2.7775,-0.5280046810429183,-0.054018750869627055,0.7934614922821568,-0.07942284342037874,-0.417372,-20.349859
11.185,2.0,1.0,1.0,34.5,33.2,33.2,2.4,3.1,2.78,-0.5429259477797167,-0.053612953969078544,0.7819499132385521,-0.0823315405856734,-0.427691,-20.153453
11.185,2.0,1.0,1.0,34.5,33.2,33.2,2.4,3.1,2.7825,-0.5577462572609452,-0.05312912890719356,0.7700015407501887,-0.08532735397882936,-0.438396,-19.955298
11.185,2.0,1.0,1.0,34.5,33.2,33.2,2.4,3.1,2.785,-0.5724521948661009,-0.052561891716530314,0.7576092831832004,-0.08841242175213518,-0.449508,-19.755345
11.185,2.0,1.0,1.0,34.5,33.2,33.2,2.4,3.1,2.7875,-0.5870296879520255,-0.051905505729707965,0.7447661444951249,-0.09158889704944013,-0.461048,-19.553541
11.185,2.0,1.0,1.0,34.5,33.2,33.2,2.4,3.1,2.79,-0.601463975215302,-0.05115385490366115,0.7314652415069838,-0.09485894317292728,-0.473042,-19.349832
11.185,2.0,1.0,1.0,34.5,33.2,33.2,2.4,3.1,2.7925,-0.6157395739041881,-0.05030041461603233,0.717699822534496,-0.09822472784280907,-0.485516,-19.144159
11.185,2.0,1.0,1.0,34.5,33.2,33.2,2.4,3.1,2.795,-0.6298402446223172,-0.049338219645437865,0.7034632875342672,-0.10168841638408009,-0.498498,-18.936461
11.185,2.0,1.0,1.0,34.5,33.2,33.2,2.4,3.1,2.7975,-0.6437489534302286,-0.048259829011316355,0.6887492099507768,-0.10525216364195114,-0.512017,-18.726674
11.185,2.0,1.0,1.0,34.5,33.2,33.2,2.4,3.1,2.8,-0.6574478309099206,-0.047057287308462085,0.6735513604862459,-0.10891810438851175,-0.526108,-18.514732
11.185,2.0,1.0,1.0,34.5,33.2,33.2,2.4,3.1,2.8025,-0.6709181278111883,-0.04572208212566991,0.657863733059689,-0.11268834193605139,-0.540807,-18.300562
11.185,2.0,1.0,1.0,34.5,33.2,33.2,2.4,3.1,2.805,-0.6841401668461844,-0.044245097086577034,0.6416805732753121,-0.1165649346156731,-0.556152,-18.084089
11.185,2.0,1.0,1.0,34.5,33.2,33.2,2.4,3.1,2.8075,-0.697093290139651,-0.04261655999320714,0.6249964097858449,-0.12054987971127788,-0.572186,-17.865236
11.185,2.0,1.0,1.0,34.5,33.2,33.2,2.4,3.1,2.81,-0.7097558017759601,-0.0408259854882849,0.6078060890161356,-0.12464509435613481,-0.588955,-17.643918
11.185,2.0,1.0,1.0,34.5,33.2,33.2,2.4,3.1,2.8125,-0.7221049048098326,-0.03886211158051361,0.5901048138095244,-0.12885239279899796,-0.606509,-17.420047
11.185,2.0,1.0,1.0,34.5,33.2,33.2,2.4,3.1,2.815,-0.7341166320248558,-0.03671282929713769,0.5718881866777508,-0.1331734593253049,-0.624905,-17.193533
11.185,2.0,1.0,1.0,34.5,33.2,33.2,2.4,3.1,2.8175,-0.7457657696320307,-0.03436510463980846,0.5531522584795148,-0.13760981597169153,-0.644202,-16.964277
11.185,2.0,1.0,1.0,34.5,33.2,33.2,2.4,3.1,2.82,-0.7570257729993873,-0.031804891922799644,0.533893583528855,-0.14216278399320117,-0.664467,-16.732176
11.185,2.0,1.0,1.0,34.5,33.2,33.2,2.4,3.1,2.8225,-0.7678686733931203,-0.029017037467023356,0.51410928234945,-0.14683343782507444,-0.685774,-16.497123
11.185,2.0,1.0,1.0,34.5,33.2,33.2,2.4,3.1,2.825,-0.7782649745911909,-0.02598517250964012,0.4937971135535906,-0.15162255001622177,-0.708203,-16.259003
11.185,2.0,1.0,1.0,34.5,33.2,33.2,2.4,3.1,2.8275,-0.7881835381032071,-0.022691594068622045,0.47295555664571043,-0.15653052528871866,-0.731843,-16.017697
