1,w,sub_t,h,l1,l2,l3,g1,g2,Freq,S11_re,S21_re,S11_img,S21_img,S11_dB,S21_dB
11.185,2.0,1.0,1.0,33.8,33.0,33.0,3.8,2.2,2.5,0.81136528211109,-0.00784676300940705,0.573748160150231,0.00549003314120814,-0.054626,-40.375731
11.185,2.0,1.0,1.0,33.8,33.0,33.0,3.8,2.2,2.5025,0.8073146019599726,-0.007992328304473367,0.5793357316483093,0.005498268117328854,-0.055127,-40.263722
11.185,2.0,1.0,1.0,33.8,33.0,33.0,3.8,2.2,2.505,0.8032071674361553,-0.008140195843131635,0.5849183057165789,0.005505403975072927,-0.055635,-40.151476
11.185,2.0,1.0,1.0,33.8,33.0,33.0,3.8,2.2,2.5075,0.7990424386438457,-0.008290402884813057,0.5904955369044885,0.005511401944937599,-0.056152,-40.038986
11.185,2.0,1.0,1.0,33.8,33.0,33.0,3.8,2.2,2.51,0.79481986842512,-0.008442987373475215,0.5960670699207686,0.005516222009716611,-0.056676,-39.926246
11.185,2.0,1.0,1.0,33.8,33.0,33.0,3.8,2.2,2.5125,0.7905389022948006,-0.008597987949910535,0.6016325393431823,0.005519822860527893,-0.057209,-39.813251
11.185,2.0,1.0,1.0,33.8,33.0,33.0,3.8,2.2,2.515,0.7861989783767381,-0.008755443964177111,0.6071915693198274,0.0055221618511537614,-0.057751,-39.699994
11.185,2.0,1.0,1.0,33.8,33.0,33.0,3.8,2.2,2.5175,0.7817995273416477,-0.008915395488144658,0.6127437732617245,0.005523194950622894,-0.058301,-39.58647
11.185,2.0,1.0,1.0,33.8,33.0,33.0,3.8,2.2,2.52,0.7773399723466402,-0.009077883328149178,0.6182887535264554,0.005522876693960025,-0.05886,-39.472671
11.185,2.0,1.0,1.0,33.8,33.0,33.0,3.8,2.2,2.5225,0.7728197289766228,-0.009242949037747855,0.6238261010925636,0.0055211601310254385,-0.059428,-39.358592
11.185,2.0,1.0,1.0,33.8,33.0,33.0,3.8,2.2,2.525,0.7682382051877218,-0.009410634930565645,0.6293553952244691,0.005517996773363486,-0.060006,-39.244226
11.185,2.0,1.0,1.0,33.8,33.0,33.0,3.8,2.2,2.5275,0.7635948012529119,-0.009580984093224073,0.6348762031276068,0.005513336538974475,-0.060593,-39.129567
11.185,2.0,1.0,1.0,33.8,33.0,33.0,3.8,2.2,2.53,0.7588889097100389,-0.00975404039834121,0.6403880795935023,0.005507127694921359,-0.06119,-39.014609
11.185,2.0,1.0,1.0,33.8,33.0,33.0,3.8,2.2,2.5325,0.7541199153124332,-0.0099298485175915,0.6458905666344925,0.005499316797677481,-0.061797,-38.899345
11.185,2.0,1.0,1.0,33.8,33.0,33.0,3.8,2.2,2.535,0.7492871949823177,-0.010108453934812682,0.6513831931077934,0.005489848631117393,-0.062414,-38.783769
11.185,2.0,1.0,1.0,33.8,33.0,33.0,3.8,2.2,2.5375,0.7443901177672368,-0.010289902959145572,0.6568654743285876,0.005478666142048408,-0.063042,-38.667873
11.185,2.0,1.0,1.0,33.8,33.0,33.0,3.8,2.2,2.54,0.7394280447997307,-0.010474242738191917,0.6623369116718302,0.0054657103731749765,-0.06368,-38.551651
11.185,2.0,1.0,1.0,33.8,33.0,33.0,3.8,2.2,2.5425,0.7344003292604999,-0.010661521271173416,0.6677969921624313,0.005450920393383275,-0.06433,-38.435097
11.185,2.0,1.0,1.0,33.8,33.0,33.0,3.8,2.2,2.545,0.729306316345317,-0.010851787422074098,0.6732451880534819,0.005434233225227064,-0.064991,-38.318203
11.185,2.0,1.0,1.0,33.8,33.0,33.0,3.8,2.2,2.5475,0.7241453432359578,-0.01104509093274617,0.6786809563921665,0.005415583769490807,-0.065663,-38.200963
11.185,2.0,1.0,1.0,33.8,33.0,33.0,3.8,2.2,2.55,0.7189167390754272,-0.01124148243595852,0.6841037385730259,0.005394904726699636,-0.066347,-38.083369
11.185,2.0,1.0,1.0,33.8,33.0,33.0,3.8,2.2,2.5525,0.7136198249477917,-0.011441013468364182,0.689512959878168,0.0053721265154383765,-0.067043,-37.965414
11.185,2.0,1.0,1.0,33.8,33.0,33.0,3.8,2.2,2.555,0.7082539138629215,-0.011643736483361998,0.6949080290040827,0.005347177187336409,-0.067751,-37.847091
11.185,2.0,1.0,1.0,33.8,33.0,33.0,3.8,2.2,2.5575,0.7028183107464752,-0.011849704863825672,0.7002883375746529,0.005319982338566349,-0.068472,-37.728393
11.185,2.0,1.0,1.0,33.8,33.0,33.0,3.8,2.2,2.56,0.6973123124354804,-0.012058972934670304,0.7056532596399685,0.005290465017697578,-0.069206,-37.609313
11.185,2.0,1.0,1.0,33.8,33.0,33.0,3.8,2.2,2.5625,0.6917352076798717,-0.01227159597522477,0.7110021511605269,0.005258545629737523,-0.069953,-37.489842
11.185,2.0,1.0,1.0,33.8,33.0,33.0,3.8,2.2,2.565,0.6860862771503667,-0.012487630231376147,0.7163343494764117,0.0052241418361841435,-0.070714,-37.369973
11.185,2.0,1.0,1.0,33.8,33.0,33.0,3.8,2.2,2.5675,0.680364793453095,-0.012707132927448177,0.7216491727609993,0.005187168450904819,-0.071489,-37.249699
11.185,2.0,1.0,1.0,33.8,33.0,33.0,3.8,2.2,2.57,0.674570021151395,-0.012930162277774567,0.7269459194587603,0.0051475373316462875,-0.072278,-37.129012
11.185,2.0,1.0,1.0,33.8,33.0,33.0,3.8,2.2,2.5725,0.6687012167952269,-0.013156777497923195,0.7322238677066962,0.0051051572669705446,-0.073082,-37.007904
11.185,2.0,1.0,1.0,33.8,33.0,33.0,3.8,2.2,2.575,0.6627576289586736,-0.013387038815525278,0.737482274738938,0.005059933858399896,-0.0739,-36.886367
11.185,2.0,1.0,1.0,33.8,33.0,33.0,3.8,2.2,2.5775,0.6567384982860188,-0.013621007480658363,0.7427203762740276,0.005011769397543641,-0.074734,-36.764392
11.185,2.0,1.0,1.0,33.8,33.0,33.0,3.8,2.2,2.58,0.650643057546924,-0.013858745775729315,0.7479373858843799,0.004960562737965548,-0.075584,-36.641972
11.185,2.0,1.0,1.0,33.8,33.0,33.0,3.8,2.2,2.5825,0.6444705317012395,-0.014100317024798715,0.7531324943474268,0.004906209161539012,-0.07645,-36.519097
11.185,2.0,1.0,1.0,33.8,33.0,33.0,3.8,2.2,2.585,0.6382201379740285,-0.014345785602283527,0.7583048689779067,0.004848600239021604,-0.077332,-36.395761
11.185,2.0,1.0,1.0,33.8,33.0,33.0,3.8,2.2,2.5875,0.6318910859413926,-0.014595216940969904,0.7634536529407745,0.0047876236845675445,-0.078231,-36.271953
11.185,2.0,1.0,1.0,33.8,33.0,33.0,3.8,2.2,2.59,0.6254825776277391,-0.014848677539262885,0.7685779645441662,0.0047231632038790255,-0.079148,-36.147665
11.185,2.0,1.0,1.0,33.8,33.0,33.0,3.8,2.2,2.5925,0.6189938076151322,-0.015106234967594289,0.7736768965118624,0.004655098335681582,-0.080083,-36.022889
11.185,2.0,1.0,1.0,33.8,33.0,33.0,3.8,2.2,2.595,0.6124239631654433,-0.015367957873902906,0.7787495152346564,0.00458330428619058,-0.081035,-35.897614
11.185,2.0,1.0,1.0,33.8,33.0,33.0,3.8,2.2,2.5975,0.605772224355999,-0.015633915988096173,0.7837948600000335,0.0045076517562162525,-0.082007,-35.771833
11.185,2.0,1.0,1.0,33.8,33.0,33.0,3.8,2.2,2.6,0.5990377642295046,-0.015904180125394102,0.7888119421995472,0.004428006760534858,-0.082998,-35.645535
11.185,2.0,1.0,1.0,33.8,33.0,33.0,3.8,2.2,2.6025,0.5922197489590432,-0.016178822188448724,0.7937997445132463,0.004344230439131538,-0.084008,-35.518711
11.185,2.0,1.0,1.0,33.8,33.0,33.0,3.8,2.2,2.605,0.5853173380289705,-0.016457915168124698,0.7987572200705172,0.004256178859896875,-0.085039,-35.391352
11.185,2.0,1.0,1.0,33.8,33.0,33.0,3.8,2.2,2.6075,0.578329684432601,-0.016741533142817476,0.803683291586658,0.004163702812334871,-0.086091,-35.263447
11.185,2.0,1.0,1.0,33.8,33.0,33.0,3.8,2.2,2.61,0.5712559348875966,-0.017029751276174787,0.8085768504744997,0.004066647591812959,-0.087164,-35.134986
11.185,2.0,1.0,1.0,33.8,33.0,33.0,3.8,2.2,2.6125,0.5640952300700264,-0.01732264581307911,0.8134367559303655,0.003964852773856538,-0.088259,-35.00596
11.185,2.0,1.0,1.0,33.8,33.0,33.0,3.8,2.2,2.615,0.5568467048680981,-0.017620294073734933,0.8182618339936373,0.0038581519779595295,-0.089376,-34.876357
11.185,2.0,1.0,1.0,33.8,33.0,33.0,3.8,2.2,2.6175,0.5495094886566413,-0.017922774445694376,0.8230508765791731,0.003746372620350838,-0.090517,-34.746168
11.185,2.0,1.0,1.0,33.8,33.0,33.0,3.8,2.2,2.62,0.5420827055934347,-0.01823016637364016,0.8278026404818049,0.0036293356551203113,-0.091681,-34.615381
11.185,2.0,1.0,1.0,33.8,33.0,33.0,3.8,2.2,2.6225,0.5345654749385486,-0.018542550346732047,0.8325158463521171,0.0035068553030714253,-0.09287,-34.483985
11.185,2.0,1.0,1.0,33.8,33.0,33.0,3.8,2.2,2.625,0.526956911397933,-0.0188600078833057,0.837189177642673,0.00337873876762684,-0.094084,-34.35197
11.185,2.0,1.0,1.0,33.8,33.0,33.0,3.8,2.2,2.6275,0.519256125492511,-0.01918262151269799,0.8418212795238531,0.0032447859370699876,-0.095324,-34.219323
11.185,2.0,1.0,1.0,33.8,33.0,33.0,3.8,2.2,2.63,0.511462223954136,-0.019510474753952668,0.8464107577684136,0.003104789072359504,-0.09659,-34.086033
11.185,2.0,1.0,1.0,33.8,33.0,33.0,3.8,2.2,2.6325,0.5035743101498042,-0.019843652091142194,0.8509561776038631,0.0029585324797029708,-0.097884,-33.952088
11.185,2.0,1.0,1.0,33.8,33.0,33.0,3.8,2.2,2.635,0.4955914845356065,-0.02018223894501875,0.8554560625317161,0.0028057921670224454,-0.099206,-33.817476
11.185,2.0,1.0,1.0,33.8,33.0,33.0,3.8,2.2,2.6375,0.48751284514195775,-0.02052632164068411,0.8599088931126491,0.002646335483387037,-0.100556,-33.682185
11.185,2.0,1.0,1.0,33.8,33.0,33.0,3.8,2.2,2.64,0.4793374880917119,-0.020875987370944087,0.8643131057165536,0.0024799207404239934,-0.101937,-33.546201
11.185,2.0,1.0,1.0,33.8,33.0,33.0,3.8,2.2,2.6425,0.4710645081528756,-0.021231324154982804,0.8686670912364377,0.0023062968146531433,-0.103347,-33.409512
11.185,2.0,1.0,1.0,33.8,33.0,33.0,3.8,2.2,2.645,0.462692999327681,-0.02159242079196384,0.8729691937650881,0.0021252027296165777,-0.10479,-33.272105
11.185,2.0,1.0,1.0,33.8,33.0,33.0,3.8,2.2,2.6475,0.4542220554798937,-0.02195936680913107,0.8772177092333586,0.0019363672165963325,-0.106265,-33.133965
11.185,2.0,1.0,1.0,33.8,33.0,33.0,3.8,2.2,2.65,0.44565077100228795,-0.02233225240394664,0.8814108840089178,0.0017395082526275969,-0.107773,-32.99508
11.185,2.0,1.0,1.0,33.8,33.0,33.0,3.8,2.2,2.6525,0.4369782415263706,-0.022711168379761906,0.8855469134542054,0.0015343325744238854,-0.109316,-32.855434
11.185,2.0,1.0,1.0,33.8,33.0,33.0,3.8,2.2,2.655,0.428203564676464,-0.023096206074476294,0.8896239404423324,0.0013205351667290458,-0.110894,-32.715013
11.185,2.0,1.0,1.0,33.8,33.0,33.0,3.8,2.2,2.6575,0.41932584087042885,-0.023487457281589626,0.8936400538295637,0.001097798723504462,-0.112508,-32.573803
11.185,2.0,1.0,1.0,33.8,33.0,33.0,3.8,2.2,2.66,0.4103441741693718,-0.023885014163001442,0.8975932868829805,0.0008657930802412694,-0.114161,-32.431787
11.185,2.0,1.0,1.0,33.8,33.0,33.0,3.8,2.2,2.6625,0.40125767317884176,-0.024288969152853303,0.9014816156618292,0.0006241746155610744,-0.115852,-32.288951
11.185,2.0,1.0,1.0,33.8,33.0,33.0,3.8,2.2,2.665,0.3920654520040901,-0.024699414851647845,0.9053029573510036,0.00037258562012871697,-0.117583,-32.145279
11.185,2.0,1.0,1.0,33.8,33.0,33.0,3.8,2.2,2.6675,0.3827666312621662,-0.02511644390980666,0.9090551685450001,0.00011065363075205691,-0.119355,-32.000753
11.185,2.0,1.0,1.0,33.8,33.0,33.0,3.8,2.2,2.67,0.3733603391536987,-0.025540148899754263,0.9127360434806053,-0.00016200927262194375,-0.121171,-31.855357
11.185,2.0,1.0,1.0,33.8,33.0,33.0,3.8,2.2,2.6725,0.3638457125973971,-0.02597062217552973,0.9163433122164687,-0.00044580720948275595,-0.12303,-31.709073
11.185,2.0,1.0,1.0,33.8,33.0,33.0,3.8,2.2,2.675,0.35422189843045926,-0.026407955718833337,0.9198746387575849,-0.0007411612835663395,-0.124935,-31.561885
11.185,2.0,1.0,1.0,33.8,33.0,33.0,3.8,2.2,2.6775,0.3444880546782304,-0.026852240970313006,0.9233276191225975,-0.0010485104127750126,-0.126887,-31.413773
11.185,2.0,1.0,1.0,33.8,33.0,33.0,3.8,2.2,2.68,0.33464335189664135,-0.02730356864477995,0.9266997793516827,-0.0013683122073138128,-0.128887,-31.264718
11.185,2.0,1.0,1.0,33.8,33.0,33.0,3.8,2.2,2.6825,0.32468697459115786,-0.027762028528914805,0.9299885734526169,-0.0017010438994038153,-0.130938,-31.114702
11.185,2.0,1.0,1.0,33.8,33.0,33.0,3.8,2.2,2.685,0.31461812271615336,-0.028227709259885415,0.9331913812824588,-0.0020472033282096613,-0.133041,-30.963704
11.185,2.0,1.0,1.0,33.8,33.0,33.0,3.8,2.2,2.6875,0.3044360132588631,-0.028700698083138996,0.9363055063620769,-0.0024073099839221485,-0.135197,-30.811704
11.185,2.0,1.0,1.0,33.8,33.0,33.0,3.8,2.2,2.69,0.2941398819123126,-0.029181080587456037,0.9393281736205344,-0.002781906115269041,-0.137409,-30.658681
11.185,2.0,1.0,1.0,33.8,33.0,33.0,3.8,2.2,2.6925,0.2837289848418414,-0.029668940415159533,0.9422565270661125,-0.0031715579050927635,-0.139679,-30.504613
11.185,2.0,1.0,1.0,33.8,33.0,33.0,3.8,2.2,2.695,0.27320260055018214,-0.030164358945151907,0.945087627380458,-0.003576856719031963,-0.142008,-30.349477
11.185,2.0,1.0,1.0,33.8,33.0,33.0,3.8,2.2,2.6975,0.2625600318462813,-0.03066741494621217,0.9478184494320674,-0.003998420432787713,-0.144399,-30.193251
11.185,2.0,1.0,1.0,33.8,33.0,33.0,3.8,2.2,2.7,0.25180060792345615,-0.03117818419770897,0.9504458797049521,-0.004436894843933608,-0.146854,-30.035911
11.185,2.0,1.0,1.0,33.8,33.0,33.0,3.8,2.2,2.7025,0.24092368655277413,-0.03169673907458193,0.952966713637972,-0.004892955174767519,-0.149376,-29.877432
11.185,2.0,1.0,1.0,33.8,33.0,33.0,3.8,2.2,2.705,0.2299286563979941,-0.032223148093098675,0.9553776528698831,-0.005367307673285067,-0.151966,-29.717789
11.185,2.0,1.0,1.0,33.8,33.0,33.0,3.8,2.2,2.7075,0.2188149394587993,-0.032757475413509374,0.9576753023846731,-0.005860691320004149,-0.154628,-29.556955
11.185,2.0,1.0,1.0,33.8,33.0,33.0,3.8,2.2,2.71,0.20758199364956512,-0.0332997802952857,0.9598561675512297,-0.006373879649085109,-0.157364,-29.394904
11.185,2.0,1.0,1.0,33.8,33.0,33.0,3.8,2.2,2.7125,0.19622931552140735,-0.03385011650014111,0.9619166510507695,-0.006907682692978533,-0.160178,-29.231607
11.185,2.0,1.0,1.0,33.8,33.0,33.0,3.8,2.2,2.715,0.1847564431358693,-0.034408531637476376,0.9638530496847967,-0.00746294906070791,-0.163071,-29.067035
11.185,2.0,1.0,1.0,33.8,33.0,33.0,3.8,2.2,2.7175,0.17316295909924032,-0.034975066446268056,0.9656615510555867,-0.008040568160859796,-0.166048,-28.901158
11.185,2.0,1.0,1.0,33.8,33.0,33.0,3.8,2.2,2.72,0.161448493767261,-0.035549754006709684,0.9673382301103456,-0.008641472581425906,-0.169112,-28.733946
11.185,2.0,1.0,1.0,33.8,33.0,33.0,3.8,2.2,2.7225,0.14961272863073666,-0.03613261887411303,0.9688790455392292,-0.009266640639830164,-0.172266,-28.565365
11.185,2.0,1.0,1.0,33.8,33.0,33.0,3.8,2.2,2.725,0.13765539989357947,-0.036723676126662025,0.9702798360163238,-0.009917099117789999,-0.175515,-28.395383
11.185,2.0,1.0,1.0,33.8,33.0,33.0,3.8,2.2,2.7275,0.1255763022557495,-0.0373229303175785,0.9715363162714751,-0.010593926197133742,-0.178861,-28.223964
11.185,2.0,1.0,1.0,33.8,33.0,33.0,3.8,2.2,2.73,0.11337529291482103,-0.03793037432107108,0.9726440729794704,-0.01129825461431714,-0.18231,-28.051073
11.185,2.0,1.0,1.0,33.8,33.0,33.0,3.8,2.2,2.7325,0.101052295801161,-0.038545988060095515,0.9735985604515378,-0.0120312750532082,-0.185866,-27.876673
11.185,2.0,1.0,1.0,33.8,33.0,33.0,3.8,2.2,2.735,0.08860730606327571,-0.039169737102407925,0.974395096112374,-0.012794239797725497,-0.189533,-27.700723
11.185,2.0,1.0,1.0,33.8,33.0,33.0,3.8,2.2,2.7375,0.07604039482155482,-0.03980157110963089,0.9750288557439365,-0.01358846666817767,-0.193316,-27.523184
11.185,2.0,1.0,1.0,33.8,33.0,33.0,3.8,2.2,2.74,0.06335171421065712,-0.0404414221220262,0.9754948684750216,-0.014415343267672206,-0.197222,-27.344014
11.185,2.0,1.0,1.0,33.8,33.0,33.0,3.8,2.2,2.7425,0.05054150273299088,-0.041089202659345445,0.9757880114931158,-0.01527633156778127,-0.201255,-27.163169
11.185,2.0,1.0,1.0,33.8,33.0,33.0,3.8,2.2,2.745,0.037610090948373205,-0.0417448036154535,0.9759030044521835,-0.016172972865806372,-0.205421,-26.980603
11.185,2.0,1.0,1.0,33.8,33.0,33.0,3.8,2.2,2.7475,0.024557907527909362,-0.042408091921337716,0.9758344035468272,-0.017106893149516522,-0.209728,-26.796268
11.185,2.0,1.0,1.0,33.8,33.0,33.0,3.8,2.2,2.75,0.0113854857035856,-0.0430789079475576,0.975576595219629,-0.0180798089091973,-0.214181,-26.610116
11.185,2.0,1.0,1.0,33.8,33.0,33.0,3.8,2.2,2.7525,-0.001906529850952747,-0.04375706261307122,0.9751237894643616,-0.019093533441290545,-0.218788,-26.422093
11.185,2.0,1.0,1.0,33.8,33.0,33.0,3.8,2.2,2.755,-0.015317375668328838,-0.044442334162604166,0.9744700126831135,-0.020149983692897454,-0.223558,-26.232145
11.185,2.0,1.0,1.0,33.8,33.0,33.0,3.8,2.2,2.7575,-0.028846161618648537,-0.045134464569190964,0.9736091000500781,-0.021251187702033804,-0.228497,-26.040217
11.185,2.0,1.0,1.0,33.8,33.0,33.0,3.8,2.2,2.76,-0.04249186247223981,-0.04583315551207121,0.9725346873288048,-0.022399292694833515,-0.233615,-25.846249
11.185,2.0,1.0,1.0,33.8,33.0,33.0,3.8,2.2,2.7625,-0.056253308834961,-0.046538063872619405,0.9712402020829216,-0.02359657390801629,-0.238922,-25.650178
11.185,2.0,1.0,1.0,33.8,33.0,33.0,3.8,2.2,2.765,-0.07012917738849891,-0.04724879668221422,0.9697188542126712,-0.024845444212942658,-0.244429,-25.45194
11.185,2.0,1.0,1.0,33.8,33.0,33.0,3.8,2.2,2.7675,-0.08411798035812103,-0.047964905445695136,0.967963625740884,-0.026148464626620734,-0.250145,-25.251467
11.185,2.0,1.0,1.0,33.8,33.0,33.0,3.8,2.2,2.77,-0.09821805411857115,-0.0486858797520208,0.9659672597621501,-0.027508355805230592,-0.256083,-25.048687
11.185,2.0,1.0,1.0,33.8,33.0,33.0,3.8,2.2,2.7725,-0.1124275468349408,-0.049411140069602864,0.9637222484577306,-0.028928010627246335,-0.262256,-24.843526
11.185,2.0,1.0,1.0,33.8,33.0,33.0,3.8,2.2,2.775,-0.12674440501901016,-0.05014002960713972,0.9612208200660384,-0.03041050798625176,-0.268677,-24.635904
11.185,2.0,1.0,1.0,33.8,33.0,33.0,3.8,2.2,2.7775,-0.14116635886221648,-0.050871805101116115,0.9584549246840992,-0.0319591279282469,-0.275362,-24.425738
11.185,2.0,1.0,1.0,33.8,33.0,33.0,3.8,2.2,2.78,-0.15569090618349565,-0.051605626367885606,0.955416218759016,-0.033577368284868604,-0.282327,-24.212943
11.185,2.0,1.0,1.0,33.8,33.0,33.0,3.8,2.2,2.7825,-0.17031529480296545,-0.05234054443067627,0.95209604810992,-0.035268962972729204,-0.289589,-23.997426
11.185,2.0,1.0,1.0,33.8,33.0,33.0,3.8,2.2,2.785,-0.18503650312006517,-0.05307548799908987,0.9484854292998306,-0.037037902150318644,-0.297168,-23.77909
11.185,2.0,1.0,1.0,33.8,33.0,33.0,3.8,2.2,2.7875,-0.19985121863593117,-0.05380924803960677,0.944575029153034,-0.03888845444788482,-0.305084,-23.557833
11.185,2.0,1.0,1.0,33.8,33.0,33.0,3.8,2.2,2.79,-0.21475581411354433,-0.05454046012896026,0.9403551421866158,-0.040825191512779205,-0.31336,-23.333549
11.185,2.0,1.0,1.0,33.8,33.0,33.0,3.8,2.2,2.7925,-0.2297463210135107,-0.0552675842263681,0.935815665694346,-0.042853015143247165,-0.32202,-23.106124
11.185,2.0,1.0,1.0,33.8,33.0,33.0,3.8,2.2,2.795,-0.24481839977653608,-0.05598888143351744,0.9309460721867887,-0.044977187317959764,-0.331093,-22.875437
11.185,2.0,1.0,1.0,33.8,33.0,33.0,3.8,2.2,2.7975,-0.2599673064429454,-0.05670238723041144,0.9257353788529441,-0.0472033634670685,-0.340607,-22.641363
11.185,2.0,1.0,1.0,33.8,33.0,33.0,3.8,2.2,2.8,-0.2751878550021979,-0.057405880577649414,0.9201721136655246,-0.049537629373614285,-0.350595,-22.403766
11.185,2.0,1.0,1.0,33.8,33.0,33.0,3.8,2.2,2.8025,-0.29047437474712534,-0.05809684815761264,0.9142442777038524,-0.051986542142008874,-0.361093,-22.162504
11.185,2.0,1.0,1.0,33.8,33.0,33.0,3.8,2.2,2.805,-0.3058206617639517,-0.05877244288362091,0.9079393032150874,-0.05455717572325452,-0.372141,-21.917427
11.185,2.0,1.0,1.0,33.8,33.0,33.0,3.8,2.2,2.8075,-0.3212199235140616,-0.05942943563148123,0.9012440068760416,-0.057257171544612524,-0.383782,-21.668375
11.185,2.0,1.0,1.0,33.8,33.0,33.0,3.8,2.2,2.81,-0.33666471524936253,-0.0600641589345274,0.894144537654455,-0.0600947948542956,-0.396065,-21.415177
11.185,2.0,1.0,1.0,33.8,33.0,33.0,3.8,2.2,2.8125,-0.3521468667405248,-0.060672441121883997,0.8866263186010623,-0.06307899745871551,-0.409044,-21.157653
11.185,2.0,1.0,1.0,33.8,33.0,33.0,3.8,2.2,2.815,-0.36765739747458875,-0.061249529058500354,0.8786739818334627,-0.06621948759945058,-0.422778,-20.89561
11.185,2.0,1.0,1.0,33.8,33.0,33.0,3.8,2.2,2.8175,-0.38318641808012854,-0.06178999724954654,0.8702712959023122,-0.06952680778685706,-0.437336,-20.628845
11.185,2.0,1.0,1.0,33.8,33.0,33.0,3.8,2.2,2.82,-0.398723015245477,-0.06228764058214479,0.8614010846638511,-0.07301242147301959,-0.452791,-20.357138
11.185,2.0,1.0,1.0,33.8,33.0,33.0,3.8,2.2,2.8225,-0.41425511678402616,-0.06273534737007673,0.8520451367268014,-0.076688809501987,-0.469229,-20.080258
11.185,2.0,1.0,1.0,33.8,33.0,33.0,3.8,2.2,2.825,-0.42976933273953594,-0.06312494861143936,0.8421841045065047,-0.08056957730987284,-0.486743,-19.797956
11.185,2.0,1.0,1.0,33.8,33.0,33.0,3.8,2.2,2.8275,-0.4452507674741999,-0.06344703842613955,0.8317973919201345,-0.08466957384614661,-0.505441,-19.509967
