1,w,sub_t,h,l1,l2,l3,g1,g2,Freq,S11_re,S21_re,S11_img,S21_img,S11_dB,S21_dB
11.185,2.0,1.0,1.0,33.0,33.0,33.0,1.5,2.0,2.5,0.895708424060404,-0.0107591046846792,0.429013410139946,0.0142915401760859,-0.059707,-34.948413
11.185,2.0,1.0,1.0,33.0,33.0,33.0,1.5,2.0,2.5025,0.8928883364967736,-0.011011059740516313,0.4346945347325735,0.014412404952076465,-0.060311,-34.828558
11.185,2.0,1.0,1.0,33.0,33.0,33.0,1.5,2.0,2.505,0.8900192932383617,-0.011268213293985455,0.44038036037408046,0.014533509372246253,-0.060926,-34.708321
11.185,2.0,1.0,1.0,33.0,33.0,33.0,1.5,2.0,2.5075,0.8871007657106349,-0.011530683478037186,0.44607074192034246,0.014654824814204766,-0.061553,-34.587696
11.185,2.0,1.0,1.0,33.0,33.0,33.0,1.5,2.0,2.51,0.8841322154058655,-0.0117985916365561,0.45176552882198445,0.014776321097926436,-0.062192,-34.466676
11.185,2.0,1.0,1.0,33.0,33.0,33.0,1.5,2.0,2.5125,0.8811130936633088,-0.012072062427148795,0.45746456491357695,0.014897966409315372,-0.062843,-34.345252
11.185,2.0,1.0,1.0,33.0,33.0,33.0,1.5,2.0,2.515,0.8780428414437613,-0.012351223927622862,0.46316768819447096,0.015019727219826676,-0.063506,-34.223417
11.185,2.0,1.0,1.0,33.0,33.0,33.0,1.5,2.0,2.5175,0.8749208890983524,-0.01263620774629985,0.46887473060088936,0.015141568201927389,-0.064183,-34.101165
11.185,2.0,1.0,1.0,33.0,33.0,33.0,1.5,2.0,2.52,0.871746656131387,-0.012927149136312162,0.47458551776890345,0.015263452140167284,-0.064872,-33.978486
11.185,2.0,1.0,1.0,33.0,33.0,33.0,1.5,2.0,2.5225,0.8685195509570824,-0.013224187114039106,0.480299868787865,0.015385339837613126,-0.065575,-33.855375
11.185,2.0,1.0,1.0,33.0,33.0,33.0,1.5,2.0,2.525,0.8652389706500037,-0.013527464581844523,0.4860175959438829,0.015507190017390149,-0.066292,-33.731822
11.185,2.0,1.0,1.0,33.0,33.0,33.0,1.5,2.0,2.5275,0.8619043006890252,-0.013837128455284429,0.49173850445288975,0.015628959219054495,-0.067023,-33.60782
11.185,2.0,1.0,1.0,33.0,33.0,33.0,1.5,2.0,2.53,0.858514914694625,-0.0141533297949602,0.4974623921828179,0.015750601689505483,-0.067769,-33.483361
11.185,2.0,1.0,1.0,33.0,33.0,33.0,1.5,2.0,2.5325,0.8550701741593146,-0.014476223943199718,0.5031890493643935,0.01587206926812986,-0.06853,-33.358437
11.185,2.0,1.0,1.0,33.0,33.0,33.0,1.5,2.0,2.535,0.8515694281710023,-0.01480597066575757,0.5089182582900249,0.015993311265848822,-0.069306,-33.233039
11.185,2.0,1.0,1.0,33.0,33.0,33.0,1.5,2.0,2.5375,0.8480120131290895,-0.015142734298730705,0.5146497930002275,0.01611427433772033,-0.070099,-33.107158
11.185,2.0,1.0,1.0,33.0,33.0,33.0,1.5,2.0,2.54,0.8443972524530738,-0.015486683900896869,0.5203834189570107,0.016234902348726855,-0.070907,-32.980787
11.185,2.0,1.0,1.0,33.0,33.0,33.0,1.5,2.0,2.5425,0.8407244562834484,-0.01583799341168928,0.526118892703612,0.01635513623235594,-0.071732,-32.853915
11.185,2.0,1.0,1.0,33.0,33.0,33.0,1.5,2.0,2.545,0.8369929211746642,-0.016196841815030692,0.5318559615099397,0.01647491384155634,-0.072575,-32.726536
11.185,2.0,1.0,1.0,33.0,33.0,33.0,1.5,2.0,2.5475,0.8332019297799256,-0.01656341330925854,0.5375943630030311,0.016594169791625556,-0.073435,-32.598639
11.185,2.0,1.0,1.0,33.0,33.0,33.0,1.5,2.0,2.55,0.829350750527574,-0.01693789748338252,0.5433338247818345,0.016712835294558335,-0.074313,-32.470215
11.185,2.0,1.0,1.0,33.0,33.0,33.0,1.5,2.0,2.5525,0.8254386372888183,-0.017320489499925158,0.5490740640155299,0.01683083798435306,-0.07521,-32.341255
11.185,2.0,1.0,1.0,33.0,33.0,33.0,1.5,2.0,2.555,0.8214648290365492,-0.0177113902846055,0.5548147870246163,0.016948101732743713,-0.076127,-32.21175
11.185,2.0,1.0,1.0,33.0,33.0,33.0,1.5,2.0,2.5575,0.8174285494949812,-0.0181108067231382,0.5605556888439185,0.017064546454788592,-0.077063,-32.08169
11.185,2.0,1.0,1.0,33.0,33.0,33.0,1.5,2.0,2.56,0.8133290067798519,-0.018518951865427607,0.5662964527666172,0.017180087903711203,-0.07802,-31.951065
11.185,2.0,1.0,1.0,33.0,33.0,33.0,1.5,2.0,2.5625,0.8091653930289013,-0.01893604513745036,0.5720367498683753,0.017294637454350118,-0.078997,-31.819865
11.185,2.0,1.0,1.0,33.0,33.0,33.0,1.5,2.0,2.565,0.8049368840223441,-0.019362312561129986,0.5777762385105654,0.017408101874530405,-0.079996,-31.68808
11.185,2.0,1.0,1.0,33.0,33.0,33.0,1.5,2.0,2.5675,0.8006426387930525,-0.019797986982517293,0.5835145638215502,0.01752038308362649,-0.081018,-31.5557
11.185,2.0,1.0,1.0,33.0,33.0,33.0,1.5,2.0,2.57,0.7962817992261435,-0.02024330830860478,0.5892513571549092,0.017631377897537163,-0.082062,-31.422714
11.185,2.0,1.0,1.0,33.0,33.0,33.0,1.5,2.0,2.5725,0.7918534896476644,-0.020698523753112773,0.5949862355234427,0.017740977759240835,-0.08313,-31.289111
11.185,2.0,1.0,1.0,33.0,33.0,33.0,1.5,2.0,2.575,0.7873568164020682,-0.021163888091599806,0.60071880100771,0.017849068454044395,-0.084223,-31.154882
11.185,2.0,1.0,1.0,33.0,33.0,33.0,1.5,2.0,2.5775,0.7827908674181567,-0.02163966392625862,0.6064486401377885,0.017955529808580135,-0.08534,-31.020014
11.185,2.0,1.0,1.0,33.0,33.0,33.0,1.5,2.0,2.58,0.7781547117631655,-0.022126121960776422,0.6121753232468611,0.018060235372539535,-0.086484,-30.884496
11.185,2.0,1.0,1.0,33.0,33.0,33.0,1.5,2.0,2.5825,0.7734473991846554,-0.022623541285647825,0.6178984037951654,0.018163052082065156,-0.087654,-30.748318
11.185,2.0,1.0,1.0,33.0,33.0,33.0,1.5,2.0,2.585,0.7686679596398752,-0.02313220967434238,0.623617417662727,0.01826383990364839,-0.088851,-30.611467
11.185,2.0,1.0,1.0,33.0,33.0,33.0,1.5,2.0,2.5875,0.7638154028122439,-0.023652423890742527,0.6293318824092393,0.01836245145730065,-0.090077,-30.473931
11.185,2.0,1.0,1.0,33.0,33.0,33.0,1.5,2.0,2.59,0.7588887176146112,-0.024184490008280112,0.6350412964993049,0.018458731617680614,-0.091332,-30.335699
11.185,2.0,1.0,1.0,33.0,33.0,33.0,1.5,2.0,2.5925,0.753886871678934,-0.024728723741213363,0.6407451384911976,0.018552517091769426,-0.092618,-30.196758
11.185,2.0,1.0,1.0,33.0,33.0,33.0,1.5,2.0,2.595,0.7488088108320183,-0.025285450788496342,0.6464428661871314,0.018643635971584756,-0.093935,-30.057096
11.185,2.0,1.0,1.0,33.0,33.0,33.0,1.5,2.0,2.5975,0.743653458556958,-0.025855007190710474,0.6521339157429543,0.01873190726032217,-0.095283,-29.9167
11.185,2.0,1.0,1.0,33.0,33.0,33.0,1.5,2.0,2.6,0.7384197154399111,-0.02643773970053314,0.6578177007350111,0.018817140370194413,-0.096666,-29.775556
11.185,2.0,1.0,1.0,33.0,33.0,33.0,1.5,2.0,2.6025,0.7331064586018574,-0.02703400616723543,0.6634936111817805,0.018899134590117175,-0.098082,-29.633652
11.185,2.0,1.0,1.0,33.0,33.0,33.0,1.5,2.0,2.605,0.7277125411149636,-0.027644175935708507,0.6691610125177742,0.018977678521258888,-0.099534,-29.490974
11.185,2.0,1.0,1.0,33.0,33.0,33.0,1.5,2.0,2.6075,0.7222367914032097,-0.028268630260528803,0.6748192445169662,0.019052549478326138,-0.101023,-29.347509
11.185,2.0,1.0,1.0,33.0,33.0,33.0,1.5,2.0,2.61,0.7166780126269191,-0.0289077627355796,0.6804676201628893,0.019123512854303987,-0.10255,-29.203241
11.185,2.0,1.0,1.0,33.0,33.0,33.0,1.5,2.0,2.6125,0.711034982050847,-0.029561979739755665,0.6861054244623248,0.019190321446203033,-0.104116,-29.058158
11.185,2.0,1.0,1.0,33.0,33.0,33.0,1.5,2.0,2.615,0.7053064503954921,-0.030231700899280498,0.6917319131993099,0.019252714739184846,-0.105723,-28.912244
11.185,2.0,1.0,1.0,33.0,33.0,33.0,1.5,2.0,2.6175,0.6994911411713152,-0.030917359567169875,0.6973463116259697,0.019310418146244162,-0.107372,-28.765484
11.185,2.0,1.0,1.0,33.0,33.0,33.0,1.5,2.0,2.62,0.6935877499955577,-0.0316194033203746,0.7029478130864456,0.01936314220041523,-0.109065,-28.617864
11.185,2.0,1.0,1.0,33.0,33.0,33.0,1.5,2.0,2.6225,0.6875949438913798,-0.032338294475135254,0.7085355775699391,0.0194105816962421,-0.110803,-28.469367
11.185,2.0,1.0,1.0,33.0,33.0,33.0,1.5,2.0,2.625,0.681511360569067,-0.0330745106210711,0.714108730188602,0.0194524147770094,-0.112587,-28.319979
11.185,2.0,1.0,1.0,33.0,33.0,33.0,1.5,2.0,2.6275,0.6753356076890815,-0.03382854517451939,0.7196663595757375,0.019488301963961292,-0.11442,-28.169682
11.185,2.0,1.0,1.0,33.0,33.0,33.0,1.5,2.0,2.63,0.6690662621067726,-0.03460090795162174,0.7252075161994286,0.01951788512345171,-0.116303,-28.01846
11.185,2.0,1.0,1.0,33.0,33.0,33.0,1.5,2.0,2.6325,0.662701869098618,-0.03539212576163564,0.7307312105863869,0.01954078636765422,-0.118238,-27.866297
11.185,2.0,1.0,1.0,33.0,33.0,33.0,1.5,2.0,2.635,0.6562409415699066,-0.0362027430209183,0.7362364114504307,0.019556606884123553,-0.120228,-27.713175
11.185,2.0,1.0,1.0,33.0,33.0,33.0,1.5,2.0,2.6375,0.6496819592438624,-0.03703332238799594,0.7417220437196127,0.019564925689137258,-0.122273,-27.559077
11.185,2.0,1.0,1.0,33.0,33.0,33.0,1.5,2.0,2.64,0.6430233678322436,-0.037884445420085254,0.7471869864555774,0.01956529829934295,-0.124377,-27.403985
11.185,2.0,1.0,1.0,33.0,33.0,33.0,1.5,2.0,2.6425,0.6362635781875979,-0.03875671325137738,0.7526300706582661,0.019557255315811206,-0.12654,-27.247879
11.185,2.0,1.0,1.0,33.0,33.0,33.0,1.5,2.0,2.645,0.629400965437402,-0.039650747293326655,0.7580500769485661,0.01954030091412325,-0.128767,-27.090743
11.185,2.0,1.0,1.0,33.0,33.0,33.0,1.5,2.0,2.6475,0.6224338681004762,-0.040567189957103816,0.7634457331209785,0.019513911233616087,-0.131059,-26.932556
11.185,2.0,1.0,1.0,33.0,33.0,33.0,1.5,2.0,2.65,0.6153605871861672,-0.041506705398274994,0.7688157115577647,0.01947753265835411,-0.133419,-26.773299
11.185,2.0,1.0,1.0,33.0,33.0,33.0,1.5,2.0,2.6525,0.6081793852770015,-0.04246998028364717,0.7741586264953854,0.019430579981797154,-0.135849,-26.612952
11.185,2.0,1.0,1.0,33.0,33.0,33.0,1.5,2.0,2.655,0.6008884855956391,-0.043457724580084525,0.7794730311333746,0.01937243444648046,-0.138353,-26.451495
11.185,2.0,1.0,1.0,33.0,33.0,33.0,1.5,2.0,2.6575,0.5934860710572195,-0.04447067236493207,0.7847574145750004,0.019302441649315157,-0.140933,-26.288906
11.185,2.0,1.0,1.0,33.0,33.0,33.0,1.5,2.0,2.66,0.5859702833084169,-0.04550958265749248,0.7900101985882666,0.019219909302339435,-0.143592,-26.125164
11.185,2.0,1.0,1.0,33.0,33.0,33.0,1.5,2.0,2.6625,0.5783392217548088,-0.04657524027076867,0.7952297341749098,0.019124104837913564,-0.146334,-25.960247
11.185,2.0,1.0,1.0,33.0,33.0,33.0,1.5,2.0,2.665,0.5705909425784838,-0.04766845668242839,0.8004142979340733,0.01901425284642964,-0.149163,-25.794133
11.185,2.0,1.0,1.0,33.0,33.0,33.0,1.5,2.0,2.6675,0.562723457748204,-0.04879007092362821,0.8055620882062821,0.018889532333611528,-0.152082,-25.626799
11.185,2.0,1.0,1.0,33.0,33.0,33.0,1.5,2.0,2.67,0.5547347340248492,-0.04994095048398076,0.8106712209822137,0.018749073783386746,-0.155094,-25.458221
11.185,2.0,1.0,1.0,33.0,33.0,33.0,1.5,2.0,2.6725,0.5466226919653666,-0.05112199223052879,0.8157397255594939,0.018591956011122488,-0.158204,-25.288376
11.185,2.0,1.0,1.0,33.0,33.0,33.0,1.5,2.0,2.675,0.5383852049290285,-0.05233412333810321,0.8207655399293968,0.018417202790723203,-0.161417,-25.117238
11.185,2.0,1.0,1.0,33.0,33.0,33.0,1.5,2.0,2.6775,0.5300200980904368,-0.05357830222788159,0.8257465058738301,0.018223779237665955,-0.164736,-24.944782
11.185,2.0,1.0,1.0,33.0,33.0,33.0,1.5,2.0,2.68,0.5215251474644459,-0.054855519510314955,0.8306803637514238,0.01801058792850574,-0.168166,-24.770983
11.185,2.0,1.0,1.0,33.0,33.0,33.0,1.5,2.0,2.6825,0.5128980789490567,-0.05616679892783354,0.8355647469497145,0.017776464735691902,-0.171714,-24.595814
11.185,2.0,1.0,1.0,33.0,33.0,33.0,1.5,2.0,2.685,0.5041365673932782,-0.05751319829187882,0.840397175978558,0.017520174354688736,-0.175383,-24.419248
11.185,2.0,1.0,1.0,33.0,33.0,33.0,1.5,2.0,2.6875,0.4952382356980843,-0.05889581040780263,0.8451750521777923,0.017240405498378342,-0.17918,-24.241257
11.185,2.0,1.0,1.0,33.0,33.0,33.0,1.5,2.0,2.69,0.48620065395989065,-0.060315763980014016,0.8498956510098652,0.01693576573151366,-0.183111,-24.061812
11.185,2.0,1.0,1.0,33.0,33.0,33.0,1.5,2.0,2.6925,0.4770213386674051,-0.061774224488422916,0.8545561149057221,0.016604775915582,-0.187181,-23.880884
11.185,2.0,1.0,1.0,33.0,33.0,33.0,1.5,2.0,2.695,0.46769775196444807,-0.06327239502567913,0.859153445629447,0.016245864231796345,-0.191399,-23.698444
11.185,2.0,1.0,1.0,33.0,33.0,33.0,1.5,2.0,2.6975,0.4582273009932054,-0.06481151708293624,0.8636844961242426,0.015857359747053525,-0.19577,-23.51446
11.185,2.0,1.0,1.0,33.0,33.0,33.0,1.5,2.0,2.7,0.4486073373346559,-0.06639287126980832,0.8681459617990922,0.015437485484537895,-0.200303,-23.3289
11.185,2.0,1.0,1.0,33.0,33.0,33.0,1.5,2.0,2.7025,0.4388351565654183,-0.0680177779518258,0.872534371211872,0.014984350957203825,-0.205006,-23.141733
11.185,2.0,1.0,1.0,33.0,33.0,33.0,1.5,2.0,2.705,0.4289079979532084,-0.06968759778596739,0.8768460761008675,0.014495944118595618,-0.209886,-22.952925
11.185,2.0,1.0,1.0,33.0,33.0,33.0,1.5,2.0,2.7075,0.4188230443164411,-0.07140373213169167,0.8810772407124156,0.013970122681342451,-0.214954,-22.762442
11.185,2.0,1.0,1.0,33.0,33.0,33.0,1.5,2.0,2.71,0.40857742207739123,-0.07316762331125985,0.885223830367772,0.013404604749156637,-0.22022,-22.570248
11.185,2.0,1.0,1.0,33.0,33.0,33.0,1.5,2.0,2.7125,0.3981682015427383,-0.07498075468895056,0.8892815992073441,0.012796958703241513,-0.225692,-22.376309
11.185,2.0,1.0,1.0,33.0,33.0,33.0,1.5,2.0,2.715,0.38759239745044716,-0.07684465053391942,0.8932460770448983,0.012144592278642006,-0.231383,-22.180586
11.185,2.0,1.0,1.0,33.0,33.0,33.0,1.5,2.0,2.7175,0.37684696982781185,-0.07876087562587182,0.8971125552584366,0.011444740760202665,-0.237305,-21.983043
11.185,2.0,1.0,1.0,33.0,33.0,33.0,1.5,2.0,2.72,0.36592882521225295,-0.0807310345562532,0.9008760716379257,0.010694454221411138,-0.243469,-21.783639
11.185,2.0,1.0,1.0,33.0,33.0,33.0,1.5,2.0,2.7225,0.35483481829425756,-0.08275677067020482,0.9045313941030212,0.009890583722437387,-0.24989,-21.582335
11.185,2.0,1.0,1.0,33.0,33.0,33.0,1.5,2.0,2.725,0.3435617540508742,-0.0848397645858932,0.9080730031962605,0.009029766376119023,-0.256582,-21.37909
11.185,2.0,1.0,1.0,33.0,33.0,33.0,1.5,2.0,2.7275,0.33210639044851037,-0.08698173221785577,0.9114950732489018,0.0081084091824191,-0.26356,-21.173862
11.185,2.0,1.0,1.0,33.0,33.0,33.0,1.5,2.0,2.73,0.32046544180582,-0.08918442221944094,0.9147914521075932,0.007122671522989924,-0.27084,-20.966607
11.185,2.0,1.0,1.0,33.0,33.0,33.0,1.5,2.0,2.7325,0.3086355829212568,-0.09144961274606583,0.9179556393003768,0.006068446197850698,-0.278442,-20.757281
11.185,2.0,1.0,1.0,33.0,33.0,33.0,1.5,2.0,2.735,0.29661345408594303,-0.09377910742551646,0.9209807625100609,0.004941338875827294,-0.286383,-20.545837
11.185,2.0,1.0,1.0,33.0,33.0,33.0,1.5,2.0,2.7375,0.28439566712094383,-0.09617473040358009,0.9238595522118668,0.0037366458192746215,-0.294684,-20.33223
11.185,2.0,1.0,1.0,33.0,33.0,33.0,1.5,2.0,2.74,0.2719788125995355,-0.09863832031248534,0.9265843143202732,0.0024493297317091296,-0.303367,-20.11641
11.185,2.0,1.0,1.0,33.0,33.0,33.0,1.5,2.0,2.7425,0.25935946843981955,-0.10117172298550157,0.929146900677319,0.0010739935643374445,-0.312457,-19.898328
11.185,2.0,1.0,1.0,33.0,33.0,33.0,1.5,2.0,2.745,0.24653421008181944,-0.10377678271303344,0.9315386772013337,-0.0003951478958752465,-0.321978,-19.677933
11.185,2.0,1.0,1.0,33.0,33.0,33.0,1.5,2.0,2.7475,0.23349962249653178,-0.106455331803037,0.9337504895010303,-0.001964298847929164,-0.331958,-19.455173
11.185,2.0,1.0,1.0,33.0,33.0,33.0,1.5,2.0,2.75,0.220252314313056,-0.109209178170816,0.935772625745604,-0.0036401159140941,-0.342427,-19.229995
11.185,2.0,1.0,1.0,33.0,33.0,33.0,1.5,2.0,2.7525,0.20678893439482982,-0.11204009063937433,0.9375947765667308,-0.005429744413348947,-0.353418,-19.002343
11.185,2.0,1.0,1.0,33.0,33.0,33.0,1.5,2.0,2.755,0.193106191248083,-0.11494978158049532,0.9392059917538527,-0.007340857706277584,-0.364965,-18.772161
11.185,2.0,1.0,1.0,33.0,33.0,33.0,1.5,2.0,2.7575,0.17920087570608823,-0.11793988646743095,0.9405946334899113,-0.009381699861146,-0.377106,-18.539392
11.185,2.0,1.0,1.0,33.0,33.0,33.0,1.5,2.0,2.76,0.16506988740315306,-0.12101193984111686,0.9417483258615819,-0.011561131904347498,-0.389882,-18.303976
11.185,2.0,1.0,1.0,33.0,33.0,33.0,1.5,2.0,2.7625,0.1507102656338352,-0.12416734711166366,0.9426539003666776,-0.013888681930225282,-0.403339,-18.065853
11.185,2.0,1.0,1.0,33.0,33.0,33.0,1.5,2.0,2.765,0.13611922528778417,-0.1274073515236155,0.943297337132797,-0.016374599354461523,-0.417524,-17.82496
11.185,2.0,1.0,1.0,33.0,33.0,33.0,1.5,2.0,2.7675,0.12129419866079885,-0.13073299550506093,0.9436637015567072,-0.01902991360048,-0.43249,-17.581236
11.185,2.0,1.0,1.0,33.0,33.0,33.0,1.5,2.0,2.77,0.10623288407057206,-0.13414507549467375,0.9437370760753478,-0.021866497507945854,-0.448295,-17.334615
11.185,2.0,1.0,1.0,33.0,33.0,33.0,1.5,2.0,2.7725,0.09093330235420932,-0.13764408919438034,0.9435004867886096,-0.024897135744230695,-0.465003,-17.085032
11.185,2.0,1.0,1.0,33.0,33.0,33.0,1.5,2.0,2.775,0.07539386249675112,-0.1412301740254353,0.9429358246745825,-0.028135598480783598,-0.482681,-16.832421
11.185,2.0,1.0,1.0,33.0,33.0,33.0,1.5,2.0,2.7775,0.059613437839572354,-0.1449030353686847,0.9420237611730535,-0.03159672056297408,-0.501406,-16.576712
11.185,2.0,1.0,1.0,33.0,33.0,33.0,1.5,2.0,2.78,0.04359145454835488,-0.14866186294166958,0.9407436579680314,-0.03529648634935642,-0.521259,-16.31784
11.185,2.0,1.0,1.0,33.0,33.0,33.0,1.5,2.0,2.7825,0.027327994287006555,-0.1525052334015895,0.9390734708808672,-0.0392521203182964,-0.542332,-16.055733
11.185,2.0,1.0,1.0,33.0,33.0,33.0,1.5,2.0,2.785,0.010823913351003245,-0.15643099695919815,0.9369896479002869,-0.04348218342864949,-0.564725,-15.790322
11.185,2.0,1.0,1.0,33.0,33.0,33.0,1.5,2.0,2.7875,-0.005919019133531186,-0.1604361454392924,0.9344670215345369,-0.04800667506660051,-0.588546,-15.521539
11.185,2.0,1.0,1.0,33.0,33.0,33.0,1.5,2.0,2.79,-0.022897960935137147,-0.16451665882341518,0.9314786958866743,-0.05284714020020038,-0.613918,-15.249313
11.185,2.0,1.0,1.0,33.0,33.0,33.0,1.5,2.0,2.7925,-0.04010881089729713,-0.16866732685451857,0.9279959291432855,-0.05802678108033782,-0.640973,-14.973575
11.185,2.0,1.0,1.0,33.0,33.0,33.0,1.5,2.0,2.795,-0.05754599358454054,-0.1728815417671546,0.9239880125500733,-0.063570572451573,-0.66986,-14.694258
11.185,2.0,1.0,1.0,33.0,33.0,33.0,1.5,2.0,2.7975,-0.0752022098217872,-0.17715105762683386,0.9194221474508687,-0.06950537874276586,-0.700743,-14.411296
11.185,2.0,1.0,1.0,33.0,33.0,33.0,1.5,2.0,2.8,-0.09306814790664303,-0.1814657111174591,0.9142633226217711,-0.0758600710638404,-0.733802,-14.124624
11.185,2.0,1.0,1.0,33.0,33.0,33.0,1.5,2.0,2.8025,-0.11113214956479756,-0.18581309790851766,0.9084741949798129,-0.08266564100143947,-0.769241,-13.834183
11.185,2.0,1.0,1.0,33.0,33.0,33.0,1.5,2.0,2.805,-0.12937982395601716,-0.19017819797215949,0.9020149778351152,-0.08995530713353919,-0.807283,-13.539915
11.185,2.0,1.0,1.0,33.0,33.0,33.0,1.5,2.0,2.8075,-0.14779360223944082,-0.19454294242090267,0.8948433422478237,-0.09776460881102454,-0.848179,-13.24177
11.185,2.0,1.0,1.0,33.0,33.0,33.0,1.5,2.0,2.81,-0.1663522244022483,-0.19888571362859203,0.8869143388198084,-0.10613148000971441,-0.892208,-12.939703
11.185,2.0,1.0,1.0,33.0,33.0,33.0,1.5,2.0,2.8125,-0.185030149292856,-0.203180769627438,0.878180349484085,-0.115096293851804,-0.939685,-12.633678
11.185,2.0,1.0,1.0,33.0,33.0,33.0,1.5,2.0,2.815,-0.2037968781535366,-0.20739758311508996,0.8685910816558149,-0.12470186562824985,-0.990959,-12.323669
11.185,2.0,1.0,1.0,33.0,33.0,33.0,1.5,2.0,2.8175,-0.2226161815270515,-0.2115000849657762,0.8580936205963758,-0.13499339870459556,-1.046423,-12.009663
11.185,2.0,1.0,1.0,33.0,33.0,33.0,1.5,2.0,2.82,-0.2414452193772616,-0.2154458020753577,0.8466325601486149,-0.14601835343007796,-1.106521,-11.69166
11.185,2.0,1.0,1.0,33.0,33.0,33.0,1.5,2.0,2.8225,-0.2602335448404403,-0.2191848799040707,0.8341502372671696,-0.15782621395315186,-1.17175,-11.36968
11.185,2.0,1.0,1.0,33.0,33.0,33.0,1.5,2.0,2.825,-0.2789219835255824,-0.22265898152217548,0.8205871021294356,-0.170468121537892,-1.242672,-11.043764
11.185,2.0,1.0,1.0,33.0,33.0,33.0,1.5,2.0,2.8275,-0.29744138313590035,-0.22580005773500447,0.8058822631846161,-0.183996335458886,-1.319921,-10.713977
11.185,2.0,1.0,1.0,33.0,33.0,33.0,1.5,2.0,2.83,-0.3157112329610707,-0.22852898753002046,0.7899742553393173,-0.19846347376426388,-1.404217,-10.380417
