1,w,sub_t,h,l1,l2,l3,g1,g2,Freq,S11_re,S21_re,S11_img,S21_img,S11_dB,S21_dB
11.185,2.0,1.0,1.0,33.3,33.1,33.1,4.2,3.0,2.5,0.871772734197519,-0.00461994144125769,0.478730829712057,0.00357191710213133,-0.047287,-44.672144
11.185,2.0,1.0,1.0,33.3,33.1,33.1,4.2,3.0,2.5025,0.8686962347927424,-0.004708477265290023,0.48420122678140176,0.003582887067200743,-0.047668,-44.558471
11.185,2.0,1.0,1.0,33.3,33.1,33.1,4.2,3.0,2.505,0.8655733643442854,-0.0047983753635670295,0.4896717873268572,0.0035933128602226505,-0.048056,-44.444666
11.185,2.0,1.0,1.0,33.3,33.1,33.1,4.2,3.0,2.5075,0.8624037088556344,-0.004889657659612534,0.4951423228080797,0.0036031757901960355,-0.04845,-44.330722
11.185,2.0,1.0,1.0,33.3,33.1,33.1,4.2,3.0,2.51,0.8591868481766016,-0.004982346510828736,0.5006126393231138,0.0036124565863953073,-0.048849,-44.216632
11.185,2.0,1.0,1.0,33.3,33.1,33.1,4.2,3.0,2.5125,0.8559223559171749,-0.005076464718294985,0.5060825374419362,0.0036211353784521504,-0.049255,-44.102389
11.185,2.0,1.0,1.0,33.3,33.1,33.1,4.2,3.0,2.515,0.8526097993607022,-0.0051720355368069255,0.5115518120349838,0.003629191675679472,-0.049668,-43.987988
11.185,2.0,1.0,1.0,33.3,33.1,33.1,4.2,3.0,2.5175,0.8492487393764465,-0.005269082685161753,0.5170202520964967,0.0036366043456053875,-0.050087,-43.87342
11.185,2.0,1.0,1.0,33.3,33.1,33.1,4.2,3.0,2.52,0.8458387303315339,-0.0053676303566963296,0.522487640562527,0.0036433515916832796,-0.050512,-43.758679
11.185,2.0,1.0,1.0,33.3,33.1,33.1,4.2,3.0,2.5225,0.8423793200023437,-0.005467703230084502,0.5279537541234249,0.003649410930142949,-0.050945,-43.643757
11.185,2.0,1.0,1.0,33.3,33.1,33.1,4.2,3.0,2.525,0.8388700494853617,-0.005569326480400691,0.5334183630306512,0.0036547591659453053,-0.051384,-43.528649
11.185,2.0,1.0,1.0,33.3,33.1,33.1,4.2,3.0,2.5275,0.8353104531075444,-0.005672525790456904,0.5388812308977236,0.003659372367802127,-0.05183,-43.413347
11.185,2.0,1.0,1.0,33.3,33.1,33.1,4.2,3.0,2.53,0.8317000583362388,-0.005777327362419462,0.5443421144951137,0.0036632258422200675,-0.052284,-43.297844
11.185,2.0,1.0,1.0,33.3,33.1,33.1,4.2,3.0,2.5325,0.8280383856887014,-0.005883757929714085,0.5498007635389047,0.0036662941065259205,-0.052745,-43.182133
11.185,2.0,1.0,1.0,33.3,33.1,33.1,4.2,3.0,2.535,0.8243249486412622,-0.005991844769225895,0.5552569204730149,0.003668550860828551,-0.053214,-43.066207
11.185,2.0,1.0,1.0,33.3,33.1,33.1,4.2,3.0,2.5375,0.8205592535381987,-0.006101615713802724,0.5607103202447762,0.003669968958870143,-0.05369,-42.950059
11.185,2.0,1.0,1.0,33.3,33.1,33.1,4.2,3.0,2.54,0.8167407995003675,-0.006213099165069012,0.5661606900736624,0.0036705203777175235,-0.054174,-42.83368
11.185,2.0,1.0,1.0,33.3,33.1,33.1,4.2,3.0,2.5425,0.8128690783336566,-0.006326324106559522,0.5716077492129498,0.00367017618624125,-0.054666,-42.717065
11.185,2.0,1.0,1.0,33.3,33.1,33.1,4.2,3.0,2.545,0.8089435744373296,-0.006441320117180176,0.5770512087040843,0.003668906512328356,-0.055166,-42.600206
11.185,2.0,1.0,1.0,33.3,33.1,33.1,4.2,3.0,2.5475,0.8049637647123289,-0.0065581173850055305,0.5824907711235149,0.0036666805087708474,-0.055675,-42.483095
11.185,2.0,1.0,1.0,33.3,33.1,33.1,4.2,3.0,2.55,0.8009291184696088,-0.006676746721421064,0.5879261303217723,0.0036634663177700123,-0.056192,-42.365725
11.185,2.0,1.0,1.0,33.3,33.1,33.1,4.2,3.0,2.5525,0.7968390973385941,-0.006797239575619698,0.5933569711545204,0.003659231033992827,-0.056718,-42.248088
11.185,2.0,1.0,1.0,33.3,33.1,33.1,4.2,3.0,2.555,0.792693155175832,-0.006919628049462155,0.5987829692053412,0.00365394066611382,-0.057253,-42.130178
11.185,2.0,1.0,1.0,33.3,33.1,33.1,4.2,3.0,2.5575,0.7884907379739379,-0.0070439449127099535,0.6042037904999881,0.003647560096772162,-0.057797,-42.011985
11.185,2.0,1.0,1.0,33.3,33.1,33.1,4.2,3.0,2.56,0.7842312837709368,-0.0071702236186415354,0.6096190912118211,0.0036400530408700073,-0.058351,-41.893502
11.185,2.0,1.0,1.0,33.3,33.1,33.1,4.2,3.0,2.5625,0.7799142225600948,-0.007298498320061275,0.6150285173581521,0.00363138200213402,-0.058913,-41.774723
11.185,2.0,1.0,1.0,33.3,33.1,33.1,4.2,3.0,2.565,0.7755389762003568,-0.007428803885711655,0.6204317044872062,0.0036215082278582885,-0.059486,-41.655637
11.185,2.0,1.0,1.0,33.3,33.1,33.1,4.2,3.0,2.5675,0.7711049583275089,-0.007561175917099469,0.6258282773553885,0.0036103916617420666,-0.060069,-41.536239
11.185,2.0,1.0,1.0,33.3,33.1,33.1,4.2,3.0,2.57,0.7666115742661869,-0.007695650765746268,0.6312178495945537,0.003597990894731035,-0.060661,-41.416518
11.185,2.0,1.0,1.0,33.3,33.1,33.1,4.2,3.0,2.5725,0.7620582209428618,-0.00783226555087479,0.6366000233689488,0.003584263113766125,-0.061265,-41.296469
11.185,2.0,1.0,1.0,33.3,33.1,33.1,4.2,3.0,2.575,0.7574442867999495,-0.007971058177542288,0.6419743890214973,0.0035691640483384063,-0.061879,-41.176081
11.185,2.0,1.0,1.0,33.3,33.1,33.1,4.2,3.0,2.5775,0.7527691517111857,-0.008112067355232606,0.6473405247090777,0.0035526479147429428,-0.062503,-41.055347
11.185,2.0,1.0,1.0,33.3,33.1,33.1,4.2,3.0,2.58,0.7480321868984314,-0.008255332616918628,0.6526979960264342,0.0035346673579185256,-0.063139,-40.934258
11.185,2.0,1.0,1.0,33.3,33.1,33.1,4.2,3.0,2.5825,0.7432327548500688,-0.00840089433860744,0.6580463556183601,0.0035151733907542106,-0.063787,-40.812806
11.185,2.0,1.0,1.0,33.3,33.1,33.1,4.2,3.0,2.585,0.7383702092411725,-0.008548793759380545,0.6633851427797571,0.003494115330735968,-0.064446,-40.690982
11.185,2.0,1.0,1.0,33.3,33.1,33.1,4.2,3.0,2.5875,0.733443894855633,-0.008699073001941808,0.6687138830431889,0.00347144073380063,-0.065117,-40.568778
11.185,2.0,1.0,1.0,33.3,33.1,33.1,4.2,3.0,2.59,0.7284531475104444,-0.008851775093685916,0.6740320877535024,0.003447095325255679,-0.0658,-40.446183
11.185,2.0,1.0,1.0,33.3,33.1,33.1,4.2,3.0,2.5925,0.7233972939823512,-0.009006943988300849,0.6793392536291105,0.003421022927615932,-0.066495,-40.32319
11.185,2.0,1.0,1.0,33.3,33.1,33.1,4.2,3.0,2.595,0.7182756519370911,-0.00916462458791717,0.6846348623094749,0.003393165385199075,-0.067204,-40.199788
11.185,2.0,1.0,1.0,33.3,33.1,33.1,4.2,3.0,2.5975,0.7130875298614546,-0.00932486276581864,0.6899183798883555,0.0033634624853126228,-0.067926,-40.07597
11.185,2.0,1.0,1.0,33.3,33.1,33.1,4.2,3.0,2.6,0.707832226998416,-0.009487705389727326,0.6951892564323403,0.003331851875855642,-0.068661,-39.951724
11.185,2.0,1.0,1.0,33.3,33.1,33.1,4.2,3.0,2.6025,0.702509033285599,-0.009653200345677328,0.7004469254841718,0.003298268979146854,-0.06941,-39.827043
11.185,2.0,1.0,1.0,33.3,33.1,33.1,4.2,3.0,2.605,0.697117229297345,-0.00982139656249188,0.705690803550364,0.003262646901780261,-0.070173,-39.701915
11.185,2.0,1.0,1.0,33.3,33.1,33.1,4.2,3.0,2.6075,0.6916560861906841,-0.009992344036878023,0.7109202895725871,0.003224916340297333,-0.07095,-39.576331
11.185,2.0,1.0,1.0,33.3,33.1,33.1,4.2,3.0,2.61,0.6861248656555127,-0.01016609385915306,0.7161347643822706,0.003185005482450868,-0.071743,-39.450282
11.185,2.0,1.0,1.0,33.3,33.1,33.1,4.2,3.0,2.6125,0.6805228198692999,-0.010342698239617898,0.7213335901378645,0.0031428399038231853,-0.07255,-39.323756
11.185,2.0,1.0,1.0,33.3,33.1,33.1,4.2,3.0,2.615,0.6748491914566661,-0.01052221053559237,0.7265161097441782,0.0030983424595451402,-0.073373,-39.196743
11.185,2.0,1.0,1.0,33.3,33.1,33.1,4.2,3.0,2.6175,0.6691032134541964,-0.010704685279126254,0.7316816462531782,0.003051433170847687,-0.074212,-39.069233
11.185,2.0,1.0,1.0,33.3,33.1,33.1,4.2,3.0,2.62,0.6632841092808689,-0.010890178205402145,0.7368295022456269,0.0030020291061590106,-0.075068,-38.941216
11.185,2.0,1.0,1.0,33.3,33.1,33.1,4.2,3.0,2.6225,0.6573910927144875,-0.011078746281843722,0.741958959192901,0.002950044256444487,-0.07594,-38.812679
11.185,2.0,1.0,1.0,33.3,33.1,33.1,4.2,3.0,2.625,0.651423367874564,-0.0112704477379448,0.747069276798309,0.00289538940446407,-0.07683,-38.683612
11.185,2.0,1.0,1.0,33.3,33.1,33.1,4.2,3.0,2.6275,0.6453801292120686,-0.011465342095832946,0.7521596923172101,0.0028379719876031,-0.077737,-38.554004
11.185,2.0,1.0,1.0,33.3,33.1,33.1,4.2,3.0,2.63,0.6392605615065313,-0.011663490201582458,0.757229419855188,0.0027776959539080907,-0.078662,-38.423843
11.185,2.0,1.0,1.0,33.3,33.1,33.1,4.2,3.0,2.6325,0.6330638398709842,-0.011864954257289341,0.7622776496435298,0.0027144616109360553,-0.079606,-38.293117
11.185,2.0,1.0,1.0,33.3,33.1,33.1,4.2,3.0,2.635,0.6267891297652594,-0.012069797853922423,0.7673035472912003,0.0026481654669981004,-0.080569,-38.161814
11.185,2.0,1.0,1.0,33.3,33.1,33.1,4.2,3.0,2.6375,0.6204355870181968,-0.012278086004962323,0.7723062530124956,0.0025787000643513916,-0.081552,-38.029923
11.185,2.0,1.0,1.0,33.3,33.1,33.1,4.2,3.0,2.64,0.6140023578593232,-0.012489885180840201,0.7772848808295095,0.0025059538038618577,-0.082554,-37.897429
11.185,2.0,1.0,1.0,33.3,33.1,33.1,4.2,3.0,2.6425,0.6074885789606167,-0.012705263344187031,0.7822385177485159,0.0024298107606273364,-0.083578,-37.764322
11.185,2.0,1.0,1.0,33.3,33.1,33.1,4.2,3.0,2.645,0.6008933774889903,-0.012924289985902409,0.7871662229093248,0.0023501504900163735,-0.084623,-37.630587
11.185,2.0,1.0,1.0,33.3,33.1,33.1,4.2,3.0,2.6475,0.5942158711701616,-0.01314703616205134,0.7920670267066356,0.0022668478235380297,-0.085689,-37.496211
11.185,2.0,1.0,1.0,33.3,33.1,33.1,4.2,3.0,2.65,0.5874551683646042,-0.013373574531594557,0.796939929882378,0.00217977265391797,-0.086778,-37.361181
11.185,2.0,1.0,1.0,33.3,33.1,33.1,4.2,3.0,2.6525,0.58061036815634,-0.01360397939495764,0.8017839025879424,0.002088789708710762,-0.087891,-37.225483
11.185,2.0,1.0,1.0,33.3,33.1,33.1,4.2,3.0,2.655,0.5736805604553263,-0.013838326733438867,0.8065978834152138,0.001993758311730023,-0.089027,-37.089102
11.185,2.0,1.0,1.0,33.3,33.1,33.1,4.2,3.0,2.6575,0.5666648261142695,-0.014076694249457239,0.8113807783952193,0.0018945321315253722,-0.090187,-36.952024
11.185,2.0,1.0,1.0,33.3,33.1,33.1,4.2,3.0,2.66,0.5595622370607164,-0.014319161407633776,0.8161314599631686,0.001790958916079258,-0.091373,-36.814235
11.185,2.0,1.0,1.0,33.3,33.1,33.1,4.2,3.0,2.6625,0.5523718564453377,-0.014565809476699618,0.8208487658885937,0.0016828802128336991,-0.092584,-36.675719
11.185,2.0,1.0,1.0,33.3,33.1,33.1,4.2,3.0,2.665,0.5450927388073328,-0.014816721572218104,0.8255314981692506,0.001570131073091258,-0.093822,-36.53646
11.185,2.0,1.0,1.0,33.3,33.1,33.1,4.2,3.0,2.6675,0.5377239302579765,-0.01507198270010164,0.8301784218873429,0.0014525397397620306,-0.095088,-36.396442
11.185,2.0,1.0,1.0,33.3,33.1,33.1,4.2,3.0,2.67,0.5302644686833436,-0.015331679800901695,0.8347882640265828,0.001329927317348227,-0.096381,-36.255649
11.185,2.0,1.0,1.0,33.3,33.1,33.1,4.2,3.0,2.6725,0.5227133839673084,-0.015595901794839613,0.8393597122485168,0.00120210742297373,-0.097704,-36.114065
11.185,2.0,1.0,1.0,33.3,33.1,33.1,4.2,3.0,2.675,0.5150696982359989,-0.015864739627539926,0.8438914136264405,0.0010688858171714153,-0.099057,-35.971671
11.185,2.0,1.0,1.0,33.3,33.1,33.1,4.2,3.0,2.6775,0.5073324261249041,-0.01613828631641888,0.8483819733351589,0.0009300600130398718,-0.10044,-35.828451
11.185,2.0,1.0,1.0,33.3,33.1,33.1,4.2,3.0,2.68,0.4995005750699269,-0.016416636997668918,0.8528299532947274,0.0007854188622696994,-0.101856,-35.684387
11.185,2.0,1.0,1.0,33.3,33.1,33.1,4.2,3.0,2.6825,0.4915731456237337,-0.016699888973768447,0.8572338707662096,0.0006347421164187961,-0.103304,-35.539459
11.185,2.0,1.0,1.0,33.3,33.1,33.1,4.2,3.0,2.685,0.4835491317988127,-0.016988141761433276,0.8615921968973625,0.00047779996168308055,-0.104786,-35.393648
11.185,2.0,1.0,1.0,33.3,33.1,33.1,4.2,3.0,2.6875,0.475427521438733,-0.0172814971399067,0.865903355216038,0.000314352525265784,-0.106303,-35.246936
11.185,2.0,1.0,1.0,33.3,33.1,33.1,4.2,3.0,2.69,0.4672072966191934,-0.017580059199470362,0.8701657200689346,0.00014414935128847513,-0.107856,-35.099301
11.185,2.0,1.0,1.0,33.3,33.1,33.1,4.2,3.0,2.6925,0.4588874340804876,-0.017883934390034203,0.8743776150031992,-3.307115598528888e-05,-0.109447,-34.950724
11.185,2.0,1.0,1.0,33.3,33.1,33.1,4.2,3.0,2.695,0.45046690569316505,-0.01819323156963938,0.8785373110881819,-0.0002175823240325768,-0.111075,-34.801182
11.185,2.0,1.0,1.0,33.3,33.1,33.1,4.2,3.0,2.6975,0.4419446789586933,-0.018508062052681195,0.8826430251744992,-0.0004096698416883808,-0.112744,-34.650654
11.185,2.0,1.0,1.0,33.3,33.1,33.1,4.2,3.0,2.7,0.4333197175470898,-0.018828539657624155,0.8866929180873151,-0.0006096324293534451,-0.114454,-34.499117
11.185,2.0,1.0,1.0,33.3,33.1,33.1,4.2,3.0,2.7025,0.42459098187354816,-0.019154780753946048,0.8906850927505671,-0.0008177825529014003,-0.116206,-34.346548
11.185,2.0,1.0,1.0,33.3,33.1,33.1,4.2,3.0,2.705,0.4157574297162409,-0.019486904308003008,0.8946175922385927,-0.0010344471846696034,-0.118002,-34.192922
11.185,2.0,1.0,1.0,33.3,33.1,33.1,4.2,3.0,2.7075,0.4068180168775712,-0.019825031927459397,0.8984883977513508,-0.001259968615223709,-0.119843,-34.038216
11.185,2.0,1.0,1.0,33.3,33.1,33.1,4.2,3.0,2.71,0.3977716978913082,-0.02016928790386673,0.9022954265091366,-0.0014947053199210452,-0.121732,-33.882403
11.185,2.0,1.0,1.0,33.3,33.1,33.1,4.2,3.0,2.7125,0.3886174267781551,-0.020519799252913758,0.9060365295623549,-0.0017390328846699154,-0.123669,-33.725457
11.185,2.0,1.0,1.0,33.3,33.1,33.1,4.2,3.0,2.715,0.3793541578524847,-0.020876695751789253,0.9097094895115567,-0.0019933449956896577,-0.125657,-33.56735
11.185,2.0,1.0,1.0,33.3,33.1,33.1,4.2,3.0,2.7175,0.3699808465831204,-0.02124010997301587,0.9133120181325362,-0.002258054498530887,-0.127697,-33.408056
11.185,2.0,1.0,1.0,33.3,33.1,33.1,4.2,3.0,2.72,0.36049645051125295,-0.0216101773140086,0.9168417539008321,-0.0025335945321146823,-0.129792,-33.247544
11.185,2.0,1.0,1.0,33.3,33.1,33.1,4.2,3.0,2.7225,0.3508999302287439,-0.02198703602149771,0.920296259409499,-0.002820419744106654,-0.131943,-33.085785
11.185,2.0,1.0,1.0,33.3,33.1,33.1,4.2,3.0,2.725,0.34119025042034706,-0.02237082720981848,0.9236730186734232,-0.0031190075945553676,-0.134152,-32.922748
11.185,2.0,1.0,1.0,33.3,33.1,33.1,4.2,3.0,2.7275,0.33136638097355214,-0.02276169487191653,0.9269694343128824,-0.003429859755411265,-0.136422,-32.758399
11.185,2.0,1.0,1.0,33.3,33.1,33.1,4.2,3.0,2.73,0.32142729816009485,-0.023159785881736103,0.9301828246083174,-0.003753503614300345,-0.138754,-32.592707
11.185,2.0,1.0,1.0,33.3,33.1,33.1,4.2,3.0,2.7325,0.31137198589341303,-0.02356524998644812,0.9333104204175422,-0.004090493891773928,-0.141153,-32.425636
11.185,2.0,1.0,1.0,33.3,33.1,33.1,4.2,3.0,2.735,0.3011994370667151,-0.023978239786736487,0.9363493619457374,-0.004441414382199535,-0.143619,-32.257151
11.185,2.0,1.0,1.0,33.3,33.1,33.1,4.2,3.0,2.7375,0.29090865497665597,-0.024398910703075677,0.93929669535761,-0.0048068798295081705,-0.146157,-32.087214
11.185,2.0,1.0,1.0,33.3,33.1,33.1,4.2,3.0,2.74,0.2804986548380665,-0.02482742092561003,0.9421493692200166,-0.005187537950189864,-0.148768,-31.915788
11.185,2.0,1.0,1.0,33.3,33.1,33.1,4.2,3.0,2.7425,0.26996846539562597,-0.02526393134486272,0.9449042307621283,-0.005584071617242092,-0.151456,-31.742831
11.185,2.0,1.0,1.0,33.3,33.1,33.1,4.2,3.0,2.745,0.2593171306389167,-0.02570860546006362,0.9475580219388352,-0.005997201220247481,-0.154225,-31.568303
11.185,2.0,1.0,1.0,33.3,33.1,33.1,4.2,3.0,2.7475,0.24854371162790345,-0.026161609261368082,0.9501073752815569,-0.006427687218406157,-0.157077,-31.39216
11.185,2.0,1.0,1.0,33.3,33.1,33.1,4.2,3.0,2.75,0.237647288436553,-0.0266231110816406,0.952548809518864,-0.00687633290519927,-0.160016,-31.214357
11.185,2.0,1.0,1.0,33.3,33.1,33.1,4.2,3.0,2.7525,0.2266269622231184,-0.02709328141277651,0.9548787249473641,-0.007343987405441924,-0.163046,-31.034848
11.185,2.0,1.0,1.0,33.3,33.1,33.1,4.2,3.0,2.755,0.21548185743650922,-0.027572292680711034,0.9570933985310656,-0.007831548927824356,-0.166172,-30.853583
11.185,2.0,1.0,1.0,33.3,33.1,33.1,4.2,3.0,2.7575,0.20421112416918652,-0.02806031897231364,0.9591889787049269,-0.008339968298682048,-0.169398,-30.670513
11.185,2.0,1.0,1.0,33.3,33.1,33.1,4.2,3.0,2.76,0.1928139406682806,-0.028557535706230274,0.961161479855431,-0.008870252805711687,-0.172727,-30.485584
11.185,2.0,1.0,1.0,33.3,33.1,33.1,4.2,3.0,2.7625,0.18128951601795718,-0.029064119238422687,0.9630067764477888,-0.009423470383719407,-0.176166,-30.298741
11.185,2.0,1.0,1.0,33.3,33.1,33.1,4.2,3.0,2.765,0.16963709300774232,-0.029580246391594386,0.9647205967656931,-0.0100007541782954,-0.17972,-30.109927
11.185,2.0,1.0,1.0,33.3,33.1,33.1,4.2,3.0,2.7675,0.15785595120337742,-0.03010609389586457,0.9662985162253468,-0.010603307527630326,-0.183393,-29.919081
11.185,2.0,1.0,1.0,33.3,33.1,33.1,4.2,3.0,2.77,0.14594541023899926,-0.03064183772589193,0.9677359502207198,-0.011232409407589175,-0.187193,-29.72614
11.185,2.0,1.0,1.0,33.3,33.1,33.1,4.2,3.0,2.7725,0.13390483335205475,-0.031187652317096335,0.9690281464515326,-0.011889420390732328,-0.191125,-29.531039
11.185,2.0,1.0,1.0,33.3,33.1,33.1,4.2,3.0,2.775,0.1217336311854154,-0.03174370964060464,0.9701701766792395,-0.012575789176316642,-0.195197,-29.333709
11.185,2.0,1.0,1.0,33.3,33.1,33.1,4.2,3.0,2.7775,0.10943126588478844,-0.03231017811296685,0.9711569278491576,-0.01329305975554542,-0.199416,-29.134078
11.185,2.0,1.0,1.0,33.3,33.1,33.1,4.2,3.0,2.78,0.09699725552378508,-0.0328872213124274,0.9719830925087294,-0.01404287928459824,-0.20379,-28.93207
11.185,2.0,1.0,1.0,33.3,33.1,33.1,4.2,3.0,2.7825,0.08443117889413439,-0.033474996468469125,0.972643158442527,-0.014827006747418648,-0.208327,-28.727606
11.185,2.0,1.0,1.0,33.3,33.1,33.1,4.2,3.0,2.785,0.07173268070452252,-0.03407365268530483,0.9731313974338616,-0.015647322501071446,-0.213036,-28.520602
11.185,2.0,1.0,1.0,33.3,33.1,33.1,4.2,3.0,2.7875,0.058901477238836784,-0.034683328852758454,0.973441853050454,-0.016505838808897992,-0.217928,-28.310973
11.185,2.0,1.0,1.0,33.3,33.1,33.1,4.2,3.0,2.79,0.04593736253316792,-0.0353041511893278,0.9735683273373712,-0.01740471148098502,-0.223013,-28.098625
11.185,2.0,1.0,1.0,33.3,33.1,33.1,4.2,3.0,2.7925,0.03284021514136174,-0.035936230351819934,0.9735043662839491,-0.018346252757894633,-0.228303,-27.883462
11.185,2.0,1.0,1.0,33.3,33.1,33.1,4.2,3.0,2.795,0.01961000557131288,-0.036579658033449654,0.9732432439123821,-0.01933294559256858,-0.233809,-27.665383
11.185,2.0,1.0,1.0,33.3,33.1,33.1,4.2,3.0,2.7975,0.006246804489339099,-0.03723450295719665,0.9727779448136415,-0.020367459507204956,-0.239547,-27.44428
11.185,2.0,1.0,1.0,33.3,33.1,33.1,4.2,3.0,2.8,-0.007249208191929604,-0.03790080615297664,0.9721011449308146,-0.021452668227242396,-0.245529,-27.220041
11.185,2.0,1.0,1.0,33.3,33.1,33.1,4.2,3.0,2.8025,-0.020877733204572316,-0.03857857538505927,0.9712051903603338,-0.022591669323931286,-0.251774,-26.992546
11.185,2.0,1.0,1.0,33.3,33.1,33.1,4.2,3.0,2.805,-0.03463834063089617,-0.0392677785692729,0.97008207390706,-0.023787806131029512,-0.258297,-26.761669
11.185,2.0,1.0,1.0,33.3,33.1,33.1,4.2,3.0,2.8075,-0.0485304572263207,-0.03996833598675573,0.9687234090890754,-0.025044692240746597,-0.265118,-26.527277
11.185,2.0,1.0,1.0,33.3,33.1,33.1,4.2,3.0,2.81,-0.06255335212243246,-0.04068011106094387,0.9671204012412433,-0.026366238930136735,-0.272258,-26.289229
11.185,2.0,1.0,1.0,33.3,33.1,33.1,4.2,3.0,2.8125,-0.0767061206238323,-0.0414028994153414,0.965263815311977,-0.027756685922838,-0.27974,-26.047376
11.185,2.0,1.0,1.0,33.3,33.1,33.1,4.2,3.0,2.815,-0.09098766575196147,-0.042136415869195025,0.9631439398838556,-0.029220635953732838,-0.287589,-25.80156
11.185,2.0,1.0,1.0,33.3,33.1,33.1,4.2,3.0,2.8175,-0.10539667711435853,-0.04288027895363271,0.9607505468740496,-0.030763093677320157,-0.295833,-25.551613
11.185,2.0,1.0,1.0,33.3,33.1,33.1,4.2,3.0,2.82,-0.11993160658527209,-0.04363399243853261,0.9580728462831132,-0.03238950954621425,-0.304503,-25.297357
11.185,2.0,1.0,1.0,33.3,33.1,33.1,4.2,3.0,2.8225,-0.13459064016854738,-0.04439692324575802,0.9550994352582843,-0.03410582938638047,-0.313632,-25.038602
11.185,2.0,1.0,1.0,33.3,33.1,33.1,4.2,3.0,2.825,-0.14937166527021903,-0.045168274981520824,0.9518182406173928,-0.03591855051301308,-0.323258,-24.775146
11.185,2.0,1.0,1.0,33.3,33.1,33.1,4.2,3.0,2.8275,-0.16427223242865324,-0.04594705614191025,0.9482164538387893,-0.03783478536826787,-0.333422,-24.506775
