1,w,sub_t,h,l1,l2,l3,g1,g2,Freq,S11_re,S21_re,S11_img,S21_img,S11_dB,S21_dB
11.185,2.0,1.0,1.0,34.2,34.3,34.3,3.9,2.8,2.5,0.755203468181565,-0.00951960844963771,0.644399614630238,0.00480285111469819,-0.063067,-39.442765
11.185,2.0,1.0,1.0,34.2,34.3,34.3,3.9,2.8,2.5025,0.7502928643977789,-0.009694436886389502,0.6499950400453341,0.004790387303466498,-0.063729,-39.320744
11.185,2.0,1.0,1.0,34.2,34.3,34.3,3.9,2.8,2.505,0.7453158077468418,-0.009872279474848325,0.6555793718718806,0.004776241770955949,-0.064403,-39.198268
11.185,2.0,1.0,1.0,34.2,34.3,34.3,3.9,2.8,2.5075,0.7402716364831311,-0.010053197107392086,0.6611520789902972,0.004760353796546085,-0.06509,-39.075329
11.185,2.0,1.0,1.0,34.2,34.3,34.3,3.9,2.8,2.51,0.7351596802732185,-0.010237252259860755,0.6667126151168368,0.00474266040645567,-0.06579,-38.951915
11.185,2.0,1.0,1.0,34.2,34.3,34.3,3.9,2.8,2.5125,0.7299792601281336,-0.010424509043855716,0.6722604183473925,0.004723096277430324,-0.066503,-38.828016
11.185,2.0,1.0,1.0,34.2,34.3,34.3,3.9,2.8,2.515,0.7247296883375081,-0.010615033261211352,0.6777949106869253,0.004701593635608912,-0.067229,-38.703619
11.185,2.0,1.0,1.0,34.2,34.3,34.3,3.9,2.8,2.5175,0.7194102684057614,-0.010808892460748343,0.683315497563983,0.004678082150284582,-0.06797,-38.578715
11.185,2.0,1.0,1.0,34.2,34.3,34.3,3.9,2.8,2.52,0.7140202949904613,-0.011006155997427254,0.6888215673297905,0.004652488822259537,-0.068725,-38.453292
11.185,2.0,1.0,1.0,34.2,34.3,34.3,3.9,2.8,2.5225,0.7085590538430395,-0.01120689509402511,0.694312490741328,0.004624737866468805,-0.069494,-38.327338
11.185,2.0,1.0,1.0,34.2,34.3,34.3,3.9,2.8,2.525,0.7030258217520018,-0.011411182905467603,0.6997876204278273,0.004594750588528348,-0.070278,-38.200841
11.185,2.0,1.0,1.0,34.2,34.3,34.3,3.9,2.8,2.5275,0.6974198664888112,-0.01161909458595625,0.7052462903400634,0.004562445254836451,-0.071078,-38.073788
11.185,2.0,1.0,1.0,34.2,34.3,34.3,3.9,2.8,2.53,0.6917404467566229,-0.011830707359038744,0.7106878151817936,0.004527736955833553,-0.071894,-37.946169
11.185,2.0,1.0,1.0,34.2,34.3,34.3,3.9,2.8,2.5325,0.6859868121420419,-0.012046100590779594,0.7161114898226701,0.004490537461994581,-0.072726,-37.817969
11.185,2.0,1.0,1.0,34.2,34.3,34.3,3.9,2.8,2.535,0.6801582030700913,-0.012265355866198506,0.721516588691917,0.004450755072099869,-0.073575,-37.689175
11.185,2.0,1.0,1.0,34.2,34.3,34.3,3.9,2.8,2.5375,0.6742538507625894,-0.012488557069153722,0.7269023651520196,0.004408294453295847,-0.074441,-37.559775
11.185,2.0,1.0,1.0,34.2,34.3,34.3,3.9,2.8,2.54,0.6682729772001256,-0.012715790465858787,0.7322680508516459,0.004363056472421681,-0.075325,-37.429755
11.185,2.0,1.0,1.0,34.2,34.3,34.3,3.9,2.8,2.5425,0.6622147950878368,-0.012947144792233953,0.7376128550569715,0.004314938018038863,-0.076227,-37.299101
11.185,2.0,1.0,1.0,34.2,34.3,34.3,3.9,2.8,2.545,0.6560785078251988,-0.013182711345304418,0.74293596396054,0.004263831812558548,-0.077148,-37.167799
11.185,2.0,1.0,1.0,34.2,34.3,34.3,3.9,2.8,2.5475,0.6498633094800456,-0.013422584078872833,0.7482365399667306,0.0042096262138159035,-0.078088,-37.035834
11.185,2.0,1.0,1.0,34.2,34.3,34.3,3.9,2.8,2.55,0.6435683847670232,-0.013666859703707911,0.7535137209528794,0.004152205005391057,-0.079048,-36.90319
11.185,2.0,1.0,1.0,34.2,34.3,34.3,3.9,2.8,2.5525,0.6371929090307237,-0.013915637792504163,0.7587666195050095,0.00409144717492142,-0.080028,-36.769854
11.185,2.0,1.0,1.0,34.2,34.3,34.3,3.9,2.8,2.555,0.6307360482337058,-0.014169020889889175,0.7639943221270957,0.00402722667959282,-0.081029,-36.635809
11.185,2.0,1.0,1.0,34.2,34.3,34.3,3.9,2.8,2.5575,0.6241969589496418,-0.014427114627766803,0.7691958884227176,0.003959412197931418,-0.082052,-36.501039
11.185,2.0,1.0,1.0,34.2,34.3,34.3,3.9,2.8,2.56,0.6175747883618319,-0.014690027846309179,0.7743703502478706,0.003887866866949871,-0.083097,-36.365527
11.185,2.0,1.0,1.0,34.2,34.3,34.3,3.9,2.8,2.5625,0.6108686742673155,-0.014957872720926467,0.7795167108336396,0.003812448003624029,-0.084165,-36.229257
11.185,2.0,1.0,1.0,34.2,34.3,34.3,3.9,2.8,2.565,0.6040777450868225,-0.015230764895568162,0.7846339438773727,0.0037330068095945282,-0.085257,-36.092211
11.185,2.0,1.0,1.0,34.2,34.3,34.3,3.9,2.8,2.5675,0.5972011198808149,-0.01550882362273123,0.7897209926008639,0.003649388057896908,-0.086373,-35.954371
11.185,2.0,1.0,1.0,34.2,34.3,34.3,3.9,2.8,2.57,0.590237908371854,-0.015792171910576344,0.7947767687739965,0.0035614297604236074,-0.087514,-35.81572
11.185,2.0,1.0,1.0,34.2,34.3,34.3,3.9,2.8,2.5725,0.5831872109735354,-0.016080936677579576,0.799800151702173,0.0034689628147146503,-0.088681,-35.676237
11.185,2.0,1.0,1.0,34.2,34.3,34.3,3.9,2.8,2.575,0.5760481188262462,-0.016375248915176062,0.8047899871757438,0.0033718106285540077,-0.089874,-35.535904
11.185,2.0,1.0,1.0,34.2,34.3,34.3,3.9,2.8,2.5775,0.5688197138399731,-0.016675243858882083,0.8097450863795178,0.003269788720718594,-0.091095,-35.394701
11.185,2.0,1.0,1.0,34.2,34.3,34.3,3.9,2.8,2.58,0.5615010687444112,-0.01698106116841579,0.8146642247603116,0.003162704296085207,-0.092345,-35.252607
11.185,2.0,1.0,1.0,34.2,34.3,34.3,3.9,2.8,2.5825,0.5540912471465959,-0.0172928451173693,0.819546140850329,0.003050355793142482,-0.093624,-35.1096
11.185,2.0,1.0,1.0,34.2,34.3,34.3,3.9,2.8,2.585,0.5465893035962963,-0.017610744793026503,0.824389535044004,0.0029325324017844675,-0.094933,-34.96566
11.185,2.0,1.0,1.0,34.2,34.3,34.3,3.9,2.8,2.5875,0.5389942836593798,-0.01793491430695534,0.8291930683257582,0.00280901354907213,-0.096274,-34.820764
11.185,2.0,1.0,1.0,34.2,34.3,34.3,3.9,2.8,2.59,0.5313052239993702,-0.01826551301705111,0.8339553609459204,0.0026795683504405696,-0.097647,-34.674889
11.185,2.0,1.0,1.0,34.2,34.3,34.3,3.9,2.8,2.5925,0.5235211524673871,-0.018602705761748113,0.8386749910418354,0.002543955023600482,-0.099054,-34.52801
11.185,2.0,1.0,1.0,34.2,34.3,34.3,3.9,2.8,2.595,0.5156410882006699,-0.018946663107169425,0.8433504932009425,0.0024019202621288053,-0.100495,-34.380103
11.185,2.0,1.0,1.0,34.2,34.3,34.3,3.9,2.8,2.5975,0.5076640417298383,-0.01929756160803215,0.8479803569623512,0.0022531985654631677,-0.101973,-34.231144
11.185,2.0,1.0,1.0,34.2,34.3,34.3,3.9,2.8,2.6,0.499589015095054,-0.019655584083183585,0.8525630252531207,0.002097511521705379,-0.103487,-34.081104
11.185,2.0,1.0,1.0,34.2,34.3,34.3,3.9,2.8,2.6025,0.4914150019712216,-0.02002091990669821,0.8570968927551385,0.0019345670392971973,-0.10504,-33.929958
11.185,2.0,1.0,1.0,34.2,34.3,34.3,3.9,2.8,2.605,0.4831409878023239,-0.02039376531553045,0.8615803041981254,0.0017640585232514704,-0.106633,-33.777678
11.185,2.0,1.0,1.0,34.2,34.3,34.3,3.9,2.8,2.6075,0.47476594994498994,-0.020774323734780525,0.8660115525738807,0.0015856639912009939,-0.108267,-33.624234
11.185,2.0,1.0,1.0,34.2,34.3,34.3,3.9,2.8,2.61,0.4662888578213484,-0.02116280612169885,0.8703888772664499,0.0013990451240610679,-0.109945,-33.469596
11.185,2.0,1.0,1.0,34.2,34.3,34.3,3.9,2.8,2.6125,0.4577086730811901,-0.02155943132962977,0.8747104620923746,0.0012038462455805717,-0.111666,-33.313734
11.185,2.0,1.0,1.0,34.2,34.3,34.3,3.9,2.8,2.615,0.44902434977342703,-0.02196442649316629,0.8789744332446563,0.000999693224480087,-0.113434,-33.156615
11.185,2.0,1.0,1.0,34.2,34.3,34.3,3.9,2.8,2.6175,0.440234834526812,-0.022378027435869127,0.8831788571334047,0.0007861922922301705,-0.115251,-32.998207
11.185,2.0,1.0,1.0,34.2,34.3,34.3,3.9,2.8,2.62,0.43133906673982814,-0.022800479101983868,0.8873217381154962,0.0005629287688049998,-0.117117,-32.838474
11.185,2.0,1.0,1.0,34.2,34.3,34.3,3.9,2.8,2.6225,0.42233597877961543,-0.023232036013675007,0.8914010161047485,0.0003294656879440335,-0.119035,-32.677381
11.185,2.0,1.0,1.0,34.2,34.3,34.3,3.9,2.8,2.625,0.413224496189787,-0.0236729627553794,0.895414564053268,8.53423125566716e-05,-0.121007,-32.514891
11.185,2.0,1.0,1.0,34.2,34.3,34.3,3.9,2.8,2.6275,0.40400353790689125,-0.024123534486971923,0.8993601852936614,-0.00016992747010053017,-0.123035,-32.350966
11.185,2.0,1.0,1.0,34.2,34.3,34.3,3.9,2.8,2.63,0.39467201648528544,-0.024584037487521426,0.9032356107306895,-0.00043685688497056954,-0.125122,-32.185565
11.185,2.0,1.0,1.0,34.2,34.3,34.3,3.9,2.8,2.6325,0.3852288383301095,-0.025054769731499407,0.9070384958697129,-0.0007159881502299987,-0.127271,-32.018647
11.185,2.0,1.0,1.0,34.2,34.3,34.3,3.9,2.8,2.635,0.37567290393802194,-0.02553604149939055,0.91076641766791,-0.0010078945169936118,-0.129483,-31.850168
11.185,2.0,1.0,1.0,34.2,34.3,34.3,3.9,2.8,2.6375,0.366003108145328,-0.026028176024723956,0.9144168711926652,-0.001313182483477952,-0.131761,-31.680085
11.185,2.0,1.0,1.0,34.2,34.3,34.3,3.9,2.8,2.64,0.35621834038307837,-0.02653151017961914,0.9179872660697805,-0.0016324942012155928,-0.134109,-31.508349
11.185,2.0,1.0,1.0,34.2,34.3,34.3,3.9,2.8,2.6425,0.34631748493874687,-0.027046395200987436,0.9214749227021363,-0.0019665100929519507,-0.13653,-31.334913
11.185,2.0,1.0,1.0,34.2,34.3,34.3,3.9,2.8,2.645,0.3362994212240524,-0.027573197459571618,0.924877068237209,-0.002315951704163204,-0.139027,-31.159726
11.185,2.0,1.0,1.0,34.2,34.3,34.3,3.9,2.8,2.6475,0.326163024048546,-0.02811229927401339,0.9281908322592476,-0.0026815848127443387,-0.141603,-30.982735
11.185,2.0,1.0,1.0,34.2,34.3,34.3,3.9,2.8,2.65,0.31590716389860374,-0.028664099772122267,0.9314132421790401,-0.0030642228243810007,-0.144263,-30.803885
11.185,2.0,1.0,1.0,34.2,34.3,34.3,3.9,2.8,2.6525,0.30553070722163006,-0.02922901580144886,0.9345412182908265,-0.00346473048448329,-0.14701,-30.623118
11.185,2.0,1.0,1.0,34.2,34.3,34.3,3.9,2.8,2.655,0.29503251671531844,-0.029807482891149737,0.9375715684622234,-0.0038840279413934605,-0.149848,-30.440374
11.185,2.0,1.0,1.0,34.2,34.3,34.3,3.9,2.8,2.6575,0.28441145162213866,-0.030399956266938852,0.9405009824186231,-0.004323095199944188,-0.152783,-30.25559
11.185,2.0,1.0,1.0,34.2,34.3,34.3,3.9,2.8,2.66,0.2736663680294427,-0.03100691192063097,0.9433260255786666,-0.004782977009434709,-0.155819,-30.068701
11.185,2.0,1.0,1.0,34.2,34.3,34.3,3.9,2.8,2.6625,0.2627961191760576,-0.03162884773538773,0.9460431323917018,-0.0052647882357951216,-0.158962,-29.879638
11.185,2.0,1.0,1.0,34.2,34.3,34.3,3.9,2.8,2.665,0.25179955576672813,-0.03226628466721675,0.9486485991216959,-0.005769719774250766,-0.162217,-29.688329
11.185,2.0,1.0,1.0,34.2,34.3,34.3,3.9,2.8,2.6675,0.24067552629658343,-0.03291976798253788,0.9511385760145812,-0.006299045066304379,-0.16559,-29.494698
11.185,2.0,1.0,1.0,34.2,34.3,34.3,3.9,2.8,2.67,0.22942287738871486,-0.03358986855064789,0.9535090587774799,-0.006854127293490874,-0.169087,-29.298667
11.185,2.0,1.0,1.0,34.2,34.3,34.3,3.9,2.8,2.6725,0.21804045414923517,-0.034277184188628226,0.9557558792883323,-0.0074364273303140875,-0.172717,-29.100152
11.185,2.0,1.0,1.0,34.2,34.3,34.3,3.9,2.8,2.675,0.2065271005458483,-0.034982341054576635,0.9578746954430286,-0.008047512550268622,-0.176485,-28.899066
11.185,2.0,1.0,1.0,34.2,34.3,34.3,3.9,2.8,2.6775,0.19488165981802683,-0.03570599508288992,0.9598609800338975,-0.008689066592152798,-0.180401,-28.695318
11.185,2.0,1.0,1.0,34.2,34.3,34.3,3.9,2.8,2.68,0.18310297492959904,-0.036448833452572216,0.9617100085380461,-0.00936290020930289,-0.184474,-28.488811
11.185,2.0,1.0,1.0,34.2,34.3,34.3,3.9,2.8,2.6825,0.17118988907801852,-0.03721157607601297,0.9634168456761507,-0.010070963342300891,-0.188712,-28.279445
11.185,2.0,1.0,1.0,34.2,34.3,34.3,3.9,2.8,2.685,0.15914124627893902,-0.03799497709118606,0.9649763305815021,-0.010815358576583391,-0.193126,-28.067111
11.185,2.0,1.0,1.0,34.2,34.3,34.3,3.9,2.8,2.6875,0.1469558920503431,-0.03879982633449906,0.9663830603947535,-0.011598356170737848,-0.197728,-27.851698
11.185,2.0,1.0,1.0,34.2,34.3,34.3,3.9,2.8,2.69,0.13463267422759964,-0.039626950764246216,0.9676313720713753,-0.012422410869768346,-0.20253,-27.633087
11.185,2.0,1.0,1.0,34.2,34.3,34.3,3.9,2.8,2.6925,0.12217044394980205,-0.040477215795384984,0.9687153221554231,-0.013290180751027097,-0.207545,-27.411153
11.185,2.0,1.0,1.0,34.2,34.3,34.3,3.9,2.8,2.695,0.10956805686937743,-0.04135152649461026,0.9696286642339378,-0.014204548389764428,-0.212787,-27.185762
11.185,2.0,1.0,1.0,34.2,34.3,34.3,3.9,2.8,2.6975,0.0968243746514207,-0.04225082856979223,0.9703648237400746,-0.015168644677512284,-0.218273,-26.956775
11.185,2.0,1.0,1.0,34.2,34.3,34.3,3.9,2.8,2.7,0.08393826684801012,-0.04317610906887214,0.9709168697183335,-0.016185875681125637,-0.22402,-26.724043
11.185,2.0,1.0,1.0,34.2,34.3,34.3,3.9,2.8,2.7025,0.07090861325638444,-0.04412839667916755,0.9712774831005587,-0.017259952994969262,-0.230048,-26.487408
11.185,2.0,1.0,1.0,34.2,34.3,34.3,3.9,2.8,2.705,0.057734306900210385,-0.0451087614872522,0.9714389209645652,-0.018394928115460542,-0.236377,-26.246705
11.185,2.0,1.0,1.0,34.2,34.3,34.3,3.9,2.8,2.7075,0.044414257811912584,-0.046118314020266366,0.9713929761557137,-0.019595231458467127,-0.243031,-26.001754
11.185,2.0,1.0,1.0,34.2,34.3,34.3,3.9,2.8,2.71,0.03094739784364221,-0.04715820333920346,0.9711309315427368,-0.020865716748929754,-0.250036,-25.752369
11.185,2.0,1.0,1.0,34.2,34.3,34.3,3.9,2.8,2.7125,0.017332686798157273,-0.04822961389019715,0.9706435080485593,-0.02221171164226975,-0.25742,-25.498347
11.185,2.0,1.0,1.0,34.2,34.3,34.3,3.9,2.8,2.715,0.0035691202528951704,-0.049333760736853804,0.9699208054404179,-0.023639075593195127,-0.265216,-25.239476
11.185,2.0,1.0,1.0,34.2,34.3,34.3,3.9,2.8,2.7175,-0.010344260443710021,-0.05047188268968371,0.968952234675499,-0.025154266175055735,-0.273458,-24.975527
11.185,2.0,1.0,1.0,34.2,34.3,34.3,3.9,2.8,2.72,-0.024408355387571253,-0.05164523271027102,0.967726440371674,-0.026764415278807078,-0.282186,-24.706256
11.185,2.0,1.0,1.0,34.2,34.3,34.3,3.9,2.8,2.7225,-0.038623989752080756,-0.05285506478820392,0.9662312116992475,-0.028477416893418716,-0.291445,-24.431404
11.185,2.0,1.0,1.0,34.2,34.3,34.3,3.9,2.8,2.725,-0.052991892813124324,-0.05410261625482658,0.9644533796582901,-0.030302028499639134,-0.301284,-24.150691
11.185,2.0,1.0,1.0,34.2,34.3,34.3,3.9,2.8,2.7275,-0.06751267103691928,-0.05538908419201028,0.9623786983043532,-0.03224798850928342,-0.31176,-23.863819
11.185,2.0,1.0,1.0,34.2,34.3,34.3,3.9,2.8,2.73,-0.08218677350306441,-0.056715594192619054,0.9599917069971062,-0.03432615266837095,-0.322935,-23.570467
11.185,2.0,1.0,1.0,34.2,34.3,34.3,3.9,2.8,2.7325,-0.0970144474097133,-0.05808315920003983,0.9572755701523317,-0.03654865293383808,-0.334883,-23.270291
11.185,2.0,1.0,1.0,34.2,34.3,34.3,3.9,2.8,2.735,-0.11199568071144707,-0.059492625453196966,0.9542118902541362,-0.03892908305359123,-0.347685,-22.962921
11.185,2.0,1.0,1.0,34.2,34.3,34.3,3.9,2.8,2.7375,-0.12713012801347298,-0.060944601630885296,0.950780489002507,-0.04148271595661942,-0.361434,-22.647956
11.185,2.0,1.0,1.0,34.2,34.3,34.3,3.9,2.8,2.74,-0.1424170146058387,-0.062439366042284054,0.9469591503977173,-0.044226759127277256,-0.376239,-22.324968
11.185,2.0,1.0,1.0,34.2,34.3,34.3,3.9,2.8,2.7425,-0.15785501185395515,-0.06397674503463205,0.942723318257774,-0.04718065543464256,-0.392223,-21.99349
11.185,2.0,1.0,1.0,34.2,34.3,34.3,3.9,2.8,2.745,-0.17344207490794422,-0.06555595352462588,0.9380457390839329,-0.05036643845767947,-0.409529,-21.653021
11.185,2.0,1.0,1.0,34.2,34.3,34.3,3.9,2.8,2.7475,-0.1891752306296812,-0.06717538548357925,0.9328960392850074,-0.05380915323565686,-0.428324,-21.303015
11.185,2.0,1.0,1.0,34.2,34.3,34.3,3.9,2.8,2.75,-0.205050299448805,-0.0688323380027882,0.927240223500021,-0.0575373556232568,-0.448801,-20.942884
11.185,2.0,1.0,1.0,34.2,34.3,34.3,3.9,2.8,2.7525,-0.22106152910142474,-0.07052264678880084,0.9210400780909899,-0.06158370606818394,-0.47119,-20.571987
11.185,2.0,1.0,1.0,34.2,34.3,34.3,3.9,2.8,2.755,-0.23720111024376334,-0.072240202953436,0.9142524608209797,-0.06598567664499055,-0.495758,-20.18963
11.185,2.0,1.0,1.0,34.2,34.3,34.3,3.9,2.8,2.7575,-0.2534585328595944,-0.07397630986259976,0.9068284543732892,-0.0707863934809961,-0.522825,-19.795058
11.185,2.0,1.0,1.0,34.2,34.3,34.3,3.9,2.8,2.76,-0.2698197268921311,-0.075718823288329,0.8987123579483559,-0.07603564004895245,-0.552773,-19.387452
11.185,2.0,1.0,1.0,34.2,34.3,34.3,3.9,2.8,2.7625,-0.2862659087526654,-0.07745099629609134,0.8898404882339034,-0.08179104962787266,-0.586057,-18.96592
11.185,2.0,1.0,1.0,34.2,34.3,34.3,3.9,2.8,2.765,-0.30277202458902025,-0.0791499194973625,0.8801397596671722,-0.0881195164469522,-0.623232,-18.529498
11.185,2.0,1.0,1.0,34.2,34.3,34.3,3.9,2.8,2.7675,-0.31930463755813265,-0.08078440363527911,0.8695260161810565,-0.09509885252034428,-0.66497,-18.077139
11.185,2.0,1.0,1.0,34.2,34.3,34.3,3.9,2.8,2.77,-0.33581904430707815,-0.0823120894339441,0.8579020964420919,-0.10281970702709171,-0.712098,-17.607713
11.185,2.0,1.0,1.0,34.2,34.3,34.3,3.9,2.8,2.7725,-0.3522553176536211,-0.08367548149057862,0.8451556390950757,-0.11138774009716727,-0.765633,-17.12001
11.185,2.0,1.0,1.0,34.2,34.3,34.3,3.9,2.8,2.775,-0.3685328474574626,-0.08479647817309405,0.8311566867071031,-0.12092598998595983,-0.826847,-16.612739
11.185,2.0,1.0,1.0,34.2,34.3,34.3,3.9,2.8,2.7775,-0.3845427761656926,-0.08556879439970237,0.8157552503466106,-0.13157726837495562,-0.897333,-16.084546
11.185,2.0,1.0,1.0,34.2,34.3,34.3,3.9,2.8,2.78,-0.40013748372163405,-0.085847433257816,0.7987791929009065,-0.1435062209580631,-0.97911,-15.534035
11.185,2.0,1.0,1.0,34.2,34.3,34.3,3.9,2.8,2.7825,-0.41511595545020813,-0.08543404306338456,0.780033152556518,-0.15690032522608224,-1.074752,-14.959822
11.185,2.0,1.0,1.0,34.2,34.3,34.3,3.9,2.8,2.785,-0.429203470552791,-0.0840566037444974,0.7592998880761745,-0.17196843467565082,-1.187569,-14.360605
11.185,2.0,1.0,1.0,34.2,34.3,34.3,3.9,2.8,2.7875,-0.4420236376665335,-0.08134148127313,0.7363466056794538,-0.1889342977030682,-1.321843,-13.735302
11.185,2.0,1.0,1.0,34.2,34.3,34.3,3.9,2.8,2.79,-0.45306058365906093,-0.07677567935911925,0.7109408828414892,-0.20802042181959135,-1.483132,-13.083263
11.185,2.0,1.0,1.0,34.2,34.3,34.3,3.9,2.8,2.7925,-0.461609629317287,-0.06965766363820652,0.6828842682711198,-0.2294141913029563,-1.678653,-12.404601
11.185,2.0,1.0,1.0,34.2,34.3,34.3,3.9,2.8,2.795,-0.46671739245442084,-0.059037770301793635,0.65207713048595,-0.2532026652728869,-1.91769,-11.700723
11.185,2.0,1.0,1.0,34.2,34.3,34.3,3.9,2.8,2.7975,-0.46711982294275955,-0.04365681752060003,0.6186360424741915,-0.27925480618414267,-2.211895,-10.975121
11.185,2.0,1.0,1.0,34.2,34.3,34.3,3.9,2.8,2.8,-0.461204652392786,-0.021909560247518584,0.5830929068908,-0.30702206504509716,-2.57505,-10.234548
11.185,2.0,1.0,1.0,34.2,34.3,34.3,3.9,2.8,2.8025,-0.44706119274689216,0.008103922583097457,0.5467041978286337,-0.33522926809666254,-3.021178,-9.490624
11.185,2.0,1.0,1.0,34.2,34.3,34.3,3.9,2.8,2.805,-0.42273983499883333,0.04831658578614618,0.511864071119003,-0.3614626774138836,-3.558434,-8.761818
11.185,2.0,1.0,1.0,34.2,34.3,34.3,3.9,2.8,2.8075,-0.3869016218889943,0.10004278167996819,0.4824979010073517,-0.3817795633894022,-4.173719,-8.075324
11.185,2.0,1.0,1.0,34.2,34.3,34.3,3.9,2.8,2.81,-0.33998583906109164,0.16281050580388895,0.4640707411550463,-0.39070535038802295,-4.80235,-7.46764
11.185,2.0,1.0,1.0,34.2,34.3,34.3,3.9,2.8,2.8125,-0.285640951974011,0.232935080168454,0.462591306337873,-0.38223634691569,-5.293228,-6.981817
11.185,2.0,1.0,1.0,34.2,34.3,34.3,3.9,2.8,2.815,-0.2313827530446916,0.30287181804766916,0.4822243719801151,-0.3522302620826644,-5.43515,-6.659536
11.185,2.0,1.0,1.0,34.2,34.3,34.3,3.9,2.8,2.8175,-0.18703624990262532,0.3627866085477724,0.522413238678916,-0.30127687369330186,-5.115929,-6.529006
11.185,2.0,1.0,1.0,34.2,34.3,34.3,3.9,2.8,2.82,-0.16092335210967737,0.40437240662123974,0.5768928064279333,-0.23566906167491067,-4.452666,-6.59443
11.185,2.0,1.0,1.0,34.2,34.3,34.3,3.9,2.8,2.8225,-0.15635606109355218,0.42434682774523397,0.6360919566102873,-0.1649861303296989,-3.674818,-6.834203
11.185,2.0,1.0,1.0,34.2,34.3,34.3,3.9,2.8,2.825,-0.1711817298755169,0.42489137493696905,0.6911965928326956,-0.09802800116606267,-2.949441,-7.209216
11.185,2.0,1.0,1.0,34.2,34.3,34.3,3.9,2.8,2.8275,-0.2001100331932808,0.4113136942352486,0.736785021149474,-0.04018741107931033,-2.344088,-7.675274
