1,w,sub_t,h,l1,l2,l3,g1,g2,Freq,S11_re,S21_re,S11_img,S21_img,S11_dB,S21_dB
11.185,2.0,1.0,1.0,33.7,33.0,33.0,1.8,2.6,2.5,0.821996575217463,-0.0122132069463047,0.556590858835095,0.0105894062854347,-0.063558,-35.82864
11.185,2.0,1.0,1.0,33.7,33.0,33.0,1.8,2.6,2.5025,0.817983414891808,-0.012460437137736265,0.5623411045248924,0.010634566620726675,-0.064208,-35.712879
11.185,2.0,1.0,1.0,33.7,33.0,33.0,1.8,2.6,2.505,0.8139103311854251,-0.012712129770889967,0.5680882789827916,0.010678421633345085,-0.064869,-35.596783
11.185,2.0,1.0,1.0,33.7,33.0,33.0,1.8,2.6,2.5075,0.809776696990509,-0.012968370722763588,0.5738320382306531,0.010720908595146038,-0.065543,-35.480348
11.185,2.0,1.0,1.0,33.7,33.0,33.0,1.8,2.6,2.51,0.8055818752615127,-0.013229247722127172,0.5795720275001648,0.010761962373705244,-0.066229,-35.363566
11.185,2.0,1.0,1.0,33.7,33.0,33.0,1.8,2.6,2.5125,0.8013252188711377,-0.013494850389566179,0.5853078808735107,0.010801515336757935,-0.066928,-35.246431
11.185,2.0,1.0,1.0,33.7,33.0,33.0,1.8,2.6,2.515,0.7970060704655346,-0.013765270278160737,0.5910392209117292,0.010839497252597988,-0.06764,-35.128936
11.185,2.0,1.0,1.0,33.7,33.0,33.0,1.8,2.6,2.5175,0.7926237623188231,-0.014040600914788303,0.5967656582702697,0.010875835186252646,-0.068365,-35.011077
11.185,2.0,1.0,1.0,33.7,33.0,33.0,1.8,2.6,2.52,0.788177616187037,-0.014320937842036181,0.6024867913012769,0.010910453391240386,-0.069103,-34.892845
11.185,2.0,1.0,1.0,33.7,33.0,33.0,1.8,2.6,2.5225,0.7836669431616385,-0.014606378660705315,0.608202205642057,0.010943273196711225,-0.069856,-34.774234
11.185,2.0,1.0,1.0,33.7,33.0,33.0,1.8,2.6,2.525,0.7790910435227298,-0.014897023072885486,0.6139114737892204,0.010974212889757667,-0.070622,-34.655238
11.185,2.0,1.0,1.0,33.7,33.0,33.0,1.8,2.6,2.5275,0.774449206592124,-0.015192972925578268,0.6196141546579228,0.011003187592675117,-0.071403,-34.53585
11.185,2.0,1.0,1.0,33.7,33.0,33.0,1.8,2.6,2.53,0.7697407105864542,-0.01549433225484017,0.625309793125622,0.011030109134938714,-0.072199,-34.416063
11.185,2.0,1.0,1.0,33.7,33.0,33.0,1.8,2.6,2.5325,0.7649648224705127,-0.01580120733041513,0.6309979195597433,0.011054885919653442,-0.073009,-34.295871
11.185,2.0,1.0,1.0,33.7,33.0,33.0,1.8,2.6,2.535,0.7601207978110257,-0.016113706700821122,0.6366780493286186,0.011077422784220739,-0.073835,-34.175266
11.185,2.0,1.0,1.0,33.7,33.0,33.0,1.8,2.6,2.5375,0.7552078806311172,-0.016431941238849994,0.6423496822950316,0.011097620854952993,-0.074677,-34.054242
11.185,2.0,1.0,1.0,33.7,33.0,33.0,1.8,2.6,2.54,0.7502253032657054,-0.016756024187437213,0.6480123022916843,0.011115377395354037,-0.075534,-33.932791
11.185,2.0,1.0,1.0,33.7,33.0,33.0,1.8,2.6,2.5425,0.7451722862181323,-0.017086071205850067,0.653665376577865,0.011130585647769474,-0.076408,-33.810907
11.185,2.0,1.0,1.0,33.7,33.0,33.0,1.8,2.6,2.545,0.7400480380183342,-0.017422200416137856,0.6593083552765763,0.011143134668095352,-0.077299,-33.688582
11.185,2.0,1.0,1.0,33.7,33.0,33.0,1.8,2.6,2.5475,0.7348517550829173,-0.01776453244978243,0.6649406707913336,0.011152909153218557,-0.078208,-33.565809
11.185,2.0,1.0,1.0,33.7,33.0,33.0,1.8,2.6,2.55,0.7295826215775024,-0.018113190494479025,0.6705617372018581,0.011159789260846608,-0.079133,-33.44258
11.185,2.0,1.0,1.0,33.7,33.0,33.0,1.8,2.6,2.5525,0.7242398092817848,-0.018468300340968885,0.6761709496378,0.011163650421364512,-0.080077,-33.318889
11.185,2.0,1.0,1.0,33.7,33.0,33.0,1.8,2.6,2.555,0.7188224774577558,-0.018829990429840536,0.6817676836296562,0.011164363141342115,-0.08104,-33.194727
11.185,2.0,1.0,1.0,33.7,33.0,33.0,1.8,2.6,2.5575,0.7133297727215976,-0.019198391898203465,0.6873512944359912,0.011161792798291612,-0.082021,-33.070087
11.185,2.0,1.0,1.0,33.7,33.0,33.0,1.8,2.6,2.56,0.7077608289198127,-0.0195736386261314,0.6929211163460369,0.011155799426258594,-0.083022,-32.944962
11.185,2.0,1.0,1.0,33.7,33.0,33.0,1.8,2.6,2.5625,0.7021147670101882,-0.01995586728275892,0.698476461956746,0.011146237491805554,-0.084043,-32.819343
11.185,2.0,1.0,1.0,33.7,33.0,33.0,1.8,2.6,2.565,0.6963906949482496,-0.02034521737190812,0.7040166214233347,0.011132955659925814,-0.085084,-32.693222
11.185,2.0,1.0,1.0,33.7,33.0,33.0,1.8,2.6,2.5675,0.6905877075799334,-0.02074183127710348,0.7095408616823248,0.011115796549401959,-0.086146,-32.566592
11.185,2.0,1.0,1.0,33.7,33.0,33.0,1.8,2.6,2.57,0.6847048865412373,-0.021145854305826984,0.7150484256460984,0.011094596477096179,-0.087229,-32.439444
11.185,2.0,1.0,1.0,33.7,33.0,33.0,1.8,2.6,2.5725,0.678741300165694,-0.021557434732843224,0.7205385313679421,0.011069185190635898,-0.088335,-32.311771
11.185,2.0,1.0,1.0,33.7,33.0,33.0,1.8,2.6,2.575,0.6726960034005605,-0.021976723842415984,0.7260103711765595,0.011039385588927694,-0.089464,-32.183563
11.185,2.0,1.0,1.0,33.7,33.0,33.0,1.8,2.6,2.5775,0.6665680377326968,-0.02240387596921452,0.7314631107790135,0.011005013429904849,-0.090615,-32.054813
11.185,2.0,1.0,1.0,33.7,33.0,33.0,1.8,2.6,2.58,0.6603564311251556,-0.022839048537692506,0.7368958883310643,0.010965877024880754,-0.091791,-31.925512
11.185,2.0,1.0,1.0,33.7,33.0,33.0,1.8,2.6,2.5825,0.6540601979655786,-0.02328240209970207,0.7423078134738679,0.010921776918849815,-0.092991,-31.795651
11.185,2.0,1.0,1.0,33.7,33.0,33.0,1.8,2.6,2.585,0.6476783390275637,-0.02373410037008267,0.747697966336002,0.010872505556040765,-0.094216,-31.665221
11.185,2.0,1.0,1.0,33.7,33.0,33.0,1.8,2.6,2.5875,0.6412098414462137,-0.02419431025994163,0.7530653964998015,0.010817846929991763,-0.095468,-31.534214
11.185,2.0,1.0,1.0,33.7,33.0,33.0,1.8,2.6,2.59,0.6346536787091583,-0.024663201907316343,0.7584091219309899,0.01075757621737721,-0.096746,-31.40262
11.185,2.0,1.0,1.0,33.7,33.0,33.0,1.8,2.6,2.5925,0.6280088106643688,-0.025140948704883065,0.7637281278706226,0.010691459394776188,-0.098052,-31.270431
11.185,2.0,1.0,1.0,33.7,33.0,33.0,1.8,2.6,2.595,0.6212741835461624,-0.025627727324342417,0.7690213656883635,0.010619252837528473,-0.099386,-31.137638
11.185,2.0,1.0,1.0,33.7,33.0,33.0,1.8,2.6,2.5975,0.6144487300208007,-0.026123717737084152,0.7742877516961473,0.01054070289977841,-0.100749,-31.004229
11.185,2.0,1.0,1.0,33.7,33.0,33.0,1.8,2.6,2.6,0.607531369253144,-0.0266291032306945,0.7795261659212973,0.010455545474759692,-0.102142,-30.870197
11.185,2.0,1.0,1.0,33.7,33.0,33.0,1.8,2.6,2.6025,0.6005210069958458,-0.027144070420831258,0.784735450838174,0.010363505534321726,-0.103566,-30.735532
11.185,2.0,1.0,1.0,33.7,33.0,33.0,1.8,2.6,2.605,0.5934165357025584,-0.027668809257953255,0.7899144100574664,0.010264296646645594,-0.105021,-30.600223
11.185,2.0,1.0,1.0,33.7,33.0,33.0,1.8,2.6,2.6075,0.5862168346666558,-0.02820351302834032,0.7950618069722144,0.010157620471040574,-0.10651,-30.464261
11.185,2.0,1.0,1.0,33.7,33.0,33.0,1.8,2.6,2.61,0.5789207701869545,-0.028748378348794415,0.800176363359657,0.01004316622865098,-0.108032,-30.327636
11.185,2.0,1.0,1.0,33.7,33.0,33.0,1.8,2.6,2.6125,0.5715271957618911,-0.02930360515435839,0.8052567579379905,0.009920610147841262,-0.10959,-30.190337
11.185,2.0,1.0,1.0,33.7,33.0,33.0,1.8,2.6,2.615,0.564034952313599,-0.029869396678329774,0.8103016248770497,0.009789614882958484,-0.111183,-30.052354
11.185,2.0,1.0,1.0,33.7,33.0,33.0,1.8,2.6,2.6175,0.5564428684432945,-0.030445959423784384,0.815309552261894,0.009649828905101758,-0.112813,-29.913676
11.185,2.0,1.0,1.0,33.7,33.0,33.0,1.8,2.6,2.62,0.5487497607193391,-0.031033503125756864,0.8202790805081717,0.00950088586345148,-0.114481,-29.774293
11.185,2.0,1.0,1.0,33.7,33.0,33.0,1.8,2.6,2.6225,0.5409544339993156,-0.03163224070315008,0.8252087007280228,0.009342403915633513,-0.116189,-29.634193
11.185,2.0,1.0,1.0,33.7,33.0,33.0,1.8,2.6,2.625,0.533055681787442,-0.0322423881993641,0.830096853045126,0.00917398502550842,-0.117938,-29.493366
11.185,2.0,1.0,1.0,33.7,33.0,33.0,1.8,2.6,2.6275,0.525052286628599,-0.03286416471055002,0.8349419248573291,0.008995214226687327,-0.119729,-29.3518
11.185,2.0,1.0,1.0,33.7,33.0,33.0,1.8,2.6,2.63,0.5169430205402922,-0.03349779230029405,0.8397422490450361,0.008805658849982318,-0.121563,-29.209484
11.185,2.0,1.0,1.0,33.7,33.0,33.0,1.8,2.6,2.6325,0.508726645483872,-0.03414349589943936,0.8444961021233193,0.008604867712899936,-0.123443,-29.066406
11.185,2.0,1.0,1.0,33.7,33.0,33.0,1.8,2.6,2.635,0.5004019138764101,-0.034801503189633785,0.8492017023353963,0.008392370269181573,-0.125368,-28.922555
11.185,2.0,1.0,1.0,33.7,33.0,33.0,1.8,2.6,2.6375,0.49196756914474865,-0.03547204446907483,0.8538572076847935,0.00816767571628333,-0.127342,-28.777917
11.185,2.0,1.0,1.0,33.7,33.0,33.0,1.8,2.6,2.64,0.4834223463233674,-0.03615535249878447,0.858460713903182,0.007930272058570461,-0.129365,-28.632481
11.185,2.0,1.0,1.0,33.7,33.0,33.0,1.8,2.6,2.6425,0.47476497269796514,-0.03685166232760503,0.8630102523504799,0.007679625123878914,-0.131439,-28.486235
11.185,2.0,1.0,1.0,33.7,33.0,33.0,1.8,2.6,2.645,0.46599416849689634,-0.037561211093945855,0.8675037878434374,0.0074151775309625355,-0.133566,-28.339166
11.185,2.0,1.0,1.0,33.7,33.0,33.0,1.8,2.6,2.6475,0.45710864763296355,-0.038284237802138917,0.8719392164085366,0.007136347605210041,-0.135748,-28.19126
11.185,2.0,1.0,1.0,33.7,33.0,33.0,1.8,2.6,2.65,0.4481071184984578,-0.0390209830710749,0.8763143629546398,0.006842528239864269,-0.137987,-28.042505
11.185,2.0,1.0,1.0,33.7,33.0,33.0,1.8,2.6,2.6525,0.43898828481686014,-0.03977168885258228,0.8806269788604497,0.006533085699827901,-0.140284,-27.892887
11.185,2.0,1.0,1.0,33.7,33.0,33.0,1.8,2.6,2.655,0.42975084655510115,-0.04053659811679314,0.8848747394715134,0.0062073583649698266,-0.142642,-27.742393
11.185,2.0,1.0,1.0,33.7,33.0,33.0,1.8,2.6,2.6575,0.42039350090095007,-0.04131595450149268,0.8890552415011669,0.005864655409678888,-0.145062,-27.591009
11.185,2.0,1.0,1.0,33.7,33.0,33.0,1.8,2.6,2.66,0.41091494331071954,-0.04211000192218191,0.8931660003295677,0.005504255415226719,-0.147547,-27.43872
11.185,2.0,1.0,1.0,33.7,33.0,33.0,1.8,2.6,2.6625,0.4013138686332458,-0.042918984139295936,0.8972044471947154,0.005125404911310755,-0.1501,-27.285513
11.185,2.0,1.0,1.0,33.7,33.0,33.0,1.8,2.6,2.665,0.39158897231679785,-0.0437431442787001,0.9011679262692146,0.004727316842944517,-0.152722,-27.131372
11.185,2.0,1.0,1.0,33.7,33.0,33.0,1.8,2.6,2.6675,0.3817389517064407,-0.04458272430123916,0.9050536916163973,0.004309168958649248,-0.155416,-26.976283
11.185,2.0,1.0,1.0,33.7,33.0,33.0,1.8,2.6,2.67,0.37176250744012,-0.0454379644167373,0.9088589040193717,0.003870102115675948,-0.158185,-26.820231
11.185,2.0,1.0,1.0,33.7,33.0,33.0,1.8,2.6,2.6725,0.3616583449526121,-0.04630910243743081,0.9125806276765458,0.003409218497748531,-0.161031,-26.663199
11.185,2.0,1.0,1.0,33.7,33.0,33.0,1.8,2.6,2.675,0.3514251760973174,-0.04719637306535953,0.9162158267571883,0.002925579740571003,-0.163958,-26.505172
11.185,2.0,1.0,1.0,33.7,33.0,33.0,1.8,2.6,2.6775,0.34106172089670433,-0.04810000710775089,0.919761361810671,0.0024182049600772683,-0.166967,-26.346134
11.185,2.0,1.0,1.0,33.7,33.0,33.0,1.8,2.6,2.68,0.3305667094330476,-0.04902023061388244,0.923213986023129,0.0018860686781287427,-0.170063,-26.186069
11.185,2.0,1.0,1.0,33.7,33.0,33.0,1.8,2.6,2.6825,0.3199388838919834,-0.04995726392631079,0.9265703413153303,0.0013280986400744951,-0.173248,-26.024959
11.185,2.0,1.0,1.0,33.7,33.0,33.0,1.8,2.6,2.685,0.3091770007721954,-0.05091132063870957,0.9298269542757129,0.000743173518285833,-0.176525,-25.862787
11.185,2.0,1.0,1.0,33.7,33.0,33.0,1.8,2.6,2.6875,0.2982798332754465,-0.05188260645183112,0.9329802319225848,0.00013012049546170403,-0.179899,-25.699537
11.185,2.0,1.0,1.0,33.7,33.0,33.0,1.8,2.6,2.69,0.28724617389202967,-0.05287131791832679,0.9360264572895965,-0.0005122872788295794,-0.183373,-25.53519
11.185,2.0,1.0,1.0,33.7,33.0,33.0,1.8,2.6,2.6925,0.27607483719760684,-0.05387764106629668,0.9389617848285912,-0.0011853333652540757,-0.18695,-25.369727
11.185,2.0,1.0,1.0,33.7,33.0,33.0,1.8,2.6,2.695,0.2647646628784019,-0.054901749890484644,0.9417822356239987,-0.001890360852695462,-0.190635,-25.203131
11.185,2.0,1.0,1.0,33.7,33.0,33.0,1.8,2.6,2.6975,0.2533145190026677,-0.05594380469899926,0.9444836924128623,-0.0026287753247320397,-0.194432,-25.035381
11.185,2.0,1.0,1.0,33.7,33.0,33.0,1.8,2.6,2.7,0.24172330555754848,-0.057003950302286104,0.9470618944045053,-0.003402047982595867,-0.198346,-24.86646
11.185,2.0,1.0,1.0,33.7,33.0,33.0,1.8,2.6,2.7025,0.22998995827154708,-0.05808231402982026,0.9495124318937753,-0.004211718933007323,-0.202381,-24.696346
11.185,2.0,1.0,1.0,33.7,33.0,33.0,1.8,2.6,2.705,0.21811345274427718,-0.059179003558591806,0.9518307406615409,-0.005059400649676031,-0.206541,-24.52502
11.185,2.0,1.0,1.0,33.7,33.0,33.0,1.8,2.6,2.7075,0.20609280890654663,-0.06029410453593085,0.9540120961560071,-0.005946781617678193,-0.210833,-24.35246
11.185,2.0,1.0,1.0,33.7,33.0,33.0,1.8,2.6,2.71,0.19392709583555656,-0.06142767797752355,0.9560516074481094,-0.0068756301703362535,-0.215262,-24.178646
11.185,2.0,1.0,1.0,33.7,33.0,33.0,1.8,2.6,2.7125,0.18161543695179427,-0.06257975741961576,0.9579442109540238,-0.00784779852864903,-0.219833,-24.003555
11.185,2.0,1.0,1.0,33.7,33.0,33.0,1.8,2.6,2.715,0.16915701562630617,-0.06375034580233654,0.9596846639175397,-0.008865227053741405,-0.224553,-23.827166
11.185,2.0,1.0,1.0,33.7,33.0,33.0,1.8,2.6,2.7175,0.15655108122931077,-0.06493941205881128,0.9612675376447802,-0.009929948723214052,-0.229427,-23.649456
11.185,2.0,1.0,1.0,33.7,33.0,33.0,1.8,2.6,2.72,0.14379695565371733,-0.0661468873822187,0.9626872104834905,-0.011044093842673013,-0.234463,-23.470402
11.185,2.0,1.0,1.0,33.7,33.0,33.0,1.8,2.6,2.7225,0.13089404034995392,-0.06737266114017997,0.9639378605388744,-0.012209895004101582,-0.239668,-23.289979
11.185,2.0,1.0,1.0,33.7,33.0,33.0,1.8,2.6,2.725,0.11784182391174515,-0.06861657640278995,0.9650134581177934,-0.013429692303079157,-0.245049,-23.108163
11.185,2.0,1.0,1.0,33.7,33.0,33.0,1.8,2.6,2.7275,0.10463989025596952,-0.06987842504721525,0.965907757892982,-0.014705938827166044,-0.250615,-22.924929
11.185,2.0,1.0,1.0,33.7,33.0,33.0,1.8,2.6,2.73,0.09128792744374478,-0.07115794239800989,0.9666142907789078,-0.01604120642801491,-0.256372,-22.740253
11.185,2.0,1.0,1.0,33.7,33.0,33.0,1.8,2.6,2.7325,0.07778573719415444,-0.07245480135813931,0.9671263555109524,-0.0174381917899546,-0.262332,-22.554106
11.185,2.0,1.0,1.0,33.7,33.0,33.0,1.8,2.6,2.735,0.06413324514697534,-0.07376860598107188,0.9674370099197664,-0.018899722807866975,-0.268502,-22.366464
11.185,2.0,1.0,1.0,33.7,33.0,33.0,1.8,2.6,2.7375,0.05033051193602707,-0.07509888442917147,0.9675390618929935,-0.02042876528714648,-0.274894,-22.177297
11.185,2.0,1.0,1.0,33.7,33.0,33.0,1.8,2.6,2.74,0.036377745140776255,-0.07644508125792529,0.9674250600170625,-0.022028429978339325,-0.281517,-21.986579
11.185,2.0,1.0,1.0,33.7,33.0,33.0,1.8,2.6,2.7425,0.022275312190313187,-0.07780654895921756,0.967087283892534,-0.023701979958692127,-0.288383,-21.794279
11.185,2.0,1.0,1.0,33.7,33.0,33.0,1.8,2.6,2.745,0.008023754301187073,-0.07918253868982748,0.9665177341174412,-0.025452838372228694,-0.295504,-21.600369
11.185,2.0,1.0,1.0,33.7,33.0,33.0,1.8,2.6,2.7475,-0.006376198461473219,-0.0805721901035064,0.9657081219344992,-0.027284596539093098,-0.302893,-21.404818
11.185,2.0,1.0,1.0,33.7,33.0,33.0,1.8,2.6,2.75,-0.0209236109010726,-0.0819745201963051,0.964649858539676,-0.0292010224436587,-0.310563,-21.207595
11.185,2.0,1.0,1.0,33.7,33.0,33.0,1.8,2.6,2.7525,-0.03561732507663891,-0.08338841106513112,0.9633340440519238,-0.031206069609247912,-0.318529,-21.008667
11.185,2.0,1.0,1.0,33.7,33.0,33.0,1.8,2.6,2.755,-0.05045594124054653,-0.08481259646874748,0.9617514561465323,-0.03330388636513422,-0.326806,-20.808003
11.185,2.0,1.0,1.0,33.7,33.0,33.0,1.8,2.6,2.7575,-0.06543779719542697,-0.08624564706843008,0.9598925383580215,-0.03549882550870852,-0.335411,-20.605567
11.185,2.0,1.0,1.0,33.7,33.0,33.0,1.8,2.6,2.76,-0.08056094592520607,-0.0876859542121226,0.95774738806269,-0.03779545436213471,-0.344361,-20.401327
11.185,2.0,1.0,1.0,33.7,33.0,33.0,1.8,2.6,2.7625,-0.09582313134023357,-0.08913171211104641,0.9553057441560856,-0.0401985652183645,-0.353675,-20.195245
11.185,2.0,1.0,1.0,33.7,33.0,33.0,1.8,2.6,2.765,-0.11122176195967678,-0.09058089824112497,0.9525569744469475,-0.04271318616581454,-0.363373,-19.987287
11.185,2.0,1.0,1.0,33.7,33.0,33.0,1.8,2.6,2.7675,-0.12675388233582233,-0.09203125178307944,0.9494900627968673,-0.04534459227412097,-0.373476,-19.777414
11.185,2.0,1.0,1.0,33.7,33.0,33.0,1.8,2.6,2.77,-0.14241614200420236,-0.09348024989446024,0.9460935960441419,-0.0480983171149053,-0.384007,-19.565589
11.185,2.0,1.0,1.0,33.7,33.0,33.0,1.8,2.6,2.7725,-0.15820476172046302,-0.094925081583908,0.9423557507615814,-0.05098016458107136,-0.394992,-19.351772
11.185,2.0,1.0,1.0,33.7,33.0,33.0,1.8,2.6,2.775,-0.17411549671932727,-0.09636261893236797,0.9382642799115924,-0.053996220955444416,-0.406456,-19.135922
11.185,2.0,1.0,1.0,33.7,33.0,33.0,1.8,2.6,2.7775,-0.19014359670253758,-0.097789385377525,0.9338064994782537,-0.05715286716406626,-0.418428,-18.917999
11.185,2.0,1.0,1.0,33.7,33.0,33.0,1.8,2.6,2.78,-0.20628376223103315,-0.09920152074605566,0.9289692751758325,-0.06045679113064268,-0.430938,-18.69796
11.185,2.0,1.0,1.0,33.7,33.0,33.0,1.8,2.6,2.7825,-0.22253009716153613,-0.10059474268310142,0.9237390093569915,-0.06391500012580162,-0.44402,-18.475762
11.185,2.0,1.0,1.0,33.7,33.0,33.0,1.8,2.6,2.785,-0.2388760567287799,-0.1019643040893158,0.9181016282725138,-0.06753483297720857,-0.457708,-18.25136
11.185,2.0,1.0,1.0,33.7,33.0,33.0,1.8,2.6,2.7875,-0.2553143908313435,-0.10330494613252751,0.9120425698687555,-0.07132397197316959,-0.472041,-18.024708
11.185,2.0,1.0,1.0,33.7,33.0,33.0,1.8,2.6,2.79,-0.27183708203154083,-0.10461084635318753,0.9055467723503993,-0.07529045425206003,-0.48706,-17.795759
11.185,2.0,1.0,1.0,33.7,33.0,33.0,1.8,2.6,2.7925,-0.2884352777269359,-0.10587556132990479,0.8985986637856608,-0.07944268242129197,-0.50281,-17.564467
11.185,2.0,1.0,1.0,33.7,33.0,33.0,1.8,2.6,2.795,-0.30509921589329914,-0.10709196331324385,0.8911821530907351,-0.08378943409099171,-0.519338,-17.330782
11.185,2.0,1.0,1.0,33.7,33.0,33.0,1.8,2.6,2.7975,-0.3218181437352051,-0.10825217017221629,0.8832806228018159,-0.08833986993704422,-0.536698,-17.094653
11.185,2.0,1.0,1.0,33.7,33.0,33.0,1.8,2.6,2.8,-0.3385802285112632,-0.10934746792838518,0.8748769241288332,-0.09310353982339696,-0.554945,-16.856031
11.185,2.0,1.0,1.0,33.7,33.0,33.0,1.8,2.6,2.8025,-0.35537245972573456,-0.11036822507707826,0.8659533748880772,-0.09809038641156942,-0.574142,-16.614864
11.185,2.0,1.0,1.0,33.7,33.0,33.0,1.8,2.6,2.805,-0.37218054179739735,-0.11130379781403665,0.8564917610344053,-0.10331074556286676,-0.594355,-16.371097
11.185,2.0,1.0,1.0,33.7,33.0,33.0,1.8,2.6,2.8075,-0.3889887762300466,-0.11214242519924435,0.8464733426617892,-0.10877534269179365,-0.615656,-16.124678
11.185,2.0,1.0,1.0,33.7,33.0,33.0,1.8,2.6,2.81,-0.405779932218068,-0.11287111319849812,0.8358788655184478,-0.11449528405277669,-0.638127,-15.875553
11.185,2.0,1.0,1.0,33.7,33.0,33.0,1.8,2.6,2.8125,-0.422535104525997,-0.113475506448789,0.824688579295425,-0.120482041730819,-0.661853,-15.623665
11.185,2.0,1.0,1.0,33.7,33.0,33.0,1.8,2.6,2.815,-0.4392335573853308,-0.11393974649787077,0.8128822642018867,-0.12674743085339038,-0.686928,-15.368961
11.185,2.0,1.0,1.0,33.7,33.0,33.0,1.8,2.6,2.8175,-0.4558525530577901,-0.11424631517456679,0.8004392676448633,-0.13330357723763536,-0.713458,-15.111383
11.185,2.0,1.0,1.0,33.7,33.0,33.0,1.8,2.6,2.82,-0.47236716362643616,-0.11437586165890828,0.7873385531948566,-0.14016287332450347,-0.741556,-14.850876
11.185,2.0,1.0,1.0,33.7,33.0,33.0,1.8,2.6,2.8225,-0.4887500645007209,-0.11430701174642251,0.773558764452908,-0.14733791981864455,-0.771346,-14.587384
11.185,2.0,1.0,1.0,33.7,33.0,33.0,1.8,2.6,2.825,-0.504971308067295,-0.11401615774762565,0.7590783069519877,-0.15484144993710602,-0.802966,-14.320853
11.185,2.0,1.0,1.0,33.7,33.0,33.0,1.8,2.6,2.8275,-0.5209980758976362,-0.11347722744399133,0.7438754518409322,-0.16268623255631057,-0.836568,-14.051227
11.185,2.0,1.0,1.0,33.7,33.0,33.0,1.8,2.6,2.83,-0.5367944079517459,-0.11266143055178005,0.7279284658292483,-0.1708849498187575,-0.872318,-13.778454
