1,w,sub_t,h,l1,l2,l3,g1,g2,Freq,S11_re,S21_re,S11_img,S21_img,S11_dB,S21_dB
11.185,2.0,1.0,1.0,34.1,34.7,34.7,2.0,2.1,2.5,0.755512955788364,-0.0226330803778795,0.639566708808474,0.0161026087562609,-0.088424,-31.126357
11.185,2.0,1.0,1.0,34.1,34.7,34.7,2.0,2.1,2.5025,0.7502146145270012,-0.02315128713833276,0.6455521920819013,0.01617099169050268,-0.089691,-30.982785
11.185,2.0,1.0,1.0,34.1,34.7,34.7,2.0,2.1,2.505,0.7448343095615626,-0.023681891319446757,0.6515278427774016,0.01623648751612789,-0.09099,-30.838328
11.185,2.0,1.0,1.0,34.1,34.7,34.7,2.0,2.1,2.5075,0.7393709294038683,-0.02422525767566878,0.6574929764289966,0.01629891147678035,-0.092322,-30.692966
11.185,2.0,1.0,1.0,34.1,34.7,34.7,2.0,2.1,2.51,0.7338233384802708,-0.024781764423231926,0.6634468833255678,0.01635806859021236,-0.093688,-30.546682
11.185,2.0,1.0,1.0,34.1,34.7,34.7,2.0,2.1,2.5125,0.7281903764136995,-0.025351803840956935,0.6693888274277464,0.01641375302863414,-0.09509,-30.399455
11.185,2.0,1.0,1.0,34.1,34.7,34.7,2.0,2.1,2.515,0.7224708572754962,-0.025935782902383624,0.6753180452278361,0.016465747456571197,-0.096529,-30.251266
11.185,2.0,1.0,1.0,34.1,34.7,34.7,2.0,2.1,2.5175,0.7166635688053808,-0.02653412394107577,0.6812337445489808,0.016513822322927352,-0.098006,-30.102094
11.185,2.0,1.0,1.0,34.1,34.7,34.7,2.0,2.1,2.52,0.7107672715977508,-0.02714726535106332,0.6871351032795229,0.01655773510366238,-0.099522,-29.951919
11.185,2.0,1.0,1.0,34.1,34.7,34.7,2.0,2.1,2.5225,0.7047806982524457,-0.0277756623245083,0.6930212680381252,0.01659722949117546,-0.10108,-29.800718
11.185,2.0,1.0,1.0,34.1,34.7,34.7,2.0,2.1,2.525,0.6987025524879322,-0.0284197876288173,0.6988913527649022,0.016632034526139733,-0.10268,-29.64847
11.185,2.0,1.0,1.0,34.1,34.7,34.7,2.0,2.1,2.5275,0.6925315082147759,-0.02908013242556508,0.7047444372333854,0.016661863667147978,-0.104325,-29.495151
11.185,2.0,1.0,1.0,34.1,34.7,34.7,2.0,2.1,2.53,0.6862662085671151,-0.029757207133742816,0.7105795654777136,0.01668641379311117,-0.106015,-29.34074
11.185,2.0,1.0,1.0,34.1,34.7,34.7,2.0,2.1,2.5325,0.6799052648896917,-0.030451542340008814,0.716395744128956,0.01670536413288625,-0.107754,-29.18521
11.185,2.0,1.0,1.0,34.1,34.7,34.7,2.0,2.1,2.535,0.6734472556778481,-0.031163689758788492,0.7221919406539584,0.01671837511610045,-0.109542,-29.028539
11.185,2.0,1.0,1.0,34.1,34.7,34.7,2.0,2.1,2.5375,0.6668907254677356,-0.03189422324525044,0.7279670814895012,0.016725087138575033,-0.111383,-28.870701
11.185,2.0,1.0,1.0,34.1,34.7,34.7,2.0,2.1,2.54,0.6602341836737845,-0.032643739864380274,0.7337200500639318,0.016725119235130283,-0.113277,-28.711669
11.185,2.0,1.0,1.0,34.1,34.7,34.7,2.0,2.1,2.5425,0.6534761033703125,-0.03341286101957524,0.7394496846977225,0.016718067651865866,-0.115227,-28.551416
11.185,2.0,1.0,1.0,34.1,34.7,34.7,2.0,2.1,2.545,0.6466149200139423,-0.034202233644396715,0.7451547763736258,0.016703504309251677,-0.117236,-28.389916
11.185,2.0,1.0,1.0,34.1,34.7,34.7,2.0,2.1,2.5475,0.639649030103296,-0.035012531461345024,0.7508340663662187,0.016680975146521664,-0.119306,-28.22714
11.185,2.0,1.0,1.0,34.1,34.7,34.7,2.0,2.1,2.55,0.632576789772187,-0.03584445631175979,0.7564862437197155,0.016649998336932006,-0.12144,-28.063058
11.185,2.0,1.0,1.0,34.1,34.7,34.7,2.0,2.1,2.5525,0.6253965133123448,-0.03669873956119454,0.7621099425618098,0.016610062362410458,-0.12364,-27.89764
11.185,2.0,1.0,1.0,34.1,34.7,34.7,2.0,2.1,2.555,0.6181064716214066,-0.03757614358488128,0.7677037392401986,0.0165606239349756,-0.125909,-27.730855
11.185,2.0,1.0,1.0,34.1,34.7,34.7,2.0,2.1,2.5575,0.610704890571696,-0.03847746333816785,0.7732661492671026,0.016501105751028578,-0.128251,-27.562672
11.185,2.0,1.0,1.0,34.1,34.7,34.7,2.0,2.1,2.56,0.6031899492950321,-0.03940352801709345,0.778795624055651,0.01643089406320082,-0.130668,-27.393057
11.185,2.0,1.0,1.0,34.1,34.7,34.7,2.0,2.1,2.5625,0.5955597783785421,-0.04035520281456005,0.7842905474304187,0.016349336052859535,-0.133164,-27.221976
11.185,2.0,1.0,1.0,34.1,34.7,34.7,2.0,2.1,2.565,0.5878124579661547,-0.041333390777852815,0.7897492318925954,0.016255736984610934,-0.135743,-27.049394
11.185,2.0,1.0,1.0,34.1,34.7,34.7,2.0,2.1,2.5675,0.5799460157602052,-0.04233903477356365,0.795169914618265,0.016149357122173514,-0.138409,-26.875274
11.185,2.0,1.0,1.0,34.1,34.7,34.7,2.0,2.1,2.57,0.5719584249172592,-0.04337311956627728,0.8005507531660819,0.01602940838279645,-0.141166,-26.699579
11.185,2.0,1.0,1.0,34.1,34.7,34.7,2.0,2.1,2.5725,0.5638476018320021,-0.04443667401767568,0.8058898208681019,0.015895050704939545,-0.144018,-26.52227
11.185,2.0,1.0,1.0,34.1,34.7,34.7,2.0,2.1,2.575,0.5556114038027679,-0.04553077341300964,0.8111851018747794,0.015745388101180053,-0.146969,-26.343307
11.185,2.0,1.0,1.0,34.1,34.7,34.7,2.0,2.1,2.5775,0.547247626572018,-0.04665654192215799,0.8164344858220094,0.015579464365224784,-0.150025,-26.162649
11.185,2.0,1.0,1.0,34.1,34.7,34.7,2.0,2.1,2.58,0.5387540017348579,-0.0478151552027471,0.8216357620845975,0.015396258398445427,-0.153192,-25.980253
11.185,2.0,1.0,1.0,34.1,34.7,34.7,2.0,2.1,2.5825,0.5301281940084618,-0.04900784315301515,0.8267866135766431,0.015194679117463278,-0.156473,-25.796074
11.185,2.0,1.0,1.0,34.1,34.7,34.7,2.0,2.1,2.585,0.5213677983551579,-0.05023589282226618,0.8318846100548885,0.014973559899934836,-0.159877,-25.610066
11.185,2.0,1.0,1.0,34.1,34.7,34.7,2.0,2.1,2.5875,0.5124703369518185,-0.0515006514868543,0.8369272008761373,0.01473165252076126,-0.163408,-25.422182
11.185,2.0,1.0,1.0,34.1,34.7,34.7,2.0,2.1,2.59,0.503433255998234,-0.052803529899635764,0.8419117071542604,0.01446762052538802,-0.167074,-25.232372
11.185,2.0,1.0,1.0,34.1,34.7,34.7,2.0,2.1,2.5925,0.49425392235725024,-0.05414600572071202,0.8468353132560048,0.014180031980588358,-0.170882,-25.040586
11.185,2.0,1.0,1.0,34.1,34.7,34.7,2.0,2.1,2.595,0.484929620019764,-0.055529627137006765,0.8516950575676744,0.013867351536035077,-0.17484,-24.846769
11.185,2.0,1.0,1.0,34.1,34.7,34.7,2.0,2.1,2.5975,0.47545754638809834,-0.05695601667775548,0.8564878224567369,0.013527931721939163,-0.178956,-24.650868
11.185,2.0,1.0,1.0,34.1,34.7,34.7,2.0,2.1,2.6,0.4658348083720353,-0.058426875232253456,0.8612103233432489,0.01316000339894515,-0.183239,-24.452825
11.185,2.0,1.0,1.0,34.1,34.7,34.7,2.0,2.1,2.6025,0.45605841829281624,-0.05994398627516733,0.865859096785655,0.012761665266157855,-0.187699,-24.25258
11.185,2.0,1.0,1.0,34.1,34.7,34.7,2.0,2.1,2.605,0.44612528959181336,-0.06150922030326902,0.8704304874737901,0.012330872321458453,-0.192347,-24.050073
11.185,2.0,1.0,1.0,34.1,34.7,34.7,2.0,2.1,2.6075,0.43603223234254634,-0.06312453948549598,0.8749206340085154,0.011865423154945291,-0.197192,-23.845239
11.185,2.0,1.0,1.0,34.1,34.7,34.7,2.0,2.1,2.61,0.4257759485672346,-0.06479200252565677,0.8793254533322571,0.011362945941159839,-0.202248,-23.63801
11.185,2.0,1.0,1.0,34.1,34.7,34.7,2.0,2.1,2.6125,0.41535302736240926,-0.06651376973372679,0.8836406236573409,0.010820882978458617,-0.207527,-23.428319
11.185,2.0,1.0,1.0,34.1,34.7,34.7,2.0,2.1,2.615,0.40475993984239017,-0.06829210829731343,0.8878615657192825,0.010236473604141748,-0.213043,-23.216093
11.185,2.0,1.0,1.0,34.1,34.7,34.7,2.0,2.1,2.6175,0.39399303391497137,-0.07012939773927444,0.8919834221595312,0.009606735291376943,-0.218812,-23.001257
11.185,2.0,1.0,1.0,34.1,34.7,34.7,2.0,2.1,2.62,0.38304852891063423,-0.07202813554034856,0.8960010348163631,0.008928442708124255,-0.224849,-22.783732
11.185,2.0,1.0,1.0,34.1,34.7,34.7,2.0,2.1,2.6225,0.3719225100955161,-0.0739909428966218,0.8999089196729428,0.008198104488672297,-0.231173,-22.563438
11.185,2.0,1.0,1.0,34.1,34.7,34.7,2.0,2.1,2.625,0.360610923109633,-0.0760205705702317,0.903701239177618,0.00741193743445217,-0.237802,-22.340288
11.185,2.0,1.0,1.0,34.1,34.7,34.7,2.0,2.1,2.6275,0.3491095683859411,-0.07811990477735037,0.9073717716125064,0.006565837821813601,-0.244758,-22.114195
11.185,2.0,1.0,1.0,34.1,34.7,34.7,2.0,2.1,2.63,0.3374140956236931,-0.0802919730394119,0.9109138771415763,0.005655349449646373,-0.252064,-21.885065
11.185,2.0,1.0,1.0,34.1,34.7,34.7,2.0,2.1,2.6325,0.32551999841182866,-0.08253994990089726,0.9143204601178447,0.004675628008178897,-0.259744,-21.652802
11.185,2.0,1.0,1.0,34.1,34.7,34.7,2.0,2.1,2.635,0.3134226091261571,-0.08486716238858916,0.9175839271699191,0.0036214012909224114,-0.267825,-21.417306
11.185,2.0,1.0,1.0,34.1,34.7,34.7,2.0,2.1,2.6375,0.3011170942591813,-0.0872770950516471,0.9206961405196092,0.002486924703317754,-0.276338,-21.17847
11.185,2.0,1.0,1.0,34.1,34.7,34.7,2.0,2.1,2.64,0.2885984503852741,-0.08977339437734581,0.9236483659034347,0.0012659314427442728,-0.285315,-20.936184
11.185,2.0,1.0,1.0,34.1,34.7,34.7,2.0,2.1,2.6425,0.275861501019021,-0.09235987232158502,0.9264312143796815,-4.8423366462299735e-05,-0.294791,-20.690332
11.185,2.0,1.0,1.0,34.1,34.7,34.7,2.0,2.1,2.645,0.2629008946933445,-0.09504050862352288,0.9290345771975778,-0.0014636254043778364,-0.304806,-20.440795
11.185,2.0,1.0,1.0,34.1,34.7,34.7,2.0,2.1,2.6475,0.2497111046704442,-0.09781945148628096,0.9314475527837428,-0.0029878716958460206,-0.315403,-20.187446
11.185,2.0,1.0,1.0,34.1,34.7,34.7,2.0,2.1,2.65,0.23628643080677117,-0.10070101609612854,0.9336583647610833,-0.004630150042261896,-0.32663,-19.930151
11.185,2.0,1.0,1.0,34.1,34.7,34.7,2.0,2.1,2.6525,0.22262100422927047,-0.10368968031509837,0.9356542697537676,-0.0064003285884117475,-0.33854,-19.668774
11.185,2.0,1.0,1.0,34.1,34.7,34.7,2.0,2.1,2.655,0.2087087956506956,-0.10679007670939562,0.9374214535459935,-0.008309256953610658,-0.351192,-19.403168
11.185,2.0,1.0,1.0,34.1,34.7,34.7,2.0,2.1,2.6575,0.19454362836668332,-0.11000697985892133,0.9389449139483718,-0.010368880569672233,-0.364649,-19.133182
11.185,2.0,1.0,1.0,34.1,34.7,34.7,2.0,2.1,2.66,0.18011919724764827,-0.11334528762001518,0.9402083284805732,-0.01259237011273916,-0.378985,-18.858655
11.185,2.0,1.0,1.0,34.1,34.7,34.7,2.0,2.1,2.6625,0.16542909537966666,-0.11680999466908262,0.9411939046986941,-0.014994268195183439,-0.39428,-18.579422
11.185,2.0,1.0,1.0,34.1,34.7,34.7,2.0,2.1,2.665,0.15046685043927854,-0.12040615621994313,0.9418822106772083,-0.0175906558009736,-0.410625,-18.295308
11.185,2.0,1.0,1.0,34.1,34.7,34.7,2.0,2.1,2.6675,0.1352259734319498,-0.12413883925796024,0.9422519827957327,-0.020399341305713192,-0.42812,-18.006128
11.185,2.0,1.0,1.0,34.1,34.7,34.7,2.0,2.1,2.67,0.11970002311402166,-0.12801305793793932,0.9422799075784362,-0.023440075322347938,-0.446878,-17.711692
11.185,2.0,1.0,1.0,34.1,34.7,34.7,2.0,2.1,2.6725,0.10388269029335653,-0.13203368891013842,0.9419403738896985,-0.026734795054220068,-0.467027,-17.411797
11.185,2.0,1.0,1.0,34.1,34.7,34.7,2.0,2.1,2.675,0.08776790731577987,-0.13620536121801005,0.9412051913083543,-0.030307902313676284,-0.488712,-17.106236
11.185,2.0,1.0,1.0,34.1,34.7,34.7,2.0,2.1,2.6775,0.07134998945858888,-0.14053231398650742,0.9400432699953424,-0.03418657986529346,-0.512096,-16.794787
11.185,2.0,1.0,1.0,34.1,34.7,34.7,2.0,2.1,2.68,0.054623816752879396,-0.1450182133064411,0.9384202568572376,-0.03840115125624962,-0.537363,-16.477223
11.185,2.0,1.0,1.0,34.1,34.7,34.7,2.0,2.1,2.6825,0.03758506705072462,-0.14966591741068988,0.9362981223272213,-0.04298548976500259,-0.564724,-16.153305
11.185,2.0,1.0,1.0,34.1,34.7,34.7,2.0,2.1,2.685,0.020230514078006117,-0.15447717629486327,0.9336346916960232,-0.04797748247182371,-0.594422,-15.822786
11.185,2.0,1.0,1.0,34.1,34.7,34.7,2.0,2.1,2.6875,0.0025584079422306637,-0.15945224818464282,0.93038311472422,-0.053419555633133116,-0.626731,-15.48541
11.185,2.0,1.0,1.0,34.1,34.7,34.7,2.0,2.1,2.69,-0.015431039685395498,-0.16458941047651102,0.9264912674038667,-0.05935926737399606,-0.661969,-15.140913
11.185,2.0,1.0,1.0,34.1,34.7,34.7,2.0,2.1,2.6925,-0.03373503745266574,-0.16988433670728778,0.9219010804416723,-0.06584997296667103,-0.700502,-14.789024
11.185,2.0,1.0,1.0,34.1,34.7,34.7,2.0,2.1,2.695,-0.05234742734875025,-0.17532930341056238,0.9165477906563159,-0.0729515662851389,-0.742754,-14.429466
11.185,2.0,1.0,1.0,34.1,34.7,34.7,2.0,2.1,2.6975,-0.07125768326144427,-0.18091218100214648,0.9103591145420785,-0.08073129788771156,-0.789218,-14.061962
11.185,2.0,1.0,1.0,34.1,34.7,34.7,2.0,2.1,2.7,-0.09044963731826779,-0.18661515065368256,0.9032543485278147,-0.08926466479648616,-0.840467,-13.686233
11.185,2.0,1.0,1.0,34.1,34.7,34.7,2.0,2.1,2.7025,-0.10989986116731261,-0.1924130739867258,0.8951434091026363,-0.09863635825596626,-0.897173,-13.302005
11.185,2.0,1.0,1.0,34.1,34.7,34.7,2.0,2.1,2.705,-0.12957561086440372,-0.19827142390793231,0.885925839666311,-0.10894124187173962,-0.960128,-12.909018
11.185,2.0,1.0,1.0,34.1,34.7,34.7,2.0,2.1,2.7075,-0.14943222186424104,-0.20414366273839582,0.8754898321242391,-0.12028531110697999,-1.030263,-12.507029
11.185,2.0,1.0,1.0,34.1,34.7,34.7,2.0,2.1,2.71,-0.16940981489486803,-0.20996792811961446,0.8637113433580339,-0.13278655265530623,-1.108681,-12.095825
11.185,2.0,1.0,1.0,34.1,34.7,34.7,2.0,2.1,2.7125,-0.18942914522940926,-0.21566285904268295,0.85045343464687,-0.14657557380659594,-1.196699,-11.675239
11.185,2.0,1.0,1.0,34.1,34.7,34.7,2.0,2.1,2.715,-0.20938639972196552,-0.22112236646908778,0.8355660325971539,-0.16179580084833833,-1.295883,-11.245163
11.185,2.0,1.0,1.0,34.1,34.7,34.7,2.0,2.1,2.7175,-0.22914672361209237,-0.2262091311457173,0.8188864120531729,-0.17860294288547346,-1.408117,-10.80558
11.185,2.0,1.0,1.0,34.1,34.7,34.7,2.0,2.1,2.72,-0.248536253358147,-0.2307466063324233,0.8002408459858494,-0.19716327203858827,-1.535666,-10.356586
11.185,2.0,1.0,1.0,34.1,34.7,34.7,2.0,2.1,2.7225,-0.2673324620089901,-0.23450933482923922,0.7794480672645158,-0.21765007006164167,-1.681264,-9.898435
11.185,2.0,1.0,1.0,34.1,34.7,34.7,2.0,2.1,2.725,-0.2852527227174808,-0.23721149104033462,0.7563254544225998,-0.24023732322174532,-1.848227,-9.431589
11.185,2.0,1.0,1.0,34.1,34.7,34.7,2.0,2.1,2.7275,-0.30194121685629455,-0.23849378311826913,0.7306991930306564,-0.26508940710551365,-2.040576,-8.956779
11.185,2.0,1.0,1.0,34.1,34.7,34.7,2.0,2.1,2.73,-0.316954736127688,-0.23790927821429955,0.7024200614519265,-0.2923451060906242,-2.263201,-8.475084
11.185,2.0,1.0,1.0,34.1,34.7,34.7,2.0,2.1,2.7325,-0.3297486654501434,-0.23490945823907847,0.6713868863960708,-0.32209391779936836,-2.522042,-7.988025
11.185,2.0,1.0,1.0,34.1,34.7,34.7,2.0,2.1,2.735,-0.33966562304852194,-0.22883301207152487,0.6375799677982276,-0.35434234470748605,-2.824286,-7.497678
11.185,2.0,1.0,1.0,34.1,34.7,34.7,2.0,2.1,2.7375,-0.3459310030580743,-0.21890164881251892,0.6011065994431792,-0.3889680605175095,-3.178573,-7.0068
11.185,2.0,1.0,1.0,34.1,34.7,34.7,2.0,2.1,2.74,-0.34766203283339703,-0.20422959115875675,0.5622597177126444,-0.425660954897074,-3.595137,-6.518958
11.185,2.0,1.0,1.0,34.1,34.7,34.7,2.0,2.1,2.7425,-0.3438996322764031,-0.18385608190757158,0.5215879649533829,-0.46385284042064723,-4.085781,-6.03866
11.185,2.0,1.0,1.0,34.1,34.7,34.7,2.0,2.1,2.745,-0.3336744215738563,-0.15681227420418284,0.4799702104008639,-0.5026428952382236,-4.663423,-5.571442
11.185,2.0,1.0,1.0,34.1,34.7,34.7,2.0,2.1,2.7475,-0.3161177357450864,-0.12223333066013561,0.43867933933418896,-0.5407341954561133,-5.340672,-5.123887
11.185,2.0,1.0,1.0,34.1,34.7,34.7,2.0,2.1,2.75,-0.290622448309838,-0.0795203932957743,0.399409787723992,-0.576407048795442,-6.126287,-4.703533
11.185,2.0,1.0,1.0,34.1,34.7,34.7,2.0,2.1,2.7525,-0.25704359305878516,-0.028542121179692383,0.3642346106346805,-0.6075634841177521,-7.017185,-4.318593
11.185,2.0,1.0,1.0,34.1,34.7,34.7,2.0,2.1,2.755,-0.2159046062138233,0.030158822083202322,0.3354583570196286,-0.631876597914344,-7.982012,-3.977472
11.185,2.0,1.0,1.0,34.1,34.7,34.7,2.0,2.1,2.7575,-0.16854782996464795,0.0952161672989596,0.31535105637361716,-0.6470591177348519,-8.932834,-3.688083
11.185,2.0,1.0,1.0,34.1,34.7,34.7,2.0,2.1,2.76,-0.11715361460557555,0.16442325899776775,0.3057903666471758,-0.6512234381032297,-9.696727,-3.457012
11.185,2.0,1.0,1.0,34.1,34.7,34.7,2.0,2.1,2.7625,-0.06457095892759344,0.23490593007965543,0.30789222975531805,-0.6432518921471476,-10.045094,-3.288699
11.185,2.0,1.0,1.0,34.1,34.7,34.7,2.0,2.1,2.765,-0.013961912509162842,0.3034819646073198,0.32174570878467845,-0.6230609090026465,-9.841574,-3.184818
11.185,2.0,1.0,1.0,34.1,34.7,34.7,2.0,2.1,2.7675,0.031659258332380875,0.3671249376311113,0.3463528753242923,-0.5916581802781469,-9.173488,-3.144014
11.185,2.0,1.0,1.0,34.1,34.7,34.7,2.0,2.1,2.77,0.06985829915187243,0.42339758987098225,0.3798041840702849,-0.5509631996340609,-8.264309,-3.162094
11.185,2.0,1.0,1.0,34.1,34.7,34.7,2.0,2.1,2.7725,0.09906053181375356,0.4707304129282535,0.41962910387758934,-0.5034526625425157,-7.307169,-3.232591
11.185,2.0,1.0,1.0,34.1,34.7,34.7,2.0,2.1,2.775,0.11862107596703567,0.5084893223387379,0.463203695506171,-0.4517501173160648,-6.408694,-3.347572
11.185,2.0,1.0,1.0,34.1,34.7,34.7,2.0,2.1,2.7775,0.1287107967411137,0.5368584813655596,0.508099464968734,-0.3982759881181118,-5.610915,-3.498472
11.185,2.0,1.0,1.0,34.1,34.7,34.7,2.0,2.1,2.78,0.13009460822719884,0.5566158117842329,0.5523067411287271,-0.34502451319724126,-4.921882,-3.676813
11.185,2.0,1.0,1.0,34.1,34.7,34.7,2.0,2.1,2.7825,0.12388515374330622,0.5688847138136249,0.5943241042207225,-0.29347550238424774,-4.334816,-3.874729
11.185,2.0,1.0,1.0,34.1,34.7,34.7,2.0,2.1,2.785,0.11133026432721897,0.574920474387518,0.6331444448277764,-0.24460974458360268,-3.8377,-4.085264
11.185,2.0,1.0,1.0,34.1,34.7,34.7,2.0,2.1,2.7875,0.09366005698900223,0.5759570397919784,0.6681809311245592,-0.19898437551834794,-3.417615,-4.302501
11.185,2.0,1.0,1.0,34.1,34.7,34.7,2.0,2.1,2.79,0.0719946112543137,0.5731148214600865,0.6991704424438243,-0.15683044995127846,-3.062532,-4.521559
11.185,2.0,1.0,1.0,34.1,34.7,34.7,2.0,2.1,2.7925,0.047300236816356145,0.5673573080421555,0.7260791616876249,-0.11814798771734411,-2.761929,-4.738504
11.185,2.0,1.0,1.0,34.1,34.7,34.7,2.0,2.1,2.795,0.020378935060461626,0.559480919630294,0.7490227291828829,-0.08278613826267767,-2.506886,-4.950232
11.185,2.0,1.0,1.0,34.1,34.7,34.7,2.0,2.1,2.7975,-0.008122535634434516,0.5501244180856851,0.7682047503315451,-0.050504747323971824,-2.289975,-5.154331
11.185,2.0,1.0,1.0,34.1,34.7,34.7,2.0,2.1,2.8,-0.03769395647475293,0.5397878634609496,0.7838726474345429,-0.021018408225792595,-2.105059,-5.348958
11.185,2.0,1.0,1.0,34.1,34.7,34.7,2.0,2.1,2.8025,-0.0679397183190613,0.5288546915461662,0.7962878100645678,0.005973899626956126,-1.947098,-5.532719
11.185,2.0,1.0,1.0,34.1,34.7,34.7,2.0,2.1,2.805,-0.09855732207154164,0.5176132576574889,0.8057065837441433,0.030770085749745445,-1.811959,-5.704572
11.185,2.0,1.0,1.0,34.1,34.7,34.7,2.0,2.1,2.8075,-0.12931810268643942,0.5062760607128968,0.8123689968076192,0.05365401309192119,-1.696253,-5.863747
11.185,2.0,1.0,1.0,34.1,34.7,34.7,2.0,2.1,2.81,-0.16005083283061222,0.4949959987037802,0.816492751311016,0.07488986541392646,-1.597203,-6.009678
11.185,2.0,1.0,1.0,34.1,34.7,34.7,2.0,2.1,2.8125,-0.190628233935386,0.483879632072415,0.818270637897298,0.0947199727611102,-1.512532,-6.141947
11.185,2.0,1.0,1.0,34.1,34.7,34.7,2.0,2.1,2.815,-0.22095611680801983,0.47299773294653297,0.8178700714266567,0.11336479232839662,-1.44037,-6.260249
11.185,2.0,1.0,1.0,34.1,34.7,34.7,2.0,2.1,2.8175,-0.25096475694871867,0.4623935105843686,0.8154338585513474,0.13102415967637937,-1.379189,-6.364349
11.185,2.0,1.0,1.0,34.1,34.7,34.7,2.0,2.1,2.82,-0.28060209379238726,0.45208891439290366,0.8110816103129425,0.14787922922600447,-1.327736,-6.454063
11.185,2.0,1.0,1.0,34.1,34.7,34.7,2.0,2.1,2.8225,-0.3098283753639865,0.4420893783279952,0.8049114241674309,0.164094735555308,-1.284994,-6.529236
11.185,2.0,1.0,1.0,34.1,34.7,34.7,2.0,2.1,2.825,-0.3386119203199478,0.4323873141189694,0.7970016033393932,0.1798213512327227,-1.250143,-6.589722
11.185,2.0,1.0,1.0,34.1,34.7,34.7,2.0,2.1,2.8275,-0.3669257222114364,0.422964601081888,0.7874122764209145,0.19519801219083766,-1.222529,-6.635376
11.185,2.0,1.0,1.0,34.1,34.7,34.7,2.0,2.1,2.83,-0.3947446684438489,0.4137942644749602,0.7761868416556604,0.21035414292137314,-1.20165,-6.66604
11.185,2.0,1.0,1.0,34.1,34.7,34.7,2.0,2.1,2.8325,-0.4220431857285392,0.4048414849768475,0.7633531994051919,0.22541175189776838,-1.187132,-6.681536
