1,w,sub_t,h,l1,l2,l3,g1,g2,Freq,S11_re,S21_re,S11_img,S21_img,S11_dB,S21_dB
11.185,2.0,1.0,1.0,34.0,33.7,33.7,1.9,2.4,2.5,0.778447170954094,-0.0163783622922268,0.614089691501178,0.0123200419871765,-0.074084,-33.767154
11.185,2.0,1.0,1.0,34.0,33.7,33.7,1.9,2.4,2.5025,0.7736706650867708,-0.0167155845630782,0.619940011633937,0.0123597731498336,-0.074942,-33.643406
11.185,2.0,1.0,1.0,34.0,33.7,33.7,1.9,2.4,2.505,0.7688233143416111,-0.01705936104433349,0.6257832038633362,0.012397307321060081,-0.075817,-33.519182
11.185,2.0,1.0,1.0,34.0,33.7,33.7,1.9,2.4,2.5075,0.7639043071249625,-0.01740983265458545,0.6316187364941659,0.01243253745506752,-0.07671,-33.394473
11.185,2.0,1.0,1.0,34.0,33.7,33.7,1.9,2.4,2.51,0.7589128191842888,-0.017767143768904082,0.6374460606289285,0.012465352024053637,-0.07762,-33.269271
11.185,2.0,1.0,1.0,34.0,33.7,33.7,1.9,2.4,2.5125,0.7538480134339739,-0.018131442308319635,0.643264609577837,0.012495634820202472,-0.078548,-33.143567
11.185,2.0,1.0,1.0,34.0,33.7,33.7,1.9,2.4,2.515,0.7487090397813712,-0.018502879831407807,0.6490737982475278,0.012523264748187664,-0.079495,-33.017352
11.185,2.0,1.0,1.0,34.0,33.7,33.7,1.9,2.4,2.5175,0.7434950349533198,-0.018881611627991665,0.6548730225076204,0.012548115607677171,-0.080462,-32.890618
11.185,2.0,1.0,1.0,34.0,33.7,33.7,1.9,2.4,2.52,0.7382051223233481,-0.019267796814977315,0.6606616585342628,0.012570055865314896,-0.081448,-32.763356
11.185,2.0,1.0,1.0,34.0,33.7,33.7,1.9,2.4,2.5225,0.7328384117398343,-0.01966159843432686,0.6664390621297069,0.012588948415615945,-0.082455,-32.635556
11.185,2.0,1.0,1.0,34.0,33.7,33.7,1.9,2.4,2.525,0.7273939993553751,-0.020063183553176097,0.6722045680169679,0.012604650330187626,-0.083483,-32.50721
11.185,2.0,1.0,1.0,34.0,33.7,33.7,1.9,2.4,2.5275,0.7218709674576631,-0.02047272336609337,0.6779574891085501,0.01261701259464741,-0.084532,-32.378307
11.185,2.0,1.0,1.0,34.0,33.7,33.7,1.9,2.4,2.53,0.7162683843021922,-0.020890393299471097,0.68369711574817,0.012625879832576273,-0.085603,-32.248839
11.185,2.0,1.0,1.0,34.0,33.7,33.7,1.9,2.4,2.5325,0.710585303947122,-0.02131637311803493,0.6894227149243738,0.012631090015803646,-0.086697,-32.118796
11.185,2.0,1.0,1.0,34.0,33.7,33.7,1.9,2.4,2.535,0.7048207660906719,-0.021750847033447117,0.6951335294548959,0.012632474160279555,-0.087815,-31.988168
11.185,2.0,1.0,1.0,34.0,33.7,33.7,1.9,2.4,2.5375,0.6989737959114419,-0.02219400381497085,0.7008287771405219,0.012629856006745828,-0.088957,-31.856944
11.185,2.0,1.0,1.0,34.0,33.7,33.7,1.9,2.4,2.54,0.693043403912078,-0.022646036902154287,0.7065076498872026,0.012623051685367594,-0.090123,-31.725116
11.185,2.0,1.0,1.0,34.0,33.7,33.7,1.9,2.4,2.5425,0.6870285857667454,-0.02310714451947958,0.7121693127950705,0.012611869363439785,-0.091315,-31.592672
11.185,2.0,1.0,1.0,34.0,33.7,33.7,1.9,2.4,2.545,0.6809283221728951,-0.02357752979291092,0.7178129032129682,0.0125961088752242,-0.092534,-31.459602
11.185,2.0,1.0,1.0,34.0,33.7,33.7,1.9,2.4,2.5475,0.6747415787078659,-0.024057400868260973,0.7234375297570081,0.012575561332920033,-0.093779,-31.325895
11.185,2.0,1.0,1.0,34.0,33.7,33.7,1.9,2.4,2.55,0.6684673056908699,-0.024546971031280406,0.7290422712916382,0.012550008717704859,-0.095052,-31.191541
11.185,2.0,1.0,1.0,34.0,33.7,33.7,1.9,2.4,2.5525,0.6621044380510042,-0.025046458829356473,0.7346261758715805,0.012519223449719301,-0.096354,-31.056529
11.185,2.0,1.0,1.0,34.0,33.7,33.7,1.9,2.4,2.555,0.6556518952019231,-0.025556088194687653,0.7401882596429571,0.012482967935798674,-0.097686,-30.920847
11.185,2.0,1.0,1.0,34.0,33.7,33.7,1.9,2.4,2.5575,0.649108580923889,-0.026076088568781804,0.7457275057018162,0.012440994093677042,-0.099048,-30.784484
11.185,2.0,1.0,1.0,34.0,33.7,33.7,1.9,2.4,2.56,0.6424733832539733,-0.02660669502809691,0.7512428629081817,0.012393042851312342,-0.100441,-30.647428
11.185,2.0,1.0,1.0,34.0,33.7,33.7,1.9,2.4,2.5625,0.6357451743852177,-0.027148148410622158,0.7567332446536532,0.012338843619891827,-0.101867,-30.509668
11.185,2.0,1.0,1.0,34.0,33.7,33.7,1.9,2.4,2.565,0.6289228105756447,-0.027700695443162567,0.7621975275804959,0.012278113738986966,-0.103327,-30.371192
11.185,2.0,1.0,1.0,34.0,33.7,33.7,1.9,2.4,2.5675,0.6220051320680734,-0.028264588869062243,0.7676345502500206,0.012210557892229362,-0.10482,-30.231987
11.185,2.0,1.0,1.0,34.0,33.7,33.7,1.9,2.4,2.57,0.6149909630217563,-0.028840087576060127,0.773043111757971,0.012135867491769222,-0.106349,-30.09204
11.185,2.0,1.0,1.0,34.0,33.7,33.7,1.9,2.4,2.5725,0.607879111456944,-0.029427456723935767,0.7784219702944978,0.012053720029671384,-0.107915,-29.95134
11.185,2.0,1.0,1.0,34.0,33.7,33.7,1.9,2.4,2.575,0.6006683692135641,-0.03002696787155584,0.7837698416461596,0.0119637783942782,-0.109519,-29.809873
11.185,2.0,1.0,1.0,34.0,33.7,33.7,1.9,2.4,2.5775,0.5933575119252923,-0.03063889910288111,0.789085397637282,0.011865690149438593,-0.111162,-29.667626
11.185,2.0,1.0,1.0,34.0,33.7,33.7,1.9,2.4,2.58,0.5859452990103963,-0.03126353515144161,0.7943672645078124,0.011759086774367945,-0.112845,-29.524585
11.185,2.0,1.0,1.0,34.0,33.7,33.7,1.9,2.4,2.5825,0.5784304736808297,-0.0319011675227227,0.7996140212247078,0.011643582861747902,-0.114569,-29.380737
11.185,2.0,1.0,1.0,34.0,33.7,33.7,1.9,2.4,2.585,0.5708117629711846,-0.03255209461383943,0.8048241977236698,0.011518775271519533,-0.116337,-29.236068
11.185,2.0,1.0,1.0,34.0,33.7,33.7,1.9,2.4,2.5875,0.5630878777892163,-0.03321662182980095,0.8099962730779032,0.011384242237649046,-0.118149,-29.090563
11.185,2.0,1.0,1.0,34.0,33.7,33.7,1.9,2.4,2.59,0.555257512989818,-0.03389506169557916,0.8151286735903595,0.011239542424960482,-0.120007,-28.944208
11.185,2.0,1.0,1.0,34.0,33.7,33.7,1.9,2.4,2.5925,0.5473193474744338,-0.034587733963109726,0.8202197708057393,0.011084213932930404,-0.121913,-28.796989
11.185,2.0,1.0,1.0,34.0,33.7,33.7,1.9,2.4,2.595,0.5392720443181069,-0.035294965712242256,0.8252678794382837,0.010917773243128388,-0.123867,-28.648889
11.185,2.0,1.0,1.0,34.0,33.7,33.7,1.9,2.4,2.5975,0.5311142509264771,-0.03601709144454939,0.8302712552111917,0.010739714106751981,-0.125873,-28.499893
11.185,2.0,1.0,1.0,34.0,33.7,33.7,1.9,2.4,2.6,0.5228445992252803,-0.03675445316877198,0.8352280926032153,0.01054950636846431,-0.127931,-28.349986
11.185,2.0,1.0,1.0,34.0,33.7,33.7,1.9,2.4,2.6025,0.514461705885089,-0.03750740047653719,0.8401365224977262,0.010346594722468566,-0.130044,-28.199151
11.185,2.0,1.0,1.0,34.0,33.7,33.7,1.9,2.4,2.605,0.5059641725842514,-0.038276290606832755,0.8449946097292715,0.010130397396473685,-0.132213,-28.047372
11.185,2.0,1.0,1.0,34.0,33.7,33.7,1.9,2.4,2.6075,0.4973505863132451,-0.0390614884975393,0.8498003505223262,0.009900304758890484,-0.13444,-27.894632
11.185,2.0,1.0,1.0,34.0,33.7,33.7,1.9,2.4,2.61,0.48861951972393064,-0.03986336682213605,0.8545516698165924,0.009655677844268577,-0.136728,-27.740914
11.185,2.0,1.0,1.0,34.0,33.7,33.7,1.9,2.4,2.6125,0.4797695315274709,-0.04068230600947183,0.8592464184728996,0.009395846791622269,-0.139079,-27.586199
11.185,2.0,1.0,1.0,34.0,33.7,33.7,1.9,2.4,2.615,0.47079916694500834,-0.04151869424425939,0.8638823703533126,0.009120109189908474,-0.141495,-27.43047
11.185,2.0,1.0,1.0,34.0,33.7,33.7,1.9,2.4,2.6175,0.461706958215562,-0.042372927445677555,0.8684572192686921,0.008827728324497875,-0.143978,-27.273709
11.185,2.0,1.0,1.0,34.0,33.7,33.7,1.9,2.4,2.62,0.4524914251659625,-0.043245409221172544,0.872968575786496,0.008517931318033807,-0.146532,-27.115897
11.185,2.0,1.0,1.0,34.0,33.7,33.7,1.9,2.4,2.6225,0.4431510758480841,-0.044136550792213104,0.8774139638911306,0.008189907158579998,-0.149158,-26.957013
11.185,2.0,1.0,1.0,34.0,33.7,33.7,1.9,2.4,2.625,0.433684407249109,-0.0450467708883861,0.88179081748866,0.00784280460743758,-0.15186,-26.797039
11.185,2.0,1.0,1.0,34.0,33.7,33.7,1.9,2.4,2.6275,0.4240899060810419,-0.04597649560580649,0.8860964767471268,0.007475729978436342,-0.15464,-26.635954
11.185,2.0,1.0,1.0,34.0,33.7,33.7,1.9,2.4,2.63,0.4143660496562829,-0.046926158225349617,0.8903281842631495,0.007087744779893799,-0.157502,-26.473737
11.185,2.0,1.0,1.0,34.0,33.7,33.7,1.9,2.4,2.6325,0.40451130685668407,-0.04789619898570551,0.894483081044809,0.006677863209767979,-0.160449,-26.310367
11.185,2.0,1.0,1.0,34.0,33.7,33.7,1.9,2.4,2.635,0.39452413920418933,-0.04888706480567092,0.8985582023001633,0.006245049493810527,-0.163484,-26.145822
11.185,2.0,1.0,1.0,34.0,33.7,33.7,1.9,2.4,2.6375,0.3844030020419488,-0.049899208949456486,0.9025504730199633,0.005788215055746425,-0.166611,-25.98008
11.185,2.0,1.0,1.0,34.0,33.7,33.7,1.9,2.4,2.64,0.37414634583558426,-0.05093309062806425,0.906456703342365,0.005306215507664336,-0.169833,-25.813117
11.185,2.0,1.0,1.0,34.0,33.7,33.7,1.9,2.4,2.6425,0.3637526176052806,-0.05198917452897939,0.9102735836865289,0.004797847447886013,-0.173155,-25.644911
11.185,2.0,1.0,1.0,34.0,33.7,33.7,1.9,2.4,2.645,0.35322026250036176,-0.05306793026552451,0.9139976796410769,0.004261845052598776,-0.176581,-25.475437
11.185,2.0,1.0,1.0,34.0,33.7,33.7,1.9,2.4,2.6475,0.34254772552918394,-0.05416983173619844,0.9176254265923539,0.003696876446459387,-0.180114,-25.30467
11.185,2.0,1.0,1.0,34.0,33.7,33.7,1.9,2.4,2.65,0.3317334534584273,-0.05529535638319743,0.9211531240763404,0.003101539836220287,-0.183761,-25.132585
11.185,2.0,1.0,1.0,34.0,33.7,33.7,1.9,2.4,2.6525,0.3207758968973438,-0.0564449843380231,0.9245769298368556,0.0024743593901739615,-0.187525,-24.959155
11.185,2.0,1.0,1.0,34.0,33.7,33.7,1.9,2.4,2.655,0.30967351258403036,-0.05761919744066059,0.9278928535714206,0.0018137808448471617,-0.191412,-24.784355
11.185,2.0,1.0,1.0,34.0,33.7,33.7,1.9,2.4,2.6575,0.29842476589262346,-0.05881847811718223,0.931096750344741,0.0011181668189053327,-0.195428,-24.608155
11.185,2.0,1.0,1.0,34.0,33.7,33.7,1.9,2.4,2.66,0.2870281335822508,-0.06004330809882095,0.9341843136482609,0.0003857918126317512,-0.199578,-24.430528
11.185,2.0,1.0,1.0,34.0,33.7,33.7,1.9,2.4,2.6625,0.2754821068108336,-0.06129416696350468,0.9371510680825802,-0.00038516313038625247,-0.203868,-24.251446
11.185,2.0,1.0,1.0,34.0,33.7,33.7,1.9,2.4,2.665,0.26378519443922543,-0.06257153047853682,0.9399923616378106,-0.0011966161245971023,-0.208304,-24.070876
11.185,2.0,1.0,1.0,34.0,33.7,33.7,1.9,2.4,2.6675,0.25193592665406467,-0.06387586872049515,0.9427033575449624,-0.0020505905341136246,-0.212895,-23.88879
11.185,2.0,1.0,1.0,34.0,33.7,33.7,1.9,2.4,2.67,0.2399328589407444,-0.06520764394548388,0.9452790256694188,-0.0029492214840771427,-0.217646,-23.705155
11.185,2.0,1.0,1.0,34.0,33.7,33.7,1.9,2.4,2.6725,0.22777457644145446,-0.06656730817953863,0.9477141334153283,-0.0038947628235766465,-0.222566,-23.519938
11.185,2.0,1.0,1.0,34.0,33.7,33.7,1.9,2.4,2.675,0.21545969873721416,-0.06795530049522149,0.9500032361072798,-0.004889594574489174,-0.227663,-23.333107
11.185,2.0,1.0,1.0,34.0,33.7,33.7,1.9,2.4,2.6775,0.20298688509724513,-0.06937204393617265,0.952140666813067,-0.005936230903370306,-0.232945,-23.144625
11.185,2.0,1.0,1.0,34.0,33.7,33.7,1.9,2.4,2.68,0.1903548402440694,-0.07081794204655817,0.9541205255685016,-0.007037328656488919,-0.238422,-22.954459
11.185,2.0,1.0,1.0,34.0,33.7,33.7,1.9,2.4,2.6825,0.17756232068843544,-0.07229337495685227,0.9559366679622281,-0.008195696501294402,-0.244105,-22.76257
11.185,2.0,1.0,1.0,34.0,33.7,33.7,1.9,2.4,2.685,0.16460814169454446,-0.07379869497117503,0.9575826930352577,-0.00941430472103422,-0.250002,-22.568921
11.185,2.0,1.0,1.0,34.0,33.7,33.7,1.9,2.4,2.6875,0.151491184943414,-0.0753342215943102,0.959051930446425,-0.0106962957129133,-0.256126,-22.373473
11.185,2.0,1.0,1.0,34.0,33.7,33.7,1.9,2.4,2.69,0.1382104069704493,-0.07690023592846845,0.9603374268512936,-0.012044995244106146,-0.262488,-22.176185
11.185,2.0,1.0,1.0,34.0,33.7,33.7,1.9,2.4,2.6925,0.12476484846266656,-0.07849697436068334,0.9614319314380668,-0.013463924524117888,-0.269102,-21.977017
11.185,2.0,1.0,1.0,34.0,33.7,33.7,1.9,2.4,2.695,0.11115364451176261,-0.08012462145124193,0.9623278805598682,-0.014956813156413003,-0.275981,-21.775925
11.185,2.0,1.0,1.0,34.0,33.7,33.7,1.9,2.4,2.6975,0.09737603593133182,-0.0817833019216194,0.9630173813983142,-0.016527613036912164,-0.283139,-21.572865
11.185,2.0,1.0,1.0,34.0,33.7,33.7,1.9,2.4,2.7,0.08343138176042685,-0.08347307162671491,0.9634921945887269,-0.018180513271855027,-0.290593,-21.367792
11.185,2.0,1.0,1.0,34.0,33.7,33.7,1.9,2.4,2.7025,0.0693191730914899,-0.08519390738058961,0.9637437157324313,-0.01991995619263363,-0.298359,-21.160658
11.185,2.0,1.0,1.0,34.0,33.7,33.7,1.9,2.4,2.705,0.05503904837878414,-0.08694569548702563,0.9637629557166979,-0.021750654550454475,-0.306454,-20.951414
11.185,2.0,1.0,1.0,34.0,33.7,33.7,1.9,2.4,2.7075,0.04059081040410335,-0.08872821880575457,0.9635405197578167,-0.02367760997904412,-0.3149,-20.740011
11.185,2.0,1.0,1.0,34.0,33.7,33.7,1.9,2.4,2.71,0.025974445100285397,-0.09054114216172282,0.9630665850777971,-0.025706132818960517,-0.323716,-20.526396
11.185,2.0,1.0,1.0,34.0,33.7,33.7,1.9,2.4,2.7125,0.011190142460200675,-0.09238399587780174,0.9623308771202557,-0.02784186340231689,-0.332924,-20.310516
11.185,2.0,1.0,1.0,34.0,33.7,33.7,1.9,2.4,2.715,-0.003761680209948331,-0.09425615718039508,0.9613226442065381,-0.03009079490166903,-0.34255,-20.092315
11.185,2.0,1.0,1.0,34.0,33.7,33.7,1.9,2.4,2.7175,-0.018880352398344263,-0.0961568291917723,0.9600306305289956,-0.03245929785127188,-0.352619,-19.871737
11.185,2.0,1.0,1.0,34.0,33.7,33.7,1.9,2.4,2.72,-0.034164921520449906,-0.0980850171819901,0.958443047375128,-0.034954146452560286,-0.363159,-19.648721
11.185,2.0,1.0,1.0,34.0,33.7,33.7,1.9,2.4,2.7225,-0.04961412069383891,-0.10003950170605935,0.9565475424741949,-0.03758254677819852,-0.374201,-19.423206
11.185,2.0,1.0,1.0,34.0,33.7,33.7,1.9,2.4,2.725,-0.06522633271715339,-0.10201880819761901,0.9543311673575857,-0.04035216698984118,-0.385777,-19.19513
11.185,2.0,1.0,1.0,34.0,33.7,33.7,1.9,2.4,2.7275,-0.0809995497524732,-0.10402117252765165,0.9517803426260976,-0.043271169683269294,-0.397925,-18.964426
11.185,2.0,1.0,1.0,34.0,33.7,33.7,1.9,2.4,2.73,-0.09693132813777873,-0.10604450196437276,0.948880821022428,-0.04634824646991892,-0.410682,-18.731028
11.185,2.0,1.0,1.0,34.0,33.7,33.7,1.9,2.4,2.7325,-0.11301873767255585,-0.10808633088687901,0.9456176482164437,-0.049592654895000435,-0.42409,-18.494865
11.185,2.0,1.0,1.0,34.0,33.7,33.7,1.9,2.4,2.735,-0.12925830462283594,-0.11014377050861802,0.9419751212256622,-0.05301425777801405,-0.438196,-18.255866
11.185,2.0,1.0,1.0,34.0,33.7,33.7,1.9,2.4,2.7375,-0.14564594758050145,-0.11221345175531712,0.9379367444155454,-0.05662356503977856,-0.453051,-18.013955
11.185,2.0,1.0,1.0,34.0,33.7,33.7,1.9,2.4,2.74,-0.16217690518274872,-0.1142914603132634,0.9334851830559124,-0.06043177804886665,-0.468707,-17.769056
11.185,2.0,1.0,1.0,34.0,33.7,33.7,1.9,2.4,2.7425,-0.17884565454895066,-0.11637326271522411,0.9286022144538069,-0.06445083647675433,-0.485227,-17.52109
11.185,2.0,1.0,1.0,34.0,33.7,33.7,1.9,2.4,2.745,-0.19564581912052548,-0.11845362215977306,0.9232686767432354,-0.06869346759139557,-0.502674,-17.269975
11.185,2.0,1.0,1.0,34.0,33.7,33.7,1.9,2.4,2.7475,-0.21257006439154938,-0.12052650256201185,0.9174644154927613,-0.07317323783876678,-0.521121,-17.015626
11.185,2.0,1.0,1.0,34.0,33.7,33.7,1.9,2.4,2.75,-0.229609979790105,-0.122584959105922,0.911168228399025,-0.0779046064552694,-0.540647,-16.757958
11.185,2.0,1.0,1.0,34.0,33.7,33.7,1.9,2.4,2.7525,-0.24675594470837914,-0.12462101330673278,0.9043578084751142,-0.08290298071335445,-0.561339,-16.49688
11.185,2.0,1.0,1.0,34.0,33.7,33.7,1.9,2.4,2.755,-0.26399697637915365,-0.1266255102913505,0.8970096863269162,-0.08818477221884452,-0.583292,-16.232301
11.185,2.0,1.0,1.0,34.0,33.7,33.7,1.9,2.4,2.7575,-0.2813205569529454,-0.12858795566149533,0.88909917234997,-0.09376745343925394,-0.606612,-15.964129
11.185,2.0,1.0,1.0,34.0,33.7,33.7,1.9,2.4,2.76,-0.29871243673879283,-0.13049632891309573,0.8806002999891368,-0.09966961333273952,-0.631416,-15.692266
11.185,2.0,1.0,1.0,34.0,33.7,33.7,1.9,2.4,2.7625,-0.3161564101287042,-0.13233686994251126,0.8714857716026835,-0.10591101054805645,-0.657833,-15.416615
11.185,2.0,1.0,1.0,34.0,33.7,33.7,1.9,2.4,2.765,-0.3336340602272462,-0.13409383467179325,0.8617269089853207,-0.11251262215280307,-0.686006,-15.137077
11.185,2.0,1.0,1.0,34.0,33.7,33.7,1.9,2.4,2.7675,-0.3511244676520349,-0.13574921526973593,0.8512936112617256,-0.11949668518991857,-0.716097,-14.853552
11.185,2.0,1.0,1.0,34.0,33.7,33.7,1.9,2.4,2.77,-0.36860387835907904,-0.1372824198338641,0.8401543237013731,-0.12688672752260563,-0.748282,-14.565938
11.185,2.0,1.0,1.0,34.0,33.7,33.7,1.9,2.4,2.7725,-0.3860453246840999,-0.13866990573629204,0.828276022074771,-0.1347075833577436,-0.78276,-14.274133
11.185,2.0,1.0,1.0,34.0,33.7,33.7,1.9,2.4,2.775,-0.40341819308995325,-0.1398847601360871,0.8156242185300616,-0.14298538747790476,-0.819754,-13.978036
11.185,2.0,1.0,1.0,34.0,33.7,33.7,1.9,2.4,2.7775,-0.4206877313940368,-0.14089622044550226,0.8021629966910556,-0.15174754048851696,-0.859512,-13.677547
11.185,2.0,1.0,1.0,34.0,33.7,33.7,1.9,2.4,2.78,-0.4378144875565196,-0.14166912684601898,0.7878550858535812,-0.1610226352090083,-0.902316,-13.37257
11.185,2.0,1.0,1.0,34.0,33.7,33.7,1.9,2.4,2.7825,-0.45475367150221513,-0.14216329834421398,0.772661986896796,-0.17084033159465548,-0.94848,-13.06301
11.185,2.0,1.0,1.0,34.0,33.7,33.7,1.9,2.4,2.785,-0.47145443102015555,-0.1423328234315634,0.7565441659617094,-0.1812311641374073,-0.998359,-12.748779
11.185,2.0,1.0,1.0,34.0,33.7,33.7,1.9,2.4,2.7875,-0.4878590326759173,-0.14212525630751713,0.7394613362363841,-0.19222626140331725,-1.052357,-12.429798
11.185,2.0,1.0,1.0,34.0,33.7,33.7,1.9,2.4,2.79,-0.5039019390891906,-0.14148071004802693,0.7213728535043813,-0.2038569520432548,-1.11093,-12.105995
11.185,2.0,1.0,1.0,34.0,33.7,33.7,1.9,2.4,2.7925,-0.5195087751690282,-0.1403308393492482,0.7022382576570133,-0.21615422506518964,-1.174596,-11.777312
11.185,2.0,1.0,1.0,34.0,33.7,33.7,1.9,2.4,2.795,-0.5345951783822774,-0.13859770796912224,0.6820180003448164,-0.22914800417692732,-1.243944,-11.44371
11.185,2.0,1.0,1.0,34.0,33.7,33.7,1.9,2.4,2.7975,-0.5490655324430048,-0.1361925403153324,0.6606744085382953,-0.2428661864091265,-1.31965,-11.105168
11.185,2.0,1.0,1.0,34.0,33.7,33.7,1.9,2.4,2.8,-0.5628115907589564,-0.13301436359358076,0.6381729451145095,-0.25733338387815885,-1.402485,-10.761692
11.185,2.0,1.0,1.0,34.0,33.7,33.7,1.9,2.4,2.8025,-0.5757110066432697,-0.12894855762509908,0.6144838406922878,-0.2725692944402696,-1.493332,-10.413322
11.185,2.0,1.0,1.0,34.0,33.7,33.7,1.9,2.4,2.805,-0.5876258031368454,-0.12386534530828723,0.5895841855748494,-0.2885866123539488,-1.593209,-10.060136
11.185,2.0,1.0,1.0,34.0,33.7,33.7,1.9,2.4,2.8075,-0.5984008381460455,-0.11761827959490542,0.5634605861840363,-0.3053883745491014,-1.703287,-9.702263
11.185,2.0,1.0,1.0,34.0,33.7,33.7,1.9,2.4,2.81,-0.6078623527956682,-0.11004281509090101,0.5361125054733261,-0.3229646230149529,-1.82492,-9.339889
11.185,2.0,1.0,1.0,34.0,33.7,33.7,1.9,2.4,2.8125,-0.615816735173215,-0.100955096720702,0.507556419126897,-0.341288251528755,-1.959671,-8.973276
11.185,2.0,1.0,1.0,34.0,33.7,33.7,1.9,2.4,2.815,-0.6220496910125327,-0.0901511573255083,0.47783092496147855,-0.36030989938854435,-2.109355,-8.602769
11.185,2.0,1.0,1.0,34.0,33.7,33.7,1.9,2.4,2.8175,-0.6263260902109111,-0.0774067934750975,0.44700293567952903,-0.3799517621608293,-2.276079,-8.228817
11.185,2.0,1.0,1.0,34.0,33.7,33.7,1.9,2.4,2.82,-0.6283908553100471,-0.06247848606716514,0.41517505577594255,-0.4001002189184768,-2.46229,-7.851992
11.185,2.0,1.0,1.0,34.0,33.7,33.7,1.9,2.4,2.8225,-0.6279713746743614,-0.04510584893074129,0.3824941789547397,-0.4205972400570663,-2.670839,-7.473009
11.185,2.0,1.0,1.0,34.0,33.7,33.7,1.9,2.4,2.825,-0.6247820536940291,-0.025016219241353374,0.3491612255411476,-0.44123065687424345,-2.905043,-7.092748
11.185,2.0,1.0,1.0,34.0,33.7,33.7,1.9,2.4,2.8275,-0.618531748083345,-0.001932134219519374,0.3154417488586208,-0.46172356489804645,-3.168764,-6.712283
11.185,2.0,1.0,1.0,34.0,33.7,33.7,1.9,2.4,2.83,-0.6089349270690028,0.024417457896189154,0.2816768525768017,-0.48172342024770926,-3.466489,-6.332901
