1,w,sub_t,h,l1,l2,l3,g1,g2,Freq,S11_re,S21_re,S11_img,S21_img,S11_dB,S21_dB
11.185,2.0,1.0,1.0,33.4,33.2,33.2,3.7,3.4,2.5,0.861604108589662,-0.0051979861527677,0.495903023234932,0.00383556969255293,-0.051194,-43.795448
11.185,2.0,1.0,1.0,33.4,33.2,33.2,3.7,3.4,2.5025,0.8583288575624822,-0.005296819466456361,0.5014528445705999,0.003845551064110208,-0.051625,-43.681043
11.185,2.0,1.0,1.0,33.4,33.2,33.2,3.7,3.4,2.505,0.8550043659577303,-0.005397194905582622,0.5070023027390844,0.0038548832179177857,-0.052062,-43.566476
11.185,2.0,1.0,1.0,33.4,33.2,33.2,3.7,3.4,2.5075,0.8516301790455924,-0.005499137606192465,0.5125511767541229,0.003863543532043954,-0.052507,-43.451741
11.185,2.0,1.0,1.0,33.4,33.2,33.2,3.7,3.4,2.51,0.8482058354104935,-0.0056026731945515,0.5180992392675048,0.0038715086698258095,-0.052958,-43.336831
11.185,2.0,1.0,1.0,33.4,33.2,33.2,3.7,3.4,2.5125,0.8447308668606623,-0.005707827797713837,0.5236462563725707,0.0038787545550470395,-0.053417,-43.221738
11.185,2.0,1.0,1.0,33.4,33.2,33.2,3.7,3.4,2.515,0.8412047983372065,-0.0058146280543203786,0.5291919874017565,0.0038852563461638187,-0.053883,-43.106457
11.185,2.0,1.0,1.0,33.4,33.2,33.2,3.7,3.4,2.5175,0.8376271478227526,-0.0059231011256307645,0.5347361847179734,0.0038909884095384545,-0.054356,-42.990981
11.185,2.0,1.0,1.0,33.4,33.2,33.2,3.7,3.4,2.52,0.8339974262496913,-0.0060332747067933425,0.5402785934996525,0.003895924291638476,-0.054837,-42.875302
11.185,2.0,1.0,1.0,33.4,33.2,33.2,3.7,3.4,2.5225,0.8303151374080878,-0.006145177038357187,0.5458189515192272,0.003900036690156332,-0.055326,-42.759414
11.185,2.0,1.0,1.0,33.4,33.2,33.2,3.7,3.4,2.525,0.8265797778533085,-0.006258836918030665,0.5513569889148696,0.0039032974240034686,-0.055822,-42.643311
11.185,2.0,1.0,1.0,33.4,33.2,33.2,3.7,3.4,2.5275,0.8227908368134217,-0.006374283712690866,0.5568924279552566,0.0039056774021296228,-0.056327,-42.526985
11.185,2.0,1.0,1.0,33.4,33.2,33.2,3.7,3.4,2.53,0.8189477960964456,-0.0064915473706476726,0.5624249827971421,0.003907146591116184,-0.05684,-42.410429
11.185,2.0,1.0,1.0,33.4,33.2,33.2,3.7,3.4,2.5325,0.8150501299975053,-0.0066106584341672795,0.5679543592355132,0.003907673981489983,-0.057362,-42.293636
11.185,2.0,1.0,1.0,33.4,33.2,33.2,3.7,3.4,2.535,0.8110973052059727,-0.006731648052258903,0.5734802544460941,0.003907227552700869,-0.057891,-42.176599
11.185,2.0,1.0,1.0,33.4,33.2,33.2,3.7,3.4,2.5375,0.8070887807126759,-0.006854547993728694,0.5790023567199486,0.003905774236704024,-0.05843,-42.059311
11.185,2.0,1.0,1.0,33.4,33.2,33.2,3.7,3.4,2.54,0.8030240077172535,-0.006979390660505317,0.5845203451899352,0.003903279880084972,-0.058978,-41.941765
11.185,2.0,1.0,1.0,33.4,33.2,33.2,3.7,3.4,2.5425,0.7989024295357471,-0.007106209101240546,0.5900338895487539,0.003899709204661677,-0.059535,-41.823954
11.185,2.0,1.0,1.0,33.4,33.2,33.2,3.7,3.4,2.545,0.7947234815085309,-0.007235037025189366,0.5955426497583182,0.0038950257664957123,-0.060101,-41.70587
11.185,2.0,1.0,1.0,33.4,33.2,33.2,3.7,3.4,2.5475,0.7904865909086786,-0.007365908816372393,0.6010462757501648,0.0038891919132399526,-0.060677,-41.587505
11.185,2.0,1.0,1.0,33.4,33.2,33.2,3.7,3.4,2.55,0.7861911768508691,-0.007498859548025267,0.6065444071166344,0.0038821687397474617,-0.061263,-41.468853
11.185,2.0,1.0,1.0,33.4,33.2,33.2,3.7,3.4,2.5525,0.781836650200967,-0.007633924997337213,0.612036672792502,0.003873916041861765,-0.061859,-41.349906
11.185,2.0,1.0,1.0,33.4,33.2,33.2,3.7,3.4,2.555,0.7774224134863756,-0.0077711416604828755,0.6175226907267707,0.0038643922683051523,-0.062465,-41.230656
11.185,2.0,1.0,1.0,33.4,33.2,33.2,3.7,3.4,2.5575,0.7729478608073123,-0.007910546767950236,0.6230020675443104,0.003853554470576462,-0.063081,-41.111096
11.185,2.0,1.0,1.0,33.4,33.2,33.2,3.7,3.4,2.56,0.768412377749136,-0.008052178300166777,0.6284743981970011,0.0038413582507662047,-0.063708,-40.991218
11.185,2.0,1.0,1.0,33.4,33.2,33.2,3.7,3.4,2.5625,0.7638153412958812,-0.008196075003427082,0.633939265604059,0.003827757707191185,-0.064347,-40.871014
11.185,2.0,1.0,1.0,33.4,33.2,33.2,3.7,3.4,2.565,0.7591561197451442,-0.00834227640612369,0.639396240281188,0.0038127053777460285,-0.064996,-40.750476
11.185,2.0,1.0,1.0,33.4,33.2,33.2,3.7,3.4,2.5675,0.7544340726245023,-0.008490822835282878,0.6448448799581965,0.0037961521808634736,-0.065657,-40.629596
11.185,2.0,1.0,1.0,33.4,33.2,33.2,3.7,3.4,2.57,0.749648550609631,-0.008641755433406931,0.650284729184706,0.0037780473539693075,-0.066329,-40.508366
11.185,2.0,1.0,1.0,33.4,33.2,33.2,3.7,3.4,2.5725,0.7447988954443083,-0.008795116175624087,0.6557153189235712,0.0037583383893119477,-0.067014,-40.386778
11.185,2.0,1.0,1.0,33.4,33.2,33.2,3.7,3.4,2.575,0.739884439862507,-0.008950947887146034,0.6611361661316058,0.003736970967039777,-0.06771,-40.264823
11.185,2.0,1.0,1.0,33.4,33.2,33.2,3.7,3.4,2.5775,0.7349045075127802,-0.009109294261033664,0.666546773327206,0.0037138888853926987,-0.06842,-40.142493
11.185,2.0,1.0,1.0,33.4,33.2,33.2,3.7,3.4,2.58,0.7298584128851685,-0.009270199876269689,0.6719466281444414,0.0036890339878668695,-0.069142,-40.01978
11.185,2.0,1.0,1.0,33.4,33.2,33.2,3.7,3.4,2.5825,0.7247454612408518,-0.009433710216137424,0.6773352028731765,0.0036623460872034293,-0.069877,-39.896675
11.185,2.0,1.0,1.0,33.4,33.2,33.2,3.7,3.4,2.585,0.7195649485448075,-0.009599871686903256,0.6827119539847624,0.0036337628860444713,-0.070626,-39.773169
11.185,2.0,1.0,1.0,33.4,33.2,33.2,3.7,3.4,2.5875,0.7143161614017252,-0.009768731636800088,0.6880763216428325,0.0036032198940895263,-0.071388,-39.649254
11.185,2.0,1.0,1.0,33.4,33.2,33.2,3.7,3.4,2.59,0.7089983769954635,-0.009940338375308094,0.6934277291987049,0.0035706503415774663,-0.072165,-39.52492
11.185,2.0,1.0,1.0,33.4,33.2,33.2,3.7,3.4,2.5925,0.7036108630323373,-0.010114741192727874,0.6987655826708957,0.0035359850889077316,-0.072956,-39.400158
11.185,2.0,1.0,1.0,33.4,33.2,33.2,3.7,3.4,2.595,0.6981528776885513,-0.010291990380039953,0.7040892702082089,0.0034991525322047847,-0.073762,-39.274959
11.185,2.0,1.0,1.0,33.4,33.2,33.2,3.7,3.4,2.5975,0.6926236695620973,-0.01047213724904423,0.7093981615358713,0.003460078504617848,-0.074583,-39.149314
11.185,2.0,1.0,1.0,33.4,33.2,33.2,3.7,3.4,2.6,0.6870224776294674,-0.010655234152770159,0.7146916073841515,0.0034186861731358193,-0.075419,-39.023213
11.185,2.0,1.0,1.0,33.4,33.2,33.2,3.7,3.4,2.6025,0.6813485312075505,-0.010841334506148395,0.7199689388988666,0.003374895930684353,-0.076272,-38.896647
11.185,2.0,1.0,1.0,33.4,33.2,33.2,3.7,3.4,2.605,0.6756010499210862,-0.011030492806932163,0.7252294670331999,0.0033286252832582016,-0.077141,-38.769605
11.185,2.0,1.0,1.0,33.4,33.2,33.2,3.7,3.4,2.6075,0.6697792436760934,-0.01122276465685513,0.7304724819201834,0.003279788731827024,-0.078026,-38.642078
11.185,2.0,1.0,1.0,33.4,33.2,33.2,3.7,3.4,2.61,0.663882312639699,-0.011418206783010497,0.7356972522252134,0.003228297648736785,-0.078929,-38.514055
11.185,2.0,1.0,1.0,33.4,33.2,33.2,3.7,3.4,2.6125,0.6579094472268144,-0.011616877059434101,0.7409030244779193,0.003174060148312675,-0.079849,-38.385527
11.185,2.0,1.0,1.0,33.4,33.2,33.2,3.7,3.4,2.615,0.6518598280941418,-0.011818834528871572,0.7460890223827059,0.00311698095134994,-0.080787,-38.256482
11.185,2.0,1.0,1.0,33.4,33.2,33.2,3.7,3.4,2.6175,0.6457326261420108,-0.012024139424707307,0.7512544461072299,0.0030569612431613283,-0.081744,-38.12691
11.185,2.0,1.0,1.0,33.4,33.2,33.2,3.7,3.4,2.62,0.6395270025245788,-0.012232853193029811,0.7563984715480803,0.0029938985248273483,-0.082719,-37.9968
11.185,2.0,1.0,1.0,33.4,33.2,33.2,3.7,3.4,2.6225,0.6332421086689465,-0.01244503851480547,0.7615202495728783,0.0029276864572747707,-0.083714,-37.866142
11.185,2.0,1.0,1.0,33.4,33.2,33.2,3.7,3.4,2.625,0.62687708630379,-0.0126607593281277,0.766618905237989,0.00285821469778333,-0.084729,-37.734923
11.185,2.0,1.0,1.0,33.4,33.2,33.2,3.7,3.4,2.6275,0.6204310674981198,-0.012880080850507342,0.7716935369810213,0.002785368728496636,-0.085765,-37.603133
11.185,2.0,1.0,1.0,33.4,33.2,33.2,3.7,3.4,2.63,0.6139031747108239,-0.01310306960116254,0.7767432157872317,0.002709029676483948,-0.086821,-37.470759
11.185,2.0,1.0,1.0,33.4,33.2,33.2,3.7,3.4,2.6325,0.6072925208516878,-0.01332979342326471,0.7817669843289413,0.0026290741248713645,-0.0879,-37.337791
11.185,2.0,1.0,1.0,33.4,33.2,33.2,3.7,3.4,2.635,0.6005982093546152,-0.013560321506090033,0.7867638560770177,0.00254537391452841,-0.089,-37.204215
11.185,2.0,1.0,1.0,33.4,33.2,33.2,3.7,3.4,2.6375,0.5938193342638196,-0.013794724407020858,0.7917328143834443,0.0024577959357618426,-0.090123,-37.070019
11.185,2.0,1.0,1.0,33.4,33.2,33.2,3.7,3.4,2.64,0.5869549803337837,-0.014033074073335615,0.7966728115339706,0.0023662019094315362,-0.091269,-36.93519
11.185,2.0,1.0,1.0,33.4,33.2,33.2,3.7,3.4,2.6425,0.5800042231438458,-0.014275443863717858,0.8015827677697669,0.0022704481568642694,-0.09244,-36.799717
11.185,2.0,1.0,1.0,33.4,33.2,33.2,3.7,3.4,2.645,0.5729661292283039,-0.014521908569408515,0.8064615702769884,0.002170385357897577,-0.093635,-36.663585
11.185,2.0,1.0,1.0,33.4,33.2,33.2,3.7,3.4,2.6475,0.5658397562229842,-0.014772544434915684,0.8113080721430883,0.0020658582963402985,-0.094856,-36.526781
11.185,2.0,1.0,1.0,33.4,33.2,33.2,3.7,3.4,2.65,0.5586241530292537,-0.015027429178188433,0.8161210912786921,0.0019567055920863795,-0.096103,-36.389292
11.185,2.0,1.0,1.0,33.4,33.2,33.2,3.7,3.4,2.6525,0.5513183599965483,-0.015286642010149013,0.8208994093037465,0.0018427594190651288,-0.097376,-36.251102
11.185,2.0,1.0,1.0,33.4,33.2,33.2,3.7,3.4,2.655,0.5439214091244907,-0.015550263653467929,0.8256417703966595,0.0017238452081523008,-0.098678,-36.112199
11.185,2.0,1.0,1.0,33.4,33.2,33.2,3.7,3.4,2.6575,0.5364323242857788,-0.015818376360452534,0.8303468801050348,0.0015997813341042525,-0.100007,-35.972567
11.185,2.0,1.0,1.0,33.4,33.2,33.2,3.7,3.4,2.66,0.5288501214710545,-0.016091063929906266,0.8350134041165715,0.0014703787855089474,-0.101366,-35.832192
11.185,2.0,1.0,1.0,33.4,33.2,33.2,3.7,3.4,2.6625,0.5211738090570561,-0.016368411722799344,0.8396399669886094,0.0013354408166745882,-0.102755,-35.691057
11.185,2.0,1.0,1.0,33.4,33.2,33.2,3.7,3.4,2.665,0.5134023880993921,-0.016650506676575454,0.8442251508347467,0.001194762580295423,-0.104175,-35.549147
11.185,2.0,1.0,1.0,33.4,33.2,33.2,3.7,3.4,2.6675,0.5055348526513909,-0.016937437317898065,0.848767493966854,0.0010481307396497353,-0.105628,-35.406447
11.185,2.0,1.0,1.0,33.4,33.2,33.2,3.7,3.4,2.67,0.49757019011051795,-0.017229293773620008,0.8532654894907425,0.0008953230589889939,-0.107113,-35.262939
11.185,2.0,1.0,1.0,33.4,33.2,33.2,3.7,3.4,2.6725,0.4895073815939521,-0.017526167779735143,0.857717583853643,0.0007361079706766254,-0.108631,-35.118606
11.185,2.0,1.0,1.0,33.4,33.2,33.2,3.7,3.4,2.675,0.4813454023450104,-0.017828152688044427,0.8621221753415486,0.0005702441175230038,-0.110185,-34.973432
11.185,2.0,1.0,1.0,33.4,33.2,33.2,3.7,3.4,2.6775,0.4730832221721789,-0.018135343470239002,0.8664776125243775,0.0003974798686427729,-0.111775,-34.827399
11.185,2.0,1.0,1.0,33.4,33.2,33.2,3.7,3.4,2.68,0.4647198059226189,-0.01844783671907026,0.8707821926467912,0.0002175528070292306,-0.113402,-34.680487
11.185,2.0,1.0,1.0,33.4,33.2,33.2,3.7,3.4,2.6825,0.4562541139921277,-0.018765730646238453,0.8750341599623666,3.0189186897289754e-05,-0.115068,-34.532679
11.185,2.0,1.0,1.0,33.4,33.2,33.2,3.7,3.4,2.685,0.4476851028736216,-0.01908912507659204,0.8792317040087092,-0.00016489664130997451,-0.116773,-34.383955
11.185,2.0,1.0,1.0,33.4,33.2,33.2,3.7,3.4,2.6875,0.43901172574634856,-0.01941812143818178,0.8833729578209192,-0.0003680028405264686,-0.118519,-34.234296
11.185,2.0,1.0,1.0,33.4,33.2,33.2,3.7,3.4,2.69,0.43023293310816024,-0.019752822747662588,0.8874559960806749,-0.000579440733741281,-0.120307,-34.083681
11.185,2.0,1.0,1.0,33.4,33.2,33.2,3.7,3.4,2.6925,0.4213476734532795,-0.020093333590478536,0.8914788331980275,-0.0007995354904156181,-0.122138,-33.932089
11.185,2.0,1.0,1.0,33.4,33.2,33.2,3.7,3.4,2.695,0.4123548939981997,-0.020439760095199506,0.8954394213227819,-0.0010286268555258489,-0.124015,-33.779499
11.185,2.0,1.0,1.0,33.4,33.2,33.2,3.7,3.4,2.6975,0.4032535414584312,-0.02079220990130764,0.8993356482821663,-0.0012670699243656598,-0.125938,-33.625889
11.185,2.0,1.0,1.0,33.4,33.2,33.2,3.7,3.4,2.7,0.3940425628790513,-0.021150792119645226,0.9031653354412243,-0.0015152359665060063,-0.12791,-33.471235
11.185,2.0,1.0,1.0,33.4,33.2,33.2,3.7,3.4,2.7025,0.3847209065221277,-0.02151561728464841,0.9069262354821391,-0.0017735133026067175,-0.129931,-33.315515
11.185,2.0,1.0,1.0,33.4,33.2,33.2,3.7,3.4,2.705,0.37528752281432187,-0.02188679729738079,0.9106160300983969,-0.0020423082380946127,-0.132004,-33.158705
11.185,2.0,1.0,1.0,33.4,33.2,33.2,3.7,3.4,2.7075,0.3657413653581595,-0.022264445358268697,0.914232327599407,-0.002322046058078308,-0.13413,-33.000778
11.185,2.0,1.0,1.0,33.4,33.2,33.2,3.7,3.4,2.71,0.35608139201069394,-0.022648675888303323,0.917772660420849,-0.00261317208825819,-0.136311,-32.841711
11.185,2.0,1.0,1.0,33.4,33.2,33.2,3.7,3.4,2.7125,0.3463065660335182,-0.023039604437326597,0.9212344825356439,-0.002916152827020914,-0.13855,-32.681476
11.185,2.0,1.0,1.0,33.4,33.2,33.2,3.7,3.4,2.715,0.33641585731836227,-0.02343734757784704,0.9246151667600321,-0.003231477154379337,-0.140848,-32.520046
11.185,2.0,1.0,1.0,33.4,33.2,33.2,3.7,3.4,2.7175,0.3264082436927829,-0.023842022782639805,0.9279120019487862,-0.0035596576239410246,-0.143207,-32.357392
11.185,2.0,1.0,1.0,33.4,33.2,33.2,3.7,3.4,2.72,0.3162827123107969,-0.024253748284166515,0.9311221900730733,-0.003901231844665064,-0.145631,-32.193487
11.185,2.0,1.0,1.0,33.4,33.2,33.2,3.7,3.4,2.7225,0.30603826113361127,-0.0246726429136028,0.93424284317392,-0.004256763959803993,-0.14812,-32.028299
11.185,2.0,1.0,1.0,33.4,33.2,33.2,3.7,3.4,2.725,0.29567390050605236,-0.02509882591697947,0.9372709801836097,-0.004626846231130905,-0.150679,-31.861797
11.185,2.0,1.0,1.0,33.4,33.2,33.2,3.7,3.4,2.7275,0.285188654834639,-0.025532416745623527,0.9402035236066298,-0.005012100737335841,-0.153308,-31.69395
11.185,2.0,1.0,1.0,33.4,33.2,33.2,3.7,3.4,2.73,0.27458156437379244,-0.025973534817718035,0.9430372960510278,-0.005413181196337504,-0.156012,-31.524724
11.185,2.0,1.0,1.0,33.4,33.2,33.2,3.7,3.4,2.7325,0.26385168712712814,-0.026422299247384876,0.9457690166001487,-0.005830774922220476,-0.158794,-31.354083
11.185,2.0,1.0,1.0,33.4,33.2,33.2,3.7,3.4,2.735,0.25299810087140706,-0.026878828537216154,0.9483952970137627,-0.00626560492857291,-0.161656,-31.181994
11.185,2.0,1.0,1.0,33.4,33.2,33.2,3.7,3.4,2.7375,0.24201990531133438,-0.027343240229636315,0.9509126377465098,-0.006718432191189878,-0.164601,-31.008418
11.185,2.0,1.0,1.0,33.4,33.2,33.2,3.7,3.4,2.74,0.23091622437415124,-0.027815650511851208,0.953317423770364,-0.007190058084427733,-0.167633,-30.833317
11.185,2.0,1.0,1.0,33.4,33.2,33.2,3.7,3.4,2.7425,0.21968620865375615,-0.02829617376842568,0.95560592018646,-0.007681327006969828,-0.170757,-30.656651
11.185,2.0,1.0,1.0,33.4,33.2,33.2,3.7,3.4,2.745,0.20832903801504074,-0.02878492207470575,0.9577742676101013,-0.008193129214409239,-0.173975,-30.478379
11.185,2.0,1.0,1.0,33.4,33.2,33.2,3.7,3.4,2.7475,0.19684392437015943,-0.029282004623356978,0.9598184773110384,-0.00872640387789021,-0.177292,-30.298457
11.185,2.0,1.0,1.0,33.4,33.2,33.2,3.7,3.4,2.75,0.185230114639639,-0.0297875270751977,0.961734426089177,-0.00928214239010741,-0.180712,-30.116841
11.185,2.0,1.0,1.0,33.4,33.2,33.2,3.7,3.4,2.7525,0.17348689391260042,-0.030301590824248072,0.9635178508637081,-0.009861391942261597,-0.18424,-29.933485
11.185,2.0,1.0,1.0,33.4,33.2,33.2,3.7,3.4,2.755,0.16161358882191146,-0.030824292165458983,0.9651643429511797,-0.010465259398151421,-0.187881,-29.74834
11.185,2.0,1.0,1.0,33.4,33.2,33.2,3.7,3.4,2.7575,0.1496095711518328,-0.031355721351904155,0.9666693420052797,-0.011094915494476236,-0.19164,-29.561356
11.185,2.0,1.0,1.0,33.4,33.2,33.2,3.7,3.4,2.76,0.13747426169782373,-0.031895961526261556,0.968028129587962,-0.01175159939967787,-0.195523,-29.372479
11.185,2.0,1.0,1.0,33.4,33.2,33.2,3.7,3.4,2.7625,0.1252071344004471,-0.032445087509146694,0.9692358223380175,-0.012436623667310211,-0.199535,-29.181656
11.185,2.0,1.0,1.0,33.4,33.2,33.2,3.7,3.4,2.765,0.11280772077808908,-0.033003164424219716,0.9702873646991867,-0.013151379624047138,-0.203683,-28.98883
11.185,2.0,1.0,1.0,33.4,33.2,33.2,3.7,3.4,2.7675,0.10027561468633348,-0.03357024613691648,0.9711775211653823,-0.013897343237087271,-0.207973,-28.79394
11.185,2.0,1.0,1.0,33.4,33.2,33.2,3.7,3.4,2.77,0.08761047743547788,-0.034146373480064815,0.9719008679954525,-0.01467608151096463,-0.212413,-28.596924
11.185,2.0,1.0,1.0,33.4,33.2,33.2,3.7,3.4,2.7725,0.07481204330195743,-0.03473157223545057,0.9724517843440692,-0.015489259469703745,-0.217011,-28.397719
11.185,2.0,1.0,1.0,33.4,33.2,33.2,3.7,3.4,2.775,0.06188012547440957,-0.035325850835484035,0.9728244427487159,-0.016338647786972946,-0.221774,-28.196255
11.185,2.0,1.0,1.0,33.4,33.2,33.2,3.7,3.4,2.7775,0.04881462248094065,-0.03592919774334287,0.9730127989051801,-0.017226131134496808,-0.226712,-27.992461
11.185,2.0,1.0,1.0,33.4,33.2,33.2,3.7,3.4,2.78,0.03561552515098743,-0.03654157846318453,0.9730105806554079,-0.01815371732761661,-0.231834,-27.786263
11.185,2.0,1.0,1.0,33.4,33.2,33.2,3.7,3.4,2.7825,0.022282924173240893,-0.03716293212401448,0.9728112761017518,-0.019123547356688392,-0.23715,-27.577584
11.185,2.0,1.0,1.0,33.4,33.2,33.2,3.7,3.4,2.785,0.008817018320543395,-0.03779316757135791,0.9724081207505169,-0.020137906404151466,-0.242671,-27.366341
11.185,2.0,1.0,1.0,33.4,33.2,33.2,3.7,3.4,2.7875,-0.0047818765760358345,-0.03843215888969144,0.9717940835749518,-0.021199235959781938,-0.24841,-27.152449
11.185,2.0,1.0,1.0,33.4,33.2,33.2,3.7,3.4,2.79,-0.018513317808492077,-0.039079740265335394,0.9709618518732653,-0.022310147161100195,-0.254378,-26.935817
11.185,2.0,1.0,1.0,33.4,33.2,33.2,3.7,3.4,2.7925,-0.03237672501720948,-0.039735700083737474,0.9699038147806104,-0.02347343550238203,-0.26059,-26.716351
11.185,2.0,1.0,1.0,33.4,33.2,33.2,3.7,3.4,2.795,-0.04637136833019857,-0.04039977413629407,0.968612045274901,-0.024692097074550324,-0.26706,-26.493951
11.185,2.0,1.0,1.0,33.4,33.2,33.2,3.7,3.4,2.7975,-0.0604963552635106,-0.041071637789416054,0.9670782804945074,-0.025969346519721697,-0.273806,-26.268513
11.185,2.0,1.0,1.0,33.4,33.2,33.2,3.7,3.4,2.8,-0.07475061620322974,-0.04175089694168539,0.9652939001608389,-0.02730863690878677,-0.280843,-26.039927
11.185,2.0,1.0,1.0,33.4,33.2,33.2,3.7,3.4,2.8025,-0.08913288825698079,-0.04243707756270109,0.9632499028701361,-0.028713681778541743,-0.288193,-25.808076
11.185,2.0,1.0,1.0,33.4,33.2,33.2,3.7,3.4,2.805,-0.1036416972239073,-0.04312961356841344,0.9609368799858872,-0.03018847959711074,-0.295874,-25.572839
11.185,2.0,1.0,1.0,33.4,33.2,33.2,3.7,3.4,2.8075,-0.11827533738502967,-0.043827832740925804,0.9583449868254997,-0.03173734096330199,-0.303911,-25.334085
11.185,2.0,1.0,1.0,33.4,33.2,33.2,3.7,3.4,2.81,-0.1330318487588838,-0.044530940344100184,0.9554639107915603,-0.03336491888779944,-0.312329,-25.091678
11.185,2.0,1.0,1.0,33.4,33.2,33.2,3.7,3.4,2.8125,-0.147908991398139,-0.0452380000175792,0.952282836048306,-0.0350762425524732,-0.321154,-24.845475
11.185,2.0,1.0,1.0,33.4,33.2,33.2,3.7,3.4,2.815,-0.16290421621871418,-0.04594791144821569,0.948790404287002,-0.0368767549994592,-0.330416,-24.595322
11.185,2.0,1.0,1.0,33.4,33.2,33.2,3.7,3.4,2.8175,-0.17801463175000812,-0.04665938421585874,0.9449746710587298,-0.038772355264920295,-0.34015,-24.341057
11.185,2.0,1.0,1.0,33.4,33.2,33.2,3.7,3.4,2.82,-0.19323696606891433,-0.04737090708553501,0.9408230570786044,-0.04076944554457959,-0.35039,-24.08251
11.185,2.0,1.0,1.0,33.4,33.2,33.2,3.7,3.4,2.8225,-0.2085675230255034,-0.04808071186470008,0.9363222938205441,-0.04287498406023887,-0.361178,-23.819499
11.185,2.0,1.0,1.0,33.4,33.2,33.2,3.7,3.4,2.825,-0.22400213167752503,-0.048786730755327586,0.9314583626252948,-0.045096544389586234,-0.372559,-23.551831
11.185,2.0,1.0,1.0,33.4,33.2,33.2,3.7,3.4,2.8275,-0.23953608761503112,-0.049486545897167854,0.9262164264354464,-0.04744238212658995,-0.384582,-23.279301
