1,w,sub_t,h,l1,l2,l3,g1,g2,Freq,S11_re,S21_re,S11_img,S21_img,S11_dB,S21_dB
11.185,2.0,1.0,1.0,34.3,34.0,34.0,1.6,4.2,2.5,0.727665739120054,-0.0141849768235462,0.672903797527122,0.00735006582715786,-0.077572,-35.930563
11.185,2.0,1.0,1.0,34.3,34.0,34.0,1.6,4.2,2.5025,0.7220534880760896,-0.014455651971554398,0.6787710164260093,0.007326982938039045,-0.078481,-35.806217
11.185,2.0,1.0,1.0,34.3,34.0,34.0,1.6,4.2,2.505,0.7163601232768019,-0.014731063033828854,0.6846239082106683,0.007300867817844833,-0.079408,-35.681429
11.185,2.0,1.0,1.0,34.3,34.0,34.0,1.6,4.2,2.5075,0.7105847250245745,-0.01501129498925335,0.6904617092083877,0.007271603386501385,-0.080354,-35.556192
11.185,2.0,1.0,1.0,34.3,34.0,34.0,1.6,4.2,2.51,0.7047263612989554,-0.015296434254305246,0.6962836315023399,0.007239068187991443,-0.081318,-35.430497
11.185,2.0,1.0,1.0,34.3,34.0,34.0,1.6,4.2,2.5125,0.6987840877046657,-0.015586568689856507,0.7020888621422156,0.007203136215890947,-0.082301,-35.304338
11.185,2.0,1.0,1.0,34.3,34.0,34.0,1.6,4.2,2.515,0.6927569474276993,-0.01588178760635697,0.7078765623286493,0.007163676731435963,-0.083304,-35.177706
11.185,2.0,1.0,1.0,34.3,34.0,34.0,1.6,4.2,2.5175,0.6866439712001915,-0.01618218176723694,0.7136458665705282,0.0071205540737769865,-0.084327,-35.050592
11.185,2.0,1.0,1.0,34.3,34.0,34.0,1.6,4.2,2.52,0.6804441772747121,-0.016487843390355028,0.7193958818142718,0.007073627462059965,-0.08537,-34.92299
11.185,2.0,1.0,1.0,34.3,34.0,34.0,1.6,4.2,2.5225,0.6741565714087554,-0.016798866147301805,0.7251256865440974,0.0070227507889564856,-0.086435,-34.79489
11.185,2.0,1.0,1.0,34.3,34.0,34.0,1.6,4.2,2.525,0.6677801468601651,-0.017115345160357006,0.730834329852305,0.006967772405245653,-0.087521,-34.666285
11.185,2.0,1.0,1.0,34.3,34.0,34.0,1.6,4.2,2.5275,0.6613138843943378,-0.017437376996880714,0.7365208304785421,0.006908534895031555,-0.08863,-34.537165
11.185,2.0,1.0,1.0,34.3,34.0,34.0,1.6,4.2,2.53,0.6547567523040781,-0.0177650596609022,0.742184175816979,0.006844874841158805,-0.089762,-34.407523
11.185,2.0,1.0,1.0,34.3,34.0,34.0,1.6,4.2,2.5325,0.6481077064430306,-0.01809849258165199,0.7478233208903066,0.006776622580367098,-0.090916,-34.277349
11.185,2.0,1.0,1.0,34.3,34.0,34.0,1.6,4.2,2.535,0.6413656902736709,-0.018437776598763257,0.7534371872894222,0.006703601947702551,-0.092095,-34.146635
11.185,2.0,1.0,1.0,34.3,34.0,34.0,1.6,4.2,2.5375,0.6345296349309126,-0.018783013943845905,0.7590246620776085,0.006625630009679346,-0.093299,-34.015372
11.185,2.0,1.0,1.0,34.3,34.0,34.0,1.6,4.2,2.54,0.6275984593024224,-0.01913430821811554,0.7645845966580121,0.0065425167856598635,-0.094527,-33.88355
11.185,2.0,1.0,1.0,34.3,34.0,34.0,1.6,4.2,2.5425,0.6205710701268355,-0.019491764365733834,0.7701158056031528,0.0064540649568940464,-0.095782,-33.751161
11.185,2.0,1.0,1.0,34.3,34.0,34.0,1.6,4.2,2.545,0.6134463621111037,-0.019855488642490142,0.7756170654451632,0.006360069562631126,-0.097063,-33.618194
11.185,2.0,1.0,1.0,34.3,34.0,34.0,1.6,4.2,2.5475,0.6062232180683237,-0.02022558857942536,0.7810871134254146,0.006260317682686439,-0.098372,-33.484642
11.185,2.0,1.0,1.0,34.3,34.0,34.0,1.6,4.2,2.55,0.5989005090774147,-0.020602172940969665,0.7865246462021473,0.006154588105814209,-0.099708,-33.350493
11.185,2.0,1.0,1.0,34.3,34.0,34.0,1.6,4.2,2.5525,0.5914770946661805,-0.0209853516771289,0.7919283185146487,0.006042650983204931,-0.101074,-33.215739
11.185,2.0,1.0,1.0,34.3,34.0,34.0,1.6,4.2,2.555,0.5839518230192996,-0.021375235869223,0.7972967418025133,0.005924267466390323,-0.102469,-33.08037
11.185,2.0,1.0,1.0,34.3,34.0,34.0,1.6,4.2,2.5575,0.5763235312129332,-0.021771937668637248,0.8026284827784379,0.005799189328801509,-0.103894,-32.944374
11.185,2.0,1.0,1.0,34.3,34.0,34.0,1.6,4.2,2.56,0.5685910454777402,-0.022175570228006574,0.8079220619529646,0.005667158570187971,-0.105351,-32.807743
11.185,2.0,1.0,1.0,34.3,34.0,34.0,1.6,4.2,2.5625,0.5607531814921713,-0.022586247624208897,0.81317595210953,0.0055279070030634005,-0.10684,-32.670466
11.185,2.0,1.0,1.0,34.3,34.0,34.0,1.6,4.2,2.565,0.5528087447080552,-0.023004084772493154,0.8183885767281306,0.005381155820300476,-0.108362,-32.532532
11.185,2.0,1.0,1.0,34.3,34.0,34.0,1.6,4.2,2.5675,0.5447565307105987,-0.02342919733101533,0.823558308355839,0.005226615142952559,-0.109918,-32.39393
11.185,2.0,1.0,1.0,34.3,34.0,34.0,1.6,4.2,2.57,0.536595325615058,-0.023861701594999677,0.8286834669223677,0.005063983547329841,-0.111509,-32.25465
11.185,2.0,1.0,1.0,34.3,34.0,34.0,1.6,4.2,2.5725,0.5283239065024663,-0.024301714379680324,0.8337623179988098,0.004892947570308794,-0.113136,-32.11468
11.185,2.0,1.0,1.0,34.3,34.0,34.0,1.6,4.2,2.575,0.5199410418969665,-0.02474935289111117,0.838793070997616,0.0047131811917980075,-0.114801,-31.97401
11.185,2.0,1.0,1.0,34.3,34.0,34.0,1.6,4.2,2.5775,0.5114454922874356,-0.025204734583861205,0.843773877311816,0.004524345293228237,-0.116503,-31.832628
11.185,2.0,1.0,1.0,34.3,34.0,34.0,1.6,4.2,2.58,0.5028360106962757,-0.025667977004533972,0.8487028283914115,0.0043260870908742475,-0.118244,-31.690522
11.185,2.0,1.0,1.0,34.3,34.0,34.0,1.6,4.2,2.5825,0.4941113432983857,-0.026139197619965797,0.8535779537548215,0.004118039542752233,-0.120026,-31.54768
11.185,2.0,1.0,1.0,34.3,34.0,34.0,1.6,4.2,2.585,0.4852702300935662,-0.02661851362886667,0.8583972189331671,0.003899820727770689,-0.12185,-31.404091
11.185,2.0,1.0,1.0,34.3,34.0,34.0,1.6,4.2,2.5875,0.4763114056357505,-0.02710604175556794,0.8631585233451287,0.0036710331957416774,-0.123716,-31.259742
11.185,2.0,1.0,1.0,34.3,34.0,34.0,1.6,4.2,2.59,0.46723359982273194,-0.027601898024435113,0.8678596981000265,0.0034312632867856355,-0.125627,-31.11462
11.185,2.0,1.0,1.0,34.3,34.0,34.0,1.6,4.2,2.5925,0.4580355387502179,-0.028106197513388116,0.8724985037267028,0.003180080418583793,-0.127583,-30.968713
11.185,2.0,1.0,1.0,34.3,34.0,34.0,1.6,4.2,2.595,0.44871594563435024,-0.028619054084844428,0.8770726278256972,0.0029170363398498688,-0.129586,-30.822008
11.185,2.0,1.0,1.0,34.3,34.0,34.0,1.6,4.2,2.5975,0.4392735418070182,-0.02914058009226565,0.8815796826421465,0.002641664348304954,-0.131638,-30.674492
11.185,2.0,1.0,1.0,34.3,34.0,34.0,1.6,4.2,2.6,0.42970704778862245,-0.029670886060340296,0.8860172025567339,0.0023534784713480097,-0.13374,-30.526151
11.185,2.0,1.0,1.0,34.3,34.0,34.0,1.6,4.2,2.6025,0.420015184443221,-0.030210080336672624,0.8903826414919431,0.0020519726075155695,-0.135893,-30.376972
11.185,2.0,1.0,1.0,34.3,34.0,34.0,1.6,4.2,2.605,0.4101966742212834,-0.03075826871267623,0.8946733702307836,0.0017366196267233707,-0.138099,-30.22694
11.185,2.0,1.0,1.0,34.3,34.0,34.0,1.6,4.2,2.6075,0.40025024249564006,-0.0313155540111787,0.8988866736450631,0.0014068704271721244,-0.14036,-30.076041
11.185,2.0,1.0,1.0,34.3,34.0,34.0,1.6,4.2,2.61,0.3901746189965658,-0.03188203563803871,0.9030197478301837,0.001062152946687254,-0.142678,-29.924262
11.185,2.0,1.0,1.0,34.3,34.0,34.0,1.6,4.2,2.6125,0.3799685393522978,-0.03245780909485305,0.9070696971433639,0.000701871126140677,-0.145055,-29.771586
11.185,2.0,1.0,1.0,34.3,34.0,34.0,1.6,4.2,2.615,0.3696307467417184,-0.03304296544958562,0.9110335311420804,0.00032540382247497776,-0.147492,-29.617999
11.185,2.0,1.0,1.0,34.3,34.0,34.0,1.6,4.2,2.6175,0.35915999366637513,-0.03363759076168608,0.914908161419414,-6.789633128143165e-05,-0.149991,-29.463485
11.185,2.0,1.0,1.0,34.3,34.0,34.0,1.6,4.2,2.62,0.3485550438494518,-0.03424176545797388,0.918690398332919,-0.00047870412176355246,-0.152555,-29.308028
11.185,2.0,1.0,1.0,34.3,34.0,34.0,1.6,4.2,2.6225,0.3378146742698294,-0.03485556365525164,0.9223769476234959,-0.0009077230096853791,-0.155186,-29.151613
11.185,2.0,1.0,1.0,34.3,34.0,34.0,1.6,4.2,2.625,0.326937677339928,-0.0354790524252607,0.925964406920664,-0.00135568644598104,-0.157886,-28.994223
11.185,2.0,1.0,1.0,34.3,34.0,34.0,1.6,4.2,2.6275,0.31592286323654983,-0.036112290997223254,0.9294492621305268,-0.0018233592528955414,-0.160657,-28.835841
11.185,2.0,1.0,1.0,34.3,34.0,34.0,1.6,4.2,2.63,0.30476906239462737,-0.0367553298927984,0.9328278837026039,-0.0023115390734209556,-0.163502,-28.67645
11.185,2.0,1.0,1.0,34.3,34.0,34.0,1.6,4.2,2.6325,0.2934751281744102,-0.03740820998783312,0.936096522771603,-0.0028210578926566522,-0.166424,-28.516033
11.185,2.0,1.0,1.0,34.3,34.0,34.0,1.6,4.2,2.635,0.2820399397133558,-0.03807096149479872,0.9392513071700993,-0.003352783634861915,-0.169425,-28.35457
11.185,2.0,1.0,1.0,34.3,34.0,34.0,1.6,4.2,2.6375,0.27046240497478075,-0.03874360285926344,0.9422882373079638,-0.003907621840167431,-0.172508,-28.192045
11.185,2.0,1.0,1.0,34.3,34.0,34.0,1.6,4.2,2.64,0.2587414640061347,-0.03942613956316676,0.9452031819142964,-0.004486517425123882,-0.175677,-28.028437
11.185,2.0,1.0,1.0,34.3,34.0,34.0,1.6,4.2,2.6425,0.2468760924207007,-0.04011856282701304,0.9479918736374852,-0.005090456531480274,-0.178933,-27.863729
11.185,2.0,1.0,1.0,34.3,34.0,34.0,1.6,4.2,2.645,0.23486530511747447,-0.04082084820239735,0.9506499044989185,-0.005720468467813128,-0.182281,-27.697899
11.185,2.0,1.0,1.0,34.3,34.0,34.0,1.6,4.2,2.6475,0.22270816025505644,-0.041532954045498297,0.9531727211957663,-0.006377627748864365,-0.185723,-27.530928
11.185,2.0,1.0,1.0,34.3,34.0,34.0,1.6,4.2,2.65,0.21040376349648948,-0.042254819861324865,0.9555556202481391,-0.00706305623768983,-0.189264,-27.362796
11.185,2.0,1.0,1.0,34.3,34.0,34.0,1.6,4.2,2.6525,0.19795127254330197,-0.042986364507560534,0.9577937429858276,-0.007777925395972384,-0.192907,-27.19348
11.185,2.0,1.0,1.0,34.3,34.0,34.0,1.6,4.2,2.655,0.18534990197824774,-0.04372748424582801,0.9598820703697555,-0.008523458648118376,-0.196656,-27.022959
11.185,2.0,1.0,1.0,34.3,34.0,34.0,1.6,4.2,2.6575,0.17259892843779148,-0.044478050627055926,0.9618154176431405,-0.009300933865019258,-0.200515,-26.851211
11.185,2.0,1.0,1.0,34.3,34.0,34.0,1.6,4.2,2.66,0.15969769613692472,-0.045237908196387656,0.9635884288073288,-0.01011168597363673,-0.204489,-26.678213
11.185,2.0,1.0,1.0,34.3,34.0,34.0,1.6,4.2,2.6625,0.14664562277066184,-0.046006872001691075,0.9651955709171693,-0.010957109698846066,-0.208581,-26.503941
11.185,2.0,1.0,1.0,34.3,34.0,34.0,1.6,4.2,2.665,0.13344220581839647,-0.0467847248882171,0.9666311281907497,-0.011838662444251451,-0.212798,-26.328371
11.185,2.0,1.0,1.0,34.3,34.0,34.0,1.6,4.2,2.6675,0.1200870292794391,-0.047571214560272274,0.9678891959282657,-0.01275786731896346,-0.217143,-26.151479
11.185,2.0,1.0,1.0,34.3,34.0,34.0,1.6,4.2,2.67,0.10657977087022719,-0.04836605038892686,0.9689636742348109,-0.0137163163176068,-0.221622,-25.973239
11.185,2.0,1.0,1.0,34.3,34.0,34.0,1.6,4.2,2.6725,0.09292020971619304,-0.049168899942729,0.9698482615418446,-0.01471567366108842,-0.226241,-25.793625
11.185,2.0,1.0,1.0,34.3,34.0,34.0,1.6,4.2,2.675,0.07910823457398532,-0.04997938521613073,0.9705364479221822,-0.015757679305908292,-0.231005,-25.61261
11.185,2.0,1.0,1.0,34.3,34.0,34.0,1.6,4.2,2.6775,0.06514385262266814,-0.050797078527825494,0.9710215081934084,-0.016844152630028808,-0.23592,-25.430166
11.185,2.0,1.0,1.0,34.3,34.0,34.0,1.6,4.2,2.68,0.051027198865761604,-0.05162149805841352,0.9712964948047613,-0.017976996303520364,-0.240994,-25.246265
11.185,2.0,1.0,1.0,34.3,34.0,34.0,1.6,4.2,2.6825,0.036758546189604786,-0.05245210299372612,0.9713542305027449,-0.019158200352367198,-0.246232,-25.060877
11.185,2.0,1.0,1.0,34.3,34.0,34.0,1.6,4.2,2.685,0.022338316127391383,-0.0532882882367161,0.9711873007709679,-0.020389846423933707,-0.251643,-24.873973
11.185,2.0,1.0,1.0,34.3,34.0,34.0,1.6,4.2,2.6875,0.00776709038259382,-0.0541293786470123,0.970788046040098,-0.0216741122626439,-0.257234,-24.685522
11.185,2.0,1.0,1.0,34.3,34.0,34.0,1.6,4.2,2.69,-0.006954376829721411,-0.05497462276300089,0.9701485536642681,-0.023013276404395697,-0.263012,-24.49549
11.185,2.0,1.0,1.0,34.3,34.0,34.0,1.6,4.2,2.6925,-0.021825145559918557,-0.055823185956585704,0.9692606496608787,-0.024409723098101417,-0.268987,-24.303847
11.185,2.0,1.0,1.0,34.3,34.0,34.0,1.6,4.2,2.695,-0.036844075949520765,-0.0566741429655211,0.9681158902114729,-0.025865947462480214,-0.275167,-24.110557
11.185,2.0,1.0,1.0,34.3,34.0,34.0,1.6,4.2,2.6975,-0.05200981302954025,-0.05752646974236255,0.9667055529223565,-0.027384560885813956,-0.281563,-23.915586
11.185,2.0,1.0,1.0,34.3,34.0,34.0,1.6,4.2,2.7,-0.06732077040808918,-0.05837903455253545,0.9650206278447303,-0.028968296675749277,-0.288184,-23.718897
11.185,2.0,1.0,1.0,34.3,34.0,34.0,1.6,4.2,2.7025,-0.08277511275598624,-0.059230588246731254,0.9630518082556355,-0.030620015965375398,-0.295041,-23.520454
11.185,2.0,1.0,1.0,34.3,34.0,34.0,1.6,4.2,2.705,-0.09837073699016491,-0.06007975362467246,0.9607894812027222,-0.0323427138806368,-0.302146,-23.320217
11.185,2.0,1.0,1.0,34.3,34.0,34.0,1.6,4.2,2.7075,-0.11410525204481096,-0.06092501379816735,0.9582237178180789,-0.034139525972620766,-0.309511,-23.118148
11.185,2.0,1.0,1.0,34.3,34.0,34.0,1.6,4.2,2.71,-0.12997595710908855,-0.061764699451150776,0.9553442634090102,-0.03601373491627831,-0.317149,-22.914204
11.185,2.0,1.0,1.0,34.3,34.0,34.0,1.6,4.2,2.7125,-0.14597981819805236,-0.06259697488296281,0.9521405273368894,-0.03796877747462966,-0.325074,-22.708345
11.185,2.0,1.0,1.0,34.3,34.0,34.0,1.6,4.2,2.715,-0.16211344290952923,-0.06341982270828207,0.9486015726991859,-0.040008251724319,-0.333301,-22.500525
11.185,2.0,1.0,1.0,34.3,34.0,34.0,1.6,4.2,2.7175,-0.17837305320441815,-0.06423102707273083,0.9447161058345285,-0.042135924534411714,-0.341845,-22.290699
11.185,2.0,1.0,1.0,34.3,34.0,34.0,1.6,4.2,2.72,-0.19475445603056926,-0.06502815522700908,0.9404724656765239,-0.04435573928536238,-0.350723,-22.078821
11.185,2.0,1.0,1.0,34.3,34.0,34.0,1.6,4.2,2.7225,-0.21125301159120857,-0.06580853728426209,0.9358586129890648,-0.04667182380895926,-0.359955,-21.864842
11.185,2.0,1.0,1.0,34.3,34.0,34.0,1.6,4.2,2.725,-0.2278635990371063,-0.06656924396498583,0.9308621195244207,-0.04908849852246375,-0.369558,-21.648712
11.185,2.0,1.0,1.0,34.3,34.0,34.0,1.6,4.2,2.7275,-0.24458057933755703,-0.06730706211085137,0.9254701571557213,-0.05161028472087697,-0.379554,-21.430379
11.185,2.0,1.0,1.0,34.3,34.0,34.0,1.6,4.2,2.73,-0.2613977550578684,-0.06801846772303555,0.9196694870479641,-0.054241912979838436,-0.389964,-21.209789
11.185,2.0,1.0,1.0,34.3,34.0,34.0,1.6,4.2,2.7325,-0.2783083267405396,-0.06869959625165142,0.9134464489467726,-0.0569883316077151,-0.400814,-20.986886
11.185,2.0,1.0,1.0,34.3,34.0,34.0,1.6,4.2,2.735,-0.29530484555285536,-0.0693462098302405,0.9067869506824765,-0.059854715068381935,-0.412128,-20.761612
11.185,2.0,1.0,1.0,34.3,34.0,34.0,1.6,4.2,2.7375,-0.3123791618250313,-0.06995366111259797,0.8996764580091693,-0.06284647227540917,-0.423934,-20.533909
11.185,2.0,1.0,1.0,34.3,34.0,34.0,1.6,4.2,2.74,-0.3295223690595856,-0.07051685332792833,0.8920999849252079,-0.06596925463303205,-0.436263,-20.303712
11.185,2.0,1.0,1.0,34.3,34.0,34.0,1.6,4.2,2.7425,-0.34672474294385625,-0.07103019612394028,0.8840420846540465,-0.06922896366845027,-0.449146,-20.070959
11.185,2.0,1.0,1.0,34.3,34.0,34.0,1.6,4.2,2.745,-0.36397567484276133,-0.07148755671537457,0.8754868415035126,-0.07263175806248211,-0.462618,-19.835582
11.185,2.0,1.0,1.0,34.3,34.0,34.0,1.6,4.2,2.7475,-0.3812635991874723,-0.07188220579696525,0.8664178638691756,-0.07618405983998143,-0.476717,-19.597513
11.185,2.0,1.0,1.0,34.3,34.0,34.0,1.6,4.2,2.75,-0.398575914106711,-0.0722067576142796,0.856818278705034,-0.0798925594259606,-0.491484,-19.356679
11.185,2.0,1.0,1.0,34.3,34.0,34.0,1.6,4.2,2.7525,-0.4158988945703037,-0.07245310351252071,0.8466707278545494,-0.08376421920594175,-0.506963,-19.113007
11.185,2.0,1.0,1.0,34.3,34.0,34.0,1.6,4.2,2.755,-0.4332175972284446,-0.0726123382014798,0.8359573667196812,-0.08780627514709581,-0.523202,-18.866419
11.185,2.0,1.0,1.0,34.3,34.0,34.0,1.6,4.2,2.7575,-0.45051575603424987,-0.0726746778836506,0.8246598658482793,-0.09202623593711261,-0.540254,-18.616835
11.185,2.0,1.0,1.0,34.3,34.0,34.0,1.6,4.2,2.76,-0.4677756676305581,-0.07262936929139649,0.8127594161448342,-0.09643187897658571,-0.558175,-18.364173
11.185,2.0,1.0,1.0,34.3,34.0,34.0,1.6,4.2,2.7625,-0.4849780653643243,-0.07246458856743011,0.8002367385610133,-0.101031242413413,-0.577029,-18.108347
11.185,2.0,1.0,1.0,34.3,34.0,34.0,1.6,4.2,2.765,-0.5021019806625265,-0.07216732880038047,0.7870720993063007,-0.10583261222852557,-0.596883,-17.849267
11.185,2.0,1.0,1.0,34.3,34.0,34.0,1.6,4.2,2.7675,-0.5191245903623783,-0.07172327489387657,0.7732453318427588,-0.11084450316429514,-0.617812,-17.586844
11.185,2.0,1.0,1.0,34.3,34.0,34.0,1.6,4.2,2.77,-0.5360210484362853,-0.0711166643038851,0.7587358671997666,-0.11607563202175965,-0.639899,-17.32098
11.185,2.0,1.0,1.0,34.3,34.0,34.0,1.6,4.2,2.7725,-0.5527643003892987,-0.07033013202631348,0.7435227744753811,-0.12153488153004688,-0.663232,-17.05158
11.185,2.0,1.0,1.0,34.3,34.0,34.0,1.6,4.2,2.775,-0.5693248784364789,-0.06934453805755537,0.7275848137934048,-0.1272312525986067,-0.687911,-16.77854
11.185,2.0,1.0,1.0,34.3,34.0,34.0,1.6,4.2,2.7775,-0.5856706753933342,-0.06813877538880224,0.710900504474802,-0.1331738022848906,-0.714046,-16.501757
11.185,2.0,1.0,1.0,34.3,34.0,34.0,1.6,4.2,2.78,-0.6017666950407817,-0.06668955643694788,0.6934482117776953,-0.13937156422862226,-0.741757,-16.221125
11.185,2.0,1.0,1.0,34.3,34.0,34.0,1.6,4.2,2.7825,-0.6175747765662457,-0.06497117567039774,0.6752062562845886,-0.14583344759663416,-0.771178,-15.936532
11.185,2.0,1.0,1.0,34.3,34.0,34.0,1.6,4.2,2.785,-0.6330532905490508,-0.0629552460711591,0.6561530508955845,-0.1525681097229276,-0.802457,-15.647867
11.185,2.0,1.0,1.0,34.3,34.0,34.0,1.6,4.2,2.7875,-0.6481568038710486,-0.06061040700555951,0.6362672714552757,-0.15958379658537455,-0.835759,-15.355014
11.185,2.0,1.0,1.0,34.3,34.0,34.0,1.6,4.2,2.79,-0.6628357109219494,-0.05790200108358916,0.6155280683367504,-0.1668881439959866,-0.871267,-15.057856
11.185,2.0,1.0,1.0,34.3,34.0,34.0,1.6,4.2,2.7925,-0.6770358285734654,-0.054791717711582484,0.5939153278741078,-0.17448793085193023,-0.909187,-14.756276
11.185,2.0,1.0,1.0,34.3,34.0,34.0,1.6,4.2,2.795,-0.6906979526740804,-0.05123720134078237,0.5714099944272452,-0.1823887739490452,-0.949746,-14.450155
11.185,2.0,1.0,1.0,34.3,34.0,34.0,1.6,4.2,2.7975,-0.7037573743450518,-0.04719162296250917,0.5479944661382963,-0.19059475164116793,-0.993203,-14.139372
11.185,2.0,1.0,1.0,34.3,34.0,34.0,1.6,4.2,2.8,-0.7161433552454348,-0.04260321430468471,0.52365308016275,-0.19910794097460965,-1.039845,-13.823811
11.185,2.0,1.0,1.0,34.3,34.0,34.0,1.6,4.2,2.8025,-0.7277785623648231,-0.03741476558762447,0.4983727063986719,-0.20792784977173726,-1.089998,-13.503356
11.185,2.0,1.0,1.0,34.3,34.0,34.0,1.6,4.2,2.805,-0.7385784649934483,-0.031563089792303184,0.4721434725603164,-0.21705072141713938,-1.144027,-13.177895
11.185,2.0,1.0,1.0,34.3,34.0,34.0,1.6,4.2,2.8075,-0.7484506995731186,-0.02497845943973629,0.4449596479046305,-0.22646868576120274,-1.202348,-12.847323
11.185,2.0,1.0,1.0,34.3,34.0,34.0,1.6,4.2,2.81,-0.7572944124973994,-0.017584026217692977,0.41682071805077925,-0.23616872457139337,-1.265432,-12.511543
11.185,2.0,1.0,1.0,34.3,34.0,34.0,1.6,4.2,2.8125,-0.764999597063103,-0.00929523986924552,0.387732689115724,-0.246131414352402,-1.333813,-12.170469
11.185,2.0,1.0,1.0,34.3,34.0,34.0,1.6,4.2,2.815,-0.7714464492706369,-1.9291157610838872e-05,0.35770966571704405,-0.25632940322970954,-1.408101,-11.824031
11.185,2.0,1.0,1.0,34.3,34.0,34.0,1.6,4.2,2.8175,-0.7765047787846306,0.010345384815916873,0.32677575401951503,-0.2667255721956685,-1.488995,-11.472178
11.185,2.0,1.0,1.0,34.3,34.0,34.0,1.6,4.2,2.82,-0.7800335270441118,0.021909493215028775,0.29496734744605735,-0.277270824826503,-1.577291,-11.114884
11.185,2.0,1.0,1.0,34.3,34.0,34.0,1.6,4.2,2.8225,-0.7818804654010697,0.03479307970960505,0.26233585810863735,-0.2879014444114822,-1.673907,-10.752154
11.185,2.0,1.0,1.0,34.3,34.0,34.0,1.6,4.2,2.825,-0.78188217360406,0.04912544710389698,0.22895096008661614,-0.2985359546261941,-1.779901,-10.384032
11.185,2.0,1.0,1.0,34.3,34.0,34.0,1.6,4.2,2.8275,-0.7798644343878707,0.06504465430179891,0.19490440927184116,-0.3090714215127488,-1.89649,-10.010612
