1,w,sub_t,h,l1,l2,l3,g1,g2,Freq,S11_re,S21_re,S11_img,S21_img,S11_dB,S21_dB
11.185,2.0,1.0,1.0,33.8,34.6,34.6,2.9,3.8,2.5,0.808137770808807,-0.00893442693023989,0.576710146785016,0.00565025912602214,-0.062635,-39.517548
11.185,2.0,1.0,1.0,33.8,34.6,34.6,2.9,3.8,2.5025,0.803962912082229,-0.009116829293436879,0.5823816493266142,0.005664528693755648,-0.063325,-39.385345
11.185,2.0,1.0,1.0,33.8,34.6,34.6,2.9,3.8,2.505,0.7997271694735283,-0.009302927769094218,0.5880489114585805,0.005677707006771409,-0.064028,-39.252537
11.185,2.0,1.0,1.0,33.8,34.6,34.6,2.9,3.8,2.5075,0.7954298743356351,-0.009492816795239691,0.5937115719607253,0.005689744371720526,-0.064747,-39.119108
11.185,2.0,1.0,1.0,33.8,34.6,34.6,2.9,3.8,2.51,0.7910703460379005,-0.00968659403381218,0.5993692582073958,0.005700588877386349,-0.06548,-38.985044
11.185,2.0,1.0,1.0,33.8,34.6,34.6,2.9,3.8,2.5125,0.7866478916989238,-0.009884360509790278,0.6050215857674442,0.005710186280137584,-0.066228,-38.850329
11.185,2.0,1.0,1.0,33.8,34.6,34.6,2.9,3.8,2.515,0.7821618059108292,-0.010086220757613933,0.6106681579883579,0.005718479882474944,-0.066993,-38.714946
11.185,2.0,1.0,1.0,33.8,34.6,34.6,2.9,3.8,2.5175,0.7776113704545703,-0.010292282975347448,0.616308565563747,0.00572541040418869,-0.067774,-38.578878
11.185,2.0,1.0,1.0,33.8,34.6,34.6,2.9,3.8,2.52,0.7729958540057947,-0.010502659187066138,0.6219423860833864,0.0057309158456057855,-0.068571,-38.442109
11.185,2.0,1.0,1.0,33.8,34.6,34.6,2.9,3.8,2.5225,0.7683145118307948,-0.010717465413981072,0.6275691835648985,0.005734931342363386,-0.069386,-38.304622
11.185,2.0,1.0,1.0,33.8,34.6,34.6,2.9,3.8,2.525,0.7635665854720021,-0.010936821854855172,0.6331885079661619,0.0057373890110993826,-0.070218,-38.166399
11.185,2.0,1.0,1.0,33.8,34.6,34.6,2.9,3.8,2.5275,0.758751302422472,-0.01116085307630265,0.6387998946774291,0.005738217785401146,-0.071069,-38.027421
11.185,2.0,1.0,1.0,33.8,34.6,34.6,2.9,3.8,2.53,0.7538678757887558,-0.01138968821360698,0.644402863992087,0.005737343241298208,-0.071939,-37.88767
11.185,2.0,1.0,1.0,33.8,34.6,34.6,2.9,3.8,2.5325,0.7489155039415102,-0.011623461182740399,0.6499969205549119,0.005734687411525492,-0.072829,-37.747127
11.185,2.0,1.0,1.0,33.8,34.6,34.6,2.9,3.8,2.535,0.7438933701531442,-0.011862310904316786,0.6555815527866062,0.00573016858771779,-0.073738,-37.605773
11.185,2.0,1.0,1.0,33.8,34.6,34.6,2.9,3.8,2.5375,0.7388006422217671,-0.012106381540266007,0.6611562322832942,0.00572370110962498,-0.074668,-37.463586
11.185,2.0,1.0,1.0,33.8,34.6,34.6,2.9,3.8,2.54,0.7336364720806191,-0.012355822744076185,0.6667204131895845,0.005715195140358301,-0.07562,-37.320547
11.185,2.0,1.0,1.0,33.8,34.6,34.6,2.9,3.8,2.5425,0.728399995392125,-0.012610789925515013,0.6722735315436915,0.005704556426592417,-0.076594,-37.176635
11.185,2.0,1.0,1.0,33.8,34.6,34.6,2.9,3.8,2.545,0.723090331125635,-0.012871444530811084,0.6778150045930013,0.005691686042552982,-0.07759,-37.031827
11.185,2.0,1.0,1.0,33.8,34.6,34.6,2.9,3.8,2.5475,0.7177065811178513,-0.01313795433935116,0.6833442300783372,0.005676480116515557,-0.078611,-36.886101
11.185,2.0,1.0,1.0,33.8,34.6,34.6,2.9,3.8,2.55,0.7122478296148366,-0.013410493778033161,0.6888605854850737,0.005658829538427086,-0.079655,-36.739435
11.185,2.0,1.0,1.0,33.8,34.6,34.6,2.9,3.8,2.5525,0.7067131427944577,-0.013689244254501704,0.6943634272590576,0.005638619647135405,-0.080725,-36.591804
11.185,2.0,1.0,1.0,33.8,34.6,34.6,2.9,3.8,2.555,0.7011015682679719,-0.013974394510592703,0.6998520899851892,0.005615729895573029,-0.081821,-36.443184
11.185,2.0,1.0,1.0,33.8,34.6,34.6,2.9,3.8,2.5575,0.695412134559393,-0.01426614099741766,0.705325885526305,0.0055900334920886,-0.082944,-36.293551
11.185,2.0,1.0,1.0,33.8,34.6,34.6,2.9,3.8,2.56,0.6896438505611563,-0.014564688273633997,0.7107841021198198,0.005561397015949601,-0.084095,-36.142878
11.185,2.0,1.0,1.0,33.8,34.6,34.6,2.9,3.8,2.5625,0.683795704964472,-0.0148702494285733,0.71622600342939,0.00552968000485365,-0.085275,-35.991139
11.185,2.0,1.0,1.0,33.8,34.6,34.6,2.9,3.8,2.565,0.6778666656626168,-0.015183046532036943,0.7216508275486156,0.005494734512077697,-0.086485,-35.838306
11.185,2.0,1.0,1.0,33.8,34.6,34.6,2.9,3.8,2.5675,0.67185567912529,-0.015503311112715893,0.7270577859535442,0.00545640463066595,-0.087726,-35.684352
11.185,2.0,1.0,1.0,33.8,34.6,34.6,2.9,3.8,2.57,0.6657616697419693,-0.01583128466735731,0.7324460624004695,0.005414525981802644,-0.088999,-35.529247
11.185,2.0,1.0,1.0,33.8,34.6,34.6,2.9,3.8,2.5725,0.6595835391320403,-0.01616721920297631,0.7378148117651973,0.005368925164233409,-0.090305,-35.372961
11.185,2.0,1.0,1.0,33.8,34.6,34.6,2.9,3.8,2.575,0.6533201654192835,-0.016511377814607504,0.7431631588196146,0.005319419161285348,-0.091646,-35.215463
11.185,2.0,1.0,1.0,33.8,34.6,34.6,2.9,3.8,2.5775,0.6469704024680814,-0.016864035301302756,0.7484901969410129,0.005265814701686807,-0.093024,-35.056722
11.185,2.0,1.0,1.0,33.8,34.6,34.6,2.9,3.8,2.58,0.640533079078483,-0.01722547882331576,0.753794986749196,0.005207907569998836,-0.094438,-34.896703
11.185,2.0,1.0,1.0,33.8,34.6,34.6,2.9,3.8,2.5825,0.6340069981369985,-0.017596008603668882,0.7590765546659436,0.00514548186203667,-0.095892,-34.735373
11.185,2.0,1.0,1.0,33.8,34.6,34.6,2.9,3.8,2.585,0.6273909357197283,-0.017975938677577196,0.7643338913908659,0.005078309180175217,-0.097386,-34.572697
11.185,2.0,1.0,1.0,33.8,34.6,34.6,2.9,3.8,2.5875,0.6206836401441095,-0.018365597693512457,0.7695659502871234,0.005006147762891162,-0.098921,-34.408637
11.185,2.0,1.0,1.0,33.8,34.6,34.6,2.9,3.8,2.59,0.6138838309652388,-0.018765329770025208,0.7747716456698167,0.004928741542288244,-0.100501,-34.243157
11.185,2.0,1.0,1.0,33.8,34.6,34.6,2.9,3.8,2.5925,0.6069901979123408,-0.019175495412814398,0.7799498509891584,0.004845819122672521,-0.102126,-34.076216
11.185,2.0,1.0,1.0,33.8,34.6,34.6,2.9,3.8,2.595,0.6000013997605621,-0.0195964724969379,0.7850993968996945,0.004757092672483135,-0.103799,-33.907774
11.185,2.0,1.0,1.0,33.8,34.6,34.6,2.9,3.8,2.5975,0.5929160631327955,-0.020028657319506187,0.7902190692059795,0.004662256721025666,-0.105521,-33.73779
11.185,2.0,1.0,1.0,33.8,34.6,34.6,2.9,3.8,2.6,0.5857327812257581,-0.020472465728690412,0.7953076066740615,0.004560986850492227,-0.107295,-33.566219
11.185,2.0,1.0,1.0,33.8,34.6,34.6,2.9,3.8,2.6025,0.5784501124540007,-0.020928334335416535,0.8003636986970025,0.004452938272665414,-0.109123,-33.393016
11.185,2.0,1.0,1.0,33.8,34.6,34.6,2.9,3.8,2.605,0.5710665790049048,-0.021396721814712878,0.805385982801386,0.004337744278476486,-0.111007,-33.218134
11.185,2.0,1.0,1.0,33.8,34.6,34.6,2.9,3.8,2.6075,0.5635806652970717,-0.021878110304331514,0.8103730419803017,0.0042150145472024175,-0.11295,-33.041524
11.185,2.0,1.0,1.0,33.8,34.6,34.6,2.9,3.8,2.61,0.5559908163337732,-0.02237300690898653,0.815323401836667,0.004084333300517345,-0.114954,-32.863136
11.185,2.0,1.0,1.0,33.8,34.6,34.6,2.9,3.8,2.6125,0.5482954359423101,-0.022881945319346595,0.8202355275189036,0.003945257284835022,-0.117023,-32.682916
11.185,2.0,1.0,1.0,33.8,34.6,34.6,2.9,3.8,2.615,0.54049288488923,-0.023405487555796065,0.8251078204288851,0.0037973135633588254,-0.11916,-32.50081
11.185,2.0,1.0,1.0,33.8,34.6,34.6,2.9,3.8,2.6175,0.5325814788603872,-0.023944225847943836,0.8299386146796975,0.003639997096959077,-0.121367,-32.316761
11.185,2.0,1.0,1.0,33.8,34.6,34.6,2.9,3.8,2.62,0.5245594862937062,-0.024498784661925767,0.8347261732780484,0.0034727680903798245,-0.123648,-32.130708
11.185,2.0,1.0,1.0,33.8,34.6,34.6,2.9,3.8,2.6225,0.5164251260513143,-0.025069822888720613,0.8394686840030986,0.00329504907729068,-0.126007,-31.94259
11.185,2.0,1.0,1.0,33.8,34.6,34.6,2.9,3.8,2.625,0.5081765649164,-0.025658036207993,0.844164254949946,0.00310622171428529,-0.128449,-31.752343
11.185,2.0,1.0,1.0,33.8,34.6,34.6,2.9,3.8,2.6275,0.4998119148986355,-0.026264159643406126,0.8488109097020202,0.0029056232500178627,-0.130976,-31.559898
11.185,2.0,1.0,1.0,33.8,34.6,34.6,2.9,3.8,2.63,0.49132923033043213,-0.026888970326916787,0.8534065820920077,0.002692542631183219,-0.133594,-31.365186
11.185,2.0,1.0,1.0,33.8,34.6,34.6,2.9,3.8,2.6325,0.48272650473447176,-0.02753329049129592,0.8579491105056728,0.002466216201889328,-0.136307,-31.168133
11.185,2.0,1.0,1.0,33.8,34.6,34.6,2.9,3.8,2.635,0.4740016674410134,-0.028197990712020334,0.8624362316768661,0.0022258229470330697,-0.139121,-30.968661
11.185,2.0,1.0,1.0,33.8,34.6,34.6,2.9,3.8,2.6375,0.4651525799313007,-0.02888399342176903,0.8668655739150121,0.001970479223436698,-0.142041,-30.76669
11.185,2.0,1.0,1.0,33.8,34.6,34.6,2.9,3.8,2.64,0.4561770318810017,-0.029592276723049492,0.8712346496983057,0.0016992329145782575,-0.145074,-30.562136
11.185,2.0,1.0,1.0,33.8,34.6,34.6,2.9,3.8,2.6425,0.44707273687504445,-0.030323878526980503,0.8755408475564856,0.0014110569355683593,-0.148225,-30.354911
11.185,2.0,1.0,1.0,33.8,34.6,34.6,2.9,3.8,2.645,0.43783732776232387,-0.03107990104899124,0.8797814231562293,0.0011048420043631127,-0.151502,-30.144923
11.185,2.0,1.0,1.0,33.8,34.6,34.6,2.9,3.8,2.6475,0.4284683516156848,-0.03186151569516213,0.8839534894895984,0.0007793885827968522,-0.154912,-29.932073
11.185,2.0,1.0,1.0,33.8,34.6,34.6,2.9,3.8,2.65,0.4189632642591835,-0.03266996837614293,0.8880540060513131,0.00043339787654516265,-0.158463,-29.716261
11.185,2.0,1.0,1.0,33.8,34.6,34.6,2.9,3.8,2.6525,0.40931942432106405,-0.033506585289027786,0.8920797668734481,6.546176621369684e-05,-0.162165,-29.49738
11.185,2.0,1.0,1.0,33.8,34.6,34.6,2.9,3.8,2.655,0.39953408676691743,-0.03437277921124796,0.8960273872661187,-0.0003259484780797205,-0.166026,-29.275317
11.185,2.0,1.0,1.0,33.8,34.6,34.6,2.9,3.8,2.6575,0.389604395863443,-0.0352700563544173,0.8998932890891402,-0.0007424948695474451,-0.170058,-29.049953
11.185,2.0,1.0,1.0,33.8,34.6,34.6,2.9,3.8,2.66,0.3795273775188695,-0.036200023830100105,0.9036736843519423,-0.0011859869633425789,-0.174271,-28.821164
11.185,2.0,1.0,1.0,33.8,34.6,34.6,2.9,3.8,2.6625,0.3692999309416827,-0.03716439778358307,0.907364556906318,-0.0016583979316584917,-0.178677,-28.588819
11.185,2.0,1.0,1.0,33.8,34.6,34.6,2.9,3.8,2.665,0.35891881955480776,-0.03816501225581072,0.910961641957927,-0.0021618827243687134,-0.183291,-28.352779
11.185,2.0,1.0,1.0,33.8,34.6,34.6,2.9,3.8,2.6675,0.34838066109813076,-0.03920382883750382,0.9144604030765724,-0.0026987986297499563,-0.188127,-28.112898
11.185,2.0,1.0,1.0,33.8,34.6,34.6,2.9,3.8,2.67,0.3376819168482683,-0.04028294718288611,0.9178560063307307,-0.003271728603983531,-0.193201,-27.869021
11.185,2.0,1.0,1.0,33.8,34.6,34.6,2.9,3.8,2.6725,0.32681887988131375,-0.04140461645302076,0.9211432911067037,-0.003883507802764592,-0.198532,-27.620985
11.185,2.0,1.0,1.0,33.8,34.6,34.6,2.9,3.8,2.675,0.3157876623023248,-0.042571247759999854,0.9243167370948773,-0.0045372538257241486,-0.204137,-27.368617
11.185,2.0,1.0,1.0,33.8,34.6,34.6,2.9,3.8,2.6775,0.30458418136523263,-0.0437854276824229,0.9273704268321079,-0.005236401277274537,-0.21004,-27.111734
11.185,2.0,1.0,1.0,33.8,34.6,34.6,2.9,3.8,2.68,0.2932041444096981,-0.04504993291873545,0.9302980030767376,-0.005984741359378547,-0.216263,-26.85014
11.185,2.0,1.0,1.0,33.8,34.6,34.6,2.9,3.8,2.6825,0.2816430325485328,-0.04636774613668114,0.9330926201568521,-0.006786467346916498,-0.222834,-26.583629
11.185,2.0,1.0,1.0,33.8,34.6,34.6,2.9,3.8,2.685,0.2698960830525077,-0.04774207306241407,0.9357468882677792,-0.007646226960153002,-0.229782,-26.311982
11.185,2.0,1.0,1.0,33.8,34.6,34.6,2.9,3.8,2.6875,0.257958270401419,-0.0491763608290193,0.938252809494722,-0.00856918284799636,-0.237139,-26.034963
11.185,2.0,1.0,1.0,33.8,34.6,34.6,2.9,3.8,2.69,0.245824286004761,-0.05067431756755982,0.9406017040923963,-0.009561082638731927,-0.244941,-25.752325
11.185,2.0,1.0,1.0,33.8,34.6,34.6,2.9,3.8,2.6925,0.23348851664737355,-0.05223993316911385,0.9427841252549154,-0.010628340312318896,-0.253231,-25.463802
11.185,2.0,1.0,1.0,33.8,34.6,34.6,2.9,3.8,2.695,0.2209450217922493,-0.053877501066327924,0.9447897602425308,-0.011778131013565464,-0.262053,-25.169108
11.185,2.0,1.0,1.0,33.8,34.6,34.6,2.9,3.8,2.6975,0.208187509984005,-0.05559164076772369,0.9466073152800976,-0.01301850187553819,-0.27146,-24.867941
11.185,2.0,1.0,1.0,33.8,34.6,34.6,2.9,3.8,2.7,0.1952093147565953,-0.0573873207131997,0.9482243810836993,-0.014358501978950144,-0.28151,-24.559976
11.185,2.0,1.0,1.0,33.8,34.6,34.6,2.9,3.8,2.7025,0.18200337067692707,-0.05926988078509177,0.9496272751791648,-0.01580833526345974,-0.292269,-24.244863
11.185,2.0,1.0,1.0,33.8,34.6,34.6,2.9,3.8,2.705,0.16856219047998874,-0.06124505347786509,0.950800856314163,-0.017379541065710522,-0.303812,-23.922229
11.185,2.0,1.0,1.0,33.8,34.6,34.6,2.9,3.8,2.7075,0.15487784470975424,-0.06331898226160013,0.9517283051893379,-0.019085208031152913,-0.316226,-23.59167
11.185,2.0,1.0,1.0,33.8,34.6,34.6,2.9,3.8,2.71,0.14094194592912704,-0.06549823501387629,0.9523908643863908,-0.02094022848904147,-0.32961,-23.252755
11.185,2.0,1.0,1.0,33.8,34.6,34.6,2.9,3.8,2.7125,0.1267456404806017,-0.06778980946158249,0.9527675286791762,-0.022961602064973725,-0.344077,-22.905016
11.185,2.0,1.0,1.0,33.8,34.6,34.6,2.9,3.8,2.715,0.11227961208097435,-0.0702011262540064,0.9528346747850464,-0.02516879942494672,-0.359759,-22.54795
11.185,2.0,1.0,1.0,33.8,34.6,34.6,2.9,3.8,2.7175,0.0975341033822054,-0.07274000341615573,0.952565616930489,-0.027584199715481827,-0.376808,-22.181014
11.185,2.0,1.0,1.0,33.8,34.6,34.6,2.9,3.8,2.72,0.08249896426436278,-0.07541460326726279,0.9519300712205858,-0.030233618631464714,-0.395402,-21.803617
11.185,2.0,1.0,1.0,33.8,34.6,34.6,2.9,3.8,2.7225,0.06716373939231249,-0.07823333908491668,0.9508935075341874,-0.03314694828642138,-0.41575,-21.415124
11.185,2.0,1.0,1.0,33.8,34.6,34.6,2.9,3.8,2.725,0.05151781297471237,-0.08120472333869022,0.9494163622971915,-0.03635893539458516,-0.438097,-21.014844
11.185,2.0,1.0,1.0,33.8,34.6,34.6,2.9,3.8,2.7275,0.035550636462505454,-0.08433713145431379,0.9474530787617849,-0.039910130948336904,-0.462736,-20.602028
11.185,2.0,1.0,1.0,33.8,34.6,34.6,2.9,3.8,2.73,0.019252076229106303,-0.08763844368220197,0.9449509330698881,-0.043848052851065675,-0.490013,-20.175864
11.185,2.0,1.0,1.0,33.8,34.6,34.6,2.9,3.8,2.7325,0.0026129347465299953,-0.09111551106643191,0.941848594161953,-0.048228613074942195,-0.520345,-19.73547
11.185,2.0,1.0,1.0,33.8,34.6,34.6,2.9,3.8,2.735,-0.014374277100796048,-0.09477336724864786,0.9380743533968335,-0.053117872948798085,-0.554235,-19.279892
11.185,2.0,1.0,1.0,33.8,34.6,34.6,2.9,3.8,2.7375,-0.031714203402139804,-0.09861407215240553,0.9335439458117913,-0.05859420387886606,-0.592295,-18.808096
11.185,2.0,1.0,1.0,33.8,34.6,34.6,2.9,3.8,2.74,-0.0494069766056982,-0.10263502084950354,0.9281578702974728,-0.06475094509868931,-0.635274,-18.318966
11.185,2.0,1.0,1.0,33.8,34.6,34.6,2.9,3.8,2.7425,-0.06744577719645567,-0.10682647266421494,0.9217981032647496,-0.07169966219477736,-0.684096,-17.811302
11.185,2.0,1.0,1.0,33.8,34.6,34.6,2.9,3.8,2.745,-0.08581325986972903,-0.11116793922565776,0.9143240956397222,-0.07957411405906706,-0.739909,-17.283826
11.185,2.0,1.0,1.0,33.8,34.6,34.6,2.9,3.8,2.7475,-0.10447631364632219,-0.1156228972049682,0.9055679587882456,-0.08853501887337102,-0.804154,-16.735186
11.185,2.0,1.0,1.0,33.8,34.6,34.6,2.9,3.8,2.75,-0.123378367320917,-0.120131035371293,0.895328806461813,-0.0987756462774967,-0.878652,-16.163984
11.185,2.0,1.0,1.0,33.8,34.6,34.6,2.9,3.8,2.7525,-0.14242807611049496,-0.12459687047877789,0.8833663764742214,-0.11052810325883634,-0.965725,-15.568804
11.185,2.0,1.0,1.0,33.8,34.6,34.6,2.9,3.8,2.755,-0.16148268657112053,-0.12887302914478183,0.8693944024002095,-0.12406983019867662,-1.068359,-14.948286
11.185,2.0,1.0,1.0,33.8,34.6,34.6,2.9,3.8,2.7575,-0.18032363646756547,-0.1327357561823576,0.8530749204652978,-0.1397291019775129,-1.190416,-14.30123
11.185,2.0,1.0,1.0,33.8,34.6,34.6,2.9,3.8,2.76,-0.1986210156425796,-0.1358492874819952,0.8340161061695149,-0.15788691034366295,-1.336931,-13.626774
11.185,2.0,1.0,1.0,33.8,34.6,34.6,2.9,3.8,2.7625,-0.2158825762389531,-0.13771480510304746,0.8117789097297862,-0.17896991743966545,-1.514474,-12.924673
11.185,2.0,1.0,1.0,33.8,34.6,34.6,2.9,3.8,2.765,-0.231382693993193,-0.1375994396342425,0.7859026184956072,-0.2034243000493957,-1.731604,-12.195743
11.185,2.0,1.0,1.0,33.8,34.6,34.6,2.9,3.8,2.7675,-0.24406885895851407,-0.1344430245304111,0.7559677521501202,-0.2316520262868301,-1.999315,-11.442532
11.185,2.0,1.0,1.0,33.8,34.6,34.6,2.9,3.8,2.77,-0.25245219897197485,-0.12674933825997678,0.7217272505624115,-0.2638785921738108,-2.331246,-10.670328
11.185,2.0,1.0,1.0,33.8,34.6,34.6,2.9,3.8,2.7725,-0.2545128523308198,-0.1124930324832531,0.6833514437375672,-0.29990686157266616,-2.742958,-9.888577
11.185,2.0,1.0,1.0,33.8,34.6,34.6,2.9,3.8,2.775,-0.24770393143294223,-0.08912649267369392,0.6418355545317727,-0.3387087622704715,-3.248542,-9.112717
11.185,2.0,1.0,1.0,33.8,34.6,34.6,2.9,3.8,2.7775,-0.22922645015878293,-0.05385933933644069,0.5995712792971692,-0.377854516387146,-3.850707,-8.366154
11.185,2.0,1.0,1.0,33.8,34.6,34.6,2.9,3.8,2.78,-0.19682962801091805,-0.004464248983322299,0.560912190112054,-0.4129517922132833,-4.517772,-7.681505
11.185,2.0,1.0,1.0,33.8,34.6,34.6,2.9,3.8,2.7825,-0.1502908056323083,0.05924002570827294,0.5322211593804638,-0.4376086358712724,-5.144962,-7.099416
11.185,2.0,1.0,1.0,33.8,34.6,34.6,2.9,3.8,2.785,-0.09315103369833636,0.13365882198051768,0.5206064414528958,-0.44471201688611334,-5.532948,-6.662839
11.185,2.0,1.0,1.0,33.8,34.6,34.6,2.9,3.8,2.7875,-0.033310650068533655,0.21084526017689803,0.5310604529425602,-0.42929853829053677,-5.480067,-6.406333
11.185,2.0,1.0,1.0,33.8,34.6,34.6,2.9,3.8,2.79,0.01901432344806505,0.28056925674378524,0.5634310562012895,-0.39157414521179856,-4.978241,-6.344195
11.185,2.0,1.0,1.0,33.8,34.6,34.6,2.9,3.8,2.7925,0.05537514382407347,0.3344121263131239,0.6118627346816342,-0.3374447763034154,-4.231493,-6.464676
11.185,2.0,1.0,1.0,33.8,34.6,34.6,2.9,3.8,2.795,0.07220737310344555,0.3688699467392854,0.6675375821453176,-0.2757478860666451,-3.459965,-6.734554
11.185,2.0,1.0,1.0,33.8,34.6,34.6,2.9,3.8,2.7975,0.0708485285663834,0.38534471074327276,0.7224063094909582,-0.21451413676573125,-2.782797,-7.110651
11.185,2.0,1.0,1.0,33.8,34.6,34.6,2.9,3.8,2.8,0.05536984731473104,0.3879570980495271,0.771291196206419,-0.15887571022889427,-2.233308,-7.550992
11.185,2.0,1.0,1.0,33.8,34.6,34.6,2.9,3.8,2.8025,0.030336726262093956,0.3813023496597983,0.8119426222488507,-0.11102532785559682,-1.803435,-8.021184
11.185,2.0,1.0,1.0,33.8,34.6,34.6,2.9,3.8,2.805,-0.0004333366903446641,0.3692125654621404,0.8441027227095518,-0.07116286005680253,-1.472093,-8.496057
11.185,2.0,1.0,1.0,33.8,34.6,34.6,2.9,3.8,2.8075,-0.03420769793347176,0.35442608204819825,0.8685281687268368,-0.03847639539583219,-1.21759,-8.958603
11.185,2.0,1.0,1.0,33.8,34.6,34.6,2.9,3.8,2.81,-0.06921565237569934,0.3387153132555556,0.886331063113236,-0.011801267076380526,-1.021676,-9.398035
11.185,2.0,1.0,1.0,33.8,34.6,34.6,2.9,3.8,2.8125,-0.104394241112002,0.323143893514076,0.898630889043916,0.010033565460607,-0.870155,-9.807896
11.185,2.0,1.0,1.0,33.8,34.6,34.6,2.9,3.8,2.815,-0.1391523985197081,0.30830400199577696,0.9064081941612813,0.028061211127126597,-0.752354,-10.184587
11.185,2.0,1.0,1.0,33.8,34.6,34.6,2.9,3.8,2.8175,-0.17319513555193589,0.2944927655148084,0.9104646029652845,0.04313875681040802,-0.66036,-10.526303
11.185,2.0,1.0,1.0,33.8,34.6,34.6,2.9,3.8,2.82,-0.20640514619937478,0.2818307688950351,0.9114302559264255,0.05595642452373163,-0.588325,-10.832319
11.185,2.0,1.0,1.0,33.8,34.6,34.6,2.9,3.8,2.8225,-0.23876741895847806,0.270337324874728,0.9097880126081344,0.06706339051734977,-0.531921,-11.102515
11.185,2.0,1.0,1.0,33.8,34.6,34.6,2.9,3.8,2.825,-0.2703228575203738,0.2599766100966961,0.9059003511794036,0.07689631221601255,-0.487937,-11.337075
11.185,2.0,1.0,1.0,33.8,34.6,34.6,2.9,3.8,2.8275,-0.30114043221254155,0.25068518317340555,0.9000333917475406,0.08580510558463154,-0.453978,-11.536284
11.185,2.0,1.0,1.0,33.8,34.6,34.6,2.9,3.8,2.83,-0.3313007952832339,0.24238794588127202,0.892376406853009,0.09407444860141205,-0.428258,-11.70041
