1,w,sub_t,h,l1,l2,l3,g1,g2,Freq,S11_re,S21_re,S11_img,S21_img,S11_dB,S21_dB
11.185,2.0,1.0,1.0,34.2,33.9,33.9,3.6,2.3,2.5,0.753618352321805,-0.0109420296923526,0.645948133819386,0.00608582028269728,-0.064802,-38.047503
11.185,2.0,1.0,1.0,34.2,33.9,33.9,3.6,2.3,2.5025,0.7486738839383139,-0.011143430041560431,0.6515547191092524,0.006077832710658866,-0.065478,-37.928611
11.185,2.0,1.0,1.0,34.2,33.9,33.9,3.6,2.3,2.505,0.7436624833331285,-0.01134825122743777,0.6571499307555861,0.006067984848250303,-0.066167,-37.809312
11.185,2.0,1.0,1.0,34.2,33.9,33.9,3.6,2.3,2.5075,0.7385834874863147,-0.011556557966094252,0.6627332271544967,0.006056208663806427,-0.066868,-37.689596
11.185,2.0,1.0,1.0,34.2,33.9,33.9,3.6,2.3,2.51,0.7334362250680515,-0.011768416443880745,0.6683040512864021,0.006042433671074829,-0.067583,-37.569455
11.185,2.0,1.0,1.0,34.2,33.9,33.9,3.6,2.3,2.5125,0.7282200163921806,-0.011983894356112459,0.6738618302579475,0.006026586830276825,-0.06831,-37.44888
11.185,2.0,1.0,1.0,34.2,33.9,33.9,3.6,2.3,2.515,0.722934173372985,-0.012203060946959712,0.6794059748299713,0.006008592444631388,-0.06905,-37.327863
11.185,2.0,1.0,1.0,34.2,33.9,33.9,3.6,2.3,2.5175,0.7175779994854415,-0.012425987050545933,0.6849358789310419,0.005988372052102726,-0.069805,-37.206394
11.185,2.0,1.0,1.0,34.2,33.9,33.9,3.6,2.3,2.52,0.7121507897291686,-0.012652745133295878,0.6904509191561107,0.005965844312117983,-0.070573,-37.084463
11.185,2.0,1.0,1.0,34.2,33.9,33.9,3.6,2.3,2.5225,0.7066518305963487,-0.012883409337576493,0.695950454249757,0.005940924886985704,-0.071356,-36.962062
11.185,2.0,1.0,1.0,34.2,33.9,33.9,3.6,2.3,2.525,0.7010804000438706,-0.013118055526676716,0.7014338245735352,0.005913526317729384,-0.072154,-36.839181
11.185,2.0,1.0,1.0,34.2,33.9,33.9,3.6,2.3,2.5275,0.6954357674699797,-0.013356761331172806,0.7069003515568824,0.005883557894032199,-0.072967,-36.71581
11.185,2.0,1.0,1.0,34.2,33.9,33.9,3.6,2.3,2.53,0.6897171936957289,-0.013599606196727813,0.7123493371310216,0.005850925517970411,-0.073796,-36.591939
11.185,2.0,1.0,1.0,34.2,33.9,33.9,3.6,2.3,2.5325,0.6839239309515371,-0.013846671433376284,0.7177800631452903,0.005815531561192368,-0.074641,-36.467558
11.185,2.0,1.0,1.0,34.2,33.9,33.9,3.6,2.3,2.535,0.6780552228691697,-0.014098040266346609,0.7231917907652922,0.005777274715177672,-0.075502,-36.342657
11.185,2.0,1.0,1.0,34.2,33.9,33.9,3.6,2.3,2.5375,0.6721103044794912,-0.014353797888475314,0.7285837598522359,0.005736049834188468,-0.07638,-36.217224
11.185,2.0,1.0,1.0,34.2,33.9,33.9,3.6,2.3,2.54,0.6660884022163259,-0.014614031514270324,0.7339551883228133,0.0056917477704983635,-0.077276,-36.091251
11.185,2.0,1.0,1.0,34.2,33.9,33.9,3.6,2.3,2.5425,0.6599887339268085,-0.014878830435681651,0.7393052714889329,0.005644255201458634,-0.078189,-35.964725
11.185,2.0,1.0,1.0,34.2,33.9,33.9,3.6,2.3,2.545,0.6538105088885985,-0.01514828607964034,0.7446331813765965,0.005593454447931022,-0.079121,-35.837635
11.185,2.0,1.0,1.0,34.2,33.9,33.9,3.6,2.3,2.5475,0.6475529278343778,-0.015422492067428453,0.7499380660231632,0.005539223283586057,-0.080071,-35.709971
11.185,2.0,1.0,1.0,34.2,33.9,33.9,3.6,2.3,2.55,0.6412151829840314,-0.015701544275945868,0.7552190487522482,0.005481434734531048,-0.081041,-35.58172
11.185,2.0,1.0,1.0,34.2,33.9,33.9,3.6,2.3,2.5525,0.6347964580849801,-0.015985540900940353,0.7604752274254045,0.005419956868696513,-0.08203,-35.45287
11.185,2.0,1.0,1.0,34.2,33.9,33.9,3.6,2.3,2.555,0.6282959284611045,-0.01627458252227153,0.7657056736697715,0.005354652574369782,-0.08304,-35.323411
11.185,2.0,1.0,1.0,34.2,33.9,33.9,3.6,2.3,2.5575,0.621712761070749,-0.016568772171280156,0.7709094320807711,0.005285379327222585,-0.084071,-35.193328
11.185,2.0,1.0,1.0,34.2,33.9,33.9,3.6,2.3,2.56,0.6150461145743192,-0.016868215400336978,0.7760855193989262,0.00521198894513375,-0.085123,-35.062611
11.185,2.0,1.0,1.0,34.2,33.9,33.9,3.6,2.3,2.5625,0.6082951394119922,-0.017173020354647527,0.7812329236598127,0.005134327330058826,-0.086198,-34.931245
11.185,2.0,1.0,1.0,34.2,33.9,33.9,3.6,2.3,2.565,0.6014589778920866,-0.01748329784639163,0.7863506033161113,0.005052234196144854,-0.087295,-34.799218
11.185,2.0,1.0,1.0,34.2,33.9,33.9,3.6,2.3,2.5675,0.5945367642906849,-0.017799161431277733,0.7914374863306697,0.0049655427832314535,-0.088416,-34.666516
11.185,2.0,1.0,1.0,34.2,33.9,33.9,3.6,2.3,2.57,0.5875276249630943,-0.0181207274875953,0.7964924692394265,0.004874079554816528,-0.089561,-34.533125
11.185,2.0,1.0,1.0,34.2,33.9,33.9,3.6,2.3,2.5725,0.5804306784677794,-0.018448115297849208,0.8015144161830002,0.004777663879497316,-0.090731,-34.399032
11.185,2.0,1.0,1.0,34.2,33.9,33.9,3.6,2.3,2.575,0.5732450357034281,-0.01878144713306243,0.8065021579056513,0.004676107694824756,-0.091926,-34.264221
11.185,2.0,1.0,1.0,34.2,33.9,33.9,3.6,2.3,2.5775,0.565969800059833,-0.019120848339834295,0.8114544907202801,0.004569215152429244,-0.093148,-34.128678
11.185,2.0,1.0,1.0,34.2,33.9,33.9,3.6,2.3,2.58,0.55860406758331,-0.019466447430242628,0.8163701754380308,0.004456782243189943,-0.094397,-33.992389
11.185,2.0,1.0,1.0,34.2,33.9,33.9,3.6,2.3,2.5825,0.5511469271573978,-0.019818376174679336,0.8212479362609926,0.004338596401125867,-0.095674,-33.855337
11.185,2.0,1.0,1.0,34.2,33.9,33.9,3.6,2.3,2.585,0.5435974606996292,-0.02017676969770815,0.8260864596363922,0.004214436084585675,-0.09698,-33.717506
11.185,2.0,1.0,1.0,34.2,33.9,33.9,3.6,2.3,2.5875,0.5359547433751828,-0.020541766577034104,0.8308843930705878,0.004084070333201706,-0.098315,-33.57888
11.185,2.0,1.0,1.0,34.2,33.9,33.9,3.6,2.3,2.59,0.5282178438282841,-0.020913508945671892,0.8356403439010377,0.003947258298953918,-0.099682,-33.439443
11.185,2.0,1.0,1.0,34.2,33.9,33.9,3.6,2.3,2.5925,0.5203858244322372,-0.02129214259739975,0.8403528780243276,0.003803748749557366,-0.101079,-33.299176
11.185,2.0,1.0,1.0,34.2,33.9,33.9,3.6,2.3,2.595,0.5124577415590393,-0.02167781709558089,0.8450205185782047,0.0036532795422442458,-0.10251,-33.158064
11.185,2.0,1.0,1.0,34.2,33.9,33.9,3.6,2.3,2.5975,0.5044326458695407,-0.022070685885432414,0.8496417445754166,0.0034955770658542207,-0.103974,-33.016087
11.185,2.0,1.0,1.0,34.2,33.9,33.9,3.6,2.3,2.6,0.4963095826251853,-0.022470906409814306,0.8542149894870157,0.003330355648977024,-0.105473,-32.873226
11.185,2.0,1.0,1.0,34.2,33.9,33.9,3.6,2.3,2.6025,0.4880875920224115,-0.022878640228604558,0.8587386397726041,0.0031573169317039053,-0.107008,-32.729463
11.185,2.0,1.0,1.0,34.2,33.9,33.9,3.6,2.3,2.605,0.4797657095508212,-0.023294053141717803,0.863211033354851,0.0029761491983397847,-0.10858,-32.584778
11.185,2.0,1.0,1.0,34.2,33.9,33.9,3.6,2.3,2.6075,0.47134296637632106,-0.02371731531581224,0.8676304580353462,0.0027865266682055075,-0.110191,-32.439151
11.185,2.0,1.0,1.0,34.2,33.9,33.9,3.6,2.3,2.61,0.4628183897504576,-0.02414860141471583,0.8719951498487206,0.00258810874141262,-0.111841,-32.29256
11.185,2.0,1.0,1.0,34.2,33.9,33.9,3.6,2.3,2.6125,0.45419100344726365,-0.024588090733585297,0.8763032913516381,0.002380539196225146,-0.113532,-32.144985
11.185,2.0,1.0,1.0,34.2,33.9,33.9,3.6,2.3,2.615,0.4454598282289713,-0.025035967336789866,0.8805530098430693,0.0021634453343265885,-0.115266,-31.996403
11.185,2.0,1.0,1.0,34.2,33.9,33.9,3.6,2.3,2.6175,0.43662388234205496,-0.025492420199485315,0.8847423755119155,0.0019364370699858945,-0.117044,-31.846791
11.185,2.0,1.0,1.0,34.2,33.9,33.9,3.6,2.3,2.62,0.42768218204511793,-0.025957643352813337,0.8888693995077473,0.0016991059587586057,-0.118868,-31.696127
11.185,2.0,1.0,1.0,34.2,33.9,33.9,3.6,2.3,2.6225,0.4186337421702276,-0.026431836032623796,0.8929320319300841,0.0014510241609651294,-0.120739,-31.544385
11.185,2.0,1.0,1.0,34.2,33.9,33.9,3.6,2.3,2.625,0.409477576719428,-0.0269152028315715,0.8969281597312,0.0011917433347555,-0.122658,-31.391541
11.185,2.0,1.0,1.0,34.2,33.9,33.9,3.6,2.3,2.6275,0.4002126994982114,-0.02740795385438802,0.9008556045270601,0.00092079345308961,-0.124629,-31.237569
11.185,2.0,1.0,1.0,34.2,33.9,33.9,3.6,2.3,2.63,0.3908381247878885,-0.027910304876064038,0.9047121203104759,0.0006376815384342652,-0.126652,-31.082442
11.185,2.0,1.0,1.0,34.2,33.9,33.9,3.6,2.3,2.6325,0.3813528680589067,-0.02842247750260351,0.9084953910600276,0.00034189030839286845,-0.12873,-30.926133
11.185,2.0,1.0,1.0,34.2,33.9,33.9,3.6,2.3,2.635,0.37175594672730333,-0.02894469933392204,0.9122030282377332,3.287672483682895e-05,-0.130864,-30.768614
11.185,2.0,1.0,1.0,34.2,33.9,33.9,3.6,2.3,2.6375,0.36204638095665054,-0.02947720412835689,0.9158325681677577,-0.0002899295616094494,-0.133058,-30.609854
11.185,2.0,1.0,1.0,34.2,33.9,33.9,3.6,2.3,2.64,0.35222319450799866,-0.030020231968133235,0.9193814692877335,-0.0006271278806740144,-0.135313,-30.449824
11.185,2.0,1.0,1.0,34.2,33.9,33.9,3.6,2.3,2.6425,0.34228541564056125,-0.03057402942498329,0.9228471092634309,-0.0009793483349596328,-0.137631,-30.288493
11.185,2.0,1.0,1.0,34.2,33.9,33.9,3.6,2.3,2.645,0.3322320780660787,-0.031138849724944916,0.9262267819566081,-0.0013472537266917336,-0.140016,-30.125827
11.185,2.0,1.0,1.0,34.2,33.9,33.9,3.6,2.3,2.6475,0.322062221960064,-0.031714952911161935,0.9295176942348432,-0.001731541630593132,-0.14247,-29.961792
11.185,2.0,1.0,1.0,34.2,33.9,33.9,3.6,2.3,2.65,0.3117748950334058,-0.03230260600327144,0.9327169626110211,-0.0021329466260046667,-0.144996,-29.796355
11.185,2.0,1.0,1.0,34.2,33.9,33.9,3.6,2.3,2.6525,0.301369153668197,-0.032902083151678724,0.9358216096988152,-0.002552242702727252,-0.147597,-29.629478
11.185,2.0,1.0,1.0,34.2,33.9,33.9,3.6,2.3,2.655,0.2908440641219332,-0.033513665784693794,0.9388285604691524,-0.002990245856579617,-0.150277,-29.461124
11.185,2.0,1.0,1.0,34.2,33.9,33.9,3.6,2.3,2.6575,0.28019870380476625,-0.034137642746109254,0.9417346382909492,-0.0034478168923597102,-0.153038,-29.291254
11.185,2.0,1.0,1.0,34.2,33.9,33.9,3.6,2.3,2.66,0.2694321626349363,-0.034774310420341896,0.9445365607376545,-0.003925864453797395,-0.155884,-29.119827
11.185,2.0,1.0,1.0,34.2,33.9,33.9,3.6,2.3,2.6625,0.25854354447813926,-0.03542397284171739,0.9472309351390658,-0.004425348302212848,-0.158819,-28.946801
11.185,2.0,1.0,1.0,34.2,33.9,33.9,3.6,2.3,2.665,0.24753196867720487,-0.03608694178384047,0.9498142538556121,-0.004947282867985013,-0.161847,-28.772132
11.185,2.0,1.0,1.0,34.2,33.9,33.9,3.6,2.3,2.6675,0.23639657167934006,-0.03676353682423601,0.952282889249684,-0.005492741101616155,-0.164973,-28.595775
11.185,2.0,1.0,1.0,34.2,33.9,33.9,3.6,2.3,2.67,0.22513650876903507,-0.0374540853785604,0.9546330883256935,-0.006062858654200844,-0.168201,-28.417682
11.185,2.0,1.0,1.0,34.2,33.9,33.9,3.6,2.3,2.6725,0.2137509559158612,-0.03815892269762875,0.9568609670072329,-0.006658838420509835,-0.171535,-28.237804
11.185,2.0,1.0,1.0,34.2,33.9,33.9,3.6,2.3,2.675,0.20223911174765843,-0.03887839181925993,0.9589625040159564,-0.007281955481738725,-0.174982,-28.056088
11.185,2.0,1.0,1.0,34.2,33.9,33.9,3.6,2.3,2.6775,0.1906001996610894,-0.039612843465471136,0.9609335343126024,-0.007933562489310758,-0.178547,-27.872482
11.185,2.0,1.0,1.0,34.2,33.9,33.9,3.6,2.3,2.68,0.17883347008331726,-0.04036263587380828,0.9627697420557302,-0.00861509553603184,-0.182235,-27.68693
11.185,2.0,1.0,1.0,34.2,33.9,33.9,3.6,2.3,2.6825,0.16693820290065395,-0.04112813454952886,0.9644666530283127,-0.009328080566456783,-0.186053,-27.499372
11.185,2.0,1.0,1.0,34.2,33.9,33.9,3.6,2.3,2.685,0.1549137100724536,-0.041909711922897504,0.9660196264761354,-0.01007414038464012,-0.190009,-27.309748
11.185,2.0,1.0,1.0,34.2,33.9,33.9,3.6,2.3,2.6875,0.1427593384515213,-0.042707746892930186,0.9674238462948138,-0.010855002324614109,-0.194108,-27.117994
11.185,2.0,1.0,1.0,34.2,33.9,33.9,3.6,2.3,2.69,0.13047447283572347,-0.043522624235440094,0.9686743114942571,-0.011672506657101357,-0.198359,-26.924042
11.185,2.0,1.0,1.0,34.2,33.9,33.9,3.6,2.3,2.6925,0.11805853927965614,-0.04435473384908885,0.9697658258601225,-0.012528615815273519,-0.20277,-26.727824
11.185,2.0,1.0,1.0,34.2,33.9,33.9,3.6,2.3,2.695,0.1055110087001898,-0.04520446980817941,0.9706929867213155,-0.013425424532985035,-0.207351,-26.529265
11.185,2.0,1.0,1.0,34.2,33.9,33.9,3.6,2.3,2.6975,0.09283140081558167,-0.046072229184997086,0.9714501727204735,-0.0143651710010581,-0.212111,-26.328289
11.185,2.0,1.0,1.0,34.2,33.9,33.9,3.6,2.3,2.7,0.08001928846496939,-0.04695841059738082,0.9720315304705754,-0.01535024916109264,-0.217061,-26.124816
11.185,2.0,1.0,1.0,34.2,33.9,33.9,3.6,2.3,2.7025,0.06707430236355823,-0.047863412428666895,0.9724309599648427,-0.016383222272224232,-0.222211,-25.918761
11.185,2.0,1.0,1.0,34.2,33.9,33.9,3.6,2.3,2.705,0.053996136359034885,-0.048787630656858635,0.972642098588891,-0.0174668379045631,-0.227575,-25.710034
11.185,2.0,1.0,1.0,34.2,33.9,33.9,3.6,2.3,2.7075,0.04078455326712407,-0.0497314562174823,0.9726583035628988,-0.018604044534118753,-0.233165,-25.498544
11.185,2.0,1.0,1.0,34.2,33.9,33.9,3.6,2.3,2.71,0.027439391379084705,-0.050695271809608665,0.9724726326173578,-0.019798009938286062,-0.238996,-25.284191
11.185,2.0,1.0,1.0,34.2,33.9,33.9,3.6,2.3,2.7125,0.013960571752047334,-0.051679448036388825,0.9720778226777547,-0.02105214161898393,-0.245084,-25.066872
11.185,2.0,1.0,1.0,34.2,33.9,33.9,3.6,2.3,2.715,0.0003481064150285297,-0.05268433874944507,0.9714662663011123,-0.022370109512907566,-0.251445,-24.84648
11.185,2.0,1.0,1.0,34.2,33.9,33.9,3.6,2.3,2.7175,-0.013397892349828076,-0.053710275439692486,0.9706299855695837,-0.023755871285828078,-0.258099,-24.622898
11.185,2.0,1.0,1.0,34.2,33.9,33.9,3.6,2.3,2.72,-0.02727720145866186,-0.05475756048452805,0.9695606031026337,-0.025213700551300795,-0.265065,-24.396006
11.185,2.0,1.0,1.0,34.2,33.9,33.9,3.6,2.3,2.7225,-0.04128947497795966,-0.05582645902142778,0.9682493097985304,-0.026748218404557864,-0.272366,-24.165676
11.185,2.0,1.0,1.0,34.2,33.9,33.9,3.6,2.3,2.725,-0.05543423029635449,-0.05691718916908235,0.9666868288568169,-0.028364428720938598,-0.280026,-23.931773
11.185,2.0,1.0,1.0,34.2,33.9,33.9,3.6,2.3,2.7275,-0.06971083217521098,-0.05802991025710062,0.96486337556469,-0.03006775773638881,-0.288072,-23.694155
11.185,2.0,1.0,1.0,34.2,33.9,33.9,3.6,2.3,2.73,-0.08411847426274431,-0.059164708651212344,0.9627686122499987,-0.031864098506950676,-0.296534,-23.452669
11.185,2.0,1.0,1.0,34.2,33.9,33.9,3.6,2.3,2.7325,-0.09865615756484486,-0.06032158066931291,0.9603915977101044,-0.03375986093674077,-0.305445,-23.207156
11.185,2.0,1.0,1.0,34.2,33.9,33.9,3.6,2.3,2.735,-0.11332266525180915,-0.06150041197010716,0.9577207303166333,-0.03576202817188938,-0.314839,-22.957445
11.185,2.0,1.0,1.0,34.2,33.9,33.9,3.6,2.3,2.7375,-0.12811653303866863,-0.06270095265482065,0.9547436838687298,-0.03787822028393312,-0.324757,-22.703357
11.185,2.0,1.0,1.0,34.2,33.9,33.9,3.6,2.3,2.74,-0.14303601419976614,-0.06392278714610422,0.9514473351185123,-0.04011676631319855,-0.335244,-22.444698
11.185,2.0,1.0,1.0,34.2,33.9,33.9,3.6,2.3,2.7425,-0.15807903805676427,-0.06516529768743982,0.9478176817187962,-0.042486785914233,-0.346349,-22.181267
11.185,2.0,1.0,1.0,34.2,33.9,33.9,3.6,2.3,2.745,-0.17324316050052876,-0.06642762002886417,0.9438397491405667,-0.04499828204515535,-0.358127,-21.912845
11.185,2.0,1.0,1.0,34.2,33.9,33.9,3.6,2.3,2.7475,-0.18852550475591706,-0.0677085895148847,0.9394974848721395,-0.04766224637515111,-0.370639,-21.639201
11.185,2.0,1.0,1.0,34.2,33.9,33.9,3.6,2.3,2.75,-0.203922690153313,-0.0690066753475226,0.934773637938529,-0.0504907793536837,-0.383956,-21.36009
11.185,2.0,1.0,1.0,34.2,33.9,33.9,3.6,2.3,2.7525,-0.21943074610510754,-0.07031990023465756,0.9296496214639517,-0.05349722719582538,-0.398155,-21.075246
11.185,2.0,1.0,1.0,34.2,33.9,33.9,3.6,2.3,2.755,-0.2350450077634827,-0.07164574191610788,0.9241053556381011,-0.056696338394457625,-0.413325,-20.78439
11.185,2.0,1.0,1.0,34.2,33.9,33.9,3.6,2.3,2.7575,-0.2507599889113948,-0.0729810121409019,0.9181190880350156,-0.06010444277476991,-0.429565,-20.487221
11.185,2.0,1.0,1.0,34.2,33.9,33.9,3.6,2.3,2.76,-0.2665692264499133,-0.07432170748787695,0.9116671877715877,-0.06373965655968813,-0.44699,-20.183417
11.185,2.0,1.0,1.0,34.2,33.9,33.9,3.6,2.3,2.7625,-0.2824650893103673,-0.0756628248971578,0.9047239094849954,-0.06762211741212792,-0.465729,-19.872634
11.185,2.0,1.0,1.0,34.2,33.9,33.9,3.6,2.3,2.765,-0.2984385426305504,-0.07699813280458478,0.8972611225674473,-0.07177425394840233,-0.48593,-19.554502
11.185,2.0,1.0,1.0,34.2,33.9,33.9,3.6,2.3,2.7675,-0.31447885544582976,-0.07831988620134722,0.8892480005488086,-0.07622109474991552,-0.507764,-19.228626
11.185,2.0,1.0,1.0,34.2,33.9,33.9,3.6,2.3,2.77,-0.3305732367649112,-0.07961847058522421,0.8806506650127934,-0.08099062238742527,-0.53143,-18.89458
11.185,2.0,1.0,1.0,34.2,33.9,33.9,3.6,2.3,2.7725,-0.34670638046688795,-0.08088195537136246,0.8714317780577804,-0.08611417832592454,-0.557154,-18.55191
11.185,2.0,1.0,1.0,34.2,33.9,33.9,3.6,2.3,2.775,-0.36285989362454896,-0.08209553154580226,0.8615500772175801,-0.09162692464998437,-0.585205,-18.200127
11.185,2.0,1.0,1.0,34.2,33.9,33.9,3.6,2.3,2.7775,-0.3790115751632659,-0.08324080071413889,0.8509598471871798,-0.09756836809280067,-0.615891,-17.838706
11.185,2.0,1.0,1.0,34.2,33.9,33.9,3.6,2.3,2.78,-0.39513450158565244,-0.08429487260715783,0.8396103240576512,-0.10398295046436977,-0.649581,-17.467085
11.185,2.0,1.0,1.0,34.2,33.9,33.9,3.6,2.3,2.7825,-0.41119586300529193,-0.08522921474098596,0.8274450307080053,-0.11092070660238153,-0.686706,-17.084664
11.185,2.0,1.0,1.0,34.2,33.9,33.9,3.6,2.3,2.785,-0.4271554748575057,-0.08600818022266717,0.8144010475862506,-0.11843798536207886,-0.727781,-16.690799
11.185,2.0,1.0,1.0,34.2,33.9,33.9,3.6,2.3,2.7875,-0.442963866994011,-0.08658711626489676,0.8004082330339937,-0.12659821923071463,-0.773418,-16.284807
11.185,2.0,1.0,1.0,34.2,33.9,33.9,3.6,2.3,2.79,-0.4585598206728196,-0.08690992510128476,0.7853884242861692,-0.13547271119715754,-0.824356,-15.865964
11.185,2.0,1.0,1.0,34.2,33.9,33.9,3.6,2.3,2.7925,-0.47386718314456383,-0.08690590863009441,0.7692546786533477,-0.1451413792133568,-0.881487,-15.433508
11.185,2.0,1.0,1.0,34.2,33.9,33.9,3.6,2.3,2.795,-0.48879073688499286,-0.08648567607732287,0.7519106610900309,-0.15569335208063176,-0.945895,-14.986642
11.185,2.0,1.0,1.0,34.2,33.9,33.9,3.6,2.3,2.7975,-0.503210834200785,-0.08553582848556585,0.7332503603548194,-0.1672272349806857,-1.018909,-14.524551
11.185,2.0,1.0,1.0,34.2,33.9,33.9,3.6,2.3,2.8,-0.5169764278315713,-0.08391205485656676,0.7131584385946781,-0.17985074097887868,-1.102169,-14.046413
11.185,2.0,1.0,1.0,34.2,33.9,33.9,3.6,2.3,2.8025,-0.5298960388094189,-0.08143018688621168,0.6915117154206848,-0.1936791899184938,-1.197707,-13.55143
11.185,2.0,1.0,1.0,34.2,33.9,33.9,3.6,2.3,2.805,-0.5417261194744308,-0.07785467770357657,0.66818259861578,-0.20883206737981364,-1.308063,-13.038868
11.185,2.0,1.0,1.0,34.2,33.9,33.9,3.6,2.3,2.8075,-0.5521562304026152,-0.07288393296819222,0.6430457604171226,-0.225426353567697,-1.436431,-12.508119
11.185,2.0,1.0,1.0,34.2,33.9,33.9,3.6,2.3,2.81,-0.560790539910536,-0.06613201448355811,0.6159901053971268,-0.243564591597167,-1.586844,-11.9588
11.185,2.0,1.0,1.0,34.2,33.9,33.9,3.6,2.3,2.8125,-0.567125548868717,-0.0571066310924739,0.586939186854498,-0.26331456465153,-1.764417,-11.390889
11.185,2.0,1.0,1.0,34.2,33.9,33.9,3.6,2.3,2.815,-0.5705249826327302,-0.04518436720587229,0.5558847930297552,-0.2846759041319536,-1.975638,-10.804931
11.185,2.0,1.0,1.0,34.2,33.9,33.9,3.6,2.3,2.8175,-0.5701950984295727,-0.029586392749004754,0.5229404112066612,-0.3075269891914436,-2.228712,-10.202322
11.185,2.0,1.0,1.0,34.2,33.9,33.9,3.6,2.3,2.82,-0.565168269368682,-0.009362477851598251,0.4884232561473381,-0.33154355227315624,-2.533872,-9.585726
11.185,2.0,1.0,1.0,34.2,33.9,33.9,3.6,2.3,2.8225,-0.554311100870669,0.01660054098885475,0.4529740679935491,-0.3560799186742417,-2.903516,-8.959621
11.185,2.0,1.0,1.0,34.2,33.9,33.9,3.6,2.3,2.825,-0.536386885365961,0.04951627918146809,0.4177193165071662,-0.3800083799992252,-3.351698,-8.331017
11.185,2.0,1.0,1.0,34.2,33.9,33.9,3.6,2.3,2.8275,-0.5102199913421921,0.0905351605491447,0.3844634693507616,-0.4015290875168475,-3.891945,-7.710296
