1,w,sub_t,h,l1,l2,l3,g1,g2,Freq,S11_re,S21_re,S11_img,S21_img,S11_dB,S21_dB
11.185,2.0,1.0,1.0,33.4,34.7,34.7,3.1,3.3,2.5,0.857078595533133,-0.00757502484621446,0.501999118012679,0.00616805023343264,-0.058647,-40.20334
11.185,2.0,1.0,1.0,33.4,34.7,34.7,3.1,3.3,2.5025,0.8536990937735406,-0.007742197129749968,0.507585092531593,0.006207617665177178,-0.059272,-40.06669
11.185,2.0,1.0,1.0,33.4,34.7,34.7,3.1,3.3,2.505,0.8502674320527932,-0.007913042806028517,0.5131715361475604,0.0062468636539052,-0.059911,-39.929373
11.185,2.0,1.0,1.0,33.4,34.7,34.7,3.1,3.3,2.5075,0.8467830423014366,-0.008087666175521296,0.518758240086181,0.006285763541356863,-0.060563,-39.791369
11.185,2.0,1.0,1.0,33.4,34.7,34.7,3.1,3.3,2.51,0.8432453448697036,-0.008266175552452654,0.5243449887872177,0.006324291370358177,-0.061229,-39.65266
11.185,2.0,1.0,1.0,33.4,34.7,34.7,3.1,3.3,2.5125,0.8396537481980988,-0.008448683459957166,0.5299315596503705,0.0063624198074333175,-0.06191,-39.513227
11.185,2.0,1.0,1.0,33.4,34.7,34.7,3.1,3.3,2.515,0.8360076484738992,-0.008635306836700012,0.5355177227700827,0.0064001200600792485,-0.062605,-39.37305
11.185,2.0,1.0,1.0,33.4,34.7,34.7,3.1,3.3,2.5175,0.8323064292727331,-0.008826167255749128,0.5411032406587452,0.00643736178827941,-0.063316,-39.232109
11.185,2.0,1.0,1.0,33.4,34.7,34.7,3.1,3.3,2.52,0.8285494611843023,-0.00902139115655079,0.5466878679576559,0.006474113009793737,-0.064043,-39.090382
11.185,2.0,1.0,1.0,33.4,34.7,34.7,3.1,3.3,2.5225,0.8247361014212796,-0.00922111009092642,0.5522713511349948,0.0065103399987218235,-0.064786,-38.947849
11.185,2.0,1.0,1.0,33.4,34.7,34.7,3.1,3.3,2.525,0.8208656934103048,-0.009425460984083782,0.5578534281700713,0.006546007176787823,-0.065545,-38.804488
11.185,2.0,1.0,1.0,33.4,34.7,34.7,3.1,3.3,2.5275,0.8169375663639308,-0.009634586411715341,0.5634338282230039,0.006581076996746442,-0.066323,-38.660276
11.185,2.0,1.0,1.0,33.4,34.7,34.7,3.1,3.3,2.53,0.8129510348322911,-0.009848634894343912,0.56901227128894,0.0066155098172515445,-0.067118,-38.51519
11.185,2.0,1.0,1.0,33.4,34.7,34.7,3.1,3.3,2.5325,0.8089053982331437,-0.01006776121017294,0.5745884678358547,0.00664926376846713,-0.067932,-38.369206
11.185,2.0,1.0,1.0,33.4,34.7,34.7,3.1,3.3,2.535,0.8047999403588396,-0.01029212672780201,0.5801621184248852,0.0066822946076313715,-0.068765,-38.2223
11.185,2.0,1.0,1.0,33.4,34.7,34.7,3.1,3.3,2.5375,0.800633928858667,-0.010521899760283816,0.5857329133120679,0.006714555563708034,-0.069618,-38.074447
11.185,2.0,1.0,1.0,33.4,34.7,34.7,3.1,3.3,2.54,0.7964066146948577,-0.010757255942124084,0.5913005320302547,0.0067459971701748,-0.070491,-37.925621
11.185,2.0,1.0,1.0,33.4,34.7,34.7,3.1,3.3,2.5425,0.7921172315704285,-0.010998378630963198,0.5968646429498827,0.006776567084903931,-0.071386,-37.775796
11.185,2.0,1.0,1.0,33.4,34.7,34.7,3.1,3.3,2.545,0.7877649953268605,-0.011245459335829685,0.602424902817146,0.006806209895986971,-0.072303,-37.624943
11.185,2.0,1.0,1.0,33.4,34.7,34.7,3.1,3.3,2.5475,0.7833491033094574,-0.01149869817402024,0.6079809562679915,0.006834866912238004,-0.073243,-37.473036
11.185,2.0,1.0,1.0,33.4,34.7,34.7,3.1,3.3,2.55,0.7788687336980162,-0.011758304358844437,0.6135324353162376,0.006862475936981995,-0.074206,-37.320044
11.185,2.0,1.0,1.0,33.4,34.7,34.7,3.1,3.3,2.5525,0.7743230448002717,-0.012024496720670278,0.6190789588139165,0.006888971023589907,-0.075194,-37.165937
11.185,2.0,1.0,1.0,33.4,34.7,34.7,3.1,3.3,2.555,0.7697111743053107,-0.012297504263929029,0.6246201318818141,0.0069142822110617045,-0.076208,-37.010686
11.185,2.0,1.0,1.0,33.4,34.7,34.7,3.1,3.3,2.5575,0.7650322384939262,-0.012577566762978653,0.630155545307954,0.006938335237779379,-0.077248,-36.854257
11.185,2.0,1.0,1.0,33.4,34.7,34.7,3.1,3.3,2.56,0.7602853314026037,-0.012864935399993406,0.6356847749115614,0.006961051231350615,-0.078315,-36.696617
11.185,2.0,1.0,1.0,33.4,34.7,34.7,3.1,3.3,2.5625,0.7554695239375165,-0.013159873448342211,0.6412073808698103,0.006982346372239685,-0.079411,-36.537734
11.185,2.0,1.0,1.0,33.4,34.7,34.7,3.1,3.3,2.565,0.7505838629345786,-0.01346265700524494,0.6467229070043851,0.007002131528629067,-0.080537,-36.37757
11.185,2.0,1.0,1.0,33.4,34.7,34.7,3.1,3.3,2.5675,0.7456273701612384,-0.013773575777855537,0.652230880024573,0.007020311859673869,-0.081693,-36.216091
11.185,2.0,1.0,1.0,33.4,34.7,34.7,3.1,3.3,2.57,0.7405990412552687,-0.014092933927321988,0.6577308087232868,0.007036786383990666,-0.082882,-36.053257
11.185,2.0,1.0,1.0,33.4,34.7,34.7,3.1,3.3,2.5725,0.7354978445953684,-0.014421050975814196,0.6632221831220243,0.007051447509866936,-0.084104,-35.889031
11.185,2.0,1.0,1.0,33.4,34.7,34.7,3.1,3.3,2.575,0.7303227200978796,-0.014758262782003182,0.668704473560351,0.007064180523271014,-0.08536,-35.723371
11.185,2.0,1.0,1.0,33.4,34.7,34.7,3.1,3.3,2.5775,0.7250725779333622,-0.015104922591019775,0.6741771297250079,0.007074863029288739,-0.086653,-35.556236
11.185,2.0,1.0,1.0,33.4,34.7,34.7,3.1,3.3,2.58,0.7197462971561539,-0.015461402165528111,0.6796395796132129,0.007083364342096252,-0.087984,-35.387582
11.185,2.0,1.0,1.0,33.4,34.7,34.7,3.1,3.3,2.5825,0.714342724239332,-0.01582809300522404,0.6850912284241171,0.007089544817996469,-0.089355,-35.217364
11.185,2.0,1.0,1.0,33.4,34.7,34.7,3.1,3.3,2.585,0.7088606715067448,-0.016205407662820918,0.6905314573716761,0.007093255125383853,-0.090766,-35.045535
11.185,2.0,1.0,1.0,33.4,34.7,34.7,3.1,3.3,2.5875,0.703298915452895,-0.01659378116542521,0.6959596224114324,0.007094335444752802,-0.092221,-34.872047
11.185,2.0,1.0,1.0,33.4,34.7,34.7,3.1,3.3,2.59,0.6976561949405219,-0.01699367255114089,0.7013750528728036,0.007092614591008949,-0.093721,-34.696849
11.185,2.0,1.0,1.0,33.4,34.7,34.7,3.1,3.3,2.5925,0.6919312092646236,-0.01740556653179128,0.7067770499874814,0.007087909049370403,-0.095268,-34.519889
11.185,2.0,1.0,1.0,33.4,34.7,34.7,3.1,3.3,2.595,0.6861226160704961,-0.017829975293819095,0.7121648853033763,0.00708002191503519,-0.096864,-34.341112
11.185,2.0,1.0,1.0,33.4,34.7,34.7,3.1,3.3,2.5975,0.6802290291119762,-0.018267440450743754,0.7175377989722712,0.007068741725520418,-0.098512,-34.160461
11.185,2.0,1.0,1.0,33.4,34.7,34.7,3.1,3.3,2.6,0.6742490158345967,-0.01871853516202917,0.7228949978978157,0.007053841173126087,-0.100215,-33.977878
11.185,2.0,1.0,1.0,33.4,34.7,34.7,3.1,3.3,2.6025,0.6681810947666535,-0.019183866434876587,0.7282356537288028,0.007035075683306533,-0.101974,-33.7933
11.185,2.0,1.0,1.0,33.4,34.7,34.7,3.1,3.3,2.605,0.6620237326992603,-0.019664077627323855,0.7335589006807054,0.007012181842816336,-0.103793,-33.606663
11.185,2.0,1.0,1.0,33.4,34.7,34.7,3.1,3.3,2.6075,0.6557753416343399,-0.020159851173135873,0.7388638331661859,0.006984875659288948,-0.105675,-33.4179
11.185,2.0,1.0,1.0,33.4,34.7,34.7,3.1,3.3,2.61,0.6494342754770617,-0.020671911551344166,0.7441495032126914,0.006952850631358137,-0.107623,-33.226942
11.185,2.0,1.0,1.0,33.4,34.7,34.7,3.1,3.3,2.6125,0.6429988264464908,-0.021201028525974584,0.7494149176422523,0.0069157756054876555,-0.109641,-33.033714
11.185,2.0,1.0,1.0,33.4,34.7,34.7,3.1,3.3,2.615,0.6364672211751305,-0.021748020684532996,0.754659034985125,0.0068732923922612855,-0.111732,-32.838142
11.185,2.0,1.0,1.0,33.4,34.7,34.7,3.1,3.3,2.6175,0.6298376164645314,-0.0223137593072521,0.7598807620948838,0.006825013110923558,-0.113901,-32.640144
11.185,2.0,1.0,1.0,33.4,34.7,34.7,3.1,3.3,2.62,0.6231080946601618,-0.02289917260299602,0.7650789504278941,0.006770517226352241,-0.116152,-32.439636
11.185,2.0,1.0,1.0,33.4,34.7,34.7,3.1,3.3,2.6225,0.616276658604224,-0.023505250352139673,0.7702523919446518,0.006709348237266805,-0.118489,-32.236533
11.185,2.0,1.0,1.0,33.4,34.7,34.7,3.1,3.3,2.625,0.609341226119995,-0.0241330490017648,0.775399814584083,0.00664100996819481,-0.120918,-32.03074
11.185,2.0,1.0,1.0,33.4,34.7,34.7,3.1,3.3,2.6275,0.6022996239753944,-0.024783697264237885,0.7805198772544764,0.006564962410355629,-0.123444,-31.822163
11.185,2.0,1.0,1.0,33.4,34.7,34.7,3.1,3.3,2.63,0.5951495812668871,-0.02545840227675439,0.7856111642759505,0.006480617047974539,-0.126073,-31.610699
11.185,2.0,1.0,1.0,33.4,34.7,34.7,3.1,3.3,2.6325,0.587888722157197,-0.02615845638687781,0.7906721791990813,0.006387331596359619,-0.128811,-31.396243
11.185,2.0,1.0,1.0,33.4,34.7,34.7,3.1,3.3,2.635,0.5805145578916807,-0.026885244637605922,0.7957013379121715,0.006284404066054592,-0.131666,-31.178683
11.185,2.0,1.0,1.0,33.4,34.7,34.7,3.1,3.3,2.6375,0.5730244780082799,-0.027640253035224688,0.8006969609352856,0.006171066053154705,-0.134644,-30.957901
11.185,2.0,1.0,1.0,33.4,34.7,34.7,3.1,3.3,2.64,0.5654157406446265,-0.02842507769435235,0.8056572647821604,0.006046475138985588,-0.137755,-30.733773
11.185,2.0,1.0,1.0,33.4,34.7,34.7,3.1,3.3,2.6425,0.5576854618328834,-0.02924143496734579,0.8105803522508087,0.005909706262244513,-0.141006,-30.506168
11.185,2.0,1.0,1.0,33.4,34.7,34.7,3.1,3.3,2.645,0.5498306036579823,-0.030091172679895056,0.8154642014794938,0.005759741902706167,-0.144408,-30.274948
11.185,2.0,1.0,1.0,33.4,34.7,34.7,3.1,3.3,2.6475,0.5418479611377854,-0.03097628261145548,0.8203066535757941,0.005595460886858807,-0.147971,-30.039968
11.185,2.0,1.0,1.0,33.4,34.7,34.7,3.1,3.3,2.65,0.5337341476640278,-0.031898914378497,0.8251053985917602,0.005415625591317943,-0.151708,-29.801074
11.185,2.0,1.0,1.0,33.4,34.7,34.7,3.1,3.3,2.6525,0.5254855788203124,-0.03286139090075725,0.8298579595762878,0.005218867278266639,-0.15563,-29.558102
11.185,2.0,1.0,1.0,33.4,34.7,34.7,3.1,3.3,2.655,0.5170984543673918,-0.033866225656220765,0.8345616743852944,0.005003669246874469,-0.159752,-29.31088
11.185,2.0,1.0,1.0,33.4,34.7,34.7,3.1,3.3,2.6575,0.5085687381561697,-0.034916141959868724,0.8392136748689036,0.004768347423619769,-0.16409,-29.059224
11.185,2.0,1.0,1.0,33.4,34.7,34.7,3.1,3.3,2.66,0.49989213569452207,-0.03601409453491831,0.8438108629801879,0.004511027940137144,-0.16866,-28.802941
11.185,2.0,1.0,1.0,33.4,34.7,34.7,3.1,3.3,2.6625,0.49106406905476846,-0.03716329368386632,0.8483498832587782,0.004229621156401498,-0.173483,-28.541823
11.185,2.0,1.0,1.0,33.4,34.7,34.7,3.1,3.3,2.665,0.48207964876357623,-0.038367232410809804,0.8528270910307775,0.003921791475665539,-0.178578,-28.275649
11.185,2.0,1.0,1.0,33.4,34.7,34.7,3.1,3.3,2.6675,0.47293364226481294,-0.0396297168968528,0.8572385155286137,0.00358492216037706,-0.18397,-28.004186
11.185,2.0,1.0,1.0,33.4,34.7,34.7,3.1,3.3,2.67,0.46362043848751583,-0.04095490078754823,0.8615798169641717,0.0032160741886640507,-0.189684,-27.727184
11.185,2.0,1.0,1.0,33.4,34.7,34.7,3.1,3.3,2.6725,0.45413400798537784,-0.042347323815732994,0.8658462363770655,0.002811937980334299,-0.195751,-27.444374
11.185,2.0,1.0,1.0,33.4,34.7,34.7,3.1,3.3,2.675,0.44446785804057554,-0.043811955355052244,0.8700325368162404,0.00236877655865393,-0.202203,-27.15547
11.185,2.0,1.0,1.0,33.4,34.7,34.7,3.1,3.3,2.6775,0.4346149820435126,-0.04535424357874141,0.8741329340828355,0.001882358385129252,-0.209078,-26.860167
11.185,2.0,1.0,1.0,33.4,34.7,34.7,3.1,3.3,2.68,0.4245678023720687,-0.046980170983862826,0.8781410148467024,0.0013478776904637631,-0.216417,-26.558135
11.185,2.0,1.0,1.0,33.4,34.7,34.7,3.1,3.3,2.6825,0.4143181059013506,-0.04869631713094373,0.8820496394235949,0.0007598596013733541,-0.224268,-26.24902
11.185,2.0,1.0,1.0,33.4,34.7,34.7,3.1,3.3,2.685,0.40385697118192954,-0.05050992953850367,0.8858508258326486,0.00011204669787530913,-0.232686,-25.932443
11.185,2.0,1.0,1.0,33.4,34.7,34.7,3.1,3.3,2.6875,0.393174686238649,-0.0524290037536436,0.889535610901583,-0.000602737213474108,-0.241732,-25.607994
11.185,2.0,1.0,1.0,33.4,34.7,34.7,3.1,3.3,2.69,0.3822606558760289,-0.05446237368078568,0.8930938830935027,-0.0013927514146093783,-0.251477,-25.275229
11.185,2.0,1.0,1.0,33.4,34.7,34.7,3.1,3.3,2.6925,0.3711032973509426,-0.05661981326961199,0.8965141803184291,-0.002267537389123194,-0.262003,-24.933671
11.185,2.0,1.0,1.0,33.4,34.7,34.7,3.1,3.3,2.695,0.3596899233227519,-0.058912150605978236,0.8997834441631802,-0.0032381612662306493,-0.273404,-24.582801
11.185,2.0,1.0,1.0,33.4,34.7,34.7,3.1,3.3,2.6975,0.34800661116947873,-0.06135139526140458,0.9028867195879757,-0.004317510504479132,-0.285789,-24.222056
11.185,2.0,1.0,1.0,33.4,34.7,34.7,3.1,3.3,2.7,0.3360380581527554,-0.06395087935064141,0.9058067860117058,-0.0055206588384606224,-0.299287,-23.850825
11.185,2.0,1.0,1.0,33.4,34.7,34.7,3.1,3.3,2.7025,0.32376742266109637,-0.06672541198498241,0.908523701588319,-0.006865317614725573,-0.314047,-23.468441
11.185,2.0,1.0,1.0,33.4,34.7,34.7,3.1,3.3,2.705,0.31117615307861984,-0.06969144547290722,0.9110142370211453,-0.008372397075926862,-0.330245,-23.074179
11.185,2.0,1.0,1.0,33.4,34.7,34.7,3.1,3.3,2.7075,0.298243808060577,-0.07286724936237914,0.9132511680020232,-0.010066708380330582,-0.348091,-22.667245
11.185,2.0,1.0,1.0,33.4,34.7,34.7,3.1,3.3,2.71,0.2849478756999398,-0.0762730846879974,0.9152023856595897,-0.011977846801541344,-0.367834,-22.246771
11.185,2.0,1.0,1.0,33.4,34.7,34.7,3.1,3.3,2.7125,0.27126360512422604,-0.07993136469689872,0.9168297713882746,-0.014141309502343548,-0.389774,-21.811805
11.185,2.0,1.0,1.0,33.4,34.7,34.7,3.1,3.3,2.715,0.25716387389107664,-0.08386677845721502,0.9180877649362197,-0.016599918678306416,-0.414273,-21.361305
11.185,2.0,1.0,1.0,33.4,34.7,34.7,3.1,3.3,2.7175,0.24261913045747863,-0.08810633779994717,0.9189215311017492,-0.019405644262612612,-0.441772,-20.894126
11.185,2.0,1.0,1.0,33.4,34.7,34.7,3.1,3.3,2.72,0.22759747673324282,-0.0926792822602838,0.9192645988157149,-0.022621951761636203,-0.472811,-20.409012
11.185,2.0,1.0,1.0,33.4,34.7,34.7,3.1,3.3,2.7225,0.2120649974465628,-0.0976167349238012,0.9190358043107024,-0.026326842580690752,-0.50806,-19.904586
11.185,2.0,1.0,1.0,33.4,34.7,34.7,3.1,3.3,2.725,0.1959865108947273,-0.10295093421924707,0.9181353148033925,-0.030616809048643636,-0.548352,-19.379341
11.185,2.0,1.0,1.0,33.4,34.7,34.7,3.1,3.3,2.7275,0.1793270264368377,-0.10871375596251806,0.9164394384877155,-0.035611996343722765,-0.594738,-18.831634
11.185,2.0,1.0,1.0,33.4,34.7,34.7,3.1,3.3,2.73,0.16205437572496204,-0.11493405851153884,0.9137938411350808,-0.04146294807384039,-0.648552,-18.259689
11.185,2.0,1.0,1.0,33.4,34.7,34.7,3.1,3.3,2.7325,0.1441437834447276,-0.12163308562527303,0.9100046974860818,-0.04835940295765248,-0.711506,-17.661605
11.185,2.0,1.0,1.0,33.4,34.7,34.7,3.1,3.3,2.735,0.12558563528286254,-0.12881667082263637,0.9048272349130534,-0.056541678659596604,-0.785819,-17.035389
11.185,2.0,1.0,1.0,33.4,34.7,34.7,3.1,3.3,2.7375,0.10639850815598678,-0.13646218215011438,0.8979511523080086,-0.06631515032818859,-0.874395,-16.379017
11.185,2.0,1.0,1.0,33.4,34.7,34.7,3.1,3.3,2.74,0.08665083757407938,-0.14449684137278343,0.8889826996680262,-0.07806802471546526,-0.981067,-15.690554
11.185,2.0,1.0,1.0,33.4,34.7,34.7,3.1,3.3,2.7425,0.06649666635056158,-0.15276199205280094,0.8774241969131158,-0.09229161262407219,-1.110935,-14.968365
11.185,2.0,1.0,1.0,33.4,34.7,34.7,3.1,3.3,2.745,0.04623400487410507,-0.16095482381510604,0.8626543577623652,-0.10959971077985517,-1.270807,-14.211483
11.185,2.0,1.0,1.0,33.4,34.7,34.7,3.1,3.3,2.7475,0.02639836034928233,-0.16853506776251037,0.8439188385286502,-0.13073765224367082,-1.469739,-13.420229
11.185,2.0,1.0,1.0,33.4,34.7,34.7,3.1,3.3,2.75,0.00790743864847985,-0.174580791892305,0.820353508726198,-0.15655853200803,-1.719576,-12.59724
11.185,2.0,1.0,1.0,33.4,34.7,34.7,3.1,3.3,2.7525,-0.007730183990105564,-0.17758072119810417,0.7910886501301512,-0.18791849126335206,-2.035082,-11.749098
11.185,2.0,1.0,1.0,33.4,34.7,34.7,3.1,3.3,2.755,-0.01815714487846312,-0.17517811547872136,0.7555252774515355,-0.22540018718180183,-2.432512,-10.888817
11.185,2.0,1.0,1.0,33.4,34.7,34.7,3.1,3.3,2.7575,-0.0199662131084955,-0.16397250970953098,0.7139222002992586,-0.2687266367898444,-2.923587,-10.03922
11.185,2.0,1.0,1.0,33.4,34.7,34.7,3.1,3.3,2.76,-0.008870745762946948,-0.1396935349519562,0.6684039864930363,-0.31575680413520596,-3.498454,-9.236631
11.185,2.0,1.0,1.0,33.4,34.7,34.7,3.1,3.3,2.7625,0.01915691014623801,-0.09834067444262691,0.6241746628239485,-0.36127977070073736,-4.089788,-8.532707
11.185,2.0,1.0,1.0,33.4,34.7,34.7,3.1,3.3,2.765,0.06529184367470897,-0.03877065355885165,0.5898698288528511,-0.39667360689202436,-4.53199,-7.990043
11.185,2.0,1.0,1.0,33.4,34.7,34.7,3.1,3.3,2.7675,0.12476568887383047,0.03422962959188239,0.5752329403935708,-0.41223423525595615,-4.603476,-7.667278
11.185,2.0,1.0,1.0,33.4,34.7,34.7,3.1,3.3,2.77,0.18655289211062112,0.10965037517257514,0.58591993132805,-0.4023568799498249,-4.223886,-7.596648
11.185,2.0,1.0,1.0,33.4,34.7,34.7,3.1,3.3,2.7725,0.23811359255604192,0.1750034937690509,0.6194849975688668,-0.36952021977319155,-3.560938,-7.76838
11.185,2.0,1.0,1.0,33.4,34.7,34.7,3.1,3.3,2.775,0.2716498094458775,0.22255424207812205,0.66701795899011,-0.32262957135650666,-2.850782,-8.135516
11.185,2.0,1.0,1.0,33.4,34.7,34.7,3.1,3.3,2.7775,0.286190835025262,0.25137945661002237,0.7186038429329741,-0.2715651547261136,-2.230834,-8.63472
11.185,2.0,1.0,1.0,33.4,34.7,34.7,3.1,3.3,2.78,0.28521150347707364,0.26497749747296556,0.7672962309619502,-0.22322952203975038,-1.738674,-9.206578
11.185,2.0,1.0,1.0,33.4,34.7,34.7,3.1,3.3,2.7825,0.2734057617304937,0.2680488054904572,0.8097729007140303,-0.18090621629045392,-1.3639,-9.805629
11.185,2.0,1.0,1.0,33.4,34.7,34.7,3.1,3.3,2.785,0.2548307856809413,0.2646497879325653,0.8452302158246031,-0.14536920319335353,-1.082659,-10.401399
11.185,2.0,1.0,1.0,33.4,34.7,34.7,3.1,3.3,2.7875,0.23238934551996612,0.25768156487255556,0.8741376798826136,-0.11612655190028966,-0.871822,-10.975339
11.185,2.0,1.0,1.0,33.4,34.7,34.7,3.1,3.3,2.79,0.20795432722691445,0.24901732380190933,0.897425062473442,-0.09223032665563419,-0.712884,-11.51712
11.185,2.0,1.0,1.0,33.4,34.7,34.7,3.1,3.3,2.7925,0.1826565158088776,0.23979090642493922,0.9160745094833459,-0.0726820396086673,-0.592067,-12.021624
11.185,2.0,1.0,1.0,33.4,34.7,34.7,3.1,3.3,2.795,0.157142606010912,0.23065478252837818,0.9309569350633903,-0.056594633881282684,-0.499397,-12.486856
11.185,2.0,1.0,1.0,33.4,34.7,34.7,3.1,3.3,2.7975,0.13175996695641148,0.22196454645574543,0.9427881450393637,-0.04323534318033295,-0.427711,-12.9126
11.185,2.0,1.0,1.0,33.4,34.7,34.7,3.1,3.3,2.8,0.1066768252925194,0.21389884579682342,0.9521348567643481,-0.03201901872602296,-0.371854,-13.29959
11.185,2.0,1.0,1.0,33.4,34.7,34.7,3.1,3.3,2.8025,0.0819567774387806,0.20653372803516326,0.9594371983512738,-0.022485163057217594,-0.328094,-13.649008
11.185,2.0,1.0,1.0,33.4,34.7,34.7,3.1,3.3,2.805,0.057603794542607806,0.19988757850260216,0.9650335064530187,-0.014272739726655251,-0.293706,-13.962198
11.185,2.0,1.0,1.0,33.4,34.7,34.7,3.1,3.3,2.8075,0.03358896310545455,0.19394788270651198,0.9691822600769116,-0.00709785304570043,-0.266678,-14.240486
11.185,2.0,1.0,1.0,33.4,34.7,34.7,3.1,3.3,2.81,0.009866155029487317,0.18868699455165727,0.9720798501767347,-0.0007355541286754351,-0.245514,-14.485095
11.185,2.0,1.0,1.0,33.4,34.7,34.7,3.1,3.3,2.8125,-0.0136189458263032,0.184071328427584,0.973874366968441,0.00499444106288884,-0.229092,-14.697081
11.185,2.0,1.0,1.0,33.4,34.7,34.7,3.1,3.3,2.815,-0.03692378594785706,0.18006664481754867,0.9746760428548759,0.010238788183567741,-0.216566,-14.877316
11.185,2.0,1.0,1.0,33.4,34.7,34.7,3.1,3.3,2.8175,-0.06010625074722153,0.17664103080381965,0.974565036107876,0.015119020680721835,-0.207295,-15.026468
11.185,2.0,1.0,1.0,33.4,34.7,34.7,3.1,3.3,2.82,-0.08322338247304915,0.17376653430913275,0.9735971463748618,0.019738152128020693,-0.200796,-15.145
11.185,2.0,1.0,1.0,33.4,34.7,34.7,3.1,3.3,2.8225,-0.10633093707607273,0.1714200267550739,0.9718079263906384,0.024185883383350648,-0.196707,-15.233164
11.185,2.0,1.0,1.0,33.4,34.7,34.7,3.1,3.3,2.825,-0.12948344095014824,0.16958363927726808,0.9692155346456508,0.02854281654124736,-0.194764,-15.291002
11.185,2.0,1.0,1.0,33.4,34.7,34.7,3.1,3.3,2.8275,-0.15273454699534422,0.16824498008941394,0.9658225720249007,0.03288399394022149,-0.19478,-15.31834
11.185,2.0,1.0,1.0,33.4,34.7,34.7,3.1,3.3,2.83,-0.17613757231362465,0.16739725757990034,0.9616170611062901,0.037282021074647835,-0.19664,-15.314785
