1,w,sub_t,h,l1,l2,l3,g1,g2,Freq,S11_re,S21_re,S11_img,S21_img,S11_dB,S21_dB
11.185,2.0,1.0,1.0,34.5,34.1,34.1,3.6,1.9,2.5,0.702289380954074,-0.0142889162471397,0.700453009955519,0.00708401860159529,-0.070734,-35.945573
11.185,2.0,1.0,1.0,34.5,34.1,34.1,3.6,1.9,2.5025,0.6965862063837057,-0.014553323935141482,0.7059993766931001,0.007059393499936842,-0.071517,-35.823054
11.185,2.0,1.0,1.0,34.5,34.1,34.1,3.6,1.9,2.505,0.6908077707130899,-0.01482241432014151,0.7115273078677743,0.007031922869005661,-0.072316,-35.700025
11.185,2.0,1.0,1.0,34.5,34.1,34.1,3.6,1.9,2.5075,0.6849533315604931,-0.015096278796530131,0.7170360575402895,0.007001499910613204,-0.073132,-35.576478
11.185,2.0,1.0,1.0,34.5,34.1,34.1,3.6,1.9,2.51,0.6790221383720735,-0.015375010939580972,0.7225248587208739,0.006968013847807974,-0.073965,-35.452402
11.185,2.0,1.0,1.0,34.5,34.1,34.1,3.6,1.9,2.5125,0.6730134324313336,-0.015658706569787073,0.7279929227464788,0.006931349754646301,-0.074815,-35.327787
11.185,2.0,1.0,1.0,34.5,34.1,34.1,3.6,1.9,2.515,0.6669264468746894,-0.015947463819473737,0.7334394386386722,0.006891388377442451,-0.075683,-35.202623
11.185,2.0,1.0,1.0,34.5,34.1,34.1,3.6,1.9,2.5175,0.6607604067135006,-0.01624138320178289,0.7388635724414732,0.006848005947001035,-0.07657,-35.076899
11.185,2.0,1.0,1.0,34.5,34.1,34.1,3.6,1.9,2.52,0.6545145288629048,-0.0165405676821281,0.7442644665384248,0.006801073981300685,-0.077475,-34.950605
11.185,2.0,1.0,1.0,34.5,34.1,34.1,3.6,1.9,2.5225,0.648188022177844,-0.01684512275222386,0.7496412389481263,0.006750459078062012,-0.0784,-34.823728
11.185,2.0,1.0,1.0,34.5,34.1,34.1,3.6,1.9,2.525,0.6417800874966405,-0.017155156506797744,0.7549929825974528,0.006696022696593706,-0.079345,-34.69626
11.185,2.0,1.0,1.0,34.5,34.1,34.1,3.6,1.9,2.5275,0.6352899176925384,-0.017470779723099152,0.760318764571622,0.0066376209282683,-0.08031,-34.568186
11.185,2.0,1.0,1.0,34.5,34.1,34.1,3.6,1.9,2.53,0.6287166977336209,-0.01779210594332287,0.76561762534023,0.006575104254934157,-0.081296,-34.439497
11.185,2.0,1.0,1.0,34.5,34.1,34.1,3.6,1.9,2.5325,0.6220596047515315,-0.01811925156007199,0.7708885779583462,0.006508317294520424,-0.082304,-34.310179
11.185,2.0,1.0,1.0,34.5,34.1,34.1,3.6,1.9,2.535,0.6153178081194483,-0.018452335904990264,0.7761306072416941,0.0064370985330392694,-0.083333,-34.18022
11.185,2.0,1.0,1.0,34.5,34.1,34.1,3.6,1.9,2.5375,0.6084904695397831,-0.018791481340698052,0.7813426689149028,0.006361280042131761,-0.084386,-34.049607
11.185,2.0,1.0,1.0,34.5,34.1,34.1,3.6,1.9,2.54,0.6015767431420822,-0.019136813356175522,0.78652368873175,0.006280687181241808,-0.085462,-33.918328
11.185,2.0,1.0,1.0,34.5,34.1,34.1,3.6,1.9,2.5425,0.5945757755916345,-0.019488460665738925,0.7916725615662706,0.00619513828343525,-0.086562,-33.786369
11.185,2.0,1.0,1.0,34.5,34.1,34.1,3.6,1.9,2.545,0.5874867062093083,-0.01984655531176536,0.7967881504735211,0.00610444432380798,-0.087686,-33.653716
11.185,2.0,1.0,1.0,34.5,34.1,34.1,3.6,1.9,2.5475,0.5803086671031695,-0.020211232771325575,0.8018692857187341,0.006008408569348014,-0.088836,-33.520355
11.185,2.0,1.0,1.0,34.5,34.1,34.1,3.6,1.9,2.55,0.5730407833124213,-0.020582632066893754,0.8069147637735231,0.0059068262090301955,-0.090012,-33.386272
11.185,2.0,1.0,1.0,34.5,34.1,34.1,3.6,1.9,2.5525,0.5656821729642854,-0.020960895881305473,0.811923346277693,0.00579948396282911,-0.091216,-33.251451
11.185,2.0,1.0,1.0,34.5,34.1,34.1,3.6,1.9,2.555,0.558231947444399,-0.0213461706771475,0.816893758965155,0.005686159668233914,-0.092447,-33.115878
11.185,2.0,1.0,1.0,34.5,34.1,34.1,3.6,1.9,2.5575,0.5506892115813751,-0.021738606820765137,0.8218246905523234,0.005566621842738201,-0.093706,-32.979537
11.185,2.0,1.0,1.0,34.5,34.1,34.1,3.6,1.9,2.56,0.5430530638461805,-0.022138358711081704,0.8267147915872689,0.0054406292206583195,-0.094995,-32.842411
11.185,2.0,1.0,1.0,34.5,34.1,34.1,3.6,1.9,2.5625,0.5353225965670086,-0.022545584913431,0.8315626732578019,0.005307930262501405,-0.096315,-32.704485
11.185,2.0,1.0,1.0,34.5,34.1,34.1,3.6,1.9,2.565,0.5274968961603458,-0.02296044829861032,0.8363669061565159,0.005168262634962147,-0.097666,-32.56574
11.185,2.0,1.0,1.0,34.5,34.1,34.1,3.6,1.9,2.5675,0.5195750433789806,-0.023383116187365778,0.8411260190006912,0.005021352659470831,-0.099049,-32.42616
11.185,2.0,1.0,1.0,34.5,34.1,34.1,3.6,1.9,2.57,0.5115561135777021,-0.023813760500530037,0.8458384973048138,0.004866914727044428,-0.100466,-32.285727
11.185,2.0,1.0,1.0,34.5,34.1,34.1,3.6,1.9,2.5725,0.5034391769974804,-0.02425255791503501,0.8505027820032913,0.004704650677006068,-0.101917,-32.144422
11.185,2.0,1.0,1.0,34.5,34.1,34.1,3.6,1.9,2.575,0.4952232990689562,-0.02469969002602769,0.8551172680207771,0.004534249136934076,-0.103404,-32.002225
11.185,2.0,1.0,1.0,34.5,34.1,34.1,3.6,1.9,2.5775,0.48690754073609094,-0.02515534351531843,0.8596803027872961,0.0043553848209780515,-0.104927,-31.859118
11.185,2.0,1.0,1.0,34.5,34.1,34.1,3.6,1.9,2.58,0.47849095880087233,-0.025619710326394807,0.864190184695175,0.0041677177834342225,-0.106489,-31.71508
11.185,2.0,1.0,1.0,34.5,34.1,34.1,3.6,1.9,2.5825,0.46997260628999177,-0.02609298784623277,0.868645161494529,0.003970892624203018,-0.108089,-31.57009
11.185,2.0,1.0,1.0,34.5,34.1,34.1,3.6,1.9,2.585,0.46135153284447655,-0.026575379094134176,0.8730434286237698,0.003764537642456643,-0.109731,-31.424127
11.185,2.0,1.0,1.0,34.5,34.1,34.1,3.6,1.9,2.5875,0.4526267851332666,-0.027067092917816536,0.8773831274713649,0.003548263934519016,-0.111414,-31.277168
11.185,2.0,1.0,1.0,34.5,34.1,34.1,3.6,1.9,2.59,0.4437974072918197,-0.027568344196971836,0.8816623435646852,0.0033216644316032395,-0.113142,-31.129191
11.185,2.0,1.0,1.0,34.5,34.1,34.1,3.6,1.9,2.5925,0.43486244138681895,-0.028079354054499597,0.8858791046814961,0.0030843128726574676,-0.114914,-30.980172
11.185,2.0,1.0,1.0,34.5,34.1,34.1,3.6,1.9,2.595,0.4258209279081843,-0.02860035007560388,0.8900313788791892,0.00283576270713632,-0.116733,-30.830086
11.185,2.0,1.0,1.0,34.5,34.1,34.1,3.6,1.9,2.5975,0.4166719062895757,-0.02913156653492181,0.8941170724364684,0.0025755459220347388,-0.1186,-30.678909
11.185,2.0,1.0,1.0,34.5,34.1,34.1,3.6,1.9,2.6,0.40741441545869994,-0.029673244631822998,0.8981340277016912,0.002303171786992422,-0.120518,-30.526614
11.185,2.0,1.0,1.0,34.5,34.1,34.1,3.6,1.9,2.6025,0.3980474944187887,-0.030225632733981902,0.9020800208415383,0.002018125510690956,-0.122488,-30.373174
11.185,2.0,1.0,1.0,34.5,34.1,34.1,3.6,1.9,2.605,0.38857018286268935,-0.030788986629282006,0.9059527594830988,0.0017198668011170236,-0.124512,-30.218562
11.185,2.0,1.0,1.0,34.5,34.1,34.1,3.6,1.9,2.6075,0.3789815218211229,-0.031363569786051114,0.9097498802417826,0.0014078283215465028,-0.126592,-30.062749
11.185,2.0,1.0,1.0,34.5,34.1,34.1,3.6,1.9,2.61,0.369280554346772,-0.03194965362155659,0.9134689461267363,0.001081414033307319,-0.128731,-29.905704
11.185,2.0,1.0,1.0,34.5,34.1,34.1,3.6,1.9,2.6125,0.3594663262359681,-0.03254751777860531,0.9171074438146316,0.0007399974154920299,-0.13093,-29.747398
11.185,2.0,1.0,1.0,34.5,34.1,34.1,3.6,1.9,2.615,0.3495378867898999,-0.033157450409984114,0.9206627807817623,0.0003829195508069212,-0.133193,-29.587798
11.185,2.0,1.0,1.0,34.5,34.1,34.1,3.6,1.9,2.6175,0.3394942896174455,-0.03377974847034898,0.9241322822833546,9.487065647731057e-06,-0.135522,-29.426871
11.185,2.0,1.0,1.0,34.5,34.1,34.1,3.6,1.9,2.62,0.3293345934818922,-0.03441471801501563,0.9275131881678651,-0.00038103008873077655,-0.137919,-29.264583
11.185,2.0,1.0,1.0,34.5,34.1,34.1,3.6,1.9,2.6225,0.319057863194032,-0.0350626745049157,0.9308026495127499,-0.0007894010284479732,-0.140387,-29.100898
11.185,2.0,1.0,1.0,34.5,34.1,34.1,3.6,1.9,2.625,0.308663170554418,-0.0357239431167537,0.93399772506673,-0.00121643651865312,-0.142931,-28.93578
11.185,2.0,1.0,1.0,34.5,34.1,34.1,3.6,1.9,2.6275,0.2981495953477919,-0.03639885905713111,0.9370953774819885,-0.0016629917623306324,-0.145551,-28.769189
11.185,2.0,1.0,1.0,34.5,34.1,34.1,3.6,1.9,2.63,0.28751622639312513,-0.03708776787907173,0.9400924693178814,-0.0021299694158888774,-0.148254,-28.601085
11.185,2.0,1.0,1.0,34.5,34.1,34.1,3.6,1.9,2.6325,0.27676216265306663,-0.03779102579899282,0.9429857587957318,-0.002618322853310704,-0.151041,-28.431429
11.185,2.0,1.0,1.0,34.5,34.1,34.1,3.6,1.9,2.635,0.265886514407116,-0.03850900001169436,0.9457718952819371,-0.003129059703047586,-0.153916,-28.260175
11.185,2.0,1.0,1.0,34.5,34.1,34.1,3.6,1.9,2.6375,0.2548884044934177,-0.039242069000375364,0.9484474144740324,-0.0036632456845444887,-0.156885,-28.087281
11.185,2.0,1.0,1.0,34.5,34.1,34.1,3.6,1.9,2.64,0.243766969624695,-0.039990622838013,0.9510087332614319,-0.004222008774329374,-0.159951,-27.912698
11.185,2.0,1.0,1.0,34.5,34.1,34.1,3.6,1.9,2.6425,0.23252136178475727,-0.04075506347563187,0.9534521442291854,-0.004806543735033106,-0.163119,-27.736378
11.185,2.0,1.0,1.0,34.5,34.1,34.1,3.6,1.9,2.645,0.22115074971286117,-0.0415358050120275,0.9557738097694064,-0.005418117044585531,-0.166393,-27.558271
11.185,2.0,1.0,1.0,34.5,34.1,34.1,3.6,1.9,2.6475,0.20965432048444654,-0.042333273938351026,0.9579697557606711,-0.00605807226721678,-0.16978,-27.378323
11.185,2.0,1.0,1.0,34.5,34.1,34.1,3.6,1.9,2.65,0.19803128119803265,-0.04314790934958247,0.9600358647709257,-0.006727835912860453,-0.173285,-27.19648
11.185,2.0,1.0,1.0,34.5,34.1,34.1,3.6,1.9,2.6525,0.18628086077981018,-0.043980163113259,0.9619678687338452,-0.007428923837183157,-0.176913,-27.012684
11.185,2.0,1.0,1.0,34.5,34.1,34.1,3.6,1.9,2.655,0.17440231191926922,-0.04483049998384696,0.9637613410423893,-0.00816294824086628,-0.180672,-26.826874
11.185,2.0,1.0,1.0,34.5,34.1,34.1,3.6,1.9,2.6575,0.16239491315165397,-0.04569939764875895,0.9654116879960869,-0.008931625334037319,-0.184569,-26.638989
11.185,2.0,1.0,1.0,34.5,34.1,34.1,3.6,1.9,2.66,0.15025797110574216,-0.04658734668916544,0.9669141395304595,-0.009736783740041333,-0.18861,-26.448962
11.185,2.0,1.0,1.0,34.5,34.1,34.1,3.6,1.9,2.6625,0.1379908229388669,-0.04749485043531066,0.9682637391476234,-0.010580373722200054,-0.192805,-26.256724
11.185,2.0,1.0,1.0,34.5,34.1,34.1,3.6,1.9,2.665,0.1255928389850708,-0.04842242469191713,0.9694553329564376,-0.011464477328021812,-0.19716,-26.062203
11.185,2.0,1.0,1.0,34.5,34.1,34.1,3.6,1.9,2.6675,0.11306342564720906,-0.04937059730427537,0.9704835577182962,-0.0123913195576982,-0.201687,-25.865325
11.185,2.0,1.0,1.0,34.5,34.1,34.1,3.6,1.9,2.67,0.10040202856963172,-0.05033990752961971,0.9713428277805805,-0.01336328067792142,-0.206395,-25.666009
11.185,2.0,1.0,1.0,34.5,34.1,34.1,3.6,1.9,2.6725,0.08760813613522174,-0.05133090517112553,0.972027320763565,-0.014382909818355485,-0.211294,-25.464172
11.185,2.0,1.0,1.0,34.5,34.1,34.1,3.6,1.9,2.675,0.0746812833390959,-0.052344149423085316,0.9725309618479644,-0.015452940006850357,-0.216397,-25.259727
11.185,2.0,1.0,1.0,34.5,34.1,34.1,3.6,1.9,2.6775,0.06162105610180503,-0.05338020736516832,0.9728474064886562,-0.016576304821103845,-0.221716,-25.052583
11.185,2.0,1.0,1.0,34.5,34.1,34.1,3.6,1.9,2.68,0.04842709609740987,-0.05443965203073961,0.9729700213553485,-0.017756156859428333,-0.227265,-24.842643
11.185,2.0,1.0,1.0,34.5,34.1,34.1,3.6,1.9,2.6825,0.035099106187415546,-0.05552305995846668,0.972891863272003,-0.018995888262131617,-0.23306,-24.629805
11.185,2.0,1.0,1.0,34.5,34.1,34.1,3.6,1.9,2.685,0.021636856570239203,-0.056631008117251434,0.972605655893495,-0.020299153548445147,-0.239115,-24.413962
11.185,2.0,1.0,1.0,34.5,34.1,34.1,3.6,1.9,2.6875,0.00804019177908502,-0.05776407007105698,0.9721037638190929,-0.021669895072709357,-0.24545,-24.195002
11.185,2.0,1.0,1.0,34.5,34.1,34.1,3.6,1.9,2.69,-0.005690961310685876,-0.05892281122145739,0.9713781637972081,-0.02311237144859074,-0.252084,-23.972804
11.185,2.0,1.0,1.0,34.5,34.1,34.1,3.6,1.9,2.6925,-0.019556584268840053,-0.06010778293044366,0.9704204126232221,-0.024631189342572034,-0.259038,-23.747245
11.185,2.0,1.0,1.0,34.5,34.1,34.1,3.6,1.9,2.695,-0.03355655645346528,-0.06131951528256021,0.9692216112707602,-0.02623133909911233,-0.266335,-23.51819
11.185,2.0,1.0,1.0,34.5,34.1,34.1,3.6,1.9,2.6975,-0.0476906426184851,-0.0625585081918188,0.9677723647250349,-0.027918234731305298,-0.274002,-23.285499
11.185,2.0,1.0,1.0,34.5,34.1,34.1,3.6,1.9,2.7,-0.06195847842826642,-0.06382522049243845,0.9660627369028301,-0.0296977588943659,-0.282066,-23.049024
11.185,2.0,1.0,1.0,34.5,34.1,34.1,3.6,1.9,2.7025,-0.07635955344072469,-0.0651200565700608,0.9640821999452931,-0.0315763135570688,-0.290559,-22.808606
11.185,2.0,1.0,1.0,34.5,34.1,34.1,3.6,1.9,2.705,-0.09089319101879198,-0.0664433499874853,0.9618195770541744,-0.03356087720087656,-0.299515,-22.564078
11.185,2.0,1.0,1.0,34.5,34.1,34.1,3.6,1.9,2.7075,-0.10555852450334181,-0.06779534343084026,0.9592629779065245,-0.03565906951099203,-0.308973,-22.315263
11.185,2.0,1.0,1.0,34.5,34.1,34.1,3.6,1.9,2.71,-0.12035446882163778,-0.06917616414156241,0.9563997255234754,-0.03787922468147695,-0.318975,-22.061972
11.185,2.0,1.0,1.0,34.5,34.1,34.1,3.6,1.9,2.7125,-0.1352796865054054,-0.07058579379774785,0.9532162732812979,-0.04023047464207331,-0.329569,-21.804004
11.185,2.0,1.0,1.0,34.5,34.1,34.1,3.6,1.9,2.715,-0.150332546840114,-0.0720240315538544,0.9496981105325727,-0.04272284373222009,-0.340807,-21.541146
11.185,2.0,1.0,1.0,34.5,34.1,34.1,3.6,1.9,2.7175,-0.16551107654739122,-0.07349044862545273,0.9458296550463833,-0.04536735660350012,-0.352749,-21.273169
11.185,2.0,1.0,1.0,34.5,34.1,34.1,3.6,1.9,2.72,-0.1808128999957915,-0.07498433239620503,0.94159413017241,-0.048176161431545204,-0.365461,-20.99983
11.185,2.0,1.0,1.0,34.5,34.1,34.1,3.6,1.9,2.7225,-0.19623516641650587,-0.07650461750193538,0.9369734242778193,-0.05116267086907867,-0.379019,-20.720871
11.185,2.0,1.0,1.0,34.5,34.1,34.1,3.6,1.9,2.725,-0.2117744609357973,-0.07804980067783851,0.9319479295901122,-0.05434172358039528,-0.393507,-20.436013
11.185,2.0,1.0,1.0,34.5,34.1,34.1,3.6,1.9,2.7275,-0.22742669538108853,-0.07961783529508097,0.9264963570962204,-0.0577297696712589,-0.409021,-20.14496
11.185,2.0,1.0,1.0,34.5,34.1,34.1,3.6,1.9,2.73,-0.24318697371353035,-0.08120600040318564,0.9205955235914232,-0.061345083872861174,-0.42567,-19.847394
11.185,2.0,1.0,1.0,34.5,34.1,34.1,3.6,1.9,2.7325,-0.25904942550799565,-0.08281073765604448,0.9142201063365225,-0.06520801095761711,-0.443579,-19.542976
11.185,2.0,1.0,1.0,34.5,34.1,34.1,3.6,1.9,2.735,-0.27500699903675774,-0.0844274476269864,0.9073423600690141,-0.06934124855618486,-0.462891,-19.231338
11.185,2.0,1.0,1.0,34.5,34.1,34.1,3.6,1.9,2.7375,-0.2910512030745555,-0.08605023457099284,0.8999317903332877,-0.07377017329753847,-0.483769,-18.91209
11.185,2.0,1.0,1.0,34.5,34.1,34.1,3.6,1.9,2.74,-0.30717178334013145,-0.08767158548005524,0.8919547762728163,-0.07852321697819023,-0.506403,-18.584812
11.185,2.0,1.0,1.0,34.5,34.1,34.1,3.6,1.9,2.7425,-0.323356315266472,-0.0892819650447153,0.883374135218292,-0.08363230022453147,-0.531013,-18.24905
11.185,2.0,1.0,1.0,34.5,34.1,34.1,3.6,1.9,2.745,-0.3395896892011451,-0.09086930253481908,0.8741486207121617,-0.08913333173638788,-0.557854,-17.904319
11.185,2.0,1.0,1.0,34.5,34.1,34.1,3.6,1.9,2.7475,-0.3558534567094641,-0.0924183391771948,0.8642323452129483,-0.09506678150209649,-0.587226,-17.550097
11.185,2.0,1.0,1.0,34.5,34.1,34.1,3.6,1.9,2.75,-0.372124996749867,-0.0939097947043174,0.853574118932951,-0.101478336034957,-0.619479,-17.185825
11.185,2.0,1.0,1.0,34.5,34.1,34.1,3.6,1.9,2.7525,-0.38837644725268367,-0.09531929852283726,0.8421166976027876,-0.1084196421610022,-0.655032,-16.8109
11.185,2.0,1.0,1.0,34.5,34.1,34.1,3.6,1.9,2.755,-0.4045733299057812,-0.09661601326108363,0.8297959352938841,-0.1159491423007251,-0.694376,-16.424681
11.185,2.0,1.0,1.0,34.5,34.1,34.1,3.6,1.9,2.7575,-0.4206727721977819,-0.09776085478577999,0.8165398451949107,-0.12413299707485541,-0.738105,-16.026478
11.185,2.0,1.0,1.0,34.5,34.1,34.1,3.6,1.9,2.76,-0.4366211989862316,-0.09870418116120068,0.8022675837729413,-0.13304607804485916,-0.786927,-15.615562
11.185,2.0,1.0,1.0,34.5,34.1,34.1,3.6,1.9,2.7625,-0.4523513235040662,-0.09938278098133262,0.7868883958778609,-0.14277299059596893,-0.841703,-15.191158
11.185,2.0,1.0,1.0,34.5,34.1,34.1,3.6,1.9,2.765,-0.4677782117460718,-0.09971593609946457,0.7703005962900957,-0.15340904809328307,-0.90348,-14.752456
11.185,2.0,1.0,1.0,34.5,34.1,34.1,3.6,1.9,2.7675,-0.4827941213164983,-0.09960026192560577,0.7523907270518828,-0.16506105331860785,-0.973543,-14.298616
11.185,2.0,1.0,1.0,34.5,34.1,34.1,3.6,1.9,2.77,-0.4972617234433944,-0.09890293785590228,0.7330331359275554,-0.17784763546938542,-1.053479,-13.828783
11.185,2.0,1.0,1.0,34.5,34.1,34.1,3.6,1.9,2.7725,-0.5110052051595012,-0.09745283177220597,0.7120903955289893,-0.1918987145918085,-1.145262,-13.342111
11.185,2.0,1.0,1.0,34.5,34.1,34.1,3.6,1.9,2.775,-0.5237986254846515,-0.09502890469879421,0.6894152660673041,-0.2073533792523823,-1.251366,-12.837803
11.185,2.0,1.0,1.0,34.5,34.1,34.1,3.6,1.9,2.7775,-0.5353507907518364,-0.0913451820816617,0.6648553605914191,-0.22435500473127903,-1.374911,-12.315165
11.185,2.0,1.0,1.0,34.5,34.1,34.1,3.6,1.9,2.78,-0.5452858851117861,-0.08603156429907259,0.6382623933993002,-0.2430417159570352,-1.519861,-11.773697
11.185,2.0,1.0,1.0,34.5,34.1,34.1,3.6,1.9,2.7825,-0.5531192882348532,-0.07860997001182717,0.6095090077324561,-0.2635291875610115,-1.691278,-11.213222
11.185,2.0,1.0,1.0,34.5,34.1,34.1,3.6,1.9,2.785,-0.5582287353571536,-0.06846606842538026,0.5785178346107015,-0.2858811339519734,-1.895644,-10.634077
11.185,2.0,1.0,1.0,34.5,34.1,34.1,3.6,1.9,2.7875,-0.5598228129274114,-0.05481875185690104,0.5453097220794257,-0.31006060047917133,-2.141264,-10.037394
11.185,2.0,1.0,1.0,34.5,34.1,34.1,3.6,1.9,2.79,-0.5569127955630561,-0.036693582926471416,0.5100808020222258,-0.3358525460099429,-2.438705,-9.425494
11.185,2.0,1.0,1.0,34.5,34.1,34.1,3.6,1.9,2.7925,-0.5483017108877862,-0.01291438252320391,0.4733201878578035,-0.36274630451957013,-2.801164,-8.802439
11.185,2.0,1.0,1.0,34.5,34.1,34.1,3.6,1.9,2.795,-0.5326183834043196,0.017859085852894113,0.4359785269729188,-0.38976849273214637,-3.24442,-8.174757
11.185,2.0,1.0,1.0,34.5,34.1,34.1,3.6,1.9,2.7975,-0.5084449612009025,0.05699908774390477,0.39968523866868316,-0.41526993975253973,-3.785489,-7.552331
11.185,2.0,1.0,1.0,34.5,34.1,34.1,3.6,1.9,2.8,-0.4746085159869889,0.10561452795955437,0.36697624850509225,-0.4367067976283873,-4.437882,-6.949341
11.185,2.0,1.0,1.0,34.5,34.1,34.1,3.6,1.9,2.8025,-0.43070754291224,0.16402556868624196,0.3414199926608981,-0.45052951807610936,-5.198829,-6.384965
11.185,2.0,1.0,1.0,34.5,34.1,34.1,3.6,1.9,2.805,-0.37786980375142487,0.23101919822499598,0.3274242731970155,-0.4523948016753838,-6.020735,-5.883282
11.185,2.0,1.0,1.0,34.5,34.1,34.1,3.6,1.9,2.8075,-0.31952542660899497,0.3031086891382096,0.32945025049907917,-0.43796301187637227,-6.764716,-5.471614
11.185,2.0,1.0,1.0,34.5,34.1,34.1,3.6,1.9,2.81,-0.26166447483081257,0.37432235546474624,0.35053933080987054,-0.4043545771052889,-7.181803,-5.176698
11.185,2.0,1.0,1.0,34.5,34.1,34.1,3.6,1.9,2.8125,-0.2119381854864242,0.4371326856665546,0.39061420060950125,-0.3517903274312061,-7.04439,-5.019081
11.185,2.0,1.0,1.0,34.5,34.1,34.1,3.6,1.9,2.815,-0.17751590622891236,0.4845736159215702,0.4456268562810611,-0.284365864564468,-6.380925,-5.007591
11.185,2.0,1.0,1.0,34.5,34.1,34.1,3.6,1.9,2.8175,-0.16269536204763016,0.5125458133510105,0.5084552486012325,-0.20911763228457125,-5.451604,-5.136639
11.185,2.0,1.0,1.0,34.5,34.1,34.1,3.6,1.9,2.82,-0.16775077486123735,0.5208829900705628,0.5712198065890619,-0.13374593580178976,-4.504666,-5.387911
11.185,2.0,1.0,1.0,34.5,34.1,34.1,3.6,1.9,2.8225,-0.18960028253250327,0.5126590086825097,0.6275879217991815,-0.06439361747923245,-3.667186,-5.735444
11.185,2.0,1.0,1.0,34.5,34.1,34.1,3.6,1.9,2.825,-0.22352698208136257,0.49250269528023866,0.6738815046969765,-0.004602034833528832,-2.975,-6.151449
11.185,2.0,1.0,1.0,34.5,34.1,34.1,3.6,1.9,2.8275,-0.26479365746090494,0.46503700214344973,0.7089100517428402,0.04450571663571948,-2.420962,-6.610653
11.185,2.0,1.0,1.0,34.5,34.1,34.1,3.6,1.9,2.83,-0.3095521537898723,0.4340068897620539,0.733165809043761,0.08343613613052724,-1.98353,-7.092453
