1,w,sub_t,h,l1,l2,l3,g1,g2,Freq,S11_re,S21_re,S11_img,S21_img,S11_dB,S21_dB
11.185,2.0,1.0,1.0,33.0,33.6,33.6,2.4,2.6,2.5,0.899790506845795,-0.00707919105583875,0.421917293831194,0.00818066568333673,-0.054026,-39.316722
11.185,2.0,1.0,1.0,33.0,33.6,33.6,2.4,2.6,2.5025,0.8971049121035597,-0.007239216505635939,0.42746404198944765,0.008245597668620082,-0.054529,-39.193874
11.185,2.0,1.0,1.0,33.0,33.6,33.6,2.4,2.6,2.505,0.8943736847405228,-0.0074024293985075,0.4330149300295737,0.008310498981202912,-0.055041,-39.070677
11.185,2.0,1.0,1.0,33.0,33.6,33.6,2.4,2.6,2.5075,0.8915963625502973,-0.007568901740378162,0.4385698327598815,0.008375351306288817,-0.055563,-38.94712
11.185,2.0,1.0,1.0,33.0,33.6,33.6,2.4,2.6,2.51,0.8887724748323007,-0.0077387075844211105,0.44412862055852825,0.0084401354256202,-0.056095,-38.823195
11.185,2.0,1.0,1.0,33.0,33.6,33.6,2.4,2.6,2.5125,0.885901542208853,-0.007911923101197796,0.4496911592069668,0.008504831173909986,-0.056636,-38.698893
11.185,2.0,1.0,1.0,33.0,33.6,33.6,2.4,2.6,2.515,0.8829830764374845,-0.008088626651610604,0.455257309717155,0.008569417393021457,-0.057188,-38.574204
11.185,2.0,1.0,1.0,33.0,33.6,33.6,2.4,2.6,2.5175,0.8800165802183019,-0.008268898862798689,0.46082692815224363,0.008633871883767508,-0.05775,-38.449118
11.185,2.0,1.0,1.0,33.0,33.6,33.6,2.4,2.6,2.52,0.8770015469962399,-0.00845282270711344,0.4663998654404841,0.008698171355192848,-0.058322,-38.323625
11.185,2.0,1.0,1.0,33.0,33.6,33.6,2.4,2.6,2.5225,0.8739374607580372,-0.008640483584317646,0.4719759671820407,0.008762291371194228,-0.058906,-38.197717
11.185,2.0,1.0,1.0,33.0,33.6,33.6,2.4,2.6,2.525,0.8708237958237421,-0.00883196940715989,0.4775550734484168,0.008826206294324566,-0.0595,-38.071383
11.185,2.0,1.0,1.0,33.0,33.6,33.6,2.4,2.6,2.5275,0.8676600166325729,-0.009027370690483837,0.4831370185741718,0.008889889226615967,-0.060107,-37.944612
11.185,2.0,1.0,1.0,33.0,33.6,33.6,2.4,2.6,2.53,0.8644455775229289,-0.009226780644040204,0.48872163094057774,0.008953311947247366,-0.060724,-37.817396
11.185,2.0,1.0,1.0,33.0,33.6,33.6,2.4,2.6,2.5325,0.8611799225063539,-0.0094302952691793,0.4943087327508687,0.009016444846870052,-0.061354,-37.689722
11.185,2.0,1.0,1.0,33.0,33.6,33.6,2.4,2.6,2.535,0.8578624850352298,-0.00963801345961045,0.499898139796709,0.009079256858392455,-0.061996,-37.561581
11.185,2.0,1.0,1.0,33.0,33.6,33.6,2.4,2.6,2.5375,0.8544926877639856,-0.009850037106424635,0.5054896612154737,0.009141715384012608,-0.062651,-37.432962
11.185,2.0,1.0,1.0,33.0,33.6,33.6,2.4,2.6,2.54,0.8510699423035842,-0.010066471207589427,0.5110830992379379,0.009203786218272343,-0.063319,-37.303854
11.185,2.0,1.0,1.0,33.0,33.6,33.6,2.4,2.6,2.5425,0.8475936489690382,-0.01028742398213416,0.5166782489259313,0.00926543346689233,-0.064,-37.174247
11.185,2.0,1.0,1.0,33.0,33.6,33.6,2.4,2.6,2.545,0.8440631965197053,-0.010513006989256965,0.5222748978994968,0.009326619461130505,-0.064695,-37.044128
11.185,2.0,1.0,1.0,33.0,33.6,33.6,2.4,2.6,2.5475,0.8404779618920927,-0.010743335252597732,0.5278728260530612,0.009387304667389395,-0.065404,-36.913486
11.185,2.0,1.0,1.0,33.0,33.6,33.6,2.4,2.6,2.55,0.8368373099248844,-0.010978527389935166,0.5334718052601193,0.009447447591779057,-0.066128,-36.782311
11.185,2.0,1.0,1.0,33.0,33.6,33.6,2.4,2.6,2.5525,0.8331405930759083,-0.011218705748578948,0.5390715990658649,0.00950700467932148,-0.066866,-36.65059
11.185,2.0,1.0,1.0,33.0,33.6,33.6,2.4,2.6,2.555,0.8293871511307193,-0.011463996546746251,0.5446719623672179,0.00956593020746113,-0.06762,-36.51831
11.185,2.0,1.0,1.0,33.0,33.6,33.6,2.4,2.6,2.5575,0.8255763109024865,-0.01171453002122555,0.5502726410796351,0.009624176173523324,-0.068389,-36.385461
11.185,2.0,1.0,1.0,33.0,33.6,33.6,2.4,2.6,2.56,0.8217073859228361,-0.011970440581649235,0.5558733717900585,0.009681692175735555,-0.069174,-36.252029
11.185,2.0,1.0,1.0,33.0,33.6,33.6,2.4,2.6,2.5625,0.8177796761232983,-0.012231866971715624,0.5614738813953312,0.009738425287400562,-0.069976,-36.118002
11.185,2.0,1.0,1.0,33.0,33.6,33.6,2.4,2.6,2.565,0.8137924675069741,-0.012498952437718843,0.5670738867253647,0.009794319923781549,-0.070795,-35.983367
11.185,2.0,1.0,1.0,33.0,33.6,33.6,2.4,2.6,2.5675,0.8097450318100389,-0.01277184490476798,0.5726730941502927,0.00984931770122512,-0.071632,-35.848111
11.185,2.0,1.0,1.0,33.0,33.6,33.6,2.4,2.6,2.57,0.8056366261526553,-0.013050697161098166,0.5782711991708117,0.00990335728801773,-0.072486,-35.71222
11.185,2.0,1.0,1.0,33.0,33.6,33.6,2.4,2.6,2.5725,0.8014664926788653,-0.013335667050898918,0.583867885990859,0.009956374246430338,-0.073359,-35.575682
11.185,2.0,1.0,1.0,33.0,33.6,33.6,2.4,2.6,2.575,0.7972338581849951,-0.013626917676113511,0.5894628270717164,0.010008300865368571,-0.074252,-35.438482
11.185,2.0,1.0,1.0,33.0,33.6,33.6,2.4,2.6,2.5775,0.7929379337360954,-0.013924617607685628,0.5950556826665834,0.010059065983001691,-0.075164,-35.300605
11.185,2.0,1.0,1.0,33.0,33.6,33.6,2.4,2.6,2.58,0.7885779142698984,-0.01422894110676197,0.6006461003345988,0.010108594798696644,-0.076096,-35.162039
11.185,2.0,1.0,1.0,33.0,33.6,33.6,2.4,2.6,2.5825,0.7841529781877548,-0.014540068356387837,0.6062337144332274,0.01015680867353343,-0.077049,-35.022767
11.185,2.0,1.0,1.0,33.0,33.6,33.6,2.4,2.6,2.585,0.779662286931982,-0.014858185704265892,0.6118181455878539,0.010203624918622096,-0.078024,-34.882775
11.185,2.0,1.0,1.0,33.0,33.6,33.6,2.4,2.6,2.5875,0.7751049845490231,-0.015183485917182918,0.6173990001373664,0.01024895657038395,-0.079021,-34.742048
11.185,2.0,1.0,1.0,33.0,33.6,33.6,2.4,2.6,2.59,0.770480197237779,-0.015516168447746153,0.6229758695544044,0.010292712151892399,-0.080041,-34.600569
11.185,2.0,1.0,1.0,33.0,33.6,33.6,2.4,2.6,2.5925,0.7657870328824473,-0.015856439714110486,0.6285483298388977,0.010334795419301521,-0.081085,-34.458324
11.185,2.0,1.0,1.0,33.0,33.6,33.6,2.4,2.6,2.595,0.7610245805691599,-0.016204513393418985,0.6341159408833864,0.010375105092312265,-0.082153,-34.315295
11.185,2.0,1.0,1.0,33.0,33.6,33.6,2.4,2.6,2.5975,0.7561919100856643,-0.01656061072972555,0.639678245808554,0.010413534567544198,-0.083246,-34.171466
11.185,2.0,1.0,1.0,33.0,33.6,33.6,2.4,2.6,2.6,0.7512880714032583,-0.016924960857214566,0.6452347702672672,0.01044997161359075,-0.084365,-34.02682
11.185,2.0,1.0,1.0,33.0,33.6,33.6,2.4,2.6,2.6025,0.7463120941401444,-0.01729780113958477,0.6507850217153056,0.01048429804643714,-0.085511,-33.88134
11.185,2.0,1.0,1.0,33.0,33.6,33.6,2.4,2.6,2.605,0.741262987005303,-0.017679377526518558,0.6563284886468517,0.010516389383814998,-0.086685,-33.735007
11.185,2.0,1.0,1.0,33.0,33.6,33.6,2.4,2.6,2.6075,0.7361397372219518,-0.018069944928215582,0.6618646397926516,0.010546114476948929,-0.087888,-33.587804
11.185,2.0,1.0,1.0,33.0,33.6,33.6,2.4,2.6,2.61,0.7309413099295904,-0.01846976760903312,0.6673929232786263,0.01057333511802523,-0.08912,-33.439711
11.185,2.0,1.0,1.0,33.0,33.6,33.6,2.4,2.6,2.6125,0.7256666475635708,-0.018879119601339478,0.6729127657425396,0.010597905621574269,-0.090383,-33.29071
11.185,2.0,1.0,1.0,33.0,33.6,33.6,2.4,2.6,2.615,0.7203146692110657,-0.019298285140760842,0.6784235714061662,0.0106196723778047,-0.091677,-33.140781
11.185,2.0,1.0,1.0,33.0,33.6,33.6,2.4,2.6,2.6175,0.7148842699422513,-0.019727559124074125,0.6839247211001943,0.010638473375765059,-0.093005,-32.989904
11.185,2.0,1.0,1.0,33.0,33.6,33.6,2.4,2.6,2.62,0.709374320115432,-0.020167247591081145,0.6894155712389058,0.010654137694024745,-0.094366,-32.838058
11.185,2.0,1.0,1.0,33.0,33.6,33.6,2.4,2.6,2.6225,0.7037836646547624,-0.020617668231885846,0.694895452741448,0.010666484956369696,-0.095763,-32.685223
11.185,2.0,1.0,1.0,33.0,33.6,33.6,2.4,2.6,2.625,0.698111122299146,-0.0210791509210861,0.700363669896249,0.0106753247497896,-0.097196,-32.531377
11.185,2.0,1.0,1.0,33.0,33.6,33.6,2.4,2.6,2.6275,0.6923554848207826,-0.021552038280492746,0.7058194991648885,0.01068045600179725,-0.098667,-32.376497
11.185,2.0,1.0,1.0,33.0,33.6,33.6,2.4,2.6,2.63,0.6865155162117567,-0.02203668627209038,0.7112621879214137,0.010681666313856754,-0.100177,-32.220561
11.185,2.0,1.0,1.0,33.0,33.6,33.6,2.4,2.6,2.6325,0.6805899518369515,-0.02253346482306936,0.7166909531227895,0.010678731247411142,-0.101727,-32.063546
11.185,2.0,1.0,1.0,33.0,33.6,33.6,2.4,2.6,2.635,0.6745774975514601,-0.02304275848487388,0.7221049799058068,0.010671413558686841,-0.10332,-31.905428
11.185,2.0,1.0,1.0,33.0,33.6,33.6,2.4,2.6,2.6375,0.6684768287805639,-0.02356496712834124,0.7275034201053948,0.010659462378099773,-0.104957,-31.746181
11.185,2.0,1.0,1.0,33.0,33.6,33.6,2.4,2.6,2.64,0.6622865895601974,-0.024100506677142176,0.7328853906888696,0.010642612329710841,-0.106639,-31.585782
11.185,2.0,1.0,1.0,33.0,33.6,33.6,2.4,2.6,2.6425,0.6560053915357184,-0.024649809881874284,0.7382499721001675,0.010620582585754238,-0.108368,-31.424203
11.185,2.0,1.0,1.0,33.0,33.6,33.6,2.4,2.6,2.645,0.6496318129166404,-0.025213327137316475,0.7435962065076251,0.010593075850797438,-0.110146,-31.261419
11.185,2.0,1.0,1.0,33.0,33.6,33.6,2.4,2.6,2.6475,0.6431643973848467,-0.025791527345513515,0.7489230959482895,0.010559777269578983,-0.111975,-31.097401
11.185,2.0,1.0,1.0,33.0,33.6,33.6,2.4,2.6,2.65,0.6366016529536277,-0.026384898827534437,0.7542296003611532,0.010520353252003354,-0.113858,-30.932122
11.185,2.0,1.0,1.0,33.0,33.6,33.6,2.4,2.6,2.6525,0.6299420507747594,-0.02699395028692973,0.7595146355009856,0.010474450208142591,-0.115795,-30.765552
11.185,2.0,1.0,1.0,33.0,33.6,33.6,2.4,2.6,2.655,0.6231840238905987,-0.02761921182810905,0.764777070723737,0.010421693185403029,-0.11779,-30.597662
11.185,2.0,1.0,1.0,33.0,33.6,33.6,2.4,2.6,2.6575,0.616325965928047,-0.028261236033064577,0.7700157266336217,0.010361684399242177,-0.119845,-30.428421
11.185,2.0,1.0,1.0,33.0,33.6,33.6,2.4,2.6,2.66,0.6093662297309861,-0.028920599100082902,0.7752293725810937,0.01029400164796876,-0.121962,-30.257797
11.185,2.0,1.0,1.0,33.0,33.6,33.6,2.4,2.6,2.6625,0.6023031259276219,-0.029597902048314303,0.7804167239999038,0.01021819660120981,-0.124145,-30.085757
11.185,2.0,1.0,1.0,33.0,33.6,33.6,2.4,2.6,2.665,0.5951349214289133,-0.03029377199230993,0.7855764395703214,0.010133792950573773,-0.126395,-29.912268
11.185,2.0,1.0,1.0,33.0,33.6,33.6,2.4,2.6,2.6675,0.5878598378540786,-0.031008863490883012,0.790707118194333,0.010040284409866734,-0.128716,-29.737295
11.185,2.0,1.0,1.0,33.0,33.6,33.6,2.4,2.6,2.67,0.5804760498788998,-0.031743859974914135,0.7958072957672677,0.009937132550909602,-0.131111,-29.560803
11.185,2.0,1.0,1.0,33.0,33.6,33.6,2.4,2.6,2.6725,0.5729816835023126,-0.032499475258986416,0.8008754417287549,0.009823764459549012,-0.133584,-29.382753
11.185,2.0,1.0,1.0,33.0,33.6,33.6,2.4,2.6,2.675,0.5653748142265373,-0.03327645514201307,0.8059099553741943,0.009699570194827159,-0.136137,-29.203109
11.185,2.0,1.0,1.0,33.0,33.6,33.6,2.4,2.6,2.6775,0.5576534651457182,-0.03407557910230369,0.8109091619060198,0.00956390003245542,-0.138775,-29.02183
11.185,2.0,1.0,1.0,33.0,33.6,33.6,2.4,2.6,2.68,0.5498156049378088,-0.03489766209279859,0.8158713082019011,0.009416061471705942,-0.141501,-28.838876
11.185,2.0,1.0,1.0,33.0,33.6,33.6,2.4,2.6,2.6825,0.5418591457541826,-0.0357435564424851,0.8207945582746345,0.00925531598255383,-0.144321,-28.654204
11.185,2.0,1.0,1.0,33.0,33.6,33.6,2.4,2.6,2.685,0.5337819410011871,-0.03661415387028849,0.8256769883958184,0.00908087546734874,-0.147237,-28.467772
11.185,2.0,1.0,1.0,33.0,33.6,33.6,2.4,2.6,2.6875,0.525581783007647,-0.0375103876179988,0.830516581852405,0.00889189840842495,-0.150256,-28.279534
11.185,2.0,1.0,1.0,33.0,33.6,33.6,2.4,2.6,2.69,0.5172564005721088,-0.03843323470903605,0.8353112233018652,0.008687485669836771,-0.153381,-28.089444
11.185,2.0,1.0,1.0,33.0,33.6,33.6,2.4,2.6,2.6925,0.5088034563834128,-0.0393837183400842,0.8400586926879456,0.008466675917772308,-0.156619,-27.897452
11.185,2.0,1.0,1.0,33.0,33.6,33.6,2.4,2.6,2.695,0.5002205443081027,-0.04036291041278605,0.844756658674731,0.00822844062011536,-0.159976,-27.70351
11.185,2.0,1.0,1.0,33.0,33.6,33.6,2.4,2.6,2.6975,0.49150518653803527,-0.04137193421282161,0.8494026715519704,0.00797167858100726,-0.163456,-27.507565
11.185,2.0,1.0,1.0,33.0,33.6,33.6,2.4,2.6,2.7,0.48265483059163816,-0.04241196724371891,0.8539941555592159,0.007695209961049612,-0.167068,-27.309563
11.185,2.0,1.0,1.0,33.0,33.6,33.6,2.4,2.6,2.7025,0.4736668461623133,-0.04348424422268914,0.8585284005702476,0.007397769727896972,-0.170817,-27.10945
11.185,2.0,1.0,1.0,33.0,33.6,33.6,2.4,2.6,2.705,0.46453852180779454,-0.04459006024556985,0.8630025530723625,0.007078000475310117,-0.174712,-26.907166
11.185,2.0,1.0,1.0,33.0,33.6,33.6,2.4,2.6,2.7075,0.4552670614746575,-0.04573077412758944,0.8674136063673075,0.006734444541169472,-0.178761,-26.702653
11.185,2.0,1.0,1.0,33.0,33.6,33.6,2.4,2.6,2.71,0.44584958085288073,-0.04690781192606143,0.8717583899117926,0.006365535346356151,-0.182971,-26.495847
11.185,2.0,1.0,1.0,33.0,33.6,33.6,2.4,2.6,2.7125,0.4362831035562763,-0.04812267065023779,0.8760335577054674,0.005969587866627915,-0.187353,-26.286684
11.185,2.0,1.0,1.0,33.0,33.6,33.6,2.4,2.6,2.715,0.426564557125956,-0.04937692216229735,0.8802355756228181,0.005544788138494789,-0.191915,-26.075097
11.185,2.0,1.0,1.0,33.0,33.6,33.6,2.4,2.6,2.7175,0.4166907688557633,-0.050672217271751044,0.8843607075724224,0.005089181687406542,-0.19667,-25.861015
11.185,2.0,1.0,1.0,33.0,33.6,33.6,2.4,2.6,2.72,0.40665846144098955,-0.05201029002326318,0.8884050003521515,0.004600660752084358,-0.201629,-25.644365
11.185,2.0,1.0,1.0,33.0,33.6,33.6,2.4,2.6,2.7225,0.3964642484547463,-0.05339296217489896,0.8923642670519565,0.004076950162267205,-0.206803,-25.425072
11.185,2.0,1.0,1.0,33.0,33.6,33.6,2.4,2.6,2.725,0.386104629660442,-0.05482214785990083,0.8962340688364587,0.003515591708191524,-0.212206,-25.203056
11.185,2.0,1.0,1.0,33.0,33.6,33.6,2.4,2.6,2.7275,0.3755759861738858,-0.05629985842007305,0.9000096949173739,0.0029139268183936977,-0.217853,-24.978236
11.185,2.0,1.0,1.0,33.0,33.6,33.6,2.4,2.6,2.73,0.36487457549520774,-0.057828207392400376,0.9036861405002762,0.0022690773374880765,-0.22376,-24.750524
11.185,2.0,1.0,1.0,33.0,33.6,33.6,2.4,2.6,2.7325,0.3539965264390989,-0.059409415622312625,0.907258082460973,0.0015779241669069315,-0.229944,-24.519832
11.185,2.0,1.0,1.0,33.0,33.6,33.6,2.4,2.6,2.735,0.3429378340025419,-0.061045816466569376,0.9107198524730588,0.0008370834986076926,-0.236422,-24.286065
11.185,2.0,1.0,1.0,33.0,33.6,33.6,2.4,2.6,2.7375,0.3316943542225831,-0.06273986103553407,0.9140654072694684,4.288033373934048e-05,-0.243216,-24.049127
11.185,2.0,1.0,1.0,33.0,33.6,33.6,2.4,2.6,2.74,0.3202617990936549,-0.0644941234079286,0.9172882956761208,-0.000808681065585712,-0.250347,-23.808914
11.185,2.0,1.0,1.0,33.0,33.6,33.6,2.4,2.6,2.7425,0.30863573163523994,-0.06631130573014057,0.920381622004141,-0.0017219501939229427,-0.257839,-23.565321
11.185,2.0,1.0,1.0,33.0,33.6,33.6,2.4,2.6,2.745,0.29681156122751295,-0.06819424308567872,0.923338005327484,-0.002701667250594404,-0.265719,-23.318235
11.185,2.0,1.0,1.0,33.0,33.6,33.6,2.4,2.6,2.7475,0.2847845393662942,-0.07014590798707206,0.9261495341037527,-0.0037530045471128102,-0.274014,-23.067539
11.185,2.0,1.0,1.0,33.0,33.6,33.6,2.4,2.6,2.75,0.272549756031049,-0.0721694143006066,0.928807715516085,-0.0048816129813116,-0.282756,-22.813111
11.185,2.0,1.0,1.0,33.0,33.6,33.6,2.4,2.6,2.7525,0.2601021369129688,-0.07426802036159855,0.9313034188213186,-0.006093674276606786,-0.291981,-22.554824
11.185,2.0,1.0,1.0,33.0,33.6,33.6,2.4,2.6,2.755,0.24743644181722813,-0.07644513097158112,0.9336268118822257,-0.0073959597904239924,-0.301724,-22.292541
11.185,2.0,1.0,1.0,33.0,33.6,33.6,2.4,2.6,2.7575,0.23454726463785264,-0.07870429788530041,0.9357672899369562,-0.008795896818380054,-0.31203,-22.026123
11.185,2.0,1.0,1.0,33.0,33.6,33.6,2.4,2.6,2.76,0.22142903541003353,-0.08104921829019525,0.9377133955142181,-0.010301643463028707,-0.322942,-21.755422
11.185,2.0,1.0,1.0,33.0,33.6,33.6,2.4,2.6,2.7625,0.2080760250787116,-0.08348373064834191,0.9394527282349547,-0.011922173300997912,-0.334514,-21.480283
11.185,2.0,1.0,1.0,33.0,33.6,33.6,2.4,2.6,2.765,0.1944823537916329,-0.08601180710324084,0.9409718430468194,-0.013667371273655714,-0.3468,-21.200543
11.185,2.0,1.0,1.0,33.0,33.6,33.6,2.4,2.6,2.7675,0.18064200373912337,-0.08863754144189186,0.9422561352125575,-0.015548142447989112,-0.359865,-20.91603
11.185,2.0,1.0,1.0,33.0,33.6,33.6,2.4,2.6,2.77,0.16654883783395225,-0.0913651313341809,0.9432897101131802,-0.017576535550417872,-0.373778,-20.626566
11.185,2.0,1.0,1.0,33.0,33.6,33.6,2.4,2.6,2.7725,0.15219662586857235,-0.09419885323110076,0.9440552356269122,-0.01976588347134252,-0.388618,-20.331961
11.185,2.0,1.0,1.0,33.0,33.6,33.6,2.4,2.6,2.775,0.1375790802240154,-0.09714302787066174,0.9445337745006431,-0.022130963276905852,-0.404473,-20.032018
11.185,2.0,1.0,1.0,33.0,33.6,33.6,2.4,2.6,2.7775,0.12268990376097325,-0.10020197378959529,0.9447045937376506,-0.024688178651004727,-0.42144,-19.726528
11.185,2.0,1.0,1.0,33.0,33.6,33.6,2.4,2.6,2.78,0.10752285323294161,-0.10337994553662491,0.9445449475802721,-0.02745576812830848,-0.439631,-19.415272
11.185,2.0,1.0,1.0,33.0,33.6,33.6,2.4,2.6,2.7825,0.09207182246758427,-0.10668105238585268,0.9440298301675051,-0.030454042969313984,-0.45917,-19.098021
11.185,2.0,1.0,1.0,33.0,33.6,33.6,2.4,2.6,2.785,0.07633095072219247,-0.11010915220060134,0.9431316933972892,-0.033705659069096026,-0.480199,-18.774533
11.185,2.0,1.0,1.0,33.0,33.6,33.6,2.4,2.6,2.7875,0.06029476310604295,-0.11366771362613935,0.9418201249296165,-0.037235927874149394,-0.502878,-18.444556
11.185,2.0,1.0,1.0,33.0,33.6,33.6,2.4,2.6,2.79,0.04395835187136241,-0.11735963790004798,0.9400614806478,-0.04107317188847082,-0.527389,-18.107824
11.185,2.0,1.0,1.0,33.0,33.6,33.6,2.4,2.6,2.7925,0.027317609828948517,-0.12118702913972026,0.9378184652851711,-0.04524913094677906,-0.553941,-17.764059
11.185,2.0,1.0,1.0,33.0,33.6,33.6,2.4,2.6,2.795,0.010369530302877983,-0.1251508988405227,0.9350496543822912,-0.04979942596082141,-0.582772,-17.412974
11.185,2.0,1.0,1.0,33.0,33.6,33.6,2.4,2.6,2.7975,-0.006887407894112163,-0.12925078629333261,0.9317089503632295,-0.05476408720675612,-0.614157,-17.054264
11.185,2.0,1.0,1.0,33.0,33.6,33.6,2.4,2.6,2.8,-0.024452746746237878,-0.1334842714483416,0.9277449654658291,-0.06018815426155771,-0.648412,-16.687618
11.185,2.0,1.0,1.0,33.0,33.6,33.6,2.4,2.6,2.8025,-0.04232341612526722,-0.1378463500860825,0.9231003247780903,-0.06612235416810205,-0.685902,-16.31271
11.185,2.0,1.0,1.0,33.0,33.6,33.6,2.4,2.6,2.805,-0.06049292257842946,-0.14232863259831358,0.9177108841058373,-0.0726238629302665,-0.727053,-15.929209
11.185,2.0,1.0,1.0,33.0,33.6,33.6,2.4,2.6,2.8075,-0.07895030963455942,-0.14691831673137365,0.9115048604169507,-0.07975715242475676,-0.77236,-15.536773
11.185,2.0,1.0,1.0,33.0,33.6,33.6,2.4,2.6,2.81,-0.09767882535964686,-0.15159687071222833,0.9044018780741868,-0.08759491937393193,-0.822404,-15.13506
11.185,2.0,1.0,1.0,33.0,33.6,33.6,2.4,2.6,2.8125,-0.116654215113994,-0.156338345601422,0.896311943338867,-0.0962190838093517,-0.877868,-14.723728
11.185,2.0,1.0,1.0,33.0,33.6,33.6,2.4,2.6,2.815,-0.13584253531631105,-0.16110721382972767,0.8871343747306186,-0.10572182945938079,-0.939557,-14.302442
11.185,2.0,1.0,1.0,33.0,33.6,33.6,2.4,2.6,2.8175,-0.15519735696639286,-0.16585560414924383,0.8767567407694459,-0.11620663474026588,-1.008426,-13.870884
11.185,2.0,1.0,1.0,33.0,33.6,33.6,2.4,2.6,2.82,-0.17465619562151186,-0.17051977157873116,0.8650538938041233,-0.12778920616506578,-1.085612,-13.428765
11.185,2.0,1.0,1.0,33.0,33.6,33.6,2.4,2.6,2.8225,-0.1941359683856418,-0.17501560527368074,0.8518872453824842,-0.140598169738633,-1.172475,-12.97584
11.185,2.0,1.0,1.0,33.0,33.6,33.6,2.4,2.6,2.825,-0.21352724124828473,-0.1792329405845169,0.8371045138752384,-0.1547752914466357,-1.270645,-12.511933
11.185,2.0,1.0,1.0,33.0,33.6,33.6,2.4,2.6,2.8275,-0.23268699870493956,-0.18302841073894574,0.8205403010088745,-0.17047487322880542,-1.38209,-12.036958
11.185,2.0,1.0,1.0,33.0,33.6,33.6,2.4,2.6,2.83,-0.25142965592391925,-0.18621656240553858,0.8020180363836021,-0.18786179025386718,-1.509187,-11.550964
