1,w,sub_t,h,l1,l2,l3,g1,g2,Freq,S11_re,S21_re,S11_img,S21_img,S11_dB,S21_dB
11.185,2.0,1.0,1.0,33.0,33.9,33.9,2.2,3.8,2.5,0.896872450141082,-0.0061247137715576,0.428075094148629,0.00630512784886346,-0.054064,-41.120073
11.185,2.0,1.0,1.0,33.0,33.9,33.9,2.2,3.8,2.5025,0.894103035386502,-0.0062612921324941406,0.43369572633856207,0.006350566736658927,-0.054575,-40.9945
11.185,2.0,1.0,1.0,33.0,33.9,33.9,2.2,3.8,2.505,0.8912862869208726,-0.006400544968169726,0.4393206801905987,0.006395780467529012,-0.055096,-40.868594
11.185,2.0,1.0,1.0,33.0,33.9,33.9,2.2,3.8,2.5075,0.888421713191565,-0.0065425318361983405,0.4449498176925503,0.006440748716108467,-0.055625,-40.742344
11.185,2.0,1.0,1.0,33.0,33.9,33.9,2.2,3.8,2.51,0.8855088136493786,-0.006687313968974961,0.4505829959956782,0.006485450249127334,-0.056165,-40.615742
11.185,2.0,1.0,1.0,33.0,33.9,33.9,2.2,3.8,2.5125,0.8825470785522467,-0.006834954330651658,0.4562200672339579,0.006529862883365078,-0.056714,-40.488777
11.185,2.0,1.0,1.0,33.0,33.9,33.9,2.2,3.8,2.515,0.8795359887638082,-0.00698551767638433,0.46186087833649314,0.00657396344147013,-0.057273,-40.36144
11.185,2.0,1.0,1.0,33.0,33.9,33.9,2.2,3.8,2.5175,0.8764750155466924,-0.0071390706139542025,0.46750527083277127,0.006617727705524111,-0.057842,-40.23372
11.185,2.0,1.0,1.0,33.0,33.9,33.9,2.2,3.8,2.52,0.8733636203503213,-0.007295681667873752,0.4731530806504662,0.006661130368223301,-0.058422,-40.105607
11.185,2.0,1.0,1.0,33.0,33.9,33.9,2.2,3.8,2.5225,0.8702012545930815,-0.007455421346091362,0.47880413790545456,0.00670414498154054,-0.059013,-39.977092
11.185,2.0,1.0,1.0,33.0,33.9,33.9,2.2,3.8,2.525,0.8669873594386454,-0.007618362209416757,0.4844582666837143,0.0067467439027233695,-0.059615,-39.848164
11.185,2.0,1.0,1.0,33.0,33.9,33.9,2.2,3.8,2.5275,0.8637213655662686,-0.00778457894379404,0.4901152848147526,0.006788898237474091,-0.060229,-39.718811
11.185,2.0,1.0,1.0,33.0,33.9,33.9,2.2,3.8,2.53,0.8604026929348529,-0.007954148435556578,0.4957750036361804,0.006830577780148125,-0.060854,-39.589025
11.185,2.0,1.0,1.0,33.0,33.9,33.9,2.2,3.8,2.5325,0.8570307505405643,-0.00812714984980529,0.5014372277490499,0.006871750950795537,-0.061491,-39.458792
11.185,2.0,1.0,1.0,33.0,33.9,33.9,2.2,3.8,2.535,0.85360493616778,-0.008303664712058971,0.5071017547635401,0.006912384728860546,-0.06214,-39.328104
11.185,2.0,1.0,1.0,33.0,33.9,33.9,2.2,3.8,2.5375,0.8501246361331453,-0.008483776993333253,0.5127683750345521,0.006952444583340085,-0.062802,-39.196948
11.185,2.0,1.0,1.0,33.0,33.9,33.9,2.2,3.8,2.54,0.8465892250224885,-0.008667573198813979,0.5184368713867595,0.006991894399190685,-0.063477,-39.065313
11.185,2.0,1.0,1.0,33.0,33.9,33.9,2.2,3.8,2.5425,0.8429980654203499,-0.008855142460298815,0.5241070188286375,0.007030696399758034,-0.064166,-38.933188
11.185,2.0,1.0,1.0,33.0,33.9,33.9,2.2,3.8,2.545,0.8393505076318577,-0.009046576632590854,0.5297785842549572,0.00706881106498885,-0.064868,-38.800561
11.185,2.0,1.0,1.0,33.0,33.9,33.9,2.2,3.8,2.5475,0.8356458893966824,-0.009241970394037987,0.5354513261372053,0.00710619704516835,-0.065584,-38.66742
11.185,2.0,1.0,1.0,33.0,33.9,33.9,2.2,3.8,2.55,0.8318835355947786,-0.009441421351422756,0.5411249942013896,0.0071428110699091555,-0.066315,-38.533753
11.185,2.0,1.0,1.0,33.0,33.9,33.9,2.2,3.8,2.5525,0.8280627579436202,-0.009645030149417717,0.546799329092601,0.0071786078520987605,-0.06706,-38.399548
11.185,2.0,1.0,1.0,33.0,33.9,33.9,2.2,3.8,2.555,0.8241828546866109,-0.009852900584834698,0.5524740620257295,0.007213539986492441,-0.067821,-38.264792
11.185,2.0,1.0,1.0,33.0,33.9,33.9,2.2,3.8,2.5575,0.8202431102723444,-0.010065139725908286,0.5581489144216729,0.007247557842616742,-0.068597,-38.129473
11.185,2.0,1.0,1.0,33.0,33.9,33.9,2.2,3.8,2.56,0.8162427950243704,-0.010281858036867098,0.563823597528313,0.007280609451625317,-0.06939,-37.993577
11.185,2.0,1.0,1.0,33.0,33.9,33.9,2.2,3.8,2.5625,0.812181164801114,-0.010503169508061386,0.5694978120255489,0.0073126403867236735,-0.070199,-37.857092
11.185,2.0,1.0,1.0,33.0,33.9,33.9,2.2,3.8,2.565,0.8080574606455581,-0.010729191791930675,0.5751712476135893,0.007343593636752084,-0.071025,-37.720004
11.185,2.0,1.0,1.0,33.0,33.9,33.9,2.2,3.8,2.5675,0.8038709084243114,-0.010960046345110466,0.5808435825836706,0.007373409472486629,-0.071869,-37.5823
11.185,2.0,1.0,1.0,33.0,33.9,33.9,2.2,3.8,2.57,0.7996207184556354,-0.011195858576995368,0.5865144833703383,0.007402025305186802,-0.072731,-37.443965
11.185,2.0,1.0,1.0,33.0,33.9,33.9,2.2,3.8,2.5725,0.795306085126002,-0.011436758005093348,0.5921836040843527,0.007429375536883518,-0.073611,-37.304986
11.185,2.0,1.0,1.0,33.0,33.9,33.9,2.2,3.8,2.575,0.7909261864947263,-0.011682878417525735,0.5978505860252373,0.007455391401865061,-0.074511,-37.165348
11.185,2.0,1.0,1.0,33.0,33.9,33.9,2.2,3.8,2.5775,0.7864801838861939,-0.011934358043047618,0.6035150571724233,0.007480000798777603,-0.07543,-37.025036
11.185,2.0,1.0,1.0,33.0,33.9,33.9,2.2,3.8,2.58,0.7819672214691884,-0.012191339728985479,0.6091766316538851,0.0075031281127146835,-0.07637,-36.884036
11.185,2.0,1.0,1.0,33.0,33.9,33.9,2.2,3.8,2.5825,0.7773864258227767,-0.012453971127512595,0.6148349091910834,0.0075246940266227415,-0.07733,-36.742332
11.185,2.0,1.0,1.0,33.0,33.9,33.9,2.2,3.8,2.585,0.772736905488217,-0.012722404890706114,0.6204894745189788,0.0075446153212987595,-0.078312,-36.599908
11.185,2.0,1.0,1.0,33.0,33.9,33.9,2.2,3.8,2.5875,0.7680177505062862,-0.012996798874857834,0.6261398967797684,0.007562804663202106,-0.079317,-36.456749
11.185,2.0,1.0,1.0,33.0,33.9,33.9,2.2,3.8,2.59,0.7632280319394283,-0.013277316354536724,0.6317857288889434,0.007579170379242138,-0.080344,-36.312838
11.185,2.0,1.0,1.0,33.0,33.9,33.9,2.2,3.8,2.5925,0.7583668013780693,-0.01356412624693247,0.6374265068721612,0.0075936162176391845,-0.081395,-36.168158
11.185,2.0,1.0,1.0,33.0,33.9,33.9,2.2,3.8,2.595,0.7534330904304276,-0.01385740334703985,0.6430617491713193,0.007606041093885786,-0.08247,-36.022694
11.185,2.0,1.0,1.0,33.0,33.9,33.9,2.2,3.8,2.5975,0.7484259101950899,-0.01415732857427825,0.6486909559181288,0.007616338820759464,-0.08357,-35.876427
11.185,2.0,1.0,1.0,33.0,33.9,33.9,2.2,3.8,2.6,0.7433442507156091,-0.014464089231175484,0.6543136081733645,0.007624397821254903,-0.084696,-35.729339
11.185,2.0,1.0,1.0,33.0,33.9,33.9,2.2,3.8,2.6025,0.73818708041633,-0.014777879274783415,0.6599291671298344,0.007630100823213423,-0.085849,-35.581413
11.185,2.0,1.0,1.0,33.0,33.9,33.9,2.2,3.8,2.605,0.7329533455185917,-0.01509889960153392,0.6655370732769971,0.007633324534329638,-0.087029,-35.43263
11.185,2.0,1.0,1.0,33.0,33.9,33.9,2.2,3.8,2.6075,0.727641969436437,-0.015427358346285183,0.6711367455250045,0.0076339392961082275,-0.088238,-35.282971
11.185,2.0,1.0,1.0,33.0,33.9,33.9,2.2,3.8,2.61,0.7222518521508862,-0.015763471196355613,0.6767275802857765,0.007631808715226697,-0.089477,-35.132416
11.185,2.0,1.0,1.0,33.0,33.9,33.9,2.2,3.8,2.6125,0.7167818695617947,-0.016107461721390017,0.6823089505085771,0.007626789270634198,-0.090746,-34.980946
11.185,2.0,1.0,1.0,33.0,33.9,33.9,2.2,3.8,2.615,0.7112308728162491,-0.01645956171995508,0.6878802046673531,0.0076187298945758755,-0.092047,-34.82854
11.185,2.0,1.0,1.0,33.0,33.9,33.9,2.2,3.8,2.6175,0.7055976876124136,-0.016820011583815273,0.6934406656969047,0.007607471525582401,-0.09338,-34.675177
11.185,2.0,1.0,1.0,33.0,33.9,33.9,2.2,3.8,2.62,0.699881113477658,-0.01718906068089879,0.6989896298747565,0.007592846631297493,-0.094746,-34.520837
11.185,2.0,1.0,1.0,33.0,33.9,33.9,2.2,3.8,2.6225,0.6940799230197446,-0.017566967758025524,0.7045263656453445,0.007574678698835303,-0.096148,-34.365496
11.185,2.0,1.0,1.0,33.0,33.9,33.9,2.2,3.8,2.625,0.688192861149788,-0.017954001364533,0.710050112382892,0.00755278169016139,-0.097586,-34.209133
11.185,2.0,1.0,1.0,33.0,33.9,33.9,2.2,3.8,2.6275,0.6822186442756061,-0.018350440298007784,0.715560079089077,0.007526959459772883,-0.099061,-34.051725
11.185,2.0,1.0,1.0,33.0,33.9,33.9,2.2,3.8,2.63,0.6761559594640302,-0.018756574073401543,0.7210554430212851,0.007497005131715856,-0.100575,-33.893248
11.185,2.0,1.0,1.0,33.0,33.9,33.9,2.2,3.8,2.6325,0.6700034635706389,-0.019172703416890473,0.726535348246912,0.00746270043271531,-0.102129,-33.733677
11.185,2.0,1.0,1.0,33.0,33.9,33.9,2.2,3.8,2.635,0.6637597823353028,-0.019599140785917794,0.7319989041188376,0.0074238149779067425,-0.103725,-33.572988
11.185,2.0,1.0,1.0,33.0,33.9,33.9,2.2,3.8,2.6375,0.6574235094418471,-0.020036210916947093,0.7374451836667831,0.007380105505341966,-0.105364,-33.411154
11.185,2.0,1.0,1.0,33.0,33.9,33.9,2.2,3.8,2.64,0.6509932055400052,-0.02048425140254625,0.742873221898863,0.007331315055094238,-0.107047,-33.248151
11.185,2.0,1.0,1.0,33.0,33.9,33.9,2.2,3.8,2.6425,0.6444673972277829,-0.020943613299517123,0.7482820140071456,0.007277172088405665,-0.108777,-33.08395
11.185,2.0,1.0,1.0,33.0,33.9,33.9,2.2,3.8,2.645,0.6378445759922139,-0.021414661769889605,0.7536705134705584,0.007217389541898268,-0.110555,-32.918525
11.185,2.0,1.0,1.0,33.0,33.9,33.9,2.2,3.8,2.6475,0.631123197106385,-0.02189777675670375,0.759037630047883,0.00715166381140471,-0.112384,-32.751845
11.185,2.0,1.0,1.0,33.0,33.9,33.9,2.2,3.8,2.65,0.624301678480481,-0.0223933536966172,0.7643822276530022,0.007079673659462365,-0.114264,-32.583883
11.185,2.0,1.0,1.0,33.0,33.9,33.9,2.2,3.8,2.6525,0.6173783994645171,-0.022901804271488635,0.7697031221038477,0.007001079039946788,-0.116199,-32.414607
11.185,2.0,1.0,1.0,33.0,33.9,33.9,2.2,3.8,2.655,0.6103516996002336,-0.023423557201212978,0.7749990787357969,0.006915519832694085,-0.11819,-32.243987
11.185,2.0,1.0,1.0,33.0,33.9,33.9,2.2,3.8,2.6575,0.6032198773195587,-0.023959059080206093,0.7802688098694145,0.006822614480267571,-0.120239,-32.07199
11.185,2.0,1.0,1.0,33.0,33.9,33.9,2.2,3.8,2.66,0.5959811885868698,-0.024508775260067697,0.7855109721215535,0.006721958518255468,-0.12235,-31.898584
11.185,2.0,1.0,1.0,33.0,33.9,33.9,2.2,3.8,2.6625,0.5886338454821715,-0.02507319078108218,0.7907241635478275,0.006613122989633665,-0.124524,-31.723734
11.185,2.0,1.0,1.0,33.0,33.9,33.9,2.2,3.8,2.665,0.5811760147221341,-0.025652811355353463,0.7959069206033654,0.00649565273278119,-0.126764,-31.547405
11.185,2.0,1.0,1.0,33.0,33.9,33.9,2.2,3.8,2.6675,0.5736058161158379,-0.026248164404501936,0.8010577149075561,0.006369064531684959,-0.129073,-31.369562
11.185,2.0,1.0,1.0,33.0,33.9,33.9,2.2,3.8,2.67,0.5659213209518889,-0.026859800154989344,0.8061749497971306,0.00623284511570007,-0.131454,-31.190166
11.185,2.0,1.0,1.0,33.0,33.9,33.9,2.2,3.8,2.6725,0.5581205503134395,-0.027488292794267243,0.8112569566504515,0.00608644899493032,-0.133911,-31.009179
11.185,2.0,1.0,1.0,33.0,33.9,33.9,2.2,3.8,2.675,0.5502014733175444,-0.028134241691070754,0.8163019909642181,0.005929296115842753,-0.136446,-30.826562
11.185,2.0,1.0,1.0,33.0,33.9,33.9,2.2,3.8,2.6775,0.5421620052751077,-0.028798272683298355,0.8213082281619557,0.005760769320110075,-0.139063,-30.642273
11.185,2.0,1.0,1.0,33.0,33.9,33.9,2.2,3.8,2.68,0.5340000057676025,-0.02948103943702132,0.8262737591116281,0.005580211587867613,-0.141765,-30.45627
11.185,2.0,1.0,1.0,33.0,33.9,33.9,2.2,3.8,2.6825,0.5257132766366405,-0.03018322488025434,0.8311965853274126,0.005386923044549217,-0.144558,-30.268509
11.185,2.0,1.0,1.0,33.0,33.9,33.9,2.2,3.8,2.685,0.5172995598823777,-0.030905542715180288,0.8360746138281673,0.005180157708204116,-0.147444,-30.078944
11.185,2.0,1.0,1.0,33.0,33.9,33.9,2.2,3.8,2.6875,0.5087565354667439,-0.03164873901255246,0.8409056516222688,0.004959119951660869,-0.150429,-29.887529
11.185,2.0,1.0,1.0,33.0,33.9,33.9,2.2,3.8,2.69,0.5000818190174521,-0.03241359389198416,0.8456873997853351,0.004722960651061971,-0.153516,-29.694216
11.185,2.0,1.0,1.0,33.0,33.9,33.9,2.2,3.8,2.6925,0.4912729594288194,-0.03320092329177111,0.8504174470938238,0.004470772989096078,-0.156712,-29.498952
11.185,2.0,1.0,1.0,33.0,33.9,33.9,2.2,3.8,2.695,0.48232743635557496,-0.03401158083175338,0.855093263173501,0.0042015878776674636,-0.160022,-29.301688
11.185,2.0,1.0,1.0,33.0,33.9,33.9,2.2,3.8,2.6975,0.47324265759600753,-0.03484645977250448,0.8597121911173522,0.0039143689606963294,-0.16345,-29.102368
11.185,2.0,1.0,1.0,33.0,33.9,33.9,2.2,3.8,2.7,0.46401595636118675,-0.03570649507379926,0.8642714395224901,0.0036080071531924885,-0.167004,-28.900937
11.185,2.0,1.0,1.0,33.0,33.9,33.9,2.2,3.8,2.7025,0.45464458842740696,-0.036592665554845825,0.8687680738899957,0.003281314667602044,-0.170689,-28.697337
11.185,2.0,1.0,1.0,33.0,33.9,33.9,2.2,3.8,2.705,0.4451257291696972,-0.03750599615812367,0.8731990073253002,0.0029330184726234125,-0.174513,-28.491508
11.185,2.0,1.0,1.0,33.0,33.9,33.9,2.2,3.8,2.7075,0.43545647047504055,-0.03844756031782078,0.8775609904695738,0.002561753123122226,-0.178484,-28.283386
11.185,2.0,1.0,1.0,33.0,33.9,33.9,2.2,3.8,2.71,0.4256338175351236,-0.039418482432745254,0.8818506005845227,0.0021660528923388204,-0.182608,-28.072908
11.185,2.0,1.0,1.0,33.0,33.9,33.9,2.2,3.8,2.7125,0.4156546855198431,-0.04041994044214924,0.8860642297038935,0.001744343129153704,-0.186895,-27.860006
11.185,2.0,1.0,1.0,33.0,33.9,33.9,2.2,3.8,2.715,0.40551589613469163,-0.04145316850106131,0.8901980717546554,0.0012949307536062416,-0.191354,-27.644609
11.185,2.0,1.0,1.0,33.0,33.9,33.9,2.2,3.8,2.7175,0.39521417406747533,-0.04251945974938908,0.8942481085391416,0.000815993792986992,-0.195994,-27.426646
11.185,2.0,1.0,1.0,33.0,33.9,33.9,2.2,3.8,2.72,0.3847461433328382,-0.043620169166107066,0.8982100944561616,0.0003055698484493236,-0.200826,-27.20604
11.185,2.0,1.0,1.0,33.0,33.9,33.9,2.2,3.8,2.7225,0.37410832352675316,-0.044756716496151795,0.9020795398240138,-0.000238456632016109,-0.205862,-26.982712
11.185,2.0,1.0,1.0,33.0,33.9,33.9,2.2,3.8,2.725,0.3632971260079058,-0.04593058923301769,0.9058516926511453,-0.0008183684144807645,-0.211113,-26.756581
11.185,2.0,1.0,1.0,33.0,33.9,33.9,2.2,3.8,2.7275,0.352308850028647,-0.0471433456342915,0.9095215186806752,-0.0014366310324614494,-0.216593,-26.527561
11.185,2.0,1.0,1.0,33.0,33.9,33.9,2.2,3.8,2.73,0.34113967884555946,-0.04839661774018466,0.9130836795126562,-0.002095910012398821,-0.222316,-26.295562
11.185,2.0,1.0,1.0,33.0,33.9,33.9,2.2,3.8,2.7325,0.3297856758486338,-0.04969211435622443,0.9165325085824824,-0.002799089974889765,-0.228297,-26.060492
11.185,2.0,1.0,1.0,33.0,33.9,33.9,2.2,3.8,2.735,0.3182427807593275,-0.05103162395021319,0.9198619847446747,-0.003549295842888279,-0.234554,-25.822255
11.185,2.0,1.0,1.0,33.0,33.9,33.9,2.2,3.8,2.7375,0.3065068059616259,-0.052417017399877544,0.9230657031779301,-0.004349916419708887,-0.241104,-25.580747
11.185,2.0,1.0,1.0,33.0,33.9,33.9,2.2,3.8,2.74,0.2945734330474784,-0.05385025051066253,0.9261368432890161,-0.005204630635976462,-0.247967,-25.335865
11.185,2.0,1.0,1.0,33.0,33.9,33.9,2.2,3.8,2.7425,0.282438209679278,-0.05533336620211961,0.9290681332492416,-0.00611743680641352,-0.255164,-25.087498
11.185,2.0,1.0,1.0,33.0,33.9,33.9,2.2,3.8,2.745,0.2700965468984925,-0.05686849623530292,0.9318518107467625,-0.00709268528538592,-0.26272,-24.835529
11.185,2.0,1.0,1.0,33.0,33.9,33.9,2.2,3.8,2.7475,0.2575437170422942,-0.05845786232133217,0.9344795794800492,-0.008135114965437496,-0.270658,-24.57984
11.185,2.0,1.0,1.0,33.0,33.9,33.9,2.2,3.8,2.75,0.244774852470613,-0.0601037764112788,0.936942560851152,-0.00924989412677323,-0.279008,-24.320302
11.185,2.0,1.0,1.0,33.0,33.9,33.9,2.2,3.8,2.7525,0.23178494535643357,-0.061808639917890915,0.939231240240658,-0.01044266621911549,-0.2878,-24.056785
11.185,2.0,1.0,1.0,33.0,33.9,33.9,2.2,3.8,2.755,0.21856884885471284,-0.06357494155800918,0.941335407157873,-0.011719601242072495,-0.297067,-23.789149
11.185,2.0,1.0,1.0,33.0,33.9,33.9,2.2,3.8,2.7575,0.20512128004305236,-0.06540525342785265,0.9432440884580089,-0.01308745348785075,-0.306847,-23.51725
11.185,2.0,1.0,1.0,33.0,33.9,33.9,2.2,3.8,2.76,0.1914368251241549,-0.06730222482787343,0.9449454737010115,-0.014553626522758935,-0.317179,-23.240936
11.185,2.0,1.0,1.0,33.0,33.9,33.9,2.2,3.8,2.7625,0.17750994750075075,-0.0692685732348496,0.9464268315918669,-0.01612624641370884,-0.328109,-22.960048
11.185,2.0,1.0,1.0,33.0,33.9,33.9,2.2,3.8,2.765,0.16333499948442945,-0.07130707167024179,0.9476744162873,-0.01781424435523093,-0.339686,-22.674417
11.185,2.0,1.0,1.0,33.0,33.9,33.9,2.2,3.8,2.7675,0.14890623858825,-0.0734205315279384,0.9486733621759648,-0.019627450024062167,-0.351964,-22.38387
11.185,2.0,1.0,1.0,33.0,33.9,33.9,2.2,3.8,2.77,0.1342178495890244,-0.07561177969162244,0.9494075655357036,-0.02157669718493372,-0.365006,-22.088222
11.185,2.0,1.0,1.0,33.0,33.9,33.9,2.2,3.8,2.7725,0.11926397384135436,-0.07788362847970982,0.9498595512392339,-0.02367394329564307,-0.378879,-21.787279
11.185,2.0,1.0,1.0,33.0,33.9,33.9,2.2,3.8,2.775,0.10403874769773763,-0.08023883658833948,0.9500103224159516,-0.02593240511456063,-0.393658,-21.480839
11.185,2.0,1.0,1.0,33.0,33.9,33.9,2.2,3.8,2.7775,0.08853635235785168,-0.0826800587400494,0.9498391906801037,-0.02836671260163813,-0.409428,-21.16869
11.185,2.0,1.0,1.0,33.0,33.9,33.9,2.2,3.8,2.78,0.07275107806147854,-0.08520978116171138,0.9493235842030388,-0.030993083726019003,-0.426284,-20.850607
11.185,2.0,1.0,1.0,33.0,33.9,33.9,2.2,3.8,2.7825,0.05667740628701672,-0.08783023927694085,0.9484388305400994,-0.03382952314896632,-0.444332,-20.526355
11.185,2.0,1.0,1.0,33.0,33.9,33.9,2.2,3.8,2.785,0.040310114563760345,-0.09054331306315559,0.9471579107245144,-0.036896048136493685,-0.463693,-20.195689
11.185,2.0,1.0,1.0,33.0,33.9,33.9,2.2,3.8,2.7875,0.023644409706282815,-0.09335039433732144,0.9454511807199143,-0.04021494546327641,-0.484502,-19.85835
11.185,2.0,1.0,1.0,33.0,33.9,33.9,2.2,3.8,2.79,0.0066760968034191405,-0.09625221872754984,0.9432860558962426,-0.04381106348193368,-0.506914,-19.514068
11.185,2.0,1.0,1.0,33.0,33.9,33.9,2.2,3.8,2.7925,-0.010598206767225815,-0.09924865317083705,0.9406266537894739,-0.04771214392120209,-0.531103,-19.162558
11.185,2.0,1.0,1.0,33.0,33.9,33.9,2.2,3.8,2.795,-0.028180800560868604,-0.10233842733643629,0.9374333900709815,-0.051949198296105774,-0.557269,-18.803525
11.185,2.0,1.0,1.0,33.0,33.9,33.9,2.2,3.8,2.7975,-0.0460725586418709,-0.10551879426456308,0.9336625224632967,-0.05655693398802981,-0.585639,-18.436658
11.185,2.0,1.0,1.0,33.0,33.9,33.9,2.2,3.8,2.8,-0.0642724966303776,-0.1087851015479643,0.9292656374135423,-0.06157423496570139,-0.616476,-18.061637
11.185,2.0,1.0,1.0,33.0,33.9,33.9,2.2,3.8,2.8025,-0.0827772242395165,-0.11213024933919771,0.9241890748560939,-0.06704470158927679,-0.650082,-17.678127
11.185,2.0,1.0,1.0,33.0,33.9,33.9,2.2,3.8,2.805,-0.10158025284943205,-0.1155440050545899,0.9183732876386372,-0.073017252695206,-0.686805,-17.285781
11.185,2.0,1.0,1.0,33.0,33.9,33.9,2.2,3.8,2.8075,-0.12067111946400379,-0.11901213652114595,0.9117521345677273,-0.0795467907865532,-0.727049,-16.884245
11.185,2.0,1.0,1.0,33.0,33.9,33.9,2.2,3.8,2.81,-0.14003427806025986,-0.1225153150682681,0.9042521101743698,-0.08669492703488868,-0.771285,-16.473157
11.185,2.0,1.0,1.0,33.0,33.9,33.9,2.2,3.8,2.8125,-0.159647696411731,-0.126027727246013,0.895791521132037,-0.0945307560196318,-0.820065,-16.052148
11.185,2.0,1.0,1.0,33.0,33.9,33.9,2.2,3.8,2.815,-0.1794810804780265,-0.12951531798870144,0.8862796301414734,-0.10313165933877198,-0.874033,-15.620853
11.185,2.0,1.0,1.0,33.0,33.9,33.9,2.2,3.8,2.8175,-0.1994936290140817,-0.1329335687449786,0.8756158050200517,-0.11258410044754813,-0.933952,-15.178912
11.185,2.0,1.0,1.0,33.0,33.9,33.9,2.2,3.8,2.82,-0.21963119802895764,-0.13622469122028613,0.8636887365790145,-0.12298434746265495,-1.000723,-14.725981
11.185,2.0,1.0,1.0,33.0,33.9,33.9,2.2,3.8,2.8225,-0.23982272856769066,-0.13931409136013684,0.8503758277530746,-0.1344390221284251,-1.075414,-14.261742
11.185,2.0,1.0,1.0,33.0,33.9,33.9,2.2,3.8,2.825,-0.25997576363833136,-0.14210593064726082,0.8355429141314966,-0.1470653159531136,-1.159304,-13.785921
11.185,2.0,1.0,1.0,33.0,33.9,33.9,2.2,3.8,2.8275,-0.2799708548240766,-0.14447758649662729,0.8190445604075469,-0.16099063086103854,-1.25392,-13.298307
11.185,2.0,1.0,1.0,33.0,33.9,33.9,2.2,3.8,2.83,-0.2996546440460767,-0.14627279824478212,0.8007252986584013,-0.17635128128440114,-1.3611,-12.798779
