1,w,sub_t,h,l1,l2,l3,g1,g2,Freq,S11_re,S21_re,S11_img,S21_img,S11_dB,S21_dB
11.185,2.0,1.0,1.0,34.4,33.0,33.0,3.3,2.4,2.5,0.720016229531669,-0.0117638809784476,0.683088413504717,0.00589856665853085,-0.065492,-37.614973
11.185,2.0,1.0,1.0,34.4,33.0,33.0,3.3,2.4,2.5025,0.7145927481232868,-0.011965736730329996,0.6886522246079567,0.005872528976507731,-0.066146,-37.50397
11.185,2.0,1.0,1.0,34.4,33.0,33.0,3.3,2.4,2.505,0.709098032970211,-0.012170540853495757,0.6942000323135884,0.005844179400678931,-0.066812,-37.392693
11.185,2.0,1.0,1.0,34.4,33.0,33.0,3.3,2.4,2.5075,0.7035314140296813,-0.012378332069530205,0.6997311777748225,0.00581344364628244,-0.067489,-37.281137
11.185,2.0,1.0,1.0,34.4,33.0,33.0,3.3,2.4,2.51,0.6978922148226858,-0.012589149382301603,0.7052449841098145,0.005780245148713995,-0.068178,-37.169297
11.185,2.0,1.0,1.0,34.4,33.0,33.0,3.3,2.4,2.5125,0.692179752504291,-0.012803032062767523,0.7107407559080763,0.00574450499071618,-0.068879,-37.057169
11.185,2.0,1.0,1.0,34.4,33.0,33.0,3.3,2.4,2.515,0.686393337942765,-0.013020019632440096,0.71621777872433,0.0057061418271861205,-0.069591,-36.944746
11.185,2.0,1.0,1.0,34.4,33.0,33.0,3.3,2.4,2.5175,0.6805322758079821,-0.013240151845430355,0.7216753185595259,0.005665071807520897,-0.070316,-36.832024
11.185,2.0,1.0,1.0,34.4,33.0,33.0,3.3,2.4,2.52,0.6745958646695885,-0.013463468668987979,0.7271126213287729,0.005621208495422376,-0.071054,-36.718999
11.185,2.0,1.0,1.0,34.4,33.0,33.0,3.3,2.4,2.5225,0.6685833971054757,-0.013690010262448437,0.7325289123158932,0.005574462786077119,-0.071804,-36.605664
11.185,2.0,1.0,1.0,34.4,33.0,33.0,3.3,2.4,2.525,0.6624941598210845,-0.013919816954493515,0.7379233956143563,0.005524742820626266,-0.072568,-36.492015
11.185,2.0,1.0,1.0,34.4,33.0,33.0,3.3,2.4,2.5275,0.6563274337801162,-0.014152929218628272,0.7432952535543093,0.005471953897835449,-0.073345,-36.378047
11.185,2.0,1.0,1.0,34.4,33.0,33.0,3.3,2.4,2.53,0.6500824943472495,-0.01438938764677016,0.7486436461154403,0.0054159983828762385,-0.074135,-36.263755
11.185,2.0,1.0,1.0,34.4,33.0,33.0,3.3,2.4,2.5325,0.6437586114434813,-0.014629232920842263,0.7539677103254062,0.005356775613121595,-0.07494,-36.149132
11.185,2.0,1.0,1.0,34.4,33.0,33.0,3.3,2.4,2.535,0.6373550497147322,-0.014872505782255017,0.7592665596435647,0.005294181800861308,-0.075759,-36.034175
11.185,2.0,1.0,1.0,34.4,33.0,33.0,3.3,2.4,2.5375,0.6308710687144118,-0.015119246999156429,0.7645392833297335,0.005228109932835662,-0.076592,-35.918877
11.185,2.0,1.0,1.0,34.4,33.0,33.0,3.3,2.4,2.54,0.6243059231006328,-0.015369497331323308,0.7697849457977317,0.005158449666483782,-0.07744,-35.803233
11.185,2.0,1.0,1.0,34.4,33.0,33.0,3.3,2.4,2.5425,0.6176588628488198,-0.015623297492559033,0.7750025859534312,0.005085087222802379,-0.078304,-35.687238
11.185,2.0,1.0,1.0,34.4,33.0,33.0,3.3,2.4,2.545,0.6109291334804791,-0.015880688110456963,0.7801912165170736,0.005007905275702829,-0.079183,-35.570887
11.185,2.0,1.0,1.0,34.4,33.0,33.0,3.3,2.4,2.5475,0.6041159763089418,-0.016141709683381154,0.785349823329592,0.004926782837754479,-0.080077,-35.454173
11.185,2.0,1.0,1.0,34.4,33.0,33.0,3.3,2.4,2.55,0.5972186287028964,-0.016406402534507404,0.7904773646427093,0.004841595142198914,-0.080988,-35.337092
11.185,2.0,1.0,1.0,34.4,33.0,33.0,3.3,2.4,2.5525,0.5902363243686134,-0.016674806762759148,0.7955727703925534,0.0047522135211121325,-0.081916,-35.219638
11.185,2.0,1.0,1.0,34.4,33.0,33.0,3.3,2.4,2.555,0.5831682936517445,-0.016946962190465893,0.8006349414565782,0.004658505279593917,-0.08286,-35.101804
11.185,2.0,1.0,1.0,34.4,33.0,33.0,3.3,2.4,2.5575,0.5760137638596571,-0.01722290830755925,0.8056627488935599,0.0045603335658549885,-0.083822,-34.983586
11.185,2.0,1.0,1.0,34.4,33.0,33.0,3.3,2.4,2.56,0.5687719596052958,-0.017502684212117137,0.8106550331664573,0.004457557237070144,-0.084802,-34.864977
11.185,2.0,1.0,1.0,34.4,33.0,33.0,3.3,2.4,2.5625,0.5614421031735918,-0.017786328547048726,0.8156106033479275,0.004350030720863919,-0.085799,-34.745972
11.185,2.0,1.0,1.0,34.4,33.0,33.0,3.3,2.4,2.565,0.5540234149114914,-0.018073879432711472,0.8205282363083262,0.004237603872286615,-0.086815,-34.626565
11.185,2.0,1.0,1.0,34.4,33.0,33.0,3.3,2.4,2.5675,0.5465151136427326,-0.018365374395231518,0.8254066758859879,0.004120121826137793,-0.08785,-34.50675
11.185,2.0,1.0,1.0,34.4,33.0,33.0,3.3,2.4,2.57,0.5389164171085148,-0.018660850290292495,0.8302446320396523,0.003997424844490048,-0.088905,-34.38652
11.185,2.0,1.0,1.0,34.4,33.0,33.0,3.3,2.4,2.5725,0.5312265424352763,-0.018960343222142826,0.8350407799828724,0.0038693481592576634,-0.089979,-34.265871
11.185,2.0,1.0,1.0,34.4,33.0,33.0,3.3,2.4,2.575,0.5234447066308394,-0.01926388845755897,0.8397937593002872,0.00373572180965487,-0.091073,-34.144795
11.185,2.0,1.0,1.0,34.4,33.0,33.0,3.3,2.4,2.5775,0.5155701271102253,-0.019571520334487835,0.8445021730456448,0.0035963704743794895,-0.092189,-34.023286
11.185,2.0,1.0,1.0,34.4,33.0,33.0,3.3,2.4,2.58,0.5076020222525036,-0.019883272165077223,0.8491645868214935,0.003451113298356469,-0.093325,-33.901339
11.185,2.0,1.0,1.0,34.4,33.0,33.0,3.3,2.4,2.5825,0.49953961199008,-0.020199176132787315,0.8537795278404792,0.003299763713866318,-0.094484,-33.778947
11.185,2.0,1.0,1.0,34.4,33.0,33.0,3.3,2.4,2.585,0.4913821184319008,-0.02051926318326043,0.8583454839682033,0.003142129255882379,-0.095664,-33.656103
11.185,2.0,1.0,1.0,34.4,33.0,33.0,3.3,2.4,2.5875,0.48312876652208236,-0.020843562908608934,0.86286090274765,0.0029780113714328415,-0.096867,-33.532801
11.185,2.0,1.0,1.0,34.4,33.0,33.0,3.3,2.4,2.59,0.4747787847355679,-0.021172103424761723,0.8673241904051779,0.002807205222797473,-0.098094,-33.409034
11.185,2.0,1.0,1.0,34.4,33.0,33.0,3.3,2.4,2.5925,0.4663314058124335,-0.021504911241493344,0.8717337108381517,0.002629499484344542,-0.099345,-33.284796
11.185,2.0,1.0,1.0,34.4,33.0,33.0,3.3,2.4,2.595,0.4577858675325683,-0.021842011124736712,0.8760877845842879,0.0024446761328063005,-0.10062,-33.16008
11.185,2.0,1.0,1.0,34.4,33.0,33.0,3.3,2.4,2.5975,0.44914141353247766,-0.022183425950760675,0.8803846877728442,0.002252510230784653,-0.10192,-33.034879
11.185,2.0,1.0,1.0,34.4,33.0,33.0,3.3,2.4,2.6,0.44039729416605233,-0.022529176551771547,0.8846226510578191,0.002052769703272217,-0.103246,-32.909187
11.185,2.0,1.0,1.0,34.4,33.0,33.0,3.3,2.4,2.6025,0.4315527674112038,-0.02287928155247179,0.8887998585333711,0.0018452151069673134,-0.104599,-32.782995
11.185,2.0,1.0,1.0,34.4,33.0,33.0,3.3,2.4,2.605,0.4226070998243305,-0.023233757197087007,0.892914446631707,0.001629599392152816,-0.105978,-32.656298
11.185,2.0,1.0,1.0,34.4,33.0,33.0,3.3,2.4,2.6075,0.4135595675446523,-0.02359261716634274,0.8969645030037547,0.0014056676569022195,-0.107385,-32.529088
11.185,2.0,1.0,1.0,34.4,33.0,33.0,3.3,2.4,2.61,0.4044094573505342,-0.023955872383847963,0.9009480653829672,0.0011731568933676649,-0.108821,-32.401357
11.185,2.0,1.0,1.0,34.4,33.0,33.0,3.3,2.4,2.6125,0.3951560677699689,-0.02432353081130662,0.9048631204326838,0.0009317957258955926,-0.110285,-32.273099
11.185,2.0,1.0,1.0,34.4,33.0,33.0,3.3,2.4,2.615,0.3857987102474838,-0.024695597231957113,0.9087076025775151,0.0006813041407075583,-0.11178,-32.144305
11.185,2.0,1.0,1.0,34.4,33.0,33.0,3.3,2.4,2.6175,0.3763367103698168,-0.025072073021593432,0.9124793928192958,0.0004213932068734109,-0.113305,-32.014968
11.185,2.0,1.0,1.0,34.4,33.0,33.0,3.3,2.4,2.62,0.3667694091527626,-0.025452955906497852,0.9161763175382073,0.00015176478829281495,-0.114861,-31.885081
11.185,2.0,1.0,1.0,34.4,33.0,33.0,3.3,2.4,2.6225,0.3570961643916865,-0.02583823970757153,0.9197961472797603,-0.00012788875360555276,-0.11645,-31.754635
11.185,2.0,1.0,1.0,34.4,33.0,33.0,3.3,2.4,2.625,0.347316352078298,-0.0262279140699096,0.923336595528381,-0.000417884866755688,-0.118072,-31.623623
11.185,2.0,1.0,1.0,34.4,33.0,33.0,3.3,2.4,2.6275,0.337429367886316,-0.02662196417702894,0.9267953174684403,-0.0007185511252512275,-0.119728,-31.492035
11.185,2.0,1.0,1.0,34.4,33.0,33.0,3.3,2.4,2.63,0.3274346287287916,-0.027020370448908076,0.9301699087336591,-0.0010302255563815876,-0.121419,-31.359865
11.185,2.0,1.0,1.0,34.4,33.0,33.0,3.3,2.4,2.6325,0.3173315743899026,-0.02742310822295256,0.9334579041458873,-0.0013532569782473412,-0.123145,-31.227104
11.185,2.0,1.0,1.0,34.4,33.0,33.0,3.3,2.4,2.635,0.3071196692341429,-0.027830147416949533,0.9366567764443722,-0.0016880053483195382,-0.124909,-31.093742
11.185,2.0,1.0,1.0,34.4,33.0,33.0,3.3,2.4,2.6375,0.2967984039959178,-0.028241452173017618,0.9397639350067195,-0.0020348421233146326,-0.12671,-30.959772
11.185,2.0,1.0,1.0,34.4,33.0,33.0,3.3,2.4,2.64,0.2863672976526103,-0.028656980481506087,0.9427767245628603,-0.0023941506307817773,-0.128549,-30.825184
11.185,2.0,1.0,1.0,34.4,33.0,33.0,3.3,2.4,2.6425,0.27582589938433677,-0.029076683783729566,0.9456924239034431,-0.002766326452812133,-0.130429,-30.68997
11.185,2.0,1.0,1.0,34.4,33.0,33.0,3.3,2.4,2.645,0.26517379062363944,-0.02950050655236272,0.9485082445841898,-0.0031517778223059964,-0.13235,-30.554119
11.185,2.0,1.0,1.0,34.4,33.0,33.0,3.3,2.4,2.6475,0.2544105871985026,-0.029928385848248844,0.951221329627864,-0.003550926032250457,-0.134312,-30.417624
11.185,2.0,1.0,1.0,34.4,33.0,33.0,3.3,2.4,2.65,0.2435359415721234,-0.03036025085229834,0.9538287522256472,-0.003964205858487829,-0.136318,-30.280474
11.185,2.0,1.0,1.0,34.4,33.0,33.0,3.3,2.4,2.6525,0.23254954518304194,-0.03079602237107408,0.9563275144398069,-0.004392065996481252,-0.138369,-30.142659
11.185,2.0,1.0,1.0,34.4,33.0,33.0,3.3,2.4,2.655,0.22145113088921872,-0.03123561231457442,0.9587145459097379,-0.004834969512610177,-0.140465,-30.004169
11.185,2.0,1.0,1.0,34.4,33.0,33.0,3.3,2.4,2.6575,0.21024047551985545,-0.03167892314462878,0.9609867025635286,-0.005293394310563206,-0.142608,-29.864995
11.185,2.0,1.0,1.0,34.4,33.0,33.0,3.3,2.4,2.66,0.19891740253876838,-0.03212584729222384,0.9631407653374054,-0.005767833613425886,-0.1448,-29.725126
11.185,2.0,1.0,1.0,34.4,33.0,33.0,3.3,2.4,2.6625,0.18748178482328562,-0.032576266541965285,0.9651734389055228,-0.006258796462102196,-0.147042,-29.584551
11.185,2.0,1.0,1.0,34.4,33.0,33.0,3.3,2.4,2.665,0.17593354756266774,-0.03303005138176895,0.9670813504227421,-0.006766808230747262,-0.149334,-29.443259
11.185,2.0,1.0,1.0,34.4,33.0,33.0,3.3,2.4,2.6675,0.16427267128023662,-0.03348706031574231,0.968861048283181,-0.00729241115993342,-0.15168,-29.301239
11.185,2.0,1.0,1.0,34.4,33.0,33.0,3.3,2.4,2.67,0.15249919498342318,-0.03394713913808792,0.9705090008974918,-0.007836164908322578,-0.15408,-29.15848
11.185,2.0,1.0,1.0,34.4,33.0,33.0,3.3,2.4,2.6725,0.14061321944608562,-0.034410120165703724,0.9720215954919872,-0.008398647123671653,-0.156536,-29.014969
11.185,2.0,1.0,1.0,34.4,33.0,33.0,3.3,2.4,2.675,0.12861491062756092,-0.034875821427002414,0.9733951369328955,-0.008980454034053863,-0.15905,-28.870696
11.185,2.0,1.0,1.0,34.4,33.0,33.0,3.3,2.4,2.6775,0.11650450323300143,-0.03534404580429013,0.9746258465791966,-0.00958220106024963,-0.161623,-28.725647
11.185,2.0,1.0,1.0,34.4,33.0,33.0,3.3,2.4,2.68,0.10428230441966342,-0.035814580126857676,0.9757098611676727,-0.010204523450327904,-0.164258,-28.57981
11.185,2.0,1.0,1.0,34.4,33.0,33.0,3.3,2.4,2.6825,0.09194869765395011,-0.036287194211730454,0.9766432317339583,-0.010848076937518413,-0.166956,-28.433172
11.185,2.0,1.0,1.0,34.4,33.0,33.0,3.3,2.4,2.685,0.07950414672410352,-0.03676163984879068,0.9774219225735636,-0.011513538422563578,-0.169719,-28.28572
11.185,2.0,1.0,1.0,34.4,33.0,33.0,3.3,2.4,2.6875,0.06694919991358149,-0.037237649726743545,0.9780418102470009,-0.012201606681835,-0.172549,-28.13744
11.185,2.0,1.0,1.0,34.4,33.0,33.0,3.3,2.4,2.69,0.05428449434030466,-0.03771493629612085,0.97849868263332,-0.012913003102597858,-0.175449,-27.988318
11.185,2.0,1.0,1.0,34.4,33.0,33.0,3.3,2.4,2.6925,0.0415107604670515,-0.038193190565220705,0.978788238036514,-0.013648472446932468,-0.178421,-27.838339
11.185,2.0,1.0,1.0,34.4,33.0,33.0,3.3,2.4,2.695,0.028628826788518642,-0.03867208082454749,0.9789060843494107,-0.014408783645939366,-0.181466,-27.687489
11.185,2.0,1.0,1.0,34.4,33.0,33.0,3.3,2.4,2.6975,0.015639624700616812,-0.03915125129496285,0.9788477382798185,-0.015194730625999653,-0.184589,-27.535752
11.185,2.0,1.0,1.0,34.4,33.0,33.0,3.3,2.4,2.7,0.0025441935578782845,-0.039630320694346556,0.9786086246438395,-0.016007133169014,-0.18779,-27.383112
11.185,2.0,1.0,1.0,34.4,33.0,33.0,3.3,2.4,2.7025,-0.010656314075046401,-0.040108880717138654,0.9781840757313613,-0.016846837808712267,-0.191073,-27.229553
11.185,2.0,1.0,1.0,34.4,33.0,33.0,3.3,2.4,2.705,-0.023960626971540628,-0.040586494420633286,0.9775693307489052,-0.01771471876530916,-0.19444,-27.075058
11.185,2.0,1.0,1.0,34.4,33.0,33.0,3.3,2.4,2.7075,-0.03736734958432385,-0.0410626945113632,0.9767595353450367,-0.018611678920989673,-0.197895,-26.91961
11.185,2.0,1.0,1.0,34.4,33.0,33.0,3.3,2.4,2.71,-0.050874956173129295,-0.04153698152430894,0.9757497412236841,-0.01953865083892264,-0.201441,-26.76319
11.185,2.0,1.0,1.0,34.4,33.0,33.0,3.3,2.4,2.7125,-0.06448178471163972,-0.042008821886999774,0.9745349058507218,-0.02049659782875432,-0.20508,-26.60578
11.185,2.0,1.0,1.0,34.4,33.0,33.0,3.3,2.4,2.715,-0.07818603056620745,-0.042477645859834594,0.9731098922592207,-0.021486515061792534,-0.208816,-26.447361
11.185,2.0,1.0,1.0,34.4,33.0,33.0,3.3,2.4,2.7175,-0.09198573993845216,-0.04294284534311893,0.9714694689587631,-0.022509430739391278,-0.212653,-26.287913
11.185,2.0,1.0,1.0,34.4,33.0,33.0,3.3,2.4,2.72,-0.10587880306333239,-0.04340377154039581,0.9696083099541861,-0.023566407318360398,-0.216594,-26.127414
11.185,2.0,1.0,1.0,34.4,33.0,33.0,3.3,2.4,2.7225,-0.11986294715375573,-0.04385973246661472,0.9675209948790433,-0.024658542797578065,-0.220643,-25.965844
11.185,2.0,1.0,1.0,34.4,33.0,33.0,3.3,2.4,2.725,-0.13393572908205548,-0.044309990288525274,0.9652020092489462,-0.025786972070358308,-0.224805,-25.803179
11.185,2.0,1.0,1.0,34.4,33.0,33.0,3.3,2.4,2.7275,-0.14809452778803225,-0.04475375848339792,0.9626457448398078,-0.026952868347545903,-0.229083,-25.639398
11.185,2.0,1.0,1.0,34.4,33.0,33.0,3.3,2.4,2.73,-0.16233653640225446,-0.045190198800709305,0.959846500195796,-0.02815744465675456,-0.233482,-25.474476
11.185,2.0,1.0,1.0,34.4,33.0,33.0,3.3,2.4,2.7325,-0.1766587540723381,-0.04561841800981228,0.9567984812714871,-0.029401955423655,-0.238006,-25.308388
11.185,2.0,1.0,1.0,34.4,33.0,33.0,3.3,2.4,2.735,-0.19105797747876782,-0.04603746441476715,0.9534958022124648,-0.03068769814174196,-0.242662,-25.141107
11.185,2.0,1.0,1.0,34.4,33.0,33.0,3.3,2.4,2.7375,-0.2055307920253799,-0.04644632411544795,0.9499324862781169,-0.0320160151375818,-0.247453,-24.972608
11.185,2.0,1.0,1.0,34.4,33.0,33.0,3.3,2.4,2.74,-0.22007356268804884,-0.04684391699170434,0.9461024669099939,-0.03338829543914599,-0.252386,-24.802861
11.185,2.0,1.0,1.0,34.4,33.0,33.0,3.3,2.4,2.7425,-0.23468242450324567,-0.04722909238473283,0.9419995889484847,-0.034805976755497126,-0.257467,-24.631837
11.185,2.0,1.0,1.0,34.4,33.0,33.0,3.3,2.4,2.745,-0.24935327267595067,-0.04760062444682637,0.9376176099999851,-0.036270547576784586,-0.262702,-24.459506
11.185,2.0,1.0,1.0,34.4,33.0,33.0,3.3,2.4,2.7475,-0.26408175228387054,-0.04795720712730817,0.9329502019559965,-0.03778354940424983,-0.268097,-24.285835
11.185,2.0,1.0,1.0,34.4,33.0,33.0,3.3,2.4,2.75,-0.278863247551959,-0.0482974487586344,0.927990952664808,-0.0393465791207243,-0.273659,-24.110791
11.185,2.0,1.0,1.0,34.4,33.0,33.0,3.3,2.4,2.7525,-0.293692870667814,-0.048619866202308765,0.9227333677555332,-0.040961291512916734,-0.279396,-23.934339
11.185,2.0,1.0,1.0,34.4,33.0,33.0,3.3,2.4,2.755,-0.3085654501045147,-0.04892287850933341,0.9171708726133017,-0.04262940195763581,-0.285316,-23.756443
11.185,2.0,1.0,1.0,34.4,33.0,33.0,3.3,2.4,2.7575,-0.32347551841290473,-0.04920480004430272,0.9112968145033474,-0.0443526892849745,-0.291427,-23.577063
11.185,2.0,1.0,1.0,34.4,33.0,33.0,3.3,2.4,2.76,-0.33841729943978915,-0.049463833015863594,0.9051044648406277,-0.04613299883234952,-0.297739,-23.396161
11.185,2.0,1.0,1.0,34.4,33.0,33.0,3.3,2.4,2.7625,-0.3533846949224381,-0.04969805934897071,0.8985870216003987,-0.04797224570417961,-0.30426,-23.213693
11.185,2.0,1.0,1.0,34.4,33.0,33.0,3.3,2.4,2.765,-0.3683712704023227,-0.04990543182603935,0.8917376118639447,-0.049872418252822855,-0.311001,-23.029617
11.185,2.0,1.0,1.0,34.4,33.0,33.0,3.3,2.4,2.7675,-0.38337024039268935,-0.05008376441456235,0.8845492944924123,-0.05183558179718112,-0.317972,-22.843884
11.185,2.0,1.0,1.0,34.4,33.0,33.0,3.3,2.4,2.77,-0.3983744527246642,-0.05023072168785409,0.8770150629204374,-0.053863882596070646,-0.325187,-22.656448
11.185,2.0,1.0,1.0,34.4,33.0,33.0,3.3,2.4,2.7725,-0.41337637198512156,-0.05034380723304645,0.8691278480600897,-0.055959552093982394,-0.332656,-22.467257
11.185,2.0,1.0,1.0,34.4,33.0,33.0,3.3,2.4,2.775,-0.42836806194635485,-0.050420350926091186,0.8608805213046116,-0.05812491145717474,-0.340393,-22.276257
11.185,2.0,1.0,1.0,34.4,33.0,33.0,3.3,2.4,2.7775,-0.4433411668719184,-0.050457494936962013,0.8522658976205563,-0.06036237641803969,-0.348413,-22.083392
11.185,2.0,1.0,1.0,34.4,33.0,33.0,3.3,2.4,2.78,-0.45828689156521424,-0.050452178309193296,0.8432767387164252,-0.06267446244526866,-0.356732,-21.888601
11.185,2.0,1.0,1.0,34.4,33.0,33.0,3.3,2.4,2.7825,-0.4731959800062121,-0.05040111993588701,0.833905756275851,-0.06506379025634292,-0.365365,-21.691824
11.185,2.0,1.0,1.0,34.4,33.0,33.0,3.3,2.4,2.785,-0.48805869239740995,-0.050300799728905804,0.8241456152439105,-0.0675330916871437,-0.374331,-21.492993
11.185,2.0,1.0,1.0,34.4,33.0,33.0,3.3,2.4,2.7875,-0.5028647804114958,-0.05014743774854933,0.8139889371566738,-0.07008521593071744,-0.383649,-21.292039
11.185,2.0,1.0,1.0,34.4,33.0,33.0,3.3,2.4,2.79,-0.5176034604000821,-0.04993697102691753,0.8034283035067079,-0.07272313615319308,-0.393341,-21.088889
11.185,2.0,1.0,1.0,34.4,33.0,33.0,3.3,2.4,2.7925,-0.5322633842839156,-0.049665027778580305,0.7924562591415453,-0.07544995648909678,-0.403428,-20.883465
11.185,2.0,1.0,1.0,34.4,33.0,33.0,3.3,2.4,2.795,-0.5468326077997088,-0.0493268986461538,0.7810653156984061,-0.07826891941036489,-0.413936,-20.675685
11.185,2.0,1.0,1.0,34.4,33.0,33.0,3.3,2.4,2.7975,-0.5612985557256027,-0.04891750457479194,0.7692479550876301,-0.08118341345255412,-0.424892,-20.465463
11.185,2.0,1.0,1.0,34.4,33.0,33.0,3.3,2.4,2.8,-0.5756479836452155,-0.04843136084708994,0.7569966330498493,-0.08419698126729139,-0.436325,-20.252706
11.185,2.0,1.0,1.0,34.4,33.0,33.0,3.3,2.4,2.8025,-0.5898669357373657,-0.04786253673687198,0.7443037828292797,-0.08731332795079716,-0.448266,-20.037318
11.185,2.0,1.0,1.0,34.4,33.0,33.0,3.3,2.4,2.805,-0.6039406979931697,-0.0472046101549095,0.7311618190288666,-0.09053632957302976,-0.460751,-19.819197
11.185,2.0,1.0,1.0,34.4,33.0,33.0,3.3,2.4,2.8075,-0.6178537461618884,-0.04645061655947963,0.7175631417440937,-0.0938700417988674,-0.473818,-19.598233
11.185,2.0,1.0,1.0,34.4,33.0,33.0,3.3,2.4,2.81,-0.6315896876089533,-0.0455929912872157,0.7035001411134822,-0.09731870844951906,-0.487509,-19.374311
11.185,2.0,1.0,1.0,34.4,33.0,33.0,3.3,2.4,2.8125,-0.64513119613079,-0.0446235043216044,0.688965202478047,-0.100886769796125,-0.50187,-19.147309
11.185,2.0,1.0,1.0,34.4,33.0,33.0,3.3,2.4,2.815,-0.658459938607466,-0.04353318635404976,0.6739507124129726,-0.10457887030452878,-0.516951,-18.917098
11.185,2.0,1.0,1.0,34.4,33.0,33.0,3.3,2.4,2.8175,-0.6715564921815034,-0.042312244800996525,0.6584490659875525,-0.10839986545558226,-0.532809,-18.683539
11.185,2.0,1.0,1.0,34.4,33.0,33.0,3.3,2.4,2.82,-0.6844002504234115,-0.04094996821489416,0.642452675730395,-0.1123548271427663,-0.549506,-18.446486
11.185,2.0,1.0,1.0,34.4,33.0,33.0,3.3,2.4,2.8225,-0.6969693166760133,-0.03943461726035357,0.6259539829342431,-0.11644904699014674,-0.56711,-18.205784
11.185,2.0,1.0,1.0,34.4,33.0,33.0,3.3,2.4,2.825,-0.709240382452062,-0.03775330011219338,0.6089454721395205,-0.12068803672796981,-0.585698,-17.961267
11.185,2.0,1.0,1.0,34.4,33.0,33.0,3.3,2.4,2.8275,-0.721188588384756,-0.035891829760412115,0.591419689901938,-0.12507752449649848,-0.605355,-17.712761
