1,w,sub_t,h,l1,l2,l3,g1,g2,Freq,S11_re,S21_re,S11_img,S21_img,S11_dB,S21_dB
11.185,2.0,1.0,1.0,34.0,34.5,34.5,1.9,2.6,2.5,0.774583387575827,-0.0177691700066792,0.618104803007028,0.0130515086017525,-0.078739,-33.132875
11.185,2.0,1.0,1.0,34.0,34.5,34.5,1.9,2.6,2.5025,0.7696696631913428,-0.018160613049858432,0.6240282760034582,0.013105994737836602,-0.079758,-32.996641
11.185,2.0,1.0,1.0,34.0,34.5,34.5,1.9,2.6,2.505,0.7646808891572316,-0.01856074722934427,0.6299447258713973,0.01315833848041155,-0.0808,-32.859695
11.185,2.0,1.0,1.0,34.0,34.5,34.5,1.9,2.6,2.5075,0.7596161117636586,-0.01896980389327055,0.6358535941359895,0.013208413924454173,-0.081865,-32.722021
11.185,2.0,1.0,1.0,34.0,34.5,34.5,1.9,2.6,2.51,0.7544743587382529,-0.019388022004384085,0.6417543025847654,0.01325608884830998,-0.082955,-32.583606
11.185,2.0,1.0,1.0,34.0,34.5,34.5,1.9,2.6,2.5125,0.7492546388006848,-0.019815648439210323,0.6476462524948778,0.013301224370396493,-0.084071,-32.444434
11.185,2.0,1.0,1.0,34.0,34.5,34.5,1.9,2.6,2.515,0.7439559412034105,-0.020252938300811145,0.6535288238253657,0.0133436745849853,-0.085212,-32.30449
11.185,2.0,1.0,1.0,34.0,34.5,34.5,1.9,2.6,2.5175,0.7385772352580277,-0.020700155245822048,0.6594013743725042,0.013383286175626306,-0.086381,-32.16376
11.185,2.0,1.0,1.0,34.0,34.5,34.5,1.9,2.6,2.52,0.7331174698466293,-0.021157571826501076,0.6652632388862054,0.01341989800466734,-0.087578,-32.022226
11.185,2.0,1.0,1.0,34.0,34.5,34.5,1.9,2.6,2.5225,0.7275755729175484,-0.021625469848553035,0.6711137281452544,0.013453340677201926,-0.088804,-31.879874
11.185,2.0,1.0,1.0,34.0,34.5,34.5,1.9,2.6,2.525,0.7219504509648116,-0.022104140745543004,0.6769521279890565,0.013483436077647817,-0.090059,-31.736685
11.185,2.0,1.0,1.0,34.0,34.5,34.5,1.9,2.6,2.5275,0.7162409884906195,-0.022593885970750967,0.6827776983033826,0.013509996877017153,-0.091346,-31.592644
11.185,2.0,1.0,1.0,34.0,34.5,34.5,1.9,2.6,2.53,0.7104460474501268,-0.02309501740736732,0.6885896719574282,0.013532826008784608,-0.092664,-31.447734
11.185,2.0,1.0,1.0,34.0,34.5,34.5,1.9,2.6,2.5325,0.7045644666777491,-0.02360785779797919,0.694387253689316,0.013551716111092434,-0.094016,-31.301935
11.185,2.0,1.0,1.0,34.0,34.5,34.5,1.9,2.6,2.535,0.6985950612941912,-0.024132741194346847,0.7001696189369686,0.013566448932848155,-0.095401,-31.155231
11.185,2.0,1.0,1.0,34.0,34.5,34.5,1.9,2.6,2.5375,0.6925366220933636,-0.02467001342852244,0.7059359126110373,0.01357679470107168,-0.096822,-31.007603
11.185,2.0,1.0,1.0,34.0,34.5,34.5,1.9,2.6,2.54,0.6863879149082817,-0.025220032606422384,0.7116852478063532,0.013582511446630986,-0.09828,-30.859031
11.185,2.0,1.0,1.0,34.0,34.5,34.5,1.9,2.6,2.5425,0.6801476799550262,-0.025783169625019864,0.7174167044480834,0.01358334428526837,-0.099776,-30.709496
11.185,2.0,1.0,1.0,34.0,34.5,34.5,1.9,2.6,2.545,0.6738146311537841,-0.02635980871438771,0.7231293278685038,0.013579024650560436,-0.101311,-30.558978
11.185,2.0,1.0,1.0,34.0,34.5,34.5,1.9,2.6,2.5475,0.667387455425945,-0.026950348005883244,0.7288221273099637,0.013569269475171205,-0.102887,-30.407456
11.185,2.0,1.0,1.0,34.0,34.5,34.5,1.9,2.6,2.55,0.6608648119661664,-0.027555200127836906,0.7344940743493144,0.013553780316448357,-0.104506,-30.254911
11.185,2.0,1.0,1.0,34.0,34.5,34.5,1.9,2.6,2.5525,0.654245331488304,-0.028174792830170256,0.7401441012386563,0.013532242422073296,-0.106168,-30.101319
11.185,2.0,1.0,1.0,34.0,34.5,34.5,1.9,2.6,2.555,0.6475276154440035,-0.028809569639443863,0.7457710991568949,0.01350432373110401,-0.107876,-29.946659
11.185,2.0,1.0,1.0,34.0,34.5,34.5,1.9,2.6,2.5575,0.6407102352127306,-0.029459990545908234,0.751373916366135,0.013469673805342476,-0.109632,-29.790907
11.185,2.0,1.0,1.0,34.0,34.5,34.5,1.9,2.6,2.56,0.6337917312619586,-0.030126532724203205,0.7569513562664496,0.013427922685511592,-0.111436,-29.634042
11.185,2.0,1.0,1.0,34.0,34.5,34.5,1.9,2.6,2.5625,0.6267706122761637,-0.030809691289431236,0.7625021753420461,0.013378679666235006,-0.113292,-29.476038
11.185,2.0,1.0,1.0,34.0,34.5,34.5,1.9,2.6,2.565,0.6196453542532312,-0.0315099800904056,0.7680250809912735,0.013321531983274645,-0.1152,-29.316872
11.185,2.0,1.0,1.0,34.0,34.5,34.5,1.9,2.6,2.5675,0.6124143995668351,-0.032227932541951936,0.7735187292322551,0.013256043405886988,-0.117164,-29.156517
11.185,2.0,1.0,1.0,34.0,34.5,34.5,1.9,2.6,2.57,0.6050761559932764,-0.03296410249822058,0.7789817222752599,0.01318175272650585,-0.119185,-28.994948
11.185,2.0,1.0,1.0,34.0,34.5,34.5,1.9,2.6,2.5725,0.5976289957012376,-0.03371906516904282,0.7844126059521459,0.013098172139240142,-0.121267,-28.832138
11.185,2.0,1.0,1.0,34.0,34.5,34.5,1.9,2.6,2.575,0.5900712542028536,-0.03449341808143614,0.7898098669923633,0.01300478549788161,-0.12341,-28.66806
11.185,2.0,1.0,1.0,34.0,34.5,34.5,1.9,2.6,2.5775,0.58240122926447,-0.035287782088437046,0.7951719301340797,0.012901046443241495,-0.125618,-28.502685
11.185,2.0,1.0,1.0,34.0,34.5,34.5,1.9,2.6,2.58,0.5746171797754205,-0.036102802427498394,0.8004971550579673,0.0127863763886683,-0.127894,-28.335984
11.185,2.0,1.0,1.0,34.0,34.5,34.5,1.9,2.6,2.5825,0.5667173245731278,-0.036939149830751264,0.8057838331300651,0.012660162351529333,-0.130241,-28.167927
11.185,2.0,1.0,1.0,34.0,34.5,34.5,1.9,2.6,2.585,0.5586998412228379,-0.03779752168946923,0.8110301839388757,0.012521754617254794,-0.132661,-27.998483
11.185,2.0,1.0,1.0,34.0,34.5,34.5,1.9,2.6,2.5875,0.5505628647502854,-0.038678643275111384,0.8162343516104915,0.012370464221233363,-0.135158,-27.82762
11.185,2.0,1.0,1.0,34.0,34.5,34.5,1.9,2.6,2.59,0.5423044863256303,-0.039583269019328085,0.8213944008840102,0.012205560232395206,-0.137735,-27.655306
11.185,2.0,1.0,1.0,34.0,34.5,34.5,1.9,2.6,2.5925,0.5339227518970396,-0.0405121838553099,0.826508312927821,0.012026266820705157,-0.140396,-27.481506
11.185,2.0,1.0,1.0,34.0,34.5,34.5,1.9,2.6,2.595,0.5254156607723931,-0.041466204622817686,0.8315739808754669,0.011831760088999664,-0.143145,-27.306186
11.185,2.0,1.0,1.0,34.0,34.5,34.5,1.9,2.6,2.5975,0.5167811641476745,-0.04244618153916525,0.8365892050577217,0.01162116464760923,-0.145986,-27.12931
11.185,2.0,1.0,1.0,34.0,34.5,34.5,1.9,2.6,2.6,0.5080171635808102,-0.04345299973830484,0.8415516879052128,0.011393549907993452,-0.148922,-26.95084
11.185,2.0,1.0,1.0,34.0,34.5,34.5,1.9,2.6,2.6025,0.4991215094099289,-0.04448758087999864,0.8464590284933429,0.011147926069147862,-0.151959,-26.770738
11.185,2.0,1.0,1.0,34.0,34.5,34.5,1.9,2.6,2.605,0.4900919991152822,-0.04555088483082302,0.8513087166984483,0.010883239767791233,-0.155102,-26.588964
11.185,2.0,1.0,1.0,34.0,34.5,34.5,1.9,2.6,2.6075,0.48092637562448104,-0.046643911418438884,0.856098126930897,0.010598369360270333,-0.158355,-26.405478
11.185,2.0,1.0,1.0,34.0,34.5,34.5,1.9,2.6,2.61,0.471622325561148,-0.04776770226014187,0.8608245114073392,0.01029211980069021,-0.161724,-26.220237
11.185,2.0,1.0,1.0,34.0,34.5,34.5,1.9,2.6,2.6125,0.4621774774376938,-0.048923342666179905,0.8654849929203204,0.00996321707594015,-0.165215,-26.033197
11.185,2.0,1.0,1.0,34.0,34.5,34.5,1.9,2.6,2.615,0.4525893997936704,-0.05011196361764397,0.8700765570590526,0.009610302153992126,-0.168834,-25.844313
11.185,2.0,1.0,1.0,34.0,34.5,34.5,1.9,2.6,2.6175,0.44285559928208695,-0.0513347438178858,0.8745960438301941,0.009231924397035773,-0.172588,-25.653538
11.185,2.0,1.0,1.0,34.0,34.5,34.5,1.9,2.6,2.62,0.4329735187072181,-0.05259291181535199,0.8790401386218986,0.008826534385615833,-0.176484,-25.460823
11.185,2.0,1.0,1.0,34.0,34.5,34.5,1.9,2.6,2.6225,0.42294053501881756,-0.05388774819440458,0.8834053624482086,0.00839247609387593,-0.180529,-25.266119
11.185,2.0,1.0,1.0,34.0,34.5,34.5,1.9,2.6,2.625,0.412753957269416,-0.0552205878290593,0.887688061403838,0.00792797834920173,-0.184732,-25.069372
11.185,2.0,1.0,1.0,34.0,34.5,34.5,1.9,2.6,2.6275,0.4024110245434343,-0.056592822192577386,0.8918843952515361,0.00743114550188751,-0.1891,-24.87053
11.185,2.0,1.0,1.0,34.0,34.5,34.5,1.9,2.6,2.63,0.39190890386944127,-0.05800590171337585,0.8959903250553842,0.0068999472218195905,-0.193644,-24.669536
11.185,2.0,1.0,1.0,34.0,34.5,34.5,1.9,2.6,2.6325,0.3812446881299964,-0.05946133816471907,0.9000015997633968,0.0063322073294355425,-0.198373,-24.466331
11.185,2.0,1.0,1.0,34.0,34.5,34.5,1.9,2.6,2.635,0.3704153939872956,-0.06096070707198439,0.9039137416315624,0.005725591557232597,-0.203298,-24.260857
11.185,2.0,1.0,1.0,34.0,34.5,34.5,1.9,2.6,2.6375,0.35941795984746744,-0.0625056501168169,0.9077220303687769,0.005077594125694265,-0.208431,-24.05305
11.185,2.0,1.0,1.0,34.0,34.5,34.5,1.9,2.6,2.64,0.3482492438919031,-0.06409787751205767,0.911421485867781,0.004385523003470924,-0.213783,-23.842844
11.185,2.0,1.0,1.0,34.0,34.5,34.5,1.9,2.6,2.6425,0.33690602221082944,-0.06573917031470193,0.9150068493710161,0.0036464837057783987,-0.219368,-23.630174
11.185,2.0,1.0,1.0,34.0,34.5,34.5,1.9,2.6,2.645,0.3253849870824941,-0.0674313826361166,0.9184725629019294,0.0028573614669942476,-0.2252,-23.414968
11.185,2.0,1.0,1.0,34.0,34.5,34.5,1.9,2.6,2.6475,0.3136827454513068,-0.06917644369897415,0.9218127467715227,0.0020148016030474437,-0.231295,-23.197153
11.185,2.0,1.0,1.0,34.0,34.5,34.5,1.9,2.6,2.65,0.3017958176703188,-0.07097635967850853,0.9250211749463079,0.0011151878560713014,-0.23767,-22.976654
11.185,2.0,1.0,1.0,34.0,34.5,34.5,1.9,2.6,2.6525,0.2897206365881084,-0.07283321525128496,0.9280912480371112,0.00015461848753968468,-0.244343,-22.753391
11.185,2.0,1.0,1.0,34.0,34.5,34.5,1.9,2.6,2.655,0.2774535470778048,-0.07474917475718239,0.9310159636378236,-0.0008711201437206815,-0.251333,-22.527282
11.185,2.0,1.0,1.0,34.0,34.5,34.5,1.9,2.6,2.6575,0.26499080612764,-0.07672648285900426,0.9337878837086158,-0.0019665828161375054,-0.258661,-22.298242
11.185,2.0,1.0,1.0,34.0,34.5,34.5,1.9,2.6,2.66,0.25232858363854715,-0.07876746455825524,0.9363990986590047,-0.0031366978286534253,-0.266352,-22.066181
11.185,2.0,1.0,1.0,34.0,34.5,34.5,1.9,2.6,2.6625,0.23946296410624,-0.08087452439412167,0.9388411877415096,-0.0043868029124954746,-0.27443,-21.831006
11.185,2.0,1.0,1.0,34.0,34.5,34.5,1.9,2.6,2.665,0.22638994940394164,-0.0830501446143135,0.941105175315992,-0.00572268510115134,-0.282922,-21.59262
11.185,2.0,1.0,1.0,34.0,34.5,34.5,1.9,2.6,2.6675,0.21310546292929253,-0.08529688205962367,0.9431814824871149,-0.00715062504491938,-0.29186,-21.350922
11.185,2.0,1.0,1.0,34.0,34.5,34.5,1.9,2.6,2.67,0.1996053554365784,-0.08761736344692617,0.9450598735519031,-0.008677446320817486,-0.301275,-21.105806
11.185,2.0,1.0,1.0,34.0,34.5,34.5,1.9,2.6,2.6725,0.1858854129459423,-0.09001427866550107,0.946729396620005,-0.010310570361790717,-0.311203,-20.857162
11.185,2.0,1.0,1.0,34.0,34.5,34.5,1.9,2.6,2.675,0.17194136720746783,-0.09249037161610804,0.9481783176849269,-0.01205807771214263,-0.321685,-20.604874
11.185,2.0,1.0,1.0,34.0,34.5,34.5,1.9,2.6,2.6775,0.15776890930359938,-0.09504842801752025,0.9493940473290181,-0.013928776410099347,-0.332764,-20.348823
11.185,2.0,1.0,1.0,34.0,34.5,34.5,1.9,2.6,2.68,0.14336370710297144,-0.09769125947671356,0.9503630591370401,-0.015932278404589852,-0.344488,-20.088883
11.185,2.0,1.0,1.0,34.0,34.5,34.5,1.9,2.6,2.6825,0.12872142743789503,-0.10042168296100083,0.9510707987716592,-0.018079085032911692,-0.356909,-19.824922
11.185,2.0,1.0,1.0,34.0,34.5,34.5,1.9,2.6,2.685,0.1138377640735735,-0.10324249461606634,0.9515015825278595,-0.020380682720064856,-0.370087,-19.556804
11.185,2.0,1.0,1.0,34.0,34.5,34.5,1.9,2.6,2.6875,0.09870847277854151,-0.1061564366343311,0.9516384840312065,-0.02284965021009922,-0.384085,-19.284385
11.185,2.0,1.0,1.0,34.0,34.5,34.5,1.9,2.6,2.69,0.08332941510371314,-0.10916615558242766,0.9514632075765018,-0.025499778805364377,-0.398975,-19.007515
11.185,2.0,1.0,1.0,34.0,34.5,34.5,1.9,2.6,2.6925,0.06769661284556742,-0.11227415023109616,0.9509559464187881,-0.028346207270948432,-0.414839,-18.726039
11.185,2.0,1.0,1.0,34.0,34.5,34.5,1.9,2.6,2.695,0.051806315624976174,-0.1154827064783368,0.9500952241289999,-0.031405573257590746,-0.431764,-18.439792
11.185,2.0,1.0,1.0,34.0,34.5,34.5,1.9,2.6,2.6975,0.03565508457808266,-0.11879381639578245,0.9488577169147312,-0.03469618330409045,-0.44985,-18.148604
11.185,2.0,1.0,1.0,34.0,34.5,34.5,1.9,2.6,2.7,0.01923989585712409,-0.12220907773199326,0.9472180545881006,-0.03823820369415148,-0.469209,-17.852298
11.185,2.0,1.0,1.0,34.0,34.5,34.5,1.9,2.6,2.7025,0.00255826851070634,-0.12572956934117566,0.9451485976466381,-0.04205387465343056,-0.489966,-17.550688
11.185,2.0,1.0,1.0,34.0,34.5,34.5,1.9,2.6,2.705,-0.014391577602748938,-0.12935569692958054,0.9426191877348598,-0.0461677505651917,-0.512262,-17.24358
11.185,2.0,1.0,1.0,34.0,34.5,34.5,1.9,2.6,2.7075,-0.031610526864924826,-0.13308700217216507,0.9395968685967294,-0.05060696903407888,-0.536256,-16.930774
11.185,2.0,1.0,1.0,34.0,34.5,34.5,1.9,2.6,2.71,-0.049098327226610027,-0.13692192658388594,0.93604557454842,-0.055401551701567214,-0.562128,-16.61206
11.185,2.0,1.0,1.0,34.0,34.5,34.5,1.9,2.6,2.7125,-0.06685329303848578,-0.14085751945280395,0.9319257835496302,-0.06058473966063922,-0.590081,-16.287224
11.185,2.0,1.0,1.0,34.0,34.5,34.5,1.9,2.6,2.715,-0.08487193800144435,-0.14488907655735758,0.9271941322087687,-0.06619336605289931,-0.620349,-15.956041
11.185,2.0,1.0,1.0,34.0,34.5,34.5,1.9,2.6,2.7175,-0.10314852161684032,-0.14900969317810792,0.921802990637258,-0.07226826784438174,-0.653196,-15.618282
11.185,2.0,1.0,1.0,34.0,34.5,34.5,1.9,2.6,2.72,-0.1216744885027613,-0.15320971093206953,0.9156999961377471,-0.07885473770085559,-0.688926,-15.27371
11.185,2.0,1.0,1.0,34.0,34.5,34.5,1.9,2.6,2.7225,-0.14043777498298637,-0.15747603303888397,0.908827546510029,-0.08600301508059417,-0.727887,-14.922086
11.185,2.0,1.0,1.0,34.0,34.5,34.5,1.9,2.6,2.725,-0.1594219512607002,-0.1617912765849536,0.9011222566312453,-0.09376881278989864,-0.77048,-14.563167
11.185,2.0,1.0,1.0,34.0,34.5,34.5,1.9,2.6,2.7275,-0.17860516005816407,-0.16613272298547227,0.8925143864036915,-0.10221387081673537,-0.817171,-14.196709
11.185,2.0,1.0,1.0,34.0,34.5,34.5,1.9,2.6,2.73,-0.1979588036439438,-0.17047101896621641,0.8829272548585122,-0.11140652258035257,-0.868496,-13.822473
11.185,2.0,1.0,1.0,34.0,34.5,34.5,1.9,2.6,2.7325,-0.21744592054160317,-0.1747685698609241,0.8722766651325772,-0.12142224884011012,-0.925084,-13.440225
11.185,2.0,1.0,1.0,34.0,34.5,34.5,1.9,2.6,2.735,-0.2370191809079237,-0.17897755484004607,0.8604703795585255,-0.13234418004423412,-0.987666,-13.049743
11.185,2.0,1.0,1.0,34.0,34.5,34.5,1.9,2.6,2.7375,-0.2566184158416712,-0.18303748011295698,0.8474077050968394,-0.14426348700966032,-1.057101,-12.650828
11.185,2.0,1.0,1.0,34.0,34.5,34.5,1.9,2.6,2.74,-0.27616758148988074,-0.18687217193475147,0.8329792793325552,-0.1572795699875736,-1.134399,-12.243308
11.185,2.0,1.0,1.0,34.0,34.5,34.5,1.9,2.6,2.7425,-0.29557104539035767,-0.1903860980316493,0.8170671896259298,-0.17149991404496487,-1.220755,-11.827052
11.185,2.0,1.0,1.0,34.0,34.5,34.5,1.9,2.6,2.745,-0.31470907314566526,-0.19345989694673643,0.7995456170725478,-0.18703941999134072,-1.317583,-11.401986
11.185,2.0,1.0,1.0,34.0,34.5,34.5,1.9,2.6,2.7475,-0.33343239381951106,-0.1959449953322358,0.7802822779822227,-0.20401893956476122,-1.426569,-10.968114
11.185,2.0,1.0,1.0,34.0,34.5,34.5,1.9,2.6,2.75,-0.351555741789286,-0.197657212738547,0.75914104456114,-0.222562635395809,-1.549723,-10.52554
11.185,2.0,1.0,1.0,34.0,34.5,34.5,1.9,2.6,2.7525,-0.3688503264697309,-0.19836930717917065,0.7359862689624748,-0.24279364488958521,-1.689456,-10.074503
11.185,2.0,1.0,1.0,34.0,34.5,34.5,1.9,2.6,2.755,-0.38503529320173174,-0.19780252639303272,0.7106895137814074,-0.26482734977038386,-1.848662,-9.615413
11.185,2.0,1.0,1.0,34.0,34.5,34.5,1.9,2.6,2.7575,-0.399768444215283,-0.19561743456849218,0.6831396030001436,-0.28876134410980403,-2.030827,-9.148904
11.185,2.0,1.0,1.0,34.0,34.5,34.5,1.9,2.6,2.76,-0.4126368377392685,-0.19140463175265238,0.6532571299837924,-0.3146609735756676,-2.240155,-8.67589
11.185,2.0,1.0,1.0,34.0,34.5,34.5,1.9,2.6,2.7625,-0.4231484397806107,-0.18467653639706647,0.6210147425606428,-0.34253913808046843,-2.481715,-8.197637
11.185,2.0,1.0,1.0,34.0,34.5,34.5,1.9,2.6,2.765,-0.4307268360056672,-0.17486222886720257,0.5864645660429932,-0.37232901194271634,-2.761617,-7.71585
11.185,2.0,1.0,1.0,34.0,34.5,34.5,1.9,2.6,2.7675,-0.43471216894918174,-0.16130850276828,0.5497738382547502,-0.40384862400899607,-3.087187,-7.23276
11.185,2.0,1.0,1.0,34.0,34.5,34.5,1.9,2.6,2.77,-0.4343729174889742,-0.14329170990122939,0.511268922397466,-0.43675714665373966,-3.467144,-6.751225
11.185,2.0,1.0,1.0,34.0,34.5,34.5,1.9,2.6,2.7725,-0.42893466307279343,-0.12004649562085017,0.47148593095104985,-0.4705046666566926,-3.911704,-6.274823
11.185,2.0,1.0,1.0,34.0,34.5,34.5,1.9,2.6,2.775,-0.4176330244642129,-0.0908185406441229,0.43122280556832615,-0.5042805789731208,-4.432508,-5.807931
11.185,2.0,1.0,1.0,34.0,34.5,34.5,1.9,2.6,2.7775,-0.399797406193676,-0.054947876124018316,0.39158264354803674,-0.5369707616933158,-5.04213,-5.355747
11.185,2.0,1.0,1.0,34.0,34.5,34.5,1.9,2.6,2.78,-0.37496846977838233,-0.011985608521386942,0.35399185246732884,-0.5671398433764816,-5.752627,-4.924258
11.185,2.0,1.0,1.0,34.0,34.5,34.5,1.9,2.6,2.7825,-0.34304356310201367,0.03816173933453937,0.32017129538127526,-0.5930602254612782,-6.572053,-4.520079
11.185,2.0,1.0,1.0,34.0,34.5,34.5,1.9,2.6,2.785,-0.30443013857227136,0.09508016979488595,0.2920378510470413,-0.6128102067786494,-7.496683,-4.150172
11.185,2.0,1.0,1.0,34.0,34.5,34.5,1.9,2.6,2.7875,-0.26017008910644085,0.15772527915517884,0.2715229550918669,-0.6244544233439625,-8.495101,-3.821397
11.185,2.0,1.0,1.0,34.0,34.5,34.5,1.9,2.6,2.79,-0.21198554526104435,0.22437751446306434,0.2603172833089419,-0.6262973446750514,-9.480647,-3.539948
11.185,2.0,1.0,1.0,34.0,34.5,34.5,1.9,2.6,2.7925,-0.1622003508044371,0.2927209177914405,0.25958370947601994,-0.6171678553741777,-10.282944,-3.310723
11.185,2.0,1.0,1.0,34.0,34.5,34.5,1.9,2.6,2.795,-0.11351960657200556,0.36006259353306486,0.26971065454758675,-0.5966632911670129,-10.673713,-3.136747
11.185,2.0,1.0,1.0,34.0,34.5,34.5,1.9,2.6,2.7975,-0.0686980284620626,0.42366212457051794,0.2901850918924817,-0.5652743732593497,-10.509673,-3.018779
11.185,2.0,1.0,1.0,34.0,34.5,34.5,1.9,2.6,2.8,-0.030175249476920962,0.48109324650665125,0.3196358165357515,-0.5243410812299107,-9.868357,-2.955198
11.185,2.0,1.0,1.0,34.0,34.5,34.5,1.9,2.6,2.8025,0.00022494307982202948,0.5305415684562228,0.35604104580160983,-0.47584566270902856,-8.969997,-2.942188
11.185,2.0,1.0,1.0,34.0,34.5,34.5,1.9,2.6,2.805,0.02145755198891913,0.5709652391813033,0.3970381571754309,-0.4221047126717991,-8.010689,-2.974198
11.185,2.0,1.0,1.0,34.0,34.5,34.5,1.9,2.6,2.8075,0.033260032988775404,0.6020975401189993,0.4402467172615199,-0.36544852062942856,-7.10136,-3.044535
11.185,2.0,1.0,1.0,34.0,34.5,34.5,1.9,2.6,2.81,0.036027698758510196,0.6243224043290451,0.4835283355489565,-0.30796343848816465,-6.287517,-3.145987
11.185,2.0,1.0,1.0,34.0,34.5,34.5,1.9,2.6,2.8125,0.0306204594037885,0.638482082481551,0.525144219544181,-0.251335898012861,-5.579688,-3.271367
11.185,2.0,1.0,1.0,34.0,34.5,34.5,1.9,2.6,2.815,0.01816008364090704,0.6456756517973425,0.5638104405968613,-0.1967978989007184,-4.972834,-3.413911
11.185,2.0,1.0,1.0,34.0,34.5,34.5,1.9,2.6,2.8175,-0.0001416546991041095,0.6470883278511164,0.5986758606622732,-0.14514910875699388,-4.456165,-3.567531
11.185,2.0,1.0,1.0,34.0,34.5,34.5,1.9,2.6,2.82,-0.023106419896227887,0.6438688674227152,0.6292552449158164,-0.09682326798024357,-4.017611,-3.726937
11.185,2.0,1.0,1.0,34.0,34.5,34.5,1.9,2.6,2.8225,-0.049664248640602975,0.63705507997366,0.6553456456757359,-0.05197104166526155,-3.645721,-3.887652
11.185,2.0,1.0,1.0,34.0,34.5,34.5,1.9,2.6,2.825,-0.07888917277484712,0.6275382689676198,0.6769448873492411,-0.010540663330543843,-3.33035,-4.045971
11.185,2.0,1.0,1.0,34.0,34.5,34.5,1.9,2.6,2.8275,-0.11000741403322746,0.6160547808631057,0.694181981043871,0.027653351720606477,-3.062816,-4.198871
11.185,2.0,1.0,1.0,34.0,34.5,34.5,1.9,2.6,2.83,-0.1423888990661342,0.6031939787706242,0.707262758973579,0.06287666392334207,-2.835833,-4.343925
