1,w,sub_t,h,l1,l2,l3,g1,g2,Freq,S11_re,S21_re,S11_img,S21_img,S11_dB,S21_dB
11.185,2.0,1.0,1.0,33.4,33.3,33.3,2.3,2.8,2.5,0.858899574565906,-0.00849092202330287,0.499489216091325,0.00800654973996346,-0.055958,-38.65821
11.185,2.0,1.0,1.0,33.4,33.3,33.3,2.3,2.8,2.5025,0.8555364101371835,-0.008667309737209347,0.5051088129701962,0.00805081219778362,-0.056488,-38.540648
11.185,2.0,1.0,1.0,33.4,33.3,33.3,2.3,2.8,2.505,0.8521214857685769,-0.00884692230146155,0.5107287464040086,0.008094437636938715,-0.057027,-38.422775
11.185,2.0,1.0,1.0,33.4,33.3,33.3,2.3,2.8,2.5075,0.8486542793545813,-0.00902982466314488,0.5163487898511391,0.008137391265962702,-0.057576,-38.304582
11.185,2.0,1.0,1.0,33.4,33.3,33.3,2.3,2.8,2.51,0.845134260200822,-0.00921608335389923,0.5219687096561479,0.008179636920444901,-0.058134,-38.186062
11.185,2.0,1.0,1.0,33.4,33.3,33.3,2.3,2.8,2.5125,0.841560888875473,-0.009405766534396549,0.5275882648100543,0.00822113700613271,-0.058703,-38.067208
11.185,2.0,1.0,1.0,33.4,33.3,33.3,2.3,2.8,2.515,0.8379336170583095,-0.00959894404019971,0.5332072067023969,0.008261852439475718,-0.059281,-37.948012
11.185,2.0,1.0,1.0,33.4,33.3,33.3,2.3,2.8,2.5175,0.8342518873873846,-0.009795687429048,0.5388252788647553,0.008301742585485014,-0.059871,-37.828467
11.185,2.0,1.0,1.0,33.4,33.3,33.3,2.3,2.8,2.52,0.8305151333033073,-0.009996070029617903,0.5444422167054348,0.00834076519277426,-0.06047,-37.708565
11.185,2.0,1.0,1.0,33.4,33.3,33.3,2.3,2.8,2.5225,0.8267227788911135,-0.010200166991807147,0.5500577472349495,0.008378876325641754,-0.061081,-37.588298
11.185,2.0,1.0,1.0,33.4,33.3,33.3,2.3,2.8,2.525,0.8228742387197162,-0.010408055338593262,0.5556715887819867,0.008416030293044711,-0.061702,-37.467658
11.185,2.0,1.0,1.0,33.4,33.3,33.3,2.3,2.8,2.5275,0.818968917678916,-0.01061981401951937,0.5612834506994735,0.008452179574309552,-0.062336,-37.346637
11.185,2.0,1.0,1.0,33.4,33.3,33.3,2.3,2.8,2.53,0.8150062108139776,-0.010835523965860927,0.5668930330603695,0.008487274741412316,-0.062981,-37.225228
11.185,2.0,1.0,1.0,33.4,33.3,33.3,2.3,2.8,2.5325,0.8109855031577544,-0.011055268147529008,0.5725000263427928,0.008521264377654086,-0.063637,-37.103422
11.185,2.0,1.0,1.0,33.4,33.3,33.3,2.3,2.8,2.535,0.8069061695603587,-0.011279131631769081,0.5781041111040739,0.008554094992547844,-0.064307,-36.98121
11.185,2.0,1.0,1.0,33.4,33.3,33.3,2.3,2.8,2.5375,0.8027675745163858,-0.011507201643713022,0.5837049576432938,0.008585710932720389,-0.064988,-36.858585
11.185,2.0,1.0,1.0,33.4,33.3,33.3,2.3,2.8,2.54,0.7985690719896807,-0.01173956762884727,0.5893022256518747,0.008616054288623913,-0.065683,-36.735539
11.185,2.0,1.0,1.0,33.4,33.3,33.3,2.3,2.8,2.5425,0.7943100052356614,-0.011976321317459541,0.5948955638517486,0.00864506479683885,-0.066391,-36.612061
11.185,2.0,1.0,1.0,33.4,33.3,33.3,2.3,2.8,2.545,0.7899897066212016,-0.012217556791130194,0.600484609620615,0.008672679737737521,-0.067113,-36.488145
11.185,2.0,1.0,1.0,33.4,33.3,33.3,2.3,2.8,2.5475,0.7856074974420943,-0.01246337055133402,0.6060689886037768,0.008698833828264061,-0.067848,-36.36378
11.185,2.0,1.0,1.0,33.4,33.3,33.3,2.3,2.8,2.55,0.7811626877380957,-0.012713861590223441,0.6116483143120339,0.008723459109573138,-0.068598,-36.238959
11.185,2.0,1.0,1.0,33.4,33.3,33.3,2.3,2.8,2.5525,0.7766545761055915,-0.012969131463663203,0.6172221877050554,0.0087464848292533,-0.069362,-36.113672
11.185,2.0,1.0,1.0,33.4,33.3,33.3,2.3,2.8,2.555,0.772082449507894,-0.013229284366589645,0.6227901967596702,0.008767837317845728,-0.070142,-35.987909
11.185,2.0,1.0,1.0,33.4,33.3,33.3,2.3,2.8,2.5575,0.7674455830832062,-0.01349442721077117,0.6283519160224594,0.008787439859351615,-0.070937,-35.861662
11.185,2.0,1.0,1.0,33.4,33.3,33.3,2.3,2.8,2.56,0.7627432399502913,-0.013764669705045822,0.6339069061460102,0.008805212555402842,-0.071748,-35.734922
11.185,2.0,1.0,1.0,33.4,33.3,33.3,2.3,2.8,2.5625,0.7579746710118886,-0.01404012443811605,0.6394547134081704,0.008821072182751653,-0.072575,-35.607677
11.185,2.0,1.0,1.0,33.4,33.3,33.3,2.3,2.8,2.565,0.7531391147559189,-0.014320906963982135,0.6449948692136072,0.008834932043713451,-0.073418,-35.47992
11.185,2.0,1.0,1.0,33.4,33.3,33.3,2.3,2.8,2.5675,0.7482357970545457,-0.014607135890097272,0.650526889576935,0.008846701809175156,-0.074279,-35.35164
11.185,2.0,1.0,1.0,33.4,33.3,33.3,2.3,2.8,2.57,0.7432639309611456,-0.014898932968329838,0.6560502745866518,0.008856287353757623,-0.075157,-35.222827
11.185,2.0,1.0,1.0,33.4,33.3,33.3,2.3,2.8,2.5725,0.7382227165052613,-0.01519642318882046,0.6615645078490832,0.008863590582695507,-0.076054,-35.09347
11.185,2.0,1.0,1.0,33.4,33.3,33.3,2.3,2.8,2.575,0.7331113404856202,-0.015499734876821844,0.6670690559114938,0.008868509249970088,-0.076969,-34.963561
11.185,2.0,1.0,1.0,33.4,33.3,33.3,2.3,2.8,2.5775,0.7279289762613051,-0.015808999792613358,0.6725633676634852,0.008870936767202612,-0.077903,-34.833087
11.185,2.0,1.0,1.0,33.4,33.3,33.3,2.3,2.8,2.58,0.7226747835411783,-0.016124353234581758,0.6780468737157525,0.00887076200278442,-0.078857,-34.702038
11.185,2.0,1.0,1.0,33.4,33.3,33.3,2.3,2.8,2.5825,0.717347908171667,-0.01644593414556233,0.683518985755239,0.008867869070686521,-0.079831,-34.570404
11.185,2.0,1.0,1.0,33.4,33.3,33.3,2.3,2.8,2.585,0.7119474819230357,-0.01677388522253491,0.6889790958756623,0.008862137108356573,-0.080825,-34.438173
11.185,2.0,1.0,1.0,33.4,33.3,33.3,2.3,2.8,2.5875,0.7064726222742764,-0.01710835302977202,0.6944265758823529,0.008853440043072624,-0.081841,-34.305335
11.185,2.0,1.0,1.0,33.4,33.3,33.3,2.3,2.8,2.59,0.700922432196771,-0.01744948811553421,0.6998607765702656,0.008841646346083072,-0.082879,-34.171877
11.185,2.0,1.0,1.0,33.4,33.3,33.3,2.3,2.8,2.5925,0.6952959999368823,-0.01779744513241214,0.7052810269740072,0.008826618773818148,-0.083939,-34.037788
11.185,2.0,1.0,1.0,33.4,33.3,33.3,2.3,2.8,2.595,0.6895923987976649,-0.01815238296141101,0.7106866335886071,0.008808214095411626,-0.085023,-33.903057
11.185,2.0,1.0,1.0,33.4,33.3,33.3,2.3,2.8,2.5975,0.6838106869198798,-0.018514464839875715,0.716076879559757,0.008786282805721541,-0.08613,-33.767671
11.185,2.0,1.0,1.0,33.4,33.3,33.3,2.3,2.8,2.6,0.6779499070625356,-0.01888385849335373,0.7214510238421205,0.008760668822985217,-0.087262,-33.631618
11.185,2.0,1.0,1.0,33.4,33.3,33.3,2.3,2.8,2.6025,0.6720090863831986,-0.019260736271489852,0.7268083003242699,0.008731209170185668,-0.088419,-33.494885
11.185,2.0,1.0,1.0,33.4,33.3,33.3,2.3,2.8,2.605,0.665987236218314,-0.019645275288047496,0.7321479169187303,0.008697733639144365,-0.089603,-33.35746
11.185,2.0,1.0,1.0,33.4,33.3,33.3,2.3,2.8,2.6075,0.659883351863837,-0.02003765756514718,0.7374690546155113,0.008660064436289926,-0.090813,-33.219331
11.185,2.0,1.0,1.0,33.4,33.3,33.3,2.3,2.8,2.61,0.6536964123564715,-0.020438070181809525,0.7427708664974325,0.008618015808979283,-0.092051,-33.080482
11.185,2.0,1.0,1.0,33.4,33.3,33.3,2.3,2.8,2.6125,0.6474253802558572,-0.020846705426886145,0.7480524767154495,0.00857139365117132,-0.093317,-32.940902
11.185,2.0,1.0,1.0,33.4,33.3,33.3,2.3,2.8,2.615,0.6410692014280616,-0.021263760956457076,0.7533129794220901,0.008519995087170456,-0.094613,-32.800576
11.185,2.0,1.0,1.0,33.4,33.3,33.3,2.3,2.8,2.6175,0.6346268048307904,-0.021689439955764618,0.758551437660996,0.008463608032068153,-0.095939,-32.659491
11.185,2.0,1.0,1.0,33.4,33.3,33.3,2.3,2.8,2.62,0.628097102300737,-0.022123951305747895,0.7637668822104549,0.008402010727413357,-0.097296,-32.517631
11.185,2.0,1.0,1.0,33.4,33.3,33.3,2.3,2.8,2.6225,0.6214789883435461,-0.022567509754232072,0.7689583103786937,0.008334971250540692,-0.098686,-32.374983
11.185,2.0,1.0,1.0,33.4,33.3,33.3,2.3,2.8,2.625,0.614771339926917,-0.0230203360918125,0.77412468474855,0.00826224699587159,-0.100108,-32.231532
11.185,2.0,1.0,1.0,33.4,33.3,33.3,2.3,2.8,2.6275,0.6079730162773868,-0.02348265733246536,0.7792649318690248,0.008183584126384485,-0.101565,-32.087261
11.185,2.0,1.0,1.0,33.4,33.3,33.3,2.3,2.8,2.63,0.6010828586814218,-0.023954706898895447,0.784377940891054,0.008098716993318536,-0.103058,-31.942157
11.185,2.0,1.0,1.0,33.4,33.3,33.3,2.3,2.8,2.6325,0.594099690291468,-0.02443672481261625,0.789462562144675,0.00800736752203478,-0.104587,-31.796202
11.185,2.0,1.0,1.0,33.4,33.3,33.3,2.3,2.8,2.635,0.5870223159376902,-0.02492895788873575,0.7945176056545983,0.007909244561807291,-0.106154,-31.649381
11.185,2.0,1.0,1.0,33.4,33.3,33.3,2.3,2.8,2.6375,0.5798495219461884,-0.025431659935394646,0.7995418395909963,0.0078040431971509935,-0.10776,-31.501677
11.185,2.0,1.0,1.0,33.4,33.3,33.3,2.3,2.8,2.64,0.5725800759645369,-0.025945091957777215,0.8045339886521454,0.007691444018114498,-0.109407,-31.353073
11.185,2.0,1.0,1.0,33.4,33.3,33.3,2.3,2.8,2.6425,0.5652127267955974,-0.026469522366579616,0.8094927323753083,0.007571112346775295,-0.111095,-31.203552
11.185,2.0,1.0,1.0,33.4,33.3,33.3,2.3,2.8,2.645,0.5577462042406099,-0.02700522719078286,0.814416703372045,0.007442697416961692,-0.112826,-31.053096
11.185,2.0,1.0,1.0,33.4,33.3,33.3,2.3,2.8,2.6475,0.5501792189526858,-0.027552490294534483,0.8193044854838644,0.0073058315040041314,-0.114602,-30.901687
11.185,2.0,1.0,1.0,33.4,33.3,33.3,2.3,2.8,2.65,0.542510462301895,-0.028111603597890614,0.8241546118538868,0.0071601290010669255,-0.116424,-30.749305
11.185,2.0,1.0,1.0,33.4,33.3,33.3,2.3,2.8,2.6525,0.5347386062533026,-0.02868286730111235,0.8289655629098646,0.007005185438349118,-0.118295,-30.595933
11.185,2.0,1.0,1.0,33.4,33.3,33.3,2.3,2.8,2.655,0.5268623032593679,-0.029266590112146478,0.833735764253624,0.006840576441150225,-0.120214,-30.441551
11.185,2.0,1.0,1.0,33.4,33.3,33.3,2.3,2.8,2.6575,0.5188801861683093,-0.029863089476840743,0.8384635844516385,0.006665856622482384,-0.122186,-30.286138
11.185,2.0,1.0,1.0,33.4,33.3,33.3,2.3,2.8,2.66,0.5107908681501524,-0.03047269181135958,0.8431473327210731,0.006480558405566533,-0.12421,-30.129675
11.185,2.0,1.0,1.0,33.4,33.3,33.3,2.3,2.8,2.6625,0.502592942642369,-0.03109573273616676,0.8477852565052486,0.006284190771178739,-0.126289,-29.97214
11.185,2.0,1.0,1.0,33.4,33.3,33.3,2.3,2.8,2.665,0.49428498331716164,-0.03173255731082822,0.8523755389320454,0.006076237924404241,-0.128426,-29.813511
11.185,2.0,1.0,1.0,33.4,33.3,33.3,2.3,2.8,2.6675,0.4858655440726969,-0.032383520268757744,0.8569162961482886,0.005856157874914971,-0.130623,-29.653768
11.185,2.0,1.0,1.0,33.4,33.3,33.3,2.3,2.8,2.67,0.4773331590507636,-0.0330489862508833,0.8614055745226513,0.005623380924403313,-0.13288,-29.492886
11.185,2.0,1.0,1.0,33.4,33.3,33.3,2.3,2.8,2.6725,0.468686342683614,-0.03372933003704302,0.8658413477090781,0.00537730805427706,-0.135202,-29.330843
11.185,2.0,1.0,1.0,33.4,33.3,33.3,2.3,2.8,2.675,0.459923589773008,-0.03442493677372677,0.8702215135620963,0.005117309206145829,-0.137591,-29.167615
11.185,2.0,1.0,1.0,33.4,33.3,33.3,2.3,2.8,2.6775,0.45104337560478924,-0.03513620219656328,0.8745438908947583,0.004842721446999795,-0.140048,-29.003178
11.185,2.0,1.0,1.0,33.4,33.3,33.3,2.3,2.8,2.68,0.44204415610265296,-0.035863532845701894,0.8788062160692292,0.0045528470102938106,-0.142577,-28.837505
11.185,2.0,1.0,1.0,33.4,33.3,33.3,2.3,2.8,2.6825,0.43292436802516826,-0.03660734627195572,0.8830061394092638,0.004246951203399178,-0.145181,-28.670573
11.185,2.0,1.0,1.0,33.4,33.3,33.3,2.3,2.8,2.685,0.4236824292105132,-0.03736807123124687,0.8871412214229593,0.003924260171059092,-0.147863,-28.502353
11.185,2.0,1.0,1.0,33.4,33.3,33.3,2.3,2.8,2.6875,0.414316738873882,-0.0381461478645273,0.891208928823252,0.00358395850358402,-0.150626,-28.332818
11.185,2.0,1.0,1.0,33.4,33.3,33.3,2.3,2.8,2.69,0.4048256779630478,-0.03894202785992338,0.8952066303326021,0.003225186677532023,-0.153473,-28.161941
11.185,2.0,1.0,1.0,33.4,33.3,33.3,2.3,2.8,2.6925,0.39520760957814904,-0.03975617459337574,0.8991315922572066,0.0028470383155344073,-0.156407,-27.989693
11.185,2.0,1.0,1.0,33.4,33.3,33.3,2.3,2.8,2.695,0.3854608794624822,-0.04058906324348884,0.902980973814855,0.0024485572507354793,-0.159434,-27.816043
11.185,2.0,1.0,1.0,33.4,33.3,33.3,2.3,2.8,2.6975,0.3755838165717756,-0.04144118087568266,0.9067518221992187,0.0020287343800049094,-0.162555,-27.640962
11.185,2.0,1.0,1.0,33.4,33.3,33.3,2.3,2.8,2.7,0.36557473373034827,-0.042313026490013284,0.9104410673618879,0.001586504288642995,-0.165777,-27.464417
11.185,2.0,1.0,1.0,33.4,33.3,33.3,2.3,2.8,2.7025,0.35543192838345605,-0.043205111026211884,0.9140455164918662,0.001120741627715007,-0.169102,-27.286376
11.185,2.0,1.0,1.0,33.4,33.3,33.3,2.3,2.8,2.705,0.34515368345627023,-0.044117957318543795,0.9175618481704685,0.0006302572234078983,-0.172537,-27.106806
11.185,2.0,1.0,1.0,33.4,33.3,33.3,2.3,2.8,2.7075,0.3347382683311298,-0.045052099992015045,0.9209866061776127,0.00011379389588216306,-0.176084,-26.925672
11.185,2.0,1.0,1.0,33.4,33.3,33.3,2.3,2.8,2.71,0.32418393995614003,-0.04600808529021149,0.9243161929233558,-0.0004299780370243069,-0.179751,-26.742938
11.185,2.0,1.0,1.0,33.4,33.3,33.3,2.3,2.8,2.7125,0.31348894409976363,-0.04698647082363909,0.9275468624761706,-0.0010024655982191798,-0.183542,-26.558567
11.185,2.0,1.0,1.0,33.4,33.3,33.3,2.3,2.8,2.715,0.30265151676786534,-0.04798782522580025,0.9306747131568474,-0.0016051583614590263,-0.187463,-26.372522
11.185,2.0,1.0,1.0,33.4,33.3,33.3,2.3,2.8,2.7175,0.291669885801743,-0.04901272770236896,0.9336956796640349,-0.0022396340655343153,-0.191521,-26.184764
11.185,2.0,1.0,1.0,33.4,33.3,33.3,2.3,2.8,2.72,0.28054227267803167,-0.05006176745666956,0.9366055246942622,-0.002907564668077324,-0.195721,-25.995251
11.185,2.0,1.0,1.0,33.4,33.3,33.3,2.3,2.8,2.7225,0.2692668945340346,-0.05113554297218354,0.9393998300157838,-0.003610722878015064,-0.200072,-25.803943
11.185,2.0,1.0,1.0,33.4,33.3,33.3,2.3,2.8,2.725,0.257841966445173,-0.05223466112994422,0.9420739869517013,-0.004350989209527104,-0.204581,-25.610795
11.185,2.0,1.0,1.0,33.4,33.3,33.3,2.3,2.8,2.7275,0.2462657039847018,-0.053359736135383654,0.9446231862235466,-0.005130359604628363,-0.209254,-25.415764
11.185,2.0,1.0,1.0,33.4,33.3,33.3,2.3,2.8,2.73,0.23453632609997024,-0.05451138822537705,0.9470424071017521,-0.005950953676201568,-0.214102,-25.218803
11.185,2.0,1.0,1.0,33.4,33.3,33.3,2.3,2.8,2.7325,0.22265205834411034,-0.05569024212183053,0.949326405804183,-0.006815023628522042,-0.219133,-25.019863
11.185,2.0,1.0,1.0,33.4,33.3,33.3,2.3,2.8,2.735,0.21061113650745,-0.05689692519305042,0.9514697030780963,-0.007724963918094218,-0.224357,-24.818896
11.185,2.0,1.0,1.0,33.4,33.3,33.3,2.3,2.8,2.7375,0.19841181069911698,-0.05813206527822593,0.9534665708944338,-0.00868332172402113,-0.229783,-24.61585
11.185,2.0,1.0,1.0,33.4,33.3,33.3,2.3,2.8,2.74,0.18605234993647726,-0.05939628812349768,0.9553110181762101,-0.009692808304221328,-0.235424,-24.410672
11.185,2.0,1.0,1.0,33.4,33.3,33.3,2.3,2.8,2.7425,0.17353104730832225,-0.06069021437012343,0.9569967754748492,-0.010756311321670795,-0.241291,-24.203307
11.185,2.0,1.0,1.0,33.4,33.3,33.3,2.3,2.8,2.745,0.1608462257873304,-0.06201445602598482,0.9585172784995306,-0.011876908233557477,-0.247397,-23.993697
11.185,2.0,1.0,1.0,33.4,33.3,33.3,2.3,2.8,2.7475,0.1479962447784771,-0.06336961234089877,0.9598656503948944,-0.013057880845885717,-0.253755,-23.781784
11.185,2.0,1.0,1.0,33.4,33.3,33.3,2.3,2.8,2.75,0.134979507503017,-0.0647562649936179,0.961034682651669,-0.0143027311467558,-0.26038,-23.567505
11.185,2.0,1.0,1.0,33.4,33.3,33.3,2.3,2.8,2.7525,0.12179446933277227,-0.066174972483723,0.9620168145228764,-0.01561519854336658,-0.267288,-23.350797
11.185,2.0,1.0,1.0,33.4,33.3,33.3,2.3,2.8,2.755,0.10843964720706323,-0.06762626360444217,0.9628041108050578,-0.016999278640863893,-0.274496,-23.131594
11.185,2.0,1.0,1.0,33.4,33.3,33.3,2.3,2.8,2.7575,0.0949136302851697,-0.06911062985233939,0.9633882378294144,-0.01845924371559967,-0.282022,-22.909826
11.185,2.0,1.0,1.0,33.4,33.3,33.3,2.3,2.8,2.76,0.08121509201133685,-0.07062851660624302,0.9637604374916559,-0.019999665051279227,-0.289887,-22.685423
11.185,2.0,1.0,1.0,33.4,33.3,33.3,2.3,2.8,2.7625,0.06734280379749301,-0.072180312880129,0.9639114991316694,-0.02162543732400128,-0.29811,-22.458308
11.185,2.0,1.0,1.0,33.4,33.3,33.3,2.3,2.8,2.765,0.05329565056205356,-0.07376633942213402,0.9638317290546615,-0.02334180524141768,-0.306717,-22.228406
11.185,2.0,1.0,1.0,33.4,33.3,33.3,2.3,2.8,2.7675,0.03907264840210757,-0.07538683489357366,0.9635109174641436,-0.025154392662279604,-0.315731,-21.995635
11.185,2.0,1.0,1.0,33.4,33.3,33.3,2.3,2.8,2.77,0.024672964722197852,-0.07704193981666216,0.9629383025539325,-0.027069234445560388,-0.32518,-21.759911
11.185,2.0,1.0,1.0,33.4,33.3,33.3,2.3,2.8,2.7725,0.010095941197081267,-0.0787316779262756,0.9621025314811209,-0.0290928113031859,-0.335095,-21.521148
11.185,2.0,1.0,1.0,33.4,33.3,33.3,2.3,2.8,2.775,-0.0046588799901314554,-0.0804559344979874,0.9609916179148706,-0.031232087957151235,-0.345506,-21.279253
11.185,2.0,1.0,1.0,33.4,33.3,33.3,2.3,2.8,2.7775,-0.019591726117306207,-0.08221443114983758,0.9595928958268425,-0.0334945549303498,-0.35645,-21.034133
11.185,2.0,1.0,1.0,33.4,33.3,33.3,2.3,2.8,2.78,-0.0347025594930801,-0.0840066965266082,0.9578929691584398,-0.035888274330553985,-0.367964,-20.785688
11.185,2.0,1.0,1.0,33.4,33.3,33.3,2.3,2.8,2.7825,-0.0499910379134257,-0.08583203216997758,0.9558776569681546,-0.038421930018267186,-0.380091,-20.533816
11.185,2.0,1.0,1.0,33.4,33.3,33.3,2.3,2.8,2.785,-0.06545646916448009,-0.0876894727525528,0.9535319336297606,-0.0411048825809822,-0.392878,-20.278409
11.185,2.0,1.0,1.0,33.4,33.3,33.3,2.3,2.8,2.7875,-0.08109775857995354,-0.08957773970436267,0.9508398636199595,-0.04394722956770096,-0.406374,-20.019356
11.185,2.0,1.0,1.0,33.4,33.3,33.3,2.3,2.8,2.79,-0.09691334848131,-0.09149518708216511,0.947784530403743,-0.046959871466993174,-0.420635,-19.75654
11.185,2.0,1.0,1.0,33.4,33.3,33.3,2.3,2.8,2.7925,-0.11290114811359814,-0.0934397383189743,0.944347958899272,-0.05015458393723326,-0.435723,-19.489839
11.185,2.0,1.0,1.0,33.4,33.3,33.3,2.3,2.8,2.795,-0.12905845243256373,-0.0954088122365721,0.9405110309845187,-0.05354409681602349,-0.451706,-19.219127
11.185,2.0,1.0,1.0,33.4,33.3,33.3,2.3,2.8,2.7975,-0.14538184779050453,-0.09739923639887203,0.9362533934994192,-0.05714218044292818,-0.468657,-18.944271
11.185,2.0,1.0,1.0,33.4,33.3,33.3,2.3,2.8,2.8,-0.1618671021993554,-0.09940714551868673,0.9315533582056562,-0.06096373981976413,-0.486661,-18.665135
11.185,2.0,1.0,1.0,33.4,33.3,33.3,2.3,2.8,2.8025,-0.1785090374068587,-0.10142786219238167,0.9263877931995325,-0.06502491709768075,-0.505808,-18.381575
11.185,2.0,1.0,1.0,33.4,33.3,33.3,2.3,2.8,2.805,-0.1953013794908127,-0.10345575671140068,0.9207320053427284,-0.06934320280911845,-0.526202,-18.093441
11.185,2.0,1.0,1.0,33.4,33.3,33.3,2.3,2.8,2.8075,-0.21223658403946338,-0.10548408206918632,0.9145596133962516,-0.07393755614032065,-0.547956,-17.80058
11.185,2.0,1.0,1.0,33.4,33.3,33.3,2.3,2.8,2.81,-0.22930563122209105,-0.10750477952583662,0.9078424117352567,-0.07882853434574465,-0.571198,-17.502829
11.185,2.0,1.0,1.0,33.4,33.3,33.3,2.3,2.8,2.8125,-0.246497785138046,-0.109508249186574,0.900550224814812,-0.084038431111424,-0.596071,-17.200021
11.185,2.0,1.0,1.0,33.4,33.3,33.3,2.3,2.8,2.815,-0.2638003107363958,-0.11148307896551457,0.8926507529873188,-0.08959142324203108,-0.622736,-16.891984
11.185,2.0,1.0,1.0,33.4,33.3,33.3,2.3,2.8,2.8175,-0.28119814028912465,-0.11341572401112338,0.8841094108929729,-0.09551372442446257,-0.651372,-16.578538
11.185,2.0,1.0,1.0,33.4,33.3,33.3,2.3,2.8,2.82,-0.2986734798422489,-0.11529012712835608,0.8748891605254749,-0.10183374393955963,-0.682184,-16.259499
11.185,2.0,1.0,1.0,33.4,33.3,33.3,2.3,2.8,2.8225,-0.31620534422235613,-0.1170872689066513,0.8649503423106792,-0.1085822469590187,-0.715402,-15.934678
11.185,2.0,1.0,1.0,33.4,33.3,33.3,2.3,2.8,2.825,-0.3337690070018141,-0.11878463411436539,0.854250509253438,-0.11579251135006799,-0.751288,-15.603879
11.185,2.0,1.0,1.0,33.4,33.3,33.3,2.3,2.8,2.8275,-0.35133534928950194,-0.12035557841519076,0.842744271578509,-0.12350047354616152,-0.790139,-15.266907
11.185,2.0,1.0,1.0,33.4,33.3,33.3,2.3,2.8,2.83,-0.36887008829268264,-0.1217685765790596,0.8303831625441216,-0.13174485280040826,-0.832296,-14.92356
