1,w,sub_t,h,l1,l2,l3,g1,g2,Freq,S11_re,S21_re,S11_img,S21_img,S11_dB,S21_dB
11.185,2.0,1.0,1.0,33.0,34.6,34.6,2.9,1.5,2.5,0.894480738819363,-0.00905710714047743,0.432380252266074,0.0109120492508179,-0.056615,-36.965793
11.185,2.0,1.0,1.0,33.0,34.6,34.6,2.9,1.5,2.5025,0.8917409969640729,-0.009279722080258143,0.43784067319458797,0.01102308731728278,-0.05724,-36.827273
11.185,2.0,1.0,1.0,33.0,34.6,34.6,2.9,1.5,2.505,0.8889555446427574,-0.00950774354962357,0.4433049473765894,0.01113510760433754,-0.057879,-36.687999
11.185,2.0,1.0,1.0,33.0,34.6,34.6,2.9,1.5,2.5075,0.8861238660410895,-0.009741338362313095,0.4487729814009135,0.011248117840020893,-0.058533,-36.547953
11.185,2.0,1.0,1.0,33.0,34.6,34.6,2.9,1.5,2.51,0.8832454327826228,-0.009980680143650255,0.454244678613827,0.011362125475158235,-0.059202,-36.407113
11.185,2.0,1.0,1.0,33.0,34.6,34.6,2.9,1.5,2.5125,0.8803197034763319,-0.010225949677712412,0.4597199389783183,0.011477137642777477,-0.059887,-36.26546
11.185,2.0,1.0,1.0,33.0,34.6,34.6,2.9,1.5,2.515,0.8773461232407374,-0.010477335275731798,0.4651986589262074,0.011593161113502073,-0.060588,-36.122971
11.185,2.0,1.0,1.0,33.0,34.6,34.6,2.9,1.5,2.5175,0.8743241232030549,-0.010735033167244331,0.47068073120255466,0.011710202246519736,-0.061306,-35.979627
11.185,2.0,1.0,1.0,33.0,34.6,34.6,2.9,1.5,2.52,0.8712531199716602,-0.010999247915628224,0.4761660447018441,0.011828266935688291,-0.062041,-35.835403
11.185,2.0,1.0,1.0,33.0,34.6,34.6,2.9,1.5,2.5225,0.8681325150800393,-0.011270192859808426,0.48165448429530605,0.01194736055029187,-0.062794,-35.690278
11.185,2.0,1.0,1.0,33.0,34.6,34.6,2.9,1.5,2.525,0.8649616944002295,-0.011548090584052824,0.48714593064875233,0.012067487869906987,-0.063566,-35.544228
11.185,2.0,1.0,1.0,33.0,34.6,34.6,2.9,1.5,2.5275,0.8617400275235965,-0.011833173417947394,0.49264026003018696,0.012188653012782462,-0.064358,-35.397229
11.185,2.0,1.0,1.0,33.0,34.6,34.6,2.9,1.5,2.53,0.8584668671066218,-0.012125683968815313,0.498137344106407,0.012310859357070202,-0.06517,-35.249255
11.185,2.0,1.0,1.0,33.0,34.6,34.6,2.9,1.5,2.5325,0.8551415481791611,-0.012425875689039995,0.5036370497277249,0.012434109454172391,-0.066002,-35.100282
11.185,2.0,1.0,1.0,33.0,34.6,34.6,2.9,1.5,2.535,0.851763387412423,-0.012734013480965744,0.5091392386998622,0.012558404933388242,-0.066856,-34.950283
11.185,2.0,1.0,1.0,33.0,34.6,34.6,2.9,1.5,2.5375,0.8483316823436934,-0.013050374342283575,0.514643767541958,0.012683746396953957,-0.067733,-34.799232
11.185,2.0,1.0,1.0,33.0,34.6,34.6,2.9,1.5,2.54,0.8448457105545447,-0.013375248055068484,0.5201504872295413,0.012810133304464866,-0.068633,-34.6471
11.185,2.0,1.0,1.0,33.0,34.6,34.6,2.9,1.5,2.5425,0.8413047287989991,-0.013708937921917396,0.5256592429211843,0.012937563845557162,-0.069558,-34.493858
11.185,2.0,1.0,1.0,33.0,34.6,34.6,2.9,1.5,2.545,0.837707972077795,-0.01405176155294929,0.5311698736674296,0.013066034799594367,-0.070508,-34.339477
11.185,2.0,1.0,1.0,33.0,34.6,34.6,2.9,1.5,2.5475,0.8340546526545565,-0.014404051707772909,0.5366822121004127,0.013195541380961946,-0.071484,-34.183928
11.185,2.0,1.0,1.0,33.0,34.6,34.6,2.9,1.5,2.55,0.8303439590092722,-0.014766157196907976,0.5421960841024676,0.013326077068406385,-0.072487,-34.027177
11.185,2.0,1.0,1.0,33.0,34.6,34.6,2.9,1.5,2.5525,0.8265750547240895,-0.015138443847562811,0.547711308451763,0.013457633416674039,-0.073519,-33.869193
11.185,2.0,1.0,1.0,33.0,34.6,34.6,2.9,1.5,2.555,0.8227470772959304,-0.015521295539137421,0.553227696442849,0.013590199848495398,-0.074581,-33.709941
11.185,2.0,1.0,1.0,33.0,34.6,34.6,2.9,1.5,2.5575,0.8188591368699341,-0.01591511531433164,0.5587450514797219,0.013723763424725047,-0.075674,-33.549389
11.185,2.0,1.0,1.0,33.0,34.6,34.6,2.9,1.5,2.56,0.8149103148871614,-0.016320326572306042,0.5642631686387466,0.013858308590181322,-0.076799,-33.387499
11.185,2.0,1.0,1.0,33.0,34.6,34.6,2.9,1.5,2.5625,0.8108996626393423,-0.016737374350974134,0.569781834198468,0.01399381689242887,-0.077958,-33.224235
11.185,2.0,1.0,1.0,33.0,34.6,34.6,2.9,1.5,2.565,0.806826199722751,-0.0171667267062024,0.5753008251329976,0.014130266670403159,-0.079152,-33.059558
11.185,2.0,1.0,1.0,33.0,34.6,34.6,2.9,1.5,2.5675,0.8026889123825117,-0.017608876196471338,0.5808199085652462,0.014267632709388781,-0.080383,-32.89343
11.185,2.0,1.0,1.0,33.0,34.6,34.6,2.9,1.5,2.57,0.7984867517377474,-0.018064341482416233,0.5863388411758335,0.014405885858418732,-0.081653,-32.725808
11.185,2.0,1.0,1.0,33.0,34.6,34.6,2.9,1.5,2.5725,0.7942186318770316,-0.018533669051627802,0.5918573685629972,0.014544992605658596,-0.082963,-32.55665
11.185,2.0,1.0,1.0,33.0,34.6,34.6,2.9,1.5,2.575,0.7898834278124985,-0.019017435080167084,0.5973752245482146,0.014684914606762118,-0.084315,-32.385913
11.185,2.0,1.0,1.0,33.0,34.6,34.6,2.9,1.5,2.5775,0.7854799732797685,-0.01951624744344748,0.6028921304215973,0.014825608160529509,-0.085711,-32.21355
11.185,2.0,1.0,1.0,33.0,34.6,34.6,2.9,1.5,2.58,0.781007058369487,-0.020030747890476493,0.6084077941203456,0.014967023625442862,-0.087154,-32.039514
11.185,2.0,1.0,1.0,33.0,34.6,34.6,2.9,1.5,2.5825,0.7764634269747568,-0.020561614396950124,0.613921909332687,0.015109104769792207,-0.088645,-31.863756
11.185,2.0,1.0,1.0,33.0,34.6,34.6,2.9,1.5,2.585,0.7718477740370489,-0.021109563714372958,0.6194341545186826,0.015251788047114393,-0.090188,-31.686225
11.185,2.0,1.0,1.0,33.0,34.6,34.6,2.9,1.5,2.5875,0.7671587425712715,-0.0216753541342629,0.6249441918381844,0.015395001787524187,-0.091784,-31.506868
11.185,2.0,1.0,1.0,33.0,34.6,34.6,2.9,1.5,2.59,0.762394920448536,-0.022259788488618554,0.6304516659748262,0.015538665294207537,-0.093436,-31.32563
11.185,2.0,1.0,1.0,33.0,34.6,34.6,2.9,1.5,2.5925,0.7575548369127453,-0.022863717410211284,0.6359562028434731,0.015682687832827467,-0.095148,-31.142452
11.185,2.0,1.0,1.0,33.0,34.6,34.6,2.9,1.5,2.595,0.7526369588044359,-0.023488042878947724,0.6414574081667055,0.015826967499840767,-0.096922,-30.957276
11.185,2.0,1.0,1.0,33.0,34.6,34.6,2.9,1.5,2.5975,0.7476396864622177,-0.024133722083581607,0.6469548659039396,0.015971389953701298,-0.098763,-30.770039
11.185,2.0,1.0,1.0,33.0,34.6,34.6,2.9,1.5,2.6,0.7425613492687229,-0.02480177163147155,0.6524481365143432,0.016115826990557275,-0.100672,-30.580675
11.185,2.0,1.0,1.0,33.0,34.6,34.6,2.9,1.5,2.6025,0.7374002008040624,-0.02549327214295527,0.6579367550319751,0.016260134943325278,-0.102656,-30.389118
11.185,2.0,1.0,1.0,33.0,34.6,34.6,2.9,1.5,2.605,0.7321544135653485,-0.02620937327129661,0.6634202289283654,0.016404152879828646,-0.104717,-30.195296
11.185,2.0,1.0,1.0,33.0,34.6,34.6,2.9,1.5,2.6075,0.7268220732058361,-0.026951299194134734,0.6688980357339712,0.01654770057196299,-0.10686,-29.999136
11.185,2.0,1.0,1.0,33.0,34.6,34.6,2.9,1.5,2.61,0.7214011722415183,-0.02772035462801936,0.6743696203855882,0.016690576203504053,-0.10909,-29.800561
11.185,2.0,1.0,1.0,33.0,34.6,34.6,2.9,1.5,2.6125,0.7158896031665254,-0.028517931424045892,0.6798343922616191,0.016832553779059845,-0.111412,-29.599489
11.185,2.0,1.0,1.0,33.0,34.6,34.6,2.9,1.5,2.615,0.710285150911273,-0.029345515809934008,0.6852917218611102,0.01697338019068271,-0.113832,-29.395836
11.185,2.0,1.0,1.0,33.0,34.6,34.6,2.9,1.5,2.6175,0.7045854845688814,-0.030204696352253563,0.6907409370752952,0.01711277189158463,-0.116356,-29.189515
11.185,2.0,1.0,1.0,33.0,34.6,34.6,2.9,1.5,2.62,0.6987881483057161,-0.031097172722060997,0.6961813189920575,0.017250411118073964,-0.118991,-28.980431
11.185,2.0,1.0,1.0,33.0,34.6,34.6,2.9,1.5,2.6225,0.6928905513608876,-0.03202476535814834,0.7016120971637608,0.017385941590965376,-0.121743,-28.768488
11.185,2.0,1.0,1.0,33.0,34.6,34.6,2.9,1.5,2.625,0.686889957026878,-0.0329894261346424,0.707032444257137,0.0175189636160207,-0.124621,-28.553585
11.185,2.0,1.0,1.0,33.0,34.6,34.6,2.9,1.5,2.6275,0.6807834704889378,-0.033993250154090784,0.7124414699899633,0.017649028489070354,-0.127633,-28.335612
11.185,2.0,1.0,1.0,33.0,34.6,34.6,2.9,1.5,2.63,0.6745680253842038,-0.03503848880371251,0.7178382142425235,0.017775632094882827,-0.130789,-28.114459
11.185,2.0,1.0,1.0,33.0,34.6,34.6,2.9,1.5,2.6325,0.6682403689222635,-0.03612756423154359,0.7232216392119774,0.017898207569023977,-0.134098,-27.890005
11.185,2.0,1.0,1.0,33.0,34.6,34.6,2.9,1.5,2.635,0.6617970453867292,-0.037263085421164244,0.7285906204538309,0.01801611686817662,-0.137571,-27.662127
11.185,2.0,1.0,1.0,33.0,34.6,34.6,2.9,1.5,2.6375,0.6552343778118132,-0.038447866069042984,0.7339439366259546,0.01812864106581777,-0.14122,-27.430692
11.185,2.0,1.0,1.0,33.0,34.6,34.6,2.9,1.5,2.64,0.6485484475983102,-0.039684944497827425,0.7392802577160058,0.01823496915567743,-0.14506,-27.195562
11.185,2.0,1.0,1.0,33.0,34.6,34.6,2.9,1.5,2.6425,0.6417350717992243,-0.04097760587279991,0.7445981314911446,0.018334185103711115,-0.149104,-26.956589
11.185,2.0,1.0,1.0,33.0,34.6,34.6,2.9,1.5,2.645,0.634789777765616,-0.042329407027972714,0.7498959678581094,0.018425252838721266,-0.153368,-26.713618
11.185,2.0,1.0,1.0,33.0,34.6,34.6,2.9,1.5,2.6475,0.6277077747973686,-0.04374420425378792,0.755172020759793,0.018506998810152275,-0.15787,-26.466485
11.185,2.0,1.0,1.0,33.0,34.6,34.6,2.9,1.5,2.65,0.6204839223902565,-0.04522618445115493,0.7604243671588363,0.018578091666320493,-0.16263,-26.215016
11.185,2.0,1.0,1.0,33.0,34.6,34.6,2.9,1.5,2.6525,0.6131126946089697,-0.04677990011775974,0.7656508825659828,0.018637018514077196,-0.167669,-25.959026
11.185,2.0,1.0,1.0,33.0,34.6,34.6,2.9,1.5,2.655,0.6055881400439774,-0.0484103087035931,0.7708492124569116,0.018682057107368283,-0.173012,-25.698318
11.185,2.0,1.0,1.0,33.0,34.6,34.6,2.9,1.5,2.6575,0.5979038367270441,-0.05012281695495802,0.7760167387803287,0.01871124317196791,-0.178686,-25.432686
11.185,2.0,1.0,1.0,33.0,34.6,34.6,2.9,1.5,2.66,0.5900528412838627,-0.051923330961554846,0.7811505405854412,0.018722331899859772,-0.18472,-25.161905
11.185,2.0,1.0,1.0,33.0,34.6,34.6,2.9,1.5,2.6625,0.5820276314909916,-0.053818312731423915,0.7862473475795644,0.018712752430435825,-0.191148,-24.885742
11.185,2.0,1.0,1.0,33.0,34.6,34.6,2.9,1.5,2.665,0.5738200412758957,-0.05581484424550134,0.7913034851549482,0.018679553865380845,-0.198008,-24.603942
11.185,2.0,1.0,1.0,33.0,34.6,34.6,2.9,1.5,2.6675,0.5654211870517071,-0.057920700089187156,0.7963148090829585,0.018619341024908406,-0.205343,-24.316237
11.185,2.0,1.0,1.0,33.0,34.6,34.6,2.9,1.5,2.67,0.5568213841103309,-0.06014442992433972,0.8012766276441383,0.01852819772552854,-0.2132,-24.022339
11.185,2.0,1.0,1.0,33.0,34.6,34.6,2.9,1.5,2.6725,0.548010051607847,-0.06249545225254234,0.8061836084186799,0.018401594818378556,-0.221635,-23.721939
11.185,2.0,1.0,1.0,33.0,34.6,34.6,2.9,1.5,2.675,0.5389756044646846,-0.06498416112925601,0.8110296662701623,0.018234279539024418,-0.230708,-23.414706
11.185,2.0,1.0,1.0,33.0,34.6,34.6,2.9,1.5,2.6775,0.529705330271934,-0.06762204771634071,0.8158078281716764,0.018020141840544037,-0.240491,-23.100285
11.185,2.0,1.0,1.0,33.0,34.6,34.6,2.9,1.5,2.68,0.5201852490503298,-0.07042183880147344,0.8205100693890515,0.017752052253336044,-0.251065,-22.778293
11.185,2.0,1.0,1.0,33.0,34.6,34.6,2.9,1.5,2.6825,0.5103999534617752,-0.07339765465512953,0.8251271140727487,0.017421664359786693,-0.262522,-22.44832
11.185,2.0,1.0,1.0,33.0,34.6,34.6,2.9,1.5,2.685,0.5003324268469386,-0.07656518881686639,0.829648191413506,0.017019173085837603,-0.274969,-22.109921
11.185,2.0,1.0,1.0,33.0,34.6,34.6,2.9,1.5,2.6875,0.48996383629490414,-0.07994191256406045,0.8340607360468374,0.01653301755516916,-0.288532,-21.762617
11.185,2.0,1.0,1.0,33.0,34.6,34.6,2.9,1.5,2.69,0.47927329790706275,-0.08354730685307275,0.8383500181587382,0.01594951403721819,-0.303355,-21.405891
11.185,2.0,1.0,1.0,33.0,34.6,34.6,2.9,1.5,2.6925,0.4682376116046415,-0.08740312432780255,0.8424986844939057,0.015252400293547366,-0.319607,-21.039181
11.185,2.0,1.0,1.0,33.0,34.6,34.6,2.9,1.5,2.695,0.4568309634230156,-0.09153368338860916,0.8464861858517821,0.01442226704396916,-0.337487,-20.66188
11.185,2.0,1.0,1.0,33.0,34.6,34.6,2.9,1.5,2.6975,0.44502459452037774,-0.09596619502195493,0.8502880592050311,0.0134358448674937,-0.357231,-20.273329
11.185,2.0,1.0,1.0,33.0,34.6,34.6,2.9,1.5,2.7,0.4327864385633676,-0.10073112064939865,0.8538750226522467,0.012265104990963319,-0.379118,-19.872812
11.185,2.0,1.0,1.0,33.0,34.6,34.6,2.9,1.5,2.7025,0.4200807334795304,-0.10586255492431698,0.8572118281612627,0.010876119245565618,-0.403482,-19.459553
11.185,2.0,1.0,1.0,33.0,34.6,34.6,2.9,1.5,2.705,0.4068676209844824,-0.11139861999188774,0.8602557993166309,0.009227606842575547,-0.430726,-19.032706
11.185,2.0,1.0,1.0,33.0,34.6,34.6,2.9,1.5,2.7075,0.39310275973918035,-0.11738184530122828,0.8629549575275068,0.007269072019546691,-0.461335,-18.591358
11.185,2.0,1.0,1.0,33.0,34.6,34.6,2.9,1.5,2.71,0.37873699861503074,-0.12385948648629498,0.8652456084087053,0.004938405082440903,-0.495905,-18.134516
11.185,2.0,1.0,1.0,33.0,34.6,34.6,2.9,1.5,2.7125,0.3637161904574112,-0.13088370302165936,0.8670492178851396,0.0021587775081869038,-0.535164,-17.661107
11.185,2.0,1.0,1.0,33.0,34.6,34.6,2.9,1.5,2.715,0.3479812822827609,-0.13851145900973105,0.8682683522400493,-0.0011653931405004067,-0.580014,-17.169978
11.185,2.0,1.0,1.0,33.0,34.6,34.6,2.9,1.5,2.7175,0.3314689086366319,-0.14680392102067813,0.8687813853303391,-0.005153703160218886,-0.631583,-16.659898
11.185,2.0,1.0,1.0,33.0,34.6,34.6,2.9,1.5,2.72,0.3141128630850307,-0.15582497929979713,0.868435588805964,-0.009956628793514813,-0.691287,-16.129563
11.185,2.0,1.0,1.0,33.0,34.6,34.6,2.9,1.5,2.7225,0.29584706453937043,-0.16563827805370665,0.8670381221334166,-0.01576447774958088,-0.760928,-15.577624
11.185,2.0,1.0,1.0,33.0,34.6,34.6,2.9,1.5,2.725,0.2766110281006587,-0.1763017495012761,0.8643443470592324,-0.022818996326986623,-0.842811,-15.002715
11.185,2.0,1.0,1.0,33.0,34.6,34.6,2.9,1.5,2.7275,0.256359484777772,-0.1878580150870913,0.860042856251928,-0.031428235745926035,-0.939917,-14.403523
11.185,2.0,1.0,1.0,33.0,34.6,34.6,2.9,1.5,2.73,0.2350788057210333,-0.2003180117316864,0.8537367485451538,-0.04198513736565516,-1.056128,-13.77889
11.185,2.0,1.0,1.0,33.0,34.6,34.6,2.9,1.5,2.7325,0.2128144566087752,-0.21363364063904786,0.844921270953967,-0.05498970874546537,-1.196541,-13.127993
11.185,2.0,1.0,1.0,33.0,34.6,34.6,2.9,1.5,2.735,0.18971602542076046,-0.22765293422200625,0.8329595440491157,-0.07107307002462758,-1.367879,-12.450615
11.185,2.0,1.0,1.0,33.0,34.6,34.6,2.9,1.5,2.7375,0.16610944827530888,-0.2420481791956842,0.817061814123277,-0.09101793696130187,-1.579013,-11.747584
11.185,2.0,1.0,1.0,33.0,34.6,34.6,2.9,1.5,2.74,0.14260918696993719,-0.25620433748271193,0.7962815887741986,-0.1157622294692369,-1.841555,-11.021445
11.185,2.0,1.0,1.0,33.0,34.6,34.6,2.9,1.5,2.7425,0.12028338051754782,-0.26905487042879406,0.7695573389872105,-0.1463572482858122,-2.170356,-10.277464
11.185,2.0,1.0,1.0,33.0,34.6,34.6,2.9,1.5,2.745,0.1008741427342208,-0.2788629186269232,0.7358545062628281,-0.18382596550122782,-2.583305,-9.525051
11.185,2.0,1.0,1.0,33.0,34.6,34.6,2.9,1.5,2.7475,0.08703473360578348,-0.28298609482814485,0.6944967021780479,-0.22883308697312357,-3.098919,-8.779621
11.185,2.0,1.0,1.0,33.0,34.6,34.6,2.9,1.5,2.75,0.0824460220758149,-0.277761978420849,0.645790239059908,-0.28106358136298,-3.727956,-8.064623
11.185,2.0,1.0,1.0,33.0,34.6,34.6,2.9,1.5,2.7525,0.09150532885744182,-0.25881967360790736,0.5919576459482034,-0.33829476852562657,-4.451632,-7.412886
11.185,2.0,1.0,1.0,33.0,34.6,34.6,2.9,1.5,2.755,0.11815442393715488,-0.22224772311900218,0.5380603255563486,-0.39548113846346544,-5.178851,-6.865559
11.185,2.0,1.0,1.0,33.0,34.6,34.6,2.9,1.5,2.7575,0.16370874593876855,-0.16675353608443208,0.4920108856608701,-0.44474709700723125,-5.704491,-6.46648
11.185,2.0,1.0,1.0,33.0,34.6,34.6,2.9,1.5,2.76,0.2246489564606125,-0.09585552801086128,0.4625922470475504,-0.4773627311954256,-5.776421,-6.251354
11.185,2.0,1.0,1.0,33.0,34.6,34.6,2.9,1.5,2.7625,0.29247514524909607,-0.01801899539235422,0.4557369196985891,-0.4874453019161303,-5.3278,-6.235552
11.185,2.0,1.0,1.0,33.0,34.6,34.6,2.9,1.5,2.765,0.35674434306348746,0.056372684197548144,0.47160487170328486,-0.4748581912607732,-4.563321,-6.407943
11.185,2.0,1.0,1.0,33.0,34.6,34.6,2.9,1.5,2.7675,0.4093087287015741,0.11923250698719366,0.5049866759582419,-0.44479894252248686,-3.741268,-6.735361
11.185,2.0,1.0,1.0,33.0,34.6,34.6,2.9,1.5,2.77,0.4465653126178271,0.16699915704391743,0.5484078994506105,-0.40470579831269493,-3.008808,-7.174334
11.185,2.0,1.0,1.0,33.0,34.6,34.6,2.9,1.5,2.7725,0.4688920614558723,0.20006813798775208,0.5951834651741313,-0.3612216332366908,-2.410101,-7.682544
11.185,2.0,1.0,1.0,33.0,34.6,34.6,2.9,1.5,2.775,0.47879985938647407,0.22095039598022587,0.6407916793130296,-0.3188324890698449,-1.939128,-8.225407
11.185,2.0,1.0,1.0,33.0,34.6,34.6,2.9,1.5,2.7775,0.47933649188881655,0.2326854672195121,0.6828176709579064,-0.2799280276444682,-1.573886,-8.777768
11.185,2.0,1.0,1.0,33.0,34.6,34.6,2.9,1.5,2.78,0.4732313267234834,0.23799268231619922,0.7203282539260607,-0.2454253383418509,-1.29116,-9.322817
11.185,2.0,1.0,1.0,33.0,34.6,34.6,2.9,1.5,2.7825,0.4626151708859273,0.23899426639406876,0.7532460304312194,-0.21539195330096178,-1.071308,-9.850095
11.185,2.0,1.0,1.0,33.0,34.6,34.6,2.9,1.5,2.785,0.4490323834940434,0.2372285203854334,0.7819097079894418,-0.1894829447046817,-0.899026,-10.353578
11.185,2.0,1.0,1.0,33.0,34.6,34.6,2.9,1.5,2.7875,0.4335546062857996,0.23376355952522523,0.8068153070889605,-0.16719791153148167,-0.762792,-10.830171
11.185,2.0,1.0,1.0,33.0,34.6,34.6,2.9,1.5,2.79,0.41690539972053475,0.22932157456919644,0.8284817166785082,-0.14801431204368104,-0.654046,-11.278634
11.185,2.0,1.0,1.0,33.0,34.6,34.6,2.9,1.5,2.7925,0.39956392680202873,0.2243820785633079,0.8473893092257841,-0.1314482145491247,-0.56644,-11.698866
11.185,2.0,1.0,1.0,33.0,34.6,34.6,2.9,1.5,2.795,0.38184218034577005,0.2192587558031064,0.8639574426705532,-0.11707645311507264,-0.495252,-12.09143
11.185,2.0,1.0,1.0,33.0,34.6,34.6,2.9,1.5,2.7975,0.36393946361398444,0.2141536521905362,0.8785409711842139,-0.10453993993146991,-0.436941,-12.457252
11.185,2.0,1.0,1.0,33.0,34.6,34.6,2.9,1.5,2.8,0.3459797487491308,0.20919432559796192,0.8914350935519135,-0.09353872825048982,-0.388835,-12.797434
11.185,2.0,1.0,1.0,33.0,34.6,34.6,2.9,1.5,2.8025,0.32803691882996566,0.204458946390094,0.9028831541650049,-0.08382416631930205,-0.348895,-13.113137
11.185,2.0,1.0,1.0,33.0,34.6,34.6,2.9,1.5,2.805,0.31015170021453187,0.19999313901868077,0.9130848536580064,-0.07519066039666468,-0.315553,-13.405507
11.185,2.0,1.0,1.0,33.0,34.6,34.6,2.9,1.5,2.8075,0.2923429851234239,0.19582125182725169,0.9222037839360397,-0.06746811851673418,-0.287593,-13.675639
11.185,2.0,1.0,1.0,33.0,34.6,34.6,2.9,1.5,2.81,0.2746153941332696,0.1919538952293489,0.9303739170833228,-0.06051543814108393,-0.264061,-13.924547
11.185,2.0,1.0,1.0,33.0,34.6,34.6,2.9,1.5,2.8125,0.256964323784336,0.188392986788935,0.9377050079825,-0.0542150738098413,-0.244205,-14.153161
11.185,2.0,1.0,1.0,33.0,34.6,34.6,2.9,1.5,2.815,0.2393793108596217,0.1851351302802488,0.9442870082144434,-0.04846858483134061,-0.227428,-14.362316
11.185,2.0,1.0,1.0,33.0,34.6,34.6,2.9,1.5,2.8175,0.22184626720614706,0.18217387975396016,0.9501936336341976,-0.04319301897360313,-0.213249,-14.552753
11.185,2.0,1.0,1.0,33.0,34.6,34.6,2.9,1.5,2.82,0.20434895420667412,0.17950125608388007,0.9554852305299999,-0.038317985840557754,-0.201283,-14.725123
11.185,2.0,1.0,1.0,33.0,34.6,34.6,2.9,1.5,2.8225,0.18686994343231714,0.177108761798579,0.960211070499882,-0.0337832883141992,-0.191218,-14.879987
11.185,2.0,1.0,1.0,33.0,34.6,34.6,2.9,1.5,2.825,0.16939122862257322,0.17498805932385122,0.9644111840683445,-0.02953700028568091,-0.1828,-15.017824
11.185,2.0,1.0,1.0,33.0,34.6,34.6,2.9,1.5,2.8275,0.15189459993882082,0.17313142414058616,0.9681178229775529,-0.025533898569221457,-0.175822,-15.139031
11.185,2.0,1.0,1.0,33.0,34.6,34.6,2.9,1.5,2.83,0.13436185517311788,0.17153204860762183,0.9713566231523997,-0.021734174276746582,-0.170115,-15.243925
11.185,2.0,1.0,1.0,33.0,34.6,34.6,2.9,1.5,2.8325,0.11677489818899005,0.17018424827647424,0.9741475251517333,-0.01810236342281382,-0.165542,-15.332751
