1,w,sub_t,h,l1,l2,l3,g1,g2,Freq,S11_re,S21_re,S11_img,S21_img,S11_dB,S21_dB
11.185,2.0,1.0,1.0,34.0,33.5,33.5,1.8,4.1,2.5,0.782669851184221,-0.0107782604570239,0.610032404878092,0.00671490401606952,-0.066909,-37.924711
11.185,2.0,1.0,1.0,34.0,33.5,33.5,1.8,4.1,2.5025,0.778027080481072,-0.0109824680002254,0.6158143658522909,0.006715654141293519,-0.067607,-37.806392
11.185,2.0,1.0,1.0,34.0,33.5,33.5,1.8,4.1,2.505,0.7733168535017543,-0.011190118361280393,0.6215895261147355,0.006714586623835435,-0.068317,-37.687741
11.185,2.0,1.0,1.0,34.0,33.5,33.5,1.8,4.1,2.5075,0.768538439712057,-0.011401271334083644,0.6273573995845636,0.0067116323994670605,-0.06904,-37.568751
11.185,2.0,1.0,1.0,34.0,33.5,33.5,1.8,4.1,2.51,0.7636910979918089,-0.011615987765679042,0.6331174851192642,0.006706719958115889,-0.069776,-37.449416
11.185,2.0,1.0,1.0,34.0,33.5,33.5,1.8,4.1,2.5125,0.7587740765281427,-0.011834329567898276,0.6388692660283452,0.006699775252033538,-0.070526,-37.32973
11.185,2.0,1.0,1.0,34.0,33.5,33.5,1.8,4.1,2.515,0.7537866127111654,-0.012056359728505483,0.6446122095712377,0.00669072160028892,-0.071289,-37.209686
11.185,2.0,1.0,1.0,34.0,33.5,33.5,1.8,4.1,2.5175,0.748727933032324,-0.012282142321786206,0.6503457664388959,0.006679479589429262,-0.072066,-37.089277
11.185,2.0,1.0,1.0,34.0,33.5,33.5,1.8,4.1,2.52,0.7435972529857517,-0.01251174251851532,0.6560693702185635,0.006665966970145452,-0.072857,-36.968497
11.185,2.0,1.0,1.0,34.0,33.5,33.5,1.8,4.1,2.5225,0.7383937769729303,-0.012745226595231515,0.6617824368411233,0.006650098549770588,-0.073664,-36.847339
11.185,2.0,1.0,1.0,34.0,33.5,33.5,1.8,4.1,2.525,0.7331166982109927,-0.012982661942742783,0.6674843640104671,0.006631786080433202,-0.074485,-36.725796
11.185,2.0,1.0,1.0,34.0,33.5,33.5,1.8,4.1,2.5275,0.7277651986450309,-0.01322411707377986,0.6731745306142844,0.0066109381426780614,-0.075321,-36.603861
11.185,2.0,1.0,1.0,34.0,33.5,33.5,1.8,4.1,2.53,0.722338448864795,-0.013469661629708463,0.6788522961156349,0.00658746002435914,-0.076174,-36.481527
11.185,2.0,1.0,1.0,34.0,33.5,33.5,1.8,4.1,2.5325,0.7168356080261881,-0.013719366386205313,0.6845169999246795,0.006561253594601018,-0.077042,-36.358787
11.185,2.0,1.0,1.0,34.0,33.5,33.5,1.8,4.1,2.535,0.7112558237779861,-0.013973303257794714,0.6901679607499032,0.0065322171726144625,-0.077927,-36.235635
11.185,2.0,1.0,1.0,34.0,33.5,33.5,1.8,4.1,2.5375,0.7055982321942527,-0.014231545301135037,0.695804475928138,0.00650024539114349,-0.078829,-36.112062
11.185,2.0,1.0,1.0,34.0,33.5,33.5,1.8,4.1,2.54,0.6998619577129279,-0.01449416671693656,0.7014258207326924,0.006465229054310194,-0.079748,-35.988062
11.185,2.0,1.0,1.0,34.0,33.5,33.5,1.8,4.1,2.5425,0.6940461130811125,-0.014761242850382623,0.7070312476588498,0.006427054989612801,-0.080685,-35.863628
11.185,2.0,1.0,1.0,34.0,33.5,33.5,1.8,4.1,2.545,0.6881497993075989,-0.015032850189916855,0.7126199856859857,0.006385605893822323,-0.08164,-35.738751
11.185,2.0,1.0,1.0,34.0,33.5,33.5,1.8,4.1,2.5475,0.68217210562324,-0.015309066364248797,0.7181912395155197,0.0063407601725098284,-0.082613,-35.613426
11.185,2.0,1.0,1.0,34.0,33.5,33.5,1.8,4.1,2.55,0.6761121094497603,-0.01558997013741986,0.7237441887839159,0.006292391772925248,-0.083606,-35.487643
11.185,2.0,1.0,1.0,34.0,33.5,33.5,1.8,4.1,2.5525,0.6699688763776916,-0.015875641401758563,0.7292779872498766,0.006240370009935486,-0.084618,-35.361395
11.185,2.0,1.0,1.0,34.0,33.5,33.5,1.8,4.1,2.555,0.6637414601541116,-0.01616616116854291,0.7347917619548983,0.00618455938471568,-0.08565,-35.234676
11.185,2.0,1.0,1.0,34.0,33.5,33.5,1.8,4.1,2.5575,0.6574289026809341,-0.016461611556173542,0.7402846123562968,0.006124819395873658,-0.086702,-35.107476
11.185,2.0,1.0,1.0,34.0,33.5,33.5,1.8,4.1,2.56,0.6510302340245446,-0.016762075775646187,0.7457556094317876,0.006061004342672817,-0.087776,-34.979787
11.185,2.0,1.0,1.0,34.0,33.5,33.5,1.8,4.1,2.5625,0.6445444724376047,-0.017067638113097663,0.7512037947546862,0.005992963120003235,-0.088871,-34.851603
11.185,2.0,1.0,1.0,34.0,33.5,33.5,1.8,4.1,2.565,0.6379706243939123,-0.017378383909182348,0.7566281795387605,0.005920539004733512,-0.089988,-34.722915
11.185,2.0,1.0,1.0,34.0,33.5,33.5,1.8,4.1,2.5675,0.631307684637266,-0.017694399535017637,0.7620277436517282,0.00584356943306072,-0.091128,-34.593714
11.185,2.0,1.0,1.0,34.0,33.5,33.5,1.8,4.1,2.57,0.624554636245313,-0.0180157723644191,0.7674014345963747,0.005761885768456117,-0.092291,-34.463993
11.185,2.0,1.0,1.0,34.0,33.5,33.5,1.8,4.1,2.5725,0.6177104507094442,-0.018342590742124135,0.7727481664582283,0.005675313059786195,-0.093478,-34.333742
11.185,2.0,1.0,1.0,34.0,33.5,33.5,1.8,4.1,2.575,0.610774088031848,-0.018674943947681676,0.7780668188186953,0.005583669789169548,-0.094689,-34.202954
11.185,2.0,1.0,1.0,34.0,33.5,33.5,1.8,4.1,2.5775,0.6037444968409129,-0.019012922154661337,0.7833562356325244,0.005486767609108542,-0.095926,-34.071619
11.185,2.0,1.0,1.0,34.0,33.5,33.5,1.8,4.1,2.58,0.5966206145262334,-0.019356616384810038,0.788615224068443,0.005384411068413805,-0.097188,-33.93973
11.185,2.0,1.0,1.0,34.0,33.5,33.5,1.8,4.1,2.5825,0.5894013673945396,-0.019706118456757245,0.7938425533117587,0.005276397326417164,-0.098477,-33.807277
11.185,2.0,1.0,1.0,34.0,33.5,33.5,1.8,4.1,2.585,0.5820856708479741,-0.020061520928840015,0.7990369533277037,0.005162515854943711,-0.099793,-33.674251
11.185,2.0,1.0,1.0,34.0,33.5,33.5,1.8,4.1,2.5875,0.5746724295861936,-0.020422917035587757,0.8041971135842454,0.0050425481274909145,-0.101137,-33.540643
11.185,2.0,1.0,1.0,34.0,33.5,33.5,1.8,4.1,2.59,0.5671605378338938,-0.020790400617372966,0.8093216817330543,0.004916267295035098,-0.10251,-33.406444
11.185,2.0,1.0,1.0,34.0,33.5,33.5,1.8,4.1,2.5925,0.5595488795954161,-0.0211640660426977,0.8144092622472936,0.004783437847858732,-0.103912,-33.271645
11.185,2.0,1.0,1.0,34.0,33.5,33.5,1.8,4.1,2.595,0.5518363289382301,-0.021544008122545758,0.8194584150148355,0.004643815262764313,-0.105344,-33.136236
11.185,2.0,1.0,1.0,34.0,33.5,33.5,1.8,4.1,2.5975,0.5440217503071568,-0.02193032201619019,0.8244676538854935,0.004497145635009582,-0.106808,-33.000207
11.185,2.0,1.0,1.0,34.0,33.5,33.5,1.8,4.1,2.6,0.5361039988713302,-0.02232310312779873,0.8294354451708075,0.004343165294268618,-0.108303,-32.863549
11.185,2.0,1.0,1.0,34.0,33.5,33.5,1.8,4.1,2.6025,0.5280819209060188,-0.022722446993131917,0.834360206094871,0.004181600403889777,-0.109831,-32.726252
11.185,2.0,1.0,1.0,34.0,33.5,33.5,1.8,4.1,2.605,0.5199543542115248,-0.023128449155577078,0.8392403031946754,0.004012166542688177,-0.111394,-32.588306
11.185,2.0,1.0,1.0,34.0,33.5,33.5,1.8,4.1,2.6075,0.5117201285715454,-0.023541205030703612,0.8440740506683716,0.0038345682684733018,-0.112991,-32.4497
11.185,2.0,1.0,1.0,34.0,33.5,33.5,1.8,4.1,2.61,0.5033780662534999,-0.02396080975846542,0.8488597086698382,0.0036484986624762826,-0.114623,-32.310424
11.185,2.0,1.0,1.0,34.0,33.5,33.5,1.8,4.1,2.6125,0.4949269825534856,-0.024387358042111437,0.8535954815478828,0.003453638853800993,-0.116293,-32.170469
11.185,2.0,1.0,1.0,34.0,33.5,33.5,1.8,4.1,2.615,0.4863656863886673,-0.02482094397279399,0.8582795160283783,0.003249657522982434,-0.118,-32.029822
11.185,2.0,1.0,1.0,34.0,33.5,33.5,1.8,4.1,2.6175,0.47769298094010404,-0.0252616608387897,0.8629098993375733,0.0030362103836936013,-0.119746,-31.888474
11.185,2.0,1.0,1.0,34.0,33.5,33.5,1.8,4.1,2.62,0.46890766434916126,-0.02570960091816612,0.8674846572647998,0.0028129396415958567,-0.121533,-31.746413
11.185,2.0,1.0,1.0,34.0,33.5,33.5,1.8,4.1,2.6225,0.46000853047086,-0.02616485525363988,0.8720017521627388,0.0025794734292823537,-0.12336,-31.603628
11.185,2.0,1.0,1.0,34.0,33.5,33.5,1.8,4.1,2.625,0.450994369687727,-0.0266275134082757,0.876459080883366,0.0023354252162146,-0.12523,-31.460107
11.185,2.0,1.0,1.0,34.0,33.5,33.5,1.8,4.1,2.6275,0.44186396978788767,-0.02709766320057618,0.880854472647679,0.0020803931925002022,-0.127144,-31.31584
11.185,2.0,1.0,1.0,34.0,33.5,33.5,1.8,4.1,2.63,0.4326161169114077,-0.0275753904173997,0.8851856868472371,0.0018139596253085048,-0.129103,-31.170814
11.185,2.0,1.0,1.0,34.0,33.5,33.5,1.8,4.1,2.6325,0.4232495965690972,-0.02806077850302598,0.8894504107755281,0.0015356901866631436,-0.131109,-31.025018
11.185,2.0,1.0,1.0,34.0,33.5,33.5,1.8,4.1,2.635,0.4137631947382661,-0.02855390822256043,0.8936462572871292,0.0012451332512941682,-0.133162,-30.878438
11.185,2.0,1.0,1.0,34.0,33.5,33.5,1.8,4.1,2.6375,0.40415569904018195,-0.029054857297728783,0.8977707623825886,0.0009418191631710433,-0.135265,-30.731064
11.185,2.0,1.0,1.0,34.0,33.5,33.5,1.8,4.1,2.64,0.39442590000425115,-0.029563700012965443,0.9018213827169314,0.0006252594692751871,-0.137418,-30.582882
11.185,2.0,1.0,1.0,34.0,33.5,33.5,1.8,4.1,2.6425,0.3845725924242825,-0.030080506789534982,0.9057954930296446,0.0002949461191057221,-0.139625,-30.43388
11.185,2.0,1.0,1.0,34.0,33.5,33.5,1.8,4.1,2.645,0.3745945768124857,-0.03060534372525234,0.9096903834939752,-4.9649371656300596e-05,-0.141885,-30.284043
11.185,2.0,1.0,1.0,34.0,33.5,33.5,1.8,4.1,2.6475,0.36449066095721916,-0.031138272097177438,0.9135032569833378,-0.00040907679496979683,-0.144201,-30.13336
11.185,2.0,1.0,1.0,34.0,33.5,33.5,1.8,4.1,2.65,0.3542596615908424,-0.03167934782445529,0.9172312262526141,-0.0007839081634607562,-0.146575,-29.981817
11.185,2.0,1.0,1.0,34.0,33.5,33.5,1.8,4.1,2.6525,0.3439004061744735,-0.03222862088824906,0.9208713110320822,-0.001174738664446701,-0.149008,-29.829399
11.185,2.0,1.0,1.0,34.0,33.5,33.5,1.8,4.1,2.655,0.33341173480678615,-0.03278613470547559,0.9244204350317216,-0.0015821876568319604,-0.151503,-29.676093
11.185,2.0,1.0,1.0,34.0,33.5,33.5,1.8,4.1,2.6575,0.3227925022644989,-0.03335192545279035,0.927875422853603,-0.002006899712825327,-0.154062,-29.521885
11.185,2.0,1.0,1.0,34.0,33.5,33.5,1.8,4.1,2.66,0.31204158018262557,-0.03392602133698658,0.9312329968100688,-0.0024495457065165844,-0.156686,-29.36676
11.185,2.0,1.0,1.0,34.0,33.5,33.5,1.8,4.1,2.6625,0.3011578593831023,-0.0345084418076671,0.9344897736454071,-0.002910823951432238,-0.159377,-29.210702
11.185,2.0,1.0,1.0,34.0,33.5,33.5,1.8,4.1,2.665,0.2901402523608913,-0.03509919670771546,0.9376422611587271,-0.003391461389280201,-0.162139,-29.053697
11.185,2.0,1.0,1.0,34.0,33.5,33.5,1.8,4.1,2.6675,0.2789876959372948,-0.035698285356729656,0.9406868547257381,-0.0038922148321803986,-0.164973,-28.89573
11.185,2.0,1.0,1.0,34.0,33.5,33.5,1.8,4.1,2.67,0.2676991540907697,-0.036305695562191376,0.9436198337171707,-0.0044138722607714705,-0.167883,-28.736784
11.185,2.0,1.0,1.0,34.0,33.5,33.5,1.8,4.1,2.6725,0.2562736209762078,-0.0369214025527171,0.9464373578115862,-0.004957254180675251,-0.170869,-28.576843
11.185,2.0,1.0,1.0,34.0,33.5,33.5,1.8,4.1,2.675,0.24471012414436424,-0.03754536782727129,0.94913546320037,-0.005523215039893092,-0.173936,-28.415891
11.185,2.0,1.0,1.0,34.0,33.5,33.5,1.8,4.1,2.6775,0.23300772797382888,-0.03817753791371983,0.9517100586827391,-0.006112644709804081,-0.177086,-28.253911
11.185,2.0,1.0,1.0,34.0,33.5,33.5,1.8,4.1,2.68,0.22116553732875818,-0.03881784302955091,0.9541569216486638,-0.006726470032526147,-0.180321,-28.090886
11.185,2.0,1.0,1.0,34.0,33.5,33.5,1.8,4.1,2.6825,0.20918270145645043,-0.03946619563699089,0.9564716939476773,-0.0073656564374942335,-0.183646,-27.926798
11.185,2.0,1.0,1.0,34.0,33.5,33.5,1.8,4.1,2.685,0.19705841813973804,-0.040122488884092346,0.9586498776416233,-0.008031209630201333,-0.187063,-27.76163
11.185,2.0,1.0,1.0,34.0,33.5,33.5,1.8,4.1,2.6875,0.184791938120191,-0.0407865949226569,0.960686830639518,-0.00872417735613296,-0.190575,-27.595362
11.185,2.0,1.0,1.0,34.0,33.5,33.5,1.8,4.1,2.69,0.17238256980918218,-0.041458363093079306,0.9625777622128237,-0.009445651243009067,-0.194187,-27.427977
11.185,2.0,1.0,1.0,34.0,33.5,33.5,1.8,4.1,2.6925,0.15982968430497674,-0.04213761796535172,0.9643177283895772,-0.010196768724526186,-0.197901,-27.259454
11.185,2.0,1.0,1.0,34.0,33.5,33.5,1.8,4.1,2.695,0.1471327207353028,-0.04282415722453593,0.9659016272260034,-0.010978715048856339,-0.201722,-27.089775
11.185,2.0,1.0,1.0,34.0,33.5,33.5,1.8,4.1,2.6975,0.13429119194610037,-0.043517749388001806,0.9673241939544419,-0.011792725375223037,-0.205653,-26.918919
11.185,2.0,1.0,1.0,34.0,33.5,33.5,1.8,4.1,2.7,0.12130469055866558,-0.044218131340614954,0.968579996006661,-0.012640086961914484,-0.2097,-26.746866
11.185,2.0,1.0,1.0,34.0,33.5,33.5,1.8,4.1,2.7025,0.10817289541887336,-0.044925005672845096,0.9696634279119085,-0.013522141449127811,-0.213865,-26.573593
11.185,2.0,1.0,1.0,34.0,33.5,33.5,1.8,4.1,2.705,0.09489557846389488,-0.04563803780543115,0.9705687060693573,-0.01444028724004288,-0.218155,-26.399081
11.185,2.0,1.0,1.0,34.0,33.5,33.5,1.8,4.1,2.7075,0.08147261203357398,-0.04635685288278042,0.9712898633949842,-0.015395981983512183,-0.222573,-26.223306
11.185,2.0,1.0,1.0,34.0,33.5,33.5,1.8,4.1,2.71,0.06790397665564198,-0.0470810324156742,0.9718207438433324,-0.01639074516170542,-0.227125,-26.046247
11.185,2.0,1.0,1.0,34.0,33.5,33.5,1.8,4.1,2.7125,0.05418976933601961,-0.04781011065209321,0.9721549968050843,-0.017426160785967728,-0.231816,-25.867878
11.185,2.0,1.0,1.0,34.0,33.5,33.5,1.8,4.1,2.715,0.04033021238779452,-0.048543570653039485,0.9722860713819409,-0.01850388020402574,-0.236653,-25.688177
11.185,2.0,1.0,1.0,34.0,33.5,33.5,1.8,4.1,2.7175,0.026325662834950636,-0.049280840048105276,0.972207210540907,-0.019625625021498058,-0.24164,-25.50712
11.185,2.0,1.0,1.0,34.0,33.5,33.5,1.8,4.1,2.72,0.012176622429667633,-0.050021286443194916,0.9719114451508346,-0.020793190140428713,-0.246784,-25.32468
11.185,2.0,1.0,1.0,34.0,33.5,33.5,1.8,4.1,2.7225,-0.0021162516750479273,-0.050764212450230224,0.971391587904877,-0.02200844691725143,-0.252093,-25.140832
11.185,2.0,1.0,1.0,34.0,33.5,33.5,1.8,4.1,2.725,-0.016552135552343524,-0.051508850305821266,0.9706402271334716,-0.023273346442185462,-0.257572,-24.955549
11.185,2.0,1.0,1.0,34.0,33.5,33.5,1.8,4.1,2.7275,-0.031130026379591693,-0.0522543560427547,0.9696497205135459,-0.02458992294156582,-0.263229,-24.768805
11.185,2.0,1.0,1.0,34.0,33.5,33.5,1.8,4.1,2.73,-0.04584872951506247,-0.052999803174684924,0.9684121886808801,-0.025960297303970988,-0.269071,-24.58057
11.185,2.0,1.0,1.0,34.0,33.5,33.5,1.8,4.1,2.7325,-0.06070684471654695,-0.053744175850593774,0.9669195087539986,-0.02738668073024004,-0.275108,-24.390816
11.185,2.0,1.0,1.0,34.0,33.5,33.5,1.8,4.1,2.735,-0.07570275144056392,-0.05448636143135518,0.9651633077795921,-0.028871378506509584,-0.281348,-24.199513
11.185,2.0,1.0,1.0,34.0,33.5,33.5,1.8,4.1,2.7375,-0.09083459315571203,-0.055225142436068596,0.9631349561113538,-0.030416793898244976,-0.287799,-24.006631
11.185,2.0,1.0,1.0,34.0,33.5,33.5,1.8,4.1,2.74,-0.10610026059807186,-0.05595918780064692,0.9608255607362921,-0.03202543216182589,-0.294472,-23.812138
11.185,2.0,1.0,1.0,34.0,33.5,33.5,1.8,4.1,2.7425,-0.12149737389042323,-0.05668704338541614,0.9582259585650743,-0.03369990466855259,-0.301376,-23.616002
11.185,2.0,1.0,1.0,34.0,33.5,33.5,1.8,4.1,2.745,-0.13702326344018073,-0.057407121662127136,0.9553267097058401,-0.03544293313388934,-0.308523,-23.418188
11.185,2.0,1.0,1.0,34.0,33.5,33.5,1.8,4.1,2.7475,-0.15267494952345367,-0.05811769050373608,0.9521180907442717,-0.03725735394231273,-0.315925,-23.218663
11.185,2.0,1.0,1.0,34.0,33.5,33.5,1.8,4.1,2.75,-0.168449120454345,-0.0588168609924899,0.94859008805655,-0.0391461225551953,-0.323592,-23.017392
11.185,2.0,1.0,1.0,34.0,33.5,33.5,1.8,4.1,2.7525,-0.1843421092293817,-0.05950257415317211,0.9447323911863339,-0.041112317985648635,-0.33154,-22.814336
11.185,2.0,1.0,1.0,34.0,33.5,33.5,1.8,4.1,2.755,-0.20034986852683964,-0.06017258650872014,0.94053438632207,-0.04315914732006289,-0.33978,-22.609459
11.185,2.0,1.0,1.0,34.0,33.5,33.5,1.8,4.1,2.7575,-0.21646794392949,-0.060824454344709865,0.9359851499170111,-0.04528995026110011,-0.348329,-22.402722
11.185,2.0,1.0,1.0,34.0,33.5,33.5,1.8,4.1,2.76,-0.2326914452267547,-0.06145551655728547,0.9310734425013784,-0.047508203660952625,-0.357201,-22.194084
11.185,2.0,1.0,1.0,34.0,33.5,33.5,1.8,4.1,2.7625,-0.24901501563849712,-0.062062875945866895,0.9257877027442993,-0.049817526006623446,-0.366413,-21.983503
11.185,2.0,1.0,1.0,34.0,33.5,33.5,1.8,4.1,2.765,-0.26543279878726,-0.06264337879722655,0.9201160418328092,-0.05222168181057895,-0.375984,-21.770937
11.185,2.0,1.0,1.0,34.0,33.5,33.5,1.8,4.1,2.7675,-0.28193840322871966,-0.06319359259113483,0.9140462382464287,-0.05472458585014002,-0.385932,-21.55634
11.185,2.0,1.0,1.0,34.0,33.5,33.5,1.8,4.1,2.77,-0.2985248643311957,-0.06370978163953861,0.9075657330190551,-0.05733030718711035,-0.396279,-21.339668
11.185,2.0,1.0,1.0,34.0,33.5,33.5,1.8,4.1,2.7725,-0.31518460327397657,-0.06418788045095271,0.9006616255953781,-0.06004307288502728,-0.407045,-21.120872
11.185,2.0,1.0,1.0,34.0,33.5,33.5,1.8,4.1,2.775,-0.33190938291083094,-0.06462346458919647,0.8933206704072908,-0.0628672713246522,-0.418254,-20.899903
11.185,2.0,1.0,1.0,34.0,33.5,33.5,1.8,4.1,2.7775,-0.3486902602190949,-0.06501171877054644,0.8855292743172035,-0.06580745499837919,-0.429931,-20.676711
11.185,2.0,1.0,1.0,34.0,33.5,33.5,1.8,4.1,2.78,-0.36551753502586926,-0.06534740191555127,0.8772734951005083,-0.06886834264053159,-0.442104,-20.451243
11.185,2.0,1.0,1.0,34.0,33.5,33.5,1.8,4.1,2.7825,-0.382380694670801,-0.06562480884088652,0.8685390411693508,-0.07205482052230364,-0.454801,-20.223444
11.185,2.0,1.0,1.0,34.0,33.5,33.5,1.8,4.1,2.785,-0.39926835422951373,-0.06583772824243425,0.8593112727751961,-0.07537194270655591,-0.468054,-19.993258
11.185,2.0,1.0,1.0,34.0,33.5,33.5,1.8,4.1,2.7875,-0.41616819188235943,-0.06597939658295689,0.8495752049696216,-0.07882493001769374,-0.481896,-19.760627
11.185,2.0,1.0,1.0,34.0,33.5,33.5,1.8,4.1,2.79,-0.4330668789698864,-0.06604244745601388,0.8393155126523366,-0.08241916743428171,-0.496364,-19.52549
11.185,2.0,1.0,1.0,34.0,33.5,33.5,1.8,4.1,2.7925,-0.4499500042285036,-0.06601885595186127,0.8285165380944763,-0.08616019955530926,-0.511497,-19.287784
11.185,2.0,1.0,1.0,34.0,33.5,33.5,1.8,4.1,2.795,-0.4668019916474206,-0.06589987750074534,0.8171623013951475,-0.09005372372341686,-0.527338,-19.047446
11.185,2.0,1.0,1.0,34.0,33.5,33.5,1.8,4.1,2.7975,-0.48360601133038394,-0.06567598061406843,0.8052365144126544,-0.09410558030768776,-0.543933,-18.804408
11.185,2.0,1.0,1.0,34.0,33.5,33.5,1.8,4.1,2.8,-0.5003438826833939,-0.06533677288428824,0.7927225988109754,-0.0983217395523526,-0.561331,-18.5586
11.185,2.0,1.0,1.0,34.0,33.5,33.5,1.8,4.1,2.8025,-0.5169959691819574,-0.06487091954017955,0.779603708980381,-0.10270828428274593,-0.579588,-18.309952
11.185,2.0,1.0,1.0,34.0,33.5,33.5,1.8,4.1,2.805,-0.5335410638991368,-0.06426605378552935,0.7658627607322037,-0.10727138762249082,-0.598762,-18.058389
11.185,2.0,1.0,1.0,34.0,33.5,33.5,1.8,4.1,2.8075,-0.549956264899045,-0.06350867807704942,0.7514824668361726,-0.11201728471170459,-0.618919,-17.803834
11.185,2.0,1.0,1.0,34.0,33.5,33.5,1.8,4.1,2.81,-0.5662168395205415,-0.06258405542232502,0.736445380669962,-0.1169522372197272,-0.640127,-17.546209
11.185,2.0,1.0,1.0,34.0,33.5,33.5,1.8,4.1,2.8125,-0.58229607649419,-0.0614760897026353,0.720733949491073,-0.122082489211118,-0.662465,-17.285431
11.185,2.0,1.0,1.0,34.0,33.5,33.5,1.8,4.1,2.815,-0.5981651247546995,-0.0601671939509839,0.7043305791286137,-0.12741421264292896,-0.686016,-17.021416
11.185,2.0,1.0,1.0,34.0,33.5,33.5,1.8,4.1,2.8175,-0.613792817734437,-0.05863814544634468,0.6872177122362885,-0.1329534404354711,-0.710873,-16.754079
11.185,2.0,1.0,1.0,34.0,33.5,33.5,1.8,4.1,2.82,-0.6291454818564735,-0.056867926426184955,0.669377922658853,-0.1387059846572999,-0.737137,-16.483329
11.185,2.0,1.0,1.0,34.0,33.5,33.5,1.8,4.1,2.8225,-0.644186727895324,-0.05483354917813969,0.650794028955454,-0.14467733688528747,-0.764921,-16.209076
11.185,2.0,1.0,1.0,34.0,33.5,33.5,1.8,4.1,2.825,-0.6588772238501852,-0.05250986425846492,0.6314492307099838,-0.1508725472275529,-0.794346,-15.931225
11.185,2.0,1.0,1.0,34.0,33.5,33.5,1.8,4.1,2.8275,-0.6731744479930875,-0.04986935061358534,0.6113272719586181,-0.15729607781333915,-0.82555,-15.649682
