1,w,sub_t,h,l1,l2,l3,g1,g2,Freq,S11_re,S21_re,S11_img,S21_img,S11_dB,S21_dB
11.185,2.0,1.0,1.0,33.5,33.6,33.6,1.7,3.0,2.5,0.842343254231316,-0.0111033400823281,0.525284726473752,0.0101951457338367,-0.063583,-36.435436
11.185,2.0,1.0,1.0,33.5,33.6,33.6,1.7,3.0,2.5025,0.8386377266079921,-0.011339603025318473,0.5310367356037067,0.010252793104671691,-0.064257,-36.313295
11.185,2.0,1.0,1.0,33.5,33.6,33.6,1.7,3.0,2.505,0.834874278586622,-0.01158049416315786,0.5367889679139503,0.010309567884005881,-0.064944,-36.190745
11.185,2.0,1.0,1.0,33.5,33.6,33.6,1.7,3.0,2.5075,0.8310522576030466,-0.011826114049433468,0.5425411455290657,0.010365416914609729,-0.065643,-36.067779
11.185,2.0,1.0,1.0,33.5,33.6,33.6,1.7,3.0,2.51,0.8271709994784726,-0.012076565859847418,0.5482929809275479,0.010420284763603833,-0.066356,-35.944389
11.185,2.0,1.0,1.0,33.5,33.6,33.6,1.7,3.0,2.5125,0.8232298281962767,-0.012331955470406468,0.5540441765926756,0.010474113620241622,-0.067083,-35.820566
11.185,2.0,1.0,1.0,33.5,33.6,33.6,1.7,3.0,2.515,0.8192280556745619,-0.01259239153812281,0.5597944246502435,0.010526843188716216,-0.067823,-35.696302
11.185,2.0,1.0,1.0,33.5,33.6,33.6,1.7,3.0,2.5175,0.8151649815344275,-0.012857985584307613,0.5655434064925883,0.010578410575726121,-0.068578,-35.571589
11.185,2.0,1.0,1.0,33.5,33.6,33.6,1.7,3.0,2.52,0.811039892863876,-0.01312885208054147,0.5712907923883512,0.010628750172520317,-0.069348,-35.446418
11.185,2.0,1.0,1.0,33.5,33.6,33.6,1.7,3.0,2.5225,0.806852063977333,-0.013405108537406708,0.5770362410773587,0.010677793531126257,-0.070133,-35.32078
11.185,2.0,1.0,1.0,33.5,33.6,33.6,1.7,3.0,2.525,0.8026007561707039,-0.013686875596071206,0.5827793993500023,0.010725469234446436,-0.070933,-35.194667
11.185,2.0,1.0,1.0,33.5,33.6,33.6,1.7,3.0,2.5275,0.7982852174719369,-0.013974277122813378,0.5885199016104609,0.010771702759891845,-0.071749,-35.068069
11.185,2.0,1.0,1.0,33.5,33.6,33.6,1.7,3.0,2.53,0.7939046823870424,-0.014267440306580868,0.5942573694230591,0.01081641633619959,-0.072581,-34.940978
11.185,2.0,1.0,1.0,33.5,33.6,33.6,1.7,3.0,2.5325,0.789458371641532,-0.014566495759678635,0.5999914110410501,0.01085952879306147,-0.07343,-34.813385
11.185,2.0,1.0,1.0,33.5,33.6,33.6,1.7,3.0,2.535,0.7849454919172326,-0.014871577621682397,0.605721620917061,0.010900955403168041,-0.074296,-34.685279
11.185,2.0,1.0,1.0,33.5,33.6,33.6,1.7,3.0,2.5375,0.7803652355844578,-0.015182823666676525,0.6114475791943912,0.010940607716248269,-0.07518,-34.556652
11.185,2.0,1.0,1.0,33.5,33.6,33.6,1.7,3.0,2.54,0.7757167804294945,-0.015500375413917808,0.6171688511783414,0.010978393384659477,-0.076083,-34.427494
11.185,2.0,1.0,1.0,33.5,33.6,33.6,1.7,3.0,2.5425,0.7709992893773918,-0.01582437824202662,0.6228849867866864,0.011014215980055813,-0.077003,-34.297795
11.185,2.0,1.0,1.0,33.5,33.6,33.6,1.7,3.0,2.545,0.7662119102100329,-0.0161549815068106,0.6285955199783737,0.011047974800633138,-0.077943,-34.167545
11.185,2.0,1.0,1.0,33.5,33.6,33.6,1.7,3.0,2.5475,0.761353775279489,-0.016492338662825342,0.6342999681594703,0.011079564668418383,-0.078903,-34.036735
11.185,2.0,1.0,1.0,33.5,33.6,33.6,1.7,3.0,2.55,0.7564240012166381,-0.016836607388780293,0.6399978315653541,0.011108875716037999,-0.079883,-33.905353
11.185,2.0,1.0,1.0,33.5,33.6,33.6,1.7,3.0,2.5525,0.7514216886350784,-0.01718794971689617,0.64568859261806,0.011135793162364061,-0.080883,-33.77339
11.185,2.0,1.0,1.0,33.5,33.6,33.6,1.7,3.0,2.555,0.7463459218303338,-0.01754653216632312,0.6513717152576746,0.011160197076400584,-0.081905,-33.640834
11.185,2.0,1.0,1.0,33.5,33.6,33.6,1.7,3.0,2.5575,0.7411957684743857,-0.017912525880728704,0.6570466442465865,0.011181962128730068,-0.082949,-33.507675
11.185,2.0,1.0,1.0,33.5,33.6,33.6,1.7,3.0,2.56,0.7359702793055751,-0.0182861067701633,0.6627128044453467,0.011200957329798802,-0.084016,-33.373903
11.185,2.0,1.0,1.0,33.5,33.6,33.6,1.7,3.0,2.5625,0.730668487813918,-0.018667455657311816,0.6683696000588288,0.01121704575427319,-0.085106,-33.239505
11.185,2.0,1.0,1.0,33.5,33.6,33.6,1.7,3.0,2.565,0.7252894099219,-0.01905675842823896,0.6740164138513155,0.011230084250648434,-0.08622,-33.104471
11.185,2.0,1.0,1.0,33.5,33.6,33.6,1.7,3.0,2.5675,0.7198320436608422,-0.019454206187732206,0.6796526063290459,0.011239923135240077,-0.087359,-32.968789
11.185,2.0,1.0,1.0,33.5,33.6,33.6,1.7,3.0,2.57,0.7142953688429183,-0.019859995419346885,0.6852775148887007,0.01124640586963139,-0.088523,-32.832448
11.185,2.0,1.0,1.0,33.5,33.6,33.6,1.7,3.0,2.5725,0.7086783467289527,-0.020274328150252176,0.6908904529302093,0.011249368720588309,-0.089713,-32.695434
11.185,2.0,1.0,1.0,33.5,33.6,33.6,1.7,3.0,2.575,0.7029799196921293,-0.020697412120973747,0.6964907089321731,0.011248640401390014,-0.090931,-32.557737
11.185,2.0,1.0,1.0,33.5,33.6,33.6,1.7,3.0,2.5775,0.6971990108777744,-0.02112946096012431,0.7020775454881085,0.011244041693452623,-0.092176,-32.419344
11.185,2.0,1.0,1.0,33.5,33.6,33.6,1.7,3.0,2.58,0.6913345238593984,-0.02157069436420461,0.7076501983016148,0.011235385047048706,-0.09345,-32.280242
11.185,2.0,1.0,1.0,33.5,33.6,33.6,1.7,3.0,2.5825,0.685385342291204,-0.02202133828255359,0.7132078751384615,0.011222474159845572,-0.094753,-32.140418
11.185,2.0,1.0,1.0,33.5,33.6,33.6,1.7,3.0,2.585,0.6793503295573081,-0.02248162510751269,0.7187497547334833,0.011205103531899798,-0.096087,-31.999859
11.185,2.0,1.0,1.0,33.5,33.6,33.6,1.7,3.0,2.5875,0.6732283284179471,-0.02295179386986312,0.7242749856500454,0.011183057995650657,-0.097452,-31.858552
11.185,2.0,1.0,1.0,33.5,33.6,33.6,1.7,3.0,2.59,0.6670181606529869,-0.023432090439577304,0.7297826850897106,0.011156112219359103,-0.09885,-31.716484
11.185,2.0,1.0,1.0,33.5,33.6,33.6,1.7,3.0,2.5925,0.6607186267030764,-0.023922767731915248,0.7352719376496147,0.011124030182329714,-0.100281,-31.57364
11.185,2.0,1.0,1.0,33.5,33.6,33.6,1.7,3.0,2.595,0.6543285053088594,-0.024424085918875255,0.7407417940248977,0.011086564620139126,-0.101747,-31.430007
11.185,2.0,1.0,1.0,33.5,33.6,33.6,1.7,3.0,2.5975,0.6478465531486717,-0.024936312645990562,0.7461912696533879,0.011043456437971276,-0.103248,-31.285569
11.185,2.0,1.0,1.0,33.5,33.6,33.6,1.7,3.0,2.6,0.6412715044752345,-0.02545972325443937,0.7516193432995785,0.010994434090026534,-0.104786,-31.140313
11.185,2.0,1.0,1.0,33.5,33.6,33.6,1.7,3.0,2.6025,0.6346020707519021,-0.025994601008407885,0.757024955574736,0.010939212922828654,-0.106363,-30.994222
11.185,2.0,1.0,1.0,33.5,33.6,33.6,1.7,3.0,2.605,0.6278369402890819,-0.026541237327616075,0.7624070073898169,0.01087749448010052,-0.107978,-30.847283
11.185,2.0,1.0,1.0,33.5,33.6,33.6,1.7,3.0,2.6075,0.6209747778815258,-0.02709993202487989,0.7677643583376444,0.010808965766711491,-0.109634,-30.699479
11.185,2.0,1.0,1.0,33.5,33.6,33.6,1.7,3.0,2.61,0.6140142244472742,-0.02767099354854231,0.7730958250005898,0.010733298469022767,-0.111332,-30.550795
11.185,2.0,1.0,1.0,33.5,33.6,33.6,1.7,3.0,2.6125,0.6069538966691057,-0.028254739229560146,0.7784001791797653,0.010650148128762076,-0.113074,-30.401214
11.185,2.0,1.0,1.0,33.5,33.6,33.6,1.7,3.0,2.615,0.5997923866394537,-0.028851495532981077,0.783676146041495,0.010559153267351972,-0.11486,-30.250719
11.185,2.0,1.0,1.0,33.5,33.6,33.6,1.7,3.0,2.6175,0.5925282615098603,-0.02946159831348239,0.7889224021765419,0.010459934457390817,-0.116693,-30.099294
11.185,2.0,1.0,1.0,33.5,33.6,33.6,1.7,3.0,2.62,0.5851600631461504,-0.030085393074577707,0.794137573567306,0.010352093337742261,-0.118574,-29.946922
11.185,2.0,1.0,1.0,33.5,33.6,33.6,1.7,3.0,2.6225,0.57768630779063,-0.03072323523101909,0.7993202334578831,0.01023521156842764,-0.120504,-29.793584
11.185,2.0,1.0,1.0,33.5,33.6,33.6,1.7,3.0,2.625,0.570105485732784,-0.0313754903738313,0.804468900121544,0.0101088497212316,-0.122486,-29.639262
11.185,2.0,1.0,1.0,33.5,33.6,33.6,1.7,3.0,2.6275,0.5624160609900692,-0.032042534537319506,0.8095820345198452,0.00997254610162451,-0.124522,-29.483938
11.185,2.0,1.0,1.0,33.5,33.6,33.6,1.7,3.0,2.63,0.5546164710006113,-0.032724754467274124,0.814658037847193,0.009825815497273033,-0.126613,-29.327594
11.185,2.0,1.0,1.0,33.5,33.6,33.6,1.7,3.0,2.6325,0.5467051263297806,-0.03342254788947003,0.8196952489542676,0.00966814784805288,-0.128761,-29.170209
11.185,2.0,1.0,1.0,33.5,33.6,33.6,1.7,3.0,2.635,0.5386804103928615,-0.034136323777411715,0.8246919416432745,0.009499006832086288,-0.130969,-29.011765
11.185,2.0,1.0,1.0,33.5,33.6,33.6,1.7,3.0,2.6375,0.530540679196256,-0.03486650261811038,0.8296463218275072,0.009317828361907851,-0.133239,-28.85224
11.185,2.0,1.0,1.0,33.5,33.6,33.6,1.7,3.0,2.64,0.5222842610999181,-0.0356135166744954,0.8345565245471943,0.009124018984403508,-0.135573,-28.691614
11.185,2.0,1.0,1.0,33.5,33.6,33.6,1.7,3.0,2.6425,0.5139094566040467,-0.036377810242847135,0.8394206108330405,0.008916954177674316,-0.137973,-28.529866
11.185,2.0,1.0,1.0,33.5,33.6,33.6,1.7,3.0,2.645,0.5054145381633499,-0.03715983990340549,0.8442365644082709,0.008695976537437903,-0.140442,-28.366974
11.185,2.0,1.0,1.0,33.5,33.6,33.6,1.7,3.0,2.6475,0.4967977500325969,-0.03796007476203329,0.849002288219343,0.008460393844998373,-0.142984,-28.202915
11.185,2.0,1.0,1.0,33.5,33.6,33.6,1.7,3.0,2.65,0.48805730814754195,-0.038778996680514474,0.853715600784788,0.008209477008182083,-0.145599,-28.037668
11.185,2.0,1.0,1.0,33.5,33.6,33.6,1.7,3.0,2.6525,0.479191400045812,-0.03961710049271503,0.8583742323508667,0.00794245786594923,-0.148293,-27.871209
11.185,2.0,1.0,1.0,33.5,33.6,33.6,1.7,3.0,2.655,0.4701981848327921,-0.04047489420345213,0.8629758208419422,0.007658526846644244,-0.151067,-27.703514
11.185,2.0,1.0,1.0,33.5,33.6,33.6,1.7,3.0,2.6575,0.4610757931981541,-0.04135289916646844,0.8675179075925346,0.007356830469035767,-0.153925,-27.534558
11.185,2.0,1.0,1.0,33.5,33.6,33.6,1.7,3.0,2.66,0.4518223274892867,-0.04225165023741333,0.871997932847103,0.0070364686744134935,-0.15687,-27.364317
11.185,2.0,1.0,1.0,33.5,33.6,33.6,1.7,3.0,2.6625,0.4424358618485966,-0.04317169589716301,0.8764132310125226,0.006696491977048709,-0.159907,-27.192764
11.185,2.0,1.0,1.0,33.5,33.6,33.6,1.7,3.0,2.665,0.43291444242241917,-0.04411359834017486,0.8807610256471234,0.006335898419280163,-0.163039,-27.019873
11.185,2.0,1.0,1.0,33.5,33.6,33.6,1.7,3.0,2.6675,0.42325608765019834,-0.04507793352184015,0.8850384241688952,0.005953630316346993,-0.166269,-26.845617
11.185,2.0,1.0,1.0,33.5,33.6,33.6,1.7,3.0,2.67,0.413458788643552,-0.04606529115797991,0.8892424122641731,0.005548570774853822,-0.169603,-26.669968
11.185,2.0,1.0,1.0,33.5,33.6,33.6,1.7,3.0,2.6725,0.40352050966595654,-0.04707627466869513,0.893369847976631,0.005119539967399471,-0.173044,-26.492898
11.185,2.0,1.0,1.0,33.5,33.6,33.6,1.7,3.0,2.675,0.3934391887250608,-0.04811150105772144,0.8974174554548722,0.004665291144433178,-0.176598,-26.314377
11.185,2.0,1.0,1.0,33.5,33.6,33.6,1.7,3.0,2.6775,0.3832127382910067,-0.04917160071723939,0.9013818183351774,0.00418450636279663,-0.180269,-26.134375
11.185,2.0,1.0,1.0,33.5,33.6,33.6,1.7,3.0,2.68,0.37283904615573726,-0.05025721714672677,0.9052593727341349,0.003675791908664966,-0.184063,-25.952861
11.185,2.0,1.0,1.0,33.5,33.6,33.6,1.7,3.0,2.6825,0.3623159764500543,-0.051369006572887566,0.9090463998238454,0.003137673390693016,-0.187985,-25.769804
11.185,2.0,1.0,1.0,33.5,33.6,33.6,1.7,3.0,2.685,0.35164137083718233,-0.05250763745593274,0.9127390179602131,0.002568590477100229,-0.192042,-25.58517
11.185,2.0,1.0,1.0,33.5,33.6,33.6,1.7,3.0,2.6875,0.340813049903878,-0.053673789865481304,0.9163331743324554,0.0019668912481595495,-0.196239,-25.398927
11.185,2.0,1.0,1.0,33.5,33.6,33.6,1.7,3.0,2.69,0.32982881477269027,-0.05486815470706725,0.9198246360993498,0.0013308261330931424,-0.200583,-25.211039
11.185,2.0,1.0,1.0,33.5,33.6,33.6,1.7,3.0,2.6925,0.3186864489618491,-0.056091432777644244,0.9232089809749497,0.0006585413976836706,-0.205081,-25.021471
11.185,2.0,1.0,1.0,33.5,33.6,33.6,1.7,3.0,2.695,0.3073837205225962,-0.05734433362550737,0.926481587223404,-5.192785401752879e-05,-0.209741,-24.830186
11.185,2.0,1.0,1.0,33.5,33.6,33.6,1.7,3.0,2.6975,0.29591838448743957,-0.05862757418668374,0.9296376230192112,-0.0008026652037006783,-0.214571,-24.637148
11.185,2.0,1.0,1.0,33.5,33.6,33.6,1.7,3.0,2.7,0.28428818566708913,-0.059941877165973975,0.9326720351255907,-0.001595881011814183,-0.219579,-24.442316
11.185,2.0,1.0,1.0,33.5,33.6,33.6,1.7,3.0,2.7025,0.2724908618385989,-0.061287969126429274,0.9355795368397403,-0.0024339211266649844,-0.224774,-24.245651
11.185,2.0,1.0,1.0,33.5,33.6,33.6,1.7,3.0,2.705,0.26052414737274115,-0.0626665782460006,0.9383545951494628,-0.0033192762607896654,-0.230166,-24.047113
11.185,2.0,1.0,1.0,33.5,33.6,33.6,1.7,3.0,2.7075,0.24838577735482326,-0.06407843169433898,0.940991417041017,-0.004254592090259329,-0.235765,-23.846659
11.185,2.0,1.0,1.0,33.5,33.6,33.6,1.7,3.0,2.71,0.2360734922602999,-0.06552425257611469,0.9434839348930206,-0.0052426801374300565,-0.241582,-23.644244
11.185,2.0,1.0,1.0,33.5,33.6,33.6,1.7,3.0,2.7125,0.22358504325457693,-0.06700475637966166,0.9458257908858096,-0.006286529502911172,-0.247628,-23.439825
11.185,2.0,1.0,1.0,33.5,33.6,33.6,1.7,3.0,2.715,0.21091819819571198,-0.06852064686106618,0.9480103203497644,-0.007389319518211703,-0.253916,-23.233355
11.185,2.0,1.0,1.0,33.5,33.6,33.6,1.7,3.0,2.7175,0.19807074842925743,-0.07007261128385556,0.9500305339698011,-0.008554433396668148,-0.260459,-23.024787
11.185,2.0,1.0,1.0,33.5,33.6,33.6,1.7,3.0,2.72,0.18504051647665343,-0.07166131492298122,0.9518790987564021,-0.00978547296686623,-0.267272,-22.81407
11.185,2.0,1.0,1.0,33.5,33.6,33.6,1.7,3.0,2.7225,0.17182536473242,-0.07328739472862701,0.9535483176862555,-0.011086274579875906,-0.274369,-22.601155
11.185,2.0,1.0,1.0,33.5,33.6,33.6,1.7,3.0,2.725,0.15842320530142057,-0.0749514520301946,0.9550301079077641,-0.01246092628920028,-0.281768,-22.385988
11.185,2.0,1.0,1.0,33.5,33.6,33.6,1.7,3.0,2.7275,0.1448320111257045,-0.07665404414335641,0.9563159773983924,-0.013913786410431879,-0.289485,-22.168517
11.185,2.0,1.0,1.0,33.5,33.6,33.6,1.7,3.0,2.73,0.13104982857159378,-0.07839567472290522,0.9573969999520179,-0.015449503576147727,-0.29754,-21.948684
11.185,2.0,1.0,1.0,33.5,33.6,33.6,1.7,3.0,2.7325,0.11707479167187025,-0.08017678268088103,0.9582637883652476,-0.017073038410570552,-0.305953,-21.726433
11.185,2.0,1.0,1.0,33.5,33.6,33.6,1.7,3.0,2.735,0.10290513824594902,-0.08199772946257841,0.9589064656820583,-0.018789686957863736,-0.314745,-21.501704
11.185,2.0,1.0,1.0,33.5,33.6,33.6,1.7,3.0,2.7375,0.08853922815312265,-0.0838587844419817,0.9593146343462484,-0.0206051060075551,-0.323941,-21.274437
11.185,2.0,1.0,1.0,33.5,33.6,33.6,1.7,3.0,2.74,0.07397556397128838,-0.08576010816222332,0.9594773431011842,-0.02252534047031817,-0.333566,-21.044566
11.185,2.0,1.0,1.0,33.5,33.6,33.6,1.7,3.0,2.7425,0.059212814436564565,-0.08770173310504022,0.9593830514664339,-0.02455685296699687,-0.343647,-20.812028
11.185,2.0,1.0,1.0,33.5,33.6,33.6,1.7,3.0,2.745,0.04424984102909837,-0.08968354162495823,0.9590195916113228,-0.02670655580303246,-0.354214,-20.576755
11.185,2.0,1.0,1.0,33.5,33.6,33.6,1.7,3.0,2.7475,0.02908572814801117,-0.09170524062799004,0.9583741274366877,-0.028981845508964106,-0.3653,-20.338677
11.185,2.0,1.0,1.0,33.5,33.6,33.6,1.7,3.0,2.75,0.0137198173853063,-0.0937663325097105,0.957433110668661,-0.0313906401348851,-0.376939,-20.097723
11.185,2.0,1.0,1.0,33.5,33.6,33.6,1.7,3.0,2.7525,-0.001848253513918854,-0.0958660817921892,0.9561822337628488,-0.03394141949195145,-0.38917,-19.853818
11.185,2.0,1.0,1.0,33.5,33.6,33.6,1.7,3.0,2.755,-0.017618506327659766,-0.09800347681168968,0.9546063794148126,-0.036643268536327364,-0.402034,-19.606886
11.185,2.0,1.0,1.0,33.5,33.6,33.6,1.7,3.0,2.7575,-0.03359057188793511,-0.10017718570729184,0.9526895664744023,-0.03950592408909848,-0.415576,-19.356848
11.185,2.0,1.0,1.0,33.5,33.6,33.6,1.7,3.0,2.76,-0.04976363256349832,-0.10238550584230241,0.9504148920690422,-0.0425398250780822,-0.429845,-19.103623
11.185,2.0,1.0,1.0,33.5,33.6,33.6,1.7,3.0,2.7625,-0.06613635665067875,-0.10462630565283663,0.9477644697563843,-0.045756166472067664,-0.444895,-18.847127
11.185,2.0,1.0,1.0,33.5,33.6,33.6,1.7,3.0,2.765,-0.0827068234651276,-0.10689695775815003,0.9447193635527572,-0.049166957052115934,-0.460785,-18.587275
11.185,2.0,1.0,1.0,33.5,33.6,33.6,1.7,3.0,2.7675,-0.09947243773749015,-0.10919426198164119,0.941259517723902,-0.05278508112467814,-0.477578,-18.323976
11.185,2.0,1.0,1.0,33.5,33.6,33.6,1.7,3.0,2.77,-0.11642983169581095,-0.11151435671587634,0.9373636822832383,-0.05662436422297475,-0.495346,-18.057141
11.185,2.0,1.0,1.0,33.5,33.6,33.6,1.7,3.0,2.7725,-0.1335747529621465,-0.11385261681494356,0.9330093342260853,-0.06069964276052313,-0.514166,-17.786675
11.185,2.0,1.0,1.0,33.5,33.6,33.6,1.7,3.0,2.775,-0.1509019360953746,-0.11620353590782698,0.9281725946434821,-0.06502683748651834,-0.534123,-17.512484
11.185,2.0,1.0,1.0,33.5,33.6,33.6,1.7,3.0,2.7775,-0.16840495527067692,-0.1185605906916756,0.9228281420159945,-0.06962303043743168,-0.555311,-17.234468
11.185,2.0,1.0,1.0,33.5,33.6,33.6,1.7,3.0,2.78,-0.18607605519260756,-0.1209160843778001,0.9169491221985836,-0.07450654487052365,-0.577835,-16.952527
11.185,2.0,1.0,1.0,33.5,33.6,33.6,1.7,3.0,2.7825,-0.20390595688647495,-0.12326096601960658,0.9105070558879486,-0.0796970273873946,-0.60181,-16.666559
11.185,2.0,1.0,1.0,33.5,33.6,33.6,1.7,3.0,2.785,-0.22188363449578244,-0.12558462194420358,0.9034717447337348,-0.08521553108941525,-0.627362,-16.37646
11.185,2.0,1.0,1.0,33.5,33.6,33.6,1.7,3.0,2.7875,-0.23999605862529066,-0.12787463493220547,0.8958111777403489,-0.09108459812653849,-0.654633,-16.082126
11.185,2.0,1.0,1.0,33.5,33.6,33.6,1.7,3.0,2.79,-0.2582279011057567,-0.13011650613876874,0.8874914402390331,-0.09732833937466183,-0.683781,-15.783449
11.185,2.0,1.0,1.0,33.5,33.6,33.6,1.7,3.0,2.7925,-0.27656119531464224,-0.13229333402088203,0.8784766285315354,-0.10397250816370512,-0.71498,-15.480324
11.185,2.0,1.0,1.0,33.5,33.6,33.6,1.7,3.0,2.795,-0.29497494536946606,-0.13438544373333566,0.8687287743687627,-0.11104456392791386,-0.748427,-15.172644
11.185,2.0,1.0,1.0,33.5,33.6,33.6,1.7,3.0,2.7975,-0.31344467662505526,-0.13636995958718764,0.8582077847951057,-0.11857372029737362,-0.784341,-14.860305
11.185,2.0,1.0,1.0,33.5,33.6,33.6,1.7,3.0,2.8,-0.33194191897226744,-0.13822031224891854,0.8468714046424308,-0.1265909704156284,-0.822968,-14.543203
11.185,2.0,1.0,1.0,33.5,33.6,33.6,1.7,3.0,2.8025,-0.35043361348831353,-0.13990567143050459,0.8346752111970726,-0.1351290800537065,-0.864582,-14.221239
11.185,2.0,1.0,1.0,33.5,33.6,33.6,1.7,3.0,2.805,-0.3688814320862343,-0.14139029393833322,0.821572653410908,-0.14422253627499967,-0.909496,-13.894319
11.185,2.0,1.0,1.0,33.5,33.6,33.6,1.7,3.0,2.8075,-0.38724099904617804,-0.14263277620410603,0.8075151516314154,-0.15390743584230268,-0.95806,-13.562355
11.185,2.0,1.0,1.0,33.5,33.6,33.6,1.7,3.0,2.81,-0.40546100282537567,-0.14358519995412358,0.7924522783610904,-0.1642212930747542,-1.010669,-13.225268
11.185,2.0,1.0,1.0,33.5,33.6,33.6,1.7,3.0,2.8125,-0.4234821865487391,-0.14419215969382246,0.7763320462263603,-0.175202741258247,-1.067774,-12.882992
11.185,2.0,1.0,1.0,33.5,33.6,33.6,1.7,3.0,2.815,-0.44123620638586347,-0.14438966149717844,0.7591013363662091,-0.1868910947652276,-1.129883,-12.535475
11.185,2.0,1.0,1.0,33.5,33.6,33.6,1.7,3.0,2.8175,-0.45864434906411067,-0.1441038846321475,0.7407065090789406,-0.1993257305142777,-1.197578,-12.182685
11.185,2.0,1.0,1.0,33.5,33.6,33.6,1.7,3.0,2.82,-0.4756161036723312,-0.14324980143769,0.7210942490169673,-0.21254523707480188,-1.27152,-11.824612
11.185,2.0,1.0,1.0,33.5,33.6,33.6,1.7,3.0,2.8225,-0.4920475895337825,-0.14172965744365768,0.7002127096635807,-0.22658626743154403,-1.352465,-11.461277
11.185,2.0,1.0,1.0,33.5,33.6,33.6,1.7,3.0,2.825,-0.5078198524337055,-0.13943132414205614,0.6780130363005351,-0.2414820171314265,-1.441281,-11.092736
11.185,2.0,1.0,1.0,33.5,33.6,33.6,1.7,3.0,2.8275,-0.5227970574195955,-0.13622655260131722,0.6544513629673568,-0.25726023345486,-1.53896,-10.71909
11.185,2.0,1.0,1.0,33.5,33.6,33.6,1.7,3.0,2.83,-0.5368246297400108,-0.13196917922905693,0.6294913963687032,-0.27394064403421564,-1.646646,-10.340492
