1,w,sub_t,h,l1,l2,l3,g1,g2,Freq,S11_re,S21_re,S11_img,S21_img,S11_dB,S21_dB
11.185,2.0,1.0,1.0,34.1,33.8,33.8,4.1,1.8,2.5,0.770757762428846,-0.0100717062688326,0.625810105672443,0.00603753149571266,-0.062527,-38.604639
11.185,2.0,1.0,1.0,34.1,33.8,33.8,4.1,1.8,2.5025,0.766060638022464,-0.010259617307543108,0.6314397212706326,0.006037328511196476,-0.063147,-38.486023
11.185,2.0,1.0,1.0,34.1,33.8,33.8,4.1,1.8,2.505,0.7612990413465686,-0.010450772725400107,0.6370599609398796,0.00603553082361009,-0.063779,-38.367006
11.185,2.0,1.0,1.0,34.1,33.8,33.8,4.1,1.8,2.5075,0.7564723398755285,-0.010645234589463225,0.6426703358712196,0.006032079185288232,-0.064423,-38.247579
11.185,2.0,1.0,1.0,34.1,33.8,33.8,4.1,1.8,2.51,0.7515798929303772,-0.01084306647239383,0.6482703434397369,0.0060269122368493775,-0.065079,-38.127733
11.185,2.0,1.0,1.0,34.1,33.8,33.8,4.1,1.8,2.5125,0.7466210516169387,-0.011044333498397445,0.6538594667932749,0.006019966420753405,-0.065747,-38.00746
11.185,2.0,1.0,1.0,34.1,33.8,33.8,4.1,1.8,2.515,0.7415951587659897,-0.011249102390874607,0.6594371744285775,0.006011175890758031,-0.066428,-37.886751
11.185,2.0,1.0,1.0,34.1,33.8,33.8,4.1,1.8,2.5175,0.7365015488756387,-0.011457441521857232,0.6650029197544255,0.006000472417048889,-0.067122,-37.765595
11.185,2.0,1.0,1.0,34.1,33.8,33.8,4.1,1.8,2.52,0.731339548056065,-0.011669420963312806,0.6705561406413507,0.005987785286803772,-0.067829,-37.643984
11.185,2.0,1.0,1.0,34.1,33.8,33.8,4.1,1.8,2.5225,0.7261084739768164,-0.011885112540402216,0.6760962589574403,0.005973041199936282,-0.06855,-37.521909
11.185,2.0,1.0,1.0,34.1,33.8,33.8,4.1,1.8,2.525,0.7208076358168243,-0.012104589886782752,0.6816226800897867,0.005956164159747149,-0.069285,-37.399358
11.185,2.0,1.0,1.0,34.1,33.8,33.8,4.1,1.8,2.5275,0.7154363342173355,-0.012327928502052068,0.6871347924510717,0.005937075358194801,-0.070034,-37.276323
11.185,2.0,1.0,1.0,34.1,33.8,33.8,4.1,1.8,2.53,0.7099938612379608,-0.012555205811434694,0.6926319669707691,0.00591569305547652,-0.070798,-37.152792
11.185,2.0,1.0,1.0,34.1,33.8,33.8,4.1,1.8,2.5325,0.7044795003160371,-0.012786501227818306,0.6981135565704295,0.0058919324535919365,-0.071577,-37.028756
11.185,2.0,1.0,1.0,34.1,33.8,33.8,4.1,1.8,2.535,0.6988925262295176,-0.013021896216253636,0.7035788956224909,0.005865705563538247,-0.072371,-36.904203
11.185,2.0,1.0,1.0,34.1,33.8,33.8,4.1,1.8,2.5375,0.6932322050636207,-0.013261474361036087,0.7090272993920101,0.005836921065762842,-0.073181,-36.779124
11.185,2.0,1.0,1.0,34.1,33.8,33.8,4.1,1.8,2.54,0.6874977941814588,-0.013505321435498062,0.7144580634607235,0.005805484163473493,-0.074007,-36.653506
11.185,2.0,1.0,1.0,34.1,33.8,33.8,4.1,1.8,2.5425,0.6816885421988876,-0.013753525474644044,0.7198704631327747,0.005771296428378606,-0.07485,-36.527338
11.185,2.0,1.0,1.0,34.1,33.8,33.8,4.1,1.8,2.545,0.6758036889638271,-0.014006176850771499,0.7252637528214528,0.005734255638400605,-0.07571,-36.400608
11.185,2.0,1.0,1.0,34.1,33.8,33.8,4.1,1.8,2.5475,0.6698424655403165,-0.014263368352226446,0.7306371654162155,0.00569425560687305,-0.076588,-36.273306
11.185,2.0,1.0,1.0,34.1,33.8,33.8,4.1,1.8,2.55,0.6638040941975549,-0.014525195265454175,0.7359899116292852,0.005651186002697468,-0.077483,-36.145417
11.185,2.0,1.0,1.0,34.1,33.8,33.8,4.1,1.8,2.5525,0.6576877884042283,-0.01479175546051172,0.7413211793210063,0.005604932160898995,-0.078397,-36.016931
11.185,2.0,1.0,1.0,34.1,33.8,33.8,4.1,1.8,2.555,0.6514927528283875,-0.015063149480221884,0.7466301328031804,0.0055553748829779495,-0.07933,-35.887834
11.185,2.0,1.0,1.0,34.1,33.8,33.8,4.1,1.8,2.5575,0.6452181833431826,-0.015339480633157085,0.7519159121194999,0.005502390226412464,-0.080283,-35.758112
11.185,2.0,1.0,1.0,34.1,33.8,33.8,4.1,1.8,2.56,0.6388632670387606,-0.01562085509065354,0.7571776323021798,0.005445849282617858,-0.081255,-35.627754
11.185,2.0,1.0,1.0,34.1,33.8,33.8,4.1,1.8,2.5625,0.6324271822406438,-0.015907381988068677,0.762414382603837,0.005385617942618155,-0.082248,-35.496744
11.185,2.0,1.0,1.0,34.1,33.8,33.8,4.1,1.8,2.565,0.6259090985349021,-0.016199173530506802,0.7676252257036107,0.005321556649628441,-0.083263,-35.365069
11.185,2.0,1.0,1.0,34.1,33.8,33.8,4.1,1.8,2.5675,0.6193081768004763,-0.016496345103252322,0.7728091968864453,0.005253520137686186,-0.084299,-35.232714
11.185,2.0,1.0,1.0,34.1,33.8,33.8,4.1,1.8,2.57,0.6126235692489763,-0.016799015387164502,0.7779653031944388,0.0051813571554038765,-0.085357,-35.099665
11.185,2.0,1.0,1.0,34.1,33.8,33.8,4.1,1.8,2.5725,0.6058544194723209,-0.017107306479303593,0.7830925225490332,0.0051049101738425764,-0.086439,-34.965906
11.185,2.0,1.0,1.0,34.1,33.8,33.8,4.1,1.8,2.575,0.5989998624985794,-0.017421344019073394,0.7881898028428037,0.005024015077428985,-0.087544,-34.831422
11.185,2.0,1.0,1.0,34.1,33.8,33.8,4.1,1.8,2.5775,0.5920590248563897,-0.017741257320185257,0.793256060999493,0.004938500836752293,-0.088674,-34.696197
11.185,2.0,1.0,1.0,34.1,33.8,33.8,4.1,1.8,2.58,0.5850310246483386,-0.018067179508765182,0.7982901820008637,0.004848189161985068,-0.089829,-34.560214
11.185,2.0,1.0,1.0,34.1,33.8,33.8,4.1,1.8,2.5825,0.5779149716336861,-0.018399247667947403,0.8032910178788527,0.004752894135570165,-0.09101,-34.423457
11.185,2.0,1.0,1.0,34.1,33.8,33.8,4.1,1.8,2.585,0.5707099673208479,-0.018737602989318012,0.8082573866713914,0.004652421822706065,-0.092218,-34.285907
11.185,2.0,1.0,1.0,34.1,33.8,33.8,4.1,1.8,2.5875,0.5634151050700249,-0.019082390931595642,0.8131880713401822,0.004546569858040759,-0.093453,-34.147548
11.185,2.0,1.0,1.0,34.1,33.8,33.8,4.1,1.8,2.59,0.5560294702064166,-0.019433761386959503,0.8180818186485521,0.004435127006853214,-0.094717,-34.008361
11.185,2.0,1.0,1.0,34.1,33.8,33.8,4.1,1.8,2.5925,0.548552140144416,-0.019791868855461584,0.8229373379974189,0.004317872698855253,-0.096011,-33.868328
11.185,2.0,1.0,1.0,34.1,33.8,33.8,4.1,1.8,2.595,0.5409821845232431,-0.020156872627986266,0.8277533002172237,0.004194576532588933,-0.097334,-33.727427
11.185,2.0,1.0,1.0,34.1,33.8,33.8,4.1,1.8,2.5975,0.533318665354423,-0.020528936978249226,0.8325283363135618,0.004064997748219608,-0.098689,-33.585641
11.185,2.0,1.0,1.0,34.1,33.8,33.8,4.1,1.8,2.6,0.5255606371815597,-0.02090823136435893,0.8372610361640351,0.003928884666333446,-0.100076,-33.442948
11.185,2.0,1.0,1.0,34.1,33.8,33.8,4.1,1.8,2.6025,0.5177071472528567,-0.02129493064049446,0.841949947163678,0.003785974090138509,-0.101497,-33.299327
11.185,2.0,1.0,1.0,34.1,33.8,33.8,4.1,1.8,2.605,0.5097572357068125,-0.021689215279289152,0.8465935728160938,0.0036359906682365273,-0.102952,-33.154756
11.185,2.0,1.0,1.0,34.1,33.8,33.8,4.1,1.8,2.6075,0.5017099357715494,-0.022091271605544492,0.8511903712672149,0.0034786462148779945,-0.104443,-33.009212
11.185,2.0,1.0,1.0,34.1,33.8,33.8,4.1,1.8,2.61,0.49356427397822983,-0.022501292041934517,0.8557387537783151,0.003313638984332697,-0.105971,-32.862673
11.185,2.0,1.0,1.0,34.1,33.8,33.8,4.1,1.8,2.6125,0.48531927038899664,-0.022919475367404612,0.8602370831346682,0.003140652895697365,-0.107537,-32.715114
11.185,2.0,1.0,1.0,34.1,33.8,33.8,4.1,1.8,2.615,0.47697393883989125,-0.02334602698900469,0.8646836719858818,0.002959356704120363,-0.109143,-32.566512
11.185,2.0,1.0,1.0,34.1,33.8,33.8,4.1,1.8,2.6175,0.46852728719920633,-0.02378115922794299,0.869076781113615,0.0027694031140446836,-0.11079,-32.416839
11.185,2.0,1.0,1.0,34.1,33.8,33.8,4.1,1.8,2.62,0.4599783176417027,-0.024225091620689424,0.8734146176220153,0.0025704278296519176,-0.11248,-32.26607
11.185,2.0,1.0,1.0,34.1,33.8,33.8,4.1,1.8,2.6225,0.45132602693913554,-0.024678051236004143,0.8776953330457482,0.0023620485372248213,-0.114213,-32.114177
11.185,2.0,1.0,1.0,34.1,33.8,33.8,4.1,1.8,2.625,0.442569406767542,-0.0251402730088118,0.88191702137004,0.00214386381363271,-0.115992,-31.961133
11.185,2.0,1.0,1.0,34.1,33.8,33.8,4.1,1.8,2.6275,0.43370744403169675,-0.02561200009189223,0.8860777169566256,0.0019154519545700234,-0.117819,-31.806907
11.185,2.0,1.0,1.0,34.1,33.8,33.8,4.1,1.8,2.63,0.4247391212071864,-0.026093484226403924,0.8901753923688838,0.0016763697155437547,-0.119695,-31.65147
11.185,2.0,1.0,1.0,34.1,33.8,33.8,4.1,1.8,2.6325,0.4156634167005181,-0.026584986132303947,0.8942079560887981,0.0014261509578968577,-0.121622,-31.494791
11.185,2.0,1.0,1.0,34.1,33.8,33.8,4.1,1.8,2.635,0.4064793052276835,-0.027086775919775756,0.8981732501176459,0.0011643051913657085,-0.123603,-31.336837
11.185,2.0,1.0,1.0,34.1,33.8,33.8,4.1,1.8,2.6375,0.39718575821161767,-0.027599133522817863,0.902069047451456,0.0008903160037890203,-0.125639,-31.177574
11.185,2.0,1.0,1.0,34.1,33.8,33.8,4.1,1.8,2.64,0.38778174419894873,-0.02812234915618886,0.9058930494214112,0.000603639367600581,-0.127732,-31.016968
11.185,2.0,1.0,1.0,34.1,33.8,33.8,4.1,1.8,2.6425,0.3782662292964992,-0.028656723796937667,0.9096428828882772,0.0003037018116383954,-0.129886,-30.854981
11.185,2.0,1.0,1.0,34.1,33.8,33.8,4.1,1.8,2.645,0.3686381776279802,-0.029202569691776314,0.9133160972787824,-1.0101554431837863e-05,-0.132102,-30.691578
11.185,2.0,1.0,1.0,34.1,33.8,33.8,4.1,1.8,2.6475,0.3588965518113468,-0.02976021089157035,0.9169101614505895,-0.0003384091771643426,-0.134383,-30.526718
11.185,2.0,1.0,1.0,34.1,33.8,33.8,4.1,1.8,2.65,0.3490403134573121,-0.030329983814227173,0.9204224603709779,-0.0006818953734931848,-0.136732,-30.360362
11.185,2.0,1.0,1.0,34.1,33.8,33.8,4.1,1.8,2.6525,0.339068423689612,-0.030912237837248318,0.9238502915927042,-0.0010412728393922792,-0.139153,-30.192466
11.185,2.0,1.0,1.0,34.1,33.8,33.8,4.1,1.8,2.655,0.3289798436876099,-0.03150733592118051,0.9271908615086242,-0.001417295372396155,-0.141647,-30.022987
11.185,2.0,1.0,1.0,34.1,33.8,33.8,4.1,1.8,2.6575,0.31877353525199426,-0.032115655265134005,0.9304412813645049,-0.0018107608295629685,-0.14422,-29.85188
11.185,2.0,1.0,1.0,34.1,33.8,33.8,4.1,1.8,2.66,0.30844846139441306,-0.03273758799544084,0.9335985630070563,-0.002222514344973574,-0.146873,-29.679096
11.185,2.0,1.0,1.0,34.1,33.8,33.8,4.1,1.8,2.6625,0.2980035869520852,-0.0333735418883796,0.9366596143414464,-0.0026534518337015373,-0.149611,-29.504587
11.185,2.0,1.0,1.0,34.1,33.8,33.8,4.1,1.8,2.665,0.28743787922862846,-0.03402394112769488,0.9396212344694492,-0.0031045238124109177,-0.152439,-29.328299
11.185,2.0,1.0,1.0,34.1,33.8,33.8,4.1,1.8,2.6675,0.2767503086626631,-0.034689227097364515,0.942480108475839,-0.0035767395703934068,-0.155359,-29.15018
11.185,2.0,1.0,1.0,34.1,33.8,33.8,4.1,1.8,2.67,0.265939849526115,-0.035369859209708934,0.9452328018265483,-0.004071171729014963,-0.158378,-28.970173
11.185,2.0,1.0,1.0,34.1,33.8,33.8,4.1,1.8,2.6725,0.25500548065459483,-0.03606631576846365,0.9478757543375688,-0.00458896123227518,-0.1615,-28.788219
11.185,2.0,1.0,1.0,34.1,33.8,33.8,4.1,1.8,2.675,0.24394618621291428,-0.036779094865824605,0.9504052736681781,-0.005131322816585102,-0.16473,-28.604256
11.185,2.0,1.0,1.0,34.1,33.8,33.8,4.1,1.8,2.6775,0.23276095649948422,-0.03750871531169423,0.9528175282861503,-0.005699551014041137,-0.168074,-28.418219
11.185,2.0,1.0,1.0,34.1,33.8,33.8,4.1,1.8,2.68,0.2214487887944018,-0.03825571759235907,0.9551085398455453,-0.006295026750540391,-0.171538,-28.230042
11.185,2.0,1.0,1.0,34.1,33.8,33.8,4.1,1.8,2.6825,0.21000868825721863,-0.03902066485456624,0.9572741749097935,-0.006919224608187722,-0.175128,-28.039654
11.185,2.0,1.0,1.0,34.1,33.8,33.8,4.1,1.8,2.685,0.19843966888196285,-0.039804143909373674,0.9593101359435352,-0.007573720830758666,-0.178852,-27.84698
11.185,2.0,1.0,1.0,34.1,33.8,33.8,4.1,1.8,2.6875,0.18674075451891525,-0.04060676624814427,0.9612119514861498,-0.008260202161706576,-0.182717,-27.651942
11.185,2.0,1.0,1.0,34.1,33.8,33.8,4.1,1.8,2.69,0.17491097997513194,-0.0414291690605374,0.9629749654076077,-0.008980475616568237,-0.186732,-27.454459
11.185,2.0,1.0,1.0,34.1,33.8,33.8,4.1,1.8,2.6925,0.16294939220870366,-0.042272016241198036,0.9645943251331738,-0.00973647930592158,-0.190905,-27.254444
11.185,2.0,1.0,1.0,34.1,33.8,33.8,4.1,1.8,2.695,0.1508550516356633,-0.043135999367896576,0.9660649687070316,-0.01053029444160237,-0.195245,-27.051809
11.185,2.0,1.0,1.0,34.1,33.8,33.8,4.1,1.8,2.6975,0.13862703357317332,-0.04402183862893153,0.9673816105458234,-0.011364158678105467,-0.199763,-26.846456
11.185,2.0,1.0,1.0,34.1,33.8,33.8,4.1,1.8,2.7,0.12626442984872244,-0.04493028367142798,0.9685387257108681,-0.012240480963437538,-0.204471,-26.638286
11.185,2.0,1.0,1.0,34.1,33.8,33.8,4.1,1.8,2.7025,0.11376635061252727,-0.04586211433443062,0.9695305325019037,-0.013161858099738735,-0.20938,-26.427194
11.185,2.0,1.0,1.0,34.1,33.8,33.8,4.1,1.8,2.705,0.10113192639986532,-0.04681814122100651,0.9703509731448372,-0.014131093244407967,-0.214503,-26.213067
11.185,2.0,1.0,1.0,34.1,33.8,33.8,4.1,1.8,2.7075,0.08836031050180986,-0.04779920605144063,0.9709936923105239,-0.015151216618083326,-0.219856,-25.995789
11.185,2.0,1.0,1.0,34.1,33.8,33.8,4.1,1.8,2.71,0.07545068171786949,-0.04880618172437825,0.9714520131597723,-0.016225508727612664,-0.225454,-25.775233
11.185,2.0,1.0,1.0,34.1,33.8,33.8,4.1,1.8,2.7125,0.06240224758263724,-0.049839971993646565,0.9717189105607318,-0.01735752646129265,-0.231313,-25.55127
11.185,2.0,1.0,1.0,34.1,33.8,33.8,4.1,1.8,2.715,0.04921424818224497,-0.05090151064441296,0.9717869810668506,-0.018551132471578455,-0.237454,-25.323759
11.185,2.0,1.0,1.0,34.1,33.8,33.8,4.1,1.8,2.7175,0.03588596070617857,-0.05199176002198607,0.9716484091750494,-0.01981052832890641,-0.243897,-25.092551
11.185,2.0,1.0,1.0,34.1,33.8,33.8,4.1,1.8,2.72,0.022416704917740622,-0.053111708728217716,0.9712949293026004,-0.021140292011326032,-0.250665,-24.857491
11.185,2.0,1.0,1.0,34.1,33.8,33.8,4.1,1.8,2.7225,0.008805849774176278,-0.05426236825189266,0.9707177828247093,-0.02254542039086515,-0.257783,-24.618411
11.185,2.0,1.0,1.0,34.1,33.8,33.8,4.1,1.8,2.725,-0.004947178511701648,-0.05544476823781334,0.9699076693999774,-0.02403137749204177,-0.265279,-24.375133
11.185,2.0,1.0,1.0,34.1,33.8,33.8,4.1,1.8,2.7275,-0.018842886599151495,-0.05665995002076721,0.9688546916737633,-0.02560414943451994,-0.273185,-24.127469
11.185,2.0,1.0,1.0,34.1,33.8,33.8,4.1,1.8,2.73,-0.03288170186823746,-0.05790895795026237,0.9675482922856367,-0.02727030713515693,-0.281534,-23.875216
11.185,2.0,1.0,1.0,34.1,33.8,33.8,4.1,1.8,2.7325,-0.04706395739449142,-0.059192827903437883,0.9659771819103479,-0.02903707804032373,-0.290366,-23.618161
11.185,2.0,1.0,1.0,34.1,33.8,33.8,4.1,1.8,2.735,-0.061389873291147826,-0.06051257221837411,0.9641292568257076,-0.0309124283942648,-0.299722,-23.356072
11.185,2.0,1.0,1.0,34.1,33.8,33.8,4.1,1.8,2.7375,-0.07585953344973784,-0.06186916006693078,0.9619915042163188,-0.0329051578318848,-0.309653,-23.088705
11.185,2.0,1.0,1.0,34.1,33.8,33.8,4.1,1.8,2.74,-0.09047285643659907,-0.06326349201025994,0.9595498930791534,-0.035025008424996076,-0.320211,-22.815796
11.185,2.0,1.0,1.0,34.1,33.8,33.8,4.1,1.8,2.7425,-0.10522955894745398,-0.06469636712130039,0.9567892481826507,-0.03728279072232319,-0.331457,-22.537063
11.185,2.0,1.0,1.0,34.1,33.8,33.8,4.1,1.8,2.745,-0.12012910975767534,-0.06616844059000768,0.9536931040297902,-0.039690529820644034,-0.343461,-22.252203
11.185,2.0,1.0,1.0,34.1,33.8,33.8,4.1,1.8,2.7475,-0.13517067149640885,-0.06768016911257467,0.9502435351688395,-0.04226163510574314,-0.356301,-21.960889
11.185,2.0,1.0,1.0,34.1,33.8,33.8,4.1,1.8,2.75,-0.150353026769223,-0.0692317405562581,0.946420958460745,-0.0450110980292636,-0.370066,-21.662772
11.185,2.0,1.0,1.0,34.1,33.8,33.8,4.1,1.8,2.7525,-0.16567448408961155,-0.07082298331957818,0.9422039020229985,-0.04795572316686124,-0.384858,-21.357473
11.185,2.0,1.0,1.0,34.1,33.8,33.8,4.1,1.8,2.755,-0.18113275766283216,-0.0724532493815534,0.9375687344956877,-0.05111439886391625,-0.400794,-21.044584
11.185,2.0,1.0,1.0,34.1,33.8,33.8,4.1,1.8,2.7575,-0.1967248131697449,-0.07412126312643087,0.932489346982227,-0.05450841505028966,-0.418008,-20.723664
11.185,2.0,1.0,1.0,34.1,33.8,33.8,4.1,1.8,2.76,-0.21244666914794094,-0.07582492546611987,0.9269367784690653,-0.058161837329243175,-0.436657,-20.394237
11.185,2.0,1.0,1.0,34.1,33.8,33.8,4.1,1.8,2.7625,-0.22829314011798146,-0.0775610593161089,0.9208787736917727,-0.06210194824871022,-0.456921,-20.055786
11.185,2.0,1.0,1.0,34.1,33.8,33.8,4.1,1.8,2.765,-0.2442575029108712,-0.07932507776849838,0.914279260266437,-0.0663597687648078,-0.479013,-19.707751
11.185,2.0,1.0,1.0,34.1,33.8,33.8,4.1,1.8,2.7675,-0.2603310612355721,-0.08111054986431808,0.9070977294482946,-0.07097067529907217,-0.50318,-19.349524
11.185,2.0,1.0,1.0,34.1,33.8,33.8,4.1,1.8,2.77,-0.2765025746985616,-0.08290863001257434,0.8992885021727967,-0.07597513040568402,-0.529716,-18.980447
11.185,2.0,1.0,1.0,34.1,33.8,33.8,4.1,1.8,2.7725,-0.29275750627883274,-0.08470730486463734,0.8907998592442141,-0.08141954772457004,-0.558968,-18.599803
11.185,2.0,1.0,1.0,34.1,33.8,33.8,4.1,1.8,2.775,-0.3090770252866256,-0.08649039444781885,0.8815730120314286,-0.08735731421518375,-0.591352,-18.206813
11.185,2.0,1.0,1.0,34.1,33.8,33.8,4.1,1.8,2.7775,-0.32543667911641555,-0.08823622062245264,0.8715408885453643,-0.0938499938822235,-0.627367,-17.800633
11.185,2.0,1.0,1.0,34.1,33.8,33.8,4.1,1.8,2.78,-0.341804613827711,-0.08991582265108804,0.8606267107041284,-0.10096873588289342,-0.667615,-17.380347
11.185,2.0,1.0,1.0,34.1,33.8,33.8,4.1,1.8,2.7825,-0.3581391767557311,-0.09149055289098809,0.8487423445158517,-0.10879590341194752,-0.71283,-16.944967
11.185,2.0,1.0,1.0,34.1,33.8,33.8,4.1,1.8,2.785,-0.3743856683590114,-0.09290881979113821,0.835786420491549,-0.11742692334296939,-0.763915,-16.493425
11.185,2.0,1.0,1.0,34.1,33.8,33.8,4.1,1.8,2.7875,-0.3904719176354459,-0.09410165288694501,0.8216422552051721,-0.12697232177138573,-0.821982,-16.024581
11.185,2.0,1.0,1.0,34.1,33.8,33.8,4.1,1.8,2.79,-0.4063022254607565,-0.09497663532973932,0.8061756714275367,-0.13755984229264942,-0.88842,-15.537228
11.185,2.0,1.0,1.0,34.1,33.8,33.8,4.1,1.8,2.7925,-0.4217490405611617,-0.09540957150117363,0.7892329400037857,-0.14933641548261498,-0.964971,-15.030102
11.185,2.0,1.0,1.0,34.1,33.8,33.8,4.1,1.8,2.795,-0.4366414905455632,-0.09523301821573452,0.7706392978957094,-0.16246951305029717,-1.053845,-14.501918
11.185,2.0,1.0,1.0,34.1,33.8,33.8,4.1,1.8,2.7975,-0.4507495786783004,-0.0942205024937865,0.7501989141291612,-0.17714699767939548,-1.157862,-13.951417
11.185,2.0,1.0,1.0,34.1,33.8,33.8,4.1,1.8,2.8,-0.46376249316377666,-0.09206489675667948,0.7276979167309692,-0.19357383176786513,-1.280654,-13.37745
11.185,2.0,1.0,1.0,34.1,33.8,33.8,4.1,1.8,2.8025,-0.47525914517384843,-0.08834911369151183,0.7029133884874658,-0.2119627069753932,-1.426925,-12.779113
11.185,2.0,1.0,1.0,34.1,33.8,33.8,4.1,1.8,2.805,-0.4846690100376353,-0.08250728114002774,0.6756334481298224,-0.23251344567665055,-1.602803,-12.15597
11.185,2.0,1.0,1.0,34.1,33.8,33.8,4.1,1.8,2.8075,-0.49122223772397156,-0.07377551890930611,0.645697160734205,-0.25537241389854665,-1.816262,-11.508393
11.185,2.0,1.0,1.0,34.1,33.8,33.8,4.1,1.8,2.81,-0.4938912949397119,-0.06113484901538082,0.6130685801108043,-0.28055769289192234,-2.077613,-10.838089
11.185,2.0,1.0,1.0,34.1,33.8,33.8,4.1,1.8,2.8125,-0.49133514677720436,-0.04325767329493282,0.5779666066458896,-0.30782856789182844,-2.399882,-10.148896
11.185,2.0,1.0,1.0,34.1,33.8,33.8,4.1,1.8,2.815,-0.48187666413219454,-0.01848906084461766,0.5410788293172623,-0.3364718685875195,-2.798643,-9.447931
11.185,2.0,1.0,1.0,34.1,33.8,33.8,4.1,1.8,2.8175,-0.463581927053936,0.015068114563526991,0.5038828983714749,-0.36498324614437183,-3.290067,-8.747146
11.185,2.0,1.0,1.0,34.1,33.8,33.8,4.1,1.8,2.82,-0.43456817063864456,0.0592383605390987,0.469056855216461,-0.390664986494151,-3.884213,-8.065183
11.185,2.0,1.0,1.0,34.1,33.8,33.8,4.1,1.8,2.8225,-0.39371473868068957,0.11505940180310352,0.4408330080088944,-0.40928951986491174,-4.567454,-7.429059
11.185,2.0,1.0,1.0,34.1,33.8,33.8,4.1,1.8,2.825,-0.3418729108549652,0.18158408227873876,0.42490776226041643,-0.41521597585819336,-5.266244,-6.87448
11.185,2.0,1.0,1.0,34.1,33.8,33.8,4.1,1.8,2.8275,-0.28325705698536574,0.25452994501277526,0.4273005114457382,-0.4025516424923823,-5.803411,-6.442932
