1,w,sub_t,h,l1,l2,l3,g1,g2,Freq,S11_re,S21_re,S11_img,S21_img,S11_dB,S21_dB
11.185,2.0,1.0,1.0,34.7,34.6,34.6,1.6,2.1,2.5,0.63658062431226,-0.0338049527296653,0.755299745085488,0.0173028616773231,-0.106781,-28.409854
11.185,2.0,1.0,1.0,34.7,34.6,34.6,1.6,2.1,2.5025,0.6294034750932057,-0.03452458524009363,0.7610488533803708,0.017248481011550548,-0.108421,-28.26972
11.185,2.0,1.0,1.0,34.7,34.6,34.6,1.6,2.1,2.505,0.622122042984905,-0.035259636022750666,0.7667663993491723,0.01718544917003657,-0.110103,-28.128795
11.185,2.0,1.0,1.0,34.7,34.6,34.6,1.6,2.1,2.5075,0.6147350334636239,-0.036010474134974046,0.7724509673172363,0.017113350742661185,-0.111827,-27.987064
11.185,2.0,1.0,1.0,34.7,34.6,34.6,1.6,2.1,2.51,0.607241134309607,-0.03677747818148126,0.7781010927321166,0.0170317507011673,-0.113594,-27.844514
11.185,2.0,1.0,1.0,34.7,34.6,34.6,1.6,2.1,2.5125,0.5996390155576613,-0.03756103653809675,0.7837152603125594,0.01694019338821994,-0.115407,-27.701131
11.185,2.0,1.0,1.0,34.7,34.6,34.6,1.6,2.1,2.515,0.5919273294648106,-0.038361547576099476,0.7892919021168486,0.016838201448418882,-0.117267,-27.556899
11.185,2.0,1.0,1.0,34.7,34.6,34.6,1.6,2.1,2.5175,0.5841047104967114,-0.03917941988652785,0.7948293955262883,0.016725274697538674,-0.119175,-27.411804
11.185,2.0,1.0,1.0,34.7,34.6,34.6,1.6,2.1,2.52,0.5761697753345997,-0.04001507250368384,0.8003260611393542,0.016600888926007622,-0.121133,-27.26583
11.185,2.0,1.0,1.0,34.7,34.6,34.6,1.6,2.1,2.5225,0.5681211229047681,-0.040868935126964885,0.8057801605717289,0.016464494632346095,-0.123144,-27.118963
11.185,2.0,1.0,1.0,34.7,34.6,34.6,1.6,2.1,2.525,0.5599573344326769,-0.04174144834003666,0.8111898941571632,0.016315515681979104,-0.125209,-26.971185
11.185,2.0,1.0,1.0,34.7,34.6,34.6,1.6,2.1,2.5275,0.5516769735240366,-0.04263306382621853,0.8165533985437445,0.01615334788650171,-0.127329,-26.822481
11.185,2.0,1.0,1.0,34.7,34.6,34.6,1.6,2.1,2.53,0.54327858627541,-0.04354424457880103,0.8218687441798062,0.015977357498115696,-0.129508,-26.672834
11.185,2.0,1.0,1.0,34.7,34.6,34.6,1.6,2.1,2.5325,0.5347607014170971,-0.04447546510484445,0.8271339326833338,0.01578687961356763,-0.131747,-26.522227
11.185,2.0,1.0,1.0,34.7,34.6,34.6,1.6,2.1,2.535,0.5261218304913226,-0.04542721162081269,0.832346894088308,0.015581216481493286,-0.134049,-26.370643
11.185,2.0,1.0,1.0,34.7,34.6,34.6,1.6,2.1,2.5375,0.5173604680690517,-0.04639998223818094,0.837505483960955,0.015359635706622944,-0.136416,-26.218063
11.185,2.0,1.0,1.0,34.7,34.6,34.6,1.6,2.1,2.54,0.5084750920090441,-0.04739428713691257,0.8426074803784328,0.015121368343804153,-0.13885,-26.064469
11.185,2.0,1.0,1.0,34.7,34.6,34.6,1.6,2.1,2.5425,0.49946416376310737,-0.04841064872442841,0.8476505807619198,0.014865606874267889,-0.141354,-25.909842
11.185,2.0,1.0,1.0,34.7,34.6,34.6,1.6,2.1,2.545,0.4903261287319021,-0.049449601777383605,0.8526323985555405,0.014591503055984873,-0.143931,-25.754164
11.185,2.0,1.0,1.0,34.7,34.6,34.6,1.6,2.1,2.5475,0.48105941667607083,-0.05051169356322394,0.8575504597419211,0.014298165639332562,-0.146584,-25.597415
11.185,2.0,1.0,1.0,34.7,34.6,34.6,1.6,2.1,2.55,0.47166244218790504,-0.05159748393810922,0.8624021991845565,0.01398465793861548,-0.149316,-25.439574
11.185,2.0,1.0,1.0,34.7,34.6,34.6,1.6,2.1,2.5525,0.4621336052293347,-0.05270754541734967,0.8671849567863886,0.013649995249244835,-0.15213,-25.280621
11.185,2.0,1.0,1.0,34.7,34.6,34.6,1.6,2.1,2.555,0.45247129174254735,-0.05384246321402094,0.8718959734532981,0.013293142099585742,-0.155029,-25.120534
11.185,2.0,1.0,1.0,34.7,34.6,34.6,1.6,2.1,2.5575,0.4426738743402121,-0.05500283524086765,0.876532386850323,0.012913009325613855,-0.158017,-24.959293
11.185,2.0,1.0,1.0,34.7,34.6,34.6,1.6,2.1,2.56,0.4327397130830126,-0.05618927206998629,0.8810912269375177,0.012508450955584487,-0.161098,-24.796874
11.185,2.0,1.0,1.0,34.7,34.6,34.6,1.6,2.1,2.5625,0.4226671563529531,-0.05740239684408288,0.885569411271408,0.012078260890895037,-0.164275,-24.633255
11.185,2.0,1.0,1.0,34.7,34.6,34.6,1.6,2.1,2.565,0.41245454183181635,-0.058642845132314714,0.8899637400568979,0.011621169368212824,-0.167553,-24.468412
11.185,2.0,1.0,1.0,34.7,34.6,34.6,1.6,2.1,2.5675,0.40210019759515836,-0.05991126472283515,0.8942708909333418,0.011135839186739134,-0.170936,-24.302322
11.185,2.0,1.0,1.0,34.7,34.6,34.6,1.6,2.1,2.57,0.39160244333328603,-0.06120831534316692,0.8984874134772386,0.010620861683166056,-0.174429,-24.134959
11.185,2.0,1.0,1.0,34.7,34.6,34.6,1.6,2.1,2.5725,0.38095959171196986,-0.06253466829839618,0.902609723402633,0.01007475243546451,-0.178036,-23.966298
11.185,2.0,1.0,1.0,34.7,34.6,34.6,1.6,2.1,2.575,0.37016994988698937,-0.06389100601590493,0.9066340964388175,0.009495946675092955,-0.181763,-23.796314
11.185,2.0,1.0,1.0,34.7,34.6,34.6,1.6,2.1,2.5775,0.35923182118821084,-0.06527802148391999,0.9105566618633413,0.008882794385534045,-0.185615,-23.624978
11.185,2.0,1.0,1.0,34.7,34.6,34.6,1.6,2.1,2.58,0.348143506990644,-0.06669641756952384,0.9143733956665354,0.008233555063239497,-0.189598,-23.452265
11.185,2.0,1.0,1.0,34.7,34.6,34.6,1.6,2.1,2.5825,0.33690330879188213,-0.06814690619993098,0.9180801133219174,0.007546392115071159,-0.193718,-23.278145
11.185,2.0,1.0,1.0,34.7,34.6,34.6,1.6,2.1,2.585,0.32550953051761566,-0.0696302073887378,0.9216724621347078,0.006819366864167791,-0.197981,-23.102589
11.185,2.0,1.0,1.0,34.7,34.6,34.6,1.6,2.1,2.5875,0.31396048107934765,-0.07114704808648997,0.9251459131384906,0.006050432133810918,-0.202395,-22.925567
11.185,2.0,1.0,1.0,34.7,34.6,34.6,1.6,2.1,2.59,0.3022544772113663,-0.07269816083221645,0.9284957525075733,0.00523742537631039,-0.206966,-22.747049
11.185,2.0,1.0,1.0,34.7,34.6,34.6,1.6,2.1,2.5925,0.2903898466171452,-0.0742842821795335,0.9317170724499648,0.0043780613111486745,-0.211701,-22.567002
11.185,2.0,1.0,1.0,34.7,34.6,34.6,1.6,2.1,2.595,0.27836493145906,-0.07590615086744497,0.9348047615429914,0.0034699240336097848,-0.216611,-22.385395
11.185,2.0,1.0,1.0,34.7,34.6,34.6,1.6,2.1,2.5975,0.2661780922293441,-0.07756450570202858,0.9377534944704731,0.002510458551833194,-0.221702,-22.202192
11.185,2.0,1.0,1.0,34.7,34.6,34.6,1.6,2.1,2.6,0.25382771204490906,-0.0792600831107015,0.9405577211169447,0.0014969617066870947,-0.226984,-22.017361
11.185,2.0,1.0,1.0,34.7,34.6,34.6,1.6,2.1,2.6025,0.24131220141395474,-0.08099361432564275,0.9432116549707774,0.00042657242499382085,-0.232467,-21.830864
11.185,2.0,1.0,1.0,34.7,34.6,34.6,1.6,2.1,2.605,0.22863000352826038,-0.08276582214712282,0.9457092607840454,-0.0007037387475308614,-0.238162,-21.642665
11.185,2.0,1.0,1.0,34.7,34.6,34.6,1.6,2.1,2.6075,0.21577960014194242,-0.08457741723082646,0.9480442414327095,-0.0018971808917780117,-0.24408,-21.452727
11.185,2.0,1.0,1.0,34.7,34.6,34.6,1.6,2.1,2.61,0.2027595181052288,-0.0864290938356558,0.9502100239160346,-0.0031571548022113483,-0.250232,-21.26101
11.185,2.0,1.0,1.0,34.7,34.6,34.6,1.6,2.1,2.6125,0.18956833663068062,-0.08832152495980673,0.9521997444291835,-0.004487265983580958,-0.256631,-21.067473
11.185,2.0,1.0,1.0,34.7,34.6,34.6,1.6,2.1,2.615,0.17620469537944572,-0.09025535678296494,0.954006232437558,-0.005891338631308638,-0.263292,-20.872076
11.185,2.0,1.0,1.0,34.7,34.6,34.6,1.6,2.1,2.6175,0.16266730346673708,-0.0922312023210691,0.9556219936757422,-0.007373430675525941,-0.270228,-20.674774
11.185,2.0,1.0,1.0,34.7,34.6,34.6,1.6,2.1,2.62,0.14895494949895655,-0.09424963418703435,0.957039191987756,-0.008937849975206729,-0.277455,-20.475525
11.185,2.0,1.0,1.0,34.7,34.6,34.6,1.6,2.1,2.6225,0.13506651277008055,-0.09631117633583383,0.9582496299188787,-0.010589171755720517,-0.28499,-20.274282
11.185,2.0,1.0,1.0,34.7,34.6,34.6,1.6,2.1,2.625,0.121000975762386,-0.0984162946551227,0.959244727962414,-0.0123322573903904,-0.292852,-20.070997
11.185,2.0,1.0,1.0,34.7,34.6,34.6,1.6,2.1,2.6275,0.1067574381164766,-0.10056538624280253,0.9600155023576281,-0.014172274634307399,-0.301058,-19.865623
11.185,2.0,1.0,1.0,34.7,34.6,34.6,1.6,2.1,2.63,0.09233513225865107,-0.10275876719014786,0.9605525413276182,-0.01611471942659369,-0.309631,-19.658109
11.185,2.0,1.0,1.0,34.7,34.6,34.6,1.6,2.1,2.6325,0.07773344089994612,-0.10499665866289756,0.9608459796382585,-0.0181654393855414,-0.318593,-19.448403
11.185,2.0,1.0,1.0,34.7,34.6,34.6,1.6,2.1,2.635,0.06295191665164729,-0.10727917104248548,0.9608854713516376,-0.02033065912939036,-0.327967,-19.236452
11.185,2.0,1.0,1.0,34.7,34.6,34.6,1.6,2.1,2.6375,0.047990304037056765,-0.10960628585471652,0.960660160639791,-0.022617007563847397,-0.33778,-19.022199
11.185,2.0,1.0,1.0,34.7,34.6,34.6,1.6,2.1,2.64,0.03284856421964275,-0.11197783517294531,0.9601586505172186,-0.02503154728554794,-0.34806,-18.805589
11.185,2.0,1.0,1.0,34.7,34.6,34.6,1.6,2.1,2.6425,0.017526902814357988,-0.11439347813629319,0.9593689693439795,-0.02758180625822489,-0.358837,-18.586561
11.185,2.0,1.0,1.0,34.7,34.6,34.6,1.6,2.1,2.645,0.0020258012026750077,-0.11685267416967578,0.9582785349454895,-0.03027581192500559,-0.370145,-18.365055
11.185,2.0,1.0,1.0,34.7,34.6,34.6,1.6,2.1,2.6475,-0.01365394816587794,-0.11935465243019035,0.9568741161910274,-0.03312212792545738,-0.38202,-18.141008
11.185,2.0,1.0,1.0,34.7,34.6,34.6,1.6,2.1,2.65,-0.029511201931001117,-0.1218983769324011,0.9551417918710843,-0.036129893589084354,-0.394499,-17.914355
11.185,2.0,1.0,1.0,34.7,34.6,34.6,1.6,2.1,2.6525,-0.04554442079973605,-0.12448250672163984,0.9530669067150197,-0.03930886637700482,-0.407626,-17.685028
11.185,2.0,1.0,1.0,34.7,34.6,34.6,1.6,2.1,2.655,-0.061751618611190696,-0.12710535036782253,0.950634024396146,-0.04266946743939573,-0.421446,-17.45296
11.185,2.0,1.0,1.0,34.7,34.6,34.6,1.6,2.1,2.6575,-0.0781303046419907,-0.12976481394028952,0.9478268773829533,-0.046222830446383874,-0.43601,-17.218078
11.185,2.0,1.0,1.0,34.7,34.6,34.6,1.6,2.1,2.66,-0.09467741817749716,-0.13245834149440947,0.9446283135146426,-0.049980853832491075,-0.451372,-16.980308
11.185,2.0,1.0,1.0,34.7,34.6,34.6,1.6,2.1,2.6625,-0.11138925422423254,-0.1351828469503118,0.9410202392090604,-0.053956256566927305,-0.467591,-16.739576
11.185,2.0,1.0,1.0,34.7,34.6,34.6,1.6,2.1,2.665,-0.12826137906596377,-0.13793463606993842,0.936983559254756,-0.058162637520743264,-0.484735,-16.495803
11.185,2.0,1.0,1.0,34.7,34.6,34.6,1.6,2.1,2.6675,-0.14528853416563442,-0.14070931703696496,0.932498113200451,-0.06261453844288105,-0.502873,-16.248909
11.185,2.0,1.0,1.0,34.7,34.6,34.6,1.6,2.1,2.67,-0.1624645266841689,-0.14350169791098916,0.9275426084401218,-0.06732751047520515,-0.522086,-15.998813
11.185,2.0,1.0,1.0,34.7,34.6,34.6,1.6,2.1,2.6725,-0.1797821046203157,-0.14630566895810748,0.9220945502068674,-0.07231818402474602,-0.542459,-15.745429
11.185,2.0,1.0,1.0,34.7,34.6,34.6,1.6,2.1,2.675,-0.1972328142684297,-0.14911406754964995,0.9161301688428212,-0.07760434166094714,-0.564089,-15.488672
11.185,2.0,1.0,1.0,34.7,34.6,34.6,1.6,2.1,2.6775,-0.21480683733832354,-0.15191852296404598,0.9096243449163279,-0.08320499350552518,-0.58708,-15.228453
11.185,2.0,1.0,1.0,34.7,34.6,34.6,1.6,2.1,2.68,-0.23249280467744116,-0.15470927801797965,0.9025505330259641,-0.0891404543184585,-0.61155,-14.964683
11.185,2.0,1.0,1.0,34.7,34.6,34.6,1.6,2.1,2.6825,-0.25027758307555886,-0.1574749839866136,0.8948806854814624,-0.09543242113759362,-0.637627,-14.697271
11.185,2.0,1.0,1.0,34.7,34.6,34.6,1.6,2.1,2.685,-0.2681460311110541,-0.1602024647436896,0.8865851775071266,-0.10210404987863061,-0.665453,-14.426123
11.185,2.0,1.0,1.0,34.7,34.6,34.6,1.6,2.1,2.6875,-0.28608071941208607,-0.1628764454567222,0.8776327362024884,-0.10918002871791936,-0.695189,-14.151148
11.185,2.0,1.0,1.0,34.7,34.6,34.6,1.6,2.1,2.69,-0.30406161005420584,-0.16547924050855878,0.8679903762541304,-0.11668664532623776,-0.727011,-13.872251
11.185,2.0,1.0,1.0,34.7,34.6,34.6,1.6,2.1,2.6925,-0.3220656891006173,-0.1679903945860421,0.8576233463669851,-0.12465184405188776,-0.761117,-13.589341
11.185,2.0,1.0,1.0,34.7,34.6,34.6,1.6,2.1,2.695,-0.3400665455204648,-0.17038627008705565,0.8464950916299278,-0.13310526790885102,-0.797727,-13.302324
11.185,2.0,1.0,1.0,34.7,34.6,34.6,1.6,2.1,2.6975,-0.35803388891202037,-0.17263957316559572,0.8345672386193101,-0.1420782786395795,-0.837089,-13.011111
11.185,2.0,1.0,1.0,34.7,34.6,34.6,1.6,2.1,2.7,-0.375932997642202,-0.1747188098909259,0.8217996120621016,-0.15160394610449973,-0.87948,-12.715616
11.185,2.0,1.0,1.0,34.7,34.6,34.6,1.6,2.1,2.7025,-0.3937240882432169,-0.1765876631917901,0.8081502944334251,-0.16171699569465622,-0.925212,-12.415757
11.185,2.0,1.0,1.0,34.7,34.6,34.6,1.6,2.1,2.705,-0.41136159626162866,-0.1782042805694647,0.7935757430787863,-0.17245369924075693,-0.974636,-12.111458
11.185,2.0,1.0,1.0,34.7,34.6,34.6,1.6,2.1,2.7075,-0.4287933583569685,-0.17952046211522604,0.7780309834807665,-0.18385169084805716,-1.028151,-11.80265
11.185,2.0,1.0,1.0,34.7,34.6,34.6,1.6,2.1,2.71,-0.4459596854771183,-0.18048073833825484,0.7614699023074566,-0.195949684044142,-1.086206,-11.489278
11.185,2.0,1.0,1.0,34.7,34.6,34.6,1.6,2.1,2.7125,-0.46279231765800133,-0.1810213279603749,0.7438456700813539,-0.20878706038663467,-1.149312,-11.171298
11.185,2.0,1.0,1.0,34.7,34.6,34.6,1.6,2.1,2.715,-0.4792132527794857,-0.18106896753754295,0.7251113308987978,-0.22240329202798317,-1.218047,-10.848683
11.185,2.0,1.0,1.0,34.7,34.6,34.6,1.6,2.1,2.7175,-0.495133444981436,-0.18053960804891067,0.7052206058111202,-0.23683715146856266,-1.293075,-10.52143
11.185,2.0,1.0,1.0,34.7,34.6,34.6,1.6,2.1,2.72,-0.5104513741259575,-0.1793369791768634,0.6841289674066704,-0.2521256506807374,-1.37515,-10.18956
11.185,2.0,1.0,1.0,34.7,34.6,34.6,1.6,2.1,2.7225,-0.5250514966623543,-0.1773510308685155,0.6617950558645402,-0.268302638887357,-1.465137,-9.853128
11.185,2.0,1.0,1.0,34.7,34.6,34.6,1.6,2.1,2.725,-0.5388026018079742,-0.174456275227069,0.6381825211467174,-0.2853969736541689,-1.564028,-9.512226
11.185,2.0,1.0,1.0,34.7,34.6,34.6,1.6,2.1,2.7275,-0.5515561167803608,-0.17051007152341915,0.6132623915695667,-0.3034301640764536,-1.672964,-9.166997
11.185,2.0,1.0,1.0,34.7,34.6,34.6,1.6,2.1,2.73,-0.5631444330049947,-0.16535092526851877,0.587016084694025,-0.32241336874276544,-1.79326,-8.81764
11.185,2.0,1.0,1.0,34.7,34.6,34.6,1.6,2.1,2.7325,-0.5733793642912848,-0.15879691139185423,0.559439190348626,-0.3423436167737933,-1.926435,-8.464424
11.185,2.0,1.0,1.0,34.7,34.6,34.6,1.6,2.1,2.735,-0.582050900718407,-0.15064438448215425,0.5305461643658502,-0.36319911083373263,-2.074245,-8.107699
11.185,2.0,1.0,1.0,34.7,34.6,34.6,1.6,2.1,2.7375,-0.5889264911686362,-0.14066720859849513,0.5003760700702996,-0.38493347179340887,-2.238725,-7.747914
11.185,2.0,1.0,1.0,34.7,34.6,34.6,1.6,2.1,2.74,-0.5937511751541069,-0.12861682751057066,0.46899948490603893,-0.40746880350797177,-2.422238,-7.385632
11.185,2.0,1.0,1.0,34.7,34.6,34.6,1.6,2.1,2.7425,-0.596248990970347,-0.11422360365725964,0.4365266407324971,-0.4306875041100572,-2.62753,-7.021547
11.185,2.0,1.0,1.0,34.7,34.6,34.6,1.6,2.1,2.745,-0.5961262085834695,-0.09719997706119453,0.4031167733893701,-0.4544228422892013,-2.857796,-6.656509
11.185,2.0,1.0,1.0,34.7,34.6,34.6,1.6,2.1,2.7475,-0.5930770615250712,-0.0772461235413215,0.3689885017108069,-0.4784484718465042,-3.116755,-6.291541
11.185,2.0,1.0,1.0,34.7,34.6,34.6,1.6,2.1,2.75,-0.586792761156546,-0.0540589036446929,0.334430817962461,-0.50246729598373,-3.408735,-5.927863
11.185,2.0,1.0,1.0,34.7,34.6,34.6,1.6,2.1,2.7525,-0.5769746322548669,-0.027344953047481583,0.2998139328163778,-0.52610043261203,-3.738772,-5.56691
11.185,2.0,1.0,1.0,34.7,34.6,34.6,1.6,2.1,2.755,-0.5633521546826662,0.003161284731845944,0.2655987714112832,-0.5488774810665362,-4.112709,-5.210348
11.185,2.0,1.0,1.0,34.7,34.6,34.6,1.6,2.1,2.7575,-0.5457064551732963,0.03767401888874803,0.23234338021916393,-0.5702298321646817,-4.537301,-4.860086
11.185,2.0,1.0,1.0,34.7,34.6,34.6,1.6,2.1,2.76,-0.5238992756082352,0.07632701501849831,0.2007039382614287,-0.589489337179041,-5.020308,-4.518275
11.185,2.0,1.0,1.0,34.7,34.6,34.6,1.6,2.1,2.7625,-0.49790656647443016,0.11913976850908041,0.17142759588012632,-0.6058951320049204,-5.570527,-4.187296
11.185,2.0,1.0,1.0,34.7,34.6,34.6,1.6,2.1,2.765,-0.46785458135943553,0.16598105037799904,0.14533419270244743,-0.6186115971101479,-6.197708,-3.869726
11.185,2.0,1.0,1.0,34.7,34.6,34.6,1.6,2.1,2.7675,-0.43405475431258417,0.216533531942172,0.12328430363336075,-0.6267600500624666,-6.912168,-3.568288
11.185,2.0,1.0,1.0,34.7,34.6,34.6,1.6,2.1,2.77,-0.3970319777789382,0.2702648761266654,0.10613230817376575,-0.6294655318978817,-7.723743,-3.285772
11.185,2.0,1.0,1.0,34.7,34.6,34.6,1.6,2.1,2.7725,-0.3575396333702496,0.32641197339016836,0.09466544697647959,-0.6259177840146776,-8.639262,-3.024936
11.185,2.0,1.0,1.0,34.7,34.6,34.6,1.6,2.1,2.775,-0.3165545052858377,0.38398525195586913,0.0895330175073648,-0.6154423166439564,-9.656808,-2.788377
11.185,2.0,1.0,1.0,34.7,34.6,34.6,1.6,2.1,2.7775,-0.275246169596592,0.4417985563330821,0.09117343364596439,-0.5975738740853175,-10.753432,-2.578403
11.185,2.0,1.0,1.0,34.7,34.6,34.6,1.6,2.1,2.78,-0.23491893089036833,0.4985266273615161,0.09974983749637824,-0.5721216003723486,-11.861727,-2.396892
11.185,2.0,1.0,1.0,34.7,34.6,34.6,1.6,2.1,2.7825,-0.19692954261060625,0.5527870507173657,0.11510606817358253,-0.539214044589577,-12.837407,-2.245168
11.185,2.0,1.0,1.0,34.7,34.6,34.6,1.6,2.1,2.785,-0.16258964855294844,0.603237813746656,0.1367530659861623,-0.49931382435219024,-13.454693,-2.123907
11.185,2.0,1.0,1.0,34.7,34.6,34.6,1.6,2.1,2.7875,-0.1330663752832193,0.6486770690995394,0.16389104723883074,-0.45319647673499125,-13.509872,-2.033084
11.185,2.0,1.0,1.0,34.7,34.6,34.6,1.6,2.1,2.79,-0.10929609892895292,0.6881300473288365,0.19546601076898146,-0.4018947942450696,-12.997066,-1.971973
11.185,2.0,1.0,1.0,34.7,34.6,34.6,1.6,2.1,2.7925,-0.0919242739564875,0.7209101362066388,0.23025226985102445,-0.3466168367322821,-12.113638,-1.939187
11.185,2.0,1.0,1.0,34.7,34.6,34.6,1.6,2.1,2.795,-0.08127886407458076,0.7466464509187041,0.26694787201007225,-0.288650693590693,-11.086442,-1.932774
11.185,2.0,1.0,1.0,34.7,34.6,34.6,1.6,2.1,2.7975,-0.07737805593278677,0.7652770681056104,0.30426836686487657,-0.22927053791658947,-10.062702,-1.950337
11.185,2.0,1.0,1.0,34.7,34.6,34.6,1.6,2.1,2.8,-0.07996668625421341,0.7770133677105105,0.34102649779062083,-0.1696564582710959,-9.111776,-1.989168
11.185,2.0,1.0,1.0,34.7,34.6,34.6,1.6,2.1,2.8025,-0.08857181029632258,0.7822849731847887,0.37618991510971,-0.11083607149581048,-8.257546,-2.046384
11.185,2.0,1.0,1.0,34.7,34.6,34.6,1.6,2.1,2.805,-0.1025666874636837,0.7816759849564676,0.4089142594473874,-0.05365068221581296,-7.502373,-2.119054
11.185,2.0,1.0,1.0,34.7,34.6,34.6,1.6,2.1,2.8075,-0.12123374310574912,0.775861965423413,0.4385534475946556,0.0012557402210544384,-6.839735,-2.204299
11.185,2.0,1.0,1.0,34.7,34.6,34.6,1.6,2.1,2.81,-0.14381978068010495,0.7655544502153239,0.4646518648536717,0.05342939522031857,-6.260119,-2.299376
11.185,2.0,1.0,1.0,34.7,34.6,34.6,1.6,2.1,2.8125,-0.169579796038679,0.751456696883213,0.486924300205965,0.102587087494983,-5.753591,-2.401726
11.185,2.0,1.0,1.0,34.7,34.6,34.6,1.6,2.1,2.815,-0.19780840642427908,0.7342317202752411,0.5052292227666767,0.14858985097541857,-5.310847,-2.509016
11.185,2.0,1.0,1.0,34.7,34.6,34.6,1.6,2.1,2.8175,-0.2278597753058718,0.714481784436067,0.5195399504744502,0.19141431857653385,-4.923575,-2.619145
11.185,2.0,1.0,1.0,34.7,34.6,34.6,1.6,2.1,2.82,-0.2591579513534005,0.6927374684753559,0.5299169212606166,0.23112506833282215,-4.584522,-2.730252
11.185,2.0,1.0,1.0,34.7,34.6,34.6,1.6,2.1,2.8225,-0.2911999032969464,0.6694540450460656,0.5364830008797096,0.2678499051765755,-4.287439,-2.840699
11.185,2.0,1.0,1.0,34.7,34.6,34.6,1.6,2.1,2.825,-0.3235534467586156,0.645012982680855,0.5394027354855568,0.30175901069008676,-4.026975,-2.949062
11.185,2.0,1.0,1.0,34.7,34.6,34.6,1.6,2.1,2.8275,-0.35585193232286927,0.6197267002566238,0.5388657335755654,0.33304816547365124,-3.798568,-3.054104
11.185,2.0,1.0,1.0,34.7,34.6,34.6,1.6,2.1,2.83,-0.3877871505228969,0.5938451088085202,0.5350739146347634,0.36192579570386185,-3.598337,-3.154757
