1,w,sub_t,h,l1,l2,l3,g1,g2,Freq,S11_re,S21_re,S11_img,S21_img,S11_dB,S21_dB
11.185,2.0,1.0,1.0,34.7,33.4,33.4,2.0,3.5,2.5,0.658981494484503,-0.0160532874402303,0.740169721310505,0.00665795555419356,-0.078408,-35.199407
11.185,2.0,1.0,1.0,34.7,33.4,33.4,2.0,3.5,2.5025,0.6525658952517843,-0.0163295348413943,0.7456951853263019,0.006597441042344218,-0.079312,-35.083863
11.185,2.0,1.0,1.0,34.7,33.4,33.4,2.0,3.5,2.505,0.6460664819140659,-0.016609842673389594,0.7511952193900668,0.006533045443951399,-0.080229,-34.967985
11.185,2.0,1.0,1.0,34.7,33.4,33.4,2.0,3.5,2.5075,0.6394824458724392,-0.016894257486462085,0.7566688449379682,0.006464641546438434,-0.081161,-34.851767
11.185,2.0,1.0,1.0,34.7,33.4,33.4,2.0,3.5,2.51,0.6328129731537094,-0.017182825660154014,0.7621150561277747,0.006392098180089959,-0.082108,-34.735206
11.185,2.0,1.0,1.0,34.7,33.4,33.4,2.0,3.5,2.5125,0.6260572446407257,-0.01747559334876865,0.7675328191015536,0.006315280092327726,-0.08307,-34.618297
11.185,2.0,1.0,1.0,34.7,33.4,33.4,2.0,3.5,2.515,0.619214436320766,-0.017772606423083575,0.7729210712302874,0.006234047818077702,-0.084047,-34.501034
11.185,2.0,1.0,1.0,34.7,33.4,33.4,2.0,3.5,2.5175,0.6122837195529272,-0.01807391040809768,0.7782787203400915,0.006148257546122343,-0.085041,-34.383414
11.185,2.0,1.0,1.0,34.7,33.4,33.4,2.0,3.5,2.52,0.6052642613554492,-0.018379550416588713,0.783604643919751,0.0060577609813320275,-0.086051,-34.265431
11.185,2.0,1.0,1.0,34.7,33.4,33.4,2.0,3.5,2.5225,0.598155224714038,-0.0186895710782426,0.788897688309267,0.005962405202667678,-0.087078,-34.147081
11.185,2.0,1.0,1.0,34.7,33.4,33.4,2.0,3.5,2.525,0.590955768912193,-0.019004016464105943,0.7941566678691497,0.005862032516843411,-0.088122,-34.028359
11.185,2.0,1.0,1.0,34.7,33.4,33.4,2.0,3.5,2.5275,0.5836650498846647,-0.019322930006099887,0.7993803641301789,0.00575648030754283,-0.089185,-33.909259
11.185,2.0,1.0,1.0,34.7,33.4,33.4,2.0,3.5,2.53,0.5762822205951921,-0.01964635441131738,0.8045675249233637,0.005645580880074401,-0.090266,-33.789777
11.185,2.0,1.0,1.0,34.7,33.4,33.4,2.0,3.5,2.5325,0.5688064314397162,-0.01997433157081386,0.8097168634898679,0.005529161301356424,-0.091365,-33.669908
11.185,2.0,1.0,1.0,34.7,33.4,33.4,2.0,3.5,2.535,0.5612368306763141,-0.020306902462585572,0.8148270575706568,0.005407043235119652,-0.092484,-33.549646
11.185,2.0,1.0,1.0,34.7,33.4,33.4,2.0,3.5,2.5375,0.5535725648831767,-0.020644107048411832,0.8198967484756474,0.00527904277221595,-0.093623,-33.428988
11.185,2.0,1.0,1.0,34.7,33.4,33.4,2.0,3.5,2.54,0.5458127794459718,-0.02098598416422383,0.8249245401321669,0.005144970255919611,-0.094782,-33.307926
11.185,2.0,1.0,1.0,34.7,33.4,33.4,2.0,3.5,2.5425,0.5379566190760208,-0.021332571403642454,0.8299089981125389,0.005004630102112306,-0.095962,-33.186457
11.185,2.0,1.0,1.0,34.7,33.4,33.4,2.0,3.5,2.545,0.5300032283607624,-0.021683904994310377,0.8348486486406359,0.00485782061423928,-0.097164,-33.064576
11.185,2.0,1.0,1.0,34.7,33.4,33.4,2.0,3.5,2.5475,0.5219517523480561,-0.02204001966662337,0.8397419775772621,0.0047043337929295595,-0.098387,-32.942276
11.185,2.0,1.0,1.0,34.7,33.4,33.4,2.0,3.5,2.55,0.513801337165898,-0.022400948514446847,0.8445874293842707,0.004543955140169505,-0.099633,-32.819552
11.185,2.0,1.0,1.0,34.7,33.4,33.4,2.0,3.5,2.5525,0.5055511306792645,-0.02276672284737981,0.8493834060673222,0.004376463457926711,-0.100903,-32.6964
11.185,2.0,1.0,1.0,34.7,33.4,33.4,2.0,3.5,2.555,0.4972002831857767,-0.023137372034109385,0.8541282660972488,0.004201630641119876,-0.102196,-32.572814
11.185,2.0,1.0,1.0,34.7,33.4,33.4,2.0,3.5,2.5575,0.48874794815201816,-0.023512923336372272,0.8588203233100152,0.00401922146483207,-0.103514,-32.448788
11.185,2.0,1.0,1.0,34.7,33.4,33.4,2.0,3.5,2.56,0.480193282992383,-0.023893401733017138,0.8634578457852937,0.0038289933656750555,-0.104856,-32.324317
11.185,2.0,1.0,1.0,34.7,33.4,33.4,2.0,3.5,2.5625,0.4715354498924061,-0.02427882973363467,0.868039054703731,0.003630696217206995,-0.106225,-32.199395
11.185,2.0,1.0,1.0,34.7,33.4,33.4,2.0,3.5,2.565,0.46277361667860695,-0.024669227181196837,0.8725621231830238,0.0034240720993194505,-0.10762,-32.074017
11.185,2.0,1.0,1.0,34.7,33.4,33.4,2.0,3.5,2.5675,0.45390695773696726,-0.025064611043115727,0.8770251750929544,0.003208855061507979,-0.109042,-31.948177
11.185,2.0,1.0,1.0,34.7,33.4,33.4,2.0,3.5,2.57,0.44493465498222884,-0.025464995190105623,0.8814262838496155,0.0029847708799526926,-0.110492,-31.821869
11.185,2.0,1.0,1.0,34.7,33.4,33.4,2.0,3.5,2.5725,0.43585589888028586,-0.02587039016219923,0.8857634711890903,0.0027515368083370468,-0.111971,-31.695088
11.185,2.0,1.0,1.0,34.7,33.4,33.4,2.0,3.5,2.575,0.4266698895260484,-0.02628080292123645,0.8900347059209334,0.002508861322346721,-0.113479,-31.567828
11.185,2.0,1.0,1.0,34.7,33.4,33.4,2.0,3.5,2.5775,0.4173758377792137,-0.026696236589111084,0.8942379026618371,0.002256443857792889,-0.115017,-31.440083
11.185,2.0,1.0,1.0,34.7,33.4,33.4,2.0,3.5,2.58,0.407972966460508,-0.027116690171023403,0.8983709205499738,0.0019939745423204324,-0.116586,-31.311847
11.185,2.0,1.0,1.0,34.7,33.4,33.4,2.0,3.5,2.5825,0.39846051161101537,-0.02754215826295141,0.9024315619405602,0.0017211339206689303,-0.118186,-31.183114
11.185,2.0,1.0,1.0,34.7,33.4,33.4,2.0,3.5,2.585,0.3888377238173387,-0.027972630742512817,0.9064175710832734,0.0014375926734677314,-0.11982,-31.053878
11.185,2.0,1.0,1.0,34.7,33.4,33.4,2.0,3.5,2.5875,0.37910386960541526,-0.02840809244234962,0.9103266327822483,0.0011430113295587678,-0.121487,-30.924133
11.185,2.0,1.0,1.0,34.7,33.4,33.4,2.0,3.5,2.59,0.3692582329059198,-0.02884852280512466,0.9141563710394629,0.0008370399718611127,-0.123188,-30.793874
11.185,2.0,1.0,1.0,34.7,33.4,33.4,2.0,3.5,2.5925,0.3593001165942741,-0.029293895519174124,0.9179043476824447,0.0005193179367974715,-0.124924,-30.663093
11.185,2.0,1.0,1.0,34.7,33.4,33.4,2.0,3.5,2.595,0.349228844108422,-0.029744178133813776,0.921568060977314,0.00018947350733354096,-0.126696,-30.531784
11.185,2.0,1.0,1.0,34.7,33.4,33.4,2.0,3.5,2.5975,0.3390437611475693,-0.03019933165324874,0.9251449442283131,-0.00015287640030895133,-0.128506,-30.399942
11.185,2.0,1.0,1.0,34.7,33.4,33.4,2.0,3.5,2.6,0.3287442374552625,-0.030659310107982576,0.9286323643650893,-0.0005081265561805255,-0.130354,-30.26756
11.185,2.0,1.0,1.0,34.7,33.4,33.4,2.0,3.5,2.6025,0.3183296686902515,-0.031124060102572668,0.9320276205191281,-0.0008766837422587166,-0.132241,-30.134631
11.185,2.0,1.0,1.0,34.7,33.4,33.4,2.0,3.5,2.605,0.30779947838868704,-0.03159352033851831,0.9353279425908768,-0.0012589670840997336,-0.134169,-30.001149
11.185,2.0,1.0,1.0,34.7,33.4,33.4,2.0,3.5,2.6075,0.2971531200213398,-0.032067621111013606,0.938530489809251,-0.0016554083883195225,-0.136137,-29.867107
11.185,2.0,1.0,1.0,34.7,33.4,33.4,2.0,3.5,2.61,0.28639007914961523,-0.03254628377823338,0.9416323492853589,-0.0020664524857135057,-0.138148,-29.732499
11.185,2.0,1.0,1.0,34.7,33.4,33.4,2.0,3.5,2.6125,0.27550987568426794,-0.03302942020175871,0.9446305345624791,-0.002492557579785036,-0.140203,-29.597318
11.185,2.0,1.0,1.0,34.7,33.4,33.4,2.0,3.5,2.615,0.26451206625080503,-0.03351693215668139,0.9475219841644611,-0.0029341956004263004,-0.142303,-29.461558
11.185,2.0,1.0,1.0,34.7,33.4,33.4,2.0,3.5,2.6175,0.25339624666572613,-0.034008710709856976,0.9503035601449525,-0.0033918525624446116,-0.144449,-29.325211
11.185,2.0,1.0,1.0,34.7,33.4,33.4,2.0,3.5,2.62,0.2421620545278162,-0.03450463556470318,0.9529720466400177,-0.0038660289285982054,-0.146642,-29.18827
11.185,2.0,1.0,1.0,34.7,33.4,33.4,2.0,3.5,2.6225,0.23080917192883094,-0.03500457437086608,0.9555241484269554,-0.004357239976754094,-0.148883,-29.050729
11.185,2.0,1.0,1.0,34.7,33.4,33.4,2.0,3.5,2.625,0.219337328288062,-0.0355083819969948,0.957956489492321,-0.00486601617073094,-0.151175,-28.91258
11.185,2.0,1.0,1.0,34.7,33.4,33.4,2.0,3.5,2.6275,0.20774630331531177,-0.03601589976478401,0.9602656116124095,-0.005392903534347399,-0.153518,-28.773817
11.185,2.0,1.0,1.0,34.7,33.4,33.4,2.0,3.5,2.63,0.19603593010698178,-0.03652695464235713,0.9624479729497066,-0.005938464028130337,-0.155914,-28.634431
11.185,2.0,1.0,1.0,34.7,33.4,33.4,2.0,3.5,2.6325,0.18420609838004381,-0.03704135839496968,0.9644999466690547,-0.006503275928087447,-0.158365,-28.494416
11.185,2.0,1.0,1.0,34.7,33.4,33.4,2.0,3.5,2.635,0.1722567578487907,-0.037558906690921774,0.9664178195775832,-0.00708793420587555,-0.160871,-28.353765
11.185,2.0,1.0,1.0,34.7,33.4,33.4,2.0,3.5,2.6375,0.16018792174935995,-0.03807937816046278,0.9681977907927247,-0.007693050909639543,-0.163434,-28.212469
11.185,2.0,1.0,1.0,34.7,33.4,33.4,2.0,3.5,2.64,0.1479996705170973,-0.03860253340537371,0.9698359704429442,-0.00831925554471526,-0.166057,-28.070521
11.185,2.0,1.0,1.0,34.7,33.4,33.4,2.0,3.5,2.6425,0.1356921556219723,-0.039128113956798855,0.9713283784061338,-0.008967195453312161,-0.168741,-27.927913
11.185,2.0,1.0,1.0,34.7,33.4,33.4,2.0,3.5,2.645,0.12326560356729833,-0.039655841178783936,0.9726709430909449,-0.009637536192218143,-0.171487,-27.784637
11.185,2.0,1.0,1.0,34.7,33.4,33.4,2.0,3.5,2.6475,0.11072032005713435,-0.04018541511485947,0.9738595002666974,-0.010330961907466978,-0.174297,-27.640687
11.185,2.0,1.0,1.0,34.7,33.4,33.4,2.0,3.5,2.65,0.09805669433777536,-0.04071651327488049,0.9748897919478526,-0.011048175704825523,-0.177174,-27.496052
11.185,2.0,1.0,1.0,34.7,33.4,33.4,2.0,3.5,2.6525,0.08527520371890096,-0.04124878935919722,0.9757574653394291,-0.011789900014850516,-0.180118,-27.350726
11.185,2.0,1.0,1.0,34.7,33.4,33.4,2.0,3.5,2.655,0.0723764182798989,-0.04178187191709672,0.9764580718501258,-0.012556876951165204,-0.183133,-27.204699
11.185,2.0,1.0,1.0,34.7,33.4,33.4,2.0,3.5,2.6575,0.059361005767058515,-0.04231536293630136,0.9769870661803499,-0.013349868660480605,-0.18622,-27.057964
11.185,2.0,1.0,1.0,34.7,33.4,33.4,2.0,3.5,2.66,0.04622973668729406,-0.042848836360156545,0.9773398054927479,-0.014169657662780069,-0.189382,-26.910512
11.185,2.0,1.0,1.0,34.7,33.4,33.4,2.0,3.5,2.6625,0.03298348960417006,-0.04338183652897311,0.9775115486733186,-0.015017047179941817,-0.19262,-26.762334
11.185,2.0,1.0,1.0,34.7,33.4,33.4,2.0,3.5,2.665,0.01962325664197076,-0.043913876541814015,0.9774974556916158,-0.015892861450953068,-0.195937,-26.61342
11.185,2.0,1.0,1.0,34.7,33.4,33.4,2.0,3.5,2.6675,0.006150149203658472,-0.04444443653482773,0.9772925870690617,-0.01679794603170834,-0.199336,-26.463763
11.185,2.0,1.0,1.0,34.7,33.4,33.4,2.0,3.5,2.67,-0.007434596091474293,-0.04497296187203271,0.9768919034648679,-0.017733168077243237,-0.202818,-26.313352
11.185,2.0,1.0,1.0,34.7,33.4,33.4,2.0,3.5,2.6725,-0.021129611244634774,-0.04549886124424437,0.9762902653895714,-0.01869941660408371,-0.206387,-26.162179
11.185,2.0,1.0,1.0,34.7,33.4,33.4,2.0,3.5,2.675,-0.034933390482968854,-0.04602150467161039,0.9754824330567494,-0.019697602730216743,-0.210045,-26.010234
11.185,2.0,1.0,1.0,34.7,33.4,33.4,2.0,3.5,2.6775,-0.048844283627815434,-0.04654022140497541,0.9744630663839949,-0.020728659890009646,-0.213795,-25.857506
11.185,2.0,1.0,1.0,34.7,33.4,33.4,2.0,3.5,2.68,-0.06286048921994596,-0.0470542977210395,0.973226725154809,-0.021793544021195935,-0.217639,-25.703986
11.185,2.0,1.0,1.0,34.7,33.4,33.4,2.0,3.5,2.6825,-0.07698004739600448,-0.047562974605988684,0.9717678693536516,-0.022893233720851766,-0.221581,-25.549664
11.185,2.0,1.0,1.0,34.7,33.4,33.4,2.0,3.5,2.685,-0.09120083251040172,-0.048065445321979205,0.9700808596869701,-0.024028730367047044,-0.225625,-25.394529
11.185,2.0,1.0,1.0,34.7,33.4,33.4,2.0,3.5,2.6875,-0.10552054549695382,-0.04856085285052625,0.9681599583036494,-0.02520105820263044,-0.229772,-25.23857
11.185,2.0,1.0,1.0,34.7,33.4,33.4,2.0,3.5,2.69,-0.11993670596457784,-0.049048287206493894,0.9659993297289393,-0.026411264377344743,-0.234027,-25.081777
11.185,2.0,1.0,1.0,34.7,33.4,33.4,2.0,3.5,2.6925,-0.13444664402146267,-0.04952678261599914,0.963593042026555,-0.027660418944203333,-0.238393,-24.924138
11.185,2.0,1.0,1.0,34.7,33.4,33.4,2.0,3.5,2.695,-0.14904749182209823,-0.049995314551120794,0.9609350682043062,-0.02894961480575827,-0.242873,-24.765642
11.185,2.0,1.0,1.0,34.7,33.4,33.4,2.0,3.5,2.6975,-0.16373617483170033,-0.05045279661384784,0.9580192878792516,-0.030279967605587873,-0.247472,-24.606276
11.185,2.0,1.0,1.0,34.7,33.4,33.4,2.0,3.5,2.7,-0.17850940280250557,-0.05089807726119821,0.9548394892190999,-0.0316526155599889,-0.252194,-24.446029
11.185,2.0,1.0,1.0,34.7,33.4,33.4,2.0,3.5,2.7025,-0.19336366045653294,-0.05132993636288974,0.9513893711771976,-0.0330687192244944,-0.257042,-24.284889
11.185,2.0,1.0,1.0,34.7,33.4,33.4,2.0,3.5,2.705,-0.20829519786937378,-0.051747081582339344,0.9476625460392322,-0.03452946118944759,-0.262022,-24.122841
11.185,2.0,1.0,1.0,34.7,33.4,33.4,2.0,3.5,2.7075,-0.2233000205496065,-0.052148144571099814,0.9436525423004285,-0.03603604569843758,-0.267137,-23.959873
11.185,2.0,1.0,1.0,34.7,33.4,33.4,2.0,3.5,2.71,-0.23837387920837705,-0.05253167696610923,0.9393528078927964,-0.03758969818292838,-0.272392,-23.795971
11.185,2.0,1.0,1.0,34.7,33.4,33.4,2.0,3.5,2.7125,-0.2535122592136708,-0.05289614617831312,0.9347567137827101,-0.03919166470591688,-0.277793,-23.631122
11.185,2.0,1.0,1.0,34.7,33.4,33.4,2.0,3.5,2.715,-0.2687103697236554,-0.05323993096031911,0.9298575579598843,-0.04084321130688844,-0.283344,-23.46531
11.185,2.0,1.0,1.0,34.7,33.4,33.4,2.0,3.5,2.7175,-0.2839631324933452,-0.05356131673974697,0.9246485698396022,-0.042545623239726056,-0.289051,-23.298521
11.185,2.0,1.0,1.0,34.7,33.4,33.4,2.0,3.5,2.72,-0.2992651703485893,-0.05385849070382329,0.9191229151008571,-0.04430020409455111,-0.29492,-23.130738
11.185,2.0,1.0,1.0,34.7,33.4,33.4,2.0,3.5,2.7225,-0.3146107953211271,-0.05412953661954123,0.9132737009839241,-0.04610827479371557,-0.300956,-22.961947
11.185,2.0,1.0,1.0,34.7,33.4,33.4,2.0,3.5,2.725,-0.3299939964379777,-0.05437242937232691,0.9070939820717668,-0.04797117245132325,-0.307167,-22.792129
11.185,2.0,1.0,1.0,34.7,33.4,33.4,2.0,3.5,2.7275,-0.34540842715799946,-0.05458502920462796,0.900576766580594,-0.04989024908471547,-0.313557,-22.621268
11.185,2.0,1.0,1.0,34.7,33.4,33.4,2.0,3.5,2.73,-0.36084739244771724,-0.05476507563412933,0.8937150231859002,-0.05186687016528787,-0.320136,-22.449346
11.185,2.0,1.0,1.0,34.7,33.4,33.4,2.0,3.5,2.7325,-0.37630383548776525,-0.054910181029398535,0.8865016884113477,-0.053902412994813347,-0.326908,-22.276344
11.185,2.0,1.0,1.0,34.7,33.4,33.4,2.0,3.5,2.735,-0.39177032400023404,-0.05501782381863067,0.8789296746090197,-0.05599826489208496,-0.333884,-22.102243
11.185,2.0,1.0,1.0,34.7,33.4,33.4,2.0,3.5,2.7375,-0.4072390361860237,-0.05508534130479316,0.8709918785608041,-0.05815582117313403,-0.341069,-21.927022
11.185,2.0,1.0,1.0,34.7,33.4,33.4,2.0,3.5,2.74,-0.42270174625979384,-0.05510992205780615,0.862681190732077,-0.06037648290653236,-0.348474,-21.75066
11.185,2.0,1.0,1.0,34.7,33.4,33.4,2.0,3.5,2.7425,-0.4381498095683622,-0.05508859785142832,0.8539905052103685,-0.06266165442324968,-0.356107,-21.573136
11.185,2.0,1.0,1.0,34.7,33.4,33.4,2.0,3.5,2.745,-0.4535741472762608,-0.05501823510919815,0.8449127303634901,-0.06501274055822008,-0.363977,-21.394426
11.185,2.0,1.0,1.0,34.7,33.4,33.4,2.0,3.5,2.7475,-0.4689652305996859,-0.05489552582006401,0.8354408002535655,-0.06743114359809894,-0.372095,-21.214508
11.185,2.0,1.0,1.0,34.7,33.4,33.4,2.0,3.5,2.75,-0.484313064567146,-0.0547169778801915,0.825567686845718,-0.069918259906598,-0.380471,-21.033354
11.185,2.0,1.0,1.0,34.7,33.4,33.4,2.0,3.5,2.7525,-0.49960717128165777,-0.05447890481279337,0.815286413052833,-0.07247547619521827,-0.389116,-20.850941
11.185,2.0,1.0,1.0,34.7,33.4,33.4,2.0,3.5,2.755,-0.5148365726553736,-0.054177414812646006,0.8045900666609621,-0.07510416540305126,-0.398043,-20.667239
11.185,2.0,1.0,1.0,34.7,33.4,33.4,2.0,3.5,2.7575,-0.5299897725828862,-0.05380839905616772,0.793471815183494,-0.07780568214451189,-0.407264,-20.482222
11.185,2.0,1.0,1.0,34.7,33.4,33.4,2.0,3.5,2.76,-0.5450547385140628,-0.05336751921146955,0.7819249216966883,-0.08058135767825733,-0.416793,-20.295858
11.185,2.0,1.0,1.0,34.7,33.4,33.4,2.0,3.5,2.7625,-0.5600188823811652,-0.052850194075580725,0.7699427617140734,-0.08343249434402544,-0.426643,-20.108117
11.185,2.0,1.0,1.0,34.7,33.4,33.4,2.0,3.5,2.765,-0.5748690408278995,-0.0522515852580132,0.7575188411634395,-0.08636035940649721,-0.43683,-19.918966
11.185,2.0,1.0,1.0,34.7,33.4,33.4,2.0,3.5,2.7675,-0.5895914546799834,-0.051566581820876936,0.7446468155372261,-0.089366178236396,-0.447372,-19.728369
11.185,2.0,1.0,1.0,34.7,33.4,33.4,2.0,3.5,2.77,-0.6041717475876416,-0.05078978377579887,0.7313205102957155,-0.0924511267486103,-0.458283,-19.536292
11.185,2.0,1.0,1.0,34.7,33.4,33.4,2.0,3.5,2.7725,-0.6185949037599939,-0.04991548432683239,0.7175339426126374,-0.09561632300493049,-0.469585,-19.342696
11.185,2.0,1.0,1.0,34.7,33.4,33.4,2.0,3.5,2.775,-0.6328452446995153,-0.048937650736261086,0.7032813445649413,-0.09886281787469363,-0.481295,-19.14754
11.185,2.0,1.0,1.0,34.7,33.4,33.4,2.0,3.5,2.7775,-0.6469064048314326,-0.04784990367660602,0.6885571878830368,-0.10219158462983374,-0.493437,-18.950784
11.185,2.0,1.0,1.0,34.7,33.4,33.4,2.0,3.5,2.78,-0.6607613059080149,-0.04664549491709984,0.6733562103950547,-0.1056035073311429,-0.506031,-18.752382
11.185,2.0,1.0,1.0,34.7,33.4,33.4,2.0,3.5,2.7825,-0.6743921300509375,-0.04531728317631932,0.6576734443194099,-0.10909936783935703,-0.519104,-18.552288
11.185,2.0,1.0,1.0,34.7,33.4,33.4,2.0,3.5,2.785,-0.6877802912763495,-0.04385770795442116,0.6415042465845285,-0.11267983125743394,-0.532681,-18.350454
11.185,2.0,1.0,1.0,34.7,33.4,33.4,2.0,3.5,2.7875,-0.7009064053265138,-0.04225876113844074,0.6248443313840601,-0.11634542957828578,-0.54679,-18.146828
11.185,2.0,1.0,1.0,34.7,33.4,33.4,2.0,3.5,2.79,-0.7137502576091043,-0.04051195615228714,0.6076898052109097,-0.12009654327439503,-0.561464,-17.941355
11.185,2.0,1.0,1.0,34.7,33.4,33.4,2.0,3.5,2.7925,-0.7262907690201116,-0.038608294399357715,0.5900372046553154,-0.12393338052112866,-0.576733,-17.73398
11.185,2.0,1.0,1.0,34.7,33.4,33.4,2.0,3.5,2.795,-0.7385059593989894,-0.03653822872008314,0.5718835373019994,-0.12785595369291078,-0.592635,-17.52464
11.185,2.0,1.0,1.0,34.7,33.4,33.4,2.0,3.5,2.7975,-0.7503729083349964,-0.034291623559274564,0.5532263261210212,-0.13186405270917623,-0.609208,-17.313274
11.185,2.0,1.0,1.0,34.7,33.4,33.4,2.0,3.5,2.8,-0.7618677130118625,-0.031857711508987085,0.5340636578177346,-0.13595721473348765,-0.626494,-17.099815
11.185,2.0,1.0,1.0,34.7,33.4,33.4,2.0,3.5,2.8025,-0.772965442744258,-0.02922504586204378,0.5143942356919153,-0.14013468964216372,-0.644539,-16.884192
11.185,2.0,1.0,1.0,34.7,33.4,33.4,2.0,3.5,2.805,-0.7836400898242204,-0.026381448779821504,0.4942174376569323,-0.14439540057566147,-0.663393,-16.666331
11.185,2.0,1.0,1.0,34.7,33.4,33.4,2.0,3.5,2.8075,-0.7938645162596969,-0.02331395464605037,0.47353338019003305,-0.1487378987638332,-0.683109,-16.446155
11.185,2.0,1.0,1.0,34.7,33.4,33.4,2.0,3.5,2.81,-0.8036103959513701,-0.020008748147275997,0.45234298912817833,-0.15316031167126826,-0.703748,-16.223581
11.185,2.0,1.0,1.0,34.7,33.4,33.4,2.0,3.5,2.8125,-0.8128481518196279,-0.01645109659173059,0.4306480783948803,-0.15766028333696921,-0.725373,-15.998524
11.185,2.0,1.0,1.0,34.7,33.4,33.4,2.0,3.5,2.815,-0.8215468873628846,-0.012625275953701798,0.4084514379473492,-0.16223490557837697,-0.748056,-15.770892
11.185,2.0,1.0,1.0,34.7,33.4,33.4,2.0,3.5,2.8175,-0.8296743121042637,-0.008514490113001878,0.38575693247646853,-0.16688063848703938,-0.771874,-15.54059
11.185,2.0,1.0,1.0,34.7,33.4,33.4,2.0,3.5,2.82,-0.8371966603701012,-0.004100782752739034,0.3625696126821974,-0.1715932183546549,-0.796914,-15.307518
11.185,2.0,1.0,1.0,34.7,33.4,33.4,2.0,3.5,2.8225,-0.8440786028460553,0.0006350586112878394,0.33889584129285744,-0.17636755082504385,-0.82327,-15.07157
11.185,2.0,1.0,1.0,34.7,33.4,33.4,2.0,3.5,2.825,-0.8502831503823733,0.0057136069622545586,0.3147434364091555,-0.18119758665936983,-0.851045,-14.832636
11.185,2.0,1.0,1.0,34.7,33.4,33.4,2.0,3.5,2.8275,-0.8557715495791537,0.011156908899959132,0.2901218352451457,-0.18607617701644383,-0.880355,-14.590599
