1,w,sub_t,h,l1,l2,l3,g1,g2,Freq,S11_re,S21_re,S11_img,S21_img,S11_dB,S21_dB
11.185,2.0,1.0,1.0,34.5,33.3,33.3,3.1,3.7,2.5,0.701096807589649,-0.0102851155954843,0.702155618867475,0.00405606001040843,-0.067581,-39.128036
11.185,2.0,1.0,1.0,34.5,33.3,33.3,3.1,3.7,2.5025,0.6953412015200438,-0.01045499642333367,0.7077454733412829,0.004015403998580745,-0.068271,-39.015971
11.185,2.0,1.0,1.0,34.5,33.3,33.3,3.1,3.7,2.505,0.6895100957159782,-0.010627155224505006,0.7133162776755815,0.003972425830024413,-0.068971,-38.903655
11.185,2.0,1.0,1.0,34.5,33.3,33.3,3.1,3.7,2.5075,0.6836027883030494,-0.010801615361045288,0.7188672686328725,0.003927056088410153,-0.069683,-38.791082
11.185,2.0,1.0,1.0,34.5,33.3,33.3,3.1,3.7,2.51,0.6776185718145126,-0.01097840007101976,0.7243976624025188,0.003879223351999448,-0.070407,-38.678247
11.185,2.0,1.0,1.0,34.5,33.3,33.3,3.1,3.7,2.5125,0.6715567333221979,-0.011157532442162905,0.7299066540554008,0.0038288541345264278,-0.071143,-38.565147
11.185,2.0,1.0,1.0,34.5,33.3,33.3,3.1,3.7,2.515,0.6654165545790527,-0.011339035383907778,0.7353934169855153,0.003775872824364165,-0.071891,-38.451777
11.185,2.0,1.0,1.0,34.5,33.3,33.3,3.1,3.7,2.5175,0.659197312173914,-0.011522931597709582,0.7408571023382692,0.0037202016219310755,-0.072652,-38.338131
11.185,2.0,1.0,1.0,34.5,33.3,33.3,3.1,3.7,2.52,0.6528982776991079,-0.011709243545576679,0.7462968384252808,0.0036617604752889887,-0.073426,-38.224206
11.185,2.0,1.0,1.0,34.5,33.3,33.3,3.1,3.7,2.5225,0.6465187179315417,-0.011897993416715599,0.7517117301254321,0.0036004670138909877,-0.074213,-38.109995
11.185,2.0,1.0,1.0,34.5,33.3,33.3,3.1,3.7,2.525,0.6400578950279335,-0.012089203092195636,0.7571008582719916,0.003536236480425176,-0.075013,-37.995495
11.185,2.0,1.0,1.0,34.5,33.3,33.3,3.1,3.7,2.5275,0.6335150667348884,-0.012282894107530614,0.7624632790255903,0.0034689816607122803,-0.075828,-37.880701
11.185,2.0,1.0,1.0,34.5,33.3,33.3,3.1,3.7,2.53,0.6268894866145479,-0.012479087613072629,0.767798023232841,0.0033986128116043415,-0.076656,-37.765607
11.185,2.0,1.0,1.0,34.5,33.3,33.3,3.1,3.7,2.5325,0.6201804042865676,-0.01267780433210689,0.7731040957704185,0.0033250375868373915,-0.077498,-37.650208
11.185,2.0,1.0,1.0,34.5,33.3,33.3,3.1,3.7,2.535,0.6133870656872061,-0.012879064516531548,0.7783804748744082,0.0032481609607850803,-0.078355,-37.534501
11.185,2.0,1.0,1.0,34.5,33.3,33.3,3.1,3.7,2.5375,0.6065087133463577,-0.013082887900000569,0.7836261114547404,0.003167885150064741,-0.079227,-37.418479
11.185,2.0,1.0,1.0,34.5,33.3,33.3,3.1,3.7,2.54,0.5995445866833736,-0.013289293648402397,0.7888399283945494,0.003084109532945909,-0.080114,-37.302138
11.185,2.0,1.0,1.0,34.5,33.3,33.3,3.1,3.7,2.5425,0.5924939223225625,-0.01349830030754098,0.7940208198342963,0.0029967305665025553,-0.081017,-37.185473
11.185,2.0,1.0,1.0,34.5,33.3,33.3,3.1,3.7,2.545,0.5853559544292958,-0.013709925747879034,0.7991676504405092,0.0029056417014653576,-0.081935,-37.068479
11.185,2.0,1.0,1.0,34.5,33.3,33.3,3.1,3.7,2.5475,0.5781299150676894,-0.013924187106197323,0.8042792546590011,0.0028107332947141512,-0.08287,-36.95115
11.185,2.0,1.0,1.0,34.5,33.3,33.3,3.1,3.7,2.55,0.5708150345808392,-0.014141100724016482,0.8093544359524703,0.002711892519360221,-0.083822,-36.833481
11.185,2.0,1.0,1.0,34.5,33.3,33.3,3.1,3.7,2.5525,0.563410541994684,-0.014360682082620589,0.8143919660223453,0.0026090032723647565,-0.08479,-36.715468
11.185,2.0,1.0,1.0,34.5,33.3,33.3,3.1,3.7,2.555,0.5559156654465482,-0.01458294573451468,0.819390584014827,0.0025019460796382653,-0.085776,-36.597105
11.185,2.0,1.0,1.0,34.5,33.3,33.3,3.1,3.7,2.5575,0.5483296326394955,-0.014807905231139947,0.8243489957110391,0.002390597998566462,-0.086779,-36.478387
11.185,2.0,1.0,1.0,34.5,33.3,33.3,3.1,3.7,2.56,0.5406516713236692,-0.015035573046662353,0.8292658727012541,0.0022748325179098136,-0.087801,-36.359308
11.185,2.0,1.0,1.0,34.5,33.3,33.3,3.1,3.7,2.5625,0.5328810098058224,-0.015265960497641489,0.8341398515431637,0.0021545194550206576,-0.088841,-36.239863
11.185,2.0,1.0,1.0,34.5,33.3,33.3,3.1,3.7,2.565,0.5250168774882864,-0.015499077658378347,0.8389695329042216,0.0020295248503240243,-0.0899,-36.120048
11.185,2.0,1.0,1.0,34.5,33.3,33.3,3.1,3.7,2.5675,0.5170585054387037,-0.01573493327172976,0.8437534806880508,0.0018997108590078635,-0.090978,-35.999855
11.185,2.0,1.0,1.0,34.5,33.3,33.3,3.1,3.7,2.57,0.5090051269918545,-0.01597353465516926,0.8484902211450164,0.001764935639866826,-0.092076,-35.87928
11.185,2.0,1.0,1.0,34.5,33.3,33.3,3.1,3.7,2.5725,0.5008559783849886,-0.01621488760186202,0.8531782419670314,0.0016250532412485073,-0.093194,-35.758318
11.185,2.0,1.0,1.0,34.5,33.3,33.3,3.1,3.7,2.575,0.49261029942811574,-0.01645899627651217,0.8578159913667256,0.0014799134840455949,-0.094333,-35.636963
11.185,2.0,1.0,1.0,34.5,33.3,33.3,3.1,3.7,2.5775,0.4842673342107525,-0.01670586310572903,0.8624018771411531,0.0013293618416821394,-0.095493,-35.515208
11.185,2.0,1.0,1.0,34.5,33.3,33.3,3.1,3.7,2.58,0.4758263318466953,-0.01695548866264649,0.8669342657202159,0.001173239317041117,-0.096675,-35.393049
11.185,2.0,1.0,1.0,34.5,33.3,33.3,3.1,3.7,2.5825,0.46728654725841495,-0.017207871545518755,0.8714114812000748,0.001011382316282243,-0.097879,-35.27048
11.185,2.0,1.0,1.0,34.5,33.3,33.3,3.1,3.7,2.585,0.4586472420027539,-0.01746300825000175,0.875831804361822,0.0008436225194956439,-0.099105,-35.147495
11.185,2.0,1.0,1.0,34.5,33.3,33.3,3.1,3.7,2.5875,0.4499076851396403,-0.017720893034816606,0.8801934716757545,0.0006697867481465302,-0.100354,-35.024088
11.185,2.0,1.0,1.0,34.5,33.3,33.3,3.1,3.7,2.59,0.44106715414560865,-0.0179815177804773,0.8844946742916459,0.000489696829256789,-0.101628,-34.900253
11.185,2.0,1.0,1.0,34.5,33.3,33.3,3.1,3.7,2.5925,0.4321249358739562,-0.018244871840750562,0.8887335570154599,0.00030316945627753957,-0.102925,-34.775985
11.185,2.0,1.0,1.0,34.5,33.3,33.3,3.1,3.7,2.595,0.42308032756345426,-0.018510941886499477,0.8929082172729974,0.00011001604660692429,-0.104247,-34.651276
11.185,2.0,1.0,1.0,34.5,33.3,33.3,3.1,3.7,2.5975,0.41393263789754875,-0.01877971174154773,0.8970167040610764,-8.995740429373149e-05,-0.105594,-34.526122
11.185,2.0,1.0,1.0,34.5,33.3,33.3,3.1,3.7,2.6,0.404681188116089,-0.01905116221018398,0.9010570168868414,-0.00029695047222887995,-0.106968,-34.400515
11.185,2.0,1.0,1.0,34.5,33.3,33.3,3.1,3.7,2.6025,0.39532531318166775,-0.01932527089590701,0.9050271046959438,-0.00051116845708377,-0.108368,-34.274451
11.185,2.0,1.0,1.0,34.5,33.3,33.3,3.1,3.7,2.605,0.38586436300270344,-0.019602012010997073,0.9089248647903551,-0.0007328225391674873,-0.109795,-34.147921
11.185,2.0,1.0,1.0,34.5,33.3,33.3,3.1,3.7,2.6075,0.3762977037154902,-0.019881356176475563,0.912748141736678,-0.000962129939120021,-0.11125,-34.020921
11.185,2.0,1.0,1.0,34.5,33.3,33.3,3.1,3.7,2.61,0.36662471902747734,-0.020163270211998447,0.9164947262659172,-0.001199314081423536,-0.112733,-33.893443
11.185,2.0,1.0,1.0,34.5,33.3,33.3,3.1,3.7,2.6125,0.3568448116241159,-0.02044771691520511,0.9201623541657327,-0.0014446047615477551,-0.114246,-33.765481
11.185,2.0,1.0,1.0,34.5,33.3,33.3,3.1,3.7,2.615,0.3469574046416622,-0.02073465483002391,0.9237487051663218,-0.0016982383167650154,-0.115788,-33.637028
11.185,2.0,1.0,1.0,34.5,33.3,33.3,3.1,3.7,2.6175,0.3369619432084168,-0.02102403800341092,0.9272514018211543,-0.001960457800663202,-0.117361,-33.508078
11.185,2.0,1.0,1.0,34.5,33.3,33.3,3.1,3.7,2.62,0.32685789605690696,-0.02131581572997487,0.9306680083839175,-0.0022315131613854415,-0.118965,-33.378623
11.185,2.0,1.0,1.0,34.5,33.3,33.3,3.1,3.7,2.6225,0.31664475720960106,-0.021609932283914633,0.933996029683108,-0.0025116614236202063,-0.120602,-33.248657
11.185,2.0,1.0,1.0,34.5,33.3,33.3,3.1,3.7,2.625,0.306322047740817,-0.0219063266376693,0.937232909995857,-0.00280116687436789,-0.122271,-33.118173
11.185,2.0,1.0,1.0,34.5,33.3,33.3,3.1,3.7,2.6275,0.2958893176175118,-0.02220493216665119,0.9403760319226753,-0.003100301252500811,-0.123974,-32.987163
11.185,2.0,1.0,1.0,34.5,33.3,33.3,3.1,3.7,2.63,0.2853461476217366,-0.02250567633940349,0.9434227152649513,-0.0034093439421395257,-0.125711,-32.85562
11.185,2.0,1.0,1.0,34.5,33.3,33.3,3.1,3.7,2.6325,0.2746921513575722,-0.0228084803924908,0.9463702159071632,-0.0037285821698601392,-0.127484,-32.723538
11.185,2.0,1.0,1.0,34.5,33.3,33.3,3.1,3.7,2.635,0.26392697734543036,-0.02311325898939793,0.949215724705916,-0.004058311205746395,-0.129293,-32.590907
11.185,2.0,1.0,1.0,34.5,33.3,33.3,3.1,3.7,2.6375,0.2530503112066714,-0.023419919862677427,0.9519563663880513,-0.0043988345683039125,-0.131139,-32.457722
11.185,2.0,1.0,1.0,34.5,33.3,33.3,3.1,3.7,2.64,0.2420618779414875,-0.02372836343854698,0.9545891984602586,-0.004750464233242976,-0.133024,-32.323973
11.185,2.0,1.0,1.0,34.5,33.3,33.3,3.1,3.7,2.6425,0.23096144430312732,-0.02403848244309951,0.9571112101327571,-0.0051135208461463594,-0.134947,-32.189654
11.185,2.0,1.0,1.0,34.5,33.3,33.3,3.1,3.7,2.645,0.2197488212715225,-0.02435016148924543,0.9595193212597988,-0.005488333939029825,-0.136911,-32.054756
11.185,2.0,1.0,1.0,34.5,33.3,33.3,3.1,3.7,2.6475,0.20842386662945103,-0.024663276643460862,0.9618103812999172,-0.005875242150806539,-0.138915,-31.91927
11.185,2.0,1.0,1.0,34.5,33.3,33.3,3.1,3.7,2.65,0.19698648764437307,-0.024977694971369653,0.9639811682990447,-0.006274593451667701,-0.140962,-31.78319
11.185,2.0,1.0,1.0,34.5,33.3,33.3,3.1,3.7,2.6525,0.18543664385919192,-0.025293274061131927,0.9660283878997787,-0.006686745371390788,-0.143052,-31.646505
11.185,2.0,1.0,1.0,34.5,33.3,33.3,3.1,3.7,2.655,0.1737743499951016,-0.02560986152356134,0.9679486723803268,-0.007112065231592979,-0.145187,-31.509207
11.185,2.0,1.0,1.0,34.5,33.3,33.3,3.1,3.7,2.6575,0.1619996789698212,-0.02592729446783094,0.9697385797268088,-0.007550930381947927,-0.147367,-31.371288
11.185,2.0,1.0,1.0,34.5,33.3,33.3,3.1,3.7,2.66,0.15011276503446402,-0.02624539895156575,0.9713945927428529,-0.008003728440389157,-0.149594,-31.232739
11.185,2.0,1.0,1.0,34.5,33.3,33.3,3.1,3.7,2.6625,0.13811380703233944,-0.026563989404052357,0.9729131182006167,-0.008470857537329828,-0.151868,-31.093549
11.185,2.0,1.0,1.0,34.5,33.3,33.3,3.1,3.7,2.665,0.12600307178296694,-0.02688286802122308,0.9742904860375845,-0.008952726563940118,-0.154193,-30.95371
11.185,2.0,1.0,1.0,34.5,33.3,33.3,3.1,3.7,2.6675,0.11378089759462293,-0.027201824130991197,0.9755229486037331,-0.009449755424523514,-0.156567,-30.813213
11.185,2.0,1.0,1.0,34.5,33.3,33.3,3.1,3.7,2.67,0.10144769790867593,-0.027520633527431608,0.9766066799639048,-0.009962375293057223,-0.158994,-30.672046
11.185,2.0,1.0,1.0,34.5,33.3,33.3,3.1,3.7,2.6725,0.08900396507902342,-0.027839057772206282,0.9775377752604147,-0.010491028873966954,-0.161475,-30.5302
11.185,2.0,1.0,1.0,34.5,33.3,33.3,3.1,3.7,2.675,0.07645027428985407,-0.028156843461534204,0.9783122501412427,-0.011036170667228047,-0.16401,-30.387665
11.185,2.0,1.0,1.0,34.5,33.3,33.3,3.1,3.7,2.6775,0.06378728761501623,-0.028473721456896223,0.9789260402593107,-0.011598267237898403,-0.166602,-30.244429
11.185,2.0,1.0,1.0,34.5,33.3,33.3,3.1,3.7,2.68,0.0510157582221256,-0.028789406077546847,0.9793750008486949,-0.012177797490223808,-0.169252,-30.100483
11.185,2.0,1.0,1.0,34.5,33.3,33.3,3.1,3.7,2.6825,0.03813653472463343,-0.0291035942527733,0.9796549063837889,-0.012775252946470535,-0.171961,-29.955813
11.185,2.0,1.0,1.0,34.5,33.3,33.3,3.1,3.7,2.685,0.025150565684926275,-0.029415964631700573,0.979761450327725,-0.013391138030674071,-0.174732,-29.81041
11.185,2.0,1.0,1.0,34.5,33.3,33.3,3.1,3.7,2.6875,0.012058904271504115,-0.029726176648286067,0.9796902449766225,-0.014025970357535732,-0.177566,-29.664261
11.185,2.0,1.0,1.0,34.5,33.3,33.3,3.1,3.7,2.69,-0.0011372869267368515,-0.03003386953897392,0.9794368214064362,-0.01468028102673153,-0.180466,-29.517354
11.185,2.0,1.0,1.0,34.5,33.3,33.3,3.1,3.7,2.6925,-0.014436730926248224,-0.030338661310291806,0.9789966295294592,-0.015354614922945353,-0.183432,-29.369676
11.185,2.0,1.0,1.0,34.5,33.3,33.3,3.1,3.7,2.695,-0.027838031211697336,-0.030640147653463595,0.978365038267765,-0.016049531021990703,-0.186467,-29.221214
11.185,2.0,1.0,1.0,34.5,33.3,33.3,3.1,3.7,2.6975,-0.041339666433250384,-0.030937900802883892,0.9775373358510849,-0.01676560270345043,-0.189573,-29.071955
11.185,2.0,1.0,1.0,34.5,33.3,33.3,3.1,3.7,2.7,-0.054939984935531,-0.031231468335042176,0.9765087302468703,-0.01750341807031606,-0.192752,-28.921885
11.185,2.0,1.0,1.0,34.5,33.3,33.3,3.1,3.7,2.7025,-0.06863719911568744,-0.031520371904208026,0.9752743497304639,-0.018263580276200037,-0.196007,-28.770989
11.185,2.0,1.0,1.0,34.5,33.3,33.3,3.1,3.7,2.705,-0.08242937960802602,-0.03180410591087074,0.9738292436035388,-0.019046707860758738,-0.199339,-28.619253
11.185,2.0,1.0,1.0,34.5,33.3,33.3,3.1,3.7,2.7075,-0.09631444929278021,-0.03208213609858457,0.9721683830691099,-0.019853435094071302,-0.202751,-28.466662
11.185,2.0,1.0,1.0,34.5,33.3,33.3,3.1,3.7,2.71,-0.11029017712659951,-0.03235389807448125,0.9702866622715909,-0.02068441233081013,-0.206246,-28.3132
11.185,2.0,1.0,1.0,34.5,33.3,33.3,3.1,3.7,2.7125,-0.12435417179250725,-0.032618795748283545,0.9681788995105334,-0.021540306375158337,-0.209826,-28.15885
11.185,2.0,1.0,1.0,34.5,33.3,33.3,3.1,3.7,2.715,-0.1385038751670021,-0.0328761996841719,0.9658398386367574,-0.022421800857548295,-0.213494,-28.003595
11.185,2.0,1.0,1.0,34.5,33.3,33.3,3.1,3.7,2.7175,-0.15273655560205976,-0.03312544535932228,0.9632641506396702,-0.02332959662443357,-0.217253,-27.847419
11.185,2.0,1.0,1.0,34.5,33.3,33.3,3.1,3.7,2.72,-0.1670493010197993,-0.033365831322332486,0.9604464354346742,-0.024264412142456438,-0.221106,-27.690301
11.185,2.0,1.0,1.0,34.5,33.3,33.3,3.1,3.7,2.7225,-0.18143901181750893,-0.0335966172440853,0.9573812238594744,-0.025226983918526975,-0.225055,-27.532225
11.185,2.0,1.0,1.0,34.5,33.3,33.3,3.1,3.7,2.725,-0.19590239358064573,-0.0338170218528449,0.9540629798881848,-0.026218066937517603,-0.229105,-27.373169
11.185,2.0,1.0,1.0,34.5,33.3,33.3,3.1,3.7,2.7275,-0.21043594960129924,-0.034026220744541015,0.9504861030719457,-0.0272384351194548,-0.233259,-27.213113
11.185,2.0,1.0,1.0,34.5,33.3,33.3,3.1,3.7,2.73,-0.225035973199414,-0.03422334405824895,0.9466449312147529,-0.028288881798298905,-0.237519,-27.052036
11.185,2.0,1.0,1.0,34.5,33.3,33.3,3.1,3.7,2.7325,-0.23969853984372488,-0.034407474005812226,0.9425337432928982,-0.029370220224618784,-0.241891,-26.889916
11.185,2.0,1.0,1.0,34.5,33.3,33.3,3.1,3.7,2.735,-0.25441949906908,-0.03457764224335855,0.9381467626263255,-0.030483284094702395,-0.246378,-26.72673
11.185,2.0,1.0,1.0,34.5,33.3,33.3,3.1,3.7,2.7375,-0.2691944661862082,-0.034732827071114906,0.9334781603097713,-0.03162892810888614,-0.250983,-26.562452
11.185,2.0,1.0,1.0,34.5,33.3,33.3,3.1,3.7,2.74,-0.28401881377947974,-0.03487195044641344,0.9285220589113192,-0.032808028562145194,-0.255713,-26.397059
11.185,2.0,1.0,1.0,34.5,33.3,33.3,3.1,3.7,2.7425,-0.2988876629872994,-0.03499387479306785,0.9232725364454626,-0.03402148397025358,-0.26057,-26.230523
11.185,2.0,1.0,1.0,34.5,33.3,33.3,3.1,3.7,2.745,-0.31379587455888236,-0.03509739958837499,0.917723630627338,-0.03527021573509476,-0.26556,-26.062817
11.185,2.0,1.0,1.0,34.5,33.3,33.3,3.1,3.7,2.7475,-0.3287380396799069,-0.03518125770681574,0.9118693434141855,-0.036555168852994584,-0.270688,-25.893912
11.185,2.0,1.0,1.0,34.5,33.3,33.3,3.1,3.7,2.75,-0.343708470558084,-0.0352441114970668,0.905703645839422,-0.0378773126702063,-0.27596,-25.723779
11.185,2.0,1.0,1.0,34.5,33.3,33.3,3.1,3.7,2.7525,-0.3587011907578934,-0.03528454856614883,0.8992204831440076,-0.03923764168997292,-0.281381,-25.552384
11.185,2.0,1.0,1.0,34.5,33.3,33.3,3.1,3.7,2.755,-0.37370992527162794,-0.03530107724138087,0.8924137802089678,-0.04063717643583534,-0.286956,-25.379696
11.185,2.0,1.0,1.0,34.5,33.3,33.3,3.1,3.7,2.7575,-0.3887280903113747,-0.035292121677233335,0.8852774472920525,-0.04207696437609211,-0.292694,-25.20568
11.185,2.0,1.0,1.0,34.5,33.3,33.3,3.1,3.7,2.76,-0.40374878280345167,-0.035256016570114186,0.8778053860705859,-0.04355808091450875,-0.298599,-25.030298
11.185,2.0,1.0,1.0,34.5,33.3,33.3,3.1,3.7,2.7625,-0.41876476956334996,-0.03519100143951432,0.8699914959915497,-0.045081630452531385,-0.30468,-24.853513
11.185,2.0,1.0,1.0,34.5,33.3,33.3,3.1,3.7,2.765,-0.43376847612492503,-0.035095214428700054,0.8618296809289238,-0.04664874752829582,-0.310944,-24.675285
11.185,2.0,1.0,1.0,34.5,33.3,33.3,3.1,3.7,2.7675,-0.4487519751926262,-0.034966685572180266,0.8533138561472563,-0.04826059803771932,-0.317399,-24.495571
11.185,2.0,1.0,1.0,34.5,33.3,33.3,3.1,3.7,2.77,-0.46370697467979444,-0.03480332947038786,0.8444379555693784,-0.04991838054277719,-0.324054,-24.314326
11.185,2.0,1.0,1.0,34.5,33.3,33.3,3.1,3.7,2.7725,-0.47862480528911494,-0.034602937304274356,0.8351959393451972,-0.0516233276717194,-0.330918,-24.131505
11.185,2.0,1.0,1.0,34.5,33.3,33.3,3.1,3.7,2.775,-0.49349640758335855,-0.03436316811368325,0.8255818017175713,-0.05337670761542974,-0.338,-23.947057
11.185,2.0,1.0,1.0,34.5,33.3,33.3,3.1,3.7,2.7775,-0.508312318485285,-0.03408153925327163,0.8155895791805416,-0.05517982572325465,-0.345312,-23.760931
11.185,2.0,1.0,1.0,34.5,33.3,33.3,3.1,3.7,2.78,-0.52306265713458,-0.033755415928200354,0.8052133589246198,-0.057034026200417726,-0.352865,-23.573072
11.185,2.0,1.0,1.0,34.5,33.3,33.3,3.1,3.7,2.7825,-0.5377371100171329,-0.033381999698585706,0.7944472875636746,-0.058940693907433256,-0.360669,-23.383422
11.185,2.0,1.0,1.0,34.5,33.3,33.3,3.1,3.7,2.785,-0.5523249152671377,-0.03295831582653079,0.7832855801381226,-0.0609012562596638,-0.36874,-23.19192
11.185,2.0,1.0,1.0,34.5,33.3,33.3,3.1,3.7,2.7875,-0.5668148460254169,-0.03248119932213767,0.7717225293900485,-0.06291718522213435,-0.377089,-22.998503
11.185,2.0,1.0,1.0,34.5,33.3,33.3,3.1,3.7,2.79,-0.5811951927173695,-0.03194727952486442,0.759752515307397,-0.06498999939077997,-0.385733,-22.803101
11.185,2.0,1.0,1.0,34.5,33.3,33.3,3.1,3.7,2.7925,-0.5954537440907833,-0.03135296303353063,0.7473700149371506,-0.06712126614616398,-0.394688,-22.605643
11.185,2.0,1.0,1.0,34.5,33.3,33.3,3.1,3.7,2.795,-0.609577766826861,-0.030694414771676958,0.7345696124712696,-0.06931260385915118,-0.40397,-22.406053
11.185,2.0,1.0,1.0,34.5,33.3,33.3,3.1,3.7,2.7975,-0.6235539835064029,-0.029967536944282232,0.7213460096150186,-0.07156568411956699,-0.413599,-22.204251
11.185,2.0,1.0,1.0,34.5,33.3,33.3,3.1,3.7,2.8,-0.6373685486768125,-0.029167945606333408,0.7076940362550804,-0.07388223394819295,-0.423594,-22.000151
11.185,2.0,1.0,1.0,34.5,33.3,33.3,3.1,3.7,2.8025,-0.6510070227231782,-0.02829094452263137,0.6936086614556435,-0.07626403793881938,-0.433979,-21.793664
11.185,2.0,1.0,1.0,34.5,33.3,33.3,3.1,3.7,2.805,-0.6644543431974578,-0.027331495950539075,0.679085004824873,-0.07871294025988952,-0.444777,-21.584692
11.185,2.0,1.0,1.0,34.5,33.3,33.3,3.1,3.7,2.8075,-0.677694793202464,-0.026284187922005146,0.6641183483129369,-0.0812308464234817,-0.456015,-21.373136
11.185,2.0,1.0,1.0,34.5,33.3,33.3,3.1,3.7,2.81,-0.6907119663605825,-0.025143197536799458,0.6487041485271876,-0.08381972470195012,-0.46772,-21.158888
11.185,2.0,1.0,1.0,34.5,33.3,33.3,3.1,3.7,2.8125,-0.703488727819191,-0.0239022497038933,0.632838049681822,-0.0864816070378572,-0.479924,-20.941833
11.185,2.0,1.0,1.0,34.5,33.3,33.3,3.1,3.7,2.815,-0.7160071706539999,-0.022554570680439718,0.6165158973401159,-0.08921858924914695,-0.492662,-20.72185
11.185,2.0,1.0,1.0,34.5,33.3,33.3,3.1,3.7,2.8175,-0.7282485669253888,-0.02109283565565156,0.5997337531597008,-0.09203283027633521,-0.50597,-20.498811
11.185,2.0,1.0,1.0,34.5,33.3,33.3,3.1,3.7,2.82,-0.740193312518733,-0.019509109507430813,0.5824879109184886,-0.09492655014883662,-0.519891,-20.272579
11.185,2.0,1.0,1.0,34.5,33.3,33.3,3.1,3.7,2.8225,-0.7518208647548463,-0.01779477971978217,0.5647749141845066,-0.09790202625951616,-0.534469,-20.043007
11.185,2.0,1.0,1.0,34.5,33.3,33.3,3.1,3.7,2.825,-0.7631096715867636,-0.015940480285232556,0.5465915761024176,-0.10096158742513336,-0.549754,-19.809942
11.185,2.0,1.0,1.0,34.5,33.3,33.3,3.1,3.7,2.8275,-0.7740370910004478,-0.013936005224401148,0.527935001909194,-0.10410760506914207,-0.565803,-19.573219
