1,w,sub_t,h,l1,l2,l3,g1,g2,Freq,S11_re,S21_re,S11_img,S21_img,S11_dB,S21_dB
11.185,2.0,1.0,1.0,33.8,33.6,33.6,3.1,3.2,2.5,0.811758389003013,-0.00823411850628974,0.571816831311406,0.00544074045243446,-0.061556,-40.114305
11.185,2.0,1.0,1.0,33.8,33.6,33.6,3.1,3.2,2.5025,0.8076172368034478,-0.00838994740453081,0.577535074364365,0.005447719508175198,-0.062146,-39.99701
11.185,2.0,1.0,1.0,33.8,33.6,33.6,3.1,3.2,2.505,0.8034159621289468,-0.008548378728242196,0.5832487335810196,0.005453504914428872,-0.062745,-39.879414
11.185,2.0,1.0,1.0,33.8,33.6,33.6,3.1,3.2,2.5075,0.7991539633569792,-0.008709459161293103,0.5889574308208869,0.005458052212383114,-0.063355,-39.76151
11.185,2.0,1.0,1.0,33.8,33.6,33.6,3.1,3.2,2.51,0.794830630394995,-0.008873236364839632,0.5946607768011613,0.005461315399052999,-0.063975,-39.64329
11.185,2.0,1.0,1.0,33.8,33.6,33.6,3.1,3.2,2.5125,0.7904453445898122,-0.009039758999255723,0.6003583707544169,0.005463246868739899,-0.064606,-39.524747
11.185,2.0,1.0,1.0,33.8,33.6,33.6,3.1,3.2,2.515,0.785997478637967,-0.009209076746531831,0.6060498000757489,0.005463797352041548,-0.065248,-39.405874
11.185,2.0,1.0,1.0,33.8,33.6,33.6,3.1,3.2,2.5175,0.7814863964971862,-0.009381240333147784,0.6117346399589979,0.005462915852300215,-0.065901,-39.286663
11.185,2.0,1.0,1.0,33.8,33.6,33.6,3.1,3.2,2.52,0.7769114532991136,-0.009556301553425604,0.6174124530217283,0.005460549579367379,-0.066566,-39.167106
11.185,2.0,1.0,1.0,33.8,33.6,33.6,3.1,3.2,2.5225,0.7722719952634705,-0.009734313293367472,0.6230827889185646,0.005456643880559695,-0.067242,-39.047197
11.185,2.0,1.0,1.0,33.8,33.6,33.6,3.1,3.2,2.525,0.7675673596137971,-0.00991532955498512,0.6287451839425339,0.005451142168672192,-0.06793,-38.926926
11.185,2.0,1.0,1.0,33.8,33.6,33.6,3.1,3.2,2.5275,0.7627968744949671,-0.010099405481124146,0.6343991606140187,0.005443985846908821,-0.068631,-38.806287
11.185,2.0,1.0,1.0,33.8,33.6,33.6,3.1,3.2,2.53,0.7579598588926622,-0.010286597380788895,0.6400442272569078,0.005435114230582673,-0.069344,-38.685271
11.185,2.0,1.0,1.0,33.8,33.6,33.6,3.1,3.2,2.5325,0.7530556225550019,-0.010476962754970127,0.6456798775615332,0.005424464465429334,-0.07007,-38.563871
11.185,2.0,1.0,1.0,33.8,33.6,33.6,3.1,3.2,2.535,0.748083465916544,-0.010670560322980051,0.6513055901339685,0.005411971442370421,-0.070809,-38.442078
11.185,2.0,1.0,1.0,33.8,33.6,33.6,3.1,3.2,2.5375,0.7430426800248817,-0.010867450049295695,0.6569208280312242,0.005397567708552371,-0.071561,-38.319883
11.185,2.0,1.0,1.0,33.8,33.6,33.6,3.1,3.2,2.54,0.7379325464700698,-0.01106769317091314,0.6625250382818937,0.005381183374479091,-0.072328,-38.19728
11.185,2.0,1.0,1.0,33.8,33.6,33.6,3.1,3.2,2.5425,0.7327523373171317,-0.01127135222521265,0.6681176513917615,0.005362746017044735,-0.073108,-38.074258
11.185,2.0,1.0,1.0,33.8,33.6,33.6,3.1,3.2,2.545,0.727501315041912,-0.011478491078334678,0.6736980808338825,0.005342180578262954,-0.073903,-37.95081
11.185,2.0,1.0,1.0,33.8,33.6,33.6,3.1,3.2,2.5475,0.7221787324705596,-0.011689174954064806,0.6792657225226094,0.005319409259477528,-0.074712,-37.826926
11.185,2.0,1.0,1.0,33.8,33.6,33.6,3.1,3.2,2.55,0.7167838327229231,-0.011903470463225537,0.6848199542710525,0.005294351410827137,-0.075537,-37.702599
11.185,2.0,1.0,1.0,33.8,33.6,33.6,3.1,3.2,2.5525,0.7113158491601904,-0.012121445633569601,0.6903601352313964,0.005266923415723259,-0.076377,-37.577819
11.185,2.0,1.0,1.0,33.8,33.6,33.6,3.1,3.2,2.555,0.7057740053370833,-0.012343169940170182,0.6958856053175252,0.0052370385700878375,-0.077233,-37.452576
11.185,2.0,1.0,1.0,33.8,33.6,33.6,3.1,3.2,2.5575,0.7001575149589656,-0.01256871433630017,0.7013956846093509,0.005204606956081078,-0.078105,-37.326862
11.185,2.0,1.0,1.0,33.8,33.6,33.6,3.1,3.2,2.56,0.6944655818442288,-0.012798151284790818,0.7068896727382339,0.005169535310035181,-0.078994,-37.200668
11.185,2.0,1.0,1.0,33.8,33.6,33.6,3.1,3.2,2.5625,0.6886973998923442,-0.013031554789858525,0.7123668482528555,0.00513172688429238,-0.0799,-37.073983
11.185,2.0,1.0,1.0,33.8,33.6,33.6,3.1,3.2,2.565,0.6828521530579846,-0.013269000429386425,0.7178264679648851,0.0050910813026288386,-0.080823,-36.946798
11.185,2.0,1.0,1.0,33.8,33.6,33.6,3.1,3.2,2.5675,0.6769290153316594,-0.01351056538764303,0.7232677662737593,0.005047494408924761,-0.081764,-36.819104
11.185,2.0,1.0,1.0,33.8,33.6,33.6,3.1,3.2,2.57,0.6709271507273027,-0.013756328488420408,0.7286899544698456,0.005000858108724178,-0.082724,-36.69089
11.185,2.0,1.0,1.0,33.8,33.6,33.6,3.1,3.2,2.5725,0.6648457132773054,-0.014006370228567933,0.7340922200152735,0.0049510602033021305,-0.083703,-36.562146
11.185,2.0,1.0,1.0,33.8,33.6,33.6,3.1,3.2,2.575,0.6586838470354881,-0.014260772811896605,0.7394737258016503,0.004897984215837458,-0.084701,-36.432861
11.185,2.0,1.0,1.0,33.8,33.6,33.6,3.1,3.2,2.5775,0.6524406860885573,-0.014519620183424183,0.7448336093838642,0.004841509209261807,-0.085719,-36.303026
11.185,2.0,1.0,1.0,33.8,33.6,33.6,3.1,3.2,2.58,0.6461153545766023,-0.014782998063926231,0.7501709821891528,0.004781509595330887,-0.086758,-36.17263
11.185,2.0,1.0,1.0,33.8,33.6,33.6,3.1,3.2,2.5825,0.6397069667232222,-0.015050993984755444,0.7554849287005647,0.0047178549344336134,-0.087817,-36.041661
11.185,2.0,1.0,1.0,33.8,33.6,33.6,3.1,3.2,2.585,0.6332146268759163,-0.015323697322884527,0.7607745056139297,0.004650409725626754,-0.088898,-35.910108
11.185,2.0,1.0,1.0,33.8,33.6,33.6,3.1,3.2,2.5875,0.6266374295573831,-0.015601199336123932,0.766038740967386,0.004579033186347737,-0.090001,-35.777961
11.185,2.0,1.0,1.0,33.8,33.6,33.6,3.1,3.2,2.59,0.6199744595284387,-0.015883593198457047,0.7712766332425104,0.004503579021224064,-0.091126,-35.645207
11.185,2.0,1.0,1.0,33.8,33.6,33.6,3.1,3.2,2.5925,0.613224791863267,-0.01617097403543164,0.7764871504360229,0.004423895179361647,-0.092275,-35.511836
11.185,2.0,1.0,1.0,33.8,33.6,33.6,3.1,3.2,2.595,0.6063874920377939,-0.01646343895953526,0.7816692291010139,0.004339823599451226,-0.093448,-35.377834
11.185,2.0,1.0,1.0,33.8,33.6,33.6,3.1,3.2,2.5975,0.5994616160319766,-0.01676108710547656,0.7868217733565934,0.004251199941991321,-0.094646,-35.24319
11.185,2.0,1.0,1.0,33.8,33.6,33.6,3.1,3.2,2.6,0.5924462104468744,-0.017064019665284026,0.7919436538648138,0.004157853307877733,-0.095869,-35.107892
11.185,2.0,1.0,1.0,33.8,33.6,33.6,3.1,3.2,2.6025,0.5853403126374092,-0.01737233992312197,0.7970337067736466,0.004059605942561227,-0.097118,-34.971926
11.185,2.0,1.0,1.0,33.8,33.6,33.6,3.1,3.2,2.605,0.5781429508617507,-0.017686153289714446,0.8020907326247878,0.003956272924919111,-0.098393,-34.835279
11.185,2.0,1.0,1.0,33.8,33.6,33.6,3.1,3.2,2.6075,0.5708531444483435,-0.01800556733625398,0.8071134952249446,0.0038476618399300565,-0.099697,-34.69794
11.185,2.0,1.0,1.0,33.8,33.6,33.6,3.1,3.2,2.61,0.5634699039816271,-0.018330691827656665,0.8121007204792475,0.00373357243417821,-0.101028,-34.559893
11.185,2.0,1.0,1.0,33.8,33.6,33.6,3.1,3.2,2.6125,0.555992231507564,-0.01866163875501194,0.8170510951853396,0.0036137962531449398,-0.102389,-34.421125
11.185,2.0,1.0,1.0,33.8,33.6,33.6,3.1,3.2,2.615,0.5484191207601441,-0.018998522367056646,0.8219632657866359,0.0034881162591742943,-0.103779,-34.281622
11.185,2.0,1.0,1.0,33.8,33.6,33.6,3.1,3.2,2.6175,0.5407495574101207,-0.019341459200484662,0.8268358370831557,0.0033563064289194025,-0.105201,-34.141369
11.185,2.0,1.0,1.0,33.8,33.6,33.6,3.1,3.2,2.62,0.5329825193372698,-0.019690568108879838,0.8316673708982742,0.00321813132899168,-0.106655,-34.000353
11.185,2.0,1.0,1.0,33.8,33.6,33.6,3.1,3.2,2.6225,0.5251169769275564,-0.020045970290041855,0.836456384699637,0.0030733456684437542,-0.108141,-33.858557
11.185,2.0,1.0,1.0,33.8,33.6,33.6,3.1,3.2,2.625,0.517151893396677,-0.0204077893114414,0.841201350172381,0.00292169382661687,-0.109661,-33.715966
11.185,2.0,1.0,1.0,33.8,33.6,33.6,3.1,3.2,2.6275,0.5090862251414939,-0.020776151133518182,0.8459006917427406,0.0027629093547761217,-0.111216,-33.572565
11.185,2.0,1.0,1.0,33.8,33.6,33.6,3.1,3.2,2.63,0.5009189221210033,-0.021151184130501075,0.8505527850499701,0.002596714449840949,-0.112806,-33.428337
11.185,2.0,1.0,1.0,33.8,33.6,33.6,3.1,3.2,2.6325,0.49264892826854023,-0.021533019108391137,0.8551559553644313,0.0024228193983902653,-0.114434,-33.283265
11.185,2.0,1.0,1.0,33.8,33.6,33.6,3.1,3.2,2.635,0.4842751819370464,-0.021921789319714415,0.8597084759495457,0.002240921988987158,-0.1161,-33.137333
11.185,2.0,1.0,1.0,33.8,33.6,33.6,3.1,3.2,2.6375,0.47579661637931214,-0.022317630474600416,0.8642085663652006,0.002050706890716178,-0.117806,-32.990524
11.185,2.0,1.0,1.0,33.8,33.6,33.6,3.1,3.2,2.64,0.46721216026521795,-0.022720680747699257,0.8686543907100343,0.001851844995667002,-0.119552,-32.842818
11.185,2.0,1.0,1.0,33.8,33.6,33.6,3.1,3.2,2.6425,0.45852073823813266,-0.023131080780390282,0.8730440557998828,0.0016439927229203583,-0.12134,-32.694199
11.185,2.0,1.0,1.0,33.8,33.6,33.6,3.1,3.2,2.645,0.44972127151274155,-0.023548973677676194,0.8773756092794855,0.0014267912814018191,-0.123171,-32.544647
11.185,2.0,1.0,1.0,33.8,33.6,33.6,3.1,3.2,2.6475,0.44081267851671896,-0.023974504999088264,0.8816470376643815,0.0011998658887610652,-0.125048,-32.394143
11.185,2.0,1.0,1.0,33.8,33.6,33.6,3.1,3.2,2.65,0.4317938755787933,-0.02440782274285098,0.8858562643097074,0.0009628249432037238,-0.12697,-32.242666
11.185,2.0,1.0,1.0,33.8,33.6,33.6,3.1,3.2,2.6525,0.42266377766595414,-0.024849077322467873,0.8900011473023904,0.0007152591449605309,-0.128941,-32.090198
11.185,2.0,1.0,1.0,33.8,33.6,33.6,3.1,3.2,2.655,0.41342129917265086,-0.025298421534796136,0.8940794772730193,0.0004567405638017571,-0.130961,-31.936716
11.185,2.0,1.0,1.0,33.8,33.6,33.6,3.1,3.2,2.6575,0.4040653547650871,-0.025756010518570065,0.8980889751233623,0.0001868216487141358,-0.133032,-31.7822
11.185,2.0,1.0,1.0,33.8,33.6,33.6,3.1,3.2,2.66,0.39459486028386653,-0.02622200170221023,0.9020272896652632,-9.496582446957258e-05,-0.135157,-31.626626
11.185,2.0,1.0,1.0,33.8,33.6,33.6,3.1,3.2,2.6625,0.385008733708494,-0.026696554739623627,0.9058919951663025,-0.0003891118720483298,-0.137336,-31.469973
11.185,2.0,1.0,1.0,33.8,33.6,33.6,3.1,3.2,2.665,0.375305896187435,-0.02717983143254545,0.909680588797282,-0.0006961294929896429,-0.139572,-31.312217
11.185,2.0,1.0,1.0,33.8,33.6,33.6,3.1,3.2,2.6675,0.36548527313773915,-0.027671995637801726,0.9133904879761982,-0.0010165559363981681,-0.141867,-31.153333
11.185,2.0,1.0,1.0,33.8,33.6,33.6,3.1,3.2,2.67,0.355545795418469,-0.028173213157683025,0.9170190276029792,-0.0013509540517572002,-0.144223,-30.993298
11.185,2.0,1.0,1.0,33.8,33.6,33.6,3.1,3.2,2.6725,0.3454864005825062,-0.028683651611397607,0.920563457178758,-0.00169991372829529,-0.146643,-30.832084
11.185,2.0,1.0,1.0,33.8,33.6,33.6,3.1,3.2,2.675,0.3353060342116381,-0.029203480285331204,0.9240209378030038,-0.002064053430392014,-0.149128,-30.669667
11.185,2.0,1.0,1.0,33.8,33.6,33.6,3.1,3.2,2.6775,0.32500365134019693,-0.029732869959561706,0.9273885390412292,-0.0024440218365571814,-0.151682,-30.506018
11.185,2.0,1.0,1.0,33.8,33.6,33.6,3.1,3.2,2.68,0.31457821797291835,-0.03027199270776687,0.9306632356554062,-0.002840499590196737,-0.154306,-30.341109
11.185,2.0,1.0,1.0,33.8,33.6,33.6,3.1,3.2,2.6825,0.3040287127031673,-0.030821021667305427,0.9338419041885214,-0.0032542011711307805,-0.157004,-30.174912
11.185,2.0,1.0,1.0,33.8,33.6,33.6,3.1,3.2,2.685,0.29335412843813485,-0.03138013077585649,0.9369213193939592,-0.003685876897656337,-0.159778,-30.007397
11.185,2.0,1.0,1.0,33.8,33.6,33.6,3.1,3.2,2.6875,0.282553474238197,-0.0319494944705406,0.939898150499569,-0.00413631506986146,-0.162632,-29.838532
11.185,2.0,1.0,1.0,33.8,33.6,33.6,3.1,3.2,2.69,0.27162577727824,-0.03252928734493521,0.9427689572953224,-0.00460634426590613,-0.165569,-29.668285
11.185,2.0,1.0,1.0,33.8,33.6,33.6,3.1,3.2,2.6925,0.2605700849394028,-0.03311968375880617,0.9455301860324774,-0.005096835804103035,-0.168592,-29.496623
11.185,2.0,1.0,1.0,33.8,33.6,33.6,3.1,3.2,2.695,0.24938546704054984,-0.03372085739470827,0.9481781651209583,-0.00560870638486738,-0.171704,-29.323513
11.185,2.0,1.0,1.0,33.8,33.6,33.6,3.1,3.2,2.6975,0.23807101821952584,-0.034332980754847045,0.9507091006104637,-0.006142920927973564,-0.174911,-29.148918
11.185,2.0,1.0,1.0,33.8,33.6,33.6,3.1,3.2,2.7,0.2266258604753475,-0.03495622459072217,0.9531190714393222,-0.00670049562207612,-0.178214,-28.972802
11.185,2.0,1.0,1.0,33.8,33.6,33.6,3.1,3.2,2.7025,0.21504914588348287,-0.035590757257079254,0.9554040244335759,-0.007282501205139702,-0.181619,-28.795127
11.185,2.0,1.0,1.0,33.8,33.6,33.6,3.1,3.2,2.705,0.20334005949767767,-0.036236743980555895,0.9575597690369926,-0.007890066496293337,-0.185131,-28.615853
11.185,2.0,1.0,1.0,33.8,33.6,33.6,3.1,3.2,2.7075,0.1914978224531519,-0.03689434603210882,0.9595819717507331,-0.008524382201712963,-0.188753,-28.434939
11.185,2.0,1.0,1.0,33.8,33.6,33.6,3.1,3.2,2.71,0.17952169528763973,-0.03756371979080463,0.961466150259173,-0.009186705019450948,-0.192491,-28.252343
11.185,2.0,1.0,1.0,33.8,33.6,33.6,3.1,3.2,2.7125,0.16741098149849692,-0.03824501568484491,0.9632076672159687,-0.009878362070721418,-0.19635,-28.068021
11.185,2.0,1.0,1.0,33.8,33.6,33.6,3.1,3.2,2.715,0.15516503135627038,-0.038938376993709146,0.9648017236615968,-0.010600755688030731,-0.200337,-27.881927
11.185,2.0,1.0,1.0,33.8,33.6,33.6,3.1,3.2,2.7175,0.14278324599742684,-0.03964393849302344,0.96624335204059,-0.01135536859376328,-0.204456,-27.694013
11.185,2.0,1.0,1.0,33.8,33.6,33.6,3.1,3.2,2.72,0.13026508182174398,-0.04036182492112544,0.967527408783142,-0.012143769506429963,-0.208714,-27.50423
11.185,2.0,1.0,1.0,33.8,33.6,33.6,3.1,3.2,2.7225,0.11761005522294321,-0.04109214924325569,0.9686485664118846,-0.012967619215813077,-0.213119,-27.312527
11.185,2.0,1.0,1.0,33.8,33.6,33.6,3.1,3.2,2.725,0.1048177476848349,-0.04183501068577581,0.9696013051302435,-0.013828677172742774,-0.217677,-27.118849
11.185,2.0,1.0,1.0,33.8,33.6,33.6,3.1,3.2,2.7275,0.09188781127939347,-0.04259049250873234,0.9703799038438089,-0.014728808644294112,-0.222396,-26.923141
11.185,2.0,1.0,1.0,33.8,33.6,33.6,3.1,3.2,2.73,0.07881997460804015,-0.043358659480329236,0.9709784305606685,-0.015669992490852554,-0.227284,-26.725344
11.185,2.0,1.0,1.0,33.8,33.6,33.6,3.1,3.2,2.7325,0.06561404923304229,-0.04413955501135366,0.9713907321102995,-0.01665432962785448,-0.232351,-26.525398
11.185,2.0,1.0,1.0,33.8,33.6,33.6,3.1,3.2,2.735,0.05226993665247959,-0.0449331979011525,0.9716104231136637,-0.01768405224214784,-0.237606,-26.32324
11.185,2.0,1.0,1.0,33.8,33.6,33.6,3.1,3.2,2.7375,0.038787635879863835,-0.045739578639241975,0.9716308741290808,-0.018761533840950678,-0.243058,-26.118803
11.185,2.0,1.0,1.0,33.8,33.6,33.6,3.1,3.2,2.74,0.025167251698380144,-0.04655865519782842,0.9714451988895998,-0.019889300220413814,-0.24872,-25.912018
11.185,2.0,1.0,1.0,33.8,33.6,33.6,3.1,3.2,2.7425,0.011409003670169605,-0.04739034824021236,0.9710462405373512,-0.021070041450968625,-0.254602,-25.702813
11.185,2.0,1.0,1.0,33.8,33.6,33.6,3.1,3.2,2.745,-0.0024867640067021486,-0.04823453565793801,0.9704265567489794,-0.022306624988093885,-0.260718,-25.491113
11.185,2.0,1.0,1.0,33.8,33.6,33.6,3.1,3.2,2.7475,-0.01651957168656698,-0.049091046335304284,0.9695784036332932,-0.02360211003005303,-0.267081,-25.276839
11.185,2.0,1.0,1.0,33.8,33.6,33.6,3.1,3.2,2.75,-0.0306887923858214,-0.0499596530230649,0.96849371826768,-0.0249597632587077,-0.273705,-25.059907
11.185,2.0,1.0,1.0,33.8,33.6,33.6,3.1,3.2,2.7525,-0.04499363866995457,-0.05084006418330239,0.9671640997232928,-0.026383076115939794,-0.280608,-24.84023
11.185,2.0,1.0,1.0,33.8,33.6,33.6,3.1,3.2,2.755,-0.05943314815027997,-0.05173191464398831,0.9655807884103453,-0.027875783786728076,-0.287805,-24.617719
11.185,2.0,1.0,1.0,33.8,33.6,33.6,3.1,3.2,2.7575,-0.07400616739469157,-0.05263475487388196,0.9637346435537922,-0.029441886080820347,-0.295316,-24.392278
11.185,2.0,1.0,1.0,33.8,33.6,33.6,3.1,3.2,2.76,-0.08871133402327708,-0.05354803865530824,0.9616161185857978,-0.03108567042848227,-0.303161,-24.163806
11.185,2.0,1.0,1.0,33.8,33.6,33.6,3.1,3.2,2.7625,-0.10354705671991549,-0.05447110889290025,0.9592152342145314,-0.032811737232341064,-0.311362,-23.932198
11.185,2.0,1.0,1.0,33.8,33.6,33.6,3.1,3.2,2.765,-0.11851149284347269,-0.055403181249273216,0.9565215488985379,-0.034625027847196815,-0.319944,-23.697344
11.185,2.0,1.0,1.0,33.8,33.6,33.6,3.1,3.2,2.7675,-0.13360252326520927,-0.05634332524219327,0.9535241264217394,-0.036530855493236716,-0.328931,-23.459127
11.185,2.0,1.0,1.0,33.8,33.6,33.6,3.1,3.2,2.77,-0.14881772399090332,-0.057290442370133116,0.950211500225882,-0.038534939445723386,-0.338354,-23.217424
11.185,2.0,1.0,1.0,33.8,33.6,33.6,3.1,3.2,2.7725,-0.16415433404391105,-0.05824324075170621,0.9465716341142426,-0.04064344288632602,-0.348244,-22.972108
11.185,2.0,1.0,1.0,33.8,33.6,33.6,3.1,3.2,2.775,-0.1796092189863719,-0.05920020566632459,0.942591878892542,-0.04286301484816543,-0.358635,-22.723041
11.185,2.0,1.0,1.0,33.8,33.6,33.6,3.1,3.2,2.7775,-0.19517882933595673,-0.060159565264790264,0.9382589244597771,-0.04520083673865781,-0.369565,-22.47008
11.185,2.0,1.0,1.0,33.8,33.6,33.6,3.1,3.2,2.78,-0.21085915299039443,-0.06111925057475089,0.933558746803031,-0.04766467398152118,-0.381076,-22.213074
11.185,2.0,1.0,1.0,33.8,33.6,33.6,3.1,3.2,2.7825,-0.22664566059541036,-0.06207684875125896,0.9284765492860988,-0.05026293338183527,-0.393214,-21.951863
11.185,2.0,1.0,1.0,33.8,33.6,33.6,3.1,3.2,2.785,-0.24253324257681239,-0.06302954830987019,0.922996697552413,-0.05300472688549264,-0.406031,-21.686278
11.185,2.0,1.0,1.0,33.8,33.6,33.6,3.1,3.2,2.7875,-0.2585161362946101,-0.06397407481978164,0.9171026472890502,-0.055899942475858375,-0.419582,-21.416141
11.185,2.0,1.0,1.0,33.8,33.6,33.6,3.1,3.2,2.79,-0.274587841455244,-0.0649066152162025,0.9107768640219992,-0.0589593230244314,-0.433932,-21.141262
11.185,2.0,1.0,1.0,33.8,33.6,33.6,3.1,3.2,2.7925,-0.2907410215228265,-0.06582272850028419,0.9040007340363412,-0.062194553985998574,-0.44915,-20.861441
11.185,2.0,1.0,1.0,33.8,33.6,33.6,3.1,3.2,2.795,-0.30696738838348514,-0.0667172401137826,0.8967544654424555,-0.06561836089786596,-0.465314,-20.576467
11.185,2.0,1.0,1.0,33.8,33.6,33.6,3.1,3.2,2.7975,-0.3232575669161196,-0.06758411668171398,0.8890169783481738,-0.06924461770037452,-0.482514,-20.286114
11.185,2.0,1.0,1.0,33.8,33.6,33.6,3.1,3.2,2.8,-0.33960093537934305,-0.06841631708144871,0.8807657830567557,-0.07308846693176957,-0.500847,-19.990146
11.185,2.0,1.0,1.0,33.8,33.6,33.6,3.1,3.2,2.8025,-0.35598543660189824,-0.069205614885257,0.8719768452077159,-0.0771664528490112,-0.520425,-19.688308
11.185,2.0,1.0,1.0,33.8,33.6,33.6,3.1,3.2,2.805,-0.37239735381699324,-0.06994238609036714,0.8626244368346484,-0.08149666846435151,-0.541373,-19.380334
11.185,2.0,1.0,1.0,33.8,33.6,33.6,3.1,3.2,2.8075,-0.3888210435522808,-0.07061535463939894,0.8526809724654548,-0.08609891733163848,-0.563835,-19.06594
11.185,2.0,1.0,1.0,33.8,33.6,33.6,3.1,3.2,2.81,-0.4052386162041464,-0.07121128647319612,0.8421168296855138,-0.09099489061686536,-0.587972,-18.744824
11.185,2.0,1.0,1.0,33.8,33.6,33.6,3.1,3.2,2.8125,-0.421629552696683,-0.0717146206580322,0.830900154096085,-0.0962083594723148,-0.61397,-18.416666
11.185,2.0,1.0,1.0,33.8,33.6,33.6,3.1,3.2,2.815,-0.43797024283896063,-0.07210702337805121,0.818996649434343,-0.10176538189781574,-0.642039,-18.081128
11.185,2.0,1.0,1.0,33.8,33.6,33.6,3.1,3.2,2.8175,-0.45423342750812484,-0.07236684714319903,0.806369354931898,-0.10769452196355757,-0.672424,-17.737851
11.185,2.0,1.0,1.0,33.8,33.6,33.6,3.1,3.2,2.82,-0.47038752242882925,-0.07246847326352318,0.792978413998893,-0.11402707726512258,-0.705406,-17.386454
11.185,2.0,1.0,1.0,33.8,33.6,33.6,3.1,3.2,2.8225,-0.4863957958850779,-0.07238151027964156,0.7787808413554671,-0.12079730746138218,-0.74131,-17.026538
11.185,2.0,1.0,1.0,33.8,33.6,33.6,3.1,3.2,2.825,-0.502215365948776,-0.07206981438039892,0.763730300262806,-0.12804265224304495,-0.780513,-16.657679
11.185,2.0,1.0,1.0,33.8,33.6,33.6,3.1,3.2,2.8275,-0.5177959744746142,-0.0714902896215782,0.7477769082160739,-0.13580392041712094,-0.823459,-16.279433
