1,w,sub_t,h,l1,l2,l3,g1,g2,Freq,S11_re,S21_re,S11_img,S21_img,S11_dB,S21_dB
11.185,2.0,1.0,1.0,33.4,33.9,33.9,3.8,1.5,2.5,0.860166172011768,-0.00785509619140238,0.497694306439669,0.00732965043289748,-0.054253,-39.376952
11.185,2.0,1.0,1.0,33.4,33.9,33.9,3.8,1.5,2.5025,0.8568716878901307,-0.008021896430508066,0.5032285118190599,0.0073750101125150454,-0.05477,-39.253971
11.185,2.0,1.0,1.0,33.4,33.9,33.9,3.8,1.5,2.505,0.8535273914314399,-0.008191961330617928,0.5087626071830146,0.007419981740562296,-0.055296,-39.130555
11.185,2.0,1.0,1.0,33.4,33.9,33.9,3.8,1.5,2.5075,0.8501327918592435,-0.008365367474397138,0.5142963814948904,0.007464539518650264,-0.055832,-39.006691
11.185,2.0,1.0,1.0,33.4,33.9,33.9,3.8,1.5,2.51,0.8466873899407531,-0.008542193826541991,0.5198296173063875,0.007508656513743729,-0.056378,-38.882369
11.185,2.0,1.0,1.0,33.4,33.9,33.9,3.8,1.5,2.5125,0.8431906778126932,-0.008722521827086011,0.5253620905412423,0.007552304603261487,-0.056935,-38.757577
11.185,2.0,1.0,1.0,33.4,33.9,33.9,3.8,1.5,2.515,0.8396421388022578,-0.008906435489147914,0.5308935702711873,0.007595454417149771,-0.057502,-38.632302
11.185,2.0,1.0,1.0,33.4,33.9,33.9,3.8,1.5,2.5175,0.8360412472429675,-0.009094021501373482,0.536423818483829,0.007638075276736734,-0.058081,-38.506533
11.185,2.0,1.0,1.0,33.4,33.9,33.9,3.8,1.5,2.52,0.8323874682851922,-0.009285369335333974,0.5419525898421148,0.007680135130162116,-0.05867,-38.380257
11.185,2.0,1.0,1.0,33.4,33.9,33.9,3.8,1.5,2.5225,0.8286802577011074,-0.009480571358170098,0.547479631434994,0.007721600484160929,-0.059272,-38.253462
11.185,2.0,1.0,1.0,33.4,33.9,33.9,3.8,1.5,2.525,0.8249190616838188,-0.00967972295078048,0.5530046825189049,0.007762436331964141,-0.059885,-38.126134
11.185,2.0,1.0,1.0,33.4,33.9,33.9,3.8,1.5,2.5275,0.821103316640382,-0.009882922631879662,0.5585274742496669,0.007802606077061144,-0.06051,-37.99826
11.185,2.0,1.0,1.0,33.4,33.9,33.9,3.8,1.5,2.53,0.817232448978431,-0.010090272188270799,0.5640477294043394,0.007842071452550066,-0.061148,-37.869828
11.185,2.0,1.0,1.0,33.4,33.9,33.9,3.8,1.5,2.5325,0.8133058748860941,-0.01030187681169936,0.5695651620925879,0.007880792435780819,-0.061799,-37.740822
11.185,2.0,1.0,1.0,33.4,33.9,33.9,3.8,1.5,2.535,0.8093230001048708,-0.01051784524268307,0.5750794774570752,0.00791872715797369,-0.062464,-37.61123
11.185,2.0,1.0,1.0,33.4,33.9,33.9,3.8,1.5,2.5375,0.80528321969511,-0.010738289921736576,0.5805903713623458,0.007955831808471436,-0.063142,-37.481036
11.185,2.0,1.0,1.0,33.4,33.9,33.9,3.8,1.5,2.54,0.8011859177937086,-0.010963327148442021,0.5860975300716655,0.007992060533256108,-0.063834,-37.350227
11.185,2.0,1.0,1.0,33.4,33.9,33.9,3.8,1.5,2.5425,0.79703046736362,-0.011193077248845803,0.5916006299112286,0.008027365327333452,-0.064541,-37.218787
11.185,2.0,1.0,1.0,33.4,33.9,33.9,3.8,1.5,2.545,0.792816229934735,-0.011427664751695741,0.5970993369211105,0.008061695920555419,-0.065262,-37.086701
11.185,2.0,1.0,1.0,33.4,33.9,33.9,3.8,1.5,2.5475,0.7885425553356685,-0.011667218574070366,0.6025933064922989,0.008094999656417518,-0.065999,-36.953953
11.185,2.0,1.0,1.0,33.4,33.9,33.9,3.8,1.5,2.55,0.7842087814159409,-0.01191187221699345,0.6080821829891202,0.008127221363330005,-0.066752,-36.820527
11.185,2.0,1.0,1.0,33.4,33.9,33.9,3.8,1.5,2.5525,0.7798142337580205,-0.01216176397166455,0.613565599356277,0.008158303217821121,-0.067521,-36.686407
11.185,2.0,1.0,1.0,33.4,33.9,33.9,3.8,1.5,2.555,0.7753582253786374,-0.012417037136987184,0.6190431767097276,0.00818818459908577,-0.068307,-36.551576
11.185,2.0,1.0,1.0,33.4,33.9,33.9,3.8,1.5,2.5575,0.770840056418742,-0.012677840249126271,0.6245145239105343,0.008216801934244384,-0.06911,-36.416016
11.185,2.0,1.0,1.0,33.4,33.9,33.9,3.8,1.5,2.56,0.7662590138214397,-0.012944327323876263,0.6299792371207654,0.008244088533623177,-0.069931,-36.279711
11.185,2.0,1.0,1.0,33.4,33.9,33.9,3.8,1.5,2.5625,0.7616143709971669,-0.013216658112686493,0.6354368993404746,0.008269974415308658,-0.070771,-36.142641
11.185,2.0,1.0,1.0,33.4,33.9,33.9,3.8,1.5,2.565,0.7569053874753263,-0.01349499837324876,0.6408870799247064,0.00829438611816499,-0.071629,-36.004789
11.185,2.0,1.0,1.0,33.4,33.9,33.9,3.8,1.5,2.5675,0.7521313085415375,-0.01377952015562333,0.6463293340793915,0.008317246502432594,-0.072508,-35.866134
11.185,2.0,1.0,1.0,33.4,33.9,33.9,3.8,1.5,2.57,0.7472913648595846,-0.014070402104956185,0.651763202334929,0.008338474536949416,-0.073406,-35.726659
11.185,2.0,1.0,1.0,33.4,33.9,33.9,3.8,1.5,2.5725,0.7423847720770709,-0.014367829781918839,0.6571882099961479,0.008357985071951204,-0.074326,-35.586341
11.185,2.0,1.0,1.0,33.4,33.9,33.9,3.8,1.5,2.575,0.7374107304137164,-0.014671996002095206,0.6626038665672407,0.008375688596313963,-0.075267,-35.445162
11.185,2.0,1.0,1.0,33.4,33.9,33.9,3.8,1.5,2.5775,0.7323684242311351,-0.014983101195629116,0.6680096651501578,0.008391490977999575,-0.076231,-35.303098
11.185,2.0,1.0,1.0,33.4,33.9,33.9,3.8,1.5,2.58,0.7272570215828431,-0.015301353788560533,0.6734050818148237,0.00840529318635159,-0.077217,-35.16013
11.185,2.0,1.0,1.0,33.4,33.9,33.9,3.8,1.5,2.5825,0.7220756737431315,-0.01562697060738781,0.6787895749394103,0.008416990994764445,-0.078228,-35.016233
11.185,2.0,1.0,1.0,33.4,33.9,33.9,3.8,1.5,2.585,0.7168235147133328,-0.015960177308516215,0.6841625845187503,0.008426474662110899,-0.079264,-34.871386
11.185,2.0,1.0,1.0,33.4,33.9,33.9,3.8,1.5,2.5875,0.7114996607038773,-0.016301208834396855,0.6895235314388255,0.008433628591160812,-0.080325,-34.725564
11.185,2.0,1.0,1.0,33.4,33.9,33.9,3.8,1.5,2.59,0.7061032095903994,-0.01665030989829925,0.6948718167150638,0.008438330962055532,-0.081413,-34.578742
11.185,2.0,1.0,1.0,33.4,33.9,33.9,3.8,1.5,2.5925,0.7006332403419954,-0.017007735499835405,0.7002068206920158,0.008440453338716155,-0.082528,-34.430895
11.185,2.0,1.0,1.0,33.4,33.9,33.9,3.8,1.5,2.595,0.6950888124195854,-0.017373751473518134,0.7055279022017352,0.008439860245856703,-0.083673,-34.281998
11.185,2.0,1.0,1.0,33.4,33.9,33.9,3.8,1.5,2.5975,0.689468965142119,-0.01774863507284341,0.7108343976779766,0.00843640871404434,-0.084846,-34.132023
11.185,2.0,1.0,1.0,33.4,33.9,33.9,3.8,1.5,2.6,0.6837727170181872,-0.018132675592592205,0.7161256202230377,0.008429947789993082,-0.086051,-33.980943
11.185,2.0,1.0,1.0,33.4,33.9,33.9,3.8,1.5,2.6025,0.6779990650403772,-0.018526175032283623,0.7214008586237887,0.008420318008994261,-0.087288,-33.828728
11.185,2.0,1.0,1.0,33.4,33.9,33.9,3.8,1.5,2.605,0.6721469839394477,-0.018929448803972012,0.726659376313114,0.008407350826071172,-0.088557,-33.67535
11.185,2.0,1.0,1.0,33.4,33.9,33.9,3.8,1.5,2.6075,0.6662154253951498,-0.01934282648785388,0.7319004102726138,0.008390868002092282,-0.089862,-33.520778
11.185,2.0,1.0,1.0,33.4,33.9,33.9,3.8,1.5,2.61,0.6602033172002165,-0.019766652639472162,0.7371231698720148,0.008370680940685216,-0.091202,-33.36498
11.185,2.0,1.0,1.0,33.4,33.9,33.9,3.8,1.5,2.6125,0.6541095623737128,-0.02020128765263368,0.742326835640299,0.008346589971352786,-0.092579,-33.207924
11.185,2.0,1.0,1.0,33.4,33.9,33.9,3.8,1.5,2.615,0.647933038219575,-0.020647108682546357,0.7475105579630436,0.008318383573701153,-0.093996,-33.049576
11.185,2.0,1.0,1.0,33.4,33.9,33.9,3.8,1.5,2.6175,0.6416725953257869,-0.02110451063407902,0.7526734556999022,0.008285837537138255,-0.095452,-32.8899
11.185,2.0,1.0,1.0,33.4,33.9,33.9,3.8,1.5,2.62,0.6353270564991715,-0.02157390722051738,0.7578146147155388,0.008248714049781551,-0.096951,-32.728861
11.185,2.0,1.0,1.0,33.4,33.9,33.9,3.8,1.5,2.6225,0.628895215630308,-0.022055732098686547,0.7629330863166053,0.008206760709618862,-0.098494,-32.566422
11.185,2.0,1.0,1.0,33.4,33.9,33.9,3.8,1.5,2.625,0.622375836482545,-0.0225504400868654,0.76802788558656,0.0081597094501829,-0.100083,-32.402542
11.185,2.0,1.0,1.0,33.4,33.9,33.9,3.8,1.5,2.6275,0.6157676513984619,-0.023058508472537046,0.7730979896092371,0.00810727537211829,-0.10172,-32.237183
11.185,2.0,1.0,1.0,33.4,33.9,33.9,3.8,1.5,2.63,0.6090693599164866,-0.023580438417695557,0.7781423355710556,0.008049155471024003,-0.103407,-32.070301
11.185,2.0,1.0,1.0,33.4,33.9,33.9,3.8,1.5,2.6325,0.6022796272896326,-0.024116756470185925,0.7831598187306261,0.007985027250828874,-0.105146,-31.901854
11.185,2.0,1.0,1.0,33.4,33.9,33.9,3.8,1.5,2.635,0.5953970828974949,-0.024668016190382683,0.7881492902432148,0.00791454721068387,-0.106939,-31.731797
11.185,2.0,1.0,1.0,33.4,33.9,33.9,3.8,1.5,2.6375,0.588420318541752,-0.02523479990344604,0.7931095548260632,0.007837349191910908,-0.10879,-31.560082
11.185,2.0,1.0,1.0,33.4,33.9,33.9,3.8,1.5,2.64,0.5813478866143739,-0.02581772058841427,0.7980393682489205,0.007753042569906609,-0.110701,-31.386661
11.185,2.0,1.0,1.0,33.4,33.9,33.9,3.8,1.5,2.6425,0.5741782981266581,-0.026417423916536696,0.8029374346322324,0.007661210274035134,-0.112675,-31.211483
11.185,2.0,1.0,1.0,33.4,33.9,33.9,3.8,1.5,2.645,0.566910020585917,-0.027034590452512965,0.8078024035333025,0.007561406616417506,-0.114715,-31.034496
11.185,2.0,1.0,1.0,33.4,33.9,33.9,3.8,1.5,2.6475,0.5595414757052757,-0.02766993803372993,0.8126328667982853,0.007453154908098056,-0.116824,-30.855643
11.185,2.0,1.0,1.0,33.4,33.9,33.9,3.8,1.5,2.65,0.5520710369304455,-0.02832422434413824,0.8174273551550818,0.007335944838295276,-0.119006,-30.674868
11.185,2.0,1.0,1.0,33.4,33.9,33.9,3.8,1.5,2.6525,0.5444970267656533,-0.028998249701177026,0.8221843345189699,0.007209229589265682,-0.121264,-30.492111
11.185,2.0,1.0,1.0,33.4,33.9,33.9,3.8,1.5,2.655,0.5368177138788994,-0.029692860076093383,0.8269022019791695,0.007072422655662708,-0.123603,-30.307308
11.185,2.0,1.0,1.0,33.4,33.9,33.9,3.8,1.5,2.6575,0.529031309964602,-0.03040895037019204,0.8315792814302746,0.006924894333077828,-0.126027,-30.120396
11.185,2.0,1.0,1.0,33.4,33.9,33.9,3.8,1.5,2.66,0.521135966339236,-0.03114746797196088,0.8362138188076343,0.006765967835622205,-0.12854,-29.931306
11.185,2.0,1.0,1.0,33.4,33.9,33.9,3.8,1.5,2.6625,0.5131297702428836,-0.03190941662273562,0.8408039768801338,0.006594914996828411,-0.131148,-29.739966
11.185,2.0,1.0,1.0,33.4,33.9,33.9,3.8,1.5,2.665,0.5050107408165596,-0.03269586062159912,0.845347829547333,0.006410951501699815,-0.133855,-29.546302
11.185,2.0,1.0,1.0,33.4,33.9,33.9,3.8,1.5,2.6675,0.4967768247218314,-0.03350792940356548,0.8498433555803705,0.006213231590259059,-0.136668,-29.350236
11.185,2.0,1.0,1.0,33.4,33.9,33.9,3.8,1.5,2.67,0.4884258913654335,-0.03434682252889696,0.8542884317372954,0.006000842164255326,-0.139593,-29.151685
11.185,2.0,1.0,1.0,33.4,33.9,33.9,3.8,1.5,2.6725,0.47995572768735834,-0.035213815125585135,0.8586808251732914,0.005772796218576118,-0.142636,-28.950563
11.185,2.0,1.0,1.0,33.4,33.9,33.9,3.8,1.5,2.675,0.4713640324662003,-0.03611026383174962,0.8630181850543587,0.005528025507100032,-0.145805,-28.746781
11.185,2.0,1.0,1.0,33.4,33.9,33.9,3.8,1.5,2.6775,0.4626484100902284,-0.03703761328992364,0.8672980332690999,0.005265372338918001,-0.149107,-28.540243
11.185,2.0,1.0,1.0,33.4,33.9,33.9,3.8,1.5,2.68,0.4538063637367991,-0.03799740325104664,0.8715177541169435,0.0049835803846514206,-0.152552,-28.33085
11.185,2.0,1.0,1.0,33.4,33.9,33.9,3.8,1.5,2.6825,0.4448352878961773,-0.038991276352460344,0.8756745828319364,0.004681284353556848,-0.156147,-28.118497
11.185,2.0,1.0,1.0,33.4,33.9,33.9,3.8,1.5,2.685,0.4357324601685456,-0.04002098664141151,0.8797655927786397,0.004356998379664924,-0.159904,-27.903073
11.185,2.0,1.0,1.0,33.4,33.9,33.9,3.8,1.5,2.6875,0.426495032254936,-0.0410884089235357,0.883787681129919,0.00400910292867975,-0.163833,-27.684462
11.185,2.0,1.0,1.0,33.4,33.9,33.9,3.8,1.5,2.69,0.41712002005393256,-0.042195549024564176,0.8877375528047561,0.003635830005944037,-0.167946,-27.462542
11.185,2.0,1.0,1.0,33.4,33.9,33.9,3.8,1.5,2.6925,0.40760429276618537,-0.04334455506316299,0.8916117024065795,0.0032352464084282784,-0.172257,-27.237181
11.185,2.0,1.0,1.0,33.4,33.9,33.9,3.8,1.5,2.695,0.3979445608981721,-0.04453772984328746,0.895406393857734,0.002805234719210535,-0.176779,-27.008243
11.185,2.0,1.0,1.0,33.4,33.9,33.9,3.8,1.5,2.6975,0.38813736304503227,-0.04577754448581097,0.8991176373721332,0.002343471689722168,-0.181528,-26.775584
11.185,2.0,1.0,1.0,33.4,33.9,33.9,3.8,1.5,2.7,0.37817905132002233,-0.04706665343129248,0.9027411633438213,0.0018474035912788025,-0.186522,-26.539048
11.185,2.0,1.0,1.0,33.4,33.9,33.9,3.8,1.5,2.7025,0.36806577528509266,-0.048407910958465854,0.9062723926518943,0.0013142180407395084,-0.191779,-26.298473
11.185,2.0,1.0,1.0,33.4,33.9,33.9,3.8,1.5,2.705,0.3577934642237597,-0.04980438937610804,0.9097064027889377,0.0007408117126276048,-0.197321,-26.053687
11.185,2.0,1.0,1.0,33.4,33.9,33.9,3.8,1.5,2.7075,0.3473578075841394,-0.05125939905882824,0.9130378891072447,0.00012375323808091432,-0.203171,-25.804504
11.185,2.0,1.0,1.0,33.4,33.9,33.9,3.8,1.5,2.71,0.3367542334075562,-0.05277651050938702,0.9162611203399186,-0.0005407595449939446,-0.209354,-25.550731
11.185,2.0,1.0,1.0,33.4,33.9,33.9,3.8,1.5,2.7125,0.32597788454753734,-0.05435957864021826,0.9193698873868263,-0.001256948991918088,-0.2159,-25.292157
11.185,2.0,1.0,1.0,33.4,33.9,33.9,3.8,1.5,2.715,0.31502359247698813,-0.0560127694733104,0.9223574441509031,-0.002029514905447072,-0.222841,-25.028561
11.185,2.0,1.0,1.0,33.4,33.9,33.9,3.8,1.5,2.7175,0.3038858484802576,-0.05774058945800254,0.9252164389593163,-0.002863701097055855,-0.230212,-24.759706
11.185,2.0,1.0,1.0,33.4,33.9,33.9,3.8,1.5,2.72,0.29255877203526787,-0.05954791759708413,0.9279388347947187,-0.0037653730147225446,-0.238055,-24.485338
11.185,2.0,1.0,1.0,33.4,33.9,33.9,3.8,1.5,2.7225,0.2810360762139893,-0.06144004054763151,0.9305158161793254,-0.0047411085757443185,-0.246413,-24.205186
11.185,2.0,1.0,1.0,33.4,33.9,33.9,3.8,1.5,2.725,0.2693110299749393,-0.06342269081677557,0.9329376800795924,-0.005798304813763935,-0.255338,-23.918958
11.185,2.0,1.0,1.0,33.4,33.9,33.9,3.8,1.5,2.7275,0.2573764172997509,-0.06550208809325132,0.9351937076073417,-0.0069453035357490145,-0.264889,-23.626343
11.185,2.0,1.0,1.0,33.4,33.9,33.9,3.8,1.5,2.73,0.24522449325322904,-0.06768498362734283,0.9372720125524412,-0.008191539918531854,-0.27513,-23.327004
11.185,2.0,1.0,1.0,33.4,33.9,33.9,3.8,1.5,2.7325,0.23284693724527014,-0.0699787073719776,0.9391593618516643,-0.009547718896296192,-0.286137,-23.02058
11.185,2.0,1.0,1.0,33.4,33.9,33.9,3.8,1.5,2.735,0.22023480407707993,-0.07239121729312534,0.9408409619249204,-0.011026025352672247,-0.297996,-22.706682
11.185,2.0,1.0,1.0,33.4,33.9,33.9,3.8,1.5,2.7375,0.20737847381139893,-0.07493114980014494,0.9423002033246072,-0.012640375602200963,-0.310804,-22.384889
11.185,2.0,1.0,1.0,33.4,33.9,33.9,3.8,1.5,2.74,0.1942676021879406,-0.07760786956596692,0.9435183542565674,-0.01440671951470177,-0.324676,-22.054747
11.185,2.0,1.0,1.0,33.4,33.9,33.9,3.8,1.5,2.7425,0.18089107431448115,-0.08043151599973539,0.944474191125042,-0.016343405018153356,-0.339742,-21.715763
11.185,2.0,1.0,1.0,33.4,33.9,33.9,3.8,1.5,2.745,0.1672369658542611,-0.08341304214871544,0.945143551177053,-0.018471619761374458,-0.356156,-21.367404
11.185,2.0,1.0,1.0,33.4,33.9,33.9,3.8,1.5,2.7475,0.15329251812796285,-0.08656423961671421,0.9454987883766139,-0.02081592862190774,-0.374098,-21.009092
11.185,2.0,1.0,1.0,33.4,33.9,33.9,3.8,1.5,2.75,0.139044136791211,-0.089897739857601,0.945508108571848,-0.0234049307579982,-0.393776,-20.640197
11.185,2.0,1.0,1.0,33.4,33.9,33.9,3.8,1.5,2.7525,0.12447742854179128,-0.0934269774327676,0.9451347535044643,-0.026272066346268566,-0.415439,-20.260034
11.185,2.0,1.0,1.0,33.4,33.9,33.9,3.8,1.5,2.755,0.10957729741638492,-0.09716609375426169,0.9443359948450679,-0.02945661141876487,-0.439384,-19.867859
11.185,2.0,1.0,1.0,33.4,33.9,33.9,3.8,1.5,2.7575,0.09432813280895708,-0.10112974932513709,0.9430618887267832,-0.03300490979963534,-0.465962,-19.462859
11.185,2.0,1.0,1.0,33.4,33.9,33.9,3.8,1.5,2.76,0.07871413714230086,-0.10533279678901165,0.9412537276280346,-0.036971904598267956,-0.495599,-19.04415
11.185,2.0,1.0,1.0,33.4,33.9,33.9,3.8,1.5,2.7625,0.06271986484810435,-0.10978974353623729,0.9388421093443154,-0.041423048608292226,-0.528809,-18.610769
11.185,2.0,1.0,1.0,33.4,33.9,33.9,3.8,1.5,2.765,0.04633108011441885,-0.1145138970647757,0.9357445217549422,-0.04643669370794517,-0.56622,-18.161667
11.185,2.0,1.0,1.0,33.4,33.9,33.9,3.8,1.5,2.7675,0.02953609516320807,-0.11951603239571137,0.9318623172132762,-0.05210708386011159,-0.608604,-17.695707
11.185,2.0,1.0,1.0,33.4,33.9,33.9,3.8,1.5,2.77,0.012327833561489806,-0.12480233875095803,0.9270769230526288,-0.05854810316838917,-0.656917,-17.211663
11.185,2.0,1.0,1.0,33.4,33.9,33.9,3.8,1.5,2.7725,-0.00529301040595798,-0.13037127721487143,0.9212451092500229,-0.0658979553077228,-0.712353,-16.708217
11.185,2.0,1.0,1.0,33.4,33.9,33.9,3.8,1.5,2.775,-0.02331315144252069,-0.13620878893607494,0.9141931214035527,-0.07432496286313271,-0.776418,-16.18397
11.185,2.0,1.0,1.0,33.4,33.9,33.9,3.8,1.5,2.7775,-0.04169937057755139,-0.14228099951331444,0.9057095106352103,-0.08403465100529967,-0.851025,-15.637466
11.185,2.0,1.0,1.0,33.4,33.9,33.9,3.8,1.5,2.78,-0.06038733774369935,-0.14852311854521758,0.8955366021109702,-0.09527816951905459,-0.938631,-15.067226
11.185,2.0,1.0,1.0,33.4,33.9,33.9,3.8,1.5,2.7825,-0.07926461190110326,-0.15482256482561274,0.883360843443208,-0.10836180831232886,-1.042409,-14.471821
11.185,2.0,1.0,1.0,33.4,33.9,33.9,3.8,1.5,2.785,-0.09814485090396745,-0.16099337817835987,0.8688029682573248,-0.1236566707882428,-1.166503,-13.849991
11.185,2.0,1.0,1.0,33.4,33.9,33.9,3.8,1.5,2.7875,-0.11672892876114448,-0.16673766041545382,0.8514103954168254,-0.1416060934560789,-1.316346,-13.200842
11.185,2.0,1.0,1.0,33.4,33.9,33.9,3.8,1.5,2.79,-0.13454708499566537,-0.17158823751897012,0.8306572979944458,-0.16272540852731804,-1.499088,-12.524167
11.185,2.0,1.0,1.0,33.4,33.9,33.9,3.8,1.5,2.7925,-0.15087507252094753,-0.17482560391430169,0.8059635937967948,-0.18758287637571633,-1.724107,-11.820955
11.185,2.0,1.0,1.0,33.4,33.9,33.9,3.8,1.5,2.795,-0.16461862490892537,-0.1753635827737662,0.7767546366744863,-0.21674018395257003,-2.003514,-11.094186
11.185,2.0,1.0,1.0,33.4,33.9,33.9,3.8,1.5,2.7975,-0.17416989934831165,-0.17160743907588444,0.7426004703217234,-0.2506140004074407,-2.352333,-10.350031
11.185,2.0,1.0,1.0,33.4,33.9,33.9,3.8,1.5,2.8,-0.17726881698794208,-0.16131725307195643,0.7034953638429764,-0.2891985014133901,-2.787419,-9.599556
11.185,2.0,1.0,1.0,33.4,33.9,33.9,3.8,1.5,2.8025,-0.1709713232509768,-0.14157788224057785,0.6603484116092021,-0.33157900040767585,-3.322751,-8.860936
11.185,2.0,1.0,1.0,33.4,33.9,33.9,3.8,1.5,2.805,-0.15194919370603716,-0.10909819525230637,0.6156994684790533,-0.37522319444575153,-3.955856,-8.161756
11.185,2.0,1.0,1.0,33.4,33.9,33.9,3.8,1.5,2.8075,-0.11746427229381211,-0.061178799535464165,0.5744422681156334,-0.4152672451117261,-4.637172,-7.540194
11.185,2.0,1.0,1.0,33.4,33.9,33.9,3.8,1.5,2.81,-0.06721407141639636,0.002458557897338741,0.5438639786839546,-0.4444818987272335,-5.224363,-7.042786
11.185,2.0,1.0,1.0,33.4,33.9,33.9,3.8,1.5,2.8125,-0.00541404116748405,0.0776119892812501,0.531965586610333,-0.454943235824013,-5.481879,-6.716266
11.185,2.0,1.0,1.0,33.4,33.9,33.9,3.8,1.5,2.815,0.05878919528982482,0.15520018329260302,0.5438815337350066,-0.4415824964216984,-5.239466,-6.593929
11.185,2.0,1.0,1.0,33.4,33.9,33.9,3.8,1.5,2.8175,0.11423818593616357,0.2241663239345689,0.5785735382487851,-0.4054545684294092,-4.586733,-6.682814
11.185,2.0,1.0,1.0,33.4,33.9,33.9,3.8,1.5,2.82,0.15258397102562882,0.2762542607957518,0.628966577221758,-0.35358945104935907,-3.779095,-6.960658
11.185,2.0,1.0,1.0,33.4,33.9,33.9,3.8,1.5,2.8225,0.17114723033342336,0.30883377979996357,0.6856371687993915,-0.2953285654631093,-3.015604,-7.385057
11.185,2.0,1.0,1.0,33.4,33.9,33.9,3.8,1.5,2.825,0.1721225021685271,0.3241007390870316,0.7407491492154794,-0.23842614348629593,-2.378202,-7.907845
11.185,2.0,1.0,1.0,33.4,33.9,33.9,3.8,1.5,2.8275,0.15994818827854115,0.3264657117382157,0.7897130988606548,-0.18741192553992073,-1.876013,-8.486207
11.185,2.0,1.0,1.0,33.4,33.9,33.9,3.8,1.5,2.83,0.13912639917549444,0.3203942251538534,0.8308013795922832,-0.14397883349047763,-1.489943,-9.087469
