1,w,sub_t,h,l1,l2,l3,g1,g2,Freq,S11_re,S21_re,S11_img,S21_img,S11_dB,S21_dB
11.185,2.0,1.0,1.0,34.2,34.7,34.7,2.8,2.9,2.5,0.748293833876256,-0.0135499598244998,0.651025436458925,0.00780157909016314,-0.07103,-36.117814
11.185,2.0,1.0,1.0,34.2,34.7,34.7,2.8,2.9,2.5025,0.743196532307409,-0.013825917614509721,0.6566890478353846,0.007807859941359294,-0.071896,-35.98395
11.185,2.0,1.0,1.0,34.2,34.7,34.7,2.8,2.9,2.505,0.7380277634301492,-0.014107620079609235,0.6623414268229072,0.007812040347222623,-0.072781,-35.849383
11.185,2.0,1.0,1.0,34.2,34.7,34.7,2.8,2.9,2.5075,0.7327867146542655,-0.014395216346257454,0.6679819956771684,0.007814023723480806,-0.073686,-35.714097
11.185,2.0,1.0,1.0,34.2,34.7,34.7,2.8,2.9,2.51,0.7274725594291692,-0.014688860592261207,0.6736101583665597,0.007813709033811666,-0.074611,-35.578078
11.185,2.0,1.0,1.0,34.2,34.7,34.7,2.8,2.9,2.5125,0.7220844569540705,-0.014988712260396699,0.6792252999258125,0.007810990554338747,-0.075556,-35.441307
11.185,2.0,1.0,1.0,34.2,34.7,34.7,2.8,2.9,2.515,0.7166215518791921,-0.015294936282935882,0.6848267857829304,0.007805757623667045,-0.076523,-35.303769
11.185,2.0,1.0,1.0,34.2,34.7,34.7,2.8,2.9,2.5175,0.7110829739975637,-0.015607703317727097,0.690413961058021,0.007797894377432282,-0.077512,-35.165446
11.185,2.0,1.0,1.0,34.2,34.7,34.7,2.8,2.9,2.52,0.7054678379268668,-0.015927189996526564,0.6959861498325449,0.0077872794662553315,-0.078524,-35.02632
11.185,2.0,1.0,1.0,34.2,34.7,34.7,2.8,2.9,2.5225,0.6997752427808104,-0.016253579186321383,0.7015426543873563,0.007773785755901414,-0.07956,-34.886373
11.185,2.0,1.0,1.0,34.2,34.7,34.7,2.8,2.9,2.525,0.6940042718294239,-0.01658706026443835,0.7070827544078477,0.007757280008345771,-0.080619,-34.745587
11.185,2.0,1.0,1.0,34.2,34.7,34.7,2.8,2.9,2.5275,0.6881539921476492,-0.016927829408286365,0.7126057061543531,0.007737622542338556,-0.081704,-34.603943
11.185,2.0,1.0,1.0,34.2,34.7,34.7,2.8,2.9,2.53,0.6822234542515462,-0.017276089900639096,0.718110741595838,0.007714666871943799,-0.082815,-34.46142
11.185,2.0,1.0,1.0,34.2,34.7,34.7,2.8,2.9,2.5325,0.6762116917213837,-0.01763205245142806,0.7235970675047767,0.007688259321397594,-0.083952,-34.317999
11.185,2.0,1.0,1.0,34.2,34.7,34.7,2.8,2.9,2.535,0.6701177208108123,-0.017995935537085478,0.7290638645109406,0.007658238614488578,-0.085117,-34.173659
11.185,2.0,1.0,1.0,34.2,34.7,34.7,2.8,2.9,2.5375,0.663940540041286,-0.018367965758547704,0.7345102861116608,0.007624435436508529,-0.086311,-34.028379
11.185,2.0,1.0,1.0,34.2,34.7,34.7,2.8,2.9,2.54,0.6576791297807966,-0.0187483782191114,0.7399354576359356,0.007586671966649652,-0.087534,-33.882138
11.185,2.0,1.0,1.0,34.2,34.7,34.7,2.8,2.9,2.5425,0.6513324518059351,-0.019137416923418936,0.7453384751595571,0.007544761378537937,-0.088788,-33.734911
11.185,2.0,1.0,1.0,34.2,34.7,34.7,2.8,2.9,2.545,0.6448994488462114,-0.019535335198941,0.750718404368199,0.00749850730638528,-0.090073,-33.586678
11.185,2.0,1.0,1.0,34.2,34.7,34.7,2.8,2.9,2.5475,0.6383790441094727,-0.019942396141424405,0.7560742793651513,0.007447703274016483,-0.091392,-33.437413
11.185,2.0,1.0,1.0,34.2,34.7,34.7,2.8,2.9,2.55,0.6317701407871638,-0.020358873085880188,0.76140510142016,0.007392132083776945,-0.092744,-33.287093
11.185,2.0,1.0,1.0,34.2,34.7,34.7,2.8,2.9,2.5525,0.6250716215380977,-0.020785050104800452,0.7667098376554669,0.007331565162051308,-0.094132,-33.135692
11.185,2.0,1.0,1.0,34.2,34.7,34.7,2.8,2.9,2.555,0.6182823479492546,-0.02122122253541978,0.7719874196648874,0.007265761857819343,-0.095556,-32.983184
11.185,2.0,1.0,1.0,34.2,34.7,34.7,2.8,2.9,2.5575,0.6114011599720338,-0.02166769753796886,0.7772367420613606,0.007194468690338695,-0.097019,-32.829544
11.185,2.0,1.0,1.0,34.2,34.7,34.7,2.8,2.9,2.56,0.60442687533226,-0.02212479468701328,0.7824566609480234,0.007117418541673611,-0.09852,-32.674742
11.185,2.0,1.0,1.0,34.2,34.7,34.7,2.8,2.9,2.5625,0.597358288912085,-0.0225928465981274,0.787645992307429,0.00703432978937618,-0.100063,-32.518752
11.185,2.0,1.0,1.0,34.2,34.7,34.7,2.8,2.9,2.565,0.5901941721017762,-0.02307219959232102,0.792803510303047,0.006944905374172269,-0.101648,-32.361543
11.185,2.0,1.0,1.0,34.2,34.7,34.7,2.8,2.9,2.5675,0.5829332721192431,-0.02356321440081771,0.7979279454866354,0.00684883179699765,-0.103277,-32.203086
11.185,2.0,1.0,1.0,34.2,34.7,34.7,2.8,2.9,2.57,0.5755743112949383,-0.024066266912981464,0.8030179829045059,0.006745778039169432,-0.104952,-32.043349
11.185,2.0,1.0,1.0,34.2,34.7,34.7,2.8,2.9,2.5725,0.5681159863195953,-0.024581748970398096,0.8080722600950315,0.006635394398853187,-0.106674,-31.882301
11.185,2.0,1.0,1.0,34.2,34.7,34.7,2.8,2.9,2.575,0.5605569674520547,-0.025110069210346194,0.8130893649690265,0.006517311236292568,-0.108447,-31.719908
11.185,2.0,1.0,1.0,34.2,34.7,34.7,2.8,2.9,2.5775,0.552895897684199,-0.025651653962138282,0.8180678335638125,0.0063911376194936784,-0.110271,-31.556136
11.185,2.0,1.0,1.0,34.2,34.7,34.7,2.8,2.9,2.58,0.5451313918597667,-0.026206948200076012,0.8230061476608924,0.00625645986119422,-0.112149,-31.390948
11.185,2.0,1.0,1.0,34.2,34.7,34.7,2.8,2.9,2.5825,0.5372620357435539,-0.026776416557049668,0.8279027322561435,0.006112839936983036,-0.114083,-31.22431
11.185,2.0,1.0,1.0,34.2,34.7,34.7,2.8,2.9,2.585,0.5292863850372226,-0.027360544403115538,0.8327559528703214,0.005959813773358236,-0.116076,-31.056181
11.185,2.0,1.0,1.0,34.2,34.7,34.7,2.8,2.9,2.5875,0.5212029643376191,-0.027959838993714948,0.8375641126864183,0.005796889393305762,-0.11813,-30.886524
11.185,2.0,1.0,1.0,34.2,34.7,34.7,2.8,2.9,2.59,0.5130102660331862,-0.02857483069254946,0.8423254494990056,0.005623544905627215,-0.120248,-30.715298
11.185,2.0,1.0,1.0,34.2,34.7,34.7,2.8,2.9,2.5925,0.5047067491336686,-0.029206074274504955,0.8470381324591371,0.005439226322728289,-0.122433,-30.542459
11.185,2.0,1.0,1.0,34.2,34.7,34.7,2.8,2.9,2.595,0.49629083802795865,-0.029854150314417297,0.8517002585965979,0.005243345189872908,-0.124687,-30.367965
11.185,2.0,1.0,1.0,34.2,34.7,34.7,2.8,2.9,2.5975,0.48776092116447506,-0.030519666667905163,0.8563098490993348,0.005035276006987749,-0.127015,-30.19177
11.185,2.0,1.0,1.0,34.2,34.7,34.7,2.8,2.9,2.6,0.47911534964806674,-0.03120326005094841,0.8608648453276473,0.004814353421938388,-0.129419,-30.013826
11.185,2.0,1.0,1.0,34.2,34.7,34.7,2.8,2.9,2.6025,0.47035243574694263,-0.03190559772537331,0.8653631045381994,0.004579869171756427,-0.131903,-29.834085
11.185,2.0,1.0,1.0,34.2,34.7,34.7,2.8,2.9,2.605,0.46147045130263514,-0.03262737929791764,0.8698023952900997,0.004331068745536522,-0.134472,-29.652496
11.185,2.0,1.0,1.0,34.2,34.7,34.7,2.8,2.9,2.6075,0.4524676260354911,-0.033369338641077766,0.8741803925020489,0.004067147739599217,-0.137128,-29.469006
11.185,2.0,1.0,1.0,34.2,34.7,34.7,2.8,2.9,2.61,0.4433421457376392,-0.0341322459444991,0.8784946721259425,0.0037872478719749294,-0.139878,-29.28356
11.185,2.0,1.0,1.0,34.2,34.7,34.7,2.8,2.9,2.6125,0.4340921503448083,-0.03491690990624224,0.8827427053981725,0.00349045261924446,-0.142724,-29.096101
11.185,2.0,1.0,1.0,34.2,34.7,34.7,2.8,2.9,2.615,0.42471573187779266,-0.035724180073844286,0.8869218526252008,0.0031757824342012473,-0.145673,-28.906568
11.185,2.0,1.0,1.0,34.2,34.7,34.7,2.8,2.9,2.6175,0.4152109322438023,-0.03655494934568223,0.8910293564546189,0.0028421894975972513,-0.14873,-28.714901
11.185,2.0,1.0,1.0,34.2,34.7,34.7,2.8,2.9,2.62,0.40557574088731374,-0.03741015664372771,0.8950623345768436,0.0024885519512955895,-0.1519,-28.521034
11.185,2.0,1.0,1.0,34.2,34.7,34.7,2.8,2.9,2.6225,0.3958080922794991,-0.03829078976934017,0.8990177717956516,0.0021136675533715483,-0.15519,-28.3249
11.185,2.0,1.0,1.0,34.2,34.7,34.7,2.8,2.9,2.625,0.385905863234823,-0.0391978884542565,0.902892511397799,0.00171624668793987,-0.158607,-28.126429
11.185,2.0,1.0,1.0,34.2,34.7,34.7,2.8,2.9,2.6275,0.3758668700428612,-0.0401325476193798,0.9066832457428867,0.0012949046535848637,-0.162157,-27.925546
11.185,2.0,1.0,1.0,34.2,34.7,34.7,2.8,2.9,2.63,0.36568886540315243,-0.04109592085429784,0.9103865059841728,0.0008481531440482215,-0.165849,-27.722176
11.185,2.0,1.0,1.0,34.2,34.7,34.7,2.8,2.9,2.6325,0.35536953515061137,-0.04208922413064092,0.9139986508190143,0.00037439082306727015,-0.169689,-27.516238
11.185,2.0,1.0,1.0,34.2,34.7,34.7,2.8,2.9,2.635,0.3449064947591018,-0.04311373976234396,0.9175158541537886,-0.00012810711830212832,-0.173689,-27.307648
11.185,2.0,1.0,1.0,34.2,34.7,34.7,2.8,2.9,2.6375,0.33429728561106586,-0.04417082062553578,0.9209340915521387,-0.0006612005492007728,-0.177856,-27.096318
11.185,2.0,1.0,1.0,34.2,34.7,34.7,2.8,2.9,2.64,0.32353937102176705,-0.045261894650036424,0.9242491253169287,-0.0012268972767610976,-0.182203,-26.882156
11.185,2.0,1.0,1.0,34.2,34.7,34.7,2.8,2.9,2.6425,0.31263013200802514,-0.04638846959315475,0.9274564880348456,-0.0018273673806265792,-0.186739,-26.665065
11.185,2.0,1.0,1.0,34.2,34.7,34.7,2.8,2.9,2.645,0.3015668627931781,-0.04755213810448682,0.9305514643877224,-0.002464959195039688,-0.191477,-26.444945
11.185,2.0,1.0,1.0,34.2,34.7,34.7,2.8,2.9,2.6475,0.29034676604292586,-0.04875458308747972,0.9335290710056954,-0.0031422171577440428,-0.196431,-26.221689
11.185,2.0,1.0,1.0,34.2,34.7,34.7,2.8,2.9,2.65,0.27896694783076353,-0.049997583359366514,0.9363840341035738,-0.0038619017780718466,-0.201615,-25.995185
11.185,2.0,1.0,1.0,34.2,34.7,34.7,2.8,2.9,2.6525,0.2674244123374476,-0.05128301960530805,0.939110764602324,-0.004627012015302421,-0.207044,-25.765317
11.185,2.0,1.0,1.0,34.2,34.7,34.7,2.8,2.9,2.655,0.25571605629661914,-0.052612880614733445,0.9417033303914268,-0.005440810403729944,-0.212737,-25.531961
11.185,2.0,1.0,1.0,34.2,34.7,34.7,2.8,2.9,2.6575,0.24383866320925754,-0.05398926977729485,0.9441554253336314,-0.006306851314102566,-0.218712,-25.294987
11.185,2.0,1.0,1.0,34.2,34.7,34.7,2.8,2.9,2.66,0.23178889736357802,-0.05541441180176245,0.9464603345499185,-0.0072290128037087896,-0.22499,-25.054258
11.185,2.0,1.0,1.0,34.2,34.7,34.7,2.8,2.9,2.6625,0.21956329771560312,-0.056890659602500865,0.9486108954473351,-0.008211532581194924,-0.231593,-24.809631
11.185,2.0,1.0,1.0,34.2,34.7,34.7,2.8,2.9,2.665,0.20715827171012186,-0.05842050127354011,0.9505994538636582,-0.009259048699397641,-0.238547,-24.560952
11.185,2.0,1.0,1.0,34.2,34.7,34.7,2.8,2.9,2.6675,0.1945700891541047,-0.06000656703786877,0.9524178145977501,-0.010376645692713996,-0.245879,-24.308061
11.185,2.0,1.0,1.0,34.2,34.7,34.7,2.8,2.9,2.67,0.1817948762969858,-0.0616516360171302,0.9540571854699104,-0.011569906998032287,-0.253619,-24.050788
11.185,2.0,1.0,1.0,34.2,34.7,34.7,2.8,2.9,2.6725,0.16882861032780355,-0.06335864261131129,0.9555081139082728,-0.012844974643905539,-0.261802,-23.788953
11.185,2.0,1.0,1.0,34.2,34.7,34.7,2.8,2.9,2.675,0.15566711457199484,-0.06513068220527712,0.9567604148808277,-0.014208617366204624,-0.270465,-23.522366
11.185,2.0,1.0,1.0,34.2,34.7,34.7,2.8,2.9,2.6775,0.142306054765924,-0.06697101582384501,0.9578030887818297,-0.015668308515713745,-0.279649,-23.250826
11.185,2.0,1.0,1.0,34.2,34.7,34.7,2.8,2.9,2.68,0.12874093691209332,-0.06888307323251844,0.9586242276292419,-0.017232315371015248,-0.289401,-22.974118
11.185,2.0,1.0,1.0,34.2,34.7,34.7,2.8,2.9,2.6825,0.11496710738175552,-0.0708704538177753,0.9592109076276979,-0.018909801767078793,-0.299773,-22.692014
11.185,2.0,1.0,1.0,34.2,34.7,34.7,2.8,2.9,2.685,0.10097975614660258,-0.07293692436664266,0.95954906578879,-0.020710946306550394,-0.310824,-22.404275
11.185,2.0,1.0,1.0,34.2,34.7,34.7,2.8,2.9,2.6875,0.0867739243039967,-0.075086412583775,0.959623357864461,-0.0226470788493373,-0.322617,-22.110642
11.185,2.0,1.0,1.0,34.2,34.7,34.7,2.8,2.9,2.69,0.07234451743298541,-0.07732299481344092,0.9594169943246552,-0.024730838491798964,-0.335228,-21.810843
11.185,2.0,1.0,1.0,34.2,34.7,34.7,2.8,2.9,2.6925,0.05768632681064997,-0.07965087594420354,0.958911550478519,-0.026976356867803655,-0.34874,-21.504586
11.185,2.0,1.0,1.0,34.2,34.7,34.7,2.8,2.9,2.695,0.04279406117080235,-0.08207435882580143,0.9580867460775105,-0.02939947135159543,-0.363248,-21.191562
11.185,2.0,1.0,1.0,34.2,34.7,34.7,2.8,2.9,2.6975,0.027662392553584794,-0.0845977996669121,0.9569201888228038,-0.032017973642180696,-0.378858,-20.871438
11.185,2.0,1.0,1.0,34.2,34.7,34.7,2.8,2.9,2.7,0.012286020949711837,-0.08722554473569195,0.9553870750985527,-0.03485190028985999,-0.395695,-20.543862
11.185,2.0,1.0,1.0,34.2,34.7,34.7,2.8,2.9,2.7025,-0.003340236012305184,-0.08996184215216595,0.9534598399334687,-0.0379238730202368,-0.413899,-20.208454
11.185,2.0,1.0,1.0,34.2,34.7,34.7,2.8,2.9,2.705,-0.019221320014641198,-0.09281072050540229,0.9511077466200387,-0.04125949825414464,-0.433632,-19.864813
11.185,2.0,1.0,1.0,34.2,34.7,34.7,2.8,2.9,2.7075,-0.035361764521142064,-0.09577582326025798,0.9482964045585053,-0.04488783704714849,-0.455083,-19.512504
11.185,2.0,1.0,1.0,34.2,34.7,34.7,2.8,2.9,2.71,-0.05176546788315037,-0.09886018417779496,0.944987201713487,-0.048841958806092926,-0.478469,-19.151067
11.185,2.0,1.0,1.0,34.2,34.7,34.7,2.8,2.9,2.7125,-0.06843538707098352,-0.10206592389971672,0.941136635564951,-0.05315959459051182,-0.504043,-18.780007
11.185,2.0,1.0,1.0,34.2,34.7,34.7,2.8,2.9,2.715,-0.08537312504671404,-0.10539384094002259,0.9366955236317099,-0.057883908542204265,-0.532103,-18.398795
11.185,2.0,1.0,1.0,34.2,34.7,34.7,2.8,2.9,2.7175,-0.10257837526154392,-0.10884286089132485,0.931608071649102,-0.06306440890014126,-0.562998,-18.006868
11.185,2.0,1.0,1.0,34.2,34.7,34.7,2.8,2.9,2.72,-0.1200481736923257,-0.11240929472250986,0.9258107745367373,-0.06875802290513093,-0.597141,-17.603623
11.185,2.0,1.0,1.0,34.2,34.7,34.7,2.8,2.9,2.7225,-0.137775890867961,-0.11608583927752712,0.919231122886219,-0.07503036218908225,-0.635023,-17.188421
11.185,2.0,1.0,1.0,34.2,34.7,34.7,2.8,2.9,2.725,-0.15574987159759196,-0.11986022862860593,0.9117860867533429,-0.08195720605909,-0.677232,-16.760582
11.185,2.0,1.0,1.0,34.2,34.7,34.7,2.8,2.9,2.7275,-0.1739515960217977,-0.12371341125111518,0.9033803507155843,-0.08962622777268939,-0.724473,-16.319388
11.185,2.0,1.0,1.0,34.2,34.7,34.7,2.8,2.9,2.73,-0.1923531886805339,-0.12761708164098998,0.8939042823817556,-0.0981389805476334,-0.777602,-15.864089
11.185,2.0,1.0,1.0,34.2,34.7,34.7,2.8,2.9,2.7325,-0.21091403793403485,-0.13153033147168394,0.8832316358876361,-0.10761314062398014,-0.837657,-15.393905
11.185,2.0,1.0,1.0,34.2,34.7,34.7,2.8,2.9,2.735,-0.22957620048787902,-0.1353950989955602,0.8712170310529114,-0.11818496559833674,-0.905914,-14.908039
11.185,2.0,1.0,1.0,34.2,34.7,34.7,2.8,2.9,2.7375,-0.24825814823216286,-0.13912997955017256,0.8576933224817342,-0.13001185294816942,-0.983946,-14.405694
11.185,2.0,1.0,1.0,34.2,34.7,34.7,2.8,2.9,2.74,-0.2668462606572926,-0.14262180846943487,0.8424691054897305,-0.14327475188512506,-1.073706,-13.886099
11.185,2.0,1.0,1.0,34.2,34.7,34.7,2.8,2.9,2.7425,-0.28518327297597185,-0.14571423785931564,0.8253268377437077,-0.15817995146625807,-1.177636,-13.348551
11.185,2.0,1.0,1.0,34.2,34.7,34.7,2.8,2.9,2.745,-0.3030526667765416,-0.14819230978249873,0.8060224520959556,-0.1749593748586794,-1.298812,-12.792476
11.185,2.0,1.0,1.0,34.2,34.7,34.7,2.8,2.9,2.7475,-0.3201577752633092,-0.14976181912412748,0.7842879990206612,-0.19386785341344095,-1.441123,-12.217522
11.185,2.0,1.0,1.0,34.2,34.7,34.7,2.8,2.9,2.75,-0.336094274371343,-0.150022164702402,0.75983993639755,-0.215174786894759,-1.60952,-11.623684
11.185,2.0,1.0,1.0,34.2,34.7,34.7,2.8,2.9,2.7525,-0.35031498869195343,-0.14843164951947263,0.7323973790082895,-0.2391459223710277,-1.810312,-11.011502
11.185,2.0,1.0,1.0,34.2,34.7,34.7,2.8,2.9,2.755,-0.36208707025432635,-0.1442653184236137,0.7017171335521394,-0.26600850504162477,-2.051538,-10.382325
11.185,2.0,1.0,1.0,34.2,34.7,34.7,2.8,2.9,2.7575,-0.3704445938671793,-0.13656838768803053,0.6676557143908746,-0.29588973736753066,-2.343364,-9.738687
11.185,2.0,1.0,1.0,34.2,34.7,34.7,2.8,2.9,2.76,-0.3741461449497395,-0.12411479378831011,0.6302721585067297,-0.32871493097722876,-2.698411,-9.084808
11.185,2.0,1.0,1.0,34.2,34.7,34.7,2.8,2.9,2.7625,-0.3716594437710307,-0.10539271908253997,0.5899870270791319,-0.3640502410333558,-3.131713,-8.42724
11.185,2.0,1.0,1.0,34.2,34.7,34.7,2.8,2.9,2.765,-0.36121544060339966,-0.07865907748872739,0.5478065783682026,-0.4008812924750637,-3.659576,-7.775617
11.185,2.0,1.0,1.0,34.2,34.7,34.7,2.8,2.9,2.7675,-0.3410001024569574,-0.04213031441058176,0.5055951458467828,-0.43734477242850217,-4.29565,-7.143405
11.185,2.0,1.0,1.0,34.2,34.7,34.7,2.8,2.9,2.77,-0.30956676201085914,0.0056089158928055135,0.46631787988287343,-0.47049029798358194,-5.040619,-6.548369
11.185,2.0,1.0,1.0,34.2,34.7,34.7,2.8,2.9,2.7725,-0.2665127178144979,0.06493679784082226,0.4340773243234074,-0.4962472375883487,-5.859427,-6.012302
11.185,2.0,1.0,1.0,34.2,34.7,34.7,2.8,2.9,2.775,-0.21330954216383188,0.1343755536178591,0.4136818699854035,-0.5098549215253241,-6.642741,-5.559414
11.185,2.0,1.0,1.0,34.2,34.7,34.7,2.8,2.9,2.7775,-0.1539032058362617,0.2100030886618486,0.40955577476722316,-0.506942652344477,-7.180079,-5.213006
11.185,2.0,1.0,1.0,34.2,34.7,34.7,2.8,2.9,2.78,-0.09450199643444165,0.285669541737559,0.4241822531085384,-0.4850676538983205,-7.238572,-4.990809
11.185,2.0,1.0,1.0,34.2,34.7,34.7,2.8,2.9,2.7825,-0.04222218204298039,0.3543416843419652,0.4568285709113552,-0.4449692017158409,-6.767994,-4.900511
11.185,2.0,1.0,1.0,34.2,34.7,34.7,2.8,2.9,2.785,-0.0030479145426616995,0.4101199809141034,0.5034505471851791,-0.39065386750283326,-5.960704,-4.937537
11.185,2.0,1.0,1.0,34.2,34.7,34.7,2.8,2.9,2.7875,0.019784948222226546,0.4498304757303746,0.5579815902698072,-0.3281139837365846,-5.062146,-5.086296
11.185,2.0,1.0,1.0,34.2,34.7,34.7,2.8,2.9,2.79,0.026141210419859413,0.47336467118772485,0.61422763320081,-0.2634527284224168,-4.225554,-5.324193
11.185,2.0,1.0,1.0,34.2,34.7,34.7,2.8,2.9,2.7925,0.018179935739063697,0.48287584425433194,0.6673215731137802,-0.20144978191794,-3.510075,-5.626441
11.185,2.0,1.0,1.0,34.2,34.7,34.7,2.8,2.9,2.795,-0.0008736069295675322,0.4815625989094526,0.7142606389508884,-0.14503542637282552,-2.922859,-5.969862
11.185,2.0,1.0,1.0,34.2,34.7,34.7,2.8,2.9,2.7975,-0.027731403317331704,0.4726777019967653,0.7537120920813711,-0.095486933306137,-2.450015,-6.334987
11.185,2.0,1.0,1.0,34.2,34.7,34.7,2.8,2.9,2.8,-0.05959415616454042,0.4589851376146364,0.7855087239925392,-0.05292956603393314,-2.072054,-6.706654
11.185,2.0,1.0,1.0,34.2,34.7,34.7,2.8,2.9,2.8025,-0.09432625731300545,0.44258933417401436,0.8101473633794201,-0.016832885203367447,-1.770241,-7.073704
11.185,2.0,1.0,1.0,34.2,34.7,34.7,2.8,2.9,2.805,-0.13041704479773225,0.42497506058599394,0.8284198620653832,0.013624914998190584,-1.528667,-7.428269
11.185,2.0,1.0,1.0,34.2,34.7,34.7,2.8,2.9,2.8075,-0.16685867785132033,0.40712909341579356,0.8411867761125761,0.03933416215743363,-1.334545,-7.765007
11.185,2.0,1.0,1.0,34.2,34.7,34.7,2.8,2.9,2.81,-0.20301356481510235,0.3896717047729382,0.8492584789554045,0.06113717136181819,-1.177861,-8.080412
11.185,2.0,1.0,1.0,34.2,34.7,34.7,2.8,2.9,2.8125,-0.238501654921201,0.372968178658516,0.853343966927455,0.0797786083194496,-1.050867,-8.372269
11.185,2.0,1.0,1.0,34.2,34.7,34.7,2.8,2.9,2.815,-0.27311483253896873,0.35721332792195504,0.8540372932935156,0.09589300895304374,-0.947594,-8.63924
11.185,2.0,1.0,1.0,34.2,34.7,34.7,2.8,2.9,2.8175,-0.3067558784579786,0.3424915948931643,0.8518225122147488,0.1100105824540297,-0.863447,-8.880563
11.185,2.0,1.0,1.0,34.2,34.7,34.7,2.8,2.9,2.82,-0.33939661125143883,0.328818097432118,0.8470862235977225,0.12257055746585291,-0.794879,-9.095836
11.185,2.0,1.0,1.0,34.2,34.7,34.7,2.8,2.9,2.8225,-0.37104990798645304,0.31616586893375714,0.8401320227874305,0.13393648895593827,-0.73915,-9.284868
11.185,2.0,1.0,1.0,34.2,34.7,34.7,2.8,2.9,2.825,-0.4017513302854434,0.3044835062968031,0.8311941623819342,0.14441091360529432,-0.694137,-9.447566
11.185,2.0,1.0,1.0,34.2,34.7,34.7,2.8,2.9,2.8275,-0.4315472049290922,0.29370631418407334,0.8204493420684777,0.15424833407664718,-0.658198,-9.583865
11.185,2.0,1.0,1.0,34.2,34.7,34.7,2.8,2.9,2.83,-0.4604869423949333,0.28376309571984004,0.8080263438434296,0.16366630987796701,-0.630066,-9.693673
