1,w,sub_t,h,l1,l2,l3,g1,g2,Freq,S11_re,S21_re,S11_img,S21_img,S11_dB,S21_dB
11.185,2.0,1.0,1.0,33.5,33.0,33.0,4.3,3.2,2.5,0.850223144425622,-0.00490814592911005,0.515610827567021,0.00322683428558847,-0.049206,-44.621512
11.185,2.0,1.0,1.0,33.5,33.0,33.0,4.3,3.2,2.5025,0.846807000816688,-0.004997079122808277,0.5211134787195945,0.0032299774672428375,-0.049612,-44.509531
11.185,2.0,1.0,1.0,33.5,33.0,33.0,4.3,3.2,2.505,0.8433412357749848,-0.005087309722345559,0.526614602112791,0.003232433935885873,-0.050025,-44.397424
11.185,2.0,1.0,1.0,33.5,33.0,33.0,4.3,3.2,2.5075,0.8398253983160303,-0.0051788568000502655,0.5321139614066129,0.003234182119019362,-0.050444,-44.285184
11.185,2.0,1.0,1.0,33.5,33.0,33.0,4.3,3.2,2.51,0.8362590310448552,-0.005271739746092366,0.5376113135995656,0.003235199805547518,-0.05087,-44.172805
11.185,2.0,1.0,1.0,33.5,33.0,33.0,4.3,3.2,2.5125,0.8326416700791635,-0.005365978273466671,0.5431064088279597,0.0032354641249934557,-0.051302,-44.060281
11.185,2.0,1.0,1.0,33.5,33.0,33.0,4.3,3.2,2.515,0.8289728449725781,-0.005461592423005706,0.5485989901593339,0.003234951525975933,-0.051741,-43.947607
11.185,2.0,1.0,1.0,33.5,33.0,33.0,4.3,3.2,2.5175,0.825252078638052,-0.005558602568418637,0.5540887933798097,0.0032336377539168497,-0.052187,-43.834775
11.185,2.0,1.0,1.0,33.5,33.0,33.0,4.3,3.2,2.52,0.8214788872715011,-0.005657029421352808,0.5595755467752124,0.0032314978279491496,-0.05264,-43.72178
11.185,2.0,1.0,1.0,33.5,33.0,33.0,4.3,3.2,2.5225,0.8176527802757587,-0.005756894036473357,0.5650589709057554,0.003228506016994592,-0.0531,-43.608615
11.185,2.0,1.0,1.0,33.5,33.0,33.0,4.3,3.2,2.525,0.8137732601849144,-0.00585821781655673,0.5705387783741106,0.003224635814977131,-0.053567,-43.495274
11.185,2.0,1.0,1.0,33.5,33.0,33.0,4.3,3.2,2.5275,0.8098398225891325,-0.005961022517593276,0.5760146735866637,0.0032198599151387727,-0.054042,-43.381751
11.185,2.0,1.0,1.0,33.5,33.0,33.0,4.3,3.2,2.53,0.8058519560600506,-0.006065330253893521,0.5814863525077498,0.0032141501834209952,-0.054524,-43.26804
11.185,2.0,1.0,1.0,33.5,33.0,33.0,4.3,3.2,2.5325,0.8018091420768453,-0.006171163503192669,0.5869535024066602,0.0032074776308749563,-0.055015,-43.154134
11.185,2.0,1.0,1.0,33.5,33.0,33.0,4.3,3.2,2.535,0.797710854953077,-0.006278545111747068,0.5924158015972145,0.003199812385061364,-0.055513,-43.040027
11.185,2.0,1.0,1.0,33.5,33.0,33.0,4.3,3.2,2.5375,0.7935565617644275,-0.006387498299416074,0.5978729191696617,0.003191123660398388,-0.056019,-42.925712
11.185,2.0,1.0,1.0,33.5,33.0,33.0,4.3,3.2,2.54,0.789345722277442,-0.006498046664722308,0.6033245147146982,0.0031813797274157954,-0.056533,-42.811183
11.185,2.0,1.0,1.0,33.5,33.0,33.0,4.3,3.2,2.5425,0.7850777888794063,-0.006610214189882759,0.6087702380393626,0.003170547880869734,-0.057056,-42.696433
11.185,2.0,1.0,1.0,33.5,33.0,33.0,4.3,3.2,2.545,0.780752206509486,-0.0067240252458019715,0.6142097288745678,0.0031585944066723284,-0.057587,-42.581456
11.185,2.0,1.0,1.0,33.5,33.0,33.0,4.3,3.2,2.5475,0.7763684125912798,-0.006839504597019092,0.6196426165740186,0.003145484547586551,-0.058127,-42.466246
11.185,2.0,1.0,1.0,33.5,33.0,33.0,4.3,3.2,2.55,0.7719258369669151,-0.006956677406599125,0.6250685198042738,0.003131182467635196,-0.058676,-42.350795
11.185,2.0,1.0,1.0,33.5,33.0,33.0,4.3,3.2,2.5525,0.767423901832869,-0.007075569240957858,0.6304870462256711,0.0031156512151707893,-0.059234,-42.235098
11.185,2.0,1.0,1.0,33.5,33.0,33.0,4.3,3.2,2.555,0.7628620216776582,-0.007196206074609496,0.6358977921638661,0.003098852684550689,-0.059802,-42.119146
11.185,2.0,1.0,1.0,33.5,33.0,33.0,4.3,3.2,2.5575,0.7582396032215829,-0.0073186142948260275,0.6413003422716979,0.0030807475763576842,-0.060379,-42.002934
11.185,2.0,1.0,1.0,33.5,33.0,33.0,4.3,3.2,2.56,0.7535560453587121,-0.00744282070619448,0.6466942691810988,0.0030612953561058647,-0.060966,-41.886455
11.185,2.0,1.0,1.0,33.5,33.0,33.0,4.3,3.2,2.5625,0.7488107391013036,-0.007568852535059374,0.6520791331447559,0.0030404542113664796,-0.061562,-41.769701
11.185,2.0,1.0,1.0,33.5,33.0,33.0,4.3,3.2,2.565,0.7440030675268585,-0.007696737433835881,0.6574544816672291,0.0030181810072469058,-0.062169,-41.652667
11.185,2.0,1.0,1.0,33.5,33.0,33.0,4.3,3.2,2.5675,0.7391324057280461,-0.007826503485177421,0.6628198491252091,0.002994431240151902,-0.062787,-41.535344
11.185,2.0,1.0,1.0,33.5,33.0,33.0,4.3,3.2,2.57,0.7341981207657088,-0.007958179205981996,0.6681747563766031,0.002969158989752873,-0.063414,-41.417726
11.185,2.0,1.0,1.0,33.5,33.0,33.0,4.3,3.2,2.5725,0.7291995716252037,-0.008091793551218689,0.6735187103581235,0.002942316869087625,-0.064053,-41.299805
11.185,2.0,1.0,1.0,33.5,33.0,33.0,4.3,3.2,2.575,0.724136109176331,-0.008227375917555837,0.6788512036710459,0.002913855972708991,-0.064703,-41.181575
11.185,2.0,1.0,1.0,33.5,33.0,33.0,4.3,3.2,2.5775,0.7190070761371199,-0.008364956146770106,0.6841717141547848,0.002883725822796573,-0.065364,-41.063028
11.185,2.0,1.0,1.0,33.5,33.0,33.0,4.3,3.2,2.58,0.7138118070417607,-0.008504564528914947,0.6894797044479422,0.0028518743131416605,-0.066036,-40.944156
11.185,2.0,1.0,1.0,33.5,33.0,33.0,4.3,3.2,2.5825,0.7085496282129754,-0.008646231805224629,0.6947746215364675,0.002818247650911739,-0.066721,-40.824953
11.185,2.0,1.0,1.0,33.5,33.0,33.0,4.3,3.2,2.585,0.703219857739149,-0.008789989170729621,0.7000558962885476,0.0027827902960940423,-0.067417,-40.705411
11.185,2.0,1.0,1.0,33.5,33.0,33.0,4.3,3.2,2.5875,0.697821805456549,-0.008935868276556076,0.7053229429758581,0.002745444898515385,-0.068126,-40.585521
11.185,2.0,1.0,1.0,33.5,33.0,33.0,4.3,3.2,2.59,0.692354772936989,-0.009083901231881086,0.7105751587807713,0.002706152232327195,-0.068848,-40.465277
11.185,2.0,1.0,1.0,33.5,33.0,33.0,4.3,3.2,2.5925,0.6868180534812962,-0.009234120605513428,0.7158119232891305,0.0026648511278421047,-0.069582,-40.344671
11.185,2.0,1.0,1.0,33.5,33.0,33.0,4.3,3.2,2.595,0.6812109321189853,-0.009386559427066796,0.7210325979681643,0.00262147840059947,-0.07033,-40.223694
11.185,2.0,1.0,1.0,33.5,33.0,33.0,4.3,3.2,2.5975,0.6755326856145291,-0.009541251187691089,0.7262365256291333,0.0025759687775331673,-0.071091,-40.10234
11.185,2.0,1.0,1.0,33.5,33.0,33.0,4.3,3.2,2.6,0.6697825824806661,-0.009698229840324589,0.731423029874265,0.002528254820106464,-0.071866,-39.980599
11.185,2.0,1.0,1.0,33.5,33.0,33.0,4.3,3.2,2.6025,0.6639598829991996,-0.009857529799426721,0.7365914145275312,0.002478266844273195,-0.072655,-39.858463
11.185,2.0,1.0,1.0,33.5,33.0,33.0,4.3,3.2,2.605,0.6580638392497503,-0.010019185940149528,0.741740963048819,0.0024259328371155344,-0.073459,-39.735924
11.185,2.0,1.0,1.0,33.5,33.0,33.0,4.3,3.2,2.6075,0.6520936951469734,-0.010183233596902243,0.7468709379310225,0.0023711783700009485,-0.074278,-39.612975
11.185,2.0,1.0,1.0,33.5,33.0,33.0,4.3,3.2,2.61,0.6460486864867637,-0.010349708561259895,0.7519805800795745,0.002313926508093114,-0.075111,-39.489605
11.185,2.0,1.0,1.0,33.5,33.0,33.0,4.3,3.2,2.6125,0.6399280410019943,-0.010518647079164738,0.7570691081739281,0.0022540977160412285,-0.07596,-39.365807
11.185,2.0,1.0,1.0,33.5,33.0,33.0,4.3,3.2,2.615,0.6337309784283688,-0.010690085847364944,0.7621357180104921,0.002191609759662569,-0.076826,-39.241572
11.185,2.0,1.0,1.0,33.5,33.0,33.0,4.3,3.2,2.6175,0.627456710581005,-0.01086406200903022,0.7671795818264906,0.002126377603424248,-0.077707,-39.116891
11.185,2.0,1.0,1.0,33.5,33.0,33.0,4.3,3.2,2.62,0.6211044414423809,-0.011040613148482328,0.7721998476042298,0.0020583133035166953,-0.078605,-38.991754
11.185,2.0,1.0,1.0,33.5,33.0,33.0,4.3,3.2,2.6225,0.6146733672623123,-0.011219777284971661,0.7771956383552299,0.001987325896301325,-0.07952,-38.866154
11.185,2.0,1.0,1.0,33.5,33.0,33.0,4.3,3.2,2.625,0.608162676670681,-0.0114015928654271,0.782166051383659,0.00191332128190218,-0.080453,-38.740079
11.185,2.0,1.0,1.0,33.5,33.0,33.0,4.3,3.2,2.6275,0.6015715508036373,-0.011586098756102359,0.7871101575285159,0.0018362021026964133,-0.081403,-38.613521
11.185,2.0,1.0,1.0,33.5,33.0,33.0,4.3,3.2,2.63,0.5948991634440639,-0.01177333423303467,0.792027000383971,0.0017558676164462332,-0.082372,-38.486471
11.185,2.0,1.0,1.0,33.5,33.0,33.0,4.3,3.2,2.6325,0.5881446811771134,-0.011963338971227063,0.7969155954972779,0.0016722135637981422,-0.08336,-38.358918
11.185,2.0,1.0,1.0,33.5,33.0,33.0,4.3,3.2,2.635,0.5813072635616738,-0.012156153032459123,0.8017749295436414,0.0015851320298587682,-0.084367,-38.230852
11.185,2.0,1.0,1.0,33.5,33.0,33.0,4.3,3.2,2.6375,0.5743860633186701,-0.012351816851623416,0.8066039594774241,0.001494511299540495,-0.085394,-38.102264
11.185,2.0,1.0,1.0,33.5,33.0,33.0,4.3,3.2,2.64,0.5673802265371227,-0.012550371221478741,0.8114016116590582,0.0014002357063495608,-0.086441,-37.973143
11.185,2.0,1.0,1.0,33.5,33.0,33.0,4.3,3.2,2.6425,0.5602888928989711,-0.012751857275702161,0.8161667809570021,0.0013021854742702353,-0.087509,-37.843478
11.185,2.0,1.0,1.0,33.5,33.0,33.0,4.3,3.2,2.645,0.5531111959236892,-0.012956316470114313,0.8208983298240852,0.0012002365523768553,-0.088599,-37.713258
11.185,2.0,1.0,1.0,33.5,33.0,33.0,4.3,3.2,2.6475,0.5458462632337796,-0.013163790561942567,0.8255950873475499,0.001094260441781821,-0.08971,-37.582474
11.185,2.0,1.0,1.0,33.5,33.0,33.0,4.3,3.2,2.65,0.5384932168422775,-0.013374321586977687,0.8302558482721072,0.0009841240145030494,-0.090844,-37.451113
11.185,2.0,1.0,1.0,33.5,33.0,33.0,4.3,3.2,2.6525,0.5310511734634811,-0.013587951834466906,0.8348793719952698,0.0008696893238087117,-0.092,-37.319165
11.185,2.0,1.0,1.0,33.5,33.0,33.0,4.3,3.2,2.655,0.5235192448481281,-0.013804723819577615,0.8394643815342557,0.0007508134055653976,-0.093181,-37.186618
11.185,2.0,1.0,1.0,33.5,33.0,33.0,4.3,3.2,2.6575,0.5158965381443547,-0.014024680253250904,0.8440095624636977,0.0006273480700884236,-0.094386,-37.053459
11.185,2.0,1.0,1.0,33.5,33.0,33.0,4.3,3.2,2.66,0.5081821562857938,-0.014247864009251474,0.8485135618234025,0.0004991396839569616,-0.095615,-36.919678
11.185,2.0,1.0,1.0,33.5,33.0,33.0,4.3,3.2,2.6625,0.5003751984082675,-0.014474318088206147,0.8529749869953637,0.0003660289412217889,-0.09687,-36.785261
11.185,2.0,1.0,1.0,33.5,33.0,33.0,4.3,3.2,2.665,0.49247476029656073,-0.014704085578406521,0.857392404549241,0.00022785062339466847,-0.098152,-36.650197
11.185,2.0,1.0,1.0,33.5,33.0,33.0,4.3,3.2,2.6675,0.4844799348628796,-0.014937209613133929,0.861764339055462,8.443334756633641e-05,-0.099461,-36.514472
11.185,2.0,1.0,1.0,33.5,33.0,33.0,4.3,3.2,2.67,0.47638981265863306,-0.01517373332424658,0.8660892718651153,-6.44006980455005e-05,-0.100797,-36.378073
11.185,2.0,1.0,1.0,33.5,33.0,33.0,4.3,3.2,2.6725,0.4682034824212687,-0.015413699791747969,0.8703656398557608,-0.00021883603186452965,-0.102162,-36.240987
11.185,2.0,1.0,1.0,33.5,33.0,33.0,4.3,3.2,2.675,0.45992003165799245,-0.015657151989032267,0.8745918341422622,-0.0003790641708420209,-0.103556,-36.1032
11.185,2.0,1.0,1.0,33.5,33.0,33.0,4.3,3.2,2.6775,0.4515385472682602,-0.01590413272347945,0.8787661987517287,-0.0005452839373161566,-0.104981,-35.964698
11.185,2.0,1.0,1.0,33.5,33.0,33.0,4.3,3.2,2.68,0.44305811620703534,-0.016154684572045462,0.8828870292616201,-0.0007177017817659536,-0.106436,-35.825467
11.185,2.0,1.0,1.0,33.5,33.0,33.0,4.3,3.2,2.6825,0.4344778261909014,-0.016408849811462976,0.8869525714000338,-0.0008965321224452605,-0.107924,-35.685492
11.185,2.0,1.0,1.0,33.5,33.0,33.0,4.3,3.2,2.685,0.42579676644920683,-0.01666667034263762,0.8909610196071795,-0.0010819977029564401,-0.109444,-35.544758
11.185,2.0,1.0,1.0,33.5,33.0,33.0,4.3,3.2,2.6875,0.4170140285225293,-0.016928187608788434,0.894910515556992,-0.001274329968903917,-0.110998,-35.403249
11.185,2.0,1.0,1.0,33.5,33.0,33.0,4.3,3.2,2.69,0.4081287071108652,-0.01719344250684334,0.8987991466378076,-0.001473769464851931,-0.112587,-35.260951
11.185,2.0,1.0,1.0,33.5,33.0,33.0,4.3,3.2,2.6925,0.39913990097403096,-0.01746247529155863,0.9026249443909892,-0.001680566252905973,-0.114212,-35.117845
11.185,2.0,1.0,1.0,33.5,33.0,33.0,4.3,3.2,2.695,0.3900467138869354,-0.017735325471783785,0.9063858829063286,-0.0018949803543390259,-0.115874,-34.973917
11.185,2.0,1.0,1.0,33.5,33.0,33.0,4.3,3.2,2.6975,0.3808482556524415,-0.018012031698244252,0.9100798771730245,-0.0021172822157963793,-0.117574,-34.829148
11.185,2.0,1.0,1.0,33.5,33.0,33.0,4.3,3.2,2.7,0.3715436431747379,-0.018292631642155496,0.9137047813849581,-0.0023477532017309624,-0.119313,-34.683521
11.185,2.0,1.0,1.0,33.5,33.0,33.0,4.3,3.2,2.7025,0.3621320015962159,-0.018577161863922494,0.9172583871989493,-0.002586686114858758,-0.121093,-34.537018
11.185,2.0,1.0,1.0,33.5,33.0,33.0,4.3,3.2,2.705,0.3526124655010474,-0.018865657671108253,0.9207384219445865,-0.0028343857465632826,-0.122914,-34.389621
11.185,2.0,1.0,1.0,33.5,33.0,33.0,4.3,3.2,2.7075,0.3429841801887712,-0.01915815296477988,0.92414254678417,-0.003091169459340731,-0.124778,-34.24131
11.185,2.0,1.0,1.0,33.5,33.0,33.0,4.3,3.2,2.71,0.33324630302139735,-0.019454680073256313,0.9274683548212033,-0.0033573678035480597,-0.126687,-34.092066
11.185,2.0,1.0,1.0,33.5,33.0,33.0,4.3,3.2,2.7125,0.3233980048476784,-0.019755269572189104,0.9307133691557911,-0.0036333251709085856,-0.128641,-33.941869
11.185,2.0,1.0,1.0,33.5,33.0,33.0,4.3,3.2,2.715,0.3134384715084062,-0.02005995008980329,0.9338750408851796,-0.0039194004874347,-0.130643,-33.790697
11.185,2.0,1.0,1.0,33.5,33.0,33.0,4.3,3.2,2.7175,0.3033669054267744,-0.020368748096010653,0.9369507470475668,-0.004215967948659562,-0.132694,-33.63853
11.185,2.0,1.0,1.0,33.5,33.0,33.0,4.3,3.2,2.72,0.2931825272880732,-0.020681687673979054,0.9399377885071639,-0.004523417800316787,-0.134795,-33.485344
11.185,2.0,1.0,1.0,33.5,33.0,33.0,4.3,3.2,2.7225,0.282884577813172,-0.020998790272599082,0.9428333877783535,-0.004842157167887255,-0.136948,-33.331118
11.185,2.0,1.0,1.0,33.5,33.0,33.0,4.3,3.2,2.725,0.27247231963054247,-0.021320074438127765,0.9456346867865875,-0.0051726109387306585,-0.139156,-33.175828
11.185,2.0,1.0,1.0,33.5,33.0,33.0,4.3,3.2,2.7275,0.26194503925175733,-0.02164555552311244,0.948338744563511,-0.005515222700859579,-0.141419,-33.019449
11.185,2.0,1.0,1.0,33.5,33.0,33.0,4.3,3.2,2.73,0.25130204915575927,-0.021975245370495732,0.9509425348735373,-0.005870455742777364,-0.14374,-32.861957
11.185,2.0,1.0,1.0,33.5,33.0,33.0,4.3,3.2,2.7325,0.24054268998741554,-0.022309151970579425,0.9534429437688803,-0.006238794119211858,-0.14612,-32.703325
11.185,2.0,1.0,1.0,33.5,33.0,33.0,4.3,3.2,2.735,0.22966633287626548,-0.022647279088271247,0.9558367670697392,-0.006620743788023218,-0.148563,-32.543526
11.185,2.0,1.0,1.0,33.5,33.0,33.0,4.3,3.2,2.7375,0.2186723818816765,-0.02298962585775663,0.9581207077660309,-0.007016833824064992,-0.15107,-32.382534
11.185,2.0,1.0,1.0,33.5,33.0,33.0,4.3,3.2,2.74,0.2075602765710328,-0.023336186341415464,0.9602913733366737,-0.0074276177163213365,-0.153643,-32.220318
11.185,2.0,1.0,1.0,33.5,33.0,33.0,4.3,3.2,2.7425,0.19632949473799494,-0.023686949049446092,0.9623452729820337,-0.007853674755259383,-0.156286,-32.05685
11.185,2.0,1.0,1.0,33.5,33.0,33.0,4.3,3.2,2.745,0.18497955526833582,-0.024041896416248244,0.9642788147646493,-0.00829561151800699,-0.159,-31.892099
11.185,2.0,1.0,1.0,33.5,33.0,33.0,4.3,3.2,2.7475,0.17351002116137745,-0.024401004229157842,0.9660883026528273,-0.008754063459715399,-0.161788,-31.726032
11.185,2.0,1.0,1.0,33.5,33.0,33.0,4.3,3.2,2.75,0.161920502715605,-0.0247642410046027,0.967769933461081,-0.00922969662030293,-0.164653,-31.558616
11.185,2.0,1.0,1.0,33.5,33.0,33.0,4.3,3.2,2.7525,0.1502106608876898,-0.02513156730615552,0.9693197936806941,-0.00972320945669959,-0.167599,-31.389817
11.185,2.0,1.0,1.0,33.5,33.0,33.0,4.3,3.2,2.755,0.1383802108348448,-0.02550293499828565,0.9707338561928925,-0.010235334811744969,-0.170628,-31.2196
11.185,2.0,1.0,1.0,33.5,33.0,33.0,4.3,3.2,2.7575,0.12642892565121172,-0.02587828642884396,0.9720079768562191,-0.010766842032043132,-0.173743,-31.047927
11.185,2.0,1.0,1.0,33.5,33.0,33.0,4.3,3.2,2.76,0.11435664030991244,-0.026257553532438666,0.9731378909586698,-0.01131853924835932,-0.176949,-30.874759
11.185,2.0,1.0,1.0,33.5,33.0,33.0,4.3,3.2,2.7625,0.10216325582333899,-0.026640656845860058,0.9741192095239948,-0.011891275833578605,-0.180249,-30.700056
11.185,2.0,1.0,1.0,33.5,33.0,33.0,4.3,3.2,2.765,0.08984874363544974,-0.02702750442556698,0.9749474154602377,-0.012485945054848683,-0.183647,-30.523777
11.185,2.0,1.0,1.0,33.5,33.0,33.0,4.3,3.2,2.7675,0.07741315026109277,-0.027417990655936086,0.9756178595370727,-0.01310348693832279,-0.187147,-30.345878
11.185,2.0,1.0,1.0,33.5,33.0,33.0,4.3,3.2,2.77,0.06485660218885411,-0.027811994935468508,0.9761257561767934,-0.013744891366929702,-0.190754,-30.166313
11.185,2.0,1.0,1.0,33.5,33.0,33.0,4.3,3.2,2.7725,0.05217931106561896,-0.028209380226416076,0.9764661790418294,-0.014411201433854636,-0.194472,-29.985035
11.185,2.0,1.0,1.0,33.5,33.0,33.0,4.3,3.2,2.775,0.03938157918296103,-0.028609991451292994,0.9766340563994607,-0.015103517076946479,-0.198307,-29.801994
11.185,2.0,1.0,1.0,33.5,33.0,33.0,4.3,3.2,2.7775,0.026463805287687683,-0.029013653717434668,0.9766241662418267,-0.015822999022116355,-0.202263,-29.61714
11.185,2.0,1.0,1.0,33.5,33.0,33.0,4.3,3.2,2.78,0.013426490741428992,-0.02942017034810361,0.976431131136461,-0.016570873067001897,-0.206347,-29.430417
11.185,2.0,1.0,1.0,33.5,33.0,33.0,4.3,3.2,2.7825,0.00027024605715850295,-0.029829320695550325,0.976049412779243,-0.017348434739779758,-0.210564,-29.24177
11.185,2.0,1.0,1.0,33.5,33.0,33.0,4.3,3.2,2.785,-0.013004202156102382,-0.030240857707862757,0.9754733062179145,-0.018157054372094285,-0.21492,-29.05114
11.185,2.0,1.0,1.0,33.5,33.0,33.0,4.3,3.2,2.7875,-0.02639600380503617,-0.030654505217262998,0.9746969337099728,-0.018998182629667158,-0.219424,-28.858464
11.185,2.0,1.0,1.0,33.5,33.0,33.0,4.3,3.2,2.79,-0.039904177440312716,-0.03106995491266176,0.9737142381738607,-0.01987335654936993,-0.224082,-28.663677
11.185,2.0,1.0,1.0,33.5,33.0,33.0,4.3,3.2,2.7925,-0.053527601855918296,-0.031486862953607336,0.9725189761867296,-0.020784206137430424,-0.228902,-28.466713
11.185,2.0,1.0,1.0,33.5,33.0,33.0,4.3,3.2,2.795,-0.0672650071077329,-0.03190484617613361,0.9711047104756424,-0.02173246159012902,-0.233892,-28.267499
11.185,2.0,1.0,1.0,33.5,33.0,33.0,4.3,3.2,2.7975,-0.08111496489192228,-0.03232347783323056,0.9694648018417407,-0.02271996120592157,-0.239062,-28.06596
11.185,2.0,1.0,1.0,33.5,33.0,33.0,4.3,3.2,2.8,-0.09507587821494987,-0.032742282803521164,0.9675924004484701,-0.02374866006653639,-0.244421,-27.862019
11.185,2.0,1.0,1.0,33.5,33.0,33.0,4.3,3.2,2.8025,-0.10914597027644886,-0.03316073219095382,0.9654804363953748,-0.024820639574383126,-0.24998,-27.655591
11.185,2.0,1.0,1.0,33.5,33.0,33.0,4.3,3.2,2.805,-0.1233232724738222,-0.03357823722560946,0.9631216094879302,-0.025938117944749615,-0.25575,-27.44659
11.185,2.0,1.0,1.0,33.5,33.0,33.0,4.3,3.2,2.8075,-0.13760561142271036,-0.03399414236067121,0.9605083781012677,-0.027103461763954395,-0.261743,-27.234924
11.185,2.0,1.0,1.0,33.5,33.0,33.0,4.3,3.2,2.81,-0.15199059486994293,-0.03440771744275588,0.9576329470211968,-0.02831919873909402,-0.267973,-27.020496
11.185,2.0,1.0,1.0,33.5,33.0,33.0,4.3,3.2,2.8125,-0.166475596354672,-0.0348181488115711,0.954487254129338,-0.0295880317815224,-0.274454,-26.803204
11.185,2.0,1.0,1.0,33.5,33.0,33.0,4.3,3.2,2.815,-0.18105773844842832,-0.03522452915955027,0.9510629557801821,-0.030912854585050747,-0.281202,-26.582941
11.185,2.0,1.0,1.0,33.5,33.0,33.0,4.3,3.2,2.8175,-0.19573387437486017,-0.035625845951843135,0.9473514106960885,-0.032296768881376774,-0.288232,-26.359592
11.185,2.0,1.0,1.0,33.5,33.0,33.0,4.3,3.2,2.82,-0.21050056777390155,-0.036020968170758345,0.9433436621812598,-0.033743103579840734,-0.295565,-26.133036
11.185,2.0,1.0,1.0,33.5,33.0,33.0,4.3,3.2,2.8225,-0.22535407033173754,-0.03640863110512435,0.9390304184270634,-0.035255436026701524,-0.30322,-25.903146
11.185,2.0,1.0,1.0,33.5,33.0,33.0,4.3,3.2,2.825,-0.24029029694546958,-0.0367874188524383,0.9344020306482652,-0.03683761565122478,-0.311219,-25.669788
11.185,2.0,1.0,1.0,33.5,33.0,33.0,4.3,3.2,2.8275,-0.25530479802784173,-0.037155744138062635,0.9294484687521614,-0.03849379030250756,-0.319586,-25.432816
