1,w,sub_t,h,l1,l2,l3,g1,g2,Freq,S11_re,S21_re,S11_img,S21_img,S11_dB,S21_dB
11.185,2.0,1.0,1.0,34.0,34.9,34.9,2.2,4.4,2.5,0.774237135940858,-0.0118016823238148,0.619492434136383,0.00675103544388348,-0.073519,-37.33166
11.185,2.0,1.0,1.0,34.0,34.9,34.9,2.2,4.4,2.5025,0.7694280457073446,-0.012056588415105294,0.6252814083226477,0.006767536597431389,-0.074481,-37.18601
11.185,2.0,1.0,1.0,34.0,34.9,34.9,2.2,4.4,2.505,0.7645474488647215,-0.01231761301423525,0.6310631191611266,0.006782432646450265,-0.075466,-37.039385
11.185,2.0,1.0,1.0,34.0,34.9,34.9,2.2,4.4,2.5075,0.7595944382754769,-0.012584943970254876,0.6368370726123571,0.006795633379624189,-0.076475,-36.891762
11.185,2.0,1.0,1.0,34.0,34.9,34.9,2.2,4.4,2.51,0.7545680868895434,-0.012858776800319037,0.642602757377861,0.0068070438059067715,-0.077509,-36.74312
11.185,2.0,1.0,1.0,34.0,34.9,34.9,2.2,4.4,2.5125,0.7494674471155522,-0.013139315091814409,0.648359644195046,0.0068165638600321925,-0.078568,-36.593435
11.185,2.0,1.0,1.0,34.0,34.9,34.9,2.2,4.4,2.515,0.7442915501614183,-0.013426770930258519,0.6541071850965801,0.0068240880864915655,-0.079654,-36.442682
11.185,2.0,1.0,1.0,34.0,34.9,34.9,2.2,4.4,2.5175,0.7390394053421535,-0.013721365354913133,0.659844812631865,0.006829505300134913,-0.080768,-36.290837
11.185,2.0,1.0,1.0,34.0,34.9,34.9,2.2,4.4,2.52,0.7337099993526094,-0.014023328844225793,0.6655719390480662,0.006832698221378936,-0.08191,-36.137874
11.185,2.0,1.0,1.0,34.0,34.9,34.9,2.2,4.4,2.5225,0.7283022955026847,-0.014332901833395202,0.6712879554278914,0.006833543083800386,-0.083081,-35.983765
11.185,2.0,1.0,1.0,34.0,34.9,34.9,2.2,4.4,2.525,0.722815232912272,-0.014650335266561555,0.6769922307811019,0.006831909211672336,-0.084282,-35.828484
11.185,2.0,1.0,1.0,34.0,34.9,34.9,2.2,4.4,2.5275,0.7172477256630188,-0.014975891186344896,0.6826841110864563,0.0068276585647527544,-0.085516,-35.672002
11.185,2.0,1.0,1.0,34.0,34.9,34.9,2.2,4.4,2.53,0.7115986619036986,-0.015309843363699241,0.6883629182804722,0.006820645247358537,-0.086781,-35.514289
11.185,2.0,1.0,1.0,34.0,34.9,34.9,2.2,4.4,2.5325,0.7058669029057018,-0.015652477971322992,0.6940279491890732,0.006810714978449779,-0.088081,-35.355315
11.185,2.0,1.0,1.0,34.0,34.9,34.9,2.2,4.4,2.535,0.7000512820648332,-0.01600409430416166,0.6996784743978212,0.006797704519104825,-0.089416,-35.195046
11.185,2.0,1.0,1.0,34.0,34.9,34.9,2.2,4.4,2.5375,0.6941506038452663,-0.016365005550869872,0.7053137370559831,0.006781441053380706,-0.090787,-35.033452
11.185,2.0,1.0,1.0,34.0,34.9,34.9,2.2,4.4,2.54,0.6881636426610956,-0.01673553962046214,0.7109329516092805,0.006761741518122452,-0.092196,-34.870497
11.185,2.0,1.0,1.0,34.0,34.9,34.9,2.2,4.4,2.5425,0.6820891416905119,-0.01711604002878441,0.7165353024556018,0.006738411876799572,-0.093644,-34.706145
11.185,2.0,1.0,1.0,34.0,34.9,34.9,2.2,4.4,2.545,0.6759258116171452,-0.017506866849882372,0.7221199425174031,0.00671124633190452,-0.095133,-34.540361
11.185,2.0,1.0,1.0,34.0,34.9,34.9,2.2,4.4,2.5475,0.6696723292925999,-0.01790839773783564,0.7276859917238799,0.006680026469835258,-0.096665,-34.373105
11.185,2.0,1.0,1.0,34.0,34.9,34.9,2.2,4.4,2.55,0.6633273363135944,-0.01832102902517394,0.7332325353952718,0.006644520331494747,-0.098241,-34.204339
11.185,2.0,1.0,1.0,34.0,34.9,34.9,2.2,4.4,2.5525,0.6568894375065154,-0.01874517690459669,0.7387586225208201,0.00660448140106185,-0.099863,-34.03402
11.185,2.0,1.0,1.0,34.0,34.9,34.9,2.2,4.4,2.555,0.6503571993114183,-0.019181278701392506,0.7442632639210286,0.006559647504509132,-0.101533,-33.862106
11.185,2.0,1.0,1.0,34.0,34.9,34.9,2.2,4.4,2.5575,0.6437291480567312,-0.019629794244705425,0.7497454302838088,0.006509739608447776,-0.103253,-33.688551
11.185,2.0,1.0,1.0,34.0,34.9,34.9,2.2,4.4,2.56,0.637003768115027,-0.02009120734662773,0.755204050062932,0.006454460508752353,-0.105026,-33.51331
11.185,2.0,1.0,1.0,34.0,34.9,34.9,2.2,4.4,2.5625,0.6301794999292029,-0.020566027399032107,0.7606380072259058,0.006393493397137548,-0.106853,-33.336334
11.185,2.0,1.0,1.0,34.0,34.9,34.9,2.2,4.4,2.565,0.6232547378972905,-0.02105479109909403,0.7660461388368761,0.006326500292402696,-0.108737,-33.157573
11.185,2.0,1.0,1.0,34.0,34.9,34.9,2.2,4.4,2.5675,0.6162278281028997,-0.02155806431561451,0.7714272324584632,0.006253120321401477,-0.110681,-32.976973
11.185,2.0,1.0,1.0,34.0,34.9,34.9,2.2,4.4,2.57,0.6090970658768472,-0.022076444109553003,0.776780023354511,0.006172967832900615,-0.112688,-32.79448
11.185,2.0,1.0,1.0,34.0,34.9,34.9,2.2,4.4,2.5725,0.6018606931739738,-0.0226105609236321,0.7821031914735124,0.006085630325327799,-0.11476,-32.610036
11.185,2.0,1.0,1.0,34.0,34.9,34.9,2.2,4.4,2.575,0.5945168957474065,-0.023161080957503303,0.7873953581899581,0.005990666166929713,-0.1169,-32.423582
11.185,2.0,1.0,1.0,34.0,34.9,34.9,2.2,4.4,2.5775,0.5870638001004926,-0.023728708746791585,0.7926550827779673,0.005887602084017209,-0.119113,-32.235055
11.185,2.0,1.0,1.0,34.0,34.9,34.9,2.2,4.4,2.58,0.5794994701944531,-0.02431418996638684,0.7978808585882361,0.005775930389703723,-0.121401,-32.044389
11.185,2.0,1.0,1.0,34.0,34.9,34.9,2.2,4.4,2.5825,0.5718219038872383,-0.024918314480657833,0.8030711088955608,0.005655105921775489,-0.123769,-31.851516
11.185,2.0,1.0,1.0,34.0,34.9,34.9,2.2,4.4,2.585,0.5640290290762747,-0.02554191966586071,0.808224182379759,0.005524542653982366,-0.12622,-31.656364
11.185,2.0,1.0,1.0,34.0,34.9,34.9,2.2,4.4,2.5875,0.5561186995145624,-0.02618589403293893,0.8133383481977815,0.00538360994000557,-0.128759,-31.458858
11.185,2.0,1.0,1.0,34.0,34.9,34.9,2.2,4.4,2.59,0.5480886902659787,-0.026851181182209187,0.8184117905989159,0.00523162834352481,-0.131391,-31.258918
11.185,2.0,1.0,1.0,34.0,34.9,34.9,2.2,4.4,2.5925,0.5399366927615364,-0.027538784125154127,0.8234426030281774,0.005067865001026549,-0.134122,-31.056463
11.185,2.0,1.0,1.0,34.0,34.9,34.9,2.2,4.4,2.595,0.5316603094137194,-0.028249770012744313,0.8284287816550546,0.004891528456099972,-0.136955,-30.851406
11.185,2.0,1.0,1.0,34.0,34.9,34.9,2.2,4.4,2.5975,0.523257047740727,-0.028985275314473424,0.8333682182555578,0.0047017628947470455,-0.139898,-30.643654
11.185,2.0,1.0,1.0,34.0,34.9,34.9,2.2,4.4,2.6,0.5147243139465008,-0.029746511497669405,0.8382586923646811,0.004497641700444988,-0.142957,-30.433112
11.185,2.0,1.0,1.0,34.0,34.9,34.9,2.2,4.4,2.6025,0.5060594058956249,-0.030534771262736366,0.8430978626037516,0.004278160235040566,-0.146139,-30.21968
11.185,2.0,1.0,1.0,34.0,34.9,34.9,2.2,4.4,2.605,0.497259505414414,-0.03135143539688902,0.84788325707224,0.004042227736664543,-0.149451,-30.003249
11.185,2.0,1.0,1.0,34.0,34.9,34.9,2.2,4.4,2.6075,0.4883216698407537,-0.03219798031675919,0.8526122626760702,0.003788658208291985,-0.152901,-29.783709
11.185,2.0,1.0,1.0,34.0,34.9,34.9,2.2,4.4,2.61,0.4792428227352047,-0.03307598637912086,0.8572821132436896,0.003516160149801097,-0.156499,-29.56094
11.185,2.0,1.0,1.0,34.0,34.9,34.9,2.2,4.4,2.6125,0.4700197436544455,-0.033987147049027874,0.8618898762566065,0.0032233249617448184,-0.160254,-29.334818
11.185,2.0,1.0,1.0,34.0,34.9,34.9,2.2,4.4,2.615,0.46064905687510754,-0.03493327902603847,0.866432437991815,0.002908613819739338,-0.164176,-29.105209
11.185,2.0,1.0,1.0,34.0,34.9,34.9,2.2,4.4,2.6175,0.45112721894117846,-0.035916333442083205,0.8709064868386311,0.0025703427834021008,-0.168277,-28.871974
11.185,2.0,1.0,1.0,34.0,34.9,34.9,2.2,4.4,2.62,0.4414505048912078,-0.036938408259100206,0.8753084945106965,0.0022066658619114797,-0.17257,-28.634965
11.185,2.0,1.0,1.0,34.0,34.9,34.9,2.2,4.4,2.6225,0.43161499300218925,-0.03800176201099364,0.8796346948237145,0.0018155557079956477,-0.177067,-28.394024
11.185,2.0,1.0,1.0,34.0,34.9,34.9,2.2,4.4,2.625,0.421616547865069,-0.0391088290529686,0.883881059649034,0.00139478155159895,-0.181786,-28.148983
11.185,2.0,1.0,1.0,34.0,34.9,34.9,2.2,4.4,2.6275,0.4114508015817372,-0.040262236502033595,0.8880432715800485,0.0009418839112581567,-0.186741,-27.899666
11.185,2.0,1.0,1.0,34.0,34.9,34.9,2.2,4.4,2.63,0.40111313284508354,-0.04146482307559274,0.8921166927596162,0.00045414553239315976,-0.191952,-27.645883
11.185,2.0,1.0,1.0,34.0,34.9,34.9,2.2,4.4,2.6325,0.39059864363165153,-0.04271966006067111,0.8960963292085211,-7.144210645484403e-05,-0.197439,-27.387432
11.185,2.0,1.0,1.0,34.0,34.9,34.9,2.2,4.4,2.635,0.37990213320043054,-0.04403007467441788,0.8999767898626478,-0.0006382175106278214,-0.203224,-27.124099
11.185,2.0,1.0,1.0,34.0,34.9,34.9,2.2,4.4,2.6375,0.36901806905116613,-0.04539967610693189,0.9037522393640022,-0.0012498940630491602,-0.209333,-26.855654
11.185,2.0,1.0,1.0,34.0,34.9,34.9,2.2,4.4,2.64,0.3579405544511681,-0.046832384569700146,0.9074163434501917,-0.0019106122479974573,-0.215794,-26.581852
11.185,2.0,1.0,1.0,34.0,34.9,34.9,2.2,4.4,2.6425,0.34666329209121444,-0.0483324637061239,0.9109622055385401,-0.0026250006057095946,-0.222638,-26.30243
11.185,2.0,1.0,1.0,34.0,34.9,34.9,2.2,4.4,2.645,0.3351795433795527,-0.04990455675319105,0.9143822927919166,-0.0033982471259716117,-0.2299,-26.017105
11.185,2.0,1.0,1.0,34.0,34.9,34.9,2.2,4.4,2.6475,0.3234820828295222,-0.051553726872720244,0.9176683495668331,-0.004236183172555294,-0.23762,-25.725574
11.185,2.0,1.0,1.0,34.0,34.9,34.9,2.2,4.4,2.65,0.31156314694389037,-0.0532855020926318,0.9208112956588749,-0.005145382511500412,-0.245843,-25.427511
11.185,2.0,1.0,1.0,34.0,34.9,34.9,2.2,4.4,2.6525,0.2994143769519789,-0.05510592530686597,0.9238011061475937,-0.006133278622415349,-0.254618,-25.122566
11.185,2.0,1.0,1.0,34.0,34.9,34.9,2.2,4.4,2.655,0.2870267547216743,-0.05702160976684334,0.9266266688652743,-0.007208304239400632,-0.264005,-24.810357
11.185,2.0,1.0,1.0,34.0,34.9,34.9,2.2,4.4,2.6575,0.2743905311596006,-0.05903980044225599,0.929275614521981,-0.008380058044604963,-0.274069,-24.490476
11.185,2.0,1.0,1.0,34.0,34.9,34.9,2.2,4.4,2.66,0.2614951464479775,-0.061168441510951896,0.9317341132471433,-0.009659504686075172,-0.284884,-24.162477
11.185,2.0,1.0,1.0,34.0,34.9,34.9,2.2,4.4,2.6625,0.24832914157612943,-0.0634162500207202,0.9339866296675393,-0.01105921589663672,-0.296539,-23.825879
11.185,2.0,1.0,1.0,34.0,34.9,34.9,2.2,4.4,2.665,0.2348800608546263,-0.06579279539512271,0.9360156265143131,-0.012593662564666019,-0.309132,-23.480156
11.185,2.0,1.0,1.0,34.0,34.9,34.9,2.2,4.4,2.6675,0.2211343455235567,-0.0683085838473955,0.9378012039774142,-0.014279570302020273,-0.322782,-23.124738
11.185,2.0,1.0,1.0,34.0,34.9,34.9,2.2,4.4,2.67,0.20707721929651854,-0.07097514579272238,0.9393206583868694,-0.016136354573060226,-0.337624,-22.759001
11.185,2.0,1.0,1.0,34.0,34.9,34.9,2.2,4.4,2.6725,0.1926925678954604,-0.0738051228127005,0.9405479389994275,-0.0181866560675329,-0.353817,-22.382262
11.185,2.0,1.0,1.0,34.0,34.9,34.9,2.2,4.4,2.675,0.1779628166060354,-0.0768123483218726,0.9414529752996831,-0.020457003093160443,-0.371552,-21.993774
11.185,2.0,1.0,1.0,34.0,34.9,34.9,2.2,4.4,2.6775,0.16286881305537684,-0.08001191234101236,0.9420008387277374,-0.022978635838652978,-0.391052,-21.592715
11.185,2.0,1.0,1.0,34.0,34.9,34.9,2.2,4.4,2.68,0.147389727477434,-0.08342019495357522,0.9421506913528381,-0.025788538101979168,-0.412586,-21.178184
11.185,2.0,1.0,1.0,34.0,34.9,34.9,2.2,4.4,2.6825,0.13150299079124836,-0.08705484394042105,0.9418544586691913,-0.02893073641853099,-0.436477,-20.749184
11.185,2.0,1.0,1.0,34.0,34.9,34.9,2.2,4.4,2.685,0.1151843036553204,-0.09093465789355532,0.9410551429556473,-0.032457945694284056,-0.463117,-20.304615
11.185,2.0,1.0,1.0,34.0,34.9,34.9,2.2,4.4,2.6875,0.09840777016481045,-0.09507931382058923,0.9396846655688648,-0.036433666063040486,-0.492987,-19.843265
11.185,2.0,1.0,1.0,34.0,34.9,34.9,2.2,4.4,2.69,0.08114624275723949,-0.09950884304775921,0.9376610885595794,-0.040934869771545444,-0.526677,-19.363787
11.185,2.0,1.0,1.0,34.0,34.9,34.9,2.2,4.4,2.6925,0.06337201799746227,-0.10424270325334933,0.9348850148583174,-0.04605546181286243,-0.564926,-18.864695
11.185,2.0,1.0,1.0,34.0,34.9,34.9,2.2,4.4,2.695,0.045058109242106265,-0.10929820480768826,0.9312348981948516,-0.05191075607436661,-0.60866,-18.344345
11.185,2.0,1.0,1.0,34.0,34.9,34.9,2.2,4.4,2.6975,0.026180463605021742,-0.11468790491929653,0.9265609053841718,-0.05864328099878522,-0.659055,-17.800921
11.185,2.0,1.0,1.0,34.0,34.9,34.9,2.2,4.4,2.7,0.006721724133043161,-0.12041534795758044,0.9206768637522191,-0.06643031198674519,-0.717624,-17.232432
11.185,2.0,1.0,1.0,34.0,34.9,34.9,2.2,4.4,2.7025,-0.013322473619245958,-0.12646814591789102,0.9133497032195248,-0.07549360739094885,-0.786334,-16.636708
11.185,2.0,1.0,1.0,34.0,34.9,34.9,2.2,4.4,2.705,-0.03393303216856107,-0.13280676238096195,0.9042856978080225,-0.0861118583934402,-0.867776,-16.011422
11.185,2.0,1.0,1.0,34.0,34.9,34.9,2.2,4.4,2.7075,-0.05505002358806195,-0.13934633010036174,0.8931128168793321,-0.09863624242878974,-0.965405,-15.354135
11.185,2.0,1.0,1.0,34.0,34.9,34.9,2.2,4.4,2.71,-0.07654388176912563,-0.1459271562389758,0.8793588472598007,-0.11350893910528234,-1.083895,-14.662405
11.185,2.0,1.0,1.0,34.0,34.9,34.9,2.2,4.4,2.7125,-0.09816764376886812,-0.15226692152443505,0.8624262108330827,-0.13128294329707396,-1.229652,-13.933991
11.185,2.0,1.0,1.0,34.0,34.9,34.9,2.2,4.4,2.715,-0.11947807013894687,-0.15788364659209586,0.841567892952616,-0.15263770824157163,-1.411552,-13.167231
11.185,2.0,1.0,1.0,34.0,34.9,34.9,2.2,4.4,2.7175,-0.13970690822504359,-0.1619734796027245,0.8158775335356617,-0.17837637420611133,-1.64199,-12.361713
11.185,2.0,1.0,1.0,34.0,34.9,34.9,2.2,4.4,2.72,-0.15755682703411847,-0.16322367888833733,0.7843265614187759,-0.2093713687289432,-1.938252,-11.519443
11.185,2.0,1.0,1.0,34.0,34.9,34.9,2.2,4.4,2.7225,-0.170898669899346,-0.15954842990274418,0.7459231055594628,-0.24638765898534087,-2.323933,-10.646813
11.185,2.0,1.0,1.0,34.0,34.9,34.9,2.2,4.4,2.725,-0.17638810712082073,-0.14778187548703747,0.7001437622047246,-0.2896504531161808,-2.829006,-9.757736
11.185,2.0,1.0,1.0,34.0,34.9,34.9,2.2,4.4,2.7275,-0.1691789004097934,-0.12351407254981205,0.6478850854421374,-0.3379611770503165,-3.483571,-8.878192
11.185,2.0,1.0,1.0,34.0,34.9,34.9,2.2,4.4,2.73,-0.14331392856807354,-0.08159609142490742,0.5931436878234589,-0.38724922469067086,-4.290389,-8.051531
11.185,2.0,1.0,1.0,34.0,34.9,34.9,2.2,4.4,2.7325,-0.0939601118450088,-0.01824900445868252,0.5449639568109177,-0.42907664998428025,-5.145423,-7.341454
11.185,2.0,1.0,1.0,34.0,34.9,34.9,2.2,4.4,2.735,-0.022310584571791255,0.06476966486560556,0.5173213432380592,-0.4511027213039522,-5.716722,-6.82587
11.185,2.0,1.0,1.0,34.0,34.9,34.9,2.2,4.4,2.7375,0.059622884663776035,0.15647902170816838,0.5233198190343572,-0.44221860341531877,-5.568645,-6.574925
11.185,2.0,1.0,1.0,34.0,34.9,34.9,2.2,4.4,2.74,0.1317285798487184,0.23927379362121495,0.5652493810859271,-0.40069253703058905,-4.725515,-6.619292
11.185,2.0,1.0,1.0,34.0,34.9,34.9,2.2,4.4,2.7425,0.17752409806785044,0.2986382147971724,0.631239453615559,-0.3368105385168847,-3.665537,-6.933046
11.185,2.0,1.0,1.0,34.0,34.9,34.9,2.2,4.4,2.745,0.19292116483731137,0.33052900968741195,0.703809698271603,-0.26592350433148165,-2.73626,-7.448126
11.185,2.0,1.0,1.0,34.0,34.9,34.9,2.2,4.4,2.7475,0.18384518245236436,0.3397667002849991,0.7700187520145436,-0.19986089919461855,-2.02921,-8.085887
11.185,2.0,1.0,1.0,34.0,34.9,34.9,2.2,4.4,2.75,0.159120974902989,0.334140522722249,0.824298418891312,-0.144108833786389,-1.519419,-8.780555
11.185,2.0,1.0,1.0,34.0,34.9,34.9,2.2,4.4,2.7525,0.12603337783877144,0.3203818367849352,0.8661271891406468,-0.09951375513232494,-1.157368,-9.486641
11.185,2.0,1.0,1.0,34.0,34.9,34.9,2.2,4.4,2.755,0.08930840795921854,0.30302848062637094,0.8971679525541933,-0.06474355040499825,-0.899702,-10.176474
11.185,2.0,1.0,1.0,34.0,34.9,34.9,2.2,4.4,2.7575,0.05161673265290845,0.28473876790005487,0.919571256906311,-0.03786850315251002,-0.71463,-10.834924
11.185,2.0,1.0,1.0,34.0,34.9,34.9,2.2,4.4,2.76,0.014315128722708136,0.26691737829852824,0.9352753899571498,-0.01706939504056384,-0.580193,-11.454738
11.185,2.0,1.0,1.0,34.0,34.9,34.9,2.2,4.4,2.7625,-0.02199148848682423,0.25022686953356016,0.9458203221695408,-0.0008571606789334625,-0.48148,-12.03327
11.185,2.0,1.0,1.0,34.0,34.9,34.9,2.2,4.4,2.765,-0.057100215642905246,0.2349205862649631,0.9523632350344772,0.011915167129192886,-0.408364,-12.570421
11.185,2.0,1.0,1.0,34.0,34.9,34.9,2.2,4.4,2.7675,-0.0910108725202583,0.2210386615794245,0.9557511809405927,0.02210789940544808,-0.3539,-13.067406
11.185,2.0,1.0,1.0,34.0,34.9,34.9,2.2,4.4,2.77,-0.12381779735893726,0.20851742605297366,0.9565963260044352,0.030360297251918904,-0.313269,-13.526047
11.185,2.0,1.0,1.0,34.0,34.9,34.9,2.2,4.4,2.7725,-0.1556530259648357,0.19724837709202628,0.9553377665444284,0.03714736649181635,-0.283076,-13.948367
11.185,2.0,1.0,1.0,34.0,34.9,34.9,2.2,4.4,2.775,-0.18665745973482176,0.1871089434181768,0.9522880904267159,0.042824004575882306,-0.260904,-14.336373
11.185,2.0,1.0,1.0,34.0,34.9,34.9,2.2,4.4,2.7775,-0.21696696070310365,0.1779778398547121,0.9476671121507564,0.04765775861384551,-0.245004,-14.691938
11.185,2.0,1.0,1.0,34.0,34.9,34.9,2.2,4.4,2.78,-0.2467062611011182,0.16974214677239416,0.9416258744503283,0.0518526495965736,-0.234101,-15.016744
11.185,2.0,1.0,1.0,34.0,34.9,34.9,2.2,4.4,2.7825,-0.275986861226344,0.16230002893666853,0.9342635734256269,0.055566386194608866,-0.227259,-15.312256
11.185,2.0,1.0,1.0,34.0,34.9,34.9,2.2,4.4,2.785,-0.304906871583499,0.15556122068595196,0.9256394240599229,0.058922817960071115,-0.223786,-15.579721
11.185,2.0,1.0,1.0,34.0,34.9,34.9,2.2,4.4,2.7875,-0.3335517137438748,0.1494464218452207,0.9157809167544074,0.06202100196621664,-0.223169,-15.820165
11.185,2.0,1.0,1.0,34.0,34.9,34.9,2.2,4.4,2.79,-0.361995107065012,0.14388621090874862,0.9046894809712877,0.06494187226326079,-0.225034,-16.0344
11.185,2.0,1.0,1.0,34.0,34.9,34.9,2.2,4.4,2.7925,-0.3903000402822287,0.13881978788403151,0.8923442573042102,0.06775321564044108,-0.229112,-16.223035
11.185,2.0,1.0,1.0,34.0,34.9,34.9,2.2,4.4,2.795,-0.41851956814964103,0.1341936982695508,0.8787044567153812,0.070513452952171,-0.235216,-16.386482
11.185,2.0,1.0,1.0,34.0,34.9,34.9,2.2,4.4,2.7975,-0.4466973427020569,0.1299606013184041,0.863710629310327,0.07327458230177522,-0.243226,-16.524959
11.185,2.0,1.0,1.0,34.0,34.9,34.9,2.2,4.4,2.8,-0.47486781768230807,0.12607809661349184,0.8472850546354092,0.07608454145275237,-0.253081,-16.638497
11.185,2.0,1.0,1.0,34.0,34.9,34.9,2.2,4.4,2.8025,-0.5030560695933379,0.1225075944220032,0.8293313865089907,0.07898917898602152,-0.264769,-16.726942
11.185,2.0,1.0,1.0,34.0,34.9,34.9,2.2,4.4,2.805,-0.5312771677226349,0.11921319665037677,0.8097336277793578,0.08203397766650776,-0.278324,-16.789951
11.185,2.0,1.0,1.0,34.0,34.9,34.9,2.2,4.4,2.8075,-0.5595350015198858,0.11616054003186682,0.7883544674754249,0.08526564272939317,-0.293825,-16.826994
11.185,2.0,1.0,1.0,34.0,34.9,34.9,2.2,4.4,2.81,-0.5878204369323616,0.11331553704976631,0.7650329804975377,0.08873364778347774,-0.311397,-16.837345
11.185,2.0,1.0,1.0,34.0,34.9,34.9,2.2,4.4,2.8125,-0.6161086213914809,0.11064292937542013,0.739581666365687,0.09249181841129324,-0.331214,-16.820078
11.185,2.0,1.0,1.0,34.0,34.9,34.9,2.2,4.4,2.815,-0.6443551855641051,0.10810453944074286,0.7117827888392778,0.0966000255571242,-0.353499,-16.774054
11.185,2.0,1.0,1.0,34.0,34.9,34.9,2.2,4.4,2.8175,-0.6724909917562161,0.1056570633253482,0.6813839753386741,0.10112605456877245,-0.378541,-16.697914
11.185,2.0,1.0,1.0,34.0,34.9,34.9,2.2,4.4,2.82,-0.700414944047677,0.10324918566289876,0.6480930507577346,0.10614770741816913,-0.406696,-16.590063
11.185,2.0,1.0,1.0,34.0,34.9,34.9,2.2,4.4,2.8225,-0.7279841902594405,0.10081770493661918,0.6115721272430961,0.11175517881400678,-0.438405,-16.44866
11.185,2.0,1.0,1.0,34.0,34.9,34.9,2.2,4.4,2.825,-0.755000792853149,0.09828222090365968,0.5714310725809243,0.11805371021501923,-0.474208,-16.271603
11.185,2.0,1.0,1.0,34.0,34.9,34.9,2.2,4.4,2.8275,-0.7811936027144019,0.09553773393757473,0.5272206743421535,0.12516644789506964,-0.51477,-16.056517
11.185,2.0,1.0,1.0,34.0,34.9,34.9,2.2,4.4,2.83,-0.8061936120564202,0.0924442090760877,0.4784261719509029,0.13323727214777234,-0.560903,-15.800756
