1,w,sub_t,h,l1,l2,l3,g1,g2,Freq,S11_re,S21_re,S11_img,S21_img,S11_dB,S21_dB
11.185,2.0,1.0,1.0,33.7,34.4,34.4,1.7,2.7,2.5,0.818869491849081,-0.0151566328981633,0.559145095121596,0.0130806672308291,-0.073623,-33.970426
11.185,2.0,1.0,1.0,33.7,34.4,34.4,1.7,2.7,2.5025,0.8146862154600479,-0.015498422521151313,0.5650405494547063,0.013161741711768857,-0.074534,-33.835953
11.185,2.0,1.0,1.0,33.7,34.4,34.4,1.7,2.7,2.505,0.810436376165108,-0.01584785117195727,0.5709350032729875,0.013241750064344322,-0.075464,-33.700827
11.185,2.0,1.0,1.0,33.7,34.4,34.4,1.7,2.7,2.5075,0.8061191213425786,-0.016205122347008123,0.5768280904248535,0.01332060940188236,-0.076415,-33.565033
11.185,2.0,1.0,1.0,33.7,34.4,34.4,1.7,2.7,2.51,0.8017335806656988,-0.016570446251549298,0.5827194310022722,0.013398232470266199,-0.077388,-33.428558
11.185,2.0,1.0,1.0,33.7,34.4,34.4,1.7,2.7,2.5125,0.7972788656441255,-0.0169440400626654,0.5886086307798823,0.01347452740764461,-0.078382,-33.29139
11.185,2.0,1.0,1.0,33.7,34.4,34.4,1.7,2.7,2.515,0.7927540691503213,-0.017326128204204556,0.5944952806284187,0.013549397489595867,-0.0794,-33.153513
11.185,2.0,1.0,1.0,33.7,34.4,34.4,1.7,2.7,2.5175,0.7881582649302157,-0.017716942634208237,0.6003789559010312,0.01362274085876616,-0.080441,-33.014914
11.185,2.0,1.0,1.0,33.7,34.4,34.4,1.7,2.7,2.52,0.7834905070974638,-0.01811672314548815,0.6062592157910257,0.013694450237928863,-0.081506,-32.875577
11.185,2.0,1.0,1.0,33.7,34.4,34.4,1.7,2.7,2.5225,0.7787498296106264,-0.018525717680022043,0.6121356026594141,0.013764412625330588,-0.082596,-32.735489
11.185,2.0,1.0,1.0,33.7,34.4,34.4,1.7,2.7,2.525,0.773935245732525,-0.01894418265788065,0.618007641330606,0.01383250897110474,-0.083712,-32.594633
11.185,2.0,1.0,1.0,33.7,34.4,34.4,1.7,2.7,2.5275,0.76904574747101,-0.019372383321437155,0.6238748383544233,0.013898613833438957,-0.084854,-32.452996
11.185,2.0,1.0,1.0,33.7,34.4,34.4,1.7,2.7,2.53,0.7640803050003437,-0.019810594095651564,0.6297366812325095,0.013962595013081825,-0.086025,-32.310559
11.185,2.0,1.0,1.0,33.7,34.4,34.4,1.7,2.7,2.5325,0.759037866062342,-0.02025909896526611,0.6355926376070766,0.014024313164664133,-0.087223,-32.167309
11.185,2.0,1.0,1.0,33.7,34.4,34.4,1.7,2.7,2.535,0.7539173553463849,-0.02071819186979767,0.6414421544097916,0.01408362138319003,-0.088451,-32.023227
11.185,2.0,1.0,1.0,33.7,34.4,34.4,1.7,2.7,2.5375,0.7487176738473694,-0.021188177117256936,0.6472846569684355,0.01414036476392381,-0.089709,-31.878297
11.185,2.0,1.0,1.0,33.7,34.4,34.4,1.7,2.7,2.54,0.7434376982006089,-0.02166936981758168,0.653119548068826,0.014194379933756884,-0.090999,-31.732503
11.185,2.0,1.0,1.0,33.7,34.4,34.4,1.7,2.7,2.5425,0.7380762799926517,-0.02216209633682229,0.6589462069692941,0.014245494551985071,-0.092321,-31.585826
11.185,2.0,1.0,1.0,33.7,34.4,34.4,1.7,2.7,2.545,0.732632245046925,-0.02266669477317791,0.664763988364826,0.014293526778259522,-0.093676,-31.438248
11.185,2.0,1.0,1.0,33.7,34.4,34.4,1.7,2.7,2.5475,0.7271043926830711,-0.02318351545603979,0.6705722212977484,0.014338284705291934,-0.095067,-31.289751
11.185,2.0,1.0,1.0,33.7,34.4,34.4,1.7,2.7,2.55,0.721491494948754,-0.023712921469266138,0.6763702080116452,0.014379565753695867,-0.096493,-31.140316
11.185,2.0,1.0,1.0,33.7,34.4,34.4,1.7,2.7,2.5525,0.7157922958226953,-0.0242552891999757,0.6821572227448893,0.01441715602612864,-0.097957,-30.989923
11.185,2.0,1.0,1.0,33.7,34.4,34.4,1.7,2.7,2.555,0.7100055103875941,-0.024811008914221354,0.6879325104599658,0.014450829617662158,-0.099459,-30.838554
11.185,2.0,1.0,1.0,33.7,34.4,34.4,1.7,2.7,2.5575,0.7041298239715332,-0.025380485360978016,0.6936952855044198,0.014480347879050993,-0.101001,-30.686187
11.185,2.0,1.0,1.0,33.7,34.4,34.4,1.7,2.7,2.56,0.6981638912564183,-0.025964138405954833,0.6994447301989648,0.014505458629284722,-0.102585,-30.532802
11.185,2.0,1.0,1.0,33.7,34.4,34.4,1.7,2.7,2.5625,0.692106335351896,-0.0265624036968265,0.705179993347937,0.0145258953134999,-0.104212,-30.378377
11.185,2.0,1.0,1.0,33.7,34.4,34.4,1.7,2.7,2.565,0.6859557468331364,-0.02717573336155853,0.7109001886669076,0.014541376101990416,-0.105883,-30.222891
11.185,2.0,1.0,1.0,33.7,34.4,34.4,1.7,2.7,2.5675,0.6797106827407907,-0.027804596741592996,0.7166043931218262,0.01455160292568153,-0.107601,-30.066322
11.185,2.0,1.0,1.0,33.7,34.4,34.4,1.7,2.7,2.57,0.6733696655413349,-0.028449481161750407,0.722291645173655,0.01455626044302723,-0.109366,-29.908647
11.185,2.0,1.0,1.0,33.7,34.4,34.4,1.7,2.7,2.5725,0.6669311820459416,-0.029110892738798366,0.7279609429219303,0.014555014932843254,-0.111182,-29.749841
11.185,2.0,1.0,1.0,33.7,34.4,34.4,1.7,2.7,2.575,0.660393682285927,-0.029789357230735,0.7336112421401546,0.014547513107097418,-0.113049,-29.589881
11.185,2.0,1.0,1.0,33.7,34.4,34.4,1.7,2.7,2.5775,0.6537555783427366,-0.03048542092893456,0.7392414541953428,0.014533380837140246,-0.114971,-29.428742
11.185,2.0,1.0,1.0,33.7,34.4,34.4,1.7,2.7,2.58,0.6470152431303431,-0.0311996515954039,0.7448504438433737,0.014512221786265815,-0.116949,-29.266399
11.185,2.0,1.0,1.0,33.7,34.4,34.4,1.7,2.7,2.5825,0.6401710091278283,-0.03193263944750382,0.750437026891127,0.014483615940839792,-0.118985,-29.102826
11.185,2.0,1.0,1.0,33.7,34.4,34.4,1.7,2.7,2.585,0.6332211670598524,-0.0326849981925896,0.7559999677155529,0.014447118031514022,-0.121082,-28.937995
11.185,2.0,1.0,1.0,33.7,34.4,34.4,1.7,2.7,2.5875,0.6261639645225987,-0.03345736611513132,0.7615379766290206,0.014402255835252979,-0.123242,-28.771879
11.185,2.0,1.0,1.0,33.7,34.4,34.4,1.7,2.7,2.59,0.6189976045527267,-0.034250407218974065,0.7670497070793029,0.014348528348024546,-0.125468,-28.60445
11.185,2.0,1.0,1.0,33.7,34.4,34.4,1.7,2.7,2.5925,0.6117202441367467,-0.035064812427497594,0.7725337526715443,0.01428540381704112,-0.127763,-28.435678
11.185,2.0,1.0,1.0,33.7,34.4,34.4,1.7,2.7,2.595,0.6043299926582043,-0.03590130084452488,0.7779886439984048,0.01421231762037086,-0.130129,-28.265534
11.185,2.0,1.0,1.0,33.7,34.4,34.4,1.7,2.7,2.5975,0.5968249102799372,-0.03676062107891861,0.7834128452633162,0.01412866998055774,-0.132571,-28.093987
11.185,2.0,1.0,1.0,33.7,34.4,34.4,1.7,2.7,2.6,0.5892030062586634,-0.03764355263587403,0.788804750680394,0.014033823497583298,-0.13509,-27.921004
11.185,2.0,1.0,1.0,33.7,34.4,34.4,1.7,2.7,2.6025,0.5814622371891032,-0.038550907377976985,0.7941626806329988,0.013927100485054836,-0.137691,-27.746554
11.185,2.0,1.0,1.0,33.7,34.4,34.4,1.7,2.7,2.605,0.5736005051748038,-0.03948353105913872,0.7994848775712643,0.013807780091899235,-0.140378,-27.570602
11.185,2.0,1.0,1.0,33.7,34.4,34.4,1.7,2.7,2.6075,0.5656156559228724,-0.04044230493453152,0.8047695016269986,0.013675095190059215,-0.143154,-27.393114
11.185,2.0,1.0,1.0,33.7,34.4,34.4,1.7,2.7,2.61,0.5575054767598497,-0.041428147449635265,0.8100146259222847,0.01352822900670933,-0.146022,-27.214054
11.185,2.0,1.0,1.0,33.7,34.4,34.4,1.7,2.7,2.6125,0.5492676945660303,-0.04244201601145202,0.815218231545806,0.013366311477306827,-0.148989,-27.033385
11.185,2.0,1.0,1.0,33.7,34.4,34.4,1.7,2.7,2.615,0.5408999736256809,-0.04348490884484046,0.8203782021683206,0.013188415293341875,-0.152058,-26.851069
11.185,2.0,1.0,1.0,33.7,34.4,34.4,1.7,2.7,2.6175,0.532399913390799,-0.04455786693675968,0.8254923182658765,0.01299355161592222,-0.155234,-26.667067
11.185,2.0,1.0,1.0,33.7,34.4,34.4,1.7,2.7,2.62,0.5237650461563212,-0.045661976070974684,0.8305582509161478,0.012780665423282435,-0.158523,-26.481339
11.185,2.0,1.0,1.0,33.7,34.4,34.4,1.7,2.7,2.6225,0.5149928346450486,-0.04679836895544605,0.8355735551297552,0.01254863045691127,-0.16193,-26.293841
11.185,2.0,1.0,1.0,33.7,34.4,34.4,1.7,2.7,2.625,0.50608066950106,-0.0479682274441852,0.840535662674457,0.0122962437271948,-0.165461,-26.104532
11.185,2.0,1.0,1.0,33.7,34.4,34.4,1.7,2.7,2.6275,0.49702586669095317,-0.049172784854782686,0.8454418743457013,0.012022219535228819,-0.169122,-25.913367
11.185,2.0,1.0,1.0,33.7,34.4,34.4,1.7,2.7,2.63,0.4878256648130869,-0.05041332838207031,0.8502893516320857,0.011725182962705001,-0.17292,-25.720299
11.185,2.0,1.0,1.0,33.7,34.4,34.4,1.7,2.7,2.6325,0.4784772223159537,-0.05169120160743789,0.8550751077187615,0.011403662776453573,-0.176863,-25.525282
11.185,2.0,1.0,1.0,33.7,34.4,34.4,1.7,2.7,2.635,0.46897761462805226,-0.05300780710213378,0.859795997765662,0.01105608368825929,-0.180957,-25.328265
11.185,2.0,1.0,1.0,33.7,34.4,34.4,1.7,2.7,2.6375,0.4593238312031864,-0.054364609121394764,0.8644487083904682,0.010680757903871928,-0.185212,-25.129197
11.185,2.0,1.0,1.0,33.7,34.4,34.4,1.7,2.7,2.64,0.4495127724869565,-0.05576313638441139,0.8690297462785406,0.010275875887608414,-0.189635,-24.928027
11.185,2.0,1.0,1.0,33.7,34.4,34.4,1.7,2.7,2.6425,0.43954124681261947,-0.057204984932848944,0.8735354258332402,0.009839496260489692,-0.194237,-24.724699
11.185,2.0,1.0,1.0,33.7,34.4,34.4,1.7,2.7,2.645,0.42940596723727625,-0.05869182105785081,0.8779618557703608,0.009369534740333713,-0.199027,-24.519156
11.185,2.0,1.0,1.0,33.7,34.4,34.4,1.7,2.7,2.6475,0.41910354833291147,-0.060225384282003025,0.8823049245492909,0.008863752021511432,-0.204017,-24.311341
11.185,2.0,1.0,1.0,33.7,34.4,34.4,1.7,2.7,2.65,0.40863050295101994,-0.0618074903785424,0.886560284521182,0.00831974047998204,-0.209217,-24.101192
11.185,2.0,1.0,1.0,33.7,34.4,34.4,1.7,2.7,2.6525,0.39798323898483173,-0.06344003440493723,0.8907233346603861,0.0077349095755994786,-0.21464,-23.888646
11.185,2.0,1.0,1.0,33.7,34.4,34.4,1.7,2.7,2.655,0.387158056159409,-0.06512499372172145,0.8947892017296618,0.007106469808283145,-0.2203,-23.673639
11.185,2.0,1.0,1.0,33.7,34.4,34.4,1.7,2.7,2.6575,0.3761511428876494,-0.06686443095982113,0.8987527197118578,0.006431415067261427,-0.226212,-23.456102
11.185,2.0,1.0,1.0,33.7,34.4,34.4,1.7,2.7,2.66,0.36495857323956027,-0.06866049689033714,0.9026084073206639,0.005706503192934629,-0.23239,-23.235965
11.185,2.0,1.0,1.0,33.7,34.4,34.4,1.7,2.7,2.6625,0.35357630408355645,-0.07051543313945784,0.9063504433803125,0.004928234548664704,-0.238852,-23.013155
11.185,2.0,1.0,1.0,33.7,34.4,34.4,1.7,2.7,2.665,0.3420001724723121,-0.07243157467746297,0.9099726398383908,0.004092828374625053,-0.245616,-22.787597
11.185,2.0,1.0,1.0,33.7,34.4,34.4,1.7,2.7,2.6675,0.33022589336251,-0.0744113519940978,0.9134684121468568,0.0031961966673486864,-0.252702,-22.559211
11.185,2.0,1.0,1.0,33.7,34.4,34.4,1.7,2.7,2.67,0.31824905777812457,-0.07645729285234353,0.9168307467134491,0.0022339152963278992,-0.260131,-22.327916
11.185,2.0,1.0,1.0,33.7,34.4,34.4,1.7,2.7,2.6725,0.306065131551664,-0.07857202348797178,0.9200521650883965,0.0012011920324575072,-0.267928,-22.093626
11.185,2.0,1.0,1.0,33.7,34.4,34.4,1.7,2.7,2.675,0.2936694548078302,-0.08075826909231218,0.9231246845091727,9.283112169994284e-05,-0.276116,-21.856254
11.185,2.0,1.0,1.0,33.7,34.4,34.4,1.7,2.7,2.6775,0.28105724239063257,-0.08301885337921905,0.9260397743782623,-0.0010968060095535976,-0.284724,-21.615707
11.185,2.0,1.0,1.0,33.7,34.4,34.4,1.7,2.7,2.68,0.2682235854794432,-0.08535669699284223,0.9287883081949386,-0.0023738443840324924,-0.293781,-21.37189
11.185,2.0,1.0,1.0,33.7,34.4,34.4,1.7,2.7,2.6825,0.2551634546937362,-0.0877748144587399,0.9313605104009106,-0.0037449439646867837,-0.303322,-21.124703
11.185,2.0,1.0,1.0,33.7,34.4,34.4,1.7,2.7,2.685,0.24187170505224484,-0.09027630931494325,0.9337458975307696,-0.005217353601795713,-0.313381,-20.874043
11.185,2.0,1.0,1.0,33.7,34.4,34.4,1.7,2.7,2.6875,0.228343083232915,-0.0928643669791112,0.935933212980377,-0.00679897110701408,-0.323998,-20.619801
11.185,2.0,1.0,1.0,33.7,34.4,34.4,1.7,2.7,2.69,0.21457223767849717,-0.09554224480959918,0.9379103546188325,-0.008498410211334666,-0.335217,-20.361865
11.185,2.0,1.0,1.0,33.7,34.4,34.4,1.7,2.7,2.6925,0.20055373221296477,-0.09831325869804175,0.9396642943714913,-0.01032507526048045,-0.347085,-20.100119
11.185,2.0,1.0,1.0,33.7,34.4,34.4,1.7,2.7,2.695,0.18628206398140232,-0.10118076538383171,0.9411809887917932,-0.012289244609099921,-0.359655,-19.834441
11.185,2.0,1.0,1.0,33.7,34.4,34.4,1.7,2.7,2.6975,0.1717516867065251,-0.10414813950047536,0.9424452795176498,-0.014402163795060695,-0.372984,-19.564704
11.185,2.0,1.0,1.0,33.7,34.4,34.4,1.7,2.7,2.7,0.15695704047671574,-0.10721874414240938,0.9434407823733453,-0.016676149707525987,-0.387137,-19.290777
11.185,2.0,1.0,1.0,33.7,34.4,34.4,1.7,2.7,2.7025,0.1418925895525354,-0.11039589346893873,0.944149763730348,-0.0191247071073764,-0.402184,-19.012522
11.185,2.0,1.0,1.0,33.7,34.4,34.4,1.7,2.7,2.705,0.12655287001354318,-0.11368280552754997,0.9445530025806267,-0.021762659015135532,-0.418204,-18.729797
11.185,2.0,1.0,1.0,33.7,34.4,34.4,1.7,2.7,2.7075,0.11093254947913558,-0.11708254306724232,0.9446296366060845,-0.024606292648031606,-0.435284,-18.442453
11.185,2.0,1.0,1.0,33.7,34.4,34.4,1.7,2.7,2.71,0.09502650164490842,-0.12059793960536651,0.9443569903506718,-0.027673522760612468,-0.453523,-18.150337
11.185,2.0,1.0,1.0,33.7,34.4,34.4,1.7,2.7,2.7125,0.07882989900195353,-0.12423150738614341,0.9437103834238932,-0.030984074416416454,-0.473027,-17.853288
11.185,2.0,1.0,1.0,33.7,34.4,34.4,1.7,2.7,2.715,0.06233832787901007,-0.12798532309749117,0.9426629164949958,-0.03455968738191311,-0.49392,-17.551142
11.185,2.0,1.0,1.0,33.7,34.4,34.4,1.7,2.7,2.7175,0.045547930900852386,-0.13186088626049225,0.9411852326910813,-0.03842434447339382,-0.516339,-17.243726
11.185,2.0,1.0,1.0,33.7,34.4,34.4,1.7,2.7,2.72,0.028455583133516368,-0.13585894403029572,0.9392452519117737,-0.04260452628032748,-0.540435,-16.930863
11.185,2.0,1.0,1.0,33.7,34.4,34.4,1.7,2.7,2.7225,0.01105910963982463,-0.1399792746965925,0.9368078755507231,-0.04712949470188472,-0.566384,-16.612371
11.185,2.0,1.0,1.0,33.7,34.4,34.4,1.7,2.7,2.725,-0.006642446039339024,-0.14422042038297936,0.9338346592180824,-0.05203160761867549,-0.59438,-16.288062
11.185,2.0,1.0,1.0,33.7,34.4,34.4,1.7,2.7,2.7275,-0.024648490755807648,-0.14857935724197607,0.9302834513571184,-0.057346666709924,-0.624646,-15.957743
11.185,2.0,1.0,1.0,33.7,34.4,34.4,1.7,2.7,2.73,-0.04295647354279012,-0.15305108873645604,0.9261079962414309,-0.06311429981787998,-0.657434,-15.621219
11.185,2.0,1.0,1.0,33.7,34.4,34.4,1.7,2.7,2.7325,-0.061561382565851266,-0.1576281442850504,0.9212575008671473,-0.06937837821541112,-0.69303,-15.27829
11.185,2.0,1.0,1.0,33.7,34.4,34.4,1.7,2.7,2.735,-0.08045512543195285,-0.16229996151171966,0.9156761669157718,-0.07618746745030601,-0.731763,-14.928757
11.185,2.0,1.0,1.0,33.7,34.4,34.4,1.7,2.7,2.7375,-0.09962576615005121,-0.16705212545322268,0.9093026915363144,-0.08359530784194011,-0.774008,-14.572419
11.185,2.0,1.0,1.0,33.7,34.4,34.4,1.7,2.7,2.74,-0.11905658615661716,-0.17186543221979383,0.9020697445686029,-0.09166131680367214,-0.820199,-14.209081
11.185,2.0,1.0,1.0,33.7,34.4,34.4,1.7,2.7,2.7425,-0.13872492985886192,-0.17671473767389967,0.8939034355407693,-0.10045109941965183,-0.870832,-13.838552
11.185,2.0,1.0,1.0,33.7,34.4,34.4,1.7,2.7,2.745,-0.15860078706373051,-0.18156754364861044,0.8847227920612603,-0.11003694537929957,-0.926485,-13.460652
11.185,2.0,1.0,1.0,33.7,34.4,34.4,1.7,2.7,2.7475,-0.17864505552875956,-0.18638226515216444,0.8744392830922343,-0.1204982784640317,-0.987825,-13.075216
11.185,2.0,1.0,1.0,33.7,34.4,34.4,1.7,2.7,2.75,-0.198807416994076,-0.19110611220618,0.862956437381666,-0.131922007945755,-1.055631,-12.682101
11.185,2.0,1.0,1.0,33.7,34.4,34.4,1.7,2.7,2.7525,-0.21902375012697192,-0.19567251014312614,0.850169630815791,-0.1444027077282558,-1.130809,-12.281196
11.185,2.0,1.0,1.0,33.7,34.4,34.4,1.7,2.7,2.755,-0.23921299518265426,-0.19999797370318861,0.8359661489039811,-0.15804251657488827,-1.214424,-11.872428
11.185,2.0,1.0,1.0,33.7,34.4,34.4,1.7,2.7,2.7575,-0.259273380265173,-0.2039783455414798,0.8202256748339064,-0.17295060851970723,-1.307725,-11.455781
11.185,2.0,1.0,1.0,33.7,34.4,34.4,1.7,2.7,2.76,-0.2790779219287387,-0.20748431286256858,0.8028214128127731,-0.18924202329504422,-1.412182,-11.031307
11.185,2.0,1.0,1.0,33.7,34.4,34.4,1.7,2.7,2.7625,-0.2984691300704058,-0.21035613343191795,0.7836221341834269,-0.20703556891057426,-1.529536,-10.599149
11.185,2.0,1.0,1.0,33.7,34.4,34.4,1.7,2.7,2.765,-0.3172528888771063,-0.21239754442817174,0.7624955329403662,-0.22645040956093582,-1.661845,-10.159567
11.185,2.0,1.0,1.0,33.7,34.4,34.4,1.7,2.7,2.7675,-0.33519156734741534,-0.21336890983932336,0.739313398523952,-0.24760083112873899,-1.811557,-9.712968
11.185,2.0,1.0,1.0,33.7,34.4,34.4,1.7,2.7,2.77,-0.35199655655443196,-0.2129798062892962,0.7139592529093339,-0.270588538005967,-1.981578,-9.259938
11.185,2.0,1.0,1.0,33.7,34.4,34.4,1.7,2.7,2.7725,-0.36732066586926726,-0.21088148276258553,0.6863392418626656,-0.2954916930603933,-2.175374,-8.801296
11.185,2.0,1.0,1.0,33.7,34.4,34.4,1.7,2.7,2.775,-0.3807511730314647,-0.20665999274020774,0.6563971848433721,-0.3223497994275694,-2.397067,-8.338135
11.185,2.0,1.0,1.0,33.7,34.4,34.4,1.7,2.7,2.7775,-0.39180485076687827,-0.19983132504732867,0.6241347133100935,-0.35114349962179714,-2.65156,-7.871885
11.185,2.0,1.0,1.0,33.7,34.4,34.4,1.7,2.7,2.78,-0.39992701022299554,-0.18984057642306826,0.5896372590324367,-0.38176853840330494,-2.944667,-7.40438
11.185,2.0,1.0,1.0,33.7,34.4,34.4,1.7,2.7,2.7825,-0.40449749101877613,-0.17606809602404128,0.5531061331017424,-0.41400366010845513,-3.283231,-6.937916
11.185,2.0,1.0,1.0,33.7,34.4,34.4,1.7,2.7,2.785,-0.4048474777132698,-0.15784647746468855,0.5148958491038947,-0.44747330179248473,-3.675233,-6.475322
11.185,2.0,1.0,1.0,33.7,34.4,34.4,1.7,2.7,2.7875,-0.40029175379590237,-0.1344929975555152,0.47555395931892713,-0.4816078303930797,-4.129797,-6.020001
11.185,2.0,1.0,1.0,33.7,34.4,34.4,1.7,2.7,2.79,-0.39018099108499005,-0.10536207642958534,0.43585784967133084,-0.5156068942030104,-4.657032,-5.575961
11.185,2.0,1.0,1.0,33.7,34.4,34.4,1.7,2.7,2.7925,-0.3739771162338403,-0.0699207637225954,0.3968393387612588,-0.5484150517853952,-5.267462,-5.147785
11.185,2.0,1.0,1.0,33.7,34.4,34.4,1.7,2.7,2.795,-0.35135076790697345,-0.027846214370894597,0.35978432368282026,-0.5787224265774068,-5.970647,-4.740551
11.185,2.0,1.0,1.0,33.7,34.4,34.4,1.7,2.7,2.7975,-0.32229275928471146,0.02086298643479178,0.3261927832227871,-0.6050050382491622,-6.772137,-4.359659
11.185,2.0,1.0,1.0,33.7,34.4,34.4,1.7,2.7,2.8,-0.2872218629881586,0.07577937455199374,0.2976866914898374,-0.6256171815779271,-7.667151,-4.010571
11.185,2.0,1.0,1.0,33.7,34.4,34.4,1.7,2.7,2.8025,-0.2470618234600134,0.13597013265112473,0.27586226740807857,-0.6389393165445425,-8.628373,-3.698455
11.185,2.0,1.0,1.0,33.7,34.4,34.4,1.7,2.7,2.805,-0.20325627126854467,0.19998285318847905,0.26209898581515056,-0.6435689218864288,-9.585718,-3.427776
11.185,2.0,1.0,1.0,33.7,34.4,34.4,1.7,2.7,2.8075,-0.1576967939124088,0.26591814535111763,0.25735724083234385,-0.6385223330039179,-10.404767,-3.201877
11.185,2.0,1.0,1.0,33.7,34.4,34.4,1.7,2.7,2.81,-0.11255924802281027,0.331593811078658,0.26201117131927343,-0.6234010508600851,-10.898056,-3.022622
11.185,2.0,1.0,1.0,33.7,34.4,34.4,1.7,2.7,2.8125,-0.0700718072165276,0.394776915950286,0.275763290924026,-0.598475989384613,-10.917539,-2.89018
11.185,2.0,1.0,1.0,33.7,34.4,34.4,1.7,2.7,2.815,-0.03226338429926068,0.453435020717635,0.29766876353707755,-0.5646620235365877,-10.474612,-2.802988
11.185,2.0,1.0,1.0,33.7,34.4,34.4,1.7,2.7,2.8175,-0.0007499625164995565,0.5059490735913198,0.32626521263686387,-0.5233871752156041,-9.728562,-2.757908
11.185,2.0,1.0,1.0,33.7,34.4,34.4,1.7,2.7,2.82,0.02339634393189968,0.5512432952152863,0.3597730191204519,-0.47639164505535936,-8.861101,-2.750542
11.185,2.0,1.0,1.0,33.7,34.4,34.4,1.7,2.7,2.8225,0.03967858737681882,0.5888153473989106,0.39631503231430876,-0.4255078106281738,-7.995873,-2.775632
11.185,2.0,1.0,1.0,33.7,34.4,34.4,1.7,2.7,2.825,0.04811906568048166,0.618679384944755,0.4341084462560104,-0.3724683692949121,-7.195,-2.827483
11.185,2.0,1.0,1.0,33.7,34.4,34.4,1.7,2.7,2.8275,0.049147358957411805,0.6412532623191596,0.47159965549669597,-0.3187716747188367,-6.481618,-2.900341
11.185,2.0,1.0,1.0,33.7,34.4,34.4,1.7,2.7,2.83,0.0434675840872846,0.6572251621500338,0.5075345297569709,-0.2656116834726374,-5.858949,-2.988687
