1,w,sub_t,h,l1,l2,l3,g1,g2,Freq,S11_re,S21_re,S11_img,S21_img,S11_dB,S21_dB
11.185,2.0,1.0,1.0,33.6,34.6,34.6,4.2,3.9,2.5,0.836501858364116,-0.00584358292826248,0.536319970545215,0.0034190855521879,-0.055181,-43.387781
11.185,2.0,1.0,1.0,33.6,34.6,34.6,4.2,3.9,2.5025,0.8328438258404641,-0.005959953343066394,0.5418673375860714,0.0034256267696348196,-0.055733,-43.255434
11.185,2.0,1.0,1.0,33.6,34.6,34.6,4.2,3.9,2.505,0.829132538824639,-0.0060786075271852345,0.5474124703239789,0.00343148804504224,-0.056295,-43.122519
11.185,2.0,1.0,1.0,33.6,34.6,34.6,4.2,3.9,2.5075,0.8253674614261312,-0.006199605615197628,0.5529551017886578,0.0034366423214320495,-0.056869,-42.989018
11.185,2.0,1.0,1.0,33.6,34.6,34.6,4.2,3.9,2.51,0.8215480484549711,-0.0063230100133527724,0.558494957026672,0.0034410613879277355,-0.057454,-42.854912
11.185,2.0,1.0,1.0,33.6,34.6,34.6,4.2,3.9,2.5125,0.817673745212996,-0.006448885511755929,0.5640317528335963,0.0034447158185896163,-0.058051,-42.720182
11.185,2.0,1.0,1.0,33.6,34.6,34.6,4.2,3.9,2.515,0.8137439872775584,-0.006577299403369373,0.5695651974761087,0.0034475749072835444,-0.05866,-42.584809
11.185,2.0,1.0,1.0,33.6,34.6,34.6,4.2,3.9,2.5175,0.8097582002772185,-0.006708321610317406,0.5750949904035012,0.003449606598276165,-0.059282,-42.448773
11.185,2.0,1.0,1.0,33.6,34.6,34.6,4.2,3.9,2.52,0.8057157996589073,-0.006842024818025165,0.5806208219481033,0.0034507774122224067,-0.059916,-42.312053
11.185,2.0,1.0,1.0,33.6,34.6,34.6,4.2,3.9,2.5225,0.8016161904460354,-0.006978484617764329,0.5861423730140322,0.003451052367180767,-0.060564,-42.174628
11.185,2.0,1.0,1.0,33.6,34.6,34.6,4.2,3.9,2.525,0.7974587669869381,-0.0071177796582275405,0.5916593147536898,0.003450394894258341,-0.061225,-42.036476
11.185,2.0,1.0,1.0,33.6,34.6,34.6,4.2,3.9,2.5275,0.7932429126930238,-0.007259991806806052,0.5971713082313455,0.0034487667474506958,-0.061901,-41.897576
11.185,2.0,1.0,1.0,33.6,34.6,34.6,4.2,3.9,2.53,0.7889679997659317,-0.007405206321302767,0.6026780040731217,0.0034461279072007813,-0.062591,-41.757903
11.185,2.0,1.0,1.0,33.6,34.6,34.6,4.2,3.9,2.5325,0.7846333889129348,-0.007553512032876598,0.6081790421026311,0.0034424364771563102,-0.063296,-41.617435
11.185,2.0,1.0,1.0,33.6,34.6,34.6,4.2,3.9,2.535,0.780238429049764,-0.007705001541083956,0.6136740509614745,0.003437648573554511,-0.064016,-41.476147
11.185,2.0,1.0,1.0,33.6,34.6,34.6,4.2,3.9,2.5375,0.7757824569899535,-0.007859771421959035,0.6191626477137172,0.0034317182066084567,-0.064752,-41.334014
11.185,2.0,1.0,1.0,33.6,34.6,34.6,4.2,3.9,2.54,0.7712647971197275,-0.008017922450159979,0.624644437433432,0.0034245971532068584,-0.065505,-41.19101
11.185,2.0,1.0,1.0,33.6,34.6,34.6,4.2,3.9,2.5425,0.7666847610573475,-0.008179559836299812,0.6301190127742876,0.0034162348201715533,-0.066275,-41.047109
11.185,2.0,1.0,1.0,33.6,34.6,34.6,4.2,3.9,2.545,0.7620416472957529,-0.008344793480683892,0.635585953520091,0.0034065780972406022,-0.067062,-40.902282
11.185,2.0,1.0,1.0,33.6,34.6,34.6,4.2,3.9,2.5475,0.7573347408272137,-0.008513738244788108,0.641044826115103,0.0033955711988599637,-0.067868,-40.756502
11.185,2.0,1.0,1.0,33.6,34.6,34.6,4.2,3.9,2.55,0.7525633127485777,-0.008686514241937334,0.6464951831728367,0.003383155493772813,-0.068692,-40.609739
11.185,2.0,1.0,1.0,33.6,34.6,34.6,4.2,3.9,2.5525,0.7477266198455846,-0.008863247148780241,0.6519365629619296,0.0033692693212893643,-0.069535,-40.461962
11.185,2.0,1.0,1.0,33.6,34.6,34.6,4.2,3.9,2.555,0.7428239041545452,-0.009044068539310517,0.6573684888675709,0.003353847793002812,-0.070399,-40.313141
11.185,2.0,1.0,1.0,33.6,34.6,34.6,4.2,3.9,2.5575,0.7378543924995242,-0.009229116243352396,0.6627904688268116,0.0033368225785841005,-0.071284,-40.163242
11.185,2.0,1.0,1.0,33.6,34.6,34.6,4.2,3.9,2.56,0.7328172960029928,-0.009418534731616123,0.6682019947359211,0.0033181216741410466,-0.07219,-40.012233
11.185,2.0,1.0,1.0,33.6,34.6,34.6,4.2,3.9,2.5625,0.72771180956769,-0.00961247552963719,0.673602541827794,0.00329766915146021,-0.073118,-39.860077
11.185,2.0,1.0,1.0,33.6,34.6,34.6,4.2,3.9,2.565,0.7225371113272124,-0.00981109766314446,0.6789915680172098,0.0032753848862636112,-0.07407,-39.706739
11.185,2.0,1.0,1.0,33.6,34.6,34.6,4.2,3.9,2.5675,0.7172923620626032,-0.010014568137659446,0.6843685132115079,0.0032511842634017248,-0.075045,-39.552182
11.185,2.0,1.0,1.0,33.6,34.6,34.6,4.2,3.9,2.57,0.7119767045819099,-0.01022306245541627,0.6897327985840318,0.003224977856666462,-0.076046,-39.396366
11.185,2.0,1.0,1.0,33.6,34.6,34.6,4.2,3.9,2.5725,0.7065892630593691,-0.010436765173011852,0.6950838258073729,0.0031966710806410063,-0.077073,-39.23925
11.185,2.0,1.0,1.0,33.6,34.6,34.6,4.2,3.9,2.575,0.7011291423305225,-0.010655870503553232,0.7004209762431656,0.003166163811698635,-0.078126,-39.080793
11.185,2.0,1.0,1.0,33.6,34.6,34.6,4.2,3.9,2.5775,0.695595427139163,-0.010880582967469347,0.7057436100848135,0.0031333499749208946,-0.079208,-38.920951
11.185,2.0,1.0,1.0,33.6,34.6,34.6,4.2,3.9,2.58,0.6899871813315643,-0.011111118096601718,0.7110510654491188,0.003098117093314774,-0.080319,-38.759679
11.185,2.0,1.0,1.0,33.6,34.6,34.6,4.2,3.9,2.5825,0.6843034469929391,-0.011347703196692137,0.7163426574123617,0.003060345795266281,-0.08146,-38.596929
11.185,2.0,1.0,1.0,33.6,34.6,34.6,4.2,3.9,2.585,0.6785432435205125,-0.011590578173948814,0.7216176769858172,0.0030199092756635812,-0.082633,-38.432651
11.185,2.0,1.0,1.0,33.6,34.6,34.6,4.2,3.9,2.5875,0.672705566626952,-0.011839996432007093,0.7268753900251514,0.0029766727055474417,-0.083838,-38.266794
11.185,2.0,1.0,1.0,33.6,34.6,34.6,4.2,3.9,2.59,0.6667893872671844,-0.01209622584631608,0.732115036067438,0.002930492584490617,-0.085079,-38.099305
11.185,2.0,1.0,1.0,33.6,34.6,34.6,4.2,3.9,2.5925,0.6607936504808096,-0.012359549823788252,0.7373358270887946,0.00288121602915453,-0.086355,-37.930126
11.185,2.0,1.0,1.0,33.6,34.6,34.6,4.2,3.9,2.595,0.6547172741414217,-0.01263026845645929,0.7425369461747351,0.0028286799906101843,-0.087669,-37.759201
11.185,2.0,1.0,1.0,33.6,34.6,34.6,4.2,3.9,2.5975,0.6485591476030829,-0.012908699778936725,0.7477175460943644,0.0027727103920179015,-0.089022,-37.586467
11.185,2.0,1.0,1.0,33.6,34.6,34.6,4.2,3.9,2.6,0.6423181302330445,-0.013195181140582239,0.7528767477683598,0.002713121177120072,-0.090417,-37.41186
11.185,2.0,1.0,1.0,33.6,34.6,34.6,4.2,3.9,2.6025,0.6359930498184662,-0.013490070704696872,0.7580136386193604,0.0026497132586829966,-0.091854,-37.235313
11.185,2.0,1.0,1.0,33.6,34.6,34.6,4.2,3.9,2.605,0.6295827008333492,-0.013793749088485515,0.7631272707918568,0.0025822733545016116,-0.093337,-37.056757
11.185,2.0,1.0,1.0,33.6,34.6,34.6,4.2,3.9,2.6075,0.6230858425501918,-0.01410662115929027,0.7682166592268904,0.0025105726968153996,-0.094868,-36.876116
11.185,2.0,1.0,1.0,33.6,34.6,34.6,4.2,3.9,2.61,0.616501196978886,-0.01442911800453853,0.7732807795747999,0.0024343655989336236,-0.096448,-36.693314
11.185,2.0,1.0,1.0,33.6,34.6,34.6,4.2,3.9,2.6125,0.6098274466131134,-0.014761699095085458,0.7783185659268751,0.002353387860481362,-0.09808,-36.50827
11.185,2.0,1.0,1.0,33.6,34.6,34.6,4.2,3.9,2.615,0.6030632319619207,-0.015104854664188372,0.7833289083439633,0.002267354989891387,-0.099768,-36.320899
11.185,2.0,1.0,1.0,33.6,34.6,34.6,4.2,3.9,2.6175,0.5962071488411881,-0.015459108327281652,0.7883106501568049,0.002175960219508323,-0.101514,-36.131109
11.185,2.0,1.0,1.0,33.6,34.6,34.6,4.2,3.9,2.62,0.5892577453962925,-0.015825019971090353,0.793262585009054,0.0020788722848484997,-0.103321,-35.938807
11.185,2.0,1.0,1.0,33.6,34.6,34.6,4.2,3.9,2.6225,0.5822135188233369,-0.016203188944495798,0.7981834536094341,0.0019757329350620217,-0.105193,-35.743894
11.185,2.0,1.0,1.0,33.6,34.6,34.6,4.2,3.9,2.625,0.575072911751822,-0.0165942575880365,0.803071940154155,0.00186615413634241,-0.107133,-35.546264
11.185,2.0,1.0,1.0,33.6,34.6,34.6,4.2,3.9,2.6275,0.5678343082463564,-0.016998915144092377,0.8079266683744762,0.0017497149237579463,-0.109146,-35.345805
11.185,2.0,1.0,1.0,33.6,34.6,34.6,4.2,3.9,2.63,0.5604960293789959,-0.017417902095775692,0.812746197156836,0.0016259578495412257,-0.111236,-35.142402
11.185,2.0,1.0,1.0,33.6,34.6,34.6,4.2,3.9,2.6325,0.5530563283167474,-0.0178520149894867,0.8175290156741462,0.0014943849670265494,-0.113407,-34.935929
11.185,2.0,1.0,1.0,33.6,34.6,34.6,4.2,3.9,2.635,0.5455133848606174,-0.018302111804147484,0.8222735379562927,0.0013544532788643776,-0.115665,-34.726255
11.185,2.0,1.0,1.0,33.6,34.6,34.6,4.2,3.9,2.6375,0.537865299363078,-0.018769117939510076,0.826978096815267,0.0012055695655019511,-0.118015,-34.513242
11.185,2.0,1.0,1.0,33.6,34.6,34.6,4.2,3.9,2.64,0.5301100859397015,-0.019254032906884048,0.8316409370251948,0.0010470844947318837,-0.120464,-34.296741
11.185,2.0,1.0,1.0,33.6,34.6,34.6,4.2,3.9,2.6425,0.5222456648777571,-0.019757937818427974,0.8362602076392605,0.0008782858948064723,-0.123017,-34.076594
11.185,2.0,1.0,1.0,33.6,34.6,34.6,4.2,3.9,2.645,0.5142698541293258,-0.02028200378614735,0.8408339533034448,0.0006983910514697323,-0.125683,-33.852636
11.185,2.0,1.0,1.0,33.6,34.6,34.6,4.2,3.9,2.6475,0.5061803597586338,-0.020827501359346936,0.8453601044001471,0.0005065378623684559,-0.128469,-33.624689
11.185,2.0,1.0,1.0,33.6,34.6,34.6,4.2,3.9,2.65,0.4979747651922563,-0.021395811149994087,0.8498364658221161,0.00030177464952451456,-0.131383,-33.392561
11.185,2.0,1.0,1.0,33.6,34.6,34.6,4.2,3.9,2.6525,0.4896505190961061,-0.021988435819849977,0.8542607041370628,8.304839043223294e-05,-0.134437,-33.156051
11.185,2.0,1.0,1.0,33.6,34.6,34.6,4.2,3.9,2.655,0.48120492167378454,-0.022607013632035423,0.8586303328542166,-0.0001508089209638988,-0.13764,-32.914943
11.185,2.0,1.0,1.0,33.6,34.6,34.6,4.2,3.9,2.6575,0.47263510914629747,-0.023253333803760833,0.8629426954433745,-0.0004010961330167292,-0.141004,-32.669004
11.185,2.0,1.0,1.0,33.6,34.6,34.6,4.2,3.9,2.66,0.46393803613207096,-0.02392935393728724,0.8671949456817835,-0.0006692614399250326,-0.144543,-32.417985
11.185,2.0,1.0,1.0,33.6,34.6,34.6,4.2,3.9,2.6625,0.45511045559755003,-0.024637219854013643,0.8713840248104573,-0.0009569240491749603,-0.148271,-32.161619
11.185,2.0,1.0,1.0,33.6,34.6,34.6,4.2,3.9,2.665,0.44614889599080376,-0.025379288213343124,0.8755066348642041,-0.0012658996496699216,-0.152204,-31.89962
11.185,2.0,1.0,1.0,33.6,34.6,34.6,4.2,3.9,2.6675,0.4370496351019232,-0.02615815236536181,0.8795592073919815,-0.001598230465449996,-0.156362,-31.631676
11.185,2.0,1.0,1.0,33.6,34.6,34.6,4.2,3.9,2.67,0.4278086701122981,-0.026976671966358064,0.8835378665974083,-0.0019562208672600136,-0.160764,-31.357455
11.185,2.0,1.0,1.0,33.6,34.6,34.6,4.2,3.9,2.6725,0.4184216831979563,-0.027838006981068766,0.8874383856916236,-0.0023424797525544313,-0.165435,-31.076595
11.185,2.0,1.0,1.0,33.6,34.6,34.6,4.2,3.9,2.675,0.40888400193723545,-0.028745656807808894,0.8912561349466203,-0.002759971209450885,-0.1704,-30.788703
11.185,2.0,1.0,1.0,33.6,34.6,34.6,4.2,3.9,2.6775,0.39919055363730743,-0.029703505395026294,0.8949860195457372,-0.0032120753726373615,-0.175691,-30.493355
11.185,2.0,1.0,1.0,33.6,34.6,34.6,4.2,3.9,2.68,0.389335812534531,-0.030715873373024505,0.8986224048208693,-0.003702661887636569,-0.18134,-30.190088
11.185,2.0,1.0,1.0,33.6,34.6,34.6,4.2,3.9,2.6825,0.3793137386377207,-0.03178757840488958,0.9021590258046329,-0.0042361790627126455,-0.187389,-29.878399
11.185,2.0,1.0,1.0,33.6,34.6,34.6,4.2,3.9,2.685,0.3691177067695539,-0.03292400516716806,0.9055888771573173,-0.004817762657969037,-0.193881,-29.557735
11.185,2.0,1.0,1.0,33.6,34.6,34.6,4.2,3.9,2.6875,0.358740424120346,-0.0341311866021803,0.908904078379915,-0.005453369411929,-0.20087,-29.227494
11.185,2.0,1.0,1.0,33.6,34.6,34.6,4.2,3.9,2.69,0.348173834365731,-0.035415898333725826,0.9120957076940327,-0.006149941938933494,-0.208417,-28.887013
11.185,2.0,1.0,1.0,33.6,34.6,34.6,4.2,3.9,2.6925,0.3374090061295112,-0.036785768390982916,0.9151535959140218,-0.006915613689033573,-0.216592,-28.535561
11.185,2.0,1.0,1.0,33.6,34.6,34.6,4.2,3.9,2.695,0.3264360033253366,-0.03824940460982594,0.918066068853558,-0.007759965448197326,-0.225481,-28.172334
11.185,2.0,1.0,1.0,33.6,34.6,34.6,4.2,3.9,2.6975,0.3152437347441353,-0.03981654221573463,0.9208196230086184,-0.008694348659879421,-0.235182,-27.796438
11.185,2.0,1.0,1.0,33.6,34.6,34.6,4.2,3.9,2.7,0.30381978027739565,-0.04149821402568804,0.9233985140238257,-0.009732296086080795,-0.245814,-27.406883
11.185,2.0,1.0,1.0,33.6,34.6,34.6,4.2,3.9,2.7025,0.29215019157657307,-0.04330694523541887,0.9257842301725574,-0.010890047602711889,-0.257517,-27.002564
11.185,2.0,1.0,1.0,33.6,34.6,34.6,4.2,3.9,2.705,0.28021926610068054,-0.04525697352129009,0.9279548128727515,-0.012187229128152809,-0.270464,-26.582249
11.185,2.0,1.0,1.0,33.6,34.6,34.6,4.2,3.9,2.7075,0.26800929603014206,-0.04736449253876219,0.9298839718039957,-0.013647737127083465,-0.284861,-26.144552
11.185,2.0,1.0,1.0,33.6,34.6,34.6,4.2,3.9,2.71,0.25550029855690004,-0.0496479116937179,0.9315399215272193,-0.01530090176571026,-0.300965,-25.687918
11.185,2.0,1.0,1.0,33.6,34.6,34.6,4.2,3.9,2.7125,0.242669743630082,-0.052128115241731623,0.9328838367007952,-0.017183031540007828,-0.319091,-25.21059
11.185,2.0,1.0,1.0,33.6,34.6,34.6,4.2,3.9,2.715,0.22949231301944317,-0.0548286856192501,0.9338677796254239,-0.019339485438522135,-0.339636,-24.710575
11.185,2.0,1.0,1.0,33.6,34.6,34.6,4.2,3.9,2.7175,0.21593975727184922,-0.057776022654387936,0.9344318903164488,-0.021827482003026533,-0.363099,-24.185615
11.185,2.0,1.0,1.0,33.6,34.6,34.6,4.2,3.9,2.72,0.20198097719691366,-0.06099922943778369,0.9345005357544581,-0.024719947759525535,-0.390122,-23.633134
11.185,2.0,1.0,1.0,33.6,34.6,34.6,4.2,3.9,2.7225,0.18758256718351898,-0.06452952376692633,0.9339769771155664,-0.028110844514329707,-0.421533,-23.050195
11.185,2.0,1.0,1.0,33.6,34.6,34.6,4.2,3.9,2.725,0.17271026307914275,-0.06839872686295018,0.9327359120059331,-0.032122615220061025,-0.458419,-22.43345
11.185,2.0,1.0,1.0,33.6,34.6,34.6,4.2,3.9,2.7275,0.15733212253061862,-0.07263599327956267,0.930612959528221,-0.03691667432426727,-0.502228,-21.779086
11.185,2.0,1.0,1.0,33.6,34.6,34.6,4.2,3.9,2.73,0.14142499596398805,-0.07726121196321077,0.9273897623801853,-0.042708256381863666,-0.554913,-21.082792
11.185,2.0,1.0,1.0,33.6,34.6,34.6,4.2,3.9,2.7325,0.1249872457077111,-0.08227210437876016,0.9227729104787717,-0.04978739521428113,-0.61915,-20.339764
11.185,2.0,1.0,1.0,33.6,34.6,34.6,4.2,3.9,2.735,0.10806337097290897,-0.08761934089181068,0.9163645433888196,-0.05854813115123986,-0.698655,-19.544802
11.185,2.0,1.0,1.0,33.6,34.6,34.6,4.2,3.9,2.7375,0.09079139619324908,-0.09315879786405808,0.9076230080314496,-0.06952748167774918,-0.798649,-18.6926
11.185,2.0,1.0,1.0,33.6,34.6,34.6,4.2,3.9,2.74,0.07349366733877158,-0.0985603155797292,0.8958157025860422,-0.08345187368623501,-0.926493,-17.778469
11.185,2.0,1.0,1.0,33.6,34.6,34.6,4.2,3.9,2.7425,0.05684881724426419,-0.1031353044392917,0.8799801656981824,-0.10127465815057748,-1.092455,-16.799899
11.185,2.0,1.0,1.0,33.6,34.6,34.6,4.2,3.9,2.745,0.042206402506241934,-0.10552214181581478,0.8589522454642314,-0.12414533108818201,-1.310146,-15.759848
11.185,2.0,1.0,1.0,33.6,34.6,34.6,4.2,3.9,2.7475,0.03211053250415969,-0.10316441947933847,0.8316344574022786,-0.15313669890598783,-1.594881,-14.673253
11.185,2.0,1.0,1.0,33.6,34.6,34.6,4.2,3.9,2.75,0.030956461093147,-0.0916615312208644,0.797919913964517,-0.188314970037913,-1.954282,-13.578882
11.185,2.0,1.0,1.0,33.6,34.6,34.6,4.2,3.9,2.7525,0.045025998896545655,-0.06475151704054843,0.7609166800955782,-0.22651371073124804,-2.358078,-12.556975
11.185,2.0,1.0,1.0,33.6,34.6,34.6,4.2,3.9,2.755,0.07959129494078723,-0.017235360091042675,0.7301424614336895,-0.2581609663156839,-2.680546,-11.742874
11.185,2.0,1.0,1.0,33.6,34.6,34.6,4.2,3.9,2.7575,0.13109713810232992,0.04720593488172047,0.7208554773126424,-0.2680131309336748,-2.701721,-11.304196
11.185,2.0,1.0,1.0,33.6,34.6,34.6,4.2,3.9,2.76,0.1821832208024125,0.11112566146014174,0.7425000535908491,-0.24675755418956014,-2.332177,-11.352623
11.185,2.0,1.0,1.0,33.6,34.6,34.6,4.2,3.9,2.7625,0.21361466530213755,0.15534658242526891,0.7869099816251863,-0.20271817654020363,-1.772707,-11.855711
11.185,2.0,1.0,1.0,33.6,34.6,34.6,4.2,3.9,2.765,0.22024439808633697,0.17486550520423644,0.8365134346705562,-0.15351391478975063,-1.259461,-12.664459
11.185,2.0,1.0,1.0,33.6,34.6,34.6,4.2,3.9,2.7675,0.20882918217867721,0.17654332260683003,0.8794477700296807,-0.11095262138352142,-0.877577,-13.617302
11.185,2.0,1.0,1.0,33.6,34.6,34.6,4.2,3.9,2.77,0.1878710413646352,0.1689169115515009,0.9123961804415847,-0.07827649079318169,-0.615992,-14.601698
11.185,2.0,1.0,1.0,33.6,34.6,34.6,4.2,3.9,2.7725,0.16305843082489319,0.1576721664019582,0.9363953017416397,-0.05439453445584084,-0.441083,-15.556542
11.185,2.0,1.0,1.0,33.6,34.6,34.6,4.2,3.9,2.775,0.13733990364589999,0.14574485969887976,0.9535443765549575,-0.03717473605752807,-0.32401,-16.454397
11.185,2.0,1.0,1.0,33.6,34.6,34.6,4.2,3.9,2.7775,0.11201895131721785,0.13442666328179162,0.9657297731288302,-0.024711230315988906,-0.244844,-17.285959
11.185,2.0,1.0,1.0,33.6,34.6,34.6,4.2,3.9,2.78,0.0875726939996863,0.12418653542733499,0.9743592008980391,-0.015583461145666496,-0.190677,-18.050657
11.185,2.0,1.0,1.0,33.6,34.6,34.6,4.2,3.9,2.7825,0.0641010420508701,0.11511971804737857,0.980417196135176,-0.008796920339214045,-0.153256,-18.75172
11.185,2.0,1.0,1.0,33.6,34.6,34.6,4.2,3.9,2.785,0.04154623968468212,0.10716651307719387,0.984577945140305,-0.0036684000255232875,-0.127272,-19.393732
11.185,2.0,1.0,1.0,33.6,34.6,34.6,4.2,3.9,2.7875,0.01979417660703652,0.10021289575191276,0.9873019158821338,0.00027158784865053895,-0.109255,-19.981496
11.185,2.0,1.0,1.0,33.6,34.6,34.6,4.2,3.9,2.79,-0.0012809939860271317,0.0941346311573331,0.988905239099532,0.0033486678551262277,-0.096899,-20.519519
11.185,2.0,1.0,1.0,33.6,34.6,34.6,4.2,3.9,2.7925,-0.021798546017380606,0.08881525863453456,0.9896066077281132,0.005791756850020125,-0.088642,-21.011819
11.185,2.0,1.0,1.0,33.6,34.6,34.6,4.2,3.9,2.795,-0.041864792469942444,0.08415228612536237,0.989558355145399,0.0077643041484133785,-0.083406,-21.461867
11.185,2.0,1.0,1.0,33.6,34.6,34.6,4.2,3.9,2.7975,-0.06157192037843346,0.08005825461178341,0.9888669984729467,0.009384963205589502,-0.080438,-21.872603
11.185,2.0,1.0,1.0,33.6,34.6,34.6,4.2,3.9,2.8,-0.08099896344033465,0.07645973164033362,0.9876068926707247,0.010741371316167352,-0.079203,-22.246468
11.185,2.0,1.0,1.0,33.6,34.6,34.6,4.2,3.9,2.8025,-0.10021351382059715,0.07329561563046048,0.9858293855790947,0.011899444427498646,-0.079317,-22.585455
11.185,2.0,1.0,1.0,33.6,34.6,34.6,4.2,3.9,2.805,-0.11927356092818236,0.07051535345488752,0.9835690135634055,0.012909737701071884,-0.080503,-22.891149
11.185,2.0,1.0,1.0,33.6,34.6,34.6,4.2,3.9,2.8075,-0.13822920951622555,0.06807731408928007,0.9808477266287782,0.013811869641536422,-0.082559,-23.164767
11.185,2.0,1.0,1.0,33.6,34.6,34.6,4.2,3.9,2.81,-0.15712419603467442,0.06594739804870114,0.9776777804676382,0.014637656313126574,-0.085339,-23.40719
11.185,2.0,1.0,1.0,33.6,34.6,34.6,4.2,3.9,2.8125,-0.175997195696239,0.0640978914782414,0.974063708793578,0.0154133795160965,-0.088736,-23.618991
11.185,2.0,1.0,1.0,33.6,34.6,34.6,4.2,3.9,2.815,-0.19488294281843066,0.06250654593864612,0.9700036452206614,0.016161471265836367,-0.092677,-23.80045
11.185,2.0,1.0,1.0,33.6,34.6,34.6,4.2,3.9,2.8175,-0.21381319726925635,0.06115585682771068,0.9654901699105854,0.01690180658991415,-0.097112,-23.951575
11.185,2.0,1.0,1.0,33.6,34.6,34.6,4.2,3.9,2.82,-0.23281759151374967,0.06003251399218183,0.9605107934296258,0.0176527389876786,-0.10201,-24.072103
11.185,2.0,1.0,1.0,33.6,34.6,34.6,4.2,3.9,2.8225,-0.2519243911698838,0.05912700227468816,0.9550481468622453,0.018431976474518257,-0.107358,-24.161508
11.185,2.0,1.0,1.0,33.6,34.6,34.6,4.2,3.9,2.825,-0.271161199641967,0.058433335193006065,0.9490799155628872,0.01925737401923754,-0.113157,-24.218996
11.185,2.0,1.0,1.0,33.6,34.6,34.6,4.2,3.9,2.8275,-0.2905556354650525,0.0579489107138787,0.9425785288347083,0.0201477062932148,-0.119421,-24.243497
