1,w,sub_t,h,l1,l2,l3,g1,g2,Freq,S11_re,S21_re,S11_img,S21_img,S11_dB,S21_dB
11.185,2.0,1.0,1.0,33.2,33.4,33.4,4.1,3.3,2.5,0.882916139471304,-0.00437614145909727,0.457666023206219,0.00351245850320018,-0.048041,-45.018552
11.185,2.0,1.0,1.0,33.2,33.4,33.4,4.1,3.3,2.5025,0.879988522256592,-0.004462555433604445,0.4631749478016429,0.003525580669920754,-0.048429,-44.902047
11.185,2.0,1.0,1.0,33.2,33.4,33.4,4.1,3.3,2.505,0.8770150617309722,-0.004550343750912568,0.4686851471404617,0.0035382178893470927,-0.048822,-44.785401
11.185,2.0,1.0,1.0,33.2,33.4,33.4,4.1,3.3,2.5075,0.873995344783101,-0.0046395297223813465,0.4741964466832033,0.0035503527164486076,-0.049222,-44.668607
11.185,2.0,1.0,1.0,33.2,33.4,33.4,4.1,3.3,2.51,0.8709289520375308,-0.004730137164402412,0.4797086668351829,0.003561967148439289,-0.049629,-44.551657
11.185,2.0,1.0,1.0,33.2,33.4,33.4,4.1,3.3,2.5125,0.867815457760794,-0.004822190411518667,0.485221622786589,0.0035730426047777737,-0.050041,-44.434544
11.185,2.0,1.0,1.0,33.2,33.4,33.4,4.1,3.3,2.515,0.8646544297664388,-0.004915714329942758,0.4907351243476508,0.003583559906366461,-0.050461,-44.317261
11.185,2.0,1.0,1.0,33.2,33.4,33.4,4.1,3.3,2.5175,0.8614454293190291,-0.0050107343314893275,0.49624897577870875,0.00359349925391343,-0.050887,-44.199799
11.185,2.0,1.0,1.0,33.2,33.4,33.4,4.1,3.3,2.52,0.8581880110371114,-0.005107276387936555,0.501762975615041,0.0036028402054189973,-0.05132,-44.082152
11.185,2.0,1.0,1.0,33.2,33.4,33.4,4.1,3.3,2.5225,0.8548817227951783,-0.005205367045831726,0.5072769164862542,0.003611561652746795,-0.05176,-43.96431
11.185,2.0,1.0,1.0,33.2,33.4,33.4,4.1,3.3,2.525,0.8515261056246297,-0.005305033441758571,0.5127905849300773,0.0036196417972373662,-0.052207,-43.846267
11.185,2.0,1.0,1.0,33.2,33.4,33.4,4.1,3.3,2.5275,0.8481206936137551,-0.005406303318082535,0.5183037612003712,0.003627058124319609,-0.052661,-43.728015
11.185,2.0,1.0,1.0,33.2,33.4,33.4,4.1,3.3,2.53,0.844665013806758,-0.005509205039192461,0.5238162190691557,0.0036337873770735762,-0.053123,-43.609545
11.185,2.0,1.0,1.0,33.2,33.4,33.4,4.1,3.3,2.5325,0.8411585861018424,-0.005613767608256925,0.5293277256224653,0.0036398055286952836,-0.053593,-43.49085
11.185,2.0,1.0,1.0,33.2,33.4,33.4,4.1,3.3,2.535,0.8376009231483816,-0.005720020684515533,0.5348380410498309,0.003645087753811666,-0.05407,-43.371921
11.185,2.0,1.0,1.0,33.2,33.4,33.4,4.1,3.3,2.5375,0.8339915302432072,-0.00582799460112477,0.5403469184271656,0.003649608398591115,-0.054556,-43.252751
11.185,2.0,1.0,1.0,33.2,33.4,33.4,4.1,3.3,2.54,0.8303299052260321,-0.00593772038358031,0.5458541034928476,0.00365334094959191,-0.055049,-43.133331
11.185,2.0,1.0,1.0,33.2,33.4,33.4,4.1,3.3,2.5425,0.8266155383740512,-0.006049229768738155,0.5513593344167667,0.0036562580012877858,-0.055551,-43.013654
11.185,2.0,1.0,1.0,33.2,33.4,33.4,4.1,3.3,2.545,0.8228479122957484,-0.006162555224457414,0.5568623415621058,0.0036583312222065612,-0.056061,-42.89371
11.185,2.0,1.0,1.0,33.2,33.4,33.4,4.1,3.3,2.5475,0.8190265018239513,-0.00627772996988997,0.5623628472395997,0.0036595313196142276,-0.05658,-42.773491
11.185,2.0,1.0,1.0,33.2,33.4,33.4,4.1,3.3,2.55,0.8151507739081673,-0.006394787996442067,0.5678605654540447,0.003659828002672907,-0.057108,-42.652989
11.185,2.0,1.0,1.0,33.2,33.4,33.4,4.1,3.3,2.5525,0.811220187506257,-0.006513764089434781,0.573355201642764,0.0036591899439973583,-0.057645,-42.532196
11.185,2.0,1.0,1.0,33.2,33.4,33.4,4.1,3.3,2.555,0.8072341934754808,-0.00663469385049149,0.5788464524057859,0.0036575847395304353,-0.058192,-42.411101
11.185,2.0,1.0,1.0,33.2,33.4,33.4,4.1,3.3,2.5575,0.8031922344629759,-0.006757613720681588,0.5843340052274448,0.003654978866652856,-0.058747,-42.289698
11.185,2.0,1.0,1.0,33.2,33.4,33.4,4.1,3.3,2.56,0.7990937447957175,-0.006882561004451502,0.5898175381891038,0.003651337640438655,-0.059313,-42.167976
11.185,2.0,1.0,1.0,33.2,33.4,33.4,4.1,3.3,2.5625,0.7949381503700267,-0.0070095738943750496,0.5952967196727099,0.003646625167961752,-0.059888,-42.045927
11.185,2.0,1.0,1.0,33.2,33.4,33.4,4.1,3.3,2.565,0.7907248685406792,-0.007138691496757438,0.6007712080548617,0.0036408043005539265,-0.060474,-41.923542
11.185,2.0,1.0,1.0,33.2,33.4,33.4,4.1,3.3,2.5675,0.786453308009698,-0.007269953858127525,0.60624065139106,0.003633836583908758,-0.06107,-41.800812
11.185,2.0,1.0,1.0,33.2,33.4,33.4,4.1,3.3,2.57,0.7821228687148876,-0.007403401992656746,0.6117046870898096,0.003625682205919447,-0.061677,-41.677726
11.185,2.0,1.0,1.0,33.2,33.4,33.4,4.1,3.3,2.5725,0.7777329417181986,-0.007539077910543209,0.6171629415762199,0.003616299942132112,-0.062294,-41.554276
11.185,2.0,1.0,1.0,33.2,33.4,33.4,4.1,3.3,2.575,0.7732829090939978,-0.007677024647401783,0.6226150299447343,0.003605647098688992,-0.062923,-41.430453
11.185,2.0,1.0,1.0,33.2,33.4,33.4,4.1,3.3,2.5775,0.7687721438173384,-0.007817286294704113,0.628060555600616,0.003593679452627934,-0.063563,-41.306245
11.185,2.0,1.0,1.0,33.2,33.4,33.4,4.1,3.3,2.58,0.7642000096523229,-0.007959908031313035,0.6334991098897885,0.0035803511893972126,-0.064215,-41.181644
11.185,2.0,1.0,1.0,33.2,33.4,33.4,4.1,3.3,2.5825,0.7595658610406562,-0.008104936156159816,0.6389302717166299,0.0035656148374351754,-0.064879,-41.05664
11.185,2.0,1.0,1.0,33.2,33.4,33.4,4.1,3.3,2.585,0.7548690429904997,-0.008252418122113381,0.6443536071492846,0.003549421199655411,-0.065555,-40.931222
11.185,2.0,1.0,1.0,33.2,33.4,33.4,4.1,3.3,2.5875,0.7501088909657347,-0.008402402571095228,0.6497686690120634,0.003531719281668205,-0.066243,-40.80538
11.185,2.0,1.0,1.0,33.2,33.4,33.4,4.1,3.3,2.59,0.7452847307757625,-0.008554939370494539,0.6551749964644542,0.003512456216557741,-0.066945,-40.679103
11.185,2.0,1.0,1.0,33.2,33.4,33.4,4.1,3.3,2.5925,0.7403958784659581,-0.008710079650942275,0.6605721145662794,0.003491577186023913,-0.067659,-40.552381
11.185,2.0,1.0,1.0,33.2,33.4,33.4,4.1,3.3,2.595,0.7354416402089262,-0.008867875845505118,0.6659595338284817,0.0034690253376847124,-0.068388,-40.425203
11.185,2.0,1.0,1.0,33.2,33.4,33.4,4.1,3.3,2.5975,0.7304213121966912,-0.009028381730364615,0.6713367497490403,0.0034447416983220906,-0.06913,-40.297558
11.185,2.0,1.0,1.0,33.2,33.4,33.4,4.1,3.3,2.6,0.7253341805339715,-0.009191652467048764,0.6767032423334544,0.0034186650828402216,-0.069886,-40.169435
11.185,2.0,1.0,1.0,33.2,33.4,33.4,4.1,3.3,2.6025,0.7201795211327134,-0.009357744646288045,0.6820584755992383,0.0033907319986897157,-0.070657,-40.040822
11.185,2.0,1.0,1.0,33.2,33.4,33.4,4.1,3.3,2.605,0.7149565996080328,-0.009526716333571383,0.6874018970638368,0.003360876545495047,-0.071443,-39.911708
11.185,2.0,1.0,1.0,33.2,33.4,33.4,4.1,3.3,2.6075,0.7096646711757573,-0.009698627116481501,0.692732937215344,0.0033290303096047322,-0.072244,-39.78208
11.185,2.0,1.0,1.0,33.2,33.4,33.4,4.1,3.3,2.61,0.7043029805517537,-0.009873538153893847,0.6980510089653783,0.0032951222532652154,-0.073061,-39.651928
11.185,2.0,1.0,1.0,33.2,33.4,33.4,4.1,3.3,2.6125,0.698870761853237,-0.01005151222712708,0.703355507083448,0.0032590785980985775,-0.073894,-39.521238
11.185,2.0,1.0,1.0,33.2,33.4,33.4,4.1,3.3,2.615,0.693367238502271,-0.010232613793139108,0.7086458076121038,0.0032208227025425362,-0.074743,-39.389998
11.185,2.0,1.0,1.0,33.2,33.4,33.4,4.1,3.3,2.6175,0.6877916231316804,-0.010416909039866412,0.7139212672621376,0.0031802749328873623,-0.07561,-39.258196
11.185,2.0,1.0,1.0,33.2,33.4,33.4,4.1,3.3,2.62,0.682143117493613,-0.01060446594381145,0.7191812227870634,0.003137352527519045,-0.076494,-39.125818
11.185,2.0,1.0,1.0,33.2,33.4,33.4,4.1,3.3,2.6225,0.6764209123709796,-0.010795354329987001,0.7244249903360808,0.0030919694539498013,-0.077396,-38.992851
11.185,2.0,1.0,1.0,33.2,33.4,33.4,4.1,3.3,2.625,0.670624187492053,-0.0109896459343336,0.729651864784658,0.00304403625818812,-0.078316,-38.859281
11.185,2.0,1.0,1.0,33.2,33.4,33.4,4.1,3.3,2.6275,0.6647521114484709,-0.01118741446873303,0.7348611190418755,0.002993459905967343,-0.079256,-38.725095
11.185,2.0,1.0,1.0,33.2,33.4,33.4,4.1,3.3,2.63,0.6588038416169428,-0.011388735688745667,0.7400520033335789,0.002940143615317769,-0.080214,-38.590279
11.185,2.0,1.0,1.0,33.2,33.4,33.4,4.1,3.3,2.6325,0.65277852408495,-0.011593687464209673,0.7452237444603825,0.0028839866799287087,-0.081193,-38.454818
11.185,2.0,1.0,1.0,33.2,33.4,33.4,4.1,3.3,2.635,0.6466752935807543,-0.01180234985284493,0.750375545029488,0.002824884282706704,-0.082193,-38.318697
11.185,2.0,1.0,1.0,33.2,33.4,33.4,4.1,3.3,2.6375,0.6404932734080493,-0.012014805177014701,0.7555065826592388,0.0027627272988913023,-0.083213,-38.181901
11.185,2.0,1.0,1.0,33.2,33.4,33.4,4.1,3.3,2.64,0.6342315753855795,-0.012231138103806216,0.760616009155293,0.002697402088041733,-0.084256,-38.044415
11.185,2.0,1.0,1.0,33.2,33.4,33.4,4.1,3.3,2.6425,0.627889299792108,-0.012451435728599424,0.7657029496571931,0.002628790274155734,-0.08532,-37.906223
11.185,2.0,1.0,1.0,33.2,33.4,33.4,4.1,3.3,2.645,0.6214655353170947,-0.012675787662304263,0.770766501754091,0.0025567685131249137,-0.086408,-37.767308
11.185,2.0,1.0,1.0,33.2,33.4,33.4,4.1,3.3,2.6475,0.6149593590174929,-0.012904286122456239,0.7758057345682847,0.0024812082466691087,-0.08752,-37.627655
11.185,2.0,1.0,1.0,33.2,33.4,33.4,4.1,3.3,2.65,0.6083698362810558,-0.013137026028371055,0.7808196878051733,0.0024019754418252975,-0.088656,-37.487246
11.185,2.0,1.0,1.0,33.2,33.4,33.4,4.1,3.3,2.6525,0.6016960207966165,-0.013374105100570003,0.785807370768119,0.002318930314993201,-0.089817,-37.346064
11.185,2.0,1.0,1.0,33.2,33.4,33.4,4.1,3.3,2.655,0.5949369545317631,-0.013615623964700455,0.7907677613366644,0.0022319270394600423,-0.091004,-37.20409
11.185,2.0,1.0,1.0,33.2,33.4,33.4,4.1,3.3,2.6575,0.5880916677183977,-0.013861686260187916,0.7956998049064148,0.002140813435239944,-0.092217,-37.061307
11.185,2.0,1.0,1.0,33.2,33.4,33.4,4.1,3.3,2.66,0.5811591788466673,-0.014112398753869503,0.8006024132888248,0.002045430639968119,-0.093459,-36.917695
11.185,2.0,1.0,1.0,33.2,33.4,33.4,4.1,3.3,2.6625,0.5741384946677891,-0.014367871458871813,0.80547446356899,0.0019456127594869063,-0.094728,-36.773236
11.185,2.0,1.0,1.0,33.2,33.4,33.4,4.1,3.3,2.665,0.5670286102062909,-0.01462821775901322,0.8103147969194527,0.0018411864966461462,-0.096027,-36.62791
11.185,2.0,1.0,1.0,33.2,33.4,33.4,4.1,3.3,2.6675,0.5598285087822522,-0.014893554539021416,0.8151222173678707,0.0017319707567171726,-0.097357,-36.481695
11.185,2.0,1.0,1.0,33.2,33.4,33.4,4.1,3.3,2.67,0.5525371620441147,-0.01516400232087774,0.8198954905162787,0.0016177762276828773,-0.098717,-36.334572
11.185,2.0,1.0,1.0,33.2,33.4,33.4,4.1,3.3,2.6725,0.5451535300126771,-0.015439685406612901,0.8246333422095072,0.001498404933516933,-0.10011,-36.186518
11.185,2.0,1.0,1.0,33.2,33.4,33.4,4.1,3.3,2.675,0.5376765611369184,-0.01572073202789683,0.8293344571501459,0.0013736497584024268,-0.101536,-36.037512
11.185,2.0,1.0,1.0,33.2,33.4,33.4,4.1,3.3,2.6775,0.5301051923623139,-0.016007274502783313,0.8339974774572738,0.001243293939658803,-0.102996,-35.887531
11.185,2.0,1.0,1.0,33.2,33.4,33.4,4.1,3.3,2.68,0.5224383492123313,-0.01629944939998827,0.8386210011659562,0.0011071105269492814,-0.104492,-35.736551
11.185,2.0,1.0,1.0,33.2,33.4,33.4,4.1,3.3,2.6825,0.5146749458838474,-0.01659739771109766,0.8432035806642972,0.0009648618051225102,-0.106024,-35.584548
11.185,2.0,1.0,1.0,33.2,33.4,33.4,4.1,3.3,2.685,0.5068138853572276,-0.016901265031121403,0.8477437210645925,0.0008162986778027675,-0.107595,-35.431497
11.185,2.0,1.0,1.0,33.2,33.4,33.4,4.1,3.3,2.6875,0.498854059521866,-0.0172112017478277,0.852239878504857,0.000661160008577971,-0.109205,-35.277372
11.185,2.0,1.0,1.0,33.2,33.4,33.4,4.1,3.3,2.69,0.4907943493180207,-0.017527363240310005,0.8566904583767042,0.0004991719163434785,-0.110855,-35.122147
11.185,2.0,1.0,1.0,33.2,33.4,33.4,4.1,3.3,2.6925,0.48263362489578454,-0.01784991008725978,0.8610938134752478,0.00033004702103588504,-0.112548,-34.965795
11.185,2.0,1.0,1.0,33.2,33.4,33.4,4.1,3.3,2.695,0.4743707457921331,-0.018179008285431786,0.8654482420663034,0.00015348363563596692,-0.114284,-34.808287
11.185,2.0,1.0,1.0,33.2,33.4,33.4,4.1,3.3,2.6975,0.46600456112695776,-0.018514829478809513,0.8697519858658201,-3.0835100077712466e-05,-0.116066,-34.649594
11.185,2.0,1.0,1.0,33.2,33.4,33.4,4.1,3.3,2.7,0.4575339098191147,-0.01885755119898896,0.8740032279259857,-0.00022324214897820007,-0.117895,-34.489685
11.185,2.0,1.0,1.0,33.2,33.4,33.4,4.1,3.3,2.7025,0.4489576208235087,-0.019207357117315273,0.8782000904220049,-0.00042408757468503076,-0.119772,-34.328531
11.185,2.0,1.0,1.0,33.2,33.4,33.4,4.1,3.3,2.705,0.4402745133903367,-0.019564437309313034,0.8823406323329814,-0.0006337396142849224,-0.121699,-34.166098
11.185,2.0,1.0,1.0,33.2,33.4,33.4,4.1,3.3,2.7075,0.43148339734763985,-0.019928988531958916,0.886422847009763,-0.000852585832260324,-0.12368,-34.002354
11.185,2.0,1.0,1.0,33.2,33.4,33.4,4.1,3.3,2.71,0.4225830734084096,-0.020301214514344013,0.8904446596219152,-0.00108103436287636,-0.125714,-33.837262
11.185,2.0,1.0,1.0,33.2,33.4,33.4,4.1,3.3,2.7125,0.41357233350355127,-0.020681326262268075,0.8944039244752787,-0.0013195152490216712,-0.127806,-33.670789
11.185,2.0,1.0,1.0,33.2,33.4,33.4,4.1,3.3,2.715,0.40444996114210957,-0.02106954237729249,0.8982984221907102,-0.0015684818863319716,-0.129956,-33.502897
11.185,2.0,1.0,1.0,33.2,33.4,33.4,4.1,3.3,2.7175,0.39521473180025046,-0.02146608939075483,0.9021258567337017,-0.0018284125823536488,-0.132167,-33.333547
11.185,2.0,1.0,1.0,33.2,33.4,33.4,4.1,3.3,2.72,0.38586541334062513,-0.021871202113208386,0.905883852283522,-0.002099812241546015,-0.134443,-33.162699
11.185,2.0,1.0,1.0,33.2,33.4,33.4,4.1,3.3,2.7225,0.3764007664638357,-0.02228512399969815,0.9095699499293795,-0.00238321418808679,-0.136785,-32.990312
11.185,2.0,1.0,1.0,33.2,33.4,33.4,4.1,3.3,2.725,0.36681954519393906,-0.022708107531208405,0.9131816041797878,-0.002679182139752195,-0.139196,-32.816344
11.185,2.0,1.0,1.0,33.2,33.4,33.4,4.1,3.3,2.7275,0.3571204974000291,-0.023140414612521393,0.9167161792698634,-0.002988312347613882,-0.141679,-32.640749
11.185,2.0,1.0,1.0,33.2,33.4,33.4,4.1,3.3,2.73,0.3473023653562157,-0.023582316986596387,0.9201709452496261,-0.0033112359179452034,-0.144238,-32.46348
11.185,2.0,1.0,1.0,33.2,33.4,33.4,4.1,3.3,2.7325,0.3373638863425163,-0.024034096665414055,0.923543073834525,-0.0036486213345934535,-0.146875,-32.284491
11.185,2.0,1.0,1.0,33.2,33.4,33.4,4.1,3.3,2.735,0.3273037932895103,-0.02449604637702049,0.9268296339973021,-0.004001177202172474,-0.149595,-32.10373
11.185,2.0,1.0,1.0,33.2,33.4,33.4,4.1,3.3,2.7375,0.3171208154699209,-0.024968470028241277,0.9300275872779433,-0.004369655232803361,-0.152401,-31.921144
11.185,2.0,1.0,1.0,33.2,33.4,33.4,4.1,3.3,2.74,0.30681367924074104,-0.02545168318220185,0.9331337827857701,-0.0047548535018150885,-0.155297,-31.736681
11.185,2.0,1.0,1.0,33.2,33.4,33.4,4.1,3.3,2.7425,0.2963811088399891,-0.025946013549376156,0.936144951864684,-0.005157620000856837,-0.158288,-31.550281
11.185,2.0,1.0,1.0,33.2,33.4,33.4,4.1,3.3,2.745,0.28582182724280825,-0.026451801490371626,0.9390577023891088,-0.0055788565203260315,-0.161377,-31.361887
11.185,2.0,1.0,1.0,33.2,33.4,33.4,4.1,3.3,2.7475,0.27513455708233,-0.02696940052801858,0.9418685126542253,-0.006019522896937529,-0.16457,-31.171436
11.185,2.0,1.0,1.0,33.2,33.4,33.4,4.1,3.3,2.75,0.264318021641599,-0.0274991778655464,0.944573724819626,-0.00648064166672564,-0.167872,-30.978864
11.185,2.0,1.0,1.0,33.2,33.4,33.4,4.1,3.3,2.7525,0.2533709459239191,-0.02804151490665588,0.9471695378603555,-0.006963303168861906,-0.171289,-30.784102
11.185,2.0,1.0,1.0,33.2,33.4,33.4,4.1,3.3,2.755,0.24229205781026228,-0.02859680777210494,0.9496519999734714,-0.007468671151488463,-0.174826,-30.58708
11.185,2.0,1.0,1.0,33.2,33.4,33.4,4.1,3.3,2.7575,0.23108008931390123,-0.029165467805952708,0.9520170003815204,-0.007997988937421773,-0.178489,-30.387724
11.185,2.0,1.0,1.0,33.2,33.4,33.4,4.1,3.3,2.76,0.21973377794437157,-0.029747922062802797,0.9542602604666331,-0.008552586215207967,-0.182287,-30.185957
11.185,2.0,1.0,1.0,33.2,33.4,33.4,4.1,3.3,2.7625,0.20825186819511451,-0.03034461376516809,0.9563773241600765,-0.009133886529771117,-0.186225,-29.981696
11.185,2.0,1.0,1.0,33.2,33.4,33.4,4.1,3.3,2.765,0.1966331131719824,-0.03095600271735423,0.9583635475019089,-0.009743415556969344,-0.190312,-29.774857
11.185,2.0,1.0,1.0,33.2,33.4,33.4,4.1,3.3,2.7675,0.18487627638321996,-0.03158256565890883,0.9602140872736156,-0.010382810257984307,-0.194557,-29.565351
11.185,2.0,1.0,1.0,33.2,33.4,33.4,4.1,3.3,2.77,0.17298013371570412,-0.03222479653656522,0.9619238885930163,-0.011053829022876953,-0.198967,-29.353082
11.185,2.0,1.0,1.0,33.2,33.4,33.4,4.1,3.3,2.7725,0.1609434756273937,-0.032883206668543025,0.9634876713449896,-0.01175836292815008,-0.203554,-29.137953
11.185,2.0,1.0,1.0,33.2,33.4,33.4,4.1,3.3,2.775,0.14876510959224956,-0.03355832476882143,0.9648999153033057,-0.012498448251134404,-0.208329,-28.919858
11.185,2.0,1.0,1.0,33.2,33.4,33.4,4.1,3.3,2.7775,0.13644386284165808,-0.03425069679130492,0.9661548437776405,-0.01327628040489402,-0.213302,-28.69869
11.185,2.0,1.0,1.0,33.2,33.4,33.4,4.1,3.3,2.78,0.12397858545598266,-0.03496088554428869,0.9672464055951372,-0.014094229481643494,-0.218486,-28.474332
11.185,2.0,1.0,1.0,33.2,33.4,33.4,4.1,3.3,2.7825,0.1113681538717396,-0.03568947001386894,0.9681682551970379,-0.014954857620999934,-0.223895,-28.246662
11.185,2.0,1.0,1.0,33.2,33.4,33.4,4.1,3.3,2.785,0.09861147488451051,-0.03643704432036797,0.968913730597215,-0.01586093845250714,-0.229544,-28.015553
11.185,2.0,1.0,1.0,33.2,33.4,33.4,4.1,3.3,2.7875,0.08570749024598596,-0.03720421621374267,0.9694758289099134,-0.01681547890063245,-0.235449,-27.780868
11.185,2.0,1.0,1.0,33.2,33.4,33.4,4.1,3.3,2.79,0.07265518197611691,-0.03799160499143092,0.9698471791076703,-0.01782174368593512,-0.241629,-27.542464
11.185,2.0,1.0,1.0,33.2,33.4,33.4,4.1,3.3,2.7925,0.059453578539649124,-0.03879983869401019,0.9700200116158156,-0.01888328290959726,-0.248102,-27.30019
11.185,2.0,1.0,1.0,33.2,33.4,33.4,4.1,3.3,2.795,0.04610176207156252,-0.03962955039894218,0.969986124285649,-0.02000396317154949,-0.25489,-27.053883
11.185,2.0,1.0,1.0,33.2,33.4,33.4,4.1,3.3,2.7975,0.0325988768802834,-0.04048137338868574,0.9697368442124545,-0.02118800274685486,-0.262017,-26.803375
11.185,2.0,1.0,1.0,33.2,33.4,33.4,4.1,3.3,2.8,0.018944139513082357,-0.04135593491417616,0.9692629847745757,-0.022440011433095215,-0.269509,-26.548484
11.185,2.0,1.0,1.0,33.2,33.4,33.4,4.1,3.3,2.8025,0.005136850738293356,-0.04225384820498209,0.9685547971631574,-0.023765035785926085,-0.277394,-26.289017
11.185,2.0,1.0,1.0,33.2,33.4,33.4,4.1,3.3,2.805,-0.008823590112280434,-0.04317570228934512,0.967601915545456,-0.02516861058400975,-0.285704,-26.024771
11.185,2.0,1.0,1.0,33.2,33.4,33.4,4.1,3.3,2.8075,-0.022937667884824424,-0.044122049075548696,0.9663932948537831,-0.026656817512159894,-0.294476,-25.755527
11.185,2.0,1.0,1.0,33.2,33.4,33.4,4.1,3.3,2.81,-0.037205730729485346,-0.04509338700381865,0.9649171400122837,-0.028236352227507346,-0.303747,-25.481054
11.185,2.0,1.0,1.0,33.2,33.4,33.4,4.1,3.3,2.8125,-0.0516279647282391,-0.0460901403962478,0.963160825198993,-0.0299146011835785,-0.313563,-25.201104
11.185,2.0,1.0,1.0,33.2,33.4,33.4,4.1,3.3,2.815,-0.06620436290703152,-0.047112633399274136,0.9611108014837719,-0.03169972983830935,-0.323973,-24.915412
11.185,2.0,1.0,1.0,33.2,33.4,33.4,4.1,3.3,2.8175,-0.08093468721183728,-0.048161057113349226,0.9587524908754053,-0.03360078417244982,-0.335031,-24.623698
11.185,2.0,1.0,1.0,33.2,33.4,33.4,4.1,3.3,2.82,-0.09581842163690915,-0.04923542811685173,0.9560701644431202,-0.03562780780442423,-0.346801,-24.325657
11.185,2.0,1.0,1.0,33.2,33.4,33.4,4.1,3.3,2.8225,-0.11085471418525404,-0.0503355360882167,0.9530468017372243,-0.03779197741805327,-0.359352,-24.020965
11.185,2.0,1.0,1.0,33.2,33.4,33.4,4.1,3.3,2.825,-0.12604230467853964,-0.05146087757440311,0.9496639282065755,-0.040105759734054745,-0.372764,-23.709276
11.185,2.0,1.0,1.0,33.2,33.4,33.4,4.1,3.3,2.8275,-0.14137943456519242,-0.05261057209486454,0.9459014266814971,-0.04258309387008011,-0.387129,-23.390215
