1,w,sub_t,h,l1,l2,l3,g1,g2,Freq,S11_re,S21_re,S11_img,S21_img,S11_dB,S21_dB
11.185,2.0,1.0,1.0,34.9,33.9,33.9,3.7,3.9,2.5,0.623991529641272,-0.0107326628005897,0.77050492789943,0.00238701414244283,-0.074274,-39.176172
11.185,2.0,1.0,1.0,34.9,33.9,33.9,3.7,3.9,2.5025,0.6171642938951838,-0.010896536891858764,0.775868457747891,0.0023141172008151875,-0.075067,-39.062644
11.185,2.0,1.0,1.0,34.9,33.9,33.9,3.7,3.9,2.505,0.6102518756308761,-0.011062305899784271,0.7812001402515325,0.0022382938584155016,-0.075874,-38.948832
11.185,2.0,1.0,1.0,34.9,33.9,33.9,3.7,3.9,2.5075,0.6032535597143145,-0.011229978763348143,0.7864988870717669,0.0021594629925751146,-0.076695,-38.834729
11.185,2.0,1.0,1.0,34.9,33.9,33.9,3.7,3.9,2.51,0.5961686297340082,-0.011399563786253794,0.7917635819488643,0.002077541259556753,-0.077529,-38.720332
11.185,2.0,1.0,1.0,34.9,33.9,33.9,3.7,3.9,2.5125,0.5889963683679751,-0.01157106859240943,0.796993080033314,0.00199244303292532,-0.078378,-38.605634
11.185,2.0,1.0,1.0,34.9,33.9,33.9,3.7,3.9,2.515,0.5817360577718478,-0.011744500079176746,0.8021862072047197,0.0019040803402617938,-0.079241,-38.490631
11.185,2.0,1.0,1.0,34.9,33.9,33.9,3.7,3.9,2.5175,0.5743869799890411,-0.011919864368282497,0.8073417593782102,0.001812362798179136,-0.080119,-38.375317
11.185,2.0,1.0,1.0,34.9,33.9,33.9,3.7,3.9,2.52,0.5669484173838943,-0.012097166754288215,0.8124585017984017,0.0017171975455978138,-0.081011,-38.259687
11.185,2.0,1.0,1.0,34.9,33.9,33.9,3.7,3.9,2.5225,0.5594196530987854,-0.012276411650506419,0.8175351683209134,0.0016184891752372653,-0.08192,-38.143735
11.185,2.0,1.0,1.0,34.9,33.9,33.9,3.7,3.9,2.525,0.5517999715361911,-0.012457602532248889,0.8225704606815183,0.0015161396632787291,-0.082843,-38.027455
11.185,2.0,1.0,1.0,34.9,33.9,33.9,3.7,3.9,2.5275,0.5440886588667395,-0.012640741877286848,0.8275630477529973,0.0014100482971534853,-0.083783,-37.910843
11.185,2.0,1.0,1.0,34.9,33.9,33.9,3.7,3.9,2.53,0.5362850035643315,-0.012825831103396275,0.832511564789793,0.0013001116014095004,-0.08474,-37.793893
11.185,2.0,1.0,1.0,34.9,33.9,33.9,3.7,3.9,2.5325,0.5283882969694258,-0.01301287050285897,0.8374146126606008,0.0011862232616076777,-0.085713,-37.676598
11.185,2.0,1.0,1.0,34.9,33.9,33.9,3.7,3.9,2.535,0.5203978338816331,-0.01320185917378215,0.8422707570690513,0.0010682740461978482,-0.086703,-37.558954
11.185,2.0,1.0,1.0,34.9,33.9,33.9,3.7,3.9,2.5375,0.5123129131828054,-0.013392794948092942,0.8470785277626691,0.0009461517263230181,-0.08771,-37.440954
11.185,2.0,1.0,1.0,34.9,33.9,33.9,3.7,3.9,2.54,0.5041328384918281,-0.013585674316060739,0.8518364177303284,0.0008197409934985286,-0.088736,-37.322593
11.185,2.0,1.0,1.0,34.9,33.9,33.9,3.7,3.9,2.5425,0.4958569188523703,-0.013780492347190492,0.856542882388462,0.0006889233751108212,-0.089779,-37.203865
11.185,2.0,1.0,1.0,34.9,33.9,33.9,3.7,3.9,2.545,0.4874844694548881,-0.01397724260732538,0.8611963387563141,0.0005535771476795125,-0.090841,-37.084763
11.185,2.0,1.0,1.0,34.9,33.9,33.9,3.7,3.9,2.5475,0.47901481239422217,-0.014175917071789775,0.865795164620554,0.00041357724782287533,-0.091923,-36.965282
11.185,2.0,1.0,1.0,34.9,33.9,33.9,3.7,3.9,2.55,0.4704472774641348,-0.014376506034394871,0.8703376976896444,0.0002687951808658344,-0.093023,-36.845415
11.185,2.0,1.0,1.0,34.9,33.9,33.9,3.7,3.9,2.5525,0.46178120299023795,-0.014578998012123109,0.8748222347383515,0.00011909892702641804,-0.094144,-36.725157
11.185,2.0,1.0,1.0,34.9,33.9,33.9,3.7,3.9,2.555,0.45301593670272733,-0.014783379645297818,0.8792470307428728,-3.564715488559013e-05,-0.095285,-36.6045
11.185,2.0,1.0,1.0,34.9,33.9,33.9,3.7,3.9,2.5575,0.4441508366504315,-0.01498963559303695,0.8836102980070942,-0.0001955824263280544,-0.096447,-36.483439
11.185,2.0,1.0,1.0,34.9,33.9,33.9,3.7,3.9,2.56,0.4351852721577121,-0.015197748423780083,0.8879102052805241,-0.00036085007051608523,-0.09763,-36.361967
11.185,2.0,1.0,1.0,34.9,33.9,33.9,3.7,3.9,2.5625,0.42611862482578255,-0.01540769850066845,0.8921448768685252,-0.000531597196618242,-0.098834,-36.240078
11.185,2.0,1.0,1.0,34.9,33.9,33.9,3.7,3.9,2.565,0.4169502895800562,-0.015619463861547654,0.8963123917355269,-0.0007079749467399761,-0.100061,-36.117764
11.185,2.0,1.0,1.0,34.9,33.9,33.9,3.7,3.9,2.5675,0.407679675765194,-0.01583302009335229,0.9004107826019273,-0.0008901386057782265,-0.101311,-35.99502
11.185,2.0,1.0,1.0,34.9,33.9,33.9,3.7,3.9,2.57,0.3983062082895299,-0.01604834020062027,0.9044380350355106,-0.0010782477142368904,-0.102584,-35.871837
11.185,2.0,1.0,1.0,34.9,33.9,33.9,3.7,3.9,2.5725,0.3888293288206194,-0.01626539446787307,0.9083920865382186,-0.0012724661840974444,-0.103881,-35.748209
11.185,2.0,1.0,1.0,34.9,33.9,33.9,3.7,3.9,2.575,0.3792484970336795,-0.016484150315585283,0.9122708256292246,-0.0014729624178447204,-0.105202,-35.62413
11.185,2.0,1.0,1.0,34.9,33.9,33.9,3.7,3.9,2.5775,0.36956319191474213,-0.01670457214945405,0.9160720909253136,-0.0016799094307544745,-0.106548,-35.499591
11.185,2.0,1.0,1.0,34.9,33.9,33.9,3.7,3.9,2.58,0.3597729131203673,-0.016926621202664423,0.9197936702196452,-0.0018934849765559385,-0.107919,-35.374586
11.185,2.0,1.0,1.0,34.9,33.9,33.9,3.7,3.9,2.5825,0.34987718239580384,-0.017150255370832146,0.9234332995600776,-0.0021138716765910716,-0.109316,-35.249106
11.185,2.0,1.0,1.0,34.9,33.9,33.9,3.7,3.9,2.585,0.3398755450535269,-0.01737542903928907,0.9269886623282863,-0.0023412571525992035,-0.110741,-35.123145
11.185,2.0,1.0,1.0,34.9,33.9,33.9,3.7,3.9,2.5875,0.3297675715141041,-0.01760209290236085,0.9304573883210279,-0.0025758341632675925,-0.112192,-34.996694
11.185,2.0,1.0,1.0,34.9,33.9,33.9,3.7,3.9,2.59,0.31955285891140023,-0.017830193774265684,0.9338370528349558,-0.002817800744695756,-0.113672,-34.869745
11.185,2.0,1.0,1.0,34.9,33.9,33.9,3.7,3.9,2.5925,0.3092310327641144,-0.018059674391247487,0.9371251757565345,-0.0030673603549363606,-0.11518,-34.742291
11.185,2.0,1.0,1.0,34.9,33.9,33.9,3.7,3.9,2.595,0.29880174871575005,-0.01829047320453229,0.9403192206586479,-0.0033247220227847485,-0.116718,-34.614323
11.185,2.0,1.0,1.0,34.9,33.9,33.9,3.7,3.9,2.5975,0.2882646943450523,-0.018522524163677962,0.9434165939056316,-0.0035901005010065927,-0.118285,-34.485833
11.185,2.0,1.0,1.0,34.9,33.9,33.9,3.7,3.9,2.6,0.27761959104904876,-0.01875575648986097,0.9464146437685637,-0.003863716424206454,-0.119884,-34.356811
11.185,2.0,1.0,1.0,34.9,33.9,33.9,3.7,3.9,2.6025,0.26686619600082584,-0.01899009443862059,0.9493106595527278,-0.004145796471557843,-0.121513,-34.22725
11.185,2.0,1.0,1.0,34.9,33.9,33.9,3.7,3.9,2.605,0.2560043041841715,-0.019225457051550487,0.9521018707393111,-0.004436573534635568,-0.123176,-34.097141
11.185,2.0,1.0,1.0,34.9,33.9,33.9,3.7,3.9,2.6075,0.24503375050727577,-0.019461757896402195,0.9547854461434875,-0.004736286890610735,-0.124871,-33.966473
11.185,2.0,1.0,1.0,34.9,33.9,33.9,3.7,3.9,2.61,0.23395441199766165,-0.019698904795027533,0.957358493091162,-0.005045182381093339,-0.1266,-33.835237
11.185,2.0,1.0,1.0,34.9,33.9,33.9,3.7,3.9,2.6125,0.22276621008054195,-0.01993679953855651,0.959818056616776,-0.005363512596932445,-0.128365,-33.703425
11.185,2.0,1.0,1.0,34.9,33.9,33.9,3.7,3.9,2.615,0.21146911294279608,-0.020175337589167557,0.962161118684691,-0.005691537069313568,-0.130165,-33.571025
11.185,2.0,1.0,1.0,34.9,33.9,33.9,3.7,3.9,2.6175,0.20006313798479036,-0.020414407767764695,0.9643845974367883,-0.0060295224675229785,-0.132001,-33.438029
11.185,2.0,1.0,1.0,34.9,33.9,33.9,3.7,3.9,2.62,0.18854835436223044,-0.02065389192683362,0.9664853464690588,-0.006377742803785158,-0.133875,-33.304425
11.185,2.0,1.0,1.0,34.9,33.9,33.9,3.7,3.9,2.6225,0.17692488562024858,-0.020893664607697884,0.9684601541400657,-0.006736479645617475,-0.135788,-33.170202
11.185,2.0,1.0,1.0,34.9,33.9,33.9,3.7,3.9,2.625,0.165192912421935,-0.0211335926813425,0.970305742914312,-0.00710602233618798,-0.13774,-33.03535
11.185,2.0,1.0,1.0,34.9,33.9,33.9,3.7,3.9,2.6275,0.15335267537346284,-0.02137353497191586,0.9720187687436573,-0.0074866682232117565,-0.139732,-32.899858
11.185,2.0,1.0,1.0,34.9,33.9,33.9,3.7,3.9,2.63,0.14140447794799693,-0.021613341861952733,0.9735958204900436,-0.00787872289696999,-0.141767,-32.763713
11.185,2.0,1.0,1.0,34.9,33.9,33.9,3.7,3.9,2.6325,0.12934868951050846,-0.021852854878293658,0.9750334193929499,-0.008282500438096382,-0.143844,-32.626904
11.185,2.0,1.0,1.0,34.9,33.9,33.9,3.7,3.9,2.635,0.11718574844561437,-0.02209190625759563,0.976328018585077,-0.008698323675836546,-0.145965,-32.489418
11.185,2.0,1.0,1.0,34.9,33.9,33.9,3.7,3.9,2.6375,0.10491616539054695,-0.022330318490243962,0.9774760026599025,-0.009126524457557026,-0.148131,-32.351243
11.185,2.0,1.0,1.0,34.9,33.9,33.9,3.7,3.9,2.64,0.0925405265752545,-0.022567903841380108,0.9784736872948666,-0.009567443930357956,-0.150343,-32.212366
11.185,2.0,1.0,1.0,34.9,33.9,33.9,3.7,3.9,2.6425,0.08005949727170461,-0.022804463847655186,0.9793173189340304,-0.010021432835726846,-0.152603,-32.072773
11.185,2.0,1.0,1.0,34.9,33.9,33.9,3.7,3.9,2.645,0.06747382535431673,-0.023039788788202203,0.9800030745341781,-0.010488851818266464,-0.154913,-31.93245
11.185,2.0,1.0,1.0,34.9,33.9,33.9,3.7,3.9,2.6475,0.05478434497348271,-0.02327365712819105,0.980527061378412,-0.01097007174963155,-0.157272,-31.791383
11.185,2.0,1.0,1.0,34.9,33.9,33.9,3.7,3.9,2.65,0.04199198034402782,-0.02350583493318885,0.9808853169613536,-0.011465474068923929,-0.159683,-31.649557
11.185,2.0,1.0,1.0,34.9,33.9,33.9,3.7,3.9,2.6525,0.029097749650494647,-0.023736075252385486,0.9810738089501733,-0.011975451140919509,-0.162148,-31.506957
11.185,2.0,1.0,1.0,34.9,33.9,33.9,3.7,3.9,2.655,0.016102769071000292,-0.02396411746857222,0.9810884352256759,-0.012500406633641102,-0.164667,-31.363565
11.185,2.0,1.0,1.0,34.9,33.9,33.9,3.7,3.9,2.6575,0.0030082569214340635,-0.024189686612558374,0.9809250240077462,-0.013040755916939642,-0.167243,-31.219367
11.185,2.0,1.0,1.0,34.9,33.9,33.9,3.7,3.9,2.66,-0.010184462078286606,-0.024412492639495426,0.9805793340694465,-0.013596926483917186,-0.169877,-31.074345
11.185,2.0,1.0,1.0,34.9,33.9,33.9,3.7,3.9,2.6625,-0.0234739524142338,-0.024632229664331363,0.9800470550440635,-0.014169358397206112,-0.172571,-30.928481
11.185,2.0,1.0,1.0,34.9,33.9,33.9,3.7,3.9,2.665,-0.03685866326311837,-0.02484857515334108,0.9793238078293827,-0.014758504762324822,-0.175326,-30.781756
11.185,2.0,1.0,1.0,34.9,33.9,33.9,3.7,3.9,2.6675,-0.05033692384988953,-0.025061189068374977,0.9784051450933668,-0.01536483223055023,-0.178145,-30.634153
11.185,2.0,1.0,1.0,34.9,33.9,33.9,3.7,3.9,2.67,-0.06390693867670057,-0.02526971296012088,0.9772865518853845,-0.015988821533994668,-0.18103,-30.485649
11.185,2.0,1.0,1.0,34.9,33.9,33.9,3.7,3.9,2.6725,-0.07756678262153169,-0.025473769006291655,0.9759634463569368,-0.016630968055845904,-0.183983,-30.336226
11.185,2.0,1.0,1.0,34.9,33.9,33.9,3.7,3.9,2.675,-0.091314395904765,-0.02567295899021455,0.9744311805957091,-0.017291782439022647,-0.187005,-30.185862
11.185,2.0,1.0,1.0,34.9,33.9,33.9,3.7,3.9,2.6775,-0.10514757892193687,-0.02586686321481585,0.9726850415765357,-0.01797179123682757,-0.190099,-30.034534
11.185,2.0,1.0,1.0,34.9,33.9,33.9,3.7,3.9,2.68,-0.11906398694074022,-0.02605503934644368,0.970720252232595,-0.018671537609538984,-0.193268,-29.882218
11.185,2.0,1.0,1.0,34.9,33.9,33.9,3.7,3.9,2.6825,-0.13306112466021755,-0.026237021182361417,0.9685319726498346,-0.01939158207127549,-0.196514,-29.728891
11.185,2.0,1.0,1.0,34.9,33.9,33.9,3.7,3.9,2.685,-0.14713634062986175,-0.026412317335044715,0.9661153013872407,-0.0201325032919043,-0.19984,-29.574528
11.185,2.0,1.0,1.0,34.9,33.9,33.9,3.7,3.9,2.6875,-0.16128682152603,-0.0265804098256403,0.963465276925079,-0.0208948989592414,-0.203247,-29.419101
11.185,2.0,1.0,1.0,34.9,33.9,33.9,3.7,3.9,2.69,-0.17550958628276872,-0.026740752578056477,0.9605768792427462,-0.021679386707314875,-0.20674,-29.262583
11.185,2.0,1.0,1.0,34.9,33.9,33.9,3.7,3.9,2.6925,-0.18980148007365066,-0.02689276980416187,0.9574450315272116,-0.02248660511704348,-0.210322,-29.104946
11.185,2.0,1.0,1.0,34.9,33.9,33.9,3.7,3.9,2.695,-0.20415916814063603,-0.027035854269439077,0.9540646020123164,-0.023317214796312175,-0.213994,-28.946159
11.185,2.0,1.0,1.0,34.9,33.9,33.9,3.7,3.9,2.6975,-0.2185791294653455,-0.02716936542716496,0.9504304059484079,-0.024171899547128717,-0.217762,-28.78619
11.185,2.0,1.0,1.0,34.9,33.9,33.9,3.7,3.9,2.7,-0.2330576502772285,-0.027292627407739335,0.9465372077008336,-0.025051367628306186,-0.221628,-28.625008
11.185,2.0,1.0,1.0,34.9,33.9,33.9,3.7,3.9,2.7025,-0.24759081739205635,-0.027404926848144398,0.9423797229747662,-0.025956353122962694,-0.225596,-28.462576
11.185,2.0,1.0,1.0,34.9,33.9,33.9,3.7,3.9,2.705,-0.26217451137301234,-0.027505510544648497,0.9379526211626562,-0.026887617421049288,-0.22967,-28.298859
11.185,2.0,1.0,1.0,34.9,33.9,33.9,3.7,3.9,2.7075,-0.27680439950508495,-0.02759358290974783,0.9332505278092807,-0.02784595082813566,-0.233854,-28.133819
11.185,2.0,1.0,1.0,34.9,33.9,33.9,3.7,3.9,2.71,-0.29147592857170307,-0.027668303211922915,0.9282680271878293,-0.02883217431279442,-0.238153,-27.967415
11.185,2.0,1.0,1.0,34.9,33.9,33.9,3.7,3.9,2.7125,-0.30618431742050606,-0.02772878257402997,0.922999664978846,-0.029847141406149923,-0.242571,-27.799607
11.185,2.0,1.0,1.0,34.9,33.9,33.9,3.7,3.9,2.715,-0.32092454930254916,-0.027774080703003457,0.9174399510419646,-0.03089174026849469,-0.247113,-27.630349
11.185,2.0,1.0,1.0,34.9,33.9,33.9,3.7,3.9,2.7175,-0.3356913639663392,-0.027803202319950628,0.9115833622683114,-0.03196689593935106,-0.251785,-27.459596
11.185,2.0,1.0,1.0,34.9,33.9,33.9,3.7,3.9,2.72,-0.3504792494845897,-0.027815093255599794,0.9054243454992055,-0.03307357278895777,-0.256592,-27.287299
11.185,2.0,1.0,1.0,34.9,33.9,33.9,3.7,3.9,2.7225,-0.3652824337874549,-0.027808636171348204,0.8989573204942232,-0.03421277719093124,-0.261541,-27.113407
11.185,2.0,1.0,1.0,34.9,33.9,33.9,3.7,3.9,2.725,-0.3800948758711702,-0.027782645860735596,0.89217668292897,-0.035385560437766556,-0.266637,-26.937866
11.185,2.0,1.0,1.0,34.9,33.9,33.9,3.7,3.9,2.7275,-0.39491025664533896,-0.027735864079936463,0.8850768073998395,-0.03659302192295104,-0.271887,-26.760619
11.185,2.0,1.0,1.0,34.9,33.9,33.9,3.7,3.9,2.73,-0.4097219693754075,-0.027666953848691327,0.877652050409706,-0.0378363126157453,-0.277299,-26.581607
11.185,2.0,1.0,1.0,34.9,33.9,33.9,3.7,3.9,2.7325,-0.42452310966904194,-0.027574493154812467,0.8698967533048841,-0.039116638857178455,-0.282881,-26.400765
11.185,2.0,1.0,1.0,34.9,33.9,33.9,3.7,3.9,2.735,-0.43930646494591596,-0.0274569679858313,0.8618052451297193,-0.04043526650849405,-0.288641,-26.218028
11.185,2.0,1.0,1.0,34.9,33.9,33.9,3.7,3.9,2.7375,-0.45406450331962456,-0.027312764600272224,0.8533718453608917,-0.04179352548619901,-0.294588,-26.033324
11.185,2.0,1.0,1.0,34.9,33.9,33.9,3.7,3.9,2.74,-0.4687893618077527,-0.027140160938181297,0.8445908664788853,-0.043192814720993546,-0.300731,-25.846581
11.185,2.0,1.0,1.0,34.9,33.9,33.9,3.7,3.9,2.7425,-0.4834728337713407,-0.026937317055597803,0.8354566163291004,-0.04463460758121137,-0.307082,-25.657718
11.185,2.0,1.0,1.0,34.9,33.9,33.9,3.7,3.9,2.745,-0.49810635546738374,-0.026702264450252904,0.8259634002197803,-0.04612045780494786,-0.313651,-25.466652
11.185,2.0,1.0,1.0,34.9,33.9,33.9,3.7,3.9,2.7475,-0.5126809915776482,-0.02643289412547046,0.8161055226982827,-0.047652005988794856,-0.320451,-25.273296
11.185,2.0,1.0,1.0,34.9,33.9,33.9,3.7,3.9,2.75,-0.527187419552796,-0.0261269432154911,0.80587728894131,-0.0492309866849803,-0.327494,-25.077556
11.185,2.0,1.0,1.0,34.9,33.9,33.9,3.7,3.9,2.7525,-0.5416159125824374,-0.025781979967597433,0.7952730056885545,-0.0508592361626756,-0.334796,-24.879333
11.185,2.0,1.0,1.0,34.9,33.9,33.9,3.7,3.9,2.755,-0.5559563209681303,-0.025395386843706482,0.7842869816429496,-0.052538700893186414,-0.342371,-24.678522
11.185,2.0,1.0,1.0,34.9,33.9,33.9,3.7,3.9,2.7575,-0.5701980516367554,-0.02496434146557245,0.7729135272543797,-0.054271446822551896,-0.350237,-24.475011
11.185,2.0,1.0,1.0,34.9,33.9,33.9,3.7,3.9,2.76,-0.5843300454846837,-0.02448579508227383,0.7611469537976459,-0.05605966949853033,-0.358412,-24.268683
11.185,2.0,1.0,1.0,34.9,33.9,33.9,3.7,3.9,2.7625,-0.5983407521875672,-0.02395644818483886,0.7489815716498032,-0.05790570512179338,-0.366916,-24.059411
11.185,2.0,1.0,1.0,34.9,33.9,33.9,3.7,3.9,2.765,-0.6122181020445392,-0.023372722829030045,0.7364116876672243,-0.059812042592978815,-0.375771,-23.847061
11.185,2.0,1.0,1.0,34.9,33.9,33.9,3.7,3.9,2.7675,-0.6259494743467818,-0.022730731151357927,0.7234316015593373,-0.061781336627528355,-0.385001,-23.631492
11.185,2.0,1.0,1.0,34.9,33.9,33.9,3.7,3.9,2.77,-0.6395216616667058,-0.022026239472824758,0.7100356011547174,-0.06381642200824368,-0.394633,-23.412551
11.185,2.0,1.0,1.0,34.9,33.9,33.9,3.7,3.9,2.7725,-0.6529208293514932,-0.02125462727657752,0.6962179564571211,-0.06592032904017874,-0.404697,-23.190077
11.185,2.0,1.0,1.0,34.9,33.9,33.9,3.7,3.9,2.775,-0.666132469370224,-0.020410840215745053,0.6819729123954972,-0.06809630026249743,-0.415224,-22.963898
11.185,2.0,1.0,1.0,34.9,33.9,33.9,3.7,3.9,2.7775,-0.6791413475018167,-0.019489336151508923,0.667294680184961,-0.07034780845533353,-0.426249,-22.733829
11.185,2.0,1.0,1.0,34.9,33.9,33.9,3.7,3.9,2.78,-0.6919314426558678,-0.018484023033033918,0.6521774272377323,-0.07267857595390839,-0.437814,-22.499675
11.185,2.0,1.0,1.0,34.9,33.9,33.9,3.7,3.9,2.7825,-0.7044858768824477,-0.017388187202977693,0.6366152655979053,-0.07509259524362202,-0.44996,-22.261224
11.185,2.0,1.0,1.0,34.9,33.9,33.9,3.7,3.9,2.785,-0.7167868343410814,-0.016194410435830107,0.620602238926116,-0.07759415075369841,-0.462739,-22.018253
11.185,2.0,1.0,1.0,34.9,33.9,33.9,3.7,3.9,2.7875,-0.7288154671511549,-0.014894473679979838,0.6041323081372161,-0.0801878416865073,-0.476203,-21.77052
11.185,2.0,1.0,1.0,34.9,33.9,33.9,3.7,3.9,2.79,-0.7405517856223234,-0.013479245064018503,0.5871993359043314,-0.08287860560580454,-0.490416,-21.517768
11.185,2.0,1.0,1.0,34.9,33.9,33.9,3.7,3.9,2.7925,-0.751974529844918,-0.011938549225659623,0.5697970703997915,-0.08567174234715333,-0.505444,-21.259721
11.185,2.0,1.0,1.0,34.9,33.9,33.9,3.7,3.9,2.795,-0.763061018985084,-0.010261014405540244,0.551919128864442,-0.08857293759033018,-0.521367,-20.996081
11.185,2.0,1.0,1.0,34.9,33.9,33.9,3.7,3.9,2.7975,-0.7737869738479038,-0.008433892990259791,0.5335589819067541,-0.09158828512239596,-0.538271,-20.72653
11.185,2.0,1.0,1.0,34.9,33.9,33.9,3.7,3.9,2.8,-0.7841263073089447,-0.006442850254308794,0.5147099398655651,-0.09472430638784719,-0.556257,-20.450726
11.185,2.0,1.0,1.0,34.9,33.9,33.9,3.7,3.9,2.8025,-0.7940508760253808,-0.004271714895306473,0.49536514317311786,-0.09798796532196516,-0.575438,-20.168299
11.185,2.0,1.0,1.0,34.9,33.9,33.9,3.7,3.9,2.805,-0.8035301853654264,-0.0019021835264819177,0.4755175594948423,-0.10138667562964829,-0.595942,-19.878854
11.185,2.0,1.0,1.0,34.9,33.9,33.9,3.7,3.9,2.8075,-0.8125310376704492,0.0006865304834339981,0.4551599915926995,-0.10492829651236141,-0.617919,-19.581962
11.185,2.0,1.0,1.0,34.9,33.9,33.9,3.7,3.9,2.81,-0.8210171117003651,0.0035181156337355884,0.43428510149266486,-0.10862111123002353,-0.64154,-19.277162
11.185,2.0,1.0,1.0,34.9,33.9,33.9,3.7,3.9,2.8125,-0.82894845830542,0.00661966292010486,0.412885458822308,-0.112473780627626,-0.667001,-18.963956
11.185,2.0,1.0,1.0,34.9,33.9,33.9,3.7,3.9,2.815,-0.8362808938895464,0.01002226639184471,0.39095362438991715,-0.11649526059425404,-0.694531,-18.641809
11.185,2.0,1.0,1.0,34.9,33.9,33.9,3.7,3.9,2.8175,-0.8429652689360155,0.013761745738528171,0.3684822845873656,-0.12069466797685335,-0.724399,-18.31014
11.185,2.0,1.0,1.0,34.9,33.9,33.9,3.7,3.9,2.82,-0.8489465835936859,0.0178795181328725,0.345464458569154,-0.1250810731984549,-0.756918,-17.968324
11.185,2.0,1.0,1.0,34.9,33.9,33.9,3.7,3.9,2.8225,-0.854162915911278,0.022423652786789507,0.32189380919092986,-0.1296631889442671,-0.792456,-17.615684
11.185,2.0,1.0,1.0,34.9,33.9,33.9,3.7,3.9,2.825,-0.8585441206332478,0.027450149128844047,0.2977651015453026,-0.13444891163839115,-0.831451,-17.251492
11.185,2.0,1.0,1.0,34.9,33.9,33.9,3.7,3.9,2.8275,-0.8620102475188772,0.0330244881919213,0.2730748713030357,-0.13944465437938727,-0.874424,-16.874962
