1,w,sub_t,h,l1,l2,l3,g1,g2,Freq,S11_re,S21_re,S11_img,S21_img,S11_dB,S21_dB
11.185,2.0,1.0,1.0,33.3,34.2,34.2,3.4,1.8,2.5,0.868670208867384,-0.00810697782580556,0.4824584689165,0.00790208190539011,-0.055271,-38.922272
11.185,2.0,1.0,1.0,33.3,34.2,34.2,3.4,1.8,2.5025,0.8655160358391965,-0.008284867600809365,0.48796694925122835,0.007958843567417499,-0.055818,-38.794846
11.185,2.0,1.0,1.0,33.3,34.2,34.2,3.4,1.8,2.505,0.8623132419994479,-0.008466450411131579,0.49347628047413394,0.008015446540221254,-0.056375,-38.666905
11.185,2.0,1.0,1.0,33.3,34.2,34.2,3.4,1.8,2.5075,0.8590613335820455,-0.008651820373099056,0.4989862810131433,0.008071869552221398,-0.056944,-38.538438
11.185,2.0,1.0,1.0,33.3,34.2,34.2,3.4,1.8,2.51,0.8557598075200964,-0.008841074784655971,0.5044967636014833,0.00812809024741297,-0.057524,-38.40943
11.185,2.0,1.0,1.0,33.3,34.2,34.2,3.4,1.8,2.5125,0.8524081512181454,-0.009034314260308391,0.5100075350738368,0.00818408512672818,-0.058116,-38.279868
11.185,2.0,1.0,1.0,33.3,34.2,34.2,3.4,1.8,2.515,0.8490058423163935,-0.009231642872978143,0.5155183961545473,0.008239829485819222,-0.05872,-38.149737
11.185,2.0,1.0,1.0,33.3,34.2,34.2,3.4,1.8,2.5175,0.8455523484464953,-0.009433168303180892,0.5210291412374636,0.008295297349013788,-0.059337,-38.019023
11.185,2.0,1.0,1.0,33.3,34.2,34.2,3.4,1.8,2.52,0.8420471269784864,-0.00963900199597301,0.526539558157042,0.008350461399174183,-0.059966,-37.887711
11.185,2.0,1.0,1.0,33.3,34.2,34.2,3.4,1.8,2.5225,0.8384896247583913,-0.00984925932614104,0.5320494279502375,0.008405292903169943,-0.060608,-37.755787
11.185,2.0,1.0,1.0,33.3,34.2,34.2,3.4,1.8,2.525,0.8348792778359932,-0.010064059772142838,0.5375585246087456,0.008459761632650557,-0.061264,-37.623234
11.185,2.0,1.0,1.0,33.3,34.2,34.2,3.4,1.8,2.5275,0.8312155111822472,-0.01028352709934391,0.5430666148210909,0.008513835779779844,-0.061933,-37.490038
11.185,2.0,1.0,1.0,33.3,34.2,34.2,3.4,1.8,2.53,0.8274977383957591,-0.010507789553131683,0.5485734577040298,0.008567481867565223,-0.062617,-37.356181
11.185,2.0,1.0,1.0,33.3,34.2,34.2,3.4,1.8,2.5325,0.8237253613977231,-0.010736980062532512,0.5540788045227102,0.008620664654385473,-0.063316,-37.221649
11.185,2.0,1.0,1.0,33.3,34.2,34.2,3.4,1.8,2.535,0.8198977701146595,-0.010971236455001608,0.5595823983989902,0.008673347032287317,-0.064029,-37.086423
11.185,2.0,1.0,1.0,33.3,34.2,34.2,3.4,1.8,2.5375,0.8160143421482587,-0.011210701683104379,0.5650839740072604,0.008725489918585367,-0.064759,-36.950487
11.185,2.0,1.0,1.0,33.3,34.2,34.2,3.4,1.8,2.54,0.8120744424315732,-0.011455524063861435,0.5705832572570929,0.008777052140259374,-0.065505,-36.813823
11.185,2.0,1.0,1.0,33.3,34.2,34.2,3.4,1.8,2.5425,0.8080774228707499,-0.01170585753158691,0.576079964961977,0.008827990310602253,-0.066267,-36.676413
11.185,2.0,1.0,1.0,33.3,34.2,34.2,3.4,1.8,2.545,0.8040226219714379,-0.011961861905111221,0.5815738044933463,0.00887825869752064,-0.067047,-36.538239
11.185,2.0,1.0,1.0,33.3,34.2,34.2,3.4,1.8,2.5475,0.7999093644489419,-0.012223703170347749,0.587064473419048,0.008927809082842398,-0.067844,-36.399281
11.185,2.0,1.0,1.0,33.3,34.2,34.2,3.4,1.8,2.55,0.7957369608211041,-0.012491553779236293,0.5925516591253516,0.008976590611925529,-0.06866,-36.25952
11.185,2.0,1.0,1.0,33.3,34.2,34.2,3.4,1.8,2.5525,0.7915047069828556,-0.012765592966174,0.5980350384214912,0.00902454963280063,-0.069495,-36.118937
11.185,2.0,1.0,1.0,33.3,34.2,34.2,3.4,1.8,2.555,0.7872118837612505,-0.013046007083133533,0.6035142771257082,0.009071629524011228,-0.070349,-35.977511
11.185,2.0,1.0,1.0,33.3,34.2,34.2,3.4,1.8,2.5575,0.7828577564497399,-0.01333298995476066,0.6089890296316365,0.009117770510239882,-0.071224,-35.83522
11.185,2.0,1.0,1.0,33.3,34.2,34.2,3.4,1.8,2.56,0.7784415743203273,-0.013626743254845143,0.6144589384538003,0.009162909464723356,-0.072119,-35.692043
11.185,2.0,1.0,1.0,33.3,34.2,34.2,3.4,1.8,2.5625,0.773962570112141,-0.0139274769056724,0.61992363375089,0.00920697969737024,-0.073036,-35.547959
11.185,2.0,1.0,1.0,33.3,34.2,34.2,3.4,1.8,2.565,0.7694199594948392,-0.014235409501882845,0.6253827328253783,0.009249910727390308,-0.073976,-35.402944
11.185,2.0,1.0,1.0,33.3,34.2,34.2,3.4,1.8,2.5675,0.7648129405051415,-0.014550768760599356,0.6308358395979015,0.0092916280391345,-0.074939,-35.256974
11.185,2.0,1.0,1.0,33.3,34.2,34.2,3.4,1.8,2.57,0.7601406929546287,-0.014873791999727473,0.6362825440547173,0.009332052819718122,-0.075926,-35.110027
11.185,2.0,1.0,1.0,33.3,34.2,34.2,3.4,1.8,2.5725,0.7554023778068044,-0.015204726646491246,0.6417224216663932,0.00937110167686442,-0.076938,-34.962076
11.185,2.0,1.0,1.0,33.3,34.2,34.2,3.4,1.8,2.575,0.7505971365212444,-0.015543830778440217,0.6471550327757165,0.009408686335251777,-0.077976,-34.813097
11.185,2.0,1.0,1.0,33.3,34.2,34.2,3.4,1.8,2.5775,0.7457240903624666,-0.01589137369935141,0.6525799219526418,0.00944471330947813,-0.07904,-34.663063
11.185,2.0,1.0,1.0,33.3,34.2,34.2,3.4,1.8,2.58,0.7407823396709652,-0.016247636552658037,0.6579966173138907,0.009479083551570351,-0.080132,-34.511946
11.185,2.0,1.0,1.0,33.3,34.2,34.2,3.4,1.8,2.5825,0.7357709630936106,-0.01661291297526238,0.663404629804606,0.009511692070755364,-0.081254,-34.35972
11.185,2.0,1.0,1.0,33.3,34.2,34.2,3.4,1.8,2.585,0.7306890167703909,-0.016987509794839834,0.668803452439205,0.009542427522978113,-0.082405,-34.206356
11.185,2.0,1.0,1.0,33.3,34.2,34.2,3.4,1.8,2.5875,0.7255355334741862,-0.01737174777401296,0.674192559498326,0.009571171767392684,-0.083587,-34.051823
11.185,2.0,1.0,1.0,33.3,34.2,34.2,3.4,1.8,2.59,0.7203095216999847,-0.01776596240507523,0.6795714056784368,0.00959779938676306,-0.084802,-33.89609
11.185,2.0,1.0,1.0,33.3,34.2,34.2,3.4,1.8,2.5925,0.7150099646996116,-0.018170504759273114,0.684939425190365,0.009622177168388242,-0.08605,-33.739128
11.185,2.0,1.0,1.0,33.3,34.2,34.2,3.4,1.8,2.595,0.7096358194576963,-0.018585742395017778,0.690296030802606,0.009644163541803533,-0.087333,-33.580901
11.185,2.0,1.0,1.0,33.3,34.2,34.2,3.4,1.8,2.5975,0.7041860156041927,-0.01901206032979815,0.6956406128248824,0.009663607969108088,-0.088653,-33.421378
11.185,2.0,1.0,1.0,33.3,34.2,34.2,3.4,1.8,2.6,0.6986594542583426,-0.019449862081006512,0.700972538026928,0.009680350283312827,-0.090011,-33.260522
11.185,2.0,1.0,1.0,33.3,34.2,34.2,3.4,1.8,2.6025,0.6930550067984889,-0.019899570781374335,0.7062911484869621,0.009694219969596872,-0.091408,-33.098298
11.185,2.0,1.0,1.0,33.3,34.2,34.2,3.4,1.8,2.605,0.6873715135516061,-0.02036163037525243,0.7115957603637363,0.009705035383785286,-0.092847,-32.934668
11.185,2.0,1.0,1.0,33.3,34.2,34.2,3.4,1.8,2.6075,0.6816077823958285,-0.02083650690256369,0.7168856625853649,0.009712602901721403,-0.094329,-32.769594
11.185,2.0,1.0,1.0,33.3,34.2,34.2,3.4,1.8,2.61,0.6757625872686148,-0.021324689877911144,0.7221601154474102,0.009716715992476897,-0.095855,-32.603035
11.185,2.0,1.0,1.0,33.3,34.2,34.2,3.4,1.8,2.6125,0.6698346665724418,-0.02182669377305348,0.7274183491118654,0.009717154207527638,-0.097429,-32.43495
11.185,2.0,1.0,1.0,33.3,34.2,34.2,3.4,1.8,2.615,0.6638227214691355,-0.022343059611763954,0.7326595619977259,0.00971368207709465,-0.099052,-32.265296
11.185,2.0,1.0,1.0,33.3,34.2,34.2,3.4,1.8,2.6175,0.6577254140530522,-0.022874356686983142,0.7378829190527673,0.009706047903803292,-0.100726,-32.094027
11.185,2.0,1.0,1.0,33.3,34.2,34.2,3.4,1.8,2.62,0.6515413653923268,-0.023421184411168933,0.7430875498949499,0.00969398244262448,-0.102454,-31.921099
11.185,2.0,1.0,1.0,33.3,34.2,34.2,3.4,1.8,2.6225,0.6452691534263018,-0.023984174311850785,0.7482725468104966,0.009677197454712464,-0.104238,-31.746461
11.185,2.0,1.0,1.0,33.3,34.2,34.2,3.4,1.8,2.625,0.638907310706041,-0.0245639921856213,0.753436962594113,0.00965538412121906,-0.106081,-31.570065
11.185,2.0,1.0,1.0,33.3,34.2,34.2,3.4,1.8,2.6275,0.6324543219634344,-0.025161340425168058,0.7585798082150818,0.009628211301414969,-0.107986,-31.391857
11.185,2.0,1.0,1.0,33.3,34.2,34.2,3.4,1.8,2.63,0.6259086214928985,-0.025776960535470354,0.7637000502909034,0.009595323617455739,-0.109957,-31.211785
11.185,2.0,1.0,1.0,33.3,34.2,34.2,3.4,1.8,2.6325,0.619268590327968,-0.026411635856985943,0.768796608347872,0.009556339345844626,-0.111995,-31.029791
11.185,2.0,1.0,1.0,33.3,34.2,34.2,3.4,1.8,2.635,0.6125325531931639,-0.027066194515552373,0.7738683518453177,0.009510848093037982,-0.114106,-30.845816
11.185,2.0,1.0,1.0,33.3,34.2,34.2,3.4,1.8,2.6375,0.6056987752094094,-0.027741512620847678,0.7789140969372204,0.00945840822963804,-0.116292,-30.6598
11.185,2.0,1.0,1.0,33.3,34.2,34.2,3.4,1.8,2.64,0.5987654583288552,-0.028438517737631022,0.7839326029414324,0.009398544054177001,-0.118557,-30.471679
11.185,2.0,1.0,1.0,33.3,34.2,34.2,3.4,1.8,2.6425,0.591730737472346,-0.029158192656638243,0.7889225684827208,0.009330742653528843,-0.120907,-30.281385
11.185,2.0,1.0,1.0,33.3,34.2,34.2,3.4,1.8,2.645,0.5845926763397296,-0.029901579494986417,0.7938826272712393,0.009254450422411816,-0.123345,-30.08885
11.185,2.0,1.0,1.0,33.3,34.2,34.2,3.4,1.8,2.6475,0.5773492628598853,-0.030669784159278398,0.7988113434726973,0.009169069199153885,-0.125877,-29.894001
11.185,2.0,1.0,1.0,33.3,34.2,34.2,3.4,1.8,2.65,0.5699984042435451,-0.03146398120834604,0.8037072066203257,0.009073951968767358,-0.128508,-29.696761
11.185,2.0,1.0,1.0,33.3,34.2,34.2,3.4,1.8,2.6525,0.5625379215977971,-0.0322854191567701,0.8085686260115386,0.008968398077265603,-0.131243,-29.497052
11.185,2.0,1.0,1.0,33.3,34.2,34.2,3.4,1.8,2.655,0.5549655440563468,-0.03313542626504567,0.8133939245239029,0.008851647892880267,-0.13409,-29.294789
11.185,2.0,1.0,1.0,33.3,34.2,34.2,3.4,1.8,2.6575,0.5472789023743092,-0.03401541686756329,0.8181813317752555,0.008722876840188255,-0.137054,-29.089886
11.185,2.0,1.0,1.0,33.3,34.2,34.2,3.4,1.8,2.66,0.539475521930262,-0.034926898295545794,0.8229289765414967,0.008581188721884013,-0.140143,-28.882252
11.185,2.0,1.0,1.0,33.3,34.2,34.2,3.4,1.8,2.6625,0.5315528150715463,-0.0358714784587861,0.8276348783322606,0.008425608229724307,-0.143365,-28.67179
11.185,2.0,1.0,1.0,33.3,34.2,34.2,3.4,1.8,2.665,0.5235080727311548,-0.03685087415757413,0.8322969380090779,0.00825507253066273,-0.146728,-28.458399
11.185,2.0,1.0,1.0,33.3,34.2,34.2,3.4,1.8,2.6675,0.515338455236043,-0.037866920204671486,0.8369129273122531,0.00806842179594041,-0.150242,-28.241975
11.185,2.0,1.0,1.0,33.3,34.2,34.2,3.4,1.8,2.67,0.5070409822170333,-0.038921579446712214,0.8414804771410245,0.007864388519350883,-0.153917,-28.022405
11.185,2.0,1.0,1.0,33.3,34.2,34.2,3.4,1.8,2.6725,0.49861252151971136,-0.040016953785086455,0.8459970644059182,0.00764158544541219,-0.157764,-27.799572
11.185,2.0,1.0,1.0,33.3,34.2,34.2,3.4,1.8,2.675,0.4900497770036107,-0.041155296308327545,0.850459997241788,0.007398491897934499,-0.161794,-27.573353
11.185,2.0,1.0,1.0,33.3,34.2,34.2,3.4,1.8,2.6775,0.481349275103433,-0.042339024661406655,0.854866398333859,0.007133438263498608,-0.166021,-27.343618
11.185,2.0,1.0,1.0,33.3,34.2,34.2,3.4,1.8,2.68,0.4725073500109264,-0.04357073579225765,0.8592131860659171,0.006844588341433311,-0.17046,-27.110229
11.185,2.0,1.0,1.0,33.3,34.2,34.2,3.4,1.8,2.6825,0.4635201273192658,-0.04485322223243532,0.8634970531481381,0.006529919220525642,-0.175125,-26.873041
11.185,2.0,1.0,1.0,33.3,34.2,34.2,3.4,1.8,2.685,0.4543835059531452,-0.04618949008714062,0.8677144423200757,0.006187198281055321,-0.180036,-26.631901
11.185,2.0,1.0,1.0,33.3,34.2,34.2,3.4,1.8,2.6875,0.445093138187372,-0.0475827789299748,0.871861518649708,0.00581395684654188,-0.18521,-26.386645
11.185,2.0,1.0,1.0,33.3,34.2,34.2,3.4,1.8,2.69,0.4356444075344657,-0.04903658381969239,0.8759341378593324,0.005407459919977873,-0.190669,-26.137103
11.185,2.0,1.0,1.0,33.3,34.2,34.2,3.4,1.8,2.6925,0.42603240425774774,-0.0505546796797795,0.8799278099999318,0.004964671330742334,-0.196436,-25.88309
11.185,2.0,1.0,1.0,33.3,34.2,34.2,3.4,1.8,2.695,0.4162518982410624,-0.052141148306549735,0.8838376576629048,0.00448221348639282,-0.202538,-25.624413
11.185,2.0,1.0,1.0,33.3,34.2,34.2,3.4,1.8,2.6975,0.4062973089199679,-0.05380040829708198,0.8876583677561672,0.003956320762519977,-0.209003,-25.360867
11.185,2.0,1.0,1.0,33.3,34.2,34.2,3.4,1.8,2.7,0.39616267195321897,-0.05553724821367964,0.8913841356734312,0.003382785366751961,-0.215864,-25.09223
11.185,2.0,1.0,1.0,33.3,34.2,34.2,3.4,1.8,2.7025,0.3858416022889135,-0.05735686332507311,0.8950086004420075,0.0027568942708562686,-0.223156,-24.81827
11.185,2.0,1.0,1.0,33.3,34.2,34.2,3.4,1.8,2.705,0.3753272532595186,-0.05926489628379208,0.8985247691342214,0.00207335550632635,-0.230921,-24.538737
11.185,2.0,1.0,1.0,33.3,34.2,34.2,3.4,1.8,2.7075,0.3646122713276325,-0.06126748211027783,0.9019249284559686,0.0013262117493343343,-0.239204,-24.253365
11.185,2.0,1.0,1.0,33.3,34.2,34.2,3.4,1.8,2.71,0.3536887461056338,-0.06337129785167356,0.9052005409642515,0.0005087386618859351,-0.248055,-23.961868
11.185,2.0,1.0,1.0,33.3,34.2,34.2,3.4,1.8,2.7125,0.3425481552955628,-0.0655836172584069,0.9083421227897688,-0.0003866751164650856,-0.257534,-23.663942
11.185,2.0,1.0,1.0,33.3,34.2,34.2,3.4,1.8,2.715,0.3311813042533273,-0.06791237076210567,0.9113390990197144,-0.0013686701486852798,-0.267705,-23.359259
11.185,2.0,1.0,1.0,33.3,34.2,34.2,3.4,1.8,2.7175,0.3195782599919874,-0.07036621092557735,0.9141796319898389,-0.0024470852752109386,-0.278645,-23.047468
11.185,2.0,1.0,1.0,33.3,34.2,34.2,3.4,1.8,2.72,0.3077282796298457,-0.07295458334223238,0.9168504165914997,-0.003633159443295588,-0.290438,-22.728191
11.185,2.0,1.0,1.0,33.3,34.2,34.2,3.4,1.8,2.7225,0.29561973360049415,-0.07568780264818373,0.9193364352513387,-0.004939773589490872,-0.303183,-22.401022
11.185,2.0,1.0,1.0,33.3,34.2,34.2,3.4,1.8,2.725,0.28324002443354956,-0.07857713281584894,0.9216206634003018,-0.00638174170332668,-0.316994,-22.065524
11.185,2.0,1.0,1.0,33.3,34.2,34.2,3.4,1.8,2.7275,0.27057550267435,-0.08163487013528113,0.9236837139003511,-0.00797616253358317,-0.332002,-21.721223
11.185,2.0,1.0,1.0,33.3,34.2,34.2,3.4,1.8,2.73,0.2576113826695346,-0.08487442612808428,0.9255034058918622,-0.00974284638404879,-0.348359,-21.36761
11.185,2.0,1.0,1.0,33.3,34.2,34.2,3.4,1.8,2.7325,0.24433166269768447,-0.08831040588425507,0.9270542396681506,-0.01170483527607948,-0.366242,-21.004131
11.185,2.0,1.0,1.0,33.3,34.2,34.2,3.4,1.8,2.735,0.23071905656192762,-0.09195867467389131,0.9283067542243469,-0.013889039679773871,-0.385862,-20.630189
11.185,2.0,1.0,1.0,33.3,34.2,34.2,3.4,1.8,2.7375,0.21675494772238843,-0.09583640172676236,0.9292267377433587,-0.01632702135377003,-0.407463,-20.245136
11.185,2.0,1.0,1.0,33.3,34.2,34.2,3.4,1.8,2.74,0.20241938299226875,-0.09996206413407942,0.9297742530639346,-0.0190559599893501,-0.431337,-19.848271
11.185,2.0,1.0,1.0,33.3,34.2,34.2,3.4,1.8,2.7425,0.18769113175562563,-0.10435538490871446,0.9299024296215797,-0.0221198518253763,-0.457833,-19.438831
11.185,2.0,1.0,1.0,33.3,34.2,34.2,3.4,1.8,2.745,0.17254785011800458,-0.10903716581866092,0.9295559598674225,-0.025571001773639468,-0.487368,-19.015993
11.185,2.0,1.0,1.0,33.3,34.2,34.2,3.4,1.8,2.7475,0.15696640971680195,-0.11402895535041428,0.9286692211054803,-0.029471887506714103,-0.520446,-18.578861
11.185,2.0,1.0,1.0,33.3,34.2,34.2,3.4,1.8,2.75,0.140923481700816,-0.11935246147748,0.927163922461183,-0.0338974949824571,-0.557679,-18.126471
11.185,2.0,1.0,1.0,33.3,34.2,34.2,3.4,1.8,2.7525,0.12439651319498664,-0.12502857227625838,0.9249461510648914,-0.038938250231667706,-0.599819,-17.657781
11.185,2.0,1.0,1.0,33.3,34.2,34.2,3.4,1.8,2.755,0.10736530497161842,-0.131075776320263,0.9219026622308283,-0.04470370116922605,-0.647791,-17.171677
11.185,2.0,1.0,1.0,33.3,34.2,34.2,3.4,1.8,2.7575,0.08981450825315376,-0.1375076660736013,0.9178962284307104,-0.05132713268461156,-0.702746,-16.666972
11.185,2.0,1.0,1.0,33.3,34.2,34.2,3.4,1.8,2.76,0.07173752574169182,-0.1443290411593958,0.9127598391262874,-0.058971320383610734,-0.766126,-16.14242
11.185,2.0,1.0,1.0,33.3,34.2,34.2,3.4,1.8,2.7625,0.05314255742691025,-0.1515298742939995,0.9062895462022045,-0.06783562492990759,-0.839754,-15.596739
11.185,2.0,1.0,1.0,33.3,34.2,34.2,3.4,1.8,2.765,0.034061919632851184,-0.1590760170390031,0.89823581668687,-0.078164561192588,-0.925952,-15.028646
11.185,2.0,1.0,1.0,33.3,34.2,34.2,3.4,1.8,2.7675,0.014566346553951367,-0.16689494546062103,0.8882934653625936,-0.09025776489110443,-1.027703,-14.436928
11.185,2.0,1.0,1.0,33.3,34.2,34.2,3.4,1.8,2.77,-0.005213170824799032,-0.1748540061817754,0.876090753122292,-0.10448076639954315,-1.148864,-13.82055
11.185,2.0,1.0,1.0,33.3,34.2,34.2,3.4,1.8,2.7725,-0.02505228779618407,-0.1827274671338486,0.8611793575087535,-0.12127486331122485,-1.294454,-13.178827
11.185,2.0,1.0,1.0,33.3,34.2,34.2,3.4,1.8,2.775,-0.04458379974481688,-0.19014726114856512,0.8430292134244316,-0.14116209979583944,-1.471018,-12.511709
11.185,2.0,1.0,1.0,33.3,34.2,34.2,3.4,1.8,2.7775,-0.0632253024197423,-0.19653105747178523,0.8210366593520209,-0.16473694333854053,-1.687071,-11.820203
11.185,2.0,1.0,1.0,33.3,34.2,34.2,3.4,1.8,2.78,-0.0800778906330825,-0.20098161492870553,0.794562390251698,-0.19262822757510759,-1.953551,-11.107025
11.185,2.0,1.0,1.0,33.3,34.2,34.2,3.4,1.8,2.7825,-0.09379534883812891,-0.20215696171592354,0.763029027267189,-0.2254017086345418,-2.284045,-10.377568
11.185,2.0,1.0,1.0,33.3,34.2,34.2,3.4,1.8,2.785,-0.10244236787953706,-0.19812997975392949,0.7261262812672455,-0.26335556925798276,-2.694165,-9.641236
11.185,2.0,1.0,1.0,33.3,34.2,34.2,3.4,1.8,2.7875,-0.10340726028525092,-0.18630270000389412,0.684185497990834,-0.3061476075727027,-3.198433,-8.913164
11.185,2.0,1.0,1.0,33.3,34.2,34.2,3.4,1.8,2.79,-0.09352339116157869,-0.1635288153875237,0.638761682543014,-0.3522166748753961,-3.801107,-8.216037
11.185,2.0,1.0,1.0,33.3,34.2,34.2,3.4,1.8,2.7925,-0.06966203419999668,-0.12670543162539574,0.5933269099478836,-0.39809472383232414,-4.474661,-7.581208
11.185,2.0,1.0,1.0,33.3,34.2,34.2,3.4,1.8,2.795,-0.030045708669058712,-0.0740805450268426,0.5536595993822477,-0.43802351051603594,-5.122372,-7.047573
11.185,2.0,1.0,1.0,33.3,34.2,34.2,3.4,1.8,2.7975,0.023904766488050722,-0.0070881378910024615,0.5271421405907073,-0.46465869812095467,-5.552524,-6.656308
11.185,2.0,1.0,1.0,33.3,34.2,34.2,3.4,1.8,2.8,0.08632455052925103,0.06841982007166342,0.5203860844568545,-0.47143566862599845,-5.555592,-6.441026
11.185,2.0,1.0,1.0,33.3,34.2,34.2,3.4,1.8,2.8025,0.14790390686845395,0.14317667316543647,0.5360324225307929,-0.45574915659338405,-5.097516,-6.416713
11.185,2.0,1.0,1.0,33.3,34.2,34.2,3.4,1.8,2.805,0.19931955076339938,0.20791888813724854,0.571135581274051,-0.420550399034365,-4.366089,-6.57394
11.185,2.0,1.0,1.0,33.3,34.2,34.2,3.4,1.8,2.8075,0.23476853082039442,0.2568965361926175,0.618678258530681,-0.37282987880210994,-3.586458,-6.882505
11.185,2.0,1.0,1.0,33.3,34.2,34.2,3.4,1.8,2.81,0.25310242461447713,0.28899162002417833,0.670869745870088,-0.32033325515055977,-2.889295,-7.301847
11.185,2.0,1.0,1.0,33.3,34.2,34.2,3.4,1.8,2.8125,0.256542443530471,0.306432476560937,0.721695192963718,-0.269029535673752,-2.31615,-7.791659
11.185,2.0,1.0,1.0,33.3,34.2,34.2,3.4,1.8,2.815,0.2486771866359348,0.3127999801142686,0.7676768600657973,-0.22235982584053773,-1.863069,-8.318335
11.185,2.0,1.0,1.0,33.3,34.2,34.2,3.4,1.8,2.8175,0.23302864691011016,0.311602568346245,0.8074202901445116,-0.18169296885636746,-1.510539,-8.856943
11.185,2.0,1.0,1.0,33.3,34.2,34.2,3.4,1.8,2.82,0.21242477944757066,0.3056545177027637,0.8408232337018116,-0.14711423122540482,-1.237198,-9.390481
11.185,2.0,1.0,1.0,33.3,34.2,34.2,3.4,1.8,2.8225,0.18889983368697508,0.29697875027254816,0.8684226720636298,-0.11807505918197898,-1.024603,-9.908122
11.185,2.0,1.0,1.0,33.3,34.2,34.2,3.4,1.8,2.825,0.16382019757972321,0.2869332216944188,0.8909861670283534,-0.09379914353624104,-0.858191,-10.403436
11.185,2.0,1.0,1.0,33.3,34.2,34.2,3.4,1.8,2.8275,0.13806023244718504,0.2763864551567178,0.9092979397795566,-0.07349464535570523,-0.726895,-10.872948
11.185,2.0,1.0,1.0,33.3,34.2,34.2,3.4,1.8,2.83,0.1121567101684255,0.2658714367218456,0.9240650107516792,-0.05644706280482669,-0.622438,-11.31509
