1,w,sub_t,h,l1,l2,l3,g1,g2,Freq,S11_re,S21_re,S11_img,S21_img,S11_dB,S21_dB
11.185,2.0,1.0,1.0,33.1,33.4,33.4,3.3,4.1,2.5,0.893808384960835,-0.00429014095828327,0.43573037745305,0.00364841744846773,-0.049116,-44.98718
11.185,2.0,1.0,1.0,33.1,33.4,33.4,3.3,4.1,2.5025,0.891054071594202,-0.004377260648093399,0.44123143736934994,0.003665145396509666,-0.049519,-44.868663
11.185,2.0,1.0,1.0,33.1,33.4,33.4,3.3,4.1,2.505,0.8882550211957599,-0.004465811831020662,0.44673511849808906,0.003681444742063843,-0.049929,-44.750004
11.185,2.0,1.0,1.0,33.1,33.4,33.4,3.3,4.1,2.5075,0.8854108204204142,-0.004555819625718441,0.452241271066795,0.003697298609770816,-0.050345,-44.631196
11.185,2.0,1.0,1.0,33.1,33.4,33.4,3.3,4.1,2.51,0.8825210493727247,-0.0046473097045474435,0.4577497407283827,0.003712689562467031,-0.050768,-44.512231
11.185,2.0,1.0,1.0,33.1,33.4,33.4,3.3,4.1,2.5125,0.8795852814984036,-0.0047403083079985584,0.4632603684099972,0.0037275995805889917,-0.051198,-44.393102
11.185,2.0,1.0,1.0,33.1,33.4,33.4,3.3,4.1,2.515,0.8766030834741653,-0.004834842259546144,0.4687729901569989,0.0037420100407404354,-0.051635,-44.2738
11.185,2.0,1.0,1.0,33.1,33.4,33.4,3.3,4.1,2.5175,0.8735740150959302,-0.004930938980945777,0.4742874369719111,0.00375590169338421,-0.052078,-44.154318
11.185,2.0,1.0,1.0,33.1,33.4,33.4,3.3,4.1,2.52,0.8704976291653573,-0.005028626507992251,0.4798035346481743,0.0037692546396192145,-0.052529,-44.034649
11.185,2.0,1.0,1.0,33.1,33.4,33.4,3.3,4.1,2.5225,0.8673734713747099,-0.005127933506753106,0.4853211035985066,0.003782048307000178,-0.052987,-43.914783
11.185,2.0,1.0,1.0,33.1,33.4,33.4,3.3,4.1,2.525,0.8642010801900313,-0.00522888929029429,0.49083995867770347,0.003794261424355979,-0.053453,-43.794715
11.185,2.0,1.0,1.0,33.1,33.4,33.4,3.3,4.1,2.5275,0.8609799867326293,-0.005331523835914899,0.49635990899967863,0.003805871995560436,-0.053927,-43.674434
11.185,2.0,1.0,1.0,33.1,33.4,33.4,3.3,4.1,2.53,0.8577097146588629,-0.005435867802908651,0.501880757748541,0.003816857272206228,-0.054408,-43.553935
11.185,2.0,1.0,1.0,33.1,33.4,33.4,3.3,4.1,2.5325,0.854389780038222,-0.005541952550870158,0.5074023019835054,0.0038271937251305828,-0.054897,-43.433207
11.185,2.0,1.0,1.0,33.1,33.4,33.4,3.3,4.1,2.535,0.8510196912296933,-0.005649810158565737,0.5129243324374252,0.0038368570147389,-0.055395,-43.312245
11.185,2.0,1.0,1.0,33.1,33.4,33.4,3.3,4.1,2.5375,0.8475989487564188,-0.0057594734433876315,0.5184466333087124,0.0038458219600687156,-0.055901,-43.191038
11.185,2.0,1.0,1.0,33.1,33.4,33.4,3.3,4.1,2.54,0.844127045178633,-0.00587097598141298,0.523968982046426,0.003854062506534362,-0.056415,-43.069579
11.185,2.0,1.0,1.0,33.1,33.4,33.4,3.3,4.1,2.5425,0.8406034649648866,-0.005984352128088599,0.5294911491282794,0.003861551692288759,-0.056938,-42.947861
11.185,2.0,1.0,1.0,33.1,33.4,33.4,3.3,4.1,2.545,0.8370276843615526,-0.006099637039563811,0.5350128978313244,0.0038682616131356425,-0.05747,-42.825873
11.185,2.0,1.0,1.0,33.1,33.4,33.4,3.3,4.1,2.5475,0.8333991712606281,-0.006216866694694417,0.5405339839950398,0.003874163385921909,-0.058012,-42.703609
11.185,2.0,1.0,1.0,33.1,33.4,33.4,3.3,4.1,2.55,0.8297173850658213,-0.0063360779177422735,0.5460541557765737,0.003879227110335856,-0.058562,-42.581059
11.185,2.0,1.0,1.0,33.1,33.4,33.4,3.3,4.1,2.5525,0.8259817765569487,-0.006457308401794566,0.5515731533978362,0.003883421829032797,-0.059122,-42.458215
11.185,2.0,1.0,1.0,33.1,33.4,33.4,3.3,4.1,2.555,0.8221917877526401,-0.006580596732929923,0.5570907088841714,0.0038867154860059458,-0.059692,-42.335068
11.185,2.0,1.0,1.0,33.1,33.4,33.4,3.3,4.1,2.5575,0.8183468517713676,-0.00670598241515756,0.5626065457942984,0.003889074883114451,-0.060272,-42.211609
11.185,2.0,1.0,1.0,33.1,33.4,33.4,3.3,4.1,2.56,0.8144463926908153,-0.006833505896158138,0.5681203789412019,0.003890465634677372,-0.060862,-42.08783
11.185,2.0,1.0,1.0,33.1,33.4,33.4,3.3,4.1,2.5625,0.8104898254056053,-0.006963208593855103,0.5736319141036509,0.0038908521200355676,-0.061463,-41.963722
11.185,2.0,1.0,1.0,33.1,33.4,33.4,3.3,4.1,2.565,0.8064765554833992,-0.007095132923847775,0.579140847728008,0.0038901974339787962,-0.062074,-41.839275
11.185,2.0,1.0,1.0,33.1,33.4,33.4,3.3,4.1,2.5675,0.802405979019406,-0.0072293223277370925,0.5846468666199641,0.00388846333492939,-0.062696,-41.714481
11.185,2.0,1.0,1.0,33.1,33.4,33.4,3.3,4.1,2.57,0.7982774824893135,-0.007365821302377561,0.5901496476258403,0.003885610190767228,-0.06333,-41.589329
11.185,2.0,1.0,1.0,33.1,33.4,33.4,3.3,4.1,2.5725,0.7940904426006826,-0.007504675430089688,0.5956488573030718,0.0038815969221742998,-0.063975,-41.463812
11.185,2.0,1.0,1.0,33.1,33.4,33.4,3.3,4.1,2.575,0.7898442261428331,-0.007645931409868465,0.6011441515794708,0.0038763809433702374,-0.064632,-41.337919
11.185,2.0,1.0,1.0,33.1,33.4,33.4,3.3,4.1,2.5775,0.7855381898352649,-0.00778963708962574,0.606635175400857,0.003869918100101972,-0.0653,-41.21164
11.185,2.0,1.0,1.0,33.1,33.4,33.4,3.3,4.1,2.58,0.7811716801746533,-0.007935841499504223,0.6121215623666167,0.0038621626047433146,-0.065982,-41.084967
11.185,2.0,1.0,1.0,33.1,33.4,33.4,3.3,4.1,2.5825,0.7767440332804688,-0.008084594886305032,0.6176029343527487,0.003853066968351268,-0.066675,-40.957888
11.185,2.0,1.0,1.0,33.1,33.4,33.4,3.3,4.1,2.585,0.7722545747392728,-0.008235948749068949,0.6230789011219171,0.0038425819295165534,-0.067382,-40.830395
11.185,2.0,1.0,1.0,33.1,33.4,33.4,3.3,4.1,2.5875,0.7677026194477451,-0.00838995587585737,0.6285490599200312,0.003830656379836296,-0.068102,-40.702476
11.185,2.0,1.0,1.0,33.1,33.4,33.4,3.3,4.1,2.59,0.7630874714545103,-0.0085466703817764,0.6340129950588296,0.0038172372858261807,-0.068836,-40.574122
11.185,2.0,1.0,1.0,33.1,33.4,33.4,3.3,4.1,2.5925,0.7584084238008256,-0.008706147748293244,0.6394702774839518,0.0038022696070781343,-0.069583,-40.445323
11.185,2.0,1.0,1.0,33.1,33.4,33.4,3.3,4.1,2.595,0.7536647583602162,-0.008868444863893396,0.6449204643279186,0.0037856962104576113,-0.070345,-40.316067
11.185,2.0,1.0,1.0,33.1,33.4,33.4,3.3,4.1,2.5975,0.748855745677125,-0.009033620066130411,0.6503630984474658,0.003767457780121807,-0.071121,-40.186344
11.185,2.0,1.0,1.0,33.1,33.4,33.4,3.3,4.1,2.6,0.7439806448046753,-0.009201733185121973,0.6557977079446109,0.0037474927231261864,-0.071913,-40.056142
11.185,2.0,1.0,1.0,33.1,33.4,33.4,3.3,4.1,2.6025,0.7390387031416421,-0.009372845588547885,0.6612238056708184,0.0037257370703723523,-0.072719,-39.925452
11.185,2.0,1.0,1.0,33.1,33.4,33.4,3.3,4.1,2.605,0.734029156268728,-0.009547020228208258,0.6666408887136125,0.003702124372633864,-0.073542,-39.794261
11.185,2.0,1.0,1.0,33.1,33.4,33.4,3.3,4.1,2.6075,0.7289512277842635,-0.009724321688201976,0.6720484378649403,0.0036765855913807803,-0.074381,-39.662558
11.185,2.0,1.0,1.0,33.1,33.4,33.4,3.3,4.1,2.61,0.7238041291394485,-0.009904816234789046,0.6774459170705601,0.003649048984104155,-0.075236,-39.530332
11.185,2.0,1.0,1.0,33.1,33.4,33.4,3.3,4.1,2.6125,0.7185870594732652,-0.010088571868001451,0.6828327728597033,0.003619439983823679,-0.076109,-39.39757
11.185,2.0,1.0,1.0,33.1,33.4,33.4,3.3,4.1,2.615,0.7132992054471974,-0.010275658375071535,0.6882084337542235,0.0035876810724397796,-0.076999,-39.26426
11.185,2.0,1.0,1.0,33.1,33.4,33.4,3.3,4.1,2.6175,0.707939741079915,-0.010466147385747856,0.6935723096563903,0.0035536916475694376,-0.077907,-39.130391
11.185,2.0,1.0,1.0,33.1,33.4,33.4,3.3,4.1,2.62,0.7025078275820771,-0.010660112429572766,0.6989237912144759,0.0035173878824808122,-0.078833,-38.995949
11.185,2.0,1.0,1.0,33.1,33.4,33.4,3.3,4.1,2.6225,0.6970026131914223,-0.010857628995197917,0.7042622491652172,0.003478682578715896,-0.079779,-38.860923
11.185,2.0,1.0,1.0,33.1,33.4,33.4,3.3,4.1,2.625,0.691423233008347,-0.0110587745918172,0.709587033652197,0.0034374850109623,-0.080744,-38.725298
11.185,2.0,1.0,1.0,33.1,33.4,33.4,3.3,4.1,2.6275,0.6857688088321463,-0.011263628812799794,0.7148974735191549,0.0033937007637053107,-0.081729,-38.589062
11.185,2.0,1.0,1.0,33.1,33.4,33.4,3.3,4.1,2.63,0.680038448998147,-0.011472273401608465,0.7201928755771694,0.003347231559158968,-0.082734,-38.4522
11.185,2.0,1.0,1.0,33.1,33.4,33.4,3.3,4.1,2.6325,0.6742312482159465,-0.011684792320092712,0.7254725238446134,0.003297975075940141,-0.083761,-38.314701
11.185,2.0,1.0,1.0,33.1,33.4,33.4,3.3,4.1,2.635,0.6683462874090044,-0.011901271819247801,0.730735678758723,0.00324582475791137,-0.084809,-38.176548
11.185,2.0,1.0,1.0,33.1,33.4,33.4,3.3,4.1,2.6375,0.6623826335558457,-0.012121800512535403,0.7359815763575589,0.003190669612578274,-0.08588,-38.037729
11.185,2.0,1.0,1.0,33.1,33.4,33.4,3.3,4.1,2.64,0.6563393395331407,-0.012346469451864463,0.7412094274310894,0.003132393998382864,-0.086974,-37.898228
11.185,2.0,1.0,1.0,33.1,33.4,33.4,3.3,4.1,2.6425,0.6502154439609645,-0.01257537220633367,0.7464184166400343,0.003070877400186916,-0.088091,-37.75803
11.185,2.0,1.0,1.0,33.1,33.4,33.4,3.3,4.1,2.645,0.6440099710505407,-0.012808604943840484,0.7516077016010563,0.0030059941921877944,-0.089233,-37.617121
11.185,2.0,1.0,1.0,33.1,33.4,33.4,3.3,4.1,2.6475,0.6377219304548121,-0.013046266515665539,0.7567764119367981,0.002937613387454397,-0.0904,-37.475483
11.185,2.0,1.0,1.0,33.1,33.4,33.4,3.3,4.1,2.65,0.6313503171221715,-0.01328845854414274,0.761923648289192,0.0028655983732093953,-0.091593,-37.333103
11.185,2.0,1.0,1.0,33.1,33.4,33.4,3.3,4.1,2.6525,0.6248941111537641,-0.013535285513530016,0.767048481294361,0.00278980663092023,-0.092812,-37.189962
11.185,2.0,1.0,1.0,33.1,33.4,33.4,3.3,4.1,2.655,0.6183522776647301,-0.013786854864197484,0.7721499505173626,0.0027100894401892025,-0.094058,-37.046046
11.185,2.0,1.0,1.0,33.1,33.4,33.4,3.3,4.1,2.6575,0.6117237666498366,-0.014043277090252564,0.7772270633449048,0.002626291565357272,-0.095333,-36.901335
11.185,2.0,1.0,1.0,33.1,33.4,33.4,3.3,4.1,2.66,0.6050075128539492,-0.014304665840723997,0.7822787938340648,0.0025382509236521423,-0.096637,-36.755813
11.185,2.0,1.0,1.0,33.1,33.4,33.4,3.3,4.1,2.6625,0.5982024356478315,-0.014571138024428505,0.7873040815149167,0.0024457982336211896,-0.097971,-36.609463
11.185,2.0,1.0,1.0,33.1,33.4,33.4,3.3,4.1,2.665,0.5913074389097858,-0.014842813918645462,0.7923018301448647,0.00234875664249063,-0.099336,-36.462265
11.185,2.0,1.0,1.0,33.1,33.4,33.4,3.3,4.1,2.6675,0.5843214109136978,-0.015119817281724906,0.7972709064123231,0.002246941330985875,-0.100733,-36.314201
11.185,2.0,1.0,1.0,33.1,33.4,33.4,3.3,4.1,2.67,0.5772432242240632,-0.015402275469755925,0.8022101385872503,0.002140159094030328,-0.102162,-36.165251
11.185,2.0,1.0,1.0,33.1,33.4,33.4,3.3,4.1,2.6725,0.5700717355986261,-0.015690319557420153,0.8071183151158964,0.002028207895613596,-0.103626,-36.015396
11.185,2.0,1.0,1.0,33.1,33.4,33.4,3.3,4.1,2.675,0.5628057858993045,-0.015984084463154424,0.8119941831569252,0.0019108763959802388,-0.105124,-35.864615
11.185,2.0,1.0,1.0,33.1,33.4,33.4,3.3,4.1,2.6775,0.5554442000121106,-0.01628370907874297,0.816836447055923,0.0017879434491395148,-0.106659,-35.712888
11.185,2.0,1.0,1.0,33.1,33.4,33.4,3.3,4.1,2.68,0.5479857867768266,-0.01658933640345548,0.8216437667550807,0.0016591775685300505,-0.108231,-35.560193
11.185,2.0,1.0,1.0,33.1,33.4,33.4,3.3,4.1,2.6825,0.5404293389272609,-0.016901113682841078,0.8264147561346338,0.00152433635849303,-0.109842,-35.406509
11.185,2.0,1.0,1.0,33.1,33.4,33.4,3.3,4.1,2.685,0.5327736330429401,-0.017219192552279747,0.8311479812824085,0.0013831659090089445,-0.111492,-35.251812
11.185,2.0,1.0,1.0,33.1,33.4,33.4,3.3,4.1,2.6875,0.525017429513175,-0.0175437291853821,0.835841958687567,0.00123540015093548,-0.113184,-35.096079
11.185,2.0,1.0,1.0,33.1,33.4,33.4,3.3,4.1,2.69,0.5171594725145036,-0.01787488444731492,0.8404951533543648,0.0010807601687472515,-0.114919,-34.939288
11.185,2.0,1.0,1.0,33.1,33.4,33.4,3.3,4.1,2.6925,0.5091984900025599,-0.018212824053112434,0.8451059768314407,0.000918953467515417,-0.116697,-34.781412
11.185,2.0,1.0,1.0,33.1,33.4,33.4,3.3,4.1,2.695,0.501133193719543,-0.01855771873101229,0.8496727851518193,0.0007496731905801301,-0.118522,-34.622427
11.185,2.0,1.0,1.0,33.1,33.4,33.4,3.3,4.1,2.6975,0.49296227921848274,-0.01890974439082978,0.8541938766784577,0.0005725972840520695,-0.120394,-34.462307
11.185,2.0,1.0,1.0,33.1,33.4,33.4,3.3,4.1,2.7,0.48468442590566113,-0.019269082297351216,0.8586674898497673,0.00038738760393395,-0.122315,-34.301024
11.185,2.0,1.0,1.0,33.1,33.4,33.4,3.3,4.1,2.7025,0.476298297102584,-0.019635919248691167,0.863091800819115,0.00019368896126999223,-0.124287,-34.138553
11.185,2.0,1.0,1.0,33.1,33.4,33.4,3.3,4.1,2.705,0.4678025401290695,-0.020010447759510917,0.867464920981836,-8.871899688471476e-06,-0.126311,-33.974863
11.185,2.0,1.0,1.0,33.1,33.4,33.4,3.3,4.1,2.7075,0.4591957864090947,-0.02039286624894174,0.8717848943827712,-0.00022068739577812423,-0.128391,-33.809926
11.185,2.0,1.0,1.0,33.1,33.4,33.4,3.3,4.1,2.71,0.45047665160121736,-0.020783379232991464,0.8760496949967709,-0.0004421702776681176,-0.130527,-33.643711
11.185,2.0,1.0,1.0,33.1,33.4,33.4,3.3,4.1,2.7125,0.4416437357555169,-0.021182197521134646,0.8802572238739913,-0.0006737548876102252,-0.132722,-33.476188
11.185,2.0,1.0,1.0,33.1,33.4,33.4,3.3,4.1,2.715,0.43269562349918306,-0.021589538416695146,0.884405306141099,-0.0009158985093765011,-0.134978,-33.307324
11.185,2.0,1.0,1.0,33.1,33.4,33.4,3.3,4.1,2.7175,0.42363088425306583,-0.02200562592052093,0.8884916878487619,-0.0011690828182619726,-0.137297,-33.137085
11.185,2.0,1.0,1.0,33.1,33.4,33.4,3.3,4.1,2.72,0.41444807248172333,-0.02243069093732104,0.8925140326549349,-0.0014338154397987933,-0.139683,-32.965438
11.185,2.0,1.0,1.0,33.1,33.4,33.4,3.3,4.1,2.7225,0.4051457279797154,-0.02286497148388365,0.896469918332551,-0.0017106316266833198,-0.142138,-32.792346
11.185,2.0,1.0,1.0,33.1,33.4,33.4,3.3,4.1,2.725,0.39572237619721534,-0.023308712898212753,0.9003568330891544,-0.0020000960643661806,-0.144664,-32.617773
11.185,2.0,1.0,1.0,33.1,33.4,33.4,3.3,4.1,2.7275,0.3861765286082501,-0.0237621680484111,0.9041721716849181,-0.0023028048168120775,-0.147264,-32.441682
11.185,2.0,1.0,1.0,33.1,33.4,33.4,3.3,4.1,2.73,0.37650668312529295,-0.024225597539884174,0.9079132313341665,-0.00261938742511068,-0.149942,-32.264031
11.185,2.0,1.0,1.0,33.1,33.4,33.4,3.3,4.1,2.7325,0.3667113245642752,-0.02469926991914926,0.9115772073741486,-0.0029505091729314084,-0.152701,-32.084782
11.185,2.0,1.0,1.0,33.1,33.4,33.4,3.3,4.1,2.735,0.3567889251645763,-0.025183461872182702,0.9151611886832132,-0.0032968735342762024,-0.155545,-31.90389
11.185,2.0,1.0,1.0,33.1,33.4,33.4,3.3,4.1,2.7375,0.3467379451690336,-0.025678458414834557,0.918662152828787,-0.003659224820619012,-0.158476,-31.721313
11.185,2.0,1.0,1.0,33.1,33.4,33.4,3.3,4.1,2.74,0.3365568334696375,-0.026184553072354576,0.9220769609235966,-0.004038351046347536,-0.161499,-31.537006
11.185,2.0,1.0,1.0,33.1,33.4,33.4,3.3,4.1,2.7425,0.3262440283252346,-0.026702048044509957,0.925402352166387,-0.004435087033469357,-0.164618,-31.35092
11.185,2.0,1.0,1.0,33.1,33.4,33.4,3.3,4.1,2.745,0.3157979581583635,-0.02723125435210554,0.9286349380409308,-0.004850317778838865,-0.167838,-31.163006
11.185,2.0,1.0,1.0,33.1,33.4,33.4,3.3,4.1,2.7475,0.3052170424392559,-0.027772491959930295,0.9317711961443718,-0.005284982109736639,-0.171162,-30.973215
11.185,2.0,1.0,1.0,33.1,33.4,33.4,3.3,4.1,2.75,0.294499692666089,-0.0283260898702245,0.93480746361287,-0.00574007665652772,-0.174596,-30.781493
11.185,2.0,1.0,1.0,33.1,33.4,33.4,3.3,4.1,2.7525,0.28364431345180874,-0.02889238617966614,0.9377399301090281,-0.006216660174382266,-0.178146,-30.587784
11.185,2.0,1.0,1.0,33.1,33.4,33.4,3.3,4.1,2.755,0.27264930372927815,-0.02947172809157742,0.9405646303316868,-0.006715858249711925,-0.181816,-30.392033
11.185,2.0,1.0,1.0,33.1,33.4,33.4,3.3,4.1,2.7575,0.2615130580881544,-0.03006447187352279,0.9432774360042707,-0.007238868431116365,-0.185613,-30.194178
11.185,2.0,1.0,1.0,33.1,33.4,33.4,3.3,4.1,2.76,0.25023396825889993,-0.030670982748654072,0.9458740472928897,-0.007786965829310421,-0.189543,-29.994158
11.185,2.0,1.0,1.0,33.1,33.4,33.4,3.3,4.1,2.7625,0.23881042476158396,-0.031291634707011504,0.9483499835997972,-0.00836150923579366,-0.193613,-29.791909
11.185,2.0,1.0,1.0,33.1,33.4,33.4,3.3,4.1,2.765,0.2272408187398725,-0.03192681022044098,0.9507005736714366,-0.008963947816014967,-0.19783,-29.587362
11.185,2.0,1.0,1.0,33.1,33.4,33.4,3.3,4.1,2.7675,0.21552354400377954,-0.03257689984176101,0.952920944953111,-0.009595828439579837,-0.202201,-29.380448
11.185,2.0,1.0,1.0,33.1,33.4,33.4,3.3,4.1,2.77,0.20365699930850567,-0.033242301665216994,0.9550060121141357,-0.010258803717765955,-0.206735,-29.171092
11.185,2.0,1.0,1.0,33.1,33.4,33.4,3.3,4.1,2.7725,0.19163959090117513,-0.03392342062097365,0.9569504646580266,-0.01095464082738518,-0.211442,-28.959219
11.185,2.0,1.0,1.0,33.1,33.4,33.4,3.3,4.1,2.775,0.17946973537256097,-0.0346206675712915,0.9587487535217193,-0.01168523121002367,-0.216329,-28.744747
11.185,2.0,1.0,1.0,33.1,33.4,33.4,3.3,4.1,2.7775,0.16714586285719002,-0.03533445816992929,0.9603950765557461,-0.012452601247082515,-0.221409,-28.527594
11.185,2.0,1.0,1.0,33.1,33.4,33.4,3.3,4.1,2.78,0.15466642063270916,-0.03606521143902208,0.9618833627635429,-0.013258924024050113,-0.226691,-28.30767
11.185,2.0,1.0,1.0,33.1,33.4,33.4,3.3,4.1,2.7825,0.14202987717840765,-0.036813348008936486,0.9632072551623412,-0.01410653231230476,-0.232188,-28.084884
11.185,2.0,1.0,1.0,33.1,33.4,33.4,3.3,4.1,2.785,0.12923472676343947,-0.03757928795611662,0.9643600921101005,-0.014997932913773571,-0.237913,-27.859139
11.185,2.0,1.0,1.0,33.1,33.4,33.4,3.3,4.1,2.7875,0.11627949464827331,-0.03836344816131013,0.9653348869223318,-0.0159358225332819,-0.243879,-27.630335
11.185,2.0,1.0,1.0,33.1,33.4,33.4,3.3,4.1,2.79,0.10316274299829455,-0.039166239095364166,0.9661243055789887,-0.016923105365826686,-0.250102,-27.398366
11.185,2.0,1.0,1.0,33.1,33.4,33.4,3.3,4.1,2.7925,0.0898830776272537,-0.03998806092142258,0.9667206422944502,-0.017962912611738872,-0.256598,-27.163119
11.185,2.0,1.0,1.0,33.1,33.4,33.4,3.3,4.1,2.795,0.07643915571072223,-0.04082929878015274,0.9671157926923387,-0.019058624162311702,-0.263384,-26.924477
11.185,2.0,1.0,1.0,33.1,33.4,33.4,3.3,4.1,2.7975,0.06282969463718034,-0.04169031709770404,0.9673012242909379,-0.020213892732566685,-0.270481,-26.682319
11.185,2.0,1.0,1.0,33.1,33.4,33.4,3.3,4.1,2.8,0.04905348219744334,-0.04257145272338456,0.9672679439634657,-0.021432670757152463,-0.277909,-26.436513
11.185,2.0,1.0,1.0,33.1,33.4,33.4,3.3,4.1,2.8025,0.035109388353625585,-0.04347300666419175,0.9670064619895974,-0.022719240410737813,-0.285691,-26.186924
11.185,2.0,1.0,1.0,33.1,33.4,33.4,3.3,4.1,2.805,0.020996378878162775,-0.044395234134670565,0.9665067522593151,-0.02407824716665884,-0.293853,-25.933408
11.185,2.0,1.0,1.0,33.1,33.4,33.4,3.3,4.1,2.8075,0.006713531213761671,-0.04533833258101329,0.9657582081262853,-0.025514737368133967,-0.302422,-25.675813
11.185,2.0,1.0,1.0,33.1,33.4,33.4,3.3,4.1,2.81,-0.007739947020752438,-0.046302427265212616,0.9647495933340731,-0.02703420035635866,-0.311428,-25.41398
11.185,2.0,1.0,1.0,33.1,33.4,33.4,3.3,4.1,2.8125,-0.022364696362549,-0.0472875539051213,0.963468987353078,-0.0286426157807205,-0.320906,-25.147739
11.185,2.0,1.0,1.0,33.1,33.4,33.4,3.3,4.1,2.815,-0.03716118004626135,-0.04829363775526864,0.9619037243672939,-0.0303465068099295,-0.330891,-24.876911
11.185,2.0,1.0,1.0,33.1,33.4,33.4,3.3,4.1,2.8175,-0.052129653986949985,-0.049320468375909254,0.9600403250358398,-0.032153000070915594,-0.341424,-24.601308
11.185,2.0,1.0,1.0,33.1,33.4,33.4,3.3,4.1,2.82,-0.06727013126389213,-0.05036766916727919,0.9578644200224198,-0.034069893267018876,-0.352552,-24.320731
11.185,2.0,1.0,1.0,33.1,33.4,33.4,3.3,4.1,2.8225,-0.0825823399493159,-0.051434660533780104,0.9553606641339994,-0.036105731570553405,-0.364323,-24.034966
11.185,2.0,1.0,1.0,33.1,33.4,33.4,3.3,4.1,2.825,-0.09806567285742827,-0.052520615277758746,0.9525126397354121,-0.038269894049642636,-0.376794,-23.743789
11.185,2.0,1.0,1.0,33.1,33.4,33.4,3.3,4.1,2.8275,-0.11371912745231172,-0.053624404490531595,0.9493027479067291,-0.04057269157767351,-0.390026,-23.446963
