1,w,sub_t,h,l1,l2,l3,g1,g2,Freq,S11_re,S21_re,S11_img,S21_img,S11_dB,S21_dB
11.185,2.0,1.0,1.0,34.8,34.4,34.4,2.9,2.6,2.5,0.640419751463024,-0.0176354226284568,0.755755087442674,0.00687400062033158,-0.081968,-34.458017
11.185,2.0,1.0,1.0,34.8,34.4,34.4,2.9,2.6,2.5025,0.633775256394187,-0.01795609793786962,0.7611875232087331,0.0068087026599488116,-0.082967,-34.332328
11.185,2.0,1.0,1.0,34.8,34.4,34.4,2.9,2.6,2.505,0.6270446869955981,-0.018282303625008763,0.7665913550464788,0.006739065906074639,-0.083986,-34.206079
11.185,2.0,1.0,1.0,34.8,34.4,34.4,2.9,2.6,2.5075,0.6202272044429578,-0.018614142547619703,0.7719655280051728,0.006664930467681373,-0.085025,-34.079259
11.185,2.0,1.0,1.0,34.8,34.4,34.4,2.9,2.6,2.51,0.6133219631963243,-0.018951719602956402,0.7773089572869298,0.006586130374215749,-0.086086,-33.951858
11.185,2.0,1.0,1.0,34.8,34.4,34.4,2.9,2.6,2.5125,0.6063281111654956,-0.01929514176344543,0.7826205273770004,0.0065024933163161085,-0.087169,-33.823865
11.185,2.0,1.0,1.0,34.8,34.4,34.4,2.9,2.6,2.515,0.5992447898901087,-0.019644518112354188,0.7878990911477091,0.006413840373836344,-0.088274,-33.695269
11.185,2.0,1.0,1.0,34.8,34.4,34.4,2.9,2.6,2.5175,0.5920711347352482,-0.019999959879392917,0.7931434689351354,0.006319985730454937,-0.089402,-33.566059
11.185,2.0,1.0,1.0,34.8,34.4,34.4,2.9,2.6,2.52,0.584806275103343,-0.02036158047617252,0.7983524475876217,0.006220736374100422,-0.090554,-33.436224
11.185,2.0,1.0,1.0,34.8,34.4,34.4,2.9,2.6,2.5225,0.5774493346632205,-0.020729495531429224,0.8035247794850963,0.006115891782372024,-0.09173,-33.305751
11.185,2.0,1.0,1.0,34.8,34.4,34.4,2.9,2.6,2.525,0.5699994315971723,-0.02110382292591993,0.8086591815282166,0.006005243592081701,-0.092932,-33.17463
11.185,2.0,1.0,1.0,34.8,34.4,34.4,2.9,2.6,2.5275,0.5624556788669706,-0.02148468282687916,0.8137543340962401,0.005888575251980606,-0.094159,-33.042847
11.185,2.0,1.0,1.0,34.8,34.4,34.4,2.9,2.6,2.53,0.5548171844997957,-0.021872197721915242,0.8188088799724974,0.0057656616576727306,-0.095412,-32.91039
11.185,2.0,1.0,1.0,34.8,34.4,34.4,2.9,2.6,2.5325,0.5470830518950912,-0.022266492452212776,0.8238214232362826,0.005636268767647622,-0.096693,-32.777247
11.185,2.0,1.0,1.0,34.8,34.4,34.4,2.9,2.6,2.535,0.5392523801533948,-0.02266769424489018,0.8287905281199214,0.005500153199288907,-0.098002,-32.643404
11.185,2.0,1.0,1.0,34.8,34.4,34.4,2.9,2.6,2.5375,0.5313242644282753,-0.02307593274434642,0.8337147178296991,0.005357061803636803,-0.09934,-32.508848
11.185,2.0,1.0,1.0,34.8,34.4,34.4,2.9,2.6,2.54,0.5232977963025243,-0.023491340042410797,0.8385924733292681,0.005206731217594566,-0.100708,-32.373566
11.185,2.0,1.0,1.0,34.8,34.4,34.4,2.9,2.6,2.5425,0.5151720641898303,-0.023914050707091086,0.8434222320840811,0.0050488873921743106,-0.102107,-32.237543
11.185,2.0,1.0,1.0,34.8,34.4,34.4,2.9,2.6,2.545,0.5069461537632122,-0.024344201809690196,0.8482023867653103,0.004883245095277754,-0.103537,-32.100766
11.185,2.0,1.0,1.0,34.8,34.4,34.4,2.9,2.6,2.5475,0.49861914841157084,-0.024781932950035866,0.8529312839116144,0.004709507387395419,-0.105,-31.963219
11.185,2.0,1.0,1.0,34.8,34.4,34.4,2.9,2.6,2.55,0.49019012972574083,-0.02522738627954408,0.8576072225470415,0.004527365068488947,-0.106496,-31.824888
11.185,2.0,1.0,1.0,34.8,34.4,34.4,2.9,2.6,2.5525,0.48165817801556593,-0.025680706521796413,0.8622284527532201,0.004336496094192155,-0.108028,-31.685757
11.185,2.0,1.0,1.0,34.8,34.4,34.4,2.9,2.6,2.555,0.473022372859519,-0.026142040990286015,0.8667931741939081,0.0041365649593256655,-0.109595,-31.54581
11.185,2.0,1.0,1.0,34.8,34.4,34.4,2.9,2.6,2.5575,0.4642817936885207,-0.026611539602940153,0.8712995345898222,0.003927222046565989,-0.111199,-31.405032
11.185,2.0,1.0,1.0,34.8,34.4,34.4,2.9,2.6,2.56,0.4554355204056885,-0.02708935489298797,0.8757456281415404,0.0037081029379468222,-0.112842,-31.263405
11.185,2.0,1.0,1.0,34.8,34.4,34.4,2.9,2.6,2.5625,0.44648263404382166,-0.027575642015689357,0.8801294938981298,0.003478827686686702,-0.114523,-31.120912
11.185,2.0,1.0,1.0,34.8,34.4,34.4,2.9,2.6,2.565,0.4374222174625323,-0.028070558750389375,0.8844491140689831,0.0032390000466424257,-0.116246,-30.977537
11.185,2.0,1.0,1.0,34.8,34.4,34.4,2.9,2.6,2.5675,0.4282533560870653,-0.028574265497299436,0.8887024122761649,0.0029882066564741578,-0.118011,-30.833261
11.185,2.0,1.0,1.0,34.8,34.4,34.4,2.9,2.6,2.57,0.4189751386909141,-0.0290869252683373,0.8928872517443915,0.0027260161753726183,-0.119819,-30.688065
11.185,2.0,1.0,1.0,34.8,34.4,34.4,2.9,2.6,2.5725,0.4095866582245033,-0.029608703671281805,0.8970014334255432,0.002451978366946177,-0.121672,-30.54193
11.185,2.0,1.0,1.0,34.8,34.4,34.4,2.9,2.6,2.575,0.4000870126923179,-0.030139768886412933,0.9010426940543776,0.002165623127586931,-0.123572,-30.394838
11.185,2.0,1.0,1.0,34.8,34.4,34.4,2.9,2.6,2.5775,0.39047530608101805,-0.030680291634708343,0.9050087041318524,0.0018664594553306959,-0.12552,-30.246767
11.185,2.0,1.0,1.0,34.8,34.4,34.4,2.9,2.6,2.58,0.38075064934122155,-0.031230445136558423,0.9088970658321959,0.0015539743548943635,-0.127517,-30.097697
11.185,2.0,1.0,1.0,34.8,34.4,34.4,2.9,2.6,2.5825,0.3709121614258034,-0.03179040505984432,0.9127053108295419,0.0012276316742091439,-0.129567,-29.947607
11.185,2.0,1.0,1.0,34.8,34.4,34.4,2.9,2.6,2.585,0.36095897038776353,-0.03236034945607681,0.9164308980396143,0.0008868708673714817,-0.131669,-29.796475
11.185,2.0,1.0,1.0,34.8,34.4,34.4,2.9,2.6,2.5875,0.3508902145408922,-0.032940458683146275,0.920071211271551,0.000531105678493985,-0.133828,-29.644278
11.185,2.0,1.0,1.0,34.8,34.4,34.4,2.9,2.6,2.59,0.34070504368670995,-0.03353091531305408,0.9236235567845719,0.00015972274046303163,-0.136043,-29.490993
11.185,2.0,1.0,1.0,34.8,34.4,34.4,2.9,2.6,2.5925,0.33040262041137486,-0.03413190402279772,0.9270851607437042,-0.00022791991792165447,-0.138319,-29.336596
11.185,2.0,1.0,1.0,34.8,34.4,34.4,2.9,2.6,2.595,0.31998212145655686,-0.03474361146635948,0.930453166568285,-0.0006324944635242523,-0.140656,-29.181062
11.185,2.0,1.0,1.0,34.8,34.4,34.4,2.9,2.6,2.5975,0.3094427391685322,-0.03536622612549425,0.9337246321664012,-0.0010547049569056648,-0.143057,-29.024365
11.185,2.0,1.0,1.0,34.8,34.4,34.4,2.9,2.6,2.6,0.29878368303011477,-0.0359999381367236,0.9368965270477952,-0.0014952891652514199,-0.145525,-28.866479
11.185,2.0,1.0,1.0,34.8,34.4,34.4,2.9,2.6,2.6025,0.2880041812804126,-0.036644939091620504,0.9399657293070742,-0.0019550204994053556,-0.148062,-28.707376
11.185,2.0,1.0,1.0,34.8,34.4,34.4,2.9,2.6,2.605,0.2771034826277743,-0.037301421807094455,0.9429290224682967,-0.0024347100850752386,-0.150672,-28.547029
11.185,2.0,1.0,1.0,34.8,34.4,34.4,2.9,2.6,2.6075,0.26608085806179393,-0.03796958006197329,0.9457830921811525,-0.002935208979215399,-0.153356,-28.385408
11.185,2.0,1.0,1.0,34.8,34.4,34.4,2.9,2.6,2.61,0.25493560277073024,-0.03864960829569312,0.9485245227580072,-0.0034574105436334522,-0.156118,-28.222483
11.185,2.0,1.0,1.0,34.8,34.4,34.4,2.9,2.6,2.6125,0.24366703817129243,-0.039341701264368124,0.9511497935400247,-0.0040022529890190485,-0.158961,-28.058223
11.185,2.0,1.0,1.0,34.8,34.4,34.4,2.9,2.6,2.615,0.23227451405838279,-0.04004605364889006,0.9536552750794111,-0.004570722103867119,-0.161889,-27.892595
11.185,2.0,1.0,1.0,34.8,34.4,34.4,2.9,2.6,2.6175,0.220757410883151,-0.04076285960899515,0.9560372251235015,-0.005163854184179551,-0.164905,-27.725565
11.185,2.0,1.0,1.0,34.8,34.4,34.4,2.9,2.6,2.62,0.20911514216854862,-0.04149231227643089,0.9582917843849659,-0.00578273918139825,-0.168013,-27.5571
11.185,2.0,1.0,1.0,34.8,34.4,34.4,2.9,2.6,2.6225,0.19734715707248965,-0.042234603179423805,0.9604149720807772,-0.006428524087761065,-0.171217,-27.387163
11.185,2.0,1.0,1.0,34.8,34.4,34.4,2.9,2.6,2.625,0.185452943109894,-0.0429899215895874,0.962402681220737,-0.00710241658020576,-0.174521,-27.215716
11.185,2.0,1.0,1.0,34.8,34.4,34.4,2.9,2.6,2.6275,0.17343202904601257,-0.043758453781189845,0.9642506736243723,-0.0078056889461009995,-0.17793,-27.042722
11.185,2.0,1.0,1.0,34.8,34.4,34.4,2.9,2.6,2.63,0.16128398797496635,-0.044540382191298335,0.9659545746426753,-0.00853968231647733,-0.181448,-26.868139
11.185,2.0,1.0,1.0,34.8,34.4,34.4,2.9,2.6,2.6325,0.1490084405989722,-0.04533588446770754,0.9675098675586545,-0.00930581123510386,-0.185081,-26.691926
11.185,2.0,1.0,1.0,34.8,34.4,34.4,2.9,2.6,2.635,0.13660505872563736,-0.04614513238969308,0.9689118876377832,-0.010105568594735857,-0.188834,-26.514039
11.185,2.0,1.0,1.0,34.8,34.4,34.4,2.9,2.6,2.6375,0.12407356900283792,-0.04696829064449653,0.9701558157962247,-0.010940530975188965,-0.192712,-26.334434
11.185,2.0,1.0,1.0,34.8,34.4,34.4,2.9,2.6,2.64,0.1114137569131611,-0.04780551543996419,0.9712366718511264,-0.011812364421617049,-0.196722,-26.153063
11.185,2.0,1.0,1.0,34.8,34.4,34.4,2.9,2.6,2.6425,0.09862547105277447,-0.0486569529308933,0.972149307313218,-0.012722830705536405,-0.20087,-25.969877
11.185,2.0,1.0,1.0,34.8,34.4,34.4,2.9,2.6,2.645,0.08570862772287145,-0.049522737433319225,0.9728883976774053,-0.013673794115804178,-0.205164,-25.784826
11.185,2.0,1.0,1.0,34.8,34.4,34.4,2.9,2.6,2.6475,0.07266321586570511,-0.05040298939711376,0.9734484341619526,-0.01466722883199349,-0.20961,-25.597856
11.185,2.0,1.0,1.0,34.8,34.4,34.4,2.9,2.6,2.65,0.059489302381647145,-0.051297813102781226,0.9738237148410561,-0.015705226938477305,-0.214216,-25.408911
11.185,2.0,1.0,1.0,34.8,34.4,34.4,2.9,2.6,2.6525,0.046187037868974504,-0.05220729404310719,0.974008335109164,-0.016790007144128836,-0.218992,-25.217935
11.185,2.0,1.0,1.0,34.8,34.4,34.4,2.9,2.6,2.655,0.03275666283405722,-0.05313149594422374,0.9739961774080433,-0.017923924279968827,-0.223946,-25.024867
11.185,2.0,1.0,1.0,34.8,34.4,34.4,2.9,2.6,2.6575,0.01919851442677212,-0.054070457373522535,0.9737809001393795,-0.019109479655428082,-0.229087,-24.829643
11.185,2.0,1.0,1.0,34.8,34.4,34.4,2.9,2.6,2.66,0.0055130337642508905,-0.05502418787350848,0.9733559256763378,-0.020349332363304145,-0.234427,-24.632198
11.185,2.0,1.0,1.0,34.8,34.4,34.4,2.9,2.6,2.6625,-0.008299226084206003,-0.055992663550898235,0.972714427377019,-0.021646311634079932,-0.239977,-24.432464
11.185,2.0,1.0,1.0,34.8,34.4,34.4,2.9,2.6,2.665,-0.022237591366774924,-0.05697582203877101,0.9718493154908213,-0.02300343035223264,-0.245748,-24.230368
11.185,2.0,1.0,1.0,34.8,34.4,34.4,2.9,2.6,2.6675,-0.036301258075520725,-0.057973556736037365,0.9707532218352816,-0.024423899860648458,-0.251754,-24.025834
11.185,2.0,1.0,1.0,34.8,34.4,34.4,2.9,2.6,2.67,-0.05048928141590463,-0.05898571021252533,0.9694184831057124,-0.02591114619450335,-0.25801,-23.818785
11.185,2.0,1.0,1.0,34.8,34.4,34.4,2.9,2.6,2.6725,-0.06480056418686432,-0.0600120666491028,0.9678371226627428,-0.027468827903187765,-0.264529,-23.609137
11.185,2.0,1.0,1.0,34.8,34.4,34.4,2.9,2.6,2.675,-0.0792338439166345,-0.06105234315989502,0.966000830623347,-0.029100855638319198,-0.27133,-23.396803
11.185,2.0,1.0,1.0,34.8,34.4,34.4,2.9,2.6,2.6775,-0.09378767857296494,-0.06210617981711545,0.9639009420588583,-0.03081141370789552,-0.278429,-23.181692
11.185,2.0,1.0,1.0,34.8,34.4,34.4,2.9,2.6,2.68,-0.10846043063484312,-0.06317312816745616,0.9615284130784537,-0.03260498382152375,-0.285847,-22.963709
11.185,2.0,1.0,1.0,34.8,34.4,34.4,2.9,2.6,2.6825,-0.12325024927517002,-0.06425263799134495,0.9588737945482902,-0.034486371279786154,-0.293605,-22.742752
11.185,2.0,1.0,1.0,34.8,34.4,34.4,2.9,2.6,2.685,-0.1381550503588515,-0.06534404201139775,0.9559272031644821,-0.036460733892585126,-0.301725,-22.518718
11.185,2.0,1.0,1.0,34.8,34.4,34.4,2.9,2.6,2.6875,-0.1531724939068131,-0.06644653820252636,0.952678289561925,-0.038533613947180925,-0.310234,-22.291493
11.185,2.0,1.0,1.0,34.8,34.4,34.4,2.9,2.6,2.69,-0.16829995861162922,-0.06755916929149591,0.9491162031001574,-0.040710973587080534,-0.319158,-22.060962
11.185,2.0,1.0,1.0,34.8,34.4,34.4,2.9,2.6,2.6925,-0.18353451291247305,-0.06868079895589142,0.945229552921485,-0.04299923400846078,-0.328529,-21.827
11.185,2.0,1.0,1.0,34.8,34.4,34.4,2.9,2.6,2.695,-0.19887288204289089,-0.06981008413855987,0.9410063648249606,-0.0454053189318895,-0.338379,-21.589478
11.185,2.0,1.0,1.0,34.8,34.4,34.4,2.9,2.6,2.6975,-0.21431141035095502,-0.07094544278002346,0.9364340334419536,-0.047936702864290616,-0.348745,-21.348259
11.185,2.0,1.0,1.0,34.8,34.4,34.4,2.9,2.6,2.7,-0.2298460180530678,-0.07208501613364696,0.9314992691346494,-0.05060146472974061,-0.359667,-21.103198
11.185,2.0,1.0,1.0,34.8,34.4,34.4,2.9,2.6,2.7025,-0.24547215141459508,-0.07322662466090707,0.9261880389673934,-0.05340834751815766,-0.371191,-20.854141
11.185,2.0,1.0,1.0,34.8,34.4,34.4,2.9,2.6,2.705,-0.2611847251454017,-0.07436771630000004,0.9204855010224164,-0.05636682467827552,-0.383364,-20.600927
11.185,2.0,1.0,1.0,34.8,34.4,34.4,2.9,2.6,2.7075,-0.2769780555476625,-0.07550530565155693,0.9143759312462457,-0.059487174065252384,-0.396243,-20.343386
11.185,2.0,1.0,1.0,34.8,34.4,34.4,2.9,2.6,2.71,-0.29284578264599037,-0.07663590231945995,0.9078426419220258,-0.06278056034294298,-0.409887,-20.081336
11.185,2.0,1.0,1.0,34.8,34.4,34.4,2.9,2.6,2.7125,-0.3087807791520325,-0.07775542626900449,0.9008678907675935,-0.06625912683456066,-0.424365,-19.814585
11.185,2.0,1.0,1.0,34.8,34.4,34.4,2.9,2.6,2.715,-0.324775043650085,-0.07885910760160932,0.8934327795627687,-0.06993609791003642,-0.439753,-19.542931
11.185,2.0,1.0,1.0,34.8,34.4,34.4,2.9,2.6,2.7175,-0.34081957481468683,-0.07994136757316773,0.8855171411167919,-0.0738258930887911,-0.456134,-19.266158
11.185,2.0,1.0,1.0,34.8,34.4,34.4,2.9,2.6,2.72,-0.35690422275812195,-0.08099567697437586,0.8770994133064582,-0.07794425411476118,-0.473606,-18.984039
11.185,2.0,1.0,1.0,34.8,34.4,34.4,2.9,2.6,2.7225,-0.37301751271993827,-0.08201438711109155,0.8681564988595364,-0.08230838631397795,-0.492274,-18.696331
11.185,2.0,1.0,1.0,34.8,34.4,34.4,2.9,2.6,2.725,-0.38914643520749315,-0.08298852752677623,0.8586636095455605,-0.08693711555488638,-0.512262,-18.402777
11.185,2.0,1.0,1.0,34.8,34.4,34.4,2.9,2.6,2.7275,-0.4052761953199467,-0.08390756324136574,0.848594093495166,-0.09185106206982371,-0.533706,-18.103105
11.185,2.0,1.0,1.0,34.8,34.4,34.4,2.9,2.6,2.73,-0.4213899122662522,-0.08475910257061657,0.8379192445419413,-0.097072832220734,-0.556762,-17.797025
11.185,2.0,1.0,1.0,34.8,34.4,34.4,2.9,2.6,2.7325,-0.43746825793071026,-0.08552854444755181,0.8266080928290548,-0.10262722894170859,-0.58161,-17.484231
11.185,2.0,1.0,1.0,34.8,34.4,34.4,2.9,2.6,2.735,-0.4534890206336263,-0.08619865148026418,0.8146271765379486,-0.10854148097458043,-0.608454,-17.164396
11.185,2.0,1.0,1.0,34.8,34.4,34.4,2.9,2.6,2.7375,-0.4694265768372268,-0.08674903160685048,0.8019402956114314,-0.11484548999881035,-0.63753,-16.837176
11.185,2.0,1.0,1.0,34.8,34.4,34.4,2.9,2.6,2.74,-0.48525124928168484,-0.08715550697339766,0.7885082499542162,-0.12157209314882629,-0.669107,-16.502203
11.185,2.0,1.0,1.0,34.8,34.4,34.4,2.9,2.6,2.7425,-0.5009285246863816,-0.08738934335018786,0.7742885670858156,-0.1287573359266973,-0.703501,-16.159093
11.185,2.0,1.0,1.0,34.8,34.4,34.4,2.9,2.6,2.745,-0.5164180974579844,-0.08741630675751147,0.7592352280115666,-0.13644074674024553,-0.741076,-15.807435
11.185,2.0,1.0,1.0,34.8,34.4,34.4,2.9,2.6,2.7475,-0.5316726975087787,-0.08719550569778575,0.7432984057772154,-0.14466559862006856,-0.78226,-15.446801
11.185,2.0,1.0,1.0,34.8,34.4,34.4,2.9,2.6,2.75,-0.546636649976708,-0.0866779671592594,0.726424239671507,-0.153479135208377,-0.827551,-15.076739
11.185,2.0,1.0,1.0,34.8,34.4,34.4,2.9,2.6,2.7525,-0.5612441020301698,-0.0858048820499493,0.7085546806378124,-0.16293272557799632,-0.877542,-14.69678
11.185,2.0,1.0,1.0,34.8,34.4,34.4,2.9,2.6,2.755,-0.5754168367975122,-0.08450544070461151,0.6896274620384408,-0.1730818939549729,-0.93293,-14.306435
11.185,2.0,1.0,1.0,34.8,34.4,34.4,2.9,2.6,2.7575,-0.5890615767848368,-0.08269416158800687,0.669576277220857,-0.18398614326450533,-0.994549,-13.905206
11.185,2.0,1.0,1.0,34.8,34.4,34.4,2.9,2.6,2.76,-0.602066659473828,-0.08026759683425905,0.6483312853047705,-0.19570845168319845,-1.063394,-13.492585
11.185,2.0,1.0,1.0,34.8,34.4,34.4,2.9,2.6,2.7625,-0.614297947742049,-0.0771002784303251,0.6258201248618372,-0.2083142634823862,-1.140664,-13.068071
11.185,2.0,1.0,1.0,34.8,34.4,34.4,2.9,2.6,2.765,-0.625593820996466,-0.07303975233333755,0.6019696995796752,-0.22186971156208632,-1.227812,-12.631179
11.185,2.0,1.0,1.0,34.8,34.4,34.4,2.9,2.6,2.7675,-0.6357590868984859,-0.0679005420139611,0.5767091213716452,-0.23643868850493727,-1.326604,-12.18146
11.185,2.0,1.0,1.0,34.8,34.4,34.4,2.9,2.6,2.77,-0.6445576724226509,-0.06145690190243848,0.5499743688469786,-0.25207821170843253,-1.439201,-11.718535
11.185,2.0,1.0,1.0,34.8,34.4,34.4,2.9,2.6,2.7725,-0.6517040224407576,-0.053434290539831196,0.521715459760834,-0.2688312891708136,-1.568263,-11.242127
11.185,2.0,1.0,1.0,34.8,34.4,34.4,2.9,2.6,2.775,-0.6568532991670551,-0.0434996577266961,0.4919072627920369,-0.2867161682317075,-1.717082,-10.752124
11.185,2.0,1.0,1.0,34.8,34.4,34.4,2.9,2.6,2.7775,-0.6595908129831792,-0.03125097544514102,0.4605654977281159,-0.3057104292170381,-1.889745,-10.248648
11.185,2.0,1.0,1.0,34.8,34.4,34.4,2.9,2.6,2.78,-0.659421748137232,-0.016207071669586775,0.42776998007588124,-0.3257278834010128,-2.091351,-9.732163
11.185,2.0,1.0,1.0,34.8,34.4,34.4,2.9,2.6,2.7825,-0.6557633643487706,0.0022000633125613973,0.3936976788766658,-0.34658572710749386,-2.328267,-9.203612
11.185,2.0,1.0,1.0,34.8,34.4,34.4,2.9,2.6,2.785,-0.647943718112636,0.024626478320322758,0.35866845803756825,-0.36795910703633383,-2.608439,-8.664599
11.185,2.0,1.0,1.0,34.8,34.4,34.4,2.9,2.6,2.7875,-0.6352138497035893,0.051804069608337756,0.32320597125797484,-0.38932065347330347,-2.941716,-8.117629
11.185,2.0,1.0,1.0,34.8,34.4,34.4,2.9,2.6,2.79,-0.6167844881722178,0.0845040213278682,0.28811411514692487,-0.4098645946365349,-3.340132,-7.566397
11.185,2.0,1.0,1.0,34.8,34.4,34.4,2.9,2.6,2.7925,-0.5919032334504993,0.12346003964583444,0.25456407353506816,-0.4284204051385018,-3.817925,-7.016133
11.185,2.0,1.0,1.0,34.8,34.4,34.4,2.9,2.6,2.795,-0.5599919926379733,0.16923176738192228,0.2241760456073468,-0.44337180724785896,-4.390825,-6.47397
11.185,2.0,1.0,1.0,34.8,34.4,34.4,2.9,2.6,2.7975,-0.5208623578979554,0.22199086543805585,0.199061366229708,-0.45261518892632857,-5.073471,-5.949262
11.185,2.0,1.0,1.0,34.8,34.4,34.4,2.9,2.6,2.8,-0.4750097012779424,0.28122906474075693,0.18176658934267936,-0.4536154367759447,-5.872484,-5.453735
11.185,2.0,1.0,1.0,34.8,34.4,34.4,2.9,2.6,2.8025,-0.4239440631547373,0.34542989054526557,0.1750426254464353,-0.4436354676035932,-6.770193,-5.001285
11.185,2.0,1.0,1.0,34.8,34.4,34.4,2.9,2.6,2.805,-0.37044514457310856,0.4118159672450659,0.18137630415297218,-0.42020148800687435,-7.692268,-4.60721
11.185,2.0,1.0,1.0,34.8,34.4,34.4,2.9,2.6,2.8075,-0.31855796962358207,0.4763539169059964,0.20230469922875713,-0.38178361193963656,-8.464706,-4.286735
11.185,2.0,1.0,1.0,34.8,34.4,34.4,2.9,2.6,2.81,-0.27314849135647734,0.5341960256712466,0.23769105642062688,-0.3285142074530916,-8.823737,-4.052904
11.185,2.0,1.0,1.0,34.8,34.4,34.4,2.9,2.6,2.8125,-0.238994887862402,0.580582486503525,0.285294852322281,-0.262613997428688,-8.585135,-3.914289
11.185,2.0,1.0,1.0,34.8,34.4,34.4,2.9,2.6,2.815,-0.21967547482883304,0.6119451157861905,0.34095462584598757,-0.18820990751765562,-7.838146,-3.873223
11.185,2.0,1.0,1.0,34.8,34.4,34.4,2.9,2.6,2.8175,-0.21672610186944627,0.6267433209034976,0.39942839489687837,-0.11050041986735319,-6.850521,-3.925262
11.185,2.0,1.0,1.0,34.8,34.4,34.4,2.9,2.6,2.82,-0.22945092934256903,0.6256514933666977,0.4555585731698031,-0.03459906862878057,-5.847238,-4.060089
11.185,2.0,1.0,1.0,34.8,34.4,34.4,2.9,2.6,2.8225,-0.2554076024517196,0.6110770606454804,0.5052588021653478,0.03544518716875852,-4.941455,-4.263493
11.185,2.0,1.0,1.0,34.8,34.4,34.4,2.9,2.6,2.825,-0.29124823280404144,0.5863253859410508,0.5459899251854541,0.09712048039862371,-4.1688,-4.519672
11.185,2.0,1.0,1.0,34.8,34.4,34.4,2.9,2.6,2.8275,-0.33352430496885865,0.5548004644816323,0.5767156438032871,0.1494080314833847,-3.527742,-4.813199
