1,w,sub_t,h,l1,l2,l3,g1,g2,Freq,S11_re,S21_re,S11_img,S21_img,S11_dB,S21_dB
11.185,2.0,1.0,1.0,34.0,34.8,34.8,2.2,1.6,2.5,0.771516027140575,-0.0229958780184862,0.620250535543941,0.01811523299986,-0.087971,-30.670333
11.185,2.0,1.0,1.0,34.0,34.8,34.8,2.2,1.6,2.5025,0.7664840797019198,-0.023541016572205177,0.6262270447671779,0.0182240586633804,-0.089254,-30.524213
11.185,2.0,1.0,1.0,34.0,34.8,34.8,2.2,1.6,2.505,0.7613730195599617,-0.0240998385065345,0.6321962770857359,0.018330940850351946,-0.090572,-30.377133
11.185,2.0,1.0,1.0,34.0,34.8,34.8,2.2,1.6,2.5075,0.7561817335449504,-0.02467277385659523,0.638157635517152,0.018435718494206593,-0.091925,-30.22907
11.185,2.0,1.0,1.0,34.0,34.8,34.8,2.2,1.6,2.51,0.7509090815640252,-0.0252602698804068,0.6441105002743117,0.018538220676564084,-0.093314,-30.080005
11.185,2.0,1.0,1.0,34.0,34.8,34.8,2.2,1.6,2.5125,0.7455538956463715,-0.02586279190386097,0.6500542277183404,0.01863826597773608,-0.094742,-29.929913
11.185,2.0,1.0,1.0,34.0,34.8,34.8,2.2,1.6,2.515,0.7401149789401116,-0.02648082421475417,0.6559881492507866,0.01873566177888432,-0.096209,-29.778773
11.185,2.0,1.0,1.0,34.0,34.8,34.8,2.2,1.6,2.5175,0.7345911046578157,-0.02711487100914489,0.6619115701405948,0.018830203511745677,-0.097717,-29.626561
11.185,2.0,1.0,1.0,34.0,34.8,34.8,2.2,1.6,2.52,0.728981014967264,-0.02776545739355513,0.6678237682810099,0.01892167385146496,-0.099268,-29.473252
11.185,2.0,1.0,1.0,34.0,34.8,34.8,2.2,1.6,2.5225,0.7232834198238692,-0.028433130446787802,0.6737239928710603,0.019009841847634924,-0.100864,-29.318821
11.185,2.0,1.0,1.0,34.0,34.8,34.8,2.2,1.6,2.525,0.717496995740853,-0.029118460345427533,0.6796114630158268,0.019094461988173803,-0.102505,-29.163243
11.185,2.0,1.0,1.0,34.0,34.8,34.8,2.2,1.6,2.5275,0.71162038449301,-0.029822041557387827,0.6854853662391369,0.019175273190151172,-0.104195,-29.006491
11.185,2.0,1.0,1.0,34.0,34.8,34.8,2.2,1.6,2.53,0.7056521917495545,-0.03054449410821267,0.6913448569017248,0.019251997711079973,-0.105935,-28.848538
11.185,2.0,1.0,1.0,34.0,34.8,34.8,2.2,1.6,2.5325,0.6995909856311976,-0.031286464925188474,0.6971890545172448,0.0193243399735511,-0.107727,-28.689356
11.185,2.0,1.0,1.0,34.0,34.8,34.8,2.2,1.6,2.535,0.6934352951862286,-0.032048629264720074,0.7030170419577888,0.019391985295369153,-0.109573,-28.528916
11.185,2.0,1.0,1.0,34.0,34.8,34.8,2.2,1.6,2.5375,0.6871836087799784,-0.03283169222883978,0.7088278635397277,0.01945459851654434,-0.111476,-28.367189
11.185,2.0,1.0,1.0,34.0,34.8,34.8,2.2,1.6,2.54,0.6808343723915754,-0.033636390377175966,0.7146205229798032,0.019511822513611592,-0.113439,-28.204143
11.185,2.0,1.0,1.0,34.0,34.8,34.8,2.2,1.6,2.5425,0.6743859878114553,-0.03446349344119985,0.7203939812103791,0.019563276590744652,-0.115463,-28.039747
11.185,2.0,1.0,1.0,34.0,34.8,34.8,2.2,1.6,2.545,0.667836810732553,-0.03531380614809995,0.7261471540416261,0.019608554736031618,-0.117552,-27.873969
11.185,2.0,1.0,1.0,34.0,34.8,34.8,2.2,1.6,2.5475,0.6611851487275563,-0.0361881701622078,0.7318789096571602,0.019647223730044454,-0.119708,-27.706773
11.185,2.0,1.0,1.0,34.0,34.8,34.8,2.2,1.6,2.55,0.6544292591039824,-0.0370874661525262,0.7375880659282594,0.019678821092435662,-0.121935,-27.538127
11.185,2.0,1.0,1.0,34.0,34.8,34.8,2.2,1.6,2.5525,0.6475673466282137,-0.03801261599557298,0.7432733875301717,0.019702852850755955,-0.124236,-27.367993
11.185,2.0,1.0,1.0,34.0,34.8,34.8,2.2,1.6,2.555,0.6405975611088888,-0.03896458512348502,0.7489335828423184,0.019718791113943295,-0.126615,-27.196335
11.185,2.0,1.0,1.0,34.0,34.8,34.8,2.2,1.6,2.5575,0.633517994829309,-0.03994438502811019,0.7545673006121729,0.019726071430978098,-0.129074,-27.023113
11.185,2.0,1.0,1.0,34.0,34.8,34.8,2.2,1.6,2.56,0.626326679817701,-0.04095307593264774,0.7601731263603957,0.01972408991300664,-0.131619,-26.848289
11.185,2.0,1.0,1.0,34.0,34.8,34.8,2.2,1.6,2.5625,0.619021584943277,-0.04199176964331341,0.765749578502302,0.01971220009475998,-0.134252,-26.67182
11.185,2.0,1.0,1.0,34.0,34.8,34.8,2.2,1.6,2.565,0.6116006128250975,-0.043061632594475985,0.7712951041579388,0.01968970950831848,-0.13698,-26.493665
11.185,2.0,1.0,1.0,34.0,34.8,34.8,2.2,1.6,2.5675,0.6040615965397288,-0.04416388910175398,0.7768080746198485,0.019655875939118918,-0.139806,-26.31378
11.185,2.0,1.0,1.0,34.0,34.8,34.8,2.2,1.6,2.57,0.5964022961125827,-0.04529982483868242,0.7822867804440529,0.019609903330561677,-0.142735,-26.132118
11.185,2.0,1.0,1.0,34.0,34.8,34.8,2.2,1.6,2.5725,0.5886203947766729,-0.046470790553753756,0.787729426125719,0.019550937299549445,-0.145773,-25.948631
11.185,2.0,1.0,1.0,34.0,34.8,34.8,2.2,1.6,2.575,0.5807134949812849,-0.04767820604589888,0.7931341243163853,0.019478060220747166,-0.148926,-25.763272
11.185,2.0,1.0,1.0,34.0,34.8,34.8,2.2,1.6,2.5775,0.5726791141317461,-0.0489235644178309,0.7984988895344473,0.01939028583217942,-0.152199,-25.575989
11.185,2.0,1.0,1.0,34.0,34.8,34.8,2.2,1.6,2.58,0.5645146800401015,-0.05020843662807874,0.803821631314677,0.019286553308927833,-0.1556,-25.386728
11.185,2.0,1.0,1.0,34.0,34.8,34.8,2.2,1.6,2.5825,0.5562175260650458,-0.05153447636403892,0.8091001467358674,0.01916572074499851,-0.159135,-25.195436
11.185,2.0,1.0,1.0,34.0,34.8,34.8,2.2,1.6,2.585,0.5477848859179795,-0.05290342525989861,0.8143321122580182,0.01902655797585044,-0.162812,-25.002054
11.185,2.0,1.0,1.0,34.0,34.8,34.8,2.2,1.6,2.5875,0.5392138881104872,-0.05431711848489674,0.819515074791791,0.018867738665367357,-0.16664,-24.806524
11.185,2.0,1.0,1.0,34.0,34.8,34.8,2.2,1.6,2.59,0.5305015500169943,-0.055777490728985475,0.8246464419129873,0.018687831571155764,-0.170626,-24.608783
11.185,2.0,1.0,1.0,34.0,34.8,34.8,2.2,1.6,2.5925,0.5216447715247758,-0.0572865826145768,0.8297234711234008,0.018485290890696022,-0.174781,-24.408767
11.185,2.0,1.0,1.0,34.0,34.8,34.8,2.2,1.6,2.595,0.5126403282420035,-0.05884654756463164,0.8347432580463459,0.018258445577839875,-0.179114,-24.20641
11.185,2.0,1.0,1.0,34.0,34.8,34.8,2.2,1.6,2.5975,0.5034848642330579,-0.06045965915882645,0.8397027234301727,0.018005487504221693,-0.183636,-24.001641
11.185,2.0,1.0,1.0,34.0,34.8,34.8,2.2,1.6,2.6,0.494174884249125,-0.06212831901085259,0.8445985988158364,0.01772445832294144,-0.18836,-23.794388
11.185,2.0,1.0,1.0,34.0,34.8,34.8,2.2,1.6,2.6025,0.4847067454210922,-0.06385506520095434,0.8494274107047276,0.017413234872080328,-0.193298,-23.584575
11.185,2.0,1.0,1.0,34.0,34.8,34.8,2.2,1.6,2.605,0.47507664838113606,-0.0656425812985107,0.8541854630401026,0.01706951293275462,-0.198463,-23.372123
11.185,2.0,1.0,1.0,34.0,34.8,34.8,2.2,1.6,2.6075,0.4652806277793771,-0.06749370600959848,0.858868817788948,0.01669078912999529,-0.203871,-23.156949
11.185,2.0,1.0,1.0,34.0,34.8,34.8,2.2,1.6,2.61,0.45531454216264516,-0.06941144348387183,0.8634732733805272,0.016274340734169963,-0.209538,-22.938968
11.185,2.0,1.0,1.0,34.0,34.8,34.8,2.2,1.6,2.6125,0.44517406318413333,-0.07139897431347694,0.8679943407223263,0.01581720308518961,-0.215482,-22.718088
11.185,2.0,1.0,1.0,34.0,34.8,34.8,2.2,1.6,2.615,0.43485466411584583,-0.07345966725370937,0.8724272164728853,0.015316144320550439,-0.221723,-22.494216
11.185,2.0,1.0,1.0,34.0,34.8,34.8,2.2,1.6,2.6175,0.4243516076407105,-0.07559709169029073,0.8767667532030218,0.014767637040333532,-0.22828,-22.267254
11.185,2.0,1.0,1.0,34.0,34.8,34.8,2.2,1.6,2.62,0.4136599329086298,-0.07781503087086855,0.8810074260210653,0.01416782648640144,-0.235177,-22.037098
11.185,2.0,1.0,1.0,34.0,34.8,34.8,2.2,1.6,2.6225,0.4027744418513838,-0.08011749590786667,0.8851432951724513,0.013512494747820337,-0.242439,-21.803639
11.185,2.0,1.0,1.0,34.0,34.8,34.8,2.2,1.6,2.625,0.391689684766187,-0.0825087405451157,0.889167964047742,0.012797020428256,-0.250094,-21.566765
11.185,2.0,1.0,1.0,34.0,34.8,34.8,2.2,1.6,2.6275,0.38039994519805237,-0.08499327666051452,0.893074531943809,0.012016333121754288,-0.258172,-21.326357
11.185,2.0,1.0,1.0,34.0,34.8,34.8,2.2,1.6,2.63,0.36889922417877175,-0.08757589044956048,0.8968555408181139,0.011164861938529823,-0.266705,-21.08229
11.185,2.0,1.0,1.0,34.0,34.8,34.8,2.2,1.6,2.6325,0.35718122391732304,-0.09026165919782188,0.9005029151529625,0.010236477199264411,-0.275732,-20.834433
11.185,2.0,1.0,1.0,34.0,34.8,34.8,2.2,1.6,2.635,0.34523933108579297,-0.09305596850142804,0.9040078939018288,0.00922442427158257,-0.285291,-20.582649
11.185,2.0,1.0,1.0,34.0,34.8,34.8,2.2,1.6,2.6375,0.33306659991016807,-0.09596452972971627,0.9073609533193229,0.008121248351744305,-0.295428,-20.326793
11.185,2.0,1.0,1.0,34.0,34.8,34.8,2.2,1.6,2.64,0.32065573536131725,-0.09899339743851567,0.9105517192753407,0.006918708793397808,-0.306193,-20.066713
11.185,2.0,1.0,1.0,34.0,34.8,34.8,2.2,1.6,2.6425,0.3079990768546622,-0.10214898632982322,0.9135688674166048,0.005607681347684083,-0.317639,-19.80225
11.185,2.0,1.0,1.0,34.0,34.8,34.8,2.2,1.6,2.645,0.29508858301539964,-0.10543808720566052,0.9164000092585282,0.0041780463983972435,-0.329829,-19.533236
11.185,2.0,1.0,1.0,34.0,34.8,34.8,2.2,1.6,2.6475,0.28191581826071477,-0.10886788116984525,0.9190315619591025,0.00261856094427147,-0.342831,-19.259493
11.185,2.0,1.0,1.0,34.0,34.8,34.8,2.2,1.6,2.65,0.26847194220515314,-0.11244595107719207,0.9214485991351137,0.000916711688465363,-0.356721,-18.980835
11.185,2.0,1.0,1.0,34.0,34.8,34.8,2.2,1.6,2.6525,0.2547477032291123,-0.11618028889655072,0.9236346796185878,-0.0009414538677534346,-0.371585,-18.697066
11.185,2.0,1.0,1.0,34.0,34.8,34.8,2.2,1.6,2.655,0.24073343798740027,-0.12007929721765795,0.9255716505058038,-0.002971521976751749,-0.38752,-18.407979
11.185,2.0,1.0,1.0,34.0,34.8,34.8,2.2,1.6,2.6575,0.22641907920790028,-0.12415178255950306,0.9272394202084896,-0.005190937135246801,-0.404632,-18.113355
11.185,2.0,1.0,1.0,34.0,34.8,34.8,2.2,1.6,2.66,0.21179417488200847,-0.1284069373869264,0.9286156964621021,-0.007619261563980783,-0.423047,-17.812966
11.185,2.0,1.0,1.0,34.0,34.8,34.8,2.2,1.6,2.6625,0.19684792293595324,-0.13285430675559065,0.9296756833633915,-0.010278475611153033,-0.442901,-17.50657
11.185,2.0,1.0,1.0,34.0,34.8,34.8,2.2,1.6,2.665,0.18156922677046738,-0.13750373420770393,0.9303917304838044,-0.013193326042873927,-0.464354,-17.193911
11.185,2.0,1.0,1.0,34.0,34.8,34.8,2.2,1.6,2.6675,0.16594677876636046,-0.14236527983148842,0.9307329259240602,-0.016391730368774667,-0.487586,-16.874723
11.185,2.0,1.0,1.0,34.0,34.8,34.8,2.2,1.6,2.67,0.14996918110856367,-0.14744910114266338,0.9306646238324243,-0.019905246698291808,-0.512803,-16.548723
11.185,2.0,1.0,1.0,34.0,34.8,34.8,2.2,1.6,2.6725,0.13362511625925355,-0.15276528446812845,0.9301478954116855,-0.023769620126796207,-0.540242,-16.215616
11.185,2.0,1.0,1.0,34.0,34.8,34.8,2.2,1.6,2.675,0.11690358334825611,-0.1583236105737057,0.929138890817303,-0.028025418280852497,-0.570175,-15.875094
11.185,2.0,1.0,1.0,34.0,34.8,34.8,2.2,1.6,2.6775,0.09979422196016045,-0.1641332330645318,0.9275880976714485,-0.032718770339612395,-0.602918,-15.526832
11.185,2.0,1.0,1.0,34.0,34.8,34.8,2.2,1.6,2.68,0.08228775169894628,-0.17020224118168875,0.92543948032044,-0.03790222545907909,-0.638838,-15.170495
11.185,2.0,1.0,1.0,34.0,34.8,34.8,2.2,1.6,2.6825,0.0643765650503328,-0.17653706947265008,0.9226294826909027,-0.043635747814081624,-0.678361,-14.805735
11.185,2.0,1.0,1.0,34.0,34.8,34.8,2.2,1.6,2.685,0.046055523155880296,-0.18314170470856123,0.9190858770715842,-0.049987866021234846,-0.721987,-14.432192
11.185,2.0,1.0,1.0,34.0,34.8,34.8,2.2,1.6,2.6875,0.027323020084943674,-0.19001662443211276,0.9147264420594013,-0.057036993819378,-0.770302,-14.0495
11.185,2.0,1.0,1.0,34.0,34.8,34.8,2.2,1.6,2.69,0.008182402209513578,-0.19715738047426332,0.909457456393045,-0.06487293542956259,-0.824001,-13.65729
11.185,2.0,1.0,1.0,34.0,34.8,34.8,2.2,1.6,2.6925,-0.011356143214865886,-0.20455271323919788,0.9031720032697892,-0.07359858118064021,-0.883904,-13.255195
11.185,2.0,1.0,1.0,34.0,34.8,34.8,2.2,1.6,2.695,-0.03127308051352885,-0.21218204685045752,0.8957480948669104,-0.08333178390212298,-0.950992,-12.842857
11.185,2.0,1.0,1.0,34.0,34.8,34.8,2.2,1.6,2.6975,-0.05153620379903168,-0.2200121696057261,0.8870466536380631,-0.09420737978158453,-1.026436,-12.419941
11.185,2.0,1.0,1.0,34.0,34.8,34.8,2.2,1.6,2.7,-0.07209624866125026,-0.2279928471002144,0.8769094324045129,-0.10637927197622042,-1.111648,-11.986149
11.185,2.0,1.0,1.0,34.0,34.8,34.8,2.2,1.6,2.7025,-0.09288111632186563,-0.23605104642621108,0.8651570297227836,-0.12002242083432141,-1.208332,-11.541242
11.185,2.0,1.0,1.0,34.0,34.8,34.8,2.2,1.6,2.705,-0.11378831097797577,-0.24408337132956723,0.8515872759187179,-0.13533446566584398,-1.318562,-11.085065
11.185,2.0,1.0,1.0,34.0,34.8,34.8,2.2,1.6,2.7075,-0.134675111446276,-0.2519462282166582,0.8359744507395097,-0.1525365173567832,-1.444865,-10.617591
11.185,2.0,1.0,1.0,34.0,34.8,34.8,2.2,1.6,2.71,-0.1553459368329771,-0.2594431810210172,0.8180700763238593,-0.17187237814950063,-1.590343,-10.138964
11.185,2.0,1.0,1.0,34.0,34.8,34.8,2.2,1.6,2.7125,-0.17553636350322602,-0.26630894985885345,0.7976064480488037,-0.1936050255807023,-1.758813,-9.649572
11.185,2.0,1.0,1.0,34.0,34.8,34.8,2.2,1.6,2.715,-0.19489338458503225,-0.2721896416420995,0.7743046636078778,-0.21800859888938898,-1.954986,-9.15013
11.185,2.0,1.0,1.0,34.0,34.8,34.8,2.2,1.6,2.7175,-0.21295191095292224,-0.27661920784429517,0.7478897186936405,-0.24535331666518972,-2.18469,-8.641793
11.185,2.0,1.0,1.0,34.0,34.8,34.8,2.2,1.6,2.72,-0.2291084200976287,-0.27899303174699863,0.7181162371677183,-0.27587975255646213,-2.455128,-8.126295
11.185,2.0,1.0,1.0,34.0,34.8,34.8,2.2,1.6,2.7225,-0.2425944039073442,-0.27854129277326733,0.6848094447087186,-0.30975785115345345,-2.775174,-7.606125
11.185,2.0,1.0,1.0,34.0,34.8,34.8,2.2,1.6,2.725,-0.25245527743276047,-0.2743077693059254,0.6479266482726369,-0.3470254081004147,-3.155653,-7.084727
11.185,2.0,1.0,1.0,34.0,34.8,34.8,2.2,1.6,2.7275,-0.2575450636146588,-0.2651444007226492,0.6076438151139147,-0.3875014020393051,-3.609515,-6.566724
11.185,2.0,1.0,1.0,34.0,34.8,34.8,2.2,1.6,2.73,-0.2565533619409743,-0.24973813421057428,0.564468178261474,-0.4306732298333583,-4.15167,-6.058136
11.185,2.0,1.0,1.0,34.0,34.8,34.8,2.2,1.6,2.7325,-0.2480873809648386,-0.22669287169872787,0.5193687313125364,-0.4755659642977153,-4.797901,-5.566546
11.185,2.0,1.0,1.0,34.0,34.8,34.8,2.2,1.6,2.735,-0.23083402698993769,-0.19469156504759777,0.4738998084396052,-0.5206184380665687,-5.561656,-5.101141
11.185,2.0,1.0,1.0,34.0,34.8,34.8,2.2,1.6,2.7375,-0.20381745654984945,-0.15275393521050834,0.4302694181573245,-0.5636145215917187,-6.445996,-4.672519
11.185,2.0,1.0,1.0,34.0,34.8,34.8,2.2,1.6,2.74,-0.16673669824137308,-0.10057447419916814,0.3912821329826845,-0.6017398829394195,-7.425546,-4.292165
11.185,2.0,1.0,1.0,34.0,34.8,34.8,2.2,1.6,2.7425,-0.12031310501430077,-0.03887048442737585,0.360086236118212,-0.6318346647035304,-8.412235,-3.971525
11.185,2.0,1.0,1.0,34.0,34.8,34.8,2.2,1.6,2.745,-0.06651659835330066,0.03039098935982918,0.33970221451726323,-0.6508651233513209,-9.214632,-3.720722
11.185,2.0,1.0,1.0,34.0,34.8,34.8,2.2,1.6,2.7475,-0.008519126916455299,0.10403911146784045,0.3324115772098847,-0.6565353033222108,-9.563626,-3.547126
11.185,2.0,1.0,1.0,34.0,34.8,34.8,2.2,1.6,2.75,0.0497063540217814,0.178099994974096,0.339198428545181,-0.647846222072939,-9.29865,-3.45415
11.185,2.0,1.0,1.0,34.0,34.8,34.8,2.2,1.6,2.7525,0.10406635149675604,0.24847731055055186,0.3594735022110307,-0.6253726412129104,-8.537138,-3.44063
11.185,2.0,1.0,1.0,34.0,34.8,34.8,2.2,1.6,2.755,0.15107878145025672,0.31168474374549127,0.3912108413202978,-0.5911269978987213,-7.548065,-3.501022
11.185,2.0,1.0,1.0,34.0,34.8,34.8,2.2,1.6,2.7575,0.1883960169311171,0.36536974797698685,0.4314373003354368,-0.5480701697129158,-6.543691,-3.626344
11.185,2.0,1.0,1.0,34.0,34.8,34.8,2.2,1.6,2.76,0.21497473239205311,0.4084840779610383,0.47686523641333106,-0.49947869003002787,-5.628607,-3.805537
11.185,2.0,1.0,1.0,34.0,34.8,34.8,2.2,1.6,2.7625,0.23092103192208716,0.44112943293430956,0.5244427965397106,-0.44839410137115765,-4.836434,-4.026861
11.185,2.0,1.0,1.0,34.0,34.8,34.8,2.2,1.6,2.765,0.23715216518611798,0.46421944526433795,0.571692713867622,-0.39728367495660655,-4.167177,-4.279024
11.185,2.0,1.0,1.0,34.0,34.8,34.8,2.2,1.6,2.7675,0.23502722474531543,0.47911042417106603,0.6168293514282641,-0.3479228880699707,-3.607962,-4.551916
11.185,2.0,1.0,1.0,34.0,34.8,34.8,2.2,1.6,2.77,0.22604504303548958,0.48729913934361097,0.6587166054003215,-0.3014371293339806,-3.142547,-4.836963
11.185,2.0,1.0,1.0,34.0,34.8,34.8,2.2,1.6,2.7725,0.21164347864878366,0.49022191212220806,0.6967451454194494,-0.25842418316231325,-2.75522,-5.127194
11.185,2.0,1.0,1.0,34.0,34.8,34.8,2.2,1.6,2.775,0.19309172856948922,0.4891467136944719,0.730689559335069,-0.21909691577615645,-2.432182,-5.417128
11.185,2.0,1.0,1.0,34.0,34.8,34.8,2.2,1.6,2.7775,0.17145008870281994,0.4851327306806528,0.7605796954021417,-0.18341184111736014,-2.161846,-5.702579
11.185,2.0,1.0,1.0,34.0,34.8,34.8,2.2,1.6,2.78,0.14757082821078177,0.4790310796292361,0.7865995614661095,-0.15117017581774522,-1.9347,-5.980428
11.185,2.0,1.0,1.0,34.0,34.8,34.8,2.2,1.6,2.7825,0.122119976962738,0.47150647122274914,0.8090147887845136,-0.12209034990868392,-1.743025,-6.248406
11.185,2.0,1.0,1.0,34.0,34.8,34.8,2.2,1.6,2.785,0.09560696688216516,0.4630667591337581,0.8281241603658475,-0.09585645553521525,-1.580587,-6.504907
11.185,2.0,1.0,1.0,34.0,34.8,34.8,2.2,1.6,2.7875,0.06841477911201876,0.4540930171763862,0.8442292764521608,-0.07214855004717133,-1.442364,-6.748829
11.185,2.0,1.0,1.0,34.0,34.8,34.8,2.2,1.6,2.79,0.04082706647673608,0.4448666061417358,0.8576169281236976,-0.0506602363535237,-1.324302,-6.979446
11.185,2.0,1.0,1.0,34.0,34.8,34.8,2.2,1.6,2.7925,0.013050975580278212,0.4355919477990558,0.8685498972658726,-0.031107799129123564,-1.223124,-7.19631
11.185,2.0,1.0,1.0,34.0,34.8,34.8,2.2,1.6,2.795,-0.01476441830839874,0.426414913756879,0.8772630796323116,-0.013233998504674526,-1.136173,-7.399171
11.185,2.0,1.0,1.0,34.0,34.8,34.8,2.2,1.6,2.7975,-0.04251360845713831,0.4174372800252509,0.8839628042156767,0.0031913530164977325,-1.061286,-7.587922
11.185,2.0,1.0,1.0,34.0,34.8,34.8,2.2,1.6,2.8,-0.07012344619307259,0.4087278835825441,0.888827951111499,0.018372633627032862,-0.996698,-7.762548
11.185,2.0,1.0,1.0,34.0,34.8,34.8,2.2,1.6,2.8025,-0.09754457720862017,0.4003311234875808,0.8920119813505912,0.03249059008347153,-0.940961,-7.9231
11.185,2.0,1.0,1.0,34.0,34.8,34.8,2.2,1.6,2.805,-0.12474495094428742,0.39227337740036944,0.8936453359252613,0.04570490943587628,-0.892885,-8.069663
11.185,2.0,1.0,1.0,34.0,34.8,34.8,2.2,1.6,2.8075,-0.15170492552135875,0.3845678080768953,0.8938378850523733,0.05815686811238006,-0.85149,-8.202339
11.185,2.0,1.0,1.0,34.0,34.8,34.8,2.2,1.6,2.81,-0.1784135856688547,0.3772179390713761,0.8926812504965465,0.0699718843303806,-0.815968,-8.321234
11.185,2.0,1.0,1.0,34.0,34.8,34.8,2.2,1.6,2.8125,-0.204865974280595,0.370220295093163,0.890250911174556,0.0812618879841218,-0.785649,-8.426443
11.185,2.0,1.0,1.0,34.0,34.8,34.8,2.2,1.6,2.815,-0.23106100666205884,0.36356633320021126,0.886608054454528,0.0921274752255633,-0.759984,-8.518048
11.185,2.0,1.0,1.0,34.0,34.8,34.8,2.2,1.6,2.8175,-0.2569998906954585,0.35724383572001667,0.8818011654113108,0.1026598457934619,-0.73852,-8.596108
11.185,2.0,1.0,1.0,34.0,34.8,34.8,2.2,1.6,2.82,-0.2826849179433789,0.35123789253530535,0.8758673622236222,0.11294253820330008,-0.720887,-8.660651
11.185,2.0,1.0,1.0,34.0,34.8,34.8,2.2,1.6,2.8225,-0.3081185223204732,0.34553156687633163,0.8688334933114366,0.12305298663165044,-0.706788,-8.711676
11.185,2.0,1.0,1.0,34.0,34.8,34.8,2.2,1.6,2.825,-0.33330252642767283,0.34010631286634696,0.86071701413569,0.1330639271694525,-0.69599,-8.749148
11.185,2.0,1.0,1.0,34.0,34.8,34.8,2.2,1.6,2.8275,-0.35823751267086296,0.3349421929023981,0.8515266609456733,0.1430446822446152,-0.688312,-8.772991
11.185,2.0,1.0,1.0,34.0,34.8,34.8,2.2,1.6,2.83,-0.38292226821200454,0.33001792696436016,0.8412629364636494,0.15306235176154517,-0.683628,-8.783091
11.185,2.0,1.0,1.0,34.0,34.8,34.8,2.2,1.6,2.8325,-0.4073532606104787,0.32531079284869374,0.8299184193198876,0.16318293868282355,-0.681857,-8.779291
