1,w,sub_t,h,l1,l2,l3,g1,g2,Freq,S11_re,S21_re,S11_img,S21_img,S11_dB,S21_dB
11.185,2.0,1.0,1.0,34.9,34.9,34.9,4.3,1.8,2.5,0.610421581286865,-0.0207941707959221,0.778037437221206,0.00652021521940344,-0.096803,-33.23388
11.185,2.0,1.0,1.0,34.9,34.9,34.9,4.3,1.8,2.5025,0.6031947460609055,-0.021247899318192584,0.7834388163031734,0.006437022937816217,-0.098298,-33.072337
11.185,2.0,1.0,1.0,34.9,34.9,34.9,4.3,1.8,2.505,0.5958710935604661,-0.021713581210770015,0.7888039716810455,0.006347652198898778,-0.099836,-32.909232
11.185,2.0,1.0,1.0,34.9,34.9,34.9,4.3,1.8,2.5075,0.5884494732603012,-0.022191673589515657,0.7941315349907527,0.006251779463862049,-0.10142,-32.744517
11.185,2.0,1.0,1.0,34.9,34.9,34.9,4.3,1.8,2.51,0.5809287100891789,-0.02268265824499177,0.7994200914304243,0.006149060499303188,-0.103052,-32.57814
11.185,2.0,1.0,1.0,34.9,34.9,34.9,4.3,1.8,2.5125,0.5733076031873154,-0.02318704335338699,0.8046681775667894,0.0060391287139577535,-0.104734,-32.410048
11.185,2.0,1.0,1.0,34.9,34.9,34.9,4.3,1.8,2.515,0.5655849245515234,-0.023705365330658406,0.8098742789786306,0.005921593333270022,-0.106469,-32.240187
11.185,2.0,1.0,1.0,34.9,34.9,34.9,4.3,1.8,2.5175,0.5577594175561295,-0.02423819084382579,0.8150368277199823,0.00579603739319875,-0.108259,-32.068497
11.185,2.0,1.0,1.0,34.9,34.9,34.9,4.3,1.8,2.52,0.5498297953363149,-0.024786118994898926,0.8201541995835402,0.005662015532227016,-0.110107,-31.894919
11.185,2.0,1.0,1.0,34.9,34.9,34.9,4.3,1.8,2.5225,0.5417947390190364,-0.02534978369463975,0.8252247111421209,0.005519051557736276,-0.112015,-31.719388
11.185,2.0,1.0,1.0,34.9,34.9,34.9,4.3,1.8,2.525,0.5336528957848811,-0.025929856245307303,0.8302466165430689,0.0053666357596656635,-0.113987,-31.54184
11.185,2.0,1.0,1.0,34.9,34.9,34.9,4.3,1.8,2.5275,0.5254028767423027,-0.026527048153711475,0.8352181040270306,0.005204221940646542,-0.116027,-31.362204
11.185,2.0,1.0,1.0,34.9,34.9,34.9,4.3,1.8,2.53,0.5170432545934582,-0.02714211419836263,0.8401372921385438,0.005031224127484962,-0.118138,-31.180407
11.185,2.0,1.0,1.0,34.9,34.9,34.9,4.3,1.8,2.5325,0.5085725610683768,-0.027775855777275708,0.8450022255912821,0.004847012923864988,-0.120323,-30.996374
11.185,2.0,1.0,1.0,34.9,34.9,34.9,4.3,1.8,2.535,0.4999892841013712,-0.02842912456611013,0.84981087074543,0.004650911458339596,-0.122588,-30.810024
11.185,2.0,1.0,1.0,34.9,34.9,34.9,4.3,1.8,2.5375,0.4912918647204656,-0.029102826519860004,0.8545611106484221,0.004442190874919418,-0.124935,-30.621274
11.185,2.0,1.0,1.0,34.9,34.9,34.9,4.3,1.8,2.54,0.48247869361696955,-0.02979792625529431,0.8592507395830102,0.004220065305686144,-0.127372,-30.430035
11.185,2.0,1.0,1.0,34.9,34.9,34.9,4.3,1.8,2.5425,0.47354810735831493,-0.03051545185586109,0.8638774570581086,0.003983686255641459,-0.129901,-30.236213
11.185,2.0,1.0,1.0,34.9,34.9,34.9,4.3,1.8,2.545,0.4644983842026519,-0.031256500145871134,0.8684388611678806,0.003732136319194558,-0.13253,-30.039712
11.185,2.0,1.0,1.0,34.9,34.9,34.9,4.3,1.8,2.5475,0.4553277394685287,-0.032022242486556524,0.8729324412328057,0.0034644221349920293,-0.135264,-29.840428
11.185,2.0,1.0,1.0,34.9,34.9,34.9,4.3,1.8,2.55,0.4460343204070387,-0.03281393115314751,0.877355569622644,0.003179466470824695,-0.13811,-29.638252
11.185,2.0,1.0,1.0,34.9,34.9,34.9,4.3,1.8,2.5525,0.43661620051722866,-0.03363290635951731,0.8817054926448592,0.002876099312659624,-0.141075,-29.433069
11.185,2.0,1.0,1.0,34.9,34.9,34.9,4.3,1.8,2.555,0.4270713732379367,-0.03448060400535258,0.8859793203627208,0.0025530478108821376,-0.144167,-29.224758
11.185,2.0,1.0,1.0,34.9,34.9,34.9,4.3,1.8,2.5575,0.4173977449407366,-0.03535856423030466,0.890174015184277,0.0022089249119202794,-0.147394,-29.013191
11.185,2.0,1.0,1.0,34.9,34.9,34.9,4.3,1.8,2.56,0.4075931271390096,-0.036268440870339036,0.8942863790359531,0.0018422164737236658,-0.150767,-28.798232
11.185,2.0,1.0,1.0,34.9,34.9,34.9,4.3,1.8,2.5625,0.397655227817256,-0.037212011923649,0.898313038901729,0.00145126662805077,-0.154295,-28.579736
11.185,2.0,1.0,1.0,34.9,34.9,34.9,4.3,1.8,2.565,0.38758164177249593,-0.03819119114721203,0.9022504304694948,0.0010342611099093788,-0.157989,-28.357552
11.185,2.0,1.0,1.0,34.9,34.9,34.9,4.3,1.8,2.5675,0.3773698398458581,-0.03920804092047902,0.906094779578799,0.0005892082232063078,-0.161863,-28.131516
11.185,2.0,1.0,1.0,34.9,34.9,34.9,4.3,1.8,2.57,0.3670171569070112,-0.040264786529970696,0.9098420811070109,0.00011391704971451022,-0.165929,-27.901457
11.185,2.0,1.0,1.0,34.9,34.9,34.9,4.3,1.8,2.5725,0.3565207784369942,-0.041363832047820834,0.9134880748615816,-0.00039402756662060837,-0.170202,-27.667191
11.185,2.0,1.0,1.0,34.9,34.9,34.9,4.3,1.8,2.575,0.34587772553608814,-0.04250777799863764,0.9170282179617365,-0.0009372938193602982,-0.1747,-27.428521
11.185,2.0,1.0,1.0,34.9,34.9,34.9,4.3,1.8,2.5775,0.3350848381627335,-0.043699441032457,0.9204576530899762,-0.001518836194110579,-0.179441,-27.185239
11.185,2.0,1.0,1.0,34.9,34.9,34.9,4.3,1.8,2.58,0.3241387563873042,-0.044941875846865334,0.923771171867528,-0.002141933985542055,-0.184445,-26.937122
11.185,2.0,1.0,1.0,34.9,34.9,34.9,4.3,1.8,2.5825,0.31303589942115995,-0.0462383996282406,0.9269631724525742,-0.002810236052843168,-0.189736,-26.683931
11.185,2.0,1.0,1.0,34.9,34.9,34.9,4.3,1.8,2.585,0.30177244215763066,-0.047592619309727045,0.9300276102681009,-0.0035278129976129115,-0.195339,-26.425411
11.185,2.0,1.0,1.0,34.9,34.9,34.9,4.3,1.8,2.5875,0.29034428893858477,-0.04900846197079401,0.9329579405279966,-0.004299218206477821,-0.201284,-26.161285
11.185,2.0,1.0,1.0,34.9,34.9,34.9,4.3,1.8,2.59,0.27874704424016405,-0.050490208727906674,0.9357470509330058,-0.005129559522760024,-0.207602,-25.89126
11.185,2.0,1.0,1.0,34.9,34.9,34.9,4.3,1.8,2.5925,0.26697597995726324,-0.05204253248458206,0.9383871825362511,-0.006024583714925232,-0.21433,-25.615018
11.185,2.0,1.0,1.0,34.9,34.9,34.9,4.3,1.8,2.595,0.25502599896358724,-0.053670539916665316,0.9408698363100397,-0.006990776417233683,-0.22151,-25.332216
11.185,2.0,1.0,1.0,34.9,34.9,34.9,4.3,1.8,2.5975,0.24289159464019283,-0.05537981805686357,0.9431856623540522,-0.008035480860092231,-0.229189,-25.042485
11.185,2.0,1.0,1.0,34.9,34.9,34.9,4.3,1.8,2.6,0.2305668061124415,-0.05717648579890633,0.9453243279332514,-0.009167039523664102,-0.237421,-24.745425
11.185,2.0,1.0,1.0,34.9,34.9,34.9,4.3,1.8,2.6025,0.218045169031018,-0.059067250547084955,0.9472743595738242,-0.01039496389080403,-0.246268,-24.440601
11.185,2.0,1.0,1.0,34.9,34.9,34.9,4.3,1.8,2.605,0.20531966190462098,-0.06105947006229883,0.9490229532130934,-0.011730138814128786,-0.255801,-24.127544
11.185,2.0,1.0,1.0,34.9,34.9,34.9,4.3,1.8,2.6075,0.19238264828163593,-0.063161219256824,0.9505557448089755,-0.013185069740288121,-0.266101,-23.805742
11.185,2.0,1.0,1.0,34.9,34.9,34.9,4.3,1.8,2.61,0.17922581554875236,-0.06538136119937396,0.9518565317513765,-0.01477418327753527,-0.277264,-23.474637
11.185,2.0,1.0,1.0,34.9,34.9,34.9,4.3,1.8,2.6125,0.16584011186257544,-0.06772962080643269,0.9529069327270647,-0.01651419451940293,-0.289402,-23.133619
11.185,2.0,1.0,1.0,34.9,34.9,34.9,4.3,1.8,2.615,0.15221568390383192,-0.07021665845676948,0.9536859701617686,-0.018424558376182277,-0.302643,-22.782023
11.185,2.0,1.0,1.0,34.9,34.9,34.9,4.3,1.8,2.6175,0.13834181997075723,-0.07285413882891872,0.9541695547148017,-0.020528027227031363,-0.317142,-22.419117
11.185,2.0,1.0,1.0,34.9,34.9,34.9,4.3,1.8,2.62,0.12420690576224858,-0.07565478724622586,0.9543298451474226,-0.022851343910044706,-0.33308,-22.044098
11.185,2.0,1.0,1.0,34.9,34.9,34.9,4.3,1.8,2.6225,0.10979840459457921,-0.07863242112687858,0.9541344487044134,-0.02542610798720345,-0.350674,-21.656083
11.185,2.0,1.0,1.0,34.9,34.9,34.9,4.3,1.8,2.625,0.0951028806165775,-0.0818019368414261,0.953545416234318,-0.0282898651288467,-0.370185,-21.254096
11.185,2.0,1.0,1.0,34.9,34.9,34.9,4.3,1.8,2.6275,0.08010609421478972,-0.08517922089193904,0.9525179716846315,-0.031487485394440656,-0.391928,-20.83706
11.185,2.0,1.0,1.0,34.9,34.9,34.9,4.3,1.8,2.63,0.0647932154363868,-0.08878093646590653,0.9509988961051242,-0.035072917508547456,-0.416287,-20.403785
11.185,2.0,1.0,1.0,34.9,34.9,34.9,4.3,1.8,2.6325,0.049149227459174424,-0.09262410824117492,0.948924460300317,-0.0391114346864875,-0.443732,-19.952948
11.185,2.0,1.0,1.0,34.9,34.9,34.9,4.3,1.8,2.635,0.033159633692791284,-0.09672538356407578,0.9462177659140201,-0.04368252524587922,-0.474848,-19.483088
11.185,2.0,1.0,1.0,34.9,34.9,34.9,4.3,1.8,2.6375,0.01681164850023644,-0.10109977650524314,0.9427853100694275,-0.04888363033984622,-0.510363,-18.992583
11.185,2.0,1.0,1.0,34.9,34.9,34.9,4.3,1.8,2.64,9.615848086876028e-05,-0.10575858579659685,0.9385125325027074,-0.05483499314629225,-0.551198,-18.479639
11.185,2.0,1.0,1.0,34.9,34.9,34.9,4.3,1.8,2.6425,-0.016989085167281124,-0.11070598995845374,0.9332580379129012,-0.0616859573734583,-0.598526,-17.942281
11.185,2.0,1.0,1.0,34.9,34.9,34.9,4.3,1.8,2.645,-0.03443429909407367,-0.11593351586572784,0.9268461190950336,-0.06962312855253085,-0.653857,-17.378347
11.185,2.0,1.0,1.0,34.9,34.9,34.9,4.3,1.8,2.6475,-0.05220931546577412,-0.12141107232870818,0.9190571663455386,-0.0788808595745211,-0.719157,-16.785499
11.185,2.0,1.0,1.0,34.9,34.9,34.9,4.3,1.8,2.65,-0.07025007083052294,-0.1270724102313145,0.9096156083724022,-0.089754464487829,-0.797015,-16.161261
11.185,2.0,1.0,1.0,34.9,34.9,34.9,4.3,1.8,2.6525,-0.08843671535158554,-0.13279151468129513,0.8981753646385692,-0.10261621343668322,-0.890876,-15.503107
11.185,2.0,1.0,1.0,34.9,34.9,34.9,4.3,1.8,2.655,-0.10655813029652479,-0.13834426417778198,0.8843038025702603,-0.1179330810849222,-1.005364,-14.808634
11.185,2.0,1.0,1.0,34.9,34.9,34.9,4.3,1.8,2.6575,-0.12425461619493013,-0.1433463839749891,0.8674677855658518,-0.13628243689844757,-1.14673,-14.075891
11.185,2.0,1.0,1.0,34.9,34.9,34.9,4.3,1.8,2.66,-0.14092643712014827,-0.1471542383998072,0.8470314955040349,-0.15835528817615394,-1.323424,-13.303971
11.185,2.0,1.0,1.0,34.9,34.9,34.9,4.3,1.8,2.6625,-0.15559213701966604,-0.14871078772724183,0.8222891616312717,-0.18492213018793602,-1.546735,-12.49406
11.185,2.0,1.0,1.0,34.9,34.9,34.9,4.3,1.8,2.665,-0.1666831743608352,-0.14632162764533302,0.7925832310661142,-0.21670669696485118,-1.831151,-11.651229
11.185,2.0,1.0,1.0,34.9,34.9,34.9,4.3,1.8,2.6675,-0.17178979801073999,-0.13737636023578048,0.7576069510744688,-0.2540600784840548,-2.193371,-10.787361
11.185,2.0,1.0,1.0,34.9,34.9,34.9,4.3,1.8,2.67,-0.16747512062010084,-0.11814070227710799,0.7180495834171183,-0.296262408798018,-2.646861,-9.925568
11.185,2.0,1.0,1.0,34.9,34.9,34.9,4.3,1.8,2.6725,-0.14952685865628187,-0.08401895086846599,0.6767205057865034,-0.34030078165251126,-3.184793,-9.10576
11.185,2.0,1.0,1.0,34.9,34.9,34.9,4.3,1.8,2.675,-0.11439131342014736,-0.031097203121974996,0.6398892557228505,-0.37940170434680964,-3.741284,-8.388936
11.185,2.0,1.0,1.0,34.9,34.9,34.9,4.3,1.8,2.6775,-0.062408309547741195,0.04034806548969101,0.6174240201273721,-0.4028503604860839,-4.144183,-7.853776
11.185,2.0,1.0,1.0,34.9,34.9,34.9,4.3,1.8,2.68,-0.0013718237141866357,0.12195394785962879,0.6192794666306184,-0.39976772066608846,-4.162245,-7.577394
11.185,2.0,1.0,1.0,34.9,34.9,34.9,4.3,1.8,2.6825,0.054373909237947854,0.19818708253252423,0.648586591095071,-0.3666157625759754,-3.730224,-7.602371
11.185,2.0,1.0,1.0,34.9,34.9,34.9,4.3,1.8,2.685,0.09158742978992196,0.2546117702183375,0.6980041172556632,-0.31122707997662813,-3.048705,-7.913183
11.185,2.0,1.0,1.0,34.9,34.9,34.9,4.3,1.8,2.6875,0.105485535100575,0.285914434690526,0.754587188786271,-0.247592311789128,-2.361761,-8.445151
11.185,2.0,1.0,1.0,34.9,34.9,34.9,4.3,1.8,2.69,0.09949503550282784,0.2957076102679422,0.8075983397869662,-0.1873852654250329,-1.79067,-9.116646
11.185,2.0,1.0,1.0,34.9,34.9,34.9,4.3,1.8,2.6925,0.08024487480653437,0.2911288151110866,0.8517626520462201,-0.1363850365985776,-1.355252,-9.856607
11.185,2.0,1.0,1.0,34.9,34.9,34.9,4.3,1.8,2.695,0.05369487134569496,0.2786305122112844,0.886083601785471,-0.09572369365572342,-1.034587,-10.614903
11.185,2.0,1.0,1.0,34.9,34.9,34.9,4.3,1.8,2.6975,0.023905010090596868,0.26262431867790176,0.9116409419710411,-0.0642629634233312,-0.800538,-11.360751
11.185,2.0,1.0,1.0,34.9,34.9,34.9,4.3,1.8,2.7,-0.006752453286492801,0.24569685506789088,0.9301072127967862,-0.040205236002288106,-0.629111,-12.077246
11.185,2.0,1.0,1.0,34.9,34.9,34.9,4.3,1.8,2.7025,-0.037037134332344214,0.22920614222340108,0.9430730002530066,-0.02183072207340203,-0.502401,-12.756255
11.185,2.0,1.0,1.0,34.9,34.9,34.9,4.3,1.8,2.705,-0.06637474947372618,0.21378474525145041,0.9518360935907288,-0.007730617519036913,-0.407689,-13.394791
11.185,2.0,1.0,1.0,34.9,34.9,34.9,4.3,1.8,2.7075,-0.09455388272620169,0.1996685382234104,0.9573882821312976,0.003175653528755667,-0.336082,-13.992709
11.185,2.0,1.0,1.0,34.9,34.9,34.9,4.3,1.8,2.71,-0.1215488970892366,0.18688926806533482,0.9604657085876539,0.011693348490509299,-0.28136,-14.551344
11.185,2.0,1.0,1.0,34.9,34.9,34.9,4.3,1.8,2.7125,-0.14742229004686558,0.17538104333615842,0.9616085127614019,0.018416163432186067,-0.239141,-15.072722
11.185,2.0,1.0,1.0,34.9,34.9,34.9,4.3,1.8,2.715,-0.17227286714993958,0.1650370469513609,0.9612120933056805,0.02378134528839226,-0.206307,-15.559118
11.185,2.0,1.0,1.0,34.9,34.9,34.9,4.3,1.8,2.7175,-0.19620921309685765,0.15573869657910996,0.9595665996168747,0.028112286022222596,-0.180609,-16.012817
11.185,2.0,1.0,1.0,34.9,34.9,34.9,4.3,1.8,2.72,-0.21933678257121633,0.14736993124377243,0.9568859579376149,0.031649900118056844,-0.160404,-16.435991
11.185,2.0,1.0,1.0,34.9,34.9,34.9,4.3,1.8,2.7225,-0.24175218146849778,0.13982362041776628,0.9533287715453299,0.03457526122623231,-0.144479,-16.830637
11.185,2.0,1.0,1.0,34.9,34.9,34.9,4.3,1.8,2.725,-0.26354115822124535,0.13300389161403225,0.9490132599430405,0.0370258127622908,-0.131924,-17.198555
11.185,2.0,1.0,1.0,34.9,34.9,34.9,4.3,1.8,2.7275,-0.2847784413686161,0.1268264147410847,0.9440279347124784,0.03910697629131754,-0.122053,-17.541347
11.185,2.0,1.0,1.0,34.9,34.9,34.9,4.3,1.8,2.73,-0.30552843567730925,0.12121772677401005,0.9384392568579779,0.04090049901955398,-0.11434,-17.860418
11.185,2.0,1.0,1.0,34.9,34.9,34.9,4.3,1.8,2.7325,-0.325846261548059,0.11611416439057846,0.9322971609610882,0.0424704965206524,-0.108378,-18.156993
11.185,2.0,1.0,1.0,34.9,34.9,34.9,4.3,1.8,2.735,-0.3457788761947647,0.11146069442819125,0.9256390674159107,0.04386786306594687,-0.103853,-18.432124
11.185,2.0,1.0,1.0,34.9,34.9,34.9,4.3,1.8,2.7375,-0.36536615058648114,0.10720978323281011,0.9184928168304163,0.04513352042665225,-0.100514,-18.68671
11.185,2.0,1.0,1.0,34.9,34.9,34.9,4.3,1.8,2.74,-0.3846418476908475,0.10332036710832071,0.9108788300912861,0.04630083532656635,-0.098168,-18.921504
11.185,2.0,1.0,1.0,34.9,34.9,34.9,4.3,1.8,2.7425,-0.4036344845342287,0.09975694510242179,0.9028117070047361,0.047397438147263125,-0.096657,-19.137126
11.185,2.0,1.0,1.0,34.9,34.9,34.9,4.3,1.8,2.745,-0.4223680789435063,0.09648879486884256,0.8943014135692946,0.048446607882733465,-0.095857,-19.334072
11.185,2.0,1.0,1.0,34.9,34.9,34.9,4.3,1.8,2.7475,-0.44086279023302843,0.09348930283008061,0.8853541641361344,0.04946834140658567,-0.09567,-19.512721
11.185,2.0,1.0,1.0,34.9,34.9,34.9,4.3,1.8,2.75,-0.459135466273471,0.0907353961445884,0.875973073971832,0.0504801924222818,-0.096016,-19.673344
11.185,2.0,1.0,1.0,34.9,34.9,34.9,4.3,1.8,2.7525,-0.4772001098963635,0.0882070632290665,0.8661586359476143,0.05149794261995614,-0.09683,-19.816106
11.185,2.0,1.0,1.0,34.9,34.9,34.9,4.3,1.8,2.755,-0.4950682768354394,0.08588695026597756,0.8559090594241863,0.052536151572875826,-0.098064,-19.94107
11.185,2.0,1.0,1.0,34.9,34.9,34.9,4.3,1.8,2.7575,-0.5127494161204247,0.08376002241631969,0.8452204979452468,0.05360862074518672,-0.099678,-20.048202
11.185,2.0,1.0,1.0,34.9,34.9,34.9,4.3,1.8,2.76,-0.5302511623991227,0.08181327992666598,0.8340871837469072,0.0547287992805642,-0.101642,-20.137365
11.185,2.0,1.0,1.0,34.9,34.9,34.9,4.3,1.8,2.7625,-0.5475795882523073,0.0800355207490872,0.822501480375037,0.055910154082434646,-0.103935,-20.208328
11.185,2.0,1.0,1.0,34.9,34.9,34.9,4.3,1.8,2.765,-0.5647394232563085,0.07841714257786045,0.8104538591713322,0.0571665234830771,-0.106543,-20.260755
11.185,2.0,1.0,1.0,34.9,34.9,34.9,4.3,1.8,2.7675,-0.5817342453532571,0.07694997830002427,0.7979328004895602,0.05851247216661353,-0.109457,-20.294203
11.185,2.0,1.0,1.0,34.9,34.9,34.9,4.3,1.8,2.77,-0.5985666489840817,0.07562715973427024,0.784924615765095,0.05996366477710023,-0.112678,-20.308121
11.185,2.0,1.0,1.0,34.9,34.9,34.9,4.3,1.8,2.7725,-0.6152383933721728,0.07444300517391005,0.7714131815319957,0.061537276783043986,-0.11621,-20.301836
11.185,2.0,1.0,1.0,34.9,34.9,34.9,4.3,1.8,2.775,-0.6317505332351419,0.07339292662104707,0.7573795706700943,0.06325246381671869,-0.120066,-20.274549
11.185,2.0,1.0,1.0,34.9,34.9,34.9,4.3,1.8,2.7775,-0.6481035329272533,0.07247335263663582,0.7428015589678636,0.06513091517558431,-0.124265,-20.225314
11.185,2.0,1.0,1.0,34.9,34.9,34.9,4.3,1.8,2.78,-0.6642973633920597,0.0716816623171394,0.7276529757024875,0.0671975240159072,-0.128837,-20.153031
11.185,2.0,1.0,1.0,34.9,34.9,34.9,4.3,1.8,2.7825,-0.680331579043973,0.07101612483444493,0.7119028542316426,0.06948121687344432,-0.13382,-20.05642
11.185,2.0,1.0,1.0,34.9,34.9,34.9,4.3,1.8,2.785,-0.6962053683291963,0.07047583687837376,0.6955143208912434,0.07201599990431706,-0.139263,-19.933993
11.185,2.0,1.0,1.0,34.9,34.9,34.9,4.3,1.8,2.7875,-0.7119175664561822,0.07006064659039642,0.6784431352699833,0.07484230082429544,-0.145234,-19.784029
11.185,2.0,1.0,1.0,34.9,34.9,34.9,4.3,1.8,2.79,-0.7274666102941996,0.06977104607157597,0.6606357582608423,0.07800871735821771,-0.151815,-19.604527
11.185,2.0,1.0,1.0,34.9,34.9,34.9,4.3,1.8,2.7925,-0.7428504013738956,0.06960800333668414,0.6420267699573604,0.0815743305541384,-0.159117,-19.393155
11.185,2.0,1.0,1.0,34.9,34.9,34.9,4.3,1.8,2.795,-0.7580660190990627,0.06957268515124841,0.6225353774147044,0.085611813437951,-0.167282,-19.147187
11.185,2.0,1.0,1.0,34.9,34.9,34.9,4.3,1.8,2.7975,-0.7731091850222137,0.0696659880436965,0.6020606259159518,0.0902116768768846,-0.176497,-18.863408
11.185,2.0,1.0,1.0,34.9,34.9,34.9,4.3,1.8,2.8,-0.7879733059157122,0.06988773367218715,0.5804747285715737,0.09548817007120296,-0.187012,-18.538011
11.185,2.0,1.0,1.0,34.9,34.9,34.9,4.3,1.8,2.8025,-0.8026477904287143,0.07023527280709768,0.5576136091448939,0.10158763598197323,-0.199164,-18.166436
11.185,2.0,1.0,1.0,34.9,34.9,34.9,4.3,1.8,2.805,-0.8171150854199473,0.07070103159883051,0.5332632253468085,0.10870058912187941,-0.213417,-17.743172
11.185,2.0,1.0,1.0,34.9,34.9,34.9,4.3,1.8,2.8075,-0.8313453975188122,0.07126812488701949,0.5071393461675157,0.11707957527826204,-0.230426,-17.261478
11.185,2.0,1.0,1.0,34.9,34.9,34.9,4.3,1.8,2.81,-0.8452871021423355,0.07190233798051386,0.47885689916587465,0.1270662553611427,-0.251135,-16.712988
11.185,2.0,1.0,1.0,34.9,34.9,34.9,4.3,1.8,2.8125,-0.858848827801847,0.0725370498217903,0.447882204562217,0.139133644373726,-0.276954,-16.087156
11.185,2.0,1.0,1.0,34.9,34.9,34.9,4.3,1.8,2.815,-0.8718647815125429,0.07304386184555374,0.41345622206959604,0.15395406216674637,-0.310064,-15.370444
11.185,2.0,1.0,1.0,34.9,34.9,34.9,4.3,1.8,2.8175,-0.8840246122502314,0.07317282098693177,0.3744670153672075,0.17251222010638506,-0.353986,-14.545107
11.185,2.0,1.0,1.0,34.9,34.9,34.9,4.3,1.8,2.82,-0.8947236527684601,0.07242404542670966,0.32923024809468227,0.1963002787609378,-0.414729,-13.587337
11.185,2.0,1.0,1.0,34.9,34.9,34.9,4.3,1.8,2.8225,-0.9027212959556755,0.06975330148422841,0.2750987773290328,0.22766587751994308,-0.503246,-12.464378
11.185,2.0,1.0,1.0,34.9,34.9,34.9,4.3,1.8,2.825,-0.9052965862259691,0.06284051126478697,0.20775604449880605,0.2704453668782853,-0.641279,-11.130041
11.185,2.0,1.0,1.0,34.9,34.9,34.9,4.3,1.8,2.8275,-0.8959524806740587,0.04609074864319817,0.11999692444261434,0.331068699391056,-0.877088,-9.518269
11.185,2.0,1.0,1.0,34.9,34.9,34.9,4.3,1.8,2.83,-0.8574986277488832,0.00457698242984128,0.000383656274168441,0.41984212929629466,-1.33533,-7.537764
