1,w,sub_t,h,l1,l2,l3,g1,g2,Freq,S11_re,S21_re,S11_img,S21_img,S11_dB,S21_dB
11.185,2.0,1.0,1.0,34.0,34.8,34.8,2.3,2.6,2.5,0.775204471039209,-0.0156063746189882,0.618109235101022,0.0109195413574024,-0.07446,-34.403383
11.185,2.0,1.0,1.0,34.0,34.8,34.8,2.3,2.6,2.5025,0.7704625198019402,-0.015947284491350668,0.6238366352542747,0.010966333708635463,-0.075416,-34.264596
11.185,2.0,1.0,1.0,34.0,34.8,34.8,2.3,2.6,2.505,0.7656507914855387,-0.01629596659699639,0.6295570892754577,0.011011485788801489,-0.076395,-34.125008
11.185,2.0,1.0,1.0,34.0,34.8,34.8,2.3,2.6,2.5075,0.7607684128621587,-0.016652643424703396,0.6352701173371422,0.011054898977973638,-0.077396,-33.9846
11.185,2.0,1.0,1.0,34.0,34.8,34.8,2.3,2.6,2.51,0.7558144923854538,-0.017017545670983007,0.6409752229182585,0.011096469449838779,-0.078422,-33.843355
11.185,2.0,1.0,1.0,34.0,34.8,34.8,2.3,2.6,2.5125,0.7507881196680077,-0.017390912612347285,0.646671892134769,0.011136087866439033,-0.079472,-33.701255
11.185,2.0,1.0,1.0,34.0,34.8,34.8,2.3,2.6,2.515,0.7456883649371655,-0.017772992497641565,0.6523595930380748,0.01117363905253189,-0.080548,-33.558279
11.185,2.0,1.0,1.0,34.0,34.8,34.8,2.3,2.6,2.5175,0.7405142784680717,-0.018164042961690524,0.6580377748791899,0.011209001648018585,-0.08165,-33.414409
11.185,2.0,1.0,1.0,34.0,34.8,34.8,2.3,2.6,2.52,0.7352648899925716,-0.018564331461596285,0.6637058673365559,0.011242047736758475,-0.082779,-33.269625
11.185,2.0,1.0,1.0,34.0,34.8,34.8,2.3,2.6,2.5225,0.7299392080826129,-0.018974135737118036,0.6693632797052094,0.011272642449940638,-0.083937,-33.123905
11.185,2.0,1.0,1.0,34.0,34.8,34.8,2.3,2.6,2.525,0.7245362195066094,-0.0193937442966686,0.675009400044837,0.011300643542024437,-0.085124,-32.97723
11.185,2.0,1.0,1.0,34.0,34.8,34.8,2.3,2.6,2.5275,0.7190548885571857,-0.01982345693056918,0.6806435942840697,0.01132590093708557,-0.086341,-32.829577
11.185,2.0,1.0,1.0,34.0,34.8,34.8,2.3,2.6,2.53,0.7134941563485662,-0.020263585253324005,0.6862652052781261,0.011348256243210559,-0.087589,-32.680924
11.185,2.0,1.0,1.0,34.0,34.8,34.8,2.3,2.6,2.5325,0.707852940081768,-0.020714453276803015,0.6918735518167033,0.011367542232371488,-0.08887,-32.531249
11.185,2.0,1.0,1.0,34.0,34.8,34.8,2.3,2.6,2.535,0.70213013227561,-0.021176398016359763,0.6974679275787655,0.011383582282979065,-0.090185,-32.380528
11.185,2.0,1.0,1.0,34.0,34.8,34.8,2.3,2.6,2.5375,0.6963245999614165,-0.02164977013205756,0.7030476000305612,0.011396189782055326,-0.091535,-32.228737
11.185,2.0,1.0,1.0,34.0,34.8,34.8,2.3,2.6,2.54,0.6904351838391258,-0.022134934607340492,0.70861180926294,0.011405167483683953,-0.092921,-32.075851
11.185,2.0,1.0,1.0,34.0,34.8,34.8,2.3,2.6,2.5425,0.6844606973923498,-0.022632271467656985,0.714159766763666,0.011410306820083677,-0.094345,-31.921845
11.185,2.0,1.0,1.0,34.0,34.8,34.8,2.3,2.6,2.545,0.6783999259597445,-0.023142176541731067,0.7196906541200621,0.011411387161304909,-0.095807,-31.766692
11.185,2.0,1.0,1.0,34.0,34.8,34.8,2.3,2.6,2.5475,0.6722516257598613,-0.023665062268379274,0.7252036216469109,0.011408175019168073,-0.097311,-31.610366
11.185,2.0,1.0,1.0,34.0,34.8,34.8,2.3,2.6,2.55,0.6660145228664096,-0.024201358551989564,0.7306977869340929,0.01140042319063958,-0.098856,-31.452839
11.185,2.0,1.0,1.0,34.0,34.8,34.8,2.3,2.6,2.5525,0.6596873121306662,-0.024751513670013426,0.7361722333079005,0.011387869835373968,-0.100446,-31.294082
11.185,2.0,1.0,1.0,34.0,34.8,34.8,2.3,2.6,2.555,0.653268656047476,-0.025315995236080024,0.7416260081994835,0.01137023748163094,-0.102081,-31.134067
11.185,2.0,1.0,1.0,34.0,34.8,34.8,2.3,2.6,2.5575,0.6467571835610357,-0.0258952912226159,0.7470581214131959,0.011347231954200853,-0.103764,-30.972762
11.185,2.0,1.0,1.0,34.0,34.8,34.8,2.3,2.6,2.56,0.6401514888063636,-0.026489911047151496,0.7524675432869825,0.011318541217332348,-0.105496,-30.810136
11.185,2.0,1.0,1.0,34.0,34.8,34.8,2.3,2.6,2.5625,0.633450129782018,-0.0271003867268205,0.757853202736168,0.0112838341249428,-0.10728,-30.646157
11.185,2.0,1.0,1.0,34.0,34.8,34.8,2.3,2.6,2.565,0.6266516269492965,-0.027727274105905177,0.7632139851711901,0.011242759069601182,-0.109117,-30.480793
11.185,2.0,1.0,1.0,34.0,34.8,34.8,2.3,2.6,2.5675,0.6197544617527732,-0.02837115416165833,0.7685487302788598,0.01119494252088785,-0.111011,-30.314007
11.185,2.0,1.0,1.0,34.0,34.8,34.8,2.3,2.6,2.57,0.6127570750566165,-0.029032634394040097,0.7738562296557339,0.011139987442750326,-0.112963,-30.145766
11.185,2.0,1.0,1.0,34.0,34.8,34.8,2.3,2.6,2.5725,0.6056578654906998,-0.029712350305448172,0.7791352242809954,0.011077471578371653,-0.114976,-29.976032
11.185,2.0,1.0,1.0,34.0,34.8,34.8,2.3,2.6,2.575,0.5984551877000438,-0.03041096697699431,0.7843844018149688,0.011006945589835842,-0.117053,-29.804767
11.185,2.0,1.0,1.0,34.0,34.8,34.8,2.3,2.6,2.5775,0.5911473504906175,-0.031129180748393104,0.7896023937079443,0.010927931038493344,-0.119197,-29.631933
11.185,2.0,1.0,1.0,34.0,34.8,34.8,2.3,2.6,2.58,0.5837326148639741,-0.031867721009080634,0.794787772102368,0.0108399181903825,-0.12141,-29.457488
11.185,2.0,1.0,1.0,34.0,34.8,34.8,2.3,2.6,2.5825,0.576209191932596,-0.03262735210877826,0.7999390465096725,0.01074236362932348,-0.123697,-29.281392
11.185,2.0,1.0,1.0,34.0,34.8,34.8,2.3,2.6,2.585,0.5685752407072028,-0.03340887539635308,0.8050546602409547,0.01063468765834873,-0.12606,-29.103599
11.185,2.0,1.0,1.0,34.0,34.8,34.8,2.3,2.6,2.5875,0.5608288657465567,-0.03421313139651812,0.8101329865684604,0.010516271467933064,-0.128503,-28.924067
11.185,2.0,1.0,1.0,34.0,34.8,34.8,2.3,2.6,2.59,0.5529681146595995,-0.0350410021346488,0.8151723245922473,0.01038645404700893,-0.131031,-28.742747
11.185,2.0,1.0,1.0,34.0,34.8,34.8,2.3,2.6,2.5925,0.5449909754489268,-0.03589341362078456,0.8201708947835273,0.01024452880995374,-0.133646,-28.559593
11.185,2.0,1.0,1.0,34.0,34.8,34.8,2.3,2.6,2.595,0.5368953736837985,-0.036771338504721494,0.8251268341728903,0.010089739909575159,-0.136355,-28.374553
11.185,2.0,1.0,1.0,34.0,34.8,34.8,2.3,2.6,2.5975,0.5286791694899443,-0.03767579891500114,0.8300381911479824,0.009921278202541411,-0.13916,-28.187575
11.185,2.0,1.0,1.0,34.0,34.8,34.8,2.3,2.6,2.6,0.5203401543425041,-0.03860786949554509,0.8349029198209659,0.009738276829648566,-0.142069,-27.998607
11.185,2.0,1.0,1.0,34.0,34.8,34.8,2.3,2.6,2.6025,0.5118760476474316,-0.03956868065468381,0.8397188739214203,0.009539806368714604,-0.145085,-27.807592
11.185,2.0,1.0,1.0,34.0,34.8,34.8,2.3,2.6,2.605,0.5032844930956104,-0.040559422042377107,0.8444838001649304,0.009324869512657579,-0.148214,-27.614471
11.185,2.0,1.0,1.0,34.0,34.8,34.8,2.3,2.6,2.6075,0.49456305477286566,-0.041581346272508,0.8491953310415137,0.00909239521936048,-0.151464,-27.419185
11.185,2.0,1.0,1.0,34.0,34.8,34.8,2.3,2.6,2.61,0.4857092130079148,-0.042635772908252136,0.8538509769610924,0.008841232273136003,-0.15484,-27.22167
11.185,2.0,1.0,1.0,34.0,34.8,34.8,2.3,2.6,2.6125,0.47672035993913087,-0.04372409272966351,0.8584481176852565,0.008570142189850544,-0.158349,-27.021862
11.185,2.0,1.0,1.0,34.0,34.8,34.8,2.3,2.6,2.615,0.46759379477986535,-0.04484777230375212,0.8629839929655204,0.0082777913889003,-0.162,-26.819691
11.185,2.0,1.0,1.0,34.0,34.8,34.8,2.3,2.6,2.6175,0.4583267187609379,-0.04600835887843626,0.867455692297885,0.007962742545075013,-0.1658,-26.615088
11.185,2.0,1.0,1.0,34.0,34.8,34.8,2.3,2.6,2.62,0.44891622972784156,-0.047207485622797314,0.8718601436916146,0.0076234450216893105,-0.169758,-26.407977
11.185,2.0,1.0,1.0,34.0,34.8,34.8,2.3,2.6,2.6225,0.4393593163692478,-0.048446877236996054,0.8761941013365031,0.0072582242729660245,-0.173884,-26.198283
11.185,2.0,1.0,1.0,34.0,34.8,34.8,2.3,2.6,2.625,0.429652852052642,-0.0497283559559585,0.880454132037137,0.00686527008823426,-0.178188,-25.985923
11.185,2.0,1.0,1.0,34.0,34.8,34.8,2.3,2.6,2.6275,0.419793588242358,-0.05105384797143791,0.8846366002646054,0.006442623532716422,-0.182681,-25.770816
11.185,2.0,1.0,1.0,34.0,34.8,34.8,2.3,2.6,2.63,0.40977814747517904,-0.05242539029717086,0.888737651655143,0.005988162419131776,-0.187375,-25.552871
11.185,2.0,1.0,1.0,34.0,34.8,34.8,2.3,2.6,2.6325,0.39960301586899877,-0.05384513810144809,0.8927531947610354,0.005499585120559929,-0.192284,-25.331999
11.185,2.0,1.0,1.0,34.0,34.8,34.8,2.3,2.6,2.635,0.3892645351411348,-0.055315372530311435,0.8966788808310746,0.004974392507432956,-0.197421,-25.108103
11.185,2.0,1.0,1.0,34.0,34.8,34.8,2.3,2.6,2.6375,0.3787588941149125,-0.05683850904252317,0.9005100813653056,0.004409867759497672,-0.202802,-24.881082
11.185,2.0,1.0,1.0,34.0,34.8,34.8,2.3,2.6,2.64,0.3680821196964016,-0.058417106274123866,0.904241863150989,0.00380305376631482,-0.208443,-24.650832
11.185,2.0,1.0,1.0,34.0,34.8,34.8,2.3,2.6,2.6425,0.35723006730822404,-0.06005387544536535,0.9078689604425726,0.0031507277864135878,-0.214363,-24.417241
11.185,2.0,1.0,1.0,34.0,34.8,34.8,2.3,2.6,2.645,0.34619841077452257,-0.06175169031556316,0.9113857438970038,0.0024493729844661674,-0.220582,-24.180196
11.185,2.0,1.0,1.0,34.0,34.8,34.8,2.3,2.6,2.6475,0.3349826316613415,-0.06351359768124624,0.9147861858155096,0.0016951464064625878,-0.227122,-23.939573
11.185,2.0,1.0,1.0,34.0,34.8,34.8,2.3,2.6,2.65,0.32357800809059784,-0.06534282839899913,0.9180638211723857,0.0008838428832446476,-0.234007,-23.695247
11.185,2.0,1.0,1.0,34.0,34.8,34.8,2.3,2.6,2.6525,0.31197960306487166,-0.06724280889540325,0.9212117038285238,1.0854270997649664e-05,-0.241262,-23.447083
11.185,2.0,1.0,1.0,34.0,34.8,34.8,2.3,2.6,2.655,0.30018225236564045,-0.06921717310101078,0.924222357229954,-0.0009288766589115899,-0.248917,-23.194941
11.185,2.0,1.0,1.0,34.0,34.8,34.8,2.3,2.6,2.6575,0.288180552121705,-0.07126977471128737,0.9270877187768958,-0.0019409084817493443,-0.257004,-22.938673
11.185,2.0,1.0,1.0,34.0,34.8,34.8,2.3,2.6,2.66,0.2759688461896409,-0.07340469963241927,0.9297990769132861,-0.0030313604677657873,-0.265557,-22.678123
11.185,2.0,1.0,1.0,34.0,34.8,34.8,2.3,2.6,2.6625,0.26354121354777194,-0.07562627841038805,0.9323469998265541,-0.004206980110299317,-0.274617,-22.413127
11.185,2.0,1.0,1.0,34.0,34.8,34.8,2.3,2.6,2.665,0.25089145598369095,-0.07793909836340131,0.9347212544576922,-0.005475220114393979,-0.284225,-22.143512
11.185,2.0,1.0,1.0,34.0,34.8,34.8,2.3,2.6,2.6675,0.2380130864586801,-0.08034801503482737,0.9369107142966847,-0.0068443263491346495,-0.29443,-21.869097
11.185,2.0,1.0,1.0,34.0,34.8,34.8,2.3,2.6,2.67,0.2248993186679596,-0.0828581624486812,0.9389032541712408,-0.008323438531087699,-0.305286,-21.589689
11.185,2.0,1.0,1.0,34.0,34.8,34.8,2.3,2.6,2.6725,0.21154305849372337,-0.08547496147242221,0.9406856299192409,-0.009922705720293726,-0.316852,-21.305084
11.185,2.0,1.0,1.0,34.0,34.8,34.8,2.3,2.6,2.675,0.1979368982815676,-0.08820412535920616,0.9422433404576392,-0.011653419083886502,-0.329195,-21.015068
11.185,2.0,1.0,1.0,34.0,34.8,34.8,2.3,2.6,2.6775,0.18407311517773162,-0.09105166123633614,0.9435604693111094,-0.013528164827072543,-0.342391,-20.719415
11.185,2.0,1.0,1.0,34.0,34.8,34.8,2.3,2.6,2.68,0.16994367516784692,-0.09402386590532928,0.9446195021289808,-0.015561000720335961,-0.356523,-20.417883
11.185,2.0,1.0,1.0,34.0,34.8,34.8,2.3,2.6,2.6825,0.1555402449886836,-0.09712731379095171,0.9454011160831531,-0.017767660280900828,-0.371687,-20.110219
11.185,2.0,1.0,1.0,34.0,34.8,34.8,2.3,2.6,2.685,0.1408542147839302,-0.10036883418068439,0.9458839362848434,-0.020165789413455527,-0.38799,-19.796154
11.185,2.0,1.0,1.0,34.0,34.8,34.8,2.3,2.6,2.6875,0.125876735298845,-0.103755473977337,0.946044253464186,-0.0227752211995862,-0.405557,-19.475404
11.185,2.0,1.0,1.0,34.0,34.8,34.8,2.3,2.6,2.69,0.11059877463086726,-0.10729444097216237,0.9458556961027383,-0.025618295568262263,-0.424525,-19.147667
11.185,2.0,1.0,1.0,34.0,34.8,34.8,2.3,2.6,2.6925,0.09501120117378749,-0.11099302103464014,0.9452888489736312,-0.0287202318018582,-0.445056,-18.812625
11.185,2.0,1.0,1.0,34.0,34.8,34.8,2.3,2.6,2.695,0.07910490154666523,-0.114858460474354,0.9443108086093975,-0.03210956325133662,-0.467331,-18.469938
11.185,2.0,1.0,1.0,34.0,34.8,34.8,2.3,2.6,2.6975,0.06287094516667975,-0.11889780197970938,0.942884664573223,-0.03581864526019784,-0.491562,-18.119251
11.185,2.0,1.0,1.0,34.0,34.8,34.8,2.3,2.6,2.7,0.04630081095356887,-0.12311765873365477,0.9409688935621258,-0.03988424912258716,-0.517992,-17.760186
11.185,2.0,1.0,1.0,34.0,34.8,34.8,2.3,2.6,2.7025,0.029386696773795466,-0.12752390621847312,0.9385166513584746,-0.044348256888248894,-0.546904,-17.392344
11.185,2.0,1.0,1.0,34.0,34.8,34.8,2.3,2.6,2.705,0.012121939094231782,-0.13212126440458505,0.9354749455635447,-0.04925847388154192,-0.578628,-17.015306
11.185,2.0,1.0,1.0,34.0,34.8,34.8,2.3,2.6,2.7075,-0.005498420477489806,-0.13691273387175118,0.9317836700838809,-0.0546695777334381,-0.613547,-16.628631
11.185,2.0,1.0,1.0,34.0,34.8,34.8,2.3,2.6,2.71,-0.02347687272337025,-0.14189883712906906,0.9273744808506662,-0.06064422418303465,-0.652115,-16.231859
11.185,2.0,1.0,1.0,34.0,34.8,34.8,2.3,2.6,2.7125,-0.041812416768198135,-0.14707659990906785,0.9221694918543131,-0.06725433027097381,-0.694866,-15.824507
11.185,2.0,1.0,1.0,34.0,34.8,34.8,2.3,2.6,2.715,-0.060499186537368334,-0.1524381850977644,0.9160797723297984,-0.07458255376788167,-0.742434,-15.406082
11.185,2.0,1.0,1.0,34.0,34.8,34.8,2.3,2.6,2.7175,-0.07952461002708837,-0.1579690624025486,0.9090036316010527,-0.08272398199779718,-0.795575,-14.976073
11.185,2.0,1.0,1.0,34.0,34.8,34.8,2.3,2.6,2.72,-0.09886694411473423,-0.1636455575717106,0.9008246905925403,-0.09178803073872575,-0.855194,-14.533967
11.185,2.0,1.0,1.0,34.0,34.8,34.8,2.3,2.6,2.7225,-0.11849197552374885,-0.16943157326116523,0.8914097630618593,-0.1019005299198514,-0.922385,-14.079257
11.185,2.0,1.0,1.0,34.0,34.8,34.8,2.3,2.6,2.725,-0.1383486109958576,-0.17527420661180967,0.880606612763782,-0.11320592987057414,-0.998469,-13.611452
11.185,2.0,1.0,1.0,34.0,34.8,34.8,2.3,2.6,2.7275,-0.15836299429852807,-0.18109790387344318,0.8682417269907239,-0.12586948802271808,-1.085057,-13.130102
11.185,2.0,1.0,1.0,34.0,34.8,34.8,2.3,2.6,2.73,-0.17843068409002194,-0.18679668969986207,0.8541183708688459,-0.14007917273074805,-1.184124,-12.634826
11.185,2.0,1.0,1.0,34.0,34.8,34.8,2.3,2.6,2.7325,-0.1984063100418916,-0.19222389321242206,0.8380153887511093,-0.15604682013095816,-1.298099,-12.12535
11.185,2.0,1.0,1.0,34.0,34.8,34.8,2.3,2.6,2.735,-0.21809001233222752,-0.19717868187801163,0.8196875407139724,-0.17400776034753135,-1.429988,-11.601567
11.185,2.0,1.0,1.0,34.0,34.8,34.8,2.3,2.6,2.7375,-0.23720990384764035,-0.20138864963656403,0.7988686616315689,-0.19421763323532176,-1.58353,-11.06361
11.185,2.0,1.0,1.0,34.0,34.8,34.8,2.3,2.6,2.74,-0.25539986465689574,-0.20448777651483654,0.7752796811400664,-0.21694436829350375,-1.763382,-10.511954
11.185,2.0,1.0,1.0,34.0,34.8,34.8,2.3,2.6,2.7425,-0.27217235859713573,-0.20598945612704345,0.7486446204683234,-0.24245223370798769,-1.975365,-9.947562
11.185,2.0,1.0,1.0,34.0,34.8,34.8,2.3,2.6,2.745,-0.28688696567601524,-0.20525528638621832,0.7187191189082451,-0.2709734340410056,-2.226737,-9.372062
11.185,2.0,1.0,1.0,34.0,34.8,34.8,2.3,2.6,2.7475,-0.2987174679905289,-0.20146245021580106,0.6853377151801444,-0.30266107820126126,-2.526504,-8.787986
11.185,2.0,1.0,1.0,34.0,34.8,34.8,2.3,2.6,2.75,-0.306624355804075,-0.193576515955462,0.648487500117347,-0.33751596344245,-2.885686,-8.19906
11.185,2.0,1.0,1.0,34.0,34.8,34.8,2.3,2.6,2.7525,-0.3093463558695895,-0.18034317546883677,0.6084155343050118,-0.37527985176540357,-3.317403,-7.610545
11.185,2.0,1.0,1.0,34.0,34.8,34.8,2.3,2.6,2.755,-0.3054342893056813,-0.1603220693205193,0.5657728729863473,-0.4152924482591959,-3.83641,-7.029599
11.185,2.0,1.0,1.0,34.0,34.8,34.8,2.3,2.6,2.7575,-0.2933613444928958,-0.13199653308791115,0.5217847775092397,-0.45632247657979336,-4.457287,-6.465583
11.185,2.0,1.0,1.0,34.0,34.8,34.8,2.3,2.6,2.76,-0.271748810975278,-0.0939979878394101,0.4784099752188509,-0.4964097848839654,-5.189538,-5.930201
11.185,2.0,1.0,1.0,34.0,34.8,34.8,2.3,2.6,2.7625,-0.2397309092515939,-0.045468339014455045,0.43841189138659875,-0.5327950542810252,-6.026234,-5.437282
11.185,2.0,1.0,1.0,34.0,34.8,34.8,2.3,2.6,2.765,-0.19742745293113942,0.013470818775876968,0.4052276578436794,-0.5620504667321727,-6.92104,-5.002
11.185,2.0,1.0,1.0,34.0,34.8,34.8,2.3,2.6,2.7675,-0.14639350212781613,0.08127226736902046,0.38252780389853536,-0.5805175020909498,-7.753153,-4.639396
11.185,2.0,1.0,1.0,34.0,34.8,34.8,2.3,2.6,2.77,-0.08981369658600144,0.15477120085948645,0.3734627653932343,-0.5850553856903215,-8.310875,-4.362296
11.185,2.0,1.0,1.0,34.0,34.8,34.8,2.3,2.6,2.7725,-0.032208896302650704,0.22947772325899377,0.3797920546490174,-0.573905392219972,-8.377959,-4.179055
11.185,2.0,1.0,1.0,34.0,34.8,34.8,2.3,2.6,2.775,0.021387073435375666,0.30039521969978433,0.40126815237017743,-0.5473014740056663,-7.918986,-4.091847
11.185,2.0,1.0,1.0,34.0,34.8,34.8,2.3,2.6,2.7775,0.06651120455743537,0.36309665715498435,0.4356114146324458,-0.5074936133916826,-7.117932,-4.096164
11.185,2.0,1.0,1.0,34.0,34.8,34.8,2.3,2.6,2.78,0.10015726222160087,0.4146035873947093,0.4791167174370129,-0.45814406339801844,-6.205416,-4.18173
11.185,2.0,1.0,1.0,34.0,34.8,34.8,2.3,2.6,2.7825,0.12112297502361799,0.4537296715666471,0.527590922532492,-0.40339575349507667,-5.330984,-4.334461
11.185,2.0,1.0,1.0,34.0,34.8,34.8,2.3,2.6,2.785,0.12979971145598976,0.4808706525865822,0.5772055273520793,-0.34702564230447475,-4.559144,-4.538729
11.185,2.0,1.0,1.0,34.0,34.8,34.8,2.3,2.6,2.7875,0.12764195164101222,0.497476786355614,0.6250020144057598,-0.29194337353728145,-3.90491,-4.779288
11.185,2.0,1.0,1.0,34.0,34.8,34.8,2.3,2.6,2.79,0.11659715718938071,0.5054864290308677,0.6690246889164546,-0.2400599015627014,-3.361211,-5.042541
11.185,2.0,1.0,1.0,34.0,34.8,34.8,2.3,2.6,2.7925,0.0986693445638409,0.5068927292573049,0.7082030221052352,-0.19240467931250638,-2.913351,-5.317121
11.185,2.0,1.0,1.0,34.0,34.8,34.8,2.3,2.6,2.795,0.07566186446016109,0.5034884216085682,0.7421288124064023,-0.1493470322463051,-2.545505,-5.593977
11.185,2.0,1.0,1.0,34.0,34.8,34.8,2.3,2.6,2.7975,0.049068366236972714,0.4967577779818146,0.7708291127500141,-0.1108214995543554,-2.243275,-5.866169
11.185,2.0,1.0,1.0,34.0,34.8,34.8,2.3,2.6,2.8,0.020058421096931244,0.4878624923804121,0.7945822335167028,-0.07651022171211627,-1.994456,-6.12853
11.185,2.0,1.0,1.0,34.0,34.8,34.8,2.3,2.6,2.8025,-0.010488544897151543,0.4776754495623937,0.8137874862267817,-0.045971835510706924,-1.789058,-6.377301
11.185,2.0,1.0,1.0,34.0,34.8,34.8,2.3,2.6,2.805,-0.041931628505119424,0.46683197024270706,0.8288817136166116,-0.01872381379691681,-1.619049,-6.609807
11.185,2.0,1.0,1.0,34.0,34.8,34.8,2.3,2.6,2.8075,-0.07381586853823041,0.4557819250071776,0.8402904460322507,0.005709663178545511,-1.478026,-6.824177
11.185,2.0,1.0,1.0,34.0,34.8,34.8,2.3,2.6,2.81,-0.1058261589072906,0.4448353207317698,0.8484022419029982,0.027772945546025316,-1.360912,-7.019119
11.185,2.0,1.0,1.0,34.0,34.8,34.8,2.3,2.6,2.8125,-0.137749883195281,0.434199145413351,0.853557422938617,0.0478685460809174,-1.263683,-7.193754
11.185,2.0,1.0,1.0,34.0,34.8,34.8,2.3,2.6,2.815,-0.16944797453030871,0.42400575618440123,0.8560451400051898,0.06635516589644438,-1.183153,-7.347484
11.185,2.0,1.0,1.0,34.0,34.8,34.8,2.3,2.6,2.8175,-0.200833118977,0.4143340656883096,0.8561048674485598,0.08355026521448376,-1.116804,-7.479888
11.185,2.0,1.0,1.0,34.0,34.8,34.8,2.3,2.6,2.82,-0.23185360753882267,0.4052249842330893,0.8539299438353545,0.09973484624809971,-1.062646,-7.590657
11.185,2.0,1.0,1.0,34.0,34.8,34.8,2.3,2.6,2.8225,-0.26248146340702116,0.3966924431364006,0.8496717717383643,0.11515910932791366,-1.019121,-7.679535
11.185,2.0,1.0,1.0,34.0,34.8,34.8,2.3,2.6,2.825,-0.29270370225096676,0.388731080762595,0.8434439076119967,0.13004826498031632,-0.985019,-7.746276
11.185,2.0,1.0,1.0,34.0,34.8,34.8,2.3,2.6,2.8275,-0.3225158201401811,0.38132141865937913,0.835325641062139,0.14460815923148493,-0.959419,-7.790619
11.185,2.0,1.0,1.0,34.0,34.8,34.8,2.3,2.6,2.83,-0.35191680484254495,0.3744331298532738,0.8253648724064727,0.15903058797552236,-0.941649,-7.812259
