1,w,sub_t,h,l1,l2,l3,g1,g2,Freq,S11_re,S21_re,S11_img,S21_img,S11_dB,S21_dB
11.185,2.0,1.0,1.0,33.2,33.0,33.0,2.7,3.1,2.5,0.879020863359674,-0.00603406940595532,0.464458037424318,0.00570703509975141,-0.050677,-41.612753
11.185,2.0,1.0,1.0,33.2,33.0,33.0,2.7,3.1,2.5025,0.8760416113117013,-0.006156664276704509,0.46994899180497574,0.005737783314935638,-0.051108,-41.498032
11.185,2.0,1.0,1.0,33.2,33.0,33.0,2.7,3.1,2.505,0.8730160646409318,-0.006281352735542959,0.4754412219043233,0.005768065081532845,-0.051545,-41.383105
11.185,2.0,1.0,1.0,33.2,33.0,33.0,2.7,3.1,2.5075,0.8699437916732533,-0.006408173076764158,0.48093455676556485,0.005797858085432774,-0.05199,-41.267966
11.185,2.0,1.0,1.0,33.2,33.0,33.0,2.7,3.1,2.51,0.8668243538415049,-0.006537164444064137,0.48642882027472434,0.005827139216522251,-0.052442,-41.152609
11.185,2.0,1.0,1.0,33.2,33.0,33.0,2.7,3.1,2.5125,0.8636573055721938,-0.006668366852126442,0.49192383099054815,0.0058558845385465914,-0.052901,-41.037026
11.185,2.0,1.0,1.0,33.2,33.0,33.0,2.7,3.1,2.515,0.8604421941705872,-0.006801821208805202,0.4974194019688963,0.0058840692577308285,-0.053368,-40.92121
11.185,2.0,1.0,1.0,33.2,33.0,33.0,2.7,3.1,2.5175,0.8571785597041842,-0.006937569337922447,0.5029153405814123,0.005911667690104873,-0.053842,-40.805156
11.185,2.0,1.0,1.0,33.2,33.0,33.0,2.7,3.1,2.52,0.8538659348845565,-0.0070756540026982034,0.5084114483282964,0.005938653227473853,-0.054324,-40.688856
11.185,2.0,1.0,1.0,33.2,33.0,33.0,2.7,3.1,2.5225,0.8505038449475688,-0.007216118929830972,0.5139075206449518,0.00596499830197199,-0.054815,-40.572304
11.185,2.0,1.0,1.0,33.2,33.0,33.0,2.7,3.1,2.525,0.8470918075319662,-0.007359008834247972,0.5194033467023107,0.005990674349135193,-0.055313,-40.455491
11.185,2.0,1.0,1.0,33.2,33.0,33.0,2.7,3.1,2.5275,0.8436293325563362,-0.007504369444543872,0.5248987092006118,0.006015651769424475,-0.05582,-40.338412
11.185,2.0,1.0,1.0,33.2,33.0,33.0,2.7,3.1,2.53,0.8401159220944531,-0.00765224752912785,0.5303933841563957,0.006039899888128707,-0.056336,-40.22106
11.185,2.0,1.0,1.0,33.2,33.0,33.0,2.7,3.1,2.5325,0.8365510702490064,-0.0078026909230994364,0.5358871406824876,0.006063386913571489,-0.056861,-40.103427
11.185,2.0,1.0,1.0,33.2,33.0,33.0,2.7,3.1,2.535,0.8329342630237211,-0.007955748555873705,0.5413797407607163,0.006086079893543447,-0.057394,-39.985506
11.185,2.0,1.0,1.0,33.2,33.0,33.0,2.7,3.1,2.5375,0.829264978193885,-0.008111470479577033,0.5468709390071101,0.006107944669876841,-0.057936,-39.867289
11.185,2.0,1.0,1.0,33.2,33.0,33.0,2.7,3.1,2.54,0.8255426851752963,-0.00826990789823572,0.5523604824293075,0.006128945831075098,-0.058488,-39.748771
11.185,2.0,1.0,1.0,33.2,33.0,33.0,2.7,3.1,2.5425,0.8217668448916389,-0.008431113197779129,0.5578481101759051,0.00614904666290585,-0.05905,-39.629943
11.185,2.0,1.0,1.0,33.2,33.0,33.0,2.7,3.1,2.545,0.8179369096403201,-0.00859513997688075,0.5633335532774563,0.006168209096860531,-0.059621,-39.510797
11.185,2.0,1.0,1.0,33.2,33.0,33.0,2.7,3.1,2.5475,0.8140523229567808,-0.008762043078660419,0.5688165343788125,0.0061863936563790805,-0.060203,-39.391328
11.185,2.0,1.0,1.0,33.2,33.0,33.0,2.7,3.1,2.55,0.810112519477306,-0.00893187862327201,0.5742967674625181,0.006203559400732705,-0.060795,-39.271526
11.185,2.0,1.0,1.0,33.2,33.0,33.0,2.7,3.1,2.5525,0.8061169248003748,-0.009104704041399986,0.5797739575629066,0.006219663866452135,-0.061397,-39.151384
11.185,2.0,1.0,1.0,33.2,33.0,33.0,2.7,3.1,2.555,0.8020649553465707,-0.009280578108691144,0.5852478004705898,0.00623466300618257,-0.06201,-39.030895
11.185,2.0,1.0,1.0,33.2,33.0,33.0,2.7,3.1,2.5575,0.7979560182170972,-0.009459560981146723,0.5907179824269794,0.006248511124840357,-0.062634,-38.91005
11.185,2.0,1.0,1.0,33.2,33.0,33.0,2.7,3.1,2.56,0.7937895110509394,-0.009641714231499435,0.5961841798084795,0.00626116081293989,-0.063269,-38.788842
11.185,2.0,1.0,1.0,33.2,33.0,33.0,2.7,3.1,2.5625,0.7895648218807216,-0.009827100886604828,0.6016460587999727,0.006272562876951354,-0.063916,-38.667264
11.185,2.0,1.0,1.0,33.2,33.0,33.0,2.7,3.1,2.565,0.7852813289873039,-0.01001578546587086,0.6071032750572146,0.006282666266543515,-0.064575,-38.545306
11.185,2.0,1.0,1.0,33.2,33.0,33.0,2.7,3.1,2.5675,0.7809384007531902,-0.010207834020754966,0.612555473357719,0.0062914179985566285,-0.065245,-38.42296
11.185,2.0,1.0,1.0,33.2,33.0,33.0,2.7,3.1,2.57,0.776535395514798,-0.01040331417535626,0.6180022872397187,0.006298763077542811,-0.065928,-38.30022
11.185,2.0,1.0,1.0,33.2,33.0,33.0,2.7,3.1,2.5725,0.7720716614136638,-0.010602295168130117,0.6234433386287584,0.006304644412701874,-0.066624,-38.177075
11.185,2.0,1.0,1.0,33.2,33.0,33.0,2.7,3.1,2.575,0.7675465362466628,-0.010804847894755021,0.6288782374514589,0.006309002731031134,-0.067333,-38.053518
11.185,2.0,1.0,1.0,33.2,33.0,33.0,2.7,3.1,2.5775,0.7629593473153256,-0.01101104495217978,0.6343065812359777,0.00631177648649741,-0.068055,-37.92954
11.185,2.0,1.0,1.0,33.2,33.0,33.0,2.7,3.1,2.58,0.7583094112743396,-0.011220960683879806,0.6397279546986623,0.006312901765029065,-0.068791,-37.805132
11.185,2.0,1.0,1.0,33.2,33.0,33.0,2.7,3.1,2.5825,0.7535960339793385,-0.011434671226353417,0.6451419293163904,0.006312312185113777,-0.069541,-37.680286
11.185,2.0,1.0,1.0,33.2,33.0,33.0,2.7,3.1,2.585,0.7488185103340839,-0.011652254556885623,0.6505480628840387,0.006309938793776407,-0.070305,-37.554993
11.185,2.0,1.0,1.0,33.2,33.0,33.0,2.7,3.1,2.5875,0.7439761241371567,-0.011873790542610433,0.6559458990565428,0.0063057099576975415,-0.071084,-37.429244
11.185,2.0,1.0,1.0,33.2,33.0,33.0,2.7,3.1,2.59,0.7390681479282865,-0.01209936099090072,0.6613349668749332,0.006299551249220147,-0.071878,-37.303029
11.185,2.0,1.0,1.0,33.2,33.0,33.0,2.7,3.1,2.5925,0.7340938428344502,-0.012329049701114562,0.6667147802757676,0.006291385326976807,-0.072688,-37.17634
11.185,2.0,1.0,1.0,33.2,33.0,33.0,2.7,3.1,2.595,0.7290524584158987,-0.01256294251772815,0.6720848375832879,0.006281131810854377,-0.073513,-37.049166
11.185,2.0,1.0,1.0,33.2,33.0,33.0,2.7,3.1,2.5975,0.7239432325122569,-0.012801127384882812,0.677444620983674,0.006268707150996684,-0.074354,-36.921499
11.185,2.0,1.0,1.0,33.2,33.0,33.0,2.7,3.1,2.6,0.7187653910888782,-0.013043694402375666,0.6827935959806744,0.00625402449052749,-0.075212,-36.793329
11.185,2.0,1.0,1.0,33.2,33.0,33.0,2.7,3.1,2.6025,0.7135181480836392,-0.013290735883121152,0.6881312108318992,0.006236993521657769,-0.076088,-36.664646
11.185,2.0,1.0,1.0,33.2,33.0,33.0,2.7,3.1,2.605,0.7082007052543682,-0.013542346412108792,0.6934568959650276,0.0062175203348210275,-0.076981,-36.535439
11.185,2.0,1.0,1.0,33.2,33.0,33.0,2.7,3.1,2.6075,0.7028122520271262,-0.01379862290688573,0.6987700633731302,0.006195507260458513,-0.077892,-36.4057
11.185,2.0,1.0,1.0,33.2,33.0,33.0,2.7,3.1,2.61,0.6973519653455744,-0.014059664679585221,0.7040701059882915,0.006170852703054158,-0.078821,-36.275417
11.185,2.0,1.0,1.0,33.2,33.0,33.0,2.7,3.1,2.6125,0.6918190095216693,-0.014325573500526793,0.7093563970326654,0.00614345096699363,-0.07977,-36.14458
11.185,2.0,1.0,1.0,33.2,33.0,33.0,2.7,3.1,2.615,0.6862125360879537,-0.014596453663407078,0.7146282893460773,0.006113192073796813,-0.080738,-36.013178
11.185,2.0,1.0,1.0,33.2,33.0,33.0,2.7,3.1,2.6175,0.6805316836517354,-0.014872412052100851,0.7198851146892166,0.006079961570244315,-0.081726,-35.881202
11.185,2.0,1.0,1.0,33.2,33.0,33.0,2.7,3.1,2.62,0.6747755777514538,-0.015153558209089856,0.7251261830214514,0.006043640326889149,-0.082734,-35.748639
11.185,2.0,1.0,1.0,33.2,33.0,33.0,2.7,3.1,2.6225,0.668943330715563,-0.015440004405530377,0.7303507817522313,0.006004104326413226,-0.083764,-35.615478
11.185,2.0,1.0,1.0,33.2,33.0,33.0,2.7,3.1,2.625,0.663034041524294,-0.0157318657129719,0.735558174964998,0.00596122444125339,-0.084816,-35.481709
11.185,2.0,1.0,1.0,33.2,33.0,33.0,2.7,3.1,2.6275,0.6570467956746602,-0.01602926007673202,0.7407476026124866,0.005914866199886047,-0.085889,-35.34732
11.185,2.0,1.0,1.0,33.2,33.0,33.0,2.7,3.1,2.63,0.6509806650491208,-0.016332308390929556,0.745918279682233,0.005864889541119807,-0.086986,-35.212298
11.185,2.0,1.0,1.0,33.2,33.0,33.0,2.7,3.1,2.6325,0.6448347077883335,-0.0166411345751721,0.7510693953310498,0.005811148555704003,-0.088107,-35.076632
11.185,2.0,1.0,1.0,33.2,33.0,33.0,2.7,3.1,2.635,0.638607968168458,-0.016955865652890142,0.7562001119871762,0.005753491214515894,-0.089252,-34.94031
11.185,2.0,1.0,1.0,33.2,33.0,33.0,2.7,3.1,2.6375,0.6322994764835196,-0.017276631831300023,0.7613095644187406,0.005691759082541455,-0.090422,-34.803319
11.185,2.0,1.0,1.0,33.2,33.0,33.0,2.7,3.1,2.64,0.6259082489333444,-0.017603566582974652,0.7663968587671152,0.0056257870178126074,-0.091617,-34.665647
11.185,2.0,1.0,1.0,33.2,33.0,33.0,2.7,3.1,2.6425,0.6194332875176589,-0.017936806728989466,0.7714610715436571,0.005555402854408603,-0.09284,-34.527281
11.185,2.0,1.0,1.0,33.2,33.0,33.0,2.7,3.1,2.645,0.6128735799369512,-0.018276492523601324,0.7765012485882711,0.005480427068570041,-0.094089,-34.388208
11.185,2.0,1.0,1.0,33.2,33.0,33.0,2.7,3.1,2.6475,0.6062280995007521,-0.01862276774041082,0.7815164039881328,0.00540067242690887,-0.095366,-34.248413
11.185,2.0,1.0,1.0,33.2,33.0,33.0,2.7,3.1,2.65,0.5994958050440288,-0.01897577975994189,0.7865055189548481,0.005315943615630371,-0.096673,-34.107885
11.185,2.0,1.0,1.0,33.2,33.0,33.0,2.7,3.1,2.6525,0.5926756408524573,-0.019335679658561235,0.7914675406582019,0.005226036849608062,-0.098009,-33.966608
11.185,2.0,1.0,1.0,33.2,33.0,33.0,2.7,3.1,2.655,0.585766536597355,-0.019702622298645323,0.7964013810145899,0.005130739460072889,-0.099376,-33.824568
11.185,2.0,1.0,1.0,33.2,33.0,33.0,2.7,3.1,2.6575,0.578767407281144,-0.02007676641988303,0.8013059154280977,0.0050298294595928685,-0.100775,-33.681751
11.185,2.0,1.0,1.0,33.2,33.0,33.0,2.7,3.1,2.66,0.5716771531942613,-0.020458274731584656,0.806179981482096,0.004923075082926023,-0.102206,-33.538143
11.185,2.0,1.0,1.0,33.2,33.0,33.0,2.7,3.1,2.6625,0.5644946598845063,-0.020847314005845236,0.8110223775790917,0.004810234302230294,-0.103671,-33.393727
11.185,2.0,1.0,1.0,33.2,33.0,33.0,2.7,3.1,2.665,0.5572187981398677,-0.02124405517138495,0.8158318615264747,0.004691054315006386,-0.105171,-33.248489
11.185,2.0,1.0,1.0,33.2,33.0,33.0,2.7,3.1,2.6675,0.5498484239859782,-0.021648673407863254,0.8206071490656324,0.00456527100303326,-0.106706,-33.102413
11.185,2.0,1.0,1.0,33.2,33.0,33.0,2.7,3.1,2.67,0.5423823786993967,-0.022061348240430812,0.8253469123417939,0.004432608360430607,-0.108279,-32.955482
11.185,2.0,1.0,1.0,33.2,33.0,33.0,2.7,3.1,2.6725,0.5348194888380196,-0.02248226363424927,0.8300497783118013,0.004292777888847136,-0.109889,-32.807681
11.185,2.0,1.0,1.0,33.2,33.0,33.0,2.7,3.1,2.675,0.5271585662900231,-0.022911608088670793,0.8347143270868308,0.004145477957626793,-0.111539,-32.658991
11.185,2.0,1.0,1.0,33.2,33.0,33.0,2.7,3.1,2.6775,0.519398408342827,-0.02334957473072272,0.839339090206934,0.003990393126646434,-0.11323,-32.509397
11.185,2.0,1.0,1.0,33.2,33.0,33.0,2.7,3.1,2.68,0.511537797773686,-0.023796361407497222,0.8439225488440659,0.0038271934293467127,-0.114963,-32.35888
11.185,2.0,1.0,1.0,33.2,33.0,33.0,2.7,3.1,2.6825,0.5035755029636442,-0.02425217077698722,0.8484631319300702,0.0036555336132919262,-0.116739,-32.207422
11.185,2.0,1.0,1.0,33.2,33.0,33.0,2.7,3.1,2.685,0.4955102780366985,-0.024717210396851378,0.8529592142058717,0.0034750523353922667,-0.11856,-32.055005
11.185,2.0,1.0,1.0,33.2,33.0,33.0,2.7,3.1,2.6875,0.48734086302617124,-0.025191692810517766,0.8574091141879037,0.0032853713087040858,-0.120427,-31.901609
11.185,2.0,1.0,1.0,33.2,33.0,33.0,2.7,3.1,2.69,0.47906598407044476,-0.025675835629960772,0.8618110920475199,0.0030860943974850806,-0.122343,-31.747216
11.185,2.0,1.0,1.0,33.2,33.0,33.0,2.7,3.1,2.6925,0.47068435364035877,-0.026169861614398018,0.866163347398912,0.002876806656923748,-0.124308,-31.591805
11.185,2.0,1.0,1.0,33.2,33.0,33.0,2.7,3.1,2.695,0.4621946708007856,-0.02667399874405209,0.8704640169907013,0.002657073313682217,-0.126325,-31.435356
11.185,2.0,1.0,1.0,33.2,33.0,33.0,2.7,3.1,2.6975,0.45359562150904414,-0.027188480288018024,0.8747111722961236,0.002426438683085146,-0.128395,-31.277848
11.185,2.0,1.0,1.0,33.2,33.0,33.0,2.7,3.1,2.7,0.4448858789530858,-0.027713544865144688,0.8789028169963158,0.0021844250184573015,-0.130521,-31.11926
11.185,2.0,1.0,1.0,33.2,33.0,33.0,2.7,3.1,2.7025,0.4360641039325628,-0.028249436496707123,0.8830368843508976,0.0019305312877480022,-0.132703,-30.959569
11.185,2.0,1.0,1.0,33.2,33.0,33.0,2.7,3.1,2.705,0.4271289452861923,-0.028796404649480814,0.8871112344495913,0.0016642318721890902,-0.134945,-30.798753
11.185,2.0,1.0,1.0,33.2,33.0,33.0,2.7,3.1,2.7075,0.4180790403690708,-0.029354704267660292,0.8911236513382204,0.001384975181300042,-0.137249,-30.636789
11.185,2.0,1.0,1.0,33.2,33.0,33.0,2.7,3.1,2.71,0.4089130155839391,-0.029924595791855375,0.8950718400119277,0.0010921821780875156,-0.139616,-30.473653
11.185,2.0,1.0,1.0,33.2,33.0,33.0,2.7,3.1,2.7125,0.399629486970693,-0.03050634516318369,0.8989534232679434,0.0007852448077701861,-0.14205,-30.30932
11.185,2.0,1.0,1.0,33.2,33.0,33.0,2.7,3.1,2.715,0.39022706085884573,-0.031100223810212903,0.9027659384096689,0.0004635243228029224,-0.144552,-30.143765
11.185,2.0,1.0,1.0,33.2,33.0,33.0,2.7,3.1,2.7175,0.38070433458803193,-0.03170650861622984,0.9065068337932273,0.00012634949635778706,-0.147126,-29.976963
11.185,2.0,1.0,1.0,33.2,33.0,33.0,2.7,3.1,2.72,0.3710598973021169,-0.03232548186398127,0.9101734652069517,-0.0002269852842490837,-0.149774,-29.808886
11.185,2.0,1.0,1.0,33.2,33.0,33.0,2.7,3.1,2.7225,0.36129233082294354,-0.03295743115467066,0.9137630920735598,-0.0005972220534333346,-0.152499,-29.639507
11.185,2.0,1.0,1.0,33.2,33.0,33.0,2.7,3.1,2.725,0.3514002106103566,-0.03360264929757815,0.9172728734639427,-0.000985141442573624,-0.155305,-29.468798
11.185,2.0,1.0,1.0,33.2,33.0,33.0,2.7,3.1,2.7275,0.34138210681569425,-0.034261434166202656,0.9206998639106431,-0.0013915650055371144,-0.158194,-29.296731
11.185,2.0,1.0,1.0,33.2,33.0,33.0,2.7,3.1,2.73,0.3312365854366891,-0.03493408851629274,0.9240410090080955,-0.0018173577064071536,-0.16117,-29.123274
11.185,2.0,1.0,1.0,33.2,33.0,33.0,2.7,3.1,2.7325,0.32096220958243216,-0.035620919760532145,0.9272931407856907,-0.0022634305823897452,-0.164236,-28.948398
11.185,2.0,1.0,1.0,33.2,33.0,33.0,2.7,3.1,2.735,0.31055754085793874,-0.03632223969395801,0.9304529728385145,-0.0027307435960465367,-0.167397,-28.77207
11.185,2.0,1.0,1.0,33.2,33.0,33.0,2.7,3.1,2.7375,0.30002114087879456,-0.03703836416341545,0.9335170951993811,-0.003220308692294046,-0.170657,-28.594257
11.185,2.0,1.0,1.0,33.2,33.0,33.0,2.7,3.1,2.74,0.28935157292743535,-0.037769612673464875,0.9364819689343448,-0.0037331930770284514,-0.174019,-28.414927
11.185,2.0,1.0,1.0,33.2,33.0,33.0,2.7,3.1,2.7425,0.27854740376380355,-0.03851630792015334,0.9393439204423387,-0.004270522735802843,-0.177488,-28.234043
11.185,2.0,1.0,1.0,33.2,33.0,33.0,2.7,3.1,2.745,0.2676072056044871,-0.039278775242912116,0.9420991354378918,-0.004833486212709084,-0.181069,-28.05157
11.185,2.0,1.0,1.0,33.2,33.0,33.0,2.7,3.1,2.7475,0.2565295582859555,-0.04005734198353378,0.9447436525939775,-0.005423338671522373,-0.184768,-27.867471
11.185,2.0,1.0,1.0,33.2,33.0,33.0,2.7,3.1,2.75,0.245313051629228,-0.0408523367396868,0.947273356819989,-0.006041406263271,-0.188588,-27.681707
11.185,2.0,1.0,1.0,33.2,33.0,33.0,2.7,3.1,2.7525,0.23395628802524648,-0.04166408849871347,0.9496839721475303,-0.006689090826718002,-0.192536,-27.494238
11.185,2.0,1.0,1.0,33.2,33.0,33.0,2.7,3.1,2.755,0.22245788526243548,-0.042492925635502644,0.9519710541941734,-0.007367874950812441,-0.196619,-27.305024
11.185,2.0,1.0,1.0,33.2,33.0,33.0,2.7,3.1,2.7575,0.2108164796203932,-0.04333917475598293,0.9541299821725362,-0.008079327431013701,-0.200841,-27.114021
11.185,2.0,1.0,1.0,33.2,33.0,33.0,2.7,3.1,2.76,0.199030729256554,-0.044203159365207204,0.9561559504089058,-0.008825109154538864,-0.205211,-26.921186
11.185,2.0,1.0,1.0,33.2,33.0,33.0,2.7,3.1,2.7625,0.18709931791583054,-0.04508519833604377,0.9580439593321969,-0.009606979453074427,-0.209735,-26.726474
11.185,2.0,1.0,1.0,33.2,33.0,33.0,2.7,3.1,2.765,0.17502095899699385,-0.04598560415108462,0.9597888058902061,-0.01042680296535847,-0.21442,-26.529836
11.185,2.0,1.0,1.0,33.2,33.0,33.0,2.7,3.1,2.7675,0.1627944000137456,-0.046904680886462505,0.9613850733458712,-0.011286557056326883,-0.219276,-26.331224
11.185,2.0,1.0,1.0,33.2,33.0,33.0,2.7,3.1,2.77,0.15041842749327494,-0.04784272190175043,0.9628271204015452,-0.012188339844276435,-0.22431,-26.130586
11.185,2.0,1.0,1.0,33.2,33.0,33.0,2.7,3.1,2.7725,0.13789187236067615,-0.04880000719489136,0.9641090695940424,-0.013134378892773454,-0.229533,-25.927872
11.185,2.0,1.0,1.0,33.2,33.0,33.0,2.7,3.1,2.775,0.1252136158639759,-0.04977680037507233,0.9652247948974079,-0.014127040629900542,-0.234953,-25.723025
11.185,2.0,1.0,1.0,33.2,33.0,33.0,2.7,3.1,2.7775,0.11238259610191476,-0.05077334519945719,0.9661679084638852,-0.015168840563940252,-0.240582,-25.515988
11.185,2.0,1.0,1.0,33.2,33.0,33.0,2.7,3.1,2.78,0.09939781522511479,-0.051789861611585004,0.9669317464263751,-0.016262454371824567,-0.246431,-25.306704
11.185,2.0,1.0,1.0,33.2,33.0,33.0,2.7,3.1,2.7825,0.08625834739117182,-0.05282654120980619,0.967509353677673,-0.01741072994470156,-0.252513,-25.09511
11.185,2.0,1.0,1.0,33.2,33.0,33.0,2.7,3.1,2.785,0.07296334756555432,-0.053883542063174236,0.9678934675328924,-0.0186167004838909,-0.258839,-24.881143
11.185,2.0,1.0,1.0,33.2,33.0,33.0,2.7,3.1,2.7875,0.05951206127355658,-0.054960982779416856,0.9680765001716094,-0.019883598750385634,-0.265425,-24.664736
11.185,2.0,1.0,1.0,33.2,33.0,33.0,2.7,3.1,2.79,0.04590383542390992,-0.05605893571470874,0.9680505197452821,-0.021214872582042972,-0.272285,-24.445821
11.185,2.0,1.0,1.0,33.2,33.0,33.0,2.7,3.1,2.7925,0.03213813034274023,-0.05717741919751797,0.9678072300233256,-0.0226142018047701,-0.279436,-24.224324
11.185,2.0,1.0,1.0,33.2,33.0,33.0,2.7,3.1,2.795,0.018214533177518543,-0.05831638861838949,0.9673379484377314,-0.02408551667749626,-0.286896,-24.000173
11.185,2.0,1.0,1.0,33.2,33.0,33.0,2.7,3.1,2.7975,0.004132772855386157,-0.0594757262135692,0.966633582371161,-0.025633018025619146,-0.294683,-23.773287
11.185,2.0,1.0,1.0,33.2,33.0,33.0,2.7,3.1,2.8,-0.010107263191000226,-0.06065522934223818,0.9656846035169261,-0.027261199234077254,-0.302818,-23.543587
11.185,2.0,1.0,1.0,33.2,33.0,33.0,2.7,3.1,2.8025,-0.024505510282926288,-0.06185459702400034,0.9644810201210526,-0.028974870289312536,-0.311324,-23.310986
11.185,2.0,1.0,1.0,33.2,33.0,33.0,2.7,3.1,2.805,-0.03906170545326072,-0.06307341446421318,0.9630123468966197,-0.0307791840792808,-0.320223,-23.075396
11.185,2.0,1.0,1.0,33.2,33.0,33.0,2.7,3.1,2.8075,-0.0537753637680319,-0.06431113524862564,0.9612675723786195,-0.032679665182420894,-0.329544,-22.836725
11.185,2.0,1.0,1.0,33.2,33.0,33.0,2.7,3.1,2.81,-0.06864575162194282,-0.06556706083420372,0.9592351234637415,-0.034682241400159526,-0.339314,-22.594875
11.185,2.0,1.0,1.0,33.2,33.0,33.0,2.7,3.1,2.8125,-0.0836718565518155,-0.0668403168983165,0.956902826853629,-0.0367932783131014,-0.349564,-22.349746
11.185,2.0,1.0,1.0,33.2,33.0,33.0,2.7,3.1,2.815,-0.09885235303365811,-0.06812982603162585,0.9542578670924325,-0.039019617168476184,-0.360329,-22.10123
11.185,2.0,1.0,1.0,33.2,33.0,33.0,2.7,3.1,2.8175,-0.11418556363592243,-0.06943427616859002,0.9512867408600731,-0.0413686164354485,-0.371645,-21.849218
11.185,2.0,1.0,1.0,33.2,33.0,33.0,2.7,3.1,2.82,-0.12966941479057853,-0.07075208404054074,0.9479752071518819,-0.04384819739521251,-0.383553,-21.593594
11.185,2.0,1.0,1.0,33.2,33.0,33.0,2.7,3.1,2.8225,-0.1453013863112708,-0.07208135280617767,0.9443082329438198,-0.046466894163741744,-0.396098,-21.334236
11.185,2.0,1.0,1.0,33.2,33.0,33.0,2.7,3.1,2.825,-0.1610784536295196,-0.07341982285869796,0.9402699339112663,-0.04923390857571207,-0.409329,-21.071017
11.185,2.0,1.0,1.0,33.2,33.0,33.0,2.7,3.1,2.8275,-0.1769970215303501,-0.07476481462229168,0.9358435097398252,-0.052159170387012295,-0.4233,-20.803803
