1,w,sub_t,h,l1,l2,l3,g1,g2,Freq,S11_re,S21_re,S11_img,S21_img,S11_dB,S21_dB
11.185,2.0,1.0,1.0,34.5,34.0,34.0,1.5,4.0,2.5,0.677707680808355,-0.0173942074130222,0.721884017489253,0.007790034822659,-0.085948,-34.398026
11.185,2.0,1.0,1.0,34.5,34.0,34.0,1.5,4.0,2.5025,0.6712808357355556,-0.017719067858638235,0.7277018074126457,0.007736607702938332,-0.086995,-34.273369
11.185,2.0,1.0,1.0,34.5,34.0,34.0,1.5,4.0,2.505,0.66476314859529,-0.01804940323636433,0.733496320634302,0.007678828089881817,-0.088063,-34.148266
11.185,2.0,1.0,1.0,34.5,34.0,34.0,1.5,4.0,2.5075,0.6581536282060265,-0.018385300006706618,0.7392665111775016,0.007616533654326885,-0.089152,-34.02271
11.185,2.0,1.0,1.0,34.5,34.0,34.0,1.5,4.0,2.51,0.6514512732941931,-0.018726845441690884,0.745011300875205,0.007549556194412295,-0.090263,-33.896694
11.185,2.0,1.0,1.0,34.5,34.0,34.0,1.5,4.0,2.5125,0.644655072638848,-0.01907412758323478,0.7507295783743032,0.00747772141353979,-0.091397,-33.77021
11.185,2.0,1.0,1.0,34.5,34.0,34.0,1.5,4.0,2.515,0.6377640052352895,-0.019427235196917435,0.7564201981096799,0.007400848689601971,-0.092553,-33.643253
11.185,2.0,1.0,1.0,34.5,34.0,34.0,1.5,4.0,2.5175,0.6307770404788309,-0.019786257720809927,0.7620819792472382,0.007318750835125462,-0.093732,-33.515813
11.185,2.0,1.0,1.0,34.5,34.0,34.0,1.5,4.0,2.52,0.6236931383699448,-0.020151285209009634,0.7677137045950242,0.007231233847964224,-0.094936,-33.387885
11.185,2.0,1.0,1.0,34.5,34.0,34.0,1.5,4.0,2.5225,0.6165112497421346,-0.020522408269494693,0.7733141194815392,0.007138096652164028,-0.096164,-33.259461
11.185,2.0,1.0,1.0,34.5,34.0,34.0,1.5,4.0,2.525,0.6092303165138937,-0.02089971799589201,0.778881930600359,0.007039130828603184,-0.097417,-33.130532
11.185,2.0,1.0,1.0,34.5,34.0,34.0,1.5,4.0,2.5275,0.6018492719662193,-0.021283305892722763,0.7844158048201344,0.006934120334999907,-0.098696,-33.001093
11.185,2.0,1.0,1.0,34.5,34.0,34.0,1.5,4.0,2.53,0.5943670410472366,-0.02167326379366073,0.7899143679590078,0.006822841214861125,-0.100001,-32.871134
11.185,2.0,1.0,1.0,34.5,34.0,34.0,1.5,4.0,2.5325,0.5867825407055514,-0.02206968377230726,0.7953762035225345,0.006705061294929246,-0.101334,-32.740649
11.185,2.0,1.0,1.0,34.5,34.0,34.0,1.5,4.0,2.535,0.5790946802540347,-0.022472658044953978,0.8007998514040998,0.0065805398706688485,-0.102695,-32.609629
11.185,2.0,1.0,1.0,34.5,34.0,34.0,1.5,4.0,2.5375,0.5713023617658817,-0.022882278864767656,0.8061838065468614,0.00644902737931516,-0.104084,-32.478066
11.185,2.0,1.0,1.0,34.5,34.0,34.0,1.5,4.0,2.54,0.5634044805048078,-0.023298638406794196,0.8115265175662291,0.006310265059989991,-0.105502,-32.345952
11.185,2.0,1.0,1.0,34.5,34.0,34.0,1.5,4.0,2.5425,0.5553999253914143,-0.023721828643138373,0.8168263853318442,0.006163984600370415,-0.106951,-32.21328
11.185,2.0,1.0,1.0,34.5,34.0,34.0,1.5,4.0,2.545,0.5472875795078378,-0.024151941207631394,0.8220817615080654,0.006009907769377369,-0.10843,-32.080041
11.185,2.0,1.0,1.0,34.5,34.0,34.0,1.5,4.0,2.5475,0.5390663206429088,-0.02458906724925279,0.8272909470518929,0.005847746035330782,-0.109941,-31.946226
11.185,2.0,1.0,1.0,34.5,34.0,34.0,1.5,4.0,2.55,0.530735021880158,-0.025033297273524217,0.8324521906673157,0.005677200168997236,-0.111485,-31.811828
11.185,2.0,1.0,1.0,34.5,34.0,34.0,1.5,4.0,2.5525,0.522292552231174,-0.025484720971037232,0.8375636872150164,0.005497959830936074,-0.113062,-31.676836
11.185,2.0,1.0,1.0,34.5,34.0,34.0,1.5,4.0,2.555,0.513737777316887,-0.025943427032223534,0.8426235760763601,0.0053097031425267055,-0.114674,-31.541244
11.185,2.0,1.0,1.0,34.5,34.0,34.0,1.5,4.0,2.5575,0.5050695600995422,-0.026409502947414017,0.8476299394706471,0.0051120962400392,-0.11632,-31.405042
11.185,2.0,1.0,1.0,34.5,34.0,34.0,1.5,4.0,2.56,0.496286761668258,-0.026883034791167697,0.8525808007245164,0.0049047928110864765,-0.118003,-31.268221
11.185,2.0,1.0,1.0,34.5,34.0,34.0,1.5,4.0,2.5625,0.4873882420812078,-0.027364106989783487,0.8574741224924628,0.004687433612774263,-0.119723,-31.130772
11.185,2.0,1.0,1.0,34.5,34.0,34.0,1.5,4.0,2.565,0.4783728612676363,-0.027852802070833835,0.8623078049274004,0.004459645970839702,-0.121482,-30.992686
11.185,2.0,1.0,1.0,34.5,34.0,34.0,1.5,4.0,2.5675,0.469239479993103,-0.028349200393477835,0.8670796838002135,0.00422104325904746,-0.12328,-30.853954
11.185,2.0,1.0,1.0,34.5,34.0,34.0,1.5,4.0,2.57,0.45998696089149793,-0.028853379858230038,0.8717875285672377,0.003971224358085806,-0.125118,-30.714566
11.185,2.0,1.0,1.0,34.5,34.0,34.0,1.5,4.0,2.5725,0.4506141695675875,-0.029365415594767387,0.87642904038466,0.0037097730931808584,-0.126998,-30.574513
11.185,2.0,1.0,1.0,34.5,34.0,34.0,1.5,4.0,2.575,0.4411199757740376,-0.029885379626260842,0.8810018500687914,0.00343625764962242,-0.128921,-30.433784
11.185,2.0,1.0,1.0,34.5,34.0,34.0,1.5,4.0,2.5775,0.43150325466706896,-0.03041334050861461,0.8855035160012166,0.003150229965368843,-0.130888,-30.292371
11.185,2.0,1.0,1.0,34.5,34.0,34.0,1.5,4.0,2.58,0.4217628881451468,-0.030949362942882776,0.8899315219778634,0.0028512250998724443,-0.1329,-30.150262
11.185,2.0,1.0,1.0,34.5,34.0,34.0,1.5,4.0,2.5825,0.41189776627527,-0.0314935073590157,0.8942832750010182,0.002538760578242296,-0.134959,-30.007449
11.185,2.0,1.0,1.0,34.5,34.0,34.0,1.5,4.0,2.585,0.40190678881176894,-0.032045829468958904,0.898556103013394,0.002212335709834203,-0.137066,-29.86392
11.185,2.0,1.0,1.0,34.5,34.0,34.0,1.5,4.0,2.5875,0.391788866812689,-0.032606379786991005,0.9027472525733758,0.0018714308803332203,-0.139223,-29.719666
11.185,2.0,1.0,1.0,34.5,34.0,34.0,1.5,4.0,2.59,0.3815429243591638,-0.03317520311503922,0.9068538864706124,0.001515506816368346,-0.14143,-29.574675
11.185,2.0,1.0,1.0,34.5,34.0,34.0,1.5,4.0,2.5925,0.37116790038343406,-0.0337523379905537,0.9108730812811962,0.001144003821673918,-0.143691,-29.428936
11.185,2.0,1.0,1.0,34.5,34.0,34.0,1.5,4.0,2.595,0.3606627506115069,-0.03433781609435205,0.9148018248617004,0.0007563409837895595,-0.146005,-29.28244
11.185,2.0,1.0,1.0,34.5,34.0,34.0,1.5,4.0,2.5975,0.3500264496267262,-0.034931661615664245,0.9186370137814679,0.0003519153502641426,-0.148375,-29.135174
11.185,2.0,1.0,1.0,34.5,34.0,34.0,1.5,4.0,2.6,0.3392579930608709,-0.035533890571412624,0.9223754506925586,-6.989892668893613e-05,-0.150802,-28.987128
11.185,2.0,1.0,1.0,34.5,34.0,34.0,1.5,4.0,2.6025,0.3283563999197937,-0.03614451007655062,0.926013841636903,-0.0005097514781621281,-0.153289,-28.838289
11.185,2.0,1.0,1.0,34.5,34.0,34.0,1.5,4.0,2.605,0.3173207150508974,-0.036763517562061296,0.92954879329028,-0.0009683166402443239,-0.155837,-28.688647
11.185,2.0,1.0,1.0,34.5,34.0,34.0,1.5,4.0,2.6075,0.3061500117602261,-0.03739089993697173,0.9329768101428618,-0.0014462944105431243,-0.158448,-28.538189
11.185,2.0,1.0,1.0,34.5,34.0,34.0,1.5,4.0,2.61,0.2948433945873165,-0.03802663269048009,0.9362942916161824,-0.0019444114406656759,-0.161124,-28.386902
11.185,2.0,1.0,1.0,34.5,34.0,34.0,1.5,4.0,2.6125,0.28340000224638073,-0.038670678930012164,0.9394975291165221,-0.002463422065796619,-0.163867,-28.234776
11.185,2.0,1.0,1.0,34.5,34.0,34.0,1.5,4.0,2.615,0.2718190107428891,-0.03932298835072237,0.9425827030248681,-0.0030041093725193405,-0.16668,-28.081797
11.185,2.0,1.0,1.0,34.5,34.0,34.0,1.5,4.0,2.6175,0.26009963667508096,-0.03998349613162782,0.9455458796237453,-0.0035672863060314335,-0.169564,-27.927952
11.185,2.0,1.0,1.0,34.5,34.0,34.0,1.5,4.0,2.62,0.2482411407304542,-0.0406521217532174,0.9483830079614324,-0.004153796817904854,-0.172522,-27.773228
11.185,2.0,1.0,1.0,34.5,34.0,34.0,1.5,4.0,2.6225,0.23624283138782112,-0.041328767730997654,0.9510899166542488,-0.0047645170555350985,-0.175557,-27.617612
11.185,2.0,1.0,1.0,34.5,34.0,34.0,1.5,4.0,2.625,0.224104068836124,-0.0420133182590316,0.953662310627839,-0.00540035659441056,-0.17867,-27.461091
11.185,2.0,1.0,1.0,34.5,34.0,34.0,1.5,4.0,2.6275,0.2118242691217433,-0.04270563775708949,0.956095767798618,-0.006062259714315302,-0.181865,-27.303651
11.185,2.0,1.0,1.0,34.5,34.0,34.0,1.5,4.0,2.63,0.19940290853676015,-0.04340556931455462,0.9583857356968157,-0.006751206720547973,-0.185145,-27.145277
11.185,2.0,1.0,1.0,34.5,34.0,34.0,1.5,4.0,2.6325,0.18683952826125522,-0.044112933023717577,0.9605275280328373,-0.007468215311202491,-0.188512,-26.985956
11.185,2.0,1.0,1.0,34.5,34.0,34.0,1.5,4.0,2.635,0.17413373927347597,-0.044827524194539614,0.9625163212089903,-0.00821434199150698,-0.191969,-26.825672
11.185,2.0,1.0,1.0,34.5,34.0,34.0,1.5,4.0,2.6375,0.16128522754248134,-0.04554911144236694,0.9643471507789848,-0.008990683536152714,-0.195519,-26.664411
11.185,2.0,1.0,1.0,34.5,34.0,34.0,1.5,4.0,2.64,0.1482937595186425,-0.046277434639435025,0.9660149078579737,-0.00979837850047126,-0.199167,-26.502158
11.185,2.0,1.0,1.0,34.5,34.0,34.0,1.5,4.0,2.6425,0.13515918793832044,-0.04701220272029815,0.967514335486354,-0.01063860878121873,-0.202914,-26.338896
11.185,2.0,1.0,1.0,34.5,34.0,34.0,1.5,4.0,2.645,0.1218814579598988,-0.04775309133056558,0.9688400249509942,-0.011512601227616086,-0.206765,-26.174611
11.185,2.0,1.0,1.0,34.5,34.0,34.0,1.5,4.0,2.6475,0.10846061364935904,-0.04849974030750181,0.9699864120680257,-0.01242162930315398,-0.210724,-26.009285
11.185,2.0,1.0,1.0,34.5,34.0,34.0,1.5,4.0,2.65,0.09489680483463274,-0.04925175098016196,0.9709477734319627,-0.013367014798513302,-0.214794,-25.842903
11.185,2.0,1.0,1.0,34.5,34.0,34.0,1.5,4.0,2.6525,0.081190294349106,-0.050008683275760385,0.9717182226364219,-0.014350129595753412,-0.21898,-25.675447
11.185,2.0,1.0,1.0,34.5,34.0,34.0,1.5,4.0,2.655,0.06734146568578704,-0.05077005261793044,0.9722917064724527,-0.015372397483703986,-0.223285,-25.5069
11.185,2.0,1.0,1.0,34.5,34.0,34.0,1.5,4.0,2.6575,0.05335083108498947,-0.05153532660138538,0.9726620011111451,-0.016435296024223698,-0.227715,-25.337244
11.185,2.0,1.0,1.0,34.5,34.0,34.0,1.5,4.0,2.66,0.0392190400797188,-0.052303921426255465,0.9728227082780193,-0.017540358468688285,-0.232273,-25.16646
11.185,2.0,1.0,1.0,34.5,34.0,34.0,1.5,4.0,2.6625,0.024946888524442882,-0.0530751980740256,0.9727672514275244,-0.018689175723706073,-0.236966,-24.994532
11.185,2.0,1.0,1.0,34.5,34.0,34.0,1.5,4.0,2.665,0.01053532813445661,-0.05384845820553047,0.9724888719269456,-0.01988339836464917,-0.241798,-24.821438
11.185,2.0,1.0,1.0,34.5,34.0,34.0,1.5,4.0,2.6675,-0.0040145234351762656,-0.05462293975986244,0.9719806252600451,-0.021124738695099315,-0.246774,-24.64716
11.185,2.0,1.0,1.0,34.5,34.0,34.0,1.5,4.0,2.67,-0.01870137194036776,-0.05539781223130398,0.9712353772618937,-0.022414972849755858,-0.2519,-24.471678
11.185,2.0,1.0,1.0,34.5,34.0,34.0,1.5,4.0,2.6725,-0.03352373529569518,-0.05617217159949182,0.9702458003976321,-0.02375594293770442,-0.257183,-24.29497
11.185,2.0,1.0,1.0,34.5,34.0,34.0,1.5,4.0,2.675,-0.048479931684152815,-0.05694503488594028,0.9690043700992401,-0.025149559222199,-0.262628,-24.117017
11.185,2.0,1.0,1.0,34.5,34.0,34.0,1.5,4.0,2.6775,-0.06356806699182235,-0.057715334307780496,0.9675033611759508,-0.02659780233225348,-0.268243,-23.937796
11.185,2.0,1.0,1.0,34.5,34.0,34.0,1.5,4.0,2.68,-0.07878602152778194,-0.05848191099708723,0.9657348443155999,-0.02810272550034454,-0.274033,-23.757285
11.185,2.0,1.0,1.0,34.5,34.0,34.0,1.5,4.0,2.6825,-0.09413143598689981,-0.05924350825144679,0.9636906826960864,-0.029666456819384717,-0.280007,-23.575462
11.185,2.0,1.0,1.0,34.5,34.0,34.0,1.5,4.0,2.685,-0.10960169661020767,-0.05999876427844247,0.9613625287281491,-0.03129120151080714,-0.286172,-23.392302
11.185,2.0,1.0,1.0,34.5,34.0,34.0,1.5,4.0,2.6875,-0.125193919494362,-0.0607462043934732,0.958741820952985,-0.0329792441940842,-0.292537,-23.207782
11.185,2.0,1.0,1.0,34.5,34.0,34.0,1.5,4.0,2.69,-0.14090493399818718,-0.06148423262674351,0.9558197811207607,-0.03473295114624854,-0.29911,-23.021877
11.185,2.0,1.0,1.0,34.5,34.0,34.0,1.5,4.0,2.6925,-0.1567312651905544,-0.062211122691341776,0.9525874114789178,-0.03655477253797012,-0.305899,-22.834562
11.185,2.0,1.0,1.0,34.5,34.0,34.0,1.5,4.0,2.695,-0.17266911527962203,-0.06292500826001309,0.9490354923023435,-0.03844724463040719,-0.312916,-22.64581
11.185,2.0,1.0,1.0,34.5,34.0,34.0,1.5,4.0,2.6975,-0.18871434395899891,-0.06362387249350808,0.9451545797010368,-0.040412991914372386,-0.320169,-22.455594
11.185,2.0,1.0,1.0,34.5,34.0,34.0,1.5,4.0,2.7,-0.20486244760134795,-0.06430553675818483,0.9409350037448877,-0.042454729170240055,-0.32767,-22.263886
11.185,2.0,1.0,1.0,34.5,34.0,34.0,1.5,4.0,2.7025,-0.221108537224561,-0.06496764846483098,0.9363668669496813,-0.044575263423453554,-0.335429,-22.070658
11.185,2.0,1.0,1.0,34.5,34.0,34.0,1.5,4.0,2.705,-0.2374473151495664,-0.06560766795438483,0.9314400431735147,-0.04677749576634031,-0.34346,-21.87588
11.185,2.0,1.0,1.0,34.5,34.0,34.0,1.5,4.0,2.7075,-0.2538730502623491,-0.06622285434932028,0.9261441769785318,-0.049064423012164834,-0.351774,-21.679522
11.185,2.0,1.0,1.0,34.5,34.0,34.0,1.5,4.0,2.71,-0.2703795517854354,-0.06681025028185122,0.9204686835193959,-0.05143913914180603,-0.360386,-21.481552
11.185,2.0,1.0,1.0,34.5,34.0,34.0,1.5,4.0,2.7125,-0.2869601414562057,-0.0673666654017353,0.9144027490273041,-0.05390483649703675,-0.36931,-21.281937
11.185,2.0,1.0,1.0,34.5,34.0,34.0,1.5,4.0,2.715,-0.30360762400060903,-0.06788865855724006,0.9079353319667385,-0.05646480666694748,-0.378561,-21.080644
11.185,2.0,1.0,1.0,34.5,34.0,34.0,1.5,4.0,2.7175,-0.320314255781184,-0.06837251853268934,0.9010551649518119,-0.05912244100543861,-0.388155,-20.877639
11.185,2.0,1.0,1.0,34.5,34.0,34.0,1.5,4.0,2.72,-0.3370717114876909,-0.06881424321484597,0.8937507575200164,-0.06188123070769352,-0.39811,-20.672885
11.185,2.0,1.0,1.0,34.5,34.0,34.0,1.5,4.0,2.7225,-0.3538710487269456,-0.06920951704811285,0.8860103998738152,-0.06474476636192482,-0.408445,-20.466346
11.185,2.0,1.0,1.0,34.5,34.0,34.0,1.5,4.0,2.725,-0.3707026703555175,-0.06955368662503758,0.8778221677150967,-0.06771673687915093,-0.419179,-20.257983
11.185,2.0,1.0,1.0,34.5,34.0,34.0,1.5,4.0,2.7275,-0.3875562843848295,-0.06984173424379254,0.8691739283141291,-0.0708009276880356,-0.430333,-20.047756
11.185,2.0,1.0,1.0,34.5,34.0,34.0,1.5,4.0,2.73,-0.40442086127250726,-0.07006824924803977,0.8600533479740914,-0.07400121806346609,-0.44193,-19.835626
11.185,2.0,1.0,1.0,34.5,34.0,34.0,1.5,4.0,2.7325,-0.4212845883967797,-0.070227396946789,0.850447901074536,-0.07732157743617285,-0.453994,-19.621548
11.185,2.0,1.0,1.0,34.5,34.0,34.0,1.5,4.0,2.735,-0.43813482149185556,-0.07031288489238009,0.8403448809031189,-0.08076606050571877,-0.466552,-19.40548
11.185,2.0,1.0,1.0,34.5,34.0,34.0,1.5,4.0,2.7375,-0.4549580328017155,-0.07031792627348445,0.8297314125150199,-0.08433880095002376,-0.47963,-19.187375
11.185,2.0,1.0,1.0,34.5,34.0,34.0,1.5,4.0,2.74,-0.4717397556872806,-0.07023520015691126,0.8185944678945613,-0.08804400349047634,-0.493259,-18.967188
11.185,2.0,1.0,1.0,34.5,34.0,34.0,1.5,4.0,2.7425,-0.4884645253975617,-0.0700568082869641,0.806920883734345,-0.09188593403176373,-0.507472,-18.744868
11.185,2.0,1.0,1.0,34.5,34.0,34.0,1.5,4.0,2.745,-0.5051158156889828,-0.06977422812407064,0.7946973821949813,-0.09586890754877612,-0.522302,-18.520366
11.185,2.0,1.0,1.0,34.5,34.0,34.0,1.5,4.0,2.7475,-0.5216759709486704,-0.06937826177541818,0.7819105950641907,-0.0999972733380995,-0.537787,-18.293629
11.185,2.0,1.0,1.0,34.5,34.0,34.0,1.5,4.0,2.75,-0.53812613344712,-0.0688589804394457,0.768547091799384,-0.104275397187262,-0.553967,-18.064603
11.185,2.0,1.0,1.0,34.5,34.0,34.0,1.5,4.0,2.7525,-0.554446165313501,-0.06820566395343948,0.7545934120143242,-0.1087076399393201,-0.570887,-17.833232
11.185,2.0,1.0,1.0,34.5,34.0,34.0,1.5,4.0,2.755,-0.5706145647931715,-0.06740673499948022,0.7400361030602645,-0.11329833184155585,-0.588592,-17.599457
11.185,2.0,1.0,1.0,34.5,34.0,34.0,1.5,4.0,2.7575,-0.5866083763122871,-0.06644968748906932,0.7248617634574358,-0.1180517419626247,-0.607135,-17.363219
11.185,2.0,1.0,1.0,34.5,34.0,34.0,1.5,4.0,2.76,-0.60240309383935,-0.06532100861169021,0.7090570930567145,-0.12297204183958674,-0.626569,-17.124455
11.185,2.0,1.0,1.0,34.5,34.0,34.0,1.5,4.0,2.7625,-0.6179725569993358,-0.06400609399840335,0.6926089509571848,-0.12806326237161283,-0.646957,-16.883101
11.185,2.0,1.0,1.0,34.5,34.0,34.0,1.5,4.0,2.765,-0.6332888393639737,-0.0624891554198621,0.6755044223769843,-0.13332924280679034,-0.668363,-16.63909
11.185,2.0,1.0,1.0,34.5,34.0,34.0,1.5,4.0,2.7675,-0.6483221283141539,-0.060753120411001595,0.6577308958770223,-0.13877357046780645,-0.690858,-16.392354
11.185,2.0,1.0,1.0,34.5,34.0,34.0,1.5,4.0,2.77,-0.6630405958500505,-0.05877952319498527,0.639276152575194,-0.1443995096259508,-0.714522,-16.14282
11.185,2.0,1.0,1.0,34.5,34.0,34.0,1.5,4.0,2.7725,-0.6774102597152927,-0.056548386270731235,0.6201284692692314,-0.15020991765449904,-0.739438,-15.890417
11.185,2.0,1.0,1.0,34.5,34.0,34.0,1.5,4.0,2.775,-0.6913948342087408,-0.0540380920367733,0.6002767377163936,-0.15620714626483428,-0.7657,-15.635068
11.185,2.0,1.0,1.0,34.5,34.0,34.0,1.5,4.0,2.7775,-0.704955570088133,-0.05122524385635955,0.5797106027067792,-0.1623929252430731,-0.793411,-15.376696
11.185,2.0,1.0,1.0,34.5,34.0,34.0,1.5,4.0,2.78,-0.7180510830334067,-0.04808451603392019,0.5584206220236109,-0.16876822565176966,-0.822682,-15.115221
11.185,2.0,1.0,1.0,34.5,34.0,34.0,1.5,4.0,2.7825,-0.7306371702462383,-0.04458849228365482,0.5363984519200181,-0.17533309892930038,-0.853639,-14.850563
11.185,2.0,1.0,1.0,34.5,34.0,34.0,1.5,4.0,2.785,-0.7426666149326132,-0.04070749244317327,0.5136370623699109,-0.18208648769639565,-0.886417,-14.582637
11.185,2.0,1.0,1.0,34.5,34.0,34.0,1.5,4.0,2.7875,-0.7540889786681221,-0.036409387440098494,0.490130987084628,-0.189026003351044,-0.921167,-14.311359
11.185,2.0,1.0,1.0,34.5,34.0,34.0,1.5,4.0,2.79,-0.7648503820092284,-0.031659402884848385,0.4658766141420478,-0.19614766468493375,-0.958055,-14.036644
11.185,2.0,1.0,1.0,34.5,34.0,34.0,1.5,4.0,2.7925,-0.7748932742236699,-0.026419912174371382,0.4408725240665527,-0.20344559077105756,-0.997267,-13.758405
11.185,2.0,1.0,1.0,34.5,34.0,34.0,1.5,4.0,2.795,-0.7841561937163922,-0.02065022069570652,0.41511988334171035,-0.21091164023799644,-1.039009,-13.476555
11.185,2.0,1.0,1.0,34.5,34.0,34.0,1.5,4.0,2.7975,-0.792573521683753,-0.014306343674650107,0.38862290264698374,-0.2185349877478939,-1.083508,-13.191008
11.185,2.0,1.0,1.0,34.5,34.0,34.0,1.5,4.0,2.8,-0.8000752328153443,-0.007340781499925654,0.36138937059425746,-0.2263016270227394,-1.131019,-12.901679
11.185,2.0,1.0,1.0,34.5,34.0,34.0,1.5,4.0,2.8025,-0.806586648577543,0.00029770193533810356,0.3334312754025311,-0.23419378811464395,-1.181827,-12.608486
11.185,2.0,1.0,1.0,34.5,34.0,34.0,1.5,4.0,2.805,-0.8120282008800046,0.008664290072011539,0.3047655287788713,-0.242189254800625,-1.236252,-12.311348
11.185,2.0,1.0,1.0,34.5,34.0,34.0,1.5,4.0,2.8075,-0.8163152169014504,0.01781830293494417,0.275414808240004,-0.25026056603124086,-1.294651,-12.010191
11.185,2.0,1.0,1.0,34.5,34.0,34.0,1.5,4.0,2.81,-0.8193577397277452,0.027823350163751752,0.24540853614949268,-0.258374083336812,-1.357427,-11.704949
11.185,2.0,1.0,1.0,34.5,34.0,34.0,1.5,4.0,2.8125,-0.821060404470404,0.0387474281982149,0.214784015750105,-0.266488904103611,-1.425032,-11.39556
11.185,2.0,1.0,1.0,34.5,34.0,34.0,1.5,4.0,2.815,-0.8213223959730145,0.05066293557932528,0.18358774625982396,-0.2745555988533962,-1.497981,-11.081978
11.185,2.0,1.0,1.0,34.5,34.0,34.0,1.5,4.0,2.8175,-0.8200375224122914,0.0636465721619737,0.15187694039194352,-0.2825147493711013,-1.576853,-10.764168
11.185,2.0,1.0,1.0,34.5,34.0,34.0,1.5,4.0,2.82,-0.8170944494417699,0.07777907773674288,0.11972126803065297,-0.29029526414751955,-1.662306,-10.442116
11.185,2.0,1.0,1.0,34.5,34.0,34.0,1.5,4.0,2.8225,-0.8123771524220249,0.09314475271339756,0.0872048486208241,-0.29781244875376084,-1.755088,-10.115829
11.185,2.0,1.0,1.0,34.5,34.0,34.0,1.5,4.0,2.825,-0.8057656601414734,0.10983068771653581,0.05442851122059028,-0.30496581232817765,-1.856054,-9.78534
11.185,2.0,1.0,1.0,34.5,34.0,34.0,1.5,4.0,2.8275,-0.7971371825979103,0.1279256098391063,0.0215123338655646,-0.3116365985776819,-1.966177,-9.450718
11.185,2.0,1.0,1.0,34.5,34.0,34.0,1.5,4.0,2.83,-0.7863677380449303,0.14751823072259473,-0.011401538812141239,-0.3176850422780922,-2.086573,-9.112071
