1,w,sub_t,h,l1,l2,l3,g1,g2,Freq,S11_re,S21_re,S11_img,S21_img,S11_dB,S21_dB
11.185,2.0,1.0,1.0,33.7,33.0,33.0,4.1,3.7,2.5,0.827007627850569,-0.00527581114752598,0.551520093291535,0.00298901671834558,-0.051921,-44.345252
11.185,2.0,1.0,1.0,33.7,33.0,33.0,4.1,3.7,2.5025,0.8232019210480492,-0.005367891556782308,0.557093960751903,0.002984427435448551,-0.052364,-44.23416
11.185,2.0,1.0,1.0,33.7,33.0,33.0,4.1,3.7,2.505,0.819342128655509,-0.005461251971799448,0.5626642661268768,0.002978978965084754,-0.052815,-44.122936
11.185,2.0,1.0,1.0,33.7,33.0,33.0,4.1,3.7,2.5075,0.8154277494308495,-0.0055559093681710634,0.5682307050998304,0.002972645848984444,-0.053272,-44.011575
11.185,2.0,1.0,1.0,33.7,33.0,33.0,4.1,3.7,2.51,0.8114582754195571,-0.005651880936936363,0.5737929648463284,0.002965401900575179,-0.053737,-43.90007
11.185,2.0,1.0,1.0,33.7,33.0,33.0,4.1,3.7,2.5125,0.8074331918925189,-0.005749184085022274,0.5793507237849203,0.0029572201823526065,-0.054208,-43.788417
11.185,2.0,1.0,1.0,33.7,33.0,33.0,4.1,3.7,2.515,0.8033519772850186,-0.005847836435514448,0.5849036513208569,0.002948072982496126,-0.054688,-43.676609
11.185,2.0,1.0,1.0,33.7,33.0,33.0,4.1,3.7,2.5175,0.799214103137045,-0.005947855827744574,0.5904514075825066,0.002937931790702335,-0.055174,-43.564641
11.185,2.0,1.0,1.0,33.7,33.0,33.0,4.1,3.7,2.52,0.7950190340350366,-0.006049260317180865,0.5959936431502912,0.0029267672732083993,-0.055668,-43.452507
11.185,2.0,1.0,1.0,33.7,33.0,33.0,4.1,3.7,2.5225,0.7907662275552161,-0.0061520681751072856,0.6015299987779072,0.0029145492469762036,-0.05617,-43.340202
11.185,2.0,1.0,1.0,33.7,33.0,33.0,4.1,3.7,2.525,0.7864551342086434,-0.006256297888077203,0.6070601051056387,0.002901246653006971,-0.05668,-43.227719
11.185,2.0,1.0,1.0,33.7,33.0,33.0,4.1,3.7,2.5275,0.7820851973881529,-0.006361968157125439,0.6125835823655346,0.002886827528755088,-0.057199,-43.115053
11.185,2.0,1.0,1.0,33.7,33.0,33.0,4.1,3.7,2.53,0.7776558533173359,-0.006469097896722153,0.6181000400782222,0.0028712589796084645,-0.057725,-43.002199
11.185,2.0,1.0,1.0,33.7,33.0,33.0,4.1,3.7,2.5325,0.7731665310017404,-0.006577706233451069,0.6236090767411303,0.0028545071494016374,-0.05826,-42.88915
11.185,2.0,1.0,1.0,33.7,33.0,33.0,4.1,3.7,2.535,0.7686166521824647,-0.006687812504393516,0.6291102795078852,0.002836537189926184,-0.058803,-42.7759
11.185,2.0,1.0,1.0,33.7,33.0,33.0,4.1,3.7,2.5375,0.7640056312923476,-0.00679943625519848,0.6346032238586368,0.0028173132294021033,-0.059356,-42.662445
11.185,2.0,1.0,1.0,33.7,33.0,33.0,4.1,3.7,2.54,0.759332875414943,-0.006912597237818137,0.640087473261064,0.002796798339872132,-0.059917,-42.548777
11.185,2.0,1.0,1.0,33.7,33.0,33.0,4.1,3.7,2.5425,0.754597784246501,-0.007027315407886807,0.6455625788218142,0.0027749545034791473,-0.060487,-42.434891
11.185,2.0,1.0,1.0,33.7,33.0,33.0,4.1,3.7,2.545,0.7497997500611717,-0.007143610921720249,0.6510280789281123,0.0027517425775859345,-0.061067,-42.320782
11.185,2.0,1.0,1.0,33.7,33.0,33.0,4.1,3.7,2.5475,0.7449381576796761,-0.007261504132910578,0.6564834988792667,0.0027271222586942928,-0.061656,-42.206443
11.185,2.0,1.0,1.0,33.7,33.0,33.0,4.1,3.7,2.55,0.7400123844416776,-0.007381015588491309,0.6619283505078218,0.0027010520451191296,-0.062255,-42.091867
11.185,2.0,1.0,1.0,33.7,33.0,33.0,4.1,3.7,2.5525,0.7350218001821329,-0.007502166024644668,0.6673621317900509,0.0026734891983712953,-0.062864,-41.97705
11.185,2.0,1.0,1.0,33.7,33.0,33.0,4.1,3.7,2.555,0.7299657672118799,-0.0076249763619226415,0.6727843264455319,0.0026443897032009246,-0.063483,-41.861985
11.185,2.0,1.0,1.0,33.7,33.0,33.0,4.1,3.7,2.5575,0.7248436403027574,-0.007749467699951172,0.6781944035255049,0.0026137082262513685,-0.064113,-41.746666
11.185,2.0,1.0,1.0,33.7,33.0,33.0,4.1,3.7,2.56,0.7196547666775613,-0.007875661311584903,0.6835918169897144,0.002581398073271344,-0.064753,-41.631087
11.185,2.0,1.0,1.0,33.7,33.0,33.0,4.1,3.7,2.5625,0.7143984860051552,-0.008003578636478739,0.6889760052714392,0.0025474111448313694,-0.065403,-41.515241
11.185,2.0,1.0,1.0,33.7,33.0,33.0,4.1,3.7,2.565,0.7090741304010634,-0.008133241274039976,0.6943463908304032,0.00251169789048756,-0.066065,-41.399122
11.185,2.0,1.0,1.0,33.7,33.0,33.0,4.1,3.7,2.5675,0.7036810244339093,-0.00826467097572291,0.6997023796932453,0.002474207261334402,-0.066738,-41.282725
11.185,2.0,1.0,1.0,33.7,33.0,33.0,4.1,3.7,2.57,0.698218485138062,-0.008397889636625624,0.7050433609812395,0.0024348866608848055,-0.067423,-41.166042
11.185,2.0,1.0,1.0,33.7,33.0,33.0,4.1,3.7,2.5725,0.6926858220328761,-0.008532919286346745,0.710368706424933,0.0023936818942137767,-0.068119,-41.049068
11.185,2.0,1.0,1.0,33.7,33.0,33.0,4.1,3.7,2.575,0.6870823371489396,-0.008669782079056733,0.7156777698653732,0.0023505371152991263,-0.068827,-40.931795
11.185,2.0,1.0,1.0,33.7,33.0,33.0,4.1,3.7,2.5775,0.6814073250617523,-0.008808500282736734,0.7209698867415855,0.0023053947724898448,-0.069548,-40.814218
11.185,2.0,1.0,1.0,33.7,33.0,33.0,4.1,3.7,2.58,0.6756600729332883,-0.008949096267534342,0.7262443735639554,0.0022581955520297532,-0.070281,-40.696329
11.185,2.0,1.0,1.0,33.7,33.0,33.0,4.1,3.7,2.5825,0.6698398605619084,-0.00909159249318363,0.7315005273731771,0.002208878319561022,-0.071027,-40.578123
11.185,2.0,1.0,1.0,33.7,33.0,33.0,4.1,3.7,2.585,0.6639459604411219,-0.009236011495433263,0.7367376251843988,0.0021573800595288887,-0.071786,-40.459593
11.185,2.0,1.0,1.0,33.7,33.0,33.0,4.1,3.7,2.5875,0.657977637827711,-0.009382375871423503,0.7419549234162237,0.002103635812405487,-0.072558,-40.340731
11.185,2.0,1.0,1.0,33.7,33.0,33.0,4.1,3.7,2.59,0.6519341508197697,-0.009530708263949438,0.7471516573041842,0.002047578609646969,-0.073344,-40.221531
11.185,2.0,1.0,1.0,33.7,33.0,33.0,4.1,3.7,2.5925,0.645814750445214,-0.009681031344544571,0.7523270402983375,0.0019891394062944946,-0.074144,-40.101986
11.185,2.0,1.0,1.0,33.7,33.0,33.0,4.1,3.7,2.595,0.6396186807613827,-0.009833367795314447,0.757480263444591,0.0019282470111258376,-0.074958,-39.982089
11.185,2.0,1.0,1.0,33.7,33.0,33.0,4.1,3.7,2.5975,0.6333451789663311,-0.009987740289446788,0.7626104947493962,0.001864828014259478,-0.075787,-39.861834
11.185,2.0,1.0,1.0,33.7,33.0,33.0,4.1,3.7,2.6,0.6269934755224903,-0.010144171470319943,0.7677168785274228,0.0017988067121097661,-0.07663,-39.741212
11.185,2.0,1.0,1.0,33.7,33.0,33.0,4.1,3.7,2.6025,0.6205627942933787,-0.010302683929126758,0.7727985347318197,0.0017301050295860409,-0.077489,-39.620218
11.185,2.0,1.0,1.0,33.7,33.0,33.0,4.1,3.7,2.605,0.6140523526940769,-0.010463300180926978,0.7778545582666901,0.0016586424394242323,-0.078363,-39.498843
11.185,2.0,1.0,1.0,33.7,33.0,33.0,4.1,3.7,2.6075,0.6074613618562323,-0.010626042639035573,0.7828840182813745,0.0015843358785345152,-0.079254,-39.37708
11.185,2.0,1.0,1.0,33.7,33.0,33.0,4.1,3.7,2.61,0.6007890268083772,-0.010790933587649184,0.7878859574461571,0.001507099661242481,-0.08016,-39.254922
11.185,2.0,1.0,1.0,33.7,33.0,33.0,4.1,3.7,2.6125,0.5940345466723914,-0.010957995152607692,0.7928593912089926,0.001426845389296261,-0.081083,-39.132362
11.185,2.0,1.0,1.0,33.7,33.0,33.0,4.1,3.7,2.615,0.5871971148769662,-0.01112724927018143,0.7978033070328697,0.0013434818585054797,-0.082024,-39.009391
11.185,2.0,1.0,1.0,33.7,33.0,33.0,4.1,3.7,2.6175,0.5802759193889926,-0.011298717653768305,0.8027166636133946,0.0012569149618716997,-0.082982,-38.886002
11.185,2.0,1.0,1.0,33.7,33.0,33.0,4.1,3.7,2.62,0.5732701429638053,-0.011472421758378527,0.8075983900762153,0.0011670475890632893,-0.083957,-38.762187
11.185,2.0,1.0,1.0,33.7,33.0,33.0,4.1,3.7,2.6225,0.5661789634152787,-0.011648382742777564,0.8124473851538809,0.0010737795220803128,-0.084951,-38.637938
11.185,2.0,1.0,1.0,33.7,33.0,33.0,4.1,3.7,2.625,0.559001553906826,-0.0118266214291497,0.817262516341739,0.000977007326947406,-0.085964,-38.513248
11.185,2.0,1.0,1.0,33.7,33.0,33.0,4.1,3.7,2.6275,0.5517370832643596,-0.012007158260137579,0.8220426190324887,0.0008766242412648109,-0.086995,-38.388108
11.185,2.0,1.0,1.0,33.7,33.0,33.0,4.1,3.7,2.63,0.5443847163123683,-0.0121900132531035,0.8267864956289886,0.000772520057438783,-0.088047,-38.262509
11.185,2.0,1.0,1.0,33.7,33.0,33.0,4.1,3.7,2.6325,0.5369436142342845,-0.012375205951449603,0.8314929146349456,0.0006645810014035877,-0.089118,-38.136444
11.185,2.0,1.0,1.0,33.7,33.0,33.0,4.1,3.7,2.635,0.5294129349583827,-0.012562755372824674,0.8361606097230945,0.0005526896066379791,-0.09021,-38.009904
11.185,2.0,1.0,1.0,33.7,33.0,33.0,4.1,3.7,2.6375,0.5217918335705055,-0.012752679954033815,0.8407882787805028,0.00043672458326833265,-0.091323,-37.882881
11.185,2.0,1.0,1.0,33.7,33.0,33.0,4.1,3.7,2.64,0.5140794627549548,-0.012944997492457904,0.8453745829306358,0.0003165606820395806,-0.092458,-37.755364
11.185,2.0,1.0,1.0,33.7,33.0,33.0,4.1,3.7,2.6425,0.5062749732649734,-0.013139725083776508,0.8499181455318211,0.00019206855292393336,-0.093614,-37.627347
11.185,2.0,1.0,1.0,33.7,33.0,33.0,4.1,3.7,2.645,0.49837751442427786,-0.013336879055776173,0.8544175511517687,6.311459812451127e-05,-0.094793,-37.498818
11.185,2.0,1.0,1.0,33.7,33.0,33.0,4.1,3.7,2.6475,0.49038623466118586,-0.013536474898012477,0.8588713445178111,-7.043918078225285e-05,-0.095996,-37.369771
11.185,2.0,1.0,1.0,33.7,33.0,33.0,4.1,3.7,2.65,0.48230028207692544,-0.013738527187080267,0.8632780294425539,-0.00020873534183589348,-0.097222,-37.240194
11.185,2.0,1.0,1.0,33.7,33.0,33.0,4.1,3.7,2.6525,0.4741188050498261,-0.013943049507230442,0.8676360677246054,-0.000351921168097701,-0.098473,-37.110079
11.185,2.0,1.0,1.0,33.7,33.0,33.0,4.1,3.7,2.655,0.46584095287710137,-0.014150054366056581,0.8719438780241252,-0.0005001488397754775,-0.099748,-36.979415
11.185,2.0,1.0,1.0,33.7,33.0,33.0,4.1,3.7,2.6575,0.4574658764560652,-0.014359553104956128,0.8761998347129005,-0.0006535756133860218,-0.101049,-36.848194
11.185,2.0,1.0,1.0,33.7,33.0,33.0,4.1,3.7,2.66,0.44899272900666054,-0.014571555804053128,0.8804022666987085,-0.0008123640082930104,-0.102376,-36.716404
11.185,2.0,1.0,1.0,33.7,33.0,33.0,4.1,3.7,2.6625,0.4404206668372918,-0.014786071181248653,0.8845494562237319,-0.0009766820009782526,-0.103731,-36.584036
11.185,2.0,1.0,1.0,33.7,33.0,33.0,4.1,3.7,2.665,0.43174885015599046,-0.01500310648504474,0.8886396376368288,-0.0011467032274256972,-0.105113,-36.45108
11.185,2.0,1.0,1.0,33.7,33.0,33.0,4.1,3.7,2.6675,0.42297644392908945,-0.015222667380763258,0.8926709961394703,-0.0013226071940201452,-0.106523,-36.317524
11.185,2.0,1.0,1.0,33.7,33.0,33.0,4.1,3.7,2.67,0.41410261878960963,-0.015444757829757764,0.8966416665052055,-0.0015045794973885217,-0.107962,-36.183358
11.185,2.0,1.0,1.0,33.7,33.0,33.0,4.1,3.7,2.6725,0.4051265519976889,-0.015669379961189205,0.9005497317725303,-0.0016928120536373913,-0.109431,-36.04857
11.185,2.0,1.0,1.0,33.7,33.0,33.0,4.1,3.7,2.675,0.3960474284554768,-0.015896533935907505,0.9043932219110737,-0.0018875033374697228,-0.110931,-35.91315
11.185,2.0,1.0,1.0,33.7,33.0,33.0,4.1,3.7,2.6775,0.3868644417790009,-0.016126217801950865,0.9081701124610561,-0.0020888586316947996,-0.112462,-35.777086
11.185,2.0,1.0,1.0,33.7,33.0,33.0,4.1,3.7,2.68,0.37757679542961947,-0.016358427341141207,0.911878323146003,-0.0022970902876794513,-0.114026,-35.640366
11.185,2.0,1.0,1.0,33.7,33.0,33.0,4.1,3.7,2.6825,0.3681837039077909,-0.01659315590621793,0.915515716458745,-0.0025124179973239256,-0.115622,-35.502979
11.185,2.0,1.0,1.0,33.7,33.0,33.0,4.1,3.7,2.685,0.35868439401197344,-0.016830394247914392,0.9190800962207746,-0.002735069077186208,-0.117253,-35.364911
11.185,2.0,1.0,1.0,33.7,33.0,33.0,4.1,3.7,2.6875,0.3490781061656002,-0.01707013033133855,0.9225692061150809,-0.002965278765420642,-0.118919,-35.22615
11.185,2.0,1.0,1.0,33.7,33.0,33.0,4.1,3.7,2.69,0.3393640958151954,-0.017312349140974626,0.9259807281926162,-0.0032032905322426693,-0.12062,-35.086684
11.185,2.0,1.0,1.0,33.7,33.0,33.0,4.1,3.7,2.6925,0.3295416349027756,-0.017557032473573497,0.9293122813526251,-0.0034493564046819652,-0.122359,-34.9465
11.185,2.0,1.0,1.0,33.7,33.0,33.0,4.1,3.7,2.695,0.3196100134158759,-0.01780415871814526,0.9325614197970865,-0.00370373730643995,-0.124136,-34.805583
11.185,2.0,1.0,1.0,33.7,33.0,33.0,4.1,3.7,2.6975,0.30956854101857856,-0.018053702622211006,0.9357256314596092,-0.003966703413727701,-0.125951,-34.66392
11.185,2.0,1.0,1.0,33.7,33.0,33.0,4.1,3.7,2.7,0.29941654876713697,-0.018305635043406102,0.9388023364091429,-0.00423853452802297,-0.127807,-34.521497
11.185,2.0,1.0,1.0,33.7,33.0,33.0,4.1,3.7,2.7025,0.28915339091386194,-0.018559922685459997,0.9417888852289583,-0.004519520466756462,-0.129705,-34.3783
11.185,2.0,1.0,1.0,33.7,33.0,33.0,4.1,3.7,2.705,0.2787784468031172,-0.018816527817501365,0.9446825573713832,-0.004809961473011976,-0.131644,-34.234313
11.185,2.0,1.0,1.0,33.7,33.0,33.0,4.1,3.7,2.7075,0.26829112286339085,-0.019075407975556718,0.9474805594888632,-0.0051101686454096355,-0.133628,-34.089521
11.185,2.0,1.0,1.0,33.7,33.0,33.0,4.1,3.7,2.71,0.25769085469958775,-0.01933651564502013,0.9501800237419663,-0.005420464389430144,-0.135657,-33.943909
11.185,2.0,1.0,1.0,33.7,33.0,33.0,4.1,3.7,2.7125,0.24697710928980832,-0.01959979792277449,0.9527780060850158,-0.005741182891538293,-0.137732,-33.79746
11.185,2.0,1.0,1.0,33.7,33.0,33.0,4.1,3.7,2.715,0.23614938729108342,-0.01986519615753655,0.9552714845301072,-0.00607267061757092,-0.139855,-33.650158
11.185,2.0,1.0,1.0,33.7,33.0,33.0,4.1,3.7,2.7175,0.22520722545866792,-0.020132645566880762,0.9576573573903137,-0.006415286836973113,-0.142028,-33.501986
11.185,2.0,1.0,1.0,33.7,33.0,33.0,4.1,3.7,2.72,0.21415019918371048,-0.020402074829266148,0.9599324415029526,-0.006769404174595096,-0.144251,-33.352927
11.185,2.0,1.0,1.0,33.7,33.0,33.0,4.1,3.7,2.7225,0.20297792515425314,-0.02067340564924921,0.962093470433852,-0.007135409191904671,-0.146526,-33.202962
11.185,2.0,1.0,1.0,33.7,33.0,33.0,4.1,3.7,2.725,0.19169006414477438,-0.020946552293906115,0.9641370926635853,-0.0075137029996238105,-0.148856,-33.052073
11.185,2.0,1.0,1.0,33.7,33.0,33.0,4.1,3.7,2.7275,0.18028632393961794,-0.02122142109831595,0.9660598697567268,-0.007904701903970085,-0.151241,-32.90024
11.185,2.0,1.0,1.0,33.7,33.0,33.0,4.1,3.7,2.73,0.16876646239593915,-0.021497909937762665,0.9678582745151925,-0.008308838088868023,-0.153684,-32.747445
11.185,2.0,1.0,1.0,33.7,33.0,33.0,4.1,3.7,2.7325,0.15713029065196552,-0.02177590766410153,0.969528689116788,-0.008726560336703342,-0.156186,-32.593665
11.185,2.0,1.0,1.0,33.7,33.0,33.0,4.1,3.7,2.735,0.1453776764866631,-0.02205529350349925,0.9710674032400994,-0.009158334790415851,-0.15875,-32.438882
11.185,2.0,1.0,1.0,33.7,33.0,33.0,4.1,3.7,2.7375,0.13350854783711172,-0.022335936412495084,0.9724706121768851,-0.009604645759977562,-0.161376,-32.283072
11.185,2.0,1.0,1.0,33.7,33.0,33.0,4.1,3.7,2.74,0.12152289648021875,-0.022617694389038275,0.9737344149331192,-0.010065996576573559,-0.164068,-32.126214
11.185,2.0,1.0,1.0,33.7,33.0,33.0,4.1,3.7,2.7425,0.10942078188564336,-0.022900413734833654,0.9748548123198271,-0.010542910498105695,-0.166828,-31.968285
11.185,2.0,1.0,1.0,33.7,33.0,33.0,4.1,3.7,2.745,0.0972023352471813,-0.023183928264962888,0.9758277050348115,-0.011035931669970196,-0.169658,-31.809259
11.185,2.0,1.0,1.0,33.7,33.0,33.0,4.1,3.7,2.7475,0.08486776370016971,-0.023468058460347045,0.9766488917363076,-0.011545626145426164,-0.17256,-31.649114
11.185,2.0,1.0,1.0,33.7,33.0,33.0,4.1,3.7,2.75,0.0724173547328751,-0.0237526105581614,0.977314067109513,-0.0120725829702767,-0.175537,-31.487822
11.185,2.0,1.0,1.0,33.7,33.0,33.0,4.1,3.7,2.7525,0.059851480800243426,-0.024037375574808055,0.9778188199268248,-0.012617415337029361,-0.178591,-31.325357
11.185,2.0,1.0,1.0,33.7,33.0,33.0,4.1,3.7,2.755,0.0471706041488695,-0.024322128255481912,0.9781586311024476,-0.013180761814196845,-0.181726,-31.161692
11.185,2.0,1.0,1.0,33.7,33.0,33.0,4.1,3.7,2.7575,0.03437528186251137,-0.024606625943728568,0.9783288717418261,-0.013763287656944498,-0.184944,-30.996798
11.185,2.0,1.0,1.0,33.7,33.0,33.0,4.1,3.7,2.76,0.02146617113812885,-0.0248906073636713,0.9783248011861283,-0.01436568620589313,-0.188248,-30.830645
11.185,2.0,1.0,1.0,33.7,33.0,33.0,4.1,3.7,2.7625,0.008444034802986935,-0.025173791306775984,0.9781415650516516,-0.014988680381556643,-0.191642,-30.663203
11.185,2.0,1.0,1.0,33.7,33.0,33.0,4.1,3.7,2.765,-0.004690252915851121,-0.025455875214107335,0.9777741932636809,-0.015633024282632246,-0.195129,-30.494438
11.185,2.0,1.0,1.0,33.7,33.0,33.0,4.1,3.7,2.7675,-0.01793570035752361,-0.025736533643996397,0.9772175980838516,-0.016299504897183285,-0.198712,-30.324319
11.185,2.0,1.0,1.0,33.7,33.0,33.0,4.1,3.7,2.77,-0.031291192115824,-0.026015416613869233,0.976466572129526,-0.016988943936666126,-0.202395,-30.15281
11.185,2.0,1.0,1.0,33.7,33.0,33.0,4.1,3.7,2.7725,-0.04475548243599436,-0.026292147803659495,0.9755157863830637,-0.01770219980376219,-0.206182,-29.979874
11.185,2.0,1.0,1.0,33.7,33.0,33.0,4.1,3.7,2.775,-0.05832718830454936,-0.026566322606720923,0.9743597881880918,-0.01844016970610045,-0.210078,-29.805475
11.185,2.0,1.0,1.0,33.7,33.0,33.0,4.1,3.7,2.7775,-0.07200478221543713,-0.026837506012442558,0.9729929992290104,-0.01920379192920198,-0.214086,-29.629572
11.185,2.0,1.0,1.0,33.7,33.0,33.0,4.1,3.7,2.78,-0.08578658459426795,-0.027105230302816526,0.9714097134889266,-0.01999404828336724,-0.218212,-29.452125
11.185,2.0,1.0,1.0,33.7,33.0,33.0,4.1,3.7,2.7825,-0.0996707558604652,-0.02736899254298078,0.9696040951800301,-0.020811966740765738,-0.222461,-29.273092
11.185,2.0,1.0,1.0,33.7,33.0,33.0,4.1,3.7,2.785,-0.1136552881051634,-0.027628251843213873,0.9675701766390253,-0.021658624280709658,-0.226836,-29.092426
11.185,2.0,1.0,1.0,33.7,33.0,33.0,4.1,3.7,2.7875,-0.12773799636013852,-0.027882426366943634,0.9653018561786552,-0.022535149962997963,-0.231346,-28.910081
11.185,2.0,1.0,1.0,33.7,33.0,33.0,4.1,3.7,2.79,-0.14191650943029652,-0.028130890055990333,0.9627928958845136,-0.02344272825135097,-0.235994,-28.726009
11.185,2.0,1.0,1.0,33.7,33.0,33.0,4.1,3.7,2.7925,-0.15618826025888724,-0.028372969040424963,0.9600369193442593,-0.024382602611320508,-0.240787,-28.540157
11.185,2.0,1.0,1.0,33.7,33.0,33.0,4.1,3.7,2.795,-0.17055047579084348,-0.02860793769600785,0.9570274092939217,-0.025356079409707737,-0.245733,-28.352473
11.185,2.0,1.0,1.0,33.7,33.0,33.0,4.1,3.7,2.7975,-0.18500016629506963,-0.02883501430707841,0.9537577051632873,-0.026364532145456792,-0.250838,-28.162899
11.185,2.0,1.0,1.0,33.7,33.0,33.0,4.1,3.7,2.8,-0.19953411410138916,-0.029053356286889438,0.950221000499209,-0.02740940604527994,-0.256109,-27.971377
11.185,2.0,1.0,1.0,33.7,33.0,33.0,4.1,3.7,2.8025,-0.21414886170167025,-0.02926205490057403,0.9464103402421543,-0.028492223060920557,-0.261556,-27.777845
11.185,2.0,1.0,1.0,33.7,33.0,33.0,4.1,3.7,2.805,-0.2288406991574827,-0.029460129428049462,0.9423186178273022,-0.02961458730903418,-0.267186,-27.582237
11.185,2.0,1.0,1.0,33.7,33.0,33.0,4.1,3.7,2.8075,-0.24360565074827606,-0.029646520695002402,0.9379385720769438,-0.030778190999206766,-0.273009,-27.384485
11.185,2.0,1.0,1.0,33.7,33.0,33.0,4.1,3.7,2.81,-0.2584394607841423,-0.029820083889443738,0.9332627838458126,-0.031984820900678855,-0.279035,-27.184517
11.185,2.0,1.0,1.0,33.7,33.0,33.0,4.1,3.7,2.8125,-0.273337578495601,-0.0299795805688931,0.928283672375197,-0.0332363654039623,-0.285275,-26.982256
11.185,2.0,1.0,1.0,33.7,33.0,33.0,4.1,3.7,2.815,-0.2882951418991443,-0.030123669748732516,0.9229934913051747,-0.03453482223978327,-0.29174,-26.777622
11.185,2.0,1.0,1.0,33.7,33.0,33.0,4.1,3.7,2.8175,-0.30330696052107575,-0.030250897945263772,0.917384324287021,-0.0358823069247115,-0.298442,-26.570532
11.185,2.0,1.0,1.0,33.7,33.0,33.0,4.1,3.7,2.82,-0.31836749684301796,-0.030359688027049424,0.9114480801296779,-0.03728106201051135,-0.305396,-26.360895
11.185,2.0,1.0,1.0,33.7,33.0,33.0,4.1,3.7,2.8225,-0.3334708463097826,-0.03044832670464316,0.9051764874050799,-0.03873346722272939,-0.312616,-26.148619
11.185,2.0,1.0,1.0,33.7,33.0,33.0,4.1,3.7,2.825,-0.34861071571336844,-0.030514950461145968,0.8985610884270228,-0.040242050583371256,-0.320117,-25.933602
